!Murata Part Number: GRM0225C1H2R2CA03
!These Parameters are Measured in Series Mode Connection
!Data Generated on Mar 30, 2021
!       o--ll--o
!Port1            Port2
!       o------o
!Operation Temp=25[degC], DC Bias Voltage=0[V]
!Freq. Start=100[MHz] Stop=9[GHz] 401[Steps]
# Hz S RI R 50
!Freq.(Hz) S11(Real) S11(Imag) S21(Real) S21(Imag) S12(Real) S12(Imag) S22(Real) S22(Imag)
100000000 0.9812021 -0.1356475 0.0187979 0.1356475 0.0187979 0.1356475 0.9812021 -0.1356475
121000000 0.9727124 -0.1627221 0.0272876 0.1627221 0.0272876 0.1627221 0.9727124 -0.1627221
142000000 0.9627959 -0.1890284 0.0372041 0.1890284 0.0372041 0.1890284 0.9627959 -0.1890284
163000000 0.9515423 -0.2144629 0.0484577 0.2144629 0.0484577 0.2144629 0.9515423 -0.2144629
184000000 0.9390498 -0.2389347 0.0609502 0.2389347 0.0609502 0.2389347 0.9390498 -0.2389347
205000000 0.9254236 -0.2623661 0.0745764 0.2623661 0.0745764 0.2623661 0.9254236 -0.2623661
226000000 0.9107737 -0.2846931 0.0892263 0.2846931 0.0892263 0.2846931 0.9107737 -0.2846931
247000000 0.8952126 -0.3058650 0.1047874 0.3058650 0.1047874 0.3058650 0.8952126 -0.3058650
268000000 0.8788541 -0.3258449 0.1211459 0.3258449 0.1211459 0.3258449 0.8788541 -0.3258449
289000000 0.8618109 -0.3446084 0.1381891 0.3446084 0.1381891 0.3446084 0.8618109 -0.3446084
310000000 0.8441935 -0.3621430 0.1558065 0.3621430 0.1558065 0.3621430 0.8441935 -0.3621430
331000000 0.8261089 -0.3784477 0.1738911 0.3784477 0.1738911 0.3784477 0.8261089 -0.3784477
352000000 0.8076592 -0.3935312 0.1923408 0.3935312 0.1923408 0.3935312 0.8076592 -0.3935312
373000000 0.7889411 -0.4074113 0.2110589 0.4074113 0.2110589 0.4074113 0.7889411 -0.4074113
394000000 0.7700449 -0.4201137 0.2299551 0.4201137 0.2299551 0.4201137 0.7700449 -0.4201137
415000000 0.7510543 -0.4316703 0.2489457 0.4316703 0.2489457 0.4316703 0.7510543 -0.4316703
436000000 0.7320459 -0.4421189 0.2679541 0.4421189 0.2679541 0.4421189 0.7320459 -0.4421189
457000000 0.7130895 -0.4515016 0.2869105 0.4515016 0.2869105 0.4515016 0.7130895 -0.4515016
478000000 0.6942474 -0.4598636 0.3057526 0.4598636 0.3057526 0.4598636 0.6942474 -0.4598636
499000000 0.6755752 -0.4672530 0.3244248 0.4672530 0.3244248 0.4672530 0.6755752 -0.4672530
520000000 0.6571219 -0.4737192 0.3428781 0.4737192 0.3428781 0.4737192 0.6571219 -0.4737192
541000000 0.6389300 -0.4793128 0.3610700 0.4793128 0.3610700 0.4793128 0.6389300 -0.4793128
562000000 0.6210360 -0.4840844 0.3789640 0.4840844 0.3789640 0.4840844 0.6210360 -0.4840844
583000000 0.6034707 -0.4880845 0.3965293 0.4880845 0.3965293 0.4880845 0.6034707 -0.4880845
604000000 0.5862597 -0.4913627 0.4137403 0.4913627 0.4137403 0.4913627 0.5862597 -0.4913627
625000000 0.5694241 -0.4939677 0.4305759 0.4939677 0.4305759 0.4939677 0.5694241 -0.4939677
646000000 0.5529802 -0.4959466 0.4470198 0.4959466 0.4470198 0.4959466 0.5529802 -0.4959466
667000000 0.5369409 -0.4973449 0.4630591 0.4973449 0.4630591 0.4973449 0.5369409 -0.4973449
688000000 0.5213151 -0.4982061 0.4786849 0.4982061 0.4786849 0.4982061 0.5213151 -0.4982061
709000000 0.5061090 -0.4985719 0.4938910 0.4985719 0.4938910 0.4985719 0.5061090 -0.4985719
730000000 0.4913258 -0.4984820 0.5086742 0.4984820 0.5086742 0.4984820 0.4913258 -0.4984820
751000000 0.4769663 -0.4979739 0.5230337 0.4979739 0.5230337 0.4979739 0.4769663 -0.4979739
772000000 0.4630294 -0.4970828 0.5369706 0.4970828 0.5369706 0.4970828 0.4630294 -0.4970828
793000000 0.4495120 -0.4958422 0.5504880 0.4958422 0.5504880 0.4958422 0.4495120 -0.4958422
814000000 0.4364095 -0.4942832 0.5635905 0.4942832 0.5635905 0.4942832 0.4364095 -0.4942832
835000000 0.4237161 -0.4924351 0.5762839 0.4924351 0.5762839 0.4924351 0.4237161 -0.4924351
856000000 0.4114248 -0.4903251 0.5885752 0.4903251 0.5885752 0.4903251 0.4114248 -0.4903251
877000000 0.3995278 -0.4879785 0.6004722 0.4879785 0.6004722 0.4879785 0.3995278 -0.4879785
898000000 0.3880164 -0.4854191 0.6119836 0.4854191 0.6119836 0.4854191 0.3880164 -0.4854191
919000000 0.3768817 -0.4826687 0.6231183 0.4826687 0.6231183 0.4826687 0.3768817 -0.4826687
940000000 0.3661139 -0.4797475 0.6338861 0.4797475 0.6338861 0.4797475 0.3661139 -0.4797475
961000000 0.3557032 -0.4766744 0.6442968 0.4766744 0.6442968 0.4766744 0.3557032 -0.4766744
982000000 0.3456395 -0.4734665 0.6543605 0.4734665 0.6543605 0.4734665 0.3456395 -0.4734665
1003000000 0.3359125 -0.4701398 0.6640875 0.4701398 0.6640875 0.4701398 0.3359125 -0.4701398
1024000000 0.3265118 -0.4667090 0.6734882 0.4667090 0.6734882 0.4667090 0.3265118 -0.4667090
1045000000 0.3174272 -0.4631876 0.6825728 0.4631876 0.6825728 0.4631876 0.3174272 -0.4631876
1066000000 0.3086485 -0.4595880 0.6913515 0.4595880 0.6913515 0.4595880 0.3086485 -0.4595880
1087000000 0.3001654 -0.4559215 0.6998346 0.4559215 0.6998346 0.4559215 0.3001654 -0.4559215
1108000000 0.2919679 -0.4521985 0.7080321 0.4521985 0.7080321 0.4521985 0.2919679 -0.4521985
1129000000 0.2840463 -0.4484286 0.7159537 0.4484286 0.7159537 0.4484286 0.2840463 -0.4484286
1150000000 0.2763908 -0.4446204 0.7236092 0.4446204 0.7236092 0.4446204 0.2763908 -0.4446204
1171000000 0.2689921 -0.4407818 0.7310079 0.4407818 0.7310079 0.4407818 0.2689921 -0.4407818
1192000000 0.2618410 -0.4369200 0.7381590 0.4369200 0.7381590 0.4369200 0.2618410 -0.4369200
1213000000 0.2549285 -0.4330417 0.7450715 0.4330417 0.7450715 0.4330417 0.2549285 -0.4330417
1234000000 0.2482459 -0.4291529 0.7517541 0.4291529 0.7517541 0.4291529 0.2482459 -0.4291529
1255000000 0.2417849 -0.4252588 0.7582151 0.4252588 0.7582151 0.4252588 0.2417849 -0.4252588
1276000000 0.2355372 -0.4213645 0.7644628 0.4213645 0.7644628 0.4213645 0.2355372 -0.4213645
1297000000 0.2294950 -0.4174744 0.7705050 0.4174744 0.7705050 0.4174744 0.2294950 -0.4174744
1318000000 0.2236507 -0.4135924 0.7763493 0.4135924 0.7763493 0.4135924 0.2236507 -0.4135924
1339000000 0.2179969 -0.4097223 0.7820031 0.4097223 0.7820031 0.4097223 0.2179969 -0.4097223
1360000000 0.2125265 -0.4058672 0.7874735 0.4058672 0.7874735 0.4058672 0.2125265 -0.4058672
1381000000 0.2072326 -0.4020302 0.7927674 0.4020302 0.7927674 0.4020302 0.2072326 -0.4020302
1402000000 0.2021087 -0.3982137 0.7978913 0.3982137 0.7978913 0.3982137 0.2021087 -0.3982137
1423000000 0.1971484 -0.3944201 0.8028516 0.3944201 0.8028516 0.3944201 0.1971484 -0.3944201
1444000000 0.1923457 -0.3906516 0.8076543 0.3906516 0.8076543 0.3906516 0.1923457 -0.3906516
1465000000 0.1876945 -0.3869099 0.8123055 0.3869099 0.8123055 0.3869099 0.1876945 -0.3869099
1486000000 0.1831894 -0.3831966 0.8168106 0.3831966 0.8168106 0.3831966 0.1831894 -0.3831966
1507000000 0.1788249 -0.3795133 0.8211751 0.3795133 0.8211751 0.3795133 0.1788249 -0.3795133
1528000000 0.1745957 -0.3758610 0.8254043 0.3758610 0.8254043 0.3758610 0.1745957 -0.3758610
1549000000 0.1704969 -0.3722410 0.8295031 0.3722410 0.8295031 0.3722410 0.1704969 -0.3722410
1570000000 0.1665236 -0.3686542 0.8334764 0.3686542 0.8334764 0.3686542 0.1665236 -0.3686542
1591000000 0.1626713 -0.3651013 0.8373287 0.3651013 0.8373287 0.3651013 0.1626713 -0.3651013
1612000000 0.1589354 -0.3615830 0.8410646 0.3615830 0.8410646 0.3615830 0.1589354 -0.3615830
1633000000 0.1553119 -0.3580999 0.8446881 0.3580999 0.8446881 0.3580999 0.1553119 -0.3580999
1654000000 0.1517965 -0.3546524 0.8482035 0.3546524 0.8482035 0.3546524 0.1517965 -0.3546524
1675000000 0.1483854 -0.3512409 0.8516146 0.3512409 0.8516146 0.3512409 0.1483854 -0.3512409
1696000000 0.1450748 -0.3478656 0.8549252 0.3478656 0.8549252 0.3478656 0.1450748 -0.3478656
1717000000 0.1418610 -0.3445268 0.8581390 0.3445268 0.8581390 0.3445268 0.1418610 -0.3445268
1738000000 0.1387407 -0.3412245 0.8612593 0.3412245 0.8612593 0.3412245 0.1387407 -0.3412245
1759000000 0.1357105 -0.3379589 0.8642895 0.3379589 0.8642895 0.3379589 0.1357105 -0.3379589
1780000000 0.1327672 -0.3347300 0.8672328 0.3347300 0.8672328 0.3347300 0.1327672 -0.3347300
1801000000 0.1299078 -0.3315376 0.8700922 0.3315376 0.8700922 0.3315376 0.1299078 -0.3315376
1822000000 0.1271293 -0.3283817 0.8728707 0.3283817 0.8728707 0.3283817 0.1271293 -0.3283817
1843000000 0.1244289 -0.3252622 0.8755711 0.3252622 0.8755711 0.3252622 0.1244289 -0.3252622
1864000000 0.1218038 -0.3221789 0.8781962 0.3221789 0.8781962 0.3221789 0.1218038 -0.3221789
1885000000 0.1192516 -0.3191315 0.8807484 0.3191315 0.8807484 0.3191315 0.1192516 -0.3191315
1906000000 0.1167696 -0.3161199 0.8832304 0.3161199 0.8832304 0.3161199 0.1167696 -0.3161199
1927000000 0.1143555 -0.3131438 0.8856445 0.3131438 0.8856445 0.3131438 0.1143555 -0.3131438
1948000000 0.1120070 -0.3102028 0.8879930 0.3102028 0.8879930 0.3102028 0.1120070 -0.3102028
1969000000 0.1097219 -0.3072967 0.8902781 0.3072967 0.8902781 0.3072967 0.1097219 -0.3072967
1990000000 0.1074980 -0.3044252 0.8925020 0.3044252 0.8925020 0.3044252 0.1074980 -0.3044252
2011000000 0.1053333 -0.3015879 0.8946667 0.3015879 0.8946667 0.3015879 0.1053333 -0.3015879
2032000000 0.1032259 -0.2987844 0.8967741 0.2987844 0.8967741 0.2987844 0.1032259 -0.2987844
2053000000 0.1011738 -0.2960143 0.8988262 0.2960143 0.8988262 0.2960143 0.1011738 -0.2960143
2074000000 0.0991752 -0.2932774 0.9008248 0.2932774 0.9008248 0.2932774 0.0991752 -0.2932774
2095000000 0.0972285 -0.2905731 0.9027715 0.2905731 0.9027715 0.2905731 0.0972285 -0.2905731
2116000000 0.0953318 -0.2879011 0.9046682 0.2879011 0.9046682 0.2879011 0.0953318 -0.2879011
2137000000 0.0934837 -0.2852611 0.9065163 0.2852611 0.9065163 0.2852611 0.0934837 -0.2852611
2158000000 0.0916825 -0.2826525 0.9083175 0.2826525 0.9083175 0.2826525 0.0916825 -0.2826525
2179000000 0.0899267 -0.2800749 0.9100733 0.2800749 0.9100733 0.2800749 0.0899267 -0.2800749
2200000000 0.0882150 -0.2775280 0.9117850 0.2775280 0.9117850 0.2775280 0.0882150 -0.2775280
2221000000 0.0865459 -0.2750114 0.9134541 0.2750114 0.9134541 0.2750114 0.0865459 -0.2750114
2242000000 0.0849180 -0.2725246 0.9150820 0.2725246 0.9150820 0.2725246 0.0849180 -0.2725246
2263000000 0.0833303 -0.2700671 0.9166697 0.2700671 0.9166697 0.2700671 0.0833303 -0.2700671
2284000000 0.0817812 -0.2676387 0.9182188 0.2676387 0.9182188 0.2676387 0.0817812 -0.2676387
2305000000 0.0802698 -0.2652388 0.9197302 0.2652388 0.9197302 0.2652388 0.0802698 -0.2652388
2326000000 0.0787949 -0.2628670 0.9212051 0.2628670 0.9212051 0.2628670 0.0787949 -0.2628670
2347000000 0.0773552 -0.2605230 0.9226448 0.2605230 0.9226448 0.2605230 0.0773552 -0.2605230
2368000000 0.0759499 -0.2582062 0.9240501 0.2582062 0.9240501 0.2582062 0.0759499 -0.2582062
2389000000 0.0745777 -0.2559164 0.9254223 0.2559164 0.9254223 0.2559164 0.0745777 -0.2559164
2410000000 0.0732379 -0.2536531 0.9267621 0.2536531 0.9267621 0.2536531 0.0732379 -0.2536531
2431000000 0.0719293 -0.2514159 0.9280707 0.2514159 0.9280707 0.2514159 0.0719293 -0.2514159
2452000000 0.0706512 -0.2492044 0.9293488 0.2492044 0.9293488 0.2492044 0.0706512 -0.2492044
2473000000 0.0694025 -0.2470182 0.9305975 0.2470182 0.9305975 0.2470182 0.0694025 -0.2470182
2494000000 0.0681825 -0.2448569 0.9318175 0.2448569 0.9318175 0.2448569 0.0681825 -0.2448569
2515000000 0.0669903 -0.2427202 0.9330097 0.2427202 0.9330097 0.2427202 0.0669903 -0.2427202
2536000000 0.0658250 -0.2406076 0.9341750 0.2406076 0.9341750 0.2406076 0.0658250 -0.2406076
2557000000 0.0646861 -0.2385187 0.9353139 0.2385187 0.9353139 0.2385187 0.0646861 -0.2385187
2578000000 0.0635726 -0.2364533 0.9364274 0.2364533 0.9364274 0.2364533 0.0635726 -0.2364533
2599000000 0.0624839 -0.2344109 0.9375161 0.2344109 0.9375161 0.2344109 0.0624839 -0.2344109
2620000000 0.0614194 -0.2323912 0.9385806 0.2323912 0.9385806 0.2323912 0.0614194 -0.2323912
2641000000 0.0603782 -0.2303938 0.9396218 0.2303938 0.9396218 0.2303938 0.0603782 -0.2303938
2662000000 0.0593598 -0.2284183 0.9406402 0.2284183 0.9406402 0.2284183 0.0593598 -0.2284183
2683000000 0.0583635 -0.2264645 0.9416365 0.2264645 0.9416365 0.2264645 0.0583635 -0.2264645
2704000000 0.0573888 -0.2245320 0.9426112 0.2245320 0.9426112 0.2245320 0.0573888 -0.2245320
2725000000 0.0564350 -0.2226204 0.9435650 0.2226204 0.9435650 0.2226204 0.0564350 -0.2226204
2746000000 0.0555016 -0.2207294 0.9444984 0.2207294 0.9444984 0.2207294 0.0555016 -0.2207294
2767000000 0.0545880 -0.2188587 0.9454120 0.2188587 0.9454120 0.2188587 0.0545880 -0.2188587
2788000000 0.0536938 -0.2170079 0.9463062 0.2170079 0.9463062 0.2170079 0.0536938 -0.2170079
2809000000 0.0528183 -0.2151768 0.9471817 0.2151768 0.9471817 0.2151768 0.0528183 -0.2151768
2830000000 0.0519612 -0.2133651 0.9480388 0.2133651 0.9480388 0.2133651 0.0519612 -0.2133651
2851000000 0.0511218 -0.2115724 0.9488782 0.2115724 0.9488782 0.2115724 0.0511218 -0.2115724
2872000000 0.0502998 -0.2097984 0.9497002 0.2097984 0.9497002 0.2097984 0.0502998 -0.2097984
2893000000 0.0494948 -0.2080428 0.9505052 0.2080428 0.9505052 0.2080428 0.0494948 -0.2080428
2914000000 0.0487062 -0.2063054 0.9512938 0.2063054 0.9512938 0.2063054 0.0487062 -0.2063054
2935000000 0.0479336 -0.2045859 0.9520664 0.2045859 0.9520664 0.2045859 0.0479336 -0.2045859
2956000000 0.0471767 -0.2028840 0.9528233 0.2028840 0.9528233 0.2028840 0.0471767 -0.2028840
2977000000 0.0464350 -0.2011993 0.9535650 0.2011993 0.9535650 0.2011993 0.0464350 -0.2011993
2998000000 0.0457081 -0.1995317 0.9542919 0.1995317 0.9542919 0.1995317 0.0457081 -0.1995317
3019000000 0.0449958 -0.1978809 0.9550042 0.1978809 0.9550042 0.1978809 0.0449958 -0.1978809
3040000000 0.0442976 -0.1962466 0.9557024 0.1962466 0.9557024 0.1962466 0.0442976 -0.1962466
3061000000 0.0436131 -0.1946285 0.9563869 0.1946285 0.9563869 0.1946285 0.0436131 -0.1946285
3082000000 0.0429421 -0.1930265 0.9570579 0.1930265 0.9570579 0.1930265 0.0429421 -0.1930265
3103000000 0.0422842 -0.1914402 0.9577158 0.1914402 0.9577158 0.1914402 0.0422842 -0.1914402
3124000000 0.0416391 -0.1898694 0.9583609 0.1898694 0.9583609 0.1898694 0.0416391 -0.1898694
3145000000 0.0410065 -0.1883138 0.9589935 0.1883138 0.9589935 0.1883138 0.0410065 -0.1883138
3166000000 0.0403860 -0.1867734 0.9596140 0.1867734 0.9596140 0.1867734 0.0403860 -0.1867734
3187000000 0.0397775 -0.1852477 0.9602225 0.1852477 0.9602225 0.1852477 0.0397775 -0.1852477
3208000000 0.0391805 -0.1837366 0.9608195 0.1837366 0.9608195 0.1837366 0.0391805 -0.1837366
3229000000 0.0385949 -0.1822399 0.9614051 0.1822399 0.9614051 0.1822399 0.0385949 -0.1822399
3250000000 0.0380203 -0.1807573 0.9619797 0.1807573 0.9619797 0.1807573 0.0380203 -0.1807573
3271000000 0.0374565 -0.1792886 0.9625435 0.1792886 0.9625435 0.1792886 0.0374565 -0.1792886
3292000000 0.0369033 -0.1778336 0.9630967 0.1778336 0.9630967 0.1778336 0.0369033 -0.1778336
3313000000 0.0363604 -0.1763922 0.9636396 0.1763922 0.9636396 0.1763922 0.0363604 -0.1763922
3334000000 0.0358276 -0.1749641 0.9641724 0.1749641 0.9641724 0.1749641 0.0358276 -0.1749641
3355000000 0.0353046 -0.1735490 0.9646954 0.1735490 0.9646954 0.1735490 0.0353046 -0.1735490
3376000000 0.0347912 -0.1721469 0.9652088 0.1721469 0.9652088 0.1721469 0.0347912 -0.1721469
3397000000 0.0342873 -0.1707575 0.9657127 0.1707575 0.9657127 0.1707575 0.0342873 -0.1707575
3418000000 0.0337925 -0.1693806 0.9662075 0.1693806 0.9662075 0.1693806 0.0337925 -0.1693806
3439000000 0.0333067 -0.1680161 0.9666933 0.1680161 0.9666933 0.1680161 0.0333067 -0.1680161
3460000000 0.0328297 -0.1666637 0.9671703 0.1666637 0.9671703 0.1666637 0.0328297 -0.1666637
3481000000 0.0323612 -0.1653233 0.9676388 0.1653233 0.9676388 0.1653233 0.0323612 -0.1653233
3502000000 0.0319012 -0.1639947 0.9680988 0.1639947 0.9680988 0.1639947 0.0319012 -0.1639947
3523000000 0.0314494 -0.1626777 0.9685506 0.1626777 0.9685506 0.1626777 0.0314494 -0.1626777
3544000000 0.0310056 -0.1613722 0.9689944 0.1613722 0.9689944 0.1613722 0.0310056 -0.1613722
3565000000 0.0305696 -0.1600780 0.9694304 0.1600780 0.9694304 0.1600780 0.0305696 -0.1600780
3586000000 0.0301414 -0.1587949 0.9698586 0.1587949 0.9698586 0.1587949 0.0301414 -0.1587949
3607000000 0.0297207 -0.1575228 0.9702793 0.1575228 0.9702793 0.1575228 0.0297207 -0.1575228
3628000000 0.0293074 -0.1562615 0.9706926 0.1562615 0.9706926 0.1562615 0.0293074 -0.1562615
3649000000 0.0289012 -0.1550109 0.9710988 0.1550109 0.9710988 0.1550109 0.0289012 -0.1550109
3670000000 0.0285021 -0.1537708 0.9714979 0.1537708 0.9714979 0.1537708 0.0285021 -0.1537708
3691000000 0.0281100 -0.1525410 0.9718900 0.1525410 0.9718900 0.1525410 0.0281100 -0.1525410
3712000000 0.0277245 -0.1513215 0.9722755 0.1513215 0.9722755 0.1513215 0.0277245 -0.1513215
3733000000 0.0273458 -0.1501120 0.9726542 0.1501120 0.9726542 0.1501120 0.0273458 -0.1501120
3754000000 0.0269735 -0.1489124 0.9730265 0.1489124 0.9730265 0.1489124 0.0269735 -0.1489124
3775000000 0.0266075 -0.1477226 0.9733925 0.1477226 0.9733925 0.1477226 0.0266075 -0.1477226
3796000000 0.0262478 -0.1465425 0.9737522 0.1465425 0.9737522 0.1465425 0.0262478 -0.1465425
3817000000 0.0258942 -0.1453718 0.9741058 0.1453718 0.9741058 0.1453718 0.0258942 -0.1453718
3838000000 0.0255465 -0.1442106 0.9744535 0.1442106 0.9744535 0.1442106 0.0255465 -0.1442106
3859000000 0.0252047 -0.1430586 0.9747953 0.1430586 0.9747953 0.1430586 0.0252047 -0.1430586
3880000000 0.0248686 -0.1419157 0.9751314 0.1419157 0.9751314 0.1419157 0.0248686 -0.1419157
3901000000 0.0245382 -0.1407818 0.9754618 0.1407818 0.9754618 0.1407818 0.0245382 -0.1407818
3922000000 0.0242132 -0.1396568 0.9757868 0.1396568 0.9757868 0.1396568 0.0242132 -0.1396568
3943000000 0.0238937 -0.1385406 0.9761063 0.1385406 0.9761063 0.1385406 0.0238937 -0.1385406
3964000000 0.0235794 -0.1374330 0.9764206 0.1374330 0.9764206 0.1374330 0.0235794 -0.1374330
3985000000 0.0232704 -0.1363339 0.9767296 0.1363339 0.9767296 0.1363339 0.0232704 -0.1363339
4006000000 0.0229664 -0.1352432 0.9770336 0.1352432 0.9770336 0.1352432 0.0229664 -0.1352432
4027000000 0.0226674 -0.1341607 0.9773326 0.1341607 0.9773326 0.1341607 0.0226674 -0.1341607
4048000000 0.0223733 -0.1330865 0.9776267 0.1330865 0.9776267 0.1330865 0.0223733 -0.1330865
4069000000 0.0220840 -0.1320203 0.9779160 0.1320203 0.9779160 0.1320203 0.0220840 -0.1320203
4090000000 0.0217994 -0.1309621 0.9782006 0.1309621 0.9782006 0.1309621 0.0217994 -0.1309621
4111000000 0.0215195 -0.1299117 0.9784805 0.1299117 0.9784805 0.1299117 0.0215195 -0.1299117
4132000000 0.0212440 -0.1288691 0.9787560 0.1288691 0.9787560 0.1288691 0.0212440 -0.1288691
4153000000 0.0209730 -0.1278342 0.9790270 0.1278342 0.9790270 0.1278342 0.0209730 -0.1278342
4174000000 0.0207064 -0.1268068 0.9792936 0.1268068 0.9792936 0.1268068 0.0207064 -0.1268068
4195000000 0.0204441 -0.1257868 0.9795559 0.1257868 0.9795559 0.1257868 0.0204441 -0.1257868
4216000000 0.0201859 -0.1247742 0.9798141 0.1247742 0.9798141 0.1247742 0.0201859 -0.1247742
4237000000 0.0199319 -0.1237688 0.9800681 0.1237688 0.9800681 0.1237688 0.0199319 -0.1237688
4258000000 0.0196819 -0.1227706 0.9803181 0.1227706 0.9803181 0.1227706 0.0196819 -0.1227706
4279000000 0.0194359 -0.1217795 0.9805641 0.1217795 0.9805641 0.1217795 0.0194359 -0.1217795
4300000000 0.0191938 -0.1207953 0.9808062 0.1207953 0.9808062 0.1207953 0.0191938 -0.1207953
4321000000 0.0189556 -0.1198181 0.9810444 0.1198181 0.9810444 0.1198181 0.0189556 -0.1198181
4342000000 0.0187211 -0.1188476 0.9812789 0.1188476 0.9812789 0.1188476 0.0187211 -0.1188476
4363000000 0.0184903 -0.1178839 0.9815097 0.1178839 0.9815097 0.1178839 0.0184903 -0.1178839
4384000000 0.0182631 -0.1169267 0.9817369 0.1169267 0.9817369 0.1169267 0.0182631 -0.1169267
4405000000 0.0180395 -0.1159762 0.9819605 0.1159762 0.9819605 0.1159762 0.0180395 -0.1159762
4426000000 0.0178194 -0.1150321 0.9821806 0.1150321 0.9821806 0.1150321 0.0178194 -0.1150321
4447000000 0.0176027 -0.1140943 0.9823973 0.1140943 0.9823973 0.1140943 0.0176027 -0.1140943
4468000000 0.0173894 -0.1131629 0.9826106 0.1131629 0.9826106 0.1131629 0.0173894 -0.1131629
4489000000 0.0171795 -0.1122377 0.9828205 0.1122377 0.9828205 0.1122377 0.0171795 -0.1122377
4510000000 0.0169728 -0.1113187 0.9830272 0.1113187 0.9830272 0.1113187 0.0169728 -0.1113187
