!Murata Part Number: GRM0222C1C360JA02
!These Parameters are Measured in Series Mode Connection
!Data Generated on Mar 30, 2021
!       o--ll--o
!Port1            Port2
!       o------o
!Operation Temp=25[degC], DC Bias Voltage=0[V]
!Freq. Start=100[MHz] Stop=9[GHz] 401[Steps]
# Hz S RI R 50
!Freq.(Hz) S11(Real) S11(Imag) S21(Real) S21(Imag) S12(Real) S12(Imag) S22(Real) S22(Imag)
100000000 0.1637005 -0.3681419 0.8362995 0.3681419 0.8362995 0.3681419 0.1637005 -0.3681419
121000000 0.1180817 -0.3204507 0.8819183 0.3204507 0.8819183 0.3204507 0.1180817 -0.3204507
142000000 0.0887458 -0.2817291 0.9112542 0.2817291 0.9112542 0.2817291 0.0887458 -0.2817291
163000000 0.0689550 -0.2503358 0.9310450 0.2503358 0.9310450 0.2503358 0.0689550 -0.2503358
184000000 0.0550496 -0.2246399 0.9449504 0.2246399 0.9449504 0.2246399 0.0550496 -0.2246399
205000000 0.0449409 -0.2033405 0.9550591 0.2033405 0.9550591 0.2033405 0.0449409 -0.2033405
226000000 0.0373788 -0.1854562 0.9626212 0.1854562 0.9626212 0.1854562 0.0373788 -0.1854562
247000000 0.0315830 -0.1702555 0.9684170 0.1702555 0.9684170 0.1702555 0.0315830 -0.1702555
268000000 0.0270482 -0.1571908 0.9729518 0.1571908 0.9729518 0.1571908 0.0270482 -0.1571908
289000000 0.0234363 -0.1458482 0.9765637 0.1458482 0.9765637 0.1458482 0.0234363 -0.1458482
310000000 0.0205146 -0.1359108 0.9794854 0.1359108 0.9794854 0.1359108 0.0205146 -0.1359108
331000000 0.0181190 -0.1271330 0.9818810 0.1271330 0.9818810 0.1271330 0.0181190 -0.1271330
352000000 0.0161313 -0.1193222 0.9838687 0.1193222 0.9838687 0.1193222 0.0161313 -0.1193222
373000000 0.0144645 -0.1123254 0.9855355 0.1123254 0.9855355 0.1123254 0.0144645 -0.1123254
394000000 0.0130536 -0.1060196 0.9869464 0.1060196 0.9869464 0.1060196 0.0130536 -0.1060196
415000000 0.0118491 -0.1003052 0.9881509 0.1003052 0.9881509 0.1003052 0.0118491 -0.1003052
436000000 0.0108130 -0.0951006 0.9891870 0.0951006 0.9891870 0.0951006 0.0108130 -0.0951006
457000000 0.0099156 -0.0903385 0.9900844 0.0903385 0.9900844 0.0903385 0.0099156 -0.0903385
478000000 0.0091334 -0.0859627 0.9908666 0.0859627 0.9908666 0.0859627 0.0091334 -0.0859627
499000000 0.0084478 -0.0819260 0.9915522 0.0819260 0.9915522 0.0819260 0.0084478 -0.0819260
520000000 0.0078437 -0.0781886 0.9921563 0.0781886 0.9921563 0.0781886 0.0078437 -0.0781886
541000000 0.0073090 -0.0747167 0.9926910 0.0747167 0.9926910 0.0747167 0.0073090 -0.0747167
562000000 0.0068335 -0.0714814 0.9931665 0.0714814 0.9931665 0.0714814 0.0068335 -0.0714814
583000000 0.0064090 -0.0684576 0.9935910 0.0684576 0.9935910 0.0684576 0.0064090 -0.0684576
604000000 0.0060287 -0.0656239 0.9939713 0.0656239 0.9939713 0.0656239 0.0060287 -0.0656239
625000000 0.0056867 -0.0629615 0.9943133 0.0629615 0.9943133 0.0629615 0.0056867 -0.0629615
646000000 0.0053783 -0.0604539 0.9946217 0.0604539 0.9946217 0.0604539 0.0053783 -0.0604539
667000000 0.0050994 -0.0580869 0.9949006 0.0580869 0.9949006 0.0580869 0.0050994 -0.0580869
688000000 0.0048464 -0.0558479 0.9951536 0.0558479 0.9951536 0.0558479 0.0048464 -0.0558479
709000000 0.0046165 -0.0537255 0.9953835 0.0537255 0.9953835 0.0537255 0.0046165 -0.0537255
730000000 0.0044069 -0.0517100 0.9955931 0.0517100 0.9955931 0.0517100 0.0044069 -0.0517100
751000000 0.0042156 -0.0497924 0.9957844 0.0497924 0.9957844 0.0497924 0.0042156 -0.0497924
772000000 0.0040406 -0.0479650 0.9959594 0.0479650 0.9959594 0.0479650 0.0040406 -0.0479650
793000000 0.0038802 -0.0462206 0.9961198 0.0462206 0.9961198 0.0462206 0.0038802 -0.0462206
814000000 0.0037330 -0.0445528 0.9962670 0.0445528 0.9962670 0.0445528 0.0037330 -0.0445528
835000000 0.0035977 -0.0429561 0.9964023 0.0429561 0.9964023 0.0429561 0.0035977 -0.0429561
856000000 0.0034732 -0.0414252 0.9965268 0.0414252 0.9965268 0.0414252 0.0034732 -0.0414252
877000000 0.0033584 -0.0399554 0.9966416 0.0399554 0.9966416 0.0399554 0.0033584 -0.0399554
898000000 0.0032526 -0.0385425 0.9967474 0.0385425 0.9967474 0.0385425 0.0032526 -0.0385425
919000000 0.0031548 -0.0371827 0.9968452 0.0371827 0.9968452 0.0371827 0.0031548 -0.0371827
940000000 0.0030646 -0.0358723 0.9969354 0.0358723 0.9969354 0.0358723 0.0030646 -0.0358723
961000000 0.0029811 -0.0346083 0.9970189 0.0346083 0.9970189 0.0346083 0.0029811 -0.0346083
982000000 0.0029039 -0.0333876 0.9970961 0.0333876 0.9970961 0.0333876 0.0029039 -0.0333876
1003000000 0.0028325 -0.0322076 0.9971675 0.0322076 0.9971675 0.0322076 0.0028325 -0.0322076
1024000000 0.0027663 -0.0310658 0.9972337 0.0310658 0.9972337 0.0310658 0.0027663 -0.0310658
1045000000 0.0027051 -0.0299598 0.9972949 0.0299598 0.9972949 0.0299598 0.0027051 -0.0299598
1066000000 0.0026485 -0.0288877 0.9973515 0.0288877 0.9973515 0.0288877 0.0026485 -0.0288877
1087000000 0.0025961 -0.0278474 0.9974039 0.0278474 0.9974039 0.0278474 0.0025961 -0.0278474
1108000000 0.0025476 -0.0268372 0.9974524 0.0268372 0.9974524 0.0268372 0.0025476 -0.0268372
1129000000 0.0025028 -0.0258553 0.9974972 0.0258553 0.9974972 0.0258553 0.0025028 -0.0258553
1150000000 0.0024614 -0.0249003 0.9975386 0.0249003 0.9975386 0.0249003 0.0024614 -0.0249003
1171000000 0.0024232 -0.0239708 0.9975768 0.0239708 0.9975768 0.0239708 0.0024232 -0.0239708
1192000000 0.0023880 -0.0230653 0.9976120 0.0230653 0.9976120 0.0230653 0.0023880 -0.0230653
1213000000 0.0023556 -0.0221826 0.9976444 0.0221826 0.9976444 0.0221826 0.0023556 -0.0221826
1234000000 0.0023258 -0.0213217 0.9976742 0.0213217 0.9976742 0.0213217 0.0023258 -0.0213217
1255000000 0.0022985 -0.0204813 0.9977015 0.0204813 0.9977015 0.0204813 0.0022985 -0.0204813
1276000000 0.0022735 -0.0196606 0.9977265 0.0196606 0.9977265 0.0196606 0.0022735 -0.0196606
1297000000 0.0022507 -0.0188585 0.9977493 0.0188585 0.9977493 0.0188585 0.0022507 -0.0188585
1318000000 0.0022300 -0.0180741 0.9977700 0.0180741 0.9977700 0.0180741 0.0022300 -0.0180741
1339000000 0.0022112 -0.0173067 0.9977888 0.0173067 0.9977888 0.0173067 0.0022112 -0.0173067
1360000000 0.0021943 -0.0165555 0.9978057 0.0165555 0.9978057 0.0165555 0.0021943 -0.0165555
1381000000 0.0021792 -0.0158197 0.9978208 0.0158197 0.9978208 0.0158197 0.0021792 -0.0158197
1402000000 0.0021657 -0.0150986 0.9978343 0.0150986 0.9978343 0.0150986 0.0021657 -0.0150986
1423000000 0.0021539 -0.0143916 0.9978461 0.0143916 0.9978461 0.0143916 0.0021539 -0.0143916
1444000000 0.0021435 -0.0136981 0.9978565 0.0136981 0.9978565 0.0136981 0.0021435 -0.0136981
1465000000 0.0021346 -0.0130175 0.9978654 0.0130175 0.9978654 0.0130175 0.0021346 -0.0130175
1486000000 0.0021270 -0.0123493 0.9978730 0.0123493 0.9978730 0.0123493 0.0021270 -0.0123493
1507000000 0.0021208 -0.0116929 0.9978792 0.0116929 0.9978792 0.0116929 0.0021208 -0.0116929
1528000000 0.0021158 -0.0110479 0.9978842 0.0110479 0.9978842 0.0110479 0.0021158 -0.0110479
1549000000 0.0021120 -0.0104139 0.9978880 0.0104139 0.9978880 0.0104139 0.0021120 -0.0104139
1570000000 0.0021094 -0.0097903 0.9978906 0.0097903 0.9978906 0.0097903 0.0021094 -0.0097903
1591000000 0.0021079 -0.0091768 0.9978921 0.0091768 0.9978921 0.0091768 0.0021079 -0.0091768
1612000000 0.0021074 -0.0085729 0.9978926 0.0085729 0.9978926 0.0085729 0.0021074 -0.0085729
1633000000 0.0021080 -0.0079784 0.9978920 0.0079784 0.9978920 0.0079784 0.0021080 -0.0079784
1654000000 0.0021095 -0.0073928 0.9978905 0.0073928 0.9978905 0.0073928 0.0021095 -0.0073928
1675000000 0.0021120 -0.0068159 0.9978880 0.0068159 0.9978880 0.0068159 0.0021120 -0.0068159
1696000000 0.0021154 -0.0062472 0.9978846 0.0062472 0.9978846 0.0062472 0.0021154 -0.0062472
1717000000 0.0021197 -0.0056866 0.9978803 0.0056866 0.9978803 0.0056866 0.0021197 -0.0056866
1738000000 0.0021248 -0.0051337 0.9978752 0.0051337 0.9978752 0.0051337 0.0021248 -0.0051337
1759000000 0.0021308 -0.0045883 0.9978692 0.0045883 0.9978692 0.0045883 0.0021308 -0.0045883
1780000000 0.0021375 -0.0040500 0.9978625 0.0040500 0.9978625 0.0040500 0.0021375 -0.0040500
1801000000 0.0021451 -0.0035187 0.9978549 0.0035187 0.9978549 0.0035187 0.0021451 -0.0035187
1822000000 0.0021534 -0.0029941 0.9978466 0.0029941 0.9978466 0.0029941 0.0021534 -0.0029941
1843000000 0.0021624 -0.0024760 0.9978376 0.0024760 0.9978376 0.0024760 0.0021624 -0.0024760
1864000000 0.0021721 -0.0019642 0.9978279 0.0019642 0.9978279 0.0019642 0.0021721 -0.0019642
1885000000 0.0021825 -0.0014584 0.9978175 0.0014584 0.9978175 0.0014584 0.0021825 -0.0014584
1906000000 0.0021936 -0.0009585 0.9978064 0.0009585 0.9978064 0.0009585 0.0021936 -0.0009585
1927000000 0.0022053 -0.0004643 0.9977947 0.0004643 0.9977947 0.0004643 0.0022053 -0.0004643
1948000000 0.0022176 0.0000245 0.9977824 -0.0000245 0.9977824 -0.0000245 0.0022176 0.0000245
1969000000 0.0022306 0.0005079 0.9977694 -0.0005079 0.9977694 -0.0005079 0.0022306 0.0005079
1990000000 0.0022442 0.0009861 0.9977558 -0.0009861 0.9977558 -0.0009861 0.0022442 0.0009861
2011000000 0.0022583 0.0014594 0.9977417 -0.0014594 0.9977417 -0.0014594 0.0022583 0.0014594
2032000000 0.0022731 0.0019278 0.9977269 -0.0019278 0.9977269 -0.0019278 0.0022731 0.0019278
2053000000 0.0022884 0.0023915 0.9977116 -0.0023915 0.9977116 -0.0023915 0.0022884 0.0023915
2074000000 0.0023042 0.0028506 0.9976958 -0.0028506 0.9976958 -0.0028506 0.0023042 0.0028506
2095000000 0.0023206 0.0033053 0.9976794 -0.0033053 0.9976794 -0.0033053 0.0023206 0.0033053
2116000000 0.0023376 0.0037556 0.9976624 -0.0037556 0.9976624 -0.0037556 0.0023376 0.0037556
2137000000 0.0023550 0.0042018 0.9976450 -0.0042018 0.9976450 -0.0042018 0.0023550 0.0042018
2158000000 0.0023729 0.0046440 0.9976271 -0.0046440 0.9976271 -0.0046440 0.0023729 0.0046440
2179000000 0.0023914 0.0050821 0.9976086 -0.0050821 0.9976086 -0.0050821 0.0023914 0.0050821
2200000000 0.0024103 0.0055165 0.9975897 -0.0055165 0.9975897 -0.0055165 0.0024103 0.0055165
2221000000 0.0024297 0.0059471 0.9975703 -0.0059471 0.9975703 -0.0059471 0.0024297 0.0059471
2242000000 0.0024496 0.0063740 0.9975504 -0.0063740 0.9975504 -0.0063740 0.0024496 0.0063740
2263000000 0.0024700 0.0067974 0.9975300 -0.0067974 0.9975300 -0.0067974 0.0024700 0.0067974
2284000000 0.0024908 0.0072174 0.9975092 -0.0072174 0.9975092 -0.0072174 0.0024908 0.0072174
2305000000 0.0025121 0.0076340 0.9974879 -0.0076340 0.9974879 -0.0076340 0.0025121 0.0076340
2326000000 0.0025338 0.0080474 0.9974662 -0.0080474 0.9974662 -0.0080474 0.0025338 0.0080474
2347000000 0.0025559 0.0084575 0.9974441 -0.0084575 0.9974441 -0.0084575 0.0025559 0.0084575
2368000000 0.0025785 0.0088646 0.9974215 -0.0088646 0.9974215 -0.0088646 0.0025785 0.0088646
2389000000 0.0026015 0.0092686 0.9973985 -0.0092686 0.9973985 -0.0092686 0.0026015 0.0092686
2410000000 0.0026249 0.0096697 0.9973751 -0.0096697 0.9973751 -0.0096697 0.0026249 0.0096697
2431000000 0.0026488 0.0100679 0.9973512 -0.0100679 0.9973512 -0.0100679 0.0026488 0.0100679
2452000000 0.0026730 0.0104633 0.9973270 -0.0104633 0.9973270 -0.0104633 0.0026730 0.0104633
2473000000 0.0026976 0.0108560 0.9973024 -0.0108560 0.9973024 -0.0108560 0.0026976 0.0108560
2494000000 0.0027227 0.0112459 0.9972773 -0.0112459 0.9972773 -0.0112459 0.0027227 0.0112459
2515000000 0.0027481 0.0116333 0.9972519 -0.0116333 0.9972519 -0.0116333 0.0027481 0.0116333
2536000000 0.0027739 0.0120181 0.9972261 -0.0120181 0.9972261 -0.0120181 0.0027739 0.0120181
2557000000 0.0028002 0.0124004 0.9971998 -0.0124004 0.9971998 -0.0124004 0.0028002 0.0124004
2578000000 0.0028268 0.0127803 0.9971732 -0.0127803 0.9971732 -0.0127803 0.0028268 0.0127803
2599000000 0.0028537 0.0131578 0.9971463 -0.0131578 0.9971463 -0.0131578 0.0028537 0.0131578
2620000000 0.0028811 0.0135330 0.9971189 -0.0135330 0.9971189 -0.0135330 0.0028811 0.0135330
2641000000 0.0029088 0.0139059 0.9970912 -0.0139059 0.9970912 -0.0139059 0.0029088 0.0139059
2662000000 0.0029369 0.0142765 0.9970631 -0.0142765 0.9970631 -0.0142765 0.0029369 0.0142765
2683000000 0.0029653 0.0146450 0.9970347 -0.0146450 0.9970347 -0.0146450 0.0029653 0.0146450
2704000000 0.0029941 0.0150114 0.9970059 -0.0150114 0.9970059 -0.0150114 0.0029941 0.0150114
2725000000 0.0030232 0.0153756 0.9969768 -0.0153756 0.9969768 -0.0153756 0.0030232 0.0153756
2746000000 0.0030528 0.0157378 0.9969472 -0.0157378 0.9969472 -0.0157378 0.0030528 0.0157378
2767000000 0.0030826 0.0160981 0.9969174 -0.0160981 0.9969174 -0.0160981 0.0030826 0.0160981
2788000000 0.0031128 0.0164563 0.9968872 -0.0164563 0.9968872 -0.0164563 0.0031128 0.0164563
2809000000 0.0031434 0.0168126 0.9968566 -0.0168126 0.9968566 -0.0168126 0.0031434 0.0168126
2830000000 0.0031742 0.0171671 0.9968258 -0.0171671 0.9968258 -0.0171671 0.0031742 0.0171671
2851000000 0.0032055 0.0175197 0.9967945 -0.0175197 0.9967945 -0.0175197 0.0032055 0.0175197
2872000000 0.0032370 0.0178705 0.9967630 -0.0178705 0.9967630 -0.0178705 0.0032370 0.0178705
2893000000 0.0032689 0.0182195 0.9967311 -0.0182195 0.9967311 -0.0182195 0.0032689 0.0182195
2914000000 0.0033011 0.0185667 0.9966989 -0.0185667 0.9966989 -0.0185667 0.0033011 0.0185667
2935000000 0.0033337 0.0189123 0.9966663 -0.0189123 0.9966663 -0.0189123 0.0033337 0.0189123
2956000000 0.0033666 0.0192562 0.9966334 -0.0192562 0.9966334 -0.0192562 0.0033666 0.0192562
2977000000 0.0033998 0.0195984 0.9966002 -0.0195984 0.9966002 -0.0195984 0.0033998 0.0195984
2998000000 0.0034333 0.0199390 0.9965667 -0.0199390 0.9965667 -0.0199390 0.0034333 0.0199390
3019000000 0.0034671 0.0202781 0.9965329 -0.0202781 0.9965329 -0.0202781 0.0034671 0.0202781
3040000000 0.0035013 0.0206155 0.9964987 -0.0206155 0.9964987 -0.0206155 0.0035013 0.0206155
3061000000 0.0035358 0.0209515 0.9964642 -0.0209515 0.9964642 -0.0209515 0.0035358 0.0209515
3082000000 0.0035705 0.0212859 0.9964295 -0.0212859 0.9964295 -0.0212859 0.0035705 0.0212859
3103000000 0.0036056 0.0216189 0.9963944 -0.0216189 0.9963944 -0.0216189 0.0036056 0.0216189
3124000000 0.0036410 0.0219504 0.9963590 -0.0219504 0.9963590 -0.0219504 0.0036410 0.0219504
3145000000 0.0036767 0.0222804 0.9963233 -0.0222804 0.9963233 -0.0222804 0.0036767 0.0222804
3166000000 0.0037128 0.0226091 0.9962872 -0.0226091 0.9962872 -0.0226091 0.0037128 0.0226091
3187000000 0.0037491 0.0229364 0.9962509 -0.0229364 0.9962509 -0.0229364 0.0037491 0.0229364
3208000000 0.0037857 0.0232623 0.9962143 -0.0232623 0.9962143 -0.0232623 0.0037857 0.0232623
3229000000 0.0038226 0.0235869 0.9961774 -0.0235869 0.9961774 -0.0235869 0.0038226 0.0235869
3250000000 0.0038598 0.0239102 0.9961402 -0.0239102 0.9961402 -0.0239102 0.0038598 0.0239102
3271000000 0.0038973 0.0242321 0.9961027 -0.0242321 0.9961027 -0.0242321 0.0038973 0.0242321
3292000000 0.0039351 0.0245528 0.9960649 -0.0245528 0.9960649 -0.0245528 0.0039351 0.0245528
3313000000 0.0039732 0.0248723 0.9960268 -0.0248723 0.9960268 -0.0248723 0.0039732 0.0248723
3334000000 0.0040116 0.0251905 0.9959884 -0.0251905 0.9959884 -0.0251905 0.0040116 0.0251905
3355000000 0.0040503 0.0255075 0.9959497 -0.0255075 0.9959497 -0.0255075 0.0040503 0.0255075
3376000000 0.0040892 0.0258232 0.9959108 -0.0258232 0.9959108 -0.0258232 0.0040892 0.0258232
3397000000 0.0041285 0.0261378 0.9958715 -0.0261378 0.9958715 -0.0261378 0.0041285 0.0261378
3418000000 0.0041680 0.0264512 0.9958320 -0.0264512 0.9958320 -0.0264512 0.0041680 0.0264512
3439000000 0.0042078 0.0267635 0.9957922 -0.0267635 0.9957922 -0.0267635 0.0042078 0.0267635
3460000000 0.0042479 0.0270746 0.9957521 -0.0270746 0.9957521 -0.0270746 0.0042479 0.0270746
3481000000 0.0042883 0.0273847 0.9957117 -0.0273847 0.9957117 -0.0273847 0.0042883 0.0273847
3502000000 0.0043289 0.0276936 0.9956711 -0.0276936 0.9956711 -0.0276936 0.0043289 0.0276936
3523000000 0.0043698 0.0280014 0.9956302 -0.0280014 0.9956302 -0.0280014 0.0043698 0.0280014
3544000000 0.0044110 0.0283081 0.9955890 -0.0283081 0.9955890 -0.0283081 0.0044110 0.0283081
3565000000 0.0044525 0.0286138 0.9955475 -0.0286138 0.9955475 -0.0286138 0.0044525 0.0286138
3586000000 0.0044942 0.0289184 0.9955058 -0.0289184 0.9955058 -0.0289184 0.0044942 0.0289184
3607000000 0.0045362 0.0292220 0.9954638 -0.0292220 0.9954638 -0.0292220 0.0045362 0.0292220
3628000000 0.0045785 0.0295246 0.9954215 -0.0295246 0.9954215 -0.0295246 0.0045785 0.0295246
3649000000 0.0046210 0.0298262 0.9953790 -0.0298262 0.9953790 -0.0298262 0.0046210 0.0298262
3670000000 0.0046638 0.0301267 0.9953362 -0.0301267 0.9953362 -0.0301267 0.0046638 0.0301267
3691000000 0.0047069 0.0304263 0.9952931 -0.0304263 0.9952931 -0.0304263 0.0047069 0.0304263
3712000000 0.0047502 0.0307249 0.9952498 -0.0307249 0.9952498 -0.0307249 0.0047502 0.0307249
3733000000 0.0047937 0.0310225 0.9952063 -0.0310225 0.9952063 -0.0310225 0.0047937 0.0310225
3754000000 0.0048376 0.0313192 0.9951624 -0.0313192 0.9951624 -0.0313192 0.0048376 0.0313192
3775000000 0.0048817 0.0316150 0.9951183 -0.0316150 0.9951183 -0.0316150 0.0048817 0.0316150
3796000000 0.0049260 0.0319098 0.9950740 -0.0319098 0.9950740 -0.0319098 0.0049260 0.0319098
3817000000 0.0049706 0.0322037 0.9950294 -0.0322037 0.9950294 -0.0322037 0.0049706 0.0322037
3838000000 0.0050154 0.0324967 0.9949846 -0.0324967 0.9949846 -0.0324967 0.0050154 0.0324967
3859000000 0.0050605 0.0327888 0.9949395 -0.0327888 0.9949395 -0.0327888 0.0050605 0.0327888
3880000000 0.0051059 0.0330799 0.9948941 -0.0330799 0.9948941 -0.0330799 0.0051059 0.0330799
3901000000 0.0051514 0.0333702 0.9948486 -0.0333702 0.9948486 -0.0333702 0.0051514 0.0333702
3922000000 0.0051973 0.0336597 0.9948027 -0.0336597 0.9948027 -0.0336597 0.0051973 0.0336597
3943000000 0.0052433 0.0339482 0.9947567 -0.0339482 0.9947567 -0.0339482 0.0052433 0.0339482
3964000000 0.0052896 0.0342360 0.9947104 -0.0342360 0.9947104 -0.0342360 0.0052896 0.0342360
3985000000 0.0053362 0.0345228 0.9946638 -0.0345228 0.9946638 -0.0345228 0.0053362 0.0345228
4006000000 0.0053829 0.0348088 0.9946171 -0.0348088 0.9946171 -0.0348088 0.0053829 0.0348088
4027000000 0.0054299 0.0350940 0.9945701 -0.0350940 0.9945701 -0.0350940 0.0054299 0.0350940
4048000000 0.0054772 0.0353784 0.9945228 -0.0353784 0.9945228 -0.0353784 0.0054772 0.0353784
4069000000 0.0055246 0.0356619 0.9944754 -0.0356619 0.9944754 -0.0356619 0.0055246 0.0356619
4090000000 0.0055723 0.0359446 0.9944277 -0.0359446 0.9944277 -0.0359446 0.0055723 0.0359446
4111000000 0.0056203 0.0362266 0.9943797 -0.0362266 0.9943797 -0.0362266 0.0056203 0.0362266
4132000000 0.0056684 0.0365077 0.9943316 -0.0365077 0.9943316 -0.0365077 0.0056684 0.0365077
4153000000 0.0057168 0.0367880 0.9942832 -0.0367880 0.9942832 -0.0367880 0.0057168 0.0367880
4174000000 0.0057654 0.0370676 0.9942346 -0.0370676 0.9942346 -0.0370676 0.0057654 0.0370676
4195000000 0.0058142 0.0373464 0.9941858 -0.0373464 0.9941858 -0.0373464 0.0058142 0.0373464
4216000000 0.0058632 0.0376244 0.9941368 -0.0376244 0.9941368 -0.0376244 0.0058632 0.0376244
4237000000 0.0059124 0.0379016 0.9940876 -0.0379016 0.9940876 -0.0379016 0.0059124 0.0379016
4258000000 0.0059619 0.0381781 0.9940381 -0.0381781 0.9940381 -0.0381781 0.0059619 0.0381781
4279000000 0.0060115 0.0384539 0.9939885 -0.0384539 0.9939885 -0.0384539 0.0060115 0.0384539
4300000000 0.0060614 0.0387289 0.9939386 -0.0387289 0.9939386 -0.0387289 0.0060614 0.0387289
4321000000 0.0061115 0.0390031 0.9938885 -0.0390031 0.9938885 -0.0390031 0.0061115 0.0390031
4342000000 0.0061617 0.0392766 0.9938383 -0.0392766 0.9938383 -0.0392766 0.0061617 0.0392766
4363000000 0.0062122 0.0395494 0.9937878 -0.0395494 0.9937878 -0.0395494 0.0062122 0.0395494
4384000000 0.0062629 0.0398215 0.9937371 -0.0398215 0.9937371 -0.0398215 0.0062629 0.0398215
4405000000 0.0063138 0.0400928 0.9936862 -0.0400928 0.9936862 -0.0400928 0.0063138 0.0400928
4426000000 0.0063648 0.0403634 0.9936352 -0.0403634 0.9936352 -0.0403634 0.0063648 0.0403634
4447000000 0.0064161 0.0406333 0.9935839 -0.0406333 0.9935839 -0.0406333 0.0064161 0.0406333
4468000000 0.0064676 0.0409025 0.9935324 -0.0409025 0.9935324 -0.0409025 0.0064676 0.0409025
4489000000 0.0065192 0.0411710 0.9934808 -0.0411710 0.9934808 -0.0411710 0.0065192 0.0411710
4510000000 0.0065710 0.0414388 0.9934290 -0.0414388 0.9934290 -0.0414388 0.0065710 0.0414388
