!Murata Part Number: GRM0224C1H1R5WA03
!These Parameters are Measured in Series Mode Connection
!Data Generated on Mar 30, 2021
!       o--ll--o
!Port1            Port2
!       o------o
!Operation Temp=25[degC], DC Bias Voltage=0[V]
!Freq. Start=100[MHz] Stop=20[GHz] 401[Steps]
# Hz S RI R 50
!Freq.(Hz) S11(Real) S11(Imag) S21(Real) S21(Imag) S12(Real) S12(Imag) S22(Real) S22(Imag)
100000000 0.9911621 -0.0934254 0.0088379 0.0934254 0.0088379 0.0934254 0.9911621 -0.0934254
149750000 0.9803898 -0.1384034 0.0196102 0.1384034 0.0196102 0.1384034 0.9803898 -0.1384034
199500000 0.9657014 -0.1816570 0.0342986 0.1816570 0.0342986 0.1816570 0.9657014 -0.1816570
249250000 0.9474435 -0.2227224 0.0525565 0.2227224 0.0525565 0.2227224 0.9474435 -0.2227224
299000000 0.9260260 -0.2612176 0.0739740 0.2612176 0.0739740 0.2612176 0.9260260 -0.2612176
348750000 0.9019005 -0.2968501 0.0980995 0.2968501 0.0980995 0.2968501 0.9019005 -0.2968501
398500000 0.8755390 -0.3294182 0.1244610 0.3294182 0.1244610 0.3294182 0.8755390 -0.3294182
448250000 0.8474143 -0.3588081 0.1525857 0.3588081 0.1525857 0.3588081 0.8474143 -0.3588081
498000000 0.8179834 -0.3849859 0.1820166 0.3849859 0.1820166 0.3849859 0.8179834 -0.3849859
547750000 0.7876740 -0.4079877 0.2123260 0.4079877 0.2123260 0.4079877 0.7876740 -0.4079877
597500000 0.7568752 -0.4279069 0.2431248 0.4279069 0.2431248 0.4279069 0.7568752 -0.4279069
647250000 0.7259317 -0.4448824 0.2740683 0.4448824 0.2740683 0.4448824 0.7259317 -0.4448824
697000000 0.6951407 -0.4590864 0.3048593 0.4590864 0.3048593 0.4590864 0.6951407 -0.4590864
746750000 0.6647526 -0.4707132 0.3352474 0.4707132 0.3352474 0.4707132 0.6647526 -0.4707132
796500000 0.6349721 -0.4799700 0.3650279 0.4799700 0.3650279 0.4799700 0.6349721 -0.4799700
846250000 0.6059618 -0.4870687 0.3940382 0.4870687 0.3940382 0.4870687 0.6059618 -0.4870687
896000000 0.5778466 -0.4922199 0.4221534 0.4922199 0.4221534 0.4922199 0.5778466 -0.4922199
945750000 0.5507175 -0.4956276 0.4492825 0.4956276 0.4492825 0.4956276 0.5507175 -0.4956276
995500000 0.5246372 -0.4974864 0.4753628 0.4974864 0.4753628 0.4974864 0.5246372 -0.4974864
1045250000 0.4996437 -0.4979789 0.5003563 0.4979789 0.5003563 0.4979789 0.4996437 -0.4979789
1095000000 0.4757550 -0.4972740 0.5242450 0.4972740 0.5242450 0.4972740 0.4757550 -0.4972740
1144750000 0.4529728 -0.4955269 0.5470272 0.4955269 0.5470272 0.4955269 0.4529728 -0.4955269
1194500000 0.4312856 -0.4928784 0.5687144 0.4928784 0.5687144 0.4928784 0.4312856 -0.4928784
1244250000 0.4106720 -0.4894555 0.5893280 0.4894555 0.5893280 0.4894555 0.4106720 -0.4894555
1294000000 0.3911027 -0.4853723 0.6088973 0.4853723 0.6088973 0.4853723 0.3911027 -0.4853723
1343750000 0.3725428 -0.4807303 0.6274572 0.4807303 0.6274572 0.4807303 0.3725428 -0.4807303
1393500000 0.3549537 -0.4756193 0.6450463 0.4756193 0.6450463 0.4756193 0.3549537 -0.4756193
1443250000 0.3382941 -0.4701189 0.6617059 0.4701189 0.6617059 0.4701189 0.3382941 -0.4701189
1493000000 0.3225213 -0.4642989 0.6774787 0.4642989 0.6774787 0.4642989 0.3225213 -0.4642989
1542750000 0.3075920 -0.4582205 0.6924080 0.4582205 0.6924080 0.4582205 0.3075920 -0.4582205
1592500000 0.2934632 -0.4519372 0.7065368 0.4519372 0.7065368 0.4519372 0.2934632 -0.4519372
1642250000 0.2800926 -0.4454954 0.7199074 0.4454954 0.7199074 0.4454954 0.2800926 -0.4454954
1692000000 0.2674388 -0.4389354 0.7325612 0.4389354 0.7325612 0.4389354 0.2674388 -0.4389354
1741750000 0.2554618 -0.4322921 0.7445382 0.4322921 0.7445382 0.4322921 0.2554618 -0.4322921
1791500000 0.2441232 -0.4255956 0.7558768 0.4255956 0.7558768 0.4255956 0.2441232 -0.4255956
1841250000 0.2333864 -0.4188716 0.7666136 0.4188716 0.7666136 0.4188716 0.2333864 -0.4188716
1891000000 0.2232163 -0.4121423 0.7767837 0.4121423 0.7767837 0.4121423 0.2232163 -0.4121423
1940750000 0.2135798 -0.4054265 0.7864202 0.4054265 0.7864202 0.4054265 0.2135798 -0.4054265
1990500000 0.2044453 -0.3987401 0.7955547 0.3987401 0.7955547 0.3987401 0.2044453 -0.3987401
2040250000 0.1957834 -0.3920966 0.8042166 0.3920966 0.8042166 0.3920966 0.1957834 -0.3920966
2090000000 0.1875661 -0.3855074 0.8124339 0.3855074 0.8124339 0.3855074 0.1875661 -0.3855074
2139750000 0.1797670 -0.3789818 0.8202330 0.3789818 0.8202330 0.3789818 0.1797670 -0.3789818
2189500000 0.1723615 -0.3725277 0.8276385 0.3725277 0.8276385 0.3725277 0.1723615 -0.3725277
2239250000 0.1653263 -0.3661514 0.8346737 0.3661514 0.8346737 0.3661514 0.1653263 -0.3661514
2289000000 0.1586399 -0.3598581 0.8413601 0.3598581 0.8413601 0.3598581 0.1586399 -0.3598581
2338750000 0.1522817 -0.3536518 0.8477183 0.3536518 0.8477183 0.3536518 0.1522817 -0.3536518
2388500000 0.1462328 -0.3475356 0.8537672 0.3475356 0.8537672 0.3475356 0.1462328 -0.3475356
2438250000 0.1404752 -0.3415119 0.8595248 0.3415119 0.8595248 0.3415119 0.1404752 -0.3415119
2488000000 0.1349921 -0.3355824 0.8650079 0.3355824 0.8650079 0.3355824 0.1349921 -0.3355824
2537750000 0.1297681 -0.3297482 0.8702319 0.3297482 0.8702319 0.3297482 0.1297681 -0.3297482
2587500000 0.1247882 -0.3240099 0.8752118 0.3240099 0.8752118 0.3240099 0.1247882 -0.3240099
2637250000 0.1200389 -0.3183675 0.8799611 0.3183675 0.8799611 0.3183675 0.1200389 -0.3183675
2687000000 0.1155073 -0.3128210 0.8844927 0.3128210 0.8844927 0.3128210 0.1155073 -0.3128210
2736750000 0.1111813 -0.3073698 0.8888187 0.3073698 0.8888187 0.3073698 0.1111813 -0.3073698
2786500000 0.1070497 -0.3020132 0.8929503 0.3020132 0.8929503 0.3020132 0.1070497 -0.3020132
2836250000 0.1031018 -0.2967501 0.8968982 0.2967501 0.8968982 0.2967501 0.1031018 -0.2967501
2886000000 0.0993278 -0.2915794 0.9006722 0.2915794 0.9006722 0.2915794 0.0993278 -0.2915794
2935750000 0.0957185 -0.2864999 0.9042815 0.2864999 0.9042815 0.2864999 0.0957185 -0.2864999
2985500000 0.0922650 -0.2815100 0.9077350 0.2815100 0.9077350 0.2815100 0.0922650 -0.2815100
3035250000 0.0889593 -0.2766083 0.9110407 0.2766083 0.9110407 0.2766083 0.0889593 -0.2766083
3085000000 0.0857937 -0.2717932 0.9142063 0.2717932 0.9142063 0.2717932 0.0857937 -0.2717932
3134750000 0.0827609 -0.2670629 0.9172391 0.2670629 0.9172391 0.2670629 0.0827609 -0.2670629
3184500000 0.0798542 -0.2624159 0.9201458 0.2624159 0.9201458 0.2624159 0.0798542 -0.2624159
3234250000 0.0770672 -0.2578503 0.9229328 0.2578503 0.9229328 0.2578503 0.0770672 -0.2578503
3284000000 0.0743940 -0.2533645 0.9256060 0.2533645 0.9256060 0.2533645 0.0743940 -0.2533645
3333750000 0.0718290 -0.2489566 0.9281710 0.2489566 0.9281710 0.2489566 0.0718290 -0.2489566
3383500000 0.0693668 -0.2446249 0.9306332 0.2446249 0.9306332 0.2446249 0.0693668 -0.2446249
3433250000 0.0670025 -0.2403676 0.9329975 0.2403676 0.9329975 0.2403676 0.0670025 -0.2403676
3483000000 0.0647314 -0.2361831 0.9352686 0.2361831 0.9352686 0.2361831 0.0647314 -0.2361831
3532750000 0.0625490 -0.2320696 0.9374510 0.2320696 0.9374510 0.2320696 0.0625490 -0.2320696
3582500000 0.0604512 -0.2280253 0.9395488 0.2280253 0.9395488 0.2280253 0.0604512 -0.2280253
3632250000 0.0584341 -0.2240486 0.9415659 0.2240486 0.9415659 0.2240486 0.0584341 -0.2240486
3682000000 0.0564939 -0.2201379 0.9435061 0.2201379 0.9435061 0.2201379 0.0564939 -0.2201379
3731750000 0.0546272 -0.2162914 0.9453728 0.2162914 0.9453728 0.2162914 0.0546272 -0.2162914
3781500000 0.0528306 -0.2125077 0.9471694 0.2125077 0.9471694 0.2125077 0.0528306 -0.2125077
3831250000 0.0511009 -0.2087851 0.9488991 0.2087851 0.9488991 0.2087851 0.0511009 -0.2087851
3881000000 0.0494353 -0.2051222 0.9505647 0.2051222 0.9505647 0.2051222 0.0494353 -0.2051222
3930750000 0.0478309 -0.2015174 0.9521691 0.2015174 0.9521691 0.2015174 0.0478309 -0.2015174
3980500000 0.0462851 -0.1979693 0.9537149 0.1979693 0.9537149 0.1979693 0.0462851 -0.1979693
4030250000 0.0447953 -0.1944764 0.9552047 0.1944764 0.9552047 0.1944764 0.0447953 -0.1944764
4080000000 0.0433592 -0.1910374 0.9566408 0.1910374 0.9566408 0.1910374 0.0433592 -0.1910374
4129750000 0.0419745 -0.1876509 0.9580255 0.1876509 0.9580255 0.1876509 0.0419745 -0.1876509
4179500000 0.0406391 -0.1843156 0.9593609 0.1843156 0.9593609 0.1843156 0.0406391 -0.1843156
4229250000 0.0393510 -0.1810301 0.9606490 0.1810301 0.9606490 0.1810301 0.0393510 -0.1810301
4279000000 0.0381082 -0.1777934 0.9618918 0.1777934 0.9618918 0.1777934 0.0381082 -0.1777934
4328750000 0.0369088 -0.1746040 0.9630912 0.1746040 0.9630912 0.1746040 0.0369088 -0.1746040
4378500000 0.0357513 -0.1714609 0.9642487 0.1714609 0.9642487 0.1714609 0.0357513 -0.1714609
4428250000 0.0346338 -0.1683629 0.9653662 0.1683629 0.9653662 0.1683629 0.0346338 -0.1683629
4478000000 0.0335548 -0.1653089 0.9664452 0.1653089 0.9664452 0.1653089 0.0335548 -0.1653089
4527750000 0.0325129 -0.1622978 0.9674871 0.1622978 0.9674871 0.1622978 0.0325129 -0.1622978
4577500000 0.0315066 -0.1593284 0.9684934 0.1593284 0.9684934 0.1593284 0.0315066 -0.1593284
4627250000 0.0305346 -0.1563999 0.9694654 0.1563999 0.9694654 0.1563999 0.0305346 -0.1563999
4677000000 0.0295955 -0.1535112 0.9704045 0.1535112 0.9704045 0.1535112 0.0295955 -0.1535112
4726750000 0.0286882 -0.1506614 0.9713118 0.1506614 0.9713118 0.1506614 0.0286882 -0.1506614
4776500000 0.0278114 -0.1478494 0.9721886 0.1478494 0.9721886 0.1478494 0.0278114 -0.1478494
4826250000 0.0269641 -0.1450744 0.9730359 0.1450744 0.9730359 0.1450744 0.0269641 -0.1450744
4876000000 0.0261452 -0.1423354 0.9738548 0.1423354 0.9738548 0.1423354 0.0261452 -0.1423354
4925750000 0.0253536 -0.1396317 0.9746464 0.1396317 0.9746464 0.1396317 0.0253536 -0.1396317
4975500000 0.0245884 -0.1369624 0.9754116 0.1369624 0.9754116 0.1369624 0.0245884 -0.1369624
5025250000 0.0238487 -0.1343267 0.9761513 0.1343267 0.9761513 0.1343267 0.0238487 -0.1343267
5075000000 0.0231335 -0.1317237 0.9768665 0.1317237 0.9768665 0.1317237 0.0231335 -0.1317237
5124750000 0.0224421 -0.1291528 0.9775579 0.1291528 0.9775579 0.1291528 0.0224421 -0.1291528
5174500000 0.0217736 -0.1266131 0.9782264 0.1266131 0.9782264 0.1266131 0.0217736 -0.1266131
5224250000 0.0211272 -0.1241039 0.9788728 0.1241039 0.9788728 0.1241039 0.0211272 -0.1241039
5274000000 0.0205023 -0.1216246 0.9794977 0.1216246 0.9794977 0.1216246 0.0205023 -0.1216246
5323750000 0.0198980 -0.1191744 0.9801020 0.1191744 0.9801020 0.1191744 0.0198980 -0.1191744
5373500000 0.0193138 -0.1167527 0.9806862 0.1167527 0.9806862 0.1167527 0.0193138 -0.1167527
5423250000 0.0187489 -0.1143588 0.9812511 0.1143588 0.9812511 0.1143588 0.0187489 -0.1143588
5473000000 0.0182027 -0.1119921 0.9817973 0.1119921 0.9817973 0.1119921 0.0182027 -0.1119921
5522750000 0.0176747 -0.1096521 0.9823253 0.1096521 0.9823253 0.1096521 0.0176747 -0.1096521
5572500000 0.0171642 -0.1073380 0.9828358 0.1073380 0.9828358 0.1073380 0.0171642 -0.1073380
5622250000 0.0166708 -0.1050494 0.9833292 0.1050494 0.9833292 0.1050494 0.0166708 -0.1050494
5672000000 0.0161938 -0.1027856 0.9838062 0.1027856 0.9838062 0.1027856 0.0161938 -0.1027856
5721750000 0.0157328 -0.1005462 0.9842672 0.1005462 0.9842672 0.1005462 0.0157328 -0.1005462
5771500000 0.0152873 -0.0983305 0.9847127 0.0983305 0.9847127 0.0983305 0.0152873 -0.0983305
5821250000 0.0148569 -0.0961381 0.9851431 0.0961381 0.9851431 0.0961381 0.0148569 -0.0961381
5871000000 0.0144410 -0.0939685 0.9855590 0.0939685 0.9855590 0.0939685 0.0144410 -0.0939685
5920750000 0.0140392 -0.0918212 0.9859608 0.0918212 0.9859608 0.0918212 0.0140392 -0.0918212
5970500000 0.0136512 -0.0896957 0.9863488 0.0896957 0.9863488 0.0896957 0.0136512 -0.0896957
6020250000 0.0132765 -0.0875916 0.9867235 0.0875916 0.9867235 0.0875916 0.0132765 -0.0875916
6070000000 0.0129148 -0.0855084 0.9870852 0.0855084 0.9870852 0.0855084 0.0129148 -0.0855084
6119750000 0.0125657 -0.0834456 0.9874343 0.0834456 0.9874343 0.0834456 0.0125657 -0.0834456
6169500000 0.0122287 -0.0814029 0.9877713 0.0814029 0.9877713 0.0814029 0.0122287 -0.0814029
6219250000 0.0119037 -0.0793798 0.9880963 0.0793798 0.9880963 0.0793798 0.0119037 -0.0793798
6269000000 0.0115902 -0.0773760 0.9884098 0.0773760 0.9884098 0.0773760 0.0115902 -0.0773760
6318750000 0.0112880 -0.0753909 0.9887120 0.0753909 0.9887120 0.0753909 0.0112880 -0.0753909
6368500000 0.0109967 -0.0734244 0.9890033 0.0734244 0.9890033 0.0734244 0.0109967 -0.0734244
6418250000 0.0107160 -0.0714759 0.9892840 0.0714759 0.9892840 0.0714759 0.0107160 -0.0714759
6468000000 0.0104457 -0.0695452 0.9895543 0.0695452 0.9895543 0.0695452 0.0104457 -0.0695452
6517750000 0.0101855 -0.0676318 0.9898145 0.0676318 0.9898145 0.0676318 0.0101855 -0.0676318
6567500000 0.0099351 -0.0657355 0.9900649 0.0657355 0.9900649 0.0657355 0.0099351 -0.0657355
6617250000 0.0096942 -0.0638559 0.9903058 0.0638559 0.9903058 0.0638559 0.0096942 -0.0638559
6667000000 0.0094627 -0.0619926 0.9905373 0.0619926 0.9905373 0.0619926 0.0094627 -0.0619926
6716750000 0.0092403 -0.0601454 0.9907597 0.0601454 0.9907597 0.0601454 0.0092403 -0.0601454
6766500000 0.0090267 -0.0583139 0.9909733 0.0583139 0.9909733 0.0583139 0.0090267 -0.0583139
6816250000 0.0088217 -0.0564979 0.9911783 0.0564979 0.9911783 0.0564979 0.0088217 -0.0564979
6866000000 0.0086252 -0.0546971 0.9913748 0.0546971 0.9913748 0.0546971 0.0086252 -0.0546971
6915750000 0.0084369 -0.0529111 0.9915631 0.0529111 0.9915631 0.0529111 0.0084369 -0.0529111
6965500000 0.0082566 -0.0511397 0.9917434 0.0511397 0.9917434 0.0511397 0.0082566 -0.0511397
7015250000 0.0080841 -0.0493826 0.9919159 0.0493826 0.9919159 0.0493826 0.0080841 -0.0493826
7065000000 0.0079193 -0.0476396 0.9920807 0.0476396 0.9920807 0.0476396 0.0079193 -0.0476396
7114750000 0.0077619 -0.0459103 0.9922381 0.0459103 0.9922381 0.0459103 0.0077619 -0.0459103
7164500000 0.0076119 -0.0441946 0.9923881 0.0441946 0.9923881 0.0441946 0.0076119 -0.0441946
7214250000 0.0074689 -0.0424922 0.9925311 0.0424922 0.9925311 0.0424922 0.0074689 -0.0424922
7264000000 0.0073329 -0.0408029 0.9926671 0.0408029 0.9926671 0.0408029 0.0073329 -0.0408029
7313750000 0.0072037 -0.0391263 0.9927963 0.0391263 0.9927963 0.0391263 0.0072037 -0.0391263
7363500000 0.0070811 -0.0374624 0.9929189 0.0374624 0.9929189 0.0374624 0.0070811 -0.0374624
7413250000 0.0069650 -0.0358108 0.9930350 0.0358108 0.9930350 0.0358108 0.0069650 -0.0358108
7463000000 0.0068553 -0.0341714 0.9931447 0.0341714 0.9931447 0.0341714 0.0068553 -0.0341714
7512750000 0.0067518 -0.0325439 0.9932482 0.0325439 0.9932482 0.0325439 0.0067518 -0.0325439
7562500000 0.0066543 -0.0309282 0.9933457 0.0309282 0.9933457 0.0309282 0.0066543 -0.0309282
7612250000 0.0065628 -0.0293240 0.9934372 0.0293240 0.9934372 0.0293240 0.0065628 -0.0293240
7662000000 0.0064772 -0.0277311 0.9935228 0.0277311 0.9935228 0.0277311 0.0064772 -0.0277311
7711750000 0.0063972 -0.0261493 0.9936028 0.0261493 0.9936028 0.0261493 0.0063972 -0.0261493
7761500000 0.0063229 -0.0245785 0.9936771 0.0245785 0.9936771 0.0245785 0.0063229 -0.0245785
7811250000 0.0062540 -0.0230185 0.9937460 0.0230185 0.9937460 0.0230185 0.0062540 -0.0230185
7861000000 0.0061904 -0.0214690 0.9938096 0.0214690 0.9938096 0.0214690 0.0061904 -0.0214690
7910750000 0.0061321 -0.0199300 0.9938679 0.0199300 0.9938679 0.0199300 0.0061321 -0.0199300
7960500000 0.0060790 -0.0184012 0.9939210 0.0184012 0.9939210 0.0184012 0.0060790 -0.0184012
8010250000 0.0060309 -0.0168825 0.9939691 0.0168825 0.9939691 0.0168825 0.0060309 -0.0168825
8060000000 0.0059877 -0.0153736 0.9940123 0.0153736 0.9940123 0.0153736 0.0059877 -0.0153736
8109750000 0.0059494 -0.0138745 0.9940506 0.0138745 0.9940506 0.0138745 0.0059494 -0.0138745
8159500000 0.0059159 -0.0123850 0.9940841 0.0123850 0.9940841 0.0123850 0.0059159 -0.0123850
8209250000 0.0058870 -0.0109049 0.9941130 0.0109049 0.9941130 0.0109049 0.0058870 -0.0109049
8259000000 0.0058627 -0.0094341 0.9941373 0.0094341 0.9941373 0.0094341 0.0058627 -0.0094341
8308750000 0.0058428 -0.0079725 0.9941572 0.0079725 0.9941572 0.0079725 0.0058428 -0.0079725
8358500000 0.0058274 -0.0065198 0.9941726 0.0065198 0.9941726 0.0065198 0.0058274 -0.0065198
8408250000 0.0058163 -0.0050760 0.9941837 0.0050760 0.9941837 0.0050760 0.0058163 -0.0050760
8458000000 0.0058095 -0.0036409 0.9941905 0.0036409 0.9941905 0.0036409 0.0058095 -0.0036409
8507750000 0.0058068 -0.0022144 0.9941932 0.0022144 0.9941932 0.0022144 0.0058068 -0.0022144
8557500000 0.0058083 -0.0007963 0.9941917 0.0007963 0.9941917 0.0007963 0.0058083 -0.0007963
8607250000 0.0058137 0.0006134 0.9941863 -0.0006134 0.9941863 -0.0006134 0.0058137 0.0006134
8657000000 0.0058232 0.0020150 0.9941768 -0.0020150 0.9941768 -0.0020150 0.0058232 0.0020150
8706750000 0.0058365 0.0034085 0.9941635 -0.0034085 0.9941635 -0.0034085 0.0058365 0.0034085
8756500000 0.0058536 0.0047940 0.9941464 -0.0047940 0.9941464 -0.0047940 0.0058536 0.0047940
8806250000 0.0058745 0.0061717 0.9941255 -0.0061717 0.9941255 -0.0061717 0.0058745 0.0061717
8856000000 0.0058991 0.0075417 0.9941009 -0.0075417 0.9941009 -0.0075417 0.0058991 0.0075417
8905750000 0.0059273 0.0089041 0.9940727 -0.0089041 0.9940727 -0.0089041 0.0059273 0.0089041
8955500000 0.0059591 0.0102590 0.9940409 -0.0102590 0.9940409 -0.0102590 0.0059591 0.0102590
9005250000 0.0059944 0.0116065 0.9940056 -0.0116065 0.9940056 -0.0116065 0.0059944 0.0116065
9055000000 0.0060331 0.0129468 0.9939669 -0.0129468 0.9939669 -0.0129468 0.0060331 0.0129468
9104750000 0.0060753 0.0142798 0.9939247 -0.0142798 0.9939247 -0.0142798 0.0060753 0.0142798
9154500000 0.0061208 0.0156058 0.9938792 -0.0156058 0.9938792 -0.0156058 0.0061208 0.0156058
9204250000 0.0061696 0.0169249 0.9938304 -0.0169249 0.9938304 -0.0169249 0.0061696 0.0169249
9254000000 0.0062217 0.0182370 0.9937783 -0.0182370 0.9937783 -0.0182370 0.0062217 0.0182370
9303750000 0.0062769 0.0195424 0.9937231 -0.0195424 0.9937231 -0.0195424 0.0062769 0.0195424
9353500000 0.0063354 0.0208411 0.9936646 -0.0208411 0.9936646 -0.0208411 0.0063354 0.0208411
9403250000 0.0063969 0.0221332 0.9936031 -0.0221332 0.9936031 -0.0221332 0.0063969 0.0221332
9453000000 0.0064614 0.0234188 0.9935386 -0.0234188 0.9935386 -0.0234188 0.0064614 0.0234188
9502750000 0.0065290 0.0246980 0.9934710 -0.0246980 0.9934710 -0.0246980 0.0065290 0.0246980
9552500000 0.0065995 0.0259709 0.9934005 -0.0259709 0.9934005 -0.0259709 0.0065995 0.0259709
9602250000 0.0066730 0.0272375 0.9933270 -0.0272375 0.9933270 -0.0272375 0.0066730 0.0272375
9652000000 0.0067493 0.0284979 0.9932507 -0.0284979 0.9932507 -0.0284979 0.0067493 0.0284979
9701750000 0.0068285 0.0297523 0.9931715 -0.0297523 0.9931715 -0.0297523 0.0068285 0.0297523
9751500000 0.0069105 0.0310007 0.9930895 -0.0310007 0.9930895 -0.0310007 0.0069105 0.0310007
9801250000 0.0069953 0.0322432 0.9930047 -0.0322432 0.9930047 -0.0322432 0.0069953 0.0322432
9851000000 0.0070827 0.0334799 0.9929173 -0.0334799 0.9929173 -0.0334799 0.0070827 0.0334799
9900750000 0.0071729 0.0347107 0.9928271 -0.0347107 0.9928271 -0.0347107 0.0071729 0.0347107
9950500000 0.0072657 0.0359359 0.9927343 -0.0359359 0.9927343 -0.0359359 0.0072657 0.0359359
10000250000 0.0073611 0.0371555 0.9926389 -0.0371555 0.9926389 -0.0371555 0.0073611 0.0371555
10050000000 0.0074591 0.0383695 0.9925409 -0.0383695 0.9925409 -0.0383695 0.0074591 0.0383695
10099750000 0.0075597 0.0395781 0.9924403 -0.0395781 0.9924403 -0.0395781 0.0075597 0.0395781
10149500000 0.0076628 0.0407812 0.9923372 -0.0407812 0.9923372 -0.0407812 0.0076628 0.0407812
10199250000 0.0077683 0.0419790 0.9922317 -0.0419790 0.9922317 -0.0419790 0.0077683 0.0419790
10249000000 0.0078763 0.0431716 0.9921237 -0.0431716 0.9921237 -0.0431716 0.0078763 0.0431716
10298750000 0.0079867 0.0443589 0.9920133 -0.0443589 0.9920133 -0.0443589 0.0079867 0.0443589
10348500000 0.0080996 0.0455411 0.9919004 -0.0455411 0.9919004 -0.0455411 0.0080996 0.0455411
10398250000 0.0082147 0.0467182 0.9917853 -0.0467182 0.9917853 -0.0467182 0.0082147 0.0467182
10448000000 0.0083322 0.0478902 0.9916678 -0.0478902 0.9916678 -0.0478902 0.0083322 0.0478902
10497750000 0.0084521 0.0490574 0.9915479 -0.0490574 0.9915479 -0.0490574 0.0084521 0.0490574
