!Murata Part Number: GRM0225C1E6R9BA03
!These Parameters are Measured in Series Mode Connection
!Data Generated on Mar 30, 2021
!       o--ll--o
!Port1            Port2
!       o------o
!Operation Temp=25[degC], DC Bias Voltage=0[V]
!Freq. Start=100[MHz] Stop=9[GHz] 401[Steps]
# Hz S RI R 50
!Freq.(Hz) S11(Real) S11(Imag) S21(Real) S21(Imag) S12(Real) S12(Imag) S22(Real) S22(Imag)
100000000 0.8414979 -0.3649031 0.1585021 0.3649031 0.1585021 0.3649031 0.8414979 -0.3649031
121000000 0.7837820 -0.4112909 0.2162180 0.4112909 0.2162180 0.4112909 0.7837820 -0.4112909
142000000 0.7245966 -0.4462774 0.2754034 0.4462774 0.2754034 0.4462774 0.7245966 -0.4462774
163000000 0.6662066 -0.4710602 0.3337934 0.4710602 0.3337934 0.4710602 0.6662066 -0.4710602
184000000 0.6102093 -0.4871284 0.3897907 0.4871284 0.3897907 0.4871284 0.6102093 -0.4871284
205000000 0.5576102 -0.4960273 0.4423898 0.4960273 0.4423898 0.4960273 0.5576102 -0.4960273
226000000 0.5089453 -0.4992081 0.4910547 0.4992081 0.4910547 0.4992081 0.5089453 -0.4992081
247000000 0.4644069 -0.4979494 0.5355931 0.4979494 0.5355931 0.4979494 0.4644069 -0.4979494
268000000 0.4239545 -0.4933300 0.5760455 0.4933300 0.5760455 0.4933300 0.4239545 -0.4933300
289000000 0.3874020 -0.4862312 0.6125980 0.4862312 0.6125980 0.4862312 0.3874020 -0.4862312
310000000 0.3544812 -0.4773568 0.6455188 0.4773568 0.6455188 0.4773568 0.3544812 -0.4773568
331000000 0.3248860 -0.4672587 0.6751140 0.4672587 0.6751140 0.4672587 0.3248860 -0.4672587
352000000 0.2983007 -0.4563628 0.7016993 0.4563628 0.7016993 0.4563628 0.2983007 -0.4563628
373000000 0.2744183 -0.4449942 0.7255817 0.4449942 0.7255817 0.4449942 0.2744183 -0.4449942
394000000 0.2529502 -0.4333977 0.7470498 0.4333977 0.7470498 0.4333977 0.2529502 -0.4333977
415000000 0.2336313 -0.4217556 0.7663687 0.4217556 0.7663687 0.4217556 0.2336313 -0.4217556
436000000 0.2162219 -0.4102015 0.7837781 0.4102015 0.7837781 0.4102015 0.2162219 -0.4102015
457000000 0.2005075 -0.3988318 0.7994925 0.3988318 0.7994925 0.3988318 0.2005075 -0.3988318
478000000 0.1862975 -0.3877142 0.8137025 0.3877142 0.8137025 0.3877142 0.1862975 -0.3877142
499000000 0.1734234 -0.3768951 0.8265766 0.3768951 0.8265766 0.3768951 0.1734234 -0.3768951
520000000 0.1617366 -0.3664043 0.8382634 0.3664043 0.8382634 0.3664043 0.1617366 -0.3664043
541000000 0.1511063 -0.3562595 0.8488937 0.3562595 0.8488937 0.3562595 0.1511063 -0.3562595
562000000 0.1414178 -0.3464692 0.8585822 0.3464692 0.8585822 0.3464692 0.1414178 -0.3464692
583000000 0.1325698 -0.3370351 0.8674302 0.3370351 0.8674302 0.3370351 0.1325698 -0.3370351
604000000 0.1244735 -0.3279541 0.8755265 0.3279541 0.8755265 0.3279541 0.1244735 -0.3279541
625000000 0.1170508 -0.3192196 0.8829492 0.3192196 0.8829492 0.3192196 0.1170508 -0.3192196
646000000 0.1102325 -0.3108224 0.8897675 0.3108224 0.8897675 0.3108224 0.1102325 -0.3108224
667000000 0.1039581 -0.3027519 0.8960419 0.3027519 0.8960419 0.3027519 0.1039581 -0.3027519
688000000 0.0981735 -0.2949961 0.9018265 0.2949961 0.9018265 0.2949961 0.0981735 -0.2949961
709000000 0.0928314 -0.2875427 0.9071686 0.2875427 0.9071686 0.2875427 0.0928314 -0.2875427
730000000 0.0878893 -0.2803789 0.9121107 0.2803789 0.9121107 0.2803789 0.0878893 -0.2803789
751000000 0.0833100 -0.2734921 0.9166900 0.2734921 0.9166900 0.2734921 0.0833100 -0.2734921
772000000 0.0790599 -0.2668695 0.9209401 0.2668695 0.9209401 0.2668695 0.0790599 -0.2668695
793000000 0.0751094 -0.2604989 0.9248906 0.2604989 0.9248906 0.2604989 0.0751094 -0.2604989
814000000 0.0714319 -0.2543683 0.9285681 0.2543683 0.9285681 0.2543683 0.0714319 -0.2543683
835000000 0.0680035 -0.2484663 0.9319965 0.2484663 0.9319965 0.2484663 0.0680035 -0.2484663
856000000 0.0648029 -0.2427817 0.9351971 0.2427817 0.9351971 0.2427817 0.0648029 -0.2427817
877000000 0.0618111 -0.2373041 0.9381889 0.2373041 0.9381889 0.2373041 0.0618111 -0.2373041
898000000 0.0590107 -0.2320233 0.9409893 0.2320233 0.9409893 0.2320233 0.0590107 -0.2320233
919000000 0.0563862 -0.2269297 0.9436138 0.2269297 0.9436138 0.2269297 0.0563862 -0.2269297
940000000 0.0539236 -0.2220144 0.9460764 0.2220144 0.9460764 0.2220144 0.0539236 -0.2220144
961000000 0.0516102 -0.2172685 0.9483898 0.2172685 0.9483898 0.2172685 0.0516102 -0.2172685
982000000 0.0494345 -0.2126841 0.9505655 0.2126841 0.9505655 0.2126841 0.0494345 -0.2126841
1003000000 0.0473861 -0.2082533 0.9526139 0.2082533 0.9526139 0.2082533 0.0473861 -0.2082533
1024000000 0.0454555 -0.2039688 0.9545445 0.2039688 0.9545445 0.2039688 0.0454555 -0.2039688
1045000000 0.0436340 -0.1998238 0.9563660 0.1998238 0.9563660 0.1998238 0.0436340 -0.1998238
1066000000 0.0419137 -0.1958116 0.9580863 0.1958116 0.9580863 0.1958116 0.0419137 -0.1958116
1087000000 0.0402876 -0.1919262 0.9597124 0.1919262 0.9597124 0.1919262 0.0402876 -0.1919262
1108000000 0.0387490 -0.1881617 0.9612510 0.1881617 0.9612510 0.1881617 0.0387490 -0.1881617
1129000000 0.0372920 -0.1845125 0.9627080 0.1845125 0.9627080 0.1845125 0.0372920 -0.1845125
1150000000 0.0359109 -0.1809735 0.9640891 0.1809735 0.9640891 0.1809735 0.0359109 -0.1809735
1171000000 0.0346008 -0.1775398 0.9653992 0.1775398 0.9653992 0.1775398 0.0346008 -0.1775398
1192000000 0.0333570 -0.1742066 0.9666430 0.1742066 0.9666430 0.1742066 0.0333570 -0.1742066
1213000000 0.0321752 -0.1709697 0.9678248 0.1709697 0.9678248 0.1709697 0.0321752 -0.1709697
1234000000 0.0310514 -0.1678247 0.9689486 0.1678247 0.9689486 0.1678247 0.0310514 -0.1678247
1255000000 0.0299821 -0.1647677 0.9700179 0.1647677 0.9700179 0.1647677 0.0299821 -0.1647677
1276000000 0.0289638 -0.1617951 0.9710362 0.1617951 0.9710362 0.1617951 0.0289638 -0.1617951
1297000000 0.0279935 -0.1589033 0.9720065 0.1589033 0.9720065 0.1589033 0.0279935 -0.1589033
1318000000 0.0270683 -0.1560889 0.9729317 0.1560889 0.9729317 0.1560889 0.0270683 -0.1560889
1339000000 0.0261854 -0.1533487 0.9738146 0.1533487 0.9738146 0.1533487 0.0261854 -0.1533487
1360000000 0.0253425 -0.1506797 0.9746575 0.1506797 0.9746575 0.1506797 0.0253425 -0.1506797
1381000000 0.0245372 -0.1480791 0.9754628 0.1480791 0.9754628 0.1480791 0.0245372 -0.1480791
1402000000 0.0237674 -0.1455441 0.9762326 0.1455441 0.9762326 0.1455441 0.0237674 -0.1455441
1423000000 0.0230312 -0.1430722 0.9769688 0.1430722 0.9769688 0.1430722 0.0230312 -0.1430722
1444000000 0.0223265 -0.1406609 0.9776735 0.1406609 0.9776735 0.1406609 0.0223265 -0.1406609
1465000000 0.0216518 -0.1383078 0.9783482 0.1383078 0.9783482 0.1383078 0.0216518 -0.1383078
1486000000 0.0210055 -0.1360108 0.9789945 0.1360108 0.9789945 0.1360108 0.0210055 -0.1360108
1507000000 0.0203859 -0.1337677 0.9796141 0.1337677 0.9796141 0.1337677 0.0203859 -0.1337677
1528000000 0.0197918 -0.1315766 0.9802082 0.1315766 0.9802082 0.1315766 0.0197918 -0.1315766
1549000000 0.0192217 -0.1294354 0.9807783 0.1294354 0.9807783 0.1294354 0.0192217 -0.1294354
1570000000 0.0186745 -0.1273425 0.9813255 0.1273425 0.9813255 0.1273425 0.0186745 -0.1273425
1591000000 0.0181490 -0.1252959 0.9818510 0.1252959 0.9818510 0.1252959 0.0181490 -0.1252959
1612000000 0.0176441 -0.1232942 0.9823559 0.1232942 0.9823559 0.1232942 0.0176441 -0.1232942
1633000000 0.0171589 -0.1213357 0.9828411 0.1213357 0.9828411 0.1213357 0.0171589 -0.1213357
1654000000 0.0166922 -0.1194188 0.9833078 0.1194188 0.9833078 0.1194188 0.0166922 -0.1194188
1675000000 0.0162434 -0.1175422 0.9837566 0.1175422 0.9837566 0.1175422 0.0162434 -0.1175422
1696000000 0.0158114 -0.1157044 0.9841886 0.1157044 0.9841886 0.1157044 0.0158114 -0.1157044
1717000000 0.0153956 -0.1139042 0.9846044 0.1139042 0.9846044 0.1139042 0.0153956 -0.1139042
1738000000 0.0149952 -0.1121403 0.9850048 0.1121403 0.9850048 0.1121403 0.0149952 -0.1121403
1759000000 0.0146094 -0.1104115 0.9853906 0.1104115 0.9853906 0.1104115 0.0146094 -0.1104115
1780000000 0.0142376 -0.1087166 0.9857624 0.1087166 0.9857624 0.1087166 0.0142376 -0.1087166
1801000000 0.0138791 -0.1070545 0.9861209 0.1070545 0.9861209 0.1070545 0.0138791 -0.1070545
1822000000 0.0135335 -0.1054241 0.9864665 0.1054241 0.9864665 0.1054241 0.0135335 -0.1054241
1843000000 0.0132001 -0.1038245 0.9867999 0.1038245 0.9867999 0.1038245 0.0132001 -0.1038245
1864000000 0.0128783 -0.1022547 0.9871217 0.1022547 0.9871217 0.1022547 0.0128783 -0.1022547
1885000000 0.0125678 -0.1007137 0.9874322 0.1007137 0.9874322 0.1007137 0.0125678 -0.1007137
1906000000 0.0122680 -0.0992007 0.9877320 0.0992007 0.9877320 0.0992007 0.0122680 -0.0992007
1927000000 0.0119784 -0.0977148 0.9880216 0.0977148 0.9880216 0.0977148 0.0119784 -0.0977148
1948000000 0.0116987 -0.0962551 0.9883013 0.0962551 0.9883013 0.0962551 0.0116987 -0.0962551
1969000000 0.0114284 -0.0948209 0.9885716 0.0948209 0.9885716 0.0948209 0.0114284 -0.0948209
1990000000 0.0111671 -0.0934114 0.9888329 0.0934114 0.9888329 0.0934114 0.0111671 -0.0934114
2011000000 0.0109146 -0.0920258 0.9890854 0.0920258 0.9890854 0.0920258 0.0109146 -0.0920258
2032000000 0.0106704 -0.0906636 0.9893296 0.0906636 0.9893296 0.0906636 0.0106704 -0.0906636
2053000000 0.0104342 -0.0893239 0.9895658 0.0893239 0.9895658 0.0893239 0.0104342 -0.0893239
2074000000 0.0102057 -0.0880062 0.9897943 0.0880062 0.9897943 0.0880062 0.0102057 -0.0880062
2095000000 0.0099846 -0.0867099 0.9900154 0.0867099 0.9900154 0.0867099 0.0099846 -0.0867099
2116000000 0.0097706 -0.0854342 0.9902294 0.0854342 0.9902294 0.0854342 0.0097706 -0.0854342
2137000000 0.0095635 -0.0841787 0.9904365 0.0841787 0.9904365 0.0841787 0.0095635 -0.0841787
2158000000 0.0093630 -0.0829428 0.9906370 0.0829428 0.9906370 0.0829428 0.0093630 -0.0829428
2179000000 0.0091688 -0.0817259 0.9908312 0.0817259 0.9908312 0.0817259 0.0091688 -0.0817259
2200000000 0.0089807 -0.0805275 0.9910193 0.0805275 0.9910193 0.0805275 0.0089807 -0.0805275
2221000000 0.0087986 -0.0793471 0.9912014 0.0793471 0.9912014 0.0793471 0.0087986 -0.0793471
2242000000 0.0086221 -0.0781843 0.9913779 0.0781843 0.9913779 0.0781843 0.0086221 -0.0781843
2263000000 0.0084511 -0.0770386 0.9915489 0.0770386 0.9915489 0.0770386 0.0084511 -0.0770386
2284000000 0.0082854 -0.0759095 0.9917146 0.0759095 0.9917146 0.0759095 0.0082854 -0.0759095
2305000000 0.0081248 -0.0747966 0.9918752 0.0747966 0.9918752 0.0747966 0.0081248 -0.0747966
2326000000 0.0079691 -0.0736994 0.9920309 0.0736994 0.9920309 0.0736994 0.0079691 -0.0736994
2347000000 0.0078182 -0.0726176 0.9921818 0.0726176 0.9921818 0.0726176 0.0078182 -0.0726176
2368000000 0.0076719 -0.0715508 0.9923281 0.0715508 0.9923281 0.0715508 0.0076719 -0.0715508
2389000000 0.0075300 -0.0704985 0.9924700 0.0704985 0.9924700 0.0704985 0.0075300 -0.0704985
2410000000 0.0073924 -0.0694605 0.9926076 0.0694605 0.9926076 0.0694605 0.0073924 -0.0694605
2431000000 0.0072590 -0.0684364 0.9927410 0.0684364 0.9927410 0.0684364 0.0072590 -0.0684364
2452000000 0.0071295 -0.0674258 0.9928705 0.0674258 0.9928705 0.0674258 0.0071295 -0.0674258
2473000000 0.0070040 -0.0664284 0.9929960 0.0664284 0.9929960 0.0664284 0.0070040 -0.0664284
2494000000 0.0068822 -0.0654439 0.9931178 0.0654439 0.9931178 0.0654439 0.0068822 -0.0654439
2515000000 0.0067641 -0.0644720 0.9932359 0.0644720 0.9932359 0.0644720 0.0067641 -0.0644720
2536000000 0.0066495 -0.0635123 0.9933505 0.0635123 0.9933505 0.0635123 0.0066495 -0.0635123
2557000000 0.0065383 -0.0625646 0.9934617 0.0625646 0.9934617 0.0625646 0.0065383 -0.0625646
2578000000 0.0064304 -0.0616286 0.9935696 0.0616286 0.9935696 0.0616286 0.0064304 -0.0616286
2599000000 0.0063257 -0.0607040 0.9936743 0.0607040 0.9936743 0.0607040 0.0063257 -0.0607040
2620000000 0.0062241 -0.0597906 0.9937759 0.0597906 0.9937759 0.0597906 0.0062241 -0.0597906
2641000000 0.0061256 -0.0588881 0.9938744 0.0588881 0.9938744 0.0588881 0.0061256 -0.0588881
2662000000 0.0060299 -0.0579962 0.9939701 0.0579962 0.9939701 0.0579962 0.0060299 -0.0579962
2683000000 0.0059372 -0.0571148 0.9940628 0.0571148 0.9940628 0.0571148 0.0059372 -0.0571148
2704000000 0.0058471 -0.0562435 0.9941529 0.0562435 0.9941529 0.0562435 0.0058471 -0.0562435
2725000000 0.0057598 -0.0553822 0.9942402 0.0553822 0.9942402 0.0553822 0.0057598 -0.0553822
2746000000 0.0056750 -0.0545307 0.9943250 0.0545307 0.9943250 0.0545307 0.0056750 -0.0545307
2767000000 0.0055927 -0.0536886 0.9944073 0.0536886 0.9944073 0.0536886 0.0055927 -0.0536886
2788000000 0.0055130 -0.0528559 0.9944870 0.0528559 0.9944870 0.0528559 0.0055130 -0.0528559
2809000000 0.0054355 -0.0520322 0.9945645 0.0520322 0.9945645 0.0520322 0.0054355 -0.0520322
2830000000 0.0053604 -0.0512175 0.9946396 0.0512175 0.9946396 0.0512175 0.0053604 -0.0512175
2851000000 0.0052876 -0.0504115 0.9947124 0.0504115 0.9947124 0.0504115 0.0052876 -0.0504115
2872000000 0.0052169 -0.0496141 0.9947831 0.0496141 0.9947831 0.0496141 0.0052169 -0.0496141
2893000000 0.0051484 -0.0488250 0.9948516 0.0488250 0.9948516 0.0488250 0.0051484 -0.0488250
2914000000 0.0050820 -0.0480440 0.9949180 0.0480440 0.9949180 0.0480440 0.0050820 -0.0480440
2935000000 0.0050175 -0.0472711 0.9949825 0.0472711 0.9949825 0.0472711 0.0050175 -0.0472711
2956000000 0.0049550 -0.0465061 0.9950450 0.0465061 0.9950450 0.0465061 0.0049550 -0.0465061
2977000000 0.0048945 -0.0457487 0.9951055 0.0457487 0.9951055 0.0457487 0.0048945 -0.0457487
2998000000 0.0048358 -0.0449989 0.9951642 0.0449989 0.9951642 0.0449989 0.0048358 -0.0449989
3019000000 0.0047789 -0.0442565 0.9952211 0.0442565 0.9952211 0.0442565 0.0047789 -0.0442565
3040000000 0.0047237 -0.0435213 0.9952763 0.0435213 0.9952763 0.0435213 0.0047237 -0.0435213
3061000000 0.0046703 -0.0427931 0.9953297 0.0427931 0.9953297 0.0427931 0.0046703 -0.0427931
3082000000 0.0046186 -0.0420720 0.9953814 0.0420720 0.9953814 0.0420720 0.0046186 -0.0420720
3103000000 0.0045685 -0.0413576 0.9954315 0.0413576 0.9954315 0.0413576 0.0045685 -0.0413576
3124000000 0.0045200 -0.0406499 0.9954800 0.0406499 0.9954800 0.0406499 0.0045200 -0.0406499
3145000000 0.0044730 -0.0399488 0.9955270 0.0399488 0.9955270 0.0399488 0.0044730 -0.0399488
3166000000 0.0044276 -0.0392541 0.9955724 0.0392541 0.9955724 0.0392541 0.0044276 -0.0392541
3187000000 0.0043836 -0.0385657 0.9956164 0.0385657 0.9956164 0.0385657 0.0043836 -0.0385657
3208000000 0.0043411 -0.0378835 0.9956589 0.0378835 0.9956589 0.0378835 0.0043411 -0.0378835
3229000000 0.0043000 -0.0372073 0.9957000 0.0372073 0.9957000 0.0372073 0.0043000 -0.0372073
3250000000 0.0042603 -0.0365371 0.9957397 0.0365371 0.9957397 0.0365371 0.0042603 -0.0365371
3271000000 0.0042219 -0.0358727 0.9957781 0.0358727 0.9957781 0.0358727 0.0042219 -0.0358727
3292000000 0.0041848 -0.0352141 0.9958152 0.0352141 0.9958152 0.0352141 0.0041848 -0.0352141
3313000000 0.0041490 -0.0345611 0.9958510 0.0345611 0.9958510 0.0345611 0.0041490 -0.0345611
3334000000 0.0041144 -0.0339136 0.9958856 0.0339136 0.9958856 0.0339136 0.0041144 -0.0339136
3355000000 0.0040811 -0.0332715 0.9959189 0.0332715 0.9959189 0.0332715 0.0040811 -0.0332715
3376000000 0.0040489 -0.0326348 0.9959511 0.0326348 0.9959511 0.0326348 0.0040489 -0.0326348
3397000000 0.0040180 -0.0320033 0.9959820 0.0320033 0.9959820 0.0320033 0.0040180 -0.0320033
3418000000 0.0039881 -0.0313769 0.9960119 0.0313769 0.9960119 0.0313769 0.0039881 -0.0313769
3439000000 0.0039594 -0.0307556 0.9960406 0.0307556 0.9960406 0.0307556 0.0039594 -0.0307556
3460000000 0.0039318 -0.0301392 0.9960682 0.0301392 0.9960682 0.0301392 0.0039318 -0.0301392
3481000000 0.0039052 -0.0295277 0.9960948 0.0295277 0.9960948 0.0295277 0.0039052 -0.0295277
3502000000 0.0038797 -0.0289210 0.9961203 0.0289210 0.9961203 0.0289210 0.0038797 -0.0289210
3523000000 0.0038552 -0.0283190 0.9961448 0.0283190 0.9961448 0.0283190 0.0038552 -0.0283190
3544000000 0.0038317 -0.0277216 0.9961683 0.0277216 0.9961683 0.0277216 0.0038317 -0.0277216
3565000000 0.0038092 -0.0271288 0.9961908 0.0271288 0.9961908 0.0271288 0.0038092 -0.0271288
3586000000 0.0037876 -0.0265404 0.9962124 0.0265404 0.9962124 0.0265404 0.0037876 -0.0265404
3607000000 0.0037670 -0.0259564 0.9962330 0.0259564 0.9962330 0.0259564 0.0037670 -0.0259564
3628000000 0.0037473 -0.0253768 0.9962527 0.0253768 0.9962527 0.0253768 0.0037473 -0.0253768
3649000000 0.0037285 -0.0248014 0.9962715 0.0248014 0.9962715 0.0248014 0.0037285 -0.0248014
3670000000 0.0037105 -0.0242301 0.9962895 0.0242301 0.9962895 0.0242301 0.0037105 -0.0242301
3691000000 0.0036935 -0.0236630 0.9963065 0.0236630 0.9963065 0.0236630 0.0036935 -0.0236630
3712000000 0.0036772 -0.0230999 0.9963228 0.0230999 0.9963228 0.0230999 0.0036772 -0.0230999
3733000000 0.0036618 -0.0225407 0.9963382 0.0225407 0.9963382 0.0225407 0.0036618 -0.0225407
3754000000 0.0036472 -0.0219855 0.9963528 0.0219855 0.9963528 0.0219855 0.0036472 -0.0219855
3775000000 0.0036334 -0.0214341 0.9963666 0.0214341 0.9963666 0.0214341 0.0036334 -0.0214341
3796000000 0.0036204 -0.0208865 0.9963796 0.0208865 0.9963796 0.0208865 0.0036204 -0.0208865
3817000000 0.0036082 -0.0203426 0.9963918 0.0203426 0.9963918 0.0203426 0.0036082 -0.0203426
3838000000 0.0035967 -0.0198024 0.9964033 0.0198024 0.9964033 0.0198024 0.0035967 -0.0198024
3859000000 0.0035859 -0.0192658 0.9964141 0.0192658 0.9964141 0.0192658 0.0035859 -0.0192658
3880000000 0.0035758 -0.0187328 0.9964242 0.0187328 0.9964242 0.0187328 0.0035758 -0.0187328
3901000000 0.0035665 -0.0182032 0.9964335 0.0182032 0.9964335 0.0182032 0.0035665 -0.0182032
3922000000 0.0035578 -0.0176771 0.9964422 0.0176771 0.9964422 0.0176771 0.0035578 -0.0176771
3943000000 0.0035499 -0.0171544 0.9964501 0.0171544 0.9964501 0.0171544 0.0035499 -0.0171544
3964000000 0.0035426 -0.0166350 0.9964574 0.0166350 0.9964574 0.0166350 0.0035426 -0.0166350
3985000000 0.0035359 -0.0161188 0.9964641 0.0161188 0.9964641 0.0161188 0.0035359 -0.0161188
4006000000 0.0035299 -0.0156060 0.9964701 0.0156060 0.9964701 0.0156060 0.0035299 -0.0156060
4027000000 0.0035245 -0.0150963 0.9964755 0.0150963 0.9964755 0.0150963 0.0035245 -0.0150963
4048000000 0.0035198 -0.0145897 0.9964802 0.0145897 0.9964802 0.0145897 0.0035198 -0.0145897
4069000000 0.0035156 -0.0140862 0.9964844 0.0140862 0.9964844 0.0140862 0.0035156 -0.0140862
4090000000 0.0035121 -0.0135858 0.9964879 0.0135858 0.9964879 0.0135858 0.0035121 -0.0135858
4111000000 0.0035091 -0.0130884 0.9964909 0.0130884 0.9964909 0.0130884 0.0035091 -0.0130884
4132000000 0.0035067 -0.0125939 0.9964933 0.0125939 0.9964933 0.0125939 0.0035067 -0.0125939
4153000000 0.0035049 -0.0121024 0.9964951 0.0121024 0.9964951 0.0121024 0.0035049 -0.0121024
4174000000 0.0035036 -0.0116137 0.9964964 0.0116137 0.9964964 0.0116137 0.0035036 -0.0116137
4195000000 0.0035029 -0.0111278 0.9964971 0.0111278 0.9964971 0.0111278 0.0035029 -0.0111278
4216000000 0.0035027 -0.0106448 0.9964973 0.0106448 0.9964973 0.0106448 0.0035027 -0.0106448
4237000000 0.0035031 -0.0101645 0.9964969 0.0101645 0.9964969 0.0101645 0.0035031 -0.0101645
4258000000 0.0035040 -0.0096869 0.9964960 0.0096869 0.9964960 0.0096869 0.0035040 -0.0096869
4279000000 0.0035053 -0.0092119 0.9964947 0.0092119 0.9964947 0.0092119 0.0035053 -0.0092119
4300000000 0.0035072 -0.0087396 0.9964928 0.0087396 0.9964928 0.0087396 0.0035072 -0.0087396
4321000000 0.0035096 -0.0082699 0.9964904 0.0082699 0.9964904 0.0082699 0.0035096 -0.0082699
4342000000 0.0035125 -0.0078028 0.9964875 0.0078028 0.9964875 0.0078028 0.0035125 -0.0078028
4363000000 0.0035158 -0.0073381 0.9964842 0.0073381 0.9964842 0.0073381 0.0035158 -0.0073381
4384000000 0.0035196 -0.0068760 0.9964804 0.0068760 0.9964804 0.0068760 0.0035196 -0.0068760
4405000000 0.0035239 -0.0064163 0.9964761 0.0064163 0.9964761 0.0064163 0.0035239 -0.0064163
4426000000 0.0035286 -0.0059591 0.9964714 0.0059591 0.9964714 0.0059591 0.0035286 -0.0059591
4447000000 0.0035338 -0.0055042 0.9964662 0.0055042 0.9964662 0.0055042 0.0035338 -0.0055042
4468000000 0.0035394 -0.0050517 0.9964606 0.0050517 0.9964606 0.0050517 0.0035394 -0.0050517
4489000000 0.0035454 -0.0046015 0.9964546 0.0046015 0.9964546 0.0046015 0.0035454 -0.0046015
4510000000 0.0035519 -0.0041536 0.9964481 0.0041536 0.9964481 0.0041536 0.0035519 -0.0041536
