!Murata Part Number: GRM0224C1ER70WA03
!These Parameters are Measured in Series Mode Connection
!Data Generated on Mar 30, 2021
!       o--ll--o
!Port1            Port2
!       o------o
!Operation Temp=25[degC], DC Bias Voltage=0[V]
!Freq. Start=100[MHz] Stop=20[GHz] 401[Steps]
# Hz S RI R 50
!Freq.(Hz) S11(Real) S11(Imag) S21(Real) S21(Imag) S12(Real) S12(Imag) S22(Real) S22(Imag)
100000000 0.9980581 -0.0438993 0.0019419 0.0438993 0.0019419 0.0438993 0.9980581 -0.0438993
149750000 0.9956551 -0.0655853 0.0043449 0.0655853 0.0043449 0.0655853 0.9956551 -0.0655853
199500000 0.9923128 -0.0870890 0.0076872 0.0870890 0.0076872 0.0870890 0.9923128 -0.0870890
249250000 0.9880492 -0.1083523 0.0119508 0.1083523 0.0119508 0.1083523 0.9880492 -0.1083523
299000000 0.9828866 -0.1293193 0.0171134 0.1293193 0.0171134 0.1293193 0.9828866 -0.1293193
348750000 0.9768520 -0.1499366 0.0231480 0.1499366 0.0231480 0.1499366 0.9768520 -0.1499366
398500000 0.9699760 -0.1701538 0.0300240 0.1701538 0.0300240 0.1701538 0.9699760 -0.1701538
448250000 0.9622934 -0.1899238 0.0377066 0.1899238 0.0377066 0.1899238 0.9622934 -0.1899238
498000000 0.9538417 -0.2092032 0.0461583 0.2092032 0.0461583 0.2092032 0.9538417 -0.2092032
547750000 0.9446616 -0.2279523 0.0553384 0.2279523 0.0553384 0.2279523 0.9446616 -0.2279523
597500000 0.9347959 -0.2461356 0.0652041 0.2461356 0.0652041 0.2461356 0.9347959 -0.2461356
647250000 0.9242893 -0.2637217 0.0757107 0.2637217 0.0757107 0.2637217 0.9242893 -0.2637217
697000000 0.9131880 -0.2806833 0.0868120 0.2806833 0.0868120 0.2806833 0.9131880 -0.2806833
746750000 0.9015392 -0.2969976 0.0984608 0.2969976 0.0984608 0.2969976 0.9015392 -0.2969976
796500000 0.8893904 -0.3126458 0.1106096 0.3126458 0.1106096 0.3126458 0.8893904 -0.3126458
846250000 0.8767895 -0.3276131 0.1232105 0.3276131 0.1232105 0.3276131 0.8767895 -0.3276131
896000000 0.8637839 -0.3418889 0.1362161 0.3418889 0.1362161 0.3418889 0.8637839 -0.3418889
945750000 0.8504205 -0.3554662 0.1495795 0.3554662 0.1495795 0.3554662 0.8504205 -0.3554662
995500000 0.8367452 -0.3683416 0.1632548 0.3683416 0.1632548 0.3683416 0.8367452 -0.3683416
1045250000 0.8228029 -0.3805152 0.1771971 0.3805152 0.1771971 0.3805152 0.8228029 -0.3805152
1095000000 0.8086366 -0.3919901 0.1913634 0.3919901 0.1913634 0.3919901 0.8086366 -0.3919901
1144750000 0.7942881 -0.4027723 0.2057119 0.4027723 0.2057119 0.4027723 0.7942881 -0.4027723
1194500000 0.7797972 -0.4128704 0.2202028 0.4128704 0.2202028 0.4128704 0.7797972 -0.4128704
1244250000 0.7652016 -0.4222953 0.2347984 0.4222953 0.2347984 0.4222953 0.7652016 -0.4222953
1294000000 0.7505370 -0.4310599 0.2494630 0.4310599 0.2494630 0.4310599 0.7505370 -0.4310599
1343750000 0.7358370 -0.4391792 0.2641630 0.4391792 0.2641630 0.4391792 0.7358370 -0.4391792
1393500000 0.7211332 -0.4466694 0.2788668 0.4466694 0.2788668 0.4466694 0.7211332 -0.4466694
1443250000 0.7064546 -0.4535482 0.2935454 0.4535482 0.2935454 0.4535482 0.7064546 -0.4535482
1493000000 0.6918282 -0.4598344 0.3081718 0.4598344 0.3081718 0.4598344 0.6918282 -0.4598344
1542750000 0.6772790 -0.4655475 0.3227210 0.4655475 0.3227210 0.4655475 0.6772790 -0.4655475
1592500000 0.6628297 -0.4707080 0.3371703 0.4707080 0.3371703 0.4707080 0.6628297 -0.4707080
1642250000 0.6485009 -0.4753364 0.3514991 0.4753364 0.3514991 0.4753364 0.6485009 -0.4753364
1692000000 0.6343113 -0.4794541 0.3656887 0.4794541 0.3656887 0.4794541 0.6343113 -0.4794541
1741750000 0.6202776 -0.4830821 0.3797224 0.4830821 0.3797224 0.4830821 0.6202776 -0.4830821
1791500000 0.6064148 -0.4862418 0.3935852 0.4862418 0.3935852 0.4862418 0.6064148 -0.4862418
1841250000 0.5927361 -0.4889544 0.4072639 0.4889544 0.4072639 0.4889544 0.5927361 -0.4889544
1891000000 0.5792531 -0.4912408 0.4207469 0.4912408 0.4207469 0.4912408 0.5792531 -0.4912408
1940750000 0.5659757 -0.4931218 0.4340243 0.4931218 0.4340243 0.4931218 0.5659757 -0.4931218
1990500000 0.5529126 -0.4946177 0.4470874 0.4946177 0.4470874 0.4946177 0.5529126 -0.4946177
2040250000 0.5400710 -0.4957483 0.4599290 0.4957483 0.4599290 0.4957483 0.5400710 -0.4957483
2090000000 0.5274568 -0.4965330 0.4725432 0.4965330 0.4725432 0.4965330 0.5274568 -0.4965330
2139750000 0.5150750 -0.4969907 0.4849250 0.4969907 0.4849250 0.4969907 0.5150750 -0.4969907
2189500000 0.5029292 -0.4971396 0.4970708 0.4971396 0.4970708 0.4971396 0.5029292 -0.4971396
2239250000 0.4910224 -0.4969974 0.5089776 0.4969974 0.5089776 0.4969974 0.4910224 -0.4969974
2289000000 0.4793564 -0.4965812 0.5206436 0.4965812 0.5206436 0.4965812 0.4793564 -0.4965812
2338750000 0.4679324 -0.4959072 0.5320676 0.4959072 0.5320676 0.4959072 0.4679324 -0.4959072
2388500000 0.4567507 -0.4949913 0.5432493 0.4949913 0.5432493 0.4949913 0.4567507 -0.4949913
2438250000 0.4458111 -0.4938484 0.5541889 0.4938484 0.5541889 0.4938484 0.4458111 -0.4938484
2488000000 0.4351127 -0.4924932 0.5648873 0.4924932 0.5648873 0.4924932 0.4351127 -0.4924932
2537750000 0.4246541 -0.4909392 0.5753459 0.4909392 0.5753459 0.4909392 0.4246541 -0.4909392
2587500000 0.4144334 -0.4891998 0.5855666 0.4891998 0.5855666 0.4891998 0.4144334 -0.4891998
2637250000 0.4044485 -0.4872874 0.5955515 0.4872874 0.5955515 0.4872874 0.4044485 -0.4872874
2687000000 0.3946966 -0.4852139 0.6053034 0.4852139 0.6053034 0.4852139 0.3946966 -0.4852139
2736750000 0.3851749 -0.4829907 0.6148251 0.4829907 0.6148251 0.4829907 0.3851749 -0.4829907
2786500000 0.3758800 -0.4806285 0.6241200 0.4806285 0.6241200 0.4806285 0.3758800 -0.4806285
2836250000 0.3668085 -0.4781376 0.6331915 0.4781376 0.6331915 0.4781376 0.3668085 -0.4781376
2886000000 0.3579568 -0.4755274 0.6420432 0.4755274 0.6420432 0.4755274 0.3579568 -0.4755274
2935750000 0.3493210 -0.4728073 0.6506790 0.4728073 0.6506790 0.4728073 0.3493210 -0.4728073
2985500000 0.3408971 -0.4699857 0.6591029 0.4699857 0.6591029 0.4699857 0.3408971 -0.4699857
3035250000 0.3326811 -0.4670709 0.6673189 0.4670709 0.6673189 0.4670709 0.3326811 -0.4670709
3085000000 0.3246689 -0.4640705 0.6753311 0.4640705 0.6753311 0.4640705 0.3246689 -0.4640705
3134750000 0.3168561 -0.4609918 0.6831439 0.4609918 0.6831439 0.4609918 0.3168561 -0.4609918
3184500000 0.3092386 -0.4578416 0.6907614 0.4578416 0.6907614 0.4578416 0.3092386 -0.4578416
3234250000 0.3018119 -0.4546263 0.6981881 0.4546263 0.6981881 0.4546263 0.3018119 -0.4546263
3284000000 0.2945719 -0.4513520 0.7054281 0.4513520 0.7054281 0.4513520 0.2945719 -0.4513520
3333750000 0.2875142 -0.4480243 0.7124858 0.4480243 0.7124858 0.4480243 0.2875142 -0.4480243
3383500000 0.2806344 -0.4446487 0.7193656 0.4446487 0.7193656 0.4446487 0.2806344 -0.4446487
3433250000 0.2739284 -0.4412300 0.7260716 0.4412300 0.7260716 0.4412300 0.2739284 -0.4412300
3483000000 0.2673919 -0.4377731 0.7326081 0.4377731 0.7326081 0.4377731 0.2673919 -0.4377731
3532750000 0.2610208 -0.4342823 0.7389792 0.4342823 0.7389792 0.4342823 0.2610208 -0.4342823
3582500000 0.2548108 -0.4307617 0.7451892 0.4307617 0.7451892 0.4307617 0.2548108 -0.4307617
3632250000 0.2487578 -0.4272152 0.7512422 0.4272152 0.7512422 0.4272152 0.2487578 -0.4272152
3682000000 0.2428580 -0.4236465 0.7571420 0.4236465 0.7571420 0.4236465 0.2428580 -0.4236465
3731750000 0.2371073 -0.4200589 0.7628927 0.4200589 0.7628927 0.4200589 0.2371073 -0.4200589
3781500000 0.2315019 -0.4164555 0.7684981 0.4164555 0.7684981 0.4164555 0.2315019 -0.4164555
3831250000 0.2260378 -0.4128394 0.7739622 0.4128394 0.7739622 0.4128394 0.2260378 -0.4128394
3881000000 0.2207115 -0.4092133 0.7792885 0.4092133 0.7792885 0.4092133 0.2207115 -0.4092133
3930750000 0.2155193 -0.4055798 0.7844807 0.4055798 0.7844807 0.4055798 0.2155193 -0.4055798
3980500000 0.2104575 -0.4019411 0.7895425 0.4019411 0.7895425 0.4019411 0.2104575 -0.4019411
4030250000 0.2055227 -0.3982997 0.7944773 0.3982997 0.7944773 0.3982997 0.2055227 -0.3982997
4080000000 0.2007115 -0.3946575 0.7992885 0.3946575 0.7992885 0.3946575 0.2007115 -0.3946575
4129750000 0.1960205 -0.3910165 0.8039795 0.3910165 0.8039795 0.3910165 0.1960205 -0.3910165
4179500000 0.1914466 -0.3873785 0.8085534 0.3873785 0.8085534 0.3873785 0.1914466 -0.3873785
4229250000 0.1869865 -0.3837451 0.8130135 0.3837451 0.8130135 0.3837451 0.1869865 -0.3837451
4279000000 0.1826371 -0.3801179 0.8173629 0.3801179 0.8173629 0.3801179 0.1826371 -0.3801179
4328750000 0.1783954 -0.3764983 0.8216046 0.3764983 0.8216046 0.3764983 0.1783954 -0.3764983
4378500000 0.1742586 -0.3728877 0.8257414 0.3728877 0.8257414 0.3728877 0.1742586 -0.3728877
4428250000 0.1702237 -0.3692871 0.8297763 0.3692871 0.8297763 0.3692871 0.1702237 -0.3692871
4478000000 0.1662880 -0.3656979 0.8337120 0.3656979 0.8337120 0.3656979 0.1662880 -0.3656979
4527750000 0.1624488 -0.3621209 0.8375512 0.3621209 0.8375512 0.3621209 0.1624488 -0.3621209
4577500000 0.1587035 -0.3585572 0.8412965 0.3585572 0.8412965 0.3585572 0.1587035 -0.3585572
4627250000 0.1550495 -0.3550076 0.8449505 0.3550076 0.8449505 0.3550076 0.1550495 -0.3550076
4677000000 0.1514844 -0.3514730 0.8485156 0.3514730 0.8485156 0.3514730 0.1514844 -0.3514730
4726750000 0.1480057 -0.3479540 0.8519943 0.3479540 0.8519943 0.3479540 0.1480057 -0.3479540
4776500000 0.1446111 -0.3444514 0.8553889 0.3444514 0.8553889 0.3444514 0.1446111 -0.3444514
4826250000 0.1412984 -0.3409657 0.8587016 0.3409657 0.8587016 0.3409657 0.1412984 -0.3409657
4876000000 0.1380652 -0.3374975 0.8619348 0.3374975 0.8619348 0.3374975 0.1380652 -0.3374975
4925750000 0.1349096 -0.3340473 0.8650904 0.3340473 0.8650904 0.3340473 0.1349096 -0.3340473
4975500000 0.1318294 -0.3306155 0.8681706 0.3306155 0.8681706 0.3306155 0.1318294 -0.3306155
5025250000 0.1288225 -0.3272027 0.8711775 0.3272027 0.8711775 0.3272027 0.1288225 -0.3272027
5075000000 0.1258872 -0.3238090 0.8741128 0.3238090 0.8741128 0.3238090 0.1258872 -0.3238090
5124750000 0.1230213 -0.3204348 0.8769787 0.3204348 0.8769787 0.3204348 0.1230213 -0.3204348
5174500000 0.1202231 -0.3170805 0.8797769 0.3170805 0.8797769 0.3170805 0.1202231 -0.3170805
5224250000 0.1174909 -0.3137463 0.8825091 0.3137463 0.8825091 0.3137463 0.1174909 -0.3137463
5274000000 0.1148228 -0.3104323 0.8851772 0.3104323 0.8851772 0.3104323 0.1148228 -0.3104323
5323750000 0.1122172 -0.3071389 0.8877828 0.3071389 0.8877828 0.3071389 0.1122172 -0.3071389
5373500000 0.1096724 -0.3038660 0.8903276 0.3038660 0.8903276 0.3038660 0.1096724 -0.3038660
5423250000 0.1071868 -0.3006139 0.8928132 0.3006139 0.8928132 0.3006139 0.1071868 -0.3006139
5473000000 0.1047590 -0.2973827 0.8952410 0.2973827 0.8952410 0.2973827 0.1047590 -0.2973827
5522750000 0.1023874 -0.2941724 0.8976126 0.2941724 0.8976126 0.2941724 0.1023874 -0.2941724
5572500000 0.1000706 -0.2909831 0.8999294 0.2909831 0.8999294 0.2909831 0.1000706 -0.2909831
5622250000 0.0978071 -0.2878149 0.9021929 0.2878149 0.9021929 0.2878149 0.0978071 -0.2878149
5672000000 0.0955957 -0.2846678 0.9044043 0.2846678 0.9044043 0.2846678 0.0955957 -0.2846678
5721750000 0.0934348 -0.2815417 0.9065652 0.2815417 0.9065652 0.2815417 0.0934348 -0.2815417
5771500000 0.0913234 -0.2784367 0.9086766 0.2784367 0.9086766 0.2784367 0.0913234 -0.2784367
5821250000 0.0892601 -0.2753527 0.9107399 0.2753527 0.9107399 0.2753527 0.0892601 -0.2753527
5871000000 0.0872438 -0.2722898 0.9127562 0.2722898 0.9127562 0.2722898 0.0872438 -0.2722898
5920750000 0.0852731 -0.2692478 0.9147269 0.2692478 0.9147269 0.2692478 0.0852731 -0.2692478
5970500000 0.0833471 -0.2662266 0.9166529 0.2662266 0.9166529 0.2662266 0.0833471 -0.2662266
6020250000 0.0814646 -0.2632263 0.9185354 0.2632263 0.9185354 0.2632263 0.0814646 -0.2632263
6070000000 0.0796245 -0.2602467 0.9203755 0.2602467 0.9203755 0.2602467 0.0796245 -0.2602467
6119750000 0.0778258 -0.2572878 0.9221742 0.2572878 0.9221742 0.2572878 0.0778258 -0.2572878
6169500000 0.0760674 -0.2543494 0.9239326 0.2543494 0.9239326 0.2543494 0.0760674 -0.2543494
6219250000 0.0743484 -0.2514314 0.9256516 0.2514314 0.9256516 0.2514314 0.0743484 -0.2514314
6269000000 0.0726679 -0.2485337 0.9273321 0.2485337 0.9273321 0.2485337 0.0726679 -0.2485337
6318750000 0.0710248 -0.2456562 0.9289752 0.2456562 0.9289752 0.2456562 0.0710248 -0.2456562
6368500000 0.0694183 -0.2427987 0.9305817 0.2427987 0.9305817 0.2427987 0.0694183 -0.2427987
6418250000 0.0678475 -0.2399612 0.9321525 0.2399612 0.9321525 0.2399612 0.0678475 -0.2399612
6468000000 0.0663117 -0.2371434 0.9336883 0.2371434 0.9336883 0.2371434 0.0663117 -0.2371434
6517750000 0.0648098 -0.2343453 0.9351902 0.2343453 0.9351902 0.2343453 0.0648098 -0.2343453
6567500000 0.0633412 -0.2315666 0.9366588 0.2315666 0.9366588 0.2315666 0.0633412 -0.2315666
6617250000 0.0619050 -0.2288073 0.9380950 0.2288073 0.9380950 0.2288073 0.0619050 -0.2288073
6667000000 0.0605006 -0.2260672 0.9394994 0.2260672 0.9394994 0.2260672 0.0605006 -0.2260672
6716750000 0.0591271 -0.2233460 0.9408729 0.2233460 0.9408729 0.2233460 0.0591271 -0.2233460
6766500000 0.0577838 -0.2206438 0.9422162 0.2206438 0.9422162 0.2206438 0.0577838 -0.2206438
6816250000 0.0564701 -0.2179602 0.9435299 0.2179602 0.9435299 0.2179602 0.0564701 -0.2179602
6866000000 0.0551853 -0.2152952 0.9448147 0.2152952 0.9448147 0.2152952 0.0551853 -0.2152952
6915750000 0.0539287 -0.2126485 0.9460713 0.2126485 0.9460713 0.2126485 0.0539287 -0.2126485
6965500000 0.0526997 -0.2100201 0.9473003 0.2100201 0.9473003 0.2100201 0.0526997 -0.2100201
7015250000 0.0514977 -0.2074096 0.9485023 0.2074096 0.9485023 0.2074096 0.0514977 -0.2074096
7065000000 0.0503220 -0.2048171 0.9496780 0.2048171 0.9496780 0.2048171 0.0503220 -0.2048171
7114750000 0.0491721 -0.2022422 0.9508279 0.2022422 0.9508279 0.2022422 0.0491721 -0.2022422
7164500000 0.0480473 -0.1996848 0.9519527 0.1996848 0.9519527 0.1996848 0.0480473 -0.1996848
7214250000 0.0469473 -0.1971448 0.9530527 0.1971448 0.9530527 0.1971448 0.0469473 -0.1971448
7264000000 0.0458713 -0.1946220 0.9541287 0.1946220 0.9541287 0.1946220 0.0458713 -0.1946220
7313750000 0.0448189 -0.1921162 0.9551811 0.1921162 0.9551811 0.1921162 0.0448189 -0.1921162
7363500000 0.0437895 -0.1896273 0.9562105 0.1896273 0.9562105 0.1896273 0.0437895 -0.1896273
7413250000 0.0427827 -0.1871550 0.9572173 0.1871550 0.9572173 0.1871550 0.0427827 -0.1871550
7463000000 0.0417980 -0.1846992 0.9582020 0.1846992 0.9582020 0.1846992 0.0417980 -0.1846992
7512750000 0.0408350 -0.1822597 0.9591650 0.1822597 0.9591650 0.1822597 0.0408350 -0.1822597
7562500000 0.0398930 -0.1798364 0.9601070 0.1798364 0.9601070 0.1798364 0.0398930 -0.1798364
7612250000 0.0389718 -0.1774291 0.9610282 0.1774291 0.9610282 0.1774291 0.0389718 -0.1774291
7662000000 0.0380708 -0.1750376 0.9619292 0.1750376 0.9619292 0.1750376 0.0380708 -0.1750376
7711750000 0.0371897 -0.1726618 0.9628103 0.1726618 0.9628103 0.1726618 0.0371897 -0.1726618
7761500000 0.0363280 -0.1703014 0.9636720 0.1703014 0.9636720 0.1703014 0.0363280 -0.1703014
7811250000 0.0354854 -0.1679564 0.9645146 0.1679564 0.9645146 0.1679564 0.0354854 -0.1679564
7861000000 0.0346614 -0.1656266 0.9653386 0.1656266 0.9653386 0.1656266 0.0346614 -0.1656266
7910750000 0.0338556 -0.1633118 0.9661444 0.1633118 0.9661444 0.1633118 0.0338556 -0.1633118
7960500000 0.0330678 -0.1610118 0.9669322 0.1610118 0.9669322 0.1610118 0.0330678 -0.1610118
8010250000 0.0322974 -0.1587265 0.9677026 0.1587265 0.9677026 0.1587265 0.0322974 -0.1587265
8060000000 0.0315443 -0.1564557 0.9684557 0.1564557 0.9684557 0.1564557 0.0315443 -0.1564557
8109750000 0.0308079 -0.1541993 0.9691921 0.1541993 0.9691921 0.1541993 0.0308079 -0.1541993
8159500000 0.0300881 -0.1519571 0.9699119 0.1519571 0.9699119 0.1519571 0.0300881 -0.1519571
8209250000 0.0293844 -0.1497290 0.9706156 0.1497290 0.9706156 0.1497290 0.0293844 -0.1497290
8259000000 0.0286966 -0.1475147 0.9713034 0.1475147 0.9713034 0.1475147 0.0286966 -0.1475147
8308750000 0.0280243 -0.1453143 0.9719757 0.1453143 0.9719757 0.1453143 0.0280243 -0.1453143
8358500000 0.0273672 -0.1431274 0.9726328 0.1431274 0.9726328 0.1431274 0.0273672 -0.1431274
8408250000 0.0267251 -0.1409540 0.9732749 0.1409540 0.9732749 0.1409540 0.0267251 -0.1409540
8458000000 0.0260977 -0.1387939 0.9739023 0.1387939 0.9739023 0.1387939 0.0260977 -0.1387939
8507750000 0.0254846 -0.1366469 0.9745154 0.1366469 0.9745154 0.1366469 0.0254846 -0.1366469
8557500000 0.0248856 -0.1345130 0.9751144 0.1345130 0.9751144 0.1345130 0.0248856 -0.1345130
8607250000 0.0243005 -0.1323919 0.9756995 0.1323919 0.9756995 0.1323919 0.0243005 -0.1323919
8657000000 0.0237289 -0.1302836 0.9762711 0.1302836 0.9762711 0.1302836 0.0237289 -0.1302836
8706750000 0.0231707 -0.1281879 0.9768293 0.1281879 0.9768293 0.1281879 0.0231707 -0.1281879
8756500000 0.0226255 -0.1261046 0.9773745 0.1261046 0.9773745 0.1261046 0.0226255 -0.1261046
8806250000 0.0220931 -0.1240337 0.9779069 0.1240337 0.9779069 0.1240337 0.0220931 -0.1240337
8856000000 0.0215734 -0.1219749 0.9784266 0.1219749 0.9784266 0.1219749 0.0215734 -0.1219749
8905750000 0.0210660 -0.1199282 0.9789340 0.1199282 0.9789340 0.1199282 0.0210660 -0.1199282
8955500000 0.0205707 -0.1178934 0.9794293 0.1178934 0.9794293 0.1178934 0.0205707 -0.1178934
9005250000 0.0200874 -0.1158705 0.9799126 0.1158705 0.9799126 0.1158705 0.0200874 -0.1158705
9055000000 0.0196157 -0.1138591 0.9803843 0.1138591 0.9803843 0.1138591 0.0196157 -0.1138591
9104750000 0.0191556 -0.1118594 0.9808444 0.1118594 0.9808444 0.1118594 0.0191556 -0.1118594
9154500000 0.0187068 -0.1098710 0.9812932 0.1098710 0.9812932 0.1098710 0.0187068 -0.1098710
9204250000 0.0182690 -0.1078939 0.9817310 0.1078939 0.9817310 0.1078939 0.0182690 -0.1078939
9254000000 0.0178421 -0.1059280 0.9821579 0.1059280 0.9821579 0.1059280 0.0178421 -0.1059280
9303750000 0.0174260 -0.1039731 0.9825740 0.1039731 0.9825740 0.1039731 0.0174260 -0.1039731
9353500000 0.0170203 -0.1020292 0.9829797 0.1020292 0.9829797 0.1020292 0.0170203 -0.1020292
9403250000 0.0166250 -0.1000961 0.9833750 0.1000961 0.9833750 0.1000961 0.0166250 -0.1000961
9453000000 0.0162399 -0.0981736 0.9837601 0.0981736 0.9837601 0.0981736 0.0162399 -0.0981736
9502750000 0.0158647 -0.0962618 0.9841353 0.0962618 0.9841353 0.0962618 0.0158647 -0.0962618
9552500000 0.0154994 -0.0943604 0.9845006 0.0943604 0.9845006 0.0943604 0.0154994 -0.0943604
9602250000 0.0151437 -0.0924693 0.9848563 0.0924693 0.9848563 0.0924693 0.0151437 -0.0924693
9652000000 0.0147975 -0.0905885 0.9852025 0.0905885 0.9852025 0.0905885 0.0147975 -0.0905885
9701750000 0.0144606 -0.0887178 0.9855394 0.0887178 0.9855394 0.0887178 0.0144606 -0.0887178
9751500000 0.0141329 -0.0868572 0.9858671 0.0868572 0.9858671 0.0868572 0.0141329 -0.0868572
9801250000 0.0138142 -0.0850065 0.9861858 0.0850065 0.9861858 0.0850065 0.0138142 -0.0850065
9851000000 0.0135043 -0.0831655 0.9864957 0.0831655 0.9864957 0.0831655 0.0135043 -0.0831655
9900750000 0.0132033 -0.0813343 0.9867967 0.0813343 0.9867967 0.0813343 0.0132033 -0.0813343
9950500000 0.0129108 -0.0795128 0.9870892 0.0795128 0.9870892 0.0795128 0.0129108 -0.0795128
10000250000 0.0126267 -0.0777007 0.9873733 0.0777007 0.9873733 0.0777007 0.0126267 -0.0777007
10050000000 0.0123510 -0.0758980 0.9876490 0.0758980 0.9876490 0.0758980 0.0123510 -0.0758980
10099750000 0.0120834 -0.0741046 0.9879166 0.0741046 0.9879166 0.0741046 0.0120834 -0.0741046
10149500000 0.0118239 -0.0723205 0.9881761 0.0723205 0.9881761 0.0723205 0.0118239 -0.0723205
10199250000 0.0115723 -0.0705454 0.9884277 0.0705454 0.9884277 0.0705454 0.0115723 -0.0705454
10249000000 0.0113285 -0.0687794 0.9886715 0.0687794 0.9886715 0.0687794 0.0113285 -0.0687794
10298750000 0.0110923 -0.0670223 0.9889077 0.0670223 0.9889077 0.0670223 0.0110923 -0.0670223
10348500000 0.0108638 -0.0652741 0.9891362 0.0652741 0.9891362 0.0652741 0.0108638 -0.0652741
10398250000 0.0106426 -0.0635345 0.9893574 0.0635345 0.9893574 0.0635345 0.0106426 -0.0635345
10448000000 0.0104288 -0.0618037 0.9895712 0.0618037 0.9895712 0.0618037 0.0104288 -0.0618037
10497750000 0.0102223 -0.0600814 0.9897777 0.0600814 0.9897777 0.0600814 0.0102223 -0.0600814
