!Murata Part Number: GRM0223C1C3R4BA03
!These Parameters are Measured in Series Mode Connection
!Data Generated on Mar 30, 2021
!       o--ll--o
!Port1            Port2
!       o------o
!Operation Temp=25[degC], DC Bias Voltage=0[V]
!Freq. Start=100[MHz] Stop=9[GHz] 401[Steps]
# Hz S RI R 50
!Freq.(Hz) S11(Real) S11(Imag) S21(Real) S21(Imag) S12(Real) S12(Imag) S22(Real) S22(Imag)
100000000 0.9562579 -0.2043164 0.0437421 0.2043164 0.0437421 0.2043164 0.9562579 -0.2043164
121000000 0.9372202 -0.2423190 0.0627798 0.2423190 0.0627798 0.2423190 0.9372202 -0.2423190
142000000 0.9155204 -0.2778146 0.0844796 0.2778146 0.0844796 0.2778146 0.9155204 -0.2778146
163000000 0.8915693 -0.3105886 0.1084307 0.3105886 0.1084307 0.3105886 0.8915693 -0.3105886
184000000 0.8657859 -0.3405032 0.1342141 0.3405032 0.1342141 0.3405032 0.8657859 -0.3405032
205000000 0.8385822 -0.3674924 0.1614178 0.3674924 0.1614178 0.3674924 0.8385822 -0.3674924
226000000 0.8103514 -0.3915546 0.1896486 0.3915546 0.1896486 0.3915546 0.8103514 -0.3915546
247000000 0.7814576 -0.4127437 0.2185424 0.4127437 0.2185424 0.4127437 0.7814576 -0.4127437
268000000 0.7522300 -0.4311581 0.2477700 0.4311581 0.2477700 0.4311581 0.7522300 -0.4311581
289000000 0.7229585 -0.4469315 0.2770415 0.4469315 0.2770415 0.4469315 0.7229585 -0.4469315
310000000 0.6938927 -0.4602225 0.3061073 0.4602225 0.3061073 0.4602225 0.6938927 -0.4602225
331000000 0.6652420 -0.4712062 0.3347580 0.4712062 0.3347580 0.4712062 0.6652420 -0.4712062
352000000 0.6371779 -0.4800666 0.3628221 0.4800666 0.3628221 0.4800666 0.6371779 -0.4800666
373000000 0.6098371 -0.4869906 0.3901629 0.4869906 0.3901629 0.4869906 0.6098371 -0.4869906
394000000 0.5833241 -0.4921630 0.4166759 0.4921630 0.4166759 0.4921630 0.5833241 -0.4921630
415000000 0.5577159 -0.4957627 0.4422841 0.4957627 0.4422841 0.4957627 0.5577159 -0.4957627
436000000 0.5330655 -0.4979599 0.4669345 0.4979599 0.4669345 0.4979599 0.5330655 -0.4979599
457000000 0.5094053 -0.4989147 0.4905947 0.4989147 0.4905947 0.4989147 0.5094053 -0.4989147
478000000 0.4867509 -0.4987756 0.5132491 0.4987756 0.5132491 0.4987756 0.4867509 -0.4987756
499000000 0.4651041 -0.4976792 0.5348959 0.4976792 0.5348959 0.4976792 0.4651041 -0.4976792
520000000 0.4444553 -0.4957501 0.5555447 0.4957501 0.5555447 0.4957501 0.4444553 -0.4957501
541000000 0.4247863 -0.4931010 0.5752137 0.4931010 0.5752137 0.4931010 0.4247863 -0.4931010
562000000 0.4060724 -0.4898337 0.5939276 0.4898337 0.5939276 0.4898337 0.4060724 -0.4898337
583000000 0.3882836 -0.4860389 0.6117164 0.4860389 0.6117164 0.4860389 0.3882836 -0.4860389
604000000 0.3713865 -0.4817979 0.6286135 0.4817979 0.6286135 0.4817979 0.3713865 -0.4817979
625000000 0.3553454 -0.4771824 0.6446546 0.4771824 0.6446546 0.4771824 0.3553454 -0.4771824
646000000 0.3401231 -0.4722562 0.6598769 0.4722562 0.6598769 0.4722562 0.3401231 -0.4722562
667000000 0.3256817 -0.4670753 0.6743183 0.4670753 0.6743183 0.4670753 0.3256817 -0.4670753
688000000 0.3119834 -0.4616889 0.6880166 0.4616889 0.6880166 0.4616889 0.3119834 -0.4616889
709000000 0.2989907 -0.4561401 0.7010093 0.4561401 0.7010093 0.4561401 0.2989907 -0.4561401
730000000 0.2866671 -0.4504667 0.7133329 0.4504667 0.7133329 0.4504667 0.2866671 -0.4504667
751000000 0.2749768 -0.4447013 0.7250232 0.4447013 0.7250232 0.4447013 0.2749768 -0.4447013
772000000 0.2638856 -0.4388725 0.7361144 0.4388725 0.7361144 0.4388725 0.2638856 -0.4388725
793000000 0.2533605 -0.4330048 0.7466395 0.4330048 0.7466395 0.4330048 0.2533605 -0.4330048
814000000 0.2433698 -0.4271195 0.7566302 0.4271195 0.7566302 0.4271195 0.2433698 -0.4271195
835000000 0.2338837 -0.4212350 0.7661163 0.4212350 0.7661163 0.4212350 0.2338837 -0.4212350
856000000 0.2248735 -0.4153668 0.7751265 0.4153668 0.7751265 0.4153668 0.2248735 -0.4153668
877000000 0.2163121 -0.4095283 0.7836879 0.4095283 0.7836879 0.4095283 0.2163121 -0.4095283
898000000 0.2081742 -0.4037308 0.7918258 0.4037308 0.7918258 0.4037308 0.2081742 -0.4037308
919000000 0.2004354 -0.3979838 0.7995646 0.3979838 0.7995646 0.3979838 0.2004354 -0.3979838
940000000 0.1930731 -0.3922955 0.8069269 0.3922955 0.8069269 0.3922955 0.1930731 -0.3922955
961000000 0.1860658 -0.3866724 0.8139342 0.3866724 0.8139342 0.3866724 0.1860658 -0.3866724
982000000 0.1793934 -0.3811201 0.8206066 0.3811201 0.8206066 0.3811201 0.1793934 -0.3811201
1003000000 0.1730369 -0.3756430 0.8269631 0.3756430 0.8269631 0.3756430 0.1730369 -0.3756430
1024000000 0.1669785 -0.3702446 0.8330215 0.3702446 0.8330215 0.3702446 0.1669785 -0.3702446
1045000000 0.1612016 -0.3649278 0.8387984 0.3649278 0.8387984 0.3649278 0.1612016 -0.3649278
1066000000 0.1556903 -0.3596947 0.8443097 0.3596947 0.8443097 0.3596947 0.1556903 -0.3596947
1087000000 0.1504300 -0.3545469 0.8495700 0.3545469 0.8495700 0.3545469 0.1504300 -0.3545469
1108000000 0.1454069 -0.3494853 0.8545931 0.3494853 0.8545931 0.3494853 0.1454069 -0.3494853
1129000000 0.1406079 -0.3445105 0.8593921 0.3445105 0.8593921 0.3445105 0.1406079 -0.3445105
1150000000 0.1360208 -0.3396229 0.8639792 0.3396229 0.8639792 0.3396229 0.1360208 -0.3396229
1171000000 0.1316343 -0.3348224 0.8683657 0.3348224 0.8683657 0.3348224 0.1316343 -0.3348224
1192000000 0.1274375 -0.3301085 0.8725625 0.3301085 0.8725625 0.3301085 0.1274375 -0.3301085
1213000000 0.1234204 -0.3254807 0.8765796 0.3254807 0.8765796 0.3254807 0.1234204 -0.3254807
1234000000 0.1195735 -0.3209383 0.8804265 0.3209383 0.8804265 0.3209383 0.1195735 -0.3209383
1255000000 0.1158880 -0.3164802 0.8841120 0.3164802 0.8841120 0.3164802 0.1158880 -0.3164802
1276000000 0.1123554 -0.3121055 0.8876446 0.3121055 0.8876446 0.3121055 0.1123554 -0.3121055
1297000000 0.1089678 -0.3078129 0.8910322 0.3078129 0.8910322 0.3078129 0.1089678 -0.3078129
1318000000 0.1057179 -0.3036012 0.8942821 0.3036012 0.8942821 0.3036012 0.1057179 -0.3036012
1339000000 0.1025988 -0.2994690 0.8974012 0.2994690 0.8974012 0.2994690 0.1025988 -0.2994690
1360000000 0.0996038 -0.2954149 0.9003962 0.2954149 0.9003962 0.2954149 0.0996038 -0.2954149
1381000000 0.0967269 -0.2914374 0.9032731 0.2914374 0.9032731 0.2914374 0.0967269 -0.2914374
1402000000 0.0939621 -0.2875350 0.9060379 0.2875350 0.9060379 0.2875350 0.0939621 -0.2875350
1423000000 0.0913041 -0.2837063 0.9086959 0.2837063 0.9086959 0.2837063 0.0913041 -0.2837063
1444000000 0.0887476 -0.2799497 0.9112524 0.2799497 0.9112524 0.2799497 0.0887476 -0.2799497
1465000000 0.0862878 -0.2762637 0.9137122 0.2762637 0.9137122 0.2762637 0.0862878 -0.2762637
1486000000 0.0839202 -0.2726467 0.9160798 0.2726467 0.9160798 0.2726467 0.0839202 -0.2726467
1507000000 0.0816403 -0.2690973 0.9183597 0.2690973 0.9183597 0.2690973 0.0816403 -0.2690973
1528000000 0.0794441 -0.2656138 0.9205559 0.2656138 0.9205559 0.2656138 0.0794441 -0.2656138
1549000000 0.0773277 -0.2621948 0.9226723 0.2621948 0.9226723 0.2621948 0.0773277 -0.2621948
1570000000 0.0752875 -0.2588388 0.9247125 0.2588388 0.9247125 0.2588388 0.0752875 -0.2588388
1591000000 0.0733200 -0.2555443 0.9266800 0.2555443 0.9266800 0.2555443 0.0733200 -0.2555443
1612000000 0.0714220 -0.2523099 0.9285780 0.2523099 0.9285780 0.2523099 0.0714220 -0.2523099
1633000000 0.0695903 -0.2491341 0.9304097 0.2491341 0.9304097 0.2491341 0.0695903 -0.2491341
1654000000 0.0678220 -0.2460156 0.9321780 0.2460156 0.9321780 0.2460156 0.0678220 -0.2460156
1675000000 0.0661144 -0.2429530 0.9338856 0.2429530 0.9338856 0.2429530 0.0661144 -0.2429530
1696000000 0.0644648 -0.2399449 0.9355352 0.2399449 0.9355352 0.2399449 0.0644648 -0.2399449
1717000000 0.0628707 -0.2369900 0.9371293 0.2369900 0.9371293 0.2369900 0.0628707 -0.2369900
1738000000 0.0613298 -0.2340871 0.9386702 0.2340871 0.9386702 0.2340871 0.0613298 -0.2340871
1759000000 0.0598398 -0.2312348 0.9401602 0.2312348 0.9401602 0.2312348 0.0598398 -0.2312348
1780000000 0.0583986 -0.2284320 0.9416014 0.2284320 0.9416014 0.2284320 0.0583986 -0.2284320
1801000000 0.0570042 -0.2256774 0.9429958 0.2256774 0.9429958 0.2256774 0.0570042 -0.2256774
1822000000 0.0556546 -0.2229698 0.9443454 0.2229698 0.9443454 0.2229698 0.0556546 -0.2229698
1843000000 0.0543481 -0.2203082 0.9456519 0.2203082 0.9456519 0.2203082 0.0543481 -0.2203082
1864000000 0.0530828 -0.2176914 0.9469172 0.2176914 0.9469172 0.2176914 0.0530828 -0.2176914
1885000000 0.0518572 -0.2151184 0.9481428 0.2151184 0.9481428 0.2151184 0.0518572 -0.2151184
1906000000 0.0506696 -0.2125880 0.9493304 0.2125880 0.9493304 0.2125880 0.0506696 -0.2125880
1927000000 0.0495186 -0.2100993 0.9504814 0.2100993 0.9504814 0.2100993 0.0495186 -0.2100993
1948000000 0.0484027 -0.2076512 0.9515973 0.2076512 0.9515973 0.2076512 0.0484027 -0.2076512
1969000000 0.0473206 -0.2052427 0.9526794 0.2052427 0.9526794 0.2052427 0.0473206 -0.2052427
1990000000 0.0462710 -0.2028730 0.9537290 0.2028730 0.9537290 0.2028730 0.0462710 -0.2028730
2011000000 0.0452527 -0.2005411 0.9547473 0.2005411 0.9547473 0.2005411 0.0452527 -0.2005411
2032000000 0.0442644 -0.1982460 0.9557356 0.1982460 0.9557356 0.1982460 0.0442644 -0.1982460
2053000000 0.0433050 -0.1959870 0.9566950 0.1959870 0.9566950 0.1959870 0.0433050 -0.1959870
2074000000 0.0423736 -0.1937631 0.9576264 0.1937631 0.9576264 0.1937631 0.0423736 -0.1937631
2095000000 0.0414690 -0.1915736 0.9585310 0.1915736 0.9585310 0.1915736 0.0414690 -0.1915736
2116000000 0.0405902 -0.1894176 0.9594098 0.1894176 0.9594098 0.1894176 0.0405902 -0.1894176
2137000000 0.0397364 -0.1872944 0.9602636 0.1872944 0.9602636 0.1872944 0.0397364 -0.1872944
2158000000 0.0389067 -0.1852031 0.9610933 0.1852031 0.9610933 0.1852031 0.0389067 -0.1852031
2179000000 0.0381001 -0.1831431 0.9618999 0.1831431 0.9618999 0.1831431 0.0381001 -0.1831431
2200000000 0.0373159 -0.1811137 0.9626841 0.1811137 0.9626841 0.1811137 0.0373159 -0.1811137
2221000000 0.0365533 -0.1791140 0.9634467 0.1791140 0.9634467 0.1791140 0.0365533 -0.1791140
2242000000 0.0358115 -0.1771435 0.9641885 0.1771435 0.9641885 0.1771435 0.0358115 -0.1771435
2263000000 0.0350899 -0.1752015 0.9649101 0.1752015 0.9649101 0.1752015 0.0350899 -0.1752015
2284000000 0.0343877 -0.1732874 0.9656123 0.1732874 0.9656123 0.1732874 0.0343877 -0.1732874
2305000000 0.0337042 -0.1714004 0.9662958 0.1714004 0.9662958 0.1714004 0.0337042 -0.1714004
2326000000 0.0330389 -0.1695401 0.9669611 0.1695401 0.9669611 0.1695401 0.0330389 -0.1695401
2347000000 0.0323912 -0.1677057 0.9676088 0.1677057 0.9676088 0.1677057 0.0323912 -0.1677057
2368000000 0.0317604 -0.1658968 0.9682396 0.1658968 0.9682396 0.1658968 0.0317604 -0.1658968
2389000000 0.0311460 -0.1641128 0.9688540 0.1641128 0.9688540 0.1641128 0.0311460 -0.1641128
2410000000 0.0305475 -0.1623531 0.9694525 0.1623531 0.9694525 0.1623531 0.0305475 -0.1623531
2431000000 0.0299643 -0.1606172 0.9700357 0.1606172 0.9700357 0.1606172 0.0299643 -0.1606172
2452000000 0.0293960 -0.1589045 0.9706040 0.1589045 0.9706040 0.1589045 0.0293960 -0.1589045
2473000000 0.0288420 -0.1572147 0.9711580 0.1572147 0.9711580 0.1572147 0.0288420 -0.1572147
2494000000 0.0283020 -0.1555471 0.9716980 0.1555471 0.9716980 0.1555471 0.0283020 -0.1555471
2515000000 0.0277755 -0.1539013 0.9722245 0.1539013 0.9722245 0.1539013 0.0277755 -0.1539013
2536000000 0.0272621 -0.1522769 0.9727379 0.1522769 0.9727379 0.1522769 0.0272621 -0.1522769
2557000000 0.0267613 -0.1506734 0.9732387 0.1506734 0.9732387 0.1506734 0.0267613 -0.1506734
2578000000 0.0262729 -0.1490903 0.9737271 0.1490903 0.9737271 0.1490903 0.0262729 -0.1490903
2599000000 0.0257963 -0.1475273 0.9742037 0.1475273 0.9742037 0.1475273 0.0257963 -0.1475273
2620000000 0.0253313 -0.1459838 0.9746687 0.1459838 0.9746687 0.1459838 0.0253313 -0.1459838
2641000000 0.0248775 -0.1444596 0.9751225 0.1444596 0.9751225 0.1444596 0.0248775 -0.1444596
2662000000 0.0244345 -0.1429541 0.9755655 0.1429541 0.9755655 0.1429541 0.0244345 -0.1429541
2683000000 0.0240021 -0.1414671 0.9759979 0.1414671 0.9759979 0.1414671 0.0240021 -0.1414671
2704000000 0.0235799 -0.1399982 0.9764201 0.1399982 0.9764201 0.1399982 0.0235799 -0.1399982
2725000000 0.0231677 -0.1385469 0.9768323 0.1385469 0.9768323 0.1385469 0.0231677 -0.1385469
2746000000 0.0227651 -0.1371129 0.9772349 0.1371129 0.9772349 0.1371129 0.0227651 -0.1371129
2767000000 0.0223719 -0.1356959 0.9776281 0.1356959 0.9776281 0.1356959 0.0223719 -0.1356959
2788000000 0.0219878 -0.1342956 0.9780122 0.1342956 0.9780122 0.1342956 0.0219878 -0.1342956
2809000000 0.0216125 -0.1329115 0.9783875 0.1329115 0.9783875 0.1329115 0.0216125 -0.1329115
2830000000 0.0212458 -0.1315435 0.9787542 0.1315435 0.9787542 0.1315435 0.0212458 -0.1315435
2851000000 0.0208875 -0.1301911 0.9791125 0.1301911 0.9791125 0.1301911 0.0208875 -0.1301911
2872000000 0.0205373 -0.1288540 0.9794627 0.1288540 0.9794627 0.1288540 0.0205373 -0.1288540
2893000000 0.0201951 -0.1275321 0.9798049 0.1275321 0.9798049 0.1275321 0.0201951 -0.1275321
2914000000 0.0198605 -0.1262249 0.9801395 0.1262249 0.9801395 0.1262249 0.0198605 -0.1262249
2935000000 0.0195333 -0.1249322 0.9804667 0.1249322 0.9804667 0.1249322 0.0195333 -0.1249322
2956000000 0.0192135 -0.1236538 0.9807865 0.1236538 0.9807865 0.1236538 0.0192135 -0.1236538
2977000000 0.0189007 -0.1223893 0.9810993 0.1223893 0.9810993 0.1223893 0.0189007 -0.1223893
2998000000 0.0185948 -0.1211384 0.9814052 0.1211384 0.9814052 0.1211384 0.0185948 -0.1211384
3019000000 0.0182956 -0.1199010 0.9817044 0.1199010 0.9817044 0.1199010 0.0182956 -0.1199010
3040000000 0.0180030 -0.1186768 0.9819970 0.1186768 0.9819970 0.1186768 0.0180030 -0.1186768
3061000000 0.0177167 -0.1174655 0.9822833 0.1174655 0.9822833 0.1174655 0.0177167 -0.1174655
3082000000 0.0174366 -0.1162669 0.9825634 0.1162669 0.9825634 0.1162669 0.0174366 -0.1162669
3103000000 0.0171625 -0.1150807 0.9828375 0.1150807 0.9828375 0.1150807 0.0171625 -0.1150807
3124000000 0.0168944 -0.1139068 0.9831056 0.1139068 0.9831056 0.1139068 0.0168944 -0.1139068
3145000000 0.0166319 -0.1127449 0.9833681 0.1127449 0.9833681 0.1127449 0.0166319 -0.1127449
3166000000 0.0163750 -0.1115948 0.9836250 0.1115948 0.9836250 0.1115948 0.0163750 -0.1115948
3187000000 0.0161236 -0.1104562 0.9838764 0.1104562 0.9838764 0.1104562 0.0161236 -0.1104562
3208000000 0.0158775 -0.1093291 0.9841225 0.1093291 0.9841225 0.1093291 0.0158775 -0.1093291
3229000000 0.0156366 -0.1082131 0.9843634 0.1082131 0.9843634 0.1082131 0.0156366 -0.1082131
3250000000 0.0154007 -0.1071080 0.9845993 0.1071080 0.9845993 0.1071080 0.0154007 -0.1071080
3271000000 0.0151697 -0.1060138 0.9848303 0.1060138 0.9848303 0.1060138 0.0151697 -0.1060138
3292000000 0.0149436 -0.1049301 0.9850564 0.1049301 0.9850564 0.1049301 0.0149436 -0.1049301
3313000000 0.0147221 -0.1038569 0.9852779 0.1038569 0.9852779 0.1038569 0.0147221 -0.1038569
3334000000 0.0145052 -0.1027938 0.9854948 0.1027938 0.9854948 0.1027938 0.0145052 -0.1027938
3355000000 0.0142928 -0.1017408 0.9857072 0.1017408 0.9857072 0.1017408 0.0142928 -0.1017408
3376000000 0.0140848 -0.1006977 0.9859152 0.1006977 0.9859152 0.1006977 0.0140848 -0.1006977
3397000000 0.0138810 -0.0996643 0.9861190 0.0996643 0.9861190 0.0996643 0.0138810 -0.0996643
3418000000 0.0136813 -0.0986404 0.9863187 0.0986404 0.9863187 0.0986404 0.0136813 -0.0986404
3439000000 0.0134858 -0.0976260 0.9865142 0.0976260 0.9865142 0.0976260 0.0134858 -0.0976260
3460000000 0.0132942 -0.0966207 0.9867058 0.0966207 0.9867058 0.0966207 0.0132942 -0.0966207
3481000000 0.0131064 -0.0956245 0.9868936 0.0956245 0.9868936 0.0956245 0.0131064 -0.0956245
3502000000 0.0129225 -0.0946372 0.9870775 0.0946372 0.9870775 0.0946372 0.0129225 -0.0946372
3523000000 0.0127423 -0.0936587 0.9872577 0.0936587 0.9872577 0.0936587 0.0127423 -0.0936587
3544000000 0.0125656 -0.0926888 0.9874344 0.0926888 0.9874344 0.0926888 0.0125656 -0.0926888
3565000000 0.0123926 -0.0917274 0.9876074 0.0917274 0.9876074 0.0917274 0.0123926 -0.0917274
3586000000 0.0122229 -0.0907744 0.9877771 0.0907744 0.9877771 0.0907744 0.0122229 -0.0907744
3607000000 0.0120567 -0.0898295 0.9879433 0.0898295 0.9879433 0.0898295 0.0120567 -0.0898295
3628000000 0.0118938 -0.0888927 0.9881062 0.0888927 0.9881062 0.0888927 0.0118938 -0.0888927
3649000000 0.0117341 -0.0879639 0.9882659 0.0879639 0.9882659 0.0879639 0.0117341 -0.0879639
3670000000 0.0115775 -0.0870429 0.9884225 0.0870429 0.9884225 0.0870429 0.0115775 -0.0870429
3691000000 0.0114241 -0.0861296 0.9885759 0.0861296 0.9885759 0.0861296 0.0114241 -0.0861296
3712000000 0.0112737 -0.0852239 0.9887263 0.0852239 0.9887263 0.0852239 0.0112737 -0.0852239
3733000000 0.0111262 -0.0843256 0.9888738 0.0843256 0.9888738 0.0843256 0.0111262 -0.0843256
3754000000 0.0109817 -0.0834347 0.9890183 0.0834347 0.9890183 0.0834347 0.0109817 -0.0834347
3775000000 0.0108400 -0.0825509 0.9891600 0.0825509 0.9891600 0.0825509 0.0108400 -0.0825509
3796000000 0.0107010 -0.0816743 0.9892990 0.0816743 0.9892990 0.0816743 0.0107010 -0.0816743
3817000000 0.0105648 -0.0808047 0.9894352 0.0808047 0.9894352 0.0808047 0.0105648 -0.0808047
3838000000 0.0104313 -0.0799420 0.9895687 0.0799420 0.9895687 0.0799420 0.0104313 -0.0799420
3859000000 0.0103004 -0.0790861 0.9896996 0.0790861 0.9896996 0.0790861 0.0103004 -0.0790861
3880000000 0.0101720 -0.0782368 0.9898280 0.0782368 0.9898280 0.0782368 0.0101720 -0.0782368
3901000000 0.0100461 -0.0773942 0.9899539 0.0773942 0.9899539 0.0773942 0.0100461 -0.0773942
3922000000 0.0099227 -0.0765580 0.9900773 0.0765580 0.9900773 0.0765580 0.0099227 -0.0765580
3943000000 0.0098017 -0.0757282 0.9901983 0.0757282 0.9901983 0.0757282 0.0098017 -0.0757282
3964000000 0.0096830 -0.0749047 0.9903170 0.0749047 0.9903170 0.0749047 0.0096830 -0.0749047
3985000000 0.0095666 -0.0740874 0.9904334 0.0740874 0.9904334 0.0740874 0.0095666 -0.0740874
4006000000 0.0094526 -0.0732762 0.9905474 0.0732762 0.9905474 0.0732762 0.0094526 -0.0732762
4027000000 0.0093407 -0.0724710 0.9906593 0.0724710 0.9906593 0.0724710 0.0093407 -0.0724710
4048000000 0.0092310 -0.0716718 0.9907690 0.0716718 0.9907690 0.0716718 0.0092310 -0.0716718
4069000000 0.0091234 -0.0708784 0.9908766 0.0708784 0.9908766 0.0708784 0.0091234 -0.0708784
4090000000 0.0090179 -0.0700907 0.9909821 0.0700907 0.9909821 0.0700907 0.0090179 -0.0700907
4111000000 0.0089145 -0.0693088 0.9910855 0.0693088 0.9910855 0.0693088 0.0089145 -0.0693088
4132000000 0.0088131 -0.0685324 0.9911869 0.0685324 0.9911869 0.0685324 0.0088131 -0.0685324
4153000000 0.0087136 -0.0677615 0.9912864 0.0677615 0.9912864 0.0677615 0.0087136 -0.0677615
4174000000 0.0086161 -0.0669960 0.9913839 0.0669960 0.9913839 0.0669960 0.0086161 -0.0669960
4195000000 0.0085205 -0.0662359 0.9914795 0.0662359 0.9914795 0.0662359 0.0085205 -0.0662359
4216000000 0.0084267 -0.0654811 0.9915733 0.0654811 0.9915733 0.0654811 0.0084267 -0.0654811
4237000000 0.0083348 -0.0647315 0.9916652 0.0647315 0.9916652 0.0647315 0.0083348 -0.0647315
4258000000 0.0082446 -0.0639870 0.9917554 0.0639870 0.9917554 0.0639870 0.0082446 -0.0639870
4279000000 0.0081563 -0.0632476 0.9918437 0.0632476 0.9918437 0.0632476 0.0081563 -0.0632476
4300000000 0.0080696 -0.0625132 0.9919304 0.0625132 0.9919304 0.0625132 0.0080696 -0.0625132
4321000000 0.0079847 -0.0617837 0.9920153 0.0617837 0.9920153 0.0617837 0.0079847 -0.0617837
4342000000 0.0079014 -0.0610591 0.9920986 0.0610591 0.9920986 0.0610591 0.0079014 -0.0610591
4363000000 0.0078197 -0.0603392 0.9921803 0.0603392 0.9921803 0.0603392 0.0078197 -0.0603392
4384000000 0.0077397 -0.0596241 0.9922603 0.0596241 0.9922603 0.0596241 0.0077397 -0.0596241
4405000000 0.0076612 -0.0589136 0.9923388 0.0589136 0.9923388 0.0589136 0.0076612 -0.0589136
4426000000 0.0075843 -0.0582077 0.9924157 0.0582077 0.9924157 0.0582077 0.0075843 -0.0582077
4447000000 0.0075089 -0.0575063 0.9924911 0.0575063 0.9924911 0.0575063 0.0075089 -0.0575063
4468000000 0.0074350 -0.0568095 0.9925650 0.0568095 0.9925650 0.0568095 0.0074350 -0.0568095
4489000000 0.0073625 -0.0561170 0.9926375 0.0561170 0.9926375 0.0561170 0.0073625 -0.0561170
4510000000 0.0072915 -0.0554289 0.9927085 0.0554289 0.9927085 0.0554289 0.0072915 -0.0554289
