!Murata Part Number: GRM0225C1E3R7BA03
!These Parameters are Measured in Series Mode Connection
!Data Generated on Mar 30, 2021
!       o--ll--o
!Port1            Port2
!       o------o
!Operation Temp=25[degC], DC Bias Voltage=0[V]
!Freq. Start=100[MHz] Stop=9[GHz] 401[Steps]
# Hz S RI R 50
!Freq.(Hz) S11(Real) S11(Imag) S21(Real) S21(Imag) S12(Real) S12(Imag) S22(Real) S22(Imag)
100000000 0.9486131 -0.2205683 0.0513869 0.2205683 0.0513869 0.2205683 0.9486131 -0.2205683
121000000 0.9265030 -0.2606871 0.0734970 0.2606871 0.0734970 0.2606871 0.9265030 -0.2606871
142000000 0.9014869 -0.2976973 0.0985131 0.2976973 0.0985131 0.2976973 0.9014869 -0.2976973
163000000 0.8741023 -0.3313774 0.1258977 0.3313774 0.1258977 0.3313774 0.8741023 -0.3313774
184000000 0.8448854 -0.3616102 0.1551146 0.3616102 0.1551146 0.3616102 0.8448854 -0.3616102
205000000 0.8143505 -0.3883723 0.1856495 0.3883723 0.1856495 0.3883723 0.8143505 -0.3883723
226000000 0.7829744 -0.4117210 0.2170256 0.4117210 0.2170256 0.4117210 0.7829744 -0.4117210
247000000 0.7511854 -0.4317784 0.2488146 0.4317784 0.2488146 0.4317784 0.7511854 -0.4317784
268000000 0.7193575 -0.4487164 0.2806425 0.4487164 0.2806425 0.4487164 0.7193575 -0.4487164
289000000 0.6878078 -0.4627415 0.3121922 0.4627415 0.3121922 0.4627415 0.6878078 -0.4627415
310000000 0.6567975 -0.4740819 0.3432025 0.4740819 0.3432025 0.4740819 0.6567975 -0.4740819
331000000 0.6265356 -0.4829765 0.3734644 0.4829765 0.3734644 0.4829765 0.6265356 -0.4829765
352000000 0.5971831 -0.4896657 0.4028169 0.4896657 0.4028169 0.4896657 0.5971831 -0.4896657
373000000 0.5688586 -0.4943848 0.4311414 0.4943848 0.4311414 0.4943848 0.5688586 -0.4943848
394000000 0.5416443 -0.4973588 0.4583557 0.4973588 0.4583557 0.4973588 0.5416443 -0.4973588
415000000 0.5155918 -0.4987992 0.4844082 0.4987992 0.4844082 0.4987992 0.5155918 -0.4987992
436000000 0.4907272 -0.4989018 0.5092728 0.4989018 0.5092728 0.4989018 0.4907272 -0.4989018
457000000 0.4670559 -0.4978460 0.5329441 0.4978460 0.5329441 0.4978460 0.4670559 -0.4978460
478000000 0.4445674 -0.4957941 0.5554326 0.4957941 0.5554326 0.4957941 0.4445674 -0.4957941
499000000 0.4232386 -0.4928920 0.5767614 0.4928920 0.5767614 0.4928920 0.4232386 -0.4928920
520000000 0.4030369 -0.4892697 0.5969631 0.4892697 0.5969631 0.4892697 0.4030369 -0.4892697
541000000 0.3839231 -0.4850424 0.6160769 0.4850424 0.6160769 0.4850424 0.3839231 -0.4850424
562000000 0.3658532 -0.4803119 0.6341468 0.4803119 0.6341468 0.4803119 0.3658532 -0.4803119
583000000 0.3487805 -0.4751672 0.6512195 0.4751672 0.6512195 0.4751672 0.3487805 -0.4751672
604000000 0.3326566 -0.4696861 0.6673434 0.4696861 0.6673434 0.4696861 0.3326566 -0.4696861
625000000 0.3174326 -0.4639363 0.6825674 0.4639363 0.6825674 0.4639363 0.3174326 -0.4639363
646000000 0.3030600 -0.4579766 0.6969400 0.4579766 0.6969400 0.4579766 0.3030600 -0.4579766
667000000 0.2894911 -0.4518577 0.7105089 0.4518577 0.7105089 0.4518577 0.2894911 -0.4518577
688000000 0.2766798 -0.4456231 0.7233202 0.4456231 0.7233202 0.4456231 0.2766798 -0.4456231
709000000 0.2645815 -0.4393103 0.7354185 0.4393103 0.7354185 0.4393103 0.2645815 -0.4393103
730000000 0.2531536 -0.4329513 0.7468464 0.4329513 0.7468464 0.4329513 0.2531536 -0.4329513
751000000 0.2423555 -0.4265734 0.7576445 0.4265734 0.7576445 0.4265734 0.2423555 -0.4265734
772000000 0.2321487 -0.4201996 0.7678513 0.4201996 0.7678513 0.4201996 0.2321487 -0.4201996
793000000 0.2224969 -0.4138494 0.7775031 0.4138494 0.7775031 0.4138494 0.2224969 -0.4138494
814000000 0.2133658 -0.4075393 0.7866342 0.4075393 0.7866342 0.4075393 0.2133658 -0.4075393
835000000 0.2047232 -0.4012828 0.7952768 0.4012828 0.7952768 0.4012828 0.2047232 -0.4012828
856000000 0.1965388 -0.3950914 0.8034612 0.3950914 0.8034612 0.3950914 0.1965388 -0.3950914
877000000 0.1887842 -0.3889743 0.8112158 0.3889743 0.8112158 0.3889743 0.1887842 -0.3889743
898000000 0.1814331 -0.3829391 0.8185669 0.3829391 0.8185669 0.3829391 0.1814331 -0.3829391
919000000 0.1744604 -0.3769918 0.8255396 0.3769918 0.8255396 0.3769918 0.1744604 -0.3769918
940000000 0.1678431 -0.3711373 0.8321569 0.3711373 0.8321569 0.3711373 0.1678431 -0.3711373
961000000 0.1615595 -0.3653792 0.8384405 0.3653792 0.8384405 0.3653792 0.1615595 -0.3653792
982000000 0.1555894 -0.3597203 0.8444106 0.3597203 0.8444106 0.3597203 0.1555894 -0.3597203
1003000000 0.1499139 -0.3541623 0.8500861 0.3541623 0.8500861 0.3541623 0.1499139 -0.3541623
1024000000 0.1445154 -0.3487066 0.8554846 0.3487066 0.8554846 0.3487066 0.1445154 -0.3487066
1045000000 0.1393774 -0.3433539 0.8606226 0.3433539 0.8606226 0.3433539 0.1393774 -0.3433539
1066000000 0.1344846 -0.3381042 0.8655154 0.3381042 0.8655154 0.3381042 0.1344846 -0.3381042
1087000000 0.1298227 -0.3329573 0.8701773 0.3329573 0.8701773 0.3329573 0.1298227 -0.3329573
1108000000 0.1253783 -0.3279125 0.8746217 0.3279125 0.8746217 0.3279125 0.1253783 -0.3279125
1129000000 0.1211389 -0.3229690 0.8788611 0.3229690 0.8788611 0.3229690 0.1211389 -0.3229690
1150000000 0.1170928 -0.3181256 0.8829072 0.3181256 0.8829072 0.3181256 0.1170928 -0.3181256
1171000000 0.1132291 -0.3133809 0.8867709 0.3133809 0.8867709 0.3133809 0.1132291 -0.3133809
1192000000 0.1095376 -0.3087334 0.8904624 0.3087334 0.8904624 0.3087334 0.1095376 -0.3087334
1213000000 0.1060089 -0.3041815 0.8939911 0.3041815 0.8939911 0.3041815 0.1060089 -0.3041815
1234000000 0.1026339 -0.2997235 0.8973661 0.2997235 0.8973661 0.2997235 0.1026339 -0.2997235
1255000000 0.0994042 -0.2953574 0.9005958 0.2953574 0.9005958 0.2953574 0.0994042 -0.2953574
1276000000 0.0963122 -0.2910814 0.9036878 0.2910814 0.9036878 0.2910814 0.0963122 -0.2910814
1297000000 0.0933505 -0.2868936 0.9066495 0.2868936 0.9066495 0.2868936 0.0933505 -0.2868936
1318000000 0.0905121 -0.2827920 0.9094879 0.2827920 0.9094879 0.2827920 0.0905121 -0.2827920
1339000000 0.0877906 -0.2787747 0.9122094 0.2787747 0.9122094 0.2787747 0.0877906 -0.2787747
1360000000 0.0851800 -0.2748396 0.9148200 0.2748396 0.9148200 0.2748396 0.0851800 -0.2748396
1381000000 0.0826747 -0.2709848 0.9173253 0.2709848 0.9173253 0.2709848 0.0826747 -0.2709848
1402000000 0.0802692 -0.2672083 0.9197308 0.2672083 0.9197308 0.2672083 0.0802692 -0.2672083
1423000000 0.0779585 -0.2635082 0.9220415 0.2635082 0.9220415 0.2635082 0.0779585 -0.2635082
1444000000 0.0757380 -0.2598826 0.9242620 0.2598826 0.9242620 0.2598826 0.0757380 -0.2598826
1465000000 0.0736032 -0.2563295 0.9263968 0.2563295 0.9263968 0.2563295 0.0736032 -0.2563295
1486000000 0.0715499 -0.2528471 0.9284501 0.2528471 0.9284501 0.2528471 0.0715499 -0.2528471
1507000000 0.0695743 -0.2494336 0.9304257 0.2494336 0.9304257 0.2494336 0.0695743 -0.2494336
1528000000 0.0676725 -0.2460872 0.9323275 0.2460872 0.9323275 0.2460872 0.0676725 -0.2460872
1549000000 0.0658411 -0.2428062 0.9341589 0.2428062 0.9341589 0.2428062 0.0658411 -0.2428062
1570000000 0.0640767 -0.2395887 0.9359233 0.2395887 0.9359233 0.2395887 0.0640767 -0.2395887
1591000000 0.0623764 -0.2364332 0.9376236 0.2364332 0.9376236 0.2364332 0.0623764 -0.2364332
1612000000 0.0607371 -0.2333380 0.9392629 0.2333380 0.9392629 0.2333380 0.0607371 -0.2333380
1633000000 0.0591561 -0.2303015 0.9408439 0.2303015 0.9408439 0.2303015 0.0591561 -0.2303015
1654000000 0.0576307 -0.2273222 0.9423693 0.2273222 0.9423693 0.2273222 0.0576307 -0.2273222
1675000000 0.0561585 -0.2243986 0.9438415 0.2243986 0.9438415 0.2243986 0.0561585 -0.2243986
1696000000 0.0547370 -0.2215291 0.9452630 0.2215291 0.9452630 0.2215291 0.0547370 -0.2215291
1717000000 0.0533642 -0.2187124 0.9466358 0.2187124 0.9466358 0.2187124 0.0533642 -0.2187124
1738000000 0.0520378 -0.2159471 0.9479622 0.2159471 0.9479622 0.2159471 0.0520378 -0.2159471
1759000000 0.0507560 -0.2132318 0.9492440 0.2132318 0.9492440 0.2132318 0.0507560 -0.2132318
1780000000 0.0495167 -0.2105652 0.9504833 0.2105652 0.9504833 0.2105652 0.0495167 -0.2105652
1801000000 0.0483182 -0.2079461 0.9516818 0.2079461 0.9516818 0.2079461 0.0483182 -0.2079461
1822000000 0.0471588 -0.2053732 0.9528412 0.2053732 0.9528412 0.2053732 0.0471588 -0.2053732
1843000000 0.0460369 -0.2028452 0.9539631 0.2028452 0.9539631 0.2028452 0.0460369 -0.2028452
1864000000 0.0449509 -0.2003611 0.9550491 0.2003611 0.9550491 0.2003611 0.0449509 -0.2003611
1885000000 0.0438994 -0.1979197 0.9561006 0.1979197 0.9561006 0.1979197 0.0438994 -0.1979197
1906000000 0.0428810 -0.1955199 0.9571190 0.1955199 0.9571190 0.1955199 0.0428810 -0.1955199
1927000000 0.0418944 -0.1931607 0.9581056 0.1931607 0.9581056 0.1931607 0.0418944 -0.1931607
1948000000 0.0409383 -0.1908409 0.9590617 0.1908409 0.9590617 0.1908409 0.0409383 -0.1908409
1969000000 0.0400115 -0.1885597 0.9599885 0.1885597 0.9599885 0.1885597 0.0400115 -0.1885597
1990000000 0.0391129 -0.1863160 0.9608871 0.1863160 0.9608871 0.1863160 0.0391129 -0.1863160
2011000000 0.0382414 -0.1841089 0.9617586 0.1841089 0.9617586 0.1841089 0.0382414 -0.1841089
2032000000 0.0373960 -0.1819375 0.9626040 0.1819375 0.9626040 0.1819375 0.0373960 -0.1819375
2053000000 0.0365757 -0.1798009 0.9634243 0.1798009 0.9634243 0.1798009 0.0365757 -0.1798009
2074000000 0.0357795 -0.1776982 0.9642205 0.1776982 0.9642205 0.1776982 0.0357795 -0.1776982
2095000000 0.0350065 -0.1756286 0.9649935 0.1756286 0.9649935 0.1756286 0.0350065 -0.1756286
2116000000 0.0342560 -0.1735913 0.9657440 0.1735913 0.9657440 0.1735913 0.0342560 -0.1735913
2137000000 0.0335270 -0.1715855 0.9664730 0.1715855 0.9664730 0.1715855 0.0335270 -0.1715855
2158000000 0.0328188 -0.1696104 0.9671812 0.1696104 0.9671812 0.1696104 0.0328188 -0.1696104
2179000000 0.0321307 -0.1676653 0.9678693 0.1676653 0.9678693 0.1676653 0.0321307 -0.1676653
2200000000 0.0314618 -0.1657495 0.9685382 0.1657495 0.9685382 0.1657495 0.0314618 -0.1657495
2221000000 0.0308117 -0.1638623 0.9691883 0.1638623 0.9691883 0.1638623 0.0308117 -0.1638623
2242000000 0.0301795 -0.1620030 0.9698205 0.1620030 0.9698205 0.1620030 0.0301795 -0.1620030
2263000000 0.0295648 -0.1601709 0.9704352 0.1601709 0.9704352 0.1601709 0.0295648 -0.1601709
2284000000 0.0289668 -0.1583654 0.9710332 0.1583654 0.9710332 0.1583654 0.0289668 -0.1583654
2305000000 0.0283850 -0.1565859 0.9716150 0.1565859 0.9716150 0.1565859 0.0283850 -0.1565859
2326000000 0.0278188 -0.1548319 0.9721812 0.1548319 0.9721812 0.1548319 0.0278188 -0.1548319
2347000000 0.0272678 -0.1531026 0.9727322 0.1531026 0.9727322 0.1531026 0.0272678 -0.1531026
2368000000 0.0267314 -0.1513975 0.9732686 0.1513975 0.9732686 0.1513975 0.0267314 -0.1513975
2389000000 0.0262092 -0.1497161 0.9737908 0.1497161 0.9737908 0.1497161 0.0262092 -0.1497161
2410000000 0.0257006 -0.1480579 0.9742994 0.1480579 0.9742994 0.1480579 0.0257006 -0.1480579
2431000000 0.0252053 -0.1464223 0.9747947 0.1464223 0.9747947 0.1464223 0.0252053 -0.1464223
2452000000 0.0247228 -0.1448088 0.9752772 0.1448088 0.9752772 0.1448088 0.0247228 -0.1448088
2473000000 0.0242526 -0.1432170 0.9757474 0.1432170 0.9757474 0.1432170 0.0242526 -0.1432170
2494000000 0.0237945 -0.1416463 0.9762055 0.1416463 0.9762055 0.1416463 0.0237945 -0.1416463
2515000000 0.0233480 -0.1400963 0.9766520 0.1400963 0.9766520 0.1400963 0.0233480 -0.1400963
2536000000 0.0229128 -0.1385666 0.9770872 0.1385666 0.9770872 0.1385666 0.0229128 -0.1385666
2557000000 0.0224884 -0.1370566 0.9775116 0.1370566 0.9775116 0.1370566 0.0224884 -0.1370566
2578000000 0.0220747 -0.1355660 0.9779253 0.1355660 0.9779253 0.1355660 0.0220747 -0.1355660
2599000000 0.0216712 -0.1340944 0.9783288 0.1340944 0.9783288 0.1340944 0.0216712 -0.1340944
2620000000 0.0212776 -0.1326413 0.9787224 0.1326413 0.9787224 0.1326413 0.0212776 -0.1326413
2641000000 0.0208937 -0.1312064 0.9791063 0.1312064 0.9791063 0.1312064 0.0208937 -0.1312064
2662000000 0.0205191 -0.1297892 0.9794809 0.1297892 0.9794809 0.1297892 0.0205191 -0.1297892
2683000000 0.0201536 -0.1283895 0.9798464 0.1283895 0.9798464 0.1283895 0.0201536 -0.1283895
2704000000 0.0197969 -0.1270068 0.9802031 0.1270068 0.9802031 0.1270068 0.0197969 -0.1270068
2725000000 0.0194488 -0.1256408 0.9805512 0.1256408 0.9805512 0.1256408 0.0194488 -0.1256408
2746000000 0.0191089 -0.1242912 0.9808911 0.1242912 0.9808911 0.1242912 0.0191089 -0.1242912
2767000000 0.0187772 -0.1229575 0.9812228 0.1229575 0.9812228 0.1229575 0.0187772 -0.1229575
2788000000 0.0184532 -0.1216396 0.9815468 0.1216396 0.9815468 0.1216396 0.0184532 -0.1216396
2809000000 0.0181369 -0.1203370 0.9818631 0.1203370 0.9818631 0.1203370 0.0181369 -0.1203370
2830000000 0.0178279 -0.1190495 0.9821721 0.1190495 0.9821721 0.1190495 0.0178279 -0.1190495
2851000000 0.0175262 -0.1177767 0.9824738 0.1177767 0.9824738 0.1177767 0.0175262 -0.1177767
2872000000 0.0172314 -0.1165185 0.9827686 0.1165185 0.9827686 0.1165185 0.0172314 -0.1165185
2893000000 0.0169434 -0.1152744 0.9830566 0.1152744 0.9830566 0.1152744 0.0169434 -0.1152744
2914000000 0.0166620 -0.1140442 0.9833380 0.1140442 0.9833380 0.1140442 0.0166620 -0.1140442
2935000000 0.0163871 -0.1128276 0.9836129 0.1128276 0.9836129 0.1128276 0.0163871 -0.1128276
2956000000 0.0161184 -0.1116244 0.9838816 0.1116244 0.9838816 0.1116244 0.0161184 -0.1116244
2977000000 0.0158558 -0.1104343 0.9841442 0.1104343 0.9841442 0.1104343 0.0158558 -0.1104343
2998000000 0.0155991 -0.1092571 0.9844009 0.1092571 0.9844009 0.1092571 0.0155991 -0.1092571
3019000000 0.0153482 -0.1080925 0.9846518 0.1080925 0.9846518 0.1080925 0.0153482 -0.1080925
3040000000 0.0151029 -0.1069403 0.9848971 0.1069403 0.9848971 0.1069403 0.0151029 -0.1069403
3061000000 0.0148630 -0.1058002 0.9851370 0.1058002 0.9851370 0.1058002 0.0148630 -0.1058002
3082000000 0.0146285 -0.1046721 0.9853715 0.1046721 0.9853715 0.1046721 0.0146285 -0.1046721
3103000000 0.0143992 -0.1035556 0.9856008 0.1035556 0.9856008 0.1035556 0.0143992 -0.1035556
3124000000 0.0141749 -0.1024506 0.9858251 0.1024506 0.9858251 0.1024506 0.0141749 -0.1024506
3145000000 0.0139556 -0.1013569 0.9860444 0.1013569 0.9860444 0.1013569 0.0139556 -0.1013569
3166000000 0.0137410 -0.1002742 0.9862590 0.1002742 0.9862590 0.1002742 0.0137410 -0.1002742
3187000000 0.0135312 -0.0992024 0.9864688 0.0992024 0.9864688 0.0992024 0.0135312 -0.0992024
3208000000 0.0133259 -0.0981413 0.9866741 0.0981413 0.9866741 0.0981413 0.0133259 -0.0981413
3229000000 0.0131250 -0.0970906 0.9868750 0.0970906 0.9868750 0.0970906 0.0131250 -0.0970906
3250000000 0.0129285 -0.0960502 0.9870715 0.0960502 0.9870715 0.0960502 0.0129285 -0.0960502
3271000000 0.0127362 -0.0950199 0.9872638 0.0950199 0.9872638 0.0950199 0.0127362 -0.0950199
3292000000 0.0125481 -0.0939996 0.9874519 0.0939996 0.9874519 0.0939996 0.0125481 -0.0939996
3313000000 0.0123640 -0.0929889 0.9876360 0.0929889 0.9876360 0.0929889 0.0123640 -0.0929889
3334000000 0.0121838 -0.0919879 0.9878162 0.0919879 0.9878162 0.0919879 0.0121838 -0.0919879
3355000000 0.0120074 -0.0909962 0.9879926 0.0909962 0.9879926 0.0909962 0.0120074 -0.0909962
3376000000 0.0118349 -0.0900138 0.9881651 0.0900138 0.9881651 0.0900138 0.0118349 -0.0900138
3397000000 0.0116659 -0.0890405 0.9883341 0.0890405 0.9883341 0.0890405 0.0116659 -0.0890405
3418000000 0.0115006 -0.0880761 0.9884994 0.0880761 0.9884994 0.0880761 0.0115006 -0.0880761
3439000000 0.0113387 -0.0871205 0.9886613 0.0871205 0.9886613 0.0871205 0.0113387 -0.0871205
3460000000 0.0111803 -0.0861735 0.9888197 0.0861735 0.9888197 0.0861735 0.0111803 -0.0861735
3481000000 0.0110252 -0.0852350 0.9889748 0.0852350 0.9889748 0.0852350 0.0110252 -0.0852350
3502000000 0.0108733 -0.0843049 0.9891267 0.0843049 0.9891267 0.0843049 0.0108733 -0.0843049
3523000000 0.0107246 -0.0833829 0.9892754 0.0833829 0.9892754 0.0833829 0.0107246 -0.0833829
3544000000 0.0105790 -0.0824690 0.9894210 0.0824690 0.9894210 0.0824690 0.0105790 -0.0824690
3565000000 0.0104365 -0.0815631 0.9895635 0.0815631 0.9895635 0.0815631 0.0104365 -0.0815631
3586000000 0.0102970 -0.0806649 0.9897030 0.0806649 0.9897030 0.0806649 0.0102970 -0.0806649
3607000000 0.0101603 -0.0797744 0.9898397 0.0797744 0.9898397 0.0797744 0.0101603 -0.0797744
3628000000 0.0100265 -0.0788915 0.9899735 0.0788915 0.9899735 0.0788915 0.0100265 -0.0788915
3649000000 0.0098955 -0.0780160 0.9901045 0.0780160 0.9901045 0.0780160 0.0098955 -0.0780160
3670000000 0.0097672 -0.0771478 0.9902328 0.0771478 0.9902328 0.0771478 0.0097672 -0.0771478
3691000000 0.0096415 -0.0762867 0.9903585 0.0762867 0.9903585 0.0762867 0.0096415 -0.0762867
3712000000 0.0095185 -0.0754328 0.9904815 0.0754328 0.9904815 0.0754328 0.0095185 -0.0754328
3733000000 0.0093980 -0.0745858 0.9906020 0.0745858 0.9906020 0.0745858 0.0093980 -0.0745858
3754000000 0.0092800 -0.0737457 0.9907200 0.0737457 0.9907200 0.0737457 0.0092800 -0.0737457
3775000000 0.0091645 -0.0729123 0.9908355 0.0729123 0.9908355 0.0729123 0.0091645 -0.0729123
3796000000 0.0090513 -0.0720856 0.9909487 0.0720856 0.9909487 0.0720856 0.0090513 -0.0720856
3817000000 0.0089405 -0.0712653 0.9910595 0.0712653 0.9910595 0.0712653 0.0089405 -0.0712653
3838000000 0.0088319 -0.0704516 0.9911681 0.0704516 0.9911681 0.0704516 0.0088319 -0.0704516
3859000000 0.0087256 -0.0696441 0.9912744 0.0696441 0.9912744 0.0696441 0.0087256 -0.0696441
3880000000 0.0086215 -0.0688429 0.9913785 0.0688429 0.9913785 0.0688429 0.0086215 -0.0688429
3901000000 0.0085196 -0.0680479 0.9914804 0.0680479 0.9914804 0.0680479 0.0085196 -0.0680479
3922000000 0.0084198 -0.0672589 0.9915802 0.0672589 0.9915802 0.0672589 0.0084198 -0.0672589
3943000000 0.0083220 -0.0664758 0.9916780 0.0664758 0.9916780 0.0664758 0.0083220 -0.0664758
3964000000 0.0082263 -0.0656987 0.9917737 0.0656987 0.9917737 0.0656987 0.0082263 -0.0656987
3985000000 0.0081325 -0.0649273 0.9918675 0.0649273 0.9918675 0.0649273 0.0081325 -0.0649273
4006000000 0.0080407 -0.0641616 0.9919593 0.0641616 0.9919593 0.0641616 0.0080407 -0.0641616
4027000000 0.0079508 -0.0634015 0.9920492 0.0634015 0.9920492 0.0634015 0.0079508 -0.0634015
4048000000 0.0078627 -0.0626469 0.9921373 0.0626469 0.9921373 0.0626469 0.0078627 -0.0626469
4069000000 0.0077765 -0.0618978 0.9922235 0.0618978 0.9922235 0.0618978 0.0077765 -0.0618978
4090000000 0.0076921 -0.0611541 0.9923079 0.0611541 0.9923079 0.0611541 0.0076921 -0.0611541
4111000000 0.0076095 -0.0604157 0.9923905 0.0604157 0.9923905 0.0604157 0.0076095 -0.0604157
4132000000 0.0075286 -0.0596824 0.9924714 0.0596824 0.9924714 0.0596824 0.0075286 -0.0596824
4153000000 0.0074493 -0.0589543 0.9925507 0.0589543 0.9925507 0.0589543 0.0074493 -0.0589543
4174000000 0.0073718 -0.0582313 0.9926282 0.0582313 0.9926282 0.0582313 0.0073718 -0.0582313
4195000000 0.0072958 -0.0575133 0.9927042 0.0575133 0.9927042 0.0575133 0.0072958 -0.0575133
4216000000 0.0072215 -0.0568002 0.9927785 0.0568002 0.9927785 0.0568002 0.0072215 -0.0568002
4237000000 0.0071488 -0.0560919 0.9928512 0.0560919 0.9928512 0.0560919 0.0071488 -0.0560919
4258000000 0.0070775 -0.0553884 0.9929225 0.0553884 0.9929225 0.0553884 0.0070775 -0.0553884
4279000000 0.0070078 -0.0546897 0.9929922 0.0546897 0.9929922 0.0546897 0.0070078 -0.0546897
4300000000 0.0069396 -0.0539956 0.9930604 0.0539956 0.9930604 0.0539956 0.0069396 -0.0539956
4321000000 0.0068729 -0.0533060 0.9931271 0.0533060 0.9931271 0.0533060 0.0068729 -0.0533060
4342000000 0.0068075 -0.0526210 0.9931925 0.0526210 0.9931925 0.0526210 0.0068075 -0.0526210
4363000000 0.0067436 -0.0519405 0.9932564 0.0519405 0.9932564 0.0519405 0.0067436 -0.0519405
4384000000 0.0066811 -0.0512644 0.9933189 0.0512644 0.9933189 0.0512644 0.0066811 -0.0512644
4405000000 0.0066199 -0.0505926 0.9933801 0.0505926 0.9933801 0.0505926 0.0066199 -0.0505926
4426000000 0.0065600 -0.0499251 0.9934400 0.0499251 0.9934400 0.0499251 0.0065600 -0.0499251
4447000000 0.0065015 -0.0492618 0.9934985 0.0492618 0.9934985 0.0492618 0.0065015 -0.0492618
4468000000 0.0064442 -0.0486027 0.9935558 0.0486027 0.9935558 0.0486027 0.0064442 -0.0486027
4489000000 0.0063882 -0.0479477 0.9936118 0.0479477 0.9936118 0.0479477 0.0063882 -0.0479477
4510000000 0.0063334 -0.0472967 0.9936666 0.0472967 0.9936666 0.0472967 0.0063334 -0.0472967
