!Murata Part Number: GRM0222C1H8R8WA03
!These Parameters are Measured in Series Mode Connection
!Data Generated on Mar 30, 2021
!       o--ll--o
!Port1            Port2
!       o------o
!Operation Temp=25[degC], DC Bias Voltage=0[V]
!Freq. Start=100[MHz] Stop=9[GHz] 401[Steps]
# Hz S RI R 50
!Freq.(Hz) S11(Real) S11(Imag) S21(Real) S21(Imag) S12(Real) S12(Imag) S22(Real) S22(Imag)
100000000 0.7654800 -0.4233297 0.2345200 0.4233297 0.2345200 0.4233297 0.7654800 -0.4233297
121000000 0.6902642 -0.4619377 0.3097358 0.4619377 0.3097358 0.4619377 0.6902642 -0.4619377
142000000 0.6179476 -0.4853637 0.3820524 0.4853637 0.3820524 0.4853637 0.6179476 -0.4853637
163000000 0.5509465 -0.4967931 0.4490535 0.4967931 0.4490535 0.4967931 0.5509465 -0.4967931
184000000 0.4903893 -0.4992233 0.5096107 0.4992233 0.5096107 0.4992233 0.4903893 -0.4992233
205000000 0.4365354 -0.4951913 0.5634646 0.4951913 0.5634646 0.4951913 0.4365354 -0.4951913
226000000 0.3891251 -0.4867062 0.6108749 0.4867062 0.6108749 0.4867062 0.3891251 -0.4867062
247000000 0.3476308 -0.4752907 0.6523692 0.4752907 0.6523692 0.4752907 0.3476308 -0.4752907
268000000 0.3114169 -0.4620627 0.6885831 0.4620627 0.6885831 0.4620627 0.3114169 -0.4620627
289000000 0.2798342 -0.4478240 0.7201658 0.4478240 0.7201658 0.4478240 0.2798342 -0.4478240
310000000 0.2522704 -0.4331375 0.7477296 0.4331375 0.7477296 0.4331375 0.2522704 -0.4331375
331000000 0.2281725 -0.4183907 0.7718275 0.4183907 0.7718275 0.4183907 0.2281725 -0.4183907
352000000 0.2070544 -0.4038445 0.7929456 0.4038445 0.7929456 0.4038445 0.2070544 -0.4038445
373000000 0.1884954 -0.3896692 0.8115046 0.3896692 0.8115046 0.3896692 0.1884954 -0.3896692
394000000 0.1721353 -0.3759708 0.8278647 0.3759708 0.8278647 0.3759708 0.1721353 -0.3759708
415000000 0.1576670 -0.3628110 0.8423330 0.3628110 0.8423330 0.3628110 0.1576670 -0.3628110
436000000 0.1448299 -0.3502202 0.8551701 0.3502202 0.8551701 0.3502202 0.1448299 -0.3502202
457000000 0.1334028 -0.3382075 0.8665972 0.3382075 0.8665972 0.3382075 0.1334028 -0.3382075
478000000 0.1231981 -0.3267679 0.8768019 0.3267679 0.8768019 0.3267679 0.1231981 -0.3267679
499000000 0.1140560 -0.3158869 0.8859440 0.3158869 0.8859440 0.3158869 0.1140560 -0.3158869
520000000 0.1058410 -0.3055441 0.8941590 0.3055441 0.8941590 0.3055441 0.1058410 -0.3055441
541000000 0.0984369 -0.2957157 0.9015631 0.2957157 0.9015631 0.2957157 0.0984369 -0.2957157
562000000 0.0917448 -0.2863759 0.9082552 0.2863759 0.9082552 0.2863759 0.0917448 -0.2863759
583000000 0.0856795 -0.2774984 0.9143205 0.2774984 0.9143205 0.2774984 0.0856795 -0.2774984
604000000 0.0801677 -0.2690570 0.9198323 0.2690570 0.9198323 0.2690570 0.0801677 -0.2690570
625000000 0.0751464 -0.2610260 0.9248536 0.2610260 0.9248536 0.2610260 0.0751464 -0.2610260
646000000 0.0705607 -0.2533807 0.9294393 0.2533807 0.9294393 0.2533807 0.0705607 -0.2533807
667000000 0.0663632 -0.2460977 0.9336368 0.2460977 0.9336368 0.2460977 0.0663632 -0.2460977
688000000 0.0625125 -0.2391546 0.9374875 0.2391546 0.9374875 0.2391546 0.0625125 -0.2391546
709000000 0.0589724 -0.2325306 0.9410276 0.2325306 0.9410276 0.2325306 0.0589724 -0.2325306
730000000 0.0557113 -0.2262060 0.9442887 0.2262060 0.9442887 0.2262060 0.0557113 -0.2262060
751000000 0.0527014 -0.2201623 0.9472986 0.2201623 0.9472986 0.2201623 0.0527014 -0.2201623
772000000 0.0499181 -0.2143825 0.9500819 0.2143825 0.9500819 0.2143825 0.0499181 -0.2143825
793000000 0.0473397 -0.2088505 0.9526603 0.2088505 0.9526603 0.2088505 0.0473397 -0.2088505
814000000 0.0449472 -0.2035514 0.9550528 0.2035514 0.9550528 0.2035514 0.0449472 -0.2035514
835000000 0.0427236 -0.1984713 0.9572764 0.1984713 0.9572764 0.1984713 0.0427236 -0.1984713
856000000 0.0406536 -0.1935975 0.9593464 0.1935975 0.9593464 0.1935975 0.0406536 -0.1935975
877000000 0.0387237 -0.1889177 0.9612763 0.1889177 0.9612763 0.1889177 0.0387237 -0.1889177
898000000 0.0369219 -0.1844210 0.9630781 0.1844210 0.9630781 0.1844210 0.0369219 -0.1844210
919000000 0.0352374 -0.1800969 0.9647626 0.1800969 0.9647626 0.1800969 0.0352374 -0.1800969
940000000 0.0336605 -0.1759356 0.9663395 0.1759356 0.9663395 0.1759356 0.0336605 -0.1759356
961000000 0.0321823 -0.1719283 0.9678177 0.1719283 0.9678177 0.1719283 0.0321823 -0.1719283
982000000 0.0307950 -0.1680664 0.9692050 0.1680664 0.9692050 0.1680664 0.0307950 -0.1680664
1003000000 0.0294916 -0.1643422 0.9705084 0.1643422 0.9705084 0.1643422 0.0294916 -0.1643422
1024000000 0.0282655 -0.1607484 0.9717345 0.1607484 0.9717345 0.1607484 0.0282655 -0.1607484
1045000000 0.0271109 -0.1572780 0.9728891 0.1572780 0.9728891 0.1572780 0.0271109 -0.1572780
1066000000 0.0260225 -0.1539247 0.9739775 0.1539247 0.9739775 0.1539247 0.0260225 -0.1539247
1087000000 0.0249954 -0.1506826 0.9750046 0.1506826 0.9750046 0.1506826 0.0249954 -0.1506826
1108000000 0.0240254 -0.1475461 0.9759746 0.1475461 0.9759746 0.1475461 0.0240254 -0.1475461
1129000000 0.0231083 -0.1445098 0.9768917 0.1445098 0.9768917 0.1445098 0.0231083 -0.1445098
1150000000 0.0222404 -0.1415690 0.9777596 0.1415690 0.9777596 0.1415690 0.0222404 -0.1415690
1171000000 0.0214185 -0.1387189 0.9785815 0.1387189 0.9785815 0.1387189 0.0214185 -0.1387189
1192000000 0.0206395 -0.1359554 0.9793605 0.1359554 0.9793605 0.1359554 0.0206395 -0.1359554
1213000000 0.0199004 -0.1332743 0.9800996 0.1332743 0.9800996 0.1332743 0.0199004 -0.1332743
1234000000 0.0191987 -0.1306717 0.9808013 0.1306717 0.9808013 0.1306717 0.0191987 -0.1306717
1255000000 0.0185321 -0.1281442 0.9814679 0.1281442 0.9814679 0.1281442 0.0185321 -0.1281442
1276000000 0.0178983 -0.1256883 0.9821017 0.1256883 0.9821017 0.1256883 0.0178983 -0.1256883
1297000000 0.0172952 -0.1233008 0.9827048 0.1233008 0.9827048 0.1233008 0.0172952 -0.1233008
1318000000 0.0167210 -0.1209788 0.9832790 0.1209788 0.9832790 0.1209788 0.0167210 -0.1209788
1339000000 0.0161739 -0.1187194 0.9838261 0.1187194 0.9838261 0.1187194 0.0161739 -0.1187194
1360000000 0.0156524 -0.1165199 0.9843476 0.1165199 0.9843476 0.1165199 0.0156524 -0.1165199
1381000000 0.0151550 -0.1143777 0.9848450 0.1143777 0.9848450 0.1143777 0.0151550 -0.1143777
1402000000 0.0146801 -0.1122906 0.9853199 0.1122906 0.9853199 0.1122906 0.0146801 -0.1122906
1423000000 0.0142266 -0.1102562 0.9857734 0.1102562 0.9857734 0.1102562 0.0142266 -0.1102562
1444000000 0.0137933 -0.1082723 0.9862067 0.1082723 0.9862067 0.1082723 0.0137933 -0.1082723
1465000000 0.0133790 -0.1063370 0.9866210 0.1063370 0.9866210 0.1063370 0.0133790 -0.1063370
1486000000 0.0129827 -0.1044484 0.9870173 0.1044484 0.9870173 0.1044484 0.0129827 -0.1044484
1507000000 0.0126035 -0.1026045 0.9873965 0.1026045 0.9873965 0.1026045 0.0126035 -0.1026045
1528000000 0.0122403 -0.1008036 0.9877597 0.1008036 0.9877597 0.1008036 0.0122403 -0.1008036
1549000000 0.0118925 -0.0990442 0.9881075 0.0990442 0.9881075 0.0990442 0.0118925 -0.0990442
1570000000 0.0115591 -0.0973246 0.9884409 0.0973246 0.9884409 0.0973246 0.0115591 -0.0973246
1591000000 0.0112395 -0.0956434 0.9887605 0.0956434 0.9887605 0.0956434 0.0112395 -0.0956434
1612000000 0.0109329 -0.0939991 0.9890671 0.0939991 0.9890671 0.0939991 0.0109329 -0.0939991
1633000000 0.0106386 -0.0923903 0.9893614 0.0923903 0.9893614 0.0923903 0.0106386 -0.0923903
1654000000 0.0103562 -0.0908159 0.9896438 0.0908159 0.9896438 0.0908159 0.0103562 -0.0908159
1675000000 0.0100850 -0.0892745 0.9899150 0.0892745 0.9899150 0.0892745 0.0100850 -0.0892745
1696000000 0.0098244 -0.0877651 0.9901756 0.0877651 0.9901756 0.0877651 0.0098244 -0.0877651
1717000000 0.0095740 -0.0862864 0.9904260 0.0862864 0.9904260 0.0862864 0.0095740 -0.0862864
1738000000 0.0093333 -0.0848375 0.9906667 0.0848375 0.9906667 0.0848375 0.0093333 -0.0848375
1759000000 0.0091018 -0.0834172 0.9908982 0.0834172 0.9908982 0.0834172 0.0091018 -0.0834172
1780000000 0.0088792 -0.0820247 0.9911208 0.0820247 0.9911208 0.0820247 0.0088792 -0.0820247
1801000000 0.0086649 -0.0806590 0.9913351 0.0806590 0.9913351 0.0806590 0.0086649 -0.0806590
1822000000 0.0084587 -0.0793192 0.9915413 0.0793192 0.9915413 0.0793192 0.0084587 -0.0793192
1843000000 0.0082601 -0.0780045 0.9917399 0.0780045 0.9917399 0.0780045 0.0082601 -0.0780045
1864000000 0.0080689 -0.0767141 0.9919311 0.0767141 0.9919311 0.0767141 0.0080689 -0.0767141
1885000000 0.0078847 -0.0754471 0.9921153 0.0754471 0.9921153 0.0754471 0.0078847 -0.0754471
1906000000 0.0077072 -0.0742029 0.9922928 0.0742029 0.9922928 0.0742029 0.0077072 -0.0742029
1927000000 0.0075361 -0.0729807 0.9924639 0.0729807 0.9924639 0.0729807 0.0075361 -0.0729807
1948000000 0.0073712 -0.0717798 0.9926288 0.0717798 0.9926288 0.0717798 0.0073712 -0.0717798
1969000000 0.0072122 -0.0705996 0.9927878 0.0705996 0.9927878 0.0705996 0.0072122 -0.0705996
1990000000 0.0070589 -0.0694394 0.9929411 0.0694394 0.9929411 0.0694394 0.0070589 -0.0694394
2011000000 0.0069110 -0.0682987 0.9930890 0.0682987 0.9930890 0.0682987 0.0069110 -0.0682987
2032000000 0.0067683 -0.0671769 0.9932317 0.0671769 0.9932317 0.0671769 0.0067683 -0.0671769
2053000000 0.0066306 -0.0660733 0.9933694 0.0660733 0.9933694 0.0660733 0.0066306 -0.0660733
2074000000 0.0064978 -0.0649875 0.9935022 0.0649875 0.9935022 0.0649875 0.0064978 -0.0649875
2095000000 0.0063695 -0.0639190 0.9936305 0.0639190 0.9936305 0.0639190 0.0063695 -0.0639190
2116000000 0.0062457 -0.0628672 0.9937543 0.0628672 0.9937543 0.0628672 0.0062457 -0.0628672
2137000000 0.0061262 -0.0618316 0.9938738 0.0618316 0.9938738 0.0618316 0.0061262 -0.0618316
2158000000 0.0060108 -0.0608119 0.9939892 0.0608119 0.9939892 0.0608119 0.0060108 -0.0608119
2179000000 0.0058993 -0.0598075 0.9941007 0.0598075 0.9941007 0.0598075 0.0058993 -0.0598075
2200000000 0.0057917 -0.0588181 0.9942083 0.0588181 0.9942083 0.0588181 0.0057917 -0.0588181
2221000000 0.0056877 -0.0578432 0.9943123 0.0578432 0.9943123 0.0578432 0.0056877 -0.0578432
2242000000 0.0055873 -0.0568825 0.9944127 0.0568825 0.9944127 0.0568825 0.0055873 -0.0568825
2263000000 0.0054903 -0.0559355 0.9945097 0.0559355 0.9945097 0.0559355 0.0054903 -0.0559355
2284000000 0.0053965 -0.0550018 0.9946035 0.0550018 0.9946035 0.0550018 0.0053965 -0.0550018
2305000000 0.0053060 -0.0540812 0.9946940 0.0540812 0.9946940 0.0540812 0.0053060 -0.0540812
2326000000 0.0052185 -0.0531733 0.9947815 0.0531733 0.9947815 0.0531733 0.0052185 -0.0531733
2347000000 0.0051340 -0.0522777 0.9948660 0.0522777 0.9948660 0.0522777 0.0051340 -0.0522777
2368000000 0.0050523 -0.0513942 0.9949477 0.0513942 0.9949477 0.0513942 0.0050523 -0.0513942
2389000000 0.0049734 -0.0505224 0.9950266 0.0505224 0.9950266 0.0505224 0.0049734 -0.0505224
2410000000 0.0048971 -0.0496620 0.9951029 0.0496620 0.9951029 0.0496620 0.0048971 -0.0496620
2431000000 0.0048235 -0.0488128 0.9951765 0.0488128 0.9951765 0.0488128 0.0048235 -0.0488128
2452000000 0.0047523 -0.0479744 0.9952477 0.0479744 0.9952477 0.0479744 0.0047523 -0.0479744
2473000000 0.0046836 -0.0471466 0.9953164 0.0471466 0.9953164 0.0471466 0.0046836 -0.0471466
2494000000 0.0046171 -0.0463291 0.9953829 0.0463291 0.9953829 0.0463291 0.0046171 -0.0463291
2515000000 0.0045530 -0.0455217 0.9954470 0.0455217 0.9954470 0.0455217 0.0045530 -0.0455217
2536000000 0.0044910 -0.0447241 0.9955090 0.0447241 0.9955090 0.0447241 0.0044910 -0.0447241
2557000000 0.0044311 -0.0439361 0.9955689 0.0439361 0.9955689 0.0439361 0.0044311 -0.0439361
2578000000 0.0043733 -0.0431575 0.9956267 0.0431575 0.9956267 0.0431575 0.0043733 -0.0431575
2599000000 0.0043175 -0.0423881 0.9956825 0.0423881 0.9956825 0.0423881 0.0043175 -0.0423881
2620000000 0.0042636 -0.0416275 0.9957364 0.0416275 0.9957364 0.0416275 0.0042636 -0.0416275
2641000000 0.0042116 -0.0408757 0.9957884 0.0408757 0.9957884 0.0408757 0.0042116 -0.0408757
2662000000 0.0041614 -0.0401324 0.9958386 0.0401324 0.9958386 0.0401324 0.0041614 -0.0401324
2683000000 0.0041130 -0.0393975 0.9958870 0.0393975 0.9958870 0.0393975 0.0041130 -0.0393975
2704000000 0.0040663 -0.0386706 0.9959337 0.0386706 0.9959337 0.0386706 0.0040663 -0.0386706
2725000000 0.0040212 -0.0379517 0.9959788 0.0379517 0.9959788 0.0379517 0.0040212 -0.0379517
2746000000 0.0039777 -0.0372406 0.9960223 0.0372406 0.9960223 0.0372406 0.0039777 -0.0372406
2767000000 0.0039359 -0.0365371 0.9960641 0.0365371 0.9960641 0.0365371 0.0039359 -0.0365371
2788000000 0.0038955 -0.0358410 0.9961045 0.0358410 0.9961045 0.0358410 0.0038955 -0.0358410
2809000000 0.0038566 -0.0351522 0.9961434 0.0351522 0.9961434 0.0351522 0.0038566 -0.0351522
2830000000 0.0038191 -0.0344705 0.9961809 0.0344705 0.9961809 0.0344705 0.0038191 -0.0344705
2851000000 0.0037831 -0.0337958 0.9962169 0.0337958 0.9962169 0.0337958 0.0037831 -0.0337958
2872000000 0.0037484 -0.0331279 0.9962516 0.0331279 0.9962516 0.0331279 0.0037484 -0.0331279
2893000000 0.0037150 -0.0324666 0.9962850 0.0324666 0.9962850 0.0324666 0.0037150 -0.0324666
2914000000 0.0036829 -0.0318119 0.9963171 0.0318119 0.9963171 0.0318119 0.0036829 -0.0318119
2935000000 0.0036521 -0.0311635 0.9963479 0.0311635 0.9963479 0.0311635 0.0036521 -0.0311635
2956000000 0.0036224 -0.0305214 0.9963776 0.0305214 0.9963776 0.0305214 0.0036224 -0.0305214
2977000000 0.0035940 -0.0298854 0.9964060 0.0298854 0.9964060 0.0298854 0.0035940 -0.0298854
2998000000 0.0035667 -0.0292555 0.9964333 0.0292555 0.9964333 0.0292555 0.0035667 -0.0292555
3019000000 0.0035406 -0.0286314 0.9964594 0.0286314 0.9964594 0.0286314 0.0035406 -0.0286314
3040000000 0.0035155 -0.0280130 0.9964845 0.0280130 0.9964845 0.0280130 0.0035155 -0.0280130
3061000000 0.0034915 -0.0274003 0.9965085 0.0274003 0.9965085 0.0274003 0.0034915 -0.0274003
3082000000 0.0034686 -0.0267931 0.9965314 0.0267931 0.9965314 0.0267931 0.0034686 -0.0267931
3103000000 0.0034467 -0.0261914 0.9965533 0.0261914 0.9965533 0.0261914 0.0034467 -0.0261914
3124000000 0.0034257 -0.0255949 0.9965743 0.0255949 0.9965743 0.0255949 0.0034257 -0.0255949
3145000000 0.0034058 -0.0250037 0.9965942 0.0250037 0.9965942 0.0250037 0.0034058 -0.0250037
3166000000 0.0033867 -0.0244175 0.9966133 0.0244175 0.9966133 0.0244175 0.0033867 -0.0244175
3187000000 0.0033686 -0.0238364 0.9966314 0.0238364 0.9966314 0.0238364 0.0033686 -0.0238364
3208000000 0.0033514 -0.0232602 0.9966486 0.0232602 0.9966486 0.0232602 0.0033514 -0.0232602
3229000000 0.0033351 -0.0226888 0.9966649 0.0226888 0.9966649 0.0226888 0.0033351 -0.0226888
3250000000 0.0033196 -0.0221221 0.9966804 0.0221221 0.9966804 0.0221221 0.0033196 -0.0221221
3271000000 0.0033050 -0.0215601 0.9966950 0.0215601 0.9966950 0.0215601 0.0033050 -0.0215601
3292000000 0.0032912 -0.0210026 0.9967088 0.0210026 0.9967088 0.0210026 0.0032912 -0.0210026
3313000000 0.0032782 -0.0204496 0.9967218 0.0204496 0.9967218 0.0204496 0.0032782 -0.0204496
3334000000 0.0032660 -0.0199010 0.9967340 0.0199010 0.9967340 0.0199010 0.0032660 -0.0199010
3355000000 0.0032545 -0.0193567 0.9967455 0.0193567 0.9967455 0.0193567 0.0032545 -0.0193567
3376000000 0.0032438 -0.0188166 0.9967562 0.0188166 0.9967562 0.0188166 0.0032438 -0.0188166
3397000000 0.0032338 -0.0182806 0.9967662 0.0182806 0.9967662 0.0182806 0.0032338 -0.0182806
3418000000 0.0032245 -0.0177487 0.9967755 0.0177487 0.9967755 0.0177487 0.0032245 -0.0177487
3439000000 0.0032159 -0.0172209 0.9967841 0.0172209 0.9967841 0.0172209 0.0032159 -0.0172209
3460000000 0.0032080 -0.0166969 0.9967920 0.0166969 0.9967920 0.0166969 0.0032080 -0.0166969
3481000000 0.0032008 -0.0161768 0.9967992 0.0161768 0.9967992 0.0161768 0.0032008 -0.0161768
3502000000 0.0031943 -0.0156605 0.9968057 0.0156605 0.9968057 0.0156605 0.0031943 -0.0156605
3523000000 0.0031883 -0.0151480 0.9968117 0.0151480 0.9968117 0.0151480 0.0031883 -0.0151480
3544000000 0.0031830 -0.0146391 0.9968170 0.0146391 0.9968170 0.0146391 0.0031830 -0.0146391
3565000000 0.0031784 -0.0141338 0.9968216 0.0141338 0.9968216 0.0141338 0.0031784 -0.0141338
3586000000 0.0031743 -0.0136320 0.9968257 0.0136320 0.9968257 0.0136320 0.0031743 -0.0136320
3607000000 0.0031708 -0.0131337 0.9968292 0.0131337 0.9968292 0.0131337 0.0031708 -0.0131337
3628000000 0.0031679 -0.0126389 0.9968321 0.0126389 0.9968321 0.0126389 0.0031679 -0.0126389
3649000000 0.0031655 -0.0121474 0.9968345 0.0121474 0.9968345 0.0121474 0.0031655 -0.0121474
3670000000 0.0031637 -0.0116592 0.9968363 0.0116592 0.9968363 0.0116592 0.0031637 -0.0116592
3691000000 0.0031625 -0.0111742 0.9968375 0.0111742 0.9968375 0.0111742 0.0031625 -0.0111742
3712000000 0.0031618 -0.0106925 0.9968382 0.0106925 0.9968382 0.0106925 0.0031618 -0.0106925
3733000000 0.0031616 -0.0102138 0.9968384 0.0102138 0.9968384 0.0102138 0.0031616 -0.0102138
3754000000 0.0031619 -0.0097383 0.9968381 0.0097383 0.9968381 0.0097383 0.0031619 -0.0097383
3775000000 0.0031627 -0.0092658 0.9968373 0.0092658 0.9968373 0.0092658 0.0031627 -0.0092658
3796000000 0.0031641 -0.0087964 0.9968359 0.0087964 0.9968359 0.0087964 0.0031641 -0.0087964
3817000000 0.0031659 -0.0083298 0.9968341 0.0083298 0.9968341 0.0083298 0.0031659 -0.0083298
3838000000 0.0031682 -0.0078662 0.9968318 0.0078662 0.9968318 0.0078662 0.0031682 -0.0078662
3859000000 0.0031709 -0.0074054 0.9968291 0.0074054 0.9968291 0.0074054 0.0031709 -0.0074054
3880000000 0.0031741 -0.0069474 0.9968259 0.0069474 0.9968259 0.0069474 0.0031741 -0.0069474
3901000000 0.0031778 -0.0064922 0.9968222 0.0064922 0.9968222 0.0064922 0.0031778 -0.0064922
3922000000 0.0031819 -0.0060397 0.9968181 0.0060397 0.9968181 0.0060397 0.0031819 -0.0060397
3943000000 0.0031864 -0.0055899 0.9968136 0.0055899 0.9968136 0.0055899 0.0031864 -0.0055899
3964000000 0.0031914 -0.0051427 0.9968086 0.0051427 0.9968086 0.0051427 0.0031914 -0.0051427
3985000000 0.0031968 -0.0046981 0.9968032 0.0046981 0.9968032 0.0046981 0.0031968 -0.0046981
4006000000 0.0032026 -0.0042561 0.9967974 0.0042561 0.9967974 0.0042561 0.0032026 -0.0042561
4027000000 0.0032088 -0.0038165 0.9967912 0.0038165 0.9967912 0.0038165 0.0032088 -0.0038165
4048000000 0.0032154 -0.0033795 0.9967846 0.0033795 0.9967846 0.0033795 0.0032154 -0.0033795
4069000000 0.0032224 -0.0029449 0.9967776 0.0029449 0.9967776 0.0029449 0.0032224 -0.0029449
4090000000 0.0032297 -0.0025127 0.9967703 0.0025127 0.9967703 0.0025127 0.0032297 -0.0025127
4111000000 0.0032375 -0.0020829 0.9967625 0.0020829 0.9967625 0.0020829 0.0032375 -0.0020829
4132000000 0.0032456 -0.0016554 0.9967544 0.0016554 0.9967544 0.0016554 0.0032456 -0.0016554
4153000000 0.0032541 -0.0012302 0.9967459 0.0012302 0.9967459 0.0012302 0.0032541 -0.0012302
4174000000 0.0032629 -0.0008073 0.9967371 0.0008073 0.9967371 0.0008073 0.0032629 -0.0008073
4195000000 0.0032721 -0.0003866 0.9967279 0.0003866 0.9967279 0.0003866 0.0032721 -0.0003866
4216000000 0.0032817 0.0000319 0.9967183 -0.0000319 0.9967183 -0.0000319 0.0032817 0.0000319
4237000000 0.0032916 0.0004482 0.9967084 -0.0004482 0.9967084 -0.0004482 0.0032916 0.0004482
4258000000 0.0033018 0.0008624 0.9966982 -0.0008624 0.9966982 -0.0008624 0.0033018 0.0008624
4279000000 0.0033124 0.0012744 0.9966876 -0.0012744 0.9966876 -0.0012744 0.0033124 0.0012744
4300000000 0.0033233 0.0016844 0.9966767 -0.0016844 0.9966767 -0.0016844 0.0033233 0.0016844
4321000000 0.0033345 0.0020923 0.9966655 -0.0020923 0.9966655 -0.0020923 0.0033345 0.0020923
4342000000 0.0033460 0.0024983 0.9966540 -0.0024983 0.9966540 -0.0024983 0.0033460 0.0024983
4363000000 0.0033578 0.0029022 0.9966422 -0.0029022 0.9966422 -0.0029022 0.0033578 0.0029022
4384000000 0.0033700 0.0033042 0.9966300 -0.0033042 0.9966300 -0.0033042 0.0033700 0.0033042
4405000000 0.0033824 0.0037042 0.9966176 -0.0037042 0.9966176 -0.0037042 0.0033824 0.0037042
4426000000 0.0033952 0.0041023 0.9966048 -0.0041023 0.9966048 -0.0041023 0.0033952 0.0041023
4447000000 0.0034082 0.0044985 0.9965918 -0.0044985 0.9965918 -0.0044985 0.0034082 0.0044985
4468000000 0.0034215 0.0048929 0.9965785 -0.0048929 0.9965785 -0.0048929 0.0034215 0.0048929
4489000000 0.0034351 0.0052854 0.9965649 -0.0052854 0.9965649 -0.0052854 0.0034351 0.0052854
4510000000 0.0034490 0.0056762 0.9965510 -0.0056762 0.9965510 -0.0056762 0.0034490 0.0056762
