!Murata Part Number: GRM0224C1HR60WA03
!These Parameters are Measured in Series Mode Connection
!Data Generated on Mar 30, 2021
!       o--ll--o
!Port1            Port2
!       o------o
!Operation Temp=25[degC], DC Bias Voltage=0[V]
!Freq. Start=100[MHz] Stop=20[GHz] 401[Steps]
# Hz S RI R 50
!Freq.(Hz) S11(Real) S11(Imag) S21(Real) S21(Imag) S12(Real) S12(Imag) S22(Real) S22(Imag)
100000000 0.9985717 -0.0376471 0.0014283 0.0376471 0.0014283 0.0376471 0.9985717 -0.0376471
149750000 0.9968024 -0.0562799 0.0031976 0.0562799 0.0031976 0.0562799 0.9968024 -0.0562799
199500000 0.9943378 -0.0747981 0.0056622 0.0747981 0.0056622 0.0747981 0.9943378 -0.0747981
249250000 0.9911877 -0.0931646 0.0088123 0.0931646 0.0088123 0.0931646 0.9911877 -0.0931646
299000000 0.9873640 -0.1113435 0.0126360 0.1113435 0.0126360 0.1113435 0.9873640 -0.1113435
348750000 0.9828815 -0.1293001 0.0171185 0.1293001 0.0171185 0.1293001 0.9828815 -0.1293001
398500000 0.9777571 -0.1470008 0.0222429 0.1470008 0.0222429 0.1470008 0.9777571 -0.1470008
448250000 0.9720098 -0.1644140 0.0279902 0.1644140 0.0279902 0.1644140 0.9720098 -0.1644140
498000000 0.9656606 -0.1815095 0.0343394 0.1815095 0.0343394 0.1815095 0.9656606 -0.1815095
547750000 0.9587325 -0.1982592 0.0412675 0.1982592 0.0412675 0.1982592 0.9587325 -0.1982592
597500000 0.9512499 -0.2146369 0.0487501 0.2146369 0.0487501 0.2146369 0.9512499 -0.2146369
647250000 0.9432387 -0.2306184 0.0567613 0.2306184 0.0567613 0.2306184 0.9432387 -0.2306184
697000000 0.9347259 -0.2461820 0.0652741 0.2461820 0.0652741 0.2461820 0.9347259 -0.2461820
746750000 0.9257396 -0.2613078 0.0742604 0.2613078 0.0742604 0.2613078 0.9257396 -0.2613078
796500000 0.9163086 -0.2759785 0.0836914 0.2759785 0.0836914 0.2759785 0.9163086 -0.2759785
846250000 0.9064622 -0.2901789 0.0935378 0.2901789 0.0935378 0.2901789 0.9064622 -0.2901789
896000000 0.8962303 -0.3038961 0.1037697 0.3038961 0.1037697 0.3038961 0.8962303 -0.3038961
945750000 0.8856428 -0.3171194 0.1143572 0.3171194 0.1143572 0.3171194 0.8856428 -0.3171194
995500000 0.8747294 -0.3298402 0.1252706 0.3298402 0.1252706 0.3298402 0.8747294 -0.3298402
1045250000 0.8635201 -0.3420521 0.1364799 0.3420521 0.1364799 0.3420521 0.8635201 -0.3420521
1095000000 0.8520442 -0.3537506 0.1479558 0.3537506 0.1479558 0.3537506 0.8520442 -0.3537506
1144750000 0.8403306 -0.3649333 0.1596694 0.3649333 0.1596694 0.3649333 0.8403306 -0.3649333
1194500000 0.8284075 -0.3755994 0.1715925 0.3755994 0.1715925 0.3755994 0.8284075 -0.3755994
1244250000 0.8163027 -0.3857500 0.1836973 0.3857500 0.1836973 0.3857500 0.8163027 -0.3857500
1294000000 0.8040428 -0.3953878 0.1959572 0.3953878 0.1959572 0.3953878 0.8040428 -0.3953878
1343750000 0.7916537 -0.4045169 0.2083463 0.4045169 0.2083463 0.4045169 0.7916537 -0.4045169
1393500000 0.7791601 -0.4131427 0.2208399 0.4131427 0.2208399 0.4131427 0.7791601 -0.4131427
1443250000 0.7665860 -0.4212721 0.2334140 0.4212721 0.2334140 0.4212721 0.7665860 -0.4212721
1493000000 0.7539539 -0.4289129 0.2460461 0.4289129 0.2460461 0.4289129 0.7539539 -0.4289129
1542750000 0.7412854 -0.4360740 0.2587146 0.4360740 0.2587146 0.4360740 0.7412854 -0.4360740
1592500000 0.7286009 -0.4427651 0.2713991 0.4427651 0.2713991 0.4427651 0.7286009 -0.4427651
1642250000 0.7159196 -0.4489968 0.2840804 0.4489968 0.2840804 0.4489968 0.7159196 -0.4489968
1692000000 0.7032596 -0.4547804 0.2967404 0.4547804 0.2967404 0.4547804 0.7032596 -0.4547804
1741750000 0.6906378 -0.4601275 0.3093622 0.4601275 0.3093622 0.4601275 0.6906378 -0.4601275
1791500000 0.6780699 -0.4650504 0.3219301 0.4650504 0.3219301 0.4650504 0.6780699 -0.4650504
1841250000 0.6655704 -0.4695618 0.3344296 0.4695618 0.3344296 0.4695618 0.6655704 -0.4695618
1891000000 0.6531528 -0.4736745 0.3468472 0.4736745 0.3468472 0.4736745 0.6531528 -0.4736745
1940750000 0.6408296 -0.4774018 0.3591704 0.4774018 0.3591704 0.4774018 0.6408296 -0.4774018
1990500000 0.6286120 -0.4807568 0.3713880 0.4807568 0.3713880 0.4807568 0.6286120 -0.4807568
2040250000 0.6165105 -0.4837528 0.3834895 0.4837528 0.3834895 0.4837528 0.6165105 -0.4837528
2090000000 0.6045342 -0.4864033 0.3954658 0.4864033 0.3954658 0.4864033 0.6045342 -0.4864033
2139750000 0.5926918 -0.4887215 0.4073082 0.4887215 0.4073082 0.4887215 0.5926918 -0.4887215
2189500000 0.5809906 -0.4907205 0.4190094 0.4907205 0.4190094 0.4907205 0.5809906 -0.4907205
2239250000 0.5694374 -0.4924136 0.4305626 0.4924136 0.4305626 0.4924136 0.5694374 -0.4924136
2289000000 0.5580382 -0.4938135 0.4419618 0.4938135 0.4419618 0.4938135 0.5580382 -0.4938135
2338750000 0.5467980 -0.4949329 0.4532020 0.4949329 0.4532020 0.4949329 0.5467980 -0.4949329
2388500000 0.5357213 -0.4957842 0.4642787 0.4957842 0.4642787 0.4957842 0.5357213 -0.4957842
2438250000 0.5248120 -0.4963796 0.4751880 0.4963796 0.4751880 0.4963796 0.5248120 -0.4963796
2488000000 0.5140730 -0.4967310 0.4859270 0.4967310 0.4859270 0.4967310 0.5140730 -0.4967310
2537750000 0.5035071 -0.4968500 0.4964929 0.4968500 0.4964929 0.4968500 0.5035071 -0.4968500
2587500000 0.4931163 -0.4967477 0.5068837 0.4967477 0.5068837 0.4967477 0.4931163 -0.4967477
2637250000 0.4829021 -0.4964351 0.5170979 0.4964351 0.5170979 0.4964351 0.4829021 -0.4964351
2687000000 0.4728656 -0.4959229 0.5271344 0.4959229 0.5271344 0.4959229 0.4728656 -0.4959229
2736750000 0.4630074 -0.4952211 0.5369926 0.4952211 0.5369926 0.4952211 0.4630074 -0.4952211
2786500000 0.4533280 -0.4943398 0.5466720 0.4943398 0.5466720 0.4943398 0.4533280 -0.4943398
2836250000 0.4438271 -0.4932885 0.5561729 0.4932885 0.5561729 0.4932885 0.4438271 -0.4932885
2886000000 0.4345043 -0.4920763 0.5654957 0.4920763 0.5654957 0.4920763 0.4345043 -0.4920763
2935750000 0.4253590 -0.4907121 0.5746410 0.4907121 0.5746410 0.4907121 0.4253590 -0.4907121
2985500000 0.4163902 -0.4892045 0.5836098 0.4892045 0.5836098 0.4892045 0.4163902 -0.4892045
3035250000 0.4075966 -0.4875615 0.5924034 0.4875615 0.5924034 0.4875615 0.4075966 -0.4875615
3085000000 0.3989769 -0.4857911 0.6010231 0.4857911 0.6010231 0.4857911 0.3989769 -0.4857911
3134750000 0.3905294 -0.4839008 0.6094706 0.4839008 0.6094706 0.4839008 0.3905294 -0.4839008
3184500000 0.3822522 -0.4818976 0.6177478 0.4818976 0.6177478 0.4818976 0.3822522 -0.4818976
3234250000 0.3741436 -0.4797886 0.6258564 0.4797886 0.6258564 0.4797886 0.3741436 -0.4797886
3284000000 0.3662012 -0.4775803 0.6337988 0.4775803 0.6337988 0.4775803 0.3662012 -0.4775803
3333750000 0.3584230 -0.4752790 0.6415770 0.4752790 0.6415770 0.4752790 0.3584230 -0.4752790
3383500000 0.3508066 -0.4728906 0.6491934 0.4728906 0.6491934 0.4728906 0.3508066 -0.4728906
3433250000 0.3433497 -0.4704210 0.6566503 0.4704210 0.6566503 0.4704210 0.3433497 -0.4704210
3483000000 0.3360497 -0.4678755 0.6639503 0.4678755 0.6639503 0.4678755 0.3360497 -0.4678755
3532750000 0.3289041 -0.4652593 0.6710959 0.4652593 0.6710959 0.4652593 0.3289041 -0.4652593
3582500000 0.3219103 -0.4625775 0.6780897 0.4625775 0.6780897 0.4625775 0.3219103 -0.4625775
3632250000 0.3150657 -0.4598346 0.6849343 0.4598346 0.6849343 0.4598346 0.3150657 -0.4598346
3682000000 0.3083677 -0.4570352 0.6916323 0.4570352 0.6916323 0.4570352 0.3083677 -0.4570352
3731750000 0.3018135 -0.4541835 0.6981865 0.4541835 0.6981865 0.4541835 0.3018135 -0.4541835
3781500000 0.2954004 -0.4512835 0.7045996 0.4512835 0.7045996 0.4512835 0.2954004 -0.4512835
3831250000 0.2891259 -0.4483392 0.7108741 0.4483392 0.7108741 0.4483392 0.2891259 -0.4483392
3881000000 0.2829871 -0.4453540 0.7170129 0.4453540 0.7170129 0.4453540 0.2829871 -0.4453540
3930750000 0.2769813 -0.4423315 0.7230187 0.4423315 0.7230187 0.4423315 0.2769813 -0.4423315
3980500000 0.2711059 -0.4392750 0.7288941 0.4392750 0.7288941 0.4392750 0.2711059 -0.4392750
4030250000 0.2653582 -0.4361875 0.7346418 0.4361875 0.7346418 0.4361875 0.2653582 -0.4361875
4080000000 0.2597356 -0.4330719 0.7402644 0.4330719 0.7402644 0.4330719 0.2597356 -0.4330719
4129750000 0.2542353 -0.4299311 0.7457647 0.4299311 0.7457647 0.4299311 0.2542353 -0.4299311
4179500000 0.2488549 -0.4267677 0.7511451 0.4267677 0.7511451 0.4267677 0.2488549 -0.4267677
4229250000 0.2435918 -0.4235841 0.7564082 0.4235841 0.7564082 0.4235841 0.2435918 -0.4235841
4279000000 0.2384433 -0.4203827 0.7615567 0.4203827 0.7615567 0.4203827 0.2384433 -0.4203827
4328750000 0.2334071 -0.4171658 0.7665929 0.4171658 0.7665929 0.4171658 0.2334071 -0.4171658
4378500000 0.2284806 -0.4139353 0.7715194 0.4139353 0.7715194 0.4139353 0.2284806 -0.4139353
4428250000 0.2236614 -0.4106934 0.7763386 0.4106934 0.7763386 0.4106934 0.2236614 -0.4106934
4478000000 0.2189471 -0.4074418 0.7810529 0.4074418 0.7810529 0.4074418 0.2189471 -0.4074418
4527750000 0.2143353 -0.4041823 0.7856647 0.4041823 0.7856647 0.4041823 0.2143353 -0.4041823
4577500000 0.2098239 -0.4009166 0.7901761 0.4009166 0.7901761 0.4009166 0.2098239 -0.4009166
4627250000 0.2054103 -0.3976462 0.7945897 0.3976462 0.7945897 0.3976462 0.2054103 -0.3976462
4677000000 0.2010926 -0.3943727 0.7989074 0.3943727 0.7989074 0.3943727 0.2010926 -0.3943727
4726750000 0.1968684 -0.3910973 0.8031316 0.3910973 0.8031316 0.3910973 0.1968684 -0.3910973
4776500000 0.1927357 -0.3878214 0.8072643 0.3878214 0.8072643 0.3878214 0.1927357 -0.3878214
4826250000 0.1886923 -0.3845462 0.8113077 0.3845462 0.8113077 0.3845462 0.1886923 -0.3845462
4876000000 0.1847361 -0.3812729 0.8152639 0.3812729 0.8152639 0.3812729 0.1847361 -0.3812729
4925750000 0.1808653 -0.3780026 0.8191347 0.3780026 0.8191347 0.3780026 0.1808653 -0.3780026
4975500000 0.1770778 -0.3747361 0.8229222 0.3747361 0.8229222 0.3747361 0.1770778 -0.3747361
5025250000 0.1733716 -0.3714746 0.8266284 0.3714746 0.8266284 0.3714746 0.1733716 -0.3714746
5075000000 0.1697450 -0.3682189 0.8302550 0.3682189 0.8302550 0.3682189 0.1697450 -0.3682189
5124750000 0.1661960 -0.3649697 0.8338040 0.3649697 0.8338040 0.3649697 0.1661960 -0.3649697
5174500000 0.1627230 -0.3617280 0.8372770 0.3617280 0.8372770 0.3617280 0.1627230 -0.3617280
5224250000 0.1593240 -0.3584943 0.8406760 0.3584943 0.8406760 0.3584943 0.1593240 -0.3584943
5274000000 0.1559975 -0.3552695 0.8440025 0.3552695 0.8440025 0.3552695 0.1559975 -0.3552695
5323750000 0.1527417 -0.3520541 0.8472583 0.3520541 0.8472583 0.3520541 0.1527417 -0.3520541
5373500000 0.1495550 -0.3488486 0.8504450 0.3488486 0.8504450 0.3488486 0.1495550 -0.3488486
5423250000 0.1464358 -0.3456538 0.8535642 0.3456538 0.8535642 0.3456538 0.1464358 -0.3456538
5473000000 0.1433826 -0.3424700 0.8566174 0.3424700 0.8566174 0.3424700 0.1433826 -0.3424700
5522750000 0.1403938 -0.3392977 0.8596062 0.3392977 0.8596062 0.3392977 0.1403938 -0.3392977
5572500000 0.1374680 -0.3361373 0.8625320 0.3361373 0.8625320 0.3361373 0.1374680 -0.3361373
5622250000 0.1346037 -0.3329894 0.8653963 0.3329894 0.8653963 0.3329894 0.1346037 -0.3329894
5672000000 0.1317994 -0.3298541 0.8682006 0.3298541 0.8682006 0.3298541 0.1317994 -0.3298541
5721750000 0.1290539 -0.3267320 0.8709461 0.3267320 0.8709461 0.3267320 0.1290539 -0.3267320
5771500000 0.1263658 -0.3236232 0.8736342 0.3236232 0.8736342 0.3236232 0.1263658 -0.3236232
5821250000 0.1237338 -0.3205281 0.8762662 0.3205281 0.8762662 0.3205281 0.1237338 -0.3205281
5871000000 0.1211566 -0.3174470 0.8788434 0.3174470 0.8788434 0.3174470 0.1211566 -0.3174470
5920750000 0.1186329 -0.3143800 0.8813671 0.3143800 0.8813671 0.3143800 0.1186329 -0.3143800
5970500000 0.1161616 -0.3113274 0.8838384 0.3113274 0.8838384 0.3113274 0.1161616 -0.3113274
6020250000 0.1137414 -0.3082894 0.8862586 0.3082894 0.8862586 0.3082894 0.1137414 -0.3082894
6070000000 0.1113713 -0.3052661 0.8886287 0.3052661 0.8886287 0.3052661 0.1113713 -0.3052661
6119750000 0.1090501 -0.3022578 0.8909499 0.3022578 0.8909499 0.3022578 0.1090501 -0.3022578
6169500000 0.1067766 -0.2992645 0.8932234 0.2992645 0.8932234 0.2992645 0.1067766 -0.2992645
6219250000 0.1045499 -0.2962863 0.8954501 0.2962863 0.8954501 0.2962863 0.1045499 -0.2962863
6269000000 0.1023689 -0.2933235 0.8976311 0.2933235 0.8976311 0.2933235 0.1023689 -0.2933235
6318750000 0.1002325 -0.2903761 0.8997675 0.2903761 0.8997675 0.2903761 0.1002325 -0.2903761
6368500000 0.0981399 -0.2874441 0.9018601 0.2874441 0.9018601 0.2874441 0.0981399 -0.2874441
6418250000 0.0960899 -0.2845276 0.9039101 0.2845276 0.9039101 0.2845276 0.0960899 -0.2845276
6468000000 0.0940818 -0.2816266 0.9059182 0.2816266 0.9059182 0.2816266 0.0940818 -0.2816266
6517750000 0.0921145 -0.2787413 0.9078855 0.2787413 0.9078855 0.2787413 0.0921145 -0.2787413
6567500000 0.0901872 -0.2758717 0.9098128 0.2758717 0.9098128 0.2758717 0.0901872 -0.2758717
6617250000 0.0882990 -0.2730177 0.9117010 0.2730177 0.9117010 0.2730177 0.0882990 -0.2730177
6667000000 0.0864491 -0.2701793 0.9135509 0.2701793 0.9135509 0.2701793 0.0864491 -0.2701793
6716750000 0.0846367 -0.2673567 0.9153633 0.2673567 0.9153633 0.2673567 0.0846367 -0.2673567
6766500000 0.0828608 -0.2645497 0.9171392 0.2645497 0.9171392 0.2645497 0.0828608 -0.2645497
6816250000 0.0811208 -0.2617583 0.9188792 0.2617583 0.9188792 0.2617583 0.0811208 -0.2617583
6866000000 0.0794159 -0.2589826 0.9205841 0.2589826 0.9205841 0.2589826 0.0794159 -0.2589826
6915750000 0.0777454 -0.2562225 0.9222546 0.2562225 0.9222546 0.2562225 0.0777454 -0.2562225
6965500000 0.0761084 -0.2534780 0.9238916 0.2534780 0.9238916 0.2534780 0.0761084 -0.2534780
7015250000 0.0745043 -0.2507489 0.9254957 0.2507489 0.9254957 0.2507489 0.0745043 -0.2507489
7065000000 0.0729325 -0.2480354 0.9270675 0.2480354 0.9270675 0.2480354 0.0729325 -0.2480354
7114750000 0.0713922 -0.2453373 0.9286078 0.2453373 0.9286078 0.2453373 0.0713922 -0.2453373
7164500000 0.0698828 -0.2426545 0.9301172 0.2426545 0.9301172 0.2426545 0.0698828 -0.2426545
7214250000 0.0684036 -0.2399870 0.9315964 0.2399870 0.9315964 0.2399870 0.0684036 -0.2399870
7264000000 0.0669540 -0.2373348 0.9330460 0.2373348 0.9330460 0.2373348 0.0669540 -0.2373348
7313750000 0.0655334 -0.2346977 0.9344666 0.2346977 0.9344666 0.2346977 0.0655334 -0.2346977
7363500000 0.0641413 -0.2320757 0.9358587 0.2320757 0.9358587 0.2320757 0.0641413 -0.2320757
7413250000 0.0627769 -0.2294688 0.9372231 0.2294688 0.9372231 0.2294688 0.0627769 -0.2294688
7463000000 0.0614399 -0.2268767 0.9385601 0.2268767 0.9385601 0.2268767 0.0614399 -0.2268767
7512750000 0.0601295 -0.2242996 0.9398705 0.2242996 0.9398705 0.2242996 0.0601295 -0.2242996
7562500000 0.0588453 -0.2217371 0.9411547 0.2217371 0.9411547 0.2217371 0.0588453 -0.2217371
7612250000 0.0575868 -0.2191894 0.9424132 0.2191894 0.9424132 0.2191894 0.0575868 -0.2191894
7662000000 0.0563534 -0.2166562 0.9436466 0.2166562 0.9436466 0.2166562 0.0563534 -0.2166562
7711750000 0.0551446 -0.2141375 0.9448554 0.2141375 0.9448554 0.2141375 0.0551446 -0.2141375
7761500000 0.0539600 -0.2116333 0.9460400 0.2116333 0.9460400 0.2116333 0.0539600 -0.2116333
7811250000 0.0527991 -0.2091433 0.9472009 0.2091433 0.9472009 0.2091433 0.0527991 -0.2091433
7861000000 0.0516614 -0.2066675 0.9483386 0.2066675 0.9483386 0.2066675 0.0516614 -0.2066675
7910750000 0.0505464 -0.2042058 0.9494536 0.2042058 0.9494536 0.2042058 0.0505464 -0.2042058
7960500000 0.0494538 -0.2017581 0.9505462 0.2017581 0.9505462 0.2017581 0.0494538 -0.2017581
8010250000 0.0483830 -0.1993243 0.9516170 0.1993243 0.9516170 0.1993243 0.0483830 -0.1993243
8060000000 0.0473337 -0.1969043 0.9526663 0.1969043 0.9526663 0.1969043 0.0473337 -0.1969043
8109750000 0.0463054 -0.1944980 0.9536946 0.1944980 0.9536946 0.1944980 0.0463054 -0.1944980
8159500000 0.0452978 -0.1921053 0.9547022 0.1921053 0.9547022 0.1921053 0.0452978 -0.1921053
8209250000 0.0443105 -0.1897261 0.9556895 0.1897261 0.9556895 0.1897261 0.0443105 -0.1897261
8259000000 0.0433430 -0.1873602 0.9566570 0.1873602 0.9566570 0.1873602 0.0433430 -0.1873602
8308750000 0.0423950 -0.1850076 0.9576050 0.1850076 0.9576050 0.1850076 0.0423950 -0.1850076
8358500000 0.0414662 -0.1826682 0.9585338 0.1826682 0.9585338 0.1826682 0.0414662 -0.1826682
8408250000 0.0405561 -0.1803418 0.9594439 0.1803418 0.9594439 0.1803418 0.0405561 -0.1803418
8458000000 0.0396644 -0.1780284 0.9603356 0.1780284 0.9603356 0.1780284 0.0396644 -0.1780284
8507750000 0.0387909 -0.1757278 0.9612091 0.1757278 0.9612091 0.1757278 0.0387909 -0.1757278
8557500000 0.0379351 -0.1734400 0.9620649 0.1734400 0.9620649 0.1734400 0.0379351 -0.1734400
8607250000 0.0370967 -0.1711648 0.9629033 0.1711648 0.9629033 0.1711648 0.0370967 -0.1711648
8657000000 0.0362755 -0.1689021 0.9637245 0.1689021 0.9637245 0.1689021 0.0362755 -0.1689021
8706750000 0.0354710 -0.1666519 0.9645290 0.1666519 0.9645290 0.1666519 0.0354710 -0.1666519
8756500000 0.0346831 -0.1644139 0.9653169 0.1644139 0.9653169 0.1644139 0.0346831 -0.1644139
8806250000 0.0339113 -0.1621882 0.9660887 0.1621882 0.9660887 0.1621882 0.0339113 -0.1621882
8856000000 0.0331555 -0.1599746 0.9668445 0.1599746 0.9668445 0.1599746 0.0331555 -0.1599746
8905750000 0.0324153 -0.1577730 0.9675847 0.1577730 0.9675847 0.1577730 0.0324153 -0.1577730
8955500000 0.0316904 -0.1555832 0.9683096 0.1555832 0.9683096 0.1555832 0.0316904 -0.1555832
9005250000 0.0309807 -0.1534053 0.9690193 0.1534053 0.9690193 0.1534053 0.0309807 -0.1534053
9055000000 0.0302858 -0.1512390 0.9697142 0.1512390 0.9697142 0.1512390 0.0302858 -0.1512390
9104750000 0.0296054 -0.1490843 0.9703946 0.1490843 0.9703946 0.1490843 0.0296054 -0.1490843
9154500000 0.0289393 -0.1469411 0.9710607 0.1469411 0.9710607 0.1469411 0.0289393 -0.1469411
9204250000 0.0282873 -0.1448093 0.9717127 0.1448093 0.9717127 0.1448093 0.0282873 -0.1448093
9254000000 0.0276492 -0.1426887 0.9723508 0.1426887 0.9723508 0.1426887 0.0276492 -0.1426887
9303750000 0.0270246 -0.1405794 0.9729754 0.1405794 0.9729754 0.1405794 0.0270246 -0.1405794
9353500000 0.0264133 -0.1384811 0.9735867 0.1384811 0.9735867 0.1384811 0.0264133 -0.1384811
9403250000 0.0258153 -0.1363937 0.9741847 0.1363937 0.9741847 0.1363937 0.0258153 -0.1363937
9453000000 0.0252301 -0.1343173 0.9747699 0.1343173 0.9747699 0.1343173 0.0252301 -0.1343173
9502750000 0.0246576 -0.1322516 0.9753424 0.1322516 0.9753424 0.1322516 0.0246576 -0.1322516
9552500000 0.0240976 -0.1301966 0.9759024 0.1301966 0.9759024 0.1301966 0.0240976 -0.1301966
9602250000 0.0235498 -0.1281522 0.9764502 0.1281522 0.9764502 0.1281522 0.0235498 -0.1281522
9652000000 0.0230141 -0.1261183 0.9769859 0.1261183 0.9769859 0.1261183 0.0230141 -0.1261183
9701750000 0.0224903 -0.1240948 0.9775097 0.1240948 0.9775097 0.1240948 0.0224903 -0.1240948
9751500000 0.0219782 -0.1220815 0.9780218 0.1220815 0.9780218 0.1220815 0.0219782 -0.1220815
9801250000 0.0214776 -0.1200785 0.9785224 0.1200785 0.9785224 0.1200785 0.0214776 -0.1200785
9851000000 0.0209883 -0.1180856 0.9790117 0.1180856 0.9790117 0.1180856 0.0209883 -0.1180856
9900750000 0.0205101 -0.1161027 0.9794899 0.1161027 0.9794899 0.1161027 0.0205101 -0.1161027
9950500000 0.0200428 -0.1141298 0.9799572 0.1141298 0.9799572 0.1141298 0.0200428 -0.1141298
10000250000 0.0195863 -0.1121667 0.9804137 0.1121667 0.9804137 0.1121667 0.0195863 -0.1121667
10050000000 0.0191405 -0.1102133 0.9808595 0.1102133 0.9808595 0.1102133 0.0191405 -0.1102133
10099750000 0.0187050 -0.1082696 0.9812950 0.1082696 0.9812950 0.1082696 0.0187050 -0.1082696
10149500000 0.0182798 -0.1063355 0.9817202 0.1063355 0.9817202 0.1063355 0.0182798 -0.1063355
10199250000 0.0178648 -0.1044109 0.9821352 0.1044109 0.9821352 0.1044109 0.0178648 -0.1044109
10249000000 0.0174596 -0.1024956 0.9825404 0.1024956 0.9825404 0.1024956 0.0174596 -0.1024956
10298750000 0.0170643 -0.1005897 0.9829357 0.1005897 0.9829357 0.1005897 0.0170643 -0.1005897
10348500000 0.0166786 -0.0986930 0.9833214 0.0986930 0.9833214 0.0986930 0.0166786 -0.0986930
10398250000 0.0163025 -0.0968055 0.9836975 0.0968055 0.9836975 0.0968055 0.0163025 -0.0968055
10448000000 0.0159356 -0.0949270 0.9840644 0.0949270 0.9840644 0.0949270 0.0159356 -0.0949270
10497750000 0.0155780 -0.0930575 0.9844220 0.0930575 0.9844220 0.0930575 0.0155780 -0.0930575
