!Murata Part Number: GRM0225C1H120GA03
!These Parameters are Measured in Series Mode Connection
!Data Generated on Mar 30, 2021
!       o--ll--o
!Port1            Port2
!       o------o
!Operation Temp=25[degC], DC Bias Voltage=0[V]
!Freq. Start=100[MHz] Stop=9[GHz] 401[Steps]
# Hz S RI R 50
!Freq.(Hz) S11(Real) S11(Imag) S21(Real) S21(Imag) S12(Real) S12(Imag) S22(Real) S22(Imag)
100000000 0.6370023 -0.4801399 0.3629977 0.4801399 0.3629977 0.4801399 0.6370023 -0.4801399
121000000 0.5451057 -0.4970843 0.4548943 0.4970843 0.4548943 0.4970843 0.5451057 -0.4970843
142000000 0.4652011 -0.4977576 0.5347989 0.4977576 0.5347989 0.4977576 0.4652011 -0.4977576
163000000 0.3975772 -0.4882139 0.6024228 0.4882139 0.6024228 0.4882139 0.3975772 -0.4882139
184000000 0.3411250 -0.4727502 0.6588750 0.4727502 0.6588750 0.4727502 0.3411250 -0.4727502
205000000 0.2942530 -0.4542150 0.7057470 0.4542150 0.7057470 0.4542150 0.2942530 -0.4542150
226000000 0.2553481 -0.4344107 0.7446519 0.4344107 0.7446519 0.4344107 0.2553481 -0.4344107
247000000 0.2229675 -0.4144353 0.7770325 0.4144353 0.7770325 0.4144353 0.2229675 -0.4144353
268000000 0.1958949 -0.3949307 0.8041051 0.3949307 0.8041051 0.3949307 0.1958949 -0.3949307
289000000 0.1731355 -0.3762504 0.8268645 0.3762504 0.8268645 0.3762504 0.1731355 -0.3762504
310000000 0.1538878 -0.3585698 0.8461122 0.3585698 0.8461122 0.3585698 0.1538878 -0.3585698
331000000 0.1375101 -0.3419556 0.8624899 0.3419556 0.8624899 0.3419556 0.1375101 -0.3419556
352000000 0.1234897 -0.3264099 0.8765103 0.3264099 0.8765103 0.3264099 0.1234897 -0.3264099
373000000 0.1114161 -0.3118982 0.8885839 0.3118982 0.8885839 0.3118982 0.1114161 -0.3118982
394000000 0.1009597 -0.2983661 0.8990403 0.2983661 0.8990403 0.2983661 0.1009597 -0.2983661
415000000 0.0918548 -0.2857497 0.9081452 0.2857497 0.9081452 0.2857497 0.0918548 -0.2857497
436000000 0.0838857 -0.2739823 0.9161143 0.2739823 0.9161143 0.2739823 0.0838857 -0.2739823
457000000 0.0768768 -0.2629978 0.9231232 0.2629978 0.9231232 0.2629978 0.0768768 -0.2629978
478000000 0.0706840 -0.2527331 0.9293160 0.2527331 0.9293160 0.2527331 0.0706840 -0.2527331
499000000 0.0651886 -0.2431287 0.9348114 0.2431287 0.9348114 0.2431287 0.0651886 -0.2431287
520000000 0.0602920 -0.2341298 0.9397080 0.2341298 0.9397080 0.2341298 0.0602920 -0.2341298
541000000 0.0559122 -0.2256860 0.9440878 0.2256860 0.9440878 0.2256860 0.0559122 -0.2256860
562000000 0.0519805 -0.2177513 0.9480195 0.2177513 0.9480195 0.2177513 0.0519805 -0.2177513
583000000 0.0484389 -0.2102838 0.9515611 0.2102838 0.9515611 0.2102838 0.0484389 -0.2102838
604000000 0.0452385 -0.2032457 0.9547615 0.2032457 0.9547615 0.2032457 0.0452385 -0.2032457
625000000 0.0423375 -0.1966024 0.9576625 0.1966024 0.9576625 0.1966024 0.0423375 -0.1966024
646000000 0.0397005 -0.1903227 0.9602995 0.1903227 0.9602995 0.1903227 0.0397005 -0.1903227
667000000 0.0372968 -0.1843785 0.9627032 0.1843785 0.9627032 0.1843785 0.0372968 -0.1843785
688000000 0.0351001 -0.1787440 0.9648999 0.1787440 0.9648999 0.1787440 0.0351001 -0.1787440
709000000 0.0330878 -0.1733959 0.9669122 0.1733959 0.9669122 0.1733959 0.0330878 -0.1733959
730000000 0.0312401 -0.1683133 0.9687599 0.1683133 0.9687599 0.1683133 0.0312401 -0.1683133
751000000 0.0295398 -0.1634767 0.9704602 0.1634767 0.9704602 0.1634767 0.0295398 -0.1634767
772000000 0.0279719 -0.1588689 0.9720281 0.1588689 0.9720281 0.1588689 0.0279719 -0.1588689
793000000 0.0265233 -0.1544736 0.9734767 0.1544736 0.9734767 0.1544736 0.0265233 -0.1544736
814000000 0.0251823 -0.1502765 0.9748177 0.1502765 0.9748177 0.1502765 0.0251823 -0.1502765
835000000 0.0239387 -0.1462642 0.9760613 0.1462642 0.9760613 0.1462642 0.0239387 -0.1462642
856000000 0.0227834 -0.1424245 0.9772166 0.1424245 0.9772166 0.1424245 0.0227834 -0.1424245
877000000 0.0217085 -0.1387463 0.9782915 0.1387463 0.9782915 0.1387463 0.0217085 -0.1387463
898000000 0.0207069 -0.1352191 0.9792931 0.1352191 0.9792931 0.1352191 0.0207069 -0.1352191
919000000 0.0197720 -0.1318338 0.9802280 0.1318338 0.9802280 0.1318338 0.0197720 -0.1318338
940000000 0.0188983 -0.1285814 0.9811017 0.1285814 0.9811017 0.1285814 0.0188983 -0.1285814
961000000 0.0180807 -0.1254541 0.9819193 0.1254541 0.9819193 0.1254541 0.0180807 -0.1254541
982000000 0.0173144 -0.1224444 0.9826856 0.1224444 0.9826856 0.1224444 0.0173144 -0.1224444
1003000000 0.0165956 -0.1195455 0.9834044 0.1195455 0.9834044 0.1195455 0.0165956 -0.1195455
1024000000 0.0159203 -0.1167510 0.9840797 0.1167510 0.9840797 0.1167510 0.0159203 -0.1167510
1045000000 0.0152852 -0.1140552 0.9847148 0.1140552 0.9847148 0.1140552 0.0152852 -0.1140552
1066000000 0.0146874 -0.1114525 0.9853126 0.1114525 0.9853126 0.1114525 0.0146874 -0.1114525
1087000000 0.0141240 -0.1089379 0.9858760 0.1089379 0.9858760 0.1089379 0.0141240 -0.1089379
1108000000 0.0135925 -0.1065068 0.9864075 0.1065068 0.9864075 0.1065068 0.0135925 -0.1065068
1129000000 0.0130906 -0.1041546 0.9869094 0.1041546 0.9869094 0.1041546 0.0130906 -0.1041546
1150000000 0.0126163 -0.1018774 0.9873837 0.1018774 0.9873837 0.1018774 0.0126163 -0.1018774
1171000000 0.0121676 -0.0996713 0.9878324 0.0996713 0.9878324 0.0996713 0.0121676 -0.0996713
1192000000 0.0117428 -0.0975327 0.9882572 0.0975327 0.9882572 0.0975327 0.0117428 -0.0975327
1213000000 0.0113403 -0.0954584 0.9886597 0.0954584 0.9886597 0.0954584 0.0113403 -0.0954584
1234000000 0.0109586 -0.0934452 0.9890414 0.0934452 0.9890414 0.0934452 0.0109586 -0.0934452
1255000000 0.0105964 -0.0914903 0.9894036 0.0914903 0.9894036 0.0914903 0.0105964 -0.0914903
1276000000 0.0102524 -0.0895907 0.9897476 0.0895907 0.9897476 0.0895907 0.0102524 -0.0895907
1297000000 0.0099256 -0.0877441 0.9900744 0.0877441 0.9900744 0.0877441 0.0099256 -0.0877441
1318000000 0.0096147 -0.0859479 0.9903853 0.0859479 0.9903853 0.0859479 0.0096147 -0.0859479
1339000000 0.0093189 -0.0841999 0.9906811 0.0841999 0.9906811 0.0841999 0.0093189 -0.0841999
1360000000 0.0090373 -0.0824980 0.9909627 0.0824980 0.9909627 0.0824980 0.0090373 -0.0824980
1381000000 0.0087690 -0.0808401 0.9912310 0.0808401 0.9912310 0.0808401 0.0087690 -0.0808401
1402000000 0.0085133 -0.0792243 0.9914867 0.0792243 0.9914867 0.0792243 0.0085133 -0.0792243
1423000000 0.0082694 -0.0776489 0.9917306 0.0776489 0.9917306 0.0776489 0.0082694 -0.0776489
1444000000 0.0080366 -0.0761122 0.9919634 0.0761122 0.9919634 0.0761122 0.0080366 -0.0761122
1465000000 0.0078144 -0.0746124 0.9921856 0.0746124 0.9921856 0.0746124 0.0078144 -0.0746124
1486000000 0.0076022 -0.0731482 0.9923978 0.0731482 0.9923978 0.0731482 0.0076022 -0.0731482
1507000000 0.0073994 -0.0717181 0.9926006 0.0717181 0.9926006 0.0717181 0.0073994 -0.0717181
1528000000 0.0072055 -0.0703207 0.9927945 0.0703207 0.9927945 0.0703207 0.0072055 -0.0703207
1549000000 0.0070201 -0.0689548 0.9929799 0.0689548 0.9929799 0.0689548 0.0070201 -0.0689548
1570000000 0.0068426 -0.0676191 0.9931574 0.0676191 0.9931574 0.0676191 0.0068426 -0.0676191
1591000000 0.0066728 -0.0663124 0.9933272 0.0663124 0.9933272 0.0663124 0.0066728 -0.0663124
1612000000 0.0065102 -0.0650338 0.9934898 0.0650338 0.9934898 0.0650338 0.0065102 -0.0650338
1633000000 0.0063545 -0.0637820 0.9936455 0.0637820 0.9936455 0.0637820 0.0063545 -0.0637820
1654000000 0.0062053 -0.0625562 0.9937947 0.0625562 0.9937947 0.0625562 0.0062053 -0.0625562
1675000000 0.0060623 -0.0613553 0.9939377 0.0613553 0.9939377 0.0613553 0.0060623 -0.0613553
1696000000 0.0059251 -0.0601785 0.9940749 0.0601785 0.9940749 0.0601785 0.0059251 -0.0601785
1717000000 0.0057937 -0.0590249 0.9942063 0.0590249 0.9942063 0.0590249 0.0057937 -0.0590249
1738000000 0.0056675 -0.0578937 0.9943325 0.0578937 0.9943325 0.0578937 0.0056675 -0.0578937
1759000000 0.0055465 -0.0567841 0.9944535 0.0567841 0.9944535 0.0567841 0.0055465 -0.0567841
1780000000 0.0054304 -0.0556953 0.9945696 0.0556953 0.9945696 0.0556953 0.0054304 -0.0556953
1801000000 0.0053189 -0.0546268 0.9946811 0.0546268 0.9946811 0.0546268 0.0053189 -0.0546268
1822000000 0.0052119 -0.0535777 0.9947881 0.0535777 0.9947881 0.0535777 0.0052119 -0.0535777
1843000000 0.0051091 -0.0525474 0.9948909 0.0525474 0.9948909 0.0525474 0.0051091 -0.0525474
1864000000 0.0050104 -0.0515353 0.9949896 0.0515353 0.9949896 0.0515353 0.0050104 -0.0515353
1885000000 0.0049156 -0.0505408 0.9950844 0.0505408 0.9950844 0.0505408 0.0049156 -0.0505408
1906000000 0.0048246 -0.0495634 0.9951754 0.0495634 0.9951754 0.0495634 0.0048246 -0.0495634
1927000000 0.0047371 -0.0486025 0.9952629 0.0486025 0.9952629 0.0486025 0.0047371 -0.0486025
1948000000 0.0046530 -0.0476575 0.9953470 0.0476575 0.9953470 0.0476575 0.0046530 -0.0476575
1969000000 0.0045722 -0.0467280 0.9954278 0.0467280 0.9954278 0.0467280 0.0045722 -0.0467280
1990000000 0.0044945 -0.0458135 0.9955055 0.0458135 0.9955055 0.0458135 0.0044945 -0.0458135
2011000000 0.0044199 -0.0449135 0.9955801 0.0449135 0.9955801 0.0449135 0.0044199 -0.0449135
2032000000 0.0043481 -0.0440276 0.9956519 0.0440276 0.9956519 0.0440276 0.0043481 -0.0440276
2053000000 0.0042792 -0.0431554 0.9957208 0.0431554 0.9957208 0.0431554 0.0042792 -0.0431554
2074000000 0.0042129 -0.0422964 0.9957871 0.0422964 0.9957871 0.0422964 0.0042129 -0.0422964
2095000000 0.0041492 -0.0414503 0.9958508 0.0414503 0.9958508 0.0414503 0.0041492 -0.0414503
2116000000 0.0040880 -0.0406167 0.9959120 0.0406167 0.9959120 0.0406167 0.0040880 -0.0406167
2137000000 0.0040291 -0.0397952 0.9959709 0.0397952 0.9959709 0.0397952 0.0040291 -0.0397952
2158000000 0.0039726 -0.0389855 0.9960274 0.0389855 0.9960274 0.0389855 0.0039726 -0.0389855
2179000000 0.0039182 -0.0381872 0.9960818 0.0381872 0.9960818 0.0381872 0.0039182 -0.0381872
2200000000 0.0038660 -0.0374001 0.9961340 0.0374001 0.9961340 0.0374001 0.0038660 -0.0374001
2221000000 0.0038159 -0.0366237 0.9961841 0.0366237 0.9961841 0.0366237 0.0038159 -0.0366237
2242000000 0.0037677 -0.0358579 0.9962323 0.0358579 0.9962323 0.0358579 0.0037677 -0.0358579
2263000000 0.0037214 -0.0351023 0.9962786 0.0351023 0.9962786 0.0351023 0.0037214 -0.0351023
2284000000 0.0036770 -0.0343566 0.9963230 0.0343566 0.9963230 0.0343566 0.0036770 -0.0343566
2305000000 0.0036343 -0.0336207 0.9963657 0.0336207 0.9963657 0.0336207 0.0036343 -0.0336207
2326000000 0.0035934 -0.0328941 0.9964066 0.0328941 0.9964066 0.0328941 0.0035934 -0.0328941
2347000000 0.0035541 -0.0321767 0.9964459 0.0321767 0.9964459 0.0321767 0.0035541 -0.0321767
2368000000 0.0035164 -0.0314683 0.9964836 0.0314683 0.9964836 0.0314683 0.0035164 -0.0314683
2389000000 0.0034803 -0.0307685 0.9965197 0.0307685 0.9965197 0.0307685 0.0034803 -0.0307685
2410000000 0.0034457 -0.0300772 0.9965543 0.0300772 0.9965543 0.0300772 0.0034457 -0.0300772
2431000000 0.0034125 -0.0293942 0.9965875 0.0293942 0.9965875 0.0293942 0.0034125 -0.0293942
2452000000 0.0033807 -0.0287192 0.9966193 0.0287192 0.9966193 0.0287192 0.0033807 -0.0287192
2473000000 0.0033503 -0.0280520 0.9966497 0.0280520 0.9966497 0.0280520 0.0033503 -0.0280520
2494000000 0.0033212 -0.0273925 0.9966788 0.0273925 0.9966788 0.0273925 0.0033212 -0.0273925
2515000000 0.0032934 -0.0267405 0.9967066 0.0267405 0.9967066 0.0267405 0.0032934 -0.0267405
2536000000 0.0032668 -0.0260957 0.9967332 0.0260957 0.9967332 0.0260957 0.0032668 -0.0260957
2557000000 0.0032414 -0.0254580 0.9967586 0.0254580 0.9967586 0.0254580 0.0032414 -0.0254580
2578000000 0.0032172 -0.0248273 0.9967828 0.0248273 0.9967828 0.0248273 0.0032172 -0.0248273
2599000000 0.0031941 -0.0242033 0.9968059 0.0242033 0.9968059 0.0242033 0.0031941 -0.0242033
2620000000 0.0031721 -0.0235859 0.9968279 0.0235859 0.9968279 0.0235859 0.0031721 -0.0235859
2641000000 0.0031512 -0.0229749 0.9968488 0.0229749 0.9968488 0.0229749 0.0031512 -0.0229749
2662000000 0.0031313 -0.0223702 0.9968687 0.0223702 0.9968687 0.0223702 0.0031313 -0.0223702
2683000000 0.0031124 -0.0217717 0.9968876 0.0217717 0.9968876 0.0217717 0.0031124 -0.0217717
2704000000 0.0030945 -0.0211792 0.9969055 0.0211792 0.9969055 0.0211792 0.0030945 -0.0211792
2725000000 0.0030775 -0.0205925 0.9969225 0.0205925 0.9969225 0.0205925 0.0030775 -0.0205925
2746000000 0.0030614 -0.0200115 0.9969386 0.0200115 0.9969386 0.0200115 0.0030614 -0.0200115
2767000000 0.0030463 -0.0194362 0.9969537 0.0194362 0.9969537 0.0194362 0.0030463 -0.0194362
2788000000 0.0030320 -0.0188663 0.9969680 0.0188663 0.9969680 0.0188663 0.0030320 -0.0188663
2809000000 0.0030186 -0.0183018 0.9969814 0.0183018 0.9969814 0.0183018 0.0030186 -0.0183018
2830000000 0.0030060 -0.0177425 0.9969940 0.0177425 0.9969940 0.0177425 0.0030060 -0.0177425
2851000000 0.0029942 -0.0171883 0.9970058 0.0171883 0.9970058 0.0171883 0.0029942 -0.0171883
2872000000 0.0029831 -0.0166391 0.9970169 0.0166391 0.9970169 0.0166391 0.0029831 -0.0166391
2893000000 0.0029729 -0.0160948 0.9970271 0.0160948 0.9970271 0.0160948 0.0029729 -0.0160948
2914000000 0.0029634 -0.0155553 0.9970366 0.0155553 0.9970366 0.0155553 0.0029634 -0.0155553
2935000000 0.0029546 -0.0150205 0.9970454 0.0150205 0.9970454 0.0150205 0.0029546 -0.0150205
2956000000 0.0029466 -0.0144902 0.9970534 0.0144902 0.9970534 0.0144902 0.0029466 -0.0144902
2977000000 0.0029392 -0.0139645 0.9970608 0.0139645 0.9970608 0.0139645 0.0029392 -0.0139645
2998000000 0.0029325 -0.0134432 0.9970675 0.0134432 0.9970675 0.0134432 0.0029325 -0.0134432
3019000000 0.0029265 -0.0129261 0.9970735 0.0129261 0.9970735 0.0129261 0.0029265 -0.0129261
3040000000 0.0029211 -0.0124133 0.9970789 0.0124133 0.9970789 0.0124133 0.0029211 -0.0124133
3061000000 0.0029163 -0.0119046 0.9970837 0.0119046 0.9970837 0.0119046 0.0029163 -0.0119046
3082000000 0.0029122 -0.0113999 0.9970878 0.0113999 0.9970878 0.0113999 0.0029122 -0.0113999
3103000000 0.0029087 -0.0108992 0.9970913 0.0108992 0.9970913 0.0108992 0.0029087 -0.0108992
3124000000 0.0029057 -0.0104023 0.9970943 0.0104023 0.9970943 0.0104023 0.0029057 -0.0104023
3145000000 0.0029033 -0.0099093 0.9970967 0.0099093 0.9970967 0.0099093 0.0029033 -0.0099093
3166000000 0.0029015 -0.0094200 0.9970985 0.0094200 0.9970985 0.0094200 0.0029015 -0.0094200
3187000000 0.0029003 -0.0089343 0.9970997 0.0089343 0.9970997 0.0089343 0.0029003 -0.0089343
3208000000 0.0028996 -0.0084523 0.9971004 0.0084523 0.9971004 0.0084523 0.0028996 -0.0084523
3229000000 0.0028994 -0.0079737 0.9971006 0.0079737 0.9971006 0.0079737 0.0028994 -0.0079737
3250000000 0.0028998 -0.0074985 0.9971002 0.0074985 0.9971002 0.0074985 0.0028998 -0.0074985
3271000000 0.0029007 -0.0070268 0.9970993 0.0070268 0.9970993 0.0070268 0.0029007 -0.0070268
3292000000 0.0029020 -0.0065583 0.9970980 0.0065583 0.9970980 0.0065583 0.0029020 -0.0065583
3313000000 0.0029039 -0.0060931 0.9970961 0.0060931 0.9970961 0.0060931 0.0029039 -0.0060931
3334000000 0.0029062 -0.0056311 0.9970938 0.0056311 0.9970938 0.0056311 0.0029062 -0.0056311
3355000000 0.0029090 -0.0051721 0.9970910 0.0051721 0.9970910 0.0051721 0.0029090 -0.0051721
3376000000 0.0029123 -0.0047163 0.9970877 0.0047163 0.9970877 0.0047163 0.0029123 -0.0047163
3397000000 0.0029161 -0.0042634 0.9970839 0.0042634 0.9970839 0.0042634 0.0029161 -0.0042634
3418000000 0.0029203 -0.0038135 0.9970797 0.0038135 0.9970797 0.0038135 0.0029203 -0.0038135
3439000000 0.0029249 -0.0033665 0.9970751 0.0033665 0.9970751 0.0033665 0.0029249 -0.0033665
3460000000 0.0029300 -0.0029223 0.9970700 0.0029223 0.9970700 0.0029223 0.0029300 -0.0029223
3481000000 0.0029355 -0.0024810 0.9970645 0.0024810 0.9970645 0.0024810 0.0029355 -0.0024810
3502000000 0.0029414 -0.0020423 0.9970586 0.0020423 0.9970586 0.0020423 0.0029414 -0.0020423
3523000000 0.0029477 -0.0016063 0.9970523 0.0016063 0.9970523 0.0016063 0.0029477 -0.0016063
3544000000 0.0029544 -0.0011730 0.9970456 0.0011730 0.9970456 0.0011730 0.0029544 -0.0011730
3565000000 0.0029616 -0.0007423 0.9970384 0.0007423 0.9970384 0.0007423 0.0029616 -0.0007423
3586000000 0.0029691 -0.0003141 0.9970309 0.0003141 0.9970309 0.0003141 0.0029691 -0.0003141
3607000000 0.0029771 0.0001116 0.9970229 -0.0001116 0.9970229 -0.0001116 0.0029771 0.0001116
3628000000 0.0029854 0.0005349 0.9970146 -0.0005349 0.9970146 -0.0005349 0.0029854 0.0005349
3649000000 0.0029941 0.0009557 0.9970059 -0.0009557 0.9970059 -0.0009557 0.0029941 0.0009557
3670000000 0.0030031 0.0013742 0.9969969 -0.0013742 0.9969969 -0.0013742 0.0030031 0.0013742
3691000000 0.0030126 0.0017904 0.9969874 -0.0017904 0.9969874 -0.0017904 0.0030126 0.0017904
3712000000 0.0030224 0.0022042 0.9969776 -0.0022042 0.9969776 -0.0022042 0.0030224 0.0022042
3733000000 0.0030326 0.0026158 0.9969674 -0.0026158 0.9969674 -0.0026158 0.0030326 0.0026158
3754000000 0.0030431 0.0030252 0.9969569 -0.0030252 0.9969569 -0.0030252 0.0030431 0.0030252
3775000000 0.0030540 0.0034325 0.9969460 -0.0034325 0.9969460 -0.0034325 0.0030540 0.0034325
3796000000 0.0030652 0.0038376 0.9969348 -0.0038376 0.9969348 -0.0038376 0.0030652 0.0038376
3817000000 0.0030768 0.0042406 0.9969232 -0.0042406 0.9969232 -0.0042406 0.0030768 0.0042406
3838000000 0.0030887 0.0046416 0.9969113 -0.0046416 0.9969113 -0.0046416 0.0030887 0.0046416
3859000000 0.0031010 0.0050405 0.9968990 -0.0050405 0.9968990 -0.0050405 0.0031010 0.0050405
3880000000 0.0031136 0.0054375 0.9968864 -0.0054375 0.9968864 -0.0054375 0.0031136 0.0054375
3901000000 0.0031265 0.0058324 0.9968735 -0.0058324 0.9968735 -0.0058324 0.0031265 0.0058324
3922000000 0.0031397 0.0062255 0.9968603 -0.0062255 0.9968603 -0.0062255 0.0031397 0.0062255
3943000000 0.0031533 0.0066167 0.9968467 -0.0066167 0.9968467 -0.0066167 0.0031533 0.0066167
3964000000 0.0031672 0.0070060 0.9968328 -0.0070060 0.9968328 -0.0070060 0.0031672 0.0070060
3985000000 0.0031814 0.0073935 0.9968186 -0.0073935 0.9968186 -0.0073935 0.0031814 0.0073935
4006000000 0.0031960 0.0077791 0.9968040 -0.0077791 0.9968040 -0.0077791 0.0031960 0.0077791
4027000000 0.0032108 0.0081630 0.9967892 -0.0081630 0.9967892 -0.0081630 0.0032108 0.0081630
4048000000 0.0032260 0.0085452 0.9967740 -0.0085452 0.9967740 -0.0085452 0.0032260 0.0085452
4069000000 0.0032415 0.0089256 0.9967585 -0.0089256 0.9967585 -0.0089256 0.0032415 0.0089256
4090000000 0.0032573 0.0093044 0.9967427 -0.0093044 0.9967427 -0.0093044 0.0032573 0.0093044
4111000000 0.0032734 0.0096815 0.9967266 -0.0096815 0.9967266 -0.0096815 0.0032734 0.0096815
4132000000 0.0032898 0.0100570 0.9967102 -0.0100570 0.9967102 -0.0100570 0.0032898 0.0100570
4153000000 0.0033065 0.0104309 0.9966935 -0.0104309 0.9966935 -0.0104309 0.0033065 0.0104309
4174000000 0.0033236 0.0108031 0.9966764 -0.0108031 0.9966764 -0.0108031 0.0033236 0.0108031
4195000000 0.0033409 0.0111739 0.9966591 -0.0111739 0.9966591 -0.0111739 0.0033409 0.0111739
4216000000 0.0033585 0.0115431 0.9966415 -0.0115431 0.9966415 -0.0115431 0.0033585 0.0115431
4237000000 0.0033764 0.0119108 0.9966236 -0.0119108 0.9966236 -0.0119108 0.0033764 0.0119108
4258000000 0.0033946 0.0122770 0.9966054 -0.0122770 0.9966054 -0.0122770 0.0033946 0.0122770
4279000000 0.0034132 0.0126417 0.9965868 -0.0126417 0.9965868 -0.0126417 0.0034132 0.0126417
4300000000 0.0034320 0.0130050 0.9965680 -0.0130050 0.9965680 -0.0130050 0.0034320 0.0130050
4321000000 0.0034511 0.0133669 0.9965489 -0.0133669 0.9965489 -0.0133669 0.0034511 0.0133669
4342000000 0.0034705 0.0137274 0.9965295 -0.0137274 0.9965295 -0.0137274 0.0034705 0.0137274
4363000000 0.0034902 0.0140866 0.9965098 -0.0140866 0.9965098 -0.0140866 0.0034902 0.0140866
4384000000 0.0035102 0.0144443 0.9964898 -0.0144443 0.9964898 -0.0144443 0.0035102 0.0144443
4405000000 0.0035305 0.0148008 0.9964695 -0.0148008 0.9964695 -0.0148008 0.0035305 0.0148008
4426000000 0.0035510 0.0151559 0.9964490 -0.0151559 0.9964490 -0.0151559 0.0035510 0.0151559
4447000000 0.0035719 0.0155098 0.9964281 -0.0155098 0.9964281 -0.0155098 0.0035719 0.0155098
4468000000 0.0035931 0.0158623 0.9964069 -0.0158623 0.9964069 -0.0158623 0.0035931 0.0158623
4489000000 0.0036145 0.0162137 0.9963855 -0.0162137 0.9963855 -0.0162137 0.0036145 0.0162137
4510000000 0.0036363 0.0165638 0.9963637 -0.0165638 0.9963637 -0.0165638 0.0036363 0.0165638
