!Murata Part Number: GRM0222C1E820GA02
!These Parameters are Measured in Series Mode Connection
!Data Generated on Mar 30, 2021
!       o--ll--o
!Port1            Port2
!       o------o
!Operation Temp=25[degC], DC Bias Voltage=0[V]
!Freq. Start=100[MHz] Stop=9[GHz] 401[Steps]
# Hz S RI R 50
!Freq.(Hz) S11(Real) S11(Imag) S21(Real) S21(Imag) S12(Real) S12(Imag) S22(Real) S22(Imag)
100000000 0.0369061 -0.1856709 0.9630939 0.1856709 0.9630939 0.1856709 0.0369061 -0.1856709
121000000 0.0257149 -0.1548227 0.9742851 0.1548227 0.9742851 0.1548227 0.0257149 -0.1548227
142000000 0.0189879 -0.1324213 0.9810121 0.1324213 0.9810121 0.1324213 0.0189879 -0.1324213
163000000 0.0146409 -0.1154500 0.9853591 0.1154500 0.9853591 0.1154500 0.0146409 -0.1154500
184000000 0.0116742 -0.1021548 0.9883258 0.1021548 0.9883258 0.1021548 0.0116742 -0.1021548
205000000 0.0095616 -0.0914559 0.9904384 0.0914559 0.9904384 0.0914559 0.0095616 -0.0914559
226000000 0.0080052 -0.0826550 0.9919948 0.0826550 0.9919948 0.0826550 0.0080052 -0.0826550
247000000 0.0068262 -0.0752821 0.9931738 0.0752821 0.9931738 0.0752821 0.0068262 -0.0752821
268000000 0.0059123 -0.0690096 0.9940877 0.0690096 0.9940877 0.0690096 0.0059123 -0.0690096
289000000 0.0051899 -0.0636025 0.9948101 0.0636025 0.9948101 0.0636025 0.0051899 -0.0636025
310000000 0.0046095 -0.0588881 0.9953905 0.0588881 0.9953905 0.0588881 0.0046095 -0.0588881
331000000 0.0041364 -0.0547366 0.9958636 0.0547366 0.9958636 0.0547366 0.0041364 -0.0547366
352000000 0.0037460 -0.0510486 0.9962540 0.0510486 0.9962540 0.0510486 0.0037460 -0.0510486
373000000 0.0034204 -0.0477467 0.9965796 0.0477467 0.9965796 0.0477467 0.0034204 -0.0477467
394000000 0.0031462 -0.0447699 0.9968538 0.0447699 0.9968538 0.0447699 0.0031462 -0.0447699
415000000 0.0029133 -0.0420692 0.9970867 0.0420692 0.9970867 0.0420692 0.0029133 -0.0420692
436000000 0.0027142 -0.0396051 0.9972858 0.0396051 0.9972858 0.0396051 0.0027142 -0.0396051
457000000 0.0025427 -0.0373453 0.9974573 0.0373453 0.9974573 0.0373453 0.0025427 -0.0373453
478000000 0.0023942 -0.0352629 0.9976058 0.0352629 0.9976058 0.0352629 0.0023942 -0.0352629
499000000 0.0022650 -0.0333358 0.9977350 0.0333358 0.9977350 0.0333358 0.0022650 -0.0333358
520000000 0.0021521 -0.0315453 0.9978479 0.0315453 0.9978479 0.0315453 0.0021521 -0.0315453
541000000 0.0020530 -0.0298754 0.9979470 0.0298754 0.9979470 0.0298754 0.0020530 -0.0298754
562000000 0.0019657 -0.0283128 0.9980343 0.0283128 0.9980343 0.0283128 0.0019657 -0.0283128
583000000 0.0018887 -0.0268460 0.9981113 0.0268460 0.9981113 0.0268460 0.0018887 -0.0268460
604000000 0.0018205 -0.0254649 0.9981795 0.0254649 0.9981795 0.0254649 0.0018205 -0.0254649
625000000 0.0017601 -0.0241610 0.9982399 0.0241610 0.9982399 0.0241610 0.0017601 -0.0241610
646000000 0.0017064 -0.0229267 0.9982936 0.0229267 0.9982936 0.0229267 0.0017064 -0.0229267
667000000 0.0016587 -0.0217556 0.9983413 0.0217556 0.9983413 0.0217556 0.0016587 -0.0217556
688000000 0.0016162 -0.0206418 0.9983838 0.0206418 0.9983838 0.0206418 0.0016162 -0.0206418
709000000 0.0015785 -0.0195803 0.9984215 0.0195803 0.9984215 0.0195803 0.0015785 -0.0195803
730000000 0.0015450 -0.0185665 0.9984550 0.0185665 0.9984550 0.0185665 0.0015450 -0.0185665
751000000 0.0015152 -0.0175965 0.9984848 0.0175965 0.9984848 0.0175965 0.0015152 -0.0175965
772000000 0.0014889 -0.0166668 0.9985111 0.0166668 0.9985111 0.0166668 0.0014889 -0.0166668
793000000 0.0014656 -0.0157740 0.9985344 0.0157740 0.9985344 0.0157740 0.0014656 -0.0157740
814000000 0.0014451 -0.0149154 0.9985549 0.0149154 0.9985549 0.0149154 0.0014451 -0.0149154
835000000 0.0014272 -0.0140883 0.9985728 0.0140883 0.9985728 0.0140883 0.0014272 -0.0140883
856000000 0.0014115 -0.0132906 0.9985885 0.0132906 0.9985885 0.0132906 0.0014115 -0.0132906
877000000 0.0013981 -0.0125200 0.9986019 0.0125200 0.9986019 0.0125200 0.0013981 -0.0125200
898000000 0.0013865 -0.0117746 0.9986135 0.0117746 0.9986135 0.0117746 0.0013865 -0.0117746
919000000 0.0013768 -0.0110528 0.9986232 0.0110528 0.9986232 0.0110528 0.0013768 -0.0110528
940000000 0.0013688 -0.0103529 0.9986312 0.0103529 0.9986312 0.0103529 0.0013688 -0.0103529
961000000 0.0013623 -0.0096736 0.9986377 0.0096736 0.9986377 0.0096736 0.0013623 -0.0096736
982000000 0.0013573 -0.0090135 0.9986427 0.0090135 0.9986427 0.0090135 0.0013573 -0.0090135
1003000000 0.0013536 -0.0083713 0.9986464 0.0083713 0.9986464 0.0083713 0.0013536 -0.0083713
1024000000 0.0013512 -0.0077460 0.9986488 0.0077460 0.9986488 0.0077460 0.0013512 -0.0077460
1045000000 0.0013501 -0.0071367 0.9986499 0.0071367 0.9986499 0.0071367 0.0013501 -0.0071367
1066000000 0.0013500 -0.0065422 0.9986500 0.0065422 0.9986500 0.0065422 0.0013500 -0.0065422
1087000000 0.0013510 -0.0059618 0.9986490 0.0059618 0.9986490 0.0059618 0.0013510 -0.0059618
1108000000 0.0013531 -0.0053947 0.9986469 0.0053947 0.9986469 0.0053947 0.0013531 -0.0053947
1129000000 0.0013561 -0.0048401 0.9986439 0.0048401 0.9986439 0.0048401 0.0013561 -0.0048401
1150000000 0.0013600 -0.0042973 0.9986400 0.0042973 0.9986400 0.0042973 0.0013600 -0.0042973
1171000000 0.0013648 -0.0037658 0.9986352 0.0037658 0.9986352 0.0037658 0.0013648 -0.0037658
1192000000 0.0013704 -0.0032449 0.9986296 0.0032449 0.9986296 0.0032449 0.0013704 -0.0032449
1213000000 0.0013769 -0.0027340 0.9986231 0.0027340 0.9986231 0.0027340 0.0013769 -0.0027340
1234000000 0.0013841 -0.0022326 0.9986159 0.0022326 0.9986159 0.0022326 0.0013841 -0.0022326
1255000000 0.0013920 -0.0017404 0.9986080 0.0017404 0.9986080 0.0017404 0.0013920 -0.0017404
1276000000 0.0014007 -0.0012567 0.9985993 0.0012567 0.9985993 0.0012567 0.0014007 -0.0012567
1297000000 0.0014101 -0.0007813 0.9985899 0.0007813 0.9985899 0.0007813 0.0014101 -0.0007813
1318000000 0.0014202 -0.0003137 0.9985798 0.0003137 0.9985798 0.0003137 0.0014202 -0.0003137
1339000000 0.0014309 0.0001465 0.9985691 -0.0001465 0.9985691 -0.0001465 0.0014309 0.0001465
1360000000 0.0014423 0.0005996 0.9985577 -0.0005996 0.9985577 -0.0005996 0.0014423 0.0005996
1381000000 0.0014543 0.0010459 0.9985457 -0.0010459 0.9985457 -0.0010459 0.0014543 0.0010459
1402000000 0.0014669 0.0014858 0.9985331 -0.0014858 0.9985331 -0.0014858 0.0014669 0.0014858
1423000000 0.0014800 0.0019195 0.9985200 -0.0019195 0.9985200 -0.0019195 0.0014800 0.0019195
1444000000 0.0014938 0.0023472 0.9985062 -0.0023472 0.9985062 -0.0023472 0.0014938 0.0023472
1465000000 0.0015082 0.0027693 0.9984918 -0.0027693 0.9984918 -0.0027693 0.0015082 0.0027693
1486000000 0.0015231 0.0031860 0.9984769 -0.0031860 0.9984769 -0.0031860 0.0015231 0.0031860
1507000000 0.0015386 0.0035974 0.9984614 -0.0035974 0.9984614 -0.0035974 0.0015386 0.0035974
1528000000 0.0015546 0.0040039 0.9984454 -0.0040039 0.9984454 -0.0040039 0.0015546 0.0040039
1549000000 0.0015712 0.0044056 0.9984288 -0.0044056 0.9984288 -0.0044056 0.0015712 0.0044056
1570000000 0.0015883 0.0048028 0.9984117 -0.0048028 0.9984117 -0.0048028 0.0015883 0.0048028
1591000000 0.0016059 0.0051955 0.9983941 -0.0051955 0.9983941 -0.0051955 0.0016059 0.0051955
1612000000 0.0016240 0.0055839 0.9983760 -0.0055839 0.9983760 -0.0055839 0.0016240 0.0055839
1633000000 0.0016427 0.0059683 0.9983573 -0.0059683 0.9983573 -0.0059683 0.0016427 0.0059683
1654000000 0.0016619 0.0063488 0.9983381 -0.0063488 0.9983381 -0.0063488 0.0016619 0.0063488
1675000000 0.0016816 0.0067255 0.9983184 -0.0067255 0.9983184 -0.0067255 0.0016816 0.0067255
1696000000 0.0017018 0.0070986 0.9982982 -0.0070986 0.9982982 -0.0070986 0.0017018 0.0070986
1717000000 0.0017225 0.0074681 0.9982775 -0.0074681 0.9982775 -0.0074681 0.0017225 0.0074681
1738000000 0.0017437 0.0078343 0.9982563 -0.0078343 0.9982563 -0.0078343 0.0017437 0.0078343
1759000000 0.0017654 0.0081972 0.9982346 -0.0081972 0.9982346 -0.0081972 0.0017654 0.0081972
1780000000 0.0017876 0.0085570 0.9982124 -0.0085570 0.9982124 -0.0085570 0.0017876 0.0085570
1801000000 0.0018104 0.0089137 0.9981896 -0.0089137 0.9981896 -0.0089137 0.0018104 0.0089137
1822000000 0.0018336 0.0092675 0.9981664 -0.0092675 0.9981664 -0.0092675 0.0018336 0.0092675
1843000000 0.0018573 0.0096184 0.9981427 -0.0096184 0.9981427 -0.0096184 0.0018573 0.0096184
1864000000 0.0018815 0.0099666 0.9981185 -0.0099666 0.9981185 -0.0099666 0.0018815 0.0099666
1885000000 0.0019062 0.0103121 0.9980938 -0.0103121 0.9980938 -0.0103121 0.0019062 0.0103121
1906000000 0.0019314 0.0106550 0.9980686 -0.0106550 0.9980686 -0.0106550 0.0019314 0.0106550
1927000000 0.0019571 0.0109955 0.9980429 -0.0109955 0.9980429 -0.0109955 0.0019571 0.0109955
1948000000 0.0019833 0.0113335 0.9980167 -0.0113335 0.9980167 -0.0113335 0.0019833 0.0113335
1969000000 0.0020100 0.0116692 0.9979900 -0.0116692 0.9979900 -0.0116692 0.0020100 0.0116692
1990000000 0.0020372 0.0120026 0.9979628 -0.0120026 0.9979628 -0.0120026 0.0020372 0.0120026
2011000000 0.0020649 0.0123338 0.9979351 -0.0123338 0.9979351 -0.0123338 0.0020649 0.0123338
2032000000 0.0020931 0.0126629 0.9979069 -0.0126629 0.9979069 -0.0126629 0.0020931 0.0126629
2053000000 0.0021218 0.0129898 0.9978782 -0.0129898 0.9978782 -0.0129898 0.0021218 0.0129898
2074000000 0.0021511 0.0133148 0.9978489 -0.0133148 0.9978489 -0.0133148 0.0021511 0.0133148
2095000000 0.0021808 0.0136377 0.9978192 -0.0136377 0.9978192 -0.0136377 0.0021808 0.0136377
2116000000 0.0022110 0.0139588 0.9977890 -0.0139588 0.9977890 -0.0139588 0.0022110 0.0139588
2137000000 0.0022418 0.0142780 0.9977582 -0.0142780 0.9977582 -0.0142780 0.0022418 0.0142780
2158000000 0.0022731 0.0145953 0.9977269 -0.0145953 0.9977269 -0.0145953 0.0022731 0.0145953
2179000000 0.0023049 0.0149109 0.9976951 -0.0149109 0.9976951 -0.0149109 0.0023049 0.0149109
2200000000 0.0023372 0.0152248 0.9976628 -0.0152248 0.9976628 -0.0152248 0.0023372 0.0152248
2221000000 0.0023701 0.0155370 0.9976299 -0.0155370 0.9976299 -0.0155370 0.0023701 0.0155370
2242000000 0.0024034 0.0158475 0.9975966 -0.0158475 0.9975966 -0.0158475 0.0024034 0.0158475
2263000000 0.0024373 0.0161564 0.9975627 -0.0161564 0.9975627 -0.0161564 0.0024373 0.0161564
2284000000 0.0024718 0.0164638 0.9975282 -0.0164638 0.9975282 -0.0164638 0.0024718 0.0164638
2305000000 0.0025067 0.0167696 0.9974933 -0.0167696 0.9974933 -0.0167696 0.0025067 0.0167696
2326000000 0.0025423 0.0170739 0.9974577 -0.0170739 0.9974577 -0.0170739 0.0025423 0.0170739
2347000000 0.0025783 0.0173767 0.9974217 -0.0173767 0.9974217 -0.0173767 0.0025783 0.0173767
2368000000 0.0026149 0.0176781 0.9973851 -0.0176781 0.9973851 -0.0176781 0.0026149 0.0176781
2389000000 0.0026521 0.0179781 0.9973479 -0.0179781 0.9973479 -0.0179781 0.0026521 0.0179781
2410000000 0.0026898 0.0182766 0.9973102 -0.0182766 0.9973102 -0.0182766 0.0026898 0.0182766
2431000000 0.0027280 0.0185739 0.9972720 -0.0185739 0.9972720 -0.0185739 0.0027280 0.0185739
2452000000 0.0027669 0.0188697 0.9972331 -0.0188697 0.9972331 -0.0188697 0.0027669 0.0188697
2473000000 0.0028062 0.0191643 0.9971938 -0.0191643 0.9971938 -0.0191643 0.0028062 0.0191643
2494000000 0.0028462 0.0194576 0.9971538 -0.0194576 0.9971538 -0.0194576 0.0028462 0.0194576
2515000000 0.0028867 0.0197496 0.9971133 -0.0197496 0.9971133 -0.0197496 0.0028867 0.0197496
2536000000 0.0029278 0.0200403 0.9970722 -0.0200403 0.9970722 -0.0200403 0.0029278 0.0200403
2557000000 0.0029694 0.0203299 0.9970306 -0.0203299 0.9970306 -0.0203299 0.0029694 0.0203299
2578000000 0.0030117 0.0206182 0.9969883 -0.0206182 0.9969883 -0.0206182 0.0030117 0.0206182
2599000000 0.0030545 0.0209053 0.9969455 -0.0209053 0.9969455 -0.0209053 0.0030545 0.0209053
2620000000 0.0030979 0.0211912 0.9969021 -0.0211912 0.9969021 -0.0211912 0.0030979 0.0211912
2641000000 0.0031418 0.0214759 0.9968582 -0.0214759 0.9968582 -0.0214759 0.0031418 0.0214759
2662000000 0.0031864 0.0217595 0.9968136 -0.0217595 0.9968136 -0.0217595 0.0031864 0.0217595
2683000000 0.0032316 0.0220419 0.9967684 -0.0220419 0.9967684 -0.0220419 0.0032316 0.0220419
2704000000 0.0032773 0.0223232 0.9967227 -0.0223232 0.9967227 -0.0223232 0.0032773 0.0223232
2725000000 0.0033237 0.0226034 0.9966763 -0.0226034 0.9966763 -0.0226034 0.0033237 0.0226034
2746000000 0.0033706 0.0228825 0.9966294 -0.0228825 0.9966294 -0.0228825 0.0033706 0.0228825
2767000000 0.0034182 0.0231604 0.9965818 -0.0231604 0.9965818 -0.0231604 0.0034182 0.0231604
2788000000 0.0034663 0.0234373 0.9965337 -0.0234373 0.9965337 -0.0234373 0.0034663 0.0234373
2809000000 0.0035151 0.0237130 0.9964849 -0.0237130 0.9964849 -0.0237130 0.0035151 0.0237130
2830000000 0.0035645 0.0239877 0.9964355 -0.0239877 0.9964355 -0.0239877 0.0035645 0.0239877
2851000000 0.0036144 0.0242613 0.9963856 -0.0242613 0.9963856 -0.0242613 0.0036144 0.0242613
2872000000 0.0036650 0.0245338 0.9963350 -0.0245338 0.9963350 -0.0245338 0.0036650 0.0245338
2893000000 0.0037162 0.0248053 0.9962838 -0.0248053 0.9962838 -0.0248053 0.0037162 0.0248053
2914000000 0.0037680 0.0250757 0.9962320 -0.0250757 0.9962320 -0.0250757 0.0037680 0.0250757
2935000000 0.0038204 0.0253450 0.9961796 -0.0253450 0.9961796 -0.0253450 0.0038204 0.0253450
2956000000 0.0038734 0.0256132 0.9961266 -0.0256132 0.9961266 -0.0256132 0.0038734 0.0256132
2977000000 0.0039271 0.0258804 0.9960729 -0.0258804 0.9960729 -0.0258804 0.0039271 0.0258804
2998000000 0.0039813 0.0261465 0.9960187 -0.0261465 0.9960187 -0.0261465 0.0039813 0.0261465
3019000000 0.0040361 0.0264116 0.9959639 -0.0264116 0.9959639 -0.0264116 0.0040361 0.0264116
3040000000 0.0040916 0.0266756 0.9959084 -0.0266756 0.9959084 -0.0266756 0.0040916 0.0266756
3061000000 0.0041477 0.0269385 0.9958523 -0.0269385 0.9958523 -0.0269385 0.0041477 0.0269385
3082000000 0.0042043 0.0272003 0.9957957 -0.0272003 0.9957957 -0.0272003 0.0042043 0.0272003
3103000000 0.0042616 0.0274611 0.9957384 -0.0274611 0.9957384 -0.0274611 0.0042616 0.0274611
3124000000 0.0043195 0.0277208 0.9956805 -0.0277208 0.9956805 -0.0277208 0.0043195 0.0277208
3145000000 0.0043780 0.0279794 0.9956220 -0.0279794 0.9956220 -0.0279794 0.0043780 0.0279794
3166000000 0.0044371 0.0282370 0.9955629 -0.0282370 0.9955629 -0.0282370 0.0044371 0.0282370
3187000000 0.0044967 0.0284934 0.9955033 -0.0284934 0.9955033 -0.0284934 0.0044967 0.0284934
3208000000 0.0045570 0.0287488 0.9954430 -0.0287488 0.9954430 -0.0287488 0.0045570 0.0287488
3229000000 0.0046178 0.0290030 0.9953822 -0.0290030 0.9953822 -0.0290030 0.0046178 0.0290030
3250000000 0.0046792 0.0292562 0.9953208 -0.0292562 0.9953208 -0.0292562 0.0046792 0.0292562
3271000000 0.0047412 0.0295082 0.9952588 -0.0295082 0.9952588 -0.0295082 0.0047412 0.0295082
3292000000 0.0048037 0.0297591 0.9951963 -0.0297591 0.9951963 -0.0297591 0.0048037 0.0297591
3313000000 0.0048669 0.0300089 0.9951331 -0.0300089 0.9951331 -0.0300089 0.0048669 0.0300089
3334000000 0.0049305 0.0302575 0.9950695 -0.0302575 0.9950695 -0.0302575 0.0049305 0.0302575
3355000000 0.0049947 0.0305050 0.9950053 -0.0305050 0.9950053 -0.0305050 0.0049947 0.0305050
3376000000 0.0050594 0.0307514 0.9949406 -0.0307514 0.9949406 -0.0307514 0.0050594 0.0307514
3397000000 0.0051247 0.0309966 0.9948753 -0.0309966 0.9948753 -0.0309966 0.0051247 0.0309966
3418000000 0.0051905 0.0312406 0.9948095 -0.0312406 0.9948095 -0.0312406 0.0051905 0.0312406
3439000000 0.0052568 0.0314834 0.9947432 -0.0314834 0.9947432 -0.0314834 0.0052568 0.0314834
3460000000 0.0053235 0.0317251 0.9946765 -0.0317251 0.9946765 -0.0317251 0.0053235 0.0317251
3481000000 0.0053908 0.0319655 0.9946092 -0.0319655 0.9946092 -0.0319655 0.0053908 0.0319655
3502000000 0.0054585 0.0322047 0.9945415 -0.0322047 0.9945415 -0.0322047 0.0054585 0.0322047
3523000000 0.0055267 0.0324428 0.9944733 -0.0324428 0.9944733 -0.0324428 0.0055267 0.0324428
3544000000 0.0055953 0.0326795 0.9944047 -0.0326795 0.9944047 -0.0326795 0.0055953 0.0326795
3565000000 0.0056643 0.0329151 0.9943357 -0.0329151 0.9943357 -0.0329151 0.0056643 0.0329151
3586000000 0.0057338 0.0331494 0.9942662 -0.0331494 0.9942662 -0.0331494 0.0057338 0.0331494
3607000000 0.0058036 0.0333824 0.9941964 -0.0333824 0.9941964 -0.0333824 0.0058036 0.0333824
3628000000 0.0058739 0.0336142 0.9941261 -0.0336142 0.9941261 -0.0336142 0.0058739 0.0336142
3649000000 0.0059444 0.0338447 0.9940556 -0.0338447 0.9940556 -0.0338447 0.0059444 0.0338447
3670000000 0.0060154 0.0340739 0.9939846 -0.0340739 0.9939846 -0.0340739 0.0060154 0.0340739
3691000000 0.0060866 0.0343018 0.9939134 -0.0343018 0.9939134 -0.0343018 0.0060866 0.0343018
3712000000 0.0061581 0.0345284 0.9938419 -0.0345284 0.9938419 -0.0345284 0.0061581 0.0345284
3733000000 0.0062300 0.0347536 0.9937700 -0.0347536 0.9937700 -0.0347536 0.0062300 0.0347536
3754000000 0.0063020 0.0349776 0.9936980 -0.0349776 0.9936980 -0.0349776 0.0063020 0.0349776
3775000000 0.0063744 0.0352002 0.9936256 -0.0352002 0.9936256 -0.0352002 0.0063744 0.0352002
3796000000 0.0064469 0.0354215 0.9935531 -0.0354215 0.9935531 -0.0354215 0.0064469 0.0354215
3817000000 0.0065196 0.0356414 0.9934804 -0.0356414 0.9934804 -0.0356414 0.0065196 0.0356414
3838000000 0.0065925 0.0358600 0.9934075 -0.0358600 0.9934075 -0.0358600 0.0065925 0.0358600
3859000000 0.0066655 0.0360772 0.9933345 -0.0360772 0.9933345 -0.0360772 0.0066655 0.0360772
3880000000 0.0067386 0.0362931 0.9932614 -0.0362931 0.9932614 -0.0362931 0.0067386 0.0362931
3901000000 0.0068118 0.0365075 0.9931882 -0.0365075 0.9931882 -0.0365075 0.0068118 0.0365075
3922000000 0.0068851 0.0367206 0.9931149 -0.0367206 0.9931149 -0.0367206 0.0068851 0.0367206
3943000000 0.0069583 0.0369324 0.9930417 -0.0369324 0.9930417 -0.0369324 0.0069583 0.0369324
3964000000 0.0070316 0.0371427 0.9929684 -0.0371427 0.9929684 -0.0371427 0.0070316 0.0371427
3985000000 0.0071049 0.0373517 0.9928951 -0.0373517 0.9928951 -0.0373517 0.0071049 0.0373517
4006000000 0.0071781 0.0375593 0.9928219 -0.0375593 0.9928219 -0.0375593 0.0071781 0.0375593
4027000000 0.0072511 0.0377655 0.9927489 -0.0377655 0.9927489 -0.0377655 0.0072511 0.0377655
4048000000 0.0073241 0.0379703 0.9926759 -0.0379703 0.9926759 -0.0379703 0.0073241 0.0379703
4069000000 0.0073969 0.0381737 0.9926031 -0.0381737 0.9926031 -0.0381737 0.0073969 0.0381737
4090000000 0.0074695 0.0383757 0.9925305 -0.0383757 0.9925305 -0.0383757 0.0074695 0.0383757
4111000000 0.0075419 0.0385764 0.9924581 -0.0385764 0.9924581 -0.0385764 0.0075419 0.0385764
4132000000 0.0076140 0.0387757 0.9923860 -0.0387757 0.9923860 -0.0387757 0.0076140 0.0387757
4153000000 0.0076859 0.0389737 0.9923141 -0.0389737 0.9923141 -0.0389737 0.0076859 0.0389737
4174000000 0.0077574 0.0391703 0.9922426 -0.0391703 0.9922426 -0.0391703 0.0077574 0.0391703
4195000000 0.0078285 0.0393655 0.9921715 -0.0393655 0.9921715 -0.0393655 0.0078285 0.0393655
4216000000 0.0078993 0.0395595 0.9921007 -0.0395595 0.9921007 -0.0395595 0.0078993 0.0395595
4237000000 0.0079696 0.0397521 0.9920304 -0.0397521 0.9920304 -0.0397521 0.0079696 0.0397521
4258000000 0.0080395 0.0399433 0.9919605 -0.0399433 0.9919605 -0.0399433 0.0080395 0.0399433
4279000000 0.0081089 0.0401333 0.9918911 -0.0401333 0.9918911 -0.0401333 0.0081089 0.0401333
4300000000 0.0081777 0.0403220 0.9918223 -0.0403220 0.9918223 -0.0403220 0.0081777 0.0403220
4321000000 0.0082460 0.0405095 0.9917540 -0.0405095 0.9917540 -0.0405095 0.0082460 0.0405095
4342000000 0.0083137 0.0406957 0.9916863 -0.0406957 0.9916863 -0.0406957 0.0083137 0.0406957
4363000000 0.0083808 0.0408806 0.9916192 -0.0408806 0.9916192 -0.0408806 0.0083808 0.0408806
4384000000 0.0084472 0.0410644 0.9915528 -0.0410644 0.9915528 -0.0410644 0.0084472 0.0410644
4405000000 0.0085129 0.0412470 0.9914871 -0.0412470 0.9914871 -0.0412470 0.0085129 0.0412470
4426000000 0.0085779 0.0414284 0.9914221 -0.0414284 0.9914221 -0.0414284 0.0085779 0.0414284
4447000000 0.0086421 0.0416087 0.9913579 -0.0416087 0.9913579 -0.0416087 0.0086421 0.0416087
4468000000 0.0087055 0.0417878 0.9912945 -0.0417878 0.9912945 -0.0417878 0.0087055 0.0417878
4489000000 0.0087682 0.0419659 0.9912318 -0.0419659 0.9912318 -0.0419659 0.0087682 0.0419659
4510000000 0.0088299 0.0421430 0.9911701 -0.0421430 0.9911701 -0.0421430 0.0088299 0.0421430
