!Murata Part Number: GRM0222C1H7R9BA03
!These Parameters are Measured in Series Mode Connection
!Data Generated on Mar 30, 2021
!       o--ll--o
!Port1            Port2
!       o------o
!Operation Temp=25[degC], DC Bias Voltage=0[V]
!Freq. Start=100[MHz] Stop=9[GHz] 401[Steps]
# Hz S RI R 50
!Freq.(Hz) S11(Real) S11(Imag) S21(Real) S21(Imag) S12(Real) S12(Imag) S22(Real) S22(Imag)
100000000 0.8019815 -0.3981643 0.1980185 0.3981643 0.1980185 0.3981643 0.8019815 -0.3981643
121000000 0.7344133 -0.4412306 0.2655867 0.4412306 0.2655867 0.4412306 0.7344133 -0.4412306
142000000 0.6674418 -0.4706422 0.3325582 0.4706422 0.3325582 0.4706422 0.6674418 -0.4706422
163000000 0.6035563 -0.4885974 0.3964437 0.4885974 0.3964437 0.4885974 0.6035563 -0.4885974
184000000 0.5442298 -0.4974045 0.4557702 0.4974045 0.4557702 0.4974045 0.5442298 -0.4974045
205000000 0.4901559 -0.4991928 0.5098441 0.4991928 0.5098441 0.4991928 0.4901559 -0.4991928
226000000 0.4414914 -0.4957790 0.5585086 0.4957790 0.5585086 0.4957790 0.4414914 -0.4957790
247000000 0.3980585 -0.4886353 0.6019415 0.4886353 0.6019415 0.4886353 0.3980585 -0.4886353
268000000 0.3594932 -0.4789122 0.6405068 0.4789122 0.6405068 0.4789122 0.3594932 -0.4789122
289000000 0.3253459 -0.4674860 0.6746541 0.4674860 0.6746541 0.4674860 0.3253459 -0.4674860
310000000 0.2951439 -0.4550102 0.7048561 0.4550102 0.7048561 0.4550102 0.2951439 -0.4550102
331000000 0.2684284 -0.4419642 0.7315716 0.4419642 0.7315716 0.4419642 0.2684284 -0.4419642
352000000 0.2447737 -0.4286939 0.7552263 0.4286939 0.7552263 0.4286939 0.2447737 -0.4286939
373000000 0.2237956 -0.4154451 0.7762044 0.4154451 0.7762044 0.4154451 0.2237956 -0.4154451
394000000 0.2051537 -0.4023885 0.7948463 0.4023885 0.7948463 0.4023885 0.2051537 -0.4023885
415000000 0.1885496 -0.3896400 0.8114504 0.3896400 0.8114504 0.3896400 0.1885496 -0.3896400
436000000 0.1737238 -0.3772751 0.8262762 0.3772751 0.8262762 0.3772751 0.1737238 -0.3772751
457000000 0.1604518 -0.3653402 0.8395482 0.3653402 0.8395482 0.3653402 0.1604518 -0.3653402
478000000 0.1485393 -0.3538604 0.8514607 0.3538604 0.8514607 0.3538604 0.1485393 -0.3538604
499000000 0.1378190 -0.3428461 0.8621810 0.3428461 0.8621810 0.3428461 0.1378190 -0.3428461
520000000 0.1281462 -0.3322970 0.8718538 0.3322970 0.8718538 0.3322970 0.1281462 -0.3322970
541000000 0.1193962 -0.3222054 0.8806038 0.3222054 0.8806038 0.3222054 0.1193962 -0.3222054
562000000 0.1114611 -0.3125587 0.8885389 0.3125587 0.8885389 0.3125587 0.1114611 -0.3125587
583000000 0.1042473 -0.3033414 0.8957527 0.3033414 0.8957527 0.3033414 0.1042473 -0.3033414
604000000 0.0976739 -0.2945357 0.9023261 0.2945357 0.9023261 0.2945357 0.0976739 -0.2945357
625000000 0.0916701 -0.2861230 0.9083299 0.2861230 0.9083299 0.2861230 0.0916701 -0.2861230
646000000 0.0861745 -0.2780840 0.9138255 0.2780840 0.9138255 0.2780840 0.0861745 -0.2780840
667000000 0.0811334 -0.2703999 0.9188666 0.2703999 0.9188666 0.2703999 0.0811334 -0.2703999
688000000 0.0764997 -0.2630520 0.9235003 0.2630520 0.9235003 0.2630520 0.0764997 -0.2630520
709000000 0.0722319 -0.2560221 0.9277681 0.2560221 0.9277681 0.2560221 0.0722319 -0.2560221
730000000 0.0682939 -0.2492929 0.9317061 0.2492929 0.9317061 0.2492929 0.0682939 -0.2492929
751000000 0.0646534 -0.2428478 0.9353466 0.2428478 0.9353466 0.2428478 0.0646534 -0.2428478
772000000 0.0612820 -0.2366710 0.9387180 0.2366710 0.9387180 0.2366710 0.0612820 -0.2366710
793000000 0.0581547 -0.2307477 0.9418453 0.2307477 0.9418453 0.2307477 0.0581547 -0.2307477
814000000 0.0552490 -0.2250638 0.9447510 0.2250638 0.9447510 0.2250638 0.0552490 -0.2250638
835000000 0.0525449 -0.2196061 0.9474551 0.2196061 0.9474551 0.2196061 0.0525449 -0.2196061
856000000 0.0500249 -0.2143621 0.9499751 0.2143621 0.9499751 0.2143621 0.0500249 -0.2143621
877000000 0.0476728 -0.2093201 0.9523272 0.2093201 0.9523272 0.2093201 0.0476728 -0.2093201
898000000 0.0454746 -0.2044691 0.9545254 0.2044691 0.9545254 0.2044691 0.0454746 -0.2044691
919000000 0.0434173 -0.1997990 0.9565827 0.1997990 0.9565827 0.1997990 0.0434173 -0.1997990
940000000 0.0414895 -0.1953001 0.9585105 0.1953001 0.9585105 0.1953001 0.0414895 -0.1953001
961000000 0.0396808 -0.1909632 0.9603192 0.1909632 0.9603192 0.1909632 0.0396808 -0.1909632
982000000 0.0379819 -0.1867801 0.9620181 0.1867801 0.9620181 0.1867801 0.0379819 -0.1867801
1003000000 0.0363841 -0.1827426 0.9636159 0.1827426 0.9636159 0.1827426 0.0363841 -0.1827426
1024000000 0.0348799 -0.1788434 0.9651201 0.1788434 0.9651201 0.1788434 0.0348799 -0.1788434
1045000000 0.0334622 -0.1750756 0.9665378 0.1750756 0.9665378 0.1750756 0.0334622 -0.1750756
1066000000 0.0321248 -0.1714324 0.9678752 0.1714324 0.9678752 0.1714324 0.0321248 -0.1714324
1087000000 0.0308617 -0.1679079 0.9691383 0.1679079 0.9691383 0.1679079 0.0308617 -0.1679079
1108000000 0.0296678 -0.1644962 0.9703322 0.1644962 0.9703322 0.1644962 0.0296678 -0.1644962
1129000000 0.0285382 -0.1611919 0.9714618 0.1611919 0.9714618 0.1611919 0.0285382 -0.1611919
1150000000 0.0274685 -0.1579899 0.9725315 0.1579899 0.9725315 0.1579899 0.0274685 -0.1579899
1171000000 0.0264546 -0.1548854 0.9735454 0.1548854 0.9735454 0.1548854 0.0264546 -0.1548854
1192000000 0.0254929 -0.1518738 0.9745071 0.1518738 0.9745071 0.1518738 0.0254929 -0.1518738
1213000000 0.0245798 -0.1489510 0.9754202 0.1489510 0.9754202 0.1489510 0.0245798 -0.1489510
1234000000 0.0237124 -0.1461128 0.9762876 0.1461128 0.9762876 0.1461128 0.0237124 -0.1461128
1255000000 0.0228876 -0.1433556 0.9771124 0.1433556 0.9771124 0.1433556 0.0228876 -0.1433556
1276000000 0.0221028 -0.1406757 0.9778972 0.1406757 0.9778972 0.1406757 0.0221028 -0.1406757
1297000000 0.0213556 -0.1380698 0.9786444 0.1380698 0.9786444 0.1380698 0.0213556 -0.1380698
1318000000 0.0206436 -0.1355347 0.9793564 0.1355347 0.9793564 0.1355347 0.0206436 -0.1355347
1339000000 0.0199648 -0.1330673 0.9800352 0.1330673 0.9800352 0.1330673 0.0199648 -0.1330673
1360000000 0.0193172 -0.1306649 0.9806828 0.1306649 0.9806828 0.1306649 0.0193172 -0.1306649
1381000000 0.0186990 -0.1283248 0.9813010 0.1283248 0.9813010 0.1283248 0.0186990 -0.1283248
1402000000 0.0181085 -0.1260443 0.9818915 0.1260443 0.9818915 0.1260443 0.0181085 -0.1260443
1423000000 0.0175441 -0.1238211 0.9824559 0.1238211 0.9824559 0.1238211 0.0175441 -0.1238211
1444000000 0.0170044 -0.1216528 0.9829956 0.1216528 0.9829956 0.1216528 0.0170044 -0.1216528
1465000000 0.0164880 -0.1195374 0.9835120 0.1195374 0.9835120 0.1195374 0.0164880 -0.1195374
1486000000 0.0159937 -0.1174727 0.9840063 0.1174727 0.9840063 0.1174727 0.0159937 -0.1174727
1507000000 0.0155203 -0.1154568 0.9844797 0.1154568 0.9844797 0.1154568 0.0155203 -0.1154568
1528000000 0.0150666 -0.1134878 0.9849334 0.1134878 0.9849334 0.1134878 0.0150666 -0.1134878
1549000000 0.0146317 -0.1115639 0.9853683 0.1115639 0.9853683 0.1115639 0.0146317 -0.1115639
1570000000 0.0142145 -0.1096835 0.9857855 0.1096835 0.9857855 0.1096835 0.0142145 -0.1096835
1591000000 0.0138142 -0.1078449 0.9861858 0.1078449 0.9861858 0.1078449 0.0138142 -0.1078449
1612000000 0.0134299 -0.1060467 0.9865701 0.1060467 0.9865701 0.1060467 0.0134299 -0.1060467
1633000000 0.0130609 -0.1042873 0.9869391 0.1042873 0.9869391 0.1042873 0.0130609 -0.1042873
1654000000 0.0127063 -0.1025655 0.9872937 0.1025655 0.9872937 0.1025655 0.0127063 -0.1025655
1675000000 0.0123656 -0.1008797 0.9876344 0.1008797 0.9876344 0.1008797 0.0123656 -0.1008797
1696000000 0.0120379 -0.0992289 0.9879621 0.0992289 0.9879621 0.0992289 0.0120379 -0.0992289
1717000000 0.0117228 -0.0976117 0.9882772 0.0976117 0.9882772 0.0976117 0.0117228 -0.0976117
1738000000 0.0114195 -0.0960271 0.9885805 0.0960271 0.9885805 0.0960271 0.0114195 -0.0960271
1759000000 0.0111277 -0.0944739 0.9888723 0.0944739 0.9888723 0.0944739 0.0111277 -0.0944739
1780000000 0.0108467 -0.0929511 0.9891533 0.0929511 0.9891533 0.0929511 0.0108467 -0.0929511
1801000000 0.0105760 -0.0914577 0.9894240 0.0914577 0.9894240 0.0914577 0.0105760 -0.0914577
1822000000 0.0103153 -0.0899927 0.9896847 0.0899927 0.9896847 0.0899927 0.0103153 -0.0899927
1843000000 0.0100640 -0.0885552 0.9899360 0.0885552 0.9899360 0.0885552 0.0100640 -0.0885552
1864000000 0.0098218 -0.0871443 0.9901782 0.0871443 0.9901782 0.0871443 0.0098218 -0.0871443
1885000000 0.0095883 -0.0857591 0.9904117 0.0857591 0.9904117 0.0857591 0.0095883 -0.0857591
1906000000 0.0093630 -0.0843990 0.9906370 0.0843990 0.9906370 0.0843990 0.0093630 -0.0843990
1927000000 0.0091457 -0.0830630 0.9908543 0.0830630 0.9908543 0.0830630 0.0091457 -0.0830630
1948000000 0.0089360 -0.0817504 0.9910640 0.0817504 0.9910640 0.0817504 0.0089360 -0.0817504
1969000000 0.0087336 -0.0804605 0.9912664 0.0804605 0.9912664 0.0804605 0.0087336 -0.0804605
1990000000 0.0085382 -0.0791927 0.9914618 0.0791927 0.9914618 0.0791927 0.0085382 -0.0791927
2011000000 0.0083496 -0.0779462 0.9916504 0.0779462 0.9916504 0.0779462 0.0083496 -0.0779462
2032000000 0.0081673 -0.0767205 0.9918327 0.0767205 0.9918327 0.0767205 0.0081673 -0.0767205
2053000000 0.0079913 -0.0755148 0.9920087 0.0755148 0.9920087 0.0755148 0.0079913 -0.0755148
2074000000 0.0078213 -0.0743288 0.9921787 0.0743288 0.9921787 0.0743288 0.0078213 -0.0743288
2095000000 0.0076570 -0.0731617 0.9923430 0.0731617 0.9923430 0.0731617 0.0076570 -0.0731617
2116000000 0.0074981 -0.0720130 0.9925019 0.0720130 0.9925019 0.0720130 0.0074981 -0.0720130
2137000000 0.0073446 -0.0708822 0.9926554 0.0708822 0.9926554 0.0708822 0.0073446 -0.0708822
2158000000 0.0071962 -0.0697689 0.9928038 0.0697689 0.9928038 0.0697689 0.0071962 -0.0697689
2179000000 0.0070527 -0.0686725 0.9929473 0.0686725 0.9929473 0.0686725 0.0070527 -0.0686725
2200000000 0.0069139 -0.0675925 0.9930861 0.0675925 0.9930861 0.0675925 0.0069139 -0.0675925
2221000000 0.0067797 -0.0665285 0.9932203 0.0665285 0.9932203 0.0665285 0.0067797 -0.0665285
2242000000 0.0066499 -0.0654802 0.9933501 0.0654802 0.9933501 0.0654802 0.0066499 -0.0654802
2263000000 0.0065243 -0.0644469 0.9934757 0.0644469 0.9934757 0.0644469 0.0065243 -0.0644469
2284000000 0.0064028 -0.0634285 0.9935972 0.0634285 0.9935972 0.0634285 0.0064028 -0.0634285
2305000000 0.0062852 -0.0624243 0.9937148 0.0624243 0.9937148 0.0624243 0.0062852 -0.0624243
2326000000 0.0061715 -0.0614342 0.9938285 0.0614342 0.9938285 0.0614342 0.0061715 -0.0614342
2347000000 0.0060614 -0.0604577 0.9939386 0.0604577 0.9939386 0.0604577 0.0060614 -0.0604577
2368000000 0.0059549 -0.0594945 0.9940451 0.0594945 0.9940451 0.0594945 0.0059549 -0.0594945
2389000000 0.0058518 -0.0585443 0.9941482 0.0585443 0.9941482 0.0585443 0.0058518 -0.0585443
2410000000 0.0057520 -0.0576066 0.9942480 0.0576066 0.9942480 0.0576066 0.0057520 -0.0576066
2431000000 0.0056555 -0.0566812 0.9943445 0.0566812 0.9943445 0.0566812 0.0056555 -0.0566812
2452000000 0.0055620 -0.0557679 0.9944380 0.0557679 0.9944380 0.0557679 0.0055620 -0.0557679
2473000000 0.0054716 -0.0548662 0.9945284 0.0548662 0.9945284 0.0548662 0.0054716 -0.0548662
2494000000 0.0053841 -0.0539759 0.9946159 0.0539759 0.9946159 0.0539759 0.0053841 -0.0539759
2515000000 0.0052993 -0.0530968 0.9947007 0.0530968 0.9947007 0.0530968 0.0052993 -0.0530968
2536000000 0.0052173 -0.0522286 0.9947827 0.0522286 0.9947827 0.0522286 0.0052173 -0.0522286
2557000000 0.0051380 -0.0513709 0.9948620 0.0513709 0.9948620 0.0513709 0.0051380 -0.0513709
2578000000 0.0050612 -0.0505236 0.9949388 0.0505236 0.9949388 0.0505236 0.0050612 -0.0505236
2599000000 0.0049869 -0.0496864 0.9950131 0.0496864 0.9950131 0.0496864 0.0049869 -0.0496864
2620000000 0.0049150 -0.0488591 0.9950850 0.0488591 0.9950850 0.0488591 0.0049150 -0.0488591
2641000000 0.0048454 -0.0480414 0.9951546 0.0480414 0.9951546 0.0480414 0.0048454 -0.0480414
2662000000 0.0047781 -0.0472332 0.9952219 0.0472332 0.9952219 0.0472332 0.0047781 -0.0472332
2683000000 0.0047129 -0.0464342 0.9952871 0.0464342 0.9952871 0.0464342 0.0047129 -0.0464342
2704000000 0.0046499 -0.0456442 0.9953501 0.0456442 0.9953501 0.0456442 0.0046499 -0.0456442
2725000000 0.0045890 -0.0448629 0.9954110 0.0448629 0.9954110 0.0448629 0.0045890 -0.0448629
2746000000 0.0045301 -0.0440903 0.9954699 0.0440903 0.9954699 0.0440903 0.0045301 -0.0440903
2767000000 0.0044731 -0.0433262 0.9955269 0.0433262 0.9955269 0.0433262 0.0044731 -0.0433262
2788000000 0.0044181 -0.0425702 0.9955819 0.0425702 0.9955819 0.0425702 0.0044181 -0.0425702
2809000000 0.0043648 -0.0418223 0.9956352 0.0418223 0.9956352 0.0418223 0.0043648 -0.0418223
2830000000 0.0043134 -0.0410823 0.9956866 0.0410823 0.9956866 0.0410823 0.0043134 -0.0410823
2851000000 0.0042637 -0.0403500 0.9957363 0.0403500 0.9957363 0.0403500 0.0042637 -0.0403500
2872000000 0.0042157 -0.0396252 0.9957843 0.0396252 0.9957843 0.0396252 0.0042157 -0.0396252
2893000000 0.0041693 -0.0389078 0.9958307 0.0389078 0.9958307 0.0389078 0.0041693 -0.0389078
2914000000 0.0041246 -0.0381977 0.9958754 0.0381977 0.9958754 0.0381977 0.0041246 -0.0381977
2935000000 0.0040814 -0.0374946 0.9959186 0.0374946 0.9959186 0.0374946 0.0040814 -0.0374946
2956000000 0.0040397 -0.0367985 0.9959603 0.0367985 0.9959603 0.0367985 0.0040397 -0.0367985
2977000000 0.0039995 -0.0361091 0.9960005 0.0361091 0.9960005 0.0361091 0.0039995 -0.0361091
2998000000 0.0039608 -0.0354265 0.9960392 0.0354265 0.9960392 0.0354265 0.0039608 -0.0354265
3019000000 0.0039234 -0.0347503 0.9960766 0.0347503 0.9960766 0.0347503 0.0039234 -0.0347503
3040000000 0.0038874 -0.0340805 0.9961126 0.0340805 0.9961126 0.0340805 0.0038874 -0.0340805
3061000000 0.0038528 -0.0334170 0.9961472 0.0334170 0.9961472 0.0334170 0.0038528 -0.0334170
3082000000 0.0038194 -0.0327596 0.9961806 0.0327596 0.9961806 0.0327596 0.0038194 -0.0327596
3103000000 0.0037873 -0.0321083 0.9962127 0.0321083 0.9962127 0.0321083 0.0037873 -0.0321083
3124000000 0.0037564 -0.0314628 0.9962436 0.0314628 0.9962436 0.0314628 0.0037564 -0.0314628
3145000000 0.0037268 -0.0308231 0.9962732 0.0308231 0.9962732 0.0308231 0.0037268 -0.0308231
3166000000 0.0036983 -0.0301891 0.9963017 0.0301891 0.9963017 0.0301891 0.0036983 -0.0301891
3187000000 0.0036710 -0.0295607 0.9963290 0.0295607 0.9963290 0.0295607 0.0036710 -0.0295607
3208000000 0.0036447 -0.0289377 0.9963553 0.0289377 0.9963553 0.0289377 0.0036447 -0.0289377
3229000000 0.0036196 -0.0283200 0.9963804 0.0283200 0.9963804 0.0283200 0.0036196 -0.0283200
3250000000 0.0035955 -0.0277077 0.9964045 0.0277077 0.9964045 0.0277077 0.0035955 -0.0277077
3271000000 0.0035725 -0.0271004 0.9964275 0.0271004 0.9964275 0.0271004 0.0035725 -0.0271004
3292000000 0.0035505 -0.0264983 0.9964495 0.0264983 0.9964495 0.0264983 0.0035505 -0.0264983
3313000000 0.0035295 -0.0259011 0.9964705 0.0259011 0.9964705 0.0259011 0.0035295 -0.0259011
3334000000 0.0035094 -0.0253087 0.9964906 0.0253087 0.9964906 0.0253087 0.0035094 -0.0253087
3355000000 0.0034903 -0.0247212 0.9965097 0.0247212 0.9965097 0.0247212 0.0034903 -0.0247212
3376000000 0.0034721 -0.0241383 0.9965279 0.0241383 0.9965279 0.0241383 0.0034721 -0.0241383
3397000000 0.0034549 -0.0235601 0.9965451 0.0235601 0.9965451 0.0235601 0.0034549 -0.0235601
3418000000 0.0034385 -0.0229864 0.9965615 0.0229864 0.9965615 0.0229864 0.0034385 -0.0229864
3439000000 0.0034229 -0.0224172 0.9965771 0.0224172 0.9965771 0.0224172 0.0034229 -0.0224172
3460000000 0.0034082 -0.0218523 0.9965918 0.0218523 0.9965918 0.0218523 0.0034082 -0.0218523
3481000000 0.0033944 -0.0212917 0.9966056 0.0212917 0.9966056 0.0212917 0.0033944 -0.0212917
3502000000 0.0033813 -0.0207353 0.9966187 0.0207353 0.9966187 0.0207353 0.0033813 -0.0207353
3523000000 0.0033691 -0.0201831 0.9966309 0.0201831 0.9966309 0.0201831 0.0033691 -0.0201831
3544000000 0.0033576 -0.0196350 0.9966424 0.0196350 0.9966424 0.0196350 0.0033576 -0.0196350
3565000000 0.0033469 -0.0190909 0.9966531 0.0190909 0.9966531 0.0190909 0.0033469 -0.0190909
3586000000 0.0033369 -0.0185507 0.9966631 0.0185507 0.9966631 0.0185507 0.0033369 -0.0185507
3607000000 0.0033276 -0.0180144 0.9966724 0.0180144 0.9966724 0.0180144 0.0033276 -0.0180144
3628000000 0.0033191 -0.0174819 0.9966809 0.0174819 0.9966809 0.0174819 0.0033191 -0.0174819
3649000000 0.0033112 -0.0169531 0.9966888 0.0169531 0.9966888 0.0169531 0.0033112 -0.0169531
3670000000 0.0033040 -0.0164280 0.9966960 0.0164280 0.9966960 0.0164280 0.0033040 -0.0164280
3691000000 0.0032975 -0.0159066 0.9967025 0.0159066 0.9967025 0.0159066 0.0032975 -0.0159066
3712000000 0.0032917 -0.0153886 0.9967083 0.0153886 0.9967083 0.0153886 0.0032917 -0.0153886
3733000000 0.0032865 -0.0148742 0.9967135 0.0148742 0.9967135 0.0148742 0.0032865 -0.0148742
3754000000 0.0032819 -0.0143633 0.9967181 0.0143633 0.9967181 0.0143633 0.0032819 -0.0143633
3775000000 0.0032779 -0.0138557 0.9967221 0.0138557 0.9967221 0.0138557 0.0032779 -0.0138557
3796000000 0.0032745 -0.0133515 0.9967255 0.0133515 0.9967255 0.0133515 0.0032745 -0.0133515
3817000000 0.0032718 -0.0128505 0.9967282 0.0128505 0.9967282 0.0128505 0.0032718 -0.0128505
3838000000 0.0032696 -0.0123528 0.9967304 0.0123528 0.9967304 0.0123528 0.0032696 -0.0123528
3859000000 0.0032680 -0.0118583 0.9967320 0.0118583 0.9967320 0.0118583 0.0032680 -0.0118583
3880000000 0.0032669 -0.0113669 0.9967331 0.0113669 0.9967331 0.0113669 0.0032669 -0.0113669
3901000000 0.0032664 -0.0108785 0.9967336 0.0108785 0.9967336 0.0108785 0.0032664 -0.0108785
3922000000 0.0032664 -0.0103932 0.9967336 0.0103932 0.9967336 0.0103932 0.0032664 -0.0103932
3943000000 0.0032670 -0.0099109 0.9967330 0.0099109 0.9967330 0.0099109 0.0032670 -0.0099109
3964000000 0.0032680 -0.0094315 0.9967320 0.0094315 0.9967320 0.0094315 0.0032680 -0.0094315
3985000000 0.0032696 -0.0089550 0.9967304 0.0089550 0.9967304 0.0089550 0.0032696 -0.0089550
4006000000 0.0032717 -0.0084814 0.9967283 0.0084814 0.9967283 0.0084814 0.0032717 -0.0084814
4027000000 0.0032743 -0.0080106 0.9967257 0.0080106 0.9967257 0.0080106 0.0032743 -0.0080106
4048000000 0.0032773 -0.0075425 0.9967227 0.0075425 0.9967227 0.0075425 0.0032773 -0.0075425
4069000000 0.0032808 -0.0070772 0.9967192 0.0070772 0.9967192 0.0070772 0.0032808 -0.0070772
4090000000 0.0032848 -0.0066145 0.9967152 0.0066145 0.9967152 0.0066145 0.0032848 -0.0066145
4111000000 0.0032892 -0.0061545 0.9967108 0.0061545 0.9967108 0.0061545 0.0032892 -0.0061545
4132000000 0.0032941 -0.0056971 0.9967059 0.0056971 0.9967059 0.0056971 0.0032941 -0.0056971
4153000000 0.0032994 -0.0052422 0.9967006 0.0052422 0.9967006 0.0052422 0.0032994 -0.0052422
4174000000 0.0033052 -0.0047899 0.9966948 0.0047899 0.9966948 0.0047899 0.0033052 -0.0047899
4195000000 0.0033114 -0.0043401 0.9966886 0.0043401 0.9966886 0.0043401 0.0033114 -0.0043401
4216000000 0.0033180 -0.0038927 0.9966820 0.0038927 0.9966820 0.0038927 0.0033180 -0.0038927
4237000000 0.0033250 -0.0034478 0.9966750 0.0034478 0.9966750 0.0034478 0.0033250 -0.0034478
4258000000 0.0033324 -0.0030052 0.9966676 0.0030052 0.9966676 0.0030052 0.0033324 -0.0030052
4279000000 0.0033402 -0.0025650 0.9966598 0.0025650 0.9966598 0.0025650 0.0033402 -0.0025650
4300000000 0.0033484 -0.0021271 0.9966516 0.0021271 0.9966516 0.0021271 0.0033484 -0.0021271
4321000000 0.0033570 -0.0016915 0.9966430 0.0016915 0.9966430 0.0016915 0.0033570 -0.0016915
4342000000 0.0033659 -0.0012582 0.9966341 0.0012582 0.9966341 0.0012582 0.0033659 -0.0012582
4363000000 0.0033753 -0.0008270 0.9966247 0.0008270 0.9966247 0.0008270 0.0033753 -0.0008270
4384000000 0.0033850 -0.0003981 0.9966150 0.0003981 0.9966150 0.0003981 0.0033850 -0.0003981
4405000000 0.0033950 0.0000287 0.9966050 -0.0000287 0.9966050 -0.0000287 0.0033950 0.0000287
4426000000 0.0034054 0.0004533 0.9965946 -0.0004533 0.9965946 -0.0004533 0.0034054 0.0004533
4447000000 0.0034162 0.0008758 0.9965838 -0.0008758 0.9965838 -0.0008758 0.0034162 0.0008758
4468000000 0.0034273 0.0012963 0.9965727 -0.0012963 0.9965727 -0.0012963 0.0034273 0.0012963
4489000000 0.0034387 0.0017147 0.9965613 -0.0017147 0.9965613 -0.0017147 0.0034387 0.0017147
4510000000 0.0034504 0.0021311 0.9965496 -0.0021311 0.9965496 -0.0021311 0.0034504 0.0021311
