!Murata Part Number: GRM0222C1E330JA02
!These Parameters are Measured in Series Mode Connection
!Data Generated on Mar 30, 2021
!       o--ll--o
!Port1            Port2
!       o------o
!Operation Temp=25[degC], DC Bias Voltage=0[V]
!Freq. Start=100[MHz] Stop=9[GHz] 401[Steps]
# Hz S RI R 50
!Freq.(Hz) S11(Real) S11(Imag) S21(Real) S21(Imag) S12(Real) S12(Imag) S22(Real) S22(Imag)
100000000 0.1888450 -0.3895729 0.8111550 0.3895729 0.8111550 0.3895729 0.1888450 -0.3895729
121000000 0.1373424 -0.3420137 0.8626576 0.3420137 0.8626576 0.3420137 0.1373424 -0.3420137
142000000 0.1037587 -0.3023694 0.8962413 0.3023694 0.8962413 0.3023694 0.1037587 -0.3023694
163000000 0.0808931 -0.2697090 0.9191069 0.2697090 0.9191069 0.2697090 0.0808931 -0.2697090
184000000 0.0647255 -0.2426937 0.9352745 0.2426937 0.9352745 0.2426937 0.0647255 -0.2426937
205000000 0.0529190 -0.2201378 0.9470810 0.2201378 0.9470810 0.2201378 0.0529190 -0.2201378
226000000 0.0440572 -0.2011002 0.9559428 0.2011002 0.9559428 0.2011002 0.0440572 -0.2011002
247000000 0.0372481 -0.1848574 0.9627519 0.1848574 0.9627519 0.1848574 0.0372481 -0.1848574
268000000 0.0319100 -0.1708570 0.9680900 0.1708570 0.9680900 0.1708570 0.0319100 -0.1708570
289000000 0.0276515 -0.1586754 0.9723485 0.1586754 0.9723485 0.1586754 0.0276515 -0.1586754
310000000 0.0242025 -0.1479850 0.9757975 0.1479850 0.9757975 0.1479850 0.0242025 -0.1479850
331000000 0.0213717 -0.1385298 0.9786283 0.1385298 0.9786283 0.1385298 0.0213717 -0.1385298
352000000 0.0190208 -0.1301076 0.9809792 0.1301076 0.9809792 0.1301076 0.0190208 -0.1301076
373000000 0.0170479 -0.1225572 0.9829521 0.1225572 0.9829521 0.1225572 0.0170479 -0.1225572
394000000 0.0153768 -0.1157484 0.9846232 0.1157484 0.9846232 0.1157484 0.0153768 -0.1157484
415000000 0.0139495 -0.1095755 0.9860505 0.1095755 0.9860505 0.1095755 0.0139495 -0.1095755
436000000 0.0127210 -0.1039515 0.9872790 0.1039515 0.9872790 0.1039515 0.0127210 -0.1039515
457000000 0.0116565 -0.0988044 0.9883435 0.0988044 0.9883435 0.0988044 0.0116565 -0.0988044
478000000 0.0107283 -0.0940742 0.9892717 0.0940742 0.9892717 0.0940742 0.0107283 -0.0940742
499000000 0.0099144 -0.0897103 0.9900856 0.0897103 0.9900856 0.0897103 0.0099144 -0.0897103
520000000 0.0091970 -0.0856700 0.9908030 0.0856700 0.9908030 0.0856700 0.0091970 -0.0856700
541000000 0.0085616 -0.0819170 0.9914384 0.0819170 0.9914384 0.0819170 0.0085616 -0.0819170
562000000 0.0079965 -0.0784201 0.9920035 0.0784201 0.9920035 0.0784201 0.0079965 -0.0784201
583000000 0.0074918 -0.0751523 0.9925082 0.0751523 0.9925082 0.0751523 0.0074918 -0.0751523
604000000 0.0070394 -0.0720905 0.9929606 0.0720905 0.9929606 0.0720905 0.0070394 -0.0720905
625000000 0.0066325 -0.0692144 0.9933675 0.0692144 0.9933675 0.0692144 0.0066325 -0.0692144
646000000 0.0062653 -0.0665063 0.9937347 0.0665063 0.9937347 0.0665063 0.0062653 -0.0665063
667000000 0.0059331 -0.0639508 0.9940669 0.0639508 0.9940669 0.0639508 0.0059331 -0.0639508
688000000 0.0056317 -0.0615341 0.9943683 0.0615341 0.9943683 0.0615341 0.0056317 -0.0615341
709000000 0.0053575 -0.0592442 0.9946425 0.0592442 0.9946425 0.0592442 0.0053575 -0.0592442
730000000 0.0051075 -0.0570703 0.9948925 0.0570703 0.9948925 0.0570703 0.0051075 -0.0570703
751000000 0.0048791 -0.0550028 0.9951209 0.0550028 0.9951209 0.0550028 0.0048791 -0.0550028
772000000 0.0046700 -0.0530333 0.9953300 0.0530333 0.9953300 0.0530333 0.0046700 -0.0530333
793000000 0.0044783 -0.0511540 0.9955217 0.0511540 0.9955217 0.0511540 0.0044783 -0.0511540
814000000 0.0043022 -0.0493581 0.9956978 0.0493581 0.9956978 0.0493581 0.0043022 -0.0493581
835000000 0.0041401 -0.0476394 0.9958599 0.0476394 0.9958599 0.0476394 0.0041401 -0.0476394
856000000 0.0039908 -0.0459923 0.9960092 0.0459923 0.9960092 0.0459923 0.0039908 -0.0459923
877000000 0.0038531 -0.0444117 0.9961469 0.0444117 0.9961469 0.0444117 0.0038531 -0.0444117
898000000 0.0037259 -0.0428930 0.9962741 0.0428930 0.9962741 0.0428930 0.0037259 -0.0428930
919000000 0.0036084 -0.0414321 0.9963916 0.0414321 0.9963916 0.0414321 0.0036084 -0.0414321
940000000 0.0034996 -0.0400250 0.9965004 0.0400250 0.9965004 0.0400250 0.0034996 -0.0400250
961000000 0.0033989 -0.0386683 0.9966011 0.0386683 0.9966011 0.0386683 0.0033989 -0.0386683
982000000 0.0033056 -0.0373589 0.9966944 0.0373589 0.9966944 0.0373589 0.0033056 -0.0373589
1003000000 0.0032190 -0.0360937 0.9967810 0.0360937 0.9967810 0.0360937 0.0032190 -0.0360937
1024000000 0.0031388 -0.0348701 0.9968612 0.0348701 0.9968612 0.0348701 0.0031388 -0.0348701
1045000000 0.0030643 -0.0336855 0.9969357 0.0336855 0.9969357 0.0336855 0.0030643 -0.0336855
1066000000 0.0029953 -0.0325379 0.9970047 0.0325379 0.9970047 0.0325379 0.0029953 -0.0325379
1087000000 0.0029311 -0.0314249 0.9970689 0.0314249 0.9970689 0.0314249 0.0029311 -0.0314249
1108000000 0.0028716 -0.0303446 0.9971284 0.0303446 0.9971284 0.0303446 0.0028716 -0.0303446
1129000000 0.0028164 -0.0292953 0.9971836 0.0292953 0.9971836 0.0292953 0.0028164 -0.0292953
1150000000 0.0027652 -0.0282752 0.9972348 0.0282752 0.9972348 0.0282752 0.0027652 -0.0282752
1171000000 0.0027178 -0.0272829 0.9972822 0.0272829 0.9972822 0.0272829 0.0027178 -0.0272829
1192000000 0.0026738 -0.0263168 0.9973262 0.0263168 0.9973262 0.0263168 0.0026738 -0.0263168
1213000000 0.0026331 -0.0253756 0.9973669 0.0253756 0.9973669 0.0253756 0.0026331 -0.0253756
1234000000 0.0025954 -0.0244580 0.9974046 0.0244580 0.9974046 0.0244580 0.0025954 -0.0244580
1255000000 0.0025607 -0.0235629 0.9974393 0.0235629 0.9974393 0.0235629 0.0025607 -0.0235629
1276000000 0.0025286 -0.0226892 0.9974714 0.0226892 0.9974714 0.0226892 0.0025286 -0.0226892
1297000000 0.0024991 -0.0218358 0.9975009 0.0218358 0.9975009 0.0218358 0.0024991 -0.0218358
1318000000 0.0024720 -0.0210018 0.9975280 0.0210018 0.9975280 0.0210018 0.0024720 -0.0210018
1339000000 0.0024471 -0.0201863 0.9975529 0.0201863 0.9975529 0.0201863 0.0024471 -0.0201863
1360000000 0.0024244 -0.0193884 0.9975756 0.0193884 0.9975756 0.0193884 0.0024244 -0.0193884
1381000000 0.0024037 -0.0186073 0.9975963 0.0186073 0.9975963 0.0186073 0.0024037 -0.0186073
1402000000 0.0023850 -0.0178423 0.9976150 0.0178423 0.9976150 0.0178423 0.0023850 -0.0178423
1423000000 0.0023680 -0.0170926 0.9976320 0.0170926 0.9976320 0.0170926 0.0023680 -0.0170926
1444000000 0.0023528 -0.0163577 0.9976472 0.0163577 0.9976472 0.0163577 0.0023528 -0.0163577
1465000000 0.0023392 -0.0156369 0.9976608 0.0156369 0.9976608 0.0156369 0.0023392 -0.0156369
1486000000 0.0023272 -0.0149295 0.9976728 0.0149295 0.9976728 0.0149295 0.0023272 -0.0149295
1507000000 0.0023166 -0.0142351 0.9976834 0.0142351 0.9976834 0.0142351 0.0023166 -0.0142351
1528000000 0.0023075 -0.0135531 0.9976925 0.0135531 0.9976925 0.0135531 0.0023075 -0.0135531
1549000000 0.0022997 -0.0128830 0.9977003 0.0128830 0.9977003 0.0128830 0.0022997 -0.0128830
1570000000 0.0022932 -0.0122243 0.9977068 0.0122243 0.9977068 0.0122243 0.0022932 -0.0122243
1591000000 0.0022880 -0.0115766 0.9977120 0.0115766 0.9977120 0.0115766 0.0022880 -0.0115766
1612000000 0.0022839 -0.0109395 0.9977161 0.0109395 0.9977161 0.0109395 0.0022839 -0.0109395
1633000000 0.0022810 -0.0103126 0.9977190 0.0103126 0.9977190 0.0103126 0.0022810 -0.0103126
1654000000 0.0022791 -0.0096954 0.9977209 0.0096954 0.9977209 0.0096954 0.0022791 -0.0096954
1675000000 0.0022783 -0.0090876 0.9977217 0.0090876 0.9977217 0.0090876 0.0022783 -0.0090876
1696000000 0.0022785 -0.0084889 0.9977215 0.0084889 0.9977215 0.0084889 0.0022785 -0.0084889
1717000000 0.0022797 -0.0078989 0.9977203 0.0078989 0.9977203 0.0078989 0.0022797 -0.0078989
1738000000 0.0022818 -0.0073174 0.9977182 0.0073174 0.9977182 0.0073174 0.0022818 -0.0073174
1759000000 0.0022847 -0.0067440 0.9977153 0.0067440 0.9977153 0.0067440 0.0022847 -0.0067440
1780000000 0.0022886 -0.0061784 0.9977114 0.0061784 0.9977114 0.0061784 0.0022886 -0.0061784
1801000000 0.0022932 -0.0056204 0.9977068 0.0056204 0.9977068 0.0056204 0.0022932 -0.0056204
1822000000 0.0022987 -0.0050698 0.9977013 0.0050698 0.9977013 0.0050698 0.0022987 -0.0050698
1843000000 0.0023050 -0.0045261 0.9976950 0.0045261 0.9976950 0.0045261 0.0023050 -0.0045261
1864000000 0.0023119 -0.0039894 0.9976881 0.0039894 0.9976881 0.0039894 0.0023119 -0.0039894
1885000000 0.0023197 -0.0034592 0.9976803 0.0034592 0.9976803 0.0034592 0.0023197 -0.0034592
1906000000 0.0023281 -0.0029354 0.9976719 0.0029354 0.9976719 0.0029354 0.0023281 -0.0029354
1927000000 0.0023372 -0.0024178 0.9976628 0.0024178 0.9976628 0.0024178 0.0023372 -0.0024178
1948000000 0.0023469 -0.0019062 0.9976531 0.0019062 0.9976531 0.0019062 0.0023469 -0.0019062
1969000000 0.0023573 -0.0014004 0.9976427 0.0014004 0.9976427 0.0014004 0.0023573 -0.0014004
1990000000 0.0023683 -0.0009002 0.9976317 0.0009002 0.9976317 0.0009002 0.0023683 -0.0009002
2011000000 0.0023799 -0.0004055 0.9976201 0.0004055 0.9976201 0.0004055 0.0023799 -0.0004055
2032000000 0.0023921 0.0000840 0.9976079 -0.0000840 0.9976079 -0.0000840 0.0023921 0.0000840
2053000000 0.0024049 0.0005683 0.9975951 -0.0005683 0.9975951 -0.0005683 0.0024049 0.0005683
2074000000 0.0024182 0.0010477 0.9975818 -0.0010477 0.9975818 -0.0010477 0.0024182 0.0010477
2095000000 0.0024321 0.0015222 0.9975679 -0.0015222 0.9975679 -0.0015222 0.0024321 0.0015222
2116000000 0.0024465 0.0019921 0.9975535 -0.0019921 0.9975535 -0.0019921 0.0024465 0.0019921
2137000000 0.0024614 0.0024574 0.9975386 -0.0024574 0.9975386 -0.0024574 0.0024614 0.0024574
2158000000 0.0024768 0.0029183 0.9975232 -0.0029183 0.9975232 -0.0029183 0.0024768 0.0029183
2179000000 0.0024927 0.0033750 0.9975073 -0.0033750 0.9975073 -0.0033750 0.0024927 0.0033750
2200000000 0.0025091 0.0038274 0.9974909 -0.0038274 0.9974909 -0.0038274 0.0025091 0.0038274
2221000000 0.0025260 0.0042758 0.9974740 -0.0042758 0.9974740 -0.0042758 0.0025260 0.0042758
2242000000 0.0025433 0.0047203 0.9974567 -0.0047203 0.9974567 -0.0047203 0.0025433 0.0047203
2263000000 0.0025611 0.0051609 0.9974389 -0.0051609 0.9974389 -0.0051609 0.0025611 0.0051609
2284000000 0.0025793 0.0055978 0.9974207 -0.0055978 0.9974207 -0.0055978 0.0025793 0.0055978
2305000000 0.0025979 0.0060311 0.9974021 -0.0060311 0.9974021 -0.0060311 0.0025979 0.0060311
2326000000 0.0026169 0.0064609 0.9973831 -0.0064609 0.9973831 -0.0064609 0.0026169 0.0064609
2347000000 0.0026364 0.0068872 0.9973636 -0.0068872 0.9973636 -0.0068872 0.0026364 0.0068872
2368000000 0.0026563 0.0073101 0.9973437 -0.0073101 0.9973437 -0.0073101 0.0026563 0.0073101
2389000000 0.0026765 0.0077298 0.9973235 -0.0077298 0.9973235 -0.0077298 0.0026765 0.0077298
2410000000 0.0026972 0.0081463 0.9973028 -0.0081463 0.9973028 -0.0081463 0.0026972 0.0081463
2431000000 0.0027183 0.0085598 0.9972817 -0.0085598 0.9972817 -0.0085598 0.0027183 0.0085598
2452000000 0.0027397 0.0089701 0.9972603 -0.0089701 0.9972603 -0.0089701 0.0027397 0.0089701
2473000000 0.0027615 0.0093776 0.9972385 -0.0093776 0.9972385 -0.0093776 0.0027615 0.0093776
2494000000 0.0027836 0.0097822 0.9972164 -0.0097822 0.9972164 -0.0097822 0.0027836 0.0097822
2515000000 0.0028062 0.0101839 0.9971938 -0.0101839 0.9971938 -0.0101839 0.0028062 0.0101839
2536000000 0.0028290 0.0105830 0.9971710 -0.0105830 0.9971710 -0.0105830 0.0028290 0.0105830
2557000000 0.0028523 0.0109793 0.9971477 -0.0109793 0.9971477 -0.0109793 0.0028523 0.0109793
2578000000 0.0028758 0.0113731 0.9971242 -0.0113731 0.9971242 -0.0113731 0.0028758 0.0113731
2599000000 0.0028997 0.0117643 0.9971003 -0.0117643 0.9971003 -0.0117643 0.0028997 0.0117643
2620000000 0.0029240 0.0121530 0.9970760 -0.0121530 0.9970760 -0.0121530 0.0029240 0.0121530
2641000000 0.0029486 0.0125393 0.9970514 -0.0125393 0.9970514 -0.0125393 0.0029486 0.0125393
2662000000 0.0029735 0.0129233 0.9970265 -0.0129233 0.9970265 -0.0129233 0.0029735 0.0129233
2683000000 0.0029987 0.0133049 0.9970013 -0.0133049 0.9970013 -0.0133049 0.0029987 0.0133049
2704000000 0.0030243 0.0136843 0.9969757 -0.0136843 0.9969757 -0.0136843 0.0030243 0.0136843
2725000000 0.0030501 0.0140614 0.9969499 -0.0140614 0.9969499 -0.0140614 0.0030501 0.0140614
2746000000 0.0030763 0.0144364 0.9969237 -0.0144364 0.9969237 -0.0144364 0.0030763 0.0144364
2767000000 0.0031028 0.0148092 0.9968972 -0.0148092 0.9968972 -0.0148092 0.0031028 0.0148092
2788000000 0.0031296 0.0151800 0.9968704 -0.0151800 0.9968704 -0.0151800 0.0031296 0.0151800
2809000000 0.0031566 0.0155488 0.9968434 -0.0155488 0.9968434 -0.0155488 0.0031566 0.0155488
2830000000 0.0031840 0.0159156 0.9968160 -0.0159156 0.9968160 -0.0159156 0.0031840 0.0159156
2851000000 0.0032117 0.0162805 0.9967883 -0.0162805 0.9967883 -0.0162805 0.0032117 0.0162805
2872000000 0.0032397 0.0166434 0.9967603 -0.0166434 0.9967603 -0.0166434 0.0032397 0.0166434
2893000000 0.0032680 0.0170045 0.9967320 -0.0170045 0.9967320 -0.0170045 0.0032680 0.0170045
2914000000 0.0032965 0.0173638 0.9967035 -0.0173638 0.9967035 -0.0173638 0.0032965 0.0173638
2935000000 0.0033253 0.0177213 0.9966747 -0.0177213 0.9966747 -0.0177213 0.0033253 0.0177213
2956000000 0.0033545 0.0180771 0.9966455 -0.0180771 0.9966455 -0.0180771 0.0033545 0.0180771
2977000000 0.0033839 0.0184311 0.9966161 -0.0184311 0.9966161 -0.0184311 0.0033839 0.0184311
2998000000 0.0034136 0.0187835 0.9965864 -0.0187835 0.9965864 -0.0187835 0.0034136 0.0187835
3019000000 0.0034435 0.0191343 0.9965565 -0.0191343 0.9965565 -0.0191343 0.0034435 0.0191343
3040000000 0.0034738 0.0194834 0.9965262 -0.0194834 0.9965262 -0.0194834 0.0034738 0.0194834
3061000000 0.0035043 0.0198310 0.9964957 -0.0198310 0.9964957 -0.0198310 0.0035043 0.0198310
3082000000 0.0035351 0.0201770 0.9964649 -0.0201770 0.9964649 -0.0201770 0.0035351 0.0201770
3103000000 0.0035661 0.0205215 0.9964339 -0.0205215 0.9964339 -0.0205215 0.0035661 0.0205215
3124000000 0.0035974 0.0208645 0.9964026 -0.0208645 0.9964026 -0.0208645 0.0035974 0.0208645
3145000000 0.0036290 0.0212061 0.9963710 -0.0212061 0.9963710 -0.0212061 0.0036290 0.0212061
3166000000 0.0036609 0.0215462 0.9963391 -0.0215462 0.9963391 -0.0215462 0.0036609 0.0215462
3187000000 0.0036930 0.0218850 0.9963070 -0.0218850 0.9963070 -0.0218850 0.0036930 0.0218850
3208000000 0.0037254 0.0222224 0.9962746 -0.0222224 0.9962746 -0.0222224 0.0037254 0.0222224
3229000000 0.0037580 0.0225584 0.9962420 -0.0225584 0.9962420 -0.0225584 0.0037580 0.0225584
3250000000 0.0037909 0.0228931 0.9962091 -0.0228931 0.9962091 -0.0228931 0.0037909 0.0228931
3271000000 0.0038241 0.0232265 0.9961759 -0.0232265 0.9961759 -0.0232265 0.0038241 0.0232265
3292000000 0.0038575 0.0235587 0.9961425 -0.0235587 0.9961425 -0.0235587 0.0038575 0.0235587
3313000000 0.0038912 0.0238895 0.9961088 -0.0238895 0.9961088 -0.0238895 0.0038912 0.0238895
3334000000 0.0039252 0.0242192 0.9960748 -0.0242192 0.9960748 -0.0242192 0.0039252 0.0242192
3355000000 0.0039594 0.0245476 0.9960406 -0.0245476 0.9960406 -0.0245476 0.0039594 0.0245476
3376000000 0.0039938 0.0248749 0.9960062 -0.0248749 0.9960062 -0.0248749 0.0039938 0.0248749
3397000000 0.0040285 0.0252010 0.9959715 -0.0252010 0.9959715 -0.0252010 0.0040285 0.0252010
3418000000 0.0040635 0.0255260 0.9959365 -0.0255260 0.9959365 -0.0255260 0.0040635 0.0255260
3439000000 0.0040987 0.0258498 0.9959013 -0.0258498 0.9959013 -0.0258498 0.0040987 0.0258498
3460000000 0.0041342 0.0261725 0.9958658 -0.0261725 0.9958658 -0.0261725 0.0041342 0.0261725
3481000000 0.0041699 0.0264942 0.9958301 -0.0264942 0.9958301 -0.0264942 0.0041699 0.0264942
3502000000 0.0042059 0.0268148 0.9957941 -0.0268148 0.9957941 -0.0268148 0.0042059 0.0268148
3523000000 0.0042421 0.0271343 0.9957579 -0.0271343 0.9957579 -0.0271343 0.0042421 0.0271343
3544000000 0.0042786 0.0274528 0.9957214 -0.0274528 0.9957214 -0.0274528 0.0042786 0.0274528
3565000000 0.0043153 0.0277703 0.9956847 -0.0277703 0.9956847 -0.0277703 0.0043153 0.0277703
3586000000 0.0043523 0.0280868 0.9956477 -0.0280868 0.9956477 -0.0280868 0.0043523 0.0280868
3607000000 0.0043895 0.0284023 0.9956105 -0.0284023 0.9956105 -0.0284023 0.0043895 0.0284023
3628000000 0.0044270 0.0287169 0.9955730 -0.0287169 0.9955730 -0.0287169 0.0044270 0.0287169
3649000000 0.0044647 0.0290305 0.9955353 -0.0290305 0.9955353 -0.0290305 0.0044647 0.0290305
3670000000 0.0045027 0.0293431 0.9954973 -0.0293431 0.9954973 -0.0293431 0.0045027 0.0293431
3691000000 0.0045410 0.0296549 0.9954590 -0.0296549 0.9954590 -0.0296549 0.0045410 0.0296549
3712000000 0.0045795 0.0299657 0.9954205 -0.0299657 0.9954205 -0.0299657 0.0045795 0.0299657
3733000000 0.0046182 0.0302757 0.9953818 -0.0302757 0.9953818 -0.0302757 0.0046182 0.0302757
3754000000 0.0046572 0.0305848 0.9953428 -0.0305848 0.9953428 -0.0305848 0.0046572 0.0305848
3775000000 0.0046964 0.0308930 0.9953036 -0.0308930 0.9953036 -0.0308930 0.0046964 0.0308930
3796000000 0.0047359 0.0312004 0.9952641 -0.0312004 0.9952641 -0.0312004 0.0047359 0.0312004
3817000000 0.0047756 0.0315069 0.9952244 -0.0315069 0.9952244 -0.0315069 0.0047756 0.0315069
3838000000 0.0048156 0.0318126 0.9951844 -0.0318126 0.9951844 -0.0318126 0.0048156 0.0318126
3859000000 0.0048559 0.0321175 0.9951441 -0.0321175 0.9951441 -0.0321175 0.0048559 0.0321175
3880000000 0.0048964 0.0324216 0.9951036 -0.0324216 0.9951036 -0.0324216 0.0048964 0.0324216
3901000000 0.0049371 0.0327249 0.9950629 -0.0327249 0.9950629 -0.0327249 0.0049371 0.0327249
3922000000 0.0049781 0.0330274 0.9950219 -0.0330274 0.9950219 -0.0330274 0.0049781 0.0330274
3943000000 0.0050194 0.0333292 0.9949806 -0.0333292 0.9949806 -0.0333292 0.0050194 0.0333292
3964000000 0.0050609 0.0336302 0.9949391 -0.0336302 0.9949391 -0.0336302 0.0050609 0.0336302
3985000000 0.0051026 0.0339305 0.9948974 -0.0339305 0.9948974 -0.0339305 0.0051026 0.0339305
4006000000 0.0051446 0.0342300 0.9948554 -0.0342300 0.9948554 -0.0342300 0.0051446 0.0342300
4027000000 0.0051869 0.0345288 0.9948131 -0.0345288 0.9948131 -0.0345288 0.0051869 0.0345288
4048000000 0.0052294 0.0348269 0.9947706 -0.0348269 0.9947706 -0.0348269 0.0052294 0.0348269
4069000000 0.0052722 0.0351243 0.9947278 -0.0351243 0.9947278 -0.0351243 0.0052722 0.0351243
4090000000 0.0053152 0.0354210 0.9946848 -0.0354210 0.9946848 -0.0354210 0.0053152 0.0354210
4111000000 0.0053585 0.0357171 0.9946415 -0.0357171 0.9946415 -0.0357171 0.0053585 0.0357171
4132000000 0.0054021 0.0360124 0.9945979 -0.0360124 0.9945979 -0.0360124 0.0054021 0.0360124
4153000000 0.0054459 0.0363071 0.9945541 -0.0363071 0.9945541 -0.0363071 0.0054459 0.0363071
4174000000 0.0054899 0.0366011 0.9945101 -0.0366011 0.9945101 -0.0366011 0.0054899 0.0366011
4195000000 0.0055342 0.0368945 0.9944658 -0.0368945 0.9944658 -0.0368945 0.0055342 0.0368945
4216000000 0.0055788 0.0371872 0.9944212 -0.0371872 0.9944212 -0.0371872 0.0055788 0.0371872
4237000000 0.0056236 0.0374793 0.9943764 -0.0374793 0.9943764 -0.0374793 0.0056236 0.0374793
4258000000 0.0056687 0.0377708 0.9943313 -0.0377708 0.9943313 -0.0377708 0.0056687 0.0377708
4279000000 0.0057141 0.0380617 0.9942859 -0.0380617 0.9942859 -0.0380617 0.0057141 0.0380617
4300000000 0.0057597 0.0383519 0.9942403 -0.0383519 0.9942403 -0.0383519 0.0057597 0.0383519
4321000000 0.0058056 0.0386416 0.9941944 -0.0386416 0.9941944 -0.0386416 0.0058056 0.0386416
4342000000 0.0058518 0.0389306 0.9941482 -0.0389306 0.9941482 -0.0389306 0.0058518 0.0389306
4363000000 0.0058982 0.0392191 0.9941018 -0.0392191 0.9941018 -0.0392191 0.0058982 0.0392191
4384000000 0.0059448 0.0395069 0.9940552 -0.0395069 0.9940552 -0.0395069 0.0059448 0.0395069
4405000000 0.0059918 0.0397943 0.9940082 -0.0397943 0.9940082 -0.0397943 0.0059918 0.0397943
4426000000 0.0060390 0.0400810 0.9939610 -0.0400810 0.9939610 -0.0400810 0.0060390 0.0400810
4447000000 0.0060865 0.0403672 0.9939135 -0.0403672 0.9939135 -0.0403672 0.0060865 0.0403672
4468000000 0.0061342 0.0406528 0.9938658 -0.0406528 0.9938658 -0.0406528 0.0061342 0.0406528
4489000000 0.0061822 0.0409379 0.9938178 -0.0409379 0.9938178 -0.0409379 0.0061822 0.0409379
4510000000 0.0062305 0.0412224 0.9937695 -0.0412224 0.9937695 -0.0412224 0.0062305 0.0412224
