!Murata Part Number: GRM0222C1E4R1BA03
!These Parameters are Measured in Series Mode Connection
!Data Generated on Mar 30, 2021
!       o--ll--o
!Port1            Port2
!       o------o
!Operation Temp=25[degC], DC Bias Voltage=0[V]
!Freq. Start=100[MHz] Stop=9[GHz] 401[Steps]
# Hz S RI R 50
!Freq.(Hz) S11(Real) S11(Imag) S21(Real) S21(Imag) S12(Real) S12(Imag) S22(Real) S22(Imag)
100000000 0.9376435 -0.2415890 0.0623565 0.2415890 0.0623565 0.2415890 0.9376435 -0.2415890
121000000 0.9112544 -0.2841184 0.0887456 0.2841184 0.0887456 0.2841184 0.9112544 -0.2841184
142000000 0.8817096 -0.3226488 0.1182904 0.3226488 0.1182904 0.3226488 0.8817096 -0.3226488
163000000 0.8497420 -0.3569760 0.1502580 0.3569760 0.1502580 0.3569760 0.8497420 -0.3569760
184000000 0.8160591 -0.3870425 0.1839409 0.3870425 0.1839409 0.3870425 0.8160591 -0.3870425
205000000 0.7813153 -0.4129151 0.2186847 0.4129151 0.2186847 0.4129151 0.7813153 -0.4129151
226000000 0.7460930 -0.4347602 0.2539070 0.4347602 0.2539070 0.4347602 0.7460930 -0.4347602
247000000 0.7108918 -0.4528173 0.2891082 0.4528173 0.2891082 0.4528173 0.7108918 -0.4528173
268000000 0.6761262 -0.4673753 0.3238738 0.4673753 0.3238738 0.4673753 0.6761262 -0.4673753
289000000 0.6421275 -0.4787505 0.3578725 0.4787505 0.3578725 0.4787505 0.6421275 -0.4787505
310000000 0.6091505 -0.4872700 0.3908495 0.4872700 0.3908495 0.4872700 0.6091505 -0.4872700
331000000 0.5773820 -0.4932578 0.4226180 0.4932578 0.4226180 0.4932578 0.5773820 -0.4932578
352000000 0.5469499 -0.4970253 0.4530501 0.4970253 0.4530501 0.4970253 0.5469499 -0.4970253
373000000 0.5179337 -0.4988649 0.4820663 0.4988649 0.4820663 0.4988649 0.5179337 -0.4988649
394000000 0.4903729 -0.4990456 0.5096271 0.4990456 0.5096271 0.4990456 0.4903729 -0.4990456
415000000 0.4642757 -0.4978117 0.5357243 0.4978117 0.5357243 0.4978117 0.4642757 -0.4978117
436000000 0.4396260 -0.4953820 0.5603740 0.4953820 0.5603740 0.4953820 0.4396260 -0.4953820
457000000 0.4163895 -0.4919505 0.5836105 0.4919505 0.5836105 0.4919505 0.4163895 -0.4919505
478000000 0.3945189 -0.4876879 0.6054811 0.4876879 0.6054811 0.4876879 0.3945189 -0.4876879
499000000 0.3739579 -0.4827429 0.6260421 0.4827429 0.6260421 0.4827429 0.3739579 -0.4827429
520000000 0.3546446 -0.4772447 0.6453554 0.4772447 0.6453554 0.4772447 0.3546446 -0.4772447
541000000 0.3365138 -0.4713046 0.6634862 0.4713046 0.6634862 0.4713046 0.3365138 -0.4713046
562000000 0.3194990 -0.4650181 0.6805010 0.4650181 0.6805010 0.4650181 0.3194990 -0.4650181
583000000 0.3035343 -0.4584669 0.6964657 0.4584669 0.6964657 0.4584669 0.3035343 -0.4584669
604000000 0.2885547 -0.4517202 0.7114453 0.4517202 0.7114453 0.4517202 0.2885547 -0.4517202
625000000 0.2744977 -0.4448368 0.7255023 0.4448368 0.7255023 0.4448368 0.2744977 -0.4448368
646000000 0.2613031 -0.4378664 0.7386969 0.4378664 0.7386969 0.4378664 0.2613031 -0.4378664
667000000 0.2489139 -0.4308505 0.7510861 0.4308505 0.7510861 0.4308505 0.2489139 -0.4308505
688000000 0.2372758 -0.4238238 0.7627242 0.4238238 0.7627242 0.4238238 0.2372758 -0.4238238
709000000 0.2263381 -0.4168153 0.7736619 0.4168153 0.7736619 0.4168153 0.2263381 -0.4168153
730000000 0.2160531 -0.4098488 0.7839469 0.4098488 0.7839469 0.4098488 0.2160531 -0.4098488
751000000 0.2063762 -0.4029440 0.7936238 0.4029440 0.7936238 0.4029440 0.2063762 -0.4029440
772000000 0.1972658 -0.3961167 0.8027342 0.3961167 0.8027342 0.3961167 0.1972658 -0.3961167
793000000 0.1886832 -0.3893798 0.8113168 0.3893798 0.8113168 0.3893798 0.1886832 -0.3893798
814000000 0.1805926 -0.3827436 0.8194074 0.3827436 0.8194074 0.3827436 0.1805926 -0.3827436
835000000 0.1729604 -0.3762160 0.8270396 0.3762160 0.8270396 0.3762160 0.1729604 -0.3762160
856000000 0.1657558 -0.3698031 0.8342442 0.3698031 0.8342442 0.3698031 0.1657558 -0.3698031
877000000 0.1589501 -0.3635094 0.8410499 0.3635094 0.8410499 0.3635094 0.1589501 -0.3635094
898000000 0.1525166 -0.3573381 0.8474834 0.3573381 0.8474834 0.3573381 0.1525166 -0.3573381
919000000 0.1464307 -0.3512913 0.8535693 0.3512913 0.8535693 0.3512913 0.1464307 -0.3512913
940000000 0.1406696 -0.3453701 0.8593304 0.3453701 0.8593304 0.3453701 0.1406696 -0.3453701
961000000 0.1352122 -0.3395747 0.8647878 0.3395747 0.8647878 0.3395747 0.1352122 -0.3395747
982000000 0.1300389 -0.3339050 0.8699611 0.3339050 0.8699611 0.3339050 0.1300389 -0.3339050
1003000000 0.1251315 -0.3283601 0.8748685 0.3283601 0.8748685 0.3283601 0.1251315 -0.3283601
1024000000 0.1204731 -0.3229387 0.8795269 0.3229387 0.8795269 0.3229387 0.1204731 -0.3229387
1045000000 0.1160483 -0.3176392 0.8839517 0.3176392 0.8839517 0.3176392 0.1160483 -0.3176392
1066000000 0.1118424 -0.3124597 0.8881576 0.3124597 0.8881576 0.3124597 0.1118424 -0.3124597
1087000000 0.1078420 -0.3073981 0.8921580 0.3073981 0.8921580 0.3073981 0.1078420 -0.3073981
1108000000 0.1040347 -0.3024520 0.8959653 0.3024520 0.8959653 0.3024520 0.1040347 -0.3024520
1129000000 0.1004089 -0.2976191 0.8995911 0.2976191 0.8995911 0.2976191 0.1004089 -0.2976191
1150000000 0.0969536 -0.2928967 0.9030464 0.2928967 0.9030464 0.2928967 0.0969536 -0.2928967
1171000000 0.0936590 -0.2882823 0.9063410 0.2882823 0.9063410 0.2882823 0.0936590 -0.2882823
1192000000 0.0905157 -0.2837733 0.9094843 0.2837733 0.9094843 0.2837733 0.0905157 -0.2837733
1213000000 0.0875149 -0.2793670 0.9124851 0.2793670 0.9124851 0.2793670 0.0875149 -0.2793670
1234000000 0.0846486 -0.2750606 0.9153514 0.2750606 0.9153514 0.2750606 0.0846486 -0.2750606
1255000000 0.0819091 -0.2708516 0.9180909 0.2708516 0.9180909 0.2708516 0.0819091 -0.2708516
1276000000 0.0792894 -0.2667373 0.9207106 0.2667373 0.9207106 0.2667373 0.0792894 -0.2667373
1297000000 0.0767830 -0.2627151 0.9232170 0.2627151 0.9232170 0.2627151 0.0767830 -0.2627151
1318000000 0.0743835 -0.2587823 0.9256165 0.2587823 0.9256165 0.2587823 0.0743835 -0.2587823
1339000000 0.0720854 -0.2549366 0.9279146 0.2549366 0.9279146 0.2549366 0.0720854 -0.2549366
1360000000 0.0698831 -0.2511754 0.9301169 0.2511754 0.9301169 0.2511754 0.0698831 -0.2511754
1381000000 0.0677717 -0.2474962 0.9322283 0.2474962 0.9322283 0.2474962 0.0677717 -0.2474962
1402000000 0.0657463 -0.2438968 0.9342537 0.2438968 0.9342537 0.2438968 0.0657463 -0.2438968
1423000000 0.0638026 -0.2403747 0.9361974 0.2403747 0.9361974 0.2403747 0.0638026 -0.2403747
1444000000 0.0619363 -0.2369279 0.9380637 0.2369279 0.9380637 0.2369279 0.0619363 -0.2369279
1465000000 0.0601437 -0.2335539 0.9398563 0.2335539 0.9398563 0.2335539 0.0601437 -0.2335539
1486000000 0.0584209 -0.2302509 0.9415791 0.2302509 0.9415791 0.2302509 0.0584209 -0.2302509
1507000000 0.0567646 -0.2270166 0.9432354 0.2270166 0.9432354 0.2270166 0.0567646 -0.2270166
1528000000 0.0551715 -0.2238491 0.9448285 0.2238491 0.9448285 0.2238491 0.0551715 -0.2238491
1549000000 0.0536385 -0.2207464 0.9463615 0.2207464 0.9463615 0.2207464 0.0536385 -0.2207464
1570000000 0.0521628 -0.2177066 0.9478372 0.2177066 0.9478372 0.2177066 0.0521628 -0.2177066
1591000000 0.0507417 -0.2147280 0.9492583 0.2147280 0.9492583 0.2147280 0.0507417 -0.2147280
1612000000 0.0493725 -0.2118088 0.9506275 0.2118088 0.9506275 0.2118088 0.0493725 -0.2118088
1633000000 0.0480530 -0.2089472 0.9519470 0.2089472 0.9519470 0.2089472 0.0480530 -0.2089472
1654000000 0.0467807 -0.2061415 0.9532193 0.2061415 0.9532193 0.2061415 0.0467807 -0.2061415
1675000000 0.0455536 -0.2033903 0.9544464 0.2033903 0.9544464 0.2033903 0.0455536 -0.2033903
1696000000 0.0443697 -0.2006919 0.9556303 0.2006919 0.9556303 0.2006919 0.0443697 -0.2006919
1717000000 0.0432269 -0.1980449 0.9567731 0.1980449 0.9567731 0.1980449 0.0432269 -0.1980449
1738000000 0.0421236 -0.1954477 0.9578764 0.1954477 0.9578764 0.1954477 0.0421236 -0.1954477
1759000000 0.0410579 -0.1928990 0.9589421 0.1928990 0.9589421 0.1928990 0.0410579 -0.1928990
1780000000 0.0400283 -0.1903974 0.9599717 0.1903974 0.9599717 0.1903974 0.0400283 -0.1903974
1801000000 0.0390331 -0.1879417 0.9609669 0.1879417 0.9609669 0.1879417 0.0390331 -0.1879417
1822000000 0.0380710 -0.1855305 0.9619290 0.1855305 0.9619290 0.1855305 0.0380710 -0.1855305
1843000000 0.0371406 -0.1831626 0.9628594 0.1831626 0.9628594 0.1831626 0.0371406 -0.1831626
1864000000 0.0362405 -0.1808368 0.9637595 0.1808368 0.9637595 0.1808368 0.0362405 -0.1808368
1885000000 0.0353695 -0.1785521 0.9646305 0.1785521 0.9646305 0.1785521 0.0353695 -0.1785521
1906000000 0.0345264 -0.1763072 0.9654736 0.1763072 0.9654736 0.1763072 0.0345264 -0.1763072
1927000000 0.0337101 -0.1741011 0.9662899 0.1741011 0.9662899 0.1741011 0.0337101 -0.1741011
1948000000 0.0329195 -0.1719328 0.9670805 0.1719328 0.9670805 0.1719328 0.0329195 -0.1719328
1969000000 0.0321536 -0.1698012 0.9678464 0.1698012 0.9678464 0.1698012 0.0321536 -0.1698012
1990000000 0.0314114 -0.1677054 0.9685886 0.1677054 0.9685886 0.1677054 0.0314114 -0.1677054
2011000000 0.0306920 -0.1656445 0.9693080 0.1656445 0.9693080 0.1656445 0.0306920 -0.1656445
2032000000 0.0299945 -0.1636175 0.9700055 0.1636175 0.9700055 0.1636175 0.0299945 -0.1636175
2053000000 0.0293181 -0.1616236 0.9706819 0.1616236 0.9706819 0.1616236 0.0293181 -0.1616236
2074000000 0.0286620 -0.1596618 0.9713380 0.1596618 0.9713380 0.1596618 0.0286620 -0.1596618
2095000000 0.0280254 -0.1577315 0.9719746 0.1577315 0.9719746 0.1577315 0.0280254 -0.1577315
2116000000 0.0274076 -0.1558317 0.9725924 0.1558317 0.9725924 0.1558317 0.0274076 -0.1558317
2137000000 0.0268078 -0.1539617 0.9731922 0.1539617 0.9731922 0.1539617 0.0268078 -0.1539617
2158000000 0.0262256 -0.1521208 0.9737744 0.1521208 0.9737744 0.1521208 0.0262256 -0.1521208
2179000000 0.0256601 -0.1503082 0.9743399 0.1503082 0.9743399 0.1503082 0.0256601 -0.1503082
2200000000 0.0251108 -0.1485232 0.9748892 0.1485232 0.9748892 0.1485232 0.0251108 -0.1485232
2221000000 0.0245772 -0.1467652 0.9754228 0.1467652 0.9754228 0.1467652 0.0245772 -0.1467652
2242000000 0.0240586 -0.1450335 0.9759414 0.1450335 0.9759414 0.1450335 0.0240586 -0.1450335
2263000000 0.0235546 -0.1433274 0.9764454 0.1433274 0.9764454 0.1433274 0.0235546 -0.1433274
2284000000 0.0230646 -0.1416464 0.9769354 0.1416464 0.9769354 0.1416464 0.0230646 -0.1416464
2305000000 0.0225882 -0.1399898 0.9774118 0.1399898 0.9774118 0.1399898 0.0225882 -0.1399898
2326000000 0.0221249 -0.1383570 0.9778751 0.1383570 0.9778751 0.1383570 0.0221249 -0.1383570
2347000000 0.0216742 -0.1367475 0.9783258 0.1367475 0.9783258 0.1367475 0.0216742 -0.1367475
2368000000 0.0212358 -0.1351607 0.9787642 0.1351607 0.9787642 0.1351607 0.0212358 -0.1351607
2389000000 0.0208092 -0.1335962 0.9791908 0.1335962 0.9791908 0.1335962 0.0208092 -0.1335962
2410000000 0.0203940 -0.1320533 0.9796060 0.1320533 0.9796060 0.1320533 0.0203940 -0.1320533
2431000000 0.0199899 -0.1305316 0.9800101 0.1305316 0.9800101 0.1305316 0.0199899 -0.1305316
2452000000 0.0195964 -0.1290306 0.9804036 0.1290306 0.9804036 0.1290306 0.0195964 -0.1290306
2473000000 0.0192133 -0.1275498 0.9807867 0.1275498 0.9807867 0.1275498 0.0192133 -0.1275498
2494000000 0.0188403 -0.1260888 0.9811597 0.1260888 0.9811597 0.1260888 0.0188403 -0.1260888
2515000000 0.0184769 -0.1246471 0.9815231 0.1246471 0.9815231 0.1246471 0.0184769 -0.1246471
2536000000 0.0181230 -0.1232243 0.9818770 0.1232243 0.9818770 0.1232243 0.0181230 -0.1232243
2557000000 0.0177781 -0.1218200 0.9822219 0.1218200 0.9822219 0.1218200 0.0177781 -0.1218200
2578000000 0.0174421 -0.1204337 0.9825579 0.1204337 0.9825579 0.1204337 0.0174421 -0.1204337
2599000000 0.0171146 -0.1190651 0.9828854 0.1190651 0.9828854 0.1190651 0.0171146 -0.1190651
2620000000 0.0167954 -0.1177138 0.9832046 0.1177138 0.9832046 0.1177138 0.0167954 -0.1177138
2641000000 0.0164843 -0.1163794 0.9835157 0.1163794 0.9835157 0.1163794 0.0164843 -0.1163794
2662000000 0.0161810 -0.1150615 0.9838190 0.1150615 0.9838190 0.1150615 0.0161810 -0.1150615
2683000000 0.0158852 -0.1137598 0.9841148 0.1137598 0.9841148 0.1137598 0.0158852 -0.1137598
2704000000 0.0155967 -0.1124740 0.9844033 0.1124740 0.9844033 0.1124740 0.0155967 -0.1124740
2725000000 0.0153154 -0.1112036 0.9846846 0.1112036 0.9846846 0.1112036 0.0153154 -0.1112036
2746000000 0.0150411 -0.1099485 0.9849589 0.1099485 0.9849589 0.1099485 0.0150411 -0.1099485
2767000000 0.0147734 -0.1087082 0.9852266 0.1087082 0.9852266 0.1087082 0.0147734 -0.1087082
2788000000 0.0145123 -0.1074825 0.9854877 0.1074825 0.9854877 0.1074825 0.0145123 -0.1074825
2809000000 0.0142575 -0.1062710 0.9857425 0.1062710 0.9857425 0.1062710 0.0142575 -0.1062710
2830000000 0.0140088 -0.1050736 0.9859912 0.1050736 0.9859912 0.1050736 0.0140088 -0.1050736
2851000000 0.0137662 -0.1038898 0.9862338 0.1038898 0.9862338 0.1038898 0.0137662 -0.1038898
2872000000 0.0135293 -0.1027194 0.9864707 0.1027194 0.9864707 0.1027194 0.0135293 -0.1027194
2893000000 0.0132982 -0.1015621 0.9867018 0.1015621 0.9867018 0.1015621 0.0132982 -0.1015621
2914000000 0.0130725 -0.1004177 0.9869275 0.1004177 0.9869275 0.1004177 0.0130725 -0.1004177
2935000000 0.0128522 -0.0992860 0.9871478 0.0992860 0.9871478 0.0992860 0.0128522 -0.0992860
2956000000 0.0126371 -0.0981666 0.9873629 0.0981666 0.9873629 0.0981666 0.0126371 -0.0981666
2977000000 0.0124271 -0.0970593 0.9875729 0.0970593 0.9875729 0.0970593 0.0124271 -0.0970593
2998000000 0.0122220 -0.0959640 0.9877780 0.0959640 0.9877780 0.0959640 0.0122220 -0.0959640
3019000000 0.0120218 -0.0948803 0.9879782 0.0948803 0.9879782 0.0948803 0.0120218 -0.0948803
3040000000 0.0118262 -0.0938080 0.9881738 0.0938080 0.9881738 0.0938080 0.0118262 -0.0938080
3061000000 0.0116351 -0.0927470 0.9883649 0.0927470 0.9883649 0.0927470 0.0116351 -0.0927470
3082000000 0.0114485 -0.0916969 0.9885515 0.0916969 0.9885515 0.0916969 0.0114485 -0.0916969
3103000000 0.0112662 -0.0906577 0.9887338 0.0906577 0.9887338 0.0906577 0.0112662 -0.0906577
3124000000 0.0110882 -0.0896290 0.9889118 0.0896290 0.9889118 0.0896290 0.0110882 -0.0896290
3145000000 0.0109142 -0.0886108 0.9890858 0.0886108 0.9890858 0.0886108 0.0109142 -0.0886108
3166000000 0.0107442 -0.0876027 0.9892558 0.0876027 0.9892558 0.0876027 0.0107442 -0.0876027
3187000000 0.0105782 -0.0866047 0.9894218 0.0866047 0.9894218 0.0866047 0.0105782 -0.0866047
3208000000 0.0104159 -0.0856165 0.9895841 0.0856165 0.9895841 0.0856165 0.0104159 -0.0856165
3229000000 0.0102574 -0.0846379 0.9897426 0.0846379 0.9897426 0.0846379 0.0102574 -0.0846379
3250000000 0.0101025 -0.0836689 0.9898975 0.0836689 0.9898975 0.0836689 0.0101025 -0.0836689
3271000000 0.0099511 -0.0827091 0.9900489 0.0827091 0.9900489 0.0827091 0.0099511 -0.0827091
3292000000 0.0098032 -0.0817584 0.9901968 0.0817584 0.9901968 0.0817584 0.0098032 -0.0817584
3313000000 0.0096586 -0.0808168 0.9903414 0.0808168 0.9903414 0.0808168 0.0096586 -0.0808168
3334000000 0.0095173 -0.0798839 0.9904827 0.0798839 0.9904827 0.0798839 0.0095173 -0.0798839
3355000000 0.0093792 -0.0789597 0.9906208 0.0789597 0.9906208 0.0789597 0.0093792 -0.0789597
3376000000 0.0092443 -0.0780440 0.9907557 0.0780440 0.9907557 0.0780440 0.0092443 -0.0780440
3397000000 0.0091124 -0.0771367 0.9908876 0.0771367 0.9908876 0.0771367 0.0091124 -0.0771367
3418000000 0.0089835 -0.0762376 0.9910165 0.0762376 0.9910165 0.0762376 0.0089835 -0.0762376
3439000000 0.0088575 -0.0753466 0.9911425 0.0753466 0.9911425 0.0753466 0.0088575 -0.0753466
3460000000 0.0087344 -0.0744634 0.9912656 0.0744634 0.9912656 0.0744634 0.0087344 -0.0744634
3481000000 0.0086140 -0.0735881 0.9913860 0.0735881 0.9913860 0.0735881 0.0086140 -0.0735881
3502000000 0.0084964 -0.0727205 0.9915036 0.0727205 0.9915036 0.0727205 0.0084964 -0.0727205
3523000000 0.0083814 -0.0718604 0.9916186 0.0718604 0.9916186 0.0718604 0.0083814 -0.0718604
3544000000 0.0082691 -0.0710077 0.9917309 0.0710077 0.9917309 0.0710077 0.0082691 -0.0710077
3565000000 0.0081593 -0.0701622 0.9918407 0.0701622 0.9918407 0.0701622 0.0081593 -0.0701622
3586000000 0.0080519 -0.0693240 0.9919481 0.0693240 0.9919481 0.0693240 0.0080519 -0.0693240
3607000000 0.0079470 -0.0684928 0.9920530 0.0684928 0.9920530 0.0684928 0.0079470 -0.0684928
3628000000 0.0078445 -0.0676685 0.9921555 0.0676685 0.9921555 0.0676685 0.0078445 -0.0676685
3649000000 0.0077444 -0.0668510 0.9922556 0.0668510 0.9922556 0.0668510 0.0077444 -0.0668510
3670000000 0.0076465 -0.0660403 0.9923535 0.0660403 0.9923535 0.0660403 0.0076465 -0.0660403
3691000000 0.0075508 -0.0652361 0.9924492 0.0652361 0.9924492 0.0652361 0.0075508 -0.0652361
3712000000 0.0074573 -0.0644385 0.9925427 0.0644385 0.9925427 0.0644385 0.0074573 -0.0644385
3733000000 0.0073660 -0.0636472 0.9926340 0.0636472 0.9926340 0.0636472 0.0073660 -0.0636472
3754000000 0.0072767 -0.0628622 0.9927233 0.0628622 0.9927233 0.0628622 0.0072767 -0.0628622
3775000000 0.0071895 -0.0620834 0.9928105 0.0620834 0.9928105 0.0620834 0.0071895 -0.0620834
3796000000 0.0071043 -0.0613107 0.9928957 0.0613107 0.9928957 0.0613107 0.0071043 -0.0613107
3817000000 0.0070211 -0.0605439 0.9929789 0.0605439 0.9929789 0.0605439 0.0070211 -0.0605439
3838000000 0.0069398 -0.0597831 0.9930602 0.0597831 0.9930602 0.0597831 0.0069398 -0.0597831
3859000000 0.0068604 -0.0590281 0.9931396 0.0590281 0.9931396 0.0590281 0.0068604 -0.0590281
3880000000 0.0067828 -0.0582788 0.9932172 0.0582788 0.9932172 0.0582788 0.0067828 -0.0582788
3901000000 0.0067070 -0.0575351 0.9932930 0.0575351 0.9932930 0.0575351 0.0067070 -0.0575351
3922000000 0.0066331 -0.0567970 0.9933669 0.0567970 0.9933669 0.0567970 0.0066331 -0.0567970
3943000000 0.0065608 -0.0560643 0.9934392 0.0560643 0.9934392 0.0560643 0.0065608 -0.0560643
3964000000 0.0064903 -0.0553371 0.9935097 0.0553371 0.9935097 0.0553371 0.0064903 -0.0553371
3985000000 0.0064215 -0.0546151 0.9935785 0.0546151 0.9935785 0.0546151 0.0064215 -0.0546151
4006000000 0.0063543 -0.0538983 0.9936457 0.0538983 0.9936457 0.0538983 0.0063543 -0.0538983
4027000000 0.0062887 -0.0531867 0.9937113 0.0531867 0.9937113 0.0531867 0.0062887 -0.0531867
4048000000 0.0062246 -0.0524801 0.9937754 0.0524801 0.9937754 0.0524801 0.0062246 -0.0524801
4069000000 0.0061622 -0.0517786 0.9938378 0.0517786 0.9938378 0.0517786 0.0061622 -0.0517786
4090000000 0.0061012 -0.0510819 0.9938988 0.0510819 0.9938988 0.0510819 0.0061012 -0.0510819
4111000000 0.0060418 -0.0503901 0.9939582 0.0503901 0.9939582 0.0503901 0.0060418 -0.0503901
4132000000 0.0059838 -0.0497030 0.9940162 0.0497030 0.9940162 0.0497030 0.0059838 -0.0497030
4153000000 0.0059272 -0.0490207 0.9940728 0.0490207 0.9940728 0.0490207 0.0059272 -0.0490207
4174000000 0.0058720 -0.0483430 0.9941280 0.0483430 0.9941280 0.0483430 0.0058720 -0.0483430
4195000000 0.0058183 -0.0476699 0.9941817 0.0476699 0.9941817 0.0476699 0.0058183 -0.0476699
4216000000 0.0057659 -0.0470013 0.9942341 0.0470013 0.9942341 0.0470013 0.0057659 -0.0470013
4237000000 0.0057148 -0.0463371 0.9942852 0.0463371 0.9942852 0.0463371 0.0057148 -0.0463371
4258000000 0.0056650 -0.0456773 0.9943350 0.0456773 0.9943350 0.0456773 0.0056650 -0.0456773
4279000000 0.0056166 -0.0450218 0.9943834 0.0450218 0.9943834 0.0450218 0.0056166 -0.0450218
4300000000 0.0055694 -0.0443706 0.9944306 0.0443706 0.9944306 0.0443706 0.0055694 -0.0443706
4321000000 0.0055234 -0.0437236 0.9944766 0.0437236 0.9944766 0.0437236 0.0055234 -0.0437236
4342000000 0.0054786 -0.0430807 0.9945214 0.0430807 0.9945214 0.0430807 0.0054786 -0.0430807
4363000000 0.0054351 -0.0424419 0.9945649 0.0424419 0.9945649 0.0424419 0.0054351 -0.0424419
4384000000 0.0053927 -0.0418071 0.9946073 0.0418071 0.9946073 0.0418071 0.0053927 -0.0418071
4405000000 0.0053515 -0.0411763 0.9946485 0.0411763 0.9946485 0.0411763 0.0053515 -0.0411763
4426000000 0.0053114 -0.0405495 0.9946886 0.0405495 0.9946886 0.0405495 0.0053114 -0.0405495
4447000000 0.0052725 -0.0399265 0.9947275 0.0399265 0.9947275 0.0399265 0.0052725 -0.0399265
4468000000 0.0052346 -0.0393073 0.9947654 0.0393073 0.9947654 0.0393073 0.0052346 -0.0393073
4489000000 0.0051978 -0.0386918 0.9948022 0.0386918 0.9948022 0.0386918 0.0051978 -0.0386918
4510000000 0.0051621 -0.0380801 0.9948379 0.0380801 0.9948379 0.0380801 0.0051621 -0.0380801
