!Murata Part Number: GRM0225C1C181JA02
!These Parameters are Measured in Series Mode Connection
!Data Generated on Mar 30, 2021
!       o--ll--o
!Port1            Port2
!       o------o
!Operation Temp=25[degC], DC Bias Voltage=0[V]
!Freq. Start=100[MHz] Stop=9[GHz] 401[Steps]
# Hz S RI R 50
!Freq.(Hz) S11(Real) S11(Imag) S21(Real) S21(Imag) S12(Real) S12(Imag) S22(Real) S22(Imag)
100000000 0.0083882 -0.0864536 0.9916118 0.0864536 0.9916118 0.0864536 0.0083882 -0.0864536
121000000 0.0059522 -0.0711828 0.9940478 0.0711828 0.9940478 0.0711828 0.0059522 -0.0711828
142000000 0.0045117 -0.0602952 0.9954883 0.0602952 0.9954883 0.0602952 0.0045117 -0.0602952
163000000 0.0035919 -0.0521224 0.9964081 0.0521224 0.9964081 0.0521224 0.0035919 -0.0521224
184000000 0.0029705 -0.0457457 0.9970295 0.0457457 0.9970295 0.0457457 0.0029705 -0.0457457
205000000 0.0025325 -0.0406181 0.9974675 0.0406181 0.9974675 0.0406181 0.0025325 -0.0406181
226000000 0.0022136 -0.0363942 0.9977864 0.0363942 0.9977864 0.0363942 0.0022136 -0.0363942
247000000 0.0019751 -0.0328448 0.9980249 0.0328448 0.9980249 0.0328448 0.0019751 -0.0328448
268000000 0.0017933 -0.0298123 0.9982067 0.0298123 0.9982067 0.0298123 0.0017933 -0.0298123
289000000 0.0016524 -0.0271845 0.9983476 0.0271845 0.9983476 0.0271845 0.0016524 -0.0271845
310000000 0.0015419 -0.0248796 0.9984581 0.0248796 0.9984581 0.0248796 0.0015419 -0.0248796
331000000 0.0014544 -0.0228364 0.9985456 0.0228364 0.9985456 0.0228364 0.0014544 -0.0228364
352000000 0.0013848 -0.0210082 0.9986152 0.0210082 0.9986152 0.0210082 0.0013848 -0.0210082
373000000 0.0013293 -0.0193589 0.9986707 0.0193589 0.9986707 0.0193589 0.0013293 -0.0193589
394000000 0.0012849 -0.0178599 0.9987151 0.0178599 0.9987151 0.0178599 0.0012849 -0.0178599
415000000 0.0012496 -0.0164885 0.9987504 0.0164885 0.9987504 0.0164885 0.0012496 -0.0164885
436000000 0.0012219 -0.0152264 0.9987781 0.0152264 0.9987781 0.0152264 0.0012219 -0.0152264
457000000 0.0012002 -0.0140585 0.9987998 0.0140585 0.9987998 0.0140585 0.0012002 -0.0140585
478000000 0.0011838 -0.0129724 0.9988162 0.0129724 0.9988162 0.0129724 0.0011838 -0.0129724
499000000 0.0011718 -0.0119579 0.9988282 0.0119579 0.9988282 0.0119579 0.0011718 -0.0119579
520000000 0.0011636 -0.0110063 0.9988364 0.0110063 0.9988364 0.0110063 0.0011636 -0.0110063
541000000 0.0011586 -0.0101103 0.9988414 0.0101103 0.9988414 0.0101103 0.0011586 -0.0101103
562000000 0.0011565 -0.0092636 0.9988435 0.0092636 0.9988435 0.0092636 0.0011565 -0.0092636
583000000 0.0011568 -0.0084610 0.9988432 0.0084610 0.9988432 0.0084610 0.0011568 -0.0084610
604000000 0.0011594 -0.0076979 0.9988406 0.0076979 0.9988406 0.0076979 0.0011594 -0.0076979
625000000 0.0011639 -0.0069703 0.9988361 0.0069703 0.9988361 0.0069703 0.0011639 -0.0069703
646000000 0.0011702 -0.0062748 0.9988298 0.0062748 0.9988298 0.0062748 0.0011702 -0.0062748
667000000 0.0011781 -0.0056082 0.9988219 0.0056082 0.9988219 0.0056082 0.0011781 -0.0056082
688000000 0.0011875 -0.0049680 0.9988125 0.0049680 0.9988125 0.0049680 0.0011875 -0.0049680
709000000 0.0011983 -0.0043518 0.9988017 0.0043518 0.9988017 0.0043518 0.0011983 -0.0043518
730000000 0.0012103 -0.0037576 0.9987897 0.0037576 0.9987897 0.0037576 0.0012103 -0.0037576
751000000 0.0012234 -0.0031835 0.9987766 0.0031835 0.9987766 0.0031835 0.0012234 -0.0031835
772000000 0.0012377 -0.0026278 0.9987623 0.0026278 0.9987623 0.0026278 0.0012377 -0.0026278
793000000 0.0012531 -0.0020891 0.9987469 0.0020891 0.9987469 0.0020891 0.0012531 -0.0020891
814000000 0.0012694 -0.0015661 0.9987306 0.0015661 0.9987306 0.0015661 0.0012694 -0.0015661
835000000 0.0012867 -0.0010576 0.9987133 0.0010576 0.9987133 0.0010576 0.0012867 -0.0010576
856000000 0.0013050 -0.0005625 0.9986950 0.0005625 0.9986950 0.0005625 0.0013050 -0.0005625
877000000 0.0013241 -0.0000798 0.9986759 0.0000798 0.9986759 0.0000798 0.0013241 -0.0000798
898000000 0.0013441 0.0003913 0.9986559 -0.0003913 0.9986559 -0.0003913 0.0013441 0.0003913
919000000 0.0013650 0.0008515 0.9986350 -0.0008515 0.9986350 -0.0008515 0.0013650 0.0008515
940000000 0.0013867 0.0013018 0.9986133 -0.0013018 0.9986133 -0.0013018 0.0013867 0.0013018
961000000 0.0014093 0.0017426 0.9985907 -0.0017426 0.9985907 -0.0017426 0.0014093 0.0017426
982000000 0.0014327 0.0021746 0.9985673 -0.0021746 0.9985673 -0.0021746 0.0014327 0.0021746
1003000000 0.0014570 0.0025984 0.9985430 -0.0025984 0.9985430 -0.0025984 0.0014570 0.0025984
1024000000 0.0014821 0.0030145 0.9985179 -0.0030145 0.9985179 -0.0030145 0.0014821 0.0030145
1045000000 0.0015080 0.0034232 0.9984920 -0.0034232 0.9984920 -0.0034232 0.0015080 0.0034232
1066000000 0.0015348 0.0038251 0.9984652 -0.0038251 0.9984652 -0.0038251 0.0015348 0.0038251
1087000000 0.0015624 0.0042206 0.9984376 -0.0042206 0.9984376 -0.0042206 0.0015624 0.0042206
1108000000 0.0015909 0.0046100 0.9984091 -0.0046100 0.9984091 -0.0046100 0.0015909 0.0046100
1129000000 0.0016203 0.0049935 0.9983797 -0.0049935 0.9983797 -0.0049935 0.0016203 0.0049935
1150000000 0.0016505 0.0053717 0.9983495 -0.0053717 0.9983495 -0.0053717 0.0016505 0.0053717
1171000000 0.0016816 0.0057446 0.9983184 -0.0057446 0.9983184 -0.0057446 0.0016816 0.0057446
1192000000 0.0017137 0.0061127 0.9982863 -0.0061127 0.9982863 -0.0061127 0.0017137 0.0061127
1213000000 0.0017466 0.0064760 0.9982534 -0.0064760 0.9982534 -0.0064760 0.0017466 0.0064760
1234000000 0.0017806 0.0068349 0.9982194 -0.0068349 0.9982194 -0.0068349 0.0017806 0.0068349
1255000000 0.0018154 0.0071896 0.9981846 -0.0071896 0.9981846 -0.0071896 0.0018154 0.0071896
1276000000 0.0018513 0.0075402 0.9981487 -0.0075402 0.9981487 -0.0075402 0.0018513 0.0075402
1297000000 0.0018882 0.0078868 0.9981118 -0.0078868 0.9981118 -0.0078868 0.0018882 0.0078868
1318000000 0.0019261 0.0082298 0.9980739 -0.0082298 0.9980739 -0.0082298 0.0019261 0.0082298
1339000000 0.0019650 0.0085692 0.9980350 -0.0085692 0.9980350 -0.0085692 0.0019650 0.0085692
1360000000 0.0020051 0.0089051 0.9979949 -0.0089051 0.9979949 -0.0089051 0.0020051 0.0089051
1381000000 0.0020462 0.0092376 0.9979538 -0.0092376 0.9979538 -0.0092376 0.0020462 0.0092376
1402000000 0.0020884 0.0095669 0.9979116 -0.0095669 0.9979116 -0.0095669 0.0020884 0.0095669
1423000000 0.0021318 0.0098931 0.9978682 -0.0098931 0.9978682 -0.0098931 0.0021318 0.0098931
1444000000 0.0021764 0.0102162 0.9978236 -0.0102162 0.9978236 -0.0102162 0.0021764 0.0102162
1465000000 0.0022222 0.0105363 0.9977778 -0.0105363 0.9977778 -0.0105363 0.0022222 0.0105363
1486000000 0.0022691 0.0108535 0.9977309 -0.0108535 0.9977309 -0.0108535 0.0022691 0.0108535
1507000000 0.0023173 0.0111678 0.9976827 -0.0111678 0.9976827 -0.0111678 0.0023173 0.0111678
1528000000 0.0023668 0.0114793 0.9976332 -0.0114793 0.9976332 -0.0114793 0.0023668 0.0114793
1549000000 0.0024175 0.0117879 0.9975825 -0.0117879 0.9975825 -0.0117879 0.0024175 0.0117879
1570000000 0.0024695 0.0120938 0.9975305 -0.0120938 0.9975305 -0.0120938 0.0024695 0.0120938
1591000000 0.0025228 0.0123970 0.9974772 -0.0123970 0.9974772 -0.0123970 0.0025228 0.0123970
1612000000 0.0025774 0.0126973 0.9974226 -0.0126973 0.9974226 -0.0126973 0.0025774 0.0126973
1633000000 0.0026332 0.0129949 0.9973668 -0.0129949 0.9973668 -0.0129949 0.0026332 0.0129949
1654000000 0.0026903 0.0132897 0.9973097 -0.0132897 0.9973097 -0.0132897 0.0026903 0.0132897
1675000000 0.0027487 0.0135817 0.9972513 -0.0135817 0.9972513 -0.0135817 0.0027487 0.0135817
1696000000 0.0028084 0.0138709 0.9971916 -0.0138709 0.9971916 -0.0138709 0.0028084 0.0138709
1717000000 0.0028692 0.0141572 0.9971308 -0.0141572 0.9971308 -0.0141572 0.0028692 0.0141572
1738000000 0.0029312 0.0144407 0.9970688 -0.0144407 0.9970688 -0.0144407 0.0029312 0.0144407
1759000000 0.0029943 0.0147212 0.9970057 -0.0147212 0.9970057 -0.0147212 0.0029943 0.0147212
1780000000 0.0030585 0.0149988 0.9969415 -0.0149988 0.9969415 -0.0149988 0.0030585 0.0149988
1801000000 0.0031236 0.0152733 0.9968764 -0.0152733 0.9968764 -0.0152733 0.0031236 0.0152733
1822000000 0.0031896 0.0155449 0.9968104 -0.0155449 0.9968104 -0.0155449 0.0031896 0.0155449
1843000000 0.0032564 0.0158133 0.9967436 -0.0158133 0.9967436 -0.0158133 0.0032564 0.0158133
1864000000 0.0033238 0.0160787 0.9966762 -0.0160787 0.9966762 -0.0160787 0.0033238 0.0160787
1885000000 0.0033918 0.0163409 0.9966082 -0.0163409 0.9966082 -0.0163409 0.0033918 0.0163409
1906000000 0.0034602 0.0166001 0.9965398 -0.0166001 0.9965398 -0.0166001 0.0034602 0.0166001
1927000000 0.0035289 0.0168561 0.9964711 -0.0168561 0.9964711 -0.0168561 0.0035289 0.0168561
1948000000 0.0035977 0.0171091 0.9964023 -0.0171091 0.9964023 -0.0171091 0.0035977 0.0171091
1969000000 0.0036665 0.0173590 0.9963335 -0.0173590 0.9963335 -0.0173590 0.0036665 0.0173590
1990000000 0.0037351 0.0176059 0.9962649 -0.0176059 0.9962649 -0.0176059 0.0037351 0.0176059
2011000000 0.0038034 0.0178500 0.9961966 -0.0178500 0.9961966 -0.0178500 0.0038034 0.0178500
2032000000 0.0038712 0.0180912 0.9961288 -0.0180912 0.9961288 -0.0180912 0.0038712 0.0180912
2053000000 0.0039384 0.0183298 0.9960616 -0.0183298 0.9960616 -0.0183298 0.0039384 0.0183298
2074000000 0.0040049 0.0185657 0.9959951 -0.0185657 0.9959951 -0.0185657 0.0040049 0.0185657
2095000000 0.0040706 0.0187993 0.9959294 -0.0187993 0.9959294 -0.0187993 0.0040706 0.0187993
2116000000 0.0041354 0.0190306 0.9958646 -0.0190306 0.9958646 -0.0190306 0.0041354 0.0190306
2137000000 0.0041992 0.0192598 0.9958008 -0.0192598 0.9958008 -0.0192598 0.0041992 0.0192598
2158000000 0.0042620 0.0194871 0.9957380 -0.0194871 0.9957380 -0.0194871 0.0042620 0.0194871
2179000000 0.0043238 0.0197126 0.9956762 -0.0197126 0.9956762 -0.0197126 0.0043238 0.0197126
2200000000 0.0043845 0.0199365 0.9956155 -0.0199365 0.9956155 -0.0199365 0.0043845 0.0199365
2221000000 0.0044443 0.0201590 0.9955557 -0.0201590 0.9955557 -0.0201590 0.0044443 0.0201590
2242000000 0.0045030 0.0203802 0.9954970 -0.0203802 0.9954970 -0.0203802 0.0045030 0.0203802
2263000000 0.0045609 0.0206002 0.9954391 -0.0206002 0.9954391 -0.0206002 0.0045609 0.0206002
2284000000 0.0046179 0.0208192 0.9953821 -0.0208192 0.9953821 -0.0208192 0.0046179 0.0208192
2305000000 0.0046742 0.0210372 0.9953258 -0.0210372 0.9953258 -0.0210372 0.0046742 0.0210372
2326000000 0.0047299 0.0212544 0.9952701 -0.0212544 0.9952701 -0.0212544 0.0047299 0.0212544
2347000000 0.0047850 0.0214709 0.9952150 -0.0214709 0.9952150 -0.0214709 0.0047850 0.0214709
2368000000 0.0048396 0.0216865 0.9951604 -0.0216865 0.9951604 -0.0216865 0.0048396 0.0216865
2389000000 0.0048939 0.0219015 0.9951061 -0.0219015 0.9951061 -0.0219015 0.0048939 0.0219015
2410000000 0.0049480 0.0221157 0.9950520 -0.0221157 0.9950520 -0.0221157 0.0049480 0.0221157
2431000000 0.0050019 0.0223293 0.9949981 -0.0223293 0.9949981 -0.0223293 0.0050019 0.0223293
2452000000 0.0050558 0.0225421 0.9949442 -0.0225421 0.9949442 -0.0225421 0.0050558 0.0225421
2473000000 0.0051096 0.0227541 0.9948904 -0.0227541 0.9948904 -0.0227541 0.0051096 0.0227541
2494000000 0.0051635 0.0229653 0.9948365 -0.0229653 0.9948365 -0.0229653 0.0051635 0.0229653
2515000000 0.0052176 0.0231756 0.9947824 -0.0231756 0.9947824 -0.0231756 0.0052176 0.0231756
2536000000 0.0052717 0.0233850 0.9947283 -0.0233850 0.9947283 -0.0233850 0.0052717 0.0233850
2557000000 0.0053261 0.0235934 0.9946739 -0.0235934 0.9946739 -0.0235934 0.0053261 0.0235934
2578000000 0.0053807 0.0238007 0.9946193 -0.0238007 0.9946193 -0.0238007 0.0053807 0.0238007
2599000000 0.0054354 0.0240068 0.9945646 -0.0240068 0.9945646 -0.0240068 0.0054354 0.0240068
2620000000 0.0054903 0.0242118 0.9945097 -0.0242118 0.9945097 -0.0242118 0.0054903 0.0242118
2641000000 0.0055454 0.0244155 0.9944546 -0.0244155 0.9944546 -0.0244155 0.0055454 0.0244155
2662000000 0.0056006 0.0246179 0.9943994 -0.0246179 0.9943994 -0.0246179 0.0056006 0.0246179
2683000000 0.0056559 0.0248188 0.9943441 -0.0248188 0.9943441 -0.0248188 0.0056559 0.0248188
2704000000 0.0057113 0.0250183 0.9942887 -0.0250183 0.9942887 -0.0250183 0.0057113 0.0250183
2725000000 0.0057666 0.0252163 0.9942334 -0.0252163 0.9942334 -0.0252163 0.0057666 0.0252163
2746000000 0.0058218 0.0254128 0.9941782 -0.0254128 0.9941782 -0.0254128 0.0058218 0.0254128
2767000000 0.0058768 0.0256077 0.9941232 -0.0256077 0.9941232 -0.0256077 0.0058768 0.0256077
2788000000 0.0059316 0.0258009 0.9940684 -0.0258009 0.9940684 -0.0258009 0.0059316 0.0258009
2809000000 0.0059860 0.0259926 0.9940140 -0.0259926 0.9940140 -0.0259926 0.0059860 0.0259926
2830000000 0.0060400 0.0261826 0.9939600 -0.0261826 0.9939600 -0.0261826 0.0060400 0.0261826
2851000000 0.0060936 0.0263710 0.9939064 -0.0263710 0.9939064 -0.0263710 0.0060936 0.0263710
2872000000 0.0061465 0.0265577 0.9938535 -0.0265577 0.9938535 -0.0265577 0.0061465 0.0265577
2893000000 0.0061987 0.0267428 0.9938013 -0.0267428 0.9938013 -0.0267428 0.0061987 0.0267428
2914000000 0.0062502 0.0269263 0.9937498 -0.0269263 0.9937498 -0.0269263 0.0062502 0.0269263
2935000000 0.0063008 0.0271083 0.9936992 -0.0271083 0.9936992 -0.0271083 0.0063008 0.0271083
2956000000 0.0063504 0.0272888 0.9936496 -0.0272888 0.9936496 -0.0272888 0.0063504 0.0272888
2977000000 0.0063989 0.0274677 0.9936011 -0.0274677 0.9936011 -0.0274677 0.0063989 0.0274677
2998000000 0.0064464 0.0276453 0.9935536 -0.0276453 0.9935536 -0.0276453 0.0064464 0.0276453
3019000000 0.0064926 0.0278215 0.9935074 -0.0278215 0.9935074 -0.0278215 0.0064926 0.0278215
3040000000 0.0065376 0.0279965 0.9934624 -0.0279965 0.9934624 -0.0279965 0.0065376 0.0279965
3061000000 0.0065812 0.0281702 0.9934188 -0.0281702 0.9934188 -0.0281702 0.0065812 0.0281702
3082000000 0.0066234 0.0283428 0.9933766 -0.0283428 0.9933766 -0.0283428 0.0066234 0.0283428
3103000000 0.0066641 0.0285143 0.9933359 -0.0285143 0.9933359 -0.0285143 0.0066641 0.0285143
3124000000 0.0067033 0.0286850 0.9932967 -0.0286850 0.9932967 -0.0286850 0.0067033 0.0286850
3145000000 0.0067410 0.0288547 0.9932590 -0.0288547 0.9932590 -0.0288547 0.0067410 0.0288547
3166000000 0.0067771 0.0290237 0.9932229 -0.0290237 0.9932229 -0.0290237 0.0067771 0.0290237
3187000000 0.0068115 0.0291921 0.9931885 -0.0291921 0.9931885 -0.0291921 0.0068115 0.0291921
3208000000 0.0068443 0.0293599 0.9931557 -0.0293599 0.9931557 -0.0293599 0.0068443 0.0293599
3229000000 0.0068755 0.0295272 0.9931245 -0.0295272 0.9931245 -0.0295272 0.0068755 0.0295272
3250000000 0.0069050 0.0296942 0.9930950 -0.0296942 0.9930950 -0.0296942 0.0069050 0.0296942
3271000000 0.0069329 0.0298609 0.9930671 -0.0298609 0.9930671 -0.0298609 0.0069329 0.0298609
3292000000 0.0069591 0.0300275 0.9930409 -0.0300275 0.9930409 -0.0300275 0.0069591 0.0300275
3313000000 0.0069838 0.0301941 0.9930162 -0.0301941 0.9930162 -0.0301941 0.0069838 0.0301941
3334000000 0.0070068 0.0303606 0.9929932 -0.0303606 0.9929932 -0.0303606 0.0070068 0.0303606
3355000000 0.0070282 0.0305273 0.9929718 -0.0305273 0.9929718 -0.0305273 0.0070282 0.0305273
3376000000 0.0070482 0.0306942 0.9929518 -0.0306942 0.9929518 -0.0306942 0.0070482 0.0306942
3397000000 0.0070666 0.0308614 0.9929334 -0.0308614 0.9929334 -0.0308614 0.0070666 0.0308614
3418000000 0.0070836 0.0310290 0.9929164 -0.0310290 0.9929164 -0.0310290 0.0070836 0.0310290
3439000000 0.0070992 0.0311971 0.9929008 -0.0311971 0.9929008 -0.0311971 0.0070992 0.0311971
3460000000 0.0071135 0.0313656 0.9928865 -0.0313656 0.9928865 -0.0313656 0.0071135 0.0313656
3481000000 0.0071265 0.0315348 0.9928735 -0.0315348 0.9928735 -0.0315348 0.0071265 0.0315348
3502000000 0.0071383 0.0317046 0.9928617 -0.0317046 0.9928617 -0.0317046 0.0071383 0.0317046
3523000000 0.0071490 0.0318751 0.9928510 -0.0318751 0.9928510 -0.0318751 0.0071490 0.0318751
3544000000 0.0071585 0.0320464 0.9928415 -0.0320464 0.9928415 -0.0320464 0.0071585 0.0320464
3565000000 0.0071671 0.0322184 0.9928329 -0.0322184 0.9928329 -0.0322184 0.0071671 0.0322184
3586000000 0.0071747 0.0323913 0.9928253 -0.0323913 0.9928253 -0.0323913 0.0071747 0.0323913
3607000000 0.0071814 0.0325650 0.9928186 -0.0325650 0.9928186 -0.0325650 0.0071814 0.0325650
3628000000 0.0071873 0.0327396 0.9928127 -0.0327396 0.9928127 -0.0327396 0.0071873 0.0327396
3649000000 0.0071925 0.0329152 0.9928075 -0.0329152 0.9928075 -0.0329152 0.0071925 0.0329152
3670000000 0.0071970 0.0330917 0.9928030 -0.0330917 0.9928030 -0.0330917 0.0071970 0.0330917
3691000000 0.0072009 0.0332691 0.9927991 -0.0332691 0.9927991 -0.0332691 0.0072009 0.0332691
3712000000 0.0072042 0.0334474 0.9927958 -0.0334474 0.9927958 -0.0334474 0.0072042 0.0334474
3733000000 0.0072071 0.0336267 0.9927929 -0.0336267 0.9927929 -0.0336267 0.0072071 0.0336267
3754000000 0.0072096 0.0338070 0.9927904 -0.0338070 0.9927904 -0.0338070 0.0072096 0.0338070
3775000000 0.0072117 0.0339882 0.9927883 -0.0339882 0.9927883 -0.0339882 0.0072117 0.0339882
3796000000 0.0072135 0.0341704 0.9927865 -0.0341704 0.9927865 -0.0341704 0.0072135 0.0341704
3817000000 0.0072150 0.0343535 0.9927850 -0.0343535 0.9927850 -0.0343535 0.0072150 0.0343535
3838000000 0.0072164 0.0345375 0.9927836 -0.0345375 0.9927836 -0.0345375 0.0072164 0.0345375
3859000000 0.0072177 0.0347225 0.9927823 -0.0347225 0.9927823 -0.0347225 0.0072177 0.0347225
3880000000 0.0072188 0.0349083 0.9927812 -0.0349083 0.9927812 -0.0349083 0.0072188 0.0349083
3901000000 0.0072200 0.0350951 0.9927800 -0.0350951 0.9927800 -0.0350951 0.0072200 0.0350951
3922000000 0.0072211 0.0352827 0.9927789 -0.0352827 0.9927789 -0.0352827 0.0072211 0.0352827
3943000000 0.0072223 0.0354711 0.9927777 -0.0354711 0.9927777 -0.0354711 0.0072223 0.0354711
3964000000 0.0072235 0.0356603 0.9927765 -0.0356603 0.9927765 -0.0356603 0.0072235 0.0356603
3985000000 0.0072249 0.0358503 0.9927751 -0.0358503 0.9927751 -0.0358503 0.0072249 0.0358503
4006000000 0.0072264 0.0360411 0.9927736 -0.0360411 0.9927736 -0.0360411 0.0072264 0.0360411
4027000000 0.0072281 0.0362327 0.9927719 -0.0362327 0.9927719 -0.0362327 0.0072281 0.0362327
4048000000 0.0072301 0.0364249 0.9927699 -0.0364249 0.9927699 -0.0364249 0.0072301 0.0364249
4069000000 0.0072322 0.0366179 0.9927678 -0.0366179 0.9927678 -0.0366179 0.0072322 0.0366179
4090000000 0.0072347 0.0368115 0.9927653 -0.0368115 0.9927653 -0.0368115 0.0072347 0.0368115
4111000000 0.0072374 0.0370057 0.9927626 -0.0370057 0.9927626 -0.0370057 0.0072374 0.0370057
4132000000 0.0072404 0.0372006 0.9927596 -0.0372006 0.9927596 -0.0372006 0.0072404 0.0372006
4153000000 0.0072438 0.0373960 0.9927562 -0.0373960 0.9927562 -0.0373960 0.0072438 0.0373960
4174000000 0.0072475 0.0375920 0.9927525 -0.0375920 0.9927525 -0.0375920 0.0072475 0.0375920
4195000000 0.0072516 0.0377885 0.9927484 -0.0377885 0.9927484 -0.0377885 0.0072516 0.0377885
4216000000 0.0072560 0.0379856 0.9927440 -0.0379856 0.9927440 -0.0379856 0.0072560 0.0379856
4237000000 0.0072609 0.0381831 0.9927391 -0.0381831 0.9927391 -0.0381831 0.0072609 0.0381831
4258000000 0.0072661 0.0383810 0.9927339 -0.0383810 0.9927339 -0.0383810 0.0072661 0.0383810
4279000000 0.0072718 0.0385794 0.9927282 -0.0385794 0.9927282 -0.0385794 0.0072718 0.0385794
4300000000 0.0072778 0.0387782 0.9927222 -0.0387782 0.9927222 -0.0387782 0.0072778 0.0387782
4321000000 0.0072843 0.0389774 0.9927157 -0.0389774 0.9927157 -0.0389774 0.0072843 0.0389774
4342000000 0.0072912 0.0391769 0.9927088 -0.0391769 0.9927088 -0.0391769 0.0072912 0.0391769
4363000000 0.0072986 0.0393768 0.9927014 -0.0393768 0.9927014 -0.0393768 0.0072986 0.0393768
4384000000 0.0073063 0.0395769 0.9926937 -0.0395769 0.9926937 -0.0395769 0.0073063 0.0395769
4405000000 0.0073146 0.0397774 0.9926854 -0.0397774 0.9926854 -0.0397774 0.0073146 0.0397774
4426000000 0.0073232 0.0399782 0.9926768 -0.0399782 0.9926768 -0.0399782 0.0073232 0.0399782
4447000000 0.0073323 0.0401792 0.9926677 -0.0401792 0.9926677 -0.0401792 0.0073323 0.0401792
4468000000 0.0073419 0.0403804 0.9926581 -0.0403804 0.9926581 -0.0403804 0.0073419 0.0403804
4489000000 0.0073519 0.0405818 0.9926481 -0.0405818 0.9926481 -0.0405818 0.0073519 0.0405818
4510000000 0.0073623 0.0407835 0.9926377 -0.0407835 0.9926377 -0.0407835 0.0073623 0.0407835
