!Murata Part Number: GRM0225C1H6R1DA03
!These Parameters are Measured in Series Mode Connection
!Data Generated on Mar 30, 2021
!       o--ll--o
!Port1            Port2
!       o------o
!Operation Temp=25[degC], DC Bias Voltage=0[V]
!Freq. Start=100[MHz] Stop=9[GHz] 401[Steps]
# Hz S RI R 50
!Freq.(Hz) S11(Real) S11(Imag) S21(Real) S21(Imag) S12(Real) S12(Imag) S22(Real) S22(Imag)
100000000 0.8716809 -0.3341657 0.1283191 0.3341657 0.1283191 0.3341657 0.8716809 -0.3341657
121000000 0.8226431 -0.3816320 0.1773569 0.3816320 0.1773569 0.3816320 0.8226431 -0.3816320
142000000 0.7709925 -0.4197958 0.2290075 0.4197958 0.2290075 0.4197958 0.7709925 -0.4197958
163000000 0.7186267 -0.4492107 0.2813733 0.4492107 0.2813733 0.4492107 0.7186267 -0.4492107
184000000 0.6670371 -0.4707542 0.3329629 0.4707542 0.3329629 0.4707542 0.6670371 -0.4707542
205000000 0.6173077 -0.4854636 0.3826923 0.4854636 0.3826923 0.4854636 0.6173077 -0.4854636
226000000 0.5701592 -0.4944106 0.4298408 0.4944106 0.4298408 0.4944106 0.5701592 -0.4944106
247000000 0.5260149 -0.4986174 0.4739851 0.4986174 0.4739851 0.4986174 0.5260149 -0.4986174
268000000 0.4850698 -0.4990082 0.5149302 0.4990082 0.5149302 0.4990082 0.4850698 -0.4990082
289000000 0.4473543 -0.4963875 0.5526457 0.4963875 0.5526457 0.4963875 0.4473543 -0.4963875
310000000 0.4127862 -0.4914366 0.5872138 0.4914366 0.5872138 0.4914366 0.4127862 -0.4914366
331000000 0.3812125 -0.4847200 0.6187875 0.4847200 0.6187875 0.4847200 0.3812125 -0.4847200
352000000 0.3524388 -0.4766979 0.6475612 0.4766979 0.6475612 0.4766979 0.3524388 -0.4766979
373000000 0.3262517 -0.4677407 0.6737483 0.4677407 0.6737483 0.4677407 0.3262517 -0.4677407
394000000 0.3024330 -0.4581425 0.6975670 0.4581425 0.6975670 0.4581425 0.3024330 -0.4581425
415000000 0.2807690 -0.4481353 0.7192310 0.4481353 0.7192310 0.4481353 0.2807690 -0.4481353
436000000 0.2610569 -0.4378998 0.7389431 0.4378998 0.7389431 0.4378998 0.2610569 -0.4378998
457000000 0.2431075 -0.4275757 0.7568925 0.4275757 0.7568925 0.4275757 0.2431075 -0.4275757
478000000 0.2267469 -0.4172698 0.7732531 0.4172698 0.7732531 0.4172698 0.2267469 -0.4172698
499000000 0.2118168 -0.4070629 0.7881832 0.4070629 0.7881832 0.4070629 0.2118168 -0.4070629
520000000 0.1981741 -0.3970149 0.8018259 0.3970149 0.8018259 0.3970149 0.1981741 -0.3970149
541000000 0.1856901 -0.3871695 0.8143099 0.3871695 0.8143099 0.3871695 0.1856901 -0.3871695
562000000 0.1742492 -0.3775577 0.8257508 0.3775577 0.8257508 0.3775577 0.1742492 -0.3775577
583000000 0.1637482 -0.3682007 0.8362518 0.3682007 0.8362518 0.3682007 0.1637482 -0.3682007
604000000 0.1540949 -0.3591119 0.8459051 0.3591119 0.8459051 0.3591119 0.1540949 -0.3591119
625000000 0.1452070 -0.3502985 0.8547930 0.3502985 0.8547930 0.3502985 0.1452070 -0.3502985
646000000 0.1370110 -0.3417637 0.8629890 0.3417637 0.8629890 0.3417637 0.1370110 -0.3417637
667000000 0.1294413 -0.3335067 0.8705587 0.3335067 0.8705587 0.3335067 0.1294413 -0.3335067
688000000 0.1224394 -0.3255244 0.8775606 0.3255244 0.8775606 0.3255244 0.1224394 -0.3255244
709000000 0.1159530 -0.3178117 0.8840470 0.3178117 0.8840470 0.3178117 0.1159530 -0.3178117
730000000 0.1099352 -0.3103622 0.8900648 0.3103622 0.8900648 0.3103622 0.1099352 -0.3103622
751000000 0.1043442 -0.3031684 0.8956558 0.3031684 0.8956558 0.3031684 0.1043442 -0.3031684
772000000 0.0991424 -0.2962221 0.9008576 0.2962221 0.9008576 0.2962221 0.0991424 -0.2962221
793000000 0.0942960 -0.2895148 0.9057040 0.2895148 0.9057040 0.2895148 0.0942960 -0.2895148
814000000 0.0897748 -0.2830378 0.9102252 0.2830378 0.9102252 0.2830378 0.0897748 -0.2830378
835000000 0.0855514 -0.2767823 0.9144486 0.2767823 0.9144486 0.2767823 0.0855514 -0.2767823
856000000 0.0816013 -0.2707395 0.9183987 0.2707395 0.9183987 0.2707395 0.0816013 -0.2707395
877000000 0.0779022 -0.2649008 0.9220978 0.2649008 0.9220978 0.2649008 0.0779022 -0.2649008
898000000 0.0744341 -0.2592577 0.9255659 0.2592577 0.9255659 0.2592577 0.0744341 -0.2592577
919000000 0.0711787 -0.2538020 0.9288213 0.2538020 0.9288213 0.2538020 0.0711787 -0.2538020
940000000 0.0681197 -0.2485257 0.9318803 0.2485257 0.9318803 0.2485257 0.0681197 -0.2485257
961000000 0.0652420 -0.2434211 0.9347580 0.2434211 0.9347580 0.2434211 0.0652420 -0.2434211
982000000 0.0625321 -0.2384809 0.9374679 0.2384809 0.9374679 0.2384809 0.0625321 -0.2384809
1003000000 0.0599776 -0.2336980 0.9400224 0.2336980 0.9400224 0.2336980 0.0599776 -0.2336980
1024000000 0.0575671 -0.2290656 0.9424329 0.2290656 0.9424329 0.2290656 0.0575671 -0.2290656
1045000000 0.0552904 -0.2245772 0.9447096 0.2245772 0.9447096 0.2245772 0.0552904 -0.2245772
1066000000 0.0531380 -0.2202266 0.9468620 0.2202266 0.9468620 0.2202266 0.0531380 -0.2202266
1087000000 0.0511013 -0.2160079 0.9488987 0.2160079 0.9488987 0.2160079 0.0511013 -0.2160079
1108000000 0.0491725 -0.2119155 0.9508275 0.2119155 0.9508275 0.2119155 0.0491725 -0.2119155
1129000000 0.0473442 -0.2079441 0.9526558 0.2079441 0.9526558 0.2079441 0.0473442 -0.2079441
1150000000 0.0456097 -0.2040884 0.9543903 0.2040884 0.9543903 0.2040884 0.0456097 -0.2040884
1171000000 0.0439630 -0.2003438 0.9560370 0.2003438 0.9560370 0.2003438 0.0439630 -0.2003438
1192000000 0.0423984 -0.1967054 0.9576016 0.1967054 0.9576016 0.1967054 0.0423984 -0.1967054
1213000000 0.0409107 -0.1931691 0.9590893 0.1931691 0.9590893 0.1931691 0.0409107 -0.1931691
1234000000 0.0394950 -0.1897305 0.9605050 0.1897305 0.9605050 0.1897305 0.0394950 -0.1897305
1255000000 0.0381469 -0.1863857 0.9618531 0.1863857 0.9618531 0.1863857 0.0381469 -0.1863857
1276000000 0.0368624 -0.1831309 0.9631376 0.1831309 0.9631376 0.1831309 0.0368624 -0.1831309
1297000000 0.0356375 -0.1799626 0.9643625 0.1799626 0.9643625 0.1799626 0.0356375 -0.1799626
1318000000 0.0344688 -0.1768772 0.9655312 0.1768772 0.9655312 0.1768772 0.0344688 -0.1768772
1339000000 0.0333530 -0.1738715 0.9666470 0.1738715 0.9666470 0.1738715 0.0333530 -0.1738715
1360000000 0.0322870 -0.1709425 0.9677130 0.1709425 0.9677130 0.1709425 0.0322870 -0.1709425
1381000000 0.0312680 -0.1680871 0.9687320 0.1680871 0.9687320 0.1680871 0.0312680 -0.1680871
1402000000 0.0302933 -0.1653026 0.9697067 0.1653026 0.9697067 0.1653026 0.0302933 -0.1653026
1423000000 0.0293606 -0.1625862 0.9706394 0.1625862 0.9706394 0.1625862 0.0293606 -0.1625862
1444000000 0.0284675 -0.1599355 0.9715325 0.1599355 0.9715325 0.1599355 0.0284675 -0.1599355
1465000000 0.0276119 -0.1573479 0.9723881 0.1573479 0.9723881 0.1573479 0.0276119 -0.1573479
1486000000 0.0267917 -0.1548211 0.9732083 0.1548211 0.9732083 0.1548211 0.0267917 -0.1548211
1507000000 0.0260052 -0.1523530 0.9739948 0.1523530 0.9739948 0.1523530 0.0260052 -0.1523530
1528000000 0.0252506 -0.1499414 0.9747494 0.1499414 0.9747494 0.1499414 0.0252506 -0.1499414
1549000000 0.0245261 -0.1475843 0.9754739 0.1475843 0.9754739 0.1475843 0.0245261 -0.1475843
1570000000 0.0238304 -0.1452797 0.9761696 0.1452797 0.9761696 0.1452797 0.0238304 -0.1452797
1591000000 0.0231619 -0.1430259 0.9768381 0.1430259 0.9768381 0.1430259 0.0231619 -0.1430259
1612000000 0.0225194 -0.1408210 0.9774806 0.1408210 0.9774806 0.1408210 0.0225194 -0.1408210
1633000000 0.0219015 -0.1386633 0.9780985 0.1386633 0.9780985 0.1386633 0.0219015 -0.1386633
1654000000 0.0213070 -0.1365513 0.9786930 0.1365513 0.9786930 0.1365513 0.0213070 -0.1365513
1675000000 0.0207349 -0.1344835 0.9792651 0.1344835 0.9792651 0.1344835 0.0207349 -0.1344835
1696000000 0.0201841 -0.1324583 0.9798159 0.1324583 0.9798159 0.1324583 0.0201841 -0.1324583
1717000000 0.0196535 -0.1304743 0.9803465 0.1304743 0.9803465 0.1304743 0.0196535 -0.1304743
1738000000 0.0191423 -0.1285302 0.9808577 0.1285302 0.9808577 0.1285302 0.0191423 -0.1285302
1759000000 0.0186496 -0.1266246 0.9813504 0.1266246 0.9813504 0.1266246 0.0186496 -0.1266246
1780000000 0.0181745 -0.1247564 0.9818255 0.1247564 0.9818255 0.1247564 0.0181745 -0.1247564
1801000000 0.0177162 -0.1229244 0.9822838 0.1229244 0.9822838 0.1229244 0.0177162 -0.1229244
1822000000 0.0172740 -0.1211273 0.9827260 0.1211273 0.9827260 0.1211273 0.0172740 -0.1211273
1843000000 0.0168473 -0.1193642 0.9831527 0.1193642 0.9831527 0.1193642 0.0168473 -0.1193642
1864000000 0.0164352 -0.1176339 0.9835648 0.1176339 0.9835648 0.1176339 0.0164352 -0.1176339
1885000000 0.0160373 -0.1159355 0.9839627 0.1159355 0.9839627 0.1159355 0.0160373 -0.1159355
1906000000 0.0156529 -0.1142679 0.9843471 0.1142679 0.9843471 0.1142679 0.0156529 -0.1142679
1927000000 0.0152814 -0.1126303 0.9847186 0.1126303 0.9847186 0.1126303 0.0152814 -0.1126303
1948000000 0.0149223 -0.1110218 0.9850777 0.1110218 0.9850777 0.1110218 0.0149223 -0.1110218
1969000000 0.0145751 -0.1094414 0.9854249 0.1094414 0.9854249 0.1094414 0.0145751 -0.1094414
1990000000 0.0142394 -0.1078884 0.9857606 0.1078884 0.9857606 0.1078884 0.0142394 -0.1078884
2011000000 0.0139145 -0.1063620 0.9860855 0.1063620 0.9860855 0.1063620 0.0139145 -0.1063620
2032000000 0.0136002 -0.1048614 0.9863998 0.1048614 0.9863998 0.1048614 0.0136002 -0.1048614
2053000000 0.0132960 -0.1033858 0.9867040 0.1033858 0.9867040 0.1033858 0.0132960 -0.1033858
2074000000 0.0130016 -0.1019346 0.9869984 0.1019346 0.9869984 0.1019346 0.0130016 -0.1019346
2095000000 0.0127164 -0.1005070 0.9872836 0.1005070 0.9872836 0.1005070 0.0127164 -0.1005070
2116000000 0.0124402 -0.0991025 0.9875598 0.0991025 0.9875598 0.0991025 0.0124402 -0.0991025
2137000000 0.0121727 -0.0977203 0.9878273 0.0977203 0.9878273 0.0977203 0.0121727 -0.0977203
2158000000 0.0119135 -0.0963599 0.9880865 0.0963599 0.9880865 0.0963599 0.0119135 -0.0963599
2179000000 0.0116623 -0.0950206 0.9883377 0.0950206 0.9883377 0.0950206 0.0116623 -0.0950206
2200000000 0.0114188 -0.0937019 0.9885812 0.0937019 0.9885812 0.0937019 0.0114188 -0.0937019
2221000000 0.0111827 -0.0924033 0.9888173 0.0924033 0.9888173 0.0924033 0.0111827 -0.0924033
2242000000 0.0109538 -0.0911242 0.9890462 0.0911242 0.9890462 0.0911242 0.0109538 -0.0911242
2263000000 0.0107319 -0.0898642 0.9892681 0.0898642 0.9892681 0.0898642 0.0107319 -0.0898642
2284000000 0.0105165 -0.0886226 0.9894835 0.0886226 0.9894835 0.0886226 0.0105165 -0.0886226
2305000000 0.0103076 -0.0873990 0.9896924 0.0873990 0.9896924 0.0873990 0.0103076 -0.0873990
2326000000 0.0101049 -0.0861931 0.9898951 0.0861931 0.9898951 0.0861931 0.0101049 -0.0861931
2347000000 0.0099082 -0.0850042 0.9900918 0.0850042 0.9900918 0.0850042 0.0099082 -0.0850042
2368000000 0.0097173 -0.0838320 0.9902827 0.0838320 0.9902827 0.0838320 0.0097173 -0.0838320
2389000000 0.0095320 -0.0826762 0.9904680 0.0826762 0.9904680 0.0826762 0.0095320 -0.0826762
2410000000 0.0093521 -0.0815361 0.9906479 0.0815361 0.9906479 0.0815361 0.0093521 -0.0815361
2431000000 0.0091774 -0.0804116 0.9908226 0.0804116 0.9908226 0.0804116 0.0091774 -0.0804116
2452000000 0.0090078 -0.0793022 0.9909922 0.0793022 0.9909922 0.0793022 0.0090078 -0.0793022
2473000000 0.0088430 -0.0782075 0.9911570 0.0782075 0.9911570 0.0782075 0.0088430 -0.0782075
2494000000 0.0086830 -0.0771271 0.9913170 0.0771271 0.9913170 0.0771271 0.0086830 -0.0771271
2515000000 0.0085276 -0.0760608 0.9914724 0.0760608 0.9914724 0.0760608 0.0085276 -0.0760608
2536000000 0.0083766 -0.0750083 0.9916234 0.0750083 0.9916234 0.0750083 0.0083766 -0.0750083
2557000000 0.0082298 -0.0739691 0.9917702 0.0739691 0.9917702 0.0739691 0.0082298 -0.0739691
2578000000 0.0080873 -0.0729429 0.9919127 0.0729429 0.9919127 0.0729429 0.0080873 -0.0729429
2599000000 0.0079487 -0.0719296 0.9920513 0.0719296 0.9920513 0.0719296 0.0079487 -0.0719296
2620000000 0.0078141 -0.0709287 0.9921859 0.0709287 0.9921859 0.0709287 0.0078141 -0.0709287
2641000000 0.0076833 -0.0699400 0.9923167 0.0699400 0.9923167 0.0699400 0.0076833 -0.0699400
2662000000 0.0075561 -0.0689632 0.9924439 0.0689632 0.9924439 0.0689632 0.0075561 -0.0689632
2683000000 0.0074325 -0.0679981 0.9925675 0.0679981 0.9925675 0.0679981 0.0074325 -0.0679981
2704000000 0.0073124 -0.0670444 0.9926876 0.0670444 0.9926876 0.0670444 0.0073124 -0.0670444
2725000000 0.0071956 -0.0661017 0.9928044 0.0661017 0.9928044 0.0661017 0.0071956 -0.0661017
2746000000 0.0070820 -0.0651700 0.9929180 0.0651700 0.9929180 0.0651700 0.0070820 -0.0651700
2767000000 0.0069717 -0.0642490 0.9930283 0.0642490 0.9930283 0.0642490 0.0069717 -0.0642490
2788000000 0.0068644 -0.0633383 0.9931356 0.0633383 0.9931356 0.0633383 0.0068644 -0.0633383
2809000000 0.0067600 -0.0624379 0.9932400 0.0624379 0.9932400 0.0624379 0.0067600 -0.0624379
2830000000 0.0066586 -0.0615474 0.9933414 0.0615474 0.9933414 0.0615474 0.0066586 -0.0615474
2851000000 0.0065600 -0.0606667 0.9934400 0.0606667 0.9934400 0.0606667 0.0065600 -0.0606667
2872000000 0.0064641 -0.0597956 0.9935359 0.0597956 0.9935359 0.0597956 0.0064641 -0.0597956
2893000000 0.0063709 -0.0589338 0.9936291 0.0589338 0.9936291 0.0589338 0.0063709 -0.0589338
2914000000 0.0062803 -0.0580812 0.9937197 0.0580812 0.9937197 0.0580812 0.0062803 -0.0580812
2935000000 0.0061922 -0.0572376 0.9938078 0.0572376 0.9938078 0.0572376 0.0061922 -0.0572376
2956000000 0.0061065 -0.0564027 0.9938935 0.0564027 0.9938935 0.0564027 0.0061065 -0.0564027
2977000000 0.0060233 -0.0555765 0.9939767 0.0555765 0.9939767 0.0555765 0.0060233 -0.0555765
2998000000 0.0059423 -0.0547588 0.9940577 0.0547588 0.9940577 0.0547588 0.0059423 -0.0547588
3019000000 0.0058636 -0.0539492 0.9941364 0.0539492 0.9941364 0.0539492 0.0058636 -0.0539492
3040000000 0.0057872 -0.0531479 0.9942128 0.0531479 0.9942128 0.0531479 0.0057872 -0.0531479
3061000000 0.0057128 -0.0523544 0.9942872 0.0523544 0.9942872 0.0523544 0.0057128 -0.0523544
3082000000 0.0056406 -0.0515687 0.9943594 0.0515687 0.9943594 0.0515687 0.0056406 -0.0515687
3103000000 0.0055704 -0.0507907 0.9944296 0.0507907 0.9944296 0.0507907 0.0055704 -0.0507907
3124000000 0.0055021 -0.0500202 0.9944979 0.0500202 0.9944979 0.0500202 0.0055021 -0.0500202
3145000000 0.0054358 -0.0492570 0.9945642 0.0492570 0.9945642 0.0492570 0.0054358 -0.0492570
3166000000 0.0053714 -0.0485010 0.9946286 0.0485010 0.9946286 0.0485010 0.0053714 -0.0485010
3187000000 0.0053088 -0.0477521 0.9946912 0.0477521 0.9946912 0.0477521 0.0053088 -0.0477521
3208000000 0.0052481 -0.0470101 0.9947519 0.0470101 0.9947519 0.0470101 0.0052481 -0.0470101
3229000000 0.0051890 -0.0462749 0.9948110 0.0462749 0.9948110 0.0462749 0.0051890 -0.0462749
3250000000 0.0051317 -0.0455464 0.9948683 0.0455464 0.9948683 0.0455464 0.0051317 -0.0455464
3271000000 0.0050760 -0.0448244 0.9949240 0.0448244 0.9949240 0.0448244 0.0050760 -0.0448244
3292000000 0.0050220 -0.0441089 0.9949780 0.0441089 0.9949780 0.0441089 0.0050220 -0.0441089
3313000000 0.0049695 -0.0433997 0.9950305 0.0433997 0.9950305 0.0433997 0.0049695 -0.0433997
3334000000 0.0049186 -0.0426966 0.9950814 0.0426966 0.9950814 0.0426966 0.0049186 -0.0426966
3355000000 0.0048692 -0.0419997 0.9951308 0.0419997 0.9951308 0.0419997 0.0048692 -0.0419997
3376000000 0.0048213 -0.0413087 0.9951787 0.0413087 0.9951787 0.0413087 0.0048213 -0.0413087
3397000000 0.0047749 -0.0406236 0.9952251 0.0406236 0.9952251 0.0406236 0.0047749 -0.0406236
3418000000 0.0047298 -0.0399443 0.9952702 0.0399443 0.9952702 0.0399443 0.0047298 -0.0399443
3439000000 0.0046861 -0.0392706 0.9953139 0.0392706 0.9953139 0.0392706 0.0046861 -0.0392706
3460000000 0.0046438 -0.0386025 0.9953562 0.0386025 0.9953562 0.0386025 0.0046438 -0.0386025
3481000000 0.0046027 -0.0379399 0.9953973 0.0379399 0.9953973 0.0379399 0.0046027 -0.0379399
3502000000 0.0045630 -0.0372826 0.9954370 0.0372826 0.9954370 0.0372826 0.0045630 -0.0372826
3523000000 0.0045245 -0.0366306 0.9954755 0.0366306 0.9954755 0.0366306 0.0045245 -0.0366306
3544000000 0.0044873 -0.0359838 0.9955127 0.0359838 0.9955127 0.0359838 0.0044873 -0.0359838
3565000000 0.0044512 -0.0353421 0.9955488 0.0353421 0.9955488 0.0353421 0.0044512 -0.0353421
3586000000 0.0044164 -0.0347054 0.9955836 0.0347054 0.9955836 0.0347054 0.0044164 -0.0347054
3607000000 0.0043827 -0.0340736 0.9956173 0.0340736 0.9956173 0.0340736 0.0043827 -0.0340736
3628000000 0.0043501 -0.0334467 0.9956499 0.0334467 0.9956499 0.0334467 0.0043501 -0.0334467
3649000000 0.0043186 -0.0328245 0.9956814 0.0328245 0.9956814 0.0328245 0.0043186 -0.0328245
3670000000 0.0042882 -0.0322070 0.9957118 0.0322070 0.9957118 0.0322070 0.0042882 -0.0322070
3691000000 0.0042589 -0.0315941 0.9957411 0.0315941 0.9957411 0.0315941 0.0042589 -0.0315941
3712000000 0.0042305 -0.0309858 0.9957695 0.0309858 0.9957695 0.0309858 0.0042305 -0.0309858
3733000000 0.0042032 -0.0303819 0.9957968 0.0303819 0.9957968 0.0303819 0.0042032 -0.0303819
3754000000 0.0041769 -0.0297824 0.9958231 0.0297824 0.9958231 0.0297824 0.0041769 -0.0297824
3775000000 0.0041516 -0.0291872 0.9958484 0.0291872 0.9958484 0.0291872 0.0041516 -0.0291872
3796000000 0.0041272 -0.0285962 0.9958728 0.0285962 0.9958728 0.0285962 0.0041272 -0.0285962
3817000000 0.0041038 -0.0280095 0.9958962 0.0280095 0.9958962 0.0280095 0.0041038 -0.0280095
3838000000 0.0040813 -0.0274268 0.9959187 0.0274268 0.9959187 0.0274268 0.0040813 -0.0274268
3859000000 0.0040596 -0.0268482 0.9959404 0.0268482 0.9959404 0.0268482 0.0040596 -0.0268482
3880000000 0.0040389 -0.0262736 0.9959611 0.0262736 0.9959611 0.0262736 0.0040389 -0.0262736
3901000000 0.0040190 -0.0257029 0.9959810 0.0257029 0.9959810 0.0257029 0.0040190 -0.0257029
3922000000 0.0039999 -0.0251360 0.9960001 0.0251360 0.9960001 0.0251360 0.0039999 -0.0251360
3943000000 0.0039817 -0.0245730 0.9960183 0.0245730 0.9960183 0.0245730 0.0039817 -0.0245730
3964000000 0.0039643 -0.0240137 0.9960357 0.0240137 0.9960357 0.0240137 0.0039643 -0.0240137
3985000000 0.0039477 -0.0234581 0.9960523 0.0234581 0.9960523 0.0234581 0.0039477 -0.0234581
4006000000 0.0039319 -0.0229061 0.9960681 0.0229061 0.9960681 0.0229061 0.0039319 -0.0229061
4027000000 0.0039168 -0.0223576 0.9960832 0.0223576 0.9960832 0.0223576 0.0039168 -0.0223576
4048000000 0.0039025 -0.0218127 0.9960975 0.0218127 0.9960975 0.0218127 0.0039025 -0.0218127
4069000000 0.0038889 -0.0212713 0.9961111 0.0212713 0.9961111 0.0212713 0.0038889 -0.0212713
4090000000 0.0038761 -0.0207333 0.9961239 0.0207333 0.9961239 0.0207333 0.0038761 -0.0207333
4111000000 0.0038640 -0.0201987 0.9961360 0.0201987 0.9961360 0.0201987 0.0038640 -0.0201987
4132000000 0.0038525 -0.0196673 0.9961475 0.0196673 0.9961475 0.0196673 0.0038525 -0.0196673
4153000000 0.0038418 -0.0191393 0.9961582 0.0191393 0.9961582 0.0191393 0.0038418 -0.0191393
4174000000 0.0038317 -0.0186144 0.9961683 0.0186144 0.9961683 0.0186144 0.0038317 -0.0186144
4195000000 0.0038223 -0.0180927 0.9961777 0.0180927 0.9961777 0.0180927 0.0038223 -0.0180927
4216000000 0.0038135 -0.0175742 0.9961865 0.0175742 0.9961865 0.0175742 0.0038135 -0.0175742
4237000000 0.0038054 -0.0170587 0.9961946 0.0170587 0.9961946 0.0170587 0.0038054 -0.0170587
4258000000 0.0037979 -0.0165463 0.9962021 0.0165463 0.9962021 0.0165463 0.0037979 -0.0165463
4279000000 0.0037910 -0.0160369 0.9962090 0.0160369 0.9962090 0.0160369 0.0037910 -0.0160369
4300000000 0.0037847 -0.0155304 0.9962153 0.0155304 0.9962153 0.0155304 0.0037847 -0.0155304
4321000000 0.0037790 -0.0150268 0.9962210 0.0150268 0.9962210 0.0150268 0.0037790 -0.0150268
4342000000 0.0037739 -0.0145261 0.9962261 0.0145261 0.9962261 0.0145261 0.0037739 -0.0145261
4363000000 0.0037694 -0.0140282 0.9962306 0.0140282 0.9962306 0.0140282 0.0037694 -0.0140282
4384000000 0.0037655 -0.0135332 0.9962345 0.0135332 0.9962345 0.0135332 0.0037655 -0.0135332
4405000000 0.0037621 -0.0130408 0.9962379 0.0130408 0.9962379 0.0130408 0.0037621 -0.0130408
4426000000 0.0037592 -0.0125512 0.9962408 0.0125512 0.9962408 0.0125512 0.0037592 -0.0125512
4447000000 0.0037569 -0.0120643 0.9962431 0.0120643 0.9962431 0.0120643 0.0037569 -0.0120643
4468000000 0.0037551 -0.0115800 0.9962449 0.0115800 0.9962449 0.0115800 0.0037551 -0.0115800
4489000000 0.0037538 -0.0110983 0.9962462 0.0110983 0.9962462 0.0110983 0.0037538 -0.0110983
4510000000 0.0037530 -0.0106192 0.9962470 0.0106192 0.9962470 0.0106192 0.0037530 -0.0106192
