!Murata Part Number: GRM0225C1C8R6CA03
!These Parameters are Measured in Series Mode Connection
!Data Generated on Mar 30, 2021
!       o--ll--o
!Port1            Port2
!       o------o
!Operation Temp=25[degC], DC Bias Voltage=0[V]
!Freq. Start=100[MHz] Stop=9[GHz] 401[Steps]
# Hz S RI R 50
!Freq.(Hz) S11(Real) S11(Imag) S21(Real) S21(Imag) S12(Real) S12(Imag) S22(Real) S22(Imag)
100000000 0.7736324 -0.4181194 0.2263676 0.4181194 0.2263676 0.4181194 0.7736324 -0.4181194
121000000 0.7000060 -0.4578182 0.2999940 0.4578182 0.2999940 0.4578182 0.7000060 -0.4578182
142000000 0.6287400 -0.4826283 0.3712600 0.4826283 0.3712600 0.4826283 0.6287400 -0.4826283
163000000 0.5622901 -0.4955139 0.4377099 0.4955139 0.4377099 0.4955139 0.5622901 -0.4955139
184000000 0.5018787 -0.4993277 0.4981213 0.4993277 0.4981213 0.4993277 0.5018787 -0.4993277
205000000 0.4478708 -0.4965279 0.5521292 0.4965279 0.5521292 0.4965279 0.4478708 -0.4965279
226000000 0.4001026 -0.4890925 0.5998974 0.4890925 0.5998974 0.4890925 0.4001026 -0.4890925
247000000 0.3581227 -0.4785421 0.6418773 0.4785421 0.6418773 0.4785421 0.3581227 -0.4785421
268000000 0.3213528 -0.4660088 0.6786472 0.4660088 0.6786472 0.4660088 0.3213528 -0.4660088
289000000 0.2891842 -0.4523149 0.7108158 0.4523149 0.7108158 0.4523149 0.2891842 -0.4523149
310000000 0.2610318 -0.4380459 0.7389682 0.4380459 0.7389682 0.4380459 0.2610318 -0.4380459
331000000 0.2363601 -0.4236109 0.7636399 0.4236109 0.7636399 0.4236109 0.2363601 -0.4236109
352000000 0.2146934 -0.4092899 0.7853066 0.4092899 0.7853066 0.4092899 0.2146934 -0.4092899
373000000 0.1956171 -0.3952696 0.8043829 0.3952696 0.8043829 0.3952696 0.1956171 -0.3952696
394000000 0.1787734 -0.3816701 0.8212266 0.3816701 0.8212266 0.3816701 0.1787734 -0.3816701
415000000 0.1638560 -0.3685642 0.8361440 0.3685642 0.8361440 0.3685642 0.1638560 -0.3685642
436000000 0.1506034 -0.3559917 0.8493966 0.3559917 0.8493966 0.3559917 0.1506034 -0.3559917
457000000 0.1387931 -0.3439694 0.8612069 0.3439694 0.8612069 0.3439694 0.1387931 -0.3439694
478000000 0.1282353 -0.3324983 0.8717647 0.3324983 0.8717647 0.3324983 0.1282353 -0.3324983
499000000 0.1187684 -0.3215687 0.8812316 0.3215687 0.8812316 0.3215687 0.1187684 -0.3215687
520000000 0.1102544 -0.3111643 0.8897456 0.3111643 0.8897456 0.3111643 0.1102544 -0.3111643
541000000 0.1025753 -0.3012643 0.8974247 0.3012643 0.8974247 0.3012643 0.1025753 -0.3012643
562000000 0.0956298 -0.2918456 0.9043702 0.2918456 0.9043702 0.2918456 0.0956298 -0.2918456
583000000 0.0893311 -0.2828838 0.9106689 0.2828838 0.9106689 0.2828838 0.0893311 -0.2828838
604000000 0.0836042 -0.2743544 0.9163958 0.2743544 0.9163958 0.2743544 0.0836042 -0.2743544
625000000 0.0783841 -0.2662328 0.9216159 0.2662328 0.9216159 0.2662328 0.0783841 -0.2662328
646000000 0.0736147 -0.2584956 0.9263853 0.2584956 0.9263853 0.2584956 0.0736147 -0.2584956
667000000 0.0692472 -0.2511200 0.9307528 0.2511200 0.9307528 0.2511200 0.0692472 -0.2511200
688000000 0.0652390 -0.2440844 0.9347610 0.2440844 0.9347610 0.2440844 0.0652390 -0.2440844
709000000 0.0615527 -0.2373683 0.9384473 0.2373683 0.9384473 0.2373683 0.0615527 -0.2373683
730000000 0.0581558 -0.2309524 0.9418442 0.2309524 0.9418442 0.2309524 0.0581558 -0.2309524
751000000 0.0550196 -0.2248188 0.9449804 0.2248188 0.9449804 0.2248188 0.0550196 -0.2248188
772000000 0.0521186 -0.2189504 0.9478814 0.2189504 0.9478814 0.2189504 0.0521186 -0.2189504
793000000 0.0494306 -0.2133314 0.9505694 0.2133314 0.9505694 0.2133314 0.0494306 -0.2133314
814000000 0.0469357 -0.2079471 0.9530643 0.2079471 0.9530643 0.2079471 0.0469357 -0.2079471
835000000 0.0446162 -0.2027837 0.9553838 0.2027837 0.9553838 0.2027837 0.0446162 -0.2027837
856000000 0.0424566 -0.1978282 0.9575434 0.1978282 0.9575434 0.1978282 0.0424566 -0.1978282
877000000 0.0404427 -0.1930689 0.9595573 0.1930689 0.9595573 0.1930689 0.0404427 -0.1930689
898000000 0.0385622 -0.1884945 0.9614378 0.1884945 0.9614378 0.1884945 0.0385622 -0.1884945
919000000 0.0368037 -0.1840946 0.9631963 0.1840946 0.9631963 0.1840946 0.0368037 -0.1840946
940000000 0.0351571 -0.1798595 0.9648429 0.1798595 0.9648429 0.1798595 0.0351571 -0.1798595
961000000 0.0336134 -0.1757802 0.9663866 0.1757802 0.9663866 0.1757802 0.0336134 -0.1757802
982000000 0.0321645 -0.1718482 0.9678355 0.1718482 0.9678355 0.1718482 0.0321645 -0.1718482
1003000000 0.0308028 -0.1680557 0.9691972 0.1680557 0.9691972 0.1680557 0.0308028 -0.1680557
1024000000 0.0295218 -0.1643954 0.9704782 0.1643954 0.9704782 0.1643954 0.0295218 -0.1643954
1045000000 0.0283153 -0.1608602 0.9716847 0.1608602 0.9716847 0.1608602 0.0283153 -0.1608602
1066000000 0.0271777 -0.1574439 0.9728223 0.1574439 0.9728223 0.1574439 0.0271777 -0.1574439
1087000000 0.0261042 -0.1541404 0.9738958 0.1541404 0.9738958 0.1541404 0.0261042 -0.1541404
1108000000 0.0250901 -0.1509440 0.9749099 0.1509440 0.9749099 0.1509440 0.0250901 -0.1509440
1129000000 0.0241312 -0.1478495 0.9758688 0.1478495 0.9758688 0.1478495 0.0241312 -0.1478495
1150000000 0.0232237 -0.1448519 0.9767763 0.1448519 0.9767763 0.1448519 0.0232237 -0.1448519
1171000000 0.0223642 -0.1419466 0.9776358 0.1419466 0.9776358 0.1419466 0.0223642 -0.1419466
1192000000 0.0215493 -0.1391292 0.9784507 0.1391292 0.9784507 0.1391292 0.0215493 -0.1391292
1213000000 0.0207762 -0.1363955 0.9792238 0.1363955 0.9792238 0.1363955 0.0207762 -0.1363955
1234000000 0.0200421 -0.1337418 0.9799579 0.1337418 0.9799579 0.1337418 0.0200421 -0.1337418
1255000000 0.0193446 -0.1311644 0.9806554 0.1311644 0.9806554 0.1311644 0.0193446 -0.1311644
1276000000 0.0186813 -0.1286598 0.9813187 0.1286598 0.9813187 0.1286598 0.0186813 -0.1286598
1297000000 0.0180501 -0.1262249 0.9819499 0.1262249 0.9819499 0.1262249 0.0180501 -0.1262249
1318000000 0.0174491 -0.1238566 0.9825509 0.1238566 0.9825509 0.1238566 0.0174491 -0.1238566
1339000000 0.0168764 -0.1215519 0.9831236 0.1215519 0.9831236 0.1215519 0.0168764 -0.1215519
1360000000 0.0163304 -0.1193083 0.9836696 0.1193083 0.9836696 0.1193083 0.0163304 -0.1193083
1381000000 0.0158095 -0.1171231 0.9841905 0.1171231 0.9841905 0.1171231 0.0158095 -0.1171231
1402000000 0.0153123 -0.1149939 0.9846877 0.1149939 0.9846877 0.1149939 0.0153123 -0.1149939
1423000000 0.0148374 -0.1129184 0.9851626 0.1129184 0.9851626 0.1129184 0.0148374 -0.1129184
1444000000 0.0143835 -0.1108944 0.9856165 0.1108944 0.9856165 0.1108944 0.0143835 -0.1108944
1465000000 0.0139495 -0.1089199 0.9860505 0.1089199 0.9860505 0.1089199 0.0139495 -0.1089199
1486000000 0.0135343 -0.1069929 0.9864657 0.1069929 0.9864657 0.1069929 0.0135343 -0.1069929
1507000000 0.0131369 -0.1051115 0.9868631 0.1051115 0.9868631 0.1051115 0.0131369 -0.1051115
1528000000 0.0127564 -0.1032740 0.9872436 0.1032740 0.9872436 0.1032740 0.0127564 -0.1032740
1549000000 0.0123918 -0.1014787 0.9876082 0.1014787 0.9876082 0.1014787 0.0123918 -0.1014787
1570000000 0.0120423 -0.0997240 0.9879577 0.0997240 0.9879577 0.0997240 0.0120423 -0.0997240
1591000000 0.0117073 -0.0980084 0.9882927 0.0980084 0.9882927 0.0980084 0.0117073 -0.0980084
1612000000 0.0113858 -0.0963305 0.9886142 0.0963305 0.9886142 0.0963305 0.0113858 -0.0963305
1633000000 0.0110773 -0.0946888 0.9889227 0.0946888 0.9889227 0.0946888 0.0110773 -0.0946888
1654000000 0.0107811 -0.0930821 0.9892189 0.0930821 0.9892189 0.0930821 0.0107811 -0.0930821
1675000000 0.0104966 -0.0915092 0.9895034 0.0915092 0.9895034 0.0915092 0.0104966 -0.0915092
1696000000 0.0102233 -0.0899688 0.9897767 0.0899688 0.9897767 0.0899688 0.0102233 -0.0899688
1717000000 0.0099606 -0.0884598 0.9900394 0.0884598 0.9900394 0.0884598 0.0099606 -0.0884598
1738000000 0.0097080 -0.0869811 0.9902920 0.0869811 0.9902920 0.0869811 0.0097080 -0.0869811
1759000000 0.0094651 -0.0855317 0.9905349 0.0855317 0.9905349 0.0855317 0.0094651 -0.0855317
1780000000 0.0092314 -0.0841106 0.9907686 0.0841106 0.9907686 0.0841106 0.0092314 -0.0841106
1801000000 0.0090064 -0.0827169 0.9909936 0.0827169 0.9909936 0.0827169 0.0090064 -0.0827169
1822000000 0.0087899 -0.0813496 0.9912101 0.0813496 0.9912101 0.0813496 0.0087899 -0.0813496
1843000000 0.0085814 -0.0800079 0.9914186 0.0800079 0.9914186 0.0800079 0.0085814 -0.0800079
1864000000 0.0083805 -0.0786909 0.9916195 0.0786909 0.9916195 0.0786909 0.0083805 -0.0786909
1885000000 0.0081870 -0.0773980 0.9918130 0.0773980 0.9918130 0.0773980 0.0081870 -0.0773980
1906000000 0.0080006 -0.0761282 0.9919994 0.0761282 0.9919994 0.0761282 0.0080006 -0.0761282
1927000000 0.0078208 -0.0748809 0.9921792 0.0748809 0.9921792 0.0748809 0.0078208 -0.0748809
1948000000 0.0076475 -0.0736554 0.9923525 0.0736554 0.9923525 0.0736554 0.0076475 -0.0736554
1969000000 0.0074804 -0.0724510 0.9925196 0.0724510 0.9925196 0.0724510 0.0074804 -0.0724510
1990000000 0.0073192 -0.0712670 0.9926808 0.0712670 0.9926808 0.0712670 0.0073192 -0.0712670
2011000000 0.0071637 -0.0701029 0.9928363 0.0701029 0.9928363 0.0701029 0.0071637 -0.0701029
2032000000 0.0070136 -0.0689581 0.9929864 0.0689581 0.9929864 0.0689581 0.0070136 -0.0689581
2053000000 0.0068688 -0.0678319 0.9931312 0.0678319 0.9931312 0.0678319 0.0068688 -0.0678319
2074000000 0.0067290 -0.0667239 0.9932710 0.0667239 0.9932710 0.0667239 0.0067290 -0.0667239
2095000000 0.0065940 -0.0656335 0.9934060 0.0656335 0.9934060 0.0656335 0.0065940 -0.0656335
2116000000 0.0064637 -0.0645602 0.9935363 0.0645602 0.9935363 0.0645602 0.0064637 -0.0645602
2137000000 0.0063379 -0.0635035 0.9936621 0.0635035 0.9936621 0.0635035 0.0063379 -0.0635035
2158000000 0.0062163 -0.0624629 0.9937837 0.0624629 0.9937837 0.0624629 0.0062163 -0.0624629
2179000000 0.0060989 -0.0614381 0.9939011 0.0614381 0.9939011 0.0614381 0.0060989 -0.0614381
2200000000 0.0059855 -0.0604285 0.9940145 0.0604285 0.9940145 0.0604285 0.0059855 -0.0604285
2221000000 0.0058760 -0.0594337 0.9941240 0.0594337 0.9941240 0.0594337 0.0058760 -0.0594337
2242000000 0.0057701 -0.0584534 0.9942299 0.0584534 0.9942299 0.0584534 0.0057701 -0.0584534
2263000000 0.0056678 -0.0574871 0.9943322 0.0574871 0.9943322 0.0574871 0.0056678 -0.0574871
2284000000 0.0055690 -0.0565345 0.9944310 0.0565345 0.9944310 0.0565345 0.0055690 -0.0565345
2305000000 0.0054734 -0.0555952 0.9945266 0.0555952 0.9945266 0.0555952 0.0054734 -0.0555952
2326000000 0.0053811 -0.0546688 0.9946189 0.0546688 0.9946189 0.0546688 0.0053811 -0.0546688
2347000000 0.0052919 -0.0537551 0.9947081 0.0537551 0.9947081 0.0537551 0.0052919 -0.0537551
2368000000 0.0052057 -0.0528537 0.9947943 0.0528537 0.9947943 0.0528537 0.0052057 -0.0528537
2389000000 0.0051223 -0.0519642 0.9948777 0.0519642 0.9948777 0.0519642 0.0051223 -0.0519642
2410000000 0.0050417 -0.0510864 0.9949583 0.0510864 0.9949583 0.0510864 0.0050417 -0.0510864
2431000000 0.0049639 -0.0502200 0.9950361 0.0502200 0.9950361 0.0502200 0.0049639 -0.0502200
2452000000 0.0048886 -0.0493647 0.9951114 0.0493647 0.9951114 0.0493647 0.0048886 -0.0493647
2473000000 0.0048159 -0.0485202 0.9951841 0.0485202 0.9951841 0.0485202 0.0048159 -0.0485202
2494000000 0.0047456 -0.0476863 0.9952544 0.0476863 0.9952544 0.0476863 0.0047456 -0.0476863
2515000000 0.0046777 -0.0468626 0.9953223 0.0468626 0.9953223 0.0468626 0.0046777 -0.0468626
2536000000 0.0046121 -0.0460490 0.9953879 0.0460490 0.9953879 0.0460490 0.0046121 -0.0460490
2557000000 0.0045486 -0.0452452 0.9954514 0.0452452 0.9954514 0.0452452 0.0045486 -0.0452452
2578000000 0.0044874 -0.0444510 0.9955126 0.0444510 0.9955126 0.0444510 0.0044874 -0.0444510
2599000000 0.0044282 -0.0436661 0.9955718 0.0436661 0.9955718 0.0436661 0.0044282 -0.0436661
2620000000 0.0043710 -0.0428904 0.9956290 0.0428904 0.9956290 0.0428904 0.0043710 -0.0428904
2641000000 0.0043158 -0.0421235 0.9956842 0.0421235 0.9956842 0.0421235 0.0043158 -0.0421235
2662000000 0.0042625 -0.0413654 0.9957375 0.0413654 0.9957375 0.0413654 0.0042625 -0.0413654
2683000000 0.0042110 -0.0406158 0.9957890 0.0406158 0.9957890 0.0406158 0.0042110 -0.0406158
2704000000 0.0041614 -0.0398744 0.9958386 0.0398744 0.9958386 0.0398744 0.0041614 -0.0398744
2725000000 0.0041134 -0.0391413 0.9958866 0.0391413 0.9958866 0.0391413 0.0041134 -0.0391413
2746000000 0.0040672 -0.0384160 0.9959328 0.0384160 0.9959328 0.0384160 0.0040672 -0.0384160
2767000000 0.0040225 -0.0376985 0.9959775 0.0376985 0.9959775 0.0376985 0.0040225 -0.0376985
2788000000 0.0039795 -0.0369887 0.9960205 0.0369887 0.9960205 0.0369887 0.0039795 -0.0369887
2809000000 0.0039380 -0.0362862 0.9960620 0.0362862 0.9960620 0.0362862 0.0039380 -0.0362862
2830000000 0.0038980 -0.0355910 0.9961020 0.0355910 0.9961020 0.0355910 0.0038980 -0.0355910
2851000000 0.0038595 -0.0349030 0.9961405 0.0349030 0.9961405 0.0349030 0.0038595 -0.0349030
2872000000 0.0038224 -0.0342219 0.9961776 0.0342219 0.9961776 0.0342219 0.0038224 -0.0342219
2893000000 0.0037867 -0.0335476 0.9962133 0.0335476 0.9962133 0.0335476 0.0037867 -0.0335476
2914000000 0.0037523 -0.0328799 0.9962477 0.0328799 0.9962477 0.0328799 0.0037523 -0.0328799
2935000000 0.0037193 -0.0322188 0.9962807 0.0322188 0.9962807 0.0322188 0.0037193 -0.0322188
2956000000 0.0036875 -0.0315641 0.9963125 0.0315641 0.9963125 0.0315641 0.0036875 -0.0315641
2977000000 0.0036569 -0.0309157 0.9963431 0.0309157 0.9963431 0.0309157 0.0036569 -0.0309157
2998000000 0.0036276 -0.0302734 0.9963724 0.0302734 0.9963724 0.0302734 0.0036276 -0.0302734
3019000000 0.0035994 -0.0296371 0.9964006 0.0296371 0.9964006 0.0296371 0.0035994 -0.0296371
3040000000 0.0035724 -0.0290066 0.9964276 0.0290066 0.9964276 0.0290066 0.0035724 -0.0290066
3061000000 0.0035465 -0.0283820 0.9964535 0.0283820 0.9964535 0.0283820 0.0035465 -0.0283820
3082000000 0.0035217 -0.0277630 0.9964783 0.0277630 0.9964783 0.0277630 0.0035217 -0.0277630
3103000000 0.0034980 -0.0271495 0.9965020 0.0271495 0.9965020 0.0271495 0.0034980 -0.0271495
3124000000 0.0034753 -0.0265415 0.9965247 0.0265415 0.9965247 0.0265415 0.0034753 -0.0265415
3145000000 0.0034536 -0.0259388 0.9965464 0.0259388 0.9965464 0.0259388 0.0034536 -0.0259388
3166000000 0.0034329 -0.0253413 0.9965671 0.0253413 0.9965671 0.0253413 0.0034329 -0.0253413
3187000000 0.0034131 -0.0247489 0.9965869 0.0247489 0.9965869 0.0247489 0.0034131 -0.0247489
3208000000 0.0033943 -0.0241616 0.9966057 0.0241616 0.9966057 0.0241616 0.0033943 -0.0241616
3229000000 0.0033765 -0.0235791 0.9966235 0.0235791 0.9966235 0.0235791 0.0033765 -0.0235791
3250000000 0.0033595 -0.0230015 0.9966405 0.0230015 0.9966405 0.0230015 0.0033595 -0.0230015
3271000000 0.0033434 -0.0224287 0.9966566 0.0224287 0.9966566 0.0224287 0.0033434 -0.0224287
3292000000 0.0033281 -0.0218605 0.9966719 0.0218605 0.9966719 0.0218605 0.0033281 -0.0218605
3313000000 0.0033137 -0.0212969 0.9966863 0.0212969 0.9966863 0.0212969 0.0033137 -0.0212969
3334000000 0.0033001 -0.0207377 0.9966999 0.0207377 0.9966999 0.0207377 0.0033001 -0.0207377
3355000000 0.0032873 -0.0201830 0.9967127 0.0201830 0.9967127 0.0201830 0.0032873 -0.0201830
3376000000 0.0032753 -0.0196325 0.9967247 0.0196325 0.9967247 0.0196325 0.0032753 -0.0196325
3397000000 0.0032640 -0.0190863 0.9967360 0.0190863 0.9967360 0.0190863 0.0032640 -0.0190863
3418000000 0.0032535 -0.0185443 0.9967465 0.0185443 0.9967465 0.0185443 0.0032535 -0.0185443
3439000000 0.0032437 -0.0180064 0.9967563 0.0180064 0.9967563 0.0180064 0.0032437 -0.0180064
3460000000 0.0032346 -0.0174725 0.9967654 0.0174725 0.9967654 0.0174725 0.0032346 -0.0174725
3481000000 0.0032263 -0.0169425 0.9967737 0.0169425 0.9967737 0.0169425 0.0032263 -0.0169425
3502000000 0.0032186 -0.0164164 0.9967814 0.0164164 0.9967814 0.0164164 0.0032186 -0.0164164
3523000000 0.0032116 -0.0158942 0.9967884 0.0158942 0.9967884 0.0158942 0.0032116 -0.0158942
3544000000 0.0032052 -0.0153756 0.9967948 0.0153756 0.9967948 0.0153756 0.0032052 -0.0153756
3565000000 0.0031995 -0.0148608 0.9968005 0.0148608 0.9968005 0.0148608 0.0031995 -0.0148608
3586000000 0.0031944 -0.0143496 0.9968056 0.0143496 0.9968056 0.0143496 0.0031944 -0.0143496
3607000000 0.0031899 -0.0138419 0.9968101 0.0138419 0.9968101 0.0138419 0.0031899 -0.0138419
3628000000 0.0031861 -0.0133377 0.9968139 0.0133377 0.9968139 0.0133377 0.0031861 -0.0133377
3649000000 0.0031828 -0.0128369 0.9968172 0.0128369 0.9968172 0.0128369 0.0031828 -0.0128369
3670000000 0.0031801 -0.0123396 0.9968199 0.0123396 0.9968199 0.0123396 0.0031801 -0.0123396
3691000000 0.0031780 -0.0118455 0.9968220 0.0118455 0.9968220 0.0118455 0.0031780 -0.0118455
3712000000 0.0031764 -0.0113548 0.9968236 0.0113548 0.9968236 0.0113548 0.0031764 -0.0113548
3733000000 0.0031754 -0.0108672 0.9968246 0.0108672 0.9968246 0.0108672 0.0031754 -0.0108672
3754000000 0.0031749 -0.0103828 0.9968251 0.0103828 0.9968251 0.0103828 0.0031749 -0.0103828
3775000000 0.0031750 -0.0099015 0.9968250 0.0099015 0.9968250 0.0099015 0.0031750 -0.0099015
3796000000 0.0031755 -0.0094233 0.9968245 0.0094233 0.9968245 0.0094233 0.0031755 -0.0094233
3817000000 0.0031766 -0.0089481 0.9968234 0.0089481 0.9968234 0.0089481 0.0031766 -0.0089481
3838000000 0.0031782 -0.0084758 0.9968218 0.0084758 0.9968218 0.0084758 0.0031782 -0.0084758
3859000000 0.0031802 -0.0080065 0.9968198 0.0080065 0.9968198 0.0080065 0.0031802 -0.0080065
3880000000 0.0031827 -0.0075400 0.9968173 0.0075400 0.9968173 0.0075400 0.0031827 -0.0075400
3901000000 0.0031857 -0.0070764 0.9968143 0.0070764 0.9968143 0.0070764 0.0031857 -0.0070764
3922000000 0.0031892 -0.0066155 0.9968108 0.0066155 0.9968108 0.0066155 0.0031892 -0.0066155
3943000000 0.0031931 -0.0061574 0.9968069 0.0061574 0.9968069 0.0061574 0.0031931 -0.0061574
3964000000 0.0031975 -0.0057020 0.9968025 0.0057020 0.9968025 0.0057020 0.0031975 -0.0057020
3985000000 0.0032023 -0.0052492 0.9967977 0.0052492 0.9967977 0.0052492 0.0032023 -0.0052492
4006000000 0.0032075 -0.0047991 0.9967925 0.0047991 0.9967925 0.0047991 0.0032075 -0.0047991
4027000000 0.0032132 -0.0043515 0.9967868 0.0043515 0.9967868 0.0043515 0.0032132 -0.0043515
4048000000 0.0032192 -0.0039064 0.9967808 0.0039064 0.9967808 0.0039064 0.0032192 -0.0039064
4069000000 0.0032257 -0.0034639 0.9967743 0.0034639 0.9967743 0.0034639 0.0032257 -0.0034639
4090000000 0.0032326 -0.0030238 0.9967674 0.0030238 0.9967674 0.0030238 0.0032326 -0.0030238
4111000000 0.0032398 -0.0025861 0.9967602 0.0025861 0.9967602 0.0025861 0.0032398 -0.0025861
4132000000 0.0032475 -0.0021508 0.9967525 0.0021508 0.9967525 0.0021508 0.0032475 -0.0021508
4153000000 0.0032555 -0.0017179 0.9967445 0.0017179 0.9967445 0.0017179 0.0032555 -0.0017179
4174000000 0.0032639 -0.0012873 0.9967361 0.0012873 0.9967361 0.0012873 0.0032639 -0.0012873
4195000000 0.0032727 -0.0008590 0.9967273 0.0008590 0.9967273 0.0008590 0.0032727 -0.0008590
4216000000 0.0032819 -0.0004329 0.9967181 0.0004329 0.9967181 0.0004329 0.0032819 -0.0004329
4237000000 0.0032914 -0.0000090 0.9967086 0.0000090 0.9967086 0.0000090 0.0032914 -0.0000090
4258000000 0.0033012 0.0004126 0.9966988 -0.0004126 0.9966988 -0.0004126 0.0033012 0.0004126
4279000000 0.0033114 0.0008321 0.9966886 -0.0008321 0.9966886 -0.0008321 0.0033114 0.0008321
4300000000 0.0033220 0.0012495 0.9966780 -0.0012495 0.9966780 -0.0012495 0.0033220 0.0012495
4321000000 0.0033329 0.0016648 0.9966671 -0.0016648 0.9966671 -0.0016648 0.0033329 0.0016648
4342000000 0.0033441 0.0020780 0.9966559 -0.0020780 0.9966559 -0.0020780 0.0033441 0.0020780
4363000000 0.0033556 0.0024892 0.9966444 -0.0024892 0.9966444 -0.0024892 0.0033556 0.0024892
4384000000 0.0033675 0.0028984 0.9966325 -0.0028984 0.9966325 -0.0028984 0.0033675 0.0028984
4405000000 0.0033796 0.0033056 0.9966204 -0.0033056 0.9966204 -0.0033056 0.0033796 0.0033056
4426000000 0.0033921 0.0037109 0.9966079 -0.0037109 0.9966079 -0.0037109 0.0033921 0.0037109
4447000000 0.0034049 0.0041142 0.9965951 -0.0041142 0.9965951 -0.0041142 0.0034049 0.0041142
4468000000 0.0034180 0.0045156 0.9965820 -0.0045156 0.9965820 -0.0045156 0.0034180 0.0045156
4489000000 0.0034314 0.0049152 0.9965686 -0.0049152 0.9965686 -0.0049152 0.0034314 0.0049152
4510000000 0.0034450 0.0053128 0.9965550 -0.0053128 0.9965550 -0.0053128 0.0034450 0.0053128
