!Murata Part Number: GRM0222C1H6R7WA03
!These Parameters are Measured in Series Mode Connection
!Data Generated on Mar 30, 2021
!       o--ll--o
!Port1            Port2
!       o------o
!Operation Temp=25[degC], DC Bias Voltage=0[V]
!Freq. Start=100[MHz] Stop=9[GHz] 401[Steps]
# Hz S RI R 50
!Freq.(Hz) S11(Real) S11(Imag) S21(Real) S21(Imag) S12(Real) S12(Imag) S22(Real) S22(Imag)
100000000 0.8491900 -0.3575658 0.1508100 0.3575658 0.1508100 0.3575658 0.8491900 -0.3575658
121000000 0.7935891 -0.4043677 0.2064109 0.4043677 0.2064109 0.4043677 0.7935891 -0.4043677
142000000 0.7361860 -0.4402748 0.2638140 0.4402748 0.2638140 0.4402748 0.7361860 -0.4402748
163000000 0.6791670 -0.4663076 0.3208330 0.4663076 0.3208330 0.4663076 0.6791670 -0.4663076
184000000 0.6241192 -0.4837955 0.3758808 0.4837955 0.3758808 0.4837955 0.6241192 -0.4837955
205000000 0.5720832 -0.4941572 0.4279168 0.4941572 0.4279168 0.4941572 0.5720832 -0.4941572
226000000 0.5236526 -0.4987545 0.4763474 0.4987545 0.4763474 0.4987545 0.5236526 -0.4987545
247000000 0.4790852 -0.4988096 0.5209148 0.4988096 0.5209148 0.4988096 0.4790852 -0.4988096
268000000 0.4384031 -0.4953706 0.5615969 0.4953706 0.5615969 0.4953706 0.4384031 -0.4953706
289000000 0.4014753 -0.4893073 0.5985247 0.4893073 0.5985247 0.4893073 0.4014753 -0.4893073
310000000 0.3680792 -0.4813238 0.6319208 0.4813238 0.6319208 0.4813238 0.3680792 -0.4813238
331000000 0.3379448 -0.4719797 0.6620552 0.4719797 0.6620552 0.4719797 0.3379448 -0.4719797
352000000 0.3107843 -0.4617130 0.6892157 0.4617130 0.6892157 0.4617130 0.3107843 -0.4617130
373000000 0.2863115 -0.4508622 0.7136885 0.4508622 0.7136885 0.4508622 0.2863115 -0.4508622
394000000 0.2642528 -0.4396860 0.7357472 0.4396860 0.7357472 0.4396860 0.2642528 -0.4396860
415000000 0.2443536 -0.4283796 0.7556464 0.4283796 0.7556464 0.4283796 0.2443536 -0.4283796
436000000 0.2263816 -0.4170888 0.7736184 0.4170888 0.7736184 0.4170888 0.2263816 -0.4170888
457000000 0.2101267 -0.4059207 0.7898733 0.4059207 0.7898733 0.4059207 0.2101267 -0.4059207
478000000 0.1954013 -0.3949527 0.8045987 0.3949527 0.8045987 0.3949527 0.1954013 -0.3949527
499000000 0.1820382 -0.3842392 0.8179618 0.3842392 0.8179618 0.3842392 0.1820382 -0.3842392
520000000 0.1698893 -0.3738173 0.8301107 0.3738173 0.8301107 0.3738173 0.1698893 -0.3738173
541000000 0.1588237 -0.3637105 0.8411763 0.3637105 0.8411763 0.3637105 0.1588237 -0.3637105
562000000 0.1487256 -0.3539325 0.8512744 0.3539325 0.8512744 0.3539325 0.1487256 -0.3539325
583000000 0.1394931 -0.3444895 0.8605069 0.3444895 0.8605069 0.3444895 0.1394931 -0.3444895
604000000 0.1310362 -0.3353821 0.8689638 0.3353821 0.8689638 0.3353821 0.1310362 -0.3353821
625000000 0.1232752 -0.3266067 0.8767248 0.3266067 0.8767248 0.3266067 0.1232752 -0.3266067
646000000 0.1161400 -0.3181568 0.8838600 0.3181568 0.8838600 0.3181568 0.1161400 -0.3181568
667000000 0.1095684 -0.3100240 0.8904316 0.3100240 0.8904316 0.3100240 0.1095684 -0.3100240
688000000 0.1035053 -0.3021982 0.8964947 0.3021982 0.8964947 0.3021982 0.1035053 -0.3021982
709000000 0.0979020 -0.2946685 0.9020980 0.2946685 0.9020980 0.2946685 0.0979020 -0.2946685
730000000 0.0927150 -0.2874236 0.9072850 0.2874236 0.9072850 0.2874236 0.0927150 -0.2874236
751000000 0.0879058 -0.2804519 0.9120942 0.2804519 0.9120942 0.2804519 0.0879058 -0.2804519
772000000 0.0834398 -0.2737416 0.9165602 0.2737416 0.9165602 0.2737416 0.0834398 -0.2737416
793000000 0.0792865 -0.2672813 0.9207135 0.2672813 0.9207135 0.2672813 0.0792865 -0.2672813
814000000 0.0754182 -0.2610597 0.9245818 0.2610597 0.9245818 0.2610597 0.0754182 -0.2610597
835000000 0.0718103 -0.2550657 0.9281897 0.2550657 0.9281897 0.2550657 0.0718103 -0.2550657
856000000 0.0684408 -0.2492889 0.9315592 0.2492889 0.9315592 0.2492889 0.0684408 -0.2492889
877000000 0.0652897 -0.2437189 0.9347103 0.2437189 0.9347103 0.2437189 0.0652897 -0.2437189
898000000 0.0623392 -0.2383461 0.9376608 0.2383461 0.9376608 0.2383461 0.0623392 -0.2383461
919000000 0.0595730 -0.2331611 0.9404270 0.2331611 0.9404270 0.2331611 0.0595730 -0.2331611
940000000 0.0569766 -0.2281551 0.9430234 0.2281551 0.9430234 0.2281551 0.0569766 -0.2281551
961000000 0.0545367 -0.2233196 0.9454633 0.2233196 0.9454633 0.2233196 0.0545367 -0.2233196
982000000 0.0522414 -0.2186465 0.9477586 0.2186465 0.9477586 0.2186465 0.0522414 -0.2186465
1003000000 0.0500797 -0.2141283 0.9499203 0.2141283 0.9499203 0.2141283 0.0500797 -0.2141283
1024000000 0.0480418 -0.2097578 0.9519582 0.2097578 0.9519582 0.2097578 0.0480418 -0.2097578
1045000000 0.0461186 -0.2055281 0.9538814 0.2055281 0.9538814 0.2055281 0.0461186 -0.2055281
1066000000 0.0443020 -0.2014327 0.9556980 0.2014327 0.9556980 0.2014327 0.0443020 -0.2014327
1087000000 0.0425843 -0.1974654 0.9574157 0.1974654 0.9574157 0.1974654 0.0425843 -0.1974654
1108000000 0.0409588 -0.1936206 0.9590412 0.1936206 0.9590412 0.1936206 0.0409588 -0.1936206
1129000000 0.0394191 -0.1898927 0.9605809 0.1898927 0.9605809 0.1898927 0.0394191 -0.1898927
1150000000 0.0379594 -0.1862764 0.9620406 0.1862764 0.9620406 0.1862764 0.0379594 -0.1862764
1171000000 0.0365745 -0.1827669 0.9634255 0.1827669 0.9634255 0.1827669 0.0365745 -0.1827669
1192000000 0.0352594 -0.1793595 0.9647406 0.1793595 0.9647406 0.1793595 0.0352594 -0.1793595
1213000000 0.0340097 -0.1760497 0.9659903 0.1760497 0.9659903 0.1760497 0.0340097 -0.1760497
1234000000 0.0328212 -0.1728335 0.9671788 0.1728335 0.9671788 0.1728335 0.0328212 -0.1728335
1255000000 0.0316900 -0.1697068 0.9683100 0.1697068 0.9683100 0.1697068 0.0316900 -0.1697068
1276000000 0.0306128 -0.1666658 0.9693872 0.1666658 0.9693872 0.1666658 0.0306128 -0.1666658
1297000000 0.0295861 -0.1637070 0.9704139 0.1637070 0.9704139 0.1637070 0.0295861 -0.1637070
1318000000 0.0286070 -0.1608271 0.9713930 0.1608271 0.9713930 0.1608271 0.0286070 -0.1608271
1339000000 0.0276726 -0.1580228 0.9723274 0.1580228 0.9723274 0.1580228 0.0276726 -0.1580228
1360000000 0.0267804 -0.1552910 0.9732196 0.1552910 0.9732196 0.1552910 0.0267804 -0.1552910
1381000000 0.0259279 -0.1526289 0.9740721 0.1526289 0.9740721 0.1526289 0.0259279 -0.1526289
1402000000 0.0251129 -0.1500338 0.9748871 0.1500338 0.9748871 0.1500338 0.0251129 -0.1500338
1423000000 0.0243333 -0.1475029 0.9756667 0.1475029 0.9756667 0.1475029 0.0243333 -0.1475029
1444000000 0.0235872 -0.1450339 0.9764128 0.1450339 0.9764128 0.1450339 0.0235872 -0.1450339
1465000000 0.0228726 -0.1426243 0.9771274 0.1426243 0.9771274 0.1426243 0.0228726 -0.1426243
1486000000 0.0221880 -0.1402720 0.9778120 0.1402720 0.9778120 0.1402720 0.0221880 -0.1402720
1507000000 0.0215316 -0.1379748 0.9784684 0.1379748 0.9784684 0.1379748 0.0215316 -0.1379748
1528000000 0.0209022 -0.1357306 0.9790978 0.1357306 0.9790978 0.1357306 0.0209022 -0.1357306
1549000000 0.0202982 -0.1335374 0.9797018 0.1335374 0.9797018 0.1335374 0.0202982 -0.1335374
1570000000 0.0197184 -0.1313936 0.9802816 0.1313936 0.9802816 0.1313936 0.0197184 -0.1313936
1591000000 0.0191615 -0.1292972 0.9808385 0.1292972 0.9808385 0.1292972 0.0191615 -0.1292972
1612000000 0.0186264 -0.1272466 0.9813736 0.1272466 0.9813736 0.1272466 0.0186264 -0.1272466
1633000000 0.0181120 -0.1252402 0.9818880 0.1252402 0.9818880 0.1252402 0.0181120 -0.1252402
1654000000 0.0176174 -0.1232764 0.9823826 0.1232764 0.9823826 0.1232764 0.0176174 -0.1232764
1675000000 0.0171415 -0.1213538 0.9828585 0.1213538 0.9828585 0.1213538 0.0171415 -0.1213538
1696000000 0.0166835 -0.1194710 0.9833165 0.1194710 0.9833165 0.1194710 0.0166835 -0.1194710
1717000000 0.0162426 -0.1176266 0.9837574 0.1176266 0.9837574 0.1176266 0.0162426 -0.1176266
1738000000 0.0158179 -0.1158194 0.9841821 0.1158194 0.9841821 0.1158194 0.0158179 -0.1158194
1759000000 0.0154087 -0.1140480 0.9845913 0.1140480 0.9845913 0.1140480 0.0154087 -0.1140480
1780000000 0.0150143 -0.1123114 0.9849857 0.1123114 0.9849857 0.1123114 0.0150143 -0.1123114
1801000000 0.0146341 -0.1106085 0.9853659 0.1106085 0.9853659 0.1106085 0.0146341 -0.1106085
1822000000 0.0142674 -0.1089380 0.9857326 0.1089380 0.9857326 0.1089380 0.0142674 -0.1089380
1843000000 0.0139136 -0.1072991 0.9860864 0.1072991 0.9860864 0.1072991 0.0139136 -0.1072991
1864000000 0.0135722 -0.1056907 0.9864278 0.1056907 0.9864278 0.1056907 0.0135722 -0.1056907
1885000000 0.0132426 -0.1041118 0.9867574 0.1041118 0.9867574 0.1041118 0.0132426 -0.1041118
1906000000 0.0129243 -0.1025616 0.9870757 0.1025616 0.9870757 0.1025616 0.0129243 -0.1025616
1927000000 0.0126169 -0.1010391 0.9873831 0.1010391 0.9873831 0.1010391 0.0126169 -0.1010391
1948000000 0.0123199 -0.0995436 0.9876801 0.0995436 0.9876801 0.0995436 0.0123199 -0.0995436
1969000000 0.0120329 -0.0980741 0.9879671 0.0980741 0.9879671 0.0980741 0.0120329 -0.0980741
1990000000 0.0117555 -0.0966301 0.9882445 0.0966301 0.9882445 0.0966301 0.0117555 -0.0966301
2011000000 0.0114872 -0.0952106 0.9885128 0.0952106 0.9885128 0.0952106 0.0114872 -0.0952106
2032000000 0.0112278 -0.0938149 0.9887722 0.0938149 0.9887722 0.0938149 0.0112278 -0.0938149
2053000000 0.0109768 -0.0924425 0.9890232 0.0924425 0.9890232 0.0924425 0.0109768 -0.0924425
2074000000 0.0107340 -0.0910926 0.9892660 0.0910926 0.9892660 0.0910926 0.0107340 -0.0910926
2095000000 0.0104990 -0.0897645 0.9895010 0.0897645 0.9895010 0.0897645 0.0104990 -0.0897645
2116000000 0.0102715 -0.0884577 0.9897285 0.0884577 0.9897285 0.0884577 0.0102715 -0.0884577
2137000000 0.0100513 -0.0871716 0.9899487 0.0871716 0.9899487 0.0871716 0.0100513 -0.0871716
2158000000 0.0098381 -0.0859056 0.9901619 0.0859056 0.9901619 0.0859056 0.0098381 -0.0859056
2179000000 0.0096316 -0.0846591 0.9903684 0.0846591 0.9903684 0.0846591 0.0096316 -0.0846591
2200000000 0.0094315 -0.0834316 0.9905685 0.0834316 0.9905685 0.0834316 0.0094315 -0.0834316
2221000000 0.0092377 -0.0822227 0.9907623 0.0822227 0.9907623 0.0822227 0.0092377 -0.0822227
2242000000 0.0090499 -0.0810317 0.9909501 0.0810317 0.9909501 0.0810317 0.0090499 -0.0810317
2263000000 0.0088679 -0.0798582 0.9911321 0.0798582 0.9911321 0.0798582 0.0088679 -0.0798582
2284000000 0.0086915 -0.0787018 0.9913085 0.0787018 0.9913085 0.0787018 0.0086915 -0.0787018
2305000000 0.0085205 -0.0775621 0.9914795 0.0775621 0.9914795 0.0775621 0.0085205 -0.0775621
2326000000 0.0083547 -0.0764385 0.9916453 0.0764385 0.9916453 0.0764385 0.0083547 -0.0764385
2347000000 0.0081939 -0.0753307 0.9918061 0.0753307 0.9918061 0.0753307 0.0081939 -0.0753307
2368000000 0.0080379 -0.0742383 0.9919621 0.0742383 0.9919621 0.0742383 0.0080379 -0.0742383
2389000000 0.0078867 -0.0731608 0.9921133 0.0731608 0.9921133 0.0731608 0.0078867 -0.0731608
2410000000 0.0077400 -0.0720980 0.9922600 0.0720980 0.9922600 0.0720980 0.0077400 -0.0720980
2431000000 0.0075977 -0.0710494 0.9924023 0.0710494 0.9924023 0.0710494 0.0075977 -0.0710494
2452000000 0.0074597 -0.0700148 0.9925403 0.0700148 0.9925403 0.0700148 0.0074597 -0.0700148
2473000000 0.0073257 -0.0689936 0.9926743 0.0689936 0.9926743 0.0689936 0.0073257 -0.0689936
2494000000 0.0071957 -0.0679858 0.9928043 0.0679858 0.9928043 0.0679858 0.0071957 -0.0679858
2515000000 0.0070696 -0.0669908 0.9929304 0.0669908 0.9929304 0.0669908 0.0070696 -0.0669908
2536000000 0.0069472 -0.0660084 0.9930528 0.0660084 0.9930528 0.0660084 0.0069472 -0.0660084
2557000000 0.0068284 -0.0650383 0.9931716 0.0650383 0.9931716 0.0650383 0.0068284 -0.0650383
2578000000 0.0067131 -0.0640803 0.9932869 0.0640803 0.9932869 0.0640803 0.0067131 -0.0640803
2599000000 0.0066011 -0.0631340 0.9933989 0.0631340 0.9933989 0.0631340 0.0066011 -0.0631340
2620000000 0.0064925 -0.0621991 0.9935075 0.0621991 0.9935075 0.0621991 0.0064925 -0.0621991
2641000000 0.0063871 -0.0612755 0.9936129 0.0612755 0.9936129 0.0612755 0.0063871 -0.0612755
2662000000 0.0062847 -0.0603628 0.9937153 0.0603628 0.9937153 0.0603628 0.0062847 -0.0603628
2683000000 0.0061854 -0.0594608 0.9938146 0.0594608 0.9938146 0.0594608 0.0061854 -0.0594608
2704000000 0.0060889 -0.0585692 0.9939111 0.0585692 0.9939111 0.0585692 0.0060889 -0.0585692
2725000000 0.0059953 -0.0576879 0.9940047 0.0576879 0.9940047 0.0576879 0.0059953 -0.0576879
2746000000 0.0059044 -0.0568166 0.9940956 0.0568166 0.9940956 0.0568166 0.0059044 -0.0568166
2767000000 0.0058162 -0.0559551 0.9941838 0.0559551 0.9941838 0.0559551 0.0058162 -0.0559551
2788000000 0.0057305 -0.0551031 0.9942695 0.0551031 0.9942695 0.0551031 0.0057305 -0.0551031
2809000000 0.0056474 -0.0542605 0.9943526 0.0542605 0.9943526 0.0542605 0.0056474 -0.0542605
2830000000 0.0055668 -0.0534271 0.9944332 0.0534271 0.9944332 0.0534271 0.0055668 -0.0534271
2851000000 0.0054885 -0.0526026 0.9945115 0.0526026 0.9945115 0.0526026 0.0054885 -0.0526026
2872000000 0.0054125 -0.0517869 0.9945875 0.0517869 0.9945875 0.0517869 0.0054125 -0.0517869
2893000000 0.0053387 -0.0509798 0.9946613 0.0509798 0.9946613 0.0509798 0.0053387 -0.0509798
2914000000 0.0052672 -0.0501812 0.9947328 0.0501812 0.9947328 0.0501812 0.0052672 -0.0501812
2935000000 0.0051978 -0.0493907 0.9948022 0.0493907 0.9948022 0.0493907 0.0051978 -0.0493907
2956000000 0.0051304 -0.0486083 0.9948696 0.0486083 0.9948696 0.0486083 0.0051304 -0.0486083
2977000000 0.0050651 -0.0478338 0.9949349 0.0478338 0.9949349 0.0478338 0.0050651 -0.0478338
2998000000 0.0050017 -0.0470671 0.9949983 0.0470671 0.9949983 0.0470671 0.0050017 -0.0470671
3019000000 0.0049402 -0.0463079 0.9950598 0.0463079 0.9950598 0.0463079 0.0049402 -0.0463079
3040000000 0.0048806 -0.0455562 0.9951194 0.0455562 0.9951194 0.0455562 0.0048806 -0.0455562
3061000000 0.0048228 -0.0448118 0.9951772 0.0448118 0.9951772 0.0448118 0.0048228 -0.0448118
3082000000 0.0047668 -0.0440745 0.9952332 0.0440745 0.9952332 0.0440745 0.0047668 -0.0440745
3103000000 0.0047125 -0.0433442 0.9952875 0.0433442 0.9952875 0.0433442 0.0047125 -0.0433442
3124000000 0.0046599 -0.0426208 0.9953401 0.0426208 0.9953401 0.0426208 0.0046599 -0.0426208
3145000000 0.0046089 -0.0419041 0.9953911 0.0419041 0.9953911 0.0419041 0.0046089 -0.0419041
3166000000 0.0045595 -0.0411940 0.9954405 0.0411940 0.9954405 0.0411940 0.0045595 -0.0411940
3187000000 0.0045117 -0.0404904 0.9954883 0.0404904 0.9954883 0.0404904 0.0045117 -0.0404904
3208000000 0.0044654 -0.0397931 0.9955346 0.0397931 0.9955346 0.0397931 0.0044654 -0.0397931
3229000000 0.0044206 -0.0391021 0.9955794 0.0391021 0.9955794 0.0391021 0.0044206 -0.0391021
3250000000 0.0043772 -0.0384172 0.9956228 0.0384172 0.9956228 0.0384172 0.0043772 -0.0384172
3271000000 0.0043353 -0.0377383 0.9956647 0.0377383 0.9956647 0.0377383 0.0043353 -0.0377383
3292000000 0.0042947 -0.0370653 0.9957053 0.0370653 0.9957053 0.0370653 0.0042947 -0.0370653
3313000000 0.0042555 -0.0363981 0.9957445 0.0363981 0.9957445 0.0363981 0.0042555 -0.0363981
3334000000 0.0042176 -0.0357366 0.9957824 0.0357366 0.9957824 0.0357366 0.0042176 -0.0357366
3355000000 0.0041810 -0.0350806 0.9958190 0.0350806 0.9958190 0.0350806 0.0041810 -0.0350806
3376000000 0.0041456 -0.0344301 0.9958544 0.0344301 0.9958544 0.0344301 0.0041456 -0.0344301
3397000000 0.0041115 -0.0337850 0.9958885 0.0337850 0.9958885 0.0337850 0.0041115 -0.0337850
3418000000 0.0040786 -0.0331451 0.9959214 0.0331451 0.9959214 0.0331451 0.0040786 -0.0331451
3439000000 0.0040468 -0.0325105 0.9959532 0.0325105 0.9959532 0.0325105 0.0040468 -0.0325105
3460000000 0.0040162 -0.0318809 0.9959838 0.0318809 0.9959838 0.0318809 0.0040162 -0.0318809
3481000000 0.0039867 -0.0312564 0.9960133 0.0312564 0.9960133 0.0312564 0.0039867 -0.0312564
3502000000 0.0039584 -0.0306368 0.9960416 0.0306368 0.9960416 0.0306368 0.0039584 -0.0306368
3523000000 0.0039311 -0.0300220 0.9960689 0.0300220 0.9960689 0.0300220 0.0039311 -0.0300220
3544000000 0.0039048 -0.0294119 0.9960952 0.0294119 0.9960952 0.0294119 0.0039048 -0.0294119
3565000000 0.0038796 -0.0288066 0.9961204 0.0288066 0.9961204 0.0288066 0.0038796 -0.0288066
3586000000 0.0038554 -0.0282058 0.9961446 0.0282058 0.9961446 0.0282058 0.0038554 -0.0282058
3607000000 0.0038321 -0.0276095 0.9961679 0.0276095 0.9961679 0.0276095 0.0038321 -0.0276095
3628000000 0.0038099 -0.0270177 0.9961901 0.0270177 0.9961901 0.0270177 0.0038099 -0.0270177
3649000000 0.0037886 -0.0264302 0.9962114 0.0264302 0.9962114 0.0264302 0.0037886 -0.0264302
3670000000 0.0037682 -0.0258471 0.9962318 0.0258471 0.9962318 0.0258471 0.0037682 -0.0258471
3691000000 0.0037487 -0.0252681 0.9962513 0.0252681 0.9962513 0.0252681 0.0037487 -0.0252681
3712000000 0.0037301 -0.0246933 0.9962699 0.0246933 0.9962699 0.0246933 0.0037301 -0.0246933
3733000000 0.0037124 -0.0241226 0.9962876 0.0241226 0.9962876 0.0241226 0.0037124 -0.0241226
3754000000 0.0036955 -0.0235559 0.9963045 0.0235559 0.9963045 0.0235559 0.0036955 -0.0235559
3775000000 0.0036795 -0.0229932 0.9963205 0.0229932 0.9963205 0.0229932 0.0036795 -0.0229932
3796000000 0.0036642 -0.0224343 0.9963358 0.0224343 0.9963358 0.0224343 0.0036642 -0.0224343
3817000000 0.0036498 -0.0218793 0.9963502 0.0218793 0.9963502 0.0218793 0.0036498 -0.0218793
3838000000 0.0036362 -0.0213280 0.9963638 0.0213280 0.9963638 0.0213280 0.0036362 -0.0213280
3859000000 0.0036233 -0.0207805 0.9963767 0.0207805 0.9963767 0.0207805 0.0036233 -0.0207805
3880000000 0.0036113 -0.0202365 0.9963887 0.0202365 0.9963887 0.0202365 0.0036113 -0.0202365
3901000000 0.0035999 -0.0196962 0.9964001 0.0196962 0.9964001 0.0196962 0.0035999 -0.0196962
3922000000 0.0035893 -0.0191594 0.9964107 0.0191594 0.9964107 0.0191594 0.0035893 -0.0191594
3943000000 0.0035794 -0.0186261 0.9964206 0.0186261 0.9964206 0.0186261 0.0035794 -0.0186261
3964000000 0.0035702 -0.0180963 0.9964298 0.0180963 0.9964298 0.0180963 0.0035702 -0.0180963
3985000000 0.0035617 -0.0175698 0.9964383 0.0175698 0.9964383 0.0175698 0.0035617 -0.0175698
4006000000 0.0035538 -0.0170466 0.9964462 0.0170466 0.9964462 0.0170466 0.0035538 -0.0170466
4027000000 0.0035467 -0.0165267 0.9964533 0.0165267 0.9964533 0.0165267 0.0035467 -0.0165267
4048000000 0.0035401 -0.0160101 0.9964599 0.0160101 0.9964599 0.0160101 0.0035401 -0.0160101
4069000000 0.0035343 -0.0154966 0.9964657 0.0154966 0.9964657 0.0154966 0.0035343 -0.0154966
4090000000 0.0035290 -0.0149862 0.9964710 0.0149862 0.9964710 0.0149862 0.0035290 -0.0149862
4111000000 0.0035244 -0.0144789 0.9964756 0.0144789 0.9964756 0.0144789 0.0035244 -0.0144789
4132000000 0.0035203 -0.0139747 0.9964797 0.0139747 0.9964797 0.0139747 0.0035203 -0.0139747
4153000000 0.0035169 -0.0134735 0.9964831 0.0134735 0.9964831 0.0134735 0.0035169 -0.0134735
4174000000 0.0035141 -0.0129752 0.9964859 0.0129752 0.9964859 0.0129752 0.0035141 -0.0129752
4195000000 0.0035118 -0.0124798 0.9964882 0.0124798 0.9964882 0.0124798 0.0035118 -0.0124798
4216000000 0.0035101 -0.0119873 0.9964899 0.0119873 0.9964899 0.0119873 0.0035101 -0.0119873
4237000000 0.0035089 -0.0114976 0.9964911 0.0114976 0.9964911 0.0114976 0.0035089 -0.0114976
4258000000 0.0035083 -0.0110107 0.9964917 0.0110107 0.9964917 0.0110107 0.0035083 -0.0110107
4279000000 0.0035083 -0.0105265 0.9964917 0.0105265 0.9964917 0.0105265 0.0035083 -0.0105265
4300000000 0.0035087 -0.0100450 0.9964913 0.0100450 0.9964913 0.0100450 0.0035087 -0.0100450
4321000000 0.0035097 -0.0095663 0.9964903 0.0095663 0.9964903 0.0095663 0.0035097 -0.0095663
4342000000 0.0035112 -0.0090901 0.9964888 0.0090901 0.9964888 0.0090901 0.0035112 -0.0090901
4363000000 0.0035132 -0.0086165 0.9964868 0.0086165 0.9964868 0.0086165 0.0035132 -0.0086165
4384000000 0.0035157 -0.0081455 0.9964843 0.0081455 0.9964843 0.0081455 0.0035157 -0.0081455
4405000000 0.0035186 -0.0076771 0.9964814 0.0076771 0.9964814 0.0076771 0.0035186 -0.0076771
4426000000 0.0035221 -0.0072111 0.9964779 0.0072111 0.9964779 0.0072111 0.0035221 -0.0072111
4447000000 0.0035260 -0.0067475 0.9964740 0.0067475 0.9964740 0.0067475 0.0035260 -0.0067475
4468000000 0.0035304 -0.0062864 0.9964696 0.0062864 0.9964696 0.0062864 0.0035304 -0.0062864
4489000000 0.0035352 -0.0058277 0.9964648 0.0058277 0.9964648 0.0058277 0.0035352 -0.0058277
4510000000 0.0035405 -0.0053714 0.9964595 0.0053714 0.9964595 0.0053714 0.0035405 -0.0053714
