!Murata Part Number: GRM0222C1C220JA02
!These Parameters are Measured in Series Mode Connection
!Data Generated on Mar 30, 2021
!       o--ll--o
!Port1            Port2
!       o------o
!Operation Temp=25[degC], DC Bias Voltage=0[V]
!Freq. Start=100[MHz] Stop=9[GHz] 401[Steps]
# Hz S RI R 50
!Freq.(Hz) S11(Real) S11(Imag) S21(Real) S21(Imag) S12(Real) S12(Imag) S22(Real) S22(Imag)
100000000 0.3432338 -0.4735309 0.6567662 0.4735309 0.6567662 0.4735309 0.3432338 -0.4735309
121000000 0.2630904 -0.4387877 0.7369096 0.4387877 0.7369096 0.4387877 0.2630904 -0.4387877
142000000 0.2059011 -0.4025690 0.7940989 0.4025690 0.7940989 0.4025690 0.2059011 -0.4025690
163000000 0.1644631 -0.3686387 0.8355369 0.3686387 0.8355369 0.3686387 0.1644631 -0.3686387
184000000 0.1338376 -0.3381531 0.8661624 0.3381531 0.8661624 0.3381531 0.1338376 -0.3381531
205000000 0.1107371 -0.3112125 0.8892629 0.3112125 0.8892629 0.3112125 0.1107371 -0.3112125
226000000 0.0929720 -0.2875289 0.9070280 0.2875289 0.9070280 0.2875289 0.0929720 -0.2875289
247000000 0.0790649 -0.2667039 0.9209351 0.2667039 0.9209351 0.2667039 0.0790649 -0.2667039
268000000 0.0680014 -0.2483391 0.9319986 0.2483391 0.9319986 0.2483391 0.0680014 -0.2483391
289000000 0.0590722 -0.2320755 0.9409278 0.2320755 0.9409278 0.2320755 0.0590722 -0.2320755
310000000 0.0517713 -0.2176041 0.9482287 0.2176041 0.9482287 0.2176041 0.0517713 -0.2176041
331000000 0.0457319 -0.2046638 0.9542681 0.2046638 0.9542681 0.2046638 0.0457319 -0.2046638
352000000 0.0406835 -0.1930363 0.9593165 0.1930363 0.9593165 0.1930363 0.0406835 -0.1930363
373000000 0.0364234 -0.1825389 0.9635766 0.1825389 0.9635766 0.1825389 0.0364234 -0.1825389
394000000 0.0327976 -0.1730194 0.9672024 0.1730194 0.9672024 0.1730194 0.0327976 -0.1730194
415000000 0.0296877 -0.1643498 0.9703123 0.1643498 0.9703123 0.1643498 0.0296877 -0.1643498
436000000 0.0270012 -0.1564228 0.9729988 0.1564228 0.9729988 0.1564228 0.0270012 -0.1564228
457000000 0.0246655 -0.1491473 0.9753345 0.1491473 0.9753345 0.1491473 0.0246655 -0.1491473
478000000 0.0226227 -0.1424464 0.9773773 0.1424464 0.9773773 0.1424464 0.0226227 -0.1424464
499000000 0.0208264 -0.1362542 0.9791736 0.1362542 0.9791736 0.1362542 0.0208264 -0.1362542
520000000 0.0192389 -0.1305143 0.9807611 0.1305143 0.9807611 0.1305143 0.0192389 -0.1305143
541000000 0.0178293 -0.1251782 0.9821707 0.1251782 0.9821707 0.1251782 0.0178293 -0.1251782
562000000 0.0165725 -0.1202038 0.9834275 0.1202038 0.9834275 0.1202038 0.0165725 -0.1202038
583000000 0.0154474 -0.1155548 0.9845526 0.1155548 0.9845526 0.1155548 0.0154474 -0.1155548
604000000 0.0144365 -0.1111992 0.9855635 0.1111992 0.9855635 0.1111992 0.0144365 -0.1111992
625000000 0.0135251 -0.1071092 0.9864749 0.1071092 0.9864749 0.1071092 0.0135251 -0.1071092
646000000 0.0127007 -0.1032603 0.9872993 0.1032603 0.9872993 0.1032603 0.0127007 -0.1032603
667000000 0.0119529 -0.0996309 0.9880471 0.0996309 0.9880471 0.0996309 0.0119529 -0.0996309
688000000 0.0112726 -0.0962018 0.9887274 0.0962018 0.9887274 0.0962018 0.0112726 -0.0962018
709000000 0.0106521 -0.0929560 0.9893479 0.0929560 0.9893479 0.0929560 0.0106521 -0.0929560
730000000 0.0100847 -0.0898785 0.9899153 0.0898785 0.9899153 0.0898785 0.0100847 -0.0898785
751000000 0.0095649 -0.0869555 0.9904351 0.0869555 0.9904351 0.0869555 0.0095649 -0.0869555
772000000 0.0090874 -0.0841750 0.9909126 0.0841750 0.9909126 0.0841750 0.0090874 -0.0841750
793000000 0.0086481 -0.0815261 0.9913519 0.0815261 0.9913519 0.0815261 0.0086481 -0.0815261
814000000 0.0082430 -0.0789989 0.9917570 0.0789989 0.9917570 0.0789989 0.0082430 -0.0789989
835000000 0.0078689 -0.0765846 0.9921311 0.0765846 0.9921311 0.0765846 0.0078689 -0.0765846
856000000 0.0075229 -0.0742750 0.9924771 0.0742750 0.9924771 0.0742750 0.0075229 -0.0742750
877000000 0.0072022 -0.0720630 0.9927978 0.0720630 0.9927978 0.0720630 0.0072022 -0.0720630
898000000 0.0069047 -0.0699418 0.9930953 0.0699418 0.9930953 0.0699418 0.0069047 -0.0699418
919000000 0.0066282 -0.0679054 0.9933718 0.0679054 0.9933718 0.0679054 0.0066282 -0.0679054
940000000 0.0063710 -0.0659482 0.9936290 0.0659482 0.9936290 0.0659482 0.0063710 -0.0659482
961000000 0.0061314 -0.0640652 0.9938686 0.0640652 0.9938686 0.0640652 0.0061314 -0.0640652
982000000 0.0059080 -0.0622518 0.9940920 0.0622518 0.9940920 0.0622518 0.0059080 -0.0622518
1003000000 0.0056994 -0.0605037 0.9943006 0.0605037 0.9943006 0.0605037 0.0056994 -0.0605037
1024000000 0.0055046 -0.0588169 0.9944954 0.0588169 0.9944954 0.0588169 0.0055046 -0.0588169
1045000000 0.0053223 -0.0571878 0.9946777 0.0571878 0.9946777 0.0571878 0.0053223 -0.0571878
1066000000 0.0051517 -0.0556132 0.9948483 0.0556132 0.9948483 0.0556132 0.0051517 -0.0556132
1087000000 0.0049919 -0.0540899 0.9950081 0.0540899 0.9950081 0.0540899 0.0049919 -0.0540899
1108000000 0.0048420 -0.0526150 0.9951580 0.0526150 0.9951580 0.0526150 0.0048420 -0.0526150
1129000000 0.0047015 -0.0511859 0.9952985 0.0511859 0.9952985 0.0511859 0.0047015 -0.0511859
1150000000 0.0045696 -0.0498002 0.9954304 0.0498002 0.9954304 0.0498002 0.0045696 -0.0498002
1171000000 0.0044457 -0.0484555 0.9955543 0.0484555 0.9955543 0.0484555 0.0044457 -0.0484555
1192000000 0.0043294 -0.0471497 0.9956706 0.0471497 0.9956706 0.0471497 0.0043294 -0.0471497
1213000000 0.0042200 -0.0458809 0.9957800 0.0458809 0.9957800 0.0458809 0.0042200 -0.0458809
1234000000 0.0041172 -0.0446472 0.9958828 0.0446472 0.9958828 0.0446472 0.0041172 -0.0446472
1255000000 0.0040204 -0.0434468 0.9959796 0.0434468 0.9959796 0.0434468 0.0040204 -0.0434468
1276000000 0.0039295 -0.0422782 0.9960705 0.0422782 0.9960705 0.0422782 0.0039295 -0.0422782
1297000000 0.0038439 -0.0411398 0.9961561 0.0411398 0.9961561 0.0411398 0.0038439 -0.0411398
1318000000 0.0037633 -0.0400302 0.9962367 0.0400302 0.9962367 0.0400302 0.0037633 -0.0400302
1339000000 0.0036876 -0.0389481 0.9963124 0.0389481 0.9963124 0.0389481 0.0036876 -0.0389481
1360000000 0.0036162 -0.0378922 0.9963838 0.0378922 0.9963838 0.0378922 0.0036162 -0.0378922
1381000000 0.0035492 -0.0368613 0.9964508 0.0368613 0.9964508 0.0368613 0.0035492 -0.0368613
1402000000 0.0034860 -0.0358544 0.9965140 0.0358544 0.9965140 0.0358544 0.0034860 -0.0358544
1423000000 0.0034267 -0.0348704 0.9965733 0.0348704 0.9965733 0.0348704 0.0034267 -0.0348704
1444000000 0.0033709 -0.0339083 0.9966291 0.0339083 0.9966291 0.0339083 0.0033709 -0.0339083
1465000000 0.0033185 -0.0329672 0.9966815 0.0329672 0.9966815 0.0329672 0.0033185 -0.0329672
1486000000 0.0032692 -0.0320462 0.9967308 0.0320462 0.9967308 0.0320462 0.0032692 -0.0320462
1507000000 0.0032229 -0.0311445 0.9967771 0.0311445 0.9967771 0.0311445 0.0032229 -0.0311445
1528000000 0.0031796 -0.0302613 0.9968204 0.0302613 0.9968204 0.0302613 0.0031796 -0.0302613
1549000000 0.0031389 -0.0293959 0.9968611 0.0293959 0.9968611 0.0293959 0.0031389 -0.0293959
1570000000 0.0031008 -0.0285476 0.9968992 0.0285476 0.9968992 0.0285476 0.0031008 -0.0285476
1591000000 0.0030652 -0.0277156 0.9969348 0.0277156 0.9969348 0.0277156 0.0030652 -0.0277156
1612000000 0.0030319 -0.0268994 0.9969681 0.0268994 0.9969681 0.0268994 0.0030319 -0.0268994
1633000000 0.0030008 -0.0260984 0.9969992 0.0260984 0.9969992 0.0260984 0.0030008 -0.0260984
1654000000 0.0029718 -0.0253120 0.9970282 0.0253120 0.9970282 0.0253120 0.0029718 -0.0253120
1675000000 0.0029449 -0.0245397 0.9970551 0.0245397 0.9970551 0.0245397 0.0029449 -0.0245397
1696000000 0.0029199 -0.0237809 0.9970801 0.0237809 0.9970801 0.0237809 0.0029199 -0.0237809
1717000000 0.0028967 -0.0230351 0.9971033 0.0230351 0.9971033 0.0230351 0.0028967 -0.0230351
1738000000 0.0028753 -0.0223020 0.9971247 0.0223020 0.9971247 0.0223020 0.0028753 -0.0223020
1759000000 0.0028556 -0.0215810 0.9971444 0.0215810 0.9971444 0.0215810 0.0028556 -0.0215810
1780000000 0.0028374 -0.0208718 0.9971626 0.0208718 0.9971626 0.0208718 0.0028374 -0.0208718
1801000000 0.0028209 -0.0201739 0.9971791 0.0201739 0.9971791 0.0201739 0.0028209 -0.0201739
1822000000 0.0028058 -0.0194869 0.9971942 0.0194869 0.9971942 0.0194869 0.0028058 -0.0194869
1843000000 0.0027921 -0.0188106 0.9972079 0.0188106 0.9972079 0.0188106 0.0027921 -0.0188106
1864000000 0.0027798 -0.0181444 0.9972202 0.0181444 0.9972202 0.0181444 0.0027798 -0.0181444
1885000000 0.0027688 -0.0174882 0.9972312 0.0174882 0.9972312 0.0174882 0.0027688 -0.0174882
1906000000 0.0027590 -0.0168415 0.9972410 0.0168415 0.9972410 0.0168415 0.0027590 -0.0168415
1927000000 0.0027505 -0.0162040 0.9972495 0.0162040 0.9972495 0.0162040 0.0027505 -0.0162040
1948000000 0.0027431 -0.0155756 0.9972569 0.0155756 0.9972569 0.0155756 0.0027431 -0.0155756
1969000000 0.0027368 -0.0149558 0.9972632 0.0149558 0.9972632 0.0149558 0.0027368 -0.0149558
1990000000 0.0027316 -0.0143445 0.9972684 0.0143445 0.9972684 0.0143445 0.0027316 -0.0143445
2011000000 0.0027274 -0.0137413 0.9972726 0.0137413 0.9972726 0.0137413 0.0027274 -0.0137413
2032000000 0.0027242 -0.0131461 0.9972758 0.0131461 0.9972758 0.0131461 0.0027242 -0.0131461
2053000000 0.0027220 -0.0125585 0.9972780 0.0125585 0.9972780 0.0125585 0.0027220 -0.0125585
2074000000 0.0027207 -0.0119784 0.9972793 0.0119784 0.9972793 0.0119784 0.0027207 -0.0119784
2095000000 0.0027203 -0.0114055 0.9972797 0.0114055 0.9972797 0.0114055 0.0027203 -0.0114055
2116000000 0.0027207 -0.0108396 0.9972793 0.0108396 0.9972793 0.0108396 0.0027207 -0.0108396
2137000000 0.0027220 -0.0102805 0.9972780 0.0102805 0.9972780 0.0102805 0.0027220 -0.0102805
2158000000 0.0027241 -0.0097281 0.9972759 0.0097281 0.9972759 0.0097281 0.0027241 -0.0097281
2179000000 0.0027269 -0.0091821 0.9972731 0.0091821 0.9972731 0.0091821 0.0027269 -0.0091821
2200000000 0.0027305 -0.0086423 0.9972695 0.0086423 0.9972695 0.0086423 0.0027305 -0.0086423
2221000000 0.0027349 -0.0081086 0.9972651 0.0081086 0.9972651 0.0081086 0.0027349 -0.0081086
2242000000 0.0027399 -0.0075809 0.9972601 0.0075809 0.9972601 0.0075809 0.0027399 -0.0075809
2263000000 0.0027456 -0.0070589 0.9972544 0.0070589 0.9972544 0.0070589 0.0027456 -0.0070589
2284000000 0.0027520 -0.0065425 0.9972480 0.0065425 0.9972480 0.0065425 0.0027520 -0.0065425
2305000000 0.0027590 -0.0060315 0.9972410 0.0060315 0.9972410 0.0060315 0.0027590 -0.0060315
2326000000 0.0027667 -0.0055259 0.9972333 0.0055259 0.9972333 0.0055259 0.0027667 -0.0055259
2347000000 0.0027749 -0.0050254 0.9972251 0.0050254 0.9972251 0.0050254 0.0027749 -0.0050254
2368000000 0.0027837 -0.0045299 0.9972163 0.0045299 0.9972163 0.0045299 0.0027837 -0.0045299
2389000000 0.0027931 -0.0040394 0.9972069 0.0040394 0.9972069 0.0040394 0.0027931 -0.0040394
2410000000 0.0028030 -0.0035536 0.9971970 0.0035536 0.9971970 0.0035536 0.0028030 -0.0035536
2431000000 0.0028135 -0.0030725 0.9971865 0.0030725 0.9971865 0.0030725 0.0028135 -0.0030725
2452000000 0.0028244 -0.0025959 0.9971756 0.0025959 0.9971756 0.0025959 0.0028244 -0.0025959
2473000000 0.0028359 -0.0021237 0.9971641 0.0021237 0.9971641 0.0021237 0.0028359 -0.0021237
2494000000 0.0028479 -0.0016559 0.9971521 0.0016559 0.9971521 0.0016559 0.0028479 -0.0016559
2515000000 0.0028603 -0.0011923 0.9971397 0.0011923 0.9971397 0.0011923 0.0028603 -0.0011923
2536000000 0.0028732 -0.0007327 0.9971268 0.0007327 0.9971268 0.0007327 0.0028732 -0.0007327
2557000000 0.0028865 -0.0002772 0.9971135 0.0002772 0.9971135 0.0002772 0.0028865 -0.0002772
2578000000 0.0029003 0.0001744 0.9970997 -0.0001744 0.9970997 -0.0001744 0.0029003 0.0001744
2599000000 0.0029145 0.0006221 0.9970855 -0.0006221 0.9970855 -0.0006221 0.0029145 0.0006221
2620000000 0.0029292 0.0010662 0.9970708 -0.0010662 0.9970708 -0.0010662 0.0029292 0.0010662
2641000000 0.0029442 0.0015066 0.9970558 -0.0015066 0.9970558 -0.0015066 0.0029442 0.0015066
2662000000 0.0029596 0.0019434 0.9970404 -0.0019434 0.9970404 -0.0019434 0.0029596 0.0019434
2683000000 0.0029754 0.0023768 0.9970246 -0.0023768 0.9970246 -0.0023768 0.0029754 0.0023768
2704000000 0.0029916 0.0028067 0.9970084 -0.0028067 0.9970084 -0.0028067 0.0029916 0.0028067
2725000000 0.0030081 0.0032334 0.9969919 -0.0032334 0.9969919 -0.0032334 0.0030081 0.0032334
2746000000 0.0030250 0.0036567 0.9969750 -0.0036567 0.9969750 -0.0036567 0.0030250 0.0036567
2767000000 0.0030423 0.0040770 0.9969577 -0.0040770 0.9969577 -0.0040770 0.0030423 0.0040770
2788000000 0.0030599 0.0044941 0.9969401 -0.0044941 0.9969401 -0.0044941 0.0030599 0.0044941
2809000000 0.0030778 0.0049081 0.9969222 -0.0049081 0.9969222 -0.0049081 0.0030778 0.0049081
2830000000 0.0030960 0.0053192 0.9969040 -0.0053192 0.9969040 -0.0053192 0.0030960 0.0053192
2851000000 0.0031146 0.0057274 0.9968854 -0.0057274 0.9968854 -0.0057274 0.0031146 0.0057274
2872000000 0.0031335 0.0061327 0.9968665 -0.0061327 0.9968665 -0.0061327 0.0031335 0.0061327
2893000000 0.0031526 0.0065353 0.9968474 -0.0065353 0.9968474 -0.0065353 0.0031526 0.0065353
2914000000 0.0031721 0.0069351 0.9968279 -0.0069351 0.9968279 -0.0069351 0.0031721 0.0069351
2935000000 0.0031919 0.0073323 0.9968081 -0.0073323 0.9968081 -0.0073323 0.0031919 0.0073323
2956000000 0.0032119 0.0077268 0.9967881 -0.0077268 0.9967881 -0.0077268 0.0032119 0.0077268
2977000000 0.0032323 0.0081188 0.9967677 -0.0081188 0.9967677 -0.0081188 0.0032323 0.0081188
2998000000 0.0032529 0.0085083 0.9967471 -0.0085083 0.9967471 -0.0085083 0.0032529 0.0085083
3019000000 0.0032737 0.0088953 0.9967263 -0.0088953 0.9967263 -0.0088953 0.0032737 0.0088953
3040000000 0.0032949 0.0092799 0.9967051 -0.0092799 0.9967051 -0.0092799 0.0032949 0.0092799
3061000000 0.0033163 0.0096622 0.9966837 -0.0096622 0.9966837 -0.0096622 0.0033163 0.0096622
3082000000 0.0033379 0.0100421 0.9966621 -0.0100421 0.9966621 -0.0100421 0.0033379 0.0100421
3103000000 0.0033598 0.0104198 0.9966402 -0.0104198 0.9966402 -0.0104198 0.0033598 0.0104198
3124000000 0.0033819 0.0107953 0.9966181 -0.0107953 0.9966181 -0.0107953 0.0033819 0.0107953
3145000000 0.0034043 0.0111686 0.9965957 -0.0111686 0.9965957 -0.0111686 0.0034043 0.0111686
3166000000 0.0034269 0.0115397 0.9965731 -0.0115397 0.9965731 -0.0115397 0.0034269 0.0115397
3187000000 0.0034498 0.0119088 0.9965502 -0.0119088 0.9965502 -0.0119088 0.0034498 0.0119088
3208000000 0.0034728 0.0122758 0.9965272 -0.0122758 0.9965272 -0.0122758 0.0034728 0.0122758
3229000000 0.0034961 0.0126408 0.9965039 -0.0126408 0.9965039 -0.0126408 0.0034961 0.0126408
3250000000 0.0035196 0.0130039 0.9964804 -0.0130039 0.9964804 -0.0130039 0.0035196 0.0130039
3271000000 0.0035434 0.0133650 0.9964566 -0.0133650 0.9964566 -0.0133650 0.0035434 0.0133650
3292000000 0.0035673 0.0137242 0.9964327 -0.0137242 0.9964327 -0.0137242 0.0035673 0.0137242
3313000000 0.0035915 0.0140816 0.9964085 -0.0140816 0.9964085 -0.0140816 0.0035915 0.0140816
3334000000 0.0036158 0.0144371 0.9963842 -0.0144371 0.9963842 -0.0144371 0.0036158 0.0144371
3355000000 0.0036404 0.0147908 0.9963596 -0.0147908 0.9963596 -0.0147908 0.0036404 0.0147908
3376000000 0.0036652 0.0151428 0.9963348 -0.0151428 0.9963348 -0.0151428 0.0036652 0.0151428
3397000000 0.0036902 0.0154930 0.9963098 -0.0154930 0.9963098 -0.0154930 0.0036902 0.0154930
3418000000 0.0037153 0.0158415 0.9962847 -0.0158415 0.9962847 -0.0158415 0.0037153 0.0158415
3439000000 0.0037407 0.0161884 0.9962593 -0.0161884 0.9962593 -0.0161884 0.0037407 0.0161884
3460000000 0.0037662 0.0165336 0.9962338 -0.0165336 0.9962338 -0.0165336 0.0037662 0.0165336
3481000000 0.0037920 0.0168773 0.9962080 -0.0168773 0.9962080 -0.0168773 0.0037920 0.0168773
3502000000 0.0038179 0.0172193 0.9961821 -0.0172193 0.9961821 -0.0172193 0.0038179 0.0172193
3523000000 0.0038440 0.0175598 0.9961560 -0.0175598 0.9961560 -0.0175598 0.0038440 0.0175598
3544000000 0.0038703 0.0178988 0.9961297 -0.0178988 0.9961297 -0.0178988 0.0038703 0.0178988
3565000000 0.0038968 0.0182363 0.9961032 -0.0182363 0.9961032 -0.0182363 0.0038968 0.0182363
3586000000 0.0039234 0.0185723 0.9960766 -0.0185723 0.9960766 -0.0185723 0.0039234 0.0185723
3607000000 0.0039503 0.0189069 0.9960497 -0.0189069 0.9960497 -0.0189069 0.0039503 0.0189069
3628000000 0.0039773 0.0192401 0.9960227 -0.0192401 0.9960227 -0.0192401 0.0039773 0.0192401
3649000000 0.0040045 0.0195718 0.9959955 -0.0195718 0.9959955 -0.0195718 0.0040045 0.0195718
3670000000 0.0040318 0.0199022 0.9959682 -0.0199022 0.9959682 -0.0199022 0.0040318 0.0199022
3691000000 0.0040594 0.0202313 0.9959406 -0.0202313 0.9959406 -0.0202313 0.0040594 0.0202313
3712000000 0.0040871 0.0205590 0.9959129 -0.0205590 0.9959129 -0.0205590 0.0040871 0.0205590
3733000000 0.0041149 0.0208854 0.9958851 -0.0208854 0.9958851 -0.0208854 0.0041149 0.0208854
3754000000 0.0041430 0.0212106 0.9958570 -0.0212106 0.9958570 -0.0212106 0.0041430 0.0212106
3775000000 0.0041712 0.0215345 0.9958288 -0.0215345 0.9958288 -0.0215345 0.0041712 0.0215345
3796000000 0.0041996 0.0218571 0.9958004 -0.0218571 0.9958004 -0.0218571 0.0041996 0.0218571
3817000000 0.0042281 0.0221786 0.9957719 -0.0221786 0.9957719 -0.0221786 0.0042281 0.0221786
3838000000 0.0042568 0.0224988 0.9957432 -0.0224988 0.9957432 -0.0224988 0.0042568 0.0224988
3859000000 0.0042857 0.0228179 0.9957143 -0.0228179 0.9957143 -0.0228179 0.0042857 0.0228179
3880000000 0.0043147 0.0231358 0.9956853 -0.0231358 0.9956853 -0.0231358 0.0043147 0.0231358
3901000000 0.0043439 0.0234526 0.9956561 -0.0234526 0.9956561 -0.0234526 0.0043439 0.0234526
3922000000 0.0043733 0.0237682 0.9956267 -0.0237682 0.9956267 -0.0237682 0.0043733 0.0237682
3943000000 0.0044028 0.0240828 0.9955972 -0.0240828 0.9955972 -0.0240828 0.0044028 0.0240828
3964000000 0.0044324 0.0243963 0.9955676 -0.0243963 0.9955676 -0.0243963 0.0044324 0.0243963
3985000000 0.0044623 0.0247087 0.9955377 -0.0247087 0.9955377 -0.0247087 0.0044623 0.0247087
4006000000 0.0044923 0.0250200 0.9955077 -0.0250200 0.9955077 -0.0250200 0.0044923 0.0250200
4027000000 0.0045225 0.0253304 0.9954775 -0.0253304 0.9954775 -0.0253304 0.0045225 0.0253304
4048000000 0.0045528 0.0256397 0.9954472 -0.0256397 0.9954472 -0.0256397 0.0045528 0.0256397
4069000000 0.0045833 0.0259480 0.9954167 -0.0259480 0.9954167 -0.0259480 0.0045833 0.0259480
4090000000 0.0046139 0.0262553 0.9953861 -0.0262553 0.9953861 -0.0262553 0.0046139 0.0262553
4111000000 0.0046447 0.0265617 0.9953553 -0.0265617 0.9953553 -0.0265617 0.0046447 0.0265617
4132000000 0.0046757 0.0268671 0.9953243 -0.0268671 0.9953243 -0.0268671 0.0046757 0.0268671
4153000000 0.0047068 0.0271716 0.9952932 -0.0271716 0.9952932 -0.0271716 0.0047068 0.0271716
4174000000 0.0047381 0.0274751 0.9952619 -0.0274751 0.9952619 -0.0274751 0.0047381 0.0274751
4195000000 0.0047695 0.0277778 0.9952305 -0.0277778 0.9952305 -0.0277778 0.0047695 0.0277778
4216000000 0.0048011 0.0280795 0.9951989 -0.0280795 0.9951989 -0.0280795 0.0048011 0.0280795
4237000000 0.0048329 0.0283804 0.9951671 -0.0283804 0.9951671 -0.0283804 0.0048329 0.0283804
4258000000 0.0048648 0.0286804 0.9951352 -0.0286804 0.9951352 -0.0286804 0.0048648 0.0286804
4279000000 0.0048969 0.0289795 0.9951031 -0.0289795 0.9951031 -0.0289795 0.0048969 0.0289795
4300000000 0.0049292 0.0292778 0.9950708 -0.0292778 0.9950708 -0.0292778 0.0049292 0.0292778
4321000000 0.0049616 0.0295753 0.9950384 -0.0295753 0.9950384 -0.0295753 0.0049616 0.0295753
4342000000 0.0049942 0.0298720 0.9950058 -0.0298720 0.9950058 -0.0298720 0.0049942 0.0298720
4363000000 0.0050270 0.0301678 0.9949730 -0.0301678 0.9949730 -0.0301678 0.0050270 0.0301678
4384000000 0.0050599 0.0304629 0.9949401 -0.0304629 0.9949401 -0.0304629 0.0050599 0.0304629
4405000000 0.0050930 0.0307572 0.9949070 -0.0307572 0.9949070 -0.0307572 0.0050930 0.0307572
4426000000 0.0051262 0.0310507 0.9948738 -0.0310507 0.9948738 -0.0310507 0.0051262 0.0310507
4447000000 0.0051597 0.0313435 0.9948403 -0.0313435 0.9948403 -0.0313435 0.0051597 0.0313435
4468000000 0.0051933 0.0316355 0.9948067 -0.0316355 0.9948067 -0.0316355 0.0051933 0.0316355
4489000000 0.0052270 0.0319268 0.9947730 -0.0319268 0.9947730 -0.0319268 0.0052270 0.0319268
4510000000 0.0052610 0.0322173 0.9947390 -0.0322173 0.9947390 -0.0322173 0.0052610 0.0322173
