!Murata Part Number: GRM0222C1H5R5CA03
!These Parameters are Measured in Series Mode Connection
!Data Generated on Mar 30, 2021
!       o--ll--o
!Port1            Port2
!       o------o
!Operation Temp=25[degC], DC Bias Voltage=0[V]
!Freq. Start=100[MHz] Stop=9[GHz] 401[Steps]
# Hz S RI R 50
!Freq.(Hz) S11(Real) S11(Imag) S21(Real) S21(Imag) S12(Real) S12(Imag) S22(Real) S22(Imag)
100000000 0.8931210 -0.3087030 0.1068790 0.3087030 0.1068790 0.3087030 0.8931210 -0.3087030
121000000 0.8508790 -0.3558970 0.1491210 0.3558970 0.1491210 0.3558970 0.8508790 -0.3558970
142000000 0.8055132 -0.3954397 0.1944868 0.3954397 0.1944868 0.3954397 0.8055132 -0.3954397
163000000 0.7585772 -0.4275258 0.2414228 0.4275258 0.2414228 0.4275258 0.7585772 -0.4275258
184000000 0.7113805 -0.4526449 0.2886195 0.4526449 0.2886195 0.4526449 0.7113805 -0.4526449
205000000 0.6649593 -0.4714732 0.3350407 0.4714732 0.3350407 0.4714732 0.6649593 -0.4714732
226000000 0.6200824 -0.4847782 0.3799176 0.4847782 0.3799176 0.4847782 0.6200824 -0.4847782
247000000 0.5772795 -0.4933471 0.4227205 0.4933471 0.4227205 0.4933471 0.5772795 -0.4933471
268000000 0.5368811 -0.4979359 0.4631189 0.4979359 0.4631189 0.4979359 0.5368811 -0.4979359
289000000 0.4990598 -0.4992391 0.5009402 0.4992391 0.5009402 0.4992391 0.4990598 -0.4992391
310000000 0.4638694 -0.4978742 0.5361306 0.4978742 0.5361306 0.4978742 0.4638694 -0.4978742
331000000 0.4312783 -0.4943768 0.5687217 0.4943768 0.5687217 0.4943768 0.4312783 -0.4943768
352000000 0.4011965 -0.4892027 0.5988035 0.4892027 0.5988035 0.4892027 0.4011965 -0.4892027
373000000 0.3734973 -0.4827338 0.6265027 0.4827338 0.6265027 0.4827338 0.3734973 -0.4827338
394000000 0.3480322 -0.4752862 0.6519678 0.4752862 0.6519678 0.4752862 0.3480322 -0.4752862
415000000 0.3246433 -0.4671190 0.6753567 0.4671190 0.6753567 0.4671190 0.3246433 -0.4671190
436000000 0.3031703 -0.4584427 0.6968297 0.4584427 0.6968297 0.4584427 0.3031703 -0.4584427
457000000 0.2834568 -0.4494269 0.7165432 0.4494269 0.7165432 0.4494269 0.2834568 -0.4494269
478000000 0.2653532 -0.4402070 0.7346468 0.4402070 0.7346468 0.4402070 0.2653532 -0.4402070
499000000 0.2487186 -0.4308907 0.7512814 0.4308907 0.7512814 0.4308907 0.2487186 -0.4308907
520000000 0.2334224 -0.4215626 0.7665776 0.4215626 0.7665776 0.4215626 0.2334224 -0.4215626
541000000 0.2193440 -0.4122887 0.7806560 0.4122887 0.7806560 0.4122887 0.2193440 -0.4122887
562000000 0.2063731 -0.4031197 0.7936269 0.4031197 0.7936269 0.4031197 0.2063731 -0.4031197
583000000 0.1944093 -0.3940944 0.8055907 0.3940944 0.8055907 0.3940944 0.1944093 -0.3940944
604000000 0.1833615 -0.3852416 0.8166385 0.3852416 0.8166385 0.3852416 0.1833615 -0.3852416
625000000 0.1731469 -0.3765823 0.8268531 0.3765823 0.8268531 0.3765823 0.1731469 -0.3765823
646000000 0.1636910 -0.3681310 0.8363090 0.3681310 0.8363090 0.3681310 0.1636910 -0.3681310
667000000 0.1549262 -0.3598975 0.8450738 0.3598975 0.8450738 0.3598975 0.1549262 -0.3598975
688000000 0.1467918 -0.3518875 0.8532082 0.3518875 0.8532082 0.3518875 0.1467918 -0.3518875
709000000 0.1392328 -0.3441037 0.8607672 0.3441037 0.8607672 0.3441037 0.1392328 -0.3441037
730000000 0.1321995 -0.3365462 0.8678005 0.3365462 0.8678005 0.3365462 0.1321995 -0.3365462
751000000 0.1256473 -0.3292133 0.8743527 0.3292133 0.8743527 0.3292133 0.1256473 -0.3292133
772000000 0.1195358 -0.3221020 0.8804642 0.3221020 0.8804642 0.3221020 0.1195358 -0.3221020
793000000 0.1138283 -0.3152079 0.8861717 0.3152079 0.8861717 0.3152079 0.1138283 -0.3152079
814000000 0.1084918 -0.3085261 0.8915082 0.3085261 0.8915082 0.3085261 0.1084918 -0.3085261
835000000 0.1034964 -0.3020509 0.8965036 0.3020509 0.8965036 0.3020509 0.1034964 -0.3020509
856000000 0.0988149 -0.2957764 0.9011851 0.2957764 0.9011851 0.2957764 0.0988149 -0.2957764
877000000 0.0944228 -0.2896963 0.9055772 0.2896963 0.9055772 0.2896963 0.0944228 -0.2896963
898000000 0.0902975 -0.2838042 0.9097025 0.2838042 0.9097025 0.2838042 0.0902975 -0.2838042
919000000 0.0864190 -0.2780936 0.9135810 0.2780936 0.9135810 0.2780936 0.0864190 -0.2780936
940000000 0.0827685 -0.2725580 0.9172315 0.2725580 0.9172315 0.2725580 0.0827685 -0.2725580
961000000 0.0793292 -0.2671912 0.9206708 0.2671912 0.9206708 0.2671912 0.0793292 -0.2671912
982000000 0.0760858 -0.2619867 0.9239142 0.2619867 0.9239142 0.2619867 0.0760858 -0.2619867
1003000000 0.0730241 -0.2569386 0.9269759 0.2569386 0.9269759 0.2569386 0.0730241 -0.2569386
1024000000 0.0701313 -0.2520408 0.9298687 0.2520408 0.9298687 0.2520408 0.0701313 -0.2520408
1045000000 0.0673956 -0.2472875 0.9326044 0.2472875 0.9326044 0.2472875 0.0673956 -0.2472875
1066000000 0.0648062 -0.2426732 0.9351938 0.2426732 0.9351938 0.2426732 0.0648062 -0.2426732
1087000000 0.0623532 -0.2381924 0.9376468 0.2381924 0.9376468 0.2381924 0.0623532 -0.2381924
1108000000 0.0600274 -0.2338399 0.9399726 0.2338399 0.9399726 0.2338399 0.0600274 -0.2338399
1129000000 0.0578205 -0.2296108 0.9421795 0.2296108 0.9421795 0.2296108 0.0578205 -0.2296108
1150000000 0.0557248 -0.2255002 0.9442752 0.2255002 0.9442752 0.2255002 0.0557248 -0.2255002
1171000000 0.0537331 -0.2215035 0.9462669 0.2215035 0.9462669 0.2215035 0.0537331 -0.2215035
1192000000 0.0518389 -0.2176163 0.9481611 0.2176163 0.9481611 0.2176163 0.0518389 -0.2176163
1213000000 0.0500361 -0.2138344 0.9499639 0.2138344 0.9499639 0.2138344 0.0500361 -0.2138344
1234000000 0.0483190 -0.2101537 0.9516810 0.2101537 0.9516810 0.2101537 0.0483190 -0.2101537
1255000000 0.0466826 -0.2065703 0.9533174 0.2065703 0.9533174 0.2065703 0.0466826 -0.2065703
1276000000 0.0451219 -0.2030806 0.9548781 0.2030806 0.9548781 0.2030806 0.0451219 -0.2030806
1297000000 0.0436325 -0.1996809 0.9563675 0.1996809 0.9563675 0.1996809 0.0436325 -0.1996809
1318000000 0.0422103 -0.1963679 0.9577897 0.1963679 0.9577897 0.1963679 0.0422103 -0.1963679
1339000000 0.0408513 -0.1931384 0.9591487 0.1931384 0.9591487 0.1931384 0.0408513 -0.1931384
1360000000 0.0395521 -0.1899892 0.9604479 0.1899892 0.9604479 0.1899892 0.0395521 -0.1899892
1381000000 0.0383092 -0.1869174 0.9616908 0.1869174 0.9616908 0.1869174 0.0383092 -0.1869174
1402000000 0.0371195 -0.1839202 0.9628805 0.1839202 0.9628805 0.1839202 0.0371195 -0.1839202
1423000000 0.0359802 -0.1809948 0.9640198 0.1809948 0.9640198 0.1809948 0.0359802 -0.1809948
1444000000 0.0348886 -0.1781386 0.9651114 0.1781386 0.9651114 0.1781386 0.0348886 -0.1781386
1465000000 0.0338420 -0.1753493 0.9661580 0.1753493 0.9661580 0.1753493 0.0338420 -0.1753493
1486000000 0.0328381 -0.1726244 0.9671619 0.1726244 0.9671619 0.1726244 0.0328381 -0.1726244
1507000000 0.0318748 -0.1699616 0.9681252 0.1699616 0.9681252 0.1699616 0.0318748 -0.1699616
1528000000 0.0309498 -0.1673588 0.9690502 0.1673588 0.9690502 0.1673588 0.0309498 -0.1673588
1549000000 0.0300614 -0.1648140 0.9699386 0.1648140 0.9699386 0.1648140 0.0300614 -0.1648140
1570000000 0.0292076 -0.1623250 0.9707924 0.1623250 0.9707924 0.1623250 0.0292076 -0.1623250
1591000000 0.0283868 -0.1598901 0.9716132 0.1598901 0.9716132 0.1598901 0.0283868 -0.1598901
1612000000 0.0275973 -0.1575075 0.9724027 0.1575075 0.9724027 0.1575075 0.0275973 -0.1575075
1633000000 0.0268376 -0.1551752 0.9731624 0.1551752 0.9731624 0.1551752 0.0268376 -0.1551752
1654000000 0.0261063 -0.1528918 0.9738937 0.1528918 0.9738937 0.1528918 0.0261063 -0.1528918
1675000000 0.0254020 -0.1506556 0.9745980 0.1506556 0.9745980 0.1506556 0.0254020 -0.1506556
1696000000 0.0247236 -0.1484650 0.9752764 0.1484650 0.9752764 0.1484650 0.0247236 -0.1484650
1717000000 0.0240697 -0.1463186 0.9759303 0.1463186 0.9759303 0.1463186 0.0240697 -0.1463186
1738000000 0.0234393 -0.1442150 0.9765607 0.1442150 0.9765607 0.1442150 0.0234393 -0.1442150
1759000000 0.0228313 -0.1421528 0.9771687 0.1421528 0.9771687 0.1421528 0.0228313 -0.1421528
1780000000 0.0222448 -0.1401308 0.9777552 0.1401308 0.9777552 0.1401308 0.0222448 -0.1401308
1801000000 0.0216787 -0.1381476 0.9783213 0.1381476 0.9783213 0.1381476 0.0216787 -0.1381476
1822000000 0.0211322 -0.1362021 0.9788678 0.1362021 0.9788678 0.1362021 0.0211322 -0.1362021
1843000000 0.0206044 -0.1342930 0.9793956 0.1342930 0.9793956 0.1342930 0.0206044 -0.1342930
1864000000 0.0200945 -0.1324194 0.9799055 0.1324194 0.9799055 0.1324194 0.0200945 -0.1324194
1885000000 0.0196018 -0.1305802 0.9803982 0.1305802 0.9803982 0.1305802 0.0196018 -0.1305802
1906000000 0.0191255 -0.1287743 0.9808745 0.1287743 0.9808745 0.1287743 0.0191255 -0.1287743
1927000000 0.0186650 -0.1270007 0.9813350 0.1270007 0.9813350 0.1270007 0.0186650 -0.1270007
1948000000 0.0182196 -0.1252585 0.9817804 0.1252585 0.9817804 0.1252585 0.0182196 -0.1252585
1969000000 0.0177888 -0.1235468 0.9822112 0.1235468 0.9822112 0.1235468 0.0177888 -0.1235468
1990000000 0.0173718 -0.1218646 0.9826282 0.1218646 0.9826282 0.1218646 0.0173718 -0.1218646
2011000000 0.0169682 -0.1202113 0.9830318 0.1202113 0.9830318 0.1202113 0.0169682 -0.1202113
2032000000 0.0165775 -0.1185858 0.9834225 0.1185858 0.9834225 0.1185858 0.0165775 -0.1185858
2053000000 0.0161990 -0.1169876 0.9838010 0.1169876 0.9838010 0.1169876 0.0161990 -0.1169876
2074000000 0.0158325 -0.1154157 0.9841675 0.1154157 0.9841675 0.1154157 0.0158325 -0.1154157
2095000000 0.0154773 -0.1138695 0.9845227 0.1138695 0.9845227 0.1138695 0.0154773 -0.1138695
2116000000 0.0151332 -0.1123483 0.9848668 0.1123483 0.9848668 0.1123483 0.0151332 -0.1123483
2137000000 0.0147995 -0.1108513 0.9852005 0.1108513 0.9852005 0.1108513 0.0147995 -0.1108513
2158000000 0.0144761 -0.1093780 0.9855239 0.1093780 0.9855239 0.1093780 0.0144761 -0.1093780
2179000000 0.0141624 -0.1079278 0.9858376 0.1079278 0.9858376 0.1079278 0.0141624 -0.1079278
2200000000 0.0138582 -0.1064999 0.9861418 0.1064999 0.9861418 0.1064999 0.0138582 -0.1064999
2221000000 0.0135631 -0.1050938 0.9864369 0.1050938 0.9864369 0.1050938 0.0135631 -0.1050938
2242000000 0.0132767 -0.1037089 0.9867233 0.1037089 0.9867233 0.1037089 0.0132767 -0.1037089
2263000000 0.0129988 -0.1023447 0.9870012 0.1023447 0.9870012 0.1023447 0.0129988 -0.1023447
2284000000 0.0127291 -0.1010007 0.9872709 0.1010007 0.9872709 0.1010007 0.0127291 -0.1010007
2305000000 0.0124672 -0.0996764 0.9875328 0.0996764 0.9875328 0.0996764 0.0124672 -0.0996764
2326000000 0.0122129 -0.0983712 0.9877871 0.0983712 0.9877871 0.0983712 0.0122129 -0.0983712
2347000000 0.0119660 -0.0970846 0.9880340 0.0970846 0.9880340 0.0970846 0.0119660 -0.0970846
2368000000 0.0117262 -0.0958163 0.9882738 0.0958163 0.9882738 0.0958163 0.0117262 -0.0958163
2389000000 0.0114932 -0.0945657 0.9885068 0.0945657 0.9885068 0.0945657 0.0114932 -0.0945657
2410000000 0.0112668 -0.0933325 0.9887332 0.0933325 0.9887332 0.0933325 0.0112668 -0.0933325
2431000000 0.0110469 -0.0921161 0.9889531 0.0921161 0.9889531 0.0921161 0.0110469 -0.0921161
2452000000 0.0108331 -0.0909162 0.9891669 0.0909162 0.9891669 0.0909162 0.0108331 -0.0909162
2473000000 0.0106254 -0.0897325 0.9893746 0.0897325 0.9893746 0.0897325 0.0106254 -0.0897325
2494000000 0.0104234 -0.0885644 0.9895766 0.0885644 0.9895766 0.0885644 0.0104234 -0.0885644
2515000000 0.0102271 -0.0874117 0.9897729 0.0874117 0.9897729 0.0874117 0.0102271 -0.0874117
2536000000 0.0100361 -0.0862740 0.9899639 0.0862740 0.9899639 0.0862740 0.0100361 -0.0862740
2557000000 0.0098505 -0.0851510 0.9901495 0.0851510 0.9901495 0.0851510 0.0098505 -0.0851510
2578000000 0.0096700 -0.0840422 0.9903300 0.0840422 0.9903300 0.0840422 0.0096700 -0.0840422
2599000000 0.0094944 -0.0829474 0.9905056 0.0829474 0.9905056 0.0829474 0.0094944 -0.0829474
2620000000 0.0093236 -0.0818663 0.9906764 0.0818663 0.9906764 0.0818663 0.0093236 -0.0818663
2641000000 0.0091574 -0.0807985 0.9908426 0.0807985 0.9908426 0.0807985 0.0091574 -0.0807985
2662000000 0.0089958 -0.0797438 0.9910042 0.0797438 0.9910042 0.0797438 0.0089958 -0.0797438
2683000000 0.0088385 -0.0787018 0.9911615 0.0787018 0.9911615 0.0787018 0.0088385 -0.0787018
2704000000 0.0086855 -0.0776723 0.9913145 0.0776723 0.9913145 0.0776723 0.0086855 -0.0776723
2725000000 0.0085365 -0.0766551 0.9914635 0.0766551 0.9914635 0.0766551 0.0085365 -0.0766551
2746000000 0.0083916 -0.0756497 0.9916084 0.0756497 0.9916084 0.0756497 0.0083916 -0.0756497
2767000000 0.0082506 -0.0746561 0.9917494 0.0746561 0.9917494 0.0746561 0.0082506 -0.0746561
2788000000 0.0081133 -0.0736739 0.9918867 0.0736739 0.9918867 0.0736739 0.0081133 -0.0736739
2809000000 0.0079797 -0.0727028 0.9920203 0.0727028 0.9920203 0.0727028 0.0079797 -0.0727028
2830000000 0.0078497 -0.0717428 0.9921503 0.0717428 0.9921503 0.0717428 0.0078497 -0.0717428
2851000000 0.0077231 -0.0707934 0.9922769 0.0707934 0.9922769 0.0707934 0.0077231 -0.0707934
2872000000 0.0075998 -0.0698546 0.9924002 0.0698546 0.9924002 0.0698546 0.0075998 -0.0698546
2893000000 0.0074799 -0.0689260 0.9925201 0.0689260 0.9925201 0.0689260 0.0074799 -0.0689260
2914000000 0.0073631 -0.0680075 0.9926369 0.0680075 0.9926369 0.0680075 0.0073631 -0.0680075
2935000000 0.0072494 -0.0670989 0.9927506 0.0670989 0.9927506 0.0670989 0.0072494 -0.0670989
2956000000 0.0071387 -0.0661999 0.9928613 0.0661999 0.9928613 0.0661999 0.0071387 -0.0661999
2977000000 0.0070309 -0.0653105 0.9929691 0.0653105 0.9929691 0.0653105 0.0070309 -0.0653105
2998000000 0.0069260 -0.0644303 0.9930740 0.0644303 0.9930740 0.0644303 0.0069260 -0.0644303
3019000000 0.0068239 -0.0635591 0.9931761 0.0635591 0.9931761 0.0635591 0.0068239 -0.0635591
3040000000 0.0067244 -0.0626969 0.9932756 0.0626969 0.9932756 0.0626969 0.0067244 -0.0626969
3061000000 0.0066276 -0.0618435 0.9933724 0.0618435 0.9933724 0.0618435 0.0066276 -0.0618435
3082000000 0.0065333 -0.0609986 0.9934667 0.0609986 0.9934667 0.0609986 0.0065333 -0.0609986
3103000000 0.0064416 -0.0601621 0.9935584 0.0601621 0.9935584 0.0601621 0.0064416 -0.0601621
3124000000 0.0063523 -0.0593339 0.9936477 0.0593339 0.9936477 0.0593339 0.0063523 -0.0593339
3145000000 0.0062653 -0.0585137 0.9937347 0.0585137 0.9937347 0.0585137 0.0062653 -0.0585137
3166000000 0.0061807 -0.0577015 0.9938193 0.0577015 0.9938193 0.0577015 0.0061807 -0.0577015
3187000000 0.0060983 -0.0568971 0.9939017 0.0568971 0.9939017 0.0568971 0.0060983 -0.0568971
3208000000 0.0060181 -0.0561003 0.9939819 0.0561003 0.9939819 0.0561003 0.0060181 -0.0561003
3229000000 0.0059400 -0.0553110 0.9940600 0.0553110 0.9940600 0.0553110 0.0059400 -0.0553110
3250000000 0.0058641 -0.0545290 0.9941359 0.0545290 0.9941359 0.0545290 0.0058641 -0.0545290
3271000000 0.0057901 -0.0537543 0.9942099 0.0537543 0.9942099 0.0537543 0.0057901 -0.0537543
3292000000 0.0057182 -0.0529866 0.9942818 0.0529866 0.9942818 0.0529866 0.0057182 -0.0529866
3313000000 0.0056482 -0.0522259 0.9943518 0.0522259 0.9943518 0.0522259 0.0056482 -0.0522259
3334000000 0.0055801 -0.0514720 0.9944199 0.0514720 0.9944199 0.0514720 0.0055801 -0.0514720
3355000000 0.0055138 -0.0507249 0.9944862 0.0507249 0.9944862 0.0507249 0.0055138 -0.0507249
3376000000 0.0054494 -0.0499843 0.9945506 0.0499843 0.9945506 0.0499843 0.0054494 -0.0499843
3397000000 0.0053867 -0.0492502 0.9946133 0.0492502 0.9946133 0.0492502 0.0053867 -0.0492502
3418000000 0.0053258 -0.0485225 0.9946742 0.0485225 0.9946742 0.0485225 0.0053258 -0.0485225
3439000000 0.0052665 -0.0478010 0.9947335 0.0478010 0.9947335 0.0478010 0.0052665 -0.0478010
3460000000 0.0052089 -0.0470856 0.9947911 0.0470856 0.9947911 0.0470856 0.0052089 -0.0470856
3481000000 0.0051529 -0.0463763 0.9948471 0.0463763 0.9948471 0.0463763 0.0051529 -0.0463763
3502000000 0.0050984 -0.0456729 0.9949016 0.0456729 0.9949016 0.0456729 0.0050984 -0.0456729
3523000000 0.0050455 -0.0449753 0.9949545 0.0449753 0.9949545 0.0449753 0.0050455 -0.0449753
3544000000 0.0049941 -0.0442834 0.9950059 0.0442834 0.9950059 0.0442834 0.0049941 -0.0442834
3565000000 0.0049441 -0.0435972 0.9950559 0.0435972 0.9950559 0.0435972 0.0049441 -0.0435972
3586000000 0.0048956 -0.0429165 0.9951044 0.0429165 0.9951044 0.0429165 0.0048956 -0.0429165
3607000000 0.0048485 -0.0422413 0.9951515 0.0422413 0.9951515 0.0422413 0.0048485 -0.0422413
3628000000 0.0048028 -0.0415714 0.9951972 0.0415714 0.9951972 0.0415714 0.0048028 -0.0415714
3649000000 0.0047584 -0.0409067 0.9952416 0.0409067 0.9952416 0.0409067 0.0047584 -0.0409067
3670000000 0.0047154 -0.0402472 0.9952846 0.0402472 0.9952846 0.0402472 0.0047154 -0.0402472
3691000000 0.0046736 -0.0395929 0.9953264 0.0395929 0.9953264 0.0395929 0.0046736 -0.0395929
3712000000 0.0046331 -0.0389435 0.9953669 0.0389435 0.9953669 0.0389435 0.0046331 -0.0389435
3733000000 0.0045938 -0.0382990 0.9954062 0.0382990 0.9954062 0.0382990 0.0045938 -0.0382990
3754000000 0.0045557 -0.0376594 0.9954443 0.0376594 0.9954443 0.0376594 0.0045557 -0.0376594
3775000000 0.0045188 -0.0370246 0.9954812 0.0370246 0.9954812 0.0370246 0.0045188 -0.0370246
3796000000 0.0044831 -0.0363944 0.9955169 0.0363944 0.9955169 0.0363944 0.0044831 -0.0363944
3817000000 0.0044485 -0.0357689 0.9955515 0.0357689 0.9955515 0.0357689 0.0044485 -0.0357689
3838000000 0.0044150 -0.0351479 0.9955850 0.0351479 0.9955850 0.0351479 0.0044150 -0.0351479
3859000000 0.0043826 -0.0345314 0.9956174 0.0345314 0.9956174 0.0345314 0.0043826 -0.0345314
3880000000 0.0043513 -0.0339193 0.9956487 0.0339193 0.9956487 0.0339193 0.0043513 -0.0339193
3901000000 0.0043210 -0.0333115 0.9956790 0.0333115 0.9956790 0.0333115 0.0043210 -0.0333115
3922000000 0.0042917 -0.0327080 0.9957083 0.0327080 0.9957083 0.0327080 0.0042917 -0.0327080
3943000000 0.0042634 -0.0321087 0.9957366 0.0321087 0.9957366 0.0321087 0.0042634 -0.0321087
3964000000 0.0042362 -0.0315136 0.9957638 0.0315136 0.9957638 0.0315136 0.0042362 -0.0315136
3985000000 0.0042098 -0.0309225 0.9957902 0.0309225 0.9957902 0.0309225 0.0042098 -0.0309225
4006000000 0.0041845 -0.0303354 0.9958155 0.0303354 0.9958155 0.0303354 0.0041845 -0.0303354
4027000000 0.0041600 -0.0297523 0.9958400 0.0297523 0.9958400 0.0297523 0.0041600 -0.0297523
4048000000 0.0041365 -0.0291731 0.9958635 0.0291731 0.9958635 0.0291731 0.0041365 -0.0291731
4069000000 0.0041139 -0.0285977 0.9958861 0.0285977 0.9958861 0.0285977 0.0041139 -0.0285977
4090000000 0.0040921 -0.0280261 0.9959079 0.0280261 0.9959079 0.0280261 0.0040921 -0.0280261
4111000000 0.0040712 -0.0274582 0.9959288 0.0274582 0.9959288 0.0274582 0.0040712 -0.0274582
4132000000 0.0040511 -0.0268940 0.9959489 0.0268940 0.9959489 0.0268940 0.0040511 -0.0268940
4153000000 0.0040319 -0.0263334 0.9959681 0.0263334 0.9959681 0.0263334 0.0040319 -0.0263334
4174000000 0.0040135 -0.0257763 0.9959865 0.0257763 0.9959865 0.0257763 0.0040135 -0.0257763
4195000000 0.0039958 -0.0252228 0.9960042 0.0252228 0.9960042 0.0252228 0.0039958 -0.0252228
4216000000 0.0039790 -0.0246727 0.9960210 0.0246727 0.9960210 0.0246727 0.0039790 -0.0246727
4237000000 0.0039629 -0.0241261 0.9960371 0.0241261 0.9960371 0.0241261 0.0039629 -0.0241261
4258000000 0.0039476 -0.0235828 0.9960524 0.0235828 0.9960524 0.0235828 0.0039476 -0.0235828
4279000000 0.0039330 -0.0230428 0.9960670 0.0230428 0.9960670 0.0230428 0.0039330 -0.0230428
4300000000 0.0039192 -0.0225061 0.9960808 0.0225061 0.9960808 0.0225061 0.0039192 -0.0225061
4321000000 0.0039060 -0.0219726 0.9960940 0.0219726 0.9960940 0.0219726 0.0039060 -0.0219726
4342000000 0.0038936 -0.0214423 0.9961064 0.0214423 0.9961064 0.0214423 0.0038936 -0.0214423
4363000000 0.0038818 -0.0209151 0.9961182 0.0209151 0.9961182 0.0209151 0.0038818 -0.0209151
4384000000 0.0038707 -0.0203910 0.9961293 0.0203910 0.9961293 0.0203910 0.0038707 -0.0203910
4405000000 0.0038603 -0.0198700 0.9961397 0.0198700 0.9961397 0.0198700 0.0038603 -0.0198700
4426000000 0.0038506 -0.0193520 0.9961494 0.0193520 0.9961494 0.0193520 0.0038506 -0.0193520
4447000000 0.0038414 -0.0188369 0.9961586 0.0188369 0.9961586 0.0188369 0.0038414 -0.0188369
4468000000 0.0038329 -0.0183248 0.9961671 0.0183248 0.9961671 0.0183248 0.0038329 -0.0183248
4489000000 0.0038251 -0.0178155 0.9961749 0.0178155 0.9961749 0.0178155 0.0038251 -0.0178155
4510000000 0.0038178 -0.0173091 0.9961822 0.0173091 0.9961822 0.0173091 0.0038178 -0.0173091
