!Murata Part Number: GRM0225C1E2R6WA03
!These Parameters are Measured in Series Mode Connection
!Data Generated on Mar 30, 2021
!       o--ll--o
!Port1            Port2
!       o------o
!Operation Temp=25[degC], DC Bias Voltage=0[V]
!Freq. Start=100[MHz] Stop=9[GHz] 401[Steps]
# Hz S RI R 50
!Freq.(Hz) S11(Real) S11(Imag) S21(Real) S21(Imag) S12(Real) S12(Imag) S22(Real) S22(Imag)
100000000 0.9739453 -0.1591280 0.0260547 0.1591280 0.0260547 0.1591280 0.9739453 -0.1591280
121000000 0.9623034 -0.1902553 0.0376966 0.1902553 0.0376966 0.1902553 0.9623034 -0.1902553
142000000 0.9488021 -0.2201586 0.0511979 0.2201586 0.0511979 0.2201586 0.9488021 -0.2201586
163000000 0.9336055 -0.2486910 0.0663945 0.2486910 0.0663945 0.2486910 0.9336055 -0.2486910
184000000 0.9168902 -0.2757316 0.0831098 0.2757316 0.0831098 0.2757316 0.9168902 -0.2757316
205000000 0.8988402 -0.3011861 0.1011598 0.3011861 0.1011598 0.3011861 0.8988402 -0.3011861
226000000 0.8796429 -0.3249867 0.1203571 0.3249867 0.1203571 0.3249867 0.8796429 -0.3249867
247000000 0.8594846 -0.3470905 0.1405154 0.3470905 0.1405154 0.3470905 0.8594846 -0.3470905
268000000 0.8385476 -0.3674783 0.1614524 0.3674783 0.1614524 0.3674783 0.8385476 -0.3674783
289000000 0.8170065 -0.3861524 0.1829935 0.3861524 0.1829935 0.3861524 0.8170065 -0.3861524
310000000 0.7950260 -0.4031337 0.2049740 0.4031337 0.2049740 0.4031337 0.7950260 -0.4031337
331000000 0.7727595 -0.4184597 0.2272405 0.4184597 0.2272405 0.4184597 0.7727595 -0.4184597
352000000 0.7503474 -0.4321811 0.2496526 0.4321811 0.2496526 0.4321811 0.7503474 -0.4321811
373000000 0.7279165 -0.4443599 0.2720835 0.4443599 0.2720835 0.4443599 0.7279165 -0.4443599
394000000 0.7055798 -0.4550664 0.2944202 0.4550664 0.2944202 0.4550664 0.7055798 -0.4550664
415000000 0.6834366 -0.4643769 0.3165634 0.4643769 0.3165634 0.4643769 0.6834366 -0.4643769
436000000 0.6615727 -0.4723722 0.3384273 0.4723722 0.3384273 0.4723722 0.6615727 -0.4723722
457000000 0.6400614 -0.4791349 0.3599386 0.4791349 0.3599386 0.4791349 0.6400614 -0.4791349
478000000 0.6189640 -0.4847488 0.3810360 0.4847488 0.3810360 0.4847488 0.6189640 -0.4847488
499000000 0.5983308 -0.4892969 0.4016692 0.4892969 0.4016692 0.4892969 0.5983308 -0.4892969
520000000 0.5782022 -0.4928609 0.4217978 0.4928609 0.4217978 0.4928609 0.5782022 -0.4928609
541000000 0.5586095 -0.4955197 0.4413905 0.4955197 0.4413905 0.4955197 0.5586095 -0.4955197
562000000 0.5395760 -0.4973495 0.4604240 0.4973495 0.4604240 0.4973495 0.5395760 -0.4973495
583000000 0.5211178 -0.4984229 0.4788822 0.4984229 0.4788822 0.4984229 0.5211178 -0.4984229
604000000 0.5032451 -0.4988086 0.4967549 0.4988086 0.4967549 0.4988086 0.5032451 -0.4988086
625000000 0.4859627 -0.4985713 0.5140373 0.4985713 0.5140373 0.4985713 0.4859627 -0.4985713
646000000 0.4692708 -0.4977718 0.5307292 0.4977718 0.5307292 0.4977718 0.4692708 -0.4977718
667000000 0.4531657 -0.4964665 0.5468343 0.4964665 0.5468343 0.4964665 0.4531657 -0.4964665
688000000 0.4376408 -0.4947078 0.5623592 0.4947078 0.5623592 0.4947078 0.4376408 -0.4947078
709000000 0.4226865 -0.4925445 0.5773135 0.4925445 0.5773135 0.4925445 0.4226865 -0.4925445
730000000 0.4082914 -0.4900211 0.5917086 0.4900211 0.5917086 0.4900211 0.4082914 -0.4900211
751000000 0.3944421 -0.4871789 0.6055579 0.4871789 0.6055579 0.4871789 0.3944421 -0.4871789
772000000 0.3811243 -0.4840554 0.6188757 0.4840554 0.6188757 0.4840554 0.3811243 -0.4840554
793000000 0.3683224 -0.4806852 0.6316776 0.4806852 0.6316776 0.4806852 0.3683224 -0.4806852
814000000 0.3560201 -0.4770996 0.6439799 0.4770996 0.6439799 0.4770996 0.3560201 -0.4770996
835000000 0.3442009 -0.4733273 0.6557991 0.4733273 0.6557991 0.4733273 0.3442009 -0.4733273
856000000 0.3328479 -0.4693941 0.6671521 0.4693941 0.6671521 0.4693941 0.3328479 -0.4693941
877000000 0.3219439 -0.4653237 0.6780561 0.4653237 0.6780561 0.4653237 0.3219439 -0.4653237
898000000 0.3114722 -0.4611372 0.6885278 0.4611372 0.6885278 0.4611372 0.3114722 -0.4611372
919000000 0.3014158 -0.4568540 0.6985842 0.4568540 0.6985842 0.4568540 0.3014158 -0.4568540
940000000 0.2917584 -0.4524914 0.7082416 0.4524914 0.7082416 0.4524914 0.2917584 -0.4524914
961000000 0.2824837 -0.4480650 0.7175163 0.4480650 0.7175163 0.4480650 0.2824837 -0.4480650
982000000 0.2735759 -0.4435887 0.7264241 0.4435887 0.7264241 0.4435887 0.2735759 -0.4435887
1003000000 0.2650197 -0.4390752 0.7349803 0.4390752 0.7349803 0.4390752 0.2650197 -0.4390752
1024000000 0.2568001 -0.4345358 0.7431999 0.4345358 0.7431999 0.4345358 0.2568001 -0.4345358
1045000000 0.2489029 -0.4299804 0.7510971 0.4299804 0.7510971 0.4299804 0.2489029 -0.4299804
1066000000 0.2413140 -0.4254182 0.7586860 0.4254182 0.7586860 0.4254182 0.2413140 -0.4254182
1087000000 0.2340202 -0.4208570 0.7659798 0.4208570 0.7659798 0.4208570 0.2340202 -0.4208570
1108000000 0.2270086 -0.4163040 0.7729914 0.4163040 0.7729914 0.4163040 0.2270086 -0.4163040
1129000000 0.2202668 -0.4117654 0.7797332 0.4117654 0.7797332 0.4117654 0.2202668 -0.4117654
1150000000 0.2137830 -0.4072469 0.7862170 0.4072469 0.7862170 0.4072469 0.2137830 -0.4072469
1171000000 0.2075459 -0.4027532 0.7924541 0.4027532 0.7924541 0.4027532 0.2075459 -0.4027532
1192000000 0.2015446 -0.3982888 0.7984554 0.3982888 0.7984554 0.3982888 0.2015446 -0.3982888
1213000000 0.1957688 -0.3938572 0.8042312 0.3938572 0.8042312 0.3938572 0.1957688 -0.3938572
1234000000 0.1902086 -0.3894619 0.8097914 0.3894619 0.8097914 0.3894619 0.1902086 -0.3894619
1255000000 0.1848545 -0.3851056 0.8151455 0.3851056 0.8151455 0.3851056 0.1848545 -0.3851056
1276000000 0.1796974 -0.3807907 0.8203026 0.3807907 0.8203026 0.3807907 0.1796974 -0.3807907
1297000000 0.1747289 -0.3765194 0.8252711 0.3765194 0.8252711 0.3765194 0.1747289 -0.3765194
1318000000 0.1699407 -0.3722934 0.8300593 0.3722934 0.8300593 0.3722934 0.1699407 -0.3722934
1339000000 0.1653249 -0.3681141 0.8346751 0.3681141 0.8346751 0.3681141 0.1653249 -0.3681141
1360000000 0.1608741 -0.3639827 0.8391259 0.3639827 0.8391259 0.3639827 0.1608741 -0.3639827
1381000000 0.1565813 -0.3599003 0.8434187 0.3599003 0.8434187 0.3599003 0.1565813 -0.3599003
1402000000 0.1524396 -0.3558676 0.8475604 0.3558676 0.8475604 0.3558676 0.1524396 -0.3558676
1423000000 0.1484426 -0.3518852 0.8515574 0.3518852 0.8515574 0.3518852 0.1484426 -0.3518852
1444000000 0.1445841 -0.3479535 0.8554159 0.3479535 0.8554159 0.3479535 0.1445841 -0.3479535
1465000000 0.1408584 -0.3440728 0.8591416 0.3440728 0.8591416 0.3440728 0.1408584 -0.3440728
1486000000 0.1372598 -0.3402432 0.8627402 0.3402432 0.8627402 0.3402432 0.1372598 -0.3402432
1507000000 0.1337830 -0.3364649 0.8662170 0.3364649 0.8662170 0.3364649 0.1337830 -0.3364649
1528000000 0.1304229 -0.3327376 0.8695771 0.3327376 0.8695771 0.3327376 0.1304229 -0.3327376
1549000000 0.1271749 -0.3290612 0.8728251 0.3290612 0.8728251 0.3290612 0.1271749 -0.3290612
1570000000 0.1240341 -0.3254356 0.8759659 0.3254356 0.8759659 0.3254356 0.1240341 -0.3254356
1591000000 0.1209964 -0.3218603 0.8790036 0.3218603 0.8790036 0.3218603 0.1209964 -0.3218603
1612000000 0.1180574 -0.3183350 0.8819426 0.3183350 0.8819426 0.3183350 0.1180574 -0.3183350
1633000000 0.1152133 -0.3148592 0.8847867 0.3148592 0.8847867 0.3148592 0.1152133 -0.3148592
1654000000 0.1124601 -0.3114326 0.8875399 0.3114326 0.8875399 0.3114326 0.1124601 -0.3114326
1675000000 0.1097944 -0.3080545 0.8902056 0.3080545 0.8902056 0.3080545 0.1097944 -0.3080545
1696000000 0.1072127 -0.3047244 0.8927873 0.3047244 0.8927873 0.3047244 0.1072127 -0.3047244
1717000000 0.1047116 -0.3014418 0.8952884 0.3014418 0.8952884 0.3014418 0.1047116 -0.3014418
1738000000 0.1022880 -0.2982060 0.8977120 0.2982060 0.8977120 0.2982060 0.1022880 -0.2982060
1759000000 0.0999390 -0.2950163 0.9000610 0.2950163 0.9000610 0.2950163 0.0999390 -0.2950163
1780000000 0.0976616 -0.2918723 0.9023384 0.2918723 0.9023384 0.2918723 0.0976616 -0.2918723
1801000000 0.0954532 -0.2887731 0.9045468 0.2887731 0.9045468 0.2887731 0.0954532 -0.2887731
1822000000 0.0933110 -0.2857181 0.9066890 0.2857181 0.9066890 0.2857181 0.0933110 -0.2857181
1843000000 0.0912327 -0.2827066 0.9087673 0.2827066 0.9087673 0.2827066 0.0912327 -0.2827066
1864000000 0.0892158 -0.2797380 0.9107842 0.2797380 0.9107842 0.2797380 0.0892158 -0.2797380
1885000000 0.0872581 -0.2768115 0.9127419 0.2768115 0.9127419 0.2768115 0.0872581 -0.2768115
1906000000 0.0853574 -0.2739265 0.9146426 0.2739265 0.9146426 0.2739265 0.0853574 -0.2739265
1927000000 0.0835115 -0.2710823 0.9164885 0.2710823 0.9164885 0.2710823 0.0835115 -0.2710823
1948000000 0.0817186 -0.2682782 0.9182814 0.2682782 0.9182814 0.2682782 0.0817186 -0.2682782
1969000000 0.0799767 -0.2655134 0.9200233 0.2655134 0.9200233 0.2655134 0.0799767 -0.2655134
1990000000 0.0782839 -0.2627874 0.9217161 0.2627874 0.9217161 0.2627874 0.0782839 -0.2627874
2011000000 0.0766385 -0.2600993 0.9233615 0.2600993 0.9233615 0.2600993 0.0766385 -0.2600993
2032000000 0.0750389 -0.2574487 0.9249611 0.2574487 0.9249611 0.2574487 0.0750389 -0.2574487
2053000000 0.0734834 -0.2548347 0.9265166 0.2548347 0.9265166 0.2548347 0.0734834 -0.2548347
2074000000 0.0719706 -0.2522568 0.9280294 0.2522568 0.9280294 0.2522568 0.0719706 -0.2522568
2095000000 0.0704988 -0.2497142 0.9295012 0.2497142 0.9295012 0.2497142 0.0704988 -0.2497142
2116000000 0.0690668 -0.2472064 0.9309332 0.2472064 0.9309332 0.2472064 0.0690668 -0.2472064
2137000000 0.0676732 -0.2447326 0.9323268 0.2447326 0.9323268 0.2447326 0.0676732 -0.2447326
2158000000 0.0663167 -0.2422924 0.9336833 0.2422924 0.9336833 0.2422924 0.0663167 -0.2422924
2179000000 0.0649959 -0.2398849 0.9350041 0.2398849 0.9350041 0.2398849 0.0649959 -0.2398849
2200000000 0.0637098 -0.2375098 0.9362902 0.2375098 0.9362902 0.2375098 0.0637098 -0.2375098
2221000000 0.0624572 -0.2351663 0.9375428 0.2351663 0.9375428 0.2351663 0.0624572 -0.2351663
2242000000 0.0612370 -0.2328538 0.9387630 0.2328538 0.9387630 0.2328538 0.0612370 -0.2328538
2263000000 0.0600481 -0.2305718 0.9399519 0.2305718 0.9399519 0.2305718 0.0600481 -0.2305718
2284000000 0.0588895 -0.2283197 0.9411105 0.2283197 0.9411105 0.2283197 0.0588895 -0.2283197
2305000000 0.0577603 -0.2260970 0.9422397 0.2260970 0.9422397 0.2260970 0.0577603 -0.2260970
2326000000 0.0566595 -0.2239031 0.9433405 0.2239031 0.9433405 0.2239031 0.0566595 -0.2239031
2347000000 0.0555861 -0.2217375 0.9444139 0.2217375 0.9444139 0.2217375 0.0555861 -0.2217375
2368000000 0.0545394 -0.2195996 0.9454606 0.2195996 0.9454606 0.2195996 0.0545394 -0.2195996
2389000000 0.0535185 -0.2174889 0.9464815 0.2174889 0.9464815 0.2174889 0.0535185 -0.2174889
2410000000 0.0525226 -0.2154050 0.9474774 0.2154050 0.9474774 0.2154050 0.0525226 -0.2154050
2431000000 0.0515509 -0.2133472 0.9484491 0.2133472 0.9484491 0.2133472 0.0515509 -0.2133472
2452000000 0.0506027 -0.2113152 0.9493973 0.2113152 0.9493973 0.2113152 0.0506027 -0.2113152
2473000000 0.0496772 -0.2093085 0.9503228 0.2093085 0.9503228 0.2093085 0.0496772 -0.2093085
2494000000 0.0487739 -0.2073265 0.9512261 0.2073265 0.9512261 0.2073265 0.0487739 -0.2073265
2515000000 0.0478919 -0.2053689 0.9521081 0.2053689 0.9521081 0.2053689 0.0478919 -0.2053689
2536000000 0.0470307 -0.2034351 0.9529693 0.2034351 0.9529693 0.2034351 0.0470307 -0.2034351
2557000000 0.0461897 -0.2015248 0.9538103 0.2015248 0.9538103 0.2015248 0.0461897 -0.2015248
2578000000 0.0453682 -0.1996375 0.9546318 0.1996375 0.9546318 0.1996375 0.0453682 -0.1996375
2599000000 0.0445658 -0.1977728 0.9554342 0.1977728 0.9554342 0.1977728 0.0445658 -0.1977728
2620000000 0.0437817 -0.1959302 0.9562183 0.1959302 0.9562183 0.1959302 0.0437817 -0.1959302
2641000000 0.0430156 -0.1941095 0.9569844 0.1941095 0.9569844 0.1941095 0.0430156 -0.1941095
2662000000 0.0422669 -0.1923100 0.9577331 0.1923100 0.9577331 0.1923100 0.0422669 -0.1923100
2683000000 0.0415351 -0.1905316 0.9584649 0.1905316 0.9584649 0.1905316 0.0415351 -0.1905316
2704000000 0.0408197 -0.1887738 0.9591803 0.1887738 0.9591803 0.1887738 0.0408197 -0.1887738
2725000000 0.0401202 -0.1870362 0.9598798 0.1870362 0.9598798 0.1870362 0.0401202 -0.1870362
2746000000 0.0394363 -0.1853184 0.9605637 0.1853184 0.9605637 0.1853184 0.0394363 -0.1853184
2767000000 0.0387674 -0.1836202 0.9612326 0.1836202 0.9612326 0.1836202 0.0387674 -0.1836202
2788000000 0.0381132 -0.1819411 0.9618868 0.1819411 0.9618868 0.1819411 0.0381132 -0.1819411
2809000000 0.0374733 -0.1802808 0.9625267 0.1802808 0.9625267 0.1802808 0.0374733 -0.1802808
2830000000 0.0368473 -0.1786391 0.9631527 0.1786391 0.9631527 0.1786391 0.0368473 -0.1786391
2851000000 0.0362347 -0.1770155 0.9637653 0.1770155 0.9637653 0.1770155 0.0362347 -0.1770155
2872000000 0.0356353 -0.1754097 0.9643647 0.1754097 0.9643647 0.1754097 0.0356353 -0.1754097
2893000000 0.0350487 -0.1738214 0.9649513 0.1738214 0.9649513 0.1738214 0.0350487 -0.1738214
2914000000 0.0344745 -0.1722504 0.9655255 0.1722504 0.9655255 0.1722504 0.0344745 -0.1722504
2935000000 0.0339124 -0.1706962 0.9660876 0.1706962 0.9660876 0.1706962 0.0339124 -0.1706962
2956000000 0.0333622 -0.1691587 0.9666378 0.1691587 0.9666378 0.1691587 0.0333622 -0.1691587
2977000000 0.0328234 -0.1676376 0.9671766 0.1676376 0.9671766 0.1676376 0.0328234 -0.1676376
2998000000 0.0322959 -0.1661324 0.9677041 0.1661324 0.9677041 0.1661324 0.0322959 -0.1661324
3019000000 0.0317792 -0.1646431 0.9682208 0.1646431 0.9682208 0.1646431 0.0317792 -0.1646431
3040000000 0.0312732 -0.1631692 0.9687268 0.1631692 0.9687268 0.1631692 0.0312732 -0.1631692
3061000000 0.0307775 -0.1617106 0.9692225 0.1617106 0.9692225 0.1617106 0.0307775 -0.1617106
3082000000 0.0302919 -0.1602670 0.9697081 0.1602670 0.9697081 0.1602670 0.0302919 -0.1602670
3103000000 0.0298162 -0.1588381 0.9701838 0.1588381 0.9701838 0.1588381 0.0298162 -0.1588381
3124000000 0.0293501 -0.1574237 0.9706499 0.1574237 0.9706499 0.1574237 0.0293501 -0.1574237
3145000000 0.0288933 -0.1560235 0.9711067 0.1560235 0.9711067 0.1560235 0.0288933 -0.1560235
3166000000 0.0284456 -0.1546373 0.9715544 0.1546373 0.9715544 0.1546373 0.0284456 -0.1546373
3187000000 0.0280069 -0.1532649 0.9719931 0.1532649 0.9719931 0.1532649 0.0280069 -0.1532649
3208000000 0.0275769 -0.1519061 0.9724231 0.1519061 0.9724231 0.1519061 0.0275769 -0.1519061
3229000000 0.0271553 -0.1505605 0.9728447 0.1505605 0.9728447 0.1505605 0.0271553 -0.1505605
3250000000 0.0267420 -0.1492280 0.9732580 0.1492280 0.9732580 0.1492280 0.0267420 -0.1492280
3271000000 0.0263368 -0.1479084 0.9736632 0.1479084 0.9736632 0.1479084 0.0263368 -0.1479084
3292000000 0.0259394 -0.1466015 0.9740606 0.1466015 0.9740606 0.1466015 0.0259394 -0.1466015
3313000000 0.0255498 -0.1453071 0.9744502 0.1453071 0.9744502 0.1453071 0.0255498 -0.1453071
3334000000 0.0251677 -0.1440249 0.9748323 0.1440249 0.9748323 0.1440249 0.0251677 -0.1440249
3355000000 0.0247929 -0.1427547 0.9752071 0.1427547 0.9752071 0.1427547 0.0247929 -0.1427547
3376000000 0.0244253 -0.1414965 0.9755747 0.1414965 0.9755747 0.1414965 0.0244253 -0.1414965
3397000000 0.0240646 -0.1402499 0.9759354 0.1402499 0.9759354 0.1402499 0.0240646 -0.1402499
3418000000 0.0237109 -0.1390148 0.9762891 0.1390148 0.9762891 0.1390148 0.0237109 -0.1390148
3439000000 0.0233638 -0.1377911 0.9766362 0.1377911 0.9766362 0.1377911 0.0233638 -0.1377911
3460000000 0.0230232 -0.1365784 0.9769768 0.1365784 0.9769768 0.1365784 0.0230232 -0.1365784
3481000000 0.0226891 -0.1353768 0.9773109 0.1353768 0.9773109 0.1353768 0.0226891 -0.1353768
3502000000 0.0223611 -0.1341859 0.9776389 0.1341859 0.9776389 0.1341859 0.0223611 -0.1341859
3523000000 0.0220393 -0.1330056 0.9779607 0.1330056 0.9779607 0.1330056 0.0220393 -0.1330056
3544000000 0.0217235 -0.1318358 0.9782765 0.1318358 0.9782765 0.1318358 0.0217235 -0.1318358
3565000000 0.0214135 -0.1306763 0.9785865 0.1306763 0.9785865 0.1306763 0.0214135 -0.1306763
3586000000 0.0211092 -0.1295269 0.9788908 0.1295269 0.9788908 0.1295269 0.0211092 -0.1295269
3607000000 0.0208104 -0.1283875 0.9791896 0.1283875 0.9791896 0.1283875 0.0208104 -0.1283875
3628000000 0.0205172 -0.1272579 0.9794828 0.1272579 0.9794828 0.1272579 0.0205172 -0.1272579
3649000000 0.0202292 -0.1261381 0.9797708 0.1261381 0.9797708 0.1261381 0.0202292 -0.1261381
3670000000 0.0199466 -0.1250277 0.9800534 0.1250277 0.9800534 0.1250277 0.0199466 -0.1250277
3691000000 0.0196690 -0.1239267 0.9803310 0.1239267 0.9803310 0.1239267 0.0196690 -0.1239267
3712000000 0.0193964 -0.1228350 0.9806036 0.1228350 0.9806036 0.1228350 0.0193964 -0.1228350
3733000000 0.0191287 -0.1217524 0.9808713 0.1217524 0.9808713 0.1217524 0.0191287 -0.1217524
3754000000 0.0188659 -0.1206788 0.9811341 0.1206788 0.9811341 0.1206788 0.0188659 -0.1206788
3775000000 0.0186077 -0.1196140 0.9813923 0.1196140 0.9813923 0.1196140 0.0186077 -0.1196140
3796000000 0.0183541 -0.1185579 0.9816459 0.1185579 0.9816459 0.1185579 0.0183541 -0.1185579
3817000000 0.0181051 -0.1175104 0.9818949 0.1175104 0.9818949 0.1175104 0.0181051 -0.1175104
3838000000 0.0178604 -0.1164714 0.9821396 0.1164714 0.9821396 0.1164714 0.0178604 -0.1164714
3859000000 0.0176201 -0.1154407 0.9823799 0.1154407 0.9823799 0.1154407 0.0176201 -0.1154407
3880000000 0.0173840 -0.1144182 0.9826160 0.1144182 0.9826160 0.1144182 0.0173840 -0.1144182
3901000000 0.0171521 -0.1134038 0.9828479 0.1134038 0.9828479 0.1134038 0.0171521 -0.1134038
3922000000 0.0169242 -0.1123973 0.9830758 0.1123973 0.9830758 0.1123973 0.0169242 -0.1123973
3943000000 0.0167003 -0.1113988 0.9832997 0.1113988 0.9832997 0.1113988 0.0167003 -0.1113988
3964000000 0.0164803 -0.1104080 0.9835197 0.1104080 0.9835197 0.1104080 0.0164803 -0.1104080
3985000000 0.0162641 -0.1094248 0.9837359 0.1094248 0.9837359 0.1094248 0.0162641 -0.1094248
4006000000 0.0160517 -0.1084492 0.9839483 0.1084492 0.9839483 0.1084492 0.0160517 -0.1084492
4027000000 0.0158430 -0.1074810 0.9841570 0.1074810 0.9841570 0.1074810 0.0158430 -0.1074810
4048000000 0.0156378 -0.1065201 0.9843622 0.1065201 0.9843622 0.1065201 0.0156378 -0.1065201
4069000000 0.0154363 -0.1055665 0.9845637 0.1055665 0.9845637 0.1055665 0.0154363 -0.1055665
4090000000 0.0152381 -0.1046199 0.9847619 0.1046199 0.9847619 0.1046199 0.0152381 -0.1046199
4111000000 0.0150434 -0.1036804 0.9849566 0.1036804 0.9849566 0.1036804 0.0150434 -0.1036804
4132000000 0.0148520 -0.1027479 0.9851480 0.1027479 0.9851480 0.1027479 0.0148520 -0.1027479
4153000000 0.0146639 -0.1018221 0.9853361 0.1018221 0.9853361 0.1018221 0.0146639 -0.1018221
4174000000 0.0144789 -0.1009031 0.9855211 0.1009031 0.9855211 0.1009031 0.0144789 -0.1009031
4195000000 0.0142972 -0.0999907 0.9857028 0.0999907 0.9857028 0.0999907 0.0142972 -0.0999907
4216000000 0.0141185 -0.0990849 0.9858815 0.0990849 0.9858815 0.0990849 0.0141185 -0.0990849
4237000000 0.0139429 -0.0981855 0.9860571 0.0981855 0.9860571 0.0981855 0.0139429 -0.0981855
4258000000 0.0137702 -0.0972926 0.9862298 0.0972926 0.9862298 0.0972926 0.0137702 -0.0972926
4279000000 0.0136004 -0.0964059 0.9863996 0.0964059 0.9863996 0.0964059 0.0136004 -0.0964059
4300000000 0.0134336 -0.0955254 0.9865664 0.0955254 0.9865664 0.0955254 0.0134336 -0.0955254
4321000000 0.0132695 -0.0946511 0.9867305 0.0946511 0.9867305 0.0946511 0.0132695 -0.0946511
4342000000 0.0131082 -0.0937828 0.9868918 0.0937828 0.9868918 0.0937828 0.0131082 -0.0937828
4363000000 0.0129496 -0.0929204 0.9870504 0.0929204 0.9870504 0.0929204 0.0129496 -0.0929204
4384000000 0.0127937 -0.0920640 0.9872063 0.0920640 0.9872063 0.0920640 0.0127937 -0.0920640
4405000000 0.0126404 -0.0912134 0.9873596 0.0912134 0.9873596 0.0912134 0.0126404 -0.0912134
4426000000 0.0124896 -0.0903685 0.9875104 0.0903685 0.9875104 0.0903685 0.0124896 -0.0903685
4447000000 0.0123414 -0.0895292 0.9876586 0.0895292 0.9876586 0.0895292 0.0123414 -0.0895292
4468000000 0.0121957 -0.0886956 0.9878043 0.0886956 0.9878043 0.0886956 0.0121957 -0.0886956
4489000000 0.0120524 -0.0878674 0.9879476 0.0878674 0.9879476 0.0878674 0.0120524 -0.0878674
4510000000 0.0119115 -0.0870447 0.9880885 0.0870447 0.9880885 0.0870447 0.0119115 -0.0870447
