!Murata Part Number: GRM0222C1E9R2WA03
!These Parameters are Measured in Series Mode Connection
!Data Generated on Mar 30, 2021
!       o--ll--o
!Port1            Port2
!       o------o
!Operation Temp=25[degC], DC Bias Voltage=0[V]
!Freq. Start=100[MHz] Stop=9[GHz] 401[Steps]
# Hz S RI R 50
!Freq.(Hz) S11(Real) S11(Imag) S21(Real) S21(Imag) S12(Real) S12(Imag) S22(Real) S22(Imag)
100000000 0.7491509 -0.4331218 0.2508491 0.4331218 0.2508491 0.4331218 0.7491509 -0.4331218
121000000 0.6709504 -0.4694076 0.3290496 0.4694076 0.3290496 0.4694076 0.6709504 -0.4694076
142000000 0.5967603 -0.4900068 0.4032397 0.4900068 0.4032397 0.4900068 0.5967603 -0.4900068
163000000 0.5288782 -0.4985428 0.4711218 0.4985428 0.4711218 0.4985428 0.5288782 -0.4985428
184000000 0.4682196 -0.4982847 0.5317804 0.4982847 0.5317804 0.4982847 0.4682196 -0.4982847
205000000 0.4148207 -0.4919045 0.5851793 0.4919045 0.5851793 0.4919045 0.4148207 -0.4919045
226000000 0.3682300 -0.4814547 0.6317700 0.4814547 0.6317700 0.4814547 0.3682300 -0.4814547
247000000 0.3277706 -0.4684476 0.6722294 0.4684476 0.6722294 0.4684476 0.3277706 -0.4684476
268000000 0.2926996 -0.4539642 0.7073004 0.4539642 0.7073004 0.4539642 0.2926996 -0.4539642
289000000 0.2622943 -0.4387592 0.7377057 0.4387592 0.7377057 0.4387592 0.2622943 -0.4387592
310000000 0.2358945 -0.4233480 0.7641055 0.4233480 0.7641055 0.4233480 0.2358945 -0.4233480
331000000 0.2129176 -0.4080744 0.7870824 0.4080744 0.7870824 0.4080744 0.2129176 -0.4080744
352000000 0.1928605 -0.3931612 0.8071395 0.3931612 0.8071395 0.3931612 0.1928605 -0.3931612
373000000 0.1752944 -0.3787467 0.8247056 0.3787467 0.8247056 0.3787467 0.1752944 -0.3787467
394000000 0.1598560 -0.3649106 0.8401440 0.3649106 0.8401440 0.3649106 0.1598560 -0.3649106
415000000 0.1462390 -0.3516929 0.8537610 0.3516929 0.8537610 0.3516929 0.1462390 -0.3516929
436000000 0.1341856 -0.3391067 0.8658144 0.3391067 0.8658144 0.3391067 0.1341856 -0.3391067
457000000 0.1234783 -0.3271473 0.8765217 0.3271473 0.8765217 0.3271473 0.1234783 -0.3271473
478000000 0.1139340 -0.3157985 0.8860660 0.3157985 0.8860660 0.3157985 0.1139340 -0.3157985
499000000 0.1053977 -0.3050369 0.8946023 0.3050369 0.8946023 0.3050369 0.1053977 -0.3050369
520000000 0.0977382 -0.2948351 0.9022618 0.2948351 0.9022618 0.2948351 0.0977382 -0.2948351
541000000 0.0908440 -0.2851636 0.9091560 0.2851636 0.9091560 0.2851636 0.0908440 -0.2851636
562000000 0.0846200 -0.2759923 0.9153800 0.2759923 0.9153800 0.2759923 0.0846200 -0.2759923
583000000 0.0789850 -0.2672912 0.9210150 0.2672912 0.9210150 0.2672912 0.0789850 -0.2672912
604000000 0.0738693 -0.2590314 0.9261307 0.2590314 0.9261307 0.2590314 0.0738693 -0.2590314
625000000 0.0692127 -0.2511849 0.9307873 0.2511849 0.9307873 0.2511849 0.0692127 -0.2511849
646000000 0.0649635 -0.2437254 0.9350365 0.2437254 0.9350365 0.2437254 0.0649635 -0.2437254
667000000 0.0610767 -0.2366281 0.9389233 0.2366281 0.9389233 0.2366281 0.0610767 -0.2366281
688000000 0.0575134 -0.2298695 0.9424866 0.2298695 0.9424866 0.2298695 0.0575134 -0.2298695
709000000 0.0542394 -0.2234280 0.9457606 0.2234280 0.9457606 0.2234280 0.0542394 -0.2234280
730000000 0.0512249 -0.2172832 0.9487751 0.2172832 0.9487751 0.2172832 0.0512249 -0.2172832
751000000 0.0484440 -0.2114162 0.9515560 0.2114162 0.9515560 0.2114162 0.0484440 -0.2114162
772000000 0.0458735 -0.2058097 0.9541265 0.2058097 0.9541265 0.2058097 0.0458735 -0.2058097
793000000 0.0434933 -0.2004472 0.9565067 0.2004472 0.9565067 0.2004472 0.0434933 -0.2004472
814000000 0.0412855 -0.1953138 0.9587145 0.1953138 0.9587145 0.1953138 0.0412855 -0.1953138
835000000 0.0392340 -0.1903955 0.9607660 0.1903955 0.9607660 0.1903955 0.0392340 -0.1903955
856000000 0.0373249 -0.1856793 0.9626751 0.1856793 0.9626751 0.1856793 0.0373249 -0.1856793
877000000 0.0355455 -0.1811532 0.9644545 0.1811532 0.9644545 0.1811532 0.0355455 -0.1811532
898000000 0.0338845 -0.1768061 0.9661155 0.1768061 0.9661155 0.1768061 0.0338845 -0.1768061
919000000 0.0323320 -0.1726275 0.9676680 0.1726275 0.9676680 0.1726275 0.0323320 -0.1726275
940000000 0.0308788 -0.1686078 0.9691212 0.1686078 0.9691212 0.1686078 0.0308788 -0.1686078
961000000 0.0295169 -0.1647382 0.9704831 0.1647382 0.9704831 0.1647382 0.0295169 -0.1647382
982000000 0.0282389 -0.1610102 0.9717611 0.1610102 0.9717611 0.1610102 0.0282389 -0.1610102
1003000000 0.0270382 -0.1574161 0.9729618 0.1574161 0.9729618 0.1574161 0.0270382 -0.1574161
1024000000 0.0259089 -0.1539488 0.9740911 0.1539488 0.9740911 0.1539488 0.0259089 -0.1539488
1045000000 0.0248456 -0.1506014 0.9751544 0.1506014 0.9751544 0.1506014 0.0248456 -0.1506014
1066000000 0.0238432 -0.1473677 0.9761568 0.1473677 0.9761568 0.1473677 0.0238432 -0.1473677
1087000000 0.0228974 -0.1442419 0.9771026 0.1442419 0.9771026 0.1442419 0.0228974 -0.1442419
1108000000 0.0220041 -0.1412183 0.9779959 0.1412183 0.9779959 0.1412183 0.0220041 -0.1412183
1129000000 0.0211596 -0.1382919 0.9788404 0.1382919 0.9788404 0.1382919 0.0211596 -0.1382919
1150000000 0.0203605 -0.1354580 0.9796395 0.1354580 0.9796395 0.1354580 0.0203605 -0.1354580
1171000000 0.0196036 -0.1327118 0.9803964 0.1327118 0.9803964 0.1327118 0.0196036 -0.1327118
1192000000 0.0188862 -0.1300494 0.9811138 0.1300494 0.9811138 0.1300494 0.0188862 -0.1300494
1213000000 0.0182056 -0.1274666 0.9817944 0.1274666 0.9817944 0.1274666 0.0182056 -0.1274666
1234000000 0.0175595 -0.1249598 0.9824405 0.1249598 0.9824405 0.1249598 0.0175595 -0.1249598
1255000000 0.0169455 -0.1225254 0.9830545 0.1225254 0.9830545 0.1225254 0.0169455 -0.1225254
1276000000 0.0163618 -0.1201602 0.9836382 0.1201602 0.9836382 0.1201602 0.0163618 -0.1201602
1297000000 0.0158063 -0.1178610 0.9841937 0.1178610 0.9841937 0.1178610 0.0158063 -0.1178610
1318000000 0.0152774 -0.1156249 0.9847226 0.1156249 0.9847226 0.1156249 0.0152774 -0.1156249
1339000000 0.0147735 -0.1134492 0.9852265 0.1134492 0.9852265 0.1134492 0.0147735 -0.1134492
1360000000 0.0142931 -0.1113313 0.9857069 0.1113313 0.9857069 0.1113313 0.0142931 -0.1113313
1381000000 0.0138347 -0.1092687 0.9861653 0.1092687 0.9861653 0.1092687 0.0138347 -0.1092687
1402000000 0.0133972 -0.1072590 0.9866028 0.1072590 0.9866028 0.1072590 0.0133972 -0.1072590
1423000000 0.0129794 -0.1053001 0.9870206 0.1053001 0.9870206 0.1053001 0.0129794 -0.1053001
1444000000 0.0125801 -0.1033899 0.9874199 0.1033899 0.9874199 0.1033899 0.0125801 -0.1033899
1465000000 0.0121983 -0.1015264 0.9878017 0.1015264 0.9878017 0.1015264 0.0121983 -0.1015264
1486000000 0.0118331 -0.0997078 0.9881669 0.0997078 0.9881669 0.0997078 0.0118331 -0.0997078
1507000000 0.0114835 -0.0979323 0.9885165 0.0979323 0.9885165 0.0979323 0.0114835 -0.0979323
1528000000 0.0111487 -0.0961982 0.9888513 0.0961982 0.9888513 0.0961982 0.0111487 -0.0961982
1549000000 0.0108281 -0.0945038 0.9891719 0.0945038 0.9891719 0.0945038 0.0108281 -0.0945038
1570000000 0.0105207 -0.0928478 0.9894793 0.0928478 0.9894793 0.0928478 0.0105207 -0.0928478
1591000000 0.0102260 -0.0912287 0.9897740 0.0912287 0.9897740 0.0912287 0.0102260 -0.0912287
1612000000 0.0099433 -0.0896450 0.9900567 0.0896450 0.9900567 0.0896450 0.0099433 -0.0896450
1633000000 0.0096720 -0.0880955 0.9903280 0.0880955 0.9903280 0.0880955 0.0096720 -0.0880955
1654000000 0.0094116 -0.0865790 0.9905884 0.0865790 0.9905884 0.0865790 0.0094116 -0.0865790
1675000000 0.0091615 -0.0850942 0.9908385 0.0850942 0.9908385 0.0850942 0.0091615 -0.0850942
1696000000 0.0089212 -0.0836400 0.9910788 0.0836400 0.9910788 0.0836400 0.0089212 -0.0836400
1717000000 0.0086903 -0.0822155 0.9913097 0.0822155 0.9913097 0.0822155 0.0086903 -0.0822155
1738000000 0.0084683 -0.0808194 0.9915317 0.0808194 0.9915317 0.0808194 0.0084683 -0.0808194
1759000000 0.0082548 -0.0794509 0.9917452 0.0794509 0.9917452 0.0794509 0.0082548 -0.0794509
1780000000 0.0080494 -0.0781090 0.9919506 0.0781090 0.9919506 0.0781090 0.0080494 -0.0781090
1801000000 0.0078518 -0.0767928 0.9921482 0.0767928 0.9921482 0.0767928 0.0078518 -0.0767928
1822000000 0.0076616 -0.0755015 0.9923384 0.0755015 0.9923384 0.0755015 0.0076616 -0.0755015
1843000000 0.0074785 -0.0742342 0.9925215 0.0742342 0.9925215 0.0742342 0.0074785 -0.0742342
1864000000 0.0073022 -0.0729902 0.9926978 0.0729902 0.9926978 0.0729902 0.0073022 -0.0729902
1885000000 0.0071323 -0.0717687 0.9928677 0.0717687 0.9928677 0.0717687 0.0071323 -0.0717687
1906000000 0.0069687 -0.0705691 0.9930313 0.0705691 0.9930313 0.0705691 0.0069687 -0.0705691
1927000000 0.0068110 -0.0693905 0.9931890 0.0693905 0.9931890 0.0693905 0.0068110 -0.0693905
1948000000 0.0066590 -0.0682324 0.9933410 0.0682324 0.9933410 0.0682324 0.0066590 -0.0682324
1969000000 0.0065125 -0.0670941 0.9934875 0.0670941 0.9934875 0.0670941 0.0065125 -0.0670941
1990000000 0.0063712 -0.0659750 0.9936288 0.0659750 0.9936288 0.0659750 0.0063712 -0.0659750
2011000000 0.0062349 -0.0648745 0.9937651 0.0648745 0.9937651 0.0648745 0.0062349 -0.0648745
2032000000 0.0061035 -0.0637922 0.9938965 0.0637922 0.9938965 0.0637922 0.0061035 -0.0637922
2053000000 0.0059767 -0.0627273 0.9940233 0.0627273 0.9940233 0.0627273 0.0059767 -0.0627273
2074000000 0.0058543 -0.0616795 0.9941457 0.0616795 0.9941457 0.0616795 0.0058543 -0.0616795
2095000000 0.0057363 -0.0606482 0.9942637 0.0606482 0.9942637 0.0606482 0.0057363 -0.0606482
2116000000 0.0056224 -0.0596330 0.9943776 0.0596330 0.9943776 0.0596330 0.0056224 -0.0596330
2137000000 0.0055124 -0.0586333 0.9944876 0.0586333 0.9944876 0.0586333 0.0055124 -0.0586333
2158000000 0.0054063 -0.0576488 0.9945937 0.0576488 0.9945937 0.0576488 0.0054063 -0.0576488
2179000000 0.0053038 -0.0566790 0.9946962 0.0566790 0.9946962 0.0566790 0.0053038 -0.0566790
2200000000 0.0052049 -0.0557235 0.9947951 0.0557235 0.9947951 0.0557235 0.0052049 -0.0557235
2221000000 0.0051094 -0.0547819 0.9948906 0.0547819 0.9948906 0.0547819 0.0051094 -0.0547819
2242000000 0.0050172 -0.0538539 0.9949828 0.0538539 0.9949828 0.0538539 0.0050172 -0.0538539
2263000000 0.0049282 -0.0529391 0.9950718 0.0529391 0.9950718 0.0529391 0.0049282 -0.0529391
2284000000 0.0048423 -0.0520370 0.9951577 0.0520370 0.9951577 0.0520370 0.0048423 -0.0520370
2305000000 0.0047593 -0.0511474 0.9952407 0.0511474 0.9952407 0.0511474 0.0047593 -0.0511474
2326000000 0.0046791 -0.0502700 0.9953209 0.0502700 0.9953209 0.0502700 0.0046791 -0.0502700
2347000000 0.0046017 -0.0494045 0.9953983 0.0494045 0.9953983 0.0494045 0.0046017 -0.0494045
2368000000 0.0045270 -0.0485504 0.9954730 0.0485504 0.9954730 0.0485504 0.0045270 -0.0485504
2389000000 0.0044549 -0.0477076 0.9955451 0.0477076 0.9955451 0.0477076 0.0044549 -0.0477076
2410000000 0.0043853 -0.0468757 0.9956147 0.0468757 0.9956147 0.0468757 0.0043853 -0.0468757
2431000000 0.0043180 -0.0460545 0.9956820 0.0460545 0.9956820 0.0460545 0.0043180 -0.0460545
2452000000 0.0042531 -0.0452436 0.9957469 0.0452436 0.9957469 0.0452436 0.0042531 -0.0452436
2473000000 0.0041905 -0.0444430 0.9958095 0.0444430 0.9958095 0.0444430 0.0041905 -0.0444430
2494000000 0.0041301 -0.0436522 0.9958699 0.0436522 0.9958699 0.0436522 0.0041301 -0.0436522
2515000000 0.0040717 -0.0428710 0.9959283 0.0428710 0.9959283 0.0428710 0.0040717 -0.0428710
2536000000 0.0040155 -0.0420993 0.9959845 0.0420993 0.9959845 0.0420993 0.0040155 -0.0420993
2557000000 0.0039612 -0.0413368 0.9960388 0.0413368 0.9960388 0.0413368 0.0039612 -0.0413368
2578000000 0.0039088 -0.0405832 0.9960912 0.0405832 0.9960912 0.0405832 0.0039088 -0.0405832
2599000000 0.0038583 -0.0398384 0.9961417 0.0398384 0.9961417 0.0398384 0.0038583 -0.0398384
2620000000 0.0038097 -0.0391022 0.9961903 0.0391022 0.9961903 0.0391022 0.0038097 -0.0391022
2641000000 0.0037628 -0.0383743 0.9962372 0.0383743 0.9962372 0.0383743 0.0037628 -0.0383743
2662000000 0.0037176 -0.0376546 0.9962824 0.0376546 0.9962824 0.0376546 0.0037176 -0.0376546
2683000000 0.0036740 -0.0369428 0.9963260 0.0369428 0.9963260 0.0369428 0.0036740 -0.0369428
2704000000 0.0036321 -0.0362389 0.9963679 0.0362389 0.9963679 0.0362389 0.0036321 -0.0362389
2725000000 0.0035917 -0.0355425 0.9964083 0.0355425 0.9964083 0.0355425 0.0035917 -0.0355425
2746000000 0.0035529 -0.0348536 0.9964471 0.0348536 0.9964471 0.0348536 0.0035529 -0.0348536
2767000000 0.0035155 -0.0341720 0.9964845 0.0341720 0.9964845 0.0341720 0.0035155 -0.0341720
2788000000 0.0034796 -0.0334976 0.9965204 0.0334976 0.9965204 0.0334976 0.0034796 -0.0334976
2809000000 0.0034451 -0.0328300 0.9965549 0.0328300 0.9965549 0.0328300 0.0034451 -0.0328300
2830000000 0.0034119 -0.0321693 0.9965881 0.0321693 0.9965881 0.0321693 0.0034119 -0.0321693
2851000000 0.0033801 -0.0315153 0.9966199 0.0315153 0.9966199 0.0315153 0.0033801 -0.0315153
2872000000 0.0033495 -0.0308678 0.9966505 0.0308678 0.9966505 0.0308678 0.0033495 -0.0308678
2893000000 0.0033202 -0.0302267 0.9966798 0.0302267 0.9966798 0.0302267 0.0033202 -0.0302267
2914000000 0.0032921 -0.0295918 0.9967079 0.0295918 0.9967079 0.0295918 0.0032921 -0.0295918
2935000000 0.0032652 -0.0289631 0.9967348 0.0289631 0.9967348 0.0289631 0.0032652 -0.0289631
2956000000 0.0032395 -0.0283403 0.9967605 0.0283403 0.9967605 0.0283403 0.0032395 -0.0283403
2977000000 0.0032149 -0.0277234 0.9967851 0.0277234 0.9967851 0.0277234 0.0032149 -0.0277234
2998000000 0.0031914 -0.0271123 0.9968086 0.0271123 0.9968086 0.0271123 0.0031914 -0.0271123
3019000000 0.0031689 -0.0265068 0.9968311 0.0265068 0.9968311 0.0265068 0.0031689 -0.0265068
3040000000 0.0031475 -0.0259069 0.9968525 0.0259069 0.9968525 0.0259069 0.0031475 -0.0259069
3061000000 0.0031272 -0.0253123 0.9968728 0.0253123 0.9968728 0.0253123 0.0031272 -0.0253123
3082000000 0.0031078 -0.0247230 0.9968922 0.0247230 0.9968922 0.0247230 0.0031078 -0.0247230
3103000000 0.0030894 -0.0241390 0.9969106 0.0241390 0.9969106 0.0241390 0.0030894 -0.0241390
3124000000 0.0030719 -0.0235600 0.9969281 0.0235600 0.9969281 0.0235600 0.0030719 -0.0235600
3145000000 0.0030554 -0.0229860 0.9969446 0.0229860 0.9969446 0.0229860 0.0030554 -0.0229860
3166000000 0.0030397 -0.0224170 0.9969603 0.0224170 0.9969603 0.0224170 0.0030397 -0.0224170
3187000000 0.0030250 -0.0218527 0.9969750 0.0218527 0.9969750 0.0218527 0.0030250 -0.0218527
3208000000 0.0030111 -0.0212931 0.9969889 0.0212931 0.9969889 0.0212931 0.0030111 -0.0212931
3229000000 0.0029981 -0.0207382 0.9970019 0.0207382 0.9970019 0.0207382 0.0029981 -0.0207382
3250000000 0.0029858 -0.0201878 0.9970142 0.0201878 0.9970142 0.0201878 0.0029858 -0.0201878
3271000000 0.0029744 -0.0196419 0.9970256 0.0196419 0.9970256 0.0196419 0.0029744 -0.0196419
3292000000 0.0029638 -0.0191003 0.9970362 0.0191003 0.9970362 0.0191003 0.0029638 -0.0191003
3313000000 0.0029539 -0.0185630 0.9970461 0.0185630 0.9970461 0.0185630 0.0029539 -0.0185630
3334000000 0.0029448 -0.0180299 0.9970552 0.0180299 0.9970552 0.0180299 0.0029448 -0.0180299
3355000000 0.0029364 -0.0175010 0.9970636 0.0175010 0.9970636 0.0175010 0.0029364 -0.0175010
3376000000 0.0029288 -0.0169761 0.9970712 0.0169761 0.9970712 0.0169761 0.0029288 -0.0169761
3397000000 0.0029218 -0.0164552 0.9970782 0.0164552 0.9970782 0.0164552 0.0029218 -0.0164552
3418000000 0.0029155 -0.0159382 0.9970845 0.0159382 0.9970845 0.0159382 0.0029155 -0.0159382
3439000000 0.0029099 -0.0154251 0.9970901 0.0154251 0.9970901 0.0154251 0.0029099 -0.0154251
3460000000 0.0029050 -0.0149157 0.9970950 0.0149157 0.9970950 0.0149157 0.0029050 -0.0149157
3481000000 0.0029007 -0.0144100 0.9970993 0.0144100 0.9970993 0.0144100 0.0029007 -0.0144100
3502000000 0.0028970 -0.0139080 0.9971030 0.0139080 0.9971030 0.0139080 0.0028970 -0.0139080
3523000000 0.0028940 -0.0134096 0.9971060 0.0134096 0.9971060 0.0134096 0.0028940 -0.0134096
3544000000 0.0028916 -0.0129147 0.9971084 0.0129147 0.9971084 0.0129147 0.0028916 -0.0129147
3565000000 0.0028897 -0.0124232 0.9971103 0.0124232 0.9971103 0.0124232 0.0028897 -0.0124232
3586000000 0.0028885 -0.0119351 0.9971115 0.0119351 0.9971115 0.0119351 0.0028885 -0.0119351
3607000000 0.0028878 -0.0114504 0.9971122 0.0114504 0.9971122 0.0114504 0.0028878 -0.0114504
3628000000 0.0028877 -0.0109690 0.9971123 0.0109690 0.9971123 0.0109690 0.0028877 -0.0109690
3649000000 0.0028881 -0.0104908 0.9971119 0.0104908 0.9971119 0.0104908 0.0028881 -0.0104908
3670000000 0.0028891 -0.0100158 0.9971109 0.0100158 0.9971109 0.0100158 0.0028891 -0.0100158
3691000000 0.0028906 -0.0095439 0.9971094 0.0095439 0.9971094 0.0095439 0.0028906 -0.0095439
3712000000 0.0028926 -0.0090751 0.9971074 0.0090751 0.9971074 0.0090751 0.0028926 -0.0090751
3733000000 0.0028951 -0.0086093 0.9971049 0.0086093 0.9971049 0.0086093 0.0028951 -0.0086093
3754000000 0.0028982 -0.0081465 0.9971018 0.0081465 0.9971018 0.0081465 0.0028982 -0.0081465
3775000000 0.0029017 -0.0076866 0.9970983 0.0076866 0.9970983 0.0076866 0.0029017 -0.0076866
3796000000 0.0029057 -0.0072296 0.9970943 0.0072296 0.9970943 0.0072296 0.0029057 -0.0072296
3817000000 0.0029102 -0.0067754 0.9970898 0.0067754 0.9970898 0.0067754 0.0029102 -0.0067754
3838000000 0.0029151 -0.0063240 0.9970849 0.0063240 0.9970849 0.0063240 0.0029151 -0.0063240
3859000000 0.0029205 -0.0058754 0.9970795 0.0058754 0.9970795 0.0058754 0.0029205 -0.0058754
3880000000 0.0029263 -0.0054295 0.9970737 0.0054295 0.9970737 0.0054295 0.0029263 -0.0054295
3901000000 0.0029326 -0.0049862 0.9970674 0.0049862 0.9970674 0.0049862 0.0029326 -0.0049862
3922000000 0.0029393 -0.0045455 0.9970607 0.0045455 0.9970607 0.0045455 0.0029393 -0.0045455
3943000000 0.0029464 -0.0041075 0.9970536 0.0041075 0.9970536 0.0041075 0.0029464 -0.0041075
3964000000 0.0029540 -0.0036719 0.9970460 0.0036719 0.9970460 0.0036719 0.0029540 -0.0036719
3985000000 0.0029619 -0.0032389 0.9970381 0.0032389 0.9970381 0.0032389 0.0029619 -0.0032389
4006000000 0.0029703 -0.0028083 0.9970297 0.0028083 0.9970297 0.0028083 0.0029703 -0.0028083
4027000000 0.0029791 -0.0023802 0.9970209 0.0023802 0.9970209 0.0023802 0.0029791 -0.0023802
4048000000 0.0029882 -0.0019544 0.9970118 0.0019544 0.9970118 0.0019544 0.0029882 -0.0019544
4069000000 0.0029978 -0.0015310 0.9970022 0.0015310 0.9970022 0.0015310 0.0029978 -0.0015310
4090000000 0.0030077 -0.0011099 0.9969923 0.0011099 0.9969923 0.0011099 0.0030077 -0.0011099
4111000000 0.0030179 -0.0006911 0.9969821 0.0006911 0.9969821 0.0006911 0.0030179 -0.0006911
4132000000 0.0030286 -0.0002746 0.9969714 0.0002746 0.9969714 0.0002746 0.0030286 -0.0002746
4153000000 0.0030396 0.0001397 0.9969604 -0.0001397 0.9969604 -0.0001397 0.0030396 0.0001397
4174000000 0.0030510 0.0005519 0.9969490 -0.0005519 0.9969490 -0.0005519 0.0030510 0.0005519
4195000000 0.0030627 0.0009619 0.9969373 -0.0009619 0.9969373 -0.0009619 0.0030627 0.0009619
4216000000 0.0030747 0.0013697 0.9969253 -0.0013697 0.9969253 -0.0013697 0.0030747 0.0013697
4237000000 0.0030871 0.0017755 0.9969129 -0.0017755 0.9969129 -0.0017755 0.0030871 0.0017755
4258000000 0.0030998 0.0021792 0.9969002 -0.0021792 0.9969002 -0.0021792 0.0030998 0.0021792
4279000000 0.0031128 0.0025808 0.9968872 -0.0025808 0.9968872 -0.0025808 0.0031128 0.0025808
4300000000 0.0031262 0.0029805 0.9968738 -0.0029805 0.9968738 -0.0029805 0.0031262 0.0029805
4321000000 0.0031399 0.0033782 0.9968601 -0.0033782 0.9968601 -0.0033782 0.0031399 0.0033782
4342000000 0.0031539 0.0037739 0.9968461 -0.0037739 0.9968461 -0.0037739 0.0031539 0.0037739
4363000000 0.0031682 0.0041677 0.9968318 -0.0041677 0.9968318 -0.0041677 0.0031682 0.0041677
4384000000 0.0031828 0.0045596 0.9968172 -0.0045596 0.9968172 -0.0045596 0.0031828 0.0045596
4405000000 0.0031977 0.0049497 0.9968023 -0.0049497 0.9968023 -0.0049497 0.0031977 0.0049497
4426000000 0.0032129 0.0053379 0.9967871 -0.0053379 0.9967871 -0.0053379 0.0032129 0.0053379
4447000000 0.0032284 0.0057242 0.9967716 -0.0057242 0.9967716 -0.0057242 0.0032284 0.0057242
4468000000 0.0032441 0.0061088 0.9967559 -0.0061088 0.9967559 -0.0061088 0.0032441 0.0061088
4489000000 0.0032602 0.0064916 0.9967398 -0.0064916 0.9967398 -0.0064916 0.0032602 0.0064916
4510000000 0.0032765 0.0068726 0.9967235 -0.0068726 0.9967235 -0.0068726 0.0032765 0.0068726
