!Murata Part Number: GRM0225C1E3R0WA03
!These Parameters are Measured in Series Mode Connection
!Data Generated on Mar 30, 2021
!       o--ll--o
!Port1            Port2
!       o------o
!Operation Temp=25[degC], DC Bias Voltage=0[V]
!Freq. Start=100[MHz] Stop=9[GHz] 401[Steps]
# Hz S RI R 50
!Freq.(Hz) S11(Real) S11(Imag) S21(Real) S21(Imag) S12(Real) S12(Imag) S22(Real) S22(Imag)
100000000 0.9656101 -0.1820405 0.0343899 0.1820405 0.0343899 0.1820405 0.9656101 -0.1820405
121000000 0.9504325 -0.2168218 0.0495675 0.2168218 0.0495675 0.2168218 0.9504325 -0.2168218
142000000 0.9329742 -0.2497985 0.0670258 0.2497985 0.0670258 0.2497985 0.9329742 -0.2497985
163000000 0.9135057 -0.2807838 0.0864943 0.2807838 0.0864943 0.2807838 0.9135057 -0.2807838
184000000 0.8923108 -0.3096377 0.1076892 0.3096377 0.1076892 0.3096377 0.8923108 -0.3096377
205000000 0.8696774 -0.3362669 0.1303226 0.3362669 0.1303226 0.3362669 0.8696774 -0.3362669
226000000 0.8458897 -0.3606215 0.1541103 0.3606215 0.1541103 0.3606215 0.8458897 -0.3606215
247000000 0.8212211 -0.3826919 0.1787789 0.3826919 0.1787789 0.3826919 0.8212211 -0.3826919
268000000 0.7959290 -0.4025031 0.2040710 0.4025031 0.2040710 0.4025031 0.7959290 -0.4025031
289000000 0.7702508 -0.4201100 0.2297492 0.4201100 0.2297492 0.4201100 0.7702508 -0.4201100
310000000 0.7444012 -0.4355918 0.2555988 0.4355918 0.2555988 0.4355918 0.7444012 -0.4355918
331000000 0.7185706 -0.4490464 0.2814294 0.4490464 0.2814294 0.4490464 0.7185706 -0.4490464
352000000 0.6929250 -0.4605854 0.3070750 0.4605854 0.3070750 0.4605854 0.6929250 -0.4605854
373000000 0.6676063 -0.4703300 0.3323937 0.4703300 0.3323937 0.4703300 0.6676063 -0.4703300
394000000 0.6427331 -0.4784065 0.3572669 0.4784065 0.3572669 0.4784065 0.6427331 -0.4784065
415000000 0.6184030 -0.4849433 0.3815970 0.4849433 0.3815970 0.4849433 0.6184030 -0.4849433
436000000 0.5946934 -0.4900680 0.4053066 0.4900680 0.4053066 0.4900680 0.5946934 -0.4900680
457000000 0.5716646 -0.4939055 0.4283354 0.4939055 0.4283354 0.4939055 0.5716646 -0.4939055
478000000 0.5493609 -0.4965759 0.4506391 0.4965759 0.4506391 0.4965759 0.5493609 -0.4965759
499000000 0.5278131 -0.4981939 0.4721869 0.4981939 0.4721869 0.4981939 0.5278131 -0.4981939
520000000 0.5070404 -0.4988674 0.4929596 0.4988674 0.4929596 0.4988674 0.5070404 -0.4988674
541000000 0.4870521 -0.4986974 0.5129479 0.4986974 0.5129479 0.4986974 0.4870521 -0.4986974
562000000 0.4678491 -0.4977777 0.5321509 0.4977777 0.5321509 0.4977777 0.4678491 -0.4977777
583000000 0.4494257 -0.4961947 0.5505743 0.4961947 0.5505743 0.4961947 0.4494257 -0.4961947
604000000 0.4317704 -0.4940277 0.5682296 0.4940277 0.5682296 0.4940277 0.4317704 -0.4940277
625000000 0.4148676 -0.4913490 0.5851324 0.4913490 0.5851324 0.4913490 0.4148676 -0.4913490
646000000 0.3986982 -0.4882244 0.6013018 0.4882244 0.6013018 0.4882244 0.3986982 -0.4882244
667000000 0.3832403 -0.4847135 0.6167597 0.4847135 0.6167597 0.4847135 0.3832403 -0.4847135
688000000 0.3684705 -0.4808699 0.6315295 0.4808699 0.6315295 0.4808699 0.3684705 -0.4808699
709000000 0.3543640 -0.4767421 0.6456360 0.4767421 0.6456360 0.4767421 0.3543640 -0.4767421
730000000 0.3408950 -0.4723732 0.6591050 0.4723732 0.6591050 0.4723732 0.3408950 -0.4723732
751000000 0.3280377 -0.4678020 0.6719623 0.4678020 0.6719623 0.4678020 0.3280377 -0.4678020
772000000 0.3157658 -0.4630631 0.6842342 0.4630631 0.6842342 0.4630631 0.3157658 -0.4630631
793000000 0.3040536 -0.4581872 0.6959464 0.4581872 0.6959464 0.4581872 0.3040536 -0.4581872
814000000 0.2928756 -0.4532017 0.7071244 0.4532017 0.7071244 0.4532017 0.2928756 -0.4532017
835000000 0.2822068 -0.4481307 0.7177932 0.4481307 0.7177932 0.4481307 0.2822068 -0.4481307
856000000 0.2720232 -0.4429957 0.7279768 0.4429957 0.7279768 0.4429957 0.2720232 -0.4429957
877000000 0.2623014 -0.4378154 0.7376986 0.4378154 0.7376986 0.4378154 0.2623014 -0.4378154
898000000 0.2530186 -0.4326065 0.7469814 0.4326065 0.7469814 0.4326065 0.2530186 -0.4326065
919000000 0.2441534 -0.4273836 0.7558466 0.4273836 0.7558466 0.4273836 0.2441534 -0.4273836
940000000 0.2356848 -0.4221594 0.7643152 0.4221594 0.7643152 0.4221594 0.2356848 -0.4221594
961000000 0.2275931 -0.4169450 0.7724069 0.4169450 0.7724069 0.4169450 0.2275931 -0.4169450
982000000 0.2198592 -0.4117501 0.7801408 0.4117501 0.7801408 0.4117501 0.2198592 -0.4117501
1003000000 0.2124652 -0.4065830 0.7875348 0.4065830 0.7875348 0.4065830 0.2124652 -0.4065830
1024000000 0.2053939 -0.4014511 0.7946061 0.4014511 0.7946061 0.4014511 0.2053939 -0.4014511
1045000000 0.1986289 -0.3963604 0.8013711 0.3963604 0.8013711 0.3963604 0.1986289 -0.3963604
1066000000 0.1921549 -0.3913164 0.8078451 0.3913164 0.8078451 0.3913164 0.1921549 -0.3913164
1087000000 0.1859571 -0.3863235 0.8140429 0.3863235 0.8140429 0.3863235 0.1859571 -0.3863235
1108000000 0.1800217 -0.3813856 0.8199783 0.3813856 0.8199783 0.3813856 0.1800217 -0.3813856
1129000000 0.1743354 -0.3765057 0.8256646 0.3765057 0.8256646 0.3765057 0.1743354 -0.3765057
1150000000 0.1688858 -0.3716864 0.8311142 0.3716864 0.8311142 0.3716864 0.1688858 -0.3716864
1171000000 0.1636612 -0.3669300 0.8363388 0.3669300 0.8363388 0.3669300 0.1636612 -0.3669300
1192000000 0.1586503 -0.3622380 0.8413497 0.3622380 0.8413497 0.3622380 0.1586503 -0.3622380
1213000000 0.1538427 -0.3576117 0.8461573 0.3576117 0.8461573 0.3576117 0.1538427 -0.3576117
1234000000 0.1492283 -0.3530521 0.8507717 0.3530521 0.8507717 0.3530521 0.1492283 -0.3530521
1255000000 0.1447977 -0.3485599 0.8552023 0.3485599 0.8552023 0.3485599 0.1447977 -0.3485599
1276000000 0.1405421 -0.3441354 0.8594579 0.3441354 0.8594579 0.3441354 0.1405421 -0.3441354
1297000000 0.1364529 -0.3397789 0.8635471 0.3397789 0.8635471 0.3397789 0.1364529 -0.3397789
1318000000 0.1325222 -0.3354903 0.8674778 0.3354903 0.8674778 0.3354903 0.1325222 -0.3354903
1339000000 0.1287425 -0.3312694 0.8712575 0.3312694 0.8712575 0.3312694 0.1287425 -0.3312694
1360000000 0.1251066 -0.3271159 0.8748934 0.3271159 0.8748934 0.3271159 0.1251066 -0.3271159
1381000000 0.1216078 -0.3230292 0.8783922 0.3230292 0.8783922 0.3230292 0.1216078 -0.3230292
1402000000 0.1182397 -0.3190090 0.8817603 0.3190090 0.8817603 0.3190090 0.1182397 -0.3190090
1423000000 0.1149962 -0.3150543 0.8850038 0.3150543 0.8850038 0.3150543 0.1149962 -0.3150543
1444000000 0.1118717 -0.3111646 0.8881283 0.3111646 0.8881283 0.3111646 0.1118717 -0.3111646
1465000000 0.1088606 -0.3073389 0.8911394 0.3073389 0.8911394 0.3073389 0.1088606 -0.3073389
1486000000 0.1059580 -0.3035765 0.8940420 0.3035765 0.8940420 0.3035765 0.1059580 -0.3035765
1507000000 0.1031589 -0.2998763 0.8968411 0.2998763 0.8968411 0.2998763 0.1031589 -0.2998763
1528000000 0.1004586 -0.2962374 0.8995414 0.2962374 0.8995414 0.2962374 0.1004586 -0.2962374
1549000000 0.0978530 -0.2926589 0.9021470 0.2926589 0.9021470 0.2926589 0.0978530 -0.2926589
1570000000 0.0953377 -0.2891397 0.9046623 0.2891397 0.9046623 0.2891397 0.0953377 -0.2891397
1591000000 0.0929089 -0.2856787 0.9070911 0.2856787 0.9070911 0.2856787 0.0929089 -0.2856787
1612000000 0.0905629 -0.2822750 0.9094371 0.2822750 0.9094371 0.2822750 0.0905629 -0.2822750
1633000000 0.0882960 -0.2789274 0.9117040 0.2789274 0.9117040 0.2789274 0.0882960 -0.2789274
1654000000 0.0861051 -0.2756350 0.9138949 0.2756350 0.9138949 0.2756350 0.0861051 -0.2756350
1675000000 0.0839867 -0.2723966 0.9160133 0.2723966 0.9160133 0.2723966 0.0839867 -0.2723966
1696000000 0.0819381 -0.2692112 0.9180619 0.2692112 0.9180619 0.2692112 0.0819381 -0.2692112
1717000000 0.0799561 -0.2660777 0.9200439 0.2660777 0.9200439 0.2660777 0.0799561 -0.2660777
1738000000 0.0780382 -0.2629952 0.9219618 0.2629952 0.9219618 0.2629952 0.0780382 -0.2629952
1759000000 0.0761817 -0.2599625 0.9238183 0.2599625 0.9238183 0.2599625 0.0761817 -0.2599625
1780000000 0.0743841 -0.2569786 0.9256159 0.2569786 0.9256159 0.2569786 0.0743841 -0.2569786
1801000000 0.0726431 -0.2540426 0.9273569 0.2540426 0.9273569 0.2540426 0.0726431 -0.2540426
1822000000 0.0709564 -0.2511535 0.9290436 0.2511535 0.9290436 0.2511535 0.0709564 -0.2511535
1843000000 0.0693219 -0.2483101 0.9306781 0.2483101 0.9306781 0.2483101 0.0693219 -0.2483101
1864000000 0.0677375 -0.2455117 0.9322625 0.2455117 0.9322625 0.2455117 0.0677375 -0.2455117
1885000000 0.0662013 -0.2427572 0.9337987 0.2427572 0.9337987 0.2427572 0.0662013 -0.2427572
1906000000 0.0647115 -0.2400457 0.9352885 0.2400457 0.9352885 0.2400457 0.0647115 -0.2400457
1927000000 0.0632663 -0.2373762 0.9367337 0.2373762 0.9367337 0.2373762 0.0632663 -0.2373762
1948000000 0.0618639 -0.2347480 0.9381361 0.2347480 0.9381361 0.2347480 0.0618639 -0.2347480
1969000000 0.0605028 -0.2321600 0.9394972 0.2321600 0.9394972 0.2321600 0.0605028 -0.2321600
1990000000 0.0591815 -0.2296115 0.9408185 0.2296115 0.9408185 0.2296115 0.0591815 -0.2296115
2011000000 0.0578984 -0.2271016 0.9421016 0.2271016 0.9421016 0.2271016 0.0578984 -0.2271016
2032000000 0.0566522 -0.2246294 0.9433478 0.2246294 0.9433478 0.2246294 0.0566522 -0.2246294
2053000000 0.0554415 -0.2221941 0.9445585 0.2221941 0.9445585 0.2221941 0.0554415 -0.2221941
2074000000 0.0542651 -0.2197950 0.9457349 0.2197950 0.9457349 0.2197950 0.0542651 -0.2197950
2095000000 0.0531218 -0.2174313 0.9468782 0.2174313 0.9468782 0.2174313 0.0531218 -0.2174313
2116000000 0.0520102 -0.2151022 0.9479898 0.2151022 0.9479898 0.2151022 0.0520102 -0.2151022
2137000000 0.0509294 -0.2128070 0.9490706 0.2128070 0.9490706 0.2128070 0.0509294 -0.2128070
2158000000 0.0498783 -0.2105449 0.9501217 0.2105449 0.9501217 0.2105449 0.0498783 -0.2105449
2179000000 0.0488558 -0.2083153 0.9511442 0.2083153 0.9511442 0.2083153 0.0488558 -0.2083153
2200000000 0.0478610 -0.2061174 0.9521390 0.2061174 0.9521390 0.2061174 0.0478610 -0.2061174
2221000000 0.0468928 -0.2039506 0.9531072 0.2039506 0.9531072 0.2039506 0.0468928 -0.2039506
2242000000 0.0459505 -0.2018142 0.9540495 0.2018142 0.9540495 0.2018142 0.0459505 -0.2018142
2263000000 0.0450331 -0.1997076 0.9549669 0.1997076 0.9549669 0.1997076 0.0450331 -0.1997076
2284000000 0.0441397 -0.1976302 0.9558603 0.1976302 0.9558603 0.1976302 0.0441397 -0.1976302
2305000000 0.0432697 -0.1955813 0.9567303 0.1955813 0.9567303 0.1955813 0.0432697 -0.1955813
2326000000 0.0424222 -0.1935603 0.9575778 0.1935603 0.9575778 0.1935603 0.0424222 -0.1935603
2347000000 0.0415966 -0.1915667 0.9584034 0.1915667 0.9584034 0.1915667 0.0415966 -0.1915667
2368000000 0.0407920 -0.1895999 0.9592080 0.1895999 0.9592080 0.1895999 0.0407920 -0.1895999
2389000000 0.0400078 -0.1876593 0.9599922 0.1876593 0.9599922 0.1876593 0.0400078 -0.1876593
2410000000 0.0392434 -0.1857444 0.9607566 0.1857444 0.9607566 0.1857444 0.0392434 -0.1857444
2431000000 0.0384982 -0.1838547 0.9615018 0.1838547 0.9615018 0.1838547 0.0384982 -0.1838547
2452000000 0.0377714 -0.1819896 0.9622286 0.1819896 0.9622286 0.1819896 0.0377714 -0.1819896
2473000000 0.0370627 -0.1801487 0.9629373 0.1801487 0.9629373 0.1801487 0.0370627 -0.1801487
2494000000 0.0363713 -0.1783314 0.9636287 0.1783314 0.9636287 0.1783314 0.0363713 -0.1783314
2515000000 0.0356968 -0.1765373 0.9643032 0.1765373 0.9643032 0.1765373 0.0356968 -0.1765373
2536000000 0.0350387 -0.1747659 0.9649613 0.1747659 0.9649613 0.1747659 0.0350387 -0.1747659
2557000000 0.0343964 -0.1730168 0.9656036 0.1730168 0.9656036 0.1730168 0.0343964 -0.1730168
2578000000 0.0337696 -0.1712895 0.9662304 0.1712895 0.9662304 0.1712895 0.0337696 -0.1712895
2599000000 0.0331576 -0.1695835 0.9668424 0.1695835 0.9668424 0.1695835 0.0331576 -0.1695835
2620000000 0.0325601 -0.1678986 0.9674399 0.1678986 0.9674399 0.1678986 0.0325601 -0.1678986
2641000000 0.0319767 -0.1662341 0.9680233 0.1662341 0.9680233 0.1662341 0.0319767 -0.1662341
2662000000 0.0314069 -0.1645898 0.9685931 0.1645898 0.9685931 0.1645898 0.0314069 -0.1645898
2683000000 0.0308503 -0.1629652 0.9691497 0.1629652 0.9691497 0.1629652 0.0308503 -0.1629652
2704000000 0.0303066 -0.1613600 0.9696934 0.1613600 0.9696934 0.1613600 0.0303066 -0.1613600
2725000000 0.0297755 -0.1597737 0.9702245 0.1597737 0.9702245 0.1597737 0.0297755 -0.1597737
2746000000 0.0292564 -0.1582061 0.9707436 0.1582061 0.9707436 0.1582061 0.0292564 -0.1582061
2767000000 0.0287492 -0.1566568 0.9712508 0.1566568 0.9712508 0.1566568 0.0287492 -0.1566568
2788000000 0.0282534 -0.1551253 0.9717466 0.1551253 0.9717466 0.1551253 0.0282534 -0.1551253
2809000000 0.0277687 -0.1536115 0.9722313 0.1536115 0.9722313 0.1536115 0.0277687 -0.1536115
2830000000 0.0272949 -0.1521148 0.9727051 0.1521148 0.9727051 0.1521148 0.0272949 -0.1521148
2851000000 0.0268317 -0.1506351 0.9731683 0.1506351 0.9731683 0.1506351 0.0268317 -0.1506351
2872000000 0.0263787 -0.1491720 0.9736213 0.1491720 0.9736213 0.1491720 0.0263787 -0.1491720
2893000000 0.0259356 -0.1477251 0.9740644 0.1477251 0.9740644 0.1477251 0.0259356 -0.1477251
2914000000 0.0255023 -0.1462943 0.9744977 0.1462943 0.9744977 0.1462943 0.0255023 -0.1462943
2935000000 0.0250784 -0.1448791 0.9749216 0.1448791 0.9749216 0.1448791 0.0250784 -0.1448791
2956000000 0.0246637 -0.1434794 0.9753363 0.1434794 0.9753363 0.1434794 0.0246637 -0.1434794
2977000000 0.0242580 -0.1420947 0.9757420 0.1420947 0.9757420 0.1420947 0.0242580 -0.1420947
2998000000 0.0238609 -0.1407250 0.9761391 0.1407250 0.9761391 0.1407250 0.0238609 -0.1407250
3019000000 0.0234724 -0.1393697 0.9765276 0.1393697 0.9765276 0.1393697 0.0234724 -0.1393697
3040000000 0.0230921 -0.1380288 0.9769079 0.1380288 0.9769079 0.1380288 0.0230921 -0.1380288
3061000000 0.0227199 -0.1367020 0.9772801 0.1367020 0.9772801 0.1367020 0.0227199 -0.1367020
3082000000 0.0223555 -0.1353890 0.9776445 0.1353890 0.9776445 0.1353890 0.0223555 -0.1353890
3103000000 0.0219988 -0.1340895 0.9780012 0.1340895 0.9780012 0.1340895 0.0219988 -0.1340895
3124000000 0.0216495 -0.1328033 0.9783505 0.1328033 0.9783505 0.1328033 0.0216495 -0.1328033
3145000000 0.0213075 -0.1315303 0.9786925 0.1315303 0.9786925 0.1315303 0.0213075 -0.1315303
3166000000 0.0209726 -0.1302701 0.9790274 0.1302701 0.9790274 0.1302701 0.0209726 -0.1302701
3187000000 0.0206446 -0.1290225 0.9793554 0.1290225 0.9793554 0.1290225 0.0206446 -0.1290225
3208000000 0.0203233 -0.1277873 0.9796767 0.1277873 0.9796767 0.1277873 0.0203233 -0.1277873
3229000000 0.0200086 -0.1265644 0.9799914 0.1265644 0.9799914 0.1265644 0.0200086 -0.1265644
3250000000 0.0197004 -0.1253534 0.9802996 0.1253534 0.9802996 0.1253534 0.0197004 -0.1253534
3271000000 0.0193984 -0.1241542 0.9806016 0.1241542 0.9806016 0.1241542 0.0193984 -0.1241542
3292000000 0.0191025 -0.1229667 0.9808975 0.1229667 0.9808975 0.1229667 0.0191025 -0.1229667
3313000000 0.0188125 -0.1217905 0.9811875 0.1217905 0.9811875 0.1217905 0.0188125 -0.1217905
3334000000 0.0185284 -0.1206255 0.9814716 0.1206255 0.9814716 0.1206255 0.0185284 -0.1206255
3355000000 0.0182500 -0.1194715 0.9817500 0.1194715 0.9817500 0.1194715 0.0182500 -0.1194715
3376000000 0.0179771 -0.1183283 0.9820229 0.1183283 0.9820229 0.1183283 0.0179771 -0.1183283
3397000000 0.0177096 -0.1171958 0.9822904 0.1171958 0.9822904 0.1171958 0.0177096 -0.1171958
3418000000 0.0174475 -0.1160737 0.9825525 0.1160737 0.9825525 0.1160737 0.0174475 -0.1160737
3439000000 0.0171905 -0.1149620 0.9828095 0.1149620 0.9828095 0.1149620 0.0171905 -0.1149620
3460000000 0.0169385 -0.1138604 0.9830615 0.1138604 0.9830615 0.1138604 0.0169385 -0.1138604
3481000000 0.0166915 -0.1127687 0.9833085 0.1127687 0.9833085 0.1127687 0.0166915 -0.1127687
3502000000 0.0164494 -0.1116869 0.9835506 0.1116869 0.9835506 0.1116869 0.0164494 -0.1116869
3523000000 0.0162119 -0.1106147 0.9837881 0.1106147 0.9837881 0.1106147 0.0162119 -0.1106147
3544000000 0.0159791 -0.1095520 0.9840209 0.1095520 0.9840209 0.1095520 0.0159791 -0.1095520
3565000000 0.0157508 -0.1084986 0.9842492 0.1084986 0.9842492 0.1084986 0.0157508 -0.1084986
3586000000 0.0155269 -0.1074545 0.9844731 0.1074545 0.9844731 0.1074545 0.0155269 -0.1074545
3607000000 0.0153073 -0.1064194 0.9846927 0.1064194 0.9846927 0.1064194 0.0153073 -0.1064194
3628000000 0.0150919 -0.1053931 0.9849081 0.1053931 0.9849081 0.1053931 0.0150919 -0.1053931
3649000000 0.0148806 -0.1043757 0.9851194 0.1043757 0.9851194 0.1043757 0.0148806 -0.1043757
3670000000 0.0146734 -0.1033669 0.9853266 0.1033669 0.9853266 0.1033669 0.0146734 -0.1033669
3691000000 0.0144701 -0.1023665 0.9855299 0.1023665 0.9855299 0.1023665 0.0144701 -0.1023665
3712000000 0.0142707 -0.1013746 0.9857293 0.1013746 0.9857293 0.1013746 0.0142707 -0.1013746
3733000000 0.0140751 -0.1003908 0.9859249 0.1003908 0.9859249 0.1003908 0.0140751 -0.1003908
3754000000 0.0138832 -0.0994152 0.9861168 0.0994152 0.9861168 0.0994152 0.0138832 -0.0994152
3775000000 0.0136949 -0.0984476 0.9863051 0.0984476 0.9863051 0.0984476 0.0136949 -0.0984476
3796000000 0.0135102 -0.0974878 0.9864898 0.0974878 0.9864898 0.0974878 0.0135102 -0.0974878
3817000000 0.0133290 -0.0965358 0.9866710 0.0965358 0.9866710 0.0965358 0.0133290 -0.0965358
3838000000 0.0131511 -0.0955914 0.9868489 0.0955914 0.9868489 0.0955914 0.0131511 -0.0955914
3859000000 0.0129766 -0.0946545 0.9870234 0.0946545 0.9870234 0.0946545 0.0129766 -0.0946545
3880000000 0.0128053 -0.0937250 0.9871947 0.0937250 0.9871947 0.0937250 0.0128053 -0.0937250
3901000000 0.0126373 -0.0928028 0.9873627 0.0928028 0.9873627 0.0928028 0.0126373 -0.0928028
3922000000 0.0124724 -0.0918878 0.9875276 0.0918878 0.9875276 0.0918878 0.0124724 -0.0918878
3943000000 0.0123105 -0.0909798 0.9876895 0.0909798 0.9876895 0.0909798 0.0123105 -0.0909798
3964000000 0.0121517 -0.0900789 0.9878483 0.0900789 0.9878483 0.0900789 0.0121517 -0.0900789
3985000000 0.0119958 -0.0891848 0.9880042 0.0891848 0.9880042 0.0891848 0.0119958 -0.0891848
4006000000 0.0118428 -0.0882975 0.9881572 0.0882975 0.9881572 0.0882975 0.0118428 -0.0882975
4027000000 0.0116927 -0.0874169 0.9883073 0.0874169 0.9883073 0.0874169 0.0116927 -0.0874169
4048000000 0.0115453 -0.0865429 0.9884547 0.0865429 0.9884547 0.0865429 0.0115453 -0.0865429
4069000000 0.0114007 -0.0856753 0.9885993 0.0856753 0.9885993 0.0856753 0.0114007 -0.0856753
4090000000 0.0112587 -0.0848141 0.9887413 0.0848141 0.9887413 0.0848141 0.0112587 -0.0848141
4111000000 0.0111193 -0.0839593 0.9888807 0.0839593 0.9888807 0.0839593 0.0111193 -0.0839593
4132000000 0.0109825 -0.0831106 0.9890175 0.0831106 0.9890175 0.0831106 0.0109825 -0.0831106
4153000000 0.0108483 -0.0822681 0.9891517 0.0822681 0.9891517 0.0822681 0.0108483 -0.0822681
4174000000 0.0107165 -0.0814317 0.9892835 0.0814317 0.9892835 0.0814317 0.0107165 -0.0814317
4195000000 0.0105871 -0.0806011 0.9894129 0.0806011 0.9894129 0.0806011 0.0105871 -0.0806011
4216000000 0.0104601 -0.0797765 0.9895399 0.0797765 0.9895399 0.0797765 0.0104601 -0.0797765
4237000000 0.0103355 -0.0789577 0.9896645 0.0789577 0.9896645 0.0789577 0.0103355 -0.0789577
4258000000 0.0102131 -0.0781445 0.9897869 0.0781445 0.9897869 0.0781445 0.0102131 -0.0781445
4279000000 0.0100930 -0.0773370 0.9899070 0.0773370 0.9899070 0.0773370 0.0100930 -0.0773370
4300000000 0.0099752 -0.0765351 0.9900248 0.0765351 0.9900248 0.0765351 0.0099752 -0.0765351
4321000000 0.0098594 -0.0757387 0.9901406 0.0757387 0.9901406 0.0757387 0.0098594 -0.0757387
4342000000 0.0097458 -0.0749476 0.9902542 0.0749476 0.9902542 0.0749476 0.0097458 -0.0749476
4363000000 0.0096343 -0.0741619 0.9903657 0.0741619 0.9903657 0.0741619 0.0096343 -0.0741619
4384000000 0.0095249 -0.0733815 0.9904751 0.0733815 0.9904751 0.0733815 0.0095249 -0.0733815
4405000000 0.0094174 -0.0726063 0.9905826 0.0726063 0.9905826 0.0726063 0.0094174 -0.0726063
4426000000 0.0093120 -0.0718362 0.9906880 0.0718362 0.9906880 0.0718362 0.0093120 -0.0718362
4447000000 0.0092085 -0.0710711 0.9907915 0.0710711 0.9907915 0.0710711 0.0092085 -0.0710711
4468000000 0.0091069 -0.0703111 0.9908931 0.0703111 0.9908931 0.0703111 0.0091069 -0.0703111
4489000000 0.0090072 -0.0695559 0.9909928 0.0695559 0.9909928 0.0695559 0.0090072 -0.0695559
4510000000 0.0089093 -0.0688057 0.9910907 0.0688057 0.9910907 0.0688057 0.0089093 -0.0688057
