!Murata Part Number: GRM0222C1C470JA02
!These Parameters are Measured in Series Mode Connection
!Data Generated on Mar 30, 2021
!       o--ll--o
!Port1            Port2
!       o------o
!Operation Temp=25[degC], DC Bias Voltage=0[V]
!Freq. Start=100[MHz] Stop=9[GHz] 401[Steps]
# Hz S RI R 50
!Freq.(Hz) S11(Real) S11(Imag) S21(Real) S21(Imag) S12(Real) S12(Imag) S22(Real) S22(Imag)
100000000 0.1032229 -0.3022462 0.8967771 0.3022462 0.8967771 0.3022462 0.1032229 -0.3022462
121000000 0.0730499 -0.2577917 0.9269501 0.2577917 0.9269501 0.2577917 0.0730499 -0.2577917
142000000 0.0542712 -0.2237008 0.9457288 0.2237008 0.9457288 0.2237008 0.0542712 -0.2237008
163000000 0.0418677 -0.1970097 0.9581323 0.1970097 0.9581323 0.1970097 0.0418677 -0.1970097
184000000 0.0332776 -0.1756557 0.9667224 0.1756557 0.9667224 0.1756557 0.0332776 -0.1756557
205000000 0.0270966 -0.1582304 0.9729034 0.1582304 0.9729034 0.1582304 0.0270966 -0.1582304
226000000 0.0225076 -0.1437610 0.9774924 0.1437610 0.9774924 0.1437610 0.0225076 -0.1437610
247000000 0.0190108 -0.1315620 0.9809892 0.1315620 0.9809892 0.1315620 0.0190108 -0.1315620
268000000 0.0162871 -0.1211400 0.9837129 0.1211400 0.9837129 0.1211400 0.0162871 -0.1211400
289000000 0.0141257 -0.1121322 0.9858743 0.1121322 0.9858743 0.1121322 0.0141257 -0.1121322
310000000 0.0123827 -0.1042670 0.9876173 0.1042670 0.9876173 0.1042670 0.0123827 -0.1042670
331000000 0.0109574 -0.0973373 0.9890426 0.0973373 0.9890426 0.0973373 0.0109574 -0.0973373
352000000 0.0097775 -0.0911825 0.9902225 0.0911825 0.9902225 0.0911825 0.0097775 -0.0911825
373000000 0.0087901 -0.0856766 0.9912099 0.0856766 0.9912099 0.0856766 0.0087901 -0.0856766
394000000 0.0079560 -0.0807192 0.9920440 0.0807192 0.9920440 0.0807192 0.0079560 -0.0807192
415000000 0.0072454 -0.0762294 0.9927546 0.0762294 0.9927546 0.0762294 0.0072454 -0.0762294
436000000 0.0066352 -0.0721416 0.9933648 0.0721416 0.9933648 0.0721416 0.0066352 -0.0721416
457000000 0.0061078 -0.0684016 0.9938922 0.0684016 0.9938922 0.0684016 0.0061078 -0.0684016
478000000 0.0056491 -0.0649645 0.9943509 0.0649645 0.9943509 0.0649645 0.0056491 -0.0649645
499000000 0.0052478 -0.0617929 0.9947522 0.0617929 0.9947522 0.0617929 0.0052478 -0.0617929
520000000 0.0048951 -0.0588553 0.9951049 0.0588553 0.9951049 0.0588553 0.0048951 -0.0588553
541000000 0.0045836 -0.0561248 0.9954164 0.0561248 0.9954164 0.0561248 0.0045836 -0.0561248
562000000 0.0043073 -0.0535786 0.9956927 0.0535786 0.9956927 0.0535786 0.0043073 -0.0535786
583000000 0.0040614 -0.0511971 0.9959386 0.0511971 0.9959386 0.0511971 0.0040614 -0.0511971
604000000 0.0038417 -0.0489633 0.9961583 0.0489633 0.9961583 0.0489633 0.0038417 -0.0489633
625000000 0.0036449 -0.0468625 0.9963551 0.0468625 0.9963551 0.0468625 0.0036449 -0.0468625
646000000 0.0034680 -0.0448820 0.9965320 0.0448820 0.9965320 0.0448820 0.0034680 -0.0448820
667000000 0.0033087 -0.0430105 0.9966913 0.0430105 0.9966913 0.0430105 0.0033087 -0.0430105
688000000 0.0031649 -0.0412381 0.9968351 0.0412381 0.9968351 0.0412381 0.0031649 -0.0412381
709000000 0.0030347 -0.0395561 0.9969653 0.0395561 0.9969653 0.0395561 0.0030347 -0.0395561
730000000 0.0029168 -0.0379568 0.9970832 0.0379568 0.9970832 0.0379568 0.0029168 -0.0379568
751000000 0.0028097 -0.0364334 0.9971903 0.0364334 0.9971903 0.0364334 0.0028097 -0.0364334
772000000 0.0027124 -0.0349796 0.9972876 0.0349796 0.9972876 0.0349796 0.0027124 -0.0349796
793000000 0.0026238 -0.0335901 0.9973762 0.0335901 0.9973762 0.0335901 0.0026238 -0.0335901
814000000 0.0025431 -0.0322598 0.9974569 0.0322598 0.9974569 0.0322598 0.0025431 -0.0322598
835000000 0.0024696 -0.0309844 0.9975304 0.0309844 0.9975304 0.0309844 0.0024696 -0.0309844
856000000 0.0024025 -0.0297598 0.9975975 0.0297598 0.9975975 0.0297598 0.0024025 -0.0297598
877000000 0.0023413 -0.0285825 0.9976587 0.0285825 0.9976587 0.0285825 0.0023413 -0.0285825
898000000 0.0022855 -0.0274491 0.9977145 0.0274491 0.9977145 0.0274491 0.0022855 -0.0274491
919000000 0.0022346 -0.0263567 0.9977654 0.0263567 0.9977654 0.0263567 0.0022346 -0.0263567
940000000 0.0021881 -0.0253025 0.9978119 0.0253025 0.9978119 0.0253025 0.0021881 -0.0253025
961000000 0.0021458 -0.0242840 0.9978542 0.0242840 0.9978542 0.0242840 0.0021458 -0.0242840
982000000 0.0021073 -0.0232990 0.9978927 0.0232990 0.9978927 0.0232990 0.0021073 -0.0232990
1003000000 0.0020723 -0.0223455 0.9979277 0.0223455 0.9979277 0.0223455 0.0020723 -0.0223455
1024000000 0.0020405 -0.0214213 0.9979595 0.0214213 0.9979595 0.0214213 0.0020405 -0.0214213
1045000000 0.0020117 -0.0205249 0.9979883 0.0205249 0.9979883 0.0205249 0.0020117 -0.0205249
1066000000 0.0019857 -0.0196546 0.9980143 0.0196546 0.9980143 0.0196546 0.0019857 -0.0196546
1087000000 0.0019623 -0.0188089 0.9980377 0.0188089 0.9980377 0.0188089 0.0019623 -0.0188089
1108000000 0.0019413 -0.0179864 0.9980587 0.0179864 0.9980587 0.0179864 0.0019413 -0.0179864
1129000000 0.0019226 -0.0171858 0.9980774 0.0171858 0.9980774 0.0171858 0.0019226 -0.0171858
1150000000 0.0019059 -0.0164059 0.9980941 0.0164059 0.9980941 0.0164059 0.0019059 -0.0164059
1171000000 0.0018912 -0.0156457 0.9981088 0.0156457 0.9981088 0.0156457 0.0018912 -0.0156457
1192000000 0.0018784 -0.0149040 0.9981216 0.0149040 0.9981216 0.0149040 0.0018784 -0.0149040
1213000000 0.0018672 -0.0141801 0.9981328 0.0141801 0.9981328 0.0141801 0.0018672 -0.0141801
1234000000 0.0018577 -0.0134728 0.9981423 0.0134728 0.9981423 0.0134728 0.0018577 -0.0134728
1255000000 0.0018498 -0.0127815 0.9981502 0.0127815 0.9981502 0.0127815 0.0018498 -0.0127815
1276000000 0.0018433 -0.0121053 0.9981567 0.0121053 0.9981567 0.0121053 0.0018433 -0.0121053
1297000000 0.0018381 -0.0114435 0.9981619 0.0114435 0.9981619 0.0114435 0.0018381 -0.0114435
1318000000 0.0018343 -0.0107955 0.9981657 0.0107955 0.9981657 0.0107955 0.0018343 -0.0107955
1339000000 0.0018316 -0.0101606 0.9981684 0.0101606 0.9981684 0.0101606 0.0018316 -0.0101606
1360000000 0.0018302 -0.0095381 0.9981698 0.0095381 0.9981698 0.0095381 0.0018302 -0.0095381
1381000000 0.0018298 -0.0089276 0.9981702 0.0089276 0.9981702 0.0089276 0.0018298 -0.0089276
1402000000 0.0018305 -0.0083285 0.9981695 0.0083285 0.9981695 0.0083285 0.0018305 -0.0083285
1423000000 0.0018321 -0.0077403 0.9981679 0.0077403 0.9981679 0.0077403 0.0018321 -0.0077403
1444000000 0.0018348 -0.0071626 0.9981652 0.0071626 0.9981652 0.0071626 0.0018348 -0.0071626
1465000000 0.0018383 -0.0065948 0.9981617 0.0065948 0.9981617 0.0065948 0.0018383 -0.0065948
1486000000 0.0018427 -0.0060366 0.9981573 0.0060366 0.9981573 0.0060366 0.0018427 -0.0060366
1507000000 0.0018479 -0.0054876 0.9981521 0.0054876 0.9981521 0.0054876 0.0018479 -0.0054876
1528000000 0.0018539 -0.0049474 0.9981461 0.0049474 0.9981461 0.0049474 0.0018539 -0.0049474
1549000000 0.0018607 -0.0044156 0.9981393 0.0044156 0.9981393 0.0044156 0.0018607 -0.0044156
1570000000 0.0018681 -0.0038919 0.9981319 0.0038919 0.9981319 0.0038919 0.0018681 -0.0038919
1591000000 0.0018763 -0.0033761 0.9981237 0.0033761 0.9981237 0.0033761 0.0018763 -0.0033761
1612000000 0.0018852 -0.0028678 0.9981148 0.0028678 0.9981148 0.0028678 0.0018852 -0.0028678
1633000000 0.0018947 -0.0023666 0.9981053 0.0023666 0.9981053 0.0023666 0.0018947 -0.0023666
1654000000 0.0019048 -0.0018725 0.9980952 0.0018725 0.9980952 0.0018725 0.0019048 -0.0018725
1675000000 0.0019155 -0.0013850 0.9980845 0.0013850 0.9980845 0.0013850 0.0019155 -0.0013850
1696000000 0.0019268 -0.0009039 0.9980732 0.0009039 0.9980732 0.0009039 0.0019268 -0.0009039
1717000000 0.0019386 -0.0004291 0.9980614 0.0004291 0.9980614 0.0004291 0.0019386 -0.0004291
1738000000 0.0019510 0.0000397 0.9980490 -0.0000397 0.9980490 -0.0000397 0.0019510 0.0000397
1759000000 0.0019639 0.0005028 0.9980361 -0.0005028 0.9980361 -0.0005028 0.0019639 0.0005028
1780000000 0.0019773 0.0009603 0.9980227 -0.0009603 0.9980227 -0.0009603 0.0019773 0.0009603
1801000000 0.0019911 0.0014124 0.9980089 -0.0014124 0.9980089 -0.0014124 0.0019911 0.0014124
1822000000 0.0020055 0.0018593 0.9979945 -0.0018593 0.9979945 -0.0018593 0.0020055 0.0018593
1843000000 0.0020202 0.0023011 0.9979798 -0.0023011 0.9979798 -0.0023011 0.0020202 0.0023011
1864000000 0.0020355 0.0027381 0.9979645 -0.0027381 0.9979645 -0.0027381 0.0020355 0.0027381
1885000000 0.0020511 0.0031704 0.9979489 -0.0031704 0.9979489 -0.0031704 0.0020511 0.0031704
1906000000 0.0020672 0.0035982 0.9979328 -0.0035982 0.9979328 -0.0035982 0.0020672 0.0035982
1927000000 0.0020837 0.0040215 0.9979163 -0.0040215 0.9979163 -0.0040215 0.0020837 0.0040215
1948000000 0.0021006 0.0044406 0.9978994 -0.0044406 0.9978994 -0.0044406 0.0021006 0.0044406
1969000000 0.0021178 0.0048556 0.9978822 -0.0048556 0.9978822 -0.0048556 0.0021178 0.0048556
1990000000 0.0021354 0.0052665 0.9978646 -0.0052665 0.9978646 -0.0052665 0.0021354 0.0052665
2011000000 0.0021534 0.0056736 0.9978466 -0.0056736 0.9978466 -0.0056736 0.0021534 0.0056736
2032000000 0.0021717 0.0060769 0.9978283 -0.0060769 0.9978283 -0.0060769 0.0021717 0.0060769
2053000000 0.0021904 0.0064766 0.9978096 -0.0064766 0.9978096 -0.0064766 0.0021904 0.0064766
2074000000 0.0022095 0.0068727 0.9977905 -0.0068727 0.9977905 -0.0068727 0.0022095 0.0068727
2095000000 0.0022288 0.0072655 0.9977712 -0.0072655 0.9977712 -0.0072655 0.0022288 0.0072655
2116000000 0.0022485 0.0076548 0.9977515 -0.0076548 0.9977515 -0.0076548 0.0022485 0.0076548
2137000000 0.0022685 0.0080410 0.9977315 -0.0080410 0.9977315 -0.0080410 0.0022685 0.0080410
2158000000 0.0022888 0.0084240 0.9977112 -0.0084240 0.9977112 -0.0084240 0.0022888 0.0084240
2179000000 0.0023094 0.0088039 0.9976906 -0.0088039 0.9976906 -0.0088039 0.0023094 0.0088039
2200000000 0.0023303 0.0091809 0.9976697 -0.0091809 0.9976697 -0.0091809 0.0023303 0.0091809
2221000000 0.0023515 0.0095550 0.9976485 -0.0095550 0.9976485 -0.0095550 0.0023515 0.0095550
2242000000 0.0023730 0.0099263 0.9976270 -0.0099263 0.9976270 -0.0099263 0.0023730 0.0099263
2263000000 0.0023947 0.0102948 0.9976053 -0.0102948 0.9976053 -0.0102948 0.0023947 0.0102948
2284000000 0.0024168 0.0106608 0.9975832 -0.0106608 0.9975832 -0.0106608 0.0024168 0.0106608
2305000000 0.0024391 0.0110241 0.9975609 -0.0110241 0.9975609 -0.0110241 0.0024391 0.0110241
2326000000 0.0024616 0.0113849 0.9975384 -0.0113849 0.9975384 -0.0113849 0.0024616 0.0113849
2347000000 0.0024845 0.0117433 0.9975155 -0.0117433 0.9975155 -0.0117433 0.0024845 0.0117433
2368000000 0.0025076 0.0120993 0.9974924 -0.0120993 0.9974924 -0.0120993 0.0025076 0.0120993
2389000000 0.0025310 0.0124530 0.9974690 -0.0124530 0.9974690 -0.0124530 0.0025310 0.0124530
2410000000 0.0025546 0.0128044 0.9974454 -0.0128044 0.9974454 -0.0128044 0.0025546 0.0128044
2431000000 0.0025784 0.0131536 0.9974216 -0.0131536 0.9974216 -0.0131536 0.0025784 0.0131536
2452000000 0.0026025 0.0135007 0.9973975 -0.0135007 0.9973975 -0.0135007 0.0026025 0.0135007
2473000000 0.0026269 0.0138457 0.9973731 -0.0138457 0.9973731 -0.0138457 0.0026269 0.0138457
2494000000 0.0026515 0.0141886 0.9973485 -0.0141886 0.9973485 -0.0141886 0.0026515 0.0141886
2515000000 0.0026763 0.0145296 0.9973237 -0.0145296 0.9973237 -0.0145296 0.0026763 0.0145296
2536000000 0.0027014 0.0148686 0.9972986 -0.0148686 0.9972986 -0.0148686 0.0027014 0.0148686
2557000000 0.0027267 0.0152058 0.9972733 -0.0152058 0.9972733 -0.0152058 0.0027267 0.0152058
2578000000 0.0027523 0.0155411 0.9972477 -0.0155411 0.9972477 -0.0155411 0.0027523 0.0155411
2599000000 0.0027780 0.0158746 0.9972220 -0.0158746 0.9972220 -0.0158746 0.0027780 0.0158746
2620000000 0.0028040 0.0162063 0.9971960 -0.0162063 0.9971960 -0.0162063 0.0028040 0.0162063
2641000000 0.0028303 0.0165363 0.9971697 -0.0165363 0.9971697 -0.0165363 0.0028303 0.0165363
2662000000 0.0028567 0.0168647 0.9971433 -0.0168647 0.9971433 -0.0168647 0.0028567 0.0168647
2683000000 0.0028834 0.0171914 0.9971166 -0.0171914 0.9971166 -0.0171914 0.0028834 0.0171914
2704000000 0.0029103 0.0175165 0.9970897 -0.0175165 0.9970897 -0.0175165 0.0029103 0.0175165
2725000000 0.0029375 0.0178401 0.9970625 -0.0178401 0.9970625 -0.0178401 0.0029375 0.0178401
2746000000 0.0029648 0.0181621 0.9970352 -0.0181621 0.9970352 -0.0181621 0.0029648 0.0181621
2767000000 0.0029924 0.0184827 0.9970076 -0.0184827 0.9970076 -0.0184827 0.0029924 0.0184827
2788000000 0.0030202 0.0188018 0.9969798 -0.0188018 0.9969798 -0.0188018 0.0030202 0.0188018
2809000000 0.0030482 0.0191195 0.9969518 -0.0191195 0.9969518 -0.0191195 0.0030482 0.0191195
2830000000 0.0030765 0.0194358 0.9969235 -0.0194358 0.9969235 -0.0194358 0.0030765 0.0194358
2851000000 0.0031049 0.0197507 0.9968951 -0.0197507 0.9968951 -0.0197507 0.0031049 0.0197507
2872000000 0.0031336 0.0200644 0.9968664 -0.0200644 0.9968664 -0.0200644 0.0031336 0.0200644
2893000000 0.0031625 0.0203767 0.9968375 -0.0203767 0.9968375 -0.0203767 0.0031625 0.0203767
2914000000 0.0031917 0.0206877 0.9968083 -0.0206877 0.9968083 -0.0206877 0.0031917 0.0206877
2935000000 0.0032210 0.0209975 0.9967790 -0.0209975 0.9967790 -0.0209975 0.0032210 0.0209975
2956000000 0.0032506 0.0213061 0.9967494 -0.0213061 0.9967494 -0.0213061 0.0032506 0.0213061
2977000000 0.0032804 0.0216135 0.9967196 -0.0216135 0.9967196 -0.0216135 0.0032804 0.0216135
2998000000 0.0033104 0.0219198 0.9966896 -0.0219198 0.9966896 -0.0219198 0.0033104 0.0219198
3019000000 0.0033406 0.0222249 0.9966594 -0.0222249 0.9966594 -0.0222249 0.0033406 0.0222249
3040000000 0.0033711 0.0225289 0.9966289 -0.0225289 0.9966289 -0.0225289 0.0033711 0.0225289
3061000000 0.0034018 0.0228318 0.9965982 -0.0228318 0.9965982 -0.0228318 0.0034018 0.0228318
3082000000 0.0034327 0.0231336 0.9965673 -0.0231336 0.9965673 -0.0231336 0.0034327 0.0231336
3103000000 0.0034638 0.0234344 0.9965362 -0.0234344 0.9965362 -0.0234344 0.0034638 0.0234344
3124000000 0.0034952 0.0237342 0.9965048 -0.0237342 0.9965048 -0.0237342 0.0034952 0.0237342
3145000000 0.0035268 0.0240330 0.9964732 -0.0240330 0.9964732 -0.0240330 0.0035268 0.0240330
3166000000 0.0035586 0.0243308 0.9964414 -0.0243308 0.9964414 -0.0243308 0.0035586 0.0243308
3187000000 0.0035907 0.0246276 0.9964093 -0.0246276 0.9964093 -0.0246276 0.0035907 0.0246276
3208000000 0.0036229 0.0249235 0.9963771 -0.0249235 0.9963771 -0.0249235 0.0036229 0.0249235
3229000000 0.0036555 0.0252184 0.9963445 -0.0252184 0.9963445 -0.0252184 0.0036555 0.0252184
3250000000 0.0036882 0.0255125 0.9963118 -0.0255125 0.9963118 -0.0255125 0.0036882 0.0255125
3271000000 0.0037212 0.0258057 0.9962788 -0.0258057 0.9962788 -0.0258057 0.0037212 0.0258057
3292000000 0.0037545 0.0260980 0.9962455 -0.0260980 0.9962455 -0.0260980 0.0037545 0.0260980
3313000000 0.0037879 0.0263894 0.9962121 -0.0263894 0.9962121 -0.0263894 0.0037879 0.0263894
3334000000 0.0038217 0.0266801 0.9961783 -0.0266801 0.9961783 -0.0266801 0.0038217 0.0266801
3355000000 0.0038556 0.0269699 0.9961444 -0.0269699 0.9961444 -0.0269699 0.0038556 0.0269699
3376000000 0.0038899 0.0272589 0.9961101 -0.0272589 0.9961101 -0.0272589 0.0038899 0.0272589
3397000000 0.0039243 0.0275471 0.9960757 -0.0275471 0.9960757 -0.0275471 0.0039243 0.0275471
3418000000 0.0039591 0.0278345 0.9960409 -0.0278345 0.9960409 -0.0278345 0.0039591 0.0278345
3439000000 0.0039940 0.0281212 0.9960060 -0.0281212 0.9960060 -0.0281212 0.0039940 0.0281212
3460000000 0.0040293 0.0284071 0.9959707 -0.0284071 0.9959707 -0.0284071 0.0040293 0.0284071
3481000000 0.0040648 0.0286924 0.9959352 -0.0286924 0.9959352 -0.0286924 0.0040648 0.0286924
3502000000 0.0041006 0.0289769 0.9958994 -0.0289769 0.9958994 -0.0289769 0.0041006 0.0289769
3523000000 0.0041366 0.0292606 0.9958634 -0.0292606 0.9958634 -0.0292606 0.0041366 0.0292606
3544000000 0.0041729 0.0295437 0.9958271 -0.0295437 0.9958271 -0.0295437 0.0041729 0.0295437
3565000000 0.0042095 0.0298262 0.9957905 -0.0298262 0.9957905 -0.0298262 0.0042095 0.0298262
3586000000 0.0042463 0.0301079 0.9957537 -0.0301079 0.9957537 -0.0301079 0.0042463 0.0301079
3607000000 0.0042835 0.0303890 0.9957165 -0.0303890 0.9957165 -0.0303890 0.0042835 0.0303890
3628000000 0.0043209 0.0306695 0.9956791 -0.0306695 0.9956791 -0.0306695 0.0043209 0.0306695
3649000000 0.0043586 0.0309493 0.9956414 -0.0309493 0.9956414 -0.0309493 0.0043586 0.0309493
3670000000 0.0043966 0.0312285 0.9956034 -0.0312285 0.9956034 -0.0312285 0.0043966 0.0312285
3691000000 0.0044349 0.0315071 0.9955651 -0.0315071 0.9955651 -0.0315071 0.0044349 0.0315071
3712000000 0.0044735 0.0317851 0.9955265 -0.0317851 0.9955265 -0.0317851 0.0044735 0.0317851
3733000000 0.0045124 0.0320625 0.9954876 -0.0320625 0.9954876 -0.0320625 0.0045124 0.0320625
3754000000 0.0045516 0.0323394 0.9954484 -0.0323394 0.9954484 -0.0323394 0.0045516 0.0323394
3775000000 0.0045912 0.0326156 0.9954088 -0.0326156 0.9954088 -0.0326156 0.0045912 0.0326156
3796000000 0.0046310 0.0328913 0.9953690 -0.0328913 0.9953690 -0.0328913 0.0046310 0.0328913
3817000000 0.0046712 0.0331664 0.9953288 -0.0331664 0.9953288 -0.0331664 0.0046712 0.0331664
3838000000 0.0047116 0.0334410 0.9952884 -0.0334410 0.9952884 -0.0334410 0.0047116 0.0334410
3859000000 0.0047524 0.0337151 0.9952476 -0.0337151 0.9952476 -0.0337151 0.0047524 0.0337151
3880000000 0.0047936 0.0339886 0.9952064 -0.0339886 0.9952064 -0.0339886 0.0047936 0.0339886
3901000000 0.0048351 0.0342616 0.9951649 -0.0342616 0.9951649 -0.0342616 0.0048351 0.0342616
3922000000 0.0048769 0.0345341 0.9951231 -0.0345341 0.9951231 -0.0345341 0.0048769 0.0345341
3943000000 0.0049191 0.0348061 0.9950809 -0.0348061 0.9950809 -0.0348061 0.0049191 0.0348061
3964000000 0.0049616 0.0350775 0.9950384 -0.0350775 0.9950384 -0.0350775 0.0049616 0.0350775
3985000000 0.0050045 0.0353485 0.9949955 -0.0353485 0.9949955 -0.0353485 0.0050045 0.0353485
4006000000 0.0050477 0.0356190 0.9949523 -0.0356190 0.9949523 -0.0356190 0.0050477 0.0356190
4027000000 0.0050914 0.0358890 0.9949086 -0.0358890 0.9949086 -0.0358890 0.0050914 0.0358890
4048000000 0.0051354 0.0361585 0.9948646 -0.0361585 0.9948646 -0.0361585 0.0051354 0.0361585
4069000000 0.0051797 0.0364275 0.9948203 -0.0364275 0.9948203 -0.0364275 0.0051797 0.0364275
4090000000 0.0052245 0.0366961 0.9947755 -0.0366961 0.9947755 -0.0366961 0.0052245 0.0366961
4111000000 0.0052697 0.0369642 0.9947303 -0.0369642 0.9947303 -0.0369642 0.0052697 0.0369642
4132000000 0.0053152 0.0372319 0.9946848 -0.0372319 0.9946848 -0.0372319 0.0053152 0.0372319
4153000000 0.0053612 0.0374990 0.9946388 -0.0374990 0.9946388 -0.0374990 0.0053612 0.0374990
4174000000 0.0054075 0.0377658 0.9945925 -0.0377658 0.9945925 -0.0377658 0.0054075 0.0377658
4195000000 0.0054543 0.0380321 0.9945457 -0.0380321 0.9945457 -0.0380321 0.0054543 0.0380321
4216000000 0.0055016 0.0382979 0.9944984 -0.0382979 0.9944984 -0.0382979 0.0055016 0.0382979
4237000000 0.0055492 0.0385633 0.9944508 -0.0385633 0.9944508 -0.0385633 0.0055492 0.0385633
4258000000 0.0055973 0.0388283 0.9944027 -0.0388283 0.9944027 -0.0388283 0.0055973 0.0388283
4279000000 0.0056458 0.0390928 0.9943542 -0.0390928 0.9943542 -0.0390928 0.0056458 0.0390928
4300000000 0.0056948 0.0393568 0.9943052 -0.0393568 0.9943052 -0.0393568 0.0056948 0.0393568
4321000000 0.0057442 0.0396205 0.9942558 -0.0396205 0.9942558 -0.0396205 0.0057442 0.0396205
4342000000 0.0057941 0.0398837 0.9942059 -0.0398837 0.9942059 -0.0398837 0.0057941 0.0398837
4363000000 0.0058445 0.0401464 0.9941555 -0.0401464 0.9941555 -0.0401464 0.0058445 0.0401464
4384000000 0.0058954 0.0404088 0.9941046 -0.0404088 0.9941046 -0.0404088 0.0058954 0.0404088
4405000000 0.0059467 0.0406707 0.9940533 -0.0406707 0.9940533 -0.0406707 0.0059467 0.0406707
4426000000 0.0059985 0.0409321 0.9940015 -0.0409321 0.9940015 -0.0409321 0.0059985 0.0409321
4447000000 0.0060509 0.0411931 0.9939491 -0.0411931 0.9939491 -0.0411931 0.0060509 0.0411931
4468000000 0.0061037 0.0414537 0.9938963 -0.0414537 0.9938963 -0.0414537 0.0061037 0.0414537
4489000000 0.0061571 0.0417139 0.9938429 -0.0417139 0.9938429 -0.0417139 0.0061571 0.0417139
4510000000 0.0062110 0.0419736 0.9937890 -0.0419736 0.9937890 -0.0419736 0.0062110 0.0419736
