!Murata Part Number: GRM0223C1H2R1WA03
!These Parameters are Measured in Series Mode Connection
!Data Generated on Mar 30, 2021
!       o--ll--o
!Port1            Port2
!       o------o
!Operation Temp=25[degC], DC Bias Voltage=0[V]
!Freq. Start=100[MHz] Stop=9[GHz] 401[Steps]
# Hz S RI R 50
!Freq.(Hz) S11(Real) S11(Imag) S21(Real) S21(Imag) S12(Real) S12(Imag) S22(Real) S22(Imag)
100000000 0.9828412 -0.1296972 0.0171588 0.1296972 0.0171588 0.1296972 0.9828412 -0.1296972
121000000 0.9750731 -0.1557012 0.0249269 0.1557012 0.0249269 0.1557012 0.9750731 -0.1557012
142000000 0.9659848 -0.1810316 0.0340152 0.1810316 0.0340152 0.1810316 0.9659848 -0.1810316
163000000 0.9556516 -0.2055954 0.0443484 0.2055954 0.0443484 0.2055954 0.9556516 -0.2055954
184000000 0.9441569 -0.2293099 0.0558431 0.2293099 0.0558431 0.2293099 0.9441569 -0.2293099
205000000 0.9315900 -0.2521029 0.0684100 0.2521029 0.0684100 0.2521029 0.9315900 -0.2521029
226000000 0.9180450 -0.2739139 0.0819550 0.2739139 0.0819550 0.2739139 0.9180450 -0.2739139
247000000 0.9036190 -0.2946932 0.0963810 0.2946932 0.0963810 0.2946932 0.9036190 -0.2946932
268000000 0.8884106 -0.3144028 0.1115894 0.3144028 0.1115894 0.3144028 0.8884106 -0.3144028
289000000 0.8725185 -0.3330153 0.1274815 0.3330153 0.1274815 0.3330153 0.8725185 -0.3330153
310000000 0.8560401 -0.3505136 0.1439599 0.3505136 0.1439599 0.3505136 0.8560401 -0.3505136
331000000 0.8390708 -0.3668906 0.1609292 0.3668906 0.1609292 0.3668906 0.8390708 -0.3668906
352000000 0.8217022 -0.3821480 0.1782978 0.3821480 0.1782978 0.3821480 0.8217022 -0.3821480
373000000 0.8040221 -0.3962955 0.1959779 0.3962955 0.1959779 0.3962955 0.8040221 -0.3962955
394000000 0.7861134 -0.4093501 0.2138866 0.4093501 0.2138866 0.4093501 0.7861134 -0.4093501
415000000 0.7680538 -0.4213351 0.2319462 0.4213351 0.2319462 0.4213351 0.7680538 -0.4213351
436000000 0.7499154 -0.4322790 0.2500846 0.4322790 0.2500846 0.4322790 0.7499154 -0.4322790
457000000 0.7317644 -0.4422150 0.2682356 0.4422150 0.2682356 0.4422150 0.7317644 -0.4422150
478000000 0.7136611 -0.4511797 0.2863389 0.4511797 0.2863389 0.4511797 0.7136611 -0.4511797
499000000 0.6956601 -0.4592126 0.3043399 0.4592126 0.3043399 0.4592126 0.6956601 -0.4592126
520000000 0.6778100 -0.4663552 0.3221900 0.4663552 0.3221900 0.4663552 0.6778100 -0.4663552
541000000 0.6601540 -0.4726506 0.3398460 0.4726506 0.3398460 0.4726506 0.6601540 -0.4726506
562000000 0.6427299 -0.4781425 0.3572701 0.4781425 0.3572701 0.4781425 0.6427299 -0.4781425
583000000 0.6255705 -0.4828751 0.3744295 0.4828751 0.3744295 0.4828751 0.6255705 -0.4828751
604000000 0.6087037 -0.4868923 0.3912963 0.4868923 0.3912963 0.4868923 0.6087037 -0.4868923
625000000 0.5921531 -0.4902376 0.4078469 0.4902376 0.4078469 0.4902376 0.5921531 -0.4902376
646000000 0.5759384 -0.4929536 0.4240616 0.4929536 0.4240616 0.4929536 0.5759384 -0.4929536
667000000 0.5600751 -0.4950818 0.4399249 0.4950818 0.4399249 0.4950818 0.5600751 -0.4950818
688000000 0.5445759 -0.4966625 0.4554241 0.4966625 0.4554241 0.4966625 0.5445759 -0.4966625
709000000 0.5294499 -0.4977343 0.4705501 0.4977343 0.4705501 0.4977343 0.5294499 -0.4977343
730000000 0.5147038 -0.4983344 0.4852962 0.4983344 0.4852962 0.4983344 0.5147038 -0.4983344
751000000 0.5003418 -0.4984983 0.4996582 0.4984983 0.4996582 0.4984983 0.5003418 -0.4984983
772000000 0.4863657 -0.4982596 0.5136343 0.4982596 0.5136343 0.4982596 0.4863657 -0.4982596
793000000 0.4727758 -0.4976505 0.5272242 0.4976505 0.5272242 0.4976505 0.4727758 -0.4976505
814000000 0.4595704 -0.4967010 0.5404296 0.4967010 0.5404296 0.4967010 0.4595704 -0.4967010
835000000 0.4467466 -0.4954398 0.5532534 0.4954398 0.5532534 0.4954398 0.4467466 -0.4954398
856000000 0.4343000 -0.4938936 0.5657000 0.4938936 0.5657000 0.4938936 0.4343000 -0.4938936
877000000 0.4222255 -0.4920875 0.5777745 0.4920875 0.5777745 0.4920875 0.4222255 -0.4920875
898000000 0.4105168 -0.4900450 0.5894832 0.4900450 0.5894832 0.4900450 0.4105168 -0.4900450
919000000 0.3991671 -0.4877882 0.6008329 0.4877882 0.6008329 0.4877882 0.3991671 -0.4877882
940000000 0.3881689 -0.4853375 0.6118311 0.4853375 0.6118311 0.4853375 0.3881689 -0.4853375
961000000 0.3775143 -0.4827120 0.6224857 0.4827120 0.6224857 0.4827120 0.3775143 -0.4827120
982000000 0.3671950 -0.4799293 0.6328050 0.4799293 0.6328050 0.4799293 0.3671950 -0.4799293
1003000000 0.3572023 -0.4770060 0.6427977 0.4770060 0.6427977 0.4770060 0.3572023 -0.4770060
1024000000 0.3475275 -0.4739572 0.6524725 0.4739572 0.6524725 0.4739572 0.3475275 -0.4739572
1045000000 0.3381617 -0.4707970 0.6618383 0.4707970 0.6618383 0.4707970 0.3381617 -0.4707970
1066000000 0.3290959 -0.4675386 0.6709041 0.4675386 0.6709041 0.4675386 0.3290959 -0.4675386
1087000000 0.3203211 -0.4641938 0.6796789 0.4641938 0.6796789 0.4641938 0.3203211 -0.4641938
1108000000 0.3118284 -0.4607739 0.6881716 0.4607739 0.6881716 0.4607739 0.3118284 -0.4607739
1129000000 0.3036088 -0.4572889 0.6963912 0.4572889 0.6963912 0.4572889 0.3036088 -0.4572889
1150000000 0.2956537 -0.4537483 0.7043463 0.4537483 0.7043463 0.4537483 0.2956537 -0.4537483
1171000000 0.2879544 -0.4501607 0.7120456 0.4501607 0.7120456 0.4501607 0.2879544 -0.4501607
1192000000 0.2805025 -0.4465340 0.7194975 0.4465340 0.7194975 0.4465340 0.2805025 -0.4465340
1213000000 0.2732895 -0.4428756 0.7267105 0.4428756 0.7267105 0.4428756 0.2732895 -0.4428756
1234000000 0.2663075 -0.4391920 0.7336925 0.4391920 0.7336925 0.4391920 0.2663075 -0.4391920
1255000000 0.2595484 -0.4354893 0.7404516 0.4354893 0.7404516 0.4354893 0.2595484 -0.4354893
1276000000 0.2530046 -0.4317730 0.7469954 0.4317730 0.7469954 0.4317730 0.2530046 -0.4317730
1297000000 0.2466686 -0.4280483 0.7533314 0.4280483 0.7533314 0.4280483 0.2466686 -0.4280483
1318000000 0.2405331 -0.4243198 0.7594669 0.4243198 0.7594669 0.4243198 0.2405331 -0.4243198
1339000000 0.2345910 -0.4205917 0.7654090 0.4205917 0.7654090 0.4205917 0.2345910 -0.4205917
1360000000 0.2288355 -0.4168677 0.7711645 0.4168677 0.7711645 0.4168677 0.2288355 -0.4168677
1381000000 0.2232601 -0.4131514 0.7767399 0.4131514 0.7767399 0.4131514 0.2232601 -0.4131514
1402000000 0.2178582 -0.4094458 0.7821418 0.4094458 0.7821418 0.4094458 0.2178582 -0.4094458
1423000000 0.2126237 -0.4057539 0.7873763 0.4057539 0.7873763 0.4057539 0.2126237 -0.4057539
1444000000 0.2075507 -0.4020781 0.7924493 0.4020781 0.7924493 0.4020781 0.2075507 -0.4020781
1465000000 0.2026334 -0.3984208 0.7973666 0.3984208 0.7973666 0.3984208 0.2026334 -0.3984208
1486000000 0.1978662 -0.3947841 0.8021338 0.3947841 0.8021338 0.3947841 0.1978662 -0.3947841
1507000000 0.1932438 -0.3911697 0.8067562 0.3911697 0.8067562 0.3911697 0.1932438 -0.3911697
1528000000 0.1887610 -0.3875793 0.8112390 0.3875793 0.8112390 0.3875793 0.1887610 -0.3875793
1549000000 0.1844129 -0.3840145 0.8155871 0.3840145 0.8155871 0.3840145 0.1844129 -0.3840145
1570000000 0.1801947 -0.3804764 0.8198053 0.3804764 0.8198053 0.3804764 0.1801947 -0.3804764
1591000000 0.1761018 -0.3769663 0.8238982 0.3769663 0.8238982 0.3769663 0.1761018 -0.3769663
1612000000 0.1721297 -0.3734850 0.8278703 0.3734850 0.8278703 0.3734850 0.1721297 -0.3734850
1633000000 0.1682742 -0.3700336 0.8317258 0.3700336 0.8317258 0.3700336 0.1682742 -0.3700336
1654000000 0.1645312 -0.3666128 0.8354688 0.3666128 0.8354688 0.3666128 0.1645312 -0.3666128
1675000000 0.1608968 -0.3632231 0.8391032 0.3632231 0.8391032 0.3632231 0.1608968 -0.3632231
1696000000 0.1573671 -0.3598652 0.8426329 0.3598652 0.8426329 0.3598652 0.1573671 -0.3598652
1717000000 0.1539385 -0.3565395 0.8460615 0.3565395 0.8460615 0.3565395 0.1539385 -0.3565395
1738000000 0.1506075 -0.3532464 0.8493925 0.3532464 0.8493925 0.3532464 0.1506075 -0.3532464
1759000000 0.1473708 -0.3499860 0.8526292 0.3499860 0.8526292 0.3499860 0.1473708 -0.3499860
1780000000 0.1442250 -0.3467588 0.8557750 0.3467588 0.8557750 0.3467588 0.1442250 -0.3467588
1801000000 0.1411671 -0.3435648 0.8588329 0.3435648 0.8588329 0.3435648 0.1411671 -0.3435648
1822000000 0.1381940 -0.3404041 0.8618060 0.3404041 0.8618060 0.3404041 0.1381940 -0.3404041
1843000000 0.1353030 -0.3372769 0.8646970 0.3372769 0.8646970 0.3372769 0.1353030 -0.3372769
1864000000 0.1324912 -0.3341830 0.8675088 0.3341830 0.8675088 0.3341830 0.1324912 -0.3341830
1885000000 0.1297559 -0.3311224 0.8702441 0.3311224 0.8702441 0.3311224 0.1297559 -0.3311224
1906000000 0.1270946 -0.3280951 0.8729054 0.3280951 0.8729054 0.3280951 0.1270946 -0.3280951
1927000000 0.1245049 -0.3251010 0.8754951 0.3251010 0.8754951 0.3251010 0.1245049 -0.3251010
1948000000 0.1219843 -0.3221399 0.8780157 0.3221399 0.8780157 0.3221399 0.1219843 -0.3221399
1969000000 0.1195306 -0.3192116 0.8804694 0.3192116 0.8804694 0.3192116 0.1195306 -0.3192116
1990000000 0.1171415 -0.3163159 0.8828585 0.3163159 0.8828585 0.3163159 0.1171415 -0.3163159
2011000000 0.1148150 -0.3134527 0.8851850 0.3134527 0.8851850 0.3134527 0.1148150 -0.3134527
2032000000 0.1125491 -0.3106216 0.8874509 0.3106216 0.8874509 0.3106216 0.1125491 -0.3106216
2053000000 0.1103417 -0.3078223 0.8896583 0.3078223 0.8896583 0.3078223 0.1103417 -0.3078223
2074000000 0.1081911 -0.3050548 0.8918089 0.3050548 0.8918089 0.3050548 0.1081911 -0.3050548
2095000000 0.1060953 -0.3023185 0.8939047 0.3023185 0.8939047 0.3023185 0.1060953 -0.3023185
2116000000 0.1040527 -0.2996132 0.8959473 0.2996132 0.8959473 0.2996132 0.1040527 -0.2996132
2137000000 0.1020615 -0.2969387 0.8979385 0.2969387 0.8979385 0.2969387 0.1020615 -0.2969387
2158000000 0.1001202 -0.2942945 0.8998798 0.2942945 0.8998798 0.2942945 0.1001202 -0.2942945
2179000000 0.0982272 -0.2916803 0.9017728 0.2916803 0.9017728 0.2916803 0.0982272 -0.2916803
2200000000 0.0963809 -0.2890959 0.9036191 0.2890959 0.9036191 0.2890959 0.0963809 -0.2890959
2221000000 0.0945800 -0.2865407 0.9054200 0.2865407 0.9054200 0.2865407 0.0945800 -0.2865407
2242000000 0.0928231 -0.2840146 0.9071769 0.2840146 0.9071769 0.2840146 0.0928231 -0.2840146
2263000000 0.0911088 -0.2815171 0.9088912 0.2815171 0.9088912 0.2815171 0.0911088 -0.2815171
2284000000 0.0894358 -0.2790479 0.9105642 0.2790479 0.9105642 0.2790479 0.0894358 -0.2790479
2305000000 0.0878029 -0.2766066 0.9121971 0.2766066 0.9121971 0.2766066 0.0878029 -0.2766066
2326000000 0.0862088 -0.2741929 0.9137912 0.2741929 0.9137912 0.2741929 0.0862088 -0.2741929
2347000000 0.0846525 -0.2718063 0.9153475 0.2718063 0.9153475 0.2718063 0.0846525 -0.2718063
2368000000 0.0831327 -0.2694466 0.9168673 0.2694466 0.9168673 0.2694466 0.0831327 -0.2694466
2389000000 0.0816484 -0.2671133 0.9183516 0.2671133 0.9183516 0.2671133 0.0816484 -0.2671133
2410000000 0.0801987 -0.2648061 0.9198013 0.2648061 0.9198013 0.2648061 0.0801987 -0.2648061
2431000000 0.0787823 -0.2625247 0.9212177 0.2625247 0.9212177 0.2625247 0.0787823 -0.2625247
2452000000 0.0773985 -0.2602686 0.9226015 0.2602686 0.9226015 0.2602686 0.0773985 -0.2602686
2473000000 0.0760462 -0.2580376 0.9239538 0.2580376 0.9239538 0.2580376 0.0760462 -0.2580376
2494000000 0.0747246 -0.2558311 0.9252754 0.2558311 0.9252754 0.2558311 0.0747246 -0.2558311
2515000000 0.0734328 -0.2536491 0.9265672 0.2536491 0.9265672 0.2536491 0.0734328 -0.2536491
2536000000 0.0721699 -0.2514909 0.9278301 0.2514909 0.9278301 0.2514909 0.0721699 -0.2514909
2557000000 0.0709351 -0.2493564 0.9290649 0.2493564 0.9290649 0.2493564 0.0709351 -0.2493564
2578000000 0.0697277 -0.2472451 0.9302723 0.2472451 0.9302723 0.2472451 0.0697277 -0.2472451
2599000000 0.0685468 -0.2451567 0.9314532 0.2451567 0.9314532 0.2451567 0.0685468 -0.2451567
2620000000 0.0673918 -0.2430909 0.9326082 0.2430909 0.9326082 0.2430909 0.0673918 -0.2430909
2641000000 0.0662619 -0.2410474 0.9337381 0.2410474 0.9337381 0.2410474 0.0662619 -0.2410474
2662000000 0.0651565 -0.2390258 0.9348435 0.2390258 0.9348435 0.2390258 0.0651565 -0.2390258
2683000000 0.0640748 -0.2370258 0.9359252 0.2370258 0.9359252 0.2370258 0.0640748 -0.2370258
2704000000 0.0630163 -0.2350470 0.9369837 0.2350470 0.9369837 0.2350470 0.0630163 -0.2350470
2725000000 0.0619803 -0.2330892 0.9380197 0.2330892 0.9380197 0.2330892 0.0619803 -0.2330892
2746000000 0.0609662 -0.2311520 0.9390338 0.2311520 0.9390338 0.2311520 0.0609662 -0.2311520
2767000000 0.0599734 -0.2292352 0.9400266 0.2292352 0.9400266 0.2292352 0.0599734 -0.2292352
2788000000 0.0590014 -0.2273383 0.9409986 0.2273383 0.9409986 0.2273383 0.0590014 -0.2273383
2809000000 0.0580496 -0.2254612 0.9419504 0.2254612 0.9419504 0.2254612 0.0580496 -0.2254612
2830000000 0.0571175 -0.2236035 0.9428825 0.2236035 0.9428825 0.2236035 0.0571175 -0.2236035
2851000000 0.0562045 -0.2217650 0.9437955 0.2217650 0.9437955 0.2217650 0.0562045 -0.2217650
2872000000 0.0553103 -0.2199453 0.9446897 0.2199453 0.9446897 0.2199453 0.0553103 -0.2199453
2893000000 0.0544343 -0.2181441 0.9455657 0.2181441 0.9455657 0.2181441 0.0544343 -0.2181441
2914000000 0.0535760 -0.2163612 0.9464240 0.2163612 0.9464240 0.2163612 0.0535760 -0.2163612
2935000000 0.0527350 -0.2145963 0.9472650 0.2145963 0.9472650 0.2145963 0.0527350 -0.2145963
2956000000 0.0519109 -0.2128492 0.9480891 0.2128492 0.9480891 0.2128492 0.0519109 -0.2128492
2977000000 0.0511032 -0.2111195 0.9488968 0.2111195 0.9488968 0.2111195 0.0511032 -0.2111195
2998000000 0.0503115 -0.2094070 0.9496885 0.2094070 0.9496885 0.2094070 0.0503115 -0.2094070
3019000000 0.0495354 -0.2077115 0.9504646 0.2077115 0.9504646 0.2077115 0.0495354 -0.2077115
3040000000 0.0487746 -0.2060326 0.9512254 0.2060326 0.9512254 0.2060326 0.0487746 -0.2060326
3061000000 0.0480286 -0.2043702 0.9519714 0.2043702 0.9519714 0.2043702 0.0480286 -0.2043702
3082000000 0.0472972 -0.2027240 0.9527028 0.2027240 0.9527028 0.2027240 0.0472972 -0.2027240
3103000000 0.0465799 -0.2010937 0.9534201 0.2010937 0.9534201 0.2010937 0.0465799 -0.2010937
3124000000 0.0458764 -0.1994791 0.9541236 0.1994791 0.9541236 0.1994791 0.0458764 -0.1994791
3145000000 0.0451864 -0.1978800 0.9548136 0.1978800 0.9548136 0.1978800 0.0451864 -0.1978800
3166000000 0.0445095 -0.1962962 0.9554905 0.1962962 0.9554905 0.1962962 0.0445095 -0.1962962
3187000000 0.0438455 -0.1947274 0.9561545 0.1947274 0.9561545 0.1947274 0.0438455 -0.1947274
3208000000 0.0431940 -0.1931733 0.9568060 0.1931733 0.9568060 0.1931733 0.0431940 -0.1931733
3229000000 0.0425548 -0.1916339 0.9574452 0.1916339 0.9574452 0.1916339 0.0425548 -0.1916339
3250000000 0.0419275 -0.1901088 0.9580725 0.1901088 0.9580725 0.1901088 0.0419275 -0.1901088
3271000000 0.0413120 -0.1885979 0.9586880 0.1885979 0.9586880 0.1885979 0.0413120 -0.1885979
3292000000 0.0407078 -0.1871009 0.9592922 0.1871009 0.9592922 0.1871009 0.0407078 -0.1871009
3313000000 0.0401148 -0.1856176 0.9598852 0.1856176 0.9598852 0.1856176 0.0401148 -0.1856176
3334000000 0.0395326 -0.1841479 0.9604674 0.1841479 0.9604674 0.1841479 0.0395326 -0.1841479
3355000000 0.0389611 -0.1826916 0.9610389 0.1826916 0.9610389 0.1826916 0.0389611 -0.1826916
3376000000 0.0384001 -0.1812483 0.9615999 0.1812483 0.9615999 0.1812483 0.0384001 -0.1812483
3397000000 0.0378492 -0.1798181 0.9621508 0.1798181 0.9621508 0.1798181 0.0378492 -0.1798181
3418000000 0.0373082 -0.1784006 0.9626918 0.1784006 0.9626918 0.1784006 0.0373082 -0.1784006
3439000000 0.0367770 -0.1769956 0.9632230 0.1769956 0.9632230 0.1769956 0.0367770 -0.1769956
3460000000 0.0362553 -0.1756031 0.9637447 0.1756031 0.9637447 0.1756031 0.0362553 -0.1756031
3481000000 0.0357428 -0.1742228 0.9642572 0.1742228 0.9642572 0.1742228 0.0357428 -0.1742228
3502000000 0.0352395 -0.1728546 0.9647605 0.1728546 0.9647605 0.1728546 0.0352395 -0.1728546
3523000000 0.0347451 -0.1714982 0.9652549 0.1714982 0.9652549 0.1714982 0.0347451 -0.1714982
3544000000 0.0342594 -0.1701535 0.9657406 0.1701535 0.9657406 0.1701535 0.0342594 -0.1701535
3565000000 0.0337822 -0.1688204 0.9662178 0.1688204 0.9662178 0.1688204 0.0337822 -0.1688204
3586000000 0.0333133 -0.1674986 0.9666867 0.1674986 0.9666867 0.1674986 0.0333133 -0.1674986
3607000000 0.0328526 -0.1661881 0.9671474 0.1661881 0.9671474 0.1661881 0.0328526 -0.1661881
3628000000 0.0323998 -0.1648886 0.9676002 0.1648886 0.9676002 0.1648886 0.0323998 -0.1648886
3649000000 0.0319549 -0.1636001 0.9680451 0.1636001 0.9680451 0.1636001 0.0319549 -0.1636001
3670000000 0.0315177 -0.1623222 0.9684823 0.1623222 0.9684823 0.1623222 0.0315177 -0.1623222
3691000000 0.0310879 -0.1610550 0.9689121 0.1610550 0.9689121 0.1610550 0.0310879 -0.1610550
3712000000 0.0306654 -0.1597982 0.9693346 0.1597982 0.9693346 0.1597982 0.0306654 -0.1597982
3733000000 0.0302502 -0.1585518 0.9697498 0.1585518 0.9697498 0.1585518 0.0302502 -0.1585518
3754000000 0.0298420 -0.1573155 0.9701580 0.1573155 0.9701580 0.1573155 0.0298420 -0.1573155
3775000000 0.0294406 -0.1560892 0.9705594 0.1560892 0.9705594 0.1560892 0.0294406 -0.1560892
3796000000 0.0290461 -0.1548728 0.9709539 0.1548728 0.9709539 0.1548728 0.0290461 -0.1548728
3817000000 0.0286581 -0.1536661 0.9713419 0.1536661 0.9713419 0.1536661 0.0286581 -0.1536661
3838000000 0.0282766 -0.1524691 0.9717234 0.1524691 0.9717234 0.1524691 0.0282766 -0.1524691
3859000000 0.0279015 -0.1512816 0.9720985 0.1512816 0.9720985 0.1512816 0.0279015 -0.1512816
3880000000 0.0275326 -0.1501034 0.9724674 0.1501034 0.9724674 0.1501034 0.0275326 -0.1501034
3901000000 0.0271698 -0.1489345 0.9728302 0.1489345 0.9728302 0.1489345 0.0271698 -0.1489345
3922000000 0.0268129 -0.1477746 0.9731871 0.1477746 0.9731871 0.1477746 0.0268129 -0.1477746
3943000000 0.0264619 -0.1466238 0.9735381 0.1466238 0.9735381 0.1466238 0.0264619 -0.1466238
3964000000 0.0261167 -0.1454818 0.9738833 0.1454818 0.9738833 0.1454818 0.0261167 -0.1454818
3985000000 0.0257771 -0.1443485 0.9742229 0.1443485 0.9742229 0.1443485 0.0257771 -0.1443485
4006000000 0.0254431 -0.1432239 0.9745569 0.1432239 0.9745569 0.1432239 0.0254431 -0.1432239
4027000000 0.0251144 -0.1421078 0.9748856 0.1421078 0.9748856 0.1421078 0.0251144 -0.1421078
4048000000 0.0247911 -0.1410002 0.9752089 0.1410002 0.9752089 0.1410002 0.0247911 -0.1410002
4069000000 0.0244730 -0.1399008 0.9755270 0.1399008 0.9755270 0.1399008 0.0244730 -0.1399008
4090000000 0.0241600 -0.1388096 0.9758400 0.1388096 0.9758400 0.1388096 0.0241600 -0.1388096
4111000000 0.0238520 -0.1377264 0.9761480 0.1377264 0.9761480 0.1377264 0.0238520 -0.1377264
4132000000 0.0235489 -0.1366513 0.9764511 0.1366513 0.9764511 0.1366513 0.0235489 -0.1366513
4153000000 0.0232507 -0.1355840 0.9767493 0.1355840 0.9767493 0.1355840 0.0232507 -0.1355840
4174000000 0.0229572 -0.1345244 0.9770428 0.1345244 0.9770428 0.1345244 0.0229572 -0.1345244
4195000000 0.0226683 -0.1334726 0.9773317 0.1334726 0.9773317 0.1334726 0.0226683 -0.1334726
4216000000 0.0223841 -0.1324283 0.9776159 0.1324283 0.9776159 0.1324283 0.0223841 -0.1324283
4237000000 0.0221043 -0.1313915 0.9778957 0.1313915 0.9778957 0.1313915 0.0221043 -0.1313915
4258000000 0.0218289 -0.1303620 0.9781711 0.1303620 0.9781711 0.1303620 0.0218289 -0.1303620
4279000000 0.0215578 -0.1293399 0.9784422 0.1293399 0.9784422 0.1293399 0.0215578 -0.1293399
4300000000 0.0212910 -0.1283249 0.9787090 0.1283249 0.9787090 0.1283249 0.0212910 -0.1283249
4321000000 0.0210283 -0.1273170 0.9789717 0.1273170 0.9789717 0.1273170 0.0210283 -0.1273170
4342000000 0.0207697 -0.1263161 0.9792303 0.1263161 0.9792303 0.1263161 0.0207697 -0.1263161
4363000000 0.0205152 -0.1253222 0.9794848 0.1253222 0.9794848 0.1253222 0.0205152 -0.1253222
4384000000 0.0202645 -0.1243351 0.9797355 0.1243351 0.9797355 0.1243351 0.0202645 -0.1243351
4405000000 0.0200178 -0.1233547 0.9799822 0.1233547 0.9799822 0.1233547 0.0200178 -0.1233547
4426000000 0.0197749 -0.1223810 0.9802251 0.1223810 0.9802251 0.1223810 0.0197749 -0.1223810
4447000000 0.0195357 -0.1214139 0.9804643 0.1214139 0.9804643 0.1214139 0.0195357 -0.1214139
4468000000 0.0193002 -0.1204533 0.9806998 0.1204533 0.9806998 0.1204533 0.0193002 -0.1204533
4489000000 0.0190683 -0.1194991 0.9809317 0.1194991 0.9809317 0.1194991 0.0190683 -0.1194991
4510000000 0.0188399 -0.1185513 0.9811601 0.1185513 0.9811601 0.1185513 0.0188399 -0.1185513
