!Murata Part Number: GRM0222C0J151GA02
!These Parameters are Measured in Series Mode Connection
!Data Generated on Mar 30, 2021
!       o--ll--o
!Port1            Port2
!       o------o
!Operation Temp=25[degC], DC Bias Voltage=0[V]
!Freq. Start=100[MHz] Stop=9[GHz] 401[Steps]
# Hz S RI R 50
!Freq.(Hz) S11(Real) S11(Imag) S21(Real) S21(Imag) S12(Real) S12(Imag) S22(Real) S22(Imag)
100000000 0.0117495 -0.1035865 0.9882505 0.1035865 0.9882505 0.1035865 0.0117495 -0.1035865
121000000 0.0082593 -0.0854580 0.9917407 0.0854580 0.9917407 0.0854580 0.0082593 -0.0854580
142000000 0.0061904 -0.0725115 0.9938096 0.0725115 0.9938096 0.0725115 0.0061904 -0.0725115
163000000 0.0048665 -0.0627883 0.9951335 0.0627883 0.9951335 0.0627883 0.0048665 -0.0627883
184000000 0.0039701 -0.0552030 0.9960299 0.0552030 0.9960299 0.0552030 0.0039701 -0.0552030
205000000 0.0033365 -0.0491073 0.9966635 0.0491073 0.9966635 0.0491073 0.0033365 -0.0491073
226000000 0.0028735 -0.0440903 0.9971265 0.0440903 0.9971265 0.0440903 0.0028735 -0.0440903
247000000 0.0025260 -0.0398793 0.9974740 0.0398793 0.9974740 0.0398793 0.0025260 -0.0398793
268000000 0.0022596 -0.0362862 0.9977404 0.0362862 0.9977404 0.0362862 0.0022596 -0.0362862
289000000 0.0020519 -0.0331773 0.9979481 0.0331773 0.9979481 0.0331773 0.0020519 -0.0331773
310000000 0.0018877 -0.0304546 0.9981123 0.0304546 0.9981123 0.0304546 0.0018877 -0.0304546
331000000 0.0017565 -0.0280452 0.9982435 0.0280452 0.9982435 0.0280452 0.0017565 -0.0280452
352000000 0.0016508 -0.0258932 0.9983492 0.0258932 0.9983492 0.0258932 0.0016508 -0.0258932
373000000 0.0015653 -0.0239553 0.9984347 0.0239553 0.9984347 0.0239553 0.0015653 -0.0239553
394000000 0.0014959 -0.0221976 0.9985041 0.0221976 0.9985041 0.0221976 0.0014959 -0.0221976
415000000 0.0014394 -0.0205926 0.9985606 0.0205926 0.9985606 0.0205926 0.0014394 -0.0205926
436000000 0.0013937 -0.0191186 0.9986063 0.0191186 0.9986063 0.0191186 0.0013937 -0.0191186
457000000 0.0013568 -0.0177575 0.9986432 0.0177575 0.9986432 0.0177575 0.0013568 -0.0177575
478000000 0.0013274 -0.0164946 0.9986726 0.0164946 0.9986726 0.0164946 0.0013274 -0.0164946
499000000 0.0013043 -0.0153175 0.9986957 0.0153175 0.9986957 0.0153175 0.0013043 -0.0153175
520000000 0.0012866 -0.0142158 0.9987134 0.0142158 0.9987134 0.0142158 0.0012866 -0.0142158
541000000 0.0012735 -0.0131809 0.9987265 0.0131809 0.9987265 0.0131809 0.0012735 -0.0131809
562000000 0.0012644 -0.0122053 0.9987356 0.0122053 0.9987356 0.0122053 0.0012644 -0.0122053
583000000 0.0012589 -0.0112827 0.9987411 0.0112827 0.9987411 0.0112827 0.0012589 -0.0112827
604000000 0.0012565 -0.0104075 0.9987435 0.0104075 0.9987435 0.0104075 0.0012565 -0.0104075
625000000 0.0012568 -0.0095751 0.9987432 0.0095751 0.9987432 0.0095751 0.0012568 -0.0095751
646000000 0.0012596 -0.0087813 0.9987404 0.0087813 0.9987404 0.0087813 0.0012596 -0.0087813
667000000 0.0012645 -0.0080224 0.9987355 0.0080224 0.9987355 0.0080224 0.0012645 -0.0080224
688000000 0.0012715 -0.0072954 0.9987285 0.0072954 0.9987285 0.0072954 0.0012715 -0.0072954
709000000 0.0012802 -0.0065974 0.9987198 0.0065974 0.9987198 0.0065974 0.0012802 -0.0065974
730000000 0.0012906 -0.0059259 0.9987094 0.0059259 0.9987094 0.0059259 0.0012906 -0.0059259
751000000 0.0013025 -0.0052787 0.9986975 0.0052787 0.9986975 0.0052787 0.0013025 -0.0052787
772000000 0.0013157 -0.0046540 0.9986843 0.0046540 0.9986843 0.0046540 0.0013157 -0.0046540
793000000 0.0013302 -0.0040498 0.9986698 0.0040498 0.9986698 0.0040498 0.0013302 -0.0040498
814000000 0.0013458 -0.0034647 0.9986542 0.0034647 0.9986542 0.0034647 0.0013458 -0.0034647
835000000 0.0013626 -0.0028972 0.9986374 0.0028972 0.9986374 0.0028972 0.0013626 -0.0028972
856000000 0.0013804 -0.0023460 0.9986196 0.0023460 0.9986196 0.0023460 0.0013804 -0.0023460
877000000 0.0013991 -0.0018100 0.9986009 0.0018100 0.9986009 0.0018100 0.0013991 -0.0018100
898000000 0.0014187 -0.0012882 0.9985813 0.0012882 0.9985813 0.0012882 0.0014187 -0.0012882
919000000 0.0014392 -0.0007795 0.9985608 0.0007795 0.9985608 0.0007795 0.0014392 -0.0007795
940000000 0.0014604 -0.0002831 0.9985396 0.0002831 0.9985396 0.0002831 0.0014604 -0.0002831
961000000 0.0014825 0.0002018 0.9985175 -0.0002018 0.9985175 -0.0002018 0.0014825 0.0002018
982000000 0.0015052 0.0006760 0.9984948 -0.0006760 0.9984948 -0.0006760 0.0015052 0.0006760
1003000000 0.0015287 0.0011400 0.9984713 -0.0011400 0.9984713 -0.0011400 0.0015287 0.0011400
1024000000 0.0015529 0.0015945 0.9984471 -0.0015945 0.9984471 -0.0015945 0.0015529 0.0015945
1045000000 0.0015777 0.0020401 0.9984223 -0.0020401 0.9984223 -0.0020401 0.0015777 0.0020401
1066000000 0.0016031 0.0024774 0.9983969 -0.0024774 0.9983969 -0.0024774 0.0016031 0.0024774
1087000000 0.0016292 0.0029067 0.9983708 -0.0029067 0.9983708 -0.0029067 0.0016292 0.0029067
1108000000 0.0016558 0.0033285 0.9983442 -0.0033285 0.9983442 -0.0033285 0.0016558 0.0033285
1129000000 0.0016831 0.0037433 0.9983169 -0.0037433 0.9983169 -0.0037433 0.0016831 0.0037433
1150000000 0.0017109 0.0041514 0.9982891 -0.0041514 0.9982891 -0.0041514 0.0017109 0.0041514
1171000000 0.0017394 0.0045532 0.9982606 -0.0045532 0.9982606 -0.0045532 0.0017394 0.0045532
1192000000 0.0017684 0.0049490 0.9982316 -0.0049490 0.9982316 -0.0049490 0.0017684 0.0049490
1213000000 0.0017979 0.0053391 0.9982021 -0.0053391 0.9982021 -0.0053391 0.0017979 0.0053391
1234000000 0.0018281 0.0057238 0.9981719 -0.0057238 0.9981719 -0.0057238 0.0018281 0.0057238
1255000000 0.0018588 0.0061034 0.9981412 -0.0061034 0.9981412 -0.0061034 0.0018588 0.0061034
1276000000 0.0018901 0.0064781 0.9981099 -0.0064781 0.9981099 -0.0064781 0.0018901 0.0064781
1297000000 0.0019219 0.0068482 0.9980781 -0.0068482 0.9980781 -0.0068482 0.0019219 0.0068482
1318000000 0.0019544 0.0072139 0.9980456 -0.0072139 0.9980456 -0.0072139 0.0019544 0.0072139
1339000000 0.0019874 0.0075753 0.9980126 -0.0075753 0.9980126 -0.0075753 0.0019874 0.0075753
1360000000 0.0020210 0.0079327 0.9979790 -0.0079327 0.9979790 -0.0079327 0.0020210 0.0079327
1381000000 0.0020552 0.0082863 0.9979448 -0.0082863 0.9979448 -0.0082863 0.0020552 0.0082863
1402000000 0.0020901 0.0086362 0.9979099 -0.0086362 0.9979099 -0.0086362 0.0020901 0.0086362
1423000000 0.0021255 0.0089825 0.9978745 -0.0089825 0.9978745 -0.0089825 0.0021255 0.0089825
1444000000 0.0021616 0.0093255 0.9978384 -0.0093255 0.9978384 -0.0093255 0.0021616 0.0093255
1465000000 0.0021984 0.0096652 0.9978016 -0.0096652 0.9978016 -0.0096652 0.0021984 0.0096652
1486000000 0.0022358 0.0100018 0.9977642 -0.0100018 0.9977642 -0.0100018 0.0022358 0.0100018
1507000000 0.0022738 0.0103354 0.9977262 -0.0103354 0.9977262 -0.0103354 0.0022738 0.0103354
1528000000 0.0023126 0.0106661 0.9976874 -0.0106661 0.9976874 -0.0106661 0.0023126 0.0106661
1549000000 0.0023520 0.0109940 0.9976480 -0.0109940 0.9976480 -0.0109940 0.0023520 0.0109940
1570000000 0.0023922 0.0113192 0.9976078 -0.0113192 0.9976078 -0.0113192 0.0023922 0.0113192
1591000000 0.0024332 0.0116418 0.9975668 -0.0116418 0.9975668 -0.0116418 0.0024332 0.0116418
1612000000 0.0024748 0.0119619 0.9975252 -0.0119619 0.9975252 -0.0119619 0.0024748 0.0119619
1633000000 0.0025173 0.0122795 0.9974827 -0.0122795 0.9974827 -0.0122795 0.0025173 0.0122795
1654000000 0.0025605 0.0125947 0.9974395 -0.0125947 0.9974395 -0.0125947 0.0025605 0.0125947
1675000000 0.0026046 0.0129077 0.9973954 -0.0129077 0.9973954 -0.0129077 0.0026046 0.0129077
1696000000 0.0026495 0.0132183 0.9973505 -0.0132183 0.9973505 -0.0132183 0.0026495 0.0132183
1717000000 0.0026952 0.0135267 0.9973048 -0.0135267 0.9973048 -0.0135267 0.0026952 0.0135267
1738000000 0.0027418 0.0138330 0.9972582 -0.0138330 0.9972582 -0.0138330 0.0027418 0.0138330
1759000000 0.0027893 0.0141371 0.9972107 -0.0141371 0.9972107 -0.0141371 0.0027893 0.0141371
1780000000 0.0028377 0.0144392 0.9971623 -0.0144392 0.9971623 -0.0144392 0.0028377 0.0144392
1801000000 0.0028870 0.0147391 0.9971130 -0.0147391 0.9971130 -0.0147391 0.0028870 0.0147391
1822000000 0.0029372 0.0150370 0.9970628 -0.0150370 0.9970628 -0.0150370 0.0029372 0.0150370
1843000000 0.0029884 0.0153329 0.9970116 -0.0153329 0.9970116 -0.0153329 0.0029884 0.0153329
1864000000 0.0030405 0.0156267 0.9969595 -0.0156267 0.9969595 -0.0156267 0.0030405 0.0156267
1885000000 0.0030936 0.0159185 0.9969064 -0.0159185 0.9969064 -0.0159185 0.0030936 0.0159185
1906000000 0.0031477 0.0162083 0.9968523 -0.0162083 0.9968523 -0.0162083 0.0031477 0.0162083
1927000000 0.0032028 0.0164961 0.9967972 -0.0164961 0.9967972 -0.0164961 0.0032028 0.0164961
1948000000 0.0032588 0.0167818 0.9967412 -0.0167818 0.9967412 -0.0167818 0.0032588 0.0167818
1969000000 0.0033159 0.0170655 0.9966841 -0.0170655 0.9966841 -0.0170655 0.0033159 0.0170655
1990000000 0.0033739 0.0173471 0.9966261 -0.0173471 0.9966261 -0.0173471 0.0033739 0.0173471
2011000000 0.0034329 0.0176267 0.9965671 -0.0176267 0.9965671 -0.0176267 0.0034329 0.0176267
2032000000 0.0034928 0.0179041 0.9965072 -0.0179041 0.9965072 -0.0179041 0.0034928 0.0179041
2053000000 0.0035537 0.0181794 0.9964463 -0.0181794 0.9964463 -0.0181794 0.0035537 0.0181794
2074000000 0.0036154 0.0184526 0.9963846 -0.0184526 0.9963846 -0.0184526 0.0036154 0.0184526
2095000000 0.0036781 0.0187236 0.9963219 -0.0187236 0.9963219 -0.0187236 0.0036781 0.0187236
2116000000 0.0037416 0.0189923 0.9962584 -0.0189923 0.9962584 -0.0189923 0.0037416 0.0189923
2137000000 0.0038059 0.0192588 0.9961941 -0.0192588 0.9961941 -0.0192588 0.0038059 0.0192588
2158000000 0.0038710 0.0195230 0.9961290 -0.0195230 0.9961290 -0.0195230 0.0038710 0.0195230
2179000000 0.0039368 0.0197849 0.9960632 -0.0197849 0.9960632 -0.0197849 0.0039368 0.0197849
2200000000 0.0040032 0.0200444 0.9959968 -0.0200444 0.9959968 -0.0200444 0.0040032 0.0200444
2221000000 0.0040701 0.0203016 0.9959299 -0.0203016 0.9959299 -0.0203016 0.0040701 0.0203016
2242000000 0.0041376 0.0205563 0.9958624 -0.0205563 0.9958624 -0.0205563 0.0041376 0.0205563
2263000000 0.0042055 0.0208087 0.9957945 -0.0208087 0.9957945 -0.0208087 0.0042055 0.0208087
2284000000 0.0042736 0.0210586 0.9957264 -0.0210586 0.9957264 -0.0210586 0.0042736 0.0210586
2305000000 0.0043421 0.0213061 0.9956579 -0.0213061 0.9956579 -0.0213061 0.0043421 0.0213061
2326000000 0.0044106 0.0215512 0.9955894 -0.0215512 0.9955894 -0.0215512 0.0044106 0.0215512
2347000000 0.0044792 0.0217939 0.9955208 -0.0217939 0.9955208 -0.0217939 0.0044792 0.0217939
2368000000 0.0045477 0.0220342 0.9954523 -0.0220342 0.9954523 -0.0220342 0.0045477 0.0220342
2389000000 0.0046161 0.0222721 0.9953839 -0.0222721 0.9953839 -0.0222721 0.0046161 0.0222721
2410000000 0.0046842 0.0225078 0.9953158 -0.0225078 0.9953158 -0.0225078 0.0046842 0.0225078
2431000000 0.0047519 0.0227411 0.9952481 -0.0227411 0.9952481 -0.0227411 0.0047519 0.0227411
2452000000 0.0048192 0.0229723 0.9951808 -0.0229723 0.9951808 -0.0229723 0.0048192 0.0229723
2473000000 0.0048859 0.0232013 0.9951141 -0.0232013 0.9951141 -0.0232013 0.0048859 0.0232013
2494000000 0.0049521 0.0234283 0.9950479 -0.0234283 0.9950479 -0.0234283 0.0049521 0.0234283
2515000000 0.0050175 0.0236534 0.9949825 -0.0236534 0.9949825 -0.0236534 0.0050175 0.0236534
2536000000 0.0050822 0.0238765 0.9949178 -0.0238765 0.9949178 -0.0238765 0.0050822 0.0238765
2557000000 0.0051460 0.0240979 0.9948540 -0.0240979 0.9948540 -0.0240979 0.0051460 0.0240979
2578000000 0.0052090 0.0243177 0.9947910 -0.0243177 0.9947910 -0.0243177 0.0052090 0.0243177
2599000000 0.0052712 0.0245358 0.9947288 -0.0245358 0.9947288 -0.0245358 0.0052712 0.0245358
2620000000 0.0053324 0.0247525 0.9946676 -0.0247525 0.9946676 -0.0247525 0.0053324 0.0247525
2641000000 0.0053927 0.0249679 0.9946073 -0.0249679 0.9946073 -0.0249679 0.0053927 0.0249679
2662000000 0.0054522 0.0251819 0.9945478 -0.0251819 0.9945478 -0.0251819 0.0054522 0.0251819
2683000000 0.0055107 0.0253948 0.9944893 -0.0253948 0.9944893 -0.0253948 0.0055107 0.0253948
2704000000 0.0055684 0.0256066 0.9944316 -0.0256066 0.9944316 -0.0256066 0.0055684 0.0256066
2725000000 0.0056252 0.0258174 0.9943748 -0.0258174 0.9943748 -0.0258174 0.0056252 0.0258174
2746000000 0.0056813 0.0260273 0.9943187 -0.0260273 0.9943187 -0.0260273 0.0056813 0.0260273
2767000000 0.0057366 0.0262363 0.9942634 -0.0262363 0.9942634 -0.0262363 0.0057366 0.0262363
2788000000 0.0057912 0.0264445 0.9942088 -0.0264445 0.9942088 -0.0264445 0.0057912 0.0264445
2809000000 0.0058452 0.0266518 0.9941548 -0.0266518 0.9941548 -0.0266518 0.0058452 0.0266518
2830000000 0.0058985 0.0268585 0.9941015 -0.0268585 0.9941015 -0.0268585 0.0058985 0.0268585
2851000000 0.0059513 0.0270644 0.9940487 -0.0270644 0.9940487 -0.0270644 0.0059513 0.0270644
2872000000 0.0060036 0.0272696 0.9939964 -0.0272696 0.9939964 -0.0272696 0.0060036 0.0272696
2893000000 0.0060555 0.0274741 0.9939445 -0.0274741 0.9939445 -0.0274741 0.0060555 0.0274741
2914000000 0.0061069 0.0276778 0.9938931 -0.0276778 0.9938931 -0.0276778 0.0061069 0.0276778
2935000000 0.0061579 0.0278809 0.9938421 -0.0278809 0.9938421 -0.0278809 0.0061579 0.0278809
2956000000 0.0062086 0.0280832 0.9937914 -0.0280832 0.9937914 -0.0280832 0.0062086 0.0280832
2977000000 0.0062590 0.0282848 0.9937410 -0.0282848 0.9937410 -0.0282848 0.0062590 0.0282848
2998000000 0.0063090 0.0284856 0.9936910 -0.0284856 0.9936910 -0.0284856 0.0063090 0.0284856
3019000000 0.0063588 0.0286856 0.9936412 -0.0286856 0.9936412 -0.0286856 0.0063588 0.0286856
3040000000 0.0064083 0.0288847 0.9935917 -0.0288847 0.9935917 -0.0288847 0.0064083 0.0288847
3061000000 0.0064575 0.0290830 0.9935425 -0.0290830 0.9935425 -0.0290830 0.0064575 0.0290830
3082000000 0.0065063 0.0292804 0.9934937 -0.0292804 0.9934937 -0.0292804 0.0065063 0.0292804
3103000000 0.0065549 0.0294769 0.9934451 -0.0294769 0.9934451 -0.0294769 0.0065549 0.0294769
3124000000 0.0066031 0.0296725 0.9933969 -0.0296725 0.9933969 -0.0296725 0.0066031 0.0296725
3145000000 0.0066510 0.0298671 0.9933490 -0.0298671 0.9933490 -0.0298671 0.0066510 0.0298671
3166000000 0.0066984 0.0300606 0.9933016 -0.0300606 0.9933016 -0.0300606 0.0066984 0.0300606
3187000000 0.0067454 0.0302532 0.9932546 -0.0302532 0.9932546 -0.0302532 0.0067454 0.0302532
3208000000 0.0067919 0.0304448 0.9932081 -0.0304448 0.9932081 -0.0304448 0.0067919 0.0304448
3229000000 0.0068379 0.0306353 0.9931621 -0.0306353 0.9931621 -0.0306353 0.0068379 0.0306353
3250000000 0.0068833 0.0308248 0.9931167 -0.0308248 0.9931167 -0.0308248 0.0068833 0.0308248
3271000000 0.0069280 0.0310133 0.9930720 -0.0310133 0.9930720 -0.0310133 0.0069280 0.0310133
3292000000 0.0069721 0.0312007 0.9930279 -0.0312007 0.9930279 -0.0312007 0.0069721 0.0312007
3313000000 0.0070154 0.0313872 0.9929846 -0.0313872 0.9929846 -0.0313872 0.0070154 0.0313872
3334000000 0.0070580 0.0315726 0.9929420 -0.0315726 0.9929420 -0.0315726 0.0070580 0.0315726
3355000000 0.0070996 0.0317571 0.9929004 -0.0317571 0.9929004 -0.0317571 0.0070996 0.0317571
3376000000 0.0071404 0.0319407 0.9928596 -0.0319407 0.9928596 -0.0319407 0.0071404 0.0319407
3397000000 0.0071802 0.0321233 0.9928198 -0.0321233 0.9928198 -0.0321233 0.0071802 0.0321233
3418000000 0.0072190 0.0323051 0.9927810 -0.0323051 0.9927810 -0.0323051 0.0072190 0.0323051
3439000000 0.0072567 0.0324861 0.9927433 -0.0324861 0.9927433 -0.0324861 0.0072567 0.0324861
3460000000 0.0072933 0.0326663 0.9927067 -0.0326663 0.9927067 -0.0326663 0.0072933 0.0326663
3481000000 0.0073288 0.0328459 0.9926712 -0.0328459 0.9926712 -0.0328459 0.0073288 0.0328459
3502000000 0.0073630 0.0330248 0.9926370 -0.0330248 0.9926370 -0.0330248 0.0073630 0.0330248
3523000000 0.0073961 0.0332031 0.9926039 -0.0332031 0.9926039 -0.0332031 0.0073961 0.0332031
3544000000 0.0074278 0.0333809 0.9925722 -0.0333809 0.9925722 -0.0333809 0.0074278 0.0333809
3565000000 0.0074583 0.0335582 0.9925417 -0.0335582 0.9925417 -0.0335582 0.0074583 0.0335582
3586000000 0.0074875 0.0337352 0.9925125 -0.0337352 0.9925125 -0.0337352 0.0074875 0.0337352
3607000000 0.0075153 0.0339119 0.9924847 -0.0339119 0.9924847 -0.0339119 0.0075153 0.0339119
3628000000 0.0075419 0.0340884 0.9924581 -0.0340884 0.9924581 -0.0340884 0.0075419 0.0340884
3649000000 0.0075671 0.0342647 0.9924329 -0.0342647 0.9924329 -0.0342647 0.0075671 0.0342647
3670000000 0.0075909 0.0344409 0.9924091 -0.0344409 0.9924091 -0.0344409 0.0075909 0.0344409
3691000000 0.0076135 0.0346171 0.9923865 -0.0346171 0.9923865 -0.0346171 0.0076135 0.0346171
3712000000 0.0076347 0.0347935 0.9923653 -0.0347935 0.9923653 -0.0347935 0.0076347 0.0347935
3733000000 0.0076546 0.0349699 0.9923454 -0.0349699 0.9923454 -0.0349699 0.0076546 0.0349699
3754000000 0.0076732 0.0351466 0.9923268 -0.0351466 0.9923268 -0.0351466 0.0076732 0.0351466
3775000000 0.0076905 0.0353236 0.9923095 -0.0353236 0.9923095 -0.0353236 0.0076905 0.0353236
3796000000 0.0077067 0.0355009 0.9922933 -0.0355009 0.9922933 -0.0355009 0.0077067 0.0355009
3817000000 0.0077216 0.0356787 0.9922784 -0.0356787 0.9922784 -0.0356787 0.0077216 0.0356787
3838000000 0.0077354 0.0358570 0.9922646 -0.0358570 0.9922646 -0.0358570 0.0077354 0.0358570
3859000000 0.0077480 0.0360358 0.9922520 -0.0360358 0.9922520 -0.0360358 0.0077480 0.0360358
3880000000 0.0077596 0.0362152 0.9922404 -0.0362152 0.9922404 -0.0362152 0.0077596 0.0362152
3901000000 0.0077702 0.0363952 0.9922298 -0.0363952 0.9922298 -0.0363952 0.0077702 0.0363952
3922000000 0.0077798 0.0365760 0.9922202 -0.0365760 0.9922202 -0.0365760 0.0077798 0.0365760
3943000000 0.0077885 0.0367576 0.9922115 -0.0367576 0.9922115 -0.0367576 0.0077885 0.0367576
3964000000 0.0077963 0.0369399 0.9922037 -0.0369399 0.9922037 -0.0369399 0.0077963 0.0369399
3985000000 0.0078033 0.0371230 0.9921967 -0.0371230 0.9921967 -0.0371230 0.0078033 0.0371230
4006000000 0.0078095 0.0373070 0.9921905 -0.0373070 0.9921905 -0.0373070 0.0078095 0.0373070
4027000000 0.0078151 0.0374919 0.9921849 -0.0374919 0.9921849 -0.0374919 0.0078151 0.0374919
4048000000 0.0078200 0.0376778 0.9921800 -0.0376778 0.9921800 -0.0376778 0.0078200 0.0376778
4069000000 0.0078243 0.0378645 0.9921757 -0.0378645 0.9921757 -0.0378645 0.0078243 0.0378645
4090000000 0.0078281 0.0380523 0.9921719 -0.0380523 0.9921719 -0.0380523 0.0078281 0.0380523
4111000000 0.0078314 0.0382410 0.9921686 -0.0382410 0.9921686 -0.0382410 0.0078314 0.0382410
4132000000 0.0078344 0.0384307 0.9921656 -0.0384307 0.9921656 -0.0384307 0.0078344 0.0384307
4153000000 0.0078370 0.0386213 0.9921630 -0.0386213 0.9921630 -0.0386213 0.0078370 0.0386213
4174000000 0.0078393 0.0388130 0.9921607 -0.0388130 0.9921607 -0.0388130 0.0078393 0.0388130
4195000000 0.0078414 0.0390057 0.9921586 -0.0390057 0.9921586 -0.0390057 0.0078414 0.0390057
4216000000 0.0078432 0.0391993 0.9921568 -0.0391993 0.9921568 -0.0391993 0.0078432 0.0391993
4237000000 0.0078450 0.0393940 0.9921550 -0.0393940 0.9921550 -0.0393940 0.0078450 0.0393940
4258000000 0.0078467 0.0395896 0.9921533 -0.0395896 0.9921533 -0.0395896 0.0078467 0.0395896
4279000000 0.0078484 0.0397862 0.9921516 -0.0397862 0.9921516 -0.0397862 0.0078484 0.0397862
4300000000 0.0078500 0.0399838 0.9921500 -0.0399838 0.9921500 -0.0399838 0.0078500 0.0399838
4321000000 0.0078518 0.0401823 0.9921482 -0.0401823 0.9921482 -0.0401823 0.0078518 0.0401823
4342000000 0.0078537 0.0403818 0.9921463 -0.0403818 0.9921463 -0.0403818 0.0078537 0.0403818
4363000000 0.0078557 0.0405822 0.9921443 -0.0405822 0.9921443 -0.0405822 0.0078557 0.0405822
4384000000 0.0078579 0.0407834 0.9921421 -0.0407834 0.9921421 -0.0407834 0.0078579 0.0407834
4405000000 0.0078604 0.0409856 0.9921396 -0.0409856 0.9921396 -0.0409856 0.0078604 0.0409856
4426000000 0.0078631 0.0411886 0.9921369 -0.0411886 0.9921369 -0.0411886 0.0078631 0.0411886
4447000000 0.0078661 0.0413924 0.9921339 -0.0413924 0.9921339 -0.0413924 0.0078661 0.0413924
4468000000 0.0078695 0.0415971 0.9921305 -0.0415971 0.9921305 -0.0415971 0.0078695 0.0415971
4489000000 0.0078733 0.0418025 0.9921267 -0.0418025 0.9921267 -0.0418025 0.0078733 0.0418025
4510000000 0.0078774 0.0420087 0.9921226 -0.0420087 0.9921226 -0.0420087 0.0078774 0.0420087
