!Murata Part Number: GRM0225C1H1R4WA03
!These Parameters are Measured in Series Mode Connection
!Data Generated on Mar 30, 2021
!       o--ll--o
!Port1            Port2
!       o------o
!Operation Temp=25[degC], DC Bias Voltage=0[V]
!Freq. Start=100[MHz] Stop=20[GHz] 401[Steps]
# Hz S RI R 50
!Freq.(Hz) S11(Real) S11(Imag) S21(Real) S21(Imag) S12(Real) S12(Imag) S22(Real) S22(Imag)
100000000 0.9922912 -0.0872954 0.0077088 0.0872954 0.0077088 0.0872954 0.9922912 -0.0872954
149750000 0.9828721 -0.1295003 0.0171279 0.1295003 0.0171279 0.1295003 0.9828721 -0.1295003
199500000 0.9699875 -0.1702914 0.0300125 0.1702914 0.0300125 0.1702914 0.9699875 -0.1702914
249250000 0.9539051 -0.2092776 0.0460949 0.2092776 0.0460949 0.2092776 0.9539051 -0.2092776
299000000 0.9349445 -0.2461273 0.0650555 0.2461273 0.0650555 0.2461273 0.9349445 -0.2461273
348750000 0.9134628 -0.2805757 0.0865372 0.2805757 0.0865372 0.2805757 0.9134628 -0.2805757
398500000 0.8898386 -0.3124267 0.1101614 0.3124267 0.1101614 0.3124267 0.8898386 -0.3124267
448250000 0.8644578 -0.3415530 0.1355422 0.3415530 0.1355422 0.3415530 0.8644578 -0.3415530
498000000 0.8377009 -0.3678909 0.1622991 0.3678909 0.1622991 0.3678909 0.8377009 -0.3678909
547750000 0.8099316 -0.3914350 0.1900684 0.3914350 0.1900684 0.3914350 0.8099316 -0.3914350
597500000 0.7814887 -0.4122294 0.2185113 0.4122294 0.2185113 0.4122294 0.7814887 -0.4122294
647250000 0.7526805 -0.4303599 0.2473195 0.4303599 0.2473195 0.4303599 0.7526805 -0.4303599
697000000 0.7237807 -0.4459442 0.2762193 0.4459442 0.2762193 0.4459442 0.7237807 -0.4459442
746750000 0.6950271 -0.4591244 0.3049729 0.4591244 0.3049729 0.4591244 0.6950271 -0.4591244
796500000 0.6666217 -0.4700588 0.3333783 0.4700588 0.3333783 0.4700588 0.6666217 -0.4700588
846250000 0.6387322 -0.4789153 0.3612678 0.4789153 0.3612678 0.4789153 0.6387322 -0.4789153
896000000 0.6114942 -0.4858659 0.3885058 0.4858659 0.3885058 0.4858659 0.6114942 -0.4858659
945750000 0.5850140 -0.4910818 0.4149860 0.4910818 0.4149860 0.4910818 0.5850140 -0.4910818
995500000 0.5593718 -0.4947305 0.4406282 0.4947305 0.4406282 0.4947305 0.5593718 -0.4947305
1045250000 0.5346252 -0.4969724 0.4653748 0.4969724 0.4653748 0.4969724 0.5346252 -0.4969724
1095000000 0.5108122 -0.4979593 0.4891878 0.4979593 0.4891878 0.4979593 0.5108122 -0.4979593
1144750000 0.4879544 -0.4978335 0.5120456 0.4978335 0.5120456 0.4978335 0.4879544 -0.4978335
1194500000 0.4660596 -0.4967264 0.5339404 0.4967264 0.5339404 0.4967264 0.4660596 -0.4967264
1244250000 0.4451245 -0.4947592 0.5548755 0.4947592 0.5548755 0.4947592 0.4451245 -0.4947592
1294000000 0.4251366 -0.4920419 0.5748634 0.4920419 0.5748634 0.4920419 0.4251366 -0.4920419
1343750000 0.4060768 -0.4886748 0.5939232 0.4886748 0.5939232 0.4886748 0.4060768 -0.4886748
1393500000 0.3879203 -0.4847478 0.6120797 0.4847478 0.6120797 0.4847478 0.3879203 -0.4847478
1443250000 0.3706384 -0.4803420 0.6293616 0.4803420 0.6293616 0.4803420 0.3706384 -0.4803420
1493000000 0.3541996 -0.4755296 0.6458004 0.4755296 0.6458004 0.4755296 0.3541996 -0.4755296
1542750000 0.3385705 -0.4703750 0.6614295 0.4703750 0.6614295 0.4703750 0.3385705 -0.4703750
1592500000 0.3237167 -0.4649353 0.6762833 0.4649353 0.6762833 0.4649353 0.3237167 -0.4649353
1642250000 0.3096031 -0.4592611 0.6903969 0.4592611 0.6903969 0.4592611 0.3096031 -0.4592611
1692000000 0.2961950 -0.4533968 0.7038050 0.4533968 0.7038050 0.4533968 0.2961950 -0.4533968
1741750000 0.2834578 -0.4473817 0.7165422 0.4473817 0.7165422 0.4473817 0.2834578 -0.4473817
1791500000 0.2713578 -0.4412500 0.7286422 0.4412500 0.7286422 0.4412500 0.2713578 -0.4412500
1841250000 0.2598622 -0.4350318 0.7401378 0.4350318 0.7401378 0.4350318 0.2598622 -0.4350318
1891000000 0.2489394 -0.4287533 0.7510606 0.4287533 0.7510606 0.4287533 0.2489394 -0.4287533
1940750000 0.2385588 -0.4224373 0.7614412 0.4224373 0.7614412 0.4224373 0.2385588 -0.4224373
1990500000 0.2286913 -0.4161035 0.7713087 0.4161035 0.7713087 0.4161035 0.2286913 -0.4161035
2040250000 0.2193090 -0.4097690 0.7806910 0.4097690 0.7806910 0.4097690 0.2193090 -0.4097690
2090000000 0.2103856 -0.4034486 0.7896144 0.4034486 0.7896144 0.4034486 0.2103856 -0.4034486
2139750000 0.2018957 -0.3971547 0.7981043 0.3971547 0.7981043 0.3971547 0.2018957 -0.3971547
2189500000 0.1938155 -0.3908983 0.8061845 0.3908983 0.8061845 0.3908983 0.1938155 -0.3908983
2239250000 0.1861226 -0.3846883 0.8138774 0.3846883 0.8138774 0.3846883 0.1861226 -0.3846883
2289000000 0.1787955 -0.3785327 0.8212045 0.3785327 0.8212045 0.3785327 0.1787955 -0.3785327
2338750000 0.1718142 -0.3724378 0.8281858 0.3724378 0.8281858 0.3724378 0.1718142 -0.3724378
2388500000 0.1651598 -0.3664090 0.8348402 0.3664090 0.8348402 0.3664090 0.1651598 -0.3664090
2438250000 0.1588142 -0.3604507 0.8411858 0.3604507 0.8411858 0.3604507 0.1588142 -0.3604507
2488000000 0.1527608 -0.3545666 0.8472392 0.3545666 0.8472392 0.3545666 0.1527608 -0.3545666
2537750000 0.1469836 -0.3487595 0.8530164 0.3487595 0.8530164 0.3487595 0.1469836 -0.3487595
2587500000 0.1414678 -0.3430316 0.8585322 0.3430316 0.8585322 0.3430316 0.1414678 -0.3430316
2637250000 0.1361993 -0.3373846 0.8638007 0.3373846 0.8638007 0.3373846 0.1361993 -0.3373846
2687000000 0.1311649 -0.3318196 0.8688351 0.3318196 0.8688351 0.3318196 0.1311649 -0.3318196
2736750000 0.1263523 -0.3263374 0.8736477 0.3263374 0.8736477 0.3263374 0.1263523 -0.3263374
2786500000 0.1217498 -0.3209385 0.8782502 0.3209385 0.8782502 0.3209385 0.1217498 -0.3209385
2836250000 0.1173464 -0.3156229 0.8826536 0.3156229 0.8826536 0.3156229 0.1173464 -0.3156229
2886000000 0.1131317 -0.3103904 0.8868683 0.3103904 0.8868683 0.3103904 0.1131317 -0.3103904
2935750000 0.1090961 -0.3052407 0.8909039 0.3052407 0.8909039 0.3052407 0.1090961 -0.3052407
2985500000 0.1052304 -0.3001732 0.8947696 0.3001732 0.8947696 0.3001732 0.1052304 -0.3001732
3035250000 0.1015260 -0.2951870 0.8984740 0.2951870 0.8984740 0.2951870 0.1015260 -0.2951870
3085000000 0.0979749 -0.2902813 0.9020251 0.2902813 0.9020251 0.2902813 0.0979749 -0.2902813
3134750000 0.0945693 -0.2854551 0.9054307 0.2854551 0.9054307 0.2854551 0.0945693 -0.2854551
3184500000 0.0913021 -0.2807073 0.9086979 0.2807073 0.9086979 0.2807073 0.0913021 -0.2807073
3234250000 0.0881665 -0.2760367 0.9118335 0.2760367 0.9118335 0.2760367 0.0881665 -0.2760367
3284000000 0.0851562 -0.2714419 0.9148438 0.2714419 0.9148438 0.2714419 0.0851562 -0.2714419
3333750000 0.0822651 -0.2669218 0.9177349 0.2669218 0.9177349 0.2669218 0.0822651 -0.2669218
3383500000 0.0794875 -0.2624749 0.9205125 0.2624749 0.9205125 0.2624749 0.0794875 -0.2624749
3433250000 0.0768181 -0.2580999 0.9231819 0.2580999 0.9231819 0.2580999 0.0768181 -0.2580999
3483000000 0.0742519 -0.2537954 0.9257481 0.2537954 0.9257481 0.2537954 0.0742519 -0.2537954
3532750000 0.0717839 -0.2495600 0.9282161 0.2495600 0.9282161 0.2495600 0.0717839 -0.2495600
3582500000 0.0694099 -0.2453923 0.9305901 0.2453923 0.9305901 0.2453923 0.0694099 -0.2453923
3632250000 0.0671253 -0.2412908 0.9328747 0.2412908 0.9328747 0.2412908 0.0671253 -0.2412908
3682000000 0.0649263 -0.2372541 0.9350737 0.2372541 0.9350737 0.2372541 0.0649263 -0.2372541
3731750000 0.0628090 -0.2332809 0.9371910 0.2332809 0.9371910 0.2332809 0.0628090 -0.2332809
3781500000 0.0607698 -0.2293697 0.9392302 0.2293697 0.9392302 0.2293697 0.0607698 -0.2293697
3831250000 0.0588053 -0.2255192 0.9411947 0.2255192 0.9411947 0.2255192 0.0588053 -0.2255192
3881000000 0.0569122 -0.2217280 0.9430878 0.2217280 0.9430878 0.2217280 0.0569122 -0.2217280
3930750000 0.0550874 -0.2179947 0.9449126 0.2179947 0.9449126 0.2179947 0.0550874 -0.2179947
3980500000 0.0533282 -0.2143181 0.9466718 0.2143181 0.9466718 0.2143181 0.0533282 -0.2143181
4030250000 0.0516316 -0.2106968 0.9483684 0.2106968 0.9483684 0.2106968 0.0516316 -0.2106968
4080000000 0.0499951 -0.2071296 0.9500049 0.2071296 0.9500049 0.2071296 0.0499951 -0.2071296
4129750000 0.0484161 -0.2036152 0.9515839 0.2036152 0.9515839 0.2036152 0.0484161 -0.2036152
4179500000 0.0468924 -0.2001524 0.9531076 0.2001524 0.9531076 0.2001524 0.0468924 -0.2001524
4229250000 0.0454217 -0.1967400 0.9545783 0.1967400 0.9545783 0.1967400 0.0454217 -0.1967400
4279000000 0.0440019 -0.1933768 0.9559981 0.1933768 0.9559981 0.1933768 0.0440019 -0.1933768
4328750000 0.0426309 -0.1900616 0.9573691 0.1900616 0.9573691 0.1900616 0.0426309 -0.1900616
4378500000 0.0413067 -0.1867934 0.9586933 0.1867934 0.9586933 0.1867934 0.0413067 -0.1867934
4428250000 0.0400277 -0.1835711 0.9599723 0.1835711 0.9599723 0.1835711 0.0400277 -0.1835711
4478000000 0.0387920 -0.1803935 0.9612080 0.1803935 0.9612080 0.1803935 0.0387920 -0.1803935
4527750000 0.0375979 -0.1772597 0.9624021 0.1772597 0.9624021 0.1772597 0.0375979 -0.1772597
4577500000 0.0364439 -0.1741686 0.9635561 0.1741686 0.9635561 0.1741686 0.0364439 -0.1741686
4627250000 0.0353285 -0.1711192 0.9646715 0.1711192 0.9646715 0.1711192 0.0353285 -0.1711192
4677000000 0.0342503 -0.1681106 0.9657497 0.1681106 0.9657497 0.1681106 0.0342503 -0.1681106
4726750000 0.0332077 -0.1651419 0.9667923 0.1651419 0.9667923 0.1651419 0.0332077 -0.1651419
4776500000 0.0321997 -0.1622120 0.9678003 0.1622120 0.9678003 0.1622120 0.0321997 -0.1622120
4826250000 0.0312248 -0.1593201 0.9687752 0.1593201 0.9687752 0.1593201 0.0312248 -0.1593201
4876000000 0.0302820 -0.1564654 0.9697180 0.1564654 0.9697180 0.1564654 0.0302820 -0.1564654
4925750000 0.0293700 -0.1536469 0.9706300 0.1536469 0.9706300 0.1536469 0.0293700 -0.1536469
4975500000 0.0284878 -0.1508639 0.9715122 0.1508639 0.9715122 0.1508639 0.0284878 -0.1508639
5025250000 0.0276344 -0.1481156 0.9723656 0.1481156 0.9723656 0.1481156 0.0276344 -0.1481156
5075000000 0.0268087 -0.1454012 0.9731913 0.1454012 0.9731913 0.1454012 0.0268087 -0.1454012
5124750000 0.0260098 -0.1427198 0.9739902 0.1427198 0.9739902 0.1427198 0.0260098 -0.1427198
5174500000 0.0252368 -0.1400709 0.9747632 0.1400709 0.9747632 0.1400709 0.0252368 -0.1400709
5224250000 0.0244888 -0.1374535 0.9755112 0.1374535 0.9755112 0.1374535 0.0244888 -0.1374535
5274000000 0.0237650 -0.1348672 0.9762350 0.1348672 0.9762350 0.1348672 0.0237650 -0.1348672
5323750000 0.0230646 -0.1323111 0.9769354 0.1323111 0.9769354 0.1323111 0.0230646 -0.1323111
5373500000 0.0223868 -0.1297845 0.9776132 0.1297845 0.9776132 0.1297845 0.0223868 -0.1297845
5423250000 0.0217309 -0.1272870 0.9782691 0.1272870 0.9782691 0.1272870 0.0217309 -0.1272870
5473000000 0.0210961 -0.1248177 0.9789039 0.1248177 0.9789039 0.1248177 0.0210961 -0.1248177
5522750000 0.0204819 -0.1223762 0.9795181 0.1223762 0.9795181 0.1223762 0.0204819 -0.1223762
5572500000 0.0198875 -0.1199617 0.9801125 0.1199617 0.9801125 0.1199617 0.0198875 -0.1199617
5622250000 0.0193124 -0.1175738 0.9806876 0.1175738 0.9806876 0.1175738 0.0193124 -0.1175738
5672000000 0.0187559 -0.1152119 0.9812441 0.1152119 0.9812441 0.1152119 0.0187559 -0.1152119
5721750000 0.0182175 -0.1128753 0.9817825 0.1128753 0.9817825 0.1128753 0.0182175 -0.1128753
5771500000 0.0176966 -0.1105637 0.9823034 0.1105637 0.9823034 0.1105637 0.0176966 -0.1105637
5821250000 0.0171927 -0.1082763 0.9828073 0.1082763 0.9828073 0.1082763 0.0171927 -0.1082763
5871000000 0.0167053 -0.1060128 0.9832947 0.1060128 0.9832947 0.1060128 0.0167053 -0.1060128
5920750000 0.0162338 -0.1037727 0.9837662 0.1037727 0.9837662 0.1037727 0.0162338 -0.1037727
5970500000 0.0157779 -0.1015554 0.9842221 0.1015554 0.9842221 0.1015554 0.0157779 -0.1015554
6020250000 0.0153371 -0.0993605 0.9846629 0.0993605 0.9846629 0.0993605 0.0153371 -0.0993605
6070000000 0.0149109 -0.0971875 0.9850891 0.0971875 0.9850891 0.0971875 0.0149109 -0.0971875
6119750000 0.0144989 -0.0950361 0.9855011 0.0950361 0.9855011 0.0950361 0.0144989 -0.0950361
6169500000 0.0141008 -0.0929056 0.9858992 0.0929056 0.9858992 0.0929056 0.0141008 -0.0929056
6219250000 0.0137161 -0.0907958 0.9862839 0.0907958 0.9862839 0.0907958 0.0137161 -0.0907958
6269000000 0.0133444 -0.0887063 0.9866556 0.0887063 0.9866556 0.0887063 0.0133444 -0.0887063
6318750000 0.0129855 -0.0866365 0.9870145 0.0866365 0.9870145 0.0866365 0.0129855 -0.0866365
6368500000 0.0126389 -0.0845862 0.9873611 0.0845862 0.9873611 0.0845862 0.0126389 -0.0845862
6418250000 0.0123043 -0.0825549 0.9876957 0.0825549 0.9876957 0.0825549 0.0123043 -0.0825549
6468000000 0.0119814 -0.0805423 0.9880186 0.0805423 0.9880186 0.0805423 0.0119814 -0.0805423
6517750000 0.0116699 -0.0785480 0.9883301 0.0785480 0.9883301 0.0785480 0.0116699 -0.0785480
6567500000 0.0113695 -0.0765717 0.9886305 0.0765717 0.9886305 0.0765717 0.0113695 -0.0765717
6617250000 0.0110798 -0.0746129 0.9889202 0.0746129 0.9889202 0.0746129 0.0110798 -0.0746129
6667000000 0.0108007 -0.0726715 0.9891993 0.0726715 0.9891993 0.0726715 0.0108007 -0.0726715
6716750000 0.0105319 -0.0707470 0.9894681 0.0707470 0.9894681 0.0707470 0.0105319 -0.0707470
6766500000 0.0102730 -0.0688391 0.9897270 0.0688391 0.9897270 0.0688391 0.0102730 -0.0688391
6816250000 0.0100239 -0.0669476 0.9899761 0.0669476 0.9899761 0.0669476 0.0100239 -0.0669476
6866000000 0.0097842 -0.0650720 0.9902158 0.0650720 0.9902158 0.0650720 0.0097842 -0.0650720
6915750000 0.0095538 -0.0632122 0.9904462 0.0632122 0.9904462 0.0632122 0.0095538 -0.0632122
6965500000 0.0093325 -0.0613678 0.9906675 0.0613678 0.9906675 0.0613678 0.0093325 -0.0613678
7015250000 0.0091199 -0.0595386 0.9908801 0.0595386 0.9908801 0.0595386 0.0091199 -0.0595386
7065000000 0.0089160 -0.0577242 0.9910840 0.0577242 0.9910840 0.0577242 0.0089160 -0.0577242
7114750000 0.0087204 -0.0559245 0.9912796 0.0559245 0.9912796 0.0559245 0.0087204 -0.0559245
7164500000 0.0085331 -0.0541391 0.9914669 0.0541391 0.9914669 0.0541391 0.0085331 -0.0541391
7214250000 0.0083537 -0.0523678 0.9916463 0.0523678 0.9916463 0.0523678 0.0083537 -0.0523678
7264000000 0.0081822 -0.0506103 0.9918178 0.0506103 0.9918178 0.0506103 0.0081822 -0.0506103
7313750000 0.0080183 -0.0488664 0.9919817 0.0488664 0.9919817 0.0488664 0.0080183 -0.0488664
7363500000 0.0078619 -0.0471358 0.9921381 0.0471358 0.9921381 0.0471358 0.0078619 -0.0471358
7413250000 0.0077127 -0.0454184 0.9922873 0.0454184 0.9922873 0.0454184 0.0077127 -0.0454184
7463000000 0.0075707 -0.0437139 0.9924293 0.0437139 0.9924293 0.0437139 0.0075707 -0.0437139
7512750000 0.0074357 -0.0420220 0.9925643 0.0420220 0.9925643 0.0420220 0.0074357 -0.0420220
7562500000 0.0073075 -0.0403426 0.9926925 0.0403426 0.9926925 0.0403426 0.0073075 -0.0403426
7612250000 0.0071859 -0.0386755 0.9928141 0.0386755 0.9928141 0.0386755 0.0071859 -0.0386755
7662000000 0.0070709 -0.0370204 0.9929291 0.0370204 0.9929291 0.0370204 0.0070709 -0.0370204
7711750000 0.0069623 -0.0353771 0.9930377 0.0353771 0.9930377 0.0353771 0.0069623 -0.0353771
7761500000 0.0068599 -0.0337455 0.9931401 0.0337455 0.9931401 0.0337455 0.0068599 -0.0337455
7811250000 0.0067636 -0.0321253 0.9932364 0.0321253 0.9932364 0.0321253 0.0067636 -0.0321253
7861000000 0.0066733 -0.0305163 0.9933267 0.0305163 0.9933267 0.0305163 0.0066733 -0.0305163
7910750000 0.0065889 -0.0289185 0.9934111 0.0289185 0.9934111 0.0289185 0.0065889 -0.0289185
7960500000 0.0065103 -0.0273315 0.9934897 0.0273315 0.9934897 0.0273315 0.0065103 -0.0273315
8010250000 0.0064373 -0.0257552 0.9935627 0.0257552 0.9935627 0.0257552 0.0064373 -0.0257552
8060000000 0.0063698 -0.0241895 0.9936302 0.0241895 0.9936302 0.0241895 0.0063698 -0.0241895
8109750000 0.0063077 -0.0226342 0.9936923 0.0226342 0.9936923 0.0226342 0.0063077 -0.0226342
8159500000 0.0062509 -0.0210890 0.9937491 0.0210890 0.9937491 0.0210890 0.0062509 -0.0210890
8209250000 0.0061993 -0.0195539 0.9938007 0.0195539 0.9938007 0.0195539 0.0061993 -0.0195539
8259000000 0.0061528 -0.0180287 0.9938472 0.0180287 0.9938472 0.0180287 0.0061528 -0.0180287
8308750000 0.0061113 -0.0165132 0.9938887 0.0165132 0.9938887 0.0165132 0.0061113 -0.0165132
8358500000 0.0060747 -0.0150074 0.9939253 0.0150074 0.9939253 0.0150074 0.0060747 -0.0150074
8408250000 0.0060429 -0.0135109 0.9939571 0.0135109 0.9939571 0.0135109 0.0060429 -0.0135109
8458000000 0.0060158 -0.0120237 0.9939842 0.0120237 0.9939842 0.0120237 0.0060158 -0.0120237
8507750000 0.0059934 -0.0105457 0.9940066 0.0105457 0.9940066 0.0105457 0.0059934 -0.0105457
8557500000 0.0059755 -0.0090767 0.9940245 0.0090767 0.9940245 0.0090767 0.0059755 -0.0090767
8607250000 0.0059621 -0.0076166 0.9940379 0.0076166 0.9940379 0.0076166 0.0059621 -0.0076166
8657000000 0.0059530 -0.0061652 0.9940470 0.0061652 0.9940470 0.0061652 0.0059530 -0.0061652
8706750000 0.0059483 -0.0047224 0.9940517 0.0047224 0.9940517 0.0047224 0.0059483 -0.0047224
8756500000 0.0059478 -0.0032881 0.9940522 0.0032881 0.9940522 0.0032881 0.0059478 -0.0032881
8806250000 0.0059514 -0.0018622 0.9940486 0.0018622 0.9940486 0.0018622 0.0059514 -0.0018622
8856000000 0.0059592 -0.0004445 0.9940408 0.0004445 0.9940408 0.0004445 0.0059592 -0.0004445
8905750000 0.0059709 0.0009651 0.9940291 -0.0009651 0.9940291 -0.0009651 0.0059709 0.0009651
8955500000 0.0059866 0.0023667 0.9940134 -0.0023667 0.9940134 -0.0023667 0.0059866 0.0023667
9005250000 0.0060062 0.0037604 0.9939938 -0.0037604 0.9939938 -0.0037604 0.0060062 0.0037604
9055000000 0.0060296 0.0051464 0.9939704 -0.0051464 0.9939704 -0.0051464 0.0060296 0.0051464
9104750000 0.0060567 0.0065246 0.9939433 -0.0065246 0.9939433 -0.0065246 0.0060567 0.0065246
9154500000 0.0060876 0.0078954 0.9939124 -0.0078954 0.9939124 -0.0078954 0.0060876 0.0078954
9204250000 0.0061220 0.0092586 0.9938780 -0.0092586 0.9938780 -0.0092586 0.0061220 0.0092586
9254000000 0.0061600 0.0106146 0.9938400 -0.0106146 0.9938400 -0.0106146 0.0061600 0.0106146
9303750000 0.0062016 0.0119632 0.9937984 -0.0119632 0.9937984 -0.0119632 0.0062016 0.0119632
9353500000 0.0062466 0.0133048 0.9937534 -0.0133048 0.9937534 -0.0133048 0.0062466 0.0133048
9403250000 0.0062950 0.0146393 0.9937050 -0.0146393 0.9937050 -0.0146393 0.0062950 0.0146393
9453000000 0.0063467 0.0159668 0.9936533 -0.0159668 0.9936533 -0.0159668 0.0063467 0.0159668
9502750000 0.0064017 0.0172875 0.9935983 -0.0172875 0.9935983 -0.0172875 0.0064017 0.0172875
9552500000 0.0064600 0.0186015 0.9935400 -0.0186015 0.9935400 -0.0186015 0.0064600 0.0186015
9602250000 0.0065215 0.0199087 0.9934785 -0.0199087 0.9934785 -0.0199087 0.0065215 0.0199087
9652000000 0.0065861 0.0212094 0.9934139 -0.0212094 0.9934139 -0.0212094 0.0065861 0.0212094
9701750000 0.0066539 0.0225036 0.9933461 -0.0225036 0.9933461 -0.0225036 0.0066539 0.0225036
9751500000 0.0067247 0.0237914 0.9932753 -0.0237914 0.9932753 -0.0237914 0.0067247 0.0237914
9801250000 0.0067985 0.0250728 0.9932015 -0.0250728 0.9932015 -0.0250728 0.0067985 0.0250728
9851000000 0.0068753 0.0263480 0.9931247 -0.0263480 0.9931247 -0.0263480 0.0068753 0.0263480
9900750000 0.0069550 0.0276171 0.9930450 -0.0276171 0.9930450 -0.0276171 0.0069550 0.0276171
9950500000 0.0070375 0.0288800 0.9929625 -0.0288800 0.9929625 -0.0288800 0.0070375 0.0288800
10000250000 0.0071230 0.0301370 0.9928770 -0.0301370 0.9928770 -0.0301370 0.0071230 0.0301370
10050000000 0.0072112 0.0313880 0.9927888 -0.0313880 0.9927888 -0.0313880 0.0072112 0.0313880
10099750000 0.0073022 0.0326331 0.9926978 -0.0326331 0.9926978 -0.0326331 0.0073022 0.0326331
10149500000 0.0073959 0.0338725 0.9926041 -0.0338725 0.9926041 -0.0338725 0.0073959 0.0338725
10199250000 0.0074923 0.0351061 0.9925077 -0.0351061 0.9925077 -0.0351061 0.0074923 0.0351061
10249000000 0.0075914 0.0363342 0.9924086 -0.0363342 0.9924086 -0.0363342 0.0075914 0.0363342
10298750000 0.0076931 0.0375566 0.9923069 -0.0375566 0.9923069 -0.0375566 0.0076931 0.0375566
10348500000 0.0077974 0.0387735 0.9922026 -0.0387735 0.9922026 -0.0387735 0.0077974 0.0387735
10398250000 0.0079042 0.0399850 0.9920958 -0.0399850 0.9920958 -0.0399850 0.0079042 0.0399850
10448000000 0.0080136 0.0411912 0.9919864 -0.0411912 0.9919864 -0.0411912 0.0080136 0.0411912
10497750000 0.0081254 0.0423920 0.9918746 -0.0423920 0.9918746 -0.0423920 0.0081254 0.0423920
