!Murata Part Number: GRM0225C1H5R2DA03
!These Parameters are Measured in Series Mode Connection
!Data Generated on Mar 30, 2021
!       o--ll--o
!Port1            Port2
!       o------o
!Operation Temp=25[degC], DC Bias Voltage=0[V]
!Freq. Start=100[MHz] Stop=9[GHz] 401[Steps]
# Hz S RI R 50
!Freq.(Hz) S11(Real) S11(Imag) S21(Real) S21(Imag) S12(Real) S12(Imag) S22(Real) S22(Imag)
100000000 0.9033644 -0.2952095 0.0966356 0.2952095 0.0966356 0.2952095 0.9033644 -0.2952095
121000000 0.8645586 -0.3418898 0.1354414 0.3418898 0.1354414 0.3418898 0.8645586 -0.3418898
142000000 0.8224888 -0.3817428 0.1775112 0.3817428 0.1775112 0.3817428 0.8224888 -0.3817428
163000000 0.7785265 -0.4148271 0.2214735 0.4148271 0.2214735 0.4148271 0.7785265 -0.4148271
184000000 0.7338658 -0.4414702 0.2661342 0.4414702 0.2661342 0.4414702 0.7338658 -0.4414702
205000000 0.6894877 -0.4621843 0.3105123 0.4621843 0.3105123 0.4621843 0.6894877 -0.4621843
226000000 0.6461538 -0.4775889 0.3538462 0.4775889 0.3538462 0.4775889 0.6461538 -0.4775889
247000000 0.6044210 -0.4883468 0.3955790 0.4883468 0.3955790 0.4883468 0.6044210 -0.4883468
268000000 0.5646675 -0.4951177 0.4353325 0.4951177 0.4353325 0.4951177 0.5646675 -0.4951177
289000000 0.5271243 -0.4985257 0.4728757 0.4985257 0.4728757 0.4985257 0.5271243 -0.4985257
310000000 0.4919060 -0.4991408 0.5080940 0.4991408 0.5080940 0.4991408 0.4919060 -0.4991408
331000000 0.4590396 -0.4974697 0.5409604 0.4974697 0.5409604 0.4974697 0.4590396 -0.4974697
352000000 0.4284884 -0.4939534 0.5715116 0.4939534 0.5715116 0.4939534 0.4284884 -0.4939534
373000000 0.4001720 -0.4889698 0.5998280 0.4889698 0.5998280 0.4889698 0.4001720 -0.4889698
394000000 0.3739817 -0.4828381 0.6260183 0.4828381 0.6260183 0.4828381 0.3739817 -0.4828381
415000000 0.3497920 -0.4758253 0.6502080 0.4758253 0.6502080 0.4758253 0.3497920 -0.4758253
436000000 0.3274694 -0.4681527 0.6725306 0.4681527 0.6725306 0.4681527 0.3274694 -0.4681527
457000000 0.3068787 -0.4600020 0.6931213 0.4600020 0.6931213 0.4600020 0.3068787 -0.4600020
478000000 0.2878866 -0.4515217 0.7121134 0.4515217 0.7121134 0.4515217 0.2878866 -0.4515217
499000000 0.2703654 -0.4428318 0.7296346 0.4428318 0.7296346 0.4428318 0.2703654 -0.4428318
520000000 0.2541940 -0.4340293 0.7458060 0.4340293 0.7458060 0.4340293 0.2541940 -0.4340293
541000000 0.2392590 -0.4251916 0.7607410 0.4251916 0.7607410 0.4251916 0.2392590 -0.4251916
562000000 0.2254554 -0.4163798 0.7745446 0.4163798 0.7745446 0.4163798 0.2254554 -0.4163798
583000000 0.2126862 -0.4076423 0.7873138 0.4076423 0.7873138 0.4076423 0.2126862 -0.4076423
604000000 0.2008626 -0.3990163 0.7991374 0.3990163 0.7991374 0.3990163 0.2008626 -0.3990163
625000000 0.1899034 -0.3905306 0.8100966 0.3905306 0.8100966 0.3905306 0.1899034 -0.3905306
646000000 0.1797344 -0.3822066 0.8202656 0.3822066 0.8202656 0.3822066 0.1797344 -0.3822066
667000000 0.1702882 -0.3740600 0.8297118 0.3740600 0.8297118 0.3740600 0.1702882 -0.3740600
688000000 0.1615038 -0.3661020 0.8384962 0.3661020 0.8384962 0.3661020 0.1615038 -0.3661020
709000000 0.1533253 -0.3583397 0.8466747 0.3583397 0.8466747 0.3583397 0.1533253 -0.3583397
730000000 0.1457025 -0.3507777 0.8542975 0.3507777 0.8542975 0.3507777 0.1457025 -0.3507777
751000000 0.1385894 -0.3434176 0.8614106 0.3434176 0.8614106 0.3434176 0.1385894 -0.3434176
772000000 0.1319445 -0.3362597 0.8680555 0.3362597 0.8680555 0.3362597 0.1319445 -0.3362597
793000000 0.1257301 -0.3293025 0.8742699 0.3293025 0.8742699 0.3293025 0.1257301 -0.3293025
814000000 0.1199118 -0.3225433 0.8800882 0.3225433 0.8800882 0.3225433 0.1199118 -0.3225433
835000000 0.1144587 -0.3159786 0.8855413 0.3159786 0.8855413 0.3159786 0.1144587 -0.3159786
856000000 0.1093421 -0.3096044 0.8906579 0.3096044 0.8906579 0.3096044 0.1093421 -0.3096044
877000000 0.1045365 -0.3034160 0.8954635 0.3034160 0.8954635 0.3034160 0.1045365 -0.3034160
898000000 0.1000183 -0.2974083 0.8999817 0.2974083 0.8999817 0.2974083 0.1000183 -0.2974083
919000000 0.0957661 -0.2915762 0.9042339 0.2915762 0.9042339 0.2915762 0.0957661 -0.2915762
940000000 0.0917602 -0.2859142 0.9082398 0.2859142 0.9082398 0.2859142 0.0917602 -0.2859142
961000000 0.0879829 -0.2804170 0.9120171 0.2804170 0.9120171 0.2804170 0.0879829 -0.2804170
982000000 0.0844178 -0.2750791 0.9155822 0.2750791 0.9155822 0.2750791 0.0844178 -0.2750791
1003000000 0.0810498 -0.2698951 0.9189502 0.2698951 0.9189502 0.2698951 0.0810498 -0.2698951
1024000000 0.0778654 -0.2648596 0.9221346 0.2648596 0.9221346 0.2648596 0.0778654 -0.2648596
1045000000 0.0748518 -0.2599674 0.9251482 0.2599674 0.9251482 0.2599674 0.0748518 -0.2599674
1066000000 0.0719975 -0.2552133 0.9280025 0.2552133 0.9280025 0.2552133 0.0719975 -0.2552133
1087000000 0.0692919 -0.2505924 0.9307081 0.2505924 0.9307081 0.2505924 0.0692919 -0.2505924
1108000000 0.0667253 -0.2460999 0.9332747 0.2460999 0.9332747 0.2460999 0.0667253 -0.2460999
1129000000 0.0642885 -0.2417309 0.9357115 0.2417309 0.9357115 0.2417309 0.0642885 -0.2417309
1150000000 0.0619732 -0.2374810 0.9380268 0.2374810 0.9380268 0.2374810 0.0619732 -0.2374810
1171000000 0.0597719 -0.2333458 0.9402281 0.2333458 0.9402281 0.2333458 0.0597719 -0.2333458
1192000000 0.0576773 -0.2293210 0.9423227 0.2293210 0.9423227 0.2293210 0.0576773 -0.2293210
1213000000 0.0556829 -0.2254027 0.9443171 0.2254027 0.9443171 0.2254027 0.0556829 -0.2254027
1234000000 0.0537827 -0.2215868 0.9462173 0.2215868 0.9462173 0.2215868 0.0537827 -0.2215868
1255000000 0.0519710 -0.2178696 0.9480290 0.2178696 0.9480290 0.2178696 0.0519710 -0.2178696
1276000000 0.0502425 -0.2142476 0.9497575 0.2142476 0.9497575 0.2142476 0.0502425 -0.2142476
1297000000 0.0485924 -0.2107172 0.9514076 0.2107172 0.9514076 0.2107172 0.0485924 -0.2107172
1318000000 0.0470162 -0.2072752 0.9529838 0.2072752 0.9529838 0.2072752 0.0470162 -0.2072752
1339000000 0.0455097 -0.2039183 0.9544903 0.2039183 0.9544903 0.2039183 0.0455097 -0.2039183
1360000000 0.0440690 -0.2006435 0.9559310 0.2006435 0.9559310 0.2006435 0.0440690 -0.2006435
1381000000 0.0426904 -0.1974479 0.9573096 0.1974479 0.9573096 0.1974479 0.0426904 -0.1974479
1402000000 0.0413706 -0.1943286 0.9586294 0.1943286 0.9586294 0.1943286 0.0413706 -0.1943286
1423000000 0.0401063 -0.1912831 0.9598937 0.1912831 0.9598937 0.1912831 0.0401063 -0.1912831
1444000000 0.0388945 -0.1883086 0.9611055 0.1883086 0.9611055 0.1883086 0.0388945 -0.1883086
1465000000 0.0377326 -0.1854027 0.9622674 0.1854027 0.9622674 0.1854027 0.0377326 -0.1854027
1486000000 0.0366179 -0.1825631 0.9633821 0.1825631 0.9633821 0.1825631 0.0366179 -0.1825631
1507000000 0.0355480 -0.1797875 0.9644520 0.1797875 0.9644520 0.1797875 0.0355480 -0.1797875
1528000000 0.0345206 -0.1770738 0.9654794 0.1770738 0.9654794 0.1770738 0.0345206 -0.1770738
1549000000 0.0335335 -0.1744197 0.9664665 0.1744197 0.9664665 0.1744197 0.0335335 -0.1744197
1570000000 0.0325848 -0.1718234 0.9674152 0.1718234 0.9674152 0.1718234 0.0325848 -0.1718234
1591000000 0.0316726 -0.1692830 0.9683274 0.1692830 0.9683274 0.1692830 0.0316726 -0.1692830
1612000000 0.0307950 -0.1667965 0.9692050 0.1667965 0.9692050 0.1667965 0.0307950 -0.1667965
1633000000 0.0299505 -0.1643622 0.9700495 0.1643622 0.9700495 0.1643622 0.0299505 -0.1643622
1654000000 0.0291375 -0.1619785 0.9708625 0.1619785 0.9708625 0.1619785 0.0291375 -0.1619785
1675000000 0.0283544 -0.1596436 0.9716456 0.1596436 0.9716456 0.1596436 0.0283544 -0.1596436
1696000000 0.0275999 -0.1573561 0.9724001 0.1573561 0.9724001 0.1573561 0.0275999 -0.1573561
1717000000 0.0268727 -0.1551145 0.9731273 0.1551145 0.9731273 0.1551145 0.0268727 -0.1551145
1738000000 0.0261715 -0.1529172 0.9738285 0.1529172 0.9738285 0.1529172 0.0261715 -0.1529172
1759000000 0.0254952 -0.1507630 0.9745048 0.1507630 0.9745048 0.1507630 0.0254952 -0.1507630
1780000000 0.0248426 -0.1486505 0.9751574 0.1486505 0.9751574 0.1486505 0.0248426 -0.1486505
1801000000 0.0242128 -0.1465785 0.9757872 0.1465785 0.9757872 0.1465785 0.0242128 -0.1465785
1822000000 0.0236046 -0.1445456 0.9763954 0.1445456 0.9763954 0.1445456 0.0236046 -0.1445456
1843000000 0.0230172 -0.1425507 0.9769828 0.1425507 0.9769828 0.1425507 0.0230172 -0.1425507
1864000000 0.0224498 -0.1405927 0.9775502 0.1405927 0.9775502 0.1405927 0.0224498 -0.1405927
1885000000 0.0219013 -0.1386705 0.9780987 0.1386705 0.9780987 0.1386705 0.0219013 -0.1386705
1906000000 0.0213712 -0.1367831 0.9786288 0.1367831 0.9786288 0.1367831 0.0213712 -0.1367831
1927000000 0.0208585 -0.1349294 0.9791415 0.1349294 0.9791415 0.1349294 0.0208585 -0.1349294
1948000000 0.0203626 -0.1331084 0.9796374 0.1331084 0.9796374 0.1331084 0.0203626 -0.1331084
1969000000 0.0198828 -0.1313193 0.9801172 0.1313193 0.9801172 0.1313193 0.0198828 -0.1313193
1990000000 0.0194184 -0.1295611 0.9805816 0.1295611 0.9805816 0.1295611 0.0194184 -0.1295611
2011000000 0.0189689 -0.1278329 0.9810311 0.1278329 0.9810311 0.1278329 0.0189689 -0.1278329
2032000000 0.0185336 -0.1261339 0.9814664 0.1261339 0.9814664 0.1261339 0.0185336 -0.1261339
2053000000 0.0181120 -0.1244633 0.9818880 0.1244633 0.9818880 0.1244633 0.0181120 -0.1244633
2074000000 0.0177036 -0.1228204 0.9822964 0.1228204 0.9822964 0.1228204 0.0177036 -0.1228204
2095000000 0.0173078 -0.1212043 0.9826922 0.1212043 0.9826922 0.1212043 0.0173078 -0.1212043
2116000000 0.0169242 -0.1196143 0.9830758 0.1196143 0.9830758 0.1196143 0.0169242 -0.1196143
2137000000 0.0165524 -0.1180498 0.9834476 0.1180498 0.9834476 0.1180498 0.0165524 -0.1180498
2158000000 0.0161917 -0.1165100 0.9838083 0.1165100 0.9838083 0.1165100 0.0161917 -0.1165100
2179000000 0.0158420 -0.1149943 0.9841580 0.1149943 0.9841580 0.1149943 0.0158420 -0.1149943
2200000000 0.0155027 -0.1135021 0.9844973 0.1135021 0.9844973 0.1135021 0.0155027 -0.1135021
2221000000 0.0151735 -0.1120327 0.9848265 0.1120327 0.9848265 0.1120327 0.0151735 -0.1120327
2242000000 0.0148540 -0.1105856 0.9851460 0.1105856 0.9851460 0.1105856 0.0148540 -0.1105856
2263000000 0.0145439 -0.1091602 0.9854561 0.1091602 0.9854561 0.1091602 0.0145439 -0.1091602
2284000000 0.0142428 -0.1077559 0.9857572 0.1077559 0.9857572 0.1077559 0.0142428 -0.1077559
2305000000 0.0139505 -0.1063723 0.9860495 0.1063723 0.9860495 0.1063723 0.0139505 -0.1063723
2326000000 0.0136665 -0.1050087 0.9863335 0.1050087 0.9863335 0.1050087 0.0136665 -0.1050087
2347000000 0.0133907 -0.1036648 0.9866093 0.1036648 0.9866093 0.1036648 0.0133907 -0.1036648
2368000000 0.0131228 -0.1023399 0.9868772 0.1023399 0.9868772 0.1023399 0.0131228 -0.1023399
2389000000 0.0128624 -0.1010337 0.9871376 0.1010337 0.9871376 0.1010337 0.0128624 -0.1010337
2410000000 0.0126094 -0.0997457 0.9873906 0.0997457 0.9873906 0.0997457 0.0126094 -0.0997457
2431000000 0.0123634 -0.0984755 0.9876366 0.0984755 0.9876366 0.0984755 0.0123634 -0.0984755
2452000000 0.0121243 -0.0972226 0.9878757 0.0972226 0.9878757 0.0972226 0.0121243 -0.0972226
2473000000 0.0118918 -0.0959866 0.9881082 0.0959866 0.9881082 0.0959866 0.0118918 -0.0959866
2494000000 0.0116657 -0.0947671 0.9883343 0.0947671 0.9883343 0.0947671 0.0116657 -0.0947671
2515000000 0.0114459 -0.0935637 0.9885541 0.0935637 0.9885541 0.0935637 0.0114459 -0.0935637
2536000000 0.0112320 -0.0923761 0.9887680 0.0923761 0.9887680 0.0923761 0.0112320 -0.0923761
2557000000 0.0110239 -0.0912039 0.9889761 0.0912039 0.9889761 0.0912039 0.0110239 -0.0912039
2578000000 0.0108215 -0.0900468 0.9891785 0.0900468 0.9891785 0.0900468 0.0108215 -0.0900468
2599000000 0.0106245 -0.0889043 0.9893755 0.0889043 0.9893755 0.0889043 0.0106245 -0.0889043
2620000000 0.0104328 -0.0877762 0.9895672 0.0877762 0.9895672 0.0877762 0.0104328 -0.0877762
2641000000 0.0102463 -0.0866621 0.9897537 0.0866621 0.9897537 0.0866621 0.0102463 -0.0866621
2662000000 0.0100647 -0.0855618 0.9899353 0.0855618 0.9899353 0.0855618 0.0100647 -0.0855618
2683000000 0.0098879 -0.0844749 0.9901121 0.0844749 0.9901121 0.0844749 0.0098879 -0.0844749
2704000000 0.0097158 -0.0834011 0.9902842 0.0834011 0.9902842 0.0834011 0.0097158 -0.0834011
2725000000 0.0095482 -0.0823402 0.9904518 0.0823402 0.9904518 0.0823402 0.0095482 -0.0823402
2746000000 0.0093850 -0.0812918 0.9906150 0.0812918 0.9906150 0.0812918 0.0093850 -0.0812918
2767000000 0.0092261 -0.0802558 0.9907739 0.0802558 0.9907739 0.0802558 0.0092261 -0.0802558
2788000000 0.0090713 -0.0792317 0.9909287 0.0792317 0.9909287 0.0792317 0.0090713 -0.0792317
2809000000 0.0089205 -0.0782195 0.9910795 0.0782195 0.9910795 0.0782195 0.0089205 -0.0782195
2830000000 0.0087737 -0.0772187 0.9912263 0.0772187 0.9912263 0.0772187 0.0087737 -0.0772187
2851000000 0.0086306 -0.0762293 0.9913694 0.0762293 0.9913694 0.0762293 0.0086306 -0.0762293
2872000000 0.0084913 -0.0752509 0.9915087 0.0752509 0.9915087 0.0752509 0.0084913 -0.0752509
2893000000 0.0083555 -0.0742834 0.9916445 0.0742834 0.9916445 0.0742834 0.0083555 -0.0742834
2914000000 0.0082232 -0.0733264 0.9917768 0.0733264 0.9917768 0.0733264 0.0082232 -0.0733264
2935000000 0.0080943 -0.0723798 0.9919057 0.0723798 0.9919057 0.0723798 0.0080943 -0.0723798
2956000000 0.0079686 -0.0714434 0.9920314 0.0714434 0.9920314 0.0714434 0.0079686 -0.0714434
2977000000 0.0078462 -0.0705170 0.9921538 0.0705170 0.9921538 0.0705170 0.0078462 -0.0705170
2998000000 0.0077269 -0.0696003 0.9922731 0.0696003 0.9922731 0.0696003 0.0077269 -0.0696003
3019000000 0.0076106 -0.0686933 0.9923894 0.0686933 0.9923894 0.0686933 0.0076106 -0.0686933
3040000000 0.0074973 -0.0677956 0.9925027 0.0677956 0.9925027 0.0677956 0.0074973 -0.0677956
3061000000 0.0073869 -0.0669071 0.9926131 0.0669071 0.9926131 0.0669071 0.0073869 -0.0669071
3082000000 0.0072792 -0.0660276 0.9927208 0.0660276 0.9927208 0.0660276 0.0072792 -0.0660276
3103000000 0.0071743 -0.0651570 0.9928257 0.0651570 0.9928257 0.0651570 0.0071743 -0.0651570
3124000000 0.0070720 -0.0642950 0.9929280 0.0642950 0.9929280 0.0642950 0.0070720 -0.0642950
3145000000 0.0069724 -0.0634416 0.9930276 0.0634416 0.9930276 0.0634416 0.0069724 -0.0634416
3166000000 0.0068752 -0.0625965 0.9931248 0.0625965 0.9931248 0.0625965 0.0068752 -0.0625965
3187000000 0.0067805 -0.0617596 0.9932195 0.0617596 0.9932195 0.0617596 0.0067805 -0.0617596
3208000000 0.0066882 -0.0609307 0.9933118 0.0609307 0.9933118 0.0609307 0.0066882 -0.0609307
3229000000 0.0065982 -0.0601097 0.9934018 0.0601097 0.9934018 0.0601097 0.0065982 -0.0601097
3250000000 0.0065105 -0.0592965 0.9934895 0.0592965 0.9934895 0.0592965 0.0065105 -0.0592965
3271000000 0.0064250 -0.0584909 0.9935750 0.0584909 0.9935750 0.0584909 0.0064250 -0.0584909
3292000000 0.0063416 -0.0576927 0.9936584 0.0576927 0.9936584 0.0576927 0.0063416 -0.0576927
3313000000 0.0062604 -0.0569018 0.9937396 0.0569018 0.9937396 0.0569018 0.0062604 -0.0569018
3334000000 0.0061812 -0.0561181 0.9938188 0.0561181 0.9938188 0.0561181 0.0061812 -0.0561181
3355000000 0.0061041 -0.0553415 0.9938959 0.0553415 0.9938959 0.0553415 0.0061041 -0.0553415
3376000000 0.0060289 -0.0545718 0.9939711 0.0545718 0.9939711 0.0545718 0.0060289 -0.0545718
3397000000 0.0059556 -0.0538089 0.9940444 0.0538089 0.9940444 0.0538089 0.0059556 -0.0538089
3418000000 0.0058842 -0.0530528 0.9941158 0.0530528 0.9941158 0.0530528 0.0058842 -0.0530528
3439000000 0.0058146 -0.0523031 0.9941854 0.0523031 0.9941854 0.0523031 0.0058146 -0.0523031
3460000000 0.0057468 -0.0515600 0.9942532 0.0515600 0.9942532 0.0515600 0.0057468 -0.0515600
3481000000 0.0056807 -0.0508231 0.9943193 0.0508231 0.9943193 0.0508231 0.0056807 -0.0508231
3502000000 0.0056163 -0.0500925 0.9943837 0.0500925 0.9943837 0.0500925 0.0056163 -0.0500925
3523000000 0.0055536 -0.0493681 0.9944464 0.0493681 0.9944464 0.0493681 0.0055536 -0.0493681
3544000000 0.0054926 -0.0486496 0.9945074 0.0486496 0.9945074 0.0486496 0.0054926 -0.0486496
3565000000 0.0054331 -0.0479371 0.9945669 0.0479371 0.9945669 0.0479371 0.0054331 -0.0479371
3586000000 0.0053751 -0.0472304 0.9946249 0.0472304 0.9946249 0.0472304 0.0053751 -0.0472304
3607000000 0.0053187 -0.0465294 0.9946813 0.0465294 0.9946813 0.0465294 0.0053187 -0.0465294
3628000000 0.0052637 -0.0458340 0.9947363 0.0458340 0.9947363 0.0458340 0.0052637 -0.0458340
3649000000 0.0052102 -0.0451441 0.9947898 0.0451441 0.9947898 0.0451441 0.0052102 -0.0451441
3670000000 0.0051582 -0.0444597 0.9948418 0.0444597 0.9948418 0.0444597 0.0051582 -0.0444597
3691000000 0.0051075 -0.0437807 0.9948925 0.0437807 0.9948925 0.0437807 0.0051075 -0.0437807
3712000000 0.0050581 -0.0431069 0.9949419 0.0431069 0.9949419 0.0431069 0.0050581 -0.0431069
3733000000 0.0050101 -0.0424382 0.9949899 0.0424382 0.9949899 0.0424382 0.0050101 -0.0424382
3754000000 0.0049634 -0.0417747 0.9950366 0.0417747 0.9950366 0.0417747 0.0049634 -0.0417747
3775000000 0.0049180 -0.0411162 0.9950820 0.0411162 0.9950820 0.0411162 0.0049180 -0.0411162
3796000000 0.0048738 -0.0404625 0.9951262 0.0404625 0.9951262 0.0404625 0.0048738 -0.0404625
3817000000 0.0048309 -0.0398138 0.9951691 0.0398138 0.9951691 0.0398138 0.0048309 -0.0398138
3838000000 0.0047891 -0.0391698 0.9952109 0.0391698 0.9952109 0.0391698 0.0047891 -0.0391698
3859000000 0.0047485 -0.0385305 0.9952515 0.0385305 0.9952515 0.0385305 0.0047485 -0.0385305
3880000000 0.0047090 -0.0378958 0.9952910 0.0378958 0.9952910 0.0378958 0.0047090 -0.0378958
3901000000 0.0046707 -0.0372657 0.9953293 0.0372657 0.9953293 0.0372657 0.0046707 -0.0372657
3922000000 0.0046335 -0.0366401 0.9953665 0.0366401 0.9953665 0.0366401 0.0046335 -0.0366401
3943000000 0.0045973 -0.0360189 0.9954027 0.0360189 0.9954027 0.0360189 0.0045973 -0.0360189
3964000000 0.0045622 -0.0354020 0.9954378 0.0354020 0.9954378 0.0354020 0.0045622 -0.0354020
3985000000 0.0045282 -0.0347894 0.9954718 0.0347894 0.9954718 0.0347894 0.0045282 -0.0347894
4006000000 0.0044951 -0.0341810 0.9955049 0.0341810 0.9955049 0.0341810 0.0044951 -0.0341810
4027000000 0.0044630 -0.0335767 0.9955370 0.0335767 0.9955370 0.0335767 0.0044630 -0.0335767
4048000000 0.0044320 -0.0329765 0.9955680 0.0329765 0.9955680 0.0329765 0.0044320 -0.0329765
4069000000 0.0044018 -0.0323804 0.9955982 0.0323804 0.9955982 0.0323804 0.0044018 -0.0323804
4090000000 0.0043726 -0.0317882 0.9956274 0.0317882 0.9956274 0.0317882 0.0043726 -0.0317882
4111000000 0.0043444 -0.0311999 0.9956556 0.0311999 0.9956556 0.0311999 0.0043444 -0.0311999
4132000000 0.0043170 -0.0306155 0.9956830 0.0306155 0.9956830 0.0306155 0.0043170 -0.0306155
4153000000 0.0042905 -0.0300348 0.9957095 0.0300348 0.9957095 0.0300348 0.0042905 -0.0300348
4174000000 0.0042649 -0.0294579 0.9957351 0.0294579 0.9957351 0.0294579 0.0042649 -0.0294579
4195000000 0.0042401 -0.0288847 0.9957599 0.0288847 0.9957599 0.0288847 0.0042401 -0.0288847
4216000000 0.0042162 -0.0283151 0.9957838 0.0283151 0.9957838 0.0283151 0.0042162 -0.0283151
4237000000 0.0041931 -0.0277490 0.9958069 0.0277490 0.9958069 0.0277490 0.0041931 -0.0277490
4258000000 0.0041708 -0.0271865 0.9958292 0.0271865 0.9958292 0.0271865 0.0041708 -0.0271865
4279000000 0.0041493 -0.0266274 0.9958507 0.0266274 0.9958507 0.0266274 0.0041493 -0.0266274
4300000000 0.0041286 -0.0260718 0.9958714 0.0260718 0.9958714 0.0260718 0.0041286 -0.0260718
4321000000 0.0041086 -0.0255196 0.9958914 0.0255196 0.9958914 0.0255196 0.0041086 -0.0255196
4342000000 0.0040894 -0.0249706 0.9959106 0.0249706 0.9959106 0.0249706 0.0040894 -0.0249706
4363000000 0.0040709 -0.0244250 0.9959291 0.0244250 0.9959291 0.0244250 0.0040709 -0.0244250
4384000000 0.0040531 -0.0238826 0.9959469 0.0238826 0.9959469 0.0238826 0.0040531 -0.0238826
4405000000 0.0040361 -0.0233433 0.9959639 0.0233433 0.9959639 0.0233433 0.0040361 -0.0233433
4426000000 0.0040197 -0.0228073 0.9959803 0.0228073 0.9959803 0.0228073 0.0040197 -0.0228073
4447000000 0.0040040 -0.0222743 0.9959960 0.0222743 0.9959960 0.0222743 0.0040040 -0.0222743
4468000000 0.0039890 -0.0217444 0.9960110 0.0217444 0.9960110 0.0217444 0.0039890 -0.0217444
4489000000 0.0039747 -0.0212174 0.9960253 0.0212174 0.9960253 0.0212174 0.0039747 -0.0212174
4510000000 0.0039610 -0.0206935 0.9960390 0.0206935 0.9960390 0.0206935 0.0039610 -0.0206935
