!Murata Part Number: GRM0222C1E9R3CA03
!These Parameters are Measured in Series Mode Connection
!Data Generated on Mar 30, 2021
!       o--ll--o
!Port1            Port2
!       o------o
!Operation Temp=25[degC], DC Bias Voltage=0[V]
!Freq. Start=100[MHz] Stop=9[GHz] 401[Steps]
# Hz S RI R 50
!Freq.(Hz) S11(Real) S11(Imag) S21(Real) S21(Imag) S12(Real) S12(Imag) S22(Real) S22(Imag)
100000000 0.7450651 -0.4354405 0.2549349 0.4354405 0.2549349 0.4354405 0.7450651 -0.4354405
121000000 0.6661581 -0.4711186 0.3338419 0.4711186 0.3338419 0.4711186 0.6661581 -0.4711186
142000000 0.5915449 -0.4910009 0.4084551 0.4910009 0.4084551 0.4910009 0.5915449 -0.4910009
163000000 0.5234853 -0.4988188 0.4765147 0.4988188 0.4765147 0.4988188 0.5234853 -0.4988188
184000000 0.4628369 -0.4979050 0.5371631 0.4979050 0.5371631 0.4979050 0.4628369 -0.4979050
205000000 0.4095784 -0.4909608 0.5904216 0.4909608 0.5904216 0.4909608 0.4095784 -0.4909608
226000000 0.3632103 -0.4800457 0.6367897 0.4800457 0.6367897 0.4800457 0.3632103 -0.4800457
247000000 0.3230198 -0.4666667 0.6769802 0.4666667 0.6769802 0.4666667 0.3230198 -0.4666667
268000000 0.2882384 -0.4518938 0.7117616 0.4518938 0.7117616 0.4518938 0.2882384 -0.4518938
289000000 0.2581268 -0.4364692 0.7418732 0.4364692 0.7418732 0.4364692 0.2581268 -0.4364692
310000000 0.2320138 -0.4208960 0.7679862 0.4208960 0.7679862 0.4208960 0.2320138 -0.4208960
331000000 0.2093106 -0.4055069 0.7906894 0.4055069 0.7906894 0.4055069 0.2093106 -0.4055069
352000000 0.1895109 -0.3905156 0.8104891 0.3905156 0.8104891 0.3905156 0.1895109 -0.3905156
373000000 0.1721842 -0.3760523 0.8278158 0.3760523 0.8278158 0.3760523 0.1721842 -0.3760523
394000000 0.1569670 -0.3621907 0.8430330 0.3621907 0.8430330 0.3621907 0.1569670 -0.3621907
415000000 0.1435535 -0.3489655 0.8564465 0.3489655 0.8564465 0.3489655 0.1435535 -0.3489655
436000000 0.1316867 -0.3363859 0.8683133 0.3363859 0.8683133 0.3363859 0.1316867 -0.3363859
457000000 0.1211505 -0.3244439 0.8788495 0.3244439 0.8788495 0.3244439 0.1211505 -0.3244439
478000000 0.1117627 -0.3131205 0.8882373 0.3131205 0.8882373 0.3131205 0.1117627 -0.3131205
499000000 0.1033697 -0.3023906 0.8966303 0.3023906 0.8966303 0.3023906 0.1033697 -0.3023906
520000000 0.0958414 -0.2922251 0.9041586 0.2922251 0.9041586 0.2922251 0.0958414 -0.2922251
541000000 0.0890674 -0.2825931 0.9109326 0.2825931 0.9109326 0.2825931 0.0890674 -0.2825931
562000000 0.0829537 -0.2734636 0.9170463 0.2734636 0.9170463 0.2734636 0.0829537 -0.2734636
583000000 0.0774200 -0.2648059 0.9225800 0.2648059 0.9225800 0.2648059 0.0774200 -0.2648059
604000000 0.0723974 -0.2565903 0.9276026 0.2565903 0.9276026 0.2565903 0.0723974 -0.2565903
625000000 0.0678266 -0.2487885 0.9321734 0.2487885 0.9321734 0.2487885 0.0678266 -0.2487885
646000000 0.0636565 -0.2413738 0.9363435 0.2413738 0.9363435 0.2413738 0.0636565 -0.2413738
667000000 0.0598427 -0.2343209 0.9401573 0.2343209 0.9401573 0.2343209 0.0598427 -0.2343209
688000000 0.0563469 -0.2276063 0.9436531 0.2276063 0.9436531 0.2276063 0.0563469 -0.2276063
709000000 0.0531354 -0.2212082 0.9468646 0.2212082 0.9468646 0.2212082 0.0531354 -0.2212082
730000000 0.0501790 -0.2151059 0.9498210 0.2151059 0.9498210 0.2151059 0.0501790 -0.2151059
751000000 0.0474519 -0.2092808 0.9525481 0.2092808 0.9525481 0.2092808 0.0474519 -0.2092808
772000000 0.0449316 -0.2037150 0.9550684 0.2037150 0.9550684 0.2037150 0.0449316 -0.2037150
793000000 0.0425981 -0.1983924 0.9574019 0.1983924 0.9574019 0.1983924 0.0425981 -0.1983924
814000000 0.0404337 -0.1932978 0.9595663 0.1932978 0.9595663 0.1932978 0.0404337 -0.1932978
835000000 0.0384229 -0.1884174 0.9615771 0.1884174 0.9615771 0.1884174 0.0384229 -0.1884174
856000000 0.0365518 -0.1837380 0.9634482 0.1837380 0.9634482 0.1837380 0.0365518 -0.1837380
877000000 0.0348079 -0.1792477 0.9651921 0.1792477 0.9651921 0.1792477 0.0348079 -0.1792477
898000000 0.0331803 -0.1749353 0.9668197 0.1749353 0.9668197 0.1749353 0.0331803 -0.1749353
919000000 0.0316591 -0.1707905 0.9683409 0.1707905 0.9683409 0.1707905 0.0316591 -0.1707905
940000000 0.0302353 -0.1668037 0.9697647 0.1668037 0.9697647 0.1668037 0.0302353 -0.1668037
961000000 0.0289011 -0.1629659 0.9710989 0.1629659 0.9710989 0.1629659 0.0289011 -0.1629659
982000000 0.0276492 -0.1592689 0.9723508 0.1592689 0.9723508 0.1592689 0.0276492 -0.1592689
1003000000 0.0264731 -0.1557049 0.9735269 0.1557049 0.9735269 0.1557049 0.0264731 -0.1557049
1024000000 0.0253669 -0.1522668 0.9746331 0.1522668 0.9746331 0.1522668 0.0253669 -0.1522668
1045000000 0.0243254 -0.1489478 0.9756746 0.1489478 0.9756746 0.1489478 0.0243254 -0.1489478
1066000000 0.0233438 -0.1457416 0.9766562 0.1457416 0.9766562 0.1457416 0.0233438 -0.1457416
1087000000 0.0224176 -0.1426425 0.9775824 0.1426425 0.9775824 0.1426425 0.0224176 -0.1426425
1108000000 0.0215429 -0.1396449 0.9784571 0.1396449 0.9784571 0.1396449 0.0215429 -0.1396449
1129000000 0.0207160 -0.1367438 0.9792840 0.1367438 0.9792840 0.1367438 0.0207160 -0.1367438
1150000000 0.0199335 -0.1339343 0.9800665 0.1339343 0.9800665 0.1339343 0.0199335 -0.1339343
1171000000 0.0191925 -0.1312120 0.9808075 0.1312120 0.9808075 0.1312120 0.0191925 -0.1312120
1192000000 0.0184902 -0.1285727 0.9815098 0.1285727 0.9815098 0.1285727 0.0184902 -0.1285727
1213000000 0.0178239 -0.1260125 0.9821761 0.1260125 0.9821761 0.1260125 0.0178239 -0.1260125
1234000000 0.0171914 -0.1235276 0.9828086 0.1235276 0.9828086 0.1235276 0.0171914 -0.1235276
1255000000 0.0165905 -0.1211145 0.9834095 0.1211145 0.9834095 0.1211145 0.0165905 -0.1211145
1276000000 0.0160191 -0.1187700 0.9839809 0.1187700 0.9839809 0.1187700 0.0160191 -0.1187700
1297000000 0.0154754 -0.1164910 0.9845246 0.1164910 0.9845246 0.1164910 0.0154754 -0.1164910
1318000000 0.0149579 -0.1142746 0.9850421 0.1142746 0.9850421 0.1142746 0.0149579 -0.1142746
1339000000 0.0144647 -0.1121180 0.9855353 0.1121180 0.9855353 0.1121180 0.0144647 -0.1121180
1360000000 0.0139946 -0.1100187 0.9860054 0.1100187 0.9860054 0.1100187 0.0139946 -0.1100187
1381000000 0.0135461 -0.1079742 0.9864539 0.1079742 0.9864539 0.1079742 0.0135461 -0.1079742
1402000000 0.0131181 -0.1059822 0.9868819 0.1059822 0.9868819 0.1059822 0.0131181 -0.1059822
1423000000 0.0127093 -0.1040406 0.9872907 0.1040406 0.9872907 0.1040406 0.0127093 -0.1040406
1444000000 0.0123186 -0.1021472 0.9876814 0.1021472 0.9876814 0.1021472 0.0123186 -0.1021472
1465000000 0.0119451 -0.1003001 0.9880549 0.1003001 0.9880549 0.1003001 0.0119451 -0.1003001
1486000000 0.0115878 -0.0984975 0.9884122 0.0984975 0.9884122 0.0984975 0.0115878 -0.0984975
1507000000 0.0112459 -0.0967375 0.9887541 0.0967375 0.9887541 0.0967375 0.0112459 -0.0967375
1528000000 0.0109185 -0.0950186 0.9890815 0.0950186 0.9890815 0.0950186 0.0109185 -0.0950186
1549000000 0.0106049 -0.0933392 0.9893951 0.0933392 0.9893951 0.0933392 0.0106049 -0.0933392
1570000000 0.0103043 -0.0916977 0.9896957 0.0916977 0.9896957 0.0916977 0.0103043 -0.0916977
1591000000 0.0100162 -0.0900927 0.9899838 0.0900927 0.9899838 0.0900927 0.0100162 -0.0900927
1612000000 0.0097397 -0.0885228 0.9902603 0.0885228 0.9902603 0.0885228 0.0097397 -0.0885228
1633000000 0.0094745 -0.0869869 0.9905255 0.0869869 0.9905255 0.0869869 0.0094745 -0.0869869
1654000000 0.0092199 -0.0854835 0.9907801 0.0854835 0.9907801 0.0854835 0.0092199 -0.0854835
1675000000 0.0089754 -0.0840117 0.9910246 0.0840117 0.9910246 0.0840117 0.0089754 -0.0840117
1696000000 0.0087405 -0.0825701 0.9912595 0.0825701 0.9912595 0.0825701 0.0087405 -0.0825701
1717000000 0.0085148 -0.0811579 0.9914852 0.0811579 0.9914852 0.0811579 0.0085148 -0.0811579
1738000000 0.0082978 -0.0797739 0.9917022 0.0797739 0.9917022 0.0797739 0.0082978 -0.0797739
1759000000 0.0080892 -0.0784172 0.9919108 0.0784172 0.9919108 0.0784172 0.0080892 -0.0784172
1780000000 0.0078885 -0.0770868 0.9921115 0.0770868 0.9921115 0.0770868 0.0078885 -0.0770868
1801000000 0.0076955 -0.0757820 0.9923045 0.0757820 0.9923045 0.0757820 0.0076955 -0.0757820
1822000000 0.0075097 -0.0745017 0.9924903 0.0745017 0.9924903 0.0745017 0.0075097 -0.0745017
1843000000 0.0073308 -0.0732453 0.9926692 0.0732453 0.9926692 0.0732453 0.0073308 -0.0732453
1864000000 0.0071585 -0.0720119 0.9928415 0.0720119 0.9928415 0.0720119 0.0071585 -0.0720119
1885000000 0.0069926 -0.0708008 0.9930074 0.0708008 0.9930074 0.0708008 0.0069926 -0.0708008
1906000000 0.0068328 -0.0696113 0.9931672 0.0696113 0.9931672 0.0696113 0.0068328 -0.0696113
1927000000 0.0066788 -0.0684427 0.9933212 0.0684427 0.9933212 0.0684427 0.0066788 -0.0684427
1948000000 0.0065304 -0.0672944 0.9934696 0.0672944 0.9934696 0.0672944 0.0065304 -0.0672944
1969000000 0.0063874 -0.0661657 0.9936126 0.0661657 0.9936126 0.0661657 0.0063874 -0.0661657
1990000000 0.0062495 -0.0650560 0.9937505 0.0650560 0.9937505 0.0650560 0.0062495 -0.0650560
2011000000 0.0061165 -0.0639648 0.9938835 0.0639648 0.9938835 0.0639648 0.0061165 -0.0639648
2032000000 0.0059882 -0.0628914 0.9940118 0.0628914 0.9940118 0.0628914 0.0059882 -0.0628914
2053000000 0.0058645 -0.0618355 0.9941355 0.0618355 0.9941355 0.0618355 0.0058645 -0.0618355
2074000000 0.0057451 -0.0607963 0.9942549 0.0607963 0.9942549 0.0607963 0.0057451 -0.0607963
2095000000 0.0056300 -0.0597736 0.9943700 0.0597736 0.9943700 0.0597736 0.0056300 -0.0597736
2116000000 0.0055189 -0.0587667 0.9944811 0.0587667 0.9944811 0.0587667 0.0055189 -0.0587667
2137000000 0.0054116 -0.0577753 0.9945884 0.0577753 0.9945884 0.0577753 0.0054116 -0.0577753
2158000000 0.0053082 -0.0567988 0.9946918 0.0567988 0.9946918 0.0567988 0.0053082 -0.0567988
2179000000 0.0052083 -0.0558370 0.9947917 0.0558370 0.9947917 0.0558370 0.0052083 -0.0558370
2200000000 0.0051119 -0.0548893 0.9948881 0.0548893 0.9948881 0.0548893 0.0051119 -0.0548893
2221000000 0.0050188 -0.0539553 0.9949812 0.0539553 0.9949812 0.0539553 0.0050188 -0.0539553
2242000000 0.0049290 -0.0530348 0.9950710 0.0530348 0.9950710 0.0530348 0.0049290 -0.0530348
2263000000 0.0048423 -0.0521273 0.9951577 0.0521273 0.9951577 0.0521273 0.0048423 -0.0521273
2284000000 0.0047586 -0.0512326 0.9952414 0.0512326 0.9952414 0.0512326 0.0047586 -0.0512326
2305000000 0.0046777 -0.0503501 0.9953223 0.0503501 0.9953223 0.0503501 0.0046777 -0.0503501
2326000000 0.0045997 -0.0494797 0.9954003 0.0494797 0.9954003 0.0494797 0.0045997 -0.0494797
2347000000 0.0045244 -0.0486210 0.9954756 0.0486210 0.9954756 0.0486210 0.0045244 -0.0486210
2368000000 0.0044517 -0.0477737 0.9955483 0.0477737 0.9955483 0.0477737 0.0044517 -0.0477737
2389000000 0.0043815 -0.0469375 0.9956185 0.0469375 0.9956185 0.0469375 0.0043815 -0.0469375
2410000000 0.0043138 -0.0461122 0.9956862 0.0461122 0.9956862 0.0461122 0.0043138 -0.0461122
2431000000 0.0042484 -0.0452974 0.9957516 0.0452974 0.9957516 0.0452974 0.0042484 -0.0452974
2452000000 0.0041854 -0.0444929 0.9958146 0.0444929 0.9958146 0.0444929 0.0041854 -0.0444929
2473000000 0.0041245 -0.0436985 0.9958755 0.0436985 0.9958755 0.0436985 0.0041245 -0.0436985
2494000000 0.0040658 -0.0429138 0.9959342 0.0429138 0.9959342 0.0429138 0.0040658 -0.0429138
2515000000 0.0040091 -0.0421387 0.9959909 0.0421387 0.9959909 0.0421387 0.0040091 -0.0421387
2536000000 0.0039545 -0.0413729 0.9960455 0.0413729 0.9960455 0.0413729 0.0039545 -0.0413729
2557000000 0.0039018 -0.0406162 0.9960982 0.0406162 0.9960982 0.0406162 0.0039018 -0.0406162
2578000000 0.0038510 -0.0398684 0.9961490 0.0398684 0.9961490 0.0398684 0.0038510 -0.0398684
2599000000 0.0038020 -0.0391293 0.9961980 0.0391293 0.9961980 0.0391293 0.0038020 -0.0391293
2620000000 0.0037549 -0.0383986 0.9962451 0.0383986 0.9962451 0.0383986 0.0037549 -0.0383986
2641000000 0.0037094 -0.0376762 0.9962906 0.0376762 0.9962906 0.0376762 0.0037094 -0.0376762
2662000000 0.0036656 -0.0369619 0.9963344 0.0369619 0.9963344 0.0369619 0.0036656 -0.0369619
2683000000 0.0036235 -0.0362555 0.9963765 0.0362555 0.9963765 0.0362555 0.0036235 -0.0362555
2704000000 0.0035829 -0.0355568 0.9964171 0.0355568 0.9964171 0.0355568 0.0035829 -0.0355568
2725000000 0.0035438 -0.0348656 0.9964562 0.0348656 0.9964562 0.0348656 0.0035438 -0.0348656
2746000000 0.0035063 -0.0341818 0.9964937 0.0341818 0.9964937 0.0341818 0.0035063 -0.0341818
2767000000 0.0034702 -0.0335052 0.9965298 0.0335052 0.9965298 0.0335052 0.0034702 -0.0335052
2788000000 0.0034355 -0.0328357 0.9965645 0.0328357 0.9965645 0.0328357 0.0034355 -0.0328357
2809000000 0.0034022 -0.0321730 0.9965978 0.0321730 0.9965978 0.0321730 0.0034022 -0.0321730
2830000000 0.0033702 -0.0315172 0.9966298 0.0315172 0.9966298 0.0315172 0.0033702 -0.0315172
2851000000 0.0033395 -0.0308679 0.9966605 0.0308679 0.9966605 0.0308679 0.0033395 -0.0308679
2872000000 0.0033101 -0.0302250 0.9966899 0.0302250 0.9966899 0.0302250 0.0033101 -0.0302250
2893000000 0.0032819 -0.0295885 0.9967181 0.0295885 0.9967181 0.0295885 0.0032819 -0.0295885
2914000000 0.0032549 -0.0289582 0.9967451 0.0289582 0.9967451 0.0289582 0.0032549 -0.0289582
2935000000 0.0032290 -0.0283339 0.9967710 0.0283339 0.9967710 0.0283339 0.0032290 -0.0283339
2956000000 0.0032043 -0.0277156 0.9967957 0.0277156 0.9967957 0.0277156 0.0032043 -0.0277156
2977000000 0.0031807 -0.0271031 0.9968193 0.0271031 0.9968193 0.0271031 0.0031807 -0.0271031
2998000000 0.0031582 -0.0264962 0.9968418 0.0264962 0.9968418 0.0264962 0.0031582 -0.0264962
3019000000 0.0031367 -0.0258950 0.9968633 0.0258950 0.9968633 0.0258950 0.0031367 -0.0258950
3040000000 0.0031163 -0.0252992 0.9968837 0.0252992 0.9968837 0.0252992 0.0031163 -0.0252992
3061000000 0.0030969 -0.0247088 0.9969031 0.0247088 0.9969031 0.0247088 0.0030969 -0.0247088
3082000000 0.0030784 -0.0241236 0.9969216 0.0241236 0.9969216 0.0241236 0.0030784 -0.0241236
3103000000 0.0030609 -0.0235435 0.9969391 0.0235435 0.9969391 0.0235435 0.0030609 -0.0235435
3124000000 0.0030443 -0.0229685 0.9969557 0.0229685 0.9969557 0.0229685 0.0030443 -0.0229685
3145000000 0.0030286 -0.0223985 0.9969714 0.0223985 0.9969714 0.0223985 0.0030286 -0.0223985
3166000000 0.0030138 -0.0218333 0.9969862 0.0218333 0.9969862 0.0218333 0.0030138 -0.0218333
3187000000 0.0029999 -0.0212728 0.9970001 0.0212728 0.9970001 0.0212728 0.0029999 -0.0212728
3208000000 0.0029868 -0.0207170 0.9970132 0.0207170 0.9970132 0.0207170 0.0029868 -0.0207170
3229000000 0.0029746 -0.0201658 0.9970254 0.0201658 0.9970254 0.0201658 0.0029746 -0.0201658
3250000000 0.0029631 -0.0196191 0.9970369 0.0196191 0.9970369 0.0196191 0.0029631 -0.0196191
3271000000 0.0029525 -0.0190768 0.9970475 0.0190768 0.9970475 0.0190768 0.0029525 -0.0190768
3292000000 0.0029426 -0.0185388 0.9970574 0.0185388 0.9970574 0.0185388 0.0029426 -0.0185388
3313000000 0.0029334 -0.0180050 0.9970666 0.0180050 0.9970666 0.0180050 0.0029334 -0.0180050
3334000000 0.0029250 -0.0174754 0.9970750 0.0174754 0.9970750 0.0174754 0.0029250 -0.0174754
3355000000 0.0029174 -0.0169499 0.9970826 0.0169499 0.9970826 0.0169499 0.0029174 -0.0169499
3376000000 0.0029104 -0.0164285 0.9970896 0.0164285 0.9970896 0.0164285 0.0029104 -0.0164285
3397000000 0.0029041 -0.0159109 0.9970959 0.0159109 0.9970959 0.0159109 0.0029041 -0.0159109
3418000000 0.0028985 -0.0153973 0.9971015 0.0153973 0.9971015 0.0153973 0.0028985 -0.0153973
3439000000 0.0028936 -0.0148874 0.9971064 0.0148874 0.9971064 0.0148874 0.0028936 -0.0148874
3460000000 0.0028893 -0.0143813 0.9971107 0.0143813 0.9971107 0.0143813 0.0028893 -0.0143813
3481000000 0.0028856 -0.0138788 0.9971144 0.0138788 0.9971144 0.0138788 0.0028856 -0.0138788
3502000000 0.0028826 -0.0133800 0.9971174 0.0133800 0.9971174 0.0133800 0.0028826 -0.0133800
3523000000 0.0028802 -0.0128847 0.9971198 0.0128847 0.9971198 0.0128847 0.0028802 -0.0128847
3544000000 0.0028783 -0.0123929 0.9971217 0.0123929 0.9971217 0.0123929 0.0028783 -0.0123929
3565000000 0.0028771 -0.0119045 0.9971229 0.0119045 0.9971229 0.0119045 0.0028771 -0.0119045
3586000000 0.0028764 -0.0114195 0.9971236 0.0114195 0.9971236 0.0114195 0.0028764 -0.0114195
3607000000 0.0028763 -0.0109378 0.9971237 0.0109378 0.9971237 0.0109378 0.0028763 -0.0109378
3628000000 0.0028767 -0.0104593 0.9971233 0.0104593 0.9971233 0.0104593 0.0028767 -0.0104593
3649000000 0.0028777 -0.0099840 0.9971223 0.0099840 0.9971223 0.0099840 0.0028777 -0.0099840
3670000000 0.0028792 -0.0095119 0.9971208 0.0095119 0.9971208 0.0095119 0.0028792 -0.0095119
3691000000 0.0028813 -0.0090429 0.9971187 0.0090429 0.9971187 0.0090429 0.0028813 -0.0090429
3712000000 0.0028838 -0.0085769 0.9971162 0.0085769 0.9971162 0.0085769 0.0028838 -0.0085769
3733000000 0.0028868 -0.0081139 0.9971132 0.0081139 0.9971132 0.0081139 0.0028868 -0.0081139
3754000000 0.0028904 -0.0076539 0.9971096 0.0076539 0.9971096 0.0076539 0.0028904 -0.0076539
3775000000 0.0028944 -0.0071967 0.9971056 0.0071967 0.9971056 0.0071967 0.0028944 -0.0071967
3796000000 0.0028989 -0.0067424 0.9971011 0.0067424 0.9971011 0.0067424 0.0028989 -0.0067424
3817000000 0.0029038 -0.0062909 0.9970962 0.0062909 0.9970962 0.0062909 0.0029038 -0.0062909
3838000000 0.0029092 -0.0058422 0.9970908 0.0058422 0.9970908 0.0058422 0.0029092 -0.0058422
3859000000 0.0029151 -0.0053962 0.9970849 0.0053962 0.9970849 0.0053962 0.0029151 -0.0053962
3880000000 0.0029214 -0.0049529 0.9970786 0.0049529 0.9970786 0.0049529 0.0029214 -0.0049529
3901000000 0.0029281 -0.0045122 0.9970719 0.0045122 0.9970719 0.0045122 0.0029281 -0.0045122
3922000000 0.0029352 -0.0040740 0.9970648 0.0040740 0.9970648 0.0040740 0.0029352 -0.0040740
3943000000 0.0029428 -0.0036385 0.9970572 0.0036385 0.9970572 0.0036385 0.0029428 -0.0036385
3964000000 0.0029508 -0.0032054 0.9970492 0.0032054 0.9970492 0.0032054 0.0029508 -0.0032054
3985000000 0.0029591 -0.0027749 0.9970409 0.0027749 0.9970409 0.0027749 0.0029591 -0.0027749
4006000000 0.0029679 -0.0023467 0.9970321 0.0023467 0.9970321 0.0023467 0.0029679 -0.0023467
4027000000 0.0029771 -0.0019210 0.9970229 0.0019210 0.9970229 0.0019210 0.0029771 -0.0019210
4048000000 0.0029866 -0.0014976 0.9970134 0.0014976 0.9970134 0.0014976 0.0029866 -0.0014976
4069000000 0.0029966 -0.0010766 0.9970034 0.0010766 0.9970034 0.0010766 0.0029966 -0.0010766
4090000000 0.0030069 -0.0006579 0.9969931 0.0006579 0.9969931 0.0006579 0.0030069 -0.0006579
4111000000 0.0030175 -0.0002414 0.9969825 0.0002414 0.9969825 0.0002414 0.0030175 -0.0002414
4132000000 0.0030285 0.0001729 0.9969715 -0.0001729 0.9969715 -0.0001729 0.0030285 0.0001729
4153000000 0.0030399 0.0005849 0.9969601 -0.0005849 0.9969601 -0.0005849 0.0030399 0.0005849
4174000000 0.0030516 0.0009948 0.9969484 -0.0009948 0.9969484 -0.0009948 0.0030516 0.0009948
4195000000 0.0030637 0.0014026 0.9969363 -0.0014026 0.9969363 -0.0014026 0.0030637 0.0014026
4216000000 0.0030761 0.0018082 0.9969239 -0.0018082 0.9969239 -0.0018082 0.0030761 0.0018082
4237000000 0.0030888 0.0022118 0.9969112 -0.0022118 0.9969112 -0.0022118 0.0030888 0.0022118
4258000000 0.0031019 0.0026133 0.9968981 -0.0026133 0.9968981 -0.0026133 0.0031019 0.0026133
4279000000 0.0031153 0.0030129 0.9968847 -0.0030129 0.9968847 -0.0030129 0.0031153 0.0030129
4300000000 0.0031290 0.0034104 0.9968710 -0.0034104 0.9968710 -0.0034104 0.0031290 0.0034104
4321000000 0.0031430 0.0038060 0.9968570 -0.0038060 0.9968570 -0.0038060 0.0031430 0.0038060
4342000000 0.0031573 0.0041996 0.9968427 -0.0041996 0.9968427 -0.0041996 0.0031573 0.0041996
4363000000 0.0031719 0.0045914 0.9968281 -0.0045914 0.9968281 -0.0045914 0.0031719 0.0045914
4384000000 0.0031868 0.0049812 0.9968132 -0.0049812 0.9968132 -0.0049812 0.0031868 0.0049812
4405000000 0.0032020 0.0053692 0.9967980 -0.0053692 0.9967980 -0.0053692 0.0032020 0.0053692
4426000000 0.0032175 0.0057554 0.9967825 -0.0057554 0.9967825 -0.0057554 0.0032175 0.0057554
4447000000 0.0032333 0.0061398 0.9967667 -0.0061398 0.9967667 -0.0061398 0.0032333 0.0061398
4468000000 0.0032494 0.0065224 0.9967506 -0.0065224 0.9967506 -0.0065224 0.0032494 0.0065224
4489000000 0.0032657 0.0069033 0.9967343 -0.0069033 0.9967343 -0.0069033 0.0032657 0.0069033
4510000000 0.0032823 0.0072824 0.9967177 -0.0072824 0.9967177 -0.0072824 0.0032823 0.0072824
