!Murata Part Number: GRM0225C1H2R3BA03
!These Parameters are Measured in Series Mode Connection
!Data Generated on Mar 30, 2021
!       o--ll--o
!Port1            Port2
!       o------o
!Operation Temp=25[degC], DC Bias Voltage=0[V]
!Freq. Start=100[MHz] Stop=9[GHz] 401[Steps]
# Hz S RI R 50
!Freq.(Hz) S11(Real) S11(Imag) S21(Real) S21(Imag) S12(Real) S12(Imag) S22(Real) S22(Imag)
100000000 0.9794929 -0.1415675 0.0205071 0.1415675 0.0205071 0.1415675 0.9794929 -0.1415675
121000000 0.9702545 -0.1696909 0.0297455 0.1696909 0.0297455 0.1696909 0.9702545 -0.1696909
142000000 0.9594816 -0.1969438 0.0405184 0.1969438 0.0405184 0.1969438 0.9594816 -0.1969438
163000000 0.9472797 -0.2232121 0.0527203 0.2232121 0.0527203 0.2232121 0.9472797 -0.2232121
184000000 0.9337640 -0.2483968 0.0662360 0.2483968 0.0662360 0.2483968 0.9337640 -0.2483968
205000000 0.9190568 -0.2724149 0.0809432 0.2724149 0.0809432 0.2724149 0.9190568 -0.2724149
226000000 0.9032854 -0.2951999 0.0967146 0.2951999 0.0967146 0.2951999 0.9032854 -0.2951999
247000000 0.8865793 -0.3167012 0.1134207 0.3167012 0.1134207 0.3167012 0.8865793 -0.3167012
268000000 0.8690679 -0.3368840 0.1309321 0.3368840 0.1309321 0.3368840 0.8690679 -0.3368840
289000000 0.8508788 -0.3557283 0.1491212 0.3557283 0.1491212 0.3557283 0.8508788 -0.3557283
310000000 0.8321361 -0.3732278 0.1678639 0.3732278 0.1678639 0.3732278 0.8321361 -0.3732278
331000000 0.8129584 -0.3893887 0.1870416 0.3893887 0.1870416 0.3893887 0.8129584 -0.3893887
352000000 0.7934582 -0.4042283 0.2065418 0.4042283 0.2065418 0.4042283 0.7934582 -0.4042283
373000000 0.7737405 -0.4177737 0.2262595 0.4177737 0.2262595 0.4177737 0.7737405 -0.4177737
394000000 0.7539027 -0.4300600 0.2460973 0.4300600 0.2460973 0.4300600 0.7539027 -0.4300600
415000000 0.7340337 -0.4411293 0.2659663 0.4411293 0.2659663 0.4411293 0.7340337 -0.4411293
436000000 0.7142140 -0.4510291 0.2857860 0.4510291 0.2857860 0.4510291 0.7142140 -0.4510291
457000000 0.6945155 -0.4598110 0.3054845 0.4598110 0.3054845 0.4598110 0.6945155 -0.4598110
478000000 0.6750021 -0.4675296 0.3249979 0.4675296 0.3249979 0.4675296 0.6750021 -0.4675296
499000000 0.6557295 -0.4742416 0.3442705 0.4742416 0.3442705 0.4742416 0.6557295 -0.4742416
520000000 0.6367459 -0.4800046 0.3632541 0.4800046 0.3632541 0.4800046 0.6367459 -0.4800046
541000000 0.6180922 -0.4848765 0.3819078 0.4848765 0.3819078 0.4848765 0.6180922 -0.4848765
562000000 0.5998027 -0.4889148 0.4001973 0.4889148 0.4001973 0.4889148 0.5998027 -0.4889148
583000000 0.5819057 -0.4921761 0.4180943 0.4921761 0.4180943 0.4921761 0.5819057 -0.4921761
604000000 0.5644238 -0.4947155 0.4355762 0.4947155 0.4355762 0.4947155 0.5644238 -0.4947155
625000000 0.5473746 -0.4965864 0.4526254 0.4965864 0.4526254 0.4965864 0.5473746 -0.4965864
646000000 0.5307710 -0.4978399 0.4692290 0.4978399 0.4692290 0.4978399 0.5307710 -0.4978399
667000000 0.5146223 -0.4985250 0.4853777 0.4985250 0.4853777 0.4985250 0.5146223 -0.4985250
688000000 0.4989338 -0.4986884 0.5010662 0.4986884 0.5010662 0.4986884 0.4989338 -0.4986884
709000000 0.4837080 -0.4983742 0.5162920 0.4983742 0.5162920 0.4983742 0.4837080 -0.4983742
730000000 0.4689445 -0.4976239 0.5310555 0.4976239 0.5310555 0.4976239 0.4689445 -0.4976239
751000000 0.4546409 -0.4964766 0.5453591 0.4964766 0.5453591 0.4964766 0.4546409 -0.4964766
772000000 0.4407925 -0.4949689 0.5592075 0.4949689 0.5592075 0.4949689 0.4407925 -0.4949689
793000000 0.4273931 -0.4931349 0.5726069 0.4931349 0.5726069 0.4931349 0.4273931 -0.4931349
814000000 0.4144352 -0.4910065 0.5855648 0.4910065 0.5855648 0.4910065 0.4144352 -0.4910065
835000000 0.4019100 -0.4886132 0.5980900 0.4886132 0.5980900 0.4886132 0.4019100 -0.4886132
856000000 0.3898080 -0.4859824 0.6101920 0.4859824 0.6101920 0.4859824 0.3898080 -0.4859824
877000000 0.3781187 -0.4831394 0.6218813 0.4831394 0.6218813 0.4831394 0.3781187 -0.4831394
898000000 0.3668314 -0.4801074 0.6331686 0.4801074 0.6331686 0.4801074 0.3668314 -0.4801074
919000000 0.3559346 -0.4769082 0.6440654 0.4769082 0.6440654 0.4769082 0.3559346 -0.4769082
940000000 0.3454170 -0.4735614 0.6545830 0.4735614 0.6545830 0.4735614 0.3454170 -0.4735614
961000000 0.3352667 -0.4700853 0.6647333 0.4700853 0.6647333 0.4700853 0.3352667 -0.4700853
982000000 0.3254721 -0.4664966 0.6745279 0.4664966 0.6745279 0.4664966 0.3254721 -0.4664966
1003000000 0.3160212 -0.4628104 0.6839788 0.4628104 0.6839788 0.4628104 0.3160212 -0.4628104
1024000000 0.3069025 -0.4590408 0.6930975 0.4590408 0.6930975 0.4590408 0.3069025 -0.4590408
1045000000 0.2981044 -0.4552005 0.7018956 0.4552005 0.7018956 0.4552005 0.2981044 -0.4552005
1066000000 0.2896155 -0.4513011 0.7103845 0.4513011 0.7103845 0.4513011 0.2896155 -0.4513011
1087000000 0.2814246 -0.4473533 0.7185754 0.4473533 0.7185754 0.4473533 0.2814246 -0.4473533
1108000000 0.2735208 -0.4433666 0.7264792 0.4433666 0.7264792 0.4433666 0.2735208 -0.4433666
1129000000 0.2658935 -0.4393498 0.7341065 0.4393498 0.7341065 0.4393498 0.2658935 -0.4393498
1150000000 0.2585323 -0.4353108 0.7414677 0.4353108 0.7414677 0.4353108 0.2585323 -0.4353108
1171000000 0.2514271 -0.4312568 0.7485729 0.4312568 0.7485729 0.4312568 0.2514271 -0.4312568
1192000000 0.2445682 -0.4271943 0.7554318 0.4271943 0.7554318 0.4271943 0.2445682 -0.4271943
1213000000 0.2379461 -0.4231292 0.7620539 0.4231292 0.7620539 0.4231292 0.2379461 -0.4231292
1234000000 0.2315517 -0.4190667 0.7684483 0.4190667 0.7684483 0.4190667 0.2315517 -0.4190667
1255000000 0.2253762 -0.4150117 0.7746238 0.4150117 0.7746238 0.4150117 0.2253762 -0.4150117
1276000000 0.2194111 -0.4109682 0.7805889 0.4109682 0.7805889 0.4109682 0.2194111 -0.4109682
1297000000 0.2136483 -0.4069403 0.7863517 0.4069403 0.7863517 0.4069403 0.2136483 -0.4069403
1318000000 0.2080798 -0.4029313 0.7919202 0.4029313 0.7919202 0.4029313 0.2080798 -0.4029313
1339000000 0.2026980 -0.3989443 0.7973020 0.3989443 0.7973020 0.3989443 0.2026980 -0.3989443
1360000000 0.1974958 -0.3949819 0.8025042 0.3949819 0.8025042 0.3949819 0.1974958 -0.3949819
1381000000 0.1924661 -0.3910465 0.8075339 0.3910465 0.8075339 0.3910465 0.1924661 -0.3910465
1402000000 0.1876022 -0.3871404 0.8123978 0.3871404 0.8123978 0.3871404 0.1876022 -0.3871404
1423000000 0.1828977 -0.3832652 0.8171023 0.3832652 0.8171023 0.3832652 0.1828977 -0.3832652
1444000000 0.1783463 -0.3794227 0.8216537 0.3794227 0.8216537 0.3794227 0.1783463 -0.3794227
1465000000 0.1739422 -0.3756143 0.8260578 0.3756143 0.8260578 0.3756143 0.1739422 -0.3756143
1486000000 0.1696797 -0.3718411 0.8303203 0.3718411 0.8303203 0.3718411 0.1696797 -0.3718411
1507000000 0.1655533 -0.3681042 0.8344467 0.3681042 0.8344467 0.3681042 0.1655533 -0.3681042
1528000000 0.1615579 -0.3644045 0.8384421 0.3644045 0.8384421 0.3644045 0.1615579 -0.3644045
1549000000 0.1576884 -0.3607428 0.8423116 0.3607428 0.8423116 0.3607428 0.1576884 -0.3607428
1570000000 0.1539400 -0.3571195 0.8460600 0.3571195 0.8460600 0.3571195 0.1539400 -0.3571195
1591000000 0.1503081 -0.3535352 0.8496919 0.3535352 0.8496919 0.3535352 0.1503081 -0.3535352
1612000000 0.1467884 -0.3499903 0.8532116 0.3499903 0.8532116 0.3499903 0.1467884 -0.3499903
1633000000 0.1433767 -0.3464851 0.8566233 0.3464851 0.8566233 0.3464851 0.1433767 -0.3464851
1654000000 0.1400688 -0.3430196 0.8599312 0.3430196 0.8599312 0.3430196 0.1400688 -0.3430196
1675000000 0.1368610 -0.3395941 0.8631390 0.3395941 0.8631390 0.3395941 0.1368610 -0.3395941
1696000000 0.1337495 -0.3362086 0.8662505 0.3362086 0.8662505 0.3362086 0.1337495 -0.3362086
1717000000 0.1307308 -0.3328630 0.8692692 0.3328630 0.8692692 0.3328630 0.1307308 -0.3328630
1738000000 0.1278015 -0.3295572 0.8721985 0.3295572 0.8721985 0.3295572 0.1278015 -0.3295572
1759000000 0.1249583 -0.3262912 0.8750417 0.3262912 0.8750417 0.3262912 0.1249583 -0.3262912
1780000000 0.1221981 -0.3230646 0.8778019 0.3230646 0.8778019 0.3230646 0.1221981 -0.3230646
1801000000 0.1195180 -0.3198774 0.8804820 0.3198774 0.8804820 0.3198774 0.1195180 -0.3198774
1822000000 0.1169150 -0.3167291 0.8830850 0.3167291 0.8830850 0.3167291 0.1169150 -0.3167291
1843000000 0.1143864 -0.3136196 0.8856136 0.3136196 0.8856136 0.3136196 0.1143864 -0.3136196
1864000000 0.1119296 -0.3105485 0.8880704 0.3105485 0.8880704 0.3105485 0.1119296 -0.3105485
1885000000 0.1095420 -0.3075155 0.8904580 0.3075155 0.8904580 0.3075155 0.1095420 -0.3075155
1906000000 0.1072212 -0.3045201 0.8927788 0.3045201 0.8927788 0.3045201 0.1072212 -0.3045201
1927000000 0.1049650 -0.3015620 0.8950350 0.3015620 0.8950350 0.3015620 0.1049650 -0.3015620
1948000000 0.1027709 -0.2986407 0.8972291 0.2986407 0.8972291 0.2986407 0.1027709 -0.2986407
1969000000 0.1006371 -0.2957559 0.8993629 0.2957559 0.8993629 0.2957559 0.1006371 -0.2957559
1990000000 0.0985612 -0.2929071 0.9014388 0.2929071 0.9014388 0.2929071 0.0985612 -0.2929071
2011000000 0.0965415 -0.2900939 0.9034585 0.2900939 0.9034585 0.2900939 0.0965415 -0.2900939
2032000000 0.0945760 -0.2873158 0.9054240 0.2873158 0.9054240 0.2873158 0.0945760 -0.2873158
2053000000 0.0926629 -0.2845723 0.9073371 0.2845723 0.9073371 0.2845723 0.0926629 -0.2845723
2074000000 0.0908004 -0.2818630 0.9091996 0.2818630 0.9091996 0.2818630 0.0908004 -0.2818630
2095000000 0.0889868 -0.2791874 0.9110132 0.2791874 0.9110132 0.2791874 0.0889868 -0.2791874
2116000000 0.0872206 -0.2765451 0.9127794 0.2765451 0.9127794 0.2765451 0.0872206 -0.2765451
2137000000 0.0855003 -0.2739355 0.9144997 0.2739355 0.9144997 0.2739355 0.0855003 -0.2739355
2158000000 0.0838242 -0.2713581 0.9161758 0.2713581 0.9161758 0.2713581 0.0838242 -0.2713581
2179000000 0.0821910 -0.2688126 0.9178090 0.2688126 0.9178090 0.2688126 0.0821910 -0.2688126
2200000000 0.0805993 -0.2662984 0.9194007 0.2662984 0.9194007 0.2662984 0.0805993 -0.2662984
2221000000 0.0790479 -0.2638151 0.9209521 0.2638151 0.9209521 0.2638151 0.0790479 -0.2638151
2242000000 0.0775353 -0.2613621 0.9224647 0.2613621 0.9224647 0.2613621 0.0775353 -0.2613621
2263000000 0.0760604 -0.2589391 0.9239396 0.2589391 0.9239396 0.2589391 0.0760604 -0.2589391
2284000000 0.0746220 -0.2565455 0.9253780 0.2565455 0.9253780 0.2565455 0.0746220 -0.2565455
2305000000 0.0732190 -0.2541808 0.9267810 0.2541808 0.9267810 0.2541808 0.0732190 -0.2541808
2326000000 0.0718502 -0.2518447 0.9281498 0.2518447 0.9281498 0.2518447 0.0718502 -0.2518447
2347000000 0.0705147 -0.2495367 0.9294853 0.2495367 0.9294853 0.2495367 0.0705147 -0.2495367
2368000000 0.0692114 -0.2472563 0.9307886 0.2472563 0.9307886 0.2472563 0.0692114 -0.2472563
2389000000 0.0679394 -0.2450031 0.9320606 0.2450031 0.9320606 0.2450031 0.0679394 -0.2450031
2410000000 0.0666976 -0.2427766 0.9333024 0.2427766 0.9333024 0.2427766 0.0666976 -0.2427766
2431000000 0.0654852 -0.2405764 0.9345148 0.2405764 0.9345148 0.2405764 0.0654852 -0.2405764
2452000000 0.0643014 -0.2384021 0.9356986 0.2384021 0.9356986 0.2384021 0.0643014 -0.2384021
2473000000 0.0631452 -0.2362533 0.9368548 0.2362533 0.9368548 0.2362533 0.0631452 -0.2362533
2494000000 0.0620158 -0.2341295 0.9379842 0.2341295 0.9379842 0.2341295 0.0620158 -0.2341295
2515000000 0.0609126 -0.2320303 0.9390874 0.2320303 0.9390874 0.2320303 0.0609126 -0.2320303
2536000000 0.0598347 -0.2299553 0.9401653 0.2299553 0.9401653 0.2299553 0.0598347 -0.2299553
2557000000 0.0587813 -0.2279042 0.9412187 0.2279042 0.9412187 0.2279042 0.0587813 -0.2279042
2578000000 0.0577519 -0.2258765 0.9422481 0.2258765 0.9422481 0.2258765 0.0577519 -0.2258765
2599000000 0.0567456 -0.2238719 0.9432544 0.2238719 0.9432544 0.2238719 0.0567456 -0.2238719
2620000000 0.0557619 -0.2218900 0.9442381 0.2218900 0.9442381 0.2218900 0.0557619 -0.2218900
2641000000 0.0548001 -0.2199303 0.9451999 0.2199303 0.9451999 0.2199303 0.0548001 -0.2199303
2662000000 0.0538597 -0.2179926 0.9461403 0.2179926 0.9461403 0.2179926 0.0538597 -0.2179926
2683000000 0.0529399 -0.2160764 0.9470601 0.2160764 0.9470601 0.2160764 0.0529399 -0.2160764
2704000000 0.0520403 -0.2141815 0.9479597 0.2141815 0.9479597 0.2141815 0.0520403 -0.2141815
2725000000 0.0511602 -0.2123074 0.9488398 0.2123074 0.9488398 0.2123074 0.0511602 -0.2123074
2746000000 0.0502992 -0.2104538 0.9497008 0.2104538 0.9497008 0.2104538 0.0502992 -0.2104538
2767000000 0.0494568 -0.2086205 0.9505432 0.2086205 0.9505432 0.2086205 0.0494568 -0.2086205
2788000000 0.0486324 -0.2068070 0.9513676 0.2068070 0.9513676 0.2068070 0.0486324 -0.2068070
2809000000 0.0478255 -0.2050130 0.9521745 0.2050130 0.9521745 0.2050130 0.0478255 -0.2050130
2830000000 0.0470358 -0.2032382 0.9529642 0.2032382 0.9529642 0.2032382 0.0470358 -0.2032382
2851000000 0.0462627 -0.2014824 0.9537373 0.2014824 0.9537373 0.2014824 0.0462627 -0.2014824
2872000000 0.0455057 -0.1997451 0.9544943 0.1997451 0.9544943 0.1997451 0.0455057 -0.1997451
2893000000 0.0447646 -0.1980261 0.9552354 0.1980261 0.9552354 0.1980261 0.0447646 -0.1980261
2914000000 0.0440388 -0.1963251 0.9559612 0.1963251 0.9559612 0.1963251 0.0440388 -0.1963251
2935000000 0.0433280 -0.1946418 0.9566720 0.1946418 0.9566720 0.1946418 0.0433280 -0.1946418
2956000000 0.0426317 -0.1929759 0.9573683 0.1929759 0.9573683 0.1929759 0.0426317 -0.1929759
2977000000 0.0419497 -0.1913272 0.9580503 0.1913272 0.9580503 0.1913272 0.0419497 -0.1913272
2998000000 0.0412815 -0.1896953 0.9587185 0.1896953 0.9587185 0.1896953 0.0412815 -0.1896953
3019000000 0.0406269 -0.1880800 0.9593731 0.1880800 0.9593731 0.1880800 0.0406269 -0.1880800
3040000000 0.0399854 -0.1864810 0.9600146 0.1864810 0.9600146 0.1864810 0.0399854 -0.1864810
3061000000 0.0393567 -0.1848981 0.9606433 0.1848981 0.9606433 0.1848981 0.0393567 -0.1848981
3082000000 0.0387406 -0.1833310 0.9612594 0.1833310 0.9612594 0.1833310 0.0387406 -0.1833310
3103000000 0.0381366 -0.1817794 0.9618634 0.1817794 0.9618634 0.1817794 0.0381366 -0.1817794
3124000000 0.0375446 -0.1802431 0.9624554 0.1802431 0.9624554 0.1802431 0.0375446 -0.1802431
3145000000 0.0369642 -0.1787220 0.9630358 0.1787220 0.9630358 0.1787220 0.0369642 -0.1787220
3166000000 0.0363951 -0.1772156 0.9636049 0.1772156 0.9636049 0.1772156 0.0363951 -0.1772156
3187000000 0.0358371 -0.1757238 0.9641629 0.1757238 0.9641629 0.1757238 0.0358371 -0.1757238
3208000000 0.0352899 -0.1742464 0.9647101 0.1742464 0.9647101 0.1742464 0.0352899 -0.1742464
3229000000 0.0347532 -0.1727832 0.9652468 0.1727832 0.9652468 0.1727832 0.0347532 -0.1727832
3250000000 0.0342268 -0.1713339 0.9657732 0.1713339 0.9657732 0.1713339 0.0342268 -0.1713339
3271000000 0.0337105 -0.1698983 0.9662895 0.1698983 0.9662895 0.1698983 0.0337105 -0.1698983
3292000000 0.0332040 -0.1684761 0.9667960 0.1684761 0.9667960 0.1684761 0.0332040 -0.1684761
3313000000 0.0327071 -0.1670673 0.9672929 0.1670673 0.9672929 0.1670673 0.0327071 -0.1670673
3334000000 0.0322195 -0.1656716 0.9677805 0.1656716 0.9677805 0.1656716 0.0322195 -0.1656716
3355000000 0.0317411 -0.1642887 0.9682589 0.1642887 0.9682589 0.1642887 0.0317411 -0.1642887
3376000000 0.0312716 -0.1629185 0.9687284 0.1629185 0.9687284 0.1629185 0.0312716 -0.1629185
3397000000 0.0308109 -0.1615608 0.9691891 0.1615608 0.9691891 0.1615608 0.0308109 -0.1615608
3418000000 0.0303587 -0.1602155 0.9696413 0.1602155 0.9696413 0.1602155 0.0303587 -0.1602155
3439000000 0.0299149 -0.1588822 0.9700851 0.1588822 0.9700851 0.1588822 0.0299149 -0.1588822
3460000000 0.0294792 -0.1575609 0.9705208 0.1575609 0.9705208 0.1575609 0.0294792 -0.1575609
3481000000 0.0290514 -0.1562513 0.9709486 0.1562513 0.9709486 0.1562513 0.0290514 -0.1562513
3502000000 0.0286315 -0.1549534 0.9713685 0.1549534 0.9713685 0.1549534 0.0286315 -0.1549534
3523000000 0.0282192 -0.1536668 0.9717808 0.1536668 0.9717808 0.1536668 0.0282192 -0.1536668
3544000000 0.0278144 -0.1523915 0.9721856 0.1523915 0.9721856 0.1523915 0.0278144 -0.1523915
3565000000 0.0274169 -0.1511272 0.9725831 0.1511272 0.9725831 0.1511272 0.0274169 -0.1511272
3586000000 0.0270265 -0.1498739 0.9729735 0.1498739 0.9729735 0.1498739 0.0270265 -0.1498739
3607000000 0.0266431 -0.1486313 0.9733569 0.1486313 0.9733569 0.1486313 0.0266431 -0.1486313
3628000000 0.0262665 -0.1473994 0.9737335 0.1473994 0.9737335 0.1473994 0.0262665 -0.1473994
3649000000 0.0258966 -0.1461778 0.9741034 0.1461778 0.9741034 0.1461778 0.0258966 -0.1461778
3670000000 0.0255333 -0.1449666 0.9744667 0.1449666 0.9744667 0.1449666 0.0255333 -0.1449666
3691000000 0.0251763 -0.1437654 0.9748237 0.1437654 0.9748237 0.1437654 0.0251763 -0.1437654
3712000000 0.0248257 -0.1425743 0.9751743 0.1425743 0.9751743 0.1425743 0.0248257 -0.1425743
3733000000 0.0244812 -0.1413931 0.9755188 0.1413931 0.9755188 0.1413931 0.0244812 -0.1413931
3754000000 0.0241427 -0.1402215 0.9758573 0.1402215 0.9758573 0.1402215 0.0241427 -0.1402215
3775000000 0.0238101 -0.1390595 0.9761899 0.1390595 0.9761899 0.1390595 0.0238101 -0.1390595
3796000000 0.0234832 -0.1379070 0.9765168 0.1379070 0.9765168 0.1379070 0.0234832 -0.1379070
3817000000 0.0231620 -0.1367637 0.9768380 0.1367637 0.9768380 0.1367637 0.0231620 -0.1367637
3838000000 0.0228464 -0.1356297 0.9771536 0.1356297 0.9771536 0.1356297 0.0228464 -0.1356297
3859000000 0.0225362 -0.1345046 0.9774638 0.1345046 0.9774638 0.1345046 0.0225362 -0.1345046
3880000000 0.0222312 -0.1333885 0.9777688 0.1333885 0.9777688 0.1333885 0.0222312 -0.1333885
3901000000 0.0219315 -0.1322812 0.9780685 0.1322812 0.9780685 0.1322812 0.0219315 -0.1322812
3922000000 0.0216369 -0.1311825 0.9783631 0.1311825 0.9783631 0.1311825 0.0216369 -0.1311825
3943000000 0.0213473 -0.1300924 0.9786527 0.1300924 0.9786527 0.1300924 0.0213473 -0.1300924
3964000000 0.0210626 -0.1290108 0.9789374 0.1290108 0.9789374 0.1290108 0.0210626 -0.1290108
3985000000 0.0207827 -0.1279374 0.9792173 0.1279374 0.9792173 0.1279374 0.0207827 -0.1279374
4006000000 0.0205075 -0.1268723 0.9794925 0.1268723 0.9794925 0.1268723 0.0205075 -0.1268723
4027000000 0.0202370 -0.1258152 0.9797630 0.1258152 0.9797630 0.1258152 0.0202370 -0.1258152
4048000000 0.0199709 -0.1247661 0.9800291 0.1247661 0.9800291 0.1247661 0.0199709 -0.1247661
4069000000 0.0197093 -0.1237249 0.9802907 0.1237249 0.9802907 0.1237249 0.0197093 -0.1237249
4090000000 0.0194521 -0.1226915 0.9805479 0.1226915 0.9805479 0.1226915 0.0194521 -0.1226915
4111000000 0.0191992 -0.1216657 0.9808008 0.1216657 0.9808008 0.1216657 0.0191992 -0.1216657
4132000000 0.0189504 -0.1206475 0.9810496 0.1206475 0.9810496 0.1206475 0.0189504 -0.1206475
4153000000 0.0187057 -0.1196367 0.9812943 0.1196367 0.9812943 0.1196367 0.0187057 -0.1196367
4174000000 0.0184651 -0.1186333 0.9815349 0.1186333 0.9815349 0.1186333 0.0184651 -0.1186333
4195000000 0.0182285 -0.1176372 0.9817715 0.1176372 0.9817715 0.1176372 0.0182285 -0.1176372
4216000000 0.0179957 -0.1166482 0.9820043 0.1166482 0.9820043 0.1166482 0.0179957 -0.1166482
4237000000 0.0177668 -0.1156663 0.9822332 0.1156663 0.9822332 0.1156663 0.0177668 -0.1156663
4258000000 0.0175416 -0.1146914 0.9824584 0.1146914 0.9824584 0.1146914 0.0175416 -0.1146914
4279000000 0.0173200 -0.1137234 0.9826800 0.1137234 0.9826800 0.1137234 0.0173200 -0.1137234
4300000000 0.0171021 -0.1127622 0.9828979 0.1127622 0.9828979 0.1127622 0.0171021 -0.1127622
4321000000 0.0168877 -0.1118077 0.9831123 0.1118077 0.9831123 0.1118077 0.0168877 -0.1118077
4342000000 0.0166768 -0.1108598 0.9833232 0.1108598 0.9833232 0.1108598 0.0166768 -0.1108598
4363000000 0.0164693 -0.1099184 0.9835307 0.1099184 0.9835307 0.1099184 0.0164693 -0.1099184
4384000000 0.0162652 -0.1089836 0.9837348 0.1089836 0.9837348 0.1089836 0.0162652 -0.1089836
4405000000 0.0160644 -0.1080551 0.9839356 0.1080551 0.9839356 0.1080551 0.0160644 -0.1080551
4426000000 0.0158668 -0.1071328 0.9841332 0.1071328 0.9841332 0.1071328 0.0158668 -0.1071328
4447000000 0.0156723 -0.1062168 0.9843277 0.1062168 0.9843277 0.1062168 0.0156723 -0.1062168
4468000000 0.0154810 -0.1053070 0.9845190 0.1053070 0.9845190 0.1053070 0.0154810 -0.1053070
4489000000 0.0152928 -0.1044032 0.9847072 0.1044032 0.9847072 0.1044032 0.0152928 -0.1044032
4510000000 0.0151076 -0.1035053 0.9848924 0.1035053 0.9848924 0.1035053 0.0151076 -0.1035053
