!Murata Part Number: GRM0225C0J221GA02
!These Parameters are Measured in Series Mode Connection
!Data Generated on Mar 30, 2021
!       o--ll--o
!Port1            Port2
!       o------o
!Operation Temp=25[degC], DC Bias Voltage=0[V]
!Freq. Start=100[MHz] Stop=9[GHz] 401[Steps]
# Hz S RI R 50
!Freq.(Hz) S11(Real) S11(Imag) S21(Real) S21(Imag) S12(Real) S12(Imag) S22(Real) S22(Imag)
100000000 0.0058486 -0.0707414 0.9941514 0.0707414 0.9941514 0.0707414 0.0058486 -0.0707414
121000000 0.0042103 -0.0581299 0.9957897 0.0581299 0.9957897 0.0581299 0.0042103 -0.0581299
142000000 0.0032426 -0.0491444 0.9967574 0.0491444 0.9967574 0.0491444 0.0032426 -0.0491444
163000000 0.0026248 -0.0423977 0.9973752 0.0423977 0.9973752 0.0423977 0.0026248 -0.0423977
184000000 0.0022075 -0.0371292 0.9977925 0.0371292 0.9977925 0.0371292 0.0022075 -0.0371292
205000000 0.0019133 -0.0328872 0.9980867 0.0328872 0.9980867 0.0328872 0.0019133 -0.0328872
226000000 0.0016990 -0.0293870 0.9983010 0.0293870 0.9983010 0.0293870 0.0016990 -0.0293870
247000000 0.0015387 -0.0264401 0.9984613 0.0264401 0.9984613 0.0264401 0.0015387 -0.0264401
268000000 0.0014164 -0.0239169 0.9985836 0.0239169 0.9985836 0.0239169 0.0014164 -0.0239169
289000000 0.0013217 -0.0217253 0.9986783 0.0217253 0.9986783 0.0217253 0.0013217 -0.0217253
310000000 0.0012475 -0.0197981 0.9987525 0.0197981 0.9987525 0.0197981 0.0012475 -0.0197981
331000000 0.0011888 -0.0180850 0.9988112 0.0180850 0.9988112 0.0180850 0.0011888 -0.0180850
352000000 0.0011423 -0.0165477 0.9988577 0.0165477 0.9988577 0.0165477 0.0011423 -0.0165477
373000000 0.0011054 -0.0151567 0.9988946 0.0151567 0.9988946 0.0151567 0.0011054 -0.0151567
394000000 0.0010762 -0.0138885 0.9989238 0.0138885 0.9989238 0.0138885 0.0010762 -0.0138885
415000000 0.0010533 -0.0127245 0.9989467 0.0127245 0.9989467 0.0127245 0.0010533 -0.0127245
436000000 0.0010357 -0.0116498 0.9989643 0.0116498 0.9989643 0.0116498 0.0010357 -0.0116498
457000000 0.0010224 -0.0106519 0.9989776 0.0106519 0.9989776 0.0106519 0.0010224 -0.0106519
478000000 0.0010130 -0.0097207 0.9989870 0.0097207 0.9989870 0.0097207 0.0010130 -0.0097207
499000000 0.0010067 -0.0088479 0.9989933 0.0088479 0.9989933 0.0088479 0.0010067 -0.0088479
520000000 0.0010033 -0.0080263 0.9989967 0.0080263 0.9989967 0.0080263 0.0010033 -0.0080263
541000000 0.0010024 -0.0072500 0.9989976 0.0072500 0.9989976 0.0072500 0.0010024 -0.0072500
562000000 0.0010038 -0.0065139 0.9989962 0.0065139 0.9989962 0.0065139 0.0010038 -0.0065139
583000000 0.0010071 -0.0058136 0.9989929 0.0058136 0.9989929 0.0058136 0.0010071 -0.0058136
604000000 0.0010122 -0.0051455 0.9989878 0.0051455 0.9989878 0.0051455 0.0010122 -0.0051455
625000000 0.0010191 -0.0045062 0.9989809 0.0045062 0.9989809 0.0045062 0.0010191 -0.0045062
646000000 0.0010274 -0.0038930 0.9989726 0.0038930 0.9989726 0.0038930 0.0010274 -0.0038930
667000000 0.0010373 -0.0033033 0.9989627 0.0033033 0.9989627 0.0033033 0.0010373 -0.0033033
688000000 0.0010485 -0.0027350 0.9989515 0.0027350 0.9989515 0.0027350 0.0010485 -0.0027350
709000000 0.0010610 -0.0021863 0.9989390 0.0021863 0.9989390 0.0021863 0.0010610 -0.0021863
730000000 0.0010747 -0.0016553 0.9989253 0.0016553 0.9989253 0.0016553 0.0010747 -0.0016553
751000000 0.0010896 -0.0011407 0.9989104 0.0011407 0.9989104 0.0011407 0.0010896 -0.0011407
772000000 0.0011057 -0.0006410 0.9988943 0.0006410 0.9988943 0.0006410 0.0011057 -0.0006410
793000000 0.0011230 -0.0001551 0.9988770 0.0001551 0.9988770 0.0001551 0.0011230 -0.0001551
814000000 0.0011413 0.0003181 0.9988587 -0.0003181 0.9988587 -0.0003181 0.0011413 0.0003181
835000000 0.0011607 0.0007796 0.9988393 -0.0007796 0.9988393 -0.0007796 0.0011607 0.0007796
856000000 0.0011812 0.0012302 0.9988188 -0.0012302 0.9988188 -0.0012302 0.0011812 0.0012302
877000000 0.0012027 0.0016707 0.9987973 -0.0016707 0.9987973 -0.0016707 0.0012027 0.0016707
898000000 0.0012253 0.0021018 0.9987747 -0.0021018 0.9987747 -0.0021018 0.0012253 0.0021018
919000000 0.0012490 0.0025242 0.9987510 -0.0025242 0.9987510 -0.0025242 0.0012490 0.0025242
940000000 0.0012737 0.0029385 0.9987263 -0.0029385 0.9987263 -0.0029385 0.0012737 0.0029385
961000000 0.0012995 0.0033452 0.9987005 -0.0033452 0.9987005 -0.0033452 0.0012995 0.0033452
982000000 0.0013264 0.0037448 0.9986736 -0.0037448 0.9986736 -0.0037448 0.0013264 0.0037448
1003000000 0.0013544 0.0041376 0.9986456 -0.0041376 0.9986456 -0.0041376 0.0013544 0.0041376
1024000000 0.0013835 0.0045243 0.9986165 -0.0045243 0.9986165 -0.0045243 0.0013835 0.0045243
1045000000 0.0014137 0.0049050 0.9985863 -0.0049050 0.9985863 -0.0049050 0.0014137 0.0049050
1066000000 0.0014451 0.0052802 0.9985549 -0.0052802 0.9985549 -0.0052802 0.0014451 0.0052802
1087000000 0.0014777 0.0056501 0.9985223 -0.0056501 0.9985223 -0.0056501 0.0014777 0.0056501
1108000000 0.0015114 0.0060151 0.9984886 -0.0060151 0.9984886 -0.0060151 0.0015114 0.0060151
1129000000 0.0015464 0.0063754 0.9984536 -0.0063754 0.9984536 -0.0063754 0.0015464 0.0063754
1150000000 0.0015827 0.0067313 0.9984173 -0.0067313 0.9984173 -0.0067313 0.0015827 0.0067313
1171000000 0.0016202 0.0070829 0.9983798 -0.0070829 0.9983798 -0.0070829 0.0016202 0.0070829
1192000000 0.0016591 0.0074306 0.9983409 -0.0074306 0.9983409 -0.0074306 0.0016591 0.0074306
1213000000 0.0016993 0.0077743 0.9983007 -0.0077743 0.9983007 -0.0077743 0.0016993 0.0077743
1234000000 0.0017410 0.0081144 0.9982590 -0.0081144 0.9982590 -0.0081144 0.0017410 0.0081144
1255000000 0.0017841 0.0084509 0.9982159 -0.0084509 0.9982159 -0.0084509 0.0017841 0.0084509
1276000000 0.0018287 0.0087841 0.9981713 -0.0087841 0.9981713 -0.0087841 0.0018287 0.0087841
1297000000 0.0018748 0.0091139 0.9981252 -0.0091139 0.9981252 -0.0091139 0.0018748 0.0091139
1318000000 0.0019225 0.0094405 0.9980775 -0.0094405 0.9980775 -0.0094405 0.0019225 0.0094405
1339000000 0.0019719 0.0097641 0.9980281 -0.0097641 0.9980281 -0.0097641 0.0019719 0.0097641
1360000000 0.0020229 0.0100846 0.9979771 -0.0100846 0.9979771 -0.0100846 0.0020229 0.0100846
1381000000 0.0020756 0.0104021 0.9979244 -0.0104021 0.9979244 -0.0104021 0.0020756 0.0104021
1402000000 0.0021301 0.0107166 0.9978699 -0.0107166 0.9978699 -0.0107166 0.0021301 0.0107166
1423000000 0.0021865 0.0110283 0.9978135 -0.0110283 0.9978135 -0.0110283 0.0021865 0.0110283
1444000000 0.0022447 0.0113370 0.9977553 -0.0113370 0.9977553 -0.0113370 0.0022447 0.0113370
1465000000 0.0023047 0.0116429 0.9976953 -0.0116429 0.9976953 -0.0116429 0.0023047 0.0116429
1486000000 0.0023668 0.0119458 0.9976332 -0.0119458 0.9976332 -0.0119458 0.0023668 0.0119458
1507000000 0.0024307 0.0122457 0.9975693 -0.0122457 0.9975693 -0.0122457 0.0024307 0.0122457
1528000000 0.0024967 0.0125427 0.9975033 -0.0125427 0.9975033 -0.0125427 0.0024967 0.0125427
1549000000 0.0025647 0.0128365 0.9974353 -0.0128365 0.9974353 -0.0128365 0.0025647 0.0128365
1570000000 0.0026346 0.0131273 0.9973654 -0.0131273 0.9973654 -0.0131273 0.0026346 0.0131273
1591000000 0.0027066 0.0134148 0.9972934 -0.0134148 0.9972934 -0.0134148 0.0027066 0.0134148
1612000000 0.0027805 0.0136989 0.9972195 -0.0136989 0.9972195 -0.0136989 0.0027805 0.0136989
1633000000 0.0028563 0.0139797 0.9971437 -0.0139797 0.9971437 -0.0139797 0.0028563 0.0139797
1654000000 0.0029340 0.0142569 0.9970660 -0.0142569 0.9970660 -0.0142569 0.0029340 0.0142569
1675000000 0.0030134 0.0145304 0.9969866 -0.0145304 0.9969866 -0.0145304 0.0030134 0.0145304
1696000000 0.0030945 0.0148001 0.9969055 -0.0148001 0.9969055 -0.0148001 0.0030945 0.0148001
1717000000 0.0031772 0.0150659 0.9968228 -0.0150659 0.9968228 -0.0150659 0.0031772 0.0150659
1738000000 0.0032612 0.0153277 0.9967388 -0.0153277 0.9967388 -0.0153277 0.0032612 0.0153277
1759000000 0.0033464 0.0155854 0.9966536 -0.0155854 0.9966536 -0.0155854 0.0033464 0.0155854
1780000000 0.0034326 0.0158388 0.9965674 -0.0158388 0.9965674 -0.0158388 0.0034326 0.0158388
1801000000 0.0035195 0.0160880 0.9964805 -0.0160880 0.9964805 -0.0160880 0.0035195 0.0160880
1822000000 0.0036070 0.0163329 0.9963930 -0.0163329 0.9963930 -0.0163329 0.0036070 0.0163329
1843000000 0.0036948 0.0165734 0.9963052 -0.0165734 0.9963052 -0.0165734 0.0036948 0.0165734
1864000000 0.0037825 0.0168096 0.9962175 -0.0168096 0.9962175 -0.0168096 0.0037825 0.0168096
1885000000 0.0038699 0.0170416 0.9961301 -0.0170416 0.9961301 -0.0170416 0.0038699 0.0170416
1906000000 0.0039568 0.0172695 0.9960432 -0.0172695 0.9960432 -0.0172695 0.0039568 0.0172695
1927000000 0.0040429 0.0174934 0.9959571 -0.0174934 0.9959571 -0.0174934 0.0040429 0.0174934
1948000000 0.0041279 0.0177135 0.9958721 -0.0177135 0.9958721 -0.0177135 0.0041279 0.0177135
1969000000 0.0042117 0.0179299 0.9957883 -0.0179299 0.9957883 -0.0179299 0.0042117 0.0179299
1990000000 0.0042941 0.0181430 0.9957059 -0.0181430 0.9957059 -0.0181430 0.0042941 0.0181430
2011000000 0.0043750 0.0183529 0.9956250 -0.0183529 0.9956250 -0.0183529 0.0043750 0.0183529
2032000000 0.0044543 0.0185599 0.9955457 -0.0185599 0.9955457 -0.0185599 0.0044543 0.0185599
2053000000 0.0045318 0.0187643 0.9954682 -0.0187643 0.9954682 -0.0187643 0.0045318 0.0187643
2074000000 0.0046078 0.0189663 0.9953922 -0.0189663 0.9953922 -0.0189663 0.0046078 0.0189663
2095000000 0.0046821 0.0191661 0.9953179 -0.0191661 0.9953179 -0.0191661 0.0046821 0.0191661
2116000000 0.0047548 0.0193639 0.9952452 -0.0193639 0.9952452 -0.0193639 0.0047548 0.0193639
2137000000 0.0048260 0.0195600 0.9951740 -0.0195600 0.9951740 -0.0195600 0.0048260 0.0195600
2158000000 0.0048959 0.0197543 0.9951041 -0.0197543 0.9951041 -0.0197543 0.0048959 0.0197543
2179000000 0.0049646 0.0199471 0.9950354 -0.0199471 0.9950354 -0.0199471 0.0049646 0.0199471
2200000000 0.0050321 0.0201384 0.9949679 -0.0201384 0.9949679 -0.0201384 0.0050321 0.0201384
2221000000 0.0050986 0.0203282 0.9949014 -0.0203282 0.9949014 -0.0203282 0.0050986 0.0203282
2242000000 0.0051642 0.0205166 0.9948358 -0.0205166 0.9948358 -0.0205166 0.0051642 0.0205166
2263000000 0.0052290 0.0207034 0.9947710 -0.0207034 0.9947710 -0.0207034 0.0052290 0.0207034
2284000000 0.0052930 0.0208886 0.9947070 -0.0208886 0.9947070 -0.0208886 0.0052930 0.0208886
2305000000 0.0053564 0.0210723 0.9946436 -0.0210723 0.9946436 -0.0210723 0.0053564 0.0210723
2326000000 0.0054191 0.0212542 0.9945809 -0.0212542 0.9945809 -0.0212542 0.0054191 0.0212542
2347000000 0.0054811 0.0214343 0.9945189 -0.0214343 0.9945189 -0.0214343 0.0054811 0.0214343
2368000000 0.0055423 0.0216125 0.9944577 -0.0216125 0.9944577 -0.0216125 0.0055423 0.0216125
2389000000 0.0056027 0.0217887 0.9943973 -0.0217887 0.9943973 -0.0217887 0.0056027 0.0217887
2410000000 0.0056622 0.0219629 0.9943378 -0.0219629 0.9943378 -0.0219629 0.0056622 0.0219629
2431000000 0.0057208 0.0221350 0.9942792 -0.0221350 0.9942792 -0.0221350 0.0057208 0.0221350
2452000000 0.0057781 0.0223049 0.9942219 -0.0223049 0.9942219 -0.0223049 0.0057781 0.0223049
2473000000 0.0058342 0.0224726 0.9941658 -0.0224726 0.9941658 -0.0224726 0.0058342 0.0224726
2494000000 0.0058888 0.0226382 0.9941112 -0.0226382 0.9941112 -0.0226382 0.0058888 0.0226382
2515000000 0.0059418 0.0228016 0.9940582 -0.0228016 0.9940582 -0.0228016 0.0059418 0.0228016
2536000000 0.0059930 0.0229629 0.9940070 -0.0229629 0.9940070 -0.0229629 0.0059930 0.0229629
2557000000 0.0060423 0.0231222 0.9939577 -0.0231222 0.9939577 -0.0231222 0.0060423 0.0231222
2578000000 0.0060894 0.0232796 0.9939106 -0.0232796 0.9939106 -0.0232796 0.0060894 0.0232796
2599000000 0.0061341 0.0234351 0.9938659 -0.0234351 0.9938659 -0.0234351 0.0061341 0.0234351
2620000000 0.0061765 0.0235889 0.9938235 -0.0235889 0.9938235 -0.0235889 0.0061765 0.0235889
2641000000 0.0062162 0.0237413 0.9937838 -0.0237413 0.9937838 -0.0237413 0.0062162 0.0237413
2662000000 0.0062532 0.0238923 0.9937468 -0.0238923 0.9937468 -0.0238923 0.0062532 0.0238923
2683000000 0.0062874 0.0240422 0.9937126 -0.0240422 0.9937126 -0.0240422 0.0062874 0.0240422
2704000000 0.0063187 0.0241911 0.9936813 -0.0241911 0.9936813 -0.0241911 0.0063187 0.0241911
2725000000 0.0063470 0.0243393 0.9936530 -0.0243393 0.9936530 -0.0243393 0.0063470 0.0243393
2746000000 0.0063724 0.0244871 0.9936276 -0.0244871 0.9936276 -0.0244871 0.0063724 0.0244871
2767000000 0.0063947 0.0246346 0.9936053 -0.0246346 0.9936053 -0.0246346 0.0063947 0.0246346
2788000000 0.0064141 0.0247821 0.9935859 -0.0247821 0.9935859 -0.0247821 0.0064141 0.0247821
2809000000 0.0064304 0.0249297 0.9935696 -0.0249297 0.9935696 -0.0249297 0.0064304 0.0249297
2830000000 0.0064439 0.0250778 0.9935561 -0.0250778 0.9935561 -0.0250778 0.0064439 0.0250778
2851000000 0.0064545 0.0252265 0.9935455 -0.0252265 0.9935455 -0.0252265 0.0064545 0.0252265
2872000000 0.0064624 0.0253760 0.9935376 -0.0253760 0.9935376 -0.0253760 0.0064624 0.0253760
2893000000 0.0064677 0.0255265 0.9935323 -0.0255265 0.9935323 -0.0255265 0.0064677 0.0255265
2914000000 0.0064704 0.0256782 0.9935296 -0.0256782 0.9935296 -0.0256782 0.0064704 0.0256782
2935000000 0.0064708 0.0258312 0.9935292 -0.0258312 0.9935292 -0.0258312 0.0064708 0.0258312
2956000000 0.0064690 0.0259857 0.9935310 -0.0259857 0.9935310 -0.0259857 0.0064690 0.0259857
2977000000 0.0064651 0.0261418 0.9935349 -0.0261418 0.9935349 -0.0261418 0.0064651 0.0261418
2998000000 0.0064593 0.0262996 0.9935407 -0.0262996 0.9935407 -0.0262996 0.0064593 0.0262996
3019000000 0.0064518 0.0264592 0.9935482 -0.0264592 0.9935482 -0.0264592 0.0064518 0.0264592
3040000000 0.0064428 0.0266206 0.9935572 -0.0266206 0.9935572 -0.0266206 0.0064428 0.0266206
3061000000 0.0064323 0.0267840 0.9935677 -0.0267840 0.9935677 -0.0267840 0.0064323 0.0267840
3082000000 0.0064207 0.0269493 0.9935793 -0.0269493 0.9935793 -0.0269493 0.0064207 0.0269493
3103000000 0.0064080 0.0271166 0.9935920 -0.0271166 0.9935920 -0.0271166 0.0064080 0.0271166
3124000000 0.0063944 0.0272858 0.9936056 -0.0272858 0.9936056 -0.0272858 0.0063944 0.0272858
3145000000 0.0063800 0.0274570 0.9936200 -0.0274570 0.9936200 -0.0274570 0.0063800 0.0274570
3166000000 0.0063651 0.0276302 0.9936349 -0.0276302 0.9936349 -0.0276302 0.0063651 0.0276302
3187000000 0.0063497 0.0278054 0.9936503 -0.0278054 0.9936503 -0.0278054 0.0063497 0.0278054
3208000000 0.0063341 0.0279825 0.9936659 -0.0279825 0.9936659 -0.0279825 0.0063341 0.0279825
3229000000 0.0063182 0.0281614 0.9936818 -0.0281614 0.9936818 -0.0281614 0.0063182 0.0281614
3250000000 0.0063022 0.0283421 0.9936978 -0.0283421 0.9936978 -0.0283421 0.0063022 0.0283421
3271000000 0.0062864 0.0285246 0.9937136 -0.0285246 0.9937136 -0.0285246 0.0062864 0.0285246
3292000000 0.0062706 0.0287088 0.9937294 -0.0287088 0.9937294 -0.0287088 0.0062706 0.0287088
3313000000 0.0062551 0.0288947 0.9937449 -0.0288947 0.9937449 -0.0288947 0.0062551 0.0288947
3334000000 0.0062399 0.0290821 0.9937601 -0.0290821 0.9937601 -0.0290821 0.0062399 0.0290821
3355000000 0.0062251 0.0292710 0.9937749 -0.0292710 0.9937749 -0.0292710 0.0062251 0.0292710
3376000000 0.0062107 0.0294614 0.9937893 -0.0294614 0.9937893 -0.0294614 0.0062107 0.0294614
3397000000 0.0061969 0.0296531 0.9938031 -0.0296531 0.9938031 -0.0296531 0.0061969 0.0296531
3418000000 0.0061836 0.0298461 0.9938164 -0.0298461 0.9938164 -0.0298461 0.0061836 0.0298461
3439000000 0.0061710 0.0300404 0.9938290 -0.0300404 0.9938290 -0.0300404 0.0061710 0.0300404
3460000000 0.0061590 0.0302358 0.9938410 -0.0302358 0.9938410 -0.0302358 0.0061590 0.0302358
3481000000 0.0061478 0.0304323 0.9938522 -0.0304323 0.9938522 -0.0304323 0.0061478 0.0304323
3502000000 0.0061372 0.0306298 0.9938628 -0.0306298 0.9938628 -0.0306298 0.0061372 0.0306298
3523000000 0.0061274 0.0308282 0.9938726 -0.0308282 0.9938726 -0.0308282 0.0061274 0.0308282
3544000000 0.0061184 0.0310275 0.9938816 -0.0310275 0.9938816 -0.0310275 0.0061184 0.0310275
3565000000 0.0061102 0.0312277 0.9938898 -0.0312277 0.9938898 -0.0312277 0.0061102 0.0312277
3586000000 0.0061028 0.0314286 0.9938972 -0.0314286 0.9938972 -0.0314286 0.0061028 0.0314286
3607000000 0.0060962 0.0316303 0.9939038 -0.0316303 0.9939038 -0.0316303 0.0060962 0.0316303
3628000000 0.0060904 0.0318325 0.9939096 -0.0318325 0.9939096 -0.0318325 0.0060904 0.0318325
3649000000 0.0060855 0.0320354 0.9939145 -0.0320354 0.9939145 -0.0320354 0.0060855 0.0320354
3670000000 0.0060813 0.0322389 0.9939187 -0.0322389 0.9939187 -0.0322389 0.0060813 0.0322389
3691000000 0.0060780 0.0324428 0.9939220 -0.0324428 0.9939220 -0.0324428 0.0060780 0.0324428
3712000000 0.0060755 0.0326472 0.9939245 -0.0326472 0.9939245 -0.0326472 0.0060755 0.0326472
3733000000 0.0060738 0.0328519 0.9939262 -0.0328519 0.9939262 -0.0328519 0.0060738 0.0328519
3754000000 0.0060730 0.0330571 0.9939270 -0.0330571 0.9939270 -0.0330571 0.0060730 0.0330571
3775000000 0.0060729 0.0332626 0.9939271 -0.0332626 0.9939271 -0.0332626 0.0060729 0.0332626
3796000000 0.0060736 0.0334684 0.9939264 -0.0334684 0.9939264 -0.0334684 0.0060736 0.0334684
3817000000 0.0060750 0.0336744 0.9939250 -0.0336744 0.9939250 -0.0336744 0.0060750 0.0336744
3838000000 0.0060773 0.0338806 0.9939227 -0.0338806 0.9939227 -0.0338806 0.0060773 0.0338806
3859000000 0.0060803 0.0340871 0.9939197 -0.0340871 0.9939197 -0.0340871 0.0060803 0.0340871
3880000000 0.0060840 0.0342937 0.9939160 -0.0342937 0.9939160 -0.0342937 0.0060840 0.0342937
3901000000 0.0060884 0.0345004 0.9939116 -0.0345004 0.9939116 -0.0345004 0.0060884 0.0345004
3922000000 0.0060936 0.0347073 0.9939064 -0.0347073 0.9939064 -0.0347073 0.0060936 0.0347073
3943000000 0.0060994 0.0349142 0.9939006 -0.0349142 0.9939006 -0.0349142 0.0060994 0.0349142
3964000000 0.0061060 0.0351212 0.9938940 -0.0351212 0.9938940 -0.0351212 0.0061060 0.0351212
3985000000 0.0061132 0.0353282 0.9938868 -0.0353282 0.9938868 -0.0353282 0.0061132 0.0353282
4006000000 0.0061210 0.0355353 0.9938790 -0.0355353 0.9938790 -0.0355353 0.0061210 0.0355353
4027000000 0.0061295 0.0357423 0.9938705 -0.0357423 0.9938705 -0.0357423 0.0061295 0.0357423
4048000000 0.0061386 0.0359493 0.9938614 -0.0359493 0.9938614 -0.0359493 0.0061386 0.0359493
4069000000 0.0061483 0.0361563 0.9938517 -0.0361563 0.9938517 -0.0361563 0.0061483 0.0361563
4090000000 0.0061586 0.0363633 0.9938414 -0.0363633 0.9938414 -0.0363633 0.0061586 0.0363633
4111000000 0.0061695 0.0365702 0.9938305 -0.0365702 0.9938305 -0.0365702 0.0061695 0.0365702
4132000000 0.0061810 0.0367770 0.9938190 -0.0367770 0.9938190 -0.0367770 0.0061810 0.0367770
4153000000 0.0061930 0.0369837 0.9938070 -0.0369837 0.9938070 -0.0369837 0.0061930 0.0369837
4174000000 0.0062055 0.0371903 0.9937945 -0.0371903 0.9937945 -0.0371903 0.0062055 0.0371903
4195000000 0.0062186 0.0373969 0.9937814 -0.0373969 0.9937814 -0.0373969 0.0062186 0.0373969
4216000000 0.0062321 0.0376033 0.9937679 -0.0376033 0.9937679 -0.0376033 0.0062321 0.0376033
4237000000 0.0062462 0.0378095 0.9937538 -0.0378095 0.9937538 -0.0378095 0.0062462 0.0378095
4258000000 0.0062608 0.0380157 0.9937392 -0.0380157 0.9937392 -0.0380157 0.0062608 0.0380157
4279000000 0.0062758 0.0382217 0.9937242 -0.0382217 0.9937242 -0.0382217 0.0062758 0.0382217
4300000000 0.0062912 0.0384275 0.9937088 -0.0384275 0.9937088 -0.0384275 0.0062912 0.0384275
4321000000 0.0063072 0.0386332 0.9936928 -0.0386332 0.9936928 -0.0386332 0.0063072 0.0386332
4342000000 0.0063235 0.0388387 0.9936765 -0.0388387 0.9936765 -0.0388387 0.0063235 0.0388387
4363000000 0.0063403 0.0390441 0.9936597 -0.0390441 0.9936597 -0.0390441 0.0063403 0.0390441
4384000000 0.0063575 0.0392492 0.9936425 -0.0392492 0.9936425 -0.0392492 0.0063575 0.0392492
4405000000 0.0063751 0.0394542 0.9936249 -0.0394542 0.9936249 -0.0394542 0.0063751 0.0394542
4426000000 0.0063930 0.0396591 0.9936070 -0.0396591 0.9936070 -0.0396591 0.0063930 0.0396591
4447000000 0.0064114 0.0398637 0.9935886 -0.0398637 0.9935886 -0.0398637 0.0064114 0.0398637
4468000000 0.0064301 0.0400682 0.9935699 -0.0400682 0.9935699 -0.0400682 0.0064301 0.0400682
4489000000 0.0064492 0.0402724 0.9935508 -0.0402724 0.9935508 -0.0402724 0.0064492 0.0402724
4510000000 0.0064686 0.0404765 0.9935314 -0.0404765 0.9935314 -0.0404765 0.0064686 0.0404765
