!Murata Part Number: GRM0225C1C130JA03
!These Parameters are Measured in Series Mode Connection
!Data Generated on Mar 30, 2021
!       o--ll--o
!Port1            Port2
!       o------o
!Operation Temp=25[degC], DC Bias Voltage=0[V]
!Freq. Start=100[MHz] Stop=9[GHz] 401[Steps]
# Hz S RI R 50
!Freq.(Hz) S11(Real) S11(Imag) S21(Real) S21(Imag) S12(Real) S12(Imag) S22(Real) S22(Imag)
100000000 0.5992684 -0.4893304 0.4007316 0.4893304 0.4007316 0.4893304 0.5992684 -0.4893304
121000000 0.5052341 -0.4991052 0.4947659 0.4991052 0.4947659 0.4991052 0.5052341 -0.4991052
142000000 0.4256992 -0.4934298 0.5743008 0.4934298 0.5743008 0.4934298 0.4256992 -0.4934298
163000000 0.3599468 -0.4788139 0.6400532 0.4788139 0.6400532 0.4788139 0.3599468 -0.4788139
184000000 0.3061165 -0.4595559 0.6938835 0.4595559 0.6938835 0.4595559 0.3061165 -0.4595559
205000000 0.2621350 -0.4383200 0.7378650 0.4383200 0.7378650 0.4383200 0.2621350 -0.4383200
226000000 0.2261100 -0.4166822 0.7738900 0.4166822 0.7738900 0.4166822 0.2261100 -0.4166822
247000000 0.1964529 -0.3955319 0.8035471 0.3955319 0.8035471 0.3955319 0.1964529 -0.3955319
268000000 0.1718819 -0.3753400 0.8281181 0.3753400 0.8281181 0.3753400 0.1718819 -0.3753400
289000000 0.1513817 -0.3563273 0.8486183 0.3563273 0.8486183 0.3563273 0.1513817 -0.3563273
310000000 0.1341548 -0.3385690 0.8658452 0.3385690 0.8658452 0.3385690 0.1341548 -0.3385690
331000000 0.1195755 -0.3220577 0.8804245 0.3220577 0.8804245 0.3220577 0.1195755 -0.3220577
352000000 0.1071518 -0.3067412 0.8928482 0.3067412 0.8928482 0.3067412 0.1071518 -0.3067412
373000000 0.0964954 -0.2925452 0.9035046 0.2925452 0.9035046 0.2925452 0.0964954 -0.2925452
394000000 0.0872976 -0.2793864 0.9127024 0.2793864 0.9127024 0.2793864 0.0872976 -0.2793864
415000000 0.0793123 -0.2671798 0.9206877 0.2671798 0.9206877 0.2671798 0.0793123 -0.2671798
436000000 0.0723411 -0.2558436 0.9276589 0.2558436 0.9276589 0.2558436 0.0723411 -0.2558436
457000000 0.0662237 -0.2453008 0.9337763 0.2453008 0.9337763 0.2453008 0.0662237 -0.2453008
478000000 0.0608295 -0.2354802 0.9391705 0.2354802 0.9391705 0.2354802 0.0608295 -0.2354802
499000000 0.0560511 -0.2263169 0.9439489 0.2263169 0.9439489 0.2263169 0.0560511 -0.2263169
520000000 0.0518002 -0.2177521 0.9481998 0.2177521 0.9481998 0.2177521 0.0518002 -0.2177521
541000000 0.0480034 -0.2097328 0.9519966 0.2097328 0.9519966 0.2097328 0.0480034 -0.2097328
562000000 0.0445994 -0.2022112 0.9554006 0.2022112 0.9554006 0.2022112 0.0445994 -0.2022112
583000000 0.0415367 -0.1951442 0.9584633 0.1951442 0.9584633 0.1951442 0.0415367 -0.1951442
604000000 0.0387720 -0.1884933 0.9612280 0.1884933 0.9612280 0.1884933 0.0387720 -0.1884933
625000000 0.0362684 -0.1822237 0.9637316 0.1822237 0.9637316 0.1822237 0.0362684 -0.1822237
646000000 0.0339945 -0.1763042 0.9660055 0.1763042 0.9660055 0.1763042 0.0339945 -0.1763042
667000000 0.0319236 -0.1707066 0.9680764 0.1707066 0.9680764 0.1707066 0.0319236 -0.1707066
688000000 0.0300326 -0.1654057 0.9699674 0.1654057 0.9699674 0.1654057 0.0300326 -0.1654057
709000000 0.0283014 -0.1603784 0.9716986 0.1603784 0.9716986 0.1603784 0.0283014 -0.1603784
730000000 0.0267130 -0.1556041 0.9732870 0.1556041 0.9732870 0.1556041 0.0267130 -0.1556041
751000000 0.0252522 -0.1510640 0.9747478 0.1510640 0.9747478 0.1510640 0.0252522 -0.1510640
772000000 0.0239060 -0.1467411 0.9760940 0.1467411 0.9760940 0.1467411 0.0239060 -0.1467411
793000000 0.0226628 -0.1426198 0.9773372 0.1426198 0.9773372 0.1426198 0.0226628 -0.1426198
814000000 0.0215127 -0.1386862 0.9784873 0.1386862 0.9784873 0.1386862 0.0215127 -0.1386862
835000000 0.0204467 -0.1349273 0.9795533 0.1349273 0.9795533 0.1349273 0.0204467 -0.1349273
856000000 0.0194569 -0.1313315 0.9805431 0.1313315 0.9805431 0.1313315 0.0194569 -0.1313315
877000000 0.0185365 -0.1278879 0.9814635 0.1278879 0.9814635 0.1278879 0.0185365 -0.1278879
898000000 0.0176792 -0.1245869 0.9823208 0.1245869 0.9823208 0.1245869 0.0176792 -0.1245869
919000000 0.0168794 -0.1214192 0.9831206 0.1214192 0.9831206 0.1214192 0.0168794 -0.1214192
940000000 0.0161324 -0.1183767 0.9838676 0.1183767 0.9838676 0.1183767 0.0161324 -0.1183767
961000000 0.0154335 -0.1154518 0.9845665 0.1154518 0.9845665 0.1154518 0.0154335 -0.1154518
982000000 0.0147790 -0.1126373 0.9852210 0.1126373 0.9852210 0.1126373 0.0147790 -0.1126373
1003000000 0.0141652 -0.1099268 0.9858348 0.1099268 0.9858348 0.1099268 0.0141652 -0.1099268
1024000000 0.0135890 -0.1073142 0.9864110 0.1073142 0.9864110 0.1073142 0.0135890 -0.1073142
1045000000 0.0130473 -0.1047941 0.9869527 0.1047941 0.9869527 0.1047941 0.0130473 -0.1047941
1066000000 0.0125376 -0.1023612 0.9874624 0.1023612 0.9874624 0.1023612 0.0125376 -0.1023612
1087000000 0.0120575 -0.1000108 0.9879425 0.1000108 0.9879425 0.1000108 0.0120575 -0.1000108
1108000000 0.0116049 -0.0977384 0.9883951 0.0977384 0.9883951 0.0977384 0.0116049 -0.0977384
1129000000 0.0111777 -0.0955399 0.9888223 0.0955399 0.9888223 0.0955399 0.0111777 -0.0955399
1150000000 0.0107741 -0.0934115 0.9892259 0.0934115 0.9892259 0.0934115 0.0107741 -0.0934115
1171000000 0.0103926 -0.0913495 0.9896074 0.0913495 0.9896074 0.0913495 0.0103926 -0.0913495
1192000000 0.0100317 -0.0893507 0.9899683 0.0893507 0.9899683 0.0893507 0.0100317 -0.0893507
1213000000 0.0096898 -0.0874118 0.9903102 0.0874118 0.9903102 0.0874118 0.0096898 -0.0874118
1234000000 0.0093659 -0.0855299 0.9906341 0.0855299 0.9906341 0.0855299 0.0093659 -0.0855299
1255000000 0.0090587 -0.0837023 0.9909413 0.0837023 0.9909413 0.0837023 0.0090587 -0.0837023
1276000000 0.0087671 -0.0819265 0.9912329 0.0819265 0.9912329 0.0819265 0.0087671 -0.0819265
1297000000 0.0084902 -0.0802000 0.9915098 0.0802000 0.9915098 0.0802000 0.0084902 -0.0802000
1318000000 0.0082271 -0.0785205 0.9917729 0.0785205 0.9917729 0.0785205 0.0082271 -0.0785205
1339000000 0.0079770 -0.0768859 0.9920230 0.0768859 0.9920230 0.0768859 0.0079770 -0.0768859
1360000000 0.0077390 -0.0752942 0.9922610 0.0752942 0.9922610 0.0752942 0.0077390 -0.0752942
1381000000 0.0075124 -0.0737435 0.9924876 0.0737435 0.9924876 0.0737435 0.0075124 -0.0737435
1402000000 0.0072966 -0.0722321 0.9927034 0.0722321 0.9927034 0.0722321 0.0072966 -0.0722321
1423000000 0.0070910 -0.0707582 0.9929090 0.0707582 0.9929090 0.0707582 0.0070910 -0.0707582
1444000000 0.0068950 -0.0693203 0.9931050 0.0693203 0.9931050 0.0693203 0.0068950 -0.0693203
1465000000 0.0067080 -0.0679169 0.9932920 0.0679169 0.9932920 0.0679169 0.0067080 -0.0679169
1486000000 0.0065296 -0.0665465 0.9934704 0.0665465 0.9934704 0.0665465 0.0065296 -0.0665465
1507000000 0.0063593 -0.0652078 0.9936407 0.0652078 0.9936407 0.0652078 0.0063593 -0.0652078
1528000000 0.0061966 -0.0638996 0.9938034 0.0638996 0.9938034 0.0638996 0.0061966 -0.0638996
1549000000 0.0060412 -0.0626207 0.9939588 0.0626207 0.9939588 0.0626207 0.0060412 -0.0626207
1570000000 0.0058927 -0.0613698 0.9941073 0.0613698 0.9941073 0.0613698 0.0058927 -0.0613698
1591000000 0.0057508 -0.0601459 0.9942492 0.0601459 0.9942492 0.0601459 0.0057508 -0.0601459
1612000000 0.0056150 -0.0589481 0.9943850 0.0589481 0.9943850 0.0589481 0.0056150 -0.0589481
1633000000 0.0054852 -0.0577753 0.9945148 0.0577753 0.9945148 0.0577753 0.0054852 -0.0577753
1654000000 0.0053609 -0.0566265 0.9946391 0.0566265 0.9946391 0.0566265 0.0053609 -0.0566265
1675000000 0.0052420 -0.0555010 0.9947580 0.0555010 0.9947580 0.0555010 0.0052420 -0.0555010
1696000000 0.0051281 -0.0543978 0.9948719 0.0543978 0.9948719 0.0543978 0.0051281 -0.0543978
1717000000 0.0050191 -0.0533162 0.9949809 0.0533162 0.9949809 0.0533162 0.0050191 -0.0533162
1738000000 0.0049147 -0.0522554 0.9950853 0.0522554 0.9950853 0.0522554 0.0049147 -0.0522554
1759000000 0.0048147 -0.0512147 0.9951853 0.0512147 0.9951853 0.0512147 0.0048147 -0.0512147
1780000000 0.0047189 -0.0501934 0.9952811 0.0501934 0.9952811 0.0501934 0.0047189 -0.0501934
1801000000 0.0046271 -0.0491908 0.9953729 0.0491908 0.9953729 0.0491908 0.0046271 -0.0491908
1822000000 0.0045392 -0.0482063 0.9954608 0.0482063 0.9954608 0.0482063 0.0045392 -0.0482063
1843000000 0.0044549 -0.0472392 0.9955451 0.0472392 0.9955451 0.0472392 0.0044549 -0.0472392
1864000000 0.0043741 -0.0462891 0.9956259 0.0462891 0.9956259 0.0462891 0.0043741 -0.0462891
1885000000 0.0042966 -0.0453553 0.9957034 0.0453553 0.9957034 0.0453553 0.0042966 -0.0453553
1906000000 0.0042224 -0.0444374 0.9957776 0.0444374 0.9957776 0.0444374 0.0042224 -0.0444374
1927000000 0.0041512 -0.0435347 0.9958488 0.0435347 0.9958488 0.0435347 0.0041512 -0.0435347
1948000000 0.0040830 -0.0426469 0.9959170 0.0426469 0.9959170 0.0426469 0.0040830 -0.0426469
1969000000 0.0040176 -0.0417735 0.9959824 0.0417735 0.9959824 0.0417735 0.0040176 -0.0417735
1990000000 0.0039549 -0.0409140 0.9960451 0.0409140 0.9960451 0.0409140 0.0039549 -0.0409140
2011000000 0.0038949 -0.0400680 0.9961051 0.0400680 0.9961051 0.0400680 0.0038949 -0.0400680
2032000000 0.0038373 -0.0392351 0.9961627 0.0392351 0.9961627 0.0392351 0.0038373 -0.0392351
2053000000 0.0037821 -0.0384148 0.9962179 0.0384148 0.9962179 0.0384148 0.0037821 -0.0384148
2074000000 0.0037292 -0.0376069 0.9962708 0.0376069 0.9962708 0.0376069 0.0037292 -0.0376069
2095000000 0.0036786 -0.0368109 0.9963214 0.0368109 0.9963214 0.0368109 0.0036786 -0.0368109
2116000000 0.0036301 -0.0360266 0.9963699 0.0360266 0.9963699 0.0360266 0.0036301 -0.0360266
2137000000 0.0035836 -0.0352535 0.9964164 0.0352535 0.9964164 0.0352535 0.0035836 -0.0352535
2158000000 0.0035391 -0.0344913 0.9964609 0.0344913 0.9964609 0.0344913 0.0035391 -0.0344913
2179000000 0.0034966 -0.0337397 0.9965034 0.0337397 0.9965034 0.0337397 0.0034966 -0.0337397
2200000000 0.0034558 -0.0329985 0.9965442 0.0329985 0.9965442 0.0329985 0.0034558 -0.0329985
2221000000 0.0034168 -0.0322674 0.9965832 0.0322674 0.9965832 0.0322674 0.0034168 -0.0322674
2242000000 0.0033796 -0.0315460 0.9966204 0.0315460 0.9966204 0.0315460 0.0033796 -0.0315460
2263000000 0.0033439 -0.0308341 0.9966561 0.0308341 0.9966561 0.0308341 0.0033439 -0.0308341
2284000000 0.0033099 -0.0301314 0.9966901 0.0301314 0.9966901 0.0301314 0.0033099 -0.0301314
2305000000 0.0032774 -0.0294378 0.9967226 0.0294378 0.9967226 0.0294378 0.0032774 -0.0294378
2326000000 0.0032464 -0.0287529 0.9967536 0.0287529 0.9967536 0.0287529 0.0032464 -0.0287529
2347000000 0.0032168 -0.0280765 0.9967832 0.0280765 0.9967832 0.0280765 0.0032168 -0.0280765
2368000000 0.0031886 -0.0274084 0.9968114 0.0274084 0.9968114 0.0274084 0.0031886 -0.0274084
2389000000 0.0031617 -0.0267484 0.9968383 0.0267484 0.9968383 0.0267484 0.0031617 -0.0267484
2410000000 0.0031361 -0.0260962 0.9968639 0.0260962 0.9968639 0.0260962 0.0031361 -0.0260962
2431000000 0.0031118 -0.0254518 0.9968882 0.0254518 0.9968882 0.0254518 0.0031118 -0.0254518
2452000000 0.0030887 -0.0248148 0.9969113 0.0248148 0.9969113 0.0248148 0.0030887 -0.0248148
2473000000 0.0030668 -0.0241851 0.9969332 0.0241851 0.9969332 0.0241851 0.0030668 -0.0241851
2494000000 0.0030460 -0.0235625 0.9969540 0.0235625 0.9969540 0.0235625 0.0030460 -0.0235625
2515000000 0.0030262 -0.0229468 0.9969738 0.0229468 0.9969738 0.0229468 0.0030262 -0.0229468
2536000000 0.0030076 -0.0223380 0.9969924 0.0223380 0.9969924 0.0223380 0.0030076 -0.0223380
2557000000 0.0029900 -0.0217357 0.9970100 0.0217357 0.9970100 0.0217357 0.0029900 -0.0217357
2578000000 0.0029734 -0.0211398 0.9970266 0.0211398 0.9970266 0.0211398 0.0029734 -0.0211398
2599000000 0.0029578 -0.0205502 0.9970422 0.0205502 0.9970422 0.0205502 0.0029578 -0.0205502
2620000000 0.0029431 -0.0199668 0.9970569 0.0199668 0.9970569 0.0199668 0.0029431 -0.0199668
2641000000 0.0029293 -0.0193893 0.9970707 0.0193893 0.9970707 0.0193893 0.0029293 -0.0193893
2662000000 0.0029164 -0.0188178 0.9970836 0.0188178 0.9970836 0.0188178 0.0029164 -0.0188178
2683000000 0.0029044 -0.0182519 0.9970956 0.0182519 0.9970956 0.0182519 0.0029044 -0.0182519
2704000000 0.0028932 -0.0176916 0.9971068 0.0176916 0.9971068 0.0176916 0.0028932 -0.0176916
2725000000 0.0028829 -0.0171367 0.9971171 0.0171367 0.9971171 0.0171367 0.0028829 -0.0171367
2746000000 0.0028733 -0.0165872 0.9971267 0.0165872 0.9971267 0.0165872 0.0028733 -0.0165872
2767000000 0.0028645 -0.0160429 0.9971355 0.0160429 0.9971355 0.0160429 0.0028645 -0.0160429
2788000000 0.0028564 -0.0155037 0.9971436 0.0155037 0.9971436 0.0155037 0.0028564 -0.0155037
2809000000 0.0028491 -0.0149694 0.9971509 0.0149694 0.9971509 0.0149694 0.0028491 -0.0149694
2830000000 0.0028425 -0.0144401 0.9971575 0.0144401 0.9971575 0.0144401 0.0028425 -0.0144401
2851000000 0.0028366 -0.0139155 0.9971634 0.0139155 0.9971634 0.0139155 0.0028366 -0.0139155
2872000000 0.0028314 -0.0133955 0.9971686 0.0133955 0.9971686 0.0133955 0.0028314 -0.0133955
2893000000 0.0028268 -0.0128801 0.9971732 0.0128801 0.9971732 0.0128801 0.0028268 -0.0128801
2914000000 0.0028229 -0.0123692 0.9971771 0.0123692 0.9971771 0.0123692 0.0028229 -0.0123692
2935000000 0.0028196 -0.0118626 0.9971804 0.0118626 0.9971804 0.0118626 0.0028196 -0.0118626
2956000000 0.0028169 -0.0113603 0.9971831 0.0113603 0.9971831 0.0113603 0.0028169 -0.0113603
2977000000 0.0028147 -0.0108622 0.9971853 0.0108622 0.9971853 0.0108622 0.0028147 -0.0108622
2998000000 0.0028132 -0.0103682 0.9971868 0.0103682 0.9971868 0.0103682 0.0028132 -0.0103682
3019000000 0.0028123 -0.0098782 0.9971877 0.0098782 0.9971877 0.0098782 0.0028123 -0.0098782
3040000000 0.0028119 -0.0093921 0.9971881 0.0093921 0.9971881 0.0093921 0.0028119 -0.0093921
3061000000 0.0028120 -0.0089098 0.9971880 0.0089098 0.9971880 0.0089098 0.0028120 -0.0089098
3082000000 0.0028127 -0.0084314 0.9971873 0.0084314 0.9971873 0.0084314 0.0028127 -0.0084314
3103000000 0.0028138 -0.0079566 0.9971862 0.0079566 0.9971862 0.0079566 0.0028138 -0.0079566
3124000000 0.0028155 -0.0074854 0.9971845 0.0074854 0.9971845 0.0074854 0.0028155 -0.0074854
3145000000 0.0028177 -0.0070178 0.9971823 0.0070178 0.9971823 0.0070178 0.0028177 -0.0070178
3166000000 0.0028204 -0.0065536 0.9971796 0.0065536 0.9971796 0.0065536 0.0028204 -0.0065536
3187000000 0.0028235 -0.0060929 0.9971765 0.0060929 0.9971765 0.0060929 0.0028235 -0.0060929
3208000000 0.0028271 -0.0056355 0.9971729 0.0056355 0.9971729 0.0056355 0.0028271 -0.0056355
3229000000 0.0028312 -0.0051813 0.9971688 0.0051813 0.9971688 0.0051813 0.0028312 -0.0051813
3250000000 0.0028357 -0.0047304 0.9971643 0.0047304 0.9971643 0.0047304 0.0028357 -0.0047304
3271000000 0.0028406 -0.0042826 0.9971594 0.0042826 0.9971594 0.0042826 0.0028406 -0.0042826
3292000000 0.0028460 -0.0038379 0.9971540 0.0038379 0.9971540 0.0038379 0.0028460 -0.0038379
3313000000 0.0028518 -0.0033962 0.9971482 0.0033962 0.9971482 0.0033962 0.0028518 -0.0033962
3334000000 0.0028580 -0.0029575 0.9971420 0.0029575 0.9971420 0.0029575 0.0028580 -0.0029575
3355000000 0.0028646 -0.0025217 0.9971354 0.0025217 0.9971354 0.0025217 0.0028646 -0.0025217
3376000000 0.0028716 -0.0020888 0.9971284 0.0020888 0.9971284 0.0020888 0.0028716 -0.0020888
3397000000 0.0028790 -0.0016586 0.9971210 0.0016586 0.9971210 0.0016586 0.0028790 -0.0016586
3418000000 0.0028868 -0.0012312 0.9971132 0.0012312 0.9971132 0.0012312 0.0028868 -0.0012312
3439000000 0.0028949 -0.0008065 0.9971051 0.0008065 0.9971051 0.0008065 0.0028949 -0.0008065
3460000000 0.0029034 -0.0003845 0.9970966 0.0003845 0.9970966 0.0003845 0.0029034 -0.0003845
3481000000 0.0029123 0.0000349 0.9970877 -0.0000349 0.9970877 -0.0000349 0.0029123 0.0000349
3502000000 0.0029216 0.0004518 0.9970784 -0.0004518 0.9970784 -0.0004518 0.0029216 0.0004518
3523000000 0.0029311 0.0008662 0.9970689 -0.0008662 0.9970689 -0.0008662 0.0029311 0.0008662
3544000000 0.0029411 0.0012781 0.9970589 -0.0012781 0.9970589 -0.0012781 0.0029411 0.0012781
3565000000 0.0029514 0.0016875 0.9970486 -0.0016875 0.9970486 -0.0016875 0.0029514 0.0016875
3586000000 0.0029620 0.0020947 0.9970380 -0.0020947 0.9970380 -0.0020947 0.0029620 0.0020947
3607000000 0.0029729 0.0024994 0.9970271 -0.0024994 0.9970271 -0.0024994 0.0029729 0.0024994
3628000000 0.0029842 0.0029019 0.9970158 -0.0029019 0.9970158 -0.0029019 0.0029842 0.0029019
3649000000 0.0029958 0.0033021 0.9970042 -0.0033021 0.9970042 -0.0033021 0.0029958 0.0033021
3670000000 0.0030078 0.0037001 0.9969922 -0.0037001 0.9969922 -0.0037001 0.0030078 0.0037001
3691000000 0.0030200 0.0040960 0.9969800 -0.0040960 0.9969800 -0.0040960 0.0030200 0.0040960
3712000000 0.0030325 0.0044897 0.9969675 -0.0044897 0.9969675 -0.0044897 0.0030325 0.0044897
3733000000 0.0030454 0.0048813 0.9969546 -0.0048813 0.9969546 -0.0048813 0.0030454 0.0048813
3754000000 0.0030585 0.0052708 0.9969415 -0.0052708 0.9969415 -0.0052708 0.0030585 0.0052708
3775000000 0.0030720 0.0056584 0.9969280 -0.0056584 0.9969280 -0.0056584 0.0030720 0.0056584
3796000000 0.0030858 0.0060439 0.9969142 -0.0060439 0.9969142 -0.0060439 0.0030858 0.0060439
3817000000 0.0030998 0.0064274 0.9969002 -0.0064274 0.9969002 -0.0064274 0.0030998 0.0064274
3838000000 0.0031141 0.0068091 0.9968859 -0.0068091 0.9968859 -0.0068091 0.0031141 0.0068091
3859000000 0.0031288 0.0071888 0.9968712 -0.0071888 0.9968712 -0.0071888 0.0031288 0.0071888
3880000000 0.0031437 0.0075667 0.9968563 -0.0075667 0.9968563 -0.0075667 0.0031437 0.0075667
3901000000 0.0031589 0.0079427 0.9968411 -0.0079427 0.9968411 -0.0079427 0.0031589 0.0079427
3922000000 0.0031743 0.0083169 0.9968257 -0.0083169 0.9968257 -0.0083169 0.0031743 0.0083169
3943000000 0.0031901 0.0086894 0.9968099 -0.0086894 0.9968099 -0.0086894 0.0031901 0.0086894
3964000000 0.0032061 0.0090601 0.9967939 -0.0090601 0.9967939 -0.0090601 0.0032061 0.0090601
3985000000 0.0032224 0.0094291 0.9967776 -0.0094291 0.9967776 -0.0094291 0.0032224 0.0094291
4006000000 0.0032390 0.0097965 0.9967610 -0.0097965 0.9967610 -0.0097965 0.0032390 0.0097965
4027000000 0.0032558 0.0101621 0.9967442 -0.0101621 0.9967442 -0.0101621 0.0032558 0.0101621
4048000000 0.0032729 0.0105261 0.9967271 -0.0105261 0.9967271 -0.0105261 0.0032729 0.0105261
4069000000 0.0032903 0.0108886 0.9967097 -0.0108886 0.9967097 -0.0108886 0.0032903 0.0108886
4090000000 0.0033079 0.0112494 0.9966921 -0.0112494 0.9966921 -0.0112494 0.0033079 0.0112494
4111000000 0.0033258 0.0116087 0.9966742 -0.0116087 0.9966742 -0.0116087 0.0033258 0.0116087
4132000000 0.0033439 0.0119665 0.9966561 -0.0119665 0.9966561 -0.0119665 0.0033439 0.0119665
4153000000 0.0033624 0.0123227 0.9966376 -0.0123227 0.9966376 -0.0123227 0.0033624 0.0123227
4174000000 0.0033810 0.0126775 0.9966190 -0.0126775 0.9966190 -0.0126775 0.0033810 0.0126775
4195000000 0.0034000 0.0130308 0.9966000 -0.0130308 0.9966000 -0.0130308 0.0034000 0.0130308
4216000000 0.0034192 0.0133827 0.9965808 -0.0133827 0.9965808 -0.0133827 0.0034192 0.0133827
4237000000 0.0034386 0.0137331 0.9965614 -0.0137331 0.9965614 -0.0137331 0.0034386 0.0137331
4258000000 0.0034583 0.0140822 0.9965417 -0.0140822 0.9965417 -0.0140822 0.0034583 0.0140822
4279000000 0.0034783 0.0144299 0.9965217 -0.0144299 0.9965217 -0.0144299 0.0034783 0.0144299
4300000000 0.0034985 0.0147762 0.9965015 -0.0147762 0.9965015 -0.0147762 0.0034985 0.0147762
4321000000 0.0035189 0.0151212 0.9964811 -0.0151212 0.9964811 -0.0151212 0.0035189 0.0151212
4342000000 0.0035397 0.0154649 0.9964603 -0.0154649 0.9964603 -0.0154649 0.0035397 0.0154649
4363000000 0.0035606 0.0158074 0.9964394 -0.0158074 0.9964394 -0.0158074 0.0035606 0.0158074
4384000000 0.0035819 0.0161485 0.9964181 -0.0161485 0.9964181 -0.0161485 0.0035819 0.0161485
4405000000 0.0036033 0.0164884 0.9963967 -0.0164884 0.9963967 -0.0164884 0.0036033 0.0164884
4426000000 0.0036251 0.0168271 0.9963749 -0.0168271 0.9963749 -0.0168271 0.0036251 0.0168271
4447000000 0.0036471 0.0171645 0.9963529 -0.0171645 0.9963529 -0.0171645 0.0036471 0.0171645
4468000000 0.0036693 0.0175008 0.9963307 -0.0175008 0.9963307 -0.0175008 0.0036693 0.0175008
4489000000 0.0036918 0.0178359 0.9963082 -0.0178359 0.9963082 -0.0178359 0.0036918 0.0178359
4510000000 0.0037146 0.0181698 0.9962854 -0.0181698 0.9962854 -0.0181698 0.0037146 0.0181698
