!Murata Part Number: GRM0222C1E7R2DA03
!These Parameters are Measured in Series Mode Connection
!Data Generated on Mar 30, 2021
!       o--ll--o
!Port1            Port2
!       o------o
!Operation Temp=25[degC], DC Bias Voltage=0[V]
!Freq. Start=100[MHz] Stop=9[GHz] 401[Steps]
# Hz S RI R 50
!Freq.(Hz) S11(Real) S11(Imag) S21(Real) S21(Imag) S12(Real) S12(Imag) S22(Real) S22(Imag)
100000000 0.8298143 -0.3754767 0.1701857 0.3754767 0.1701857 0.3754767 0.8298143 -0.3754767
121000000 0.7690126 -0.4210779 0.2309874 0.4210779 0.2309874 0.4210779 0.7690126 -0.4210779
142000000 0.7072949 -0.4545501 0.2927051 0.4545501 0.2927051 0.4545501 0.7072949 -0.4545501
163000000 0.6470245 -0.4773733 0.3529755 0.4773733 0.3529755 0.4773733 0.6470245 -0.4773733
184000000 0.5897912 -0.4912816 0.4102088 0.4912816 0.4102088 0.4912816 0.5897912 -0.4912816
205000000 0.5365298 -0.4980056 0.4634702 0.4980056 0.4634702 0.4980056 0.5365298 -0.4980056
226000000 0.4876764 -0.4991212 0.5123236 0.4991212 0.5123236 0.4991212 0.4876764 -0.4991212
247000000 0.4433180 -0.4959808 0.5566820 0.4959808 0.5566820 0.4959808 0.4433180 -0.4959808
268000000 0.4033176 -0.4896981 0.5966824 0.4896981 0.5966824 0.4896981 0.4033176 -0.4896981
289000000 0.3674071 -0.4811634 0.6325929 0.4811634 0.6325929 0.4811634 0.3674071 -0.4811634
310000000 0.3352521 -0.4710730 0.6647479 0.4710730 0.6647479 0.4710730 0.3352521 -0.4710730
331000000 0.3064957 -0.4599617 0.6935043 0.4599617 0.6935043 0.4599617 0.3064957 -0.4599617
352000000 0.2807841 -0.4482345 0.7192159 0.4482345 0.7192159 0.4482345 0.2807841 -0.4482345
373000000 0.2577826 -0.4361941 0.7422174 0.4361941 0.7422174 0.4361941 0.2577826 -0.4361941
394000000 0.2371833 -0.4240635 0.7628167 0.4240635 0.7628167 0.4240635 0.2371833 -0.4240635
415000000 0.2187078 -0.4120047 0.7812922 0.4120047 0.7812922 0.4120047 0.2187078 -0.4120047
436000000 0.2021081 -0.4001334 0.7978919 0.4001334 0.7978919 0.4001334 0.2021081 -0.4001334
457000000 0.1871646 -0.3885300 0.8128354 0.3885300 0.8128354 0.3885300 0.1871646 -0.3885300
478000000 0.1736840 -0.3772487 0.8263160 0.3772487 0.8263160 0.3772487 0.1736840 -0.3772487
499000000 0.1614970 -0.3663240 0.8385030 0.3663240 0.8385030 0.3663240 0.1614970 -0.3663240
520000000 0.1504553 -0.3557756 0.8495447 0.3557756 0.8495447 0.3557756 0.1504553 -0.3557756
541000000 0.1404294 -0.3456128 0.8595706 0.3456128 0.8595706 0.3456128 0.1404294 -0.3456128
562000000 0.1313060 -0.3358371 0.8686940 0.3358371 0.8686940 0.3358371 0.1313060 -0.3358371
583000000 0.1229859 -0.3264441 0.8770141 0.3264441 0.8770141 0.3264441 0.1229859 -0.3264441
604000000 0.1153825 -0.3174257 0.8846175 0.3174257 0.8846175 0.3174257 0.1153825 -0.3174257
625000000 0.1084197 -0.3087712 0.8915803 0.3087712 0.8915803 0.3087712 0.1084197 -0.3087712
646000000 0.1020307 -0.3004679 0.8979693 0.3004679 0.8979693 0.3004679 0.1020307 -0.3004679
667000000 0.0961568 -0.2925022 0.9038432 0.2925022 0.9038432 0.2925022 0.0961568 -0.2925022
688000000 0.0907463 -0.2848597 0.9092537 0.2848597 0.9092537 0.2848597 0.0907463 -0.2848597
709000000 0.0857535 -0.2775260 0.9142465 0.2775260 0.9142465 0.2775260 0.0857535 -0.2775260
730000000 0.0811381 -0.2704867 0.9188619 0.2704867 0.9188619 0.2704867 0.0811381 -0.2704867
751000000 0.0768641 -0.2637277 0.9231359 0.2637277 0.9231359 0.2637277 0.0768641 -0.2637277
772000000 0.0728999 -0.2572353 0.9271001 0.2572353 0.9271001 0.2572353 0.0728999 -0.2572353
793000000 0.0692171 -0.2509961 0.9307829 0.2509961 0.9307829 0.2509961 0.0692171 -0.2509961
814000000 0.0657906 -0.2449974 0.9342094 0.2449974 0.9342094 0.2449974 0.0657906 -0.2449974
835000000 0.0625977 -0.2392270 0.9374023 0.2392270 0.9374023 0.2392270 0.0625977 -0.2392270
856000000 0.0596183 -0.2336735 0.9403817 0.2336735 0.9403817 0.2336735 0.0596183 -0.2336735
877000000 0.0568343 -0.2283257 0.9431657 0.2283257 0.9431657 0.2283257 0.0568343 -0.2283257
898000000 0.0542295 -0.2231732 0.9457705 0.2231732 0.9457705 0.2231732 0.0542295 -0.2231732
919000000 0.0517892 -0.2182063 0.9482108 0.2182063 0.9482108 0.2182063 0.0517892 -0.2182063
940000000 0.0495002 -0.2134155 0.9504998 0.2134155 0.9504998 0.2134155 0.0495002 -0.2134155
961000000 0.0473505 -0.2087922 0.9526495 0.2087922 0.9526495 0.2087922 0.0473505 -0.2087922
982000000 0.0453295 -0.2043279 0.9546705 0.2043279 0.9546705 0.2043279 0.0453295 -0.2043279
1003000000 0.0434272 -0.2000149 0.9565728 0.2000149 0.9565728 0.2000149 0.0434272 -0.2000149
1024000000 0.0416348 -0.1958458 0.9583652 0.1958458 0.9583652 0.1958458 0.0416348 -0.1958458
1045000000 0.0399443 -0.1918136 0.9600557 0.1918136 0.9600557 0.1918136 0.0399443 -0.1918136
1066000000 0.0383482 -0.1879118 0.9616518 0.1879118 0.9616518 0.1879118 0.0383482 -0.1879118
1087000000 0.0368398 -0.1841342 0.9631602 0.1841342 0.9631602 0.1841342 0.0368398 -0.1841342
1108000000 0.0354130 -0.1804749 0.9645870 0.1804749 0.9645870 0.1804749 0.0354130 -0.1804749
1129000000 0.0340621 -0.1769286 0.9659379 0.1769286 0.9659379 0.1769286 0.0340621 -0.1769286
1150000000 0.0327821 -0.1734899 0.9672179 0.1734899 0.9672179 0.1734899 0.0327821 -0.1734899
1171000000 0.0315682 -0.1701541 0.9684318 0.1701541 0.9684318 0.1701541 0.0315682 -0.1701541
1192000000 0.0304160 -0.1669164 0.9695840 0.1669164 0.9695840 0.1669164 0.0304160 -0.1669164
1213000000 0.0293216 -0.1637725 0.9706784 0.1637725 0.9706784 0.1637725 0.0293216 -0.1637725
1234000000 0.0282813 -0.1607183 0.9717187 0.1607183 0.9717187 0.1607183 0.0282813 -0.1607183
1255000000 0.0272916 -0.1577499 0.9727084 0.1577499 0.9727084 0.1577499 0.0272916 -0.1577499
1276000000 0.0263495 -0.1548636 0.9736505 0.1548636 0.9736505 0.1548636 0.0263495 -0.1548636
1297000000 0.0254521 -0.1520560 0.9745479 0.1520560 0.9745479 0.1520560 0.0254521 -0.1520560
1318000000 0.0245966 -0.1493237 0.9754034 0.1493237 0.9754034 0.1493237 0.0245966 -0.1493237
1339000000 0.0237807 -0.1466635 0.9762193 0.1466635 0.9762193 0.1466635 0.0237807 -0.1466635
1360000000 0.0230019 -0.1440726 0.9769981 0.1440726 0.9769981 0.1440726 0.0230019 -0.1440726
1381000000 0.0222582 -0.1415481 0.9777418 0.1415481 0.9777418 0.1415481 0.0222582 -0.1415481
1402000000 0.0215475 -0.1390874 0.9784525 0.1390874 0.9784525 0.1390874 0.0215475 -0.1390874
1423000000 0.0208680 -0.1366879 0.9791320 0.1366879 0.9791320 0.1366879 0.0208680 -0.1366879
1444000000 0.0202181 -0.1343473 0.9797819 0.1343473 0.9797819 0.1343473 0.0202181 -0.1343473
1465000000 0.0195960 -0.1320632 0.9804040 0.1320632 0.9804040 0.1320632 0.0195960 -0.1320632
1486000000 0.0190003 -0.1298335 0.9809997 0.1298335 0.9809997 0.1298335 0.0190003 -0.1298335
1507000000 0.0184296 -0.1276561 0.9815704 0.1276561 0.9815704 0.1276561 0.0184296 -0.1276561
1528000000 0.0178826 -0.1255290 0.9821174 0.1255290 0.9821174 0.1255290 0.0178826 -0.1255290
1549000000 0.0173580 -0.1234505 0.9826420 0.1234505 0.9826420 0.1234505 0.0173580 -0.1234505
1570000000 0.0168547 -0.1214186 0.9831453 0.1214186 0.9831453 0.1214186 0.0168547 -0.1214186
1591000000 0.0163717 -0.1194318 0.9836283 0.1194318 0.9836283 0.1194318 0.0163717 -0.1194318
1612000000 0.0159078 -0.1174884 0.9840922 0.1174884 0.9840922 0.1174884 0.0159078 -0.1174884
1633000000 0.0154623 -0.1155868 0.9845377 0.1155868 0.9845377 0.1155868 0.0154623 -0.1155868
1654000000 0.0150342 -0.1137256 0.9849658 0.1137256 0.9849658 0.1137256 0.0150342 -0.1137256
1675000000 0.0146226 -0.1119035 0.9853774 0.1119035 0.9853774 0.1119035 0.0146226 -0.1119035
1696000000 0.0142268 -0.1101189 0.9857732 0.1101189 0.9857732 0.1101189 0.0142268 -0.1101189
1717000000 0.0138460 -0.1083708 0.9861540 0.1083708 0.9861540 0.1083708 0.0138460 -0.1083708
1738000000 0.0134795 -0.1066577 0.9865205 0.1066577 0.9865205 0.1066577 0.0134795 -0.1066577
1759000000 0.0131268 -0.1049787 0.9868732 0.1049787 0.9868732 0.1049787 0.0131268 -0.1049787
1780000000 0.0127871 -0.1033325 0.9872129 0.1033325 0.9872129 0.1033325 0.0127871 -0.1033325
1801000000 0.0124599 -0.1017181 0.9875401 0.1017181 0.9875401 0.1017181 0.0124599 -0.1017181
1822000000 0.0121446 -0.1001344 0.9878554 0.1001344 0.9878554 0.1001344 0.0121446 -0.1001344
1843000000 0.0118407 -0.0985805 0.9881593 0.0985805 0.9881593 0.0985805 0.0118407 -0.0985805
1864000000 0.0115477 -0.0970554 0.9884523 0.0970554 0.9884523 0.0970554 0.0115477 -0.0970554
1885000000 0.0112652 -0.0955583 0.9887348 0.0955583 0.9887348 0.0955583 0.0112652 -0.0955583
1906000000 0.0109926 -0.0940882 0.9890074 0.0940882 0.9890074 0.0940882 0.0109926 -0.0940882
1927000000 0.0107297 -0.0926443 0.9892703 0.0926443 0.9892703 0.0926443 0.0107297 -0.0926443
1948000000 0.0104759 -0.0912259 0.9895241 0.0912259 0.9895241 0.0912259 0.0104759 -0.0912259
1969000000 0.0102309 -0.0898321 0.9897691 0.0898321 0.9897691 0.0898321 0.0102309 -0.0898321
1990000000 0.0099944 -0.0884622 0.9900056 0.0884622 0.9900056 0.0884622 0.0099944 -0.0884622
2011000000 0.0097660 -0.0871156 0.9902340 0.0871156 0.9902340 0.0871156 0.0097660 -0.0871156
2032000000 0.0095454 -0.0857914 0.9904546 0.0857914 0.9904546 0.0857914 0.0095454 -0.0857914
2053000000 0.0093323 -0.0844892 0.9906677 0.0844892 0.9906677 0.0844892 0.0093323 -0.0844892
2074000000 0.0091263 -0.0832082 0.9908737 0.0832082 0.9908737 0.0832082 0.0091263 -0.0832082
2095000000 0.0089273 -0.0819479 0.9910727 0.0819479 0.9910727 0.0819479 0.0089273 -0.0819479
2116000000 0.0087349 -0.0807076 0.9912651 0.0807076 0.9912651 0.0807076 0.0087349 -0.0807076
2137000000 0.0085489 -0.0794868 0.9914511 0.0794868 0.9914511 0.0794868 0.0085489 -0.0794868
2158000000 0.0083691 -0.0782850 0.9916309 0.0782850 0.9916309 0.0782850 0.0083691 -0.0782850
2179000000 0.0081952 -0.0771016 0.9918048 0.0771016 0.9918048 0.0771016 0.0081952 -0.0771016
2200000000 0.0080270 -0.0759361 0.9919730 0.0759361 0.9919730 0.0759361 0.0080270 -0.0759361
2221000000 0.0078644 -0.0747881 0.9921356 0.0747881 0.9921356 0.0747881 0.0078644 -0.0747881
2242000000 0.0077070 -0.0736571 0.9922930 0.0736571 0.9922930 0.0736571 0.0077070 -0.0736571
2263000000 0.0075548 -0.0725426 0.9924452 0.0725426 0.9924452 0.0725426 0.0075548 -0.0725426
2284000000 0.0074074 -0.0714442 0.9925926 0.0714442 0.9925926 0.0714442 0.0074074 -0.0714442
2305000000 0.0072649 -0.0703615 0.9927351 0.0703615 0.9927351 0.0703615 0.0072649 -0.0703615
2326000000 0.0071269 -0.0692941 0.9928731 0.0692941 0.9928731 0.0692941 0.0071269 -0.0692941
2347000000 0.0069934 -0.0682415 0.9930066 0.0682415 0.9930066 0.0682415 0.0069934 -0.0682415
2368000000 0.0068642 -0.0672034 0.9931358 0.0672034 0.9931358 0.0672034 0.0068642 -0.0672034
2389000000 0.0067391 -0.0661795 0.9932609 0.0661795 0.9932609 0.0661795 0.0067391 -0.0661795
2410000000 0.0066180 -0.0651694 0.9933820 0.0651694 0.9933820 0.0651694 0.0066180 -0.0651694
2431000000 0.0065008 -0.0641727 0.9934992 0.0641727 0.9934992 0.0641727 0.0065008 -0.0641727
2452000000 0.0063874 -0.0631891 0.9936126 0.0631891 0.9936126 0.0631891 0.0063874 -0.0631891
2473000000 0.0062775 -0.0622183 0.9937225 0.0622183 0.9937225 0.0622183 0.0062775 -0.0622183
2494000000 0.0061712 -0.0612600 0.9938288 0.0612600 0.9938288 0.0612600 0.0061712 -0.0612600
2515000000 0.0060683 -0.0603139 0.9939317 0.0603139 0.9939317 0.0603139 0.0060683 -0.0603139
2536000000 0.0059686 -0.0593796 0.9940314 0.0593796 0.9940314 0.0593796 0.0059686 -0.0593796
2557000000 0.0058722 -0.0584570 0.9941278 0.0584570 0.9941278 0.0584570 0.0058722 -0.0584570
2578000000 0.0057788 -0.0575457 0.9942212 0.0575457 0.9942212 0.0575457 0.0057788 -0.0575457
2599000000 0.0056884 -0.0566455 0.9943116 0.0566455 0.9943116 0.0566455 0.0056884 -0.0566455
2620000000 0.0056009 -0.0557561 0.9943991 0.0557561 0.9943991 0.0557561 0.0056009 -0.0557561
2641000000 0.0055162 -0.0548773 0.9944838 0.0548773 0.9944838 0.0548773 0.0055162 -0.0548773
2662000000 0.0054342 -0.0540088 0.9945658 0.0540088 0.9945658 0.0540088 0.0054342 -0.0540088
2683000000 0.0053548 -0.0531504 0.9946452 0.0531504 0.9946452 0.0531504 0.0053548 -0.0531504
2704000000 0.0052781 -0.0523018 0.9947219 0.0523018 0.9947219 0.0523018 0.0052781 -0.0523018
2725000000 0.0052038 -0.0514630 0.9947962 0.0514630 0.9947962 0.0514630 0.0052038 -0.0514630
2746000000 0.0051319 -0.0506335 0.9948681 0.0506335 0.9948681 0.0506335 0.0051319 -0.0506335
2767000000 0.0050624 -0.0498133 0.9949376 0.0498133 0.9949376 0.0498133 0.0050624 -0.0498133
2788000000 0.0049951 -0.0490021 0.9950049 0.0490021 0.9950049 0.0490021 0.0049951 -0.0490021
2809000000 0.0049301 -0.0481998 0.9950699 0.0481998 0.9950699 0.0481998 0.0049301 -0.0481998
2830000000 0.0048672 -0.0474061 0.9951328 0.0474061 0.9951328 0.0474061 0.0048672 -0.0474061
2851000000 0.0048063 -0.0466208 0.9951937 0.0466208 0.9951937 0.0466208 0.0048063 -0.0466208
2872000000 0.0047476 -0.0458439 0.9952524 0.0458439 0.9952524 0.0458439 0.0047476 -0.0458439
2893000000 0.0046908 -0.0450751 0.9953092 0.0450751 0.9953092 0.0450751 0.0046908 -0.0450751
2914000000 0.0046359 -0.0443142 0.9953641 0.0443142 0.9953641 0.0443142 0.0046359 -0.0443142
2935000000 0.0045828 -0.0435610 0.9954172 0.0435610 0.9954172 0.0435610 0.0045828 -0.0435610
2956000000 0.0045316 -0.0428155 0.9954684 0.0428155 0.9954684 0.0428155 0.0045316 -0.0428155
2977000000 0.0044822 -0.0420775 0.9955178 0.0420775 0.9955178 0.0420775 0.0044822 -0.0420775
2998000000 0.0044345 -0.0413467 0.9955655 0.0413467 0.9955655 0.0413467 0.0044345 -0.0413467
3019000000 0.0043884 -0.0406232 0.9956116 0.0406232 0.9956116 0.0406232 0.0043884 -0.0406232
3040000000 0.0043440 -0.0399066 0.9956560 0.0399066 0.9956560 0.0399066 0.0043440 -0.0399066
3061000000 0.0043012 -0.0391969 0.9956988 0.0391969 0.9956988 0.0391969 0.0043012 -0.0391969
3082000000 0.0042599 -0.0384940 0.9957401 0.0384940 0.9957401 0.0384940 0.0042599 -0.0384940
3103000000 0.0042201 -0.0377977 0.9957799 0.0377977 0.9957799 0.0377977 0.0042201 -0.0377977
3124000000 0.0041818 -0.0371079 0.9958182 0.0371079 0.9958182 0.0371079 0.0041818 -0.0371079
3145000000 0.0041450 -0.0364244 0.9958550 0.0364244 0.9958550 0.0364244 0.0041450 -0.0364244
3166000000 0.0041095 -0.0357472 0.9958905 0.0357472 0.9958905 0.0357472 0.0041095 -0.0357472
3187000000 0.0040754 -0.0350761 0.9959246 0.0350761 0.9959246 0.0350761 0.0040754 -0.0350761
3208000000 0.0040426 -0.0344109 0.9959574 0.0344109 0.9959574 0.0344109 0.0040426 -0.0344109
3229000000 0.0040111 -0.0337517 0.9959889 0.0337517 0.9959889 0.0337517 0.0040111 -0.0337517
3250000000 0.0039809 -0.0330983 0.9960191 0.0330983 0.9960191 0.0330983 0.0039809 -0.0330983
3271000000 0.0039519 -0.0324505 0.9960481 0.0324505 0.9960481 0.0324505 0.0039519 -0.0324505
3292000000 0.0039241 -0.0318083 0.9960759 0.0318083 0.9960759 0.0318083 0.0039241 -0.0318083
3313000000 0.0038974 -0.0311716 0.9961026 0.0311716 0.9961026 0.0311716 0.0038974 -0.0311716
3334000000 0.0038719 -0.0305402 0.9961281 0.0305402 0.9961281 0.0305402 0.0038719 -0.0305402
3355000000 0.0038476 -0.0299141 0.9961524 0.0299141 0.9961524 0.0299141 0.0038476 -0.0299141
3376000000 0.0038243 -0.0292932 0.9961757 0.0292932 0.9961757 0.0292932 0.0038243 -0.0292932
3397000000 0.0038021 -0.0286773 0.9961979 0.0286773 0.9961979 0.0286773 0.0038021 -0.0286773
3418000000 0.0037809 -0.0280664 0.9962191 0.0280664 0.9962191 0.0280664 0.0037809 -0.0280664
3439000000 0.0037608 -0.0274605 0.9962392 0.0274605 0.9962392 0.0274605 0.0037608 -0.0274605
3460000000 0.0037416 -0.0268593 0.9962584 0.0268593 0.9962584 0.0268593 0.0037416 -0.0268593
3481000000 0.0037235 -0.0262629 0.9962765 0.0262629 0.9962765 0.0262629 0.0037235 -0.0262629
3502000000 0.0037062 -0.0256711 0.9962938 0.0256711 0.9962938 0.0256711 0.0037062 -0.0256711
3523000000 0.0036899 -0.0250839 0.9963101 0.0250839 0.9963101 0.0250839 0.0036899 -0.0250839
3544000000 0.0036745 -0.0245012 0.9963255 0.0245012 0.9963255 0.0245012 0.0036745 -0.0245012
3565000000 0.0036600 -0.0239229 0.9963400 0.0239229 0.9963400 0.0239229 0.0036600 -0.0239229
3586000000 0.0036464 -0.0233490 0.9963536 0.0233490 0.9963536 0.0233490 0.0036464 -0.0233490
3607000000 0.0036336 -0.0227793 0.9963664 0.0227793 0.9963664 0.0227793 0.0036336 -0.0227793
3628000000 0.0036216 -0.0222138 0.9963784 0.0222138 0.9963784 0.0222138 0.0036216 -0.0222138
3649000000 0.0036105 -0.0216524 0.9963895 0.0216524 0.9963895 0.0216524 0.0036105 -0.0216524
3670000000 0.0036001 -0.0210951 0.9963999 0.0210951 0.9963999 0.0210951 0.0036001 -0.0210951
3691000000 0.0035906 -0.0205418 0.9964094 0.0205418 0.9964094 0.0205418 0.0035906 -0.0205418
3712000000 0.0035818 -0.0199924 0.9964182 0.0199924 0.9964182 0.0199924 0.0035818 -0.0199924
3733000000 0.0035737 -0.0194469 0.9964263 0.0194469 0.9964263 0.0194469 0.0035737 -0.0194469
3754000000 0.0035664 -0.0189051 0.9964336 0.0189051 0.9964336 0.0189051 0.0035664 -0.0189051
3775000000 0.0035598 -0.0183671 0.9964402 0.0183671 0.9964402 0.0183671 0.0035598 -0.0183671
3796000000 0.0035538 -0.0178328 0.9964462 0.0178328 0.9964462 0.0178328 0.0035538 -0.0178328
3817000000 0.0035486 -0.0173021 0.9964514 0.0173021 0.9964514 0.0173021 0.0035486 -0.0173021
3838000000 0.0035440 -0.0167749 0.9964560 0.0167749 0.9964560 0.0167749 0.0035440 -0.0167749
3859000000 0.0035401 -0.0162513 0.9964599 0.0162513 0.9964599 0.0162513 0.0035401 -0.0162513
3880000000 0.0035369 -0.0157311 0.9964631 0.0157311 0.9964631 0.0157311 0.0035369 -0.0157311
3901000000 0.0035343 -0.0152142 0.9964657 0.0152142 0.9964657 0.0152142 0.0035343 -0.0152142
3922000000 0.0035323 -0.0147008 0.9964677 0.0147008 0.9964677 0.0147008 0.0035323 -0.0147008
3943000000 0.0035309 -0.0141906 0.9964691 0.0141906 0.9964691 0.0141906 0.0035309 -0.0141906
3964000000 0.0035301 -0.0136837 0.9964699 0.0136837 0.9964699 0.0136837 0.0035301 -0.0136837
3985000000 0.0035299 -0.0131799 0.9964701 0.0131799 0.9964701 0.0131799 0.0035299 -0.0131799
4006000000 0.0035302 -0.0126793 0.9964698 0.0126793 0.9964698 0.0126793 0.0035302 -0.0126793
4027000000 0.0035311 -0.0121818 0.9964689 0.0121818 0.9964689 0.0121818 0.0035311 -0.0121818
4048000000 0.0035326 -0.0116874 0.9964674 0.0116874 0.9964674 0.0116874 0.0035326 -0.0116874
4069000000 0.0035346 -0.0111959 0.9964654 0.0111959 0.9964654 0.0111959 0.0035346 -0.0111959
4090000000 0.0035372 -0.0107074 0.9964628 0.0107074 0.9964628 0.0107074 0.0035372 -0.0107074
4111000000 0.0035402 -0.0102219 0.9964598 0.0102219 0.9964598 0.0102219 0.0035402 -0.0102219
4132000000 0.0035438 -0.0097391 0.9964562 0.0097391 0.9964562 0.0097391 0.0035438 -0.0097391
4153000000 0.0035479 -0.0092593 0.9964521 0.0092593 0.9964521 0.0092593 0.0035479 -0.0092593
4174000000 0.0035524 -0.0087822 0.9964476 0.0087822 0.9964476 0.0087822 0.0035524 -0.0087822
4195000000 0.0035575 -0.0083078 0.9964425 0.0083078 0.9964425 0.0083078 0.0035575 -0.0083078
4216000000 0.0035630 -0.0078362 0.9964370 0.0078362 0.9964370 0.0078362 0.0035630 -0.0078362
4237000000 0.0035690 -0.0073672 0.9964310 0.0073672 0.9964310 0.0073672 0.0035690 -0.0073672
4258000000 0.0035755 -0.0069009 0.9964245 0.0069009 0.9964245 0.0069009 0.0035755 -0.0069009
4279000000 0.0035824 -0.0064372 0.9964176 0.0064372 0.9964176 0.0064372 0.0035824 -0.0064372
4300000000 0.0035897 -0.0059760 0.9964103 0.0059760 0.9964103 0.0059760 0.0035897 -0.0059760
4321000000 0.0035975 -0.0055173 0.9964025 0.0055173 0.9964025 0.0055173 0.0035975 -0.0055173
4342000000 0.0036056 -0.0050611 0.9963944 0.0050611 0.9963944 0.0050611 0.0036056 -0.0050611
4363000000 0.0036143 -0.0046074 0.9963857 0.0046074 0.9963857 0.0046074 0.0036143 -0.0046074
4384000000 0.0036233 -0.0041561 0.9963767 0.0041561 0.9963767 0.0041561 0.0036233 -0.0041561
4405000000 0.0036327 -0.0037072 0.9963673 0.0037072 0.9963673 0.0037072 0.0036327 -0.0037072
4426000000 0.0036425 -0.0032606 0.9963575 0.0032606 0.9963575 0.0032606 0.0036425 -0.0032606
4447000000 0.0036527 -0.0028164 0.9963473 0.0028164 0.9963473 0.0028164 0.0036527 -0.0028164
4468000000 0.0036633 -0.0023744 0.9963367 0.0023744 0.9963367 0.0023744 0.0036633 -0.0023744
4489000000 0.0036743 -0.0019347 0.9963257 0.0019347 0.9963257 0.0019347 0.0036743 -0.0019347
4510000000 0.0036857 -0.0014972 0.9963143 0.0014972 0.9963143 0.0014972 0.0036857 -0.0014972
