!Murata Part Number: GRM0225C1H2R8CA03
!These Parameters are Measured in Series Mode Connection
!Data Generated on Mar 30, 2021
!       o--ll--o
!Port1            Port2
!       o------o
!Operation Temp=25[degC], DC Bias Voltage=0[V]
!Freq. Start=100[MHz] Stop=9[GHz] 401[Steps]
# Hz S RI R 50
!Freq.(Hz) S11(Real) S11(Imag) S21(Real) S21(Imag) S12(Real) S12(Imag) S22(Real) S22(Imag)
100000000 0.9699074 -0.1706591 0.0300926 0.1706591 0.0300926 0.1706591 0.9699074 -0.1706591
121000000 0.9565413 -0.2036652 0.0434587 0.2036652 0.0434587 0.2036652 0.9565413 -0.2036652
142000000 0.9411020 -0.2351724 0.0588980 0.2351724 0.0588980 0.2351724 0.9411020 -0.2351724
163000000 0.9238025 -0.2650129 0.0761975 0.2650129 0.0761975 0.2650129 0.9238025 -0.2650129
184000000 0.9048694 -0.2930543 0.0951306 0.2930543 0.0951306 0.2930543 0.9048694 -0.2930543
205000000 0.8845358 -0.3192000 0.1154642 0.3192000 0.1154642 0.3192000 0.8845358 -0.3192000
226000000 0.8630354 -0.3433878 0.1369646 0.3433878 0.1369646 0.3433878 0.8630354 -0.3433878
247000000 0.8405970 -0.3655879 0.1594030 0.3655879 0.1594030 0.3655879 0.8405970 -0.3655879
268000000 0.8174402 -0.3857996 0.1825598 0.3857996 0.1825598 0.3857996 0.8174402 -0.3857996
289000000 0.7937717 -0.4040483 0.2062283 0.4040483 0.2062283 0.4040483 0.7937717 -0.4040483
310000000 0.7697824 -0.4203808 0.2302176 0.4203808 0.2302176 0.4203808 0.7697824 -0.4203808
331000000 0.7456461 -0.4348625 0.2543539 0.4348625 0.2543539 0.4348625 0.7456461 -0.4348625
352000000 0.7215179 -0.4475725 0.2784821 0.4475725 0.2784821 0.4475725 0.7215179 -0.4475725
373000000 0.6975347 -0.4586011 0.3024653 0.4586011 0.3024653 0.4586011 0.6975347 -0.4586011
394000000 0.6738148 -0.4680455 0.3261852 0.4680455 0.3261852 0.4680455 0.6738148 -0.4680455
415000000 0.6504587 -0.4760080 0.3495413 0.4760080 0.3495413 0.4760080 0.6504587 -0.4760080
436000000 0.6275506 -0.4825927 0.3724494 0.4825927 0.3724494 0.4825927 0.6275506 -0.4825927
457000000 0.6051591 -0.4879039 0.3948409 0.4879039 0.3948409 0.4879039 0.6051591 -0.4879039
478000000 0.5833389 -0.4920442 0.4166611 0.4920442 0.4166611 0.4920442 0.5833389 -0.4920442
499000000 0.5621321 -0.4951133 0.4378679 0.4951133 0.4378679 0.4951133 0.5621321 -0.4951133
520000000 0.5415698 -0.4972071 0.4584302 0.4972071 0.4584302 0.4972071 0.5415698 -0.4972071
541000000 0.5216732 -0.4984169 0.4783268 0.4984169 0.4783268 0.4984169 0.5216732 -0.4984169
562000000 0.5024553 -0.4988286 0.4975447 0.4988286 0.4975447 0.4988286 0.5024553 -0.4988286
583000000 0.4839218 -0.4985230 0.5160782 0.4985230 0.5160782 0.4985230 0.4839218 -0.4985230
604000000 0.4660726 -0.4975754 0.5339274 0.4975754 0.5339274 0.4975754 0.4660726 -0.4975754
625000000 0.4489022 -0.4960552 0.5510978 0.4960552 0.5510978 0.4960552 0.4489022 -0.4960552
646000000 0.4324013 -0.4940269 0.5675987 0.4940269 0.5675987 0.4940269 0.4324013 -0.4940269
667000000 0.4165573 -0.4915494 0.5834427 0.4915494 0.5834427 0.4915494 0.4165573 -0.4915494
688000000 0.4013546 -0.4886766 0.5986454 0.4886766 0.5986454 0.4886766 0.4013546 -0.4886766
709000000 0.3867761 -0.4854578 0.6132239 0.4854578 0.6132239 0.4854578 0.3867761 -0.4854578
730000000 0.3728027 -0.4819377 0.6271973 0.4819377 0.6271973 0.4819377 0.3728027 -0.4819377
751000000 0.3594146 -0.4781567 0.6405854 0.4781567 0.6405854 0.4781567 0.3594146 -0.4781567
772000000 0.3465911 -0.4741517 0.6534089 0.4741517 0.6534089 0.4741517 0.3465911 -0.4741517
793000000 0.3343111 -0.4699555 0.6656889 0.4699555 0.6656889 0.4699555 0.3343111 -0.4699555
814000000 0.3225533 -0.4655979 0.6774467 0.4655979 0.6774467 0.4655979 0.3225533 -0.4655979
835000000 0.3112968 -0.4611057 0.6887032 0.4611057 0.6887032 0.4611057 0.3112968 -0.4611057
856000000 0.3005204 -0.4565027 0.6994796 0.4565027 0.6994796 0.4565027 0.3005204 -0.4565027
877000000 0.2902036 -0.4518105 0.7097964 0.4518105 0.7097964 0.4518105 0.2902036 -0.4518105
898000000 0.2803263 -0.4470480 0.7196737 0.4470480 0.7196737 0.4470480 0.2803263 -0.4470480
919000000 0.2708689 -0.4422323 0.7291311 0.4422323 0.7291311 0.4422323 0.2708689 -0.4422323
940000000 0.2618125 -0.4373785 0.7381875 0.4373785 0.7381875 0.4373785 0.2618125 -0.4373785
961000000 0.2531387 -0.4325001 0.7468613 0.4325001 0.7468613 0.4325001 0.2531387 -0.4325001
982000000 0.2448299 -0.4276089 0.7551701 0.4276089 0.7551701 0.4276089 0.2448299 -0.4276089
1003000000 0.2368690 -0.4227155 0.7631310 0.4227155 0.7631310 0.4227155 0.2368690 -0.4227155
1024000000 0.2292398 -0.4178290 0.7707602 0.4178290 0.7707602 0.4178290 0.2292398 -0.4178290
1045000000 0.2219268 -0.4129576 0.7780732 0.4129576 0.7780732 0.4129576 0.2219268 -0.4129576
1066000000 0.2149150 -0.4081084 0.7850850 0.4081084 0.7850850 0.4081084 0.2149150 -0.4081084
1087000000 0.2081902 -0.4032877 0.7918098 0.4032877 0.7918098 0.4032877 0.2081902 -0.4032877
1108000000 0.2017388 -0.3985007 0.7982612 0.3985007 0.7982612 0.3985007 0.2017388 -0.3985007
1129000000 0.1955480 -0.3937521 0.8044520 0.3937521 0.8044520 0.3937521 0.1955480 -0.3937521
1150000000 0.1896054 -0.3890460 0.8103946 0.3890460 0.8103946 0.3890460 0.1896054 -0.3890460
1171000000 0.1838993 -0.3843858 0.8161007 0.3843858 0.8161007 0.3843858 0.1838993 -0.3843858
1192000000 0.1784187 -0.3797745 0.8215813 0.3797745 0.8215813 0.3797745 0.1784187 -0.3797745
1213000000 0.1731528 -0.3752144 0.8268472 0.3752144 0.8268472 0.3752144 0.1731528 -0.3752144
1234000000 0.1680918 -0.3707075 0.8319082 0.3707075 0.8319082 0.3707075 0.1680918 -0.3707075
1255000000 0.1632260 -0.3662557 0.8367740 0.3662557 0.8367740 0.3662557 0.1632260 -0.3662557
1276000000 0.1585464 -0.3618602 0.8414536 0.3618602 0.8414536 0.3618602 0.1585464 -0.3618602
1297000000 0.1540445 -0.3575220 0.8459555 0.3575220 0.8459555 0.3575220 0.1540445 -0.3575220
1318000000 0.1497119 -0.3532419 0.8502881 0.3532419 0.8502881 0.3532419 0.1497119 -0.3532419
1339000000 0.1455411 -0.3490206 0.8544589 0.3490206 0.8544589 0.3490206 0.1455411 -0.3490206
1360000000 0.1415247 -0.3448584 0.8584753 0.3448584 0.8584753 0.3448584 0.1415247 -0.3448584
1381000000 0.1376557 -0.3407555 0.8623443 0.3407555 0.8623443 0.3407555 0.1376557 -0.3407555
1402000000 0.1339274 -0.3367119 0.8660726 0.3367119 0.8660726 0.3367119 0.1339274 -0.3367119
1423000000 0.1303336 -0.3327275 0.8696664 0.3327275 0.8696664 0.3327275 0.1303336 -0.3327275
1444000000 0.1268683 -0.3288021 0.8731317 0.3288021 0.8731317 0.3288021 0.1268683 -0.3288021
1465000000 0.1235259 -0.3249353 0.8764741 0.3249353 0.8764741 0.3249353 0.1235259 -0.3249353
1486000000 0.1203010 -0.3211268 0.8796990 0.3211268 0.8796990 0.3211268 0.1203010 -0.3211268
1507000000 0.1171884 -0.3173760 0.8828116 0.3173760 0.8828116 0.3173760 0.1171884 -0.3173760
1528000000 0.1141834 -0.3136824 0.8858166 0.3136824 0.8858166 0.3136824 0.1141834 -0.3136824
1549000000 0.1112813 -0.3100454 0.8887187 0.3100454 0.8887187 0.3100454 0.1112813 -0.3100454
1570000000 0.1084777 -0.3064642 0.8915223 0.3064642 0.8915223 0.3064642 0.1084777 -0.3064642
1591000000 0.1057685 -0.3029381 0.8942315 0.3029381 0.8942315 0.3029381 0.1057685 -0.3029381
1612000000 0.1031497 -0.2994664 0.8968503 0.2994664 0.8968503 0.2994664 0.1031497 -0.2994664
1633000000 0.1006176 -0.2960484 0.8993824 0.2960484 0.8993824 0.2960484 0.1006176 -0.2960484
1654000000 0.0981685 -0.2926831 0.9018315 0.2926831 0.9018315 0.2926831 0.0981685 -0.2926831
1675000000 0.0957991 -0.2893698 0.9042009 0.2893698 0.9042009 0.2893698 0.0957991 -0.2893698
1696000000 0.0935061 -0.2861077 0.9064939 0.2861077 0.9064939 0.2861077 0.0935061 -0.2861077
1717000000 0.0912864 -0.2828958 0.9087136 0.2828958 0.9087136 0.2828958 0.0912864 -0.2828958
1738000000 0.0891370 -0.2797334 0.9108630 0.2797334 0.9108630 0.2797334 0.0891370 -0.2797334
1759000000 0.0870553 -0.2766195 0.9129447 0.2766195 0.9129447 0.2766195 0.0870553 -0.2766195
1780000000 0.0850384 -0.2735534 0.9149616 0.2735534 0.9149616 0.2735534 0.0850384 -0.2735534
1801000000 0.0830840 -0.2705340 0.9169160 0.2705340 0.9169160 0.2705340 0.0830840 -0.2705340
1822000000 0.0811894 -0.2675607 0.9188106 0.2675607 0.9188106 0.2675607 0.0811894 -0.2675607
1843000000 0.0793525 -0.2646325 0.9206475 0.2646325 0.9206475 0.2646325 0.0793525 -0.2646325
1864000000 0.0775710 -0.2617485 0.9224290 0.2617485 0.9224290 0.2617485 0.0775710 -0.2617485
1885000000 0.0758427 -0.2589080 0.9241573 0.2589080 0.9241573 0.2589080 0.0758427 -0.2589080
1906000000 0.0741658 -0.2561100 0.9258342 0.2561100 0.9258342 0.2561100 0.0741658 -0.2561100
1927000000 0.0725383 -0.2533539 0.9274617 0.2533539 0.9274617 0.2533539 0.0725383 -0.2533539
1948000000 0.0709583 -0.2506386 0.9290417 0.2506386 0.9290417 0.2506386 0.0709583 -0.2506386
1969000000 0.0694240 -0.2479636 0.9305760 0.2479636 0.9305760 0.2479636 0.0694240 -0.2479636
1990000000 0.0679339 -0.2453279 0.9320661 0.2453279 0.9320661 0.2453279 0.0679339 -0.2453279
2011000000 0.0664863 -0.2427307 0.9335137 0.2427307 0.9335137 0.2427307 0.0664863 -0.2427307
2032000000 0.0650796 -0.2401714 0.9349204 0.2401714 0.9349204 0.2401714 0.0650796 -0.2401714
2053000000 0.0637124 -0.2376492 0.9362876 0.2376492 0.9362876 0.2376492 0.0637124 -0.2376492
2074000000 0.0623834 -0.2351632 0.9376166 0.2351632 0.9376166 0.2351632 0.0623834 -0.2351632
2095000000 0.0610911 -0.2327129 0.9389089 0.2327129 0.9389089 0.2327129 0.0610911 -0.2327129
2116000000 0.0598343 -0.2302974 0.9401657 0.2302974 0.9401657 0.2302974 0.0598343 -0.2302974
2137000000 0.0586117 -0.2279162 0.9413883 0.2279162 0.9413883 0.2279162 0.0586117 -0.2279162
2158000000 0.0574222 -0.2255684 0.9425778 0.2255684 0.9425778 0.2255684 0.0574222 -0.2255684
2179000000 0.0562646 -0.2232534 0.9437354 0.2232534 0.9437354 0.2232534 0.0562646 -0.2232534
2200000000 0.0551378 -0.2209706 0.9448622 0.2209706 0.9448622 0.2209706 0.0551378 -0.2209706
2221000000 0.0540409 -0.2187193 0.9459591 0.2187193 0.9459591 0.2187193 0.0540409 -0.2187193
2242000000 0.0529728 -0.2164988 0.9470272 0.2164988 0.9470272 0.2164988 0.0529728 -0.2164988
2263000000 0.0519325 -0.2143087 0.9480675 0.2143087 0.9480675 0.2143087 0.0519325 -0.2143087
2284000000 0.0509191 -0.2121482 0.9490809 0.2121482 0.9490809 0.2121482 0.0509191 -0.2121482
2305000000 0.0499319 -0.2100167 0.9500681 0.2100167 0.9500681 0.2100167 0.0499319 -0.2100167
2326000000 0.0489698 -0.2079138 0.9510302 0.2079138 0.9510302 0.2079138 0.0489698 -0.2079138
2347000000 0.0480321 -0.2058387 0.9519679 0.2058387 0.9519679 0.2058387 0.0480321 -0.2058387
2368000000 0.0471180 -0.2037910 0.9528820 0.2037910 0.9528820 0.2037910 0.0471180 -0.2037910
2389000000 0.0462268 -0.2017702 0.9537732 0.2017702 0.9537732 0.2017702 0.0462268 -0.2017702
2410000000 0.0453577 -0.1997756 0.9546423 0.1997756 0.9546423 0.1997756 0.0453577 -0.1997756
2431000000 0.0445101 -0.1978068 0.9554899 0.1978068 0.9554899 0.1978068 0.0445101 -0.1978068
2452000000 0.0436832 -0.1958632 0.9563168 0.1958632 0.9563168 0.1958632 0.0436832 -0.1958632
2473000000 0.0428765 -0.1939444 0.9571235 0.1939444 0.9571235 0.1939444 0.0428765 -0.1939444
2494000000 0.0420893 -0.1920499 0.9579107 0.1920499 0.9579107 0.1920499 0.0420893 -0.1920499
2515000000 0.0413211 -0.1901793 0.9586789 0.1901793 0.9586789 0.1901793 0.0413211 -0.1901793
2536000000 0.0405712 -0.1883319 0.9594288 0.1883319 0.9594288 0.1883319 0.0405712 -0.1883319
2557000000 0.0398391 -0.1865075 0.9601609 0.1865075 0.9601609 0.1865075 0.0398391 -0.1865075
2578000000 0.0391242 -0.1847055 0.9608758 0.1847055 0.9608758 0.1847055 0.0391242 -0.1847055
2599000000 0.0384261 -0.1829255 0.9615739 0.1829255 0.9615739 0.1829255 0.0384261 -0.1829255
2620000000 0.0377443 -0.1811671 0.9622557 0.1811671 0.9622557 0.1811671 0.0377443 -0.1811671
2641000000 0.0370783 -0.1794299 0.9629217 0.1794299 0.9629217 0.1794299 0.0370783 -0.1794299
2662000000 0.0364276 -0.1777135 0.9635724 0.1777135 0.9635724 0.1777135 0.0364276 -0.1777135
2683000000 0.0357918 -0.1760174 0.9642082 0.1760174 0.9642082 0.1760174 0.0357918 -0.1760174
2704000000 0.0351705 -0.1743414 0.9648295 0.1743414 0.9648295 0.1743414 0.0351705 -0.1743414
2725000000 0.0345632 -0.1726850 0.9654368 0.1726850 0.9654368 0.1726850 0.0345632 -0.1726850
2746000000 0.0339696 -0.1710479 0.9660304 0.1710479 0.9660304 0.1710479 0.0339696 -0.1710479
2767000000 0.0333892 -0.1694296 0.9666108 0.1694296 0.9666108 0.1694296 0.0333892 -0.1694296
2788000000 0.0328218 -0.1678299 0.9671782 0.1678299 0.9671782 0.1678299 0.0328218 -0.1678299
2809000000 0.0322669 -0.1662485 0.9677331 0.1662485 0.9677331 0.1662485 0.0322669 -0.1662485
2830000000 0.0317242 -0.1646848 0.9682758 0.1646848 0.9682758 0.1646848 0.0317242 -0.1646848
2851000000 0.0311933 -0.1631388 0.9688067 0.1631388 0.9688067 0.1631388 0.0311933 -0.1631388
2872000000 0.0306740 -0.1616099 0.9693260 0.1616099 0.9693260 0.1616099 0.0306740 -0.1616099
2893000000 0.0301660 -0.1600980 0.9698340 0.1600980 0.9698340 0.1600980 0.0301660 -0.1600980
2914000000 0.0296688 -0.1586026 0.9703312 0.1586026 0.9703312 0.1586026 0.0296688 -0.1586026
2935000000 0.0291824 -0.1571236 0.9708176 0.1571236 0.9708176 0.1571236 0.0291824 -0.1571236
2956000000 0.0287062 -0.1556606 0.9712938 0.1556606 0.9712938 0.1556606 0.0287062 -0.1556606
2977000000 0.0282402 -0.1542133 0.9717598 0.1542133 0.9717598 0.1542133 0.0282402 -0.1542133
2998000000 0.0277840 -0.1527814 0.9722160 0.1527814 0.9722160 0.1527814 0.0277840 -0.1527814
3019000000 0.0273373 -0.1513647 0.9726627 0.1513647 0.9726627 0.1513647 0.0273373 -0.1513647
3040000000 0.0269000 -0.1499629 0.9731000 0.1499629 0.9731000 0.1499629 0.0269000 -0.1499629
3061000000 0.0264718 -0.1485758 0.9735282 0.1485758 0.9735282 0.1485758 0.0264718 -0.1485758
3082000000 0.0260524 -0.1472030 0.9739476 0.1472030 0.9739476 0.1472030 0.0260524 -0.1472030
3103000000 0.0256416 -0.1458444 0.9743584 0.1458444 0.9743584 0.1458444 0.0256416 -0.1458444
3124000000 0.0252393 -0.1444996 0.9747607 0.1444996 0.9747607 0.1444996 0.0252393 -0.1444996
3145000000 0.0248451 -0.1431685 0.9751549 0.1431685 0.9751549 0.1431685 0.0248451 -0.1431685
3166000000 0.0244590 -0.1418509 0.9755410 0.1418509 0.9755410 0.1418509 0.0244590 -0.1418509
3187000000 0.0240806 -0.1405464 0.9759194 0.1405464 0.9759194 0.1405464 0.0240806 -0.1405464
3208000000 0.0237099 -0.1392548 0.9762901 0.1392548 0.9762901 0.1392548 0.0237099 -0.1392548
3229000000 0.0233465 -0.1379760 0.9766535 0.1379760 0.9766535 0.1379760 0.0233465 -0.1379760
3250000000 0.0229905 -0.1367098 0.9770095 0.1367098 0.9770095 0.1367098 0.0229905 -0.1367098
3271000000 0.0226415 -0.1354558 0.9773585 0.1354558 0.9773585 0.1354558 0.0226415 -0.1354558
3292000000 0.0222993 -0.1342140 0.9777007 0.1342140 0.9777007 0.1342140 0.0222993 -0.1342140
3313000000 0.0219640 -0.1329841 0.9780360 0.1329841 0.9780360 0.1329841 0.0219640 -0.1329841
3334000000 0.0216351 -0.1317659 0.9783649 0.1317659 0.9783649 0.1317659 0.0216351 -0.1317659
3355000000 0.0213128 -0.1305592 0.9786872 0.1305592 0.9786872 0.1305592 0.0213128 -0.1305592
3376000000 0.0209966 -0.1293638 0.9790034 0.1293638 0.9790034 0.1293638 0.0209966 -0.1293638
3397000000 0.0206866 -0.1281796 0.9793134 0.1281796 0.9793134 0.1281796 0.0206866 -0.1281796
3418000000 0.0203826 -0.1270063 0.9796174 0.1270063 0.9796174 0.1270063 0.0203826 -0.1270063
3439000000 0.0200845 -0.1258438 0.9799155 0.1258438 0.9799155 0.1258438 0.0200845 -0.1258438
3460000000 0.0197920 -0.1246920 0.9802080 0.1246920 0.9802080 0.1246920 0.0197920 -0.1246920
3481000000 0.0195051 -0.1235505 0.9804949 0.1235505 0.9804949 0.1235505 0.0195051 -0.1235505
3502000000 0.0192237 -0.1224194 0.9807763 0.1224194 0.9807763 0.1224194 0.0192237 -0.1224194
3523000000 0.0189476 -0.1212984 0.9810524 0.1212984 0.9810524 0.1212984 0.0189476 -0.1212984
3544000000 0.0186767 -0.1201873 0.9813233 0.1201873 0.9813233 0.1201873 0.0186767 -0.1201873
3565000000 0.0184110 -0.1190860 0.9815890 0.1190860 0.9815890 0.1190860 0.0184110 -0.1190860
3586000000 0.0181502 -0.1179943 0.9818498 0.1179943 0.9818498 0.1179943 0.0181502 -0.1179943
3607000000 0.0178943 -0.1169122 0.9821057 0.1169122 0.9821057 0.1169122 0.0178943 -0.1169122
3628000000 0.0176431 -0.1158394 0.9823569 0.1158394 0.9823569 0.1158394 0.0176431 -0.1158394
3649000000 0.0173966 -0.1147757 0.9826034 0.1147757 0.9826034 0.1147757 0.0173966 -0.1147757
3670000000 0.0171547 -0.1137212 0.9828453 0.1137212 0.9828453 0.1137212 0.0171547 -0.1137212
3691000000 0.0169173 -0.1126755 0.9830827 0.1126755 0.9830827 0.1126755 0.0169173 -0.1126755
3712000000 0.0166842 -0.1116387 0.9833158 0.1116387 0.9833158 0.1116387 0.0166842 -0.1116387
3733000000 0.0164554 -0.1106104 0.9835446 0.1106104 0.9835446 0.1106104 0.0164554 -0.1106104
3754000000 0.0162308 -0.1095907 0.9837692 0.1095907 0.9837692 0.1095907 0.0162308 -0.1095907
3775000000 0.0160102 -0.1085794 0.9839898 0.1085794 0.9839898 0.1085794 0.0160102 -0.1085794
3796000000 0.0157937 -0.1075764 0.9842063 0.1075764 0.9842063 0.1075764 0.0157937 -0.1075764
3817000000 0.0155812 -0.1065815 0.9844188 0.1065815 0.9844188 0.1065815 0.0155812 -0.1065815
3838000000 0.0153725 -0.1055946 0.9846275 0.1055946 0.9846275 0.1055946 0.0153725 -0.1055946
3859000000 0.0151675 -0.1046156 0.9848325 0.1046156 0.9848325 0.1046156 0.0151675 -0.1046156
3880000000 0.0149663 -0.1036444 0.9850337 0.1036444 0.9850337 0.1036444 0.0149663 -0.1036444
3901000000 0.0147686 -0.1026808 0.9852314 0.1026808 0.9852314 0.1026808 0.0147686 -0.1026808
3922000000 0.0145745 -0.1017249 0.9854255 0.1017249 0.9854255 0.1017249 0.0145745 -0.1017249
3943000000 0.0143839 -0.1007763 0.9856161 0.1007763 0.9856161 0.1007763 0.0143839 -0.1007763
3964000000 0.0141967 -0.0998351 0.9858033 0.0998351 0.9858033 0.0998351 0.0141967 -0.0998351
3985000000 0.0140128 -0.0989012 0.9859872 0.0989012 0.9859872 0.0989012 0.0140128 -0.0989012
4006000000 0.0138322 -0.0979743 0.9861678 0.0979743 0.9861678 0.0979743 0.0138322 -0.0979743
4027000000 0.0136548 -0.0970545 0.9863452 0.0970545 0.9863452 0.0970545 0.0136548 -0.0970545
4048000000 0.0134806 -0.0961416 0.9865194 0.0961416 0.9865194 0.0961416 0.0134806 -0.0961416
4069000000 0.0133094 -0.0952356 0.9866906 0.0952356 0.9866906 0.0952356 0.0133094 -0.0952356
4090000000 0.0131413 -0.0943363 0.9868587 0.0943363 0.9868587 0.0943363 0.0131413 -0.0943363
4111000000 0.0129761 -0.0934436 0.9870239 0.0934436 0.9870239 0.0934436 0.0129761 -0.0934436
4132000000 0.0128138 -0.0925574 0.9871862 0.0925574 0.9871862 0.0925574 0.0128138 -0.0925574
4153000000 0.0126544 -0.0916778 0.9873456 0.0916778 0.9873456 0.0916778 0.0126544 -0.0916778
4174000000 0.0124977 -0.0908045 0.9875023 0.0908045 0.9875023 0.0908045 0.0124977 -0.0908045
4195000000 0.0123439 -0.0899374 0.9876561 0.0899374 0.9876561 0.0899374 0.0123439 -0.0899374
4216000000 0.0121927 -0.0890766 0.9878073 0.0890766 0.9878073 0.0890766 0.0121927 -0.0890766
4237000000 0.0120441 -0.0882218 0.9879559 0.0882218 0.9879559 0.0882218 0.0120441 -0.0882218
4258000000 0.0118982 -0.0873731 0.9881018 0.0873731 0.9881018 0.0873731 0.0118982 -0.0873731
4279000000 0.0117548 -0.0865303 0.9882452 0.0865303 0.9882452 0.0865303 0.0117548 -0.0865303
4300000000 0.0116138 -0.0856934 0.9883862 0.0856934 0.9883862 0.0856934 0.0116138 -0.0856934
4321000000 0.0114754 -0.0848623 0.9885246 0.0848623 0.9885246 0.0848623 0.0114754 -0.0848623
4342000000 0.0113393 -0.0840368 0.9886607 0.0840368 0.9886607 0.0840368 0.0113393 -0.0840368
4363000000 0.0112057 -0.0832170 0.9887943 0.0832170 0.9887943 0.0832170 0.0112057 -0.0832170
4384000000 0.0110743 -0.0824028 0.9889257 0.0824028 0.9889257 0.0824028 0.0110743 -0.0824028
4405000000 0.0109452 -0.0815940 0.9890548 0.0815940 0.9890548 0.0815940 0.0109452 -0.0815940
4426000000 0.0108184 -0.0807906 0.9891816 0.0807906 0.9891816 0.0807906 0.0108184 -0.0807906
4447000000 0.0106937 -0.0799926 0.9893063 0.0799926 0.9893063 0.0799926 0.0106937 -0.0799926
4468000000 0.0105713 -0.0791998 0.9894287 0.0791998 0.9894287 0.0791998 0.0105713 -0.0791998
4489000000 0.0104509 -0.0784123 0.9895491 0.0784123 0.9895491 0.0784123 0.0104509 -0.0784123
4510000000 0.0103326 -0.0776298 0.9896674 0.0776298 0.9896674 0.0776298 0.0103326 -0.0776298
