!Murata Part Number: GRM0222C1H7R3CA03
!These Parameters are Measured in Series Mode Connection
!Data Generated on Mar 30, 2021
!       o--ll--o
!Port1            Port2
!       o------o
!Operation Temp=25[degC], DC Bias Voltage=0[V]
!Freq. Start=100[MHz] Stop=9[GHz] 401[Steps]
# Hz S RI R 50
!Freq.(Hz) S11(Real) S11(Imag) S21(Real) S21(Imag) S12(Real) S12(Imag) S22(Real) S22(Imag)
100000000 0.8258821 -0.3788873 0.1741179 0.3788873 0.1741179 0.3788873 0.8258821 -0.3788873
121000000 0.7640745 -0.4241840 0.2359255 0.4241840 0.2359255 0.4241840 0.7640745 -0.4241840
142000000 0.7015488 -0.4571181 0.2984512 0.4571181 0.2984512 0.4571181 0.7015488 -0.4571181
163000000 0.6406954 -0.4792675 0.3593046 0.4792675 0.3593046 0.4792675 0.6406954 -0.4792675
184000000 0.5830961 -0.4924486 0.4169039 0.4924486 0.4169039 0.4924486 0.5830961 -0.4924486
205000000 0.5296576 -0.4984523 0.4703424 0.4984523 0.4703424 0.4984523 0.5296576 -0.4984523
226000000 0.4807795 -0.4988934 0.5192205 0.4988934 0.5192205 0.4988934 0.4807795 -0.4988934
247000000 0.4365126 -0.4951460 0.5634874 0.4951460 0.5634874 0.4951460 0.4365126 -0.4951460
268000000 0.3966873 -0.4883327 0.6033127 0.4883327 0.6033127 0.4883327 0.3966873 -0.4883327
289000000 0.3610084 -0.4793447 0.6389916 0.4793447 0.6389916 0.4793447 0.3610084 -0.4793447
310000000 0.3291206 -0.4688743 0.6708794 0.4688743 0.6708794 0.4688743 0.3291206 -0.4688743
331000000 0.3006507 -0.4574497 0.6993493 0.4574497 0.6993493 0.4574497 0.3006507 -0.4574497
352000000 0.2752333 -0.4454681 0.7247667 0.4454681 0.7247667 0.4454681 0.2752333 -0.4454681
373000000 0.2525254 -0.4332243 0.7474746 0.4332243 0.7474746 0.4332243 0.2525254 -0.4332243
394000000 0.2322132 -0.4209341 0.7677868 0.4209341 0.7677868 0.4209341 0.2322132 -0.4209341
415000000 0.2140148 -0.4087528 0.7859852 0.4087528 0.7859852 0.4087528 0.2140148 -0.4087528
436000000 0.1976797 -0.3967901 0.8023203 0.3967901 0.8023203 0.3967901 0.1976797 -0.3967901
457000000 0.1829871 -0.3851212 0.8170129 0.3851212 0.8170129 0.3851212 0.1829871 -0.3851212
478000000 0.1697432 -0.3737960 0.8302568 0.3737960 0.8302568 0.3737960 0.1697432 -0.3737960
499000000 0.1577785 -0.3628451 0.8422215 0.3628451 0.8422215 0.3628451 0.1577785 -0.3628451
520000000 0.1469452 -0.3522853 0.8530548 0.3522853 0.8530548 0.3522853 0.1469452 -0.3522853
541000000 0.1371142 -0.3421232 0.8628858 0.3421232 0.8628858 0.3421232 0.1371142 -0.3421232
562000000 0.1281728 -0.3323578 0.8718272 0.3323578 0.8718272 0.3323578 0.1281728 -0.3323578
583000000 0.1200227 -0.3229833 0.8799773 0.3229833 0.8799773 0.3229833 0.1200227 -0.3229833
604000000 0.1125778 -0.3139898 0.8874222 0.3139898 0.8874222 0.3139898 0.1125778 -0.3139898
625000000 0.1057629 -0.3053653 0.8942371 0.3053653 0.8942371 0.3053653 0.1057629 -0.3053653
646000000 0.0995119 -0.2970961 0.9004881 0.2970961 0.9004881 0.2970961 0.0995119 -0.2970961
667000000 0.0937669 -0.2891676 0.9062331 0.2891676 0.9062331 0.2891676 0.0937669 -0.2891676
688000000 0.0884767 -0.2815649 0.9115233 0.2815649 0.9115233 0.2815649 0.0884767 -0.2815649
709000000 0.0835964 -0.2742728 0.9164036 0.2742728 0.9164036 0.2742728 0.0835964 -0.2742728
730000000 0.0790861 -0.2672766 0.9209139 0.2672766 0.9209139 0.2672766 0.0790861 -0.2672766
751000000 0.0749106 -0.2605615 0.9250894 0.2605615 0.9250894 0.2605615 0.0749106 -0.2605615
772000000 0.0710385 -0.2541136 0.9289615 0.2541136 0.9289615 0.2541136 0.0710385 -0.2541136
793000000 0.0674422 -0.2479192 0.9325578 0.2479192 0.9325578 0.2479192 0.0674422 -0.2479192
814000000 0.0640967 -0.2419654 0.9359033 0.2419654 0.9359033 0.2419654 0.0640967 -0.2419654
835000000 0.0609800 -0.2362399 0.9390200 0.2362399 0.9390200 0.2362399 0.0609800 -0.2362399
856000000 0.0580722 -0.2307308 0.9419278 0.2307308 0.9419278 0.2307308 0.0580722 -0.2307308
877000000 0.0553555 -0.2254271 0.9446445 0.2254271 0.9446445 0.2254271 0.0553555 -0.2254271
898000000 0.0528141 -0.2203183 0.9471859 0.2203183 0.9471859 0.2203183 0.0528141 -0.2203183
919000000 0.0504335 -0.2153944 0.9495665 0.2153944 0.9495665 0.2153944 0.0504335 -0.2153944
940000000 0.0482009 -0.2106461 0.9517991 0.2106461 0.9517991 0.2106461 0.0482009 -0.2106461
961000000 0.0461044 -0.2060644 0.9538956 0.2060644 0.9538956 0.2060644 0.0461044 -0.2060644
982000000 0.0441336 -0.2016411 0.9558664 0.2016411 0.9558664 0.2016411 0.0441336 -0.2016411
1003000000 0.0422789 -0.1973683 0.9577211 0.1973683 0.9577211 0.1973683 0.0422789 -0.1973683
1024000000 0.0405315 -0.1932386 0.9594685 0.1932386 0.9594685 0.1932386 0.0405315 -0.1932386
1045000000 0.0388836 -0.1892450 0.9611164 0.1892450 0.9611164 0.1892450 0.0388836 -0.1892450
1066000000 0.0373279 -0.1853811 0.9626721 0.1853811 0.9626721 0.1853811 0.0373279 -0.1853811
1087000000 0.0358579 -0.1816405 0.9641421 0.1816405 0.9641421 0.1816405 0.0358579 -0.1816405
1108000000 0.0344675 -0.1780175 0.9655325 0.1780175 0.9655325 0.1780175 0.0344675 -0.1780175
1129000000 0.0331512 -0.1745066 0.9668488 0.1745066 0.9668488 0.1745066 0.0331512 -0.1745066
1150000000 0.0319041 -0.1711026 0.9680959 0.1711026 0.9680959 0.1711026 0.0319041 -0.1711026
1171000000 0.0307215 -0.1678006 0.9692785 0.1678006 0.9692785 0.1678006 0.0307215 -0.1678006
1192000000 0.0295991 -0.1645960 0.9704009 0.1645960 0.9704009 0.1645960 0.0295991 -0.1645960
1213000000 0.0285331 -0.1614845 0.9714669 0.1614845 0.9714669 0.1614845 0.0285331 -0.1614845
1234000000 0.0275199 -0.1584620 0.9724801 0.1584620 0.9724801 0.1584620 0.0275199 -0.1584620
1255000000 0.0265561 -0.1555245 0.9734439 0.1555245 0.9734439 0.1555245 0.0265561 -0.1555245
1276000000 0.0256387 -0.1526684 0.9743613 0.1526684 0.9743613 0.1526684 0.0256387 -0.1526684
1297000000 0.0247648 -0.1498903 0.9752352 0.1498903 0.9752352 0.1498903 0.0247648 -0.1498903
1318000000 0.0239319 -0.1471868 0.9760681 0.1471868 0.9760681 0.1471868 0.0239319 -0.1471868
1339000000 0.0231375 -0.1445549 0.9768625 0.1445549 0.9768625 0.1445549 0.0231375 -0.1445549
1360000000 0.0223794 -0.1419915 0.9776206 0.1419915 0.9776206 0.1419915 0.0223794 -0.1419915
1381000000 0.0216555 -0.1394940 0.9783445 0.1394940 0.9783445 0.1394940 0.0216555 -0.1394940
1402000000 0.0209637 -0.1370596 0.9790363 0.1370596 0.9790363 0.1370596 0.0209637 -0.1370596
1423000000 0.0203025 -0.1346859 0.9796975 0.1346859 0.9796975 0.1346859 0.0203025 -0.1346859
1444000000 0.0196699 -0.1323704 0.9803301 0.1323704 0.9803301 0.1323704 0.0196699 -0.1323704
1465000000 0.0190646 -0.1301109 0.9809354 0.1301109 0.9809354 0.1301109 0.0190646 -0.1301109
1486000000 0.0184849 -0.1279052 0.9815151 0.1279052 0.9815151 0.1279052 0.0184849 -0.1279052
1507000000 0.0179297 -0.1257514 0.9820703 0.1257514 0.9820703 0.1257514 0.0179297 -0.1257514
1528000000 0.0173975 -0.1236473 0.9826025 0.1236473 0.9826025 0.1236473 0.0173975 -0.1236473
1549000000 0.0168872 -0.1215913 0.9831128 0.1215913 0.9831128 0.1215913 0.0168872 -0.1215913
1570000000 0.0163976 -0.1195815 0.9836024 0.1195815 0.9836024 0.1195815 0.0163976 -0.1195815
1591000000 0.0159278 -0.1176163 0.9840722 0.1176163 0.9840722 0.1176163 0.0159278 -0.1176163
1612000000 0.0154767 -0.1156939 0.9845233 0.1156939 0.9845233 0.1156939 0.0154767 -0.1156939
1633000000 0.0150434 -0.1138130 0.9849566 0.1138130 0.9849566 0.1138130 0.0150434 -0.1138130
1654000000 0.0146271 -0.1119721 0.9853729 0.1119721 0.9853729 0.1119721 0.0146271 -0.1119721
1675000000 0.0142269 -0.1101697 0.9857731 0.1101697 0.9857731 0.1101697 0.0142269 -0.1101697
1696000000 0.0138421 -0.1084046 0.9861579 0.1084046 0.9861579 0.1084046 0.0138421 -0.1084046
1717000000 0.0134719 -0.1066754 0.9865281 0.1066754 0.9865281 0.1066754 0.0134719 -0.1066754
1738000000 0.0131157 -0.1049810 0.9868843 0.1049810 0.9868843 0.1049810 0.0131157 -0.1049810
1759000000 0.0127728 -0.1033202 0.9872272 0.1033202 0.9872272 0.1033202 0.0127728 -0.1033202
1780000000 0.0124427 -0.1016919 0.9875573 0.1016919 0.9875573 0.1016919 0.0124427 -0.1016919
1801000000 0.0121247 -0.1000949 0.9878753 0.1000949 0.9878753 0.1000949 0.0121247 -0.1000949
1822000000 0.0118184 -0.0985284 0.9881816 0.0985284 0.9881816 0.0985284 0.0118184 -0.0985284
1843000000 0.0115231 -0.0969914 0.9884769 0.0969914 0.9884769 0.0969914 0.0115231 -0.0969914
1864000000 0.0112385 -0.0954828 0.9887615 0.0954828 0.9887615 0.0954828 0.0112385 -0.0954828
1885000000 0.0109640 -0.0940018 0.9890360 0.0940018 0.9890360 0.0940018 0.0109640 -0.0940018
1906000000 0.0106993 -0.0925476 0.9893007 0.0925476 0.9893007 0.0925476 0.0106993 -0.0925476
1927000000 0.0104439 -0.0911193 0.9895561 0.0911193 0.9895561 0.0911193 0.0104439 -0.0911193
1948000000 0.0101975 -0.0897161 0.9898025 0.0897161 0.9898025 0.0897161 0.0101975 -0.0897161
1969000000 0.0099597 -0.0883373 0.9900403 0.0883373 0.9900403 0.0883373 0.0099597 -0.0883373
1990000000 0.0097301 -0.0869821 0.9902699 0.0869821 0.9902699 0.0869821 0.0097301 -0.0869821
2011000000 0.0095084 -0.0856499 0.9904916 0.0856499 0.9904916 0.0856499 0.0095084 -0.0856499
2032000000 0.0092942 -0.0843400 0.9907058 0.0843400 0.9907058 0.0843400 0.0092942 -0.0843400
2053000000 0.0090874 -0.0830516 0.9909126 0.0830516 0.9909126 0.0830516 0.0090874 -0.0830516
2074000000 0.0088876 -0.0817843 0.9911124 0.0817843 0.9911124 0.0817843 0.0088876 -0.0817843
2095000000 0.0086945 -0.0805374 0.9913055 0.0805374 0.9913055 0.0805374 0.0086945 -0.0805374
2116000000 0.0085079 -0.0793103 0.9914921 0.0793103 0.9914921 0.0793103 0.0085079 -0.0793103
2137000000 0.0083275 -0.0781024 0.9916725 0.0781024 0.9916725 0.0781024 0.0083275 -0.0781024
2158000000 0.0081531 -0.0769133 0.9918469 0.0769133 0.9918469 0.0769133 0.0081531 -0.0769133
2179000000 0.0079845 -0.0757424 0.9920155 0.0757424 0.9920155 0.0757424 0.0079845 -0.0757424
2200000000 0.0078215 -0.0745892 0.9921785 0.0745892 0.9921785 0.0745892 0.0078215 -0.0745892
2221000000 0.0076638 -0.0734533 0.9923362 0.0734533 0.9923362 0.0734533 0.0076638 -0.0734533
2242000000 0.0075113 -0.0723341 0.9924887 0.0723341 0.9924887 0.0723341 0.0075113 -0.0723341
2263000000 0.0073638 -0.0712313 0.9926362 0.0712313 0.9926362 0.0712313 0.0073638 -0.0712313
2284000000 0.0072211 -0.0701444 0.9927789 0.0701444 0.9927789 0.0701444 0.0072211 -0.0701444
2305000000 0.0070830 -0.0690730 0.9929170 0.0690730 0.9929170 0.0690730 0.0070830 -0.0690730
2326000000 0.0069494 -0.0680166 0.9930506 0.0680166 0.9930506 0.0680166 0.0069494 -0.0680166
2347000000 0.0068202 -0.0669750 0.9931798 0.0669750 0.9931798 0.0669750 0.0068202 -0.0669750
2368000000 0.0066951 -0.0659476 0.9933049 0.0659476 0.9933049 0.0659476 0.0066951 -0.0659476
2389000000 0.0065740 -0.0649343 0.9934260 0.0649343 0.9934260 0.0649343 0.0065740 -0.0649343
2410000000 0.0064569 -0.0639345 0.9935431 0.0639345 0.9935431 0.0639345 0.0064569 -0.0639345
2431000000 0.0063435 -0.0629481 0.9936565 0.0629481 0.9936565 0.0629481 0.0063435 -0.0629481
2452000000 0.0062338 -0.0619745 0.9937662 0.0619745 0.9937662 0.0619745 0.0062338 -0.0619745
2473000000 0.0061276 -0.0610137 0.9938724 0.0610137 0.9938724 0.0610137 0.0061276 -0.0610137
2494000000 0.0060248 -0.0600651 0.9939752 0.0600651 0.9939752 0.0600651 0.0060248 -0.0600651
2515000000 0.0059253 -0.0591286 0.9940747 0.0591286 0.9940747 0.0591286 0.0059253 -0.0591286
2536000000 0.0058291 -0.0582038 0.9941709 0.0582038 0.9941709 0.0582038 0.0058291 -0.0582038
2557000000 0.0057359 -0.0572905 0.9942641 0.0572905 0.9942641 0.0572905 0.0057359 -0.0572905
2578000000 0.0056457 -0.0563883 0.9943543 0.0563883 0.9943543 0.0563883 0.0056457 -0.0563883
2599000000 0.0055584 -0.0554971 0.9944416 0.0554971 0.9944416 0.0554971 0.0055584 -0.0554971
2620000000 0.0054740 -0.0546166 0.9945260 0.0546166 0.9945260 0.0546166 0.0054740 -0.0546166
2641000000 0.0053923 -0.0537466 0.9946077 0.0537466 0.9946077 0.0537466 0.0053923 -0.0537466
2662000000 0.0053132 -0.0528867 0.9946868 0.0528867 0.9946868 0.0528867 0.0053132 -0.0528867
2683000000 0.0052367 -0.0520368 0.9947633 0.0520368 0.9947633 0.0520368 0.0052367 -0.0520368
2704000000 0.0051628 -0.0511967 0.9948372 0.0511967 0.9948372 0.0511967 0.0051628 -0.0511967
2725000000 0.0050912 -0.0503660 0.9949088 0.0503660 0.9949088 0.0503660 0.0050912 -0.0503660
2746000000 0.0050220 -0.0495447 0.9949780 0.0495447 0.9949780 0.0495447 0.0050220 -0.0495447
2767000000 0.0049551 -0.0487325 0.9950449 0.0487325 0.9950449 0.0487325 0.0049551 -0.0487325
2788000000 0.0048903 -0.0479293 0.9951097 0.0479293 0.9951097 0.0479293 0.0048903 -0.0479293
2809000000 0.0048278 -0.0471347 0.9951722 0.0471347 0.9951722 0.0471347 0.0048278 -0.0471347
2830000000 0.0047673 -0.0463487 0.9952327 0.0463487 0.9952327 0.0463487 0.0047673 -0.0463487
2851000000 0.0047089 -0.0455711 0.9952911 0.0455711 0.9952911 0.0455711 0.0047089 -0.0455711
2872000000 0.0046524 -0.0448016 0.9953476 0.0448016 0.9953476 0.0448016 0.0046524 -0.0448016
2893000000 0.0045979 -0.0440401 0.9954021 0.0440401 0.9954021 0.0440401 0.0045979 -0.0440401
2914000000 0.0045453 -0.0432865 0.9954547 0.0432865 0.9954547 0.0432865 0.0045453 -0.0432865
2935000000 0.0044944 -0.0425406 0.9955056 0.0425406 0.9955056 0.0425406 0.0044944 -0.0425406
2956000000 0.0044453 -0.0418021 0.9955547 0.0418021 0.9955547 0.0418021 0.0044453 -0.0418021
2977000000 0.0043980 -0.0410711 0.9956020 0.0410711 0.9956020 0.0410711 0.0043980 -0.0410711
2998000000 0.0043523 -0.0403472 0.9956477 0.0403472 0.9956477 0.0403472 0.0043523 -0.0403472
3019000000 0.0043083 -0.0396305 0.9956917 0.0396305 0.9956917 0.0396305 0.0043083 -0.0396305
3040000000 0.0042658 -0.0389206 0.9957342 0.0389206 0.9957342 0.0389206 0.0042658 -0.0389206
3061000000 0.0042249 -0.0382176 0.9957751 0.0382176 0.9957751 0.0382176 0.0042249 -0.0382176
3082000000 0.0041855 -0.0375212 0.9958145 0.0375212 0.9958145 0.0375212 0.0041855 -0.0375212
3103000000 0.0041476 -0.0368314 0.9958524 0.0368314 0.9958524 0.0368314 0.0041476 -0.0368314
3124000000 0.0041111 -0.0361479 0.9958889 0.0361479 0.9958889 0.0361479 0.0041111 -0.0361479
3145000000 0.0040760 -0.0354707 0.9959240 0.0354707 0.9959240 0.0354707 0.0040760 -0.0354707
3166000000 0.0040423 -0.0347997 0.9959577 0.0347997 0.9959577 0.0347997 0.0040423 -0.0347997
3187000000 0.0040099 -0.0341347 0.9959901 0.0341347 0.9959901 0.0341347 0.0040099 -0.0341347
3208000000 0.0039788 -0.0334757 0.9960212 0.0334757 0.9960212 0.0334757 0.0039788 -0.0334757
3229000000 0.0039489 -0.0328224 0.9960511 0.0328224 0.9960511 0.0328224 0.0039489 -0.0328224
3250000000 0.0039203 -0.0321749 0.9960797 0.0321749 0.9960797 0.0321749 0.0039203 -0.0321749
3271000000 0.0038929 -0.0315330 0.9961071 0.0315330 0.9961071 0.0315330 0.0038929 -0.0315330
3292000000 0.0038666 -0.0308965 0.9961334 0.0308965 0.9961334 0.0308965 0.0038666 -0.0308965
3313000000 0.0038415 -0.0302655 0.9961585 0.0302655 0.9961585 0.0302655 0.0038415 -0.0302655
3334000000 0.0038175 -0.0296397 0.9961825 0.0296397 0.9961825 0.0296397 0.0038175 -0.0296397
3355000000 0.0037946 -0.0290192 0.9962054 0.0290192 0.9962054 0.0290192 0.0037946 -0.0290192
3376000000 0.0037728 -0.0284038 0.9962272 0.0284038 0.9962272 0.0284038 0.0037728 -0.0284038
3397000000 0.0037520 -0.0277933 0.9962480 0.0277933 0.9962480 0.0277933 0.0037520 -0.0277933
3418000000 0.0037322 -0.0271878 0.9962678 0.0271878 0.9962678 0.0271878 0.0037322 -0.0271878
3439000000 0.0037134 -0.0265872 0.9962866 0.0265872 0.9962866 0.0265872 0.0037134 -0.0265872
3460000000 0.0036956 -0.0259913 0.9963044 0.0259913 0.9963044 0.0259913 0.0036956 -0.0259913
3481000000 0.0036787 -0.0254000 0.9963213 0.0254000 0.9963213 0.0254000 0.0036787 -0.0254000
3502000000 0.0036627 -0.0248134 0.9963373 0.0248134 0.9963373 0.0248134 0.0036627 -0.0248134
3523000000 0.0036477 -0.0242313 0.9963523 0.0242313 0.9963523 0.0242313 0.0036477 -0.0242313
3544000000 0.0036335 -0.0236536 0.9963665 0.0236536 0.9963665 0.0236536 0.0036335 -0.0236536
3565000000 0.0036202 -0.0230802 0.9963798 0.0230802 0.9963798 0.0230802 0.0036202 -0.0230802
3586000000 0.0036078 -0.0225111 0.9963922 0.0225111 0.9963922 0.0225111 0.0036078 -0.0225111
3607000000 0.0035962 -0.0219463 0.9964038 0.0219463 0.9964038 0.0219463 0.0035962 -0.0219463
3628000000 0.0035854 -0.0213856 0.9964146 0.0213856 0.9964146 0.0213856 0.0035854 -0.0213856
3649000000 0.0035754 -0.0208289 0.9964246 0.0208289 0.9964246 0.0208289 0.0035754 -0.0208289
3670000000 0.0035661 -0.0202763 0.9964339 0.0202763 0.9964339 0.0202763 0.0035661 -0.0202763
3691000000 0.0035577 -0.0197276 0.9964423 0.0197276 0.9964423 0.0197276 0.0035577 -0.0197276
3712000000 0.0035499 -0.0191828 0.9964501 0.0191828 0.9964501 0.0191828 0.0035499 -0.0191828
3733000000 0.0035429 -0.0186418 0.9964571 0.0186418 0.9964571 0.0186418 0.0035429 -0.0186418
3754000000 0.0035366 -0.0181045 0.9964634 0.0181045 0.9964634 0.0181045 0.0035366 -0.0181045
3775000000 0.0035310 -0.0175709 0.9964690 0.0175709 0.9964690 0.0175709 0.0035310 -0.0175709
3796000000 0.0035261 -0.0170410 0.9964739 0.0170410 0.9964739 0.0170410 0.0035261 -0.0170410
3817000000 0.0035219 -0.0165146 0.9964781 0.0165146 0.9964781 0.0165146 0.0035219 -0.0165146
3838000000 0.0035183 -0.0159917 0.9964817 0.0159917 0.9964817 0.0159917 0.0035183 -0.0159917
3859000000 0.0035153 -0.0154723 0.9964847 0.0154723 0.9964847 0.0154723 0.0035153 -0.0154723
3880000000 0.0035130 -0.0149563 0.9964870 0.0149563 0.9964870 0.0149563 0.0035130 -0.0149563
3901000000 0.0035113 -0.0144436 0.9964887 0.0144436 0.9964887 0.0144436 0.0035113 -0.0144436
3922000000 0.0035102 -0.0139343 0.9964898 0.0139343 0.9964898 0.0139343 0.0035102 -0.0139343
3943000000 0.0035097 -0.0134282 0.9964903 0.0134282 0.9964903 0.0134282 0.0035097 -0.0134282
3964000000 0.0035098 -0.0129253 0.9964902 0.0129253 0.9964902 0.0129253 0.0035098 -0.0129253
3985000000 0.0035105 -0.0124255 0.9964895 0.0124255 0.9964895 0.0124255 0.0035105 -0.0124255
4006000000 0.0035117 -0.0119289 0.9964883 0.0119289 0.9964883 0.0119289 0.0035117 -0.0119289
4027000000 0.0035135 -0.0114353 0.9964865 0.0114353 0.9964865 0.0114353 0.0035135 -0.0114353
4048000000 0.0035157 -0.0109447 0.9964843 0.0109447 0.9964843 0.0109447 0.0035157 -0.0109447
4069000000 0.0035186 -0.0104571 0.9964814 0.0104571 0.9964814 0.0104571 0.0035186 -0.0104571
4090000000 0.0035219 -0.0099724 0.9964781 0.0099724 0.9964781 0.0099724 0.0035219 -0.0099724
4111000000 0.0035258 -0.0094905 0.9964742 0.0094905 0.9964742 0.0094905 0.0035258 -0.0094905
4132000000 0.0035301 -0.0090116 0.9964699 0.0090116 0.9964699 0.0090116 0.0035301 -0.0090116
4153000000 0.0035350 -0.0085354 0.9964650 0.0085354 0.9964650 0.0085354 0.0035350 -0.0085354
4174000000 0.0035403 -0.0080619 0.9964597 0.0080619 0.9964597 0.0080619 0.0035403 -0.0080619
4195000000 0.0035461 -0.0075912 0.9964539 0.0075912 0.9964539 0.0075912 0.0035461 -0.0075912
4216000000 0.0035523 -0.0071231 0.9964477 0.0071231 0.9964477 0.0071231 0.0035523 -0.0071231
4237000000 0.0035590 -0.0066577 0.9964410 0.0066577 0.9964410 0.0066577 0.0035590 -0.0066577
4258000000 0.0035662 -0.0061949 0.9964338 0.0061949 0.9964338 0.0061949 0.0035662 -0.0061949
4279000000 0.0035738 -0.0057346 0.9964262 0.0057346 0.9964262 0.0057346 0.0035738 -0.0057346
4300000000 0.0035818 -0.0052768 0.9964182 0.0052768 0.9964182 0.0052768 0.0035818 -0.0052768
4321000000 0.0035902 -0.0048216 0.9964098 0.0048216 0.9964098 0.0048216 0.0035902 -0.0048216
4342000000 0.0035991 -0.0043688 0.9964009 0.0043688 0.9964009 0.0043688 0.0035991 -0.0043688
4363000000 0.0036084 -0.0039184 0.9963916 0.0039184 0.9963916 0.0039184 0.0036084 -0.0039184
4384000000 0.0036180 -0.0034704 0.9963820 0.0034704 0.9963820 0.0034704 0.0036180 -0.0034704
4405000000 0.0036281 -0.0030248 0.9963719 0.0030248 0.9963719 0.0030248 0.0036281 -0.0030248
4426000000 0.0036385 -0.0025814 0.9963615 0.0025814 0.9963615 0.0025814 0.0036385 -0.0025814
4447000000 0.0036494 -0.0021404 0.9963506 0.0021404 0.9963506 0.0021404 0.0036494 -0.0021404
4468000000 0.0036606 -0.0017016 0.9963394 0.0017016 0.9963394 0.0017016 0.0036606 -0.0017016
4489000000 0.0036722 -0.0012651 0.9963278 0.0012651 0.9963278 0.0012651 0.0036722 -0.0012651
4510000000 0.0036841 -0.0008307 0.9963159 0.0008307 0.9963159 0.0008307 0.0036841 -0.0008307
