!Murata Part Number: GRM0224C1C1R2CA03
!These Parameters are Measured in Series Mode Connection
!Data Generated on Mar 30, 2021
!       o--ll--o
!Port1            Port2
!       o------o
!Operation Temp=25[degC], DC Bias Voltage=0[V]
!Freq. Start=100[MHz] Stop=20[GHz] 401[Steps]
# Hz S RI R 50
!Freq.(Hz) S11(Real) S11(Imag) S21(Real) S21(Imag) S12(Real) S12(Imag) S22(Real) S22(Imag)
100000000 0.9943221 -0.0749770 0.0056779 0.0749770 0.0056779 0.0749770 0.9943221 -0.0749770
149750000 0.9873531 -0.1115039 0.0126469 0.1115039 0.0126469 0.1115039 0.9873531 -0.1115039
199500000 0.9777638 -0.1471286 0.0222362 0.1471286 0.0222362 0.1471286 0.9777638 -0.1471286
249250000 0.9657025 -0.1815882 0.0342975 0.1815882 0.0342975 0.1815882 0.9657025 -0.1815882
299000000 0.9513497 -0.2146488 0.0486503 0.2146488 0.0486503 0.2146488 0.9513497 -0.2146488
348750000 0.9349119 -0.2461099 0.0650881 0.2461099 0.0650881 0.2461099 0.9349119 -0.2461099
398500000 0.9166148 -0.2758069 0.0833852 0.2758069 0.0833852 0.2758069 0.9166148 -0.2758069
448250000 0.8966957 -0.3036124 0.1033043 0.3036124 0.1033043 0.3036124 0.8966957 -0.3036124
498000000 0.8753973 -0.3294360 0.1246027 0.3294360 0.1246027 0.3294360 0.8753973 -0.3294360
547750000 0.8529614 -0.3532226 0.1470386 0.3532226 0.1470386 0.3532226 0.8529614 -0.3532226
597500000 0.8296235 -0.3749501 0.1703765 0.3749501 0.1703765 0.3749501 0.8296235 -0.3749501
647250000 0.8056080 -0.3946258 0.1943920 0.3946258 0.1943920 0.3946258 0.8056080 -0.3946258
697000000 0.7811252 -0.4122829 0.2188748 0.4122829 0.2188748 0.4122829 0.7811252 -0.4122829
746750000 0.7563685 -0.4279763 0.2436315 0.4279763 0.2436315 0.4279763 0.7563685 -0.4279763
796500000 0.7315128 -0.4417784 0.2684872 0.4417784 0.2684872 0.4417784 0.7315128 -0.4417784
846250000 0.7067136 -0.4537756 0.2932864 0.4537756 0.2932864 0.4537756 0.7067136 -0.4537756
896000000 0.6821070 -0.4640642 0.3178930 0.4640642 0.3178930 0.4640642 0.6821070 -0.4640642
945750000 0.6578104 -0.4727476 0.3421896 0.4727476 0.3421896 0.4727476 0.6578104 -0.4727476
995500000 0.6339225 -0.4799329 0.3660775 0.4799329 0.3660775 0.4799329 0.6339225 -0.4799329
1045250000 0.6105255 -0.4857287 0.3894745 0.4857287 0.3894745 0.4857287 0.6105255 -0.4857287
1095000000 0.5876857 -0.4902433 0.4123143 0.4902433 0.4123143 0.4902433 0.5876857 -0.4902433
1144750000 0.5654554 -0.4935826 0.4345446 0.4935826 0.4345446 0.4935826 0.5654554 -0.4935826
1194500000 0.5438742 -0.4958491 0.4561258 0.4958491 0.4561258 0.4958491 0.5438742 -0.4958491
1244250000 0.5229706 -0.4971410 0.4770294 0.4971410 0.4770294 0.4971410 0.5229706 -0.4971410
1294000000 0.5027634 -0.4975515 0.4972366 0.4975515 0.4972366 0.4975515 0.5027634 -0.4975515
1343750000 0.4832630 -0.4971681 0.5167370 0.4971681 0.5167370 0.4971681 0.4832630 -0.4971681
1393500000 0.4644731 -0.4960728 0.5355269 0.4960728 0.5355269 0.4960728 0.4644731 -0.4960728
1443250000 0.4463911 -0.4943416 0.5536089 0.4943416 0.5536089 0.4943416 0.4463911 -0.4943416
1493000000 0.4290097 -0.4920449 0.5709903 0.4920449 0.5709903 0.4920449 0.4290097 -0.4920449
1542750000 0.4123176 -0.4892474 0.5876824 0.4892474 0.5876824 0.4892474 0.4123176 -0.4892474
1592500000 0.3963004 -0.4860084 0.6036996 0.4860084 0.6036996 0.4860084 0.3963004 -0.4860084
1642250000 0.3809411 -0.4823820 0.6190589 0.4823820 0.6190589 0.4823820 0.3809411 -0.4823820
1692000000 0.3662208 -0.4784175 0.6337792 0.4784175 0.6337792 0.4784175 0.3662208 -0.4784175
1741750000 0.3521194 -0.4741596 0.6478806 0.4741596 0.6478806 0.4741596 0.3521194 -0.4741596
1791500000 0.3386156 -0.4696486 0.6613844 0.4696486 0.6613844 0.4696486 0.3386156 -0.4696486
1841250000 0.3256877 -0.4649211 0.6743123 0.4649211 0.6743123 0.4649211 0.3256877 -0.4649211
1891000000 0.3133136 -0.4600099 0.6866864 0.4600099 0.6866864 0.4600099 0.3133136 -0.4600099
1940750000 0.3014712 -0.4549445 0.6985288 0.4549445 0.6985288 0.4549445 0.3014712 -0.4549445
1990500000 0.2901386 -0.4497513 0.7098614 0.4497513 0.7098614 0.4497513 0.2901386 -0.4497513
2040250000 0.2792940 -0.4444541 0.7207060 0.4444541 0.7207060 0.4444541 0.2792940 -0.4444541
2090000000 0.2689163 -0.4390738 0.7310837 0.4390738 0.7310837 0.4390738 0.2689163 -0.4390738
2139750000 0.2589847 -0.4336294 0.7410153 0.4336294 0.7410153 0.4336294 0.2589847 -0.4336294
2189500000 0.2494792 -0.4281377 0.7505208 0.4281377 0.7505208 0.4281377 0.2494792 -0.4281377
2239250000 0.2403803 -0.4226133 0.7596197 0.4226133 0.7596197 0.4226133 0.2403803 -0.4226133
2289000000 0.2316693 -0.4170695 0.7683307 0.4170695 0.7683307 0.4170695 0.2316693 -0.4170695
2338750000 0.2233281 -0.4115180 0.7766719 0.4115180 0.7766719 0.4115180 0.2233281 -0.4115180
2388500000 0.2153395 -0.4059689 0.7846605 0.4059689 0.7846605 0.4059689 0.2153395 -0.4059689
2438250000 0.2076869 -0.4004313 0.7923131 0.4004313 0.7923131 0.4004313 0.2076869 -0.4004313
2488000000 0.2003543 -0.3949130 0.7996457 0.3949130 0.7996457 0.3949130 0.2003543 -0.3949130
2537750000 0.1933268 -0.3894210 0.8066732 0.3894210 0.8066732 0.3894210 0.1933268 -0.3894210
2587500000 0.1865898 -0.3839612 0.8134102 0.3839612 0.8134102 0.3839612 0.1865898 -0.3839612
2637250000 0.1801296 -0.3785388 0.8198704 0.3785388 0.8198704 0.3785388 0.1801296 -0.3785388
2687000000 0.1739331 -0.3731583 0.8260669 0.3731583 0.8260669 0.3731583 0.1739331 -0.3731583
2736750000 0.1679879 -0.3678236 0.8320121 0.3678236 0.8320121 0.3678236 0.1679879 -0.3678236
2786500000 0.1622822 -0.3625379 0.8377178 0.3625379 0.8377178 0.3625379 0.1622822 -0.3625379
2836250000 0.1568046 -0.3573040 0.8431954 0.3573040 0.8431954 0.3573040 0.1568046 -0.3573040
2886000000 0.1515446 -0.3521241 0.8484554 0.3521241 0.8484554 0.3521241 0.1515446 -0.3521241
2935750000 0.1464919 -0.3470002 0.8535081 0.3470002 0.8535081 0.3470002 0.1464919 -0.3470002
2985500000 0.1416369 -0.3419339 0.8583631 0.3419339 0.8583631 0.3419339 0.1416369 -0.3419339
3035250000 0.1369706 -0.3369263 0.8630294 0.3369263 0.8630294 0.3369263 0.1369706 -0.3369263
3085000000 0.1324842 -0.3319784 0.8675158 0.3319784 0.8675158 0.3319784 0.1324842 -0.3319784
3134750000 0.1281695 -0.3270909 0.8718305 0.3270909 0.8718305 0.3270909 0.1281695 -0.3270909
3184500000 0.1240187 -0.3222642 0.8759813 0.3222642 0.8759813 0.3222642 0.1240187 -0.3222642
3234250000 0.1200244 -0.3174987 0.8799756 0.3174987 0.8799756 0.3174987 0.1200244 -0.3174987
3284000000 0.1161796 -0.3127944 0.8838204 0.3127944 0.8838204 0.3127944 0.1161796 -0.3127944
3333750000 0.1124776 -0.3081513 0.8875224 0.3081513 0.8875224 0.3081513 0.1124776 -0.3081513
3383500000 0.1089121 -0.3035693 0.8910879 0.3035693 0.8910879 0.3035693 0.1089121 -0.3035693
3433250000 0.1054771 -0.2990479 0.8945229 0.2990479 0.8945229 0.2990479 0.1054771 -0.2990479
3483000000 0.1021669 -0.2945869 0.8978331 0.2945869 0.8978331 0.2945869 0.1021669 -0.2945869
3532750000 0.0989761 -0.2901857 0.9010239 0.2901857 0.9010239 0.2901857 0.0989761 -0.2901857
3582500000 0.0958994 -0.2858439 0.9041006 0.2858439 0.9041006 0.2858439 0.0958994 -0.2858439
3632250000 0.0929322 -0.2815607 0.9070678 0.2815607 0.9070678 0.2815607 0.0929322 -0.2815607
3682000000 0.0900696 -0.2773355 0.9099304 0.2773355 0.9099304 0.2773355 0.0900696 -0.2773355
3731750000 0.0873074 -0.2731675 0.9126926 0.2731675 0.9126926 0.2731675 0.0873074 -0.2731675
3781500000 0.0846412 -0.2690561 0.9153588 0.2690561 0.9153588 0.2690561 0.0846412 -0.2690561
3831250000 0.0820672 -0.2650004 0.9179328 0.2650004 0.9179328 0.2650004 0.0820672 -0.2650004
3881000000 0.0795816 -0.2609996 0.9204184 0.2609996 0.9204184 0.2609996 0.0795816 -0.2609996
3930750000 0.0771807 -0.2570529 0.9228193 0.2570529 0.9228193 0.2570529 0.0771807 -0.2570529
3980500000 0.0748611 -0.2531593 0.9251389 0.2531593 0.9251389 0.2531593 0.0748611 -0.2531593
4030250000 0.0726195 -0.2493181 0.9273805 0.2493181 0.9273805 0.2493181 0.0726195 -0.2493181
4080000000 0.0704529 -0.2455283 0.9295471 0.2455283 0.9295471 0.2455283 0.0704529 -0.2455283
4129750000 0.0683583 -0.2417891 0.9316417 0.2417891 0.9316417 0.2417891 0.0683583 -0.2417891
4179500000 0.0663329 -0.2380995 0.9336671 0.2380995 0.9336671 0.2380995 0.0663329 -0.2380995
4229250000 0.0643739 -0.2344587 0.9356261 0.2344587 0.9356261 0.2344587 0.0643739 -0.2344587
4279000000 0.0624788 -0.2308658 0.9375212 0.2308658 0.9375212 0.2308658 0.0624788 -0.2308658
4328750000 0.0606452 -0.2273200 0.9393548 0.2273200 0.9393548 0.2273200 0.0606452 -0.2273200
4378500000 0.0588708 -0.2238202 0.9411292 0.2238202 0.9411292 0.2238202 0.0588708 -0.2238202
4428250000 0.0571533 -0.2203657 0.9428467 0.2203657 0.9428467 0.2203657 0.0571533 -0.2203657
4478000000 0.0554906 -0.2169556 0.9445094 0.2169556 0.9445094 0.2169556 0.0554906 -0.2169556
4527750000 0.0538806 -0.2135890 0.9461194 0.2135890 0.9461194 0.2135890 0.0538806 -0.2135890
4577500000 0.0523215 -0.2102652 0.9476785 0.2102652 0.9476785 0.2102652 0.0523215 -0.2102652
4627250000 0.0508114 -0.2069832 0.9491886 0.2069832 0.9491886 0.2069832 0.0508114 -0.2069832
4677000000 0.0493485 -0.2037423 0.9506515 0.2037423 0.9506515 0.2037423 0.0493485 -0.2037423
4726750000 0.0479312 -0.2005417 0.9520688 0.2005417 0.9520688 0.2005417 0.0479312 -0.2005417
4776500000 0.0465578 -0.1973804 0.9534422 0.1973804 0.9534422 0.1973804 0.0465578 -0.1973804
4826250000 0.0452267 -0.1942579 0.9547733 0.1942579 0.9547733 0.1942579 0.0452267 -0.1942579
4876000000 0.0439366 -0.1911733 0.9560634 0.1911733 0.9560634 0.1911733 0.0439366 -0.1911733
4925750000 0.0426860 -0.1881258 0.9573140 0.1881258 0.9573140 0.1881258 0.0426860 -0.1881258
4975500000 0.0414735 -0.1851148 0.9585265 0.1851148 0.9585265 0.1851148 0.0414735 -0.1851148
5025250000 0.0402978 -0.1821395 0.9597022 0.1821395 0.9597022 0.1821395 0.0402978 -0.1821395
5075000000 0.0391578 -0.1791991 0.9608422 0.1791991 0.9608422 0.1791991 0.0391578 -0.1791991
5124750000 0.0380522 -0.1762930 0.9619478 0.1762930 0.9619478 0.1762930 0.0380522 -0.1762930
5174500000 0.0369798 -0.1734206 0.9630202 0.1734206 0.9630202 0.1734206 0.0369798 -0.1734206
5224250000 0.0359396 -0.1705810 0.9640604 0.1705810 0.9640604 0.1705810 0.0359396 -0.1705810
5274000000 0.0349305 -0.1677738 0.9650695 0.1677738 0.9650695 0.1677738 0.0349305 -0.1677738
5323750000 0.0339516 -0.1649982 0.9660484 0.1649982 0.9660484 0.1649982 0.0339516 -0.1649982
5373500000 0.0330018 -0.1622536 0.9669982 0.1622536 0.9669982 0.1622536 0.0330018 -0.1622536
5423250000 0.0320803 -0.1595394 0.9679197 0.1595394 0.9679197 0.1595394 0.0320803 -0.1595394
5473000000 0.0311861 -0.1568551 0.9688139 0.1568551 0.9688139 0.1568551 0.0311861 -0.1568551
5522750000 0.0303184 -0.1541999 0.9696816 0.1541999 0.9696816 0.1541999 0.0303184 -0.1541999
5572500000 0.0294763 -0.1515734 0.9705237 0.1515734 0.9705237 0.1515734 0.0294763 -0.1515734
5622250000 0.0286591 -0.1489749 0.9713409 0.1489749 0.9713409 0.1489749 0.0286591 -0.1489749
5672000000 0.0278661 -0.1464040 0.9721339 0.1464040 0.9721339 0.1464040 0.0278661 -0.1464040
5721750000 0.0270964 -0.1438601 0.9729036 0.1438601 0.9729036 0.1438601 0.0270964 -0.1438601
5771500000 0.0263495 -0.1413427 0.9736505 0.1413427 0.9736505 0.1413427 0.0263495 -0.1413427
5821250000 0.0256245 -0.1388512 0.9743755 0.1388512 0.9743755 0.1388512 0.0256245 -0.1388512
5871000000 0.0249209 -0.1363852 0.9750791 0.1363852 0.9750791 0.1363852 0.0249209 -0.1363852
5920750000 0.0242380 -0.1339441 0.9757620 0.1339441 0.9757620 0.1339441 0.0242380 -0.1339441
5970500000 0.0235753 -0.1315276 0.9764247 0.1315276 0.9764247 0.1315276 0.0235753 -0.1315276
6020250000 0.0229322 -0.1291350 0.9770678 0.1291350 0.9770678 0.1291350 0.0229322 -0.1291350
6070000000 0.0223080 -0.1267660 0.9776920 0.1267660 0.9776920 0.1267660 0.0223080 -0.1267660
6119750000 0.0217023 -0.1244202 0.9782977 0.1244202 0.9782977 0.1244202 0.0217023 -0.1244202
6169500000 0.0211146 -0.1220970 0.9788854 0.1220970 0.9788854 0.1220970 0.0211146 -0.1220970
6219250000 0.0205443 -0.1197961 0.9794557 0.1197961 0.9794557 0.1197961 0.0205443 -0.1197961
6269000000 0.0199910 -0.1175170 0.9800090 0.1175170 0.9800090 0.1175170 0.0199910 -0.1175170
6318750000 0.0194541 -0.1152594 0.9805459 0.1152594 0.9805459 0.1152594 0.0194541 -0.1152594
6368500000 0.0189334 -0.1130228 0.9810666 0.1130228 0.9810666 0.1130228 0.0189334 -0.1130228
6418250000 0.0184282 -0.1108069 0.9815718 0.1108069 0.9815718 0.1108069 0.0184282 -0.1108069
6468000000 0.0179383 -0.1086112 0.9820617 0.1086112 0.9820617 0.1086112 0.0179383 -0.1086112
6517750000 0.0174631 -0.1064354 0.9825369 0.1064354 0.9825369 0.1064354 0.0174631 -0.1064354
6567500000 0.0170024 -0.1042792 0.9829976 0.1042792 0.9829976 0.1042792 0.0170024 -0.1042792
6617250000 0.0165557 -0.1021421 0.9834443 0.1021421 0.9834443 0.1021421 0.0165557 -0.1021421
6667000000 0.0161227 -0.1000239 0.9838773 0.1000239 0.9838773 0.1000239 0.0161227 -0.1000239
6716750000 0.0157030 -0.0979242 0.9842970 0.0979242 0.9842970 0.0979242 0.0157030 -0.0979242
6766500000 0.0152963 -0.0958426 0.9847037 0.0958426 0.9847037 0.0958426 0.0152963 -0.0958426
6816250000 0.0149023 -0.0937789 0.9850977 0.0937789 0.9850977 0.0937789 0.0149023 -0.0937789
6866000000 0.0145206 -0.0917327 0.9854794 0.0917327 0.9854794 0.0917327 0.0145206 -0.0917327
6915750000 0.0141509 -0.0897037 0.9858491 0.0897037 0.9858491 0.0897037 0.0141509 -0.0897037
6965500000 0.0137930 -0.0876917 0.9862070 0.0876917 0.9862070 0.0876917 0.0137930 -0.0876917
7015250000 0.0134465 -0.0856963 0.9865535 0.0856963 0.9865535 0.0856963 0.0134465 -0.0856963
7065000000 0.0131113 -0.0837172 0.9868887 0.0837172 0.9868887 0.0837172 0.0131113 -0.0837172
7114750000 0.0127869 -0.0817541 0.9872131 0.0817541 0.9872131 0.0817541 0.0127869 -0.0817541
7164500000 0.0124732 -0.0798069 0.9875268 0.0798069 0.9875268 0.0798069 0.0124732 -0.0798069
7214250000 0.0121698 -0.0778751 0.9878302 0.0778751 0.9878302 0.0778751 0.0121698 -0.0778751
7264000000 0.0118767 -0.0759586 0.9881233 0.0759586 0.9881233 0.0759586 0.0118767 -0.0759586
7313750000 0.0115934 -0.0740571 0.9884066 0.0740571 0.9884066 0.0740571 0.0115934 -0.0740571
7363500000 0.0113199 -0.0721703 0.9886801 0.0721703 0.9886801 0.0721703 0.0113199 -0.0721703
7413250000 0.0110558 -0.0702981 0.9889442 0.0702981 0.9889442 0.0702981 0.0110558 -0.0702981
7463000000 0.0108010 -0.0684400 0.9891990 0.0684400 0.9891990 0.0684400 0.0108010 -0.0684400
7512750000 0.0105552 -0.0665960 0.9894448 0.0665960 0.9894448 0.0665960 0.0105552 -0.0665960
7562500000 0.0103183 -0.0647657 0.9896817 0.0647657 0.9896817 0.0647657 0.0103183 -0.0647657
7612250000 0.0100900 -0.0629490 0.9899100 0.0629490 0.9899100 0.0629490 0.0100900 -0.0629490
7662000000 0.0098702 -0.0611457 0.9901298 0.0611457 0.9901298 0.0611457 0.0098702 -0.0611457
7711750000 0.0096586 -0.0593554 0.9903414 0.0593554 0.9903414 0.0593554 0.0096586 -0.0593554
7761500000 0.0094552 -0.0575781 0.9905448 0.0575781 0.9905448 0.0575781 0.0094552 -0.0575781
7811250000 0.0092597 -0.0558134 0.9907403 0.0558134 0.9907403 0.0558134 0.0092597 -0.0558134
7861000000 0.0090719 -0.0540613 0.9909281 0.0540613 0.9909281 0.0540613 0.0090719 -0.0540613
7910750000 0.0088918 -0.0523214 0.9911082 0.0523214 0.9911082 0.0523214 0.0088918 -0.0523214
7960500000 0.0087190 -0.0505937 0.9912810 0.0505937 0.9912810 0.0505937 0.0087190 -0.0505937
8010250000 0.0085536 -0.0488779 0.9914464 0.0488779 0.9914464 0.0488779 0.0085536 -0.0488779
8060000000 0.0083953 -0.0471738 0.9916047 0.0471738 0.9916047 0.0471738 0.0083953 -0.0471738
8109750000 0.0082440 -0.0454812 0.9917560 0.0454812 0.9917560 0.0454812 0.0082440 -0.0454812
8159500000 0.0080995 -0.0438000 0.9919005 0.0438000 0.9919005 0.0438000 0.0080995 -0.0438000
8209250000 0.0079618 -0.0421301 0.9920382 0.0421301 0.9920382 0.0421301 0.0079618 -0.0421301
8259000000 0.0078306 -0.0404711 0.9921694 0.0404711 0.9921694 0.0404711 0.0078306 -0.0404711
8308750000 0.0077059 -0.0388230 0.9922941 0.0388230 0.9922941 0.0388230 0.0077059 -0.0388230
8358500000 0.0075875 -0.0371856 0.9924125 0.0371856 0.9924125 0.0371856 0.0075875 -0.0371856
8408250000 0.0074753 -0.0355587 0.9925247 0.0355587 0.9925247 0.0355587 0.0074753 -0.0355587
8458000000 0.0073692 -0.0339421 0.9926308 0.0339421 0.9926308 0.0339421 0.0073692 -0.0339421
8507750000 0.0072690 -0.0323358 0.9927310 0.0323358 0.9927310 0.0323358 0.0072690 -0.0323358
8557500000 0.0071747 -0.0307396 0.9928253 0.0307396 0.9928253 0.0307396 0.0071747 -0.0307396
8607250000 0.0070862 -0.0291533 0.9929138 0.0291533 0.9929138 0.0291533 0.0070862 -0.0291533
8657000000 0.0070033 -0.0275768 0.9929967 0.0275768 0.9929967 0.0275768 0.0070033 -0.0275768
8706750000 0.0069259 -0.0260098 0.9930741 0.0260098 0.9930741 0.0260098 0.0069259 -0.0260098
8756500000 0.0068539 -0.0244524 0.9931461 0.0244524 0.9931461 0.0244524 0.0068539 -0.0244524
8806250000 0.0067873 -0.0229044 0.9932127 0.0229044 0.9932127 0.0229044 0.0067873 -0.0229044
8856000000 0.0067259 -0.0213656 0.9932741 0.0213656 0.9932741 0.0213656 0.0067259 -0.0213656
8905750000 0.0066697 -0.0198358 0.9933303 0.0198358 0.9933303 0.0198358 0.0066697 -0.0198358
8955500000 0.0066185 -0.0183150 0.9933815 0.0183150 0.9933815 0.0183150 0.0066185 -0.0183150
9005250000 0.0065723 -0.0168031 0.9934277 0.0168031 0.9934277 0.0168031 0.0065723 -0.0168031
9055000000 0.0065310 -0.0152999 0.9934690 0.0152999 0.9934690 0.0152999 0.0065310 -0.0152999
9104750000 0.0064944 -0.0138052 0.9935056 0.0138052 0.9935056 0.0138052 0.0064944 -0.0138052
9154500000 0.0064626 -0.0123191 0.9935374 0.0123191 0.9935374 0.0123191 0.0064626 -0.0123191
9204250000 0.0064354 -0.0108413 0.9935646 0.0108413 0.9935646 0.0108413 0.0064354 -0.0108413
9254000000 0.0064128 -0.0093717 0.9935872 0.0093717 0.9935872 0.0093717 0.0064128 -0.0093717
9303750000 0.0063946 -0.0079103 0.9936054 0.0079103 0.9936054 0.0079103 0.0063946 -0.0079103
9353500000 0.0063809 -0.0064569 0.9936191 0.0064569 0.9936191 0.0064569 0.0063809 -0.0064569
9403250000 0.0063715 -0.0050114 0.9936285 0.0050114 0.9936285 0.0050114 0.0063715 -0.0050114
9453000000 0.0063663 -0.0035737 0.9936337 0.0035737 0.9936337 0.0035737 0.0063663 -0.0035737
9502750000 0.0063654 -0.0021437 0.9936346 0.0021437 0.9936346 0.0021437 0.0063654 -0.0021437
9552500000 0.0063685 -0.0007213 0.9936315 0.0007213 0.9936315 0.0007213 0.0063685 -0.0007213
9602250000 0.0063758 0.0006935 0.9936242 -0.0006935 0.9936242 -0.0006935 0.0063758 0.0006935
9652000000 0.0063870 0.0021010 0.9936130 -0.0021010 0.9936130 -0.0021010 0.0063870 0.0021010
9701750000 0.0064022 0.0035012 0.9935978 -0.0035012 0.9935978 -0.0035012 0.0064022 0.0035012
9751500000 0.0064212 0.0048941 0.9935788 -0.0048941 0.9935788 -0.0048941 0.0064212 0.0048941
9801250000 0.0064441 0.0062800 0.9935559 -0.0062800 0.9935559 -0.0062800 0.0064441 0.0062800
9851000000 0.0064707 0.0076588 0.9935293 -0.0076588 0.9935293 -0.0076588 0.0064707 0.0076588
9900750000 0.0065010 0.0090306 0.9934990 -0.0090306 0.9934990 -0.0090306 0.0065010 0.0090306
9950500000 0.0065350 0.0103956 0.9934650 -0.0103956 0.9934650 -0.0103956 0.0065350 0.0103956
10000250000 0.0065726 0.0117539 0.9934274 -0.0117539 0.9934274 -0.0117539 0.0065726 0.0117539
10050000000 0.0066137 0.0131055 0.9933863 -0.0131055 0.9933863 -0.0131055 0.0066137 0.0131055
10099750000 0.0066583 0.0144504 0.9933417 -0.0144504 0.9933417 -0.0144504 0.0066583 0.0144504
10149500000 0.0067063 0.0157889 0.9932937 -0.0157889 0.9932937 -0.0157889 0.0067063 0.0157889
10199250000 0.0067577 0.0171209 0.9932423 -0.0171209 0.9932423 -0.0171209 0.0067577 0.0171209
10249000000 0.0068125 0.0184465 0.9931875 -0.0184465 0.9931875 -0.0184465 0.0068125 0.0184465
10298750000 0.0068705 0.0197659 0.9931295 -0.0197659 0.9931295 -0.0197659 0.0068705 0.0197659
10348500000 0.0069318 0.0210791 0.9930682 -0.0210791 0.9930682 -0.0210791 0.0069318 0.0210791
10398250000 0.0069963 0.0223861 0.9930037 -0.0223861 0.9930037 -0.0223861 0.0069963 0.0223861
10448000000 0.0070640 0.0236871 0.9929360 -0.0236871 0.9929360 -0.0236871 0.0070640 0.0236871
10497750000 0.0071348 0.0249821 0.9928652 -0.0249821 0.9928652 -0.0249821 0.0071348 0.0249821
