!Murata Part Number: GRM011R61A221KE01
!These Parameters are Measured in Series Mode Connection
!Data Generated on Mar 30, 2021
!       o--ll--o
!Port1            Port2
!       o------o
!Operation Temp=25[degC], DC Bias Voltage=0[V]
!Freq. Start=100[Hz] Stop=6[GHz] 401[Steps]
# Hz S RI R 50
!Freq.(Hz) S11(Real) S11(Imag) S21(Real) S21(Imag) S12(Real) S12(Imag) S22(Real) S22(Imag)
100 0.9999997 -0.0000109 0.0000003 0.0000109 0.0000003 0.0000109 0.9999997 -0.0000109
105 0.9999997 -0.0000114 0.0000003 0.0000114 0.0000003 0.0000114 0.9999997 -0.0000114
109 0.9999997 -0.0000119 0.0000003 0.0000119 0.0000003 0.0000119 0.9999997 -0.0000119
114 0.9999997 -0.0000124 0.0000003 0.0000124 0.0000003 0.0000124 0.9999997 -0.0000124
120 0.9999996 -0.0000130 0.0000004 0.0000130 0.0000004 0.0000130 0.9999996 -0.0000130
125 0.9999996 -0.0000136 0.0000004 0.0000136 0.0000004 0.0000136 0.9999996 -0.0000136
131 0.9999996 -0.0000142 0.0000004 0.0000142 0.0000004 0.0000142 0.9999996 -0.0000142
137 0.9999996 -0.0000148 0.0000004 0.0000148 0.0000004 0.0000148 0.9999996 -0.0000148
143 0.9999996 -0.0000155 0.0000004 0.0000155 0.0000004 0.0000155 0.9999996 -0.0000155
150 0.9999996 -0.0000162 0.0000004 0.0000162 0.0000004 0.0000162 0.9999996 -0.0000162
156 0.9999996 -0.0000169 0.0000004 0.0000169 0.0000004 0.0000169 0.9999996 -0.0000169
164 0.9999995 -0.0000177 0.0000005 0.0000177 0.0000005 0.0000177 0.9999995 -0.0000177
171 0.9999995 -0.0000184 0.0000005 0.0000184 0.0000005 0.0000184 0.9999995 -0.0000184
179 0.9999995 -0.0000193 0.0000005 0.0000193 0.0000005 0.0000193 0.9999995 -0.0000193
187 0.9999995 -0.0000201 0.0000005 0.0000201 0.0000005 0.0000201 0.9999995 -0.0000201
196 0.9999994 -0.0000211 0.0000006 0.0000211 0.0000006 0.0000211 0.9999994 -0.0000211
205 0.9999994 -0.0000220 0.0000006 0.0000220 0.0000006 0.0000220 0.9999994 -0.0000220
214 0.9999994 -0.0000230 0.0000006 0.0000230 0.0000006 0.0000230 0.9999994 -0.0000230
224 0.9999994 -0.0000240 0.0000006 0.0000240 0.0000006 0.0000240 0.9999994 -0.0000240
234 0.9999994 -0.0000251 0.0000006 0.0000251 0.0000006 0.0000251 0.9999994 -0.0000251
245 0.9999993 -0.0000262 0.0000007 0.0000262 0.0000007 0.0000262 0.9999993 -0.0000262
256 0.9999993 -0.0000274 0.0000007 0.0000274 0.0000007 0.0000274 0.9999993 -0.0000274
268 0.9999993 -0.0000286 0.0000007 0.0000286 0.0000007 0.0000286 0.9999993 -0.0000286
280 0.9999993 -0.0000299 0.0000007 0.0000299 0.0000007 0.0000299 0.9999993 -0.0000299
293 0.9999992 -0.0000313 0.0000008 0.0000313 0.0000008 0.0000313 0.9999992 -0.0000313
306 0.9999992 -0.0000327 0.0000008 0.0000327 0.0000008 0.0000327 0.9999992 -0.0000327
320 0.9999992 -0.0000342 0.0000008 0.0000342 0.0000008 0.0000342 0.9999992 -0.0000342
335 0.9999991 -0.0000357 0.0000009 0.0000357 0.0000009 0.0000357 0.9999991 -0.0000357
350 0.9999991 -0.0000373 0.0000009 0.0000373 0.0000009 0.0000373 0.9999991 -0.0000373
366 0.9999991 -0.0000390 0.0000009 0.0000390 0.0000009 0.0000390 0.9999991 -0.0000390
383 0.9999990 -0.0000408 0.0000010 0.0000408 0.0000010 0.0000408 0.9999990 -0.0000408
401 0.9999990 -0.0000426 0.0000010 0.0000426 0.0000010 0.0000426 0.9999990 -0.0000426
419 0.9999990 -0.0000445 0.0000010 0.0000445 0.0000010 0.0000445 0.9999990 -0.0000445
438 0.9999989 -0.0000465 0.0000011 0.0000465 0.0000011 0.0000465 0.9999989 -0.0000465
458 0.9999989 -0.0000486 0.0000011 0.0000486 0.0000011 0.0000486 0.9999989 -0.0000486
479 0.9999989 -0.0000508 0.0000011 0.0000508 0.0000011 0.0000508 0.9999989 -0.0000508
501 0.9999988 -0.0000531 0.0000012 0.0000531 0.0000012 0.0000531 0.9999988 -0.0000531
524 0.9999988 -0.0000555 0.0000012 0.0000555 0.0000012 0.0000555 0.9999988 -0.0000555
548 0.9999987 -0.0000581 0.0000013 0.0000581 0.0000013 0.0000581 0.9999987 -0.0000581
573 0.9999987 -0.0000607 0.0000013 0.0000607 0.0000013 0.0000607 0.9999987 -0.0000607
600 0.9999986 -0.0000634 0.0000014 0.0000634 0.0000014 0.0000634 0.9999986 -0.0000634
627 0.9999986 -0.0000663 0.0000014 0.0000663 0.0000014 0.0000663 0.9999986 -0.0000663
656 0.9999985 -0.0000693 0.0000015 0.0000693 0.0000015 0.0000693 0.9999985 -0.0000693
686 0.9999985 -0.0000724 0.0000015 0.0000724 0.0000015 0.0000724 0.9999985 -0.0000724
717 0.9999984 -0.0000757 0.0000016 0.0000757 0.0000016 0.0000757 0.9999984 -0.0000757
750 0.9999983 -0.0000792 0.0000017 0.0000792 0.0000017 0.0000792 0.9999983 -0.0000792
784 0.9999983 -0.0000828 0.0000017 0.0000828 0.0000017 0.0000828 0.9999983 -0.0000828
820 0.9999982 -0.0000865 0.0000018 0.0000865 0.0000018 0.0000865 0.9999982 -0.0000865
858 0.9999981 -0.0000904 0.0000019 0.0000904 0.0000019 0.0000904 0.9999981 -0.0000904
897 0.9999980 -0.0000945 0.0000020 0.0000945 0.0000020 0.0000945 0.9999980 -0.0000945
938 0.9999979 -0.0000988 0.0000021 0.0000988 0.0000021 0.0000988 0.9999979 -0.0000988
981 0.9999978 -0.0001033 0.0000022 0.0001033 0.0000022 0.0001033 0.9999978 -0.0001033
1026 0.9999977 -0.0001080 0.0000023 0.0001080 0.0000023 0.0001080 0.9999977 -0.0001080
1073 0.9999976 -0.0001129 0.0000024 0.0001129 0.0000024 0.0001129 0.9999976 -0.0001129
1122 0.9999975 -0.0001180 0.0000025 0.0001180 0.0000025 0.0001180 0.9999975 -0.0001180
1174 0.9999974 -0.0001233 0.0000026 0.0001233 0.0000026 0.0001233 0.9999974 -0.0001233
1227 0.9999972 -0.0001289 0.0000028 0.0001289 0.0000028 0.0001289 0.9999972 -0.0001289
1283 0.9999971 -0.0001347 0.0000029 0.0001347 0.0000029 0.0001347 0.9999971 -0.0001347
1342 0.9999969 -0.0001408 0.0000031 0.0001408 0.0000031 0.0001408 0.9999969 -0.0001408
1404 0.9999968 -0.0001472 0.0000032 0.0001472 0.0000032 0.0001472 0.9999968 -0.0001472
1468 0.9999966 -0.0001538 0.0000034 0.0001538 0.0000034 0.0001538 0.9999966 -0.0001538
1535 0.9999964 -0.0001608 0.0000036 0.0001608 0.0000036 0.0001608 0.9999964 -0.0001608
1606 0.9999962 -0.0001680 0.0000038 0.0001680 0.0000038 0.0001680 0.9999962 -0.0001680
1679 0.9999960 -0.0001756 0.0000040 0.0001756 0.0000040 0.0001756 0.9999960 -0.0001756
1756 0.9999958 -0.0001835 0.0000042 0.0001835 0.0000042 0.0001835 0.9999958 -0.0001835
1836 0.9999956 -0.0001918 0.0000044 0.0001918 0.0000044 0.0001918 0.9999956 -0.0001918
1920 0.9999954 -0.0002004 0.0000046 0.0002004 0.0000046 0.0002004 0.9999954 -0.0002004
2008 0.9999951 -0.0002095 0.0000049 0.0002095 0.0000049 0.0002095 0.9999951 -0.0002095
2100 0.9999949 -0.0002189 0.0000051 0.0002189 0.0000051 0.0002189 0.9999949 -0.0002189
2196 0.9999946 -0.0002288 0.0000054 0.0002288 0.0000054 0.0002288 0.9999946 -0.0002288
2297 0.9999943 -0.0002391 0.0000057 0.0002391 0.0000057 0.0002391 0.9999943 -0.0002391
2402 0.9999941 -0.0002498 0.0000059 0.0002498 0.0000059 0.0002498 0.9999941 -0.0002498
2512 0.9999938 -0.0002611 0.0000062 0.0002611 0.0000062 0.0002611 0.9999938 -0.0002611
2627 0.9999935 -0.0002728 0.0000065 0.0002728 0.0000065 0.0002728 0.9999935 -0.0002728
2748 0.9999932 -0.0002851 0.0000068 0.0002851 0.0000068 0.0002851 0.9999932 -0.0002851
2873 0.9999929 -0.0002979 0.0000071 0.0002979 0.0000071 0.0002979 0.9999929 -0.0002979
3005 0.9999925 -0.0003113 0.0000075 0.0003113 0.0000075 0.0003113 0.9999925 -0.0003113
3143 0.9999922 -0.0003254 0.0000078 0.0003254 0.0000078 0.0003254 0.9999922 -0.0003254
3287 0.9999918 -0.0003400 0.0000082 0.0003400 0.0000082 0.0003400 0.9999918 -0.0003400
3437 0.9999915 -0.0003553 0.0000085 0.0003553 0.0000085 0.0003553 0.9999915 -0.0003553
3594 0.9999911 -0.0003713 0.0000089 0.0003713 0.0000089 0.0003713 0.9999911 -0.0003713
3759 0.9999907 -0.0003881 0.0000093 0.0003881 0.0000093 0.0003881 0.9999907 -0.0003881
3931 0.9999903 -0.0004056 0.0000097 0.0004056 0.0000097 0.0004056 0.9999903 -0.0004056
4111 0.9999899 -0.0004239 0.0000101 0.0004239 0.0000101 0.0004239 0.9999899 -0.0004239
4299 0.9999894 -0.0004430 0.0000106 0.0004430 0.0000106 0.0004430 0.9999894 -0.0004430
4496 0.9999889 -0.0004630 0.0000111 0.0004630 0.0000111 0.0004630 0.9999889 -0.0004630
4702 0.9999884 -0.0004839 0.0000116 0.0004839 0.0000116 0.0004839 0.9999884 -0.0004839
4918 0.9999879 -0.0005058 0.0000121 0.0005058 0.0000121 0.0005058 0.9999879 -0.0005058
5143 0.9999874 -0.0005286 0.0000126 0.0005286 0.0000126 0.0005286 0.9999874 -0.0005286
5378 0.9999868 -0.0005525 0.0000132 0.0005525 0.0000132 0.0005525 0.9999868 -0.0005525
5625 0.9999862 -0.0005775 0.0000138 0.0005775 0.0000138 0.0005775 0.9999862 -0.0005775
5882 0.9999855 -0.0006036 0.0000145 0.0006036 0.0000145 0.0006036 0.9999855 -0.0006036
6151 0.9999848 -0.0006309 0.0000152 0.0006309 0.0000152 0.0006309 0.9999848 -0.0006309
6433 0.9999841 -0.0006594 0.0000159 0.0006594 0.0000159 0.0006594 0.9999841 -0.0006594
6728 0.9999833 -0.0006892 0.0000167 0.0006892 0.0000167 0.0006892 0.9999833 -0.0006892
7036 0.9999824 -0.0007204 0.0000176 0.0007204 0.0000176 0.0007204 0.9999824 -0.0007204
7358 0.9999815 -0.0007530 0.0000185 0.0007530 0.0000185 0.0007530 0.9999815 -0.0007530
7695 0.9999805 -0.0007871 0.0000195 0.0007871 0.0000195 0.0007871 0.9999805 -0.0007871
8047 0.9999795 -0.0008227 0.0000205 0.0008227 0.0000205 0.0008227 0.9999795 -0.0008227
8416 0.9999784 -0.0008599 0.0000216 0.0008599 0.0000216 0.0008599 0.9999784 -0.0008599
8801 0.9999772 -0.0008987 0.0000228 0.0008987 0.0000228 0.0008987 0.9999772 -0.0008987
9204 0.9999759 -0.0009394 0.0000241 0.0009394 0.0000241 0.0009394 0.9999759 -0.0009394
9626 0.9999746 -0.0009818 0.0000254 0.0009818 0.0000254 0.0009818 0.9999746 -0.0009818
10066 0.9999731 -0.0010261 0.0000269 0.0010261 0.0000269 0.0010261 0.9999731 -0.0010261
10527 0.9999716 -0.0010725 0.0000284 0.0010725 0.0000284 0.0010725 0.9999716 -0.0010725
11009 0.9999699 -0.0011209 0.0000301 0.0011209 0.0000301 0.0011209 0.9999699 -0.0011209
11514 0.9999681 -0.0011714 0.0000319 0.0011714 0.0000319 0.0011714 0.9999681 -0.0011714
12041 0.9999662 -0.0012242 0.0000338 0.0012242 0.0000338 0.0012242 0.9999662 -0.0012242
12592 0.9999642 -0.0012794 0.0000358 0.0012794 0.0000358 0.0012794 0.9999642 -0.0012794
13169 0.9999621 -0.0013370 0.0000379 0.0013370 0.0000379 0.0013370 0.9999621 -0.0013370
13772 0.9999598 -0.0013972 0.0000402 0.0013972 0.0000402 0.0013972 0.9999598 -0.0013972
14402 0.9999574 -0.0014601 0.0000426 0.0014601 0.0000426 0.0014601 0.9999574 -0.0014601
15062 0.9999549 -0.0015257 0.0000451 0.0015257 0.0000451 0.0015257 0.9999549 -0.0015257
15752 0.9999522 -0.0015943 0.0000478 0.0015943 0.0000478 0.0015943 0.9999522 -0.0015943
16473 0.9999493 -0.0016659 0.0000507 0.0016659 0.0000507 0.0016659 0.9999493 -0.0016659
17227 0.9999463 -0.0017407 0.0000537 0.0017407 0.0000537 0.0017407 0.9999463 -0.0017407
18016 0.9999432 -0.0018187 0.0000568 0.0018187 0.0000568 0.0018187 0.9999432 -0.0018187
18841 0.9999398 -0.0019003 0.0000602 0.0019003 0.0000602 0.0019003 0.9999398 -0.0019003
19704 0.9999363 -0.0019854 0.0000637 0.0019854 0.0000637 0.0019854 0.9999363 -0.0019854
20606 0.9999326 -0.0020744 0.0000674 0.0020744 0.0000674 0.0020744 0.9999326 -0.0020744
21550 0.9999288 -0.0021673 0.0000712 0.0021673 0.0000712 0.0021673 0.9999288 -0.0021673
22537 0.9999247 -0.0022642 0.0000753 0.0022642 0.0000753 0.0022642 0.9999247 -0.0022642
23569 0.9999205 -0.0023655 0.0000795 0.0023655 0.0000795 0.0023655 0.9999205 -0.0023655
24648 0.9999160 -0.0024713 0.0000840 0.0024713 0.0000840 0.0024713 0.9999160 -0.0024713
25777 0.9999114 -0.0025818 0.0000886 0.0025818 0.0000886 0.0025818 0.9999114 -0.0025818
26957 0.9999065 -0.0026972 0.0000935 0.0026972 0.0000935 0.0026972 0.9999065 -0.0026972
28191 0.9999014 -0.0028177 0.0000986 0.0028177 0.0000986 0.0028177 0.9999014 -0.0028177
29482 0.9998961 -0.0029436 0.0001039 0.0029436 0.0001039 0.0029436 0.9998961 -0.0029436
30832 0.9998905 -0.0030751 0.0001095 0.0030751 0.0001095 0.0030751 0.9998905 -0.0030751
32244 0.9998846 -0.0032125 0.0001154 0.0032125 0.0001154 0.0032125 0.9998846 -0.0032125
33721 0.9998785 -0.0033559 0.0001215 0.0033559 0.0001215 0.0033559 0.9998785 -0.0033559
35265 0.9998722 -0.0035058 0.0001278 0.0035058 0.0001278 0.0035058 0.9998722 -0.0035058
36880 0.9998655 -0.0036624 0.0001345 0.0036624 0.0001345 0.0036624 0.9998655 -0.0036624
38569 0.9998585 -0.0038259 0.0001415 0.0038259 0.0001415 0.0038259 0.9998585 -0.0038259
40335 0.9998512 -0.0039967 0.0001488 0.0039967 0.0001488 0.0039967 0.9998512 -0.0039967
42182 0.9998436 -0.0041752 0.0001564 0.0041752 0.0001564 0.0041752 0.9998436 -0.0041752
44113 0.9998356 -0.0043617 0.0001644 0.0043617 0.0001644 0.0043617 0.9998356 -0.0043617
46134 0.9998273 -0.0045565 0.0001727 0.0045565 0.0001727 0.0045565 0.9998273 -0.0045565
48246 0.9998185 -0.0047601 0.0001815 0.0047601 0.0001815 0.0047601 0.9998185 -0.0047601
50455 0.9998094 -0.0049727 0.0001906 0.0049727 0.0001906 0.0049727 0.9998094 -0.0049727
52766 0.9997998 -0.0051950 0.0002002 0.0051950 0.0002002 0.0051950 0.9997998 -0.0051950
55182 0.9997897 -0.0054272 0.0002103 0.0054272 0.0002103 0.0054272 0.9997897 -0.0054272
57709 0.9997792 -0.0056698 0.0002208 0.0056698 0.0002208 0.0056698 0.9997792 -0.0056698
60352 0.9997681 -0.0059234 0.0002319 0.0059234 0.0002319 0.0059234 0.9997681 -0.0059234
63115 0.9997564 -0.0061883 0.0002436 0.0061883 0.0002436 0.0061883 0.9997564 -0.0061883
66005 0.9997442 -0.0064652 0.0002558 0.0064652 0.0002558 0.0064652 0.9997442 -0.0064652
69028 0.9997312 -0.0067547 0.0002688 0.0067547 0.0002688 0.0067547 0.9997312 -0.0067547
72189 0.9997176 -0.0070571 0.0002824 0.0070571 0.0002824 0.0070571 0.9997176 -0.0070571
75495 0.9997032 -0.0073733 0.0002968 0.0073733 0.0002968 0.0073733 0.9997032 -0.0073733
78952 0.9996879 -0.0077037 0.0003121 0.0077037 0.0003121 0.0077037 0.9996879 -0.0077037
82567 0.9996718 -0.0080491 0.0003282 0.0080491 0.0003282 0.0080491 0.9996718 -0.0080491
86348 0.9996546 -0.0084100 0.0003454 0.0084100 0.0003454 0.0084100 0.9996546 -0.0084100
90302 0.9996363 -0.0087874 0.0003637 0.0087874 0.0003637 0.0087874 0.9996363 -0.0087874
94437 0.9996169 -0.0091817 0.0003831 0.0091817 0.0003831 0.0091817 0.9996169 -0.0091817
98762 0.9995961 -0.0095940 0.0004039 0.0095940 0.0004039 0.0095940 0.9995961 -0.0095940
103284 0.9995740 -0.0100248 0.0004260 0.0100248 0.0004260 0.0100248 0.9995740 -0.0100248
108014 0.9995502 -0.0104751 0.0004498 0.0104751 0.0004498 0.0104751 0.9995502 -0.0104751
112960 0.9995248 -0.0109458 0.0004752 0.0109458 0.0004752 0.0109458 0.9995248 -0.0109458
118133 0.9994975 -0.0114377 0.0005025 0.0114377 0.0005025 0.0114377 0.9994975 -0.0114377
123542 0.9994683 -0.0119518 0.0005317 0.0119518 0.0005317 0.0119518 0.9994683 -0.0119518
129199 0.9994368 -0.0124890 0.0005632 0.0124890 0.0005632 0.0124890 0.9994368 -0.0124890
135116 0.9994029 -0.0130503 0.0005971 0.0130503 0.0005971 0.0130503 0.9994029 -0.0130503
141303 0.9993664 -0.0136369 0.0006336 0.0136369 0.0006336 0.0136369 0.9993664 -0.0136369
147774 0.9993271 -0.0142497 0.0006729 0.0142497 0.0006729 0.0142497 0.9993271 -0.0142497
154540 0.9992848 -0.0148900 0.0007152 0.0148900 0.0007152 0.0148900 0.9992848 -0.0148900
161617 0.9992391 -0.0155588 0.0007609 0.0155588 0.0007609 0.0155588 0.9992391 -0.0155588
169018 0.9991899 -0.0162574 0.0008101 0.0162574 0.0008101 0.0162574 0.9991899 -0.0162574
176758 0.9991369 -0.0169871 0.0008631 0.0169871 0.0008631 0.0169871 0.9991369 -0.0169871
184852 0.9990797 -0.0177491 0.0009203 0.0177491 0.0009203 0.0177491 0.9990797 -0.0177491
193316 0.9990180 -0.0185449 0.0009820 0.0185449 0.0009820 0.0185449 0.9990180 -0.0185449
202169 0.9989516 -0.0193758 0.0010484 0.0193758 0.0010484 0.0193758 0.9989516 -0.0193758
211427 0.9988801 -0.0202433 0.0011199 0.0202433 0.0011199 0.0202433 0.9988801 -0.0202433
221108 0.9988030 -0.0211490 0.0011970 0.0211490 0.0011970 0.0211490 0.9988030 -0.0211490
231233 0.9987201 -0.0220944 0.0012799 0.0220944 0.0012799 0.0220944 0.9987201 -0.0220944
241822 0.9986309 -0.0230811 0.0013691 0.0230811 0.0013691 0.0230811 0.9986309 -0.0230811
252896 0.9985350 -0.0241110 0.0014650 0.0241110 0.0014650 0.0241110 0.9985350 -0.0241110
264476 0.9984320 -0.0251857 0.0015680 0.0251857 0.0015680 0.0251857 0.9984320 -0.0251857
276587 0.9983214 -0.0263072 0.0016786 0.0263072 0.0016786 0.0263072 0.9983214 -0.0263072
289253 0.9982027 -0.0274775 0.0017973 0.0274775 0.0017973 0.0274775 0.9982027 -0.0274775
302498 0.9980755 -0.0286985 0.0019245 0.0286985 0.0019245 0.0286985 0.9980755 -0.0286985
316350 0.9979391 -0.0299724 0.0020609 0.0299724 0.0020609 0.0299724 0.9979391 -0.0299724
330837 0.9977929 -0.0313015 0.0022071 0.0313015 0.0022071 0.0313015 0.9977929 -0.0313015
345986 0.9976364 -0.0326882 0.0023636 0.0326882 0.0023636 0.0326882 0.9976364 -0.0326882
361830 0.9974690 -0.0341348 0.0025310 0.0341348 0.0025310 0.0341348 0.9974690 -0.0341348
378399 0.9972897 -0.0356439 0.0027103 0.0356439 0.0027103 0.0356439 0.9972897 -0.0356439
395726 0.9970980 -0.0372184 0.0029020 0.0372184 0.0029020 0.0372184 0.9970980 -0.0372184
413847 0.9968929 -0.0388610 0.0031071 0.0388610 0.0031071 0.0388610 0.9968929 -0.0388610
432798 0.9966735 -0.0405747 0.0033265 0.0405747 0.0033265 0.0405747 0.9966735 -0.0405747
452617 0.9964388 -0.0423626 0.0035612 0.0423626 0.0035612 0.0423626 0.9964388 -0.0423626
473344 0.9961876 -0.0442281 0.0038124 0.0442281 0.0038124 0.0442281 0.9961876 -0.0442281
495019 0.9959187 -0.0461745 0.0040813 0.0461745 0.0040813 0.0461745 0.9959187 -0.0461745
517687 0.9956307 -0.0482055 0.0043693 0.0482055 0.0043693 0.0482055 0.9956307 -0.0482055
541393 0.9953221 -0.0503247 0.0046779 0.0503247 0.0046779 0.0503247 0.9953221 -0.0503247
566185 0.9949912 -0.0525361 0.0050088 0.0525361 0.0050088 0.0525361 0.9949912 -0.0525361
592111 0.9946362 -0.0548437 0.0053638 0.0548437 0.0053638 0.0548437 0.9946362 -0.0548437
619225 0.9942549 -0.0572517 0.0057451 0.0572517 0.0057451 0.0572517 0.9942549 -0.0572517
647581 0.9938451 -0.0597645 0.0061549 0.0597645 0.0061549 0.0597645 0.9938451 -0.0597645
677235 0.9934042 -0.0623865 0.0065958 0.0623865 0.0065958 0.0623865 0.9934042 -0.0623865
708247 0.9929296 -0.0651224 0.0070704 0.0651224 0.0070704 0.0651224 0.9929296 -0.0651224
740679 0.9924181 -0.0679769 0.0075819 0.0679769 0.0075819 0.0679769 0.9924181 -0.0679769
774597 0.9918665 -0.0709549 0.0081335 0.0709549 0.0081335 0.0709549 0.9918665 -0.0709549
810067 0.9912712 -0.0740615 0.0087288 0.0740615 0.0087288 0.0740615 0.9912712 -0.0740615
847162 0.9906281 -0.0773017 0.0093719 0.0773017 0.0093719 0.0773017 0.9906281 -0.0773017
885955 0.9899329 -0.0806806 0.0100671 0.0806806 0.0100671 0.0806806 0.9899329 -0.0806806
926525 0.9891811 -0.0842036 0.0108189 0.0842036 0.0108189 0.0842036 0.9891811 -0.0842036
968953 0.9883675 -0.0878760 0.0116325 0.0878760 0.0116325 0.0878760 0.9883675 -0.0878760
1013323 0.9874866 -0.0917032 0.0125134 0.0917032 0.0125134 0.0917032 0.9874866 -0.0917032
1059725 0.9865326 -0.0956904 0.0134674 0.0956904 0.0134674 0.0956904 0.9865326 -0.0956904
1108252 0.9854991 -0.0998431 0.0145009 0.0998431 0.0145009 0.0998431 0.9854991 -0.0998431
1159002 0.9843791 -0.1041665 0.0156209 0.1041665 0.0156209 0.1041665 0.9843791 -0.1041665
1212075 0.9831654 -0.1086661 0.0168346 0.1086661 0.0168346 0.1086661 0.9831654 -0.1086661
1267578 0.9818500 -0.1133468 0.0181500 0.1133468 0.0181500 0.1133468 0.9818500 -0.1133468
1325623 0.9804246 -0.1182139 0.0195754 0.1182139 0.0195754 0.1182139 0.9804246 -0.1182139
1386327 0.9788801 -0.1232721 0.0211199 0.1232721 0.0211199 0.1232721 0.9788801 -0.1232721
1449809 0.9772069 -0.1285260 0.0227931 0.1285260 0.0227931 0.1285260 0.9772069 -0.1285260
1516199 0.9753949 -0.1339802 0.0246051 0.1339802 0.0246051 0.1339802 0.9753949 -0.1339802
1585629 0.9734333 -0.1396386 0.0265667 0.1396386 0.0265667 0.1396386 0.9734333 -0.1396386
1658239 0.9713106 -0.1455049 0.0286894 0.1455049 0.0286894 0.1455049 0.9713106 -0.1455049
1734173 0.9690148 -0.1515825 0.0309852 0.1515825 0.0309852 0.1515825 0.9690148 -0.1515825
1813585 0.9665332 -0.1578741 0.0334668 0.1578741 0.0334668 0.1578741 0.9665332 -0.1578741
1896632 0.9638524 -0.1643820 0.0361476 0.1643820 0.0361476 0.1643820 0.9638524 -0.1643820
1983483 0.9609584 -0.1711078 0.0390416 0.1711078 0.0390416 0.1711078 0.9609584 -0.1711078
2074311 0.9578366 -0.1780523 0.0421634 0.1780523 0.0421634 0.1780523 0.9578366 -0.1780523
