!Murata Part Number: GRM011C80E104ME01
!These Parameters are Measured in Series Mode Connection
!Data Generated on Mar 30, 2021
!       o--ll--o
!Port1            Port2
!       o------o
!Operation Temp=25[degC], DC Bias Voltage=0[V]
!Freq. Start=100[Hz] Stop=6[GHz] 401[Steps]
# Hz S RI R 50
!Freq.(Hz) S11(Real) S11(Imag) S21(Real) S21(Imag) S12(Real) S12(Imag) S22(Real) S22(Imag)
100 0.9998639 -0.0051911 0.0001361 0.0051911 0.0001361 0.0051911 0.9998639 -0.0051911
105 0.9998552 -0.0054241 0.0001448 0.0054241 0.0001448 0.0054241 0.9998552 -0.0054241
109 0.9998461 -0.0056675 0.0001539 0.0056675 0.0001539 0.0056675 0.9998461 -0.0056675
114 0.9998366 -0.0059217 0.0001634 0.0059217 0.0001634 0.0059217 0.9998366 -0.0059217
120 0.9998267 -0.0061873 0.0001733 0.0061873 0.0001733 0.0061873 0.9998267 -0.0061873
125 0.9998163 -0.0064648 0.0001837 0.0064648 0.0001837 0.0064648 0.9998163 -0.0064648
131 0.9998055 -0.0067548 0.0001945 0.0067548 0.0001945 0.0067548 0.9998055 -0.0067548
137 0.9997943 -0.0070577 0.0002057 0.0070577 0.0002057 0.0070577 0.9997943 -0.0070577
143 0.9997826 -0.0073743 0.0002174 0.0073743 0.0002174 0.0073743 0.9997826 -0.0073743
150 0.9997704 -0.0077052 0.0002296 0.0077052 0.0002296 0.0077052 0.9997704 -0.0077052
156 0.9997576 -0.0080510 0.0002424 0.0080510 0.0002424 0.0080510 0.9997576 -0.0080510
164 0.9997442 -0.0084124 0.0002558 0.0084124 0.0002558 0.0084124 0.9997442 -0.0084124
171 0.9997302 -0.0087902 0.0002698 0.0087902 0.0002698 0.0087902 0.9997302 -0.0087902
179 0.9997155 -0.0091851 0.0002845 0.0091851 0.0002845 0.0091851 0.9997155 -0.0091851
187 0.9997000 -0.0095980 0.0003000 0.0095980 0.0003000 0.0095980 0.9997000 -0.0095980
196 0.9996837 -0.0100296 0.0003163 0.0100296 0.0003163 0.0100296 0.9996837 -0.0100296
205 0.9996665 -0.0104809 0.0003335 0.0104809 0.0003335 0.0104809 0.9996665 -0.0104809
214 0.9996483 -0.0109527 0.0003517 0.0109527 0.0003517 0.0109527 0.9996483 -0.0109527
224 0.9996289 -0.0114460 0.0003711 0.0114460 0.0003711 0.0114460 0.9996289 -0.0114460
234 0.9996083 -0.0119617 0.0003917 0.0119617 0.0003917 0.0119617 0.9996083 -0.0119617
245 0.9995864 -0.0125010 0.0004136 0.0125010 0.0004136 0.0125010 0.9995864 -0.0125010
256 0.9995630 -0.0130648 0.0004370 0.0130648 0.0004370 0.0130648 0.9995630 -0.0130648
268 0.9995379 -0.0136544 0.0004621 0.0136544 0.0004621 0.0136544 0.9995379 -0.0136544
280 0.9995111 -0.0142708 0.0004889 0.0142708 0.0004889 0.0142708 0.9995111 -0.0142708
293 0.9994822 -0.0149153 0.0005178 0.0149153 0.0005178 0.0149153 0.9994822 -0.0149153
306 0.9994512 -0.0155891 0.0005488 0.0155891 0.0005488 0.0155891 0.9994512 -0.0155891
320 0.9994178 -0.0162936 0.0005822 0.0162936 0.0005822 0.0162936 0.9994178 -0.0162936
335 0.9993818 -0.0170301 0.0006182 0.0170301 0.0006182 0.0170301 0.9993818 -0.0170301
350 0.9993429 -0.0178001 0.0006571 0.0178001 0.0006571 0.0178001 0.9993429 -0.0178001
366 0.9993010 -0.0186050 0.0006990 0.0186050 0.0006990 0.0186050 0.9993010 -0.0186050
383 0.9992556 -0.0194465 0.0007444 0.0194465 0.0007444 0.0194465 0.9992556 -0.0194465
401 0.9992065 -0.0203260 0.0007935 0.0203260 0.0007935 0.0203260 0.9992065 -0.0203260
419 0.9991534 -0.0212454 0.0008466 0.0212454 0.0008466 0.0212454 0.9991534 -0.0212454
438 0.9990960 -0.0222063 0.0009040 0.0222063 0.0009040 0.0222063 0.9990960 -0.0222063
458 0.9990337 -0.0232105 0.0009663 0.0232105 0.0009663 0.0232105 0.9990337 -0.0232105
479 0.9989663 -0.0242601 0.0010337 0.0242601 0.0010337 0.0242601 0.9989663 -0.0242601
501 0.9988933 -0.0253569 0.0011067 0.0253569 0.0011067 0.0253569 0.9988933 -0.0253569
524 0.9988143 -0.0265031 0.0011857 0.0265031 0.0011857 0.0265031 0.9988143 -0.0265031
548 0.9987287 -0.0277008 0.0012713 0.0277008 0.0012713 0.0277008 0.9987287 -0.0277008
573 0.9986359 -0.0289522 0.0013641 0.0289522 0.0013641 0.0289522 0.9986359 -0.0289522
600 0.9985355 -0.0302597 0.0014645 0.0302597 0.0014645 0.0302597 0.9985355 -0.0302597
627 0.9984268 -0.0316258 0.0015732 0.0316258 0.0015732 0.0316258 0.9984268 -0.0316258
656 0.9983091 -0.0330529 0.0016909 0.0330529 0.0016909 0.0330529 0.9983091 -0.0330529
686 0.9981817 -0.0345439 0.0018183 0.0345439 0.0018183 0.0345439 0.9981817 -0.0345439
717 0.9980437 -0.0361014 0.0019563 0.0361014 0.0019563 0.0361014 0.9980437 -0.0361014
750 0.9978945 -0.0377284 0.0021055 0.0377284 0.0021055 0.0377284 0.9978945 -0.0377284
784 0.9977329 -0.0394279 0.0022671 0.0394279 0.0022671 0.0394279 0.9977329 -0.0394279
820 0.9975581 -0.0412030 0.0024419 0.0412030 0.0024419 0.0412030 0.9975581 -0.0412030
858 0.9973689 -0.0430572 0.0026311 0.0430572 0.0026311 0.0430572 0.9973689 -0.0430572
897 0.9971641 -0.0449938 0.0028359 0.0449938 0.0028359 0.0449938 0.9971641 -0.0449938
938 0.9969425 -0.0470165 0.0030575 0.0470165 0.0030575 0.0470165 0.9969425 -0.0470165
981 0.9967026 -0.0491291 0.0032974 0.0491291 0.0032974 0.0491291 0.9967026 -0.0491291
1026 0.9964429 -0.0513353 0.0035571 0.0513353 0.0035571 0.0513353 0.9964429 -0.0513353
1073 0.9961617 -0.0536395 0.0038383 0.0536395 0.0038383 0.0536395 0.9961617 -0.0536395
1122 0.9958571 -0.0560457 0.0041429 0.0560457 0.0041429 0.0560457 0.9958571 -0.0560457
1174 0.9955271 -0.0585585 0.0044729 0.0585585 0.0044729 0.0585585 0.9955271 -0.0585585
1227 0.9951694 -0.0611825 0.0048306 0.0611825 0.0048306 0.0611825 0.9951694 -0.0611825
1283 0.9947817 -0.0639223 0.0052183 0.0639223 0.0052183 0.0639223 0.9947817 -0.0639223
1342 0.9943611 -0.0667831 0.0056389 0.0667831 0.0056389 0.0667831 0.9943611 -0.0667831
1404 0.9939049 -0.0697698 0.0060951 0.0697698 0.0060951 0.0697698 0.9939049 -0.0697698
1468 0.9934097 -0.0728879 0.0065903 0.0728879 0.0065903 0.0728879 0.9934097 -0.0728879
1535 0.9928721 -0.0761426 0.0071279 0.0761426 0.0071279 0.0761426 0.9928721 -0.0761426
1606 0.9922883 -0.0795398 0.0077117 0.0795398 0.0077117 0.0795398 0.9922883 -0.0795398
1679 0.9916539 -0.0830851 0.0083461 0.0830851 0.0083461 0.0830851 0.9916539 -0.0830851
1756 0.9909646 -0.0867845 0.0090354 0.0867845 0.0090354 0.0867845 0.9909646 -0.0867845
1836 0.9902152 -0.0906439 0.0097848 0.0906439 0.0097848 0.0906439 0.9902152 -0.0906439
1920 0.9894003 -0.0946697 0.0105997 0.0946697 0.0105997 0.0946697 0.9894003 -0.0946697
2008 0.9885142 -0.0988681 0.0114858 0.0988681 0.0114858 0.0988681 0.9885142 -0.0988681
2100 0.9875503 -0.1032454 0.0124497 0.1032454 0.0124497 0.1032454 0.9875503 -0.1032454
2196 0.9865018 -0.1078081 0.0134982 0.1078081 0.0134982 0.1078081 0.9865018 -0.1078081
2297 0.9853611 -0.1125627 0.0146389 0.1125627 0.0146389 0.1125627 0.9853611 -0.1125627
2402 0.9841201 -0.1175156 0.0158799 0.1175156 0.0158799 0.1175156 0.9841201 -0.1175156
2512 0.9827700 -0.1226734 0.0172300 0.1226734 0.0172300 0.1226734 0.9827700 -0.1226734
2627 0.9813014 -0.1280423 0.0186986 0.1280423 0.0186986 0.1280423 0.9813014 -0.1280423
2748 0.9797040 -0.1336287 0.0202960 0.1336287 0.0202960 0.1336287 0.9797040 -0.1336287
2873 0.9779668 -0.1394388 0.0220332 0.1394388 0.0220332 0.1394388 0.9779668 -0.1394388
3005 0.9760779 -0.1454784 0.0239221 0.1454784 0.0239221 0.1454784 0.9760779 -0.1454784
3143 0.9740248 -0.1517531 0.0259752 0.1517531 0.0259752 0.1517531 0.9740248 -0.1517531
3287 0.9717938 -0.1582683 0.0282062 0.1582683 0.0282062 0.1582683 0.9717938 -0.1582683
3437 0.9693705 -0.1650287 0.0306295 0.1650287 0.0306295 0.1650287 0.9693705 -0.1650287
3594 0.9667392 -0.1720386 0.0332608 0.1720386 0.0332608 0.1720386 0.9667392 -0.1720386
3759 0.9638835 -0.1793018 0.0361165 0.1793018 0.0361165 0.1793018 0.9638835 -0.1793018
3931 0.9607859 -0.1868210 0.0392141 0.1868210 0.0392141 0.1868210 0.9607859 -0.1868210
4111 0.9574277 -0.1945983 0.0425723 0.1945983 0.0425723 0.1945983 0.9574277 -0.1945983
4299 0.9537894 -0.2026349 0.0462106 0.2026349 0.0462106 0.2026349 0.9537894 -0.2026349
4496 0.9498502 -0.2109304 0.0501498 0.2109304 0.0501498 0.2109304 0.9498502 -0.2109304
4702 0.9455884 -0.2194835 0.0544116 0.2194835 0.0544116 0.2194835 0.9455884 -0.2194835
4918 0.9409811 -0.2282912 0.0590189 0.2282912 0.0590189 0.2282912 0.9409811 -0.2282912
5143 0.9360047 -0.2373490 0.0639953 0.2373490 0.0639953 0.2373490 0.9360047 -0.2373490
5378 0.9306345 -0.2466504 0.0693655 0.2466504 0.0693655 0.2466504 0.9306345 -0.2466504
5625 0.9248450 -0.2561868 0.0751550 0.2561868 0.0751550 0.2561868 0.9248450 -0.2561868
5882 0.9186100 -0.2659476 0.0813900 0.2659476 0.0813900 0.2659476 0.9186100 -0.2659476
6151 0.9119028 -0.2759194 0.0880972 0.2759194 0.0880972 0.2759194 0.9119028 -0.2759194
6433 0.9046961 -0.2860862 0.0953039 0.2860862 0.0953039 0.2860862 0.9046961 -0.2860862
6728 0.8969628 -0.2964293 0.1030372 0.2964293 0.1030372 0.2964293 0.8969628 -0.2964293
7036 0.8886756 -0.3069266 0.1113244 0.3069266 0.1113244 0.3069266 0.8886756 -0.3069266
7358 0.8798076 -0.3175527 0.1201924 0.3175527 0.1201924 0.3175527 0.8798076 -0.3175527
7695 0.8703326 -0.3282789 0.1296674 0.3282789 0.1296674 0.3282789 0.8703326 -0.3282789
8047 0.8602258 -0.3390727 0.1397742 0.3390727 0.1397742 0.3390727 0.8602258 -0.3390727
8416 0.8494635 -0.3498978 0.1505365 0.3498978 0.1505365 0.3498978 0.8494635 -0.3498978
8801 0.8380245 -0.3607142 0.1619755 0.3607142 0.1619755 0.3607142 0.8380245 -0.3607142
9204 0.8258900 -0.3714781 0.1741100 0.3714781 0.1741100 0.3714781 0.8258900 -0.3714781
9626 0.8130441 -0.3821418 0.1869559 0.3821418 0.1869559 0.3821418 0.8130441 -0.3821418
10066 0.7994751 -0.3926539 0.2005249 0.3926539 0.2005249 0.3926539 0.7994751 -0.3926539
10527 0.7851753 -0.4029599 0.2148247 0.4029599 0.2148247 0.4029599 0.7851753 -0.4029599
11009 0.7701423 -0.4130020 0.2298577 0.4130020 0.2298577 0.4130020 0.7701423 -0.4130020
11514 0.7543790 -0.4227201 0.2456210 0.4227201 0.2456210 0.4227201 0.7543790 -0.4227201
12041 0.7378947 -0.4320520 0.2621053 0.4320520 0.2621053 0.4320520 0.7378947 -0.4320520
12592 0.7207053 -0.4409341 0.2792947 0.4409341 0.2792947 0.4409341 0.7207053 -0.4409341
13169 0.7028337 -0.4493026 0.2971663 0.4493026 0.2971663 0.4493026 0.7028337 -0.4493026
13772 0.6843104 -0.4570940 0.3156896 0.4570940 0.3156896 0.4570940 0.6843104 -0.4570940
14402 0.6651734 -0.4642463 0.3348266 0.4642463 0.3348266 0.4642463 0.6651734 -0.4642463
15062 0.6454682 -0.4707001 0.3545318 0.4707001 0.3545318 0.4707001 0.6454682 -0.4707001
15752 0.6252478 -0.4763994 0.3747522 0.4763994 0.3747522 0.4763994 0.6252478 -0.4763994
16473 0.6045725 -0.4812935 0.3954275 0.4812935 0.3954275 0.4812935 0.6045725 -0.4812935
17227 0.5835087 -0.4853369 0.4164913 0.4853369 0.4164913 0.4853369 0.5835087 -0.4853369
18016 0.5621290 -0.4884915 0.4378710 0.4884915 0.4378710 0.4884915 0.5621290 -0.4884915
18841 0.5405106 -0.4907266 0.4594894 0.4907266 0.4594894 0.4907266 0.5405106 -0.4907266
19704 0.5187345 -0.4920199 0.4812655 0.4920199 0.4812655 0.4920199 0.5187345 -0.4920199
20606 0.4968844 -0.4923584 0.5031156 0.4923584 0.5031156 0.4923584 0.4968844 -0.4923584
21550 0.4750451 -0.4917382 0.5249549 0.4917382 0.5249549 0.4917382 0.4750451 -0.4917382
22537 0.4533014 -0.4901648 0.5466986 0.4901648 0.5466986 0.4901648 0.4533014 -0.4901648
23569 0.4317369 -0.4876533 0.5682631 0.4876533 0.5682631 0.4876533 0.4317369 -0.4876533
24648 0.4104321 -0.4842275 0.5895679 0.4842275 0.5895679 0.4842275 0.4104321 -0.4842275
25777 0.3894639 -0.4799197 0.6105361 0.4799197 0.6105361 0.4799197 0.3894639 -0.4799197
26957 0.3689039 -0.4747701 0.6310961 0.4747701 0.6310961 0.4747701 0.3689039 -0.4747701
28191 0.3488181 -0.4688255 0.6511819 0.4688255 0.6511819 0.4688255 0.3488181 -0.4688255
29482 0.3292655 -0.4621384 0.6707345 0.4621384 0.6707345 0.4621384 0.3292655 -0.4621384
30832 0.3102980 -0.4547662 0.6897020 0.4547662 0.6897020 0.4547662 0.3102980 -0.4547662
32244 0.2919599 -0.4467697 0.7080401 0.4467697 0.7080401 0.4467697 0.2919599 -0.4467697
33721 0.2742877 -0.4382123 0.7257123 0.4382123 0.7257123 0.4382123 0.2742877 -0.4382123
35265 0.2573103 -0.4291586 0.7426897 0.4291586 0.7426897 0.4291586 0.2573103 -0.4291586
36880 0.2410488 -0.4196734 0.7589512 0.4196734 0.7589512 0.4196734 0.2410488 -0.4196734
38569 0.2255173 -0.4098211 0.7744827 0.4098211 0.7744827 0.4098211 0.2255173 -0.4098211
40335 0.2107229 -0.3996643 0.7892771 0.3996643 0.7892771 0.3996643 0.2107229 -0.3996643
42182 0.1966669 -0.3892638 0.8033331 0.3892638 0.8033331 0.3892638 0.1966669 -0.3892638
44113 0.1833444 -0.3786772 0.8166556 0.3786772 0.8166556 0.3786772 0.1833444 -0.3786772
46134 0.1707460 -0.3679590 0.8292540 0.3679590 0.8292540 0.3679590 0.1707460 -0.3679590
48246 0.1588576 -0.3571602 0.8411424 0.3571602 0.8411424 0.3571602 0.1588576 -0.3571602
50455 0.1476618 -0.3463278 0.8523382 0.3463278 0.8523382 0.3463278 0.1476618 -0.3463278
52766 0.1371378 -0.3355047 0.8628622 0.3355047 0.8628622 0.3355047 0.1371378 -0.3355047
55182 0.1272626 -0.3247300 0.8727374 0.3247300 0.8727374 0.3247300 0.1272626 -0.3247300
57709 0.1180112 -0.3140387 0.8819888 0.3140387 0.8819888 0.3140387 0.1180112 -0.3140387
60352 0.1093574 -0.3034618 0.8906426 0.3034618 0.8906426 0.3034618 0.1093574 -0.3034618
63115 0.1012739 -0.2930268 0.8987261 0.2930268 0.8987261 0.2930268 0.1012739 -0.2930268
66005 0.0937331 -0.2827573 0.9062669 0.2827573 0.9062669 0.2827573 0.0937331 -0.2827573
69028 0.0867070 -0.2726737 0.9132930 0.2726737 0.9132930 0.2726737 0.0867070 -0.2726737
72189 0.0801680 -0.2627933 0.9198320 0.2627933 0.9198320 0.2627933 0.0801680 -0.2627933
75495 0.0740886 -0.2531305 0.9259114 0.2531305 0.9259114 0.2531305 0.0740886 -0.2531305
78952 0.0684422 -0.2436971 0.9315578 0.2436971 0.9315578 0.2436971 0.0684422 -0.2436971
82567 0.0632028 -0.2345023 0.9367972 0.2345023 0.9367972 0.2345023 0.0632028 -0.2345023
86348 0.0583451 -0.2255534 0.9416549 0.2255534 0.9416549 0.2255534 0.0583451 -0.2255534
90302 0.0538451 -0.2168555 0.9461549 0.2168555 0.9461549 0.2168555 0.0538451 -0.2168555
94437 0.0496795 -0.2084123 0.9503205 0.2084123 0.9503205 0.2084123 0.0496795 -0.2084123
98762 0.0458262 -0.2002256 0.9541738 0.2002256 0.9541738 0.2002256 0.0458262 -0.2002256
103284 0.0422641 -0.1922962 0.9577359 0.1922962 0.9577359 0.1922962 0.0422641 -0.1922962
108014 0.0389734 -0.1846235 0.9610266 0.1846235 0.9610266 0.1846235 0.0389734 -0.1846235
112960 0.0359352 -0.1772058 0.9640648 0.1772058 0.9640648 0.1772058 0.0359352 -0.1772058
118133 0.0331315 -0.1700408 0.9668685 0.1700408 0.9668685 0.1700408 0.0331315 -0.1700408
123542 0.0305457 -0.1631252 0.9694543 0.1631252 0.9694543 0.1631252 0.0305457 -0.1631252
129199 0.0281619 -0.1564552 0.9718381 0.1564552 0.9718381 0.1564552 0.0281619 -0.1564552
135116 0.0259654 -0.1500263 0.9740346 0.1500263 0.9740346 0.1500263 0.0259654 -0.1500263
141303 0.0239422 -0.1438337 0.9760578 0.1438337 0.9760578 0.1438337 0.0239422 -0.1438337
147774 0.0220795 -0.1378720 0.9779205 0.1378720 0.9779205 0.1378720 0.0220795 -0.1378720
154540 0.0203649 -0.1321358 0.9796351 0.1321358 0.9796351 0.1321358 0.0203649 -0.1321358
161617 0.0187873 -0.1266193 0.9812127 0.1266193 0.9812127 0.1266193 0.0187873 -0.1266193
169018 0.0173361 -0.1213164 0.9826639 0.1213164 0.9826639 0.1213164 0.0173361 -0.1213164
176758 0.0160013 -0.1162210 0.9839987 0.1162210 0.9839987 0.1162210 0.0160013 -0.1162210
184852 0.0147740 -0.1113270 0.9852260 0.1113270 0.9852260 0.1113270 0.0147740 -0.1113270
193316 0.0136456 -0.1066281 0.9863544 0.1066281 0.9863544 0.1066281 0.0136456 -0.1066281
202169 0.0126083 -0.1021179 0.9873917 0.1021179 0.9873917 0.1021179 0.0126083 -0.1021179
211427 0.0116546 -0.0977903 0.9883454 0.0977903 0.9883454 0.0977903 0.0116546 -0.0977903
221108 0.0107780 -0.0936391 0.9892220 0.0936391 0.9892220 0.0936391 0.0107780 -0.0936391
231233 0.0099721 -0.0896580 0.9900279 0.0896580 0.9900279 0.0896580 0.0099721 -0.0896580
241822 0.0092311 -0.0858410 0.9907689 0.0858410 0.9907689 0.0858410 0.0092311 -0.0858410
252896 0.0085498 -0.0821821 0.9914502 0.0821821 0.9914502 0.0821821 0.0085498 -0.0821821
264476 0.0079231 -0.0786754 0.9920769 0.0786754 0.9920769 0.0786754 0.0079231 -0.0786754
276587 0.0073467 -0.0753152 0.9926533 0.0753152 0.9926533 0.0753152 0.0073467 -0.0753152
289253 0.0068162 -0.0720959 0.9931838 0.0720959 0.9931838 0.0720959 0.0068162 -0.0720959
302498 0.0063278 -0.0690119 0.9936722 0.0690119 0.9936722 0.0690119 0.0063278 -0.0690119
316350 0.0058781 -0.0660580 0.9941219 0.0660580 0.9941219 0.0660580 0.0058781 -0.0660580
330837 0.0054638 -0.0632289 0.9945362 0.0632289 0.9945362 0.0632289 0.0054638 -0.0632289
345986 0.0050819 -0.0605196 0.9949181 0.0605196 0.9949181 0.0605196 0.0050819 -0.0605196
361830 0.0047298 -0.0579252 0.9952702 0.0579252 0.9952702 0.0579252 0.0047298 -0.0579252
378399 0.0044049 -0.0554411 0.9955951 0.0554411 0.9955951 0.0554411 0.0044049 -0.0554411
395726 0.0041050 -0.0530626 0.9958950 0.0530626 0.9958950 0.0530626 0.0041050 -0.0530626
413847 0.0038280 -0.0507853 0.9961720 0.0507853 0.9961720 0.0507853 0.0038280 -0.0507853
432798 0.0035720 -0.0486050 0.9964280 0.0486050 0.9964280 0.0486050 0.0035720 -0.0486050
452617 0.0033353 -0.0465177 0.9966647 0.0465177 0.9966647 0.0465177 0.0033353 -0.0465177
473344 0.0031164 -0.0445193 0.9968836 0.0445193 0.9968836 0.0445193 0.0031164 -0.0445193
495019 0.0029138 -0.0426061 0.9970862 0.0426061 0.9970862 0.0426061 0.0029138 -0.0426061
517687 0.0027263 -0.0407746 0.9972737 0.0407746 0.9972737 0.0407746 0.0027263 -0.0407746
541393 0.0025526 -0.0390211 0.9974474 0.0390211 0.9974474 0.0390211 0.0025526 -0.0390211
566185 0.0023917 -0.0373425 0.9976083 0.0373425 0.9976083 0.0373425 0.0023917 -0.0373425
592111 0.0022426 -0.0357355 0.9977574 0.0357355 0.9977574 0.0357355 0.0022426 -0.0357355
619225 0.0021044 -0.0341970 0.9978956 0.0341970 0.9978956 0.0341970 0.0021044 -0.0341970
647581 0.0019763 -0.0327242 0.9980237 0.0327242 0.9980237 0.0327242 0.0019763 -0.0327242
677235 0.0018575 -0.0313142 0.9981425 0.0313142 0.9981425 0.0313142 0.0018575 -0.0313142
708247 0.0017474 -0.0299644 0.9982526 0.0299644 0.9982526 0.0299644 0.0017474 -0.0299644
740679 0.0016454 -0.0286723 0.9983546 0.0286723 0.9983546 0.0286723 0.0016454 -0.0286723
774597 0.0015508 -0.0274353 0.9984492 0.0274353 0.9984492 0.0274353 0.0015508 -0.0274353
810067 0.0014631 -0.0262512 0.9985369 0.0262512 0.9985369 0.0262512 0.0014631 -0.0262512
847162 0.0013818 -0.0251178 0.9986182 0.0251178 0.9986182 0.0251178 0.0013818 -0.0251178
885955 0.0013064 -0.0240328 0.9986936 0.0240328 0.9986936 0.0240328 0.0013064 -0.0240328
926525 0.0012366 -0.0229943 0.9987634 0.0229943 0.9987634 0.0229943 0.0012366 -0.0229943
968953 0.0011720 -0.0220003 0.9988280 0.0220003 0.9988280 0.0220003 0.0011720 -0.0220003
1013323 0.0011120 -0.0210489 0.9988880 0.0210489 0.9988880 0.0210489 0.0011120 -0.0210489
1059725 0.0010565 -0.0201384 0.9989435 0.0201384 0.9989435 0.0201384 0.0010565 -0.0201384
1108252 0.0010051 -0.0192669 0.9989949 0.0192669 0.9989949 0.0192669 0.0010051 -0.0192669
1159002 0.0009574 -0.0184330 0.9990426 0.0184330 0.9990426 0.0184330 0.0009574 -0.0184330
1212075 0.0009133 -0.0176349 0.9990867 0.0176349 0.9990867 0.0176349 0.0009133 -0.0176349
1267578 0.0008723 -0.0168711 0.9991277 0.0168711 0.9991277 0.0168711 0.0008723 -0.0168711
1325623 0.0008344 -0.0161403 0.9991656 0.0161403 0.9991656 0.0161403 0.0008344 -0.0161403
1386327 0.0007992 -0.0154410 0.9992008 0.0154410 0.9992008 0.0154410 0.0007992 -0.0154410
1449809 0.0007665 -0.0147719 0.9992335 0.0147719 0.9992335 0.0147719 0.0007665 -0.0147719
1516199 0.0007362 -0.0141316 0.9992638 0.0141316 0.9992638 0.0141316 0.0007362 -0.0141316
1585629 0.0007080 -0.0135190 0.9992920 0.0135190 0.9992920 0.0135190 0.0007080 -0.0135190
1658239 0.0006818 -0.0129329 0.9993182 0.0129329 0.9993182 0.0129329 0.0006818 -0.0129329
1734173 0.0006574 -0.0123721 0.9993426 0.0123721 0.9993426 0.0123721 0.0006574 -0.0123721
1813585 0.0006346 -0.0118355 0.9993654 0.0118355 0.9993654 0.0118355 0.0006346 -0.0118355
1896632 0.0006134 -0.0113221 0.9993866 0.0113221 0.9993866 0.0113221 0.0006134 -0.0113221
1983483 0.0005936 -0.0108309 0.9994064 0.0108309 0.9994064 0.0108309 0.0005936 -0.0108309
2074311 0.0005750 -0.0103610 0.9994250 0.0103610 0.9994250 0.0103610 0.0005750 -0.0103610
