!  American Technical Ceramics  Date:    3/13/98
!  One Norden Lane
!  Huntington Station,  NY.   11746-2102
!  Tel:  (516) 547-5700               Fax:  (516) 547-5748
!  Part Number  100A8R2B
!  Description: Porcelain, High Q, Low ESR
!  Application: Bypass, Coupling, Timing, Feedback
!               Tuning, Impedance Match, Blocking
# GHZ S DB R 50
! Freq   |S11|   S11 Ph  |S21|   S21 Ph  |S12|   S12 Ph  |S22|   S22 Ph
    0.05   -0.23  -14.01  -12.08   76.29  -12.08   76.29   -0.23  -14.01
    0.11   -1.21  -29.58   -6.07   60.00   -6.07   60.00   -1.21  -29.58
    0.17   -2.46  -41.97   -3.56   48.32   -3.56   48.32   -2.46  -41.97
    0.24   -3.89  -50.74   -2.26   39.71   -2.26   39.71   -3.89  -50.74
    0.30   -5.20  -57.46   -1.52   33.19   -1.52   33.19   -5.20  -57.46
    0.36   -6.46  -62.40   -1.09   28.31   -1.09   28.31   -6.46  -62.40
    0.42   -7.57  -66.38   -0.80   24.54   -0.80   24.54   -7.57  -66.38
    0.48   -8.56  -69.26   -0.61   21.61   -0.61   21.61   -8.56  -69.26
    0.54   -9.76  -71.74   -0.49   18.75   -0.49   18.75   -9.76  -71.74
    0.61  -10.65  -74.05   -0.39   16.97   -0.39   16.97  -10.65  -74.05
    0.67  -11.43  -75.75   -0.34   15.48   -0.34   15.48  -11.43  -75.75
    0.73  -12.22  -76.99   -0.28   14.14   -0.28   14.14  -12.22  -76.99
    0.79  -12.99  -78.26   -0.24   13.06   -0.24   13.06  -12.99  -78.26
    0.85  -13.68  -79.51   -0.20   11.89   -0.20   11.89  -13.68  -79.51
    0.91  -14.31  -80.43   -0.17   11.10   -0.17   11.10  -14.31  -80.43
    0.98  -14.89  -81.47   -0.14   10.32   -0.14   10.32  -14.89  -81.47
    1.04  -15.52  -82.22   -0.15    9.54   -0.15    9.54  -15.52  -82.22
    1.10  -16.11  -83.11   -0.11    8.86   -0.11    8.86  -16.11  -83.11
    1.16  -16.61  -83.75   -0.10    8.27   -0.10    8.27  -16.61  -83.75
    1.22  -17.16  -83.96   -0.08    7.85   -0.08    7.85  -17.16  -83.96
    1.29  -17.70  -84.75   -0.08    7.35   -0.08    7.35  -17.70  -84.75
    1.35  -18.21  -85.26   -0.06    6.96   -0.06    6.96  -18.21  -85.26
    1.41  -18.70  -85.62   -0.06    6.58   -0.06    6.58  -18.70  -85.62
    1.47  -19.22  -86.25   -0.06    6.15   -0.06    6.15  -19.22  -86.25
    1.53  -19.72  -86.51   -0.06    5.84   -0.06    5.84  -19.72  -86.51
    1.59  -20.26  -87.31   -0.05    5.49   -0.05    5.49  -20.26  -87.31
    1.66  -20.66  -87.42   -0.04    5.09   -0.04    5.09  -20.66  -87.42
    1.72  -21.22  -87.36   -0.06    4.71   -0.06    4.71  -21.22  -87.36
    1.78  -21.74  -87.87   -0.03    4.41   -0.03    4.41  -21.74  -87.87
    1.84  -22.24  -88.49   -0.03    4.18   -0.03    4.18  -22.24  -88.49
    1.90  -22.68  -87.92   -0.03    3.99   -0.03    3.99  -22.68  -87.92
    1.96  -23.25  -88.21   -0.03    3.66   -0.03    3.66  -23.25  -88.21
    2.03  -23.82  -88.37   -0.03    3.55   -0.03    3.55  -23.82  -88.37
    2.09  -24.44  -89.07   -0.03    3.34   -0.03    3.34  -24.44  -89.07
    2.15  -24.78  -88.79   -0.04    3.16   -0.04    3.16  -24.78  -88.79
    2.21  -25.47  -88.47   -0.03    2.84   -0.03    2.84  -25.47  -88.47
    2.27  -26.09  -88.86   -0.03    2.81   -0.03    2.81  -26.09  -88.86
    2.33  -26.67  -89.10   -0.03    2.45   -0.03    2.45  -26.67  -89.10
    2.40  -27.24  -88.61   -0.03    2.23   -0.03    2.23  -27.24  -88.61
    2.46  -27.93  -88.45   -0.03    2.33   -0.03    2.33  -27.93  -88.45
    2.52  -28.62  -88.90   -0.02    1.99   -0.02    1.99  -28.62  -88.90
    2.58  -29.42  -88.15   -0.03    1.84   -0.03    1.84  -29.42  -88.15
    2.64  -30.10  -87.66   -0.03    1.69   -0.03    1.69  -30.10  -87.66
    2.71  -30.88  -87.56   -0.03    1.52   -0.03    1.52  -30.88  -87.56
    2.77  -31.71  -87.41   -0.01    1.37   -0.01    1.37  -31.71  -87.41
    2.83  -32.59  -85.67   -0.01    1.33   -0.01    1.33  -32.59  -85.67
    2.89  -33.58  -84.95   -0.02    1.16   -0.02    1.16  -33.58  -84.95
    2.95  -34.62  -84.36   -0.03    1.04   -0.03    1.04  -34.62  -84.36
    3.01  -35.63  -81.84   -0.04    0.81   -0.04    0.81  -35.63  -81.84
    3.08  -36.87  -81.39   -0.04    0.66   -0.04    0.66  -36.87  -81.39
    3.14  -38.06  -76.77   -0.03    0.60   -0.03    0.60  -38.06  -76.77
    3.20  -39.73  -71.01   -0.05    0.47   -0.05    0.47  -39.73  -71.01
    3.26  -41.33  -64.65   -0.02    0.32   -0.02    0.32  -41.33  -64.65
    3.32  -42.54  -59.89   -0.03    0.16   -0.03    0.16  -42.54  -59.89
    3.38  -43.89  -48.29   -0.05   -0.14   -0.05   -0.14  -43.89  -48.29
    3.45  -45.15  -34.99   -0.05   -0.06   -0.05   -0.06  -45.15  -34.99
    3.51  -45.74  -26.08   -0.03   -0.18   -0.03   -0.18  -45.74  -26.08
    3.57  -45.74   -8.31   -0.04   -0.40   -0.04   -0.40  -45.74   -8.31
    3.63  -45.89   10.04   -0.04   -0.32   -0.04   -0.32  -45.89   10.04
    3.69  -45.39   18.53   -0.05   -0.54   -0.05   -0.54  -45.39   18.53
    3.76  -44.07   27.29   -0.04   -0.59   -0.04   -0.59  -44.07   27.29
    3.82  -43.05   36.41   -0.03   -0.90   -0.03   -0.90  -43.05   36.41
    3.88  -42.60   35.07   -0.04   -0.96   -0.04   -0.96  -42.60   35.07
    3.94  -41.67   40.32   -0.06   -0.95   -0.06   -0.95  -41.67   40.32
    4.00  -40.04   52.04   -0.06   -1.13   -0.06   -1.13  -40.04   52.04
    4.06  -39.76   56.21   -0.06   -1.13   -0.06   -1.13  -39.76   56.21
    4.13  -38.94   57.01   -0.06   -1.33   -0.06   -1.33  -38.94   57.01
    4.19  -38.32   60.58   -0.06   -1.27   -0.06   -1.27  -38.32   60.58
    4.25  -37.80   63.18   -0.07   -1.34   -0.07   -1.34  -37.80   63.18
    4.31  -37.56   63.16   -0.05   -1.43   -0.05   -1.43  -37.56   63.16
    4.37  -36.60   67.99   -0.05   -1.60   -0.05   -1.60  -36.60   67.99
    4.43  -36.70   67.27   -0.07   -1.58   -0.07   -1.58  -36.70   67.27
    4.50  -36.06   69.55   -0.07   -1.75   -0.07   -1.75  -36.06   69.55
    4.56  -35.44   71.58   -0.05   -1.89   -0.05   -1.89  -35.44   71.58
    4.62  -35.22   72.19   -0.07   -1.89   -0.07   -1.89  -35.22   72.19
    4.68  -34.83   71.44   -0.07   -2.03   -0.07   -2.03  -34.83   71.44
    4.74  -34.33   73.16   -0.08   -2.19   -0.08   -2.19  -34.33   73.16
    4.80  -34.15   72.46   -0.08   -2.24   -0.08   -2.24  -34.15   72.46
    4.87  -33.64   73.90   -0.08   -2.32   -0.08   -2.32  -33.64   73.90
    4.93  -33.70   74.43   -0.07   -2.38   -0.07   -2.38  -33.70   74.43
    4.99  -33.17   74.41   -0.08   -2.58   -0.08   -2.58  -33.17   74.41
    5.05  -32.68   74.91   -0.09   -2.64   -0.09   -2.64  -32.68   74.91
    5.11  -32.57   75.92   -0.06   -2.69   -0.06   -2.69  -32.57   75.92
    5.18  -32.27   75.23   -0.09   -2.86   -0.09   -2.86  -32.27   75.23
    5.24  -31.82   76.03   -0.11   -2.84   -0.11   -2.84  -31.82   76.03
    5.30  -31.41   76.26   -0.08   -3.06   -0.08   -3.06  -31.41   76.26
    5.36  -31.15   75.56   -0.09   -3.07   -0.09   -3.07  -31.15   75.56
    5.42  -30.98   75.52   -0.09   -3.20   -0.09   -3.20  -30.98   75.52
    5.48  -30.42   75.42   -0.10   -3.28   -0.10   -3.28  -30.42   75.42
    5.55  -30.26   74.83   -0.09   -3.36   -0.09   -3.36  -30.26   74.83
    5.61  -30.08   75.01   -0.11   -3.51   -0.11   -3.51  -30.08   75.01
    5.67  -29.67   75.87   -0.12   -3.47   -0.12   -3.47  -29.67   75.87
    5.73  -29.19   76.59   -0.12   -3.53   -0.12   -3.53  -29.19   76.59
    5.79  -28.83   76.26   -0.11   -3.76   -0.11   -3.76  -28.83   76.26
    5.85  -28.53   75.04   -0.10   -3.88   -0.10   -3.88  -28.53   75.04
    5.92  -28.34   75.16   -0.12   -3.92   -0.12   -3.92  -28.34   75.16
    5.98  -27.73   76.54   -0.14   -3.82   -0.14   -3.82  -27.73   76.54
    6.04  -27.42   74.65   -0.14   -3.96   -0.14   -3.96  -27.42   74.65
    6.10  -27.04   74.89   -0.13   -4.17   -0.13   -4.17  -27.04   74.89
    6.16  -26.64   73.96   -0.13   -4.23   -0.13   -4.23  -26.64   73.96
    6.23  -26.27   73.76   -0.13   -4.40   -0.13   -4.40  -26.27   73.76
    6.29  -25.91   73.92   -0.13   -4.40   -0.13   -4.40  -25.91   73.92
    6.35  -25.58   72.87   -0.15   -4.42   -0.15   -4.42  -25.58   72.87
    6.41  -25.13   71.83   -0.15   -4.68   -0.15   -4.68  -25.13   71.83
    6.47  -24.64   72.41   -0.15   -4.82   -0.15   -4.82  -24.64   72.41
    6.53  -24.32   71.28   -0.15   -4.96   -0.15   -4.96  -24.32   71.28
    6.60  -23.85   69.87   -0.16   -5.01   -0.16   -5.01  -23.85   69.87
    6.66  -23.36   69.54   -0.17   -5.23   -0.17   -5.23  -23.36   69.54
    6.72  -23.02   68.43   -0.17   -5.24   -0.17   -5.24  -23.02   68.43
    6.78  -22.66   66.87   -0.18   -5.38   -0.18   -5.38  -22.66   66.87
    6.84  -22.46   65.83   -0.20   -5.51   -0.20   -5.51  -22.46   65.83
    6.90  -21.96   65.06   -0.19   -5.59   -0.19   -5.59  -21.96   65.06
    6.97  -21.62   64.80   -0.20   -5.82   -0.20   -5.82  -21.62   64.80
    7.03  -21.46   63.70   -0.22   -5.77   -0.22   -5.77  -21.46   63.70
    7.09  -21.03   63.57   -0.23   -5.94   -0.23   -5.94  -21.03   63.57
    7.15  -20.66   62.67   -0.25   -6.04   -0.25   -6.04  -20.66   62.67
    7.21  -20.31   61.19   -0.23   -6.10   -0.23   -6.10  -20.31   61.19
    7.27  -20.06   61.04   -0.25   -6.30   -0.25   -6.30  -20.06   61.04
    7.34  -19.80   59.85   -0.28   -6.41   -0.28   -6.41  -19.80   59.85
    7.40  -19.31   58.86   -0.27   -6.43   -0.27   -6.43  -19.31   58.86
    7.46  -19.24   59.51   -0.30   -6.58   -0.30   -6.58  -19.24   59.51
    7.52  -19.00   57.85   -0.30   -6.52   -0.30   -6.52  -19.00   57.85
    7.58  -18.56   57.07   -0.32   -6.67   -0.32   -6.67  -18.56   57.07
    7.65  -18.52   57.90   -0.33   -6.63   -0.33   -6.63  -18.52   57.90
    7.71  -18.23   57.48   -0.34   -6.85   -0.34   -6.85  -18.23   57.48
    7.77  -17.88   56.79   -0.32   -6.77   -0.32   -6.77  -17.88   56.79
    7.83  -17.79   56.83   -0.37   -7.06   -0.37   -7.06  -17.79   56.83
    7.89  -17.37   57.43   -0.36   -6.96   -0.36   -6.96  -17.37   57.43
    7.95  -17.23   56.63   -0.37   -7.06   -0.37   -7.06  -17.23   56.63
    8.02  -17.09   56.08   -0.36   -7.36   -0.36   -7.36  -17.09   56.08
    8.08  -16.68   57.54   -0.39   -7.39   -0.39   -7.39  -16.68   57.54
    8.14  -16.43   56.66   -0.39   -7.66   -0.39   -7.66  -16.43   56.66
    8.20  -16.22   56.96   -0.39   -7.69   -0.39   -7.69  -16.22   56.96
    8.26  -15.97   56.39   -0.39   -7.97   -0.39   -7.97  -15.97   56.39
    8.32  -15.64   56.81   -0.44   -8.01   -0.44   -8.01  -15.64   56.81
    8.39  -15.35   56.84   -0.45   -8.25   -0.45   -8.25  -15.35   56.84
    8.45  -15.25   57.26   -0.45   -8.43   -0.45   -8.43  -15.25   57.26
    8.51  -14.84   56.12   -0.46   -8.69   -0.46   -8.69  -14.84   56.12
    8.57  -14.46   56.80   -0.46   -8.76   -0.46   -8.76  -14.46   56.80
    8.63  -14.30   56.38   -0.49   -9.12   -0.49   -9.12  -14.30   56.38
    8.70  -13.97   56.36   -0.50   -9.34   -0.50   -9.34  -13.97   56.36
    8.76  -13.68   54.69   -0.50   -9.93   -0.50   -9.93  -13.68   54.69
    8.82  -13.30   55.48   -0.56   -9.99   -0.56   -9.99  -13.30   55.48
    8.88  -12.93   54.41   -0.59  -10.49   -0.59  -10.49  -12.93   54.41
    8.94  -12.61   53.27   -0.60  -10.83   -0.60  -10.83  -12.61   53.27
    9.00  -12.15   51.85   -0.69  -11.67   -0.69  -11.67  -12.15   51.85
    9.07  -11.70   51.57   -0.78  -12.09   -0.78  -12.09  -11.70   51.57
    9.13  -11.26   49.38   -0.88  -12.78   -0.88  -12.78  -11.26   49.38
    9.19  -10.76   46.59   -1.00  -13.73   -1.00  -13.73  -10.76   46.59
    9.25  -10.07   43.13   -1.20  -14.97   -1.20  -14.97  -10.07   43.13
    9.31   -9.29   39.38   -1.55  -15.85   -1.55  -15.85   -9.29   39.38
    9.37   -8.62   31.52   -2.09  -16.99   -2.09  -16.99   -8.62   31.52
    9.44   -8.03   21.46   -2.88  -16.31   -2.88  -16.31   -8.03   21.46
    9.50   -7.81    6.05   -3.97  -11.21   -3.97  -11.21   -7.81    6.05
    9.56   -8.66  -10.90   -4.14    0.08   -4.14    0.08   -8.66  -10.90
    9.62  -10.92  -26.48   -3.09    7.58   -3.09    7.58  -10.92  -26.48
    9.68  -13.97  -36.89   -1.98    8.42   -1.98    8.42  -13.97  -36.89
    9.74  -17.54  -38.81   -1.30    7.07   -1.30    7.07  -17.54  -38.81
    9.81  -21.28  -31.84   -0.94    5.17   -0.94    5.17  -21.28  -31.84
    9.87  -24.50  -15.15   -0.77    3.65   -0.77    3.65  -24.50  -15.15
    9.93  -25.89   11.39   -0.58    2.38   -0.58    2.38  -25.89   11.39
    9.99  -25.15   32.13   -0.54    1.36   -0.54    1.36  -25.15   32.13
   10.05  -23.92   45.45   -0.47    0.66   -0.47    0.66  -23.92   45.45
   10.12  -22.89   51.73   -0.43   -0.08   -0.43   -0.08  -22.89   51.73
   10.18  -21.90   56.94   -0.40   -0.79   -0.40   -0.79  -21.90   56.94
   10.24  -21.03   59.78   -0.38   -1.13   -0.38   -1.13  -21.03   59.78
   10.30  -20.44   62.90   -0.37   -1.46   -0.37   -1.46  -20.44   62.90
   10.36  -19.90   63.28   -0.38   -2.01   -0.38   -2.01  -19.90   63.28
   10.42  -19.43   64.57   -0.35   -2.42   -0.35   -2.42  -19.43   64.57
   10.49  -18.94   65.64   -0.34   -2.55   -0.34   -2.55  -18.94   65.64
   10.55  -18.68   66.86   -0.31   -2.77   -0.31   -2.77  -18.68   66.86
   10.61  -18.38   66.34   -0.32   -3.08   -0.32   -3.08  -18.38   66.34
   10.67  -18.09   67.80   -0.28   -3.28   -0.28   -3.28  -18.09   67.80
   10.73  -17.87   67.80   -0.31   -3.43   -0.31   -3.43  -17.87   67.80
   10.79  -17.59   68.47   -0.30   -3.78   -0.30   -3.78  -17.59   68.47
   10.86  -17.36   67.97   -0.31   -3.99   -0.31   -3.99  -17.36   67.97
   10.92  -17.29   68.54   -0.29   -4.14   -0.29   -4.14  -17.29   68.54
   10.98  -17.10   68.46   -0.30   -4.20   -0.30   -4.20  -17.10   68.46
   11.04  -16.85   68.67   -0.29   -4.41   -0.29   -4.41  -16.85   68.67
   11.10  -16.92   68.55   -0.29   -4.39   -0.29   -4.39  -16.92   68.55
   11.17  -16.75   68.81   -0.28   -4.78   -0.28   -4.78  -16.75   68.81
   11.23  -16.50   68.81   -0.33   -4.85   -0.33   -4.85  -16.50   68.81
   11.29  -16.53   69.41   -0.27   -4.93   -0.27   -4.93  -16.53   69.41
   11.35  -16.44   68.20   -0.28   -4.99   -0.28   -4.99  -16.44   68.20
   11.41  -16.26   68.65   -0.27   -5.24   -0.27   -5.24  -16.26   68.65
   11.47  -16.20   68.98   -0.28   -5.37   -0.28   -5.37  -16.20   68.98
   11.54  -16.16   68.22   -0.27   -5.45   -0.27   -5.45  -16.16   68.22
   11.60  -16.10   68.27   -0.29   -5.68   -0.29   -5.68  -16.10   68.27
   11.66  -16.05   68.61   -0.29   -5.56   -0.29   -5.56  -16.05   68.61
   11.72  -15.95   68.10   -0.28   -5.67   -0.28   -5.67  -15.95   68.10
   11.78  -15.91   68.01   -0.25   -6.15   -0.25   -6.15  -15.91   68.01
   11.84  -15.84   68.01   -0.29   -6.20   -0.29   -6.20  -15.84   68.01
   11.91  -15.82   67.47   -0.29   -5.90   -0.29   -5.90  -15.82   67.47
   11.97  -15.62   67.53   -0.29   -6.41   -0.29   -6.41  -15.62   67.53
   12.03  -15.70   67.15   -0.31   -6.50   -0.31   -6.50  -15.70   67.15
   12.09  -15.63   66.33   -0.27   -6.65   -0.27   -6.65  -15.63   66.33
   12.15  -15.51   65.87   -0.29   -6.81   -0.29   -6.81  -15.51   65.87
   12.21  -15.37   65.66   -0.33   -6.73   -0.33   -6.73  -15.37   65.66
   12.28  -15.42   64.94   -0.29   -7.04   -0.29   -7.04  -15.42   64.94
   12.34  -15.31   64.52   -0.31   -6.93   -0.31   -6.93  -15.31   64.52
   12.40  -15.19   63.87   -0.28   -7.20   -0.28   -7.20  -15.19   63.87
