!  American Technical Ceramics  Date:    3/13/98
!  One Norden Lane
!  Huntington Station,  NY.   11746-2102
!  Tel:  (516) 547-5700               Fax:  (516) 547-5748
!  Part Number  100A120F
!  Description: Porcelain, High Q, Low ESR
!  Application: Bypass, Coupling, Timing, Feedback
!               Tuning, Impedance Match, Blocking
# GHZ S DB R 50
! Freq   |S11|   S11 Ph  |S21|   S21 Ph  |S12|   S12 Ph  |S22|   S22 Ph
    0.05   -0.49  -19.96   -9.14   70.60   -9.14   70.60   -0.49  -19.96
    0.11   -2.26  -39.40   -3.90   50.32   -3.90   50.32   -2.26  -39.40
    0.17   -4.19  -52.61   -2.05   37.61   -2.05   37.61   -4.19  -52.61
    0.24   -6.10  -60.61   -1.22   29.53   -1.22   29.53   -6.10  -60.61
    0.30   -7.72  -66.37   -0.80   24.00   -0.80   24.00   -7.72  -66.37
    0.36   -9.15  -70.29   -0.53   20.29   -0.53   20.29   -9.15  -70.29
    0.42  -10.42  -73.46   -0.39   17.36   -0.39   17.36  -10.42  -73.46
    0.48  -11.54  -75.57   -0.29   15.17   -0.29   15.17  -11.54  -75.57
    0.54  -12.83  -77.53   -0.25   12.96   -0.25   12.96  -12.83  -77.53
    0.61  -13.77  -79.15   -0.18   11.63   -0.18   11.63  -13.77  -79.15
    0.67  -14.63  -80.24   -0.18   10.60   -0.18   10.60  -14.63  -80.24
    0.73  -15.43  -81.03   -0.12    9.59   -0.12    9.59  -15.43  -81.03
    0.79  -16.15  -82.00   -0.12    8.77   -0.12    8.77  -16.15  -82.00
    0.85  -16.88  -83.00   -0.10    7.98   -0.10    7.98  -16.88  -83.00
    0.91  -17.56  -83.53   -0.07    7.36   -0.07    7.36  -17.56  -83.53
    0.98  -18.14  -84.42   -0.07    6.75   -0.07    6.75  -18.14  -84.42
    1.04  -18.80  -84.64   -0.05    6.27   -0.05    6.27  -18.80  -84.64
    1.10  -19.44  -85.38   -0.06    5.80   -0.06    5.80  -19.44  -85.38
    1.16  -19.96  -85.77   -0.05    5.34   -0.05    5.34  -19.96  -85.77
    1.22  -20.54  -85.77   -0.05    4.99   -0.05    4.99  -20.54  -85.77
    1.29  -21.11  -86.06   -0.04    4.56   -0.04    4.56  -21.11  -86.06
    1.35  -21.64  -86.40   -0.03    4.24   -0.03    4.24  -21.64  -86.40
    1.41  -22.17  -86.29   -0.03    4.03   -0.03    4.03  -22.17  -86.29
    1.47  -22.73  -86.78   -0.03    3.83   -0.03    3.83  -22.73  -86.78
    1.53  -23.24  -86.63   -0.02    3.52   -0.02    3.52  -23.24  -86.63
    1.59  -23.86  -87.10   -0.02    3.26   -0.02    3.26  -23.86  -87.10
    1.66  -24.30  -86.62   -0.02    2.95   -0.02    2.95  -24.30  -86.62
    1.72  -24.93  -86.18   -0.05    2.64   -0.05    2.64  -24.93  -86.18
    1.78  -25.53  -86.30   -0.01    2.41   -0.01    2.41  -25.53  -86.30
    1.84  -26.06  -86.30   -0.02    2.37   -0.02    2.37  -26.06  -86.30
    1.90  -26.54  -85.26   -0.01    2.06   -0.01    2.06  -26.54  -85.26
    1.96  -27.15  -84.78   -0.03    1.89   -0.03    1.89  -27.15  -84.78
    2.03  -27.84  -84.15   -0.03    1.73   -0.03    1.73  -27.84  -84.15
    2.09  -28.56  -83.72   -0.03    1.64   -0.03    1.64  -28.56  -83.72
    2.15  -28.98  -83.06   -0.03    1.45   -0.03    1.45  -28.98  -83.06
    2.21  -29.75  -81.55   -0.02    1.13   -0.02    1.13  -29.75  -81.55
    2.27  -30.50  -80.41   -0.03    1.19   -0.03    1.19  -30.50  -80.41
    2.33  -31.18  -79.75   -0.03    0.96   -0.03    0.96  -31.18  -79.75
    2.40  -31.92  -76.72   -0.02    0.78   -0.02    0.78  -31.92  -76.72
    2.46  -32.75  -75.93   -0.02    0.76   -0.02    0.76  -32.75  -75.93
    2.52  -33.47  -73.43   -0.02    0.57   -0.02    0.57  -33.47  -73.43
    2.58  -34.45  -70.05   -0.03    0.40   -0.03    0.40  -34.45  -70.05
    2.64  -35.27  -65.51   -0.05    0.34   -0.05    0.34  -35.27  -65.51
    2.71  -36.02  -61.78   -0.02    0.18   -0.02    0.18  -36.02  -61.78
    2.77  -37.13  -58.35   -0.02   -0.05   -0.02   -0.05  -37.13  -58.35
    2.83  -37.60  -51.08   -0.03   -0.01   -0.03   -0.01  -37.60  -51.08
    2.89  -38.50  -43.71   -0.03   -0.17   -0.03   -0.17  -38.50  -43.71
    2.95  -38.93  -36.75   -0.04   -0.28   -0.04   -0.28  -38.93  -36.75
    3.01  -39.35  -27.52   -0.04   -0.51   -0.04   -0.51  -39.35  -27.52
    3.08  -39.60  -18.95   -0.04   -0.65   -0.04   -0.65  -39.60  -18.95
    3.14  -39.38  -10.96   -0.04   -0.51   -0.04   -0.51  -39.38  -10.96
    3.20  -39.11   -3.58   -0.04   -0.83   -0.04   -0.83  -39.11   -3.58
    3.26  -38.65    4.13   -0.03   -0.92   -0.03   -0.92  -38.65    4.13
    3.32  -38.44    7.74   -0.04   -0.96   -0.04   -0.96  -38.44    7.74
    3.38  -37.77   12.77   -0.04   -1.21   -0.04   -1.21  -37.77   12.77
    3.45  -37.33   16.25   -0.05   -1.17   -0.05   -1.17  -37.33   16.25
    3.51  -37.11   18.28   -0.04   -1.23   -0.04   -1.23  -37.11   18.28
    3.57  -36.52   22.47   -0.03   -1.50   -0.03   -1.50  -36.52   22.47
    3.63  -36.11   24.58   -0.06   -1.37   -0.06   -1.37  -36.11   24.58
    3.69  -35.83   24.37   -0.05   -1.65   -0.05   -1.65  -35.83   24.37
    3.76  -35.36   25.69   -0.04   -1.74   -0.04   -1.74  -35.36   25.69
    3.82  -34.99   27.76   -0.03   -2.01   -0.03   -2.01  -34.99   27.76
    3.88  -35.10   25.24   -0.04   -1.90   -0.04   -1.90  -35.10   25.24
    3.94  -34.85   26.40   -0.05   -2.03   -0.05   -2.03  -34.85   26.40
    4.00  -34.21   33.43   -0.07   -2.02   -0.07   -2.02  -34.21   33.43
    4.06  -34.20   34.18   -0.06   -2.11   -0.06   -2.11  -34.20   34.18
    4.13  -33.75   34.18   -0.06   -2.22   -0.06   -2.22  -33.75   34.18
    4.19  -33.75   34.21   -0.06   -2.29   -0.06   -2.29  -33.75   34.21
    4.25  -33.65   35.71   -0.06   -2.26   -0.06   -2.26  -33.65   35.71
    4.31  -33.49   35.63   -0.06   -2.56   -0.06   -2.56  -33.49   35.63
    4.37  -33.16   39.78   -0.06   -2.51   -0.06   -2.51  -33.16   39.78
    4.43  -33.21   37.66   -0.08   -2.57   -0.08   -2.57  -33.21   37.66
    4.50  -32.90   39.65   -0.08   -2.76   -0.08   -2.76  -32.90   39.65
    4.56  -32.67   41.11   -0.07   -2.87   -0.07   -2.87  -32.67   41.11
    4.62  -32.59   41.36   -0.08   -2.97   -0.08   -2.97  -32.59   41.36
    4.68  -32.31   42.10   -0.08   -2.98   -0.08   -2.98  -32.31   42.10
    4.74  -31.74   43.93   -0.10   -3.10   -0.10   -3.10  -31.74   43.93
    4.80  -31.67   39.74   -0.10   -3.22   -0.10   -3.22  -31.67   39.74
    4.87  -31.72   41.59   -0.08   -3.17   -0.08   -3.17  -31.72   41.59
    4.93  -31.68   42.10   -0.12   -3.32   -0.12   -3.32  -31.68   42.10
    4.99  -31.45   41.81   -0.10   -3.51   -0.10   -3.51  -31.45   41.81
    5.05  -31.12   43.63   -0.10   -3.49   -0.10   -3.49  -31.12   43.63
    5.11  -31.07   44.09   -0.07   -3.78   -0.07   -3.78  -31.07   44.09
    5.18  -30.79   43.55   -0.08   -3.82   -0.08   -3.82  -30.79   43.55
    5.24  -30.52   44.84   -0.11   -3.73   -0.11   -3.73  -30.52   44.84
    5.30  -30.22   45.42   -0.08   -3.97   -0.08   -3.97  -30.22   45.42
    5.36  -30.03   45.13   -0.12   -3.98   -0.12   -3.98  -30.03   45.13
    5.42  -29.87   45.42   -0.09   -4.11   -0.09   -4.11  -29.87   45.42
    5.48  -29.33   46.68   -0.10   -4.20   -0.10   -4.20  -29.33   46.68
    5.55  -29.13   45.90   -0.10   -4.31   -0.10   -4.31  -29.13   45.90
    5.61  -28.95   46.48   -0.11   -4.47   -0.11   -4.47  -28.95   46.48
    5.67  -28.71   47.46   -0.13   -4.56   -0.13   -4.56  -28.71   47.46
    5.73  -28.43   48.40   -0.12   -4.50   -0.12   -4.50  -28.43   48.40
    5.79  -28.09   49.75   -0.10   -4.90   -0.10   -4.90  -28.09   49.75
    5.85  -27.73   50.24   -0.12   -4.76   -0.12   -4.76  -27.73   50.24
    5.92  -27.26   50.51   -0.13   -5.06   -0.13   -5.06  -27.26   50.51
    5.98  -26.81   51.24   -0.14   -4.97   -0.14   -4.97  -26.81   51.24
    6.04  -26.39   49.99   -0.14   -5.20   -0.14   -5.20  -26.39   49.99
    6.10  -26.10   50.86   -0.15   -5.29   -0.15   -5.29  -26.10   50.86
    6.16  -25.67   51.18   -0.14   -5.56   -0.14   -5.56  -25.67   51.18
    6.23  -25.14   51.60   -0.15   -5.62   -0.15   -5.62  -25.14   51.60
    6.29  -24.76   51.78   -0.15   -5.82   -0.15   -5.82  -24.76   51.78
    6.35  -24.39   51.60   -0.17   -5.80   -0.17   -5.80  -24.39   51.60
    6.41  -23.87   51.14   -0.18   -6.14   -0.18   -6.14  -23.87   51.14
    6.47  -23.29   52.25   -0.17   -6.30   -0.17   -6.30  -23.29   52.25
    6.53  -22.94   51.94   -0.17   -6.56   -0.17   -6.56  -22.94   51.94
    6.60  -22.35   50.98   -0.18   -6.66   -0.18   -6.66  -22.35   50.98
    6.66  -21.82   51.56   -0.21   -7.01   -0.21   -7.01  -21.82   51.56
    6.72  -21.31   51.22   -0.20   -7.14   -0.20   -7.14  -21.31   51.22
    6.78  -20.82   50.58   -0.22   -7.21   -0.22   -7.21  -20.82   50.58
    6.84  -20.41   50.15   -0.24   -7.68   -0.24   -7.68  -20.41   50.15
    6.90  -19.66   49.81   -0.25   -7.85   -0.25   -7.85  -19.66   49.81
    6.97  -19.12   49.54   -0.28   -8.22   -0.28   -8.22  -19.12   49.54
    7.03  -18.71   48.60   -0.29   -8.43   -0.29   -8.43  -18.71   48.60
    7.09  -18.01   48.58   -0.32   -8.93   -0.32   -8.93  -18.01   48.58
    7.15  -17.25   47.96   -0.38   -9.50   -0.38   -9.50  -17.25   47.96
    7.21  -16.46   46.57   -0.41   -9.98   -0.41   -9.98  -16.46   46.57
    7.27  -15.75   45.63   -0.49  -10.78   -0.49  -10.78  -15.75   45.63
    7.34  -14.81   43.52   -0.60  -11.79   -0.60  -11.79  -14.81   43.52
    7.40  -13.54   40.23   -0.75  -12.67   -0.75  -12.67  -13.54   40.23
    7.46  -12.49   36.84   -1.05  -14.08   -1.05  -14.08  -12.49   36.84
    7.52  -11.13   27.67   -1.56  -15.35   -1.56  -15.35  -11.13   27.67
    7.58   -9.65   14.35   -2.47  -14.42   -2.47  -14.42   -9.65   14.35
    7.65   -9.50   -4.64   -3.39   -6.84   -3.39   -6.84   -9.50   -4.64
    7.71  -10.72  -25.35   -2.79    2.74   -2.79    2.74  -10.72  -25.35
    7.77  -13.24  -38.06   -1.73    5.00   -1.73    5.00  -13.24  -38.06
    7.83  -16.10  -41.35   -1.13    3.88   -1.13    3.88  -16.10  -41.35
    7.89  -18.37  -38.73   -0.80    2.31   -0.80    2.31  -18.37  -38.73
    7.95  -20.38  -31.35   -0.63    1.21   -0.63    1.21  -20.38  -31.35
    8.02  -21.92  -23.55   -0.53    0.00   -0.53    0.00  -21.92  -23.55
    8.08  -22.49  -12.39   -0.47   -0.66   -0.47   -0.66  -22.49  -12.39
    8.14  -22.73   -2.99   -0.43   -1.31   -0.43   -1.31  -22.73   -2.99
    8.20  -22.73    5.43   -0.41   -1.88   -0.41   -1.88  -22.73    5.43
    8.26  -22.50   10.94   -0.40   -2.28   -0.40   -2.28  -22.50   10.94
    8.32  -22.05   16.83   -0.37   -2.52   -0.37   -2.52  -22.05   16.83
    8.39  -21.73   20.88   -0.38   -2.88   -0.38   -2.88  -21.73   20.88
    8.45  -21.50   24.48   -0.32   -3.33   -0.32   -3.33  -21.50   24.48
    8.51  -21.04   26.93   -0.34   -3.54   -0.34   -3.54  -21.04   26.93
    8.57  -20.53   30.23   -0.32   -3.68   -0.32   -3.68  -20.53   30.23
    8.63  -20.29   31.93   -0.33   -3.97   -0.33   -3.97  -20.29   31.93
    8.70  -19.99   33.87   -0.33   -3.94   -0.33   -3.94  -19.99   33.87
    8.76  -19.70   33.80   -0.33   -4.24   -0.33   -4.24  -19.70   33.80
    8.82  -19.39   36.16   -0.35   -4.20   -0.35   -4.20  -19.39   36.16
    8.88  -19.16   37.04   -0.33   -4.34   -0.33   -4.34  -19.16   37.04
    8.94  -18.85   37.35   -0.31   -4.62   -0.31   -4.62  -18.85   37.35
    9.00  -18.58   37.86   -0.33   -4.71   -0.33   -4.71  -18.58   37.86
    9.07  -18.47   39.56   -0.35   -4.92   -0.35   -4.92  -18.47   39.56
    9.13  -18.32   39.47   -0.37   -4.72   -0.37   -4.72  -18.32   39.47
    9.19  -18.14   39.97   -0.33   -4.75   -0.33   -4.75  -18.14   39.97
    9.25  -17.91   40.40   -0.34   -5.08   -0.34   -5.08  -17.91   40.40
    9.31  -17.76   41.06   -0.35   -5.12   -0.35   -5.12  -17.76   41.06
    9.37  -17.73   40.79   -0.36   -5.14   -0.36   -5.14  -17.73   40.79
    9.44  -17.73   41.73   -0.35   -5.24   -0.35   -5.24  -17.73   41.73
    9.50  -17.54   41.67   -0.35   -5.24   -0.35   -5.24  -17.54   41.67
    9.56  -17.40   42.86   -0.34   -5.27   -0.34   -5.27  -17.40   42.86
    9.62  -17.40   43.13   -0.33   -5.22   -0.33   -5.22  -17.40   43.13
    9.68  -17.29   42.66   -0.33   -5.45   -0.33   -5.45  -17.29   42.66
    9.74  -17.24   43.40   -0.33   -5.69   -0.33   -5.69  -17.24   43.40
    9.81  -17.12   44.64   -0.31   -5.46   -0.31   -5.46  -17.12   44.64
    9.87  -17.13   44.18   -0.34   -5.68   -0.34   -5.68  -17.13   44.18
    9.93  -17.09   45.25   -0.31   -5.63   -0.31   -5.63  -17.09   45.25
    9.99  -16.98   45.04   -0.31   -5.73   -0.31   -5.73  -16.98   45.04
   10.05  -16.92   46.24   -0.30   -5.67   -0.30   -5.67  -16.92   46.24
   10.12  -16.97   45.55   -0.34   -5.72   -0.34   -5.72  -16.97   45.55
   10.18  -16.87   46.21   -0.31   -6.07   -0.31   -6.07  -16.87   46.21
   10.24  -16.84   46.62   -0.32   -5.73   -0.32   -5.73  -16.84   46.62
   10.30  -16.82   47.54   -0.30   -6.00   -0.30   -6.00  -16.82   47.54
   10.36  -16.79   47.18   -0.30   -6.03   -0.30   -6.03  -16.79   47.18
   10.42  -16.76   47.64   -0.30   -6.18   -0.30   -6.18  -16.76   47.64
   10.49  -16.63   47.92   -0.31   -6.19   -0.31   -6.19  -16.63   47.92
   10.55  -16.71   48.78   -0.29   -6.22   -0.29   -6.22  -16.71   48.78
   10.61  -16.64   48.33   -0.30   -6.17   -0.30   -6.17  -16.64   48.33
   10.67  -16.60   49.05   -0.28   -6.38   -0.28   -6.38  -16.60   49.05
   10.73  -16.61   49.09   -0.29   -6.29   -0.29   -6.29  -16.61   49.09
   10.79  -16.53   49.69   -0.30   -6.53   -0.30   -6.53  -16.53   49.69
   10.86  -16.44   49.56   -0.31   -6.69   -0.31   -6.69  -16.44   49.56
   10.92  -16.49   50.00   -0.31   -6.64   -0.31   -6.64  -16.49   50.00
   10.98  -16.35   50.07   -0.30   -6.63   -0.30   -6.63  -16.35   50.07
   11.04  -16.21   50.06   -0.29   -6.79   -0.29   -6.79  -16.21   50.06
   11.10  -16.35   49.55   -0.30   -6.88   -0.30   -6.88  -16.35   49.55
   11.17  -16.28   49.78   -0.28   -7.05   -0.28   -7.05  -16.28   49.78
   11.23  -16.14   50.06   -0.33   -7.10   -0.33   -7.10  -16.14   50.06
   11.29  -16.26   50.19   -0.27   -7.08   -0.27   -7.08  -16.26   50.19
   11.35  -16.18   49.37   -0.28   -7.19   -0.28   -7.19  -16.18   49.37
   11.41  -16.09   49.98   -0.28   -7.33   -0.28   -7.33  -16.09   49.98
   11.47  -16.11   49.94   -0.29   -7.31   -0.29   -7.31  -16.11   49.94
   11.54  -16.07   49.27   -0.29   -7.58   -0.29   -7.58  -16.07   49.27
   11.60  -16.04   49.57   -0.29   -7.53   -0.29   -7.53  -16.04   49.57
   11.66  -16.04   49.53   -0.29   -7.57   -0.29   -7.57  -16.04   49.53
   11.72  -15.92   48.89   -0.28   -7.59   -0.28   -7.59  -15.92   48.89
   11.78  -15.93   49.03   -0.25   -8.14   -0.25   -8.14  -15.93   49.03
   11.84  -15.88   48.75   -0.27   -8.14   -0.27   -8.14  -15.88   48.75
   11.91  -15.85   48.28   -0.26   -7.90   -0.26   -7.90  -15.85   48.28
   11.97  -15.68   48.50   -0.29   -8.28   -0.29   -8.28  -15.68   48.50
   12.03  -15.74   47.94   -0.32   -8.39   -0.32   -8.39  -15.74   47.94
   12.09  -15.66   46.97   -0.28   -8.66   -0.28   -8.66  -15.66   46.97
   12.15  -15.52   46.81   -0.30   -8.68   -0.30   -8.68  -15.52   46.81
   12.21  -15.42   46.62   -0.34   -8.62   -0.34   -8.62  -15.42   46.62
   12.28  -15.48   45.79   -0.31   -9.16   -0.31   -9.16  -15.48   45.79
   12.34  -15.28   45.11   -0.30   -9.11   -0.30   -9.11  -15.28   45.11
   12.40  -15.18   44.78   -0.31   -9.29   -0.31   -9.29  -15.18   44.78
