!  American Technical Ceramics  Date:   10/14/98
!  One Norden Lane
!  Huntington Station,  NY.   11746-2102
!  Tel:  (516) 622-4700               Fax:  (516) 622-4748
!  Part Number  100a0r9b
!  Description: Porcelain, High Q, Low ESR
!  Application: Bypass, Coupling, Timing, Feedback
!               Tuning, Impedance Match, Blocking
# GHZ S DB R 50
! Freq   |S11|   S11 Ph  |S21|   S21 Ph  |S12|   S12 Ph  |S22|   S22 Ph
    0.05    0.03   -1.41  -30.60   90.14  -30.60   90.14    0.03   -1.41
    0.15   -0.01   -4.99  -21.18   85.13  -21.18   85.13   -0.01   -4.99
    0.25   -0.10   -8.48  -16.79   81.96  -16.79   81.96   -0.10   -8.48
    0.35   -0.16  -11.78  -13.96   78.90  -13.96   78.90   -0.16  -11.78
    0.45   -0.25  -14.79  -11.86   75.86  -11.86   75.86   -0.25  -14.79
    0.55   -0.43  -17.65  -10.13   71.37  -10.13   71.37   -0.43  -17.65
    0.65   -0.60  -20.76   -8.84   68.56   -8.84   68.56   -0.60  -20.76
    0.75   -0.89  -23.80   -7.86   66.23   -7.86   66.23   -0.89  -23.80
    0.85   -1.05  -27.69   -6.98   63.09   -6.98   63.09   -1.05  -27.69
    0.95   -1.18  -29.28   -6.15   60.53   -6.15   60.53   -1.18  -29.28
    1.05   -1.44  -31.73   -5.51   57.90   -5.51   57.90   -1.44  -31.73
    1.15   -1.65  -33.79   -4.91   55.68   -4.91   55.68   -1.65  -33.79
    1.25   -1.99  -36.28   -4.47   53.98   -4.47   53.98   -1.99  -36.28
    1.35   -2.22  -39.11   -4.06   51.43   -4.06   51.43   -2.22  -39.11
    1.45   -2.43  -40.94   -3.66   49.09   -3.66   49.09   -2.43  -40.94
    1.55   -2.69  -42.55   -3.30   47.08   -3.30   47.08   -2.69  -42.55
    1.65   -2.94  -44.14   -2.99   45.33   -2.99   45.33   -2.94  -44.14
    1.75   -3.28  -45.96   -2.74   43.99   -2.74   43.99   -3.28  -45.96
    1.85   -3.58  -48.15   -2.55   42.27   -2.55   42.27   -3.58  -48.15
    1.95   -3.85  -49.55   -2.32   40.41   -2.32   40.41   -3.85  -49.55
    2.05   -4.10  -50.78   -2.13   38.86   -2.13   38.86   -4.10  -50.78
    2.14   -4.38  -51.76   -1.94   37.43   -1.94   37.43   -4.38  -51.76
    2.24   -4.72  -53.39   -1.79   36.26   -1.79   36.26   -4.72  -53.39
    2.34   -5.04  -55.12   -1.65   34.91   -1.65   34.91   -5.04  -55.12
    2.44   -5.30  -56.29   -1.53   33.54   -1.53   33.54   -5.30  -56.29
    2.54   -5.61  -56.97   -1.39   32.19   -1.39   32.19   -5.61  -56.97
    2.64   -5.88  -57.93   -1.29   31.15   -1.29   31.15   -5.88  -57.93
    2.74   -6.28  -59.13   -1.20   29.92   -1.20   29.92   -6.28  -59.13
    2.84   -6.58  -60.73   -1.12   28.85   -1.12   28.85   -6.58  -60.73
    2.94   -6.89  -61.49   -1.03   27.62   -1.03   27.62   -6.89  -61.49
    3.04   -7.20  -62.12   -0.95   26.60   -0.95   26.60   -7.20  -62.12
    3.14   -7.51  -62.74   -0.89   25.70   -0.89   25.70   -7.51  -62.74
    3.24   -7.90  -63.45   -0.85   24.69   -0.85   24.69   -7.90  -63.45
    3.34   -8.26  -64.78   -0.80   23.69   -0.80   23.69   -8.26  -64.78
    3.44   -8.59  -65.45   -0.76   22.71   -0.76   22.71   -8.59  -65.45
    3.54   -8.85  -66.06   -0.70   21.79   -0.70   21.79   -8.85  -66.06
    3.64   -9.13  -66.14   -0.66   21.14   -0.66   21.14   -9.13  -66.14
    3.74   -9.56  -66.78   -0.65   20.31   -0.65   20.31   -9.56  -66.78
    3.84   -9.91  -67.83   -0.63   19.47   -0.63   19.47   -9.91  -67.83
    3.94  -10.22  -68.49   -0.61   18.54   -0.61   18.54  -10.22  -68.49
    4.04  -10.35  -69.82   -0.49   18.21   -0.49   18.21  -10.35  -69.82
    4.14  -10.57  -69.80   -0.46   17.72   -0.46   17.72  -10.57  -69.80
    4.24  -10.89  -70.20   -0.45   17.29   -0.45   17.29  -10.89  -70.20
    4.34  -11.24  -71.74   -0.43   16.60   -0.43   16.60  -11.24  -71.74
    4.44  -11.51  -72.20   -0.42   15.95   -0.42   15.95  -11.51  -72.20
    4.54  -11.78  -72.89   -0.38   15.23   -0.38   15.23  -11.78  -72.89
    4.64  -12.00  -73.06   -0.34   14.81   -0.34   14.81  -12.00  -73.06
    4.74  -12.39  -73.21   -0.34   14.45   -0.34   14.45  -12.39  -73.21
    4.84  -12.65  -74.18   -0.34   13.89   -0.34   13.89  -12.65  -74.18
    4.94  -12.95  -74.23   -0.34   13.42   -0.34   13.42  -12.95  -74.23
    5.04  -13.26  -74.93   -0.33   12.77   -0.33   12.77  -13.26  -74.93
    5.14  -13.43  -75.19   -0.29   12.39   -0.29   12.39  -13.43  -75.19
    5.24  -13.76  -75.51   -0.29   12.09   -0.29   12.09  -13.76  -75.51
    5.34  -14.02  -76.09   -0.29   11.72   -0.29   11.72  -14.02  -76.09
    5.44  -14.43  -76.12   -0.29   11.32   -0.29   11.32  -14.43  -76.12
    5.54  -14.66  -76.94   -0.28   10.83   -0.28   10.83  -14.66  -76.94
    5.64  -14.88  -77.34   -0.26   10.49   -0.26   10.49  -14.88  -77.34
    5.74  -15.20  -77.72   -0.24   10.20   -0.24   10.20  -15.20  -77.72
    5.84  -15.65  -78.34   -0.25    9.87   -0.25    9.87  -15.65  -78.34
    5.94  -15.99  -78.95   -0.23    9.48   -0.23    9.48  -15.99  -78.95
    6.04  -16.45  -79.71   -0.23    9.05   -0.23    9.05  -16.45  -79.71
    6.13  -16.72  -79.66   -0.22    8.64   -0.22    8.64  -16.72  -79.66
    6.23  -17.28  -79.26   -0.22    8.41   -0.22    8.41  -17.28  -79.26
    6.33  -17.77  -80.08   -0.23    8.08   -0.23    8.08  -17.77  -80.08
    6.43  -18.26  -80.86   -0.22    7.75   -0.22    7.75  -18.26  -80.86
    6.53  -18.79  -81.08   -0.21    7.39   -0.21    7.39  -18.79  -81.08
    6.63  -19.41  -80.77   -0.21    7.00   -0.21    7.00  -19.41  -80.77
    6.73  -20.23  -80.02   -0.20    6.71   -0.20    6.71  -20.23  -80.02
    6.83  -21.14  -79.58   -0.22    6.37   -0.22    6.37  -21.14  -79.58
    6.93  -21.79  -77.65   -0.23    6.03   -0.23    6.03  -21.79  -77.65
    7.03  -22.52  -75.96   -0.22    5.81   -0.22    5.81  -22.52  -75.96
    7.13  -23.53  -74.85   -0.22    5.41   -0.22    5.41  -23.53  -74.85
    7.23  -24.78  -71.19   -0.23    5.10   -0.23    5.10  -24.78  -71.19
    7.33  -25.95  -66.75   -0.25    4.80   -0.25    4.80  -25.95  -66.75
    7.43  -27.17  -59.44   -0.27    4.48   -0.27    4.48  -27.17  -59.44
    7.53  -28.10  -50.17   -0.28    4.25   -0.28    4.25  -28.10  -50.17
    7.63  -28.66  -41.30   -0.30    4.10   -0.30    4.10  -28.66  -41.30
    7.73  -29.51  -32.45   -0.30    3.95   -0.30    3.95  -29.51  -32.45
    7.83  -30.42  -20.84   -0.30    3.75   -0.30    3.75  -30.42  -20.84
    7.93  -30.68   -7.42   -0.30    3.51   -0.30    3.51  -30.68   -7.42
    8.03  -30.92    8.31   -0.29    3.28   -0.29    3.28  -30.92    8.31
    8.13  -29.94   25.58   -0.29    2.97   -0.29    2.97  -29.94   25.58
    8.23  -28.67   36.24   -0.29    2.77   -0.29    2.77  -28.67   36.24
    8.33  -27.70   43.55   -0.30    2.58   -0.30    2.58  -27.70   43.55
    8.43  -26.73   50.69   -0.29    2.34   -0.29    2.34  -26.73   50.69
    8.53  -25.38   57.02   -0.29    2.03   -0.29    2.03  -25.38   57.02
    8.63  -24.40   60.53   -0.29    1.83   -0.29    1.83  -24.40   60.53
    8.73  -23.29   65.50   -0.29    1.49   -0.29    1.49  -23.29   65.50
    8.83  -22.63   66.47   -0.30    1.29   -0.30    1.29  -22.63   66.47
    8.93  -21.83   68.39   -0.31    1.06   -0.31    1.06  -21.83   68.39
    9.03  -21.25   69.55   -0.32    0.86   -0.32    0.86  -21.25   69.55
    9.13  -20.63   72.20   -0.33    0.68   -0.33    0.68  -20.63   72.20
    9.23  -20.05   73.17   -0.33    0.43   -0.33    0.43  -20.05   73.17
    9.33  -19.66   73.82   -0.34    0.32   -0.34    0.32  -19.66   73.82
    9.43  -19.41   74.30   -0.35    0.15   -0.35    0.15  -19.41   74.30
    9.53  -19.06   75.98   -0.34    0.04   -0.34    0.04  -19.06   75.98
    9.63  -18.71   77.33   -0.35   -0.12   -0.35   -0.12  -18.71   77.33
    9.73  -18.43   78.70   -0.34   -0.32   -0.34   -0.32  -18.43   78.70
    9.83  -18.19   79.76   -0.33   -0.43   -0.33   -0.43  -18.19   79.76
    9.93  -17.97   80.34   -0.33   -0.58   -0.33   -0.58  -17.97   80.34
   10.03  -17.72   81.18   -0.33   -0.80   -0.33   -0.80  -17.72   81.18
   10.12  -17.47   82.58   -0.34   -0.94   -0.34   -0.94  -17.47   82.58
   10.22  -17.26   83.94   -0.33   -1.16   -0.33   -1.16  -17.26   83.94
   10.32  -17.07   84.92   -0.32   -1.33   -0.32   -1.33  -17.07   84.92
   10.42  -16.92   85.65   -0.30   -1.48   -0.30   -1.48  -16.92   85.65
   10.52  -16.67   86.48   -0.31   -1.64   -0.31   -1.64  -16.67   86.48
   10.62  -16.47   87.92   -0.31   -1.83   -0.31   -1.83  -16.47   87.92
   10.72  -16.21   88.38   -0.31   -2.13   -0.31   -2.13  -16.21   88.38
   10.82  -16.01   89.11   -0.29   -2.40   -0.29   -2.40  -16.01   89.11
   10.92  -15.86   89.09   -0.30   -2.52   -0.30   -2.52  -15.86   89.09
   11.02  -15.73   89.75   -0.30   -2.77   -0.30   -2.77  -15.73   89.75
   11.12  -15.54   90.01   -0.31   -2.95   -0.31   -2.95  -15.54   90.01
   11.22  -15.35   90.67   -0.30   -3.31   -0.30   -3.31  -15.35   90.67
   11.32  -15.20   90.88   -0.30   -3.44   -0.30   -3.44  -15.20   90.88
   11.42  -15.13   90.79   -0.29   -3.69   -0.29   -3.69  -15.13   90.79
   11.52  -14.96   90.36   -0.32   -3.91   -0.32   -3.91  -14.96   90.36
   11.62  -14.78   90.99   -0.32   -4.20   -0.32   -4.20  -14.78   90.99
   11.72  -14.58   90.77   -0.33   -4.41   -0.33   -4.41  -14.58   90.77
   11.82  -14.45   90.97   -0.31   -4.83   -0.31   -4.83  -14.45   90.97
   11.92  -14.37   89.88   -0.30   -4.90   -0.30   -4.90  -14.37   89.88
   12.02  -14.15   89.58   -0.34   -5.22   -0.34   -5.22  -14.15   89.58
   12.12  -13.91   89.18   -0.36   -5.33   -0.36   -5.33  -13.91   89.18
   12.22  -13.75   89.29   -0.38   -5.81   -0.38   -5.81  -13.75   89.29
   12.32  -13.59   88.22   -0.37   -6.07   -0.37   -6.07  -13.59   88.22
   12.42  -13.49   86.79   -0.36   -6.45   -0.36   -6.45  -13.49   86.79
   12.52  -13.19   85.89   -0.36   -6.49   -0.36   -6.49  -13.19   85.89
   12.62  -13.02   85.96   -0.39   -6.85   -0.39   -6.85  -13.02   85.96
   12.72  -12.74   85.50   -0.42   -7.04   -0.42   -7.04  -12.74   85.50
   12.82  -12.70   84.26   -0.45   -7.58   -0.45   -7.58  -12.70   84.26
   12.92  -12.35   82.62   -0.43   -7.93   -0.43   -7.93  -12.35   82.62
   13.02  -12.19   82.22   -0.44   -8.22   -0.44   -8.22  -12.19   82.22
   13.12  -11.82   81.92   -0.47   -8.24   -0.47   -8.24  -11.82   81.92
   13.22  -11.67   81.98   -0.53   -8.66   -0.53   -8.66  -11.67   81.98
   13.32  -11.38   80.27   -0.54   -9.09   -0.54   -9.09  -11.38   80.27
   13.42  -11.15   79.22   -0.56   -9.64   -0.56   -9.64  -11.15   79.22
   13.52  -10.81   78.79   -0.55   -9.76   -0.55   -9.76  -10.81   78.79
   13.62  -10.57   79.13   -0.60   -9.85   -0.60   -9.85  -10.57   79.13
   13.72  -10.23   78.40   -0.65  -10.14   -0.65  -10.14  -10.23   78.40
   13.82  -10.03   78.03   -0.71  -10.61   -0.71  -10.61  -10.03   78.03
   13.92   -9.76   76.83   -0.71  -11.18   -0.71  -11.18   -9.76   76.83
   14.02   -9.55   76.34   -0.73  -11.50   -0.73  -11.50   -9.55   76.34
   14.11   -9.21   75.71   -0.75  -11.51   -0.75  -11.51   -9.21   75.71
   14.21   -8.96   77.25   -0.82  -11.56   -0.82  -11.56   -8.96   77.25
   14.31   -8.75   76.85   -0.86  -11.91   -0.86  -11.91   -8.75   76.85
   14.41   -8.63   76.17   -0.90  -12.33   -0.90  -12.33   -8.63   76.17
   14.51   -8.47   75.58   -0.94  -12.61   -0.94  -12.61   -8.47   75.58
   14.61   -8.21   75.66   -0.97  -12.86   -0.97  -12.86   -8.21   75.66
   14.71   -7.96   76.75   -1.00  -12.89   -1.00  -12.89   -7.96   76.75
   14.81   -7.83   76.90   -1.04  -13.13   -1.04  -13.13   -7.83   76.90
   14.91   -7.69   76.87   -1.08  -13.21   -1.08  -13.21   -7.69   76.87
   15.01   -7.68   76.24   -1.16  -13.49   -1.16  -13.49   -7.68   76.24
   15.11   -7.49   76.86   -1.19  -13.52   -1.19  -13.52   -7.49   76.86
   15.21   -7.32   77.33   -1.21  -13.64   -1.21  -13.64   -7.32   77.33
   15.31   -7.23   78.51   -1.24  -13.55   -1.24  -13.55   -7.23   78.51
   15.41   -7.14   77.79   -1.28  -13.78   -1.28  -13.78   -7.14   77.79
   15.51   -7.10   78.07   -1.30  -13.68   -1.30  -13.68   -7.10   78.07
   15.61   -7.02   77.69   -1.34  -13.75   -1.34  -13.75   -7.02   77.69
   15.71   -6.89   78.96   -1.33  -13.66   -1.33  -13.66   -6.89   78.96
   15.81   -6.81   78.91   -1.35  -13.68   -1.35  -13.68   -6.81   78.91
   15.91   -6.74   79.13   -1.36  -13.74   -1.36  -13.74   -6.74   79.13
   16.01   -6.82   78.38   -1.40  -13.69   -1.40  -13.69   -6.82   78.38
   16.11   -6.77   78.70   -1.40  -13.68   -1.40  -13.68   -6.77   78.70
   16.21   -6.73   79.04   -1.42  -13.79   -1.42  -13.79   -6.73   79.04
   16.31   -6.64   79.44   -1.40  -13.92   -1.40  -13.92   -6.64   79.44
   16.41   -6.61   79.55   -1.39  -14.05   -1.39  -14.05   -6.61   79.55
   16.51   -6.63   79.21   -1.39  -14.07   -1.39  -14.07   -6.63   79.21
   16.61   -6.61   79.38   -1.40  -14.14   -1.40  -14.14   -6.61   79.38
   16.71   -6.69   79.78   -1.41  -14.08   -1.41  -14.08   -6.69   79.78
   16.81   -6.57   79.39   -1.42  -14.63   -1.42  -14.63   -6.57   79.39
   16.91   -6.61   79.75   -1.38  -14.62   -1.38  -14.62   -6.61   79.75
   17.01   -6.60   79.73   -1.38  -15.09   -1.38  -15.09   -6.60   79.73
   17.11   -6.73   80.02   -1.38  -14.94   -1.38  -14.94   -6.73   80.02
   17.21   -6.74   79.97   -1.47  -15.44   -1.47  -15.44   -6.74   79.97
   17.31   -6.76   80.38   -1.43  -15.45   -1.43  -15.45   -6.76   80.38
   17.41   -6.66   80.45   -1.44  -16.07   -1.44  -16.07   -6.66   80.45
   17.51   -6.76   80.72   -1.43  -16.16   -1.43  -16.16   -6.76   80.72
   17.61   -6.73   80.68   -1.50  -16.62   -1.50  -16.62   -6.73   80.68
   17.71   -6.78   80.56   -1.51  -16.48   -1.51  -16.48   -6.78   80.56
   17.81   -6.63   80.41   -1.50  -17.15   -1.50  -17.15   -6.63   80.41
   17.91   -6.70   80.33   -1.50  -17.72   -1.50  -17.72   -6.70   80.33
   18.01   -6.63   79.75   -1.51  -17.81   -1.51  -17.81   -6.63   79.75
   18.10   -6.72   78.91   -1.52  -18.48   -1.52  -18.48   -6.72   78.91
   18.20   -6.59   78.81   -1.60  -18.41   -1.60  -18.41   -6.59   78.81
   18.30   -6.56   78.22   -1.61  -19.19   -1.61  -19.19   -6.56   78.22
   18.40   -6.55   77.87   -1.65  -19.71   -1.65  -19.71   -6.55   77.87
   18.50   -6.57   76.56   -1.69  -20.32   -1.69  -20.32   -6.57   76.56
   18.60   -6.44   75.87   -1.75  -20.60   -1.75  -20.60   -6.44   75.87
   18.70   -6.37   75.36   -1.81  -21.12   -1.81  -21.12   -6.37   75.36
   18.80   -6.26   74.77   -1.87  -21.60   -1.87  -21.60   -6.26   74.77
   18.90   -6.21   74.05   -1.93  -22.11   -1.93  -22.11   -6.21   74.05
   19.00   -6.10   72.54   -1.98  -22.71   -1.98  -22.71   -6.10   72.54
   19.10   -5.97   71.94   -2.06  -23.11   -2.06  -23.11   -5.97   71.94
   19.20   -5.88   71.37   -2.17  -23.57   -2.17  -23.57   -5.88   71.37
   19.30   -5.71   71.17   -2.23  -23.97   -2.23  -23.97   -5.71   71.17
   19.40   -5.63   69.96   -2.31  -24.59   -2.31  -24.59   -5.63   69.96
   19.50   -5.45   68.79   -2.37  -25.07   -2.37  -25.07   -5.45   68.79
   19.60   -5.41   68.78   -2.48  -25.47   -2.48  -25.47   -5.41   68.78
   19.70   -5.22   68.25   -2.54  -25.93   -2.54  -25.93   -5.22   68.25
   19.80   -5.16   68.94   -2.68  -26.39   -2.68  -26.39   -5.16   68.94
   19.90   -5.03   67.84   -2.76  -27.05   -2.76  -27.05   -5.03   67.84
   20.00   -4.88   68.10   -2.90  -27.31   -2.90  -27.31   -4.88   68.10
