!  American Technical Ceramics  Date:    3/13/98
!  One Norden Lane
!  Huntington Station,  NY.   11746-2102
!  Tel:  (516) 547-5700               Fax:  (516) 547-5748
!  Part Number  100A2R7B
!  Description: Porcelain, High Q, Low ESR
!  Application: Bypass, Coupling, Timing, Feedback
!               Tuning, Impedance Match, Blocking
# GHZ S DB R 50
! Freq   |S11|   S11 Ph  |S21|   S21 Ph  |S12|   S12 Ph  |S22|   S22 Ph
    0.05   -0.04   -3.92  -21.15   85.30  -21.15   85.30   -0.04   -3.92
    0.15   -0.23  -14.83  -12.02   75.57  -12.02   75.57   -0.23  -14.83
    0.25   -0.74  -23.63   -8.06   66.65   -8.06   66.65   -0.74  -23.63
    0.35   -1.32  -31.70   -5.69   58.88   -5.69   58.88   -1.32  -31.70
    0.45   -2.02  -38.75   -4.19   51.94   -4.19   51.94   -2.02  -38.75
    0.55   -2.98  -45.12   -3.15   45.46   -3.15   45.46   -2.98  -45.12
    0.65   -3.76  -50.24   -2.43   40.65   -2.43   40.65   -3.76  -50.24
    0.75   -4.53  -54.52   -1.93   36.48   -1.93   36.48   -4.53  -54.52
    0.85   -5.30  -58.14   -1.57   33.06   -1.57   33.06   -5.30  -58.14
    0.95   -6.00  -61.23   -1.31   30.18   -1.31   30.18   -6.00  -61.23
    1.05   -6.67  -63.91   -1.10   27.54   -1.10   27.54   -6.67  -63.91
    1.15   -7.31  -66.42   -0.89   25.29   -0.89   25.29   -7.31  -66.42
    1.25   -7.97  -68.17   -0.74   23.50   -0.74   23.50   -7.97  -68.17
    1.35   -8.63  -70.19   -0.67   21.78   -0.67   21.78   -8.63  -70.19
    1.45   -9.21  -71.79   -0.60   20.27   -0.60   20.27   -9.21  -71.79
    1.55   -9.72  -73.40   -0.53   18.77   -0.53   18.77   -9.72  -73.40
    1.65  -10.31  -74.61   -0.46   17.55   -0.46   17.55  -10.31  -74.61
    1.75  -10.86  -75.89   -0.38   16.66   -0.38   16.66  -10.86  -75.89
    1.85  -11.42  -77.17   -0.33   15.63   -0.33   15.63  -11.42  -77.17
    1.95  -11.97  -78.06   -0.32   14.63   -0.32   14.63  -11.97  -78.06
    2.05  -12.49  -79.12   -0.29   13.59   -0.29   13.59  -12.49  -79.12
    2.14  -12.99  -79.53   -0.26   12.80   -0.26   12.80  -12.99  -79.53
    2.24  -13.55  -80.58   -0.21   12.14   -0.21   12.14  -13.55  -80.58
    2.34  -14.10  -81.50   -0.19   11.44   -0.19   11.44  -14.10  -81.50
    2.44  -14.62  -82.31   -0.19   10.98   -0.19   10.98  -14.62  -82.31
    2.54  -15.09  -82.72   -0.18   10.17   -0.18   10.17  -15.09  -82.72
    2.64  -15.58  -82.01   -0.15    9.55   -0.15    9.55  -15.58  -82.01
    2.74  -16.14  -82.98   -0.12    9.05   -0.12    9.05  -16.14  -82.98
    2.84  -16.72  -83.44   -0.14    8.48   -0.14    8.48  -16.72  -83.44
    2.94  -17.24  -84.42   -0.12    7.98   -0.12    7.98  -17.24  -84.42
    3.04  -17.66  -84.09   -0.12    7.43   -0.12    7.43  -17.66  -84.09
    3.14  -18.19  -84.20   -0.10    7.08   -0.10    7.08  -18.19  -84.20
    3.24  -18.65  -84.40   -0.11    6.75   -0.11    6.75  -18.65  -84.40
    3.34  -19.33  -84.77   -0.10    5.99   -0.10    5.99  -19.33  -84.77
    3.44  -19.78  -85.52   -0.10    5.80   -0.10    5.80  -19.78  -85.52
    3.54  -20.18  -84.49   -0.10    5.40   -0.10    5.40  -20.18  -84.49
    3.64  -20.65  -84.55   -0.09    5.02   -0.09    5.02  -20.65  -84.55
    3.74  -21.18  -84.49   -0.10    4.67   -0.10    4.67  -21.18  -84.49
    3.84  -21.70  -85.20   -0.10    4.37   -0.10    4.37  -21.70  -85.20
    3.94  -22.09  -84.63   -0.09    3.91   -0.09    3.91  -22.09  -84.63
    4.04  -22.70  -85.42   -0.10    3.82   -0.10    3.82  -22.70  -85.42
    4.14  -23.08  -85.54   -0.09    3.42   -0.09    3.42  -23.08  -85.54
    4.24  -23.56  -85.37   -0.11    3.16   -0.11    3.16  -23.56  -85.37
    4.34  -24.15  -87.06   -0.10    2.79   -0.10    2.79  -24.15  -87.06
    4.44  -24.61  -86.88   -0.10    2.65   -0.10    2.65  -24.61  -86.88
    4.54  -25.15  -86.49   -0.12    2.29   -0.12    2.29  -25.15  -86.49
    4.64  -25.59  -85.65   -0.08    2.04   -0.08    2.04  -25.59  -85.65
    4.74  -26.20  -85.05   -0.11    1.96   -0.11    1.96  -26.20  -85.05
    4.84  -26.72  -85.46   -0.12    1.58   -0.12    1.58  -26.72  -85.46
    4.94  -27.03  -85.31   -0.11    1.38   -0.11    1.38  -27.03  -85.31
    5.04  -27.81  -84.56   -0.10    1.15   -0.10    1.15  -27.81  -84.56
    5.14  -28.33  -85.19   -0.11    0.75   -0.11    0.75  -28.33  -85.19
    5.24  -28.98  -83.75   -0.10    0.69   -0.10    0.69  -28.98  -83.75
    5.34  -29.84  -83.15   -0.12    0.52   -0.12    0.52  -29.84  -83.15
    5.44  -30.67  -80.97   -0.12    0.24   -0.12    0.24  -30.67  -80.97
    5.54  -31.22  -80.58   -0.11    0.04   -0.11    0.04  -31.22  -80.58
    5.64  -32.26  -78.78   -0.12   -0.22   -0.12   -0.22  -32.26  -78.78
    5.74  -33.30  -79.31   -0.11   -0.42   -0.11   -0.42  -33.30  -79.31
    5.84  -34.86  -74.73   -0.12   -0.44   -0.12   -0.44  -34.86  -74.73
    5.94  -36.43  -67.50   -0.16   -0.65   -0.16   -0.65  -36.43  -67.50
    6.04  -38.42  -56.92   -0.13   -1.07   -0.13   -1.07  -38.42  -56.92
    6.13  -39.86  -44.37   -0.13   -1.16   -0.13   -1.16  -39.86  -44.37
    6.23  -40.39  -21.90   -0.15   -1.35   -0.15   -1.35  -40.39  -21.90
    6.33  -40.55    1.25   -0.14   -1.50   -0.14   -1.50  -40.55    1.25
    6.43  -38.63   21.34   -0.14   -1.59   -0.14   -1.59  -38.63   21.34
    6.53  -36.28   35.71   -0.14   -2.01   -0.14   -2.01  -36.28   35.71
    6.63  -33.59   43.96   -0.15   -2.18   -0.15   -2.18  -33.59   43.96
    6.73  -31.70   46.71   -0.16   -2.47   -0.16   -2.47  -31.70   46.71
    6.83  -29.96   47.23   -0.19   -2.51   -0.19   -2.51  -29.96   47.23
    6.93  -28.64   46.82   -0.19   -2.83   -0.19   -2.83  -28.64   46.82
    7.03  -27.63   49.27   -0.21   -2.94   -0.21   -2.94  -27.63   49.27
    7.13  -26.56   49.20   -0.21   -3.02   -0.21   -3.02  -26.56   49.20
    7.23  -25.37   49.14   -0.20   -3.50   -0.20   -3.50  -25.37   49.14
    7.33  -24.57   48.08   -0.25   -3.55   -0.25   -3.55  -24.57   48.08
    7.43  -23.81   47.62   -0.26   -3.57   -0.26   -3.57  -23.81   47.62
    7.53  -23.00   47.44   -0.28   -3.80   -0.28   -3.80  -23.00   47.44
    7.63  -22.54   48.60   -0.30   -3.72   -0.30   -3.72  -22.54   48.60
    7.73  -21.91   49.15   -0.32   -3.77   -0.32   -3.77  -21.91   49.15
    7.83  -21.59   49.04   -0.33   -4.10   -0.33   -4.10  -21.59   49.04
    7.93  -20.99   49.63   -0.30   -4.19   -0.30   -4.19  -20.99   49.63
    8.03  -20.69   50.44   -0.33   -4.28   -0.33   -4.28  -20.69   50.44
    8.13  -19.89   50.63   -0.30   -4.29   -0.30   -4.29  -19.89   50.63
    8.23  -19.52   52.38   -0.35   -4.48   -0.35   -4.48  -19.52   52.38
    8.33  -19.13   52.96   -0.35   -4.46   -0.35   -4.46  -19.13   52.96
    8.43  -18.95   53.45   -0.34   -4.63   -0.34   -4.63  -18.95   53.45
    8.53  -18.46   53.87   -0.34   -4.82   -0.34   -4.82  -18.46   53.87
    8.63  -18.01   55.13   -0.38   -5.03   -0.38   -5.03  -18.01   55.13
    8.73  -17.51   55.88   -0.35   -4.95   -0.35   -4.95  -17.51   55.88
    8.83  -17.29   56.05   -0.35   -5.09   -0.35   -5.09  -17.29   56.05
    8.93  -17.02   55.11   -0.35   -5.47   -0.35   -5.47  -17.02   55.11
    9.03  -16.70   55.45   -0.39   -5.60   -0.39   -5.60  -16.70   55.45
    9.13  -16.48   56.11   -0.37   -5.18   -0.37   -5.18  -16.48   56.11
    9.23  -16.21   56.35   -0.38   -5.57   -0.38   -5.57  -16.21   56.35
    9.33  -16.00   57.01   -0.39   -5.66   -0.39   -5.66  -16.00   57.01
    9.43  -16.04   56.63   -0.41   -5.73   -0.41   -5.73  -16.04   56.63
    9.53  -15.83   56.90   -0.37   -5.78   -0.37   -5.78  -15.83   56.90
    9.63  -15.69   57.87   -0.41   -5.91   -0.41   -5.91  -15.69   57.87
    9.73  -15.46   58.05   -0.42   -5.86   -0.42   -5.86  -15.46   58.05
    9.83  -15.29   58.85   -0.38   -6.13   -0.38   -6.13  -15.29   58.85
    9.93  -15.30   58.87   -0.39   -5.87   -0.39   -5.87  -15.30   58.87
   10.03  -15.17   58.86   -0.36   -6.22   -0.36   -6.22  -15.17   58.86
   10.12  -15.08   59.46   -0.38   -6.09   -0.38   -6.09  -15.08   59.46
   10.22  -14.83   59.93   -0.38   -6.51   -0.38   -6.51  -14.83   59.93
   10.32  -14.78   60.78   -0.37   -6.49   -0.37   -6.49  -14.78   60.78
   10.42  -14.73   60.79   -0.36   -6.47   -0.36   -6.47  -14.73   60.79
   10.52  -14.63   60.93   -0.38   -6.93   -0.38   -6.93  -14.63   60.93
   10.62  -14.38   62.07   -0.39   -7.09   -0.39   -7.09  -14.38   62.07
   10.72  -14.11   62.02   -0.46   -7.34   -0.46   -7.34  -14.11   62.02
   10.82  -13.54   61.44   -0.47   -7.88   -0.47   -7.88  -13.54   61.44
   10.92  -13.83   55.88   -0.56   -6.62   -0.56   -6.62  -13.83   55.88
   11.02  -14.24   57.06   -0.41   -6.68   -0.41   -6.68  -14.24   57.06
   11.12  -14.33   58.16   -0.35   -6.88   -0.35   -6.88  -14.33   58.16
   11.22  -14.07   59.57   -0.37   -7.04   -0.37   -7.04  -14.07   59.57
   11.32  -14.14   59.63   -0.37   -7.45   -0.37   -7.45  -14.14   59.63
   11.42  -14.06   59.57   -0.35   -7.76   -0.35   -7.76  -14.06   59.57
   11.52  -13.98   58.70   -0.34   -7.88   -0.34   -7.88  -13.98   58.70
   11.62  -13.89   60.05   -0.35   -8.20   -0.35   -8.20  -13.89   60.05
   11.72  -13.85   59.27   -0.38   -8.01   -0.38   -8.01  -13.85   59.27
   11.82  -13.76   59.73   -0.38   -8.78   -0.38   -8.78  -13.76   59.73
   11.92  -13.82   58.15   -0.35   -8.79   -0.35   -8.79  -13.82   58.15
   12.02  -13.62   58.15   -0.37   -8.91   -0.37   -8.91  -13.62   58.15
   12.12  -13.52   57.56   -0.36   -9.10   -0.36   -9.10  -13.52   57.56
   12.22  -13.34   57.51   -0.40   -9.25   -0.40   -9.25  -13.34   57.51
   12.32  -13.25   56.19   -0.40   -9.65   -0.40   -9.65  -13.25   56.19
   12.42  -13.26   55.14   -0.37  -10.05   -0.37  -10.05  -13.26   55.14
   12.52  -13.10   53.51   -0.41   -9.93   -0.41   -9.93  -13.10   53.51
   12.62  -12.90   54.08   -0.40  -10.44   -0.40  -10.44  -12.90   54.08
   12.72  -12.65   52.73   -0.41  -10.33   -0.41  -10.33  -12.65   52.73
   12.82  -12.55   52.74   -0.48  -10.98   -0.48  -10.98  -12.55   52.74
   12.92  -12.44   50.08   -0.43  -11.36   -0.43  -11.36  -12.44   50.08
   13.02  -12.22   50.16   -0.45  -11.56   -0.45  -11.56  -12.22   50.16
   13.12  -11.97   48.98   -0.46  -11.60   -0.46  -11.60  -11.97   48.98
   13.22  -11.80   49.90   -0.53  -12.03   -0.53  -12.03  -11.80   49.90
   13.32  -11.56   47.81   -0.56  -12.44   -0.56  -12.44  -11.56   47.81
   13.42  -11.49   47.73   -0.58  -12.99   -0.58  -12.99  -11.49   47.73
   13.52  -11.13   45.35   -0.55  -12.93   -0.55  -12.93  -11.13   45.35
   13.62  -10.94   47.75   -0.62  -13.12   -0.62  -13.12  -10.94   47.75
   13.72  -10.55   45.93   -0.64  -13.65   -0.64  -13.65  -10.55   45.93
   13.82  -10.39   46.86   -0.73  -13.45   -0.73  -13.45  -10.39   46.86
   13.92  -10.25   44.98   -0.71  -14.32   -0.71  -14.32  -10.25   44.98
   14.02  -10.07   44.20   -0.76  -14.54   -0.76  -14.54  -10.07   44.20
   14.11   -9.69   43.15   -0.76  -14.84   -0.76  -14.84   -9.69   43.15
   14.21   -9.42   44.63   -0.81  -14.61   -0.81  -14.61   -9.42   44.63
   14.31   -9.17   45.34   -0.88  -14.94   -0.88  -14.94   -9.17   45.34
   14.41   -9.06   43.53   -0.91  -15.40   -0.91  -15.40   -9.06   43.53
   14.51   -8.91   43.11   -0.91  -15.67   -0.91  -15.67   -8.91   43.11
   14.61   -8.75   42.74   -1.01  -16.21   -1.01  -16.21   -8.75   42.74
   14.71   -8.44   42.84   -1.00  -16.46   -1.00  -16.46   -8.44   42.84
   14.81   -8.16   43.46   -1.03  -16.27   -1.03  -16.27   -8.16   43.46
   14.91   -8.06   43.88   -1.04  -16.18   -1.04  -16.18   -8.06   43.88
   15.01   -8.10   42.60   -1.16  -16.82   -1.16  -16.82   -8.10   42.60
   15.11   -7.95   43.11   -1.21  -17.04   -1.21  -17.04   -7.95   43.11
   15.21   -7.77   42.84   -1.25  -17.21   -1.25  -17.21   -7.77   42.84
   15.31   -7.45   44.21   -1.23  -16.93   -1.23  -16.93   -7.45   44.21
   15.41   -7.40   43.73   -1.29  -16.97   -1.29  -16.97   -7.40   43.73
   15.51   -7.26   43.37   -1.29  -17.26   -1.29  -17.26   -7.26   43.37
   15.61   -7.26   42.51   -1.37  -17.06   -1.37  -17.06   -7.26   42.51
   15.71   -7.03   42.85   -1.39  -17.31   -1.39  -17.31   -7.03   42.85
   15.81   -6.90   42.83   -1.39  -17.61   -1.39  -17.61   -6.90   42.83
   15.91   -6.75   42.63   -1.40  -17.48   -1.40  -17.48   -6.75   42.63
   16.01   -6.90   41.32   -1.48  -17.62   -1.48  -17.62   -6.90   41.32
   16.11   -6.71   41.25   -1.47  -17.86   -1.47  -17.86   -6.71   41.25
   16.21   -6.73   40.99   -1.54  -18.01   -1.54  -18.01   -6.73   40.99
   16.31   -6.52   40.53   -1.53  -18.35   -1.53  -18.35   -6.52   40.53
   16.41   -6.42   40.22   -1.50  -18.65   -1.50  -18.65   -6.42   40.22
   16.51   -6.38   39.40   -1.52  -18.97   -1.52  -18.97   -6.38   39.40
   16.61   -6.34   38.67   -1.62  -19.16   -1.62  -19.16   -6.34   38.67
   16.71   -6.35   38.87   -1.63  -19.12   -1.63  -19.12   -6.35   38.87
   16.81   -6.12   37.38   -1.73  -20.00   -1.73  -20.00   -6.12   37.38
   16.91   -6.09   36.80   -1.68  -20.76   -1.68  -20.76   -6.09   36.80
   17.01   -5.88   35.85   -1.80  -21.57   -1.80  -21.57   -5.88   35.85
   17.11   -5.95   35.12   -1.80  -21.64   -1.80  -21.64   -5.95   35.12
   17.21   -5.80   34.70   -2.09  -22.13   -2.09  -22.13   -5.80   34.70
   17.31   -5.72   33.14   -2.09  -22.86   -2.09  -22.86   -5.72   33.14
   17.41   -5.51   32.24   -2.18  -24.29   -2.18  -24.29   -5.51   32.24
   17.51   -5.37   29.52   -2.33  -25.05   -2.33  -25.05   -5.37   29.52
   17.61   -5.16   28.55   -2.59  -26.27   -2.59  -26.27   -5.16   28.55
   17.71   -5.01   25.39   -2.79  -26.73   -2.79  -26.73   -5.01   25.39
   17.81   -4.59   22.30   -3.18  -28.86   -3.18  -28.86   -4.59   22.30
   17.91   -4.51   17.99   -3.70  -30.96   -3.70  -30.96   -4.51   17.99
   18.01   -4.08   12.04   -4.33  -32.24   -4.33  -32.24   -4.08   12.04
   18.10   -4.05    5.08   -5.46  -33.43   -5.46  -33.43   -4.05    5.08
   18.20   -3.69   -4.24   -7.08  -30.17   -7.08  -30.17   -3.69   -4.24
   18.30   -4.00  -15.43   -9.17  -18.90   -9.17  -18.90   -4.00  -15.43
   18.40   -4.87  -29.71   -9.48    5.39   -9.48    5.39   -4.87  -29.71
   18.50   -6.67  -44.36   -6.85   20.63   -6.85   20.63   -6.67  -44.36
   18.60   -9.34  -57.13   -4.43   21.29   -4.43   21.29   -9.34  -57.13
   18.70  -13.32  -63.13   -2.86   16.96   -2.86   16.96  -13.32  -63.13
   18.80  -18.22  -58.64   -2.03   12.09   -2.03   12.09  -18.22  -58.64
   18.90  -23.78  -28.22   -1.57    7.53   -1.57    7.53  -23.78  -28.22
   19.00  -22.36   20.96   -1.33    3.88   -1.33    3.88  -22.36   20.96
   19.10  -18.94   38.52   -1.16    0.78   -1.16    0.78  -18.94   38.52
   19.20  -16.36   42.99   -1.14   -1.60   -1.14   -1.60  -16.36   42.99
   19.30  -14.68   43.95   -1.14   -4.12   -1.14   -4.12  -14.68   43.95
   19.40  -13.42   44.03   -1.12   -6.11   -1.12   -6.11  -13.42   44.03
   19.50  -12.43   41.90   -1.13   -7.57   -1.13   -7.57  -12.43   41.90
   19.60  -11.69   42.67   -1.20   -8.84   -1.20   -8.84  -11.69   42.67
   19.70  -10.93   40.15   -1.24  -10.49   -1.24  -10.49  -10.93   40.15
   19.80  -10.34   41.27   -1.36  -11.46   -1.36  -11.46  -10.34   41.27
   19.90   -9.84   39.26   -1.41  -12.63   -1.41  -12.63   -9.84   39.26
   20.00   -9.47   39.11   -1.50  -13.43   -1.50  -13.43   -9.47   39.11
