!  American Technical Ceramics  Date:    3/13/98
!  One Norden Lane
!  Huntington Station,  NY.   11746-2102
!  Tel:  (516) 547-5700               Fax:  (516) 547-5748
!  Part Number  100b820j
!  Description: Porcelain, High Q, Low ESR
!  Application: Bypass, Coupling, Timing, Feedback
!               Tuning, Impedance Match, Blocking
# GHZ S DB R 50
! Freq   |S11|   S11 Ph  |S21|   S21 Ph  |S12|   S12 Ph  |S22|   S22 Ph
    0.05   -8.44  -68.05   -0.65   22.08   -0.65   22.08   -8.44  -68.05
    0.09  -12.93  -77.69   -0.22   12.75   -0.22   12.75  -12.93  -77.69
    0.13  -15.82  -81.82   -0.11    8.90   -0.11    8.90  -15.82  -81.82
    0.17  -18.00  -84.36   -0.05    6.63   -0.05    6.63  -18.00  -84.36
    0.21  -19.62  -85.93   -0.04    5.21   -0.04    5.21  -19.62  -85.93
    0.25  -20.74  -87.00   -0.02    4.22   -0.02    4.22  -20.74  -87.00
    0.29  -21.77  -88.47   -0.01    3.62   -0.01    3.62  -21.77  -88.47
    0.33  -22.49  -88.80   -0.01    3.04   -0.01    3.04  -22.49  -88.80
    0.37  -23.09  -89.73    0.00    2.31    0.00    2.31  -23.09  -89.73
    0.41  -23.58  -90.45   -0.01    2.14   -0.01    2.14  -23.58  -90.45
    0.45  -23.94  -90.82    0.00    1.78    0.00    1.78  -23.94  -90.82
    0.49  -24.21  -91.49    0.01    1.49    0.01    1.49  -24.21  -91.49
    0.53  -24.43  -92.45   -0.01    1.12   -0.01    1.12  -24.43  -92.45
    0.57  -24.50  -92.97    0.00    0.95    0.00    0.95  -24.50  -92.97
    0.61  -24.65  -93.01    0.00    0.71    0.00    0.71  -24.65  -93.01
    0.65  -24.60  -93.68    0.00    0.49    0.00    0.49  -24.60  -93.68
    0.69  -24.60  -94.15   -0.01    0.43   -0.01    0.43  -24.60  -94.15
    0.73  -24.62  -94.55    0.00    0.16    0.00    0.16  -24.62  -94.55
    0.77  -24.56  -95.22    0.00   -0.04    0.00   -0.04  -24.56  -95.22
    0.81  -24.46  -95.54    0.00   -0.15    0.00   -0.15  -24.46  -95.54
    0.85  -24.38  -95.64   -0.01   -0.26   -0.01   -0.26  -24.38  -95.64
    0.88  -24.33  -96.29   -0.01   -0.28   -0.01   -0.28  -24.33  -96.29
    0.92  -24.15  -96.91   -0.02   -0.50   -0.02   -0.50  -24.15  -96.91
    0.96  -24.04  -97.47   -0.03   -0.69   -0.03   -0.69  -24.04  -97.47
    1.00  -23.90  -98.02   -0.03   -0.75   -0.03   -0.75  -23.90  -98.02
    1.04  -23.78  -98.37   -0.03   -0.92   -0.03   -0.92  -23.78  -98.37
    1.08  -23.63  -98.93   -0.01   -1.08   -0.01   -1.08  -23.63  -98.93
    1.12  -23.46  -99.02   -0.01   -1.20   -0.01   -1.20  -23.46  -99.02
    1.16  -23.32  -99.55   -0.02   -1.27   -0.02   -1.27  -23.32  -99.55
    1.20  -23.16  -99.61   -0.03   -1.38   -0.03   -1.38  -23.16  -99.61
    1.24  -23.08 -100.08   -0.02   -1.51   -0.02   -1.51  -23.08 -100.08
    1.28  -22.93 -100.25   -0.04   -1.63   -0.04   -1.63  -22.93 -100.25
    1.32  -22.68 -100.81   -0.03   -1.56   -0.03   -1.56  -22.68 -100.81
    1.36  -22.60 -101.34   -0.04   -1.84   -0.04   -1.84  -22.60 -101.34
    1.40  -22.41 -101.41   -0.03   -1.91   -0.03   -1.91  -22.41 -101.41
    1.44  -22.31 -101.66   -0.05   -2.05   -0.05   -2.05  -22.31 -101.66
    1.48  -22.08 -101.93   -0.03   -2.07   -0.03   -2.07  -22.08 -101.93
    1.52  -21.96 -103.05   -0.04   -2.17   -0.04   -2.17  -21.96 -103.05
    1.56  -21.79 -102.91   -0.03   -2.30   -0.03   -2.30  -21.79 -102.91
    1.60  -21.68 -103.51   -0.05   -2.45   -0.05   -2.45  -21.68 -103.51
    1.64  -21.55 -103.60   -0.05   -2.48   -0.05   -2.48  -21.55 -103.60
    1.68  -21.39 -104.28   -0.06   -2.71   -0.06   -2.71  -21.39 -104.28
    1.72  -21.25 -104.30   -0.04   -2.64   -0.04   -2.64  -21.25 -104.30
    1.76  -21.15 -104.51   -0.04   -2.69   -0.04   -2.69  -21.15 -104.51
    1.80  -20.96 -105.11   -0.04   -3.06   -0.04   -3.06  -20.96 -105.11
    1.84  -20.88 -105.52   -0.05   -3.07   -0.05   -3.07  -20.88 -105.52
    1.88  -20.76 -105.24   -0.04   -3.12   -0.04   -3.12  -20.76 -105.24
    1.92  -20.69 -105.89   -0.05   -3.34   -0.05   -3.34  -20.69 -105.89
    1.96  -20.57 -105.94   -0.05   -3.35   -0.05   -3.35  -20.57 -105.94
    2.00  -20.52 -106.20   -0.05   -3.48   -0.05   -3.48  -20.52 -106.20
    2.04  -20.43 -106.84   -0.07   -3.58   -0.07   -3.58  -20.43 -106.84
    2.08  -20.37 -106.60   -0.06   -3.73   -0.06   -3.73  -20.37 -106.60
    2.12  -20.33 -107.23   -0.06   -3.96   -0.06   -3.96  -20.33 -107.23
    2.16  -20.25 -107.11   -0.06   -4.07   -0.06   -4.07  -20.25 -107.11
    2.20  -20.30 -107.72   -0.07   -4.32   -0.07   -4.32  -20.30 -107.72
    2.24  -20.36 -107.80   -0.06   -4.56   -0.06   -4.56  -20.36 -107.80
    2.28  -20.54 -107.66   -0.08   -4.69   -0.08   -4.69  -20.54 -107.66
    2.32  -20.74 -107.55   -0.08   -5.04   -0.08   -5.04  -20.74 -107.55
    2.36  -21.31 -106.73   -0.10   -5.62   -0.10   -5.62  -21.31 -106.73
    2.40  -22.19 -103.46   -0.12   -6.21   -0.12   -6.21  -22.19 -103.46
    2.44  -24.08  -90.02   -0.25   -7.41   -0.25   -7.41  -24.08  -90.02
    2.47  -21.32  -46.28   -0.71   -9.11   -0.71   -9.11  -21.32  -46.28
    2.51  -13.95  -65.19   -1.45   -2.94   -1.45   -2.94  -13.95  -65.19
    2.55  -13.99  -92.44   -0.63    0.01   -0.63    0.01  -13.99  -92.44
    2.59  -15.04 -101.53   -0.33   -1.15   -0.33   -1.15  -15.04 -101.53
    2.63  -15.50 -104.75   -0.23   -2.15   -0.23   -2.15  -15.50 -104.75
    2.67  -15.84 -106.74   -0.18   -2.59   -0.18   -2.59  -15.84 -106.74
    2.71  -16.02 -107.75   -0.18   -3.02   -0.18   -3.02  -16.02 -107.75
    2.75  -16.15 -108.47   -0.15   -3.14   -0.15   -3.14  -16.15 -108.47
    2.79  -16.15 -109.01   -0.16   -3.51   -0.16   -3.51  -16.15 -109.01
    2.83  -16.24 -109.69   -0.14   -3.66   -0.14   -3.66  -16.24 -109.69
    2.87  -16.21 -109.90   -0.17   -3.83   -0.17   -3.83  -16.21 -109.90
    2.91  -16.20 -110.49   -0.16   -3.82   -0.16   -3.82  -16.20 -110.49
    2.95  -16.22 -110.73   -0.16   -4.05   -0.16   -4.05  -16.22 -110.73
    2.99  -16.12 -111.04   -0.14   -4.35   -0.14   -4.35  -16.12 -111.04
    3.03  -16.09 -111.23   -0.17   -4.20   -0.17   -4.20  -16.09 -111.23
    3.07  -16.05 -111.35   -0.15   -4.58   -0.15   -4.58  -16.05 -111.35
    3.11  -16.05 -111.88   -0.17   -4.54   -0.17   -4.54  -16.05 -111.88
    3.15  -15.95 -111.72   -0.16   -4.49   -0.16   -4.49  -15.95 -111.72
    3.19  -15.96 -112.02   -0.19   -4.78   -0.19   -4.78  -15.96 -112.02
    3.23  -15.78 -112.02   -0.15   -4.97   -0.15   -4.97  -15.78 -112.02
    3.27  -15.81 -112.61   -0.19   -4.94   -0.19   -4.94  -15.81 -112.61
    3.31  -15.72 -112.45   -0.19   -5.14   -0.19   -5.14  -15.72 -112.45
    3.35  -15.67 -112.58   -0.19   -5.13   -0.19   -5.13  -15.67 -112.58
    3.39  -15.50 -112.77   -0.18   -5.32   -0.18   -5.32  -15.50 -112.77
    3.43  -15.54 -113.20   -0.19   -5.46   -0.19   -5.46  -15.54 -113.20
    3.47  -15.46 -112.69   -0.19   -5.49   -0.19   -5.49  -15.46 -112.69
    3.51  -15.45 -113.17   -0.19   -5.61   -0.19   -5.61  -15.45 -113.17
    3.55  -15.28 -112.89   -0.21   -5.61   -0.21   -5.61  -15.28 -112.89
    3.59  -15.23 -113.41   -0.21   -5.66   -0.21   -5.66  -15.23 -113.41
    3.63  -15.16 -113.60   -0.22   -5.72   -0.22   -5.72  -15.16 -113.60
    3.67  -15.14 -113.80   -0.23   -5.85   -0.23   -5.85  -15.14 -113.80
    3.71  -15.07 -113.46   -0.23   -6.00   -0.23   -6.00  -15.07 -113.46
    3.75  -14.95 -113.73   -0.22   -5.96   -0.22   -5.96  -14.95 -113.73
    3.79  -14.91 -114.20   -0.24   -6.14   -0.24   -6.14  -14.91 -114.20
    3.83  -14.87 -113.98   -0.22   -6.25   -0.22   -6.25  -14.87 -113.98
    3.87  -14.79 -114.49   -0.26   -6.37   -0.26   -6.37  -14.79 -114.49
    3.91  -14.70 -114.22   -0.25   -6.51   -0.25   -6.51  -14.70 -114.22
    3.95  -14.65 -114.63   -0.26   -6.52   -0.26   -6.52  -14.65 -114.63
    3.99  -14.56 -114.48   -0.24   -6.75   -0.24   -6.75  -14.56 -114.48
    4.03  -14.89 -116.52   -0.23   -6.86   -0.23   -6.86  -14.89 -116.52
    4.06  -14.84 -116.29   -0.23   -6.89   -0.23   -6.89  -14.84 -116.29
    4.10  -14.83 -116.82   -0.24   -7.04   -0.24   -7.04  -14.83 -116.82
    4.14  -14.80 -116.75   -0.25   -7.14   -0.25   -7.14  -14.80 -116.75
    4.18  -14.87 -117.02   -0.28   -7.26   -0.28   -7.26  -14.87 -117.02
    4.22  -14.79 -116.69   -0.25   -7.35   -0.25   -7.35  -14.79 -116.69
    4.26  -14.88 -117.51   -0.26   -7.64   -0.26   -7.64  -14.88 -117.51
    4.30  -14.91 -117.44   -0.26   -7.65   -0.26   -7.65  -14.91 -117.44
    4.34  -15.04 -117.42   -0.28   -7.83   -0.28   -7.83  -15.04 -117.42
    4.38  -15.14 -116.74   -0.28   -8.18   -0.28   -8.18  -15.14 -116.74
    4.42  -15.33 -116.05   -0.30   -8.44   -0.30   -8.44  -15.33 -116.05
    4.46  -15.48 -114.89   -0.33   -8.94   -0.33   -8.94  -15.48 -114.89
    4.50  -15.76 -111.42   -0.41   -9.42   -0.41   -9.42  -15.76 -111.42
    4.54  -15.62 -105.38   -0.59   -9.65   -0.59   -9.65  -15.62 -105.38
    4.58  -14.51 -100.03   -0.83   -8.85   -0.83   -8.85  -14.51 -100.03
    4.62  -13.21 -103.48   -0.87   -6.89   -0.87   -6.89  -13.21 -103.48
    4.66  -12.82 -109.13   -0.69   -5.96   -0.69   -5.96  -12.82 -109.13
    4.70  -12.93 -112.96   -0.57   -5.86   -0.57   -5.86  -12.93 -112.96
    4.74  -13.06 -115.09   -0.45   -6.09   -0.45   -6.09  -13.06 -115.09
    4.78  -13.24 -116.38   -0.43   -6.29   -0.43   -6.29  -13.24 -116.38
    4.82  -13.30 -117.22   -0.38   -6.48   -0.38   -6.48  -13.30 -117.22
    4.86  -13.46 -118.11   -0.40   -6.69   -0.40   -6.69  -13.46 -118.11
    4.90  -13.49 -118.20   -0.36   -6.91   -0.36   -6.91  -13.49 -118.20
    4.94  -13.59 -118.76   -0.35   -7.04   -0.35   -7.04  -13.59 -118.76
    4.98  -13.60 -119.30   -0.34   -7.22   -0.34   -7.22  -13.60 -119.30
    5.02  -13.76 -119.60   -0.35   -7.47   -0.35   -7.47  -13.76 -119.60
    5.06  -13.76 -119.13   -0.34   -7.22   -0.34   -7.22  -13.76 -119.13
    5.10  -13.81 -119.83   -0.33   -7.50   -0.33   -7.50  -13.81 -119.83
    5.14  -13.84 -120.07   -0.34   -7.85   -0.34   -7.85  -13.84 -120.07
    5.18  -13.93 -120.09   -0.34   -7.60   -0.34   -7.60  -13.93 -120.09
    5.22  -13.95 -119.95   -0.33   -7.85   -0.33   -7.85  -13.95 -119.95
    5.26  -14.09 -120.50   -0.33   -7.89   -0.33   -7.89  -14.09 -120.50
    5.30  -14.07 -120.00   -0.33   -8.09   -0.33   -8.09  -14.07 -120.00
    5.34  -14.15 -120.61   -0.34   -8.01   -0.34   -8.01  -14.15 -120.61
    5.38  -14.25 -120.78   -0.34   -8.29   -0.34   -8.29  -14.25 -120.78
    5.42  -14.37 -120.21   -0.34   -8.29   -0.34   -8.29  -14.37 -120.21
    5.46  -14.34 -120.03   -0.34   -8.25   -0.34   -8.25  -14.34 -120.03
    5.50  -14.42 -120.71   -0.34   -8.51   -0.34   -8.51  -14.42 -120.71
    5.54  -14.54 -120.42   -0.35   -8.57   -0.35   -8.57  -14.54 -120.42
    5.58  -14.52 -119.23   -0.33   -8.60   -0.33   -8.60  -14.52 -119.23
    5.62  -14.64 -120.35   -0.35   -8.50   -0.35   -8.50  -14.64 -120.35
    5.65  -14.65 -119.98   -0.34   -8.72   -0.34   -8.72  -14.65 -119.98
    5.69  -14.70 -120.25   -0.37   -8.82   -0.37   -8.82  -14.70 -120.25
    5.73  -14.78 -120.77   -0.36   -8.84   -0.36   -8.84  -14.78 -120.77
    5.77  -14.91 -120.66   -0.35   -8.82   -0.35   -8.82  -14.91 -120.66
    5.81  -14.90 -120.22   -0.34   -8.98   -0.34   -8.98  -14.90 -120.22
    5.85  -15.04 -120.84   -0.35   -9.10   -0.35   -9.10  -15.04 -120.84
    5.89  -15.09 -120.78   -0.32   -9.17   -0.32   -9.17  -15.09 -120.78
    5.93  -15.24 -120.93   -0.33   -9.18   -0.33   -9.18  -15.24 -120.93
    5.97  -15.29 -120.85   -0.35   -9.37   -0.35   -9.37  -15.29 -120.85
    6.01  -15.51 -121.02   -0.34   -9.47   -0.34   -9.47  -15.51 -121.02
    6.05  -15.51 -120.46   -0.34   -9.60   -0.34   -9.60  -15.51 -120.46
    6.09  -15.64 -120.75   -0.35   -9.74   -0.35   -9.74  -15.64 -120.75
    6.13  -15.78 -120.62   -0.35   -9.91   -0.35   -9.91  -15.78 -120.62
    6.17  -15.97 -120.49   -0.35  -10.04   -0.35  -10.04  -15.97 -120.49
    6.21  -16.06 -119.80   -0.36   -9.97   -0.36   -9.97  -16.06 -119.80
    6.25  -16.18 -119.92   -0.35  -10.40   -0.35  -10.40  -16.18 -119.92
    6.29  -16.37 -119.31   -0.37  -10.54   -0.37  -10.54  -16.37 -119.31
    6.33  -16.50 -118.94   -0.37  -10.54   -0.37  -10.54  -16.50 -118.94
    6.37  -16.67 -118.41   -0.38  -10.76   -0.38  -10.76  -16.67 -118.41
    6.41  -16.89 -117.46   -0.40  -10.92   -0.40  -10.92  -16.89 -117.46
    6.45  -17.04 -115.44   -0.44  -11.07   -0.44  -11.07  -17.04 -115.44
    6.49  -17.07 -113.46   -0.49  -11.36   -0.49  -11.36  -17.07 -113.46
    6.53  -17.12 -110.47   -0.58  -11.52   -0.58  -11.52  -17.12 -110.47
    6.57  -16.65 -108.10   -0.64  -11.42   -0.64  -11.42  -16.65 -108.10
    6.61  -16.14 -108.29   -0.72  -10.89   -0.72  -10.89  -16.14 -108.29
    6.65  -15.72 -109.66   -0.72  -10.06   -0.72  -10.06  -15.72 -109.66
    6.69  -15.66 -112.62   -0.66   -9.75   -0.66   -9.75  -15.66 -112.62
    6.73  -15.71 -115.14   -0.60   -9.73   -0.60   -9.73  -15.71 -115.14
    6.77  -15.99 -116.53   -0.57   -9.75   -0.57   -9.75  -15.99 -116.53
    6.81  -16.12 -116.84   -0.53   -9.94   -0.53   -9.94  -16.12 -116.84
    6.85  -16.39 -117.08   -0.52   -9.98   -0.52   -9.98  -16.39 -117.08
    6.89  -16.44 -117.29   -0.51  -10.29   -0.51  -10.29  -16.44 -117.29
    6.93  -16.73 -117.68   -0.51  -10.38   -0.51  -10.38  -16.73 -117.68
    6.97  -16.74 -117.16   -0.51  -10.46   -0.51  -10.46  -16.74 -117.16
    7.01  -16.90 -117.38   -0.52  -10.43   -0.52  -10.43  -16.90 -117.38
    7.05  -17.01 -116.36   -0.50  -10.58   -0.50  -10.58  -17.01 -116.36
    7.09  -17.11 -116.95   -0.51  -10.80   -0.51  -10.80  -17.11 -116.95
    7.13  -17.23 -116.57   -0.51  -10.83   -0.51  -10.83  -17.23 -116.57
    7.17  -17.31 -116.36   -0.52  -10.85   -0.52  -10.85  -17.31 -116.36
    7.21  -17.44 -115.86   -0.54  -10.95   -0.54  -10.95  -17.44 -115.86
    7.24  -17.55 -115.44   -0.53  -11.05   -0.53  -11.05  -17.55 -115.44
    7.28  -17.61 -114.84   -0.55  -11.19   -0.55  -11.19  -17.61 -114.84
    7.32  -17.63 -114.59   -0.56  -11.21   -0.56  -11.21  -17.63 -114.59
    7.36  -17.64 -114.16   -0.57  -11.14   -0.57  -11.14  -17.64 -114.16
    7.40  -17.69 -114.20   -0.56  -11.23   -0.56  -11.23  -17.69 -114.20
    7.44  -17.79 -113.17   -0.58  -11.33   -0.58  -11.33  -17.79 -113.17
    7.48  -17.66 -112.94   -0.59  -11.27   -0.59  -11.27  -17.66 -112.94
    7.52  -17.74 -112.87   -0.61  -11.32   -0.61  -11.32  -17.74 -112.87
    7.56  -17.57 -112.25   -0.62  -11.31   -0.62  -11.31  -17.57 -112.25
    7.60  -17.62 -113.30   -0.61  -11.27   -0.61  -11.27  -17.62 -113.30
    7.64  -17.58 -113.17   -0.59  -11.38   -0.59  -11.38  -17.58 -113.17
    7.68  -17.64 -113.90   -0.61  -11.26   -0.61  -11.26  -17.64 -113.90
    7.72  -17.62 -114.15   -0.60  -11.24   -0.60  -11.24  -17.62 -114.15
    7.76  -17.69 -114.99   -0.61  -11.36   -0.61  -11.36  -17.69 -114.99
    7.80  -17.76 -115.11   -0.60  -11.32   -0.60  -11.32  -17.76 -115.11
    7.84  -17.86 -115.30   -0.58  -11.41   -0.58  -11.41  -17.86 -115.30
    7.88  -17.86 -115.68   -0.59  -11.54   -0.59  -11.54  -17.86 -115.68
    7.92  -18.02 -116.25   -0.60  -11.55   -0.60  -11.55  -18.02 -116.25
    7.96  -18.05 -115.81   -0.56  -11.72   -0.56  -11.72  -18.05 -115.81
    8.00  -18.16 -116.81   -0.57  -11.79   -0.57  -11.79  -18.16 -116.81
