!  American Technical Ceramics  Date:    3/13/98
!  One Norden Lane
!  Huntington Station,  NY.   11746-2102
!  Tel:  (516) 547-5700               Fax:  (516) 547-5748
!  Part Number  100b102g
!  Description: Porcelain, High Q, Low ESR
!  Application: Bypass, Coupling, Timing, Feedback
!               Tuning, Impedance Match, Blocking
# GHZ S DB R 50
! Freq   |S11|   S11 Ph  |S21|   S21 Ph  |S12|   S12 Ph  |S22|   S22 Ph
    0.05  -28.50  -88.61   -0.01    1.83   -0.01    1.83  -28.50  -88.61
    0.07  -31.28  -87.61   -0.03    1.16   -0.03    1.16  -31.28  -87.61
    0.09  -32.76  -90.14   -0.01    0.63   -0.01    0.63  -32.76  -90.14
    0.11  -33.04  -91.01   -0.02    0.68   -0.02    0.68  -33.04  -91.01
    0.13  -33.97  -90.65   -0.01    0.29   -0.01    0.29  -33.97  -90.65
    0.15  -34.12  -91.98    0.01    0.34    0.01    0.34  -34.12  -91.98
    0.17  -33.61  -92.17   -0.03    0.17   -0.03    0.17  -33.61  -92.17
    0.19  -33.74  -91.06   -0.02    0.17   -0.02    0.17  -33.74  -91.06
    0.21  -33.54  -92.32   -0.03    0.17   -0.03    0.17  -33.54  -92.32
    0.23  -33.35  -91.14   -0.01    0.02   -0.01    0.02  -33.35  -91.14
    0.25  -33.01  -89.98   -0.03   -0.07   -0.03   -0.07  -33.01  -89.98
    0.27  -32.59  -92.15   -0.02   -0.08   -0.02   -0.08  -32.59  -92.15
    0.29  -32.36  -92.80   -0.02   -0.16   -0.02   -0.16  -32.36  -92.80
    0.31  -32.12  -91.93   -0.01   -0.18   -0.01   -0.18  -32.12  -91.93
    0.33  -31.84  -92.00   -0.02   -0.36   -0.02   -0.36  -31.84  -92.00
    0.35  -31.40  -92.55   -0.01   -0.41   -0.01   -0.41  -31.40  -92.55
    0.37  -31.17  -91.76   -0.03   -0.48   -0.03   -0.48  -31.17  -91.76
    0.39  -30.78  -92.54   -0.01   -0.57   -0.01   -0.57  -30.78  -92.54
    0.41  -30.51  -92.51   -0.03   -0.52   -0.03   -0.52  -30.51  -92.51
    0.43  -30.21  -92.95   -0.03   -0.52   -0.03   -0.52  -30.21  -92.95
    0.45  -29.96  -93.52   -0.03   -0.63   -0.03   -0.63  -29.96  -93.52
    0.46  -29.75  -93.11   -0.04   -0.56   -0.04   -0.56  -29.75  -93.11
    0.48  -29.50  -93.87   -0.03   -0.59   -0.03   -0.59  -29.50  -93.87
    0.50  -28.95  -94.69   -0.03   -0.83   -0.03   -0.83  -28.95  -94.69
    0.52  -28.75  -95.73   -0.04   -0.94   -0.04   -0.94  -28.75  -95.73
    0.54  -28.60  -94.76   -0.02   -0.99   -0.02   -0.99  -28.60  -94.76
    0.56  -28.61  -94.60   -0.04   -1.03   -0.04   -1.03  -28.61  -94.60
    0.58  -28.72  -94.23   -0.05   -1.26   -0.05   -1.26  -28.72  -94.23
    0.60  -29.41  -91.46   -0.06   -1.53   -0.06   -1.53  -29.41  -91.46
    0.62  -29.26  -62.38   -0.21   -1.97   -0.21   -1.97  -29.26  -62.38
    0.64  -24.10  -81.53   -0.17   -0.10   -0.17   -0.10  -24.10  -81.53
    0.66  -24.84  -91.50   -0.07   -0.62   -0.07   -0.62  -24.84  -91.50
    0.68  -25.13  -93.95   -0.05   -0.68   -0.05   -0.68  -25.13  -93.95
    0.70  -25.16  -94.48   -0.05   -0.95   -0.05   -0.95  -25.16  -94.48
    0.72  -25.08  -94.87   -0.04   -0.89   -0.04   -0.89  -25.08  -94.87
    0.74  -24.97  -95.50   -0.05   -1.02   -0.05   -1.02  -24.97  -95.50
    0.76  -24.84  -95.85   -0.04   -1.02   -0.04   -1.02  -24.84  -95.85
    0.78  -24.69  -96.10   -0.04   -1.11   -0.04   -1.11  -24.69  -96.10
    0.80  -24.56  -96.23   -0.05   -1.16   -0.05   -1.16  -24.56  -96.23
    0.82  -24.40  -96.57   -0.04   -1.30   -0.04   -1.30  -24.40  -96.57
    0.84  -24.23  -96.71   -0.05   -1.17   -0.05   -1.17  -24.23  -96.71
    0.86  -24.15  -97.00   -0.05   -1.35   -0.05   -1.35  -24.15  -97.00
    0.88  -23.93  -97.20   -0.04   -1.38   -0.04   -1.38  -23.93  -97.20
    0.90  -23.77  -97.21   -0.05   -1.32   -0.05   -1.32  -23.77  -97.21
    0.92  -23.59  -97.27   -0.05   -1.45   -0.05   -1.45  -23.59  -97.27
    0.94  -23.45  -97.75   -0.05   -1.44   -0.05   -1.44  -23.45  -97.75
    0.96  -23.28  -97.84   -0.05   -1.53   -0.05   -1.53  -23.28  -97.84
    0.98  -23.14  -98.00   -0.06   -1.67   -0.06   -1.67  -23.14  -98.00
    1.00  -23.07  -98.11   -0.05   -1.73   -0.05   -1.73  -23.07  -98.11
    1.02  -22.98  -98.31   -0.04   -1.73   -0.04   -1.73  -22.98  -98.31
    1.04  -22.86  -98.01   -0.06   -1.77   -0.06   -1.77  -22.86  -98.01
    1.06  -22.74  -98.31   -0.06   -1.93   -0.06   -1.93  -22.74  -98.31
    1.08  -22.69  -98.26   -0.06   -1.82   -0.06   -1.82  -22.69  -98.26
    1.10  -22.75  -97.90   -0.08   -2.11   -0.08   -2.11  -22.75  -97.90
    1.12  -22.83  -95.68   -0.11   -2.18   -0.11   -2.18  -22.83  -95.68
    1.14  -22.46  -90.39   -0.17   -2.12   -0.17   -2.12  -22.46  -90.39
    1.16  -21.25  -90.70   -0.18   -1.57   -0.18   -1.57  -21.25  -90.70
    1.18  -20.88  -95.22   -0.12   -1.52   -0.12   -1.52  -20.88  -95.22
    1.20  -20.89  -97.95   -0.11   -1.52   -0.11   -1.52  -20.89  -97.95
    1.22  -20.84  -98.11   -0.09   -1.59   -0.09   -1.59  -20.84  -98.11
    1.24  -20.78  -98.72   -0.08   -1.72   -0.08   -1.72  -20.78  -98.72
    1.25  -20.73  -99.12   -0.09   -1.92   -0.09   -1.92  -20.73  -99.12
    1.27  -20.65  -99.45   -0.08   -1.84   -0.08   -1.84  -20.65  -99.45
    1.29  -20.51  -99.70   -0.08   -1.91   -0.08   -1.91  -20.51  -99.70
    1.31  -20.38  -99.84   -0.07   -1.89   -0.07   -1.89  -20.38  -99.84
    1.33  -20.30 -100.34   -0.08   -2.06   -0.08   -2.06  -20.30 -100.34
    1.35  -20.24 -100.53   -0.08   -2.00   -0.08   -2.00  -20.24 -100.53
    1.37  -20.10 -100.54   -0.08   -2.13   -0.08   -2.13  -20.10 -100.54
    1.39  -19.95 -100.72   -0.08   -2.25   -0.08   -2.25  -19.95 -100.72
    1.41  -19.90 -100.91   -0.08   -2.25   -0.08   -2.25  -19.90 -100.91
    1.43  -19.80 -101.23   -0.08   -2.13   -0.08   -2.13  -19.80 -101.23
    1.45  -19.68 -101.62   -0.09   -2.32   -0.09   -2.32  -19.68 -101.62
    1.47  -19.61 -101.60   -0.08   -2.32   -0.08   -2.32  -19.61 -101.60
    1.49  -19.52 -101.76   -0.09   -2.29   -0.09   -2.29  -19.52 -101.76
    1.51  -19.46 -101.70   -0.10   -2.39   -0.10   -2.39  -19.46 -101.70
    1.53  -19.35 -101.76   -0.11   -2.51   -0.11   -2.51  -19.35 -101.76
    1.55  -19.27 -102.04   -0.11   -2.62   -0.11   -2.62  -19.27 -102.04
    1.57  -19.18 -101.84   -0.10   -2.52   -0.10   -2.52  -19.18 -101.84
    1.59  -19.18 -101.76   -0.11   -2.71   -0.11   -2.71  -19.18 -101.76
    1.61  -19.13 -101.55   -0.12   -2.61   -0.12   -2.61  -19.13 -101.55
    1.63  -19.04 -100.95   -0.14   -2.74   -0.14   -2.74  -19.04 -100.95
    1.65  -18.91  -99.75   -0.16   -2.80   -0.16   -2.80  -18.91  -99.75
    1.67  -18.60  -99.01   -0.16   -2.50   -0.16   -2.50  -18.60  -99.01
    1.69  -18.28  -99.66   -0.17   -2.44   -0.17   -2.44  -18.28  -99.66
    1.71  -18.09 -100.58   -0.15   -2.35   -0.15   -2.35  -18.09 -100.58
    1.73  -17.94 -101.32   -0.12   -2.56   -0.12   -2.56  -17.94 -101.32
    1.75  -17.91 -102.00   -0.12   -2.53   -0.12   -2.53  -17.91 -102.00
    1.77  -17.85 -102.60   -0.13   -2.58   -0.13   -2.58  -17.85 -102.60
    1.79  -17.76 -102.87   -0.15   -2.68   -0.15   -2.68  -17.76 -102.87
    1.81  -17.64 -103.13   -0.10   -2.72   -0.10   -2.72  -17.64 -103.13
    1.83  -17.60 -103.33   -0.12   -2.68   -0.12   -2.68  -17.60 -103.33
    1.85  -17.54 -103.72   -0.13   -2.69   -0.13   -2.69  -17.54 -103.72
    1.87  -17.46 -103.90   -0.13   -2.87   -0.13   -2.87  -17.46 -103.90
    1.89  -17.37 -103.79   -0.12   -2.84   -0.12   -2.84  -17.37 -103.79
    1.91  -17.30 -104.01   -0.12   -2.85   -0.12   -2.85  -17.30 -104.01
    1.93  -17.26 -104.23   -0.14   -2.96   -0.14   -2.96  -17.26 -104.23
    1.95  -17.19 -104.35   -0.14   -2.96   -0.14   -2.96  -17.19 -104.35
    1.97  -17.08 -104.30   -0.14   -3.05   -0.14   -3.05  -17.08 -104.30
    1.99  -17.03 -104.43   -0.13   -3.06   -0.13   -3.06  -17.03 -104.43
    2.01  -16.96 -104.63   -0.13   -3.13   -0.13   -3.13  -16.96 -104.63
    2.03  -16.91 -104.91   -0.15   -3.01   -0.15   -3.01  -16.91 -104.91
    2.04  -16.84 -105.06   -0.15   -3.19   -0.15   -3.19  -16.84 -105.06
    2.06  -16.77 -104.85   -0.14   -3.18   -0.14   -3.18  -16.77 -104.85
    2.08  -16.72 -104.87   -0.16   -3.20   -0.16   -3.20  -16.72 -104.87
    2.10  -16.65 -104.84   -0.16   -3.35   -0.16   -3.35  -16.65 -104.84
    2.12  -16.56 -104.56   -0.18   -3.38   -0.18   -3.38  -16.56 -104.56
    2.14  -16.49 -104.14   -0.18   -3.35   -0.18   -3.35  -16.49 -104.14
    2.16  -16.36 -103.94   -0.19   -3.35   -0.19   -3.35  -16.36 -103.94
    2.18  -16.23 -104.16   -0.21   -3.25   -0.21   -3.25  -16.23 -104.16
    2.20  -16.09 -104.26   -0.20   -3.25   -0.20   -3.25  -16.09 -104.26
    2.22  -15.97 -104.66   -0.20   -3.26   -0.20   -3.26  -15.97 -104.66
    2.24  -15.87 -105.05   -0.18   -3.22   -0.18   -3.22  -15.87 -105.05
    2.26  -15.82 -105.50   -0.19   -3.21   -0.19   -3.21  -15.82 -105.50
    2.28  -15.72 -105.63   -0.18   -3.33   -0.18   -3.33  -15.72 -105.63
    2.30  -15.63 -105.88   -0.19   -3.30   -0.19   -3.30  -15.63 -105.88
    2.32  -15.60 -106.19   -0.19   -3.36   -0.19   -3.36  -15.60 -106.19
    2.34  -15.57 -106.37   -0.19   -3.43   -0.19   -3.43  -15.57 -106.37
    2.36  -15.49 -106.44   -0.18   -3.49   -0.18   -3.49  -15.49 -106.44
    2.38  -15.41 -106.58   -0.19   -3.55   -0.19   -3.55  -15.41 -106.58
    2.40  -15.35 -106.91   -0.20   -3.28   -0.20   -3.28  -15.35 -106.91
    2.42  -15.32 -107.08   -0.21   -3.53   -0.21   -3.53  -15.32 -107.08
    2.44  -15.30 -107.26   -0.21   -3.63   -0.21   -3.63  -15.30 -107.26
    2.46  -15.20 -107.00   -0.20   -3.54   -0.20   -3.54  -15.20 -107.00
    2.48  -15.12 -107.23   -0.20   -3.70   -0.20   -3.70  -15.12 -107.23
    2.50  -15.07 -107.38   -0.20   -3.76   -0.20   -3.76  -15.07 -107.38
    2.52  -15.04 -107.62   -0.21   -3.70   -0.21   -3.70  -15.04 -107.62
    2.54  -14.98 -107.49   -0.21   -3.64   -0.21   -3.64  -14.98 -107.49
    2.56  -14.92 -107.63   -0.22   -3.73   -0.22   -3.73  -14.92 -107.63
    2.58  -14.89 -107.54   -0.22   -3.88   -0.22   -3.88  -14.89 -107.54
    2.60  -14.83 -107.98   -0.21   -4.05   -0.21   -4.05  -14.83 -107.98
    2.62  -14.82 -107.85   -0.26   -3.86   -0.26   -3.86  -14.82 -107.85
    2.64  -14.69 -107.56   -0.24   -3.86   -0.24   -3.86  -14.69 -107.56
    2.66  -14.63 -107.46   -0.25   -3.95   -0.25   -3.95  -14.63 -107.46
    2.68  -14.54 -107.64   -0.24   -4.02   -0.24   -4.02  -14.54 -107.64
    2.70  -14.45 -107.65   -0.26   -3.88   -0.26   -3.88  -14.45 -107.65
    2.72  -14.37 -107.82   -0.26   -3.95   -0.26   -3.95  -14.37 -107.82
    2.74  -14.30 -107.93   -0.25   -3.94   -0.25   -3.94  -14.30 -107.93
    2.76  -14.25 -108.22   -0.26   -3.98   -0.26   -3.98  -14.25 -108.22
    2.78  -14.19 -108.54   -0.26   -3.95   -0.26   -3.95  -14.19 -108.54
    2.80  -14.11 -108.58   -0.25   -3.96   -0.25   -3.96  -14.11 -108.58
    2.82  -14.06 -108.68   -0.26   -3.90   -0.26   -3.90  -14.06 -108.68
    2.83  -14.02 -108.84   -0.25   -4.02   -0.25   -4.02  -14.02 -108.84
    2.85  -13.96 -109.19   -0.28   -4.07   -0.28   -4.07  -13.96 -109.19
    2.87  -13.88 -109.24   -0.26   -4.15   -0.26   -4.15  -13.88 -109.24
    2.89  -13.83 -109.38   -0.26   -3.99   -0.26   -3.99  -13.83 -109.38
    2.91  -13.81 -109.52   -0.26   -4.05   -0.26   -4.05  -13.81 -109.52
    2.93  -13.80 -109.72   -0.27   -4.15   -0.27   -4.15  -13.80 -109.72
    2.95  -13.75 -109.55   -0.27   -4.16   -0.27   -4.16  -13.75 -109.55
    2.97  -13.68 -109.62   -0.28   -4.23   -0.28   -4.23  -13.68 -109.62
    2.99  -13.64 -109.79   -0.28   -4.21   -0.28   -4.21  -13.64 -109.79
    3.01  -13.60 -109.76   -0.28   -4.19   -0.28   -4.19  -13.60 -109.76
    3.03  -13.56 -109.93   -0.31   -4.22   -0.31   -4.22  -13.56 -109.93
    3.05  -13.50 -110.02   -0.30   -4.41   -0.30   -4.41  -13.50 -110.02
    3.07  -13.45 -110.12   -0.28   -4.40   -0.28   -4.40  -13.45 -110.12
    3.09  -13.43 -110.32   -0.30   -4.48   -0.30   -4.48  -13.43 -110.32
    3.11  -13.39 -110.30   -0.32   -4.53   -0.32   -4.53  -13.39 -110.30
    3.13  -13.32 -109.87   -0.30   -4.44   -0.30   -4.44  -13.32 -109.87
    3.15  -13.26 -109.98   -0.31   -4.41   -0.31   -4.41  -13.26 -109.98
    3.17  -13.23 -110.06   -0.31   -4.41   -0.31   -4.41  -13.23 -110.06
    3.19  -13.18 -110.18   -0.32   -4.53   -0.32   -4.53  -13.18 -110.18
    3.21  -13.09 -110.04   -0.32   -4.45   -0.32   -4.45  -13.09 -110.04
    3.23  -13.02 -110.37   -0.33   -4.48   -0.33   -4.48  -13.02 -110.37
    3.25  -12.98 -110.49   -0.33   -4.55   -0.33   -4.55  -12.98 -110.49
    3.27  -12.93 -110.58   -0.33   -4.42   -0.33   -4.42  -12.93 -110.58
    3.29  -12.88 -110.75   -0.34   -4.51   -0.34   -4.51  -12.88 -110.75
    3.31  -12.85 -110.77   -0.34   -4.57   -0.34   -4.57  -12.85 -110.77
    3.33  -12.81 -110.96   -0.33   -4.71   -0.33   -4.71  -12.81 -110.96
    3.35  -12.78 -110.85   -0.35   -4.56   -0.35   -4.56  -12.78 -110.85
    3.37  -12.71 -111.15   -0.36   -4.72   -0.36   -4.72  -12.71 -111.15
    3.39  -12.65 -111.00   -0.35   -4.65   -0.35   -4.65  -12.65 -111.00
    3.41  -12.62 -111.20   -0.35   -4.67   -0.35   -4.67  -12.62 -111.20
    3.43  -12.59 -111.50   -0.36   -4.73   -0.36   -4.73  -12.59 -111.50
    3.45  -12.57 -111.57   -0.36   -4.74   -0.36   -4.74  -12.57 -111.57
    3.47  -12.50 -111.46   -0.36   -4.84   -0.36   -4.84  -12.50 -111.46
    3.49  -12.49 -111.61   -0.37   -4.83   -0.37   -4.83  -12.49 -111.61
    3.51  -12.46 -111.62   -0.37   -4.81   -0.37   -4.81  -12.46 -111.62
    3.53  -12.39 -111.65   -0.38   -4.94   -0.38   -4.94  -12.39 -111.65
    3.55  -12.36 -111.66   -0.38   -4.95   -0.38   -4.95  -12.36 -111.66
    3.57  -12.31 -111.66   -0.38   -4.86   -0.38   -4.86  -12.31 -111.66
    3.59  -12.26 -111.78   -0.39   -4.75   -0.39   -4.75  -12.26 -111.78
    3.61  -12.22 -111.85   -0.39   -5.03   -0.39   -5.03  -12.22 -111.85
    3.62  -12.16 -112.04   -0.40   -5.06   -0.40   -5.06  -12.16 -112.04
    3.64  -12.13 -111.96   -0.41   -5.04   -0.41   -5.04  -12.13 -111.96
    3.66  -12.12 -112.13   -0.41   -5.06   -0.41   -5.06  -12.12 -112.13
    3.68  -12.09 -111.99   -0.44   -5.00   -0.44   -5.00  -12.09 -111.99
    3.70  -11.99 -111.97   -0.41   -4.93   -0.41   -4.93  -11.99 -111.97
    3.72  -11.94 -111.98   -0.43   -5.15   -0.43   -5.15  -11.94 -111.98
    3.74  -11.91 -112.08   -0.42   -5.18   -0.42   -5.18  -11.91 -112.08
    3.76  -11.86 -112.43   -0.43   -5.15   -0.43   -5.15  -11.86 -112.43
    3.78  -11.85 -112.57   -0.44   -5.24   -0.44   -5.24  -11.85 -112.57
    3.80  -11.81 -112.47   -0.44   -5.23   -0.44   -5.23  -11.81 -112.47
    3.82  -11.73 -112.46   -0.44   -5.20   -0.44   -5.20  -11.73 -112.46
    3.84  -11.72 -112.58   -0.45   -5.15   -0.45   -5.15  -11.72 -112.58
    3.86  -11.67 -112.62   -0.46   -5.25   -0.46   -5.25  -11.67 -112.62
    3.88  -11.60 -112.77   -0.46   -5.32   -0.46   -5.32  -11.60 -112.77
    3.90  -11.58 -112.53   -0.47   -5.27   -0.47   -5.27  -11.58 -112.53
    3.92  -11.53 -112.84   -0.46   -5.39   -0.46   -5.39  -11.53 -112.84
    3.94  -11.50 -112.94   -0.47   -5.39   -0.47   -5.39  -11.50 -112.94
    3.96  -11.44 -112.99   -0.48   -5.27   -0.48   -5.27  -11.44 -112.99
    3.98  -11.40 -113.00   -0.48   -5.56   -0.48   -5.56  -11.40 -113.00
    4.00  -11.56 -114.68   -0.45   -5.56   -0.45   -5.56  -11.56 -114.68
