!  American Technical Ceramics  Date:    3/13/98
!  One Norden Lane
!  Huntington Station,  NY.   11746-2102
!  Tel:  (516) 547-5700               Fax:  (516) 547-5748
!  Part Number  180r270f
!  Description: Porcelain, High Q, Low ESR
!  Application: Bypass, Coupling, Timing, Feedback
!               Tuning, Impedance Match, Blocking
# GHZ S DB R 50
! Freq   |S11|   S11 Ph  |S21|   S21 Ph  |S12|   S12 Ph  |S22|   S22 Ph
    0.05   -2.19  -39.99   -3.84   50.31   -3.84   50.31   -2.19  -39.99
    0.11   -6.43  -62.35   -1.12   28.00   -1.12   28.00   -6.43  -62.35
    0.17   -9.47  -72.29   -0.50   18.89   -0.50   18.89   -9.47  -72.29
    0.24  -11.77  -77.23   -0.28   14.20   -0.28   14.20  -11.77  -77.23
    0.30  -13.49  -80.48   -0.17   11.22   -0.17   11.22  -13.49  -80.48
    0.36  -14.84  -82.78   -0.11    9.25   -0.11    9.25  -14.84  -82.78
    0.42  -15.87  -84.69   -0.09    7.70   -0.09    7.70  -15.87  -84.69
    0.48  -16.74  -85.91   -0.08    6.76   -0.08    6.76  -16.74  -85.91
    0.54  -17.55  -86.99   -0.06    5.73   -0.06    5.73  -17.55  -86.99
    0.61  -18.07  -88.17   -0.05    4.97   -0.05    4.97  -18.07  -88.17
    0.67  -18.46  -88.84   -0.07    4.59   -0.07    4.59  -18.46  -88.84
    0.73  -18.77  -89.23   -0.04    4.11   -0.04    4.11  -18.77  -89.23
    0.79  -19.02  -89.93   -0.05    3.79   -0.05    3.79  -19.02  -89.93
    0.85  -19.22  -90.71   -0.05    3.42   -0.05    3.42  -19.22  -90.71
    0.91  -19.34  -90.95   -0.03    3.06   -0.03    3.06  -19.34  -90.95
    0.98  -19.42  -91.75   -0.04    2.87   -0.04    2.87  -19.42  -91.75
    1.04  -19.53  -92.09   -0.05    2.51   -0.05    2.51  -19.53  -92.09
    1.10  -19.58  -92.45   -0.03    2.38   -0.03    2.38  -19.58  -92.45
    1.16  -19.52  -93.02   -0.04    2.03   -0.04    2.03  -19.52  -93.02
    1.22  -19.51  -92.86   -0.05    1.94   -0.05    1.94  -19.51  -92.86
    1.29  -19.51  -93.22   -0.04    1.79   -0.04    1.79  -19.51  -93.22
    1.35  -19.42  -93.85   -0.03    1.64   -0.03    1.64  -19.42  -93.85
    1.41  -19.35  -93.95   -0.04    1.58   -0.04    1.58  -19.35  -93.95
    1.47  -19.29  -94.21   -0.05    1.42   -0.05    1.42  -19.29  -94.21
    1.53  -19.22  -94.50   -0.04    1.26   -0.04    1.26  -19.22  -94.50
    1.59  -19.15  -95.02   -0.04    1.16   -0.04    1.16  -19.15  -95.02
    1.66  -19.03  -95.00   -0.05    1.02   -0.05    1.02  -19.03  -95.00
    1.72  -18.94  -95.28   -0.06    0.83   -0.06    0.83  -18.94  -95.28
    1.78  -18.90  -95.52   -0.07    0.72   -0.07    0.72  -18.90  -95.52
    1.84  -18.77  -95.98   -0.04    0.68   -0.04    0.68  -18.77  -95.98
    1.90  -18.60  -95.72   -0.05    0.46   -0.05    0.46  -18.60  -95.72
    1.96  -18.51  -95.77   -0.05    0.53   -0.05    0.53  -18.51  -95.77
    2.03  -18.46  -96.49   -0.08    0.49   -0.08    0.49  -18.46  -96.49
    2.09  -18.38  -96.73   -0.08    0.43   -0.08    0.43  -18.38  -96.73
    2.15  -18.17  -96.63   -0.07    0.40   -0.07    0.40  -18.17  -96.63
    2.21  -18.09  -97.07   -0.07    0.00   -0.07    0.00  -18.09  -97.07
    2.27  -18.02  -97.45   -0.08    0.11   -0.08    0.11  -18.02  -97.45
    2.33  -17.91  -97.80   -0.08    0.00   -0.08    0.00  -17.91  -97.80
    2.40  -17.75  -97.86   -0.08   -0.01   -0.08   -0.01  -17.75  -97.86
    2.46  -17.68  -98.02   -0.08   -0.05   -0.08   -0.05  -17.68  -98.02
    2.52  -17.59  -98.71   -0.09   -0.03   -0.09   -0.03  -17.59  -98.71
    2.58  -17.48  -98.62   -0.08   -0.10   -0.08   -0.10  -17.48  -98.62
    2.64  -17.34  -98.32   -0.10   -0.20   -0.10   -0.20  -17.34  -98.32
    2.71  -17.20  -98.70   -0.12   -0.30   -0.12   -0.30  -17.20  -98.70
    2.77  -17.14  -99.62   -0.09   -0.35   -0.09   -0.35  -17.14  -99.62
    2.83  -16.99  -99.28   -0.10   -0.47   -0.10   -0.47  -16.99  -99.28
    2.89  -16.80  -99.40   -0.11   -0.39   -0.11   -0.39  -16.80  -99.40
    2.95  -16.80 -100.23   -0.11   -0.70   -0.11   -0.70  -16.80 -100.23
    3.01  -16.67 -100.51   -0.13   -0.68   -0.13   -0.68  -16.67 -100.51
    3.08  -16.50 -100.82   -0.11   -0.80   -0.11   -0.80  -16.50 -100.82
    3.14  -16.39 -100.52   -0.13   -0.80   -0.13   -0.80  -16.39 -100.52
    3.20  -16.34 -100.98   -0.17   -0.91   -0.17   -0.91  -16.34 -100.98
    3.26  -16.20 -101.73   -0.13   -0.97   -0.13   -0.97  -16.20 -101.73
    3.32  -16.12 -101.73   -0.14   -1.12   -0.14   -1.12  -16.12 -101.73
    3.38  -15.86 -101.57   -0.17   -1.13   -0.17   -1.13  -15.86 -101.57
    3.45  -15.83 -102.75   -0.16   -1.25   -0.16   -1.25  -15.83 -102.75
    3.51  -15.71 -102.83   -0.17   -1.17   -0.17   -1.17  -15.71 -102.83
    3.57  -15.50 -102.31   -0.15   -1.41   -0.15   -1.41  -15.50 -102.31
    3.63  -15.37 -103.12   -0.16   -1.32   -0.16   -1.32  -15.37 -103.12
    3.69  -15.36 -103.67   -0.21   -1.63   -0.21   -1.63  -15.36 -103.67
    3.76  -15.13 -103.76   -0.20   -1.54   -0.20   -1.54  -15.13 -103.76
    3.82  -15.02 -103.97   -0.16   -1.88   -0.16   -1.88  -15.02 -103.97
    3.88  -14.84 -104.06   -0.21   -2.00   -0.21   -2.00  -14.84 -104.06
    3.94  -14.79 -104.89   -0.23   -1.91   -0.23   -1.91  -14.79 -104.89
    4.00  -14.88 -106.75   -0.19   -2.07   -0.19   -2.07  -14.88 -106.75
    4.06  -14.77 -106.72   -0.21   -2.34   -0.21   -2.34  -14.77 -106.72
    4.13  -14.70 -107.24   -0.21   -2.52   -0.21   -2.52  -14.70 -107.24
    4.19  -14.83 -108.04   -0.23   -2.65   -0.23   -2.65  -14.83 -108.04
    4.25  -14.77 -108.03   -0.23   -2.78   -0.23   -2.78  -14.77 -108.03
    4.31  -15.01 -108.39   -0.22   -3.45   -0.22   -3.45  -15.01 -108.39
    4.37  -15.54 -108.10   -0.27   -4.08   -0.27   -4.08  -15.54 -108.10
    4.43  -16.77 -104.35   -0.36   -5.58   -0.36   -5.58  -16.77 -104.35
    4.50  -16.75  -71.07   -0.99   -8.10   -0.99   -8.10  -16.75  -71.07
    4.56  -10.50  -83.26   -1.57    1.35   -1.57    1.35  -10.50  -83.26
    4.62  -11.02 -101.12   -0.70    1.78   -0.70    1.78  -11.02 -101.12
    4.68  -11.58 -105.31   -0.51    0.67   -0.51    0.67  -11.58 -105.31
    4.74  -11.72 -106.73   -0.40    0.12   -0.40    0.12  -11.72 -106.73
    4.80  -11.86 -108.08   -0.41   -0.37   -0.41   -0.37  -11.86 -108.08
    4.87  -11.87 -108.95   -0.40   -0.58   -0.40   -0.58  -11.87 -108.95
    4.93  -11.95 -109.56   -0.41   -0.75   -0.41   -0.75  -11.95 -109.56
    4.99  -11.92 -110.22   -0.36   -1.05   -0.36   -1.05  -11.92 -110.22
    5.05  -11.96 -109.84   -0.42   -1.06   -0.42   -1.06  -11.96 -109.84
    5.11  -11.88 -110.89   -0.37   -1.26   -0.37   -1.26  -11.88 -110.89
    5.18  -11.94 -111.13   -0.41   -1.22   -0.41   -1.22  -11.94 -111.13
    5.24  -11.87 -110.90   -0.38   -1.13   -0.38   -1.13  -11.87 -110.90
    5.30  -11.76 -111.01   -0.40   -1.31   -0.40   -1.31  -11.76 -111.01
    5.36  -11.77 -112.22   -0.40   -1.40   -0.40   -1.40  -11.77 -112.22
    5.42  -11.86 -111.52   -0.43   -1.27   -0.43   -1.27  -11.86 -111.52
    5.48  -11.58 -111.66   -0.39   -1.43   -0.39   -1.43  -11.58 -111.66
    5.55  -11.65 -111.95   -0.40   -1.40   -0.40   -1.40  -11.65 -111.95
    5.61  -11.63 -112.45   -0.42   -1.48   -0.42   -1.48  -11.63 -112.45
    5.67  -11.62 -111.96   -0.45   -1.18   -0.45   -1.18  -11.62 -111.96
    5.73  -11.46 -112.61   -0.41   -1.45   -0.41   -1.45  -11.46 -112.61
    5.79  -11.52 -112.71   -0.45   -1.48   -0.45   -1.48  -11.52 -112.71
    5.85  -11.46 -113.01   -0.42   -1.32   -0.42   -1.32  -11.46 -113.01
    5.92  -11.50 -113.40   -0.44   -1.40   -0.44   -1.40  -11.50 -113.40
    5.98  -11.37 -113.24   -0.43   -1.40   -0.43   -1.40  -11.37 -113.24
    6.04  -11.43 -113.16   -0.46   -1.44   -0.46   -1.44  -11.43 -113.16
    6.10  -11.41 -113.75   -0.44   -1.48   -0.44   -1.48  -11.41 -113.75
    6.16  -11.42 -113.81   -0.46   -1.40   -0.46   -1.40  -11.42 -113.81
    6.23  -11.35 -113.40   -0.46   -1.32   -0.46   -1.32  -11.35 -113.40
    6.29  -11.38 -114.05   -0.45   -1.49   -0.45   -1.49  -11.38 -114.05
    6.35  -11.40 -114.30   -0.48   -1.27   -0.48   -1.27  -11.40 -114.30
    6.41  -11.44 -114.46   -0.49   -1.32   -0.49   -1.32  -11.44 -114.46
    6.47  -11.29 -114.29   -0.44   -1.46   -0.44   -1.46  -11.29 -114.29
    6.53  -11.47 -114.82   -0.48   -1.42   -0.48   -1.42  -11.47 -114.82
    6.60  -11.47 -115.22   -0.48   -1.39   -0.48   -1.39  -11.47 -115.22
    6.66  -11.46 -114.72   -0.47   -1.31   -0.47   -1.31  -11.46 -114.72
    6.72  -11.44 -114.87   -0.48   -1.48   -0.48   -1.48  -11.44 -114.87
    6.78  -11.58 -115.21   -0.51   -1.35   -0.51   -1.35  -11.58 -115.21
    6.84  -11.64 -114.89   -0.50   -1.40   -0.50   -1.40  -11.64 -114.89
    6.90  -11.56 -115.15   -0.50   -1.40   -0.50   -1.40  -11.56 -115.15
    6.97  -11.55 -114.63   -0.51   -1.52   -0.51   -1.52  -11.55 -114.63
    7.03  -11.69 -114.77   -0.53   -1.24   -0.53   -1.24  -11.69 -114.77
    7.09  -11.64 -115.19   -0.52   -1.46   -0.52   -1.46  -11.64 -115.19
    7.15  -11.65 -114.78   -0.52   -1.34   -0.52   -1.34  -11.65 -114.78
    7.21  -11.71 -114.71   -0.53   -1.46   -0.53   -1.46  -11.71 -114.71
    7.27  -11.84 -114.78   -0.55   -1.52   -0.55   -1.52  -11.84 -114.78
    7.34  -11.83 -114.55   -0.54   -1.44   -0.54   -1.44  -11.83 -114.55
    7.40  -11.80 -114.51   -0.57   -1.47   -0.57   -1.47  -11.80 -114.51
    7.46  -11.89 -113.45   -0.53   -1.51   -0.53   -1.51  -11.89 -113.45
    7.52  -12.05 -114.12   -0.59   -1.55   -0.59   -1.55  -12.05 -114.12
    7.58  -11.96 -113.50   -0.59   -1.51   -0.59   -1.51  -11.96 -113.50
    7.65  -12.09 -113.00   -0.58   -1.33   -0.58   -1.33  -12.09 -113.00
    7.71  -12.10 -113.26   -0.58   -1.75   -0.58   -1.75  -12.10 -113.26
    7.77  -12.25 -113.58   -0.61   -1.47   -0.61   -1.47  -12.25 -113.58
    7.83  -12.38 -113.29   -0.59   -1.75   -0.59   -1.75  -12.38 -113.29
    7.89  -12.46 -112.65   -0.61   -2.12   -0.61   -2.12  -12.46 -112.65
    7.95  -12.87 -111.64   -0.63   -2.49   -0.63   -2.49  -12.87 -111.64
    8.02  -13.30 -110.38   -0.70   -3.05   -0.70   -3.05  -13.30 -110.38
    8.08  -13.55 -103.69   -0.84   -4.40   -0.84   -4.40  -13.55 -103.69
    8.14  -12.85  -92.73   -1.31   -4.64   -1.31   -4.64  -12.85  -92.73
    8.20  -10.57  -94.07   -1.73   -0.58   -1.73   -0.58  -10.57  -94.07
    8.26  -10.03 -104.18   -1.35    2.45   -1.35    2.45  -10.03 -104.18
    8.32  -10.21 -108.96   -1.02    2.44   -1.02    2.44  -10.21 -108.96
    8.39  -10.42 -111.31   -0.93    2.05   -0.93    2.05  -10.42 -111.31
    8.45  -10.73 -112.80   -0.80    1.81   -0.80    1.81  -10.73 -112.80
    8.51  -10.82 -114.20   -0.80    1.49   -0.80    1.49  -10.82 -114.20
    8.57  -10.92 -114.28   -0.75    1.14   -0.75    1.14  -10.92 -114.28
    8.63  -10.99 -114.83   -0.73    1.20   -0.73    1.20  -10.99 -114.83
    8.70  -11.17 -115.71   -0.73    0.90   -0.73    0.90  -11.17 -115.71
    8.76  -11.18 -116.59   -0.73    0.76   -0.73    0.76  -11.18 -116.59
    8.82  -11.18 -116.43   -0.69    0.68   -0.69    0.68  -11.18 -116.43
    8.88  -11.21 -117.12   -0.71    0.66   -0.71    0.66  -11.21 -117.12
    8.94  -11.34 -117.62   -0.69    0.67   -0.69    0.67  -11.34 -117.62
    9.00  -11.31 -118.37   -0.74    0.58   -0.74    0.58  -11.31 -118.37
    9.07  -11.29 -118.31   -0.71    0.40   -0.71    0.40  -11.29 -118.31
    9.13  -11.31 -118.83   -0.75    0.44   -0.75    0.44  -11.31 -118.83
    9.19  -11.37 -120.01   -0.74    0.58   -0.74    0.58  -11.37 -120.01
    9.25  -11.28 -120.55   -0.72    0.13   -0.72    0.13  -11.28 -120.55
    9.31  -11.27 -120.56   -0.75    0.33   -0.75    0.33  -11.27 -120.56
    9.37  -11.24 -121.74   -0.75    0.43   -0.75    0.43  -11.24 -121.74
    9.44  -11.31 -122.49   -0.78    0.25   -0.78    0.25  -11.31 -122.49
    9.50  -11.16 -123.57   -0.76    0.28   -0.76    0.28  -11.16 -123.57
    9.56  -11.15 -123.81   -0.79   -0.08   -0.79   -0.08  -11.15 -123.81
    9.62  -11.19 -124.68   -0.77    0.21   -0.77    0.21  -11.19 -124.68
    9.68  -11.12 -125.82   -0.81    0.37   -0.81    0.37  -11.12 -125.82
    9.74  -11.05 -126.84   -0.79    0.03   -0.79    0.03  -11.05 -126.84
    9.81  -10.99 -126.97   -0.78    0.18   -0.78    0.18  -10.99 -126.97
    9.87  -10.94 -128.65   -0.81    0.06   -0.81    0.06  -10.94 -128.65
    9.93  -11.06 -129.32   -0.81    0.00   -0.81    0.00  -11.06 -129.32
    9.99  -10.87 -130.37   -0.80    0.07   -0.80    0.07  -10.87 -130.37
   10.05  -10.89 -130.78   -0.82   -0.05   -0.82   -0.05  -10.89 -130.78
   10.12  -10.89 -132.65   -0.82   -0.06   -0.82   -0.06  -10.89 -132.65
   10.18  -10.83 -132.73   -0.89   -0.01   -0.89   -0.01  -10.83 -132.73
   10.24  -10.74 -134.03   -0.85   -0.11   -0.85   -0.11  -10.74 -134.03
   10.30  -10.72 -134.62   -0.86   -0.23   -0.86   -0.23  -10.72 -134.62
   10.36  -10.68 -135.95   -0.90   -0.16   -0.90   -0.16  -10.68 -135.95
   10.42  -10.73 -136.49   -0.93   -0.30   -0.93   -0.30  -10.73 -136.49
   10.49  -10.54 -137.78   -0.89   -0.26   -0.89   -0.26  -10.54 -137.78
   10.55  -10.60 -138.01   -0.92   -0.21   -0.92   -0.21  -10.60 -138.01
   10.61  -10.58 -139.40   -0.91   -0.18   -0.91   -0.18  -10.58 -139.40
   10.67  -10.53 -139.62   -0.96    0.03   -0.96    0.03  -10.53 -139.62
   10.73  -10.54 -141.16   -0.90   -0.50   -0.90   -0.50  -10.54 -141.16
   10.79  -10.54 -140.72   -0.98   -0.29   -0.98   -0.29  -10.54 -140.72
   10.86  -10.42 -142.52   -0.96   -0.35   -0.96   -0.35  -10.42 -142.52
   10.92  -10.57 -142.74   -1.01   -0.44   -1.01   -0.44  -10.57 -142.74
   10.98  -10.47 -142.87   -0.99   -0.48   -0.99   -0.48  -10.47 -142.87
   11.04  -10.33 -143.69   -0.98   -0.54   -0.98   -0.54  -10.33 -143.69
   11.10  -10.50 -145.20   -1.00   -0.52   -1.00   -0.52  -10.50 -145.20
   11.17  -10.57 -144.57   -1.04   -0.67   -1.04   -0.67  -10.57 -144.57
   11.23  -10.44 -145.64   -1.07   -0.94   -1.07   -0.94  -10.44 -145.64
   11.29  -10.59 -145.94   -1.05   -1.01   -1.05   -1.01  -10.59 -145.94
   11.35  -10.64 -146.65   -1.06   -0.72   -1.06   -0.72  -10.64 -146.65
   11.41  -10.80 -146.50   -1.11   -1.13   -1.11   -1.13  -10.80 -146.50
   11.47  -10.83 -147.19   -1.12   -1.50   -1.12   -1.50  -10.83 -147.19
   11.54  -11.07 -146.64   -1.15   -1.78   -1.15   -1.78  -11.07 -146.64
   11.60  -11.39 -145.66   -1.28   -2.01   -1.28   -2.01  -11.39 -145.66
   11.66  -11.57 -143.12   -1.39   -2.59   -1.39   -2.59  -11.57 -143.12
   11.72  -11.43 -138.16   -1.66   -2.21   -1.66   -2.21  -11.43 -138.16
   11.78  -10.71 -134.74   -1.92   -0.54   -1.92   -0.54  -10.71 -134.74
   11.84   -9.79 -137.50   -1.78    1.52   -1.78    1.52   -9.79 -137.50
   11.91   -9.67 -140.67   -1.69    2.60   -1.69    2.60   -9.67 -140.67
   11.97   -9.54 -142.98   -1.51    2.41   -1.51    2.41   -9.54 -142.98
   12.03   -9.65 -144.91   -1.48    2.77   -1.48    2.77   -9.65 -144.91
   12.09   -9.81 -146.15   -1.44    2.48   -1.44    2.48   -9.81 -146.15
   12.15   -9.84 -146.68   -1.40    2.54   -1.40    2.54   -9.84 -146.68
   12.21   -9.84 -147.67   -1.38    2.34   -1.38    2.34   -9.84 -147.67
   12.28  -10.08 -148.26   -1.36    2.44   -1.36    2.44  -10.08 -148.26
   12.34  -10.06 -149.33   -1.35    2.52   -1.35    2.52  -10.06 -149.33
   12.40  -10.20 -149.01   -1.38    2.66   -1.38    2.66  -10.20 -149.01
