!  American Technical Ceramics  Date:    3/13/98
!  One Norden Lane
!  Huntington Station,  NY.   11746-2102
!  Tel:  (516) 547-5700               Fax:  (516) 547-5748
!  Part Number  180r680k
!  Description: Porcelain, High Q, Low ESR
!  Application: Bypass, Coupling, Timing, Feedback
!               Tuning, Impedance Match, Blocking
# GHZ S DB R 50
! Freq   |S11|   S11 Ph  |S21|   S21 Ph  |S12|   S12 Ph  |S22|   S22 Ph
    0.05   -7.05  -64.18   -0.97   26.30   -0.97   26.30   -7.05  -64.18
    0.09  -11.32  -75.42   -0.34   15.35   -0.34   15.35  -11.32  -75.42
    0.13  -14.22  -80.14   -0.26   10.76   -0.26   10.76  -14.22  -80.14
    0.17  -16.36  -83.19   -0.10    8.20   -0.10    8.20  -16.36  -83.19
    0.21  -17.94  -85.17   -0.08    6.64   -0.08    6.64  -17.94  -85.17
    0.25  -19.15  -86.38   -0.05    5.52   -0.05    5.52  -19.15  -86.38
    0.29  -20.10  -87.50   -0.06    4.67   -0.06    4.67  -20.10  -87.50
    0.33  -20.81  -88.54   -0.04    4.01   -0.04    4.01  -20.81  -88.54
    0.37  -21.45  -89.07   -0.04    3.33   -0.04    3.33  -21.45  -89.07
    0.41  -21.94  -89.74   -0.03    3.25   -0.03    3.25  -21.94  -89.74
    0.45  -22.32  -90.19   -0.02    2.81   -0.02    2.81  -22.32  -90.19
    0.49  -22.61  -90.89   -0.01    2.66   -0.01    2.66  -22.61  -90.89
    0.53  -22.92  -91.51   -0.03    2.11   -0.03    2.11  -22.92  -91.51
    0.57  -23.01  -91.80   -0.05    2.08   -0.05    2.08  -23.01  -91.80
    0.61  -23.13  -91.98   -0.03    1.77   -0.03    1.77  -23.13  -91.98
    0.65  -23.16  -92.20   -0.03    1.68   -0.03    1.68  -23.16  -92.20
    0.69  -23.16  -92.65   -0.03    1.54   -0.03    1.54  -23.16  -92.65
    0.73  -23.22  -92.71   -0.04    1.36   -0.04    1.36  -23.22  -92.71
    0.77  -23.14  -93.10   -0.02    1.21   -0.02    1.21  -23.14  -93.10
    0.81  -23.10  -93.12   -0.02    1.13   -0.02    1.13  -23.10  -93.12
    0.85  -23.05  -93.15   -0.03    1.12   -0.03    1.12  -23.05  -93.15
    0.88  -22.98  -93.61   -0.04    0.99   -0.04    0.99  -22.98  -93.61
    0.92  -22.92  -93.63   -0.03    0.80   -0.03    0.80  -22.92  -93.63
    0.96  -22.79  -93.83   -0.04    0.74   -0.04    0.74  -22.79  -93.83
    1.00  -22.73  -94.03   -0.04    0.76   -0.04    0.76  -22.73  -94.03
    1.04  -22.59  -94.01   -0.05    0.58   -0.05    0.58  -22.59  -94.01
    1.08  -22.47  -94.62   -0.04    0.61   -0.04    0.61  -22.47  -94.62
    1.12  -22.35  -94.52   -0.04    0.45   -0.04    0.45  -22.35  -94.52
    1.16  -22.20  -94.56   -0.02    0.44   -0.02    0.44  -22.20  -94.56
    1.20  -22.09  -94.60   -0.04    0.30   -0.04    0.30  -22.09  -94.60
    1.24  -21.97  -94.44   -0.04    0.33   -0.04    0.33  -21.97  -94.44
    1.28  -21.87  -94.84   -0.06    0.21   -0.06    0.21  -21.87  -94.84
    1.32  -21.69  -94.64   -0.05    0.22   -0.05    0.22  -21.69  -94.64
    1.36  -21.59  -95.03   -0.05    0.17   -0.05    0.17  -21.59  -95.03
    1.40  -21.47  -94.86   -0.05    0.18   -0.05    0.18  -21.47  -94.86
    1.44  -21.34  -95.32   -0.06    0.03   -0.06    0.03  -21.34  -95.32
    1.48  -21.23  -95.32   -0.04    0.05   -0.04    0.05  -21.23  -95.32
    1.52  -21.17  -95.61   -0.05   -0.06   -0.05   -0.06  -21.17  -95.61
    1.56  -20.93  -95.56   -0.05   -0.13   -0.05   -0.13  -20.93  -95.56
    1.60  -20.93  -95.78   -0.07   -0.23   -0.07   -0.23  -20.93  -95.78
    1.64  -20.74  -95.51   -0.05   -0.33   -0.05   -0.33  -20.74  -95.51
    1.68  -20.64  -95.58   -0.08   -0.35   -0.08   -0.35  -20.64  -95.58
    1.72  -20.42  -95.70   -0.06   -0.18   -0.06   -0.18  -20.42  -95.70
    1.76  -20.38  -96.37   -0.05   -0.18   -0.05   -0.18  -20.38  -96.37
    1.80  -20.19  -96.34   -0.06   -0.47   -0.06   -0.47  -20.19  -96.34
    1.84  -20.11  -96.63   -0.07   -0.44   -0.07   -0.44  -20.11  -96.63
    1.88  -20.00  -96.37   -0.06   -0.47   -0.06   -0.47  -20.00  -96.37
    1.92  -19.91  -96.43   -0.06   -0.49   -0.06   -0.49  -19.91  -96.43
    1.96  -19.79  -96.56   -0.07   -0.51   -0.07   -0.51  -19.79  -96.56
    2.00  -19.74  -96.73   -0.06   -0.58   -0.06   -0.58  -19.74  -96.73
    2.04  -19.58  -97.16   -0.08   -0.63   -0.08   -0.63  -19.58  -97.16
    2.08  -19.52  -97.15   -0.06   -0.65   -0.06   -0.65  -19.52  -97.15
    2.12  -19.39  -97.07   -0.09   -0.69   -0.09   -0.69  -19.39  -97.07
    2.16  -19.26  -97.41   -0.08   -0.79   -0.08   -0.79  -19.26  -97.41
    2.20  -19.20  -97.58   -0.08   -0.77   -0.08   -0.77  -19.20  -97.58
    2.24  -19.09  -97.81   -0.07   -0.88   -0.07   -0.88  -19.09  -97.81
    2.28  -19.06  -97.81   -0.10   -0.85   -0.10   -0.85  -19.06  -97.81
    2.32  -18.89  -97.86   -0.09   -0.91   -0.09   -0.91  -18.89  -97.86
    2.36  -18.88  -98.42   -0.08   -1.08   -0.08   -1.08  -18.88  -98.42
    2.40  -18.74  -98.23   -0.08   -1.10   -0.08   -1.10  -18.74  -98.23
    2.44  -18.78  -98.68   -0.10   -1.06   -0.10   -1.06  -18.78  -98.68
    2.47  -18.64  -98.20   -0.07   -1.18   -0.07   -1.18  -18.64  -98.20
    2.51  -18.61  -98.79   -0.11   -1.17   -0.11   -1.17  -18.61  -98.79
    2.55  -18.62  -98.66   -0.10   -1.38   -0.10   -1.38  -18.62  -98.66
    2.59  -18.65  -98.81   -0.12   -1.33   -0.12   -1.33  -18.65  -98.81
    2.63  -18.60  -98.56   -0.11   -1.64   -0.11   -1.64  -18.60  -98.56
    2.67  -18.76  -98.65   -0.11   -1.79   -0.11   -1.79  -18.76  -98.65
    2.71  -18.91  -97.84   -0.12   -2.21   -0.12   -2.21  -18.91  -97.84
    2.75  -19.39  -95.84   -0.14   -2.61   -0.14   -2.61  -19.39  -95.84
    2.79  -20.22  -86.40   -0.25   -3.52   -0.25   -3.52  -20.22  -86.40
    2.83  -17.27  -64.66   -0.79   -3.37   -0.79   -3.37  -17.27  -64.66
    2.87  -14.55  -86.64   -0.60    1.31   -0.60    1.31  -14.55  -86.64
    2.91  -15.28  -95.95   -0.28    0.83   -0.28    0.83  -15.28  -95.95
    2.95  -15.76  -98.59   -0.20    0.10   -0.20    0.10  -15.76  -98.59
    2.99  -15.92  -99.49   -0.17   -0.33   -0.17   -0.33  -15.92  -99.49
    3.03  -16.00 -100.21   -0.18   -0.39   -0.18   -0.39  -16.00 -100.21
    3.07  -16.04 -100.45   -0.17   -0.63   -0.17   -0.63  -16.04 -100.45
    3.11  -16.09 -101.11   -0.18   -0.61   -0.18   -0.61  -16.09 -101.11
    3.15  -16.01 -100.88   -0.16   -0.63   -0.16   -0.63  -16.01 -100.88
    3.19  -16.04 -101.22   -0.19   -0.87   -0.19   -0.87  -16.04 -101.22
    3.23  -15.88 -101.43   -0.17   -1.02   -0.17   -1.02  -15.88 -101.43
    3.27  -15.89 -102.07   -0.19   -0.94   -0.19   -0.94  -15.89 -102.07
    3.31  -15.80 -101.86   -0.18   -1.20   -0.18   -1.20  -15.80 -101.86
    3.35  -15.75 -102.09   -0.18   -1.12   -0.18   -1.12  -15.75 -102.09
    3.39  -15.55 -102.23   -0.19   -1.21   -0.19   -1.21  -15.55 -102.23
    3.43  -15.58 -102.88   -0.18   -1.30   -0.18   -1.30  -15.58 -102.88
    3.47  -15.47 -102.30   -0.20   -1.25   -0.20   -1.25  -15.47 -102.30
    3.51  -15.43 -102.81   -0.19   -1.30   -0.19   -1.30  -15.43 -102.81
    3.55  -15.25 -102.83   -0.19   -1.44   -0.19   -1.44  -15.25 -102.83
    3.59  -15.17 -103.32   -0.20   -1.37   -0.20   -1.37  -15.17 -103.32
    3.63  -15.06 -103.56   -0.21   -1.38   -0.21   -1.38  -15.06 -103.56
    3.67  -15.04 -103.79   -0.22   -1.46   -0.22   -1.46  -15.04 -103.79
    3.71  -14.95 -103.42   -0.23   -1.59   -0.23   -1.59  -14.95 -103.42
    3.75  -14.81 -103.71   -0.22   -1.59   -0.22   -1.59  -14.81 -103.71
    3.79  -14.72 -104.23   -0.24   -1.51   -0.24   -1.51  -14.72 -104.23
    3.83  -14.61 -104.06   -0.24   -1.51   -0.24   -1.51  -14.61 -104.06
    3.87  -14.52 -104.53   -0.27   -1.75   -0.27   -1.75  -14.52 -104.53
    3.91  -14.36 -104.41   -0.25   -1.83   -0.25   -1.83  -14.36 -104.41
    3.95  -14.24 -104.83   -0.27   -1.79   -0.27   -1.79  -14.24 -104.83
    3.99  -14.11 -104.94   -0.26   -1.85   -0.26   -1.85  -14.11 -104.94
    4.03  -14.31 -106.81   -0.25   -1.83   -0.25   -1.83  -14.31 -106.81
    4.06  -14.19 -106.60   -0.25   -1.86   -0.25   -1.86  -14.19 -106.60
    4.10  -14.12 -107.22   -0.26   -1.90   -0.26   -1.90  -14.12 -107.22
    4.14  -13.99 -107.38   -0.25   -1.96   -0.25   -1.96  -13.99 -107.38
    4.18  -14.00 -107.86   -0.28   -1.90   -0.28   -1.90  -14.00 -107.86
    4.22  -13.82 -107.48   -0.27   -1.87   -0.27   -1.87  -13.82 -107.48
    4.26  -13.79 -108.47   -0.28   -1.98   -0.28   -1.98  -13.79 -108.47
    4.30  -13.70 -108.55   -0.29   -1.92   -0.29   -1.92  -13.70 -108.55
    4.34  -13.66 -109.04   -0.29   -1.86   -0.29   -1.86  -13.66 -109.04
    4.38  -13.57 -108.97   -0.27   -2.17   -0.27   -2.17  -13.57 -108.97
    4.42  -13.53 -109.25   -0.28   -2.11   -0.28   -2.11  -13.53 -109.25
    4.46  -13.42 -109.58   -0.29   -2.14   -0.29   -2.14  -13.42 -109.58
    4.50  -13.42 -109.75   -0.30   -2.22   -0.30   -2.22  -13.42 -109.75
    4.54  -13.34 -110.00   -0.30   -2.20   -0.30   -2.20  -13.34 -110.00
    4.58  -13.29 -109.88   -0.31   -2.20   -0.31   -2.20  -13.29 -109.88
    4.62  -13.23 -110.26   -0.33   -2.17   -0.33   -2.17  -13.23 -110.26
    4.66  -13.16 -110.27   -0.32   -2.48   -0.32   -2.48  -13.16 -110.27
    4.70  -13.18 -110.37   -0.35   -2.48   -0.35   -2.48  -13.18 -110.37
    4.74  -13.12 -110.35   -0.32   -2.59   -0.32   -2.59  -13.12 -110.35
    4.78  -13.11 -110.63   -0.37   -2.54   -0.37   -2.54  -13.11 -110.63
    4.82  -13.03 -110.32   -0.33   -2.69   -0.33   -2.69  -13.03 -110.32
    4.86  -13.09 -110.84   -0.38   -2.69   -0.38   -2.69  -13.09 -110.84
    4.90  -13.08 -110.31   -0.36   -2.94   -0.36   -2.94  -13.08 -110.31
    4.94  -13.19 -110.04   -0.39   -3.08   -0.39   -3.08  -13.19 -110.04
    4.98  -13.25 -108.85   -0.41   -3.46   -0.41   -3.46  -13.25 -108.85
    5.02  -13.42 -105.84   -0.56   -3.99   -0.56   -3.99  -13.42 -105.84
    5.06  -12.76 -100.69   -0.75   -3.39   -0.75   -3.39  -12.76 -100.69
    5.10  -11.73 -102.69   -0.80   -1.68   -0.80   -1.68  -11.73 -102.69
    5.14  -11.46 -106.90   -0.66   -1.17   -0.66   -1.17  -11.46 -106.90
    5.18  -11.54 -109.05   -0.57   -0.78   -0.57   -0.78  -11.54 -109.05
    5.22  -11.54 -109.87   -0.49   -1.25   -0.49   -1.25  -11.54 -109.87
    5.26  -11.65 -111.08   -0.46   -1.36   -0.46   -1.36  -11.65 -111.08
    5.30  -11.60 -111.05   -0.47   -1.46   -0.47   -1.46  -11.60 -111.05
    5.34  -11.62 -111.75   -0.46   -1.35   -0.46   -1.35  -11.62 -111.75
    5.38  -11.64 -112.02   -0.44   -1.64   -0.44   -1.64  -11.64 -112.02
    5.42  -11.60 -111.66   -0.46   -1.52   -0.46   -1.52  -11.60 -111.66
    5.46  -11.52 -111.95   -0.44   -1.53   -0.44   -1.53  -11.52 -111.95
    5.50  -11.51 -112.70   -0.44   -1.60   -0.44   -1.60  -11.51 -112.70
    5.54  -11.57 -112.56   -0.47   -1.71   -0.47   -1.71  -11.57 -112.56
    5.58  -11.46 -111.44   -0.43   -1.53   -0.43   -1.53  -11.46 -111.44
    5.62  -11.48 -112.55   -0.47   -1.50   -0.47   -1.50  -11.48 -112.55
    5.65  -11.42 -112.61   -0.47   -1.58   -0.47   -1.58  -11.42 -112.61
    5.69  -11.40 -112.84   -0.47   -1.73   -0.47   -1.73  -11.40 -112.84
    5.73  -11.35 -113.07   -0.47   -1.57   -0.47   -1.57  -11.35 -113.07
    5.77  -11.44 -113.36   -0.47   -1.63   -0.47   -1.63  -11.44 -113.36
    5.81  -11.33 -112.98   -0.44   -1.69   -0.44   -1.69  -11.33 -112.98
    5.85  -11.34 -113.35   -0.47   -1.61   -0.47   -1.61  -11.34 -113.35
    5.89  -11.35 -113.61   -0.47   -1.69   -0.47   -1.69  -11.35 -113.61
    5.93  -11.40 -113.72   -0.48   -1.59   -0.48   -1.59  -11.40 -113.72
    5.97  -11.31 -113.59   -0.48   -1.74   -0.48   -1.74  -11.31 -113.59
    6.01  -11.41 -113.94   -0.48   -1.62   -0.48   -1.62  -11.41 -113.94
    6.05  -11.29 -113.58   -0.49   -1.56   -0.49   -1.56  -11.29 -113.58
    6.09  -11.30 -114.01   -0.48   -1.74   -0.48   -1.74  -11.30 -114.01
    6.13  -11.28 -114.12   -0.50   -1.73   -0.50   -1.73  -11.28 -114.12
    6.17  -11.34 -114.19   -0.49   -1.67   -0.49   -1.67  -11.34 -114.19
    6.21  -11.28 -113.87   -0.51   -1.46   -0.51   -1.46  -11.28 -113.87
    6.25  -11.27 -114.41   -0.50   -1.68   -0.50   -1.68  -11.27 -114.41
    6.29  -11.27 -114.28   -0.49   -1.66   -0.49   -1.66  -11.27 -114.28
    6.33  -11.24 -114.37   -0.48   -1.64   -0.48   -1.64  -11.24 -114.37
    6.37  -11.25 -114.70   -0.49   -1.64   -0.49   -1.64  -11.25 -114.70
    6.41  -11.29 -114.71   -0.50   -1.44   -0.50   -1.44  -11.29 -114.71
    6.45  -11.29 -114.55   -0.50   -1.64   -0.50   -1.64  -11.29 -114.55
    6.49  -11.24 -115.08   -0.51   -1.67   -0.51   -1.67  -11.24 -115.08
    6.53  -11.33 -114.86   -0.52   -1.58   -0.52   -1.58  -11.33 -114.86
    6.57  -11.26 -114.89   -0.50   -1.60   -0.50   -1.60  -11.26 -114.89
    6.61  -11.34 -115.26   -0.53   -1.58   -0.53   -1.58  -11.34 -115.26
    6.65  -11.33 -114.80   -0.51   -1.45   -0.51   -1.45  -11.33 -114.80
    6.69  -11.38 -115.13   -0.52   -1.70   -0.52   -1.70  -11.38 -115.13
    6.73  -11.33 -114.99   -0.53   -1.71   -0.53   -1.71  -11.33 -114.99
    6.77  -11.45 -115.10   -0.55   -1.51   -0.55   -1.51  -11.45 -115.10
    6.81  -11.42 -114.65   -0.54   -1.70   -0.54   -1.70  -11.42 -114.65
    6.85  -11.41 -114.57   -0.56   -1.60   -0.56   -1.60  -11.41 -114.57
    6.89  -11.35 -114.77   -0.55   -1.90   -0.55   -1.90  -11.35 -114.77
    6.93  -11.54 -114.77   -0.56   -1.65   -0.56   -1.65  -11.54 -114.77
    6.97  -11.50 -114.21   -0.56   -1.88   -0.56   -1.88  -11.50 -114.21
    7.01  -11.57 -114.23   -0.60   -1.76   -0.60   -1.76  -11.57 -114.23
    7.05  -11.57 -113.52   -0.59   -1.91   -0.59   -1.91  -11.57 -113.52
    7.09  -11.61 -113.76   -0.60   -1.97   -0.60   -1.97  -11.61 -113.76
    7.13  -11.66 -113.00   -0.64   -2.18   -0.64   -2.18  -11.66 -113.00
    7.17  -11.69 -111.64   -0.68   -2.26   -0.68   -2.26  -11.69 -111.64
    7.21  -11.62 -109.89   -0.78   -2.21   -0.78   -2.21  -11.62 -109.89
    7.24  -11.40 -108.97   -0.84   -1.95   -0.84   -1.95  -11.40 -108.97
    7.28  -11.06 -109.34   -0.89   -1.18   -0.89   -1.18  -11.06 -109.34
    7.32  -10.90 -110.49   -0.84   -0.58   -0.84   -0.58  -10.90 -110.49
    7.36  -10.85 -111.70   -0.80   -0.31   -0.80   -0.31  -10.85 -111.70
    7.40  -10.89 -112.75   -0.74   -0.27   -0.74   -0.27  -10.89 -112.75
    7.44  -11.02 -113.12   -0.74   -0.29   -0.74   -0.29  -11.02 -113.12
    7.48  -10.91 -113.26   -0.72   -0.32   -0.72   -0.32  -10.91 -113.26
    7.52  -11.03 -113.40   -0.73   -0.15   -0.73   -0.15  -11.03 -113.40
    7.56  -10.98 -113.13   -0.69   -0.41   -0.69   -0.41  -10.98 -113.13
    7.60  -11.06 -113.98   -0.71   -0.21   -0.71   -0.21  -11.06 -113.98
    7.64  -11.08 -113.53   -0.69   -0.21   -0.69   -0.21  -11.08 -113.53
    7.68  -11.12 -113.72   -0.70   -0.30   -0.70   -0.30  -11.12 -113.72
    7.72  -11.03 -113.56   -0.70   -0.20   -0.70   -0.20  -11.03 -113.56
    7.76  -11.14 -114.07   -0.73   -0.11   -0.73   -0.11  -11.14 -114.07
    7.80  -11.10 -113.96   -0.70   -0.16   -0.70   -0.16  -11.10 -113.96
    7.84  -11.14 -114.09   -0.69   -0.08   -0.69   -0.08  -11.14 -114.09
    7.88  -11.09 -114.05   -0.69   -0.20   -0.69   -0.20  -11.09 -114.05
    7.92  -11.20 -114.36   -0.71   -0.09   -0.71   -0.09  -11.20 -114.36
    7.96  -11.16 -114.01   -0.70   -0.12   -0.70   -0.12  -11.16 -114.01
    8.00  -11.16 -114.70   -0.71   -0.12   -0.71   -0.12  -11.16 -114.70
