!  American Technical Ceramics  Date:     3/6/98
!  One Norden Lane
!  Huntington Station,  NY.   11746-2102
!  Tel:  (516) 547-5700               Fax:  (516) 547-5748
!  Part Number  500S9R1
!  Description: Broadband Microwave capacitor
!  Application:
!
# GHZ S DB R 50
! Freq   |S11|   S11 Ph  |S21|   S21 Ph  |S12|   S12 Ph  |S22|   S22 Ph
    0.05   -0.34  -16.04  -11.38   74.79  -11.38   74.79   -0.34  -16.04
    0.18   -3.15  -46.21   -2.86   44.19   -2.86   44.19   -3.15  -46.21
    0.31   -6.22  -61.01   -1.16   29.26   -1.16   29.26   -6.22  -61.01
    0.45   -8.72  -69.19   -0.59   21.51   -0.59   21.51   -8.72  -69.19
    0.58  -10.89  -73.59   -0.38   16.58   -0.38   16.58  -10.89  -73.59
    0.71  -12.61  -76.21   -0.28   13.53   -0.28   13.53  -12.61  -76.21
    0.84  -14.04  -79.16   -0.20   11.46   -0.20   11.46  -14.04  -79.16
    0.98  -15.23  -79.50   -0.14    9.82   -0.14    9.82  -15.23  -79.50
    1.11  -16.41  -81.50   -0.11    8.70   -0.11    8.70  -16.41  -81.50
    1.24  -17.47  -81.96   -0.08    7.78   -0.08    7.78  -17.47  -81.96
    1.37  -18.30  -82.58   -0.08    6.89   -0.08    6.89  -18.30  -82.58
    1.50  -19.26  -83.60   -0.07    6.28   -0.07    6.28  -19.26  -83.60
    1.64  -20.02  -82.95   -0.05    5.65   -0.05    5.65  -20.02  -82.95
    1.77  -20.86  -83.84   -0.04    5.15   -0.04    5.15  -20.86  -83.84
    1.90  -21.62  -83.79   -0.04    4.76   -0.04    4.76  -21.62  -83.79
    2.03  -22.29  -84.17   -0.04    4.37   -0.04    4.37  -22.29  -84.17
    2.17  -23.06  -83.81   -0.04    4.04   -0.04    4.04  -23.06  -83.81
    2.30  -23.69  -83.70   -0.04    3.71   -0.04    3.71  -23.69  -83.70
    2.43  -24.38  -84.38   -0.04    3.46   -0.04    3.46  -24.38  -84.38
    2.56  -25.07  -83.11   -0.04    3.18   -0.04    3.18  -25.07  -83.11
    2.70  -25.66  -83.74   -0.04    2.91   -0.04    2.91  -25.66  -83.74
    2.83  -26.24  -83.05   -0.04    2.74   -0.04    2.74  -26.24  -83.05
    2.96  -26.76  -81.93   -0.04    2.50   -0.04    2.50  -26.76  -81.93
    3.09  -27.41  -81.74   -0.05    2.32   -0.05    2.32  -27.41  -81.74
    3.22  -27.79  -80.19   -0.05    2.14   -0.05    2.14  -27.79  -80.19
    3.36  -28.16  -79.98   -0.05    1.97   -0.05    1.97  -28.16  -79.98
    3.49  -28.40  -78.49   -0.05    1.86   -0.05    1.86  -28.40  -78.49
    3.62  -28.58  -78.04   -0.05    1.70   -0.05    1.70  -28.58  -78.04
    3.75  -28.77  -78.13   -0.06    1.56   -0.06    1.56  -28.77  -78.13
    3.89  -28.58  -77.85   -0.06    1.42   -0.06    1.42  -28.58  -77.85
    4.02  -29.37  -75.05   -0.06    1.34   -0.06    1.34  -29.37  -75.05
    4.15  -29.45  -74.51   -0.06    1.21   -0.06    1.21  -29.45  -74.51
    4.28  -29.41  -75.19   -0.07    1.11   -0.07    1.11  -29.41  -75.19
    4.41  -29.59  -75.19   -0.07    0.99   -0.07    0.99  -29.59  -75.19
    4.55  -29.49  -76.32   -0.07    0.90   -0.07    0.90  -29.49  -76.32
    4.68  -29.52  -77.71   -0.08    0.79   -0.08    0.79  -29.52  -77.71
    4.81  -29.35  -77.60   -0.08    0.75   -0.08    0.75  -29.35  -77.60
    4.94  -29.25  -78.37   -0.08    0.68   -0.08    0.68  -29.25  -78.37
    5.08  -29.14  -78.68   -0.09    0.63   -0.09    0.63  -29.14  -78.68
    5.21  -28.90  -80.24   -0.09    0.51   -0.09    0.51  -28.90  -80.24
    5.34  -28.83  -80.86   -0.09    0.44   -0.09    0.44  -28.83  -80.86
    5.47  -28.58  -81.14   -0.09    0.39   -0.09    0.39  -28.58  -81.14
    5.60  -28.52  -82.15   -0.10    0.33   -0.10    0.33  -28.52  -82.15
    5.74  -28.51  -82.06   -0.10    0.28   -0.10    0.28  -28.51  -82.06
    5.87  -28.57  -81.66   -0.11    0.22   -0.11    0.22  -28.57  -81.66
    6.00  -28.70  -82.09   -0.12    0.16   -0.12    0.16  -28.70  -82.09
    6.13  -28.77  -80.83   -0.11    0.12   -0.11    0.12  -28.77  -80.83
    6.27  -29.14  -79.41   -0.11    0.10   -0.11    0.10  -29.14  -79.41
    6.40  -29.56  -78.33   -0.12    0.03   -0.12    0.03  -29.56  -78.33
    6.53  -30.19  -76.38   -0.13    0.01   -0.13    0.01  -30.19  -76.38
    6.66  -30.98  -72.40   -0.14   -0.04   -0.14   -0.04  -30.98  -72.40
    6.79  -31.59  -66.91   -0.14   -0.14   -0.14   -0.14  -31.59  -66.91
    6.93  -32.30  -59.95   -0.16   -0.10   -0.16   -0.10  -32.30  -59.95
    7.06  -33.01  -52.44   -0.16   -0.12   -0.16   -0.12  -33.01  -52.44
    7.19  -33.54  -44.22   -0.17   -0.19   -0.17   -0.19  -33.54  -44.22
    7.32  -33.83  -33.38   -0.18   -0.18   -0.18   -0.18  -33.83  -33.38
    7.46  -33.85  -21.61   -0.20   -0.17   -0.20   -0.17  -33.85  -21.61
    7.59  -33.33  -12.70   -0.21   -0.13   -0.21   -0.13  -33.33  -12.70
    7.72  -32.94   -5.98   -0.22   -0.04   -0.22   -0.04  -32.94   -5.98
    7.85  -33.21   -0.31   -0.22    0.02   -0.22    0.02  -33.21   -0.31
    7.99  -32.86    8.42   -0.22    0.04   -0.22    0.04  -32.86    8.42
    8.12  -32.42   16.87   -0.22    0.05   -0.22    0.05  -32.42   16.87
    8.25  -32.16   22.57   -0.23    0.09   -0.23    0.09  -32.16   22.57
    8.38  -31.65   28.98   -0.23    0.05   -0.23    0.05  -31.65   28.98
    8.51  -31.28   33.62   -0.23    0.15   -0.23    0.15  -31.28   33.62
    8.65  -30.91   38.41   -0.23    0.16   -0.23    0.16  -30.91   38.41
    8.78  -30.23   42.79   -0.23    0.16   -0.23    0.16  -30.23   42.79
    8.91  -29.66   46.09   -0.23    0.12   -0.23    0.12  -29.66   46.09
    9.04  -29.16   47.69   -0.25    0.15   -0.25    0.15  -29.16   47.69
    9.18  -28.84   47.62   -0.25    0.23   -0.25    0.23  -28.84   47.62
    9.31  -28.68   48.18   -0.26    0.31   -0.26    0.31  -28.68   48.18
    9.44  -28.96   49.67   -0.25    0.41   -0.25    0.41  -28.96   49.67
    9.57  -28.61   51.52   -0.25    0.44   -0.25    0.44  -28.61   51.52
    9.70  -28.80   52.29   -0.25    0.51   -0.25    0.51  -28.80   52.29
    9.84  -29.07   53.75   -0.23    0.59   -0.23    0.59  -29.07   53.75
    9.97  -29.03   56.84   -0.22    0.63   -0.22    0.63  -29.03   56.84
   10.10  -29.38   56.37   -0.23    0.76   -0.23    0.76  -29.38   56.37
   10.23  -29.93   59.82   -0.22    0.83   -0.22    0.83  -29.93   59.82
   10.37  -30.34   62.69   -0.20    0.84   -0.20    0.84  -30.34   62.69
   10.50  -30.72   66.50   -0.19    0.86   -0.19    0.86  -30.72   66.50
   10.63  -31.12   70.43   -0.18    0.89   -0.18    0.89  -31.12   70.43
   10.76  -31.72   73.21   -0.17    0.87   -0.17    0.87  -31.72   73.21
   10.89  -32.12   76.74   -0.17    0.86   -0.17    0.86  -32.12   76.74
   11.03  -32.72   79.79   -0.16    0.87   -0.16    0.87  -32.72   79.79
   11.16  -33.80   81.56   -0.15    0.86   -0.15    0.86  -33.80   81.56
   11.29  -34.80   83.76   -0.15    0.86   -0.15    0.86  -34.80   83.76
   11.42  -36.27   86.03   -0.14    0.86   -0.14    0.86  -36.27   86.03
   11.56  -37.94   88.63   -0.14    0.85   -0.14    0.85  -37.94   88.63
   11.69  -39.69   89.83   -0.14    0.79   -0.14    0.79  -39.69   89.83
   11.82  -41.68   89.58   -0.13    0.77   -0.13    0.77  -41.68   89.58
   11.95  -44.18   86.14   -0.13    0.76   -0.13    0.76  -44.18   86.14
   12.08  -46.51   73.64   -0.13    0.75   -0.13    0.75  -46.51   73.64
   12.22  -47.39   57.59   -0.13    0.70   -0.13    0.70  -47.39   57.59
   12.35  -47.44   38.29   -0.12    0.68   -0.12    0.68  -47.44   38.29
   12.48  -44.28   29.26   -0.12    0.62   -0.12    0.62  -44.28   29.26
   12.61  -42.64   29.33   -0.12    0.57   -0.12    0.57  -42.64   29.33
   12.75  -40.78   26.08   -0.12    0.54   -0.12    0.54  -40.78   26.08
   12.88  -39.16   32.56   -0.13    0.48   -0.13    0.48  -39.16   32.56
   13.01  -37.67   40.31   -0.12    0.49   -0.12    0.49  -37.67   40.31
   13.14  -36.17   45.19   -0.13    0.45   -0.13    0.45  -36.17   45.19
   13.28  -34.28   54.72   -0.13    0.45   -0.13    0.45  -34.28   54.72
   13.41  -32.74   59.34   -0.12    0.37   -0.12    0.37  -32.74   59.34
   13.54  -31.17   64.65   -0.13    0.29   -0.13    0.29  -31.17   64.65
   13.67  -29.68   68.14   -0.13    0.23   -0.13    0.23  -29.68   68.14
   13.80  -28.46   72.96   -0.14    0.15   -0.14    0.15  -28.46   72.96
   13.94  -27.16   75.71   -0.14    0.11   -0.14    0.11  -27.16   75.71
   14.07  -25.88   78.66   -0.15    0.14   -0.15    0.14  -25.88   78.66
   14.20  -24.92   79.96   -0.15   -0.02   -0.15   -0.02  -24.92   79.96
   14.33  -23.91   81.72   -0.15   -0.09   -0.15   -0.09  -23.91   81.72
   14.47  -23.10   82.92   -0.15   -0.15   -0.15   -0.15  -23.10   82.92
   14.60  -22.35   83.09   -0.16   -0.30   -0.16   -0.30  -22.35   83.09
   14.73  -21.56   84.62   -0.17   -0.38   -0.17   -0.38  -21.56   84.62
   14.86  -21.00   84.55   -0.20   -0.50   -0.20   -0.50  -21.00   84.55
   14.99  -20.45   84.32   -0.20   -0.55   -0.20   -0.55  -20.45   84.32
   15.13  -20.02   84.73   -0.21   -0.59   -0.21   -0.59  -20.02   84.73
   15.26  -19.66   84.37   -0.23   -0.66   -0.23   -0.66  -19.66   84.37
   15.39  -19.16   85.60   -0.24   -0.66   -0.24   -0.66  -19.16   85.60
   15.52  -18.80   85.95   -0.24   -0.64   -0.24   -0.64  -18.80   85.95
   15.66  -18.47   85.82   -0.25   -0.70   -0.25   -0.70  -18.47   85.82
   15.79  -18.17   85.72   -0.26   -0.71   -0.26   -0.71  -18.17   85.72
   15.92  -17.77   86.08   -0.25   -0.76   -0.25   -0.76  -17.77   86.08
   16.05  -17.57   85.71   -0.27   -0.85   -0.27   -0.85  -17.57   85.71
   16.18  -17.41   85.07   -0.28   -0.89   -0.28   -0.89  -17.41   85.07
   16.32  -17.29   85.58   -0.28   -0.90   -0.28   -0.90  -17.29   85.58
   16.45  -17.21   85.02   -0.29   -1.01   -0.29   -1.01  -17.21   85.02
   16.58  -17.09   85.72   -0.28   -1.07   -0.28   -1.07  -17.09   85.72
   16.71  -17.22   85.78   -0.28   -1.05   -0.28   -1.05  -17.22   85.78
   16.85  -17.12   84.96   -0.29   -1.23   -0.29   -1.23  -17.12   84.96
   16.98  -17.09   86.59   -0.27   -1.41   -0.27   -1.41  -17.09   86.59
   17.11  -17.34   85.69   -0.29   -1.50   -0.29   -1.50  -17.34   85.69
   17.24  -17.25   85.91   -0.32   -1.71   -0.32   -1.71  -17.25   85.91
   17.37  -17.45   86.18   -0.30   -1.95   -0.30   -1.95  -17.45   86.18
   17.51  -17.47   85.63   -0.31   -2.18   -0.31   -2.18  -17.47   85.63
   17.64  -17.38   84.88   -0.35   -2.47   -0.35   -2.47  -17.38   84.88
   17.77  -17.47   84.63   -0.33   -2.82   -0.33   -2.82  -17.47   84.63
   17.90  -17.37   84.04   -0.34   -3.40   -0.34   -3.40  -17.37   84.04
   18.04  -17.17   81.38   -0.38   -3.63   -0.38   -3.63  -17.17   81.38
   18.17  -16.87   80.77   -0.41   -4.23   -0.41   -4.23  -16.87   80.77
   18.30  -16.54   79.20   -0.42   -4.80   -0.42   -4.80  -16.54   79.20
   18.43  -15.98   76.95   -0.48   -5.36   -0.48   -5.36  -15.98   76.95
   18.57  -15.42   75.30   -0.53   -5.98   -0.53   -5.98  -15.42   75.30
   18.70  -14.88   73.31   -0.58   -6.86   -0.58   -6.86  -14.88   73.31
   18.83  -14.11   71.44   -0.67   -7.73   -0.67   -7.73  -14.11   71.44
   18.96  -13.23   69.28   -0.76   -8.54   -0.76   -8.54  -13.23   69.28
   19.09  -12.40   66.73   -0.87   -9.70   -0.87   -9.70  -12.40   66.73
   19.23  -11.50   65.18   -1.03  -10.93   -1.03  -10.93  -11.50   65.18
   19.36  -10.63   62.00   -1.21  -12.32   -1.21  -12.32  -10.63   62.00
   19.49   -9.60   58.68   -1.43  -13.89   -1.43  -13.89   -9.60   58.68
   19.62   -8.84   56.17   -1.79  -15.57   -1.79  -15.57   -8.84   56.17
   19.76   -8.04   51.82   -2.23  -17.45   -2.23  -17.45   -8.04   51.82
   19.89   -7.01   46.97   -2.76  -19.02   -2.76  -19.02   -7.01   46.97
   20.02   -6.31   41.87   -3.56  -20.42   -3.56  -20.42   -6.31   41.87
   20.15   -5.63   35.74   -4.63  -20.89   -4.63  -20.89   -5.63   35.74
   20.28   -4.96   28.40   -5.93  -19.10   -5.93  -19.10   -4.96   28.40
   20.42   -4.60   20.08   -7.42  -12.85   -7.42  -12.85   -4.60   20.08
   20.55   -4.59   11.46   -8.52   -0.21   -8.52   -0.21   -4.59   11.46
   20.68   -4.59    2.97   -8.38   15.44   -8.38   15.44   -4.59    2.97
   20.81   -4.93   -6.25   -7.20   26.48   -7.20   26.48   -4.93   -6.25
   20.95   -5.64  -14.20   -5.70   32.01   -5.70   32.01   -5.64  -14.20
   21.08   -6.33  -20.92   -4.42   33.10   -4.42   33.10   -6.33  -20.92
   21.21   -7.29  -27.87   -3.51   32.42   -3.51   32.42   -7.29  -27.87
   21.34   -8.17  -33.63   -2.84   30.98   -2.84   30.98   -8.17  -33.63
   21.47   -9.15  -37.54   -2.25   29.05   -2.25   29.05   -9.15  -37.54
   21.61  -10.24  -43.10   -1.87   27.49   -1.87   27.49  -10.24  -43.10
   21.74  -11.21  -47.32   -1.59   26.00   -1.59   26.00  -11.21  -47.32
   21.87  -12.38  -50.45   -1.32   24.24   -1.32   24.24  -12.38  -50.45
   22.00  -13.40  -54.46   -1.16   22.92   -1.16   22.92  -13.40  -54.46
   22.14  -14.35  -57.36   -1.06   21.75   -1.06   21.75  -14.35  -57.36
   22.27  -15.44  -59.98   -0.97   20.48   -0.97   20.48  -15.44  -59.98
   22.40  -16.37  -63.70   -0.88   19.57   -0.88   19.57  -16.37  -63.70
   22.53  -17.20  -66.91   -0.84   18.93   -0.84   18.93  -17.20  -66.91
   22.66  -18.07  -69.36   -0.81   18.29   -0.81   18.29  -18.07  -69.36
   22.80  -18.73  -71.97   -0.78   17.71   -0.78   17.71  -18.73  -71.97
   22.93  -19.29  -74.62   -0.75   17.22   -0.75   17.22  -19.29  -74.62
   23.06  -19.63  -75.63   -0.74   16.83   -0.74   16.83  -19.63  -75.63
   23.19  -20.05  -76.97   -0.71   16.44   -0.71   16.44  -20.05  -76.97
   23.33  -20.19  -77.63   -0.69   16.05   -0.69   16.05  -20.19  -77.63
   23.46  -20.24  -77.37   -0.68   15.73   -0.68   15.73  -20.24  -77.37
   23.59  -20.23  -77.93   -0.69   15.47   -0.69   15.47  -20.23  -77.93
   23.72  -20.40  -77.89   -0.69   15.24   -0.69   15.24  -20.40  -77.89
   23.86  -20.76  -76.95   -0.70   15.00   -0.70   15.00  -20.76  -76.95
   23.99  -21.00  -76.05   -0.69   14.95   -0.69   14.95  -21.00  -76.05
   24.12  -21.44  -73.72   -0.68   14.79   -0.68   14.79  -21.44  -73.72
   24.25  -22.16  -70.28   -0.69   14.78   -0.69   14.78  -22.16  -70.28
   24.38  -22.67  -68.21   -0.67   14.70   -0.67   14.70  -22.67  -68.21
   24.52  -23.45  -66.60   -0.65   14.54   -0.65   14.54  -23.45  -66.60
   24.65  -24.71  -62.42   -0.65   14.57   -0.65   14.57  -24.71  -62.42
   24.78  -26.31  -58.71   -0.64   14.57   -0.64   14.57  -26.31  -58.71
   24.91  -28.53  -55.24   -0.63   14.47   -0.63   14.47  -28.53  -55.24
   25.05  -32.30  -38.92   -0.61   14.50   -0.61   14.50  -32.30  -38.92
   25.18  -35.65    1.08   -0.59   14.38   -0.59   14.38  -35.65    1.08
   25.31  -36.17   46.26   -0.58   14.46   -0.58   14.46  -36.17   46.26
   25.44  -33.06   72.66   -0.55   14.46   -0.55   14.46  -33.06   72.66
   25.57  -29.25   93.45   -0.52   14.31   -0.52   14.31  -29.25   93.45
   25.71  -26.31  102.41   -0.52   14.08   -0.52   14.08  -26.31  102.41
   25.84  -24.56  109.37   -0.51   13.85   -0.51   13.85  -24.56  109.37
   25.97  -22.50  119.75   -0.51   13.67   -0.51   13.67  -22.50  119.75
   26.10  -21.22  125.44   -0.52   13.41   -0.52   13.41  -21.22  125.44
   26.24  -20.07  130.40   -0.55   13.19   -0.55   13.19  -20.07  130.40
   26.37  -19.23  136.06   -0.56   13.17   -0.56   13.17  -19.23  136.06
   26.50  -18.28  142.50   -0.59   13.07   -0.59   13.07  -18.28  142.50
