!  American Technical Ceramics  Date:     3/6/98
!  One Norden Lane
!  Huntington Station,  NY.   11746-2102
!  Tel:  (516) 547-5700               Fax:  (516) 547-5748
!  Part Number  500S0R2
!  Description: Broadband Microwave capacitor
!  Application:
!
# GHZ S DB R 50
! Freq   |S11|   S11 Ph  |S21|   S21 Ph  |S12|   S12 Ph  |S22|   S22 Ph
    0.05    0.01   -0.23  -44.88   74.76  -44.88   74.76    0.01   -0.23
    0.18   -0.01   -1.31  -34.78   89.10  -34.78   89.10   -0.01   -1.31
    0.31    0.01   -2.07  -29.99   88.09  -29.99   88.09    0.01   -2.07
    0.45   -0.03   -2.93  -26.98   87.74  -26.98   87.74   -0.03   -2.93
    0.58   -0.03   -4.11  -24.63   85.96  -24.63   85.96   -0.03   -4.11
    0.71   -0.08   -5.14  -22.88   84.54  -22.88   84.54   -0.08   -5.14
    0.84   -0.09   -6.68  -21.42   83.88  -21.42   83.88   -0.09   -6.68
    0.98    0.04   -6.26  -20.10   82.96  -20.10   82.96    0.04   -6.26
    1.11   -0.14   -7.51  -19.13   82.77  -19.13   82.77   -0.14   -7.51
    1.24   -0.27   -7.64  -18.22   82.23  -18.22   82.23   -0.27   -7.64
    1.37   -0.09   -8.73  -17.30   81.11  -17.30   81.11   -0.09   -8.73
    1.50   -0.20  -10.02  -16.57   80.46  -16.57   80.46   -0.20  -10.02
    1.64   -0.08   -9.65  -15.78   79.72  -15.78   79.72   -0.08   -9.65
    1.77   -0.11  -11.09  -15.11   79.06  -15.11   79.06   -0.11  -11.09
    1.90   -0.19  -11.74  -14.56   78.12  -14.56   78.12   -0.19  -11.74
    2.03   -0.17  -12.95  -14.02   77.20  -14.02   77.20   -0.17  -12.95
    2.17   -0.22  -13.68  -13.45   76.36  -13.45   76.36   -0.22  -13.68
    2.30   -0.22  -14.27  -12.98   75.44  -12.98   75.44   -0.22  -14.27
    2.43   -0.32  -15.69  -12.55   74.87  -12.55   74.87   -0.32  -15.69
    2.56   -0.32  -15.60  -12.02   73.80  -12.02   73.80   -0.32  -15.60
    2.70   -0.36  -17.05  -11.62   73.15  -11.62   73.15   -0.36  -17.05
    2.83   -0.41  -17.87  -11.23   72.12  -11.23   72.12   -0.41  -17.87
    2.96   -0.39  -18.47  -10.83   70.90  -10.83   70.90   -0.39  -18.47
    3.09   -0.53  -19.75  -10.45   70.13  -10.45   70.13   -0.53  -19.75
    3.22   -0.53  -20.22  -10.09   68.73  -10.09   68.73   -0.53  -20.22
    3.36   -0.61  -21.61   -9.75   68.06   -9.75   68.06   -0.61  -21.61
    3.49   -0.66  -21.82   -9.45   66.99   -9.45   66.99   -0.66  -21.82
    3.62   -0.72  -22.73   -9.14   65.74   -9.14   65.74   -0.72  -22.73
    3.75   -0.87  -23.89   -8.81   64.62   -8.81   64.62   -0.87  -23.89
    3.89   -0.81  -24.55   -8.47   63.15   -8.47   63.15   -0.81  -24.55
    4.02   -0.78  -25.80   -8.21   64.07   -8.21   64.07   -0.78  -25.80
    4.15   -0.79  -26.05   -7.91   63.05   -7.91   63.05   -0.79  -26.05
    4.28   -0.82  -27.09   -7.69   62.17   -7.69   62.17   -0.82  -27.09
    4.41   -1.01  -28.17   -7.49   60.73   -7.49   60.73   -1.01  -28.17
    4.55   -1.01  -29.00   -7.26   59.51   -7.26   59.51   -1.01  -29.00
    4.68   -1.11  -30.18   -7.05   58.57   -7.05   58.57   -1.11  -30.18
    4.81   -1.13  -30.04   -6.92   57.86   -6.92   57.86   -1.13  -30.04
    4.94   -1.26  -30.18   -6.77   57.50   -6.77   57.50   -1.26  -30.18
    5.08   -1.39  -30.68   -6.65   56.46   -6.65   56.46   -1.39  -30.68
    5.21   -1.34  -31.98   -6.46   55.53   -6.46   55.53   -1.34  -31.98
    5.34   -1.40  -32.21   -6.27   55.40   -6.27   55.40   -1.40  -32.21
    5.47   -1.35  -32.31   -6.11   54.39   -6.11   54.39   -1.35  -32.31
    5.60   -1.48  -33.94   -6.03   53.83   -6.03   53.83   -1.48  -33.94
    5.74   -1.50  -33.61   -5.88   53.63   -5.88   53.63   -1.50  -33.61
    5.87   -1.59  -34.74   -5.79   52.67   -5.79   52.67   -1.59  -34.74
    6.00   -1.66  -37.09   -5.66   51.54   -5.66   51.54   -1.66  -37.09
    6.13   -1.52  -36.25   -5.51   51.56   -5.51   51.56   -1.52  -36.25
    6.27   -1.66  -36.58   -5.42   51.53   -5.42   51.53   -1.66  -36.58
    6.40   -1.74  -38.52   -5.33   50.24   -5.33   50.24   -1.74  -38.52
    6.53   -1.89  -38.86   -5.27   50.24   -5.27   50.24   -1.89  -38.86
    6.66   -1.92  -39.72   -5.12   49.64   -5.12   49.64   -1.92  -39.72
    6.79   -1.78  -41.49   -4.98   48.31   -4.98   48.31   -1.78  -41.49
    6.93   -2.02  -41.01   -4.95   48.64   -4.95   48.64   -2.02  -41.01
    7.06   -2.05  -40.10   -4.84   48.56   -4.84   48.56   -2.05  -40.10
    7.19   -2.11  -42.96   -4.79   47.29   -4.79   47.29   -2.11  -42.96
    7.32   -2.24  -42.83   -4.76   47.24   -4.76   47.24   -2.24  -42.83
    7.46   -2.32  -42.59   -4.62   47.06   -4.62   47.06   -2.32  -42.59
    7.59   -2.19  -44.33   -4.51   45.86   -4.51   45.86   -2.19  -44.33
    7.72   -2.26  -43.12   -4.43   46.04   -4.43   46.04   -2.26  -43.12
    7.85   -2.57  -43.29   -4.36   46.46   -4.36   46.46   -2.57  -43.29
    7.99   -2.41  -44.69   -4.30   45.08   -4.30   45.08   -2.41  -44.69
    8.12   -2.45  -45.21   -4.19   44.78   -4.19   44.78   -2.45  -45.21
    8.25   -2.64  -45.24   -4.09   44.83   -4.09   44.83   -2.64  -45.24
    8.38   -2.59  -45.37   -3.98   43.86   -3.98   43.86   -2.59  -45.37
    8.51   -2.75  -46.12   -3.88   43.56   -3.88   43.56   -2.75  -46.12
    8.65   -2.86  -45.73   -3.79   43.65   -3.79   43.65   -2.86  -45.73
    8.78   -2.94  -46.54   -3.71   42.97   -3.71   42.97   -2.94  -46.54
    8.91   -3.05  -46.71   -3.59   42.13   -3.59   42.13   -3.05  -46.71
    9.04   -3.13  -46.85   -3.47   41.41   -3.47   41.41   -3.13  -46.85
    9.18   -3.27  -47.81   -3.39   40.86   -3.39   40.86   -3.27  -47.81
    9.31   -3.30  -47.54   -3.25   40.25   -3.25   40.25   -3.30  -47.54
    9.44   -3.52  -48.08   -3.21   39.84   -3.21   39.84   -3.52  -48.08
    9.57   -3.55  -48.38   -3.14   39.15   -3.14   39.15   -3.55  -48.38
    9.70   -3.65  -48.98   -3.03   38.75   -3.03   38.75   -3.65  -48.98
    9.84   -3.82  -49.86   -2.94   37.99   -2.94   37.99   -3.82  -49.86
    9.97   -3.83  -49.95   -2.86   37.14   -2.86   37.14   -3.83  -49.95
   10.10   -4.00  -51.08   -2.74   37.18   -2.74   37.18   -4.00  -51.08
   10.23   -4.09  -51.19   -2.64   36.48   -2.64   36.48   -4.09  -51.19
   10.37   -4.24  -52.12   -2.59   35.75   -2.59   35.75   -4.24  -52.12
   10.50   -4.27  -52.81   -2.49   35.39   -2.49   35.39   -4.27  -52.81
   10.63   -4.39  -53.47   -2.36   34.52   -2.36   34.52   -4.39  -53.47
   10.76   -4.61  -54.98   -2.28   33.77   -2.28   33.77   -4.61  -54.98
   10.89   -4.56  -54.90   -2.23   33.48   -2.23   33.48   -4.56  -54.90
   11.03   -4.78  -55.73   -2.19   32.80   -2.19   32.80   -4.78  -55.73
   11.16   -4.97  -56.94   -2.12   31.72   -2.12   31.72   -4.97  -56.94
   11.29   -4.94  -57.06   -2.07   31.45   -2.07   31.45   -4.94  -57.06
   11.42   -5.14  -57.58   -2.06   30.99   -2.06   30.99   -5.14  -57.58
   11.56   -5.16  -58.83   -1.98   30.23   -1.98   30.23   -5.16  -58.83
   11.69   -5.22  -58.81   -1.96   30.11   -1.96   30.11   -5.22  -58.81
   11.82   -5.32  -58.32   -1.99   29.77   -1.99   29.77   -5.32  -58.32
   11.95   -5.39  -59.46   -1.90   29.03   -1.90   29.03   -5.39  -59.46
   12.08   -5.31  -59.92   -1.84   28.82   -1.84   28.82   -5.31  -59.92
   12.22   -5.32  -59.63   -1.83   28.69   -1.83   28.69   -5.32  -59.63
   12.35   -5.34  -61.62   -1.76   28.02   -1.76   28.02   -5.34  -61.62
   12.48   -5.18  -61.42   -1.70   27.61   -1.70   27.61   -5.18  -61.42
   12.61   -5.52  -62.25   -1.77   27.23   -1.77   27.23   -5.52  -62.25
   12.75   -5.42  -64.02   -1.72   26.59   -1.72   26.59   -5.42  -64.02
   12.88   -5.35  -63.87   -1.67   26.27   -1.67   26.27   -5.35  -63.87
   13.01   -5.75  -64.45   -1.76   26.46   -1.76   26.46   -5.75  -64.45
   13.14   -5.69  -65.52   -1.73   25.90   -1.73   25.90   -5.69  -65.52
   13.28   -5.66  -65.67   -1.65   25.95   -1.65   25.95   -5.66  -65.67
   13.41   -5.87  -65.68   -1.68   26.20   -1.68   26.20   -5.87  -65.68
   13.54   -5.96  -66.09   -1.64   26.08   -1.64   26.08   -5.96  -66.09
   13.67   -5.92  -66.12   -1.56   25.86   -1.56   25.86   -5.92  -66.12
   13.80   -6.05  -66.14   -1.52   25.82   -1.52   25.82   -6.05  -66.14
   13.94   -6.15  -67.03   -1.45   25.56   -1.45   25.56   -6.15  -67.03
   14.07   -6.06  -66.96   -1.37   25.00   -1.37   25.00   -6.06  -66.96
   14.20   -6.28  -67.26   -1.34   24.78   -1.34   24.78   -6.28  -67.26
   14.33   -6.43  -68.33   -1.35   24.35   -1.35   24.35   -6.43  -68.33
   14.47   -6.58  -68.31   -1.30   23.97   -1.30   23.97   -6.58  -68.31
   14.60   -6.78  -69.17   -1.29   23.68   -1.29   23.68   -6.78  -69.17
   14.73   -6.93  -68.93   -1.25   23.34   -1.25   23.34   -6.93  -68.93
   14.86   -7.20  -69.43   -1.17   23.16   -1.17   23.16   -7.20  -69.43
   14.99   -7.43  -69.58   -1.14   22.76   -1.14   22.76   -7.43  -69.58
   15.13   -7.63  -69.48   -1.10   22.10   -1.10   22.10   -7.63  -69.48
   15.26   -7.91  -70.17   -1.06   22.00   -1.06   22.00   -7.91  -70.17
   15.39   -8.08  -69.79   -1.01   21.32   -1.01   21.32   -8.08  -69.79
   15.52   -8.41  -69.97   -0.97   20.66   -0.97   20.66   -8.41  -69.97
   15.66   -8.65  -70.29   -0.92   20.38   -0.92   20.38   -8.65  -70.29
   15.79   -8.86  -70.79   -0.87   19.88   -0.87   19.88   -8.86  -70.79
   15.92   -9.14  -70.54   -0.86   19.18   -0.86   19.18   -9.14  -70.54
   16.05   -9.42  -70.92   -0.83   18.77   -0.83   18.77   -9.42  -70.92
   16.18   -9.67  -71.86   -0.80   18.45   -0.80   18.45   -9.67  -71.86
   16.32   -9.88  -72.31   -0.75   17.86   -0.75   17.86   -9.88  -72.31
   16.45  -10.16  -73.36   -0.72   17.37   -0.72   17.37  -10.16  -73.36
   16.58  -10.41  -73.70   -0.69   16.86   -0.69   16.86  -10.41  -73.70
   16.71  -10.73  -74.77   -0.63   16.09   -0.63   16.09  -10.73  -74.77
   16.85  -10.96  -75.27   -0.63   15.71   -0.63   15.71  -10.96  -75.27
   16.98  -11.18  -74.47   -0.69   15.14   -0.69   15.14  -11.18  -74.47
   17.11  -11.30  -75.92   -0.65   14.64   -0.65   14.64  -11.30  -75.92
   17.24  -11.22  -76.46   -0.61   14.46   -0.61   14.46  -11.22  -76.46
   17.37  -11.42  -76.17   -0.66   13.95   -0.66   13.95  -11.42  -76.17
   17.51  -11.52  -76.92   -0.65   13.66   -0.65   13.66  -11.52  -76.92
   17.64  -11.27  -77.66   -0.60   13.38   -0.60   13.38  -11.27  -77.66
   17.77  -11.53  -78.05   -0.66   12.93   -0.66   12.93  -11.53  -78.05
   17.90  -11.48  -77.65   -0.66   12.91   -0.66   12.91  -11.48  -77.65
   18.04  -11.31  -79.64   -0.59   12.45   -0.59   12.45  -11.31  -79.64
   18.17  -11.24  -79.34   -0.60   12.34   -0.60   12.34  -11.24  -79.34
   18.30  -11.34  -80.23   -0.62   12.01   -0.62   12.01  -11.34  -80.23
   18.43  -11.26  -80.65   -0.58   11.73   -0.58   11.73  -11.26  -80.65
   18.57  -11.26  -81.94   -0.59   11.33   -0.59   11.33  -11.26  -81.94
   18.70  -11.43  -82.90   -0.60   11.28   -0.60   11.28  -11.43  -82.90
   18.83  -11.41  -83.46   -0.59   11.11   -0.59   11.11  -11.41  -83.46
   18.96  -11.40  -84.00   -0.58   10.80   -0.58   10.80  -11.40  -84.00
   19.09  -11.60  -84.77   -0.59   10.75   -0.59   10.75  -11.60  -84.77
   19.23  -11.70  -85.19   -0.57   10.68   -0.57   10.68  -11.70  -85.19
   19.36  -11.81  -86.70   -0.56   10.47   -0.56   10.47  -11.81  -86.70
   19.49  -11.89  -87.52   -0.56   10.17   -0.56   10.17  -11.89  -87.52
   19.62  -12.12  -87.41   -0.52   10.11   -0.52   10.11  -12.12  -87.41
   19.76  -12.44  -88.55   -0.52    9.95   -0.52    9.95  -12.44  -88.55
   19.89  -12.56  -90.44   -0.51    9.44   -0.51    9.44  -12.56  -90.44
   20.02  -12.89  -91.05   -0.49    9.29   -0.49    9.29  -12.89  -91.05
   20.15  -13.12  -91.66   -0.47    9.04   -0.47    9.04  -13.12  -91.66
   20.28  -13.43  -92.58   -0.48    8.66   -0.48    8.66  -13.43  -92.58
   20.42  -13.78  -93.86   -0.50    8.37   -0.50    8.37  -13.78  -93.86
   20.55  -14.17  -94.84   -0.48    8.13   -0.48    8.13  -14.17  -94.84
   20.68  -14.51  -95.42   -0.46    7.74   -0.46    7.74  -14.51  -95.42
   20.81  -14.88  -96.70   -0.48    7.43   -0.48    7.43  -14.88  -96.70
   20.95  -15.50  -98.18   -0.45    7.10   -0.45    7.10  -15.50  -98.18
   21.08  -15.97  -99.31   -0.44    6.52   -0.44    6.52  -15.97  -99.31
   21.21  -16.57 -101.09   -0.45    6.17   -0.45    6.17  -16.57 -101.09
   21.34  -17.17 -102.51   -0.46    5.83   -0.46    5.83  -17.17 -102.51
   21.47  -18.12 -103.48   -0.45    5.35   -0.45    5.35  -18.12 -103.48
   21.61  -18.74 -106.59   -0.46    5.01   -0.46    5.01  -18.74 -106.59
   21.74  -19.45 -110.13   -0.46    4.73   -0.46    4.73  -19.45 -110.13
   21.87  -20.63 -113.00   -0.44    4.31   -0.44    4.31  -20.63 -113.00
   22.00  -21.67 -117.53   -0.44    3.97   -0.44    3.97  -21.67 -117.53
   22.14  -22.45 -121.34   -0.46    3.68   -0.46    3.68  -22.45 -121.34
   22.27  -23.43 -127.06   -0.46    3.25   -0.46    3.25  -23.43 -127.06
   22.40  -24.33 -134.17   -0.46    2.93   -0.46    2.93  -24.33 -134.17
   22.53  -24.95 -140.37   -0.48    2.70   -0.48    2.70  -24.95 -140.37
   22.66  -25.55 -148.08   -0.50    2.48   -0.50    2.48  -25.55 -148.08
   22.80  -25.86 -153.85   -0.51    2.27   -0.51    2.27  -25.86 -153.85
   22.93  -26.21 -160.05   -0.52    2.09   -0.52    2.09  -26.21 -160.05
   23.06  -26.17 -161.15   -0.53    1.94   -0.53    1.94  -26.17 -161.15
   23.19  -26.40 -164.46   -0.53    1.72   -0.53    1.72  -26.40 -164.46
   23.33  -26.27 -166.46   -0.52    1.52   -0.52    1.52  -26.27 -166.46
   23.46  -26.43 -164.26   -0.52    1.22   -0.52    1.22  -26.43 -164.26
   23.59  -26.21 -163.14   -0.53    1.02   -0.53    1.02  -26.21 -163.14
   23.72  -25.99 -163.44   -0.54    0.78   -0.54    0.78  -25.99 -163.44
   23.86  -26.14 -165.75   -0.57    0.55   -0.57    0.55  -26.14 -165.75
   23.99  -26.32 -166.88   -0.57    0.43   -0.57    0.43  -26.32 -166.88
   24.12  -27.01 -168.42   -0.58    0.16   -0.58    0.16  -27.01 -168.42
   24.25  -27.47 -171.38   -0.59    0.16   -0.59    0.16  -27.47 -171.38
   24.38  -28.11  179.69   -0.58    0.00   -0.58    0.00  -28.11  179.69
   24.52  -28.73  175.21   -0.57   -0.29   -0.57   -0.29  -28.73  175.21
   24.65  -28.85  165.02   -0.57   -0.40   -0.57   -0.40  -28.85  165.02
   24.78  -29.03  151.23   -0.57   -0.56   -0.57   -0.56  -29.03  151.23
   24.91  -27.62  139.76   -0.57   -0.73   -0.57   -0.73  -27.62  139.76
   25.05  -26.28  127.03   -0.56   -0.92   -0.56   -0.92  -26.28  127.03
   25.18  -24.75  118.61   -0.54   -1.09   -0.54   -1.09  -24.75  118.61
   25.31  -23.20  116.07   -0.54   -1.28   -0.54   -1.28  -23.20  116.07
   25.44  -22.04  112.45   -0.53   -1.51   -0.53   -1.51  -22.04  112.45
   25.57  -20.67  110.51   -0.50   -1.72   -0.50   -1.72  -20.67  110.51
   25.71  -19.42  109.28   -0.50   -2.15   -0.50   -2.15  -19.42  109.28
   25.84  -18.44  110.75   -0.50   -2.46   -0.50   -2.46  -18.44  110.75
   25.97  -17.35  113.07   -0.48   -2.87   -0.48   -2.87  -17.35  113.07
   26.10  -16.62  115.22   -0.50   -3.30   -0.50   -3.30  -16.62  115.22
   26.24  -15.79  117.71   -0.53   -3.74   -0.53   -3.74  -15.79  117.71
   26.37  -15.26  119.65   -0.55   -3.98   -0.55   -3.98  -15.26  119.65
   26.50  -14.67  122.18   -0.59   -4.34   -0.59   -4.34  -14.67  122.18
