!  American Technical Ceramics  Date:    3/13/98
!  One Norden Lane
!  Huntington Station,  NY.   11746-2102
!  Tel:  (516) 547-5700               Fax:  (516) 547-5748
!  Part Number  700A820F
!  Description: Porcelain, High Q, Low ESR
!  Application: Bypass, Coupling, Timing, Feedback
!               Tuning, Impedance Match, Blocking
# GHZ S DB R 50
! Freq   |S11|   S11 Ph  |S21|   S21 Ph  |S12|   S12 Ph  |S22|   S22 Ph
    0.05   -8.80  -68.42   -0.65   21.11   -0.65   21.11   -8.80  -68.42
    0.09  -13.43  -78.55   -0.21   12.14   -0.21   12.14  -13.43  -78.55
    0.13  -16.57  -81.75   -0.12    8.42   -0.12    8.42  -16.57  -81.75
    0.17  -18.96  -84.24   -0.06    6.34   -0.06    6.34  -18.96  -84.24
    0.21  -20.89  -86.10   -0.03    5.18   -0.03    5.18  -20.89  -86.10
    0.25  -22.38  -86.65   -0.03    4.07   -0.03    4.07  -22.38  -86.65
    0.29  -23.81  -88.45   -0.03    3.52   -0.03    3.52  -23.81  -88.45
    0.33  -24.92  -89.00   -0.02    2.96   -0.02    2.96  -24.92  -89.00
    0.37  -26.15  -89.43    0.00    2.41    0.00    2.41  -26.15  -89.43
    0.41  -27.16  -90.33   -0.01    2.25   -0.01    2.25  -27.16  -90.33
    0.45  -28.12  -91.14    0.00    2.07    0.00    2.07  -28.12  -91.14
    0.49  -29.03  -91.43    0.00    1.80    0.00    1.80  -29.03  -91.43
    0.53  -29.97  -92.03    0.00    1.38    0.00    1.38  -29.97  -92.03
    0.57  -31.09  -92.16   -0.02    1.28   -0.02    1.28  -31.09  -92.16
    0.61  -31.63  -93.06   -0.01    1.03   -0.01    1.03  -31.63  -93.06
    0.65  -32.49  -93.48    0.00    1.04    0.00    1.04  -32.49  -93.48
    0.69  -33.12  -93.37   -0.01    0.90   -0.01    0.90  -33.12  -93.37
    0.73  -34.04  -93.90    0.00    0.72    0.00    0.72  -34.04  -93.90
    0.77  -34.85  -93.85    0.00    0.53    0.00    0.53  -34.85  -93.85
    0.81  -35.41  -94.75    0.00    0.60    0.00    0.60  -35.41  -94.75
    0.85  -36.60  -95.40    0.00    0.39    0.00    0.39  -36.60  -95.40
    0.88  -36.88  -95.04   -0.02    0.35   -0.02    0.35  -36.88  -95.04
    0.92  -38.44  -95.84   -0.01    0.32   -0.01    0.32  -38.44  -95.84
    0.96  -38.72  -96.16   -0.01    0.25   -0.01    0.25  -38.72  -96.16
    1.00  -40.08  -96.36   -0.01    0.14   -0.01    0.14  -40.08  -96.36
    1.04  -40.85  -93.90   -0.01    0.05   -0.01    0.05  -40.85  -93.90
    1.08  -41.63  -98.53   -0.01    0.04   -0.01    0.04  -41.63  -98.53
    1.12  -43.55  -98.51    0.00   -0.23    0.00   -0.23  -43.55  -98.51
    1.16  -44.50  -93.05    0.01   -0.13    0.01   -0.13  -44.50  -93.05
    1.20  -45.87  -97.95    0.00   -0.46    0.00   -0.46  -45.87  -97.95
    1.24  -49.15  -88.83   -0.01   -0.34   -0.01   -0.34  -49.15  -88.83
    1.28  -50.31  -92.21   -0.03   -0.34   -0.03   -0.34  -50.31  -92.21
    1.32  -55.13  -92.59   -0.02   -0.50   -0.02   -0.50  -55.13  -92.59
    1.36  -56.37  -96.25   -0.02   -0.49   -0.02   -0.49  -56.37  -96.25
    1.40  -72.78   -4.07   -0.01   -0.52   -0.01   -0.52  -72.78   -4.07
    1.44  -63.23   27.51   -0.02   -0.69   -0.02   -0.69  -63.23   27.51
    1.48  -54.29   89.39   -0.01   -0.60   -0.01   -0.60  -54.29   89.39
    1.52  -51.03   74.00   -0.01   -0.76   -0.01   -0.76  -51.03   74.00
    1.56  -50.66   76.46    0.00   -0.89    0.00   -0.89  -50.66   76.46
    1.60  -46.12   79.39   -0.01   -1.05   -0.01   -1.05  -46.12   79.39
    1.64  -46.71   73.70   -0.02   -1.07   -0.02   -1.07  -46.71   73.70
    1.68  -43.29   83.26   -0.04   -1.07   -0.04   -1.07  -43.29   83.26
    1.72  -43.42   71.55   -0.03   -0.98   -0.03   -0.98  -43.42   71.55
    1.76  -42.10   81.42   -0.02   -1.02   -0.02   -1.02  -42.10   81.42
    1.80  -40.66   74.94   -0.02   -1.19   -0.02   -1.19  -40.66   74.94
    1.84  -40.80   74.66   -0.02   -1.24   -0.02   -1.24  -40.80   74.66
    1.88  -39.29   79.88   -0.02   -1.26   -0.02   -1.26  -39.29   79.88
    1.92  -38.57   74.05   -0.02   -1.34   -0.02   -1.34  -38.57   74.05
    1.96  -38.27   76.37   -0.02   -1.46   -0.02   -1.46  -38.27   76.37
    2.00  -36.81   77.17   -0.03   -1.37   -0.03   -1.37  -36.81   77.17
    2.04  -37.04   74.10   -0.01   -1.55   -0.01   -1.55  -37.04   74.10
    2.08  -35.85   78.16    0.00   -1.79    0.00   -1.79  -35.85   78.16
    2.12  -35.68   73.88   -0.03   -1.67   -0.03   -1.67  -35.68   73.88
    2.16  -35.26   76.63   -0.04   -1.78   -0.04   -1.78  -35.26   76.63
    2.20  -34.68   73.25   -0.03   -1.81   -0.03   -1.81  -34.68   73.25
    2.24  -34.30   76.06   -0.03   -1.83   -0.03   -1.83  -34.30   76.06
    2.28  -33.56   76.23   -0.02   -1.97   -0.02   -1.97  -33.56   76.23
    2.32  -33.35   73.23   -0.04   -1.91   -0.04   -1.91  -33.35   73.23
    2.36  -32.77   75.53   -0.02   -2.12   -0.02   -2.12  -32.77   75.53
    2.40  -32.02   74.65   -0.03   -2.11   -0.03   -2.11  -32.02   74.65
    2.44  -31.99   74.37   -0.04   -2.29   -0.04   -2.29  -31.99   74.37
    2.47  -31.19   74.00   -0.04   -2.33   -0.04   -2.33  -31.19   74.00
    2.51  -30.94   73.27   -0.05   -2.39   -0.05   -2.39  -30.94   73.27
    2.55  -30.20   73.96   -0.06   -2.59   -0.06   -2.59  -30.20   73.96
    2.59  -29.60   72.10   -0.08   -2.54   -0.08   -2.54  -29.60   72.10
    2.63  -29.08   72.62   -0.07   -2.91   -0.07   -2.91  -29.08   72.62
    2.67  -28.22   71.24   -0.08   -2.89   -0.08   -2.89  -28.22   71.24
    2.71  -27.54   69.64   -0.09   -3.25   -0.09   -3.25  -27.54   69.64
    2.75  -26.55   68.08   -0.10   -3.38   -0.10   -3.38  -26.55   68.08
    2.79  -25.30   64.61   -0.13   -3.83   -0.13   -3.83  -25.30   64.61
    2.83  -23.90   59.53   -0.20   -4.25   -0.20   -4.25  -23.90   59.53
    2.87  -22.05   49.89   -0.35   -4.80   -0.35   -4.80  -22.05   49.89
    2.91  -20.29   29.50   -0.68   -4.34   -0.68   -4.34  -20.29   29.50
    2.95  -20.55   -1.43   -0.85   -1.55   -0.85   -1.55  -20.55   -1.43
    2.99  -23.71  -26.99   -0.52    0.40   -0.52    0.40  -23.71  -26.99
    3.03  -27.82  -38.43   -0.31    0.43   -0.31    0.43  -27.82  -38.43
    3.07  -31.79  -36.32   -0.18   -0.20   -0.18   -0.20  -31.79  -36.32
    3.11  -35.09  -28.86   -0.14   -0.39   -0.14   -0.39  -35.09  -28.86
    3.15  -37.69  -15.14   -0.10   -0.67   -0.10   -0.67  -37.69  -15.14
    3.19  -38.66    4.45   -0.09   -1.21   -0.09   -1.21  -38.66    4.45
    3.23  -39.18   19.10   -0.08   -1.28   -0.08   -1.28  -39.18   19.10
    3.27  -38.22   31.53   -0.07   -1.47   -0.07   -1.47  -38.22   31.53
    3.31  -37.70   38.22   -0.08   -1.73   -0.08   -1.73  -37.70   38.22
    3.35  -37.21   45.03   -0.06   -1.67   -0.06   -1.67  -37.21   45.03
    3.39  -36.53   47.30   -0.05   -2.02   -0.05   -2.02  -36.53   47.30
    3.43  -35.96   50.70   -0.06   -2.05   -0.06   -2.05  -35.96   50.70
    3.47  -35.35   51.74   -0.05   -2.02   -0.05   -2.02  -35.35   51.74
    3.51  -35.34   52.43   -0.06   -2.13   -0.06   -2.13  -35.34   52.43
    3.55  -34.92   54.95   -0.05   -2.19   -0.05   -2.19  -34.92   54.95
    3.59  -34.76   54.88   -0.05   -2.22   -0.05   -2.22  -34.76   54.88
    3.63  -34.54   55.91   -0.06   -2.22   -0.06   -2.22  -34.54   55.91
    3.67  -34.31   57.28   -0.04   -2.30   -0.04   -2.30  -34.31   57.28
    3.71  -34.04   56.19   -0.05   -2.43   -0.05   -2.43  -34.04   56.19
    3.75  -33.93   57.37   -0.05   -2.44   -0.05   -2.44  -33.93   57.37
    3.79  -33.95   56.46   -0.05   -2.51   -0.05   -2.51  -33.95   56.46
    3.83  -33.81   55.75   -0.07   -2.54   -0.07   -2.54  -33.81   55.75
    3.87  -34.10   55.64   -0.08   -2.64   -0.08   -2.64  -34.10   55.64
    3.91  -33.93   55.91   -0.07   -2.81   -0.07   -2.81  -33.93   55.91
    3.95  -33.95   54.53   -0.07   -2.58   -0.07   -2.58  -33.95   54.53
    3.99  -34.01   54.49   -0.06   -2.78   -0.06   -2.78  -34.01   54.49
    4.03  -32.92   60.22   -0.07   -2.83   -0.07   -2.83  -32.92   60.22
    4.06  -32.91   59.90   -0.08   -2.89   -0.08   -2.89  -32.91   59.90
    4.10  -33.01   58.93   -0.06   -3.02   -0.06   -3.02  -33.01   58.93
    4.14  -32.93   60.11   -0.07   -2.96   -0.07   -2.96  -32.93   60.11
    4.18  -32.82   60.26   -0.07   -3.00   -0.07   -3.00  -32.82   60.26
    4.22  -32.64   61.29   -0.06   -3.11   -0.06   -3.11  -32.64   61.29
    4.26  -32.95   60.84   -0.08   -3.18   -0.08   -3.18  -32.95   60.84
    4.30  -32.86   62.07   -0.08   -3.09   -0.08   -3.09  -32.86   62.07
    4.34  -32.74   62.08   -0.09   -3.15   -0.09   -3.15  -32.74   62.08
    4.38  -32.60   62.35   -0.09   -3.33   -0.09   -3.33  -32.60   62.35
    4.42  -32.62   61.96   -0.08   -3.20   -0.08   -3.20  -32.62   61.96
    4.46  -32.61   62.18   -0.09   -3.29   -0.09   -3.29  -32.61   62.18
    4.50  -32.65   61.82   -0.08   -3.37   -0.08   -3.37  -32.65   61.82
    4.54  -32.46   63.35   -0.07   -3.39   -0.07   -3.39  -32.46   63.35
    4.58  -32.27   62.97   -0.09   -3.52   -0.09   -3.52  -32.27   62.97
    4.62  -32.29   62.55   -0.10   -3.44   -0.10   -3.44  -32.29   62.55
    4.66  -32.11   62.86   -0.08   -3.65   -0.08   -3.65  -32.11   62.86
    4.70  -31.87   63.45   -0.09   -3.63   -0.09   -3.63  -31.87   63.45
    4.74  -31.84   62.73   -0.10   -3.84   -0.10   -3.84  -31.84   62.73
    4.78  -31.78   62.81   -0.11   -3.72   -0.11   -3.72  -31.78   62.81
    4.82  -31.48   63.19   -0.11   -3.84   -0.11   -3.84  -31.48   63.19
    4.86  -31.41   62.51   -0.12   -3.88   -0.12   -3.88  -31.41   62.51
    4.90  -31.35   63.41   -0.09   -3.96   -0.09   -3.96  -31.35   63.41
    4.94  -30.92   62.94   -0.12   -4.02   -0.12   -4.02  -30.92   62.94
    4.98  -30.56   61.68   -0.12   -4.04   -0.12   -4.04  -30.56   61.68
    5.02  -30.81   60.91   -0.10   -4.23   -0.10   -4.23  -30.81   60.91
    5.06  -30.17   61.53   -0.12   -4.29   -0.12   -4.29  -30.17   61.53
    5.10  -29.89   59.74   -0.14   -4.31   -0.14   -4.31  -29.89   59.74
    5.14  -29.46   58.82   -0.16   -4.66   -0.16   -4.66  -29.46   58.82
    5.18  -28.98   57.05   -0.17   -4.48   -0.17   -4.48  -28.98   57.05
    5.22  -28.47   54.60   -0.18   -4.88   -0.18   -4.88  -28.47   54.60
    5.26  -28.03   50.85   -0.20   -4.75   -0.20   -4.75  -28.03   50.85
    5.30  -27.37   46.55   -0.25   -4.95   -0.25   -4.95  -27.37   46.55
    5.34  -26.81   40.01   -0.31   -4.84   -0.31   -4.84  -26.81   40.01
    5.38  -26.62   30.03   -0.36   -4.75   -0.36   -4.75  -26.62   30.03
    5.42  -26.96   20.31   -0.41   -4.29   -0.41   -4.29  -26.96   20.31
    5.46  -27.71   11.08   -0.40   -3.75   -0.40   -3.75  -27.71   11.08
    5.50  -29.05    2.61   -0.36   -3.37   -0.36   -3.37  -29.05    2.61
    5.54  -30.87   -1.72   -0.32   -3.13   -0.32   -3.13  -30.87   -1.72
    5.58  -32.43   -0.50   -0.25   -3.16   -0.25   -3.16  -32.43   -0.50
    5.62  -33.92    2.24   -0.23   -3.07   -0.23   -3.07  -33.92    2.24
    5.65  -35.36    8.74   -0.22   -3.31   -0.22   -3.31  -35.36    8.74
    5.69  -35.93   16.60   -0.20   -3.52   -0.20   -3.52  -35.93   16.60
    5.73  -36.08   22.69   -0.18   -3.49   -0.18   -3.49  -36.08   22.69
    5.77  -36.27   29.82   -0.15   -3.45   -0.15   -3.45  -36.27   29.82
    5.81  -35.79   38.77   -0.15   -3.62   -0.15   -3.62  -35.79   38.77
    5.85  -35.33   41.24   -0.16   -3.76   -0.16   -3.76  -35.33   41.24
    5.89  -35.13   44.89   -0.14   -3.77   -0.14   -3.77  -35.13   44.89
    5.93  -34.84   48.61   -0.13   -3.95   -0.13   -3.95  -34.84   48.61
    5.97  -34.10   49.79   -0.16   -3.97   -0.16   -3.97  -34.10   49.79
    6.01  -33.57   49.63   -0.14   -4.04   -0.14   -4.04  -33.57   49.63
    6.05  -33.31   51.69   -0.15   -4.16   -0.15   -4.16  -33.31   51.69
    6.09  -32.84   52.17   -0.15   -4.20   -0.15   -4.20  -32.84   52.17
    6.13  -32.51   52.16   -0.14   -4.32   -0.14   -4.32  -32.51   52.16
    6.17  -32.25   53.80   -0.14   -4.33   -0.14   -4.33  -32.25   53.80
    6.21  -31.66   54.03   -0.14   -4.27   -0.14   -4.27  -31.66   54.03
    6.25  -31.49   54.05   -0.14   -4.42   -0.14   -4.42  -31.49   54.05
    6.29  -31.29   55.07   -0.13   -4.54   -0.13   -4.54  -31.29   55.07
    6.33  -30.76   55.93   -0.15   -4.46   -0.15   -4.46  -30.76   55.93
    6.37  -30.51   55.22   -0.14   -4.61   -0.14   -4.61  -30.51   55.22
    6.41  -30.06   55.58   -0.15   -4.62   -0.15   -4.62  -30.06   55.58
    6.45  -29.84   57.14   -0.15   -4.85   -0.15   -4.85  -29.84   57.14
    6.49  -29.34   56.68   -0.15   -4.75   -0.15   -4.75  -29.34   56.68
    6.53  -29.17   56.51   -0.15   -4.99   -0.15   -4.99  -29.17   56.51
    6.57  -28.60   57.12   -0.15   -4.96   -0.15   -4.96  -28.60   57.12
    6.61  -28.20   55.98   -0.16   -5.00   -0.16   -5.00  -28.20   55.98
    6.65  -27.78   56.57   -0.16   -4.92   -0.16   -4.92  -27.78   56.57
    6.69  -27.49   56.60   -0.17   -5.05   -0.17   -5.05  -27.49   56.60
    6.73  -27.11   55.60   -0.18   -5.16   -0.18   -5.16  -27.11   55.60
    6.77  -26.85   54.09   -0.19   -5.09   -0.19   -5.09  -26.85   54.09
    6.81  -26.35   54.16   -0.18   -5.30   -0.18   -5.30  -26.35   54.16
    6.85  -26.18   53.97   -0.18   -5.26   -0.18   -5.26  -26.18   53.97
    6.89  -25.87   53.34   -0.20   -5.37   -0.20   -5.37  -25.87   53.34
    6.93  -25.66   52.82   -0.19   -5.35   -0.19   -5.35  -25.66   52.82
    6.97  -25.17   52.58   -0.22   -5.48   -0.22   -5.48  -25.17   52.58
    7.01  -24.97   50.95   -0.21   -5.33   -0.21   -5.33  -24.97   50.95
    7.05  -24.85   51.75   -0.22   -5.49   -0.22   -5.49  -24.85   51.75
    7.09  -24.49   51.83   -0.22   -5.51   -0.22   -5.51  -24.49   51.83
    7.13  -24.22   50.69   -0.22   -5.70   -0.22   -5.70  -24.22   50.69
    7.17  -23.89   50.29   -0.23   -5.57   -0.23   -5.57  -23.89   50.29
    7.21  -23.56   50.00   -0.25   -5.64   -0.25   -5.64  -23.56   50.00
    7.24  -23.36   50.01   -0.24   -5.81   -0.24   -5.81  -23.36   50.01
    7.28  -23.14   49.30   -0.26   -5.80   -0.26   -5.80  -23.14   49.30
    7.32  -22.85   48.52   -0.26   -5.91   -0.26   -5.91  -22.85   48.52
    7.36  -22.56   47.57   -0.27   -5.85   -0.27   -5.85  -22.56   47.57
    7.40  -22.32   47.01   -0.28   -5.93   -0.28   -5.93  -22.32   47.01
    7.44  -22.24   47.03   -0.29   -6.11   -0.29   -6.11  -22.24   47.03
    7.48  -21.85   46.43   -0.32   -6.03   -0.32   -6.03  -21.85   46.43
    7.52  -21.72   44.79   -0.33   -6.00   -0.33   -6.00  -21.72   44.79
    7.56  -21.40   44.48   -0.34   -5.97   -0.34   -5.97  -21.40   44.48
    7.60  -21.15   43.44   -0.34   -6.09   -0.34   -6.09  -21.15   43.44
    7.64  -21.07   43.57   -0.37   -6.18   -0.37   -6.18  -21.07   43.57
    7.68  -20.96   42.32   -0.38   -6.12   -0.38   -6.12  -20.96   42.32
    7.72  -20.68   41.73   -0.41   -6.01   -0.41   -6.01  -20.68   41.73
    7.76  -20.51   40.18   -0.42   -6.07   -0.42   -6.07  -20.51   40.18
    7.80  -20.38   39.41   -0.46   -6.10   -0.46   -6.10  -20.38   39.41
    7.84  -20.32   38.37   -0.47   -6.03   -0.47   -6.03  -20.32   38.37
    7.88  -20.18   36.94   -0.47   -5.87   -0.47   -5.87  -20.18   36.94
    7.92  -20.25   34.63   -0.49   -5.80   -0.49   -5.80  -20.25   34.63
    7.96  -20.32   34.16   -0.50   -5.60   -0.50   -5.60  -20.32   34.16
    8.00  -20.53   33.01   -0.50   -5.44   -0.50   -5.44  -20.53   33.01
