!  American Technical Ceramics  Date:    3/13/98
!  One Norden Lane
!  Huntington Station,  NY.   11746-2102
!  Tel:  (516) 547-5700               Fax:  (516) 547-5748
!  Part Number  700A8R2B
!  Description: Porcelain, High Q, Low ESR
!  Application: Bypass, Coupling, Timing, Feedback
!               Tuning, Impedance Match, Blocking
# GHZ S DB R 50
! Freq   |S11|   S11 Ph  |S21|   S21 Ph  |S12|   S12 Ph  |S22|   S22 Ph
    0.05   -0.24  -13.84  -12.13   74.72  -12.13   74.72   -0.24  -13.84
    0.11   -1.20  -29.45   -6.13   60.03   -6.13   60.03   -1.20  -29.45
    0.17   -2.44  -41.97   -3.60   48.34   -3.60   48.34   -2.44  -41.97
    0.24   -3.87  -50.69   -2.28   39.64   -2.28   39.64   -3.87  -50.69
    0.30   -5.19  -57.45   -1.53   33.10   -1.53   33.10   -5.19  -57.45
    0.36   -6.41  -62.41   -1.10   28.37   -1.10   28.37   -6.41  -62.41
    0.42   -7.52  -66.37   -0.82   24.65   -0.82   24.65   -7.52  -66.37
    0.48   -8.54  -69.39   -0.63   21.75   -0.63   21.75   -8.54  -69.39
    0.54   -9.68  -72.00   -0.51   18.71   -0.51   18.71   -9.68  -72.00
    0.61  -10.59  -74.27   -0.41   16.92   -0.41   16.92  -10.59  -74.27
    0.67  -11.39  -75.87   -0.35   15.42   -0.35   15.42  -11.39  -75.87
    0.73  -12.15  -76.89   -0.28   14.08   -0.28   14.08  -12.15  -76.89
    0.79  -12.92  -78.37   -0.25   12.96   -0.25   12.96  -12.92  -78.37
    0.85  -13.62  -79.79   -0.21   11.93   -0.21   11.93  -13.62  -79.79
    0.91  -14.24  -80.71   -0.18   11.13   -0.18   11.13  -14.24  -80.71
    0.98  -14.78  -81.79   -0.15   10.24   -0.15   10.24  -14.78  -81.79
    1.04  -15.44  -82.35   -0.14    9.52   -0.14    9.52  -15.44  -82.35
    1.10  -16.00  -83.36   -0.11    8.94   -0.11    8.94  -16.00  -83.36
    1.16  -16.51  -84.00   -0.10    8.17   -0.10    8.17  -16.51  -84.00
    1.22  -17.06  -84.40   -0.10    7.77   -0.10    7.77  -17.06  -84.40
    1.29  -17.57  -85.04   -0.09    7.19   -0.09    7.19  -17.57  -85.04
    1.35  -18.07  -85.41   -0.07    6.89   -0.07    6.89  -18.07  -85.41
    1.41  -18.60  -85.90   -0.06    6.43   -0.06    6.43  -18.60  -85.90
    1.47  -19.04  -86.67   -0.07    6.08   -0.07    6.08  -19.04  -86.67
    1.53  -19.57  -86.76   -0.05    5.66   -0.05    5.66  -19.57  -86.76
    1.59  -20.09  -87.81   -0.03    5.34   -0.03    5.34  -20.09  -87.81
    1.66  -20.46  -87.95   -0.06    4.98   -0.06    4.98  -20.46  -87.95
    1.72  -21.03  -87.46   -0.06    4.62   -0.06    4.62  -21.03  -87.46
    1.78  -21.57  -88.36   -0.05    4.41   -0.05    4.41  -21.57  -88.36
    1.84  -21.96  -88.75   -0.04    4.17   -0.04    4.17  -21.96  -88.75
    1.90  -22.50  -88.44   -0.02    3.99   -0.02    3.99  -22.50  -88.44
    1.96  -22.94  -88.62   -0.03    3.68   -0.03    3.68  -22.94  -88.62
    2.03  -23.54  -88.72   -0.03    3.39   -0.03    3.39  -23.54  -88.72
    2.09  -24.19  -89.48   -0.04    3.17   -0.04    3.17  -24.19  -89.48
    2.15  -24.47  -89.26   -0.04    3.01   -0.04    3.01  -24.47  -89.26
    2.21  -25.15  -88.68   -0.04    2.75   -0.04    2.75  -25.15  -88.68
    2.27  -25.80  -89.38   -0.03    2.70   -0.03    2.70  -25.80  -89.38
    2.33  -26.23  -89.09   -0.04    2.49   -0.04    2.49  -26.23  -89.09
    2.40  -26.92  -88.81   -0.02    2.25   -0.02    2.25  -26.92  -88.81
    2.46  -27.51  -89.13   -0.02    2.10   -0.02    2.10  -27.51  -89.13
    2.52  -28.12  -89.00   -0.04    1.83   -0.04    1.83  -28.12  -89.00
    2.58  -28.93  -87.84   -0.05    1.72   -0.05    1.72  -28.93  -87.84
    2.64  -29.50  -87.78   -0.05    1.58   -0.05    1.58  -29.50  -87.78
    2.71  -30.20  -86.38   -0.04    1.45   -0.04    1.45  -30.20  -86.38
    2.77  -31.16  -87.87   -0.03    1.31   -0.03    1.31  -31.16  -87.87
    2.83  -31.79  -85.00   -0.03    1.14   -0.03    1.14  -31.79  -85.00
    2.89  -32.66  -85.67   -0.03    1.09   -0.03    1.09  -32.66  -85.67
    2.95  -33.41  -83.59   -0.03    0.80   -0.03    0.80  -33.41  -83.59
    3.01  -34.38  -82.34   -0.04    0.75   -0.04    0.75  -34.38  -82.34
    3.08  -35.56  -80.75   -0.03    0.52   -0.03    0.52  -35.56  -80.75
    3.14  -36.25  -78.85   -0.05    0.50   -0.05    0.50  -36.25  -78.85
    3.20  -37.84  -73.94   -0.06    0.19   -0.06    0.19  -37.84  -73.94
    3.26  -39.32  -70.43   -0.04    0.15   -0.04    0.15  -39.32  -70.43
    3.32  -40.19  -65.15   -0.04    0.01   -0.04    0.01  -40.19  -65.15
    3.38  -40.88  -57.67   -0.06   -0.18   -0.06   -0.18  -40.88  -57.67
    3.45  -42.54  -49.47   -0.05   -0.25   -0.05   -0.25  -42.54  -49.47
    3.51  -43.08  -43.75   -0.04   -0.25   -0.04   -0.25  -43.08  -43.75
    3.57  -43.30  -27.43   -0.04   -0.43   -0.04   -0.43  -43.30  -27.43
    3.63  -44.07  -17.96   -0.05   -0.40   -0.05   -0.40  -44.07  -17.96
    3.69  -43.63  -11.00   -0.05   -0.78   -0.05   -0.78  -43.63  -11.00
    3.76  -43.99   -3.78   -0.05   -0.69   -0.05   -0.69  -43.99   -3.78
    3.82  -43.57    9.06   -0.05   -1.07   -0.05   -1.07  -43.57    9.06
    3.88  -42.98    7.45   -0.04   -1.06   -0.04   -1.06  -42.98    7.45
    3.94  -42.51   13.96   -0.06   -1.03   -0.06   -1.03  -42.51   13.96
    4.00  -41.98   33.23   -0.05   -1.23   -0.05   -1.23  -41.98   33.23
    4.06  -41.16   38.01   -0.07   -1.25   -0.07   -1.25  -41.16   38.01
    4.13  -40.64   38.58   -0.06   -1.42   -0.06   -1.42  -40.64   38.58
    4.19  -40.03   45.96   -0.05   -1.53   -0.05   -1.53  -40.03   45.96
    4.25  -39.57   48.31   -0.07   -1.43   -0.07   -1.43  -39.57   48.31
    4.31  -39.35   52.26   -0.06   -1.66   -0.06   -1.66  -39.35   52.26
    4.37  -38.35   56.28   -0.06   -1.73   -0.06   -1.73  -38.35   56.28
    4.43  -38.08   56.91   -0.08   -1.77   -0.08   -1.77  -38.08   56.91
    4.50  -37.74   56.66   -0.08   -1.93   -0.08   -1.93  -37.74   56.66
    4.56  -36.89   61.13   -0.07   -2.03   -0.07   -2.03  -36.89   61.13
    4.62  -36.98   59.56   -0.09   -2.11   -0.09   -2.11  -36.98   59.56
    4.68  -36.53   62.17   -0.08   -2.10   -0.08   -2.10  -36.53   62.17
    4.74  -36.07   62.11   -0.07   -2.44   -0.07   -2.44  -36.07   62.11
    4.80  -35.64   64.12   -0.08   -2.56   -0.08   -2.56  -35.64   64.12
    4.87  -35.34   63.58   -0.09   -2.49   -0.09   -2.49  -35.34   63.58
    4.93  -35.05   65.80   -0.10   -2.57   -0.10   -2.57  -35.05   65.80
    4.99  -34.70   63.79   -0.10   -2.69   -0.10   -2.69  -34.70   63.79
    5.05  -34.12   67.09   -0.10   -2.76   -0.10   -2.76  -34.12   67.09
    5.11  -33.85   66.64   -0.08   -2.90   -0.08   -2.90  -33.85   66.64
    5.18  -33.60   66.62   -0.11   -2.88   -0.11   -2.88  -33.60   66.62
    5.24  -33.25   67.41   -0.10   -2.99   -0.10   -2.99  -33.25   67.41
    5.30  -32.75   68.93   -0.09   -3.17   -0.09   -3.17  -32.75   68.93
    5.36  -32.46   67.17   -0.11   -3.26   -0.11   -3.26  -32.46   67.17
    5.42  -32.36   68.90   -0.10   -3.36   -0.10   -3.36  -32.36   68.90
    5.48  -31.65   69.10   -0.11   -3.27   -0.11   -3.27  -31.65   69.10
    5.55  -31.50   68.77   -0.09   -3.50   -0.09   -3.50  -31.50   68.77
    5.61  -31.19   67.97   -0.12   -3.55   -0.12   -3.55  -31.19   67.97
    5.67  -30.75   69.96   -0.12   -3.74   -0.12   -3.74  -30.75   69.96
    5.73  -30.23   69.88   -0.12   -3.57   -0.12   -3.57  -30.23   69.88
    5.79  -29.91   70.34   -0.11   -3.87   -0.11   -3.87  -29.91   70.34
    5.85  -29.47   69.78   -0.12   -3.93   -0.12   -3.93  -29.47   69.78
    5.92  -29.19   69.33   -0.11   -4.05   -0.11   -4.05  -29.19   69.33
    5.98  -28.58   69.33   -0.13   -4.01   -0.13   -4.01  -28.58   69.33
    6.04  -28.33   67.71   -0.12   -4.20   -0.12   -4.20  -28.33   67.71
    6.10  -27.92   67.79   -0.13   -4.29   -0.13   -4.29  -27.92   67.79
    6.16  -27.60   67.28   -0.13   -4.45   -0.13   -4.45  -27.60   67.28
    6.23  -27.08   67.45   -0.12   -4.50   -0.12   -4.50  -27.08   67.45
    6.29  -26.88   67.20   -0.13   -4.58   -0.13   -4.58  -26.88   67.20
    6.35  -26.52   66.60   -0.16   -4.62   -0.16   -4.62  -26.52   66.60
    6.41  -26.07   66.06   -0.15   -4.79   -0.15   -4.79  -26.07   66.06
    6.47  -25.46   66.86   -0.14   -5.03   -0.14   -5.03  -25.46   66.86
    6.53  -25.25   65.86   -0.14   -4.98   -0.14   -4.98  -25.25   65.86
    6.60  -24.61   64.58   -0.15   -5.10   -0.15   -5.10  -24.61   64.58
    6.66  -24.17   64.45   -0.17   -5.26   -0.17   -5.26  -24.17   64.45
    6.72  -23.73   63.90   -0.17   -5.33   -0.17   -5.33  -23.73   63.90
    6.78  -23.39   62.06   -0.18   -5.43   -0.18   -5.43  -23.39   62.06
    6.84  -23.08   61.29   -0.19   -5.61   -0.19   -5.61  -23.08   61.29
    6.90  -22.61   60.42   -0.19   -5.61   -0.19   -5.61  -22.61   60.42
    6.97  -22.26   59.96   -0.20   -5.86   -0.20   -5.86  -22.26   59.96
    7.03  -22.11   58.79   -0.20   -5.76   -0.20   -5.76  -22.11   58.79
    7.09  -21.72   58.69   -0.23   -5.92   -0.23   -5.92  -21.72   58.69
    7.15  -21.32   57.63   -0.24   -6.01   -0.24   -6.01  -21.32   57.63
    7.21  -20.92   56.90   -0.23   -6.09   -0.23   -6.09  -20.92   56.90
    7.27  -20.75   56.45   -0.25   -6.36   -0.25   -6.36  -20.75   56.45
    7.34  -20.46   55.50   -0.27   -6.28   -0.27   -6.28  -20.46   55.50
    7.40  -20.01   54.50   -0.27   -6.39   -0.27   -6.39  -20.01   54.50
    7.46  -19.91   55.50   -0.28   -6.48   -0.28   -6.48  -19.91   55.50
    7.52  -19.71   53.63   -0.30   -6.45   -0.30   -6.45  -19.71   53.63
    7.58  -19.26   53.55   -0.30   -6.51   -0.30   -6.51  -19.26   53.55
    7.65  -19.19   54.10   -0.33   -6.53   -0.33   -6.53  -19.19   54.10
    7.71  -18.91   53.66   -0.32   -6.67   -0.32   -6.67  -18.91   53.66
    7.77  -18.58   53.16   -0.29   -6.59   -0.29   -6.59  -18.58   53.16
    7.83  -18.51   53.51   -0.34   -6.79   -0.34   -6.79  -18.51   53.51
    7.89  -18.06   53.71   -0.33   -6.83   -0.33   -6.83  -18.06   53.71
    7.95  -17.97   53.15   -0.34   -6.87   -0.34   -6.87  -17.97   53.15
    8.02  -17.82   52.38   -0.35   -7.03   -0.35   -7.03  -17.82   52.38
    8.08  -17.48   53.87   -0.36   -6.99   -0.36   -6.99  -17.48   53.87
    8.14  -17.26   53.21   -0.37   -7.15   -0.37   -7.15  -17.26   53.21
    8.20  -17.13   53.62   -0.37   -7.31   -0.37   -7.31  -17.13   53.62
    8.26  -16.92   52.98   -0.37   -7.25   -0.37   -7.25  -16.92   52.98
    8.32  -16.70   53.68   -0.40   -7.32   -0.40   -7.32  -16.70   53.68
    8.39  -16.47   54.15   -0.41   -7.47   -0.41   -7.47  -16.47   54.15
    8.45  -16.43   54.69   -0.39   -7.81   -0.39   -7.81  -16.43   54.69
    8.51  -16.03   53.99   -0.38   -7.74   -0.38   -7.74  -16.03   53.99
    8.57  -15.75   55.07   -0.37   -7.86   -0.37   -7.86  -15.75   55.07
    8.63  -15.61   55.18   -0.39   -8.01   -0.39   -8.01  -15.61   55.18
    8.70  -15.40   55.35   -0.40   -7.93   -0.40   -7.93  -15.40   55.35
    8.76  -15.19   53.78   -0.39   -8.39   -0.39   -8.39  -15.19   53.78
    8.82  -14.94   55.06   -0.42   -8.37   -0.42   -8.37  -14.94   55.06
    8.88  -14.73   54.54   -0.43   -8.49   -0.43   -8.49  -14.73   54.54
    8.94  -14.58   53.67   -0.45   -8.64   -0.45   -8.64  -14.58   53.67
    9.00  -14.34   53.35   -0.46   -8.89   -0.46   -8.89  -14.34   53.35
    9.07  -14.20   54.22   -0.47   -8.96   -0.47   -8.96  -14.20   54.22
    9.13  -14.05   53.73   -0.49   -9.06   -0.49   -9.06  -14.05   53.73
    9.19  -13.92   53.20   -0.48   -9.16   -0.48   -9.16  -13.92   53.20
    9.25  -13.67   53.06   -0.49   -9.52   -0.49   -9.52  -13.67   53.06
    9.31  -13.45   53.39   -0.53   -9.50   -0.53   -9.50  -13.45   53.39
    9.37  -13.25   52.44   -0.53   -9.97   -0.53   -9.97  -13.25   52.44
    9.44  -13.12   52.76   -0.54  -10.06   -0.54  -10.06  -13.12   52.76
    9.50  -12.82   51.69   -0.56  -10.43   -0.56  -10.43  -12.82   51.69
    9.56  -12.50   51.74   -0.59  -10.84   -0.59  -10.84  -12.50   51.74
    9.62  -12.39   51.27   -0.63  -11.00   -0.63  -11.00  -12.39   51.27
    9.68  -12.02   49.60   -0.62  -11.55   -0.62  -11.55  -12.02   49.60
    9.74  -11.74   48.92   -0.72  -12.02   -0.72  -12.02  -11.74   48.92
    9.81  -11.28   48.37   -0.73  -12.61   -0.73  -12.61  -11.28   48.37
    9.87  -11.00   45.60   -0.89  -13.35   -0.89  -13.35  -11.00   45.60
    9.93  -10.53   43.97   -0.95  -14.10   -0.95  -14.10  -10.53   43.97
    9.99   -9.98   40.15   -1.19  -15.26   -1.19  -15.26   -9.98   40.15
   10.05   -9.38   36.23   -1.47  -16.12   -1.47  -16.12   -9.38   36.23
   10.12   -8.90   29.42   -1.93  -16.95   -1.93  -16.95   -8.90   29.42
   10.18   -8.29   19.56   -2.61  -17.47   -2.61  -17.47   -8.29   19.56
   10.24   -7.97    6.63   -3.60  -13.58   -3.60  -13.58   -7.97    6.63
   10.30   -8.61   -9.98   -4.19   -4.40   -4.19   -4.40   -8.61   -9.98
   10.36  -10.45  -27.23   -3.51    4.98   -3.51    4.98  -10.45  -27.23
   10.42  -13.45  -39.73   -2.35    7.70   -2.35    7.70  -13.45  -39.73
   10.49  -17.04  -46.06   -1.54    6.94   -1.54    6.94  -17.04  -46.06
   10.55  -21.28  -43.62   -1.10    5.30   -1.10    5.30  -21.28  -43.62
   10.61  -25.82  -28.51   -0.80    3.74   -0.80    3.74  -25.82  -28.51
   10.67  -28.49    6.00   -0.64    2.36   -0.64    2.36  -28.49    6.00
   10.73  -27.56   36.09   -0.53    1.21   -0.53    1.21  -27.56   36.09
   10.79  -25.20   51.56   -0.47    0.22   -0.47    0.22  -25.20   51.56
   10.86  -23.50   58.62   -0.43   -0.52   -0.43   -0.52  -23.50   58.62
   10.92  -22.32   62.33   -0.40   -1.26   -0.40   -1.26  -22.32   62.33
   10.98  -21.31   63.89   -0.36   -1.65   -0.36   -1.65  -21.31   63.89
   11.04  -20.40   65.46   -0.35   -2.23   -0.35   -2.23  -20.40   65.46
   11.10  -20.08   65.66   -0.32   -2.58   -0.32   -2.58  -20.08   65.66
   11.17  -19.46   66.19   -0.33   -3.12   -0.33   -3.12  -19.46   66.19
   11.23  -18.94   66.69   -0.35   -3.40   -0.35   -3.40  -18.94   66.69
   11.29  -18.74   67.29   -0.29   -3.66   -0.29   -3.66  -18.74   67.29
   11.35  -18.42   66.08   -0.29   -3.92   -0.29   -3.92  -18.42   66.08
   11.41  -18.03   66.73   -0.28   -4.30   -0.28   -4.30  -18.03   66.73
   11.47  -17.92   66.94   -0.31   -4.35   -0.31   -4.35  -17.92   66.94
   11.54  -17.69   66.03   -0.27   -4.67   -0.27   -4.67  -17.69   66.03
   11.60  -17.55   66.26   -0.28   -4.82   -0.28   -4.82  -17.55   66.26
   11.66  -17.34   66.54   -0.27   -5.08   -0.27   -5.08  -17.34   66.54
   11.72  -17.21   65.49   -0.28   -5.01   -0.28   -5.01  -17.21   65.49
   11.78  -17.08   65.76   -0.27   -5.66   -0.27   -5.66  -17.08   65.76
   11.84  -17.00   65.40   -0.28   -5.82   -0.28   -5.82  -17.00   65.40
   11.91  -16.89   65.01   -0.28   -5.56   -0.28   -5.56  -16.89   65.01
   11.97  -16.64   65.22   -0.27   -6.06   -0.27   -6.06  -16.64   65.22
   12.03  -16.69   64.70   -0.32   -6.16   -0.32   -6.16  -16.69   64.70
   12.09  -16.57   63.76   -0.27   -6.39   -0.27   -6.39  -16.57   63.76
   12.15  -16.37   63.18   -0.30   -6.52   -0.30   -6.52  -16.37   63.18
   12.21  -16.21   62.83   -0.30   -6.60   -0.30   -6.60  -16.21   62.83
   12.28  -16.25   62.24   -0.29   -6.84   -0.29   -6.84  -16.25   62.24
   12.34  -16.06   61.32   -0.29   -6.78   -0.29   -6.78  -16.06   61.32
   12.40  -15.95   60.99   -0.29   -7.06   -0.29   -7.06  -15.95   60.99
