!  American Technical Ceramics  Date:    3/13/98
!  One Norden Lane
!  Huntington Station,  NY.   11746-2102
!  Tel:  (516) 547-5700               Fax:  (516) 547-5748
!  Part Number  700A220F
!  Description: Porcelain, High Q, Low ESR
!  Application: Bypass, Coupling, Timing, Feedback
!               Tuning, Impedance Match, Blocking
# GHZ S DB R 50
! Freq   |S11|   S11 Ph  |S21|   S21 Ph  |S12|   S12 Ph  |S22|   S22 Ph
    0.05   -1.62  -33.97   -4.89   55.48   -4.89   55.48   -1.62  -33.97
    0.11   -5.22  -56.59   -1.52   33.08   -1.52   33.08   -5.22  -56.59
    0.17   -8.15  -67.79   -0.70   22.59   -0.70   22.59   -8.15  -67.79
    0.24  -10.58  -73.34   -0.36   17.11   -0.36   17.11  -10.58  -73.34
    0.30  -12.51  -77.27   -0.22   13.49   -0.22   13.49  -12.51  -77.27
    0.36  -14.15  -79.73   -0.13   11.25   -0.13   11.25  -14.15  -79.73
    0.42  -15.52  -81.92   -0.08    9.48   -0.08    9.48  -15.52  -81.92
    0.48  -16.76  -83.09   -0.06    8.18   -0.06    8.18  -16.76  -83.09
    0.54  -18.09  -84.23   -0.05    6.87   -0.05    6.87  -18.09  -84.23
    0.61  -19.10  -85.31   -0.03    6.20   -0.03    6.20  -19.10  -85.31
    0.67  -20.02  -85.91   -0.03    5.50   -0.03    5.50  -20.02  -85.91
    0.73  -20.88  -86.51   -0.03    4.96   -0.03    4.96  -20.88  -86.51
    0.79  -21.69  -87.08   -0.02    4.49   -0.02    4.49  -21.69  -87.08
    0.85  -22.49  -87.74   -0.01    4.01   -0.01    4.01  -22.49  -87.74
    0.91  -23.28  -88.29    0.00    3.70    0.00    3.70  -23.28  -88.29
    0.98  -23.92  -89.11   -0.01    3.35   -0.01    3.35  -23.92  -89.11
    1.04  -24.69  -88.74    0.01    3.03    0.01    3.03  -24.69  -88.74
    1.10  -25.41  -89.72    0.02    2.73    0.02    2.73  -25.41  -89.72
    1.16  -26.00  -89.87    0.01    2.48    0.01    2.48  -26.00  -89.87
    1.22  -26.76  -89.84    0.01    2.21    0.01    2.21  -26.76  -89.84
    1.29  -27.46  -89.80    0.01    2.04    0.01    2.04  -27.46  -89.80
    1.35  -28.12  -90.01    0.02    1.86    0.02    1.86  -28.12  -90.01
    1.41  -28.87  -89.79    0.01    1.74    0.01    1.74  -28.87  -89.79
    1.47  -29.59  -90.50    0.01    1.43    0.01    1.43  -29.59  -90.50
    1.53  -30.34  -90.06    0.01    1.38    0.01    1.38  -30.34  -90.06
    1.59  -31.23  -90.92    0.02    1.07    0.02    1.07  -31.23  -90.92
    1.66  -31.83  -90.57    0.00    0.91    0.00    0.91  -31.83  -90.57
    1.72  -32.75  -87.90    0.00    0.75    0.00    0.75  -32.75  -87.90
    1.78  -33.89  -88.68    0.00    0.69    0.00    0.69  -33.89  -88.68
    1.84  -34.79  -87.74    0.01    0.56    0.01    0.56  -34.79  -87.74
    1.90  -35.91  -86.58    0.01    0.41    0.01    0.41  -35.91  -86.58
    1.96  -37.03  -85.65    0.01    0.30    0.01    0.30  -37.03  -85.65
    2.03  -38.67  -80.70    0.00    0.22    0.00    0.22  -38.67  -80.70
    2.09  -40.68  -81.16   -0.01   -0.01   -0.01   -0.01  -40.68  -81.16
    2.15  -41.64  -77.48   -0.01   -0.01   -0.01   -0.01  -41.64  -77.48
    2.21  -43.31  -66.82    0.00   -0.22    0.00   -0.22  -43.31  -66.82
    2.27  -46.83  -56.18   -0.01   -0.18   -0.01   -0.18  -46.83  -56.18
    2.33  -48.91  -41.41    0.00   -0.29    0.00   -0.29  -48.91  -41.41
    2.40  -49.14   -3.00    0.00   -0.56    0.00   -0.56  -49.14   -3.00
    2.46  -49.04   21.38   -0.01   -0.41   -0.01   -0.41  -49.04   21.38
    2.52  -46.58   35.81   -0.01   -0.64   -0.01   -0.64  -46.58   35.81
    2.58  -44.09   47.68   -0.01   -0.83   -0.01   -0.83  -44.09   47.68
    2.64  -42.39   55.59   -0.03   -0.75   -0.03   -0.75  -42.39   55.59
    2.71  -41.00   55.77   -0.01   -0.84   -0.01   -0.84  -41.00   55.77
    2.77  -39.63   62.13    0.00   -1.00    0.00   -1.00  -39.63   62.13
    2.83  -38.45   59.63   -0.01   -1.08   -0.01   -1.08  -38.45   59.63
    2.89  -37.32   65.71   -0.01   -1.18   -0.01   -1.18  -37.32   65.71
    2.95  -36.97   63.94   -0.01   -1.30   -0.01   -1.30  -36.97   63.94
    3.01  -36.07   64.31   -0.02   -1.43   -0.02   -1.43  -36.07   64.31
    3.08  -35.27   66.04   -0.02   -1.60   -0.02   -1.60  -35.27   66.04
    3.14  -34.86   66.97   -0.04   -1.46   -0.04   -1.46  -34.86   66.97
    3.20  -34.05   65.79   -0.02   -1.72   -0.02   -1.72  -34.05   65.79
    3.26  -33.38   65.60   -0.02   -1.81   -0.02   -1.81  -33.38   65.60
    3.32  -33.31   65.89   -0.03   -1.72   -0.03   -1.72  -33.31   65.89
    3.38  -32.86   65.79   -0.03   -2.04   -0.03   -2.04  -32.86   65.79
    3.45  -32.42   65.26   -0.04   -1.94   -0.04   -1.94  -32.42   65.26
    3.51  -32.45   65.84   -0.03   -1.94   -0.03   -1.94  -32.45   65.84
    3.57  -31.95   65.75   -0.03   -2.11   -0.03   -2.11  -31.95   65.75
    3.63  -31.62   66.00   -0.04   -2.06   -0.04   -2.06  -31.62   66.00
    3.69  -31.59   64.31   -0.05   -2.34   -0.05   -2.34  -31.59   64.31
    3.76  -31.49   64.78   -0.05   -2.21   -0.05   -2.21  -31.49   64.78
    3.82  -31.06   64.57   -0.05   -2.60   -0.05   -2.60  -31.06   64.57
    3.88  -31.36   63.78   -0.02   -2.56   -0.02   -2.56  -31.36   63.78
    3.94  -31.10   64.14   -0.04   -2.63   -0.04   -2.63  -31.10   64.14
    4.00  -30.42   66.07   -0.05   -2.66   -0.05   -2.66  -30.42   66.07
    4.06  -30.12   66.97   -0.04   -2.81   -0.04   -2.81  -30.12   66.97
    4.13  -30.06   66.15   -0.05   -2.87   -0.05   -2.87  -30.06   66.15
    4.19  -29.78   66.10   -0.03   -3.05   -0.03   -3.05  -29.78   66.10
    4.25  -29.62   66.86   -0.06   -2.93   -0.06   -2.93  -29.62   66.86
    4.31  -29.50   67.15   -0.05   -3.05   -0.05   -3.05  -29.50   67.15
    4.37  -29.12   68.15   -0.06   -3.29   -0.06   -3.29  -29.12   68.15
    4.43  -29.03   67.87   -0.06   -3.40   -0.06   -3.40  -29.03   67.87
    4.50  -28.75   67.68   -0.07   -3.48   -0.07   -3.48  -28.75   67.68
    4.56  -28.34   68.99   -0.06   -3.64   -0.06   -3.64  -28.34   68.99
    4.62  -28.15   68.83   -0.08   -3.62   -0.08   -3.62  -28.15   68.83
    4.68  -27.79   68.49   -0.07   -3.89   -0.07   -3.89  -27.79   68.49
    4.74  -27.43   68.30   -0.07   -4.08   -0.07   -4.08  -27.43   68.30
    4.80  -27.15   68.80   -0.09   -4.29   -0.09   -4.29  -27.15   68.80
    4.87  -26.66   68.34   -0.09   -4.19   -0.09   -4.19  -26.66   68.34
    4.93  -26.22   69.33   -0.10   -4.55   -0.10   -4.55  -26.22   69.33
    4.99  -25.67   68.34   -0.10   -4.91   -0.10   -4.91  -25.67   68.34
    5.05  -24.99   68.69   -0.11   -5.22   -0.11   -5.22  -24.99   68.69
    5.11  -24.30   67.40   -0.12   -5.48   -0.12   -5.48  -24.30   67.40
    5.18  -23.59   66.35   -0.15   -5.87   -0.15   -5.87  -23.59   66.35
    5.24  -22.63   65.67   -0.18   -6.18   -0.18   -6.18  -22.63   65.67
    5.30  -21.49   64.13   -0.21   -6.87   -0.21   -6.87  -21.49   64.13
    5.36  -20.21   60.38   -0.28   -7.59   -0.28   -7.59  -20.21   60.38
    5.42  -18.75   55.92   -0.41   -8.56   -0.41   -8.56  -18.75   55.92
    5.48  -16.58   47.98   -0.70   -9.66   -0.70   -9.66  -16.58   47.98
    5.55  -14.48   31.96   -1.23  -10.49   -1.23  -10.49  -14.48   31.96
    5.61  -13.07    4.61   -2.10   -6.49   -2.10   -6.49  -13.07    4.61
    5.67  -14.25  -26.31   -1.84    1.79   -1.84    1.79  -14.25  -26.31
    5.73  -17.17  -47.58   -1.01    3.39   -1.01    3.39  -17.17  -47.58
    5.79  -20.39  -58.06   -0.57    2.09   -0.57    2.09  -20.39  -58.06
    5.85  -23.26  -62.30   -0.37    1.20   -0.37    1.20  -23.26  -62.30
    5.92  -25.91  -63.84   -0.29    0.25   -0.29    0.25  -25.91  -63.84
    5.98  -28.26  -61.54   -0.23   -0.38   -0.23   -0.38  -28.26  -61.54
    6.04  -30.50  -56.50   -0.21   -0.91   -0.21   -0.91  -30.50  -56.50
    6.10  -32.82  -50.06   -0.18   -1.40   -0.18   -1.40  -32.82  -50.06
    6.16  -34.73  -40.36   -0.17   -1.68   -0.17   -1.68  -34.73  -40.36
    6.23  -35.88  -24.84   -0.15   -2.00   -0.15   -2.00  -35.88  -24.84
    6.29  -36.78   -8.59   -0.13   -2.17   -0.13   -2.17  -36.78   -8.59
    6.35  -36.62    7.20   -0.14   -2.41   -0.14   -2.41  -36.62    7.20
    6.41  -35.93   19.30   -0.16   -2.78   -0.16   -2.78  -35.93   19.30
    6.47  -34.51   30.85   -0.12   -2.96   -0.12   -2.96  -34.51   30.85
    6.53  -33.50   37.56   -0.14   -3.10   -0.14   -3.10  -33.50   37.56
    6.60  -32.12   41.81   -0.15   -3.16   -0.15   -3.16  -32.12   41.81
    6.66  -30.96   44.43   -0.14   -3.47   -0.14   -3.47  -30.96   44.43
    6.72  -29.93   46.21   -0.14   -3.58   -0.14   -3.58  -29.93   46.21
    6.78  -29.17   46.76   -0.16   -3.59   -0.16   -3.59  -29.17   46.76
    6.84  -28.47   46.98   -0.17   -3.83   -0.17   -3.83  -28.47   46.98
    6.90  -27.63   47.42   -0.17   -3.90   -0.17   -3.90  -27.63   47.42
    6.97  -26.95   48.56   -0.17   -4.12   -0.17   -4.12  -26.95   48.56
    7.03  -26.61   47.22   -0.19   -4.00   -0.19   -4.00  -26.61   47.22
    7.09  -26.03   48.66   -0.20   -4.21   -0.20   -4.21  -26.03   48.66
    7.15  -25.41   48.27   -0.20   -4.29   -0.20   -4.29  -25.41   48.27
    7.21  -24.80   47.92   -0.21   -4.32   -0.21   -4.32  -24.80   47.92
    7.27  -24.43   47.34   -0.21   -4.54   -0.21   -4.54  -24.43   47.34
    7.34  -24.07   47.28   -0.23   -4.67   -0.23   -4.67  -24.07   47.28
    7.40  -23.46   46.29   -0.23   -4.62   -0.23   -4.62  -23.46   46.29
    7.46  -23.31   47.19   -0.25   -4.73   -0.25   -4.73  -23.31   47.19
    7.52  -23.02   46.01   -0.25   -4.68   -0.25   -4.68  -23.02   46.01
    7.58  -22.48   46.06   -0.27   -4.73   -0.27   -4.73  -22.48   46.06
    7.65  -22.32   46.78   -0.27   -4.78   -0.27   -4.78  -22.32   46.78
    7.71  -22.08   46.89   -0.30   -4.76   -0.30   -4.76  -22.08   46.89
    7.77  -21.70   46.33   -0.24   -4.81   -0.24   -4.81  -21.70   46.33
    7.83  -21.56   47.10   -0.27   -5.10   -0.27   -5.10  -21.56   47.10
    7.89  -21.08   47.97   -0.27   -4.91   -0.27   -4.91  -21.08   47.97
    7.95  -20.93   47.71   -0.29   -4.99   -0.29   -4.99  -20.93   47.71
    8.02  -20.72   47.12   -0.30   -5.06   -0.30   -5.06  -20.72   47.12
    8.08  -20.40   48.59   -0.32   -5.05   -0.32   -5.05  -20.40   48.59
    8.14  -20.16   48.46   -0.31   -5.06   -0.31   -5.06  -20.16   48.46
    8.20  -20.04   49.12   -0.31   -5.32   -0.31   -5.32  -20.04   49.12
    8.26  -19.85   48.70   -0.34   -5.21   -0.34   -5.21  -19.85   48.70
    8.32  -19.59   49.98   -0.34   -5.37   -0.34   -5.37  -19.59   49.98
    8.39  -19.29   50.75   -0.32   -5.30   -0.32   -5.30  -19.29   50.75
    8.45  -19.25   51.64   -0.32   -5.45   -0.32   -5.45  -19.25   51.64
    8.51  -18.82   51.25   -0.32   -5.52   -0.32   -5.52  -18.82   51.25
    8.57  -18.56   52.24   -0.31   -5.56   -0.31   -5.56  -18.56   52.24
    8.63  -18.35   52.42   -0.30   -5.66   -0.30   -5.66  -18.35   52.42
    8.70  -18.15   53.14   -0.32   -5.67   -0.32   -5.67  -18.15   53.14
    8.76  -17.94   52.09   -0.33   -5.76   -0.33   -5.76  -17.94   52.09
    8.82  -17.73   53.29   -0.34   -5.74   -0.34   -5.74  -17.73   53.29
    8.88  -17.52   53.17   -0.33   -5.96   -0.33   -5.96  -17.52   53.17
    8.94  -17.38   52.58   -0.31   -5.88   -0.31   -5.88  -17.38   52.58
    9.00  -17.14   52.38   -0.34   -6.07   -0.34   -6.07  -17.14   52.38
    9.07  -17.03   53.42   -0.36   -6.19   -0.36   -6.19  -17.03   53.42
    9.13  -16.89   53.48   -0.35   -6.10   -0.35   -6.10  -16.89   53.48
    9.19  -16.79   52.96   -0.33   -6.08   -0.33   -6.08  -16.79   52.96
    9.25  -16.51   53.05   -0.33   -6.45   -0.33   -6.45  -16.51   53.05
    9.31  -16.37   53.63   -0.39   -6.28   -0.39   -6.28  -16.37   53.63
    9.37  -16.26   53.23   -0.38   -6.51   -0.38   -6.51  -16.26   53.23
    9.44  -16.18   53.53   -0.38   -6.47   -0.38   -6.47  -16.18   53.53
    9.50  -15.92   53.08   -0.41   -6.74   -0.41   -6.74  -15.92   53.08
    9.56  -15.69   53.53   -0.41   -6.80   -0.41   -6.80  -15.69   53.53
    9.62  -15.62   53.31   -0.44   -6.80   -0.44   -6.80  -15.62   53.31
    9.68  -15.36   52.22   -0.45   -7.13   -0.45   -7.13  -15.36   52.22
    9.74  -15.15   52.17   -0.49   -7.41   -0.49   -7.41  -15.15   52.17
    9.81  -14.81   52.19   -0.50   -7.54   -0.50   -7.54  -14.81   52.19
    9.87  -14.59   50.10   -0.59   -7.94   -0.59   -7.94  -14.59   50.10
    9.93  -14.29   48.83   -0.62   -8.03   -0.62   -8.03  -14.29   48.83
    9.99  -13.93   45.45   -0.76   -8.34   -0.76   -8.34  -13.93   45.45
   10.05  -13.65   41.66   -0.91   -8.17   -0.91   -8.17  -13.65   41.66
   10.12  -13.67   34.71   -1.13   -7.61   -1.13   -7.61  -13.67   34.71
   10.18  -14.01   27.16   -1.27   -6.39   -1.27   -6.39  -14.01   27.16
   10.24  -15.08   20.05   -1.30   -3.85   -1.30   -3.85  -15.08   20.05
   10.30  -16.81   17.47   -1.11   -2.11   -1.11   -2.11  -16.81   17.47
   10.36  -18.55   20.42   -0.90   -1.57   -0.90   -1.57  -18.55   20.42
   10.42  -19.65   27.97   -0.70   -1.55   -0.70   -1.55  -19.65   27.97
   10.49  -20.00   35.80   -0.57   -1.97   -0.57   -1.97  -20.00   35.80
   10.55  -20.03   42.98   -0.47   -2.25   -0.47   -2.25  -20.03   42.98
   10.61  -19.86   47.21   -0.41   -2.69   -0.41   -2.69  -19.86   47.21
   10.67  -19.56   51.02   -0.37   -2.99   -0.37   -2.99  -19.56   51.02
   10.73  -19.38   53.36   -0.34   -3.10   -0.34   -3.10  -19.38   53.36
   10.79  -19.04   55.57   -0.33   -3.59   -0.33   -3.59  -19.04   55.57
   10.86  -18.78   56.41   -0.31   -3.80   -0.31   -3.80  -18.78   56.41
   10.92  -18.68   57.69   -0.30   -3.95   -0.30   -3.95  -18.68   57.69
   10.98  -18.48   58.63   -0.28   -4.18   -0.28   -4.18  -18.48   58.63
   11.04  -18.20   59.03   -0.25   -4.27   -0.25   -4.27  -18.20   59.03
   11.10  -18.26   59.38   -0.26   -4.48   -0.26   -4.48  -18.26   59.38
   11.17  -18.09   60.07   -0.24   -4.78   -0.24   -4.78  -18.09   60.07
   11.23  -17.92   60.35   -0.32   -4.79   -0.32   -4.79  -17.92   60.35
   11.29  -17.93   61.06   -0.24   -4.89   -0.24   -4.89  -17.93   61.06
   11.35  -17.87   60.33   -0.25   -4.99   -0.25   -4.99  -17.87   60.33
   11.41  -17.71   60.84   -0.24   -5.15   -0.24   -5.15  -17.71   60.84
   11.47  -17.71   61.47   -0.26   -5.14   -0.26   -5.14  -17.71   61.47
   11.54  -17.62   60.99   -0.24   -5.38   -0.24   -5.38  -17.62   60.99
   11.60  -17.59   60.80   -0.25   -5.49   -0.25   -5.49  -17.59   60.80
   11.66  -17.53   61.31   -0.25   -5.56   -0.25   -5.56  -17.53   61.31
   11.72  -17.45   60.79   -0.24   -5.26   -0.24   -5.26  -17.45   60.79
   11.78  -17.43   60.75   -0.22   -5.82   -0.22   -5.82  -17.43   60.75
   11.84  -17.42   60.83   -0.25   -5.98   -0.25   -5.98  -17.42   60.83
   11.91  -17.37   60.52   -0.23   -5.80   -0.23   -5.80  -17.37   60.52
   11.97  -17.23   60.64   -0.24   -6.25   -0.24   -6.25  -17.23   60.64
   12.03  -17.29   60.49   -0.27   -6.20   -0.27   -6.20  -17.29   60.49
   12.09  -17.21   59.49   -0.23   -6.43   -0.23   -6.43  -17.21   59.49
   12.15  -17.07   59.38   -0.24   -6.50   -0.24   -6.50  -17.07   59.38
   12.21  -16.97   58.99   -0.27   -6.49   -0.27   -6.49  -16.97   58.99
   12.28  -17.04   58.17   -0.25   -6.70   -0.25   -6.70  -17.04   58.17
   12.34  -16.83   57.74   -0.24   -6.78   -0.24   -6.78  -16.83   57.74
   12.40  -16.82   57.38   -0.25   -6.80   -0.25   -6.80  -16.82   57.38
