!  American Technical Ceramics  Date:    3/13/98
!  One Norden Lane
!  Huntington Station,  NY.   11746-2102
!  Tel:  (516) 547-5700               Fax:  (516) 547-5748
!  Part Number  700B1R2B
!  Description: Porcelain, High Q, Low ESR
!  Application: Bypass, Coupling, Timing, Feedback
!               Tuning, Impedance Match, Blocking
# GHZ S DB R 50
! Freq   |S11|   S11 Ph  |S21|   S21 Ph  |S12|   S12 Ph  |S22|   S22 Ph
    0.05    0.01   -1.34  -28.50   86.12  -28.50   86.12    0.01   -1.34
    0.15    0.00   -7.13  -19.41   82.97  -19.41   82.97    0.00   -7.13
    0.25   -0.11  -11.69  -15.07   78.60  -15.07   78.60   -0.11  -11.69
    0.35   -0.22  -16.23  -12.26   74.33  -12.26   74.33   -0.22  -16.23
    0.45   -0.37  -20.75  -10.26   70.10  -10.26   70.10   -0.37  -20.75
    0.55   -0.69  -25.41   -8.60   65.14   -8.60   65.14   -0.69  -25.41
    0.65   -0.93  -29.60   -7.40   61.46   -7.40   61.46   -0.93  -29.60
    0.75   -1.17  -33.37   -6.43   57.61   -6.43   57.61   -1.17  -33.37
    0.85   -1.48  -37.24   -5.64   54.26   -5.64   54.26   -1.48  -37.24
    0.95   -1.72  -40.57   -5.01   51.17   -5.01   51.17   -1.72  -40.57
    1.05   -1.98  -43.81   -4.51   48.05   -4.51   48.05   -1.98  -43.81
    1.15   -2.24  -46.93   -4.02   45.36   -4.02   45.36   -2.24  -46.93
    1.25   -2.55  -49.59   -3.59   42.74   -3.59   42.74   -2.55  -49.59
    1.35   -2.86  -52.40   -3.30   40.33   -3.30   40.33   -2.86  -52.40
    1.45   -3.11  -54.92   -3.05   37.97   -3.05   37.97   -3.11  -54.92
    1.55   -3.34  -57.46   -2.82   35.88   -2.82   35.88   -3.34  -57.46
    1.65   -3.60  -59.82   -2.59   33.68   -2.59   33.68   -3.60  -59.82
    1.75   -3.83  -61.99   -2.36   32.05   -2.36   32.05   -3.83  -61.99
    1.85   -4.12  -64.18   -2.22   30.40   -2.22   30.40   -4.12  -64.18
    1.95   -4.36  -65.93   -2.11   28.56   -2.11   28.56   -4.36  -65.93
    2.05   -4.56  -67.66   -2.02   26.93   -2.02   26.93   -4.56  -67.66
    2.14   -4.72  -69.51   -1.87   25.34   -1.87   25.34   -4.72  -69.51
    2.24   -4.94  -71.42   -1.71   24.17   -1.71   24.17   -4.94  -71.42
    2.34   -5.17  -73.34   -1.64   22.69   -1.64   22.69   -5.17  -73.34
    2.44   -5.36  -75.00   -1.58   21.63   -1.58   21.63   -5.36  -75.00
    2.54   -5.54  -76.20   -1.55   20.40   -1.55   20.40   -5.54  -76.20
    2.64   -5.67  -76.80   -1.44   19.16   -1.44   19.16   -5.67  -76.80
    2.74   -5.86  -78.39   -1.36   18.11   -1.36   18.11   -5.86  -78.39
    2.84   -6.13  -80.13   -1.35   16.78   -1.35   16.78   -6.13  -80.13
    2.94   -6.21  -81.95   -1.29   15.94   -1.29   15.94   -6.21  -81.95
    3.04   -6.30  -82.39   -1.30   14.82   -1.30   14.82   -6.30  -82.39
    3.14   -6.46  -83.73   -1.22   13.79   -1.22   13.79   -6.46  -83.73
    3.24   -6.56  -84.61   -1.21   13.15   -1.21   13.15   -6.56  -84.61
    3.34   -6.86  -86.55   -1.17   11.68   -1.17   11.68   -6.86  -86.55
    3.44   -6.85  -87.98   -1.16   11.30   -1.16   11.30   -6.85  -87.98
    3.54   -6.96  -88.30   -1.16   10.22   -1.16   10.22   -6.96  -88.30
    3.64   -6.95  -89.30   -1.08    9.51   -1.08    9.51   -6.95  -89.30
    3.74   -7.16  -89.57   -1.11    8.74   -1.11    8.74   -7.16  -89.57
    3.84   -7.36  -91.87   -1.07    7.83   -1.07    7.83   -7.36  -91.87
    3.94   -7.38  -92.61   -1.09    7.05   -1.09    7.05   -7.38  -92.61
    4.04   -7.45  -94.03   -1.04    6.52   -1.04    6.52   -7.45  -94.03
    4.14   -7.46  -94.78   -1.00    5.93   -1.00    5.93   -7.46  -94.78
    4.24   -7.60  -95.00   -1.00    5.48   -1.00    5.48   -7.60  -95.00
    4.34   -7.79  -97.03   -0.96    4.69   -0.96    4.69   -7.79  -97.03
    4.44   -7.86  -97.83   -0.98    4.24   -0.98    4.24   -7.86  -97.83
    4.54   -7.98  -98.39   -0.98    3.28   -0.98    3.28   -7.98  -98.39
    4.64   -8.02  -98.86   -0.91    2.72   -0.91    2.72   -8.02  -98.86
    4.74   -8.10  -98.23   -0.90    2.67   -0.90    2.67   -8.10  -98.23
    4.84   -8.33  -99.78   -0.92    1.98   -0.92    1.98   -8.33  -99.78
    4.94   -8.36 -100.13   -0.92    1.46   -0.92    1.46   -8.36 -100.13
    5.04   -8.62 -100.97   -0.92    0.53   -0.92    0.53   -8.62 -100.97
    5.14   -8.58 -101.62   -0.88    0.15   -0.88    0.15   -8.58 -101.62
    5.24   -8.79 -101.68   -0.83   -0.03   -0.83   -0.03   -8.79 -101.68
    5.34   -8.87 -102.46   -0.82   -0.38   -0.82   -0.38   -8.87 -102.46
    5.44   -9.21 -102.49   -0.86   -1.14   -0.86   -1.14   -9.21 -102.49
    5.54   -9.25 -103.73   -0.85   -1.92   -0.85   -1.92   -9.25 -103.73
    5.64   -9.40 -103.31   -0.82   -2.31   -0.82   -2.31   -9.40 -103.31
    5.74   -9.43 -104.40   -0.78   -2.51   -0.78   -2.51   -9.43 -104.40
    5.84   -9.71 -103.97   -0.77   -2.80   -0.77   -2.80   -9.71 -103.97
    5.94   -9.94 -105.82   -0.78   -3.56   -0.78   -3.56   -9.94 -105.82
    6.04  -10.13 -106.18   -0.76   -4.12   -0.76   -4.12  -10.13 -106.18
    6.13  -10.18 -106.74   -0.73   -4.63   -0.73   -4.63  -10.18 -106.74
    6.23  -10.44 -106.78   -0.75   -4.97   -0.75   -4.97  -10.44 -106.78
    6.33  -10.64 -107.51   -0.70   -5.48   -0.70   -5.48  -10.64 -107.51
    6.43  -10.99 -108.26   -0.71   -5.61   -0.71   -5.61  -10.99 -108.26
    6.53  -11.17 -109.35   -0.71   -6.73   -0.71   -6.73  -11.17 -109.35
    6.63  -11.51 -109.26   -0.71   -7.05   -0.71   -7.05  -11.51 -109.26
    6.73  -11.72 -109.29   -0.69   -7.75   -0.69   -7.75  -11.72 -109.29
    6.83  -12.18 -109.16   -0.73   -7.97   -0.73   -7.97  -12.18 -109.16
    6.93  -12.30 -109.35   -0.75   -8.47   -0.75   -8.47  -12.30 -109.35
    7.03  -12.51 -109.35   -0.77   -8.93   -0.77   -8.93  -12.51 -109.35
    7.13  -12.58 -108.87   -0.79   -9.29   -0.79   -9.29  -12.58 -108.87
    7.23  -12.86 -108.99   -0.76   -9.84   -0.76   -9.84  -12.86 -108.99
    7.33  -13.04 -108.38   -0.79  -10.09   -0.79  -10.09  -13.04 -108.38
    7.43  -13.27 -108.69   -0.84  -10.33   -0.84  -10.33  -13.27 -108.69
    7.53  -13.23 -108.19   -0.85  -10.68   -0.85  -10.68  -13.23 -108.19
    7.63  -13.29 -109.21   -0.86  -10.77   -0.86  -10.77  -13.29 -109.21
    7.73  -13.19 -109.47   -0.82  -11.42   -0.82  -11.42  -13.19 -109.47
    7.83  -13.52 -111.36   -0.78  -11.17   -0.78  -11.17  -13.52 -111.36
    7.93  -13.68 -112.89   -0.76  -11.80   -0.76  -11.80  -13.68 -112.89
    8.03  -14.03 -113.55   -0.73  -12.24   -0.73  -12.24  -14.03 -113.55
    8.13  -14.01 -113.96   -0.75  -12.71   -0.75  -12.71  -14.01 -113.96
    8.23  -14.25 -114.44   -0.73  -13.26   -0.73  -13.26  -14.25 -114.44
    8.33  -14.44 -115.44   -0.72  -13.67   -0.72  -13.67  -14.44 -115.44
    8.43  -14.72 -118.16   -0.68  -14.16   -0.68  -14.16  -14.72 -118.16
    8.53  -14.90 -118.95   -0.69  -14.41   -0.69  -14.41  -14.90 -118.95
    8.63  -15.17 -119.92   -0.70  -15.18   -0.70  -15.18  -15.17 -119.92
    8.73  -15.35 -120.93   -0.67  -15.80   -0.67  -15.80  -15.35 -120.93
    8.83  -15.69 -122.72   -0.67  -16.20   -0.67  -16.20  -15.69 -122.72
    8.93  -16.09 -124.92   -0.63  -16.82   -0.63  -16.82  -16.09 -124.92
    9.03  -16.35 -126.69   -0.66  -17.70   -0.66  -17.70  -16.35 -126.69
    9.13  -16.58 -127.20   -0.66  -17.93   -0.66  -17.93  -16.58 -127.20
    9.23  -16.88 -129.76   -0.66  -18.38   -0.66  -18.38  -16.88 -129.76
    9.33  -17.28 -131.29   -0.65  -19.31   -0.65  -19.31  -17.28 -131.29
    9.43  -17.70 -134.91   -0.68  -19.84   -0.68  -19.84  -17.70 -134.91
    9.53  -18.01 -137.47   -0.68  -20.31   -0.68  -20.31  -18.01 -137.47
    9.63  -18.52 -140.07   -0.68  -20.98   -0.68  -20.98  -18.52 -140.07
    9.73  -18.84 -143.32   -0.68  -21.34   -0.68  -21.34  -18.84 -143.32
    9.83  -19.36 -146.78   -0.70  -22.18   -0.70  -22.18  -19.36 -146.78
    9.93  -20.12 -151.13   -0.69  -22.50   -0.69  -22.50  -20.12 -151.13
   10.03  -20.60 -156.42   -0.65  -23.37   -0.65  -23.37  -20.60 -156.42
   10.12  -21.29 -161.07   -0.65  -23.98   -0.65  -23.98  -21.29 -161.07
   10.22  -21.90 -166.82   -0.72  -24.81   -0.72  -24.81  -21.90 -166.82
   10.32  -22.42 -172.60   -0.74  -25.13   -0.74  -25.13  -22.42 -172.60
   10.42  -23.29  177.98   -0.75  -25.92   -0.75  -25.92  -23.29  177.98
   10.52  -23.74  168.36   -0.83  -26.99   -0.83  -26.99  -23.74  168.36
   10.62  -24.05  157.05   -0.85  -27.65   -0.85  -27.65  -24.05  157.05
   10.72  -24.05  142.95   -0.93  -28.02   -0.93  -28.02  -24.05  142.95
   10.82  -23.83  128.55   -0.99  -28.44   -0.99  -28.44  -23.83  128.55
   10.92  -23.49  114.49   -1.02  -28.84   -1.02  -28.84  -23.49  114.49
   11.02  -22.57  102.00   -1.06  -29.28   -1.06  -29.28  -22.57  102.00
   11.12  -21.52   90.73   -1.07  -29.69   -1.07  -29.69  -21.52   90.73
   11.22  -20.29   81.72   -1.11  -30.01   -1.11  -30.01  -20.29   81.72
   11.32  -19.47   72.83   -1.13  -30.57   -1.13  -30.57  -19.47   72.83
   11.42  -18.45   65.71   -1.15  -31.04   -1.15  -31.04  -18.45   65.71
   11.52  -17.80   58.14   -1.21  -31.41   -1.21  -31.41  -17.80   58.14
   11.62  -17.19   55.04   -1.20  -31.86   -1.20  -31.86  -17.19   55.04
   11.72  -16.47   50.96   -1.23  -31.99   -1.23  -31.99  -16.47   50.96
   11.82  -15.83   48.29   -1.28  -33.12   -1.28  -33.12  -15.83   48.29
   11.92  -15.37   44.13   -1.23  -33.53   -1.23  -33.53  -15.37   44.13
   12.02  -14.69   41.83   -1.28  -34.08   -1.28  -34.08  -14.69   41.83
   12.12  -14.13   39.52   -1.28  -34.57   -1.28  -34.57  -14.13   39.52
   12.22  -13.57   38.23   -1.30  -35.08   -1.30  -35.08  -13.57   38.23
   12.32  -13.07   35.75   -1.33  -35.98   -1.33  -35.98  -13.07   35.75
   12.42  -12.81   33.93   -1.35  -36.86   -1.35  -36.86  -12.81   33.93
   12.52  -12.25   31.05   -1.38  -37.30   -1.38  -37.30  -12.25   31.05
   12.62  -11.79   30.75   -1.48  -38.05   -1.48  -38.05  -11.79   30.75
   12.72  -11.24   28.51   -1.48  -38.48   -1.48  -38.48  -11.24   28.51
   12.82  -10.98   27.72   -1.58  -39.33   -1.58  -39.33  -10.98   27.72
   12.92  -10.68   24.00   -1.60  -40.14   -1.60  -40.14  -10.68   24.00
   13.02  -10.42   23.10   -1.63  -40.82   -1.63  -40.82  -10.42   23.10
   13.12  -10.08   21.25   -1.67  -41.31   -1.67  -41.31  -10.08   21.25
   13.22   -9.92   21.77   -1.78  -42.16   -1.78  -42.16   -9.92   21.77
   13.32   -9.58   19.65   -1.84  -42.89   -1.84  -42.89   -9.58   19.65
   13.42   -9.53   18.62   -1.93  -43.88   -1.93  -43.88   -9.53   18.62
   13.52   -9.17   15.63   -1.89  -44.65   -1.89  -44.65   -9.17   15.63
   13.62   -9.04   17.65   -2.03  -44.53   -2.03  -44.53   -9.04   17.65
   13.72   -8.66   15.34   -2.15  -45.92   -2.15  -45.92   -8.66   15.34
   13.82   -8.52   15.88   -2.18  -46.12   -2.18  -46.12   -8.52   15.88
   13.92   -8.52   13.72   -2.30  -47.37   -2.30  -47.37   -8.52   13.72
   14.02   -8.38   12.48   -2.33  -48.40   -2.33  -48.40   -8.38   12.48
   14.11   -8.18   11.57   -2.39  -48.75   -2.39  -48.75   -8.18   11.57
   14.21   -7.84   12.46   -2.43  -49.46   -2.43  -49.46   -7.84   12.46
   14.31   -7.70   13.20   -2.55  -50.17   -2.55  -50.17   -7.70   13.20
   14.41   -7.68   11.28   -2.67  -51.23   -2.67  -51.23   -7.68   11.28
   14.51   -7.60   10.81   -2.71  -51.81   -2.71  -51.81   -7.60   10.81
   14.61   -7.47   10.18   -2.89  -53.11   -2.89  -53.11   -7.47   10.18
   14.71   -7.11    9.91   -2.94  -54.10   -2.94  -54.10   -7.11    9.91
   14.81   -6.82   10.29   -3.06  -54.68   -3.06  -54.68   -6.82   10.29
   14.91   -6.66   10.06   -3.15  -55.40   -3.15  -55.40   -6.66   10.06
   15.01   -6.60    8.87   -3.35  -55.58   -3.35  -55.58   -6.60    8.87
   15.11   -6.44    8.38   -3.51  -56.18   -3.51  -56.18   -6.44    8.38
   15.21   -6.23    7.06   -3.63  -56.86   -3.63  -56.86   -6.23    7.06
   15.31   -5.84    6.89   -3.61  -57.26   -3.61  -57.26   -5.84    6.89
   15.41   -5.78    5.45   -3.73  -57.69   -3.73  -57.69   -5.78    5.45
   15.51   -5.66    4.08   -3.75  -58.48   -3.75  -58.48   -5.66    4.08
   15.61   -5.62    2.45   -3.92  -58.79   -3.92  -58.79   -5.62    2.45
   15.71   -5.36    1.90   -4.03  -59.81   -4.03  -59.81   -5.36    1.90
   15.81   -5.23    0.71   -4.09  -60.95   -4.09  -60.95   -5.23    0.71
   15.91   -5.02   -0.45   -4.14  -61.53   -4.14  -61.53   -5.02   -0.45
   16.01   -5.08   -2.82   -4.34  -62.31   -4.34  -62.31   -5.08   -2.82
   16.11   -4.87   -3.37   -4.39  -63.21   -4.39  -63.21   -4.87   -3.37
   16.21   -4.79   -4.15   -4.58  -63.64   -4.58  -63.64   -4.79   -4.15
   16.31   -4.54   -5.30   -4.69  -65.03   -4.69  -65.03   -4.54   -5.30
   16.41   -4.42   -6.57   -4.75  -66.06   -4.75  -66.06   -4.42   -6.57
   16.51   -4.30   -8.23   -4.87  -66.94   -4.87  -66.94   -4.30   -8.23
   16.61   -4.19   -9.29   -5.09  -67.94   -5.09  -67.94   -4.19   -9.29
   16.71   -4.07   -9.81   -5.20  -68.40   -5.20  -68.40   -4.07   -9.81
   16.81   -3.88  -10.82   -5.56  -69.74   -5.56  -69.74   -3.88  -10.82
   16.91   -3.78  -12.38   -5.63  -71.09   -5.63  -71.09   -3.78  -12.38
   17.01   -3.62  -12.28   -6.05  -71.42   -6.05  -71.42   -3.62  -12.28
   17.11   -3.52  -14.17   -6.09  -71.88   -6.09  -71.88   -3.52  -14.17
   17.21   -3.26  -14.10   -6.43  -71.20   -6.43  -71.20   -3.26  -14.10
   17.31   -3.11  -16.38   -6.53  -72.05   -6.53  -72.05   -3.11  -16.38
   17.41   -3.00  -17.03   -6.70  -72.77   -6.70  -72.77   -3.00  -17.03
   17.51   -2.91  -19.43   -6.83  -73.01   -6.83  -73.01   -2.91  -19.43
   17.61   -2.84  -19.18   -7.03  -72.74   -7.03  -72.74   -2.84  -19.18
   17.71   -2.82  -22.70   -6.95  -73.63   -6.95  -73.63   -2.82  -22.70
   17.81   -2.67  -22.93   -7.11  -74.78   -7.11  -74.78   -2.67  -22.93
   17.91   -3.02  -24.64   -7.28  -76.82   -7.28  -76.82   -3.02  -24.64
   18.01   -2.92  -27.08   -7.28  -78.48   -7.28  -78.48   -2.92  -27.08
   18.10   -3.26  -26.86   -7.64  -79.73   -7.64  -79.73   -3.26  -26.86
   18.20   -2.88  -29.23   -7.49  -79.90   -7.49  -79.90   -2.88  -29.23
   18.30   -3.17  -30.94   -7.48  -82.78   -7.48  -82.78   -3.17  -30.94
   18.40   -3.70  -33.94   -7.43  -87.54   -7.43  -87.54   -3.70  -33.94
   18.50   -4.68  -34.72   -7.43  -95.17   -7.43  -95.17   -4.68  -34.72
   18.60   -5.49  -28.42   -8.24 -105.60   -8.24 -105.60   -5.49  -28.42
   18.70   -4.82  -20.90  -10.07 -112.74  -10.07 -112.74   -4.82  -20.90
   18.80   -3.80  -20.66  -12.07 -112.61  -12.07 -112.61   -3.80  -20.66
   18.90   -3.51  -24.04  -13.45 -110.56  -13.45 -110.56   -3.51  -24.04
   19.00   -3.61  -28.38  -14.50 -109.15  -14.50 -109.15   -3.61  -28.38
   19.10   -4.04  -27.76  -15.97 -107.23  -15.97 -107.23   -4.04  -27.76
   19.20   -4.10  -24.61  -17.18 -101.03  -17.18 -101.03   -4.10  -24.61
   19.30   -3.36  -23.43  -17.48  -94.25  -17.48  -94.25   -3.36  -23.43
   19.40   -3.03  -24.78  -17.56  -92.94  -17.56  -92.94   -3.03  -24.78
   19.50   -2.66  -28.63  -17.80  -95.62  -17.80  -95.62   -2.66  -28.63
   19.60   -2.53  -29.81  -18.43  -98.38  -18.43  -98.38   -2.53  -29.81
   19.70   -2.39  -34.48  -19.34 -104.08  -19.34 -104.08   -2.39  -34.48
   19.80   -2.19  -35.61  -20.52 -110.97  -20.52 -110.97   -2.19  -35.61
   19.90   -2.26  -40.02  -22.12 -121.08  -22.12 -121.08   -2.26  -40.02
   20.00   -2.36  -43.40  -23.85 -136.68  -23.85 -136.68   -2.36  -43.40
