!  American Technical Ceramics  Date:    3/13/98
!  One Norden Lane
!  Huntington Station,  NY.   11746-2102
!  Tel:  (516) 547-5700               Fax:  (516) 547-5748
!  Part Number  700B470F
!  Description: Porcelain, High Q, Low ESR
!  Application: Bypass, Coupling, Timing, Feedback
!               Tuning, Impedance Match, Blocking
# GHZ S DB R 50
! Freq   |S11|   S11 Ph  |S21|   S21 Ph  |S12|   S12 Ph  |S22|   S22 Ph
    0.05   -4.88  -55.60   -1.69   34.58   -1.69   34.58   -4.88  -55.60
    0.09   -8.75  -69.35   -0.62   20.86   -0.62   20.86   -8.75  -69.35
    0.13  -11.58  -75.50   -0.39   14.55   -0.39   14.55  -11.58  -75.50
    0.17  -13.73  -79.46   -0.20   11.06   -0.20   11.06  -13.73  -79.46
    0.21  -15.39  -81.75   -0.13    8.83   -0.13    8.83  -15.39  -81.75
    0.25  -16.67  -83.13   -0.08    7.31   -0.08    7.31  -16.67  -83.13
    0.29  -17.72  -85.03   -0.07    6.18   -0.07    6.18  -17.72  -85.03
    0.33  -18.57  -85.72   -0.05    5.25   -0.05    5.25  -18.57  -85.72
    0.37  -19.33  -86.87   -0.04    4.28   -0.04    4.28  -19.33  -86.87
    0.41  -19.96  -87.68   -0.04    3.92   -0.04    3.92  -19.96  -87.68
    0.45  -20.48  -88.28   -0.03    3.31   -0.03    3.31  -20.48  -88.28
    0.49  -20.89  -88.96   -0.03    2.94   -0.03    2.94  -20.89  -88.96
    0.53  -21.37  -89.73   -0.06    2.36   -0.06    2.36  -21.37  -89.73
    0.57  -21.62  -90.31   -0.04    1.99   -0.04    1.99  -21.62  -90.31
    0.61  -21.85  -90.66   -0.04    1.66   -0.04    1.66  -21.85  -90.66
    0.65  -21.98  -91.23   -0.03    1.40   -0.03    1.40  -21.98  -91.23
    0.69  -22.13  -91.77   -0.05    1.18   -0.05    1.18  -22.13  -91.77
    0.73  -22.24  -92.09   -0.04    0.80   -0.04    0.80  -22.24  -92.09
    0.77  -22.28  -92.74   -0.03    0.53   -0.03    0.53  -22.28  -92.74
    0.81  -22.33  -93.11   -0.03    0.43   -0.03    0.43  -22.33  -93.11
    0.85  -22.39  -93.57   -0.04    0.31   -0.04    0.31  -22.39  -93.57
    0.88  -22.37  -94.12   -0.05    0.03   -0.05    0.03  -22.37  -94.12
    0.92  -22.37  -94.42   -0.04   -0.08   -0.04   -0.08  -22.37  -94.42
    0.96  -22.29  -95.10   -0.04   -0.28   -0.04   -0.28  -22.29  -95.10
    1.00  -22.28  -95.50   -0.05   -0.43   -0.05   -0.43  -22.28  -95.50
    1.04  -22.21  -95.73   -0.05   -0.64   -0.05   -0.64  -22.21  -95.73
    1.08  -22.13  -96.58   -0.05   -0.80   -0.05   -0.80  -22.13  -96.58
    1.12  -22.05  -96.82   -0.04   -0.96   -0.04   -0.96  -22.05  -96.82
    1.16  -21.95  -97.14   -0.03   -1.05   -0.03   -1.05  -21.95  -97.14
    1.20  -21.89  -97.33   -0.06   -1.20   -0.06   -1.20  -21.89  -97.33
    1.24  -21.84  -97.53   -0.04   -1.32   -0.04   -1.32  -21.84  -97.53
    1.28  -21.71  -98.03   -0.06   -1.56   -0.06   -1.56  -21.71  -98.03
    1.32  -21.58  -98.38   -0.06   -1.58   -0.06   -1.58  -21.58  -98.38
    1.36  -21.51  -98.96   -0.07   -1.76   -0.07   -1.76  -21.51  -98.96
    1.40  -21.37  -99.02   -0.05   -1.83   -0.05   -1.83  -21.37  -99.02
    1.44  -21.30  -99.89   -0.07   -2.02   -0.07   -2.02  -21.30  -99.89
    1.48  -21.15  -99.85   -0.06   -2.06   -0.06   -2.06  -21.15  -99.85
    1.52  -21.08 -100.46   -0.06   -2.25   -0.06   -2.25  -21.08 -100.46
    1.56  -20.90 -100.60   -0.06   -2.52   -0.06   -2.52  -20.90 -100.60
    1.60  -20.88 -101.32   -0.08   -2.52   -0.08   -2.52  -20.88 -101.32
    1.64  -20.68 -101.29   -0.06   -2.72   -0.06   -2.72  -20.68 -101.29
    1.68  -20.66 -102.07   -0.09   -2.73   -0.09   -2.73  -20.66 -102.07
    1.72  -20.46 -101.88   -0.05   -2.86   -0.05   -2.86  -20.46 -101.88
    1.76  -20.41 -102.33   -0.06   -2.84   -0.06   -2.84  -20.41 -102.33
    1.80  -20.25 -102.43   -0.08   -3.25   -0.08   -3.25  -20.25 -102.43
    1.84  -20.09 -102.74   -0.09   -3.23   -0.09   -3.23  -20.09 -102.74
    1.88  -20.01 -102.89   -0.08   -3.40   -0.08   -3.40  -20.01 -102.89
    1.92  -19.92 -103.41   -0.07   -3.44   -0.07   -3.44  -19.92 -103.41
    1.96  -19.77 -103.43   -0.08   -3.57   -0.08   -3.57  -19.77 -103.43
    2.00  -19.72 -103.98   -0.07   -3.74   -0.07   -3.74  -19.72 -103.98
    2.04  -19.57 -104.53   -0.10   -3.90   -0.10   -3.90  -19.57 -104.53
    2.08  -19.54 -104.70   -0.07   -3.90   -0.07   -3.90  -19.54 -104.70
    2.12  -19.39 -104.74   -0.11   -4.15   -0.11   -4.15  -19.39 -104.74
    2.16  -19.28 -105.02   -0.08   -4.28   -0.08   -4.28  -19.28 -105.02
    2.20  -19.21 -105.53   -0.10   -4.44   -0.10   -4.44  -19.21 -105.53
    2.24  -19.11 -105.85   -0.08   -4.58   -0.08   -4.58  -19.11 -105.85
    2.28  -19.13 -106.00   -0.10   -4.60   -0.10   -4.60  -19.13 -106.00
    2.32  -18.94 -106.08   -0.09   -4.78   -0.09   -4.78  -18.94 -106.08
    2.36  -18.95 -106.84   -0.09   -4.93   -0.09   -4.93  -18.95 -106.84
    2.40  -18.83 -106.62   -0.08   -5.08   -0.08   -5.08  -18.83 -106.62
    2.44  -18.87 -107.27   -0.12   -5.12   -0.12   -5.12  -18.87 -107.27
    2.47  -18.77 -107.13   -0.10   -5.34   -0.10   -5.34  -18.77 -107.13
    2.51  -18.77 -107.80   -0.12   -5.43   -0.12   -5.43  -18.77 -107.80
    2.55  -18.78 -107.83   -0.10   -5.69   -0.10   -5.69  -18.78 -107.83
    2.59  -18.84 -108.23   -0.13   -5.83   -0.13   -5.83  -18.84 -108.23
    2.63  -18.79 -108.33   -0.12   -6.12   -0.12   -6.12  -18.79 -108.33
    2.67  -18.93 -108.71   -0.11   -6.32   -0.11   -6.32  -18.93 -108.71
    2.71  -19.03 -108.82   -0.13   -6.73   -0.13   -6.73  -19.03 -108.82
    2.75  -19.28 -108.99   -0.12   -6.94   -0.12   -6.94  -19.28 -108.99
    2.79  -19.61 -108.65   -0.13   -7.44   -0.13   -7.44  -19.61 -108.65
    2.83  -20.28 -108.07   -0.14   -8.00   -0.14   -8.00  -20.28 -108.07
    2.87  -21.38 -106.05   -0.19   -8.88   -0.19   -8.88  -21.38 -106.05
    2.91  -23.57  -97.27   -0.26  -10.10   -0.26  -10.10  -23.57  -97.27
    2.95  -25.18  -51.17   -0.53  -12.69   -0.53  -12.69  -25.18  -51.17
    2.99  -15.31  -27.85   -1.65  -14.37   -1.65  -14.37  -15.31  -27.85
    3.03  -10.78  -67.02   -2.12   -1.14   -2.12   -1.14  -10.78  -67.02
    3.07  -11.72  -90.25   -0.87    0.06   -0.87    0.06  -11.72  -90.25
    3.11  -12.81  -98.92   -0.53   -1.64   -0.53   -1.64  -12.81  -98.92
    3.15  -13.42 -102.21   -0.37   -2.65   -0.37   -2.65  -13.42 -102.21
    3.19  -13.89 -104.29   -0.35   -3.47   -0.35   -3.47  -13.89 -104.29
    3.23  -14.03 -105.46   -0.29   -4.05   -0.29   -4.05  -14.03 -105.46
    3.27  -14.30 -106.83   -0.30   -4.27   -0.30   -4.27  -14.30 -106.83
    3.31  -14.37 -107.20   -0.26   -4.83   -0.26   -4.83  -14.37 -107.20
    3.35  -14.47 -107.73   -0.26   -5.06   -0.26   -5.06  -14.47 -107.73
    3.39  -14.41 -108.04   -0.26   -5.37   -0.26   -5.37  -14.41 -108.04
    3.43  -14.53 -108.79   -0.25   -5.48   -0.25   -5.48  -14.53 -108.79
    3.47  -14.52 -108.47   -0.25   -5.68   -0.25   -5.68  -14.52 -108.47
    3.51  -14.57 -108.99   -0.26   -5.82   -0.26   -5.82  -14.57 -108.99
    3.55  -14.47 -109.03   -0.26   -6.15   -0.26   -6.15  -14.47 -109.03
    3.59  -14.45 -109.53   -0.26   -6.10   -0.26   -6.10  -14.45 -109.53
    3.63  -14.41 -109.72   -0.26   -6.14   -0.26   -6.14  -14.41 -109.72
    3.67  -14.42 -110.06   -0.27   -6.44   -0.27   -6.44  -14.42 -110.06
    3.71  -14.41 -109.72   -0.30   -6.61   -0.30   -6.61  -14.41 -109.72
    3.75  -14.30 -110.11   -0.26   -6.67   -0.26   -6.67  -14.30 -110.11
    3.79  -14.29 -110.56   -0.28   -6.87   -0.28   -6.87  -14.29 -110.56
    3.83  -14.24 -110.38   -0.27   -6.90   -0.27   -6.90  -14.24 -110.38
    3.87  -14.19 -110.70   -0.32   -7.03   -0.32   -7.03  -14.19 -110.70
    3.91  -14.10 -110.58   -0.30   -7.27   -0.30   -7.27  -14.10 -110.58
    3.95  -14.04 -111.11   -0.29   -7.28   -0.29   -7.28  -14.04 -111.11
    3.99  -13.97 -111.00   -0.30   -7.44   -0.30   -7.44  -13.97 -111.00
    4.03  -14.27 -112.95   -0.29   -7.58   -0.29   -7.58  -14.27 -112.95
    4.06  -14.21 -112.64   -0.28   -7.68   -0.28   -7.68  -14.21 -112.64
    4.10  -14.18 -113.20   -0.28   -7.84   -0.28   -7.84  -14.18 -113.20
    4.14  -14.12 -113.27   -0.28   -7.89   -0.28   -7.89  -14.12 -113.27
    4.18  -14.19 -113.43   -0.31   -7.87   -0.31   -7.87  -14.19 -113.43
    4.22  -14.06 -113.12   -0.29   -8.12   -0.29   -8.12  -14.06 -113.12
    4.26  -14.09 -114.07   -0.30   -8.16   -0.30   -8.16  -14.09 -114.07
    4.30  -14.05 -114.19   -0.30   -8.21   -0.30   -8.21  -14.05 -114.19
    4.34  -14.09 -114.59   -0.32   -8.23   -0.32   -8.23  -14.09 -114.59
    4.38  -14.06 -114.38   -0.30   -8.51   -0.30   -8.51  -14.06 -114.38
    4.42  -14.10 -114.63   -0.29   -8.52   -0.29   -8.52  -14.10 -114.63
    4.46  -14.04 -114.93   -0.29   -8.80   -0.29   -8.80  -14.04 -114.93
    4.50  -14.12 -114.89   -0.30   -8.92   -0.30   -8.92  -14.12 -114.89
    4.54  -14.11 -114.92   -0.31   -8.87   -0.31   -8.87  -14.11 -114.92
    4.58  -14.12 -114.83   -0.32   -9.06   -0.32   -9.06  -14.12 -114.83
    4.62  -14.13 -114.92   -0.34   -9.00   -0.34   -9.00  -14.13 -114.92
    4.66  -14.11 -114.94   -0.32   -9.32   -0.32   -9.32  -14.11 -114.94
    4.70  -14.18 -114.85   -0.34   -9.30   -0.34   -9.30  -14.18 -114.85
    4.74  -14.14 -115.00   -0.31   -9.47   -0.31   -9.47  -14.14 -115.00
    4.78  -14.22 -115.16   -0.34   -9.45   -0.34   -9.45  -14.22 -115.16
    4.82  -14.18 -115.00   -0.32   -9.57   -0.32   -9.57  -14.18 -115.00
    4.86  -14.27 -115.59   -0.34   -9.78   -0.34   -9.78  -14.27 -115.59
    4.90  -14.30 -115.22   -0.32   -9.85   -0.32   -9.85  -14.30 -115.22
    4.94  -14.36 -115.53   -0.32   -9.95   -0.32   -9.95  -14.36 -115.53
    4.98  -14.38 -115.83   -0.33  -10.25   -0.33  -10.25  -14.38 -115.83
    5.02  -14.57 -115.97   -0.35  -10.41   -0.35  -10.41  -14.57 -115.97
    5.06  -14.60 -115.38   -0.35  -10.57   -0.35  -10.57  -14.60 -115.38
    5.10  -14.72 -115.71   -0.34  -10.87   -0.34  -10.87  -14.72 -115.71
    5.14  -14.87 -115.67   -0.36  -11.20   -0.36  -11.20  -14.87 -115.67
    5.18  -15.06 -115.23   -0.36  -11.26   -0.36  -11.26  -15.06 -115.23
    5.22  -15.22 -114.58   -0.34  -11.65   -0.34  -11.65  -15.22 -114.58
    5.26  -15.59 -114.55   -0.36  -11.93   -0.36  -11.93  -15.59 -114.55
    5.30  -15.84 -112.62   -0.38  -12.53   -0.38  -12.53  -15.84 -112.62
    5.34  -16.30 -111.22   -0.43  -13.01   -0.43  -13.01  -16.30 -111.22
    5.38  -16.87 -107.12   -0.49  -13.73   -0.49  -13.73  -16.87 -107.12
    5.42  -17.34  -98.42   -0.66  -14.62   -0.66  -14.62  -17.34  -98.42
    5.46  -16.63  -85.32   -0.94  -15.17   -0.94  -15.17  -16.63  -85.32
    5.50  -14.23  -79.02   -1.40  -13.96   -1.40  -13.96  -14.23  -79.02
    5.54  -12.24  -86.44   -1.57  -10.01   -1.57  -10.01  -12.24  -86.44
    5.58  -11.68  -95.38   -1.21   -7.67   -1.21   -7.67  -11.68  -95.38
    5.62  -11.89 -102.92   -0.92   -7.31   -0.92   -7.31  -11.89 -102.92
    5.65  -12.17 -106.40   -0.76   -7.62   -0.76   -7.62  -12.17 -106.40
    5.69  -12.44 -108.84   -0.66   -8.14   -0.66   -8.14  -12.44 -108.84
    5.73  -12.70 -110.66   -0.59   -8.41   -0.59   -8.41  -12.70 -110.66
    5.77  -12.98 -111.77   -0.55   -8.80   -0.55   -8.80  -12.98 -111.77
    5.81  -13.10 -111.95   -0.50   -9.11   -0.50   -9.11  -13.10 -111.95
    5.85  -13.34 -112.97   -0.49   -9.36   -0.49   -9.36  -13.34 -112.97
    5.89  -13.47 -113.28   -0.45   -9.66   -0.45   -9.66  -13.47 -113.28
    5.93  -13.69 -113.57   -0.47   -9.79   -0.47   -9.79  -13.69 -113.57
    5.97  -13.75 -113.42   -0.47  -10.02   -0.47  -10.02  -13.75 -113.42
    6.01  -13.99 -113.80   -0.45  -10.20   -0.45  -10.20  -13.99 -113.80
    6.05  -14.00 -113.38   -0.45  -10.36   -0.45  -10.36  -14.00 -113.38
    6.09  -14.12 -113.83   -0.45  -10.46   -0.45  -10.46  -14.12 -113.83
    6.13  -14.23 -113.85   -0.43  -10.81   -0.43  -10.81  -14.23 -113.85
    6.17  -14.43 -113.72   -0.43  -10.75   -0.43  -10.75  -14.43 -113.72
    6.21  -14.45 -113.27   -0.45  -10.77   -0.45  -10.77  -14.45 -113.27
    6.25  -14.54 -113.67   -0.44  -11.14   -0.44  -11.14  -14.54 -113.67
    6.29  -14.63 -113.48   -0.44  -11.22   -0.44  -11.22  -14.63 -113.48
    6.33  -14.69 -113.59   -0.44  -11.38   -0.44  -11.38  -14.69 -113.59
    6.37  -14.80 -113.89   -0.44  -11.47   -0.44  -11.47  -14.80 -113.89
    6.41  -14.95 -113.83   -0.45  -11.32   -0.45  -11.32  -14.95 -113.83
    6.45  -15.04 -113.59   -0.44  -11.71   -0.44  -11.71  -15.04 -113.59
    6.49  -15.10 -114.10   -0.42  -11.82   -0.42  -11.82  -15.10 -114.10
    6.53  -15.32 -113.61   -0.46  -11.84   -0.46  -11.84  -15.32 -113.61
    6.57  -15.36 -113.40   -0.43  -12.04   -0.43  -12.04  -15.36 -113.40
    6.61  -15.53 -113.20   -0.46  -12.24   -0.46  -12.24  -15.53 -113.20
    6.65  -15.65 -112.38   -0.45  -12.35   -0.45  -12.35  -15.65 -112.38
    6.69  -15.78 -112.26   -0.47  -12.52   -0.47  -12.52  -15.78 -112.26
    6.73  -15.81 -111.82   -0.48  -12.68   -0.48  -12.68  -15.81 -111.82
    6.77  -15.99 -111.56   -0.50  -12.63   -0.50  -12.63  -15.99 -111.56
    6.81  -16.02 -110.30   -0.49  -12.88   -0.49  -12.88  -16.02 -110.30
    6.85  -16.13 -109.85   -0.53  -12.79   -0.53  -12.79  -16.13 -109.85
    6.89  -16.06 -109.41   -0.51  -13.10   -0.51  -13.10  -16.06 -109.41
    6.93  -16.19 -109.28   -0.54  -13.25   -0.54  -13.25  -16.19 -109.28
    6.97  -16.13 -108.42   -0.54  -13.13   -0.54  -13.13  -16.13 -108.42
    7.01  -16.22 -108.72   -0.57  -13.25   -0.57  -13.25  -16.22 -108.72
    7.05  -16.26 -107.90   -0.54  -13.26   -0.54  -13.26  -16.26 -107.90
    7.09  -16.34 -108.28   -0.55  -13.29   -0.55  -13.29  -16.34 -108.28
    7.13  -16.39 -107.65   -0.57  -13.44   -0.57  -13.44  -16.39 -107.65
    7.17  -16.48 -107.05   -0.56  -13.53   -0.56  -13.53  -16.48 -107.05
    7.21  -16.55 -106.45   -0.60  -13.63   -0.60  -13.63  -16.55 -106.45
    7.24  -16.58 -106.06   -0.59  -13.81   -0.59  -13.81  -16.58 -106.06
    7.28  -16.59 -105.33   -0.61  -13.90   -0.61  -13.90  -16.59 -105.33
    7.32  -16.58 -104.91   -0.61  -13.89   -0.61  -13.89  -16.58 -104.91
    7.36  -16.54 -104.54   -0.64  -13.94   -0.64  -13.94  -16.54 -104.54
    7.40  -16.60 -104.82   -0.62  -14.00   -0.62  -14.00  -16.60 -104.82
    7.44  -16.69 -104.02   -0.66  -13.92   -0.66  -13.92  -16.69 -104.02
    7.48  -16.55 -103.89   -0.65  -14.14   -0.65  -14.14  -16.55 -103.89
    7.52  -16.64 -103.75   -0.66  -14.02   -0.66  -14.02  -16.64 -103.75
    7.56  -16.57 -103.11   -0.66  -14.26   -0.66  -14.26  -16.57 -103.11
    7.60  -16.73 -103.79   -0.66  -14.48   -0.66  -14.48  -16.73 -103.79
    7.64  -16.76 -103.05   -0.66  -14.48   -0.66  -14.48  -16.76 -103.05
    7.68  -16.84 -103.05   -0.67  -14.68   -0.67  -14.68  -16.84 -103.05
    7.72  -16.89 -102.37   -0.66  -14.79   -0.66  -14.79  -16.89 -102.37
    7.76  -17.11 -102.09   -0.70  -15.18   -0.70  -15.18  -17.11 -102.09
    7.80  -17.28 -100.28   -0.70  -15.28   -0.70  -15.28  -17.28 -100.28
    7.84  -17.42  -98.12   -0.74  -15.67   -0.74  -15.67  -17.42  -98.12
    7.88  -17.35  -95.11   -0.78  -16.20   -0.78  -16.20  -17.35  -95.11
    7.92  -17.24  -91.22   -0.88  -16.52   -0.88  -16.52  -17.24  -91.22
    7.96  -16.64  -86.75   -1.02  -16.63   -1.02  -16.63  -16.64  -86.75
    8.00  -15.71  -85.29   -1.20  -16.49   -1.20  -16.49  -15.71  -85.29
