!  American Technical Ceramics  Date:    3/13/98
!  One Norden Lane
!  Huntington Station,  NY.   11746-2102
!  Tel:  (516) 547-5700               Fax:  (516) 547-5748
!  Part Number  700B3R9C
!  Description: Porcelain, High Q, Low ESR
!  Application: Bypass, Coupling, Timing, Feedback
!               Tuning, Impedance Match, Blocking
# GHZ S DB R 50
! Freq   |S11|   S11 Ph  |S21|   S21 Ph  |S12|   S12 Ph  |S22|   S22 Ph
    0.05    0.08   -7.40  -18.18   83.82  -18.18   83.82    0.08   -7.40
    0.14   -0.43  -20.16   -9.69   70.17   -9.69   70.17   -0.43  -20.16
    0.23   -1.15  -31.25   -6.11   59.19   -6.11   59.19   -1.15  -31.25
    0.32   -2.04  -40.73   -4.13   50.23   -4.13   50.23   -2.04  -40.73
    0.41   -3.00  -48.12   -2.96   42.86   -2.96   42.86   -3.00  -48.12
    0.50   -3.92  -54.09   -2.21   37.07   -2.21   37.07   -3.92  -54.09
    0.59   -4.99  -59.58   -1.71   31.51   -1.71   31.51   -4.99  -59.58
    0.68   -5.80  -63.66   -1.38   27.92   -1.38   27.92   -5.80  -63.66
    0.77   -6.55  -67.22   -1.13   24.63   -1.13   24.63   -6.55  -67.22
    0.86   -7.23  -70.07   -0.97   22.01   -0.97   22.01   -7.23  -70.07
    0.95   -7.81  -72.75   -0.84   19.75   -0.84   19.75   -7.81  -72.75
    1.04   -8.36  -74.95   -0.76   17.72   -0.76   17.72   -8.36  -74.95
    1.13   -8.85  -77.20   -0.67   15.97   -0.67   15.97   -8.85  -77.20
    1.22   -9.25  -78.67   -0.62   14.58   -0.62   14.58   -9.25  -78.67
    1.31   -9.65  -80.22   -0.54   13.24   -0.54   13.24   -9.65  -80.22
    1.40  -10.01  -82.05   -0.51   12.01   -0.51   12.01  -10.01  -82.05
    1.49  -10.34  -83.71   -0.45   10.78   -0.45   10.78  -10.34  -83.71
    1.58  -10.60  -85.17   -0.42    9.90   -0.42    9.90  -10.60  -85.17
    1.67  -10.89  -86.58   -0.41    8.95   -0.41    8.95  -10.89  -86.58
    1.76  -11.12  -87.66   -0.39    7.99   -0.39    7.99  -11.12  -87.66
    1.85  -11.33  -89.00   -0.38    7.25   -0.38    7.25  -11.33  -89.00
    1.93  -11.55  -89.86   -0.38    6.62   -0.38    6.62  -11.55  -89.86
    2.02  -11.65  -90.99   -0.37    5.71   -0.37    5.71  -11.65  -90.99
    2.11  -11.81  -91.90   -0.36    5.13   -0.36    5.13  -11.81  -91.90
    2.20  -11.92  -93.08   -0.37    4.64   -0.37    4.64  -11.92  -93.08
    2.29  -12.00  -93.98   -0.35    3.78   -0.35    3.78  -12.00  -93.98
    2.38  -12.11  -94.69   -0.36    3.35   -0.36    3.35  -12.11  -94.69
    2.47  -12.17  -95.71   -0.31    2.60   -0.31    2.60  -12.17  -95.71
    2.56  -12.31  -95.83   -0.31    2.18   -0.31    2.18  -12.31  -95.83
    2.65  -12.39  -96.63   -0.32    1.74   -0.32    1.74  -12.39  -96.63
    2.74  -12.42  -97.67   -0.32    1.29   -0.32    1.29  -12.42  -97.67
    2.83  -12.51  -98.42   -0.31    0.75   -0.31    0.75  -12.51  -98.42
    2.92  -12.53  -99.73   -0.33    0.49   -0.33    0.49  -12.53  -99.73
    3.01  -12.58 -100.13   -0.35   -0.19   -0.35   -0.19  -12.58 -100.13
    3.10  -12.64 -101.17   -0.33   -0.57   -0.33   -0.57  -12.64 -101.17
    3.19  -12.65 -101.30   -0.40   -1.18   -0.40   -1.18  -12.65 -101.30
    3.28  -12.58 -102.38   -0.31   -1.73   -0.31   -1.73  -12.58 -102.38
    3.37  -12.60 -101.83   -0.39   -1.93   -0.39   -1.93  -12.60 -101.83
    3.46  -12.60 -102.83   -0.36   -2.44   -0.36   -2.44  -12.60 -102.83
    3.55  -12.55 -102.67   -0.37   -2.76   -0.37   -2.76  -12.55 -102.67
    3.64  -12.52 -103.64   -0.36   -2.99   -0.36   -2.99  -12.52 -103.64
    3.73  -12.52 -103.19   -0.39   -3.55   -0.39   -3.55  -12.52 -103.19
    3.82  -12.56 -104.22   -0.37   -3.84   -0.37   -3.84  -12.56 -104.22
    3.91  -12.49 -104.51   -0.42   -4.12   -0.42   -4.12  -12.49 -104.51
    4.00  -12.58 -106.66   -0.36   -4.60   -0.36   -4.60  -12.58 -106.66
    4.09  -12.64 -107.08   -0.38   -4.84   -0.38   -4.84  -12.64 -107.08
    4.18  -12.71 -108.22   -0.40   -5.27   -0.40   -5.27  -12.71 -108.22
    4.27  -12.58 -108.66   -0.40   -5.28   -0.40   -5.28  -12.58 -108.66
    4.36  -12.72 -108.91   -0.41   -5.76   -0.41   -5.76  -12.72 -108.91
    4.45  -12.72 -109.40   -0.42   -6.09   -0.42   -6.09  -12.72 -109.40
    4.54  -12.78 -109.66   -0.40   -6.69   -0.40   -6.69  -12.78 -109.66
    4.63  -12.78 -109.82   -0.40   -6.92   -0.40   -6.92  -12.78 -109.82
    4.72  -12.79 -109.22   -0.42   -7.25   -0.42   -7.25  -12.79 -109.22
    4.81  -12.92 -109.76   -0.42   -7.38   -0.42   -7.38  -12.92 -109.76
    4.90  -13.01 -109.63   -0.41   -7.78   -0.41   -7.78  -13.01 -109.63
    4.99  -13.09 -110.75   -0.38   -7.88   -0.38   -7.88  -13.09 -110.75
    5.08  -13.19 -110.01   -0.41   -8.23   -0.41   -8.23  -13.19 -110.01
    5.17  -13.38 -111.29   -0.39   -8.63   -0.39   -8.63  -13.38 -111.29
    5.26  -13.56 -111.19   -0.40   -8.82   -0.40   -8.82  -13.56 -111.19
    5.35  -13.61 -111.41   -0.38   -9.05   -0.38   -9.05  -13.61 -111.41
    5.44  -13.92 -110.63   -0.44   -9.34   -0.44   -9.34  -13.92 -110.63
    5.52  -13.99 -111.69   -0.40   -9.96   -0.40   -9.96  -13.99 -111.69
    5.61  -14.05 -110.95   -0.39  -10.00   -0.39  -10.00  -14.05 -110.95
    5.70  -14.16 -110.64   -0.41  -10.23   -0.41  -10.23  -14.16 -110.64
    5.79  -14.42 -111.01   -0.41  -10.62   -0.41  -10.62  -14.42 -111.01
    5.88  -14.55 -111.18   -0.39  -10.78   -0.39  -10.78  -14.55 -111.18
    5.97  -14.84 -110.64   -0.38  -11.20   -0.38  -11.20  -14.84 -110.64
    6.06  -15.14 -110.03   -0.39  -11.61   -0.39  -11.61  -15.14 -110.03
    6.15  -15.37 -110.80   -0.41  -11.78   -0.41  -11.78  -15.37 -110.80
    6.24  -15.56 -110.46   -0.39  -12.07   -0.39  -12.07  -15.56 -110.46
    6.33  -15.86 -110.46   -0.40  -12.31   -0.40  -12.31  -15.86 -110.46
    6.42  -16.28 -110.45   -0.42  -12.75   -0.42  -12.75  -16.28 -110.45
    6.51  -16.46 -110.86   -0.39  -13.12   -0.39  -13.12  -16.46 -110.86
    6.60  -16.86 -110.26   -0.42  -13.60   -0.42  -13.60  -16.86 -110.26
    6.69  -17.22 -108.31   -0.42  -13.88   -0.42  -13.88  -17.22 -108.31
    6.78  -17.50 -107.04   -0.46  -14.34   -0.46  -14.34  -17.50 -107.04
    6.87  -17.71 -104.68   -0.45  -14.57   -0.45  -14.57  -17.71 -104.68
    6.96  -17.87 -103.85   -0.48  -14.91   -0.48  -14.91  -17.87 -103.85
    7.05  -18.14 -102.79   -0.50  -15.25   -0.50  -15.25  -18.14 -102.79
    7.14  -18.34 -101.76   -0.51  -15.30   -0.51  -15.30  -18.34 -101.76
    7.23  -18.57 -100.13   -0.54  -15.71   -0.54  -15.71  -18.57 -100.13
    7.32  -18.58  -98.31   -0.58  -15.79   -0.58  -15.79  -18.58  -98.31
    7.41  -18.67  -98.10   -0.60  -16.09   -0.60  -16.09  -18.67  -98.10
    7.50  -18.61  -96.68   -0.61  -16.27   -0.61  -16.27  -18.61  -96.68
    7.59  -18.58  -96.48   -0.62  -16.45   -0.62  -16.45  -18.58  -96.48
    7.68  -18.75  -97.00   -0.59  -16.44   -0.59  -16.44  -18.75  -97.00
    7.77  -18.86  -98.71   -0.59  -16.41   -0.59  -16.41  -18.86  -98.71
    7.86  -19.36  -98.55   -0.58  -16.90   -0.58  -16.90  -19.36  -98.55
    7.95  -19.66  -98.50   -0.55  -17.41   -0.55  -17.41  -19.66  -98.50
    8.04  -20.07  -98.08   -0.52  -17.70   -0.52  -17.70  -20.07  -98.08
    8.13  -20.15  -97.57   -0.54  -18.17   -0.54  -18.17  -20.15  -97.57
    8.22  -20.49  -96.56   -0.54  -18.52   -0.54  -18.52  -20.49  -96.56
    8.31  -20.75  -96.57   -0.55  -18.74   -0.55  -18.74  -20.75  -96.57
    8.40  -21.09  -97.65   -0.53  -19.15   -0.53  -19.15  -21.09  -97.65
    8.49  -21.62  -97.22   -0.50  -19.53   -0.50  -19.53  -21.62  -97.22
    8.58  -22.40  -96.49   -0.51  -19.98   -0.51  -19.98  -22.40  -96.49
    8.67  -23.07  -96.11   -0.48  -20.49   -0.48  -20.49  -23.07  -96.11
    8.76  -23.61  -95.64   -0.49  -21.03   -0.49  -21.03  -23.61  -95.64
    8.85  -24.53  -93.63   -0.48  -21.61   -0.48  -21.61  -24.53  -93.63
    8.94  -25.36  -90.09   -0.50  -22.06   -0.50  -22.06  -25.36  -90.09
    9.03  -26.35  -86.22   -0.51  -22.67   -0.51  -22.67  -26.35  -86.22
    9.11  -27.18  -81.71   -0.50  -23.38   -0.50  -23.38  -27.18  -81.71
    9.20  -28.53  -73.86   -0.52  -24.20   -0.52  -24.20  -28.53  -73.86
    9.29  -29.51  -63.08   -0.52  -24.81   -0.52  -24.81  -29.51  -63.08
    9.38  -29.93  -50.20   -0.55  -25.24   -0.55  -25.24  -29.93  -50.20
    9.47  -30.07  -32.65   -0.55  -26.06   -0.55  -26.06  -30.07  -32.65
    9.56  -29.15  -13.20   -0.55  -27.03   -0.55  -27.03  -29.15  -13.20
    9.65  -27.41   -0.54   -0.56  -27.85   -0.56  -27.85  -27.41   -0.54
    9.74  -25.39    9.20   -0.60  -28.86   -0.60  -28.86  -25.39    9.20
    9.83  -23.12   14.35   -0.57  -30.12   -0.57  -30.12  -23.12   14.35
    9.92  -21.26   17.40   -0.60  -31.45   -0.60  -31.45  -21.26   17.40
   10.01  -19.27   17.90   -0.68  -32.80   -0.68  -32.80  -19.27   17.90
   10.10  -17.41   17.45   -0.75  -34.42   -0.75  -34.42  -17.41   17.45
   10.19  -15.55   15.97   -0.84  -36.97   -0.84  -36.97  -15.55   15.97
   10.28  -13.80   13.52   -0.96  -39.56   -0.96  -39.56  -13.80   13.52
   10.37  -11.91    9.42   -1.23  -42.54   -1.23  -42.54  -11.91    9.42
   10.46   -9.94    4.06   -1.63  -47.14   -1.63  -47.14   -9.94    4.06
   10.55   -7.94   -4.64   -2.33  -52.99   -2.33  -52.99   -7.94   -4.64
   10.64   -5.89  -17.33   -3.83  -60.24   -3.83  -60.24   -5.89  -17.33
   10.73   -4.18  -36.51   -7.34  -64.41   -7.34  -64.41   -4.18  -36.51
   10.82   -3.67  -59.21  -13.25  -31.96  -13.25  -31.96   -3.67  -59.21
   10.91   -4.58  -83.78   -8.29    9.45   -8.29    9.45   -4.58  -83.78
   11.00   -6.45 -100.90   -4.61    7.85   -4.61    7.85   -6.45 -100.90
   11.09   -8.49 -114.68   -2.97    1.62   -2.97    1.62   -8.49 -114.68
   11.18  -10.82 -123.19   -2.23   -3.51   -2.23   -3.51  -10.82 -123.19
   11.27  -13.07 -131.16   -1.82   -7.64   -1.82   -7.64  -13.07 -131.16
   11.36  -15.50 -136.54   -1.52  -10.67   -1.52  -10.67  -15.50 -136.54
   11.45  -18.03 -141.02   -1.40  -13.05   -1.40  -13.05  -18.03 -141.02
   11.54  -20.93 -144.09   -1.32  -14.87   -1.32  -14.87  -20.93 -144.09
   11.63  -23.86 -149.32   -1.25  -16.57   -1.25  -16.57  -23.86 -149.32
   11.72  -28.44 -157.82   -1.18  -17.96   -1.18  -17.96  -28.44 -157.82
   11.81  -36.03  175.50   -1.15  -18.92   -1.15  -18.92  -36.03  175.50
   11.90  -38.01   77.88   -1.11  -20.13   -1.11  -20.13  -38.01   77.88
   11.99  -30.79   52.19   -1.12  -20.91   -1.12  -20.91  -30.79   52.19
   12.08  -26.75   44.23   -1.12  -21.90   -1.12  -21.90  -26.75   44.23
   12.17  -24.11   39.08   -1.14  -22.86   -1.14  -22.86  -24.11   39.08
   12.26  -22.21   36.13   -1.10  -23.56   -1.10  -23.56  -22.21   36.13
   12.35  -20.71   34.77   -1.11  -24.43   -1.11  -24.43  -20.71   34.77
   12.44  -19.45   34.32   -1.16  -25.45   -1.16  -25.45  -19.45   34.32
   12.53  -18.22   31.40   -1.17  -25.98   -1.17  -25.98  -18.22   31.40
   12.62  -17.26   30.39   -1.19  -26.65   -1.19  -26.65  -17.26   30.39
   12.70  -16.40   28.46   -1.19  -26.99   -1.19  -26.99  -16.40   28.46
   12.79  -15.79   26.79   -1.23  -28.04   -1.23  -28.04  -15.79   26.79
   12.88  -15.09   25.25   -1.23  -28.68   -1.23  -28.68  -15.09   25.25
   12.97  -14.57   23.88   -1.28  -29.08   -1.28  -29.08  -14.57   23.88
   13.06  -14.17   23.07   -1.31  -29.64   -1.31  -29.64  -14.17   23.07
   13.15  -13.83   20.75   -1.29  -30.45   -1.29  -30.45  -13.83   20.75
   13.24  -13.35   21.26   -1.34  -30.73   -1.34  -30.73  -13.35   21.26
   13.33  -13.01   19.85   -1.39  -31.35   -1.39  -31.35  -13.01   19.85
   13.42  -12.88   19.92   -1.47  -32.01   -1.47  -32.01  -12.88   19.92
   13.51  -12.42   17.27   -1.46  -32.94   -1.46  -32.94  -12.42   17.27
   13.60  -12.28   18.23   -1.51  -32.97   -1.51  -32.97  -12.28   18.23
   13.69  -11.89   17.33   -1.57  -33.62   -1.57  -33.62  -11.89   17.33
   13.78  -11.87   16.26   -1.66  -34.64   -1.66  -34.64  -11.87   16.26
   13.87  -11.39   15.68   -1.63  -35.07   -1.63  -35.07  -11.39   15.68
   13.96  -11.19   16.72   -1.68  -34.72   -1.68  -34.72  -11.19   16.72
   14.05  -11.09   16.38   -1.79  -35.89   -1.79  -35.89  -11.09   16.38
   14.14  -10.95   15.54   -1.78  -36.75   -1.78  -36.75  -10.95   15.54
   14.23  -10.65   15.56   -1.85  -36.96   -1.85  -36.96  -10.65   15.56
   14.32  -10.45   16.42   -1.93  -37.42   -1.93  -37.42  -10.45   16.42
   14.41  -10.44   15.91   -1.99  -38.39   -1.99  -38.39  -10.44   15.91
   14.50  -10.31   15.44   -2.04  -38.74   -2.04  -38.74  -10.31   15.44
   14.59  -10.05   15.05   -2.09  -39.45   -2.09  -39.45  -10.05   15.05
   14.68   -9.88   15.66   -2.14  -39.83   -2.14  -39.83   -9.88   15.66
   14.77   -9.71   16.29   -2.22  -40.15   -2.22  -40.15   -9.71   16.29
   14.86   -9.52   15.73   -2.34  -41.28   -2.34  -41.28   -9.52   15.73
   14.95   -9.18   15.76   -2.41  -41.44   -2.41  -41.44   -9.18   15.76
   15.04   -9.02   16.79   -2.52  -41.18   -2.52  -41.18   -9.02   16.79
   15.13   -8.73   15.82   -2.62  -41.38   -2.62  -41.38   -8.73   15.82
   15.22   -8.55   13.99   -2.67  -42.13   -2.67  -42.13   -8.55   13.99
   15.31   -8.31   14.66   -2.66  -41.84   -2.66  -41.84   -8.31   14.66
   15.40   -8.34   13.67   -2.76  -42.36   -2.76  -42.36   -8.34   13.67
   15.49   -8.16   12.98   -2.79  -43.01   -2.79  -43.01   -8.16   12.98
   15.58   -7.90   12.06   -2.88  -43.61   -2.88  -43.61   -7.90   12.06
   15.67   -7.66   12.06   -2.89  -43.49   -2.89  -43.49   -7.66   12.06
   15.76   -7.47   10.30   -2.90  -43.62   -2.90  -43.62   -7.47   10.30
   15.85   -7.46    8.97   -2.99  -44.45   -2.99  -44.45   -7.46    8.97
   15.94   -7.28    8.10   -3.00  -45.35   -3.00  -45.35   -7.28    8.10
   16.03   -7.39    7.51   -3.09  -45.76   -3.09  -45.76   -7.39    7.51
   16.12   -7.43    6.67   -3.19  -46.66   -3.19  -46.66   -7.43    6.67
   16.21   -7.49    9.09   -3.49  -46.54   -3.49  -46.54   -7.49    9.09
   16.29   -6.73    9.40   -3.50  -46.07   -3.50  -46.07   -6.73    9.40
   16.38   -6.49    7.85   -3.44  -46.18   -3.44  -46.18   -6.49    7.85
   16.47   -6.27    6.02   -3.48  -47.02   -3.48  -47.02   -6.27    6.02
   16.56   -6.12    5.35   -3.48  -47.57   -3.48  -47.57   -6.12    5.35
   16.65   -5.96    4.18   -3.66  -48.39   -3.66  -48.39   -5.96    4.18
   16.74   -5.83    3.89   -3.70  -49.24   -3.70  -49.24   -5.83    3.89
   16.83   -5.63    3.05   -3.91  -49.12   -3.91  -49.12   -5.63    3.05
   16.92   -5.50    2.76   -4.01  -49.95   -4.01  -49.95   -5.50    2.76
   17.01   -5.21    1.91   -4.24  -50.31   -4.24  -50.31   -5.21    1.91
   17.10   -5.12    1.17   -4.26  -50.29   -4.26  -50.29   -5.12    1.17
   17.19   -4.82    1.07   -4.52  -50.13   -4.52  -50.13   -4.82    1.07
   17.28   -4.74   -0.19   -4.53  -50.05   -4.53  -50.05   -4.74   -0.19
   17.37   -4.55   -1.00   -4.63  -50.83   -4.63  -50.83   -4.55   -1.00
   17.46   -4.30   -1.89   -4.72  -49.96   -4.72  -49.96   -4.30   -1.89
   17.55   -4.15   -2.72   -4.83  -50.60   -4.83  -50.60   -4.15   -2.72
   17.64   -3.88   -3.76   -4.95  -50.44   -4.95  -50.44   -3.88   -3.76
   17.73   -3.93   -5.19   -4.94  -51.37   -4.94  -51.37   -3.93   -5.19
   17.82   -3.75   -5.77   -5.11  -51.23   -5.11  -51.23   -3.75   -5.77
   17.91   -3.85   -6.57   -5.32  -53.05   -5.32  -53.05   -3.85   -6.57
   18.00   -3.69   -8.79   -5.44  -53.20   -5.44  -53.20   -3.69   -8.79
