!  American Technical Ceramics  Date:    3/13/98
!  One Norden Lane
!  Huntington Station,  NY.   11746-2102
!  Tel:  (516) 547-5700               Fax:  (516) 547-5748
!  Part Number  700B180F
!  Description: Porcelain, High Q, Low ESR
!  Application: Bypass, Coupling, Timing, Feedback
!               Tuning, Impedance Match, Blocking
# GHZ S DB R 50
! Freq   |S11|   S11 Ph  |S21|   S21 Ph  |S12|   S12 Ph  |S22|   S22 Ph
    0.05   -1.13  -29.48   -6.20   60.49   -6.20   60.49   -1.13  -29.48
    0.11   -4.03  -51.69   -2.18   38.11   -2.18   38.11   -4.03  -51.69
    0.17   -6.61  -63.83   -1.08   26.64   -1.08   26.64   -6.61  -63.83
    0.24   -8.79  -70.36   -0.61   20.09   -0.61   20.09   -8.79  -70.36
    0.30  -10.51  -74.92   -0.41   15.81   -0.41   15.81  -10.51  -74.92
    0.36  -11.91  -77.93   -0.28   12.99   -0.28   12.99  -11.91  -77.93
    0.42  -13.01  -80.44   -0.20   10.85   -0.20   10.85  -13.01  -80.44
    0.48  -13.98  -82.12   -0.18    9.17   -0.18    9.17  -13.98  -82.12
    0.54  -14.97  -83.52   -0.16    7.61   -0.16    7.61  -14.97  -83.52
    0.61  -15.64  -85.20   -0.13    6.51   -0.13    6.51  -15.64  -85.20
    0.67  -16.18  -86.32   -0.14    5.70   -0.14    5.70  -16.18  -86.32
    0.73  -16.65  -87.14   -0.10    4.88   -0.10    4.88  -16.65  -87.14
    0.79  -17.03  -88.22   -0.12    4.34   -0.12    4.34  -17.03  -88.22
    0.85  -17.36  -89.42   -0.10    3.58   -0.10    3.58  -17.36  -89.42
    0.91  -17.62  -90.14   -0.09    3.20   -0.09    3.20  -17.62  -90.14
    0.98  -17.80  -91.20   -0.09    2.67   -0.09    2.67  -17.80  -91.20
    1.04  -18.02  -92.13   -0.10    2.15   -0.10    2.15  -18.02  -92.13
    1.10  -18.17  -93.07   -0.08    1.66   -0.08    1.66  -18.17  -93.07
    1.16  -18.25  -93.94   -0.10    1.28   -0.10    1.28  -18.25  -93.94
    1.22  -18.34  -94.21   -0.10    0.93   -0.10    0.93  -18.34  -94.21
    1.29  -18.42  -95.15   -0.09    0.59   -0.09    0.59  -18.42  -95.15
    1.35  -18.42  -95.87   -0.07    0.27   -0.07    0.27  -18.42  -95.87
    1.41  -18.41  -96.54   -0.08    0.00   -0.08    0.00  -18.41  -96.54
    1.47  -18.39  -97.37   -0.09   -0.30   -0.09   -0.30  -18.39  -97.37
    1.53  -18.39  -97.98   -0.09   -0.68   -0.09   -0.68  -18.39  -97.98
    1.59  -18.38  -98.96   -0.09   -0.82   -0.09   -0.82  -18.38  -98.96
    1.66  -18.29  -99.42   -0.09   -1.14   -0.09   -1.14  -18.29  -99.42
    1.72  -18.25  -99.94   -0.10   -1.53   -0.10   -1.53  -18.25  -99.94
    1.78  -18.20 -100.71   -0.10   -1.68   -0.10   -1.68  -18.20 -100.71
    1.84  -18.13 -101.57   -0.09   -1.94   -0.09   -1.94  -18.13 -101.57
    1.90  -17.95 -101.63   -0.08   -2.22   -0.08   -2.22  -17.95 -101.63
    1.96  -17.91 -102.08   -0.08   -2.50   -0.08   -2.50  -17.91 -102.08
    2.03  -17.87 -102.93   -0.12   -2.65   -0.12   -2.65  -17.87 -102.93
    2.09  -17.80 -103.62   -0.11   -2.79   -0.11   -2.79  -17.80 -103.62
    2.15  -17.59 -103.59   -0.12   -3.08   -0.12   -3.08  -17.59 -103.59
    2.21  -17.56 -104.34   -0.11   -3.47   -0.11   -3.47  -17.56 -104.34
    2.27  -17.49 -105.22   -0.12   -3.49   -0.12   -3.49  -17.49 -105.22
    2.33  -17.39 -105.64   -0.13   -3.64   -0.13   -3.64  -17.39 -105.64
    2.40  -17.23 -105.90   -0.11   -3.95   -0.11   -3.95  -17.23 -105.90
    2.46  -17.18 -106.38   -0.13   -4.03   -0.13   -4.03  -17.18 -106.38
    2.52  -17.08 -107.32   -0.14   -4.31   -0.14   -4.31  -17.08 -107.32
    2.58  -16.96 -107.34   -0.12   -4.56   -0.12   -4.56  -16.96 -107.34
    2.64  -16.86 -107.24   -0.14   -4.71   -0.14   -4.71  -16.86 -107.24
    2.71  -16.75 -107.85   -0.15   -4.93   -0.15   -4.93  -16.75 -107.85
    2.77  -16.72 -108.94   -0.13   -5.07   -0.13   -5.07  -16.72 -108.94
    2.83  -16.58 -108.55   -0.14   -5.39   -0.14   -5.39  -16.58 -108.55
    2.89  -16.42 -108.93   -0.16   -5.45   -0.16   -5.45  -16.42 -108.93
    2.95  -16.43 -109.88   -0.15   -5.76   -0.15   -5.76  -16.43 -109.88
    3.01  -16.35 -110.26   -0.18   -5.94   -0.18   -5.94  -16.35 -110.26
    3.08  -16.20 -110.49   -0.14   -6.19   -0.14   -6.19  -16.20 -110.49
    3.14  -16.12 -110.42   -0.16   -6.34   -0.16   -6.34  -16.12 -110.42
    3.20  -16.12 -110.86   -0.21   -6.65   -0.21   -6.65  -16.12 -110.86
    3.26  -16.01 -111.79   -0.16   -6.82   -0.16   -6.82  -16.01 -111.79
    3.32  -15.98 -111.53   -0.18   -7.07   -0.18   -7.07  -15.98 -111.53
    3.38  -15.78 -111.41   -0.21   -7.28   -0.21   -7.28  -15.78 -111.41
    3.45  -15.82 -112.56   -0.21   -7.38   -0.21   -7.38  -15.82 -112.56
    3.51  -15.73 -112.62   -0.21   -7.64   -0.21   -7.64  -15.73 -112.62
    3.57  -15.57 -112.10   -0.20   -7.81   -0.20   -7.81  -15.57 -112.10
    3.63  -15.48 -112.91   -0.21   -8.00   -0.21   -8.00  -15.48 -112.91
    3.69  -15.54 -113.41   -0.24   -8.29   -0.24   -8.29  -15.54 -113.41
    3.76  -15.41 -113.58   -0.25   -8.40   -0.25   -8.40  -15.41 -113.58
    3.82  -15.40 -113.69   -0.21   -9.03   -0.21   -9.03  -15.40 -113.69
    3.88  -15.28 -113.69   -0.24   -9.10   -0.24   -9.10  -15.28 -113.69
    3.94  -15.27 -114.36   -0.25   -9.24   -0.25   -9.24  -15.27 -114.36
    4.00  -15.52 -116.59   -0.23   -9.56   -0.23   -9.56  -15.52 -116.59
    4.06  -15.51 -116.56   -0.24   -9.78   -0.24   -9.78  -15.51 -116.56
    4.13  -15.56 -117.05   -0.25  -10.15   -0.25  -10.15  -15.56 -117.05
    4.19  -15.76 -117.81   -0.27  -10.56   -0.27  -10.56  -15.76 -117.81
    4.25  -15.75 -117.71   -0.25  -10.69   -0.25  -10.69  -15.75 -117.71
    4.31  -15.96 -118.38   -0.24  -11.29   -0.24  -11.29  -15.96 -118.38
    4.37  -16.28 -119.22   -0.25  -11.73   -0.25  -11.73  -16.28 -119.22
    4.43  -16.71 -119.88   -0.27  -12.19   -0.27  -12.19  -16.71 -119.88
    4.50  -17.27 -120.22   -0.26  -13.03   -0.26  -13.03  -17.27 -120.22
    4.56  -18.18 -119.69   -0.27  -13.99   -0.27  -13.99  -18.18 -119.69
    4.62  -19.95 -118.64   -0.32  -15.35   -0.32  -15.35  -19.95 -118.64
    4.68  -23.66 -107.68   -0.42  -17.61   -0.42  -17.61  -23.66 -107.68
    4.74  -24.26  -30.09   -0.75  -21.71   -0.75  -21.71  -24.26  -30.09
    4.80  -12.09  -21.60   -2.50  -26.82   -2.50  -26.82  -12.09  -21.60
    4.87   -7.40  -65.95   -4.05   -4.30   -4.05   -4.30   -7.40  -65.95
    4.93   -8.46  -92.72   -1.78    0.20   -1.78    0.20   -8.46  -92.72
    4.99   -9.61 -103.66   -0.98   -3.00   -0.98   -3.00   -9.61 -103.66
    5.05  -10.55 -107.43   -0.81   -4.77   -0.81   -4.77  -10.55 -107.43
    5.11  -11.06 -111.01   -0.61   -6.22   -0.61   -6.22  -11.06 -111.01
    5.18  -11.58 -112.67   -0.60   -6.93   -0.60   -6.93  -11.58 -112.67
    5.24  -11.91 -113.51   -0.52   -7.58   -0.52   -7.58  -11.91 -113.51
    5.30  -12.15 -114.47   -0.49   -8.26   -0.49   -8.26  -12.15 -114.47
    5.36  -12.47 -115.99   -0.49   -8.76   -0.49   -8.76  -12.47 -115.99
    5.42  -12.77 -115.55   -0.47   -9.07   -0.47   -9.07  -12.77 -115.55
    5.48  -12.74 -115.96   -0.44   -9.34   -0.44   -9.34  -12.74 -115.96
    5.55  -13.01 -116.41   -0.45   -9.75   -0.45   -9.75  -13.01 -116.41
    5.61  -13.18 -117.01   -0.47  -10.00   -0.47  -10.00  -13.18 -117.01
    5.67  -13.31 -116.87   -0.44  -10.19   -0.44  -10.19  -13.31 -116.87
    5.73  -13.33 -117.62   -0.42  -10.42   -0.42  -10.42  -13.33 -117.62
    5.79  -13.58 -118.01   -0.44  -10.65   -0.44  -10.65  -13.58 -118.01
    5.85  -13.70 -118.61   -0.39  -10.96   -0.39  -10.96  -13.70 -118.61
    5.92  -13.93 -118.99   -0.42  -11.26   -0.42  -11.26  -13.93 -118.99
    5.98  -14.00 -118.76   -0.42  -11.36   -0.42  -11.36  -14.00 -118.76
    6.04  -14.23 -118.58   -0.44  -11.66   -0.44  -11.66  -14.23 -118.58
    6.10  -14.34 -119.17   -0.42  -11.90   -0.42  -11.90  -14.34 -119.17
    6.16  -14.54 -119.14   -0.44  -12.09   -0.44  -12.09  -14.54 -119.14
    6.23  -14.60 -118.60   -0.43  -12.32   -0.43  -12.32  -14.60 -118.60
    6.29  -14.76 -119.07   -0.44  -12.48   -0.44  -12.48  -14.76 -119.07
    6.35  -14.88 -119.47   -0.46  -12.53   -0.46  -12.53  -14.88 -119.47
    6.41  -15.07 -119.88   -0.46  -12.68   -0.46  -12.68  -15.07 -119.88
    6.47  -15.10 -119.66   -0.41  -13.17   -0.41  -13.17  -15.10 -119.66
    6.53  -15.45 -120.10   -0.45  -13.31   -0.45  -13.31  -15.45 -120.10
    6.60  -15.65 -120.30   -0.45  -13.59   -0.45  -13.59  -15.65 -120.30
    6.66  -15.85 -119.41   -0.47  -13.73   -0.47  -13.73  -15.85 -119.41
    6.72  -15.92 -119.04   -0.48  -13.95   -0.48  -13.95  -15.92 -119.04
    6.78  -16.19 -118.69   -0.51  -14.19   -0.51  -14.19  -16.19 -118.69
    6.84  -16.35 -117.61   -0.52  -14.21   -0.52  -14.21  -16.35 -117.61
    6.90  -16.30 -117.45   -0.53  -14.29   -0.53  -14.29  -16.30 -117.45
    6.97  -16.33 -116.65   -0.54  -14.61   -0.54  -14.61  -16.33 -116.65
    7.03  -16.58 -116.83   -0.56  -14.45   -0.56  -14.45  -16.58 -116.83
    7.09  -16.55 -117.00   -0.55  -14.74   -0.55  -14.74  -16.55 -117.00
    7.15  -16.68 -116.18   -0.56  -14.83   -0.56  -14.83  -16.68 -116.18
    7.21  -16.78 -115.75   -0.57  -15.07   -0.57  -15.07  -16.78 -115.75
    7.27  -16.90 -115.19   -0.60  -15.20   -0.60  -15.20  -16.90 -115.19
    7.34  -16.85 -114.81   -0.62  -15.21   -0.62  -15.21  -16.85 -114.81
    7.40  -16.72 -114.69   -0.62  -15.20   -0.62  -15.20  -16.72 -114.69
    7.46  -16.74 -114.18   -0.63  -15.27   -0.63  -15.27  -16.74 -114.18
    7.52  -16.78 -115.69   -0.64  -15.18   -0.64  -15.18  -16.78 -115.69
    7.58  -16.69 -115.99   -0.63  -15.32   -0.63  -15.32  -16.69 -115.99
    7.65  -16.80 -116.65   -0.58  -15.33   -0.58  -15.33  -16.80 -116.65
    7.71  -16.77 -118.00   -0.58  -15.66   -0.58  -15.66  -16.77 -118.00
    7.77  -16.98 -119.83   -0.58  -15.68   -0.58  -15.68  -16.98 -119.83
    7.83  -17.25 -120.41   -0.54  -15.96   -0.54  -15.96  -17.25 -120.41
    7.89  -17.29 -120.83   -0.54  -16.35   -0.54  -16.35  -17.29 -120.83
    7.95  -17.67 -121.23   -0.54  -16.56   -0.54  -16.56  -17.67 -121.23
    8.02  -17.96 -122.84   -0.53  -16.83   -0.53  -16.83  -17.96 -122.84
    8.08  -18.06 -121.76   -0.53  -17.30   -0.53  -17.30  -18.06 -121.76
    8.14  -18.38 -122.35   -0.54  -17.43   -0.54  -17.43  -18.38 -122.35
    8.20  -18.75 -122.66   -0.55  -17.91   -0.55  -17.91  -18.75 -122.66
    8.26  -19.05 -123.01   -0.56  -18.35   -0.56  -18.35  -19.05 -123.01
    8.32  -19.45 -122.35   -0.56  -18.61   -0.56  -18.61  -19.45 -122.35
    8.39  -19.88 -122.48   -0.58  -19.11   -0.58  -19.11  -19.88 -122.48
    8.45  -20.71 -121.48   -0.55  -19.75   -0.55  -19.75  -20.71 -121.48
    8.51  -21.59 -119.19   -0.59  -20.70   -0.59  -20.70  -21.59 -119.19
    8.57  -22.82 -111.39   -0.63  -21.61   -0.63  -21.61  -22.82 -111.39
    8.63  -23.93  -98.19   -0.71  -22.69   -0.71  -22.69  -23.93  -98.19
    8.70  -23.74  -72.20   -0.89  -24.28   -0.89  -24.28  -23.74  -72.20
    8.76  -19.82  -53.01   -1.27  -26.22   -1.27  -26.22  -19.82  -53.01
    8.82  -14.92  -53.65   -2.06  -26.48   -2.06  -26.48  -14.92  -53.65
    8.88  -11.66  -73.10   -2.94  -20.69   -2.94  -20.69  -11.66  -73.10
    8.94  -10.97  -94.93   -2.49  -13.18   -2.49  -13.18  -10.97  -94.93
    9.00  -11.51 -109.99   -1.78  -11.59   -1.78  -11.59  -11.51 -109.99
    9.07  -12.21 -118.29   -1.31  -12.46   -1.31  -12.46  -12.21 -118.29
    9.13  -12.91 -123.97   -1.12  -13.28   -1.12  -13.28  -12.91 -123.97
    9.19  -13.55 -128.71   -0.97  -14.07   -0.97  -14.07  -13.55 -128.71
    9.25  -13.95 -131.95   -0.86  -15.23   -0.86  -15.23  -13.95 -131.95
    9.31  -14.37 -133.86   -0.82  -15.63   -0.82  -15.63  -14.37 -133.86
    9.37  -14.68 -136.95   -0.79  -16.29   -0.79  -16.29  -14.68 -136.95
    9.44  -15.09 -139.16   -0.79  -16.76   -0.79  -16.76  -15.09 -139.16
    9.50  -15.27 -141.34   -0.74  -17.22   -0.74  -17.22  -15.27 -141.34
    9.56  -15.55 -142.61   -0.75  -17.69   -0.75  -17.69  -15.55 -142.61
    9.62  -15.87 -144.59   -0.72  -17.99   -0.72  -17.99  -15.87 -144.59
    9.68  -16.04 -146.94   -0.73  -18.30   -0.73  -18.30  -16.04 -146.94
    9.74  -16.20 -149.00   -0.72  -18.71   -0.72  -18.71  -16.20 -149.00
    9.81  -16.40 -150.18   -0.72  -19.13   -0.72  -19.13  -16.40 -150.18
    9.87  -16.69 -152.99   -0.72  -19.21   -0.72  -19.21  -16.69 -152.99
    9.93  -17.00 -154.76   -0.72  -19.64   -0.72  -19.64  -17.00 -154.76
    9.99  -17.06 -156.99   -0.71  -19.96   -0.71  -19.96  -17.06 -156.99
   10.05  -17.35 -158.66   -0.72  -20.26   -0.72  -20.26  -17.35 -158.66
   10.12  -17.64 -161.41   -0.71  -20.55   -0.71  -20.55  -17.64 -161.41
   10.18  -17.82 -163.06   -0.73  -21.00   -0.73  -21.00  -17.82 -163.06
   10.24  -18.00 -165.33   -0.76  -21.43   -0.76  -21.43  -18.00 -165.33
   10.30  -18.17 -167.78   -0.76  -21.81   -0.76  -21.81  -18.17 -167.78
   10.36  -18.39 -170.90   -0.79  -22.10   -0.79  -22.10  -18.39 -170.90
   10.42  -18.66 -173.55   -0.82  -22.44   -0.82  -22.44  -18.66 -173.55
   10.49  -18.68 -177.16   -0.82  -22.73   -0.82  -22.73  -18.68 -177.16
   10.55  -18.99  180.00   -0.88  -23.21   -0.88  -23.21  -18.99  180.00
   10.61  -19.24  175.47   -0.90  -23.28   -0.90  -23.28  -19.24  175.47
   10.67  -19.34  171.67   -0.96  -23.20   -0.96  -23.20  -19.34  171.67
   10.73  -19.67  166.44   -0.99  -23.49   -0.99  -23.49  -19.67  166.44
   10.79  -19.88  162.16   -1.04  -23.75   -1.04  -23.75  -19.88  162.16
   10.86  -20.13  155.57   -1.06  -23.64   -1.06  -23.64  -20.13  155.57
   10.92  -20.49  150.10   -1.11  -23.69   -1.11  -23.69  -20.49  150.10
   10.98  -20.67  144.62   -1.06  -23.69   -1.06  -23.69  -20.67  144.62
   11.04  -20.80  138.06   -1.08  -23.87   -1.08  -23.87  -20.80  138.06
   11.10  -21.05  131.34   -1.09  -23.95   -1.09  -23.95  -21.05  131.34
   11.17  -21.27  124.95   -1.10  -23.99   -1.10  -23.99  -21.27  124.95
   11.23  -21.25  117.70   -1.13  -24.48   -1.13  -24.48  -21.25  117.70
   11.29  -21.34  110.99   -1.09  -24.45   -1.09  -24.45  -21.34  110.99
   11.35  -21.41  103.68   -1.10  -24.57   -1.10  -24.57  -21.41  103.68
   11.41  -21.24   96.23   -1.11  -24.65   -1.11  -24.65  -21.24   96.23
   11.47  -21.19   90.07   -1.13  -24.93   -1.13  -24.93  -21.19   90.07
   11.54  -21.30   84.03   -1.12  -25.05   -1.12  -25.05  -21.30   84.03
   11.60  -21.14   79.88   -1.11  -25.28   -1.11  -25.28  -21.14   79.88
   11.66  -20.74   76.06   -1.12  -25.46   -1.12  -25.46  -20.74   76.06
   11.72  -20.40   71.12   -1.12  -25.58   -1.12  -25.58  -20.40   71.12
   11.78  -20.06   67.24   -1.11  -25.96   -1.11  -25.96  -20.06   67.24
   11.84  -19.66   63.75   -1.13  -26.28   -1.13  -26.28  -19.66   63.75
   11.91  -19.28   60.60   -1.14  -26.37   -1.14  -26.37  -19.28   60.60
   11.97  -18.76   57.45   -1.15  -26.91   -1.15  -26.91  -18.76   57.45
   12.03  -18.39   54.34   -1.20  -27.22   -1.20  -27.22  -18.39   54.34
   12.09  -17.95   50.75   -1.16  -27.63   -1.16  -27.63  -17.95   50.75
   12.15  -17.47   48.03   -1.19  -28.03   -1.19  -28.03  -17.47   48.03
   12.21  -16.98   45.36   -1.24  -28.45   -1.24  -28.45  -16.98   45.36
   12.28  -16.65   42.41   -1.24  -28.97   -1.24  -28.97  -16.65   42.41
   12.34  -16.10   39.43   -1.29  -29.46   -1.29  -29.46  -16.10   39.43
   12.40  -15.60   36.43   -1.33  -30.09   -1.33  -30.09  -15.60   36.43
