!  American Technical Ceramics  Date:    3/13/98
!  One Norden Lane
!  Huntington Station,  NY.   11746-2102
!  Tel:  (516) 547-5700               Fax:  (516) 547-5748
!  Part Number  700B391J
!  Description: Porcelain, High Q, Low ESR
!  Application: Bypass, Coupling, Timing, Feedback
!               Tuning, Impedance Match, Blocking
# GHZ S DB R 50
! Freq   |S11|   S11 Ph  |S21|   S21 Ph  |S12|   S12 Ph  |S22|   S22 Ph
    0.05  -21.47  -86.19   -0.05    4.53   -0.05    4.53  -21.47  -86.19
    0.07  -24.99  -86.58   -0.02    3.20   -0.02    3.20  -24.99  -86.58
    0.09  -26.88  -90.14    0.01    2.22    0.01    2.22  -26.88  -90.14
    0.11  -27.84  -87.56   -0.02    2.06   -0.02    2.06  -27.84  -87.56
    0.13  -29.23  -89.71    0.02    1.26    0.02    1.26  -29.23  -89.71
    0.15  -30.56  -91.27    0.04    1.40    0.04    1.40  -30.56  -91.27
    0.17  -30.92  -90.74    0.00    0.90    0.00    0.90  -30.92  -90.74
    0.19  -31.79  -90.00    0.01    1.02    0.01    1.02  -31.79  -90.00
    0.21  -32.43  -90.44    0.01    0.81    0.01    0.81  -32.43  -90.44
    0.23  -32.80  -89.70    0.01    0.65    0.01    0.65  -32.80  -89.70
    0.25  -32.95  -89.59   -0.01    0.54   -0.01    0.54  -32.95  -89.59
    0.27  -33.22  -90.88    0.01    0.35    0.01    0.35  -33.22  -90.88
    0.29  -33.55  -91.58    0.03    0.41    0.03    0.41  -33.55  -91.58
    0.31  -33.52  -90.02    0.00    0.30    0.00    0.30  -33.52  -90.02
    0.33  -33.66  -90.80   -0.01   -0.02   -0.01   -0.02  -33.66  -90.80
    0.35  -33.75  -90.59    0.01   -0.07    0.01   -0.07  -33.75  -90.59
    0.37  -33.85  -91.53    0.01   -0.16    0.01   -0.16  -33.85  -91.53
    0.39  -33.85  -91.37    0.00   -0.19    0.00   -0.19  -33.85  -91.37
    0.41  -33.73  -91.68    0.01   -0.23    0.01   -0.23  -33.73  -91.68
    0.43  -33.69  -92.14    0.00   -0.25    0.00   -0.25  -33.69  -92.14
    0.45  -33.78  -93.14   -0.01   -0.26   -0.01   -0.26  -33.78  -93.14
    0.46  -33.67  -91.76    0.00   -0.31    0.00   -0.31  -33.67  -91.76
    0.48  -33.64  -92.46    0.00   -0.28    0.00   -0.28  -33.64  -92.46
    0.50  -33.10  -94.52   -0.02   -0.67   -0.02   -0.67  -33.10  -94.52
    0.52  -33.16  -94.18    0.00   -0.68    0.00   -0.68  -33.16  -94.18
    0.54  -33.00  -93.80   -0.01   -0.71   -0.01   -0.71  -33.00  -93.80
    0.56  -32.86  -94.81    0.00   -0.62    0.00   -0.62  -32.86  -94.81
    0.58  -32.69  -94.63    0.00   -0.82    0.00   -0.82  -32.69  -94.63
    0.60  -32.63  -95.31   -0.01   -0.86   -0.01   -0.86  -32.63  -95.31
    0.62  -32.45  -94.15   -0.02   -0.87   -0.02   -0.87  -32.45  -94.15
    0.64  -32.24  -94.31   -0.02   -0.97   -0.02   -0.97  -32.24  -94.31
    0.66  -32.19  -94.95    0.00   -1.05    0.00   -1.05  -32.19  -94.95
    0.68  -32.01  -95.66   -0.01   -1.02   -0.01   -1.02  -32.01  -95.66
    0.70  -31.96  -94.61   -0.01   -1.23   -0.01   -1.23  -31.96  -94.61
    0.72  -31.96  -94.94   -0.02   -1.16   -0.02   -1.16  -31.96  -94.94
    0.74  -31.72  -95.82   -0.01   -1.15   -0.01   -1.15  -31.72  -95.82
    0.76  -31.68  -96.53   -0.01   -1.21   -0.01   -1.21  -31.68  -96.53
    0.78  -31.61  -95.93   -0.01   -1.26   -0.01   -1.26  -31.61  -95.93
    0.80  -31.43  -96.15   -0.01   -1.37   -0.01   -1.37  -31.43  -96.15
    0.82  -31.38  -96.37   -0.02   -1.50   -0.02   -1.50  -31.38  -96.37
    0.84  -31.40  -95.89   -0.01   -1.47   -0.01   -1.47  -31.40  -95.89
    0.86  -31.41  -96.17   -0.02   -1.61   -0.02   -1.61  -31.41  -96.17
    0.88  -31.38  -95.43   -0.02   -1.59   -0.02   -1.59  -31.38  -95.43
    0.90  -31.32  -95.17   -0.03   -1.83   -0.03   -1.83  -31.32  -95.17
    0.92  -31.32  -94.15   -0.03   -1.69   -0.03   -1.69  -31.32  -94.15
    0.94  -31.50  -92.85   -0.04   -1.88   -0.04   -1.88  -31.50  -92.85
    0.96  -31.63  -91.02   -0.06   -1.95   -0.06   -1.95  -31.63  -91.02
    0.98  -31.72  -86.82   -0.07   -2.13   -0.07   -2.13  -31.72  -86.82
    1.00  -31.59  -81.12   -0.09   -2.15   -0.09   -2.15  -31.59  -81.12
    1.02  -30.94  -73.03   -0.12   -2.25   -0.12   -2.25  -30.94  -73.03
    1.04  -29.36  -68.11   -0.18   -2.05   -0.18   -2.05  -29.36  -68.11
    1.06  -27.70  -70.71   -0.20   -1.82   -0.20   -1.82  -27.70  -70.71
    1.08  -26.67  -76.68   -0.18   -1.35   -0.18   -1.35  -26.67  -76.68
    1.10  -26.23  -83.22   -0.14   -1.29   -0.14   -1.29  -26.23  -83.22
    1.12  -26.13  -87.79   -0.10   -1.33   -0.10   -1.33  -26.13  -87.79
    1.14  -26.14  -91.02   -0.09   -1.36   -0.09   -1.36  -26.14  -91.02
    1.16  -26.19  -93.57   -0.08   -1.32   -0.08   -1.32  -26.19  -93.57
    1.18  -26.21  -95.15   -0.06   -1.45   -0.06   -1.45  -26.21  -95.15
    1.20  -26.26  -97.20   -0.06   -1.52   -0.06   -1.52  -26.26  -97.20
    1.22  -26.26  -96.87   -0.05   -1.67   -0.05   -1.67  -26.26  -96.87
    1.24  -26.28  -97.66   -0.05   -1.70   -0.05   -1.70  -26.28  -97.66
    1.25  -26.26  -98.30   -0.05   -1.82   -0.05   -1.82  -26.26  -98.30
    1.27  -26.23  -98.54   -0.04   -1.86   -0.04   -1.86  -26.23  -98.54
    1.29  -26.09  -99.08   -0.05   -1.91   -0.05   -1.91  -26.09  -99.08
    1.31  -26.06  -99.77   -0.04   -1.80   -0.04   -1.80  -26.06  -99.77
    1.33  -25.98 -100.22   -0.05   -1.96   -0.05   -1.96  -25.98 -100.22
    1.35  -25.93 -100.36   -0.04   -1.99   -0.04   -1.99  -25.93 -100.36
    1.37  -25.87 -100.89   -0.04   -1.96   -0.04   -1.96  -25.87 -100.89
    1.39  -25.76 -100.72   -0.04   -2.24   -0.04   -2.24  -25.76 -100.72
    1.41  -25.73 -100.91   -0.04   -2.29   -0.04   -2.29  -25.73 -100.91
    1.43  -25.64 -101.16   -0.04   -2.14   -0.04   -2.14  -25.64 -101.16
    1.45  -25.53 -102.13   -0.04   -2.24   -0.04   -2.24  -25.53 -102.13
    1.47  -25.49 -102.36   -0.04   -2.21   -0.04   -2.21  -25.49 -102.36
    1.49  -25.41 -102.55   -0.03   -2.30   -0.03   -2.30  -25.41 -102.55
    1.51  -25.40 -102.28   -0.03   -2.36   -0.03   -2.36  -25.40 -102.28
    1.53  -25.24 -102.50   -0.05   -2.45   -0.05   -2.45  -25.24 -102.50
    1.55  -25.10 -102.74   -0.05   -2.55   -0.05   -2.55  -25.10 -102.74
    1.57  -25.04 -102.85   -0.04   -2.47   -0.04   -2.47  -25.04 -102.85
    1.59  -25.06 -102.82   -0.05   -2.50   -0.05   -2.50  -25.06 -102.82
    1.61  -25.03 -103.02   -0.04   -2.66   -0.04   -2.66  -25.03 -103.02
    1.63  -24.87 -102.91   -0.05   -2.62   -0.05   -2.62  -24.87 -102.91
    1.65  -24.79 -103.17   -0.07   -2.69   -0.07   -2.69  -24.79 -103.17
    1.67  -24.77 -103.58   -0.05   -2.74   -0.05   -2.74  -24.77 -103.58
    1.69  -24.71 -103.24   -0.05   -2.74   -0.05   -2.74  -24.71 -103.24
    1.71  -24.59 -103.02   -0.06   -2.72   -0.06   -2.72  -24.59 -103.02
    1.73  -24.46 -103.07   -0.04   -3.00   -0.04   -3.00  -24.46 -103.07
    1.75  -24.47 -103.22   -0.06   -3.00   -0.06   -3.00  -24.47 -103.22
    1.77  -24.45 -103.19   -0.06   -3.07   -0.06   -3.07  -24.45 -103.19
    1.79  -24.31 -102.82   -0.08   -3.02   -0.08   -3.02  -24.31 -102.82
    1.81  -24.19 -102.51   -0.06   -3.06   -0.06   -3.06  -24.19 -102.51
    1.83  -24.11 -102.45   -0.08   -3.03   -0.08   -3.03  -24.11 -102.45
    1.85  -24.08 -102.49   -0.08   -3.13   -0.08   -3.13  -24.08 -102.49
    1.87  -23.95 -102.11   -0.09   -3.23   -0.09   -3.23  -23.95 -102.11
    1.89  -23.85 -101.39   -0.09   -3.21   -0.09   -3.21  -23.85 -101.39
    1.91  -23.70 -100.94   -0.10   -3.26   -0.10   -3.26  -23.70 -100.94
    1.93  -23.54 -100.68   -0.12   -3.32   -0.12   -3.32  -23.54 -100.68
    1.95  -23.35 -100.76   -0.12   -3.24   -0.12   -3.24  -23.35 -100.76
    1.97  -23.17 -100.53   -0.11   -3.26   -0.11   -3.26  -23.17 -100.53
    1.99  -23.01 -100.81   -0.12   -3.27   -0.12   -3.27  -23.01 -100.81
    2.01  -22.87 -100.89   -0.10   -3.25   -0.10   -3.25  -22.87 -100.89
    2.03  -22.68 -101.20   -0.12   -3.23   -0.12   -3.23  -22.68 -101.20
    2.04  -22.52 -102.02   -0.11   -3.15   -0.11   -3.15  -22.52 -102.02
    2.06  -22.35 -102.73   -0.10   -3.26   -0.10   -3.26  -22.35 -102.73
    2.08  -22.33 -103.17   -0.12   -3.24   -0.12   -3.24  -22.33 -103.17
    2.10  -22.20 -103.57   -0.10   -3.41   -0.10   -3.41  -22.20 -103.57
    2.12  -22.07 -103.82   -0.10   -3.43   -0.10   -3.43  -22.07 -103.82
    2.14  -21.99 -104.32   -0.10   -3.44   -0.10   -3.44  -21.99 -104.32
    2.16  -22.01 -104.71   -0.10   -3.40   -0.10   -3.40  -22.01 -104.71
    2.18  -21.90 -105.21   -0.10   -3.43   -0.10   -3.43  -21.90 -105.21
    2.20  -21.83 -105.47   -0.09   -3.48   -0.09   -3.48  -21.83 -105.47
    2.22  -21.77 -105.88   -0.10   -3.56   -0.10   -3.56  -21.77 -105.88
    2.24  -21.69 -106.23   -0.08   -3.62   -0.08   -3.62  -21.69 -106.23
    2.26  -21.68 -106.45   -0.09   -3.42   -0.09   -3.42  -21.68 -106.45
    2.28  -21.58 -106.34   -0.08   -3.70   -0.08   -3.70  -21.58 -106.34
    2.30  -21.49 -106.67   -0.10   -3.59   -0.10   -3.59  -21.49 -106.67
    2.32  -21.46 -107.02   -0.11   -3.72   -0.11   -3.72  -21.46 -107.02
    2.34  -21.45 -107.22   -0.09   -3.65   -0.09   -3.65  -21.45 -107.22
    2.36  -21.42 -107.32   -0.09   -3.71   -0.09   -3.71  -21.42 -107.32
    2.38  -21.34 -107.40   -0.09   -3.73   -0.09   -3.73  -21.34 -107.40
    2.40  -21.25 -107.53   -0.09   -3.73   -0.09   -3.73  -21.25 -107.53
    2.42  -21.18 -107.59   -0.10   -3.96   -0.10   -3.96  -21.18 -107.59
    2.44  -21.15 -108.13   -0.09   -3.88   -0.09   -3.88  -21.15 -108.13
    2.46  -21.08 -107.81   -0.09   -3.90   -0.09   -3.90  -21.08 -107.81
    2.48  -21.02 -107.90   -0.09   -3.97   -0.09   -3.97  -21.02 -107.90
    2.50  -20.97 -107.98   -0.09   -4.13   -0.09   -4.13  -20.97 -107.98
    2.52  -20.90 -108.39   -0.12   -4.02   -0.12   -4.02  -20.90 -108.39
    2.54  -20.85 -108.22   -0.09   -4.06   -0.09   -4.06  -20.85 -108.22
    2.56  -20.81 -108.39   -0.11   -4.10   -0.11   -4.10  -20.81 -108.39
    2.58  -20.82 -108.30   -0.10   -4.24   -0.10   -4.24  -20.82 -108.30
    2.60  -20.71 -108.50   -0.10   -4.50   -0.10   -4.50  -20.71 -108.50
    2.62  -20.67 -108.91   -0.12   -4.30   -0.12   -4.30  -20.67 -108.91
    2.64  -20.56 -108.44   -0.11   -4.13   -0.11   -4.13  -20.56 -108.44
    2.66  -20.54 -108.47   -0.12   -4.34   -0.12   -4.34  -20.54 -108.47
    2.68  -20.49 -108.45   -0.11   -4.51   -0.11   -4.51  -20.49 -108.45
    2.70  -20.41 -108.38   -0.12   -4.35   -0.12   -4.35  -20.41 -108.38
    2.72  -20.36 -108.81   -0.14   -4.49   -0.14   -4.49  -20.36 -108.81
    2.74  -20.30 -108.69   -0.14   -4.48   -0.14   -4.48  -20.30 -108.69
    2.76  -20.25 -108.50   -0.13   -4.58   -0.13   -4.58  -20.25 -108.50
    2.78  -20.20 -108.63   -0.13   -4.64   -0.13   -4.64  -20.20 -108.63
    2.80  -20.06 -108.60   -0.13   -4.62   -0.13   -4.62  -20.06 -108.60
    2.82  -20.00 -108.50   -0.15   -4.52   -0.15   -4.52  -20.00 -108.50
    2.83  -19.96 -108.51   -0.15   -4.57   -0.15   -4.57  -19.96 -108.51
    2.85  -19.88 -108.84   -0.15   -4.73   -0.15   -4.73  -19.88 -108.84
    2.87  -19.79 -108.75   -0.14   -4.77   -0.14   -4.77  -19.79 -108.75
    2.89  -19.71 -108.91   -0.15   -4.52   -0.15   -4.52  -19.71 -108.91
    2.91  -19.67 -109.13   -0.14   -4.75   -0.14   -4.75  -19.67 -109.13
    2.93  -19.61 -109.41   -0.14   -4.66   -0.14   -4.66  -19.61 -109.41
    2.95  -19.53 -109.45   -0.15   -4.93   -0.15   -4.93  -19.53 -109.45
    2.97  -19.48 -109.47   -0.16   -4.87   -0.16   -4.87  -19.48 -109.47
    2.99  -19.43 -109.59   -0.15   -4.84   -0.15   -4.84  -19.43 -109.59
    3.01  -19.37 -109.53   -0.14   -4.71   -0.14   -4.71  -19.37 -109.53
    3.03  -19.33 -109.68   -0.16   -4.88   -0.16   -4.88  -19.33 -109.68
    3.05  -19.23 -109.80   -0.14   -4.88   -0.14   -4.88  -19.23 -109.80
    3.07  -19.22 -110.27   -0.14   -5.00   -0.14   -5.00  -19.22 -110.27
    3.09  -19.19 -110.46   -0.15   -5.06   -0.15   -5.06  -19.19 -110.46
    3.11  -19.14 -110.70   -0.16   -5.00   -0.16   -5.00  -19.14 -110.70
    3.13  -19.08 -110.11   -0.15   -4.97   -0.15   -4.97  -19.08 -110.11
    3.15  -19.02 -110.38   -0.15   -5.11   -0.15   -5.11  -19.02 -110.38
    3.17  -18.97 -110.62   -0.15   -5.24   -0.15   -5.24  -18.97 -110.62
    3.19  -18.97 -110.66   -0.17   -5.13   -0.17   -5.13  -18.97 -110.66
    3.21  -18.91 -110.45   -0.16   -5.18   -0.16   -5.18  -18.91 -110.45
    3.23  -18.84 -110.77   -0.16   -5.29   -0.16   -5.29  -18.84 -110.77
    3.25  -18.84 -110.75   -0.15   -5.28   -0.15   -5.28  -18.84 -110.75
    3.27  -18.78 -110.68   -0.15   -5.32   -0.15   -5.32  -18.78 -110.68
    3.29  -18.73 -110.88   -0.16   -5.26   -0.16   -5.26  -18.73 -110.88
    3.31  -18.66 -110.92   -0.16   -5.39   -0.16   -5.39  -18.66 -110.92
    3.33  -18.63 -111.05   -0.16   -5.49   -0.16   -5.49  -18.63 -111.05
    3.35  -18.61 -111.00   -0.17   -5.40   -0.17   -5.40  -18.61 -111.00
    3.37  -18.53 -111.15   -0.16   -5.56   -0.16   -5.56  -18.53 -111.15
    3.39  -18.48 -110.85   -0.17   -5.51   -0.17   -5.51  -18.48 -110.85
    3.41  -18.46 -111.10   -0.17   -5.59   -0.17   -5.59  -18.46 -111.10
    3.43  -18.45 -111.23   -0.16   -5.60   -0.16   -5.60  -18.45 -111.23
    3.45  -18.43 -111.36   -0.17   -5.67   -0.17   -5.67  -18.43 -111.36
    3.47  -18.35 -111.08   -0.18   -5.70   -0.18   -5.70  -18.35 -111.08
    3.49  -18.32 -111.31   -0.18   -5.72   -0.18   -5.72  -18.32 -111.31
    3.51  -18.29 -111.27   -0.18   -5.66   -0.18   -5.66  -18.29 -111.27
    3.53  -18.20 -111.45   -0.19   -5.78   -0.19   -5.78  -18.20 -111.45
    3.55  -18.17 -111.28   -0.19   -5.80   -0.19   -5.80  -18.17 -111.28
    3.57  -18.11 -111.30   -0.19   -5.93   -0.19   -5.93  -18.11 -111.30
    3.59  -18.08 -111.22   -0.20   -5.69   -0.20   -5.69  -18.08 -111.22
    3.61  -18.04 -111.36   -0.19   -6.08   -0.19   -6.08  -18.04 -111.36
    3.62  -17.98 -111.47   -0.18   -5.94   -0.18   -5.94  -17.98 -111.47
    3.64  -17.96 -111.40   -0.19   -5.98   -0.19   -5.98  -17.96 -111.40
    3.66  -17.92 -111.49   -0.19   -6.09   -0.19   -6.09  -17.92 -111.49
    3.68  -17.89 -111.51   -0.20   -6.14   -0.20   -6.14  -17.89 -111.51
    3.70  -17.79 -111.33   -0.19   -6.00   -0.19   -6.00  -17.79 -111.33
    3.72  -17.74 -111.17   -0.23   -6.01   -0.23   -6.01  -17.74 -111.17
    3.74  -17.73 -111.25   -0.20   -6.36   -0.20   -6.36  -17.73 -111.25
    3.76  -17.66 -111.56   -0.20   -6.32   -0.20   -6.32  -17.66 -111.56
    3.78  -17.64 -111.64   -0.21   -6.42   -0.21   -6.42  -17.64 -111.64
    3.80  -17.62 -111.42   -0.21   -6.19   -0.21   -6.19  -17.62 -111.42
    3.82  -17.52 -111.38   -0.22   -6.32   -0.22   -6.32  -17.52 -111.38
    3.84  -17.51 -111.52   -0.21   -6.34   -0.21   -6.34  -17.51 -111.52
    3.86  -17.43 -111.58   -0.23   -6.38   -0.23   -6.38  -17.43 -111.58
    3.88  -17.35 -111.79   -0.22   -6.42   -0.22   -6.42  -17.35 -111.79
    3.90  -17.33 -111.51   -0.22   -6.50   -0.22   -6.50  -17.33 -111.51
    3.92  -17.27 -111.86   -0.22   -6.42   -0.22   -6.42  -17.27 -111.86
    3.94  -17.24 -111.68   -0.22   -6.59   -0.22   -6.59  -17.24 -111.68
    3.96  -17.18 -111.71   -0.23   -6.52   -0.23   -6.52  -17.18 -111.71
    3.98  -17.15 -111.65   -0.23   -6.63   -0.23   -6.63  -17.15 -111.65
    4.00  -17.46 -113.67   -0.21   -6.75   -0.21   -6.75  -17.46 -113.67
