!  American Technical Ceramics  Date:    3/13/98
!  One Norden Lane
!  Huntington Station,  NY.   11746-2102
!  Tel:  (516) 547-5700               Fax:  (516) 547-5748
!  Part Number  700B121K
!  Description: Porcelain, High Q, Low ESR
!  Application: Bypass, Coupling, Timing, Feedback
!               Tuning, Impedance Match, Blocking
# GHZ S DB R 50
! Freq   |S11|   S11 Ph  |S21|   S21 Ph  |S12|   S12 Ph  |S22|   S22 Ph
    0.05  -12.04  -75.21   -0.27   13.98   -0.27   13.98  -12.04  -75.21
    0.07  -14.89  -80.08   -0.15   10.17   -0.15   10.17  -14.89  -80.08
    0.09  -16.81  -82.54   -0.08    7.72   -0.08    7.72  -16.81  -82.54
    0.11  -18.39  -83.95   -0.06    6.39   -0.06    6.39  -18.39  -83.95
    0.13  -19.90  -85.48    0.00    4.93    0.00    4.93  -19.90  -85.48
    0.15  -21.05  -86.10   -0.02    4.51   -0.02    4.51  -21.05  -86.10
    0.17  -21.96  -87.36   -0.02    3.81   -0.02    3.81  -21.96  -87.36
    0.19  -22.90  -86.70    0.00    3.35    0.00    3.35  -22.90  -86.70
    0.21  -23.63  -87.64   -0.01    3.03   -0.01    3.03  -23.63  -87.64
    0.23  -24.24  -88.13    0.01    2.67    0.01    2.67  -24.24  -88.13
    0.25  -24.83  -88.62    0.00    2.36    0.00    2.36  -24.83  -88.62
    0.27  -25.30  -88.56    0.00    2.18    0.00    2.18  -25.30  -88.56
    0.29  -25.74  -89.41   -0.01    1.93   -0.01    1.93  -25.74  -89.41
    0.31  -26.25  -89.71    0.00    1.64    0.00    1.64  -26.25  -89.71
    0.33  -26.57  -90.29    0.01    1.43    0.01    1.43  -26.57  -90.29
    0.35  -26.83  -89.82    0.01    1.32    0.01    1.32  -26.83  -89.82
    0.37  -27.14  -89.84   -0.01    0.95   -0.01    0.95  -27.14  -89.84
    0.39  -27.38  -90.26    0.00    0.90    0.00    0.90  -27.38  -90.26
    0.41  -27.62  -90.59    0.00    0.67    0.00    0.67  -27.62  -90.59
    0.43  -27.80  -91.28    0.00    0.77    0.00    0.77  -27.80  -91.28
    0.45  -27.98  -91.43    0.00    0.58    0.00    0.58  -27.98  -91.43
    0.46  -28.10  -91.16    0.00    0.56    0.00    0.56  -28.10  -91.16
    0.48  -28.25  -91.84    0.00    0.27    0.00    0.27  -28.25  -91.84
    0.50  -28.30  -92.67   -0.02    0.25   -0.02    0.25  -28.30  -92.67
    0.52  -28.39  -93.47    0.00    0.11    0.00    0.11  -28.39  -93.47
    0.54  -28.47  -92.27    0.00    0.08    0.00    0.08  -28.47  -92.27
    0.56  -28.51  -93.41   -0.01    0.13   -0.01    0.13  -28.51  -93.41
    0.58  -28.60  -93.24   -0.01   -0.22   -0.01   -0.22  -28.60  -93.24
    0.60  -28.59  -94.20   -0.01   -0.26   -0.01   -0.26  -28.59  -94.20
    0.62  -28.55  -93.89    0.00   -0.31    0.00   -0.31  -28.55  -93.89
    0.64  -28.60  -93.81    0.00   -0.30    0.00   -0.30  -28.60  -93.81
    0.66  -28.57  -94.17    0.00   -0.53    0.00   -0.53  -28.57  -94.17
    0.68  -28.50  -94.72   -0.01   -0.54   -0.01   -0.54  -28.50  -94.72
    0.70  -28.66  -94.33   -0.01   -0.67   -0.01   -0.67  -28.66  -94.33
    0.72  -28.60  -94.72   -0.01   -0.80   -0.01   -0.80  -28.60  -94.72
    0.74  -28.44  -95.27   -0.01   -0.74   -0.01   -0.74  -28.44  -95.27
    0.76  -28.48  -95.50   -0.01   -0.79   -0.01   -0.79  -28.48  -95.50
    0.78  -28.40  -95.64   -0.01   -0.84   -0.01   -0.84  -28.40  -95.64
    0.80  -28.42  -95.92   -0.02   -1.09   -0.02   -1.09  -28.42  -95.92
    0.82  -28.36  -96.30   -0.01   -1.06   -0.01   -1.06  -28.36  -96.30
    0.84  -28.33  -96.70    0.00   -1.07    0.00   -1.07  -28.33  -96.70
    0.86  -28.34  -96.72   -0.01   -1.23   -0.01   -1.23  -28.34  -96.72
    0.88  -28.19  -97.08   -0.02   -1.24   -0.02   -1.24  -28.19  -97.08
    0.90  -28.13  -96.68   -0.02   -1.29   -0.02   -1.29  -28.13  -96.68
    0.92  -28.02  -97.21   -0.01   -1.35   -0.01   -1.35  -28.02  -97.21
    0.94  -27.99  -97.96   -0.01   -1.43   -0.01   -1.43  -27.99  -97.96
    0.96  -27.92  -98.41   -0.01   -1.45   -0.01   -1.45  -27.92  -98.41
    0.98  -27.84  -98.42   -0.01   -1.69   -0.01   -1.69  -27.84  -98.42
    1.00  -27.84  -98.61   -0.02   -1.64   -0.02   -1.64  -27.84  -98.61
    1.02  -27.81  -98.93    0.00   -1.71    0.00   -1.71  -27.81  -98.93
    1.04  -27.73  -98.52   -0.03   -1.73   -0.03   -1.73  -27.73  -98.52
    1.06  -27.61  -98.83   -0.01   -1.79   -0.01   -1.79  -27.61  -98.83
    1.08  -27.55  -99.33   -0.02   -1.71   -0.02   -1.71  -27.55  -99.33
    1.10  -27.52  -99.68   -0.01   -1.98   -0.01   -1.98  -27.52  -99.68
    1.12  -27.41  -99.61   -0.01   -2.09   -0.01   -2.09  -27.41  -99.61
    1.14  -27.33  -99.80   -0.02   -2.03   -0.02   -2.03  -27.33  -99.80
    1.16  -27.26 -100.39   -0.01   -2.04   -0.01   -2.04  -27.26 -100.39
    1.18  -27.19 -100.57   -0.01   -2.17   -0.01   -2.17  -27.19 -100.57
    1.20  -27.17 -101.43   -0.03   -2.13   -0.03   -2.13  -27.17 -101.43
    1.22  -27.04 -100.83   -0.02   -2.28   -0.02   -2.28  -27.04 -100.83
    1.24  -27.06 -101.20   -0.03   -2.43   -0.03   -2.43  -27.06 -101.20
    1.25  -26.97 -100.99   -0.03   -2.44   -0.03   -2.44  -26.97 -100.99
    1.27  -26.92 -101.21   -0.02   -2.55   -0.02   -2.55  -26.92 -101.21
    1.29  -26.85 -101.39   -0.02   -2.58   -0.02   -2.58  -26.85 -101.39
    1.31  -26.76 -101.92   -0.02   -2.53   -0.02   -2.53  -26.76 -101.92
    1.33  -26.70 -102.20   -0.03   -2.74   -0.03   -2.74  -26.70 -102.20
    1.35  -26.65 -102.36   -0.02   -2.74   -0.02   -2.74  -26.65 -102.36
    1.37  -26.54 -102.39   -0.02   -2.76   -0.02   -2.76  -26.54 -102.39
    1.39  -26.49 -102.63   -0.03   -2.90   -0.03   -2.90  -26.49 -102.63
    1.41  -26.50 -102.67   -0.02   -2.94   -0.02   -2.94  -26.50 -102.67
    1.43  -26.44 -102.89   -0.03   -2.90   -0.03   -2.90  -26.44 -102.89
    1.45  -26.38 -103.44   -0.02   -2.99   -0.02   -2.99  -26.38 -103.44
    1.47  -26.36 -103.74   -0.03   -3.08   -0.03   -3.08  -26.36 -103.74
    1.49  -26.36 -104.32   -0.02   -3.17   -0.02   -3.17  -26.36 -104.32
    1.51  -26.36 -104.18   -0.02   -3.23   -0.02   -3.23  -26.36 -104.18
    1.53  -26.32 -104.19   -0.03   -3.32   -0.03   -3.32  -26.32 -104.19
    1.55  -26.22 -104.85   -0.02   -3.56   -0.02   -3.56  -26.22 -104.85
    1.57  -26.22 -104.78   -0.04   -3.41   -0.04   -3.41  -26.22 -104.78
    1.59  -26.39 -105.05   -0.03   -3.58   -0.03   -3.58  -26.39 -105.05
    1.61  -26.47 -104.84   -0.03   -3.69   -0.03   -3.69  -26.47 -104.84
    1.63  -26.43 -105.20   -0.04   -3.82   -0.04   -3.82  -26.43 -105.20
    1.65  -26.58 -105.46   -0.04   -3.95   -0.04   -3.95  -26.58 -105.46
    1.67  -26.78 -106.20   -0.04   -4.00   -0.04   -4.00  -26.78 -106.20
    1.69  -27.00 -105.86   -0.03   -4.23   -0.03   -4.23  -27.00 -105.86
    1.71  -27.24 -105.42   -0.05   -4.28   -0.05   -4.28  -27.24 -105.42
    1.73  -27.56 -105.38   -0.03   -4.61   -0.03   -4.61  -27.56 -105.38
    1.75  -28.23 -105.33   -0.05   -4.82   -0.05   -4.82  -28.23 -105.33
    1.77  -29.21 -103.73   -0.06   -5.13   -0.06   -5.13  -29.21 -103.73
    1.79  -30.66 -100.32   -0.11   -5.44   -0.11   -5.44  -30.66 -100.32
    1.81  -33.24  -87.82   -0.12   -6.00   -0.12   -6.00  -33.24  -87.82
    1.83  -35.24  -39.39   -0.21   -6.79   -0.21   -6.79  -35.24  -39.39
    1.85  -27.07   -0.70   -0.46   -7.76   -0.46   -7.76  -27.07   -0.70
    1.87  -19.04  -16.63   -1.10   -7.09   -1.10   -7.09  -19.04  -16.63
    1.89  -16.14  -54.56   -1.14   -0.99   -1.14   -0.99  -16.14  -54.56
    1.91  -17.11  -78.68   -0.53   -0.01   -0.53   -0.01  -17.11  -78.68
    1.93  -18.31  -89.15   -0.31   -0.65   -0.31   -0.65  -18.31  -89.15
    1.95  -19.14  -94.49   -0.20   -1.39   -0.20   -1.39  -19.14  -94.49
    1.97  -19.69  -97.59   -0.14   -2.03   -0.14   -2.03  -19.69  -97.59
    1.99  -20.11  -99.36   -0.11   -2.27   -0.11   -2.27  -20.11  -99.36
    2.01  -20.43 -100.73   -0.09   -2.54   -0.09   -2.54  -20.43 -100.73
    2.03  -20.66 -101.59   -0.09   -2.71   -0.09   -2.71  -20.66 -101.59
    2.04  -20.76 -102.48   -0.09   -2.95   -0.09   -2.95  -20.76 -102.48
    2.06  -20.84 -103.45   -0.06   -3.09   -0.06   -3.09  -20.84 -103.45
    2.08  -20.98 -103.75   -0.08   -3.28   -0.08   -3.28  -20.98 -103.75
    2.10  -21.03 -104.13   -0.07   -3.35   -0.07   -3.35  -21.03 -104.13
    2.12  -21.04 -104.37   -0.08   -3.50   -0.08   -3.50  -21.04 -104.37
    2.14  -21.05 -104.76   -0.07   -3.62   -0.07   -3.62  -21.05 -104.76
    2.16  -21.14 -105.10   -0.07   -3.74   -0.07   -3.74  -21.14 -105.10
    2.18  -21.13 -105.58   -0.08   -3.72   -0.08   -3.72  -21.13 -105.58
    2.20  -21.12 -105.66   -0.07   -3.81   -0.07   -3.81  -21.12 -105.66
    2.22  -21.10 -106.01   -0.07   -3.91   -0.07   -3.91  -21.10 -106.01
    2.24  -21.07 -106.22   -0.06   -4.01   -0.06   -4.01  -21.07 -106.22
    2.26  -21.08 -106.51   -0.08   -4.01   -0.08   -4.01  -21.08 -106.51
    2.28  -21.04 -106.42   -0.06   -4.19   -0.06   -4.19  -21.04 -106.42
    2.30  -20.96 -106.68   -0.07   -4.18   -0.07   -4.18  -20.96 -106.68
    2.32  -20.98 -107.01   -0.08   -4.32   -0.08   -4.32  -20.98 -107.01
    2.34  -21.01 -107.20   -0.06   -4.22   -0.06   -4.22  -21.01 -107.20
    2.36  -20.97 -107.37   -0.06   -4.35   -0.06   -4.35  -20.97 -107.37
    2.38  -20.93 -107.40   -0.06   -4.42   -0.06   -4.42  -20.93 -107.40
    2.40  -20.85 -107.61   -0.08   -4.30   -0.08   -4.30  -20.85 -107.61
    2.42  -20.83 -107.74   -0.08   -4.58   -0.08   -4.58  -20.83 -107.74
    2.44  -20.80 -108.25   -0.07   -4.63   -0.07   -4.63  -20.80 -108.25
    2.46  -20.78 -107.91   -0.06   -4.58   -0.06   -4.58  -20.78 -107.91
    2.48  -20.71 -108.11   -0.07   -4.71   -0.07   -4.71  -20.71 -108.11
    2.50  -20.66 -108.14   -0.07   -4.86   -0.07   -4.86  -20.66 -108.14
    2.52  -20.62 -108.76   -0.07   -4.88   -0.07   -4.88  -20.62 -108.76
    2.54  -20.60 -108.65   -0.08   -4.72   -0.08   -4.72  -20.60 -108.65
    2.56  -20.57 -108.98   -0.09   -4.92   -0.09   -4.92  -20.57 -108.98
    2.58  -20.56 -108.76   -0.07   -5.02   -0.07   -5.02  -20.56 -108.76
    2.60  -20.45 -109.00   -0.05   -5.06   -0.05   -5.06  -20.45 -109.00
    2.62  -20.48 -109.47   -0.10   -5.15   -0.10   -5.15  -20.48 -109.47
    2.64  -20.39 -109.24   -0.08   -5.09   -0.08   -5.09  -20.39 -109.24
    2.66  -20.34 -109.25   -0.08   -5.30   -0.08   -5.30  -20.34 -109.25
    2.68  -20.34 -109.62   -0.08   -5.37   -0.08   -5.37  -20.34 -109.62
    2.70  -20.28 -109.46   -0.08   -5.22   -0.08   -5.22  -20.28 -109.46
    2.72  -20.24 -109.84   -0.09   -5.40   -0.09   -5.40  -20.24 -109.84
    2.74  -20.23 -109.94   -0.09   -5.46   -0.09   -5.46  -20.23 -109.94
    2.76  -20.20 -109.92   -0.08   -5.55   -0.08   -5.55  -20.20 -109.92
    2.78  -20.14 -110.07   -0.09   -5.65   -0.09   -5.65  -20.14 -110.07
    2.80  -20.07 -110.16   -0.08   -5.59   -0.08   -5.59  -20.07 -110.16
    2.82  -20.07 -110.02   -0.10   -5.53   -0.10   -5.53  -20.07 -110.02
    2.83  -20.02 -110.05   -0.09   -5.67   -0.09   -5.67  -20.02 -110.05
    2.85  -19.98 -110.38   -0.09   -5.72   -0.09   -5.72  -19.98 -110.38
    2.87  -19.94 -110.31   -0.08   -5.86   -0.08   -5.86  -19.94 -110.31
    2.89  -19.90 -110.41   -0.09   -5.76   -0.09   -5.76  -19.90 -110.41
    2.91  -19.88 -110.72   -0.09   -6.09   -0.09   -6.09  -19.88 -110.72
    2.93  -19.86 -110.91   -0.09   -6.00   -0.09   -6.00  -19.86 -110.91
    2.95  -19.82 -110.74   -0.10   -6.06   -0.10   -6.06  -19.82 -110.74
    2.97  -19.81 -110.76   -0.10   -6.11   -0.10   -6.11  -19.81 -110.76
    2.99  -19.78 -111.00   -0.10   -6.28   -0.10   -6.28  -19.78 -111.00
    3.01  -19.78 -110.76   -0.11   -6.12   -0.11   -6.12  -19.78 -110.76
    3.03  -19.77 -110.97   -0.12   -6.37   -0.12   -6.37  -19.77 -110.97
    3.05  -19.71 -110.87   -0.09   -6.36   -0.09   -6.36  -19.71 -110.87
    3.07  -19.73 -111.24   -0.10   -6.54   -0.10   -6.54  -19.73 -111.24
    3.09  -19.74 -111.28   -0.11   -6.63   -0.11   -6.63  -19.74 -111.28
    3.11  -19.73 -111.34   -0.11   -6.65   -0.11   -6.65  -19.73 -111.34
    3.13  -19.70 -110.79   -0.10   -6.62   -0.10   -6.62  -19.70 -110.79
    3.15  -19.71 -110.99   -0.13   -6.77   -0.13   -6.77  -19.71 -110.99
    3.17  -19.71 -111.02   -0.11   -6.85   -0.11   -6.85  -19.71 -111.02
    3.19  -19.77 -111.06   -0.12   -6.94   -0.12   -6.94  -19.77 -111.06
    3.21  -19.75 -110.70   -0.12   -7.01   -0.12   -7.01  -19.75 -110.70
    3.23  -19.78 -111.03   -0.12   -7.15   -0.12   -7.15  -19.78 -111.03
    3.25  -19.88 -110.78   -0.12   -7.26   -0.12   -7.26  -19.88 -110.78
    3.27  -19.96 -110.30   -0.14   -7.32   -0.14   -7.32  -19.96 -110.30
    3.29  -20.03 -110.12   -0.15   -7.49   -0.15   -7.49  -20.03 -110.12
    3.31  -20.17 -109.58   -0.15   -7.74   -0.15   -7.74  -20.17 -109.58
    3.33  -20.37 -108.86   -0.16   -7.96   -0.16   -7.96  -20.37 -108.86
    3.35  -20.61 -107.29   -0.19   -8.07   -0.19   -8.07  -20.61 -107.29
    3.37  -20.85 -104.99   -0.23   -8.44   -0.23   -8.44  -20.85 -104.99
    3.39  -21.11 -100.10   -0.29   -8.71   -0.29   -8.71  -21.11 -100.10
    3.41  -21.09  -93.54   -0.37   -8.90   -0.37   -8.90  -21.09  -93.54
    3.43  -20.34  -85.35   -0.52   -8.78   -0.52   -8.78  -20.34  -85.35
    3.45  -18.75  -81.75   -0.66   -7.98   -0.66   -7.98  -18.75  -81.75
    3.47  -17.21  -85.18   -0.69   -6.83   -0.69   -6.83  -17.21  -85.18
    3.49  -16.52  -91.70   -0.58   -5.74   -0.58   -5.74  -16.52  -91.70
    3.51  -16.33  -97.08   -0.46   -5.44   -0.46   -5.44  -16.33  -97.08
    3.53  -16.35 -101.04   -0.38   -5.48   -0.38   -5.48  -16.35 -101.04
    3.55  -16.46 -103.30   -0.31   -5.60   -0.31   -5.60  -16.46 -103.30
    3.57  -16.57 -104.99   -0.28   -5.79   -0.28   -5.79  -16.57 -104.99
    3.59  -16.65 -106.41   -0.25   -5.95   -0.25   -5.95  -16.65 -106.41
    3.61  -16.73 -107.33   -0.23   -6.21   -0.23   -6.21  -16.73 -107.33
    3.62  -16.78 -108.09   -0.20   -6.25   -0.20   -6.25  -16.78 -108.09
    3.64  -16.85 -108.51   -0.21   -6.33   -0.21   -6.33  -16.85 -108.51
    3.66  -16.91 -109.00   -0.20   -6.51   -0.20   -6.51  -16.91 -109.00
    3.68  -16.93 -109.28   -0.19   -6.73   -0.19   -6.73  -16.93 -109.28
    3.70  -16.91 -109.49   -0.21   -6.62   -0.21   -6.62  -16.91 -109.49
    3.72  -16.92 -109.59   -0.20   -6.78   -0.20   -6.78  -16.92 -109.59
    3.74  -16.94 -109.93   -0.19   -7.04   -0.19   -7.04  -16.94 -109.93
    3.76  -16.91 -110.29   -0.17   -7.13   -0.17   -7.13  -16.91 -110.29
    3.78  -16.94 -110.48   -0.17   -7.33   -0.17   -7.33  -16.94 -110.48
    3.80  -16.96 -110.38   -0.19   -7.12   -0.19   -7.12  -16.96 -110.38
    3.82  -16.91 -110.36   -0.19   -7.20   -0.19   -7.20  -16.91 -110.36
    3.84  -16.94 -110.52   -0.19   -7.34   -0.19   -7.34  -16.94 -110.52
    3.86  -16.88 -110.65   -0.19   -7.41   -0.19   -7.41  -16.88 -110.65
    3.88  -16.82 -110.68   -0.20   -7.38   -0.20   -7.38  -16.82 -110.68
    3.90  -16.83 -110.56   -0.20   -7.47   -0.20   -7.47  -16.83 -110.56
    3.92  -16.80 -110.81   -0.20   -7.59   -0.20   -7.59  -16.80 -110.81
    3.94  -16.77 -110.85   -0.19   -7.67   -0.19   -7.67  -16.77 -110.85
    3.96  -16.74 -110.82   -0.20   -7.59   -0.20   -7.59  -16.74 -110.82
    3.98  -16.69 -110.93   -0.20   -7.79   -0.20   -7.79  -16.69 -110.93
    4.00  -16.98 -112.92   -0.17   -7.89   -0.17   -7.89  -16.98 -112.92
