!Murata Part Number: GRM31A7U2J222JW31
!These Parameters are Measured in Series Mode Connection
!Data Generated on Mar 30, 2021
!       o--ll--o
!Port1            Port2
!       o------o
!Operation Temp=25[degC], DC Bias Voltage=0[V]
!Freq. Start=1000[kHz] Stop=3[GHz] 401[Steps]
# Hz S RI R 50
!Freq.(Hz) S11(Real) S11(Imag) S21(Real) S21(Imag) S12(Real) S12(Imag) S22(Real) S22(Imag)
1000000 0.3396455 -0.4735234 0.6603545 0.4735234 0.6603545 0.4735234 0.3396455 -0.4735234
1020218 0.3307258 -0.4704077 0.6692742 0.4704077 0.6692742 0.4704077 0.3307258 -0.4704077
1040844 0.3219262 -0.4671467 0.6780738 0.4671467 0.6780738 0.4671467 0.3219262 -0.4671467
1061887 0.3132511 -0.4637460 0.6867489 0.4637460 0.6867489 0.4637460 0.3132511 -0.4637460
1083356 0.3047048 -0.4602113 0.6952952 0.4602113 0.6952952 0.4602113 0.3047048 -0.4602113
1105259 0.2962910 -0.4565485 0.7037090 0.4565485 0.7037090 0.4565485 0.2962910 -0.4565485
1127605 0.2880134 -0.4527635 0.7119866 0.4527635 0.7119866 0.4527635 0.2880134 -0.4527635
1150402 0.2798751 -0.4488623 0.7201249 0.4488623 0.7201249 0.4488623 0.2798751 -0.4488623
1173660 0.2718789 -0.4448509 0.7281211 0.4448509 0.7281211 0.4448509 0.2718789 -0.4448509
1197389 0.2640275 -0.4407355 0.7359725 0.4407355 0.7359725 0.4407355 0.2640275 -0.4407355
1221597 0.2563230 -0.4365222 0.7436770 0.4365222 0.7436770 0.4365222 0.2563230 -0.4365222
1246295 0.2487673 -0.4322170 0.7512327 0.4322170 0.7512327 0.4322170 0.2487673 -0.4322170
1271492 0.2413621 -0.4278261 0.7586379 0.4278261 0.7586379 0.4278261 0.2413621 -0.4278261
1297199 0.2341087 -0.4233554 0.7658913 0.4233554 0.7658913 0.4233554 0.2341087 -0.4233554
1323425 0.2270081 -0.4188111 0.7729919 0.4188111 0.7729919 0.4188111 0.2270081 -0.4188111
1350181 0.2200609 -0.4141990 0.7799391 0.4141990 0.7799391 0.4141990 0.2200609 -0.4141990
1377479 0.2132677 -0.4095249 0.7867323 0.4095249 0.7867323 0.4095249 0.2132677 -0.4095249
1405328 0.2066287 -0.4047947 0.7933713 0.4047947 0.7933713 0.4047947 0.2066287 -0.4047947
1433740 0.2001439 -0.4000139 0.7998561 0.4000139 0.7998561 0.4000139 0.2001439 -0.4000139
1462727 0.1938128 -0.3951881 0.8061872 0.3951881 0.8061872 0.3951881 0.1938128 -0.3951881
1492300 0.1876351 -0.3903226 0.8123649 0.3903226 0.8123649 0.3903226 0.1876351 -0.3903226
1522470 0.1816099 -0.3854229 0.8183901 0.3854229 0.8183901 0.3854229 0.1816099 -0.3854229
1553251 0.1757364 -0.3804939 0.8242636 0.3804939 0.8242636 0.3804939 0.1757364 -0.3804939
1584654 0.1700134 -0.3755407 0.8299866 0.3755407 0.8299866 0.3755407 0.1700134 -0.3755407
1616692 0.1644397 -0.3705680 0.8355603 0.3705680 0.8355603 0.3705680 0.1644397 -0.3705680
1649378 0.1590137 -0.3655806 0.8409863 0.3655806 0.8409863 0.3655806 0.1590137 -0.3655806
1682724 0.1537338 -0.3605829 0.8462662 0.3605829 0.8462662 0.3605829 0.1537338 -0.3605829
1716745 0.1485983 -0.3555794 0.8514017 0.3555794 0.8514017 0.3555794 0.1485983 -0.3555794
1751453 0.1436052 -0.3505740 0.8563948 0.3505740 0.8563948 0.3505740 0.1436052 -0.3505740
1786863 0.1387526 -0.3455709 0.8612474 0.3455709 0.8612474 0.3455709 0.1387526 -0.3455709
1822989 0.1340384 -0.3405739 0.8659616 0.3405739 0.8659616 0.3405739 0.1340384 -0.3405739
1859846 0.1294603 -0.3355865 0.8705397 0.3355865 0.8705397 0.3355865 0.1294603 -0.3355865
1897447 0.1250160 -0.3306124 0.8749840 0.3306124 0.8749840 0.3306124 0.1250160 -0.3306124
1935809 0.1207031 -0.3256548 0.8792969 0.3256548 0.8792969 0.3256548 0.1207031 -0.3256548
1974946 0.1165193 -0.3207168 0.8834807 0.3207168 0.8834807 0.3207168 0.1165193 -0.3207168
2014875 0.1124619 -0.3158015 0.8875381 0.3158015 0.8875381 0.3158015 0.1124619 -0.3158015
2055611 0.1085286 -0.3109117 0.8914714 0.3109117 0.8914714 0.3109117 0.1085286 -0.3109117
2097170 0.1047166 -0.3060500 0.8952834 0.3060500 0.8952834 0.3060500 0.1047166 -0.3060500
2139570 0.1010233 -0.3012189 0.8989767 0.3012189 0.8989767 0.3012189 0.1010233 -0.3012189
2182827 0.0974462 -0.2964208 0.9025538 0.2964208 0.9025538 0.2964208 0.0974462 -0.2964208
2226959 0.0939825 -0.2916579 0.9060175 0.2916579 0.9060175 0.2916579 0.0939825 -0.2916579
2271982 0.0906296 -0.2869322 0.9093704 0.2869322 0.9093704 0.2869322 0.0906296 -0.2869322
2317916 0.0873848 -0.2822456 0.9126152 0.2822456 0.9126152 0.2822456 0.0873848 -0.2822456
2364779 0.0842455 -0.2775999 0.9157545 0.2775999 0.9157545 0.2775999 0.0842455 -0.2775999
2412589 0.0812089 -0.2729968 0.9187911 0.2729968 0.9187911 0.2729968 0.0812089 -0.2729968
2461366 0.0782725 -0.2684378 0.9217275 0.2684378 0.9217275 0.2684378 0.0782725 -0.2684378
2511129 0.0754336 -0.2639242 0.9245664 0.2639242 0.9245664 0.2639242 0.0754336 -0.2639242
2561897 0.0726895 -0.2594574 0.9273105 0.2594574 0.9273105 0.2594574 0.0726895 -0.2594574
2613693 0.0700378 -0.2550384 0.9299622 0.2550384 0.9299622 0.2550384 0.0700378 -0.2550384
2666535 0.0674758 -0.2506683 0.9325242 0.2506683 0.9325242 0.2506683 0.0674758 -0.2506683
2720446 0.0650010 -0.2463481 0.9349990 0.2463481 0.9349990 0.2463481 0.0650010 -0.2463481
2775447 0.0626109 -0.2420786 0.9373891 0.2420786 0.9373891 0.2420786 0.0626109 -0.2420786
2831560 0.0603031 -0.2378605 0.9396969 0.2378605 0.9396969 0.2378605 0.0603031 -0.2378605
2888807 0.0580751 -0.2336945 0.9419249 0.2336945 0.9419249 0.2336945 0.0580751 -0.2336945
2947212 0.0559245 -0.2295812 0.9440755 0.2295812 0.9440755 0.2295812 0.0559245 -0.2295812
3006797 0.0538491 -0.2255209 0.9461509 0.2255209 0.9461509 0.2255209 0.0538491 -0.2255209
3067588 0.0518465 -0.2215142 0.9481535 0.2215142 0.9481535 0.2215142 0.0518465 -0.2215142
3129607 0.0499145 -0.2175613 0.9500855 0.2175613 0.9500855 0.2175613 0.0499145 -0.2175613
3192880 0.0480509 -0.2136625 0.9519491 0.2136625 0.9519491 0.2136625 0.0480509 -0.2136625
3257432 0.0462535 -0.2098179 0.9537465 0.2098179 0.9537465 0.2098179 0.0462535 -0.2098179
3323290 0.0445202 -0.2060277 0.9554798 0.2060277 0.9554798 0.2060277 0.0445202 -0.2060277
3390478 0.0428491 -0.2022920 0.9571509 0.2022920 0.9571509 0.2022920 0.0428491 -0.2022920
3459026 0.0412380 -0.1986107 0.9587620 0.1986107 0.9587620 0.1986107 0.0412380 -0.1986107
3528959 0.0396850 -0.1949838 0.9603150 0.1949838 0.9603150 0.1949838 0.0396850 -0.1949838
3600306 0.0381881 -0.1914112 0.9618119 0.1914112 0.9618119 0.1914112 0.0381881 -0.1914112
3673095 0.0367457 -0.1878928 0.9632543 0.1878928 0.9632543 0.1878928 0.0367457 -0.1878928
3747356 0.0353557 -0.1844282 0.9646443 0.1844282 0.9646443 0.1844282 0.0353557 -0.1844282
3823119 0.0340166 -0.1810175 0.9659834 0.1810175 0.9659834 0.1810175 0.0340166 -0.1810175
3900413 0.0327264 -0.1776601 0.9672736 0.1776601 0.9672736 0.1776601 0.0327264 -0.1776601
3979270 0.0314837 -0.1743559 0.9685163 0.1743559 0.9685163 0.1743559 0.0314837 -0.1743559
4059721 0.0302867 -0.1711045 0.9697133 0.1711045 0.9697133 0.1711045 0.0302867 -0.1711045
4141799 0.0291339 -0.1679056 0.9708661 0.1679056 0.9708661 0.1679056 0.0291339 -0.1679056
4225536 0.0280238 -0.1647587 0.9719762 0.1647587 0.9719762 0.1647587 0.0280238 -0.1647587
4310966 0.0269548 -0.1616634 0.9730452 0.1616634 0.9730452 0.1616634 0.0269548 -0.1616634
4398124 0.0259256 -0.1586193 0.9740744 0.1586193 0.9740744 0.1586193 0.0259256 -0.1586193
4487043 0.0249347 -0.1556259 0.9750653 0.1556259 0.9750653 0.1556259 0.0249347 -0.1556259
4577760 0.0239808 -0.1526827 0.9760192 0.1526827 0.9760192 0.1526827 0.0239808 -0.1526827
4670311 0.0230626 -0.1497892 0.9769374 0.1497892 0.9769374 0.1497892 0.0230626 -0.1497892
4764734 0.0221788 -0.1469449 0.9778212 0.1469449 0.9778212 0.1469449 0.0221788 -0.1469449
4861065 0.0213282 -0.1441492 0.9786718 0.1441492 0.9786718 0.1441492 0.0213282 -0.1441492
4959344 0.0205095 -0.1414017 0.9794905 0.1414017 0.9794905 0.1414017 0.0205095 -0.1414017
5059610 0.0197217 -0.1387017 0.9802783 0.1387017 0.9802783 0.1387017 0.0197217 -0.1387017
5161903 0.0189637 -0.1360487 0.9810363 0.1360487 0.9810363 0.1360487 0.0189637 -0.1360487
5266264 0.0182343 -0.1334420 0.9817657 0.1334420 0.9817657 0.1334420 0.0182343 -0.1334420
5372736 0.0175325 -0.1308812 0.9824675 0.1308812 0.9824675 0.1308812 0.0175325 -0.1308812
5481359 0.0168573 -0.1283656 0.9831427 0.1283656 0.9831427 0.1283656 0.0168573 -0.1283656
5592179 0.0162077 -0.1258946 0.9837923 0.1258946 0.9837923 0.1258946 0.0162077 -0.1258946
5705239 0.0155828 -0.1234676 0.9844172 0.1234676 0.9844172 0.1234676 0.0155828 -0.1234676
5820586 0.0149817 -0.1210839 0.9850183 0.1210839 0.9850183 0.1210839 0.0149817 -0.1210839
5938264 0.0144035 -0.1187431 0.9855965 0.1187431 0.9855965 0.1187431 0.0144035 -0.1187431
6058321 0.0138474 -0.1164444 0.9861526 0.1164444 0.9861526 0.1164444 0.0138474 -0.1164444
6180806 0.0133125 -0.1141873 0.9866875 0.1141873 0.9866875 0.1141873 0.0133125 -0.1141873
6305767 0.0127981 -0.1119712 0.9872019 0.1119712 0.9872019 0.1119712 0.0127981 -0.1119712
6433254 0.0123034 -0.1097953 0.9876966 0.1097953 0.9876966 0.1097953 0.0123034 -0.1097953
6563319 0.0118276 -0.1076592 0.9881724 0.1076592 0.9881724 0.1076592 0.0118276 -0.1076592
6696013 0.0113701 -0.1055621 0.9886299 0.1055621 0.9886299 0.1055621 0.0113701 -0.1055621
6831390 0.0109301 -0.1035036 0.9890699 0.1035036 0.9890699 0.1035036 0.0109301 -0.1035036
6969505 0.0105071 -0.1014829 0.9894929 0.1014829 0.9894929 0.1014829 0.0105071 -0.1014829
7110411 0.0101003 -0.0994995 0.9898997 0.0994995 0.9898997 0.0994995 0.0101003 -0.0994995
7254166 0.0097092 -0.0975528 0.9902908 0.0975528 0.9902908 0.0975528 0.0097092 -0.0975528
7400828 0.0093332 -0.0956422 0.9906668 0.0956422 0.9906668 0.0956422 0.0093332 -0.0956422
7550455 0.0089717 -0.0937670 0.9910283 0.0937670 0.9910283 0.0937670 0.0089717 -0.0937670
7703107 0.0086241 -0.0919268 0.9913759 0.0919268 0.9913759 0.0919268 0.0086241 -0.0919268
7858845 0.0082899 -0.0901208 0.9917101 0.0901208 0.9917101 0.0901208 0.0082899 -0.0901208
8017732 0.0079687 -0.0883486 0.9920313 0.0883486 0.9920313 0.0883486 0.0079687 -0.0883486
8179831 0.0076599 -0.0866096 0.9923401 0.0866096 0.9923401 0.0866096 0.0076599 -0.0866096
8345207 0.0073631 -0.0849031 0.9926369 0.0849031 0.9926369 0.0849031 0.0073631 -0.0849031
8513927 0.0070778 -0.0832287 0.9929222 0.0832287 0.9929222 0.0832287 0.0070778 -0.0832287
8686058 0.0068035 -0.0815857 0.9931965 0.0815857 0.9931965 0.0815857 0.0068035 -0.0815857
8861669 0.0065399 -0.0799737 0.9934601 0.0799737 0.9934601 0.0799737 0.0065399 -0.0799737
9040831 0.0062865 -0.0783921 0.9937135 0.0783921 0.9937135 0.0783921 0.0062865 -0.0783921
9223615 0.0060430 -0.0768403 0.9939570 0.0768403 0.9939570 0.0768403 0.0060430 -0.0768403
9410094 0.0058089 -0.0753178 0.9941911 0.0753178 0.9941911 0.0753178 0.0058089 -0.0753178
9600343 0.0055840 -0.0738241 0.9944160 0.0738241 0.9944160 0.0738241 0.0055840 -0.0738241
9794439 0.0053678 -0.0723586 0.9946322 0.0723586 0.9946322 0.0723586 0.0053678 -0.0723586
9992459 0.0051600 -0.0709209 0.9948400 0.0709209 0.9948400 0.0709209 0.0051600 -0.0709209
10194482 0.0049603 -0.0695105 0.9950397 0.0695105 0.9950397 0.0695105 0.0049603 -0.0695105
10400590 0.0047685 -0.0681268 0.9952315 0.0681268 0.9952315 0.0681268 0.0047685 -0.0681268
10610865 0.0045841 -0.0667694 0.9954159 0.0667694 0.9954159 0.0667694 0.0045841 -0.0667694
10825391 0.0044069 -0.0654378 0.9955931 0.0654378 0.9955931 0.0654378 0.0044069 -0.0654378
11044254 0.0042367 -0.0641315 0.9957633 0.0641315 0.9957633 0.0641315 0.0042367 -0.0641315
11267542 0.0040731 -0.0628500 0.9959269 0.0628500 0.9959269 0.0628500 0.0040731 -0.0628500
11495344 0.0039159 -0.0615929 0.9960841 0.0615929 0.9960841 0.0615929 0.0039159 -0.0615929
11727752 0.0037649 -0.0603597 0.9962351 0.0603597 0.9962351 0.0603597 0.0037649 -0.0603597
11964859 0.0036198 -0.0591499 0.9963802 0.0591499 0.9963802 0.0591499 0.0036198 -0.0591499
12206760 0.0034804 -0.0579632 0.9965196 0.0579632 0.9965196 0.0579632 0.0034804 -0.0579632
12453551 0.0033465 -0.0567991 0.9966535 0.0567991 0.9966535 0.0567991 0.0033465 -0.0567991
12705331 0.0032178 -0.0556572 0.9967822 0.0556572 0.9967822 0.0556572 0.0032178 -0.0556572
12962202 0.0030942 -0.0545369 0.9969058 0.0545369 0.9969058 0.0545369 0.0030942 -0.0545369
13224267 0.0029755 -0.0534380 0.9970245 0.0534380 0.9970245 0.0534380 0.0029755 -0.0534380
13491630 0.0028615 -0.0523601 0.9971385 0.0523601 0.9971385 0.0523601 0.0028615 -0.0523601
13764398 0.0027519 -0.0513026 0.9972481 0.0513026 0.9972481 0.0513026 0.0027519 -0.0513026
14042680 0.0026467 -0.0502653 0.9973533 0.0502653 0.9973533 0.0502653 0.0026467 -0.0502653
14326589 0.0025457 -0.0492476 0.9974543 0.0492476 0.9974543 0.0492476 0.0025457 -0.0492476
14616238 0.0024487 -0.0482494 0.9975513 0.0482494 0.9975513 0.0482494 0.0024487 -0.0482494
14911743 0.0023555 -0.0472701 0.9976445 0.0472701 0.9976445 0.0472701 0.0023555 -0.0472701
15213223 0.0022660 -0.0463094 0.9977340 0.0463094 0.9977340 0.0463094 0.0022660 -0.0463094
15520797 0.0021801 -0.0453669 0.9978199 0.0453669 0.9978199 0.0453669 0.0021801 -0.0453669
15834590 0.0020975 -0.0444423 0.9979025 0.0444423 0.9979025 0.0444423 0.0020975 -0.0444423
16154727 0.0020183 -0.0435353 0.9979817 0.0435353 0.9979817 0.0435353 0.0020183 -0.0435353
16481337 0.0019423 -0.0426454 0.9980577 0.0426454 0.9980577 0.0426454 0.0019423 -0.0426454
16814550 0.0018693 -0.0417724 0.9981307 0.0417724 0.9981307 0.0417724 0.0018693 -0.0417724
17154499 0.0017992 -0.0409159 0.9982008 0.0409159 0.9982008 0.0409159 0.0017992 -0.0409159
17501322 0.0017319 -0.0400756 0.9982681 0.0400756 0.9982681 0.0400756 0.0017319 -0.0400756
17855156 0.0016674 -0.0392511 0.9983326 0.0392511 0.9983326 0.0392511 0.0016674 -0.0392511
18216144 0.0016054 -0.0384422 0.9983946 0.0384422 0.9983946 0.0384422 0.0016054 -0.0384422
18584431 0.0015460 -0.0376485 0.9984540 0.0376485 0.9984540 0.0376485 0.0015460 -0.0376485
18960163 0.0014889 -0.0368697 0.9985111 0.0368697 0.9985111 0.0368697 0.0014889 -0.0368697
19343491 0.0014342 -0.0361056 0.9985658 0.0361056 0.9985658 0.0361056 0.0014342 -0.0361056
19734570 0.0013817 -0.0353558 0.9986183 0.0353558 0.9986183 0.0353558 0.0013817 -0.0353558
20133555 0.0013314 -0.0346201 0.9986686 0.0346201 0.9986686 0.0346201 0.0013314 -0.0346201
20540607 0.0012831 -0.0338981 0.9987169 0.0338981 0.9987169 0.0338981 0.0012831 -0.0338981
20955888 0.0012368 -0.0331895 0.9987632 0.0331895 0.9987632 0.0331895 0.0012368 -0.0331895
21379566 0.0011924 -0.0324942 0.9988076 0.0324942 0.9988076 0.0324942 0.0011924 -0.0324942
21811809 0.0011499 -0.0318119 0.9988501 0.0318119 0.9988501 0.0318119 0.0011499 -0.0318119
22252791 0.0011091 -0.0311421 0.9988909 0.0311421 0.9988909 0.0311421 0.0011091 -0.0311421
22702688 0.0010700 -0.0304848 0.9989300 0.0304848 0.9989300 0.0304848 0.0010700 -0.0304848
23161682 0.0010325 -0.0298397 0.9989675 0.0298397 0.9989675 0.0298397 0.0010325 -0.0298397
23629955 0.0009967 -0.0292065 0.9990033 0.0292065 0.9990033 0.0292065 0.0009967 -0.0292065
24107696 0.0009623 -0.0285849 0.9990377 0.0285849 0.9990377 0.0285849 0.0009623 -0.0285849
24595095 0.0009294 -0.0279747 0.9990706 0.0279747 0.9990706 0.0279747 0.0009294 -0.0279747
25092348 0.0008979 -0.0273757 0.9991021 0.0273757 0.9991021 0.0273757 0.0008979 -0.0273757
25599655 0.0008678 -0.0267877 0.9991322 0.0267877 0.9991322 0.0267877 0.0008678 -0.0267877
26117218 0.0008389 -0.0262103 0.9991611 0.0262103 0.9991611 0.0262103 0.0008389 -0.0262103
26645245 0.0008113 -0.0256435 0.9991887 0.0256435 0.9991887 0.0256435 0.0008113 -0.0256435
27183947 0.0007849 -0.0250869 0.9992151 0.0250869 0.9992151 0.0250869 0.0007849 -0.0250869
27733541 0.0007597 -0.0245403 0.9992403 0.0245403 0.9992403 0.0245403 0.0007597 -0.0245403
28294246 0.0007356 -0.0240036 0.9992644 0.0240036 0.9992644 0.0240036 0.0007356 -0.0240036
28866287 0.0007125 -0.0234765 0.9992875 0.0234765 0.9992875 0.0234765 0.0007125 -0.0234765
29449894 0.0006905 -0.0229589 0.9993095 0.0229589 0.9993095 0.0229589 0.0006905 -0.0229589
30045299 0.0006695 -0.0224504 0.9993305 0.0224504 0.9993305 0.0224504 0.0006695 -0.0224504
30652742 0.0006495 -0.0219509 0.9993505 0.0219509 0.9993505 0.0219509 0.0006495 -0.0219509
31272467 0.0006303 -0.0214603 0.9993697 0.0214603 0.9993697 0.0214603 0.0006303 -0.0214603
31904720 0.0006121 -0.0209783 0.9993879 0.0209783 0.9993879 0.0209783 0.0006121 -0.0209783
32549757 0.0005947 -0.0205047 0.9994053 0.0205047 0.9994053 0.0205047 0.0005947 -0.0205047
33207834 0.0005781 -0.0200394 0.9994219 0.0200394 0.9994219 0.0200394 0.0005781 -0.0200394
33879216 0.0005624 -0.0195822 0.9994376 0.0195822 0.9994376 0.0195822 0.0005624 -0.0195822
34564172 0.0005474 -0.0191328 0.9994526 0.0191328 0.9994526 0.0191328 0.0005474 -0.0191328
35262976 0.0005331 -0.0186911 0.9994669 0.0186911 0.9994669 0.0186911 0.0005331 -0.0186911
35975908 0.0005195 -0.0182570 0.9994805 0.0182570 0.9994805 0.0182570 0.0005195 -0.0182570
36703254 0.0005066 -0.0178302 0.9994934 0.0178302 0.9994934 0.0178302 0.0005066 -0.0178302
37445305 0.0004944 -0.0174106 0.9995056 0.0174106 0.9995056 0.0174106 0.0004944 -0.0174106
38202358 0.0004828 -0.0169981 0.9995172 0.0169981 0.9995172 0.0169981 0.0004828 -0.0169981
38974717 0.0004718 -0.0165924 0.9995282 0.0165924 0.9995282 0.0165924 0.0004718 -0.0165924
39762692 0.0004614 -0.0161934 0.9995386 0.0161934 0.9995386 0.0161934 0.0004614 -0.0161934
40566597 0.0004516 -0.0158009 0.9995484 0.0158009 0.9995484 0.0158009 0.0004516 -0.0158009
41386756 0.0004423 -0.0154148 0.9995577 0.0154148 0.9995577 0.0154148 0.0004423 -0.0154148
42223496 0.0004335 -0.0150350 0.9995665 0.0150350 0.9995665 0.0150350 0.0004335 -0.0150350
43077153 0.0004252 -0.0146613 0.9995748 0.0146613 0.9995748 0.0146613 0.0004252 -0.0146613
43948069 0.0004174 -0.0142934 0.9995826 0.0142934 0.9995826 0.0142934 0.0004174 -0.0142934
44836592 0.0004101 -0.0139314 0.9995899 0.0139314 0.9995899 0.0139314 0.0004101 -0.0139314
45743080 0.0004033 -0.0135750 0.9995967 0.0135750 0.9995967 0.0135750 0.0004033 -0.0135750
46667894 0.0003968 -0.0132241 0.9996032 0.0132241 0.9996032 0.0132241 0.0003968 -0.0132241
47611406 0.0003908 -0.0128785 0.9996092 0.0128785 0.9996092 0.0128785 0.0003908 -0.0128785
48573993 0.0003852 -0.0125382 0.9996148 0.0125382 0.9996148 0.0125382 0.0003852 -0.0125382
49556042 0.0003800 -0.0122030 0.9996200 0.0122030 0.9996200 0.0122030 0.0003800 -0.0122030
50557945 0.0003752 -0.0118726 0.9996248 0.0118726 0.9996248 0.0118726 0.0003752 -0.0118726
51580105 0.0003707 -0.0115471 0.9996293 0.0115471 0.9996293 0.0115471 0.0003707 -0.0115471
52622929 0.0003666 -0.0112263 0.9996334 0.0112263 0.9996334 0.0112263 0.0003666 -0.0112263
53686838 0.0003628 -0.0109100 0.9996372 0.0109100 0.9996372 0.0109100 0.0003628 -0.0109100
54772256 0.0003594 -0.0105982 0.9996406 0.0105982 0.9996406 0.0105982 0.0003594 -0.0105982
55879618 0.0003562 -0.0102906 0.9996438 0.0102906 0.9996438 0.0102906 0.0003562 -0.0102906
57009369 0.0003534 -0.0099872 0.9996466 0.0099872 0.9996466 0.0099872 0.0003534 -0.0099872
58161960 0.0003509 -0.0096878 0.9996491 0.0096878 0.9996491 0.0096878 0.0003509 -0.0096878
59337855 0.0003487 -0.0093924 0.9996513 0.0093924 0.9996513 0.0093924 0.0003487 -0.0093924
60537522 0.0003467 -0.0091007 0.9996533 0.0091007 0.9996533 0.0091007 0.0003467 -0.0091007
61761445 0.0003450 -0.0088128 0.9996550 0.0088128 0.9996550 0.0088128 0.0003450 -0.0088128
63010112 0.0003436 -0.0085283 0.9996564 0.0085283 0.9996564 0.0085283 0.0003436 -0.0085283
64284024 0.0003425 -0.0082474 0.9996575 0.0082474 0.9996575 0.0082474 0.0003425 -0.0082474
65583691 0.0003416 -0.0079697 0.9996584 0.0079697 0.9996584 0.0079697 0.0003416 -0.0079697
66909635 0.0003410 -0.0076952 0.9996590 0.0076952 0.9996590 0.0076952 0.0003410 -0.0076952
68262386 0.0003406 -0.0074238 0.9996594 0.0074238 0.9996594 0.0074238 0.0003406 -0.0074238
69642486 0.0003405 -0.0071554 0.9996595 0.0071554 0.9996595 0.0071554 0.0003405 -0.0071554
71050488 0.0003406 -0.0068899 0.9996594 0.0068899 0.9996594 0.0068899 0.0003406 -0.0068899
72486957 0.0003409 -0.0066271 0.9996591 0.0066271 0.9996591 0.0066271 0.0003409 -0.0066271
73952468 0.0003415 -0.0063669 0.9996585 0.0063669 0.9996585 0.0063669 0.0003415 -0.0063669
