! This data is being provided by Wuerth Elektronik eiSos GmbH & Co. KG to the industry for analysis.
!
! Document information:
! Version:rev19a Date: 16/12/2019
!
! Component information:
! Match Code: WE-CNSW P/N: 744231121 Size: 0805
!------------------------------------------------------------------------------------------------------------------
! Disclaimer:  While Würth Elektronik eiSos has made every reasonable effort to ensure the accuracy
! of the information provided, Würth Elektronik eiSos does not guarantee the exemption of error on the
! data collection measurements, nor does Würth Elektronik eiSos guarantee that the information is current.
! Würth Elektronik eiSos reserves the right to make any adjustments at any time without notice.
! Würth Elektronik eiSos expressly disclaims all implied warranties regarding this measurement data collection.
!
! Note 1 – This data measurement is representative according to the product implementation into the fixture.
! Component behavior is sensitive to implementation into the fixture, which includes board
! materials, trace geometry information, connector pin out, layer connection, use of de-embedding
! techniques, etc.
!
! Note 2 - The fixture was designed specifically to match the 50 Ohm line impedance, as well as the connector impedance,
! in order to accomplish a reliable measurement without reflections in the trace. Any other implementation of the fixture will change the obtained
! measurement performance. The used fixture behavior was de-embedded to accomplish reliable measurement results.
!
!------------------------------------------------------------------------------------------------------------------
!
! The test setup consisted of the following:
!   - Agilent VNA E5071C or E5071B
!   - Calibrations are SOLT (short open load thru)
!   - De-embedding of the SMA's or line cards were included
!   - Equipment Settings -
!            - Sampling - 501 points
!            - IF BW – 70 kHz
!            - Averaging – Not used
!
!
!
!             Port 1----->|1|        |2| -----> Port 3
!                            |   DUT  |
!             Port 2----->|3|        |4| -----> Port 4
!
!
!*VNA Port --> |Port in Datasheet|
! |Port in Datasheet| --> VNA Port
!
!
! For further information regarding this testing, please contact
! Wuerth Elektronik eiSos
! Contact: EDA team in QDC
! Email: libraries@we-online.com or libraries@we-online.de
!
!
# Hz S dB R 50
300000	-3.619948e+001	1.277403e+002	-5.649299e-002	1.209955e+000	-4.401427e+001	7.945276e+001	-4.592943e+001	-7.289443e+001
	-5.245857e-002	1.206848e+000	-3.787385e+001	1.232112e+002	-4.815866e+001	-1.036278e+002	-4.633308e+001	7.790363e+001
	-4.551019e+001	7.912714e+001	-4.661689e+001	-9.339865e+001	-3.555464e+001	1.306605e+002	-5.767019e-002	1.197306e+000
	-4.449612e+001	-9.919525e+001	-4.606389e+001	8.918968e+001	-6.046995e-002	1.239338e+000	-3.633422e+001	1.373635e+002
307335	-3.819541e+001	1.343162e+002	-5.068300e-002	1.233679e+000	-4.749323e+001	9.106647e+001	-4.676643e+001	-8.976526e+001
	-7.785129e-002	1.009411e+000	-3.778381e+001	1.328563e+002	-4.598369e+001	-8.667760e+001	-4.583126e+001	8.513545e+001
	-4.399511e+001	8.989450e+001	-4.573920e+001	-7.952088e+001	-3.564540e+001	1.351554e+002	-3.401342e-002	1.250230e+000
	-4.664352e+001	-9.971814e+001	-4.391053e+001	9.366327e+001	-3.840429e-002	1.342742e+000	-3.861364e+001	1.516321e+002
314670	-3.844413e+001	1.233111e+002	-4.259039e-002	1.406582e+000	-4.761185e+001	8.292656e+001	-4.667546e+001	-8.816568e+001
	-7.345548e-002	1.104478e+000	-3.993140e+001	1.411512e+002	-4.588090e+001	-9.205250e+001	-4.633749e+001	1.025580e+002
	-4.439753e+001	8.711522e+001	-4.665031e+001	-9.771603e+001	-3.673177e+001	1.277930e+002	-2.236003e-002	1.284046e+000
	-4.653012e+001	-8.970200e+001	-4.649036e+001	9.096245e+001	-7.019075e-002	1.293478e+000	-3.724787e+001	1.429312e+002
322004	-3.805722e+001	1.282438e+002	-3.546828e-002	1.533215e+000	-4.472402e+001	8.909666e+001	-4.601566e+001	-9.579693e+001
	-6.433113e-002	1.182088e+000	-4.074048e+001	1.446505e+002	-4.540584e+001	-7.775945e+001	-4.516219e+001	9.474380e+001
	-4.510759e+001	8.084947e+001	-4.495915e+001	-8.368047e+001	-3.674473e+001	1.325101e+002	-6.561256e-002	1.281206e+000
	-4.539361e+001	-9.541685e+001	-4.561337e+001	9.395995e+001	-2.222536e-002	1.364913e+000	-3.745498e+001	1.415599e+002
329339	-3.928055e+001	1.413366e+002	-5.487457e-002	1.343950e+000	-4.410074e+001	9.139505e+001	-4.398607e+001	-9.141273e+001
	-7.783946e-002	1.343128e+000	-4.057577e+001	1.429442e+002	-4.346239e+001	-8.811057e+001	-4.415822e+001	8.419864e+001
	-4.456145e+001	9.229649e+001	-4.440900e+001	-8.618188e+001	-3.632331e+001	1.391969e+002	-4.870445e-002	1.413458e+000
	-4.413043e+001	-9.674842e+001	-4.475546e+001	8.514209e+001	-5.355725e-002	1.297569e+000	-3.841698e+001	1.550903e+002
336674	-3.894371e+001	1.220728e+002	-6.580690e-002	1.237856e+000	-4.511985e+001	9.157977e+001	-4.414915e+001	-9.562869e+001
	-6.630771e-002	1.123514e+000	-3.713639e+001	1.304294e+002	-4.741463e+001	-8.836884e+001	-4.603995e+001	7.835089e+001
	-4.360255e+001	1.004048e+002	-4.521809e+001	-9.051611e+001	-3.746810e+001	1.377553e+002	-2.035371e-002	1.243305e+000
	-4.468465e+001	-8.523174e+001	-4.381751e+001	8.691882e+001	-4.023099e-002	1.309276e+000	-3.627803e+001	1.482192e+002
344009	-3.753974e+001	1.169920e+002	-6.067513e-002	1.206735e+000	-4.273104e+001	8.208535e+001	-4.397465e+001	-8.547148e+001
	-6.484823e-002	1.148303e+000	-3.716869e+001	1.160835e+002	-4.382990e+001	-9.129258e+001	-4.491488e+001	9.604112e+001
	-4.556139e+001	9.731143e+001	-4.619042e+001	-8.012209e+001	-3.892629e+001	1.353016e+002	-4.896288e-002	1.247277e+000
	-4.491642e+001	-8.260608e+001	-4.354724e+001	8.977274e+001	-5.637913e-002	1.226781e+000	-3.624888e+001	1.355478e+002
351344	-3.768357e+001	1.193407e+002	-5.839459e-002	1.333336e+000	-4.454705e+001	8.776303e+001	-4.411053e+001	-8.415745e+001
	-6.764936e-002	1.149065e+000	-4.078216e+001	1.231654e+002	-4.431809e+001	-8.341655e+001	-4.460822e+001	7.853678e+001
	-4.448731e+001	9.606030e+001	-4.396101e+001	-9.184036e+001	-3.653749e+001	1.284773e+002	-3.363586e-002	1.271002e+000
	-4.377684e+001	-8.905853e+001	-4.462285e+001	9.926045e+001	-2.364364e-002	1.175149e+000	-3.578169e+001	1.398456e+002
358679	-3.620805e+001	1.177220e+002	-4.499902e-002	1.308745e+000	-4.386975e+001	9.010789e+001	-4.315047e+001	-7.974605e+001
	-5.322948e-002	1.138443e+000	-3.896808e+001	1.359723e+002	-4.419238e+001	-8.451118e+001	-4.316993e+001	9.589537e+001
	-4.522227e+001	9.548230e+001	-4.494703e+001	-8.927888e+001	-3.390314e+001	1.276153e+002	-4.007696e-002	1.168021e+000
	-4.452798e+001	-8.825678e+001	-4.484355e+001	9.660911e+001	-4.714482e-002	1.182948e+000	-3.783614e+001	1.381602e+002
366013	-3.739824e+001	1.308556e+002	-6.719900e-002	1.236889e+000	-4.418229e+001	9.045601e+001	-4.607679e+001	-8.832809e+001
	-4.876853e-002	1.109094e+000	-4.034720e+001	1.159613e+002	-4.334563e+001	-9.060245e+001	-4.376913e+001	8.142826e+001
	-4.508575e+001	8.754905e+001	-4.461082e+001	-8.694729e+001	-3.706383e+001	1.314919e+002	-4.873883e-002	1.230981e+000
	-4.522349e+001	-9.077811e+001	-4.318636e+001	8.759656e+001	-1.394108e-002	1.185627e+000	-3.815012e+001	1.307867e+002
373348	-3.732854e+001	1.290188e+002	-5.127518e-002	1.455978e+000	-4.216821e+001	8.453603e+001	-4.299480e+001	-8.338442e+001
	-4.857896e-002	1.177903e+000	-3.804550e+001	1.337003e+002	-4.579525e+001	-8.057797e+001	-4.376519e+001	8.763943e+001
	-4.442521e+001	9.193510e+001	-4.317403e+001	-9.338384e+001	-3.580204e+001	1.310049e+002	-4.272612e-002	1.193236e+000
	-4.361049e+001	-9.319277e+001	-4.357370e+001	8.325636e+001	-2.774051e-002	1.123274e+000	-3.718723e+001	1.413968e+002
380683	-3.676238e+001	1.261395e+002	-6.976580e-002	1.352072e+000	-4.523257e+001	9.449163e+001	-4.594600e+001	-8.843323e+001
	-3.540894e-002	1.203141e+000	-3.908138e+001	1.241773e+002	-4.288795e+001	-9.813568e+001	-4.423126e+001	9.016205e+001
	-4.429271e+001	8.182519e+001	-4.549751e+001	-8.906155e+001	-3.616411e+001	1.377586e+002	-3.865334e-002	1.123030e+000
	-4.372312e+001	-9.735321e+001	-4.296803e+001	9.019642e+001	-3.997039e-002	1.297700e+000	-3.604208e+001	1.350243e+002
388018	-3.640188e+001	1.223221e+002	-3.719772e-002	1.117728e+000	-4.257096e+001	7.412672e+001	-4.516189e+001	-8.972998e+001
	-5.026782e-002	1.180085e+000	-3.723938e+001	1.331986e+002	-4.514484e+001	-8.379898e+001	-4.411779e+001	9.118088e+001
	-4.278987e+001	9.070585e+001	-4.383733e+001	-7.966560e+001	-3.681602e+001	1.394680e+002	-2.748120e-002	1.141983e+000
	-4.378312e+001	-9.798310e+001	-4.289988e+001	8.547291e+001	-2.962497e-002	1.199883e+000	-3.702003e+001	1.395596e+002
395353	-3.808827e+001	1.128932e+002	-5.420331e-002	1.197768e+000	-4.247371e+001	8.840550e+001	-4.288190e+001	-9.193794e+001
	-6.829674e-002	1.110791e+000	-3.661510e+001	1.230127e+002	-4.347324e+001	-7.956500e+001	-4.275446e+001	9.194600e+001
	-4.441000e+001	8.892267e+001	-4.486341e+001	-8.686088e+001	-3.614979e+001	1.281724e+002	-1.639231e-002	1.177156e+000
	-4.391004e+001	-9.183182e+001	-4.434651e+001	8.375708e+001	-3.068776e-002	1.088372e+000	-3.594452e+001	1.353690e+002
402688	-3.955266e+001	1.179996e+002	-5.088645e-002	1.244168e+000	-4.552575e+001	9.505021e+001	-4.571528e+001	-8.494308e+001
	-5.408768e-002	1.177007e+000	-3.766254e+001	1.178291e+002	-4.368374e+001	-8.641902e+001	-4.351855e+001	9.426858e+001
	-4.319780e+001	8.495216e+001	-4.307531e+001	-8.731731e+001	-3.591295e+001	1.259120e+002	-3.372242e-002	1.213723e+000
	-4.298411e+001	-8.496249e+001	-4.296295e+001	9.143740e+001	-1.492381e-002	1.095713e+000	-3.514595e+001	1.419992e+002
410022	-3.823198e+001	1.110534e+002	-7.001046e-002	1.063395e+000	-4.366932e+001	7.875533e+001	-4.335851e+001	-8.956018e+001
	-7.814650e-002	1.056286e+000	-3.798492e+001	1.111661e+002	-4.276331e+001	-8.903529e+001	-4.305634e+001	8.945981e+001
	-4.332888e+001	9.759664e+001	-4.348648e+001	-9.223331e+001	-3.555893e+001	1.294549e+002	-3.637091e-002	1.233976e+000
	-4.264477e+001	-9.448486e+001	-4.341500e+001	8.273059e+001	-3.422066e-002	1.208769e+000	-3.743400e+001	1.380555e+002
418652	-3.868911e+001	1.284689e+002	-4.941781e-002	1.139846e+000	-4.205663e+001	9.211293e+001	-4.277303e+001	-8.507635e+001
	-5.759547e-002	1.124607e+000	-3.697857e+001	1.198752e+002	-4.322621e+001	-9.199965e+001	-4.382541e+001	9.396311e+001
	-4.272719e+001	9.917921e+001	-4.348242e+001	-9.146258e+001	-3.425343e+001	1.275825e+002	-4.249763e-002	1.277209e+000
	-4.201024e+001	-9.311089e+001	-4.314014e+001	8.697594e+001	-1.745915e-002	1.150211e+000	-3.639432e+001	1.360727e+002
428777	-3.836469e+001	1.210645e+002	-3.072522e-002	1.173492e+000	-4.320437e+001	8.676581e+001	-4.246584e+001	-8.513392e+001
	-5.238355e-002	1.066554e+000	-3.848721e+001	1.323909e+002	-4.469822e+001	-9.784942e+001	-4.428164e+001	8.990984e+001
	-4.405975e+001	8.380218e+001	-4.297951e+001	-9.132787e+001	-3.557903e+001	1.224760e+002	-3.727068e-002	1.073460e+000
	-4.256119e+001	-9.534812e+001	-4.287661e+001	9.070378e+001	-3.957931e-002	1.280541e+000	-3.655084e+001	1.327472e+002
438901	-3.832272e+001	1.150875e+002	-5.220832e-002	1.158943e+000	-4.241631e+001	8.021062e+001	-4.214942e+001	-8.898943e+001
	-5.485243e-002	1.078469e+000	-3.893372e+001	1.174966e+002	-4.242466e+001	-8.471368e+001	-4.233563e+001	8.697419e+001
	-4.319720e+001	8.842890e+001	-4.338214e+001	-1.004232e+002	-3.692344e+001	1.330189e+002	-4.526717e-002	1.176772e+000
	-4.293526e+001	-9.128525e+001	-4.431873e+001	9.064512e+001	-3.214385e-002	1.295465e+000	-3.758891e+001	1.390389e+002
449026	-3.737938e+001	1.153397e+002	-4.062198e-002	1.115890e+000	-4.177377e+001	8.804100e+001	-4.230808e+001	-9.499782e+001
	-3.895336e-002	1.047396e+000	-3.767296e+001	1.231055e+002	-4.252636e+001	-9.932374e+001	-4.242731e+001	8.775668e+001
	-4.359618e+001	8.843129e+001	-4.298706e+001	-8.623966e+001	-3.713137e+001	1.295340e+002	-2.456803e-002	1.109545e+000
	-4.406491e+001	-9.786768e+001	-4.287592e+001	8.365797e+001	-3.147260e-002	1.325275e+000	-3.694635e+001	1.331561e+002
459150	-3.856235e+001	1.186893e+002	-6.278867e-002	1.218557e+000	-4.218101e+001	8.319734e+001	-4.243662e+001	-8.502039e+001
	-6.104621e-002	1.058630e+000	-3.948751e+001	1.203150e+002	-4.248464e+001	-9.087127e+001	-4.257006e+001	8.159623e+001
	-4.085018e+001	9.214315e+001	-4.265585e+001	-9.021920e+001	-3.597244e+001	1.255834e+002	-7.723561e-003	1.173408e+000
	-4.214166e+001	-9.393731e+001	-4.138872e+001	8.301180e+001	-3.782681e-002	1.197070e+000	-3.553798e+001	1.434948e+002
469275	-3.790962e+001	1.207635e+002	-3.947987e-002	1.201639e+000	-4.124019e+001	1.015273e+002	-4.222022e+001	-9.231127e+001
	-5.917849e-002	1.152257e+000	-3.892507e+001	1.254032e+002	-4.150744e+001	-1.027281e+002	-4.272380e+001	9.257078e+001
	-4.259580e+001	9.059400e+001	-4.205670e+001	-8.691484e+001	-3.619479e+001	1.225477e+002	-4.062219e-002	1.143034e+000
	-4.292910e+001	-8.983029e+001	-4.273949e+001	8.543615e+001	-6.114777e-002	1.155103e+000	-3.705448e+001	1.270321e+002
479399	-3.814603e+001	1.191666e+002	-3.734871e-002	1.100155e+000	-4.129245e+001	8.349297e+001	-4.183015e+001	-8.703220e+001
	-5.214764e-002	1.142981e+000	-3.812424e+001	1.245518e+002	-4.168158e+001	-9.054370e+001	-4.280325e+001	8.795381e+001
	-4.171740e+001	9.369844e+001	-4.308881e+001	-8.529407e+001	-3.743750e+001	1.286093e+002	-2.586479e-002	1.028712e+000
	-4.133250e+001	-9.245436e+001	-4.234057e+001	8.823959e+001	-3.659588e-002	1.046365e+000	-3.678669e+001	1.334194e+002
489523	-3.867221e+001	1.201270e+002	-5.650053e-002	1.207280e+000	-4.174911e+001	9.126351e+001	-4.199830e+001	-9.040428e+001
	-6.030675e-002	1.170567e+000	-3.850199e+001	1.252356e+002	-4.198397e+001	-9.379659e+001	-4.096855e+001	9.769909e+001
	-4.272964e+001	8.755951e+001	-4.202590e+001	-8.489431e+001	-3.497329e+001	1.232827e+002	-3.310052e-002	1.109131e+000
	-4.213382e+001	-9.029422e+001	-4.189260e+001	8.583272e+001	-6.972991e-003	1.132423e+000	-3.653087e+001	1.425141e+002
499648	-3.707894e+001	1.269536e+002	-5.336213e-002	1.175086e+000	-4.101112e+001	9.022891e+001	-4.201608e+001	-9.494879e+001
	-3.926559e-002	1.069969e+000	-3.774632e+001	1.163431e+002	-4.138099e+001	-9.206369e+001	-4.044472e+001	8.671236e+001
	-4.232358e+001	8.559244e+001	-4.105602e+001	-9.034423e+001	-3.620254e+001	1.291364e+002	-1.355619e-002	1.165674e+000
	-4.130959e+001	-9.278715e+001	-4.144770e+001	9.443050e+001	-1.675917e-002	1.054474e+000	-3.611628e+001	1.322127e+002
509772	-3.690391e+001	1.233943e+002	-5.195065e-002	1.221186e+000	-4.166162e+001	9.280716e+001	-4.132861e+001	-9.007975e+001
	-3.509670e-002	1.064760e+000	-3.949529e+001	1.253474e+002	-4.081154e+001	-9.078373e+001	-4.122365e+001	8.432422e+001
	-4.126479e+001	8.711669e+001	-4.186452e+001	-9.276904e+001	-3.670772e+001	1.238154e+002	-5.672445e-002	1.083932e+000
	-4.147782e+001	-9.013436e+001	-4.055893e+001	8.915316e+001	-3.243841e-002	1.057307e+000	-3.682595e+001	1.220548e+002
519897	-3.688963e+001	1.183833e+002	-3.279588e-002	1.061640e+000	-4.077458e+001	8.907443e+001	-4.119080e+001	-9.263795e+001
	-4.891949e-002	1.045194e+000	-3.833696e+001	1.193251e+002	-4.087276e+001	-9.178970e+001	-4.164057e+001	9.246176e+001
	-4.091522e+001	9.221855e+001	-4.150007e+001	-9.243510e+001	-3.552638e+001	1.299275e+002	-3.113567e-002	9.974986e-001
	-4.226718e+001	-8.947617e+001	-4.118579e+001	8.552170e+001	-1.755385e-002	1.061178e+000	-3.576364e+001	1.256830e+002
530021	-3.794935e+001	1.183631e+002	-5.826239e-002	1.038033e+000	-4.079039e+001	8.748762e+001	-4.062669e+001	-9.017476e+001
	-3.940873e-002	1.197853e+000	-3.666766e+001	1.178455e+002	-4.167667e+001	-8.628357e+001	-4.056371e+001	9.507223e+001
	-4.172670e+001	8.626110e+001	-4.134170e+001	-8.780290e+001	-3.618644e+001	1.217194e+002	-2.570347e-002	1.057826e+000
	-4.204371e+001	-9.834509e+001	-4.079024e+001	9.170991e+001	-3.373162e-002	1.122962e+000	-3.668838e+001	1.349636e+002
540146	-3.963093e+001	1.229299e+002	-3.245126e-002	1.171014e+000	-4.152228e+001	9.360119e+001	-4.265804e+001	-9.576644e+001
	-3.399899e-002	1.083837e+000	-3.662194e+001	1.157519e+002	-4.108553e+001	-9.695917e+001	-4.081023e+001	9.292656e+001
	-4.059184e+001	8.916768e+001	-4.164616e+001	-8.782112e+001	-3.519819e+001	1.249571e+002	-8.720833e-003	1.085489e+000
	-4.031816e+001	-8.590956e+001	-4.080279e+001	8.529313e+001	-3.116456e-002	1.123240e+000	-3.573603e+001	1.312662e+002
550270	-3.694703e+001	1.093272e+002	-2.430205e-002	1.087190e+000	-3.942539e+001	9.145466e+001	-4.036659e+001	-9.633825e+001
	-6.542227e-002	1.003234e+000	-3.812774e+001	1.123318e+002	-4.234136e+001	-9.363058e+001	-4.077006e+001	8.275159e+001
	-4.041854e+001	8.604527e+001	-4.131363e+001	-8.767574e+001	-3.589613e+001	1.316036e+002	-3.512729e-002	1.027769e+000
	-4.105526e+001	-9.127541e+001	-4.124039e+001	8.661807e+001	-1.987759e-002	1.047119e+000	-3.630742e+001	1.268265e+002
560395	-3.738176e+001	1.140043e+002	-3.304936e-002	1.081488e+000	-4.078466e+001	8.834317e+001	-4.065969e+001	-8.621862e+001
	-5.622182e-002	1.139774e+000	-3.638795e+001	1.181415e+002	-4.161054e+001	-8.514124e+001	-4.168315e+001	9.175840e+001
	-4.062104e+001	9.117658e+001	-4.067621e+001	-8.960765e+001	-3.583197e+001	1.309128e+002	-2.771044e-002	1.092466e+000
	-4.147432e+001	-8.621705e+001	-4.066185e+001	9.491343e+001	4.948920e-003	1.246635e+000	-3.591894e+001	1.259191e+002
572189	-3.830409e+001	1.121793e+002	-4.060796e-002	1.005634e+000	-3.967856e+001	8.970474e+001	-4.038490e+001	-9.227106e+001
	-5.109440e-002	9.972777e-001	-3.632859e+001	1.219951e+002	-4.155655e+001	-9.604284e+001	-3.987016e+001	8.648416e+001
	-4.108759e+001	9.295455e+001	-4.035152e+001	-9.187246e+001	-3.470223e+001	1.324044e+002	-1.688791e-002	1.143519e+000
	-4.100550e+001	-8.707138e+001	-4.040366e+001	8.690013e+001	-2.344484e-002	1.179970e+000	-3.527568e+001	1.256754e+002
586179	-3.606769e+001	1.135014e+002	-3.132620e-002	1.010814e+000	-3.972969e+001	8.764727e+001	-3.967433e+001	-9.045041e+001
	-2.833841e-002	8.726208e-001	-3.731823e+001	1.080908e+002	-4.048437e+001	-9.238809e+001	-4.143675e+001	8.402753e+001
	-4.020135e+001	8.927842e+001	-4.047257e+001	-9.305008e+001	-3.498416e+001	1.305025e+002	-3.862356e-002	1.048721e+000
	-4.026512e+001	-9.013649e+001	-4.044316e+001	8.634725e+001	-1.835890e-002	9.154181e-001	-3.612254e+001	1.222774e+002
600169	-3.788283e+001	1.102130e+002	-3.729631e-002	1.177962e+000	-3.980567e+001	8.615110e+001	-3.946357e+001	-9.123030e+001
	-4.455734e-002	9.680839e-001	-3.741673e+001	1.126887e+002	-3.994250e+001	-9.397863e+001	-3.972210e+001	8.855640e+001
	-4.042482e+001	8.744944e+001	-4.002862e+001	-8.917723e+001	-3.495609e+001	1.274011e+002	-2.072793e-002	9.776306e-001
	-4.006210e+001	-9.654342e+001	-4.001352e+001	9.514459e+001	5.242103e-003	9.211491e-001	-3.574271e+001	1.247347e+002
614158	-3.923496e+001	1.147327e+002	-5.883492e-002	1.083399e+000	-4.015620e+001	9.231522e+001	-3.931046e+001	-9.418725e+001
	-3.717362e-002	1.006403e+000	-3.756516e+001	1.156284e+002	-3.919674e+001	-9.310105e+001	-3.983538e+001	8.809245e+001
	-3.977644e+001	8.530634e+001	-3.970747e+001	-8.660010e+001	-3.544535e+001	1.237765e+002	-1.860626e-002	9.640851e-001
	-3.945803e+001	-9.704094e+001	-4.025323e+001	9.195264e+001	-2.328883e-002	9.387180e-001	-3.549706e+001	1.242566e+002
628148	-3.762627e+001	1.111192e+002	-3.624352e-002	1.003987e+000	-3.940930e+001	9.770616e+001	-4.044527e+001	-9.352270e+001
	-5.071456e-002	1.045578e+000	-3.715199e+001	1.210114e+002	-4.061741e+001	-9.849196e+001	-4.053187e+001	9.078097e+001
	-4.034082e+001	9.434739e+001	-3.933232e+001	-9.470099e+001	-3.546419e+001	1.325656e+002	-1.700339e-002	9.242011e-001
	-3.980876e+001	-9.239751e+001	-3.998476e+001	9.171115e+001	-2.170491e-002	9.768083e-001	-3.558097e+001	1.296405e+002
642138	-3.626113e+001	1.184576e+002	-4.114983e-002	1.124439e+000	-3.869268e+001	9.254087e+001	-3.931073e+001	-8.822249e+001
	-3.677462e-002	9.297695e-001	-3.712704e+001	1.175824e+002	-3.968800e+001	-8.784761e+001	-4.006768e+001	8.810772e+001
