! This data is being provided by Wuerth Elektronik eiSos GmbH & Co. KG to the industry for analysis.
!
! Document information:
! Version:rev19a Date: 16/12/2019
!
! Component information:
! Match Code: WE-CNSW P/N: 744231061 Size: 0805
!------------------------------------------------------------------------------------------------------------------
! Disclaimer:  While Würth Elektronik eiSos has made every reasonable effort to ensure the accuracy
! of the information provided, Würth Elektronik eiSos does not guarantee the exemption of error on the
! data collection measurements, nor does Würth Elektronik eiSos guarantee that the information is current.
! Würth Elektronik eiSos reserves the right to make any adjustments at any time without notice.
! Würth Elektronik eiSos expressly disclaims all implied warranties regarding this measurement data collection.
!
! Note 1 – This data measurement is representative according to the product implementation into the fixture.
! Component behavior is sensitive to implementation into the fixture, which includes board
! materials, trace geometry information, connector pin out, layer connection, use of de-embedding
! techniques, etc.
!
! Note 2 - The fixture was designed specifically to match the 50 Ohm line impedance, as well as the connector impedance,
! in order to accomplish a reliable measurement without reflections in the trace. Any other implementation of the fixture will change the obtained
! measurement performance. The used fixture behavior was de-embedded to accomplish reliable measurement results.
!
!------------------------------------------------------------------------------------------------------------------
!
! The test setup consisted of the following:
!   - Agilent VNA E5071C or E5071B
!   - Calibrations are SOLT (short open load thru)
!   - De-embedding of the SMA's or line cards were included
!   - Equipment Settings -
!            - Sampling - 501 points
!            - IF BW – 70 kHz
!            - Averaging – Not used
!
!
!
!             Port 1----->|1|        |2| -----> Port 3
!                            |   DUT  |
!             Port 2----->|3|        |4| -----> Port 4
!
!
!*VNA Port --> |Port in Datasheet|
! |Port in Datasheet| --> VNA Port
!
!
! For further information regarding this testing, please contact
! Wuerth Elektronik eiSos
! Contact: EDA team in QDC
! Email: libraries@we-online.com or libraries@we-online.de
!
!
# Hz S dB R 50
300000	-3.711069e+001	1.406450e+002	-3.006406e-002	1.300741e+000	-5.213063e+001	9.480682e+001	-5.804262e+001	-1.040816e+002
	-4.490472e-002	1.377603e+000	-3.990500e+001	1.459221e+002	-5.238966e+001	-1.083982e+002	-5.144456e+001	1.057373e+002
	-4.817345e+001	1.031753e+002	-4.904144e+001	-9.505845e+001	-3.814943e+001	1.336363e+002	-6.455244e-002	1.254480e+000
	-5.282967e+001	-1.002462e+002	-5.230368e+001	9.550344e+001	-5.785826e-002	1.171797e+000	-3.823598e+001	1.376140e+002
307335	-3.922328e+001	1.517342e+002	-2.467011e-002	1.350536e+000	-5.041643e+001	6.827021e+001	-5.164606e+001	-9.006031e+001
	-6.028324e-002	1.179790e+000	-3.819879e+001	1.544142e+002	-5.269770e+001	-6.603709e+001	-5.075212e+001	7.190186e+001
	-4.905012e+001	1.048008e+002	-5.170303e+001	-8.118433e+001	-3.754875e+001	1.461591e+002	-5.446058e-002	1.483412e+000
	-5.004768e+001	-1.109197e+002	-5.320278e+001	1.024392e+002	-4.646884e-002	1.402674e+000	-4.137224e+001	1.706399e+002
314670	-3.961119e+001	1.423535e+002	-2.264665e-002	1.585689e+000	-4.834172e+001	9.952980e+001	-5.388644e+001	-1.087629e+002
	-3.940806e-002	1.260989e+000	-3.935263e+001	1.657525e+002	-5.086938e+001	-8.550978e+001	-4.968113e+001	1.065248e+002
	-5.242329e+001	8.183372e+001	-6.459760e+001	-9.945542e+001	-4.001842e+001	1.287605e+002	-1.559159e-002	1.435895e+000
	-5.060740e+001	-9.394916e+001	-5.140185e+001	1.079864e+002	-8.072294e-002	1.390456e+000	-4.056621e+001	1.456235e+002
322004	-3.707170e+001	1.438226e+002	-1.754531e-004	1.642472e+000	-5.069190e+001	9.640567e+001	-4.776949e+001	-8.871831e+001
	-3.770267e-002	1.434345e+000	-4.084496e+001	1.655562e+002	-4.842565e+001	-1.005884e+002	-4.900908e+001	7.329094e+001
	-4.818313e+001	7.330349e+001	-5.584759e+001	-1.141088e+002	-3.919954e+001	1.402731e+002	-6.069586e-002	1.400676e+000
	-5.110389e+001	-7.364993e+001	-5.222520e+001	1.222944e+002	-3.525137e-002	1.446048e+000	-4.054241e+001	1.510442e+002
329339	-3.878035e+001	1.608932e+002	-4.316381e-002	1.442741e+000	-5.178528e+001	9.863489e+001	-5.182923e+001	-8.194867e+001
	-6.065189e-002	1.578235e+000	-4.076330e+001	1.656388e+002	-5.363276e+001	-1.027081e+002	-5.097918e+001	1.110810e+002
	-4.827193e+001	7.929384e+001	-5.036782e+001	-8.467259e+001	-3.837119e+001	1.463774e+002	-4.042523e-002	1.526859e+000
	-5.145505e+001	-9.473506e+001	-5.007754e+001	8.005167e+001	-6.535595e-002	1.483319e+000	-3.992097e+001	1.670649e+002
336674	-4.128585e+001	1.397383e+002	-5.761018e-002	1.431998e+000	-5.024981e+001	6.174130e+001	-5.203664e+001	-1.044592e+002
	-5.258479e-002	1.239217e+000	-3.824911e+001	1.495631e+002	-5.331274e+001	-9.662457e+001	-5.160665e+001	9.333526e+001
	-4.988233e+001	8.895774e+001	-5.249194e+001	-9.029070e+001	-4.053238e+001	1.515523e+002	-3.489577e-002	1.411714e+000
	-4.975919e+001	-1.003049e+002	-5.271856e+001	1.380568e+002	-4.881130e-002	1.310051e+000	-3.839724e+001	1.553276e+002
344009	-3.916206e+001	1.359692e+002	-5.030666e-002	1.326702e+000	-4.831110e+001	7.283326e+001	-4.810268e+001	-1.031762e+002
	-3.316605e-002	1.235080e+000	-3.859232e+001	1.281935e+002	-4.867392e+001	-8.037567e+001	-4.973403e+001	9.597305e+001
	-4.866555e+001	8.549463e+001	-4.933265e+001	-8.972793e+001	-4.134727e+001	1.444756e+002	-4.620949e-002	1.423670e+000
	-4.863009e+001	-9.038791e+001	-5.241202e+001	9.449810e+001	-6.141387e-002	1.351077e+000	-3.965294e+001	1.464101e+002
351344	-3.944467e+001	1.359901e+002	-3.801067e-002	1.446521e+000	-5.166619e+001	7.155712e+001	-4.928464e+001	-1.098376e+002
	-4.823135e-002	1.396259e+000	-4.344186e+001	1.488062e+002	-5.044871e+001	-7.559483e+001	-4.984156e+001	9.183660e+001
	-5.054786e+001	9.358371e+001	-4.978610e+001	-9.209359e+001	-3.890128e+001	1.377888e+002	-3.224186e-002	1.318545e+000
	-5.024372e+001	-8.430766e+001	-5.482348e+001	9.615105e+001	-4.512829e-002	1.318134e+000	-3.708069e+001	1.518838e+002
358679	-3.775867e+001	1.329458e+002	-3.212586e-002	1.481460e+000	-4.869710e+001	8.576091e+001	-5.095382e+001	-9.213335e+001
	-3.093626e-002	1.284304e+000	-3.884304e+001	1.576979e+002	-4.972720e+001	-7.585044e+001	-4.845115e+001	7.675180e+001
	-5.099125e+001	7.232843e+001	-5.167903e+001	-1.056931e+002	-3.535032e+001	1.312449e+002	-3.378698e-002	1.299576e+000
	-4.771555e+001	-1.011154e+002	-5.064524e+001	8.932796e+001	-5.251682e-002	1.268676e+000	-4.092200e+001	1.471634e+002
366013	-3.810585e+001	1.513182e+002	-5.504146e-002	1.429823e+000	-5.189370e+001	8.336998e+001	-5.037025e+001	-7.977076e+001
	-1.505960e-002	1.323891e+000	-4.104766e+001	1.409497e+002	-4.857731e+001	-8.702130e+001	-4.936372e+001	9.519152e+001
	-5.211753e+001	1.013132e+002	-4.844443e+001	-9.332297e+001	-3.987460e+001	1.419923e+002	-6.468496e-002	1.373798e+000
	-5.027385e+001	-8.472303e+001	-4.929205e+001	8.708482e+001	-1.990213e-002	1.360777e+000	-4.067334e+001	1.392963e+002
373348	-3.919546e+001	1.432322e+002	-3.408845e-002	1.446046e+000	-4.693435e+001	7.219445e+001	-5.010111e+001	-9.742516e+001
	-3.800722e-002	1.292807e+000	-3.925360e+001	1.562667e+002	-5.145925e+001	-8.957174e+001	-4.663905e+001	9.665728e+001
	-4.877884e+001	9.568032e+001	-5.158222e+001	-6.782185e+001	-3.822458e+001	1.431254e+002	-5.808696e-002	1.367450e+000
	-4.663483e+001	-8.801073e+001	-5.342590e+001	9.612452e+001	-4.273847e-002	1.344438e+000	-3.836904e+001	1.516975e+002
380683	-3.760409e+001	1.491784e+002	-5.774489e-002	1.503497e+000	-4.944360e+001	1.022246e+002	-4.619630e+001	-1.072276e+002
	-3.214075e-002	1.415620e+000	-4.041680e+001	1.466829e+002	-4.935678e+001	-1.028141e+002	-5.096915e+001	8.196978e+001
	-5.255122e+001	8.357269e+001	-5.234523e+001	-1.004509e+002	-3.838432e+001	1.510356e+002	-2.969816e-002	1.315077e+000
	-4.879881e+001	-7.789857e+001	-4.724619e+001	9.005365e+001	-3.871110e-002	1.493527e+000	-3.757033e+001	1.434274e+002
388018	-3.822041e+001	1.356373e+002	-9.278819e-003	1.337554e+000	-4.975204e+001	9.177257e+001	-4.831324e+001	-9.618994e+001
	-4.464283e-002	1.254022e+000	-3.801140e+001	1.486164e+002	-5.169705e+001	-8.059759e+001	-4.971347e+001	8.460558e+001
	-4.838699e+001	9.674687e+001	-5.091025e+001	-9.510805e+001	-3.914275e+001	1.495251e+002	-3.107559e-002	1.327333e+000
	-4.921403e+001	-9.835073e+001	-4.733301e+001	9.845463e+001	-4.790648e-002	1.343495e+000	-3.917895e+001	1.571055e+002
395353	-3.959432e+001	1.364926e+002	-4.495739e-002	1.381607e+000	-4.793990e+001	7.785924e+001	-5.037059e+001	-7.820991e+001
	-4.984164e-002	1.341773e+000	-3.774952e+001	1.384168e+002	-5.035581e+001	-9.331327e+001	-5.046631e+001	9.750112e+001
	-5.043575e+001	9.820012e+001	-4.901845e+001	-8.809188e+001	-3.809144e+001	1.331214e+002	-1.864390e-002	1.270865e+000
	-4.753445e+001	-9.144696e+001	-4.649732e+001	8.561360e+001	-4.521544e-002	1.268882e+000	-3.763809e+001	1.452581e+002
402688	-4.225910e+001	1.411375e+002	-4.391858e-002	1.429726e+000	-5.007817e+001	9.714926e+001	-4.930187e+001	-1.044318e+002
	-3.400408e-002	1.354965e+000	-3.950946e+001	1.408406e+002	-5.269913e+001	-9.116877e+001	-4.826213e+001	9.485256e+001
	-5.150697e+001	1.007134e+002	-4.740917e+001	-7.310692e+001	-3.849335e+001	1.386620e+002	-4.496375e-002	1.397627e+000
	-4.672899e+001	-8.824459e+001	-4.603913e+001	7.672241e+001	-2.784463e-002	1.286861e+000	-3.765846e+001	1.494425e+002
410022	-3.986757e+001	1.339817e+002	-6.029877e-002	1.240854e+000	-5.066467e+001	9.454738e+001	-4.673775e+001	-8.803748e+001
	-4.742272e-002	1.357091e+000	-3.890307e+001	1.327170e+002	-5.002633e+001	-1.019858e+002	-4.968973e+001	9.615517e+001
	-5.005365e+001	8.316486e+001	-5.083869e+001	-7.938134e+001	-3.762549e+001	1.368332e+002	-3.232810e-002	1.413544e+000
	-4.931918e+001	-8.565582e+001	-4.748430e+001	9.556018e+001	-5.008928e-002	1.238213e+000	-4.028255e+001	1.522786e+002
418652	-4.016593e+001	1.527777e+002	-2.315778e-002	1.290985e+000	-4.888228e+001	7.256499e+001	-4.771327e+001	-9.757891e+001
	-4.347260e-002	1.293923e+000	-3.870253e+001	1.385871e+002	-4.964075e+001	-6.823851e+001	-5.104221e+001	1.047295e+002
	-4.799250e+001	1.143867e+002	-4.902162e+001	-8.764666e+001	-3.641056e+001	1.326723e+002	-5.833813e-002	1.449227e+000
	-4.822824e+001	-9.469920e+001	-4.924285e+001	1.004394e+002	-2.595151e-002	1.268092e+000	-3.908097e+001	1.475336e+002
428777	-4.052388e+001	1.379819e+002	-1.672253e-002	1.274622e+000	-4.802923e+001	8.749110e+001	-4.923730e+001	-9.636511e+001
	-4.313617e-002	1.339500e+000	-3.923957e+001	1.544612e+002	-4.915091e+001	-9.914065e+001	-4.816064e+001	9.607343e+001
	-4.648230e+001	1.021378e+002	-4.893167e+001	-8.254633e+001	-3.807493e+001	1.318056e+002	-5.432431e-002	1.293605e+000
	-4.998593e+001	-7.066597e+001	-4.838454e+001	9.181095e+001	-4.344567e-002	1.373105e+000	-3.975661e+001	1.423061e+002
438901	-3.936413e+001	1.398373e+002	-1.515254e-002	1.336965e+000	-4.782967e+001	8.491818e+001	-4.749672e+001	-9.136834e+001
	-4.100148e-002	1.231705e+000	-4.116744e+001	1.387445e+002	-4.644366e+001	-9.314445e+001	-4.936812e+001	8.016171e+001
	-4.983253e+001	8.997728e+001	-4.908197e+001	-1.057332e+002	-3.981438e+001	1.436156e+002	-5.881384e-002	1.377655e+000
	-4.916361e+001	-8.278388e+001	-4.714755e+001	8.635308e+001	-3.364344e-002	1.458078e+000	-3.976653e+001	1.534311e+002
449026	-3.867571e+001	1.366177e+002	-1.582267e-002	1.320097e+000	-5.083057e+001	8.629353e+001	-4.677682e+001	-7.500611e+001
	-2.385022e-002	1.242866e+000	-3.907105e+001	1.429027e+002	-4.884467e+001	-9.676887e+001	-5.229343e+001	8.497391e+001
	-4.683186e+001	9.475339e+001	-4.693866e+001	-1.028422e+002	-4.032037e+001	1.449315e+002	-4.317496e-002	1.308736e+000
	-5.005180e+001	-8.467191e+001	-5.151019e+001	8.007256e+001	-5.465993e-002	1.387251e+000	-3.947150e+001	1.433871e+002
459150	-4.048782e+001	1.396014e+002	-4.131716e-002	1.361755e+000	-4.669491e+001	9.511833e+001	-4.911909e+001	-9.403317e+001
	-2.253195e-002	1.241607e+000	-4.052204e+001	1.434189e+002	-4.990319e+001	-9.170149e+001	-4.524692e+001	1.000547e+002
	-4.830827e+001	8.820849e+001	-4.951345e+001	-9.479084e+001	-3.903271e+001	1.362059e+002	-2.306441e-002	1.291370e+000
	-4.806235e+001	-9.787748e+001	-4.734309e+001	8.150262e+001	-4.947087e-002	1.381792e+000	-3.770246e+001	1.531996e+002
469275	-3.990648e+001	1.412555e+002	-1.973898e-002	1.383005e+000	-4.689646e+001	1.001828e+002	-4.616114e+001	-1.034435e+002
	-4.138300e-002	1.294375e+000	-4.066572e+001	1.525940e+002	-4.578858e+001	-1.049753e+002	-4.858314e+001	1.026344e+002
	-4.745807e+001	1.028051e+002	-4.846183e+001	-8.914458e+001	-3.874061e+001	1.278713e+002	-2.854402e-002	1.322376e+000
	-5.149313e+001	-8.250759e+001	-4.959096e+001	9.051866e+001	-7.255130e-002	1.259571e+000	-4.093282e+001	1.335909e+002
479399	-3.995413e+001	1.373715e+002	-3.242216e-002	1.267513e+000	-4.819441e+001	8.331768e+001	-4.850492e+001	-8.207456e+001
	-2.303794e-002	1.361961e+000	-3.956010e+001	1.512995e+002	-4.835832e+001	-9.403850e+001	-4.675816e+001	7.868101e+001
	-4.605138e+001	9.081243e+001	-4.895408e+001	-8.437232e+001	-4.010290e+001	1.355505e+002	-3.090971e-002	1.191385e+000
	-4.669172e+001	-8.230718e+001	-4.804630e+001	8.705401e+001	-4.953201e-002	1.222272e+000	-3.865904e+001	1.448503e+002
489523	-4.017876e+001	1.434414e+002	-4.372598e-002	1.340968e+000	-4.694640e+001	9.114530e+001	-4.708707e+001	-1.089733e+002
	-4.995220e-002	1.376264e+000	-4.029766e+001	1.457465e+002	-4.638910e+001	-9.510637e+001	-4.545404e+001	9.138397e+001
	-4.626951e+001	8.313184e+001	-4.750935e+001	-9.551072e+001	-3.769354e+001	1.296224e+002	-3.034833e-002	1.317237e+000
	-4.742099e+001	-9.495243e+001	-4.814352e+001	7.133780e+001	-2.996941e-002	1.247426e+000	-3.985369e+001	1.561773e+002
499648	-3.861020e+001	1.463932e+002	-3.043509e-002	1.283014e+000	-4.818284e+001	1.025695e+002	-4.710204e+001	-8.371861e+001
	-2.012191e-002	1.234590e+000	-4.021983e+001	1.360566e+002	-4.662303e+001	-8.786343e+001	-4.681046e+001	1.030333e+002
	-4.553638e+001	9.021190e+001	-4.715110e+001	-8.785871e+001	-3.864398e+001	1.401174e+002	-3.062231e-002	1.374066e+000
	-4.540490e+001	-9.159104e+001	-4.679207e+001	7.989089e+001	-2.309727e-002	1.364299e+000	-3.864802e+001	1.433382e+002
509772	-3.885804e+001	1.427342e+002	-3.493718e-002	1.286856e+000	-4.709490e+001	7.789889e+001	-4.873991e+001	-8.619966e+001
	-6.044955e-003	1.258079e+000	-4.173388e+001	1.568352e+002	-4.571796e+001	-9.571304e+001	-4.820300e+001	8.980782e+001
	-4.675477e+001	9.857963e+001	-4.705836e+001	-7.943318e+001	-3.968864e+001	1.313560e+002	-6.002851e-002	1.273906e+000
	-4.718518e+001	-9.531328e+001	-4.584036e+001	7.854473e+001	-3.423149e-002	1.291551e+000	-3.978786e+001	1.288957e+002
519897	-3.881811e+001	1.405484e+002	-1.779091e-002	1.296710e+000	-4.692962e+001	1.052691e+002	-4.709586e+001	-8.898414e+001
	-2.714630e-002	1.315821e+000	-4.019300e+001	1.448985e+002	-4.597284e+001	-9.683826e+001	-4.639679e+001	8.715261e+001
	-4.426026e+001	8.950298e+001	-4.467121e+001	-9.383528e+001	-3.781120e+001	1.454778e+002	-3.234865e-002	1.238372e+000
	-4.570603e+001	-8.393762e+001	-4.590836e+001	8.826959e+001	-3.432939e-002	1.388275e+000	-3.784903e+001	1.367336e+002
530021	-4.013954e+001	1.426809e+002	-4.566180e-002	1.201932e+000	-4.527394e+001	9.510854e+001	-4.609123e+001	-8.436336e+001
	-2.550560e-002	1.405523e+000	-3.845085e+001	1.390735e+002	-4.923249e+001	-9.066988e+001	-4.731062e+001	8.799164e+001
	-4.537599e+001	9.333106e+001	-4.748368e+001	-8.705303e+001	-3.969457e+001	1.305111e+002	-3.817778e-002	1.239926e+000
	-4.622346e+001	-9.059346e+001	-4.701573e+001	1.097150e+002	-4.429760e-002	1.269253e+000	-3.928203e+001	1.478699e+002
540146	-4.132436e+001	1.467606e+002	-1.908736e-002	1.373213e+000	-4.571176e+001	6.148859e+001	-4.496969e+001	-9.531475e+001
	-3.039314e-002	1.179266e+000	-3.883919e+001	1.254240e+002	-4.557687e+001	-8.161676e+001	-4.683168e+001	8.967140e+001
	-4.839559e+001	8.320173e+001	-4.544904e+001	-8.982625e+001	-3.724696e+001	1.358552e+002	-9.712759e-003	1.327402e+000
	-4.564101e+001	-8.908635e+001	-4.623187e+001	7.455823e+001	-2.867508e-002	1.388553e+000	-3.753925e+001	1.366712e+002
550270	-3.843021e+001	1.267030e+002	-2.364029e-002	1.219682e+000	-4.534698e+001	9.763959e+001	-4.822264e+001	-9.632261e+001
	-3.564785e-002	1.255812e+000	-4.081471e+001	1.399188e+002	-4.472223e+001	-9.337600e+001	-4.562320e+001	9.668300e+001
	-4.714561e+001	9.996490e+001	-4.730857e+001	-9.056774e+001	-3.861899e+001	1.407672e+002	-3.794970e-002	1.278324e+000
	-4.619822e+001	-9.241113e+001	-4.576735e+001	8.482050e+001	-3.903909e-002	1.270229e+000	-3.929113e+001	1.401143e+002
560395	-3.912318e+001	1.368989e+002	-3.044175e-002	1.317994e+000	-4.357652e+001	9.140250e+001	-4.612635e+001	-7.039984e+001
	-3.638743e-002	1.417377e+000	-3.811758e+001	1.377487e+002	-4.847966e+001	-8.717566e+001	-4.593693e+001	8.770252e+001
	-4.550514e+001	8.446865e+001	-4.547202e+001	-9.372925e+001	-3.861499e+001	1.466981e+002	-4.364922e-002	1.373272e+000
	-4.634919e+001	-7.726161e+001	-4.559295e+001	1.001349e+002	-1.169958e-002	1.427105e+000	-3.891363e+001	1.370526e+002
572189	-4.036712e+001	1.339727e+002	-3.122589e-002	1.323820e+000	-4.618811e+001	8.089393e+001	-4.842775e+001	-9.359803e+001
	-5.324059e-002	1.241537e+000	-3.780942e+001	1.392510e+002	-4.571882e+001	-8.839898e+001	-4.467000e+001	8.192668e+001
	-4.545265e+001	8.728727e+001	-4.577192e+001	-9.935662e+001	-3.729877e+001	1.395316e+002	-2.789912e-002	1.265747e+000
	-4.589208e+001	-8.919754e+001	-4.676585e+001	9.167074e+001	-1.613217e-002	1.327197e+000	-3.795976e+001	1.307829e+002
586179	-3.874992e+001	1.351549e+002	-1.583555e-002	1.199682e+000	-4.662276e+001	8.608342e+001	-4.448633e+001	-9.546817e+001
	-1.399355e-002	1.244204e+000	-3.996166e+001	1.269150e+002	-4.483358e+001	-9.400418e+001	-4.440175e+001	8.690701e+001
	-4.676128e+001	7.942648e+001	-4.621124e+001	-8.464330e+001	-3.773984e+001	1.400171e+002	-4.045090e-002	1.224309e+000
	-4.597897e+001	-7.713069e+001	-4.588056e+001	9.099252e+001	-4.419209e-002	1.127623e+000	-3.901662e+001	1.344256e+002
600169	-3.998806e+001	1.338026e+002	-1.735638e-002	1.326270e+000	-4.677437e+001	8.124025e+001	-4.808334e+001	-9.648799e+001
	-2.486240e-002	1.274247e+000	-4.015879e+001	1.308211e+002	-4.431046e+001	-1.008677e+002	-4.660990e+001	9.245817e+001
	-4.541157e+001	8.365892e+001	-4.672885e+001	-8.434123e+001	-3.769350e+001	1.402232e+002	-2.656159e-002	1.205890e+000
	-4.520541e+001	-1.013991e+002	-4.531116e+001	9.008869e+001	-7.370993e-004	1.133425e+000	-3.902088e+001	1.364517e+002
614158	-4.168654e+001	1.403611e+002	-4.419190e-002	1.315380e+000	-4.352447e+001	9.006949e+001	-4.494443e+001	-9.928171e+001
	-1.967182e-002	1.256258e+000	-3.959345e+001	1.394797e+002	-4.456056e+001	-8.413244e+001	-4.644828e+001	8.830549e+001
	-4.577661e+001	8.285061e+001	-4.531126e+001	-9.644221e+001	-3.857565e+001	1.340726e+002	-3.830543e-002	1.177247e+000
	-4.589951e+001	-8.767317e+001	-4.589819e+001	9.226006e+001	-4.196940e-002	1.179233e+000	-3.821588e+001	1.339264e+002
628148	-4.148646e+001	1.354920e+002	-2.010833e-002	1.289474e+000	-4.372721e+001	8.992520e+001	-4.508783e+001	-1.028341e+002
	-4.314511e-002	1.249341e+000	-3.890789e+001	1.401114e+002	-4.515875e+001	-8.324507e+001	-4.524332e+001	9.343964e+001
	-4.356009e+001	7.994622e+001	-4.419884e+001	-9.644868e+001	-3.813978e+001	1.446445e+002	-2.820411e-002	1.166078e+000
	-4.494657e+001	-9.148391e+001	-4.378470e+001	7.966031e+001	-2.251189e-002	1.268266e+000	-3.785960e+001	1.425808e+002
642138	-3.822017e+001	1.376505e+002	-2.164155e-002	1.335712e+000	-4.447957e+001	9.603025e+001	-4.355419e+001	-9.760683e+001
	-2.559112e-002	1.201061e+000	-3.905589e+001	1.376993e+002	-4.497402e+001	-9.587550e+001	-4.523722e+001	1.040733e+002
