!  American Technical Ceramics  Date:    3/13/98
!  One Norden Lane
!  Huntington Station,  NY.   11746-2102
!  Tel:  (516) 547-5700               Fax:  (516) 547-5748
!  Part Number  180r8r2d
!  Description: Porcelain, High Q, Low ESR
!  Application: Bypass, Coupling, Timing, Feedback
!               Tuning, Impedance Match, Blocking
# GHZ S DB R 50
! Freq   |S11|   S11 Ph  |S21|   S21 Ph  |S12|   S12 Ph  |S22|   S22 Ph
    0.05   -0.16  -14.34  -12.70   76.03  -12.70   76.03   -0.16  -14.34
    0.11   -1.11  -29.09   -6.36   60.68   -6.36   60.68   -1.11  -29.09
    0.17   -2.26  -41.54   -3.81   49.09   -3.81   49.09   -2.26  -41.54
    0.24   -3.54  -50.27   -2.49   40.54   -2.49   40.54   -3.54  -50.27
    0.30   -4.74  -57.22   -1.72   33.90   -1.72   33.90   -4.74  -57.22
    0.36   -5.85  -62.39   -1.26   29.15   -1.26   29.15   -5.85  -62.39
    0.42   -6.84  -66.38   -0.95   25.30   -0.95   25.30   -6.84  -66.38
    0.48   -7.72  -69.41   -0.75   22.30   -0.75   22.30   -7.72  -69.41
    0.54   -8.74  -72.14   -0.65   19.28   -0.65   19.28   -8.74  -72.14
    0.61   -9.42  -74.62   -0.52   17.50   -0.52   17.50   -9.42  -74.62
    0.67  -10.04  -76.41   -0.46   15.88   -0.46   15.88  -10.04  -76.41
    0.73  -10.57  -77.66   -0.39   14.50   -0.39   14.50  -10.57  -77.66
    0.79  -11.07  -79.02   -0.37   13.32   -0.37   13.32  -11.07  -79.02
    0.85  -11.48  -80.54   -0.33   12.38   -0.33   12.38  -11.48  -80.54
    0.91  -11.85  -81.60   -0.29   11.50   -0.29   11.50  -11.85  -81.60
    0.98  -12.17  -82.70   -0.26   10.59   -0.26   10.59  -12.17  -82.70
    1.04  -12.51  -83.60   -0.27    9.91   -0.27    9.91  -12.51  -83.60
    1.10  -12.77  -84.51   -0.23    9.24   -0.23    9.24  -12.77  -84.51
    1.16  -12.95  -85.50   -0.21    8.56   -0.21    8.56  -12.95  -85.50
    1.22  -13.20  -85.82   -0.21    8.08   -0.21    8.08  -13.20  -85.82
    1.29  -13.37  -86.46   -0.20    7.58   -0.20    7.58  -13.37  -86.46
    1.35  -13.60  -87.16   -0.18    7.26   -0.18    7.26  -13.60  -87.16
    1.41  -13.74  -87.62   -0.18    6.82   -0.18    6.82  -13.74  -87.62
    1.47  -13.85  -88.27   -0.19    6.42   -0.19    6.42  -13.85  -88.27
    1.53  -13.99  -88.83   -0.18    6.07   -0.18    6.07  -13.99  -88.83
    1.59  -14.09  -89.48   -0.17    5.82   -0.17    5.82  -14.09  -89.48
    1.66  -14.15  -89.82   -0.17    5.43   -0.17    5.43  -14.15  -89.82
    1.72  -14.22  -90.19   -0.18    5.06   -0.18    5.06  -14.22  -90.19
    1.78  -14.30  -90.76   -0.19    4.88   -0.19    4.88  -14.30  -90.76
    1.84  -14.35  -91.42   -0.16    4.55   -0.16    4.55  -14.35  -91.42
    1.90  -14.32  -91.25   -0.15    4.34   -0.15    4.34  -14.32  -91.25
    1.96  -14.38  -91.55   -0.15    4.05   -0.15    4.05  -14.38  -91.55
    2.03  -14.46  -92.34   -0.18    3.91   -0.18    3.91  -14.46  -92.34
    2.09  -14.50  -92.72   -0.16    3.77   -0.16    3.77  -14.50  -92.72
    2.15  -14.42  -92.72   -0.17    3.58   -0.17    3.58  -14.42  -92.72
    2.21  -14.46  -93.30   -0.17    3.17   -0.17    3.17  -14.46  -93.30
    2.27  -14.50  -93.90   -0.18    3.16   -0.18    3.16  -14.50  -93.90
    2.33  -14.49  -94.22   -0.16    2.96   -0.16    2.96  -14.49  -94.22
    2.40  -14.43  -94.33   -0.15    2.78   -0.15    2.78  -14.43  -94.33
    2.46  -14.46  -94.74   -0.16    2.56   -0.16    2.56  -14.46  -94.74
    2.52  -14.45  -95.51   -0.18    2.46   -0.18    2.46  -14.45  -95.51
    2.58  -14.41  -95.35   -0.17    2.24   -0.17    2.24  -14.41  -95.35
    2.64  -14.36  -95.35   -0.19    2.13   -0.19    2.13  -14.36  -95.35
    2.71  -14.33  -95.85   -0.20    1.90   -0.20    1.90  -14.33  -95.85
    2.77  -14.34  -96.80   -0.16    1.68   -0.16    1.68  -14.34  -96.80
    2.83  -14.30  -96.52   -0.18    1.64   -0.18    1.64  -14.30  -96.52
    2.89  -14.16  -96.63   -0.19    1.59   -0.19    1.59  -14.16  -96.63
    2.95  -14.22  -97.50   -0.19    1.39   -0.19    1.39  -14.22  -97.50
    3.01  -14.16  -97.79   -0.22    1.17   -0.22    1.17  -14.16  -97.79
    3.08  -14.05  -98.13   -0.21    1.09   -0.21    1.09  -14.05  -98.13
    3.14  -14.00  -98.07   -0.20    0.96   -0.20    0.96  -14.00  -98.07
    3.20  -14.01  -98.48   -0.25    0.78   -0.25    0.78  -14.01  -98.48
    3.26  -13.92  -99.27   -0.20    0.74   -0.20    0.74  -13.92  -99.27
    3.32  -13.89  -99.32   -0.21    0.55   -0.21    0.55  -13.89  -99.32
    3.38  -13.69  -99.18   -0.26    0.30   -0.26    0.30  -13.69  -99.18
    3.45  -13.72 -100.40   -0.25    0.35   -0.25    0.35  -13.72 -100.40
    3.51  -13.63 -100.52   -0.23    0.16   -0.23    0.16  -13.63 -100.52
    3.57  -13.48 -100.02   -0.25    0.12   -0.25    0.12  -13.48 -100.02
    3.63  -13.36 -100.86   -0.25   -0.03   -0.25   -0.03  -13.36 -100.86
    3.69  -13.40 -101.61   -0.28   -0.36   -0.28   -0.36  -13.40 -101.61
    3.76  -13.19 -101.58   -0.27   -0.19   -0.27   -0.19  -13.19 -101.58
    3.82  -13.12 -101.83   -0.26   -0.65   -0.26   -0.65  -13.12 -101.83
    3.88  -12.96 -101.77   -0.30   -0.58   -0.30   -0.58  -12.96 -101.77
    3.94  -12.89 -102.51   -0.32   -0.68   -0.32   -0.68  -12.89 -102.51
    4.00  -12.90 -104.24   -0.28   -0.77   -0.28   -0.77  -12.90 -104.24
    4.06  -12.77 -104.34   -0.31   -0.84   -0.31   -0.84  -12.77 -104.34
    4.13  -12.65 -104.87   -0.30   -0.96   -0.30   -0.96  -12.65 -104.87
    4.19  -12.71 -105.64   -0.33   -0.89   -0.33   -0.89  -12.71 -105.64
    4.25  -12.48 -105.60   -0.32   -1.01   -0.32   -1.01  -12.48 -105.60
    4.31  -12.41 -106.15   -0.31   -1.27   -0.31   -1.27  -12.41 -106.15
    4.37  -12.36 -106.73   -0.32   -1.31   -0.32   -1.31  -12.36 -106.73
    4.43  -12.31 -107.29   -0.36   -1.24   -0.36   -1.24  -12.31 -107.29
    4.50  -12.20 -107.64   -0.33   -1.37   -0.33   -1.37  -12.20 -107.64
    4.56  -12.08 -107.33   -0.36   -1.58   -0.36   -1.58  -12.08 -107.33
    4.62  -12.03 -108.39   -0.38   -1.51   -0.38   -1.51  -12.03 -108.39
    4.68  -12.05 -108.43   -0.39   -1.60   -0.39   -1.60  -12.05 -108.43
    4.74  -11.87 -108.42   -0.35   -1.72   -0.35   -1.72  -11.87 -108.42
    4.80  -11.81 -108.80   -0.41   -1.95   -0.41   -1.95  -11.81 -108.80
    4.87  -11.74 -109.42   -0.41   -1.88   -0.41   -1.88  -11.74 -109.42
    4.93  -11.71 -109.36   -0.41   -1.88   -0.41   -1.88  -11.71 -109.36
    4.99  -11.59 -110.03   -0.39   -2.18   -0.39   -2.18  -11.59 -110.03
    5.05  -11.63 -109.20   -0.45   -2.32   -0.45   -2.32  -11.63 -109.20
    5.11  -11.41 -109.30   -0.45   -2.19   -0.45   -2.19  -11.41 -109.30
    5.18  -11.39 -110.26   -0.46   -1.94   -0.46   -1.94  -11.39 -110.26
    5.24  -11.32 -110.17   -0.43   -2.00   -0.43   -2.00  -11.32 -110.17
    5.30  -11.21 -110.33   -0.44   -2.25   -0.44   -2.25  -11.21 -110.33
    5.36  -11.22 -111.46   -0.45   -2.26   -0.45   -2.26  -11.22 -111.46
    5.42  -11.30 -110.76   -0.47   -2.16   -0.47   -2.16  -11.30 -110.76
    5.48  -11.03 -110.89   -0.44   -2.20   -0.44   -2.20  -11.03 -110.89
    5.55  -11.10 -111.31   -0.47   -2.42   -0.47   -2.42  -11.10 -111.31
    5.61  -11.07 -111.74   -0.49   -2.41   -0.49   -2.41  -11.07 -111.74
    5.67  -11.02 -111.38   -0.47   -2.15   -0.47   -2.15  -11.02 -111.38
    5.73  -10.89 -111.96   -0.48   -2.41   -0.48   -2.41  -10.89 -111.96
    5.79  -10.96 -112.07   -0.49   -2.36   -0.49   -2.36  -10.96 -112.07
    5.85  -10.89 -112.45   -0.48   -2.41   -0.48   -2.41  -10.89 -112.45
    5.92  -10.93 -112.82   -0.50   -2.42   -0.50   -2.42  -10.93 -112.82
    5.98  -10.80 -112.71   -0.48   -2.36   -0.48   -2.36  -10.80 -112.71
    6.04  -10.87 -112.77   -0.52   -2.50   -0.52   -2.50  -10.87 -112.77
    6.10  -10.86 -113.45   -0.51   -2.49   -0.51   -2.49  -10.86 -113.45
    6.16  -10.88 -113.42   -0.49   -2.55   -0.49   -2.55  -10.88 -113.42
    6.23  -10.80 -113.07   -0.50   -2.61   -0.50   -2.61  -10.80 -113.07
    6.29  -10.84 -113.68   -0.52   -2.65   -0.52   -2.65  -10.84 -113.68
    6.35  -10.84 -113.97   -0.53   -2.30   -0.53   -2.30  -10.84 -113.97
    6.41  -10.89 -114.36   -0.54   -2.55   -0.54   -2.55  -10.89 -114.36
    6.47  -10.73 -114.18   -0.48   -2.75   -0.48   -2.75  -10.73 -114.18
    6.53  -10.92 -114.65   -0.54   -2.70   -0.54   -2.70  -10.92 -114.65
    6.60  -10.93 -115.21   -0.54   -2.73   -0.54   -2.73  -10.93 -115.21
    6.66  -10.93 -114.89   -0.53   -2.77   -0.53   -2.77  -10.93 -114.89
    6.72  -10.91 -114.98   -0.53   -2.84   -0.53   -2.84  -10.91 -114.98
    6.78  -11.06 -115.41   -0.57   -2.82   -0.57   -2.82  -11.06 -115.41
    6.84  -11.08 -115.02   -0.56   -2.85   -0.56   -2.85  -11.08 -115.02
    6.90  -10.99 -115.40   -0.56   -2.92   -0.56   -2.92  -10.99 -115.40
    6.97  -10.98 -114.90   -0.57   -3.04   -0.57   -3.04  -10.98 -114.90
    7.03  -11.18 -115.10   -0.58   -2.75   -0.58   -2.75  -11.18 -115.10
    7.09  -11.15 -115.85   -0.57   -2.98   -0.57   -2.98  -11.15 -115.85
    7.15  -11.17 -115.41   -0.57   -2.98   -0.57   -2.98  -11.17 -115.41
    7.21  -11.23 -115.48   -0.58   -3.13   -0.58   -3.13  -11.23 -115.48
    7.27  -11.39 -115.61   -0.60   -3.22   -0.60   -3.22  -11.39 -115.61
    7.34  -11.42 -115.60   -0.59   -3.34   -0.59   -3.34  -11.42 -115.60
    7.40  -11.38 -115.54   -0.60   -3.52   -0.60   -3.52  -11.38 -115.54
    7.46  -11.58 -114.68   -0.60   -3.58   -0.60   -3.58  -11.58 -114.68
    7.52  -11.74 -115.26   -0.64   -3.53   -0.64   -3.53  -11.74 -115.26
    7.58  -11.63 -115.06   -0.65   -3.76   -0.65   -3.76  -11.63 -115.06
    7.65  -11.75 -114.27   -0.60   -3.52   -0.60   -3.52  -11.75 -114.27
    7.71  -11.83 -114.86   -0.63   -4.21   -0.63   -4.21  -11.83 -114.86
    7.77  -11.95 -115.28   -0.64   -3.96   -0.64   -3.96  -11.95 -115.28
    7.83  -12.20 -115.32   -0.62   -4.21   -0.62   -4.21  -12.20 -115.32
    7.89  -12.30 -114.97   -0.63   -4.69   -0.63   -4.69  -12.30 -114.97
    7.95  -12.74 -114.80   -0.62   -5.13   -0.62   -5.13  -12.74 -114.80
    8.02  -13.21 -115.27   -0.65   -5.67   -0.65   -5.67  -13.21 -115.27
    8.08  -13.68 -113.01   -0.64   -6.81   -0.64   -6.81  -13.68 -113.01
    8.14  -14.65 -109.92   -0.71   -8.02   -0.71   -8.02  -14.65 -109.92
    8.20  -16.04 -100.17   -0.86  -10.47   -0.86  -10.47  -16.04 -100.17
    8.26  -16.02  -73.22   -1.38  -13.96   -1.38  -13.96  -16.02  -73.22
    8.32  -10.58  -58.55   -2.92  -14.64   -2.92  -14.64  -10.58  -58.55
    8.39   -7.25  -79.43   -3.76    0.45   -3.76    0.45   -7.25  -79.43
    8.45   -7.36  -96.28   -2.35    5.88   -2.35    5.88   -7.36  -96.28
    8.51   -7.87 -104.97   -1.66    5.11   -1.66    5.11   -7.87 -104.97
    8.57   -8.37 -108.56   -1.32    3.62   -1.32    3.62   -8.37 -108.56
    8.63   -8.71 -110.94   -1.12    2.90   -1.12    2.90   -8.71 -110.94
    8.70   -9.10 -112.98   -1.08    2.14   -1.08    2.14   -9.10 -112.98
    8.76   -9.25 -114.55   -1.01    1.54   -1.01    1.54   -9.25 -114.55
    8.82   -9.41 -114.93   -0.95    1.24   -0.95    1.24   -9.41 -114.93
    8.88   -9.53 -115.96   -0.95    0.86   -0.95    0.86   -9.53 -115.96
    8.94   -9.72 -116.88   -0.93    0.44   -0.93    0.44   -9.72 -116.88
    9.00   -9.76 -117.69   -0.91    0.31   -0.91    0.31   -9.76 -117.69
    9.07   -9.79 -117.73   -0.91   -0.11   -0.91   -0.11   -9.79 -117.73
    9.13   -9.92 -118.44   -0.91   -0.28   -0.91   -0.28   -9.92 -118.44
    9.19  -10.02 -119.71   -0.92   -0.26   -0.92   -0.26  -10.02 -119.71
    9.25   -9.97 -120.32   -0.89   -0.64   -0.89   -0.64   -9.97 -120.32
    9.31   -9.98 -120.52   -0.89   -0.63   -0.89   -0.63   -9.98 -120.52
    9.37   -9.97 -121.43   -0.92   -0.52   -0.92   -0.52   -9.97 -121.43
    9.44  -10.07 -122.47   -0.92   -0.89   -0.92   -0.89  -10.07 -122.47
    9.50   -9.95 -123.26   -0.90   -0.86   -0.90   -0.86   -9.95 -123.26
    9.56   -9.96 -123.57   -0.94   -1.08   -0.94   -1.08   -9.96 -123.57
    9.62  -10.01 -124.45   -0.90   -0.95   -0.90   -0.95  -10.01 -124.45
    9.68   -9.93 -125.59   -0.94   -0.99   -0.94   -0.99   -9.93 -125.59
    9.74   -9.87 -126.63   -0.93   -1.39   -0.93   -1.39   -9.87 -126.63
    9.81   -9.81 -126.71   -0.91   -1.38   -0.91   -1.38   -9.81 -126.71
    9.87   -9.78 -128.37   -0.95   -1.25   -0.95   -1.25   -9.78 -128.37
    9.93   -9.92 -128.99   -0.94   -1.38   -0.94   -1.38   -9.92 -128.99
    9.99   -9.75 -130.11   -0.94   -1.37   -0.94   -1.37   -9.75 -130.11
   10.05   -9.78 -130.41   -0.95   -1.63   -0.95   -1.63   -9.78 -130.41
   10.12   -9.77 -132.21   -0.95   -1.69   -0.95   -1.69   -9.77 -132.21
   10.18   -9.71 -132.28   -1.01   -1.63   -1.01   -1.63   -9.71 -132.28
   10.24   -9.64 -133.56   -0.99   -1.90   -0.99   -1.90   -9.64 -133.56
   10.30   -9.64 -133.91   -1.00   -1.64   -1.00   -1.64   -9.64 -133.91
   10.36   -9.55 -135.40   -1.01   -1.86   -1.01   -1.86   -9.55 -135.40
   10.42   -9.63 -135.76   -1.04   -1.85   -1.04   -1.85   -9.63 -135.76
   10.49   -9.44 -136.98   -1.03   -1.91   -1.03   -1.91   -9.44 -136.98
   10.55   -9.49 -137.29   -1.04   -2.15   -1.04   -2.15   -9.49 -137.29
   10.61   -9.48 -138.61   -1.03   -2.03   -1.03   -2.03   -9.48 -138.61
   10.67   -9.42 -138.57   -1.10   -1.79   -1.10   -1.79   -9.42 -138.57
   10.73   -9.41 -140.34   -1.06   -2.15   -1.06   -2.15   -9.41 -140.34
   10.79   -9.42 -139.80   -1.12   -1.97   -1.12   -1.97   -9.42 -139.80
   10.86   -9.23 -141.48   -1.09   -2.20   -1.09   -2.20   -9.23 -141.48
   10.92   -9.39 -141.65   -1.16   -2.01   -1.16   -2.01   -9.39 -141.65
   10.98   -9.27 -141.65   -1.12   -2.21   -1.12   -2.21   -9.27 -141.65
   11.04   -9.15 -142.64   -1.12   -2.04   -1.12   -2.04   -9.15 -142.64
   11.10   -9.23 -143.78   -1.12   -2.16   -1.12   -2.16   -9.23 -143.78
   11.17   -9.25 -143.24   -1.17   -2.22   -1.17   -2.22   -9.25 -143.24
   11.23   -9.12 -144.11   -1.19   -2.46   -1.19   -2.46   -9.12 -144.11
   11.29   -9.16 -144.36   -1.18   -2.37   -1.18   -2.37   -9.16 -144.36
   11.35   -9.17 -144.99   -1.19   -2.28   -1.19   -2.28   -9.17 -144.99
   11.41   -9.23 -145.12   -1.23   -2.33   -1.23   -2.33   -9.23 -145.12
   11.47   -9.13 -145.95   -1.22   -2.38   -1.22   -2.38   -9.13 -145.95
   11.54   -9.12 -146.11   -1.22   -2.46   -1.22   -2.46   -9.12 -146.11
   11.60   -9.21 -145.75   -1.27   -2.14   -1.27   -2.14   -9.21 -145.75
   11.66   -9.16 -146.44   -1.27   -2.21   -1.27   -2.21   -9.16 -146.44
   11.72   -9.13 -146.90   -1.26   -2.21   -1.26   -2.21   -9.13 -146.90
   11.78   -9.23 -146.82   -1.29   -2.20   -1.29   -2.20   -9.23 -146.82
   11.84   -9.10 -147.88   -1.28   -2.31   -1.28   -2.31   -9.10 -147.88
   11.91   -9.24 -147.85   -1.36   -1.89   -1.36   -1.89   -9.24 -147.85
   11.97   -9.15 -148.22   -1.31   -2.32   -1.31   -2.32   -9.15 -148.22
   12.03   -9.22 -148.59   -1.35   -1.84   -1.35   -1.84   -9.22 -148.59
   12.09   -9.33 -149.17   -1.36   -1.95   -1.36   -1.95   -9.33 -149.17
   12.15   -9.35 -149.14   -1.37   -1.87   -1.37   -1.87   -9.35 -149.14
   12.21   -9.26 -149.54   -1.36   -1.89   -1.36   -1.89   -9.26 -149.54
   12.28   -9.46 -149.88   -1.36   -1.80   -1.36   -1.80   -9.46 -149.88
   12.34   -9.40 -150.66   -1.39   -1.88   -1.39   -1.88   -9.40 -150.66
   12.40   -9.49 -149.98   -1.41   -1.46   -1.41   -1.46   -9.49 -149.98
