!Murata Part Number: GRM32EC72A106KE05
!These Parameters are Measured in Series Mode Connection
!Data Generated on Mar 30, 2021
!       o--ll--o
!Port1            Port2
!       o------o
!Operation Temp=25[degC], DC Bias Voltage=0[V]
!Freq. Start=100[Hz] Stop=6[GHz] 401[Steps]
# Hz S RI R 50
!Freq.(Hz) S11(Real) S11(Imag) S21(Real) S21(Imag) S12(Real) S12(Imag) S22(Real) S22(Imag)
100 0.7313329 -0.4393201 0.2686671 0.4393201 0.2686671 0.4393201 0.7313329 -0.4393201
105 0.7136098 -0.4481048 0.2863902 0.4481048 0.2863902 0.4481048 0.7136098 -0.4481048
109 0.6952039 -0.4563264 0.3047961 0.4563264 0.3047961 0.4563264 0.6952039 -0.4563264
114 0.6761519 -0.4639203 0.3238481 0.4639203 0.3238481 0.4639203 0.6761519 -0.4639203
120 0.6564983 -0.4708244 0.3435017 0.4708244 0.3435017 0.4708244 0.6564983 -0.4708244
125 0.6362954 -0.4769800 0.3637046 0.4769800 0.3637046 0.4769800 0.6362954 -0.4769800
131 0.6156028 -0.4823333 0.3843972 0.4823333 0.3843972 0.4823333 0.6156028 -0.4823333
137 0.5944869 -0.4868364 0.4055131 0.4868364 0.4055131 0.4868364 0.5944869 -0.4868364
143 0.5730201 -0.4904479 0.4269799 0.4904479 0.4269799 0.4904479 0.5730201 -0.4904479
150 0.5512799 -0.4931344 0.4487201 0.4931344 0.4487201 0.4931344 0.5512799 -0.4931344
156 0.5293480 -0.4948709 0.4706520 0.4948709 0.4706520 0.4948709 0.5293480 -0.4948709
164 0.5073085 -0.4956415 0.4926915 0.4956415 0.4926915 0.4956415 0.5073085 -0.4956415
171 0.4852475 -0.4954395 0.5147525 0.4954395 0.5147525 0.4954395 0.4852475 -0.4954395
179 0.4632508 -0.4942680 0.5367492 0.4942680 0.5367492 0.4942680 0.4632508 -0.4942680
187 0.4414035 -0.4921393 0.5585965 0.4921393 0.5585965 0.4921393 0.4414035 -0.4921393
196 0.4197878 -0.4890748 0.5802122 0.4890748 0.5802122 0.4890748 0.4197878 -0.4890748
205 0.3984824 -0.4851046 0.6015176 0.4851046 0.6015176 0.4851046 0.3984824 -0.4851046
214 0.3775614 -0.4802664 0.6224386 0.4802664 0.6224386 0.4802664 0.3775614 -0.4802664
224 0.3570929 -0.4746052 0.6429071 0.4746052 0.6429071 0.4746052 0.3570929 -0.4746052
234 0.3371387 -0.4681718 0.6628613 0.4681718 0.6628613 0.4681718 0.3371387 -0.4681718
245 0.3177535 -0.4610221 0.6822465 0.4610221 0.6822465 0.4610221 0.3177535 -0.4610221
256 0.2989848 -0.4532156 0.7010152 0.4532156 0.7010152 0.4532156 0.2989848 -0.4532156
268 0.2808721 -0.4448147 0.7191279 0.4448147 0.7191279 0.4448147 0.2808721 -0.4448147
280 0.2634476 -0.4358837 0.7365524 0.4358837 0.7365524 0.4358837 0.2634476 -0.4358837
293 0.2467358 -0.4264871 0.7532642 0.4264871 0.7532642 0.4264871 0.2467358 -0.4264871
306 0.2307542 -0.4166897 0.7692458 0.4166897 0.7692458 0.4166897 0.2307542 -0.4166897
320 0.2155133 -0.4065546 0.7844867 0.4065546 0.7844867 0.4065546 0.2155133 -0.4065546
335 0.2010172 -0.3961436 0.7989828 0.3961436 0.7989828 0.3961436 0.2010172 -0.3961436
350 0.1872645 -0.3855158 0.8127355 0.3855158 0.8127355 0.3855158 0.1872645 -0.3855158
366 0.1742482 -0.3747274 0.8257518 0.3747274 0.8257518 0.3747274 0.1742482 -0.3747274
383 0.1619571 -0.3638313 0.8380429 0.3638313 0.8380429 0.3638313 0.1619571 -0.3638313
401 0.1503758 -0.3528767 0.8496242 0.3528767 0.8496242 0.3528767 0.1503758 -0.3528767
419 0.1394855 -0.3419093 0.8605145 0.3419093 0.8605145 0.3419093 0.1394855 -0.3419093
438 0.1292647 -0.3309707 0.8707353 0.3309707 0.8707353 0.3309707 0.1292647 -0.3309707
458 0.1196896 -0.3200984 0.8803104 0.3200984 0.8803104 0.3200984 0.1196896 -0.3200984
479 0.1107348 -0.3093265 0.8892652 0.3093265 0.8892652 0.3093265 0.1107348 -0.3093265
501 0.1023735 -0.2986850 0.8976265 0.2986850 0.8976265 0.2986850 0.1023735 -0.2986850
524 0.0945780 -0.2882002 0.9054220 0.2882002 0.9054220 0.2882002 0.0945780 -0.2882002
548 0.0873205 -0.2778951 0.9126795 0.2778951 0.9126795 0.2778951 0.0873205 -0.2778951
573 0.0805725 -0.2677895 0.9194275 0.2677895 0.9194275 0.2677895 0.0805725 -0.2677895
600 0.0743060 -0.2578999 0.9256940 0.2578999 0.9256940 0.2578999 0.0743060 -0.2578999
627 0.0684935 -0.2482400 0.9315065 0.2482400 0.9315065 0.2482400 0.0684935 -0.2482400
656 0.0631076 -0.2388210 0.9368924 0.2388210 0.9368924 0.2388210 0.0631076 -0.2388210
686 0.0581220 -0.2296517 0.9418780 0.2296517 0.9418780 0.2296517 0.0581220 -0.2296517
717 0.0535113 -0.2207386 0.9464887 0.2207386 0.9464887 0.2207386 0.0535113 -0.2207386
750 0.0492508 -0.2120863 0.9507492 0.2120863 0.9507492 0.2120863 0.0492508 -0.2120863
784 0.0453170 -0.2036977 0.9546830 0.2036977 0.9546830 0.2036977 0.0453170 -0.2036977
820 0.0416875 -0.1955740 0.9583125 0.1955740 0.9583125 0.1955740 0.0416875 -0.1955740
858 0.0383410 -0.1877154 0.9616590 0.1877154 0.9616590 0.1877154 0.0383410 -0.1877154
897 0.0352572 -0.1801203 0.9647428 0.1801203 0.9647428 0.1801203 0.0352572 -0.1801203
938 0.0324170 -0.1727867 0.9675830 0.1727867 0.9675830 0.1727867 0.0324170 -0.1727867
981 0.0298026 -0.1657112 0.9701974 0.1657112 0.9701974 0.1657112 0.0298026 -0.1657112
1026 0.0273970 -0.1588900 0.9726030 0.1588900 0.9726030 0.1588900 0.0273970 -0.1588900
1073 0.0251845 -0.1523184 0.9748155 0.1523184 0.9748155 0.1523184 0.0251845 -0.1523184
1122 0.0231502 -0.1459913 0.9768498 0.1459913 0.9768498 0.1459913 0.0231502 -0.1459913
1174 0.0212803 -0.1399031 0.9787197 0.1399031 0.9787197 0.1399031 0.0212803 -0.1399031
1227 0.0195621 -0.1340480 0.9804379 0.1340480 0.9804379 0.1340480 0.0195621 -0.1340480
1283 0.0179835 -0.1284197 0.9820165 0.1284197 0.9820165 0.1284197 0.0179835 -0.1284197
1342 0.0165335 -0.1230118 0.9834665 0.1230118 0.9834665 0.1230118 0.0165335 -0.1230118
1404 0.0152017 -0.1178179 0.9847983 0.1178179 0.9847983 0.1178179 0.0152017 -0.1178179
1468 0.0139787 -0.1128312 0.9860213 0.1128312 0.9860213 0.1128312 0.0139787 -0.1128312
1535 0.0128556 -0.1080451 0.9871444 0.1080451 0.9871444 0.1080451 0.0128556 -0.1080451
1606 0.0118243 -0.1034530 0.9881757 0.1034530 0.9881757 0.1034530 0.0118243 -0.1034530
1679 0.0108772 -0.0990482 0.9891228 0.0990482 0.9891228 0.0990482 0.0108772 -0.0990482
1756 0.0100075 -0.0948242 0.9899925 0.0948242 0.9899925 0.0948242 0.0100075 -0.0948242
1836 0.0092087 -0.0907743 0.9907913 0.0907743 0.9907913 0.0907743 0.0092087 -0.0907743
1920 0.0084751 -0.0868922 0.9915249 0.0868922 0.9915249 0.0868922 0.0084751 -0.0868922
2008 0.0078011 -0.0831716 0.9921989 0.0831716 0.9921989 0.0831716 0.0078011 -0.0831716
2100 0.0071818 -0.0796065 0.9928182 0.0796065 0.9928182 0.0796065 0.0071818 -0.0796065
2196 0.0066128 -0.0761906 0.9933872 0.0761906 0.9933872 0.0761906 0.0066128 -0.0761906
2297 0.0060898 -0.0729184 0.9939102 0.0729184 0.9939102 0.0729184 0.0060898 -0.0729184
2402 0.0056090 -0.0697839 0.9943910 0.0697839 0.9943910 0.0697839 0.0056090 -0.0697839
2512 0.0051669 -0.0667818 0.9948331 0.0667818 0.9948331 0.0667818 0.0051669 -0.0667818
2627 0.0047603 -0.0639068 0.9952397 0.0639068 0.9952397 0.0639068 0.0047603 -0.0639068
2748 0.0043864 -0.0611535 0.9956136 0.0611535 0.9956136 0.0611535 0.0043864 -0.0611535
2873 0.0040423 -0.0585172 0.9959577 0.0585172 0.9959577 0.0585172 0.0040423 -0.0585172
3005 0.0037258 -0.0559929 0.9962742 0.0559929 0.9962742 0.0559929 0.0037258 -0.0559929
3143 0.0034344 -0.0535760 0.9965656 0.0535760 0.9965656 0.0535760 0.0034344 -0.0535760
3287 0.0031663 -0.0512621 0.9968337 0.0512621 0.9968337 0.0512621 0.0031663 -0.0512621
3437 0.0029195 -0.0490469 0.9970805 0.0490469 0.9970805 0.0490469 0.0029195 -0.0490469
3594 0.0026923 -0.0469263 0.9973077 0.0469263 0.9973077 0.0469263 0.0026923 -0.0469263
3759 0.0024831 -0.0448963 0.9975169 0.0448963 0.9975169 0.0448963 0.0024831 -0.0448963
3931 0.0022906 -0.0429531 0.9977094 0.0429531 0.9977094 0.0429531 0.0022906 -0.0429531
4111 0.0021133 -0.0410931 0.9978867 0.0410931 0.9978867 0.0410931 0.0021133 -0.0410931
4299 0.0019502 -0.0393128 0.9980498 0.0393128 0.9980498 0.0393128 0.0019502 -0.0393128
4496 0.0018000 -0.0376088 0.9982000 0.0376088 0.9982000 0.0376088 0.0018000 -0.0376088
4702 0.0016618 -0.0359779 0.9983382 0.0359779 0.9983382 0.0359779 0.0016618 -0.0359779
4918 0.0015346 -0.0344171 0.9984654 0.0344171 0.9984654 0.0344171 0.0015346 -0.0344171
5143 0.0014175 -0.0329234 0.9985825 0.0329234 0.9985825 0.0329234 0.0014175 -0.0329234
5378 0.0013098 -0.0314939 0.9986902 0.0314939 0.9986902 0.0314939 0.0013098 -0.0314939
5625 0.0012107 -0.0301261 0.9987893 0.0301261 0.9987893 0.0301261 0.0012107 -0.0301261
5882 0.0011196 -0.0288171 0.9988804 0.0288171 0.9988804 0.0288171 0.0011196 -0.0288171
6151 0.0010358 -0.0275646 0.9989642 0.0275646 0.9989642 0.0275646 0.0010358 -0.0275646
6433 0.0009588 -0.0263663 0.9990412 0.0263663 0.9990412 0.0263663 0.0009588 -0.0263663
6728 0.0008879 -0.0252196 0.9991121 0.0252196 0.9991121 0.0252196 0.0008879 -0.0252196
7036 0.0008228 -0.0241226 0.9991772 0.0241226 0.9991772 0.0241226 0.0008228 -0.0241226
7358 0.0007630 -0.0230731 0.9992370 0.0230731 0.9992370 0.0230731 0.0007630 -0.0230731
7695 0.0007079 -0.0220690 0.9992921 0.0220690 0.9992921 0.0220690 0.0007079 -0.0220690
8047 0.0006573 -0.0211085 0.9993427 0.0211085 0.9993427 0.0211085 0.0006573 -0.0211085
8416 0.0006108 -0.0201896 0.9993892 0.0201896 0.9993892 0.0201896 0.0006108 -0.0201896
8801 0.0005681 -0.0193107 0.9994319 0.0193107 0.9994319 0.0193107 0.0005681 -0.0193107
9204 0.0005288 -0.0184699 0.9994712 0.0184699 0.9994712 0.0184699 0.0005288 -0.0184699
9626 0.0004926 -0.0176657 0.9995074 0.0176657 0.9995074 0.0176657 0.0004926 -0.0176657
10066 0.0004594 -0.0168964 0.9995406 0.0168964 0.9995406 0.0168964 0.0004594 -0.0168964
10527 0.0004288 -0.0161607 0.9995712 0.0161607 0.9995712 0.0161607 0.0004288 -0.0161607
11009 0.0004006 -0.0154570 0.9995994 0.0154570 0.9995994 0.0154570 0.0004006 -0.0154570
11514 0.0003747 -0.0147840 0.9996253 0.0147840 0.9996253 0.0147840 0.0003747 -0.0147840
12041 0.0003508 -0.0141403 0.9996492 0.0141403 0.9996492 0.0141403 0.0003508 -0.0141403
12592 0.0003288 -0.0135246 0.9996712 0.0135246 0.9996712 0.0135246 0.0003288 -0.0135246
13169 0.0003084 -0.0129359 0.9996916 0.0129359 0.9996916 0.0129359 0.0003084 -0.0129359
13772 0.0002896 -0.0123728 0.9997104 0.0123728 0.9997104 0.0123728 0.0002896 -0.0123728
14402 0.0002723 -0.0118343 0.9997277 0.0118343 0.9997277 0.0118343 0.0002723 -0.0118343
15062 0.0002562 -0.0113193 0.9997438 0.0113193 0.9997438 0.0113193 0.0002562 -0.0113193
15752 0.0002413 -0.0108268 0.9997587 0.0108268 0.9997587 0.0108268 0.0002413 -0.0108268
16473 0.0002274 -0.0103558 0.9997726 0.0103558 0.9997726 0.0103558 0.0002274 -0.0103558
17227 0.0002146 -0.0099054 0.9997854 0.0099054 0.9997854 0.0099054 0.0002146 -0.0099054
18016 0.0002026 -0.0094746 0.9997974 0.0094746 0.9997974 0.0094746 0.0002026 -0.0094746
18841 0.0001915 -0.0090626 0.9998085 0.0090626 0.9998085 0.0090626 0.0001915 -0.0090626
19704 0.0001811 -0.0086686 0.9998189 0.0086686 0.9998189 0.0086686 0.0001811 -0.0086686
20606 0.0001714 -0.0082917 0.9998286 0.0082917 0.9998286 0.0082917 0.0001714 -0.0082917
21550 0.0001623 -0.0079313 0.9998377 0.0079313 0.9998377 0.0079313 0.0001623 -0.0079313
22537 0.0001538 -0.0075866 0.9998462 0.0075866 0.9998462 0.0075866 0.0001538 -0.0075866
23569 0.0001458 -0.0072569 0.9998542 0.0072569 0.9998542 0.0072569 0.0001458 -0.0072569
24648 0.0001383 -0.0069416 0.9998617 0.0069416 0.9998617 0.0069416 0.0001383 -0.0069416
25777 0.0001312 -0.0066400 0.9998688 0.0066400 0.9998688 0.0066400 0.0001312 -0.0066400
26957 0.0001245 -0.0063515 0.9998755 0.0063515 0.9998755 0.0063515 0.0001245 -0.0063515
28191 0.0001183 -0.0060755 0.9998817 0.0060755 0.9998817 0.0060755 0.0001183 -0.0060755
29482 0.0001124 -0.0058115 0.9998876 0.0058115 0.9998876 0.0058115 0.0001124 -0.0058115
30832 0.0001068 -0.0055590 0.9998932 0.0055590 0.9998932 0.0055590 0.0001068 -0.0055590
32244 0.0001015 -0.0053174 0.9998985 0.0053174 0.9998985 0.0053174 0.0001015 -0.0053174
33721 0.0000965 -0.0050863 0.9999035 0.0050863 0.9999035 0.0050863 0.0000965 -0.0050863
35265 0.0000918 -0.0048652 0.9999082 0.0048652 0.9999082 0.0048652 0.0000918 -0.0048652
36880 0.0000874 -0.0046537 0.9999126 0.0046537 0.9999126 0.0046537 0.0000874 -0.0046537
38569 0.0000832 -0.0044513 0.9999168 0.0044513 0.9999168 0.0044513 0.0000832 -0.0044513
40335 0.0000793 -0.0042578 0.9999207 0.0042578 0.9999207 0.0042578 0.0000793 -0.0042578
42182 0.0000756 -0.0040725 0.9999244 0.0040725 0.9999244 0.0040725 0.0000756 -0.0040725
44113 0.0000721 -0.0038953 0.9999279 0.0038953 0.9999279 0.0038953 0.0000721 -0.0038953
46134 0.0000688 -0.0037258 0.9999312 0.0037258 0.9999312 0.0037258 0.0000688 -0.0037258
48246 0.0000657 -0.0035636 0.9999343 0.0035636 0.9999343 0.0035636 0.0000657 -0.0035636
50455 0.0000628 -0.0034084 0.9999372 0.0034084 0.9999372 0.0034084 0.0000628 -0.0034084
52766 0.0000600 -0.0032599 0.9999400 0.0032599 0.9999400 0.0032599 0.0000600 -0.0032599
55182 0.0000575 -0.0031179 0.9999425 0.0031179 0.9999425 0.0031179 0.0000575 -0.0031179
57709 0.0000551 -0.0029820 0.9999449 0.0029820 0.9999449 0.0029820 0.0000551 -0.0029820
60352 0.0000528 -0.0028520 0.9999472 0.0028520 0.9999472 0.0028520 0.0000528 -0.0028520
63115 0.0000507 -0.0027276 0.9999493 0.0027276 0.9999493 0.0027276 0.0000507 -0.0027276
66005 0.0000487 -0.0026086 0.9999513 0.0026086 0.9999513 0.0026086 0.0000487 -0.0026086
69028 0.0000468 -0.0024947 0.9999532 0.0024947 0.9999532 0.0024947 0.0000468 -0.0024947
72189 0.0000451 -0.0023858 0.9999549 0.0023858 0.9999549 0.0023858 0.0000451 -0.0023858
75495 0.0000434 -0.0022816 0.9999566 0.0022816 0.9999566 0.0022816 0.0000434 -0.0022816
78952 0.0000419 -0.0021819 0.9999581 0.0021819 0.9999581 0.0021819 0.0000419 -0.0021819
82567 0.0000405 -0.0020865 0.9999595 0.0020865 0.9999595 0.0020865 0.0000405 -0.0020865
86348 0.0000391 -0.0019953 0.9999609 0.0019953 0.9999609 0.0019953 0.0000391 -0.0019953
90302 0.0000378 -0.0019080 0.9999622 0.0019080 0.9999622 0.0019080 0.0000378 -0.0019080
94437 0.0000366 -0.0018244 0.9999634 0.0018244 0.9999634 0.0018244 0.0000366 -0.0018244
98762 0.0000355 -0.0017445 0.9999645 0.0017445 0.9999645 0.0017445 0.0000355 -0.0017445
103284 0.0000345 -0.0016681 0.9999655 0.0016681 0.9999655 0.0016681 0.0000345 -0.0016681
108014 0.0000335 -0.0015949 0.9999665 0.0015949 0.9999665 0.0015949 0.0000335 -0.0015949
112960 0.0000325 -0.0015249 0.9999675 0.0015249 0.9999675 0.0015249 0.0000325 -0.0015249
118133 0.0000316 -0.0014580 0.9999684 0.0014580 0.9999684 0.0014580 0.0000316 -0.0014580
123542 0.0000308 -0.0013939 0.9999692 0.0013939 0.9999692 0.0013939 0.0000308 -0.0013939
129199 0.0000300 -0.0013326 0.9999700 0.0013326 0.9999700 0.0013326 0.0000300 -0.0013326
135116 0.0000292 -0.0012739 0.9999708 0.0012739 0.9999708 0.0012739 0.0000292 -0.0012739
141303 0.0000285 -0.0012177 0.9999715 0.0012177 0.9999715 0.0012177 0.0000285 -0.0012177
147774 0.0000278 -0.0011640 0.9999722 0.0011640 0.9999722 0.0011640 0.0000278 -0.0011640
154540 0.0000271 -0.0011125 0.9999729 0.0011125 0.9999729 0.0011125 0.0000271 -0.0011125
161617 0.0000265 -0.0010633 0.9999735 0.0010633 0.9999735 0.0010633 0.0000265 -0.0010633
169018 0.0000259 -0.0010161 0.9999741 0.0010161 0.9999741 0.0010161 0.0000259 -0.0010161
176758 0.0000253 -0.0009710 0.9999747 0.0009710 0.9999747 0.0009710 0.0000253 -0.0009710
184852 0.0000248 -0.0009278 0.9999752 0.0009278 0.9999752 0.0009278 0.0000248 -0.0009278
193316 0.0000242 -0.0008864 0.9999758 0.0008864 0.9999758 0.0008864 0.0000242 -0.0008864
202169 0.0000237 -0.0008467 0.9999763 0.0008467 0.9999763 0.0008467 0.0000237 -0.0008467
211427 0.0000233 -0.0008087 0.9999767 0.0008087 0.9999767 0.0008087 0.0000233 -0.0008087
221108 0.0000228 -0.0007724 0.9999772 0.0007724 0.9999772 0.0007724 0.0000228 -0.0007724
231233 0.0000224 -0.0007375 0.9999776 0.0007375 0.9999776 0.0007375 0.0000224 -0.0007375
241822 0.0000220 -0.0007041 0.9999780 0.0007041 0.9999780 0.0007041 0.0000220 -0.0007041
252896 0.0000216 -0.0006721 0.9999784 0.0006721 0.9999784 0.0006721 0.0000216 -0.0006721
264476 0.0000213 -0.0006414 0.9999787 0.0006414 0.9999787 0.0006414 0.0000213 -0.0006414
276587 0.0000209 -0.0006120 0.9999791 0.0006120 0.9999791 0.0006120 0.0000209 -0.0006120
289253 0.0000206 -0.0005838 0.9999794 0.0005838 0.9999794 0.0005838 0.0000206 -0.0005838
302498 0.0000203 -0.0005567 0.9999797 0.0005567 0.9999797 0.0005567 0.0000203 -0.0005567
316350 0.0000201 -0.0005307 0.9999799 0.0005307 0.9999799 0.0005307 0.0000201 -0.0005307
330837 0.0000198 -0.0005058 0.9999802 0.0005058 0.9999802 0.0005058 0.0000198 -0.0005058
345986 0.0000196 -0.0004819 0.9999804 0.0004819 0.9999804 0.0004819 0.0000196 -0.0004819
361830 0.0000194 -0.0004589 0.9999806 0.0004589 0.9999806 0.0004589 0.0000194 -0.0004589
378399 0.0000192 -0.0004369 0.9999808 0.0004369 0.9999808 0.0004369 0.0000192 -0.0004369
395726 0.0000190 -0.0004157 0.9999810 0.0004157 0.9999810 0.0004157 0.0000190 -0.0004157
413847 0.0000189 -0.0003953 0.9999811 0.0003953 0.9999811 0.0003953 0.0000189 -0.0003953
432798 0.0000187 -0.0003757 0.9999813 0.0003757 0.9999813 0.0003757 0.0000187 -0.0003757
452617 0.0000186 -0.0003568 0.9999814 0.0003568 0.9999814 0.0003568 0.0000186 -0.0003568
473344 0.0000185 -0.0003387 0.9999815 0.0003387 0.9999815 0.0003387 0.0000185 -0.0003387
495019 0.0000184 -0.0003212 0.9999816 0.0003212 0.9999816 0.0003212 0.0000184 -0.0003212
517687 0.0000184 -0.0003044 0.9999816 0.0003044 0.9999816 0.0003044 0.0000184 -0.0003044
541393 0.0000184 -0.0002881 0.9999816 0.0002881 0.9999816 0.0002881 0.0000184 -0.0002881
566185 0.0000183 -0.0002724 0.9999817 0.0002724 0.9999817 0.0002724 0.0000183 -0.0002724
592111 0.0000183 -0.0002573 0.9999817 0.0002573 0.9999817 0.0002573 0.0000183 -0.0002573
619225 0.0000184 -0.0002427 0.9999816 0.0002427 0.9999816 0.0002427 0.0000184 -0.0002427
647581 0.0000184 -0.0002285 0.9999816 0.0002285 0.9999816 0.0002285 0.0000184 -0.0002285
677235 0.0000185 -0.0002148 0.9999815 0.0002148 0.9999815 0.0002148 0.0000185 -0.0002148
708247 0.0000186 -0.0002016 0.9999814 0.0002016 0.9999814 0.0002016 0.0000186 -0.0002016
740679 0.0000187 -0.0001887 0.9999813 0.0001887 0.9999813 0.0001887 0.0000187 -0.0001887
774597 0.0000188 -0.0001762 0.9999812 0.0001762 0.9999812 0.0001762 0.0000188 -0.0001762
810067 0.0000190 -0.0001640 0.9999810 0.0001640 0.9999810 0.0001640 0.0000190 -0.0001640
847162 0.0000192 -0.0001521 0.9999808 0.0001521 0.9999808 0.0001521 0.0000192 -0.0001521
885955 0.0000194 -0.0001406 0.9999806 0.0001406 0.9999806 0.0001406 0.0000194 -0.0001406
926525 0.0000197 -0.0001293 0.9999803 0.0001293 0.9999803 0.0001293 0.0000197 -0.0001293
968953 0.0000199 -0.0001182 0.9999801 0.0001182 0.9999801 0.0001182 0.0000199 -0.0001182
1013323 0.0000203 -0.0001074 0.9999797 0.0001074 0.9999797 0.0001074 0.0000203 -0.0001074
1059725 0.0000207 -0.0000967 0.9999793 0.0000967 0.9999793 0.0000967 0.0000207 -0.0000967
1108252 0.0000211 -0.0000863 0.9999789 0.0000863 0.9999789 0.0000863 0.0000211 -0.0000863
1159002 0.0000216 -0.0000759 0.9999784 0.0000759 0.9999784 0.0000759 0.0000216 -0.0000759
1212075 0.0000221 -0.0000657 0.9999779 0.0000657 0.9999779 0.0000657 0.0000221 -0.0000657
1267578 0.0000227 -0.0000556 0.9999773 0.0000556 0.9999773 0.0000556 0.0000227 -0.0000556
1325623 0.0000234 -0.0000455 0.9999766 0.0000455 0.9999766 0.0000455 0.0000234 -0.0000455
1386327 0.0000241 -0.0000354 0.9999759 0.0000354 0.9999759 0.0000354 0.0000241 -0.0000354
1449809 0.0000250 -0.0000254 0.9999750 0.0000254 0.9999750 0.0000254 0.0000250 -0.0000254
1516199 0.0000260 -0.0000153 0.9999740 0.0000153 0.9999740 0.0000153 0.0000260 -0.0000153
1585629 0.0000271 -0.0000051 0.9999729 0.0000051 0.9999729 0.0000051 0.0000271 -0.0000051
1658239 0.0000284 0.0000052 0.9999716 -0.0000052 0.9999716 -0.0000052 0.0000284 0.0000052
1734173 0.0000299 0.0000157 0.9999701 -0.0000157 0.9999701 -0.0000157 0.0000299 0.0000157
1813585 0.0000316 0.0000265 0.9999684 -0.0000265 0.9999684 -0.0000265 0.0000316 0.0000265
1896632 0.0000337 0.0000376 0.9999663 -0.0000376 0.9999663 -0.0000376 0.0000337 0.0000376
1983483 0.0000361 0.0000491 0.9999639 -0.0000491 0.9999639 -0.0000491 0.0000361 0.0000491
2074311 0.0000392 0.0000612 0.9999608 -0.0000612 0.9999608 -0.0000612 0.0000392 0.0000612
