!Murata Part Number: GRM32ER7YA106KA12
!These Parameters are Measured in Series Mode Connection
!Data Generated on Mar 30, 2021
!       o--ll--o
!Port1            Port2
!       o------o
!Operation Temp=25[degC], DC Bias Voltage=0[V]
!Freq. Start=100[Hz] Stop=6[GHz] 401[Steps]
# Hz S RI R 50
!Freq.(Hz) S11(Real) S11(Imag) S21(Real) S21(Imag) S12(Real) S12(Imag) S22(Real) S22(Imag)
100 0.7409683 -0.4364143 0.2590317 0.4364143 0.2590317 0.4364143 0.7409683 -0.4364143
105 0.7235099 -0.4455585 0.2764901 0.4455585 0.2764901 0.4455585 0.7235099 -0.4455585
109 0.7053429 -0.4541691 0.2946571 0.4541691 0.2946571 0.4541691 0.7053429 -0.4541691
114 0.6865000 -0.4621795 0.3135000 0.4621795 0.3135000 0.4621795 0.6865000 -0.4621795
120 0.6670219 -0.4695248 0.3329781 0.4695248 0.3329781 0.4695248 0.6670219 -0.4695248
125 0.6469572 -0.4761434 0.3530428 0.4761434 0.3530428 0.4761434 0.6469572 -0.4761434
131 0.6263625 -0.4819773 0.3736375 0.4819773 0.3736375 0.4819773 0.6263625 -0.4819773
137 0.6053014 -0.4869743 0.3946986 0.4869743 0.3946986 0.4869743 0.6053014 -0.4869743
143 0.5838444 -0.4910882 0.4161556 0.4910882 0.4161556 0.4910882 0.5838444 -0.4910882
150 0.5620676 -0.4942804 0.4379324 0.4942804 0.4379324 0.4942804 0.5620676 -0.4942804
156 0.5400521 -0.4965205 0.4599479 0.4965205 0.4599479 0.4965205 0.5400521 -0.4965205
164 0.5178823 -0.4977870 0.4821177 0.4977870 0.4821177 0.4977870 0.5178823 -0.4977870
171 0.4956454 -0.4980678 0.5043546 0.4980678 0.5043546 0.4980678 0.4956454 -0.4980678
179 0.4734291 -0.4973606 0.5265709 0.4973606 0.5265709 0.4973606 0.4734291 -0.4973606
187 0.4513211 -0.4956730 0.5486789 0.4956730 0.5486789 0.4956730 0.4513211 -0.4956730
196 0.4294070 -0.4930217 0.5705930 0.4930217 0.5705930 0.4930217 0.4294070 -0.4930217
205 0.4077695 -0.4894331 0.5922305 0.4894331 0.5922305 0.4894331 0.4077695 -0.4894331
214 0.3864871 -0.4849417 0.6135129 0.4849417 0.6135129 0.4849417 0.3864871 -0.4849417
224 0.3656326 -0.4795901 0.6343674 0.4795901 0.6343674 0.4795901 0.3656326 -0.4795901
234 0.3452729 -0.4734272 0.6547271 0.4734272 0.6547271 0.4734272 0.3452729 -0.4734272
245 0.3254676 -0.4665080 0.6745324 0.4665080 0.6745324 0.4665080 0.3254676 -0.4665080
256 0.3062692 -0.4588920 0.6937308 0.4588920 0.6937308 0.4588920 0.3062692 -0.4588920
268 0.2877221 -0.4506421 0.7122779 0.4506421 0.7122779 0.4506421 0.2877221 -0.4506421
280 0.2698628 -0.4418235 0.7301372 0.4418235 0.7301372 0.4418235 0.2698628 -0.4418235
293 0.2527201 -0.4325027 0.7472799 0.4325027 0.7472799 0.4325027 0.2527201 -0.4325027
306 0.2363150 -0.4227462 0.7636850 0.4227462 0.7636850 0.4227462 0.2363150 -0.4227462
320 0.2206612 -0.4126201 0.7793388 0.4126201 0.7793388 0.4126201 0.2206612 -0.4126201
335 0.2057656 -0.4021884 0.7942344 0.4021884 0.7942344 0.4021884 0.2057656 -0.4021884
350 0.1916289 -0.3915134 0.8083711 0.3915134 0.8083711 0.3915134 0.1916289 -0.3915134
366 0.1782459 -0.3806542 0.8217541 0.3806542 0.8217541 0.3806542 0.1782459 -0.3806542
383 0.1656065 -0.3696666 0.8343935 0.3696666 0.8343935 0.3696666 0.1656065 -0.3696666
401 0.1536962 -0.3586028 0.8463038 0.3586028 0.8463038 0.3586028 0.1536962 -0.3586028
419 0.1424966 -0.3475112 0.8575034 0.3475112 0.8575034 0.3475112 0.1424966 -0.3475112
438 0.1319863 -0.3364359 0.8680137 0.3364359 0.8680137 0.3364359 0.1319863 -0.3364359
458 0.1221414 -0.3254171 0.8778586 0.3254171 0.8778586 0.3254171 0.1221414 -0.3254171
479 0.1129360 -0.3144909 0.8870640 0.3144909 0.8870640 0.3144909 0.1129360 -0.3144909
501 0.1043427 -0.3036892 0.8956573 0.3036892 0.8956573 0.3036892 0.1043427 -0.3036892
524 0.0963332 -0.2930404 0.9036668 0.2930404 0.9036668 0.2930404 0.0963332 -0.2930404
548 0.0888786 -0.2825689 0.9111214 0.2825689 0.9111214 0.2825689 0.0888786 -0.2825689
573 0.0819496 -0.2722958 0.9180504 0.2722958 0.9180504 0.2722958 0.0819496 -0.2722958
600 0.0755174 -0.2622388 0.9244826 0.2622388 0.9244826 0.2622388 0.0755174 -0.2622388
627 0.0695533 -0.2524126 0.9304467 0.2524126 0.9304467 0.2524126 0.0695533 -0.2524126
656 0.0640291 -0.2428292 0.9359709 0.2428292 0.9359709 0.2428292 0.0640291 -0.2428292
686 0.0589175 -0.2334981 0.9410825 0.2334981 0.9410825 0.2334981 0.0589175 -0.2334981
717 0.0541920 -0.2244263 0.9458080 0.2244263 0.9458080 0.2244263 0.0541920 -0.2244263
750 0.0498273 -0.2156188 0.9501727 0.2156188 0.9501727 0.2156188 0.0498273 -0.2156188
784 0.0457990 -0.2070789 0.9542010 0.2070789 0.9542010 0.2070789 0.0457990 -0.2070789
820 0.0420838 -0.1988082 0.9579162 0.1988082 0.9579162 0.1988082 0.0420838 -0.1988082
858 0.0386598 -0.1908066 0.9613402 0.1908066 0.9613402 0.1908066 0.0386598 -0.1908066
897 0.0355059 -0.1830731 0.9644941 0.1830731 0.9644941 0.1830731 0.0355059 -0.1830731
938 0.0326026 -0.1756055 0.9673974 0.1756055 0.9673974 0.1756055 0.0326026 -0.1756055
981 0.0299313 -0.1684005 0.9700687 0.1684005 0.9700687 0.1684005 0.0299313 -0.1684005
1026 0.0274745 -0.1614543 0.9725255 0.1614543 0.9725255 0.1614543 0.0274745 -0.1614543
1073 0.0252161 -0.1547621 0.9747839 0.1547621 0.9747839 0.1547621 0.0252161 -0.1547621
1122 0.0231408 -0.1483188 0.9768592 0.1483188 0.9768592 0.1483188 0.0231408 -0.1483188
1174 0.0212344 -0.1421187 0.9787656 0.1421187 0.9787656 0.1421187 0.0212344 -0.1421187
1227 0.0194836 -0.1361559 0.9805164 0.1361559 0.9805164 0.1361559 0.0194836 -0.1361559
1283 0.0178763 -0.1304240 0.9821237 0.1304240 0.9821237 0.1304240 0.0178763 -0.1304240
1342 0.0164009 -0.1249166 0.9835991 0.1249166 0.9835991 0.1249166 0.0164009 -0.1249166
1404 0.0150470 -0.1196271 0.9849530 0.1196271 0.9849530 0.1196271 0.0150470 -0.1196271
1468 0.0138047 -0.1145486 0.9861953 0.1145486 0.9861953 0.1145486 0.0138047 -0.1145486
1535 0.0126651 -0.1096746 0.9873349 0.1096746 0.9873349 0.1096746 0.0126651 -0.1096746
1606 0.0116196 -0.1049981 0.9883804 0.1049981 0.9883804 0.1049981 0.0116196 -0.1049981
1679 0.0106608 -0.1005124 0.9893392 0.1005124 0.9893392 0.1005124 0.0106608 -0.1005124
1756 0.0097813 -0.0962109 0.9902187 0.0962109 0.9902187 0.0962109 0.0097813 -0.0962109
1836 0.0089748 -0.0920869 0.9910252 0.0920869 0.9910252 0.0920869 0.0089748 -0.0920869
1920 0.0082351 -0.0881340 0.9917649 0.0881340 0.9917649 0.0881340 0.0082351 -0.0881340
2008 0.0075568 -0.0843458 0.9924432 0.0843458 0.9924432 0.0843458 0.0075568 -0.0843458
2100 0.0069347 -0.0807160 0.9930653 0.0807160 0.9930653 0.0807160 0.0069347 -0.0807160
2196 0.0063641 -0.0772386 0.9936359 0.0772386 0.9936359 0.0772386 0.0063641 -0.0772386
2297 0.0058408 -0.0739076 0.9941592 0.0739076 0.9941592 0.0739076 0.0058408 -0.0739076
2402 0.0053608 -0.0707173 0.9946392 0.0707173 0.9946392 0.0707173 0.0053608 -0.0707173
2512 0.0049205 -0.0676621 0.9950795 0.0676621 0.9950795 0.0676621 0.0049205 -0.0676621
2627 0.0045167 -0.0647365 0.9954833 0.0647365 0.9954833 0.0647365 0.0045167 -0.0647365
2748 0.0041462 -0.0619354 0.9958538 0.0619354 0.9958538 0.0619354 0.0041462 -0.0619354
2873 0.0038063 -0.0592537 0.9961937 0.0592537 0.9961937 0.0592537 0.0038063 -0.0592537
3005 0.0034945 -0.0566864 0.9965055 0.0566864 0.9965055 0.0566864 0.0034945 -0.0566864
3143 0.0032084 -0.0542289 0.9967916 0.0542289 0.9967916 0.0542289 0.0032084 -0.0542289
3287 0.0029459 -0.0518767 0.9970541 0.0518767 0.9970541 0.0518767 0.0029459 -0.0518767
3437 0.0027050 -0.0496252 0.9972950 0.0496252 0.9972950 0.0496252 0.0027050 -0.0496252
3594 0.0024840 -0.0474704 0.9975160 0.0474704 0.9975160 0.0474704 0.0024840 -0.0474704
3759 0.0022812 -0.0454083 0.9977188 0.0454083 0.9977188 0.0454083 0.0022812 -0.0454083
3931 0.0020951 -0.0434348 0.9979049 0.0434348 0.9979049 0.0434348 0.0020951 -0.0434348
4111 0.0019244 -0.0415462 0.9980756 0.0415462 0.9980756 0.0415462 0.0019244 -0.0415462
4299 0.0017677 -0.0397391 0.9982323 0.0397391 0.9982323 0.0397391 0.0017677 -0.0397391
4496 0.0016240 -0.0380099 0.9983760 0.0380099 0.9983760 0.0380099 0.0016240 -0.0380099
4702 0.0014922 -0.0363554 0.9985078 0.0363554 0.9985078 0.0363554 0.0014922 -0.0363554
4918 0.0013712 -0.0347724 0.9986288 0.0347724 0.9986288 0.0347724 0.0013712 -0.0347724
5143 0.0012603 -0.0332578 0.9987397 0.0332578 0.9987397 0.0332578 0.0012603 -0.0332578
5378 0.0011585 -0.0318087 0.9988415 0.0318087 0.9988415 0.0318087 0.0011585 -0.0318087
5625 0.0010652 -0.0304224 0.9989348 0.0304224 0.9989348 0.0304224 0.0010652 -0.0304224
5882 0.0009796 -0.0290962 0.9990204 0.0290962 0.9990204 0.0290962 0.0009796 -0.0290962
6151 0.0009011 -0.0278275 0.9990989 0.0278275 0.9990989 0.0278275 0.0009011 -0.0278275
6433 0.0008291 -0.0266138 0.9991709 0.0266138 0.9991709 0.0266138 0.0008291 -0.0266138
6728 0.0007632 -0.0254528 0.9992368 0.0254528 0.9992368 0.0254528 0.0007632 -0.0254528
7036 0.0007027 -0.0243422 0.9992973 0.0243422 0.9992973 0.0243422 0.0007027 -0.0243422
7358 0.0006472 -0.0232799 0.9993528 0.0232799 0.9993528 0.0232799 0.0006472 -0.0232799
7695 0.0005964 -0.0222638 0.9994036 0.0222638 0.9994036 0.0222638 0.0005964 -0.0222638
8047 0.0005498 -0.0212919 0.9994502 0.0212919 0.9994502 0.0212919 0.0005498 -0.0212919
8416 0.0005071 -0.0203623 0.9994929 0.0203623 0.9994929 0.0203623 0.0005071 -0.0203623
8801 0.0004680 -0.0194732 0.9995320 0.0194732 0.9995320 0.0194732 0.0004680 -0.0194732
9204 0.0004321 -0.0186229 0.9995679 0.0186229 0.9995679 0.0186229 0.0004321 -0.0186229
9626 0.0003992 -0.0178096 0.9996008 0.0178096 0.9996008 0.0178096 0.0003992 -0.0178096
10066 0.0003690 -0.0170317 0.9996310 0.0170317 0.9996310 0.0170317 0.0003690 -0.0170317
10527 0.0003414 -0.0162878 0.9996586 0.0162878 0.9996586 0.0162878 0.0003414 -0.0162878
11009 0.0003160 -0.0155764 0.9996840 0.0155764 0.9996840 0.0155764 0.0003160 -0.0155764
11514 0.0002928 -0.0148960 0.9997072 0.0148960 0.9997072 0.0148960 0.0002928 -0.0148960
12041 0.0002714 -0.0142453 0.9997286 0.0142453 0.9997286 0.0142453 0.0002714 -0.0142453
12592 0.0002518 -0.0136230 0.9997482 0.0136230 0.9997482 0.0136230 0.0002518 -0.0136230
13169 0.0002339 -0.0130279 0.9997661 0.0130279 0.9997661 0.0130279 0.0002339 -0.0130279
13772 0.0002174 -0.0124588 0.9997826 0.0124588 0.9997826 0.0124588 0.0002174 -0.0124588
14402 0.0002022 -0.0119146 0.9997978 0.0119146 0.9997978 0.0119146 0.0002022 -0.0119146
15062 0.0001883 -0.0113941 0.9998117 0.0113941 0.9998117 0.0113941 0.0001883 -0.0113941
15752 0.0001755 -0.0108964 0.9998245 0.0108964 0.9998245 0.0108964 0.0001755 -0.0108964
16473 0.0001637 -0.0104205 0.9998363 0.0104205 0.9998363 0.0104205 0.0001637 -0.0104205
17227 0.0001528 -0.0099653 0.9998472 0.0099653 0.9998472 0.0099653 0.0001528 -0.0099653
18016 0.0001428 -0.0095301 0.9998572 0.0095301 0.9998572 0.0095301 0.0001428 -0.0095301
18841 0.0001336 -0.0091138 0.9998664 0.0091138 0.9998664 0.0091138 0.0001336 -0.0091138
19704 0.0001251 -0.0087158 0.9998749 0.0087158 0.9998749 0.0087158 0.0001251 -0.0087158
20606 0.0001172 -0.0083352 0.9998828 0.0083352 0.9998828 0.0083352 0.0001172 -0.0083352
21550 0.0001099 -0.0079711 0.9998901 0.0079711 0.9998901 0.0079711 0.0001099 -0.0079711
22537 0.0001032 -0.0076230 0.9998968 0.0076230 0.9998968 0.0076230 0.0001032 -0.0076230
23569 0.0000970 -0.0072901 0.9999030 0.0072901 0.9999030 0.0072901 0.0000970 -0.0072901
24648 0.0000912 -0.0069718 0.9999088 0.0069718 0.9999088 0.0069718 0.0000912 -0.0069718
25777 0.0000859 -0.0066673 0.9999141 0.0066673 0.9999141 0.0066673 0.0000859 -0.0066673
26957 0.0000809 -0.0063761 0.9999191 0.0063761 0.9999191 0.0063761 0.0000809 -0.0063761
28191 0.0000763 -0.0060977 0.9999237 0.0060977 0.9999237 0.0060977 0.0000763 -0.0060977
29482 0.0000720 -0.0058313 0.9999280 0.0058313 0.9999280 0.0058313 0.0000720 -0.0058313
30832 0.0000680 -0.0055766 0.9999320 0.0055766 0.9999320 0.0055766 0.0000680 -0.0055766
32244 0.0000643 -0.0053330 0.9999357 0.0053330 0.9999357 0.0053330 0.0000643 -0.0053330
33721 0.0000608 -0.0051000 0.9999392 0.0051000 0.9999392 0.0051000 0.0000608 -0.0051000
35265 0.0000576 -0.0048772 0.9999424 0.0048772 0.9999424 0.0048772 0.0000576 -0.0048772
36880 0.0000546 -0.0046641 0.9999454 0.0046641 0.9999454 0.0046641 0.0000546 -0.0046641
38569 0.0000518 -0.0044603 0.9999482 0.0044603 0.9999482 0.0044603 0.0000518 -0.0044603
40335 0.0000492 -0.0042653 0.9999508 0.0042653 0.9999508 0.0042653 0.0000492 -0.0042653
42182 0.0000468 -0.0040788 0.9999532 0.0040788 0.9999532 0.0040788 0.0000468 -0.0040788
44113 0.0000446 -0.0039005 0.9999554 0.0039005 0.9999554 0.0039005 0.0000446 -0.0039005
46134 0.0000425 -0.0037299 0.9999575 0.0037299 0.9999575 0.0037299 0.0000425 -0.0037299
48246 0.0000405 -0.0035667 0.9999595 0.0035667 0.9999595 0.0035667 0.0000405 -0.0035667
50455 0.0000387 -0.0034106 0.9999613 0.0034106 0.9999613 0.0034106 0.0000387 -0.0034106
52766 0.0000370 -0.0032614 0.9999630 0.0032614 0.9999630 0.0032614 0.0000370 -0.0032614
55182 0.0000354 -0.0031186 0.9999646 0.0031186 0.9999646 0.0031186 0.0000354 -0.0031186
57709 0.0000340 -0.0029820 0.9999660 0.0029820 0.9999660 0.0029820 0.0000340 -0.0029820
60352 0.0000326 -0.0028514 0.9999674 0.0028514 0.9999674 0.0028514 0.0000326 -0.0028514
63115 0.0000314 -0.0027264 0.9999686 0.0027264 0.9999686 0.0027264 0.0000314 -0.0027264
66005 0.0000302 -0.0026069 0.9999698 0.0026069 0.9999698 0.0026069 0.0000302 -0.0026069
69028 0.0000291 -0.0024926 0.9999709 0.0024926 0.9999709 0.0024926 0.0000291 -0.0024926
72189 0.0000282 -0.0023832 0.9999718 0.0023832 0.9999718 0.0023832 0.0000282 -0.0023832
75495 0.0000272 -0.0022786 0.9999728 0.0022786 0.9999728 0.0022786 0.0000272 -0.0022786
78952 0.0000264 -0.0021785 0.9999736 0.0021785 0.9999736 0.0021785 0.0000264 -0.0021785
82567 0.0000256 -0.0020828 0.9999744 0.0020828 0.9999744 0.0020828 0.0000256 -0.0020828
86348 0.0000249 -0.0019913 0.9999751 0.0019913 0.9999751 0.0019913 0.0000249 -0.0019913
90302 0.0000242 -0.0019037 0.9999758 0.0019037 0.9999758 0.0019037 0.0000242 -0.0019037
94437 0.0000236 -0.0018199 0.9999764 0.0018199 0.9999764 0.0018199 0.0000236 -0.0018199
98762 0.0000230 -0.0017398 0.9999770 0.0017398 0.9999770 0.0017398 0.0000230 -0.0017398
103284 0.0000225 -0.0016631 0.9999775 0.0016631 0.9999775 0.0016631 0.0000225 -0.0016631
108014 0.0000220 -0.0015898 0.9999780 0.0015898 0.9999780 0.0015898 0.0000220 -0.0015898
112960 0.0000216 -0.0015196 0.9999784 0.0015196 0.9999784 0.0015196 0.0000216 -0.0015196
118133 0.0000212 -0.0014525 0.9999788 0.0014525 0.9999788 0.0014525 0.0000212 -0.0014525
123542 0.0000208 -0.0013882 0.9999792 0.0013882 0.9999792 0.0013882 0.0000208 -0.0013882
129199 0.0000204 -0.0013268 0.9999796 0.0013268 0.9999796 0.0013268 0.0000204 -0.0013268
135116 0.0000201 -0.0012680 0.9999799 0.0012680 0.9999799 0.0012680 0.0000201 -0.0012680
141303 0.0000198 -0.0012117 0.9999802 0.0012117 0.9999802 0.0012117 0.0000198 -0.0012117
147774 0.0000196 -0.0011579 0.9999804 0.0011579 0.9999804 0.0011579 0.0000196 -0.0011579
154540 0.0000193 -0.0011064 0.9999807 0.0011064 0.9999807 0.0011064 0.0000193 -0.0011064
161617 0.0000191 -0.0010571 0.9999809 0.0010571 0.9999809 0.0010571 0.0000191 -0.0010571
169018 0.0000189 -0.0010099 0.9999811 0.0010099 0.9999811 0.0010099 0.0000189 -0.0010099
176758 0.0000187 -0.0009647 0.9999813 0.0009647 0.9999813 0.0009647 0.0000187 -0.0009647
184852 0.0000185 -0.0009215 0.9999815 0.0009215 0.9999815 0.0009215 0.0000185 -0.0009215
193316 0.0000184 -0.0008801 0.9999816 0.0008801 0.9999816 0.0008801 0.0000184 -0.0008801
202169 0.0000182 -0.0008405 0.9999818 0.0008405 0.9999818 0.0008405 0.0000182 -0.0008405
211427 0.0000181 -0.0008025 0.9999819 0.0008025 0.9999819 0.0008025 0.0000181 -0.0008025
221108 0.0000180 -0.0007662 0.9999820 0.0007662 0.9999820 0.0007662 0.0000180 -0.0007662
231233 0.0000179 -0.0007314 0.9999821 0.0007314 0.9999821 0.0007314 0.0000179 -0.0007314
241822 0.0000178 -0.0006980 0.9999822 0.0006980 0.9999822 0.0006980 0.0000178 -0.0006980
252896 0.0000177 -0.0006661 0.9999823 0.0006661 0.9999823 0.0006661 0.0000177 -0.0006661
264476 0.0000176 -0.0006354 0.9999824 0.0006354 0.9999824 0.0006354 0.0000176 -0.0006354
276587 0.0000175 -0.0006061 0.9999825 0.0006061 0.9999825 0.0006061 0.0000175 -0.0006061
289253 0.0000175 -0.0005780 0.9999825 0.0005780 0.9999825 0.0005780 0.0000175 -0.0005780
302498 0.0000174 -0.0005510 0.9999826 0.0005510 0.9999826 0.0005510 0.0000174 -0.0005510
316350 0.0000174 -0.0005251 0.9999826 0.0005251 0.9999826 0.0005251 0.0000174 -0.0005251
330837 0.0000173 -0.0005003 0.9999827 0.0005003 0.9999827 0.0005003 0.0000173 -0.0005003
345986 0.0000173 -0.0004764 0.9999827 0.0004764 0.9999827 0.0004764 0.0000173 -0.0004764
361830 0.0000173 -0.0004536 0.9999827 0.0004536 0.9999827 0.0004536 0.0000173 -0.0004536
378399 0.0000173 -0.0004316 0.9999827 0.0004316 0.9999827 0.0004316 0.0000173 -0.0004316
395726 0.0000173 -0.0004105 0.9999827 0.0004105 0.9999827 0.0004105 0.0000173 -0.0004105
413847 0.0000173 -0.0003902 0.9999827 0.0003902 0.9999827 0.0003902 0.0000173 -0.0003902
432798 0.0000173 -0.0003707 0.9999827 0.0003707 0.9999827 0.0003707 0.0000173 -0.0003707
452617 0.0000173 -0.0003519 0.9999827 0.0003519 0.9999827 0.0003519 0.0000173 -0.0003519
473344 0.0000174 -0.0003338 0.9999826 0.0003338 0.9999826 0.0003338 0.0000174 -0.0003338
495019 0.0000174 -0.0003164 0.9999826 0.0003164 0.9999826 0.0003164 0.0000174 -0.0003164
517687 0.0000175 -0.0002996 0.9999825 0.0002996 0.9999825 0.0002996 0.0000175 -0.0002996
541393 0.0000176 -0.0002834 0.9999824 0.0002834 0.9999824 0.0002834 0.0000176 -0.0002834
566185 0.0000177 -0.0002678 0.9999823 0.0002678 0.9999823 0.0002678 0.0000177 -0.0002678
592111 0.0000178 -0.0002527 0.9999822 0.0002527 0.9999822 0.0002527 0.0000178 -0.0002527
619225 0.0000179 -0.0002381 0.9999821 0.0002381 0.9999821 0.0002381 0.0000179 -0.0002381
647581 0.0000181 -0.0002240 0.9999819 0.0002240 0.9999819 0.0002240 0.0000181 -0.0002240
677235 0.0000183 -0.0002103 0.9999817 0.0002103 0.9999817 0.0002103 0.0000183 -0.0002103
708247 0.0000185 -0.0001970 0.9999815 0.0001970 0.9999815 0.0001970 0.0000185 -0.0001970
740679 0.0000187 -0.0001841 0.9999813 0.0001841 0.9999813 0.0001841 0.0000187 -0.0001841
774597 0.0000189 -0.0001716 0.9999811 0.0001716 0.9999811 0.0001716 0.0000189 -0.0001716
810067 0.0000192 -0.0001594 0.9999808 0.0001594 0.9999808 0.0001594 0.0000192 -0.0001594
847162 0.0000195 -0.0001475 0.9999805 0.0001475 0.9999805 0.0001475 0.0000195 -0.0001475
885955 0.0000199 -0.0001360 0.9999801 0.0001360 0.9999801 0.0001360 0.0000199 -0.0001360
926525 0.0000203 -0.0001246 0.9999797 0.0001246 0.9999797 0.0001246 0.0000203 -0.0001246
968953 0.0000207 -0.0001135 0.9999793 0.0001135 0.9999793 0.0001135 0.0000207 -0.0001135
1013323 0.0000212 -0.0001026 0.9999788 0.0001026 0.9999788 0.0001026 0.0000212 -0.0001026
1059725 0.0000217 -0.0000919 0.9999783 0.0000919 0.9999783 0.0000919 0.0000217 -0.0000919
1108252 0.0000223 -0.0000813 0.9999777 0.0000813 0.9999777 0.0000813 0.0000223 -0.0000813
1159002 0.0000230 -0.0000709 0.9999770 0.0000709 0.9999770 0.0000709 0.0000230 -0.0000709
1212075 0.0000237 -0.0000606 0.9999763 0.0000606 0.9999763 0.0000606 0.0000237 -0.0000606
1267578 0.0000245 -0.0000503 0.9999755 0.0000503 0.9999755 0.0000503 0.0000245 -0.0000503
1325623 0.0000254 -0.0000401 0.9999746 0.0000401 0.9999746 0.0000401 0.0000254 -0.0000401
1386327 0.0000264 -0.0000299 0.9999736 0.0000299 0.9999736 0.0000299 0.0000264 -0.0000299
1449809 0.0000276 -0.0000196 0.9999724 0.0000196 0.9999724 0.0000196 0.0000276 -0.0000196
1516199 0.0000288 -0.0000093 0.9999712 0.0000093 0.9999712 0.0000093 0.0000288 -0.0000093
1585629 0.0000303 0.0000012 0.9999697 -0.0000012 0.9999697 -0.0000012 0.0000303 0.0000012
1658239 0.0000319 0.0000118 0.9999681 -0.0000118 0.9999681 -0.0000118 0.0000319 0.0000118
1734173 0.0000338 0.0000227 0.9999662 -0.0000227 0.9999662 -0.0000227 0.0000338 0.0000227
1813585 0.0000360 0.0000340 0.9999640 -0.0000340 0.9999640 -0.0000340 0.0000360 0.0000340
1896632 0.0000387 0.0000457 0.9999613 -0.0000457 0.9999613 -0.0000457 0.0000387 0.0000457
1983483 0.0000419 0.0000581 0.9999581 -0.0000581 0.9999581 -0.0000581 0.0000419 0.0000581
2074311 0.0000458 0.0000713 0.9999542 -0.0000713 0.9999542 -0.0000713 0.0000458 0.0000713
