!Murata Part Number: GRM32ER11A226ME20
!These Parameters are Measured in Series Mode Connection
!Data Generated on Mar 30, 2021
!       o--ll--o
!Port1            Port2
!       o------o
!Operation Temp=25[degC], DC Bias Voltage=0[V]
!Freq. Start=100[Hz] Stop=6[GHz] 401[Steps]
# Hz S RI R 50
!Freq.(Hz) S11(Real) S11(Imag) S21(Real) S21(Imag) S12(Real) S12(Imag) S22(Real) S22(Imag)
100 0.3522714 -0.4745595 0.6477286 0.4745595 0.6477286 0.4745595 0.3522714 -0.4745595
105 0.3323205 -0.4679524 0.6676795 0.4679524 0.6676795 0.4679524 0.3323205 -0.4679524
109 0.3129506 -0.4606269 0.6870494 0.4606269 0.6870494 0.4606269 0.3129506 -0.4606269
114 0.2942099 -0.4526437 0.7057901 0.4526437 0.7057901 0.4526437 0.2942099 -0.4526437
120 0.2761386 -0.4440665 0.7238614 0.4440665 0.7238614 0.4440665 0.2761386 -0.4440665
125 0.2587692 -0.4349609 0.7412308 0.4349609 0.7412308 0.4349609 0.2587692 -0.4349609
131 0.2421264 -0.4253931 0.7578736 0.4253931 0.7578736 0.4253931 0.2421264 -0.4253931
137 0.2262275 -0.4154292 0.7737725 0.4154292 0.7737725 0.4154292 0.2262275 -0.4154292
143 0.2110826 -0.4051342 0.7889174 0.4051342 0.7889174 0.4051342 0.2110826 -0.4051342
150 0.1966953 -0.3945713 0.8033047 0.3945713 0.8033047 0.3945713 0.1966953 -0.3945713
156 0.1830631 -0.3838009 0.8169369 0.3838009 0.8169369 0.3838009 0.1830631 -0.3838009
164 0.1701780 -0.3728805 0.8298220 0.3728805 0.8298220 0.3728805 0.1701780 -0.3728805
171 0.1580273 -0.3618640 0.8419727 0.3618640 0.8419727 0.3618640 0.1580273 -0.3618640
179 0.1465943 -0.3508017 0.8534057 0.3508017 0.8534057 0.3508017 0.1465943 -0.3508017
187 0.1358587 -0.3397395 0.8641413 0.3397395 0.8641413 0.3397395 0.1358587 -0.3397395
196 0.1257975 -0.3287194 0.8742025 0.3287194 0.8742025 0.3287194 0.1257975 -0.3287194
205 0.1163853 -0.3177794 0.8836147 0.3177794 0.8836147 0.3177794 0.1163853 -0.3177794
214 0.1075952 -0.3069532 0.8924048 0.3069532 0.8924048 0.3069532 0.1075952 -0.3069532
224 0.0993989 -0.2962706 0.9006011 0.2962706 0.9006011 0.2962706 0.0993989 -0.2962706
234 0.0917675 -0.2857575 0.9082325 0.2857575 0.9082325 0.2857575 0.0917675 -0.2857575
245 0.0846718 -0.2754364 0.9153282 0.2754364 0.9153282 0.2754364 0.0846718 -0.2754364
256 0.0780823 -0.2653261 0.9219177 0.2653261 0.9219177 0.2653261 0.0780823 -0.2653261
268 0.0719701 -0.2554426 0.9280299 0.2554426 0.9280299 0.2554426 0.0719701 -0.2554426
280 0.0663066 -0.2457986 0.9336934 0.2457986 0.9336934 0.2457986 0.0663066 -0.2457986
293 0.0610641 -0.2364044 0.9389359 0.2364044 0.9389359 0.2364044 0.0610641 -0.2364044
306 0.0562156 -0.2272679 0.9437844 0.2272679 0.9437844 0.2272679 0.0562156 -0.2272679
320 0.0517352 -0.2183946 0.9482648 0.2183946 0.9482648 0.2183946 0.0517352 -0.2183946
335 0.0475980 -0.2097882 0.9524020 0.2097882 0.9524020 0.2097882 0.0475980 -0.2097882
350 0.0437802 -0.2014507 0.9562198 0.2014507 0.9562198 0.2014507 0.0437802 -0.2014507
366 0.0402595 -0.1933825 0.9597405 0.1933825 0.9597405 0.1933825 0.0402595 -0.1933825
383 0.0370143 -0.1855827 0.9629857 0.1855827 0.9629857 0.1855827 0.0370143 -0.1855827
401 0.0340247 -0.1780492 0.9659753 0.1780492 0.9659753 0.1780492 0.0340247 -0.1780492
419 0.0312717 -0.1707791 0.9687283 0.1707791 0.9687283 0.1707791 0.0312717 -0.1707791
438 0.0287375 -0.1637685 0.9712625 0.1637685 0.9712625 0.1637685 0.0287375 -0.1637685
458 0.0264055 -0.1570127 0.9735945 0.1570127 0.9735945 0.1570127 0.0264055 -0.1570127
479 0.0242603 -0.1505067 0.9757397 0.1505067 0.9757397 0.1505067 0.0242603 -0.1505067
501 0.0222874 -0.1442447 0.9777126 0.1442447 0.9777126 0.1442447 0.0222874 -0.1442447
524 0.0204734 -0.1382209 0.9795266 0.1382209 0.9795266 0.1382209 0.0204734 -0.1382209
548 0.0188057 -0.1324288 0.9811943 0.1324288 0.9811943 0.1324288 0.0188057 -0.1324288
573 0.0172728 -0.1268621 0.9827272 0.1268621 0.9827272 0.1268621 0.0172728 -0.1268621
600 0.0158641 -0.1215140 0.9841359 0.1215140 0.9841359 0.1215140 0.0158641 -0.1215140
627 0.0145696 -0.1163777 0.9854304 0.1163777 0.9854304 0.1163777 0.0145696 -0.1163777
656 0.0133803 -0.1114466 0.9866197 0.1114466 0.9866197 0.1114466 0.0133803 -0.1114466
686 0.0122876 -0.1067138 0.9877124 0.1067138 0.9877124 0.1067138 0.0122876 -0.1067138
717 0.0112838 -0.1021726 0.9887162 0.1021726 0.9887162 0.1021726 0.0112838 -0.1021726
750 0.0103618 -0.0978162 0.9896382 0.0978162 0.9896382 0.0978162 0.0103618 -0.0978162
784 0.0095149 -0.0936382 0.9904851 0.0936382 0.9904851 0.0936382 0.0095149 -0.0936382
820 0.0087372 -0.0896320 0.9912628 0.0896320 0.9912628 0.0896320 0.0087372 -0.0896320
858 0.0080229 -0.0857912 0.9919771 0.0857912 0.9919771 0.0857912 0.0080229 -0.0857912
897 0.0073671 -0.0821099 0.9926329 0.0821099 0.9926329 0.0821099 0.0073671 -0.0821099
938 0.0067649 -0.0785818 0.9932351 0.0785818 0.9932351 0.0785818 0.0067649 -0.0785818
981 0.0062121 -0.0752010 0.9937879 0.0752010 0.9937879 0.0752010 0.0062121 -0.0752010
1026 0.0057046 -0.0719620 0.9942954 0.0719620 0.9942954 0.0719620 0.0057046 -0.0719620
1073 0.0052387 -0.0688592 0.9947613 0.0688592 0.9947613 0.0688592 0.0052387 -0.0688592
1122 0.0048112 -0.0658872 0.9951888 0.0658872 0.9951888 0.0658872 0.0048112 -0.0658872
1174 0.0044189 -0.0630408 0.9955811 0.0630408 0.9955811 0.0630408 0.0044189 -0.0630408
1227 0.0040589 -0.0603149 0.9959411 0.0603149 0.9959411 0.0603149 0.0040589 -0.0603149
1283 0.0037286 -0.0577049 0.9962714 0.0577049 0.9962714 0.0577049 0.0037286 -0.0577049
1342 0.0034256 -0.0552059 0.9965744 0.0552059 0.9965744 0.0552059 0.0034256 -0.0552059
1404 0.0031476 -0.0528135 0.9968524 0.0528135 0.9968524 0.0528135 0.0031476 -0.0528135
1468 0.0028927 -0.0505233 0.9971073 0.0505233 0.9971073 0.0505233 0.0028927 -0.0505233
1535 0.0026588 -0.0483311 0.9973412 0.0483311 0.9973412 0.0483311 0.0026588 -0.0483311
1606 0.0024444 -0.0462330 0.9975556 0.0462330 0.9975556 0.0462330 0.0024444 -0.0462330
1679 0.0022478 -0.0442249 0.9977522 0.0442249 0.9977522 0.0442249 0.0022478 -0.0442249
1756 0.0020675 -0.0423031 0.9979325 0.0423031 0.9979325 0.0423031 0.0020675 -0.0423031
1836 0.0019022 -0.0404642 0.9980978 0.0404642 0.9980978 0.0404642 0.0019022 -0.0404642
1920 0.0017507 -0.0387045 0.9982493 0.0387045 0.9982493 0.0387045 0.0017507 -0.0387045
2008 0.0016117 -0.0370208 0.9983883 0.0370208 0.9983883 0.0370208 0.0016117 -0.0370208
2100 0.0014843 -0.0354098 0.9985157 0.0354098 0.9985157 0.0354098 0.0014843 -0.0354098
2196 0.0013675 -0.0338686 0.9986325 0.0338686 0.9986325 0.0338686 0.0013675 -0.0338686
2297 0.0012603 -0.0323941 0.9987397 0.0323941 0.9987397 0.0323941 0.0012603 -0.0323941
2402 0.0011621 -0.0309836 0.9988379 0.0309836 0.9988379 0.0309836 0.0011621 -0.0309836
2512 0.0010720 -0.0296342 0.9989280 0.0296342 0.9989280 0.0296342 0.0010720 -0.0296342
2627 0.0009893 -0.0283434 0.9990107 0.0283434 0.9990107 0.0283434 0.0009893 -0.0283434
2748 0.0009134 -0.0271087 0.9990866 0.0271087 0.9990866 0.0271087 0.0009134 -0.0271087
2873 0.0008438 -0.0259276 0.9991562 0.0259276 0.9991562 0.0259276 0.0008438 -0.0259276
3005 0.0007799 -0.0247980 0.9992201 0.0247980 0.9992201 0.0247980 0.0007799 -0.0247980
3143 0.0007212 -0.0237174 0.9992788 0.0237174 0.9992788 0.0237174 0.0007212 -0.0237174
3287 0.0006672 -0.0226840 0.9993328 0.0226840 0.9993328 0.0226840 0.0006672 -0.0226840
3437 0.0006177 -0.0216955 0.9993823 0.0216955 0.9993823 0.0216955 0.0006177 -0.0216955
3594 0.0005721 -0.0207501 0.9994279 0.0207501 0.9994279 0.0207501 0.0005721 -0.0207501
3759 0.0005302 -0.0198458 0.9994698 0.0198458 0.9994698 0.0198458 0.0005302 -0.0198458
3931 0.0004916 -0.0189810 0.9995084 0.0189810 0.9995084 0.0189810 0.0004916 -0.0189810
4111 0.0004561 -0.0181538 0.9995439 0.0181538 0.9995439 0.0181538 0.0004561 -0.0181538
4299 0.0004234 -0.0173627 0.9995766 0.0173627 0.9995766 0.0173627 0.0004234 -0.0173627
4496 0.0003932 -0.0166061 0.9996068 0.0166061 0.9996068 0.0166061 0.0003932 -0.0166061
4702 0.0003654 -0.0158825 0.9996346 0.0158825 0.9996346 0.0158825 0.0003654 -0.0158825
4918 0.0003397 -0.0151903 0.9996603 0.0151903 0.9996603 0.0151903 0.0003397 -0.0151903
5143 0.0003160 -0.0145284 0.9996840 0.0145284 0.9996840 0.0145284 0.0003160 -0.0145284
5378 0.0002942 -0.0138952 0.9997058 0.0138952 0.9997058 0.0138952 0.0002942 -0.0138952
5625 0.0002739 -0.0132897 0.9997261 0.0132897 0.9997261 0.0132897 0.0002739 -0.0132897
5882 0.0002553 -0.0127105 0.9997447 0.0127105 0.9997447 0.0127105 0.0002553 -0.0127105
6151 0.0002380 -0.0121566 0.9997620 0.0121566 0.9997620 0.0121566 0.0002380 -0.0121566
6433 0.0002220 -0.0116267 0.9997780 0.0116267 0.9997780 0.0116267 0.0002220 -0.0116267
6728 0.0002072 -0.0111200 0.9997928 0.0111200 0.9997928 0.0111200 0.0002072 -0.0111200
7036 0.0001935 -0.0106353 0.9998065 0.0106353 0.9998065 0.0106353 0.0001935 -0.0106353
7358 0.0001808 -0.0101717 0.9998192 0.0101717 0.9998192 0.0101717 0.0001808 -0.0101717
7695 0.0001691 -0.0097282 0.9998309 0.0097282 0.9998309 0.0097282 0.0001691 -0.0097282
8047 0.0001582 -0.0093041 0.9998418 0.0093041 0.9998418 0.0093041 0.0001582 -0.0093041
8416 0.0001481 -0.0088984 0.9998519 0.0088984 0.9998519 0.0088984 0.0001481 -0.0088984
8801 0.0001388 -0.0085104 0.9998612 0.0085104 0.9998612 0.0085104 0.0001388 -0.0085104
9204 0.0001302 -0.0081393 0.9998698 0.0081393 0.9998698 0.0081393 0.0001302 -0.0081393
9626 0.0001222 -0.0077844 0.9998778 0.0077844 0.9998778 0.0077844 0.0001222 -0.0077844
10066 0.0001148 -0.0074448 0.9998852 0.0074448 0.9998852 0.0074448 0.0001148 -0.0074448
10527 0.0001079 -0.0071201 0.9998921 0.0071201 0.9998921 0.0071201 0.0001079 -0.0071201
11009 0.0001016 -0.0068095 0.9998984 0.0068095 0.9998984 0.0068095 0.0001016 -0.0068095
11514 0.0000957 -0.0065125 0.9999043 0.0065125 0.9999043 0.0065125 0.0000957 -0.0065125
12041 0.0000902 -0.0062284 0.9999098 0.0062284 0.9999098 0.0062284 0.0000902 -0.0062284
12592 0.0000852 -0.0059567 0.9999148 0.0059567 0.9999148 0.0059567 0.0000852 -0.0059567
13169 0.0000805 -0.0056968 0.9999195 0.0056968 0.9999195 0.0056968 0.0000805 -0.0056968
13772 0.0000762 -0.0054482 0.9999238 0.0054482 0.9999238 0.0054482 0.0000762 -0.0054482
14402 0.0000722 -0.0052105 0.9999278 0.0052105 0.9999278 0.0052105 0.0000722 -0.0052105
15062 0.0000684 -0.0049831 0.9999316 0.0049831 0.9999316 0.0049831 0.0000684 -0.0049831
15752 0.0000650 -0.0047657 0.9999350 0.0047657 0.9999350 0.0047657 0.0000650 -0.0047657
16473 0.0000618 -0.0045577 0.9999382 0.0045577 0.9999382 0.0045577 0.0000618 -0.0045577
17227 0.0000588 -0.0043589 0.9999412 0.0043589 0.9999412 0.0043589 0.0000588 -0.0043589
18016 0.0000560 -0.0041686 0.9999440 0.0041686 0.9999440 0.0041686 0.0000560 -0.0041686
18841 0.0000534 -0.0039867 0.9999466 0.0039867 0.9999466 0.0039867 0.0000534 -0.0039867
19704 0.0000510 -0.0038128 0.9999490 0.0038128 0.9999490 0.0038128 0.0000510 -0.0038128
20606 0.0000487 -0.0036464 0.9999513 0.0036464 0.9999513 0.0036464 0.0000487 -0.0036464
21550 0.0000466 -0.0034873 0.9999534 0.0034873 0.9999534 0.0034873 0.0000466 -0.0034873
22537 0.0000446 -0.0033351 0.9999554 0.0033351 0.9999554 0.0033351 0.0000446 -0.0033351
23569 0.0000428 -0.0031895 0.9999572 0.0031895 0.9999572 0.0031895 0.0000428 -0.0031895
24648 0.0000411 -0.0030503 0.9999589 0.0030503 0.9999589 0.0030503 0.0000411 -0.0030503
25777 0.0000394 -0.0029172 0.9999606 0.0029172 0.9999606 0.0029172 0.0000394 -0.0029172
26957 0.0000379 -0.0027899 0.9999621 0.0027899 0.9999621 0.0027899 0.0000379 -0.0027899
28191 0.0000364 -0.0026681 0.9999636 0.0026681 0.9999636 0.0026681 0.0000364 -0.0026681
29482 0.0000351 -0.0025516 0.9999649 0.0025516 0.9999649 0.0025516 0.0000351 -0.0025516
30832 0.0000338 -0.0024402 0.9999662 0.0024402 0.9999662 0.0024402 0.0000338 -0.0024402
32244 0.0000326 -0.0023337 0.9999674 0.0023337 0.9999674 0.0023337 0.0000326 -0.0023337
33721 0.0000314 -0.0022317 0.9999686 0.0022317 0.9999686 0.0022317 0.0000314 -0.0022317
35265 0.0000303 -0.0021343 0.9999697 0.0021343 0.9999697 0.0021343 0.0000303 -0.0021343
36880 0.0000293 -0.0020410 0.9999707 0.0020410 0.9999707 0.0020410 0.0000293 -0.0020410
38569 0.0000283 -0.0019518 0.9999717 0.0019518 0.9999717 0.0019518 0.0000283 -0.0019518
40335 0.0000274 -0.0018665 0.9999726 0.0018665 0.9999726 0.0018665 0.0000274 -0.0018665
42182 0.0000265 -0.0017848 0.9999735 0.0017848 0.9999735 0.0017848 0.0000265 -0.0017848
44113 0.0000257 -0.0017068 0.9999743 0.0017068 0.9999743 0.0017068 0.0000257 -0.0017068
46134 0.0000249 -0.0016320 0.9999751 0.0016320 0.9999751 0.0016320 0.0000249 -0.0016320
48246 0.0000241 -0.0015606 0.9999759 0.0015606 0.9999759 0.0015606 0.0000241 -0.0015606
50455 0.0000235 -0.0014922 0.9999765 0.0014922 0.9999765 0.0014922 0.0000235 -0.0014922
52766 0.0000228 -0.0014268 0.9999772 0.0014268 0.9999772 0.0014268 0.0000228 -0.0014268
55182 0.0000222 -0.0013642 0.9999778 0.0013642 0.9999778 0.0013642 0.0000222 -0.0013642
57709 0.0000216 -0.0013044 0.9999784 0.0013044 0.9999784 0.0013044 0.0000216 -0.0013044
60352 0.0000211 -0.0012471 0.9999789 0.0012471 0.9999789 0.0012471 0.0000211 -0.0012471
63115 0.0000205 -0.0011923 0.9999795 0.0011923 0.9999795 0.0011923 0.0000205 -0.0011923
66005 0.0000201 -0.0011398 0.9999799 0.0011398 0.9999799 0.0011398 0.0000201 -0.0011398
69028 0.0000196 -0.0010897 0.9999804 0.0010897 0.9999804 0.0010897 0.0000196 -0.0010897
72189 0.0000192 -0.0010416 0.9999808 0.0010416 0.9999808 0.0010416 0.0000192 -0.0010416
75495 0.0000188 -0.0009957 0.9999812 0.0009957 0.9999812 0.0009957 0.0000188 -0.0009957
78952 0.0000185 -0.0009517 0.9999815 0.0009517 0.9999815 0.0009517 0.0000185 -0.0009517
82567 0.0000181 -0.0009097 0.9999819 0.0009097 0.9999819 0.0009097 0.0000181 -0.0009097
86348 0.0000178 -0.0008694 0.9999822 0.0008694 0.9999822 0.0008694 0.0000178 -0.0008694
90302 0.0000175 -0.0008309 0.9999825 0.0008309 0.9999825 0.0008309 0.0000175 -0.0008309
94437 0.0000173 -0.0007940 0.9999827 0.0007940 0.9999827 0.0007940 0.0000173 -0.0007940
98762 0.0000170 -0.0007587 0.9999830 0.0007587 0.9999830 0.0007587 0.0000170 -0.0007587
103284 0.0000168 -0.0007250 0.9999832 0.0007250 0.9999832 0.0007250 0.0000168 -0.0007250
108014 0.0000166 -0.0006926 0.9999834 0.0006926 0.9999834 0.0006926 0.0000166 -0.0006926
112960 0.0000164 -0.0006617 0.9999836 0.0006617 0.9999836 0.0006617 0.0000164 -0.0006617
118133 0.0000162 -0.0006321 0.9999838 0.0006321 0.9999838 0.0006321 0.0000162 -0.0006321
123542 0.0000160 -0.0006037 0.9999840 0.0006037 0.9999840 0.0006037 0.0000160 -0.0006037
129199 0.0000159 -0.0005765 0.9999841 0.0005765 0.9999841 0.0005765 0.0000159 -0.0005765
135116 0.0000158 -0.0005505 0.9999842 0.0005505 0.9999842 0.0005505 0.0000158 -0.0005505
141303 0.0000156 -0.0005256 0.9999844 0.0005256 0.9999844 0.0005256 0.0000156 -0.0005256
147774 0.0000155 -0.0005017 0.9999845 0.0005017 0.9999845 0.0005017 0.0000155 -0.0005017
154540 0.0000154 -0.0004789 0.9999846 0.0004789 0.9999846 0.0004789 0.0000154 -0.0004789
161617 0.0000154 -0.0004570 0.9999846 0.0004570 0.9999846 0.0004570 0.0000154 -0.0004570
169018 0.0000153 -0.0004360 0.9999847 0.0004360 0.9999847 0.0004360 0.0000153 -0.0004360
176758 0.0000152 -0.0004159 0.9999848 0.0004159 0.9999848 0.0004159 0.0000152 -0.0004159
184852 0.0000152 -0.0003966 0.9999848 0.0003966 0.9999848 0.0003966 0.0000152 -0.0003966
193316 0.0000151 -0.0003781 0.9999849 0.0003781 0.9999849 0.0003781 0.0000151 -0.0003781
202169 0.0000151 -0.0003604 0.9999849 0.0003604 0.9999849 0.0003604 0.0000151 -0.0003604
211427 0.0000150 -0.0003433 0.9999850 0.0003433 0.9999850 0.0003433 0.0000150 -0.0003433
221108 0.0000150 -0.0003270 0.9999850 0.0003270 0.9999850 0.0003270 0.0000150 -0.0003270
231233 0.0000150 -0.0003113 0.9999850 0.0003113 0.9999850 0.0003113 0.0000150 -0.0003113
241822 0.0000150 -0.0002963 0.9999850 0.0002963 0.9999850 0.0002963 0.0000150 -0.0002963
252896 0.0000150 -0.0002818 0.9999850 0.0002818 0.9999850 0.0002818 0.0000150 -0.0002818
264476 0.0000150 -0.0002679 0.9999850 0.0002679 0.9999850 0.0002679 0.0000150 -0.0002679
276587 0.0000150 -0.0002546 0.9999850 0.0002546 0.9999850 0.0002546 0.0000150 -0.0002546
289253 0.0000151 -0.0002417 0.9999849 0.0002417 0.9999849 0.0002417 0.0000151 -0.0002417
302498 0.0000151 -0.0002294 0.9999849 0.0002294 0.9999849 0.0002294 0.0000151 -0.0002294
316350 0.0000151 -0.0002175 0.9999849 0.0002175 0.9999849 0.0002175 0.0000151 -0.0002175
330837 0.0000152 -0.0002060 0.9999848 0.0002060 0.9999848 0.0002060 0.0000152 -0.0002060
345986 0.0000153 -0.0001949 0.9999847 0.0001949 0.9999847 0.0001949 0.0000153 -0.0001949
361830 0.0000153 -0.0001842 0.9999847 0.0001842 0.9999847 0.0001842 0.0000153 -0.0001842
378399 0.0000154 -0.0001739 0.9999846 0.0001739 0.9999846 0.0001739 0.0000154 -0.0001739
395726 0.0000155 -0.0001640 0.9999845 0.0001640 0.9999845 0.0001640 0.0000155 -0.0001640
413847 0.0000156 -0.0001543 0.9999844 0.0001543 0.9999844 0.0001543 0.0000156 -0.0001543
432798 0.0000157 -0.0001450 0.9999843 0.0001450 0.9999843 0.0001450 0.0000157 -0.0001450
452617 0.0000159 -0.0001360 0.9999841 0.0001360 0.9999841 0.0001360 0.0000159 -0.0001360
473344 0.0000160 -0.0001272 0.9999840 0.0001272 0.9999840 0.0001272 0.0000160 -0.0001272
495019 0.0000162 -0.0001187 0.9999838 0.0001187 0.9999838 0.0001187 0.0000162 -0.0001187
517687 0.0000164 -0.0001104 0.9999836 0.0001104 0.9999836 0.0001104 0.0000164 -0.0001104
541393 0.0000166 -0.0001023 0.9999834 0.0001023 0.9999834 0.0001023 0.0000166 -0.0001023
566185 0.0000169 -0.0000944 0.9999831 0.0000944 0.9999831 0.0000944 0.0000169 -0.0000944
592111 0.0000171 -0.0000867 0.9999829 0.0000867 0.9999829 0.0000867 0.0000171 -0.0000867
619225 0.0000174 -0.0000792 0.9999826 0.0000792 0.9999826 0.0000792 0.0000174 -0.0000792
647581 0.0000177 -0.0000718 0.9999823 0.0000718 0.9999823 0.0000718 0.0000177 -0.0000718
677235 0.0000181 -0.0000645 0.9999819 0.0000645 0.9999819 0.0000645 0.0000181 -0.0000645
708247 0.0000185 -0.0000574 0.9999815 0.0000574 0.9999815 0.0000574 0.0000185 -0.0000574
740679 0.0000189 -0.0000503 0.9999811 0.0000503 0.9999811 0.0000503 0.0000189 -0.0000503
774597 0.0000194 -0.0000433 0.9999806 0.0000433 0.9999806 0.0000433 0.0000194 -0.0000433
810067 0.0000200 -0.0000364 0.9999800 0.0000364 0.9999800 0.0000364 0.0000200 -0.0000364
847162 0.0000206 -0.0000295 0.9999794 0.0000295 0.9999794 0.0000295 0.0000206 -0.0000295
885955 0.0000213 -0.0000226 0.9999787 0.0000226 0.9999787 0.0000226 0.0000213 -0.0000226
926525 0.0000220 -0.0000157 0.9999780 0.0000157 0.9999780 0.0000157 0.0000220 -0.0000157
968953 0.0000229 -0.0000088 0.9999771 0.0000088 0.9999771 0.0000088 0.0000229 -0.0000088
1013323 0.0000239 -0.0000017 0.9999761 0.0000017 0.9999761 0.0000017 0.0000239 -0.0000017
1059725 0.0000251 0.0000054 0.9999749 -0.0000054 0.9999749 -0.0000054 0.0000251 0.0000054
1108252 0.0000265 0.0000126 0.9999735 -0.0000126 0.9999735 -0.0000126 0.0000265 0.0000126
1159002 0.0000281 0.0000201 0.9999719 -0.0000201 0.9999719 -0.0000201 0.0000281 0.0000201
1212075 0.0000300 0.0000278 0.9999700 -0.0000278 0.9999700 -0.0000278 0.0000300 0.0000278
1267578 0.0000323 0.0000359 0.9999677 -0.0000359 0.9999677 -0.0000359 0.0000323 0.0000359
1325623 0.0000353 0.0000443 0.9999647 -0.0000443 0.9999647 -0.0000443 0.0000353 0.0000443
1386327 0.0000391 0.0000532 0.9999609 -0.0000532 0.9999609 -0.0000532 0.0000391 0.0000532
1449809 0.0000442 0.0000626 0.9999558 -0.0000626 0.9999558 -0.0000626 0.0000442 0.0000626
1516199 0.0000514 0.0000725 0.9999486 -0.0000725 0.9999486 -0.0000725 0.0000514 0.0000725
1585629 0.0000618 0.0000822 0.9999382 -0.0000822 0.9999382 -0.0000822 0.0000618 0.0000822
1658239 0.0000770 0.0000897 0.9999230 -0.0000897 0.9999230 -0.0000897 0.0000770 0.0000897
1734173 0.0000972 0.0000902 0.9999028 -0.0000902 0.9999028 -0.0000902 0.0000972 0.0000902
1813585 0.0001157 0.0000771 0.9998843 -0.0000771 0.9998843 -0.0000771 0.0001157 0.0000771
1896632 0.0001181 0.0000557 0.9998819 -0.0000557 0.9998819 -0.0000557 0.0001181 0.0000557
1983483 0.0001055 0.0000437 0.9998945 -0.0000437 0.9998945 -0.0000437 0.0001055 0.0000437
2074311 0.0000921 0.0000455 0.9999079 -0.0000455 0.9999079 -0.0000455 0.0000921 0.0000455
