!Murata Part Number: GRM32RR71H105KA01
!These Parameters are Measured in Series Mode Connection
!Data Generated on Mar 30, 2021
!       o--ll--o
!Port1            Port2
!       o------o
!Operation Temp=25[degC], DC Bias Voltage=0[V]
!Freq. Start=100[Hz] Stop=6[GHz] 401[Steps]
# Hz S RI R 50
!Freq.(Hz) S11(Real) S11(Imag) S21(Real) S21(Imag) S12(Real) S12(Imag) S22(Real) S22(Imag)
100 0.9964295 -0.0585228 0.0035705 0.0585228 0.0035705 0.0585228 0.9964295 -0.0585228
105 0.9961008 -0.0611780 0.0038992 0.0611780 0.0038992 0.0611780 0.9961008 -0.0611780
109 0.9957418 -0.0639516 0.0042582 0.0639516 0.0042582 0.0639516 0.9957418 -0.0639516
114 0.9953499 -0.0668486 0.0046501 0.0668486 0.0046501 0.0668486 0.9953499 -0.0668486
120 0.9949220 -0.0698742 0.0050780 0.0698742 0.0050780 0.0698742 0.9949220 -0.0698742
125 0.9944548 -0.0730336 0.0055452 0.0730336 0.0055452 0.0730336 0.9944548 -0.0730336
131 0.9939448 -0.0763325 0.0060552 0.0763325 0.0060552 0.0763325 0.9939448 -0.0763325
137 0.9933882 -0.0797763 0.0066118 0.0797763 0.0066118 0.0797763 0.9933882 -0.0797763
143 0.9927806 -0.0833710 0.0072194 0.0833710 0.0072194 0.0833710 0.9927806 -0.0833710
150 0.9921176 -0.0871226 0.0078824 0.0871226 0.0078824 0.0871226 0.9921176 -0.0871226
156 0.9913941 -0.0910371 0.0086059 0.0910371 0.0086059 0.0910371 0.9913941 -0.0910371
164 0.9906048 -0.0951209 0.0093952 0.0951209 0.0093952 0.0951209 0.9906048 -0.0951209
171 0.9897438 -0.0993802 0.0102562 0.0993802 0.0102562 0.0993802 0.9897438 -0.0993802
179 0.9888046 -0.1038218 0.0111954 0.1038218 0.0111954 0.1038218 0.9888046 -0.1038218
187 0.9877805 -0.1084521 0.0122195 0.1084521 0.0122195 0.1084521 0.9877805 -0.1084521
196 0.9866638 -0.1132778 0.0133362 0.1132778 0.0133362 0.1132778 0.9866638 -0.1132778
205 0.9854466 -0.1183057 0.0145534 0.1183057 0.0145534 0.1183057 0.9854466 -0.1183057
214 0.9841199 -0.1235425 0.0158801 0.1235425 0.0158801 0.1235425 0.9841199 -0.1235425
224 0.9826744 -0.1289949 0.0173256 0.1289949 0.0173256 0.1289949 0.9826744 -0.1289949
234 0.9810997 -0.1346696 0.0189003 0.1346696 0.0189003 0.1346696 0.9810997 -0.1346696
245 0.9793848 -0.1405732 0.0206152 0.1405732 0.0206152 0.1405732 0.9793848 -0.1405732
256 0.9775177 -0.1467120 0.0224823 0.1467120 0.0224823 0.1467120 0.9775177 -0.1467120
268 0.9754856 -0.1530921 0.0245144 0.1530921 0.0245144 0.1530921 0.9754856 -0.1530921
280 0.9732745 -0.1597194 0.0267255 0.1597194 0.0267255 0.1597194 0.9732745 -0.1597194
293 0.9708696 -0.1665992 0.0291304 0.1665992 0.0291304 0.1665992 0.9708696 -0.1665992
306 0.9682550 -0.1737365 0.0317450 0.1737365 0.0317450 0.1737365 0.9682550 -0.1737365
320 0.9654137 -0.1811355 0.0345863 0.1811355 0.0345863 0.1811355 0.9654137 -0.1811355
335 0.9623273 -0.1887997 0.0376727 0.1887997 0.0376727 0.1887997 0.9623273 -0.1887997
350 0.9589766 -0.1967320 0.0410234 0.1967320 0.0410234 0.1967320 0.9589766 -0.1967320
366 0.9553409 -0.2049337 0.0446591 0.2049337 0.0446591 0.2049337 0.9553409 -0.2049337
383 0.9513985 -0.2134054 0.0486015 0.2134054 0.0486015 0.2134054 0.9513985 -0.2134054
401 0.9471263 -0.2221461 0.0528737 0.2221461 0.0528737 0.2221461 0.9471263 -0.2221461
419 0.9425000 -0.2311532 0.0575000 0.2311532 0.0575000 0.2311532 0.9425000 -0.2311532
438 0.9374945 -0.2404223 0.0625055 0.2404223 0.0625055 0.2404223 0.9374945 -0.2404223
458 0.9320832 -0.2499471 0.0679168 0.2499471 0.0679168 0.2499471 0.9320832 -0.2499471
479 0.9262388 -0.2597188 0.0737612 0.2597188 0.0737612 0.2597188 0.9262388 -0.2597188
501 0.9199331 -0.2697263 0.0800669 0.2697263 0.0800669 0.2697263 0.9199331 -0.2697263
524 0.9131372 -0.2799556 0.0868628 0.2799556 0.0868628 0.2799556 0.9131372 -0.2799556
548 0.9058217 -0.2903898 0.0941783 0.2903898 0.0941783 0.2903898 0.9058217 -0.2903898
573 0.8979571 -0.3010085 0.1020429 0.3010085 0.1020429 0.3010085 0.8979571 -0.3010085
600 0.8895141 -0.3117880 0.1104859 0.3117880 0.1104859 0.3117880 0.8895141 -0.3117880
627 0.8804636 -0.3227009 0.1195364 0.3227009 0.1195364 0.3227009 0.8804636 -0.3227009
656 0.8707777 -0.3337157 0.1292223 0.3337157 0.1292223 0.3337157 0.8707777 -0.3337157
686 0.8604295 -0.3447970 0.1395705 0.3447970 0.1395705 0.3447970 0.8604295 -0.3447970
717 0.8493945 -0.3559052 0.1506055 0.3559052 0.1506055 0.3559052 0.8493945 -0.3559052
750 0.8376500 -0.3669964 0.1623500 0.3669964 0.1623500 0.3669964 0.8376500 -0.3669964
784 0.8251770 -0.3780228 0.1748230 0.3780228 0.1748230 0.3780228 0.8251770 -0.3780228
820 0.8119598 -0.3889322 0.1880402 0.3889322 0.1880402 0.3889322 0.8119598 -0.3889322
858 0.7979871 -0.3996689 0.2020129 0.3996689 0.2020129 0.3996689 0.7979871 -0.3996689
897 0.7832529 -0.4101737 0.2167471 0.4101737 0.2167471 0.4101737 0.7832529 -0.4101737
938 0.7677568 -0.4203845 0.2322432 0.4203845 0.2322432 0.4203845 0.7677568 -0.4203845
981 0.7515045 -0.4302367 0.2484955 0.4302367 0.2484955 0.4302367 0.7515045 -0.4302367
1026 0.7345089 -0.4396639 0.2654911 0.4396639 0.2654911 0.4396639 0.7345089 -0.4396639
1073 0.7167902 -0.4485992 0.2832098 0.4485992 0.2832098 0.4485992 0.7167902 -0.4485992
1122 0.6983762 -0.4569757 0.3016238 0.4569757 0.3016238 0.4569757 0.6983762 -0.4569757
1174 0.6793027 -0.4647274 0.3206973 0.4647274 0.3206973 0.4647274 0.6793027 -0.4647274
1227 0.6596136 -0.4717909 0.3403864 0.4717909 0.3403864 0.4717909 0.6596136 -0.4717909
1283 0.6393604 -0.4781061 0.3606396 0.4781061 0.3606396 0.4781061 0.6393604 -0.4781061
1342 0.6186025 -0.4836174 0.3813975 0.4836174 0.3813975 0.4836174 0.6186025 -0.4836174
1404 0.5974060 -0.4882750 0.4025940 0.4882750 0.4025940 0.4882750 0.5974060 -0.4882750
1468 0.5758435 -0.4920359 0.4241565 0.4920359 0.4241565 0.4920359 0.5758435 -0.4920359
1535 0.5539929 -0.4948647 0.4460071 0.4948647 0.4460071 0.4948647 0.5539929 -0.4948647
1606 0.5319364 -0.4967346 0.4680636 0.4967346 0.4680636 0.4967346 0.5319364 -0.4967346
1679 0.5097594 -0.4976278 0.4902406 0.4976278 0.4902406 0.4976278 0.5097594 -0.4976278
1756 0.4875489 -0.4975361 0.5124511 0.4975361 0.5124511 0.4975361 0.4875489 -0.4975361
1836 0.4653926 -0.4964610 0.5346074 0.4964610 0.5346074 0.4964610 0.4653926 -0.4964610
1920 0.4433771 -0.4944136 0.5566229 0.4944136 0.5566229 0.4944136 0.4433771 -0.4944136
2008 0.4215866 -0.4914144 0.5784134 0.4914144 0.5784134 0.4914144 0.4215866 -0.4914144
2100 0.4001020 -0.4874929 0.5998980 0.4874929 0.5998980 0.4874929 0.4001020 -0.4874929
2196 0.3789992 -0.4826865 0.6210008 0.4826865 0.6210008 0.4826865 0.3789992 -0.4826865
2297 0.3583488 -0.4770400 0.6416512 0.4770400 0.6416512 0.4770400 0.3583488 -0.4770400
2402 0.3382146 -0.4706048 0.6617854 0.4706048 0.6617854 0.4706048 0.3382146 -0.4706048
2512 0.3186532 -0.4634372 0.6813468 0.4634372 0.6813468 0.4634372 0.3186532 -0.4634372
2627 0.2997140 -0.4555977 0.7002860 0.4555977 0.7002860 0.4555977 0.2997140 -0.4555977
2748 0.2814382 -0.4471501 0.7185618 0.4471501 0.7185618 0.4471501 0.2814382 -0.4471501
2873 0.2638593 -0.4381596 0.7361407 0.4381596 0.7361407 0.4381596 0.2638593 -0.4381596
3005 0.2470031 -0.4286927 0.7529969 0.4286927 0.7529969 0.4286927 0.2470031 -0.4286927
3143 0.2308879 -0.4188153 0.7691121 0.4188153 0.7691121 0.4188153 0.2308879 -0.4188153
3287 0.2155248 -0.4085926 0.7844752 0.4085926 0.7844752 0.4085926 0.2155248 -0.4085926
3437 0.2009184 -0.3980878 0.7990816 0.3980878 0.7990816 0.3980878 0.2009184 -0.3980878
3594 0.1870673 -0.3873616 0.8129327 0.3873616 0.8129327 0.3873616 0.1870673 -0.3873616
3759 0.1739645 -0.3764719 0.8260355 0.3764719 0.8260355 0.3764719 0.1739645 -0.3764719
3931 0.1615984 -0.3654729 0.8384016 0.3654729 0.8384016 0.3654729 0.1615984 -0.3654729
4111 0.1499532 -0.3544152 0.8500468 0.3544152 0.8500468 0.3544152 0.1499532 -0.3544152
4299 0.1390095 -0.3433455 0.8609905 0.3433455 0.8609905 0.3433455 0.1390095 -0.3433455
4496 0.1287450 -0.3323064 0.8712550 0.3323064 0.8712550 0.3323064 0.1287450 -0.3323064
4702 0.1191353 -0.3213366 0.8808647 0.3213366 0.8808647 0.3213366 0.1191353 -0.3213366
4918 0.1101540 -0.3104705 0.8898460 0.3104705 0.8898460 0.3104705 0.1101540 -0.3104705
5143 0.1017736 -0.2997387 0.8982264 0.2997387 0.8982264 0.2997387 0.1017736 -0.2997387
5378 0.0939655 -0.2891680 0.9060345 0.2891680 0.9060345 0.2891680 0.0939655 -0.2891680
5625 0.0867009 -0.2787817 0.9132991 0.2787817 0.9132991 0.2787817 0.0867009 -0.2787817
5882 0.0799508 -0.2685996 0.9200492 0.2685996 0.9200492 0.2685996 0.0799508 -0.2685996
6151 0.0736864 -0.2586384 0.9263136 0.2586384 0.9263136 0.2586384 0.0736864 -0.2586384
6433 0.0678793 -0.2489118 0.9321207 0.2489118 0.9321207 0.2489118 0.0678793 -0.2489118
6728 0.0625017 -0.2394309 0.9374983 0.2394309 0.9374983 0.2394309 0.0625017 -0.2394309
7036 0.0575267 -0.2302042 0.9424733 0.2302042 0.9424733 0.2302042 0.0575267 -0.2302042
7358 0.0529283 -0.2212381 0.9470717 0.2212381 0.9470717 0.2212381 0.0529283 -0.2212381
7695 0.0486815 -0.2125370 0.9513185 0.2125370 0.9513185 0.2125370 0.0486815 -0.2125370
8047 0.0447622 -0.2041036 0.9552378 0.2041036 0.9552378 0.2041036 0.0447622 -0.2041036
8416 0.0411479 -0.1959388 0.9588521 0.1959388 0.9588521 0.1959388 0.0411479 -0.1959388
8801 0.0378168 -0.1880424 0.9621832 0.1880424 0.9621832 0.1880424 0.0378168 -0.1880424
9204 0.0347486 -0.1804128 0.9652514 0.1804128 0.9652514 0.1804128 0.0347486 -0.1804128
9626 0.0319240 -0.1730475 0.9680760 0.1730475 0.9680760 0.1730475 0.0319240 -0.1730475
10066 0.0293248 -0.1659430 0.9706752 0.1659430 0.9706752 0.1659430 0.0293248 -0.1659430
10527 0.0269342 -0.1590952 0.9730658 0.1590952 0.9730658 0.1590952 0.0269342 -0.1590952
11009 0.0247361 -0.1524991 0.9752639 0.1524991 0.9752639 0.1524991 0.0247361 -0.1524991
11514 0.0227159 -0.1461494 0.9772841 0.1461494 0.9772841 0.1461494 0.0227159 -0.1461494
12041 0.0208595 -0.1400405 0.9791405 0.1400405 0.9791405 0.1400405 0.0208595 -0.1400405
12592 0.0191543 -0.1341660 0.9808457 0.1341660 0.9808457 0.1341660 0.0191543 -0.1341660
13169 0.0175882 -0.1285198 0.9824118 0.1285198 0.9824118 0.1285198 0.0175882 -0.1285198
13772 0.0161501 -0.1230953 0.9838499 0.1230953 0.9838499 0.1230953 0.0161501 -0.1230953
14402 0.0148299 -0.1178857 0.9851701 0.1178857 0.9851701 0.1178857 0.0148299 -0.1178857
15062 0.0136179 -0.1128844 0.9863821 0.1128844 0.9863821 0.1128844 0.0136179 -0.1128844
15752 0.0125055 -0.1080846 0.9874945 0.1080846 0.9874945 0.1080846 0.0125055 -0.1080846
16473 0.0114844 -0.1034794 0.9885156 0.1034794 0.9885156 0.1034794 0.0114844 -0.1034794
17227 0.0105474 -0.0990623 0.9894526 0.0990623 0.9894526 0.0990623 0.0105474 -0.0990623
18016 0.0096875 -0.0948265 0.9903125 0.0948265 0.9903125 0.0948265 0.0096875 -0.0948265
18841 0.0088983 -0.0907654 0.9911017 0.0907654 0.9911017 0.0907654 0.0088983 -0.0907654
19704 0.0081741 -0.0868727 0.9918259 0.0868727 0.9918259 0.0868727 0.0081741 -0.0868727
20606 0.0075094 -0.0831420 0.9924906 0.0831420 0.9924906 0.0831420 0.0075094 -0.0831420
21550 0.0068995 -0.0795672 0.9931005 0.0795672 0.9931005 0.0795672 0.0068995 -0.0795672
22537 0.0063397 -0.0761423 0.9936603 0.0761423 0.9936603 0.0761423 0.0063397 -0.0761423
23569 0.0058260 -0.0728614 0.9941740 0.0728614 0.9941740 0.0728614 0.0058260 -0.0728614
24648 0.0053545 -0.0697188 0.9946455 0.0697188 0.9946455 0.0697188 0.0053545 -0.0697188
25777 0.0049219 -0.0667091 0.9950781 0.0667091 0.9950781 0.0667091 0.0049219 -0.0667091
26957 0.0045247 -0.0638269 0.9954753 0.0638269 0.9954753 0.0638269 0.0045247 -0.0638269
28191 0.0041603 -0.0610670 0.9958397 0.0610670 0.9958397 0.0610670 0.0041603 -0.0610670
29482 0.0038258 -0.0584246 0.9961742 0.0584246 0.9961742 0.0584246 0.0038258 -0.0584246
30832 0.0035188 -0.0558948 0.9964812 0.0558948 0.9964812 0.0558948 0.0035188 -0.0558948
32244 0.0032371 -0.0534731 0.9967629 0.0534731 0.9967629 0.0534731 0.0032371 -0.0534731
33721 0.0029785 -0.0511548 0.9970215 0.0511548 0.9970215 0.0511548 0.0029785 -0.0511548
35265 0.0027412 -0.0489359 0.9972588 0.0489359 0.9972588 0.0489359 0.0027412 -0.0489359
36880 0.0025235 -0.0468121 0.9974765 0.0468121 0.9974765 0.0468121 0.0025235 -0.0468121
38569 0.0023237 -0.0447795 0.9976763 0.0447795 0.9976763 0.0447795 0.0023237 -0.0447795
40335 0.0021404 -0.0428342 0.9978596 0.0428342 0.9978596 0.0428342 0.0021404 -0.0428342
42182 0.0019722 -0.0409727 0.9980278 0.0409727 0.9980278 0.0409727 0.0019722 -0.0409727
44113 0.0018179 -0.0391915 0.9981821 0.0391915 0.9981821 0.0391915 0.0018179 -0.0391915
46134 0.0016763 -0.0374870 0.9983237 0.0374870 0.9983237 0.0374870 0.0016763 -0.0374870
48246 0.0015464 -0.0358562 0.9984536 0.0358562 0.9984536 0.0358562 0.0015464 -0.0358562
50455 0.0014273 -0.0342958 0.9985727 0.0342958 0.9985727 0.0342958 0.0014273 -0.0342958
52766 0.0013180 -0.0328029 0.9986820 0.0328029 0.9986820 0.0328029 0.0013180 -0.0328029
55182 0.0012177 -0.0313747 0.9987823 0.0313747 0.9987823 0.0313747 0.0012177 -0.0313747
57709 0.0011257 -0.0300084 0.9988743 0.0300084 0.9988743 0.0300084 0.0011257 -0.0300084
60352 0.0010413 -0.0287013 0.9989587 0.0287013 0.9989587 0.0287013 0.0010413 -0.0287013
63115 0.0009639 -0.0274510 0.9990361 0.0274510 0.9990361 0.0274510 0.0009639 -0.0274510
66005 0.0008928 -0.0262550 0.9991072 0.0262550 0.9991072 0.0262550 0.0008928 -0.0262550
69028 0.0008275 -0.0251109 0.9991725 0.0251109 0.9991725 0.0251109 0.0008275 -0.0251109
72189 0.0007677 -0.0240166 0.9992323 0.0240166 0.9992323 0.0240166 0.0007677 -0.0240166
75495 0.0007127 -0.0229699 0.9992873 0.0229699 0.9992873 0.0229699 0.0007127 -0.0229699
78952 0.0006621 -0.0219688 0.9993379 0.0219688 0.9993379 0.0219688 0.0006621 -0.0219688
82567 0.0006157 -0.0210113 0.9993843 0.0210113 0.9993843 0.0210113 0.0006157 -0.0210113
86348 0.0005731 -0.0200954 0.9994269 0.0200954 0.9994269 0.0200954 0.0005731 -0.0200954
90302 0.0005338 -0.0192195 0.9994662 0.0192195 0.9994662 0.0192195 0.0005338 -0.0192195
94437 0.0004977 -0.0183818 0.9995023 0.0183818 0.9995023 0.0183818 0.0004977 -0.0183818
98762 0.0004644 -0.0175806 0.9995356 0.0175806 0.9995356 0.0175806 0.0004644 -0.0175806
103284 0.0004338 -0.0168143 0.9995662 0.0168143 0.9995662 0.0168143 0.0004338 -0.0168143
108014 0.0004056 -0.0160814 0.9995944 0.0160814 0.9995944 0.0160814 0.0004056 -0.0160814
112960 0.0003795 -0.0153805 0.9996205 0.0153805 0.9996205 0.0153805 0.0003795 -0.0153805
118133 0.0003554 -0.0147102 0.9996446 0.0147102 0.9996446 0.0147102 0.0003554 -0.0147102
123542 0.0003332 -0.0140691 0.9996668 0.0140691 0.9996668 0.0140691 0.0003332 -0.0140691
129199 0.0003126 -0.0134559 0.9996874 0.0134559 0.9996874 0.0134559 0.0003126 -0.0134559
135116 0.0002935 -0.0128694 0.9997065 0.0128694 0.9997065 0.0128694 0.0002935 -0.0128694
141303 0.0002759 -0.0123085 0.9997241 0.0123085 0.9997241 0.0123085 0.0002759 -0.0123085
147774 0.0002595 -0.0117720 0.9997405 0.0117720 0.9997405 0.0117720 0.0002595 -0.0117720
154540 0.0002443 -0.0112589 0.9997557 0.0112589 0.9997557 0.0112589 0.0002443 -0.0112589
161617 0.0002301 -0.0107681 0.9997699 0.0107681 0.9997699 0.0107681 0.0002301 -0.0107681
169018 0.0002170 -0.0102986 0.9997830 0.0102986 0.9997830 0.0102986 0.0002170 -0.0102986
176758 0.0002048 -0.0098496 0.9997952 0.0098496 0.9997952 0.0098496 0.0002048 -0.0098496
184852 0.0001934 -0.0094201 0.9998066 0.0094201 0.9998066 0.0094201 0.0001934 -0.0094201
193316 0.0001827 -0.0090092 0.9998173 0.0090092 0.9998173 0.0090092 0.0001827 -0.0090092
202169 0.0001728 -0.0086161 0.9998272 0.0086161 0.9998272 0.0086161 0.0001728 -0.0086161
211427 0.0001636 -0.0082401 0.9998364 0.0082401 0.9998364 0.0082401 0.0001636 -0.0082401
221108 0.0001550 -0.0078804 0.9998450 0.0078804 0.9998450 0.0078804 0.0001550 -0.0078804
231233 0.0001470 -0.0075363 0.9998530 0.0075363 0.9998530 0.0075363 0.0001470 -0.0075363
241822 0.0001395 -0.0072071 0.9998605 0.0072071 0.9998605 0.0072071 0.0001395 -0.0072071
252896 0.0001325 -0.0068921 0.9998675 0.0068921 0.9998675 0.0068921 0.0001325 -0.0068921
264476 0.0001260 -0.0065908 0.9998740 0.0065908 0.9998740 0.0065908 0.0001260 -0.0065908
276587 0.0001199 -0.0063025 0.9998801 0.0063025 0.9998801 0.0063025 0.0001199 -0.0063025
289253 0.0001142 -0.0060267 0.9998858 0.0060267 0.9998858 0.0060267 0.0001142 -0.0060267
302498 0.0001090 -0.0057628 0.9998910 0.0057628 0.9998910 0.0057628 0.0001090 -0.0057628
316350 0.0001041 -0.0055103 0.9998959 0.0055103 0.9998959 0.0055103 0.0001041 -0.0055103
330837 0.0000995 -0.0052687 0.9999005 0.0052687 0.9999005 0.0052687 0.0000995 -0.0052687
345986 0.0000953 -0.0050375 0.9999047 0.0050375 0.9999047 0.0050375 0.0000953 -0.0050375
361830 0.0000913 -0.0048163 0.9999087 0.0048163 0.9999087 0.0048163 0.0000913 -0.0048163
378399 0.0000877 -0.0046046 0.9999123 0.0046046 0.9999123 0.0046046 0.0000877 -0.0046046
395726 0.0000843 -0.0044021 0.9999157 0.0044021 0.9999157 0.0044021 0.0000843 -0.0044021
413847 0.0000811 -0.0042083 0.9999189 0.0042083 0.9999189 0.0042083 0.0000811 -0.0042083
432798 0.0000782 -0.0040228 0.9999218 0.0040228 0.9999218 0.0040228 0.0000782 -0.0040228
452617 0.0000756 -0.0038454 0.9999244 0.0038454 0.9999244 0.0038454 0.0000756 -0.0038454
473344 0.0000731 -0.0036755 0.9999269 0.0036755 0.9999269 0.0036755 0.0000731 -0.0036755
495019 0.0000708 -0.0035130 0.9999292 0.0035130 0.9999292 0.0035130 0.0000708 -0.0035130
517687 0.0000687 -0.0033575 0.9999313 0.0033575 0.9999313 0.0033575 0.0000687 -0.0033575
541393 0.0000667 -0.0032086 0.9999333 0.0032086 0.9999333 0.0032086 0.0000667 -0.0032086
566185 0.0000649 -0.0030661 0.9999351 0.0030661 0.9999351 0.0030661 0.0000649 -0.0030661
592111 0.0000633 -0.0029297 0.9999367 0.0029297 0.9999367 0.0029297 0.0000633 -0.0029297
619225 0.0000617 -0.0027992 0.9999383 0.0027992 0.9999383 0.0027992 0.0000617 -0.0027992
647581 0.0000603 -0.0026742 0.9999397 0.0026742 0.9999397 0.0026742 0.0000603 -0.0026742
677235 0.0000591 -0.0025546 0.9999409 0.0025546 0.9999409 0.0025546 0.0000591 -0.0025546
708247 0.0000579 -0.0024400 0.9999421 0.0024400 0.9999421 0.0024400 0.0000579 -0.0024400
740679 0.0000568 -0.0023303 0.9999432 0.0023303 0.9999432 0.0023303 0.0000568 -0.0023303
774597 0.0000558 -0.0022253 0.9999442 0.0022253 0.9999442 0.0022253 0.0000558 -0.0022253
810067 0.0000549 -0.0021247 0.9999451 0.0021247 0.9999451 0.0021247 0.0000549 -0.0021247
847162 0.0000541 -0.0020284 0.9999459 0.0020284 0.9999459 0.0020284 0.0000541 -0.0020284
885955 0.0000534 -0.0019361 0.9999466 0.0019361 0.9999466 0.0019361 0.0000534 -0.0019361
926525 0.0000527 -0.0018477 0.9999473 0.0018477 0.9999473 0.0018477 0.0000527 -0.0018477
968953 0.0000521 -0.0017629 0.9999479 0.0017629 0.9999479 0.0017629 0.0000521 -0.0017629
1013323 0.0000515 -0.0016817 0.9999485 0.0016817 0.9999485 0.0016817 0.0000515 -0.0016817
1059725 0.0000510 -0.0016039 0.9999490 0.0016039 0.9999490 0.0016039 0.0000510 -0.0016039
1108252 0.0000506 -0.0015292 0.9999494 0.0015292 0.9999494 0.0015292 0.0000506 -0.0015292
1159002 0.0000502 -0.0014576 0.9999498 0.0014576 0.9999498 0.0014576 0.0000502 -0.0014576
1212075 0.0000498 -0.0013889 0.9999502 0.0013889 0.9999502 0.0013889 0.0000498 -0.0013889
1267578 0.0000495 -0.0013230 0.9999505 0.0013230 0.9999505 0.0013230 0.0000495 -0.0013230
1325623 0.0000492 -0.0012598 0.9999508 0.0012598 0.9999508 0.0012598 0.0000492 -0.0012598
1386327 0.0000490 -0.0011991 0.9999510 0.0011991 0.9999510 0.0011991 0.0000490 -0.0011991
1449809 0.0000488 -0.0011407 0.9999512 0.0011407 0.9999512 0.0011407 0.0000488 -0.0011407
1516199 0.0000487 -0.0010847 0.9999513 0.0010847 0.9999513 0.0010847 0.0000487 -0.0010847
1585629 0.0000486 -0.0010308 0.9999514 0.0010308 0.9999514 0.0010308 0.0000486 -0.0010308
1658239 0.0000485 -0.0009790 0.9999515 0.0009790 0.9999515 0.0009790 0.0000485 -0.0009790
1734173 0.0000484 -0.0009291 0.9999516 0.0009291 0.9999516 0.0009291 0.0000484 -0.0009291
1813585 0.0000484 -0.0008811 0.9999516 0.0008811 0.9999516 0.0008811 0.0000484 -0.0008811
1896632 0.0000484 -0.0008349 0.9999516 0.0008349 0.9999516 0.0008349 0.0000484 -0.0008349
1983483 0.0000485 -0.0007903 0.9999515 0.0007903 0.9999515 0.0007903 0.0000485 -0.0007903
2074311 0.0000486 -0.0007473 0.9999514 0.0007473 0.9999514 0.0007473 0.0000486 -0.0007473
