!Murata Part Number: GRM32QR73A103KW01
!These Parameters are Measured in Series Mode Connection
!Data Generated on Mar 30, 2021
!       o--ll--o
!Port1            Port2
!       o------o
!Operation Temp=25[degC], DC Bias Voltage=0[V]
!Freq. Start=100[kHz] Stop=6[GHz] 401[Steps]
# Hz S RI R 50
!Freq.(Hz) S11(Real) S11(Imag) S21(Real) S21(Imag) S12(Real) S12(Imag) S22(Real) S22(Imag)
100000 0.7384947 -0.4336562 0.2615053 0.4336562 0.2615053 0.4336562 0.7384947 -0.4336562
102789 0.7279705 -0.4392221 0.2720295 0.4392221 0.2720295 0.4392221 0.7279705 -0.4392221
105655 0.7171810 -0.4446023 0.2828190 0.4446023 0.2828190 0.4446023 0.7171810 -0.4446023
108602 0.7061323 -0.4497818 0.2938677 0.4497818 0.2938677 0.4497818 0.7061323 -0.4497818
111630 0.6948315 -0.4547455 0.3051685 0.4547455 0.3051685 0.4547455 0.6948315 -0.4547455
114743 0.6832869 -0.4594784 0.3167131 0.4594784 0.3167131 0.4594784 0.6832869 -0.4594784
117943 0.6715080 -0.4639660 0.3284920 0.4639660 0.3284920 0.4639660 0.6715080 -0.4639660
121232 0.6595052 -0.4681940 0.3404948 0.4681940 0.3404948 0.4681940 0.6595052 -0.4681940
124613 0.6472902 -0.4721487 0.3527098 0.4721487 0.3527098 0.4721487 0.6472902 -0.4721487
128088 0.6348757 -0.4758170 0.3651243 0.4758170 0.3651243 0.4758170 0.6348757 -0.4758170
131660 0.6222753 -0.4791863 0.3777247 0.4791863 0.3777247 0.4791863 0.6222753 -0.4791863
135332 0.6095040 -0.4822451 0.3904960 0.4822451 0.3904960 0.4822451 0.6095040 -0.4822451
139106 0.5965773 -0.4849825 0.4034227 0.4849825 0.4034227 0.4849825 0.5965773 -0.4849825
142985 0.5835118 -0.4873887 0.4164882 0.4873887 0.4164882 0.4873887 0.5835118 -0.4873887
146972 0.5703249 -0.4894550 0.4296751 0.4894550 0.4296751 0.4894550 0.5703249 -0.4894550
151071 0.5570346 -0.4911737 0.4429654 0.4911737 0.4429654 0.4911737 0.5570346 -0.4911737
155284 0.5436596 -0.4925384 0.4563404 0.4925384 0.4563404 0.4925384 0.5436596 -0.4925384
159614 0.5302192 -0.4935438 0.4697808 0.4935438 0.4697808 0.4935438 0.5302192 -0.4935438
164065 0.5167328 -0.4941863 0.4832672 0.4941863 0.4832672 0.4941863 0.5167328 -0.4941863
168641 0.5032204 -0.4944631 0.4967796 0.4944631 0.4967796 0.4944631 0.5032204 -0.4944631
173344 0.4897020 -0.4943732 0.5102980 0.4943732 0.5102980 0.4943732 0.4897020 -0.4943732
178178 0.4761977 -0.4939168 0.5238023 0.4939168 0.5238023 0.4939168 0.4761977 -0.4939168
183146 0.4627275 -0.4930955 0.5372725 0.4930955 0.5372725 0.4930955 0.4627275 -0.4930955
188254 0.4493112 -0.4919121 0.5506888 0.4919121 0.5506888 0.4919121 0.4493112 -0.4919121
193504 0.4359682 -0.4903711 0.5640318 0.4903711 0.5640318 0.4903711 0.4359682 -0.4903711
198900 0.4227178 -0.4884780 0.5772822 0.4884780 0.5772822 0.4884780 0.4227178 -0.4884780
204447 0.4095782 -0.4862397 0.5904218 0.4862397 0.5904218 0.4862397 0.4095782 -0.4862397
210148 0.3965676 -0.4836640 0.6034324 0.4836640 0.6034324 0.4836640 0.3965676 -0.4836640
216008 0.3837030 -0.4807603 0.6162970 0.4807603 0.6162970 0.4807603 0.3837030 -0.4807603
222032 0.3710007 -0.4775386 0.6289993 0.4775386 0.6289993 0.4775386 0.3710007 -0.4775386
228224 0.3584762 -0.4740101 0.6415238 0.4740101 0.6415238 0.4740101 0.3584762 -0.4740101
234589 0.3461440 -0.4701868 0.6538560 0.4701868 0.6538560 0.4701868 0.3461440 -0.4701868
241130 0.3340175 -0.4660813 0.6659825 0.4660813 0.6659825 0.4660813 0.3340175 -0.4660813
247855 0.3221092 -0.4617072 0.6778908 0.4617072 0.6778908 0.4617072 0.3221092 -0.4617072
254767 0.3104303 -0.4570783 0.6895697 0.4570783 0.6895697 0.4570783 0.3104303 -0.4570783
261871 0.2989911 -0.4522090 0.7010089 0.4522090 0.7010089 0.4522090 0.2989911 -0.4522090
269174 0.2878006 -0.4471143 0.7121994 0.4471143 0.7121994 0.4471143 0.2878006 -0.4471143
276681 0.2768667 -0.4418091 0.7231333 0.4418091 0.7231333 0.4418091 0.2768667 -0.4418091
284397 0.2661964 -0.4363087 0.7338036 0.4363087 0.7338036 0.4363087 0.2661964 -0.4363087
292328 0.2557954 -0.4306283 0.7442046 0.4306283 0.7442046 0.4306283 0.2557954 -0.4306283
300480 0.2456682 -0.4247832 0.7543318 0.4247832 0.7543318 0.4247832 0.2456682 -0.4247832
308859 0.2358186 -0.4187886 0.7641814 0.4187886 0.7641814 0.4187886 0.2358186 -0.4187886
317472 0.2262491 -0.4126595 0.7737509 0.4126595 0.7737509 0.4126595 0.2262491 -0.4126595
326326 0.2169613 -0.4064107 0.7830387 0.4064107 0.7830387 0.4064107 0.2169613 -0.4064107
335426 0.2079561 -0.4000566 0.7920439 0.4000566 0.7920439 0.4000566 0.2079561 -0.4000566
344780 0.1992332 -0.3936114 0.8007668 0.3936114 0.8007668 0.3936114 0.1992332 -0.3936114
354395 0.1907917 -0.3870886 0.8092083 0.3870886 0.8092083 0.3870886 0.1907917 -0.3870886
364278 0.1826300 -0.3805017 0.8173700 0.3805017 0.8173700 0.3805017 0.1826300 -0.3805017
374436 0.1747456 -0.3738632 0.8252544 0.3738632 0.8252544 0.3738632 0.1747456 -0.3738632
384878 0.1671355 -0.3671855 0.8328645 0.3671855 0.8328645 0.3671855 0.1671355 -0.3671855
395611 0.1597961 -0.3604802 0.8402039 0.3604802 0.8402039 0.3604802 0.1597961 -0.3604802
406644 0.1527234 -0.3537584 0.8472766 0.3537584 0.8472766 0.3537584 0.1527234 -0.3537584
417984 0.1459128 -0.3470308 0.8540872 0.3470308 0.8540872 0.3470308 0.1459128 -0.3470308
429640 0.1393592 -0.3403073 0.8606408 0.3403073 0.8606408 0.3403073 0.1393592 -0.3403073
441622 0.1330573 -0.3335972 0.8669427 0.3335972 0.8669427 0.3335972 0.1330573 -0.3335972
453937 0.1270016 -0.3269095 0.8729984 0.3269095 0.8729984 0.3269095 0.1270016 -0.3269095
466596 0.1211860 -0.3202522 0.8788140 0.3202522 0.8788140 0.3202522 0.1211860 -0.3202522
479608 0.1156046 -0.3136332 0.8843954 0.3136332 0.8843954 0.3136332 0.1156046 -0.3136332
492983 0.1102510 -0.3070595 0.8897490 0.3070595 0.8897490 0.3070595 0.1102510 -0.3070595
506731 0.1051187 -0.3005377 0.8948813 0.3005377 0.8948813 0.3005377 0.1051187 -0.3005377
520862 0.1002014 -0.2940739 0.8997986 0.2940739 0.8997986 0.2940739 0.1002014 -0.2940739
535387 0.0954924 -0.2876735 0.9045076 0.2876735 0.9045076 0.2876735 0.0954924 -0.2876735
550318 0.0909851 -0.2813416 0.9090149 0.2813416 0.9090149 0.2813416 0.0909851 -0.2813416
565664 0.0866730 -0.2750828 0.9133270 0.2750828 0.9133270 0.2750828 0.0866730 -0.2750828
581439 0.0825494 -0.2689012 0.9174506 0.2689012 0.9174506 0.2689012 0.0825494 -0.2689012
597654 0.0786079 -0.2628005 0.9213921 0.2628005 0.9213921 0.2628005 0.0786079 -0.2628005
614320 0.0748419 -0.2567841 0.9251581 0.2567841 0.9251581 0.2567841 0.0748419 -0.2567841
631452 0.0712452 -0.2508547 0.9287548 0.2508547 0.9287548 0.2508547 0.0712452 -0.2508547
649061 0.0678113 -0.2450149 0.9321887 0.2450149 0.9321887 0.2450149 0.0678113 -0.2450149
667162 0.0645341 -0.2392670 0.9354659 0.2392670 0.9354659 0.2392670 0.0645341 -0.2392670
685767 0.0614075 -0.2336127 0.9385925 0.2336127 0.9385925 0.2336127 0.0614075 -0.2336127
704891 0.0584257 -0.2280536 0.9415743 0.2280536 0.9415743 0.2280536 0.0584257 -0.2280536
724548 0.0555828 -0.2225911 0.9444172 0.2225911 0.9444172 0.2225911 0.0555828 -0.2225911
744754 0.0528732 -0.2172261 0.9471268 0.2172261 0.9471268 0.2172261 0.0528732 -0.2172261
765523 0.0502914 -0.2119594 0.9497086 0.2119594 0.9497086 0.2119594 0.0502914 -0.2119594
786871 0.0478321 -0.2067915 0.9521679 0.2067915 0.9521679 0.2067915 0.0478321 -0.2067915
808814 0.0454900 -0.2017227 0.9545100 0.2017227 0.9545100 0.2017227 0.0454900 -0.2017227
831370 0.0432602 -0.1967532 0.9567398 0.1967532 0.9567398 0.1967532 0.0432602 -0.1967532
854554 0.0411378 -0.1918829 0.9588622 0.1918829 0.9588622 0.1918829 0.0411378 -0.1918829
878385 0.0391180 -0.1871116 0.9608820 0.1871116 0.9608820 0.1871116 0.0391180 -0.1871116
902880 0.0371965 -0.1824389 0.9628035 0.1824389 0.9628035 0.1824389 0.0371965 -0.1824389
928059 0.0353686 -0.1778643 0.9646314 0.1778643 0.9646314 0.1778643 0.0353686 -0.1778643
953940 0.0336304 -0.1733872 0.9663696 0.1733872 0.9663696 0.1733872 0.0336304 -0.1733872
980542 0.0319775 -0.1690067 0.9680225 0.1690067 0.9680225 0.1690067 0.0319775 -0.1690067
1007887 0.0304063 -0.1647221 0.9695937 0.1647221 0.9695937 0.1647221 0.0304063 -0.1647221
1035994 0.0289128 -0.1605324 0.9710872 0.1605324 0.9710872 0.1605324 0.0289128 -0.1605324
1064885 0.0274935 -0.1564365 0.9725065 0.1564365 0.9725065 0.1564365 0.0274935 -0.1564365
1094581 0.0261448 -0.1524334 0.9738552 0.1524334 0.9738552 0.1524334 0.0261448 -0.1524334
1125106 0.0248635 -0.1485218 0.9751365 0.1485218 0.9751365 0.1485218 0.0248635 -0.1485218
1156481 0.0236464 -0.1447005 0.9763536 0.1447005 0.9763536 0.1447005 0.0236464 -0.1447005
1188732 0.0224903 -0.1409681 0.9775097 0.1409681 0.9775097 0.1409681 0.0224903 -0.1409681
1221882 0.0213924 -0.1373235 0.9786076 0.1373235 0.9786076 0.1373235 0.0213924 -0.1373235
1255957 0.0203498 -0.1337651 0.9796502 0.1337651 0.9796502 0.1337651 0.0203498 -0.1337651
1290982 0.0193598 -0.1302916 0.9806402 0.1302916 0.9806402 0.1302916 0.0193598 -0.1302916
1326984 0.0184199 -0.1269015 0.9815801 0.1269015 0.9815801 0.1269015 0.0184199 -0.1269015
1363989 0.0175276 -0.1235933 0.9824724 0.1235933 0.9824724 0.1235933 0.0175276 -0.1235933
1402027 0.0166805 -0.1203656 0.9833195 0.1203656 0.9833195 0.1203656 0.0166805 -0.1203656
1441125 0.0158765 -0.1172169 0.9841235 0.1172169 0.9841235 0.1172169 0.0158765 -0.1172169
1481314 0.0151133 -0.1141457 0.9848867 0.1141457 0.9848867 0.1141457 0.0151133 -0.1141457
1522623 0.0143889 -0.1111504 0.9856111 0.1111504 0.9856111 0.1111504 0.0143889 -0.1111504
1565085 0.0137013 -0.1082295 0.9862987 0.1082295 0.9862987 0.1082295 0.0137013 -0.1082295
1608730 0.0130488 -0.1053816 0.9869512 0.1053816 0.9869512 0.1053816 0.0130488 -0.1053816
1653593 0.0124295 -0.1026051 0.9875705 0.1026051 0.9875705 0.1026051 0.0124295 -0.1026051
1699707 0.0118418 -0.0998985 0.9881582 0.0998985 0.9881582 0.0998985 0.0118418 -0.0998985
1747106 0.0112840 -0.0972602 0.9887160 0.0972602 0.9887160 0.0972602 0.0112840 -0.0972602
1795828 0.0107546 -0.0946889 0.9892454 0.0946889 0.9892454 0.0946889 0.0107546 -0.0946889
1845908 0.0102521 -0.0921830 0.9897479 0.0921830 0.9897479 0.0921830 0.0102521 -0.0921830
1897385 0.0097753 -0.0897411 0.9902247 0.0897411 0.9902247 0.0897411 0.0097753 -0.0897411
1950297 0.0093226 -0.0873617 0.9906774 0.0873617 0.9906774 0.0873617 0.0093226 -0.0873617
2004685 0.0088930 -0.0850433 0.9911070 0.0850433 0.9911070 0.0850433 0.0088930 -0.0850433
2060590 0.0084852 -0.0827846 0.9915148 0.0827846 0.9915148 0.0827846 0.0084852 -0.0827846
2118054 0.0080980 -0.0805842 0.9919020 0.0805842 0.9919020 0.0805842 0.0080980 -0.0805842
2177120 0.0077305 -0.0784407 0.9922695 0.0784407 0.9922695 0.0784407 0.0077305 -0.0784407
2237833 0.0073816 -0.0763526 0.9926184 0.0763526 0.9926184 0.0763526 0.0073816 -0.0763526
2300240 0.0070503 -0.0743188 0.9929497 0.0743188 0.9929497 0.0743188 0.0070503 -0.0743188
2364387 0.0067357 -0.0723378 0.9932643 0.0723378 0.9932643 0.0723378 0.0067357 -0.0723378
2430322 0.0064369 -0.0704084 0.9935631 0.0704084 0.9935631 0.0704084 0.0064369 -0.0704084
2498097 0.0061531 -0.0685293 0.9938469 0.0685293 0.9938469 0.0685293 0.0061531 -0.0685293
2567761 0.0058836 -0.0666992 0.9941164 0.0666992 0.9941164 0.0666992 0.0058836 -0.0666992
2639368 0.0056276 -0.0649170 0.9943724 0.0649170 0.9943724 0.0649170 0.0056276 -0.0649170
2712972 0.0053844 -0.0631814 0.9946156 0.0631814 0.9946156 0.0631814 0.0053844 -0.0631814
2788629 0.0051533 -0.0614912 0.9948467 0.0614912 0.9948467 0.0614912 0.0051533 -0.0614912
2866396 0.0049337 -0.0598454 0.9950663 0.0598454 0.9950663 0.0598454 0.0049337 -0.0598454
2946331 0.0047250 -0.0582427 0.9952750 0.0582427 0.9952750 0.0582427 0.0047250 -0.0582427
3028495 0.0045266 -0.0566821 0.9954734 0.0566821 0.9954734 0.0566821 0.0045266 -0.0566821
3112951 0.0043381 -0.0551625 0.9956619 0.0551625 0.9956619 0.0551625 0.0043381 -0.0551625
3199762 0.0041589 -0.0536828 0.9958411 0.0536828 0.9958411 0.0536828 0.0041589 -0.0536828
3288994 0.0039885 -0.0522420 0.9960115 0.0522420 0.9960115 0.0522420 0.0039885 -0.0522420
3380714 0.0038264 -0.0508390 0.9961736 0.0508390 0.9961736 0.0508390 0.0038264 -0.0508390
3474992 0.0036724 -0.0494730 0.9963276 0.0494730 0.9963276 0.0494730 0.0036724 -0.0494730
3571899 0.0035259 -0.0481430 0.9964741 0.0481430 0.9964741 0.0481430 0.0035259 -0.0481430
3671508 0.0033865 -0.0468479 0.9966135 0.0468479 0.9966135 0.0468479 0.0033865 -0.0468479
3773896 0.0032540 -0.0455869 0.9967460 0.0455869 0.9967460 0.0455869 0.0032540 -0.0455869
3879139 0.0031279 -0.0443591 0.9968721 0.0443591 0.9968721 0.0443591 0.0031279 -0.0443591
3987316 0.0030079 -0.0431636 0.9969921 0.0431636 0.9969921 0.0431636 0.0030079 -0.0431636
4098510 0.0028938 -0.0419996 0.9971062 0.0419996 0.9971062 0.0419996 0.0028938 -0.0419996
4212806 0.0027853 -0.0408663 0.9972147 0.0408663 0.9972147 0.0408663 0.0027853 -0.0408663
4330288 0.0026820 -0.0397628 0.9973180 0.0397628 0.9973180 0.0397628 0.0026820 -0.0397628
4451047 0.0025837 -0.0386883 0.9974163 0.0386883 0.9974163 0.0386883 0.0025837 -0.0386883
4575173 0.0024901 -0.0376421 0.9975099 0.0376421 0.9975099 0.0376421 0.0024901 -0.0376421
4702761 0.0024011 -0.0366234 0.9975989 0.0366234 0.9975989 0.0366234 0.0024011 -0.0366234
4833907 0.0023164 -0.0356316 0.9976836 0.0356316 0.9976836 0.0356316 0.0023164 -0.0356316
4968711 0.0022358 -0.0346658 0.9977642 0.0346658 0.9977642 0.0346658 0.0022358 -0.0346658
5107273 0.0021591 -0.0337254 0.9978409 0.0337254 0.9978409 0.0337254 0.0021591 -0.0337254
5249700 0.0020860 -0.0328098 0.9979140 0.0328098 0.9979140 0.0328098 0.0020860 -0.0328098
5396098 0.0020165 -0.0319182 0.9979835 0.0319182 0.9979835 0.0319182 0.0020165 -0.0319182
5546579 0.0019504 -0.0310501 0.9980496 0.0310501 0.9980496 0.0310501 0.0019504 -0.0310501
5701257 0.0018874 -0.0302048 0.9981126 0.0302048 0.9981126 0.0302048 0.0018874 -0.0302048
5860248 0.0018275 -0.0293817 0.9981725 0.0293817 0.9981725 0.0293817 0.0018275 -0.0293817
6023672 0.0017704 -0.0285801 0.9982296 0.0285801 0.9982296 0.0285801 0.0017704 -0.0285801
6191655 0.0017161 -0.0277997 0.9982839 0.0277997 0.9982839 0.0277997 0.0017161 -0.0277997
6364321 0.0016644 -0.0270396 0.9983356 0.0270396 0.9983356 0.0270396 0.0016644 -0.0270396
6541803 0.0016151 -0.0262995 0.9983849 0.0262995 0.9983849 0.0262995 0.0016151 -0.0262995
6724235 0.0015682 -0.0255788 0.9984318 0.0255788 0.9984318 0.0255788 0.0015682 -0.0255788
6911753 0.0015236 -0.0248770 0.9984764 0.0248770 0.9984764 0.0248770 0.0015236 -0.0248770
7104501 0.0014810 -0.0241935 0.9985190 0.0241935 0.9985190 0.0241935 0.0014810 -0.0241935
7302625 0.0014405 -0.0235279 0.9985595 0.0235279 0.9985595 0.0235279 0.0014405 -0.0235279
7506273 0.0014019 -0.0228796 0.9985981 0.0228796 0.9985981 0.0228796 0.0014019 -0.0228796
7715601 0.0013652 -0.0222483 0.9986348 0.0222483 0.9986348 0.0222483 0.0013652 -0.0222483
7930766 0.0013301 -0.0216334 0.9986699 0.0216334 0.9986699 0.0216334 0.0013301 -0.0216334
8151931 0.0012967 -0.0210345 0.9987033 0.0210345 0.9987033 0.0210345 0.0012967 -0.0210345
8379264 0.0012649 -0.0204512 0.9987351 0.0204512 0.9987351 0.0204512 0.0012649 -0.0204512
8612937 0.0012345 -0.0198830 0.9987655 0.0198830 0.9987655 0.0198830 0.0012345 -0.0198830
8853126 0.0012056 -0.0193295 0.9987944 0.0193295 0.9987944 0.0193295 0.0012056 -0.0193295
9100013 0.0011779 -0.0187904 0.9988221 0.0187904 0.9988221 0.0187904 0.0011779 -0.0187904
9353785 0.0011515 -0.0182651 0.9988485 0.0182651 0.9988485 0.0182651 0.0011515 -0.0182651
9614634 0.0011263 -0.0177534 0.9988737 0.0177534 0.9988737 0.0177534 0.0011263 -0.0177534
9882758 0.0011023 -0.0172549 0.9988977 0.0172549 0.9988977 0.0172549 0.0011023 -0.0172549
10158358 0.0010793 -0.0167691 0.9989207 0.0167691 0.9989207 0.0167691 0.0010793 -0.0167691
10441645 0.0010573 -0.0162958 0.9989427 0.0162958 0.9989427 0.0162958 0.0010573 -0.0162958
10732831 0.0010363 -0.0158345 0.9989637 0.0158345 0.9989637 0.0158345 0.0010363 -0.0158345
11032137 0.0010162 -0.0153850 0.9989838 0.0153850 0.9989838 0.0153850 0.0010162 -0.0153850
11339791 0.0009969 -0.0149468 0.9990031 0.0149468 0.9990031 0.0149468 0.0009969 -0.0149468
11656024 0.0009785 -0.0145198 0.9990215 0.0145198 0.9990215 0.0145198 0.0009785 -0.0145198
11981075 0.0009608 -0.0141034 0.9990392 0.0141034 0.9990392 0.0141034 0.0009608 -0.0141034
12315192 0.0009439 -0.0136976 0.9990561 0.0136976 0.9990561 0.0136976 0.0009439 -0.0136976
12658625 0.0009276 -0.0133018 0.9990724 0.0133018 0.9990724 0.0133018 0.0009276 -0.0133018
13011637 0.0009120 -0.0129159 0.9990880 0.0129159 0.9990880 0.0129159 0.0009120 -0.0129159
13374492 0.0008970 -0.0125395 0.9991030 0.0125395 0.9991030 0.0125395 0.0008970 -0.0125395
13747467 0.0008826 -0.0121724 0.9991174 0.0121724 0.9991174 0.0121724 0.0008826 -0.0121724
14130843 0.0008688 -0.0118143 0.9991312 0.0118143 0.9991312 0.0118143 0.0008688 -0.0118143
14524910 0.0008555 -0.0114649 0.9991445 0.0114649 0.9991445 0.0114649 0.0008555 -0.0114649
14929966 0.0008427 -0.0111240 0.9991573 0.0111240 0.9991573 0.0111240 0.0008427 -0.0111240
15346318 0.0008303 -0.0107912 0.9991697 0.0107912 0.9991697 0.0107912 0.0008303 -0.0107912
15774281 0.0008184 -0.0104664 0.9991816 0.0104664 0.9991816 0.0104664 0.0008184 -0.0104664
16214179 0.0008070 -0.0101493 0.9991930 0.0101493 0.9991930 0.0101493 0.0008070 -0.0101493
16666344 0.0007959 -0.0098396 0.9992041 0.0098396 0.9992041 0.0098396 0.0007959 -0.0098396
17131118 0.0007852 -0.0095372 0.9992148 0.0095372 0.9992148 0.0095372 0.0007852 -0.0095372
17608854 0.0007749 -0.0092417 0.9992251 0.0092417 0.9992251 0.0092417 0.0007749 -0.0092417
18099912 0.0007650 -0.0089530 0.9992350 0.0089530 0.9992350 0.0089530 0.0007650 -0.0089530
18604665 0.0007554 -0.0086709 0.9992446 0.0086709 0.9992446 0.0086709 0.0007554 -0.0086709
19123493 0.0007462 -0.0083951 0.9992538 0.0083951 0.9992538 0.0083951 0.0007462 -0.0083951
19656790 0.0007372 -0.0081254 0.9992628 0.0081254 0.9992628 0.0081254 0.0007372 -0.0081254
20204959 0.0007286 -0.0078617 0.9992714 0.0078617 0.9992714 0.0078617 0.0007286 -0.0078617
20768415 0.0007203 -0.0076036 0.9992797 0.0076036 0.9992797 0.0076036 0.0007203 -0.0076036
21347584 0.0007123 -0.0073511 0.9992877 0.0073511 0.9992877 0.0073511 0.0007123 -0.0073511
21942904 0.0007045 -0.0071039 0.9992955 0.0071039 0.9992955 0.0071039 0.0007045 -0.0071039
22554827 0.0006971 -0.0068619 0.9993029 0.0068619 0.9993029 0.0068619 0.0006971 -0.0068619
23183813 0.0006899 -0.0066249 0.9993101 0.0066249 0.9993101 0.0066249 0.0006899 -0.0066249
23830340 0.0006830 -0.0063926 0.9993170 0.0063926 0.9993170 0.0063926 0.0006830 -0.0063926
24494897 0.0006763 -0.0061650 0.9993237 0.0061650 0.9993237 0.0061650 0.0006763 -0.0061650
25177987 0.0006699 -0.0059418 0.9993301 0.0059418 0.9993301 0.0059418 0.0006699 -0.0059418
25880126 0.0006637 -0.0057229 0.9993363 0.0057229 0.9993363 0.0057229 0.0006637 -0.0057229
26601845 0.0006579 -0.0055081 0.9993421 0.0055081 0.9993421 0.0055081 0.0006579 -0.0055081
27343691 0.0006522 -0.0052972 0.9993478 0.0052972 0.9993478 0.0052972 0.0006522 -0.0052972
28106225 0.0006468 -0.0050902 0.9993532 0.0050902 0.9993532 0.0050902 0.0006468 -0.0050902
28890023 0.0006417 -0.0048868 0.9993583 0.0048868 0.9993583 0.0048868 0.0006417 -0.0048868
29695680 0.0006368 -0.0046870 0.9993632 0.0046870 0.9993632 0.0046870 0.0006368 -0.0046870
30523804 0.0006322 -0.0044905 0.9993678 0.0044905 0.9993678 0.0044905 0.0006322 -0.0044905
31375021 0.0006278 -0.0042971 0.9993722 0.0042971 0.9993722 0.0042971 0.0006278 -0.0042971
32249977 0.0006236 -0.0041069 0.9993764 0.0041069 0.9993764 0.0041069 0.0006236 -0.0041069
33149332 0.0006197 -0.0039196 0.9993803 0.0039196 0.9993803 0.0039196 0.0006197 -0.0039196
34073768 0.0006161 -0.0037350 0.9993839 0.0037350 0.9993839 0.0037350 0.0006161 -0.0037350
35023984 0.0006127 -0.0035532 0.9993873 0.0035532 0.9993873 0.0035532 0.0006127 -0.0035532
36000698 0.0006095 -0.0033738 0.9993905 0.0033738 0.9993905 0.0033738 0.0006095 -0.0033738
37004650 0.0006067 -0.0031968 0.9993933 0.0031968 0.9993933 0.0031968 0.0006067 -0.0031968
38036599 0.0006040 -0.0030221 0.9993960 0.0030221 0.9993960 0.0030221 0.0006040 -0.0030221
39097326 0.0006016 -0.0028496 0.9993984 0.0028496 0.9993984 0.0028496 0.0006016 -0.0028496
