!Murata Part Number: GRM32DR71E475KA61
!These Parameters are Measured in Series Mode Connection
!Data Generated on Mar 30, 2021
!       o--ll--o
!Port1            Port2
!       o------o
!Operation Temp=25[degC], DC Bias Voltage=0[V]
!Freq. Start=100[Hz] Stop=6[GHz] 401[Steps]
# Hz S RI R 50
!Freq.(Hz) S11(Real) S11(Imag) S21(Real) S21(Imag) S12(Real) S12(Imag) S22(Real) S22(Imag)
100 0.9256335 -0.2603077 0.0743665 0.2603077 0.0743665 0.2603077 0.9256335 -0.2603077
105 0.9192886 -0.2703180 0.0807114 0.2703180 0.0807114 0.2703180 0.9192886 -0.2703180
109 0.9124517 -0.2805470 0.0875483 0.2805470 0.0875483 0.2805470 0.9124517 -0.2805470
114 0.9050940 -0.2909774 0.0949060 0.2909774 0.0949060 0.2909774 0.9050940 -0.2909774
120 0.8971862 -0.3015887 0.1028138 0.3015887 0.1028138 0.3015887 0.8971862 -0.3015887
125 0.8886994 -0.3123568 0.1113006 0.3123568 0.1113006 0.3123568 0.8886994 -0.3123568
131 0.8796050 -0.3232539 0.1203950 0.3232539 0.1203950 0.3232539 0.8796050 -0.3232539
137 0.8698756 -0.3342486 0.1301244 0.3342486 0.1301244 0.3342486 0.8698756 -0.3342486
143 0.8594851 -0.3453053 0.1405149 0.3453053 0.1405149 0.3453053 0.8594851 -0.3453053
150 0.8484093 -0.3563844 0.1515907 0.3563844 0.1515907 0.3563844 0.8484093 -0.3563844
156 0.8366265 -0.3674420 0.1633735 0.3674420 0.1633735 0.3674420 0.8366265 -0.3674420
164 0.8241182 -0.3784306 0.1758818 0.3784306 0.1758818 0.3784306 0.8241182 -0.3784306
171 0.8108693 -0.3892983 0.1891307 0.3892983 0.1891307 0.3892983 0.8108693 -0.3892983
179 0.7968692 -0.3999900 0.2031308 0.3999900 0.2031308 0.3999900 0.7968692 -0.3999900
187 0.7821125 -0.4104470 0.2178875 0.4104470 0.2178875 0.4104470 0.7821125 -0.4104470
196 0.7665990 -0.4206078 0.2334010 0.4206078 0.2334010 0.4206078 0.7665990 -0.4206078
205 0.7503350 -0.4304085 0.2496650 0.4304085 0.2496650 0.4304085 0.7503350 -0.4304085
214 0.7333336 -0.4397839 0.2666664 0.4397839 0.2666664 0.4397839 0.7333336 -0.4397839
224 0.7156148 -0.4486677 0.2843852 0.4486677 0.2843852 0.4486677 0.7156148 -0.4486677
234 0.6972064 -0.4569939 0.3027936 0.4569939 0.3027936 0.4569939 0.6972064 -0.4569939
245 0.6781439 -0.4646976 0.3218561 0.4646976 0.3218561 0.4646976 0.6781439 -0.4646976
256 0.6584706 -0.4717160 0.3415294 0.4717160 0.3415294 0.4717160 0.6584706 -0.4717160
268 0.6382376 -0.4779898 0.3617624 0.4779898 0.3617624 0.4779898 0.6382376 -0.4779898
280 0.6175031 -0.4834640 0.3824969 0.4834640 0.3824969 0.4834640 0.6175031 -0.4834640
293 0.5963326 -0.4880891 0.4036674 0.4880891 0.4036674 0.4880891 0.5963326 -0.4880891
306 0.5747976 -0.4918223 0.4252024 0.4918223 0.4252024 0.4918223 0.5747976 -0.4918223
320 0.5529751 -0.4946282 0.4470249 0.4946282 0.4470249 0.4946282 0.5529751 -0.4946282
335 0.5309464 -0.4964796 0.4690536 0.4964796 0.4690536 0.4964796 0.5309464 -0.4964796
350 0.5087960 -0.4973584 0.4912040 0.4973584 0.4912040 0.4973584 0.5087960 -0.4973584
366 0.4866103 -0.4972557 0.5133897 0.4972557 0.5133897 0.4972557 0.4866103 -0.4972557
383 0.4644763 -0.4961723 0.5355237 0.4961723 0.5355237 0.4961723 0.4644763 -0.4961723
401 0.4424803 -0.4941186 0.5575197 0.4941186 0.5575197 0.4941186 0.4424803 -0.4941186
419 0.4207065 -0.4911140 0.5792935 0.4911140 0.5792935 0.4911140 0.4207065 -0.4911140
438 0.3992358 -0.4871872 0.6007642 0.4871872 0.6007642 0.4871872 0.3992358 -0.4871872
458 0.3781445 -0.4823750 0.6218555 0.4823750 0.6218555 0.4823750 0.3781445 -0.4823750
479 0.3575035 -0.4767214 0.6424965 0.4767214 0.6424965 0.4767214 0.3575035 -0.4767214
501 0.3373772 -0.4702772 0.6626228 0.4702772 0.6626228 0.4702772 0.3373772 -0.4702772
524 0.3178230 -0.4630985 0.6821770 0.4630985 0.6821770 0.4630985 0.3178230 -0.4630985
548 0.2988908 -0.4552457 0.7011092 0.4552457 0.7011092 0.4552457 0.2988908 -0.4552457
573 0.2806227 -0.4467824 0.7193773 0.4467824 0.7193773 0.4467824 0.2806227 -0.4467824
600 0.2630528 -0.4377741 0.7369472 0.4377741 0.7369472 0.4377741 0.2630528 -0.4377741
627 0.2462075 -0.4282875 0.7537925 0.4282875 0.7537925 0.4282875 0.2462075 -0.4282875
656 0.2301055 -0.4183892 0.7698945 0.4183892 0.7698945 0.4183892 0.2301055 -0.4183892
686 0.2147585 -0.4081446 0.7852415 0.4081446 0.7852415 0.4081446 0.2147585 -0.4081446
717 0.2001711 -0.3976177 0.7998289 0.3976177 0.7998289 0.3976177 0.2001711 -0.3976177
750 0.1863421 -0.3868698 0.8136579 0.3868698 0.8136579 0.3868698 0.1863421 -0.3868698
784 0.1732645 -0.3759592 0.8267355 0.3759592 0.8267355 0.3759592 0.1732645 -0.3759592
820 0.1609264 -0.3649408 0.8390736 0.3649408 0.8390736 0.3649408 0.1609264 -0.3649408
858 0.1493118 -0.3538658 0.8506882 0.3538658 0.8506882 0.3538658 0.1493118 -0.3538658
897 0.1384010 -0.3427812 0.8615990 0.3427812 0.8615990 0.3427812 0.1384010 -0.3427812
938 0.1281714 -0.3317300 0.8718286 0.3317300 0.8718286 0.3317300 0.1281714 -0.3317300
981 0.1185980 -0.3207510 0.8814020 0.3207510 0.8814020 0.3207510 0.1185980 -0.3207510
1026 0.1096539 -0.3098789 0.8903461 0.3098789 0.8903461 0.3098789 0.1096539 -0.3098789
1073 0.1013112 -0.2991445 0.8986888 0.2991445 0.8986888 0.2991445 0.1013112 -0.2991445
1122 0.0935410 -0.2885745 0.9064590 0.2885745 0.9064590 0.2885745 0.0935410 -0.2885745
1174 0.0863137 -0.2781921 0.9136863 0.2781921 0.9136863 0.2781921 0.0863137 -0.2781921
1227 0.0796002 -0.2680170 0.9203998 0.2680170 0.9203998 0.2680170 0.0796002 -0.2680170
1283 0.0733712 -0.2580656 0.9266288 0.2580656 0.9266288 0.2580656 0.0733712 -0.2580656
1342 0.0675979 -0.2483515 0.9324021 0.2483515 0.9324021 0.2483515 0.0675979 -0.2483515
1404 0.0622524 -0.2388855 0.9377476 0.2388855 0.9377476 0.2388855 0.0622524 -0.2388855
1468 0.0573074 -0.2296758 0.9426926 0.2296758 0.9426926 0.2296758 0.0573074 -0.2296758
1535 0.0527367 -0.2207285 0.9472633 0.2207285 0.9472633 0.2207285 0.0527367 -0.2207285
1606 0.0485153 -0.2120477 0.9514847 0.2120477 0.9514847 0.2120477 0.0485153 -0.2120477
1679 0.0446191 -0.2036357 0.9553809 0.2036357 0.9553809 0.2036357 0.0446191 -0.2036357
1756 0.0410253 -0.1954933 0.9589747 0.1954933 0.9589747 0.1954933 0.0410253 -0.1954933
1836 0.0377123 -0.1876197 0.9622877 0.1876197 0.9622877 0.1876197 0.0377123 -0.1876197
1920 0.0346597 -0.1800132 0.9653403 0.1800132 0.9653403 0.1800132 0.0346597 -0.1800132
2008 0.0318483 -0.1726710 0.9681517 0.1726710 0.9681517 0.1726710 0.0318483 -0.1726710
2100 0.0292602 -0.1655892 0.9707398 0.1655892 0.9707398 0.1655892 0.0292602 -0.1655892
2196 0.0268784 -0.1587637 0.9731216 0.1587637 0.9731216 0.1587637 0.0268784 -0.1587637
2297 0.0246873 -0.1521891 0.9753127 0.1521891 0.9753127 0.1521891 0.0246873 -0.1521891
2402 0.0226721 -0.1458602 0.9773279 0.1458602 0.9773279 0.1458602 0.0226721 -0.1458602
2512 0.0208193 -0.1397709 0.9791807 0.1397709 0.9791807 0.1397709 0.0208193 -0.1397709
2627 0.0191160 -0.1339150 0.9808840 0.1339150 0.9808840 0.1339150 0.0191160 -0.1339150
2748 0.0175507 -0.1282862 0.9824493 0.1282862 0.9824493 0.1282862 0.0175507 -0.1282862
2873 0.0161123 -0.1228777 0.9838877 0.1228777 0.9838877 0.1228777 0.0161123 -0.1228777
3005 0.0147909 -0.1176828 0.9852091 0.1176828 0.9852091 0.1176828 0.0147909 -0.1176828
3143 0.0135771 -0.1126949 0.9864229 0.1126949 0.9864229 0.1126949 0.0135771 -0.1126949
3287 0.0124623 -0.1079072 0.9875377 0.1079072 0.9875377 0.1079072 0.0124623 -0.1079072
3437 0.0114386 -0.1033129 0.9885614 0.1033129 0.9885614 0.1033129 0.0114386 -0.1033129
3594 0.0104987 -0.0989054 0.9895013 0.0989054 0.9895013 0.0989054 0.0104987 -0.0989054
3759 0.0096358 -0.0946781 0.9903642 0.0946781 0.9903642 0.0946781 0.0096358 -0.0946781
3931 0.0088437 -0.0906245 0.9911563 0.0906245 0.9911563 0.0906245 0.0088437 -0.0906245
4111 0.0081168 -0.0867382 0.9918832 0.0867382 0.9918832 0.0867382 0.0081168 -0.0867382
4299 0.0074496 -0.0830131 0.9925504 0.0830131 0.9925504 0.0830131 0.0074496 -0.0830131
4496 0.0068375 -0.0794432 0.9931625 0.0794432 0.9931625 0.0794432 0.0068375 -0.0794432
4702 0.0062759 -0.0760224 0.9937241 0.0760224 0.9937241 0.0760224 0.0062759 -0.0760224
4918 0.0057607 -0.0727451 0.9942393 0.0727451 0.9942393 0.0727451 0.0057607 -0.0727451
5143 0.0052882 -0.0696056 0.9947118 0.0696056 0.9947118 0.0696056 0.0052882 -0.0696056
5378 0.0048548 -0.0665986 0.9951452 0.0665986 0.9951452 0.0665986 0.0048548 -0.0665986
5625 0.0044575 -0.0637189 0.9955425 0.0637189 0.9955425 0.0637189 0.0044575 -0.0637189
5882 0.0040931 -0.0609613 0.9959069 0.0609613 0.9959069 0.0609613 0.0040931 -0.0609613
6151 0.0037590 -0.0583210 0.9962410 0.0583210 0.9962410 0.0583210 0.0037590 -0.0583210
6433 0.0034528 -0.0557932 0.9965472 0.0557932 0.9965472 0.0557932 0.0034528 -0.0557932
6728 0.0031721 -0.0533733 0.9968279 0.0533733 0.9968279 0.0533733 0.0031721 -0.0533733
7036 0.0029148 -0.0510570 0.9970852 0.0510570 0.9970852 0.0510570 0.0029148 -0.0510570
7358 0.0026790 -0.0488400 0.9973210 0.0488400 0.9973210 0.0488400 0.0026790 -0.0488400
7695 0.0024629 -0.0467183 0.9975371 0.0467183 0.9975371 0.0467183 0.0024629 -0.0467183
8047 0.0022648 -0.0446877 0.9977352 0.0446877 0.9977352 0.0446877 0.0022648 -0.0446877
8416 0.0020834 -0.0427446 0.9979166 0.0427446 0.9979166 0.0427446 0.0020834 -0.0427446
8801 0.0019171 -0.0408854 0.9980829 0.0408854 0.9980829 0.0408854 0.0019171 -0.0408854
9204 0.0017647 -0.0391064 0.9982353 0.0391064 0.9982353 0.0391064 0.0017647 -0.0391064
9626 0.0016250 -0.0374043 0.9983750 0.0374043 0.9983750 0.0374043 0.0016250 -0.0374043
10066 0.0014970 -0.0357760 0.9985030 0.0357760 0.9985030 0.0357760 0.0014970 -0.0357760
10527 0.0013797 -0.0342181 0.9986203 0.0342181 0.9986203 0.0342181 0.0013797 -0.0342181
11009 0.0012721 -0.0327278 0.9987279 0.0327278 0.9987279 0.0327278 0.0012721 -0.0327278
11514 0.0011735 -0.0313022 0.9988265 0.0313022 0.9988265 0.0313022 0.0011735 -0.0313022
12041 0.0010831 -0.0299385 0.9989169 0.0299385 0.9989169 0.0299385 0.0010831 -0.0299385
12592 0.0010001 -0.0286341 0.9989999 0.0286341 0.9989999 0.0286341 0.0010001 -0.0286341
13169 0.0009240 -0.0273864 0.9990760 0.0273864 0.9990760 0.0273864 0.0009240 -0.0273864
13772 0.0008542 -0.0261930 0.9991458 0.0261930 0.9991458 0.0261930 0.0008542 -0.0261930
14402 0.0007901 -0.0250516 0.9992099 0.0250516 0.9992099 0.0250516 0.0007901 -0.0250516
15062 0.0007312 -0.0239599 0.9992688 0.0239599 0.9992688 0.0239599 0.0007312 -0.0239599
15752 0.0006772 -0.0229157 0.9993228 0.0229157 0.9993228 0.0229157 0.0006772 -0.0229157
16473 0.0006274 -0.0219170 0.9993726 0.0219170 0.9993726 0.0219170 0.0006274 -0.0219170
17227 0.0005817 -0.0209618 0.9994183 0.0209618 0.9994183 0.0209618 0.0005817 -0.0209618
18016 0.0005397 -0.0200483 0.9994603 0.0200483 0.9994603 0.0200483 0.0005397 -0.0200483
18841 0.0005009 -0.0191746 0.9994991 0.0191746 0.9994991 0.0191746 0.0005009 -0.0191746
19704 0.0004653 -0.0183390 0.9995347 0.0183390 0.9995347 0.0183390 0.0004653 -0.0183390
20606 0.0004324 -0.0175398 0.9995676 0.0175398 0.9995676 0.0175398 0.0004324 -0.0175398
21550 0.0004021 -0.0167754 0.9995979 0.0167754 0.9995979 0.0167754 0.0004021 -0.0167754
22537 0.0003741 -0.0160444 0.9996259 0.0160444 0.9996259 0.0160444 0.0003741 -0.0160444
23569 0.0003483 -0.0153452 0.9996517 0.0153452 0.9996517 0.0153452 0.0003483 -0.0153452
24648 0.0003245 -0.0146765 0.9996755 0.0146765 0.9996755 0.0146765 0.0003245 -0.0146765
25777 0.0003024 -0.0140369 0.9996976 0.0140369 0.9996976 0.0140369 0.0003024 -0.0140369
26957 0.0002820 -0.0134252 0.9997180 0.0134252 0.9997180 0.0134252 0.0002820 -0.0134252
28191 0.0002632 -0.0128401 0.9997368 0.0128401 0.9997368 0.0128401 0.0002632 -0.0128401
29482 0.0002457 -0.0122804 0.9997543 0.0122804 0.9997543 0.0122804 0.0002457 -0.0122804
30832 0.0002296 -0.0117452 0.9997704 0.0117452 0.9997704 0.0117452 0.0002296 -0.0117452
32244 0.0002146 -0.0112332 0.9997854 0.0112332 0.9997854 0.0112332 0.0002146 -0.0112332
33721 0.0002008 -0.0107435 0.9997992 0.0107435 0.9997992 0.0107435 0.0002008 -0.0107435
35265 0.0001879 -0.0102751 0.9998121 0.0102751 0.9998121 0.0102751 0.0001879 -0.0102751
36880 0.0001760 -0.0098271 0.9998240 0.0098271 0.9998240 0.0098271 0.0001760 -0.0098271
38569 0.0001650 -0.0093986 0.9998350 0.0093986 0.9998350 0.0093986 0.0001650 -0.0093986
40335 0.0001548 -0.0089887 0.9998452 0.0089887 0.9998452 0.0089887 0.0001548 -0.0089887
42182 0.0001454 -0.0085966 0.9998546 0.0085966 0.9998546 0.0085966 0.0001454 -0.0085966
44113 0.0001366 -0.0082216 0.9998634 0.0082216 0.9998634 0.0082216 0.0001366 -0.0082216
46134 0.0001285 -0.0078629 0.9998715 0.0078629 0.9998715 0.0078629 0.0001285 -0.0078629
48246 0.0001210 -0.0075198 0.9998790 0.0075198 0.9998790 0.0075198 0.0001210 -0.0075198
50455 0.0001140 -0.0071917 0.9998860 0.0071917 0.9998860 0.0071917 0.0001140 -0.0071917
52766 0.0001076 -0.0068778 0.9998924 0.0068778 0.9998924 0.0068778 0.0001076 -0.0068778
55182 0.0001016 -0.0065776 0.9998984 0.0065776 0.9998984 0.0065776 0.0001016 -0.0065776
57709 0.0000961 -0.0062904 0.9999039 0.0062904 0.9999039 0.0062904 0.0000961 -0.0062904
60352 0.0000909 -0.0060157 0.9999091 0.0060157 0.9999091 0.0060157 0.0000909 -0.0060157
63115 0.0000862 -0.0057530 0.9999138 0.0057530 0.9999138 0.0057530 0.0000862 -0.0057530
66005 0.0000818 -0.0055018 0.9999182 0.0055018 0.9999182 0.0055018 0.0000818 -0.0055018
69028 0.0000778 -0.0052614 0.9999222 0.0052614 0.9999222 0.0052614 0.0000778 -0.0052614
72189 0.0000740 -0.0050316 0.9999260 0.0050316 0.9999260 0.0050316 0.0000740 -0.0050316
75495 0.0000705 -0.0048117 0.9999295 0.0048117 0.9999295 0.0048117 0.0000705 -0.0048117
78952 0.0000673 -0.0046014 0.9999327 0.0046014 0.9999327 0.0046014 0.0000673 -0.0046014
82567 0.0000643 -0.0044003 0.9999357 0.0044003 0.9999357 0.0044003 0.0000643 -0.0044003
86348 0.0000615 -0.0042080 0.9999385 0.0042080 0.9999385 0.0042080 0.0000615 -0.0042080
90302 0.0000589 -0.0040240 0.9999411 0.0040240 0.9999411 0.0040240 0.0000589 -0.0040240
94437 0.0000565 -0.0038481 0.9999435 0.0038481 0.9999435 0.0038481 0.0000565 -0.0038481
98762 0.0000542 -0.0036798 0.9999458 0.0036798 0.9999458 0.0036798 0.0000542 -0.0036798
103284 0.0000521 -0.0035188 0.9999479 0.0035188 0.9999479 0.0035188 0.0000521 -0.0035188
108014 0.0000501 -0.0033649 0.9999499 0.0033649 0.9999499 0.0033649 0.0000501 -0.0033649
112960 0.0000483 -0.0032176 0.9999517 0.0032176 0.9999517 0.0032176 0.0000483 -0.0032176
118133 0.0000466 -0.0030768 0.9999534 0.0030768 0.9999534 0.0030768 0.0000466 -0.0030768
123542 0.0000450 -0.0029420 0.9999550 0.0029420 0.9999550 0.0029420 0.0000450 -0.0029420
129199 0.0000435 -0.0028132 0.9999565 0.0028132 0.9999565 0.0028132 0.0000435 -0.0028132
135116 0.0000421 -0.0026899 0.9999579 0.0026899 0.9999579 0.0026899 0.0000421 -0.0026899
141303 0.0000407 -0.0025720 0.9999593 0.0025720 0.9999593 0.0025720 0.0000407 -0.0025720
147774 0.0000395 -0.0024592 0.9999605 0.0024592 0.9999605 0.0024592 0.0000395 -0.0024592
154540 0.0000383 -0.0023513 0.9999617 0.0023513 0.9999617 0.0023513 0.0000383 -0.0023513
161617 0.0000371 -0.0022481 0.9999629 0.0022481 0.9999629 0.0022481 0.0000371 -0.0022481
169018 0.0000361 -0.0021493 0.9999639 0.0021493 0.9999639 0.0021493 0.0000361 -0.0021493
176758 0.0000350 -0.0020548 0.9999650 0.0020548 0.9999650 0.0020548 0.0000350 -0.0020548
184852 0.0000341 -0.0019644 0.9999659 0.0019644 0.9999659 0.0019644 0.0000341 -0.0019644
193316 0.0000332 -0.0018779 0.9999668 0.0018779 0.9999668 0.0018779 0.0000332 -0.0018779
202169 0.0000323 -0.0017951 0.9999677 0.0017951 0.9999677 0.0017951 0.0000323 -0.0017951
211427 0.0000315 -0.0017159 0.9999685 0.0017159 0.9999685 0.0017159 0.0000315 -0.0017159
221108 0.0000307 -0.0016400 0.9999693 0.0016400 0.9999693 0.0016400 0.0000307 -0.0016400
231233 0.0000300 -0.0015675 0.9999700 0.0015675 0.9999700 0.0015675 0.0000300 -0.0015675
241822 0.0000293 -0.0014980 0.9999707 0.0014980 0.9999707 0.0014980 0.0000293 -0.0014980
252896 0.0000286 -0.0014315 0.9999714 0.0014315 0.9999714 0.0014315 0.0000286 -0.0014315
264476 0.0000280 -0.0013679 0.9999720 0.0013679 0.9999720 0.0013679 0.0000280 -0.0013679
276587 0.0000274 -0.0013069 0.9999726 0.0013069 0.9999726 0.0013069 0.0000274 -0.0013069
289253 0.0000269 -0.0012486 0.9999731 0.0012486 0.9999731 0.0012486 0.0000269 -0.0012486
302498 0.0000264 -0.0011927 0.9999736 0.0011927 0.9999736 0.0011927 0.0000264 -0.0011927
316350 0.0000259 -0.0011392 0.9999741 0.0011392 0.9999741 0.0011392 0.0000259 -0.0011392
330837 0.0000255 -0.0010880 0.9999745 0.0010880 0.9999745 0.0010880 0.0000255 -0.0010880
345986 0.0000250 -0.0010389 0.9999750 0.0010389 0.9999750 0.0010389 0.0000250 -0.0010389
361830 0.0000246 -0.0009919 0.9999754 0.0009919 0.9999754 0.0009919 0.0000246 -0.0009919
378399 0.0000243 -0.0009468 0.9999757 0.0009468 0.9999757 0.0009468 0.0000243 -0.0009468
395726 0.0000239 -0.0009037 0.9999761 0.0009037 0.9999761 0.0009037 0.0000239 -0.0009037
413847 0.0000236 -0.0008623 0.9999764 0.0008623 0.9999764 0.0008623 0.0000236 -0.0008623
432798 0.0000234 -0.0008226 0.9999766 0.0008226 0.9999766 0.0008226 0.0000234 -0.0008226
452617 0.0000231 -0.0007846 0.9999769 0.0007846 0.9999769 0.0007846 0.0000231 -0.0007846
473344 0.0000229 -0.0007481 0.9999771 0.0007481 0.9999771 0.0007481 0.0000229 -0.0007481
495019 0.0000227 -0.0007132 0.9999773 0.0007132 0.9999773 0.0007132 0.0000227 -0.0007132
517687 0.0000225 -0.0006796 0.9999775 0.0006796 0.9999775 0.0006796 0.0000225 -0.0006796
541393 0.0000223 -0.0006474 0.9999777 0.0006474 0.9999777 0.0006474 0.0000223 -0.0006474
566185 0.0000222 -0.0006165 0.9999778 0.0006165 0.9999778 0.0006165 0.0000222 -0.0006165
592111 0.0000220 -0.0005868 0.9999780 0.0005868 0.9999780 0.0005868 0.0000220 -0.0005868
619225 0.0000219 -0.0005583 0.9999781 0.0005583 0.9999781 0.0005583 0.0000219 -0.0005583
647581 0.0000218 -0.0005309 0.9999782 0.0005309 0.9999782 0.0005309 0.0000218 -0.0005309
677235 0.0000218 -0.0005045 0.9999782 0.0005045 0.9999782 0.0005045 0.0000218 -0.0005045
708247 0.0000217 -0.0004792 0.9999783 0.0004792 0.9999783 0.0004792 0.0000217 -0.0004792
740679 0.0000217 -0.0004548 0.9999783 0.0004548 0.9999783 0.0004548 0.0000217 -0.0004548
774597 0.0000217 -0.0004313 0.9999783 0.0004313 0.9999783 0.0004313 0.0000217 -0.0004313
810067 0.0000217 -0.0004087 0.9999783 0.0004087 0.9999783 0.0004087 0.0000217 -0.0004087
847162 0.0000217 -0.0003869 0.9999783 0.0003869 0.9999783 0.0003869 0.0000217 -0.0003869
885955 0.0000218 -0.0003658 0.9999782 0.0003658 0.9999782 0.0003658 0.0000218 -0.0003658
926525 0.0000219 -0.0003455 0.9999781 0.0003455 0.9999781 0.0003455 0.0000219 -0.0003455
968953 0.0000220 -0.0003259 0.9999780 0.0003259 0.9999780 0.0003259 0.0000220 -0.0003259
1013323 0.0000221 -0.0003069 0.9999779 0.0003069 0.9999779 0.0003069 0.0000221 -0.0003069
1059725 0.0000222 -0.0002885 0.9999778 0.0002885 0.9999778 0.0002885 0.0000222 -0.0002885
1108252 0.0000224 -0.0002707 0.9999776 0.0002707 0.9999776 0.0002707 0.0000224 -0.0002707
1159002 0.0000226 -0.0002535 0.9999774 0.0002535 0.9999774 0.0002535 0.0000226 -0.0002535
1212075 0.0000228 -0.0002367 0.9999772 0.0002367 0.9999772 0.0002367 0.0000228 -0.0002367
1267578 0.0000230 -0.0002204 0.9999770 0.0002204 0.9999770 0.0002204 0.0000230 -0.0002204
1325623 0.0000233 -0.0002045 0.9999767 0.0002045 0.9999767 0.0002045 0.0000233 -0.0002045
1386327 0.0000237 -0.0001891 0.9999763 0.0001891 0.9999763 0.0001891 0.0000237 -0.0001891
1449809 0.0000240 -0.0001740 0.9999760 0.0001740 0.9999760 0.0001740 0.0000240 -0.0001740
1516199 0.0000244 -0.0001592 0.9999756 0.0001592 0.9999756 0.0001592 0.0000244 -0.0001592
1585629 0.0000249 -0.0001447 0.9999751 0.0001447 0.9999751 0.0001447 0.0000249 -0.0001447
1658239 0.0000254 -0.0001305 0.9999746 0.0001305 0.9999746 0.0001305 0.0000254 -0.0001305
1734173 0.0000259 -0.0001165 0.9999741 0.0001165 0.9999741 0.0001165 0.0000259 -0.0001165
1813585 0.0000266 -0.0001027 0.9999734 0.0001027 0.9999734 0.0001027 0.0000266 -0.0001027
1896632 0.0000272 -0.0000891 0.9999728 0.0000891 0.9999728 0.0000891 0.0000272 -0.0000891
1983483 0.0000280 -0.0000756 0.9999720 0.0000756 0.9999720 0.0000756 0.0000280 -0.0000756
2074311 0.0000289 -0.0000622 0.9999711 0.0000622 0.9999711 0.0000622 0.0000289 -0.0000622
