!Murata Part Number: GRM32QR72E154KW01
!These Parameters are Measured in Series Mode Connection
!Data Generated on Mar 30, 2021
!       o--ll--o
!Port1            Port2
!       o------o
!Operation Temp=25[degC], DC Bias Voltage=0[V]
!Freq. Start=100[kHz] Stop=6[GHz] 401[Steps]
# Hz S RI R 50
!Freq.(Hz) S11(Real) S11(Imag) S21(Real) S21(Imag) S12(Real) S12(Imag) S22(Real) S22(Imag)
100000 0.0142663 -0.1139896 0.9857337 0.1139896 0.9857337 0.1139896 0.0142663 -0.1139896
102789 0.0135515 -0.1109996 0.9864485 0.1109996 0.9864485 0.1109996 0.0135515 -0.1109996
105655 0.0128727 -0.1080839 0.9871273 0.1080839 0.9871273 0.1080839 0.0128727 -0.1080839
108602 0.0122281 -0.1052408 0.9877719 0.1052408 0.9877719 0.1052408 0.0122281 -0.1052408
111630 0.0116162 -0.1024689 0.9883838 0.1024689 0.9883838 0.1024689 0.0116162 -0.1024689
114743 0.0110353 -0.0997667 0.9889647 0.0997667 0.9889647 0.0997667 0.0110353 -0.0997667
117943 0.0104839 -0.0971326 0.9895161 0.0971326 0.9895161 0.0971326 0.0104839 -0.0971326
121232 0.0099604 -0.0945651 0.9900396 0.0945651 0.9900396 0.0945651 0.0099604 -0.0945651
124613 0.0094635 -0.0920628 0.9905365 0.0920628 0.9905365 0.0920628 0.0094635 -0.0920628
128088 0.0089918 -0.0896241 0.9910082 0.0896241 0.9910082 0.0896241 0.0089918 -0.0896241
131660 0.0085442 -0.0872477 0.9914558 0.0872477 0.9914558 0.0872477 0.0085442 -0.0872477
135332 0.0081194 -0.0849322 0.9918806 0.0849322 0.9918806 0.0849322 0.0081194 -0.0849322
139106 0.0077162 -0.0826760 0.9922838 0.0826760 0.9922838 0.0826760 0.0077162 -0.0826760
142985 0.0073336 -0.0804779 0.9926664 0.0804779 0.9926664 0.0804779 0.0073336 -0.0804779
146972 0.0069706 -0.0783365 0.9930294 0.0783365 0.9930294 0.0783365 0.0069706 -0.0783365
151071 0.0066261 -0.0762505 0.9933739 0.0762505 0.9933739 0.0762505 0.0066261 -0.0762505
155284 0.0062992 -0.0742185 0.9937008 0.0742185 0.9937008 0.0742185 0.0062992 -0.0742185
159614 0.0059891 -0.0722392 0.9940109 0.0722392 0.9940109 0.0722392 0.0059891 -0.0722392
164065 0.0056949 -0.0703114 0.9943051 0.0703114 0.9943051 0.0703114 0.0056949 -0.0703114
168641 0.0054157 -0.0684339 0.9945843 0.0684339 0.9945843 0.0684339 0.0054157 -0.0684339
173344 0.0051509 -0.0666054 0.9948491 0.0666054 0.9948491 0.0666054 0.0051509 -0.0666054
178178 0.0048997 -0.0648247 0.9951003 0.0648247 0.9951003 0.0648247 0.0048997 -0.0648247
183146 0.0046613 -0.0630907 0.9953387 0.0630907 0.9953387 0.0630907 0.0046613 -0.0630907
188254 0.0044352 -0.0614022 0.9955648 0.0614022 0.9955648 0.0614022 0.0044352 -0.0614022
193504 0.0042208 -0.0597580 0.9957792 0.0597580 0.9957792 0.0597580 0.0042208 -0.0597580
198900 0.0040173 -0.0581572 0.9959827 0.0581572 0.9959827 0.0581572 0.0040173 -0.0581572
204447 0.0038243 -0.0565985 0.9961757 0.0565985 0.9961757 0.0565985 0.0038243 -0.0565985
210148 0.0036413 -0.0550810 0.9963587 0.0550810 0.9963587 0.0550810 0.0036413 -0.0550810
216008 0.0034676 -0.0536036 0.9965324 0.0536036 0.9965324 0.0536036 0.0034676 -0.0536036
222032 0.0033029 -0.0521653 0.9966971 0.0521653 0.9966971 0.0521653 0.0033029 -0.0521653
228224 0.0031466 -0.0507651 0.9968534 0.0507651 0.9968534 0.0507651 0.0031466 -0.0507651
234589 0.0029983 -0.0494020 0.9970017 0.0494020 0.9970017 0.0494020 0.0029983 -0.0494020
241130 0.0028577 -0.0480751 0.9971423 0.0480751 0.9971423 0.0480751 0.0028577 -0.0480751
247855 0.0027243 -0.0467835 0.9972757 0.0467835 0.9972757 0.0467835 0.0027243 -0.0467835
254767 0.0025977 -0.0455263 0.9974023 0.0455263 0.9974023 0.0455263 0.0025977 -0.0455263
261871 0.0024776 -0.0443025 0.9975224 0.0443025 0.9975224 0.0443025 0.0024776 -0.0443025
269174 0.0023636 -0.0431113 0.9976364 0.0431113 0.9976364 0.0431113 0.0023636 -0.0431113
276681 0.0022554 -0.0419518 0.9977446 0.0419518 0.9977446 0.0419518 0.0022554 -0.0419518
284397 0.0021528 -0.0408234 0.9978472 0.0408234 0.9978472 0.0408234 0.0021528 -0.0408234
292328 0.0020554 -0.0397250 0.9979446 0.0397250 0.9979446 0.0397250 0.0020554 -0.0397250
300480 0.0019630 -0.0386560 0.9980370 0.0386560 0.9980370 0.0386560 0.0019630 -0.0386560
308859 0.0018752 -0.0376155 0.9981248 0.0376155 0.9981248 0.0376155 0.0018752 -0.0376155
317472 0.0017919 -0.0366029 0.9982081 0.0366029 0.9982081 0.0366029 0.0017919 -0.0366029
326326 0.0017128 -0.0356174 0.9982872 0.0356174 0.9982872 0.0356174 0.0017128 -0.0356174
335426 0.0016377 -0.0346583 0.9983623 0.0346583 0.9983623 0.0346583 0.0016377 -0.0346583
344780 0.0015664 -0.0337248 0.9984336 0.0337248 0.9984336 0.0337248 0.0015664 -0.0337248
354395 0.0014987 -0.0328164 0.9985013 0.0328164 0.9985013 0.0328164 0.0014987 -0.0328164
364278 0.0014343 -0.0319323 0.9985657 0.0319323 0.9985657 0.0319323 0.0014343 -0.0319323
374436 0.0013732 -0.0310719 0.9986268 0.0310719 0.9986268 0.0310719 0.0013732 -0.0310719
384878 0.0013151 -0.0302345 0.9986849 0.0302345 0.9986849 0.0302345 0.0013151 -0.0302345
395611 0.0012599 -0.0294196 0.9987401 0.0294196 0.9987401 0.0294196 0.0012599 -0.0294196
406644 0.0012075 -0.0286266 0.9987925 0.0286266 0.9987925 0.0286266 0.0012075 -0.0286266
417984 0.0011577 -0.0278548 0.9988423 0.0278548 0.9988423 0.0278548 0.0011577 -0.0278548
429640 0.0011103 -0.0271038 0.9988897 0.0271038 0.9988897 0.0271038 0.0011103 -0.0271038
441622 0.0010652 -0.0263729 0.9989348 0.0263729 0.9989348 0.0263729 0.0010652 -0.0263729
453937 0.0010224 -0.0256616 0.9989776 0.0256616 0.9989776 0.0256616 0.0010224 -0.0256616
466596 0.0009817 -0.0249693 0.9990183 0.0249693 0.9990183 0.0249693 0.0009817 -0.0249693
479608 0.0009429 -0.0242957 0.9990571 0.0242957 0.9990571 0.0242957 0.0009429 -0.0242957
492983 0.0009061 -0.0236401 0.9990939 0.0236401 0.9990939 0.0236401 0.0009061 -0.0236401
506731 0.0008710 -0.0230021 0.9991290 0.0230021 0.9991290 0.0230021 0.0008710 -0.0230021
520862 0.0008377 -0.0223813 0.9991623 0.0223813 0.9991623 0.0223813 0.0008377 -0.0223813
535387 0.0008059 -0.0217770 0.9991941 0.0217770 0.9991941 0.0217770 0.0008059 -0.0217770
550318 0.0007758 -0.0211890 0.9992242 0.0211890 0.9992242 0.0211890 0.0007758 -0.0211890
565664 0.0007470 -0.0206168 0.9992530 0.0206168 0.9992530 0.0206168 0.0007470 -0.0206168
581439 0.0007197 -0.0200599 0.9992803 0.0200599 0.9992803 0.0200599 0.0007197 -0.0200599
597654 0.0006936 -0.0195180 0.9993064 0.0195180 0.9993064 0.0195180 0.0006936 -0.0195180
614320 0.0006689 -0.0189906 0.9993311 0.0189906 0.9993311 0.0189906 0.0006689 -0.0189906
631452 0.0006453 -0.0184773 0.9993547 0.0184773 0.9993547 0.0184773 0.0006453 -0.0184773
649061 0.0006228 -0.0179778 0.9993772 0.0179778 0.9993772 0.0179778 0.0006228 -0.0179778
667162 0.0006015 -0.0174917 0.9993985 0.0174917 0.9993985 0.0174917 0.0006015 -0.0174917
685767 0.0005811 -0.0170186 0.9994189 0.0170186 0.9994189 0.0170186 0.0005811 -0.0170186
704891 0.0005617 -0.0165582 0.9994383 0.0165582 0.9994383 0.0165582 0.0005617 -0.0165582
724548 0.0005433 -0.0161102 0.9994567 0.0161102 0.9994567 0.0161102 0.0005433 -0.0161102
744754 0.0005257 -0.0156741 0.9994743 0.0156741 0.9994743 0.0156741 0.0005257 -0.0156741
765523 0.0005090 -0.0152498 0.9994910 0.0152498 0.9994910 0.0152498 0.0005090 -0.0152498
786871 0.0004931 -0.0148368 0.9995069 0.0148368 0.9995069 0.0148368 0.0004931 -0.0148368
808814 0.0004780 -0.0144349 0.9995220 0.0144349 0.9995220 0.0144349 0.0004780 -0.0144349
831370 0.0004635 -0.0140437 0.9995365 0.0140437 0.9995365 0.0140437 0.0004635 -0.0140437
854554 0.0004498 -0.0136631 0.9995502 0.0136631 0.9995502 0.0136631 0.0004498 -0.0136631
878385 0.0004367 -0.0132926 0.9995633 0.0132926 0.9995633 0.0132926 0.0004367 -0.0132926
902880 0.0004243 -0.0129321 0.9995757 0.0129321 0.9995757 0.0129321 0.0004243 -0.0129321
928059 0.0004124 -0.0125812 0.9995876 0.0125812 0.9995876 0.0125812 0.0004124 -0.0125812
953940 0.0004011 -0.0122397 0.9995989 0.0122397 0.9995989 0.0122397 0.0004011 -0.0122397
980542 0.0003903 -0.0119074 0.9996097 0.0119074 0.9996097 0.0119074 0.0003903 -0.0119074
1007887 0.0003801 -0.0115840 0.9996199 0.0115840 0.9996199 0.0115840 0.0003801 -0.0115840
1035994 0.0003703 -0.0112692 0.9996297 0.0112692 0.9996297 0.0112692 0.0003703 -0.0112692
1064885 0.0003610 -0.0109628 0.9996390 0.0109628 0.9996390 0.0109628 0.0003610 -0.0109628
1094581 0.0003522 -0.0106647 0.9996478 0.0106647 0.9996478 0.0106647 0.0003522 -0.0106647
1125106 0.0003438 -0.0103745 0.9996562 0.0103745 0.9996562 0.0103745 0.0003438 -0.0103745
1156481 0.0003357 -0.0100921 0.9996643 0.0100921 0.9996643 0.0100921 0.0003357 -0.0100921
1188732 0.0003281 -0.0098173 0.9996719 0.0098173 0.9996719 0.0098173 0.0003281 -0.0098173
1221882 0.0003208 -0.0095498 0.9996792 0.0095498 0.9996792 0.0095498 0.0003208 -0.0095498
1255957 0.0003138 -0.0092895 0.9996862 0.0092895 0.9996862 0.0092895 0.0003138 -0.0092895
1290982 0.0003072 -0.0090361 0.9996928 0.0090361 0.9996928 0.0090361 0.0003072 -0.0090361
1326984 0.0003008 -0.0087895 0.9996992 0.0087895 0.9996992 0.0087895 0.0003008 -0.0087895
1363989 0.0002948 -0.0085494 0.9997052 0.0085494 0.9997052 0.0085494 0.0002948 -0.0085494
1402027 0.0002890 -0.0083158 0.9997110 0.0083158 0.9997110 0.0083158 0.0002890 -0.0083158
1441125 0.0002835 -0.0080884 0.9997165 0.0080884 0.9997165 0.0080884 0.0002835 -0.0080884
1481314 0.0002783 -0.0078671 0.9997217 0.0078671 0.9997217 0.0078671 0.0002783 -0.0078671
1522623 0.0002732 -0.0076517 0.9997268 0.0076517 0.9997268 0.0076517 0.0002732 -0.0076517
1565085 0.0002684 -0.0074420 0.9997316 0.0074420 0.9997316 0.0074420 0.0002684 -0.0074420
1608730 0.0002638 -0.0072379 0.9997362 0.0072379 0.9997362 0.0072379 0.0002638 -0.0072379
1653593 0.0002594 -0.0070392 0.9997406 0.0070392 0.9997406 0.0070392 0.0002594 -0.0070392
1699707 0.0002552 -0.0068458 0.9997448 0.0068458 0.9997448 0.0068458 0.0002552 -0.0068458
1747106 0.0002511 -0.0066575 0.9997489 0.0066575 0.9997489 0.0066575 0.0002511 -0.0066575
1795828 0.0002473 -0.0064742 0.9997527 0.0064742 0.9997527 0.0064742 0.0002473 -0.0064742
1845908 0.0002435 -0.0062958 0.9997565 0.0062958 0.9997565 0.0062958 0.0002435 -0.0062958
1897385 0.0002399 -0.0061221 0.9997601 0.0061221 0.9997601 0.0061221 0.0002399 -0.0061221
1950297 0.0002365 -0.0059529 0.9997635 0.0059529 0.9997635 0.0059529 0.0002365 -0.0059529
2004685 0.0002332 -0.0057883 0.9997668 0.0057883 0.9997668 0.0057883 0.0002332 -0.0057883
2060590 0.0002300 -0.0056279 0.9997700 0.0056279 0.9997700 0.0056279 0.0002300 -0.0056279
2118054 0.0002269 -0.0054718 0.9997731 0.0054718 0.9997731 0.0054718 0.0002269 -0.0054718
2177120 0.0002239 -0.0053198 0.9997761 0.0053198 0.9997761 0.0053198 0.0002239 -0.0053198
2237833 0.0002210 -0.0051717 0.9997790 0.0051717 0.9997790 0.0051717 0.0002210 -0.0051717
2300240 0.0002183 -0.0050275 0.9997817 0.0050275 0.9997817 0.0050275 0.0002183 -0.0050275
2364387 0.0002156 -0.0048871 0.9997844 0.0048871 0.9997844 0.0048871 0.0002156 -0.0048871
2430322 0.0002129 -0.0047503 0.9997871 0.0047503 0.9997871 0.0047503 0.0002129 -0.0047503
2498097 0.0002104 -0.0046171 0.9997896 0.0046171 0.9997896 0.0046171 0.0002104 -0.0046171
2567761 0.0002079 -0.0044873 0.9997921 0.0044873 0.9997921 0.0044873 0.0002079 -0.0044873
2639368 0.0002055 -0.0043609 0.9997945 0.0043609 0.9997945 0.0043609 0.0002055 -0.0043609
2712972 0.0002032 -0.0042377 0.9997968 0.0042377 0.9997968 0.0042377 0.0002032 -0.0042377
2788629 0.0002009 -0.0041176 0.9997991 0.0041176 0.9997991 0.0041176 0.0002009 -0.0041176
2866396 0.0001987 -0.0040006 0.9998013 0.0040006 0.9998013 0.0040006 0.0001987 -0.0040006
2946331 0.0001966 -0.0038866 0.9998034 0.0038866 0.9998034 0.0038866 0.0001966 -0.0038866
3028495 0.0001945 -0.0037755 0.9998055 0.0037755 0.9998055 0.0037755 0.0001945 -0.0037755
3112951 0.0001924 -0.0036672 0.9998076 0.0036672 0.9998076 0.0036672 0.0001924 -0.0036672
3199762 0.0001904 -0.0035616 0.9998096 0.0035616 0.9998096 0.0035616 0.0001904 -0.0035616
3288994 0.0001884 -0.0034587 0.9998116 0.0034587 0.9998116 0.0034587 0.0001884 -0.0034587
3380714 0.0001865 -0.0033583 0.9998135 0.0033583 0.9998135 0.0033583 0.0001865 -0.0033583
3474992 0.0001846 -0.0032603 0.9998154 0.0032603 0.9998154 0.0032603 0.0001846 -0.0032603
3571899 0.0001827 -0.0031648 0.9998173 0.0031648 0.9998173 0.0031648 0.0001827 -0.0031648
3671508 0.0001809 -0.0030716 0.9998191 0.0030716 0.9998191 0.0030716 0.0001809 -0.0030716
3773896 0.0001792 -0.0029807 0.9998208 0.0029807 0.9998208 0.0029807 0.0001792 -0.0029807
3879139 0.0001774 -0.0028920 0.9998226 0.0028920 0.9998226 0.0028920 0.0001774 -0.0028920
3987316 0.0001757 -0.0028054 0.9998243 0.0028054 0.9998243 0.0028054 0.0001757 -0.0028054
4098510 0.0001741 -0.0027208 0.9998259 0.0027208 0.9998259 0.0027208 0.0001741 -0.0027208
4212806 0.0001724 -0.0026383 0.9998276 0.0026383 0.9998276 0.0026383 0.0001724 -0.0026383
4330288 0.0001709 -0.0025577 0.9998291 0.0025577 0.9998291 0.0025577 0.0001709 -0.0025577
4451047 0.0001693 -0.0024789 0.9998307 0.0024789 0.9998307 0.0024789 0.0001693 -0.0024789
4575173 0.0001678 -0.0024020 0.9998322 0.0024020 0.9998322 0.0024020 0.0001678 -0.0024020
4702761 0.0001663 -0.0023268 0.9998337 0.0023268 0.9998337 0.0023268 0.0001663 -0.0023268
4833907 0.0001649 -0.0022533 0.9998351 0.0022533 0.9998351 0.0022533 0.0001649 -0.0022533
4968711 0.0001635 -0.0021815 0.9998365 0.0021815 0.9998365 0.0021815 0.0001635 -0.0021815
5107273 0.0001621 -0.0021112 0.9998379 0.0021112 0.9998379 0.0021112 0.0001621 -0.0021112
5249700 0.0001608 -0.0020425 0.9998392 0.0020425 0.9998392 0.0020425 0.0001608 -0.0020425
5396098 0.0001596 -0.0019752 0.9998404 0.0019752 0.9998404 0.0019752 0.0001596 -0.0019752
5546579 0.0001583 -0.0019094 0.9998417 0.0019094 0.9998417 0.0019094 0.0001583 -0.0019094
5701257 0.0001571 -0.0018450 0.9998429 0.0018450 0.9998429 0.0018450 0.0001571 -0.0018450
5860248 0.0001560 -0.0017819 0.9998440 0.0017819 0.9998440 0.0017819 0.0001560 -0.0017819
6023672 0.0001549 -0.0017201 0.9998451 0.0017201 0.9998451 0.0017201 0.0001549 -0.0017201
6191655 0.0001539 -0.0016595 0.9998461 0.0016595 0.9998461 0.0016595 0.0001539 -0.0016595
6364321 0.0001529 -0.0016002 0.9998471 0.0016002 0.9998471 0.0016002 0.0001529 -0.0016002
6541803 0.0001519 -0.0015420 0.9998481 0.0015420 0.9998481 0.0015420 0.0001519 -0.0015420
6724235 0.0001510 -0.0014849 0.9998490 0.0014849 0.9998490 0.0014849 0.0001510 -0.0014849
6911753 0.0001502 -0.0014288 0.9998498 0.0014288 0.9998498 0.0014288 0.0001502 -0.0014288
7104501 0.0001494 -0.0013738 0.9998506 0.0013738 0.9998506 0.0013738 0.0001494 -0.0013738
7302625 0.0001487 -0.0013198 0.9998513 0.0013198 0.9998513 0.0013198 0.0001487 -0.0013198
7506273 0.0001480 -0.0012668 0.9998520 0.0012668 0.9998520 0.0012668 0.0001480 -0.0012668
7715601 0.0001474 -0.0012146 0.9998526 0.0012146 0.9998526 0.0012146 0.0001474 -0.0012146
7930766 0.0001468 -0.0011633 0.9998532 0.0011633 0.9998532 0.0011633 0.0001468 -0.0011633
8151931 0.0001463 -0.0011129 0.9998537 0.0011129 0.9998537 0.0011129 0.0001463 -0.0011129
8379264 0.0001459 -0.0010632 0.9998541 0.0010632 0.9998541 0.0010632 0.0001459 -0.0010632
8612937 0.0001455 -0.0010143 0.9998545 0.0010143 0.9998545 0.0010143 0.0001455 -0.0010143
8853126 0.0001452 -0.0009662 0.9998548 0.0009662 0.9998548 0.0009662 0.0001452 -0.0009662
9100013 0.0001449 -0.0009187 0.9998551 0.0009187 0.9998551 0.0009187 0.0001449 -0.0009187
9353785 0.0001448 -0.0008719 0.9998552 0.0008719 0.9998552 0.0008719 0.0001448 -0.0008719
9614634 0.0001447 -0.0008256 0.9998553 0.0008256 0.9998553 0.0008256 0.0001447 -0.0008256
9882758 0.0001446 -0.0007800 0.9998554 0.0007800 0.9998554 0.0007800 0.0001446 -0.0007800
10158358 0.0001447 -0.0007349 0.9998553 0.0007349 0.9998553 0.0007349 0.0001447 -0.0007349
10441645 0.0001448 -0.0006904 0.9998552 0.0006904 0.9998552 0.0006904 0.0001448 -0.0006904
10732831 0.0001450 -0.0006463 0.9998550 0.0006463 0.9998550 0.0006463 0.0001450 -0.0006463
11032137 0.0001453 -0.0006026 0.9998547 0.0006026 0.9998547 0.0006026 0.0001453 -0.0006026
11339791 0.0001457 -0.0005594 0.9998543 0.0005594 0.9998543 0.0005594 0.0001457 -0.0005594
11656024 0.0001462 -0.0005166 0.9998538 0.0005166 0.9998538 0.0005166 0.0001462 -0.0005166
11981075 0.0001468 -0.0004741 0.9998532 0.0004741 0.9998532 0.0004741 0.0001468 -0.0004741
12315192 0.0001475 -0.0004319 0.9998525 0.0004319 0.9998525 0.0004319 0.0001475 -0.0004319
12658625 0.0001483 -0.0003900 0.9998517 0.0003900 0.9998517 0.0003900 0.0001483 -0.0003900
13011637 0.0001492 -0.0003483 0.9998508 0.0003483 0.9998508 0.0003483 0.0001492 -0.0003483
13374492 0.0001502 -0.0003069 0.9998498 0.0003069 0.9998498 0.0003069 0.0001502 -0.0003069
13747467 0.0001513 -0.0002656 0.9998487 0.0002656 0.9998487 0.0002656 0.0001513 -0.0002656
14130843 0.0001526 -0.0002245 0.9998474 0.0002245 0.9998474 0.0002245 0.0001526 -0.0002245
14524910 0.0001540 -0.0001835 0.9998460 0.0001835 0.9998460 0.0001835 0.0001540 -0.0001835
14929966 0.0001556 -0.0001426 0.9998444 0.0001426 0.9998444 0.0001426 0.0001556 -0.0001426
15346318 0.0001573 -0.0001018 0.9998427 0.0001018 0.9998427 0.0001018 0.0001573 -0.0001018
15774281 0.0001592 -0.0000609 0.9998408 0.0000609 0.9998408 0.0000609 0.0001592 -0.0000609
16214179 0.0001613 -0.0000201 0.9998387 0.0000201 0.9998387 0.0000201 0.0001613 -0.0000201
16666344 0.0001636 0.0000209 0.9998364 -0.0000209 0.9998364 -0.0000209 0.0001636 0.0000209
17131118 0.0001661 0.0000619 0.9998339 -0.0000619 0.9998339 -0.0000619 0.0001661 0.0000619
17608854 0.0001688 0.0001030 0.9998312 -0.0001030 0.9998312 -0.0001030 0.0001688 0.0001030
18099912 0.0001718 0.0001444 0.9998282 -0.0001444 0.9998282 -0.0001444 0.0001718 0.0001444
18604665 0.0001751 0.0001859 0.9998249 -0.0001859 0.9998249 -0.0001859 0.0001751 0.0001859
19123493 0.0001787 0.0002277 0.9998213 -0.0002277 0.9998213 -0.0002277 0.0001787 0.0002277
19656790 0.0001826 0.0002698 0.9998174 -0.0002698 0.9998174 -0.0002698 0.0001826 0.0002698
20204959 0.0001869 0.0003122 0.9998131 -0.0003122 0.9998131 -0.0003122 0.0001869 0.0003122
20768415 0.0001916 0.0003550 0.9998084 -0.0003550 0.9998084 -0.0003550 0.0001916 0.0003550
21347584 0.0001967 0.0003982 0.9998033 -0.0003982 0.9998033 -0.0003982 0.0001967 0.0003982
21942904 0.0002024 0.0004418 0.9997976 -0.0004418 0.9997976 -0.0004418 0.0002024 0.0004418
22554827 0.0002087 0.0004860 0.9997913 -0.0004860 0.9997913 -0.0004860 0.0002087 0.0004860
23183813 0.0002156 0.0005307 0.9997844 -0.0005307 0.9997844 -0.0005307 0.0002156 0.0005307
23830340 0.0002234 0.0005760 0.9997766 -0.0005760 0.9997766 -0.0005760 0.0002234 0.0005760
24494897 0.0002320 0.0006219 0.9997680 -0.0006219 0.9997680 -0.0006219 0.0002320 0.0006219
25177987 0.0002416 0.0006684 0.9997584 -0.0006684 0.9997584 -0.0006684 0.0002416 0.0006684
25880126 0.0002524 0.0007156 0.9997476 -0.0007156 0.9997476 -0.0007156 0.0002524 0.0007156
26601845 0.0002646 0.0007635 0.9997354 -0.0007635 0.9997354 -0.0007635 0.0002646 0.0007635
27343691 0.0002784 0.0008119 0.9997216 -0.0008119 0.9997216 -0.0008119 0.0002784 0.0008119
28106225 0.0002941 0.0008608 0.9997059 -0.0008608 0.9997059 -0.0008608 0.0002941 0.0008608
28890023 0.0003120 0.0009101 0.9996880 -0.0009101 0.9996880 -0.0009101 0.0003120 0.0009101
29695680 0.0003326 0.0009595 0.9996674 -0.0009595 0.9996674 -0.0009595 0.0003326 0.0009595
30523804 0.0003561 0.0010084 0.9996439 -0.0010084 0.9996439 -0.0010084 0.0003561 0.0010084
31375021 0.0003831 0.0010563 0.9996169 -0.0010563 0.9996169 -0.0010563 0.0003831 0.0010563
32249977 0.0004137 0.0011022 0.9995863 -0.0011022 0.9995863 -0.0011022 0.0004137 0.0011022
33149332 0.0004481 0.0011448 0.9995519 -0.0011448 0.9995519 -0.0011448 0.0004481 0.0011448
34073768 0.0004858 0.0011824 0.9995142 -0.0011824 0.9995142 -0.0011824 0.0004858 0.0011824
35023984 0.0005254 0.0012131 0.9994746 -0.0012131 0.9994746 -0.0012131 0.0005254 0.0012131
36000698 0.0005647 0.0012355 0.9994353 -0.0012355 0.9994353 -0.0012355 0.0005647 0.0012355
37004650 0.0006000 0.0012490 0.9994000 -0.0012490 0.9994000 -0.0012490 0.0006000 0.0012490
38036599 0.0006273 0.0012550 0.9993727 -0.0012550 0.9993727 -0.0012550 0.0006273 0.0012550
39097326 0.0006434 0.0012571 0.9993566 -0.0012571 0.9993566 -0.0012571 0.0006434 0.0012571
