!Murata Part Number: GRM32DR73A223KW01
!These Parameters are Measured in Series Mode Connection
!Data Generated on Mar 30, 2021
!       o--ll--o
!Port1            Port2
!       o------o
!Operation Temp=25[degC], DC Bias Voltage=0[V]
!Freq. Start=100[kHz] Stop=6[GHz] 401[Steps]
# Hz S RI R 50
!Freq.(Hz) S11(Real) S11(Imag) S21(Real) S21(Imag) S12(Real) S12(Imag) S22(Real) S22(Imag)
100000 0.3701139 -0.4777165 0.6298861 0.4777165 0.6298861 0.4777165 0.3701139 -0.4777165
102789 0.3576045 -0.4741805 0.6423955 0.4741805 0.6423955 0.4741805 0.3576045 -0.4741805
105655 0.3452855 -0.4703516 0.6547145 0.4703516 0.6547145 0.4703516 0.3452855 -0.4703516
108602 0.3331702 -0.4662419 0.6668298 0.4662419 0.6668298 0.4662419 0.3331702 -0.4662419
111630 0.3212710 -0.4618646 0.6787290 0.4618646 0.6787290 0.4618646 0.3212710 -0.4618646
114743 0.3095991 -0.4572333 0.6904009 0.4572333 0.6904009 0.4572333 0.3095991 -0.4572333
117943 0.2981649 -0.4523620 0.7018351 0.4523620 0.7018351 0.4523620 0.2981649 -0.4523620
121232 0.2869775 -0.4472652 0.7130225 0.4472652 0.7130225 0.4472652 0.2869775 -0.4472652
124613 0.2760450 -0.4419576 0.7239550 0.4419576 0.7239550 0.4419576 0.2760450 -0.4419576
128088 0.2653743 -0.4364543 0.7346257 0.4364543 0.7346257 0.4364543 0.2653743 -0.4364543
131660 0.2549716 -0.4307702 0.7450284 0.4307702 0.7450284 0.4307702 0.2549716 -0.4307702
135332 0.2448415 -0.4249205 0.7551585 0.4249205 0.7551585 0.4249205 0.2448415 -0.4249205
139106 0.2349880 -0.4189202 0.7650120 0.4189202 0.7650120 0.4189202 0.2349880 -0.4189202
142985 0.2254139 -0.4127842 0.7745861 0.4127842 0.7745861 0.4127842 0.2254139 -0.4127842
146972 0.2161211 -0.4065272 0.7838789 0.4065272 0.7838789 0.4065272 0.2161211 -0.4065272
151071 0.2071106 -0.4001636 0.7928894 0.4001636 0.7928894 0.4001636 0.2071106 -0.4001636
155284 0.1983824 -0.3937075 0.8016176 0.3937075 0.8016176 0.3937075 0.1983824 -0.3937075
159614 0.1899359 -0.3871726 0.8100641 0.3871726 0.8100641 0.3871726 0.1899359 -0.3871726
164065 0.1817696 -0.3805723 0.8182304 0.3805723 0.8182304 0.3805723 0.1817696 -0.3805723
168641 0.1738813 -0.3739193 0.8261187 0.3739193 0.8261187 0.3739193 0.1738813 -0.3739193
173344 0.1662682 -0.3672260 0.8337318 0.3672260 0.8337318 0.3672260 0.1662682 -0.3672260
178178 0.1589268 -0.3605043 0.8410732 0.3605043 0.8410732 0.3605043 0.1589268 -0.3605043
183146 0.1518532 -0.3537654 0.8481468 0.3537654 0.8481468 0.3537654 0.1518532 -0.3537654
188254 0.1450429 -0.3470200 0.8549571 0.3470200 0.8549571 0.3470200 0.1450429 -0.3470200
193504 0.1384910 -0.3402782 0.8615090 0.3402782 0.8615090 0.3402782 0.1384910 -0.3402782
198900 0.1321923 -0.3335497 0.8678077 0.3335497 0.8678077 0.3335497 0.1321923 -0.3335497
204447 0.1261410 -0.3268435 0.8738590 0.3268435 0.8738590 0.3268435 0.1261410 -0.3268435
210148 0.1203314 -0.3201678 0.8796686 0.3201678 0.8796686 0.3201678 0.1203314 -0.3201678
216008 0.1147573 -0.3135307 0.8852427 0.3135307 0.8852427 0.3135307 0.1147573 -0.3135307
222032 0.1094125 -0.3069393 0.8905875 0.3069393 0.8905875 0.3069393 0.1094125 -0.3069393
228224 0.1042903 -0.3004004 0.8957097 0.3004004 0.8957097 0.3004004 0.1042903 -0.3004004
234589 0.0993844 -0.2939202 0.9006156 0.2939202 0.9006156 0.2939202 0.0993844 -0.2939202
241130 0.0946880 -0.2875044 0.9053120 0.2875044 0.9053120 0.2875044 0.0946880 -0.2875044
247855 0.0901943 -0.2811580 0.9098057 0.2811580 0.9098057 0.2811580 0.0901943 -0.2811580
254767 0.0858969 -0.2748859 0.9141031 0.2748859 0.9141031 0.2748859 0.0858969 -0.2748859
261871 0.0817888 -0.2686921 0.9182112 0.2686921 0.9182112 0.2686921 0.0817888 -0.2686921
269174 0.0778635 -0.2625806 0.9221365 0.2625806 0.9221365 0.2625806 0.0778635 -0.2625806
276681 0.0741143 -0.2565545 0.9258857 0.2565545 0.9258857 0.2565545 0.0741143 -0.2565545
284397 0.0705348 -0.2506169 0.9294652 0.2506169 0.9294652 0.2506169 0.0705348 -0.2506169
292328 0.0671185 -0.2447703 0.9328815 0.2447703 0.9328815 0.2447703 0.0671185 -0.2447703
300480 0.0638591 -0.2390169 0.9361409 0.2390169 0.9361409 0.2390169 0.0638591 -0.2390169
308859 0.0607504 -0.2333586 0.9392496 0.2333586 0.9392496 0.2333586 0.0607504 -0.2333586
317472 0.0577863 -0.2277969 0.9422137 0.2277969 0.9422137 0.2277969 0.0577863 -0.2277969
326326 0.0549610 -0.2223330 0.9450390 0.2223330 0.9450390 0.2223330 0.0549610 -0.2223330
335426 0.0522686 -0.2169679 0.9477314 0.2169679 0.9477314 0.2169679 0.0522686 -0.2169679
344780 0.0497036 -0.2117023 0.9502964 0.2117023 0.9502964 0.2117023 0.0497036 -0.2117023
354395 0.0472606 -0.2065367 0.9527394 0.2065367 0.9527394 0.2065367 0.0472606 -0.2065367
364278 0.0449342 -0.2014713 0.9550658 0.2014713 0.9550658 0.2014713 0.0449342 -0.2014713
374436 0.0427193 -0.1965062 0.9572807 0.1965062 0.9572807 0.1965062 0.0427193 -0.1965062
384878 0.0406111 -0.1916412 0.9593889 0.1916412 0.9593889 0.1916412 0.0406111 -0.1916412
395611 0.0386048 -0.1868760 0.9613952 0.1868760 0.9613952 0.1868760 0.0386048 -0.1868760
406644 0.0366957 -0.1822102 0.9633043 0.1822102 0.9633043 0.1822102 0.0366957 -0.1822102
417984 0.0348795 -0.1776430 0.9651205 0.1776430 0.9651205 0.1776430 0.0348795 -0.1776430
429640 0.0331519 -0.1731739 0.9668481 0.1731739 0.9668481 0.1731739 0.0331519 -0.1731739
441622 0.0315088 -0.1688019 0.9684912 0.1688019 0.9684912 0.1688019 0.0315088 -0.1688019
453937 0.0299464 -0.1645260 0.9700536 0.1645260 0.9700536 0.1645260 0.0299464 -0.1645260
466596 0.0284607 -0.1603453 0.9715393 0.1603453 0.9715393 0.1603453 0.0284607 -0.1603453
479608 0.0270483 -0.1562586 0.9729517 0.1562586 0.9729517 0.1562586 0.0270483 -0.1562586
492983 0.0257056 -0.1522646 0.9742944 0.1522646 0.9742944 0.1522646 0.0257056 -0.1522646
506731 0.0244294 -0.1483622 0.9755706 0.1483622 0.9755706 0.1483622 0.0244294 -0.1483622
520862 0.0232165 -0.1445500 0.9767835 0.1445500 0.9767835 0.1445500 0.0232165 -0.1445500
535387 0.0220638 -0.1408266 0.9779362 0.1408266 0.9779362 0.1408266 0.0220638 -0.1408266
550318 0.0209685 -0.1371907 0.9790315 0.1371907 0.9790315 0.1371907 0.0209685 -0.1371907
565664 0.0199279 -0.1336407 0.9800721 0.1336407 0.9800721 0.1336407 0.0199279 -0.1336407
581439 0.0189391 -0.1301752 0.9810609 0.1301752 0.9810609 0.1301752 0.0189391 -0.1301752
597654 0.0179999 -0.1267928 0.9820001 0.1267928 0.9820001 0.1267928 0.0179999 -0.1267928
614320 0.0171077 -0.1234919 0.9828923 0.1234919 0.9828923 0.1234919 0.0171077 -0.1234919
631452 0.0162602 -0.1202711 0.9837398 0.1202711 0.9837398 0.1202711 0.0162602 -0.1202711
649061 0.0154553 -0.1171287 0.9845447 0.1171287 0.9845447 0.1171287 0.0154553 -0.1171287
667162 0.0146909 -0.1140633 0.9853091 0.1140633 0.9853091 0.1140633 0.0146909 -0.1140633
685767 0.0139650 -0.1110733 0.9860350 0.1110733 0.9860350 0.1110733 0.0139650 -0.1110733
704891 0.0132758 -0.1081573 0.9867242 0.1081573 0.9867242 0.1081573 0.0132758 -0.1081573
724548 0.0126213 -0.1053137 0.9873787 0.1053137 0.9873787 0.1053137 0.0126213 -0.1053137
744754 0.0119999 -0.1025409 0.9880001 0.1025409 0.9880001 0.1025409 0.0119999 -0.1025409
765523 0.0114100 -0.0998376 0.9885900 0.0998376 0.9885900 0.0998376 0.0114100 -0.0998376
786871 0.0108501 -0.0972021 0.9891499 0.0972021 0.9891499 0.0972021 0.0108501 -0.0972021
808814 0.0103185 -0.0946331 0.9896815 0.0946331 0.9896815 0.0946331 0.0103185 -0.0946331
831370 0.0098140 -0.0921291 0.9901860 0.0921291 0.9901860 0.0921291 0.0098140 -0.0921291
854554 0.0093351 -0.0896886 0.9906649 0.0896886 0.9906649 0.0896886 0.0093351 -0.0896886
878385 0.0088806 -0.0873103 0.9911194 0.0873103 0.9911194 0.0873103 0.0088806 -0.0873103
902880 0.0084494 -0.0849926 0.9915506 0.0849926 0.9915506 0.0849926 0.0084494 -0.0849926
928059 0.0080401 -0.0827343 0.9919599 0.0827343 0.9919599 0.0827343 0.0080401 -0.0827343
953940 0.0076517 -0.0805339 0.9923483 0.0805339 0.9923483 0.0805339 0.0076517 -0.0805339
980542 0.0072833 -0.0783901 0.9927167 0.0783901 0.9927167 0.0783901 0.0072833 -0.0783901
1007887 0.0069336 -0.0763016 0.9930664 0.0763016 0.9930664 0.0763016 0.0069336 -0.0763016
1035994 0.0066019 -0.0742671 0.9933981 0.0742671 0.9933981 0.0742671 0.0066019 -0.0742671
1064885 0.0062873 -0.0722853 0.9937127 0.0722853 0.9937127 0.0722853 0.0062873 -0.0722853
1094581 0.0059887 -0.0703550 0.9940113 0.0703550 0.9940113 0.0703550 0.0059887 -0.0703550
1125106 0.0057055 -0.0684748 0.9942945 0.0684748 0.9942945 0.0684748 0.0057055 -0.0684748
1156481 0.0054369 -0.0666437 0.9945631 0.0666437 0.9945631 0.0666437 0.0054369 -0.0666437
1188732 0.0051821 -0.0648604 0.9948179 0.0648604 0.9948179 0.0648604 0.0051821 -0.0648604
1221882 0.0049404 -0.0631237 0.9950596 0.0631237 0.9950596 0.0631237 0.0049404 -0.0631237
1255957 0.0047111 -0.0614325 0.9952889 0.0614325 0.9952889 0.0614325 0.0047111 -0.0614325
1290982 0.0044936 -0.0597857 0.9955064 0.0597857 0.9955064 0.0597857 0.0044936 -0.0597857
1326984 0.0042874 -0.0581822 0.9957126 0.0581822 0.9957126 0.0581822 0.0042874 -0.0581822
1363989 0.0040917 -0.0566209 0.9959083 0.0566209 0.9959083 0.0566209 0.0040917 -0.0566209
1402027 0.0039061 -0.0551007 0.9960939 0.0551007 0.9960939 0.0551007 0.0039061 -0.0551007
1441125 0.0037301 -0.0536207 0.9962699 0.0536207 0.9962699 0.0536207 0.0037301 -0.0536207
1481314 0.0035631 -0.0521797 0.9964369 0.0521797 0.9964369 0.0521797 0.0035631 -0.0521797
1522623 0.0034047 -0.0507769 0.9965953 0.0507769 0.9965953 0.0507769 0.0034047 -0.0507769
1565085 0.0032545 -0.0494112 0.9967455 0.0494112 0.9967455 0.0494112 0.0032545 -0.0494112
1608730 0.0031119 -0.0480817 0.9968881 0.0480817 0.9968881 0.0480817 0.0031119 -0.0480817
1653593 0.0029767 -0.0467874 0.9970233 0.0467874 0.9970233 0.0467874 0.0029767 -0.0467874
1699707 0.0028484 -0.0455276 0.9971516 0.0455276 0.9971516 0.0455276 0.0028484 -0.0455276
1747106 0.0027266 -0.0443012 0.9972734 0.0443012 0.9972734 0.0443012 0.0027266 -0.0443012
1795828 0.0026111 -0.0431074 0.9973889 0.0431074 0.9973889 0.0431074 0.0026111 -0.0431074
1845908 0.0025014 -0.0419454 0.9974986 0.0419454 0.9974986 0.0419454 0.0025014 -0.0419454
1897385 0.0023973 -0.0408143 0.9976027 0.0408143 0.9976027 0.0408143 0.0023973 -0.0408143
1950297 0.0022985 -0.0397134 0.9977015 0.0397134 0.9977015 0.0397134 0.0022985 -0.0397134
2004685 0.0022047 -0.0386417 0.9977953 0.0386417 0.9977953 0.0386417 0.0022047 -0.0386417
2060590 0.0021156 -0.0375987 0.9978844 0.0375987 0.9978844 0.0375987 0.0021156 -0.0375987
2118054 0.0020310 -0.0365835 0.9979690 0.0365835 0.9979690 0.0365835 0.0020310 -0.0365835
2177120 0.0019506 -0.0355954 0.9980494 0.0355954 0.9980494 0.0355954 0.0019506 -0.0355954
2237833 0.0018742 -0.0346336 0.9981258 0.0346336 0.9981258 0.0346336 0.0018742 -0.0346336
2300240 0.0018016 -0.0336975 0.9981984 0.0336975 0.9981984 0.0336975 0.0018016 -0.0336975
2364387 0.0017326 -0.0327864 0.9982674 0.0327864 0.9982674 0.0327864 0.0017326 -0.0327864
2430322 0.0016670 -0.0318996 0.9983330 0.0318996 0.9983330 0.0318996 0.0016670 -0.0318996
2498097 0.0016046 -0.0310364 0.9983954 0.0310364 0.9983954 0.0310364 0.0016046 -0.0310364
2567761 0.0015453 -0.0301963 0.9984547 0.0301963 0.9984547 0.0301963 0.0015453 -0.0301963
2639368 0.0014888 -0.0293786 0.9985112 0.0293786 0.9985112 0.0293786 0.0014888 -0.0293786
2712972 0.0014351 -0.0285827 0.9985649 0.0285827 0.9985649 0.0285827 0.0014351 -0.0285827
2788629 0.0013839 -0.0278080 0.9986161 0.0278080 0.9986161 0.0278080 0.0013839 -0.0278080
2866396 0.0013351 -0.0270540 0.9986649 0.0270540 0.9986649 0.0270540 0.0013351 -0.0270540
2946331 0.0012887 -0.0263200 0.9987113 0.0263200 0.9987113 0.0263200 0.0012887 -0.0263200
3028495 0.0012444 -0.0256056 0.9987556 0.0256056 0.9987556 0.0256056 0.0012444 -0.0256056
3112951 0.0012022 -0.0249102 0.9987978 0.0249102 0.9987978 0.0249102 0.0012022 -0.0249102
3199762 0.0011620 -0.0242333 0.9988380 0.0242333 0.9988380 0.0242333 0.0011620 -0.0242333
3288994 0.0011236 -0.0235743 0.9988764 0.0235743 0.9988764 0.0235743 0.0011236 -0.0235743
3380714 0.0010870 -0.0229328 0.9989130 0.0229328 0.9989130 0.0229328 0.0010870 -0.0229328
3474992 0.0010520 -0.0223084 0.9989480 0.0223084 0.9989480 0.0223084 0.0010520 -0.0223084
3571899 0.0010186 -0.0217004 0.9989814 0.0217004 0.9989814 0.0217004 0.0010186 -0.0217004
3671508 0.0009867 -0.0211086 0.9990133 0.0211086 0.9990133 0.0211086 0.0009867 -0.0211086
3773896 0.0009562 -0.0205324 0.9990438 0.0205324 0.9990438 0.0205324 0.0009562 -0.0205324
3879139 0.0009270 -0.0199714 0.9990730 0.0199714 0.9990730 0.0199714 0.0009270 -0.0199714
3987316 0.0008992 -0.0194252 0.9991008 0.0194252 0.9991008 0.0194252 0.0008992 -0.0194252
4098510 0.0008725 -0.0188933 0.9991275 0.0188933 0.9991275 0.0188933 0.0008725 -0.0188933
4212806 0.0008470 -0.0183755 0.9991530 0.0183755 0.9991530 0.0183755 0.0008470 -0.0183755
4330288 0.0008226 -0.0178712 0.9991774 0.0178712 0.9991774 0.0178712 0.0008226 -0.0178712
4451047 0.0007992 -0.0173801 0.9992008 0.0173801 0.9992008 0.0173801 0.0007992 -0.0173801
4575173 0.0007768 -0.0169019 0.9992232 0.0169019 0.9992232 0.0169019 0.0007768 -0.0169019
4702761 0.0007554 -0.0164362 0.9992446 0.0164362 0.9992446 0.0164362 0.0007554 -0.0164362
4833907 0.0007349 -0.0159826 0.9992651 0.0159826 0.9992651 0.0159826 0.0007349 -0.0159826
4968711 0.0007152 -0.0155408 0.9992848 0.0155408 0.9992848 0.0155408 0.0007152 -0.0155408
5107273 0.0006963 -0.0151105 0.9993037 0.0151105 0.9993037 0.0151105 0.0006963 -0.0151105
5249700 0.0006783 -0.0146913 0.9993217 0.0146913 0.9993217 0.0146913 0.0006783 -0.0146913
5396098 0.0006610 -0.0142830 0.9993390 0.0142830 0.9993390 0.0142830 0.0006610 -0.0142830
5546579 0.0006444 -0.0138852 0.9993556 0.0138852 0.9993556 0.0138852 0.0006444 -0.0138852
5701257 0.0006284 -0.0134977 0.9993716 0.0134977 0.9993716 0.0134977 0.0006284 -0.0134977
5860248 0.0006132 -0.0131201 0.9993868 0.0131201 0.9993868 0.0131201 0.0006132 -0.0131201
6023672 0.0005986 -0.0127521 0.9994014 0.0127521 0.9994014 0.0127521 0.0005986 -0.0127521
6191655 0.0005845 -0.0123936 0.9994155 0.0123936 0.9994155 0.0123936 0.0005845 -0.0123936
6364321 0.0005711 -0.0120442 0.9994289 0.0120442 0.9994289 0.0120442 0.0005711 -0.0120442
6541803 0.0005582 -0.0117037 0.9994418 0.0117037 0.9994418 0.0117037 0.0005582 -0.0117037
6724235 0.0005458 -0.0113718 0.9994542 0.0113718 0.9994542 0.0113718 0.0005458 -0.0113718
6911753 0.0005339 -0.0110483 0.9994661 0.0110483 0.9994661 0.0110483 0.0005339 -0.0110483
7104501 0.0005226 -0.0107329 0.9994774 0.0107329 0.9994774 0.0107329 0.0005226 -0.0107329
7302625 0.0005116 -0.0104255 0.9994884 0.0104255 0.9994884 0.0104255 0.0005116 -0.0104255
7506273 0.0005012 -0.0101257 0.9994988 0.0101257 0.9994988 0.0101257 0.0005012 -0.0101257
7715601 0.0004911 -0.0098334 0.9995089 0.0098334 0.9995089 0.0098334 0.0004911 -0.0098334
7930766 0.0004815 -0.0095483 0.9995185 0.0095483 0.9995185 0.0095483 0.0004815 -0.0095483
8151931 0.0004723 -0.0092703 0.9995277 0.0092703 0.9995277 0.0092703 0.0004723 -0.0092703
8379264 0.0004634 -0.0089991 0.9995366 0.0089991 0.9995366 0.0089991 0.0004634 -0.0089991
8612937 0.0004549 -0.0087345 0.9995451 0.0087345 0.9995451 0.0087345 0.0004549 -0.0087345
8853126 0.0004468 -0.0084764 0.9995532 0.0084764 0.9995532 0.0084764 0.0004468 -0.0084764
9100013 0.0004390 -0.0082245 0.9995610 0.0082245 0.9995610 0.0082245 0.0004390 -0.0082245
9353785 0.0004315 -0.0079786 0.9995685 0.0079786 0.9995685 0.0079786 0.0004315 -0.0079786
9614634 0.0004243 -0.0077387 0.9995757 0.0077387 0.9995757 0.0077387 0.0004243 -0.0077387
9882758 0.0004174 -0.0075044 0.9995826 0.0075044 0.9995826 0.0075044 0.0004174 -0.0075044
10158358 0.0004108 -0.0072757 0.9995892 0.0072757 0.9995892 0.0072757 0.0004108 -0.0072757
10441645 0.0004045 -0.0070524 0.9995955 0.0070524 0.9995955 0.0070524 0.0004045 -0.0070524
10732831 0.0003984 -0.0068342 0.9996016 0.0068342 0.9996016 0.0068342 0.0003984 -0.0068342
11032137 0.0003926 -0.0066211 0.9996074 0.0066211 0.9996074 0.0066211 0.0003926 -0.0066211
11339791 0.0003870 -0.0064128 0.9996130 0.0064128 0.9996130 0.0064128 0.0003870 -0.0064128
11656024 0.0003817 -0.0062093 0.9996183 0.0062093 0.9996183 0.0062093 0.0003817 -0.0062093
11981075 0.0003766 -0.0060103 0.9996234 0.0060103 0.9996234 0.0060103 0.0003766 -0.0060103
12315192 0.0003717 -0.0058157 0.9996283 0.0058157 0.9996283 0.0058157 0.0003717 -0.0058157
12658625 0.0003670 -0.0056254 0.9996330 0.0056254 0.9996330 0.0056254 0.0003670 -0.0056254
13011637 0.0003625 -0.0054392 0.9996375 0.0054392 0.9996375 0.0054392 0.0003625 -0.0054392
13374492 0.0003582 -0.0052571 0.9996418 0.0052571 0.9996418 0.0052571 0.0003582 -0.0052571
13747467 0.0003541 -0.0050788 0.9996459 0.0050788 0.9996459 0.0050788 0.0003541 -0.0050788
14130843 0.0003502 -0.0049041 0.9996498 0.0049041 0.9996498 0.0049041 0.0003502 -0.0049041
14524910 0.0003465 -0.0047331 0.9996535 0.0047331 0.9996535 0.0047331 0.0003465 -0.0047331
14929966 0.0003429 -0.0045656 0.9996571 0.0045656 0.9996571 0.0045656 0.0003429 -0.0045656
15346318 0.0003396 -0.0044014 0.9996604 0.0044014 0.9996604 0.0044014 0.0003396 -0.0044014
15774281 0.0003364 -0.0042403 0.9996636 0.0042403 0.9996636 0.0042403 0.0003364 -0.0042403
16214179 0.0003333 -0.0040824 0.9996667 0.0040824 0.9996667 0.0040824 0.0003333 -0.0040824
16666344 0.0003305 -0.0039275 0.9996695 0.0039275 0.9996695 0.0039275 0.0003305 -0.0039275
17131118 0.0003278 -0.0037753 0.9996722 0.0037753 0.9996722 0.0037753 0.0003278 -0.0037753
17608854 0.0003253 -0.0036260 0.9996747 0.0036260 0.9996747 0.0036260 0.0003253 -0.0036260
18099912 0.0003230 -0.0034792 0.9996770 0.0034792 0.9996770 0.0034792 0.0003230 -0.0034792
18604665 0.0003208 -0.0033350 0.9996792 0.0033350 0.9996792 0.0033350 0.0003208 -0.0033350
19123493 0.0003188 -0.0031932 0.9996812 0.0031932 0.9996812 0.0031932 0.0003188 -0.0031932
19656790 0.0003169 -0.0030536 0.9996831 0.0030536 0.9996831 0.0030536 0.0003169 -0.0030536
20204959 0.0003153 -0.0029163 0.9996847 0.0029163 0.9996847 0.0029163 0.0003153 -0.0029163
20768415 0.0003138 -0.0027810 0.9996862 0.0027810 0.9996862 0.0027810 0.0003138 -0.0027810
21347584 0.0003125 -0.0026477 0.9996875 0.0026477 0.9996875 0.0026477 0.0003125 -0.0026477
21942904 0.0003114 -0.0025163 0.9996886 0.0025163 0.9996886 0.0025163 0.0003114 -0.0025163
22554827 0.0003104 -0.0023866 0.9996896 0.0023866 0.9996896 0.0023866 0.0003104 -0.0023866
23183813 0.0003097 -0.0022587 0.9996903 0.0022587 0.9996903 0.0022587 0.0003097 -0.0022587
23830340 0.0003091 -0.0021323 0.9996909 0.0021323 0.9996909 0.0021323 0.0003091 -0.0021323
24494897 0.0003088 -0.0020074 0.9996912 0.0020074 0.9996912 0.0020074 0.0003088 -0.0020074
25177987 0.0003086 -0.0018839 0.9996914 0.0018839 0.9996914 0.0018839 0.0003086 -0.0018839
25880126 0.0003087 -0.0017616 0.9996913 0.0017616 0.9996913 0.0017616 0.0003087 -0.0017616
26601845 0.0003090 -0.0016406 0.9996910 0.0016406 0.9996910 0.0016406 0.0003090 -0.0016406
27343691 0.0003095 -0.0015206 0.9996905 0.0015206 0.9996905 0.0015206 0.0003095 -0.0015206
28106225 0.0003103 -0.0014017 0.9996897 0.0014017 0.9996897 0.0014017 0.0003103 -0.0014017
28890023 0.0003113 -0.0012836 0.9996887 0.0012836 0.9996887 0.0012836 0.0003113 -0.0012836
29695680 0.0003126 -0.0011663 0.9996874 0.0011663 0.9996874 0.0011663 0.0003126 -0.0011663
30523804 0.0003142 -0.0010498 0.9996858 0.0010498 0.9996858 0.0010498 0.0003142 -0.0010498
31375021 0.0003160 -0.0009338 0.9996840 0.0009338 0.9996840 0.0009338 0.0003160 -0.0009338
32249977 0.0003182 -0.0008184 0.9996818 0.0008184 0.9996818 0.0008184 0.0003182 -0.0008184
33149332 0.0003206 -0.0007034 0.9996794 0.0007034 0.9996794 0.0007034 0.0003206 -0.0007034
34073768 0.0003235 -0.0005887 0.9996765 0.0005887 0.9996765 0.0005887 0.0003235 -0.0005887
35023984 0.0003266 -0.0004741 0.9996734 0.0004741 0.9996734 0.0004741 0.0003266 -0.0004741
36000698 0.0003302 -0.0003597 0.9996698 0.0003597 0.9996698 0.0003597 0.0003302 -0.0003597
37004650 0.0003342 -0.0002453 0.9996658 0.0002453 0.9996658 0.0002453 0.0003342 -0.0002453
38036599 0.0003386 -0.0001308 0.9996614 0.0001308 0.9996614 0.0001308 0.0003386 -0.0001308
39097326 0.0003435 -0.0000160 0.9996565 0.0000160 0.9996565 0.0000160 0.0003435 -0.0000160
