!Murata Part Number: GRM32ER61A476ME20
!These Parameters are Measured in Series Mode Connection
!Data Generated on Mar 30, 2021
!       o--ll--o
!Port1            Port2
!       o------o
!Operation Temp=25[degC], DC Bias Voltage=0[V]
!Freq. Start=100[Hz] Stop=6[GHz] 401[Steps]
# Hz S RI R 50
!Freq.(Hz) S11(Real) S11(Imag) S21(Real) S21(Imag) S12(Real) S12(Imag) S22(Real) S22(Imag)
100 0.1460795 -0.3457410 0.8539205 0.3457410 0.8539205 0.3457410 0.1460795 -0.3457410
105 0.1355705 -0.3348821 0.8644295 0.3348821 0.8644295 0.3348821 0.1355705 -0.3348821
109 0.1257157 -0.3240691 0.8742843 0.3240691 0.8742843 0.3240691 0.1257157 -0.3240691
114 0.1164909 -0.3133383 0.8835091 0.3133383 0.8835091 0.3133383 0.1164909 -0.3133383
120 0.1078697 -0.3027220 0.8921303 0.3027220 0.8921303 0.3027220 0.1078697 -0.3027220
125 0.0998250 -0.2922488 0.9001750 0.2922488 0.9001750 0.2922488 0.0998250 -0.2922488
131 0.0923287 -0.2819436 0.9076713 0.2819436 0.9076713 0.2819436 0.0923287 -0.2819436
137 0.0853525 -0.2718280 0.9146475 0.2718280 0.9146475 0.2718280 0.0853525 -0.2718280
143 0.0788678 -0.2619199 0.9211322 0.2619199 0.9211322 0.2619199 0.0788678 -0.2619199
150 0.0728466 -0.2522346 0.9271534 0.2522346 0.9271534 0.2522346 0.0728466 -0.2522346
156 0.0672612 -0.2427843 0.9327388 0.2427843 0.9327388 0.2427843 0.0672612 -0.2427843
164 0.0620847 -0.2335788 0.9379153 0.2335788 0.9379153 0.2335788 0.0620847 -0.2335788
171 0.0572908 -0.2246253 0.9427092 0.2246253 0.9427092 0.2246253 0.0572908 -0.2246253
179 0.0528546 -0.2159292 0.9471454 0.2159292 0.9471454 0.2159292 0.0528546 -0.2159292
187 0.0487517 -0.2074939 0.9512483 0.2074939 0.9512483 0.2074939 0.0487517 -0.2074939
196 0.0449594 -0.1993209 0.9550406 0.1993209 0.9550406 0.1993209 0.0449594 -0.1993209
205 0.0414557 -0.1914105 0.9585443 0.1914105 0.9585443 0.1914105 0.0414557 -0.1914105
214 0.0382201 -0.1837616 0.9617799 0.1837616 0.9617799 0.1837616 0.0382201 -0.1837616
224 0.0352331 -0.1763721 0.9647669 0.1763721 0.9647669 0.1763721 0.0352331 -0.1763721
234 0.0324764 -0.1692389 0.9675236 0.1692389 0.9675236 0.1692389 0.0324764 -0.1692389
245 0.0299330 -0.1623579 0.9700670 0.1623579 0.9700670 0.1623579 0.0299330 -0.1623579
256 0.0275868 -0.1557247 0.9724132 0.1557247 0.9724132 0.1557247 0.0275868 -0.1557247
268 0.0254230 -0.1493341 0.9745770 0.1493341 0.9745770 0.1493341 0.0254230 -0.1493341
280 0.0234277 -0.1431805 0.9765723 0.1431805 0.9765723 0.1431805 0.0234277 -0.1431805
293 0.0215880 -0.1372581 0.9784120 0.1372581 0.9784120 0.1372581 0.0215880 -0.1372581
306 0.0198920 -0.1315606 0.9801080 0.1315606 0.9801080 0.1315606 0.0198920 -0.1315606
320 0.0183286 -0.1260818 0.9816714 0.1260818 0.9816714 0.1260818 0.0183286 -0.1260818
335 0.0168877 -0.1208152 0.9831123 0.1208152 0.9831123 0.1208152 0.0168877 -0.1208152
350 0.0155598 -0.1157543 0.9844402 0.1157543 0.9844402 0.1157543 0.0155598 -0.1157543
366 0.0143361 -0.1108925 0.9856639 0.1108925 0.9856639 0.1108925 0.0143361 -0.1108925
383 0.0132087 -0.1062234 0.9867913 0.1062234 0.9867913 0.1062234 0.0132087 -0.1062234
401 0.0121700 -0.1017405 0.9878300 0.1017405 0.9878300 0.1017405 0.0121700 -0.1017405
419 0.0112133 -0.0974373 0.9887867 0.0974373 0.9887867 0.0974373 0.0112133 -0.0974373
438 0.0103321 -0.0933078 0.9896679 0.0933078 0.9896679 0.0933078 0.0103321 -0.0933078
458 0.0095207 -0.0893456 0.9904793 0.0893456 0.9904793 0.0893456 0.0095207 -0.0893456
479 0.0087736 -0.0855449 0.9912264 0.0855449 0.9912264 0.0855449 0.0087736 -0.0855449
501 0.0080860 -0.0818996 0.9919140 0.0818996 0.9919140 0.0818996 0.0080860 -0.0818996
524 0.0074530 -0.0784042 0.9925470 0.0784042 0.9925470 0.0784042 0.0074530 -0.0784042
548 0.0068707 -0.0750529 0.9931293 0.0750529 0.9931293 0.0750529 0.0068707 -0.0750529
573 0.0063349 -0.0718405 0.9936651 0.0718405 0.9936651 0.0718405 0.0063349 -0.0718405
600 0.0058420 -0.0687616 0.9941580 0.0687616 0.9941580 0.0687616 0.0058420 -0.0687616
627 0.0053888 -0.0658111 0.9946112 0.0658111 0.9946112 0.0658111 0.0053888 -0.0658111
656 0.0049720 -0.0629841 0.9950280 0.0629841 0.9950280 0.0629841 0.0049720 -0.0629841
686 0.0045888 -0.0602758 0.9954112 0.0602758 0.9954112 0.0602758 0.0045888 -0.0602758
717 0.0042366 -0.0576815 0.9957634 0.0576815 0.9957634 0.0576815 0.0042366 -0.0576815
750 0.0039129 -0.0551968 0.9960871 0.0551968 0.9960871 0.0551968 0.0039129 -0.0551968
784 0.0036154 -0.0528173 0.9963846 0.0528173 0.9963846 0.0528173 0.0036154 -0.0528173
820 0.0033420 -0.0505388 0.9966580 0.0505388 0.9966580 0.0505388 0.0033420 -0.0505388
858 0.0030908 -0.0483573 0.9969092 0.0483573 0.9969092 0.0483573 0.0030908 -0.0483573
897 0.0028599 -0.0462688 0.9971401 0.0462688 0.9971401 0.0462688 0.0028599 -0.0462688
938 0.0026478 -0.0442696 0.9973522 0.0442696 0.9973522 0.0442696 0.0026478 -0.0442696
981 0.0024528 -0.0423560 0.9975472 0.0423560 0.9975472 0.0423560 0.0024528 -0.0423560
1026 0.0022735 -0.0405245 0.9977265 0.0405245 0.9977265 0.0405245 0.0022735 -0.0405245
1073 0.0021087 -0.0387718 0.9978913 0.0387718 0.9978913 0.0387718 0.0021087 -0.0387718
1122 0.0019572 -0.0370945 0.9980428 0.0370945 0.9980428 0.0370945 0.0019572 -0.0370945
1174 0.0018177 -0.0354895 0.9981823 0.0354895 0.9981823 0.0354895 0.0018177 -0.0354895
1227 0.0016894 -0.0339538 0.9983106 0.0339538 0.9983106 0.0339538 0.0016894 -0.0339538
1283 0.0015712 -0.0324845 0.9984288 0.0324845 0.9984288 0.0324845 0.0015712 -0.0324845
1342 0.0014624 -0.0310787 0.9985376 0.0310787 0.9985376 0.0310787 0.0014624 -0.0310787
1404 0.0013620 -0.0297338 0.9986380 0.0297338 0.9986380 0.0297338 0.0013620 -0.0297338
1468 0.0012694 -0.0284472 0.9987306 0.0284472 0.9987306 0.0284472 0.0012694 -0.0284472
1535 0.0011839 -0.0272164 0.9988161 0.0272164 0.9988161 0.0272164 0.0011839 -0.0272164
1606 0.0011048 -0.0260390 0.9988952 0.0260390 0.9988952 0.0260390 0.0011048 -0.0260390
1679 0.0010317 -0.0249127 0.9989683 0.0249127 0.9989683 0.0249127 0.0010317 -0.0249127
1756 0.0009641 -0.0238352 0.9990359 0.0238352 0.9990359 0.0238352 0.0009641 -0.0238352
1836 0.0009013 -0.0228045 0.9990987 0.0228045 0.9990987 0.0228045 0.0009013 -0.0228045
1920 0.0008431 -0.0218186 0.9991569 0.0218186 0.9991569 0.0218186 0.0008431 -0.0218186
2008 0.0007890 -0.0208754 0.9992110 0.0208754 0.9992110 0.0208754 0.0007890 -0.0208754
2100 0.0007387 -0.0199731 0.9992613 0.0199731 0.9992613 0.0199731 0.0007387 -0.0199731
2196 0.0006918 -0.0191099 0.9993082 0.0191099 0.9993082 0.0191099 0.0006918 -0.0191099
2297 0.0006481 -0.0182842 0.9993519 0.0182842 0.9993519 0.0182842 0.0006481 -0.0182842
2402 0.0006074 -0.0174942 0.9993926 0.0174942 0.9993926 0.0174942 0.0006074 -0.0174942
2512 0.0005693 -0.0167383 0.9994307 0.0167383 0.9994307 0.0167383 0.0005693 -0.0167383
2627 0.0005338 -0.0160152 0.9994662 0.0160152 0.9994662 0.0160152 0.0005338 -0.0160152
2748 0.0005005 -0.0153232 0.9994995 0.0153232 0.9994995 0.0153232 0.0005005 -0.0153232
2873 0.0004693 -0.0146612 0.9995307 0.0146612 0.9995307 0.0146612 0.0004693 -0.0146612
3005 0.0004401 -0.0140277 0.9995599 0.0140277 0.9995599 0.0140277 0.0004401 -0.0140277
3143 0.0004128 -0.0134215 0.9995872 0.0134215 0.9995872 0.0134215 0.0004128 -0.0134215
3287 0.0003872 -0.0128414 0.9996128 0.0128414 0.9996128 0.0128414 0.0003872 -0.0128414
3437 0.0003631 -0.0122863 0.9996369 0.0122863 0.9996369 0.0122863 0.0003631 -0.0122863
3594 0.0003406 -0.0117551 0.9996594 0.0117551 0.9996594 0.0117551 0.0003406 -0.0117551
3759 0.0003195 -0.0112467 0.9996805 0.0112467 0.9996805 0.0112467 0.0003195 -0.0112467
3931 0.0002998 -0.0107601 0.9997002 0.0107601 0.9997002 0.0107601 0.0002998 -0.0107601
4111 0.0002813 -0.0102945 0.9997187 0.0102945 0.9997187 0.0102945 0.0002813 -0.0102945
4299 0.0002639 -0.0098489 0.9997361 0.0098489 0.9997361 0.0098489 0.0002639 -0.0098489
4496 0.0002477 -0.0094224 0.9997523 0.0094224 0.9997523 0.0094224 0.0002477 -0.0094224
4702 0.0002326 -0.0090142 0.9997674 0.0090142 0.9997674 0.0090142 0.0002326 -0.0090142
4918 0.0002184 -0.0086236 0.9997816 0.0086236 0.9997816 0.0086236 0.0002184 -0.0086236
5143 0.0002052 -0.0082498 0.9997948 0.0082498 0.9997948 0.0082498 0.0002052 -0.0082498
5378 0.0001929 -0.0078921 0.9998071 0.0078921 0.9998071 0.0078921 0.0001929 -0.0078921
5625 0.0001814 -0.0075498 0.9998186 0.0075498 0.9998186 0.0075498 0.0001814 -0.0075498
5882 0.0001707 -0.0072222 0.9998293 0.0072222 0.9998293 0.0072222 0.0001707 -0.0072222
6151 0.0001607 -0.0069087 0.9998393 0.0069087 0.9998393 0.0069087 0.0001607 -0.0069087
6433 0.0001515 -0.0066087 0.9998485 0.0066087 0.9998485 0.0066087 0.0001515 -0.0066087
6728 0.0001429 -0.0063217 0.9998571 0.0063217 0.9998571 0.0063217 0.0001429 -0.0063217
7036 0.0001349 -0.0060471 0.9998651 0.0060471 0.9998651 0.0060471 0.0001349 -0.0060471
7358 0.0001274 -0.0057844 0.9998726 0.0057844 0.9998726 0.0057844 0.0001274 -0.0057844
7695 0.0001205 -0.0055330 0.9998795 0.0055330 0.9998795 0.0055330 0.0001205 -0.0055330
8047 0.0001141 -0.0052925 0.9998859 0.0052925 0.9998859 0.0052925 0.0001141 -0.0052925
8416 0.0001081 -0.0050624 0.9998919 0.0050624 0.9998919 0.0050624 0.0001081 -0.0050624
8801 0.0001026 -0.0048423 0.9998974 0.0048423 0.9998974 0.0048423 0.0001026 -0.0048423
9204 0.0000975 -0.0046318 0.9999025 0.0046318 0.9999025 0.0046318 0.0000975 -0.0046318
9626 0.0000927 -0.0044304 0.9999073 0.0044304 0.9999073 0.0044304 0.0000927 -0.0044304
10066 0.0000883 -0.0042377 0.9999117 0.0042377 0.9999117 0.0042377 0.0000883 -0.0042377
10527 0.0000842 -0.0040534 0.9999158 0.0040534 0.9999158 0.0040534 0.0000842 -0.0040534
11009 0.0000804 -0.0038772 0.9999196 0.0038772 0.9999196 0.0038772 0.0000804 -0.0038772
11514 0.0000768 -0.0037086 0.9999232 0.0037086 0.9999232 0.0037086 0.0000768 -0.0037086
12041 0.0000735 -0.0035473 0.9999265 0.0035473 0.9999265 0.0035473 0.0000735 -0.0035473
12592 0.0000704 -0.0033931 0.9999296 0.0033931 0.9999296 0.0033931 0.0000704 -0.0033931
13169 0.0000675 -0.0032456 0.9999325 0.0032456 0.9999325 0.0032456 0.0000675 -0.0032456
13772 0.0000648 -0.0031046 0.9999352 0.0031046 0.9999352 0.0031046 0.0000648 -0.0031046
14402 0.0000623 -0.0029696 0.9999377 0.0029696 0.9999377 0.0029696 0.0000623 -0.0029696
15062 0.0000599 -0.0028406 0.9999401 0.0028406 0.9999401 0.0028406 0.0000599 -0.0028406
15752 0.0000576 -0.0027172 0.9999424 0.0027172 0.9999424 0.0027172 0.0000576 -0.0027172
16473 0.0000555 -0.0025992 0.9999445 0.0025992 0.9999445 0.0025992 0.0000555 -0.0025992
17227 0.0000535 -0.0024863 0.9999465 0.0024863 0.9999465 0.0024863 0.0000535 -0.0024863
18016 0.0000515 -0.0023784 0.9999485 0.0023784 0.9999485 0.0023784 0.0000515 -0.0023784
18841 0.0000497 -0.0022751 0.9999503 0.0022751 0.9999503 0.0022751 0.0000497 -0.0022751
19704 0.0000480 -0.0021764 0.9999520 0.0021764 0.9999520 0.0021764 0.0000480 -0.0021764
20606 0.0000463 -0.0020820 0.9999537 0.0020820 0.9999537 0.0020820 0.0000463 -0.0020820
21550 0.0000447 -0.0019916 0.9999553 0.0019916 0.9999553 0.0019916 0.0000447 -0.0019916
22537 0.0000432 -0.0019052 0.9999568 0.0019052 0.9999568 0.0019052 0.0000432 -0.0019052
23569 0.0000417 -0.0018226 0.9999583 0.0018226 0.9999583 0.0018226 0.0000417 -0.0018226
24648 0.0000403 -0.0017435 0.9999597 0.0017435 0.9999597 0.0017435 0.0000403 -0.0017435
25777 0.0000389 -0.0016678 0.9999611 0.0016678 0.9999611 0.0016678 0.0000389 -0.0016678
26957 0.0000376 -0.0015955 0.9999624 0.0015955 0.9999624 0.0015955 0.0000376 -0.0015955
28191 0.0000363 -0.0015262 0.9999637 0.0015262 0.9999637 0.0015262 0.0000363 -0.0015262
29482 0.0000350 -0.0014600 0.9999650 0.0014600 0.9999650 0.0014600 0.0000350 -0.0014600
30832 0.0000338 -0.0013966 0.9999662 0.0013966 0.9999662 0.0013966 0.0000338 -0.0013966
32244 0.0000327 -0.0013360 0.9999673 0.0013360 0.9999673 0.0013360 0.0000327 -0.0013360
33721 0.0000316 -0.0012779 0.9999684 0.0012779 0.9999684 0.0012779 0.0000316 -0.0012779
35265 0.0000305 -0.0012224 0.9999695 0.0012224 0.9999695 0.0012224 0.0000305 -0.0012224
36880 0.0000295 -0.0011692 0.9999705 0.0011692 0.9999705 0.0011692 0.0000295 -0.0011692
38569 0.0000285 -0.0011183 0.9999715 0.0011183 0.9999715 0.0011183 0.0000285 -0.0011183
40335 0.0000275 -0.0010696 0.9999725 0.0010696 0.9999725 0.0010696 0.0000275 -0.0010696
42182 0.0000266 -0.0010230 0.9999734 0.0010230 0.9999734 0.0010230 0.0000266 -0.0010230
44113 0.0000257 -0.0009784 0.9999743 0.0009784 0.9999743 0.0009784 0.0000257 -0.0009784
46134 0.0000249 -0.0009357 0.9999751 0.0009357 0.9999751 0.0009357 0.0000249 -0.0009357
48246 0.0000241 -0.0008948 0.9999759 0.0008948 0.9999759 0.0008948 0.0000241 -0.0008948
50455 0.0000233 -0.0008556 0.9999767 0.0008556 0.9999767 0.0008556 0.0000233 -0.0008556
52766 0.0000226 -0.0008182 0.9999774 0.0008182 0.9999774 0.0008182 0.0000226 -0.0008182
55182 0.0000219 -0.0007823 0.9999781 0.0007823 0.9999781 0.0007823 0.0000219 -0.0007823
57709 0.0000213 -0.0007479 0.9999787 0.0007479 0.9999787 0.0007479 0.0000213 -0.0007479
60352 0.0000207 -0.0007150 0.9999793 0.0007150 0.9999793 0.0007150 0.0000207 -0.0007150
63115 0.0000201 -0.0006835 0.9999799 0.0006835 0.9999799 0.0006835 0.0000201 -0.0006835
66005 0.0000196 -0.0006534 0.9999804 0.0006534 0.9999804 0.0006534 0.0000196 -0.0006534
69028 0.0000191 -0.0006245 0.9999809 0.0006245 0.9999809 0.0006245 0.0000191 -0.0006245
72189 0.0000186 -0.0005969 0.9999814 0.0005969 0.9999814 0.0005969 0.0000186 -0.0005969
75495 0.0000182 -0.0005704 0.9999818 0.0005704 0.9999818 0.0005704 0.0000182 -0.0005704
78952 0.0000177 -0.0005451 0.9999823 0.0005451 0.9999823 0.0005451 0.0000177 -0.0005451
82567 0.0000174 -0.0005208 0.9999826 0.0005208 0.9999826 0.0005208 0.0000174 -0.0005208
86348 0.0000170 -0.0004975 0.9999830 0.0004975 0.9999830 0.0004975 0.0000170 -0.0004975
90302 0.0000167 -0.0004753 0.9999833 0.0004753 0.9999833 0.0004753 0.0000167 -0.0004753
94437 0.0000164 -0.0004539 0.9999836 0.0004539 0.9999836 0.0004539 0.0000164 -0.0004539
98762 0.0000161 -0.0004335 0.9999839 0.0004335 0.9999839 0.0004335 0.0000161 -0.0004335
103284 0.0000158 -0.0004139 0.9999842 0.0004139 0.9999842 0.0004139 0.0000158 -0.0004139
108014 0.0000156 -0.0003951 0.9999844 0.0003951 0.9999844 0.0003951 0.0000156 -0.0003951
112960 0.0000154 -0.0003772 0.9999846 0.0003772 0.9999846 0.0003772 0.0000154 -0.0003772
118133 0.0000152 -0.0003599 0.9999848 0.0003599 0.9999848 0.0003599 0.0000152 -0.0003599
123542 0.0000150 -0.0003434 0.9999850 0.0003434 0.9999850 0.0003434 0.0000150 -0.0003434
129199 0.0000148 -0.0003276 0.9999852 0.0003276 0.9999852 0.0003276 0.0000148 -0.0003276
135116 0.0000146 -0.0003124 0.9999854 0.0003124 0.9999854 0.0003124 0.0000146 -0.0003124
141303 0.0000145 -0.0002978 0.9999855 0.0002978 0.9999855 0.0002978 0.0000145 -0.0002978
147774 0.0000144 -0.0002839 0.9999856 0.0002839 0.9999856 0.0002839 0.0000144 -0.0002839
154540 0.0000143 -0.0002704 0.9999857 0.0002704 0.9999857 0.0002704 0.0000143 -0.0002704
161617 0.0000142 -0.0002576 0.9999858 0.0002576 0.9999858 0.0002576 0.0000142 -0.0002576
169018 0.0000141 -0.0002452 0.9999859 0.0002452 0.9999859 0.0002452 0.0000141 -0.0002452
176758 0.0000140 -0.0002333 0.9999860 0.0002333 0.9999860 0.0002333 0.0000140 -0.0002333
184852 0.0000139 -0.0002219 0.9999861 0.0002219 0.9999861 0.0002219 0.0000139 -0.0002219
193316 0.0000138 -0.0002109 0.9999862 0.0002109 0.9999862 0.0002109 0.0000138 -0.0002109
202169 0.0000138 -0.0002004 0.9999862 0.0002004 0.9999862 0.0002004 0.0000138 -0.0002004
211427 0.0000138 -0.0001902 0.9999862 0.0001902 0.9999862 0.0001902 0.0000138 -0.0001902
221108 0.0000137 -0.0001805 0.9999863 0.0001805 0.9999863 0.0001805 0.0000137 -0.0001805
231233 0.0000137 -0.0001710 0.9999863 0.0001710 0.9999863 0.0001710 0.0000137 -0.0001710
241822 0.0000137 -0.0001620 0.9999863 0.0001620 0.9999863 0.0001620 0.0000137 -0.0001620
252896 0.0000137 -0.0001532 0.9999863 0.0001532 0.9999863 0.0001532 0.0000137 -0.0001532
264476 0.0000137 -0.0001447 0.9999863 0.0001447 0.9999863 0.0001447 0.0000137 -0.0001447
276587 0.0000137 -0.0001366 0.9999863 0.0001366 0.9999863 0.0001366 0.0000137 -0.0001366
289253 0.0000138 -0.0001287 0.9999862 0.0001287 0.9999862 0.0001287 0.0000138 -0.0001287
302498 0.0000138 -0.0001210 0.9999862 0.0001210 0.9999862 0.0001210 0.0000138 -0.0001210
316350 0.0000139 -0.0001136 0.9999861 0.0001136 0.9999861 0.0001136 0.0000139 -0.0001136
330837 0.0000140 -0.0001064 0.9999860 0.0001064 0.9999860 0.0001064 0.0000140 -0.0001064
345986 0.0000141 -0.0000994 0.9999859 0.0000994 0.9999859 0.0000994 0.0000141 -0.0000994
361830 0.0000142 -0.0000926 0.9999858 0.0000926 0.9999858 0.0000926 0.0000142 -0.0000926
378399 0.0000143 -0.0000860 0.9999857 0.0000860 0.9999857 0.0000860 0.0000143 -0.0000860
395726 0.0000145 -0.0000796 0.9999855 0.0000796 0.9999855 0.0000796 0.0000145 -0.0000796
413847 0.0000146 -0.0000733 0.9999854 0.0000733 0.9999854 0.0000733 0.0000146 -0.0000733
432798 0.0000148 -0.0000671 0.9999852 0.0000671 0.9999852 0.0000671 0.0000148 -0.0000671
452617 0.0000151 -0.0000611 0.9999849 0.0000611 0.9999849 0.0000611 0.0000151 -0.0000611
473344 0.0000153 -0.0000552 0.9999847 0.0000552 0.9999847 0.0000552 0.0000153 -0.0000552
495019 0.0000156 -0.0000494 0.9999844 0.0000494 0.9999844 0.0000494 0.0000156 -0.0000494
517687 0.0000160 -0.0000436 0.9999840 0.0000436 0.9999840 0.0000436 0.0000160 -0.0000436
541393 0.0000163 -0.0000380 0.9999837 0.0000380 0.9999837 0.0000380 0.0000163 -0.0000380
566185 0.0000167 -0.0000324 0.9999833 0.0000324 0.9999833 0.0000324 0.0000167 -0.0000324
592111 0.0000172 -0.0000268 0.9999828 0.0000268 0.9999828 0.0000268 0.0000172 -0.0000268
619225 0.0000178 -0.0000213 0.9999822 0.0000213 0.9999822 0.0000213 0.0000178 -0.0000213
647581 0.0000184 -0.0000158 0.9999816 0.0000158 0.9999816 0.0000158 0.0000184 -0.0000158
677235 0.0000191 -0.0000103 0.9999809 0.0000103 0.9999809 0.0000103 0.0000191 -0.0000103
708247 0.0000198 -0.0000048 0.9999802 0.0000048 0.9999802 0.0000048 0.0000198 -0.0000048
740679 0.0000207 0.0000008 0.9999793 -0.0000008 0.9999793 -0.0000008 0.0000207 0.0000008
774597 0.0000218 0.0000064 0.9999782 -0.0000064 0.9999782 -0.0000064 0.0000218 0.0000064
810067 0.0000230 0.0000121 0.9999770 -0.0000121 0.9999770 -0.0000121 0.0000230 0.0000121
847162 0.0000244 0.0000179 0.9999756 -0.0000179 0.9999756 -0.0000179 0.0000244 0.0000179
885955 0.0000260 0.0000238 0.9999740 -0.0000238 0.9999740 -0.0000238 0.0000260 0.0000238
926525 0.0000280 0.0000299 0.9999720 -0.0000299 0.9999720 -0.0000299 0.0000280 0.0000299
968953 0.0000305 0.0000361 0.9999695 -0.0000361 0.9999695 -0.0000361 0.0000305 0.0000361
1013323 0.0000335 0.0000425 0.9999665 -0.0000425 0.9999665 -0.0000425 0.0000335 0.0000425
1059725 0.0000373 0.0000490 0.9999627 -0.0000490 0.9999627 -0.0000490 0.0000373 0.0000490
1108252 0.0000422 0.0000554 0.9999578 -0.0000554 0.9999578 -0.0000554 0.0000422 0.0000554
1159002 0.0000485 0.0000614 0.9999515 -0.0000614 0.9999515 -0.0000614 0.0000485 0.0000614
1212075 0.0000566 0.0000662 0.9999434 -0.0000662 0.9999434 -0.0000662 0.0000566 0.0000662
1267578 0.0000663 0.0000685 0.9999337 -0.0000685 0.9999337 -0.0000685 0.0000663 0.0000685
1325623 0.0000763 0.0000667 0.9999237 -0.0000667 0.9999237 -0.0000667 0.0000763 0.0000667
1386327 0.0000832 0.0000605 0.9999168 -0.0000605 0.9999168 -0.0000605 0.0000832 0.0000605
1449809 0.0000844 0.0000528 0.9999156 -0.0000528 0.9999156 -0.0000528 0.0000844 0.0000528
1516199 0.0000803 0.0000481 0.9999197 -0.0000481 0.9999197 -0.0000481 0.0000803 0.0000481
1585629 0.0000747 0.0000484 0.9999253 -0.0000484 0.9999253 -0.0000484 0.0000747 0.0000484
1658239 0.0000706 0.0000526 0.9999294 -0.0000526 0.9999294 -0.0000526 0.0000706 0.0000526
1734173 0.0000692 0.0000590 0.9999308 -0.0000590 0.9999308 -0.0000590 0.0000692 0.0000590
1813585 0.0000712 0.0000658 0.9999288 -0.0000658 0.9999288 -0.0000658 0.0000712 0.0000658
1896632 0.0000767 0.0000709 0.9999233 -0.0000709 0.9999233 -0.0000709 0.0000767 0.0000709
1983483 0.0000843 0.0000713 0.9999157 -0.0000713 0.9999157 -0.0000713 0.0000843 0.0000713
2074311 0.0000882 0.0000656 0.9999118 -0.0000656 0.9999118 -0.0000656 0.0000882 0.0000656
