!Murata Part Number: GRM32DR60J336ME19
!These Parameters are Measured in Series Mode Connection
!Data Generated on Mar 30, 2021
!       o--ll--o
!Port1            Port2
!       o------o
!Operation Temp=25[degC], DC Bias Voltage=0[V]
!Freq. Start=100[Hz] Stop=6[GHz] 401[Steps]
# Hz S RI R 50
!Freq.(Hz) S11(Real) S11(Imag) S21(Real) S21(Imag) S12(Real) S12(Imag) S22(Real) S22(Imag)
100 0.3224344 -0.4554645 0.6775656 0.4554645 0.6775656 0.4554645 0.3224344 -0.4554645
105 0.3038878 -0.4480010 0.6961122 0.4480010 0.6961122 0.4480010 0.3038878 -0.4480010
109 0.2859695 -0.4399400 0.7140305 0.4399400 0.7140305 0.4399400 0.2859695 -0.4399400
114 0.2687142 -0.4313439 0.7312858 0.4313439 0.7312858 0.4313439 0.2687142 -0.4313439
120 0.2521488 -0.4222764 0.7478512 0.4222764 0.7478512 0.4222764 0.2521488 -0.4222764
125 0.2362931 -0.4128015 0.7637069 0.4128015 0.7637069 0.4128015 0.2362931 -0.4128015
131 0.2211595 -0.4029823 0.7788405 0.4029823 0.7788405 0.4029823 0.2211595 -0.4029823
137 0.2067539 -0.3928805 0.7932461 0.3928805 0.7932461 0.3928805 0.2067539 -0.3928805
143 0.1930761 -0.3825555 0.8069239 0.3825555 0.8069239 0.3825555 0.1930761 -0.3825555
150 0.1801203 -0.3720638 0.8198797 0.3720638 0.8198797 0.3720638 0.1801203 -0.3720638
156 0.1678760 -0.3614588 0.8321240 0.3614588 0.8321240 0.3614588 0.1678760 -0.3614588
164 0.1563281 -0.3507900 0.8436719 0.3507900 0.8436719 0.3507900 0.1563281 -0.3507900
171 0.1454584 -0.3401033 0.8545416 0.3401033 0.8545416 0.3401033 0.1454584 -0.3401033
179 0.1352454 -0.3294404 0.8647546 0.3294404 0.8647546 0.3294404 0.1352454 -0.3294404
187 0.1256652 -0.3188390 0.8743348 0.3188390 0.8743348 0.3188390 0.1256652 -0.3188390
196 0.1166925 -0.3083327 0.8833075 0.3083327 0.8833075 0.3083327 0.1166925 -0.3083327
205 0.1083002 -0.2979513 0.8916998 0.2979513 0.8916998 0.2979513 0.1083002 -0.2979513
214 0.1004608 -0.2877207 0.8995392 0.2877207 0.8995392 0.2877207 0.1004608 -0.2877207
224 0.0931463 -0.2776633 0.9068537 0.2776633 0.9068537 0.2776633 0.0931463 -0.2776633
234 0.0863284 -0.2677979 0.9136716 0.2677979 0.9136716 0.2677979 0.0863284 -0.2677979
245 0.0799794 -0.2581405 0.9200206 0.2581405 0.9200206 0.2581405 0.0799794 -0.2581405
256 0.0740718 -0.2487039 0.9259282 0.2487039 0.9259282 0.2487039 0.0740718 -0.2487039
268 0.0685791 -0.2394985 0.9314209 0.2394985 0.9314209 0.2394985 0.0685791 -0.2394985
280 0.0634755 -0.2305320 0.9365245 0.2305320 0.9365245 0.2305320 0.0634755 -0.2305320
293 0.0587362 -0.2218104 0.9412638 0.2218104 0.9412638 0.2218104 0.0587362 -0.2218104
306 0.0543375 -0.2133374 0.9456625 0.2133374 0.9456625 0.2133374 0.0543375 -0.2133374
320 0.0502569 -0.2051153 0.9497431 0.2051153 0.9497431 0.2051153 0.0502569 -0.2051153
335 0.0464729 -0.1971449 0.9535271 0.1971449 0.9535271 0.1971449 0.0464729 -0.1971449
350 0.0429656 -0.1894257 0.9570344 0.1894257 0.9570344 0.1894257 0.0429656 -0.1894257
366 0.0397157 -0.1819561 0.9602843 0.1819561 0.9602843 0.1819561 0.0397157 -0.1819561
383 0.0367056 -0.1747338 0.9632944 0.1747338 0.9632944 0.1747338 0.0367056 -0.1747338
401 0.0339184 -0.1677556 0.9660816 0.1677556 0.9660816 0.1677556 0.0339184 -0.1677556
419 0.0313386 -0.1610176 0.9686614 0.1610176 0.9686614 0.1610176 0.0313386 -0.1610176
438 0.0289515 -0.1545156 0.9710485 0.1545156 0.9710485 0.1545156 0.0289515 -0.1545156
458 0.0267434 -0.1482448 0.9732566 0.1482448 0.9732566 0.1482448 0.0267434 -0.1482448
479 0.0247016 -0.1422001 0.9752984 0.1422001 0.9752984 0.1422001 0.0247016 -0.1422001
501 0.0228143 -0.1363763 0.9771857 0.1363763 0.9771857 0.1363763 0.0228143 -0.1363763
524 0.0210703 -0.1307679 0.9789297 0.1307679 0.9789297 0.1307679 0.0210703 -0.1307679
548 0.0194594 -0.1253692 0.9805406 0.1253692 0.9805406 0.1253692 0.0194594 -0.1253692
573 0.0179720 -0.1201746 0.9820280 0.1201746 0.9820280 0.1201746 0.0179720 -0.1201746
600 0.0165990 -0.1151783 0.9834010 0.1151783 0.9834010 0.1151783 0.0165990 -0.1151783
627 0.0153321 -0.1103744 0.9846679 0.1103744 0.9846679 0.1103744 0.0153321 -0.1103744
656 0.0141635 -0.1057571 0.9858365 0.1057571 0.9858365 0.1057571 0.0141635 -0.1057571
686 0.0130860 -0.1013208 0.9869140 0.1013208 0.9869140 0.1013208 0.0130860 -0.1013208
717 0.0120929 -0.0970596 0.9879071 0.0970596 0.9879071 0.0970596 0.0120929 -0.0970596
750 0.0111777 -0.0929680 0.9888223 0.0929680 0.9888223 0.0929680 0.0111777 -0.0929680
784 0.0103347 -0.0890402 0.9896653 0.0890402 0.9896653 0.0890402 0.0103347 -0.0890402
820 0.0095583 -0.0852708 0.9904417 0.0852708 0.9904417 0.0852708 0.0095583 -0.0852708
858 0.0088435 -0.0816543 0.9911565 0.0816543 0.9911565 0.0816543 0.0088435 -0.0816543
897 0.0081855 -0.0781853 0.9918145 0.0781853 0.9918145 0.0781853 0.0081855 -0.0781853
938 0.0075799 -0.0748587 0.9924201 0.0748587 0.9924201 0.0748587 0.0075799 -0.0748587
981 0.0070227 -0.0716693 0.9929773 0.0716693 0.9929773 0.0716693 0.0070227 -0.0716693
1026 0.0065100 -0.0686121 0.9934900 0.0686121 0.9934900 0.0686121 0.0065100 -0.0686121
1073 0.0060382 -0.0656821 0.9939618 0.0656821 0.9939618 0.0656821 0.0060382 -0.0656821
1122 0.0056042 -0.0628746 0.9943958 0.0628746 0.9943958 0.0628746 0.0056042 -0.0628746
1174 0.0052047 -0.0601850 0.9947953 0.0601850 0.9947953 0.0601850 0.0052047 -0.0601850
1227 0.0048372 -0.0576087 0.9951628 0.0576087 0.9951628 0.0576087 0.0048372 -0.0576087
1283 0.0044988 -0.0551413 0.9955012 0.0551413 0.9955012 0.0551413 0.0044988 -0.0551413
1342 0.0041873 -0.0527786 0.9958127 0.0527786 0.9958127 0.0527786 0.0041873 -0.0527786
1404 0.0039004 -0.0505163 0.9960996 0.0505163 0.9960996 0.0505163 0.0039004 -0.0505163
1468 0.0036359 -0.0483504 0.9963641 0.0483504 0.9963641 0.0483504 0.0036359 -0.0483504
1535 0.0033921 -0.0462771 0.9966079 0.0462771 0.9966079 0.0462771 0.0033921 -0.0462771
1606 0.0031672 -0.0442926 0.9968328 0.0442926 0.9968328 0.0442926 0.0031672 -0.0442926
1679 0.0029595 -0.0423932 0.9970405 0.0423932 0.9970405 0.0423932 0.0029595 -0.0423932
1756 0.0027675 -0.0405754 0.9972325 0.0405754 0.9972325 0.0405754 0.0027675 -0.0405754
1836 0.0025900 -0.0388358 0.9974100 0.0388358 0.9974100 0.0388358 0.0025900 -0.0388358
1920 0.0024257 -0.0371710 0.9975743 0.0371710 0.9975743 0.0371710 0.0024257 -0.0371710
2008 0.0022733 -0.0355780 0.9977267 0.0355780 0.9977267 0.0355780 0.0022733 -0.0355780
2100 0.0021320 -0.0340536 0.9978680 0.0340536 0.9978680 0.0340536 0.0021320 -0.0340536
2196 0.0020006 -0.0325949 0.9979994 0.0325949 0.9979994 0.0325949 0.0020006 -0.0325949
2297 0.0018785 -0.0311992 0.9981215 0.0311992 0.9981215 0.0311992 0.0018785 -0.0311992
2402 0.0017647 -0.0298635 0.9982353 0.0298635 0.9982353 0.0298635 0.0017647 -0.0298635
2512 0.0016585 -0.0285854 0.9983415 0.0285854 0.9983415 0.0285854 0.0016585 -0.0285854
2627 0.0015594 -0.0273623 0.9984406 0.0273623 0.9984406 0.0273623 0.0015594 -0.0273623
2748 0.0014667 -0.0261918 0.9985333 0.0261918 0.9985333 0.0261918 0.0014667 -0.0261918
2873 0.0013799 -0.0250715 0.9986201 0.0250715 0.9986201 0.0250715 0.0013799 -0.0250715
3005 0.0012986 -0.0239993 0.9987014 0.0239993 0.9987014 0.0239993 0.0012986 -0.0239993
3143 0.0012223 -0.0229731 0.9987777 0.0229731 0.9987777 0.0229731 0.0012223 -0.0229731
3287 0.0011507 -0.0219908 0.9988493 0.0219908 0.9988493 0.0219908 0.0011507 -0.0219908
3437 0.0010834 -0.0210504 0.9989166 0.0210504 0.9989166 0.0210504 0.0010834 -0.0210504
3594 0.0010201 -0.0201502 0.9989799 0.0201502 0.9989799 0.0201502 0.0010201 -0.0201502
3759 0.0009606 -0.0192884 0.9990394 0.0192884 0.9990394 0.0192884 0.0009606 -0.0192884
3931 0.0009046 -0.0184632 0.9990954 0.0184632 0.9990954 0.0184632 0.0009046 -0.0184632
4111 0.0008520 -0.0176731 0.9991480 0.0176731 0.9991480 0.0176731 0.0008520 -0.0176731
4299 0.0008024 -0.0169166 0.9991976 0.0169166 0.9991976 0.0169166 0.0008024 -0.0169166
4496 0.0007558 -0.0161922 0.9992442 0.0161922 0.9992442 0.0161922 0.0007558 -0.0161922
4702 0.0007120 -0.0154985 0.9992880 0.0154985 0.9992880 0.0154985 0.0007120 -0.0154985
4918 0.0006708 -0.0148343 0.9993292 0.0148343 0.9993292 0.0148343 0.0006708 -0.0148343
5143 0.0006321 -0.0141982 0.9993679 0.0141982 0.9993679 0.0141982 0.0006321 -0.0141982
5378 0.0005958 -0.0135890 0.9994042 0.0135890 0.9994042 0.0135890 0.0005958 -0.0135890
5625 0.0005617 -0.0130057 0.9994383 0.0130057 0.9994383 0.0130057 0.0005617 -0.0130057
5882 0.0005298 -0.0124471 0.9994702 0.0124471 0.9994702 0.0124471 0.0005298 -0.0124471
6151 0.0004999 -0.0119123 0.9995001 0.0119123 0.9995001 0.0119123 0.0004999 -0.0119123
6433 0.0004719 -0.0114001 0.9995281 0.0114001 0.9995281 0.0114001 0.0004719 -0.0114001
6728 0.0004457 -0.0109097 0.9995543 0.0109097 0.9995543 0.0109097 0.0004457 -0.0109097
7036 0.0004212 -0.0104402 0.9995788 0.0104402 0.9995788 0.0104402 0.0004212 -0.0104402
7358 0.0003984 -0.0099907 0.9996016 0.0099907 0.9996016 0.0099907 0.0003984 -0.0099907
7695 0.0003771 -0.0095604 0.9996229 0.0095604 0.9996229 0.0095604 0.0003771 -0.0095604
8047 0.0003572 -0.0091484 0.9996428 0.0091484 0.9996428 0.0091484 0.0003572 -0.0091484
8416 0.0003386 -0.0087541 0.9996614 0.0087541 0.9996614 0.0087541 0.0003386 -0.0087541
8801 0.0003214 -0.0083767 0.9996786 0.0083767 0.9996786 0.0083767 0.0003214 -0.0083767
9204 0.0003053 -0.0080155 0.9996947 0.0080155 0.9996947 0.0080155 0.0003053 -0.0080155
9626 0.0002903 -0.0076697 0.9997097 0.0076697 0.9997097 0.0076697 0.0002903 -0.0076697
10066 0.0002763 -0.0073389 0.9997237 0.0073389 0.9997237 0.0073389 0.0002763 -0.0073389
10527 0.0002633 -0.0070223 0.9997367 0.0070223 0.9997367 0.0070223 0.0002633 -0.0070223
11009 0.0002511 -0.0067194 0.9997489 0.0067194 0.9997489 0.0067194 0.0002511 -0.0067194
11514 0.0002398 -0.0064296 0.9997602 0.0064296 0.9997602 0.0064296 0.0002398 -0.0064296
12041 0.0002292 -0.0061523 0.9997708 0.0061523 0.9997708 0.0061523 0.0002292 -0.0061523
12592 0.0002193 -0.0058870 0.9997807 0.0058870 0.9997807 0.0058870 0.0002193 -0.0058870
13169 0.0002101 -0.0056332 0.9997899 0.0056332 0.9997899 0.0056332 0.0002101 -0.0056332
13772 0.0002014 -0.0053905 0.9997986 0.0053905 0.9997986 0.0053905 0.0002014 -0.0053905
14402 0.0001932 -0.0051582 0.9998068 0.0051582 0.9998068 0.0051582 0.0001932 -0.0051582
15062 0.0001856 -0.0049361 0.9998144 0.0049361 0.9998144 0.0049361 0.0001856 -0.0049361
15752 0.0001783 -0.0047237 0.9998217 0.0047237 0.9998217 0.0047237 0.0001783 -0.0047237
16473 0.0001715 -0.0045204 0.9998285 0.0045204 0.9998285 0.0045204 0.0001715 -0.0045204
17227 0.0001650 -0.0043261 0.9998350 0.0043261 0.9998350 0.0043261 0.0001650 -0.0043261
18016 0.0001589 -0.0041401 0.9998411 0.0041401 0.9998411 0.0041401 0.0001589 -0.0041401
18841 0.0001530 -0.0039623 0.9998470 0.0039623 0.9998470 0.0039623 0.0001530 -0.0039623
19704 0.0001474 -0.0037922 0.9998526 0.0037922 0.9998526 0.0037922 0.0001474 -0.0037922
20606 0.0001420 -0.0036295 0.9998580 0.0036295 0.9998580 0.0036295 0.0001420 -0.0036295
21550 0.0001369 -0.0034739 0.9998631 0.0034739 0.9998631 0.0034739 0.0001369 -0.0034739
22537 0.0001320 -0.0033250 0.9998680 0.0033250 0.9998680 0.0033250 0.0001320 -0.0033250
23569 0.0001272 -0.0031825 0.9998728 0.0031825 0.9998728 0.0031825 0.0001272 -0.0031825
24648 0.0001226 -0.0030463 0.9998774 0.0030463 0.9998774 0.0030463 0.0001226 -0.0030463
25777 0.0001181 -0.0029159 0.9998819 0.0029159 0.9998819 0.0029159 0.0001181 -0.0029159
26957 0.0001138 -0.0027911 0.9998862 0.0027911 0.9998862 0.0027911 0.0001138 -0.0027911
28191 0.0001096 -0.0026717 0.9998904 0.0026717 0.9998904 0.0026717 0.0001096 -0.0026717
29482 0.0001055 -0.0025575 0.9998945 0.0025575 0.9998945 0.0025575 0.0001055 -0.0025575
30832 0.0001015 -0.0024481 0.9998985 0.0024481 0.9998985 0.0024481 0.0001015 -0.0024481
32244 0.0000977 -0.0023434 0.9999023 0.0023434 0.9999023 0.0023434 0.0000977 -0.0023434
33721 0.0000939 -0.0022432 0.9999061 0.0022432 0.9999061 0.0022432 0.0000939 -0.0022432
35265 0.0000903 -0.0021473 0.9999097 0.0021473 0.9999097 0.0021473 0.0000903 -0.0021473
36880 0.0000868 -0.0020554 0.9999132 0.0020554 0.9999132 0.0020554 0.0000868 -0.0020554
38569 0.0000834 -0.0019674 0.9999166 0.0019674 0.9999166 0.0019674 0.0000834 -0.0019674
40335 0.0000801 -0.0018832 0.9999199 0.0018832 0.9999199 0.0018832 0.0000801 -0.0018832
42182 0.0000769 -0.0018025 0.9999231 0.0018025 0.9999231 0.0018025 0.0000769 -0.0018025
44113 0.0000738 -0.0017252 0.9999262 0.0017252 0.9999262 0.0017252 0.0000738 -0.0017252
46134 0.0000709 -0.0016512 0.9999291 0.0016512 0.9999291 0.0016512 0.0000709 -0.0016512
48246 0.0000680 -0.0015803 0.9999320 0.0015803 0.9999320 0.0015803 0.0000680 -0.0015803
50455 0.0000653 -0.0015124 0.9999347 0.0015124 0.9999347 0.0015124 0.0000653 -0.0015124
52766 0.0000627 -0.0014473 0.9999373 0.0014473 0.9999373 0.0014473 0.0000627 -0.0014473
55182 0.0000602 -0.0013850 0.9999398 0.0013850 0.9999398 0.0013850 0.0000602 -0.0013850
57709 0.0000579 -0.0013253 0.9999421 0.0013253 0.9999421 0.0013253 0.0000579 -0.0013253
60352 0.0000556 -0.0012681 0.9999444 0.0012681 0.9999444 0.0012681 0.0000556 -0.0012681
63115 0.0000535 -0.0012133 0.9999465 0.0012133 0.9999465 0.0012133 0.0000535 -0.0012133
66005 0.0000515 -0.0011608 0.9999485 0.0011608 0.9999485 0.0011608 0.0000515 -0.0011608
69028 0.0000496 -0.0011105 0.9999504 0.0011105 0.9999504 0.0011105 0.0000496 -0.0011105
72189 0.0000478 -0.0010623 0.9999522 0.0010623 0.9999522 0.0010623 0.0000478 -0.0010623
75495 0.0000461 -0.0010162 0.9999539 0.0010162 0.9999539 0.0010162 0.0000461 -0.0010162
78952 0.0000445 -0.0009720 0.9999555 0.0009720 0.9999555 0.0009720 0.0000445 -0.0009720
82567 0.0000430 -0.0009296 0.9999570 0.0009296 0.9999570 0.0009296 0.0000430 -0.0009296
86348 0.0000416 -0.0008891 0.9999584 0.0008891 0.9999584 0.0008891 0.0000416 -0.0008891
90302 0.0000403 -0.0008503 0.9999597 0.0008503 0.9999597 0.0008503 0.0000403 -0.0008503
94437 0.0000391 -0.0008131 0.9999609 0.0008131 0.9999609 0.0008131 0.0000391 -0.0008131
98762 0.0000379 -0.0007774 0.9999621 0.0007774 0.9999621 0.0007774 0.0000379 -0.0007774
103284 0.0000368 -0.0007433 0.9999632 0.0007433 0.9999632 0.0007433 0.0000368 -0.0007433
108014 0.0000358 -0.0007106 0.9999642 0.0007106 0.9999642 0.0007106 0.0000358 -0.0007106
112960 0.0000349 -0.0006793 0.9999651 0.0006793 0.9999651 0.0006793 0.0000349 -0.0006793
118133 0.0000340 -0.0006494 0.9999660 0.0006494 0.9999660 0.0006494 0.0000340 -0.0006494
123542 0.0000332 -0.0006207 0.9999668 0.0006207 0.9999668 0.0006207 0.0000332 -0.0006207
129199 0.0000324 -0.0005932 0.9999676 0.0005932 0.9999676 0.0005932 0.0000324 -0.0005932
135116 0.0000317 -0.0005668 0.9999683 0.0005668 0.9999683 0.0005668 0.0000317 -0.0005668
141303 0.0000310 -0.0005416 0.9999690 0.0005416 0.9999690 0.0005416 0.0000310 -0.0005416
147774 0.0000304 -0.0005174 0.9999696 0.0005174 0.9999696 0.0005174 0.0000304 -0.0005174
154540 0.0000297 -0.0004942 0.9999703 0.0004942 0.9999703 0.0004942 0.0000297 -0.0004942
161617 0.0000292 -0.0004720 0.9999708 0.0004720 0.9999708 0.0004720 0.0000292 -0.0004720
169018 0.0000286 -0.0004507 0.9999714 0.0004507 0.9999714 0.0004507 0.0000286 -0.0004507
176758 0.0000281 -0.0004304 0.9999719 0.0004304 0.9999719 0.0004304 0.0000281 -0.0004304
184852 0.0000277 -0.0004108 0.9999723 0.0004108 0.9999723 0.0004108 0.0000277 -0.0004108
193316 0.0000272 -0.0003921 0.9999728 0.0003921 0.9999728 0.0003921 0.0000272 -0.0003921
202169 0.0000268 -0.0003741 0.9999732 0.0003741 0.9999732 0.0003741 0.0000268 -0.0003741
211427 0.0000264 -0.0003568 0.9999736 0.0003568 0.9999736 0.0003568 0.0000264 -0.0003568
221108 0.0000260 -0.0003403 0.9999740 0.0003403 0.9999740 0.0003403 0.0000260 -0.0003403
231233 0.0000256 -0.0003244 0.9999744 0.0003244 0.9999744 0.0003244 0.0000256 -0.0003244
241822 0.0000252 -0.0003091 0.9999748 0.0003091 0.9999748 0.0003091 0.0000252 -0.0003091
252896 0.0000249 -0.0002944 0.9999751 0.0002944 0.9999751 0.0002944 0.0000249 -0.0002944
264476 0.0000246 -0.0002803 0.9999754 0.0002803 0.9999754 0.0002803 0.0000246 -0.0002803
276587 0.0000243 -0.0002668 0.9999757 0.0002668 0.9999757 0.0002668 0.0000243 -0.0002668
289253 0.0000240 -0.0002538 0.9999760 0.0002538 0.9999760 0.0002538 0.0000240 -0.0002538
302498 0.0000237 -0.0002412 0.9999763 0.0002412 0.9999763 0.0002412 0.0000237 -0.0002412
316350 0.0000234 -0.0002291 0.9999766 0.0002291 0.9999766 0.0002291 0.0000234 -0.0002291
330837 0.0000232 -0.0002175 0.9999768 0.0002175 0.9999768 0.0002175 0.0000232 -0.0002175
345986 0.0000229 -0.0002062 0.9999771 0.0002062 0.9999771 0.0002062 0.0000229 -0.0002062
361830 0.0000227 -0.0001954 0.9999773 0.0001954 0.9999773 0.0001954 0.0000227 -0.0001954
378399 0.0000225 -0.0001849 0.9999775 0.0001849 0.9999775 0.0001849 0.0000225 -0.0001849
395726 0.0000223 -0.0001748 0.9999777 0.0001748 0.9999777 0.0001748 0.0000223 -0.0001748
413847 0.0000222 -0.0001650 0.9999778 0.0001650 0.9999778 0.0001650 0.0000222 -0.0001650
432798 0.0000220 -0.0001556 0.9999780 0.0001556 0.9999780 0.0001556 0.0000220 -0.0001556
452617 0.0000219 -0.0001464 0.9999781 0.0001464 0.9999781 0.0001464 0.0000219 -0.0001464
473344 0.0000218 -0.0001375 0.9999782 0.0001375 0.9999782 0.0001375 0.0000218 -0.0001375
495019 0.0000218 -0.0001288 0.9999782 0.0001288 0.9999782 0.0001288 0.0000218 -0.0001288
517687 0.0000217 -0.0001204 0.9999783 0.0001204 0.9999783 0.0001204 0.0000217 -0.0001204
541393 0.0000217 -0.0001122 0.9999783 0.0001122 0.9999783 0.0001122 0.0000217 -0.0001122
566185 0.0000217 -0.0001042 0.9999783 0.0001042 0.9999783 0.0001042 0.0000217 -0.0001042
592111 0.0000218 -0.0000965 0.9999782 0.0000965 0.9999782 0.0000965 0.0000218 -0.0000965
619225 0.0000218 -0.0000888 0.9999782 0.0000888 0.9999782 0.0000888 0.0000218 -0.0000888
647581 0.0000220 -0.0000814 0.9999780 0.0000814 0.9999780 0.0000814 0.0000220 -0.0000814
677235 0.0000221 -0.0000741 0.9999779 0.0000741 0.9999779 0.0000741 0.0000221 -0.0000741
708247 0.0000223 -0.0000669 0.9999777 0.0000669 0.9999777 0.0000669 0.0000223 -0.0000669
740679 0.0000225 -0.0000599 0.9999775 0.0000599 0.9999775 0.0000599 0.0000225 -0.0000599
774597 0.0000228 -0.0000529 0.9999772 0.0000529 0.9999772 0.0000529 0.0000228 -0.0000529
810067 0.0000232 -0.0000461 0.9999768 0.0000461 0.9999768 0.0000461 0.0000232 -0.0000461
847162 0.0000236 -0.0000393 0.9999764 0.0000393 0.9999764 0.0000393 0.0000236 -0.0000393
885955 0.0000240 -0.0000325 0.9999760 0.0000325 0.9999760 0.0000325 0.0000240 -0.0000325
926525 0.0000246 -0.0000258 0.9999754 0.0000258 0.9999754 0.0000258 0.0000246 -0.0000258
968953 0.0000252 -0.0000192 0.9999748 0.0000192 0.9999748 0.0000192 0.0000252 -0.0000192
1013323 0.0000259 -0.0000125 0.9999741 0.0000125 0.9999741 0.0000125 0.0000259 -0.0000125
1059725 0.0000266 -0.0000058 0.9999734 0.0000058 0.9999734 0.0000058 0.0000266 -0.0000058
1108252 0.0000276 0.0000010 0.9999724 -0.0000010 0.9999724 -0.0000010 0.0000276 0.0000010
1159002 0.0000286 0.0000078 0.9999714 -0.0000078 0.9999714 -0.0000078 0.0000286 0.0000078
1212075 0.0000298 0.0000148 0.9999702 -0.0000148 0.9999702 -0.0000148 0.0000298 0.0000148
1267578 0.0000313 0.0000218 0.9999687 -0.0000218 0.9999687 -0.0000218 0.0000313 0.0000218
1325623 0.0000330 0.0000291 0.9999670 -0.0000291 0.9999670 -0.0000291 0.0000330 0.0000291
1386327 0.0000350 0.0000366 0.9999650 -0.0000366 0.9999650 -0.0000366 0.0000350 0.0000366
1449809 0.0000375 0.0000444 0.9999625 -0.0000444 0.9999625 -0.0000444 0.0000375 0.0000444
1516199 0.0000407 0.0000525 0.9999593 -0.0000525 0.9999593 -0.0000525 0.0000407 0.0000525
1585629 0.0000448 0.0000611 0.9999552 -0.0000611 0.9999552 -0.0000611 0.0000448 0.0000611
1658239 0.0000504 0.0000699 0.9999496 -0.0000699 0.9999496 -0.0000699 0.0000504 0.0000699
1734173 0.0000584 0.0000787 0.9999416 -0.0000787 0.9999416 -0.0000787 0.0000584 0.0000787
1813585 0.0000698 0.0000861 0.9999302 -0.0000861 0.9999302 -0.0000861 0.0000698 0.0000861
1896632 0.0000850 0.0000888 0.9999150 -0.0000888 0.9999150 -0.0000888 0.0000850 0.0000888
1983483 0.0000999 0.0000820 0.9999001 -0.0000820 0.9999001 -0.0000820 0.0000999 0.0000820
2074311 0.0001042 0.0000679 0.9998958 -0.0000679 0.9998958 -0.0000679 0.0001042 0.0000679
