!Murata Part Number: GRM32DR60J226MA01
!These Parameters are Measured in Series Mode Connection
!Data Generated on Mar 30, 2021
!       o--ll--o
!Port1            Port2
!       o------o
!Operation Temp=25[degC], DC Bias Voltage=0[V]
!Freq. Start=100[Hz] Stop=6[GHz] 401[Steps]
# Hz S RI R 50
!Freq.(Hz) S11(Real) S11(Imag) S21(Real) S21(Imag) S12(Real) S12(Imag) S22(Real) S22(Imag)
100 0.4805666 -0.4890404 0.5194334 0.4890404 0.5194334 0.4890404 0.4805666 -0.4890404
105 0.4589931 -0.4877348 0.5410069 0.4877348 0.5410069 0.4877348 0.4589931 -0.4877348
109 0.4375727 -0.4855008 0.5624273 0.4855008 0.5624273 0.4855008 0.4375727 -0.4855008
114 0.4163860 -0.4823593 0.5836140 0.4823593 0.5836140 0.4823593 0.4163860 -0.4823593
120 0.3955097 -0.4783398 0.6044903 0.4783398 0.6044903 0.4783398 0.3955097 -0.4783398
125 0.3750160 -0.4734797 0.6249840 0.4734797 0.6249840 0.4734797 0.3750160 -0.4734797
131 0.3549715 -0.4678233 0.6450285 0.4678233 0.6450285 0.4678233 0.3549715 -0.4678233
137 0.3354363 -0.4614208 0.6645637 0.4614208 0.6645637 0.4614208 0.3354363 -0.4614208
143 0.3164636 -0.4543275 0.6835364 0.4543275 0.6835364 0.4543275 0.3164636 -0.4543275
150 0.2980990 -0.4466024 0.7019010 0.4466024 0.7019010 0.4466024 0.2980990 -0.4466024
156 0.2803805 -0.4383072 0.7196195 0.4383072 0.7196195 0.4383072 0.2803805 -0.4383072
164 0.2633387 -0.4295054 0.7366613 0.4295054 0.7366613 0.4295054 0.2633387 -0.4295054
171 0.2469963 -0.4202607 0.7530037 0.4202607 0.7530037 0.4202607 0.2469963 -0.4202607
179 0.2313691 -0.4106367 0.7686309 0.4106367 0.7686309 0.4106367 0.2313691 -0.4106367
187 0.2164659 -0.4006955 0.7835341 0.4006955 0.7835341 0.4006955 0.2164659 -0.4006955
196 0.2022892 -0.3904973 0.7977108 0.3904973 0.7977108 0.3904973 0.2022892 -0.3904973
205 0.1888360 -0.3800997 0.8111640 0.3800997 0.8111640 0.3800997 0.1888360 -0.3800997
214 0.1760979 -0.3695571 0.8239021 0.3695571 0.8239021 0.3695571 0.1760979 -0.3695571
224 0.1640624 -0.3589205 0.8359376 0.3589205 0.8359376 0.3589205 0.1640624 -0.3589205
234 0.1527131 -0.3482368 0.8472869 0.3482368 0.8472869 0.3482368 0.1527131 -0.3482368
245 0.1420305 -0.3375495 0.8579695 0.3375495 0.8579695 0.3375495 0.1420305 -0.3375495
256 0.1319924 -0.3268976 0.8680076 0.3268976 0.8680076 0.3268976 0.1319924 -0.3268976
268 0.1225749 -0.3163166 0.8774251 0.3163166 0.8774251 0.3163166 0.1225749 -0.3163166
280 0.1137526 -0.3058378 0.8862474 0.3058378 0.8862474 0.3058378 0.1137526 -0.3058378
293 0.1054990 -0.2954888 0.8945010 0.2954888 0.8945010 0.2954888 0.1054990 -0.2954888
306 0.0977872 -0.2852938 0.9022128 0.2852938 0.9022128 0.2852938 0.0977872 -0.2852938
320 0.0905901 -0.2752736 0.9094099 0.2752736 0.9094099 0.2752736 0.0905901 -0.2752736
335 0.0838805 -0.2654458 0.9161195 0.2654458 0.9161195 0.2654458 0.0838805 -0.2654458
350 0.0776318 -0.2558252 0.9223682 0.2558252 0.9223682 0.2558252 0.0776318 -0.2558252
366 0.0718178 -0.2464239 0.9281822 0.2464239 0.9281822 0.2464239 0.0718178 -0.2464239
383 0.0664130 -0.2372518 0.9335870 0.2372518 0.9335870 0.2372518 0.0664130 -0.2372518
401 0.0613928 -0.2283165 0.9386072 0.2283165 0.9386072 0.2283165 0.0613928 -0.2283165
419 0.0567334 -0.2196237 0.9432666 0.2196237 0.9432666 0.2196237 0.0567334 -0.2196237
438 0.0524122 -0.2111773 0.9475878 0.2111773 0.9475878 0.2111773 0.0524122 -0.2111773
458 0.0484075 -0.2029800 0.9515925 0.2029800 0.9515925 0.2029800 0.0484075 -0.2029800
479 0.0446984 -0.1950329 0.9553016 0.1950329 0.9553016 0.1950329 0.0446984 -0.1950329
501 0.0412655 -0.1873359 0.9587345 0.1873359 0.9587345 0.1873359 0.0412655 -0.1873359
524 0.0380901 -0.1798881 0.9619099 0.1798881 0.9619099 0.1798881 0.0380901 -0.1798881
548 0.0351545 -0.1726875 0.9648455 0.1726875 0.9648455 0.1726875 0.0351545 -0.1726875
573 0.0324422 -0.1657315 0.9675578 0.1657315 0.9675578 0.1657315 0.0324422 -0.1657315
600 0.0299375 -0.1590168 0.9700625 0.1590168 0.9700625 0.1590168 0.0299375 -0.1590168
627 0.0276257 -0.1525394 0.9723743 0.1525394 0.9723743 0.1525394 0.0276257 -0.1525394
656 0.0254928 -0.1462950 0.9745072 0.1462950 0.9745072 0.1462950 0.0254928 -0.1462950
686 0.0235260 -0.1402788 0.9764740 0.1402788 0.9764740 0.1402788 0.0235260 -0.1402788
717 0.0217131 -0.1344859 0.9782869 0.1344859 0.9782869 0.1344859 0.0217131 -0.1344859
750 0.0200426 -0.1289107 0.9799574 0.1289107 0.9799574 0.1289107 0.0200426 -0.1289107
784 0.0185038 -0.1235479 0.9814962 0.1235479 0.9814962 0.1235479 0.0185038 -0.1235479
820 0.0170869 -0.1183917 0.9829131 0.1183917 0.9829131 0.1183917 0.0170869 -0.1183917
858 0.0157824 -0.1134361 0.9842176 0.1134361 0.9842176 0.1134361 0.0157824 -0.1134361
897 0.0145818 -0.1086755 0.9854182 0.1086755 0.9854182 0.1086755 0.0145818 -0.1086755
938 0.0134769 -0.1041037 0.9865231 0.1041037 0.9865231 0.1041037 0.0134769 -0.1041037
981 0.0124603 -0.0997148 0.9875397 0.0997148 0.9875397 0.0997148 0.0124603 -0.0997148
1026 0.0115249 -0.0955028 0.9884751 0.0955028 0.9884751 0.0955028 0.0115249 -0.0955028
1073 0.0106643 -0.0914618 0.9893357 0.0914618 0.9893357 0.0914618 0.0106643 -0.0914618
1122 0.0098725 -0.0875860 0.9901275 0.0875860 0.9901275 0.0875860 0.0098725 -0.0875860
1174 0.0091439 -0.0838694 0.9908561 0.0838694 0.9908561 0.0838694 0.0091439 -0.0838694
1227 0.0084734 -0.0803064 0.9915266 0.0803064 0.9915266 0.0803064 0.0084734 -0.0803064
1283 0.0078561 -0.0768913 0.9921439 0.0768913 0.9921439 0.0768913 0.0078561 -0.0768913
1342 0.0072877 -0.0736186 0.9927123 0.0736186 0.9927123 0.0736186 0.0072877 -0.0736186
1404 0.0067641 -0.0704829 0.9932359 0.0704829 0.9932359 0.0704829 0.0067641 -0.0704829
1468 0.0062817 -0.0674789 0.9937183 0.0674789 0.9937183 0.0674789 0.0062817 -0.0674789
1535 0.0058368 -0.0646015 0.9941632 0.0646015 0.9941632 0.0646015 0.0058368 -0.0646015
1606 0.0054264 -0.0618456 0.9945736 0.0618456 0.9945736 0.0618456 0.0054264 -0.0618456
1679 0.0050476 -0.0592064 0.9949524 0.0592064 0.9949524 0.0592064 0.0050476 -0.0592064
1756 0.0046977 -0.0566792 0.9953023 0.0566792 0.9953023 0.0566792 0.0046977 -0.0566792
1836 0.0043742 -0.0542592 0.9956258 0.0542592 0.9956258 0.0542592 0.0043742 -0.0542592
1920 0.0040749 -0.0519422 0.9959251 0.0519422 0.9959251 0.0519422 0.0040749 -0.0519422
2008 0.0037979 -0.0497238 0.9962021 0.0497238 0.9962021 0.0497238 0.0037979 -0.0497238
2100 0.0035412 -0.0475998 0.9964588 0.0475998 0.9964588 0.0475998 0.0035412 -0.0475998
2196 0.0033032 -0.0455663 0.9966968 0.0455663 0.9966968 0.0455663 0.0033032 -0.0455663
2297 0.0030823 -0.0436194 0.9969177 0.0436194 0.9969177 0.0436194 0.0030823 -0.0436194
2402 0.0028771 -0.0417554 0.9971229 0.0417554 0.9971229 0.0417554 0.0028771 -0.0417554
2512 0.0026864 -0.0399708 0.9973136 0.0399708 0.9973136 0.0399708 0.0026864 -0.0399708
2627 0.0025091 -0.0382622 0.9974909 0.0382622 0.9974909 0.0382622 0.0025091 -0.0382622
2748 0.0023440 -0.0366262 0.9976560 0.0366262 0.9976560 0.0366262 0.0023440 -0.0366262
2873 0.0021903 -0.0350597 0.9978097 0.0350597 0.9978097 0.0350597 0.0021903 -0.0350597
3005 0.0020472 -0.0335598 0.9979528 0.0335598 0.9979528 0.0335598 0.0020472 -0.0335598
3143 0.0019138 -0.0321236 0.9980862 0.0321236 0.9980862 0.0321236 0.0019138 -0.0321236
3287 0.0017894 -0.0307484 0.9982106 0.0307484 0.9982106 0.0307484 0.0017894 -0.0307484
3437 0.0016735 -0.0294315 0.9983265 0.0294315 0.9983265 0.0294315 0.0016735 -0.0294315
3594 0.0015655 -0.0281704 0.9984345 0.0281704 0.9984345 0.0281704 0.0015655 -0.0281704
3759 0.0014648 -0.0269629 0.9985352 0.0269629 0.9985352 0.0269629 0.0014648 -0.0269629
3931 0.0013709 -0.0258065 0.9986291 0.0258065 0.9986291 0.0258065 0.0013709 -0.0258065
4111 0.0012834 -0.0246991 0.9987166 0.0246991 0.9987166 0.0246991 0.0012834 -0.0246991
4299 0.0012019 -0.0236387 0.9987981 0.0236387 0.9987981 0.0236387 0.0012019 -0.0236387
4496 0.0011260 -0.0226233 0.9988740 0.0226233 0.9988740 0.0226233 0.0011260 -0.0226233
4702 0.0010553 -0.0216510 0.9989447 0.0216510 0.9989447 0.0216510 0.0010553 -0.0216510
4918 0.0009895 -0.0207201 0.9990105 0.0207201 0.9990105 0.0207201 0.0009895 -0.0207201
5143 0.0009283 -0.0198287 0.9990717 0.0198287 0.9990717 0.0198287 0.0009283 -0.0198287
5378 0.0008714 -0.0189752 0.9991286 0.0189752 0.9991286 0.0189752 0.0008714 -0.0189752
5625 0.0008186 -0.0181582 0.9991814 0.0181582 0.9991814 0.0181582 0.0008186 -0.0181582
5882 0.0007694 -0.0173760 0.9992306 0.0173760 0.9992306 0.0173760 0.0007694 -0.0173760
6151 0.0007238 -0.0166272 0.9992762 0.0166272 0.9992762 0.0166272 0.0007238 -0.0166272
6433 0.0006814 -0.0159104 0.9993186 0.0159104 0.9993186 0.0159104 0.0006814 -0.0159104
6728 0.0006420 -0.0152243 0.9993580 0.0152243 0.9993580 0.0152243 0.0006420 -0.0152243
7036 0.0006055 -0.0145677 0.9993945 0.0145677 0.9993945 0.0145677 0.0006055 -0.0145677
7358 0.0005716 -0.0139392 0.9994284 0.0139392 0.9994284 0.0139392 0.0005716 -0.0139392
7695 0.0005401 -0.0133378 0.9994599 0.0133378 0.9994599 0.0133378 0.0005401 -0.0133378
8047 0.0005108 -0.0127623 0.9994892 0.0127623 0.9994892 0.0127623 0.0005108 -0.0127623
8416 0.0004836 -0.0122116 0.9995164 0.0122116 0.9995164 0.0122116 0.0004836 -0.0122116
8801 0.0004583 -0.0116847 0.9995417 0.0116847 0.9995417 0.0116847 0.0004583 -0.0116847
9204 0.0004348 -0.0111805 0.9995652 0.0111805 0.9995652 0.0111805 0.0004348 -0.0111805
9626 0.0004129 -0.0106982 0.9995871 0.0106982 0.9995871 0.0106982 0.0004129 -0.0106982
10066 0.0003925 -0.0102367 0.9996075 0.0102367 0.9996075 0.0102367 0.0003925 -0.0102367
10527 0.0003735 -0.0097953 0.9996265 0.0097953 0.9996265 0.0097953 0.0003735 -0.0097953
11009 0.0003557 -0.0093729 0.9996443 0.0093729 0.9996443 0.0093729 0.0003557 -0.0093729
11514 0.0003391 -0.0089690 0.9996609 0.0089690 0.9996609 0.0089690 0.0003391 -0.0089690
12041 0.0003235 -0.0085825 0.9996765 0.0085825 0.9996765 0.0085825 0.0003235 -0.0085825
12592 0.0003088 -0.0082129 0.9996912 0.0082129 0.9996912 0.0082129 0.0003088 -0.0082129
13169 0.0002950 -0.0078593 0.9997050 0.0078593 0.9997050 0.0078593 0.0002950 -0.0078593
13772 0.0002820 -0.0075210 0.9997180 0.0075210 0.9997180 0.0075210 0.0002820 -0.0075210
14402 0.0002697 -0.0071975 0.9997303 0.0071975 0.9997303 0.0071975 0.0002697 -0.0071975
15062 0.0002581 -0.0068880 0.9997419 0.0068880 0.9997419 0.0068880 0.0002581 -0.0068880
15752 0.0002470 -0.0065919 0.9997530 0.0065919 0.9997530 0.0065919 0.0002470 -0.0065919
16473 0.0002366 -0.0063086 0.9997634 0.0063086 0.9997634 0.0063086 0.0002366 -0.0063086
17227 0.0002266 -0.0060377 0.9997734 0.0060377 0.9997734 0.0060377 0.0002266 -0.0060377
18016 0.0002170 -0.0057784 0.9997830 0.0057784 0.9997830 0.0057784 0.0002170 -0.0057784
18841 0.0002079 -0.0055304 0.9997921 0.0055304 0.9997921 0.0055304 0.0002079 -0.0055304
19704 0.0001992 -0.0052930 0.9998008 0.0052930 0.9998008 0.0052930 0.0001992 -0.0052930
20606 0.0001909 -0.0050659 0.9998091 0.0050659 0.9998091 0.0050659 0.0001909 -0.0050659
21550 0.0001829 -0.0048486 0.9998171 0.0048486 0.9998171 0.0048486 0.0001829 -0.0048486
22537 0.0001753 -0.0046406 0.9998247 0.0046406 0.9998247 0.0046406 0.0001753 -0.0046406
23569 0.0001679 -0.0044415 0.9998321 0.0044415 0.9998321 0.0044415 0.0001679 -0.0044415
24648 0.0001609 -0.0042510 0.9998391 0.0042510 0.9998391 0.0042510 0.0001609 -0.0042510
25777 0.0001541 -0.0040687 0.9998459 0.0040687 0.9998459 0.0040687 0.0001541 -0.0040687
26957 0.0001476 -0.0038941 0.9998524 0.0038941 0.9998524 0.0038941 0.0001476 -0.0038941
28191 0.0001414 -0.0037270 0.9998586 0.0037270 0.9998586 0.0037270 0.0001414 -0.0037270
29482 0.0001355 -0.0035670 0.9998645 0.0035670 0.9998645 0.0035670 0.0001355 -0.0035670
30832 0.0001298 -0.0034139 0.9998702 0.0034139 0.9998702 0.0034139 0.0001298 -0.0034139
32244 0.0001244 -0.0032673 0.9998756 0.0032673 0.9998756 0.0032673 0.0001244 -0.0032673
33721 0.0001192 -0.0031269 0.9998808 0.0031269 0.9998808 0.0031269 0.0001192 -0.0031269
35265 0.0001143 -0.0029925 0.9998857 0.0029925 0.9998857 0.0029925 0.0001143 -0.0029925
36880 0.0001096 -0.0028638 0.9998904 0.0028638 0.9998904 0.0028638 0.0001096 -0.0028638
38569 0.0001051 -0.0027406 0.9998949 0.0027406 0.9998949 0.0027406 0.0001051 -0.0027406
40335 0.0001008 -0.0026227 0.9998992 0.0026227 0.9998992 0.0026227 0.0001008 -0.0026227
42182 0.0000968 -0.0025098 0.9999032 0.0025098 0.9999032 0.0025098 0.0000968 -0.0025098
44113 0.0000930 -0.0024017 0.9999070 0.0024017 0.9999070 0.0024017 0.0000930 -0.0024017
46134 0.0000894 -0.0022982 0.9999106 0.0022982 0.9999106 0.0022982 0.0000894 -0.0022982
48246 0.0000860 -0.0021991 0.9999140 0.0021991 0.9999140 0.0021991 0.0000860 -0.0021991
50455 0.0000827 -0.0021043 0.9999173 0.0021043 0.9999173 0.0021043 0.0000827 -0.0021043
52766 0.0000797 -0.0020135 0.9999203 0.0020135 0.9999203 0.0020135 0.0000797 -0.0020135
55182 0.0000768 -0.0019266 0.9999232 0.0019266 0.9999232 0.0019266 0.0000768 -0.0019266
57709 0.0000740 -0.0018434 0.9999260 0.0018434 0.9999260 0.0018434 0.0000740 -0.0018434
60352 0.0000714 -0.0017638 0.9999286 0.0017638 0.9999286 0.0017638 0.0000714 -0.0017638
63115 0.0000690 -0.0016876 0.9999310 0.0016876 0.9999310 0.0016876 0.0000690 -0.0016876
66005 0.0000667 -0.0016147 0.9999333 0.0016147 0.9999333 0.0016147 0.0000667 -0.0016147
69028 0.0000645 -0.0015449 0.9999355 0.0015449 0.9999355 0.0015449 0.0000645 -0.0015449
72189 0.0000624 -0.0014781 0.9999376 0.0014781 0.9999376 0.0014781 0.0000624 -0.0014781
75495 0.0000604 -0.0014142 0.9999396 0.0014142 0.9999396 0.0014142 0.0000604 -0.0014142
78952 0.0000585 -0.0013530 0.9999415 0.0013530 0.9999415 0.0013530 0.0000585 -0.0013530
82567 0.0000567 -0.0012944 0.9999433 0.0012944 0.9999433 0.0012944 0.0000567 -0.0012944
86348 0.0000550 -0.0012384 0.9999450 0.0012384 0.9999450 0.0012384 0.0000550 -0.0012384
90302 0.0000534 -0.0011847 0.9999466 0.0011847 0.9999466 0.0011847 0.0000534 -0.0011847
94437 0.0000518 -0.0011334 0.9999482 0.0011334 0.9999482 0.0011334 0.0000518 -0.0011334
98762 0.0000503 -0.0010842 0.9999497 0.0010842 0.9999497 0.0010842 0.0000503 -0.0010842
103284 0.0000489 -0.0010372 0.9999511 0.0010372 0.9999511 0.0010372 0.0000489 -0.0010372
108014 0.0000475 -0.0009921 0.9999525 0.0009921 0.9999525 0.0009921 0.0000475 -0.0009921
112960 0.0000461 -0.0009490 0.9999539 0.0009490 0.9999539 0.0009490 0.0000461 -0.0009490
118133 0.0000448 -0.0009077 0.9999552 0.0009077 0.9999552 0.0009077 0.0000448 -0.0009077
123542 0.0000436 -0.0008682 0.9999564 0.0008682 0.9999564 0.0008682 0.0000436 -0.0008682
129199 0.0000424 -0.0008303 0.9999576 0.0008303 0.9999576 0.0008303 0.0000424 -0.0008303
135116 0.0000412 -0.0007940 0.9999588 0.0007940 0.9999588 0.0007940 0.0000412 -0.0007940
141303 0.0000401 -0.0007592 0.9999599 0.0007592 0.9999599 0.0007592 0.0000401 -0.0007592
147774 0.0000390 -0.0007259 0.9999610 0.0007259 0.9999610 0.0007259 0.0000390 -0.0007259
154540 0.0000379 -0.0006940 0.9999621 0.0006940 0.9999621 0.0006940 0.0000379 -0.0006940
161617 0.0000369 -0.0006634 0.9999631 0.0006634 0.9999631 0.0006634 0.0000369 -0.0006634
169018 0.0000360 -0.0006341 0.9999640 0.0006341 0.9999640 0.0006341 0.0000360 -0.0006341
176758 0.0000350 -0.0006060 0.9999650 0.0006060 0.9999650 0.0006060 0.0000350 -0.0006060
184852 0.0000341 -0.0005790 0.9999659 0.0005790 0.9999659 0.0005790 0.0000341 -0.0005790
193316 0.0000333 -0.0005532 0.9999667 0.0005532 0.9999667 0.0005532 0.0000333 -0.0005532
202169 0.0000324 -0.0005284 0.9999676 0.0005284 0.9999676 0.0005284 0.0000324 -0.0005284
211427 0.0000316 -0.0005046 0.9999684 0.0005046 0.9999684 0.0005046 0.0000316 -0.0005046
221108 0.0000309 -0.0004817 0.9999691 0.0004817 0.9999691 0.0004817 0.0000309 -0.0004817
231233 0.0000302 -0.0004598 0.9999698 0.0004598 0.9999698 0.0004598 0.0000302 -0.0004598
241822 0.0000295 -0.0004388 0.9999705 0.0004388 0.9999705 0.0004388 0.0000295 -0.0004388
252896 0.0000289 -0.0004185 0.9999711 0.0004185 0.9999711 0.0004185 0.0000289 -0.0004185
264476 0.0000283 -0.0003991 0.9999717 0.0003991 0.9999717 0.0003991 0.0000283 -0.0003991
276587 0.0000277 -0.0003805 0.9999723 0.0003805 0.9999723 0.0003805 0.0000277 -0.0003805
289253 0.0000272 -0.0003626 0.9999728 0.0003626 0.9999728 0.0003626 0.0000272 -0.0003626
302498 0.0000267 -0.0003453 0.9999733 0.0003453 0.9999733 0.0003453 0.0000267 -0.0003453
316350 0.0000262 -0.0003288 0.9999738 0.0003288 0.9999738 0.0003288 0.0000262 -0.0003288
330837 0.0000258 -0.0003128 0.9999742 0.0003128 0.9999742 0.0003128 0.0000258 -0.0003128
345986 0.0000254 -0.0002975 0.9999746 0.0002975 0.9999746 0.0002975 0.0000254 -0.0002975
361830 0.0000250 -0.0002827 0.9999750 0.0002827 0.9999750 0.0002827 0.0000250 -0.0002827
378399 0.0000247 -0.0002685 0.9999753 0.0002685 0.9999753 0.0002685 0.0000247 -0.0002685
395726 0.0000244 -0.0002548 0.9999756 0.0002548 0.9999756 0.0002548 0.0000244 -0.0002548
413847 0.0000241 -0.0002416 0.9999759 0.0002416 0.9999759 0.0002416 0.0000241 -0.0002416
432798 0.0000239 -0.0002289 0.9999761 0.0002289 0.9999761 0.0002289 0.0000239 -0.0002289
452617 0.0000237 -0.0002166 0.9999763 0.0002166 0.9999763 0.0002166 0.0000237 -0.0002166
473344 0.0000235 -0.0002047 0.9999765 0.0002047 0.9999765 0.0002047 0.0000235 -0.0002047
495019 0.0000234 -0.0001932 0.9999766 0.0001932 0.9999766 0.0001932 0.0000234 -0.0001932
517687 0.0000232 -0.0001821 0.9999768 0.0001821 0.9999768 0.0001821 0.0000232 -0.0001821
541393 0.0000231 -0.0001714 0.9999769 0.0001714 0.9999769 0.0001714 0.0000231 -0.0001714
566185 0.0000231 -0.0001610 0.9999769 0.0001610 0.9999769 0.0001610 0.0000231 -0.0001610
592111 0.0000230 -0.0001509 0.9999770 0.0001509 0.9999770 0.0001509 0.0000230 -0.0001509
619225 0.0000230 -0.0001411 0.9999770 0.0001411 0.9999770 0.0001411 0.0000230 -0.0001411
647581 0.0000230 -0.0001316 0.9999770 0.0001316 0.9999770 0.0001316 0.0000230 -0.0001316
677235 0.0000231 -0.0001223 0.9999769 0.0001223 0.9999769 0.0001223 0.0000231 -0.0001223
708247 0.0000231 -0.0001133 0.9999769 0.0001133 0.9999769 0.0001133 0.0000231 -0.0001133
740679 0.0000232 -0.0001044 0.9999768 0.0001044 0.9999768 0.0001044 0.0000232 -0.0001044
774597 0.0000234 -0.0000958 0.9999766 0.0000958 0.9999766 0.0000958 0.0000234 -0.0000958
810067 0.0000235 -0.0000874 0.9999765 0.0000874 0.9999765 0.0000874 0.0000235 -0.0000874
847162 0.0000237 -0.0000791 0.9999763 0.0000791 0.9999763 0.0000791 0.0000237 -0.0000791
885955 0.0000239 -0.0000710 0.9999761 0.0000710 0.9999761 0.0000710 0.0000239 -0.0000710
926525 0.0000242 -0.0000630 0.9999758 0.0000630 0.9999758 0.0000630 0.0000242 -0.0000630
968953 0.0000245 -0.0000551 0.9999755 0.0000551 0.9999755 0.0000551 0.0000245 -0.0000551
1013323 0.0000249 -0.0000474 0.9999751 0.0000474 0.9999751 0.0000474 0.0000249 -0.0000474
1059725 0.0000253 -0.0000397 0.9999747 0.0000397 0.9999747 0.0000397 0.0000253 -0.0000397
1108252 0.0000258 -0.0000320 0.9999742 0.0000320 0.9999742 0.0000320 0.0000258 -0.0000320
1159002 0.0000263 -0.0000244 0.9999737 0.0000244 0.9999737 0.0000244 0.0000263 -0.0000244
1212075 0.0000269 -0.0000168 0.9999731 0.0000168 0.9999731 0.0000168 0.0000269 -0.0000168
1267578 0.0000276 -0.0000092 0.9999724 0.0000092 0.9999724 0.0000092 0.0000276 -0.0000092
1325623 0.0000284 -0.0000016 0.9999716 0.0000016 0.9999716 0.0000016 0.0000284 -0.0000016
1386327 0.0000293 0.0000060 0.9999707 -0.0000060 0.9999707 -0.0000060 0.0000293 0.0000060
1449809 0.0000303 0.0000138 0.9999697 -0.0000138 0.9999697 -0.0000138 0.0000303 0.0000138
1516199 0.0000315 0.0000216 0.9999685 -0.0000216 0.9999685 -0.0000216 0.0000315 0.0000216
1585629 0.0000329 0.0000296 0.9999671 -0.0000296 0.9999671 -0.0000296 0.0000329 0.0000296
1658239 0.0000345 0.0000378 0.9999655 -0.0000378 0.9999655 -0.0000378 0.0000345 0.0000378
1734173 0.0000364 0.0000461 0.9999636 -0.0000461 0.9999636 -0.0000461 0.0000364 0.0000461
1813585 0.0000388 0.0000548 0.9999612 -0.0000548 0.9999612 -0.0000548 0.0000388 0.0000548
1896632 0.0000416 0.0000638 0.9999584 -0.0000638 0.9999584 -0.0000638 0.0000416 0.0000638
1983483 0.0000453 0.0000731 0.9999547 -0.0000731 0.9999547 -0.0000731 0.0000453 0.0000731
2074311 0.0000501 0.0000827 0.9999499 -0.0000827 0.9999499 -0.0000827 0.0000501 0.0000827
