!Murata Part Number: GRM32NB11H684KA01
!These Parameters are Measured in Series Mode Connection
!Data Generated on Mar 30, 2021
!       o--ll--o
!Port1            Port2
!       o------o
!Operation Temp=25[degC], DC Bias Voltage=0[V]
!Freq. Start=100[Hz] Stop=6[GHz] 401[Steps]
# Hz S RI R 50
!Freq.(Hz) S11(Real) S11(Imag) S21(Real) S21(Imag) S12(Real) S12(Imag) S22(Real) S22(Imag)
100 0.9980152 -0.0423225 0.0019848 0.0423225 0.0019848 0.0423225 0.9980152 -0.0423225
105 0.9978394 -0.0442467 0.0021606 0.0442467 0.0021606 0.0442467 0.9978394 -0.0442467
109 0.9976476 -0.0462577 0.0023524 0.0462577 0.0023524 0.0462577 0.9976476 -0.0462577
114 0.9974384 -0.0483592 0.0025616 0.0483592 0.0025616 0.0483592 0.9974384 -0.0483592
120 0.9972102 -0.0505553 0.0027898 0.0505553 0.0027898 0.0505553 0.9972102 -0.0505553
125 0.9969611 -0.0528501 0.0030389 0.0528501 0.0030389 0.0528501 0.9969611 -0.0528501
131 0.9966893 -0.0552477 0.0033107 0.0552477 0.0033107 0.0552477 0.9966893 -0.0552477
137 0.9963928 -0.0577526 0.0036072 0.0577526 0.0036072 0.0577526 0.9963928 -0.0577526
143 0.9960693 -0.0603694 0.0039307 0.0603694 0.0039307 0.0603694 0.9960693 -0.0603694
150 0.9957162 -0.0631028 0.0042838 0.0631028 0.0042838 0.0631028 0.9957162 -0.0631028
156 0.9953311 -0.0659578 0.0046689 0.0659578 0.0046689 0.0659578 0.9953311 -0.0659578
164 0.9949108 -0.0689395 0.0050892 0.0689395 0.0050892 0.0689395 0.9949108 -0.0689395
171 0.9944524 -0.0720530 0.0055476 0.0720530 0.0055476 0.0720530 0.9944524 -0.0720530
179 0.9939522 -0.0753039 0.0060478 0.0753039 0.0060478 0.0753039 0.9939522 -0.0753039
187 0.9934066 -0.0786978 0.0065934 0.0786978 0.0065934 0.0786978 0.9934066 -0.0786978
196 0.9928114 -0.0822403 0.0071886 0.0822403 0.0071886 0.0822403 0.9928114 -0.0822403
205 0.9921623 -0.0859375 0.0078377 0.0859375 0.0078377 0.0859375 0.9921623 -0.0859375
214 0.9914543 -0.0897955 0.0085457 0.0897955 0.0085457 0.0897955 0.9914543 -0.0897955
224 0.9906823 -0.0938203 0.0093177 0.0938203 0.0093177 0.0938203 0.9906823 -0.0938203
234 0.9898404 -0.0980185 0.0101596 0.0980185 0.0101596 0.0980185 0.9898404 -0.0980185
245 0.9889225 -0.1023964 0.0110775 0.1023964 0.0110775 0.1023964 0.9889225 -0.1023964
256 0.9879219 -0.1069607 0.0120781 0.1069607 0.0120781 0.1069607 0.9879219 -0.1069607
268 0.9868312 -0.1117180 0.0131688 0.1117180 0.0131688 0.1117180 0.9868312 -0.1117180
280 0.9856424 -0.1166750 0.0143576 0.1166750 0.0143576 0.1166750 0.9856424 -0.1166750
293 0.9843471 -0.1218385 0.0156529 0.1218385 0.0156529 0.1218385 0.9843471 -0.1218385
306 0.9829358 -0.1272151 0.0170642 0.1272151 0.0170642 0.1272151 0.9829358 -0.1272151
320 0.9813986 -0.1328114 0.0186014 0.1328114 0.0186014 0.1328114 0.9813986 -0.1328114
335 0.9797247 -0.1386341 0.0202753 0.1386341 0.0202753 0.1386341 0.9797247 -0.1386341
350 0.9779022 -0.1446895 0.0220978 0.1446895 0.0220978 0.1446895 0.9779022 -0.1446895
366 0.9759186 -0.1509837 0.0240814 0.1509837 0.0240814 0.1509837 0.9759186 -0.1509837
383 0.9737604 -0.1575224 0.0262396 0.1575224 0.0262396 0.1575224 0.9737604 -0.1575224
401 0.9714130 -0.1643113 0.0285870 0.1643113 0.0285870 0.1643113 0.9714130 -0.1643113
419 0.9688608 -0.1713551 0.0311392 0.1713551 0.0311392 0.1713551 0.9688608 -0.1713551
438 0.9660873 -0.1786582 0.0339127 0.1786582 0.0339127 0.1786582 0.9660873 -0.1786582
458 0.9630746 -0.1862243 0.0369254 0.1862243 0.0369254 0.1862243 0.9630746 -0.1862243
479 0.9598038 -0.1940562 0.0401962 0.1940562 0.0401962 0.1940562 0.9598038 -0.1940562
501 0.9562549 -0.2021555 0.0437451 0.2021555 0.0437451 0.2021555 0.9562549 -0.2021555
524 0.9524066 -0.2105231 0.0475934 0.2105231 0.0475934 0.2105231 0.9524066 -0.2105231
548 0.9482366 -0.2191581 0.0517634 0.2191581 0.0517634 0.2191581 0.9482366 -0.2191581
573 0.9437212 -0.2280585 0.0562788 0.2280585 0.0562788 0.2280585 0.9437212 -0.2280585
600 0.9388357 -0.2372204 0.0611643 0.2372204 0.0611643 0.2372204 0.9388357 -0.2372204
627 0.9335546 -0.2466379 0.0664454 0.2466379 0.0664454 0.2466379 0.9335546 -0.2466379
656 0.9278510 -0.2563031 0.0721490 0.2563031 0.0721490 0.2563031 0.9278510 -0.2563031
686 0.9216975 -0.2662056 0.0783025 0.2662056 0.0783025 0.2662056 0.9216975 -0.2662056
717 0.9150658 -0.2763327 0.0849342 0.2763327 0.0849342 0.2763327 0.9150658 -0.2763327
750 0.9079273 -0.2866684 0.0920727 0.2866684 0.0920727 0.2866684 0.9079273 -0.2866684
784 0.9002528 -0.2971938 0.0997472 0.2971938 0.0997472 0.2971938 0.9002528 -0.2971938
820 0.8920134 -0.3078868 0.1079866 0.3078868 0.1079866 0.3078868 0.8920134 -0.3078868
858 0.8831805 -0.3187215 0.1168195 0.3187215 0.1168195 0.3187215 0.8831805 -0.3187215
897 0.8737259 -0.3296685 0.1262741 0.3296685 0.1262741 0.3296685 0.8737259 -0.3296685
938 0.8636229 -0.3406942 0.1363771 0.3406942 0.1363771 0.3406942 0.8636229 -0.3406942
981 0.8528462 -0.3517612 0.1471538 0.3517612 0.1471538 0.3517612 0.8528462 -0.3517612
1026 0.8413728 -0.3628279 0.1586272 0.3628279 0.1586272 0.3628279 0.8413728 -0.3628279
1073 0.8291822 -0.3738485 0.1708178 0.3738485 0.1708178 0.3738485 0.8291822 -0.3738485
1122 0.8162574 -0.3847734 0.1837426 0.3847734 0.1837426 0.3847734 0.8162574 -0.3847734
1174 0.8025854 -0.3955488 0.1974146 0.3955488 0.1974146 0.3955488 0.8025854 -0.3955488
1227 0.7881577 -0.4061178 0.2118423 0.4061178 0.2118423 0.4061178 0.7881577 -0.4061178
1283 0.7729712 -0.4164197 0.2270288 0.4164197 0.2270288 0.4164197 0.7729712 -0.4164197
1342 0.7570289 -0.4263916 0.2429711 0.4263916 0.2429711 0.4263916 0.7570289 -0.4263916
1404 0.7403401 -0.4359684 0.2596599 0.4359684 0.2596599 0.4359684 0.7403401 -0.4359684
1468 0.7229212 -0.4450836 0.2770788 0.4450836 0.2770788 0.4450836 0.7229212 -0.4450836
1535 0.7047963 -0.4536703 0.2952037 0.4536703 0.2952037 0.4536703 0.7047963 -0.4536703
1606 0.6859972 -0.4616623 0.3140028 0.4616623 0.3140028 0.4616623 0.6859972 -0.4616623
1679 0.6665635 -0.4689949 0.3334365 0.4689949 0.3334365 0.4689949 0.6665635 -0.4689949
1756 0.6465430 -0.4756063 0.3534570 0.4756063 0.3534570 0.4756063 0.6465430 -0.4756063
1836 0.6259912 -0.4814384 0.3740088 0.4814384 0.3740088 0.4814384 0.6259912 -0.4814384
1920 0.6049709 -0.4864384 0.3950291 0.4864384 0.3950291 0.4864384 0.6049709 -0.4864384
2008 0.5835518 -0.4905597 0.4164482 0.4905597 0.4164482 0.4905597 0.5835518 -0.4905597
2100 0.5618093 -0.4937628 0.4381907 0.4937628 0.4381907 0.4937628 0.5618093 -0.4937628
2196 0.5398239 -0.4960164 0.4601761 0.4960164 0.4601761 0.4960164 0.5398239 -0.4960164
2297 0.5176800 -0.4972981 0.4823200 0.4972981 0.4823200 0.4972981 0.5176800 -0.4972981
2402 0.4954645 -0.4975948 0.5045355 0.4975948 0.5045355 0.4975948 0.4954645 -0.4975948
2512 0.4732655 -0.4969034 0.5267345 0.4969034 0.5267345 0.4969034 0.4732655 -0.4969034
2627 0.4511708 -0.4952304 0.5488292 0.4952304 0.5488292 0.4952304 0.4511708 -0.4952304
2748 0.4292666 -0.4925919 0.5707334 0.4925919 0.5707334 0.4925919 0.4292666 -0.4925919
2873 0.4076364 -0.4890135 0.5923636 0.4890135 0.5923636 0.4890135 0.4076364 -0.4890135
3005 0.3863593 -0.4845295 0.6136407 0.4845295 0.6136407 0.4845295 0.3863593 -0.4845295
3143 0.3655091 -0.4791819 0.6344909 0.4791819 0.6344909 0.4791819 0.3655091 -0.4791819
3287 0.3451534 -0.4730199 0.6548466 0.4730199 0.6548466 0.4730199 0.3451534 -0.4730199
3437 0.3253528 -0.4660985 0.6746472 0.4660985 0.6746472 0.4660985 0.3253528 -0.4660985
3594 0.3061603 -0.4584775 0.6938397 0.4584775 0.6938397 0.4584775 0.3061603 -0.4584775
3759 0.2876212 -0.4502202 0.7123788 0.4502202 0.7123788 0.4502202 0.2876212 -0.4502202
3931 0.2697724 -0.4413925 0.7302276 0.4413925 0.7302276 0.4413925 0.2697724 -0.4413925
4111 0.2526431 -0.4320614 0.7473569 0.4320614 0.7473569 0.4320614 0.2526431 -0.4320614
4299 0.2362545 -0.4222944 0.7637455 0.4222944 0.7637455 0.4222944 0.2362545 -0.4222944
4496 0.2206204 -0.4121580 0.7793796 0.4121580 0.7793796 0.4121580 0.2206204 -0.4121580
4702 0.2057475 -0.4017172 0.7942525 0.4017172 0.7942525 0.4017172 0.2057475 -0.4017172
4918 0.1916363 -0.3910347 0.8083637 0.3910347 0.8083637 0.3910347 0.1916363 -0.3910347
5143 0.1782812 -0.3801703 0.8217188 0.3801703 0.8217188 0.3801703 0.1782812 -0.3801703
5378 0.1656717 -0.3691803 0.8343283 0.3691803 0.8343283 0.3691803 0.1656717 -0.3691803
5625 0.1537926 -0.3581172 0.8462074 0.3581172 0.8462074 0.3581172 0.1537926 -0.3581172
5882 0.1426252 -0.3470296 0.8573748 0.3470296 0.8573748 0.3470296 0.1426252 -0.3470296
6151 0.1321472 -0.3359618 0.8678528 0.3359618 0.8678528 0.3359618 0.1321472 -0.3359618
6433 0.1223343 -0.3249540 0.8776657 0.3249540 0.8776657 0.3249540 0.1223343 -0.3249540
6728 0.1131600 -0.3140422 0.8868400 0.3140422 0.8868400 0.3140422 0.1131600 -0.3140422
7036 0.1045963 -0.3032581 0.8954037 0.3032581 0.8954037 0.3032581 0.1045963 -0.3032581
7358 0.0966145 -0.2926297 0.9033855 0.2926297 0.9033855 0.2926297 0.0966145 -0.2926297
7695 0.0891852 -0.2821812 0.9108148 0.2821812 0.9108148 0.2821812 0.0891852 -0.2821812
8047 0.0822790 -0.2719332 0.9177210 0.2719332 0.9177210 0.2719332 0.0822790 -0.2719332
8416 0.0758667 -0.2619031 0.9241333 0.2619031 0.9241333 0.2619031 0.0758667 -0.2619031
8801 0.0699193 -0.2521051 0.9300807 0.2521051 0.9300807 0.2521051 0.0699193 -0.2521051
9204 0.0644088 -0.2425508 0.9355912 0.2425508 0.9355912 0.2425508 0.0644088 -0.2425508
9626 0.0593077 -0.2332491 0.9406923 0.2332491 0.9406923 0.2332491 0.0593077 -0.2332491
10066 0.0545897 -0.2242067 0.9454103 0.2242067 0.9454103 0.2242067 0.0545897 -0.2242067
10527 0.0502295 -0.2154283 0.9497705 0.2154283 0.9497705 0.2154283 0.0502295 -0.2154283
11009 0.0462028 -0.2069166 0.9537972 0.2069166 0.9537972 0.2069166 0.0462028 -0.2069166
11514 0.0424867 -0.1986731 0.9575133 0.1986731 0.9575133 0.1986731 0.0424867 -0.1986731
12041 0.0390593 -0.1906974 0.9609407 0.1906974 0.9609407 0.1906974 0.0390593 -0.1906974
12592 0.0359000 -0.1829883 0.9641000 0.1829883 0.9641000 0.1829883 0.0359000 -0.1829883
13169 0.0329893 -0.1755433 0.9670107 0.1755433 0.9670107 0.1755433 0.0329893 -0.1755433
13772 0.0303091 -0.1683592 0.9696909 0.1683592 0.9696909 0.1683592 0.0303091 -0.1683592
14402 0.0278423 -0.1614318 0.9721577 0.1614318 0.9721577 0.1614318 0.0278423 -0.1614318
15062 0.0255727 -0.1547566 0.9744273 0.1547566 0.9744273 0.1547566 0.0255727 -0.1547566
15752 0.0234855 -0.1483283 0.9765145 0.1483283 0.9765145 0.1483283 0.0234855 -0.1483283
16473 0.0215666 -0.1421413 0.9784334 0.1421413 0.9784334 0.1421413 0.0215666 -0.1421413
17227 0.0198032 -0.1361897 0.9801968 0.1361897 0.9801968 0.1361897 0.0198032 -0.1361897
18016 0.0181832 -0.1304674 0.9818168 0.1304674 0.9818168 0.1304674 0.0181832 -0.1304674
18841 0.0166952 -0.1249678 0.9833048 0.1249678 0.9833048 0.1249678 0.0166952 -0.1249678
19704 0.0153290 -0.1196846 0.9846710 0.1196846 0.9846710 0.1196846 0.0153290 -0.1196846
20606 0.0140749 -0.1146110 0.9859251 0.1146110 0.9859251 0.1146110 0.0140749 -0.1146110
21550 0.0129239 -0.1097405 0.9870761 0.1097405 0.9870761 0.1097405 0.0129239 -0.1097405
22537 0.0118677 -0.1050665 0.9881323 0.1050665 0.9881323 0.1050665 0.0118677 -0.1050665
23569 0.0108988 -0.1005824 0.9891012 0.1005824 0.9891012 0.1005824 0.0108988 -0.1005824
24648 0.0100101 -0.0962815 0.9899899 0.0962815 0.9899899 0.0962815 0.0100101 -0.0962815
25777 0.0091951 -0.0921575 0.9908049 0.0921575 0.9908049 0.0921575 0.0091951 -0.0921575
26957 0.0084476 -0.0882039 0.9915524 0.0882039 0.9915524 0.0882039 0.0084476 -0.0882039
28191 0.0077623 -0.0844147 0.9922377 0.0844147 0.9922377 0.0844147 0.0077623 -0.0844147
29482 0.0071340 -0.0807835 0.9928660 0.0807835 0.9928660 0.0807835 0.0071340 -0.0807835
30832 0.0065580 -0.0773045 0.9934420 0.0773045 0.9934420 0.0773045 0.0065580 -0.0773045
32244 0.0060299 -0.0739718 0.9939701 0.0739718 0.9939701 0.0739718 0.0060299 -0.0739718
33721 0.0055457 -0.0707798 0.9944543 0.0707798 0.9944543 0.0707798 0.0055457 -0.0707798
35265 0.0051019 -0.0677230 0.9948981 0.0677230 0.9948981 0.0677230 0.0051019 -0.0677230
36880 0.0046950 -0.0647959 0.9953050 0.0647959 0.9953050 0.0647959 0.0046950 -0.0647959
38569 0.0043219 -0.0619934 0.9956781 0.0619934 0.9956781 0.0619934 0.0043219 -0.0619934
40335 0.0039797 -0.0593105 0.9960203 0.0593105 0.9960203 0.0593105 0.0039797 -0.0593105
42182 0.0036660 -0.0567423 0.9963340 0.0567423 0.9963340 0.0567423 0.0036660 -0.0567423
44113 0.0033782 -0.0542841 0.9966218 0.0542841 0.9966218 0.0542841 0.0033782 -0.0542841
46134 0.0031141 -0.0519314 0.9968859 0.0519314 0.9968859 0.0519314 0.0031141 -0.0519314
48246 0.0028718 -0.0496799 0.9971282 0.0496799 0.9971282 0.0496799 0.0028718 -0.0496799
50455 0.0026495 -0.0475252 0.9973505 0.0475252 0.9973505 0.0475252 0.0026495 -0.0475252
52766 0.0024453 -0.0454633 0.9975547 0.0454633 0.9975547 0.0454633 0.0024453 -0.0454633
55182 0.0022578 -0.0434903 0.9977422 0.0434903 0.9977422 0.0434903 0.0022578 -0.0434903
57709 0.0020856 -0.0416025 0.9979144 0.0416025 0.9979144 0.0416025 0.0020856 -0.0416025
60352 0.0019274 -0.0397962 0.9980726 0.0397962 0.9980726 0.0397962 0.0019274 -0.0397962
63115 0.0017819 -0.0380680 0.9982181 0.0380680 0.9982181 0.0380680 0.0017819 -0.0380680
66005 0.0016482 -0.0364146 0.9983518 0.0364146 0.9983518 0.0364146 0.0016482 -0.0364146
69028 0.0015251 -0.0348326 0.9984749 0.0348326 0.9984749 0.0348326 0.0015251 -0.0348326
72189 0.0014120 -0.0333191 0.9985880 0.0333191 0.9985880 0.0333191 0.0014120 -0.0333191
75495 0.0013078 -0.0318711 0.9986922 0.0318711 0.9986922 0.0318711 0.0013078 -0.0318711
78952 0.0012119 -0.0304858 0.9987881 0.0304858 0.9987881 0.0304858 0.0012119 -0.0304858
82567 0.0011236 -0.0291605 0.9988764 0.0291605 0.9988764 0.0291605 0.0011236 -0.0291605
86348 0.0010422 -0.0278926 0.9989578 0.0278926 0.9989578 0.0278926 0.0010422 -0.0278926
90302 0.0009673 -0.0266796 0.9990327 0.0266796 0.9990327 0.0266796 0.0009673 -0.0266796
94437 0.0008983 -0.0255191 0.9991017 0.0255191 0.9991017 0.0255191 0.0008983 -0.0255191
98762 0.0008346 -0.0244089 0.9991654 0.0244089 0.9991654 0.0244089 0.0008346 -0.0244089
103284 0.0007760 -0.0233468 0.9992240 0.0233468 0.9992240 0.0233468 0.0007760 -0.0233468
108014 0.0007219 -0.0223307 0.9992781 0.0223307 0.9992781 0.0223307 0.0007219 -0.0223307
112960 0.0006721 -0.0213586 0.9993279 0.0213586 0.9993279 0.0213586 0.0006721 -0.0213586
118133 0.0006261 -0.0204286 0.9993739 0.0204286 0.9993739 0.0204286 0.0006261 -0.0204286
123542 0.0005838 -0.0195390 0.9994162 0.0195390 0.9994162 0.0195390 0.0005838 -0.0195390
129199 0.0005447 -0.0186879 0.9994553 0.0186879 0.9994553 0.0186879 0.0005447 -0.0186879
135116 0.0005087 -0.0178738 0.9994913 0.0178738 0.9994913 0.0178738 0.0005087 -0.0178738
141303 0.0004756 -0.0170949 0.9995244 0.0170949 0.9995244 0.0170949 0.0004756 -0.0170949
147774 0.0004450 -0.0163499 0.9995550 0.0163499 0.9995550 0.0163499 0.0004450 -0.0163499
154540 0.0004168 -0.0156372 0.9995832 0.0156372 0.9995832 0.0156372 0.0004168 -0.0156372
161617 0.0003909 -0.0149554 0.9996091 0.0149554 0.9996091 0.0149554 0.0003909 -0.0149554
169018 0.0003670 -0.0143032 0.9996330 0.0143032 0.9996330 0.0143032 0.0003670 -0.0143032
176758 0.0003449 -0.0136794 0.9996551 0.0136794 0.9996551 0.0136794 0.0003449 -0.0136794
184852 0.0003246 -0.0130827 0.9996754 0.0130827 0.9996754 0.0130827 0.0003246 -0.0130827
193316 0.0003059 -0.0125119 0.9996941 0.0125119 0.9996941 0.0125119 0.0003059 -0.0125119
202169 0.0002886 -0.0119659 0.9997114 0.0119659 0.9997114 0.0119659 0.0002886 -0.0119659
211427 0.0002727 -0.0114437 0.9997273 0.0114437 0.9997273 0.0114437 0.0002727 -0.0114437
221108 0.0002580 -0.0109442 0.9997420 0.0109442 0.9997420 0.0109442 0.0002580 -0.0109442
231233 0.0002445 -0.0104664 0.9997555 0.0104664 0.9997555 0.0104664 0.0002445 -0.0104664
241822 0.0002320 -0.0100094 0.9997680 0.0100094 0.9997680 0.0100094 0.0002320 -0.0100094
252896 0.0002205 -0.0095723 0.9997795 0.0095723 0.9997795 0.0095723 0.0002205 -0.0095723
264476 0.0002098 -0.0091543 0.9997902 0.0091543 0.9997902 0.0091543 0.0002098 -0.0091543
276587 0.0001999 -0.0087544 0.9998001 0.0087544 0.9998001 0.0087544 0.0001999 -0.0087544
289253 0.0001908 -0.0083720 0.9998092 0.0083720 0.9998092 0.0083720 0.0001908 -0.0083720
302498 0.0001824 -0.0080062 0.9998176 0.0080062 0.9998176 0.0080062 0.0001824 -0.0080062
316350 0.0001745 -0.0076564 0.9998255 0.0076564 0.9998255 0.0076564 0.0001745 -0.0076564
330837 0.0001673 -0.0073217 0.9998327 0.0073217 0.9998327 0.0073217 0.0001673 -0.0073217
345986 0.0001605 -0.0070016 0.9998395 0.0070016 0.9998395 0.0070016 0.0001605 -0.0070016
361830 0.0001542 -0.0066955 0.9998458 0.0066955 0.9998458 0.0066955 0.0001542 -0.0066955
378399 0.0001483 -0.0064027 0.9998517 0.0064027 0.9998517 0.0064027 0.0001483 -0.0064027
395726 0.0001429 -0.0061225 0.9998571 0.0061225 0.9998571 0.0061225 0.0001429 -0.0061225
413847 0.0001377 -0.0058546 0.9998623 0.0058546 0.9998623 0.0058546 0.0001377 -0.0058546
432798 0.0001329 -0.0055983 0.9998671 0.0055983 0.9998671 0.0055983 0.0001329 -0.0055983
452617 0.0001284 -0.0053531 0.9998716 0.0053531 0.9998716 0.0053531 0.0001284 -0.0053531
473344 0.0001242 -0.0051185 0.9998758 0.0051185 0.9998758 0.0051185 0.0001242 -0.0051185
495019 0.0001202 -0.0048941 0.9998798 0.0048941 0.9998798 0.0048941 0.0001202 -0.0048941
517687 0.0001165 -0.0046793 0.9998835 0.0046793 0.9998835 0.0046793 0.0001165 -0.0046793
541393 0.0001129 -0.0044739 0.9998871 0.0044739 0.9998871 0.0044739 0.0001129 -0.0044739
566185 0.0001096 -0.0042773 0.9998904 0.0042773 0.9998904 0.0042773 0.0001096 -0.0042773
592111 0.0001064 -0.0040892 0.9998936 0.0040892 0.9998936 0.0040892 0.0001064 -0.0040892
619225 0.0001035 -0.0039091 0.9998965 0.0039091 0.9998965 0.0039091 0.0001035 -0.0039091
647581 0.0001006 -0.0037368 0.9998994 0.0037368 0.9998994 0.0037368 0.0001006 -0.0037368
677235 0.0000980 -0.0035719 0.9999020 0.0035719 0.9999020 0.0035719 0.0000980 -0.0035719
708247 0.0000955 -0.0034140 0.9999045 0.0034140 0.9999045 0.0034140 0.0000955 -0.0034140
740679 0.0000931 -0.0032629 0.9999069 0.0032629 0.9999069 0.0032629 0.0000931 -0.0032629
774597 0.0000908 -0.0031182 0.9999092 0.0031182 0.9999092 0.0031182 0.0000908 -0.0031182
810067 0.0000887 -0.0029797 0.9999113 0.0029797 0.9999113 0.0029797 0.0000887 -0.0029797
847162 0.0000867 -0.0028471 0.9999133 0.0028471 0.9999133 0.0028471 0.0000867 -0.0028471
885955 0.0000848 -0.0027201 0.9999152 0.0027201 0.9999152 0.0027201 0.0000848 -0.0027201
926525 0.0000830 -0.0025984 0.9999170 0.0025984 0.9999170 0.0025984 0.0000830 -0.0025984
968953 0.0000813 -0.0024819 0.9999187 0.0024819 0.9999187 0.0024819 0.0000813 -0.0024819
1013323 0.0000798 -0.0023702 0.9999202 0.0023702 0.9999202 0.0023702 0.0000798 -0.0023702
1059725 0.0000783 -0.0022633 0.9999217 0.0022633 0.9999217 0.0022633 0.0000783 -0.0022633
1108252 0.0000769 -0.0021608 0.9999231 0.0021608 0.9999231 0.0021608 0.0000769 -0.0021608
1159002 0.0000756 -0.0020626 0.9999244 0.0020626 0.9999244 0.0020626 0.0000756 -0.0020626
1212075 0.0000744 -0.0019685 0.9999256 0.0019685 0.9999256 0.0019685 0.0000744 -0.0019685
1267578 0.0000733 -0.0018782 0.9999267 0.0018782 0.9999267 0.0018782 0.0000733 -0.0018782
1325623 0.0000723 -0.0017917 0.9999277 0.0017917 0.9999277 0.0017917 0.0000723 -0.0017917
1386327 0.0000713 -0.0017087 0.9999287 0.0017087 0.9999287 0.0017087 0.0000713 -0.0017087
1449809 0.0000705 -0.0016291 0.9999295 0.0016291 0.9999295 0.0016291 0.0000705 -0.0016291
1516199 0.0000697 -0.0015527 0.9999303 0.0015527 0.9999303 0.0015527 0.0000697 -0.0015527
1585629 0.0000689 -0.0014794 0.9999311 0.0014794 0.9999311 0.0014794 0.0000689 -0.0014794
1658239 0.0000683 -0.0014091 0.9999317 0.0014091 0.9999317 0.0014091 0.0000683 -0.0014091
1734173 0.0000677 -0.0013415 0.9999323 0.0013415 0.9999323 0.0013415 0.0000677 -0.0013415
1813585 0.0000671 -0.0012766 0.9999329 0.0012766 0.9999329 0.0012766 0.0000671 -0.0012766
1896632 0.0000667 -0.0012142 0.9999333 0.0012142 0.9999333 0.0012142 0.0000667 -0.0012142
1983483 0.0000662 -0.0011542 0.9999338 0.0011542 0.9999338 0.0011542 0.0000662 -0.0011542
2074311 0.0000659 -0.0010966 0.9999341 0.0010966 0.9999341 0.0010966 0.0000659 -0.0010966
