!Murata Part Number: GRM32RR11C475KA01
!These Parameters are Measured in Series Mode Connection
!Data Generated on Mar 30, 2021
!       o--ll--o
!Port1            Port2
!       o------o
!Operation Temp=25[degC], DC Bias Voltage=0[V]
!Freq. Start=100[Hz] Stop=6[GHz] 401[Steps]
# Hz S RI R 50
!Freq.(Hz) S11(Real) S11(Imag) S21(Real) S21(Imag) S12(Real) S12(Imag) S22(Real) S22(Imag)
100 0.9244356 -0.2623256 0.0755644 0.2623256 0.0755644 0.2623256 0.9244356 -0.2623256
105 0.9180043 -0.2723782 0.0819957 0.2723782 0.0819957 0.2723782 0.9180043 -0.2723782
109 0.9110768 -0.2826483 0.0889232 0.2826483 0.0889232 0.2826483 0.9110768 -0.2826483
114 0.9036239 -0.2931183 0.0963761 0.2931183 0.0963761 0.2931183 0.9036239 -0.2931183
120 0.8956160 -0.3037675 0.1043840 0.3037675 0.1043840 0.3037675 0.8956160 -0.3037675
125 0.8870237 -0.3145713 0.1129763 0.3145713 0.1129763 0.3145713 0.8870237 -0.3145713
131 0.8778184 -0.3255014 0.1221816 0.3255014 0.1221816 0.3255014 0.8778184 -0.3255014
137 0.8679720 -0.3365258 0.1320280 0.3365258 0.1320280 0.3365258 0.8679720 -0.3365258
143 0.8574582 -0.3476081 0.1425418 0.3476081 0.1425418 0.3476081 0.8574582 -0.3476081
150 0.8462527 -0.3587079 0.1537473 0.3587079 0.1537473 0.3587079 0.8462527 -0.3587079
156 0.8343335 -0.3697804 0.1656665 0.3697804 0.1656665 0.3697804 0.8343335 -0.3697804
164 0.8216820 -0.3807768 0.1783180 0.3807768 0.1783180 0.3807768 0.8216820 -0.3807768
171 0.8082835 -0.3916442 0.1917165 0.3916442 0.1917165 0.3916442 0.8082835 -0.3916442
179 0.7941275 -0.4023260 0.2058725 0.4023260 0.2058725 0.4023260 0.7941275 -0.4023260
187 0.7792092 -0.4127623 0.2207908 0.4127623 0.2207908 0.4127623 0.7792092 -0.4127623
196 0.7635291 -0.4228901 0.2364709 0.4228901 0.2364709 0.4228901 0.7635291 -0.4228901
205 0.7470946 -0.4326443 0.2529054 0.4326443 0.2529054 0.4326443 0.7470946 -0.4326443
214 0.7299201 -0.4419581 0.2700799 0.4419581 0.2700799 0.4419581 0.7299201 -0.4419581
224 0.7120272 -0.4507642 0.2879728 0.4507642 0.2879728 0.4507642 0.7120272 -0.4507642
234 0.6934455 -0.4589956 0.3065545 0.4589956 0.3065545 0.4589956 0.6934455 -0.4589956
245 0.6742129 -0.4665865 0.3257871 0.4665865 0.3257871 0.4665865 0.6742129 -0.4665865
256 0.6543748 -0.4734739 0.3456252 0.4734739 0.3456252 0.4734739 0.6543748 -0.4734739
268 0.6339850 -0.4795981 0.3660150 0.4795981 0.3660150 0.4795981 0.6339850 -0.4795981
280 0.6131044 -0.4849047 0.3868956 0.4849047 0.3868956 0.4849047 0.6131044 -0.4849047
293 0.5918011 -0.4893449 0.4081989 0.4893449 0.4081989 0.4893449 0.5918011 -0.4893449
306 0.5701493 -0.4928772 0.4298507 0.4928772 0.4298507 0.4928772 0.5701493 -0.4928772
320 0.5482283 -0.4954679 0.4517717 0.4954679 0.4517717 0.4954679 0.5482283 -0.4954679
335 0.5261219 -0.4970921 0.4738781 0.4970921 0.4738781 0.4970921 0.5261219 -0.4970921
350 0.5039161 -0.4977342 0.4960839 0.4977342 0.4960839 0.4977342 0.5039161 -0.4977342
366 0.4816990 -0.4973883 0.5183010 0.4973883 0.5183010 0.4973883 0.4816990 -0.4973883
383 0.4595585 -0.4960584 0.5404415 0.4960584 0.5404415 0.4960584 0.4595585 -0.4960584
401 0.4375813 -0.4937580 0.5624187 0.4937580 0.5624187 0.4937580 0.4375813 -0.4937580
419 0.4158514 -0.4905101 0.5841486 0.4905101 0.5841486 0.4905101 0.4158514 -0.4905101
438 0.3944489 -0.4863465 0.6055511 0.4863465 0.6055511 0.4863465 0.3944489 -0.4863465
458 0.3734490 -0.4813071 0.6265510 0.4813071 0.6265510 0.4813071 0.3734490 -0.4813071
479 0.3529207 -0.4754389 0.6470793 0.4754389 0.6470793 0.4754389 0.3529207 -0.4754389
501 0.3329264 -0.4687949 0.6670736 0.4687949 0.6670736 0.4687949 0.3329264 -0.4687949
524 0.3135210 -0.4614334 0.6864790 0.4614334 0.6864790 0.4614334 0.3135210 -0.4614334
548 0.2947517 -0.4534163 0.7052483 0.4534163 0.7052483 0.4534163 0.2947517 -0.4534163
573 0.2766577 -0.4448082 0.7233423 0.4448082 0.7233423 0.4448082 0.2766577 -0.4448082
600 0.2592703 -0.4356753 0.7407297 0.4356753 0.7407297 0.4356753 0.2592703 -0.4356753
627 0.2426132 -0.4260845 0.7573868 0.4260845 0.7573868 0.4260845 0.2426132 -0.4260845
656 0.2267022 -0.4161018 0.7732978 0.4161018 0.7732978 0.4161018 0.2267022 -0.4161018
686 0.2115465 -0.4057922 0.7884535 0.4057922 0.7884535 0.4057922 0.2115465 -0.4057922
717 0.1971487 -0.3952185 0.8028513 0.3952185 0.8028513 0.3952185 0.1971487 -0.3952185
750 0.1835053 -0.3844408 0.8164947 0.3844408 0.8164947 0.3844408 0.1835053 -0.3844408
784 0.1706078 -0.3735160 0.8293922 0.3735160 0.8293922 0.3735160 0.1706078 -0.3735160
820 0.1584431 -0.3624975 0.8415569 0.3624975 0.8415569 0.3624975 0.1584431 -0.3624975
858 0.1469939 -0.3514345 0.8530061 0.3514345 0.8530061 0.3514345 0.1469939 -0.3514345
897 0.1362400 -0.3403727 0.8637600 0.3403727 0.8637600 0.3403727 0.1362400 -0.3403727
938 0.1261581 -0.3293532 0.8738419 0.3293532 0.8738419 0.3293532 0.1261581 -0.3293532
981 0.1167230 -0.3184135 0.8832770 0.3184135 0.8832770 0.3184135 0.1167230 -0.3184135
1026 0.1079080 -0.3075866 0.8920920 0.3075866 0.8920920 0.3075866 0.1079080 -0.3075866
1073 0.0996852 -0.2969020 0.9003148 0.2969020 0.9003148 0.2969020 0.0996852 -0.2969020
1122 0.0920259 -0.2863853 0.9079741 0.2863853 0.9079741 0.2863853 0.0920259 -0.2863853
1174 0.0849012 -0.2760585 0.9150988 0.2760585 0.9150988 0.2760585 0.0849012 -0.2760585
1227 0.0782823 -0.2659405 0.9217177 0.2659405 0.9217177 0.2659405 0.0782823 -0.2659405
1283 0.0721404 -0.2560469 0.9278596 0.2560469 0.9278596 0.2560469 0.0721404 -0.2560469
1342 0.0664476 -0.2463907 0.9335524 0.2463907 0.9335524 0.2463907 0.0664476 -0.2463907
1404 0.0611762 -0.2369820 0.9388238 0.2369820 0.9388238 0.2369820 0.0611762 -0.2369820
1468 0.0562999 -0.2278288 0.9437001 0.2278288 0.9437001 0.2278288 0.0562999 -0.2278288
1535 0.0517929 -0.2189369 0.9482071 0.2189369 0.9482071 0.2189369 0.0517929 -0.2189369
1606 0.0476306 -0.2103102 0.9523694 0.2103102 0.9523694 0.2103102 0.0476306 -0.2103102
1679 0.0437895 -0.2019507 0.9562105 0.2019507 0.9562105 0.2019507 0.0437895 -0.2019507
1756 0.0402474 -0.1938593 0.9597526 0.1938593 0.9597526 0.1938593 0.0402474 -0.1938593
1836 0.0369830 -0.1860352 0.9630170 0.1860352 0.9630170 0.1860352 0.0369830 -0.1860352
1920 0.0339764 -0.1784766 0.9660236 0.1784766 0.9660236 0.1784766 0.0339764 -0.1784766
2008 0.0312085 -0.1711810 0.9687915 0.1711810 0.9687915 0.1711810 0.0312085 -0.1711810
2100 0.0286617 -0.1641445 0.9713383 0.1641445 0.9713383 0.1641445 0.0286617 -0.1641445
2196 0.0263194 -0.1573629 0.9736806 0.1573629 0.9736806 0.1573629 0.0263194 -0.1573629
2297 0.0241660 -0.1508314 0.9758340 0.1508314 0.9758340 0.1508314 0.0241660 -0.1508314
2402 0.0221870 -0.1445444 0.9778130 0.1445444 0.9778130 0.1445444 0.0221870 -0.1445444
2512 0.0203688 -0.1384962 0.9796312 0.1384962 0.9796312 0.1384962 0.0203688 -0.1384962
2627 0.0186989 -0.1326807 0.9813011 0.1326807 0.9813011 0.1326807 0.0186989 -0.1326807
2748 0.0171654 -0.1270915 0.9828346 0.1270915 0.9828346 0.1270915 0.0171654 -0.1270915
2873 0.0157576 -0.1217221 0.9842424 0.1217221 0.9842424 0.1217221 0.0157576 -0.1217221
3005 0.0144654 -0.1165659 0.9855346 0.1165659 0.9855346 0.1165659 0.0144654 -0.1165659
3143 0.0132795 -0.1116162 0.9867205 0.1116162 0.9867205 0.1116162 0.0132795 -0.1116162
3287 0.0121912 -0.1068661 0.9878088 0.1068661 0.9878088 0.1068661 0.0121912 -0.1068661
3437 0.0111926 -0.1023091 0.9888074 0.1023091 0.9888074 0.1023091 0.0111926 -0.1023091
3594 0.0102764 -0.0979384 0.9897236 0.0979384 0.9897236 0.0979384 0.0102764 -0.0979384
3759 0.0094358 -0.0937475 0.9905642 0.0937475 0.9905642 0.0937475 0.0094358 -0.0937475
3931 0.0086646 -0.0897298 0.9913354 0.0897298 0.9913354 0.0897298 0.0086646 -0.0897298
4111 0.0079571 -0.0858789 0.9920429 0.0858789 0.9920429 0.0858789 0.0079571 -0.0858789
4299 0.0073079 -0.0821886 0.9926921 0.0821886 0.9926921 0.0821886 0.0073079 -0.0821886
4496 0.0067124 -0.0786528 0.9932876 0.0786528 0.9932876 0.0786528 0.0067124 -0.0786528
4702 0.0061659 -0.0752654 0.9938341 0.0752654 0.9938341 0.0752654 0.0061659 -0.0752654
4918 0.0056645 -0.0720208 0.9943355 0.0720208 0.9943355 0.0720208 0.0056645 -0.0720208
5143 0.0052044 -0.0689132 0.9947956 0.0689132 0.9947956 0.0689132 0.0052044 -0.0689132
5378 0.0047822 -0.0659372 0.9952178 0.0659372 0.9952178 0.0659372 0.0047822 -0.0659372
5625 0.0043947 -0.0630875 0.9956053 0.0630875 0.9956053 0.0630875 0.0043947 -0.0630875
5882 0.0040391 -0.0603590 0.9959609 0.0603590 0.9959609 0.0603590 0.0040391 -0.0603590
6151 0.0037128 -0.0577467 0.9962872 0.0577467 0.9962872 0.0577467 0.0037128 -0.0577467
6433 0.0034132 -0.0552459 0.9965868 0.0552459 0.9965868 0.0552459 0.0034132 -0.0552459
6728 0.0031383 -0.0528520 0.9968617 0.0528520 0.9968617 0.0528520 0.0031383 -0.0528520
7036 0.0028859 -0.0505606 0.9971141 0.0505606 0.9971141 0.0505606 0.0028859 -0.0505606
7358 0.0026542 -0.0483674 0.9973458 0.0483674 0.9973458 0.0483674 0.0026542 -0.0483674
7695 0.0024416 -0.0462683 0.9975584 0.0462683 0.9975584 0.0462683 0.0024416 -0.0462683
8047 0.0022464 -0.0442593 0.9977536 0.0442593 0.9977536 0.0442593 0.0022464 -0.0442593
8416 0.0020673 -0.0423368 0.9979327 0.0423368 0.9979327 0.0423368 0.0020673 -0.0423368
8801 0.0019028 -0.0404970 0.9980972 0.0404970 0.9980972 0.0404970 0.0019028 -0.0404970
9204 0.0017519 -0.0387365 0.9982481 0.0387365 0.9982481 0.0387365 0.0017519 -0.0387365
9626 0.0016134 -0.0370520 0.9983866 0.0370520 0.9983866 0.0370520 0.0016134 -0.0370520
10066 0.0014863 -0.0354401 0.9985137 0.0354401 0.9985137 0.0354401 0.0014863 -0.0354401
10527 0.0013696 -0.0338980 0.9986304 0.0338980 0.9986304 0.0338980 0.0013696 -0.0338980
11009 0.0012625 -0.0324225 0.9987375 0.0324225 0.9987375 0.0324225 0.0012625 -0.0324225
11514 0.0011643 -0.0310109 0.9988357 0.0310109 0.9988357 0.0310109 0.0011643 -0.0310109
12041 0.0010741 -0.0296604 0.9989259 0.0296604 0.9989259 0.0296604 0.0010741 -0.0296604
12592 0.0009914 -0.0283684 0.9990086 0.0283684 0.9990086 0.0283684 0.0009914 -0.0283684
13169 0.0009154 -0.0271325 0.9990846 0.0271325 0.9990846 0.0271325 0.0009154 -0.0271325
13772 0.0008458 -0.0259502 0.9991542 0.0259502 0.9991542 0.0259502 0.0008458 -0.0259502
14402 0.0007818 -0.0248193 0.9992182 0.0248193 0.9992182 0.0248193 0.0007818 -0.0248193
15062 0.0007231 -0.0237375 0.9992769 0.0237375 0.9992769 0.0237375 0.0007231 -0.0237375
15752 0.0006692 -0.0227028 0.9993308 0.0227028 0.9993308 0.0227028 0.0006692 -0.0227028
16473 0.0006197 -0.0217131 0.9993803 0.0217131 0.9993803 0.0217131 0.0006197 -0.0217131
17227 0.0005743 -0.0207664 0.9994257 0.0207664 0.9994257 0.0207664 0.0005743 -0.0207664
18016 0.0005325 -0.0198610 0.9994675 0.0198610 0.9994675 0.0198610 0.0005325 -0.0198610
18841 0.0004942 -0.0189950 0.9995058 0.0189950 0.9995058 0.0189950 0.0004942 -0.0189950
19704 0.0004589 -0.0181667 0.9995411 0.0181667 0.9995411 0.0181667 0.0004589 -0.0181667
20606 0.0004265 -0.0173745 0.9995735 0.0173745 0.9995735 0.0173745 0.0004265 -0.0173745
21550 0.0003967 -0.0166169 0.9996033 0.0166169 0.9996033 0.0166169 0.0003967 -0.0166169
22537 0.0003692 -0.0158923 0.9996308 0.0158923 0.9996308 0.0158923 0.0003692 -0.0158923
23569 0.0003440 -0.0151993 0.9996560 0.0151993 0.9996560 0.0151993 0.0003440 -0.0151993
24648 0.0003207 -0.0145365 0.9996793 0.0145365 0.9996793 0.0145365 0.0003207 -0.0145365
25777 0.0002992 -0.0139026 0.9997008 0.0139026 0.9997008 0.0139026 0.0002992 -0.0139026
26957 0.0002794 -0.0132964 0.9997206 0.0132964 0.9997206 0.0132964 0.0002794 -0.0132964
28191 0.0002611 -0.0127166 0.9997389 0.0127166 0.9997389 0.0127166 0.0002611 -0.0127166
29482 0.0002443 -0.0121621 0.9997557 0.0121621 0.9997557 0.0121621 0.0002443 -0.0121621
30832 0.0002287 -0.0116318 0.9997713 0.0116318 0.9997713 0.0116318 0.0002287 -0.0116318
32244 0.0002142 -0.0111246 0.9997858 0.0111246 0.9997858 0.0111246 0.0002142 -0.0111246
33721 0.0002009 -0.0106395 0.9997991 0.0106395 0.9997991 0.0106395 0.0002009 -0.0106395
35265 0.0001885 -0.0101756 0.9998115 0.0101756 0.9998115 0.0101756 0.0001885 -0.0101756
36880 0.0001771 -0.0097319 0.9998229 0.0097319 0.9998229 0.0097319 0.0001771 -0.0097319
38569 0.0001664 -0.0093075 0.9998336 0.0093075 0.9998336 0.0093075 0.0001664 -0.0093075
40335 0.0001566 -0.0089016 0.9998434 0.0089016 0.9998434 0.0089016 0.0001566 -0.0089016
42182 0.0001474 -0.0085134 0.9998526 0.0085134 0.9998526 0.0085134 0.0001474 -0.0085134
44113 0.0001390 -0.0081421 0.9998610 0.0081421 0.9998610 0.0081421 0.0001390 -0.0081421
46134 0.0001311 -0.0077870 0.9998689 0.0077870 0.9998689 0.0077870 0.0001311 -0.0077870
48246 0.0001238 -0.0074473 0.9998762 0.0074473 0.9998762 0.0074473 0.0001238 -0.0074473
50455 0.0001170 -0.0071224 0.9998830 0.0071224 0.9998830 0.0071224 0.0001170 -0.0071224
52766 0.0001106 -0.0068116 0.9998894 0.0068116 0.9998894 0.0068116 0.0001106 -0.0068116
55182 0.0001048 -0.0065144 0.9998952 0.0065144 0.9998952 0.0065144 0.0001048 -0.0065144
57709 0.0000993 -0.0062301 0.9999007 0.0062301 0.9999007 0.0062301 0.0000993 -0.0062301
60352 0.0000942 -0.0059581 0.9999058 0.0059581 0.9999058 0.0059581 0.0000942 -0.0059581
63115 0.0000895 -0.0056980 0.9999105 0.0056980 0.9999105 0.0056980 0.0000895 -0.0056980
66005 0.0000851 -0.0054492 0.9999149 0.0054492 0.9999149 0.0054492 0.0000851 -0.0054492
69028 0.0000810 -0.0052113 0.9999190 0.0052113 0.9999190 0.0052113 0.0000810 -0.0052113
72189 0.0000772 -0.0049837 0.9999228 0.0049837 0.9999228 0.0049837 0.0000772 -0.0049837
75495 0.0000737 -0.0047659 0.9999263 0.0047659 0.9999263 0.0047659 0.0000737 -0.0047659
78952 0.0000704 -0.0045577 0.9999296 0.0045577 0.9999296 0.0045577 0.0000704 -0.0045577
82567 0.0000673 -0.0043585 0.9999327 0.0043585 0.9999327 0.0043585 0.0000673 -0.0043585
86348 0.0000644 -0.0041680 0.9999356 0.0041680 0.9999356 0.0041680 0.0000644 -0.0041680
90302 0.0000618 -0.0039857 0.9999382 0.0039857 0.9999382 0.0039857 0.0000618 -0.0039857
94437 0.0000593 -0.0038114 0.9999407 0.0038114 0.9999407 0.0038114 0.0000593 -0.0038114
98762 0.0000570 -0.0036446 0.9999430 0.0036446 0.9999430 0.0036446 0.0000570 -0.0036446
103284 0.0000548 -0.0034851 0.9999452 0.0034851 0.9999452 0.0034851 0.0000548 -0.0034851
108014 0.0000528 -0.0033326 0.9999472 0.0033326 0.9999472 0.0033326 0.0000528 -0.0033326
112960 0.0000509 -0.0031866 0.9999491 0.0031866 0.9999491 0.0031866 0.0000509 -0.0031866
118133 0.0000492 -0.0030470 0.9999508 0.0030470 0.9999508 0.0030470 0.0000492 -0.0030470
123542 0.0000476 -0.0029134 0.9999524 0.0029134 0.9999524 0.0029134 0.0000476 -0.0029134
129199 0.0000460 -0.0027857 0.9999540 0.0027857 0.9999540 0.0027857 0.0000460 -0.0027857
135116 0.0000446 -0.0026635 0.9999554 0.0026635 0.9999554 0.0026635 0.0000446 -0.0026635
141303 0.0000433 -0.0025465 0.9999567 0.0025465 0.9999567 0.0025465 0.0000433 -0.0025465
147774 0.0000420 -0.0024347 0.9999580 0.0024347 0.9999580 0.0024347 0.0000420 -0.0024347
154540 0.0000408 -0.0023276 0.9999592 0.0023276 0.9999592 0.0023276 0.0000408 -0.0023276
161617 0.0000397 -0.0022253 0.9999603 0.0022253 0.9999603 0.0022253 0.0000397 -0.0022253
169018 0.0000387 -0.0021273 0.9999613 0.0021273 0.9999613 0.0021273 0.0000387 -0.0021273
176758 0.0000378 -0.0020336 0.9999622 0.0020336 0.9999622 0.0020336 0.0000378 -0.0020336
184852 0.0000369 -0.0019439 0.9999631 0.0019439 0.9999631 0.0019439 0.0000369 -0.0019439
193316 0.0000360 -0.0018580 0.9999640 0.0018580 0.9999640 0.0018580 0.0000360 -0.0018580
202169 0.0000352 -0.0017759 0.9999648 0.0017759 0.9999648 0.0017759 0.0000352 -0.0017759
211427 0.0000345 -0.0016973 0.9999655 0.0016973 0.9999655 0.0016973 0.0000345 -0.0016973
221108 0.0000338 -0.0016221 0.9999662 0.0016221 0.9999662 0.0016221 0.0000338 -0.0016221
231233 0.0000332 -0.0015501 0.9999668 0.0015501 0.9999668 0.0015501 0.0000332 -0.0015501
241822 0.0000326 -0.0014812 0.9999674 0.0014812 0.9999674 0.0014812 0.0000326 -0.0014812
252896 0.0000321 -0.0014152 0.9999679 0.0014152 0.9999679 0.0014152 0.0000321 -0.0014152
264476 0.0000316 -0.0013521 0.9999684 0.0013521 0.9999684 0.0013521 0.0000316 -0.0013521
276587 0.0000311 -0.0012917 0.9999689 0.0012917 0.9999689 0.0012917 0.0000311 -0.0012917
289253 0.0000306 -0.0012338 0.9999694 0.0012338 0.9999694 0.0012338 0.0000306 -0.0012338
302498 0.0000302 -0.0011784 0.9999698 0.0011784 0.9999698 0.0011784 0.0000302 -0.0011784
316350 0.0000299 -0.0011253 0.9999701 0.0011253 0.9999701 0.0011253 0.0000299 -0.0011253
330837 0.0000295 -0.0010745 0.9999705 0.0010745 0.9999705 0.0010745 0.0000295 -0.0010745
345986 0.0000292 -0.0010258 0.9999708 0.0010258 0.9999708 0.0010258 0.0000292 -0.0010258
361830 0.0000289 -0.0009792 0.9999711 0.0009792 0.9999711 0.0009792 0.0000289 -0.0009792
378399 0.0000287 -0.0009345 0.9999713 0.0009345 0.9999713 0.0009345 0.0000287 -0.0009345
395726 0.0000284 -0.0008917 0.9999716 0.0008917 0.9999716 0.0008917 0.0000284 -0.0008917
413847 0.0000282 -0.0008507 0.9999718 0.0008507 0.9999718 0.0008507 0.0000282 -0.0008507
432798 0.0000280 -0.0008113 0.9999720 0.0008113 0.9999720 0.0008113 0.0000280 -0.0008113
452617 0.0000278 -0.0007736 0.9999722 0.0007736 0.9999722 0.0007736 0.0000278 -0.0007736
473344 0.0000277 -0.0007375 0.9999723 0.0007375 0.9999723 0.0007375 0.0000277 -0.0007375
495019 0.0000275 -0.0007028 0.9999725 0.0007028 0.9999725 0.0007028 0.0000275 -0.0007028
517687 0.0000274 -0.0006695 0.9999726 0.0006695 0.9999726 0.0006695 0.0000274 -0.0006695
541393 0.0000273 -0.0006375 0.9999727 0.0006375 0.9999727 0.0006375 0.0000273 -0.0006375
566185 0.0000272 -0.0006068 0.9999728 0.0006068 0.9999728 0.0006068 0.0000272 -0.0006068
592111 0.0000271 -0.0005774 0.9999729 0.0005774 0.9999729 0.0005774 0.0000271 -0.0005774
619225 0.0000271 -0.0005491 0.9999729 0.0005491 0.9999729 0.0005491 0.0000271 -0.0005491
647581 0.0000270 -0.0005219 0.9999730 0.0005219 0.9999730 0.0005219 0.0000270 -0.0005219
677235 0.0000270 -0.0004957 0.9999730 0.0004957 0.9999730 0.0004957 0.0000270 -0.0004957
708247 0.0000270 -0.0004705 0.9999730 0.0004705 0.9999730 0.0004705 0.0000270 -0.0004705
740679 0.0000270 -0.0004463 0.9999730 0.0004463 0.9999730 0.0004463 0.0000270 -0.0004463
774597 0.0000270 -0.0004229 0.9999730 0.0004229 0.9999730 0.0004229 0.0000270 -0.0004229
810067 0.0000270 -0.0004004 0.9999730 0.0004004 0.9999730 0.0004004 0.0000270 -0.0004004
847162 0.0000270 -0.0003787 0.9999730 0.0003787 0.9999730 0.0003787 0.0000270 -0.0003787
885955 0.0000271 -0.0003578 0.9999729 0.0003578 0.9999729 0.0003578 0.0000271 -0.0003578
926525 0.0000272 -0.0003376 0.9999728 0.0003376 0.9999728 0.0003376 0.0000272 -0.0003376
968953 0.0000272 -0.0003180 0.9999728 0.0003180 0.9999728 0.0003180 0.0000272 -0.0003180
1013323 0.0000273 -0.0002991 0.9999727 0.0002991 0.9999727 0.0002991 0.0000273 -0.0002991
1059725 0.0000275 -0.0002808 0.9999725 0.0002808 0.9999725 0.0002808 0.0000275 -0.0002808
1108252 0.0000276 -0.0002630 0.9999724 0.0002630 0.9999724 0.0002630 0.0000276 -0.0002630
1159002 0.0000278 -0.0002458 0.9999722 0.0002458 0.9999722 0.0002458 0.0000278 -0.0002458
1212075 0.0000279 -0.0002290 0.9999721 0.0002290 0.9999721 0.0002290 0.0000279 -0.0002290
1267578 0.0000281 -0.0002127 0.9999719 0.0002127 0.9999719 0.0002127 0.0000281 -0.0002127
1325623 0.0000284 -0.0001968 0.9999716 0.0001968 0.9999716 0.0001968 0.0000284 -0.0001968
1386327 0.0000286 -0.0001813 0.9999714 0.0001813 0.9999714 0.0001813 0.0000286 -0.0001813
1449809 0.0000289 -0.0001662 0.9999711 0.0001662 0.9999711 0.0001662 0.0000289 -0.0001662
1516199 0.0000292 -0.0001513 0.9999708 0.0001513 0.9999708 0.0001513 0.0000292 -0.0001513
1585629 0.0000296 -0.0001368 0.9999704 0.0001368 0.9999704 0.0001368 0.0000296 -0.0001368
1658239 0.0000300 -0.0001225 0.9999700 0.0001225 0.9999700 0.0001225 0.0000300 -0.0001225
1734173 0.0000304 -0.0001085 0.9999696 0.0001085 0.9999696 0.0001085 0.0000304 -0.0001085
1813585 0.0000309 -0.0000946 0.9999691 0.0000946 0.9999691 0.0000946 0.0000309 -0.0000946
1896632 0.0000315 -0.0000809 0.9999685 0.0000809 0.9999685 0.0000809 0.0000315 -0.0000809
1983483 0.0000321 -0.0000674 0.9999679 0.0000674 0.9999679 0.0000674 0.0000321 -0.0000674
2074311 0.0000328 -0.0000539 0.9999672 0.0000539 0.9999672 0.0000539 0.0000328 -0.0000539
