! This data is being provided by Wuerth Elektronik eiSos GmbH & Co. KG to the industry for analysis.
!
! Document information:
! Version:rev20a Date: 26/02/2020
!
! Component information:
! Match Code: WE-CMB P/N: 744821201 Size: Type XS
!------------------------------------------------------------------------------------------------------------------
! Disclaimer:  While Würth Elektronik eiSos has made every reasonable effort to ensure the accuracy
! of the information provided, Würth Elektronik eiSos does not guarantee the exemption of error on the
! data collection measurements, nor does Würth Elektronik eiSos guarantee that the information is current.
! Würth Elektronik eiSos reserves the right to make any adjustments at any time without notice.
! Würth Elektronik eiSos expressly disclaims all implied warranties regarding this measurement data collection.
!
! Note 1 – This data measurement is representative according to the product implementation into the fixture.
! Component behavior is sensitive to implementation into the fixture, which includes board
! materials, trace geometry information, connector pin out, layer connection, use of de-embedding
! techniques, etc.
!
! Note 2 - The fixture was designed specifically to match the 50 Ohm line impedance, as well as the connector impedance,
! in order to accomplish a reliable measurement without reflections in the trace. Any other implementation of the fixture will change the obtained
! measurement performance. The used fixture behavior was de-embedded to accomplish reliable measurement results.
!
!------------------------------------------------------------------------------------------------------------------
!
! The test setup consisted of the following:
!   - Agilent VNA N5242B or E5080A
!   - Calibrations are SOLT (short open load thru)
!   - De-embedding of the SMA's or line cards were included
!   - Equipment Settings -
!            - Sampling - 801 points
!            - IF BW – 0.5 kHz
!            - Averaging – Not used
!
!
!
!             Port 1----->|4|        |3| -----> Port 2
!                            |   DUT  |
!             Port 3----->|1|        |2| -----> Port 4
!
!
!*VNA Port --> |Port in Datasheet|
! |Port in Datasheet| --> VNA Port
!
!
! For further information regarding this testing, please contact
! Wuerth Elektronik eiSos
! Contact: EDA team in QDC
! Email: libraries@we-online.com or libraries@we-online.de
!
!
# Hz S  RI   R 50
0	9.999E-05	0.00000	0.999550202	0.00000	1.00E-03	0.00000	1.00E-03	0.00000
	0.999550202	0.00000	9.999E-05	0.00000	1.00E-03	0.00000	1.00E-03	0.00000
	1.00E-03	0.00000	1.00E-03	0.00000	9.999E-05	0.00000	0.999550202	0.00000
	1.00E-03	0.00000	1.00E-03	0.00000	0.999550202	0.00000	9.999E-05	0.00000
1000 0.0128462 0.060208119 0.98794007 -0.06018088 0.0085804863 0.062704608 -0.0085566696 -0.062693626
0.98780054 -0.060498968 0.011506688 0.059449933 -0.0084630782 -0.062661178 0.0085499389 0.0627051
0.0086083012 0.062772676 -0.0088293403 -0.062659882 0.013181022 0.057988007 0.98741668 -0.059163123
-0.0086237704 -0.062957034 0.0086468412 0.062656894 0.98726207 -0.058793165 0.012459094 0.05873422
1017.4193661806 0.013320231 0.061296195 0.98792827 -0.06119021 0.0088770725 0.063667975 -0.0090079829 -0.063724071
0.98741668 -0.061570086 0.011789061 0.060875643 -0.008850133 -0.063653998 0.0088930437 0.063838184
0.0089344429 0.063916251 -0.0088251298 -0.063715778 0.013454208 0.059842113 0.98670638 -0.059835766
-0.0087804226 -0.063967153 0.0089199068 0.063785784 0.98688191 -0.060053334 0.013209816 0.05956354
1035.1421666793 0.013504555 0.062525757 0.98722446 -0.062628649 0.0093379375 0.064682297 -0.0092986794 -0.06488999
0.98708147 -0.062900223 0.012042407 0.062325966 -0.0093409382 -0.064789176 0.0091580087 0.064866729
0.0092150336 0.065192498 -0.0093077552 -0.06477505 0.013675529 0.060872391 0.9865011 -0.061455909
-0.0091609918 -0.064973749 0.0092786103 0.064788416 0.98637646 -0.061248846 0.013468534 0.061109256
1053.1736871297 0.013890596 0.063800529 0.98687977 -0.06381382 0.009501189 0.06586834 -0.0095809624 -0.065975226
0.98658413 -0.064024717 0.012507743 0.06344793 -0.009591206 -0.06586872 0.0095270444 0.066025637
0.0095839016 0.066129208 -0.0095786825 -0.065929659 0.013776045 0.061535995 0.98596811 -0.06258031
-0.0095977178 -0.066194355 0.0095264688 0.065921187 0.98607159 -0.062170468 0.014037905 0.062142935
1071.5193052376 0.0143373 0.064789169 0.98632681 -0.065067708 0.0099081947 0.066980362 -0.0098224059 -0.067045718
0.98647982 -0.065055959 0.012824164 0.064258456 -0.0097617973 -0.066957638 0.0098903691 0.067235395
0.0099166622 0.067267828 -0.0099877752 -0.066990435 0.014586546 0.063245706 0.98587418 -0.064005889
-0.0099246763 -0.067316793 0.0099336198 0.066932827 0.98555529 -0.063719727 0.014085469 0.063199833
1090.1844923851 0.014542113 0.065943964 0.98600072 -0.066374049 0.010375893 0.068064474 -0.010338811 -0.068213202
0.98598647 -0.066480994 0.01321967 0.065606385 -0.010354106 -0.068136029 0.010279897 0.068204939
0.010212952 0.068338268 -0.010238169 -0.068253838 0.014779733 0.064686693 0.98555779 -0.065238506
-0.010311002 -0.06828098 0.010302931 0.068111248 0.98541564 -0.064649671 0.01461023 0.064452939
1109.1748152624 0.015030329 0.067190371 0.98581141 -0.067425996 0.010701694 0.069240272 -0.010706947 -0.069354296
0.98569876 -0.067818388 0.013735236 0.067053892 -0.010704246 -0.069412306 0.010575327 0.069464646
0.010680337 0.069527186 -0.010695957 -0.069430672 0.014884184 0.065750316 0.98501438 -0.066232838
-0.010665352 -0.069569863 0.010720008 0.069330528 0.98514485 -0.066245794 0.015280921 0.065941453
1128.4959375278 0.014958778 0.068597496 0.98540467 -0.068835638 0.011148389 0.070427828 -0.011041642 -0.070590548
0.98552918 -0.068981774 0.013967081 0.068148367 -0.011101559 -0.070454128 0.010997596 0.070675537
0.011072163 0.070767239 -0.011071989 -0.070452765 0.015224766 0.067212269 0.98447627 -0.067850932
-0.011110724 -0.070734508 0.010987229 0.070468582 0.98444706 -0.06727013 0.01562633 0.066946559
1148.1536214969 0.015677014 0.069690131 0.98485279 -0.070154369 0.011464964 0.071614906 -0.011466731 -0.071793459
0.98481685 -0.070232019 0.014098915 0.069512956 -0.011412998 -0.071646757 0.011322829 0.071835645
0.011559946 0.071874112 -0.011414075 -0.07173609 0.015467713 0.068345316 0.98424006 -0.068825193
-0.011419817 -0.071912892 0.011521324 0.071667664 0.98421597 -0.068698965 0.016102593 0.068287328
1168.1537298613 0.016169626 0.070674285 0.98443985 -0.07098297 0.011787332 0.072872423 -0.011807441 -0.073029794
0.98447531 -0.071607649 0.014887813 0.071095243 -0.011860473 -0.072778158 0.011791979 0.073078901
0.011692648 0.073043175 -0.01180614 -0.073003612 0.01619342 0.069626525 0.98365951 -0.070502527
-0.011700998 -0.073111437 0.011769573 0.072816394 0.98366702 -0.06981232 0.015894249 0.069798745
1188.502227437 0.016401041 0.072495155 0.98411387 -0.072758108 0.012345865 0.07398352 -0.01226611 -0.074167117
0.9839263 -0.07273192 0.015077864 0.072075687 -0.012297307 -0.074109443 0.012309481 0.074338533
0.012099614 0.074184984 -0.012266242 -0.074114889 0.017063323 0.070525222 0.98338842 -0.071376219
-0.012307901 -0.074215747 0.012316407 0.074163757 0.98318028 -0.071406826 0.01645459 0.071306281
1209.2051829432 0.017079337 0.073482312 0.98359787 -0.073826574 0.012756553 0.075194292 -0.012594137 -0.075452372
0.98339897 -0.073968209 0.01580322 0.073231757 -0.012695874 -0.07521373 0.012693204 0.075428218
0.012513061 0.07556209 -0.012717222 -0.075256541 0.01644646 0.072241768 0.98289341 -0.073039986
-0.012703242 -0.075483143 0.012675615 0.075268723 0.98272461 -0.072596349 0.017674368 0.072319567
1230.2687708124 0.017813908 0.07527592 0.98268193 -0.075453512 0.013123347 0.076433957 -0.013170971 -0.07674513
0.98290217 -0.075311638 0.016195843 0.074850179 -0.013249194 -0.07660494 0.013116221 0.07681834
0.013198273 0.076716781 -0.013200488 -0.076507799 0.017421747 0.073888667 0.98238188 -0.074511312
-0.01313323 -0.076878279 0.013057398 0.076472551 0.98238575 -0.074243814 0.017425297 0.073440105
1251.6992730317 0.017670514 0.076658174 0.98281205 -0.076631211 0.013608818 0.077738859 -0.013512195 -0.078035183
0.98253441 -0.076827288 0.016582586 0.076110534 -0.013567083 -0.077754237 0.013504419 0.078118503
0.013620991 0.077993944 -0.013555044 -0.077905498 0.018047223 0.075393952 0.9818126 -0.075477943
-0.013625661 -0.07802406 0.013514264 0.07780496 0.98157507 -0.075511672 0.018013915 0.074598305
1273.5030810167 0.018044498 0.078142434 0.98214239 -0.078041255 0.014234648 0.079131179 -0.014081505 -0.07933446
0.98233402 -0.07821212 0.016812509 0.077190109 -0.013957765 -0.079249829 0.014050234 0.079410113
0.014137742 0.079321794 -0.014244392 -0.07920751 0.018168539 0.076412767 0.98168284 -0.076960281
-0.013955254 -0.079300538 0.014005571 0.079252616 0.98152846 -0.076968841 0.018753858 0.076446593
1295.686697517 0.018864514 0.079052068 0.98174006 -0.07925979 0.014567794 0.080383554 -0.014602433 -0.080827869
0.9818359 -0.079524107 0.017704455 0.079041027 -0.014592284 -0.08055003 0.014529905 0.080627605
0.014500956 0.080717035 -0.014489425 -0.080448128 0.01865059 0.077900864 0.98115414 -0.078326993
-0.014497168 -0.080656178 0.014490656 0.080477759 0.98103607 -0.077987418 0.018266037 0.077753529
1318.2567385564 0.019265883 0.080778919 0.98100907 -0.08060497 0.014979919 0.081722982 -0.014962776 -0.08190053
0.98126137 -0.081030466 0.017821038 0.080380037 -0.015138908 -0.081721157 0.015017892 0.082108632
0.015032753 0.081929654 -0.015221059 -0.081839465 0.019206313 0.078950264 0.98046547 -0.079985343
-0.015096103 -0.08202368 0.015067829 0.081768729 0.98039764 -0.079406381 0.019325085 0.07920827
1341.2199354054 0.02035787 0.082054593 0.98058629 -0.08200223 0.015559484 0.083031997 -0.015546273 -0.083223946
0.98050439 -0.082465239 0.018391382 0.081866056 -0.015634533 -0.083007328 0.015515701 0.083424516
0.015538555 0.083378963 -0.015765183 -0.083279505 0.019407798 0.08075121 0.97986233 -0.08148016
-0.015465786 -0.08322829 0.015720893 0.083052672 0.98004144 -0.080659851 0.019908285 0.080705546
1364.5831365889 0.020172162 0.083325692 0.98031694 -0.08342427 0.016214022 0.084448978 -0.016054545 -0.084747702
0.98012519 -0.083720483 0.018899703 0.083447881 -0.016326424 -0.084601842 0.01615702 0.084815048
0.016104531 0.084717624 -0.016167808 -0.084584758 0.020230297 0.082553275 0.97922879 -0.082642719
-0.016083805 -0.084779754 0.016145062 0.08457844 0.97959512 -0.08236403 0.020558625 0.082111292
1388.353309929 0.021127554 0.084726959 0.97955984 -0.084842473 0.016645191 0.085760698 -0.016746027 -0.08600007
0.97956061 -0.085558243 0.019264249 0.084716722 -0.016778218 -0.085921094 0.016947553 0.086330391
0.016597861 0.086005494 -0.016652107 -0.085964188 0.020834453 0.083694749 0.97861332 -0.084222145
-0.016677823 -0.085996509 0.016700376 0.085824177 0.97864318 -0.084056243 0.02119845 0.083885655
1412.5375446228 0.021872023 0.086294442 0.97914058 -0.086492248 0.017195037 0.087098174 -0.017119035 -0.087485097
0.97858411 -0.086664073 0.019805076 0.086011872 -0.017306317 -0.087203249 0.017138202 0.087599553
0.017123176 0.087452151 -0.017171104 -0.087357998 0.021326069 0.085073359 0.97798884 -0.085708216
-0.017162997 -0.087403268 0.017166993 0.087413855 0.97820121 -0.085214511 0.021683816 0.085320495
1437.1430533564 0.022424389 0.087794408 0.97829247 -0.088042863 0.017837165 0.088633552 -0.017851885 -0.088936746
0.97833186 -0.088064477 0.020128092 0.087737717 -0.017746376 -0.088611104 0.017727377 0.088990584
0.017832385 0.088880524 -0.01782768 -0.088742062 0.022113778 0.08652211 0.97786409 -0.086807124
-0.017909519 -0.088953182 0.017662412 0.088695183 0.97731686 -0.086722411 0.022306357 0.086651281
1462.1771744567 0.022590216 0.089565046 0.97774023 -0.089479461 0.018483594 0.090096973 -0.018525334 -0.090294704
0.97766155 -0.089833021 0.021389365 0.088964261 -0.018444953 -0.090113394 0.018508494 0.090454742
0.018438004 0.090386711 -0.018351978 -0.090156928 0.022755716 0.087857343 0.97672731 -0.088455416
-0.018532397 -0.090252019 0.018555216 0.090266421 0.97680658 -0.088357128 0.022720776 0.088407703
1487.6473740795 0.023016432 0.090824321 0.97700059 -0.09103851 0.019020159 0.091424763 -0.018982338 -0.091851063
0.97682422 -0.091339469 0.022206845 0.090554811 -0.018948862 -0.091450624 0.018982589 0.091773242
0.018938629 0.091753215 -0.019118519 -0.091552049 0.023169801 0.089280434 0.9761278 -0.090144545
-0.019073324 -0.091737136 0.018982574 0.091584645 0.97628891 -0.089892425 0.023309827 0.089860886
1513.5612484362 0.024374669 0.092333391 0.97652489 -0.092516758 0.019666441 0.092912652 -0.01948721 -0.093189701
0.97631979 -0.09290541 0.022457516 0.092291825 -0.019698944 -0.093099877 0.019659026 0.093373209
0.019691274 0.0932694 -0.019606611 -0.093184285 0.023982057 0.090620659 0.97540963 -0.091684766
-0.019689243 -0.093149282 0.019693462 0.093063302 0.97553962 -0.091241963 0.024387557 0.091294236
1539.9265260595 0.024685822 0.093913369 0.97588962 -0.094136916 0.020246373 0.094516762 -0.020322898 -0.094704077
0.97580254 -0.094365507 0.023374613 0.093710758 -0.020282483 -0.094463177 0.020359911 0.0948513
0.020288672 0.094788708 -0.020332595 -0.094673298 0.024522148 0.092375278 0.97488308 -0.093214408
-0.020302767 -0.094828427 0.020418039 0.094527014 0.97505802 -0.092951864 0.024406688 0.092763789
1566.7510701081 0.025283989 0.095162459 0.97547281 -0.095823765 0.021024579 0.095909409 -0.021037186 -0.096423887
0.97509396 -0.095924899 0.023652963 0.095496476 -0.021108663 -0.096031085 0.021083888 0.09633667
0.020997766 0.09634237 -0.020994077 -0.095978297 0.025097501 0.094528727 0.97393769 -0.095115788
-0.02101751 -0.096226178 0.0210359 0.096068263 0.9743337 -0.094688162 0.025240803 0.094487034
1594.0428807122 0.02616303 0.096844338 0.97422838 -0.09718892 0.021653751 0.097513638 -0.021618152 -0.097791336
0.97456837 -0.097342037 0.024711169 0.096645415 -0.021667572 -0.097564027 0.021787822 0.097740941
0.021578414 0.097795919 -0.021657402 -0.097572587 0.025872268 0.095377699 0.97350591 -0.096435428
-0.021699928 -0.097795948 0.021730678 0.097560488 0.97345573 -0.096045204 0.02598621 0.096356466
1621.8100973589 0.02652082 0.098288037 0.97345531 -0.098812528 0.022413308 0.099080935 -0.022457976 -0.099346817
0.97386074 -0.099024288 0.025502708 0.098216005 -0.022419306 -0.099105246 0.022400696 0.099366933
0.022462804 0.099419862 -0.022353193 -0.099198967 0.026392043 0.09736529 0.9729768 -0.098032176
-0.022437146 -0.099317841 0.022372739 0.099218793 0.97306937 -0.097777352 0.026493419 0.097515993
1650.0610013202 0.027742757 0.10026988 0.97303617 -0.10032269 0.023039598 0.100593 -0.023215327 -0.1008465
0.97306514 -0.1007103 0.025825776 0.099945016 -0.023154976 -0.10074282 0.023270147 0.10102899
0.023104131 0.10086142 -0.0230993 -0.1007366 0.027293244 0.098494701 0.97203714 -0.099925563
-0.023144761 -0.10074362 0.023137907 0.10062436 0.97190344 -0.099179924 0.027402217 0.099520616
1678.8040181226 0.028351521 0.10146881 0.9722302 -0.10211676 0.023967102 0.10213924 -0.023936613 -0.1025454
0.97228652 -0.10237789 0.026482988 0.10160524 -0.02391047 -0.10232823 0.023972467 0.1026625
0.023902263 0.10251202 -0.023958182 -0.10226456 0.027797317 0.10026887 0.97124457 -0.10126877
-0.023811135 -0.10249227 0.023999587 0.10227712 0.97152472 -0.10096944 0.028360056 0.10100014
1708.0477200597 0.029161144 0.10354708 0.97139877 -0.10357945 0.024662292 0.10374991 -0.02467959 -0.10412929
0.97140032 -0.10423408 0.02764884 0.10334662 -0.024688175 -0.10374942 0.024802038 0.10421524
0.024823315 0.10398632 -0.024653243 -0.10387056 0.028673667 0.10211574 0.97057295 -0.10273525
-0.02471029 -0.10404778 0.024537249 0.1039713 0.97051138 -0.1027509 0.029201066 0.10229383
1737.8008287494 0.029750703 0.10503461 0.97058839 -0.10553154 0.025555627 0.10529898 -0.02557802 -0.10575961
0.97076488 -0.10556255 0.028232962 0.10500338 -0.025561389 -0.10546102 0.025503617 0.10574783
0.025565393 0.10573307 -0.025483785 -0.10568286 0.02931148 0.10397135 0.96939987 -0.10447633
-0.025422335 -0.10573368 0.025471952 0.10533736 0.96962452 -0.10453824 0.030199932 0.10404272
1768.0722177343 0.030763827 0.10707417 0.96989346 -0.10710987 0.026303593 0.10698658 -0.026342042 -0.10744068
0.96988225 -0.10741977 0.029110793 0.10649241 -0.026358938 -0.10705516 0.026517849 0.10761286
0.026412241 0.1073307 -0.026433179 -0.10708987 0.030827114 0.10573616 0.96868062 -0.10625647
-0.026486257 -0.10725036 0.026374456 0.1070973 0.96898168 -0.10610032 0.030791407 0.10602687
1798.8709151288 0.031729046 0.1086289 0.96869618 -0.10865211 0.027165521 0.10859719 -0.027238015 -0.10888084
0.96884865 -0.10883428 0.029908838 0.1084392 -0.027244592 -0.10885038 0.027309643 0.10924289
0.027239079 0.10900453 -0.027157554 -0.10882975 0.031315919 0.10767941 0.96793109 -0.10833693
-0.027152823 -0.10895632 0.027128942 0.10877217 0.96790296 -0.1076246 0.031460349 0.10745175
1830.2061063111 0.032647248 0.11005492 0.96795487 -0.11051121 0.028170612 0.110462 -0.028084543 -0.11069179
0.9680984 -0.11055236 0.030507419 0.10994521 -0.028060986 -0.11050002 0.028084237 0.11087452
0.027960099 0.11062969 -0.028087026 -0.11053696 0.032148525 0.1093304 0.96706766 -0.10963283
-0.028097307 -0.11063119 0.028008729 0.11053123 0.96735579 -0.10948692 0.032677114 0.10917952
1862.0871366629 0.032949936 0.11197401 0.96691686 -0.1123347 0.029013297 0.11214665 -0.029093498 -0.11243234
0.96711826 -0.11257671 0.032415386 0.11174534 -0.028972264 -0.11216865 0.028994821 0.11252284
0.02896896 0.11238243 -0.028951727 -0.11214051 0.033473492 0.11056428 0.96614784 -0.1113162
-0.029065136 -0.11236084 0.028936615 0.11211415 0.9661631 -0.11121725 0.033483796 0.1109745
1894.5235143566 0.03447618 0.11366379 0.96621102 -0.11408468 0.029941004 0.11367911 -0.029918028 -0.11415828
0.96600789 -0.11426049 0.032818262 0.1137488 -0.029831953 -0.113828 0.030055547 0.11426322
0.029815171 0.11401523 -0.029930834 -0.11402228 0.03422996 0.1123134 0.96511883 -0.11312796
-0.030008016 -0.11399103 0.029943403 0.11391902 0.9653455 -0.1129345 0.034454565 0.11288086
1927.5249131909 0.035303436 0.1155593 0.96503007 -0.11570743 0.030839751 0.11549725 -0.030927258 -0.11581283
0.96531779 -0.1159692 0.033999056 0.11517216 -0.030750066 -0.11564947 0.031025063 0.11584555
0.030957663 0.11580297 -0.030862849 -0.11559244 0.03510097 0.11434004 0.96408021 -0.11521308
-0.030946016 -0.11579116 0.030813057 0.11551106 0.96440423 -0.11454501 0.035437919 0.11468744
1961.101175476 0.036242437 0.11722008 0.96410954 -0.11742576 0.031807065 0.11723615 -0.03200385 -0.11767979
0.96431619 -0.1175839 0.034760203 0.11711156 -0.031865995 -0.11727351 0.031906985 0.11786722
0.031814411 0.11756568 -0.031918883 -0.11738332 0.03600774 0.11628658 0.96323413 -0.11682687
-0.031875163 -0.11761235 0.031886306 0.11737839 0.96315515 -0.11662092 0.036258962 0.11607276
1995.2623149689 0.037000034 0.11898296 0.96329588 -0.11930007 0.032966986 0.11901104 -0.032918714 -0.1193954
0.96291 -0.11966265 0.035768788 0.11892821 -0.032816831 -0.11904822 0.033057719 0.11946578
0.033039339 0.11937001 -0.032906394 -0.11915603 0.037244897 0.11796562 0.96229953 -0.11857919
-0.032888286 -0.1192783 0.032811072 0.11907242 0.96205461 -0.11816786 0.037502322 0.11808523
2030.0185198597 0.038219038 0.12094174 0.9624083 -0.12089705 0.033911396 0.12066223 -0.0340738 -0.12121245
0.96188819 -0.12095734 0.036815599 0.12050362 -0.034014568 -0.12083557 0.03402051 0.12124424
0.034099087 0.12125444 -0.033787481 -0.12106284 0.038352165 0.12005404 0.96054596 -0.12043563
-0.033968516 -0.12100562 0.033903304 0.1209728 0.96132827 -0.12021311 0.038249053 0.12017389
2065.3801558105 0.039042015 0.12275973 0.96092153 -0.12305038 0.034951974 0.12250352 -0.035000332 -0.1229936
0.96105629 -0.12323891 0.038016349 0.12246317 -0.034945503 -0.12262798 0.035129242 0.12287942
0.035054758 0.12292483 -0.034791086 -0.12278687 0.039628241 0.12147298 0.95979184 -0.12246894
-0.034791511 -0.12288 0.034947257 0.12264275 0.95980817 -0.12168127 0.039447337 0.12166531
