!Murata Part Number: GRM022B11A471MA01
!These Parameters are Measured in Series Mode Connection
!Data Generated on Mar 30, 2021
!       o--ll--o
!Port1            Port2
!       o------o
!Operation Temp=25[degC], DC Bias Voltage=0[V]
!Freq. Start=100[Hz] Stop=6[GHz] 401[Steps]
# Hz S RI R 50
!Freq.(Hz) S11(Real) S11(Imag) S21(Real) S21(Imag) S12(Real) S12(Imag) S22(Real) S22(Imag)
100 0.9999997 -0.0000288 0.0000003 0.0000288 0.0000003 0.0000288 0.9999997 -0.0000288
105 0.9999997 -0.0000301 0.0000003 0.0000301 0.0000003 0.0000301 0.9999997 -0.0000301
109 0.9999997 -0.0000315 0.0000003 0.0000315 0.0000003 0.0000315 0.9999997 -0.0000315
114 0.9999997 -0.0000329 0.0000003 0.0000329 0.0000003 0.0000329 0.9999997 -0.0000329
120 0.9999996 -0.0000344 0.0000004 0.0000344 0.0000004 0.0000344 0.9999996 -0.0000344
125 0.9999996 -0.0000360 0.0000004 0.0000360 0.0000004 0.0000360 0.9999996 -0.0000360
131 0.9999996 -0.0000376 0.0000004 0.0000376 0.0000004 0.0000376 0.9999996 -0.0000376
137 0.9999996 -0.0000393 0.0000004 0.0000393 0.0000004 0.0000393 0.9999996 -0.0000393
143 0.9999996 -0.0000411 0.0000004 0.0000411 0.0000004 0.0000411 0.9999996 -0.0000411
150 0.9999996 -0.0000430 0.0000004 0.0000430 0.0000004 0.0000430 0.9999996 -0.0000430
156 0.9999996 -0.0000450 0.0000004 0.0000450 0.0000004 0.0000450 0.9999996 -0.0000450
164 0.9999996 -0.0000470 0.0000004 0.0000470 0.0000004 0.0000470 0.9999996 -0.0000470
171 0.9999996 -0.0000492 0.0000004 0.0000492 0.0000004 0.0000492 0.9999996 -0.0000492
179 0.9999995 -0.0000514 0.0000005 0.0000514 0.0000005 0.0000514 0.9999995 -0.0000514
187 0.9999995 -0.0000537 0.0000005 0.0000537 0.0000005 0.0000537 0.9999995 -0.0000537
196 0.9999995 -0.0000562 0.0000005 0.0000562 0.0000005 0.0000562 0.9999995 -0.0000562
205 0.9999995 -0.0000587 0.0000005 0.0000587 0.0000005 0.0000587 0.9999995 -0.0000587
214 0.9999995 -0.0000614 0.0000005 0.0000614 0.0000005 0.0000614 0.9999995 -0.0000614
224 0.9999995 -0.0000642 0.0000005 0.0000642 0.0000005 0.0000642 0.9999995 -0.0000642
234 0.9999995 -0.0000671 0.0000005 0.0000671 0.0000005 0.0000671 0.9999995 -0.0000671
245 0.9999994 -0.0000702 0.0000006 0.0000702 0.0000006 0.0000702 0.9999994 -0.0000702
256 0.9999994 -0.0000734 0.0000006 0.0000734 0.0000006 0.0000734 0.9999994 -0.0000734
268 0.9999994 -0.0000768 0.0000006 0.0000768 0.0000006 0.0000768 0.9999994 -0.0000768
280 0.9999994 -0.0000803 0.0000006 0.0000803 0.0000006 0.0000803 0.9999994 -0.0000803
293 0.9999994 -0.0000839 0.0000006 0.0000839 0.0000006 0.0000839 0.9999994 -0.0000839
306 0.9999993 -0.0000877 0.0000007 0.0000877 0.0000007 0.0000877 0.9999993 -0.0000877
320 0.9999993 -0.0000917 0.0000007 0.0000917 0.0000007 0.0000917 0.9999993 -0.0000917
335 0.9999993 -0.0000959 0.0000007 0.0000959 0.0000007 0.0000959 0.9999993 -0.0000959
350 0.9999993 -0.0001003 0.0000007 0.0001003 0.0000007 0.0001003 0.9999993 -0.0001003
366 0.9999993 -0.0001049 0.0000007 0.0001049 0.0000007 0.0001049 0.9999993 -0.0001049
383 0.9999992 -0.0001097 0.0000008 0.0001097 0.0000008 0.0001097 0.9999992 -0.0001097
401 0.9999992 -0.0001147 0.0000008 0.0001147 0.0000008 0.0001147 0.9999992 -0.0001147
419 0.9999992 -0.0001199 0.0000008 0.0001199 0.0000008 0.0001199 0.9999992 -0.0001199
438 0.9999991 -0.0001254 0.0000009 0.0001254 0.0000009 0.0001254 0.9999991 -0.0001254
458 0.9999991 -0.0001311 0.0000009 0.0001311 0.0000009 0.0001311 0.9999991 -0.0001311
479 0.9999991 -0.0001371 0.0000009 0.0001371 0.0000009 0.0001371 0.9999991 -0.0001371
501 0.9999991 -0.0001433 0.0000009 0.0001433 0.0000009 0.0001433 0.9999991 -0.0001433
524 0.9999990 -0.0001499 0.0000010 0.0001499 0.0000010 0.0001499 0.9999990 -0.0001499
548 0.9999990 -0.0001567 0.0000010 0.0001567 0.0000010 0.0001567 0.9999990 -0.0001567
573 0.9999990 -0.0001638 0.0000010 0.0001638 0.0000010 0.0001638 0.9999990 -0.0001638
600 0.9999989 -0.0001713 0.0000011 0.0001713 0.0000011 0.0001713 0.9999989 -0.0001713
627 0.9999989 -0.0001791 0.0000011 0.0001791 0.0000011 0.0001791 0.9999989 -0.0001791
656 0.9999988 -0.0001873 0.0000012 0.0001873 0.0000012 0.0001873 0.9999988 -0.0001873
686 0.9999988 -0.0001959 0.0000012 0.0001959 0.0000012 0.0001959 0.9999988 -0.0001959
717 0.9999988 -0.0002048 0.0000012 0.0002048 0.0000012 0.0002048 0.9999988 -0.0002048
750 0.9999987 -0.0002141 0.0000013 0.0002141 0.0000013 0.0002141 0.9999987 -0.0002141
784 0.9999987 -0.0002239 0.0000013 0.0002239 0.0000013 0.0002239 0.9999987 -0.0002239
820 0.9999986 -0.0002341 0.0000014 0.0002341 0.0000014 0.0002341 0.9999986 -0.0002341
858 0.9999986 -0.0002448 0.0000014 0.0002448 0.0000014 0.0002448 0.9999986 -0.0002448
897 0.9999985 -0.0002560 0.0000015 0.0002560 0.0000015 0.0002560 0.9999985 -0.0002560
938 0.9999984 -0.0002677 0.0000016 0.0002677 0.0000016 0.0002677 0.9999984 -0.0002677
981 0.9999984 -0.0002799 0.0000016 0.0002799 0.0000016 0.0002799 0.9999984 -0.0002799
1026 0.9999983 -0.0002927 0.0000017 0.0002927 0.0000017 0.0002927 0.9999983 -0.0002927
1073 0.9999982 -0.0003061 0.0000018 0.0003061 0.0000018 0.0003061 0.9999982 -0.0003061
1122 0.9999982 -0.0003201 0.0000018 0.0003201 0.0000018 0.0003201 0.9999982 -0.0003201
1174 0.9999981 -0.0003347 0.0000019 0.0003347 0.0000019 0.0003347 0.9999981 -0.0003347
1227 0.9999980 -0.0003500 0.0000020 0.0003500 0.0000020 0.0003500 0.9999980 -0.0003500
1283 0.9999979 -0.0003659 0.0000021 0.0003659 0.0000021 0.0003659 0.9999979 -0.0003659
1342 0.9999978 -0.0003827 0.0000022 0.0003827 0.0000022 0.0003827 0.9999978 -0.0003827
1404 0.9999977 -0.0004001 0.0000023 0.0004001 0.0000023 0.0004001 0.9999977 -0.0004001
1468 0.9999976 -0.0004184 0.0000024 0.0004184 0.0000024 0.0004184 0.9999976 -0.0004184
1535 0.9999975 -0.0004375 0.0000025 0.0004375 0.0000025 0.0004375 0.9999975 -0.0004375
1606 0.9999974 -0.0004575 0.0000026 0.0004575 0.0000026 0.0004575 0.9999974 -0.0004575
1679 0.9999972 -0.0004784 0.0000028 0.0004784 0.0000028 0.0004784 0.9999972 -0.0004784
1756 0.9999971 -0.0005002 0.0000029 0.0005002 0.0000029 0.0005002 0.9999971 -0.0005002
1836 0.9999969 -0.0005231 0.0000031 0.0005231 0.0000031 0.0005231 0.9999969 -0.0005231
1920 0.9999968 -0.0005469 0.0000032 0.0005469 0.0000032 0.0005469 0.9999968 -0.0005469
2008 0.9999966 -0.0005719 0.0000034 0.0005719 0.0000034 0.0005719 0.9999966 -0.0005719
2100 0.9999964 -0.0005980 0.0000036 0.0005980 0.0000036 0.0005980 0.9999964 -0.0005980
2196 0.9999962 -0.0006253 0.0000038 0.0006253 0.0000038 0.0006253 0.9999962 -0.0006253
2297 0.9999960 -0.0006538 0.0000040 0.0006538 0.0000040 0.0006538 0.9999960 -0.0006538
2402 0.9999958 -0.0006837 0.0000042 0.0006837 0.0000042 0.0006837 0.9999958 -0.0006837
2512 0.9999956 -0.0007149 0.0000044 0.0007149 0.0000044 0.0007149 0.9999956 -0.0007149
2627 0.9999953 -0.0007475 0.0000047 0.0007475 0.0000047 0.0007475 0.9999953 -0.0007475
2748 0.9999951 -0.0007816 0.0000049 0.0007816 0.0000049 0.0007816 0.9999951 -0.0007816
2873 0.9999948 -0.0008172 0.0000052 0.0008172 0.0000052 0.0008172 0.9999948 -0.0008172
3005 0.9999946 -0.0008545 0.0000054 0.0008545 0.0000054 0.0008545 0.9999946 -0.0008545
3143 0.9999943 -0.0008935 0.0000057 0.0008935 0.0000057 0.0008935 0.9999943 -0.0008935
3287 0.9999940 -0.0009343 0.0000060 0.0009343 0.0000060 0.0009343 0.9999940 -0.0009343
3437 0.9999936 -0.0009769 0.0000064 0.0009769 0.0000064 0.0009769 0.9999936 -0.0009769
3594 0.9999933 -0.0010214 0.0000067 0.0010214 0.0000067 0.0010214 0.9999933 -0.0010214
3759 0.9999930 -0.0010680 0.0000070 0.0010680 0.0000070 0.0010680 0.9999930 -0.0010680
3931 0.9999926 -0.0011167 0.0000074 0.0011167 0.0000074 0.0011167 0.9999926 -0.0011167
4111 0.9999922 -0.0011676 0.0000078 0.0011676 0.0000078 0.0011676 0.9999922 -0.0011676
4299 0.9999918 -0.0012209 0.0000082 0.0012209 0.0000082 0.0012209 0.9999918 -0.0012209
4496 0.9999914 -0.0012766 0.0000086 0.0012766 0.0000086 0.0012766 0.9999914 -0.0012766
4702 0.9999909 -0.0013348 0.0000091 0.0013348 0.0000091 0.0013348 0.9999909 -0.0013348
4918 0.9999905 -0.0013957 0.0000095 0.0013957 0.0000095 0.0013957 0.9999905 -0.0013957
5143 0.9999900 -0.0014594 0.0000100 0.0014594 0.0000100 0.0014594 0.9999900 -0.0014594
5378 0.9999895 -0.0015260 0.0000105 0.0015260 0.0000105 0.0015260 0.9999895 -0.0015260
5625 0.9999889 -0.0015956 0.0000111 0.0015956 0.0000111 0.0015956 0.9999889 -0.0015956
5882 0.9999883 -0.0016684 0.0000117 0.0016684 0.0000117 0.0016684 0.9999883 -0.0016684
6151 0.9999877 -0.0017446 0.0000123 0.0017446 0.0000123 0.0017446 0.9999877 -0.0017446
6433 0.9999871 -0.0018242 0.0000129 0.0018242 0.0000129 0.0018242 0.9999871 -0.0018242
6728 0.9999864 -0.0019075 0.0000136 0.0019075 0.0000136 0.0019075 0.9999864 -0.0019075
7036 0.9999856 -0.0019946 0.0000144 0.0019946 0.0000144 0.0019946 0.9999856 -0.0019946
7358 0.9999848 -0.0020856 0.0000152 0.0020856 0.0000152 0.0020856 0.9999848 -0.0020856
7695 0.9999840 -0.0021808 0.0000160 0.0021808 0.0000160 0.0021808 0.9999840 -0.0021808
8047 0.9999831 -0.0022804 0.0000169 0.0022804 0.0000169 0.0022804 0.9999831 -0.0022804
8416 0.9999821 -0.0023846 0.0000179 0.0023846 0.0000179 0.0023846 0.9999821 -0.0023846
8801 0.9999810 -0.0024935 0.0000190 0.0024935 0.0000190 0.0024935 0.9999810 -0.0024935
9204 0.9999799 -0.0026073 0.0000201 0.0026073 0.0000201 0.0026073 0.9999799 -0.0026073
9626 0.9999787 -0.0027264 0.0000213 0.0027264 0.0000213 0.0027264 0.9999787 -0.0027264
10066 0.9999774 -0.0028510 0.0000226 0.0028510 0.0000226 0.0028510 0.9999774 -0.0028510
10527 0.9999759 -0.0029812 0.0000241 0.0029812 0.0000241 0.0029812 0.9999759 -0.0029812
11009 0.9999744 -0.0031173 0.0000256 0.0031173 0.0000256 0.0031173 0.9999744 -0.0031173
11514 0.9999727 -0.0032597 0.0000273 0.0032597 0.0000273 0.0032597 0.9999727 -0.0032597
12041 0.9999709 -0.0034086 0.0000291 0.0034086 0.0000291 0.0034086 0.9999709 -0.0034086
12592 0.9999689 -0.0035643 0.0000311 0.0035643 0.0000311 0.0035643 0.9999689 -0.0035643
13169 0.9999668 -0.0037271 0.0000332 0.0037271 0.0000332 0.0037271 0.9999668 -0.0037271
13772 0.9999645 -0.0038973 0.0000355 0.0038973 0.0000355 0.0038973 0.9999645 -0.0038973
14402 0.9999620 -0.0040753 0.0000380 0.0040753 0.0000380 0.0040753 0.9999620 -0.0040753
15062 0.9999593 -0.0042614 0.0000407 0.0042614 0.0000407 0.0042614 0.9999593 -0.0042614
15752 0.9999563 -0.0044560 0.0000437 0.0044560 0.0000437 0.0044560 0.9999563 -0.0044560
16473 0.9999531 -0.0046595 0.0000469 0.0046595 0.0000469 0.0046595 0.9999531 -0.0046595
17227 0.9999497 -0.0048722 0.0000503 0.0048722 0.0000503 0.0048722 0.9999497 -0.0048722
18016 0.9999460 -0.0050946 0.0000540 0.0050946 0.0000540 0.0050946 0.9999460 -0.0050946
18841 0.9999419 -0.0053272 0.0000581 0.0053272 0.0000581 0.0053272 0.9999419 -0.0053272
19704 0.9999375 -0.0055703 0.0000625 0.0055703 0.0000625 0.0055703 0.9999375 -0.0055703
20606 0.9999328 -0.0058245 0.0000672 0.0058245 0.0000672 0.0058245 0.9999328 -0.0058245
21550 0.9999277 -0.0060902 0.0000723 0.0060902 0.0000723 0.0060902 0.9999277 -0.0060902
22537 0.9999222 -0.0063681 0.0000778 0.0063681 0.0000778 0.0063681 0.9999222 -0.0063681
23569 0.9999162 -0.0066586 0.0000838 0.0066586 0.0000838 0.0066586 0.9999162 -0.0066586
24648 0.9999098 -0.0069623 0.0000902 0.0069623 0.0000902 0.0069623 0.9999098 -0.0069623
25777 0.9999028 -0.0072798 0.0000972 0.0072798 0.0000972 0.0072798 0.9999028 -0.0072798
26957 0.9998953 -0.0076117 0.0001047 0.0076117 0.0001047 0.0076117 0.9998953 -0.0076117
28191 0.9998873 -0.0079587 0.0001127 0.0079587 0.0001127 0.0079587 0.9998873 -0.0079587
29482 0.9998785 -0.0083215 0.0001215 0.0083215 0.0001215 0.0083215 0.9998785 -0.0083215
30832 0.9998691 -0.0087007 0.0001309 0.0087007 0.0001309 0.0087007 0.9998691 -0.0087007
32244 0.9998590 -0.0090973 0.0001410 0.0090973 0.0001410 0.0090973 0.9998590 -0.0090973
33721 0.9998481 -0.0095118 0.0001519 0.0095118 0.0001519 0.0095118 0.9998481 -0.0095118
35265 0.9998363 -0.0099452 0.0001637 0.0099452 0.0001637 0.0099452 0.9998363 -0.0099452
36880 0.9998236 -0.0103983 0.0001764 0.0103983 0.0001764 0.0103983 0.9998236 -0.0103983
38569 0.9998099 -0.0108720 0.0001901 0.0108720 0.0001901 0.0108720 0.9998099 -0.0108720
40335 0.9997951 -0.0113672 0.0002049 0.0113672 0.0002049 0.0113672 0.9997951 -0.0113672
42182 0.9997791 -0.0118850 0.0002209 0.0118850 0.0002209 0.0118850 0.9997791 -0.0118850
44113 0.9997619 -0.0124263 0.0002381 0.0124263 0.0002381 0.0124263 0.9997619 -0.0124263
46134 0.9997433 -0.0129923 0.0002567 0.0129923 0.0002567 0.0129923 0.9997433 -0.0129923
48246 0.9997232 -0.0135840 0.0002768 0.0135840 0.0002768 0.0135840 0.9997232 -0.0135840
50455 0.9997015 -0.0142027 0.0002985 0.0142027 0.0002985 0.0142027 0.9997015 -0.0142027
52766 0.9996779 -0.0148496 0.0003221 0.0148496 0.0003221 0.0148496 0.9996779 -0.0148496
55182 0.9996525 -0.0155259 0.0003475 0.0155259 0.0003475 0.0155259 0.9996525 -0.0155259
57709 0.9996249 -0.0162331 0.0003751 0.0162331 0.0003751 0.0162331 0.9996249 -0.0162331
60352 0.9995950 -0.0169724 0.0004050 0.0169724 0.0004050 0.0169724 0.9995950 -0.0169724
63115 0.9995626 -0.0177455 0.0004374 0.0177455 0.0004374 0.0177455 0.9995626 -0.0177455
66005 0.9995274 -0.0185538 0.0004726 0.0185538 0.0004726 0.0185538 0.9995274 -0.0185538
69028 0.9994892 -0.0193988 0.0005108 0.0193988 0.0005108 0.0193988 0.9994892 -0.0193988
72189 0.9994477 -0.0202824 0.0005523 0.0202824 0.0005523 0.0202824 0.9994477 -0.0202824
75495 0.9994026 -0.0212062 0.0005974 0.0212062 0.0005974 0.0212062 0.9994026 -0.0212062
78952 0.9993536 -0.0221721 0.0006464 0.0221721 0.0006464 0.0221721 0.9993536 -0.0221721
82567 0.9993002 -0.0231819 0.0006998 0.0231819 0.0006998 0.0231819 0.9993002 -0.0231819
86348 0.9992421 -0.0242377 0.0007579 0.0242377 0.0007579 0.0242377 0.9992421 -0.0242377
90302 0.9991788 -0.0253414 0.0008212 0.0253414 0.0008212 0.0253414 0.9991788 -0.0253414
94437 0.9991099 -0.0264953 0.0008901 0.0264953 0.0008901 0.0264953 0.9991099 -0.0264953
98762 0.9990349 -0.0277015 0.0009651 0.0277015 0.0009651 0.0277015 0.9990349 -0.0277015
103284 0.9989531 -0.0289625 0.0010469 0.0289625 0.0010469 0.0289625 0.9989531 -0.0289625
108014 0.9988639 -0.0302807 0.0011361 0.0302807 0.0011361 0.0302807 0.9988639 -0.0302807
112960 0.9987668 -0.0316586 0.0012332 0.0316586 0.0012332 0.0316586 0.9987668 -0.0316586
118133 0.9986609 -0.0330988 0.0013391 0.0330988 0.0013391 0.0330988 0.9986609 -0.0330988
123542 0.9985454 -0.0346041 0.0014546 0.0346041 0.0014546 0.0346041 0.9985454 -0.0346041
129199 0.9984196 -0.0361774 0.0015804 0.0361774 0.0015804 0.0361774 0.9984196 -0.0361774
135116 0.9982824 -0.0378216 0.0017176 0.0378216 0.0017176 0.0378216 0.9982824 -0.0378216
141303 0.9981328 -0.0395399 0.0018672 0.0395399 0.0018672 0.0395399 0.9981328 -0.0395399
147774 0.9979697 -0.0413355 0.0020303 0.0413355 0.0020303 0.0413355 0.9979697 -0.0413355
154540 0.9977920 -0.0432117 0.0022080 0.0432117 0.0022080 0.0432117 0.9977920 -0.0432117
161617 0.9975982 -0.0451720 0.0024018 0.0451720 0.0024018 0.0451720 0.9975982 -0.0451720
169018 0.9973871 -0.0472202 0.0026129 0.0472202 0.0026129 0.0472202 0.9973871 -0.0472202
176758 0.9971570 -0.0493598 0.0028430 0.0493598 0.0028430 0.0493598 0.9971570 -0.0493598
184852 0.9969063 -0.0515949 0.0030937 0.0515949 0.0030937 0.0515949 0.9969063 -0.0515949
193316 0.9966332 -0.0539296 0.0033668 0.0539296 0.0033668 0.0539296 0.9966332 -0.0539296
202169 0.9963357 -0.0563680 0.0036643 0.0563680 0.0036643 0.0563680 0.9963357 -0.0563680
211427 0.9960116 -0.0589146 0.0039884 0.0589146 0.0039884 0.0589146 0.9960116 -0.0589146
221108 0.9956586 -0.0615738 0.0043414 0.0615738 0.0043414 0.0615738 0.9956586 -0.0615738
231233 0.9952743 -0.0643504 0.0047257 0.0643504 0.0047257 0.0643504 0.9952743 -0.0643504
241822 0.9948559 -0.0672493 0.0051441 0.0672493 0.0051441 0.0672493 0.9948559 -0.0672493
252896 0.9944003 -0.0702756 0.0055997 0.0702756 0.0055997 0.0702756 0.9944003 -0.0702756
264476 0.9939044 -0.0734343 0.0060956 0.0734343 0.0060956 0.0734343 0.9939044 -0.0734343
276587 0.9933646 -0.0767310 0.0066354 0.0767310 0.0066354 0.0767310 0.9933646 -0.0767310
289253 0.9927771 -0.0801712 0.0072229 0.0801712 0.0072229 0.0801712 0.9927771 -0.0801712
302498 0.9921378 -0.0837606 0.0078622 0.0837606 0.0078622 0.0837606 0.9921378 -0.0837606
316350 0.9914421 -0.0875052 0.0085579 0.0875052 0.0085579 0.0875052 0.9914421 -0.0875052
330837 0.9906851 -0.0914108 0.0093149 0.0914108 0.0093149 0.0914108 0.9906851 -0.0914108
345986 0.9898613 -0.0954839 0.0101387 0.0954839 0.0101387 0.0954839 0.9898613 -0.0954839
361830 0.9889651 -0.0997306 0.0110349 0.0997306 0.0110349 0.0997306 0.9889651 -0.0997306
378399 0.9879901 -0.1041575 0.0120099 0.1041575 0.0120099 0.1041575 0.9879901 -0.1041575
395726 0.9869294 -0.1087710 0.0130706 0.1087710 0.0130706 0.1087710 0.9869294 -0.1087710
413847 0.9857754 -0.1135778 0.0142246 0.1135778 0.0142246 0.1135778 0.9857754 -0.1135778
432798 0.9845202 -0.1185845 0.0154798 0.1185845 0.0154798 0.1185845 0.9845202 -0.1185845
452617 0.9831549 -0.1237978 0.0168451 0.1237978 0.0168451 0.1237978 0.9831549 -0.1237978
473344 0.9816701 -0.1292244 0.0183299 0.1292244 0.0183299 0.1292244 0.9816701 -0.1292244
495019 0.9800553 -0.1348707 0.0199447 0.1348707 0.0199447 0.1348707 0.9800553 -0.1348707
517687 0.9782996 -0.1407432 0.0217004 0.1407432 0.0217004 0.1407432 0.9782996 -0.1407432
541393 0.9763908 -0.1468482 0.0236092 0.1468482 0.0236092 0.1468482 0.9763908 -0.1468482
566185 0.9743161 -0.1531915 0.0256839 0.1531915 0.0256839 0.1531915 0.9743161 -0.1531915
592111 0.9720616 -0.1597787 0.0279384 0.1597787 0.0279384 0.1597787 0.9720616 -0.1597787
619225 0.9696124 -0.1666151 0.0303876 0.1666151 0.0303876 0.1666151 0.9696124 -0.1666151
647581 0.9669525 -0.1737051 0.0330475 0.1737051 0.0330475 0.1737051 0.9669525 -0.1737051
677235 0.9640649 -0.1810528 0.0359351 0.1810528 0.0359351 0.1810528 0.9640649 -0.1810528
708247 0.9609313 -0.1886613 0.0390687 0.1886613 0.0390687 0.1886613 0.9609313 -0.1886613
740679 0.9575325 -0.1965328 0.0424675 0.1965328 0.0424675 0.1965328 0.9575325 -0.1965328
774597 0.9538479 -0.2046685 0.0461521 0.2046685 0.0461521 0.2046685 0.9538479 -0.2046685
810067 0.9498560 -0.2130683 0.0501440 0.2130683 0.0501440 0.2130683 0.9498560 -0.2130683
847162 0.9455339 -0.2217307 0.0544661 0.2217307 0.0544661 0.2217307 0.9455339 -0.2217307
885955 0.9408578 -0.2306525 0.0591422 0.2306525 0.0591422 0.2306525 0.9408578 -0.2306525
926525 0.9358027 -0.2398288 0.0641973 0.2398288 0.0641973 0.2398288 0.9358027 -0.2398288
968953 0.9303427 -0.2492527 0.0696573 0.2492527 0.0696573 0.2492527 0.9303427 -0.2492527
1013323 0.9244511 -0.2589147 0.0755489 0.2589147 0.0755489 0.2589147 0.9244511 -0.2589147
1059725 0.9181004 -0.2688034 0.0818996 0.2688034 0.0818996 0.2688034 0.9181004 -0.2688034
1108252 0.9112626 -0.2789040 0.0887374 0.2789040 0.0887374 0.2789040 0.9112626 -0.2789040
1159002 0.9039092 -0.2891993 0.0960908 0.2891993 0.0960908 0.2891993 0.9039092 -0.2891993
1212075 0.8960119 -0.2996687 0.1039881 0.2996687 0.1039881 0.2996687 0.8960119 -0.2996687
1267578 0.8875425 -0.3102880 0.1124575 0.3102880 0.1124575 0.3102880 0.8875425 -0.3102880
1325623 0.8784732 -0.3210299 0.1215268 0.3210299 0.1215268 0.3210299 0.8784732 -0.3210299
1386327 0.8687776 -0.3318628 0.1312224 0.3318628 0.1312224 0.3318628 0.8687776 -0.3318628
1449809 0.8584303 -0.3427515 0.1415697 0.3427515 0.1415697 0.3427515 0.8584303 -0.3427515
1516199 0.8474082 -0.3536570 0.1525918 0.3536570 0.1525918 0.3536570 0.8474082 -0.3536570
1585629 0.8356904 -0.3645360 0.1643096 0.3645360 0.1643096 0.3645360 0.8356904 -0.3645360
1658239 0.8232592 -0.3753416 0.1767408 0.3753416 0.1767408 0.3753416 0.8232592 -0.3753416
1734173 0.8101004 -0.3860228 0.1898996 0.3860228 0.1898996 0.3860228 0.8101004 -0.3860228
1813585 0.7962044 -0.3965253 0.2037956 0.3965253 0.2037956 0.3965253 0.7962044 -0.3965253
1896632 0.7815661 -0.4067916 0.2184339 0.4067916 0.2184339 0.4067916 0.7815661 -0.4067916
1983483 0.7661862 -0.4167614 0.2338138 0.4167614 0.2338138 0.4167614 0.7661862 -0.4167614
2074311 0.7500714 -0.4263722 0.2499286 0.4263722 0.2499286 0.4263722 0.7500714 -0.4263722
