!Murata Part Number: GRM022R60G223KE15
!These Parameters are Measured in Series Mode Connection
!Data Generated on Mar 30, 2021
!       o--ll--o
!Port1            Port2
!       o------o
!Operation Temp=25[degC], DC Bias Voltage=0[V]
!Freq. Start=100[Hz] Stop=6[GHz] 401[Steps]
# Hz S RI R 50
!Freq.(Hz) S11(Real) S11(Imag) S21(Real) S21(Imag) S12(Real) S12(Imag) S22(Real) S22(Imag)
100 0.9999851 -0.0012815 0.0000149 0.0012815 0.0000149 0.0012815 0.9999851 -0.0012815
105 0.9999844 -0.0013397 0.0000156 0.0013397 0.0000156 0.0013397 0.9999844 -0.0013397
109 0.9999837 -0.0014007 0.0000163 0.0014007 0.0000163 0.0014007 0.9999837 -0.0014007
114 0.9999829 -0.0014644 0.0000171 0.0014644 0.0000171 0.0014644 0.9999829 -0.0014644
120 0.9999821 -0.0015310 0.0000179 0.0015310 0.0000179 0.0015310 0.9999821 -0.0015310
125 0.9999813 -0.0016007 0.0000187 0.0016007 0.0000187 0.0016007 0.9999813 -0.0016007
131 0.9999803 -0.0016735 0.0000197 0.0016735 0.0000197 0.0016735 0.9999803 -0.0016735
137 0.9999794 -0.0017497 0.0000206 0.0017497 0.0000206 0.0017497 0.9999794 -0.0017497
143 0.9999783 -0.0018293 0.0000217 0.0018293 0.0000217 0.0018293 0.9999783 -0.0018293
150 0.9999773 -0.0019126 0.0000227 0.0019126 0.0000227 0.0019126 0.9999773 -0.0019126
156 0.9999761 -0.0019996 0.0000239 0.0019996 0.0000239 0.0019996 0.9999761 -0.0019996
164 0.9999749 -0.0020906 0.0000251 0.0020906 0.0000251 0.0020906 0.9999749 -0.0020906
171 0.9999735 -0.0021857 0.0000265 0.0021857 0.0000265 0.0021857 0.9999735 -0.0021857
179 0.9999721 -0.0022852 0.0000279 0.0022852 0.0000279 0.0022852 0.9999721 -0.0022852
187 0.9999707 -0.0023892 0.0000293 0.0023892 0.0000293 0.0023892 0.9999707 -0.0023892
196 0.9999691 -0.0024979 0.0000309 0.0024979 0.0000309 0.0024979 0.9999691 -0.0024979
205 0.9999674 -0.0026115 0.0000326 0.0026115 0.0000326 0.0026115 0.9999674 -0.0026115
214 0.9999656 -0.0027303 0.0000344 0.0027303 0.0000344 0.0027303 0.9999656 -0.0027303
224 0.9999637 -0.0028545 0.0000363 0.0028545 0.0000363 0.0028545 0.9999637 -0.0028545
234 0.9999617 -0.0029843 0.0000383 0.0029843 0.0000383 0.0029843 0.9999617 -0.0029843
245 0.9999596 -0.0031201 0.0000404 0.0031201 0.0000404 0.0031201 0.9999596 -0.0031201
256 0.9999574 -0.0032620 0.0000426 0.0032620 0.0000426 0.0032620 0.9999574 -0.0032620
268 0.9999550 -0.0034103 0.0000450 0.0034103 0.0000450 0.0034103 0.9999550 -0.0034103
280 0.9999525 -0.0035654 0.0000475 0.0035654 0.0000475 0.0035654 0.9999525 -0.0035654
293 0.9999498 -0.0037276 0.0000502 0.0037276 0.0000502 0.0037276 0.9999498 -0.0037276
306 0.9999470 -0.0038971 0.0000530 0.0038971 0.0000530 0.0038971 0.9999470 -0.0038971
320 0.9999440 -0.0040744 0.0000560 0.0040744 0.0000560 0.0040744 0.9999440 -0.0040744
335 0.9999408 -0.0042597 0.0000592 0.0042597 0.0000592 0.0042597 0.9999408 -0.0042597
350 0.9999374 -0.0044534 0.0000626 0.0044534 0.0000626 0.0044534 0.9999374 -0.0044534
366 0.9999338 -0.0046560 0.0000662 0.0046560 0.0000662 0.0046560 0.9999338 -0.0046560
383 0.9999300 -0.0048678 0.0000700 0.0048678 0.0000700 0.0048678 0.9999300 -0.0048678
401 0.9999260 -0.0050892 0.0000740 0.0050892 0.0000740 0.0050892 0.9999260 -0.0050892
419 0.9999217 -0.0053208 0.0000783 0.0053208 0.0000783 0.0053208 0.9999217 -0.0053208
438 0.9999171 -0.0055629 0.0000829 0.0055629 0.0000829 0.0055629 0.9999171 -0.0055629
458 0.9999121 -0.0058161 0.0000879 0.0058161 0.0000879 0.0058161 0.9999121 -0.0058161
479 0.9999069 -0.0060808 0.0000931 0.0060808 0.0000931 0.0060808 0.9999069 -0.0060808
501 0.9999012 -0.0063575 0.0000988 0.0063575 0.0000988 0.0063575 0.9999012 -0.0063575
524 0.9998952 -0.0066470 0.0001048 0.0066470 0.0001048 0.0066470 0.9998952 -0.0066470
548 0.9998887 -0.0069496 0.0001113 0.0069496 0.0001113 0.0069496 0.9998887 -0.0069496
573 0.9998817 -0.0072660 0.0001183 0.0072660 0.0001183 0.0072660 0.9998817 -0.0072660
600 0.9998741 -0.0075969 0.0001259 0.0075969 0.0001259 0.0075969 0.9998741 -0.0075969
627 0.9998660 -0.0079428 0.0001340 0.0079428 0.0001340 0.0079428 0.9998660 -0.0079428
656 0.9998572 -0.0083046 0.0001428 0.0083046 0.0001428 0.0083046 0.9998572 -0.0083046
686 0.9998477 -0.0086828 0.0001523 0.0086828 0.0001523 0.0086828 0.9998477 -0.0086828
717 0.9998375 -0.0090783 0.0001625 0.0090783 0.0001625 0.0090783 0.9998375 -0.0090783
750 0.9998264 -0.0094918 0.0001736 0.0094918 0.0001736 0.0094918 0.9998264 -0.0094918
784 0.9998144 -0.0099242 0.0001856 0.0099242 0.0001856 0.0099242 0.9998144 -0.0099242
820 0.9998014 -0.0103762 0.0001986 0.0103762 0.0001986 0.0103762 0.9998014 -0.0103762
858 0.9997874 -0.0108488 0.0002126 0.0108488 0.0002126 0.0108488 0.9997874 -0.0108488
897 0.9997721 -0.0113430 0.0002279 0.0113430 0.0002279 0.0113430 0.9997721 -0.0113430
938 0.9997556 -0.0118596 0.0002444 0.0118596 0.0002444 0.0118596 0.9997556 -0.0118596
981 0.9997377 -0.0123997 0.0002623 0.0123997 0.0002623 0.0123997 0.9997377 -0.0123997
1026 0.9997183 -0.0129643 0.0002817 0.0129643 0.0002817 0.0129643 0.9997183 -0.0129643
1073 0.9996972 -0.0135545 0.0003028 0.0135545 0.0003028 0.0135545 0.9996972 -0.0135545
1122 0.9996744 -0.0141716 0.0003256 0.0141716 0.0003256 0.0141716 0.9996744 -0.0141716
1174 0.9996497 -0.0148167 0.0003503 0.0148167 0.0003503 0.0148167 0.9996497 -0.0148167
1227 0.9996229 -0.0154910 0.0003771 0.0154910 0.0003771 0.0154910 0.9996229 -0.0154910
1283 0.9995938 -0.0161958 0.0004062 0.0161958 0.0004062 0.0161958 0.9995938 -0.0161958
1342 0.9995623 -0.0169327 0.0004377 0.0169327 0.0004377 0.0169327 0.9995623 -0.0169327
1404 0.9995282 -0.0177028 0.0004718 0.0177028 0.0004718 0.0177028 0.9995282 -0.0177028
1468 0.9994913 -0.0185079 0.0005087 0.0185079 0.0005087 0.0185079 0.9994913 -0.0185079
1535 0.9994513 -0.0193494 0.0005487 0.0193494 0.0005487 0.0193494 0.9994513 -0.0193494
1606 0.9994079 -0.0202290 0.0005921 0.0202290 0.0005921 0.0202290 0.9994079 -0.0202290
1679 0.9993610 -0.0211483 0.0006390 0.0211483 0.0006390 0.0211483 0.9993610 -0.0211483
1756 0.9993102 -0.0221093 0.0006898 0.0221093 0.0006898 0.0221093 0.9993102 -0.0221093
1836 0.9992551 -0.0231137 0.0007449 0.0231137 0.0007449 0.0231137 0.9992551 -0.0231137
1920 0.9991955 -0.0241635 0.0008045 0.0241635 0.0008045 0.0241635 0.9991955 -0.0241635
2008 0.9991309 -0.0252609 0.0008691 0.0252609 0.0008691 0.0252609 0.9991309 -0.0252609
2100 0.9990609 -0.0264078 0.0009391 0.0264078 0.0009391 0.0264078 0.9990609 -0.0264078
2196 0.9989851 -0.0276066 0.0010149 0.0276066 0.0010149 0.0276066 0.9989851 -0.0276066
2297 0.9989030 -0.0288595 0.0010970 0.0288595 0.0010970 0.0288595 0.9989030 -0.0288595
2402 0.9988139 -0.0301692 0.0011861 0.0301692 0.0011861 0.0301692 0.9988139 -0.0301692
2512 0.9987174 -0.0315380 0.0012826 0.0315380 0.0012826 0.0315380 0.9987174 -0.0315380
2627 0.9986126 -0.0329688 0.0013874 0.0329688 0.0013874 0.0329688 0.9986126 -0.0329688
2748 0.9984990 -0.0344642 0.0015010 0.0344642 0.0015010 0.0344642 0.9984990 -0.0344642
2873 0.9983756 -0.0360272 0.0016244 0.0360272 0.0016244 0.0360272 0.9983756 -0.0360272
3005 0.9982416 -0.0376608 0.0017584 0.0376608 0.0017584 0.0376608 0.9982416 -0.0376608
3143 0.9980961 -0.0393682 0.0019039 0.0393682 0.0019039 0.0393682 0.9980961 -0.0393682
3287 0.9979379 -0.0411526 0.0020621 0.0411526 0.0020621 0.0411526 0.9979379 -0.0411526
3437 0.9977659 -0.0430176 0.0022341 0.0430176 0.0022341 0.0430176 0.9977659 -0.0430176
3594 0.9975788 -0.0449667 0.0024212 0.0449667 0.0024212 0.0449667 0.9975788 -0.0449667
3759 0.9973753 -0.0470036 0.0026247 0.0470036 0.0026247 0.0470036 0.9973753 -0.0470036
3931 0.9971537 -0.0491321 0.0028463 0.0491321 0.0028463 0.0491321 0.9971537 -0.0491321
4111 0.9969125 -0.0513563 0.0030875 0.0513563 0.0030875 0.0513563 0.9969125 -0.0513563
4299 0.9966498 -0.0536804 0.0033502 0.0536804 0.0033502 0.0536804 0.9966498 -0.0536804
4496 0.9963636 -0.0561086 0.0036364 0.0561086 0.0036364 0.0561086 0.9963636 -0.0561086
4702 0.9960517 -0.0586454 0.0039483 0.0586454 0.0039483 0.0586454 0.9960517 -0.0586454
4918 0.9957118 -0.0612955 0.0042882 0.0612955 0.0042882 0.0612955 0.9957118 -0.0612955
5143 0.9953413 -0.0640637 0.0046587 0.0640637 0.0046587 0.0640637 0.9953413 -0.0640637
5378 0.9949373 -0.0669548 0.0050627 0.0669548 0.0050627 0.0669548 0.9949373 -0.0669548
5625 0.9944968 -0.0699741 0.0055032 0.0699741 0.0055032 0.0699741 0.9944968 -0.0699741
5882 0.9940166 -0.0731267 0.0059834 0.0731267 0.0059834 0.0731267 0.9940166 -0.0731267
6151 0.9934928 -0.0764182 0.0065072 0.0764182 0.0065072 0.0764182 0.9934928 -0.0764182
6433 0.9929217 -0.0798540 0.0070783 0.0798540 0.0070783 0.0798540 0.9929217 -0.0798540
6728 0.9922990 -0.0834400 0.0077010 0.0834400 0.0077010 0.0834400 0.9922990 -0.0834400
7036 0.9916199 -0.0871820 0.0083801 0.0871820 0.0083801 0.0871820 0.9916199 -0.0871820
7358 0.9908796 -0.0910860 0.0091204 0.0910860 0.0091204 0.0910860 0.9908796 -0.0910860
7695 0.9900724 -0.0951581 0.0099276 0.0951581 0.0099276 0.0951581 0.9900724 -0.0951581
8047 0.9891925 -0.0994046 0.0108075 0.0994046 0.0108075 0.0994046 0.9891925 -0.0994046
8416 0.9882335 -0.1038318 0.0117665 0.1038318 0.0117665 0.1038318 0.9882335 -0.1038318
8801 0.9871885 -0.1084461 0.0128115 0.1084461 0.0128115 0.1084461 0.9871885 -0.1084461
9204 0.9860500 -0.1132540 0.0139500 0.1132540 0.0139500 0.1132540 0.9860500 -0.1132540
9626 0.9848098 -0.1182620 0.0151902 0.1182620 0.0151902 0.1182620 0.9848098 -0.1182620
10066 0.9834592 -0.1234767 0.0165408 0.1234767 0.0165408 0.1234767 0.9834592 -0.1234767
10527 0.9819887 -0.1289043 0.0180113 0.1289043 0.0180113 0.1289043 0.9819887 -0.1289043
11009 0.9803883 -0.1345514 0.0196117 0.1345514 0.0196117 0.1345514 0.9803883 -0.1345514
11514 0.9786469 -0.1404242 0.0213531 0.1404242 0.0213531 0.1404242 0.9786469 -0.1404242
12041 0.9767527 -0.1465288 0.0232473 0.1465288 0.0232473 0.1465288 0.9767527 -0.1465288
12592 0.9746931 -0.1528710 0.0253069 0.1528710 0.0253069 0.1528710 0.9746931 -0.1528710
13169 0.9724545 -0.1594563 0.0275455 0.1594563 0.0275455 0.1594563 0.9724545 -0.1594563
13772 0.9700222 -0.1662898 0.0299778 0.1662898 0.0299778 0.1662898 0.9700222 -0.1662898
14402 0.9673808 -0.1733762 0.0326192 0.1733762 0.0326192 0.1733762 0.9673808 -0.1733762
15062 0.9645135 -0.1807194 0.0354865 0.1807194 0.0354865 0.1807194 0.9645135 -0.1807194
15752 0.9614025 -0.1883229 0.0385975 0.1883229 0.0385975 0.1883229 0.9614025 -0.1883229
16473 0.9580290 -0.1961890 0.0419710 0.1961890 0.0419710 0.1961890 0.9580290 -0.1961890
17227 0.9543730 -0.2043193 0.0456270 0.2043193 0.0456270 0.2043193 0.9543730 -0.2043193
18016 0.9504131 -0.2127140 0.0495869 0.2127140 0.0495869 0.2127140 0.9504131 -0.2127140
18841 0.9461269 -0.2213722 0.0538731 0.2213722 0.0538731 0.2213722 0.9461269 -0.2213722
19704 0.9414910 -0.2302913 0.0585090 0.2302913 0.0585090 0.2302913 0.9414910 -0.2302913
20606 0.9364806 -0.2394671 0.0635194 0.2394671 0.0635194 0.2394671 0.9364806 -0.2394671
21550 0.9310700 -0.2488933 0.0689300 0.2488933 0.0689300 0.2488933 0.9310700 -0.2488933
22537 0.9252324 -0.2585615 0.0747676 0.2585615 0.0747676 0.2585615 0.9252324 -0.2585615
23569 0.9189404 -0.2684609 0.0810596 0.2684609 0.0810596 0.2684609 0.9189404 -0.2684609
24648 0.9121657 -0.2785780 0.0878343 0.2785780 0.0878343 0.2785780 0.9121657 -0.2785780
25777 0.9048796 -0.2888963 0.0951204 0.2888963 0.0951204 0.2888963 0.9048796 -0.2888963
26957 0.8970531 -0.2993961 0.1029469 0.2993961 0.1029469 0.2993961 0.8970531 -0.2993961
28191 0.8886574 -0.3100544 0.1113426 0.3100544 0.1113426 0.3100544 0.8886574 -0.3100544
29482 0.8796641 -0.3208445 0.1203359 0.3208445 0.1203359 0.3208445 0.8796641 -0.3208445
30832 0.8700454 -0.3317357 0.1299546 0.3317357 0.1299546 0.3317357 0.8700454 -0.3317357
32244 0.8597751 -0.3426935 0.1402249 0.3426935 0.1402249 0.3426935 0.8597751 -0.3426935
33721 0.8488286 -0.3536792 0.1511714 0.3536792 0.1511714 0.3536792 0.8488286 -0.3536792
35265 0.8371838 -0.3646501 0.1628162 0.3646501 0.1628162 0.3646501 0.8371838 -0.3646501
36880 0.8248213 -0.3755592 0.1751787 0.3755592 0.1751787 0.3755592 0.8248213 -0.3755592
38569 0.8117256 -0.3863557 0.1882744 0.3863557 0.1882744 0.3863557 0.8117256 -0.3863557
40335 0.7978853 -0.3969847 0.2021147 0.3969847 0.2021147 0.3969847 0.7978853 -0.3969847
42182 0.7832939 -0.4073883 0.2167061 0.4073883 0.2167061 0.4073883 0.7832939 -0.4073883
44113 0.7679507 -0.4175054 0.2320493 0.4175054 0.2320493 0.4175054 0.7679507 -0.4175054
46134 0.7518611 -0.4272724 0.2481389 0.4272724 0.2481389 0.4272724 0.7518611 -0.4272724
48246 0.7350371 -0.4366242 0.2649629 0.4366242 0.2649629 0.4366242 0.7350371 -0.4366242
50455 0.7174981 -0.4454947 0.2825019 0.4454947 0.2825019 0.4454947 0.7174981 -0.4454947
52766 0.6992711 -0.4538179 0.3007289 0.4538179 0.3007289 0.4538179 0.6992711 -0.4538179
55182 0.6803909 -0.4615288 0.3196091 0.4615288 0.3196091 0.4615288 0.6803909 -0.4615288
57709 0.6609002 -0.4685647 0.3390998 0.4685647 0.3390998 0.4685647 0.6609002 -0.4685647
60352 0.6408495 -0.4748661 0.3591505 0.4748661 0.3591505 0.4748661 0.6408495 -0.4748661
63115 0.6202968 -0.4803779 0.3797032 0.4803779 0.3797032 0.4803779 0.6202968 -0.4803779
66005 0.5993069 -0.4850508 0.4006931 0.4850508 0.4006931 0.4850508 0.5993069 -0.4850508
69028 0.5779509 -0.4888419 0.4220491 0.4888419 0.4220491 0.4888419 0.5779509 -0.4888419
72189 0.5563054 -0.4917160 0.4436946 0.4917160 0.4436946 0.4917160 0.5563054 -0.4917160
75495 0.5344512 -0.4936462 0.4655488 0.4936462 0.4655488 0.4936462 0.5344512 -0.4936462
78952 0.5124720 -0.4946146 0.4875280 0.4946146 0.4875280 0.4946146 0.5124720 -0.4946146
82567 0.4904538 -0.4946127 0.5095462 0.4946127 0.5095462 0.4946127 0.4904538 -0.4946127
86348 0.4684825 -0.4936413 0.5315175 0.4936413 0.5315175 0.4936413 0.4684825 -0.4936413
90302 0.4466435 -0.4917110 0.5533565 0.4917110 0.5533565 0.4917110 0.4466435 -0.4917110
94437 0.4250197 -0.4888416 0.5749803 0.4888416 0.5749803 0.4888416 0.4250197 -0.4888416
98762 0.4036909 -0.4850614 0.5963091 0.4850614 0.5963091 0.4850614 0.4036909 -0.4850614
103284 0.3827319 -0.4804070 0.6172681 0.4804070 0.6172681 0.4804070 0.3827319 -0.4804070
108014 0.3622122 -0.4749221 0.6377878 0.4749221 0.6377878 0.4749221 0.3622122 -0.4749221
112960 0.3421947 -0.4686565 0.6578053 0.4686565 0.6578053 0.4686565 0.3421947 -0.4686565
118133 0.3227355 -0.4616655 0.6772645 0.4616655 0.6772645 0.4616655 0.3227355 -0.4616655
123542 0.3038832 -0.4540080 0.6961168 0.4540080 0.6961168 0.4540080 0.3038832 -0.4540080
129199 0.2856787 -0.4457462 0.7143213 0.4457462 0.7143213 0.4457462 0.2856787 -0.4457462
135116 0.2681553 -0.4369439 0.7318447 0.4369439 0.7318447 0.4369439 0.2681553 -0.4369439
141303 0.2513386 -0.4276660 0.7486614 0.4276660 0.7486614 0.4276660 0.2513386 -0.4276660
147774 0.2352472 -0.4179769 0.7647528 0.4179769 0.7647528 0.4179769 0.2352472 -0.4179769
154540 0.2198926 -0.4079402 0.7801074 0.4079402 0.7801074 0.4079402 0.2198926 -0.4079402
161617 0.2052797 -0.3976177 0.7947203 0.3976177 0.7947203 0.3976177 0.2052797 -0.3976177
169018 0.1914078 -0.3870687 0.8085922 0.3870687 0.8085922 0.3870687 0.1914078 -0.3870687
176758 0.1782708 -0.3763498 0.8217292 0.3763498 0.8217292 0.3763498 0.1782708 -0.3763498
184852 0.1658580 -0.3655142 0.8341420 0.3655142 0.8341420 0.3655142 0.1658580 -0.3655142
193316 0.1541546 -0.3546114 0.8458454 0.3546114 0.8458454 0.3546114 0.1541546 -0.3546114
202169 0.1431426 -0.3436874 0.8568574 0.3436874 0.8568574 0.3436874 0.1431426 -0.3436874
211427 0.1328007 -0.3327841 0.8671993 0.3327841 0.8671993 0.3327841 0.1328007 -0.3327841
221108 0.1231058 -0.3219396 0.8768942 0.3219396 0.8768942 0.3219396 0.1231058 -0.3219396
231233 0.1140329 -0.3111881 0.8859671 0.3111881 0.8859671 0.3111881 0.1140329 -0.3111881
241822 0.1055555 -0.3005599 0.8944445 0.3005599 0.8944445 0.3005599 0.1055555 -0.3005599
252896 0.0976465 -0.2900821 0.9023535 0.2900821 0.9023535 0.2900821 0.0976465 -0.2900821
264476 0.0902781 -0.2797778 0.9097219 0.2797778 0.9097219 0.2797778 0.0902781 -0.2797778
276587 0.0834224 -0.2696673 0.9165776 0.2696673 0.9165776 0.2696673 0.0834224 -0.2696673
289253 0.0770516 -0.2597675 0.9229484 0.2597675 0.9229484 0.2597675 0.0770516 -0.2597675
302498 0.0711382 -0.2500926 0.9288618 0.2500926 0.9288618 0.2500926 0.0711382 -0.2500926
316350 0.0656554 -0.2406542 0.9343446 0.2406542 0.9343446 0.2406542 0.0656554 -0.2406542
330837 0.0605767 -0.2314616 0.9394233 0.2314616 0.9394233 0.2314616 0.0605767 -0.2314616
345986 0.0558770 -0.2225216 0.9441230 0.2225216 0.9441230 0.2225216 0.0558770 -0.2225216
361830 0.0515315 -0.2138393 0.9484685 0.2138393 0.9484685 0.2138393 0.0515315 -0.2138393
378399 0.0475169 -0.2054181 0.9524831 0.2054181 0.9524831 0.2054181 0.0475169 -0.2054181
395726 0.0438106 -0.1972596 0.9561894 0.1972596 0.9561894 0.1972596 0.0438106 -0.1972596
413847 0.0403914 -0.1893641 0.9596086 0.1893641 0.9596086 0.1893641 0.0403914 -0.1893641
432798 0.0372390 -0.1817308 0.9627610 0.1817308 0.9627610 0.1817308 0.0372390 -0.1817308
452617 0.0343342 -0.1743576 0.9656658 0.1743576 0.9656658 0.1743576 0.0343342 -0.1743576
473344 0.0316589 -0.1672417 0.9683411 0.1672417 0.9683411 0.1672417 0.0316589 -0.1672417
495019 0.0291961 -0.1603795 0.9708039 0.1603795 0.9708039 0.1603795 0.0291961 -0.1603795
517687 0.0269300 -0.1537665 0.9730700 0.1537665 0.9730700 0.1537665 0.0269300 -0.1537665
541393 0.0248455 -0.1473979 0.9751545 0.1473979 0.9751545 0.1473979 0.0248455 -0.1473979
566185 0.0229287 -0.1412684 0.9770713 0.1412684 0.9770713 0.1412684 0.0229287 -0.1412684
592111 0.0211666 -0.1353721 0.9788334 0.1353721 0.9788334 0.1353721 0.0211666 -0.1353721
619225 0.0195470 -0.1297032 0.9804530 0.1297032 0.9804530 0.1297032 0.0195470 -0.1297032
647581 0.0180587 -0.1242554 0.9819413 0.1242554 0.9819413 0.1242554 0.0180587 -0.1242554
677235 0.0166913 -0.1190221 0.9833087 0.1190221 0.9833087 0.1190221 0.0166913 -0.1190221
708247 0.0154349 -0.1139970 0.9845651 0.1139970 0.9845651 0.1139970 0.0154349 -0.1139970
740679 0.0142807 -0.1091735 0.9857193 0.1091735 0.9857193 0.1091735 0.0142807 -0.1091735
774597 0.0132203 -0.1045448 0.9867797 0.1045448 0.9867797 0.1045448 0.0132203 -0.1045448
810067 0.0122460 -0.1001045 0.9877540 0.1001045 0.9877540 0.1001045 0.0122460 -0.1001045
847162 0.0113508 -0.0958460 0.9886492 0.0958460 0.9886492 0.0958460 0.0113508 -0.0958460
885955 0.0105281 -0.0917628 0.9894719 0.0917628 0.9894719 0.0917628 0.0105281 -0.0917628
926525 0.0097719 -0.0878485 0.9902281 0.0878485 0.9902281 0.0878485 0.0097719 -0.0878485
968953 0.0090766 -0.0840968 0.9909234 0.0840968 0.9909234 0.0840968 0.0090766 -0.0840968
1013323 0.0084373 -0.0805016 0.9915627 0.0805016 0.9915627 0.0805016 0.0084373 -0.0805016
1059725 0.0078491 -0.0770568 0.9921509 0.0770568 0.9921509 0.0770568 0.0078491 -0.0770568
1108252 0.0073079 -0.0737565 0.9926921 0.0737565 0.9926921 0.0737565 0.0073079 -0.0737565
1159002 0.0068098 -0.0705951 0.9931902 0.0705951 0.9931902 0.0705951 0.0068098 -0.0705951
1212075 0.0063510 -0.0675670 0.9936490 0.0675670 0.9936490 0.0675670 0.0063510 -0.0675670
1267578 0.0059285 -0.0646668 0.9940715 0.0646668 0.9940715 0.0646668 0.0059285 -0.0646668
1325623 0.0055391 -0.0618892 0.9944609 0.0618892 0.9944609 0.0618892 0.0055391 -0.0618892
1386327 0.0051801 -0.0592293 0.9948199 0.0592293 0.9948199 0.0592293 0.0051801 -0.0592293
1449809 0.0048491 -0.0566821 0.9951509 0.0566821 0.9951509 0.0566821 0.0048491 -0.0566821
1516199 0.0045437 -0.0542431 0.9954563 0.0542431 0.9954563 0.0542431 0.0045437 -0.0542431
1585629 0.0042619 -0.0519076 0.9957381 0.0519076 0.9957381 0.0519076 0.0042619 -0.0519076
1658239 0.0040017 -0.0496713 0.9959983 0.0496713 0.9959983 0.0496713 0.0040017 -0.0496713
1734173 0.0037616 -0.0475301 0.9962384 0.0475301 0.9962384 0.0475301 0.0037616 -0.0475301
1813585 0.0035398 -0.0454799 0.9964602 0.0454799 0.9964602 0.0454799 0.0035398 -0.0454799
1896632 0.0033349 -0.0435169 0.9966651 0.0435169 0.9966651 0.0435169 0.0033349 -0.0435169
1983483 0.0031457 -0.0416375 0.9968543 0.0416375 0.9968543 0.0416375 0.0031457 -0.0416375
2074311 0.0029710 -0.0398380 0.9970290 0.0398380 0.9970290 0.0398380 0.0029710 -0.0398380
