!Murata Part Number: GRM022D80E104ME15
!These Parameters are Measured in Series Mode Connection
!Data Generated on Mar 30, 2021
!       o--ll--o
!Port1            Port2
!       o------o
!Operation Temp=25[degC], DC Bias Voltage=0[V]
!Freq. Start=100[Hz] Stop=6[GHz] 401[Steps]
# Hz S RI R 50
!Freq.(Hz) S11(Real) S11(Imag) S21(Real) S21(Imag) S12(Real) S12(Imag) S22(Real) S22(Imag)
100 0.9999073 -0.0055981 0.0000927 0.0055981 0.0000927 0.0055981 0.9999073 -0.0055981
105 0.9999017 -0.0058525 0.0000983 0.0058525 0.0000983 0.0058525 0.9999017 -0.0058525
109 0.9998957 -0.0061185 0.0001043 0.0061185 0.0001043 0.0061185 0.9998957 -0.0061185
114 0.9998893 -0.0063966 0.0001107 0.0063966 0.0001107 0.0063966 0.9998893 -0.0063966
120 0.9998824 -0.0066873 0.0001176 0.0066873 0.0001176 0.0066873 0.9998824 -0.0066873
125 0.9998749 -0.0069913 0.0001251 0.0069913 0.0001251 0.0069913 0.9998749 -0.0069913
131 0.9998670 -0.0073090 0.0001330 0.0073090 0.0001330 0.0073090 0.9998670 -0.0073090
137 0.9998584 -0.0076412 0.0001416 0.0076412 0.0001416 0.0076412 0.9998584 -0.0076412
143 0.9998492 -0.0079884 0.0001508 0.0079884 0.0001508 0.0079884 0.9998492 -0.0079884
150 0.9998394 -0.0083513 0.0001606 0.0083513 0.0001606 0.0083513 0.9998394 -0.0083513
156 0.9998288 -0.0087308 0.0001712 0.0087308 0.0001712 0.0087308 0.9998288 -0.0087308
164 0.9998174 -0.0091274 0.0001826 0.0091274 0.0001826 0.0091274 0.9998174 -0.0091274
171 0.9998052 -0.0095420 0.0001948 0.0095420 0.0001948 0.0095420 0.9998052 -0.0095420
179 0.9997921 -0.0099754 0.0002079 0.0099754 0.0002079 0.0099754 0.9997921 -0.0099754
187 0.9997781 -0.0104285 0.0002219 0.0104285 0.0002219 0.0104285 0.9997781 -0.0104285
196 0.9997630 -0.0109020 0.0002370 0.0109020 0.0002370 0.0109020 0.9997630 -0.0109020
205 0.9997468 -0.0113971 0.0002532 0.0113971 0.0002532 0.0113971 0.9997468 -0.0113971
214 0.9997294 -0.0119146 0.0002706 0.0119146 0.0002706 0.0119146 0.9997294 -0.0119146
224 0.9997108 -0.0124555 0.0002892 0.0124555 0.0002892 0.0124555 0.9997108 -0.0124555
234 0.9996908 -0.0130210 0.0003092 0.0130210 0.0003092 0.0130210 0.9996908 -0.0130210
245 0.9996693 -0.0136122 0.0003307 0.0136122 0.0003307 0.0136122 0.9996693 -0.0136122
256 0.9996462 -0.0142302 0.0003538 0.0142302 0.0003538 0.0142302 0.9996462 -0.0142302
268 0.9996213 -0.0148762 0.0003787 0.0148762 0.0003787 0.0148762 0.9996213 -0.0148762
280 0.9995946 -0.0155516 0.0004054 0.0155516 0.0004054 0.0155516 0.9995946 -0.0155516
293 0.9995658 -0.0162577 0.0004342 0.0162577 0.0004342 0.0162577 0.9995658 -0.0162577
306 0.9995348 -0.0169959 0.0004652 0.0169959 0.0004652 0.0169959 0.9995348 -0.0169959
320 0.9995014 -0.0177677 0.0004986 0.0177677 0.0004986 0.0177677 0.9995014 -0.0177677
335 0.9994654 -0.0185746 0.0005346 0.0185746 0.0005346 0.0185746 0.9994654 -0.0185746
350 0.9994265 -0.0194182 0.0005735 0.0194182 0.0005735 0.0194182 0.9994265 -0.0194182
366 0.9993844 -0.0203001 0.0006156 0.0203001 0.0006156 0.0203001 0.9993844 -0.0203001
383 0.9993389 -0.0212223 0.0006611 0.0212223 0.0006611 0.0212223 0.9993389 -0.0212223
401 0.9992896 -0.0221864 0.0007104 0.0221864 0.0007104 0.0221864 0.9992896 -0.0221864
419 0.9992362 -0.0231944 0.0007638 0.0231944 0.0007638 0.0231944 0.9992362 -0.0231944
438 0.9991784 -0.0242483 0.0008216 0.0242483 0.0008216 0.0242483 0.9991784 -0.0242483
458 0.9991156 -0.0253502 0.0008844 0.0253502 0.0008844 0.0253502 0.9991156 -0.0253502
479 0.9990474 -0.0265022 0.0009526 0.0265022 0.0009526 0.0265022 0.9990474 -0.0265022
501 0.9989733 -0.0277066 0.0010267 0.0277066 0.0010267 0.0277066 0.9989733 -0.0277066
524 0.9988928 -0.0289657 0.0011072 0.0289657 0.0011072 0.0289657 0.9988928 -0.0289657
548 0.9988052 -0.0302821 0.0011948 0.0302821 0.0011948 0.0302821 0.9988052 -0.0302821
573 0.9987098 -0.0316582 0.0012902 0.0316582 0.0012902 0.0316582 0.9987098 -0.0316582
600 0.9986061 -0.0330968 0.0013939 0.0330968 0.0013939 0.0330968 0.9986061 -0.0330968
627 0.9984931 -0.0346006 0.0015069 0.0346006 0.0015069 0.0346006 0.9984931 -0.0346006
656 0.9983700 -0.0361726 0.0016300 0.0361726 0.0016300 0.0361726 0.9983700 -0.0361726
686 0.9982358 -0.0378156 0.0017642 0.0378156 0.0017642 0.0378156 0.9982358 -0.0378156
717 0.9980897 -0.0395330 0.0019103 0.0395330 0.0019103 0.0395330 0.9980897 -0.0395330
750 0.9979303 -0.0413278 0.0020697 0.0413278 0.0020697 0.0413278 0.9979303 -0.0413278
784 0.9977566 -0.0432036 0.0022434 0.0432036 0.0022434 0.0432036 0.9977566 -0.0432036
820 0.9975673 -0.0451638 0.0024327 0.0451638 0.0024327 0.0451638 0.9975673 -0.0451638
858 0.9973608 -0.0472121 0.0026392 0.0472121 0.0026392 0.0472121 0.9973608 -0.0472121
897 0.9971357 -0.0493523 0.0028643 0.0493523 0.0028643 0.0493523 0.9971357 -0.0493523
938 0.9968903 -0.0515883 0.0031097 0.0515883 0.0031097 0.0515883 0.9968903 -0.0515883
981 0.9966227 -0.0539243 0.0033773 0.0539243 0.0033773 0.0539243 0.9966227 -0.0539243
1026 0.9963310 -0.0563645 0.0036690 0.0563645 0.0036690 0.0563645 0.9963310 -0.0563645
1073 0.9960130 -0.0589133 0.0039870 0.0589133 0.0039870 0.0589133 0.9960130 -0.0589133
1122 0.9956664 -0.0615753 0.0043336 0.0615753 0.0043336 0.0615753 0.9956664 -0.0615753
1174 0.9952885 -0.0643552 0.0047115 0.0643552 0.0047115 0.0643552 0.9952885 -0.0643552
1227 0.9948767 -0.0672578 0.0051233 0.0672578 0.0051233 0.0672578 0.9948767 -0.0672578
1283 0.9944280 -0.0702883 0.0055720 0.0702883 0.0055720 0.0702883 0.9944280 -0.0702883
1342 0.9939391 -0.0734519 0.0060609 0.0734519 0.0060609 0.0734519 0.9939391 -0.0734519
1404 0.9934064 -0.0767540 0.0065936 0.0767540 0.0065936 0.0767540 0.9934064 -0.0767540
1468 0.9928262 -0.0802001 0.0071738 0.0802001 0.0071738 0.0802001 0.9928262 -0.0802001
1535 0.9921942 -0.0837959 0.0078058 0.0837959 0.0078058 0.0837959 0.9921942 -0.0837959
1606 0.9915060 -0.0875473 0.0084940 0.0875473 0.0084940 0.0875473 0.9915060 -0.0875473
1679 0.9907565 -0.0914604 0.0092435 0.0914604 0.0092435 0.0914604 0.9907565 -0.0914604
1756 0.9899406 -0.0955413 0.0100594 0.0955413 0.0100594 0.0955413 0.9899406 -0.0955413
1836 0.9890524 -0.0997964 0.0109476 0.0997964 0.0109476 0.0997964 0.9890524 -0.0997964
1920 0.9880856 -0.1042321 0.0119144 0.1042321 0.0119144 0.1042321 0.9880856 -0.1042321
2008 0.9870334 -0.1088549 0.0129666 0.1088549 0.0129666 0.1088549 0.9870334 -0.1088549
2100 0.9858884 -0.1136714 0.0141116 0.1136714 0.0141116 0.1136714 0.9858884 -0.1136714
2196 0.9846426 -0.1186883 0.0153574 0.1186883 0.0153574 0.1186883 0.9846426 -0.1186883
2297 0.9832873 -0.1239124 0.0167127 0.1239124 0.0167127 0.1239124 0.9832873 -0.1239124
2402 0.9818131 -0.1293504 0.0181869 0.1293504 0.0181869 0.1293504 0.9818131 -0.1293504
2512 0.9802099 -0.1350088 0.0197901 0.1350088 0.0197901 0.1350088 0.9802099 -0.1350088
2627 0.9784665 -0.1408941 0.0215335 0.1408941 0.0215335 0.1408941 0.9784665 -0.1408941
2748 0.9765712 -0.1470128 0.0234288 0.1470128 0.0234288 0.1470128 0.9765712 -0.1470128
2873 0.9745112 -0.1533709 0.0254888 0.1533709 0.0254888 0.1533709 0.9745112 -0.1533709
3005 0.9722726 -0.1599743 0.0277274 0.1599743 0.0277274 0.1599743 0.9722726 -0.1599743
3143 0.9698406 -0.1668282 0.0301594 0.1668282 0.0301594 0.1668282 0.9698406 -0.1668282
3287 0.9671995 -0.1739377 0.0328005 0.1739377 0.0328005 0.1739377 0.9671995 -0.1739377
3437 0.9643321 -0.1813068 0.0356679 0.1813068 0.0356679 0.1813068 0.9643321 -0.1813068
3594 0.9612204 -0.1889391 0.0387796 0.1889391 0.0387796 0.1889391 0.9612204 -0.1889391
3759 0.9578450 -0.1968371 0.0421550 0.1968371 0.0421550 0.1968371 0.9578450 -0.1968371
3931 0.9541853 -0.2050025 0.0458147 0.2050025 0.0458147 0.2050025 0.9541853 -0.2050025
4111 0.9502198 -0.2134354 0.0497802 0.2134354 0.0497802 0.2134354 0.9502198 -0.2134354
4299 0.9459254 -0.2221349 0.0540746 0.2221349 0.0540746 0.2221349 0.9459254 -0.2221349
4496 0.9412780 -0.2310981 0.0587220 0.2310981 0.0587220 0.2310981 0.9412780 -0.2310981
4702 0.9362526 -0.2403207 0.0637474 0.2403207 0.0637474 0.2403207 0.9362526 -0.2403207
4918 0.9308228 -0.2497961 0.0691772 0.2497961 0.0691772 0.2497961 0.9308228 -0.2497961
5143 0.9249616 -0.2595153 0.0750384 0.2595153 0.0750384 0.2595153 0.9249616 -0.2595153
5378 0.9186409 -0.2694672 0.0813591 0.2694672 0.0813591 0.2694672 0.9186409 -0.2694672
5625 0.9118323 -0.2796377 0.0881677 0.2796377 0.0881677 0.2796377 0.9118323 -0.2796377
5882 0.9045067 -0.2900096 0.0954933 0.2900096 0.0954933 0.2900096 0.9045067 -0.2900096
6151 0.8966349 -0.3005627 0.1033651 0.3005627 0.1033651 0.3005627 0.8966349 -0.3005627
6433 0.8881882 -0.3112731 0.1118118 0.3112731 0.1118118 0.3112731 0.8881882 -0.3112731
6728 0.8791380 -0.3221135 0.1208620 0.3221135 0.1208620 0.3221135 0.8791380 -0.3221135
7036 0.8694567 -0.3330525 0.1305433 0.3330525 0.1305433 0.3330525 0.8694567 -0.3330525
7358 0.8591184 -0.3440548 0.1408816 0.3440548 0.1408816 0.3440548 0.8591184 -0.3440548
7695 0.8480988 -0.3550811 0.1519012 0.3550811 0.1519012 0.3550811 0.8480988 -0.3550811
8047 0.8363761 -0.3660880 0.1636239 0.3660880 0.1636239 0.3660880 0.8363761 -0.3660880
8416 0.8239316 -0.3770280 0.1760684 0.3770280 0.1760684 0.3770280 0.8239316 -0.3770280
8801 0.8107503 -0.3878497 0.1892497 0.3878497 0.1892497 0.3878497 0.8107503 -0.3878497
9204 0.7968215 -0.3984981 0.2031785 0.3984981 0.2031785 0.3984981 0.7968215 -0.3984981
9626 0.7821395 -0.4089148 0.2178605 0.4089148 0.2178605 0.4089148 0.7821395 -0.4089148
10066 0.7667041 -0.4190386 0.2332959 0.4190386 0.2332959 0.4190386 0.7667041 -0.4190386
10527 0.7505214 -0.4288060 0.2494786 0.4288060 0.2494786 0.4288060 0.7505214 -0.4288060
11009 0.7336042 -0.4381518 0.2663958 0.4381518 0.2663958 0.4381518 0.7336042 -0.4381518
11514 0.7159725 -0.4470102 0.2840275 0.4470102 0.2840275 0.4470102 0.7159725 -0.4470102
12041 0.6976538 -0.4553153 0.3023462 0.4553153 0.3023462 0.4553153 0.6976538 -0.4553153
12592 0.6786833 -0.4630026 0.3213167 0.4630026 0.3213167 0.4630026 0.6786833 -0.4630026
13169 0.6591040 -0.4700095 0.3408960 0.4700095 0.3408960 0.4700095 0.6591040 -0.4700095
13772 0.6389667 -0.4762768 0.3610333 0.4762768 0.3610333 0.4762768 0.6389667 -0.4762768
14402 0.6183295 -0.4817500 0.3816705 0.4817500 0.3816705 0.4817500 0.6183295 -0.4817500
15062 0.5972573 -0.4863796 0.4027427 0.4863796 0.4027427 0.4863796 0.5972573 -0.4863796
15752 0.5758213 -0.4901231 0.4241787 0.4901231 0.4241787 0.4901231 0.5758213 -0.4901231
16473 0.5540980 -0.4929453 0.4459020 0.4929453 0.4459020 0.4929453 0.5540980 -0.4929453
17227 0.5321683 -0.4948191 0.4678317 0.4948191 0.4678317 0.4948191 0.5321683 -0.4948191
18016 0.5101161 -0.4957266 0.4898839 0.4957266 0.4898839 0.4957266 0.5101161 -0.4957266
18841 0.4880275 -0.4956589 0.5119725 0.4956589 0.5119725 0.4956589 0.4880275 -0.4956589
19704 0.4659888 -0.4946169 0.5340112 0.4946169 0.5340112 0.4946169 0.4659888 -0.4946169
20606 0.4440857 -0.4926108 0.5559143 0.4926108 0.5559143 0.4926108 0.4440857 -0.4926108
21550 0.4224019 -0.4896600 0.5775981 0.4896600 0.5775981 0.4896600 0.4224019 -0.4896600
22537 0.4010177 -0.4857931 0.5989823 0.4857931 0.5989823 0.4857931 0.4010177 -0.4857931
23569 0.3800088 -0.4810465 0.6199912 0.4810465 0.6199912 0.4810465 0.3800088 -0.4810465
24648 0.3594456 -0.4754640 0.6405544 0.4754640 0.6405544 0.4754640 0.3594456 -0.4754640
25777 0.3393920 -0.4690961 0.6606080 0.4690961 0.6606080 0.4690961 0.3393920 -0.4690961
26957 0.3199049 -0.4619984 0.6800951 0.4619984 0.6800951 0.4619984 0.3199049 -0.4619984
28191 0.3010338 -0.4542308 0.6989662 0.4542308 0.6989662 0.4542308 0.3010338 -0.4542308
29482 0.2828203 -0.4458565 0.7171797 0.4458565 0.7171797 0.4458565 0.2828203 -0.4458565
30832 0.2652983 -0.4369404 0.7347017 0.4369404 0.7347017 0.4369404 0.2652983 -0.4369404
32244 0.2484939 -0.4275486 0.7515061 0.4275486 0.7515061 0.4275486 0.2484939 -0.4275486
33721 0.2324257 -0.4177471 0.7675743 0.4177471 0.7675743 0.4177471 0.2324257 -0.4177471
35265 0.2171049 -0.4076008 0.7828951 0.4076008 0.7828951 0.4076008 0.2171049 -0.4076008
36880 0.2025365 -0.3971729 0.7974635 0.3971729 0.7974635 0.3971729 0.2025365 -0.3971729
38569 0.1887188 -0.3865241 0.8112812 0.3865241 0.8112812 0.3865241 0.1887188 -0.3865241
40335 0.1756452 -0.3757123 0.8243548 0.3757123 0.8243548 0.3757123 0.1756452 -0.3757123
42182 0.1633038 -0.3647915 0.8366962 0.3647915 0.8366962 0.3647915 0.1633038 -0.3647915
44113 0.1516787 -0.3538125 0.8483213 0.3538125 0.8483213 0.3538125 0.1516787 -0.3538125
46134 0.1407504 -0.3428216 0.8592496 0.3428216 0.8592496 0.3428216 0.1407504 -0.3428216
48246 0.1304967 -0.3318613 0.8695033 0.3318613 0.8695033 0.3318613 0.1304967 -0.3318613
50455 0.1208927 -0.3209698 0.8791073 0.3209698 0.8791073 0.3209698 0.1208927 -0.3209698
52766 0.1119121 -0.3101815 0.8880879 0.3101815 0.8880879 0.3101815 0.1119121 -0.3101815
55182 0.1035272 -0.2995265 0.8964728 0.2995265 0.8964728 0.2995265 0.1035272 -0.2995265
57709 0.0957096 -0.2890313 0.9042904 0.2890313 0.9042904 0.2890313 0.0957096 -0.2890313
60352 0.0884304 -0.2787186 0.9115696 0.2787186 0.9115696 0.2787186 0.0884304 -0.2787186
63115 0.0816607 -0.2686078 0.9183393 0.2686078 0.9183393 0.2686078 0.0816607 -0.2686078
66005 0.0753719 -0.2587152 0.9246281 0.2587152 0.9246281 0.2587152 0.0753719 -0.2587152
69028 0.0695359 -0.2490540 0.9304641 0.2490540 0.9304641 0.2490540 0.0695359 -0.2490540
72189 0.0641252 -0.2396350 0.9358748 0.2396350 0.9358748 0.2396350 0.0641252 -0.2396350
75495 0.0591132 -0.2304663 0.9408868 0.2304663 0.9408868 0.2304663 0.0591132 -0.2304663
78952 0.0544743 -0.2215540 0.9455257 0.2215540 0.9455257 0.2215540 0.0544743 -0.2215540
82567 0.0501839 -0.2129022 0.9498161 0.2129022 0.9498161 0.2129022 0.0501839 -0.2129022
86348 0.0462186 -0.2045135 0.9537814 0.2045135 0.9537814 0.2045135 0.0462186 -0.2045135
90302 0.0425561 -0.1963886 0.9574439 0.1963886 0.9574439 0.1963886 0.0425561 -0.1963886
94437 0.0391754 -0.1885272 0.9608246 0.1885272 0.9608246 0.1885272 0.0391754 -0.1885272
98762 0.0360565 -0.1809277 0.9639435 0.1809277 0.9639435 0.1809277 0.0360565 -0.1809277
103284 0.0331805 -0.1735878 0.9668195 0.1735878 0.9668195 0.1735878 0.0331805 -0.1735878
108014 0.0305300 -0.1665039 0.9694700 0.1665039 0.9694700 0.1665039 0.0305300 -0.1665039
112960 0.0280884 -0.1596721 0.9719116 0.1596721 0.9719116 0.1596721 0.0280884 -0.1596721
118133 0.0258401 -0.1530878 0.9741599 0.1530878 0.9741599 0.1530878 0.0258401 -0.1530878
123542 0.0237707 -0.1467458 0.9762293 0.1467458 0.9762293 0.1467458 0.0237707 -0.1467458
129199 0.0218667 -0.1406407 0.9781333 0.1406407 0.9781333 0.1406407 0.0218667 -0.1406407
135116 0.0201156 -0.1347667 0.9798844 0.1347667 0.9798844 0.1347667 0.0201156 -0.1347667
141303 0.0185055 -0.1291177 0.9814945 0.1291177 0.9814945 0.1291177 0.0185055 -0.1291177
147774 0.0170257 -0.1236875 0.9829743 0.1236875 0.9829743 0.1236875 0.0170257 -0.1236875
154540 0.0156659 -0.1184699 0.9843341 0.1184699 0.9843341 0.1184699 0.0156659 -0.1184699
161617 0.0144169 -0.1134583 0.9855831 0.1134583 0.9855831 0.1134583 0.0144169 -0.1134583
169018 0.0132699 -0.1086464 0.9867301 0.1086464 0.9867301 0.1086464 0.0132699 -0.1086464
176758 0.0122168 -0.1040278 0.9877832 0.1040278 0.9877832 0.1040278 0.0122168 -0.1040278
184852 0.0112502 -0.0995959 0.9887498 0.0995959 0.9887498 0.0995959 0.0112502 -0.0995959
193316 0.0103632 -0.0953444 0.9896368 0.0953444 0.9896368 0.0953444 0.0103632 -0.0953444
202169 0.0095493 -0.0912671 0.9904507 0.0912671 0.9904507 0.0912671 0.0095493 -0.0912671
211427 0.0088027 -0.0873578 0.9911973 0.0873578 0.9911973 0.0873578 0.0088027 -0.0873578
221108 0.0081179 -0.0836104 0.9918821 0.0836104 0.9918821 0.0836104 0.0081179 -0.0836104
231233 0.0074899 -0.0800188 0.9925101 0.0800188 0.9925101 0.0800188 0.0074899 -0.0800188
241822 0.0069140 -0.0765774 0.9930860 0.0765774 0.9930860 0.0765774 0.0069140 -0.0765774
252896 0.0063859 -0.0732805 0.9936141 0.0732805 0.9936141 0.0732805 0.0063859 -0.0732805
264476 0.0059017 -0.0701224 0.9940983 0.0701224 0.9940983 0.0701224 0.0059017 -0.0701224
276587 0.0054577 -0.0670977 0.9945423 0.0670977 0.9945423 0.0670977 0.0054577 -0.0670977
289253 0.0050507 -0.0642014 0.9949493 0.0642014 0.9949493 0.0642014 0.0050507 -0.0642014
302498 0.0046774 -0.0614282 0.9953226 0.0614282 0.9953226 0.0614282 0.0046774 -0.0614282
316350 0.0043352 -0.0587733 0.9956648 0.0587733 0.9956648 0.0587733 0.0043352 -0.0587733
330837 0.0040213 -0.0562319 0.9959787 0.0562319 0.9959787 0.0562319 0.0040213 -0.0562319
345986 0.0037334 -0.0537993 0.9962666 0.0537993 0.9962666 0.0537993 0.0037334 -0.0537993
361830 0.0034692 -0.0514712 0.9965308 0.0514712 0.9965308 0.0514712 0.0034692 -0.0514712
378399 0.0032268 -0.0492433 0.9967732 0.0492433 0.9967732 0.0492433 0.0032268 -0.0492433
395726 0.0030043 -0.0471113 0.9969957 0.0471113 0.9969957 0.0471113 0.0030043 -0.0471113
413847 0.0027999 -0.0450714 0.9972001 0.0450714 0.9972001 0.0450714 0.0027999 -0.0450714
432798 0.0026121 -0.0431195 0.9973879 0.0431195 0.9973879 0.0431195 0.0026121 -0.0431195
452617 0.0024395 -0.0412522 0.9975605 0.0412522 0.9975605 0.0412522 0.0024395 -0.0412522
473344 0.0022808 -0.0394656 0.9977192 0.0394656 0.9977192 0.0394656 0.0022808 -0.0394656
495019 0.0021347 -0.0377566 0.9978653 0.0377566 0.9978653 0.0377566 0.0021347 -0.0377566
517687 0.0020002 -0.0361216 0.9979998 0.0361216 0.9979998 0.0361216 0.0020002 -0.0361216
541393 0.0018762 -0.0345576 0.9981238 0.0345576 0.9981238 0.0345576 0.0018762 -0.0345576
566185 0.0017618 -0.0330615 0.9982382 0.0330615 0.9982382 0.0330615 0.0017618 -0.0330615
592111 0.0016561 -0.0316303 0.9983439 0.0316303 0.9983439 0.0316303 0.0016561 -0.0316303
619225 0.0015585 -0.0302613 0.9984415 0.0302613 0.9984415 0.0302613 0.0015585 -0.0302613
647581 0.0014682 -0.0289517 0.9985318 0.0289517 0.9985318 0.0289517 0.0014682 -0.0289517
677235 0.0013845 -0.0276990 0.9986155 0.0276990 0.9986155 0.0276990 0.0013845 -0.0276990
708247 0.0013069 -0.0265006 0.9986931 0.0265006 0.9986931 0.0265006 0.0013069 -0.0265006
740679 0.0012349 -0.0253542 0.9987651 0.0253542 0.9987651 0.0253542 0.0012349 -0.0253542
774597 0.0011680 -0.0242575 0.9988320 0.0242575 0.9988320 0.0242575 0.0011680 -0.0242575
810067 0.0011058 -0.0232083 0.9988942 0.0232083 0.9988942 0.0232083 0.0011058 -0.0232083
847162 0.0010478 -0.0222046 0.9989522 0.0222046 0.9989522 0.0222046 0.0010478 -0.0222046
885955 0.0009938 -0.0212442 0.9990062 0.0212442 0.9990062 0.0212442 0.0009938 -0.0212442
926525 0.0009434 -0.0203253 0.9990566 0.0203253 0.9990566 0.0203253 0.0009434 -0.0203253
968953 0.0008963 -0.0194461 0.9991037 0.0194461 0.9991037 0.0194461 0.0008963 -0.0194461
1013323 0.0008524 -0.0186047 0.9991476 0.0186047 0.9991476 0.0186047 0.0008524 -0.0186047
1059725 0.0008113 -0.0177996 0.9991887 0.0177996 0.9991887 0.0177996 0.0008113 -0.0177996
1108252 0.0007728 -0.0170292 0.9992272 0.0170292 0.9992272 0.0170292 0.0007728 -0.0170292
1159002 0.0007369 -0.0162919 0.9992631 0.0162919 0.9992631 0.0162919 0.0007369 -0.0162919
1212075 0.0007032 -0.0155862 0.9992968 0.0155862 0.9992968 0.0155862 0.0007032 -0.0155862
1267578 0.0006717 -0.0149108 0.9993283 0.0149108 0.9993283 0.0149108 0.0006717 -0.0149108
1325623 0.0006423 -0.0142644 0.9993577 0.0142644 0.9993577 0.0142644 0.0006423 -0.0142644
1386327 0.0006147 -0.0136457 0.9993853 0.0136457 0.9993853 0.0136457 0.0006147 -0.0136457
1449809 0.0005890 -0.0130535 0.9994110 0.0130535 0.9994110 0.0130535 0.0005890 -0.0130535
1516199 0.0005649 -0.0124866 0.9994351 0.0124866 0.9994351 0.0124866 0.0005649 -0.0124866
1585629 0.0005424 -0.0119440 0.9994576 0.0119440 0.9994576 0.0119440 0.0005424 -0.0119440
1658239 0.0005214 -0.0114246 0.9994786 0.0114246 0.9994786 0.0114246 0.0005214 -0.0114246
1734173 0.0005018 -0.0109274 0.9994982 0.0109274 0.9994982 0.0109274 0.0005018 -0.0109274
1813585 0.0004836 -0.0104514 0.9995164 0.0104514 0.9995164 0.0104514 0.0004836 -0.0104514
1896632 0.0004666 -0.0099959 0.9995334 0.0099959 0.9995334 0.0099959 0.0004666 -0.0099959
1983483 0.0004507 -0.0095598 0.9995493 0.0095598 0.9995493 0.0095598 0.0004507 -0.0095598
2074311 0.0004360 -0.0091423 0.9995640 0.0091423 0.9995640 0.0091423 0.0004360 -0.0091423
