!Murata Part Number: GRM022R61C682ME01
!These Parameters are Measured in Series Mode Connection
!Data Generated on Mar 30, 2021
!       o--ll--o
!Port1            Port2
!       o------o
!Operation Temp=25[degC], DC Bias Voltage=0[V]
!Freq. Start=100[Hz] Stop=6[GHz] 401[Steps]
# Hz S RI R 50
!Freq.(Hz) S11(Real) S11(Imag) S21(Real) S21(Imag) S12(Real) S12(Imag) S22(Real) S22(Imag)
100 0.9999938 -0.0003296 0.0000062 0.0003296 0.0000062 0.0003296 0.9999938 -0.0003296
105 0.9999935 -0.0003446 0.0000065 0.0003446 0.0000065 0.0003446 0.9999935 -0.0003446
109 0.9999932 -0.0003602 0.0000068 0.0003602 0.0000068 0.0003602 0.9999932 -0.0003602
114 0.9999929 -0.0003765 0.0000071 0.0003765 0.0000071 0.0003765 0.9999929 -0.0003765
120 0.9999925 -0.0003935 0.0000075 0.0003935 0.0000075 0.0003935 0.9999925 -0.0003935
125 0.9999921 -0.0004114 0.0000079 0.0004114 0.0000079 0.0004114 0.9999921 -0.0004114
131 0.9999917 -0.0004300 0.0000083 0.0004300 0.0000083 0.0004300 0.9999917 -0.0004300
137 0.9999912 -0.0004495 0.0000088 0.0004495 0.0000088 0.0004495 0.9999912 -0.0004495
143 0.9999908 -0.0004698 0.0000092 0.0004698 0.0000092 0.0004698 0.9999908 -0.0004698
150 0.9999903 -0.0004910 0.0000097 0.0004910 0.0000097 0.0004910 0.9999903 -0.0004910
156 0.9999898 -0.0005132 0.0000102 0.0005132 0.0000102 0.0005132 0.9999898 -0.0005132
164 0.9999892 -0.0005364 0.0000108 0.0005364 0.0000108 0.0005364 0.9999892 -0.0005364
171 0.9999887 -0.0005607 0.0000113 0.0005607 0.0000113 0.0005607 0.9999887 -0.0005607
179 0.9999881 -0.0005860 0.0000119 0.0005860 0.0000119 0.0005860 0.9999881 -0.0005860
187 0.9999874 -0.0006125 0.0000126 0.0006125 0.0000126 0.0006125 0.9999874 -0.0006125
196 0.9999868 -0.0006402 0.0000132 0.0006402 0.0000132 0.0006402 0.9999868 -0.0006402
205 0.9999861 -0.0006691 0.0000139 0.0006691 0.0000139 0.0006691 0.9999861 -0.0006691
214 0.9999854 -0.0006993 0.0000146 0.0006993 0.0000146 0.0006993 0.9999854 -0.0006993
224 0.9999846 -0.0007308 0.0000154 0.0007308 0.0000154 0.0007308 0.9999846 -0.0007308
234 0.9999838 -0.0007638 0.0000162 0.0007638 0.0000162 0.0007638 0.9999838 -0.0007638
245 0.9999830 -0.0007983 0.0000170 0.0007983 0.0000170 0.0007983 0.9999830 -0.0007983
256 0.9999822 -0.0008343 0.0000178 0.0008343 0.0000178 0.0008343 0.9999822 -0.0008343
268 0.9999813 -0.0008720 0.0000187 0.0008720 0.0000187 0.0008720 0.9999813 -0.0008720
280 0.9999804 -0.0009113 0.0000196 0.0009113 0.0000196 0.0009113 0.9999804 -0.0009113
293 0.9999795 -0.0009524 0.0000205 0.0009524 0.0000205 0.0009524 0.9999795 -0.0009524
306 0.9999785 -0.0009954 0.0000215 0.0009954 0.0000215 0.0009954 0.9999785 -0.0009954
320 0.9999774 -0.0010404 0.0000226 0.0010404 0.0000226 0.0010404 0.9999774 -0.0010404
335 0.9999764 -0.0010874 0.0000236 0.0010874 0.0000236 0.0010874 0.9999764 -0.0010874
350 0.9999752 -0.0011365 0.0000248 0.0011365 0.0000248 0.0011365 0.9999752 -0.0011365
366 0.9999741 -0.0011878 0.0000259 0.0011878 0.0000259 0.0011878 0.9999741 -0.0011878
383 0.9999728 -0.0012415 0.0000272 0.0012415 0.0000272 0.0012415 0.9999728 -0.0012415
401 0.9999715 -0.0012976 0.0000285 0.0012976 0.0000285 0.0012976 0.9999715 -0.0012976
419 0.9999702 -0.0013562 0.0000298 0.0013562 0.0000298 0.0013562 0.9999702 -0.0013562
438 0.9999687 -0.0014175 0.0000313 0.0014175 0.0000313 0.0014175 0.9999687 -0.0014175
458 0.9999672 -0.0014816 0.0000328 0.0014816 0.0000328 0.0014816 0.9999672 -0.0014816
479 0.9999656 -0.0015487 0.0000344 0.0015487 0.0000344 0.0015487 0.9999656 -0.0015487
501 0.9999639 -0.0016187 0.0000361 0.0016187 0.0000361 0.0016187 0.9999639 -0.0016187
524 0.9999621 -0.0016919 0.0000379 0.0016919 0.0000379 0.0016919 0.9999621 -0.0016919
548 0.9999601 -0.0017685 0.0000399 0.0017685 0.0000399 0.0017685 0.9999601 -0.0017685
573 0.9999581 -0.0018485 0.0000419 0.0018485 0.0000419 0.0018485 0.9999581 -0.0018485
600 0.9999559 -0.0019322 0.0000441 0.0019322 0.0000441 0.0019322 0.9999559 -0.0019322
627 0.9999535 -0.0020196 0.0000465 0.0020196 0.0000465 0.0020196 0.9999535 -0.0020196
656 0.9999510 -0.0021110 0.0000490 0.0021110 0.0000490 0.0021110 0.9999510 -0.0021110
686 0.9999484 -0.0022065 0.0000516 0.0022065 0.0000516 0.0022065 0.9999484 -0.0022065
717 0.9999455 -0.0023064 0.0000545 0.0023064 0.0000545 0.0023064 0.9999455 -0.0023064
750 0.9999425 -0.0024107 0.0000575 0.0024107 0.0000575 0.0024107 0.9999425 -0.0024107
784 0.9999392 -0.0025197 0.0000608 0.0025197 0.0000608 0.0025197 0.9999392 -0.0025197
820 0.9999357 -0.0026336 0.0000643 0.0026336 0.0000643 0.0026336 0.9999357 -0.0026336
858 0.9999320 -0.0027527 0.0000680 0.0027527 0.0000680 0.0027527 0.9999320 -0.0027527
897 0.9999280 -0.0028771 0.0000720 0.0028771 0.0000720 0.0028771 0.9999280 -0.0028771
938 0.9999237 -0.0030070 0.0000763 0.0030070 0.0000763 0.0030070 0.9999237 -0.0030070
981 0.9999192 -0.0031428 0.0000808 0.0031428 0.0000808 0.0031428 0.9999192 -0.0031428
1026 0.9999144 -0.0032846 0.0000856 0.0032846 0.0000856 0.0032846 0.9999144 -0.0032846
1073 0.9999093 -0.0034328 0.0000907 0.0034328 0.0000907 0.0034328 0.9999093 -0.0034328
1122 0.9999038 -0.0035876 0.0000962 0.0035876 0.0000962 0.0035876 0.9999038 -0.0035876
1174 0.9998980 -0.0037493 0.0001020 0.0037493 0.0001020 0.0037493 0.9998980 -0.0037493
1227 0.9998919 -0.0039183 0.0001081 0.0039183 0.0001081 0.0039183 0.9998919 -0.0039183
1283 0.9998854 -0.0040947 0.0001146 0.0040947 0.0001146 0.0040947 0.9998854 -0.0040947
1342 0.9998786 -0.0042790 0.0001214 0.0042790 0.0001214 0.0042790 0.9998786 -0.0042790
1404 0.9998713 -0.0044715 0.0001287 0.0044715 0.0001287 0.0044715 0.9998713 -0.0044715
1468 0.9998637 -0.0046726 0.0001363 0.0046726 0.0001363 0.0046726 0.9998637 -0.0046726
1535 0.9998556 -0.0048827 0.0001444 0.0048827 0.0001444 0.0048827 0.9998556 -0.0048827
1606 0.9998471 -0.0051021 0.0001529 0.0051021 0.0001529 0.0051021 0.9998471 -0.0051021
1679 0.9998382 -0.0053314 0.0001618 0.0053314 0.0001618 0.0053314 0.9998382 -0.0053314
1756 0.9998288 -0.0055708 0.0001712 0.0055708 0.0001712 0.0055708 0.9998288 -0.0055708
1836 0.9998189 -0.0058210 0.0001811 0.0058210 0.0001811 0.0058210 0.9998189 -0.0058210
1920 0.9998085 -0.0060824 0.0001915 0.0060824 0.0001915 0.0060824 0.9998085 -0.0060824
2008 0.9997977 -0.0063555 0.0002023 0.0063555 0.0002023 0.0063555 0.9997977 -0.0063555
2100 0.9997862 -0.0066408 0.0002138 0.0066408 0.0002138 0.0066408 0.9997862 -0.0066408
2196 0.9997742 -0.0069389 0.0002258 0.0069389 0.0002258 0.0069389 0.9997742 -0.0069389
2297 0.9997616 -0.0072505 0.0002384 0.0072505 0.0002384 0.0072505 0.9997616 -0.0072505
2402 0.9997483 -0.0075760 0.0002517 0.0075760 0.0002517 0.0075760 0.9997483 -0.0075760
2512 0.9997342 -0.0079163 0.0002658 0.0079163 0.0002658 0.0079163 0.9997342 -0.0079163
2627 0.9997195 -0.0082719 0.0002805 0.0082719 0.0002805 0.0082719 0.9997195 -0.0082719
2748 0.9997039 -0.0086435 0.0002961 0.0086435 0.0002961 0.0086435 0.9997039 -0.0086435
2873 0.9996874 -0.0090320 0.0003126 0.0090320 0.0003126 0.0090320 0.9996874 -0.0090320
3005 0.9996699 -0.0094381 0.0003301 0.0094381 0.0003301 0.0094381 0.9996699 -0.0094381
3143 0.9996513 -0.0098625 0.0003487 0.0098625 0.0003487 0.0098625 0.9996513 -0.0098625
3287 0.9996316 -0.0103062 0.0003684 0.0103062 0.0003684 0.0103062 0.9996316 -0.0103062
3437 0.9996106 -0.0107700 0.0003894 0.0107700 0.0003894 0.0107700 0.9996106 -0.0107700
3594 0.9995882 -0.0112548 0.0004118 0.0112548 0.0004118 0.0112548 0.9995882 -0.0112548
3759 0.9995643 -0.0117616 0.0004357 0.0117616 0.0004357 0.0117616 0.9995643 -0.0117616
3931 0.9995387 -0.0122914 0.0004613 0.0122914 0.0004613 0.0122914 0.9995387 -0.0122914
4111 0.9995113 -0.0128451 0.0004887 0.0128451 0.0004887 0.0128451 0.9995113 -0.0128451
4299 0.9994818 -0.0134239 0.0005182 0.0134239 0.0005182 0.0134239 0.9994818 -0.0134239
4496 0.9994502 -0.0140290 0.0005498 0.0140290 0.0005498 0.0140290 0.9994502 -0.0140290
4702 0.9994162 -0.0146614 0.0005838 0.0146614 0.0005838 0.0146614 0.9994162 -0.0146614
4918 0.9993795 -0.0153223 0.0006205 0.0153223 0.0006205 0.0153223 0.9993795 -0.0153223
5143 0.9993401 -0.0160131 0.0006599 0.0160131 0.0006599 0.0160131 0.9993401 -0.0160131
5378 0.9992975 -0.0167350 0.0007025 0.0167350 0.0007025 0.0167350 0.9992975 -0.0167350
5625 0.9992516 -0.0174894 0.0007484 0.0174894 0.0007484 0.0174894 0.9992516 -0.0174894
5882 0.9992020 -0.0182777 0.0007980 0.0182777 0.0007980 0.0182777 0.9992020 -0.0182777
6151 0.9991485 -0.0191014 0.0008515 0.0191014 0.0008515 0.0191014 0.9991485 -0.0191014
6433 0.9990907 -0.0199619 0.0009093 0.0199619 0.0009093 0.0199619 0.9990907 -0.0199619
6728 0.9990283 -0.0208610 0.0009717 0.0208610 0.0009717 0.0208610 0.9990283 -0.0208610
7036 0.9989609 -0.0218003 0.0010391 0.0218003 0.0010391 0.0218003 0.9989609 -0.0218003
7358 0.9988881 -0.0227814 0.0011119 0.0227814 0.0011119 0.0227814 0.9988881 -0.0227814
7695 0.9988095 -0.0238062 0.0011905 0.0238062 0.0011905 0.0238062 0.9988095 -0.0238062
8047 0.9987247 -0.0248765 0.0012753 0.0248765 0.0012753 0.0248765 0.9987247 -0.0248765
8416 0.9986331 -0.0259944 0.0013669 0.0259944 0.0013669 0.0259944 0.9986331 -0.0259944
8801 0.9985343 -0.0271617 0.0014657 0.0271617 0.0014657 0.0271617 0.9985343 -0.0271617
9204 0.9984278 -0.0283807 0.0015722 0.0283807 0.0015722 0.0283807 0.9984278 -0.0283807
9626 0.9983129 -0.0296536 0.0016871 0.0296536 0.0016871 0.0296536 0.9983129 -0.0296536
10066 0.9981891 -0.0309826 0.0018109 0.0309826 0.0018109 0.0309826 0.9981891 -0.0309826
10527 0.9980557 -0.0323702 0.0019443 0.0323702 0.0019443 0.0323702 0.9980557 -0.0323702
11009 0.9979120 -0.0338188 0.0020880 0.0338188 0.0020880 0.0338188 0.9979120 -0.0338188
11514 0.9977572 -0.0353313 0.0022428 0.0353313 0.0022428 0.0353313 0.9977572 -0.0353313
12041 0.9975906 -0.0369101 0.0024094 0.0369101 0.0024094 0.0369101 0.9975906 -0.0369101
12592 0.9974111 -0.0385584 0.0025889 0.0385584 0.0025889 0.0385584 0.9974111 -0.0385584
13169 0.9972179 -0.0402790 0.0027821 0.0402790 0.0027821 0.0402790 0.9972179 -0.0402790
13772 0.9970100 -0.0420751 0.0029900 0.0420751 0.0029900 0.0420751 0.9970100 -0.0420751
14402 0.9967861 -0.0439499 0.0032139 0.0439499 0.0032139 0.0439499 0.9967861 -0.0439499
15062 0.9965450 -0.0459071 0.0034550 0.0459071 0.0034550 0.0459071 0.9965450 -0.0459071
15752 0.9962854 -0.0479500 0.0037146 0.0479500 0.0037146 0.0479500 0.9962854 -0.0479500
16473 0.9960057 -0.0500825 0.0039943 0.0500825 0.0039943 0.0500825 0.9960057 -0.0500825
17227 0.9957043 -0.0523085 0.0042957 0.0523085 0.0042957 0.0523085 0.9957043 -0.0523085
18016 0.9953794 -0.0546319 0.0046206 0.0546319 0.0046206 0.0546319 0.9953794 -0.0546319
18841 0.9950290 -0.0570571 0.0049710 0.0570571 0.0049710 0.0570571 0.9950290 -0.0570571
19704 0.9946509 -0.0595883 0.0053491 0.0595883 0.0053491 0.0595883 0.9946509 -0.0595883
20606 0.9942426 -0.0622301 0.0057574 0.0622301 0.0057574 0.0622301 0.9942426 -0.0622301
21550 0.9938017 -0.0649873 0.0061983 0.0649873 0.0061983 0.0649873 0.9938017 -0.0649873
22537 0.9933251 -0.0678646 0.0066749 0.0678646 0.0066749 0.0678646 0.9933251 -0.0678646
23569 0.9928097 -0.0708669 0.0071903 0.0708669 0.0071903 0.0708669 0.9928097 -0.0708669
24648 0.9922520 -0.0739995 0.0077480 0.0739995 0.0077480 0.0739995 0.9922520 -0.0739995
25777 0.9916484 -0.0772676 0.0083516 0.0772676 0.0083516 0.0772676 0.9916484 -0.0772676
26957 0.9909946 -0.0806764 0.0090054 0.0806764 0.0090054 0.0806764 0.9909946 -0.0806764
28191 0.9902863 -0.0842316 0.0097137 0.0842316 0.0097137 0.0842316 0.9902863 -0.0842316
29482 0.9895186 -0.0879386 0.0104814 0.0879386 0.0104814 0.0879386 0.9895186 -0.0879386
30832 0.9886862 -0.0918031 0.0113138 0.0918031 0.0113138 0.0918031 0.9886862 -0.0918031
32244 0.9877835 -0.0958309 0.0122165 0.0958309 0.0122165 0.0958309 0.9877835 -0.0958309
33721 0.9868043 -0.1000276 0.0131957 0.1000276 0.0131957 0.1000276 0.9868043 -0.1000276
35265 0.9857420 -0.1043992 0.0142580 0.1043992 0.0142580 0.1043992 0.9857420 -0.1043992
36880 0.9845895 -0.1089512 0.0154105 0.1089512 0.0154105 0.1089512 0.9845895 -0.1089512
38569 0.9833390 -0.1136896 0.0166610 0.1136896 0.0166610 0.1136896 0.9833390 -0.1136896
40335 0.9819823 -0.1186199 0.0180177 0.1186199 0.0180177 0.1186199 0.9819823 -0.1186199
42182 0.9805107 -0.1237478 0.0194893 0.1237478 0.0194893 0.1237478 0.9805107 -0.1237478
44113 0.9789146 -0.1290787 0.0210854 0.1290787 0.0210854 0.1290787 0.9789146 -0.1290787
46134 0.9771839 -0.1346179 0.0228161 0.1346179 0.0228161 0.1346179 0.9771839 -0.1346179
48246 0.9753078 -0.1403704 0.0246922 0.1403704 0.0246922 0.1403704 0.9753078 -0.1403704
50455 0.9732748 -0.1463411 0.0267252 0.1463411 0.0267252 0.1463411 0.9732748 -0.1463411
52766 0.9710726 -0.1525343 0.0289274 0.1525343 0.0289274 0.1525343 0.9710726 -0.1525343
55182 0.9686884 -0.1589541 0.0313116 0.1589541 0.0313116 0.1589541 0.9686884 -0.1589541
57709 0.9661082 -0.1656041 0.0338918 0.1656041 0.0338918 0.1656041 0.9661082 -0.1656041
60352 0.9633176 -0.1724874 0.0366824 0.1724874 0.0366824 0.1724874 0.9633176 -0.1724874
63115 0.9603011 -0.1796063 0.0396989 0.1796063 0.0396989 0.1796063 0.9603011 -0.1796063
66005 0.9570424 -0.1869625 0.0429576 0.1869625 0.0429576 0.1869625 0.9570424 -0.1869625
69028 0.9535245 -0.1945571 0.0464755 0.1945571 0.0464755 0.1945571 0.9535245 -0.1945571
72189 0.9497294 -0.2023899 0.0502706 0.2023899 0.0502706 0.2023899 0.9497294 -0.2023899
75495 0.9456384 -0.2104601 0.0543616 0.2104601 0.0543616 0.2104601 0.9456384 -0.2104601
78952 0.9412316 -0.2187653 0.0587684 0.2187653 0.0587684 0.2187653 0.9412316 -0.2187653
82567 0.9364886 -0.2273022 0.0635114 0.2273022 0.0635114 0.2273022 0.9364886 -0.2273022
86348 0.9313881 -0.2360658 0.0686119 0.2360658 0.0686119 0.2360658 0.9313881 -0.2360658
90302 0.9259080 -0.2450498 0.0740920 0.2450498 0.0740920 0.2450498 0.9259080 -0.2450498
94437 0.9200254 -0.2542457 0.0799746 0.2542457 0.0799746 0.2542457 0.9200254 -0.2542457
98762 0.9137168 -0.2636434 0.0862832 0.2636434 0.0862832 0.2636434 0.9137168 -0.2636434
103284 0.9069582 -0.2732306 0.0930418 0.2732306 0.0930418 0.2732306 0.9069582 -0.2732306
108014 0.8997252 -0.2829924 0.1002748 0.2829924 0.1002748 0.2829924 0.8997252 -0.2829924
112960 0.8919932 -0.2929116 0.1080068 0.2929116 0.1080068 0.2929116 0.8919932 -0.2929116
118133 0.8837374 -0.3029680 0.1162626 0.3029680 0.1162626 0.3029680 0.8837374 -0.3029680
123542 0.8749334 -0.3131385 0.1250666 0.3131385 0.1250666 0.3131385 0.8749334 -0.3131385
129199 0.8655573 -0.3233970 0.1344427 0.3233970 0.1344427 0.3233970 0.8655573 -0.3233970
135116 0.8555861 -0.3337137 0.1444139 0.3337137 0.1444139 0.3337137 0.8555861 -0.3337137
141303 0.8449980 -0.3440554 0.1550020 0.3440554 0.1550020 0.3440554 0.8449980 -0.3440554
147774 0.8337729 -0.3543855 0.1662271 0.3543855 0.1662271 0.3543855 0.8337729 -0.3543855
154540 0.8218933 -0.3646636 0.1781067 0.3646636 0.1781067 0.3646636 0.8218933 -0.3646636
161617 0.8093442 -0.3748457 0.1906558 0.3748457 0.1906558 0.3748457 0.8093442 -0.3748457
169018 0.7961140 -0.3848843 0.2038860 0.3848843 0.2038860 0.3848843 0.7961140 -0.3848843
176758 0.7821953 -0.3947287 0.2178047 0.3947287 0.2178047 0.3947287 0.7821953 -0.3947287
184852 0.7675851 -0.4043251 0.2324149 0.4043251 0.2324149 0.4043251 0.7675851 -0.4043251
193316 0.7522859 -0.4136175 0.2477141 0.4136175 0.2477141 0.4136175 0.7522859 -0.4136175
202169 0.7363056 -0.4225475 0.2636944 0.4225475 0.2636944 0.4225475 0.7363056 -0.4225475
211427 0.7196586 -0.4310557 0.2803414 0.4310557 0.2803414 0.4310557 0.7196586 -0.4310557
221108 0.7023661 -0.4390820 0.2976339 0.4390820 0.2976339 0.4390820 0.7023661 -0.4390820
231233 0.6844561 -0.4465667 0.3155439 0.4465667 0.3155439 0.4465667 0.6844561 -0.4465667
241822 0.6659639 -0.4534516 0.3340361 0.4534516 0.3340361 0.4534516 0.6659639 -0.4534516
252896 0.6469320 -0.4596806 0.3530680 0.4596806 0.3530680 0.4596806 0.6469320 -0.4596806
264476 0.6274097 -0.4652013 0.3725903 0.4652013 0.3725903 0.4652013 0.6274097 -0.4652013
276587 0.6074532 -0.4699654 0.3925468 0.4699654 0.3925468 0.4699654 0.6074532 -0.4699654
289253 0.5871249 -0.4739304 0.4128751 0.4739304 0.4128751 0.4739304 0.5871249 -0.4739304
302498 0.5664924 -0.4770603 0.4335076 0.4770603 0.4335076 0.4770603 0.5664924 -0.4770603
316350 0.5456280 -0.4793260 0.4543720 0.4793260 0.4543720 0.4793260 0.5456280 -0.4793260
330837 0.5246075 -0.4807067 0.4753925 0.4807067 0.4753925 0.4807067 0.5246075 -0.4807067
345986 0.5035088 -0.4811898 0.4964912 0.4811898 0.4964912 0.4811898 0.5035088 -0.4811898
361830 0.4824113 -0.4807715 0.5175887 0.4807715 0.5175887 0.4807715 0.4824113 -0.4807715
378399 0.4613940 -0.4794568 0.5386060 0.4794568 0.5386060 0.4794568 0.4613940 -0.4794568
395726 0.4405346 -0.4772594 0.5594654 0.4772594 0.5594654 0.4772594 0.4405346 -0.4772594
413847 0.4199082 -0.4742014 0.5800918 0.4742014 0.5800918 0.4742014 0.4199082 -0.4742014
432798 0.3995861 -0.4703123 0.6004139 0.4703123 0.6004139 0.4703123 0.3995861 -0.4703123
452617 0.3796350 -0.4656289 0.6203650 0.4656289 0.6203650 0.4656289 0.3796350 -0.4656289
473344 0.3601160 -0.4601944 0.6398840 0.4601944 0.6398840 0.4601944 0.3601160 -0.4601944
495019 0.3410840 -0.4540568 0.6589160 0.4540568 0.6589160 0.4540568 0.3410840 -0.4540568
517687 0.3225871 -0.4472686 0.6774129 0.4472686 0.6774129 0.4472686 0.3225871 -0.4472686
541393 0.3046667 -0.4398853 0.6953333 0.4398853 0.6953333 0.4398853 0.3046667 -0.4398853
566185 0.2873568 -0.4319646 0.7126432 0.4319646 0.7126432 0.4319646 0.2873568 -0.4319646
592111 0.2706846 -0.4235653 0.7293154 0.4235653 0.7293154 0.4235653 0.2706846 -0.4235653
619225 0.2546704 -0.4147464 0.7453296 0.4147464 0.7453296 0.4147464 0.2546704 -0.4147464
647581 0.2393281 -0.4055662 0.7606719 0.4055662 0.7606719 0.4055662 0.2393281 -0.4055662
677235 0.2246653 -0.3960816 0.7753347 0.3960816 0.7753347 0.3960816 0.2246653 -0.3960816
708247 0.2106844 -0.3863476 0.7893156 0.3863476 0.7893156 0.3863476 0.2106844 -0.3863476
740679 0.1973827 -0.3764165 0.8026173 0.3764165 0.8026173 0.3764165 0.1973827 -0.3764165
774597 0.1847530 -0.3663379 0.8152470 0.3663379 0.8152470 0.3663379 0.1847530 -0.3663379
810067 0.1727844 -0.3561580 0.8272156 0.3561580 0.8272156 0.3561580 0.1727844 -0.3561580
847162 0.1614627 -0.3459200 0.8385373 0.3459200 0.8385373 0.3459200 0.1614627 -0.3459200
885955 0.1507712 -0.3356634 0.8492288 0.3356634 0.8492288 0.3356634 0.1507712 -0.3356634
926525 0.1406910 -0.3254242 0.8593090 0.3254242 0.8593090 0.3254242 0.1406910 -0.3254242
968953 0.1312012 -0.3152352 0.8687988 0.3152352 0.8687988 0.3152352 0.1312012 -0.3152352
1013323 0.1222801 -0.3051256 0.8777199 0.3051256 0.8777199 0.3051256 0.1222801 -0.3051256
1059725 0.1139048 -0.2951219 0.8860952 0.2951219 0.8860952 0.2951219 0.1139048 -0.2951219
1108252 0.1060519 -0.2852470 0.8939481 0.2852470 0.8939481 0.2852470 0.1060519 -0.2852470
1159002 0.0986977 -0.2755215 0.9013023 0.2755215 0.9013023 0.2755215 0.0986977 -0.2755215
1212075 0.0918185 -0.2659630 0.9081815 0.2659630 0.9081815 0.2659630 0.0918185 -0.2659630
1267578 0.0853906 -0.2565867 0.9146094 0.2565867 0.9146094 0.2565867 0.0853906 -0.2565867
1325623 0.0793907 -0.2474055 0.9206093 0.2474055 0.9206093 0.2474055 0.0793907 -0.2474055
1386327 0.0737959 -0.2384305 0.9262041 0.2384305 0.9262041 0.2384305 0.0737959 -0.2384305
1449809 0.0685837 -0.2296704 0.9314163 0.2296704 0.9314163 0.2296704 0.0685837 -0.2296704
1516199 0.0637323 -0.2211324 0.9362677 0.2211324 0.9362677 0.2211324 0.0637323 -0.2211324
1585629 0.0592207 -0.2128222 0.9407793 0.2128222 0.9407793 0.2128222 0.0592207 -0.2128222
1658239 0.0550282 -0.2047438 0.9449718 0.2047438 0.9449718 0.2047438 0.0550282 -0.2047438
1734173 0.0511354 -0.1968999 0.9488646 0.1968999 0.9488646 0.1968999 0.0511354 -0.1968999
1813585 0.0475232 -0.1892923 0.9524768 0.1892923 0.9524768 0.1892923 0.0475232 -0.1892923
1896632 0.0441736 -0.1819212 0.9558264 0.1819212 0.9558264 0.1819212 0.0441736 -0.1819212
1983483 0.0410692 -0.1747864 0.9589308 0.1747864 0.9589308 0.1747864 0.0410692 -0.1747864
2074311 0.0381937 -0.1678864 0.9618063 0.1678864 0.9618063 0.1678864 0.0381937 -0.1678864
