!Murata Part Number: GRM022B31A332KE19
!These Parameters are Measured in Series Mode Connection
!Data Generated on Mar 30, 2021
!       o--ll--o
!Port1            Port2
!       o------o
!Operation Temp=25[degC], DC Bias Voltage=0[V]
!Freq. Start=100[Hz] Stop=6[GHz] 401[Steps]
# Hz S RI R 50
!Freq.(Hz) S11(Real) S11(Imag) S21(Real) S21(Imag) S12(Real) S12(Imag) S22(Real) S22(Imag)
100 0.9999957 -0.0001690 0.0000043 0.0001690 0.0000043 0.0001690 0.9999957 -0.0001690
105 0.9999956 -0.0001766 0.0000044 0.0001766 0.0000044 0.0001766 0.9999956 -0.0001766
109 0.9999954 -0.0001845 0.0000046 0.0001845 0.0000046 0.0001845 0.9999954 -0.0001845
114 0.9999952 -0.0001928 0.0000048 0.0001928 0.0000048 0.0001928 0.9999952 -0.0001928
120 0.9999950 -0.0002015 0.0000050 0.0002015 0.0000050 0.0002015 0.9999950 -0.0002015
125 0.9999948 -0.0002105 0.0000052 0.0002105 0.0000052 0.0002105 0.9999948 -0.0002105
131 0.9999946 -0.0002200 0.0000054 0.0002200 0.0000054 0.0002200 0.9999946 -0.0002200
137 0.9999943 -0.0002299 0.0000057 0.0002299 0.0000057 0.0002299 0.9999943 -0.0002299
143 0.9999941 -0.0002403 0.0000059 0.0002403 0.0000059 0.0002403 0.9999941 -0.0002403
150 0.9999939 -0.0002511 0.0000061 0.0002511 0.0000061 0.0002511 0.9999939 -0.0002511
156 0.9999936 -0.0002624 0.0000064 0.0002624 0.0000064 0.0002624 0.9999936 -0.0002624
164 0.9999934 -0.0002742 0.0000066 0.0002742 0.0000066 0.0002742 0.9999934 -0.0002742
171 0.9999931 -0.0002866 0.0000069 0.0002866 0.0000069 0.0002866 0.9999931 -0.0002866
179 0.9999928 -0.0002996 0.0000072 0.0002996 0.0000072 0.0002996 0.9999928 -0.0002996
187 0.9999925 -0.0003131 0.0000075 0.0003131 0.0000075 0.0003131 0.9999925 -0.0003131
196 0.9999922 -0.0003272 0.0000078 0.0003272 0.0000078 0.0003272 0.9999922 -0.0003272
205 0.9999918 -0.0003420 0.0000082 0.0003420 0.0000082 0.0003420 0.9999918 -0.0003420
214 0.9999915 -0.0003575 0.0000085 0.0003575 0.0000085 0.0003575 0.9999915 -0.0003575
224 0.9999911 -0.0003736 0.0000089 0.0003736 0.0000089 0.0003736 0.9999911 -0.0003736
234 0.9999907 -0.0003905 0.0000093 0.0003905 0.0000093 0.0003905 0.9999907 -0.0003905
245 0.9999902 -0.0004081 0.0000098 0.0004081 0.0000098 0.0004081 0.9999902 -0.0004081
256 0.9999898 -0.0004266 0.0000102 0.0004266 0.0000102 0.0004266 0.9999898 -0.0004266
268 0.9999893 -0.0004459 0.0000107 0.0004459 0.0000107 0.0004459 0.9999893 -0.0004459
280 0.9999887 -0.0004660 0.0000113 0.0004660 0.0000113 0.0004660 0.9999887 -0.0004660
293 0.9999882 -0.0004870 0.0000118 0.0004870 0.0000118 0.0004870 0.9999882 -0.0004870
306 0.9999876 -0.0005090 0.0000124 0.0005090 0.0000124 0.0005090 0.9999876 -0.0005090
320 0.9999869 -0.0005320 0.0000131 0.0005320 0.0000131 0.0005320 0.9999869 -0.0005320
335 0.9999863 -0.0005560 0.0000137 0.0005560 0.0000137 0.0005560 0.9999863 -0.0005560
350 0.9999856 -0.0005811 0.0000144 0.0005811 0.0000144 0.0005811 0.9999856 -0.0005811
366 0.9999848 -0.0006073 0.0000152 0.0006073 0.0000152 0.0006073 0.9999848 -0.0006073
383 0.9999840 -0.0006347 0.0000160 0.0006347 0.0000160 0.0006347 0.9999840 -0.0006347
401 0.9999832 -0.0006633 0.0000168 0.0006633 0.0000168 0.0006633 0.9999832 -0.0006633
419 0.9999823 -0.0006932 0.0000177 0.0006932 0.0000177 0.0006932 0.9999823 -0.0006932
438 0.9999814 -0.0007244 0.0000186 0.0007244 0.0000186 0.0007244 0.9999814 -0.0007244
458 0.9999804 -0.0007570 0.0000196 0.0007570 0.0000196 0.0007570 0.9999804 -0.0007570
479 0.9999794 -0.0007910 0.0000206 0.0007910 0.0000206 0.0007910 0.9999794 -0.0007910
501 0.9999783 -0.0008266 0.0000217 0.0008266 0.0000217 0.0008266 0.9999783 -0.0008266
524 0.9999772 -0.0008638 0.0000228 0.0008638 0.0000228 0.0008638 0.9999772 -0.0008638
548 0.9999761 -0.0009026 0.0000239 0.0009026 0.0000239 0.0009026 0.9999761 -0.0009026
573 0.9999749 -0.0009432 0.0000251 0.0009432 0.0000251 0.0009432 0.9999749 -0.0009432
600 0.9999736 -0.0009855 0.0000264 0.0009855 0.0000264 0.0009855 0.9999736 -0.0009855
627 0.9999723 -0.0010298 0.0000277 0.0010298 0.0000277 0.0010298 0.9999723 -0.0010298
656 0.9999710 -0.0010761 0.0000290 0.0010761 0.0000290 0.0010761 0.9999710 -0.0010761
686 0.9999696 -0.0011244 0.0000304 0.0011244 0.0000304 0.0011244 0.9999696 -0.0011244
717 0.9999682 -0.0011749 0.0000318 0.0011749 0.0000318 0.0011749 0.9999682 -0.0011749
750 0.9999667 -0.0012277 0.0000333 0.0012277 0.0000333 0.0012277 0.9999667 -0.0012277
784 0.9999652 -0.0012829 0.0000348 0.0012829 0.0000348 0.0012829 0.9999652 -0.0012829
820 0.9999636 -0.0013406 0.0000364 0.0013406 0.0000364 0.0013406 0.9999636 -0.0013406
858 0.9999619 -0.0014008 0.0000381 0.0014008 0.0000381 0.0014008 0.9999619 -0.0014008
897 0.9999602 -0.0014638 0.0000398 0.0014638 0.0000398 0.0014638 0.9999602 -0.0014638
938 0.9999585 -0.0015296 0.0000415 0.0015296 0.0000415 0.0015296 0.9999585 -0.0015296
981 0.9999566 -0.0015985 0.0000434 0.0015985 0.0000434 0.0015985 0.9999566 -0.0015985
1026 0.9999547 -0.0016704 0.0000453 0.0016704 0.0000453 0.0016704 0.9999547 -0.0016704
1073 0.9999527 -0.0017456 0.0000473 0.0017456 0.0000473 0.0017456 0.9999527 -0.0017456
1122 0.9999505 -0.0018243 0.0000495 0.0018243 0.0000495 0.0018243 0.9999505 -0.0018243
1174 0.9999483 -0.0019065 0.0000517 0.0019065 0.0000517 0.0019065 0.9999483 -0.0019065
1227 0.9999460 -0.0019924 0.0000540 0.0019924 0.0000540 0.0019924 0.9999460 -0.0019924
1283 0.9999435 -0.0020823 0.0000565 0.0020823 0.0000565 0.0020823 0.9999435 -0.0020823
1342 0.9999409 -0.0021762 0.0000591 0.0021762 0.0000591 0.0021762 0.9999409 -0.0021762
1404 0.9999382 -0.0022745 0.0000618 0.0022745 0.0000618 0.0022745 0.9999382 -0.0022745
1468 0.9999353 -0.0023771 0.0000647 0.0023771 0.0000647 0.0023771 0.9999353 -0.0023771
1535 0.9999322 -0.0024845 0.0000678 0.0024845 0.0000678 0.0024845 0.9999322 -0.0024845
1606 0.9999289 -0.0025967 0.0000711 0.0025967 0.0000711 0.0025967 0.9999289 -0.0025967
1679 0.9999253 -0.0027140 0.0000747 0.0027140 0.0000747 0.0027140 0.9999253 -0.0027140
1756 0.9999216 -0.0028366 0.0000784 0.0028366 0.0000784 0.0028366 0.9999216 -0.0028366
1836 0.9999175 -0.0029647 0.0000825 0.0029647 0.0000825 0.0029647 0.9999175 -0.0029647
1920 0.9999132 -0.0030987 0.0000868 0.0030987 0.0000868 0.0030987 0.9999132 -0.0030987
2008 0.9999086 -0.0032387 0.0000914 0.0032387 0.0000914 0.0032387 0.9999086 -0.0032387
2100 0.9999037 -0.0033850 0.0000963 0.0033850 0.0000963 0.0033850 0.9999037 -0.0033850
2196 0.9998984 -0.0035379 0.0001016 0.0035379 0.0001016 0.0035379 0.9998984 -0.0035379
2297 0.9998927 -0.0036976 0.0001073 0.0036976 0.0001073 0.0036976 0.9998927 -0.0036976
2402 0.9998866 -0.0038646 0.0001134 0.0038646 0.0001134 0.0038646 0.9998866 -0.0038646
2512 0.9998801 -0.0040390 0.0001199 0.0040390 0.0001199 0.0040390 0.9998801 -0.0040390
2627 0.9998731 -0.0042212 0.0001269 0.0042212 0.0001269 0.0042212 0.9998731 -0.0042212
2748 0.9998656 -0.0044116 0.0001344 0.0044116 0.0001344 0.0044116 0.9998656 -0.0044116
2873 0.9998576 -0.0046105 0.0001424 0.0046105 0.0001424 0.0046105 0.9998576 -0.0046105
3005 0.9998491 -0.0048183 0.0001509 0.0048183 0.0001509 0.0048183 0.9998491 -0.0048183
3143 0.9998399 -0.0050353 0.0001601 0.0050353 0.0001601 0.0050353 0.9998399 -0.0050353
3287 0.9998302 -0.0052619 0.0001698 0.0052619 0.0001698 0.0052619 0.9998302 -0.0052619
3437 0.9998198 -0.0054987 0.0001802 0.0054987 0.0001802 0.0054987 0.9998198 -0.0054987
3594 0.9998088 -0.0057459 0.0001912 0.0057459 0.0001912 0.0057459 0.9998088 -0.0057459
3759 0.9997971 -0.0060041 0.0002029 0.0060041 0.0002029 0.0060041 0.9997971 -0.0060041
3931 0.9997846 -0.0062737 0.0002154 0.0062737 0.0002154 0.0062737 0.9997846 -0.0062737
4111 0.9997714 -0.0065553 0.0002286 0.0065553 0.0002286 0.0065553 0.9997714 -0.0065553
4299 0.9997575 -0.0068494 0.0002425 0.0068494 0.0002425 0.0068494 0.9997575 -0.0068494
4496 0.9997427 -0.0071564 0.0002573 0.0071564 0.0002573 0.0071564 0.9997427 -0.0071564
4702 0.9997270 -0.0074771 0.0002730 0.0074771 0.0002730 0.0074771 0.9997270 -0.0074771
4918 0.9997105 -0.0078120 0.0002895 0.0078120 0.0002895 0.0078120 0.9997105 -0.0078120
5143 0.9996931 -0.0081617 0.0003069 0.0081617 0.0003069 0.0081617 0.9996931 -0.0081617
5378 0.9996747 -0.0085270 0.0003253 0.0085270 0.0003253 0.0085270 0.9996747 -0.0085270
5625 0.9996554 -0.0089085 0.0003446 0.0089085 0.0003446 0.0089085 0.9996554 -0.0089085
5882 0.9996350 -0.0093070 0.0003650 0.0093070 0.0003650 0.0093070 0.9996350 -0.0093070
6151 0.9996135 -0.0097232 0.0003865 0.0097232 0.0003865 0.0097232 0.9996135 -0.0097232
6433 0.9995909 -0.0101579 0.0004091 0.0101579 0.0004091 0.0101579 0.9995909 -0.0101579
6728 0.9995671 -0.0106121 0.0004329 0.0106121 0.0004329 0.0106121 0.9995671 -0.0106121
7036 0.9995420 -0.0110866 0.0004580 0.0110866 0.0004580 0.0110866 0.9995420 -0.0110866
7358 0.9995155 -0.0115824 0.0004845 0.0115824 0.0004845 0.0115824 0.9995155 -0.0115824
7695 0.9994875 -0.0121004 0.0005125 0.0121004 0.0005125 0.0121004 0.9994875 -0.0121004
8047 0.9994580 -0.0126417 0.0005420 0.0126417 0.0005420 0.0126417 0.9994580 -0.0126417
8416 0.9994267 -0.0132074 0.0005733 0.0132074 0.0005733 0.0132074 0.9994267 -0.0132074
8801 0.9993935 -0.0137986 0.0006065 0.0137986 0.0006065 0.0137986 0.9993935 -0.0137986
9204 0.9993583 -0.0144165 0.0006417 0.0144165 0.0006417 0.0144165 0.9993583 -0.0144165
9626 0.9993209 -0.0150622 0.0006791 0.0150622 0.0006791 0.0150622 0.9993209 -0.0150622
10066 0.9992811 -0.0157372 0.0007189 0.0157372 0.0007189 0.0157372 0.9992811 -0.0157372
10527 0.9992386 -0.0164427 0.0007614 0.0164427 0.0007614 0.0164427 0.9992386 -0.0164427
11009 0.9991932 -0.0171801 0.0008068 0.0171801 0.0008068 0.0171801 0.9991932 -0.0171801
11514 0.9991446 -0.0179509 0.0008554 0.0179509 0.0008554 0.0179509 0.9991446 -0.0179509
12041 0.9990925 -0.0187566 0.0009075 0.0187566 0.0009075 0.0187566 0.9990925 -0.0187566
12592 0.9990366 -0.0195987 0.0009634 0.0195987 0.0009634 0.0195987 0.9990366 -0.0195987
13169 0.9989765 -0.0204789 0.0010235 0.0204789 0.0010235 0.0204789 0.9989765 -0.0204789
13772 0.9989117 -0.0213988 0.0010883 0.0213988 0.0010883 0.0213988 0.9989117 -0.0213988
14402 0.9988420 -0.0223603 0.0011580 0.0223603 0.0011580 0.0223603 0.9988420 -0.0223603
15062 0.9987667 -0.0233652 0.0012333 0.0233652 0.0012333 0.0233652 0.9987667 -0.0233652
15752 0.9986854 -0.0244153 0.0013146 0.0244153 0.0013146 0.0244153 0.9986854 -0.0244153
16473 0.9985975 -0.0255126 0.0014025 0.0255126 0.0014025 0.0255126 0.9985975 -0.0255126
17227 0.9985025 -0.0266592 0.0014975 0.0266592 0.0014975 0.0266592 0.9985025 -0.0266592
18016 0.9983996 -0.0278571 0.0016004 0.0278571 0.0016004 0.0278571 0.9983996 -0.0278571
18841 0.9982883 -0.0291086 0.0017117 0.0291086 0.0017117 0.0291086 0.9982883 -0.0291086
19704 0.9981677 -0.0304159 0.0018323 0.0304159 0.0018323 0.0304159 0.9981677 -0.0304159
20606 0.9980371 -0.0317814 0.0019629 0.0317814 0.0019629 0.0317814 0.9980371 -0.0317814
21550 0.9978957 -0.0332075 0.0021043 0.0332075 0.0021043 0.0332075 0.9978957 -0.0332075
22537 0.9977424 -0.0346968 0.0022576 0.0346968 0.0022576 0.0346968 0.9977424 -0.0346968
23569 0.9975764 -0.0362518 0.0024236 0.0362518 0.0024236 0.0362518 0.9975764 -0.0362518
24648 0.9973966 -0.0378753 0.0026034 0.0378753 0.0026034 0.0378753 0.9973966 -0.0378753
25777 0.9972018 -0.0395701 0.0027982 0.0395701 0.0027982 0.0395701 0.9972018 -0.0395701
26957 0.9969910 -0.0413390 0.0030090 0.0413390 0.0030090 0.0413390 0.9969910 -0.0413390
28191 0.9967628 -0.0431852 0.0032372 0.0431852 0.0032372 0.0431852 0.9967628 -0.0431852
29482 0.9965158 -0.0451117 0.0034842 0.0451117 0.0034842 0.0451117 0.9965158 -0.0451117
30832 0.9962488 -0.0471217 0.0037512 0.0471217 0.0037512 0.0471217 0.9962488 -0.0471217
32244 0.9959600 -0.0492186 0.0040400 0.0492186 0.0040400 0.0492186 0.9959600 -0.0492186
33721 0.9956478 -0.0514060 0.0043522 0.0514060 0.0043522 0.0514060 0.9956478 -0.0514060
35265 0.9953105 -0.0536873 0.0046895 0.0536873 0.0046895 0.0536873 0.9953105 -0.0536873
36880 0.9949463 -0.0560664 0.0050537 0.0560664 0.0050537 0.0560664 0.9949463 -0.0560664
38569 0.9945530 -0.0585472 0.0054470 0.0585472 0.0054470 0.0585472 0.9945530 -0.0585472
40335 0.9941286 -0.0611336 0.0058714 0.0611336 0.0058714 0.0611336 0.9941286 -0.0611336
42182 0.9936707 -0.0638300 0.0063293 0.0638300 0.0063293 0.0638300 0.9936707 -0.0638300
44113 0.9931768 -0.0666406 0.0068232 0.0666406 0.0068232 0.0666406 0.9931768 -0.0666406
46134 0.9926442 -0.0695700 0.0073558 0.0695700 0.0073558 0.0695700 0.9926442 -0.0695700
48246 0.9920700 -0.0726230 0.0079300 0.0726230 0.0079300 0.0726230 0.9920700 -0.0726230
50455 0.9914509 -0.0758044 0.0085491 0.0758044 0.0085491 0.0758044 0.9914509 -0.0758044
52766 0.9907836 -0.0791192 0.0092164 0.0791192 0.0092164 0.0791192 0.9907836 -0.0791192
55182 0.9900643 -0.0825728 0.0099357 0.0825728 0.0099357 0.0825728 0.9900643 -0.0825728
57709 0.9892890 -0.0861705 0.0107110 0.0861705 0.0107110 0.0861705 0.9892890 -0.0861705
60352 0.9884531 -0.0899180 0.0115469 0.0899180 0.0115469 0.0899180 0.9884531 -0.0899180
63115 0.9875518 -0.0938209 0.0124482 0.0938209 0.0124482 0.0938209 0.9875518 -0.0938209
66005 0.9865798 -0.0978853 0.0134202 0.0978853 0.0134202 0.0978853 0.9865798 -0.0978853
69028 0.9855314 -0.1021170 0.0144686 0.1021170 0.0144686 0.1021170 0.9855314 -0.1021170
72189 0.9844001 -0.1065223 0.0155999 0.1065223 0.0155999 0.1065223 0.9844001 -0.1065223
75495 0.9831791 -0.1111073 0.0168209 0.1111073 0.0168209 0.1111073 0.9831791 -0.1111073
78952 0.9818610 -0.1158782 0.0181390 0.1158782 0.0181390 0.1158782 0.9818610 -0.1158782
82567 0.9804375 -0.1208413 0.0195625 0.1208413 0.0195625 0.1208413 0.9804375 -0.1208413
86348 0.9788998 -0.1260028 0.0211002 0.1260028 0.0211002 0.1260028 0.9788998 -0.1260028
90302 0.9772383 -0.1313688 0.0227617 0.1313688 0.0227617 0.1313688 0.9772383 -0.1313688
94437 0.9754427 -0.1369451 0.0245573 0.1369451 0.0245573 0.1369451 0.9754427 -0.1369451
98762 0.9735017 -0.1427375 0.0264983 0.1427375 0.0264983 0.1427375 0.9735017 -0.1427375
103284 0.9714033 -0.1487514 0.0285967 0.1487514 0.0285967 0.1487514 0.9714033 -0.1487514
108014 0.9691345 -0.1549918 0.0308655 0.1549918 0.0308655 0.1549918 0.9691345 -0.1549918
112960 0.9666816 -0.1614634 0.0333184 0.1614634 0.0333184 0.1614634 0.9666816 -0.1614634
118133 0.9640297 -0.1681700 0.0359703 0.1681700 0.0359703 0.1681700 0.9640297 -0.1681700
123542 0.9611630 -0.1751152 0.0388370 0.1751152 0.0388370 0.1751152 0.9611630 -0.1751152
129199 0.9580649 -0.1823013 0.0419351 0.1823013 0.0419351 0.1823013 0.9580649 -0.1823013
135116 0.9547177 -0.1897302 0.0452823 0.1897302 0.0452823 0.1897302 0.9547177 -0.1897302
141303 0.9511028 -0.1974023 0.0488972 0.1974023 0.0488972 0.1974023 0.9511028 -0.1974023
147774 0.9472004 -0.2053173 0.0527996 0.2053173 0.0527996 0.2053173 0.9472004 -0.2053173
154540 0.9429902 -0.2134732 0.0570098 0.2134732 0.0570098 0.2134732 0.9429902 -0.2134732
161617 0.9384508 -0.2218668 0.0615492 0.2218668 0.0615492 0.2218668 0.9384508 -0.2218668
169018 0.9335599 -0.2304931 0.0664401 0.2304931 0.0664401 0.2304931 0.9335599 -0.2304931
176758 0.9282948 -0.2393453 0.0717052 0.2393453 0.0717052 0.2393453 0.9282948 -0.2393453
184852 0.9226318 -0.2484147 0.0773682 0.2484147 0.0773682 0.2484147 0.9226318 -0.2484147
193316 0.9165471 -0.2576905 0.0834529 0.2576905 0.0834529 0.2576905 0.9165471 -0.2576905
202169 0.9100163 -0.2671596 0.0899837 0.2671596 0.0899837 0.2671596 0.9100163 -0.2671596
211427 0.9030149 -0.2768063 0.0969851 0.2768063 0.0969851 0.2768063 0.9030149 -0.2768063
221108 0.8955185 -0.2866123 0.1044815 0.2866123 0.1044815 0.2866123 0.8955185 -0.2866123
231233 0.8875030 -0.2965567 0.1124970 0.2965567 0.1124970 0.2965567 0.8875030 -0.2965567
241822 0.8789449 -0.3066153 0.1210551 0.3066153 0.1210551 0.3066153 0.8789449 -0.3066153
252896 0.8698215 -0.3167614 0.1301785 0.3167614 0.1301785 0.3167614 0.8698215 -0.3167614
264476 0.8601113 -0.3269647 0.1398887 0.3269647 0.1398887 0.3269647 0.8601113 -0.3269647
276587 0.8497945 -0.3371920 0.1502055 0.3371920 0.1502055 0.3371920 0.8497945 -0.3371920
289253 0.8388533 -0.3474068 0.1611467 0.3474068 0.1611467 0.3474068 0.8388533 -0.3474068
302498 0.8272722 -0.3575696 0.1727278 0.3575696 0.1727278 0.3575696 0.8272722 -0.3575696
316350 0.8150387 -0.3676379 0.1849613 0.3676379 0.1849613 0.3676379 0.8150387 -0.3676379
330837 0.8021437 -0.3775660 0.1978563 0.3775660 0.1978563 0.3775660 0.8021437 -0.3775660
345986 0.7885817 -0.3873058 0.2114183 0.3873058 0.2114183 0.3873058 0.7885817 -0.3873058
361830 0.7743517 -0.3968070 0.2256483 0.3968070 0.2256483 0.3968070 0.7743517 -0.3968070
378399 0.7594574 -0.4060172 0.2405426 0.4060172 0.2405426 0.4060172 0.7594574 -0.4060172
395726 0.7439077 -0.4148824 0.2560923 0.4148824 0.2560923 0.4148824 0.7439077 -0.4148824
413847 0.7277170 -0.4233481 0.2722830 0.4233481 0.2722830 0.4233481 0.7277170 -0.4233481
432798 0.7109057 -0.4313592 0.2890943 0.4313592 0.2890943 0.4313592 0.7109057 -0.4313592
452617 0.6935000 -0.4388614 0.3065000 0.4388614 0.3065000 0.4388614 0.6935000 -0.4388614
473344 0.6755325 -0.4458016 0.3244675 0.4458016 0.3244675 0.4458016 0.6755325 -0.4458016
495019 0.6570419 -0.4521288 0.3429581 0.4521288 0.3429581 0.4521288 0.6570419 -0.4521288
517687 0.6380730 -0.4577949 0.3619270 0.4577949 0.3619270 0.4577949 0.6380730 -0.4577949
541393 0.6186761 -0.4627559 0.3813239 0.4627559 0.3813239 0.4627559 0.6186761 -0.4627559
566185 0.5989070 -0.4669723 0.4010930 0.4669723 0.4010930 0.4669723 0.5989070 -0.4669723
592111 0.5788262 -0.4704101 0.4211738 0.4704101 0.4211738 0.4704101 0.5788262 -0.4704101
619225 0.5584982 -0.4730412 0.4415018 0.4730412 0.4415018 0.4730412 0.5584982 -0.4730412
647581 0.5379905 -0.4748446 0.4620095 0.4748446 0.4620095 0.4748446 0.5379905 -0.4748446
677235 0.5173732 -0.4758058 0.4826268 0.4758058 0.4826268 0.4758058 0.5173732 -0.4758058
708247 0.4967174 -0.4759183 0.5032826 0.4759183 0.5032826 0.4759183 0.4967174 -0.4759183
740679 0.4760947 -0.4751826 0.5239053 0.4751826 0.5239053 0.4751826 0.4760947 -0.4751826
774597 0.4555757 -0.4736067 0.5444243 0.4736067 0.5444243 0.4736067 0.4555757 -0.4736067
810067 0.4352297 -0.4712059 0.5647703 0.4712059 0.5647703 0.4712059 0.4352297 -0.4712059
847162 0.4151229 -0.4680021 0.5848771 0.4680021 0.5848771 0.4680021 0.4151229 -0.4680021
885955 0.3953186 -0.4640239 0.6046814 0.4640239 0.6046814 0.4640239 0.3953186 -0.4640239
926525 0.3758755 -0.4593050 0.6241245 0.4593050 0.6241245 0.4593050 0.3758755 -0.4593050
968953 0.3568479 -0.4538846 0.6431521 0.4538846 0.6431521 0.4538846 0.3568479 -0.4538846
1013323 0.3382845 -0.4478059 0.6617155 0.4478059 0.6617155 0.4478059 0.3382845 -0.4478059
1059725 0.3202289 -0.4411155 0.6797711 0.4411155 0.6797711 0.4411155 0.3202289 -0.4411155
1108252 0.3027186 -0.4338629 0.6972814 0.4338629 0.6972814 0.4338629 0.3027186 -0.4338629
1159002 0.2857856 -0.4260993 0.7142144 0.4260993 0.7142144 0.4260993 0.2857856 -0.4260993
1212075 0.2694558 -0.4178770 0.7305442 0.4178770 0.7305442 0.4178770 0.2694558 -0.4178770
1267578 0.2537498 -0.4092489 0.7462502 0.4092489 0.7462502 0.4092489 0.2537498 -0.4092489
1325623 0.2386825 -0.4002677 0.7613175 0.4002677 0.7613175 0.4002677 0.2386825 -0.4002677
1386327 0.2242637 -0.3909853 0.7757363 0.3909853 0.7757363 0.3909853 0.2242637 -0.3909853
1449809 0.2104983 -0.3814524 0.7895017 0.3814524 0.7895017 0.3814524 0.2104983 -0.3814524
1516199 0.1973868 -0.3717181 0.8026132 0.3717181 0.8026132 0.3717181 0.1973868 -0.3717181
1585629 0.1849254 -0.3618293 0.8150746 0.3618293 0.8150746 0.3618293 0.1849254 -0.3618293
1658239 0.1731069 -0.3518307 0.8268931 0.3518307 0.8268931 0.3518307 0.1731069 -0.3518307
1734173 0.1619205 -0.3417645 0.8380795 0.3417645 0.8380795 0.3417645 0.1619205 -0.3417645
1813585 0.1513526 -0.3316700 0.8486474 0.3316700 0.8486474 0.3316700 0.1513526 -0.3316700
1896632 0.1413872 -0.3215839 0.8586128 0.3215839 0.8586128 0.3215839 0.1413872 -0.3215839
1983483 0.1320060 -0.3115396 0.8679940 0.3115396 0.8679940 0.3115396 0.1320060 -0.3115396
2074311 0.1231892 -0.3015678 0.8768108 0.3015678 0.8768108 0.3015678 0.1231892 -0.3015678
