!Murata Part Number: GRM022B30J681KE19
!These Parameters are Measured in Series Mode Connection
!Data Generated on Mar 30, 2021
!       o--ll--o
!Port1            Port2
!       o------o
!Operation Temp=25[degC], DC Bias Voltage=0[V]
!Freq. Start=100[Hz] Stop=6[GHz] 401[Steps]
# Hz S RI R 50
!Freq.(Hz) S11(Real) S11(Imag) S21(Real) S21(Imag) S12(Real) S12(Imag) S22(Real) S22(Imag)
100 0.9999993 -0.0000358 0.0000007 0.0000358 0.0000007 0.0000358 0.9999993 -0.0000358
105 0.9999992 -0.0000374 0.0000008 0.0000374 0.0000008 0.0000374 0.9999992 -0.0000374
109 0.9999992 -0.0000391 0.0000008 0.0000391 0.0000008 0.0000391 0.9999992 -0.0000391
114 0.9999992 -0.0000408 0.0000008 0.0000408 0.0000008 0.0000408 0.9999992 -0.0000408
120 0.9999991 -0.0000427 0.0000009 0.0000427 0.0000009 0.0000427 0.9999991 -0.0000427
125 0.9999991 -0.0000446 0.0000009 0.0000446 0.0000009 0.0000446 0.9999991 -0.0000446
131 0.9999991 -0.0000466 0.0000009 0.0000466 0.0000009 0.0000466 0.9999991 -0.0000466
137 0.9999990 -0.0000487 0.0000010 0.0000487 0.0000010 0.0000487 0.9999990 -0.0000487
143 0.9999990 -0.0000509 0.0000010 0.0000509 0.0000010 0.0000509 0.9999990 -0.0000509
150 0.9999990 -0.0000532 0.0000010 0.0000532 0.0000010 0.0000532 0.9999990 -0.0000532
156 0.9999989 -0.0000556 0.0000011 0.0000556 0.0000011 0.0000556 0.9999989 -0.0000556
164 0.9999989 -0.0000581 0.0000011 0.0000581 0.0000011 0.0000581 0.9999989 -0.0000581
171 0.9999989 -0.0000608 0.0000011 0.0000608 0.0000011 0.0000608 0.9999989 -0.0000608
179 0.9999988 -0.0000635 0.0000012 0.0000635 0.0000012 0.0000635 0.9999988 -0.0000635
187 0.9999988 -0.0000664 0.0000012 0.0000664 0.0000012 0.0000664 0.9999988 -0.0000664
196 0.9999987 -0.0000694 0.0000013 0.0000694 0.0000013 0.0000694 0.9999987 -0.0000694
205 0.9999987 -0.0000726 0.0000013 0.0000726 0.0000013 0.0000726 0.9999987 -0.0000726
214 0.9999986 -0.0000759 0.0000014 0.0000759 0.0000014 0.0000759 0.9999986 -0.0000759
224 0.9999986 -0.0000793 0.0000014 0.0000793 0.0000014 0.0000793 0.9999986 -0.0000793
234 0.9999985 -0.0000829 0.0000015 0.0000829 0.0000015 0.0000829 0.9999985 -0.0000829
245 0.9999985 -0.0000867 0.0000015 0.0000867 0.0000015 0.0000867 0.9999985 -0.0000867
256 0.9999984 -0.0000906 0.0000016 0.0000906 0.0000016 0.0000906 0.9999984 -0.0000906
268 0.9999983 -0.0000947 0.0000017 0.0000947 0.0000017 0.0000947 0.9999983 -0.0000947
280 0.9999983 -0.0000990 0.0000017 0.0000990 0.0000017 0.0000990 0.9999983 -0.0000990
293 0.9999982 -0.0001035 0.0000018 0.0001035 0.0000018 0.0001035 0.9999982 -0.0001035
306 0.9999981 -0.0001082 0.0000019 0.0001082 0.0000019 0.0001082 0.9999981 -0.0001082
320 0.9999980 -0.0001131 0.0000020 0.0001131 0.0000020 0.0001131 0.9999980 -0.0001131
335 0.9999979 -0.0001182 0.0000021 0.0001182 0.0000021 0.0001182 0.9999979 -0.0001182
350 0.9999978 -0.0001236 0.0000022 0.0001236 0.0000022 0.0001236 0.9999978 -0.0001236
366 0.9999977 -0.0001292 0.0000023 0.0001292 0.0000023 0.0001292 0.9999977 -0.0001292
383 0.9999976 -0.0001351 0.0000024 0.0001351 0.0000024 0.0001351 0.9999976 -0.0001351
401 0.9999974 -0.0001412 0.0000026 0.0001412 0.0000026 0.0001412 0.9999974 -0.0001412
419 0.9999973 -0.0001476 0.0000027 0.0001476 0.0000027 0.0001476 0.9999973 -0.0001476
438 0.9999972 -0.0001543 0.0000028 0.0001543 0.0000028 0.0001543 0.9999972 -0.0001543
458 0.9999970 -0.0001613 0.0000030 0.0001613 0.0000030 0.0001613 0.9999970 -0.0001613
479 0.9999968 -0.0001686 0.0000032 0.0001686 0.0000032 0.0001686 0.9999968 -0.0001686
501 0.9999967 -0.0001763 0.0000033 0.0001763 0.0000033 0.0001763 0.9999967 -0.0001763
524 0.9999965 -0.0001842 0.0000035 0.0001842 0.0000035 0.0001842 0.9999965 -0.0001842
548 0.9999963 -0.0001926 0.0000037 0.0001926 0.0000037 0.0001926 0.9999963 -0.0001926
573 0.9999961 -0.0002013 0.0000039 0.0002013 0.0000039 0.0002013 0.9999961 -0.0002013
600 0.9999959 -0.0002104 0.0000041 0.0002104 0.0000041 0.0002104 0.9999959 -0.0002104
627 0.9999956 -0.0002199 0.0000044 0.0002199 0.0000044 0.0002199 0.9999956 -0.0002199
656 0.9999954 -0.0002298 0.0000046 0.0002298 0.0000046 0.0002298 0.9999954 -0.0002298
686 0.9999951 -0.0002402 0.0000049 0.0002402 0.0000049 0.0002402 0.9999951 -0.0002402
717 0.9999949 -0.0002511 0.0000051 0.0002511 0.0000051 0.0002511 0.9999949 -0.0002511
750 0.9999946 -0.0002624 0.0000054 0.0002624 0.0000054 0.0002624 0.9999946 -0.0002624
784 0.9999943 -0.0002742 0.0000057 0.0002742 0.0000057 0.0002742 0.9999943 -0.0002742
820 0.9999940 -0.0002866 0.0000060 0.0002866 0.0000060 0.0002866 0.9999940 -0.0002866
858 0.9999937 -0.0002995 0.0000063 0.0002995 0.0000063 0.0002995 0.9999937 -0.0002995
897 0.9999934 -0.0003130 0.0000066 0.0003130 0.0000066 0.0003130 0.9999934 -0.0003130
938 0.9999930 -0.0003271 0.0000070 0.0003271 0.0000070 0.0003271 0.9999930 -0.0003271
981 0.9999927 -0.0003418 0.0000073 0.0003418 0.0000073 0.0003418 0.9999927 -0.0003418
1026 0.9999923 -0.0003572 0.0000077 0.0003572 0.0000077 0.0003572 0.9999923 -0.0003572
1073 0.9999920 -0.0003733 0.0000080 0.0003733 0.0000080 0.0003733 0.9999920 -0.0003733
1122 0.9999916 -0.0003902 0.0000084 0.0003902 0.0000084 0.0003902 0.9999916 -0.0003902
1174 0.9999912 -0.0004077 0.0000088 0.0004077 0.0000088 0.0004077 0.9999912 -0.0004077
1227 0.9999908 -0.0004261 0.0000092 0.0004261 0.0000092 0.0004261 0.9999908 -0.0004261
1283 0.9999904 -0.0004453 0.0000096 0.0004453 0.0000096 0.0004453 0.9999904 -0.0004453
1342 0.9999900 -0.0004654 0.0000100 0.0004654 0.0000100 0.0004654 0.9999900 -0.0004654
1404 0.9999895 -0.0004864 0.0000105 0.0004864 0.0000105 0.0004864 0.9999895 -0.0004864
1468 0.9999891 -0.0005083 0.0000109 0.0005083 0.0000109 0.0005083 0.9999891 -0.0005083
1535 0.9999886 -0.0005312 0.0000114 0.0005312 0.0000114 0.0005312 0.9999886 -0.0005312
1606 0.9999881 -0.0005552 0.0000119 0.0005552 0.0000119 0.0005552 0.9999881 -0.0005552
1679 0.9999876 -0.0005803 0.0000124 0.0005803 0.0000124 0.0005803 0.9999876 -0.0005803
1756 0.9999871 -0.0006065 0.0000129 0.0006065 0.0000129 0.0006065 0.9999871 -0.0006065
1836 0.9999866 -0.0006339 0.0000134 0.0006339 0.0000134 0.0006339 0.9999866 -0.0006339
1920 0.9999860 -0.0006625 0.0000140 0.0006625 0.0000140 0.0006625 0.9999860 -0.0006625
2008 0.9999854 -0.0006925 0.0000146 0.0006925 0.0000146 0.0006925 0.9999854 -0.0006925
2100 0.9999848 -0.0007238 0.0000152 0.0007238 0.0000152 0.0007238 0.9999848 -0.0007238
2196 0.9999842 -0.0007566 0.0000158 0.0007566 0.0000158 0.0007566 0.9999842 -0.0007566
2297 0.9999835 -0.0007908 0.0000165 0.0007908 0.0000165 0.0007908 0.9999835 -0.0007908
2402 0.9999827 -0.0008266 0.0000173 0.0008266 0.0000173 0.0008266 0.9999827 -0.0008266
2512 0.9999820 -0.0008641 0.0000180 0.0008641 0.0000180 0.0008641 0.9999820 -0.0008641
2627 0.9999811 -0.0009032 0.0000189 0.0009032 0.0000189 0.0009032 0.9999811 -0.0009032
2748 0.9999803 -0.0009441 0.0000197 0.0009441 0.0000197 0.0009441 0.9999803 -0.0009441
2873 0.9999793 -0.0009869 0.0000207 0.0009869 0.0000207 0.0009869 0.9999793 -0.0009869
3005 0.9999783 -0.0010317 0.0000217 0.0010317 0.0000217 0.0010317 0.9999783 -0.0010317
3143 0.9999773 -0.0010784 0.0000227 0.0010784 0.0000227 0.0010784 0.9999773 -0.0010784
3287 0.9999761 -0.0011273 0.0000239 0.0011273 0.0000239 0.0011273 0.9999761 -0.0011273
3437 0.9999749 -0.0011784 0.0000251 0.0011784 0.0000251 0.0011784 0.9999749 -0.0011784
3594 0.9999736 -0.0012318 0.0000264 0.0012318 0.0000264 0.0012318 0.9999736 -0.0012318
3759 0.9999721 -0.0012877 0.0000279 0.0012877 0.0000279 0.0012877 0.9999721 -0.0012877
3931 0.9999706 -0.0013460 0.0000294 0.0013460 0.0000294 0.0013460 0.9999706 -0.0013460
4111 0.9999690 -0.0014070 0.0000310 0.0014070 0.0000310 0.0014070 0.9999690 -0.0014070
4299 0.9999673 -0.0014707 0.0000327 0.0014707 0.0000327 0.0014707 0.9999673 -0.0014707
4496 0.9999654 -0.0015373 0.0000346 0.0015373 0.0000346 0.0015373 0.9999654 -0.0015373
4702 0.9999634 -0.0016069 0.0000366 0.0016069 0.0000366 0.0016069 0.9999634 -0.0016069
4918 0.9999612 -0.0016797 0.0000388 0.0016797 0.0000388 0.0016797 0.9999612 -0.0016797
5143 0.9999590 -0.0017556 0.0000410 0.0017556 0.0000410 0.0017556 0.9999590 -0.0017556
5378 0.9999565 -0.0018350 0.0000435 0.0018350 0.0000435 0.0018350 0.9999565 -0.0018350
5625 0.9999539 -0.0019180 0.0000461 0.0019180 0.0000461 0.0019180 0.9999539 -0.0019180
5882 0.9999511 -0.0020046 0.0000489 0.0020046 0.0000489 0.0020046 0.9999511 -0.0020046
6151 0.9999481 -0.0020951 0.0000519 0.0020951 0.0000519 0.0020951 0.9999481 -0.0020951
6433 0.9999450 -0.0021897 0.0000550 0.0021897 0.0000550 0.0021897 0.9999450 -0.0021897
6728 0.9999416 -0.0022884 0.0000584 0.0022884 0.0000584 0.0022884 0.9999416 -0.0022884
7036 0.9999381 -0.0023916 0.0000619 0.0023916 0.0000619 0.0023916 0.9999381 -0.0023916
7358 0.9999343 -0.0024993 0.0000657 0.0024993 0.0000657 0.0024993 0.9999343 -0.0024993
7695 0.9999304 -0.0026119 0.0000696 0.0026119 0.0000696 0.0026119 0.9999304 -0.0026119
8047 0.9999262 -0.0027294 0.0000738 0.0027294 0.0000738 0.0027294 0.9999262 -0.0027294
8416 0.9999218 -0.0028522 0.0000782 0.0028522 0.0000782 0.0028522 0.9999218 -0.0028522
8801 0.9999172 -0.0029805 0.0000828 0.0029805 0.0000828 0.0029805 0.9999172 -0.0029805
9204 0.9999123 -0.0031144 0.0000877 0.0031144 0.0000877 0.0031144 0.9999123 -0.0031144
9626 0.9999072 -0.0032543 0.0000928 0.0032543 0.0000928 0.0032543 0.9999072 -0.0032543
10066 0.9999018 -0.0034005 0.0000982 0.0034005 0.0000982 0.0034005 0.9999018 -0.0034005
10527 0.9998962 -0.0035531 0.0001038 0.0035531 0.0001038 0.0035531 0.9998962 -0.0035531
11009 0.9998904 -0.0037126 0.0001096 0.0037126 0.0001096 0.0037126 0.9998904 -0.0037126
11514 0.9998843 -0.0038792 0.0001157 0.0038792 0.0001157 0.0038792 0.9998843 -0.0038792
12041 0.9998779 -0.0040533 0.0001221 0.0040533 0.0001221 0.0040533 0.9998779 -0.0040533
12592 0.9998712 -0.0042352 0.0001288 0.0042352 0.0001288 0.0042352 0.9998712 -0.0042352
13169 0.9998642 -0.0044252 0.0001358 0.0044252 0.0001358 0.0044252 0.9998642 -0.0044252
13772 0.9998569 -0.0046238 0.0001431 0.0046238 0.0001431 0.0046238 0.9998569 -0.0046238
14402 0.9998493 -0.0048313 0.0001507 0.0048313 0.0001507 0.0048313 0.9998493 -0.0048313
15062 0.9998413 -0.0050481 0.0001587 0.0050481 0.0001587 0.0050481 0.9998413 -0.0050481
15752 0.9998329 -0.0052748 0.0001671 0.0052748 0.0001671 0.0052748 0.9998329 -0.0052748
16473 0.9998241 -0.0055116 0.0001759 0.0055116 0.0001759 0.0055116 0.9998241 -0.0055116
17227 0.9998149 -0.0057592 0.0001851 0.0057592 0.0001851 0.0057592 0.9998149 -0.0057592
18016 0.9998052 -0.0060180 0.0001948 0.0060180 0.0001948 0.0060180 0.9998052 -0.0060180
18841 0.9997949 -0.0062885 0.0002051 0.0062885 0.0002051 0.0062885 0.9997949 -0.0062885
19704 0.9997840 -0.0065713 0.0002160 0.0065713 0.0002160 0.0065713 0.9997840 -0.0065713
20606 0.9997726 -0.0068669 0.0002274 0.0068669 0.0002274 0.0068669 0.9997726 -0.0068669
21550 0.9997604 -0.0071759 0.0002396 0.0071759 0.0002396 0.0071759 0.9997604 -0.0071759
22537 0.9997474 -0.0074989 0.0002526 0.0074989 0.0002526 0.0074989 0.9997474 -0.0074989
23569 0.9997336 -0.0078366 0.0002664 0.0078366 0.0002664 0.0078366 0.9997336 -0.0078366
24648 0.9997189 -0.0081895 0.0002811 0.0081895 0.0002811 0.0081895 0.9997189 -0.0081895
25777 0.9997032 -0.0085585 0.0002968 0.0085585 0.0002968 0.0085585 0.9997032 -0.0085585
26957 0.9996863 -0.0089441 0.0003137 0.0089441 0.0003137 0.0089441 0.9996863 -0.0089441
28191 0.9996683 -0.0093473 0.0003317 0.0093473 0.0003317 0.0093473 0.9996683 -0.0093473
29482 0.9996490 -0.0097686 0.0003510 0.0097686 0.0003510 0.0097686 0.9996490 -0.0097686
30832 0.9996282 -0.0102090 0.0003718 0.0102090 0.0003718 0.0102090 0.9996282 -0.0102090
32244 0.9996059 -0.0106692 0.0003941 0.0106692 0.0003941 0.0106692 0.9996059 -0.0106692
33721 0.9995819 -0.0111502 0.0004181 0.0111502 0.0004181 0.0111502 0.9995819 -0.0111502
35265 0.9995561 -0.0116528 0.0004439 0.0116528 0.0004439 0.0116528 0.9995561 -0.0116528
36880 0.9995283 -0.0121780 0.0004717 0.0121780 0.0004717 0.0121780 0.9995283 -0.0121780
38569 0.9994984 -0.0127267 0.0005016 0.0127267 0.0005016 0.0127267 0.9994984 -0.0127267
40335 0.9994663 -0.0133001 0.0005337 0.0133001 0.0005337 0.0133001 0.9994663 -0.0133001
42182 0.9994316 -0.0138991 0.0005684 0.0138991 0.0005684 0.0138991 0.9994316 -0.0138991
44113 0.9993944 -0.0145248 0.0006056 0.0145248 0.0006056 0.0145248 0.9993944 -0.0145248
46134 0.9993542 -0.0151785 0.0006458 0.0151785 0.0006458 0.0151785 0.9993542 -0.0151785
48246 0.9993111 -0.0158613 0.0006889 0.0158613 0.0006889 0.0158613 0.9993111 -0.0158613
50455 0.9992647 -0.0165745 0.0007353 0.0165745 0.0007353 0.0165745 0.9992647 -0.0165745
52766 0.9992148 -0.0173193 0.0007852 0.0173193 0.0007852 0.0173193 0.9992148 -0.0173193
55182 0.9991612 -0.0180972 0.0008388 0.0180972 0.0008388 0.0180972 0.9991612 -0.0180972
57709 0.9991036 -0.0189096 0.0008964 0.0189096 0.0008964 0.0189096 0.9991036 -0.0189096
60352 0.9990418 -0.0197580 0.0009582 0.0197580 0.0009582 0.0197580 0.9990418 -0.0197580
63115 0.9989755 -0.0206439 0.0010245 0.0206439 0.0010245 0.0206439 0.9989755 -0.0206439
66005 0.9989044 -0.0215690 0.0010956 0.0215690 0.0010956 0.0215690 0.9989044 -0.0215690
69028 0.9988281 -0.0225349 0.0011719 0.0225349 0.0011719 0.0225349 0.9988281 -0.0225349
72189 0.9987464 -0.0235436 0.0012536 0.0235436 0.0012536 0.0235436 0.9987464 -0.0235436
75495 0.9986587 -0.0245968 0.0013413 0.0245968 0.0013413 0.0245968 0.9986587 -0.0245968
78952 0.9985649 -0.0256966 0.0014351 0.0256966 0.0014351 0.0256966 0.9985649 -0.0256966
82567 0.9984642 -0.0268449 0.0015358 0.0268449 0.0015358 0.0268449 0.9984642 -0.0268449
86348 0.9983564 -0.0280441 0.0016436 0.0280441 0.0016436 0.0280441 0.9983564 -0.0280441
90302 0.9982409 -0.0292962 0.0017591 0.0292962 0.0017591 0.0292962 0.9982409 -0.0292962
94437 0.9981171 -0.0306038 0.0018829 0.0306038 0.0018829 0.0306038 0.9981171 -0.0306038
98762 0.9979843 -0.0319693 0.0020157 0.0319693 0.0020157 0.0319693 0.9979843 -0.0319693
103284 0.9978418 -0.0333952 0.0021582 0.0333952 0.0021582 0.0333952 0.9978418 -0.0333952
108014 0.9976889 -0.0348844 0.0023111 0.0348844 0.0023111 0.0348844 0.9976889 -0.0348844
112960 0.9975247 -0.0364396 0.0024753 0.0364396 0.0024753 0.0364396 0.9975247 -0.0364396
118133 0.9973482 -0.0380638 0.0026518 0.0380638 0.0026518 0.0380638 0.9973482 -0.0380638
123542 0.9971584 -0.0397600 0.0028416 0.0397600 0.0028416 0.0397600 0.9971584 -0.0397600
129199 0.9969541 -0.0415315 0.0030459 0.0415315 0.0030459 0.0415315 0.9969541 -0.0415315
135116 0.9967341 -0.0433816 0.0032659 0.0433816 0.0032659 0.0433816 0.9967341 -0.0433816
141303 0.9964968 -0.0453137 0.0035032 0.0453137 0.0035032 0.0453137 0.9964968 -0.0453137
147774 0.9962408 -0.0473315 0.0037592 0.0473315 0.0037592 0.0473315 0.9962408 -0.0473315
154540 0.9959644 -0.0494385 0.0040356 0.0494385 0.0040356 0.0494385 0.9959644 -0.0494385
161617 0.9956657 -0.0516387 0.0043343 0.0516387 0.0043343 0.0516387 0.9956657 -0.0516387
169018 0.9953428 -0.0539359 0.0046572 0.0539359 0.0046572 0.0539359 0.9953428 -0.0539359
176758 0.9949933 -0.0563342 0.0050067 0.0563342 0.0050067 0.0563342 0.9949933 -0.0563342
184852 0.9946149 -0.0588379 0.0053851 0.0588379 0.0053851 0.0588379 0.9946149 -0.0588379
193316 0.9942050 -0.0614512 0.0057950 0.0614512 0.0057950 0.0614512 0.9942050 -0.0614512
202169 0.9937608 -0.0641784 0.0062392 0.0641784 0.0062392 0.0641784 0.9937608 -0.0641784
211427 0.9932792 -0.0670242 0.0067208 0.0670242 0.0067208 0.0670242 0.9932792 -0.0670242
221108 0.9927569 -0.0699932 0.0072431 0.0699932 0.0072431 0.0699932 0.9927569 -0.0699932
231233 0.9921904 -0.0730900 0.0078096 0.0730900 0.0078096 0.0730900 0.9921904 -0.0730900
241822 0.9915757 -0.0763195 0.0084243 0.0763195 0.0084243 0.0763195 0.9915757 -0.0763195
252896 0.9909088 -0.0796866 0.0090912 0.0796866 0.0090912 0.0796866 0.9909088 -0.0796866
264476 0.9901852 -0.0831961 0.0098148 0.0831961 0.0098148 0.0831961 0.9901852 -0.0831961
276587 0.9894002 -0.0868533 0.0105998 0.0868533 0.0105998 0.0868533 0.9894002 -0.0868533
289253 0.9885485 -0.0906631 0.0114515 0.0906631 0.0114515 0.0906631 0.9885485 -0.0906631
302498 0.9876247 -0.0946306 0.0123753 0.0946306 0.0123753 0.0946306 0.9876247 -0.0946306
316350 0.9866230 -0.0987611 0.0133770 0.0987611 0.0133770 0.0987611 0.9866230 -0.0987611
330837 0.9855370 -0.1030596 0.0144630 0.1030596 0.0144630 0.1030596 0.9855370 -0.1030596
345986 0.9843600 -0.1075314 0.0156400 0.1075314 0.0156400 0.1075314 0.9843600 -0.1075314
361830 0.9830849 -0.1121815 0.0169151 0.1121815 0.0169151 0.1121815 0.9830849 -0.1121815
378399 0.9817040 -0.1170151 0.0182960 0.1170151 0.0182960 0.1170151 0.9817040 -0.1170151
395726 0.9802092 -0.1220373 0.0197908 0.1220373 0.0197908 0.1220373 0.9802092 -0.1220373
413847 0.9785919 -0.1272529 0.0214081 0.1272529 0.0214081 0.1272529 0.9785919 -0.1272529
432798 0.9768427 -0.1326668 0.0231573 0.1326668 0.0231573 0.1326668 0.9768427 -0.1326668
452617 0.9749520 -0.1382837 0.0250480 0.1382837 0.0250480 0.1382837 0.9749520 -0.1382837
473344 0.9729094 -0.1441081 0.0270906 0.1441081 0.0270906 0.1441081 0.9729094 -0.1441081
495019 0.9707037 -0.1501444 0.0292963 0.1501444 0.0292963 0.1501444 0.9707037 -0.1501444
517687 0.9683232 -0.1563965 0.0316768 0.1563965 0.0316768 0.1563965 0.9683232 -0.1563965
541393 0.9657554 -0.1628681 0.0342446 0.1628681 0.0342446 0.1628681 0.9657554 -0.1628681
566185 0.9629871 -0.1695627 0.0370129 0.1695627 0.0370129 0.1695627 0.9629871 -0.1695627
592111 0.9600043 -0.1764832 0.0399957 0.1764832 0.0399957 0.1764832 0.9600043 -0.1764832
619225 0.9567918 -0.1836318 0.0432082 0.1836318 0.0432082 0.1836318 0.9567918 -0.1836318
647581 0.9533341 -0.1910105 0.0466659 0.1910105 0.0466659 0.1910105 0.9533341 -0.1910105
677235 0.9496142 -0.1986202 0.0503858 0.1986202 0.0503858 0.1986202 0.9496142 -0.1986202
708247 0.9456145 -0.2064611 0.0543855 0.2064611 0.0543855 0.2064611 0.9456145 -0.2064611
740679 0.9413162 -0.2145325 0.0586838 0.2145325 0.0586838 0.2145325 0.9413162 -0.2145325
774597 0.9366995 -0.2228323 0.0633005 0.2228323 0.0633005 0.2228323 0.9366995 -0.2228323
810067 0.9317438 -0.2313573 0.0682562 0.2313573 0.0682562 0.2313573 0.9317438 -0.2313573
847162 0.9264272 -0.2401026 0.0735728 0.2401026 0.0735728 0.2401026 0.9264272 -0.2401026
885955 0.9207271 -0.2490618 0.0792729 0.2490618 0.0792729 0.2490618 0.9207271 -0.2490618
926525 0.9146201 -0.2582262 0.0853799 0.2582262 0.0853799 0.2582262 0.9146201 -0.2582262
968953 0.9080817 -0.2675851 0.0919183 0.2675851 0.0919183 0.2675851 0.9080817 -0.2675851
1013323 0.9010872 -0.2771255 0.0989128 0.2771255 0.0989128 0.2771255 0.9010872 -0.2771255
1059725 0.8936114 -0.2868314 0.1063886 0.2868314 0.1063886 0.2868314 0.8936114 -0.2868314
1108252 0.8856287 -0.2966841 0.1143713 0.2966841 0.1143713 0.2966841 0.8856287 -0.2966841
1159002 0.8771140 -0.3066618 0.1228860 0.3066618 0.1228860 0.3066618 0.8771140 -0.3066618
1212075 0.8680425 -0.3167391 0.1319575 0.3167391 0.1319575 0.3167391 0.8680425 -0.3167391
1267578 0.8583901 -0.3268874 0.1416099 0.3268874 0.1416099 0.3268874 0.8583901 -0.3268874
1325623 0.8481344 -0.3370743 0.1518656 0.3370743 0.1518656 0.3370743 0.8481344 -0.3370743
1386327 0.8372545 -0.3472637 0.1627455 0.3472637 0.1627455 0.3472637 0.8372545 -0.3472637
1449809 0.8257320 -0.3574159 0.1742680 0.3574159 0.1742680 0.3574159 0.8257320 -0.3574159
1516199 0.8135513 -0.3674875 0.1864487 0.3674875 0.1864487 0.3674875 0.8135513 -0.3674875
1585629 0.8007004 -0.3774316 0.1992996 0.3774316 0.1992996 0.3774316 0.8007004 -0.3774316
1658239 0.7871713 -0.3871982 0.2128287 0.3871982 0.2128287 0.3871982 0.7871713 -0.3871982
1734173 0.7729607 -0.3967344 0.2270393 0.3967344 0.2270393 0.3967344 0.7729607 -0.3967344
1813585 0.7580707 -0.4059850 0.2419293 0.4059850 0.2419293 0.4059850 0.7580707 -0.4059850
1896632 0.7425088 -0.4148928 0.2574912 0.4148928 0.2574912 0.4148928 0.7425088 -0.4148928
1983483 0.7262890 -0.4233998 0.2737110 0.4233998 0.2737110 0.4233998 0.7262890 -0.4233998
2074311 0.7094316 -0.4314476 0.2905684 0.4314476 0.2905684 0.4314476 0.7094316 -0.4314476
