!Murata Part Number: GRM022R60G104ME15
!These Parameters are Measured in Series Mode Connection
!Data Generated on Mar 30, 2021
!       o--ll--o
!Port1            Port2
!       o------o
!Operation Temp=25[degC], DC Bias Voltage=0[V]
!Freq. Start=100[Hz] Stop=6[GHz] 401[Steps]
# Hz S RI R 50
!Freq.(Hz) S11(Real) S11(Imag) S21(Real) S21(Imag) S12(Real) S12(Imag) S22(Real) S22(Imag)
100 0.9999056 -0.0052761 0.0000944 0.0052761 0.0000944 0.0052761 0.9999056 -0.0052761
105 0.9999001 -0.0055154 0.0000999 0.0055154 0.0000999 0.0055154 0.9999001 -0.0055154
109 0.9998942 -0.0057656 0.0001058 0.0057656 0.0001058 0.0057656 0.9998942 -0.0057656
114 0.9998880 -0.0060271 0.0001120 0.0060271 0.0001120 0.0060271 0.9998880 -0.0060271
120 0.9998814 -0.0063005 0.0001186 0.0063005 0.0001186 0.0063005 0.9998814 -0.0063005
125 0.9998744 -0.0065862 0.0001256 0.0065862 0.0001256 0.0065862 0.9998744 -0.0065862
131 0.9998669 -0.0068850 0.0001331 0.0068850 0.0001331 0.0068850 0.9998669 -0.0068850
137 0.9998590 -0.0071973 0.0001410 0.0071973 0.0001410 0.0071973 0.9998590 -0.0071973
143 0.9998505 -0.0075238 0.0001495 0.0075238 0.0001495 0.0075238 0.9998505 -0.0075238
150 0.9998415 -0.0078651 0.0001585 0.0078651 0.0001585 0.0078651 0.9998415 -0.0078651
156 0.9998319 -0.0082220 0.0001681 0.0082220 0.0001681 0.0082220 0.9998319 -0.0082220
164 0.9998216 -0.0085950 0.0001784 0.0085950 0.0001784 0.0085950 0.9998216 -0.0085950
171 0.9998107 -0.0089850 0.0001893 0.0089850 0.0001893 0.0089850 0.9998107 -0.0089850
179 0.9997990 -0.0093928 0.0002010 0.0093928 0.0002010 0.0093928 0.9997990 -0.0093928
187 0.9997865 -0.0098190 0.0002135 0.0098190 0.0002135 0.0098190 0.9997865 -0.0098190
196 0.9997731 -0.0102647 0.0002269 0.0102647 0.0002269 0.0102647 0.9997731 -0.0102647
205 0.9997587 -0.0107307 0.0002413 0.0107307 0.0002413 0.0107307 0.9997587 -0.0107307
214 0.9997433 -0.0112179 0.0002567 0.0112179 0.0002567 0.0112179 0.9997433 -0.0112179
224 0.9997268 -0.0117274 0.0002732 0.0117274 0.0002732 0.0117274 0.9997268 -0.0117274
234 0.9997090 -0.0122600 0.0002910 0.0122600 0.0002910 0.0122600 0.9997090 -0.0122600
245 0.9996899 -0.0128169 0.0003101 0.0128169 0.0003101 0.0128169 0.9996899 -0.0128169
256 0.9996693 -0.0133991 0.0003307 0.0133991 0.0003307 0.0133991 0.9996693 -0.0133991
268 0.9996471 -0.0140079 0.0003529 0.0140079 0.0003529 0.0140079 0.9996471 -0.0140079
280 0.9996231 -0.0146445 0.0003769 0.0146445 0.0003769 0.0146445 0.9996231 -0.0146445
293 0.9995972 -0.0153100 0.0004028 0.0153100 0.0004028 0.0153100 0.9995972 -0.0153100
306 0.9995691 -0.0160059 0.0004309 0.0160059 0.0004309 0.0160059 0.9995691 -0.0160059
320 0.9995388 -0.0167335 0.0004612 0.0167335 0.0004612 0.0167335 0.9995388 -0.0167335
335 0.9995059 -0.0174942 0.0004941 0.0174942 0.0004941 0.0174942 0.9995059 -0.0174942
350 0.9994702 -0.0182895 0.0005298 0.0182895 0.0005298 0.0182895 0.9994702 -0.0182895
366 0.9994315 -0.0191210 0.0005685 0.0191210 0.0005685 0.0191210 0.9994315 -0.0191210
383 0.9993895 -0.0199904 0.0006105 0.0199904 0.0006105 0.0199904 0.9993895 -0.0199904
401 0.9993440 -0.0208992 0.0006560 0.0208992 0.0006560 0.0208992 0.9993440 -0.0208992
419 0.9992944 -0.0218494 0.0007056 0.0218494 0.0007056 0.0218494 0.9992944 -0.0218494
438 0.9992406 -0.0228426 0.0007594 0.0228426 0.0007594 0.0228426 0.9992406 -0.0228426
458 0.9991821 -0.0238809 0.0008179 0.0238809 0.0008179 0.0238809 0.9991821 -0.0238809
479 0.9991186 -0.0249663 0.0008814 0.0249663 0.0008814 0.0249663 0.9991186 -0.0249663
501 0.9990495 -0.0261008 0.0009505 0.0261008 0.0009505 0.0261008 0.9990495 -0.0261008
524 0.9989743 -0.0272866 0.0010257 0.0272866 0.0010257 0.0272866 0.9989743 -0.0272866
548 0.9988926 -0.0285260 0.0011074 0.0285260 0.0011074 0.0285260 0.9988926 -0.0285260
573 0.9988038 -0.0298215 0.0011962 0.0298215 0.0011962 0.0298215 0.9988038 -0.0298215
600 0.9987072 -0.0311753 0.0012928 0.0311753 0.0012928 0.0311753 0.9987072 -0.0311753
627 0.9986022 -0.0325902 0.0013978 0.0325902 0.0013978 0.0325902 0.9986022 -0.0325902
656 0.9984880 -0.0340688 0.0015120 0.0340688 0.0015120 0.0340688 0.9984880 -0.0340688
686 0.9983638 -0.0356140 0.0016362 0.0356140 0.0016362 0.0356140 0.9983638 -0.0356140
717 0.9982289 -0.0372285 0.0017711 0.0372285 0.0017711 0.0372285 0.9982289 -0.0372285
750 0.9980822 -0.0389156 0.0019178 0.0389156 0.0019178 0.0389156 0.9980822 -0.0389156
784 0.9979228 -0.0406784 0.0020772 0.0406784 0.0020772 0.0406784 0.9979228 -0.0406784
820 0.9977496 -0.0425201 0.0022504 0.0425201 0.0022504 0.0425201 0.9977496 -0.0425201
858 0.9975613 -0.0444443 0.0024387 0.0444443 0.0024387 0.0444443 0.9975613 -0.0444443
897 0.9973566 -0.0464546 0.0026434 0.0464546 0.0026434 0.0464546 0.9973566 -0.0464546
938 0.9971343 -0.0485546 0.0028657 0.0485546 0.0028657 0.0485546 0.9971343 -0.0485546
981 0.9968926 -0.0507484 0.0031074 0.0507484 0.0031074 0.0507484 0.9968926 -0.0507484
1026 0.9966300 -0.0530399 0.0033700 0.0530399 0.0033700 0.0530399 0.9966300 -0.0530399
1073 0.9963446 -0.0554335 0.0036554 0.0554335 0.0036554 0.0554335 0.9963446 -0.0554335
1122 0.9960343 -0.0579335 0.0039657 0.0579335 0.0039657 0.0579335 0.9960343 -0.0579335
1174 0.9956971 -0.0605445 0.0043029 0.0605445 0.0043029 0.0605445 0.9956971 -0.0605445
1227 0.9953304 -0.0632713 0.0046696 0.0632713 0.0046696 0.0632713 0.9953304 -0.0632713
1283 0.9949318 -0.0661188 0.0050682 0.0661188 0.0050682 0.0661188 0.9949318 -0.0661188
1342 0.9944983 -0.0690921 0.0055017 0.0690921 0.0055017 0.0690921 0.9944983 -0.0690921
1404 0.9940268 -0.0721965 0.0059732 0.0721965 0.0059732 0.0721965 0.9940268 -0.0721965
1468 0.9935139 -0.0754375 0.0064861 0.0754375 0.0064861 0.0754375 0.9935139 -0.0754375
1535 0.9929559 -0.0788207 0.0070441 0.0788207 0.0070441 0.0788207 0.9929559 -0.0788207
1606 0.9923486 -0.0823519 0.0076514 0.0823519 0.0076514 0.0823519 0.9923486 -0.0823519
1679 0.9916877 -0.0860370 0.0083123 0.0860370 0.0083123 0.0860370 0.9916877 -0.0860370
1756 0.9909684 -0.0898823 0.0090316 0.0898823 0.0090316 0.0898823 0.9909684 -0.0898823
1836 0.9901852 -0.0938939 0.0098148 0.0938939 0.0098148 0.0938939 0.9901852 -0.0938939
1920 0.9893325 -0.0980783 0.0106675 0.0980783 0.0106675 0.0980783 0.9893325 -0.0980783
2008 0.9884041 -0.1024419 0.0115959 0.1024419 0.0115959 0.1024419 0.9884041 -0.1024419
2100 0.9873932 -0.1069914 0.0126068 0.1069914 0.0126068 0.1069914 0.9873932 -0.1069914
2196 0.9862923 -0.1117334 0.0137077 0.1117334 0.0137077 0.1117334 0.9862923 -0.1117334
2297 0.9850935 -0.1166745 0.0149065 0.1166745 0.0149065 0.1166745 0.9850935 -0.1166745
2402 0.9837881 -0.1218216 0.0162119 0.1218216 0.0162119 0.1218216 0.9837881 -0.1218216
2512 0.9823669 -0.1271812 0.0176331 0.1271812 0.0176331 0.1271812 0.9823669 -0.1271812
2627 0.9808195 -0.1327600 0.0191805 0.1327600 0.0191805 0.1327600 0.9808195 -0.1327600
2748 0.9791353 -0.1385643 0.0208647 0.1385643 0.0208647 0.1385643 0.9791353 -0.1385643
2873 0.9773023 -0.1446006 0.0226977 0.1446006 0.0226977 0.1446006 0.9773023 -0.1446006
3005 0.9753079 -0.1508748 0.0246921 0.1508748 0.0246921 0.1508748 0.9753079 -0.1508748
3143 0.9731385 -0.1573926 0.0268615 0.1573926 0.0268615 0.1573926 0.9731385 -0.1573926
3287 0.9707795 -0.1641592 0.0292205 0.1641592 0.0292205 0.1641592 0.9707795 -0.1641592
3437 0.9682153 -0.1711795 0.0317847 0.1711795 0.0317847 0.1711795 0.9682153 -0.1711795
3594 0.9654293 -0.1784576 0.0345707 0.1784576 0.0345707 0.1784576 0.9654293 -0.1784576
3759 0.9624036 -0.1859970 0.0375964 0.1859970 0.0375964 0.1859970 0.9624036 -0.1859970
3931 0.9591194 -0.1938000 0.0408806 0.1938000 0.0408806 0.1938000 0.9591194 -0.1938000
4111 0.9555566 -0.2018684 0.0444434 0.2018684 0.0444434 0.2018684 0.9555566 -0.2018684
4299 0.9516942 -0.2102025 0.0483058 0.2102025 0.0483058 0.2102025 0.9516942 -0.2102025
4496 0.9475097 -0.2188012 0.0524903 0.2188012 0.0524903 0.2188012 0.9475097 -0.2188012
4702 0.9429798 -0.2276622 0.0570202 0.2276622 0.0570202 0.2276622 0.9429798 -0.2276622
4918 0.9380800 -0.2367812 0.0619200 0.2367812 0.0619200 0.2367812 0.9380800 -0.2367812
5143 0.9327849 -0.2461520 0.0672151 0.2461520 0.0672151 0.2461520 0.9327849 -0.2461520
5378 0.9270681 -0.2557664 0.0729319 0.2557664 0.0729319 0.2557664 0.9270681 -0.2557664
5625 0.9209025 -0.2656138 0.0790975 0.2656138 0.0790975 0.2656138 0.9209025 -0.2656138
5882 0.9142604 -0.2756808 0.0857396 0.2756808 0.0857396 0.2756808 0.9142604 -0.2756808
6151 0.9071136 -0.2859515 0.0928864 0.2859515 0.0928864 0.2859515 0.9071136 -0.2859515
6433 0.8994338 -0.2964066 0.1005662 0.2964066 0.1005662 0.2964066 0.8994338 -0.2964066
6728 0.8911926 -0.3070238 0.1088074 0.3070238 0.1088074 0.3070238 0.8911926 -0.3070238
7036 0.8823623 -0.3177773 0.1176377 0.3177773 0.1176377 0.3177773 0.8823623 -0.3177773
7358 0.8729157 -0.3286375 0.1270843 0.3286375 0.1270843 0.3286375 0.8729157 -0.3286375
7695 0.8628270 -0.3395712 0.1371730 0.3395712 0.1371730 0.3395712 0.8628270 -0.3395712
8047 0.8520720 -0.3505412 0.1479280 0.3505412 0.1479280 0.3505412 0.8520720 -0.3505412
8416 0.8406286 -0.3615063 0.1593714 0.3615063 0.1593714 0.3615063 0.8406286 -0.3615063
8801 0.8284775 -0.3724217 0.1715225 0.3724217 0.1715225 0.3724217 0.8284775 -0.3724217
9204 0.8156027 -0.3832384 0.1843973 0.3832384 0.1843973 0.3832384 0.8156027 -0.3832384
9626 0.8019922 -0.3939039 0.1980078 0.3939039 0.1980078 0.3939039 0.8019922 -0.3939039
10066 0.7876381 -0.4043625 0.2123619 0.4043625 0.2123619 0.4043625 0.7876381 -0.4043625
10527 0.7725383 -0.4145552 0.2274617 0.4145552 0.2274617 0.4145552 0.7725383 -0.4145552
11009 0.7566959 -0.4244207 0.2433041 0.4244207 0.2433041 0.4244207 0.7566959 -0.4244207
11514 0.7401205 -0.4338956 0.2598795 0.4338956 0.2598795 0.4338956 0.7401205 -0.4338956
12041 0.7228285 -0.4429156 0.2771715 0.4429156 0.2771715 0.4429156 0.7228285 -0.4429156
12592 0.7048434 -0.4514158 0.2951566 0.4514158 0.2951566 0.4514158 0.7048434 -0.4514158
13169 0.6861961 -0.4593319 0.3138039 0.4593319 0.3138039 0.4593319 0.6861961 -0.4593319
13772 0.6669254 -0.4666012 0.3330746 0.4666012 0.3330746 0.4666012 0.6669254 -0.4666012
14402 0.6470774 -0.4731635 0.3529226 0.4731635 0.3529226 0.4731635 0.6470774 -0.4731635
15062 0.6267059 -0.4789624 0.3732941 0.4789624 0.3732941 0.4789624 0.6267059 -0.4789624
15752 0.6058716 -0.4839463 0.3941284 0.4839463 0.3941284 0.4839463 0.6058716 -0.4839463
16473 0.5846417 -0.4880695 0.4153583 0.4880695 0.4153583 0.4880695 0.5846417 -0.4880695
17227 0.5630895 -0.4912930 0.4369105 0.4912930 0.4369105 0.4912930 0.5630895 -0.4912930
18016 0.5412928 -0.4935858 0.4587072 0.4935858 0.4587072 0.4935858 0.5412928 -0.4935858
18841 0.5193336 -0.4949252 0.4806664 0.4949252 0.4806664 0.4949252 0.5193336 -0.4949252
19704 0.4972963 -0.4952973 0.5027037 0.4952973 0.5027037 0.4952973 0.4972963 -0.4952973
20606 0.4752666 -0.4946980 0.5247334 0.4946980 0.5247334 0.4946980 0.4752666 -0.4946980
21550 0.4533303 -0.4931323 0.5466697 0.4931323 0.5466697 0.4931323 0.4533303 -0.4931323
22537 0.4315721 -0.4906149 0.5684279 0.4906149 0.5684279 0.4906149 0.4315721 -0.4906149
23569 0.4100737 -0.4871693 0.5899263 0.4871693 0.5899263 0.4871693 0.4100737 -0.4871693
24648 0.3889132 -0.4828277 0.6110868 0.4828277 0.6110868 0.4828277 0.3889132 -0.4828277
25777 0.3681636 -0.4776301 0.6318364 0.4776301 0.6318364 0.4776301 0.3681636 -0.4776301
26957 0.3478922 -0.4716235 0.6521078 0.4716235 0.6521078 0.4716235 0.3478922 -0.4716235
28191 0.3281594 -0.4648607 0.6718406 0.4648607 0.6718406 0.4648607 0.3281594 -0.4648607
29482 0.3090187 -0.4573995 0.6909813 0.4573995 0.6909813 0.4573995 0.3090187 -0.4573995
30832 0.2905155 -0.4493014 0.7094845 0.4493014 0.7094845 0.4493014 0.2905155 -0.4493014
32244 0.2726878 -0.4406306 0.7273122 0.4406306 0.7273122 0.4406306 0.2726878 -0.4406306
33721 0.2555655 -0.4314526 0.7444345 0.4314526 0.7444345 0.4314526 0.2555655 -0.4314526
35265 0.2391709 -0.4218336 0.7608291 0.4218336 0.7608291 0.4218336 0.2391709 -0.4218336
36880 0.2235189 -0.4118390 0.7764811 0.4118390 0.7764811 0.4118390 0.2235189 -0.4118390
38569 0.2086177 -0.4015330 0.7913823 0.4015330 0.7913823 0.4015330 0.2086177 -0.4015330
40335 0.1944686 -0.3909777 0.8055314 0.3909777 0.8055314 0.3909777 0.1944686 -0.3909777
42182 0.1810676 -0.3802323 0.8189324 0.3802323 0.8189324 0.3802323 0.1810676 -0.3802323
44113 0.1684051 -0.3693529 0.8315949 0.3693529 0.8315949 0.3693529 0.1684051 -0.3693529
46134 0.1564671 -0.3583919 0.8435329 0.3583919 0.8435329 0.3583919 0.1564671 -0.3583919
48246 0.1452360 -0.3473978 0.8547640 0.3473978 0.8547640 0.3473978 0.1452360 -0.3473978
50455 0.1346905 -0.3364151 0.8653095 0.3364151 0.8653095 0.3364151 0.1346905 -0.3364151
52766 0.1248071 -0.3254842 0.8751929 0.3254842 0.8751929 0.3254842 0.1248071 -0.3254842
55182 0.1155602 -0.3146411 0.8844398 0.3146411 0.8844398 0.3146411 0.1155602 -0.3146411
57709 0.1069224 -0.3039181 0.8930776 0.3039181 0.8930776 0.3039181 0.1069224 -0.3039181
60352 0.0988658 -0.2933435 0.9011342 0.2933435 0.9011342 0.2933435 0.0988658 -0.2933435
63115 0.0913614 -0.2829419 0.9086386 0.2829419 0.9086386 0.2829419 0.0913614 -0.2829419
66005 0.0843805 -0.2727341 0.9156195 0.2727341 0.9156195 0.2727341 0.0843805 -0.2727341
69028 0.0778941 -0.2627381 0.9221059 0.2627381 0.9221059 0.2627381 0.0778941 -0.2627381
72189 0.0718738 -0.2529684 0.9281262 0.2529684 0.9281262 0.2529684 0.0718738 -0.2529684
75495 0.0662917 -0.2434370 0.9337083 0.2434370 0.9337083 0.2434370 0.0662917 -0.2434370
78952 0.0611207 -0.2341533 0.9388793 0.2341533 0.9388793 0.2341533 0.0611207 -0.2341533
82567 0.0563347 -0.2251244 0.9436653 0.2251244 0.9436653 0.2251244 0.0563347 -0.2251244
86348 0.0519086 -0.2163552 0.9480914 0.2163552 0.9480914 0.2163552 0.0519086 -0.2163552
90302 0.0478182 -0.2078491 0.9521818 0.2078491 0.9521818 0.2078491 0.0478182 -0.2078491
94437 0.0440406 -0.1996076 0.9559594 0.1996076 0.9559594 0.1996076 0.0440406 -0.1996076
98762 0.0405542 -0.1916309 0.9594458 0.1916309 0.9594458 0.1916309 0.0405542 -0.1916309
103284 0.0373384 -0.1839179 0.9626616 0.1839179 0.9626616 0.1839179 0.0373384 -0.1839179
108014 0.0343737 -0.1764667 0.9656263 0.1764667 0.9656263 0.1764667 0.0343737 -0.1764667
112960 0.0316420 -0.1692741 0.9683580 0.1692741 0.9683580 0.1692741 0.0316420 -0.1692741
118133 0.0291260 -0.1623364 0.9708740 0.1623364 0.9708740 0.1623364 0.0291260 -0.1623364
123542 0.0268098 -0.1556493 0.9731902 0.1556493 0.9731902 0.1556493 0.0268098 -0.1556493
129199 0.0246784 -0.1492077 0.9753216 0.1492077 0.9753216 0.1492077 0.0246784 -0.1492077
135116 0.0227176 -0.1430063 0.9772824 0.1430063 0.9772824 0.1430063 0.0227176 -0.1430063
141303 0.0209146 -0.1370394 0.9790854 0.1370394 0.9790854 0.1370394 0.0209146 -0.1370394
147774 0.0192571 -0.1313009 0.9807429 0.1313009 0.9807429 0.1313009 0.0192571 -0.1313009
154540 0.0177338 -0.1257846 0.9822662 0.1257846 0.9822662 0.1257846 0.0177338 -0.1257846
161617 0.0163343 -0.1204843 0.9836657 0.1204843 0.9836657 0.1204843 0.0163343 -0.1204843
169018 0.0150487 -0.1153934 0.9849513 0.1153934 0.9849513 0.1153934 0.0150487 -0.1153934
176758 0.0138680 -0.1105054 0.9861320 0.1105054 0.9861320 0.1105054 0.0138680 -0.1105054
184852 0.0127839 -0.1058139 0.9872161 0.1058139 0.9872161 0.1058139 0.0127839 -0.1058139
193316 0.0117886 -0.1013123 0.9882114 0.1013123 0.9882114 0.1013123 0.0117886 -0.1013123
202169 0.0108750 -0.0969941 0.9891250 0.0969941 0.9891250 0.0969941 0.0108750 -0.0969941
211427 0.0100364 -0.0928530 0.9899636 0.0928530 0.9899636 0.0928530 0.0100364 -0.0928530
221108 0.0092667 -0.0888826 0.9907333 0.0888826 0.9907333 0.0888826 0.0092667 -0.0888826
231233 0.0085603 -0.0850769 0.9914397 0.0850769 0.9914397 0.0850769 0.0085603 -0.0850769
241822 0.0079119 -0.0814295 0.9920881 0.0814295 0.9920881 0.0814295 0.0079119 -0.0814295
252896 0.0073168 -0.0779348 0.9926832 0.0779348 0.9926832 0.0779348 0.0073168 -0.0779348
264476 0.0067705 -0.0745867 0.9932295 0.0745867 0.9932295 0.0745867 0.0067705 -0.0745867
276587 0.0062690 -0.0713797 0.9937310 0.0713797 0.9937310 0.0713797 0.0062690 -0.0713797
289253 0.0058085 -0.0683082 0.9941915 0.0683082 0.9941915 0.0683082 0.0058085 -0.0683082
302498 0.0053856 -0.0653669 0.9946144 0.0653669 0.9946144 0.0653669 0.0053856 -0.0653669
316350 0.0049971 -0.0625506 0.9950029 0.0625506 0.9950029 0.0625506 0.0049971 -0.0625506
330837 0.0046401 -0.0598542 0.9953599 0.0598542 0.9953599 0.0598542 0.0046401 -0.0598542
345986 0.0043119 -0.0572729 0.9956881 0.0572729 0.9956881 0.0572729 0.0043119 -0.0572729
361830 0.0040102 -0.0548019 0.9959898 0.0548019 0.9959898 0.0548019 0.0040102 -0.0548019
378399 0.0037327 -0.0524367 0.9962673 0.0524367 0.9962673 0.0524367 0.0037327 -0.0524367
395726 0.0034772 -0.0501728 0.9965228 0.0501728 0.9965228 0.0501728 0.0034772 -0.0501728
413847 0.0032421 -0.0480061 0.9967579 0.0480061 0.9967579 0.0480061 0.0032421 -0.0480061
432798 0.0030255 -0.0459325 0.9969745 0.0459325 0.9969745 0.0459325 0.0030255 -0.0459325
452617 0.0028259 -0.0439479 0.9971741 0.0439479 0.9971741 0.0439479 0.0028259 -0.0439479
473344 0.0026418 -0.0420487 0.9973582 0.0420487 0.9973582 0.0420487 0.0026418 -0.0420487
495019 0.0024720 -0.0402311 0.9975280 0.0402311 0.9975280 0.0402311 0.0024720 -0.0402311
517687 0.0023154 -0.0384918 0.9976846 0.0384918 0.9976846 0.0384918 0.0023154 -0.0384918
541393 0.0021707 -0.0368272 0.9978293 0.0368272 0.9978293 0.0368272 0.0021707 -0.0368272
566185 0.0020371 -0.0352344 0.9979629 0.0352344 0.9979629 0.0352344 0.0020371 -0.0352344
592111 0.0019136 -0.0337100 0.9980864 0.0337100 0.9980864 0.0337100 0.0019136 -0.0337100
619225 0.0017994 -0.0322513 0.9982006 0.0322513 0.9982006 0.0322513 0.0017994 -0.0322513
647581 0.0016939 -0.0308553 0.9983061 0.0308553 0.9983061 0.0308553 0.0016939 -0.0308553
677235 0.0015962 -0.0295194 0.9984038 0.0295194 0.9984038 0.0295194 0.0015962 -0.0295194
708247 0.0015059 -0.0282409 0.9984941 0.0282409 0.9984941 0.0282409 0.0015059 -0.0282409
740679 0.0014223 -0.0270175 0.9985777 0.0270175 0.9985777 0.0270175 0.0014223 -0.0270175
774597 0.0013450 -0.0258467 0.9986550 0.0258467 0.9986550 0.0258467 0.0013450 -0.0258467
810067 0.0012734 -0.0247262 0.9987266 0.0247262 0.9987266 0.0247262 0.0012734 -0.0247262
847162 0.0012071 -0.0236540 0.9987929 0.0236540 0.9987929 0.0236540 0.0012071 -0.0236540
885955 0.0011458 -0.0226279 0.9988542 0.0226279 0.9988542 0.0226279 0.0011458 -0.0226279
926525 0.0010890 -0.0216460 0.9989110 0.0216460 0.9989110 0.0216460 0.0010890 -0.0216460
968953 0.0010365 -0.0207063 0.9989635 0.0207063 0.9989635 0.0207063 0.0010365 -0.0207063
1013323 0.0009878 -0.0198072 0.9990122 0.0198072 0.9990122 0.0198072 0.0009878 -0.0198072
1059725 0.0009429 -0.0189467 0.9990571 0.0189467 0.9990571 0.0189467 0.0009429 -0.0189467
1108252 0.0009012 -0.0181233 0.9990988 0.0181233 0.9990988 0.0181233 0.0009012 -0.0181233
1159002 0.0008627 -0.0173354 0.9991373 0.0173354 0.9991373 0.0173354 0.0008627 -0.0173354
1212075 0.0008271 -0.0165815 0.9991729 0.0165815 0.9991729 0.0165815 0.0008271 -0.0165815
1267578 0.0007941 -0.0158601 0.9992059 0.0158601 0.9992059 0.0158601 0.0007941 -0.0158601
1325623 0.0007636 -0.0151698 0.9992364 0.0151698 0.9992364 0.0151698 0.0007636 -0.0151698
1386327 0.0007353 -0.0145094 0.9992647 0.0145094 0.9992647 0.0145094 0.0007353 -0.0145094
1449809 0.0007092 -0.0138774 0.9992908 0.0138774 0.9992908 0.0138774 0.0007092 -0.0138774
1516199 0.0006850 -0.0132727 0.9993150 0.0132727 0.9993150 0.0132727 0.0006850 -0.0132727
1585629 0.0006626 -0.0126942 0.9993374 0.0126942 0.9993374 0.0126942 0.0006626 -0.0126942
1658239 0.0006419 -0.0121406 0.9993581 0.0121406 0.9993581 0.0121406 0.0006419 -0.0121406
1734173 0.0006226 -0.0116110 0.9993774 0.0116110 0.9993774 0.0116110 0.0006226 -0.0116110
1813585 0.0006048 -0.0111043 0.9993952 0.0111043 0.9993952 0.0111043 0.0006048 -0.0111043
1896632 0.0005883 -0.0106194 0.9994117 0.0106194 0.9994117 0.0106194 0.0005883 -0.0106194
1983483 0.0005729 -0.0101555 0.9994271 0.0101555 0.9994271 0.0101555 0.0005729 -0.0101555
2074311 0.0005587 -0.0097116 0.9994413 0.0097116 0.9994413 0.0097116 0.0005587 -0.0097116
