!Murata Part Number: GRM022R60J474ME05
!These Parameters are Measured in Series Mode Connection
!Data Generated on Mar 30, 2021
!       o--ll--o
!Port1            Port2
!       o------o
!Operation Temp=25[degC], DC Bias Voltage=0[V]
!Freq. Start=100[Hz] Stop=6[GHz] 401[Steps]
# Hz S RI R 50
!Freq.(Hz) S11(Real) S11(Imag) S21(Real) S21(Imag) S12(Real) S12(Imag) S22(Real) S22(Imag)
100 0.9992780 -0.0179324 0.0007220 0.0179324 0.0007220 0.0179324 0.9992780 -0.0179324
105 0.9992340 -0.0187388 0.0007660 0.0187388 0.0007660 0.0187388 0.9992340 -0.0187388
109 0.9991869 -0.0195819 0.0008131 0.0195819 0.0008131 0.0195819 0.9991869 -0.0195819
114 0.9991363 -0.0204633 0.0008637 0.0204633 0.0008637 0.0204633 0.9991363 -0.0204633
120 0.9990820 -0.0213847 0.0009180 0.0213847 0.0009180 0.0213847 0.9990820 -0.0213847
125 0.9990236 -0.0223480 0.0009764 0.0223480 0.0009764 0.0223480 0.9990236 -0.0223480
131 0.9989606 -0.0233550 0.0010394 0.0233550 0.0010394 0.0233550 0.9989606 -0.0233550
137 0.9988927 -0.0244077 0.0011073 0.0244077 0.0011073 0.0244077 0.9988927 -0.0244077
143 0.9988193 -0.0255081 0.0011807 0.0255081 0.0011807 0.0255081 0.9988193 -0.0255081
150 0.9987401 -0.0266583 0.0012599 0.0266583 0.0012599 0.0266583 0.9987401 -0.0266583
156 0.9986543 -0.0278606 0.0013457 0.0278606 0.0013457 0.0278606 0.9986543 -0.0278606
164 0.9985615 -0.0291172 0.0014385 0.0291172 0.0014385 0.0291172 0.9985615 -0.0291172
171 0.9984611 -0.0304304 0.0015389 0.0304304 0.0015389 0.0304304 0.9984611 -0.0304304
179 0.9983522 -0.0318028 0.0016478 0.0318028 0.0016478 0.0318028 0.9983522 -0.0318028
187 0.9982342 -0.0332369 0.0017658 0.0332369 0.0017658 0.0332369 0.9982342 -0.0332369
196 0.9981062 -0.0347355 0.0018938 0.0347355 0.0018938 0.0347355 0.9981062 -0.0347355
205 0.9979675 -0.0363013 0.0020325 0.0363013 0.0020325 0.0363013 0.9979675 -0.0363013
214 0.9978171 -0.0379371 0.0021829 0.0379371 0.0021829 0.0379371 0.9978171 -0.0379371
224 0.9976540 -0.0396460 0.0023460 0.0396460 0.0023460 0.0396460 0.9976540 -0.0396460
234 0.9974771 -0.0414312 0.0025229 0.0414312 0.0025229 0.0414312 0.9974771 -0.0414312
245 0.9972852 -0.0432959 0.0027148 0.0432959 0.0027148 0.0432959 0.9972852 -0.0432959
256 0.9970772 -0.0452435 0.0029228 0.0452435 0.0029228 0.0452435 0.9970772 -0.0452435
268 0.9968516 -0.0472775 0.0031484 0.0472775 0.0031484 0.0472775 0.9968516 -0.0472775
280 0.9966070 -0.0494017 0.0033930 0.0494017 0.0033930 0.0494017 0.9966070 -0.0494017
293 0.9963419 -0.0516197 0.0036581 0.0516197 0.0036581 0.0516197 0.9963419 -0.0516197
306 0.9960544 -0.0539357 0.0039456 0.0539357 0.0039456 0.0539357 0.9960544 -0.0539357
320 0.9957428 -0.0563538 0.0042572 0.0563538 0.0042572 0.0563538 0.9957428 -0.0563538
335 0.9954051 -0.0588782 0.0045949 0.0588782 0.0045949 0.0588782 0.9954051 -0.0588782
350 0.9950391 -0.0615135 0.0049609 0.0615135 0.0049609 0.0615135 0.9950391 -0.0615135
366 0.9946424 -0.0642643 0.0053576 0.0642643 0.0053576 0.0642643 0.9946424 -0.0642643
383 0.9942124 -0.0671355 0.0057876 0.0671355 0.0057876 0.0671355 0.9942124 -0.0671355
401 0.9937464 -0.0701321 0.0062536 0.0701321 0.0062536 0.0701321 0.9937464 -0.0701321
419 0.9932412 -0.0732593 0.0067588 0.0732593 0.0067588 0.0732593 0.9932412 -0.0732593
438 0.9926936 -0.0765226 0.0073064 0.0765226 0.0073064 0.0765226 0.9926936 -0.0765226
458 0.9920998 -0.0799275 0.0079002 0.0799275 0.0079002 0.0799275 0.9920998 -0.0799275
479 0.9914559 -0.0834798 0.0085441 0.0834798 0.0085441 0.0834798 0.9914559 -0.0834798
501 0.9907576 -0.0871854 0.0092424 0.0871854 0.0092424 0.0871854 0.9907576 -0.0871854
524 0.9900000 -0.0910506 0.0100000 0.0910506 0.0100000 0.0910506 0.9900000 -0.0910506
548 0.9891781 -0.0950815 0.0108219 0.0950815 0.0108219 0.0950815 0.9891781 -0.0950815
573 0.9882860 -0.0992846 0.0117140 0.0992846 0.0117140 0.0992846 0.9882860 -0.0992846
600 0.9873177 -0.1036665 0.0126823 0.1036665 0.0126823 0.1036665 0.9873177 -0.1036665
627 0.9862664 -0.1082338 0.0137336 0.1082338 0.0137336 0.1082338 0.9862664 -0.1082338
656 0.9851248 -0.1129932 0.0148752 0.1129932 0.0148752 0.1129932 0.9851248 -0.1129932
686 0.9838848 -0.1179516 0.0161152 0.1179516 0.0161152 0.1179516 0.9838848 -0.1179516
717 0.9825379 -0.1231157 0.0174621 0.1231157 0.0174621 0.1231157 0.9825379 -0.1231157
750 0.9810747 -0.1284924 0.0189253 0.1284924 0.0189253 0.1284924 0.9810747 -0.1284924
784 0.9794849 -0.1340883 0.0205151 0.1340883 0.0205151 0.1340883 0.9794849 -0.1340883
820 0.9777576 -0.1399100 0.0222424 0.1399100 0.0222424 0.1399100 0.9777576 -0.1399100
858 0.9758810 -0.1459639 0.0241190 0.1459639 0.0241190 0.1459639 0.9758810 -0.1459639
897 0.9738421 -0.1522560 0.0261579 0.1522560 0.0261579 0.1522560 0.9738421 -0.1522560
938 0.9716273 -0.1587923 0.0283727 0.1587923 0.0283727 0.1587923 0.9716273 -0.1587923
981 0.9692217 -0.1655779 0.0307783 0.1655779 0.0307783 0.1655779 0.9692217 -0.1655779
1026 0.9666096 -0.1726178 0.0333904 0.1726178 0.0333904 0.1726178 0.9666096 -0.1726178
1073 0.9637740 -0.1799161 0.0362260 0.1799161 0.0362260 0.1799161 0.9637740 -0.1799161
1122 0.9606969 -0.1874762 0.0393031 0.1874762 0.0393031 0.1874762 0.9606969 -0.1874762
1174 0.9573590 -0.1953006 0.0426410 0.1953006 0.0426410 0.1953006 0.9573590 -0.1953006
1227 0.9537402 -0.2033907 0.0462598 0.2033907 0.0462598 0.2033907 0.9537402 -0.2033907
1283 0.9498187 -0.2117469 0.0501813 0.2117469 0.0501813 0.2117469 0.9498187 -0.2117469
1342 0.9455720 -0.2203678 0.0544280 0.2203678 0.0544280 0.2203678 0.9455720 -0.2203678
1404 0.9409763 -0.2292508 0.0590237 0.2292508 0.0590237 0.2292508 0.9409763 -0.2292508
1468 0.9360068 -0.2383914 0.0639932 0.2383914 0.0639932 0.2383914 0.9360068 -0.2383914
1535 0.9306377 -0.2477829 0.0693623 0.2477829 0.0693623 0.2477829 0.9306377 -0.2477829
1606 0.9248422 -0.2574166 0.0751578 0.2574166 0.0751578 0.2574166 0.9248422 -0.2574166
1679 0.9185929 -0.2672814 0.0814071 0.2672814 0.0814071 0.2672814 0.9185929 -0.2672814
1756 0.9118618 -0.2773632 0.0881382 0.2773632 0.0881382 0.2773632 0.9118618 -0.2773632
1836 0.9046204 -0.2876453 0.0953796 0.2876453 0.0953796 0.2876453 0.9046204 -0.2876453
1920 0.8968404 -0.2981077 0.1031596 0.2981077 0.1031596 0.2981077 0.8968404 -0.2981077
2008 0.8884933 -0.3087270 0.1115067 0.3087270 0.1115067 0.3087270 0.8884933 -0.3087270
2100 0.8795514 -0.3194763 0.1204486 0.3194763 0.1204486 0.3194763 0.8795514 -0.3194763
2196 0.8699878 -0.3303250 0.1300122 0.3303250 0.1300122 0.3303250 0.8699878 -0.3303250
2297 0.8597772 -0.3412387 0.1402228 0.3412387 0.1402228 0.3412387 0.8597772 -0.3412387
2402 0.8488958 -0.3521789 0.1511042 0.3521789 0.1511042 0.3521789 0.8488958 -0.3521789
2512 0.8373224 -0.3631035 0.1626776 0.3631035 0.1626776 0.3631035 0.8373224 -0.3631035
2627 0.8250389 -0.3739661 0.1749611 0.3739661 0.1749611 0.3739661 0.8250389 -0.3739661
2748 0.8120304 -0.3847170 0.1879696 0.3847170 0.1879696 0.3847170 0.8120304 -0.3847170
2873 0.7982864 -0.3953027 0.2017136 0.3953027 0.2017136 0.3953027 0.7982864 -0.3953027
3005 0.7838012 -0.4056666 0.2161988 0.4056666 0.2161988 0.4056666 0.7838012 -0.4056666
3143 0.7685743 -0.4157494 0.2314257 0.4157494 0.2314257 0.4157494 0.7685743 -0.4157494
3287 0.7526111 -0.4254896 0.2473889 0.4254896 0.2473889 0.4254896 0.7526111 -0.4254896
3437 0.7359235 -0.4348240 0.2640765 0.4348240 0.2640765 0.4348240 0.7359235 -0.4348240
3594 0.7185303 -0.4436888 0.2814697 0.4436888 0.2814697 0.4436888 0.7185303 -0.4436888
3759 0.7004573 -0.4520201 0.2995427 0.4520201 0.2995427 0.4520201 0.7004573 -0.4520201
3931 0.6817377 -0.4597552 0.3182623 0.4597552 0.3182623 0.4597552 0.6817377 -0.4597552
4111 0.6624121 -0.4668331 0.3375879 0.4668331 0.3375879 0.4668331 0.6624121 -0.4668331
4299 0.6425285 -0.4731960 0.3574715 0.4731960 0.3574715 0.4731960 0.6425285 -0.4731960
4496 0.6221419 -0.4787900 0.3778581 0.4787900 0.3778581 0.4787900 0.6221419 -0.4787900
4702 0.6013140 -0.4835664 0.3986860 0.4835664 0.3986860 0.4835664 0.6013140 -0.4835664
4918 0.5801124 -0.4874824 0.4198876 0.4874824 0.4198876 0.4874824 0.5801124 -0.4874824
5143 0.5586101 -0.4905022 0.4413899 0.4905022 0.4413899 0.4905022 0.5586101 -0.4905022
5378 0.5368844 -0.4925976 0.4631156 0.4925976 0.4631156 0.4925976 0.5368844 -0.4925976
5625 0.5150159 -0.4937488 0.4849841 0.4937488 0.4849841 0.4937488 0.5150159 -0.4937488
5882 0.4930873 -0.4939445 0.5069127 0.4939445 0.5069127 0.4939445 0.4930873 -0.4939445
6151 0.4711824 -0.4931827 0.5288176 0.4931827 0.5288176 0.4931827 0.4711824 -0.4931827
6433 0.4493845 -0.4914702 0.5506155 0.4914702 0.5506155 0.4914702 0.4493845 -0.4914702
6728 0.4277756 -0.4888229 0.5722244 0.4888229 0.5722244 0.4888229 0.4277756 -0.4888229
7036 0.4064347 -0.4852651 0.5935653 0.4852651 0.5935653 0.4852651 0.4064347 -0.4852651
7358 0.3854373 -0.4808293 0.6145627 0.4808293 0.6145627 0.4808293 0.3854373 -0.4808293
7695 0.3648537 -0.4755552 0.6351463 0.4755552 0.6351463 0.4755552 0.3648537 -0.4755552
8047 0.3447488 -0.4694891 0.6552512 0.4694891 0.6552512 0.4694891 0.3447488 -0.4694891
8416 0.3251808 -0.4626829 0.6748192 0.4626829 0.6748192 0.4626829 0.3251808 -0.4626829
8801 0.3062013 -0.4551932 0.6937987 0.4551932 0.6937987 0.4551932 0.3062013 -0.4551932
9204 0.2878543 -0.4470799 0.7121457 0.4470799 0.7121457 0.4470799 0.2878543 -0.4470799
9626 0.2701765 -0.4384056 0.7298235 0.4384056 0.7298235 0.4384056 0.2701765 -0.4384056
10066 0.2531970 -0.4292342 0.7468030 0.4292342 0.7468030 0.4292342 0.2531970 -0.4292342
10527 0.2369376 -0.4196301 0.7630624 0.4196301 0.7630624 0.4196301 0.2369376 -0.4196301
11009 0.2214131 -0.4096574 0.7785869 0.4096574 0.7785869 0.4096574 0.2214131 -0.4096574
11514 0.2066315 -0.3993787 0.7933685 0.3993787 0.7933685 0.3993787 0.2066315 -0.3993787
12041 0.1925946 -0.3888548 0.8074054 0.3888548 0.8074054 0.3888548 0.1925946 -0.3888548
12592 0.1792986 -0.3781438 0.8207014 0.3781438 0.8207014 0.3781438 0.1792986 -0.3781438
13169 0.1667346 -0.3673009 0.8332654 0.3673009 0.8332654 0.3673009 0.1667346 -0.3673009
13772 0.1548892 -0.3563777 0.8451108 0.3563777 0.8451108 0.3563777 0.1548892 -0.3563777
14402 0.1437452 -0.3454222 0.8562548 0.3454222 0.8562548 0.3454222 0.1437452 -0.3454222
15062 0.1332823 -0.3344783 0.8667177 0.3344783 0.8667177 0.3344783 0.1332823 -0.3344783
15752 0.1234773 -0.3235863 0.8765227 0.3235863 0.8765227 0.3235863 0.1234773 -0.3235863
16473 0.1143052 -0.3127821 0.8856948 0.3127821 0.8856948 0.3127821 0.1143052 -0.3127821
17227 0.1057393 -0.3020979 0.8942607 0.3020979 0.8942607 0.3020979 0.1057393 -0.3020979
18016 0.0977519 -0.2915621 0.9022481 0.2915621 0.9022481 0.2915621 0.0977519 -0.2915621
18841 0.0903146 -0.2811992 0.9096854 0.2811992 0.9096854 0.2811992 0.0903146 -0.2811992
19704 0.0833987 -0.2710306 0.9166013 0.2710306 0.9166013 0.2710306 0.0833987 -0.2710306
20606 0.0769755 -0.2610742 0.9230245 0.2610742 0.9230245 0.2610742 0.0769755 -0.2610742
21550 0.0710166 -0.2513447 0.9289834 0.2513447 0.9289834 0.2513447 0.0710166 -0.2513447
22537 0.0654942 -0.2418545 0.9345058 0.2418545 0.9345058 0.2418545 0.0654942 -0.2418545
23569 0.0603812 -0.2326128 0.9396188 0.2326128 0.9396188 0.2326128 0.0603812 -0.2326128
24648 0.0556513 -0.2236271 0.9443487 0.2236271 0.9443487 0.2236271 0.0556513 -0.2236271
25777 0.0512791 -0.2149024 0.9487209 0.2149024 0.9487209 0.2149024 0.0512791 -0.2149024
26957 0.0472406 -0.2064419 0.9527594 0.2064419 0.9527594 0.2064419 0.0472406 -0.2064419
28191 0.0435126 -0.1982473 0.9564874 0.1982473 0.9564874 0.1982473 0.0435126 -0.1982473
29482 0.0400731 -0.1903187 0.9599269 0.1903187 0.9599269 0.1903187 0.0400731 -0.1903187
30832 0.0369014 -0.1826549 0.9630986 0.1826549 0.9630986 0.1826549 0.0369014 -0.1826549
32244 0.0339780 -0.1752536 0.9660220 0.1752536 0.9660220 0.1752536 0.0339780 -0.1752536
33721 0.0312844 -0.1681118 0.9687156 0.1681118 0.9687156 0.1681118 0.0312844 -0.1681118
35265 0.0288033 -0.1612254 0.9711967 0.1612254 0.9711967 0.1612254 0.0288033 -0.1612254
36880 0.0265187 -0.1545898 0.9734813 0.1545898 0.9734813 0.1545898 0.0265187 -0.1545898
38569 0.0244155 -0.1481996 0.9755845 0.1481996 0.9755845 0.1481996 0.0244155 -0.1481996
40335 0.0224797 -0.1420494 0.9775203 0.1420494 0.9775203 0.1420494 0.0224797 -0.1420494
42182 0.0206981 -0.1361330 0.9793019 0.1361330 0.9793019 0.1361330 0.0206981 -0.1361330
44113 0.0190589 -0.1304441 0.9809411 0.1304441 0.9809411 0.1304441 0.0190589 -0.1304441
46134 0.0175506 -0.1249764 0.9824494 0.1249764 0.9824494 0.1249764 0.0175506 -0.1249764
48246 0.0161631 -0.1197230 0.9838369 0.1197230 0.9838369 0.1197230 0.0161631 -0.1197230
50455 0.0148867 -0.1146775 0.9851133 0.1146775 0.9851133 0.1146775 0.0148867 -0.1146775
52766 0.0137125 -0.1098331 0.9862875 0.1098331 0.9862875 0.1098331 0.0137125 -0.1098331
55182 0.0126325 -0.1051829 0.9873675 0.1051829 0.9873675 0.1051829 0.0126325 -0.1051829
57709 0.0116392 -0.1007205 0.9883608 0.1007205 0.9883608 0.1007205 0.0116392 -0.1007205
60352 0.0107256 -0.0964393 0.9892744 0.0964393 0.9892744 0.0964393 0.0107256 -0.0964393
63115 0.0098854 -0.0923326 0.9901146 0.0923326 0.9901146 0.0923326 0.0098854 -0.0923326
66005 0.0091127 -0.0883944 0.9908873 0.0883944 0.9908873 0.0883944 0.0091127 -0.0883944
69028 0.0084022 -0.0846182 0.9915978 0.0846182 0.9915978 0.0846182 0.0084022 -0.0846182
72189 0.0077489 -0.0809980 0.9922511 0.0809980 0.9922511 0.0809980 0.0077489 -0.0809980
75495 0.0071483 -0.0775280 0.9928517 0.0775280 0.9928517 0.0775280 0.0071483 -0.0775280
78952 0.0065961 -0.0742024 0.9934039 0.0742024 0.9934039 0.0742024 0.0065961 -0.0742024
82567 0.0060885 -0.0710157 0.9939115 0.0710157 0.9939115 0.0710157 0.0060885 -0.0710157
86348 0.0056220 -0.0679623 0.9943780 0.0679623 0.9943780 0.0679623 0.0056220 -0.0679623
90302 0.0051933 -0.0650372 0.9948067 0.0650372 0.9948067 0.0650372 0.0051933 -0.0650372
94437 0.0047994 -0.0622353 0.9952006 0.0622353 0.9952006 0.0622353 0.0047994 -0.0622353
98762 0.0044374 -0.0595517 0.9955626 0.0595517 0.9955626 0.0595517 0.0044374 -0.0595517
103284 0.0041049 -0.0569816 0.9958951 0.0569816 0.9958951 0.0569816 0.0041049 -0.0569816
108014 0.0037995 -0.0545205 0.9962005 0.0545205 0.9962005 0.0545205 0.0037995 -0.0545205
112960 0.0035191 -0.0521640 0.9964809 0.0521640 0.9964809 0.0521640 0.0035191 -0.0521640
118133 0.0032615 -0.0499079 0.9967385 0.0499079 0.9967385 0.0499079 0.0032615 -0.0499079
123542 0.0030250 -0.0477482 0.9969750 0.0477482 0.9969750 0.0477482 0.0030250 -0.0477482
129199 0.0028079 -0.0456807 0.9971921 0.0456807 0.9971921 0.0456807 0.0028079 -0.0456807
135116 0.0026085 -0.0437019 0.9973915 0.0437019 0.9973915 0.0437019 0.0026085 -0.0437019
141303 0.0024255 -0.0418080 0.9975745 0.0418080 0.9975745 0.0418080 0.0024255 -0.0418080
147774 0.0022575 -0.0399955 0.9977425 0.0399955 0.9977425 0.0399955 0.0022575 -0.0399955
154540 0.0021032 -0.0382610 0.9978968 0.0382610 0.9978968 0.0382610 0.0021032 -0.0382610
161617 0.0019616 -0.0366013 0.9980384 0.0366013 0.9980384 0.0366013 0.0019616 -0.0366013
169018 0.0018316 -0.0350133 0.9981684 0.0350133 0.9981684 0.0350133 0.0018316 -0.0350133
176758 0.0017121 -0.0334940 0.9982879 0.0334940 0.9982879 0.0334940 0.0017121 -0.0334940
184852 0.0016024 -0.0320404 0.9983976 0.0320404 0.9983976 0.0320404 0.0016024 -0.0320404
193316 0.0015016 -0.0306498 0.9984984 0.0306498 0.9984984 0.0306498 0.0015016 -0.0306498
202169 0.0014089 -0.0293196 0.9985911 0.0293196 0.9985911 0.0293196 0.0014089 -0.0293196
211427 0.0013237 -0.0280471 0.9986763 0.0280471 0.9986763 0.0280471 0.0013237 -0.0280471
221108 0.0012453 -0.0268299 0.9987547 0.0268299 0.9987547 0.0268299 0.0012453 -0.0268299
231233 0.0011731 -0.0256657 0.9988269 0.0256657 0.9988269 0.0256657 0.0011731 -0.0256657
241822 0.0011066 -0.0245522 0.9988934 0.0245522 0.9988934 0.0245522 0.0011066 -0.0245522
252896 0.0010452 -0.0234872 0.9989548 0.0234872 0.9989548 0.0234872 0.0010452 -0.0234872
264476 0.0009886 -0.0224685 0.9990114 0.0224685 0.9990114 0.0224685 0.0009886 -0.0224685
276587 0.0009363 -0.0214943 0.9990637 0.0214943 0.9990637 0.0214943 0.0009363 -0.0214943
289253 0.0008880 -0.0205626 0.9991120 0.0205626 0.9991120 0.0205626 0.0008880 -0.0205626
302498 0.0008432 -0.0196715 0.9991568 0.0196715 0.9991568 0.0196715 0.0008432 -0.0196715
316350 0.0008016 -0.0188193 0.9991984 0.0188193 0.9991984 0.0188193 0.0008016 -0.0188193
330837 0.0007630 -0.0180043 0.9992370 0.0180043 0.9992370 0.0180043 0.0007630 -0.0180043
345986 0.0007271 -0.0172248 0.9992729 0.0172248 0.9992729 0.0172248 0.0007271 -0.0172248
361830 0.0006937 -0.0164792 0.9993063 0.0164792 0.9993063 0.0164792 0.0006937 -0.0164792
378399 0.0006624 -0.0157662 0.9993376 0.0157662 0.9993376 0.0157662 0.0006624 -0.0157662
395726 0.0006332 -0.0150842 0.9993668 0.0150842 0.9993668 0.0150842 0.0006332 -0.0150842
413847 0.0006059 -0.0144319 0.9993941 0.0144319 0.9993941 0.0144319 0.0006059 -0.0144319
432798 0.0005802 -0.0138080 0.9994198 0.0138080 0.9994198 0.0138080 0.0005802 -0.0138080
452617 0.0005561 -0.0132111 0.9994439 0.0132111 0.9994439 0.0132111 0.0005561 -0.0132111
473344 0.0005334 -0.0126402 0.9994666 0.0126402 0.9994666 0.0126402 0.0005334 -0.0126402
495019 0.0005120 -0.0120940 0.9994880 0.0120940 0.9994880 0.0120940 0.0005120 -0.0120940
517687 0.0004918 -0.0115715 0.9995082 0.0115715 0.9995082 0.0115715 0.0004918 -0.0115715
541393 0.0004727 -0.0110715 0.9995273 0.0110715 0.9995273 0.0110715 0.0004727 -0.0110715
566185 0.0004546 -0.0105932 0.9995454 0.0105932 0.9995454 0.0105932 0.0004546 -0.0105932
592111 0.0004375 -0.0101354 0.9995625 0.0101354 0.9995625 0.0101354 0.0004375 -0.0101354
619225 0.0004213 -0.0096974 0.9995787 0.0096974 0.9995787 0.0096974 0.0004213 -0.0096974
647581 0.0004060 -0.0092783 0.9995940 0.0092783 0.9995940 0.0092783 0.0004060 -0.0092783
677235 0.0003914 -0.0088771 0.9996086 0.0088771 0.9996086 0.0088771 0.0003914 -0.0088771
708247 0.0003776 -0.0084931 0.9996224 0.0084931 0.9996224 0.0084931 0.0003776 -0.0084931
740679 0.0003646 -0.0081256 0.9996354 0.0081256 0.9996354 0.0081256 0.0003646 -0.0081256
774597 0.0003522 -0.0077738 0.9996478 0.0077738 0.9996478 0.0077738 0.0003522 -0.0077738
810067 0.0003405 -0.0074371 0.9996595 0.0074371 0.9996595 0.0074371 0.0003405 -0.0074371
847162 0.0003294 -0.0071148 0.9996706 0.0071148 0.9996706 0.0071148 0.0003294 -0.0071148
885955 0.0003190 -0.0068062 0.9996810 0.0068062 0.9996810 0.0068062 0.0003190 -0.0068062
926525 0.0003091 -0.0065108 0.9996909 0.0065108 0.9996909 0.0065108 0.0003091 -0.0065108
968953 0.0002998 -0.0062280 0.9997002 0.0062280 0.9997002 0.0062280 0.0002998 -0.0062280
1013323 0.0002911 -0.0059573 0.9997089 0.0059573 0.9997089 0.0059573 0.0002911 -0.0059573
1059725 0.0002828 -0.0056981 0.9997172 0.0056981 0.9997172 0.0056981 0.0002828 -0.0056981
1108252 0.0002751 -0.0054499 0.9997249 0.0054499 0.9997249 0.0054499 0.0002751 -0.0054499
1159002 0.0002679 -0.0052123 0.9997321 0.0052123 0.9997321 0.0052123 0.0002679 -0.0052123
1212075 0.0002611 -0.0049849 0.9997389 0.0049849 0.9997389 0.0049849 0.0002611 -0.0049849
1267578 0.0002548 -0.0047671 0.9997452 0.0047671 0.9997452 0.0047671 0.0002548 -0.0047671
1325623 0.0002488 -0.0045587 0.9997512 0.0045587 0.9997512 0.0045587 0.0002488 -0.0045587
1386327 0.0002433 -0.0043591 0.9997567 0.0043591 0.9997567 0.0043591 0.0002433 -0.0043591
1449809 0.0002382 -0.0041680 0.9997618 0.0041680 0.9997618 0.0041680 0.0002382 -0.0041680
1516199 0.0002334 -0.0039851 0.9997666 0.0039851 0.9997666 0.0039851 0.0002334 -0.0039851
1585629 0.0002289 -0.0038100 0.9997711 0.0038100 0.9997711 0.0038100 0.0002289 -0.0038100
1658239 0.0002248 -0.0036423 0.9997752 0.0036423 0.9997752 0.0036423 0.0002248 -0.0036423
1734173 0.0002210 -0.0034818 0.9997790 0.0034818 0.9997790 0.0034818 0.0002210 -0.0034818
1813585 0.0002174 -0.0033282 0.9997826 0.0033282 0.9997826 0.0033282 0.0002174 -0.0033282
1896632 0.0002142 -0.0031810 0.9997858 0.0031810 0.9997858 0.0031810 0.0002142 -0.0031810
1983483 0.0002111 -0.0030402 0.9997889 0.0030402 0.9997889 0.0030402 0.0002111 -0.0030402
2074311 0.0002083 -0.0029053 0.9997917 0.0029053 0.9997917 0.0029053 0.0002083 -0.0029053
