!Murata Part Number: GRM022R71A821KA12
!These Parameters are Measured in Series Mode Connection
!Data Generated on Mar 30, 2021
!       o--ll--o
!Port1            Port2
!       o------o
!Operation Temp=25[degC], DC Bias Voltage=0[V]
!Freq. Start=100[Hz] Stop=6[GHz] 401[Steps]
# Hz S RI R 50
!Freq.(Hz) S11(Real) S11(Imag) S21(Real) S21(Imag) S12(Real) S12(Imag) S22(Real) S22(Imag)
100 0.9999997 -0.0000517 0.0000003 0.0000517 0.0000003 0.0000517 0.9999997 -0.0000517
105 0.9999997 -0.0000541 0.0000003 0.0000541 0.0000003 0.0000541 0.9999997 -0.0000541
109 0.9999997 -0.0000565 0.0000003 0.0000565 0.0000003 0.0000565 0.9999997 -0.0000565
114 0.9999997 -0.0000591 0.0000003 0.0000591 0.0000003 0.0000591 0.9999997 -0.0000591
120 0.9999997 -0.0000618 0.0000003 0.0000618 0.0000003 0.0000618 0.9999997 -0.0000618
125 0.9999997 -0.0000646 0.0000003 0.0000646 0.0000003 0.0000646 0.9999997 -0.0000646
131 0.9999996 -0.0000676 0.0000004 0.0000676 0.0000004 0.0000676 0.9999996 -0.0000676
137 0.9999996 -0.0000707 0.0000004 0.0000707 0.0000004 0.0000707 0.9999996 -0.0000707
143 0.9999996 -0.0000739 0.0000004 0.0000739 0.0000004 0.0000739 0.9999996 -0.0000739
150 0.9999996 -0.0000772 0.0000004 0.0000772 0.0000004 0.0000772 0.9999996 -0.0000772
156 0.9999996 -0.0000808 0.0000004 0.0000808 0.0000004 0.0000808 0.9999996 -0.0000808
164 0.9999995 -0.0000844 0.0000005 0.0000844 0.0000005 0.0000844 0.9999995 -0.0000844
171 0.9999995 -0.0000883 0.0000005 0.0000883 0.0000005 0.0000883 0.9999995 -0.0000883
179 0.9999995 -0.0000923 0.0000005 0.0000923 0.0000005 0.0000923 0.9999995 -0.0000923
187 0.9999995 -0.0000965 0.0000005 0.0000965 0.0000005 0.0000965 0.9999995 -0.0000965
196 0.9999994 -0.0001009 0.0000006 0.0001009 0.0000006 0.0001009 0.9999994 -0.0001009
205 0.9999994 -0.0001055 0.0000006 0.0001055 0.0000006 0.0001055 0.9999994 -0.0001055
214 0.9999994 -0.0001104 0.0000006 0.0001104 0.0000006 0.0001104 0.9999994 -0.0001104
224 0.9999994 -0.0001154 0.0000006 0.0001154 0.0000006 0.0001154 0.9999994 -0.0001154
234 0.9999993 -0.0001206 0.0000007 0.0001206 0.0000007 0.0001206 0.9999993 -0.0001206
245 0.9999993 -0.0001262 0.0000007 0.0001262 0.0000007 0.0001262 0.9999993 -0.0001262
256 0.9999993 -0.0001319 0.0000007 0.0001319 0.0000007 0.0001319 0.9999993 -0.0001319
268 0.9999992 -0.0001379 0.0000008 0.0001379 0.0000008 0.0001379 0.9999992 -0.0001379
280 0.9999992 -0.0001442 0.0000008 0.0001442 0.0000008 0.0001442 0.9999992 -0.0001442
293 0.9999992 -0.0001508 0.0000008 0.0001508 0.0000008 0.0001508 0.9999992 -0.0001508
306 0.9999991 -0.0001577 0.0000009 0.0001577 0.0000009 0.0001577 0.9999991 -0.0001577
320 0.9999991 -0.0001649 0.0000009 0.0001649 0.0000009 0.0001649 0.9999991 -0.0001649
335 0.9999990 -0.0001724 0.0000010 0.0001724 0.0000010 0.0001724 0.9999990 -0.0001724
350 0.9999990 -0.0001803 0.0000010 0.0001803 0.0000010 0.0001803 0.9999990 -0.0001803
366 0.9999990 -0.0001885 0.0000010 0.0001885 0.0000010 0.0001885 0.9999990 -0.0001885
383 0.9999989 -0.0001971 0.0000011 0.0001971 0.0000011 0.0001971 0.9999989 -0.0001971
401 0.9999989 -0.0002061 0.0000011 0.0002061 0.0000011 0.0002061 0.9999989 -0.0002061
419 0.9999988 -0.0002155 0.0000012 0.0002155 0.0000012 0.0002155 0.9999988 -0.0002155
438 0.9999987 -0.0002253 0.0000013 0.0002253 0.0000013 0.0002253 0.9999987 -0.0002253
458 0.9999987 -0.0002356 0.0000013 0.0002356 0.0000013 0.0002356 0.9999987 -0.0002356
479 0.9999986 -0.0002463 0.0000014 0.0002463 0.0000014 0.0002463 0.9999986 -0.0002463
501 0.9999986 -0.0002576 0.0000014 0.0002576 0.0000014 0.0002576 0.9999986 -0.0002576
524 0.9999985 -0.0002693 0.0000015 0.0002693 0.0000015 0.0002693 0.9999985 -0.0002693
548 0.9999984 -0.0002816 0.0000016 0.0002816 0.0000016 0.0002816 0.9999984 -0.0002816
573 0.9999983 -0.0002945 0.0000017 0.0002945 0.0000017 0.0002945 0.9999983 -0.0002945
600 0.9999983 -0.0003079 0.0000017 0.0003079 0.0000017 0.0003079 0.9999983 -0.0003079
627 0.9999982 -0.0003220 0.0000018 0.0003220 0.0000018 0.0003220 0.9999982 -0.0003220
656 0.9999981 -0.0003367 0.0000019 0.0003367 0.0000019 0.0003367 0.9999981 -0.0003367
686 0.9999980 -0.0003520 0.0000020 0.0003520 0.0000020 0.0003520 0.9999980 -0.0003520
717 0.9999979 -0.0003681 0.0000021 0.0003681 0.0000021 0.0003681 0.9999979 -0.0003681
750 0.9999978 -0.0003849 0.0000022 0.0003849 0.0000022 0.0003849 0.9999978 -0.0003849
784 0.9999977 -0.0004025 0.0000023 0.0004025 0.0000023 0.0004025 0.9999977 -0.0004025
820 0.9999976 -0.0004208 0.0000024 0.0004208 0.0000024 0.0004208 0.9999976 -0.0004208
858 0.9999975 -0.0004400 0.0000025 0.0004400 0.0000025 0.0004400 0.9999975 -0.0004400
897 0.9999973 -0.0004601 0.0000027 0.0004601 0.0000027 0.0004601 0.9999973 -0.0004601
938 0.9999972 -0.0004811 0.0000028 0.0004811 0.0000028 0.0004811 0.9999972 -0.0004811
981 0.9999971 -0.0005031 0.0000029 0.0005031 0.0000029 0.0005031 0.9999971 -0.0005031
1026 0.9999969 -0.0005260 0.0000031 0.0005260 0.0000031 0.0005260 0.9999969 -0.0005260
1073 0.9999968 -0.0005500 0.0000032 0.0005500 0.0000032 0.0005500 0.9999968 -0.0005500
1122 0.9999966 -0.0005751 0.0000034 0.0005751 0.0000034 0.0005751 0.9999966 -0.0005751
1174 0.9999964 -0.0006013 0.0000036 0.0006013 0.0000036 0.0006013 0.9999964 -0.0006013
1227 0.9999963 -0.0006288 0.0000037 0.0006288 0.0000037 0.0006288 0.9999963 -0.0006288
1283 0.9999961 -0.0006575 0.0000039 0.0006575 0.0000039 0.0006575 0.9999961 -0.0006575
1342 0.9999959 -0.0006875 0.0000041 0.0006875 0.0000041 0.0006875 0.9999959 -0.0006875
1404 0.9999957 -0.0007189 0.0000043 0.0007189 0.0000043 0.0007189 0.9999957 -0.0007189
1468 0.9999955 -0.0007517 0.0000045 0.0007517 0.0000045 0.0007517 0.9999955 -0.0007517
1535 0.9999952 -0.0007860 0.0000048 0.0007860 0.0000048 0.0007860 0.9999952 -0.0007860
1606 0.9999950 -0.0008218 0.0000050 0.0008218 0.0000050 0.0008218 0.9999950 -0.0008218
1679 0.9999947 -0.0008593 0.0000053 0.0008593 0.0000053 0.0008593 0.9999947 -0.0008593
1756 0.9999945 -0.0008986 0.0000055 0.0008986 0.0000055 0.0008986 0.9999945 -0.0008986
1836 0.9999942 -0.0009396 0.0000058 0.0009396 0.0000058 0.0009396 0.9999942 -0.0009396
1920 0.9999939 -0.0009825 0.0000061 0.0009825 0.0000061 0.0009825 0.9999939 -0.0009825
2008 0.9999935 -0.0010273 0.0000065 0.0010273 0.0000065 0.0010273 0.9999935 -0.0010273
2100 0.9999932 -0.0010742 0.0000068 0.0010742 0.0000068 0.0010742 0.9999932 -0.0010742
2196 0.9999928 -0.0011233 0.0000072 0.0011233 0.0000072 0.0011233 0.9999928 -0.0011233
2297 0.9999924 -0.0011745 0.0000076 0.0011745 0.0000076 0.0011745 0.9999924 -0.0011745
2402 0.9999920 -0.0012281 0.0000080 0.0012281 0.0000080 0.0012281 0.9999920 -0.0012281
2512 0.9999916 -0.0012842 0.0000084 0.0012842 0.0000084 0.0012842 0.9999916 -0.0012842
2627 0.9999911 -0.0013428 0.0000089 0.0013428 0.0000089 0.0013428 0.9999911 -0.0013428
2748 0.9999906 -0.0014041 0.0000094 0.0014041 0.0000094 0.0014041 0.9999906 -0.0014041
2873 0.9999900 -0.0014682 0.0000100 0.0014682 0.0000100 0.0014682 0.9999900 -0.0014682
3005 0.9999894 -0.0015352 0.0000106 0.0015352 0.0000106 0.0015352 0.9999894 -0.0015352
3143 0.9999888 -0.0016053 0.0000112 0.0016053 0.0000112 0.0016053 0.9999888 -0.0016053
3287 0.9999881 -0.0016786 0.0000119 0.0016786 0.0000119 0.0016786 0.9999881 -0.0016786
3437 0.9999874 -0.0017552 0.0000126 0.0017552 0.0000126 0.0017552 0.9999874 -0.0017552
3594 0.9999867 -0.0018353 0.0000133 0.0018353 0.0000133 0.0018353 0.9999867 -0.0018353
3759 0.9999858 -0.0019190 0.0000142 0.0019190 0.0000142 0.0019190 0.9999858 -0.0019190
3931 0.9999850 -0.0020066 0.0000150 0.0020066 0.0000150 0.0020066 0.9999850 -0.0020066
4111 0.9999840 -0.0020981 0.0000160 0.0020981 0.0000160 0.0020981 0.9999840 -0.0020981
4299 0.9999831 -0.0021939 0.0000169 0.0021939 0.0000169 0.0021939 0.9999831 -0.0021939
4496 0.9999820 -0.0022939 0.0000180 0.0022939 0.0000180 0.0022939 0.9999820 -0.0022939
4702 0.9999809 -0.0023986 0.0000191 0.0023986 0.0000191 0.0023986 0.9999809 -0.0023986
4918 0.9999797 -0.0025080 0.0000203 0.0025080 0.0000203 0.0025080 0.9999797 -0.0025080
5143 0.9999784 -0.0026224 0.0000216 0.0026224 0.0000216 0.0026224 0.9999784 -0.0026224
5378 0.9999770 -0.0027420 0.0000230 0.0027420 0.0000230 0.0027420 0.9999770 -0.0027420
5625 0.9999756 -0.0028670 0.0000244 0.0028670 0.0000244 0.0028670 0.9999756 -0.0028670
5882 0.9999740 -0.0029978 0.0000260 0.0029978 0.0000260 0.0029978 0.9999740 -0.0029978
6151 0.9999724 -0.0031345 0.0000276 0.0031345 0.0000276 0.0031345 0.9999724 -0.0031345
6433 0.9999706 -0.0032774 0.0000294 0.0032774 0.0000294 0.0032774 0.9999706 -0.0032774
6728 0.9999688 -0.0034269 0.0000312 0.0034269 0.0000312 0.0034269 0.9999688 -0.0034269
7036 0.9999668 -0.0035832 0.0000332 0.0035832 0.0000332 0.0035832 0.9999668 -0.0035832
7358 0.9999647 -0.0037466 0.0000353 0.0037466 0.0000353 0.0037466 0.9999647 -0.0037466
7695 0.9999624 -0.0039175 0.0000376 0.0039175 0.0000376 0.0039175 0.9999624 -0.0039175
8047 0.9999600 -0.0040961 0.0000400 0.0040961 0.0000400 0.0040961 0.9999600 -0.0040961
8416 0.9999575 -0.0042829 0.0000425 0.0042829 0.0000425 0.0042829 0.9999575 -0.0042829
8801 0.9999547 -0.0044783 0.0000453 0.0044783 0.0000453 0.0044783 0.9999547 -0.0044783
9204 0.9999517 -0.0046826 0.0000483 0.0046826 0.0000483 0.0046826 0.9999517 -0.0046826
9626 0.9999486 -0.0048962 0.0000514 0.0048962 0.0000514 0.0048962 0.9999486 -0.0048962
10066 0.9999452 -0.0051196 0.0000548 0.0051196 0.0000548 0.0051196 0.9999452 -0.0051196
10527 0.9999415 -0.0053532 0.0000585 0.0053532 0.0000585 0.0053532 0.9999415 -0.0053532
11009 0.9999376 -0.0055974 0.0000624 0.0055974 0.0000624 0.0055974 0.9999376 -0.0055974
11514 0.9999333 -0.0058529 0.0000667 0.0058529 0.0000667 0.0058529 0.9999333 -0.0058529
12041 0.9999287 -0.0061200 0.0000713 0.0061200 0.0000713 0.0061200 0.9999287 -0.0061200
12592 0.9999238 -0.0063993 0.0000762 0.0063993 0.0000762 0.0063993 0.9999238 -0.0063993
13169 0.9999184 -0.0066913 0.0000816 0.0066913 0.0000816 0.0066913 0.9999184 -0.0066913
13772 0.9999126 -0.0069968 0.0000874 0.0069968 0.0000874 0.0069968 0.9999126 -0.0069968
14402 0.9999063 -0.0073161 0.0000937 0.0073161 0.0000937 0.0073161 0.9999063 -0.0073161
15062 0.9998995 -0.0076501 0.0001005 0.0076501 0.0001005 0.0076501 0.9998995 -0.0076501
15752 0.9998921 -0.0079993 0.0001079 0.0079993 0.0001079 0.0079993 0.9998921 -0.0079993
16473 0.9998841 -0.0083645 0.0001159 0.0083645 0.0001159 0.0083645 0.9998841 -0.0083645
17227 0.9998753 -0.0087464 0.0001247 0.0087464 0.0001247 0.0087464 0.9998753 -0.0087464
18016 0.9998658 -0.0091457 0.0001342 0.0091457 0.0001342 0.0091457 0.9998658 -0.0091457
18841 0.9998555 -0.0095632 0.0001445 0.0095632 0.0001445 0.0095632 0.9998555 -0.0095632
19704 0.9998443 -0.0099997 0.0001557 0.0099997 0.0001557 0.0099997 0.9998443 -0.0099997
20606 0.9998321 -0.0104562 0.0001679 0.0104562 0.0001679 0.0104562 0.9998321 -0.0104562
21550 0.9998188 -0.0109335 0.0001812 0.0109335 0.0001812 0.0109335 0.9998188 -0.0109335
22537 0.9998044 -0.0114325 0.0001956 0.0114325 0.0001956 0.0114325 0.9998044 -0.0114325
23569 0.9997887 -0.0119543 0.0002113 0.0119543 0.0002113 0.0119543 0.9997887 -0.0119543
24648 0.9997716 -0.0124998 0.0002284 0.0124998 0.0002284 0.0124998 0.9997716 -0.0124998
25777 0.9997530 -0.0130701 0.0002470 0.0130701 0.0002470 0.0130701 0.9997530 -0.0130701
26957 0.9997328 -0.0136664 0.0002672 0.0136664 0.0002672 0.0136664 0.9997328 -0.0136664
28191 0.9997108 -0.0142898 0.0002892 0.0142898 0.0002892 0.0142898 0.9997108 -0.0142898
29482 0.9996869 -0.0149416 0.0003131 0.0149416 0.0003131 0.0149416 0.9996869 -0.0149416
30832 0.9996608 -0.0156230 0.0003392 0.0156230 0.0003392 0.0156230 0.9996608 -0.0156230
32244 0.9996325 -0.0163353 0.0003675 0.0163353 0.0003675 0.0163353 0.9996325 -0.0163353
33721 0.9996018 -0.0170799 0.0003982 0.0170799 0.0003982 0.0170799 0.9996018 -0.0170799
35265 0.9995684 -0.0178584 0.0004316 0.0178584 0.0004316 0.0178584 0.9995684 -0.0178584
36880 0.9995320 -0.0186721 0.0004680 0.0186721 0.0004680 0.0186721 0.9995320 -0.0186721
38569 0.9994926 -0.0195228 0.0005074 0.0195228 0.0005074 0.0195228 0.9994926 -0.0195228
40335 0.9994497 -0.0204120 0.0005503 0.0204120 0.0005503 0.0204120 0.9994497 -0.0204120
42182 0.9994031 -0.0213415 0.0005969 0.0213415 0.0005969 0.0213415 0.9994031 -0.0213415
44113 0.9993525 -0.0223131 0.0006475 0.0223131 0.0006475 0.0223131 0.9993525 -0.0223131
46134 0.9992976 -0.0233287 0.0007024 0.0233287 0.0007024 0.0233287 0.9992976 -0.0233287
48246 0.9992379 -0.0243903 0.0007621 0.0243903 0.0007621 0.0243903 0.9992379 -0.0243903
50455 0.9991731 -0.0255000 0.0008269 0.0255000 0.0008269 0.0255000 0.9991731 -0.0255000
52766 0.9991027 -0.0266598 0.0008973 0.0266598 0.0008973 0.0266598 0.9991027 -0.0266598
55182 0.9990262 -0.0278721 0.0009738 0.0278721 0.0009738 0.0278721 0.9990262 -0.0278721
57709 0.9989432 -0.0291393 0.0010568 0.0291393 0.0010568 0.0291393 0.9989432 -0.0291393
60352 0.9988530 -0.0304638 0.0011470 0.0304638 0.0011470 0.0304638 0.9988530 -0.0304638
63115 0.9987550 -0.0318481 0.0012450 0.0318481 0.0012450 0.0318481 0.9987550 -0.0318481
66005 0.9986485 -0.0332950 0.0013515 0.0332950 0.0013515 0.0332950 0.9986485 -0.0332950
69028 0.9985328 -0.0348073 0.0014672 0.0348073 0.0014672 0.0348073 0.9985328 -0.0348073
72189 0.9984070 -0.0363878 0.0015930 0.0363878 0.0015930 0.0363878 0.9984070 -0.0363878
75495 0.9982702 -0.0380398 0.0017298 0.0380398 0.0017298 0.0380398 0.9982702 -0.0380398
78952 0.9981214 -0.0397662 0.0018786 0.0397662 0.0018786 0.0397662 0.9981214 -0.0397662
82567 0.9979595 -0.0415706 0.0020405 0.0415706 0.0020405 0.0415706 0.9979595 -0.0415706
86348 0.9977834 -0.0434563 0.0022166 0.0434563 0.0022166 0.0434563 0.9977834 -0.0434563
90302 0.9975916 -0.0454268 0.0024084 0.0454268 0.0024084 0.0454268 0.9975916 -0.0454268
94437 0.9973829 -0.0474861 0.0026171 0.0474861 0.0026171 0.0474861 0.9973829 -0.0474861
98762 0.9971556 -0.0496379 0.0028444 0.0496379 0.0028444 0.0496379 0.9971556 -0.0496379
103284 0.9969079 -0.0518862 0.0030921 0.0518862 0.0030921 0.0518862 0.9969079 -0.0518862
108014 0.9966381 -0.0542354 0.0033619 0.0542354 0.0033619 0.0542354 0.9966381 -0.0542354
112960 0.9963441 -0.0566896 0.0036559 0.0566896 0.0036559 0.0566896 0.9963441 -0.0566896
118133 0.9960236 -0.0592535 0.0039764 0.0592535 0.0039764 0.0592535 0.9960236 -0.0592535
123542 0.9956743 -0.0619316 0.0043257 0.0619316 0.0043257 0.0619316 0.9956743 -0.0619316
129199 0.9952934 -0.0647288 0.0047066 0.0647288 0.0047066 0.0647288 0.9952934 -0.0647288
135116 0.9948782 -0.0676501 0.0051218 0.0676501 0.0051218 0.0676501 0.9948782 -0.0676501
141303 0.9944253 -0.0707006 0.0055747 0.0707006 0.0055747 0.0707006 0.9944253 -0.0707006
147774 0.9939315 -0.0738856 0.0060685 0.0738856 0.0060685 0.0738856 0.9939315 -0.0738856
154540 0.9933931 -0.0772106 0.0066069 0.0772106 0.0066069 0.0772106 0.9933931 -0.0772106
161617 0.9928059 -0.0806811 0.0071941 0.0806811 0.0071941 0.0806811 0.9928059 -0.0806811
169018 0.9921656 -0.0843029 0.0078344 0.0843029 0.0078344 0.0843029 0.9921656 -0.0843029
176758 0.9914675 -0.0880818 0.0085325 0.0880818 0.0085325 0.0880818 0.9914675 -0.0880818
184852 0.9907063 -0.0920239 0.0092937 0.0920239 0.0092937 0.0920239 0.9907063 -0.0920239
193316 0.9898766 -0.0961353 0.0101234 0.0961353 0.0101234 0.0961353 0.9898766 -0.0961353
202169 0.9889721 -0.1004221 0.0110279 0.1004221 0.0110279 0.1004221 0.9889721 -0.1004221
211427 0.9879865 -0.1048908 0.0120135 0.1048908 0.0120135 0.1048908 0.9879865 -0.1048908
221108 0.9869125 -0.1095477 0.0130875 0.1095477 0.0130875 0.1095477 0.9869125 -0.1095477
231233 0.9857425 -0.1143992 0.0142575 0.1143992 0.0142575 0.1143992 0.9857425 -0.1143992
241822 0.9844682 -0.1194518 0.0155318 0.1194518 0.0155318 0.1194518 0.9844682 -0.1194518
252896 0.9830808 -0.1247118 0.0169192 0.1247118 0.0169192 0.1247118 0.9830808 -0.1247118
264476 0.9815704 -0.1301856 0.0184296 0.1301856 0.0184296 0.1301856 0.9815704 -0.1301856
276587 0.9799269 -0.1358795 0.0200731 0.1358795 0.0200731 0.1358795 0.9799269 -0.1358795
289253 0.9781389 -0.1417995 0.0218611 0.1417995 0.0218611 0.1417995 0.9781389 -0.1417995
302498 0.9761946 -0.1479517 0.0238054 0.1479517 0.0238054 0.1479517 0.9761946 -0.1479517
316350 0.9740809 -0.1543415 0.0259191 0.1543415 0.0259191 0.1543415 0.9740809 -0.1543415
330837 0.9717842 -0.1609744 0.0282158 0.1609744 0.0282158 0.1609744 0.9717842 -0.1609744
345986 0.9692896 -0.1678551 0.0307104 0.1678551 0.0307104 0.1678551 0.9692896 -0.1678551
361830 0.9665813 -0.1749881 0.0334187 0.1749881 0.0334187 0.1749881 0.9665813 -0.1749881
378399 0.9636425 -0.1823769 0.0363575 0.1823769 0.0363575 0.1823769 0.9636425 -0.1823769
395726 0.9604551 -0.1900247 0.0395449 0.1900247 0.0395449 0.1900247 0.9604551 -0.1900247
413847 0.9570002 -0.1979333 0.0429998 0.1979333 0.0429998 0.1979333 0.9570002 -0.1979333
432798 0.9532575 -0.2061040 0.0467425 0.2061040 0.0467425 0.2061040 0.9532575 -0.2061040
452617 0.9492056 -0.2145365 0.0507944 0.2145365 0.0507944 0.2145365 0.9492056 -0.2145365
473344 0.9448221 -0.2232293 0.0551779 0.2232293 0.0551779 0.2232293 0.9448221 -0.2232293
495019 0.9400832 -0.2321793 0.0599168 0.2321793 0.0599168 0.2321793 0.9400832 -0.2321793
517687 0.9349643 -0.2413818 0.0650357 0.2413818 0.0650357 0.2413818 0.9349643 -0.2413818
541393 0.9294397 -0.2508297 0.0705603 0.2508297 0.0705603 0.2508297 0.9294397 -0.2508297
566185 0.9234826 -0.2605141 0.0765174 0.2605141 0.0765174 0.2605141 0.9234826 -0.2605141
592111 0.9170657 -0.2704233 0.0829343 0.2704233 0.0829343 0.2704233 0.9170657 -0.2704233
619225 0.9101609 -0.2805431 0.0898391 0.2805431 0.0898391 0.2805431 0.9101609 -0.2805431
647581 0.9027398 -0.2908563 0.0972602 0.2908563 0.0972602 0.2908563 0.9027398 -0.2908563
677235 0.8947738 -0.3013424 0.1052262 0.3013424 0.1052262 0.3013424 0.8947738 -0.3013424
708247 0.8862345 -0.3119775 0.1137655 0.3119775 0.1137655 0.3119775 0.8862345 -0.3119775
740679 0.8770940 -0.3227340 0.1229060 0.3227340 0.1229060 0.3227340 0.8770940 -0.3227340
774597 0.8673254 -0.3335805 0.1326746 0.3335805 0.1326746 0.3335805 0.8673254 -0.3335805
810067 0.8569031 -0.3444816 0.1430969 0.3444816 0.1430969 0.3444816 0.8569031 -0.3444816
847162 0.8458034 -0.3553980 0.1541966 0.3553980 0.1541966 0.3553980 0.8458034 -0.3553980
885955 0.8340054 -0.3662859 0.1659946 0.3662859 0.1659946 0.3662859 0.8340054 -0.3662859
926525 0.8214910 -0.3770980 0.1785090 0.3770980 0.1785090 0.3770980 0.8214910 -0.3770980
968953 0.8082459 -0.3877827 0.1917541 0.3877827 0.1917541 0.3877827 0.8082459 -0.3877827
1013323 0.7942603 -0.3982850 0.2057397 0.3982850 0.2057397 0.3982850 0.7942603 -0.3982850
1059725 0.7795295 -0.4085464 0.2204705 0.4085464 0.2204705 0.4085464 0.7795295 -0.4085464
1108252 0.7640543 -0.4185060 0.2359457 0.4185060 0.2359457 0.4185060 0.7640543 -0.4185060
1159002 0.7478419 -0.4281004 0.2521581 0.4281004 0.2521581 0.4281004 0.7478419 -0.4281004
1212075 0.7309064 -0.4372649 0.2690936 0.4372649 0.2690936 0.4372649 0.7309064 -0.4372649
1267578 0.7132690 -0.4459340 0.2867310 0.4459340 0.2867310 0.4459340 0.7132690 -0.4459340
1325623 0.6949587 -0.4540427 0.3050413 0.4540427 0.3050413 0.4540427 0.6949587 -0.4540427
1386327 0.6760119 -0.4615275 0.3239881 0.4615275 0.3239881 0.4615275 0.6760119 -0.4615275
1449809 0.6564730 -0.4683270 0.3435270 0.4683270 0.3435270 0.4683270 0.6564730 -0.4683270
1516199 0.6363941 -0.4743836 0.3636059 0.4743836 0.3636059 0.4743836 0.6363941 -0.4743836
1585629 0.6158342 -0.4796446 0.3841658 0.4796446 0.3841658 0.4796446 0.6158342 -0.4796446
1658239 0.5948591 -0.4840626 0.4051409 0.4840626 0.4051409 0.4840626 0.5948591 -0.4840626
1734173 0.5735407 -0.4875974 0.4264593 0.4875974 0.4264593 0.4875974 0.5735407 -0.4875974
1813585 0.5519556 -0.4902164 0.4480444 0.4902164 0.4480444 0.4902164 0.5519556 -0.4902164
1896632 0.5301845 -0.4918951 0.4698155 0.4918951 0.4698155 0.4918951 0.5301845 -0.4918951
1983483 0.5083108 -0.4926184 0.4916892 0.4926184 0.4916892 0.4926184 0.5083108 -0.4926184
2074311 0.4864191 -0.4923800 0.5135809 0.4923800 0.5135809 0.4923800 0.4864191 -0.4923800
