!Murata Part Number: GRM022R60G153ME15
!These Parameters are Measured in Series Mode Connection
!Data Generated on Mar 30, 2021
!       o--ll--o
!Port1            Port2
!       o------o
!Operation Temp=25[degC], DC Bias Voltage=0[V]
!Freq. Start=100[Hz] Stop=6[GHz] 401[Steps]
# Hz S RI R 50
!Freq.(Hz) S11(Real) S11(Imag) S21(Real) S21(Imag) S12(Real) S12(Imag) S22(Real) S22(Imag)
100 0.9999913 -0.0008241 0.0000087 0.0008241 0.0000087 0.0008241 0.9999913 -0.0008241
105 0.9999909 -0.0008616 0.0000091 0.0008616 0.0000091 0.0008616 0.9999909 -0.0008616
109 0.9999904 -0.0009008 0.0000096 0.0009008 0.0000096 0.0009008 0.9999904 -0.0009008
114 0.9999899 -0.0009417 0.0000101 0.0009417 0.0000101 0.0009417 0.9999899 -0.0009417
120 0.9999894 -0.0009845 0.0000106 0.0009845 0.0000106 0.0009845 0.9999894 -0.0009845
125 0.9999889 -0.0010293 0.0000111 0.0010293 0.0000111 0.0010293 0.9999889 -0.0010293
131 0.9999883 -0.0010761 0.0000117 0.0010761 0.0000117 0.0010761 0.9999883 -0.0010761
137 0.9999877 -0.0011250 0.0000123 0.0011250 0.0000123 0.0011250 0.9999877 -0.0011250
143 0.9999871 -0.0011762 0.0000129 0.0011762 0.0000129 0.0011762 0.9999871 -0.0011762
150 0.9999864 -0.0012296 0.0000136 0.0012296 0.0000136 0.0012296 0.9999864 -0.0012296
156 0.9999857 -0.0012855 0.0000143 0.0012855 0.0000143 0.0012855 0.9999857 -0.0012855
164 0.9999850 -0.0013440 0.0000150 0.0013440 0.0000150 0.0013440 0.9999850 -0.0013440
171 0.9999843 -0.0014051 0.0000157 0.0014051 0.0000157 0.0014051 0.9999843 -0.0014051
179 0.9999835 -0.0014690 0.0000165 0.0014690 0.0000165 0.0014690 0.9999835 -0.0014690
187 0.9999827 -0.0015357 0.0000173 0.0015357 0.0000173 0.0015357 0.9999827 -0.0015357
196 0.9999818 -0.0016056 0.0000182 0.0016056 0.0000182 0.0016056 0.9999818 -0.0016056
205 0.9999809 -0.0016786 0.0000191 0.0016786 0.0000191 0.0016786 0.9999809 -0.0016786
214 0.9999799 -0.0017549 0.0000201 0.0017549 0.0000201 0.0017549 0.9999799 -0.0017549
224 0.9999790 -0.0018347 0.0000210 0.0018347 0.0000210 0.0018347 0.9999790 -0.0018347
234 0.9999779 -0.0019181 0.0000221 0.0019181 0.0000221 0.0019181 0.9999779 -0.0019181
245 0.9999768 -0.0020054 0.0000232 0.0020054 0.0000232 0.0020054 0.9999768 -0.0020054
256 0.9999757 -0.0020966 0.0000243 0.0020966 0.0000243 0.0020966 0.9999757 -0.0020966
268 0.9999744 -0.0021920 0.0000256 0.0021920 0.0000256 0.0021920 0.9999744 -0.0021920
280 0.9999732 -0.0022917 0.0000268 0.0022917 0.0000268 0.0022917 0.9999732 -0.0022917
293 0.9999718 -0.0023960 0.0000282 0.0023960 0.0000282 0.0023960 0.9999718 -0.0023960
306 0.9999704 -0.0025050 0.0000296 0.0025050 0.0000296 0.0025050 0.9999704 -0.0025050
320 0.9999689 -0.0026190 0.0000311 0.0026190 0.0000311 0.0026190 0.9999689 -0.0026190
335 0.9999673 -0.0027382 0.0000327 0.0027382 0.0000327 0.0027382 0.9999673 -0.0027382
350 0.9999655 -0.0028628 0.0000345 0.0028628 0.0000345 0.0028628 0.9999655 -0.0028628
366 0.9999637 -0.0029932 0.0000363 0.0029932 0.0000363 0.0029932 0.9999637 -0.0029932
383 0.9999618 -0.0031294 0.0000382 0.0031294 0.0000382 0.0031294 0.9999618 -0.0031294
401 0.9999597 -0.0032719 0.0000403 0.0032719 0.0000403 0.0032719 0.9999597 -0.0032719
419 0.9999575 -0.0034209 0.0000425 0.0034209 0.0000425 0.0034209 0.9999575 -0.0034209
438 0.9999551 -0.0035766 0.0000449 0.0035766 0.0000449 0.0035766 0.9999551 -0.0035766
458 0.9999526 -0.0037395 0.0000474 0.0037395 0.0000474 0.0037395 0.9999526 -0.0037395
479 0.9999499 -0.0039098 0.0000501 0.0039098 0.0000501 0.0039098 0.9999499 -0.0039098
501 0.9999470 -0.0040878 0.0000530 0.0040878 0.0000530 0.0040878 0.9999470 -0.0040878
524 0.9999439 -0.0042740 0.0000561 0.0042740 0.0000561 0.0042740 0.9999439 -0.0042740
548 0.9999406 -0.0044686 0.0000594 0.0044686 0.0000594 0.0044686 0.9999406 -0.0044686
573 0.9999370 -0.0046721 0.0000630 0.0046721 0.0000630 0.0046721 0.9999370 -0.0046721
600 0.9999332 -0.0048848 0.0000668 0.0048848 0.0000668 0.0048848 0.9999332 -0.0048848
627 0.9999291 -0.0051072 0.0000709 0.0051072 0.0000709 0.0051072 0.9999291 -0.0051072
656 0.9999247 -0.0053397 0.0000753 0.0053397 0.0000753 0.0053397 0.9999247 -0.0053397
686 0.9999200 -0.0055828 0.0000800 0.0055828 0.0000800 0.0055828 0.9999200 -0.0055828
717 0.9999150 -0.0058370 0.0000850 0.0058370 0.0000850 0.0058370 0.9999150 -0.0058370
750 0.9999096 -0.0061027 0.0000904 0.0061027 0.0000904 0.0061027 0.9999096 -0.0061027
784 0.9999038 -0.0063805 0.0000962 0.0063805 0.0000962 0.0063805 0.9999038 -0.0063805
820 0.9998975 -0.0066709 0.0001025 0.0066709 0.0001025 0.0066709 0.9998975 -0.0066709
858 0.9998909 -0.0069746 0.0001091 0.0069746 0.0001091 0.0069746 0.9998909 -0.0069746
897 0.9998837 -0.0072920 0.0001163 0.0072920 0.0001163 0.0072920 0.9998837 -0.0072920
938 0.9998761 -0.0076239 0.0001239 0.0076239 0.0001239 0.0076239 0.9998761 -0.0076239
981 0.9998679 -0.0079709 0.0001321 0.0079709 0.0001321 0.0079709 0.9998679 -0.0079709
1026 0.9998591 -0.0083337 0.0001409 0.0083337 0.0001409 0.0083337 0.9998591 -0.0083337
1073 0.9998496 -0.0087130 0.0001504 0.0087130 0.0001504 0.0087130 0.9998496 -0.0087130
1122 0.9998394 -0.0091096 0.0001606 0.0091096 0.0001606 0.0091096 0.9998394 -0.0091096
1174 0.9998285 -0.0095242 0.0001715 0.0095242 0.0001715 0.0095242 0.9998285 -0.0095242
1227 0.9998167 -0.0099577 0.0001833 0.0099577 0.0001833 0.0099577 0.9998167 -0.0099577
1283 0.9998040 -0.0104109 0.0001960 0.0104109 0.0001960 0.0104109 0.9998040 -0.0104109
1342 0.9997904 -0.0108848 0.0002096 0.0108848 0.0002096 0.0108848 0.9997904 -0.0108848
1404 0.9997757 -0.0113803 0.0002243 0.0113803 0.0002243 0.0113803 0.9997757 -0.0113803
1468 0.9997598 -0.0118984 0.0002402 0.0118984 0.0002402 0.0118984 0.9997598 -0.0118984
1535 0.9997427 -0.0124401 0.0002573 0.0124401 0.0002573 0.0124401 0.9997427 -0.0124401
1606 0.9997241 -0.0130065 0.0002759 0.0130065 0.0002759 0.0130065 0.9997241 -0.0130065
1679 0.9997041 -0.0135987 0.0002959 0.0135987 0.0002959 0.0135987 0.9997041 -0.0135987
1756 0.9996824 -0.0142179 0.0003176 0.0142179 0.0003176 0.0142179 0.9996824 -0.0142179
1836 0.9996589 -0.0148654 0.0003411 0.0148654 0.0003411 0.0148654 0.9996589 -0.0148654
1920 0.9996334 -0.0155423 0.0003666 0.0155423 0.0003666 0.0155423 0.9996334 -0.0155423
2008 0.9996057 -0.0162501 0.0003943 0.0162501 0.0003943 0.0162501 0.9996057 -0.0162501
2100 0.9995757 -0.0169901 0.0004243 0.0169901 0.0004243 0.0169901 0.9995757 -0.0169901
2196 0.9995432 -0.0177638 0.0004568 0.0177638 0.0004568 0.0177638 0.9995432 -0.0177638
2297 0.9995078 -0.0185727 0.0004922 0.0185727 0.0004922 0.0185727 0.9995078 -0.0185727
2402 0.9994694 -0.0194184 0.0005306 0.0194184 0.0005306 0.0194184 0.9994694 -0.0194184
2512 0.9994276 -0.0203026 0.0005724 0.0203026 0.0005724 0.0203026 0.9994276 -0.0203026
2627 0.9993821 -0.0212270 0.0006179 0.0212270 0.0006179 0.0212270 0.9993821 -0.0212270
2748 0.9993327 -0.0221933 0.0006673 0.0221933 0.0006673 0.0221933 0.9993327 -0.0221933
2873 0.9992790 -0.0232036 0.0007210 0.0232036 0.0007210 0.0232036 0.9992790 -0.0232036
3005 0.9992205 -0.0242596 0.0007795 0.0242596 0.0007795 0.0242596 0.9992205 -0.0242596
3143 0.9991570 -0.0253636 0.0008430 0.0253636 0.0008430 0.0253636 0.9991570 -0.0253636
3287 0.9990878 -0.0265176 0.0009122 0.0265176 0.0009122 0.0265176 0.9990878 -0.0265176
3437 0.9990125 -0.0277239 0.0009875 0.0277239 0.0009875 0.0277239 0.9990125 -0.0277239
3594 0.9989306 -0.0289847 0.0010694 0.0289847 0.0010694 0.0289847 0.9989306 -0.0289847
3759 0.9988415 -0.0303026 0.0011585 0.0303026 0.0011585 0.0303026 0.9988415 -0.0303026
3931 0.9987446 -0.0316800 0.0012554 0.0316800 0.0012554 0.0316800 0.9987446 -0.0316800
4111 0.9986391 -0.0331197 0.0013609 0.0331197 0.0013609 0.0331197 0.9986391 -0.0331197
4299 0.9985244 -0.0346242 0.0014756 0.0346242 0.0014756 0.0346242 0.9985244 -0.0346242
4496 0.9983996 -0.0361967 0.0016004 0.0361967 0.0016004 0.0361967 0.9983996 -0.0361967
4702 0.9982638 -0.0378400 0.0017362 0.0378400 0.0017362 0.0378400 0.9982638 -0.0378400
4918 0.9981160 -0.0395572 0.0018840 0.0395572 0.0018840 0.0395572 0.9981160 -0.0395572
5143 0.9979553 -0.0413517 0.0020447 0.0413517 0.0020447 0.0413517 0.9979553 -0.0413517
5378 0.9977805 -0.0432269 0.0022195 0.0432269 0.0022195 0.0432269 0.9977805 -0.0432269
5625 0.9975902 -0.0451862 0.0024098 0.0451862 0.0024098 0.0451862 0.9975902 -0.0451862
5882 0.9973832 -0.0472335 0.0026168 0.0472335 0.0026168 0.0472335 0.9973832 -0.0472335
6151 0.9971580 -0.0493725 0.0028420 0.0493725 0.0028420 0.0493725 0.9971580 -0.0493725
6433 0.9969129 -0.0516073 0.0030871 0.0516073 0.0030871 0.0516073 0.9969129 -0.0516073
6728 0.9966461 -0.0539421 0.0033539 0.0539421 0.0033539 0.0539421 0.9966461 -0.0539421
7036 0.9963558 -0.0563811 0.0036442 0.0563811 0.0036442 0.0563811 0.9963558 -0.0563811
7358 0.9960397 -0.0589289 0.0039603 0.0589289 0.0039603 0.0589289 0.9960397 -0.0589289
7695 0.9956955 -0.0615901 0.0043045 0.0615901 0.0043045 0.0615901 0.9956955 -0.0615901
8047 0.9953208 -0.0643696 0.0046792 0.0643696 0.0046792 0.0643696 0.9953208 -0.0643696
8416 0.9949127 -0.0672725 0.0050873 0.0672725 0.0050873 0.0672725 0.9949127 -0.0672725
8801 0.9944681 -0.0703038 0.0055319 0.0703038 0.0055319 0.0703038 0.9944681 -0.0703038
9204 0.9939839 -0.0734690 0.0060161 0.0734690 0.0060161 0.0734690 0.9939839 -0.0734690
9626 0.9934563 -0.0767735 0.0065437 0.0767735 0.0065437 0.0767735 0.9934563 -0.0767735
10066 0.9928815 -0.0802231 0.0071185 0.0802231 0.0071185 0.0802231 0.9928815 -0.0802231
10527 0.9922551 -0.0838236 0.0077449 0.0838236 0.0077449 0.0838236 0.9922551 -0.0838236
11009 0.9915724 -0.0875809 0.0084276 0.0875809 0.0084276 0.0875809 0.9915724 -0.0875809
11514 0.9908285 -0.0915013 0.0091715 0.0915013 0.0091715 0.0915013 0.9908285 -0.0915013
12041 0.9900177 -0.0955909 0.0099823 0.0955909 0.0099823 0.0955909 0.9900177 -0.0955909
12592 0.9891340 -0.0998561 0.0108660 0.0998561 0.0108660 0.0998561 0.9891340 -0.0998561
13169 0.9881710 -0.1043034 0.0118290 0.1043034 0.0118290 0.1043034 0.9881710 -0.1043034
13772 0.9871215 -0.1089394 0.0128785 0.1089394 0.0128785 0.1089394 0.9871215 -0.1089394
14402 0.9859779 -0.1137705 0.0140221 0.1137705 0.0140221 0.1137705 0.9859779 -0.1137705
15062 0.9847319 -0.1188035 0.0152681 0.1188035 0.0152681 0.1188035 0.9847319 -0.1188035
15752 0.9833746 -0.1240448 0.0166254 0.1240448 0.0166254 0.1240448 0.9833746 -0.1240448
16473 0.9818962 -0.1295011 0.0181038 0.1295011 0.0181038 0.1295011 0.9818962 -0.1295011
17227 0.9802863 -0.1351787 0.0197137 0.1351787 0.0197137 0.1351787 0.9802863 -0.1351787
18016 0.9785336 -0.1410839 0.0214664 0.1410839 0.0214664 0.1410839 0.9785336 -0.1410839
18841 0.9766261 -0.1472227 0.0233739 0.1472227 0.0233739 0.1472227 0.9766261 -0.1472227
19704 0.9745508 -0.1536009 0.0254492 0.1536009 0.0254492 0.1536009 0.9745508 -0.1536009
20606 0.9722936 -0.1602240 0.0277064 0.1602240 0.0277064 0.1602240 0.9722936 -0.1602240
21550 0.9698397 -0.1670968 0.0301603 0.1670968 0.0301603 0.1670968 0.9698397 -0.1670968
22537 0.9671730 -0.1742237 0.0328270 0.1742237 0.0328270 0.1742237 0.9671730 -0.1742237
23569 0.9642767 -0.1816085 0.0357233 0.1816085 0.0357233 0.1816085 0.9642767 -0.1816085
24648 0.9611326 -0.1892541 0.0388674 0.1892541 0.0388674 0.1892541 0.9611326 -0.1892541
25777 0.9577214 -0.1971626 0.0422786 0.1971626 0.0422786 0.1971626 0.9577214 -0.1971626
26957 0.9540230 -0.2053349 0.0459770 0.2053349 0.0459770 0.2053349 0.9540230 -0.2053349
28191 0.9500158 -0.2137708 0.0499842 0.2137708 0.0499842 0.2137708 0.9500158 -0.2137708
29482 0.9456772 -0.2224688 0.0543228 0.2224688 0.0543228 0.2224688 0.9456772 -0.2224688
30832 0.9409838 -0.2314255 0.0590162 0.2314255 0.0590162 0.2314255 0.9409838 -0.2314255
32244 0.9359107 -0.2406361 0.0640893 0.2406361 0.0640893 0.2406361 0.9359107 -0.2406361
33721 0.9304326 -0.2500935 0.0695674 0.2500935 0.0695674 0.2500935 0.9304326 -0.2500935
35265 0.9245228 -0.2597887 0.0754772 0.2597887 0.0754772 0.2597887 0.9245228 -0.2597887
36880 0.9181543 -0.2697101 0.0818457 0.2697101 0.0818457 0.2697101 0.9181543 -0.2697101
38569 0.9112992 -0.2798434 0.0887008 0.2798434 0.0887008 0.2798434 0.9112992 -0.2798434
40335 0.9039296 -0.2901717 0.0960704 0.2901717 0.0960704 0.2901717 0.9039296 -0.2901717
42182 0.8960173 -0.3006747 0.1039827 0.3006747 0.1039827 0.3006747 0.8960173 -0.3006747
44113 0.8875341 -0.3113290 0.1124659 0.3113290 0.1124659 0.3113290 0.8875341 -0.3113290
46134 0.8784525 -0.3221074 0.1215475 0.3221074 0.1215475 0.3221074 0.8784525 -0.3221074
48246 0.8687459 -0.3329793 0.1312541 0.3329793 0.1312541 0.3329793 0.8687459 -0.3329793
50455 0.8583890 -0.3439101 0.1416110 0.3439101 0.1416110 0.3439101 0.8583890 -0.3439101
52766 0.8473581 -0.3548613 0.1526419 0.3548613 0.1526419 0.3548613 0.8473581 -0.3548613
55182 0.8356320 -0.3657905 0.1643680 0.3657905 0.1643680 0.3657905 0.8356320 -0.3657905
57709 0.8231925 -0.3766512 0.1768075 0.3766512 0.1768075 0.3766512 0.8231925 -0.3766512
60352 0.8100247 -0.3873932 0.1899753 0.3873932 0.1899753 0.3873932 0.8100247 -0.3873932
63115 0.7961179 -0.3979625 0.2038821 0.3979625 0.2038821 0.3979625 0.7961179 -0.3979625
66005 0.7814661 -0.4083020 0.2185339 0.4083020 0.2185339 0.4083020 0.7814661 -0.4083020
69028 0.7660690 -0.4183515 0.2339310 0.4183515 0.2339310 0.4183515 0.7660690 -0.4183515
72189 0.7499319 -0.4280485 0.2500681 0.4280485 0.2500681 0.4280485 0.7499319 -0.4280485
75495 0.7330671 -0.4373289 0.2669329 0.4373289 0.2669329 0.4373289 0.7330671 -0.4373289
78952 0.7154935 -0.4461273 0.2845065 0.4461273 0.2845065 0.4461273 0.7154935 -0.4461273
82567 0.6972378 -0.4543786 0.3027622 0.4543786 0.3027622 0.4543786 0.6972378 -0.4543786
86348 0.6783343 -0.4620185 0.3216657 0.4620185 0.3216657 0.4620185 0.6783343 -0.4620185
90302 0.6588250 -0.4689848 0.3411750 0.4689848 0.3411750 0.4689848 0.6588250 -0.4689848
94437 0.6387595 -0.4752183 0.3612405 0.4752183 0.3612405 0.4752183 0.6387595 -0.4752183
98762 0.6181952 -0.4806641 0.3818048 0.4806641 0.3818048 0.4806641 0.6181952 -0.4806641
103284 0.5971961 -0.4852727 0.4028039 0.4852727 0.4028039 0.4852727 0.5971961 -0.4852727
108014 0.5758327 -0.4890011 0.4241673 0.4890011 0.4241673 0.4890011 0.5758327 -0.4890011
112960 0.5541810 -0.4918134 0.4458190 0.4918134 0.4458190 0.4918134 0.5541810 -0.4918134
118133 0.5323215 -0.4936824 0.4676785 0.4936824 0.4676785 0.4936824 0.5323215 -0.4936824
123542 0.5103377 -0.4945895 0.4896623 0.4945895 0.4896623 0.4945895 0.5103377 -0.4945895
129199 0.4883154 -0.4945253 0.5116846 0.4945253 0.5116846 0.4945253 0.4883154 -0.4945253
135116 0.4663410 -0.4934903 0.5336590 0.4934903 0.5336590 0.4934903 0.4663410 -0.4934903
141303 0.4445002 -0.4914943 0.5554998 0.4914943 0.5554998 0.4914943 0.4445002 -0.4914943
147774 0.4228766 -0.4885566 0.5771234 0.4885566 0.5771234 0.4885566 0.4228766 -0.4885566
154540 0.4015504 -0.4847053 0.5984496 0.4847053 0.5984496 0.4847053 0.4015504 -0.4847053
161617 0.3805975 -0.4799768 0.6194025 0.4799768 0.6194025 0.4799768 0.3805975 -0.4799768
169018 0.3600881 -0.4744149 0.6399119 0.4744149 0.6399119 0.4744149 0.3600881 -0.4744149
176758 0.3400862 -0.4680697 0.6599138 0.4680697 0.6599138 0.4680697 0.3400862 -0.4680697
184852 0.3206485 -0.4609970 0.6793515 0.4609970 0.6793515 0.4609970 0.3206485 -0.4609970
193316 0.3018243 -0.4532564 0.6981757 0.4532564 0.6981757 0.4532564 0.3018243 -0.4532564
202169 0.2836551 -0.4449110 0.7163449 0.4449110 0.7163449 0.4449110 0.2836551 -0.4449110
211427 0.2661747 -0.4360256 0.7338253 0.4360256 0.7338253 0.4360256 0.2661747 -0.4360256
221108 0.2494089 -0.4266660 0.7505911 0.4266660 0.7505911 0.4266660 0.2494089 -0.4266660
231233 0.2333761 -0.4168979 0.7666239 0.4168979 0.7666239 0.4168979 0.2333761 -0.4168979
241822 0.2180876 -0.4067858 0.7819124 0.4067858 0.7819124 0.4067858 0.2180876 -0.4067858
252896 0.2035480 -0.3963927 0.7964520 0.3963927 0.7964520 0.3963927 0.2035480 -0.3963927
264476 0.1897559 -0.3857789 0.8102441 0.3857789 0.8102441 0.3857789 0.1897559 -0.3857789
276587 0.1767046 -0.3750016 0.8232954 0.3750016 0.8232954 0.3750016 0.1767046 -0.3750016
289253 0.1643823 -0.3641148 0.8356177 0.3641148 0.8356177 0.3641148 0.1643823 -0.3641148
302498 0.1527734 -0.3531686 0.8472266 0.3531686 0.8472266 0.3531686 0.1527734 -0.3531686
316350 0.1418587 -0.3422092 0.8581413 0.3422092 0.8581413 0.3422092 0.1418587 -0.3422092
330837 0.1316160 -0.3312786 0.8683840 0.3312786 0.8683840 0.3312786 0.1316160 -0.3312786
345986 0.1220213 -0.3204151 0.8779787 0.3204151 0.8779787 0.3204151 0.1220213 -0.3204151
361830 0.1130483 -0.3096527 0.8869517 0.3096527 0.8869517 0.3096527 0.1130483 -0.3096527
378399 0.1046698 -0.2990214 0.8953302 0.2990214 0.8953302 0.2990214 0.1046698 -0.2990214
395726 0.0968579 -0.2885479 0.9031421 0.2885479 0.9031421 0.2885479 0.0968579 -0.2885479
413847 0.0895839 -0.2782549 0.9104161 0.2782549 0.9104161 0.2782549 0.0895839 -0.2782549
432798 0.0828195 -0.2681619 0.9171805 0.2681619 0.9171805 0.2681619 0.0828195 -0.2681619
452617 0.0765362 -0.2582855 0.9234638 0.2582855 0.9234638 0.2582855 0.0765362 -0.2582855
473344 0.0707062 -0.2486392 0.9292938 0.2486392 0.9292938 0.2486392 0.0707062 -0.2486392
495019 0.0653021 -0.2392340 0.9346979 0.2392340 0.9346979 0.2392340 0.0653021 -0.2392340
517687 0.0602976 -0.2300782 0.9397024 0.2300782 0.9397024 0.2300782 0.0602976 -0.2300782
541393 0.0556671 -0.2211785 0.9443329 0.2211785 0.9443329 0.2211785 0.0556671 -0.2211785
566185 0.0513860 -0.2125392 0.9486140 0.2125392 0.9486140 0.2125392 0.0513860 -0.2125392
592111 0.0474309 -0.2041629 0.9525691 0.2041629 0.9525691 0.2041629 0.0474309 -0.2041629
619225 0.0437792 -0.1960510 0.9562208 0.1960510 0.9562208 0.1960510 0.0437792 -0.1960510
647581 0.0404099 -0.1882033 0.9595901 0.1882033 0.9595901 0.1882033 0.0404099 -0.1882033
677235 0.0373027 -0.1806184 0.9626973 0.1806184 0.9626973 0.1806184 0.0373027 -0.1806184
708247 0.0344386 -0.1732939 0.9655614 0.1732939 0.9655614 0.1732939 0.0344386 -0.1732939
740679 0.0317998 -0.1662266 0.9682002 0.1662266 0.9682002 0.1662266 0.0317998 -0.1662266
774597 0.0293695 -0.1594126 0.9706305 0.1594126 0.9706305 0.1594126 0.0293695 -0.1594126
810067 0.0271320 -0.1528471 0.9728680 0.1528471 0.9728680 0.1528471 0.0271320 -0.1528471
847162 0.0250725 -0.1465252 0.9749275 0.1465252 0.9749275 0.1465252 0.0250725 -0.1465252
885955 0.0231773 -0.1404411 0.9768227 0.1404411 0.9768227 0.1404411 0.0231773 -0.1404411
926525 0.0214337 -0.1345890 0.9785663 0.1345890 0.9785663 0.1345890 0.0214337 -0.1345890
968953 0.0198298 -0.1289628 0.9801702 0.1289628 0.9801702 0.1289628 0.0198298 -0.1289628
1013323 0.0183545 -0.1235560 0.9816455 0.1235560 0.9816455 0.1235560 0.0183545 -0.1235560
1059725 0.0169975 -0.1183620 0.9830025 0.1183620 0.9830025 0.1183620 0.0169975 -0.1183620
1108252 0.0157495 -0.1133744 0.9842505 0.1133744 0.9842505 0.1133744 0.0157495 -0.1133744
1159002 0.0146016 -0.1085865 0.9853984 0.1085865 0.9853984 0.1085865 0.0146016 -0.1085865
1212075 0.0135459 -0.1039915 0.9864541 0.1039915 0.9864541 0.1039915 0.0135459 -0.1039915
1267578 0.0125747 -0.0995830 0.9874253 0.0995830 0.9874253 0.0995830 0.0125747 -0.0995830
1325623 0.0116813 -0.0953542 0.9883187 0.0953542 0.9883187 0.0953542 0.0116813 -0.0953542
1386327 0.0108593 -0.0912988 0.9891407 0.0912988 0.9891407 0.0912988 0.0108593 -0.0912988
1449809 0.0101029 -0.0874103 0.9898971 0.0874103 0.9898971 0.0874103 0.0101029 -0.0874103
1516199 0.0094068 -0.0836826 0.9905932 0.0836826 0.9905932 0.0836826 0.0094068 -0.0836826
1585629 0.0087661 -0.0801096 0.9912339 0.0801096 0.9912339 0.0801096 0.0087661 -0.0801096
1658239 0.0081763 -0.0766852 0.9918237 0.0766852 0.9918237 0.0766852 0.0081763 -0.0766852
1734173 0.0076332 -0.0734038 0.9923668 0.0734038 0.9923668 0.0734038 0.0076332 -0.0734038
1813585 0.0071331 -0.0702597 0.9928669 0.0702597 0.9928669 0.0702597 0.0071331 -0.0702597
1896632 0.0066724 -0.0672475 0.9933276 0.0672475 0.9933276 0.0672475 0.0066724 -0.0672475
1983483 0.0062481 -0.0643618 0.9937519 0.0643618 0.9937519 0.0643618 0.0062481 -0.0643618
2074311 0.0058571 -0.0615977 0.9941429 0.0615977 0.9941429 0.0615977 0.0058571 -0.0615977
