!Murata Part Number: GRM022R71A681KA12
!These Parameters are Measured in Series Mode Connection
!Data Generated on Mar 30, 2021
!       o--ll--o
!Port1            Port2
!       o------o
!Operation Temp=25[degC], DC Bias Voltage=0[V]
!Freq. Start=100[Hz] Stop=6[GHz] 401[Steps]
# Hz S RI R 50
!Freq.(Hz) S11(Real) S11(Imag) S21(Real) S21(Imag) S12(Real) S12(Imag) S22(Real) S22(Imag)
100 0.9999998 -0.0000430 0.0000002 0.0000430 0.0000002 0.0000430 0.9999998 -0.0000430
105 0.9999998 -0.0000449 0.0000002 0.0000449 0.0000002 0.0000449 0.9999998 -0.0000449
109 0.9999997 -0.0000470 0.0000003 0.0000470 0.0000003 0.0000470 0.9999997 -0.0000470
114 0.9999997 -0.0000491 0.0000003 0.0000491 0.0000003 0.0000491 0.9999997 -0.0000491
120 0.9999997 -0.0000513 0.0000003 0.0000513 0.0000003 0.0000513 0.9999997 -0.0000513
125 0.9999997 -0.0000537 0.0000003 0.0000537 0.0000003 0.0000537 0.9999997 -0.0000537
131 0.9999997 -0.0000561 0.0000003 0.0000561 0.0000003 0.0000561 0.9999997 -0.0000561
137 0.9999997 -0.0000587 0.0000003 0.0000587 0.0000003 0.0000587 0.9999997 -0.0000587
143 0.9999997 -0.0000614 0.0000003 0.0000614 0.0000003 0.0000614 0.9999997 -0.0000614
150 0.9999996 -0.0000642 0.0000004 0.0000642 0.0000004 0.0000642 0.9999996 -0.0000642
156 0.9999996 -0.0000671 0.0000004 0.0000671 0.0000004 0.0000671 0.9999996 -0.0000671
164 0.9999996 -0.0000702 0.0000004 0.0000702 0.0000004 0.0000702 0.9999996 -0.0000702
171 0.9999996 -0.0000734 0.0000004 0.0000734 0.0000004 0.0000734 0.9999996 -0.0000734
179 0.9999996 -0.0000767 0.0000004 0.0000767 0.0000004 0.0000767 0.9999996 -0.0000767
187 0.9999996 -0.0000802 0.0000004 0.0000802 0.0000004 0.0000802 0.9999996 -0.0000802
196 0.9999995 -0.0000839 0.0000005 0.0000839 0.0000005 0.0000839 0.9999995 -0.0000839
205 0.9999995 -0.0000877 0.0000005 0.0000877 0.0000005 0.0000877 0.9999995 -0.0000877
214 0.9999995 -0.0000917 0.0000005 0.0000917 0.0000005 0.0000917 0.9999995 -0.0000917
224 0.9999995 -0.0000959 0.0000005 0.0000959 0.0000005 0.0000959 0.9999995 -0.0000959
234 0.9999995 -0.0001002 0.0000005 0.0001002 0.0000005 0.0001002 0.9999995 -0.0001002
245 0.9999994 -0.0001048 0.0000006 0.0001048 0.0000006 0.0001048 0.9999994 -0.0001048
256 0.9999994 -0.0001096 0.0000006 0.0001096 0.0000006 0.0001096 0.9999994 -0.0001096
268 0.9999994 -0.0001146 0.0000006 0.0001146 0.0000006 0.0001146 0.9999994 -0.0001146
280 0.9999994 -0.0001198 0.0000006 0.0001198 0.0000006 0.0001198 0.9999994 -0.0001198
293 0.9999994 -0.0001253 0.0000006 0.0001253 0.0000006 0.0001253 0.9999994 -0.0001253
306 0.9999993 -0.0001310 0.0000007 0.0001310 0.0000007 0.0001310 0.9999993 -0.0001310
320 0.9999993 -0.0001370 0.0000007 0.0001370 0.0000007 0.0001370 0.9999993 -0.0001370
335 0.9999993 -0.0001433 0.0000007 0.0001433 0.0000007 0.0001433 0.9999993 -0.0001433
350 0.9999992 -0.0001498 0.0000008 0.0001498 0.0000008 0.0001498 0.9999992 -0.0001498
366 0.9999992 -0.0001567 0.0000008 0.0001567 0.0000008 0.0001567 0.9999992 -0.0001567
383 0.9999992 -0.0001638 0.0000008 0.0001638 0.0000008 0.0001638 0.9999992 -0.0001638
401 0.9999991 -0.0001713 0.0000009 0.0001713 0.0000009 0.0001713 0.9999991 -0.0001713
419 0.9999991 -0.0001791 0.0000009 0.0001791 0.0000009 0.0001791 0.9999991 -0.0001791
438 0.9999990 -0.0001873 0.0000010 0.0001873 0.0000010 0.0001873 0.9999990 -0.0001873
458 0.9999990 -0.0001958 0.0000010 0.0001958 0.0000010 0.0001958 0.9999990 -0.0001958
479 0.9999989 -0.0002048 0.0000011 0.0002048 0.0000011 0.0002048 0.9999989 -0.0002048
501 0.9999989 -0.0002141 0.0000011 0.0002141 0.0000011 0.0002141 0.9999989 -0.0002141
524 0.9999988 -0.0002239 0.0000012 0.0002239 0.0000012 0.0002239 0.9999988 -0.0002239
548 0.9999988 -0.0002341 0.0000012 0.0002341 0.0000012 0.0002341 0.9999988 -0.0002341
573 0.9999987 -0.0002448 0.0000013 0.0002448 0.0000013 0.0002448 0.9999987 -0.0002448
600 0.9999986 -0.0002560 0.0000014 0.0002560 0.0000014 0.0002560 0.9999986 -0.0002560
627 0.9999985 -0.0002677 0.0000015 0.0002677 0.0000015 0.0002677 0.9999985 -0.0002677
656 0.9999985 -0.0002799 0.0000015 0.0002799 0.0000015 0.0002799 0.9999985 -0.0002799
686 0.9999984 -0.0002927 0.0000016 0.0002927 0.0000016 0.0002927 0.9999984 -0.0002927
717 0.9999983 -0.0003061 0.0000017 0.0003061 0.0000017 0.0003061 0.9999983 -0.0003061
750 0.9999982 -0.0003200 0.0000018 0.0003200 0.0000018 0.0003200 0.9999982 -0.0003200
784 0.9999981 -0.0003346 0.0000019 0.0003346 0.0000019 0.0003346 0.9999981 -0.0003346
820 0.9999980 -0.0003499 0.0000020 0.0003499 0.0000020 0.0003499 0.9999980 -0.0003499
858 0.9999979 -0.0003659 0.0000021 0.0003659 0.0000021 0.0003659 0.9999979 -0.0003659
897 0.9999978 -0.0003825 0.0000022 0.0003825 0.0000022 0.0003825 0.9999978 -0.0003825
938 0.9999976 -0.0004000 0.0000024 0.0004000 0.0000024 0.0004000 0.9999976 -0.0004000
981 0.9999975 -0.0004182 0.0000025 0.0004182 0.0000025 0.0004182 0.9999975 -0.0004182
1026 0.9999974 -0.0004373 0.0000026 0.0004373 0.0000026 0.0004373 0.9999974 -0.0004373
1073 0.9999972 -0.0004573 0.0000028 0.0004573 0.0000028 0.0004573 0.9999972 -0.0004573
1122 0.9999971 -0.0004781 0.0000029 0.0004781 0.0000029 0.0004781 0.9999971 -0.0004781
1174 0.9999969 -0.0004999 0.0000031 0.0004999 0.0000031 0.0004999 0.9999969 -0.0004999
1227 0.9999968 -0.0005227 0.0000032 0.0005227 0.0000032 0.0005227 0.9999968 -0.0005227
1283 0.9999966 -0.0005465 0.0000034 0.0005465 0.0000034 0.0005465 0.9999966 -0.0005465
1342 0.9999964 -0.0005715 0.0000036 0.0005715 0.0000036 0.0005715 0.9999964 -0.0005715
1404 0.9999963 -0.0005975 0.0000037 0.0005975 0.0000037 0.0005975 0.9999963 -0.0005975
1468 0.9999961 -0.0006248 0.0000039 0.0006248 0.0000039 0.0006248 0.9999961 -0.0006248
1535 0.9999959 -0.0006533 0.0000041 0.0006533 0.0000041 0.0006533 0.9999959 -0.0006533
1606 0.9999957 -0.0006830 0.0000043 0.0006830 0.0000043 0.0006830 0.9999957 -0.0006830
1679 0.9999955 -0.0007142 0.0000045 0.0007142 0.0000045 0.0007142 0.9999955 -0.0007142
1756 0.9999952 -0.0007468 0.0000048 0.0007468 0.0000048 0.0007468 0.9999952 -0.0007468
1836 0.9999950 -0.0007808 0.0000050 0.0007808 0.0000050 0.0007808 0.9999950 -0.0007808
1920 0.9999948 -0.0008165 0.0000052 0.0008165 0.0000052 0.0008165 0.9999948 -0.0008165
2008 0.9999945 -0.0008537 0.0000055 0.0008537 0.0000055 0.0008537 0.9999945 -0.0008537
2100 0.9999942 -0.0008926 0.0000058 0.0008926 0.0000058 0.0008926 0.9999942 -0.0008926
2196 0.9999939 -0.0009334 0.0000061 0.0009334 0.0000061 0.0009334 0.9999939 -0.0009334
2297 0.9999936 -0.0009760 0.0000064 0.0009760 0.0000064 0.0009760 0.9999936 -0.0009760
2402 0.9999933 -0.0010205 0.0000067 0.0010205 0.0000067 0.0010205 0.9999933 -0.0010205
2512 0.9999930 -0.0010671 0.0000070 0.0010671 0.0000070 0.0010671 0.9999930 -0.0010671
2627 0.9999926 -0.0011158 0.0000074 0.0011158 0.0000074 0.0011158 0.9999926 -0.0011158
2748 0.9999922 -0.0011667 0.0000078 0.0011667 0.0000078 0.0011667 0.9999922 -0.0011667
2873 0.9999918 -0.0012199 0.0000082 0.0012199 0.0000082 0.0012199 0.9999918 -0.0012199
3005 0.9999914 -0.0012756 0.0000086 0.0012756 0.0000086 0.0012756 0.9999914 -0.0012756
3143 0.9999909 -0.0013338 0.0000091 0.0013338 0.0000091 0.0013338 0.9999909 -0.0013338
3287 0.9999904 -0.0013947 0.0000096 0.0013947 0.0000096 0.0013947 0.9999904 -0.0013947
3437 0.9999899 -0.0014584 0.0000101 0.0014584 0.0000101 0.0014584 0.9999899 -0.0014584
3594 0.9999893 -0.0015249 0.0000107 0.0015249 0.0000107 0.0015249 0.9999893 -0.0015249
3759 0.9999887 -0.0015945 0.0000113 0.0015945 0.0000113 0.0015945 0.9999887 -0.0015945
3931 0.9999880 -0.0016673 0.0000120 0.0016673 0.0000120 0.0016673 0.9999880 -0.0016673
4111 0.9999873 -0.0017434 0.0000127 0.0017434 0.0000127 0.0017434 0.9999873 -0.0017434
4299 0.9999866 -0.0018230 0.0000134 0.0018230 0.0000134 0.0018230 0.9999866 -0.0018230
4496 0.9999858 -0.0019062 0.0000142 0.0019062 0.0000142 0.0019062 0.9999858 -0.0019062
4702 0.9999849 -0.0019932 0.0000151 0.0019932 0.0000151 0.0019932 0.9999849 -0.0019932
4918 0.9999840 -0.0020841 0.0000160 0.0020841 0.0000160 0.0020841 0.9999840 -0.0020841
5143 0.9999830 -0.0021792 0.0000170 0.0021792 0.0000170 0.0021792 0.9999830 -0.0021792
5378 0.9999820 -0.0022786 0.0000180 0.0022786 0.0000180 0.0022786 0.9999820 -0.0022786
5625 0.9999808 -0.0023826 0.0000192 0.0023826 0.0000192 0.0023826 0.9999808 -0.0023826
5882 0.9999797 -0.0024913 0.0000203 0.0024913 0.0000203 0.0024913 0.9999797 -0.0024913
6151 0.9999784 -0.0026049 0.0000216 0.0026049 0.0000216 0.0026049 0.9999784 -0.0026049
6433 0.9999770 -0.0027237 0.0000230 0.0027237 0.0000230 0.0027237 0.9999770 -0.0027237
6728 0.9999756 -0.0028480 0.0000244 0.0028480 0.0000244 0.0028480 0.9999756 -0.0028480
7036 0.9999740 -0.0029778 0.0000260 0.0029778 0.0000260 0.0029778 0.9999740 -0.0029778
7358 0.9999724 -0.0031137 0.0000276 0.0031137 0.0000276 0.0031137 0.9999724 -0.0031137
7695 0.9999706 -0.0032557 0.0000294 0.0032557 0.0000294 0.0032557 0.9999706 -0.0032557
8047 0.9999687 -0.0034041 0.0000313 0.0034041 0.0000313 0.0034041 0.9999687 -0.0034041
8416 0.9999668 -0.0035594 0.0000332 0.0035594 0.0000332 0.0035594 0.9999668 -0.0035594
8801 0.9999646 -0.0037217 0.0000354 0.0037217 0.0000354 0.0037217 0.9999646 -0.0037217
9204 0.9999624 -0.0038914 0.0000376 0.0038914 0.0000376 0.0038914 0.9999624 -0.0038914
9626 0.9999599 -0.0040689 0.0000401 0.0040689 0.0000401 0.0040689 0.9999599 -0.0040689
10066 0.9999573 -0.0042545 0.0000427 0.0042545 0.0000427 0.0042545 0.9999573 -0.0042545
10527 0.9999546 -0.0044485 0.0000454 0.0044485 0.0000454 0.0044485 0.9999546 -0.0044485
11009 0.9999516 -0.0046514 0.0000484 0.0046514 0.0000484 0.0046514 0.9999516 -0.0046514
11514 0.9999484 -0.0048636 0.0000516 0.0048636 0.0000516 0.0048636 0.9999484 -0.0048636
12041 0.9999450 -0.0050854 0.0000550 0.0050854 0.0000550 0.0050854 0.9999450 -0.0050854
12592 0.9999413 -0.0053174 0.0000587 0.0053174 0.0000587 0.0053174 0.9999413 -0.0053174
13169 0.9999374 -0.0055600 0.0000626 0.0055600 0.0000626 0.0055600 0.9999374 -0.0055600
13772 0.9999331 -0.0058137 0.0000669 0.0058137 0.0000669 0.0058137 0.9999331 -0.0058137
14402 0.9999285 -0.0060790 0.0000715 0.0060790 0.0000715 0.0060790 0.9999285 -0.0060790
15062 0.9999236 -0.0063563 0.0000764 0.0063563 0.0000764 0.0063563 0.9999236 -0.0063563
15752 0.9999182 -0.0066464 0.0000818 0.0066464 0.0000818 0.0066464 0.9999182 -0.0066464
16473 0.9999124 -0.0069497 0.0000876 0.0069497 0.0000876 0.0069497 0.9999124 -0.0069497
17227 0.9999062 -0.0072669 0.0000938 0.0072669 0.0000938 0.0072669 0.9999062 -0.0072669
18016 0.9998994 -0.0075986 0.0001006 0.0075986 0.0001006 0.0075986 0.9998994 -0.0075986
18841 0.9998920 -0.0079455 0.0001080 0.0079455 0.0001080 0.0079455 0.9998920 -0.0079455
19704 0.9998840 -0.0083081 0.0001160 0.0083081 0.0001160 0.0083081 0.9998840 -0.0083081
20606 0.9998754 -0.0086874 0.0001246 0.0086874 0.0001246 0.0086874 0.9998754 -0.0086874
21550 0.9998660 -0.0090839 0.0001340 0.0090839 0.0001340 0.0090839 0.9998660 -0.0090839
22537 0.9998557 -0.0094986 0.0001443 0.0094986 0.0001443 0.0094986 0.9998557 -0.0094986
23569 0.9998446 -0.0099322 0.0001554 0.0099322 0.0001554 0.0099322 0.9998446 -0.0099322
24648 0.9998325 -0.0103855 0.0001675 0.0103855 0.0001675 0.0103855 0.9998325 -0.0103855
25777 0.9998193 -0.0108596 0.0001807 0.0108596 0.0001807 0.0108596 0.9998193 -0.0108596
26957 0.9998050 -0.0113552 0.0001950 0.0113552 0.0001950 0.0113552 0.9998050 -0.0113552
28191 0.9997894 -0.0118735 0.0002106 0.0118735 0.0002106 0.0118735 0.9997894 -0.0118735
29482 0.9997725 -0.0124153 0.0002275 0.0124153 0.0002275 0.0124153 0.9997725 -0.0124153
30832 0.9997540 -0.0129818 0.0002460 0.0129818 0.0002460 0.0129818 0.9997540 -0.0129818
32244 0.9997339 -0.0135741 0.0002661 0.0135741 0.0002661 0.0135741 0.9997339 -0.0135741
33721 0.9997121 -0.0141933 0.0002879 0.0141933 0.0002879 0.0141933 0.9997121 -0.0141933
35265 0.9996883 -0.0148407 0.0003117 0.0148407 0.0003117 0.0148407 0.9996883 -0.0148407
36880 0.9996625 -0.0155175 0.0003375 0.0155175 0.0003375 0.0155175 0.9996625 -0.0155175
38569 0.9996343 -0.0162251 0.0003657 0.0162251 0.0003657 0.0162251 0.9996343 -0.0162251
40335 0.9996037 -0.0169647 0.0003963 0.0169647 0.0003963 0.0169647 0.9996037 -0.0169647
42182 0.9995705 -0.0177380 0.0004295 0.0177380 0.0004295 0.0177380 0.9995705 -0.0177380
44113 0.9995343 -0.0185463 0.0004657 0.0185463 0.0004657 0.0185463 0.9995343 -0.0185463
46134 0.9994950 -0.0193912 0.0005050 0.0193912 0.0005050 0.0193912 0.9994950 -0.0193912
48246 0.9994523 -0.0202744 0.0005477 0.0202744 0.0005477 0.0202744 0.9994523 -0.0202744
50455 0.9994058 -0.0211977 0.0005942 0.0211977 0.0005942 0.0211977 0.9994058 -0.0211977
52766 0.9993554 -0.0221627 0.0006446 0.0221627 0.0006446 0.0221627 0.9993554 -0.0221627
55182 0.9993006 -0.0231714 0.0006994 0.0231714 0.0006994 0.0231714 0.9993006 -0.0231714
57709 0.9992411 -0.0242258 0.0007589 0.0242258 0.0007589 0.0242258 0.9992411 -0.0242258
60352 0.9991764 -0.0253278 0.0008236 0.0253278 0.0008236 0.0253278 0.9991764 -0.0253278
63115 0.9991062 -0.0264796 0.0008938 0.0264796 0.0008938 0.0264796 0.9991062 -0.0264796
66005 0.9990300 -0.0276835 0.0009700 0.0276835 0.0009700 0.0276835 0.9990300 -0.0276835
69028 0.9989472 -0.0289418 0.0010528 0.0289418 0.0010528 0.0289418 0.9989472 -0.0289418
72189 0.9988573 -0.0302570 0.0011427 0.0302570 0.0011427 0.0302570 0.9988573 -0.0302570
75495 0.9987596 -0.0316315 0.0012404 0.0316315 0.0012404 0.0316315 0.9987596 -0.0316315
78952 0.9986535 -0.0330681 0.0013465 0.0330681 0.0013465 0.0330681 0.9986535 -0.0330681
82567 0.9985383 -0.0345694 0.0014617 0.0345694 0.0014617 0.0345694 0.9985383 -0.0345694
86348 0.9984131 -0.0361386 0.0015869 0.0361386 0.0015869 0.0361386 0.9984131 -0.0361386
90302 0.9982771 -0.0377785 0.0017229 0.0377785 0.0017229 0.0377785 0.9982771 -0.0377785
94437 0.9981292 -0.0394923 0.0018708 0.0394923 0.0018708 0.0394923 0.9981292 -0.0394923
98762 0.9979684 -0.0412833 0.0020316 0.0412833 0.0020316 0.0412833 0.9979684 -0.0412833
103284 0.9977936 -0.0431550 0.0022064 0.0431550 0.0022064 0.0431550 0.9977936 -0.0431550
108014 0.9976034 -0.0451109 0.0023966 0.0451109 0.0023966 0.0451109 0.9976034 -0.0451109
112960 0.9973964 -0.0471548 0.0026036 0.0471548 0.0026036 0.0471548 0.9973964 -0.0471548
118133 0.9971712 -0.0492904 0.0028288 0.0492904 0.0028288 0.0492904 0.9971712 -0.0492904
123542 0.9969261 -0.0515219 0.0030739 0.0515219 0.0030739 0.0515219 0.9969261 -0.0515219
129199 0.9966591 -0.0538534 0.0033409 0.0538534 0.0033409 0.0538534 0.9966591 -0.0538534
135116 0.9963683 -0.0562893 0.0036317 0.0562893 0.0036317 0.0562893 0.9963683 -0.0562893
141303 0.9960516 -0.0588339 0.0039484 0.0588339 0.0039484 0.0588339 0.9960516 -0.0588339
147774 0.9957065 -0.0614921 0.0042935 0.0614921 0.0042935 0.0614921 0.9957065 -0.0614921
154540 0.9953303 -0.0642685 0.0046697 0.0642685 0.0046697 0.0642685 0.9953303 -0.0642685
161617 0.9949204 -0.0671681 0.0050796 0.0671681 0.0050796 0.0671681 0.9949204 -0.0671681
169018 0.9944734 -0.0701962 0.0055266 0.0701962 0.0055266 0.0701962 0.9944734 -0.0701962
176758 0.9939862 -0.0733579 0.0060138 0.0733579 0.0060138 0.0733579 0.9939862 -0.0733579
184852 0.9934550 -0.0766587 0.0065450 0.0766587 0.0065450 0.0766587 0.9934550 -0.0766587
193316 0.9928758 -0.0801042 0.0071242 0.0801042 0.0071242 0.0801042 0.9928758 -0.0801042
202169 0.9922442 -0.0837001 0.0077558 0.0837001 0.0077558 0.0837001 0.9922442 -0.0837001
211427 0.9915556 -0.0874523 0.0084444 0.0874523 0.0084444 0.0874523 0.9915556 -0.0874523
221108 0.9908048 -0.0913668 0.0091952 0.0913668 0.0091952 0.0913668 0.9908048 -0.0913668
231233 0.9899863 -0.0954497 0.0100137 0.0954497 0.0100137 0.0954497 0.9899863 -0.0954497
241822 0.9890940 -0.0997072 0.0109060 0.0997072 0.0109060 0.0997072 0.9890940 -0.0997072
252896 0.9881215 -0.1041456 0.0118785 0.1041456 0.0118785 0.1041456 0.9881215 -0.1041456
264476 0.9870616 -0.1087714 0.0129384 0.1087714 0.0129384 0.1087714 0.9870616 -0.1087714
276587 0.9859067 -0.1135907 0.0140933 0.1135907 0.0140933 0.1135907 0.9859067 -0.1135907
289253 0.9846487 -0.1186102 0.0153513 0.1186102 0.0153513 0.1186102 0.9846487 -0.1186102
302498 0.9832786 -0.1238361 0.0167214 0.1238361 0.0167214 0.1238361 0.9832786 -0.1238361
316350 0.9817868 -0.1292748 0.0182132 0.1292748 0.0182132 0.1292748 0.9817868 -0.1292748
330837 0.9801631 -0.1349325 0.0198369 0.1349325 0.0198369 0.1349325 0.9801631 -0.1349325
345986 0.9783963 -0.1408153 0.0216037 0.1408153 0.0216037 0.1408153 0.9783963 -0.1408153
361830 0.9764745 -0.1469290 0.0235255 0.1469290 0.0235255 0.1469290 0.9764745 -0.1469290
378399 0.9743849 -0.1532791 0.0256151 0.1532791 0.0256151 0.1532791 0.9743849 -0.1532791
395726 0.9721139 -0.1598710 0.0278861 0.1598710 0.0278861 0.1598710 0.9721139 -0.1598710
413847 0.9696468 -0.1667093 0.0303532 0.1667093 0.0303532 0.1667093 0.9696468 -0.1667093
432798 0.9669680 -0.1737983 0.0330320 0.1737983 0.0330320 0.1737983 0.9669680 -0.1737983
452617 0.9640608 -0.1811417 0.0359392 0.1811417 0.0359392 0.1811417 0.9640608 -0.1811417
473344 0.9609076 -0.1887424 0.0390924 0.1887424 0.0390924 0.1887424 0.9609076 -0.1887424
495019 0.9574896 -0.1966024 0.0425104 0.1966024 0.0425104 0.1966024 0.9574896 -0.1966024
517687 0.9537869 -0.2047227 0.0462131 0.2047227 0.0462131 0.2047227 0.9537869 -0.2047227
541393 0.9497785 -0.2131033 0.0502215 0.2131033 0.0502215 0.2131033 0.9497785 -0.2131033
566185 0.9454424 -0.2217425 0.0545576 0.2217425 0.0545576 0.2217425 0.9454424 -0.2217425
592111 0.9407554 -0.2306376 0.0592446 0.2306376 0.0592446 0.2306376 0.9407554 -0.2306376
619225 0.9356933 -0.2397838 0.0643067 0.2397838 0.0643067 0.2397838 0.9356933 -0.2397838
647581 0.9302310 -0.2491746 0.0697690 0.2491746 0.0697690 0.2491746 0.9302310 -0.2491746
677235 0.9243423 -0.2588014 0.0756577 0.2588014 0.0756577 0.2588014 0.9243423 -0.2588014
708247 0.9180004 -0.2686530 0.0819996 0.2686530 0.0819996 0.2686530 0.9180004 -0.2686530
740679 0.9111779 -0.2787160 0.0888221 0.2787160 0.0888221 0.2787160 0.9111779 -0.2787160
774597 0.9038468 -0.2889738 0.0961532 0.2889738 0.0961532 0.2889738 0.9038468 -0.2889738
810067 0.8959789 -0.2994070 0.1040211 0.2994070 0.1040211 0.2994070 0.8959789 -0.2994070
847162 0.8875462 -0.3099927 0.1124538 0.3099927 0.1124538 0.3099927 0.8875462 -0.3099927
885955 0.8785210 -0.3207045 0.1214790 0.3207045 0.1214790 0.3207045 0.8785210 -0.3207045
926525 0.8688764 -0.3315125 0.1311236 0.3315125 0.1311236 0.3315125 0.8688764 -0.3315125
968953 0.8585866 -0.3423826 0.1414134 0.3423826 0.1414134 0.3423826 0.8585866 -0.3423826
1013323 0.8476277 -0.3532769 0.1523723 0.3532769 0.1523723 0.3532769 0.8476277 -0.3532769
1059725 0.8359780 -0.3641534 0.1640220 0.3641534 0.1640220 0.3641534 0.8359780 -0.3641534
1108252 0.8236185 -0.3749661 0.1763815 0.3749661 0.1763815 0.3749661 0.8236185 -0.3749661
1159002 0.8105337 -0.3856650 0.1894663 0.3856650 0.1894663 0.3856650 0.8105337 -0.3856650
1212075 0.7967123 -0.3961963 0.2032877 0.3961963 0.2032877 0.3961963 0.7967123 -0.3961963
1267578 0.7821478 -0.4065030 0.2178522 0.4065030 0.2178522 0.4065030 0.7821478 -0.4065030
1325623 0.7668391 -0.4165247 0.2331609 0.4165247 0.2331609 0.4165247 0.7668391 -0.4165247
1386327 0.7507910 -0.4261988 0.2492090 0.4261988 0.2492090 0.4261988 0.7507910 -0.4261988
1449809 0.7340151 -0.4354610 0.2659849 0.4354610 0.2659849 0.4354610 0.7340151 -0.4354610
1516199 0.7165301 -0.4442456 0.2834699 0.4442456 0.2834699 0.4442456 0.7165301 -0.4442456
1585629 0.6983623 -0.4524871 0.3016377 0.4524871 0.3016377 0.4524871 0.6983623 -0.4524871
1658239 0.6795457 -0.4601210 0.3204543 0.4601210 0.3204543 0.4601210 0.6795457 -0.4601210
1734173 0.6601220 -0.4670844 0.3398780 0.4670844 0.3398780 0.4670844 0.6601220 -0.4670844
1813585 0.6401411 -0.4733180 0.3598589 0.4733180 0.3598589 0.4733180 0.6401411 -0.4733180
1896632 0.6196600 -0.4787665 0.3803400 0.4787665 0.3803400 0.4787665 0.6196600 -0.4787665
1983483 0.5987430 -0.4833801 0.4012570 0.4833801 0.4012570 0.4833801 0.5987430 -0.4833801
2074311 0.5774606 -0.4871156 0.4225394 0.4871156 0.4225394 0.4871156 0.5774606 -0.4871156
