!Murata Part Number: GRM022R60J682ME19
!These Parameters are Measured in Series Mode Connection
!Data Generated on Mar 30, 2021
!       o--ll--o
!Port1            Port2
!       o------o
!Operation Temp=25[degC], DC Bias Voltage=0[V]
!Freq. Start=100[Hz] Stop=6[GHz] 401[Steps]
# Hz S RI R 50
!Freq.(Hz) S11(Real) S11(Imag) S21(Real) S21(Imag) S12(Real) S12(Imag) S22(Real) S22(Imag)
100 0.9999914 -0.0003529 0.0000086 0.0003529 0.0000086 0.0003529 0.9999914 -0.0003529
105 0.9999910 -0.0003688 0.0000090 0.0003688 0.0000090 0.0003688 0.9999910 -0.0003688
109 0.9999906 -0.0003853 0.0000094 0.0003853 0.0000094 0.0003853 0.9999906 -0.0003853
114 0.9999902 -0.0004026 0.0000098 0.0004026 0.0000098 0.0004026 0.9999902 -0.0004026
120 0.9999897 -0.0004207 0.0000103 0.0004207 0.0000103 0.0004207 0.9999897 -0.0004207
125 0.9999893 -0.0004395 0.0000107 0.0004395 0.0000107 0.0004395 0.9999893 -0.0004395
131 0.9999888 -0.0004593 0.0000112 0.0004593 0.0000112 0.0004593 0.9999888 -0.0004593
137 0.9999884 -0.0004799 0.0000116 0.0004799 0.0000116 0.0004799 0.9999884 -0.0004799
143 0.9999879 -0.0005015 0.0000121 0.0005015 0.0000121 0.0005015 0.9999879 -0.0005015
150 0.9999874 -0.0005241 0.0000126 0.0005241 0.0000126 0.0005241 0.9999874 -0.0005241
156 0.9999869 -0.0005476 0.0000131 0.0005476 0.0000131 0.0005476 0.9999869 -0.0005476
164 0.9999864 -0.0005723 0.0000136 0.0005723 0.0000136 0.0005723 0.9999864 -0.0005723
171 0.9999858 -0.0005981 0.0000142 0.0005981 0.0000142 0.0005981 0.9999858 -0.0005981
179 0.9999852 -0.0006250 0.0000148 0.0006250 0.0000148 0.0006250 0.9999852 -0.0006250
187 0.9999846 -0.0006532 0.0000154 0.0006532 0.0000154 0.0006532 0.9999846 -0.0006532
196 0.9999840 -0.0006827 0.0000160 0.0006827 0.0000160 0.0006827 0.9999840 -0.0006827
205 0.9999834 -0.0007135 0.0000166 0.0007135 0.0000166 0.0007135 0.9999834 -0.0007135
214 0.9999827 -0.0007458 0.0000173 0.0007458 0.0000173 0.0007458 0.9999827 -0.0007458
224 0.9999819 -0.0007795 0.0000181 0.0007795 0.0000181 0.0007795 0.9999819 -0.0007795
234 0.9999812 -0.0008147 0.0000188 0.0008147 0.0000188 0.0008147 0.9999812 -0.0008147
245 0.9999804 -0.0008515 0.0000196 0.0008515 0.0000196 0.0008515 0.9999804 -0.0008515
256 0.9999795 -0.0008901 0.0000205 0.0008901 0.0000205 0.0008901 0.9999795 -0.0008901
268 0.9999786 -0.0009303 0.0000214 0.0009303 0.0000214 0.0009303 0.9999786 -0.0009303
280 0.9999776 -0.0009724 0.0000224 0.0009724 0.0000224 0.0009724 0.9999776 -0.0009724
293 0.9999765 -0.0010164 0.0000235 0.0010164 0.0000235 0.0010164 0.9999765 -0.0010164
306 0.9999754 -0.0010624 0.0000246 0.0010624 0.0000246 0.0010624 0.9999754 -0.0010624
320 0.9999742 -0.0011105 0.0000258 0.0011105 0.0000258 0.0011105 0.9999742 -0.0011105
335 0.9999729 -0.0011608 0.0000271 0.0011608 0.0000271 0.0011608 0.9999729 -0.0011608
350 0.9999715 -0.0012133 0.0000285 0.0012133 0.0000285 0.0012133 0.9999715 -0.0012133
366 0.9999701 -0.0012682 0.0000299 0.0012682 0.0000299 0.0012682 0.9999701 -0.0012682
383 0.9999685 -0.0013255 0.0000315 0.0013255 0.0000315 0.0013255 0.9999685 -0.0013255
401 0.9999668 -0.0013855 0.0000332 0.0013855 0.0000332 0.0013855 0.9999668 -0.0013855
419 0.9999650 -0.0014481 0.0000350 0.0014481 0.0000350 0.0014481 0.9999650 -0.0014481
438 0.9999631 -0.0015136 0.0000369 0.0015136 0.0000369 0.0015136 0.9999631 -0.0015136
458 0.9999611 -0.0015820 0.0000389 0.0015820 0.0000389 0.0015820 0.9999611 -0.0015820
479 0.9999589 -0.0016534 0.0000411 0.0016534 0.0000411 0.0016534 0.9999589 -0.0016534
501 0.9999566 -0.0017281 0.0000434 0.0017281 0.0000434 0.0017281 0.9999566 -0.0017281
524 0.9999541 -0.0018060 0.0000459 0.0018060 0.0000459 0.0018060 0.9999541 -0.0018060
548 0.9999515 -0.0018875 0.0000485 0.0018875 0.0000485 0.0018875 0.9999515 -0.0018875
573 0.9999488 -0.0019726 0.0000512 0.0019726 0.0000512 0.0019726 0.9999488 -0.0019726
600 0.9999458 -0.0020614 0.0000542 0.0020614 0.0000542 0.0020614 0.9999458 -0.0020614
627 0.9999428 -0.0021543 0.0000572 0.0021543 0.0000572 0.0021543 0.9999428 -0.0021543
656 0.9999395 -0.0022513 0.0000605 0.0022513 0.0000605 0.0022513 0.9999395 -0.0022513
686 0.9999361 -0.0023525 0.0000639 0.0023525 0.0000639 0.0023525 0.9999361 -0.0023525
717 0.9999325 -0.0024583 0.0000675 0.0024583 0.0000675 0.0024583 0.9999325 -0.0024583
750 0.9999288 -0.0025689 0.0000712 0.0025689 0.0000712 0.0025689 0.9999288 -0.0025689
784 0.9999248 -0.0026843 0.0000752 0.0026843 0.0000752 0.0026843 0.9999248 -0.0026843
820 0.9999207 -0.0028049 0.0000793 0.0028049 0.0000793 0.0028049 0.9999207 -0.0028049
858 0.9999164 -0.0029308 0.0000836 0.0029308 0.0000836 0.0029308 0.9999164 -0.0029308
897 0.9999119 -0.0030624 0.0000881 0.0030624 0.0000881 0.0030624 0.9999119 -0.0030624
938 0.9999072 -0.0031999 0.0000928 0.0031999 0.0000928 0.0031999 0.9999072 -0.0031999
981 0.9999024 -0.0033435 0.0000976 0.0033435 0.0000976 0.0033435 0.9999024 -0.0033435
1026 0.9998973 -0.0034936 0.0001027 0.0034936 0.0001027 0.0034936 0.9998973 -0.0034936
1073 0.9998920 -0.0036503 0.0001080 0.0036503 0.0001080 0.0036503 0.9998920 -0.0036503
1122 0.9998865 -0.0038142 0.0001135 0.0038142 0.0001135 0.0038142 0.9998865 -0.0038142
1174 0.9998808 -0.0039854 0.0001192 0.0039854 0.0001192 0.0039854 0.9998808 -0.0039854
1227 0.9998748 -0.0041643 0.0001252 0.0041643 0.0001252 0.0041643 0.9998748 -0.0041643
1283 0.9998686 -0.0043514 0.0001314 0.0043514 0.0001314 0.0043514 0.9998686 -0.0043514
1342 0.9998621 -0.0045468 0.0001379 0.0045468 0.0001379 0.0045468 0.9998621 -0.0045468
1404 0.9998553 -0.0047511 0.0001447 0.0047511 0.0001447 0.0047511 0.9998553 -0.0047511
1468 0.9998481 -0.0049647 0.0001519 0.0049647 0.0001519 0.0049647 0.9998481 -0.0049647
1535 0.9998407 -0.0051880 0.0001593 0.0051880 0.0001593 0.0051880 0.9998407 -0.0051880
1606 0.9998328 -0.0054214 0.0001672 0.0054214 0.0001672 0.0054214 0.9998328 -0.0054214
1679 0.9998245 -0.0056654 0.0001755 0.0056654 0.0001755 0.0056654 0.9998245 -0.0056654
1756 0.9998157 -0.0059205 0.0001843 0.0059205 0.0001843 0.0059205 0.9998157 -0.0059205
1836 0.9998065 -0.0061872 0.0001935 0.0061872 0.0001935 0.0061872 0.9998065 -0.0061872
1920 0.9997966 -0.0064660 0.0002034 0.0064660 0.0002034 0.0064660 0.9997966 -0.0064660
2008 0.9997862 -0.0067575 0.0002138 0.0067575 0.0002138 0.0067575 0.9997862 -0.0067575
2100 0.9997750 -0.0070623 0.0002250 0.0070623 0.0002250 0.0070623 0.9997750 -0.0070623
2196 0.9997631 -0.0073809 0.0002369 0.0073809 0.0002369 0.0073809 0.9997631 -0.0073809
2297 0.9997504 -0.0077140 0.0002496 0.0077140 0.0002496 0.0077140 0.9997504 -0.0077140
2402 0.9997368 -0.0080622 0.0002632 0.0080622 0.0002632 0.0080622 0.9997368 -0.0080622
2512 0.9997222 -0.0084263 0.0002778 0.0084263 0.0002778 0.0084263 0.9997222 -0.0084263
2627 0.9997065 -0.0088068 0.0002935 0.0088068 0.0002935 0.0088068 0.9997065 -0.0088068
2748 0.9996896 -0.0092046 0.0003104 0.0092046 0.0003104 0.0092046 0.9996896 -0.0092046
2873 0.9996714 -0.0096204 0.0003286 0.0096204 0.0003286 0.0096204 0.9996714 -0.0096204
3005 0.9996518 -0.0100549 0.0003482 0.0100549 0.0003482 0.0100549 0.9996518 -0.0100549
3143 0.9996307 -0.0105091 0.0003693 0.0105091 0.0003693 0.0105091 0.9996307 -0.0105091
3287 0.9996080 -0.0109838 0.0003920 0.0109838 0.0003920 0.0109838 0.9996080 -0.0109838
3437 0.9995835 -0.0114798 0.0004165 0.0114798 0.0004165 0.0114798 0.9995835 -0.0114798
3594 0.9995570 -0.0119981 0.0004430 0.0119981 0.0004430 0.0119981 0.9995570 -0.0119981
3759 0.9995285 -0.0125396 0.0004715 0.0125396 0.0004715 0.0125396 0.9995285 -0.0125396
3931 0.9994977 -0.0131054 0.0005023 0.0131054 0.0005023 0.0131054 0.9994977 -0.0131054
4111 0.9994645 -0.0136966 0.0005355 0.0136966 0.0005355 0.0136966 0.9994645 -0.0136966
4299 0.9994287 -0.0143141 0.0005713 0.0143141 0.0005713 0.0143141 0.9994287 -0.0143141
4496 0.9993901 -0.0149591 0.0006099 0.0149591 0.0006099 0.0149591 0.9993901 -0.0149591
4702 0.9993486 -0.0156329 0.0006514 0.0156329 0.0006514 0.0156329 0.9993486 -0.0156329
4918 0.9993038 -0.0163366 0.0006962 0.0163366 0.0006962 0.0163366 0.9993038 -0.0163366
5143 0.9992557 -0.0170715 0.0007443 0.0170715 0.0007443 0.0170715 0.9992557 -0.0170715
5378 0.9992040 -0.0178390 0.0007960 0.0178390 0.0007960 0.0178390 0.9992040 -0.0178390
5625 0.9991484 -0.0186405 0.0008516 0.0186405 0.0008516 0.0186405 0.9991484 -0.0186405
5882 0.9990886 -0.0194774 0.0009114 0.0194774 0.0009114 0.0194774 0.9990886 -0.0194774
6151 0.9990245 -0.0203512 0.0009755 0.0203512 0.0009755 0.0203512 0.9990245 -0.0203512
6433 0.9989557 -0.0212637 0.0010443 0.0212637 0.0010443 0.0212637 0.9989557 -0.0212637
6728 0.9988820 -0.0222163 0.0011180 0.0222163 0.0011180 0.0222163 0.9988820 -0.0222163
7036 0.9988029 -0.0232110 0.0011971 0.0232110 0.0011971 0.0232110 0.9988029 -0.0232110
7358 0.9987183 -0.0242495 0.0012817 0.0242495 0.0012817 0.0242495 0.9987183 -0.0242495
7695 0.9986276 -0.0253337 0.0013724 0.0253337 0.0013724 0.0253337 0.9986276 -0.0253337
8047 0.9985306 -0.0264657 0.0014694 0.0264657 0.0014694 0.0264657 0.9985306 -0.0264657
8416 0.9984267 -0.0276477 0.0015733 0.0276477 0.0015733 0.0276477 0.9984267 -0.0276477
8801 0.9983155 -0.0288817 0.0016845 0.0288817 0.0016845 0.0288817 0.9983155 -0.0288817
9204 0.9981966 -0.0301703 0.0018034 0.0301703 0.0018034 0.0301703 0.9981966 -0.0301703
9626 0.9980692 -0.0315157 0.0019308 0.0315157 0.0019308 0.0315157 0.9980692 -0.0315157
10066 0.9979329 -0.0329206 0.0020671 0.0329206 0.0020671 0.0329206 0.9979329 -0.0329206
10527 0.9977869 -0.0343877 0.0022131 0.0343877 0.0022131 0.0343877 0.9977869 -0.0343877
11009 0.9976304 -0.0359198 0.0023696 0.0359198 0.0023696 0.0359198 0.9976304 -0.0359198
11514 0.9974626 -0.0375197 0.0025374 0.0375197 0.0025374 0.0375197 0.9974626 -0.0375197
12041 0.9972825 -0.0391907 0.0027175 0.0391907 0.0027175 0.0391907 0.9972825 -0.0391907
12592 0.9970891 -0.0409358 0.0029109 0.0409358 0.0029109 0.0409358 0.9970891 -0.0409358
13169 0.9968813 -0.0427584 0.0031187 0.0427584 0.0031187 0.0427584 0.9968813 -0.0427584
13772 0.9966578 -0.0446621 0.0033422 0.0446621 0.0033422 0.0446621 0.9966578 -0.0446621
14402 0.9964171 -0.0466503 0.0035829 0.0466503 0.0035829 0.0466503 0.9964171 -0.0466503
15062 0.9961578 -0.0487268 0.0038422 0.0487268 0.0038422 0.0487268 0.9961578 -0.0487268
15752 0.9958781 -0.0508956 0.0041219 0.0508956 0.0041219 0.0508956 0.9958781 -0.0508956
16473 0.9955761 -0.0531606 0.0044239 0.0531606 0.0044239 0.0531606 0.9955761 -0.0531606
17227 0.9952497 -0.0555260 0.0047503 0.0555260 0.0047503 0.0555260 0.9952497 -0.0555260
18016 0.9948968 -0.0579961 0.0051032 0.0579961 0.0051032 0.0579961 0.9948968 -0.0579961
18841 0.9945149 -0.0605754 0.0054851 0.0605754 0.0054851 0.0605754 0.9945149 -0.0605754
19704 0.9941013 -0.0632682 0.0058987 0.0632682 0.0058987 0.0632682 0.9941013 -0.0632682
20606 0.9936531 -0.0660795 0.0063469 0.0660795 0.0063469 0.0660795 0.9936531 -0.0660795
21550 0.9931671 -0.0690139 0.0068329 0.0690139 0.0068329 0.0690139 0.9931671 -0.0690139
22537 0.9926399 -0.0720763 0.0073601 0.0720763 0.0073601 0.0720763 0.9926399 -0.0720763
23569 0.9920678 -0.0752719 0.0079322 0.0752719 0.0079322 0.0752719 0.9920678 -0.0752719
24648 0.9914467 -0.0786057 0.0085533 0.0786057 0.0085533 0.0786057 0.9914467 -0.0786057
25777 0.9907723 -0.0820830 0.0092277 0.0820830 0.0092277 0.0820830 0.9907723 -0.0820830
26957 0.9900398 -0.0857091 0.0099602 0.0857091 0.0099602 0.0857091 0.9900398 -0.0857091
28191 0.9892442 -0.0894894 0.0107558 0.0894894 0.0107558 0.0894894 0.9892442 -0.0894894
29482 0.9883801 -0.0934294 0.0116199 0.0934294 0.0116199 0.0934294 0.9883801 -0.0934294
30832 0.9874414 -0.0975345 0.0125586 0.0975345 0.0125586 0.0975345 0.9874414 -0.0975345
32244 0.9864220 -0.1018104 0.0135780 0.1018104 0.0135780 0.1018104 0.9864220 -0.1018104
33721 0.9853149 -0.1062624 0.0146851 0.1062624 0.0146851 0.1062624 0.9853149 -0.1062624
35265 0.9841130 -0.1108963 0.0158870 0.1108963 0.0158870 0.1108963 0.9841130 -0.1108963
36880 0.9828084 -0.1157173 0.0171916 0.1157173 0.0171916 0.1157173 0.9828084 -0.1157173
38569 0.9813928 -0.1207310 0.0186072 0.1207310 0.0186072 0.1207310 0.9813928 -0.1207310
40335 0.9798572 -0.1259426 0.0201428 0.1259426 0.0201428 0.1259426 0.9798572 -0.1259426
42182 0.9781922 -0.1313574 0.0218078 0.1313574 0.0218078 0.1313574 0.9781922 -0.1313574
44113 0.9763876 -0.1369803 0.0236124 0.1369803 0.0236124 0.1369803 0.9763876 -0.1369803
46134 0.9744326 -0.1428160 0.0255674 0.1428160 0.0255674 0.1428160 0.9744326 -0.1428160
48246 0.9723157 -0.1488692 0.0276843 0.1488692 0.0276843 0.1488692 0.9723157 -0.1488692
50455 0.9700247 -0.1551440 0.0299753 0.1551440 0.0299753 0.1551440 0.9700247 -0.1551440
52766 0.9675468 -0.1616442 0.0324532 0.1616442 0.0324532 0.1616442 0.9675468 -0.1616442
55182 0.9648681 -0.1683733 0.0351319 0.1683733 0.0351319 0.1683733 0.9648681 -0.1683733
57709 0.9619741 -0.1753340 0.0380259 0.1753340 0.0380259 0.1753340 0.9619741 -0.1753340
60352 0.9588496 -0.1825288 0.0411504 0.1825288 0.0411504 0.1825288 0.9588496 -0.1825288
63115 0.9554784 -0.1899591 0.0445216 0.1899591 0.0445216 0.1899591 0.9554784 -0.1899591
66005 0.9518433 -0.1976259 0.0481567 0.1976259 0.0481567 0.1976259 0.9518433 -0.1976259
69028 0.9479263 -0.2055291 0.0520737 0.2055291 0.0520737 0.2055291 0.9479263 -0.2055291
72189 0.9437087 -0.2136677 0.0562913 0.2136677 0.0562913 0.2136677 0.9437087 -0.2136677
75495 0.9391706 -0.2220394 0.0608294 0.2220394 0.0608294 0.2220394 0.9391706 -0.2220394
78952 0.9342913 -0.2306408 0.0657087 0.2306408 0.0657087 0.2306408 0.9342913 -0.2306408
82567 0.9290491 -0.2394669 0.0709509 0.2394669 0.0709509 0.2394669 0.9290491 -0.2394669
86348 0.9234216 -0.2485112 0.0765784 0.2485112 0.0765784 0.2485112 0.9234216 -0.2485112
90302 0.9173855 -0.2577650 0.0826145 0.2577650 0.0826145 0.2577650 0.9173855 -0.2577650
94437 0.9109168 -0.2672179 0.0890832 0.2672179 0.0890832 0.2672179 0.9109168 -0.2672179
98762 0.9039909 -0.2768571 0.0960091 0.2768571 0.0960091 0.2768571 0.9039909 -0.2768571
103284 0.8965828 -0.2866673 0.1034172 0.2866673 0.1034172 0.2866673 0.8965828 -0.2866673
108014 0.8886672 -0.2966303 0.1113328 0.2966303 0.1113328 0.2966303 0.8886672 -0.2966303
112960 0.8802188 -0.3067250 0.1197812 0.3067250 0.1197812 0.3067250 0.8802188 -0.3067250
118133 0.8712128 -0.3169272 0.1287872 0.3169272 0.1287872 0.3169272 0.8712128 -0.3169272
123542 0.8616248 -0.3272091 0.1383752 0.3272091 0.1383752 0.3272091 0.8616248 -0.3272091
129199 0.8514316 -0.3375396 0.1485684 0.3375396 0.1485684 0.3375396 0.8514316 -0.3375396
135116 0.8406115 -0.3478836 0.1593885 0.3478836 0.1593885 0.3478836 0.8406115 -0.3478836
141303 0.8291448 -0.3582025 0.1708552 0.3582025 0.1708552 0.3582025 0.8291448 -0.3582025
147774 0.8170145 -0.3684539 0.1829855 0.3684539 0.1829855 0.3684539 0.8170145 -0.3684539
154540 0.8042066 -0.3785916 0.1957934 0.3785916 0.1957934 0.3785916 0.8042066 -0.3785916
161617 0.7907111 -0.3885661 0.2092889 0.3885661 0.2092889 0.3885661 0.7907111 -0.3885661
169018 0.7765222 -0.3983246 0.2234778 0.3983246 0.2234778 0.3983246 0.7765222 -0.3983246
176758 0.7616394 -0.4078117 0.2383606 0.4078117 0.2383606 0.4078117 0.7616394 -0.4078117
184852 0.7460676 -0.4169696 0.2539324 0.4169696 0.2539324 0.4169696 0.7460676 -0.4169696
193316 0.7298179 -0.4257388 0.2701821 0.4257388 0.2701821 0.4257388 0.7298179 -0.4257388
202169 0.7129081 -0.4340592 0.2870919 0.4340592 0.2870919 0.4340592 0.7129081 -0.4340592
211427 0.6953628 -0.4418704 0.3046372 0.4418704 0.3046372 0.4418704 0.6953628 -0.4418704
221108 0.6772138 -0.4491131 0.3227862 0.4491131 0.3227862 0.4491131 0.6772138 -0.4491131
231233 0.6585002 -0.4557299 0.3414998 0.4557299 0.3414998 0.4557299 0.6585002 -0.4557299
241822 0.6392680 -0.4616663 0.3607320 0.4616663 0.3607320 0.4616663 0.6392680 -0.4616663
252896 0.6195702 -0.4668721 0.3804298 0.4668721 0.3804298 0.4668721 0.6195702 -0.4668721
264476 0.5994662 -0.4713019 0.4005338 0.4713019 0.4005338 0.4713019 0.5994662 -0.4713019
276587 0.5790210 -0.4749165 0.4209790 0.4749165 0.4209790 0.4749165 0.5790210 -0.4749165
289253 0.5583044 -0.4776835 0.4416956 0.4776835 0.4416956 0.4776835 0.5583044 -0.4776835
302498 0.5373903 -0.4795781 0.4626097 0.4795781 0.4626097 0.4795781 0.5373903 -0.4795781
316350 0.5163553 -0.4805838 0.4836447 0.4805838 0.4836447 0.4805838 0.5163553 -0.4805838
330837 0.4952776 -0.4806924 0.5047224 0.4806924 0.5047224 0.4806924 0.4952776 -0.4806924
345986 0.4742358 -0.4799045 0.5257642 0.4799045 0.5257642 0.4799045 0.4742358 -0.4799045
361830 0.4533079 -0.4782293 0.5466921 0.4782293 0.5466921 0.4782293 0.4533079 -0.4782293
378399 0.4325695 -0.4756843 0.5674305 0.4756843 0.5674305 0.4756843 0.4325695 -0.4756843
395726 0.4120933 -0.4722950 0.5879067 0.4722950 0.5879067 0.4722950 0.4120933 -0.4722950
413847 0.3919476 -0.4680938 0.6080524 0.4680938 0.6080524 0.4680938 0.3919476 -0.4680938
432798 0.3721960 -0.4631199 0.6278040 0.4631199 0.6278040 0.4631199 0.3721960 -0.4631199
452617 0.3528960 -0.4574179 0.6471040 0.4574179 0.6471040 0.4574179 0.3528960 -0.4574179
473344 0.3340991 -0.4510371 0.6659009 0.4510371 0.6659009 0.4510371 0.3340991 -0.4510371
495019 0.3158500 -0.4440303 0.6841500 0.4440303 0.6841500 0.4440303 0.3158500 -0.4440303
517687 0.2981868 -0.4364529 0.7018132 0.4364529 0.7018132 0.4364529 0.2981868 -0.4364529
541393 0.2811404 -0.4283621 0.7188596 0.4283621 0.7188596 0.4283621 0.2811404 -0.4283621
566185 0.2647355 -0.4198155 0.7352645 0.4198155 0.7352645 0.4198155 0.2647355 -0.4198155
592111 0.2489899 -0.4108710 0.7510101 0.4108710 0.7510101 0.4108710 0.2489899 -0.4108710
619225 0.2339158 -0.4015854 0.7660842 0.4015854 0.7660842 0.4015854 0.2339158 -0.4015854
647581 0.2195193 -0.3920141 0.7804807 0.3920141 0.7804807 0.3920141 0.2195193 -0.3920141
677235 0.2058017 -0.3822104 0.7941983 0.3822104 0.7941983 0.3822104 0.2058017 -0.3822104
708247 0.1927594 -0.3722252 0.8072406 0.3722252 0.8072406 0.3722252 0.1927594 -0.3722252
740679 0.1803849 -0.3621067 0.8196151 0.3621067 0.8196151 0.3621067 0.1803849 -0.3621067
774597 0.1686670 -0.3519000 0.8313330 0.3519000 0.8313330 0.3519000 0.1686670 -0.3519000
810067 0.1575914 -0.3416471 0.8424086 0.3416471 0.8424086 0.3416471 0.1575914 -0.3416471
847162 0.1471414 -0.3313868 0.8528586 0.3313868 0.8528586 0.3313868 0.1471414 -0.3313868
885955 0.1372980 -0.3211545 0.8627020 0.3211545 0.8627020 0.3211545 0.1372980 -0.3211545
926525 0.1280406 -0.3109824 0.8719594 0.3109824 0.8719594 0.3109824 0.1280406 -0.3109824
968953 0.1193472 -0.3008997 0.8806528 0.3008997 0.8806528 0.3008997 0.1193472 -0.3008997
1013323 0.1111950 -0.2909324 0.8888050 0.2909324 0.8888050 0.2909324 0.1111950 -0.2909324
1059725 0.1035603 -0.2811035 0.8964397 0.2811035 0.8964397 0.2811035 0.1035603 -0.2811035
1108252 0.0964191 -0.2714333 0.9035809 0.2714333 0.9035809 0.2714333 0.0964191 -0.2714333
1159002 0.0897473 -0.2619393 0.9102527 0.2619393 0.9102527 0.2619393 0.0897473 -0.2619393
1212075 0.0835206 -0.2526367 0.9164794 0.2526367 0.9164794 0.2526367 0.0835206 -0.2526367
1267578 0.0777153 -0.2435381 0.9222847 0.2435381 0.9222847 0.2435381 0.0777153 -0.2435381
1325623 0.0723076 -0.2346541 0.9276924 0.2346541 0.9276924 0.2346541 0.0723076 -0.2346541
1386327 0.0672746 -0.2259932 0.9327254 0.2259932 0.9327254 0.2259932 0.0672746 -0.2259932
1449809 0.0625938 -0.2175621 0.9374062 0.2175621 0.9374062 0.2175621 0.0625938 -0.2175621
1516199 0.0582434 -0.2093657 0.9417566 0.2093657 0.9417566 0.2093657 0.0582434 -0.2093657
1585629 0.0542024 -0.2014074 0.9457976 0.2014074 0.9457976 0.2014074 0.0542024 -0.2014074
1658239 0.0504507 -0.1936891 0.9495493 0.1936891 0.9495493 0.1936891 0.0504507 -0.1936891
1734173 0.0469688 -0.1862115 0.9530312 0.1862115 0.9530312 0.1862115 0.0469688 -0.1862115
1813585 0.0437385 -0.1789741 0.9562615 0.1789741 0.9562615 0.1789741 0.0437385 -0.1789741
1896632 0.0407421 -0.1719755 0.9592579 0.1719755 0.9592579 0.1719755 0.0407421 -0.1719755
1983483 0.0379632 -0.1652132 0.9620368 0.1652132 0.9620368 0.1652132 0.0379632 -0.1652132
2074311 0.0353860 -0.1586842 0.9646140 0.1586842 0.9646140 0.1586842 0.0353860 -0.1586842
