!Murata Part Number: GRM022R60G473ME15
!These Parameters are Measured in Series Mode Connection
!Data Generated on Mar 30, 2021
!       o--ll--o
!Port1            Port2
!       o------o
!Operation Temp=25[degC], DC Bias Voltage=0[V]
!Freq. Start=100[Hz] Stop=6[GHz] 401[Steps]
# Hz S RI R 50
!Freq.(Hz) S11(Real) S11(Imag) S21(Real) S21(Imag) S12(Real) S12(Imag) S22(Real) S22(Imag)
100 0.9999546 -0.0028114 0.0000454 0.0028114 0.0000454 0.0028114 0.9999546 -0.0028114
105 0.9999524 -0.0029390 0.0000476 0.0029390 0.0000476 0.0029390 0.9999524 -0.0029390
109 0.9999501 -0.0030725 0.0000499 0.0030725 0.0000499 0.0030725 0.9999501 -0.0030725
114 0.9999476 -0.0032121 0.0000524 0.0032121 0.0000524 0.0032121 0.9999476 -0.0032121
120 0.9999449 -0.0033580 0.0000551 0.0033580 0.0000551 0.0033580 0.9999449 -0.0033580
125 0.9999421 -0.0035105 0.0000579 0.0035105 0.0000579 0.0035105 0.9999421 -0.0035105
131 0.9999391 -0.0036700 0.0000609 0.0036700 0.0000609 0.0036700 0.9999391 -0.0036700
137 0.9999358 -0.0038367 0.0000642 0.0038367 0.0000642 0.0038367 0.9999358 -0.0038367
143 0.9999323 -0.0040110 0.0000677 0.0040110 0.0000677 0.0040110 0.9999323 -0.0040110
150 0.9999286 -0.0041933 0.0000714 0.0041933 0.0000714 0.0041933 0.9999286 -0.0041933
156 0.9999246 -0.0043838 0.0000754 0.0043838 0.0000754 0.0043838 0.9999246 -0.0043838
164 0.9999204 -0.0045829 0.0000796 0.0045829 0.0000796 0.0045829 0.9999204 -0.0045829
171 0.9999158 -0.0047910 0.0000842 0.0047910 0.0000842 0.0047910 0.9999158 -0.0047910
179 0.9999110 -0.0050086 0.0000890 0.0050086 0.0000890 0.0050086 0.9999110 -0.0050086
187 0.9999058 -0.0052361 0.0000942 0.0052361 0.0000942 0.0052361 0.9999058 -0.0052361
196 0.9999003 -0.0054738 0.0000997 0.0054738 0.0000997 0.0054738 0.9999003 -0.0054738
205 0.9998943 -0.0057223 0.0001057 0.0057223 0.0001057 0.0057223 0.9998943 -0.0057223
214 0.9998880 -0.0059821 0.0001120 0.0059821 0.0001120 0.0059821 0.9998880 -0.0059821
224 0.9998813 -0.0062536 0.0001187 0.0062536 0.0001187 0.0062536 0.9998813 -0.0062536
234 0.9998741 -0.0065374 0.0001259 0.0065374 0.0001259 0.0065374 0.9998741 -0.0065374
245 0.9998665 -0.0068340 0.0001335 0.0068340 0.0001335 0.0068340 0.9998665 -0.0068340
256 0.9998584 -0.0071441 0.0001416 0.0071441 0.0001416 0.0071441 0.9998584 -0.0071441
268 0.9998497 -0.0074683 0.0001503 0.0074683 0.0001503 0.0074683 0.9998497 -0.0074683
280 0.9998404 -0.0078071 0.0001596 0.0078071 0.0001596 0.0078071 0.9998404 -0.0078071
293 0.9998306 -0.0081612 0.0001694 0.0081612 0.0001694 0.0081612 0.9998306 -0.0081612
306 0.9998201 -0.0085315 0.0001799 0.0085315 0.0001799 0.0085315 0.9998201 -0.0085315
320 0.9998089 -0.0089185 0.0001911 0.0089185 0.0001911 0.0089185 0.9998089 -0.0089185
335 0.9997970 -0.0093230 0.0002030 0.0093230 0.0002030 0.0093230 0.9997970 -0.0093230
350 0.9997843 -0.0097460 0.0002157 0.0097460 0.0002157 0.0097460 0.9997843 -0.0097460
366 0.9997707 -0.0101881 0.0002293 0.0101881 0.0002293 0.0101881 0.9997707 -0.0101881
383 0.9997561 -0.0106504 0.0002439 0.0106504 0.0002439 0.0106504 0.9997561 -0.0106504
401 0.9997406 -0.0111337 0.0002594 0.0111337 0.0002594 0.0111337 0.9997406 -0.0111337
419 0.9997239 -0.0116389 0.0002761 0.0116389 0.0002761 0.0116389 0.9997239 -0.0116389
438 0.9997060 -0.0121672 0.0002940 0.0121672 0.0002940 0.0121672 0.9997060 -0.0121672
458 0.9996869 -0.0127195 0.0003131 0.0127195 0.0003131 0.0127195 0.9996869 -0.0127195
479 0.9996662 -0.0132970 0.0003338 0.0132970 0.0003338 0.0132970 0.9996662 -0.0132970
501 0.9996440 -0.0139007 0.0003560 0.0139007 0.0003560 0.0139007 0.9996440 -0.0139007
524 0.9996201 -0.0145320 0.0003799 0.0145320 0.0003799 0.0145320 0.9996201 -0.0145320
548 0.9995944 -0.0151921 0.0004056 0.0151921 0.0004056 0.0151921 0.9995944 -0.0151921
573 0.9995665 -0.0158822 0.0004335 0.0158822 0.0004335 0.0158822 0.9995665 -0.0158822
600 0.9995364 -0.0166038 0.0004636 0.0166038 0.0004636 0.0166038 0.9995364 -0.0166038
627 0.9995039 -0.0173582 0.0004961 0.0173582 0.0004961 0.0173582 0.9995039 -0.0173582
656 0.9994686 -0.0181470 0.0005314 0.0181470 0.0005314 0.0181470 0.9994686 -0.0181470
686 0.9994305 -0.0189717 0.0005695 0.0189717 0.0005695 0.0189717 0.9994305 -0.0189717
717 0.9993891 -0.0198339 0.0006109 0.0198339 0.0006109 0.0198339 0.9993891 -0.0198339
750 0.9993441 -0.0207354 0.0006559 0.0207354 0.0006559 0.0207354 0.9993441 -0.0207354
784 0.9992954 -0.0216779 0.0007046 0.0216779 0.0007046 0.0216779 0.9992954 -0.0216779
820 0.9992424 -0.0226631 0.0007576 0.0226631 0.0007576 0.0226631 0.9992424 -0.0226631
858 0.9991849 -0.0236932 0.0008151 0.0236932 0.0008151 0.0236932 0.9991849 -0.0236932
897 0.9991224 -0.0247699 0.0008776 0.0247699 0.0008776 0.0247699 0.9991224 -0.0247699
938 0.9990544 -0.0258955 0.0009456 0.0258955 0.0009456 0.0258955 0.9990544 -0.0258955
981 0.9989805 -0.0270721 0.0010195 0.0270721 0.0010195 0.0270721 0.9989805 -0.0270721
1026 0.9989001 -0.0283020 0.0010999 0.0283020 0.0010999 0.0283020 0.9989001 -0.0283020
1073 0.9988126 -0.0295874 0.0011874 0.0295874 0.0011874 0.0295874 0.9988126 -0.0295874
1122 0.9987175 -0.0309310 0.0012825 0.0309310 0.0012825 0.0309310 0.9987175 -0.0309310
1174 0.9986141 -0.0323352 0.0013859 0.0323352 0.0013859 0.0323352 0.9986141 -0.0323352
1227 0.9985016 -0.0338028 0.0014984 0.0338028 0.0014984 0.0338028 0.9985016 -0.0338028
1283 0.9983792 -0.0353365 0.0016208 0.0353365 0.0016208 0.0353365 0.9983792 -0.0353365
1342 0.9982461 -0.0369392 0.0017539 0.0369392 0.0017539 0.0369392 0.9982461 -0.0369392
1404 0.9981013 -0.0386139 0.0018987 0.0386139 0.0018987 0.0386139 0.9981013 -0.0386139
1468 0.9979438 -0.0403639 0.0020562 0.0403639 0.0020562 0.0403639 0.9979438 -0.0403639
1535 0.9977725 -0.0421924 0.0022275 0.0421924 0.0022275 0.0421924 0.9977725 -0.0421924
1606 0.9975862 -0.0441028 0.0024138 0.0441028 0.0024138 0.0441028 0.9975862 -0.0441028
1679 0.9973836 -0.0460988 0.0026164 0.0460988 0.0026164 0.0460988 0.9973836 -0.0460988
1756 0.9971632 -0.0481840 0.0028368 0.0481840 0.0028368 0.0481840 0.9971632 -0.0481840
1836 0.9969235 -0.0503622 0.0030765 0.0503622 0.0030765 0.0503622 0.9969235 -0.0503622
1920 0.9966629 -0.0526376 0.0033371 0.0526376 0.0033371 0.0526376 0.9966629 -0.0526376
2008 0.9963794 -0.0550143 0.0036206 0.0550143 0.0036206 0.0550143 0.9963794 -0.0550143
2100 0.9960710 -0.0574967 0.0039290 0.0574967 0.0039290 0.0574967 0.9960710 -0.0574967
2196 0.9957356 -0.0600892 0.0042644 0.0600892 0.0042644 0.0600892 0.9957356 -0.0600892
2297 0.9953707 -0.0627966 0.0046293 0.0627966 0.0046293 0.0627966 0.9953707 -0.0627966
2402 0.9949738 -0.0656236 0.0050262 0.0656236 0.0050262 0.0656236 0.9949738 -0.0656236
2512 0.9945419 -0.0685754 0.0054581 0.0685754 0.0054581 0.0685754 0.9945419 -0.0685754
2627 0.9940720 -0.0716572 0.0059280 0.0716572 0.0059280 0.0716572 0.9940720 -0.0716572
2748 0.9935607 -0.0748741 0.0064393 0.0748741 0.0064393 0.0748741 0.9935607 -0.0748741
2873 0.9930042 -0.0782319 0.0069958 0.0782319 0.0069958 0.0782319 0.9930042 -0.0782319
3005 0.9923986 -0.0817362 0.0076014 0.0817362 0.0076014 0.0817362 0.9923986 -0.0817362
3143 0.9917393 -0.0853928 0.0082607 0.0853928 0.0082607 0.0853928 0.9917393 -0.0853928
3287 0.9910218 -0.0892077 0.0089782 0.0892077 0.0089782 0.0892077 0.9910218 -0.0892077
3437 0.9902407 -0.0931870 0.0097593 0.0931870 0.0097593 0.0931870 0.9902407 -0.0931870
3594 0.9893905 -0.0973370 0.0106095 0.0973370 0.0106095 0.0973370 0.9893905 -0.0973370
3759 0.9884650 -0.1016639 0.0115350 0.1016639 0.0115350 0.1016639 0.9884650 -0.1016639
3931 0.9874575 -0.1061743 0.0125425 0.1061743 0.0125425 0.1061743 0.9874575 -0.1061743
4111 0.9863609 -0.1108746 0.0136391 0.1108746 0.0136391 0.1108746 0.9863609 -0.1108746
4299 0.9851674 -0.1157714 0.0148326 0.1157714 0.0148326 0.1157714 0.9851674 -0.1157714
4496 0.9838686 -0.1208711 0.0161314 0.1208711 0.0161314 0.1208711 0.9838686 -0.1208711
4702 0.9824553 -0.1261805 0.0175447 0.1261805 0.0175447 0.1261805 0.9824553 -0.1261805
4918 0.9809178 -0.1317058 0.0190822 0.1317058 0.0190822 0.1317058 0.9809178 -0.1317058
5143 0.9792455 -0.1374535 0.0207545 0.1374535 0.0207545 0.1374535 0.9792455 -0.1374535
5378 0.9774270 -0.1434298 0.0225730 0.1434298 0.0225730 0.1434298 0.9774270 -0.1434298
5625 0.9754500 -0.1496406 0.0245500 0.1496406 0.0245500 0.1496406 0.9754500 -0.1496406
5882 0.9733015 -0.1560916 0.0266985 0.1560916 0.0266985 0.1560916 0.9733015 -0.1560916
6151 0.9709672 -0.1627882 0.0290328 0.1627882 0.0290328 0.1627882 0.9709672 -0.1627882
6433 0.9684322 -0.1697351 0.0315678 0.1697351 0.0315678 0.1697351 0.9684322 -0.1697351
6728 0.9656802 -0.1769369 0.0343198 0.1769369 0.0343198 0.1769369 0.9656802 -0.1769369
7036 0.9626941 -0.1843970 0.0373059 0.1843970 0.0373059 0.1843970 0.9626941 -0.1843970
7358 0.9594555 -0.1921185 0.0405445 0.1921185 0.0405445 0.1921185 0.9594555 -0.1921185
7695 0.9559450 -0.2001031 0.0440550 0.2001031 0.0440550 0.2001031 0.9559450 -0.2001031
8047 0.9521421 -0.2083519 0.0478579 0.2083519 0.0478579 0.2083519 0.9521421 -0.2083519
8416 0.9480248 -0.2168645 0.0519752 0.2168645 0.0519752 0.2168645 0.9480248 -0.2168645
8801 0.9435703 -0.2256390 0.0564297 0.2256390 0.0564297 0.2256390 0.9435703 -0.2256390
9204 0.9387545 -0.2346721 0.0612455 0.2346721 0.0612455 0.2346721 0.9387545 -0.2346721
9626 0.9335524 -0.2439587 0.0664476 0.2439587 0.0664476 0.2439587 0.9335524 -0.2439587
10066 0.9279377 -0.2534913 0.0720623 0.2534913 0.0720623 0.2534913 0.9279377 -0.2534913
10527 0.9218835 -0.2632604 0.0781165 0.2632604 0.0781165 0.2632604 0.9218835 -0.2632604
11009 0.9153620 -0.2732540 0.0846380 0.2732540 0.0846380 0.2732540 0.9153620 -0.2732540
11514 0.9083447 -0.2834570 0.0916553 0.2834570 0.0916553 0.2834570 0.9083447 -0.2834570
12041 0.9008031 -0.2938517 0.0991969 0.2938517 0.0991969 0.2938517 0.9008031 -0.2938517
12592 0.8927082 -0.3044167 0.1072918 0.3044167 0.1072918 0.3044167 0.8927082 -0.3044167
13169 0.8840315 -0.3151274 0.1159685 0.3151274 0.1159685 0.3151274 0.8840315 -0.3151274
13772 0.8747450 -0.3259553 0.1252550 0.3259553 0.1252550 0.3259553 0.8747450 -0.3259553
14402 0.8648217 -0.3368680 0.1351783 0.3368680 0.1351783 0.3368680 0.8648217 -0.3368680
15062 0.8542362 -0.3478293 0.1457638 0.3478293 0.1457638 0.3478293 0.8542362 -0.3478293
15752 0.8429650 -0.3587985 0.1570350 0.3587985 0.1570350 0.3587985 0.8429650 -0.3587985
16473 0.8309874 -0.3697311 0.1690126 0.3697311 0.1690126 0.3697311 0.8309874 -0.3697311
17227 0.8182859 -0.3805785 0.1817141 0.3805785 0.1817141 0.3805785 0.8182859 -0.3805785
18016 0.8048467 -0.3912881 0.1951533 0.3912881 0.1951533 0.3912881 0.8048467 -0.3912881
18841 0.7906607 -0.4018038 0.2093393 0.4018038 0.2093393 0.4018038 0.7906607 -0.4018038
19704 0.7757241 -0.4120662 0.2242759 0.4120662 0.2242759 0.4120662 0.7757241 -0.4120662
20606 0.7600388 -0.4220132 0.2399612 0.4220132 0.2399612 0.4220132 0.7600388 -0.4220132
21550 0.7436133 -0.4315807 0.2563867 0.4315807 0.2563867 0.4315807 0.7436133 -0.4315807
22537 0.7264628 -0.4407032 0.2735372 0.4407032 0.2735372 0.4407032 0.7264628 -0.4407032
23569 0.7086103 -0.4493145 0.2913897 0.4493145 0.2913897 0.4493145 0.7086103 -0.4493145
24648 0.6900860 -0.4573494 0.3099140 0.4573494 0.3099140 0.4573494 0.6900860 -0.4573494
25777 0.6709284 -0.4647438 0.3290716 0.4647438 0.3290716 0.4647438 0.6709284 -0.4647438
26957 0.6511836 -0.4714364 0.3488164 0.4714364 0.3488164 0.4714364 0.6511836 -0.4714364
28191 0.6309054 -0.4773699 0.3690946 0.4773699 0.3690946 0.4773699 0.6309054 -0.4773699
29482 0.6101548 -0.4824917 0.3898452 0.4824917 0.3898452 0.4824917 0.6101548 -0.4824917
30832 0.5889993 -0.4867555 0.4110007 0.4867555 0.4110007 0.4867555 0.5889993 -0.4867555
32244 0.5675126 -0.4901216 0.4324874 0.4901216 0.4324874 0.4901216 0.5675126 -0.4901216
33721 0.5457729 -0.4925587 0.4542271 0.4925587 0.4542271 0.4925587 0.5457729 -0.4925587
35265 0.5238624 -0.4940438 0.4761376 0.4940438 0.4761376 0.4940438 0.5238624 -0.4940438
36880 0.5018659 -0.4945631 0.4981341 0.4945631 0.4981341 0.4945631 0.5018659 -0.4945631
38569 0.4798691 -0.4941123 0.5201309 0.4941123 0.5201309 0.4941123 0.4798691 -0.4941123
40335 0.4579578 -0.4926965 0.5420422 0.4926965 0.5420422 0.4926965 0.4579578 -0.4926965
42182 0.4362165 -0.4903303 0.5637835 0.4903303 0.5637835 0.4903303 0.4362165 -0.4903303
44113 0.4147265 -0.4870373 0.5852735 0.4870373 0.5852735 0.4870373 0.4147265 -0.4870373
46134 0.3935656 -0.4828493 0.6064344 0.4828493 0.6064344 0.4828493 0.3935656 -0.4828493
48246 0.3728062 -0.4778061 0.6271938 0.4778061 0.6271938 0.4778061 0.3728062 -0.4778061
50455 0.3525151 -0.4719540 0.6474849 0.4719540 0.6474849 0.4719540 0.3525151 -0.4719540
52766 0.3327524 -0.4653454 0.6672476 0.4653454 0.6672476 0.4653454 0.3327524 -0.4653454
55182 0.3135708 -0.4580371 0.6864292 0.4580371 0.6864292 0.4580371 0.3135708 -0.4580371
57709 0.2950159 -0.4500897 0.7049841 0.4500897 0.7049841 0.4500897 0.2950159 -0.4500897
60352 0.2771252 -0.4415660 0.7228748 0.4415660 0.7228748 0.4415660 0.2771252 -0.4415660
63115 0.2599289 -0.4325306 0.7400711 0.4325306 0.7400711 0.4325306 0.2599289 -0.4325306
66005 0.2434496 -0.4230483 0.7565504 0.4230483 0.7565504 0.4230483 0.2434496 -0.4230483
69028 0.2277028 -0.4131834 0.7722972 0.4131834 0.7722972 0.4131834 0.2277028 -0.4131834
72189 0.2126971 -0.4029990 0.7873029 0.4029990 0.7873029 0.4029990 0.2126971 -0.4029990
75495 0.1984351 -0.3925561 0.8015649 0.3925561 0.8015649 0.3925561 0.1984351 -0.3925561
78952 0.1849136 -0.3819131 0.8150864 0.3819131 0.8150864 0.3819131 0.1849136 -0.3819131
82567 0.1721245 -0.3711254 0.8278755 0.3711254 0.8278755 0.3711254 0.1721245 -0.3711254
86348 0.1600549 -0.3602450 0.8399451 0.3602450 0.8399451 0.3602450 0.1600549 -0.3602450
90302 0.1486886 -0.3493201 0.8513114 0.3493201 0.8513114 0.3493201 0.1486886 -0.3493201
94437 0.1380057 -0.3383950 0.8619943 0.3383950 0.8619943 0.3383950 0.1380057 -0.3383950
98762 0.1279840 -0.3275103 0.8720160 0.3275103 0.8720160 0.3275103 0.1279840 -0.3275103
103284 0.1185990 -0.3167025 0.8814010 0.3167025 0.8814010 0.3167025 0.1185990 -0.3167025
108014 0.1098249 -0.3060043 0.8901751 0.3060043 0.8901751 0.3060043 0.1098249 -0.3060043
112960 0.1016343 -0.2954446 0.8983657 0.2954446 0.8983657 0.2954446 0.1016343 -0.2954446
118133 0.0939996 -0.2850487 0.9060004 0.2850487 0.9060004 0.2850487 0.0939996 -0.2850487
123542 0.0868924 -0.2748385 0.9131076 0.2748385 0.9131076 0.2748385 0.0868924 -0.2748385
129199 0.0802845 -0.2648327 0.9197155 0.2648327 0.9197155 0.2648327 0.0802845 -0.2648327
135116 0.0741480 -0.2550468 0.9258520 0.2550468 0.9258520 0.2550468 0.0741480 -0.2550468
141303 0.0684552 -0.2454936 0.9315448 0.2454936 0.9315448 0.2454936 0.0684552 -0.2454936
147774 0.0631792 -0.2361836 0.9368208 0.2361836 0.9368208 0.2361836 0.0631792 -0.2361836
154540 0.0582938 -0.2271245 0.9417062 0.2271245 0.9417062 0.2271245 0.0582938 -0.2271245
161617 0.0537738 -0.2183222 0.9462262 0.2183222 0.9462262 0.2183222 0.0537738 -0.2183222
169018 0.0495950 -0.2097806 0.9504050 0.2097806 0.9504050 0.2097806 0.0495950 -0.2097806
176758 0.0457343 -0.2015020 0.9542657 0.2015020 0.9542657 0.2015020 0.0457343 -0.2015020
184852 0.0421694 -0.1934871 0.9578306 0.1934871 0.9578306 0.1934871 0.0421694 -0.1934871
193316 0.0388797 -0.1857353 0.9611203 0.1857353 0.9611203 0.1857353 0.0388797 -0.1857353
202169 0.0358452 -0.1782449 0.9641548 0.1782449 0.9641548 0.1782449 0.0358452 -0.1782449
211427 0.0330474 -0.1710132 0.9669526 0.1710132 0.9669526 0.1710132 0.0330474 -0.1710132
221108 0.0304688 -0.1640366 0.9695312 0.1640366 0.9695312 0.1640366 0.0304688 -0.1640366
231233 0.0280929 -0.1573108 0.9719071 0.1573108 0.9719071 0.1573108 0.0280929 -0.1573108
241822 0.0259045 -0.1508310 0.9740955 0.1508310 0.9740955 0.1508310 0.0259045 -0.1508310
252896 0.0238892 -0.1445918 0.9761108 0.1445918 0.9761108 0.1445918 0.0238892 -0.1445918
264476 0.0220338 -0.1385874 0.9779662 0.1385874 0.9779662 0.1385874 0.0220338 -0.1385874
276587 0.0203258 -0.1328119 0.9796742 0.1328119 0.9796742 0.1328119 0.0203258 -0.1328119
289253 0.0187539 -0.1272589 0.9812461 0.1272589 0.9812461 0.1272589 0.0187539 -0.1272589
302498 0.0173073 -0.1219220 0.9826927 0.1219220 0.9826927 0.1219220 0.0173073 -0.1219220
316350 0.0159761 -0.1167947 0.9840239 0.1167947 0.9840239 0.1167947 0.0159761 -0.1167947
330837 0.0147515 -0.1118703 0.9852485 0.1118703 0.9852485 0.1118703 0.0147515 -0.1118703
345986 0.0136248 -0.1071424 0.9863752 0.1071424 0.9863752 0.1071424 0.0136248 -0.1071424
361830 0.0125884 -0.1026042 0.9874116 0.1026042 0.9874116 0.1026042 0.0125884 -0.1026042
378399 0.0116351 -0.0982493 0.9883649 0.0982493 0.9883649 0.0982493 0.0116351 -0.0982493
395726 0.0107584 -0.0940714 0.9892416 0.0940714 0.9892416 0.0940714 0.0107584 -0.0940714
413847 0.0099521 -0.0900640 0.9900479 0.0900640 0.9900479 0.0900640 0.0099521 -0.0900640
432798 0.0092107 -0.0862209 0.9907893 0.0862209 0.9907893 0.0862209 0.0092107 -0.0862209
452617 0.0085291 -0.0825362 0.9914709 0.0825362 0.9914709 0.0825362 0.0085291 -0.0825362
473344 0.0079024 -0.0790039 0.9920976 0.0790039 0.9920976 0.0790039 0.0079024 -0.0790039
495019 0.0073262 -0.0756183 0.9926738 0.0756183 0.9926738 0.0756183 0.0073262 -0.0756183
517687 0.0067967 -0.0723738 0.9932033 0.0723738 0.9932033 0.0723738 0.0067967 -0.0723738
541393 0.0063100 -0.0692649 0.9936900 0.0692649 0.9936900 0.0692649 0.0063100 -0.0692649
566185 0.0058628 -0.0662863 0.9941372 0.0662863 0.9941372 0.0662863 0.0058628 -0.0662863
592111 0.0054518 -0.0634331 0.9945482 0.0634331 0.9945482 0.0634331 0.0054518 -0.0634331
619225 0.0050742 -0.0607002 0.9949258 0.0607002 0.9949258 0.0607002 0.0050742 -0.0607002
647581 0.0047272 -0.0580829 0.9952728 0.0580829 0.9952728 0.0580829 0.0047272 -0.0580829
677235 0.0044085 -0.0555765 0.9955915 0.0555765 0.9955915 0.0555765 0.0044085 -0.0555765
708247 0.0041157 -0.0531767 0.9958843 0.0531767 0.9958843 0.0531767 0.0041157 -0.0531767
740679 0.0038467 -0.0508791 0.9961533 0.0508791 0.9961533 0.0508791 0.0038467 -0.0508791
774597 0.0035996 -0.0486795 0.9964004 0.0486795 0.9964004 0.0486795 0.0035996 -0.0486795
810067 0.0033726 -0.0465740 0.9966274 0.0465740 0.9966274 0.0465740 0.0033726 -0.0465740
847162 0.0031639 -0.0445586 0.9968361 0.0445586 0.9968361 0.0445586 0.0031639 -0.0445586
885955 0.0029722 -0.0426298 0.9970278 0.0426298 0.9970278 0.0426298 0.0029722 -0.0426298
926525 0.0027960 -0.0407838 0.9972040 0.0407838 0.9972040 0.0407838 0.0027960 -0.0407838
968953 0.0026340 -0.0390173 0.9973660 0.0390173 0.9973660 0.0390173 0.0026340 -0.0390173
1013323 0.0024851 -0.0373269 0.9975149 0.0373269 0.9975149 0.0373269 0.0024851 -0.0373269
1059725 0.0023480 -0.0357095 0.9976520 0.0357095 0.9976520 0.0357095 0.0023480 -0.0357095
1108252 0.0022218 -0.0341619 0.9977782 0.0341619 0.9977782 0.0341619 0.0022218 -0.0341619
1159002 0.0021057 -0.0326812 0.9978943 0.0326812 0.9978943 0.0326812 0.0021057 -0.0326812
1212075 0.0019986 -0.0312646 0.9980014 0.0312646 0.9980014 0.0312646 0.0019986 -0.0312646
1267578 0.0018999 -0.0299093 0.9981001 0.0299093 0.9981001 0.0299093 0.0018999 -0.0299093
1325623 0.0018089 -0.0286128 0.9981911 0.0286128 0.9981911 0.0286128 0.0018089 -0.0286128
1386327 0.0017248 -0.0273723 0.9982752 0.0273723 0.9982752 0.0273723 0.0017248 -0.0273723
1449809 0.0016471 -0.0261857 0.9983529 0.0261857 0.9983529 0.0261857 0.0016471 -0.0261857
1516199 0.0015752 -0.0250505 0.9984248 0.0250505 0.9984248 0.0250505 0.0015752 -0.0250505
1585629 0.0015086 -0.0239644 0.9984914 0.0239644 0.9984914 0.0239644 0.0015086 -0.0239644
1658239 0.0014468 -0.0229255 0.9985532 0.0229255 0.9985532 0.0229255 0.0014468 -0.0229255
1734173 0.0013896 -0.0219315 0.9986104 0.0219315 0.9986104 0.0219315 0.0013896 -0.0219315
1813585 0.0013363 -0.0209805 0.9986637 0.0209805 0.9986637 0.0209805 0.0013363 -0.0209805
1896632 0.0012868 -0.0200707 0.9987132 0.0200707 0.9987132 0.0200707 0.0012868 -0.0200707
1983483 0.0012408 -0.0192002 0.9987592 0.0192002 0.9987592 0.0192002 0.0012408 -0.0192002
2074311 0.0011978 -0.0183673 0.9988022 0.0183673 0.9988022 0.0183673 0.0011978 -0.0183673
