!Murata Part Number: GRM022R61C102ME01
!These Parameters are Measured in Series Mode Connection
!Data Generated on Mar 30, 2021
!       o--ll--o
!Port1            Port2
!       o------o
!Operation Temp=25[degC], DC Bias Voltage=0[V]
!Freq. Start=100[Hz] Stop=6[GHz] 401[Steps]
# Hz S RI R 50
!Freq.(Hz) S11(Real) S11(Imag) S21(Real) S21(Imag) S12(Real) S12(Imag) S22(Real) S22(Imag)
100 0.9999989 -0.0000507 0.0000011 0.0000507 0.0000011 0.0000507 0.9999989 -0.0000507
105 0.9999988 -0.0000530 0.0000012 0.0000530 0.0000012 0.0000530 0.9999988 -0.0000530
109 0.9999988 -0.0000553 0.0000012 0.0000553 0.0000012 0.0000553 0.9999988 -0.0000553
114 0.9999987 -0.0000578 0.0000013 0.0000578 0.0000013 0.0000578 0.9999987 -0.0000578
120 0.9999987 -0.0000605 0.0000013 0.0000605 0.0000013 0.0000605 0.9999987 -0.0000605
125 0.9999986 -0.0000632 0.0000014 0.0000632 0.0000014 0.0000632 0.9999986 -0.0000632
131 0.9999985 -0.0000660 0.0000015 0.0000660 0.0000015 0.0000660 0.9999985 -0.0000660
137 0.9999985 -0.0000690 0.0000015 0.0000690 0.0000015 0.0000690 0.9999985 -0.0000690
143 0.9999984 -0.0000721 0.0000016 0.0000721 0.0000016 0.0000721 0.9999984 -0.0000721
150 0.9999983 -0.0000754 0.0000017 0.0000754 0.0000017 0.0000754 0.9999983 -0.0000754
156 0.9999982 -0.0000788 0.0000018 0.0000788 0.0000018 0.0000788 0.9999982 -0.0000788
164 0.9999981 -0.0000823 0.0000019 0.0000823 0.0000019 0.0000823 0.9999981 -0.0000823
171 0.9999981 -0.0000861 0.0000019 0.0000861 0.0000019 0.0000861 0.9999981 -0.0000861
179 0.9999980 -0.0000899 0.0000020 0.0000899 0.0000020 0.0000899 0.9999980 -0.0000899
187 0.9999979 -0.0000940 0.0000021 0.0000940 0.0000021 0.0000940 0.9999979 -0.0000940
196 0.9999978 -0.0000982 0.0000022 0.0000982 0.0000022 0.0000982 0.9999978 -0.0000982
205 0.9999977 -0.0001027 0.0000023 0.0001027 0.0000023 0.0001027 0.9999977 -0.0001027
214 0.9999976 -0.0001073 0.0000024 0.0001073 0.0000024 0.0001073 0.9999976 -0.0001073
224 0.9999974 -0.0001121 0.0000026 0.0001121 0.0000026 0.0001121 0.9999974 -0.0001121
234 0.9999973 -0.0001172 0.0000027 0.0001172 0.0000027 0.0001172 0.9999973 -0.0001172
245 0.9999972 -0.0001224 0.0000028 0.0001224 0.0000028 0.0001224 0.9999972 -0.0001224
256 0.9999971 -0.0001279 0.0000029 0.0001279 0.0000029 0.0001279 0.9999971 -0.0001279
268 0.9999970 -0.0001337 0.0000030 0.0001337 0.0000030 0.0001337 0.9999970 -0.0001337
280 0.9999968 -0.0001397 0.0000032 0.0001397 0.0000032 0.0001397 0.9999968 -0.0001397
293 0.9999967 -0.0001460 0.0000033 0.0001460 0.0000033 0.0001460 0.9999967 -0.0001460
306 0.9999966 -0.0001526 0.0000034 0.0001526 0.0000034 0.0001526 0.9999966 -0.0001526
320 0.9999964 -0.0001595 0.0000036 0.0001595 0.0000036 0.0001595 0.9999964 -0.0001595
335 0.9999963 -0.0001667 0.0000037 0.0001667 0.0000037 0.0001667 0.9999963 -0.0001667
350 0.9999962 -0.0001742 0.0000038 0.0001742 0.0000038 0.0001742 0.9999962 -0.0001742
366 0.9999960 -0.0001821 0.0000040 0.0001821 0.0000040 0.0001821 0.9999960 -0.0001821
383 0.9999958 -0.0001903 0.0000042 0.0001903 0.0000042 0.0001903 0.9999958 -0.0001903
401 0.9999957 -0.0001989 0.0000043 0.0001989 0.0000043 0.0001989 0.9999957 -0.0001989
419 0.9999955 -0.0002079 0.0000045 0.0002079 0.0000045 0.0002079 0.9999955 -0.0002079
438 0.9999953 -0.0002173 0.0000047 0.0002173 0.0000047 0.0002173 0.9999953 -0.0002173
458 0.9999951 -0.0002271 0.0000049 0.0002271 0.0000049 0.0002271 0.9999951 -0.0002271
479 0.9999949 -0.0002374 0.0000051 0.0002374 0.0000051 0.0002374 0.9999949 -0.0002374
501 0.9999947 -0.0002481 0.0000053 0.0002481 0.0000053 0.0002481 0.9999947 -0.0002481
524 0.9999945 -0.0002593 0.0000055 0.0002593 0.0000055 0.0002593 0.9999945 -0.0002593
548 0.9999943 -0.0002711 0.0000057 0.0002711 0.0000057 0.0002711 0.9999943 -0.0002711
573 0.9999940 -0.0002833 0.0000060 0.0002833 0.0000060 0.0002833 0.9999940 -0.0002833
600 0.9999938 -0.0002962 0.0000062 0.0002962 0.0000062 0.0002962 0.9999938 -0.0002962
627 0.9999935 -0.0003096 0.0000065 0.0003096 0.0000065 0.0003096 0.9999935 -0.0003096
656 0.9999932 -0.0003236 0.0000068 0.0003236 0.0000068 0.0003236 0.9999932 -0.0003236
686 0.9999929 -0.0003383 0.0000071 0.0003383 0.0000071 0.0003383 0.9999929 -0.0003383
717 0.9999926 -0.0003536 0.0000074 0.0003536 0.0000074 0.0003536 0.9999926 -0.0003536
750 0.9999922 -0.0003696 0.0000078 0.0003696 0.0000078 0.0003696 0.9999922 -0.0003696
784 0.9999918 -0.0003863 0.0000082 0.0003863 0.0000082 0.0003863 0.9999918 -0.0003863
820 0.9999914 -0.0004038 0.0000086 0.0004038 0.0000086 0.0004038 0.9999914 -0.0004038
858 0.9999910 -0.0004221 0.0000090 0.0004221 0.0000090 0.0004221 0.9999910 -0.0004221
897 0.9999905 -0.0004412 0.0000095 0.0004412 0.0000095 0.0004412 0.9999905 -0.0004412
938 0.9999900 -0.0004612 0.0000100 0.0004612 0.0000100 0.0004612 0.9999900 -0.0004612
981 0.9999895 -0.0004821 0.0000105 0.0004821 0.0000105 0.0004821 0.9999895 -0.0004821
1026 0.9999889 -0.0005039 0.0000111 0.0005039 0.0000111 0.0005039 0.9999889 -0.0005039
1073 0.9999884 -0.0005267 0.0000116 0.0005267 0.0000116 0.0005267 0.9999884 -0.0005267
1122 0.9999877 -0.0005505 0.0000123 0.0005505 0.0000123 0.0005505 0.9999877 -0.0005505
1174 0.9999871 -0.0005753 0.0000129 0.0005753 0.0000129 0.0005753 0.9999871 -0.0005753
1227 0.9999864 -0.0006013 0.0000136 0.0006013 0.0000136 0.0006013 0.9999864 -0.0006013
1283 0.9999856 -0.0006285 0.0000144 0.0006285 0.0000144 0.0006285 0.9999856 -0.0006285
1342 0.9999848 -0.0006568 0.0000152 0.0006568 0.0000152 0.0006568 0.9999848 -0.0006568
1404 0.9999840 -0.0006865 0.0000160 0.0006865 0.0000160 0.0006865 0.9999840 -0.0006865
1468 0.9999831 -0.0007174 0.0000169 0.0007174 0.0000169 0.0007174 0.9999831 -0.0007174
1535 0.9999822 -0.0007498 0.0000178 0.0007498 0.0000178 0.0007498 0.9999822 -0.0007498
1606 0.9999812 -0.0007835 0.0000188 0.0007835 0.0000188 0.0007835 0.9999812 -0.0007835
1679 0.9999802 -0.0008188 0.0000198 0.0008188 0.0000198 0.0008188 0.9999802 -0.0008188
1756 0.9999792 -0.0008557 0.0000208 0.0008557 0.0000208 0.0008557 0.9999792 -0.0008557
1836 0.9999781 -0.0008942 0.0000219 0.0008942 0.0000219 0.0008942 0.9999781 -0.0008942
1920 0.9999770 -0.0009345 0.0000230 0.0009345 0.0000230 0.0009345 0.9999770 -0.0009345
2008 0.9999758 -0.0009765 0.0000242 0.0009765 0.0000242 0.0009765 0.9999758 -0.0009765
2100 0.9999746 -0.0010204 0.0000254 0.0010204 0.0000254 0.0010204 0.9999746 -0.0010204
2196 0.9999733 -0.0010663 0.0000267 0.0010663 0.0000267 0.0010663 0.9999733 -0.0010663
2297 0.9999720 -0.0011143 0.0000280 0.0011143 0.0000280 0.0011143 0.9999720 -0.0011143
2402 0.9999706 -0.0011644 0.0000294 0.0011644 0.0000294 0.0011644 0.9999706 -0.0011644
2512 0.9999692 -0.0012168 0.0000308 0.0012168 0.0000308 0.0012168 0.9999692 -0.0012168
2627 0.9999677 -0.0012715 0.0000323 0.0012715 0.0000323 0.0012715 0.9999677 -0.0012715
2748 0.9999662 -0.0013287 0.0000338 0.0013287 0.0000338 0.0013287 0.9999662 -0.0013287
2873 0.9999646 -0.0013885 0.0000354 0.0013885 0.0000354 0.0013885 0.9999646 -0.0013885
3005 0.9999629 -0.0014510 0.0000371 0.0014510 0.0000371 0.0014510 0.9999629 -0.0014510
3143 0.9999612 -0.0015163 0.0000388 0.0015163 0.0000388 0.0015163 0.9999612 -0.0015163
3287 0.9999594 -0.0015846 0.0000406 0.0015846 0.0000406 0.0015846 0.9999594 -0.0015846
3437 0.9999576 -0.0016559 0.0000424 0.0016559 0.0000424 0.0016559 0.9999576 -0.0016559
3594 0.9999556 -0.0017306 0.0000444 0.0017306 0.0000444 0.0017306 0.9999556 -0.0017306
3759 0.9999536 -0.0018086 0.0000464 0.0018086 0.0000464 0.0018086 0.9999536 -0.0018086
3931 0.9999515 -0.0018901 0.0000485 0.0018901 0.0000485 0.0018901 0.9999515 -0.0018901
4111 0.9999492 -0.0019754 0.0000508 0.0019754 0.0000508 0.0019754 0.9999492 -0.0019754
4299 0.9999468 -0.0020645 0.0000532 0.0020645 0.0000532 0.0020645 0.9999468 -0.0020645
4496 0.9999443 -0.0021576 0.0000557 0.0021576 0.0000557 0.0021576 0.9999443 -0.0021576
4702 0.9999417 -0.0022550 0.0000583 0.0022550 0.0000583 0.0022550 0.9999417 -0.0022550
4918 0.9999389 -0.0023569 0.0000611 0.0023569 0.0000611 0.0023569 0.9999389 -0.0023569
5143 0.9999359 -0.0024633 0.0000641 0.0024633 0.0000641 0.0024633 0.9999359 -0.0024633
5378 0.9999327 -0.0025746 0.0000673 0.0025746 0.0000673 0.0025746 0.9999327 -0.0025746
5625 0.9999293 -0.0026909 0.0000707 0.0026909 0.0000707 0.0026909 0.9999293 -0.0026909
5882 0.9999257 -0.0028124 0.0000743 0.0028124 0.0000743 0.0028124 0.9999257 -0.0028124
6151 0.9999219 -0.0029395 0.0000781 0.0029395 0.0000781 0.0029395 0.9999219 -0.0029395
6433 0.9999178 -0.0030723 0.0000822 0.0030723 0.0000822 0.0030723 0.9999178 -0.0030723
6728 0.9999134 -0.0032111 0.0000866 0.0032111 0.0000866 0.0032111 0.9999134 -0.0032111
7036 0.9999087 -0.0033562 0.0000913 0.0033562 0.0000913 0.0033562 0.9999087 -0.0033562
7358 0.9999037 -0.0035077 0.0000963 0.0035077 0.0000963 0.0035077 0.9999037 -0.0035077
7695 0.9998984 -0.0036662 0.0001016 0.0036662 0.0001016 0.0036662 0.9998984 -0.0036662
8047 0.9998926 -0.0038317 0.0001074 0.0038317 0.0001074 0.0038317 0.9998926 -0.0038317
8416 0.9998865 -0.0040046 0.0001135 0.0040046 0.0001135 0.0040046 0.9998865 -0.0040046
8801 0.9998800 -0.0041853 0.0001200 0.0041853 0.0001200 0.0041853 0.9998800 -0.0041853
9204 0.9998731 -0.0043741 0.0001269 0.0043741 0.0001269 0.0043741 0.9998731 -0.0043741
9626 0.9998657 -0.0045714 0.0001343 0.0045714 0.0001343 0.0045714 0.9998657 -0.0045714
10066 0.9998578 -0.0047774 0.0001422 0.0047774 0.0001422 0.0047774 0.9998578 -0.0047774
10527 0.9998494 -0.0049927 0.0001506 0.0049927 0.0001506 0.0049927 0.9998494 -0.0049927
11009 0.9998405 -0.0052176 0.0001595 0.0052176 0.0001595 0.0052176 0.9998405 -0.0052176
11514 0.9998310 -0.0054525 0.0001690 0.0054525 0.0001690 0.0054525 0.9998310 -0.0054525
12041 0.9998210 -0.0056979 0.0001790 0.0056979 0.0001790 0.0056979 0.9998210 -0.0056979
12592 0.9998103 -0.0059543 0.0001897 0.0059543 0.0001897 0.0059543 0.9998103 -0.0059543
13169 0.9997990 -0.0062220 0.0002010 0.0062220 0.0002010 0.0062220 0.9997990 -0.0062220
13772 0.9997871 -0.0065018 0.0002129 0.0065018 0.0002129 0.0065018 0.9997871 -0.0065018
14402 0.9997744 -0.0067940 0.0002256 0.0067940 0.0002256 0.0067940 0.9997744 -0.0067940
15062 0.9997610 -0.0070993 0.0002390 0.0070993 0.0002390 0.0070993 0.9997610 -0.0070993
15752 0.9997469 -0.0074182 0.0002531 0.0074182 0.0002531 0.0074182 0.9997469 -0.0074182
16473 0.9997319 -0.0077514 0.0002681 0.0077514 0.0002681 0.0077514 0.9997319 -0.0077514
17227 0.9997161 -0.0080996 0.0002839 0.0080996 0.0002839 0.0080996 0.9997161 -0.0080996
18016 0.9996993 -0.0084633 0.0003007 0.0084633 0.0003007 0.0084633 0.9996993 -0.0084633
18841 0.9996816 -0.0088433 0.0003184 0.0088433 0.0003184 0.0088433 0.9996816 -0.0088433
19704 0.9996629 -0.0092404 0.0003371 0.0092404 0.0003371 0.0092404 0.9996629 -0.0092404
20606 0.9996430 -0.0096554 0.0003570 0.0096554 0.0003570 0.0096554 0.9996430 -0.0096554
21550 0.9996219 -0.0100890 0.0003781 0.0100890 0.0003781 0.0100890 0.9996219 -0.0100890
22537 0.9995996 -0.0105421 0.0004004 0.0105421 0.0004004 0.0105421 0.9995996 -0.0105421
23569 0.9995758 -0.0110156 0.0004242 0.0110156 0.0004242 0.0110156 0.9995758 -0.0110156
24648 0.9995505 -0.0115105 0.0004495 0.0115105 0.0004495 0.0115105 0.9995505 -0.0115105
25777 0.9995235 -0.0120278 0.0004765 0.0120278 0.0004765 0.0120278 0.9995235 -0.0120278
26957 0.9994948 -0.0125683 0.0005052 0.0125683 0.0005052 0.0125683 0.9994948 -0.0125683
28191 0.9994641 -0.0131333 0.0005359 0.0131333 0.0005359 0.0131333 0.9994641 -0.0131333
29482 0.9994312 -0.0137238 0.0005688 0.0137238 0.0005688 0.0137238 0.9994312 -0.0137238
30832 0.9993960 -0.0143409 0.0006040 0.0143409 0.0006040 0.0143409 0.9993960 -0.0143409
32244 0.9993582 -0.0149859 0.0006418 0.0149859 0.0006418 0.0149859 0.9993582 -0.0149859
33721 0.9993177 -0.0156600 0.0006823 0.0156600 0.0006823 0.0156600 0.9993177 -0.0156600
35265 0.9992741 -0.0163644 0.0007259 0.0163644 0.0007259 0.0163644 0.9992741 -0.0163644
36880 0.9992271 -0.0171006 0.0007729 0.0171006 0.0007729 0.0171006 0.9992271 -0.0171006
38569 0.9991766 -0.0178699 0.0008234 0.0178699 0.0008234 0.0178699 0.9991766 -0.0178699
40335 0.9991221 -0.0186737 0.0008779 0.0186737 0.0008779 0.0186737 0.9991221 -0.0186737
42182 0.9990633 -0.0195136 0.0009367 0.0195136 0.0009367 0.0195136 0.9990633 -0.0195136
44113 0.9989999 -0.0203912 0.0010001 0.0203912 0.0010001 0.0203912 0.9989999 -0.0203912
46134 0.9989314 -0.0213079 0.0010686 0.0213079 0.0010686 0.0213079 0.9989314 -0.0213079
48246 0.9988575 -0.0222656 0.0011425 0.0222656 0.0011425 0.0222656 0.9988575 -0.0222656
50455 0.9987776 -0.0232659 0.0012224 0.0232659 0.0012224 0.0232659 0.9987776 -0.0232659
52766 0.9986913 -0.0243107 0.0013087 0.0243107 0.0013087 0.0243107 0.9986913 -0.0243107
55182 0.9985980 -0.0254018 0.0014020 0.0254018 0.0014020 0.0254018 0.9985980 -0.0254018
57709 0.9984973 -0.0265413 0.0015027 0.0265413 0.0015027 0.0265413 0.9984973 -0.0265413
60352 0.9983885 -0.0277310 0.0016115 0.0277310 0.0016115 0.0277310 0.9983885 -0.0277310
63115 0.9982711 -0.0289732 0.0017289 0.0289732 0.0017289 0.0289732 0.9982711 -0.0289732
66005 0.9981443 -0.0302700 0.0018557 0.0302700 0.0018557 0.0302700 0.9981443 -0.0302700
69028 0.9980075 -0.0316236 0.0019925 0.0316236 0.0019925 0.0316236 0.9980075 -0.0316236
72189 0.9978600 -0.0330365 0.0021400 0.0330365 0.0021400 0.0330365 0.9978600 -0.0330365
75495 0.9977009 -0.0345110 0.0022991 0.0345110 0.0022991 0.0345110 0.9977009 -0.0345110
78952 0.9975294 -0.0360499 0.0024706 0.0360499 0.0024706 0.0360499 0.9975294 -0.0360499
82567 0.9973447 -0.0376556 0.0026553 0.0376556 0.0026553 0.0376556 0.9973447 -0.0376556
86348 0.9971459 -0.0393311 0.0028541 0.0393311 0.0028541 0.0393311 0.9971459 -0.0393311
90302 0.9969318 -0.0410792 0.0030682 0.0410792 0.0030682 0.0410792 0.9969318 -0.0410792
94437 0.9967014 -0.0429029 0.0032986 0.0429029 0.0032986 0.0429029 0.9967014 -0.0429029
98762 0.9964537 -0.0448054 0.0035463 0.0448054 0.0035463 0.0448054 0.9964537 -0.0448054
103284 0.9961873 -0.0467901 0.0038127 0.0467901 0.0038127 0.0467901 0.9961873 -0.0467901
108014 0.9959008 -0.0488604 0.0040992 0.0488604 0.0040992 0.0488604 0.9959008 -0.0488604
112960 0.9955929 -0.0510200 0.0044071 0.0510200 0.0044071 0.0510200 0.9955929 -0.0510200
118133 0.9952620 -0.0532725 0.0047380 0.0532725 0.0047380 0.0532725 0.9952620 -0.0532725
123542 0.9949063 -0.0556221 0.0050937 0.0556221 0.0050937 0.0556221 0.9949063 -0.0556221
129199 0.9945240 -0.0580727 0.0054760 0.0580727 0.0054760 0.0580727 0.9945240 -0.0580727
135116 0.9941129 -0.0606288 0.0058871 0.0606288 0.0058871 0.0606288 0.9941129 -0.0606288
141303 0.9936709 -0.0632948 0.0063291 0.0632948 0.0063291 0.0632948 0.9936709 -0.0632948
147774 0.9931954 -0.0660754 0.0068046 0.0660754 0.0068046 0.0660754 0.9931954 -0.0660754
154540 0.9926836 -0.0689755 0.0073164 0.0689755 0.0073164 0.0689755 0.9926836 -0.0689755
161617 0.9921327 -0.0720000 0.0078673 0.0720000 0.0078673 0.0720000 0.9921327 -0.0720000
169018 0.9915391 -0.0751543 0.0084609 0.0751543 0.0084609 0.0751543 0.9915391 -0.0751543
176758 0.9908995 -0.0784436 0.0091005 0.0784436 0.0091005 0.0784436 0.9908995 -0.0784436
184852 0.9902096 -0.0818736 0.0097904 0.0818736 0.0097904 0.0818736 0.9902096 -0.0818736
193316 0.9894652 -0.0854497 0.0105348 0.0854497 0.0105348 0.0854497 0.9894652 -0.0854497
202169 0.9886614 -0.0891779 0.0113386 0.0891779 0.0113386 0.0891779 0.9886614 -0.0891779
211427 0.9877931 -0.0930641 0.0122069 0.0930641 0.0122069 0.0930641 0.9877931 -0.0930641
221108 0.9868544 -0.0971142 0.0131456 0.0971142 0.0131456 0.0971142 0.9868544 -0.0971142
231233 0.9858392 -0.1013342 0.0141608 0.1013342 0.0141608 0.1013342 0.9858392 -0.1013342
241822 0.9847408 -0.1057303 0.0152592 0.1057303 0.0152592 0.1057303 0.9847408 -0.1057303
252896 0.9835517 -0.1103085 0.0164483 0.1103085 0.0164483 0.1103085 0.9835517 -0.1103085
264476 0.9822640 -0.1150749 0.0177360 0.1150749 0.0177360 0.1150749 0.9822640 -0.1150749
276587 0.9808692 -0.1200354 0.0191308 0.1200354 0.0191308 0.1200354 0.9808692 -0.1200354
289253 0.9793580 -0.1251960 0.0206420 0.1251960 0.0206420 0.1251960 0.9793580 -0.1251960
302498 0.9777204 -0.1305622 0.0222796 0.1305622 0.0222796 0.1305622 0.9777204 -0.1305622
316350 0.9759457 -0.1361396 0.0240543 0.1361396 0.0240543 0.1361396 0.9759457 -0.1361396
330837 0.9740226 -0.1419333 0.0259774 0.1419333 0.0259774 0.1419333 0.9740226 -0.1419333
345986 0.9719387 -0.1479482 0.0280613 0.1479482 0.0280613 0.1479482 0.9719387 -0.1479482
361830 0.9696810 -0.1541887 0.0303190 0.1541887 0.0303190 0.1541887 0.9696810 -0.1541887
378399 0.9672356 -0.1606587 0.0327644 0.1606587 0.0327644 0.1606587 0.9672356 -0.1606587
395726 0.9645878 -0.1673615 0.0354122 0.1673615 0.0354122 0.1673615 0.9645878 -0.1673615
413847 0.9617219 -0.1742996 0.0382781 0.1742996 0.0382781 0.1742996 0.9617219 -0.1742996
432798 0.9586216 -0.1814749 0.0413784 0.1814749 0.0413784 0.1814749 0.9586216 -0.1814749
452617 0.9552695 -0.1888882 0.0447305 0.1888882 0.0447305 0.1888882 0.9552695 -0.1888882
473344 0.9516475 -0.1965396 0.0483525 0.1965396 0.0483525 0.1965396 0.9516475 -0.1965396
495019 0.9477366 -0.2044276 0.0522634 0.2044276 0.0522634 0.2044276 0.9477366 -0.2044276
517687 0.9435172 -0.2125498 0.0564828 0.2125498 0.0564828 0.2125498 0.9435172 -0.2125498
541393 0.9389687 -0.2209022 0.0610313 0.2209022 0.0610313 0.2209022 0.9389687 -0.2209022
566185 0.9340701 -0.2294793 0.0659299 0.2294793 0.0659299 0.2294793 0.9340701 -0.2294793
592111 0.9287998 -0.2382738 0.0712002 0.2382738 0.0712002 0.2382738 0.9287998 -0.2382738
619225 0.9231356 -0.2472769 0.0768644 0.2472769 0.0768644 0.2472769 0.9231356 -0.2472769
647581 0.9170551 -0.2564776 0.0829449 0.2564776 0.0829449 0.2564776 0.9170551 -0.2564776
677235 0.9105357 -0.2658628 0.0894643 0.2658628 0.0894643 0.2658628 0.9105357 -0.2658628
708247 0.9035546 -0.2754172 0.0964454 0.2754172 0.0964454 0.2754172 0.9035546 -0.2754172
740679 0.8960893 -0.2851232 0.1039107 0.2851232 0.1039107 0.2851232 0.8960893 -0.2851232
774597 0.8881175 -0.2949608 0.1118825 0.2949608 0.1118825 0.2949608 0.8881175 -0.2949608
810067 0.8796176 -0.3049074 0.1203824 0.3049074 0.1203824 0.3049074 0.8796176 -0.3049074
847162 0.8705688 -0.3149377 0.1294312 0.3149377 0.1294312 0.3149377 0.8705688 -0.3149377
885955 0.8609512 -0.3250239 0.1390488 0.3250239 0.1390488 0.3250239 0.8609512 -0.3250239
926525 0.8507464 -0.3351351 0.1492536 0.3351351 0.1492536 0.3351351 0.8507464 -0.3351351
968953 0.8399375 -0.3452379 0.1600625 0.3452379 0.1600625 0.3452379 0.8399375 -0.3452379
1013323 0.8285099 -0.3552962 0.1714901 0.3552962 0.1714901 0.3552962 0.8285099 -0.3552962
1059725 0.8164510 -0.3652709 0.1835490 0.3652709 0.1835490 0.3652709 0.8164510 -0.3652709
1108252 0.8037511 -0.3751205 0.1962489 0.3751205 0.1962489 0.3751205 0.8037511 -0.3751205
1159002 0.7904037 -0.3848008 0.2095963 0.3848008 0.2095963 0.3848008 0.7904037 -0.3848008
1212075 0.7764056 -0.3942655 0.2235944 0.3942655 0.2235944 0.3942655 0.7764056 -0.3942655
1267578 0.7617578 -0.4034659 0.2382422 0.4034659 0.2382422 0.4034659 0.7617578 -0.4034659
1325623 0.7464654 -0.4123518 0.2535346 0.4123518 0.2535346 0.4123518 0.7464654 -0.4123518
1386327 0.7305383 -0.4208714 0.2694617 0.4208714 0.2694617 0.4208714 0.7305383 -0.4208714
1449809 0.7139918 -0.4289721 0.2860082 0.4289721 0.2860082 0.4289721 0.7139918 -0.4289721
1516199 0.6968462 -0.4366008 0.3031538 0.4366008 0.3031538 0.4366008 0.6968462 -0.4366008
1585629 0.6791280 -0.4437047 0.3208720 0.4437047 0.3208720 0.4437047 0.6791280 -0.4437047
1658239 0.6608693 -0.4502319 0.3391307 0.4502319 0.3391307 0.4502319 0.6608693 -0.4502319
1734173 0.6421084 -0.4561324 0.3578916 0.4561324 0.3578916 0.4561324 0.6421084 -0.4561324
1813585 0.6228895 -0.4613585 0.3771105 0.4613585 0.3771105 0.4613585 0.6228895 -0.4613585
1896632 0.6032628 -0.4658662 0.3967372 0.4658662 0.3967372 0.4658662 0.6032628 -0.4658662
1983483 0.5832841 -0.4696155 0.4167159 0.4696155 0.4167159 0.4696155 0.5832841 -0.4696155
2074311 0.5630141 -0.4725718 0.4369859 0.4725718 0.4369859 0.4725718 0.5630141 -0.4725718
