!Murata Part Number: GRM022R61C332KE01
!These Parameters are Measured in Series Mode Connection
!Data Generated on Mar 30, 2021
!       o--ll--o
!Port1            Port2
!       o------o
!Operation Temp=25[degC], DC Bias Voltage=0[V]
!Freq. Start=100[Hz] Stop=6[GHz] 401[Steps]
# Hz S RI R 50
!Freq.(Hz) S11(Real) S11(Imag) S21(Real) S21(Imag) S12(Real) S12(Imag) S22(Real) S22(Imag)
100 0.9999965 -0.0001511 0.0000035 0.0001511 0.0000035 0.0001511 0.9999965 -0.0001511
105 0.9999963 -0.0001580 0.0000037 0.0001580 0.0000037 0.0001580 0.9999963 -0.0001580
109 0.9999961 -0.0001651 0.0000039 0.0001651 0.0000039 0.0001651 0.9999961 -0.0001651
114 0.9999959 -0.0001725 0.0000041 0.0001725 0.0000041 0.0001725 0.9999959 -0.0001725
120 0.9999957 -0.0001803 0.0000043 0.0001803 0.0000043 0.0001803 0.9999957 -0.0001803
125 0.9999955 -0.0001884 0.0000045 0.0001884 0.0000045 0.0001884 0.9999955 -0.0001884
131 0.9999953 -0.0001969 0.0000047 0.0001969 0.0000047 0.0001969 0.9999953 -0.0001969
137 0.9999950 -0.0002058 0.0000050 0.0002058 0.0000050 0.0002058 0.9999950 -0.0002058
143 0.9999948 -0.0002151 0.0000052 0.0002151 0.0000052 0.0002151 0.9999948 -0.0002151
150 0.9999945 -0.0002247 0.0000055 0.0002247 0.0000055 0.0002247 0.9999945 -0.0002247
156 0.9999942 -0.0002348 0.0000058 0.0002348 0.0000058 0.0002348 0.9999942 -0.0002348
164 0.9999940 -0.0002454 0.0000060 0.0002454 0.0000060 0.0002454 0.9999940 -0.0002454
171 0.9999937 -0.0002564 0.0000063 0.0002564 0.0000063 0.0002564 0.9999937 -0.0002564
179 0.9999934 -0.0002680 0.0000066 0.0002680 0.0000066 0.0002680 0.9999934 -0.0002680
187 0.9999931 -0.0002800 0.0000069 0.0002800 0.0000069 0.0002800 0.9999931 -0.0002800
196 0.9999928 -0.0002926 0.0000072 0.0002926 0.0000072 0.0002926 0.9999928 -0.0002926
205 0.9999924 -0.0003058 0.0000076 0.0003058 0.0000076 0.0003058 0.9999924 -0.0003058
214 0.9999921 -0.0003195 0.0000079 0.0003195 0.0000079 0.0003195 0.9999921 -0.0003195
224 0.9999917 -0.0003339 0.0000083 0.0003339 0.0000083 0.0003339 0.9999917 -0.0003339
234 0.9999914 -0.0003489 0.0000086 0.0003489 0.0000086 0.0003489 0.9999914 -0.0003489
245 0.9999910 -0.0003646 0.0000090 0.0003646 0.0000090 0.0003646 0.9999910 -0.0003646
256 0.9999907 -0.0003810 0.0000093 0.0003810 0.0000093 0.0003810 0.9999907 -0.0003810
268 0.9999903 -0.0003981 0.0000097 0.0003981 0.0000097 0.0003981 0.9999903 -0.0003981
280 0.9999899 -0.0004160 0.0000101 0.0004160 0.0000101 0.0004160 0.9999899 -0.0004160
293 0.9999895 -0.0004348 0.0000105 0.0004348 0.0000105 0.0004348 0.9999895 -0.0004348
306 0.9999891 -0.0004544 0.0000109 0.0004544 0.0000109 0.0004544 0.9999891 -0.0004544
320 0.9999886 -0.0004748 0.0000114 0.0004748 0.0000114 0.0004748 0.9999886 -0.0004748
335 0.9999882 -0.0004963 0.0000118 0.0004963 0.0000118 0.0004963 0.9999882 -0.0004963
350 0.9999877 -0.0005187 0.0000123 0.0005187 0.0000123 0.0005187 0.9999877 -0.0005187
366 0.9999872 -0.0005421 0.0000128 0.0005421 0.0000128 0.0005421 0.9999872 -0.0005421
383 0.9999867 -0.0005665 0.0000133 0.0005665 0.0000133 0.0005665 0.9999867 -0.0005665
401 0.9999862 -0.0005921 0.0000138 0.0005921 0.0000138 0.0005921 0.9999862 -0.0005921
419 0.9999856 -0.0006189 0.0000144 0.0006189 0.0000144 0.0006189 0.9999856 -0.0006189
438 0.9999850 -0.0006469 0.0000150 0.0006469 0.0000150 0.0006469 0.9999850 -0.0006469
458 0.9999844 -0.0006761 0.0000156 0.0006761 0.0000156 0.0006761 0.9999844 -0.0006761
479 0.9999837 -0.0007067 0.0000163 0.0007067 0.0000163 0.0007067 0.9999837 -0.0007067
501 0.9999830 -0.0007387 0.0000170 0.0007387 0.0000170 0.0007387 0.9999830 -0.0007387
524 0.9999822 -0.0007721 0.0000178 0.0007721 0.0000178 0.0007721 0.9999822 -0.0007721
548 0.9999814 -0.0008070 0.0000186 0.0008070 0.0000186 0.0008070 0.9999814 -0.0008070
573 0.9999806 -0.0008436 0.0000194 0.0008436 0.0000194 0.0008436 0.9999806 -0.0008436
600 0.9999796 -0.0008818 0.0000204 0.0008818 0.0000204 0.0008818 0.9999796 -0.0008818
627 0.9999787 -0.0009217 0.0000213 0.0009217 0.0000213 0.0009217 0.9999787 -0.0009217
656 0.9999776 -0.0009634 0.0000224 0.0009634 0.0000224 0.0009634 0.9999776 -0.0009634
686 0.9999765 -0.0010070 0.0000235 0.0010070 0.0000235 0.0010070 0.9999765 -0.0010070
717 0.9999753 -0.0010526 0.0000247 0.0010526 0.0000247 0.0010526 0.9999753 -0.0010526
750 0.9999740 -0.0011002 0.0000260 0.0011002 0.0000260 0.0011002 0.9999740 -0.0011002
784 0.9999727 -0.0011500 0.0000273 0.0011500 0.0000273 0.0011500 0.9999727 -0.0011500
820 0.9999712 -0.0012020 0.0000288 0.0012020 0.0000288 0.0012020 0.9999712 -0.0012020
858 0.9999696 -0.0012564 0.0000304 0.0012564 0.0000304 0.0012564 0.9999696 -0.0012564
897 0.9999680 -0.0013131 0.0000320 0.0013131 0.0000320 0.0013131 0.9999680 -0.0013131
938 0.9999662 -0.0013725 0.0000338 0.0013725 0.0000338 0.0013725 0.9999662 -0.0013725
981 0.9999643 -0.0014345 0.0000357 0.0014345 0.0000357 0.0014345 0.9999643 -0.0014345
1026 0.9999623 -0.0014992 0.0000377 0.0014992 0.0000377 0.0014992 0.9999623 -0.0014992
1073 0.9999602 -0.0015669 0.0000398 0.0015669 0.0000398 0.0015669 0.9999602 -0.0015669
1122 0.9999579 -0.0016376 0.0000421 0.0016376 0.0000421 0.0016376 0.9999579 -0.0016376
1174 0.9999556 -0.0017114 0.0000444 0.0017114 0.0000444 0.0017114 0.9999556 -0.0017114
1227 0.9999530 -0.0017885 0.0000470 0.0017885 0.0000470 0.0017885 0.9999530 -0.0017885
1283 0.9999504 -0.0018691 0.0000496 0.0018691 0.0000496 0.0018691 0.9999504 -0.0018691
1342 0.9999476 -0.0019532 0.0000524 0.0019532 0.0000524 0.0019532 0.9999476 -0.0019532
1404 0.9999446 -0.0020412 0.0000554 0.0020412 0.0000554 0.0020412 0.9999446 -0.0020412
1468 0.9999415 -0.0021330 0.0000585 0.0021330 0.0000585 0.0021330 0.9999415 -0.0021330
1535 0.9999382 -0.0022289 0.0000618 0.0022289 0.0000618 0.0022289 0.9999382 -0.0022289
1606 0.9999348 -0.0023291 0.0000652 0.0023291 0.0000652 0.0023291 0.9999348 -0.0023291
1679 0.9999312 -0.0024338 0.0000688 0.0024338 0.0000688 0.0024338 0.9999312 -0.0024338
1756 0.9999275 -0.0025431 0.0000725 0.0025431 0.0000725 0.0025431 0.9999275 -0.0025431
1836 0.9999236 -0.0026573 0.0000764 0.0026573 0.0000764 0.0026573 0.9999236 -0.0026573
1920 0.9999195 -0.0027767 0.0000805 0.0027767 0.0000805 0.0027767 0.9999195 -0.0027767
2008 0.9999152 -0.0029014 0.0000848 0.0029014 0.0000848 0.0029014 0.9999152 -0.0029014
2100 0.9999108 -0.0030317 0.0000892 0.0030317 0.0000892 0.0030317 0.9999108 -0.0030317
2196 0.9999061 -0.0031678 0.0000939 0.0031678 0.0000939 0.0031678 0.9999061 -0.0031678
2297 0.9999012 -0.0033101 0.0000988 0.0033101 0.0000988 0.0033101 0.9999012 -0.0033101
2402 0.9998962 -0.0034588 0.0001038 0.0034588 0.0001038 0.0034588 0.9998962 -0.0034588
2512 0.9998908 -0.0036141 0.0001092 0.0036141 0.0001092 0.0036141 0.9998908 -0.0036141
2627 0.9998852 -0.0037765 0.0001148 0.0037765 0.0001148 0.0037765 0.9998852 -0.0037765
2748 0.9998794 -0.0039462 0.0001206 0.0039462 0.0001206 0.0039462 0.9998794 -0.0039462
2873 0.9998732 -0.0041236 0.0001268 0.0041236 0.0001268 0.0041236 0.9998732 -0.0041236
3005 0.9998668 -0.0043090 0.0001332 0.0043090 0.0001332 0.0043090 0.9998668 -0.0043090
3143 0.9998599 -0.0045028 0.0001401 0.0045028 0.0001401 0.0045028 0.9998599 -0.0045028
3287 0.9998527 -0.0047054 0.0001473 0.0047054 0.0001473 0.0047054 0.9998527 -0.0047054
3437 0.9998451 -0.0049172 0.0001549 0.0049172 0.0001549 0.0049172 0.9998451 -0.0049172
3594 0.9998370 -0.0051385 0.0001630 0.0051385 0.0001630 0.0051385 0.9998370 -0.0051385
3759 0.9998285 -0.0053699 0.0001715 0.0053699 0.0001715 0.0053699 0.9998285 -0.0053699
3931 0.9998193 -0.0056117 0.0001807 0.0056117 0.0001807 0.0056117 0.9998193 -0.0056117
4111 0.9998096 -0.0058645 0.0001904 0.0058645 0.0001904 0.0058645 0.9998096 -0.0058645
4299 0.9997993 -0.0061287 0.0002007 0.0061287 0.0002007 0.0061287 0.9997993 -0.0061287
4496 0.9997882 -0.0064049 0.0002118 0.0064049 0.0002118 0.0064049 0.9997882 -0.0064049
4702 0.9997764 -0.0066935 0.0002236 0.0066935 0.0002236 0.0066935 0.9997764 -0.0066935
4918 0.9997637 -0.0069951 0.0002363 0.0069951 0.0002363 0.0069951 0.9997637 -0.0069951
5143 0.9997501 -0.0073103 0.0002499 0.0073103 0.0002499 0.0073103 0.9997501 -0.0073103
5378 0.9997356 -0.0076397 0.0002644 0.0076397 0.0002644 0.0076397 0.9997356 -0.0076397
5625 0.9997200 -0.0079840 0.0002800 0.0079840 0.0002800 0.0079840 0.9997200 -0.0079840
5882 0.9997033 -0.0083436 0.0002967 0.0083436 0.0002967 0.0083436 0.9997033 -0.0083436
6151 0.9996854 -0.0087194 0.0003146 0.0087194 0.0003146 0.0087194 0.9996854 -0.0087194
6433 0.9996661 -0.0091120 0.0003339 0.0091120 0.0003339 0.0091120 0.9996661 -0.0091120
6728 0.9996455 -0.0095221 0.0003545 0.0095221 0.0003545 0.0095221 0.9996455 -0.0095221
7036 0.9996234 -0.0099506 0.0003766 0.0099506 0.0003766 0.0099506 0.9996234 -0.0099506
7358 0.9995997 -0.0103981 0.0004003 0.0103981 0.0004003 0.0103981 0.9995997 -0.0103981
7695 0.9995744 -0.0108655 0.0004256 0.0108655 0.0004256 0.0108655 0.9995744 -0.0108655
8047 0.9995472 -0.0113538 0.0004528 0.0113538 0.0004528 0.0113538 0.9995472 -0.0113538
8416 0.9995182 -0.0118637 0.0004818 0.0118637 0.0004818 0.0118637 0.9995182 -0.0118637
8801 0.9994871 -0.0123962 0.0005129 0.0123962 0.0005129 0.0123962 0.9994871 -0.0123962
9204 0.9994539 -0.0129523 0.0005461 0.0129523 0.0005461 0.0129523 0.9994539 -0.0129523
9626 0.9994184 -0.0135331 0.0005816 0.0135331 0.0005816 0.0135331 0.9994184 -0.0135331
10066 0.9993806 -0.0141395 0.0006194 0.0141395 0.0006194 0.0141395 0.9993806 -0.0141395
10527 0.9993402 -0.0147728 0.0006598 0.0147728 0.0006598 0.0147728 0.9993402 -0.0147728
11009 0.9992972 -0.0154342 0.0007028 0.0154342 0.0007028 0.0154342 0.9992972 -0.0154342
11514 0.9992514 -0.0161248 0.0007486 0.0161248 0.0007486 0.0161248 0.9992514 -0.0161248
12041 0.9992025 -0.0168459 0.0007975 0.0168459 0.0007975 0.0168459 0.9992025 -0.0168459
12592 0.9991505 -0.0175990 0.0008495 0.0175990 0.0008495 0.0175990 0.9991505 -0.0175990
13169 0.9990952 -0.0183855 0.0009048 0.0183855 0.0009048 0.0183855 0.9990952 -0.0183855
13772 0.9990362 -0.0192069 0.0009638 0.0192069 0.0009638 0.0192069 0.9990362 -0.0192069
14402 0.9989735 -0.0200647 0.0010265 0.0200647 0.0010265 0.0200647 0.9989735 -0.0200647
15062 0.9989066 -0.0209607 0.0010934 0.0209607 0.0010934 0.0209607 0.9989066 -0.0209607
15752 0.9988353 -0.0218965 0.0011647 0.0218965 0.0011647 0.0218965 0.9988353 -0.0218965
16473 0.9987594 -0.0228740 0.0012406 0.0228740 0.0012406 0.0228740 0.9987594 -0.0228740
17227 0.9986783 -0.0238951 0.0013217 0.0238951 0.0013217 0.0238951 0.9986783 -0.0238951
18016 0.9985918 -0.0249618 0.0014082 0.0249618 0.0014082 0.0249618 0.9985918 -0.0249618
18841 0.9984993 -0.0260761 0.0015007 0.0260761 0.0015007 0.0260761 0.9984993 -0.0260761
19704 0.9984004 -0.0272403 0.0015996 0.0272403 0.0015996 0.0272403 0.9984004 -0.0272403
20606 0.9982944 -0.0284566 0.0017056 0.0284566 0.0017056 0.0284566 0.9982944 -0.0284566
21550 0.9981808 -0.0297274 0.0018192 0.0297274 0.0018192 0.0297274 0.9981808 -0.0297274
22537 0.9980589 -0.0310551 0.0019411 0.0310551 0.0019411 0.0310551 0.9980589 -0.0310551
23569 0.9979279 -0.0324423 0.0020721 0.0324423 0.0020721 0.0324423 0.9979279 -0.0324423
24648 0.9977869 -0.0338916 0.0022131 0.0338916 0.0022131 0.0338916 0.9977869 -0.0338916
25777 0.9976351 -0.0354058 0.0023649 0.0354058 0.0023649 0.0354058 0.9976351 -0.0354058
26957 0.9974715 -0.0369878 0.0025285 0.0369878 0.0025285 0.0369878 0.9974715 -0.0369878
28191 0.9972949 -0.0386406 0.0027051 0.0386406 0.0027051 0.0386406 0.9972949 -0.0386406
29482 0.9971042 -0.0403671 0.0028958 0.0403671 0.0028958 0.0403671 0.9971042 -0.0403671
30832 0.9968981 -0.0421706 0.0031019 0.0421706 0.0031019 0.0421706 0.9968981 -0.0421706
32244 0.9966751 -0.0440543 0.0033249 0.0440543 0.0033249 0.0440543 0.9966751 -0.0440543
33721 0.9964337 -0.0460217 0.0035663 0.0460217 0.0035663 0.0460217 0.9964337 -0.0460217
35265 0.9961722 -0.0480763 0.0038278 0.0480763 0.0038278 0.0480763 0.9961722 -0.0480763
36880 0.9958889 -0.0502215 0.0041111 0.0502215 0.0041111 0.0502215 0.9958889 -0.0502215
38569 0.9955819 -0.0524613 0.0044181 0.0524613 0.0044181 0.0524613 0.9955819 -0.0524613
40335 0.9952490 -0.0547994 0.0047510 0.0547994 0.0047510 0.0547994 0.9952490 -0.0547994
42182 0.9948879 -0.0572397 0.0051121 0.0572397 0.0051121 0.0572397 0.9948879 -0.0572397
44113 0.9944963 -0.0597863 0.0055037 0.0597863 0.0055037 0.0597863 0.9944963 -0.0597863
46134 0.9940716 -0.0624433 0.0059284 0.0624433 0.0059284 0.0624433 0.9940716 -0.0624433
48246 0.9936109 -0.0652151 0.0063891 0.0652151 0.0063891 0.0652151 0.9936109 -0.0652151
50455 0.9931113 -0.0681060 0.0068887 0.0681060 0.0068887 0.0681060 0.9931113 -0.0681060
52766 0.9925695 -0.0711205 0.0074305 0.0711205 0.0074305 0.0711205 0.9925695 -0.0711205
55182 0.9919821 -0.0742632 0.0080179 0.0742632 0.0080179 0.0742632 0.9919821 -0.0742632
57709 0.9913454 -0.0775388 0.0086546 0.0775388 0.0086546 0.0775388 0.9913454 -0.0775388
60352 0.9906554 -0.0809522 0.0093446 0.0809522 0.0093446 0.0809522 0.9906554 -0.0809522
63115 0.9899079 -0.0845083 0.0100921 0.0845083 0.0100921 0.0845083 0.9899079 -0.0845083
66005 0.9890984 -0.0882120 0.0109016 0.0882120 0.0109016 0.0882120 0.9890984 -0.0882120
69028 0.9882219 -0.0920686 0.0117781 0.0920686 0.0117781 0.0920686 0.9882219 -0.0920686
72189 0.9872734 -0.0960832 0.0127266 0.0960832 0.0127266 0.0960832 0.9872734 -0.0960832
75495 0.9862471 -0.1002612 0.0137529 0.1002612 0.0137529 0.1002612 0.9862471 -0.1002612
78952 0.9851372 -0.1046080 0.0148628 0.1046080 0.0148628 0.1046080 0.9851372 -0.1046080
82567 0.9839372 -0.1091290 0.0160628 0.1091290 0.0160628 0.1091290 0.9839372 -0.1091290
86348 0.9826402 -0.1138297 0.0173598 0.1138297 0.0173598 0.1138297 0.9826402 -0.1138297
90302 0.9812389 -0.1187159 0.0187611 0.1187159 0.0187611 0.1187159 0.9812389 -0.1187159
94437 0.9797254 -0.1237931 0.0202746 0.1237931 0.0202746 0.1237931 0.9797254 -0.1237931
98762 0.9780910 -0.1290670 0.0219090 0.1290670 0.0219090 0.1290670 0.9780910 -0.1290670
103284 0.9763266 -0.1345431 0.0236734 0.1345431 0.0236734 0.1345431 0.9763266 -0.1345431
108014 0.9744222 -0.1402270 0.0255778 0.1402270 0.0255778 0.1402270 0.9744222 -0.1402270
112960 0.9723673 -0.1461241 0.0276327 0.1461241 0.0276327 0.1461241 0.9723673 -0.1461241
118133 0.9701503 -0.1522396 0.0298497 0.1522396 0.0298497 0.1522396 0.9701503 -0.1522396
123542 0.9677590 -0.1585787 0.0322410 0.1585787 0.0322410 0.1585787 0.9677590 -0.1585787
129199 0.9651799 -0.1651459 0.0348201 0.1651459 0.0348201 0.1651459 0.9651799 -0.1651459
135116 0.9623988 -0.1719455 0.0376012 0.1719455 0.0376012 0.1719455 0.9623988 -0.1719455
141303 0.9594005 -0.1789813 0.0405995 0.1789813 0.0405995 0.1789813 0.9594005 -0.1789813
147774 0.9561685 -0.1862562 0.0438315 0.1862562 0.0438315 0.1862562 0.9561685 -0.1862562
154540 0.9526854 -0.1937727 0.0473146 0.1937727 0.0473146 0.1937727 0.9526854 -0.1937727
161617 0.9489325 -0.2015319 0.0510675 0.2015319 0.0510675 0.2015319 0.9489325 -0.2015319
169018 0.9448901 -0.2095342 0.0551099 0.2095342 0.0551099 0.2095342 0.9448901 -0.2095342
176758 0.9405373 -0.2177784 0.0594627 0.2177784 0.0594627 0.2177784 0.9405373 -0.2177784
184852 0.9358521 -0.2262619 0.0641479 0.2262619 0.0641479 0.2262619 0.9358521 -0.2262619
193316 0.9308116 -0.2349805 0.0691884 0.2349805 0.0691884 0.2349805 0.9308116 -0.2349805
202169 0.9253918 -0.2439279 0.0746082 0.2439279 0.0746082 0.2439279 0.9253918 -0.2439279
211427 0.9195679 -0.2530957 0.0804321 0.2530957 0.0804321 0.2530957 0.9195679 -0.2530957
221108 0.9133145 -0.2624733 0.0866855 0.2624733 0.0866855 0.2624733 0.9133145 -0.2624733
231233 0.9066055 -0.2720474 0.0933945 0.2720474 0.0933945 0.2720474 0.9066055 -0.2720474
241822 0.8994147 -0.2818017 0.1005853 0.2818017 0.1005853 0.2818017 0.8994147 -0.2818017
252896 0.8917159 -0.2917173 0.1082841 0.2917173 0.1082841 0.2917173 0.8917159 -0.2917173
264476 0.8834831 -0.3017718 0.1165169 0.3017718 0.1165169 0.3017718 0.8834831 -0.3017718
276587 0.8746909 -0.3119394 0.1253091 0.3119394 0.1253091 0.3119394 0.8746909 -0.3119394
289253 0.8653150 -0.3221910 0.1346850 0.3221910 0.1346850 0.3221910 0.8653150 -0.3221910
302498 0.8553328 -0.3324940 0.1446672 0.3324940 0.1446672 0.3324940 0.8553328 -0.3324940
316350 0.8447232 -0.3428120 0.1552768 0.3428120 0.1552768 0.3428120 0.8447232 -0.3428120
330837 0.8334680 -0.3531051 0.1665320 0.3531051 0.1665320 0.3531051 0.8334680 -0.3531051
345986 0.8215516 -0.3633300 0.1784484 0.3633300 0.1784484 0.3633300 0.8215516 -0.3633300
361830 0.8089623 -0.3734403 0.1910377 0.3734403 0.1910377 0.3734403 0.8089623 -0.3734403
378399 0.7956922 -0.3833864 0.2043078 0.3833864 0.2043078 0.3833864 0.7956922 -0.3833864
395726 0.7817380 -0.3931163 0.2182620 0.3931163 0.2182620 0.3931163 0.7817380 -0.3931163
413847 0.7671016 -0.4025757 0.2328984 0.4025757 0.2328984 0.4025757 0.7671016 -0.4025757
432798 0.7517903 -0.4117088 0.2482097 0.4117088 0.2482097 0.4117088 0.7517903 -0.4117088
452617 0.7358174 -0.4204590 0.2641826 0.4204590 0.2641826 0.4204590 0.7358174 -0.4204590
473344 0.7192021 -0.4287693 0.2807979 0.4287693 0.2807979 0.4287693 0.7192021 -0.4287693
495019 0.7019702 -0.4365834 0.2980298 0.4365834 0.2980298 0.4365834 0.7019702 -0.4365834
517687 0.6841538 -0.4438465 0.3158462 0.4438465 0.3158462 0.4438465 0.6841538 -0.4438465
541393 0.6657913 -0.4505060 0.3342087 0.4505060 0.3342087 0.4505060 0.6657913 -0.4505060
566185 0.6469270 -0.4565123 0.3530730 0.4565123 0.3530730 0.4565123 0.6469270 -0.4565123
592111 0.6276112 -0.4618201 0.3723888 0.4618201 0.3723888 0.4618201 0.6276112 -0.4618201
619225 0.6078994 -0.4663885 0.3921006 0.4663885 0.3921006 0.4663885 0.6078994 -0.4663885
647581 0.5878516 -0.4701824 0.4121484 0.4701824 0.4121484 0.4701824 0.5878516 -0.4701824
677235 0.5675318 -0.4731724 0.4324682 0.4731724 0.4324682 0.4731724 0.5675318 -0.4731724
708247 0.5470070 -0.4753360 0.4529930 0.4753360 0.4529930 0.4753360 0.5470070 -0.4753360
740679 0.5263466 -0.4766574 0.4736534 0.4766574 0.4736534 0.4766574 0.5263466 -0.4766574
774597 0.5056212 -0.4771280 0.4943788 0.4771280 0.4943788 0.4771280 0.5056212 -0.4771280
810067 0.4849018 -0.4767463 0.5150982 0.4767463 0.5150982 0.4767463 0.4849018 -0.4767463
847162 0.4642589 -0.4755180 0.5357411 0.4755180 0.5357411 0.4755180 0.4642589 -0.4755180
885955 0.4437615 -0.4734558 0.5562385 0.4734558 0.5562385 0.4734558 0.4437615 -0.4734558
926525 0.4234765 -0.4705789 0.5765235 0.4705789 0.5765235 0.4705789 0.4234765 -0.4705789
968953 0.4034675 -0.4669127 0.5965325 0.4669127 0.5965325 0.4669127 0.4034675 -0.4669127
1013323 0.3837949 -0.4624884 0.6162051 0.4624884 0.6162051 0.4624884 0.3837949 -0.4624884
1059725 0.3645145 -0.4573421 0.6354855 0.4573421 0.6354855 0.4573421 0.3645145 -0.4573421
1108252 0.3456775 -0.4515146 0.6543225 0.4515146 0.6543225 0.4515146 0.3456775 -0.4515146
1159002 0.3273300 -0.4450503 0.6726700 0.4450503 0.6726700 0.4450503 0.3273300 -0.4450503
1212075 0.3095128 -0.4379966 0.6904872 0.4379966 0.6904872 0.4379966 0.3095128 -0.4379966
1267578 0.2922610 -0.4304037 0.7077390 0.4304037 0.7077390 0.4304037 0.2922610 -0.4304037
1325623 0.2756042 -0.4223230 0.7243958 0.4223230 0.7243958 0.4223230 0.2756042 -0.4223230
1386327 0.2595665 -0.4138073 0.7404335 0.4138073 0.7404335 0.4138073 0.2595665 -0.4138073
1449809 0.2441663 -0.4049096 0.7558337 0.4049096 0.7558337 0.4049096 0.2441663 -0.4049096
1516199 0.2294167 -0.3956826 0.7705833 0.3956826 0.7705833 0.3956826 0.2294167 -0.3956826
1585629 0.2153257 -0.3861786 0.7846743 0.3861786 0.7846743 0.3861786 0.2153257 -0.3861786
1658239 0.2018965 -0.3764482 0.7981035 0.3764482 0.7981035 0.3764482 0.2018965 -0.3764482
1734173 0.1891277 -0.3665404 0.8108723 0.3665404 0.8108723 0.3665404 0.1891277 -0.3665404
1813585 0.1770139 -0.3565024 0.8229861 0.3565024 0.8229861 0.3565024 0.1770139 -0.3565024
1896632 0.1655458 -0.3463785 0.8344542 0.3463785 0.8344542 0.3463785 0.1655458 -0.3463785
1983483 0.1547110 -0.3362105 0.8452890 0.3362105 0.8452890 0.3362105 0.1547110 -0.3362105
2074311 0.1444940 -0.3260376 0.8555060 0.3260376 0.8555060 0.3260376 0.1444940 -0.3260376
