!Murata Part Number: GRM022R71C101KE14
!These Parameters are Measured in Series Mode Connection
!Data Generated on Mar 30, 2021
!       o--ll--o
!Port1            Port2
!       o------o
!Operation Temp=25[degC], DC Bias Voltage=0[V]
!Freq. Start=100[Hz] Stop=6[GHz] 401[Steps]
# Hz S RI R 50
!Freq.(Hz) S11(Real) S11(Imag) S21(Real) S21(Imag) S12(Real) S12(Imag) S22(Real) S22(Imag)
100 0.9999999 -0.0000061 0.0000001 0.0000061 0.0000001 0.0000061 0.9999999 -0.0000061
105 0.9999999 -0.0000064 0.0000001 0.0000064 0.0000001 0.0000064 0.9999999 -0.0000064
109 0.9999999 -0.0000067 0.0000001 0.0000067 0.0000001 0.0000067 0.9999999 -0.0000067
114 0.9999999 -0.0000070 0.0000001 0.0000070 0.0000001 0.0000070 0.9999999 -0.0000070
120 0.9999999 -0.0000073 0.0000001 0.0000073 0.0000001 0.0000073 0.9999999 -0.0000073
125 0.9999999 -0.0000077 0.0000001 0.0000077 0.0000001 0.0000077 0.9999999 -0.0000077
131 0.9999999 -0.0000080 0.0000001 0.0000080 0.0000001 0.0000080 0.9999999 -0.0000080
137 0.9999999 -0.0000084 0.0000001 0.0000084 0.0000001 0.0000084 0.9999999 -0.0000084
143 0.9999999 -0.0000088 0.0000001 0.0000088 0.0000001 0.0000088 0.9999999 -0.0000088
150 0.9999999 -0.0000092 0.0000001 0.0000092 0.0000001 0.0000092 0.9999999 -0.0000092
156 0.9999999 -0.0000096 0.0000001 0.0000096 0.0000001 0.0000096 0.9999999 -0.0000096
164 0.9999999 -0.0000100 0.0000001 0.0000100 0.0000001 0.0000100 0.9999999 -0.0000100
171 0.9999999 -0.0000105 0.0000001 0.0000105 0.0000001 0.0000105 0.9999999 -0.0000105
179 0.9999999 -0.0000109 0.0000001 0.0000109 0.0000001 0.0000109 0.9999999 -0.0000109
187 0.9999999 -0.0000114 0.0000001 0.0000114 0.0000001 0.0000114 0.9999999 -0.0000114
196 0.9999999 -0.0000120 0.0000001 0.0000120 0.0000001 0.0000120 0.9999999 -0.0000120
205 0.9999999 -0.0000125 0.0000001 0.0000125 0.0000001 0.0000125 0.9999999 -0.0000125
214 0.9999999 -0.0000131 0.0000001 0.0000131 0.0000001 0.0000131 0.9999999 -0.0000131
224 0.9999999 -0.0000137 0.0000001 0.0000137 0.0000001 0.0000137 0.9999999 -0.0000137
234 0.9999999 -0.0000143 0.0000001 0.0000143 0.0000001 0.0000143 0.9999999 -0.0000143
245 0.9999999 -0.0000150 0.0000001 0.0000150 0.0000001 0.0000150 0.9999999 -0.0000150
256 0.9999999 -0.0000156 0.0000001 0.0000156 0.0000001 0.0000156 0.9999999 -0.0000156
268 0.9999999 -0.0000164 0.0000001 0.0000164 0.0000001 0.0000164 0.9999999 -0.0000164
280 0.9999998 -0.0000171 0.0000002 0.0000171 0.0000002 0.0000171 0.9999998 -0.0000171
293 0.9999998 -0.0000179 0.0000002 0.0000179 0.0000002 0.0000179 0.9999998 -0.0000179
306 0.9999998 -0.0000187 0.0000002 0.0000187 0.0000002 0.0000187 0.9999998 -0.0000187
320 0.9999998 -0.0000195 0.0000002 0.0000195 0.0000002 0.0000195 0.9999998 -0.0000195
335 0.9999998 -0.0000204 0.0000002 0.0000204 0.0000002 0.0000204 0.9999998 -0.0000204
350 0.9999998 -0.0000214 0.0000002 0.0000214 0.0000002 0.0000214 0.9999998 -0.0000214
366 0.9999998 -0.0000223 0.0000002 0.0000223 0.0000002 0.0000223 0.9999998 -0.0000223
383 0.9999998 -0.0000234 0.0000002 0.0000234 0.0000002 0.0000234 0.9999998 -0.0000234
401 0.9999998 -0.0000244 0.0000002 0.0000244 0.0000002 0.0000244 0.9999998 -0.0000244
419 0.9999998 -0.0000255 0.0000002 0.0000255 0.0000002 0.0000255 0.9999998 -0.0000255
438 0.9999998 -0.0000267 0.0000002 0.0000267 0.0000002 0.0000267 0.9999998 -0.0000267
458 0.9999998 -0.0000279 0.0000002 0.0000279 0.0000002 0.0000279 0.9999998 -0.0000279
479 0.9999998 -0.0000292 0.0000002 0.0000292 0.0000002 0.0000292 0.9999998 -0.0000292
501 0.9999998 -0.0000305 0.0000002 0.0000305 0.0000002 0.0000305 0.9999998 -0.0000305
524 0.9999998 -0.0000319 0.0000002 0.0000319 0.0000002 0.0000319 0.9999998 -0.0000319
548 0.9999998 -0.0000334 0.0000002 0.0000334 0.0000002 0.0000334 0.9999998 -0.0000334
573 0.9999997 -0.0000349 0.0000003 0.0000349 0.0000003 0.0000349 0.9999997 -0.0000349
600 0.9999997 -0.0000365 0.0000003 0.0000365 0.0000003 0.0000365 0.9999997 -0.0000365
627 0.9999997 -0.0000382 0.0000003 0.0000382 0.0000003 0.0000382 0.9999997 -0.0000382
656 0.9999997 -0.0000399 0.0000003 0.0000399 0.0000003 0.0000399 0.9999997 -0.0000399
686 0.9999997 -0.0000417 0.0000003 0.0000417 0.0000003 0.0000417 0.9999997 -0.0000417
717 0.9999997 -0.0000436 0.0000003 0.0000436 0.0000003 0.0000436 0.9999997 -0.0000436
750 0.9999997 -0.0000456 0.0000003 0.0000456 0.0000003 0.0000456 0.9999997 -0.0000456
784 0.9999997 -0.0000477 0.0000003 0.0000477 0.0000003 0.0000477 0.9999997 -0.0000477
820 0.9999997 -0.0000499 0.0000003 0.0000499 0.0000003 0.0000499 0.9999997 -0.0000499
858 0.9999997 -0.0000521 0.0000003 0.0000521 0.0000003 0.0000521 0.9999997 -0.0000521
897 0.9999997 -0.0000545 0.0000003 0.0000545 0.0000003 0.0000545 0.9999997 -0.0000545
938 0.9999996 -0.0000570 0.0000004 0.0000570 0.0000004 0.0000570 0.9999996 -0.0000570
981 0.9999996 -0.0000596 0.0000004 0.0000596 0.0000004 0.0000596 0.9999996 -0.0000596
1026 0.9999996 -0.0000623 0.0000004 0.0000623 0.0000004 0.0000623 0.9999996 -0.0000623
1073 0.9999996 -0.0000652 0.0000004 0.0000652 0.0000004 0.0000652 0.9999996 -0.0000652
1122 0.9999996 -0.0000681 0.0000004 0.0000681 0.0000004 0.0000681 0.9999996 -0.0000681
1174 0.9999996 -0.0000713 0.0000004 0.0000713 0.0000004 0.0000713 0.9999996 -0.0000713
1227 0.9999996 -0.0000745 0.0000004 0.0000745 0.0000004 0.0000745 0.9999996 -0.0000745
1283 0.9999995 -0.0000779 0.0000005 0.0000779 0.0000005 0.0000779 0.9999995 -0.0000779
1342 0.9999995 -0.0000815 0.0000005 0.0000815 0.0000005 0.0000815 0.9999995 -0.0000815
1404 0.9999995 -0.0000852 0.0000005 0.0000852 0.0000005 0.0000852 0.9999995 -0.0000852
1468 0.9999995 -0.0000891 0.0000005 0.0000891 0.0000005 0.0000891 0.9999995 -0.0000891
1535 0.9999995 -0.0000932 0.0000005 0.0000932 0.0000005 0.0000932 0.9999995 -0.0000932
1606 0.9999995 -0.0000974 0.0000005 0.0000974 0.0000005 0.0000974 0.9999995 -0.0000974
1679 0.9999994 -0.0001019 0.0000006 0.0001019 0.0000006 0.0001019 0.9999994 -0.0001019
1756 0.9999994 -0.0001065 0.0000006 0.0001065 0.0000006 0.0001065 0.9999994 -0.0001065
1836 0.9999994 -0.0001114 0.0000006 0.0001114 0.0000006 0.0001114 0.9999994 -0.0001114
1920 0.9999994 -0.0001165 0.0000006 0.0001165 0.0000006 0.0001165 0.9999994 -0.0001165
2008 0.9999993 -0.0001218 0.0000007 0.0001218 0.0000007 0.0001218 0.9999993 -0.0001218
2100 0.9999993 -0.0001273 0.0000007 0.0001273 0.0000007 0.0001273 0.9999993 -0.0001273
2196 0.9999993 -0.0001332 0.0000007 0.0001332 0.0000007 0.0001332 0.9999993 -0.0001332
2297 0.9999992 -0.0001392 0.0000008 0.0001392 0.0000008 0.0001392 0.9999992 -0.0001392
2402 0.9999992 -0.0001456 0.0000008 0.0001456 0.0000008 0.0001456 0.9999992 -0.0001456
2512 0.9999992 -0.0001522 0.0000008 0.0001522 0.0000008 0.0001522 0.9999992 -0.0001522
2627 0.9999991 -0.0001592 0.0000009 0.0001592 0.0000009 0.0001592 0.9999991 -0.0001592
2748 0.9999991 -0.0001665 0.0000009 0.0001665 0.0000009 0.0001665 0.9999991 -0.0001665
2873 0.9999990 -0.0001741 0.0000010 0.0001741 0.0000010 0.0001741 0.9999990 -0.0001741
3005 0.9999990 -0.0001820 0.0000010 0.0001820 0.0000010 0.0001820 0.9999990 -0.0001820
3143 0.9999990 -0.0001903 0.0000010 0.0001903 0.0000010 0.0001903 0.9999990 -0.0001903
3287 0.9999989 -0.0001990 0.0000011 0.0001990 0.0000011 0.0001990 0.9999989 -0.0001990
3437 0.9999988 -0.0002081 0.0000012 0.0002081 0.0000012 0.0002081 0.9999988 -0.0002081
3594 0.9999988 -0.0002176 0.0000012 0.0002176 0.0000012 0.0002176 0.9999988 -0.0002176
3759 0.9999987 -0.0002275 0.0000013 0.0002275 0.0000013 0.0002275 0.9999987 -0.0002275
3931 0.9999987 -0.0002379 0.0000013 0.0002379 0.0000013 0.0002379 0.9999987 -0.0002379
4111 0.9999986 -0.0002487 0.0000014 0.0002487 0.0000014 0.0002487 0.9999986 -0.0002487
4299 0.9999985 -0.0002601 0.0000015 0.0002601 0.0000015 0.0002601 0.9999985 -0.0002601
4496 0.9999985 -0.0002720 0.0000015 0.0002720 0.0000015 0.0002720 0.9999985 -0.0002720
4702 0.9999984 -0.0002844 0.0000016 0.0002844 0.0000016 0.0002844 0.9999984 -0.0002844
4918 0.9999983 -0.0002973 0.0000017 0.0002973 0.0000017 0.0002973 0.9999983 -0.0002973
5143 0.9999982 -0.0003109 0.0000018 0.0003109 0.0000018 0.0003109 0.9999982 -0.0003109
5378 0.9999981 -0.0003251 0.0000019 0.0003251 0.0000019 0.0003251 0.9999981 -0.0003251
5625 0.9999981 -0.0003399 0.0000019 0.0003399 0.0000019 0.0003399 0.9999981 -0.0003399
5882 0.9999980 -0.0003554 0.0000020 0.0003554 0.0000020 0.0003554 0.9999980 -0.0003554
6151 0.9999979 -0.0003717 0.0000021 0.0003717 0.0000021 0.0003717 0.9999979 -0.0003717
6433 0.9999978 -0.0003886 0.0000022 0.0003886 0.0000022 0.0003886 0.9999978 -0.0003886
6728 0.9999977 -0.0004063 0.0000023 0.0004063 0.0000023 0.0004063 0.9999977 -0.0004063
7036 0.9999976 -0.0004249 0.0000024 0.0004249 0.0000024 0.0004249 0.9999976 -0.0004249
7358 0.9999975 -0.0004443 0.0000025 0.0004443 0.0000025 0.0004443 0.9999975 -0.0004443
7695 0.9999974 -0.0004645 0.0000026 0.0004645 0.0000026 0.0004645 0.9999974 -0.0004645
8047 0.9999972 -0.0004857 0.0000028 0.0004857 0.0000028 0.0004857 0.9999972 -0.0004857
8416 0.9999971 -0.0005079 0.0000029 0.0005079 0.0000029 0.0005079 0.9999971 -0.0005079
8801 0.9999970 -0.0005311 0.0000030 0.0005311 0.0000030 0.0005311 0.9999970 -0.0005311
9204 0.9999968 -0.0005553 0.0000032 0.0005553 0.0000032 0.0005553 0.9999968 -0.0005553
9626 0.9999967 -0.0005807 0.0000033 0.0005807 0.0000033 0.0005807 0.9999967 -0.0005807
10066 0.9999965 -0.0006072 0.0000035 0.0006072 0.0000035 0.0006072 0.9999965 -0.0006072
10527 0.9999964 -0.0006349 0.0000036 0.0006349 0.0000036 0.0006349 0.9999964 -0.0006349
11009 0.9999962 -0.0006639 0.0000038 0.0006639 0.0000038 0.0006639 0.9999962 -0.0006639
11514 0.9999960 -0.0006943 0.0000040 0.0006943 0.0000040 0.0006943 0.9999960 -0.0006943
12041 0.9999958 -0.0007260 0.0000042 0.0007260 0.0000042 0.0007260 0.9999958 -0.0007260
12592 0.9999956 -0.0007591 0.0000044 0.0007591 0.0000044 0.0007591 0.9999956 -0.0007591
13169 0.9999954 -0.0007938 0.0000046 0.0007938 0.0000046 0.0007938 0.9999954 -0.0007938
13772 0.9999951 -0.0008300 0.0000049 0.0008300 0.0000049 0.0008300 0.9999951 -0.0008300
14402 0.9999949 -0.0008680 0.0000051 0.0008680 0.0000051 0.0008680 0.9999949 -0.0008680
15062 0.9999946 -0.0009076 0.0000054 0.0009076 0.0000054 0.0009076 0.9999946 -0.0009076
15752 0.9999943 -0.0009491 0.0000057 0.0009491 0.0000057 0.0009491 0.9999943 -0.0009491
16473 0.9999940 -0.0009924 0.0000060 0.0009924 0.0000060 0.0009924 0.9999940 -0.0009924
17227 0.9999936 -0.0010378 0.0000064 0.0010378 0.0000064 0.0010378 0.9999936 -0.0010378
18016 0.9999933 -0.0010852 0.0000067 0.0010852 0.0000067 0.0010852 0.9999933 -0.0010852
18841 0.9999929 -0.0011347 0.0000071 0.0011347 0.0000071 0.0011347 0.9999929 -0.0011347
19704 0.9999924 -0.0011866 0.0000076 0.0011866 0.0000076 0.0011866 0.9999924 -0.0011866
20606 0.9999920 -0.0012408 0.0000080 0.0012408 0.0000080 0.0012408 0.9999920 -0.0012408
21550 0.9999915 -0.0012974 0.0000085 0.0012974 0.0000085 0.0012974 0.9999915 -0.0012974
22537 0.9999909 -0.0013567 0.0000091 0.0013567 0.0000091 0.0013567 0.9999909 -0.0013567
23569 0.9999903 -0.0014186 0.0000097 0.0014186 0.0000097 0.0014186 0.9999903 -0.0014186
24648 0.9999897 -0.0014834 0.0000103 0.0014834 0.0000103 0.0014834 0.9999897 -0.0014834
25777 0.9999890 -0.0015511 0.0000110 0.0015511 0.0000110 0.0015511 0.9999890 -0.0015511
26957 0.9999883 -0.0016219 0.0000117 0.0016219 0.0000117 0.0016219 0.9999883 -0.0016219
28191 0.9999875 -0.0016960 0.0000125 0.0016960 0.0000125 0.0016960 0.9999875 -0.0016960
29482 0.9999867 -0.0017734 0.0000133 0.0017734 0.0000133 0.0017734 0.9999867 -0.0017734
30832 0.9999858 -0.0018543 0.0000142 0.0018543 0.0000142 0.0018543 0.9999858 -0.0018543
32244 0.9999848 -0.0019389 0.0000152 0.0019389 0.0000152 0.0019389 0.9999848 -0.0019389
33721 0.9999838 -0.0020274 0.0000162 0.0020274 0.0000162 0.0020274 0.9999838 -0.0020274
35265 0.9999827 -0.0021198 0.0000173 0.0021198 0.0000173 0.0021198 0.9999827 -0.0021198
36880 0.9999815 -0.0022165 0.0000185 0.0022165 0.0000185 0.0022165 0.9999815 -0.0022165
38569 0.9999803 -0.0023176 0.0000197 0.0023176 0.0000197 0.0023176 0.9999803 -0.0023176
40335 0.9999789 -0.0024233 0.0000211 0.0024233 0.0000211 0.0024233 0.9999789 -0.0024233
42182 0.9999775 -0.0025337 0.0000225 0.0025337 0.0000225 0.0025337 0.9999775 -0.0025337
44113 0.9999760 -0.0026492 0.0000240 0.0026492 0.0000240 0.0026492 0.9999760 -0.0026492
46134 0.9999744 -0.0027700 0.0000256 0.0027700 0.0000256 0.0027700 0.9999744 -0.0027700
48246 0.9999727 -0.0028962 0.0000273 0.0028962 0.0000273 0.0028962 0.9999727 -0.0028962
50455 0.9999708 -0.0030282 0.0000292 0.0030282 0.0000292 0.0030282 0.9999708 -0.0030282
52766 0.9999689 -0.0031662 0.0000311 0.0031662 0.0000311 0.0031662 0.9999689 -0.0031662
55182 0.9999668 -0.0033105 0.0000332 0.0033105 0.0000332 0.0033105 0.9999668 -0.0033105
57709 0.9999646 -0.0034613 0.0000354 0.0034613 0.0000354 0.0034613 0.9999646 -0.0034613
60352 0.9999623 -0.0036190 0.0000377 0.0036190 0.0000377 0.0036190 0.9999623 -0.0036190
63115 0.9999598 -0.0037839 0.0000402 0.0037839 0.0000402 0.0037839 0.9999598 -0.0037839
66005 0.9999571 -0.0039563 0.0000429 0.0039563 0.0000429 0.0039563 0.9999571 -0.0039563
69028 0.9999543 -0.0041366 0.0000457 0.0041366 0.0000457 0.0041366 0.9999543 -0.0041366
72189 0.9999513 -0.0043250 0.0000487 0.0043250 0.0000487 0.0043250 0.9999513 -0.0043250
75495 0.9999481 -0.0045221 0.0000519 0.0045221 0.0000519 0.0045221 0.9999481 -0.0045221
78952 0.9999447 -0.0047281 0.0000553 0.0047281 0.0000553 0.0047281 0.9999447 -0.0047281
82567 0.9999410 -0.0049436 0.0000590 0.0049436 0.0000590 0.0049436 0.9999410 -0.0049436
86348 0.9999371 -0.0051689 0.0000629 0.0051689 0.0000629 0.0051689 0.9999371 -0.0051689
90302 0.9999328 -0.0054045 0.0000672 0.0054045 0.0000672 0.0054045 0.9999328 -0.0054045
94437 0.9999283 -0.0056508 0.0000717 0.0056508 0.0000717 0.0056508 0.9999283 -0.0056508
98762 0.9999234 -0.0059084 0.0000766 0.0059084 0.0000766 0.0059084 0.9999234 -0.0059084
103284 0.9999182 -0.0061777 0.0000818 0.0061777 0.0000818 0.0061777 0.9999182 -0.0061777
108014 0.9999126 -0.0064594 0.0000874 0.0064594 0.0000874 0.0064594 0.9999126 -0.0064594
112960 0.9999065 -0.0067539 0.0000935 0.0067539 0.0000935 0.0067539 0.9999065 -0.0067539
118133 0.9998999 -0.0070618 0.0001001 0.0070618 0.0001001 0.0070618 0.9998999 -0.0070618
123542 0.9998928 -0.0073838 0.0001072 0.0073838 0.0001072 0.0073838 0.9998928 -0.0073838
129199 0.9998851 -0.0077205 0.0001149 0.0077205 0.0001149 0.0077205 0.9998851 -0.0077205
135116 0.9998767 -0.0080726 0.0001233 0.0080726 0.0001233 0.0080726 0.9998767 -0.0080726
141303 0.9998677 -0.0084407 0.0001323 0.0084407 0.0001323 0.0084407 0.9998677 -0.0084407
147774 0.9998579 -0.0088256 0.0001421 0.0088256 0.0001421 0.0088256 0.9998579 -0.0088256
154540 0.9998473 -0.0092281 0.0001527 0.0092281 0.0001527 0.0092281 0.9998473 -0.0092281
161617 0.9998357 -0.0096489 0.0001643 0.0096489 0.0001643 0.0096489 0.9998357 -0.0096489
169018 0.9998232 -0.0100889 0.0001768 0.0100889 0.0001768 0.0100889 0.9998232 -0.0100889
176758 0.9998096 -0.0105490 0.0001904 0.0105490 0.0001904 0.0105490 0.9998096 -0.0105490
184852 0.9997948 -0.0110299 0.0002052 0.0110299 0.0002052 0.0110299 0.9997948 -0.0110299
193316 0.9997787 -0.0115328 0.0002213 0.0115328 0.0002213 0.0115328 0.9997787 -0.0115328
202169 0.9997613 -0.0120585 0.0002387 0.0120585 0.0002387 0.0120585 0.9997613 -0.0120585
211427 0.9997423 -0.0126081 0.0002577 0.0126081 0.0002577 0.0126081 0.9997423 -0.0126081
221108 0.9997217 -0.0131827 0.0002783 0.0131827 0.0002783 0.0131827 0.9997217 -0.0131827
231233 0.9996993 -0.0137834 0.0003007 0.0137834 0.0003007 0.0137834 0.9996993 -0.0137834
241822 0.9996750 -0.0144113 0.0003250 0.0144113 0.0003250 0.0144113 0.9996750 -0.0144113
252896 0.9996486 -0.0150677 0.0003514 0.0150677 0.0003514 0.0150677 0.9996486 -0.0150677
264476 0.9996200 -0.0157538 0.0003800 0.0157538 0.0003800 0.0157538 0.9996200 -0.0157538
276587 0.9995889 -0.0164711 0.0004111 0.0164711 0.0004111 0.0164711 0.9995889 -0.0164711
289253 0.9995551 -0.0172207 0.0004449 0.0172207 0.0004449 0.0172207 0.9995551 -0.0172207
302498 0.9995184 -0.0180043 0.0004816 0.0180043 0.0004816 0.0180043 0.9995184 -0.0180043
316350 0.9994787 -0.0188234 0.0005213 0.0188234 0.0005213 0.0188234 0.9994787 -0.0188234
330837 0.9994356 -0.0196794 0.0005644 0.0196794 0.0005644 0.0196794 0.9994356 -0.0196794
345986 0.9993888 -0.0205742 0.0006112 0.0205742 0.0006112 0.0205742 0.9993888 -0.0205742
361830 0.9993381 -0.0215093 0.0006619 0.0215093 0.0006619 0.0215093 0.9993381 -0.0215093
378399 0.9992831 -0.0224866 0.0007169 0.0224866 0.0007169 0.0224866 0.9992831 -0.0224866
395726 0.9992236 -0.0235081 0.0007764 0.0235081 0.0007764 0.0235081 0.9992236 -0.0235081
413847 0.9991590 -0.0245756 0.0008410 0.0245756 0.0008410 0.0245756 0.9991590 -0.0245756
432798 0.9990890 -0.0256913 0.0009110 0.0256913 0.0009110 0.0256913 0.9990890 -0.0256913
452617 0.9990132 -0.0268573 0.0009868 0.0268573 0.0009868 0.0268573 0.9990132 -0.0268573
473344 0.9989311 -0.0280758 0.0010689 0.0280758 0.0010689 0.0280758 0.9989311 -0.0280758
495019 0.9988421 -0.0293493 0.0011579 0.0293493 0.0011579 0.0293493 0.9988421 -0.0293493
517687 0.9987456 -0.0306801 0.0012544 0.0306801 0.0012544 0.0306801 0.9987456 -0.0306801
541393 0.9986410 -0.0320710 0.0013590 0.0320710 0.0013590 0.0320710 0.9986410 -0.0320710
566185 0.9985275 -0.0335245 0.0014725 0.0335245 0.0014725 0.0335245 0.9985275 -0.0335245
592111 0.9984046 -0.0350435 0.0015954 0.0350435 0.0015954 0.0350435 0.9984046 -0.0350435
619225 0.9982711 -0.0366309 0.0017289 0.0366309 0.0017289 0.0366309 0.9982711 -0.0366309
647581 0.9981264 -0.0382898 0.0018736 0.0382898 0.0018736 0.0382898 0.9981264 -0.0382898
677235 0.9979692 -0.0400234 0.0020308 0.0400234 0.0020308 0.0400234 0.9979692 -0.0400234
708247 0.9977985 -0.0418349 0.0022015 0.0418349 0.0022015 0.0418349 0.9977985 -0.0418349
740679 0.9976132 -0.0437280 0.0023868 0.0437280 0.0023868 0.0437280 0.9976132 -0.0437280
774597 0.9974117 -0.0457061 0.0025883 0.0457061 0.0025883 0.0457061 0.9974117 -0.0457061
810067 0.9971927 -0.0477731 0.0028073 0.0477731 0.0028073 0.0477731 0.9971927 -0.0477731
847162 0.9969546 -0.0499328 0.0030454 0.0499328 0.0030454 0.0499328 0.9969546 -0.0499328
885955 0.9966956 -0.0521893 0.0033044 0.0521893 0.0033044 0.0521893 0.9966956 -0.0521893
926525 0.9964137 -0.0545468 0.0035863 0.0545468 0.0035863 0.0545468 0.9964137 -0.0545468
968953 0.9961068 -0.0570096 0.0038932 0.0570096 0.0038932 0.0570096 0.9961068 -0.0570096
1013323 0.9957726 -0.0595823 0.0042274 0.0595823 0.0042274 0.0595823 0.9957726 -0.0595823
1059725 0.9954087 -0.0622695 0.0045913 0.0622695 0.0045913 0.0622695 0.9954087 -0.0622695
1108252 0.9950123 -0.0650760 0.0049877 0.0650760 0.0049877 0.0650760 0.9950123 -0.0650760
1159002 0.9945803 -0.0680068 0.0054197 0.0680068 0.0054197 0.0680068 0.9945803 -0.0680068
1212075 0.9941095 -0.0710671 0.0058905 0.0710671 0.0058905 0.0710671 0.9941095 -0.0710671
1267578 0.9935964 -0.0742620 0.0064036 0.0742620 0.0064036 0.0742620 0.9935964 -0.0742620
1325623 0.9930372 -0.0775970 0.0069628 0.0775970 0.0069628 0.0775970 0.9930372 -0.0775970
1386327 0.9924275 -0.0810777 0.0075725 0.0810777 0.0075725 0.0810777 0.9924275 -0.0810777
1449809 0.9917630 -0.0847098 0.0082370 0.0847098 0.0082370 0.0847098 0.9917630 -0.0847098
1516199 0.9910386 -0.0884990 0.0089614 0.0884990 0.0089614 0.0884990 0.9910386 -0.0884990
1585629 0.9902489 -0.0924513 0.0097511 0.0924513 0.0097511 0.0924513 0.9902489 -0.0924513
1658239 0.9893882 -0.0965726 0.0106118 0.0965726 0.0106118 0.0965726 0.9893882 -0.0965726
1734173 0.9884503 -0.1008692 0.0115497 0.1008692 0.0115497 0.1008692 0.9884503 -0.1008692
1813585 0.9874282 -0.1053471 0.0125718 0.1053471 0.0125718 0.1053471 0.9874282 -0.1053471
1896632 0.9863147 -0.1100124 0.0136853 0.1100124 0.0136853 0.1100124 0.9863147 -0.1100124
1983483 0.9851018 -0.1148715 0.0148982 0.1148715 0.0148982 0.1148715 0.9851018 -0.1148715
2074311 0.9837809 -0.1199305 0.0162191 0.1199305 0.0162191 0.1199305 0.9837809 -0.1199305
