!Murata Part Number: GRM022D80E224ME14
!These Parameters are Measured in Series Mode Connection
!Data Generated on Mar 30, 2021
!       o--ll--o
!Port1            Port2
!       o------o
!Operation Temp=25[degC], DC Bias Voltage=0[V]
!Freq. Start=100[Hz] Stop=6[GHz] 401[Steps]
# Hz S RI R 50
!Freq.(Hz) S11(Real) S11(Imag) S21(Real) S21(Imag) S12(Real) S12(Imag) S22(Real) S22(Imag)
100 0.9997511 -0.0109762 0.0002489 0.0109762 0.0002489 0.0109762 0.9997511 -0.0109762
105 0.9997346 -0.0114747 0.0002654 0.0114747 0.0002654 0.0114747 0.9997346 -0.0114747
109 0.9997169 -0.0119958 0.0002831 0.0119958 0.0002831 0.0119958 0.9997169 -0.0119958
114 0.9996978 -0.0125406 0.0003022 0.0125406 0.0003022 0.0125406 0.9996978 -0.0125406
120 0.9996771 -0.0131102 0.0003229 0.0131102 0.0003229 0.0131102 0.9996771 -0.0131102
125 0.9996548 -0.0137056 0.0003452 0.0137056 0.0003452 0.0137056 0.9996548 -0.0137056
131 0.9996307 -0.0143281 0.0003693 0.0143281 0.0003693 0.0143281 0.9996307 -0.0143281
137 0.9996046 -0.0149789 0.0003954 0.0149789 0.0003954 0.0149789 0.9996046 -0.0149789
143 0.9995765 -0.0156592 0.0004235 0.0156592 0.0004235 0.0156592 0.9995765 -0.0156592
150 0.9995461 -0.0163703 0.0004539 0.0163703 0.0004539 0.0163703 0.9995461 -0.0163703
156 0.9995132 -0.0171136 0.0004868 0.0171136 0.0004868 0.0171136 0.9995132 -0.0171136
164 0.9994776 -0.0178907 0.0005224 0.0178907 0.0005224 0.0178907 0.9994776 -0.0178907
171 0.9994391 -0.0187029 0.0005609 0.0187029 0.0005609 0.0187029 0.9994391 -0.0187029
179 0.9993975 -0.0195519 0.0006025 0.0195519 0.0006025 0.0195519 0.9993975 -0.0195519
187 0.9993525 -0.0204393 0.0006475 0.0204393 0.0006475 0.0204393 0.9993525 -0.0204393
196 0.9993038 -0.0213669 0.0006962 0.0213669 0.0006962 0.0213669 0.9993038 -0.0213669
205 0.9992512 -0.0223365 0.0007488 0.0223365 0.0007488 0.0223365 0.9992512 -0.0223365
214 0.9991942 -0.0233499 0.0008058 0.0233499 0.0008058 0.0233499 0.9991942 -0.0233499
224 0.9991325 -0.0244092 0.0008675 0.0244092 0.0008675 0.0244092 0.9991325 -0.0244092
234 0.9990658 -0.0255164 0.0009342 0.0255164 0.0009342 0.0255164 0.9990658 -0.0255164
245 0.9989936 -0.0266737 0.0010064 0.0266737 0.0010064 0.0266737 0.9989936 -0.0266737
256 0.9989153 -0.0278833 0.0010847 0.0278833 0.0010847 0.0278833 0.9989153 -0.0278833
268 0.9988306 -0.0291475 0.0011694 0.0291475 0.0011694 0.0291475 0.9988306 -0.0291475
280 0.9987388 -0.0304690 0.0012612 0.0304690 0.0012612 0.0304690 0.9987388 -0.0304690
293 0.9986392 -0.0318502 0.0013608 0.0318502 0.0013608 0.0318502 0.9986392 -0.0318502
306 0.9985313 -0.0332939 0.0014687 0.0332939 0.0014687 0.0332939 0.9985313 -0.0332939
320 0.9984142 -0.0348028 0.0015858 0.0348028 0.0015858 0.0348028 0.9984142 -0.0348028
335 0.9982871 -0.0363798 0.0017129 0.0363798 0.0017129 0.0363798 0.9982871 -0.0363798
350 0.9981491 -0.0380281 0.0018509 0.0380281 0.0018509 0.0380281 0.9981491 -0.0380281
366 0.9979992 -0.0397509 0.0020008 0.0397509 0.0020008 0.0397509 0.9979992 -0.0397509
383 0.9978364 -0.0415513 0.0021636 0.0415513 0.0021636 0.0415513 0.9978364 -0.0415513
401 0.9976593 -0.0434330 0.0023407 0.0434330 0.0023407 0.0434330 0.9976593 -0.0434330
419 0.9974667 -0.0453994 0.0025333 0.0453994 0.0025333 0.0453994 0.9974667 -0.0453994
438 0.9972572 -0.0474543 0.0027428 0.0474543 0.0027428 0.0474543 0.9972572 -0.0474543
458 0.9970292 -0.0496016 0.0029708 0.0496016 0.0029708 0.0496016 0.9970292 -0.0496016
479 0.9967809 -0.0518453 0.0032191 0.0518453 0.0032191 0.0518453 0.9967809 -0.0518453
501 0.9965106 -0.0541895 0.0034894 0.0541895 0.0034894 0.0541895 0.9965106 -0.0541895
524 0.9962162 -0.0566387 0.0037838 0.0566387 0.0037838 0.0566387 0.9962162 -0.0566387
548 0.9958954 -0.0591972 0.0041046 0.0591972 0.0041046 0.0591972 0.9958954 -0.0591972
573 0.9955459 -0.0618697 0.0044541 0.0618697 0.0044541 0.0618697 0.9955459 -0.0618697
600 0.9951649 -0.0646611 0.0048351 0.0646611 0.0048351 0.0646611 0.9951649 -0.0646611
627 0.9947497 -0.0675762 0.0052503 0.0675762 0.0052503 0.0675762 0.9947497 -0.0675762
656 0.9942972 -0.0706202 0.0057028 0.0706202 0.0057028 0.0706202 0.9942972 -0.0706202
686 0.9938039 -0.0737983 0.0061961 0.0737983 0.0061961 0.0737983 0.9938039 -0.0737983
717 0.9932662 -0.0771160 0.0067338 0.0771160 0.0067338 0.0771160 0.9932662 -0.0771160
750 0.9926801 -0.0805788 0.0073199 0.0805788 0.0073199 0.0805788 0.9926801 -0.0805788
784 0.9920412 -0.0841924 0.0079588 0.0841924 0.0079588 0.0841924 0.9920412 -0.0841924
820 0.9913448 -0.0879628 0.0086552 0.0879628 0.0086552 0.0879628 0.9913448 -0.0879628
858 0.9905860 -0.0918958 0.0094140 0.0918958 0.0094140 0.0918958 0.9905860 -0.0918958
897 0.9897591 -0.0959977 0.0102409 0.0959977 0.0102409 0.0959977 0.9897591 -0.0959977
938 0.9888581 -0.1002746 0.0111419 0.1002746 0.0111419 0.1002746 0.9888581 -0.1002746
981 0.9878766 -0.1047328 0.0121234 0.1047328 0.0121234 0.1047328 0.9878766 -0.1047328
1026 0.9868077 -0.1093788 0.0131923 0.1093788 0.0131923 0.1093788 0.9868077 -0.1093788
1073 0.9856437 -0.1142191 0.0143563 0.1142191 0.0143563 0.1142191 0.9856437 -0.1142191
1122 0.9843764 -0.1192600 0.0156236 0.1192600 0.0156236 0.1192600 0.9843764 -0.1192600
1174 0.9829970 -0.1245080 0.0170030 0.1245080 0.0170030 0.1245080 0.9829970 -0.1245080
1227 0.9814960 -0.1299696 0.0185040 0.1299696 0.0185040 0.1299696 0.9814960 -0.1299696
1283 0.9798632 -0.1356512 0.0201368 0.1356512 0.0201368 0.1356512 0.9798632 -0.1356512
1342 0.9780873 -0.1415590 0.0219127 0.1415590 0.0219127 0.1415590 0.9780873 -0.1415590
1404 0.9761567 -0.1476990 0.0238433 0.1476990 0.0238433 0.1476990 0.9761567 -0.1476990
1468 0.9740583 -0.1540769 0.0259417 0.1540769 0.0259417 0.1540769 0.9740583 -0.1540769
1535 0.9717785 -0.1606984 0.0282215 0.1606984 0.0282215 0.1606984 0.9717785 -0.1606984
1606 0.9693025 -0.1675683 0.0306975 0.1675683 0.0306975 0.1675683 0.9693025 -0.1675683
1679 0.9666146 -0.1746912 0.0333854 0.1746912 0.0333854 0.1746912 0.9666146 -0.1746912
1756 0.9636979 -0.1820710 0.0363021 0.1820710 0.0363021 0.1820710 0.9636979 -0.1820710
1836 0.9605344 -0.1897109 0.0394656 0.1897109 0.0394656 0.1897109 0.9605344 -0.1897109
1920 0.9571050 -0.1976132 0.0428950 0.1976132 0.0428950 0.1976132 0.9571050 -0.1976132
2008 0.9533894 -0.2057790 0.0466106 0.2057790 0.0466106 0.2057790 0.9533894 -0.2057790
2100 0.9493661 -0.2142085 0.0506339 0.2142085 0.0506339 0.2142085 0.9493661 -0.2142085
2196 0.9450126 -0.2229002 0.0549874 0.2229002 0.0549874 0.2229002 0.9450126 -0.2229002
2297 0.9403050 -0.2318512 0.0596950 0.2318512 0.0596950 0.2318512 0.9403050 -0.2318512
2402 0.9352186 -0.2410568 0.0647814 0.2410568 0.0647814 0.2410568 0.9352186 -0.2410568
2512 0.9297274 -0.2505103 0.0702726 0.2505103 0.0702726 0.2505103 0.9297274 -0.2505103
2627 0.9238047 -0.2602026 0.0761953 0.2602026 0.0761953 0.2602026 0.9238047 -0.2602026
2748 0.9174229 -0.2701223 0.0825771 0.2701223 0.0825771 0.2701223 0.9174229 -0.2701223
2873 0.9105540 -0.2802551 0.0894460 0.2802551 0.0894460 0.2802551 0.9105540 -0.2802551
3005 0.9031693 -0.2905839 0.0968307 0.2905839 0.0968307 0.2905839 0.9031693 -0.2905839
3143 0.8952402 -0.3010883 0.1047598 0.3010883 0.1047598 0.3010883 0.8952402 -0.3010883
3287 0.8867384 -0.3117444 0.1132616 0.3117444 0.1132616 0.3117444 0.8867384 -0.3117444
3437 0.8776358 -0.3225248 0.1223642 0.3225248 0.1223642 0.3225248 0.8776358 -0.3225248
3594 0.8679056 -0.3333982 0.1320944 0.3333982 0.1320944 0.3333982 0.8679056 -0.3333982
3759 0.8575222 -0.3443295 0.1424778 0.3443295 0.1424778 0.3443295 0.8575222 -0.3443295
3931 0.8464621 -0.3552794 0.1535379 0.3552794 0.1535379 0.3552794 0.8464621 -0.3552794
4111 0.8347040 -0.3662047 0.1652960 0.3662047 0.1652960 0.3662047 0.8347040 -0.3662047
4299 0.8222301 -0.3770583 0.1777699 0.3770583 0.1777699 0.3770583 0.8222301 -0.3770583
4496 0.8090258 -0.3877891 0.1909742 0.3877891 0.1909742 0.3877891 0.8090258 -0.3877891
4702 0.7950811 -0.3983428 0.2049189 0.3983428 0.2049189 0.3983428 0.7950811 -0.3983428
4918 0.7803909 -0.4086613 0.2196091 0.4086613 0.2196091 0.4086613 0.7803909 -0.4086613
5143 0.7649556 -0.4186843 0.2350444 0.4186843 0.2350444 0.4186843 0.7649556 -0.4186843
5378 0.7487817 -0.4283491 0.2512183 0.4283491 0.2512183 0.4283491 0.7487817 -0.4283491
5625 0.7318825 -0.4375913 0.2681175 0.4375913 0.2681175 0.4375913 0.7318825 -0.4375913
5882 0.7142782 -0.4463462 0.2857218 0.4463462 0.2857218 0.4463462 0.7142782 -0.4463462
6151 0.6959964 -0.4545489 0.3040036 0.4545489 0.3040036 0.4545489 0.6959964 -0.4545489
6433 0.6770724 -0.4621360 0.3229276 0.4621360 0.3229276 0.4621360 0.6770724 -0.4621360
6728 0.6575491 -0.4690460 0.3424509 0.4690460 0.3424509 0.4690460 0.6575491 -0.4690460
7036 0.6374768 -0.4752210 0.3625232 0.4752210 0.3625232 0.4752210 0.6374768 -0.4752210
7358 0.6169130 -0.4806074 0.3830870 0.4806074 0.3830870 0.4806074 0.6169130 -0.4806074
7695 0.5959222 -0.4851569 0.4040778 0.4851569 0.4040778 0.4851569 0.5959222 -0.4851569
8047 0.5745745 -0.4888277 0.4254255 0.4888277 0.4254255 0.4888277 0.5745745 -0.4888277
8416 0.5529455 -0.4915855 0.4470545 0.4915855 0.4470545 0.4915855 0.5529455 -0.4915855
8801 0.5311149 -0.4934039 0.4688851 0.4934039 0.4688851 0.4934039 0.5311149 -0.4934039
9204 0.5091656 -0.4942653 0.4908344 0.4942653 0.4908344 0.4942653 0.5091656 -0.4942653
9626 0.4871822 -0.4941611 0.5128178 0.4941611 0.5128178 0.4941611 0.4871822 -0.4941611
10066 0.4652499 -0.4930922 0.5347501 0.4930922 0.5347501 0.4930922 0.4652499 -0.4930922
10527 0.4434532 -0.4910686 0.5565468 0.4910686 0.5565468 0.4910686 0.4434532 -0.4910686
11009 0.4218746 -0.4881096 0.5781254 0.4881096 0.5781254 0.4881096 0.4218746 -0.4881096
11514 0.4005933 -0.4842430 0.5994067 0.4842430 0.5994067 0.4842430 0.4005933 -0.4842430
12041 0.3796841 -0.4795047 0.6203159 0.4795047 0.6203159 0.4795047 0.3796841 -0.4795047
12592 0.3592165 -0.4739378 0.6407835 0.4739378 0.6407835 0.4739378 0.3592165 -0.4739378
13169 0.3392538 -0.4675919 0.6607462 0.4675919 0.6607462 0.4675919 0.3392538 -0.4675919
13772 0.3198525 -0.4605216 0.6801475 0.4605216 0.6801475 0.4605216 0.3198525 -0.4605216
14402 0.3010617 -0.4527861 0.6989383 0.4527861 0.6989383 0.4527861 0.3010617 -0.4527861
15062 0.2829228 -0.4444475 0.7170772 0.4444475 0.7170772 0.4444475 0.2829228 -0.4444475
15752 0.2654697 -0.4355700 0.7345303 0.4355700 0.7345303 0.4355700 0.2654697 -0.4355700
16473 0.2487285 -0.4262189 0.7512715 0.4262189 0.7512715 0.4262189 0.2487285 -0.4262189
17227 0.2327180 -0.4164593 0.7672820 0.4164593 0.7672820 0.4164593 0.2327180 -0.4164593
18016 0.2174499 -0.4063555 0.7825501 0.4063555 0.7825501 0.4063555 0.2174499 -0.4063555
18841 0.2029291 -0.3959703 0.7970709 0.3959703 0.7970709 0.3959703 0.2029291 -0.3959703
19704 0.1891548 -0.3853638 0.8108452 0.3853638 0.8108452 0.3853638 0.1891548 -0.3853638
20606 0.1761203 -0.3745934 0.8238797 0.3745934 0.8238797 0.3745934 0.1761203 -0.3745934
21550 0.1638145 -0.3637131 0.8361855 0.3637131 0.8361855 0.3637131 0.1638145 -0.3637131
22537 0.1522217 -0.3527731 0.8477783 0.3527731 0.8477783 0.3527731 0.1522217 -0.3527731
23569 0.1413230 -0.3418199 0.8586770 0.3418199 0.8586770 0.3418199 0.1413230 -0.3418199
24648 0.1310963 -0.3308959 0.8689037 0.3308959 0.8689037 0.3308959 0.1310963 -0.3308959
25777 0.1215173 -0.3200391 0.8784827 0.3200391 0.8784827 0.3200391 0.1215173 -0.3200391
26957 0.1125600 -0.3092840 0.8874400 0.3092840 0.8874400 0.3092840 0.1125600 -0.3092840
28191 0.1041969 -0.2986608 0.8958031 0.2986608 0.8958031 0.2986608 0.1041969 -0.2986608
29482 0.0963998 -0.2881960 0.9036002 0.2881960 0.9036002 0.2881960 0.0963998 -0.2881960
30832 0.0891401 -0.2779125 0.9108599 0.2779125 0.9108599 0.2779125 0.0891401 -0.2779125
32244 0.0823890 -0.2678298 0.9176110 0.2678298 0.9176110 0.2678298 0.0823890 -0.2678298
33721 0.0761182 -0.2579643 0.9238818 0.2579643 0.9238818 0.2579643 0.0761182 -0.2579643
35265 0.0702994 -0.2483294 0.9297006 0.2483294 0.9297006 0.2483294 0.0702994 -0.2483294
36880 0.0649054 -0.2389358 0.9350946 0.2389358 0.9350946 0.2389358 0.0649054 -0.2389358
38569 0.0599095 -0.2297920 0.9400905 0.2297920 0.9400905 0.2297920 0.0599095 -0.2297920
40335 0.0552863 -0.2209040 0.9447137 0.2209040 0.9447137 0.2209040 0.0552863 -0.2209040
42182 0.0510111 -0.2122762 0.9489889 0.2122762 0.9489889 0.2122762 0.0510111 -0.2122762
44113 0.0470606 -0.2039110 0.9529394 0.2039110 0.9529394 0.2039110 0.0470606 -0.2039110
46134 0.0434124 -0.1958094 0.9565876 0.1958094 0.9565876 0.1958094 0.0434124 -0.1958094
48246 0.0400453 -0.1879710 0.9599547 0.1879710 0.9599547 0.1879710 0.0400453 -0.1879710
50455 0.0369395 -0.1803944 0.9630605 0.1803944 0.9630605 0.1803944 0.0369395 -0.1803944
52766 0.0340762 -0.1730772 0.9659238 0.1730772 0.9659238 0.1730772 0.0340762 -0.1730772
55182 0.0314377 -0.1660159 0.9685623 0.1660159 0.9685623 0.1660159 0.0314377 -0.1660159
57709 0.0290073 -0.1592065 0.9709927 0.1592065 0.9709927 0.1592065 0.0290073 -0.1592065
60352 0.0267697 -0.1526445 0.9732303 0.1526445 0.9732303 0.1526445 0.0267697 -0.1526445
63115 0.0247102 -0.1463248 0.9752898 0.1463248 0.9752898 0.1463248 0.0247102 -0.1463248
66005 0.0228154 -0.1402418 0.9771846 0.1402418 0.9771846 0.1402418 0.0228154 -0.1402418
69028 0.0210727 -0.1343897 0.9789273 0.1343897 0.9789273 0.1343897 0.0210727 -0.1343897
72189 0.0194704 -0.1287626 0.9805296 0.1287626 0.9805296 0.1287626 0.0194704 -0.1287626
75495 0.0179975 -0.1233541 0.9820025 0.1233541 0.9820025 0.1233541 0.0179975 -0.1233541
78952 0.0166440 -0.1181578 0.9833560 0.1181578 0.9833560 0.1181578 0.0166440 -0.1181578
82567 0.0154003 -0.1131675 0.9845997 0.1131675 0.9845997 0.1131675 0.0154003 -0.1131675
86348 0.0142579 -0.1083766 0.9857421 0.1083766 0.9857421 0.1083766 0.0142579 -0.1083766
90302 0.0132086 -0.1037786 0.9867914 0.1037786 0.9867914 0.1037786 0.0132086 -0.1037786
94437 0.0122450 -0.0993672 0.9877550 0.0993672 0.9877550 0.0993672 0.0122450 -0.0993672
98762 0.0113602 -0.0951359 0.9886398 0.0951359 0.9886398 0.0951359 0.0113602 -0.0951359
103284 0.0105478 -0.0910784 0.9894522 0.0910784 0.9894522 0.0910784 0.0105478 -0.0910784
108014 0.0098018 -0.0871885 0.9901982 0.0871885 0.9901982 0.0871885 0.0098018 -0.0871885
112960 0.0091169 -0.0834601 0.9908831 0.0834601 0.9908831 0.0834601 0.0091169 -0.0834601
118133 0.0084880 -0.0798873 0.9915120 0.0798873 0.9915120 0.0798873 0.0084880 -0.0798873
123542 0.0079104 -0.0764641 0.9920896 0.0764641 0.9920896 0.0764641 0.0079104 -0.0764641
129199 0.0073799 -0.0731849 0.9926201 0.0731849 0.9926201 0.0731849 0.0073799 -0.0731849
135116 0.0068926 -0.0700440 0.9931074 0.0700440 0.9931074 0.0700440 0.0068926 -0.0700440
141303 0.0064448 -0.0670362 0.9935552 0.0670362 0.9935552 0.0670362 0.0064448 -0.0670362
147774 0.0060332 -0.0641560 0.9939668 0.0641560 0.9939668 0.0641560 0.0060332 -0.0641560
154540 0.0056547 -0.0613984 0.9943453 0.0613984 0.9943453 0.0613984 0.0056547 -0.0613984
161617 0.0053065 -0.0587585 0.9946935 0.0587585 0.9946935 0.0587585 0.0053065 -0.0587585
169018 0.0049861 -0.0562314 0.9950139 0.0562314 0.9950139 0.0562314 0.0049861 -0.0562314
176758 0.0046910 -0.0538125 0.9953090 0.0538125 0.9953090 0.0538125 0.0046910 -0.0538125
184852 0.0044191 -0.0514973 0.9955809 0.0514973 0.9955809 0.0514973 0.0044191 -0.0514973
193316 0.0041685 -0.0492815 0.9958315 0.0492815 0.9958315 0.0492815 0.0041685 -0.0492815
202169 0.0039372 -0.0471609 0.9960628 0.0471609 0.9960628 0.0471609 0.0039372 -0.0471609
211427 0.0037237 -0.0451315 0.9962763 0.0451315 0.9962763 0.0451315 0.0037237 -0.0451315
221108 0.0035264 -0.0431894 0.9964736 0.0431894 0.9964736 0.0431894 0.0035264 -0.0431894
231233 0.0033439 -0.0413308 0.9966561 0.0413308 0.9966561 0.0413308 0.0033439 -0.0413308
241822 0.0031751 -0.0395522 0.9968249 0.0395522 0.9968249 0.0395522 0.0031751 -0.0395522
252896 0.0030187 -0.0378502 0.9969813 0.0378502 0.9969813 0.0378502 0.0030187 -0.0378502
264476 0.0028737 -0.0362214 0.9971263 0.0362214 0.9971263 0.0362214 0.0028737 -0.0362214
276587 0.0027393 -0.0346626 0.9972607 0.0346626 0.9972607 0.0346626 0.0027393 -0.0346626
289253 0.0026145 -0.0331709 0.9973855 0.0331709 0.9973855 0.0331709 0.0026145 -0.0331709
302498 0.0024985 -0.0317432 0.9975015 0.0317432 0.9975015 0.0317432 0.0024985 -0.0317432
316350 0.0023908 -0.0303769 0.9976092 0.0303769 0.9976092 0.0303769 0.0023908 -0.0303769
330837 0.0022906 -0.0290692 0.9977094 0.0290692 0.9977094 0.0290692 0.0022906 -0.0290692
345986 0.0021974 -0.0278177 0.9978026 0.0278177 0.9978026 0.0278177 0.0021974 -0.0278177
361830 0.0021107 -0.0266197 0.9978893 0.0266197 0.9978893 0.0266197 0.0021107 -0.0266197
378399 0.0020300 -0.0254732 0.9979700 0.0254732 0.9979700 0.0254732 0.0020300 -0.0254732
395726 0.0019548 -0.0243757 0.9980452 0.0243757 0.9980452 0.0243757 0.0019548 -0.0243757
413847 0.0018849 -0.0233253 0.9981151 0.0233253 0.9981151 0.0233253 0.0018849 -0.0233253
432798 0.0018198 -0.0223199 0.9981802 0.0223199 0.9981802 0.0223199 0.0018198 -0.0223199
452617 0.0017592 -0.0213575 0.9982408 0.0213575 0.9982408 0.0213575 0.0017592 -0.0213575
473344 0.0017028 -0.0204363 0.9982972 0.0204363 0.9982972 0.0204363 0.0017028 -0.0204363
495019 0.0016503 -0.0195546 0.9983497 0.0195546 0.9983497 0.0195546 0.0016503 -0.0195546
517687 0.0016015 -0.0187107 0.9983985 0.0187107 0.9983985 0.0187107 0.0016015 -0.0187107
541393 0.0015561 -0.0179029 0.9984439 0.0179029 0.9984439 0.0179029 0.0015561 -0.0179029
566185 0.0015140 -0.0171299 0.9984860 0.0171299 0.9984860 0.0171299 0.0015140 -0.0171299
592111 0.0014748 -0.0163900 0.9985252 0.0163900 0.9985252 0.0163900 0.0014748 -0.0163900
619225 0.0014384 -0.0156819 0.9985616 0.0156819 0.9985616 0.0156819 0.0014384 -0.0156819
647581 0.0014046 -0.0150042 0.9985954 0.0150042 0.9985954 0.0150042 0.0014046 -0.0150042
677235 0.0013733 -0.0143557 0.9986267 0.0143557 0.9986267 0.0143557 0.0013733 -0.0143557
708247 0.0013442 -0.0137352 0.9986558 0.0137352 0.9986558 0.0137352 0.0013442 -0.0137352
740679 0.0013173 -0.0131415 0.9986827 0.0131415 0.9986827 0.0131415 0.0013173 -0.0131415
774597 0.0012922 -0.0125734 0.9987078 0.0125734 0.9987078 0.0125734 0.0012922 -0.0125734
810067 0.0012691 -0.0120298 0.9987309 0.0120298 0.9987309 0.0120298 0.0012691 -0.0120298
847162 0.0012476 -0.0115098 0.9987524 0.0115098 0.9987524 0.0115098 0.0012476 -0.0115098
885955 0.0012276 -0.0110124 0.9987724 0.0110124 0.9987724 0.0110124 0.0012276 -0.0110124
926525 0.0012091 -0.0105366 0.9987909 0.0105366 0.9987909 0.0105366 0.0012091 -0.0105366
968953 0.0011919 -0.0100814 0.9988081 0.0100814 0.9988081 0.0100814 0.0011919 -0.0100814
1013323 0.0011759 -0.0096461 0.9988241 0.0096461 0.9988241 0.0096461 0.0011759 -0.0096461
1059725 0.0011611 -0.0092297 0.9988389 0.0092297 0.9988389 0.0092297 0.0011611 -0.0092297
1108252 0.0011473 -0.0088316 0.9988527 0.0088316 0.9988527 0.0088316 0.0011473 -0.0088316
1159002 0.0011344 -0.0084508 0.9988656 0.0084508 0.9988656 0.0084508 0.0011344 -0.0084508
1212075 0.0011223 -0.0080867 0.9988777 0.0080867 0.9988777 0.0080867 0.0011223 -0.0080867
1267578 0.0011111 -0.0077386 0.9988889 0.0077386 0.9988889 0.0077386 0.0011111 -0.0077386
1325623 0.0011005 -0.0074057 0.9988995 0.0074057 0.9988995 0.0074057 0.0011005 -0.0074057
1386327 0.0010905 -0.0070874 0.9989095 0.0070874 0.9989095 0.0070874 0.0010905 -0.0070874
1449809 0.0010811 -0.0067832 0.9989189 0.0067832 0.9989189 0.0067832 0.0010811 -0.0067832
1516199 0.0010722 -0.0064923 0.9989278 0.0064923 0.9989278 0.0064923 0.0010722 -0.0064923
1585629 0.0010637 -0.0062143 0.9989363 0.0062143 0.9989363 0.0062143 0.0010637 -0.0062143
1658239 0.0010556 -0.0059485 0.9989444 0.0059485 0.9989444 0.0059485 0.0010556 -0.0059485
1734173 0.0010478 -0.0056945 0.9989522 0.0056945 0.9989522 0.0056945 0.0010478 -0.0056945
1813585 0.0010403 -0.0054516 0.9989597 0.0054516 0.9989597 0.0054516 0.0010403 -0.0054516
1896632 0.0010330 -0.0052195 0.9989670 0.0052195 0.9989670 0.0052195 0.0010330 -0.0052195
1983483 0.0010259 -0.0049977 0.9989741 0.0049977 0.9989741 0.0049977 0.0010259 -0.0049977
2074311 0.0010189 -0.0047856 0.9989811 0.0047856 0.9989811 0.0047856 0.0010189 -0.0047856
