! This data is being provided by Wuerth Elektronik eiSos GmbH & Co. KG to the industry for analysis.
!
! Document information:
! Version:rev19a Date: 16/12/2019
!
! Component information:
! Match Code: WE-CNSW P/N: 744232222 Size: 1206
!------------------------------------------------------------------------------------------------------------------
! Disclaimer:  While Würth Elektronik eiSos has made every reasonable effort to ensure the accuracy
! of the information provided, Würth Elektronik eiSos does not guarantee the exemption of error on the
! data collection measurements, nor does Würth Elektronik eiSos guarantee that the information is current.
! Würth Elektronik eiSos reserves the right to make any adjustments at any time without notice.
! Würth Elektronik eiSos expressly disclaims all implied warranties regarding this measurement data collection.
!
! Note 1 – This data measurement is representative according to the product implementation into the fixture.
! Component behavior is sensitive to implementation into the fixture, which includes board
! materials, trace geometry information, connector pin out, layer connection, use of de-embedding
! techniques, etc.
!
! Note 2 - The fixture was designed specifically to match the 50 Ohm line impedance, as well as the connector impedance,
! in order to accomplish a reliable measurement without reflections in the trace. Any other implementation of the fixture will change the obtained
! measurement performance. The used fixture behavior was de-embedded to accomplish reliable measurement results.
!
!------------------------------------------------------------------------------------------------------------------
!
! The test setup consisted of the following:
!   - Agilent VNA E5071C or E5071B
!   - Calibrations are SOLT (short open load thru)
!   - De-embedding of the SMA's or line cards were included
!   - Equipment Settings -
!            - Sampling - 501 points
!            - IF BW – 70 kHz
!            - Averaging – Not used
!
!
!
!             Port 1----->|1|        |2| -----> Port 3
!                            |   DUT  |
!             Port 2----->|3|        |4| -----> Port 4
!
!
!*VNA Port --> |Port in Datasheet|
! |Port in Datasheet| --> VNA Port
!
!
! For further information regarding this testing, please contact
! Wuerth Elektronik eiSos
! Contact: EDA team in QDC
! Email: libraries@we-online.com or libraries@we-online.de
!
!
# Hz S dB R 50
300000	-1.866662e+001	7.159095e+001	-2.755255e-001	-6.234724e+000	-1.923820e+001	7.523013e+001	-1.929006e+001	-1.046129e+002
	-2.876382e-001	-6.414711e+000	-1.857550e+001	7.495015e+001	-1.937399e+001	-1.040157e+002	-1.926521e+001	7.591110e+001
	-1.938689e+001	7.587842e+001	-1.923084e+001	-1.039511e+002	-1.835313e+001	7.249842e+001	-3.354035e-001	-6.562333e+000
	-1.946983e+001	-1.034609e+002	-1.927083e+001	7.590172e+001	-3.124185e-001	-6.410826e+000	-1.858629e+001	7.204957e+001
307335	-1.873611e+001	7.185006e+001	-2.890487e-001	-6.457849e+000	-1.914620e+001	7.582595e+001	-1.908234e+001	-1.042512e+002
	-3.072701e-001	-6.372765e+000	-1.860462e+001	7.254689e+001	-1.924756e+001	-1.038992e+002	-1.910702e+001	7.595064e+001
	-1.913685e+001	7.690437e+001	-1.908944e+001	-1.039033e+002	-1.844436e+001	7.010839e+001	-3.403908e-001	-6.208413e+000
	-1.918827e+001	-1.030550e+002	-1.898850e+001	7.596852e+001	-3.379841e-001	-6.511396e+000	-1.844367e+001	6.961435e+001
314670	-1.846199e+001	7.163106e+001	-2.850996e-001	-6.521606e+000	-1.887243e+001	7.519461e+001	-1.908743e+001	-1.047512e+002
	-2.962891e-001	-6.429763e+000	-1.844140e+001	7.172856e+001	-1.901139e+001	-1.044494e+002	-1.887757e+001	7.699173e+001
	-1.901856e+001	7.540745e+001	-1.905512e+001	-1.047018e+002	-1.820358e+001	7.047190e+001	-3.481835e-001	-6.457095e+000
	-1.896151e+001	-1.035819e+002	-1.898575e+001	7.646404e+001	-3.540754e-001	-6.412598e+000	-1.828726e+001	7.008621e+001
322004	-1.810594e+001	7.270915e+001	-2.913989e-001	-6.652989e+000	-1.869302e+001	7.570183e+001	-1.871315e+001	-1.044346e+002
	-3.215868e-001	-6.654723e+000	-1.835517e+001	7.075030e+001	-1.872373e+001	-1.045564e+002	-1.879854e+001	7.612957e+001
	-1.868986e+001	7.533820e+001	-1.880086e+001	-1.039476e+002	-1.819041e+001	7.114688e+001	-3.598035e-001	-6.670698e+000
	-1.874545e+001	-1.043078e+002	-1.879980e+001	7.614867e+001	-3.382720e-001	-6.574102e+000	-1.843133e+001	7.010408e+001
329339	-1.812929e+001	7.041893e+001	-3.037590e-001	-6.740442e+000	-1.860543e+001	7.559548e+001	-1.859048e+001	-1.049552e+002
	-3.288604e-001	-6.790876e+000	-1.822768e+001	7.132861e+001	-1.859185e+001	-1.036574e+002	-1.847747e+001	7.555826e+001
	-1.857157e+001	7.481644e+001	-1.849510e+001	-1.049266e+002	-1.804724e+001	7.012133e+001	-3.523421e-001	-6.781451e+000
	-1.874816e+001	-1.047106e+002	-1.843689e+001	7.575287e+001	-3.624529e-001	-6.855398e+000	-1.809633e+001	7.047805e+001
336674	-1.819545e+001	7.147010e+001	-3.295291e-001	-6.853546e+000	-1.838767e+001	7.488236e+001	-1.846127e+001	-1.054203e+002
	-3.172880e-001	-6.900182e+000	-1.806325e+001	7.071239e+001	-1.850827e+001	-1.050845e+002	-1.826141e+001	7.518036e+001
	-1.836846e+001	7.546757e+001	-1.851126e+001	-1.047839e+002	-1.803380e+001	6.932560e+001	-3.870456e-001	-7.015635e+000
	-1.834518e+001	-1.040724e+002	-1.844707e+001	7.549111e+001	-3.736128e-001	-6.862770e+000	-1.791630e+001	7.053676e+001
344009	-1.775900e+001	7.088317e+001	-3.400081e-001	-7.117515e+000	-1.816588e+001	7.479648e+001	-1.820839e+001	-1.049282e+002
	-3.312005e-001	-7.114214e+000	-1.782121e+001	7.018465e+001	-1.826735e+001	-1.052893e+002	-1.817773e+001	7.509239e+001
	-1.820965e+001	7.456047e+001	-1.821990e+001	-1.048022e+002	-1.780942e+001	7.006823e+001	-3.852112e-001	-7.053854e+000
	-1.823951e+001	-1.053806e+002	-1.832389e+001	7.461770e+001	-3.637223e-001	-7.026094e+000	-1.784813e+001	7.050936e+001
351344	-1.775301e+001	7.020865e+001	-3.082583e-001	-7.338272e+000	-1.796103e+001	7.431555e+001	-1.807934e+001	-1.051615e+002
	-3.288563e-001	-7.287950e+000	-1.759729e+001	7.071975e+001	-1.801916e+001	-1.054860e+002	-1.794442e+001	7.436433e+001
	-1.804495e+001	7.485622e+001	-1.810350e+001	-1.056861e+002	-1.737803e+001	6.962067e+001	-3.814507e-001	-7.181336e+000
	-1.811718e+001	-1.054178e+002	-1.803232e+001	7.469024e+001	-3.569607e-001	-7.392314e+000	-1.756478e+001	7.055157e+001
358679	-1.747222e+001	7.103959e+001	-3.292488e-001	-7.201961e+000	-1.774059e+001	7.426330e+001	-1.783050e+001	-1.063716e+002
	-3.481569e-001	-7.375658e+000	-1.756582e+001	7.104235e+001	-1.788104e+001	-1.057936e+002	-1.779020e+001	7.429791e+001
	-1.787918e+001	7.442851e+001	-1.785103e+001	-1.053052e+002	-1.735281e+001	7.076084e+001	-3.775871e-001	-7.358354e+000
	-1.796549e+001	-1.055839e+002	-1.789159e+001	7.444497e+001	-3.908901e-001	-7.471393e+000	-1.740389e+001	6.961080e+001
366013	-1.738812e+001	7.003953e+001	-3.411203e-001	-7.381610e+000	-1.764824e+001	7.415012e+001	-1.760118e+001	-1.065416e+002
	-3.575544e-001	-7.523578e+000	-1.740556e+001	7.072089e+001	-1.769837e+001	-1.057032e+002	-1.758518e+001	7.421942e+001
	-1.774478e+001	7.404262e+001	-1.785134e+001	-1.057008e+002	-1.724126e+001	6.883898e+001	-3.837146e-001	-7.524892e+000
	-1.770621e+001	-1.066708e+002	-1.765151e+001	7.422117e+001	-3.827795e-001	-7.411633e+000	-1.728419e+001	6.991008e+001
373348	-1.704187e+001	7.070657e+001	-3.685470e-001	-7.603373e+000	-1.748090e+001	7.401846e+001	-1.762674e+001	-1.065736e+002
	-3.386479e-001	-7.666197e+000	-1.724295e+001	7.052945e+001	-1.755879e+001	-1.065896e+002	-1.753716e+001	7.368574e+001
	-1.754878e+001	7.417699e+001	-1.759901e+001	-1.064327e+002	-1.706685e+001	6.868914e+001	-3.999400e-001	-7.563421e+000
	-1.758541e+001	-1.058952e+002	-1.755753e+001	7.341210e+001	-3.898863e-001	-7.645452e+000	-1.714170e+001	6.869086e+001
380683	-1.696812e+001	6.923282e+001	-3.689448e-001	-7.754087e+000	-1.730783e+001	7.338354e+001	-1.741014e+001	-1.063033e+002
	-3.539070e-001	-7.847159e+000	-1.706914e+001	6.936495e+001	-1.743444e+001	-1.066628e+002	-1.742989e+001	7.400905e+001
	-1.736724e+001	7.419329e+001	-1.745908e+001	-1.062649e+002	-1.689502e+001	6.908823e+001	-3.975341e-001	-7.612899e+000
	-1.742180e+001	-1.062321e+002	-1.738109e+001	7.361024e+001	-3.962949e-001	-7.629127e+000	-1.713672e+001	6.883035e+001
388018	-1.686919e+001	7.001829e+001	-3.891346e-001	-7.894852e+000	-1.725059e+001	7.319219e+001	-1.725936e+001	-1.070040e+002
	-3.739599e-001	-7.922752e+000	-1.688351e+001	6.996730e+001	-1.716891e+001	-1.067351e+002	-1.722808e+001	7.330403e+001
	-1.716624e+001	7.367045e+001	-1.725050e+001	-1.070811e+002	-1.681502e+001	6.864310e+001	-4.314190e-001	-7.817440e+000
	-1.726014e+001	-1.070521e+002	-1.731916e+001	7.323037e+001	-4.080307e-001	-7.870562e+000	-1.685640e+001	6.829963e+001
395353	-1.674275e+001	6.890820e+001	-3.678732e-001	-8.053914e+000	-1.703389e+001	7.281500e+001	-1.713122e+001	-1.071324e+002
	-3.894483e-001	-8.000287e+000	-1.676061e+001	6.973343e+001	-1.703935e+001	-1.069081e+002	-1.709475e+001	7.263632e+001
	-1.709128e+001	7.307101e+001	-1.716993e+001	-1.072047e+002	-1.657093e+001	6.880377e+001	-4.447129e-001	-8.009833e+000
	-1.711884e+001	-1.069669e+002	-1.710250e+001	7.383400e+001	-3.980900e-001	-8.236088e+000	-1.671815e+001	6.823684e+001
402688	-1.667614e+001	6.929436e+001	-3.755813e-001	-8.053717e+000	-1.690908e+001	7.251265e+001	-1.699762e+001	-1.071092e+002
	-4.205564e-001	-8.156369e+000	-1.657324e+001	6.940978e+001	-1.687105e+001	-1.074077e+002	-1.691577e+001	7.264565e+001
	-1.700297e+001	7.259758e+001	-1.693898e+001	-1.074168e+002	-1.653940e+001	6.840138e+001	-4.241900e-001	-8.118874e+000
	-1.699459e+001	-1.073458e+002	-1.697876e+001	7.257094e+001	-4.250553e-001	-8.036397e+000	-1.666054e+001	6.819084e+001
410022	-1.642999e+001	6.895879e+001	-4.079333e-001	-8.356016e+000	-1.677283e+001	7.235065e+001	-1.680840e+001	-1.077683e+002
	-4.028523e-001	-8.349169e+000	-1.648991e+001	6.865985e+001	-1.679015e+001	-1.076701e+002	-1.677397e+001	7.245736e+001
	-1.680059e+001	7.258861e+001	-1.689577e+001	-1.073075e+002	-1.650717e+001	6.749843e+001	-4.610964e-001	-8.217363e+000
	-1.687994e+001	-1.073876e+002	-1.679995e+001	7.247178e+001	-4.452046e-001	-8.161226e+000	-1.650585e+001	6.791027e+001
418652	-1.642514e+001	6.844855e+001	-4.471787e-001	-8.530921e+000	-1.668495e+001	7.195667e+001	-1.667645e+001	-1.072466e+002
	-4.166045e-001	-8.483186e+000	-1.622733e+001	6.846205e+001	-1.668396e+001	-1.083361e+002	-1.657324e+001	7.229714e+001
	-1.666030e+001	7.250722e+001	-1.677739e+001	-1.082274e+002	-1.614236e+001	6.728362e+001	-4.570954e-001	-8.423083e+000
	-1.673315e+001	-1.074692e+002	-1.665940e+001	7.117285e+001	-4.749086e-001	-8.342300e+000	-1.637055e+001	6.796763e+001
428777	-1.599162e+001	6.820541e+001	-4.366956e-001	-8.705058e+000	-1.638967e+001	7.179321e+001	-1.652289e+001	-1.083591e+002
	-4.337093e-001	-8.612400e+000	-1.611017e+001	6.765148e+001	-1.641314e+001	-1.078734e+002	-1.642417e+001	7.196867e+001
	-1.642938e+001	7.169220e+001	-1.646146e+001	-1.081299e+002	-1.602879e+001	6.739034e+001	-4.761708e-001	-8.578612e+000
	-1.648482e+001	-1.088209e+002	-1.650561e+001	7.186540e+001	-4.561636e-001	-8.566272e+000	-1.618772e+001	6.740030e+001
438901	-1.585905e+001	6.806658e+001	-4.338747e-001	-8.824395e+000	-1.621141e+001	7.157056e+001	-1.622468e+001	-1.092676e+002
	-4.607993e-001	-9.000241e+000	-1.604327e+001	6.766285e+001	-1.623771e+001	-1.089225e+002	-1.622797e+001	7.092300e+001
	-1.626986e+001	7.081674e+001	-1.633359e+001	-1.084571e+002	-1.593237e+001	6.743722e+001	-5.014642e-001	-8.814128e+000
	-1.639565e+001	-1.092694e+002	-1.629418e+001	7.188107e+001	-4.774728e-001	-8.747289e+000	-1.600859e+001	6.742173e+001
449026	-1.580816e+001	6.729244e+001	-4.568288e-001	-8.974558e+000	-1.611103e+001	7.112708e+001	-1.613154e+001	-1.088588e+002
	-4.569590e-001	-8.996199e+000	-1.575274e+001	6.820838e+001	-1.610582e+001	-1.086958e+002	-1.609290e+001	7.151913e+001
	-1.609110e+001	7.119350e+001	-1.614837e+001	-1.097447e+002	-1.570722e+001	6.637762e+001	-5.012067e-001	-8.835749e+000
	-1.617615e+001	-1.089029e+002	-1.605754e+001	7.079928e+001	-4.820336e-001	-8.863859e+000	-1.590594e+001	6.588483e+001
459150	-1.565074e+001	6.727616e+001	-4.636536e-001	-9.111128e+000	-1.583558e+001	7.062633e+001	-1.593987e+001	-1.095328e+002
	-4.569202e-001	-9.196512e+000	-1.557501e+001	6.786841e+001	-1.592390e+001	-1.090827e+002	-1.592697e+001	7.078287e+001
	-1.597808e+001	7.060955e+001	-1.590747e+001	-1.089794e+002	-1.558475e+001	6.686411e+001	-5.042030e-001	-9.192911e+000
	-1.599118e+001	-1.092974e+002	-1.589221e+001	7.050382e+001	-4.905972e-001	-9.227693e+000	-1.569481e+001	6.645152e+001
469275	-1.546437e+001	6.694344e+001	-4.887188e-001	-9.378799e+000	-1.570673e+001	7.033472e+001	-1.582846e+001	-1.099172e+002
	-4.775500e-001	-9.343122e+000	-1.548989e+001	6.633408e+001	-1.579533e+001	-1.102904e+002	-1.575637e+001	7.053522e+001
	-1.574827e+001	7.043381e+001	-1.589975e+001	-1.100893e+002	-1.532432e+001	6.599816e+001	-5.211830e-001	-9.258031e+000
	-1.577550e+001	-1.095049e+002	-1.583465e+001	7.047277e+001	-5.165962e-001	-9.340195e+000	-1.552301e+001	6.541629e+001
479399	-1.530967e+001	6.673377e+001	-4.830478e-001	-9.468311e+000	-1.555627e+001	6.915977e+001	-1.554496e+001	-1.099948e+002
	-5.082128e-001	-9.602068e+000	-1.530458e+001	6.642832e+001	-1.559332e+001	-1.101797e+002	-1.554962e+001	6.980199e+001
	-1.559563e+001	7.007870e+001	-1.570705e+001	-1.099848e+002	-1.530245e+001	6.595742e+001	-5.411192e-001	-9.535973e+000
	-1.565415e+001	-1.097666e+002	-1.564182e+001	7.007049e+001	-5.295687e-001	-9.585236e+000	-1.530670e+001	6.540446e+001
489523	-1.519006e+001	6.629397e+001	-5.023421e-001	-9.538167e+000	-1.543298e+001	6.947667e+001	-1.539295e+001	-1.107086e+002
	-5.079916e-001	-9.684917e+000	-1.511295e+001	6.634651e+001	-1.543860e+001	-1.107810e+002	-1.542966e+001	6.965793e+001
	-1.544679e+001	6.973061e+001	-1.549479e+001	-1.104591e+002	-1.508554e+001	6.510019e+001	-5.605082e-001	-9.593216e+000
	-1.552470e+001	-1.104278e+002	-1.543921e+001	6.981304e+001	-5.557782e-001	-9.587858e+000	-1.520455e+001	6.507803e+001
499648	-1.503911e+001	6.630414e+001	-5.223411e-001	-9.817087e+000	-1.523488e+001	6.897122e+001	-1.532514e+001	-1.105323e+002
	-5.252316e-001	-9.799876e+000	-1.506715e+001	6.596180e+001	-1.530867e+001	-1.114530e+002	-1.525884e+001	6.923464e+001
	-1.528064e+001	6.932789e+001	-1.535262e+001	-1.107898e+002	-1.494977e+001	6.511837e+001	-5.494971e-001	-9.744695e+000
	-1.532734e+001	-1.105796e+002	-1.533675e+001	6.933612e+001	-5.609595e-001	-9.832929e+000	-1.510512e+001	6.505963e+001
509772	-1.484112e+001	6.555309e+001	-5.407820e-001	-9.938998e+000	-1.513680e+001	6.856139e+001	-1.510790e+001	-1.113662e+002
	-5.462067e-001	-1.003251e+001	-1.483614e+001	6.533507e+001	-1.516963e+001	-1.118475e+002	-1.514920e+001	6.905925e+001
	-1.513010e+001	6.858990e+001	-1.518378e+001	-1.114967e+002	-1.465694e+001	6.440968e+001	-5.700637e-001	-9.925688e+000
	-1.520950e+001	-1.110896e+002	-1.514170e+001	6.905918e+001	-5.930615e-001	-9.986165e+000	-1.486853e+001	6.463464e+001
519897	-1.465907e+001	6.511306e+001	-5.547060e-001	-1.021968e+001	-1.490048e+001	6.850755e+001	-1.499681e+001	-1.119740e+002
	-5.575471e-001	-1.029697e+001	-1.472546e+001	6.526726e+001	-1.497426e+001	-1.120115e+002	-1.502231e+001	6.828355e+001
	-1.502731e+001	6.843257e+001	-1.505828e+001	-1.113928e+002	-1.469206e+001	6.440450e+001	-6.061982e-001	-1.019069e+001
	-1.503644e+001	-1.112997e+002	-1.504262e+001	6.850075e+001	-6.005963e-001	-1.018749e+001	-1.469325e+001	6.459353e+001
530021	-1.453167e+001	6.427409e+001	-5.643193e-001	-1.038782e+001	-1.480472e+001	6.798072e+001	-1.475765e+001	-1.123118e+002
	-5.824115e-001	-1.034535e+001	-1.450151e+001	6.486278e+001	-1.492221e+001	-1.120088e+002	-1.484496e+001	6.827272e+001
	-1.483122e+001	6.813388e+001	-1.491806e+001	-1.121569e+002	-1.440565e+001	6.388879e+001	-6.097944e-001	-1.027796e+001
	-1.490802e+001	-1.122336e+002	-1.484383e+001	6.790627e+001	-6.018563e-001	-1.041639e+001	-1.453066e+001	6.455804e+001
540146	-1.443197e+001	6.434636e+001	-5.811499e-001	-1.046217e+001	-1.464391e+001	6.746910e+001	-1.479238e+001	-1.128816e+002
	-5.757258e-001	-1.052354e+001	-1.431014e+001	6.433323e+001	-1.473022e+001	-1.119700e+002	-1.466723e+001	6.775797e+001
	-1.468528e+001	6.737936e+001	-1.476619e+001	-1.126445e+002	-1.432890e+001	6.377998e+001	-6.363625e-001	-1.051740e+001
	-1.472744e+001	-1.123437e+002	-1.473539e+001	6.771870e+001	-6.116526e-001	-1.047517e+001	-1.438076e+001	6.340201e+001
550270	-1.430694e+001	6.476954e+001	-5.940087e-001	-1.064936e+001	-1.457989e+001	6.757321e+001	-1.464936e+001	-1.128113e+002
	-6.060550e-001	-1.073008e+001	-1.418442e+001	6.396371e+001	-1.458640e+001	-1.125933e+002	-1.453564e+001	6.697993e+001
	-1.454387e+001	6.749462e+001	-1.458030e+001	-1.130757e+002	-1.433838e+001	6.334088e+001	-6.640604e-001	-1.063513e+001
	-1.452725e+001	-1.130640e+002	-1.459245e+001	6.716487e+001	-6.363767e-001	-1.045445e+001	-1.426118e+001	6.321911e+001
560395	-1.411951e+001	6.376382e+001	-6.197335e-001	-1.080212e+001	-1.437920e+001	6.740112e+001	-1.442653e+001	-1.138045e+002
	-6.447961e-001	-1.075977e+001	-1.416088e+001	6.371632e+001	-1.448876e+001	-1.132318e+002	-1.446251e+001	6.688543e+001
	-1.445700e+001	6.705999e+001	-1.459328e+001	-1.127601e+002	-1.407725e+001	6.301891e+001	-6.704505e-001	-1.078318e+001
	-1.444529e+001	-1.134656e+002	-1.446438e+001	6.722614e+001	-6.325077e-001	-1.076015e+001	-1.408315e+001	6.273708e+001
572189	-1.399104e+001	6.319311e+001	-6.354218e-001	-1.099518e+001	-1.418479e+001	6.672909e+001	-1.439947e+001	-1.133573e+002
	-6.480505e-001	-1.098556e+001	-1.400681e+001	6.348570e+001	-1.425847e+001	-1.131672e+002	-1.430739e+001	6.642418e+001
	-1.427152e+001	6.607423e+001	-1.433566e+001	-1.134200e+002	-1.406580e+001	6.326229e+001	-6.936470e-001	-1.093970e+001
	-1.439254e+001	-1.136126e+002	-1.428767e+001	6.687211e+001	-6.599078e-001	-1.093966e+001	-1.401094e+001	6.212599e+001
586179	-1.385132e+001	6.219764e+001	-6.665385e-001	-1.119428e+001	-1.406322e+001	6.610053e+001	-1.413601e+001	-1.137968e+002
	-6.705992e-001	-1.120179e+001	-1.386340e+001	6.264122e+001	-1.419833e+001	-1.139909e+002	-1.414355e+001	6.611192e+001
	-1.412433e+001	6.598838e+001	-1.420901e+001	-1.139184e+002	-1.381212e+001	6.198195e+001	-6.948586e-001	-1.110582e+001
	-1.418388e+001	-1.138349e+002	-1.420472e+001	6.617728e+001	-7.098711e-001	-1.107989e+001	-1.378958e+001	6.239247e+001
600169	-1.370661e+001	6.257665e+001	-6.905563e-001	-1.160352e+001	-1.393305e+001	6.567032e+001	-1.393812e+001	-1.142726e+002
	-6.941277e-001	-1.144736e+001	-1.373981e+001	6.239049e+001	-1.396891e+001	-1.143534e+002	-1.391311e+001	6.566878e+001
	-1.391955e+001	6.580508e+001	-1.397846e+001	-1.141701e+002	-1.365755e+001	6.176051e+001	-7.282731e-001	-1.139021e+001
	-1.393979e+001	-1.140929e+002	-1.396118e+001	6.617432e+001	-7.389661e-001	-1.126346e+001	-1.371151e+001	6.199697e+001
614158	-1.346663e+001	6.226218e+001	-7.140064e-001	-1.155071e+001	-1.372468e+001	6.514023e+001	-1.372167e+001	-1.148939e+002
	-7.017809e-001	-1.161964e+001	-1.351405e+001	6.218212e+001	-1.375664e+001	-1.150080e+002	-1.368018e+001	6.498608e+001
	-1.377866e+001	6.470985e+001	-1.384287e+001	-1.145974e+002	-1.352616e+001	6.153940e+001	-7.429414e-001	-1.149110e+001
	-1.380785e+001	-1.152086e+002	-1.379042e+001	6.545272e+001	-7.405929e-001	-1.161299e+001	-1.352589e+001	6.191296e+001
628148	-1.336569e+001	6.110915e+001	-7.071155e-001	-1.177886e+001	-1.355793e+001	6.469636e+001	-1.364120e+001	-1.155344e+002
	-7.297063e-001	-1.179216e+001	-1.333076e+001	6.207603e+001	-1.362215e+001	-1.155944e+002	-1.357455e+001	6.496254e+001
	-1.361603e+001	6.505164e+001	-1.364143e+001	-1.154864e+002	-1.338399e+001	6.078967e+001	-7.634313e-001	-1.192267e+001
	-1.370729e+001	-1.151648e+002	-1.356099e+001	6.487161e+001	-7.628464e-001	-1.177216e+001	-1.339284e+001	6.128237e+001
642138	-1.325490e+001	6.115210e+001	-7.516313e-001	-1.193033e+001	-1.341339e+001	6.387806e+001	-1.353454e+001	-1.162024e+002
