! This data is being provided by Wuerth Elektronik eiSos GmbH & Co. KG to the industry for analysis.
!
! Document information:
! Version:rev19a Date: 16/12/2019
!
! Component information:
! Match Code: WE-CNSW P/N: 744232161 Size: 1206
!------------------------------------------------------------------------------------------------------------------
! Disclaimer:  While Würth Elektronik eiSos has made every reasonable effort to ensure the accuracy
! of the information provided, Würth Elektronik eiSos does not guarantee the exemption of error on the
! data collection measurements, nor does Würth Elektronik eiSos guarantee that the information is current.
! Würth Elektronik eiSos reserves the right to make any adjustments at any time without notice.
! Würth Elektronik eiSos expressly disclaims all implied warranties regarding this measurement data collection.
!
! Note 1 – This data measurement is representative according to the product implementation into the fixture.
! Component behavior is sensitive to implementation into the fixture, which includes board
! materials, trace geometry information, connector pin out, layer connection, use of de-embedding
! techniques, etc.
!
! Note 2 - The fixture was designed specifically to match the 50 Ohm line impedance, as well as the connector impedance,
! in order to accomplish a reliable measurement without reflections in the trace. Any other implementation of the fixture will change the obtained
! measurement performance. The used fixture behavior was de-embedded to accomplish reliable measurement results.
!
!------------------------------------------------------------------------------------------------------------------
!
! The test setup consisted of the following:
!   - Agilent VNA E5071C or E5071B
!   - Calibrations are SOLT (short open load thru)
!   - De-embedding of the SMA's or line cards were included
!   - Equipment Settings -
!            - Sampling - 501 points
!            - IF BW – 70 kHz
!            - Averaging – Not used
!
!
!
!             Port 1----->|1|        |2| -----> Port 3
!                            |   DUT  |
!             Port 2----->|3|        |4| -----> Port 4
!
!
!*VNA Port --> |Port in Datasheet|
! |Port in Datasheet| --> VNA Port
!
!
! For further information regarding this testing, please contact
! Wuerth Elektronik eiSos
! Contact: EDA team in QDC
! Email: libraries@we-online.com or libraries@we-online.de
!
!
# Hz S dB R 50
300000	-3.511807e+001	8.556678e+001	-2.492854e-002	-6.440581e-001	-3.798736e+001	8.606926e+001	-3.817290e+001	-9.380218e+001
	-3.115140e-002	-8.514108e-001	-3.373315e+001	9.943973e+001	-3.845138e+001	-9.356008e+001	-3.878828e+001	8.685017e+001
	-3.809477e+001	8.997719e+001	-3.763653e+001	-9.536590e+001	-3.242720e+001	1.009982e+002	-2.524352e-002	-8.396517e-001
	-3.867896e+001	-9.505837e+001	-3.853487e+001	7.933959e+001	-6.853460e-003	-8.447673e-001	-3.388769e+001	1.031163e+002
307335	-3.636895e+001	8.642376e+001	-4.376629e-002	-7.164272e-001	-3.796903e+001	9.057566e+001	-3.848521e+001	-9.354097e+001
	-5.317593e-002	-6.337638e-001	-3.599734e+001	8.715768e+001	-3.852877e+001	-9.279041e+001	-3.809595e+001	9.043607e+001
	-3.850102e+001	9.196465e+001	-3.813470e+001	-9.313659e+001	-3.422424e+001	8.984515e+001	-6.255073e-002	-6.380397e-001
	-3.778866e+001	-9.931650e+001	-3.726994e+001	8.204843e+001	-1.904246e-002	-8.768482e-001	-3.518575e+001	8.692299e+001
314670	-3.632923e+001	8.517328e+001	-3.430867e-002	-6.637343e-001	-3.763628e+001	9.250813e+001	-3.824867e+001	-9.817251e+001
	-5.650767e-002	-8.097300e-001	-3.575843e+001	8.285184e+001	-3.833442e+001	-9.316684e+001	-3.826563e+001	8.694213e+001
	-3.831273e+001	8.688727e+001	-3.845494e+001	-8.528436e+001	-3.449394e+001	9.180034e+001	-4.645546e-002	-7.545515e-001
	-3.859955e+001	-8.919946e+001	-3.863062e+001	8.912431e+001	-3.201649e-002	-6.385807e-001	-3.525126e+001	8.932035e+001
322004	-3.427097e+001	9.388623e+001	-3.622798e-002	-7.113662e-001	-3.767672e+001	8.925365e+001	-3.826425e+001	-9.426414e+001
	-3.384742e-002	-7.066708e-001	-3.696534e+001	8.260847e+001	-3.784787e+001	-9.424601e+001	-3.830954e+001	9.022125e+001
	-3.731371e+001	8.338686e+001	-3.837715e+001	-9.990907e+001	-3.499712e+001	9.790693e+001	-4.802366e-002	-6.299928e-001
	-3.783252e+001	-9.475807e+001	-3.780098e+001	8.825979e+001	-5.439451e-003	-6.873544e-001	-3.676136e+001	9.439016e+001
329339	-3.546136e+001	8.152561e+001	-3.245008e-002	-6.698137e-001	-3.813018e+001	8.737615e+001	-3.785610e+001	-8.418368e+001
	-4.806136e-002	-7.237808e-001	-3.659587e+001	9.085415e+001	-3.773805e+001	-8.916911e+001	-3.777915e+001	8.505220e+001
	-3.769927e+001	7.963285e+001	-3.729661e+001	-8.726793e+001	-3.536829e+001	9.563284e+001	-3.174728e-002	-7.833680e-001
	-3.856062e+001	-9.346821e+001	-3.804786e+001	8.815043e+001	-2.302440e-002	-7.230091e-001	-3.523198e+001	9.401640e+001
336674	-3.754872e+001	9.119603e+001	-3.676203e-002	-6.542913e-001	-3.680233e+001	9.455587e+001	-3.786760e+001	-9.289048e+001
	-3.716711e-002	-6.699634e-001	-3.655087e+001	8.061207e+001	-3.739273e+001	-9.101544e+001	-3.703629e+001	8.608058e+001
	-3.748749e+001	8.999497e+001	-3.714632e+001	-9.305837e+001	-3.607820e+001	9.227054e+001	-3.995548e-002	-9.483450e-001
	-3.713676e+001	-9.291754e+001	-3.791349e+001	8.337960e+001	-5.594043e-002	-7.799182e-001	-3.548257e+001	9.812635e+001
344009	-3.519655e+001	8.507975e+001	-3.048236e-002	-7.238884e-001	-3.637130e+001	8.619881e+001	-3.688631e+001	-9.127914e+001
	-2.927061e-002	-8.699543e-001	-3.531825e+001	7.772941e+001	-3.713544e+001	-8.834049e+001	-3.720108e+001	8.827325e+001
	-3.705854e+001	8.763750e+001	-3.709445e+001	-9.529484e+001	-3.532427e+001	9.677236e+001	-3.164369e-002	-7.536541e-001
	-3.734848e+001	-9.132213e+001	-3.788868e+001	8.383031e+001	-3.164708e-002	-6.789749e-001	-3.609283e+001	9.735784e+001
351344	-3.659586e+001	7.990703e+001	-1.714600e-002	-8.804900e-001	-3.702952e+001	8.590676e+001	-3.705987e+001	-8.773669e+001
	-2.064572e-002	-6.834251e-001	-3.531119e+001	8.372968e+001	-3.657353e+001	-9.604019e+001	-3.732369e+001	8.794443e+001
	-3.694255e+001	8.998013e+001	-3.657696e+001	-9.104909e+001	-3.356801e+001	9.638814e+001	-1.539842e-002	-8.401597e-001
	-3.752289e+001	-9.180998e+001	-3.747149e+001	8.345797e+001	-1.609405e-002	-9.316276e-001	-3.481844e+001	1.021539e+002
358679	-3.612962e+001	8.751014e+001	-2.070799e-002	-6.641527e-001	-3.617334e+001	8.692534e+001	-3.671128e+001	-9.202420e+001
	-4.038066e-002	-8.140402e-001	-3.623759e+001	8.999497e+001	-3.727928e+001	-8.569725e+001	-3.634026e+001	8.722440e+001
	-3.688417e+001	9.399595e+001	-3.690300e+001	-9.800382e+001	-3.422132e+001	1.008678e+002	-3.607233e-002	-8.600461e-001
	-3.636244e+001	-9.054489e+001	-3.659883e+001	8.960306e+001	-1.291212e-002	-9.202101e-001	-3.476011e+001	9.674488e+001
366013	-3.579775e+001	8.559327e+001	-2.952687e-002	-7.263301e-001	-3.673898e+001	8.658856e+001	-3.691364e+001	-9.020957e+001
	-2.656775e-002	-8.233344e-001	-3.645119e+001	8.830471e+001	-3.679090e+001	-9.215319e+001	-3.680421e+001	9.078046e+001
	-3.712175e+001	8.872050e+001	-3.739849e+001	-9.085136e+001	-3.501058e+001	9.170983e+001	-1.285650e-002	-8.227320e-001
	-3.680942e+001	-9.679500e+001	-3.676150e+001	8.819665e+001	-2.363637e-002	-7.850069e-001	-3.492515e+001	1.012762e+002
373348	-3.393343e+001	8.834919e+001	-3.094618e-002	-7.506484e-001	-3.652742e+001	8.266900e+001	-3.612283e+001	-9.237344e+001
	-4.163134e-003	-8.891779e-001	-3.483847e+001	8.681080e+001	-3.708614e+001	-9.466489e+001	-3.647486e+001	8.416016e+001
	-3.698101e+001	8.862433e+001	-3.716674e+001	-9.573240e+001	-3.381665e+001	9.115354e+001	-2.364255e-002	-7.992653e-001
	-3.668064e+001	-9.053574e+001	-3.640087e+001	8.606374e+001	-2.108161e-002	-7.250106e-001	-3.450433e+001	9.215224e+001
380683	-3.520228e+001	8.133032e+001	-2.381563e-002	-8.030310e-001	-3.628222e+001	8.830265e+001	-3.681115e+001	-8.947536e+001
	-3.139286e-002	-8.716796e-001	-3.493425e+001	8.176463e+001	-3.625591e+001	-9.316005e+001	-3.650553e+001	8.773081e+001
	-3.610730e+001	8.573338e+001	-3.643738e+001	-9.020210e+001	-3.386056e+001	9.401284e+001	-1.555963e-002	-7.412961e-001
	-3.599459e+001	-9.635927e+001	-3.593671e+001	8.754750e+001	-1.578554e-002	-7.555123e-001	-3.626182e+001	9.199069e+001
388018	-3.506612e+001	8.989129e+001	-2.063055e-002	-7.511224e-001	-3.602391e+001	8.598804e+001	-3.661240e+001	-9.082498e+001
	-3.083339e-002	-9.578386e-001	-3.451248e+001	9.054253e+001	-3.637470e+001	-9.265112e+001	-3.632482e+001	8.905536e+001
	-3.570419e+001	8.570337e+001	-3.634912e+001	-9.496280e+001	-3.426890e+001	9.595710e+001	-4.152359e-002	-7.529248e-001
	-3.603313e+001	-9.391150e+001	-3.649352e+001	8.876656e+001	-6.911946e-003	-7.799806e-001	-3.463511e+001	9.036571e+001
395353	-3.480305e+001	8.258043e+001	-2.148094e-002	-8.498149e-001	-3.602922e+001	8.514108e+001	-3.543726e+001	-9.118122e+001
	-2.729597e-002	-8.332512e-001	-3.508445e+001	8.815694e+001	-3.606943e+001	-8.844910e+001	-3.604548e+001	8.683668e+001
	-3.578930e+001	8.817816e+001	-3.577633e+001	-9.160973e+001	-3.322527e+001	9.325937e+001	-3.607841e-002	-9.149445e-001
	-3.614331e+001	-9.092763e+001	-3.635525e+001	9.226005e+001	1.739625e-002	-1.089144e+000	-3.405045e+001	9.243904e+001
402688	-3.501281e+001	8.533743e+001	-2.298461e-002	-7.849712e-001	-3.526493e+001	8.557258e+001	-3.633691e+001	-9.345492e+001
	-4.452819e-002	-9.473047e-001	-3.431382e+001	8.669657e+001	-3.603464e+001	-9.057780e+001	-3.565850e+001	8.684144e+001
	-3.595363e+001	8.772637e+001	-3.611366e+001	-9.407670e+001	-3.397884e+001	9.469362e+001	-1.102129e-002	-8.521613e-001
	-3.581929e+001	-9.554018e+001	-3.644744e+001	8.641160e+001	-1.461251e-003	-7.968719e-001	-3.510543e+001	9.207360e+001
410022	-3.444273e+001	8.494707e+001	-4.351062e-002	-8.848240e-001	-3.558132e+001	8.902197e+001	-3.575186e+001	-9.502017e+001
	-2.306999e-002	-9.658960e-001	-3.474517e+001	8.331872e+001	-3.611805e+001	-9.262510e+001	-3.604087e+001	8.728614e+001
	-3.598267e+001	8.509713e+001	-3.566023e+001	-9.222144e+001	-3.511487e+001	8.963298e+001	-4.534950e-002	-7.815416e-001
	-3.543016e+001	-9.347713e+001	-3.596791e+001	9.134913e+001	-2.903024e-002	-8.646133e-001	-3.500710e+001	8.995384e+001
418652	-3.622257e+001	8.416857e+001	-5.783057e-002	-9.819001e-001	-3.532433e+001	8.573842e+001	-3.588043e+001	-9.205846e+001
	-3.766111e-002	-8.743636e-001	-3.339231e+001	8.285283e+001	-3.537952e+001	-9.586697e+001	-3.539997e+001	8.394016e+001
	-3.522460e+001	8.426106e+001	-3.559375e+001	-9.162086e+001	-3.303888e+001	8.856942e+001	-3.444155e-002	-9.352362e-001
	-3.599103e+001	-8.954107e+001	-3.549144e+001	8.915825e+001	-2.569002e-002	-8.692950e-001	-3.480996e+001	9.530889e+001
428777	-3.372498e+001	8.596768e+001	-2.516953e-002	-9.866695e-001	-3.507886e+001	8.674672e+001	-3.542185e+001	-9.167459e+001
	-3.006178e-002	-9.338936e-001	-3.420223e+001	7.891406e+001	-3.548131e+001	-9.421625e+001	-3.546987e+001	8.932114e+001
	-3.554188e+001	8.536919e+001	-3.510127e+001	-9.295003e+001	-3.369573e+001	9.086128e+001	-2.554345e-002	-8.495815e-001
	-3.528504e+001	-9.815704e+001	-3.556577e+001	8.484912e+001	-7.597786e-003	-9.348157e-001	-3.459464e+001	9.106412e+001
438901	-3.373563e+001	8.428712e+001	-3.447995e-002	-9.695588e-001	-3.537402e+001	8.884776e+001	-3.564179e+001	-9.239596e+001
	-4.324834e-002	-1.196895e+000	-3.501556e+001	7.863230e+001	-3.568317e+001	-9.343863e+001	-3.473261e+001	8.495627e+001
	-3.516371e+001	8.825497e+001	-3.552214e+001	-9.204656e+001	-3.397651e+001	9.258986e+001	-2.825073e-002	-1.013562e+000
	-3.488705e+001	-9.417957e+001	-3.507919e+001	8.830203e+001	-1.380120e-002	-9.169053e-001	-3.438857e+001	9.492627e+001
449026	-3.458827e+001	7.889561e+001	-2.774723e-002	-9.512800e-001	-3.472680e+001	8.675701e+001	-3.474662e+001	-9.582234e+001
	-2.259429e-002	-1.077156e+000	-3.363845e+001	8.697350e+001	-3.526277e+001	-9.510991e+001	-3.492429e+001	8.720996e+001
	-3.493689e+001	8.904295e+001	-3.482463e+001	-9.255139e+001	-3.355024e+001	8.772530e+001	-3.175094e-002	-8.903595e-001
	-3.498528e+001	-9.206596e+001	-3.500360e+001	8.965421e+001	-1.130444e-002	-9.227401e-001	-3.483984e+001	8.410684e+001
459150	-3.407298e+001	8.339732e+001	-2.105862e-002	-8.963747e-001	-3.493255e+001	8.824617e+001	-3.502571e+001	-9.029220e+001
	-3.650015e-002	-1.066579e+000	-3.390676e+001	8.708047e+001	-3.445126e+001	-9.231771e+001	-3.438052e+001	8.358183e+001
	-3.466120e+001	8.704401e+001	-3.458252e+001	-9.342055e+001	-3.373462e+001	9.353629e+001	-1.439936e-002	-9.841800e-001
	-3.553711e+001	-9.246325e+001	-3.436023e+001	8.797535e+001	-1.215314e-002	-1.079631e+000	-3.427520e+001	9.339624e+001
469275	-3.393257e+001	8.305680e+001	-4.010871e-002	-1.085453e+000	-3.442252e+001	8.589267e+001	-3.445823e+001	-9.369102e+001
	-3.133915e-002	-9.896656e-001	-3.433956e+001	7.792568e+001	-3.413778e+001	-9.205487e+001	-3.415816e+001	9.206941e+001
	-3.441985e+001	8.988317e+001	-3.491836e+001	-9.601835e+001	-3.301701e+001	8.880526e+001	-3.186429e-002	-1.000611e+000
	-3.487830e+001	-9.534589e+001	-3.475868e+001	8.909832e+001	-8.576905e-003	-1.076046e+000	-3.431729e+001	8.637641e+001
479399	-3.387789e+001	8.574659e+001	-2.178671e-002	-1.035758e+000	-3.468715e+001	8.772118e+001	-3.459744e+001	-9.077900e+001
	-2.716705e-002	-1.105160e+000	-3.375418e+001	8.256878e+001	-3.386431e+001	-9.378766e+001	-3.438003e+001	9.113414e+001
	-3.436801e+001	8.544266e+001	-3.475189e+001	-9.276553e+001	-3.355193e+001	9.431965e+001	-1.629977e-002	-1.110727e+000
	-3.463605e+001	-9.326225e+001	-3.419243e+001	8.533363e+001	-1.571717e-002	-1.109376e+000	-3.354602e+001	8.871501e+001
489523	-3.368934e+001	8.365155e+001	-2.730059e-002	-9.324587e-001	-3.398821e+001	8.676306e+001	-3.414459e+001	-9.135700e+001
	-2.794511e-002	-1.086770e+000	-3.330557e+001	8.394426e+001	-3.403015e+001	-9.312888e+001	-3.477657e+001	8.789575e+001
	-3.417346e+001	8.799681e+001	-3.402281e+001	-9.370307e+001	-3.284416e+001	8.448515e+001	-4.045381e-002	-1.075618e+000
	-3.409977e+001	-9.413463e+001	-3.405634e+001	8.839030e+001	-2.045483e-002	-1.043217e+000	-3.414550e+001	8.468139e+001
499648	-3.363845e+001	8.461536e+001	-2.390807e-002	-1.013779e+000	-3.413001e+001	8.589970e+001	-3.402943e+001	-9.091985e+001
	-2.053944e-002	-1.031061e+000	-3.391205e+001	8.226780e+001	-3.430465e+001	-9.520974e+001	-3.390403e+001	8.680432e+001
	-3.433972e+001	8.883559e+001	-3.385024e+001	-9.062325e+001	-3.323567e+001	8.839001e+001	-1.687214e-002	-9.554822e-001
	-3.392427e+001	-9.333017e+001	-3.415809e+001	8.515357e+001	-1.287407e-002	-1.043444e+000	-3.468370e+001	9.039139e+001
509772	-3.322235e+001	8.190343e+001	-2.859091e-002	-1.038084e+000	-3.349792e+001	8.731773e+001	-3.401211e+001	-9.330814e+001
	-3.162398e-002	-1.163049e+000	-3.325370e+001	7.907601e+001	-3.368934e+001	-9.277738e+001	-3.403145e+001	8.803915e+001
	-3.408713e+001	8.799656e+001	-3.400222e+001	-9.279029e+001	-3.199246e+001	8.605587e+001	-1.165360e-002	-1.026194e+000
	-3.360629e+001	-9.229249e+001	-3.390023e+001	8.687441e+001	-2.120131e-002	-1.153763e+000	-3.328475e+001	8.711276e+001
519897	-3.262348e+001	7.953234e+001	-3.573612e-002	-1.170139e+000	-3.353248e+001	8.461155e+001	-3.396125e+001	-9.098993e+001
	-2.604570e-002	-1.266003e+000	-3.347336e+001	8.003854e+001	-3.374995e+001	-9.248508e+001	-3.358889e+001	8.765493e+001
	-3.410493e+001	8.672376e+001	-3.382917e+001	-9.129124e+001	-3.296541e+001	8.670425e+001	-2.958963e-002	-1.199273e+000
	-3.380196e+001	-9.396603e+001	-3.369322e+001	8.877902e+001	-1.926739e-002	-1.169241e+000	-3.332656e+001	8.814155e+001
530021	-3.277431e+001	7.801320e+001	-3.502185e-003	-1.084523e+000	-3.356141e+001	8.811309e+001	-3.386372e+001	-9.603509e+001
	-4.055286e-002	-1.124506e+000	-3.242813e+001	8.119022e+001	-3.416372e+001	-9.242158e+001	-3.329816e+001	8.521368e+001
	-3.369276e+001	8.692529e+001	-3.364522e+001	-9.311696e+001	-3.181022e+001	8.293308e+001	-1.836224e-002	-1.131356e+000
	-3.409554e+001	-9.566969e+001	-3.371765e+001	9.061277e+001	-2.028434e-002	-1.308055e+000	-3.251359e+001	9.011766e+001
540146	-3.282725e+001	8.067544e+001	-2.250405e-002	-1.117937e+000	-3.356946e+001	8.652432e+001	-3.338087e+001	-8.858799e+001
	-1.618186e-002	-1.133468e+000	-3.195238e+001	7.735000e+001	-3.342890e+001	-8.899618e+001	-3.339794e+001	8.414256e+001
	-3.349171e+001	8.922530e+001	-3.404925e+001	-9.258689e+001	-3.200524e+001	8.530106e+001	-4.693623e-002	-1.202761e+000
	-3.343823e+001	-9.105966e+001	-3.326537e+001	8.706359e+001	-6.402868e-003	-1.224757e+000	-3.264814e+001	8.475102e+001
550270	-3.341533e+001	8.516788e+001	-1.095769e-002	-1.139255e+000	-3.342674e+001	8.809868e+001	-3.324913e+001	-9.433360e+001
	-3.123014e-002	-1.275282e+000	-3.192134e+001	8.032687e+001	-3.333938e+001	-9.572399e+001	-3.375589e+001	8.612175e+001
	-3.303449e+001	8.591538e+001	-3.336362e+001	-9.144748e+001	-3.303101e+001	8.420382e+001	-4.627415e-002	-1.224185e+000
	-3.300863e+001	-9.017535e+001	-3.343953e+001	8.293705e+001	-2.391543e-002	-1.093993e+000	-3.285973e+001	8.566711e+001
560395	-3.223961e+001	8.165690e+001	-3.683120e-002	-1.104471e+000	-3.240649e+001	8.678208e+001	-3.349130e+001	-9.305833e+001
	-4.032696e-002	-1.155499e+000	-3.233795e+001	7.808447e+001	-3.298052e+001	-9.652823e+001	-3.275122e+001	8.734055e+001
	-3.302124e+001	8.627668e+001	-3.298833e+001	-9.420219e+001	-3.213358e+001	8.613252e+001	-3.274334e-002	-1.271167e+000
	-3.345228e+001	-9.050011e+001	-3.321554e+001	8.949309e+001	-3.762840e-003	-1.221991e+000	-3.188004e+001	8.556696e+001
572189	-3.196497e+001	7.971488e+001	-3.013779e-002	-1.168019e+000	-3.288310e+001	8.814969e+001	-3.334919e+001	-9.437368e+001
	-4.296603e-002	-1.262423e+000	-3.251347e+001	8.022069e+001	-3.270287e+001	-9.206218e+001	-3.315508e+001	8.539788e+001
	-3.275901e+001	8.549844e+001	-3.285794e+001	-9.106480e+001	-3.259593e+001	8.950065e+001	-3.620021e-002	-1.311973e+000
	-3.319259e+001	-9.392661e+001	-3.262977e+001	8.837772e+001	9.170908e-003	-1.188183e+000	-3.239642e+001	8.031576e+001
586179	-3.229022e+001	7.429055e+001	-3.980341e-002	-1.314232e+000	-3.296137e+001	8.472177e+001	-3.247603e+001	-9.359486e+001
	-4.394192e-002	-1.368523e+000	-3.197424e+001	7.627493e+001	-3.240363e+001	-9.243583e+001	-3.278994e+001	8.641669e+001
	-3.296923e+001	8.696649e+001	-3.262867e+001	-9.436095e+001	-3.206492e+001	8.463018e+001	-2.600428e-002	-1.199048e+000
	-3.245762e+001	-9.391725e+001	-3.239323e+001	8.544469e+001	-2.408379e-002	-1.217656e+000	-3.193922e+001	8.800216e+001
600169	-3.285426e+001	8.124829e+001	-4.516605e-002	-1.407602e+000	-3.256438e+001	8.677288e+001	-3.265933e+001	-9.497981e+001
	-3.055423e-002	-1.310127e+000	-3.287056e+001	7.672446e+001	-3.235771e+001	-9.484315e+001	-3.204793e+001	8.841167e+001
	-3.243936e+001	8.726606e+001	-3.257457e+001	-9.161654e+001	-3.190706e+001	8.444735e+001	-1.989713e-002	-1.266596e+000
	-3.256547e+001	-9.410788e+001	-3.288061e+001	8.835103e+001	-4.640823e-002	-1.221584e+000	-3.267209e+001	8.600115e+001
614158	-3.168586e+001	8.141510e+001	-3.960918e-002	-1.238590e+000	-3.222719e+001	8.434648e+001	-3.217324e+001	-9.336857e+001
	-2.330201e-002	-1.314351e+000	-3.194298e+001	7.888698e+001	-3.189784e+001	-9.403453e+001	-3.253371e+001	8.812530e+001
	-3.231211e+001	8.585754e+001	-3.205091e+001	-9.361465e+001	-3.199250e+001	8.695619e+001	-1.773478e-002	-1.153975e+000
	-3.256617e+001	-9.532443e+001	-3.231472e+001	8.984823e+001	-1.637451e-002	-1.265390e+000	-3.243841e+001	9.059056e+001
628148	-3.201705e+001	7.457945e+001	-2.040668e-002	-1.261186e+000	-3.208830e+001	8.825542e+001	-3.199786e+001	-9.367446e+001
	-4.256620e-002	-1.275961e+000	-3.190362e+001	8.142624e+001	-3.226190e+001	-9.075704e+001	-3.213361e+001	8.577636e+001
	-3.212072e+001	8.699917e+001	-3.199738e+001	-9.177666e+001	-3.206984e+001	8.494137e+001	-2.164486e-002	-1.415960e+000
	-3.228613e+001	-9.215399e+001	-3.211255e+001	8.711921e+001	-1.710684e-002	-1.302002e+000	-3.222806e+001	8.941201e+001
642138	-3.200727e+001	7.765901e+001	-2.529682e-002	-1.340681e+000	-3.150247e+001	8.535593e+001	-3.196742e+001	-9.595887e+001
