!Murata Part Number: GRM188R71E105KA12
!These Parameters are Measured in Series Mode Connection
!Data Generated on Mar 30, 2021
!       o--ll--o
!Port1            Port2
!       o------o
!Operation Temp=25[degC], DC Bias Voltage=0[V]
!Freq. Start=100[Hz] Stop=6[GHz] 401[Steps]
# Hz S RI R 50
!Freq.(Hz) S11(Real) S11(Imag) S21(Real) S21(Imag) S12(Real) S12(Imag) S22(Real) S22(Imag)
100 0.9970703 -0.0400048 0.0029297 0.0400048 0.0029297 0.0400048 0.9970703 -0.0400048
105 0.9968922 -0.0418049 0.0031078 0.0418049 0.0031078 0.0418049 0.9968922 -0.0418049
109 0.9966984 -0.0436863 0.0033016 0.0436863 0.0033016 0.0436863 0.9966984 -0.0436863
114 0.9964875 -0.0456524 0.0035125 0.0456524 0.0035125 0.0456524 0.9964875 -0.0456524
120 0.9962578 -0.0477066 0.0037422 0.0477066 0.0037422 0.0477066 0.9962578 -0.0477066
125 0.9960077 -0.0498529 0.0039923 0.0498529 0.0039923 0.0498529 0.9960077 -0.0498529
131 0.9957353 -0.0520949 0.0042647 0.0520949 0.0042647 0.0520949 0.9957353 -0.0520949
137 0.9954387 -0.0544367 0.0045613 0.0544367 0.0045613 0.0544367 0.9954387 -0.0544367
143 0.9951157 -0.0568822 0.0048843 0.0568822 0.0048843 0.0568822 0.9951157 -0.0568822
150 0.9947639 -0.0594359 0.0052361 0.0594359 0.0052361 0.0594359 0.9947639 -0.0594359
156 0.9943808 -0.0621020 0.0056192 0.0621020 0.0056192 0.0621020 0.9943808 -0.0621020
164 0.9939638 -0.0648849 0.0060362 0.0648849 0.0060362 0.0648849 0.9939638 -0.0648849
171 0.9935098 -0.0677894 0.0064902 0.0677894 0.0064902 0.0677894 0.9935098 -0.0677894
179 0.9930158 -0.0708202 0.0069842 0.0708202 0.0069842 0.0708202 0.9930158 -0.0708202
187 0.9924783 -0.0739822 0.0075217 0.0739822 0.0075217 0.0739822 0.9924783 -0.0739822
196 0.9918936 -0.0772804 0.0081064 0.0772804 0.0081064 0.0772804 0.9918936 -0.0772804
205 0.9912578 -0.0807199 0.0087422 0.0807199 0.0087422 0.0807199 0.9912578 -0.0807199
214 0.9905665 -0.0843060 0.0094335 0.0843060 0.0094335 0.0843060 0.9905665 -0.0843060
224 0.9898153 -0.0880440 0.0101847 0.0880440 0.0101847 0.0880440 0.9898153 -0.0880440
234 0.9889991 -0.0919396 0.0110009 0.0919396 0.0110009 0.0919396 0.9889991 -0.0919396
245 0.9881126 -0.0959982 0.0118874 0.0959982 0.0118874 0.0959982 0.9881126 -0.0959982
256 0.9871502 -0.1002255 0.0128498 0.1002255 0.0128498 0.1002255 0.9871502 -0.1002255
268 0.9861056 -0.1046274 0.0138944 0.1046274 0.0138944 0.1046274 0.9861056 -0.1046274
280 0.9849722 -0.1092097 0.0150278 0.1092097 0.0150278 0.1092097 0.9849722 -0.1092097
293 0.9837430 -0.1139783 0.0162570 0.1139783 0.0162570 0.1139783 0.9837430 -0.1139783
306 0.9824102 -0.1189391 0.0175898 0.1189391 0.0175898 0.1189391 0.9824102 -0.1189391
320 0.9809657 -0.1240982 0.0190343 0.1240982 0.0190343 0.1240982 0.9809657 -0.1240982
335 0.9794005 -0.1294616 0.0205995 0.1294616 0.0205995 0.1294616 0.9794005 -0.1294616
350 0.9777052 -0.1350350 0.0222948 0.1350350 0.0222948 0.1350350 0.9777052 -0.1350350
366 0.9758695 -0.1408245 0.0241305 0.1408245 0.0241305 0.1408245 0.9758695 -0.1408245
383 0.9738824 -0.1468358 0.0261176 0.1468358 0.0261176 0.1468358 0.9738824 -0.1468358
401 0.9717320 -0.1530744 0.0282680 0.1530744 0.0282680 0.1530744 0.9717320 -0.1530744
419 0.9694056 -0.1595456 0.0305944 0.1595456 0.0305944 0.1595456 0.9694056 -0.1595456
438 0.9668894 -0.1662545 0.0331106 0.1662545 0.0331106 0.1662545 0.9668894 -0.1662545
458 0.9641690 -0.1732056 0.0358310 0.1732056 0.0358310 0.1732056 0.9641690 -0.1732056
479 0.9612284 -0.1804030 0.0387716 0.1804030 0.0387716 0.1804030 0.9612284 -0.1804030
501 0.9580508 -0.1878501 0.0419492 0.1878501 0.0419492 0.1878501 0.9580508 -0.1878501
524 0.9546184 -0.1955496 0.0453816 0.1955496 0.0453816 0.1955496 0.9546184 -0.1955496
548 0.9509119 -0.2035034 0.0490881 0.2035034 0.0490881 0.2035034 0.9509119 -0.2035034
573 0.9469110 -0.2117120 0.0530890 0.2117120 0.0530890 0.2117120 0.9469110 -0.2117120
600 0.9425942 -0.2201749 0.0574058 0.2201749 0.0574058 0.2201749 0.9425942 -0.2201749
627 0.9379387 -0.2288900 0.0620613 0.2288900 0.0620613 0.2288900 0.9379387 -0.2288900
656 0.9329207 -0.2378537 0.0670793 0.2378537 0.0670793 0.2378537 0.9329207 -0.2378537
686 0.9275152 -0.2470604 0.0724848 0.2470604 0.0724848 0.2470604 0.9275152 -0.2470604
717 0.9216962 -0.2565022 0.0783038 0.2565022 0.0783038 0.2565022 0.9216962 -0.2565022
750 0.9154370 -0.2661690 0.0845630 0.2661690 0.0845630 0.2661690 0.9154370 -0.2661690
784 0.9087100 -0.2760481 0.0912900 0.2760481 0.0912900 0.2760481 0.9087100 -0.2760481
820 0.9014871 -0.2861237 0.0985129 0.2861237 0.0985129 0.2861237 0.9014871 -0.2861237
858 0.8937402 -0.2963771 0.1062598 0.2963771 0.1062598 0.2963771 0.8937402 -0.2963771
897 0.8854409 -0.3067862 0.1145591 0.3067862 0.1145591 0.3067862 0.8854409 -0.3067862
938 0.8765615 -0.3173250 0.1234385 0.3173250 0.1234385 0.3173250 0.8765615 -0.3173250
981 0.8670749 -0.3279642 0.1329251 0.3279642 0.1329251 0.3279642 0.8670749 -0.3279642
1026 0.8569554 -0.3386702 0.1430446 0.3386702 0.1430446 0.3386702 0.8569554 -0.3386702
1073 0.8461791 -0.3494057 0.1538209 0.3494057 0.1538209 0.3494057 0.8461791 -0.3494057
1122 0.8347242 -0.3601292 0.1652758 0.3601292 0.1652758 0.3601292 0.8347242 -0.3601292
1174 0.8225720 -0.3707951 0.1774280 0.3707951 0.1774280 0.3707951 0.8225720 -0.3707951
1227 0.8097073 -0.3813543 0.1902927 0.3813543 0.1902927 0.3813543 0.8097073 -0.3813543
1283 0.7961190 -0.3917537 0.2038810 0.3917537 0.2038810 0.3917537 0.7961190 -0.3917537
1342 0.7818010 -0.4019371 0.2181990 0.4019371 0.2181990 0.4019371 0.7818010 -0.4019371
1404 0.7667524 -0.4118454 0.2332476 0.4118454 0.2332476 0.4118454 0.7667524 -0.4118454
1468 0.7509784 -0.4214174 0.2490216 0.4214174 0.2490216 0.4214174 0.7509784 -0.4214174
1535 0.7344908 -0.4305900 0.2655092 0.4305900 0.2655092 0.4305900 0.7344908 -0.4305900
1606 0.7173083 -0.4392996 0.2826917 0.4392996 0.2826917 0.4392996 0.7173083 -0.4392996
1679 0.6994571 -0.4474826 0.3005429 0.4474826 0.3005429 0.4474826 0.6994571 -0.4474826
1756 0.6809706 -0.4550766 0.3190294 0.4550766 0.3190294 0.4550766 0.6809706 -0.4550766
1836 0.6618900 -0.4620212 0.3381100 0.4620212 0.3381100 0.4620212 0.6618900 -0.4620212
1920 0.6422638 -0.4682593 0.3577362 0.4682593 0.3577362 0.4682593 0.6422638 -0.4682593
2008 0.6221476 -0.4737383 0.3778524 0.4737383 0.3778524 0.4737383 0.6221476 -0.4737383
2100 0.6016036 -0.4784108 0.3983964 0.4784108 0.3983964 0.4784108 0.6016036 -0.4784108
2196 0.5806998 -0.4822358 0.4193002 0.4822358 0.4193002 0.4822358 0.5806998 -0.4822358
2297 0.5595092 -0.4851795 0.4404908 0.4851795 0.4404908 0.4851795 0.5595092 -0.4851795
2402 0.5381089 -0.4872162 0.4618911 0.4872162 0.4618911 0.4872162 0.5381089 -0.4872162
2512 0.5165789 -0.4883286 0.4834211 0.4883286 0.4834211 0.4883286 0.5165789 -0.4883286
2627 0.4950005 -0.4885081 0.5049995 0.4885081 0.5049995 0.4885081 0.4950005 -0.4885081
2748 0.4734559 -0.4877553 0.5265441 0.4877553 0.5265441 0.4877553 0.4734559 -0.4877553
2873 0.4520258 -0.4860797 0.5479742 0.4860797 0.5479742 0.4860797 0.4520258 -0.4860797
3005 0.4307894 -0.4834993 0.5692106 0.4834993 0.5692106 0.4834993 0.4307894 -0.4834993
3143 0.4098220 -0.4800403 0.5901780 0.4800403 0.5901780 0.4800403 0.4098220 -0.4800403
3287 0.3891952 -0.4757365 0.6108048 0.4757365 0.6108048 0.4757365 0.3891952 -0.4757365
3437 0.3689749 -0.4706282 0.6310251 0.4706282 0.6310251 0.4706282 0.3689749 -0.4706282
3594 0.3492214 -0.4647617 0.6507786 0.4647617 0.6507786 0.4647617 0.3492214 -0.4647617
3759 0.3299884 -0.4581879 0.6700116 0.4581879 0.6700116 0.4581879 0.3299884 -0.4581879
3931 0.3113229 -0.4509616 0.6886771 0.4509616 0.6886771 0.4509616 0.3113229 -0.4509616
4111 0.2932648 -0.4431403 0.7067352 0.4431403 0.7067352 0.4431403 0.2932648 -0.4431403
4299 0.2758470 -0.4347834 0.7241530 0.4347834 0.7241530 0.4347834 0.2758470 -0.4347834
4496 0.2590953 -0.4259510 0.7409047 0.4259510 0.7409047 0.4259510 0.2590953 -0.4259510
4702 0.2430291 -0.4167034 0.7569709 0.4167034 0.7569709 0.4167034 0.2430291 -0.4167034
4918 0.2276612 -0.4070999 0.7723388 0.4070999 0.7723388 0.4070999 0.2276612 -0.4070999
5143 0.2129987 -0.3971985 0.7870013 0.3971985 0.7870013 0.3971985 0.2129987 -0.3971985
5378 0.1990430 -0.3870550 0.8009570 0.3870550 0.8009570 0.3870550 0.1990430 -0.3870550
5625 0.1857909 -0.3767232 0.8142091 0.3767232 0.8142091 0.3767232 0.1857909 -0.3767232
5882 0.1732346 -0.3662534 0.8267654 0.3662534 0.8267654 0.3662534 0.1732346 -0.3662534
6151 0.1613625 -0.3556935 0.8386375 0.3556935 0.8386375 0.3556935 0.1613625 -0.3556935
6433 0.1501598 -0.3450875 0.8498402 0.3450875 0.8498402 0.3450875 0.1501598 -0.3450875
6728 0.1396087 -0.3344765 0.8603913 0.3344765 0.8603913 0.3344765 0.1396087 -0.3344765
7036 0.1296894 -0.3238978 0.8703106 0.3238978 0.8703106 0.3238978 0.1296894 -0.3238978
7358 0.1203800 -0.3133855 0.8796200 0.3133855 0.8796200 0.3133855 0.1203800 -0.3133855
7695 0.1116571 -0.3029703 0.8883429 0.3029703 0.8883429 0.3029703 0.1116571 -0.3029703
8047 0.1034964 -0.2926794 0.8965036 0.2926794 0.8965036 0.2926794 0.1034964 -0.2926794
8416 0.0958728 -0.2825372 0.9041272 0.2825372 0.9041272 0.2825372 0.0958728 -0.2825372
8801 0.0887609 -0.2725646 0.9112391 0.2725646 0.9112391 0.2725646 0.0887609 -0.2725646
9204 0.0821348 -0.2627801 0.9178652 0.2627801 0.9178652 0.2627801 0.0821348 -0.2627801
9626 0.0759690 -0.2531992 0.9240310 0.2531992 0.9240310 0.2531992 0.0759690 -0.2531992
10066 0.0702382 -0.2438349 0.9297618 0.2438349 0.9297618 0.2438349 0.0702382 -0.2438349
10527 0.0649174 -0.2346982 0.9350826 0.2346982 0.9350826 0.2346982 0.0649174 -0.2346982
11009 0.0599822 -0.2257974 0.9400178 0.2257974 0.9400178 0.2257974 0.0599822 -0.2257974
11514 0.0554092 -0.2171394 0.9445908 0.2171394 0.9445908 0.2171394 0.0554092 -0.2171394
12041 0.0511754 -0.2087288 0.9488246 0.2087288 0.9488246 0.2087288 0.0511754 -0.2087288
12592 0.0472588 -0.2005690 0.9527412 0.2005690 0.9527412 0.2005690 0.0472588 -0.2005690
13169 0.0436383 -0.1926616 0.9563617 0.1926616 0.9563617 0.1926616 0.0436383 -0.1926616
13772 0.0402940 -0.1850071 0.9597060 0.1850071 0.9597060 0.1850071 0.0402940 -0.1850071
14402 0.0372065 -0.1776049 0.9627935 0.1776049 0.9627935 0.1776049 0.0372065 -0.1776049
15062 0.0343577 -0.1704533 0.9656423 0.1704533 0.9656423 0.1704533 0.0343577 -0.1704533
15752 0.0317306 -0.1635495 0.9682694 0.1635495 0.9682694 0.1635495 0.0317306 -0.1635495
16473 0.0293087 -0.1568904 0.9706913 0.1568904 0.9706913 0.1568904 0.0293087 -0.1568904
17227 0.0270770 -0.1504719 0.9729230 0.1504719 0.9729230 0.1504719 0.0270770 -0.1504719
18016 0.0250211 -0.1442894 0.9749789 0.1442894 0.9749789 0.1442894 0.0250211 -0.1442894
18841 0.0231276 -0.1383380 0.9768724 0.1383380 0.9768724 0.1383380 0.0231276 -0.1383380
19704 0.0213839 -0.1326121 0.9786161 0.1326121 0.9786161 0.1326121 0.0213839 -0.1326121
20606 0.0197783 -0.1271062 0.9802217 0.1271062 0.9802217 0.1271062 0.0197783 -0.1271062
21550 0.0183000 -0.1218142 0.9817000 0.1218142 0.9817000 0.1218142 0.0183000 -0.1218142
22537 0.0169388 -0.1167300 0.9830612 0.1167300 0.9830612 0.1167300 0.0169388 -0.1167300
23569 0.0156853 -0.1118474 0.9843147 0.1118474 0.9843147 0.1118474 0.0156853 -0.1118474
24648 0.0145307 -0.1071601 0.9854693 0.1071601 0.9854693 0.1071601 0.0145307 -0.1071601
25777 0.0134670 -0.1026615 0.9865330 0.1026615 0.9865330 0.1026615 0.0134670 -0.1026615
26957 0.0124867 -0.0983455 0.9875133 0.0983455 0.9875133 0.0983455 0.0124867 -0.0983455
28191 0.0115830 -0.0942055 0.9884170 0.0942055 0.9884170 0.0942055 0.0115830 -0.0942055
29482 0.0107495 -0.0902353 0.9892505 0.0902353 0.9892505 0.0902353 0.0107495 -0.0902353
30832 0.0099804 -0.0864286 0.9900196 0.0864286 0.9900196 0.0864286 0.0099804 -0.0864286
32244 0.0092703 -0.0827794 0.9907297 0.0827794 0.9907297 0.0827794 0.0092703 -0.0827794
33721 0.0086143 -0.0792815 0.9913857 0.0792815 0.9913857 0.0792815 0.0086143 -0.0792815
35265 0.0080078 -0.0759292 0.9919922 0.0759292 0.9919922 0.0759292 0.0080078 -0.0759292
36880 0.0074469 -0.0727165 0.9925531 0.0727165 0.9925531 0.0727165 0.0074469 -0.0727165
38569 0.0069277 -0.0696381 0.9930723 0.0696381 0.9930723 0.0696381 0.0069277 -0.0696381
40335 0.0064469 -0.0666883 0.9935531 0.0666883 0.9935531 0.0666883 0.0064469 -0.0666883
42182 0.0060012 -0.0638620 0.9939988 0.0638620 0.9939988 0.0638620 0.0060012 -0.0638620
44113 0.0055879 -0.0611540 0.9944121 0.0611540 0.9944121 0.0611540 0.0055879 -0.0611540
46134 0.0052044 -0.0585595 0.9947956 0.0585595 0.9947956 0.0585595 0.0052044 -0.0585595
48246 0.0048484 -0.0560736 0.9951516 0.0560736 0.9951516 0.0560736 0.0048484 -0.0560736
50455 0.0045177 -0.0536920 0.9954823 0.0536920 0.9954823 0.0536920 0.0045177 -0.0536920
52766 0.0042104 -0.0514101 0.9957896 0.0514101 0.9957896 0.0514101 0.0042104 -0.0514101
55182 0.0039249 -0.0492238 0.9960751 0.0492238 0.9960751 0.0492238 0.0039249 -0.0492238
57709 0.0036593 -0.0471292 0.9963407 0.0471292 0.9963407 0.0471292 0.0036593 -0.0471292
60352 0.0034124 -0.0451222 0.9965876 0.0451222 0.9965876 0.0451222 0.0034124 -0.0451222
63115 0.0031829 -0.0431994 0.9968171 0.0431994 0.9968171 0.0431994 0.0031829 -0.0431994
66005 0.0029694 -0.0413571 0.9970306 0.0413571 0.9970306 0.0413571 0.0029694 -0.0413571
69028 0.0027709 -0.0395920 0.9972291 0.0395920 0.9972291 0.0395920 0.0027709 -0.0395920
72189 0.0025864 -0.0379009 0.9974136 0.0379009 0.9974136 0.0379009 0.0025864 -0.0379009
75495 0.0024149 -0.0362807 0.9975851 0.0362807 0.9975851 0.0362807 0.0024149 -0.0362807
78952 0.0022555 -0.0347286 0.9977445 0.0347286 0.9977445 0.0347286 0.0022555 -0.0347286
82567 0.0021075 -0.0332417 0.9978925 0.0332417 0.9978925 0.0332417 0.0021075 -0.0332417
86348 0.0019701 -0.0318173 0.9980299 0.0318173 0.9980299 0.0318173 0.0019701 -0.0318173
90302 0.0018425 -0.0304530 0.9981575 0.0304530 0.9981575 0.0304530 0.0018425 -0.0304530
94437 0.0017242 -0.0291461 0.9982758 0.0291461 0.9982758 0.0291461 0.0017242 -0.0291461
98762 0.0016145 -0.0278945 0.9983855 0.0278945 0.9983855 0.0278945 0.0016145 -0.0278945
103284 0.0015127 -0.0266958 0.9984873 0.0266958 0.9984873 0.0266958 0.0015127 -0.0266958
108014 0.0014185 -0.0255479 0.9985815 0.0255479 0.9985815 0.0255479 0.0014185 -0.0255479
112960 0.0013312 -0.0244488 0.9986688 0.0244488 0.9986688 0.0244488 0.0013312 -0.0244488
118133 0.0012503 -0.0233963 0.9987497 0.0233963 0.9987497 0.0233963 0.0012503 -0.0233963
123542 0.0011754 -0.0223887 0.9988246 0.0223887 0.9988246 0.0223887 0.0011754 -0.0223887
129199 0.0011061 -0.0214241 0.9988939 0.0214241 0.9988939 0.0214241 0.0011061 -0.0214241
135116 0.0010420 -0.0205007 0.9989580 0.0205007 0.9989580 0.0205007 0.0010420 -0.0205007
141303 0.0009826 -0.0196168 0.9990174 0.0196168 0.9990174 0.0196168 0.0009826 -0.0196168
147774 0.0009277 -0.0187709 0.9990723 0.0187709 0.9990723 0.0187709 0.0009277 -0.0187709
154540 0.0008768 -0.0179613 0.9991232 0.0179613 0.9991232 0.0179613 0.0008768 -0.0179613
161617 0.0008297 -0.0171865 0.9991703 0.0171865 0.9991703 0.0171865 0.0008297 -0.0171865
169018 0.0007860 -0.0164452 0.9992140 0.0164452 0.9992140 0.0164452 0.0007860 -0.0164452
176758 0.0007456 -0.0157358 0.9992544 0.0157358 0.9992544 0.0157358 0.0007456 -0.0157358
184852 0.0007080 -0.0150570 0.9992920 0.0150570 0.9992920 0.0150570 0.0007080 -0.0150570
193316 0.0006731 -0.0144076 0.9993269 0.0144076 0.9993269 0.0144076 0.0006731 -0.0144076
202169 0.0006407 -0.0137864 0.9993593 0.0137864 0.9993593 0.0137864 0.0006407 -0.0137864
211427 0.0006105 -0.0131920 0.9993895 0.0131920 0.9993895 0.0131920 0.0006105 -0.0131920
221108 0.0005823 -0.0126235 0.9994177 0.0126235 0.9994177 0.0126235 0.0005823 -0.0126235
231233 0.0005560 -0.0120796 0.9994440 0.0120796 0.9994440 0.0120796 0.0005560 -0.0120796
241822 0.0005314 -0.0115593 0.9994686 0.0115593 0.9994686 0.0115593 0.0005314 -0.0115593
252896 0.0005083 -0.0110616 0.9994917 0.0110616 0.9994917 0.0110616 0.0005083 -0.0110616
264476 0.0004866 -0.0105855 0.9995134 0.0105855 0.9995134 0.0105855 0.0004866 -0.0105855
276587 0.0004662 -0.0101300 0.9995338 0.0101300 0.9995338 0.0101300 0.0004662 -0.0101300
289253 0.0004469 -0.0096944 0.9995531 0.0096944 0.9995531 0.0096944 0.0004469 -0.0096944
302498 0.0004287 -0.0092776 0.9995713 0.0092776 0.9995713 0.0092776 0.0004287 -0.0092776
316350 0.0004115 -0.0088788 0.9995885 0.0088788 0.9995885 0.0088788 0.0004115 -0.0088788
330837 0.0003951 -0.0084974 0.9996049 0.0084974 0.9996049 0.0084974 0.0003951 -0.0084974
345986 0.0003795 -0.0081324 0.9996205 0.0081324 0.9996205 0.0081324 0.0003795 -0.0081324
361830 0.0003646 -0.0077831 0.9996354 0.0077831 0.9996354 0.0077831 0.0003646 -0.0077831
378399 0.0003504 -0.0074489 0.9996496 0.0074489 0.9996496 0.0074489 0.0003504 -0.0074489
395726 0.0003368 -0.0071291 0.9996632 0.0071291 0.9996632 0.0071291 0.0003368 -0.0071291
413847 0.0003237 -0.0068229 0.9996763 0.0068229 0.9996763 0.0068229 0.0003237 -0.0068229
432798 0.0003112 -0.0065299 0.9996888 0.0065299 0.9996888 0.0065299 0.0003112 -0.0065299
452617 0.0002992 -0.0062494 0.9997008 0.0062494 0.9997008 0.0062494 0.0002992 -0.0062494
473344 0.0002877 -0.0059809 0.9997123 0.0059809 0.9997123 0.0059809 0.0002877 -0.0059809
495019 0.0002766 -0.0057237 0.9997234 0.0057237 0.9997234 0.0057237 0.0002766 -0.0057237
517687 0.0002660 -0.0054775 0.9997340 0.0054775 0.9997340 0.0054775 0.0002660 -0.0054775
541393 0.0002558 -0.0052417 0.9997442 0.0052417 0.9997442 0.0052417 0.0002558 -0.0052417
566185 0.0002460 -0.0050158 0.9997540 0.0050158 0.9997540 0.0050158 0.0002460 -0.0050158
592111 0.0002366 -0.0047995 0.9997634 0.0047995 0.9997634 0.0047995 0.0002366 -0.0047995
619225 0.0002276 -0.0045923 0.9997724 0.0045923 0.9997724 0.0045923 0.0002276 -0.0045923
647581 0.0002190 -0.0043937 0.9997810 0.0043937 0.9997810 0.0043937 0.0002190 -0.0043937
677235 0.0002108 -0.0042035 0.9997892 0.0042035 0.9997892 0.0042035 0.0002108 -0.0042035
708247 0.0002030 -0.0040212 0.9997970 0.0040212 0.9997970 0.0040212 0.0002030 -0.0040212
740679 0.0001955 -0.0038466 0.9998045 0.0038466 0.9998045 0.0038466 0.0001955 -0.0038466
774597 0.0001885 -0.0036792 0.9998115 0.0036792 0.9998115 0.0036792 0.0001885 -0.0036792
810067 0.0001817 -0.0035188 0.9998183 0.0035188 0.9998183 0.0035188 0.0001817 -0.0035188
847162 0.0001754 -0.0033650 0.9998246 0.0033650 0.9998246 0.0033650 0.0001754 -0.0033650
885955 0.0001694 -0.0032177 0.9998306 0.0032177 0.9998306 0.0032177 0.0001694 -0.0032177
926525 0.0001637 -0.0030764 0.9998363 0.0030764 0.9998363 0.0030764 0.0001637 -0.0030764
968953 0.0001584 -0.0029411 0.9998416 0.0029411 0.9998416 0.0029411 0.0001584 -0.0029411
1013323 0.0001533 -0.0028113 0.9998467 0.0028113 0.9998467 0.0028113 0.0001533 -0.0028113
1059725 0.0001486 -0.0026869 0.9998514 0.0026869 0.9998514 0.0026869 0.0001486 -0.0026869
1108252 0.0001442 -0.0025677 0.9998558 0.0025677 0.9998558 0.0025677 0.0001442 -0.0025677
1159002 0.0001401 -0.0024534 0.9998599 0.0024534 0.9998599 0.0024534 0.0001401 -0.0024534
1212075 0.0001362 -0.0023437 0.9998638 0.0023437 0.9998638 0.0023437 0.0001362 -0.0023437
1267578 0.0001326 -0.0022387 0.9998674 0.0022387 0.9998674 0.0022387 0.0001326 -0.0022387
1325623 0.0001292 -0.0021379 0.9998708 0.0021379 0.9998708 0.0021379 0.0001292 -0.0021379
1386327 0.0001261 -0.0020412 0.9998739 0.0020412 0.9998739 0.0020412 0.0001261 -0.0020412
1449809 0.0001232 -0.0019486 0.9998768 0.0019486 0.9998768 0.0019486 0.0001232 -0.0019486
1516199 0.0001205 -0.0018597 0.9998795 0.0018597 0.9998795 0.0018597 0.0001205 -0.0018597
1585629 0.0001180 -0.0017744 0.9998820 0.0017744 0.9998820 0.0017744 0.0001180 -0.0017744
1658239 0.0001156 -0.0016925 0.9998844 0.0016925 0.9998844 0.0016925 0.0001156 -0.0016925
1734173 0.0001135 -0.0016140 0.9998865 0.0016140 0.9998865 0.0016140 0.0001135 -0.0016140
1813585 0.0001115 -0.0015386 0.9998885 0.0015386 0.9998885 0.0015386 0.0001115 -0.0015386
1896632 0.0001096 -0.0014662 0.9998904 0.0014662 0.9998904 0.0014662 0.0001096 -0.0014662
1983483 0.0001079 -0.0013967 0.9998921 0.0013967 0.9998921 0.0013967 0.0001079 -0.0013967
2074311 0.0001063 -0.0013299 0.9998937 0.0013299 0.9998937 0.0013299 0.0001063 -0.0013299
