!Murata Part Number: GRM188R7YA474KE05
!These Parameters are Measured in Series Mode Connection
!Data Generated on Mar 30, 2021
!       o--ll--o
!Port1            Port2
!       o------o
!Operation Temp=25[degC], DC Bias Voltage=0[V]
!Freq. Start=100[Hz] Stop=6[GHz] 401[Steps]
# Hz S RI R 50
!Freq.(Hz) S11(Real) S11(Imag) S21(Real) S21(Imag) S12(Real) S12(Imag) S22(Real) S22(Imag)
100 0.9990450 -0.0232927 0.0009550 0.0232927 0.0009550 0.0232927 0.9990450 -0.0232927
105 0.9989760 -0.0243451 0.0010240 0.0243451 0.0010240 0.0243451 0.9989760 -0.0243451
109 0.9989014 -0.0254450 0.0010986 0.0254450 0.0010986 0.0254450 0.9989014 -0.0254450
114 0.9988206 -0.0265944 0.0011794 0.0265944 0.0011794 0.0265944 0.9988206 -0.0265944
120 0.9987332 -0.0277955 0.0012668 0.0277955 0.0012668 0.0277955 0.9987332 -0.0277955
125 0.9986386 -0.0290505 0.0013614 0.0290505 0.0013614 0.0290505 0.9986386 -0.0290505
131 0.9985362 -0.0303619 0.0014638 0.0303619 0.0014638 0.0303619 0.9985362 -0.0303619
137 0.9984253 -0.0317320 0.0015747 0.0317320 0.0015747 0.0317320 0.9984253 -0.0317320
143 0.9983051 -0.0331635 0.0016949 0.0331635 0.0016949 0.0331635 0.9983051 -0.0331635
150 0.9981751 -0.0346591 0.0018249 0.0346591 0.0018249 0.0346591 0.9981751 -0.0346591
156 0.9980342 -0.0362214 0.0019658 0.0362214 0.0019658 0.0362214 0.9980342 -0.0362214
164 0.9978817 -0.0378534 0.0021183 0.0378534 0.0021183 0.0378534 0.9978817 -0.0378534
171 0.9977165 -0.0395582 0.0022835 0.0395582 0.0022835 0.0395582 0.9977165 -0.0395582
179 0.9975377 -0.0413389 0.0024623 0.0413389 0.0024623 0.0413389 0.9975377 -0.0413389
187 0.9973440 -0.0431989 0.0026560 0.0431989 0.0026560 0.0431989 0.9973440 -0.0431989
196 0.9971343 -0.0451414 0.0028657 0.0451414 0.0028657 0.0451414 0.9971343 -0.0451414
205 0.9969072 -0.0471702 0.0030928 0.0471702 0.0030928 0.0471702 0.9969072 -0.0471702
214 0.9966612 -0.0492890 0.0033388 0.0492890 0.0033388 0.0492890 0.9966612 -0.0492890
224 0.9963948 -0.0515017 0.0036052 0.0515017 0.0036052 0.0515017 0.9963948 -0.0515017
234 0.9961062 -0.0538123 0.0038938 0.0538123 0.0038938 0.0538123 0.9961062 -0.0538123
245 0.9957934 -0.0562250 0.0042066 0.0562250 0.0042066 0.0562250 0.9957934 -0.0562250
256 0.9954545 -0.0587443 0.0045455 0.0587443 0.0045455 0.0587443 0.9954545 -0.0587443
268 0.9950871 -0.0613747 0.0049129 0.0613747 0.0049129 0.0613747 0.9950871 -0.0613747
280 0.9946887 -0.0641208 0.0053113 0.0641208 0.0053113 0.0641208 0.9946887 -0.0641208
293 0.9942566 -0.0669877 0.0057434 0.0669877 0.0057434 0.0669877 0.9942566 -0.0669877
306 0.9937879 -0.0699803 0.0062121 0.0699803 0.0062121 0.0699803 0.9937879 -0.0699803
320 0.9932792 -0.0731039 0.0067208 0.0731039 0.0067208 0.0731039 0.9932792 -0.0731039
335 0.9927270 -0.0763638 0.0072730 0.0763638 0.0072730 0.0763638 0.9927270 -0.0763638
350 0.9921275 -0.0797656 0.0078725 0.0797656 0.0078725 0.0797656 0.9921275 -0.0797656
366 0.9914764 -0.0833150 0.0085236 0.0833150 0.0085236 0.0833150 0.9914764 -0.0833150
383 0.9907690 -0.0870177 0.0092310 0.0870177 0.0092310 0.0870177 0.9907690 -0.0870177
401 0.9900005 -0.0908798 0.0099995 0.0908798 0.0099995 0.0908798 0.9900005 -0.0908798
419 0.9891652 -0.0949072 0.0108348 0.0949072 0.0108348 0.0949072 0.9891652 -0.0949072
438 0.9882574 -0.0991061 0.0117426 0.0991061 0.0117426 0.0991061 0.9882574 -0.0991061
458 0.9872706 -0.1034828 0.0127294 0.1034828 0.0127294 0.1034828 0.9872706 -0.1034828
479 0.9861978 -0.1080435 0.0138022 0.1080435 0.0138022 0.1080435 0.9861978 -0.1080435
501 0.9850315 -0.1127945 0.0149685 0.1127945 0.0149685 0.1127945 0.9850315 -0.1127945
524 0.9837637 -0.1177421 0.0162363 0.1177421 0.0162363 0.1177421 0.9837637 -0.1177421
548 0.9823856 -0.1228925 0.0176144 0.1228925 0.0176144 0.1228925 0.9823856 -0.1228925
573 0.9808876 -0.1282521 0.0191124 0.1282521 0.0191124 0.1282521 0.9808876 -0.1282521
600 0.9792598 -0.1338267 0.0207402 0.1338267 0.0207402 0.1338267 0.9792598 -0.1338267
627 0.9774912 -0.1396224 0.0225088 0.1396224 0.0225088 0.1396224 0.9774912 -0.1396224
656 0.9755701 -0.1456447 0.0244299 0.1456447 0.0244299 0.1456447 0.9755701 -0.1456447
686 0.9734839 -0.1518991 0.0265161 0.1518991 0.0265161 0.1518991 0.9734839 -0.1518991
717 0.9712193 -0.1583906 0.0287807 0.1583906 0.0287807 0.1583906 0.9712193 -0.1583906
750 0.9687620 -0.1651239 0.0312380 0.1651239 0.0312380 0.1651239 0.9687620 -0.1651239
784 0.9660967 -0.1721028 0.0339033 0.1721028 0.0339033 0.1721028 0.9660967 -0.1721028
820 0.9632073 -0.1793310 0.0367927 0.1793310 0.0367927 0.1793310 0.9632073 -0.1793310
858 0.9600766 -0.1868111 0.0399234 0.1868111 0.0399234 0.1868111 0.9600766 -0.1868111
897 0.9566862 -0.1945450 0.0433138 0.1945450 0.0433138 0.1945450 0.9566862 -0.1945450
938 0.9530171 -0.2025337 0.0469829 0.2025337 0.0469829 0.2025337 0.9530171 -0.2025337
981 0.9490489 -0.2107769 0.0509511 0.2107769 0.0509511 0.2107769 0.9490489 -0.2107769
1026 0.9447604 -0.2192732 0.0552396 0.2192732 0.0552396 0.2192732 0.9447604 -0.2192732
1073 0.9401292 -0.2280196 0.0598708 0.2280196 0.0598708 0.2280196 0.9401292 -0.2280196
1122 0.9351321 -0.2370117 0.0648679 0.2370117 0.0648679 0.2370117 0.9351321 -0.2370117
1174 0.9297449 -0.2462433 0.0702551 0.2462433 0.0702551 0.2462433 0.9297449 -0.2462433
1227 0.9239425 -0.2557059 0.0760575 0.2557059 0.0760575 0.2557059 0.9239425 -0.2557059
1283 0.9176993 -0.2653892 0.0823007 0.2653892 0.0823007 0.2653892 0.9176993 -0.2653892
1342 0.9109888 -0.2752801 0.0890112 0.2752801 0.0890112 0.2752801 0.9109888 -0.2752801
1404 0.9037843 -0.2853631 0.0962157 0.2853631 0.0962157 0.2853631 0.9037843 -0.2853631
1468 0.8960587 -0.2956198 0.1039413 0.2956198 0.1039413 0.2956198 0.8960587 -0.2956198
1535 0.8877851 -0.3060286 0.1122149 0.3060286 0.1122149 0.3060286 0.8877851 -0.3060286
1606 0.8789367 -0.3165645 0.1210633 0.3165645 0.1210633 0.3165645 0.8789367 -0.3165645
1679 0.8694876 -0.3271992 0.1305124 0.3271992 0.1305124 0.3271992 0.8694876 -0.3271992
1756 0.8594127 -0.3379008 0.1405873 0.3379008 0.1405873 0.3379008 0.8594127 -0.3379008
1836 0.8486888 -0.3486332 0.1513112 0.3486332 0.1513112 0.3486332 0.8486888 -0.3486332
1920 0.8372944 -0.3593568 0.1627056 0.3593568 0.1627056 0.3593568 0.8372944 -0.3593568
2008 0.8252107 -0.3700280 0.1747893 0.3700280 0.1747893 0.3700280 0.8252107 -0.3700280
2100 0.8124220 -0.3805994 0.1875780 0.3805994 0.1875780 0.3805994 0.8124220 -0.3805994
2196 0.7989165 -0.3910201 0.2010835 0.3910201 0.2010835 0.3910201 0.7989165 -0.3910201
2297 0.7846868 -0.4012354 0.2153132 0.4012354 0.2153132 0.4012354 0.7846868 -0.4012354
2402 0.7697303 -0.4111881 0.2302697 0.4111881 0.2302697 0.4111881 0.7697303 -0.4111881
2512 0.7540505 -0.4208182 0.2459495 0.4208182 0.2459495 0.4208182 0.7540505 -0.4208182
2627 0.7376568 -0.4300637 0.2623432 0.4300637 0.2623432 0.4300637 0.7376568 -0.4300637
2748 0.7205653 -0.4388616 0.2794347 0.4388616 0.2794347 0.4388616 0.7205653 -0.4388616
2873 0.7027996 -0.4471484 0.2972004 0.4471484 0.2972004 0.4471484 0.7027996 -0.4471484
3005 0.6843904 -0.4548614 0.3156096 0.4548614 0.3156096 0.4548614 0.6843904 -0.4548614
3143 0.6653760 -0.4619393 0.3346240 0.4619393 0.3346240 0.4619393 0.6653760 -0.4619393
3287 0.6458024 -0.4683238 0.3541976 0.4683238 0.3541976 0.4683238 0.6458024 -0.4683238
3437 0.6257227 -0.4739601 0.3742773 0.4739601 0.3742773 0.4739601 0.6257227 -0.4739601
3594 0.6051970 -0.4787985 0.3948030 0.4787985 0.3948030 0.4787985 0.6051970 -0.4787985
3759 0.5842919 -0.4827953 0.4157081 0.4827953 0.4157081 0.4827953 0.5842919 -0.4827953
3931 0.5630792 -0.4859135 0.4369208 0.4859135 0.4369208 0.4859135 0.5630792 -0.4859135
4111 0.5416355 -0.4881243 0.4583645 0.4881243 0.4583645 0.4881243 0.5416355 -0.4881243
4299 0.5200409 -0.4894068 0.4799591 0.4894068 0.4799591 0.4894068 0.5200409 -0.4894068
4496 0.4983776 -0.4897493 0.5016224 0.4897493 0.5016224 0.4897493 0.4983776 -0.4897493
4702 0.4767289 -0.4891494 0.5232711 0.4891494 0.5232711 0.4891494 0.4767289 -0.4891494
4918 0.4551776 -0.4876135 0.5448224 0.4876135 0.5448224 0.4876135 0.4551776 -0.4876135
5143 0.4338050 -0.4851574 0.5661950 0.4851574 0.5661950 0.4851574 0.4338050 -0.4851574
5378 0.4126894 -0.4818055 0.5873106 0.4818055 0.5873106 0.4818055 0.4126894 -0.4818055
5625 0.3919052 -0.4775901 0.6080948 0.4775901 0.6080948 0.4775901 0.3919052 -0.4775901
5882 0.3715215 -0.4725509 0.6284785 0.4725509 0.6284785 0.4725509 0.3715215 -0.4725509
6151 0.3516018 -0.4667338 0.6483982 0.4667338 0.6483982 0.4667338 0.3516018 -0.4667338
6433 0.3322028 -0.4601904 0.6677972 0.4601904 0.6677972 0.4601904 0.3322028 -0.4601904
6728 0.3133743 -0.4529763 0.6866257 0.4529763 0.6866257 0.4529763 0.3133743 -0.4529763
7036 0.2951586 -0.4451504 0.7048414 0.4451504 0.7048414 0.4451504 0.2951586 -0.4451504
7358 0.2775908 -0.4367738 0.7224092 0.4367738 0.7224092 0.4367738 0.2775908 -0.4367738
7695 0.2606985 -0.4279087 0.7393015 0.4279087 0.7393015 0.4279087 0.2606985 -0.4279087
8047 0.2445021 -0.4186174 0.7554979 0.4186174 0.7554979 0.4186174 0.2445021 -0.4186174
8416 0.2290154 -0.4089615 0.7709846 0.4089615 0.7709846 0.4089615 0.2290154 -0.4089615
8801 0.2142458 -0.3990012 0.7857542 0.3990012 0.7857542 0.3990012 0.2142458 -0.3990012
9204 0.2001947 -0.3887945 0.7998053 0.3887945 0.7998053 0.3887945 0.2001947 -0.3887945
9626 0.1868585 -0.3783968 0.8131415 0.3783968 0.8131415 0.3783968 0.1868585 -0.3783968
10066 0.1742287 -0.3678604 0.8257713 0.3678604 0.8257713 0.3678604 0.1742287 -0.3678604
10527 0.1622930 -0.3572343 0.8377070 0.3572343 0.8377070 0.3572343 0.1622930 -0.3572343
11009 0.1510356 -0.3465640 0.8489644 0.3465640 0.8489644 0.3465640 0.1510356 -0.3465640
11514 0.1404375 -0.3358913 0.8595625 0.3358913 0.8595625 0.3358913 0.1404375 -0.3358913
12041 0.1304778 -0.3252543 0.8695222 0.3252543 0.8695222 0.3252543 0.1304778 -0.3252543
12592 0.1211336 -0.3146874 0.8788664 0.3146874 0.8788664 0.3146874 0.1211336 -0.3146874
13169 0.1123805 -0.3042214 0.8876195 0.3042214 0.8876195 0.3042214 0.1123805 -0.3042214
13772 0.1041931 -0.2938838 0.8958069 0.2938838 0.8958069 0.2938838 0.1041931 -0.2938838
14402 0.0965456 -0.2836987 0.9034544 0.2836987 0.9034544 0.2836987 0.0965456 -0.2836987
15062 0.0894117 -0.2736869 0.9105883 0.2736869 0.9105883 0.2736869 0.0894117 -0.2736869
15752 0.0827652 -0.2638664 0.9172348 0.2638664 0.9172348 0.2638664 0.0827652 -0.2638664
16473 0.0765798 -0.2542527 0.9234202 0.2542527 0.9234202 0.2542527 0.0765798 -0.2542527
17227 0.0708299 -0.2448583 0.9291701 0.2448583 0.9291701 0.2448583 0.0708299 -0.2448583
18016 0.0654902 -0.2356936 0.9345098 0.2356936 0.9345098 0.2356936 0.0654902 -0.2356936
18841 0.0605363 -0.2267670 0.9394637 0.2267670 0.9394637 0.2267670 0.0605363 -0.2267670
19704 0.0559443 -0.2180846 0.9440557 0.2180846 0.9440557 0.2180846 0.0559443 -0.2180846
20606 0.0516914 -0.2096511 0.9483086 0.2096511 0.9483086 0.2096511 0.0516914 -0.2096511
21550 0.0477555 -0.2014693 0.9522445 0.2014693 0.9522445 0.2014693 0.0477555 -0.2014693
22537 0.0441156 -0.1935409 0.9558844 0.1935409 0.9558844 0.1935409 0.0441156 -0.1935409
23569 0.0407516 -0.1858661 0.9592484 0.1858661 0.9592484 0.1858661 0.0407516 -0.1858661
24648 0.0376444 -0.1784439 0.9623556 0.1784439 0.9623556 0.1784439 0.0376444 -0.1784439
25777 0.0347759 -0.1712727 0.9652241 0.1712727 0.9652241 0.1712727 0.0347759 -0.1712727
26957 0.0321290 -0.1643496 0.9678710 0.1643496 0.9678710 0.1643496 0.0321290 -0.1643496
28191 0.0296875 -0.1576714 0.9703125 0.1576714 0.9703125 0.1576714 0.0296875 -0.1576714
29482 0.0274362 -0.1512338 0.9725638 0.1512338 0.9725638 0.1512338 0.0274362 -0.1512338
30832 0.0253610 -0.1450323 0.9746390 0.1450323 0.9746390 0.1450323 0.0253610 -0.1450323
32244 0.0234484 -0.1390618 0.9765516 0.1390618 0.9765516 0.1390618 0.0234484 -0.1390618
33721 0.0216860 -0.1333169 0.9783140 0.1333169 0.9783140 0.1333169 0.0216860 -0.1333169
35265 0.0200621 -0.1277919 0.9799379 0.1277919 0.9799379 0.1277919 0.0200621 -0.1277919
36880 0.0185658 -0.1224808 0.9814342 0.1224808 0.9814342 0.1224808 0.0185658 -0.1224808
38569 0.0171871 -0.1173775 0.9828129 0.1173775 0.9828129 0.1173775 0.0171871 -0.1173775
40335 0.0159165 -0.1124756 0.9840835 0.1124756 0.9840835 0.1124756 0.0159165 -0.1124756
42182 0.0147454 -0.1077689 0.9852546 0.1077689 0.9852546 0.1077689 0.0147454 -0.1077689
44113 0.0136658 -0.1032510 0.9863342 0.1032510 0.9863342 0.1032510 0.0136658 -0.1032510
46134 0.0126702 -0.0989155 0.9873298 0.0989155 0.9873298 0.0989155 0.0126702 -0.0989155
48246 0.0117518 -0.0947560 0.9882482 0.0947560 0.9882482 0.0947560 0.0117518 -0.0947560
50455 0.0109042 -0.0907662 0.9890958 0.0907662 0.9890958 0.0907662 0.0109042 -0.0907662
52766 0.0101217 -0.0869399 0.9898783 0.0869399 0.9898783 0.0869399 0.0101217 -0.0869399
55182 0.0093990 -0.0832710 0.9906010 0.0832710 0.9906010 0.0832710 0.0093990 -0.0832710
57709 0.0087312 -0.0797535 0.9912688 0.0797535 0.9912688 0.0797535 0.0087312 -0.0797535
60352 0.0081137 -0.0763815 0.9918863 0.0763815 0.9918863 0.0763815 0.0081137 -0.0763815
63115 0.0075426 -0.0731493 0.9924574 0.0731493 0.9924574 0.0731493 0.0075426 -0.0731493
66005 0.0070140 -0.0700514 0.9929860 0.0700514 0.9929860 0.0700514 0.0070140 -0.0700514
69028 0.0065247 -0.0670824 0.9934753 0.0670824 0.9934753 0.0670824 0.0065247 -0.0670824
72189 0.0060714 -0.0642370 0.9939286 0.0642370 0.9939286 0.0642370 0.0060714 -0.0642370
75495 0.0056514 -0.0615103 0.9943486 0.0615103 0.9943486 0.0615103 0.0056514 -0.0615103
78952 0.0052621 -0.0588973 0.9947379 0.0588973 0.9947379 0.0588973 0.0052621 -0.0588973
82567 0.0049012 -0.0563934 0.9950988 0.0563934 0.9950988 0.0563934 0.0049012 -0.0563934
86348 0.0045665 -0.0539942 0.9954335 0.0539942 0.9954335 0.0539942 0.0045665 -0.0539942
90302 0.0042560 -0.0516952 0.9957440 0.0516952 0.9957440 0.0516952 0.0042560 -0.0516952
94437 0.0039679 -0.0494925 0.9960321 0.0494925 0.9960321 0.0494925 0.0039679 -0.0494925
98762 0.0037007 -0.0473819 0.9962993 0.0473819 0.9962993 0.0473819 0.0037007 -0.0473819
103284 0.0034529 -0.0453598 0.9965471 0.0453598 0.9965471 0.0453598 0.0034529 -0.0453598
108014 0.0032229 -0.0434224 0.9967771 0.0434224 0.9967771 0.0434224 0.0032229 -0.0434224
112960 0.0030097 -0.0415663 0.9969903 0.0415663 0.9969903 0.0415663 0.0030097 -0.0415663
118133 0.0028120 -0.0397882 0.9971880 0.0397882 0.9971880 0.0397882 0.0028120 -0.0397882
123542 0.0026286 -0.0380849 0.9973714 0.0380849 0.9973714 0.0380849 0.0026286 -0.0380849
129199 0.0024587 -0.0364533 0.9975413 0.0364533 0.9975413 0.0364533 0.0024587 -0.0364533
135116 0.0023012 -0.0348906 0.9976988 0.0348906 0.9976988 0.0348906 0.0023012 -0.0348906
141303 0.0021554 -0.0333938 0.9978446 0.0333938 0.9978446 0.0333938 0.0021554 -0.0333938
147774 0.0020202 -0.0319603 0.9979798 0.0319603 0.9979798 0.0319603 0.0020202 -0.0319603
154540 0.0018951 -0.0305876 0.9981049 0.0305876 0.9981049 0.0305876 0.0018951 -0.0305876
161617 0.0017793 -0.0292731 0.9982207 0.0292731 0.9982207 0.0292731 0.0017793 -0.0292731
169018 0.0016721 -0.0280145 0.9983279 0.0280145 0.9983279 0.0280145 0.0016721 -0.0280145
176758 0.0015729 -0.0268095 0.9984271 0.0268095 0.9984271 0.0268095 0.0015729 -0.0268095
184852 0.0014810 -0.0256559 0.9985190 0.0256559 0.9985190 0.0256559 0.0014810 -0.0256559
193316 0.0013960 -0.0245516 0.9986040 0.0245516 0.9986040 0.0245516 0.0013960 -0.0245516
202169 0.0013173 -0.0234945 0.9986827 0.0234945 0.9986827 0.0234945 0.0013173 -0.0234945
211427 0.0012445 -0.0224828 0.9987555 0.0224828 0.9987555 0.0224828 0.0012445 -0.0224828
221108 0.0011770 -0.0215145 0.9988230 0.0215145 0.9988230 0.0215145 0.0011770 -0.0215145
231233 0.0011145 -0.0205879 0.9988855 0.0205879 0.9988855 0.0205879 0.0011145 -0.0205879
241822 0.0010566 -0.0197012 0.9989434 0.0197012 0.9989434 0.0197012 0.0010566 -0.0197012
252896 0.0010028 -0.0188527 0.9989972 0.0188527 0.9989972 0.0188527 0.0010028 -0.0188527
264476 0.0009529 -0.0180408 0.9990471 0.0180408 0.9990471 0.0180408 0.0009529 -0.0180408
276587 0.0009065 -0.0172640 0.9990935 0.0172640 0.9990935 0.0172640 0.0009065 -0.0172640
289253 0.0008633 -0.0165208 0.9991367 0.0165208 0.9991367 0.0165208 0.0008633 -0.0165208
302498 0.0008230 -0.0158098 0.9991770 0.0158098 0.9991770 0.0158098 0.0008230 -0.0158098
316350 0.0007855 -0.0151295 0.9992145 0.0151295 0.9992145 0.0151295 0.0007855 -0.0151295
330837 0.0007504 -0.0144787 0.9992496 0.0144787 0.9992496 0.0144787 0.0007504 -0.0144787
345986 0.0007176 -0.0138561 0.9992824 0.0138561 0.9992824 0.0138561 0.0007176 -0.0138561
361830 0.0006868 -0.0132605 0.9993132 0.0132605 0.9993132 0.0132605 0.0006868 -0.0132605
378399 0.0006579 -0.0126907 0.9993421 0.0126907 0.9993421 0.0126907 0.0006579 -0.0126907
395726 0.0006306 -0.0121456 0.9993694 0.0121456 0.9993694 0.0121456 0.0006306 -0.0121456
413847 0.0006050 -0.0116240 0.9993950 0.0116240 0.9993950 0.0116240 0.0006050 -0.0116240
432798 0.0005807 -0.0111250 0.9994193 0.0111250 0.9994193 0.0111250 0.0005807 -0.0111250
452617 0.0005578 -0.0106475 0.9994422 0.0106475 0.9994422 0.0106475 0.0005578 -0.0106475
473344 0.0005360 -0.0101907 0.9994640 0.0101907 0.9994640 0.0101907 0.0005360 -0.0101907
495019 0.0005154 -0.0097535 0.9994846 0.0097535 0.9994846 0.0097535 0.0005154 -0.0097535
517687 0.0004957 -0.0093352 0.9995043 0.0093352 0.9995043 0.0093352 0.0004957 -0.0093352
541393 0.0004771 -0.0089348 0.9995229 0.0089348 0.9995229 0.0089348 0.0004771 -0.0089348
566185 0.0004592 -0.0085516 0.9995408 0.0085516 0.9995408 0.0085516 0.0004592 -0.0085516
592111 0.0004422 -0.0081848 0.9995578 0.0081848 0.9995578 0.0081848 0.0004422 -0.0081848
619225 0.0004260 -0.0078337 0.9995740 0.0078337 0.9995740 0.0078337 0.0004260 -0.0078337
647581 0.0004105 -0.0074976 0.9995895 0.0074976 0.9995895 0.0074976 0.0004105 -0.0074976
677235 0.0003957 -0.0071759 0.9996043 0.0071759 0.9996043 0.0071759 0.0003957 -0.0071759
708247 0.0003815 -0.0068678 0.9996185 0.0068678 0.9996185 0.0068678 0.0003815 -0.0068678
740679 0.0003680 -0.0065728 0.9996320 0.0065728 0.9996320 0.0065728 0.0003680 -0.0065728
774597 0.0003551 -0.0062903 0.9996449 0.0062903 0.9996449 0.0062903 0.0003551 -0.0062903
810067 0.0003427 -0.0060198 0.9996573 0.0060198 0.9996573 0.0060198 0.0003427 -0.0060198
847162 0.0003309 -0.0057607 0.9996691 0.0057607 0.9996691 0.0057607 0.0003309 -0.0057607
885955 0.0003196 -0.0055126 0.9996804 0.0055126 0.9996804 0.0055126 0.0003196 -0.0055126
926525 0.0003088 -0.0052750 0.9996912 0.0052750 0.9996912 0.0052750 0.0003088 -0.0052750
968953 0.0002985 -0.0050474 0.9997015 0.0050474 0.9997015 0.0050474 0.0002985 -0.0050474
1013323 0.0002887 -0.0048294 0.9997113 0.0048294 0.9997113 0.0048294 0.0002887 -0.0048294
1059725 0.0002793 -0.0046205 0.9997207 0.0046205 0.9997207 0.0046205 0.0002793 -0.0046205
1108252 0.0002704 -0.0044204 0.9997296 0.0044204 0.9997296 0.0044204 0.0002704 -0.0044204
1159002 0.0002618 -0.0042287 0.9997382 0.0042287 0.9997382 0.0042287 0.0002618 -0.0042287
1212075 0.0002537 -0.0040451 0.9997463 0.0040451 0.9997463 0.0040451 0.0002537 -0.0040451
1267578 0.0002459 -0.0038691 0.9997541 0.0038691 0.9997541 0.0038691 0.0002459 -0.0038691
1325623 0.0002385 -0.0037005 0.9997615 0.0037005 0.9997615 0.0037005 0.0002385 -0.0037005
1386327 0.0002314 -0.0035389 0.9997686 0.0035389 0.9997686 0.0035389 0.0002314 -0.0035389
1449809 0.0002246 -0.0033841 0.9997754 0.0033841 0.9997754 0.0033841 0.0002246 -0.0033841
1516199 0.0002181 -0.0032357 0.9997819 0.0032357 0.9997819 0.0032357 0.0002181 -0.0032357
1585629 0.0002119 -0.0030934 0.9997881 0.0030934 0.9997881 0.0030934 0.0002119 -0.0030934
1658239 0.0002059 -0.0029569 0.9997941 0.0029569 0.9997941 0.0029569 0.0002059 -0.0029569
1734173 0.0002002 -0.0028261 0.9997998 0.0028261 0.9997998 0.0028261 0.0002002 -0.0028261
1813585 0.0001948 -0.0027007 0.9998052 0.0027007 0.9998052 0.0027007 0.0001948 -0.0027007
1896632 0.0001895 -0.0025803 0.9998105 0.0025803 0.9998105 0.0025803 0.0001895 -0.0025803
1983483 0.0001845 -0.0024648 0.9998155 0.0024648 0.9998155 0.0024648 0.0001845 -0.0024648
2074311 0.0001797 -0.0023540 0.9998203 0.0023540 0.9998203 0.0023540 0.0001797 -0.0023540
