!Murata Part Number: GRM185D70J475ME11
!These Parameters are Measured in Series Mode Connection
!Data Generated on Mar 30, 2021
!       o--ll--o
!Port1            Port2
!       o------o
!Operation Temp=25[degC], DC Bias Voltage=0[V]
!Freq. Start=100[Hz] Stop=6[GHz] 401[Steps]
# Hz S RI R 50
!Freq.(Hz) S11(Real) S11(Imag) S21(Real) S21(Imag) S12(Real) S12(Imag) S22(Real) S22(Imag)
100 0.9508334 -0.2061660 0.0491666 0.2061660 0.0491666 0.2061660 0.9508334 -0.2061660
105 0.9467586 -0.2145320 0.0532414 0.2145320 0.0532414 0.2145320 0.9467586 -0.2145320
109 0.9423521 -0.2231564 0.0576479 0.2231564 0.0576479 0.2231564 0.9423521 -0.2231564
114 0.9375901 -0.2320356 0.0624099 0.2320356 0.0624099 0.2320356 0.9375901 -0.2320356
120 0.9324478 -0.2411639 0.0675522 0.2411639 0.0675522 0.2411639 0.9324478 -0.2411639
125 0.9268996 -0.2505337 0.0731004 0.2505337 0.0731004 0.2505337 0.9268996 -0.2505337
131 0.9209191 -0.2601351 0.0790809 0.2601351 0.0790809 0.2601351 0.9209191 -0.2601351
137 0.9144791 -0.2699556 0.0855209 0.2699556 0.0855209 0.2699556 0.9144791 -0.2699556
143 0.9075525 -0.2799799 0.0924475 0.2799799 0.0924475 0.2799799 0.9075525 -0.2799799
150 0.9001115 -0.2901899 0.0998885 0.2901899 0.0998885 0.2901899 0.9001115 -0.2901899
156 0.8921288 -0.3005643 0.1078712 0.3005643 0.1078712 0.3005643 0.8921288 -0.3005643
164 0.8835773 -0.3110784 0.1164227 0.3110784 0.1164227 0.3110784 0.8835773 -0.3110784
171 0.8744306 -0.3217042 0.1255694 0.3217042 0.1255694 0.3217042 0.8744306 -0.3217042
179 0.8646638 -0.3324100 0.1353362 0.3324100 0.1353362 0.3324100 0.8646638 -0.3324100
187 0.8542534 -0.3431602 0.1457466 0.3431602 0.1457466 0.3431602 0.8542534 -0.3431602
196 0.8431779 -0.3539159 0.1568221 0.3539159 0.1568221 0.3539159 0.8431779 -0.3539159
205 0.8314187 -0.3646342 0.1685813 0.3646342 0.1685813 0.3646342 0.8314187 -0.3646342
214 0.8189602 -0.3752687 0.1810398 0.3752687 0.1810398 0.3752687 0.8189602 -0.3752687
224 0.8057904 -0.3857697 0.1942096 0.3857697 0.1942096 0.3857697 0.8057904 -0.3857697
234 0.7919018 -0.3960844 0.2080982 0.3960844 0.2080982 0.3960844 0.7919018 -0.3960844
245 0.7772916 -0.4061572 0.2227084 0.4061572 0.2227084 0.4061572 0.7772916 -0.4061572
256 0.7619623 -0.4159303 0.2380377 0.4159303 0.2380377 0.4159303 0.7619623 -0.4159303
268 0.7459222 -0.4253440 0.2540778 0.4253440 0.2540778 0.4253440 0.7459222 -0.4253440
280 0.7291859 -0.4343377 0.2708141 0.4343377 0.2708141 0.4343377 0.7291859 -0.4343377
293 0.7117745 -0.4428506 0.2882255 0.4428506 0.2882255 0.4428506 0.7117745 -0.4428506
306 0.6937157 -0.4508220 0.3062843 0.4508220 0.3062843 0.4508220 0.6937157 -0.4508220
320 0.6750445 -0.4581930 0.3249555 0.4581930 0.3249555 0.4581930 0.6750445 -0.4581930
335 0.6558023 -0.4649067 0.3441977 0.4649067 0.3441977 0.4649067 0.6558023 -0.4649067
350 0.6360375 -0.4709094 0.3639625 0.4709094 0.3639625 0.4709094 0.6360375 -0.4709094
366 0.6158050 -0.4761516 0.3841950 0.4761516 0.3841950 0.4761516 0.6158050 -0.4761516
383 0.5951653 -0.4805889 0.4048347 0.4805889 0.4048347 0.4805889 0.5951653 -0.4805889
401 0.5741846 -0.4841828 0.4258154 0.4841828 0.4258154 0.4841828 0.5741846 -0.4841828
419 0.5529336 -0.4869012 0.4470664 0.4869012 0.4470664 0.4869012 0.5529336 -0.4869012
438 0.5314868 -0.4887195 0.4685132 0.4887195 0.4685132 0.4887195 0.5314868 -0.4887195
458 0.5099215 -0.4896209 0.4900785 0.4896209 0.4900785 0.4896209 0.5099215 -0.4896209
479 0.4883167 -0.4895967 0.5116833 0.4895967 0.5116833 0.4895967 0.4883167 -0.4895967
501 0.4667522 -0.4886467 0.5332478 0.4886467 0.5332478 0.4886467 0.4667522 -0.4886467
524 0.4453072 -0.4867789 0.5546928 0.4867789 0.5546928 0.4867789 0.4453072 -0.4867789
548 0.4240594 -0.4840098 0.5759406 0.4840098 0.5759406 0.4840098 0.4240594 -0.4840098
573 0.4030838 -0.4803637 0.5969162 0.4803637 0.5969162 0.4803637 0.4030838 -0.4803637
600 0.3824518 -0.4758724 0.6175482 0.4758724 0.6175482 0.4758724 0.3824518 -0.4758724
627 0.3622300 -0.4705745 0.6377700 0.4705745 0.6377700 0.4705745 0.3622300 -0.4705745
656 0.3424800 -0.4645147 0.6575200 0.4645147 0.6575200 0.4645147 0.3424800 -0.4645147
686 0.3232570 -0.4577429 0.6767430 0.4577429 0.6767430 0.4577429 0.3232570 -0.4577429
717 0.3046099 -0.4503134 0.6953901 0.4503134 0.6953901 0.4503134 0.3046099 -0.4503134
750 0.2865808 -0.4422837 0.7134192 0.4422837 0.7134192 0.4422837 0.2865808 -0.4422837
784 0.2692046 -0.4337138 0.7307954 0.4337138 0.7307954 0.4337138 0.2692046 -0.4337138
820 0.2525092 -0.4246649 0.7474908 0.4246649 0.7474908 0.4246649 0.2525092 -0.4246649
858 0.2365155 -0.4151990 0.7634845 0.4151990 0.7634845 0.4151990 0.2365155 -0.4151990
897 0.2212378 -0.4053774 0.7787622 0.4053774 0.7787622 0.4053774 0.2212378 -0.4053774
938 0.2066840 -0.3952607 0.7933160 0.3952607 0.7933160 0.3952607 0.2066840 -0.3952607
981 0.1928558 -0.3849072 0.8071442 0.3849072 0.8071442 0.3849072 0.1928558 -0.3849072
1026 0.1797499 -0.3743730 0.8202501 0.3743730 0.8202501 0.3743730 0.1797499 -0.3743730
1073 0.1673576 -0.3637116 0.8326424 0.3637116 0.8326424 0.3637116 0.1673576 -0.3637116
1122 0.1556664 -0.3529727 0.8443336 0.3529727 0.8443336 0.3529727 0.1556664 -0.3529727
1174 0.1446597 -0.3422030 0.8553403 0.3422030 0.8553403 0.3422030 0.1446597 -0.3422030
1227 0.1343179 -0.3314451 0.8656821 0.3314451 0.8656821 0.3314451 0.1343179 -0.3314451
1283 0.1246188 -0.3207381 0.8753812 0.3207381 0.8753812 0.3207381 0.1246188 -0.3207381
1342 0.1155381 -0.3101169 0.8844619 0.3101169 0.8844619 0.3101169 0.1155381 -0.3101169
1404 0.1070501 -0.2996130 0.8929499 0.2996130 0.8929499 0.2996130 0.1070501 -0.2996130
1468 0.0991277 -0.2892539 0.9008723 0.2892539 0.9008723 0.2892539 0.0991277 -0.2892539
1535 0.0917436 -0.2790638 0.9082564 0.2790638 0.9082564 0.2790638 0.0917436 -0.2790638
1606 0.0848696 -0.2690632 0.9151304 0.2690632 0.9151304 0.2690632 0.0848696 -0.2690632
1679 0.0784780 -0.2592698 0.9215220 0.2592698 0.9215220 0.2592698 0.0784780 -0.2592698
1756 0.0725410 -0.2496980 0.9274590 0.2496980 0.9274590 0.2496980 0.0725410 -0.2496980
1836 0.0670316 -0.2403597 0.9329684 0.2403597 0.9329684 0.2403597 0.0670316 -0.2403597
1920 0.0619232 -0.2312640 0.9380768 0.2312640 0.9380768 0.2312640 0.0619232 -0.2312640
2008 0.0571903 -0.2224180 0.9428097 0.2224180 0.9428097 0.2224180 0.0571903 -0.2224180
2100 0.0528082 -0.2138266 0.9471918 0.2138266 0.9471918 0.2138266 0.0528082 -0.2138266
2196 0.0487534 -0.2054930 0.9512466 0.2054930 0.9512466 0.2054930 0.0487534 -0.2054930
2297 0.0450032 -0.1974185 0.9549968 0.1974185 0.9549968 0.1974185 0.0450032 -0.1974185
2402 0.0415364 -0.1896034 0.9584636 0.1896034 0.9584636 0.1896034 0.0415364 -0.1896034
2512 0.0383328 -0.1820462 0.9616672 0.1820462 0.9616672 0.1820462 0.0383328 -0.1820462
2627 0.0353734 -0.1747449 0.9646266 0.1747449 0.9646266 0.1747449 0.0353734 -0.1747449
2748 0.0326403 -0.1676962 0.9673597 0.1676962 0.9673597 0.1676962 0.0326403 -0.1676962
2873 0.0301168 -0.1608961 0.9698832 0.1608961 0.9698832 0.1608961 0.0301168 -0.1608961
3005 0.0277873 -0.1543401 0.9722127 0.1543401 0.9722127 0.1543401 0.0277873 -0.1543401
3143 0.0256373 -0.1480232 0.9743627 0.1480232 0.9743627 0.1480232 0.0256373 -0.1480232
3287 0.0236533 -0.1419397 0.9763467 0.1419397 0.9763467 0.1419397 0.0236533 -0.1419397
3437 0.0218226 -0.1360838 0.9781774 0.1360838 0.9781774 0.1360838 0.0218226 -0.1360838
3594 0.0201336 -0.1304496 0.9798664 0.1304496 0.9798664 0.1304496 0.0201336 -0.1304496
3759 0.0185756 -0.1250306 0.9814244 0.1250306 0.9814244 0.1250306 0.0185756 -0.1250306
3931 0.0171386 -0.1198207 0.9828614 0.1198207 0.9828614 0.1198207 0.0171386 -0.1198207
4111 0.0158133 -0.1148135 0.9841867 0.1148135 0.9841867 0.1148135 0.0158133 -0.1148135
4299 0.0145912 -0.1100025 0.9854088 0.1100025 0.9854088 0.1100025 0.0145912 -0.1100025
4496 0.0134644 -0.1053813 0.9865356 0.1053813 0.9865356 0.1053813 0.0134644 -0.1053813
4702 0.0124258 -0.1009437 0.9875742 0.1009437 0.9875742 0.1009437 0.0124258 -0.1009437
4918 0.0114684 -0.0966835 0.9885316 0.0966835 0.9885316 0.0966835 0.0114684 -0.0966835
5143 0.0105862 -0.0925944 0.9894138 0.0925944 0.9894138 0.0925944 0.0105862 -0.0925944
5378 0.0097734 -0.0886706 0.9902266 0.0886706 0.9902266 0.0886706 0.0097734 -0.0886706
5625 0.0090246 -0.0849061 0.9909754 0.0849061 0.9909754 0.0849061 0.0090246 -0.0849061
5882 0.0083350 -0.0812952 0.9916650 0.0812952 0.9916650 0.0812952 0.0083350 -0.0812952
6151 0.0077000 -0.0778323 0.9923000 0.0778323 0.9923000 0.0778323 0.0077000 -0.0778323
6433 0.0071154 -0.0745118 0.9928846 0.0745118 0.9928846 0.0745118 0.0071154 -0.0745118
6728 0.0065773 -0.0713287 0.9934227 0.0713287 0.9934227 0.0713287 0.0065773 -0.0713287
7036 0.0060821 -0.0682775 0.9939179 0.0682775 0.9939179 0.0682775 0.0060821 -0.0682775
7358 0.0056264 -0.0653535 0.9943736 0.0653535 0.9943736 0.0653535 0.0056264 -0.0653535
7695 0.0052072 -0.0625516 0.9947928 0.0625516 0.9947928 0.0625516 0.0052072 -0.0625516
8047 0.0048216 -0.0598672 0.9951784 0.0598672 0.9951784 0.0598672 0.0048216 -0.0598672
8416 0.0044669 -0.0572957 0.9955331 0.0572957 0.9955331 0.0572957 0.0044669 -0.0572957
8801 0.0041407 -0.0548328 0.9958593 0.0548328 0.9958593 0.0548328 0.0041407 -0.0548328
9204 0.0038406 -0.0524740 0.9961594 0.0524740 0.9961594 0.0524740 0.0038406 -0.0524740
9626 0.0035647 -0.0502153 0.9964353 0.0502153 0.9964353 0.0502153 0.0035647 -0.0502153
10066 0.0033109 -0.0480528 0.9966891 0.0480528 0.9966891 0.0480528 0.0033109 -0.0480528
10527 0.0030774 -0.0459824 0.9969226 0.0459824 0.9969226 0.0459824 0.0030774 -0.0459824
11009 0.0028626 -0.0440005 0.9971374 0.0440005 0.9971374 0.0440005 0.0028626 -0.0440005
11514 0.0026649 -0.0421035 0.9973351 0.0421035 0.9973351 0.0421035 0.0026649 -0.0421035
12041 0.0024829 -0.0402879 0.9975171 0.0402879 0.9975171 0.0402879 0.0024829 -0.0402879
12592 0.0023153 -0.0385503 0.9976847 0.0385503 0.9976847 0.0385503 0.0023153 -0.0385503
13169 0.0021608 -0.0368875 0.9978392 0.0368875 0.9978392 0.0368875 0.0021608 -0.0368875
13772 0.0020184 -0.0352964 0.9979816 0.0352964 0.9979816 0.0352964 0.0020184 -0.0352964
14402 0.0018870 -0.0337739 0.9981130 0.0337739 0.9981130 0.0337739 0.0018870 -0.0337739
15062 0.0017657 -0.0323173 0.9982343 0.0323173 0.9982343 0.0323173 0.0017657 -0.0323173
15752 0.0016536 -0.0309236 0.9983464 0.0309236 0.9983464 0.0309236 0.0016536 -0.0309236
16473 0.0015499 -0.0295902 0.9984501 0.0295902 0.9984501 0.0295902 0.0015499 -0.0295902
17227 0.0014539 -0.0283146 0.9985461 0.0283146 0.9985461 0.0283146 0.0014539 -0.0283146
18016 0.0013650 -0.0270942 0.9986350 0.0270942 0.9986350 0.0270942 0.0013650 -0.0270942
18841 0.0012824 -0.0259266 0.9987176 0.0259266 0.9987176 0.0259266 0.0012824 -0.0259266
19704 0.0012057 -0.0248096 0.9987943 0.0248096 0.9987943 0.0248096 0.0012057 -0.0248096
20606 0.0011344 -0.0237410 0.9988656 0.0237410 0.9988656 0.0237410 0.0011344 -0.0237410
21550 0.0010680 -0.0227187 0.9989320 0.0227187 0.9989320 0.0227187 0.0010680 -0.0227187
22537 0.0010060 -0.0217406 0.9989940 0.0217406 0.9989940 0.0217406 0.0010060 -0.0217406
23569 0.0009481 -0.0208047 0.9990519 0.0208047 0.9990519 0.0208047 0.0009481 -0.0208047
24648 0.0008941 -0.0199093 0.9991059 0.0199093 0.9991059 0.0199093 0.0008941 -0.0199093
25777 0.0008435 -0.0190526 0.9991565 0.0190526 0.9991565 0.0190526 0.0008435 -0.0190526
26957 0.0007961 -0.0182328 0.9992039 0.0182328 0.9992039 0.0182328 0.0007961 -0.0182328
28191 0.0007516 -0.0174483 0.9992484 0.0174483 0.9992484 0.0174483 0.0007516 -0.0174483
29482 0.0007099 -0.0166976 0.9992901 0.0166976 0.9992901 0.0166976 0.0007099 -0.0166976
30832 0.0006708 -0.0159792 0.9993292 0.0159792 0.9993292 0.0159792 0.0006708 -0.0159792
32244 0.0006340 -0.0152916 0.9993660 0.0152916 0.9993660 0.0152916 0.0006340 -0.0152916
33721 0.0005995 -0.0146336 0.9994005 0.0146336 0.9994005 0.0146336 0.0005995 -0.0146336
35265 0.0005670 -0.0140037 0.9994330 0.0140037 0.9994330 0.0140037 0.0005670 -0.0140037
36880 0.0005364 -0.0134008 0.9994636 0.0134008 0.9994636 0.0134008 0.0005364 -0.0134008
38569 0.0005077 -0.0128238 0.9994923 0.0128238 0.9994923 0.0128238 0.0005077 -0.0128238
40335 0.0004808 -0.0122714 0.9995192 0.0122714 0.9995192 0.0122714 0.0004808 -0.0122714
42182 0.0004554 -0.0117427 0.9995446 0.0117427 0.9995446 0.0117427 0.0004554 -0.0117427
44113 0.0004316 -0.0112366 0.9995684 0.0112366 0.9995684 0.0112366 0.0004316 -0.0112366
46134 0.0004093 -0.0107521 0.9995907 0.0107521 0.9995907 0.0107521 0.0004093 -0.0107521
48246 0.0003884 -0.0102883 0.9996116 0.0102883 0.9996116 0.0102883 0.0003884 -0.0102883
50455 0.0003688 -0.0098444 0.9996312 0.0098444 0.9996312 0.0098444 0.0003688 -0.0098444
52766 0.0003504 -0.0094195 0.9996496 0.0094195 0.9996496 0.0094195 0.0003504 -0.0094195
55182 0.0003332 -0.0090127 0.9996668 0.0090127 0.9996668 0.0090127 0.0003332 -0.0090127
57709 0.0003171 -0.0086234 0.9996829 0.0086234 0.9996829 0.0086234 0.0003171 -0.0086234
60352 0.0003020 -0.0082508 0.9996980 0.0082508 0.9996980 0.0082508 0.0003020 -0.0082508
63115 0.0002880 -0.0078941 0.9997120 0.0078941 0.9997120 0.0078941 0.0002880 -0.0078941
66005 0.0002748 -0.0075528 0.9997252 0.0075528 0.9997252 0.0075528 0.0002748 -0.0075528
69028 0.0002626 -0.0072261 0.9997374 0.0072261 0.9997374 0.0072261 0.0002626 -0.0072261
72189 0.0002511 -0.0069135 0.9997489 0.0069135 0.9997489 0.0069135 0.0002511 -0.0069135
75495 0.0002405 -0.0066144 0.9997595 0.0066144 0.9997595 0.0066144 0.0002405 -0.0066144
78952 0.0002305 -0.0063281 0.9997695 0.0063281 0.9997695 0.0063281 0.0002305 -0.0063281
82567 0.0002212 -0.0060542 0.9997788 0.0060542 0.9997788 0.0060542 0.0002212 -0.0060542
86348 0.0002126 -0.0057921 0.9997874 0.0057921 0.9997874 0.0057921 0.0002126 -0.0057921
90302 0.0002045 -0.0055414 0.9997955 0.0055414 0.9997955 0.0055414 0.0002045 -0.0055414
94437 0.0001969 -0.0053015 0.9998031 0.0053015 0.9998031 0.0053015 0.0001969 -0.0053015
98762 0.0001898 -0.0050720 0.9998102 0.0050720 0.9998102 0.0050720 0.0001898 -0.0050720
103284 0.0001832 -0.0048524 0.9998168 0.0048524 0.9998168 0.0048524 0.0001832 -0.0048524
108014 0.0001770 -0.0046424 0.9998230 0.0046424 0.9998230 0.0046424 0.0001770 -0.0046424
112960 0.0001712 -0.0044415 0.9998288 0.0044415 0.9998288 0.0044415 0.0001712 -0.0044415
118133 0.0001657 -0.0042493 0.9998343 0.0042493 0.9998343 0.0042493 0.0001657 -0.0042493
123542 0.0001606 -0.0040654 0.9998394 0.0040654 0.9998394 0.0040654 0.0001606 -0.0040654
129199 0.0001557 -0.0038896 0.9998443 0.0038896 0.9998443 0.0038896 0.0001557 -0.0038896
135116 0.0001511 -0.0037214 0.9998489 0.0037214 0.9998489 0.0037214 0.0001511 -0.0037214
141303 0.0001467 -0.0035604 0.9998533 0.0035604 0.9998533 0.0035604 0.0001467 -0.0035604
147774 0.0001425 -0.0034065 0.9998575 0.0034065 0.9998575 0.0034065 0.0001425 -0.0034065
154540 0.0001385 -0.0032593 0.9998615 0.0032593 0.9998615 0.0032593 0.0001385 -0.0032593
161617 0.0001347 -0.0031184 0.9998653 0.0031184 0.9998653 0.0031184 0.0001347 -0.0031184
169018 0.0001311 -0.0029836 0.9998689 0.0029836 0.9998689 0.0029836 0.0001311 -0.0029836
176758 0.0001276 -0.0028547 0.9998724 0.0028547 0.9998724 0.0028547 0.0001276 -0.0028547
184852 0.0001242 -0.0027314 0.9998758 0.0027314 0.9998758 0.0027314 0.0001242 -0.0027314
193316 0.0001210 -0.0026133 0.9998790 0.0026133 0.9998790 0.0026133 0.0001210 -0.0026133
202169 0.0001178 -0.0025004 0.9998822 0.0025004 0.9998822 0.0025004 0.0001178 -0.0025004
211427 0.0001148 -0.0023923 0.9998852 0.0023923 0.9998852 0.0023923 0.0001148 -0.0023923
221108 0.0001118 -0.0022889 0.9998882 0.0022889 0.9998882 0.0022889 0.0001118 -0.0022889
231233 0.0001089 -0.0021899 0.9998911 0.0021899 0.9998911 0.0021899 0.0001089 -0.0021899
241822 0.0001061 -0.0020951 0.9998939 0.0020951 0.9998939 0.0020951 0.0001061 -0.0020951
252896 0.0001034 -0.0020043 0.9998966 0.0020043 0.9998966 0.0020043 0.0001034 -0.0020043
264476 0.0001008 -0.0019175 0.9998992 0.0019175 0.9998992 0.0019175 0.0001008 -0.0019175
276587 0.0000983 -0.0018343 0.9999017 0.0018343 0.9999017 0.0018343 0.0000983 -0.0018343
289253 0.0000958 -0.0017546 0.9999042 0.0017546 0.9999042 0.0017546 0.0000958 -0.0017546
302498 0.0000934 -0.0016783 0.9999066 0.0016783 0.9999066 0.0016783 0.0000934 -0.0016783
316350 0.0000911 -0.0016052 0.9999089 0.0016052 0.9999089 0.0016052 0.0000911 -0.0016052
330837 0.0000889 -0.0015351 0.9999111 0.0015351 0.9999111 0.0015351 0.0000889 -0.0015351
345986 0.0000867 -0.0014680 0.9999133 0.0014680 0.9999133 0.0014680 0.0000867 -0.0014680
361830 0.0000846 -0.0014037 0.9999154 0.0014037 0.9999154 0.0014037 0.0000846 -0.0014037
378399 0.0000827 -0.0013421 0.9999173 0.0013421 0.9999173 0.0013421 0.0000827 -0.0013421
395726 0.0000808 -0.0012830 0.9999192 0.0012830 0.9999192 0.0012830 0.0000808 -0.0012830
413847 0.0000789 -0.0012264 0.9999211 0.0012264 0.9999211 0.0012264 0.0000789 -0.0012264
432798 0.0000772 -0.0011721 0.9999228 0.0011721 0.9999228 0.0011721 0.0000772 -0.0011721
452617 0.0000756 -0.0011201 0.9999244 0.0011201 0.9999244 0.0011201 0.0000756 -0.0011201
473344 0.0000740 -0.0010702 0.9999260 0.0010702 0.9999260 0.0010702 0.0000740 -0.0010702
495019 0.0000725 -0.0010223 0.9999275 0.0010223 0.9999275 0.0010223 0.0000725 -0.0010223
517687 0.0000711 -0.0009764 0.9999289 0.0009764 0.9999289 0.0009764 0.0000711 -0.0009764
541393 0.0000698 -0.0009324 0.9999302 0.0009324 0.9999302 0.0009324 0.0000698 -0.0009324
566185 0.0000686 -0.0008902 0.9999314 0.0008902 0.9999314 0.0008902 0.0000686 -0.0008902
592111 0.0000674 -0.0008496 0.9999326 0.0008496 0.9999326 0.0008496 0.0000674 -0.0008496
619225 0.0000664 -0.0008108 0.9999336 0.0008108 0.9999336 0.0008108 0.0000664 -0.0008108
647581 0.0000654 -0.0007734 0.9999346 0.0007734 0.9999346 0.0007734 0.0000654 -0.0007734
677235 0.0000645 -0.0007376 0.9999355 0.0007376 0.9999355 0.0007376 0.0000645 -0.0007376
708247 0.0000636 -0.0007032 0.9999364 0.0007032 0.9999364 0.0007032 0.0000636 -0.0007032
740679 0.0000628 -0.0006702 0.9999372 0.0006702 0.9999372 0.0006702 0.0000628 -0.0006702
774597 0.0000621 -0.0006384 0.9999379 0.0006384 0.9999379 0.0006384 0.0000621 -0.0006384
810067 0.0000614 -0.0006079 0.9999386 0.0006079 0.9999386 0.0006079 0.0000614 -0.0006079
847162 0.0000608 -0.0005786 0.9999392 0.0005786 0.9999392 0.0005786 0.0000608 -0.0005786
885955 0.0000603 -0.0005505 0.9999397 0.0005505 0.9999397 0.0005505 0.0000603 -0.0005505
926525 0.0000598 -0.0005234 0.9999402 0.0005234 0.9999402 0.0005234 0.0000598 -0.0005234
968953 0.0000594 -0.0004973 0.9999406 0.0004973 0.9999406 0.0004973 0.0000594 -0.0004973
1013323 0.0000590 -0.0004722 0.9999410 0.0004722 0.9999410 0.0004722 0.0000590 -0.0004722
1059725 0.0000587 -0.0004480 0.9999413 0.0004480 0.9999413 0.0004480 0.0000587 -0.0004480
1108252 0.0000584 -0.0004247 0.9999416 0.0004247 0.9999416 0.0004247 0.0000584 -0.0004247
1159002 0.0000582 -0.0004023 0.9999418 0.0004023 0.9999418 0.0004023 0.0000582 -0.0004023
1212075 0.0000580 -0.0003806 0.9999420 0.0003806 0.9999420 0.0003806 0.0000580 -0.0003806
1267578 0.0000578 -0.0003597 0.9999422 0.0003597 0.9999422 0.0003597 0.0000578 -0.0003597
1325623 0.0000577 -0.0003395 0.9999423 0.0003395 0.9999423 0.0003395 0.0000577 -0.0003395
1386327 0.0000577 -0.0003200 0.9999423 0.0003200 0.9999423 0.0003200 0.0000577 -0.0003200
1449809 0.0000577 -0.0003012 0.9999423 0.0003012 0.9999423 0.0003012 0.0000577 -0.0003012
1516199 0.0000577 -0.0002829 0.9999423 0.0002829 0.9999423 0.0002829 0.0000577 -0.0002829
1585629 0.0000578 -0.0002652 0.9999422 0.0002652 0.9999422 0.0002652 0.0000578 -0.0002652
1658239 0.0000580 -0.0002480 0.9999420 0.0002480 0.9999420 0.0002480 0.0000580 -0.0002480
1734173 0.0000582 -0.0002313 0.9999418 0.0002313 0.9999418 0.0002313 0.0000582 -0.0002313
1813585 0.0000584 -0.0002151 0.9999416 0.0002151 0.9999416 0.0002151 0.0000584 -0.0002151
1896632 0.0000587 -0.0001993 0.9999413 0.0001993 0.9999413 0.0001993 0.0000587 -0.0001993
1983483 0.0000590 -0.0001839 0.9999410 0.0001839 0.9999410 0.0001839 0.0000590 -0.0001839
2074311 0.0000594 -0.0001689 0.9999406 0.0001689 0.9999406 0.0001689 0.0000594 -0.0001689
