!Murata Part Number: GRM188R11E683KA01
!These Parameters are Measured in Series Mode Connection
!Data Generated on Mar 30, 2021
!       o--ll--o
!Port1            Port2
!       o------o
!Operation Temp=25[degC], DC Bias Voltage=0[V]
!Freq. Start=100[kHz] Stop=6[GHz] 401[Steps]
# Hz S RI R 50
!Freq.(Hz) S11(Real) S11(Imag) S21(Real) S21(Imag) S12(Real) S12(Imag) S22(Real) S22(Imag)
100000 0.0593314 -0.2309320 0.9406686 0.2309320 0.9406686 0.2309320 0.0593314 -0.2309320
102789 0.0564284 -0.2254166 0.9435716 0.2254166 0.9435716 0.2254166 0.0564284 -0.2254166
105655 0.0536611 -0.2199994 0.9463389 0.2199994 0.9463389 0.2199994 0.0536611 -0.2199994
108602 0.0510239 -0.2146811 0.9489761 0.2146811 0.9489761 0.2146811 0.0510239 -0.2146811
111630 0.0485113 -0.2094624 0.9514887 0.2094624 0.9514887 0.2094624 0.0485113 -0.2094624
114743 0.0461180 -0.2043435 0.9538820 0.2043435 0.9538820 0.2043435 0.0461180 -0.2043435
117943 0.0438388 -0.1993247 0.9561612 0.1993247 0.9561612 0.1993247 0.0438388 -0.1993247
121232 0.0416687 -0.1944058 0.9583313 0.1944058 0.9583313 0.1944058 0.0416687 -0.1944058
124613 0.0396030 -0.1895865 0.9603970 0.1895865 0.9603970 0.1895865 0.0396030 -0.1895865
128088 0.0376369 -0.1848666 0.9623631 0.1848666 0.9623631 0.1848666 0.0376369 -0.1848666
131660 0.0357660 -0.1802454 0.9642340 0.1802454 0.9642340 0.1802454 0.0357660 -0.1802454
135332 0.0339860 -0.1757222 0.9660140 0.1757222 0.9660140 0.1757222 0.0339860 -0.1757222
139106 0.0322928 -0.1712964 0.9677072 0.1712964 0.9677072 0.1712964 0.0322928 -0.1712964
142985 0.0306824 -0.1669670 0.9693176 0.1669670 0.9693176 0.1669670 0.0306824 -0.1669670
146972 0.0291510 -0.1627330 0.9708490 0.1627330 0.9708490 0.1627330 0.0291510 -0.1627330
151071 0.0276949 -0.1585933 0.9723051 0.1585933 0.9723051 0.1585933 0.0276949 -0.1585933
155284 0.0263106 -0.1545468 0.9736894 0.1545468 0.9736894 0.1545468 0.0263106 -0.1545468
159614 0.0249947 -0.1505923 0.9750053 0.1505923 0.9750053 0.1505923 0.0249947 -0.1505923
164065 0.0237441 -0.1467286 0.9762559 0.1467286 0.9762559 0.1467286 0.0237441 -0.1467286
168641 0.0225556 -0.1429542 0.9774444 0.1429542 0.9774444 0.1429542 0.0225556 -0.1429542
173344 0.0214262 -0.1392679 0.9785738 0.1392679 0.9785738 0.1392679 0.0214262 -0.1392679
178178 0.0203533 -0.1356682 0.9796467 0.1356682 0.9796467 0.1356682 0.0203533 -0.1356682
183146 0.0193339 -0.1321538 0.9806661 0.1321538 0.9806661 0.1321538 0.0193339 -0.1321538
188254 0.0183657 -0.1287231 0.9816343 0.1287231 0.9816343 0.1287231 0.0183657 -0.1287231
193504 0.0174461 -0.1253748 0.9825539 0.1253748 0.9825539 0.1253748 0.0174461 -0.1253748
198900 0.0165728 -0.1221073 0.9834272 0.1221073 0.9834272 0.1221073 0.0165728 -0.1221073
204447 0.0157435 -0.1189191 0.9842565 0.1189191 0.9842565 0.1189191 0.0157435 -0.1189191
210148 0.0149560 -0.1158088 0.9850440 0.1158088 0.9850440 0.1158088 0.0149560 -0.1158088
216008 0.0142084 -0.1127748 0.9857916 0.1127748 0.9857916 0.1127748 0.0142084 -0.1127748
222032 0.0134987 -0.1098156 0.9865013 0.1098156 0.9865013 0.1098156 0.0134987 -0.1098156
228224 0.0128250 -0.1069298 0.9871750 0.1069298 0.9871750 0.1069298 0.0128250 -0.1069298
234589 0.0121855 -0.1041158 0.9878145 0.1041158 0.9878145 0.1041158 0.0121855 -0.1041158
241130 0.0115786 -0.1013721 0.9884214 0.1013721 0.9884214 0.1013721 0.0115786 -0.1013721
247855 0.0110026 -0.0986973 0.9889974 0.0986973 0.9889974 0.0986973 0.0110026 -0.0986973
254767 0.0104560 -0.0960899 0.9895440 0.0960899 0.9895440 0.0960899 0.0104560 -0.0960899
261871 0.0099373 -0.0935484 0.9900627 0.0935484 0.9900627 0.0935484 0.0099373 -0.0935484
269174 0.0094452 -0.0910715 0.9905548 0.0910715 0.9905548 0.0910715 0.0094452 -0.0910715
276681 0.0089782 -0.0886576 0.9910218 0.0886576 0.9910218 0.0886576 0.0089782 -0.0886576
284397 0.0085352 -0.0863053 0.9914648 0.0863053 0.9914648 0.0863053 0.0085352 -0.0863053
292328 0.0081150 -0.0840133 0.9918850 0.0840133 0.9918850 0.0840133 0.0081150 -0.0840133
300480 0.0077163 -0.0817802 0.9922837 0.0817802 0.9922837 0.0817802 0.0077163 -0.0817802
308859 0.0073381 -0.0796045 0.9926619 0.0796045 0.9926619 0.0796045 0.0073381 -0.0796045
317472 0.0069793 -0.0774851 0.9930207 0.0774851 0.9930207 0.0774851 0.0069793 -0.0774851
326326 0.0066390 -0.0754206 0.9933610 0.0754206 0.9933610 0.0754206 0.0066390 -0.0754206
335426 0.0063162 -0.0734096 0.9936838 0.0734096 0.9936838 0.0734096 0.0063162 -0.0734096
344780 0.0060100 -0.0714509 0.9939900 0.0714509 0.9939900 0.0714509 0.0060100 -0.0714509
354395 0.0057196 -0.0695432 0.9942804 0.0695432 0.9942804 0.0695432 0.0057196 -0.0695432
364278 0.0054441 -0.0676854 0.9945559 0.0676854 0.9945559 0.0676854 0.0054441 -0.0676854
374436 0.0051829 -0.0658762 0.9948171 0.0658762 0.9948171 0.0658762 0.0051829 -0.0658762
384878 0.0049351 -0.0641143 0.9950649 0.0641143 0.9950649 0.0641143 0.0049351 -0.0641143
395611 0.0047000 -0.0623988 0.9953000 0.0623988 0.9953000 0.0623988 0.0047000 -0.0623988
406644 0.0044771 -0.0607283 0.9955229 0.0607283 0.9955229 0.0607283 0.0044771 -0.0607283
417984 0.0042656 -0.0591018 0.9957344 0.0591018 0.9957344 0.0591018 0.0042656 -0.0591018
429640 0.0040650 -0.0575182 0.9959350 0.0575182 0.9959350 0.0575182 0.0040650 -0.0575182
441622 0.0038747 -0.0559764 0.9961253 0.0559764 0.9961253 0.0559764 0.0038747 -0.0559764
453937 0.0036942 -0.0544753 0.9963058 0.0544753 0.9963058 0.0544753 0.0036942 -0.0544753
466596 0.0035230 -0.0530140 0.9964770 0.0530140 0.9964770 0.0530140 0.0035230 -0.0530140
479608 0.0033605 -0.0515914 0.9966395 0.0515914 0.9966395 0.0515914 0.0033605 -0.0515914
492983 0.0032064 -0.0502066 0.9967936 0.0502066 0.9967936 0.0502066 0.0032064 -0.0502066
506731 0.0030601 -0.0488585 0.9969399 0.0488585 0.9969399 0.0488585 0.0030601 -0.0488585
520862 0.0029214 -0.0475462 0.9970786 0.0475462 0.9970786 0.0475462 0.0029214 -0.0475462
535387 0.0027897 -0.0462688 0.9972103 0.0462688 0.9972103 0.0462688 0.0027897 -0.0462688
550318 0.0026647 -0.0450254 0.9973353 0.0450254 0.9973353 0.0450254 0.0026647 -0.0450254
565664 0.0025462 -0.0438151 0.9974538 0.0438151 0.9974538 0.0438151 0.0025462 -0.0438151
581439 0.0024336 -0.0426371 0.9975664 0.0426371 0.9975664 0.0426371 0.0024336 -0.0426371
597654 0.0023268 -0.0414905 0.9976732 0.0414905 0.9976732 0.0414905 0.0023268 -0.0414905
614320 0.0022253 -0.0403744 0.9977747 0.0403744 0.9977747 0.0403744 0.0022253 -0.0403744
631452 0.0021291 -0.0392882 0.9978709 0.0392882 0.9978709 0.0392882 0.0021291 -0.0392882
649061 0.0020376 -0.0382310 0.9979624 0.0382310 0.9979624 0.0382310 0.0020376 -0.0382310
667162 0.0019508 -0.0372020 0.9980492 0.0372020 0.9980492 0.0372020 0.0019508 -0.0372020
685767 0.0018684 -0.0362006 0.9981316 0.0362006 0.9981316 0.0362006 0.0018684 -0.0362006
704891 0.0017901 -0.0352259 0.9982099 0.0352259 0.9982099 0.0352259 0.0017901 -0.0352259
724548 0.0017158 -0.0342773 0.9982842 0.0342773 0.9982842 0.0342773 0.0017158 -0.0342773
744754 0.0016452 -0.0333541 0.9983548 0.0333541 0.9983548 0.0333541 0.0016452 -0.0333541
765523 0.0015781 -0.0324556 0.9984219 0.0324556 0.9984219 0.0324556 0.0015781 -0.0324556
786871 0.0015144 -0.0315812 0.9984856 0.0315812 0.9984856 0.0315812 0.0015144 -0.0315812
808814 0.0014538 -0.0307301 0.9985462 0.0307301 0.9985462 0.0307301 0.0014538 -0.0307301
831370 0.0013963 -0.0299019 0.9986037 0.0299019 0.9986037 0.0299019 0.0013963 -0.0299019
854554 0.0013416 -0.0290959 0.9986584 0.0290959 0.9986584 0.0290959 0.0013416 -0.0290959
878385 0.0012896 -0.0283115 0.9987104 0.0283115 0.9987104 0.0283115 0.0012896 -0.0283115
902880 0.0012402 -0.0275481 0.9987598 0.0275481 0.9987598 0.0275481 0.0012402 -0.0275481
928059 0.0011932 -0.0268052 0.9988068 0.0268052 0.9988068 0.0268052 0.0011932 -0.0268052
953940 0.0011485 -0.0260822 0.9988515 0.0260822 0.9988515 0.0260822 0.0011485 -0.0260822
980542 0.0011061 -0.0253785 0.9988939 0.0253785 0.9988939 0.0253785 0.0011061 -0.0253785
1007887 0.0010657 -0.0246938 0.9989343 0.0246938 0.9989343 0.0246938 0.0010657 -0.0246938
1035994 0.0010273 -0.0240274 0.9989727 0.0240274 0.9989727 0.0240274 0.0010273 -0.0240274
1064885 0.0009907 -0.0233789 0.9990093 0.0233789 0.9990093 0.0233789 0.0009907 -0.0233789
1094581 0.0009559 -0.0227478 0.9990441 0.0227478 0.9990441 0.0227478 0.0009559 -0.0227478
1125106 0.0009228 -0.0221337 0.9990772 0.0221337 0.9990772 0.0221337 0.0009228 -0.0221337
1156481 0.0008913 -0.0215360 0.9991087 0.0215360 0.9991087 0.0215360 0.0008913 -0.0215360
1188732 0.0008613 -0.0209544 0.9991387 0.0209544 0.9991387 0.0209544 0.0008613 -0.0209544
1221882 0.0008328 -0.0203883 0.9991672 0.0203883 0.9991672 0.0203883 0.0008328 -0.0203883
1255957 0.0008056 -0.0198375 0.9991944 0.0198375 0.9991944 0.0198375 0.0008056 -0.0198375
1290982 0.0007797 -0.0193014 0.9992203 0.0193014 0.9992203 0.0193014 0.0007797 -0.0193014
1326984 0.0007550 -0.0187797 0.9992450 0.0187797 0.9992450 0.0187797 0.0007550 -0.0187797
1363989 0.0007314 -0.0182720 0.9992686 0.0182720 0.9992686 0.0182720 0.0007314 -0.0182720
1402027 0.0007090 -0.0177779 0.9992910 0.0177779 0.9992910 0.0177779 0.0007090 -0.0177779
1441125 0.0006876 -0.0172971 0.9993124 0.0172971 0.9993124 0.0172971 0.0006876 -0.0172971
1481314 0.0006672 -0.0168292 0.9993328 0.0168292 0.9993328 0.0168292 0.0006672 -0.0168292
1522623 0.0006477 -0.0163738 0.9993523 0.0163738 0.9993523 0.0163738 0.0006477 -0.0163738
1565085 0.0006291 -0.0159306 0.9993709 0.0159306 0.9993709 0.0159306 0.0006291 -0.0159306
1608730 0.0006113 -0.0154993 0.9993887 0.0154993 0.9993887 0.0154993 0.0006113 -0.0154993
1653593 0.0005944 -0.0150795 0.9994056 0.0150795 0.9994056 0.0150795 0.0005944 -0.0150795
1699707 0.0005782 -0.0146709 0.9994218 0.0146709 0.9994218 0.0146709 0.0005782 -0.0146709
1747106 0.0005626 -0.0142733 0.9994374 0.0142733 0.9994374 0.0142733 0.0005626 -0.0142733
1795828 0.0005478 -0.0138863 0.9994522 0.0138863 0.9994522 0.0138863 0.0005478 -0.0138863
1845908 0.0005336 -0.0135097 0.9994664 0.0135097 0.9994664 0.0135097 0.0005336 -0.0135097
1897385 0.0005200 -0.0131431 0.9994800 0.0131431 0.9994800 0.0131431 0.0005200 -0.0131431
1950297 0.0005070 -0.0127863 0.9994930 0.0127863 0.9994930 0.0127863 0.0005070 -0.0127863
2004685 0.0004945 -0.0124390 0.9995055 0.0124390 0.9995055 0.0124390 0.0004945 -0.0124390
2060590 0.0004825 -0.0121010 0.9995175 0.0121010 0.9995175 0.0121010 0.0004825 -0.0121010
2118054 0.0004711 -0.0117719 0.9995289 0.0117719 0.9995289 0.0117719 0.0004711 -0.0117719
2177120 0.0004601 -0.0114517 0.9995399 0.0114517 0.9995399 0.0114517 0.0004601 -0.0114517
2237833 0.0004495 -0.0111399 0.9995505 0.0111399 0.9995505 0.0111399 0.0004495 -0.0111399
2300240 0.0004393 -0.0108364 0.9995607 0.0108364 0.9995607 0.0108364 0.0004393 -0.0108364
2364387 0.0004296 -0.0105409 0.9995704 0.0105409 0.9995704 0.0105409 0.0004296 -0.0105409
2430322 0.0004202 -0.0102533 0.9995798 0.0102533 0.9995798 0.0102533 0.0004202 -0.0102533
2498097 0.0004112 -0.0099732 0.9995888 0.0099732 0.9995888 0.0099732 0.0004112 -0.0099732
2567761 0.0004025 -0.0097006 0.9995975 0.0097006 0.9995975 0.0097006 0.0004025 -0.0097006
2639368 0.0003942 -0.0094351 0.9996058 0.0094351 0.9996058 0.0094351 0.0003942 -0.0094351
2712972 0.0003862 -0.0091766 0.9996138 0.0091766 0.9996138 0.0091766 0.0003862 -0.0091766
2788629 0.0003784 -0.0089250 0.9996216 0.0089250 0.9996216 0.0089250 0.0003784 -0.0089250
2866396 0.0003710 -0.0086799 0.9996290 0.0086799 0.9996290 0.0086799 0.0003710 -0.0086799
2946331 0.0003639 -0.0084413 0.9996361 0.0084413 0.9996361 0.0084413 0.0003639 -0.0084413
3028495 0.0003570 -0.0082089 0.9996430 0.0082089 0.9996430 0.0082089 0.0003570 -0.0082089
3112951 0.0003503 -0.0079825 0.9996497 0.0079825 0.9996497 0.0079825 0.0003503 -0.0079825
3199762 0.0003439 -0.0077621 0.9996561 0.0077621 0.9996561 0.0077621 0.0003439 -0.0077621
3288994 0.0003378 -0.0075474 0.9996622 0.0075474 0.9996622 0.0075474 0.0003378 -0.0075474
3380714 0.0003319 -0.0073382 0.9996681 0.0073382 0.9996681 0.0073382 0.0003319 -0.0073382
3474992 0.0003262 -0.0071345 0.9996738 0.0071345 0.9996738 0.0071345 0.0003262 -0.0071345
3571899 0.0003207 -0.0069361 0.9996793 0.0069361 0.9996793 0.0069361 0.0003207 -0.0069361
3671508 0.0003154 -0.0067427 0.9996846 0.0067427 0.9996846 0.0067427 0.0003154 -0.0067427
3773896 0.0003103 -0.0065544 0.9996897 0.0065544 0.9996897 0.0065544 0.0003103 -0.0065544
3879139 0.0003055 -0.0063709 0.9996945 0.0063709 0.9996945 0.0063709 0.0003055 -0.0063709
3987316 0.0003008 -0.0061920 0.9996992 0.0061920 0.9996992 0.0061920 0.0003008 -0.0061920
4098510 0.0002963 -0.0060178 0.9997037 0.0060178 0.9997037 0.0060178 0.0002963 -0.0060178
4212806 0.0002920 -0.0058480 0.9997080 0.0058480 0.9997080 0.0058480 0.0002920 -0.0058480
4330288 0.0002878 -0.0056825 0.9997122 0.0056825 0.9997122 0.0056825 0.0002878 -0.0056825
4451047 0.0002838 -0.0055212 0.9997162 0.0055212 0.9997162 0.0055212 0.0002838 -0.0055212
4575173 0.0002800 -0.0053639 0.9997200 0.0053639 0.9997200 0.0053639 0.0002800 -0.0053639
4702761 0.0002764 -0.0052106 0.9997236 0.0052106 0.9997236 0.0052106 0.0002764 -0.0052106
4833907 0.0002729 -0.0050612 0.9997271 0.0050612 0.9997271 0.0050612 0.0002729 -0.0050612
4968711 0.0002696 -0.0049155 0.9997304 0.0049155 0.9997304 0.0049155 0.0002696 -0.0049155
5107273 0.0002664 -0.0047735 0.9997336 0.0047735 0.9997336 0.0047735 0.0002664 -0.0047735
5249700 0.0002634 -0.0046349 0.9997366 0.0046349 0.9997366 0.0046349 0.0002634 -0.0046349
5396098 0.0002605 -0.0044998 0.9997395 0.0044998 0.9997395 0.0044998 0.0002605 -0.0044998
5546579 0.0002577 -0.0043680 0.9997423 0.0043680 0.9997423 0.0043680 0.0002577 -0.0043680
5701257 0.0002551 -0.0042395 0.9997449 0.0042395 0.9997449 0.0042395 0.0002551 -0.0042395
5860248 0.0002526 -0.0041141 0.9997474 0.0041141 0.9997474 0.0041141 0.0002526 -0.0041141
6023672 0.0002503 -0.0039917 0.9997497 0.0039917 0.9997497 0.0039917 0.0002503 -0.0039917
6191655 0.0002481 -0.0038723 0.9997519 0.0038723 0.9997519 0.0038723 0.0002481 -0.0038723
6364321 0.0002460 -0.0037557 0.9997540 0.0037557 0.9997540 0.0037557 0.0002460 -0.0037557
6541803 0.0002440 -0.0036420 0.9997560 0.0036420 0.9997560 0.0036420 0.0002440 -0.0036420
6724235 0.0002422 -0.0035309 0.9997578 0.0035309 0.9997578 0.0035309 0.0002422 -0.0035309
6911753 0.0002405 -0.0034225 0.9997595 0.0034225 0.9997595 0.0034225 0.0002405 -0.0034225
7104501 0.0002389 -0.0033166 0.9997611 0.0033166 0.9997611 0.0033166 0.0002389 -0.0033166
7302625 0.0002374 -0.0032132 0.9997626 0.0032132 0.9997626 0.0032132 0.0002374 -0.0032132
7506273 0.0002360 -0.0031122 0.9997640 0.0031122 0.9997640 0.0031122 0.0002360 -0.0031122
7715601 0.0002347 -0.0030134 0.9997653 0.0030134 0.9997653 0.0030134 0.0002347 -0.0030134
7930766 0.0002335 -0.0029170 0.9997665 0.0029170 0.9997665 0.0029170 0.0002335 -0.0029170
8151931 0.0002325 -0.0028227 0.9997675 0.0028227 0.9997675 0.0028227 0.0002325 -0.0028227
8379264 0.0002315 -0.0027305 0.9997685 0.0027305 0.9997685 0.0027305 0.0002315 -0.0027305
8612937 0.0002307 -0.0026403 0.9997693 0.0026403 0.9997693 0.0026403 0.0002307 -0.0026403
8853126 0.0002299 -0.0025522 0.9997701 0.0025522 0.9997701 0.0025522 0.0002299 -0.0025522
9100013 0.0002293 -0.0024659 0.9997707 0.0024659 0.9997707 0.0024659 0.0002293 -0.0024659
9353785 0.0002288 -0.0023815 0.9997712 0.0023815 0.9997712 0.0023815 0.0002288 -0.0023815
9614634 0.0002283 -0.0022989 0.9997717 0.0022989 0.9997717 0.0022989 0.0002283 -0.0022989
9882758 0.0002280 -0.0022179 0.9997720 0.0022179 0.9997720 0.0022179 0.0002280 -0.0022179
10158358 0.0002277 -0.0021387 0.9997723 0.0021387 0.9997723 0.0021387 0.0002277 -0.0021387
10441645 0.0002276 -0.0020611 0.9997724 0.0020611 0.9997724 0.0020611 0.0002276 -0.0020611
10732831 0.0002276 -0.0019850 0.9997724 0.0019850 0.9997724 0.0019850 0.0002276 -0.0019850
11032137 0.0002276 -0.0019104 0.9997724 0.0019104 0.9997724 0.0019104 0.0002276 -0.0019104
11339791 0.0002278 -0.0018372 0.9997722 0.0018372 0.9997722 0.0018372 0.0002278 -0.0018372
11656024 0.0002281 -0.0017655 0.9997719 0.0017655 0.9997719 0.0017655 0.0002281 -0.0017655
11981075 0.0002284 -0.0016950 0.9997716 0.0016950 0.9997716 0.0016950 0.0002284 -0.0016950
12315192 0.0002289 -0.0016259 0.9997711 0.0016259 0.9997711 0.0016259 0.0002289 -0.0016259
12658625 0.0002295 -0.0015580 0.9997705 0.0015580 0.9997705 0.0015580 0.0002295 -0.0015580
13011637 0.0002302 -0.0014913 0.9997698 0.0014913 0.9997698 0.0014913 0.0002302 -0.0014913
13374492 0.0002310 -0.0014257 0.9997690 0.0014257 0.9997690 0.0014257 0.0002310 -0.0014257
13747467 0.0002319 -0.0013612 0.9997681 0.0013612 0.9997681 0.0013612 0.0002319 -0.0013612
14130843 0.0002329 -0.0012977 0.9997671 0.0012977 0.9997671 0.0012977 0.0002329 -0.0012977
14524910 0.0002341 -0.0012353 0.9997659 0.0012353 0.9997659 0.0012353 0.0002341 -0.0012353
14929966 0.0002354 -0.0011737 0.9997646 0.0011737 0.9997646 0.0011737 0.0002354 -0.0011737
15346318 0.0002368 -0.0011132 0.9997632 0.0011132 0.9997632 0.0011132 0.0002368 -0.0011132
15774281 0.0002383 -0.0010534 0.9997617 0.0010534 0.9997617 0.0010534 0.0002383 -0.0010534
16214179 0.0002399 -0.0009945 0.9997601 0.0009945 0.9997601 0.0009945 0.0002399 -0.0009945
16666344 0.0002417 -0.0009364 0.9997583 0.0009364 0.9997583 0.0009364 0.0002417 -0.0009364
17131118 0.0002437 -0.0008790 0.9997563 0.0008790 0.9997563 0.0008790 0.0002437 -0.0008790
17608854 0.0002458 -0.0008223 0.9997542 0.0008223 0.9997542 0.0008223 0.0002458 -0.0008223
18099912 0.0002480 -0.0007663 0.9997520 0.0007663 0.9997520 0.0007663 0.0002480 -0.0007663
18604665 0.0002504 -0.0007109 0.9997496 0.0007109 0.9997496 0.0007109 0.0002504 -0.0007109
19123493 0.0002529 -0.0006560 0.9997471 0.0006560 0.9997471 0.0006560 0.0002529 -0.0006560
19656790 0.0002557 -0.0006018 0.9997443 0.0006018 0.9997443 0.0006018 0.0002557 -0.0006018
20204959 0.0002586 -0.0005480 0.9997414 0.0005480 0.9997414 0.0005480 0.0002586 -0.0005480
20768415 0.0002616 -0.0004947 0.9997384 0.0004947 0.9997384 0.0004947 0.0002616 -0.0004947
21347584 0.0002649 -0.0004418 0.9997351 0.0004418 0.9997351 0.0004418 0.0002649 -0.0004418
21942904 0.0002684 -0.0003893 0.9997316 0.0003893 0.9997316 0.0003893 0.0002684 -0.0003893
22554827 0.0002721 -0.0003372 0.9997279 0.0003372 0.9997279 0.0003372 0.0002721 -0.0003372
23183813 0.0002760 -0.0002855 0.9997240 0.0002855 0.9997240 0.0002855 0.0002760 -0.0002855
23830340 0.0002801 -0.0002340 0.9997199 0.0002340 0.9997199 0.0002340 0.0002801 -0.0002340
24494897 0.0002845 -0.0001828 0.9997155 0.0001828 0.9997155 0.0001828 0.0002845 -0.0001828
25177987 0.0002891 -0.0001318 0.9997109 0.0001318 0.9997109 0.0001318 0.0002891 -0.0001318
25880126 0.0002940 -0.0000810 0.9997060 0.0000810 0.9997060 0.0000810 0.0002940 -0.0000810
26601845 0.0002992 -0.0000304 0.9997008 0.0000304 0.9997008 0.0000304 0.0002992 -0.0000304
27343691 0.0003046 0.0000201 0.9996954 -0.0000201 0.9996954 -0.0000201 0.0003046 0.0000201
28106225 0.0003104 0.0000705 0.9996896 -0.0000705 0.9996896 -0.0000705 0.0003104 0.0000705
28890023 0.0003165 0.0001208 0.9996835 -0.0001208 0.9996835 -0.0001208 0.0003165 0.0001208
29695680 0.0003229 0.0001711 0.9996771 -0.0001711 0.9996771 -0.0001711 0.0003229 0.0001711
30523804 0.0003297 0.0002213 0.9996703 -0.0002213 0.9996703 -0.0002213 0.0003297 0.0002213
31375021 0.0003369 0.0002716 0.9996631 -0.0002716 0.9996631 -0.0002716 0.0003369 0.0002716
32249977 0.0003445 0.0003219 0.9996555 -0.0003219 0.9996555 -0.0003219 0.0003445 0.0003219
33149332 0.0003526 0.0003723 0.9996474 -0.0003723 0.9996474 -0.0003723 0.0003526 0.0003723
34073768 0.0003611 0.0004228 0.9996389 -0.0004228 0.9996389 -0.0004228 0.0003611 0.0004228
35023984 0.0003702 0.0004734 0.9996298 -0.0004734 0.9996298 -0.0004734 0.0003702 0.0004734
36000698 0.0003799 0.0005241 0.9996201 -0.0005241 0.9996201 -0.0005241 0.0003799 0.0005241
37004650 0.0003902 0.0005749 0.9996098 -0.0005749 0.9996098 -0.0005749 0.0003902 0.0005749
38036599 0.0004012 0.0006259 0.9995988 -0.0006259 0.9995988 -0.0006259 0.0004012 0.0006259
39097326 0.0004129 0.0006770 0.9995871 -0.0006770 0.9995871 -0.0006770 0.0004129 0.0006770
