!Murata Part Number: GRM188B11C334MA01
!These Parameters are Measured in Series Mode Connection
!Data Generated on Mar 30, 2021
!       o--ll--o
!Port1            Port2
!       o------o
!Operation Temp=25[degC], DC Bias Voltage=0[V]
!Freq. Start=100[Hz] Stop=6[GHz] 401[Steps]
# Hz S RI R 50
!Freq.(Hz) S11(Real) S11(Imag) S21(Real) S21(Imag) S12(Real) S12(Imag) S22(Real) S22(Imag)
100 0.9995248 -0.0192482 0.0004752 0.0192482 0.0004752 0.0192482 0.9995248 -0.0192482
105 0.9994856 -0.0201256 0.0005144 0.0201256 0.0005144 0.0201256 0.9994856 -0.0201256
109 0.9994429 -0.0210428 0.0005571 0.0210428 0.0005571 0.0210428 0.9994429 -0.0210428
114 0.9993965 -0.0220018 0.0006035 0.0220018 0.0006035 0.0220018 0.9993965 -0.0220018
120 0.9993459 -0.0230044 0.0006541 0.0230044 0.0006541 0.0230044 0.9993459 -0.0230044
125 0.9992909 -0.0240526 0.0007091 0.0240526 0.0007091 0.0240526 0.9992909 -0.0240526
131 0.9992310 -0.0251484 0.0007690 0.0251484 0.0007690 0.0251484 0.9992310 -0.0251484
137 0.9991658 -0.0262940 0.0008342 0.0262940 0.0008342 0.0262940 0.9991658 -0.0262940
143 0.9990948 -0.0274915 0.0009052 0.0274915 0.0009052 0.0274915 0.9990948 -0.0274915
150 0.9990175 -0.0287434 0.0009825 0.0287434 0.0009825 0.0287434 0.9990175 -0.0287434
156 0.9989334 -0.0300521 0.0010666 0.0300521 0.0010666 0.0300521 0.9989334 -0.0300521
164 0.9988418 -0.0314201 0.0011582 0.0314201 0.0011582 0.0314201 0.9988418 -0.0314201
171 0.9987420 -0.0328501 0.0012580 0.0328501 0.0012580 0.0328501 0.9987420 -0.0328501
179 0.9986333 -0.0343448 0.0013667 0.0343448 0.0013667 0.0343448 0.9986333 -0.0343448
187 0.9985150 -0.0359072 0.0014850 0.0359072 0.0014850 0.0359072 0.9985150 -0.0359072
196 0.9983861 -0.0375402 0.0016139 0.0375402 0.0016139 0.0375402 0.9983861 -0.0375402
205 0.9982456 -0.0392471 0.0017544 0.0392471 0.0017544 0.0392471 0.9982456 -0.0392471
214 0.9980926 -0.0410310 0.0019074 0.0410310 0.0019074 0.0410310 0.9980926 -0.0410310
224 0.9979259 -0.0428954 0.0020741 0.0428954 0.0020741 0.0428954 0.9979259 -0.0428954
234 0.9977443 -0.0448439 0.0022557 0.0448439 0.0022557 0.0448439 0.9977443 -0.0448439
245 0.9975463 -0.0468802 0.0024537 0.0468802 0.0024537 0.0468802 0.9975463 -0.0468802
256 0.9973305 -0.0490081 0.0026695 0.0490081 0.0026695 0.0490081 0.9973305 -0.0490081
268 0.9970953 -0.0512317 0.0029047 0.0512317 0.0029047 0.0512317 0.9970953 -0.0512317
280 0.9968388 -0.0535550 0.0031612 0.0535550 0.0031612 0.0535550 0.9968388 -0.0535550
293 0.9965592 -0.0559825 0.0034408 0.0559825 0.0034408 0.0559825 0.9965592 -0.0559825
306 0.9962543 -0.0585187 0.0037457 0.0585187 0.0037457 0.0585187 0.9962543 -0.0585187
320 0.9959218 -0.0611681 0.0040782 0.0611681 0.0040782 0.0611681 0.9959218 -0.0611681
335 0.9955591 -0.0639357 0.0044409 0.0639357 0.0044409 0.0639357 0.9955591 -0.0639357
350 0.9951635 -0.0668264 0.0048365 0.0668264 0.0048365 0.0668264 0.9951635 -0.0668264
366 0.9947320 -0.0698453 0.0052680 0.0698453 0.0052680 0.0698453 0.9947320 -0.0698453
383 0.9942613 -0.0729979 0.0057387 0.0729979 0.0057387 0.0729979 0.9942613 -0.0729979
401 0.9937478 -0.0762895 0.0062522 0.0762895 0.0062522 0.0762895 0.9937478 -0.0762895
419 0.9931876 -0.0797258 0.0068124 0.0797258 0.0068124 0.0797258 0.9931876 -0.0797258
438 0.9925766 -0.0833127 0.0074234 0.0833127 0.0074234 0.0833127 0.9925766 -0.0833127
458 0.9919100 -0.0870561 0.0080900 0.0870561 0.0080900 0.0870561 0.9919100 -0.0870561
479 0.9911829 -0.0909621 0.0088171 0.0909621 0.0088171 0.0909621 0.9911829 -0.0909621
501 0.9903899 -0.0950370 0.0096101 0.0950370 0.0096101 0.0950370 0.9903899 -0.0950370
524 0.9895250 -0.0992870 0.0104750 0.0992870 0.0104750 0.0992870 0.9895250 -0.0992870
548 0.9885819 -0.1037187 0.0114181 0.1037187 0.0114181 0.1037187 0.9885819 -0.1037187
573 0.9875536 -0.1083386 0.0124464 0.1083386 0.0124464 0.1083386 0.9875536 -0.1083386
600 0.9864327 -0.1131532 0.0135673 0.1131532 0.0135673 0.1131532 0.9864327 -0.1131532
627 0.9852109 -0.1181693 0.0147891 0.1181693 0.0147891 0.1181693 0.9852109 -0.1181693
656 0.9838796 -0.1233935 0.0161204 0.1233935 0.0161204 0.1233935 0.9838796 -0.1233935
686 0.9824293 -0.1288324 0.0175707 0.1288324 0.0175707 0.1288324 0.9824293 -0.1288324
717 0.9808496 -0.1344924 0.0191504 0.1344924 0.0191504 0.1344924 0.9808496 -0.1344924
750 0.9791295 -0.1403802 0.0208705 0.1403802 0.0208705 0.1403802 0.9791295 -0.1403802
784 0.9772573 -0.1465018 0.0227427 0.1465018 0.0227427 0.1465018 0.9772573 -0.1465018
820 0.9752200 -0.1528632 0.0247800 0.1528632 0.0247800 0.1528632 0.9752200 -0.1528632
858 0.9730040 -0.1594702 0.0269960 0.1594702 0.0269960 0.1594702 0.9730040 -0.1594702
897 0.9705946 -0.1663280 0.0294054 0.1663280 0.0294054 0.1663280 0.9705946 -0.1663280
938 0.9679759 -0.1734413 0.0320241 0.1734413 0.0320241 0.1734413 0.9679759 -0.1734413
981 0.9651312 -0.1808143 0.0348688 0.1808143 0.0348688 0.1808143 0.9651312 -0.1808143
1026 0.9620425 -0.1884504 0.0379575 0.1884504 0.0379575 0.1884504 0.9620425 -0.1884504
1073 0.9586906 -0.1963523 0.0413094 0.1963523 0.0413094 0.1963523 0.9586906 -0.1963523
1122 0.9550554 -0.2045214 0.0449446 0.2045214 0.0449446 0.2045214 0.9550554 -0.2045214
1174 0.9511152 -0.2129582 0.0488848 0.2129582 0.0488848 0.2129582 0.9511152 -0.2129582
1227 0.9468475 -0.2216617 0.0531525 0.2216617 0.0531525 0.2216617 0.9468475 -0.2216617
1283 0.9422284 -0.2306295 0.0577716 0.2306295 0.0577716 0.2306295 0.9422284 -0.2306295
1342 0.9372331 -0.2398573 0.0627669 0.2398573 0.0627669 0.2398573 0.9372331 -0.2398573
1404 0.9318354 -0.2493389 0.0681646 0.2493389 0.0681646 0.2493389 0.9318354 -0.2493389
1468 0.9260083 -0.2590659 0.0739917 0.2590659 0.0739917 0.2590659 0.9260083 -0.2590659
1535 0.9197241 -0.2690274 0.0802759 0.2690274 0.0802759 0.2690274 0.9197241 -0.2690274
1606 0.9129542 -0.2792099 0.0870458 0.2792099 0.0870458 0.2792099 0.9129542 -0.2792099
1679 0.9056696 -0.2895968 0.0943304 0.2895968 0.0943304 0.2895968 0.9056696 -0.2895968
1756 0.8978409 -0.3001685 0.1021591 0.3001685 0.1021591 0.3001685 0.8978409 -0.3001685
1836 0.8894391 -0.3109018 0.1105609 0.3109018 0.1105609 0.3109018 0.8894391 -0.3109018
1920 0.8804352 -0.3217697 0.1195648 0.3217697 0.1195648 0.3217697 0.8804352 -0.3217697
2008 0.8708014 -0.3327416 0.1291986 0.3327416 0.1291986 0.3327416 0.8708014 -0.3327416
2100 0.8605108 -0.3437827 0.1394892 0.3437827 0.1394892 0.3437827 0.8605108 -0.3437827
2196 0.8495385 -0.3548541 0.1504615 0.3548541 0.1504615 0.3548541 0.8495385 -0.3548541
2297 0.8378619 -0.3659128 0.1621381 0.3659128 0.1621381 0.3659128 0.8378619 -0.3659128
2402 0.8254615 -0.3769116 0.1745385 0.3769116 0.1745385 0.3769116 0.8254615 -0.3769116
2512 0.8123210 -0.3877990 0.1876790 0.3877990 0.1876790 0.3877990 0.8123210 -0.3877990
2627 0.7984289 -0.3985201 0.2015711 0.3985201 0.2015711 0.3985201 0.7984289 -0.3985201
2748 0.7837782 -0.4090161 0.2162218 0.4090161 0.2162218 0.4090161 0.7837782 -0.4090161
2873 0.7683677 -0.4192255 0.2316323 0.4192255 0.2316323 0.4192255 0.7683677 -0.4192255
3005 0.7522025 -0.4290840 0.2477975 0.4290840 0.2477975 0.4290840 0.7522025 -0.4290840
3143 0.7352944 -0.4385257 0.2647056 0.4385257 0.2647056 0.4385257 0.7352944 -0.4385257
3287 0.7176626 -0.4474837 0.2823374 0.4474837 0.2823374 0.4474837 0.7176626 -0.4474837
3437 0.6993339 -0.4558910 0.3006661 0.4558910 0.3006661 0.4558910 0.6993339 -0.4558910
3594 0.6803430 -0.4636817 0.3196570 0.4636817 0.3196570 0.4636817 0.6803430 -0.4636817
3759 0.6607329 -0.4707920 0.3392671 0.4707920 0.3392671 0.4707920 0.6607329 -0.4707920
3931 0.6405541 -0.4771613 0.3594459 0.4771613 0.3594459 0.4771613 0.6405541 -0.4771613
4111 0.6198650 -0.4827334 0.3801350 0.4827334 0.3801350 0.4827334 0.6198650 -0.4827334
4299 0.5987310 -0.4874578 0.4012690 0.4874578 0.4012690 0.4874578 0.5987310 -0.4874578
4496 0.5772240 -0.4912907 0.4227760 0.4912907 0.4227760 0.4912907 0.5772240 -0.4912907
4702 0.5554214 -0.4941957 0.4445786 0.4941957 0.4445786 0.4941957 0.5554214 -0.4941957
4918 0.5334050 -0.4961449 0.4665950 0.4961449 0.4665950 0.4961449 0.5334050 -0.4961449
5143 0.5112600 -0.4971197 0.4887400 0.4971197 0.4887400 0.4971197 0.5112600 -0.4971197
5378 0.4890734 -0.4971107 0.5109266 0.4971107 0.5109266 0.4971107 0.4890734 -0.4971107
5625 0.4669329 -0.4961186 0.5330671 0.4961186 0.5330671 0.4961186 0.4669329 -0.4961186
5882 0.4449254 -0.4941535 0.5550746 0.4941535 0.5550746 0.4941535 0.4449254 -0.4941535
6151 0.4231355 -0.4912350 0.5768645 0.4912350 0.5768645 0.4912350 0.4231355 -0.4912350
6433 0.4016445 -0.4873918 0.5983555 0.4873918 0.5983555 0.4873918 0.4016445 -0.4873918
6728 0.3805291 -0.4826609 0.6194709 0.4826609 0.6194709 0.4826609 0.3805291 -0.4826609
7036 0.3598601 -0.4770864 0.6401399 0.4770864 0.6401399 0.4770864 0.3598601 -0.4770864
7358 0.3397022 -0.4707193 0.6602978 0.4707193 0.6602978 0.4707193 0.3397022 -0.4707193
7695 0.3201126 -0.4636157 0.6798874 0.4636157 0.6798874 0.4636157 0.3201126 -0.4636157
8047 0.3011412 -0.4558359 0.6988588 0.4558359 0.6988588 0.4558359 0.3011412 -0.4558359
8416 0.2828300 -0.4474435 0.7171700 0.4474435 0.7171700 0.4474435 0.2828300 -0.4474435
8801 0.2652129 -0.4385039 0.7347871 0.4385039 0.7347871 0.4385039 0.2652129 -0.4385039
9204 0.2483162 -0.4290834 0.7516838 0.4290834 0.7516838 0.4290834 0.2483162 -0.4290834
9626 0.2321586 -0.4192481 0.7678414 0.4192481 0.7678414 0.4192481 0.2321586 -0.4192481
10066 0.2167518 -0.4090633 0.7832482 0.4090633 0.7832482 0.4090633 0.2167518 -0.4090633
10527 0.2021007 -0.3985923 0.7978993 0.3985923 0.7978993 0.3985923 0.2021007 -0.3985923
11009 0.1882040 -0.3878960 0.8117960 0.3878960 0.8117960 0.3878960 0.1882040 -0.3878960
11514 0.1750552 -0.3770324 0.8249448 0.3770324 0.8249448 0.3770324 0.1750552 -0.3770324
12041 0.1626429 -0.3660559 0.8373571 0.3660559 0.8373571 0.3660559 0.1626429 -0.3660559
12592 0.1509514 -0.3550172 0.8490486 0.3550172 0.8490486 0.3550172 0.1509514 -0.3550172
13169 0.1399617 -0.3439631 0.8600383 0.3439631 0.8600383 0.3439631 0.1399617 -0.3439631
13772 0.1296516 -0.3329365 0.8703484 0.3329365 0.8703484 0.3329365 0.1296516 -0.3329365
14402 0.1199968 -0.3219760 0.8800032 0.3219760 0.8800032 0.3219760 0.1199968 -0.3219760
15062 0.1109713 -0.3111164 0.8890287 0.3111164 0.8890287 0.3111164 0.1109713 -0.3111164
15752 0.1025474 -0.3003883 0.8974526 0.3003883 0.8974526 0.3003883 0.1025474 -0.3003883
16473 0.0946970 -0.2898187 0.9053030 0.2898187 0.9053030 0.2898187 0.0946970 -0.2898187
17227 0.0873912 -0.2794311 0.9126088 0.2794311 0.9126088 0.2794311 0.0873912 -0.2794311
18016 0.0806013 -0.2692454 0.9193987 0.2692454 0.9193987 0.2692454 0.0806013 -0.2692454
18841 0.0742984 -0.2592785 0.9257016 0.2592785 0.9257016 0.2592785 0.0742984 -0.2592785
19704 0.0684544 -0.2495443 0.9315456 0.2495443 0.9315456 0.2495443 0.0684544 -0.2495443
20606 0.0630415 -0.2400539 0.9369585 0.2400539 0.9369585 0.2400539 0.0630415 -0.2400539
21550 0.0580329 -0.2308162 0.9419671 0.2308162 0.9419671 0.2308162 0.0580329 -0.2308162
22537 0.0534025 -0.2218377 0.9465975 0.2218377 0.9465975 0.2218377 0.0534025 -0.2218377
23569 0.0491255 -0.2131230 0.9508745 0.2131230 0.9508745 0.2131230 0.0491255 -0.2131230
24648 0.0451778 -0.2046749 0.9548222 0.2046749 0.9548222 0.2046749 0.0451778 -0.2046749
25777 0.0415369 -0.1964946 0.9584631 0.1964946 0.9584631 0.1964946 0.0415369 -0.1964946
26957 0.0381809 -0.1885819 0.9618191 0.1885819 0.9618191 0.1885819 0.0381809 -0.1885819
28191 0.0350896 -0.1809355 0.9649104 0.1809355 0.9649104 0.1809355 0.0350896 -0.1809355
29482 0.0322435 -0.1735529 0.9677565 0.1735529 0.9677565 0.1735529 0.0322435 -0.1735529
30832 0.0296247 -0.1664309 0.9703753 0.1664309 0.9703753 0.1664309 0.0296247 -0.1664309
32244 0.0272159 -0.1595653 0.9727841 0.1595653 0.9727841 0.1595653 0.0272159 -0.1595653
33721 0.0250013 -0.1529515 0.9749987 0.1529515 0.9749987 0.1529515 0.0250013 -0.1529515
35265 0.0229660 -0.1465842 0.9770340 0.1465842 0.9770340 0.1465842 0.0229660 -0.1465842
36880 0.0210961 -0.1404578 0.9789039 0.1404578 0.9789039 0.1404578 0.0210961 -0.1404578
38569 0.0193787 -0.1345662 0.9806213 0.1345662 0.9806213 0.1345662 0.0193787 -0.1345662
40335 0.0178016 -0.1289033 0.9821984 0.1289033 0.9821984 0.1289033 0.0178016 -0.1289033
42182 0.0163538 -0.1234624 0.9836462 0.1234624 0.9836462 0.1234624 0.0163538 -0.1234624
44113 0.0150249 -0.1182370 0.9849751 0.1182370 0.9849751 0.1182370 0.0150249 -0.1182370
46134 0.0138054 -0.1132205 0.9861946 0.1132205 0.9861946 0.1132205 0.0138054 -0.1132205
48246 0.0126863 -0.1084060 0.9873137 0.1084060 0.9873137 0.1084060 0.0126863 -0.1084060
50455 0.0116594 -0.1037870 0.9883406 0.1037870 0.9883406 0.1037870 0.0116594 -0.1037870
52766 0.0107173 -0.0993565 0.9892827 0.0993565 0.9892827 0.0993565 0.0107173 -0.0993565
55182 0.0098529 -0.0951081 0.9901471 0.0951081 0.9901471 0.0951081 0.0098529 -0.0951081
57709 0.0090598 -0.0910353 0.9909402 0.0910353 0.9909402 0.0910353 0.0090598 -0.0910353
60352 0.0083322 -0.0871314 0.9916678 0.0871314 0.9916678 0.0871314 0.0083322 -0.0871314
63115 0.0076646 -0.0833903 0.9923354 0.0833903 0.9923354 0.0833903 0.0076646 -0.0833903
66005 0.0070520 -0.0798057 0.9929480 0.0798057 0.9929480 0.0798057 0.0070520 -0.0798057
69028 0.0064898 -0.0763717 0.9935102 0.0763717 0.9935102 0.0763717 0.0064898 -0.0763717
72189 0.0059738 -0.0730823 0.9940262 0.0730823 0.9940262 0.0730823 0.0059738 -0.0730823
75495 0.0055002 -0.0699319 0.9944998 0.0699319 0.9944998 0.0699319 0.0055002 -0.0699319
78952 0.0050654 -0.0669148 0.9949346 0.0669148 0.9949346 0.0669148 0.0050654 -0.0669148
82567 0.0046662 -0.0640258 0.9953338 0.0640258 0.9953338 0.0640258 0.0046662 -0.0640258
86348 0.0042997 -0.0612596 0.9957003 0.0612596 0.9957003 0.0612596 0.0042997 -0.0612596
90302 0.0039631 -0.0586113 0.9960369 0.0586113 0.9960369 0.0586113 0.0039631 -0.0586113
94437 0.0036539 -0.0560759 0.9963461 0.0560759 0.9963461 0.0560759 0.0036539 -0.0560759
98762 0.0033698 -0.0536488 0.9966302 0.0536488 0.9966302 0.0536488 0.0033698 -0.0536488
103284 0.0031089 -0.0513256 0.9968911 0.0513256 0.9968911 0.0513256 0.0031089 -0.0513256
108014 0.0028692 -0.0491019 0.9971308 0.0491019 0.9971308 0.0491019 0.0028692 -0.0491019
112960 0.0026489 -0.0469734 0.9973511 0.0469734 0.9973511 0.0469734 0.0026489 -0.0469734
118133 0.0024464 -0.0449364 0.9975536 0.0449364 0.9975536 0.0449364 0.0024464 -0.0449364
123542 0.0022604 -0.0429868 0.9977396 0.0429868 0.9977396 0.0429868 0.0022604 -0.0429868
129199 0.0020894 -0.0411210 0.9979106 0.0411210 0.9979106 0.0411210 0.0020894 -0.0411210
135116 0.0019323 -0.0393355 0.9980677 0.0393355 0.9980677 0.0393355 0.0019323 -0.0393355
141303 0.0017879 -0.0376268 0.9982121 0.0376268 0.9982121 0.0376268 0.0017879 -0.0376268
147774 0.0016552 -0.0359918 0.9983448 0.0359918 0.9983448 0.0359918 0.0016552 -0.0359918
154540 0.0015333 -0.0344273 0.9984667 0.0344273 0.9984667 0.0344273 0.0015333 -0.0344273
161617 0.0014212 -0.0329303 0.9985788 0.0329303 0.9985788 0.0329303 0.0014212 -0.0329303
169018 0.0013183 -0.0314979 0.9986817 0.0314979 0.9986817 0.0314979 0.0013183 -0.0314979
176758 0.0012237 -0.0301274 0.9987763 0.0301274 0.9987763 0.0301274 0.0012237 -0.0301274
184852 0.0011367 -0.0288162 0.9988633 0.0288162 0.9988633 0.0288162 0.0011367 -0.0288162
193316 0.0010569 -0.0275618 0.9989431 0.0275618 0.9989431 0.0275618 0.0010569 -0.0275618
202169 0.0009835 -0.0263616 0.9990165 0.0263616 0.9990165 0.0263616 0.0009835 -0.0263616
211427 0.0009161 -0.0252135 0.9990839 0.0252135 0.9990839 0.0252135 0.0009161 -0.0252135
221108 0.0008542 -0.0241151 0.9991458 0.0241151 0.9991458 0.0241151 0.0008542 -0.0241151
231233 0.0007973 -0.0230644 0.9992027 0.0230644 0.9992027 0.0230644 0.0007973 -0.0230644
241822 0.0007450 -0.0220593 0.9992550 0.0220593 0.9992550 0.0220593 0.0007450 -0.0220593
252896 0.0006969 -0.0210979 0.9993031 0.0210979 0.9993031 0.0210979 0.0006969 -0.0210979
264476 0.0006528 -0.0201782 0.9993472 0.0201782 0.9993472 0.0201782 0.0006528 -0.0201782
276587 0.0006122 -0.0192985 0.9993878 0.0192985 0.9993878 0.0192985 0.0006122 -0.0192985
289253 0.0005748 -0.0184571 0.9994252 0.0184571 0.9994252 0.0184571 0.0005748 -0.0184571
302498 0.0005405 -0.0176523 0.9994595 0.0176523 0.9994595 0.0176523 0.0005405 -0.0176523
316350 0.0005089 -0.0168825 0.9994911 0.0168825 0.9994911 0.0168825 0.0005089 -0.0168825
330837 0.0004798 -0.0161463 0.9995202 0.0161463 0.9995202 0.0161463 0.0004798 -0.0161463
345986 0.0004530 -0.0154421 0.9995470 0.0154421 0.9995470 0.0154421 0.0004530 -0.0154421
361830 0.0004283 -0.0147686 0.9995717 0.0147686 0.9995717 0.0147686 0.0004283 -0.0147686
378399 0.0004055 -0.0141244 0.9995945 0.0141244 0.9995945 0.0141244 0.0004055 -0.0141244
395726 0.0003844 -0.0135083 0.9996156 0.0135083 0.9996156 0.0135083 0.0003844 -0.0135083
413847 0.0003650 -0.0129190 0.9996350 0.0129190 0.9996350 0.0129190 0.0003650 -0.0129190
432798 0.0003470 -0.0123554 0.9996530 0.0123554 0.9996530 0.0123554 0.0003470 -0.0123554
452617 0.0003304 -0.0118164 0.9996696 0.0118164 0.9996696 0.0118164 0.0003304 -0.0118164
473344 0.0003149 -0.0113008 0.9996851 0.0113008 0.9996851 0.0113008 0.0003149 -0.0113008
495019 0.0003006 -0.0108077 0.9996994 0.0108077 0.9996994 0.0108077 0.0003006 -0.0108077
517687 0.0002873 -0.0103360 0.9997127 0.0103360 0.9997127 0.0103360 0.0002873 -0.0103360
541393 0.0002749 -0.0098849 0.9997251 0.0098849 0.9997251 0.0098849 0.0002749 -0.0098849
566185 0.0002633 -0.0094533 0.9997367 0.0094533 0.9997367 0.0094533 0.0002633 -0.0094533
592111 0.0002525 -0.0090405 0.9997475 0.0090405 0.9997475 0.0090405 0.0002525 -0.0090405
619225 0.0002424 -0.0086456 0.9997576 0.0086456 0.9997576 0.0086456 0.0002424 -0.0086456
647581 0.0002330 -0.0082679 0.9997670 0.0082679 0.9997670 0.0082679 0.0002330 -0.0082679
677235 0.0002242 -0.0079065 0.9997758 0.0079065 0.9997758 0.0079065 0.0002242 -0.0079065
708247 0.0002159 -0.0075607 0.9997841 0.0075607 0.9997841 0.0075607 0.0002159 -0.0075607
740679 0.0002082 -0.0072299 0.9997918 0.0072299 0.9997918 0.0072299 0.0002082 -0.0072299
774597 0.0002009 -0.0069134 0.9997991 0.0069134 0.9997991 0.0069134 0.0002009 -0.0069134
810067 0.0001940 -0.0066106 0.9998060 0.0066106 0.9998060 0.0066106 0.0001940 -0.0066106
847162 0.0001876 -0.0063208 0.9998124 0.0063208 0.9998124 0.0063208 0.0001876 -0.0063208
885955 0.0001815 -0.0060434 0.9998185 0.0060434 0.9998185 0.0060434 0.0001815 -0.0060434
926525 0.0001758 -0.0057780 0.9998242 0.0057780 0.9998242 0.0057780 0.0001758 -0.0057780
968953 0.0001705 -0.0055240 0.9998295 0.0055240 0.9998295 0.0055240 0.0001705 -0.0055240
1013323 0.0001654 -0.0052808 0.9998346 0.0052808 0.9998346 0.0052808 0.0001654 -0.0052808
1059725 0.0001607 -0.0050481 0.9998393 0.0050481 0.9998393 0.0050481 0.0001607 -0.0050481
1108252 0.0001563 -0.0048253 0.9998437 0.0048253 0.9998437 0.0048253 0.0001563 -0.0048253
1159002 0.0001521 -0.0046120 0.9998479 0.0046120 0.9998479 0.0046120 0.0001521 -0.0046120
1212075 0.0001482 -0.0044079 0.9998518 0.0044079 0.9998518 0.0044079 0.0001482 -0.0044079
1267578 0.0001445 -0.0042124 0.9998555 0.0042124 0.9998555 0.0042124 0.0001445 -0.0042124
1325623 0.0001411 -0.0040252 0.9998589 0.0040252 0.9998589 0.0040252 0.0001411 -0.0040252
1386327 0.0001379 -0.0038459 0.9998621 0.0038459 0.9998621 0.0038459 0.0001379 -0.0038459
1449809 0.0001349 -0.0036742 0.9998651 0.0036742 0.9998651 0.0036742 0.0001349 -0.0036742
1516199 0.0001321 -0.0035098 0.9998679 0.0035098 0.9998679 0.0035098 0.0001321 -0.0035098
1585629 0.0001295 -0.0033523 0.9998705 0.0033523 0.9998705 0.0033523 0.0001295 -0.0033523
1658239 0.0001271 -0.0032014 0.9998729 0.0032014 0.9998729 0.0032014 0.0001271 -0.0032014
1734173 0.0001249 -0.0030569 0.9998751 0.0030569 0.9998751 0.0030569 0.0001249 -0.0030569
1813585 0.0001228 -0.0029184 0.9998772 0.0029184 0.9998772 0.0029184 0.0001228 -0.0029184
1896632 0.0001209 -0.0027856 0.9998791 0.0027856 0.9998791 0.0027856 0.0001209 -0.0027856
1983483 0.0001191 -0.0026584 0.9998809 0.0026584 0.9998809 0.0026584 0.0001191 -0.0026584
2074311 0.0001175 -0.0025365 0.9998825 0.0025365 0.9998825 0.0025365 0.0001175 -0.0025365
