!Murata Part Number: GRM188R70J105KA01
!These Parameters are Measured in Series Mode Connection
!Data Generated on Mar 30, 2021
!       o--ll--o
!Port1            Port2
!       o------o
!Operation Temp=25[degC], DC Bias Voltage=0[V]
!Freq. Start=100[Hz] Stop=6[GHz] 401[Steps]
# Hz S RI R 50
!Freq.(Hz) S11(Real) S11(Imag) S21(Real) S21(Imag) S12(Real) S12(Imag) S22(Real) S22(Imag)
100 0.9977252 -0.0403190 0.0022748 0.0403190 0.0022748 0.0403190 0.9977252 -0.0403190
105 0.9975400 -0.0421314 0.0024600 0.0421314 0.0024600 0.0421314 0.9975400 -0.0421314
109 0.9973399 -0.0440245 0.0026601 0.0440245 0.0026601 0.0440245 0.9973399 -0.0440245
114 0.9971237 -0.0460019 0.0028763 0.0460019 0.0028763 0.0460019 0.9971237 -0.0460019
120 0.9968899 -0.0480675 0.0031101 0.0480675 0.0031101 0.0480675 0.9968899 -0.0480675
125 0.9966368 -0.0502250 0.0033632 0.0502250 0.0033632 0.0502250 0.9966368 -0.0502250
131 0.9963629 -0.0524786 0.0036371 0.0524786 0.0036371 0.0524786 0.9963629 -0.0524786
137 0.9960663 -0.0548323 0.0039337 0.0548323 0.0039337 0.0548323 0.9960663 -0.0548323
143 0.9957448 -0.0572907 0.0042552 0.0572907 0.0042552 0.0572907 0.9957448 -0.0572907
150 0.9953961 -0.0598581 0.0046039 0.0598581 0.0046039 0.0598581 0.9953961 -0.0598581
156 0.9950179 -0.0625392 0.0049821 0.0625392 0.0049821 0.0625392 0.9950179 -0.0625392
164 0.9946074 -0.0653388 0.0053926 0.0653388 0.0053926 0.0653388 0.9946074 -0.0653388
171 0.9941616 -0.0682619 0.0058384 0.0682619 0.0058384 0.0682619 0.9941616 -0.0682619
179 0.9936773 -0.0713136 0.0063227 0.0713136 0.0063227 0.0713136 0.9936773 -0.0713136
187 0.9931511 -0.0744992 0.0068489 0.0744992 0.0068489 0.0744992 0.9931511 -0.0744992
196 0.9925790 -0.0778239 0.0074210 0.0778239 0.0074210 0.0778239 0.9925790 -0.0778239
205 0.9919570 -0.0812934 0.0080430 0.0812934 0.0080430 0.0812934 0.9919570 -0.0812934
214 0.9912805 -0.0849133 0.0087195 0.0849133 0.0087195 0.0849133 0.9912805 -0.0849133
224 0.9905446 -0.0886893 0.0094554 0.0886893 0.0094554 0.0886893 0.9905446 -0.0886893
234 0.9897442 -0.0926272 0.0102558 0.0926272 0.0102558 0.0926272 0.9897442 -0.0926272
245 0.9888733 -0.0967331 0.0111267 0.0967331 0.0111267 0.0967331 0.9888733 -0.0967331
256 0.9879260 -0.1010128 0.0120740 0.1010128 0.0120740 0.1010128 0.9879260 -0.1010128
268 0.9868954 -0.1054726 0.0131046 0.1054726 0.0131046 0.1054726 0.9868954 -0.1054726
280 0.9857744 -0.1101184 0.0142256 0.1101184 0.0142256 0.1101184 0.9857744 -0.1101184
293 0.9845552 -0.1149563 0.0154448 0.1149563 0.0154448 0.1149563 0.9845552 -0.1149563
306 0.9832294 -0.1199925 0.0167706 0.1199925 0.0167706 0.1199925 0.9832294 -0.1199925
320 0.9817881 -0.1252328 0.0182119 0.1252328 0.0182119 0.1252328 0.9817881 -0.1252328
335 0.9802217 -0.1306833 0.0197783 0.1306833 0.0197783 0.1306833 0.9802217 -0.1306833
350 0.9785197 -0.1363496 0.0214803 0.1363496 0.0214803 0.1363496 0.9785197 -0.1363496
366 0.9766712 -0.1422374 0.0233288 0.1422374 0.0233288 0.1422374 0.9766712 -0.1422374
383 0.9746643 -0.1483519 0.0253357 0.1483519 0.0253357 0.1483519 0.9746643 -0.1483519
401 0.9724862 -0.1546982 0.0275138 0.1546982 0.0275138 0.1546982 0.9724862 -0.1546982
419 0.9701237 -0.1612809 0.0298763 0.1612809 0.0298763 0.1612809 0.9701237 -0.1612809
438 0.9675621 -0.1681042 0.0324379 0.1681042 0.0324379 0.1681042 0.9675621 -0.1681042
458 0.9647864 -0.1751717 0.0352136 0.1751717 0.0352136 0.1751717 0.9647864 -0.1751717
479 0.9617803 -0.1824866 0.0382197 0.1824866 0.0382197 0.1824866 0.9617803 -0.1824866
501 0.9585267 -0.1900510 0.0414733 0.1900510 0.0414733 0.1900510 0.9585267 -0.1900510
524 0.9550073 -0.1978665 0.0449927 0.1978665 0.0449927 0.1978665 0.9550073 -0.1978665
548 0.9512031 -0.2059336 0.0487969 0.2059336 0.0487969 0.2059336 0.9512031 -0.2059336
573 0.9470939 -0.2142517 0.0529061 0.2142517 0.0529061 0.2142517 0.9470939 -0.2142517
600 0.9426585 -0.2228189 0.0573415 0.2228189 0.0573415 0.2228189 0.9426585 -0.2228189
627 0.9378749 -0.2316319 0.0621251 0.2316319 0.0621251 0.2316319 0.9378749 -0.2316319
656 0.9327199 -0.2406861 0.0672801 0.2406861 0.0672801 0.2406861 0.9327199 -0.2406861
686 0.9271696 -0.2499747 0.0728304 0.2499747 0.0728304 0.2499747 0.9271696 -0.2499747
717 0.9211991 -0.2594891 0.0788009 0.2594891 0.0788009 0.2594891 0.9211991 -0.2594891
750 0.9147828 -0.2692186 0.0852172 0.2692186 0.0852172 0.2692186 0.9147828 -0.2692186
784 0.9078946 -0.2791500 0.0921054 0.2791500 0.0921054 0.2791500 0.9078946 -0.2791500
820 0.9005078 -0.2892673 0.0994922 0.2892673 0.0994922 0.2892673 0.9005078 -0.2892673
858 0.8925956 -0.2995519 0.1074044 0.2995519 0.1074044 0.2995519 0.8925956 -0.2995519
897 0.8841311 -0.3099819 0.1158689 0.3099819 0.1158689 0.3099819 0.8841311 -0.3099819
938 0.8750877 -0.3205321 0.1249123 0.3205321 0.1249123 0.3205321 0.8750877 -0.3205321
981 0.8654395 -0.3311737 0.1345605 0.3311737 0.1345605 0.3311737 0.8654395 -0.3311737
1026 0.8551616 -0.3418743 0.1448384 0.3418743 0.1448384 0.3418743 0.8551616 -0.3418743
1073 0.8442309 -0.3525977 0.1557691 0.3525977 0.1557691 0.3525977 0.8442309 -0.3525977
1122 0.8326259 -0.3633034 0.1673741 0.3633034 0.1673741 0.3633034 0.8326259 -0.3633034
1174 0.8203281 -0.3739475 0.1796719 0.3739475 0.1796719 0.3739475 0.8203281 -0.3739475
1227 0.8073220 -0.3844818 0.1926780 0.3844818 0.1926780 0.3844818 0.8073220 -0.3844818
1283 0.7935961 -0.3948546 0.2064039 0.3948546 0.2064039 0.3948546 0.7935961 -0.3948546
1342 0.7791432 -0.4050107 0.2208568 0.4050107 0.2208568 0.4050107 0.7791432 -0.4050107
1404 0.7639614 -0.4148918 0.2360386 0.4148918 0.2360386 0.4148918 0.7639614 -0.4148918
1468 0.7480546 -0.4244371 0.2519454 0.4244371 0.2519454 0.4244371 0.7480546 -0.4244371
1535 0.7314332 -0.4335837 0.2685668 0.4335837 0.2685668 0.4335837 0.7314332 -0.4335837
1606 0.7141141 -0.4422679 0.2858859 0.4422679 0.2858859 0.4422679 0.7141141 -0.4422679
1679 0.6961220 -0.4504252 0.3038780 0.4504252 0.3038780 0.4504252 0.6961220 -0.4504252
1756 0.6774888 -0.4579921 0.3225112 0.4579921 0.3225112 0.4579921 0.6774888 -0.4579921
1836 0.6582544 -0.4649068 0.3417456 0.4649068 0.3417456 0.4649068 0.6582544 -0.4649068
1920 0.6384663 -0.4711102 0.3615337 0.4711102 0.3615337 0.4711102 0.6384663 -0.4711102
2008 0.6181793 -0.4765472 0.3818207 0.4765472 0.3818207 0.4765472 0.6181793 -0.4765472
2100 0.5974557 -0.4811681 0.4025443 0.4811681 0.4025443 0.4811681 0.5974557 -0.4811681
2196 0.5763638 -0.4849289 0.4236362 0.4849289 0.4236362 0.4849289 0.5763638 -0.4849289
2297 0.5549777 -0.4877933 0.4450223 0.4877933 0.4450223 0.4877933 0.5549777 -0.4877933
2402 0.5333762 -0.4897326 0.4666238 0.4897326 0.4666238 0.4897326 0.5333762 -0.4897326
2512 0.5116415 -0.4907271 0.4883585 0.4907271 0.4883585 0.4907271 0.5116415 -0.4907271
2627 0.4898579 -0.4907662 0.5101421 0.4907662 0.5101421 0.4907662 0.4898579 -0.4907662
2748 0.4681108 -0.4898488 0.5318892 0.4898488 0.5318892 0.4898488 0.4681108 -0.4898488
2873 0.4464851 -0.4879834 0.5535149 0.4879834 0.5535149 0.4879834 0.4464851 -0.4879834
3005 0.4250637 -0.4851877 0.5749363 0.4851877 0.5749363 0.4851877 0.4250637 -0.4851877
3143 0.4039265 -0.4814883 0.5960735 0.4814883 0.5960735 0.4814883 0.4039265 -0.4814883
3287 0.3831490 -0.4769204 0.6168510 0.4769204 0.6168510 0.4769204 0.3831490 -0.4769204
3437 0.3628015 -0.4715264 0.6371985 0.4715264 0.6371985 0.4715264 0.3628015 -0.4715264
3594 0.3429479 -0.4653552 0.6570521 0.4653552 0.6570521 0.4653552 0.3429479 -0.4653552
3759 0.3236451 -0.4584615 0.6763549 0.4584615 0.6763549 0.4584615 0.3236451 -0.4584615
3931 0.3049428 -0.4509040 0.6950572 0.4509040 0.6950572 0.4509040 0.3049428 -0.4509040
4111 0.2868827 -0.4427448 0.7131173 0.4427448 0.7131173 0.4427448 0.2868827 -0.4427448
4299 0.2694989 -0.4340482 0.7305011 0.4340482 0.7305011 0.4340482 0.2694989 -0.4340482
4496 0.2528174 -0.4248792 0.7471826 0.4248792 0.7471826 0.4248792 0.2528174 -0.4248792
4702 0.2368569 -0.4153031 0.7631431 0.4153031 0.7631431 0.4153031 0.2368569 -0.4153031
4918 0.2216291 -0.4053839 0.7783709 0.4053839 0.7783709 0.4053839 0.2216291 -0.4053839
5143 0.2071386 -0.3951842 0.7928614 0.3951842 0.7928614 0.3951842 0.2071386 -0.3951842
5378 0.1933843 -0.3847638 0.8066157 0.3847638 0.8066157 0.3847638 0.1933843 -0.3847638
5625 0.1803594 -0.3741797 0.8196406 0.3741797 0.8196406 0.3741797 0.1803594 -0.3741797
5882 0.1680522 -0.3634854 0.8319478 0.3634854 0.8319478 0.3634854 0.1680522 -0.3634854
6151 0.1564471 -0.3527306 0.8435529 0.3527306 0.8435529 0.3527306 0.1564471 -0.3527306
6433 0.1455249 -0.3419609 0.8544751 0.3419609 0.8544751 0.3419609 0.1455249 -0.3419609
6728 0.1352634 -0.3312180 0.8647366 0.3312180 0.8647366 0.3312180 0.1352634 -0.3312180
7036 0.1256384 -0.3205393 0.8743616 0.3205393 0.8743616 0.3205393 0.1256384 -0.3205393
7358 0.1166238 -0.3099582 0.8833762 0.3099582 0.8833762 0.3099582 0.1166238 -0.3099582
7695 0.1081925 -0.2995042 0.8918075 0.2995042 0.8918075 0.2995042 0.1081925 -0.2995042
8047 0.1003165 -0.2892029 0.8996835 0.2892029 0.8996835 0.2892029 0.1003165 -0.2892029
8416 0.0929677 -0.2790765 0.9070323 0.2790765 0.9070323 0.2790765 0.0929677 -0.2790765
8801 0.0861178 -0.2691435 0.9138822 0.2691435 0.9138822 0.2691435 0.0861178 -0.2691435
9204 0.0797390 -0.2594196 0.9202610 0.2594196 0.9202610 0.2594196 0.0797390 -0.2594196
9626 0.0738040 -0.2499176 0.9261960 0.2499176 0.9261960 0.2499176 0.0738040 -0.2499176
10066 0.0682861 -0.2406476 0.9317139 0.2406476 0.9317139 0.2406476 0.0682861 -0.2406476
10527 0.0631596 -0.2316174 0.9368404 0.2316174 0.9368404 0.2316174 0.0631596 -0.2316174
11009 0.0584000 -0.2228329 0.9416000 0.2228329 0.9416000 0.2228329 0.0584000 -0.2228329
11514 0.0539836 -0.2142979 0.9460164 0.2142979 0.9460164 0.2142979 0.0539836 -0.2142979
12041 0.0498880 -0.2060147 0.9501120 0.2060147 0.9501120 0.2060147 0.0498880 -0.2060147
12592 0.0460918 -0.1979843 0.9539082 0.1979843 0.9539082 0.1979843 0.0460918 -0.1979843
13169 0.0425749 -0.1902064 0.9574251 0.1902064 0.9574251 0.1902064 0.0425749 -0.1902064
13772 0.0393184 -0.1826795 0.9606816 0.1826795 0.9606816 0.1826795 0.0393184 -0.1826795
14402 0.0363042 -0.1754014 0.9636958 0.1754014 0.9636958 0.1754014 0.0363042 -0.1754014
15062 0.0335157 -0.1683692 0.9664843 0.1683692 0.9664843 0.1683692 0.0335157 -0.1683692
15752 0.0309371 -0.1615792 0.9690629 0.1615792 0.9690629 0.1615792 0.0309371 -0.1615792
16473 0.0285536 -0.1550272 0.9714464 0.1550272 0.9714464 0.1550272 0.0285536 -0.1550272
17227 0.0263513 -0.1487087 0.9736487 0.1487087 0.9736487 0.1487087 0.0263513 -0.1487087
18016 0.0243174 -0.1426188 0.9756826 0.1426188 0.9756826 0.1426188 0.0243174 -0.1426188
18841 0.0224398 -0.1367522 0.9775602 0.1367522 0.9775602 0.1367522 0.0224398 -0.1367522
19704 0.0207071 -0.1311036 0.9792929 0.1311036 0.9792929 0.1311036 0.0207071 -0.1311036
20606 0.0191089 -0.1256673 0.9808911 0.1256673 0.9808911 0.1256673 0.0191089 -0.1256673
21550 0.0176352 -0.1204376 0.9823648 0.1204376 0.9823648 0.1204376 0.0176352 -0.1204376
22537 0.0162769 -0.1154089 0.9837231 0.1154089 0.9837231 0.1154089 0.0162769 -0.1154089
23569 0.0150254 -0.1105751 0.9849746 0.1105751 0.9849746 0.1105751 0.0150254 -0.1105751
24648 0.0138728 -0.1059305 0.9861272 0.1059305 0.9861272 0.1059305 0.0138728 -0.1059305
25777 0.0128115 -0.1014693 0.9871885 0.1014693 0.9871885 0.1014693 0.0128115 -0.1014693
26957 0.0118346 -0.0971854 0.9881654 0.0971854 0.9881654 0.0971854 0.0118346 -0.0971854
28191 0.0109357 -0.0930733 0.9890643 0.0930733 0.9890643 0.0930733 0.0109357 -0.0930733
29482 0.0101088 -0.0891271 0.9898912 0.0891271 0.9898912 0.0891271 0.0101088 -0.0891271
30832 0.0093482 -0.0853412 0.9906518 0.0853412 0.9906518 0.0853412 0.0093482 -0.0853412
32244 0.0086489 -0.0817101 0.9913511 0.0817101 0.9913511 0.0817101 0.0086489 -0.0817101
33721 0.0080059 -0.0782281 0.9919941 0.0782281 0.9919941 0.0782281 0.0080059 -0.0782281
35265 0.0074148 -0.0748900 0.9925852 0.0748900 0.9925852 0.0748900 0.0074148 -0.0748900
36880 0.0068714 -0.0716906 0.9931286 0.0716906 0.9931286 0.0716906 0.0068714 -0.0716906
38569 0.0063720 -0.0686246 0.9936280 0.0686246 0.9936280 0.0686246 0.0063720 -0.0686246
40335 0.0059129 -0.0656870 0.9940871 0.0656870 0.9940871 0.0656870 0.0059129 -0.0656870
42182 0.0054908 -0.0628730 0.9945092 0.0628730 0.9945092 0.0628730 0.0054908 -0.0628730
44113 0.0051027 -0.0601777 0.9948973 0.0601777 0.9948973 0.0601777 0.0051027 -0.0601777
46134 0.0047458 -0.0575967 0.9952542 0.0575967 0.9952542 0.0575967 0.0047458 -0.0575967
48246 0.0044175 -0.0551252 0.9955825 0.0551252 0.9955825 0.0551252 0.0044175 -0.0551252
50455 0.0041154 -0.0527591 0.9958846 0.0527591 0.9958846 0.0527591 0.0041154 -0.0527591
52766 0.0038372 -0.0504940 0.9961628 0.0504940 0.9961628 0.0504940 0.0038372 -0.0504940
55182 0.0035810 -0.0483258 0.9964190 0.0483258 0.9964190 0.0483258 0.0035810 -0.0483258
57709 0.0033448 -0.0462507 0.9966552 0.0462507 0.9966552 0.0462507 0.0033448 -0.0462507
60352 0.0031269 -0.0442647 0.9968731 0.0442647 0.9968731 0.0442647 0.0031269 -0.0442647
63115 0.0029258 -0.0423641 0.9970742 0.0423641 0.9970742 0.0423641 0.0029258 -0.0423641
66005 0.0027399 -0.0405454 0.9972601 0.0405454 0.9972601 0.0405454 0.0027399 -0.0405454
69028 0.0025681 -0.0388052 0.9974319 0.0388052 0.9974319 0.0388052 0.0025681 -0.0388052
72189 0.0024089 -0.0371400 0.9975911 0.0371400 0.9975911 0.0371400 0.0024089 -0.0371400
75495 0.0022614 -0.0355467 0.9977386 0.0355467 0.9977386 0.0355467 0.0022614 -0.0355467
78952 0.0021245 -0.0340222 0.9978755 0.0340222 0.9978755 0.0340222 0.0021245 -0.0340222
82567 0.0019972 -0.0325635 0.9980028 0.0325635 0.9980028 0.0325635 0.0019972 -0.0325635
86348 0.0018788 -0.0311678 0.9981212 0.0311678 0.9981212 0.0311678 0.0018788 -0.0311678
90302 0.0017685 -0.0298323 0.9982315 0.0298323 0.9982315 0.0298323 0.0017685 -0.0298323
94437 0.0016656 -0.0285544 0.9983344 0.0285544 0.9983344 0.0285544 0.0016656 -0.0285544
98762 0.0015695 -0.0273316 0.9984305 0.0273316 0.9984305 0.0273316 0.0015695 -0.0273316
103284 0.0014795 -0.0261613 0.9985205 0.0261613 0.9985205 0.0261613 0.0014795 -0.0261613
108014 0.0013953 -0.0250414 0.9986047 0.0250414 0.9986047 0.0250414 0.0013953 -0.0250414
112960 0.0013164 -0.0239696 0.9986836 0.0239696 0.9986836 0.0239696 0.0013164 -0.0239696
118133 0.0012423 -0.0229437 0.9987577 0.0229437 0.9987577 0.0229437 0.0012423 -0.0229437
123542 0.0011728 -0.0219617 0.9988272 0.0219617 0.9988272 0.0219617 0.0011728 -0.0219617
129199 0.0011074 -0.0210217 0.9988926 0.0210217 0.9988926 0.0210217 0.0011074 -0.0210217
135116 0.0010460 -0.0201218 0.9989540 0.0201218 0.9989540 0.0201218 0.0010460 -0.0201218
141303 0.0009882 -0.0192604 0.9990118 0.0192604 0.9990118 0.0192604 0.0009882 -0.0192604
147774 0.0009338 -0.0184356 0.9990662 0.0184356 0.9990662 0.0184356 0.0009338 -0.0184356
154540 0.0008826 -0.0176459 0.9991174 0.0176459 0.9991174 0.0176459 0.0008826 -0.0176459
161617 0.0008345 -0.0168897 0.9991655 0.0168897 0.9991655 0.0168897 0.0008345 -0.0168897
169018 0.0007892 -0.0161657 0.9992108 0.0161657 0.9992108 0.0161657 0.0007892 -0.0161657
176758 0.0007467 -0.0154724 0.9992533 0.0154724 0.9992533 0.0154724 0.0007467 -0.0154724
184852 0.0007067 -0.0148085 0.9992933 0.0148085 0.9992933 0.0148085 0.0007067 -0.0148085
193316 0.0006691 -0.0141728 0.9993309 0.0141728 0.9993309 0.0141728 0.0006691 -0.0141728
202169 0.0006338 -0.0135641 0.9993662 0.0135641 0.9993662 0.0135641 0.0006338 -0.0135641
211427 0.0006007 -0.0129812 0.9993993 0.0129812 0.9993993 0.0129812 0.0006007 -0.0129812
221108 0.0005697 -0.0124230 0.9994303 0.0124230 0.9994303 0.0124230 0.0005697 -0.0124230
231233 0.0005406 -0.0118885 0.9994594 0.0118885 0.9994594 0.0118885 0.0005406 -0.0118885
241822 0.0005133 -0.0113767 0.9994867 0.0113767 0.9994867 0.0113767 0.0005133 -0.0113767
252896 0.0004879 -0.0108867 0.9995121 0.0108867 0.9995121 0.0108867 0.0004879 -0.0108867
264476 0.0004640 -0.0104176 0.9995360 0.0104176 0.9995360 0.0104176 0.0004640 -0.0104176
276587 0.0004417 -0.0099684 0.9995583 0.0099684 0.9995583 0.0099684 0.0004417 -0.0099684
289253 0.0004209 -0.0095385 0.9995791 0.0095385 0.9995791 0.0095385 0.0004209 -0.0095385
302498 0.0004015 -0.0091268 0.9995985 0.0091268 0.9995985 0.0091268 0.0004015 -0.0091268
316350 0.0003833 -0.0087328 0.9996167 0.0087328 0.9996167 0.0087328 0.0003833 -0.0087328
330837 0.0003663 -0.0083556 0.9996337 0.0083556 0.9996337 0.0083556 0.0003663 -0.0083556
345986 0.0003505 -0.0079946 0.9996495 0.0079946 0.9996495 0.0079946 0.0003505 -0.0079946
361830 0.0003356 -0.0076491 0.9996644 0.0076491 0.9996644 0.0076491 0.0003356 -0.0076491
378399 0.0003218 -0.0073184 0.9996782 0.0073184 0.9996782 0.0073184 0.0003218 -0.0073184
395726 0.0003088 -0.0070019 0.9996912 0.0070019 0.9996912 0.0070019 0.0003088 -0.0070019
413847 0.0002967 -0.0066990 0.9997033 0.0066990 0.9997033 0.0066990 0.0002967 -0.0066990
432798 0.0002853 -0.0064091 0.9997147 0.0064091 0.9997147 0.0064091 0.0002853 -0.0064091
452617 0.0002747 -0.0061317 0.9997253 0.0061317 0.9997253 0.0061317 0.0002747 -0.0061317
473344 0.0002646 -0.0058663 0.9997354 0.0058663 0.9997354 0.0058663 0.0002646 -0.0058663
495019 0.0002552 -0.0056122 0.9997448 0.0056122 0.9997448 0.0056122 0.0002552 -0.0056122
517687 0.0002463 -0.0053691 0.9997537 0.0053691 0.9997537 0.0053691 0.0002463 -0.0053691
541393 0.0002379 -0.0051365 0.9997621 0.0051365 0.9997621 0.0051365 0.0002379 -0.0051365
566185 0.0002299 -0.0049139 0.9997701 0.0049139 0.9997701 0.0049139 0.0002299 -0.0049139
592111 0.0002224 -0.0047008 0.9997776 0.0047008 0.9997776 0.0047008 0.0002224 -0.0047008
619225 0.0002152 -0.0044969 0.9997848 0.0044969 0.9997848 0.0044969 0.0002152 -0.0044969
647581 0.0002084 -0.0043017 0.9997916 0.0043017 0.9997916 0.0043017 0.0002084 -0.0043017
677235 0.0002019 -0.0041149 0.9997981 0.0041149 0.9997981 0.0041149 0.0002019 -0.0041149
708247 0.0001957 -0.0039360 0.9998043 0.0039360 0.9998043 0.0039360 0.0001957 -0.0039360
740679 0.0001898 -0.0037648 0.9998102 0.0037648 0.9998102 0.0037648 0.0001898 -0.0037648
774597 0.0001841 -0.0036009 0.9998159 0.0036009 0.9998159 0.0036009 0.0001841 -0.0036009
810067 0.0001787 -0.0034439 0.9998213 0.0034439 0.9998213 0.0034439 0.0001787 -0.0034439
847162 0.0001734 -0.0032936 0.9998266 0.0032936 0.9998266 0.0032936 0.0001734 -0.0032936
885955 0.0001684 -0.0031496 0.9998316 0.0031496 0.9998316 0.0031496 0.0001684 -0.0031496
926525 0.0001636 -0.0030116 0.9998364 0.0030116 0.9998364 0.0030116 0.0001636 -0.0030116
968953 0.0001590 -0.0028795 0.9998410 0.0028795 0.9998410 0.0028795 0.0001590 -0.0028795
1013323 0.0001545 -0.0027528 0.9998455 0.0027528 0.9998455 0.0027528 0.0001545 -0.0027528
1059725 0.0001503 -0.0026315 0.9998497 0.0026315 0.9998497 0.0026315 0.0001503 -0.0026315
1108252 0.0001462 -0.0025151 0.9998538 0.0025151 0.9998538 0.0025151 0.0001462 -0.0025151
1159002 0.0001423 -0.0024036 0.9998577 0.0024036 0.9998577 0.0024036 0.0001423 -0.0024036
1212075 0.0001386 -0.0022967 0.9998614 0.0022967 0.9998614 0.0022967 0.0001386 -0.0022967
1267578 0.0001350 -0.0021941 0.9998650 0.0021941 0.9998650 0.0021941 0.0001350 -0.0021941
1325623 0.0001316 -0.0020957 0.9998684 0.0020957 0.9998684 0.0020957 0.0001316 -0.0020957
1386327 0.0001284 -0.0020014 0.9998716 0.0020014 0.9998716 0.0020014 0.0001284 -0.0020014
1449809 0.0001253 -0.0019108 0.9998747 0.0019108 0.9998747 0.0019108 0.0001253 -0.0019108
1516199 0.0001224 -0.0018239 0.9998776 0.0018239 0.9998776 0.0018239 0.0001224 -0.0018239
1585629 0.0001196 -0.0017405 0.9998804 0.0017405 0.9998804 0.0017405 0.0001196 -0.0017405
1658239 0.0001170 -0.0016604 0.9998830 0.0016604 0.9998830 0.0016604 0.0001170 -0.0016604
1734173 0.0001146 -0.0015835 0.9998854 0.0015835 0.9998854 0.0015835 0.0001146 -0.0015835
1813585 0.0001123 -0.0015096 0.9998877 0.0015096 0.9998877 0.0015096 0.0001123 -0.0015096
1896632 0.0001102 -0.0014386 0.9998898 0.0014386 0.9998898 0.0014386 0.0001102 -0.0014386
1983483 0.0001082 -0.0013703 0.9998918 0.0013703 0.9998918 0.0013703 0.0001082 -0.0013703
2074311 0.0001064 -0.0013047 0.9998936 0.0013047 0.9998936 0.0013047 0.0001064 -0.0013047
