!Murata Part Number: GRM188C81C475ME11
!These Parameters are Measured in Series Mode Connection
!Data Generated on Mar 30, 2021
!       o--ll--o
!Port1            Port2
!       o------o
!Operation Temp=25[degC], DC Bias Voltage=0[V]
!Freq. Start=100[Hz] Stop=6[GHz] 401[Steps]
# Hz S RI R 50
!Freq.(Hz) S11(Real) S11(Imag) S21(Real) S21(Imag) S12(Real) S12(Imag) S22(Real) S22(Imag)
100 0.9486478 -0.2134463 0.0513522 0.2134463 0.0513522 0.2134463 0.9486478 -0.2134463
105 0.9443028 -0.2220784 0.0556972 0.2220784 0.0556972 0.2220784 0.9443028 -0.2220784
109 0.9396052 -0.2309671 0.0603948 0.2309671 0.0603948 0.2309671 0.9396052 -0.2309671
114 0.9345305 -0.2401074 0.0654695 0.2401074 0.0654695 0.2401074 0.9345305 -0.2401074
120 0.9290530 -0.2494919 0.0709470 0.2494919 0.0709470 0.2494919 0.9290530 -0.2494919
125 0.9231468 -0.2591115 0.0768532 0.2591115 0.0768532 0.2591115 0.9231468 -0.2591115
131 0.9167848 -0.2689543 0.0832152 0.2689543 0.0832152 0.2689543 0.9167848 -0.2689543
137 0.9099397 -0.2790058 0.0900603 0.2790058 0.0900603 0.2790058 0.9099397 -0.2790058
143 0.9025840 -0.2892488 0.0974160 0.2892488 0.0974160 0.2892488 0.9025840 -0.2892488
150 0.8946899 -0.2996629 0.1053101 0.2996629 0.1053101 0.2996629 0.8946899 -0.2996629
156 0.8862301 -0.3102245 0.1137699 0.3102245 0.1137699 0.3102245 0.8862301 -0.3102245
164 0.8771779 -0.3209064 0.1228221 0.3209064 0.1228221 0.3209064 0.8771779 -0.3209064
171 0.8675075 -0.3316781 0.1324925 0.3316781 0.1324925 0.3316781 0.8675075 -0.3316781
179 0.8571946 -0.3425052 0.1428054 0.3425052 0.1428054 0.3425052 0.8571946 -0.3425052
187 0.8462166 -0.3533496 0.1537834 0.3533496 0.1537834 0.3533496 0.8462166 -0.3533496
196 0.8345536 -0.3641696 0.1654464 0.3641696 0.1654464 0.3641696 0.8345536 -0.3641696
205 0.8221883 -0.3749195 0.1778117 0.3749195 0.1778117 0.3749195 0.8221883 -0.3749195
214 0.8091069 -0.3855503 0.1908931 0.3855503 0.1908931 0.3855503 0.8091069 -0.3855503
224 0.7952998 -0.3960095 0.2047002 0.3960095 0.2047002 0.3960095 0.7952998 -0.3960095
234 0.7807617 -0.4062416 0.2192383 0.4062416 0.2192383 0.4062416 0.7807617 -0.4062416
245 0.7654929 -0.4161885 0.2345071 0.4161885 0.2345071 0.4161885 0.7654929 -0.4161885
256 0.7494990 -0.4257898 0.2505010 0.4257898 0.2505010 0.4257898 0.7494990 -0.4257898
268 0.7327921 -0.4349836 0.2672079 0.4349836 0.2672079 0.4349836 0.7327921 -0.4349836
280 0.7153908 -0.4437074 0.2846092 0.4437074 0.2846092 0.4437074 0.7153908 -0.4437074
293 0.6973206 -0.4518984 0.3026794 0.4518984 0.3026794 0.4518984 0.6973206 -0.4518984
306 0.6786143 -0.4594947 0.3213857 0.4594947 0.3213857 0.4594947 0.6786143 -0.4594947
320 0.6593121 -0.4664364 0.3406879 0.4664364 0.3406879 0.4664364 0.6593121 -0.4664364
335 0.6394611 -0.4726664 0.3605389 0.4726664 0.3605389 0.4726664 0.6394611 -0.4726664
350 0.6191157 -0.4781312 0.3808843 0.4781312 0.3808843 0.4781312 0.6191157 -0.4781312
366 0.5983370 -0.4827825 0.4016630 0.4827825 0.4016630 0.4827825 0.5983370 -0.4827825
383 0.5771920 -0.4865778 0.4228080 0.4865778 0.4228080 0.4865778 0.5771920 -0.4865778
401 0.5557530 -0.4894814 0.4442470 0.4894814 0.4442470 0.4894814 0.5557530 -0.4894814
419 0.5340971 -0.4914652 0.4659029 0.4914652 0.4659029 0.4914652 0.5340971 -0.4914652
438 0.5123044 -0.4925092 0.4876956 0.4925092 0.4876956 0.4925092 0.5123044 -0.4925092
458 0.4904576 -0.4926024 0.5095424 0.4926024 0.5095424 0.4926024 0.4904576 -0.4926024
479 0.4686402 -0.4917426 0.5313598 0.4917426 0.5313598 0.4917426 0.4686402 -0.4917426
501 0.4469357 -0.4899370 0.5530643 0.4899370 0.5530643 0.4899370 0.4469357 -0.4899370
524 0.4254259 -0.4872016 0.5745741 0.4872016 0.5745741 0.4872016 0.4254259 -0.4872016
548 0.4041901 -0.4835612 0.5958099 0.4835612 0.5958099 0.4835612 0.4041901 -0.4835612
573 0.3833034 -0.4790487 0.6166966 0.4790487 0.6166966 0.4790487 0.3833034 -0.4790487
600 0.3628362 -0.4737045 0.6371638 0.4737045 0.6371638 0.4737045 0.3628362 -0.4737045
627 0.3428530 -0.4675756 0.6571470 0.4675756 0.6571470 0.4675756 0.3428530 -0.4675756
656 0.3234117 -0.4607145 0.6765883 0.4607145 0.6765883 0.4607145 0.3234117 -0.4607145
686 0.3045633 -0.4531784 0.6954367 0.4531784 0.6954367 0.4531784 0.3045633 -0.4531784
717 0.2863511 -0.4450281 0.7136489 0.4450281 0.7136489 0.4450281 0.2863511 -0.4450281
750 0.2688110 -0.4363265 0.7311890 0.4363265 0.7311890 0.4363265 0.2688110 -0.4363265
784 0.2519710 -0.4271382 0.7480290 0.4271382 0.7480290 0.4271382 0.2519710 -0.4271382
820 0.2358521 -0.4175277 0.7641479 0.4175277 0.7641479 0.4175277 0.2358521 -0.4175277
858 0.2204677 -0.4075594 0.7795323 0.4075594 0.7795323 0.4075594 0.2204677 -0.4075594
897 0.2058247 -0.3972958 0.7941753 0.3972958 0.7941753 0.3972958 0.2058247 -0.3972958
938 0.1919238 -0.3867976 0.8080762 0.3867976 0.8080762 0.3867976 0.1919238 -0.3867976
981 0.1787599 -0.3761225 0.8212401 0.3761225 0.8212401 0.3761225 0.1787599 -0.3761225
1026 0.1663232 -0.3653252 0.8336768 0.3653252 0.8336768 0.3653252 0.1663232 -0.3653252
1073 0.1545992 -0.3544566 0.8454008 0.3544566 0.8454008 0.3544566 0.1545992 -0.3544566
1122 0.1435699 -0.3435640 0.8564301 0.3435640 0.8564301 0.3435640 0.1435699 -0.3435640
1174 0.1332140 -0.3326904 0.8667860 0.3326904 0.8667860 0.3326904 0.1332140 -0.3326904
1227 0.1235079 -0.3218750 0.8764921 0.3218750 0.8764921 0.3218750 0.1235079 -0.3218750
1283 0.1144261 -0.3111529 0.8855739 0.3111529 0.8855739 0.3111529 0.1144261 -0.3111529
1342 0.1059414 -0.3005551 0.8940586 0.3005551 0.8940586 0.3005551 0.1059414 -0.3005551
1404 0.0980260 -0.2901090 0.9019740 0.2901090 0.9019740 0.2901090 0.0980260 -0.2901090
1468 0.0906513 -0.2798381 0.9093487 0.2798381 0.9093487 0.2798381 0.0906513 -0.2798381
1535 0.0837888 -0.2697626 0.9162112 0.2697626 0.9162112 0.2697626 0.0837888 -0.2697626
1606 0.0774098 -0.2598994 0.9225902 0.2598994 0.9225902 0.2598994 0.0774098 -0.2598994
1679 0.0714865 -0.2502625 0.9285135 0.2502625 0.9285135 0.2502625 0.0714865 -0.2502625
1756 0.0659912 -0.2408631 0.9340088 0.2408631 0.9340088 0.2408631 0.0659912 -0.2408631
1836 0.0608974 -0.2317101 0.9391026 0.2317101 0.9391026 0.2317101 0.0608974 -0.2317101
1920 0.0561793 -0.2228098 0.9438207 0.2228098 0.9438207 0.2228098 0.0561793 -0.2228098
2008 0.0518124 -0.2141667 0.9481876 0.2141667 0.9481876 0.2141667 0.0518124 -0.2141667
2100 0.0477729 -0.2057838 0.9522271 0.2057838 0.9522271 0.2057838 0.0477729 -0.2057838
2196 0.0440387 -0.1976621 0.9559613 0.1976621 0.9559613 0.1976621 0.0440387 -0.1976621
2297 0.0405884 -0.1898014 0.9594116 0.1898014 0.9594116 0.1898014 0.0405884 -0.1898014
2402 0.0374019 -0.1822005 0.9625981 0.1822005 0.9625981 0.1822005 0.0374019 -0.1822005
2512 0.0344606 -0.1748570 0.9655394 0.1748570 0.9655394 0.1748570 0.0344606 -0.1748570
2627 0.0317466 -0.1677677 0.9682534 0.1677677 0.9682534 0.1677677 0.0317466 -0.1677677
2748 0.0292433 -0.1609287 0.9707567 0.1609287 0.9707567 0.1609287 0.0292433 -0.1609287
2873 0.0269352 -0.1543354 0.9730648 0.1543354 0.9730648 0.1543354 0.0269352 -0.1543354
3005 0.0248079 -0.1479830 0.9751921 0.1479830 0.9751921 0.1479830 0.0248079 -0.1479830
3143 0.0228478 -0.1418659 0.9771522 0.1418659 0.9771522 0.1418659 0.0228478 -0.1418659
3287 0.0210422 -0.1359785 0.9789578 0.1359785 0.9789578 0.1359785 0.0210422 -0.1359785
3437 0.0193796 -0.1303148 0.9806204 0.1303148 0.9806204 0.1303148 0.0193796 -0.1303148
3594 0.0178489 -0.1248688 0.9821511 0.1248688 0.9821511 0.1248688 0.0178489 -0.1248688
3759 0.0164401 -0.1196343 0.9835599 0.1196343 0.9835599 0.1196343 0.0164401 -0.1196343
3931 0.0151437 -0.1146049 0.9848563 0.1146049 0.9848563 0.1146049 0.0151437 -0.1146049
4111 0.0139511 -0.1097742 0.9860489 0.1097742 0.9860489 0.1097742 0.0139511 -0.1097742
4299 0.0128541 -0.1051361 0.9871459 0.1051361 0.9871459 0.1051361 0.0128541 -0.1051361
4496 0.0118453 -0.1006841 0.9881547 0.1006841 0.9881547 0.1006841 0.0118453 -0.1006841
4702 0.0109177 -0.0964119 0.9890823 0.0964119 0.9890823 0.0964119 0.0109177 -0.0964119
4918 0.0100649 -0.0923135 0.9899351 0.0923135 0.9899351 0.0923135 0.0100649 -0.0923135
5143 0.0092809 -0.0883827 0.9907191 0.0883827 0.9907191 0.0883827 0.0092809 -0.0883827
5378 0.0085602 -0.0846135 0.9914398 0.0846135 0.9914398 0.0846135 0.0085602 -0.0846135
5625 0.0078977 -0.0810001 0.9921023 0.0810001 0.9921023 0.0810001 0.0078977 -0.0810001
5882 0.0072887 -0.0775366 0.9927113 0.0775366 0.9927113 0.0775366 0.0072887 -0.0775366
6151 0.0067289 -0.0742174 0.9932711 0.0742174 0.9932711 0.0742174 0.0067289 -0.0742174
6433 0.0062143 -0.0710371 0.9937857 0.0710371 0.9937857 0.0710371 0.0062143 -0.0710371
6728 0.0057412 -0.0679903 0.9942588 0.0679903 0.9942588 0.0679903 0.0057412 -0.0679903
7036 0.0053060 -0.0650718 0.9946940 0.0650718 0.9946940 0.0650718 0.0053060 -0.0650718
7358 0.0049059 -0.0622765 0.9950941 0.0622765 0.9950941 0.0622765 0.0049059 -0.0622765
7695 0.0045377 -0.0595996 0.9954623 0.0595996 0.9954623 0.0595996 0.0045377 -0.0595996
8047 0.0041989 -0.0570362 0.9958011 0.0570362 0.9958011 0.0570362 0.0041989 -0.0570362
8416 0.0038871 -0.0545818 0.9961129 0.0545818 0.9961129 0.0545818 0.0038871 -0.0545818
8801 0.0036000 -0.0522320 0.9964000 0.0522320 0.9964000 0.0522320 0.0036000 -0.0522320
9204 0.0033355 -0.0499823 0.9966645 0.0499823 0.9966645 0.0499823 0.0033355 -0.0499823
9626 0.0030918 -0.0478288 0.9969082 0.0478288 0.9969082 0.0478288 0.0030918 -0.0478288
10066 0.0028671 -0.0457673 0.9971329 0.0457673 0.9971329 0.0457673 0.0028671 -0.0457673
10527 0.0026600 -0.0437940 0.9973400 0.0437940 0.9973400 0.0437940 0.0026600 -0.0437940
11009 0.0024688 -0.0419052 0.9975312 0.0419052 0.9975312 0.0419052 0.0024688 -0.0419052
11514 0.0022924 -0.0400974 0.9977076 0.0400974 0.9977076 0.0400974 0.0022924 -0.0400974
12041 0.0021296 -0.0383671 0.9978704 0.0383671 0.9978704 0.0383671 0.0021296 -0.0383671
12592 0.0019792 -0.0367110 0.9980208 0.0367110 0.9980208 0.0367110 0.0019792 -0.0367110
13169 0.0018402 -0.0351259 0.9981598 0.0351259 0.9981598 0.0351259 0.0018402 -0.0351259
13772 0.0017118 -0.0336089 0.9982882 0.0336089 0.9982882 0.0336089 0.0017118 -0.0336089
14402 0.0015930 -0.0321571 0.9984070 0.0321571 0.9984070 0.0321571 0.0015930 -0.0321571
15062 0.0014833 -0.0307675 0.9985167 0.0307675 0.9985167 0.0307675 0.0014833 -0.0307675
15752 0.0013817 -0.0294377 0.9986183 0.0294377 0.9986183 0.0294377 0.0013817 -0.0294377
16473 0.0012878 -0.0281650 0.9987122 0.0281650 0.9987122 0.0281650 0.0012878 -0.0281650
17227 0.0012010 -0.0269470 0.9987990 0.0269470 0.9987990 0.0269470 0.0012010 -0.0269470
18016 0.0011206 -0.0257814 0.9988794 0.0257814 0.9988794 0.0257814 0.0011206 -0.0257814
18841 0.0010463 -0.0246659 0.9989537 0.0246659 0.9989537 0.0246659 0.0010463 -0.0246659
19704 0.0009775 -0.0235984 0.9990225 0.0235984 0.9990225 0.0235984 0.0009775 -0.0235984
20606 0.0009138 -0.0225769 0.9990862 0.0225769 0.9990862 0.0225769 0.0009138 -0.0225769
21550 0.0008550 -0.0215994 0.9991450 0.0215994 0.9991450 0.0215994 0.0008550 -0.0215994
22537 0.0008005 -0.0206640 0.9991995 0.0206640 0.9991995 0.0206640 0.0008005 -0.0206640
23569 0.0007501 -0.0197690 0.9992499 0.0197690 0.9992499 0.0197690 0.0007501 -0.0197690
24648 0.0007034 -0.0189125 0.9992966 0.0189125 0.9992966 0.0189125 0.0007034 -0.0189125
25777 0.0006602 -0.0180931 0.9993398 0.0180931 0.9993398 0.0180931 0.0006602 -0.0180931
26957 0.0006203 -0.0173091 0.9993797 0.0173091 0.9993797 0.0173091 0.0006203 -0.0173091
28191 0.0005833 -0.0165590 0.9994167 0.0165590 0.9994167 0.0165590 0.0005833 -0.0165590
29482 0.0005490 -0.0158413 0.9994510 0.0158413 0.9994510 0.0158413 0.0005490 -0.0158413
30832 0.0005173 -0.0151547 0.9994827 0.0151547 0.9994827 0.0151547 0.0005173 -0.0151547
32244 0.0004879 -0.0144979 0.9995121 0.0144979 0.9995121 0.0144979 0.0004879 -0.0144979
33721 0.0004607 -0.0138695 0.9995393 0.0138695 0.9995393 0.0138695 0.0004607 -0.0138695
35265 0.0004354 -0.0132684 0.9995646 0.0132684 0.9995646 0.0132684 0.0004354 -0.0132684
36880 0.0004119 -0.0126934 0.9995881 0.0126934 0.9995881 0.0126934 0.0004119 -0.0126934
38569 0.0003901 -0.0121433 0.9996099 0.0121433 0.9996099 0.0121433 0.0003901 -0.0121433
40335 0.0003698 -0.0116172 0.9996302 0.0116172 0.9996302 0.0116172 0.0003698 -0.0116172
42182 0.0003509 -0.0111139 0.9996491 0.0111139 0.9996491 0.0111139 0.0003509 -0.0111139
44113 0.0003332 -0.0106324 0.9996668 0.0106324 0.9996668 0.0106324 0.0003332 -0.0106324
46134 0.0003168 -0.0101719 0.9996832 0.0101719 0.9996832 0.0101719 0.0003168 -0.0101719
48246 0.0003014 -0.0097314 0.9996986 0.0097314 0.9996986 0.0097314 0.0003014 -0.0097314
50455 0.0002871 -0.0093101 0.9997129 0.0093101 0.9997129 0.0093101 0.0002871 -0.0093101
52766 0.0002736 -0.0089070 0.9997264 0.0089070 0.9997264 0.0089070 0.0002736 -0.0089070
55182 0.0002610 -0.0085215 0.9997390 0.0085215 0.9997390 0.0085215 0.0002610 -0.0085215
57709 0.0002491 -0.0081527 0.9997509 0.0081527 0.9997509 0.0081527 0.0002491 -0.0081527
60352 0.0002380 -0.0077999 0.9997620 0.0077999 0.9997620 0.0077999 0.0002380 -0.0077999
63115 0.0002274 -0.0074624 0.9997726 0.0074624 0.9997726 0.0074624 0.0002274 -0.0074624
66005 0.0002175 -0.0071396 0.9997825 0.0071396 0.9997825 0.0071396 0.0002175 -0.0071396
69028 0.0002082 -0.0068308 0.9997918 0.0068308 0.9997918 0.0068308 0.0002082 -0.0068308
72189 0.0001993 -0.0065353 0.9998007 0.0065353 0.9998007 0.0065353 0.0001993 -0.0065353
75495 0.0001910 -0.0062527 0.9998090 0.0062527 0.9998090 0.0062527 0.0001910 -0.0062527
78952 0.0001831 -0.0059822 0.9998169 0.0059822 0.9998169 0.0059822 0.0001831 -0.0059822
82567 0.0001756 -0.0057235 0.9998244 0.0057235 0.9998244 0.0057235 0.0001756 -0.0057235
86348 0.0001685 -0.0054760 0.9998315 0.0054760 0.9998315 0.0054760 0.0001685 -0.0054760
90302 0.0001618 -0.0052392 0.9998382 0.0052392 0.9998382 0.0052392 0.0001618 -0.0052392
94437 0.0001554 -0.0050126 0.9998446 0.0050126 0.9998446 0.0050126 0.0001554 -0.0050126
98762 0.0001493 -0.0047957 0.9998507 0.0047957 0.9998507 0.0047957 0.0001493 -0.0047957
103284 0.0001436 -0.0045883 0.9998564 0.0045883 0.9998564 0.0045883 0.0001436 -0.0045883
108014 0.0001381 -0.0043898 0.9998619 0.0043898 0.9998619 0.0043898 0.0001381 -0.0043898
112960 0.0001329 -0.0041999 0.9998671 0.0041999 0.9998671 0.0041999 0.0001329 -0.0041999
118133 0.0001280 -0.0040181 0.9998720 0.0040181 0.9998720 0.0040181 0.0001280 -0.0040181
123542 0.0001233 -0.0038442 0.9998767 0.0038442 0.9998767 0.0038442 0.0001233 -0.0038442
129199 0.0001189 -0.0036778 0.9998811 0.0036778 0.9998811 0.0036778 0.0001189 -0.0036778
135116 0.0001146 -0.0035186 0.9998854 0.0035186 0.9998854 0.0035186 0.0001146 -0.0035186
141303 0.0001106 -0.0033662 0.9998894 0.0033662 0.9998894 0.0033662 0.0001106 -0.0033662
147774 0.0001068 -0.0032204 0.9998932 0.0032204 0.9998932 0.0032204 0.0001068 -0.0032204
154540 0.0001031 -0.0030809 0.9998969 0.0030809 0.9998969 0.0030809 0.0001031 -0.0030809
161617 0.0000996 -0.0029473 0.9999004 0.0029473 0.9999004 0.0029473 0.0000996 -0.0029473
169018 0.0000963 -0.0028195 0.9999037 0.0028195 0.9999037 0.0028195 0.0000963 -0.0028195
176758 0.0000932 -0.0026972 0.9999068 0.0026972 0.9999068 0.0026972 0.0000932 -0.0026972
184852 0.0000901 -0.0025802 0.9999099 0.0025802 0.9999099 0.0025802 0.0000901 -0.0025802
193316 0.0000873 -0.0024682 0.9999127 0.0024682 0.9999127 0.0024682 0.0000873 -0.0024682
202169 0.0000845 -0.0023610 0.9999155 0.0023610 0.9999155 0.0023610 0.0000845 -0.0023610
211427 0.0000819 -0.0022583 0.9999181 0.0022583 0.9999181 0.0022583 0.0000819 -0.0022583
221108 0.0000794 -0.0021601 0.9999206 0.0021601 0.9999206 0.0021601 0.0000794 -0.0021601
231233 0.0000770 -0.0020661 0.9999230 0.0020661 0.9999230 0.0020661 0.0000770 -0.0020661
241822 0.0000747 -0.0019760 0.9999253 0.0019760 0.9999253 0.0019760 0.0000747 -0.0019760
252896 0.0000725 -0.0018898 0.9999275 0.0018898 0.9999275 0.0018898 0.0000725 -0.0018898
264476 0.0000704 -0.0018073 0.9999296 0.0018073 0.9999296 0.0018073 0.0000704 -0.0018073
276587 0.0000684 -0.0017283 0.9999316 0.0017283 0.9999316 0.0017283 0.0000684 -0.0017283
289253 0.0000665 -0.0016527 0.9999335 0.0016527 0.9999335 0.0016527 0.0000665 -0.0016527
302498 0.0000647 -0.0015802 0.9999353 0.0015802 0.9999353 0.0015802 0.0000647 -0.0015802
316350 0.0000629 -0.0015108 0.9999371 0.0015108 0.9999371 0.0015108 0.0000629 -0.0015108
330837 0.0000613 -0.0014444 0.9999387 0.0014444 0.9999387 0.0014444 0.0000613 -0.0014444
345986 0.0000598 -0.0013807 0.9999402 0.0013807 0.9999402 0.0013807 0.0000598 -0.0013807
361830 0.0000583 -0.0013198 0.9999417 0.0013198 0.9999417 0.0013198 0.0000583 -0.0013198
378399 0.0000569 -0.0012614 0.9999431 0.0012614 0.9999431 0.0012614 0.0000569 -0.0012614
395726 0.0000556 -0.0012054 0.9999444 0.0012054 0.9999444 0.0012054 0.0000556 -0.0012054
413847 0.0000544 -0.0011518 0.9999456 0.0011518 0.9999456 0.0011518 0.0000544 -0.0011518
432798 0.0000532 -0.0011004 0.9999468 0.0011004 0.9999468 0.0011004 0.0000532 -0.0011004
452617 0.0000521 -0.0010512 0.9999479 0.0010512 0.9999479 0.0010512 0.0000521 -0.0010512
473344 0.0000511 -0.0010040 0.9999489 0.0010040 0.9999489 0.0010040 0.0000511 -0.0010040
495019 0.0000501 -0.0009588 0.9999499 0.0009588 0.9999499 0.0009588 0.0000501 -0.0009588
517687 0.0000492 -0.0009155 0.9999508 0.0009155 0.9999508 0.0009155 0.0000492 -0.0009155
541393 0.0000484 -0.0008739 0.9999516 0.0008739 0.9999516 0.0008739 0.0000484 -0.0008739
566185 0.0000476 -0.0008341 0.9999524 0.0008341 0.9999524 0.0008341 0.0000476 -0.0008341
592111 0.0000469 -0.0007958 0.9999531 0.0007958 0.9999531 0.0007958 0.0000469 -0.0007958
619225 0.0000463 -0.0007592 0.9999537 0.0007592 0.9999537 0.0007592 0.0000463 -0.0007592
647581 0.0000457 -0.0007240 0.9999543 0.0007240 0.9999543 0.0007240 0.0000457 -0.0007240
677235 0.0000451 -0.0006903 0.9999549 0.0006903 0.9999549 0.0006903 0.0000451 -0.0006903
708247 0.0000446 -0.0006579 0.9999554 0.0006579 0.9999554 0.0006579 0.0000446 -0.0006579
740679 0.0000441 -0.0006268 0.9999559 0.0006268 0.9999559 0.0006268 0.0000441 -0.0006268
774597 0.0000437 -0.0005970 0.9999563 0.0005970 0.9999563 0.0005970 0.0000437 -0.0005970
810067 0.0000434 -0.0005683 0.9999566 0.0005683 0.9999566 0.0005683 0.0000434 -0.0005683
847162 0.0000430 -0.0005408 0.9999570 0.0005408 0.9999570 0.0005408 0.0000430 -0.0005408
885955 0.0000427 -0.0005143 0.9999573 0.0005143 0.9999573 0.0005143 0.0000427 -0.0005143
926525 0.0000425 -0.0004889 0.9999575 0.0004889 0.9999575 0.0004889 0.0000425 -0.0004889
968953 0.0000422 -0.0004644 0.9999578 0.0004644 0.9999578 0.0004644 0.0000422 -0.0004644
1013323 0.0000421 -0.0004408 0.9999579 0.0004408 0.9999579 0.0004408 0.0000421 -0.0004408
1059725 0.0000419 -0.0004181 0.9999581 0.0004181 0.9999581 0.0004181 0.0000419 -0.0004181
1108252 0.0000418 -0.0003962 0.9999582 0.0003962 0.9999582 0.0003962 0.0000418 -0.0003962
1159002 0.0000417 -0.0003752 0.9999583 0.0003752 0.9999583 0.0003752 0.0000417 -0.0003752
1212075 0.0000416 -0.0003548 0.9999584 0.0003548 0.9999584 0.0003548 0.0000416 -0.0003548
1267578 0.0000416 -0.0003352 0.9999584 0.0003352 0.9999584 0.0003352 0.0000416 -0.0003352
1325623 0.0000416 -0.0003163 0.9999584 0.0003163 0.9999584 0.0003163 0.0000416 -0.0003163
1386327 0.0000417 -0.0002979 0.9999583 0.0002979 0.9999583 0.0002979 0.0000417 -0.0002979
1449809 0.0000418 -0.0002802 0.9999582 0.0002802 0.9999582 0.0002802 0.0000418 -0.0002802
1516199 0.0000419 -0.0002630 0.9999581 0.0002630 0.9999581 0.0002630 0.0000419 -0.0002630
1585629 0.0000420 -0.0002463 0.9999580 0.0002463 0.9999580 0.0002463 0.0000420 -0.0002463
1658239 0.0000422 -0.0002302 0.9999578 0.0002302 0.9999578 0.0002302 0.0000422 -0.0002302
1734173 0.0000424 -0.0002145 0.9999576 0.0002145 0.9999576 0.0002145 0.0000424 -0.0002145
1813585 0.0000427 -0.0001992 0.9999573 0.0001992 0.9999573 0.0001992 0.0000427 -0.0001992
1896632 0.0000430 -0.0001843 0.9999570 0.0001843 0.9999570 0.0001843 0.0000430 -0.0001843
1983483 0.0000434 -0.0001698 0.9999566 0.0001698 0.9999566 0.0001698 0.0000434 -0.0001698
2074311 0.0000438 -0.0001556 0.9999562 0.0001556 0.9999562 0.0001556 0.0000438 -0.0001556
