!Murata Part Number: GRM188R61H474KA12
!These Parameters are Measured in Series Mode Connection
!Data Generated on Mar 30, 2021
!       o--ll--o
!Port1            Port2
!       o------o
!Operation Temp=25[degC], DC Bias Voltage=0[V]
!Freq. Start=100[Hz] Stop=6[GHz] 401[Steps]
# Hz S RI R 50
!Freq.(Hz) S11(Real) S11(Imag) S21(Real) S21(Imag) S12(Real) S12(Imag) S22(Real) S22(Imag)
100 0.9991584 -0.0209313 0.0008416 0.0209313 0.0008416 0.0209313 0.9991584 -0.0209313
105 0.9990994 -0.0218758 0.0009006 0.0218758 0.0009006 0.0218758 0.9990994 -0.0218758
109 0.9990359 -0.0228627 0.0009641 0.0228627 0.0009641 0.0228627 0.9990359 -0.0228627
114 0.9989672 -0.0238940 0.0010328 0.0238940 0.0010328 0.0238940 0.9989672 -0.0238940
120 0.9988932 -0.0249717 0.0011068 0.0249717 0.0011068 0.0249717 0.9988932 -0.0249717
125 0.9988133 -0.0260977 0.0011867 0.0260977 0.0011867 0.0260977 0.9988133 -0.0260977
131 0.9987270 -0.0272743 0.0012730 0.0272743 0.0012730 0.0272743 0.9987270 -0.0272743
137 0.9986339 -0.0285036 0.0013661 0.0285036 0.0013661 0.0285036 0.9986339 -0.0285036
143 0.9985333 -0.0297880 0.0014667 0.0297880 0.0014667 0.0297880 0.9985333 -0.0297880
150 0.9984246 -0.0311299 0.0015754 0.0311299 0.0015754 0.0311299 0.9984246 -0.0311299
156 0.9983073 -0.0325319 0.0016927 0.0325319 0.0016927 0.0325319 0.9983073 -0.0325319
164 0.9981806 -0.0339965 0.0018194 0.0339965 0.0018194 0.0339965 0.9981806 -0.0339965
171 0.9980437 -0.0355266 0.0019563 0.0355266 0.0019563 0.0355266 0.9980437 -0.0355266
179 0.9978957 -0.0371251 0.0021043 0.0371251 0.0021043 0.0371251 0.9978957 -0.0371251
187 0.9977358 -0.0387949 0.0022642 0.0387949 0.0022642 0.0387949 0.9977358 -0.0387949
196 0.9975630 -0.0405393 0.0024370 0.0405393 0.0024370 0.0405393 0.9975630 -0.0405393
205 0.9973761 -0.0423615 0.0026239 0.0423615 0.0026239 0.0423615 0.9973761 -0.0423615
214 0.9971739 -0.0442650 0.0028261 0.0442650 0.0028261 0.0442650 0.9971739 -0.0442650
224 0.9969552 -0.0462532 0.0030448 0.0462532 0.0030448 0.0462532 0.9969552 -0.0462532
234 0.9967184 -0.0483301 0.0032816 0.0483301 0.0032816 0.0483301 0.9967184 -0.0483301
245 0.9964620 -0.0504993 0.0035380 0.0504993 0.0035380 0.0504993 0.9964620 -0.0504993
256 0.9961842 -0.0527650 0.0038158 0.0527650 0.0038158 0.0527650 0.9961842 -0.0527650
268 0.9958832 -0.0551313 0.0041168 0.0551313 0.0041168 0.0551313 0.9958832 -0.0551313
280 0.9955568 -0.0576026 0.0044432 0.0576026 0.0044432 0.0576026 0.9955568 -0.0576026
293 0.9952029 -0.0601834 0.0047971 0.0601834 0.0047971 0.0601834 0.9952029 -0.0601834
306 0.9948188 -0.0628782 0.0051812 0.0628782 0.0051812 0.0628782 0.9948188 -0.0628782
320 0.9944018 -0.0656919 0.0055982 0.0656919 0.0055982 0.0656919 0.9944018 -0.0656919
335 0.9939491 -0.0686295 0.0060509 0.0686295 0.0060509 0.0686295 0.9939491 -0.0686295
350 0.9934573 -0.0716960 0.0065427 0.0716960 0.0065427 0.0716960 0.9934573 -0.0716960
366 0.9929229 -0.0748967 0.0070771 0.0748967 0.0070771 0.0748967 0.9929229 -0.0748967
383 0.9923422 -0.0782369 0.0076578 0.0782369 0.0076578 0.0782369 0.9923422 -0.0782369
401 0.9917109 -0.0817222 0.0082891 0.0817222 0.0082891 0.0817222 0.9917109 -0.0817222
419 0.9910245 -0.0853582 0.0089755 0.0853582 0.0089755 0.0853582 0.9910245 -0.0853582
438 0.9902781 -0.0891506 0.0097219 0.0891506 0.0097219 0.0891506 0.9902781 -0.0891506
458 0.9894665 -0.0931054 0.0105335 0.0931054 0.0105335 0.0931054 0.9894665 -0.0931054
479 0.9885839 -0.0972284 0.0114161 0.0972284 0.0114161 0.0972284 0.9885839 -0.0972284
501 0.9876241 -0.1015256 0.0123759 0.1015256 0.0123759 0.1015256 0.9876241 -0.1015256
524 0.9865803 -0.1060032 0.0134197 0.1060032 0.0134197 0.1060032 0.9865803 -0.1060032
548 0.9854455 -0.1106672 0.0145545 0.1106672 0.0145545 0.1106672 0.9854455 -0.1106672
573 0.9842118 -0.1155238 0.0157882 0.1155238 0.0157882 0.1155238 0.9842118 -0.1155238
600 0.9828707 -0.1205789 0.0171293 0.1205789 0.0171293 0.1205789 0.9828707 -0.1205789
627 0.9814135 -0.1258387 0.0185865 0.1258387 0.0185865 0.1258387 0.9814135 -0.1258387
656 0.9798302 -0.1313092 0.0201698 0.1313092 0.0201698 0.1313092 0.9798302 -0.1313092
686 0.9781106 -0.1369960 0.0218894 0.1369960 0.0218894 0.1369960 0.9781106 -0.1369960
717 0.9762436 -0.1429050 0.0237564 0.1429050 0.0237564 0.1429050 0.9762436 -0.1429050
750 0.9742171 -0.1490413 0.0257829 0.1490413 0.0257829 0.1490413 0.9742171 -0.1490413
784 0.9720185 -0.1554103 0.0279815 0.1554103 0.0279815 0.1554103 0.9720185 -0.1554103
820 0.9696342 -0.1620165 0.0303658 0.1620165 0.0303658 0.1620165 0.9696342 -0.1620165
858 0.9670496 -0.1688643 0.0329504 0.1688643 0.0329504 0.1688643 0.9670496 -0.1688643
897 0.9642492 -0.1759574 0.0357508 0.1759574 0.0357508 0.1759574 0.9642492 -0.1759574
938 0.9612166 -0.1832991 0.0387834 0.1832991 0.0387834 0.1832991 0.9612166 -0.1832991
981 0.9579343 -0.1908916 0.0420657 0.1908916 0.0420657 0.1908916 0.9579343 -0.1908916
1026 0.9543839 -0.1987364 0.0456161 0.1987364 0.0456161 0.1987364 0.9543839 -0.1987364
1073 0.9505457 -0.2068342 0.0494543 0.2068342 0.0494543 0.2068342 0.9505457 -0.2068342
1122 0.9463992 -0.2151843 0.0536008 0.2151843 0.0536008 0.2151843 0.9463992 -0.2151843
1174 0.9419225 -0.2237846 0.0580775 0.2237846 0.0580775 0.2237846 0.9419225 -0.2237846
1227 0.9370931 -0.2326319 0.0629069 0.2326319 0.0629069 0.2326319 0.9370931 -0.2326319
1283 0.9318871 -0.2417208 0.0681129 0.2417208 0.0681129 0.2417208 0.9318871 -0.2417208
1342 0.9262798 -0.2510443 0.0737202 0.2510443 0.0737202 0.2510443 0.9262798 -0.2510443
1404 0.9202459 -0.2605932 0.0797541 0.2605932 0.0797541 0.2605932 0.9202459 -0.2605932
1468 0.9137589 -0.2703560 0.0862411 0.2703560 0.0862411 0.2703560 0.9137589 -0.2703560
1535 0.9067921 -0.2803184 0.0932079 0.2803184 0.0932079 0.2803184 0.9067921 -0.2803184
1606 0.8993183 -0.2904635 0.1006817 0.2904635 0.1006817 0.2904635 0.8993183 -0.2904635
1679 0.8913103 -0.3007710 0.1086897 0.3007710 0.1086897 0.3007710 0.8913103 -0.3007710
1756 0.8827409 -0.3112177 0.1172591 0.3112177 0.1172591 0.3112177 0.8827409 -0.3112177
1836 0.8735836 -0.3217765 0.1264164 0.3217765 0.1264164 0.3217765 0.8735836 -0.3217765
1920 0.8638128 -0.3324169 0.1361872 0.3324169 0.1361872 0.3324169 0.8638128 -0.3324169
2008 0.8534042 -0.3431044 0.1465958 0.3431044 0.1465958 0.3431044 0.8534042 -0.3431044
2100 0.8423356 -0.3538008 0.1576644 0.3538008 0.1576644 0.3538008 0.8423356 -0.3538008
2196 0.8305870 -0.3644638 0.1694130 0.3644638 0.1694130 0.3644638 0.8305870 -0.3644638
2297 0.8181415 -0.3750474 0.1818585 0.3750474 0.1818585 0.3750474 0.8181415 -0.3750474
2402 0.8049861 -0.3855017 0.1950139 0.3855017 0.1950139 0.3855017 0.8049861 -0.3855017
2512 0.7911117 -0.3957737 0.2088883 0.3957737 0.2088883 0.3957737 0.7911117 -0.3957737
2627 0.7765143 -0.4058070 0.2234857 0.4058070 0.2234857 0.4058070 0.7765143 -0.4058070
2748 0.7611955 -0.4155428 0.2388045 0.4155428 0.2388045 0.4155428 0.7611955 -0.4155428
2873 0.7451627 -0.4249201 0.2548373 0.4249201 0.2548373 0.4249201 0.7451627 -0.4249201
3005 0.7284301 -0.4338769 0.2715699 0.4338769 0.2715699 0.4338769 0.7284301 -0.4338769
3143 0.7110187 -0.4423505 0.2889813 0.4423505 0.2889813 0.4423505 0.7110187 -0.4423505
3287 0.6929568 -0.4502787 0.3070432 0.4502787 0.3070432 0.4502787 0.6929568 -0.4502787
3437 0.6742801 -0.4576005 0.3257199 0.4576005 0.3257199 0.4576005 0.6742801 -0.4576005
3594 0.6550316 -0.4642578 0.3449684 0.4642578 0.3449684 0.4642578 0.6550316 -0.4642578
3759 0.6352614 -0.4701957 0.3647386 0.4701957 0.3647386 0.4701957 0.6352614 -0.4701957
3931 0.6150266 -0.4753639 0.3849734 0.4753639 0.3849734 0.4753639 0.6150266 -0.4753639
4111 0.5943903 -0.4797178 0.4056097 0.4797178 0.4056097 0.4797178 0.5943903 -0.4797178
4299 0.5734212 -0.4832191 0.4265788 0.4832191 0.4265788 0.4832191 0.5734212 -0.4832191
4496 0.5521926 -0.4858370 0.4478074 0.4858370 0.4478074 0.4858370 0.5521926 -0.4858370
4702 0.5307815 -0.4875485 0.4692185 0.4875485 0.4692185 0.4875485 0.5307815 -0.4875485
4918 0.5092671 -0.4883391 0.4907329 0.4883391 0.4907329 0.4883391 0.5092671 -0.4883391
5143 0.4877302 -0.4882030 0.5122698 0.4882030 0.5122698 0.4882030 0.4877302 -0.4882030
5378 0.4662513 -0.4871430 0.5337487 0.4871430 0.5337487 0.4871430 0.4662513 -0.4871430
5625 0.4449098 -0.4851709 0.5550902 0.4851709 0.5550902 0.4851709 0.4449098 -0.4851709
5882 0.4237830 -0.4823065 0.5762170 0.4823065 0.5762170 0.4823065 0.4237830 -0.4823065
6151 0.4029444 -0.4785776 0.5970556 0.4785776 0.5970556 0.4785776 0.4029444 -0.4785776
6433 0.3824634 -0.4740189 0.6175366 0.4740189 0.6175366 0.4740189 0.3824634 -0.4740189
6728 0.3624039 -0.4686719 0.6375961 0.4686719 0.6375961 0.4686719 0.3624039 -0.4686719
7036 0.3428242 -0.4625831 0.6571758 0.4625831 0.6571758 0.4625831 0.3428242 -0.4625831
7358 0.3237762 -0.4558038 0.6762238 0.4558038 0.6762238 0.4558038 0.3237762 -0.4558038
7695 0.3053049 -0.4483889 0.6946951 0.4483889 0.6946951 0.4483889 0.3053049 -0.4483889
8047 0.2874486 -0.4403956 0.7125514 0.4403956 0.7125514 0.4403956 0.2874486 -0.4403956
8416 0.2702387 -0.4318831 0.7297613 0.4318831 0.7297613 0.4318831 0.2702387 -0.4318831
8801 0.2536998 -0.4229111 0.7463002 0.4229111 0.7463002 0.4229111 0.2536998 -0.4229111
9204 0.2378500 -0.4135392 0.7621500 0.4135392 0.7621500 0.4135392 0.2378500 -0.4135392
9626 0.2227011 -0.4038266 0.7772989 0.4038266 0.7772989 0.4038266 0.2227011 -0.4038266
10066 0.2082594 -0.3938305 0.7917406 0.3938305 0.7917406 0.3938305 0.2082594 -0.3938305
10527 0.1945255 -0.3836066 0.8054745 0.3836066 0.8054745 0.3836066 0.1945255 -0.3836066
11009 0.1814953 -0.3732079 0.8185047 0.3732079 0.8185047 0.3732079 0.1814953 -0.3732079
11514 0.1691603 -0.3626846 0.8308397 0.3626846 0.8308397 0.3626846 0.1691603 -0.3626846
12041 0.1575084 -0.3520840 0.8424916 0.3520840 0.8424916 0.3520840 0.1575084 -0.3520840
12592 0.1465239 -0.3414498 0.8534761 0.3414498 0.8534761 0.3414498 0.1465239 -0.3414498
13169 0.1361887 -0.3308228 0.8638113 0.3308228 0.8638113 0.3308228 0.1361887 -0.3308228
13772 0.1264819 -0.3202398 0.8735181 0.3202398 0.8735181 0.3202398 0.1264819 -0.3202398
14402 0.1173811 -0.3097346 0.8826189 0.3097346 0.8826189 0.3097346 0.1173811 -0.3097346
15062 0.1088625 -0.2993372 0.8911375 0.2993372 0.8911375 0.2993372 0.1088625 -0.2993372
15752 0.1009009 -0.2890746 0.8990991 0.2890746 0.8990991 0.2890746 0.1009009 -0.2890746
16473 0.0934707 -0.2789703 0.9065293 0.2789703 0.9065293 0.2789703 0.0934707 -0.2789703
17227 0.0865459 -0.2690450 0.9134541 0.2690450 0.9134541 0.2690450 0.0865459 -0.2690450
18016 0.0801001 -0.2593162 0.9198999 0.2593162 0.9198999 0.2593162 0.0801001 -0.2593162
18841 0.0741074 -0.2497990 0.9258926 0.2497990 0.9258926 0.2497990 0.0741074 -0.2497990
19704 0.0685420 -0.2405056 0.9314580 0.2405056 0.9314580 0.2405056 0.0685420 -0.2405056
20606 0.0633786 -0.2314461 0.9366214 0.2314461 0.9366214 0.2314461 0.0633786 -0.2314461
21550 0.0585926 -0.2226282 0.9414074 0.2226282 0.9414074 0.2226282 0.0585926 -0.2226282
22537 0.0541603 -0.2140580 0.9458397 0.2140580 0.9458397 0.2140580 0.0541603 -0.2140580
23569 0.0500586 -0.2057394 0.9499414 0.2057394 0.9499414 0.2057394 0.0500586 -0.2057394
24648 0.0462656 -0.1976749 0.9537344 0.1976749 0.9537344 0.1976749 0.0462656 -0.1976749
25777 0.0427600 -0.1898656 0.9572400 0.1898656 0.9572400 0.1898656 0.0427600 -0.1898656
26957 0.0395220 -0.1823112 0.9604780 0.1823112 0.9604780 0.1823112 0.0395220 -0.1823112
28191 0.0365324 -0.1750102 0.9634676 0.1750102 0.9634676 0.1750102 0.0365324 -0.1750102
29482 0.0337733 -0.1679605 0.9662267 0.1679605 0.9662267 0.1679605 0.0337733 -0.1679605
30832 0.0312277 -0.1611587 0.9687723 0.1611587 0.9687723 0.1611587 0.0312277 -0.1611587
32244 0.0288797 -0.1546009 0.9711203 0.1546009 0.9711203 0.1546009 0.0288797 -0.1546009
33721 0.0267144 -0.1482826 0.9732856 0.1482826 0.9732856 0.1482826 0.0267144 -0.1482826
35265 0.0247177 -0.1421988 0.9752823 0.1421988 0.9752823 0.1421988 0.0247177 -0.1421988
36880 0.0228767 -0.1363439 0.9771233 0.1363439 0.9771233 0.1363439 0.0228767 -0.1363439
38569 0.0211791 -0.1307122 0.9788209 0.1307122 0.9788209 0.1307122 0.0211791 -0.1307122
40335 0.0196137 -0.1252975 0.9803863 0.1252975 0.9803863 0.1252975 0.0196137 -0.1252975
42182 0.0181700 -0.1200936 0.9818300 0.1200936 0.9818300 0.1200936 0.0181700 -0.1200936
44113 0.0168384 -0.1150942 0.9831616 0.1150942 0.9831616 0.1150942 0.0168384 -0.1150942
46134 0.0156098 -0.1102926 0.9843902 0.1102926 0.9843902 0.1102926 0.0156098 -0.1102926
48246 0.0144761 -0.1056825 0.9855239 0.1056825 0.9855239 0.1056825 0.0144761 -0.1056825
50455 0.0134296 -0.1012573 0.9865704 0.1012573 0.9865704 0.1012573 0.0134296 -0.1012573
52766 0.0124633 -0.0970105 0.9875367 0.0970105 0.9875367 0.0970105 0.0124633 -0.0970105
55182 0.0115709 -0.0929357 0.9884291 0.0929357 0.9884291 0.0929357 0.0115709 -0.0929357
57709 0.0107464 -0.0890267 0.9892536 0.0890267 0.9892536 0.0890267 0.0107464 -0.0890267
60352 0.0099844 -0.0852773 0.9900156 0.0852773 0.9900156 0.0852773 0.0099844 -0.0852773
63115 0.0092799 -0.0816814 0.9907201 0.0816814 0.9907201 0.0816814 0.0092799 -0.0816814
66005 0.0086286 -0.0782332 0.9913714 0.0782332 0.9913714 0.0782332 0.0086286 -0.0782332
69028 0.0080261 -0.0749270 0.9919739 0.0749270 0.9919739 0.0749270 0.0080261 -0.0749270
72189 0.0074687 -0.0717572 0.9925313 0.0717572 0.9925313 0.0717572 0.0074687 -0.0717572
75495 0.0069529 -0.0687185 0.9930471 0.0687185 0.9930471 0.0687185 0.0069529 -0.0687185
78952 0.0064756 -0.0658057 0.9935244 0.0658057 0.9935244 0.0658057 0.0064756 -0.0658057
82567 0.0060338 -0.0630139 0.9939662 0.0630139 0.9939662 0.0630139 0.0060338 -0.0630139
86348 0.0056248 -0.0603381 0.9943752 0.0603381 0.9943752 0.0603381 0.0056248 -0.0603381
90302 0.0052462 -0.0577739 0.9947538 0.0577739 0.9947538 0.0577739 0.0052462 -0.0577739
94437 0.0048956 -0.0553167 0.9951044 0.0553167 0.9951044 0.0553167 0.0048956 -0.0553167
98762 0.0045711 -0.0529623 0.9954289 0.0529623 0.9954289 0.0529623 0.0045711 -0.0529623
103284 0.0042705 -0.0507065 0.9957295 0.0507065 0.9957295 0.0507065 0.0042705 -0.0507065
108014 0.0039922 -0.0485454 0.9960078 0.0485454 0.9960078 0.0485454 0.0039922 -0.0485454
112960 0.0037345 -0.0464752 0.9962655 0.0464752 0.9962655 0.0464752 0.0037345 -0.0464752
118133 0.0034958 -0.0444922 0.9965042 0.0444922 0.9965042 0.0444922 0.0034958 -0.0444922
123542 0.0032747 -0.0425929 0.9967253 0.0425929 0.9967253 0.0425929 0.0032747 -0.0425929
129199 0.0030699 -0.0407740 0.9969301 0.0407740 0.9969301 0.0407740 0.0030699 -0.0407740
135116 0.0028801 -0.0390320 0.9971199 0.0390320 0.9971199 0.0390320 0.0028801 -0.0390320
141303 0.0027041 -0.0373641 0.9972959 0.0373641 0.9972959 0.0373641 0.0027041 -0.0373641
147774 0.0025410 -0.0357670 0.9974590 0.0357670 0.9974590 0.0357670 0.0025410 -0.0357670
154540 0.0023896 -0.0342379 0.9976104 0.0342379 0.9976104 0.0342379 0.0023896 -0.0342379
161617 0.0022492 -0.0327740 0.9977508 0.0327740 0.9977508 0.0327740 0.0022492 -0.0327740
169018 0.0021187 -0.0313726 0.9978813 0.0313726 0.9978813 0.0313726 0.0021187 -0.0313726
176758 0.0019974 -0.0300310 0.9980026 0.0300310 0.9980026 0.0300310 0.0019974 -0.0300310
184852 0.0018846 -0.0287469 0.9981154 0.0287469 0.9981154 0.0287469 0.0018846 -0.0287469
193316 0.0017796 -0.0275177 0.9982204 0.0275177 0.9982204 0.0275177 0.0017796 -0.0275177
202169 0.0016817 -0.0263412 0.9983183 0.0263412 0.9983183 0.0263412 0.0016817 -0.0263412
211427 0.0015904 -0.0252151 0.9984096 0.0252151 0.9984096 0.0252151 0.0015904 -0.0252151
221108 0.0015051 -0.0241373 0.9984949 0.0241373 0.9984949 0.0241373 0.0015051 -0.0241373
231233 0.0014254 -0.0231057 0.9985746 0.0231057 0.9985746 0.0231057 0.0014254 -0.0231057
241822 0.0013508 -0.0221183 0.9986492 0.0221183 0.9986492 0.0221183 0.0013508 -0.0221183
252896 0.0012809 -0.0211732 0.9987191 0.0211732 0.9987191 0.0211732 0.0012809 -0.0211732
264476 0.0012154 -0.0202685 0.9987846 0.0202685 0.9987846 0.0202685 0.0012154 -0.0202685
276587 0.0011538 -0.0194026 0.9988462 0.0194026 0.9988462 0.0194026 0.0011538 -0.0194026
289253 0.0010960 -0.0185737 0.9989040 0.0185737 0.9989040 0.0185737 0.0010960 -0.0185737
302498 0.0010416 -0.0177802 0.9989584 0.0177802 0.9989584 0.0177802 0.0010416 -0.0177802
316350 0.0009903 -0.0170206 0.9990097 0.0170206 0.9990097 0.0170206 0.0009903 -0.0170206
330837 0.0009421 -0.0162933 0.9990579 0.0162933 0.9990579 0.0162933 0.0009421 -0.0162933
345986 0.0008966 -0.0155971 0.9991034 0.0155971 0.9991034 0.0155971 0.0008966 -0.0155971
361830 0.0008537 -0.0149305 0.9991463 0.0149305 0.9991463 0.0149305 0.0008537 -0.0149305
378399 0.0008133 -0.0142922 0.9991867 0.0142922 0.9991867 0.0142922 0.0008133 -0.0142922
395726 0.0007751 -0.0136811 0.9992249 0.0136811 0.9992249 0.0136811 0.0007751 -0.0136811
413847 0.0007391 -0.0130959 0.9992609 0.0130959 0.9992609 0.0130959 0.0007391 -0.0130959
432798 0.0007052 -0.0125355 0.9992948 0.0125355 0.9992948 0.0125355 0.0007052 -0.0125355
452617 0.0006731 -0.0119990 0.9993269 0.0119990 0.9993269 0.0119990 0.0006731 -0.0119990
473344 0.0006429 -0.0114851 0.9993571 0.0114851 0.9993571 0.0114851 0.0006429 -0.0114851
495019 0.0006145 -0.0109931 0.9993855 0.0109931 0.9993855 0.0109931 0.0006145 -0.0109931
517687 0.0005876 -0.0105219 0.9994124 0.0105219 0.9994124 0.0105219 0.0005876 -0.0105219
541393 0.0005623 -0.0100708 0.9994377 0.0100708 0.9994377 0.0100708 0.0005623 -0.0100708
566185 0.0005385 -0.0096387 0.9994615 0.0096387 0.9994615 0.0096387 0.0005385 -0.0096387
592111 0.0005160 -0.0092250 0.9994840 0.0092250 0.9994840 0.0092250 0.0005160 -0.0092250
619225 0.0004949 -0.0088289 0.9995051 0.0088289 0.9995051 0.0088289 0.0004949 -0.0088289
647581 0.0004750 -0.0084496 0.9995250 0.0084496 0.9995250 0.0084496 0.0004750 -0.0084496
677235 0.0004562 -0.0080864 0.9995438 0.0080864 0.9995438 0.0080864 0.0004562 -0.0080864
708247 0.0004385 -0.0077387 0.9995615 0.0077387 0.9995615 0.0077387 0.0004385 -0.0077387
740679 0.0004218 -0.0074058 0.9995782 0.0074058 0.9995782 0.0074058 0.0004218 -0.0074058
774597 0.0004061 -0.0070870 0.9995939 0.0070870 0.9995939 0.0070870 0.0004061 -0.0070870
810067 0.0003912 -0.0067818 0.9996088 0.0067818 0.9996088 0.0067818 0.0003912 -0.0067818
847162 0.0003771 -0.0064896 0.9996229 0.0064896 0.9996229 0.0064896 0.0003771 -0.0064896
885955 0.0003639 -0.0062098 0.9996361 0.0062098 0.9996361 0.0062098 0.0003639 -0.0062098
926525 0.0003513 -0.0059420 0.9996487 0.0059420 0.9996487 0.0059420 0.0003513 -0.0059420
968953 0.0003393 -0.0056855 0.9996607 0.0056855 0.9996607 0.0056855 0.0003393 -0.0056855
1013323 0.0003280 -0.0054400 0.9996720 0.0054400 0.9996720 0.0054400 0.0003280 -0.0054400
1059725 0.0003172 -0.0052048 0.9996828 0.0052048 0.9996828 0.0052048 0.0003172 -0.0052048
1108252 0.0003069 -0.0049797 0.9996931 0.0049797 0.9996931 0.0049797 0.0003069 -0.0049797
1159002 0.0002971 -0.0047641 0.9997029 0.0047641 0.9997029 0.0047641 0.0002971 -0.0047641
1212075 0.0002878 -0.0045576 0.9997122 0.0045576 0.9997122 0.0045576 0.0002878 -0.0045576
1267578 0.0002788 -0.0043597 0.9997212 0.0043597 0.9997212 0.0043597 0.0002788 -0.0043597
1325623 0.0002702 -0.0041703 0.9997298 0.0041703 0.9997298 0.0041703 0.0002702 -0.0041703
1386327 0.0002620 -0.0039887 0.9997380 0.0039887 0.9997380 0.0039887 0.0002620 -0.0039887
1449809 0.0002541 -0.0038148 0.9997459 0.0038148 0.9997459 0.0038148 0.0002541 -0.0038148
1516199 0.0002465 -0.0036480 0.9997535 0.0036480 0.9997535 0.0036480 0.0002465 -0.0036480
1585629 0.0002393 -0.0034882 0.9997607 0.0034882 0.9997607 0.0034882 0.0002393 -0.0034882
1658239 0.0002323 -0.0033350 0.9997677 0.0033350 0.9997677 0.0033350 0.0002323 -0.0033350
1734173 0.0002256 -0.0031881 0.9997744 0.0031881 0.9997744 0.0031881 0.0002256 -0.0031881
1813585 0.0002191 -0.0030472 0.9997809 0.0030472 0.9997809 0.0030472 0.0002191 -0.0030472
1896632 0.0002129 -0.0029121 0.9997871 0.0029121 0.9997871 0.0029121 0.0002129 -0.0029121
1983483 0.0002070 -0.0027824 0.9997930 0.0027824 0.9997930 0.0027824 0.0002070 -0.0027824
2074311 0.0002013 -0.0026580 0.9997987 0.0026580 0.9997987 0.0026580 0.0002013 -0.0026580
