!Murata Part Number: GRM188R72E102KW07
!These Parameters are Measured in Series Mode Connection
!Data Generated on Mar 30, 2021
!       o--ll--o
!Port1            Port2
!       o------o
!Operation Temp=25[degC], DC Bias Voltage=0[V]
!Freq. Start=100[kHz] Stop=6[GHz] 401[Steps]
# Hz S RI R 50
!Freq.(Hz) S11(Real) S11(Imag) S21(Real) S21(Imag) S12(Real) S12(Imag) S22(Real) S22(Imag)
100000 0.9933418 -0.0629117 0.0066582 0.0629117 0.0066582 0.0629117 0.9933418 -0.0629117
102789 0.9930932 -0.0645951 0.0069068 0.0645951 0.0069068 0.0645951 0.9930932 -0.0645951
105655 0.9928328 -0.0663245 0.0071672 0.0663245 0.0071672 0.0663245 0.9928328 -0.0663245
108602 0.9925601 -0.0681013 0.0074399 0.0681013 0.0074399 0.0681013 0.9925601 -0.0681013
111630 0.9922742 -0.0699267 0.0077258 0.0699267 0.0077258 0.0699267 0.9922742 -0.0699267
114743 0.9919745 -0.0718020 0.0080255 0.0718020 0.0080255 0.0718020 0.9919745 -0.0718020
117943 0.9916600 -0.0737283 0.0083400 0.0737283 0.0083400 0.0737283 0.9916600 -0.0737283
121232 0.9913299 -0.0757071 0.0086701 0.0757071 0.0086701 0.0757071 0.9913299 -0.0757071
124613 0.9909832 -0.0777397 0.0090168 0.0777397 0.0090168 0.0777397 0.9909832 -0.0777397
128088 0.9906191 -0.0798273 0.0093809 0.0798273 0.0093809 0.0798273 0.9906191 -0.0798273
131660 0.9902364 -0.0819713 0.0097636 0.0819713 0.0097636 0.0819713 0.9902364 -0.0819713
135332 0.9898341 -0.0841731 0.0101659 0.0841731 0.0101659 0.0841731 0.9898341 -0.0841731
139106 0.9894110 -0.0864342 0.0105890 0.0864342 0.0105890 0.0864342 0.9894110 -0.0864342
142985 0.9889661 -0.0887558 0.0110339 0.0887558 0.0110339 0.0887558 0.9889661 -0.0887558
146972 0.9884980 -0.0911395 0.0115020 0.0911395 0.0115020 0.0911395 0.9884980 -0.0911395
151071 0.9880054 -0.0935866 0.0119946 0.0935866 0.0119946 0.0935866 0.9880054 -0.0935866
155284 0.9874869 -0.0960987 0.0125131 0.0960987 0.0125131 0.0960987 0.9874869 -0.0960987
159614 0.9869411 -0.0986772 0.0130589 0.0986772 0.0130589 0.0986772 0.9869411 -0.0986772
164065 0.9863665 -0.1013236 0.0136335 0.1013236 0.0136335 0.1013236 0.9863665 -0.1013236
168641 0.9857614 -0.1040394 0.0142386 0.1040394 0.0142386 0.1040394 0.9857614 -0.1040394
173344 0.9851243 -0.1068260 0.0148757 0.1068260 0.0148757 0.1068260 0.9851243 -0.1068260
178178 0.9844533 -0.1096850 0.0155467 0.1096850 0.0155467 0.1096850 0.9844533 -0.1096850
183146 0.9837465 -0.1126179 0.0162535 0.1126179 0.0162535 0.1126179 0.9837465 -0.1126179
188254 0.9830022 -0.1156262 0.0169978 0.1156262 0.0169978 0.1156262 0.9830022 -0.1156262
193504 0.9822181 -0.1187114 0.0177819 0.1187114 0.0177819 0.1187114 0.9822181 -0.1187114
198900 0.9813923 -0.1218750 0.0186077 0.1218750 0.0186077 0.1218750 0.9813923 -0.1218750
204447 0.9805224 -0.1251185 0.0194776 0.1251185 0.0194776 0.1251185 0.9805224 -0.1251185
210148 0.9796062 -0.1284433 0.0203938 0.1284433 0.0203938 0.1284433 0.9796062 -0.1284433
216008 0.9786412 -0.1318510 0.0213588 0.1318510 0.0213588 0.1318510 0.9786412 -0.1318510
222032 0.9776248 -0.1353428 0.0223752 0.1353428 0.0223752 0.1353428 0.9776248 -0.1353428
228224 0.9765544 -0.1389204 0.0234456 0.1389204 0.0234456 0.1389204 0.9765544 -0.1389204
234589 0.9754273 -0.1425850 0.0245727 0.1425850 0.0245727 0.1425850 0.9754273 -0.1425850
241130 0.9742404 -0.1463379 0.0257596 0.1463379 0.0257596 0.1463379 0.9742404 -0.1463379
247855 0.9729908 -0.1501805 0.0270092 0.1501805 0.0270092 0.1501805 0.9729908 -0.1501805
254767 0.9716752 -0.1541139 0.0283248 0.1541139 0.0283248 0.1541139 0.9716752 -0.1541139
261871 0.9702904 -0.1581394 0.0297096 0.1581394 0.0297096 0.1581394 0.9702904 -0.1581394
269174 0.9688330 -0.1622581 0.0311670 0.1622581 0.0311670 0.1622581 0.9688330 -0.1622581
276681 0.9672992 -0.1664710 0.0327008 0.1664710 0.0327008 0.1664710 0.9672992 -0.1664710
284397 0.9656855 -0.1707790 0.0343145 0.1707790 0.0343145 0.1707790 0.9656855 -0.1707790
292328 0.9639879 -0.1751830 0.0360121 0.1751830 0.0360121 0.1751830 0.9639879 -0.1751830
300480 0.9622024 -0.1796838 0.0377976 0.1796838 0.0377976 0.1796838 0.9622024 -0.1796838
308859 0.9603247 -0.1842819 0.0396753 0.1842819 0.0396753 0.1842819 0.9603247 -0.1842819
317472 0.9583507 -0.1889779 0.0416493 0.1889779 0.0416493 0.1889779 0.9583507 -0.1889779
326326 0.9562757 -0.1937721 0.0437243 0.1937721 0.0437243 0.1937721 0.9562757 -0.1937721
335426 0.9540951 -0.1986648 0.0459049 0.1986648 0.0459049 0.1986648 0.9540951 -0.1986648
344780 0.9518042 -0.2036559 0.0481958 0.2036559 0.0481958 0.2036559 0.9518042 -0.2036559
354395 0.9493979 -0.2087454 0.0506021 0.2087454 0.0506021 0.2087454 0.9493979 -0.2087454
364278 0.9468712 -0.2139328 0.0531288 0.2139328 0.0531288 0.2139328 0.9468712 -0.2139328
374436 0.9442188 -0.2192178 0.0557812 0.2192178 0.0557812 0.2192178 0.9442188 -0.2192178
384878 0.9414353 -0.2245994 0.0585647 0.2245994 0.0585647 0.2245994 0.9414353 -0.2245994
395611 0.9385151 -0.2300766 0.0614849 0.2300766 0.0614849 0.2300766 0.9385151 -0.2300766
406644 0.9354525 -0.2356482 0.0645475 0.2356482 0.0645475 0.2356482 0.9354525 -0.2356482
417984 0.9322418 -0.2413126 0.0677582 0.2413126 0.0677582 0.2413126 0.9322418 -0.2413126
429640 0.9288770 -0.2470680 0.0711230 0.2470680 0.0711230 0.2470680 0.9288770 -0.2470680
441622 0.9253521 -0.2529121 0.0746479 0.2529121 0.0746479 0.2529121 0.9253521 -0.2529121
453937 0.9216608 -0.2588425 0.0783392 0.2588425 0.0783392 0.2588425 0.9216608 -0.2588425
466596 0.9177971 -0.2648562 0.0822029 0.2648562 0.0822029 0.2648562 0.9177971 -0.2648562
479608 0.9137545 -0.2709501 0.0862455 0.2709501 0.0862455 0.2709501 0.9137545 -0.2709501
492983 0.9095267 -0.2771205 0.0904733 0.2771205 0.0904733 0.2771205 0.9095267 -0.2771205
506731 0.9051073 -0.2833633 0.0948927 0.2833633 0.0948927 0.2833633 0.9051073 -0.2833633
520862 0.9004899 -0.2896741 0.0995101 0.2896741 0.0995101 0.2896741 0.9004899 -0.2896741
535387 0.8956682 -0.2960479 0.1043318 0.2960479 0.1043318 0.2960479 0.8956682 -0.2960479
550318 0.8906357 -0.3024794 0.1093643 0.3024794 0.1093643 0.3024794 0.8906357 -0.3024794
565664 0.8853861 -0.3089625 0.1146139 0.3089625 0.1146139 0.3089625 0.8853861 -0.3089625
581439 0.8799134 -0.3154910 0.1200866 0.3154910 0.1200866 0.3154910 0.8799134 -0.3154910
597654 0.8742113 -0.3220579 0.1257887 0.3220579 0.1257887 0.3220579 0.8742113 -0.3220579
614320 0.8682740 -0.3286558 0.1317260 0.3286558 0.1317260 0.3286558 0.8682740 -0.3286558
631452 0.8620959 -0.3352767 0.1379041 0.3352767 0.1379041 0.3352767 0.8620959 -0.3352767
649061 0.8556713 -0.3419122 0.1443287 0.3419122 0.1443287 0.3419122 0.8556713 -0.3419122
667162 0.8489953 -0.3485531 0.1510047 0.3485531 0.1510047 0.3485531 0.8489953 -0.3485531
685767 0.8420629 -0.3551899 0.1579371 0.3551899 0.1579371 0.3551899 0.8420629 -0.3551899
704891 0.8348698 -0.3618123 0.1651302 0.3618123 0.1651302 0.3618123 0.8348698 -0.3618123
724548 0.8274118 -0.3684097 0.1725882 0.3684097 0.1725882 0.3684097 0.8274118 -0.3684097
744754 0.8196855 -0.3749709 0.1803145 0.3749709 0.1803145 0.3749709 0.8196855 -0.3749709
765523 0.8116880 -0.3814841 0.1883120 0.3814841 0.1883120 0.3814841 0.8116880 -0.3814841
786871 0.8034168 -0.3879371 0.1965832 0.3879371 0.1965832 0.3879371 0.8034168 -0.3879371
808814 0.7948701 -0.3943171 0.2051299 0.3943171 0.2051299 0.3943171 0.7948701 -0.3943171
831370 0.7860470 -0.4006110 0.2139530 0.4006110 0.2139530 0.4006110 0.7860470 -0.4006110
854554 0.7769471 -0.4068053 0.2230529 0.4068053 0.2230529 0.4068053 0.7769471 -0.4068053
878385 0.7675710 -0.4128860 0.2324290 0.4128860 0.2324290 0.4128860 0.7675710 -0.4128860
902880 0.7579200 -0.4188389 0.2420800 0.4188389 0.2420800 0.4188389 0.7579200 -0.4188389
928059 0.7479965 -0.4246497 0.2520035 0.4246497 0.2520035 0.4246497 0.7479965 -0.4246497
953940 0.7378036 -0.4303036 0.2621964 0.4303036 0.2621964 0.4303036 0.7378036 -0.4303036
980542 0.7273456 -0.4357858 0.2726544 0.4357858 0.2726544 0.4357858 0.7273456 -0.4357858
1007887 0.7166277 -0.4410816 0.2833723 0.4410816 0.2833723 0.4410816 0.7166277 -0.4410816
1035994 0.7056561 -0.4461762 0.2943439 0.4461762 0.2943439 0.4461762 0.7056561 -0.4461762
1064885 0.6944382 -0.4510550 0.3055618 0.4510550 0.3055618 0.4510550 0.6944382 -0.4510550
1094581 0.6829824 -0.4557035 0.3170176 0.4557035 0.3170176 0.4557035 0.6829824 -0.4557035
1125106 0.6712983 -0.4601075 0.3287017 0.4601075 0.3287017 0.4601075 0.6712983 -0.4601075
1156481 0.6593963 -0.4642535 0.3406037 0.4642535 0.3406037 0.4642535 0.6593963 -0.4642535
1188732 0.6472881 -0.4681280 0.3527119 0.4681280 0.3527119 0.4681280 0.6472881 -0.4681280
1221882 0.6349864 -0.4717185 0.3650136 0.4717185 0.3650136 0.4717185 0.6349864 -0.4717185
1255957 0.6225048 -0.4750131 0.3774952 0.4750131 0.3774952 0.4750131 0.6225048 -0.4750131
1290982 0.6098580 -0.4780004 0.3901420 0.4780004 0.3901420 0.4780004 0.6098580 -0.4780004
1326984 0.5970614 -0.4806704 0.4029386 0.4806704 0.4029386 0.4806704 0.5970614 -0.4806704
1363989 0.5841313 -0.4830135 0.4158687 0.4830135 0.4158687 0.4830135 0.5841313 -0.4830135
1402027 0.5710850 -0.4850216 0.4289150 0.4850216 0.4289150 0.4850216 0.5710850 -0.4850216
1441125 0.5579400 -0.4866873 0.4420600 0.4866873 0.4420600 0.4866873 0.5579400 -0.4866873
1481314 0.5447148 -0.4880048 0.4552852 0.4880048 0.4552852 0.4880048 0.5447148 -0.4880048
1522623 0.5314281 -0.4889691 0.4685719 0.4889691 0.4685719 0.4889691 0.5314281 -0.4889691
1565085 0.5180992 -0.4895768 0.4819008 0.4895768 0.4819008 0.4895768 0.5180992 -0.4895768
1608730 0.5047473 -0.4898256 0.4952527 0.4898256 0.4952527 0.4898256 0.5047473 -0.4898256
1653593 0.4913921 -0.4897147 0.5086079 0.4897147 0.5086079 0.4897147 0.4913921 -0.4897147
1699707 0.4780532 -0.4892445 0.5219468 0.4892445 0.5219468 0.4892445 0.4780532 -0.4892445
1747106 0.4647500 -0.4884168 0.5352500 0.4884168 0.5352500 0.4884168 0.4647500 -0.4884168
1795828 0.4515017 -0.4872347 0.5484983 0.4872347 0.5484983 0.4872347 0.4515017 -0.4872347
1845908 0.4383275 -0.4857025 0.5616725 0.4857025 0.5616725 0.4857025 0.4383275 -0.4857025
1897385 0.4252457 -0.4838259 0.5747543 0.4838259 0.5747543 0.4838259 0.4252457 -0.4838259
1950297 0.4122744 -0.4816117 0.5877256 0.4816117 0.5877256 0.4816117 0.4122744 -0.4816117
2004685 0.3994308 -0.4790679 0.6005692 0.4790679 0.6005692 0.4790679 0.3994308 -0.4790679
2060590 0.3867317 -0.4762035 0.6132683 0.4762035 0.6132683 0.4762035 0.3867317 -0.4762035
2118054 0.3741927 -0.4730286 0.6258073 0.4730286 0.6258073 0.4730286 0.3741927 -0.4730286
2177120 0.3618289 -0.4695541 0.6381711 0.4695541 0.6381711 0.4695541 0.3618289 -0.4695541
2237833 0.3496543 -0.4657917 0.6503457 0.4657917 0.6503457 0.4657917 0.3496543 -0.4657917
2300240 0.3376818 -0.4617540 0.6623182 0.4617540 0.6623182 0.4617540 0.3376818 -0.4617540
2364387 0.3259234 -0.4574540 0.6740766 0.4574540 0.6740766 0.4574540 0.3259234 -0.4574540
2430322 0.3143901 -0.4529055 0.6856099 0.4529055 0.6856099 0.4529055 0.3143901 -0.4529055
2498097 0.3030916 -0.4481224 0.6969084 0.4481224 0.6969084 0.4481224 0.3030916 -0.4481224
2567761 0.2920367 -0.4431193 0.7079633 0.4431193 0.7079633 0.4431193 0.2920367 -0.4431193
2639368 0.2812330 -0.4379108 0.7187670 0.4379108 0.7187670 0.4379108 0.2812330 -0.4379108
2712972 0.2706871 -0.4325116 0.7293129 0.4325116 0.7293129 0.4325116 0.2706871 -0.4325116
2788629 0.2604044 -0.4269367 0.7395956 0.4269367 0.7395956 0.4269367 0.2604044 -0.4269367
2866396 0.2503896 -0.4212009 0.7496104 0.4212009 0.7496104 0.4212009 0.2503896 -0.4212009
2946331 0.2406459 -0.4153190 0.7593541 0.4153190 0.7593541 0.4153190 0.2406459 -0.4153190
3028495 0.2311759 -0.4093054 0.7688241 0.4093054 0.7688241 0.4093054 0.2311759 -0.4093054
3112951 0.2219811 -0.4031746 0.7780189 0.4031746 0.7780189 0.4031746 0.2219811 -0.4031746
3199762 0.2130623 -0.3969405 0.7869377 0.3969405 0.7869377 0.3969405 0.2130623 -0.3969405
3288994 0.2044191 -0.3906169 0.7955809 0.3906169 0.7955809 0.3906169 0.2044191 -0.3906169
3380714 0.1960509 -0.3842169 0.8039491 0.3842169 0.8039491 0.3842169 0.1960509 -0.3842169
3474992 0.1879558 -0.3777535 0.8120442 0.3777535 0.8120442 0.3777535 0.1879558 -0.3777535
3571899 0.1801315 -0.3712389 0.8198685 0.3712389 0.8198685 0.3712389 0.1801315 -0.3712389
3671508 0.1725753 -0.3646850 0.8274247 0.3646850 0.8274247 0.3646850 0.1725753 -0.3646850
3773896 0.1652835 -0.3581031 0.8347165 0.3581031 0.8347165 0.3581031 0.1652835 -0.3581031
3879139 0.1582523 -0.3515040 0.8417477 0.3515040 0.8417477 0.3515040 0.1582523 -0.3515040
3987316 0.1514773 -0.3448979 0.8485227 0.3448979 0.8485227 0.3448979 0.1514773 -0.3448979
4098510 0.1449535 -0.3382946 0.8550465 0.3382946 0.8550465 0.3382946 0.1449535 -0.3382946
4212806 0.1386761 -0.3317031 0.8613239 0.3317031 0.8613239 0.3317031 0.1386761 -0.3317031
4330288 0.1326394 -0.3251319 0.8673606 0.3251319 0.8673606 0.3251319 0.1326394 -0.3251319
4451047 0.1268379 -0.3185891 0.8731621 0.3185891 0.8731621 0.3185891 0.1268379 -0.3185891
4575173 0.1212656 -0.3120821 0.8787344 0.3120821 0.8787344 0.3120821 0.1212656 -0.3120821
4702761 0.1159167 -0.3056179 0.8840833 0.3056179 0.8840833 0.3056179 0.1159167 -0.3056179
4833907 0.1107848 -0.2992029 0.8892152 0.2992029 0.8892152 0.2992029 0.1107848 -0.2992029
4968711 0.1058638 -0.2928429 0.8941362 0.2928429 0.8941362 0.2928429 0.1058638 -0.2928429
5107273 0.1011473 -0.2865434 0.8988527 0.2865434 0.8988527 0.2865434 0.1011473 -0.2865434
5249700 0.0966291 -0.2803093 0.9033709 0.2803093 0.9033709 0.2803093 0.0966291 -0.2803093
5396098 0.0923027 -0.2741452 0.9076973 0.2741452 0.9076973 0.2741452 0.0923027 -0.2741452
5546579 0.0881619 -0.2680551 0.9118381 0.2680551 0.9118381 0.2680551 0.0881619 -0.2680551
5701257 0.0842003 -0.2620426 0.9157997 0.2620426 0.9157997 0.2620426 0.0842003 -0.2620426
5860248 0.0804118 -0.2561110 0.9195882 0.2561110 0.9195882 0.2561110 0.0804118 -0.2561110
6023672 0.0767902 -0.2502633 0.9232098 0.2502633 0.9232098 0.2502633 0.0767902 -0.2502633
6191655 0.0733293 -0.2445019 0.9266707 0.2445019 0.9266707 0.2445019 0.0733293 -0.2445019
6364321 0.0700233 -0.2388291 0.9299767 0.2388291 0.9299767 0.2388291 0.0700233 -0.2388291
6541803 0.0668662 -0.2332468 0.9331338 0.2332468 0.9331338 0.2332468 0.0668662 -0.2332468
6724235 0.0638524 -0.2277565 0.9361476 0.2277565 0.9361476 0.2277565 0.0638524 -0.2277565
6911753 0.0609762 -0.2223597 0.9390238 0.2223597 0.9390238 0.2223597 0.0609762 -0.2223597
7104501 0.0582322 -0.2170574 0.9417678 0.2170574 0.9417678 0.2170574 0.0582322 -0.2170574
7302625 0.0556149 -0.2118504 0.9443851 0.2118504 0.9443851 0.2118504 0.0556149 -0.2118504
7506273 0.0531193 -0.2067393 0.9468807 0.2067393 0.9468807 0.2067393 0.0531193 -0.2067393
7715601 0.0507402 -0.2017246 0.9492598 0.2017246 0.9492598 0.2017246 0.0507402 -0.2017246
7930766 0.0484727 -0.1968065 0.9515273 0.1968065 0.9515273 0.1968065 0.0484727 -0.1968065
8151931 0.0463122 -0.1919850 0.9536878 0.1919850 0.9536878 0.1919850 0.0463122 -0.1919850
8379264 0.0442540 -0.1872599 0.9557460 0.1872599 0.9557460 0.1872599 0.0442540 -0.1872599
8612937 0.0422935 -0.1826310 0.9577065 0.1826310 0.9577065 0.1826310 0.0422935 -0.1826310
8853126 0.0404266 -0.1780979 0.9595734 0.1780979 0.9595734 0.1780979 0.0404266 -0.1780979
9100013 0.0386491 -0.1736600 0.9613509 0.1736600 0.9613509 0.1736600 0.0386491 -0.1736600
9353785 0.0369570 -0.1693166 0.9630430 0.1693166 0.9630430 0.1693166 0.0369570 -0.1693166
9614634 0.0353463 -0.1650669 0.9646537 0.1650669 0.9646537 0.1650669 0.0353463 -0.1650669
9882758 0.0338133 -0.1609102 0.9661867 0.1609102 0.9661867 0.1609102 0.0338133 -0.1609102
10158358 0.0323546 -0.1568453 0.9676454 0.1568453 0.9676454 0.1568453 0.0323546 -0.1568453
10441645 0.0309666 -0.1528714 0.9690334 0.1528714 0.9690334 0.1528714 0.0309666 -0.1528714
10732831 0.0296459 -0.1489872 0.9703541 0.1489872 0.9703541 0.1489872 0.0296459 -0.1489872
11032137 0.0283896 -0.1451916 0.9716104 0.1451916 0.9716104 0.1451916 0.0283896 -0.1451916
11339791 0.0271944 -0.1414833 0.9728056 0.1414833 0.9728056 0.1414833 0.0271944 -0.1414833
11656024 0.0260574 -0.1378611 0.9739426 0.1378611 0.9739426 0.1378611 0.0260574 -0.1378611
11981075 0.0249759 -0.1343236 0.9750241 0.1343236 0.9750241 0.1343236 0.0249759 -0.1343236
12315192 0.0239471 -0.1308695 0.9760529 0.1308695 0.9760529 0.1308695 0.0239471 -0.1308695
12658625 0.0229686 -0.1274974 0.9770314 0.1274974 0.9770314 0.1274974 0.0229686 -0.1274974
13011637 0.0220377 -0.1242058 0.9779623 0.1242058 0.9779623 0.1242058 0.0220377 -0.1242058
13374492 0.0211523 -0.1209934 0.9788477 0.1209934 0.9788477 0.1209934 0.0211523 -0.1209934
13747467 0.0203099 -0.1178585 0.9796901 0.1178585 0.9796901 0.1178585 0.0203099 -0.1178585
14130843 0.0195086 -0.1147998 0.9804914 0.1147998 0.9804914 0.1147998 0.0195086 -0.1147998
14524910 0.0187461 -0.1118158 0.9812539 0.1118158 0.9812539 0.1118158 0.0187461 -0.1118158
14929966 0.0180207 -0.1089050 0.9819793 0.1089050 0.9819793 0.1089050 0.0180207 -0.1089050
15346318 0.0173304 -0.1060658 0.9826696 0.1060658 0.9826696 0.1060658 0.0173304 -0.1060658
15774281 0.0166735 -0.1032969 0.9833265 0.1032969 0.9833265 0.1032969 0.0166735 -0.1032969
16214179 0.0160482 -0.1005966 0.9839518 0.1005966 0.9839518 0.1005966 0.0160482 -0.1005966
16666344 0.0154530 -0.0979635 0.9845470 0.0979635 0.9845470 0.0979635 0.0154530 -0.0979635
17131118 0.0148864 -0.0953961 0.9851136 0.0953961 0.9851136 0.0953961 0.0148864 -0.0953961
17608854 0.0143468 -0.0928929 0.9856532 0.0928929 0.9856532 0.0928929 0.0143468 -0.0928929
18099912 0.0138330 -0.0904526 0.9861670 0.0904526 0.9861670 0.0904526 0.0138330 -0.0904526
18604665 0.0133435 -0.0880735 0.9866565 0.0880735 0.9866565 0.0880735 0.0133435 -0.0880735
19123493 0.0128772 -0.0857544 0.9871228 0.0857544 0.9871228 0.0857544 0.0128772 -0.0857544
19656790 0.0124329 -0.0834938 0.9875671 0.0834938 0.9875671 0.0834938 0.0124329 -0.0834938
20204959 0.0120095 -0.0812903 0.9879905 0.0812903 0.9879905 0.0812903 0.0120095 -0.0812903
20768415 0.0116059 -0.0791425 0.9883941 0.0791425 0.9883941 0.0791425 0.0116059 -0.0791425
21347584 0.0112211 -0.0770491 0.9887789 0.0770491 0.9887789 0.0770491 0.0112211 -0.0770491
21942904 0.0108541 -0.0750088 0.9891459 0.0750088 0.9891459 0.0750088 0.0108541 -0.0750088
22554827 0.0105041 -0.0730202 0.9894959 0.0730202 0.9894959 0.0730202 0.0105041 -0.0730202
23183813 0.0101701 -0.0710820 0.9898299 0.0710820 0.9898299 0.0710820 0.0101701 -0.0710820
23830340 0.0098515 -0.0691930 0.9901485 0.0691930 0.9901485 0.0691930 0.0098515 -0.0691930
24494897 0.0095474 -0.0673520 0.9904526 0.0673520 0.9904526 0.0673520 0.0095474 -0.0673520
25177987 0.0092570 -0.0655577 0.9907430 0.0655577 0.9907430 0.0655577 0.0092570 -0.0655577
25880126 0.0089798 -0.0638090 0.9910202 0.0638090 0.9910202 0.0638090 0.0089798 -0.0638090
26601845 0.0087150 -0.0621047 0.9912850 0.0621047 0.9912850 0.0621047 0.0087150 -0.0621047
27343691 0.0084621 -0.0604436 0.9915379 0.0604436 0.9915379 0.0604436 0.0084621 -0.0604436
28106225 0.0082204 -0.0588246 0.9917796 0.0588246 0.9917796 0.0588246 0.0082204 -0.0588246
28890023 0.0079893 -0.0572467 0.9920107 0.0572467 0.9920107 0.0572467 0.0079893 -0.0572467
29695680 0.0077685 -0.0557087 0.9922315 0.0557087 0.9922315 0.0557087 0.0077685 -0.0557087
30523804 0.0075573 -0.0542097 0.9924427 0.0542097 0.9924427 0.0542097 0.0075573 -0.0542097
31375021 0.0073553 -0.0527486 0.9926447 0.0527486 0.9926447 0.0527486 0.0073553 -0.0527486
32249977 0.0071620 -0.0513244 0.9928380 0.0513244 0.9928380 0.0513244 0.0071620 -0.0513244
33149332 0.0069770 -0.0499361 0.9930230 0.0499361 0.9930230 0.0499361 0.0069770 -0.0499361
34073768 0.0067999 -0.0485829 0.9932001 0.0485829 0.9932001 0.0485829 0.0067999 -0.0485829
35023984 0.0066303 -0.0472636 0.9933697 0.0472636 0.9933697 0.0472636 0.0066303 -0.0472636
36000698 0.0064679 -0.0459776 0.9935321 0.0459776 0.9935321 0.0459776 0.0064679 -0.0459776
37004650 0.0063122 -0.0447238 0.9936878 0.0447238 0.9936878 0.0447238 0.0063122 -0.0447238
38036599 0.0061630 -0.0435013 0.9938370 0.0435013 0.9938370 0.0435013 0.0061630 -0.0435013
39097326 0.0060199 -0.0423094 0.9939801 0.0423094 0.9939801 0.0423094 0.0060199 -0.0423094
