!Murata Part Number: GRM188R61C225KAAD
!These Parameters are Measured in Series Mode Connection
!Data Generated on Mar 30, 2021
!       o--ll--o
!Port1            Port2
!       o------o
!Operation Temp=25[degC], DC Bias Voltage=0[V]
!Freq. Start=100[Hz] Stop=6[GHz] 401[Steps]
# Hz S RI R 50
!Freq.(Hz) S11(Real) S11(Imag) S21(Real) S21(Imag) S12(Real) S12(Imag) S22(Real) S22(Imag)
100 0.9814365 -0.1299403 0.0185635 0.1299403 0.0185635 0.1299403 0.9814365 -0.1299403
105 0.9798206 -0.1356241 0.0201794 0.1356241 0.0201794 0.1356241 0.9798206 -0.1356241
109 0.9780627 -0.1415356 0.0219373 0.1415356 0.0219373 0.1415356 0.9780627 -0.1415356
114 0.9761508 -0.1476809 0.0238492 0.1476809 0.0238492 0.1476809 0.9761508 -0.1476809
120 0.9740720 -0.1540660 0.0259280 0.1540660 0.0259280 0.1540660 0.9740720 -0.1540660
125 0.9718126 -0.1606965 0.0281874 0.1606965 0.0281874 0.1606965 0.9718126 -0.1606965
131 0.9693577 -0.1675774 0.0306423 0.1675774 0.0306423 0.1675774 0.9693577 -0.1675774
137 0.9666916 -0.1747136 0.0333084 0.1747136 0.0333084 0.1747136 0.9666916 -0.1747136
143 0.9637972 -0.1821090 0.0362028 0.1821090 0.0362028 0.1821090 0.9637972 -0.1821090
150 0.9606566 -0.1897670 0.0393434 0.1897670 0.0393434 0.1897670 0.9606566 -0.1897670
156 0.9572504 -0.1976899 0.0427496 0.1976899 0.0427496 0.1976899 0.9572504 -0.1976899
164 0.9535583 -0.2058793 0.0464417 0.2058793 0.0464417 0.2058793 0.9535583 -0.2058793
171 0.9495586 -0.2143354 0.0504414 0.2143354 0.0504414 0.2143354 0.9495586 -0.2143354
179 0.9452287 -0.2230569 0.0547713 0.2230569 0.0547713 0.2230569 0.9452287 -0.2230569
187 0.9405444 -0.2320413 0.0594556 0.2320413 0.0594556 0.2320413 0.9405444 -0.2320413
196 0.9354808 -0.2412838 0.0645192 0.2412838 0.0645192 0.2412838 0.9354808 -0.2412838
205 0.9300117 -0.2507782 0.0699883 0.2507782 0.0699883 0.2507782 0.9300117 -0.2507782
214 0.9241100 -0.2605154 0.0758900 0.2605154 0.0758900 0.2605154 0.9241100 -0.2605154
224 0.9177478 -0.2704844 0.0822522 0.2704844 0.0822522 0.2704844 0.9177478 -0.2704844
234 0.9108964 -0.2806710 0.0891036 0.2806710 0.0891036 0.2806710 0.9108964 -0.2806710
245 0.9035270 -0.2910583 0.0964730 0.2910583 0.0964730 0.2910583 0.9035270 -0.2910583
256 0.8956101 -0.3016258 0.1043899 0.3016258 0.1043899 0.3016258 0.8956101 -0.3016258
268 0.8871169 -0.3123499 0.1128831 0.3123499 0.1128831 0.3123499 0.8871169 -0.3123499
280 0.8780186 -0.3232030 0.1219814 0.3232030 0.1219814 0.3232030 0.8780186 -0.3232030
293 0.8682877 -0.3341539 0.1317123 0.3341539 0.1317123 0.3341539 0.8682877 -0.3341539
306 0.8578977 -0.3451669 0.1421023 0.3451669 0.1421023 0.3451669 0.8578977 -0.3451669
320 0.8468244 -0.3562026 0.1531756 0.3562026 0.1531756 0.3562026 0.8468244 -0.3562026
335 0.8350457 -0.3672173 0.1649543 0.3672173 0.1649543 0.3672173 0.8350457 -0.3672173
350 0.8225428 -0.3781632 0.1774572 0.3781632 0.1774572 0.3781632 0.8225428 -0.3781632
366 0.8093006 -0.3889883 0.1906994 0.3889883 0.1906994 0.3889883 0.8093006 -0.3889883
383 0.7953083 -0.3996373 0.2046917 0.3996373 0.2046917 0.3996373 0.7953083 -0.3996373
401 0.7805603 -0.4100512 0.2194397 0.4100512 0.2194397 0.4100512 0.7805603 -0.4100512
419 0.7650565 -0.4201681 0.2349435 0.4201681 0.2349435 0.4201681 0.7650565 -0.4201681
438 0.7488034 -0.4299240 0.2511966 0.4299240 0.2511966 0.4299240 0.7488034 -0.4299240
458 0.7318142 -0.4392531 0.2681858 0.4392531 0.2681858 0.4392531 0.7318142 -0.4392531
479 0.7141093 -0.4480889 0.2858907 0.4480889 0.2858907 0.4480889 0.7141093 -0.4480889
501 0.6957171 -0.4563652 0.3042829 0.4563652 0.3042829 0.4563652 0.6957171 -0.4563652
524 0.6766735 -0.4640168 0.3233265 0.4640168 0.3233265 0.4640168 0.6766735 -0.4640168
548 0.6570226 -0.4709812 0.3429774 0.4709812 0.3429774 0.4709812 0.6570226 -0.4709812
573 0.6368160 -0.4771989 0.3631840 0.4771989 0.3631840 0.4771989 0.6368160 -0.4771989
600 0.6161131 -0.4826154 0.3838869 0.4826154 0.3838869 0.4826154 0.6161131 -0.4826154
627 0.5949797 -0.4871819 0.4050203 0.4871819 0.4050203 0.4871819 0.5949797 -0.4871819
656 0.5734882 -0.4908561 0.4265118 0.4908561 0.4265118 0.4908561 0.5734882 -0.4908561
686 0.5517161 -0.4936035 0.4482839 0.4936035 0.4482839 0.4936035 0.5517161 -0.4936035
717 0.5297449 -0.4953982 0.4702551 0.4953982 0.4702551 0.4953982 0.5297449 -0.4953982
750 0.5076593 -0.4962233 0.4923407 0.4962233 0.4923407 0.4962233 0.5076593 -0.4962233
784 0.4855457 -0.4960710 0.5144543 0.4960710 0.5144543 0.4960710 0.4855457 -0.4960710
820 0.4634907 -0.4949435 0.5365093 0.4949435 0.5365093 0.4949435 0.4634907 -0.4949435
858 0.4415798 -0.4928523 0.5584202 0.4928523 0.5584202 0.4928523 0.4415798 -0.4928523
897 0.4198964 -0.4898181 0.5801036 0.4898181 0.5801036 0.4898181 0.4198964 -0.4898181
938 0.3985203 -0.4858705 0.6014797 0.4858705 0.6014797 0.4858705 0.3985203 -0.4858705
981 0.3775264 -0.4810468 0.6224736 0.4810468 0.6224736 0.4810468 0.3775264 -0.4810468
1026 0.3569841 -0.4753917 0.6430159 0.4753917 0.6430159 0.4753917 0.3569841 -0.4753917
1073 0.3369564 -0.4689562 0.6630436 0.4689562 0.6630436 0.4689562 0.3369564 -0.4689562
1122 0.3174992 -0.4617961 0.6825008 0.4617961 0.6825008 0.4617961 0.3174992 -0.4617961
1174 0.2986608 -0.4539715 0.7013392 0.4539715 0.7013392 0.4539715 0.2986608 -0.4539715
1227 0.2804820 -0.4455454 0.7195180 0.4455454 0.7195180 0.4455454 0.2804820 -0.4455454
1283 0.2629957 -0.4365824 0.7370043 0.4365824 0.7370043 0.4365824 0.2629957 -0.4365824
1342 0.2462273 -0.4271482 0.7537727 0.4271482 0.7537727 0.4271482 0.2462273 -0.4271482
1404 0.2301948 -0.4173081 0.7698052 0.4173081 0.7698052 0.4173081 0.2301948 -0.4173081
1468 0.2149090 -0.4071265 0.7850910 0.4071265 0.7850910 0.4071265 0.2149090 -0.4071265
1535 0.2003746 -0.3966658 0.7996254 0.3966658 0.7996254 0.3966658 0.2003746 -0.3966658
1606 0.1865901 -0.3859862 0.8134099 0.3859862 0.8134099 0.3859862 0.1865901 -0.3859862
1679 0.1735486 -0.3751448 0.8264514 0.3751448 0.8264514 0.3751448 0.1735486 -0.3751448
1756 0.1612386 -0.3641955 0.8387614 0.3641955 0.8387614 0.3641955 0.1612386 -0.3641955
1836 0.1496445 -0.3531882 0.8503555 0.3531882 0.8503555 0.3531882 0.1496445 -0.3531882
1920 0.1387472 -0.3421693 0.8612528 0.3421693 0.8612528 0.3421693 0.1387472 -0.3421693
2008 0.1285246 -0.3311809 0.8714754 0.3311809 0.8714754 0.3311809 0.1285246 -0.3311809
2100 0.1189526 -0.3202613 0.8810474 0.3202613 0.8810474 0.3202613 0.1189526 -0.3202613
2196 0.1100050 -0.3094447 0.8899950 0.3094447 0.8899950 0.3094447 0.1100050 -0.3094447
2297 0.1016546 -0.2987616 0.8983454 0.2987616 0.8983454 0.2987616 0.1016546 -0.2987616
2402 0.0938732 -0.2882386 0.9061268 0.2882386 0.9061268 0.2882386 0.0938732 -0.2882386
2512 0.0866321 -0.2778987 0.9133679 0.2778987 0.9133679 0.2778987 0.0866321 -0.2778987
2627 0.0799027 -0.2677616 0.9200973 0.2677616 0.9200973 0.2677616 0.0799027 -0.2677616
2748 0.0736564 -0.2578441 0.9263436 0.2578441 0.9263436 0.2578441 0.0736564 -0.2578441
2873 0.0678649 -0.2481596 0.9321351 0.2481596 0.9321351 0.2481596 0.0678649 -0.2481596
3005 0.0625008 -0.2387193 0.9374992 0.2387193 0.9374992 0.2387193 0.0625008 -0.2387193
3143 0.0575372 -0.2295318 0.9424628 0.2295318 0.9424628 0.2295318 0.0575372 -0.2295318
3287 0.0529484 -0.2206033 0.9470516 0.2206033 0.9470516 0.2206033 0.0529484 -0.2206033
3437 0.0487094 -0.2119382 0.9512906 0.2119382 0.9512906 0.2119382 0.0487094 -0.2119382
3594 0.0447966 -0.2035393 0.9552034 0.2035393 0.9552034 0.2035393 0.0447966 -0.2035393
3759 0.0411873 -0.1954075 0.9588127 0.1954075 0.9588127 0.1954075 0.0411873 -0.1954075
3931 0.0378600 -0.1875426 0.9621400 0.1875426 0.9621400 0.1875426 0.0378600 -0.1875426
4111 0.0347943 -0.1799430 0.9652057 0.1799430 0.9652057 0.1799430 0.0347943 -0.1799430
4299 0.0319713 -0.1726062 0.9680287 0.1726062 0.9680287 0.1726062 0.0319713 -0.1726062
4496 0.0293727 -0.1655288 0.9706273 0.1655288 0.9706273 0.1655288 0.0293727 -0.1655288
4702 0.0269818 -0.1587065 0.9730182 0.1587065 0.9730182 0.1587065 0.0269818 -0.1587065
4918 0.0247828 -0.1521346 0.9752172 0.1521346 0.9752172 0.1521346 0.0247828 -0.1521346
5143 0.0227609 -0.1458078 0.9772391 0.1458078 0.9772391 0.1458078 0.0227609 -0.1458078
5378 0.0209023 -0.1397203 0.9790977 0.1397203 0.9790977 0.1397203 0.0209023 -0.1397203
5625 0.0191944 -0.1338660 0.9808056 0.1338660 0.9808056 0.1338660 0.0191944 -0.1338660
5882 0.0176251 -0.1282387 0.9823749 0.1282387 0.9823749 0.1282387 0.0176251 -0.1282387
6151 0.0161836 -0.1228317 0.9838164 0.1228317 0.9838164 0.1228317 0.0161836 -0.1228317
6433 0.0148596 -0.1176385 0.9851404 0.1176385 0.9851404 0.1176385 0.0148596 -0.1176385
6728 0.0136437 -0.1126524 0.9863563 0.1126524 0.9863563 0.1126524 0.0136437 -0.1126524
7036 0.0125272 -0.1078665 0.9874728 0.1078665 0.9874728 0.1078665 0.0125272 -0.1078665
7358 0.0115021 -0.1032743 0.9884979 0.1032743 0.9884979 0.1032743 0.0115021 -0.1032743
7695 0.0105610 -0.0988690 0.9894390 0.0988690 0.9894390 0.0988690 0.0105610 -0.0988690
8047 0.0096970 -0.0946441 0.9903030 0.0946441 0.9903030 0.0946441 0.0096970 -0.0946441
8416 0.0089039 -0.0905930 0.9910961 0.0905930 0.9910961 0.0905930 0.0089039 -0.0905930
8801 0.0081759 -0.0867093 0.9918241 0.0867093 0.9918241 0.0867093 0.0081759 -0.0867093
9204 0.0075077 -0.0829869 0.9924923 0.0829869 0.9924923 0.0829869 0.0075077 -0.0829869
9626 0.0068944 -0.0794196 0.9931056 0.0794196 0.9931056 0.0794196 0.0068944 -0.0794196
10066 0.0063316 -0.0760015 0.9936684 0.0760015 0.9936684 0.0760015 0.0063316 -0.0760015
10527 0.0058151 -0.0727268 0.9941849 0.0727268 0.9941849 0.0727268 0.0058151 -0.0727268
11009 0.0053411 -0.0695899 0.9946589 0.0695899 0.9946589 0.0695899 0.0053411 -0.0695899
11514 0.0049062 -0.0665853 0.9950938 0.0665853 0.9950938 0.0665853 0.0049062 -0.0665853
12041 0.0045071 -0.0637078 0.9954929 0.0637078 0.9954929 0.0637078 0.0045071 -0.0637078
12592 0.0041411 -0.0609523 0.9958589 0.0609523 0.9958589 0.0609523 0.0041411 -0.0609523
13169 0.0038052 -0.0583140 0.9961948 0.0583140 0.9961948 0.0583140 0.0038052 -0.0583140
13772 0.0034972 -0.0557879 0.9965028 0.0557879 0.9965028 0.0557879 0.0034972 -0.0557879
14402 0.0032146 -0.0533696 0.9967854 0.0533696 0.9967854 0.0533696 0.0032146 -0.0533696
15062 0.0029555 -0.0510547 0.9970445 0.0510547 0.9970445 0.0510547 0.0029555 -0.0510547
15752 0.0027178 -0.0488389 0.9972822 0.0488389 0.9972822 0.0488389 0.0027178 -0.0488389
16473 0.0024999 -0.0467181 0.9975001 0.0467181 0.9975001 0.0467181 0.0024999 -0.0467181
17227 0.0023001 -0.0446884 0.9976999 0.0446884 0.9976999 0.0446884 0.0023001 -0.0446884
18016 0.0021169 -0.0427459 0.9978831 0.0427459 0.9978831 0.0427459 0.0021169 -0.0427459
18841 0.0019490 -0.0408871 0.9980510 0.0408871 0.9980510 0.0408871 0.0019490 -0.0408871
19704 0.0017951 -0.0391084 0.9982049 0.0391084 0.9982049 0.0391084 0.0017951 -0.0391084
20606 0.0016540 -0.0374066 0.9983460 0.0374066 0.9983460 0.0374066 0.0016540 -0.0374066
21550 0.0015246 -0.0357782 0.9984754 0.0357782 0.9984754 0.0357782 0.0015246 -0.0357782
22537 0.0014061 -0.0342203 0.9985939 0.0342203 0.9985939 0.0342203 0.0014061 -0.0342203
23569 0.0012974 -0.0327299 0.9987026 0.0327299 0.9987026 0.0327299 0.0012974 -0.0327299
24648 0.0011978 -0.0313041 0.9988022 0.0313041 0.9988022 0.0313041 0.0011978 -0.0313041
25777 0.0011065 -0.0299401 0.9988935 0.0299401 0.9988935 0.0299401 0.0011065 -0.0299401
26957 0.0010228 -0.0286353 0.9989772 0.0286353 0.9989772 0.0286353 0.0010228 -0.0286353
28191 0.0009461 -0.0273872 0.9990539 0.0273872 0.9990539 0.0273872 0.0009461 -0.0273872
29482 0.0008757 -0.0261934 0.9991243 0.0261934 0.9991243 0.0261934 0.0008757 -0.0261934
30832 0.0008112 -0.0250516 0.9991888 0.0250516 0.9991888 0.0250516 0.0008112 -0.0250516
32244 0.0007520 -0.0239594 0.9992480 0.0239594 0.9992480 0.0239594 0.0007520 -0.0239594
33721 0.0006976 -0.0229148 0.9993024 0.0229148 0.9993024 0.0229148 0.0006976 -0.0229148
35265 0.0006478 -0.0219157 0.9993522 0.0219157 0.9993522 0.0219157 0.0006478 -0.0219157
36880 0.0006020 -0.0209602 0.9993980 0.0209602 0.9993980 0.0209602 0.0006020 -0.0209602
38569 0.0005600 -0.0200463 0.9994400 0.0200463 0.9994400 0.0200463 0.0005600 -0.0200463
40335 0.0005213 -0.0191723 0.9994787 0.0191723 0.9994787 0.0191723 0.0005213 -0.0191723
42182 0.0004858 -0.0183365 0.9995142 0.0183365 0.9995142 0.0183365 0.0004858 -0.0183365
44113 0.0004531 -0.0175371 0.9995469 0.0175371 0.9995469 0.0175371 0.0004531 -0.0175371
46134 0.0004230 -0.0167726 0.9995770 0.0167726 0.9995770 0.0167726 0.0004230 -0.0167726
48246 0.0003953 -0.0160415 0.9996047 0.0160415 0.9996047 0.0160415 0.0003953 -0.0160415
50455 0.0003697 -0.0153423 0.9996303 0.0153423 0.9996303 0.0153423 0.0003697 -0.0153423
52766 0.0003462 -0.0146736 0.9996538 0.0146736 0.9996538 0.0146736 0.0003462 -0.0146736
55182 0.0003244 -0.0140341 0.9996756 0.0140341 0.9996756 0.0140341 0.0003244 -0.0140341
57709 0.0003042 -0.0134225 0.9996958 0.0134225 0.9996958 0.0134225 0.0003042 -0.0134225
60352 0.0002856 -0.0128376 0.9997144 0.0128376 0.9997144 0.0128376 0.0002856 -0.0128376
63115 0.0002683 -0.0122782 0.9997317 0.0122782 0.9997317 0.0122782 0.0002683 -0.0122782
66005 0.0002524 -0.0117432 0.9997476 0.0117432 0.9997476 0.0117432 0.0002524 -0.0117432
69028 0.0002375 -0.0112315 0.9997625 0.0112315 0.9997625 0.0112315 0.0002375 -0.0112315
72189 0.0002237 -0.0107422 0.9997763 0.0107422 0.9997763 0.0107422 0.0002237 -0.0107422
75495 0.0002109 -0.0102741 0.9997891 0.0102741 0.9997891 0.0102741 0.0002109 -0.0102741
78952 0.0001990 -0.0098264 0.9998010 0.0098264 0.9998010 0.0098264 0.0001990 -0.0098264
82567 0.0001879 -0.0093982 0.9998121 0.0093982 0.9998121 0.0093982 0.0001879 -0.0093982
86348 0.0001776 -0.0089887 0.9998224 0.0089887 0.9998224 0.0089887 0.0001776 -0.0089887
90302 0.0001680 -0.0085969 0.9998320 0.0085969 0.9998320 0.0085969 0.0001680 -0.0085969
94437 0.0001590 -0.0082222 0.9998410 0.0082222 0.9998410 0.0082222 0.0001590 -0.0082222
98762 0.0001506 -0.0078637 0.9998494 0.0078637 0.9998494 0.0078637 0.0001506 -0.0078637
103284 0.0001428 -0.0075209 0.9998572 0.0075209 0.9998572 0.0075209 0.0001428 -0.0075209
108014 0.0001355 -0.0071929 0.9998645 0.0071929 0.9998645 0.0071929 0.0001355 -0.0071929
112960 0.0001287 -0.0068791 0.9998713 0.0068791 0.9998713 0.0068791 0.0001287 -0.0068791
118133 0.0001224 -0.0065790 0.9998776 0.0065790 0.9998776 0.0065790 0.0001224 -0.0065790
123542 0.0001165 -0.0062919 0.9998835 0.0062919 0.9998835 0.0062919 0.0001165 -0.0062919
129199 0.0001110 -0.0060172 0.9998890 0.0060172 0.9998890 0.0060172 0.0001110 -0.0060172
135116 0.0001059 -0.0057545 0.9998941 0.0057545 0.9998941 0.0057545 0.0001059 -0.0057545
141303 0.0001011 -0.0055031 0.9998989 0.0055031 0.9998989 0.0055031 0.0001011 -0.0055031
147774 0.0000967 -0.0052626 0.9999033 0.0052626 0.9999033 0.0052626 0.0000967 -0.0052626
154540 0.0000926 -0.0050326 0.9999074 0.0050326 0.9999074 0.0050326 0.0000926 -0.0050326
161617 0.0000887 -0.0048125 0.9999113 0.0048125 0.9999113 0.0048125 0.0000887 -0.0048125
169018 0.0000852 -0.0046020 0.9999148 0.0046020 0.9999148 0.0046020 0.0000852 -0.0046020
176758 0.0000819 -0.0044006 0.9999181 0.0044006 0.9999181 0.0044006 0.0000819 -0.0044006
184852 0.0000788 -0.0042079 0.9999212 0.0042079 0.9999212 0.0042079 0.0000788 -0.0042079
193316 0.0000760 -0.0040235 0.9999240 0.0040235 0.9999240 0.0040235 0.0000760 -0.0040235
202169 0.0000733 -0.0038472 0.9999267 0.0038472 0.9999267 0.0038472 0.0000733 -0.0038472
211427 0.0000709 -0.0036785 0.9999291 0.0036785 0.9999291 0.0036785 0.0000709 -0.0036785
221108 0.0000687 -0.0035171 0.9999313 0.0035171 0.9999313 0.0035171 0.0000687 -0.0035171
231233 0.0000666 -0.0033627 0.9999334 0.0033627 0.9999334 0.0033627 0.0000666 -0.0033627
241822 0.0000647 -0.0032150 0.9999353 0.0032150 0.9999353 0.0032150 0.0000647 -0.0032150
252896 0.0000629 -0.0030737 0.9999371 0.0030737 0.9999371 0.0030737 0.0000629 -0.0030737
264476 0.0000613 -0.0029385 0.9999387 0.0029385 0.9999387 0.0029385 0.0000613 -0.0029385
276587 0.0000598 -0.0028091 0.9999402 0.0028091 0.9999402 0.0028091 0.0000598 -0.0028091
289253 0.0000584 -0.0026854 0.9999416 0.0026854 0.9999416 0.0026854 0.0000584 -0.0026854
302498 0.0000571 -0.0025670 0.9999429 0.0025670 0.9999429 0.0025670 0.0000571 -0.0025670
316350 0.0000560 -0.0024537 0.9999440 0.0024537 0.9999440 0.0024537 0.0000560 -0.0024537
330837 0.0000549 -0.0023454 0.9999451 0.0023454 0.9999451 0.0023454 0.0000549 -0.0023454
345986 0.0000539 -0.0022417 0.9999461 0.0022417 0.9999461 0.0022417 0.0000539 -0.0022417
361830 0.0000530 -0.0021424 0.9999470 0.0021424 0.9999470 0.0021424 0.0000530 -0.0021424
378399 0.0000522 -0.0020475 0.9999478 0.0020475 0.9999478 0.0020475 0.0000522 -0.0020475
395726 0.0000514 -0.0019566 0.9999486 0.0019566 0.9999486 0.0019566 0.0000514 -0.0019566
413847 0.0000508 -0.0018697 0.9999492 0.0018697 0.9999492 0.0018697 0.0000508 -0.0018697
432798 0.0000501 -0.0017865 0.9999499 0.0017865 0.9999499 0.0017865 0.0000501 -0.0017865
452617 0.0000495 -0.0017069 0.9999505 0.0017069 0.9999505 0.0017069 0.0000495 -0.0017069
473344 0.0000490 -0.0016306 0.9999510 0.0016306 0.9999510 0.0016306 0.0000490 -0.0016306
495019 0.0000485 -0.0015577 0.9999515 0.0015577 0.9999515 0.0015577 0.0000485 -0.0015577
517687 0.0000481 -0.0014878 0.9999519 0.0014878 0.9999519 0.0014878 0.0000481 -0.0014878
541393 0.0000477 -0.0014210 0.9999523 0.0014210 0.9999523 0.0014210 0.0000477 -0.0014210
566185 0.0000474 -0.0013569 0.9999526 0.0013569 0.9999526 0.0013569 0.0000474 -0.0013569
592111 0.0000470 -0.0012956 0.9999530 0.0012956 0.9999530 0.0012956 0.0000470 -0.0012956
619225 0.0000467 -0.0012369 0.9999533 0.0012369 0.9999533 0.0012369 0.0000467 -0.0012369
647581 0.0000465 -0.0011807 0.9999535 0.0011807 0.9999535 0.0011807 0.0000465 -0.0011807
677235 0.0000463 -0.0011268 0.9999537 0.0011268 0.9999537 0.0011268 0.0000463 -0.0011268
708247 0.0000461 -0.0010752 0.9999539 0.0010752 0.9999539 0.0010752 0.0000461 -0.0010752
740679 0.0000459 -0.0010257 0.9999541 0.0010257 0.9999541 0.0010257 0.0000459 -0.0010257
774597 0.0000457 -0.0009783 0.9999543 0.0009783 0.9999543 0.0009783 0.0000457 -0.0009783
810067 0.0000456 -0.0009329 0.9999544 0.0009329 0.9999544 0.0009329 0.0000456 -0.0009329
847162 0.0000455 -0.0008893 0.9999545 0.0008893 0.9999545 0.0008893 0.0000455 -0.0008893
885955 0.0000454 -0.0008475 0.9999546 0.0008475 0.9999546 0.0008475 0.0000454 -0.0008475
926525 0.0000453 -0.0008074 0.9999547 0.0008074 0.9999547 0.0008074 0.0000453 -0.0008074
968953 0.0000453 -0.0007689 0.9999547 0.0007689 0.9999547 0.0007689 0.0000453 -0.0007689
1013323 0.0000452 -0.0007320 0.9999548 0.0007320 0.9999548 0.0007320 0.0000452 -0.0007320
1059725 0.0000452 -0.0006965 0.9999548 0.0006965 0.9999548 0.0006965 0.0000452 -0.0006965
1108252 0.0000452 -0.0006624 0.9999548 0.0006624 0.9999548 0.0006624 0.0000452 -0.0006624
1159002 0.0000452 -0.0006297 0.9999548 0.0006297 0.9999548 0.0006297 0.0000452 -0.0006297
1212075 0.0000453 -0.0005982 0.9999547 0.0005982 0.9999547 0.0005982 0.0000453 -0.0005982
1267578 0.0000454 -0.0005679 0.9999546 0.0005679 0.9999546 0.0005679 0.0000454 -0.0005679
1325623 0.0000454 -0.0005387 0.9999546 0.0005387 0.9999546 0.0005387 0.0000454 -0.0005387
1386327 0.0000455 -0.0005107 0.9999545 0.0005107 0.9999545 0.0005107 0.0000455 -0.0005107
1449809 0.0000457 -0.0004836 0.9999543 0.0004836 0.9999543 0.0004836 0.0000457 -0.0004836
1516199 0.0000458 -0.0004576 0.9999542 0.0004576 0.9999542 0.0004576 0.0000458 -0.0004576
1585629 0.0000460 -0.0004324 0.9999540 0.0004324 0.9999540 0.0004324 0.0000460 -0.0004324
1658239 0.0000462 -0.0004081 0.9999538 0.0004081 0.9999538 0.0004081 0.0000462 -0.0004081
1734173 0.0000464 -0.0003846 0.9999536 0.0003846 0.9999536 0.0003846 0.0000464 -0.0003846
1813585 0.0000466 -0.0003619 0.9999534 0.0003619 0.9999534 0.0003619 0.0000466 -0.0003619
1896632 0.0000469 -0.0003400 0.9999531 0.0003400 0.9999531 0.0003400 0.0000469 -0.0003400
1983483 0.0000472 -0.0003187 0.9999528 0.0003187 0.9999528 0.0003187 0.0000472 -0.0003187
2074311 0.0000476 -0.0002980 0.9999524 0.0002980 0.9999524 0.0002980 0.0000476 -0.0002980
