!Murata Part Number: GRM188R60G476ME15
!These Parameters are Measured in Series Mode Connection
!Data Generated on Mar 30, 2021
!       o--ll--o
!Port1            Port2
!       o------o
!Operation Temp=25[degC], DC Bias Voltage=0[V]
!Freq. Start=100[Hz] Stop=6[GHz] 401[Steps]
# Hz S RI R 50
!Freq.(Hz) S11(Real) S11(Imag) S21(Real) S21(Imag) S12(Real) S12(Imag) S22(Real) S22(Imag)
100 0.1985034 -0.3939569 0.8014966 0.3939569 0.8014966 0.3939569 0.1985034 -0.3939569
105 0.1848747 -0.3832999 0.8151253 0.3832999 0.8151253 0.3832999 0.1848747 -0.3832999
109 0.1719839 -0.3724880 0.8280161 0.3724880 0.8280161 0.3724880 0.1719839 -0.3724880
114 0.1598192 -0.3615745 0.8401808 0.3615745 0.8401808 0.3615745 0.1598192 -0.3615745
120 0.1483649 -0.3506091 0.8516351 0.3506091 0.8516351 0.3506091 0.1483649 -0.3506091
125 0.1376019 -0.3396377 0.8623981 0.3396377 0.8623981 0.3396377 0.1376019 -0.3396377
131 0.1275079 -0.3287021 0.8724921 0.3287021 0.8724921 0.3287021 0.1275079 -0.3287021
137 0.1180587 -0.3178401 0.8819413 0.3178401 0.8819413 0.3178401 0.1180587 -0.3178401
143 0.1092279 -0.3070856 0.8907721 0.3070856 0.8907721 0.3070856 0.1092279 -0.3070856
150 0.1009883 -0.2964685 0.8990117 0.2964685 0.8990117 0.2964685 0.1009883 -0.2964685
156 0.0933113 -0.2860151 0.9066887 0.2860151 0.9066887 0.2860151 0.0933113 -0.2860151
164 0.0861685 -0.2757479 0.9138315 0.2757479 0.9138315 0.2757479 0.0861685 -0.2757479
171 0.0795308 -0.2656863 0.9204692 0.2656863 0.9204692 0.2656863 0.0795308 -0.2656863
179 0.0733698 -0.2558463 0.9266302 0.2558463 0.9266302 0.2558463 0.0733698 -0.2558463
187 0.0676572 -0.2462412 0.9323428 0.2462412 0.9323428 0.2462412 0.0676572 -0.2462412
196 0.0623655 -0.2368814 0.9376345 0.2368814 0.9376345 0.2368814 0.0623655 -0.2368814
205 0.0574681 -0.2277751 0.9425319 0.2277751 0.9425319 0.2277751 0.0574681 -0.2277751
214 0.0529391 -0.2189282 0.9470609 0.2189282 0.9470609 0.2189282 0.0529391 -0.2189282
224 0.0487540 -0.2103447 0.9512460 0.2103447 0.9512460 0.2103447 0.0487540 -0.2103447
234 0.0448891 -0.2020267 0.9551109 0.2020267 0.9551109 0.2020267 0.0448891 -0.2020267
245 0.0413219 -0.1939749 0.9586781 0.1939749 0.9586781 0.1939749 0.0413219 -0.1939749
256 0.0380313 -0.1861887 0.9619687 0.1861887 0.9619687 0.1861887 0.0380313 -0.1861887
268 0.0349973 -0.1786661 0.9650027 0.1786661 0.9650027 0.1786661 0.0349973 -0.1786661
280 0.0322008 -0.1714044 0.9677992 0.1714044 0.9677992 0.1714044 0.0322008 -0.1714044
293 0.0296243 -0.1643999 0.9703757 0.1643999 0.9703757 0.1643999 0.0296243 -0.1643999
306 0.0272512 -0.1576480 0.9727488 0.1576480 0.9727488 0.1576480 0.0272512 -0.1576480
320 0.0250660 -0.1511439 0.9749340 0.1511439 0.9749340 0.1511439 0.0250660 -0.1511439
335 0.0230543 -0.1448820 0.9769457 0.1448820 0.9769457 0.1448820 0.0230543 -0.1448820
350 0.0212027 -0.1388564 0.9787973 0.1388564 0.9787973 0.1388564 0.0212027 -0.1388564
366 0.0194988 -0.1330610 0.9805012 0.1330610 0.9805012 0.1330610 0.0194988 -0.1330610
383 0.0179310 -0.1274894 0.9820690 0.1274894 0.9820690 0.1274894 0.0179310 -0.1274894
401 0.0164887 -0.1221351 0.9835113 0.1221351 0.9835113 0.1221351 0.0164887 -0.1221351
419 0.0151620 -0.1169915 0.9848380 0.1169915 0.9848380 0.1169915 0.0151620 -0.1169915
438 0.0139418 -0.1120518 0.9860582 0.1120518 0.9860582 0.1120518 0.0139418 -0.1120518
458 0.0128197 -0.1073095 0.9871803 0.1073095 0.9871803 0.1073095 0.0128197 -0.1073095
479 0.0117878 -0.1027578 0.9882122 0.1027578 0.9882122 0.1027578 0.0117878 -0.1027578
501 0.0108391 -0.0983903 0.9891609 0.0983903 0.9891609 0.0983903 0.0108391 -0.0983903
524 0.0099670 -0.0942005 0.9900330 0.0942005 0.9900330 0.0942005 0.0099670 -0.0942005
548 0.0091653 -0.0901819 0.9908347 0.0901819 0.9908347 0.0901819 0.0091653 -0.0901819
573 0.0084285 -0.0863285 0.9915715 0.0863285 0.9915715 0.0863285 0.0084285 -0.0863285
600 0.0077514 -0.0826340 0.9922486 0.0826340 0.9922486 0.0826340 0.0077514 -0.0826340
627 0.0071292 -0.0790926 0.9928708 0.0790926 0.9928708 0.0790926 0.0071292 -0.0790926
656 0.0065575 -0.0756984 0.9934425 0.0756984 0.9934425 0.0756984 0.0065575 -0.0756984
686 0.0060324 -0.0724459 0.9939676 0.0724459 0.9939676 0.0724459 0.0060324 -0.0724459
717 0.0055501 -0.0693296 0.9944499 0.0693296 0.9944499 0.0693296 0.0055501 -0.0693296
750 0.0051071 -0.0663442 0.9948929 0.0663442 0.9948929 0.0663442 0.0051071 -0.0663442
784 0.0047003 -0.0634845 0.9952997 0.0634845 0.9952997 0.0634845 0.0047003 -0.0634845
820 0.0043267 -0.0607456 0.9956733 0.0607456 0.9956733 0.0607456 0.0043267 -0.0607456
858 0.0039838 -0.0581227 0.9960162 0.0581227 0.9960162 0.0581227 0.0039838 -0.0581227
897 0.0036690 -0.0556112 0.9963310 0.0556112 0.9963310 0.0556112 0.0036690 -0.0556112
938 0.0033800 -0.0532066 0.9966200 0.0532066 0.9966200 0.0532066 0.0033800 -0.0532066
981 0.0031146 -0.0509045 0.9968854 0.0509045 0.9968854 0.0509045 0.0031146 -0.0509045
1026 0.0028711 -0.0487007 0.9971289 0.0487007 0.9971289 0.0487007 0.0028711 -0.0487007
1073 0.0026476 -0.0465913 0.9973524 0.0465913 0.9973524 0.0465913 0.0026476 -0.0465913
1122 0.0024423 -0.0445724 0.9975577 0.0445724 0.9975577 0.0445724 0.0024423 -0.0445724
1174 0.0022539 -0.0426402 0.9977461 0.0426402 0.9977461 0.0426402 0.0022539 -0.0426402
1227 0.0020810 -0.0407912 0.9979190 0.0407912 0.9979190 0.0407912 0.0020810 -0.0407912
1283 0.0019221 -0.0390218 0.9980779 0.0390218 0.9980779 0.0390218 0.0019221 -0.0390218
1342 0.0017762 -0.0373287 0.9982238 0.0373287 0.9982238 0.0373287 0.0017762 -0.0373287
1404 0.0016422 -0.0357087 0.9983578 0.0357087 0.9983578 0.0357087 0.0016422 -0.0357087
1468 0.0015190 -0.0341588 0.9984810 0.0341588 0.9984810 0.0341588 0.0015190 -0.0341588
1535 0.0014058 -0.0326760 0.9985942 0.0326760 0.9985942 0.0326760 0.0014058 -0.0326760
1606 0.0013016 -0.0312573 0.9986984 0.0312573 0.9986984 0.0312573 0.0013016 -0.0312573
1679 0.0012058 -0.0299002 0.9987942 0.0299002 0.9987942 0.0299002 0.0012058 -0.0299002
1756 0.0011176 -0.0286019 0.9988824 0.0286019 0.9988824 0.0286019 0.0011176 -0.0286019
1836 0.0010364 -0.0273599 0.9989636 0.0273599 0.9989636 0.0273599 0.0010364 -0.0273599
1920 0.0009615 -0.0261718 0.9990385 0.0261718 0.9990385 0.0261718 0.0009615 -0.0261718
2008 0.0008925 -0.0250353 0.9991075 0.0250353 0.9991075 0.0250353 0.0008925 -0.0250353
2100 0.0008288 -0.0239482 0.9991712 0.0239482 0.9991712 0.0239482 0.0008288 -0.0239482
2196 0.0007700 -0.0229083 0.9992300 0.0229083 0.9992300 0.0229083 0.0007700 -0.0229083
2297 0.0007157 -0.0219135 0.9992843 0.0219135 0.9992843 0.0219135 0.0007157 -0.0219135
2402 0.0006655 -0.0209619 0.9993345 0.0209619 0.9993345 0.0209619 0.0006655 -0.0209619
2512 0.0006190 -0.0200516 0.9993810 0.0200516 0.9993810 0.0200516 0.0006190 -0.0200516
2627 0.0005760 -0.0191808 0.9994240 0.0191808 0.9994240 0.0191808 0.0005760 -0.0191808
2748 0.0005362 -0.0183478 0.9994638 0.0183478 0.9994638 0.0183478 0.0005362 -0.0183478
2873 0.0004992 -0.0175510 0.9995008 0.0175510 0.9995008 0.0175510 0.0004992 -0.0175510
3005 0.0004650 -0.0167887 0.9995350 0.0167887 0.9995350 0.0167887 0.0004650 -0.0167887
3143 0.0004332 -0.0160594 0.9995668 0.0160594 0.9995668 0.0160594 0.0004332 -0.0160594
3287 0.0004037 -0.0153618 0.9995963 0.0153618 0.9995963 0.0153618 0.0004037 -0.0153618
3437 0.0003763 -0.0146944 0.9996237 0.0146944 0.9996237 0.0146944 0.0003763 -0.0146944
3594 0.0003509 -0.0140559 0.9996491 0.0140559 0.9996491 0.0140559 0.0003509 -0.0140559
3759 0.0003272 -0.0134450 0.9996728 0.0134450 0.9996728 0.0134450 0.0003272 -0.0134450
3931 0.0003053 -0.0128606 0.9996947 0.0128606 0.9996947 0.0128606 0.0003053 -0.0128606
4111 0.0002849 -0.0123015 0.9997151 0.0123015 0.9997151 0.0123015 0.0002849 -0.0123015
4299 0.0002660 -0.0117666 0.9997340 0.0117666 0.9997340 0.0117666 0.0002660 -0.0117666
4496 0.0002484 -0.0112548 0.9997516 0.0112548 0.9997516 0.0112548 0.0002484 -0.0112548
4702 0.0002321 -0.0107652 0.9997679 0.0107652 0.9997679 0.0107652 0.0002321 -0.0107652
4918 0.0002170 -0.0102968 0.9997830 0.0102968 0.9997830 0.0102968 0.0002170 -0.0102968
5143 0.0002030 -0.0098486 0.9997970 0.0098486 0.9997970 0.0098486 0.0002030 -0.0098486
5378 0.0001899 -0.0094199 0.9998101 0.0094199 0.9998101 0.0094199 0.0001899 -0.0094199
5625 0.0001779 -0.0090097 0.9998221 0.0090097 0.9998221 0.0090097 0.0001779 -0.0090097
5882 0.0001667 -0.0086173 0.9998333 0.0086173 0.9998333 0.0086173 0.0001667 -0.0086173
6151 0.0001563 -0.0082419 0.9998437 0.0082419 0.9998437 0.0082419 0.0001563 -0.0082419
6433 0.0001468 -0.0078828 0.9998532 0.0078828 0.9998532 0.0078828 0.0001468 -0.0078828
6728 0.0001379 -0.0075392 0.9998621 0.0075392 0.9998621 0.0075392 0.0001379 -0.0075392
7036 0.0001297 -0.0072106 0.9998703 0.0072106 0.9998703 0.0072106 0.0001297 -0.0072106
7358 0.0001221 -0.0068962 0.9998779 0.0068962 0.9998779 0.0068962 0.0001221 -0.0068962
7695 0.0001151 -0.0065955 0.9998849 0.0065955 0.9998849 0.0065955 0.0001151 -0.0065955
8047 0.0001087 -0.0063078 0.9998913 0.0063078 0.9998913 0.0063078 0.0001087 -0.0063078
8416 0.0001027 -0.0060327 0.9998973 0.0060327 0.9998973 0.0060327 0.0001027 -0.0060327
8801 0.0000972 -0.0057695 0.9999028 0.0057695 0.9999028 0.0057695 0.0000972 -0.0057695
9204 0.0000921 -0.0055178 0.9999079 0.0055178 0.9999079 0.0055178 0.0000921 -0.0055178
9626 0.0000875 -0.0052770 0.9999125 0.0052770 0.9999125 0.0052770 0.0000875 -0.0052770
10066 0.0000831 -0.0050467 0.9999169 0.0050467 0.9999169 0.0050467 0.0000831 -0.0050467
10527 0.0000792 -0.0048264 0.9999208 0.0048264 0.9999208 0.0048264 0.0000792 -0.0048264
11009 0.0000755 -0.0046158 0.9999245 0.0046158 0.9999245 0.0046158 0.0000755 -0.0046158
11514 0.0000721 -0.0044143 0.9999279 0.0044143 0.9999279 0.0044143 0.0000721 -0.0044143
12041 0.0000690 -0.0042216 0.9999310 0.0042216 0.9999310 0.0042216 0.0000690 -0.0042216
12592 0.0000661 -0.0040374 0.9999339 0.0040374 0.9999339 0.0040374 0.0000661 -0.0040374
13169 0.0000634 -0.0038611 0.9999366 0.0038611 0.9999366 0.0038611 0.0000634 -0.0038611
13772 0.0000609 -0.0036926 0.9999391 0.0036926 0.9999391 0.0036926 0.0000609 -0.0036926
14402 0.0000587 -0.0035314 0.9999413 0.0035314 0.9999413 0.0035314 0.0000587 -0.0035314
15062 0.0000565 -0.0033773 0.9999435 0.0033773 0.9999435 0.0033773 0.0000565 -0.0033773
15752 0.0000546 -0.0032299 0.9999454 0.0032299 0.9999454 0.0032299 0.0000546 -0.0032299
16473 0.0000528 -0.0030889 0.9999472 0.0030889 0.9999472 0.0030889 0.0000528 -0.0030889
17227 0.0000511 -0.0029541 0.9999489 0.0029541 0.9999489 0.0029541 0.0000511 -0.0029541
18016 0.0000495 -0.0028252 0.9999505 0.0028252 0.9999505 0.0028252 0.0000495 -0.0028252
18841 0.0000480 -0.0027020 0.9999520 0.0027020 0.9999520 0.0027020 0.0000480 -0.0027020
19704 0.0000466 -0.0025841 0.9999534 0.0025841 0.9999534 0.0025841 0.0000466 -0.0025841
20606 0.0000454 -0.0024714 0.9999546 0.0024714 0.9999546 0.0024714 0.0000454 -0.0024714
21550 0.0000441 -0.0023636 0.9999559 0.0023636 0.9999559 0.0023636 0.0000441 -0.0023636
22537 0.0000430 -0.0022605 0.9999570 0.0022605 0.9999570 0.0022605 0.0000430 -0.0022605
23569 0.0000419 -0.0021619 0.9999581 0.0021619 0.9999581 0.0021619 0.0000419 -0.0021619
24648 0.0000409 -0.0020677 0.9999591 0.0020677 0.9999591 0.0020677 0.0000409 -0.0020677
25777 0.0000399 -0.0019775 0.9999601 0.0019775 0.9999601 0.0019775 0.0000399 -0.0019775
26957 0.0000390 -0.0018913 0.9999610 0.0018913 0.9999610 0.0018913 0.0000390 -0.0018913
28191 0.0000381 -0.0018089 0.9999619 0.0018089 0.9999619 0.0018089 0.0000381 -0.0018089
29482 0.0000373 -0.0017300 0.9999627 0.0017300 0.9999627 0.0017300 0.0000373 -0.0017300
30832 0.0000365 -0.0016546 0.9999635 0.0016546 0.9999635 0.0016546 0.0000365 -0.0016546
32244 0.0000357 -0.0015824 0.9999643 0.0015824 0.9999643 0.0015824 0.0000357 -0.0015824
33721 0.0000349 -0.0015135 0.9999651 0.0015135 0.9999651 0.0015135 0.0000349 -0.0015135
35265 0.0000342 -0.0014475 0.9999658 0.0014475 0.9999658 0.0014475 0.0000342 -0.0014475
36880 0.0000335 -0.0013843 0.9999665 0.0013843 0.9999665 0.0013843 0.0000335 -0.0013843
38569 0.0000328 -0.0013240 0.9999672 0.0013240 0.9999672 0.0013240 0.0000328 -0.0013240
40335 0.0000322 -0.0012662 0.9999678 0.0012662 0.9999678 0.0012662 0.0000322 -0.0012662
42182 0.0000316 -0.0012110 0.9999684 0.0012110 0.9999684 0.0012110 0.0000316 -0.0012110
44113 0.0000309 -0.0011581 0.9999691 0.0011581 0.9999691 0.0011581 0.0000309 -0.0011581
46134 0.0000304 -0.0011075 0.9999696 0.0011075 0.9999696 0.0011075 0.0000304 -0.0011075
48246 0.0000298 -0.0010591 0.9999702 0.0010591 0.9999702 0.0010591 0.0000298 -0.0010591
50455 0.0000292 -0.0010128 0.9999708 0.0010128 0.9999708 0.0010128 0.0000292 -0.0010128
52766 0.0000287 -0.0009685 0.9999713 0.0009685 0.9999713 0.0009685 0.0000287 -0.0009685
55182 0.0000282 -0.0009261 0.9999718 0.0009261 0.9999718 0.0009261 0.0000282 -0.0009261
57709 0.0000277 -0.0008856 0.9999723 0.0008856 0.9999723 0.0008856 0.0000277 -0.0008856
60352 0.0000273 -0.0008468 0.9999727 0.0008468 0.9999727 0.0008468 0.0000273 -0.0008468
63115 0.0000268 -0.0008096 0.9999732 0.0008096 0.9999732 0.0008096 0.0000268 -0.0008096
66005 0.0000264 -0.0007741 0.9999736 0.0007741 0.9999736 0.0007741 0.0000264 -0.0007741
69028 0.0000260 -0.0007400 0.9999740 0.0007400 0.9999740 0.0007400 0.0000260 -0.0007400
72189 0.0000256 -0.0007075 0.9999744 0.0007075 0.9999744 0.0007075 0.0000256 -0.0007075
75495 0.0000253 -0.0006763 0.9999747 0.0006763 0.9999747 0.0006763 0.0000253 -0.0006763
78952 0.0000249 -0.0006464 0.9999751 0.0006464 0.9999751 0.0006464 0.0000249 -0.0006464
82567 0.0000246 -0.0006179 0.9999754 0.0006179 0.9999754 0.0006179 0.0000246 -0.0006179
86348 0.0000243 -0.0005905 0.9999757 0.0005905 0.9999757 0.0005905 0.0000243 -0.0005905
90302 0.0000240 -0.0005644 0.9999760 0.0005644 0.9999760 0.0005644 0.0000240 -0.0005644
94437 0.0000237 -0.0005393 0.9999763 0.0005393 0.9999763 0.0005393 0.0000237 -0.0005393
98762 0.0000235 -0.0005153 0.9999765 0.0005153 0.9999765 0.0005153 0.0000235 -0.0005153
103284 0.0000233 -0.0004923 0.9999767 0.0004923 0.9999767 0.0004923 0.0000233 -0.0004923
108014 0.0000230 -0.0004703 0.9999770 0.0004703 0.9999770 0.0004703 0.0000230 -0.0004703
112960 0.0000228 -0.0004493 0.9999772 0.0004493 0.9999772 0.0004493 0.0000228 -0.0004493
118133 0.0000227 -0.0004291 0.9999773 0.0004291 0.9999773 0.0004291 0.0000227 -0.0004291
123542 0.0000225 -0.0004098 0.9999775 0.0004098 0.9999775 0.0004098 0.0000225 -0.0004098
129199 0.0000223 -0.0003912 0.9999777 0.0003912 0.9999777 0.0003912 0.0000223 -0.0003912
135116 0.0000222 -0.0003735 0.9999778 0.0003735 0.9999778 0.0003735 0.0000222 -0.0003735
141303 0.0000221 -0.0003565 0.9999779 0.0003565 0.9999779 0.0003565 0.0000221 -0.0003565
147774 0.0000220 -0.0003402 0.9999780 0.0003402 0.9999780 0.0003402 0.0000220 -0.0003402
154540 0.0000219 -0.0003246 0.9999781 0.0003246 0.9999781 0.0003246 0.0000219 -0.0003246
161617 0.0000218 -0.0003097 0.9999782 0.0003097 0.9999782 0.0003097 0.0000218 -0.0003097
169018 0.0000217 -0.0002953 0.9999783 0.0002953 0.9999783 0.0002953 0.0000217 -0.0002953
176758 0.0000216 -0.0002816 0.9999784 0.0002816 0.9999784 0.0002816 0.0000216 -0.0002816
184852 0.0000215 -0.0002684 0.9999785 0.0002684 0.9999785 0.0002684 0.0000215 -0.0002684
193316 0.0000215 -0.0002557 0.9999785 0.0002557 0.9999785 0.0002557 0.0000215 -0.0002557
202169 0.0000215 -0.0002436 0.9999785 0.0002436 0.9999785 0.0002436 0.0000215 -0.0002436
211427 0.0000214 -0.0002319 0.9999786 0.0002319 0.9999786 0.0002319 0.0000214 -0.0002319
221108 0.0000214 -0.0002207 0.9999786 0.0002207 0.9999786 0.0002207 0.0000214 -0.0002207
231233 0.0000214 -0.0002099 0.9999786 0.0002099 0.9999786 0.0002099 0.0000214 -0.0002099
241822 0.0000214 -0.0001996 0.9999786 0.0001996 0.9999786 0.0001996 0.0000214 -0.0001996
252896 0.0000214 -0.0001897 0.9999786 0.0001897 0.9999786 0.0001897 0.0000214 -0.0001897
264476 0.0000214 -0.0001801 0.9999786 0.0001801 0.9999786 0.0001801 0.0000214 -0.0001801
276587 0.0000214 -0.0001709 0.9999786 0.0001709 0.9999786 0.0001709 0.0000214 -0.0001709
289253 0.0000214 -0.0001620 0.9999786 0.0001620 0.9999786 0.0001620 0.0000214 -0.0001620
302498 0.0000215 -0.0001535 0.9999785 0.0001535 0.9999785 0.0001535 0.0000215 -0.0001535
316350 0.0000215 -0.0001453 0.9999785 0.0001453 0.9999785 0.0001453 0.0000215 -0.0001453
330837 0.0000216 -0.0001373 0.9999784 0.0001373 0.9999784 0.0001373 0.0000216 -0.0001373
345986 0.0000217 -0.0001297 0.9999783 0.0001297 0.9999783 0.0001297 0.0000217 -0.0001297
361830 0.0000218 -0.0001222 0.9999782 0.0001222 0.9999782 0.0001222 0.0000218 -0.0001222
378399 0.0000219 -0.0001151 0.9999781 0.0001151 0.9999781 0.0001151 0.0000219 -0.0001151
395726 0.0000220 -0.0001082 0.9999780 0.0001082 0.9999780 0.0001082 0.0000220 -0.0001082
413847 0.0000221 -0.0001014 0.9999779 0.0001014 0.9999779 0.0001014 0.0000221 -0.0001014
432798 0.0000222 -0.0000949 0.9999778 0.0000949 0.9999778 0.0000949 0.0000222 -0.0000949
452617 0.0000224 -0.0000886 0.9999776 0.0000886 0.9999776 0.0000886 0.0000224 -0.0000886
473344 0.0000226 -0.0000825 0.9999774 0.0000825 0.9999774 0.0000825 0.0000226 -0.0000825
495019 0.0000228 -0.0000765 0.9999772 0.0000765 0.9999772 0.0000765 0.0000228 -0.0000765
517687 0.0000230 -0.0000707 0.9999770 0.0000707 0.9999770 0.0000707 0.0000230 -0.0000707
541393 0.0000233 -0.0000650 0.9999767 0.0000650 0.9999767 0.0000650 0.0000233 -0.0000650
566185 0.0000235 -0.0000594 0.9999765 0.0000594 0.9999765 0.0000594 0.0000235 -0.0000594
592111 0.0000238 -0.0000540 0.9999762 0.0000540 0.9999762 0.0000540 0.0000238 -0.0000540
619225 0.0000242 -0.0000487 0.9999758 0.0000487 0.9999758 0.0000487 0.0000242 -0.0000487
647581 0.0000246 -0.0000435 0.9999754 0.0000435 0.9999754 0.0000435 0.0000246 -0.0000435
677235 0.0000250 -0.0000383 0.9999750 0.0000383 0.9999750 0.0000383 0.0000250 -0.0000383
708247 0.0000255 -0.0000333 0.9999745 0.0000333 0.9999745 0.0000333 0.0000255 -0.0000333
740679 0.0000260 -0.0000283 0.9999740 0.0000283 0.9999740 0.0000283 0.0000260 -0.0000283
774597 0.0000265 -0.0000234 0.9999735 0.0000234 0.9999735 0.0000234 0.0000265 -0.0000234
810067 0.0000272 -0.0000185 0.9999728 0.0000185 0.9999728 0.0000185 0.0000272 -0.0000185
847162 0.0000279 -0.0000137 0.9999721 0.0000137 0.9999721 0.0000137 0.0000279 -0.0000137
885955 0.0000287 -0.0000089 0.9999713 0.0000089 0.9999713 0.0000089 0.0000287 -0.0000089
926525 0.0000296 -0.0000041 0.9999704 0.0000041 0.9999704 0.0000041 0.0000296 -0.0000041
968953 0.0000307 0.0000007 0.9999693 -0.0000007 0.9999693 -0.0000007 0.0000307 0.0000007
1013323 0.0000318 0.0000054 0.9999682 -0.0000054 0.9999682 -0.0000054 0.0000318 0.0000054
1059725 0.0000331 0.0000101 0.9999669 -0.0000101 0.9999669 -0.0000101 0.0000331 0.0000101
1108252 0.0000346 0.0000147 0.9999654 -0.0000147 0.9999654 -0.0000147 0.0000346 0.0000147
1159002 0.0000363 0.0000193 0.9999637 -0.0000193 0.9999637 -0.0000193 0.0000363 0.0000193
1212075 0.0000383 0.0000238 0.9999617 -0.0000238 0.9999617 -0.0000238 0.0000383 0.0000238
1267578 0.0000405 0.0000282 0.9999595 -0.0000282 0.9999595 -0.0000282 0.0000405 0.0000282
1325623 0.0000430 0.0000324 0.9999570 -0.0000324 0.9999570 -0.0000324 0.0000430 0.0000324
1386327 0.0000458 0.0000362 0.9999542 -0.0000362 0.9999542 -0.0000362 0.0000458 0.0000362
1449809 0.0000487 0.0000396 0.9999513 -0.0000396 0.9999513 -0.0000396 0.0000487 0.0000396
1516199 0.0000517 0.0000425 0.9999483 -0.0000425 0.9999483 -0.0000425 0.0000517 0.0000425
1585629 0.0000544 0.0000449 0.9999456 -0.0000449 0.9999456 -0.0000449 0.0000544 0.0000449
1658239 0.0000569 0.0000470 0.9999431 -0.0000470 0.9999431 -0.0000470 0.0000569 0.0000470
1734173 0.0000589 0.0000489 0.9999411 -0.0000489 0.9999411 -0.0000489 0.0000589 0.0000489
1813585 0.0000605 0.0000508 0.9999395 -0.0000508 0.9999395 -0.0000508 0.0000605 0.0000508
1896632 0.0000620 0.0000529 0.9999380 -0.0000529 0.9999380 -0.0000529 0.0000620 0.0000529
1983483 0.0000633 0.0000551 0.9999367 -0.0000551 0.9999367 -0.0000551 0.0000633 0.0000551
2074311 0.0000645 0.0000573 0.9999355 -0.0000573 0.9999355 -0.0000573 0.0000645 0.0000573
