!Murata Part Number: GRM188B11E223MA01
!These Parameters are Measured in Series Mode Connection
!Data Generated on Mar 30, 2021
!       o--ll--o
!Port1            Port2
!       o------o
!Operation Temp=25[degC], DC Bias Voltage=0[V]
!Freq. Start=100[kHz] Stop=6[GHz] 401[Steps]
# Hz S RI R 50
!Freq.(Hz) S11(Real) S11(Imag) S21(Real) S21(Imag) S12(Real) S12(Imag) S22(Real) S22(Imag)
100000 0.3772310 -0.4777770 0.6227690 0.4777770 0.6227690 0.4777770 0.3772310 -0.4777770
102789 0.3647213 -0.4744211 0.6352787 0.4744211 0.6352787 0.4744211 0.3647213 -0.4744211
105655 0.3523920 -0.4707725 0.6476080 0.4707725 0.6476080 0.4707725 0.3523920 -0.4707725
108602 0.3402564 -0.4668428 0.6597436 0.4668428 0.6597436 0.4668428 0.3402564 -0.4668428
111630 0.3283270 -0.4626444 0.6716730 0.4626444 0.6716730 0.4626444 0.3283270 -0.4626444
114743 0.3166151 -0.4581901 0.6833849 0.4581901 0.6833849 0.4581901 0.3166151 -0.4581901
117943 0.3051312 -0.4534934 0.6948688 0.4534934 0.6948688 0.4534934 0.3051312 -0.4534934
121232 0.2938847 -0.4485679 0.7061153 0.4485679 0.7061153 0.4485679 0.2938847 -0.4485679
124613 0.2828839 -0.4434279 0.7171161 0.4434279 0.7171161 0.4434279 0.2828839 -0.4434279
128088 0.2721363 -0.4380875 0.7278637 0.4380875 0.7278637 0.4380875 0.2721363 -0.4380875
131660 0.2616481 -0.4325614 0.7383519 0.4325614 0.7383519 0.4325614 0.2616481 -0.4325614
135332 0.2514246 -0.4268640 0.7485754 0.4268640 0.7485754 0.4268640 0.2514246 -0.4268640
139106 0.2414703 -0.4210099 0.7585297 0.4210099 0.7585297 0.4210099 0.2414703 -0.4210099
142985 0.2317884 -0.4150136 0.7682116 0.4150136 0.7682116 0.4150136 0.2317884 -0.4150136
146972 0.2223815 -0.4088893 0.7776185 0.4088893 0.7776185 0.4088893 0.2223815 -0.4088893
151071 0.2132511 -0.4026513 0.7867489 0.4026513 0.7867489 0.4026513 0.2132511 -0.4026513
155284 0.2043980 -0.3963132 0.7956020 0.3963132 0.7956020 0.3963132 0.2043980 -0.3963132
159614 0.1958219 -0.3898887 0.8041781 0.3898887 0.8041781 0.3898887 0.1958219 -0.3898887
164065 0.1875221 -0.3833909 0.8124779 0.3833909 0.8124779 0.3833909 0.1875221 -0.3833909
168641 0.1794970 -0.3768325 0.8205030 0.3768325 0.8205030 0.3768325 0.1794970 -0.3768325
173344 0.1717443 -0.3702259 0.8282557 0.3702259 0.8282557 0.3702259 0.1717443 -0.3702259
178178 0.1642611 -0.3635829 0.8357389 0.3635829 0.8357389 0.3635829 0.1642611 -0.3635829
183146 0.1570442 -0.3569148 0.8429558 0.3569148 0.8429558 0.3569148 0.1570442 -0.3569148
188254 0.1500895 -0.3502324 0.8499105 0.3502324 0.8499105 0.3502324 0.1500895 -0.3502324
193504 0.1433926 -0.3435461 0.8566074 0.3435461 0.8566074 0.3435461 0.1433926 -0.3435461
198900 0.1369489 -0.3368655 0.8630511 0.3368655 0.8630511 0.3368655 0.1369489 -0.3368655
204447 0.1307530 -0.3302000 0.8692470 0.3302000 0.8692470 0.3302000 0.1307530 -0.3302000
210148 0.1247997 -0.3235581 0.8752003 0.3235581 0.8752003 0.3235581 0.1247997 -0.3235581
216008 0.1190831 -0.3169479 0.8809169 0.3169479 0.8809169 0.3169479 0.1190831 -0.3169479
222032 0.1135973 -0.3103771 0.8864027 0.3103771 0.8864027 0.3103771 0.1135973 -0.3103771
228224 0.1083362 -0.3038525 0.8916638 0.3038525 0.8916638 0.3038525 0.1083362 -0.3038525
234589 0.1032934 -0.2973809 0.8967066 0.2973809 0.8967066 0.2973809 0.1032934 -0.2973809
241130 0.0984627 -0.2909680 0.9015373 0.2909680 0.9015373 0.2909680 0.0984627 -0.2909680
247855 0.0938375 -0.2846194 0.9061625 0.2846194 0.9061625 0.2846194 0.0938375 -0.2846194
254767 0.0894113 -0.2783402 0.9105887 0.2783402 0.9105887 0.2783402 0.0894113 -0.2783402
261871 0.0851776 -0.2721348 0.9148224 0.2721348 0.9148224 0.2721348 0.0851776 -0.2721348
269174 0.0811298 -0.2660074 0.9188702 0.2660074 0.9188702 0.2660074 0.0811298 -0.2660074
276681 0.0772615 -0.2599616 0.9227385 0.2599616 0.9227385 0.2599616 0.0772615 -0.2599616
284397 0.0735663 -0.2540006 0.9264337 0.2540006 0.9264337 0.2540006 0.0735663 -0.2540006
292328 0.0700377 -0.2481274 0.9299623 0.2481274 0.9299623 0.2481274 0.0700377 -0.2481274
300480 0.0666696 -0.2423444 0.9333304 0.2423444 0.9333304 0.2423444 0.0666696 -0.2423444
308859 0.0634557 -0.2366537 0.9365443 0.2366537 0.9365443 0.2366537 0.0634557 -0.2366537
317472 0.0603899 -0.2310573 0.9396101 0.2310573 0.9396101 0.2310573 0.0603899 -0.2310573
326326 0.0574664 -0.2255565 0.9425336 0.2255565 0.9425336 0.2255565 0.0574664 -0.2255565
335426 0.0546794 -0.2201526 0.9453206 0.2201526 0.9453206 0.2201526 0.0546794 -0.2201526
344780 0.0520231 -0.2148466 0.9479769 0.2148466 0.9479769 0.2148466 0.0520231 -0.2148466
354395 0.0494922 -0.2096391 0.9505078 0.2096391 0.9505078 0.2096391 0.0494922 -0.2096391
364278 0.0470813 -0.2045306 0.9529187 0.2045306 0.9529187 0.2045306 0.0470813 -0.2045306
374436 0.0447852 -0.1995213 0.9552148 0.1995213 0.9552148 0.1995213 0.0447852 -0.1995213
384878 0.0425988 -0.1946113 0.9574012 0.1946113 0.9574012 0.1946113 0.0425988 -0.1946113
395611 0.0405174 -0.1898005 0.9594826 0.1898005 0.9594826 0.1898005 0.0405174 -0.1898005
406644 0.0385363 -0.1850884 0.9614637 0.1850884 0.9614637 0.1850884 0.0385363 -0.1850884
417984 0.0366509 -0.1804748 0.9633491 0.1804748 0.9633491 0.1804748 0.0366509 -0.1804748
429640 0.0348568 -0.1759588 0.9651432 0.1759588 0.9651432 0.1759588 0.0348568 -0.1759588
441622 0.0331500 -0.1715399 0.9668500 0.1715399 0.9668500 0.1715399 0.0331500 -0.1715399
453937 0.0315263 -0.1672171 0.9684737 0.1672171 0.9684737 0.1672171 0.0315263 -0.1672171
466596 0.0299820 -0.1629895 0.9700180 0.1629895 0.9700180 0.1629895 0.0299820 -0.1629895
479608 0.0285132 -0.1588561 0.9714868 0.1588561 0.9714868 0.1588561 0.0285132 -0.1588561
492983 0.0271164 -0.1548157 0.9728836 0.1548157 0.9728836 0.1548157 0.0271164 -0.1548157
506731 0.0257882 -0.1508672 0.9742118 0.1508672 0.9742118 0.1508672 0.0257882 -0.1508672
520862 0.0245254 -0.1470092 0.9754746 0.1470092 0.9754746 0.1470092 0.0245254 -0.1470092
535387 0.0233248 -0.1432404 0.9766752 0.1432404 0.9766752 0.1432404 0.0233248 -0.1432404
550318 0.0221834 -0.1395596 0.9778166 0.1395596 0.9778166 0.1395596 0.0221834 -0.1395596
565664 0.0210984 -0.1359652 0.9789016 0.1359652 0.9789016 0.1359652 0.0210984 -0.1359652
581439 0.0200671 -0.1324558 0.9799329 0.1324558 0.9799329 0.1324558 0.0200671 -0.1324558
597654 0.0190869 -0.1290300 0.9809131 0.1290300 0.9809131 0.1290300 0.0190869 -0.1290300
614320 0.0181552 -0.1256863 0.9818448 0.1256863 0.9818448 0.1256863 0.0181552 -0.1256863
631452 0.0172697 -0.1224232 0.9827303 0.1224232 0.9827303 0.1224232 0.0172697 -0.1224232
649061 0.0164282 -0.1192392 0.9835718 0.1192392 0.9835718 0.1192392 0.0164282 -0.1192392
667162 0.0156285 -0.1161327 0.9843715 0.1161327 0.9843715 0.1161327 0.0156285 -0.1161327
685767 0.0148686 -0.1131023 0.9851314 0.1131023 0.9851314 0.1131023 0.0148686 -0.1131023
704891 0.0141466 -0.1101463 0.9858534 0.1101463 0.9858534 0.1101463 0.0141466 -0.1101463
724548 0.0134605 -0.1072634 0.9865395 0.1072634 0.9865395 0.1072634 0.0134605 -0.1072634
744754 0.0128086 -0.1044520 0.9871914 0.1044520 0.9871914 0.1044520 0.0128086 -0.1044520
765523 0.0121892 -0.1017105 0.9878108 0.1017105 0.9878108 0.1017105 0.0121892 -0.1017105
786871 0.0116008 -0.0990375 0.9883992 0.0990375 0.9883992 0.0990375 0.0116008 -0.0990375
808814 0.0110417 -0.0964315 0.9889583 0.0964315 0.9889583 0.0964315 0.0110417 -0.0964315
831370 0.0105107 -0.0938911 0.9894893 0.0938911 0.9894893 0.0938911 0.0105107 -0.0938911
854554 0.0100062 -0.0914148 0.9899938 0.0914148 0.9899938 0.0914148 0.0100062 -0.0914148
878385 0.0095270 -0.0890011 0.9904730 0.0890011 0.9904730 0.0890011 0.0095270 -0.0890011
902880 0.0090718 -0.0866487 0.9909282 0.0866487 0.9909282 0.0866487 0.0090718 -0.0866487
928059 0.0086395 -0.0843562 0.9913605 0.0843562 0.9913605 0.0843562 0.0086395 -0.0843562
953940 0.0082289 -0.0821222 0.9917711 0.0821222 0.9917711 0.0821222 0.0082289 -0.0821222
980542 0.0078389 -0.0799454 0.9921611 0.0799454 0.9921611 0.0799454 0.0078389 -0.0799454
1007887 0.0074685 -0.0778243 0.9925315 0.0778243 0.9925315 0.0778243 0.0074685 -0.0778243
1035994 0.0071168 -0.0757578 0.9928832 0.0757578 0.9928832 0.0757578 0.0071168 -0.0757578
1064885 0.0067828 -0.0737445 0.9932172 0.0737445 0.9932172 0.0737445 0.0067828 -0.0737445
1094581 0.0064657 -0.0717832 0.9935343 0.0717832 0.9935343 0.0717832 0.0064657 -0.0717832
1125106 0.0061645 -0.0698727 0.9938355 0.0698727 0.9938355 0.0698727 0.0061645 -0.0698727
1156481 0.0058786 -0.0680116 0.9941214 0.0680116 0.9941214 0.0680116 0.0058786 -0.0680116
1188732 0.0056070 -0.0661989 0.9943930 0.0661989 0.9943930 0.0661989 0.0056070 -0.0661989
1221882 0.0053493 -0.0644334 0.9946507 0.0644334 0.9946507 0.0644334 0.0053493 -0.0644334
1255957 0.0051045 -0.0627138 0.9948955 0.0627138 0.9948955 0.0627138 0.0051045 -0.0627138
1290982 0.0048721 -0.0610392 0.9951279 0.0610392 0.9951279 0.0610392 0.0048721 -0.0610392
1326984 0.0046514 -0.0594084 0.9953486 0.0594084 0.9953486 0.0594084 0.0046514 -0.0594084
1363989 0.0044420 -0.0578202 0.9955580 0.0578202 0.9955580 0.0578202 0.0044420 -0.0578202
1402027 0.0042431 -0.0562738 0.9957569 0.0562738 0.9957569 0.0562738 0.0042431 -0.0562738
1441125 0.0040542 -0.0547679 0.9959458 0.0547679 0.9959458 0.0547679 0.0040542 -0.0547679
1481314 0.0038749 -0.0533016 0.9961251 0.0533016 0.9961251 0.0533016 0.0038749 -0.0533016
1522623 0.0037047 -0.0518740 0.9962953 0.0518740 0.9962953 0.0518740 0.0037047 -0.0518740
1565085 0.0035430 -0.0504840 0.9964570 0.0504840 0.9964570 0.0504840 0.0035430 -0.0504840
1608730 0.0033895 -0.0491307 0.9966105 0.0491307 0.9966105 0.0491307 0.0033895 -0.0491307
1653593 0.0032437 -0.0478132 0.9967563 0.0478132 0.9967563 0.0478132 0.0032437 -0.0478132
1699707 0.0031053 -0.0465305 0.9968947 0.0465305 0.9968947 0.0465305 0.0031053 -0.0465305
1747106 0.0029738 -0.0452817 0.9970262 0.0452817 0.9970262 0.0452817 0.0029738 -0.0452817
1795828 0.0028489 -0.0440661 0.9971511 0.0440661 0.9971511 0.0440661 0.0028489 -0.0440661
1845908 0.0027303 -0.0428827 0.9972697 0.0428827 0.9972697 0.0428827 0.0027303 -0.0428827
1897385 0.0026175 -0.0417307 0.9973825 0.0417307 0.9973825 0.0417307 0.0026175 -0.0417307
1950297 0.0025104 -0.0406093 0.9974896 0.0406093 0.9974896 0.0406093 0.0025104 -0.0406093
2004685 0.0024086 -0.0395177 0.9975914 0.0395177 0.9975914 0.0395177 0.0024086 -0.0395177
2060590 0.0023119 -0.0384551 0.9976881 0.0384551 0.9976881 0.0384551 0.0023119 -0.0384551
2118054 0.0022199 -0.0374208 0.9977801 0.0374208 0.9977801 0.0374208 0.0022199 -0.0374208
2177120 0.0021325 -0.0364140 0.9978675 0.0364140 0.9978675 0.0364140 0.0021325 -0.0364140
2237833 0.0020493 -0.0354340 0.9979507 0.0354340 0.9979507 0.0354340 0.0020493 -0.0354340
2300240 0.0019702 -0.0344801 0.9980298 0.0344801 0.9980298 0.0344801 0.0019702 -0.0344801
2364387 0.0018949 -0.0335517 0.9981051 0.0335517 0.9981051 0.0335517 0.0018949 -0.0335517
2430322 0.0018233 -0.0326479 0.9981767 0.0326479 0.9981767 0.0326479 0.0018233 -0.0326479
2498097 0.0017551 -0.0317682 0.9982449 0.0317682 0.9982449 0.0317682 0.0017551 -0.0317682
2567761 0.0016902 -0.0309120 0.9983098 0.0309120 0.9983098 0.0309120 0.0016902 -0.0309120
2639368 0.0016284 -0.0300785 0.9983716 0.0300785 0.9983716 0.0300785 0.0016284 -0.0300785
2712972 0.0015695 -0.0292673 0.9984305 0.0292673 0.9984305 0.0292673 0.0015695 -0.0292673
2788629 0.0015134 -0.0284777 0.9984866 0.0284777 0.9984866 0.0284777 0.0015134 -0.0284777
2866396 0.0014599 -0.0277090 0.9985401 0.0277090 0.9985401 0.0277090 0.0014599 -0.0277090
2946331 0.0014089 -0.0269609 0.9985911 0.0269609 0.9985911 0.0269609 0.0014089 -0.0269609
3028495 0.0013603 -0.0262326 0.9986397 0.0262326 0.9986397 0.0262326 0.0013603 -0.0262326
3112951 0.0013139 -0.0255237 0.9986861 0.0255237 0.9986861 0.0255237 0.0013139 -0.0255237
3199762 0.0012696 -0.0248336 0.9987304 0.0248336 0.9987304 0.0248336 0.0012696 -0.0248336
3288994 0.0012274 -0.0241619 0.9987726 0.0241619 0.9987726 0.0241619 0.0012274 -0.0241619
3380714 0.0011870 -0.0235079 0.9988130 0.0235079 0.9988130 0.0235079 0.0011870 -0.0235079
3474992 0.0011485 -0.0228713 0.9988515 0.0228713 0.9988515 0.0228713 0.0011485 -0.0228713
3571899 0.0011117 -0.0222516 0.9988883 0.0222516 0.9988883 0.0222516 0.0011117 -0.0222516
3671508 0.0010766 -0.0216483 0.9989234 0.0216483 0.9989234 0.0216483 0.0010766 -0.0216483
3773896 0.0010430 -0.0210609 0.9989570 0.0210609 0.9989570 0.0210609 0.0010430 -0.0210609
3879139 0.0010109 -0.0204891 0.9989891 0.0204891 0.9989891 0.0204891 0.0010109 -0.0204891
3987316 0.0009802 -0.0199324 0.9990198 0.0199324 0.9990198 0.0199324 0.0009802 -0.0199324
4098510 0.0009509 -0.0193903 0.9990491 0.0193903 0.9990491 0.0193903 0.0009509 -0.0193903
4212806 0.0009228 -0.0188626 0.9990772 0.0188626 0.9990772 0.0188626 0.0009228 -0.0188626
4330288 0.0008960 -0.0183487 0.9991040 0.0183487 0.9991040 0.0183487 0.0008960 -0.0183487
4451047 0.0008703 -0.0178483 0.9991297 0.0178483 0.9991297 0.0178483 0.0008703 -0.0178483
4575173 0.0008458 -0.0173611 0.9991542 0.0173611 0.9991542 0.0173611 0.0008458 -0.0173611
4702761 0.0008223 -0.0168866 0.9991777 0.0168866 0.9991777 0.0168866 0.0008223 -0.0168866
4833907 0.0007998 -0.0164246 0.9992002 0.0164246 0.9992002 0.0164246 0.0007998 -0.0164246
4968711 0.0007783 -0.0159747 0.9992217 0.0159747 0.9992217 0.0159747 0.0007783 -0.0159747
5107273 0.0007578 -0.0155365 0.9992422 0.0155365 0.9992422 0.0155365 0.0007578 -0.0155365
5249700 0.0007381 -0.0151098 0.9992619 0.0151098 0.9992619 0.0151098 0.0007381 -0.0151098
5396098 0.0007193 -0.0146942 0.9992807 0.0146942 0.9992807 0.0146942 0.0007193 -0.0146942
5546579 0.0007013 -0.0142894 0.9992987 0.0142894 0.9992987 0.0142894 0.0007013 -0.0142894
5701257 0.0006841 -0.0138951 0.9993159 0.0138951 0.9993159 0.0138951 0.0006841 -0.0138951
5860248 0.0006676 -0.0135110 0.9993324 0.0135110 0.9993324 0.0135110 0.0006676 -0.0135110
6023672 0.0006519 -0.0131369 0.9993481 0.0131369 0.9993481 0.0131369 0.0006519 -0.0131369
6191655 0.0006369 -0.0127725 0.9993631 0.0127725 0.9993631 0.0127725 0.0006369 -0.0127725
6364321 0.0006225 -0.0124175 0.9993775 0.0124175 0.9993775 0.0124175 0.0006225 -0.0124175
6541803 0.0006088 -0.0120716 0.9993912 0.0120716 0.9993912 0.0120716 0.0006088 -0.0120716
6724235 0.0005957 -0.0117346 0.9994043 0.0117346 0.9994043 0.0117346 0.0005957 -0.0117346
6911753 0.0005831 -0.0114063 0.9994169 0.0114063 0.9994169 0.0114063 0.0005831 -0.0114063
7104501 0.0005712 -0.0110864 0.9994288 0.0110864 0.9994288 0.0110864 0.0005712 -0.0110864
7302625 0.0005598 -0.0107747 0.9994402 0.0107747 0.9994402 0.0107747 0.0005598 -0.0107747
7506273 0.0005489 -0.0104709 0.9994511 0.0104709 0.9994511 0.0104709 0.0005489 -0.0104709
7715601 0.0005385 -0.0101748 0.9994615 0.0101748 0.9994615 0.0101748 0.0005385 -0.0101748
7930766 0.0005286 -0.0098863 0.9994714 0.0098863 0.9994714 0.0098863 0.0005286 -0.0098863
8151931 0.0005191 -0.0096051 0.9994809 0.0096051 0.9994809 0.0096051 0.0005191 -0.0096051
8379264 0.0005101 -0.0093310 0.9994899 0.0093310 0.9994899 0.0093310 0.0005101 -0.0093310
8612937 0.0005016 -0.0090638 0.9994984 0.0090638 0.9994984 0.0090638 0.0005016 -0.0090638
8853126 0.0004934 -0.0088033 0.9995066 0.0088033 0.9995066 0.0088033 0.0004934 -0.0088033
9100013 0.0004856 -0.0085494 0.9995144 0.0085494 0.9995144 0.0085494 0.0004856 -0.0085494
9353785 0.0004783 -0.0083018 0.9995217 0.0083018 0.9995217 0.0083018 0.0004783 -0.0083018
9614634 0.0004712 -0.0080603 0.9995288 0.0080603 0.9995288 0.0080603 0.0004712 -0.0080603
9882758 0.0004646 -0.0078248 0.9995354 0.0078248 0.9995354 0.0078248 0.0004646 -0.0078248
10158358 0.0004582 -0.0075951 0.9995418 0.0075951 0.9995418 0.0075951 0.0004582 -0.0075951
10441645 0.0004522 -0.0073711 0.9995478 0.0073711 0.9995478 0.0073711 0.0004522 -0.0073711
10732831 0.0004465 -0.0071526 0.9995535 0.0071526 0.9995535 0.0071526 0.0004465 -0.0071526
11032137 0.0004411 -0.0069393 0.9995589 0.0069393 0.9995589 0.0069393 0.0004411 -0.0069393
11339791 0.0004360 -0.0067313 0.9995640 0.0067313 0.9995640 0.0067313 0.0004360 -0.0067313
11656024 0.0004311 -0.0065282 0.9995689 0.0065282 0.9995689 0.0065282 0.0004311 -0.0065282
11981075 0.0004265 -0.0063300 0.9995735 0.0063300 0.9995735 0.0063300 0.0004265 -0.0063300
12315192 0.0004222 -0.0061365 0.9995778 0.0061365 0.9995778 0.0061365 0.0004222 -0.0061365
12658625 0.0004181 -0.0059476 0.9995819 0.0059476 0.9995819 0.0059476 0.0004181 -0.0059476
13011637 0.0004142 -0.0057632 0.9995858 0.0057632 0.9995858 0.0057632 0.0004142 -0.0057632
13374492 0.0004105 -0.0055830 0.9995895 0.0055830 0.9995895 0.0055830 0.0004105 -0.0055830
13747467 0.0004071 -0.0054070 0.9995929 0.0054070 0.9995929 0.0054070 0.0004071 -0.0054070
14130843 0.0004039 -0.0052350 0.9995961 0.0052350 0.9995961 0.0052350 0.0004039 -0.0052350
14524910 0.0004009 -0.0050670 0.9995991 0.0050670 0.9995991 0.0050670 0.0004009 -0.0050670
14929966 0.0003980 -0.0049027 0.9996020 0.0049027 0.9996020 0.0049027 0.0003980 -0.0049027
15346318 0.0003954 -0.0047421 0.9996046 0.0047421 0.9996046 0.0047421 0.0003954 -0.0047421
15774281 0.0003929 -0.0045851 0.9996071 0.0045851 0.9996071 0.0045851 0.0003929 -0.0045851
16214179 0.0003906 -0.0044314 0.9996094 0.0044314 0.9996094 0.0044314 0.0003906 -0.0044314
16666344 0.0003885 -0.0042811 0.9996115 0.0042811 0.9996115 0.0042811 0.0003885 -0.0042811
17131118 0.0003866 -0.0041340 0.9996134 0.0041340 0.9996134 0.0041340 0.0003866 -0.0041340
17608854 0.0003848 -0.0039900 0.9996152 0.0039900 0.9996152 0.0039900 0.0003848 -0.0039900
18099912 0.0003831 -0.0038490 0.9996169 0.0038490 0.9996169 0.0038490 0.0003831 -0.0038490
18604665 0.0003816 -0.0037108 0.9996184 0.0037108 0.9996184 0.0037108 0.0003816 -0.0037108
19123493 0.0003803 -0.0035755 0.9996197 0.0035755 0.9996197 0.0035755 0.0003803 -0.0035755
19656790 0.0003791 -0.0034428 0.9996209 0.0034428 0.9996209 0.0034428 0.0003791 -0.0034428
20204959 0.0003780 -0.0033127 0.9996220 0.0033127 0.9996220 0.0033127 0.0003780 -0.0033127
20768415 0.0003771 -0.0031851 0.9996229 0.0031851 0.9996229 0.0031851 0.0003771 -0.0031851
21347584 0.0003763 -0.0030598 0.9996237 0.0030598 0.9996237 0.0030598 0.0003763 -0.0030598
21942904 0.0003757 -0.0029369 0.9996243 0.0029369 0.9996243 0.0029369 0.0003757 -0.0029369
22554827 0.0003752 -0.0028161 0.9996248 0.0028161 0.9996248 0.0028161 0.0003752 -0.0028161
23183813 0.0003748 -0.0026974 0.9996252 0.0026974 0.9996252 0.0026974 0.0003748 -0.0026974
23830340 0.0003746 -0.0025808 0.9996254 0.0025808 0.9996254 0.0025808 0.0003746 -0.0025808
24494897 0.0003745 -0.0024661 0.9996255 0.0024661 0.9996255 0.0024661 0.0003745 -0.0024661
25177987 0.0003745 -0.0023533 0.9996255 0.0023533 0.9996255 0.0023533 0.0003745 -0.0023533
25880126 0.0003747 -0.0022422 0.9996253 0.0022422 0.9996253 0.0022422 0.0003747 -0.0022422
26601845 0.0003751 -0.0021327 0.9996249 0.0021327 0.9996249 0.0021327 0.0003751 -0.0021327
27343691 0.0003755 -0.0020249 0.9996245 0.0020249 0.9996245 0.0020249 0.0003755 -0.0020249
28106225 0.0003761 -0.0019186 0.9996239 0.0019186 0.9996239 0.0019186 0.0003761 -0.0019186
28890023 0.0003769 -0.0018137 0.9996231 0.0018137 0.9996231 0.0018137 0.0003769 -0.0018137
29695680 0.0003778 -0.0017101 0.9996222 0.0017101 0.9996222 0.0017101 0.0003778 -0.0017101
30523804 0.0003789 -0.0016079 0.9996211 0.0016079 0.9996211 0.0016079 0.0003789 -0.0016079
31375021 0.0003801 -0.0015068 0.9996199 0.0015068 0.9996199 0.0015068 0.0003801 -0.0015068
32249977 0.0003815 -0.0014068 0.9996185 0.0014068 0.9996185 0.0014068 0.0003815 -0.0014068
33149332 0.0003831 -0.0013079 0.9996169 0.0013079 0.9996169 0.0013079 0.0003831 -0.0013079
34073768 0.0003849 -0.0012099 0.9996151 0.0012099 0.9996151 0.0012099 0.0003849 -0.0012099
35023984 0.0003868 -0.0011128 0.9996132 0.0011128 0.9996132 0.0011128 0.0003868 -0.0011128
36000698 0.0003890 -0.0010166 0.9996110 0.0010166 0.9996110 0.0010166 0.0003890 -0.0010166
37004650 0.0003913 -0.0009211 0.9996087 0.0009211 0.9996087 0.0009211 0.0003913 -0.0009211
38036599 0.0003939 -0.0008262 0.9996061 0.0008262 0.9996061 0.0008262 0.0003939 -0.0008262
39097326 0.0003967 -0.0007319 0.9996033 0.0007319 0.9996033 0.0007319 0.0003967 -0.0007319
