!Murata Part Number: GRM188B11H333KA61
!These Parameters are Measured in Series Mode Connection
!Data Generated on Mar 30, 2021
!       o--ll--o
!Port1            Port2
!       o------o
!Operation Temp=25[degC], DC Bias Voltage=0[V]
!Freq. Start=100[Hz] Stop=6[GHz] 401[Steps]
# Hz S RI R 50
!Freq.(Hz) S11(Real) S11(Imag) S21(Real) S21(Imag) S12(Real) S12(Imag) S22(Real) S22(Imag)
100 0.9999862 -0.0020226 0.0000138 0.0020226 0.0000138 0.0020226 0.9999862 -0.0020226
105 0.9999854 -0.0021149 0.0000146 0.0021149 0.0000146 0.0021149 0.9999854 -0.0021149
109 0.9999846 -0.0022114 0.0000154 0.0022114 0.0000154 0.0022114 0.9999846 -0.0022114
114 0.9999837 -0.0023123 0.0000163 0.0023123 0.0000163 0.0023123 0.9999837 -0.0023123
120 0.9999827 -0.0024179 0.0000173 0.0024179 0.0000173 0.0024179 0.9999827 -0.0024179
125 0.9999817 -0.0025282 0.0000183 0.0025282 0.0000183 0.0025282 0.9999817 -0.0025282
131 0.9999806 -0.0026436 0.0000194 0.0026436 0.0000194 0.0026436 0.9999806 -0.0026436
137 0.9999794 -0.0027643 0.0000206 0.0027643 0.0000206 0.0027643 0.9999794 -0.0027643
143 0.9999782 -0.0028905 0.0000218 0.0028905 0.0000218 0.0028905 0.9999782 -0.0028905
150 0.9999768 -0.0030224 0.0000232 0.0030224 0.0000232 0.0030224 0.9999768 -0.0030224
156 0.9999754 -0.0031604 0.0000246 0.0031604 0.0000246 0.0031604 0.9999754 -0.0031604
164 0.9999739 -0.0033047 0.0000261 0.0033047 0.0000261 0.0033047 0.9999739 -0.0033047
171 0.9999722 -0.0034555 0.0000278 0.0034555 0.0000278 0.0034555 0.9999722 -0.0034555
179 0.9999704 -0.0036133 0.0000296 0.0036133 0.0000296 0.0036133 0.9999704 -0.0036133
187 0.9999685 -0.0037783 0.0000315 0.0037783 0.0000315 0.0037783 0.9999685 -0.0037783
196 0.9999665 -0.0039508 0.0000335 0.0039508 0.0000335 0.0039508 0.9999665 -0.0039508
205 0.9999643 -0.0041311 0.0000357 0.0041311 0.0000357 0.0041311 0.9999643 -0.0041311
214 0.9999619 -0.0043198 0.0000381 0.0043198 0.0000381 0.0043198 0.9999619 -0.0043198
224 0.9999594 -0.0045170 0.0000406 0.0045170 0.0000406 0.0045170 0.9999594 -0.0045170
234 0.9999567 -0.0047232 0.0000433 0.0047232 0.0000433 0.0047232 0.9999567 -0.0047232
245 0.9999537 -0.0049389 0.0000463 0.0049389 0.0000463 0.0049389 0.9999537 -0.0049389
256 0.9999505 -0.0051645 0.0000495 0.0051645 0.0000495 0.0051645 0.9999505 -0.0051645
268 0.9999471 -0.0054003 0.0000529 0.0054003 0.0000529 0.0054003 0.9999471 -0.0054003
280 0.9999433 -0.0056469 0.0000567 0.0056469 0.0000567 0.0056469 0.9999433 -0.0056469
293 0.9999393 -0.0059048 0.0000607 0.0059048 0.0000607 0.0059048 0.9999393 -0.0059048
306 0.9999349 -0.0061745 0.0000651 0.0061745 0.0000651 0.0061745 0.9999349 -0.0061745
320 0.9999302 -0.0064565 0.0000698 0.0064565 0.0000698 0.0064565 0.9999302 -0.0064565
335 0.9999251 -0.0067514 0.0000749 0.0067514 0.0000749 0.0067514 0.9999251 -0.0067514
350 0.9999195 -0.0070598 0.0000805 0.0070598 0.0000805 0.0070598 0.9999195 -0.0070598
366 0.9999135 -0.0073822 0.0000865 0.0073822 0.0000865 0.0073822 0.9999135 -0.0073822
383 0.9999069 -0.0077194 0.0000931 0.0077194 0.0000931 0.0077194 0.9999069 -0.0077194
401 0.9998998 -0.0080719 0.0001002 0.0080719 0.0001002 0.0080719 0.9998998 -0.0080719
419 0.9998921 -0.0084406 0.0001079 0.0084406 0.0001079 0.0084406 0.9998921 -0.0084406
438 0.9998837 -0.0088261 0.0001163 0.0088261 0.0001163 0.0088261 0.9998837 -0.0088261
458 0.9998746 -0.0092292 0.0001254 0.0092292 0.0001254 0.0092292 0.9998746 -0.0092292
479 0.9998646 -0.0096506 0.0001354 0.0096506 0.0001354 0.0096506 0.9998646 -0.0096506
501 0.9998538 -0.0100913 0.0001462 0.0100913 0.0001462 0.0100913 0.9998538 -0.0100913
524 0.9998421 -0.0105521 0.0001579 0.0105521 0.0001579 0.0105521 0.9998421 -0.0105521
548 0.9998294 -0.0110339 0.0001706 0.0110339 0.0001706 0.0110339 0.9998294 -0.0110339
573 0.9998155 -0.0115376 0.0001845 0.0115376 0.0001845 0.0115376 0.9998155 -0.0115376
600 0.9998004 -0.0120643 0.0001996 0.0120643 0.0001996 0.0120643 0.9998004 -0.0120643
627 0.9997840 -0.0126150 0.0002160 0.0126150 0.0002160 0.0126150 0.9997840 -0.0126150
656 0.9997662 -0.0131908 0.0002338 0.0131908 0.0002338 0.0131908 0.9997662 -0.0131908
686 0.9997469 -0.0137928 0.0002531 0.0137928 0.0002531 0.0137928 0.9997469 -0.0137928
717 0.9997259 -0.0144222 0.0002741 0.0144222 0.0002741 0.0144222 0.9997259 -0.0144222
750 0.9997030 -0.0150802 0.0002970 0.0150802 0.0002970 0.0150802 0.9997030 -0.0150802
784 0.9996782 -0.0157682 0.0003218 0.0157682 0.0003218 0.0157682 0.9996782 -0.0157682
820 0.9996512 -0.0164874 0.0003488 0.0164874 0.0003488 0.0164874 0.9996512 -0.0164874
858 0.9996219 -0.0172394 0.0003781 0.0172394 0.0003781 0.0172394 0.9996219 -0.0172394
897 0.9995900 -0.0180256 0.0004100 0.0180256 0.0004100 0.0180256 0.9995900 -0.0180256
938 0.9995554 -0.0188475 0.0004446 0.0188475 0.0004446 0.0188475 0.9995554 -0.0188475
981 0.9995178 -0.0197068 0.0004822 0.0197068 0.0004822 0.0197068 0.9995178 -0.0197068
1026 0.9994770 -0.0206052 0.0005230 0.0206052 0.0005230 0.0206052 0.9994770 -0.0206052
1073 0.9994325 -0.0215444 0.0005675 0.0215444 0.0005675 0.0215444 0.9994325 -0.0215444
1122 0.9993843 -0.0225263 0.0006157 0.0225263 0.0006157 0.0225263 0.9993843 -0.0225263
1174 0.9993318 -0.0235529 0.0006682 0.0235529 0.0006682 0.0235529 0.9993318 -0.0235529
1227 0.9992748 -0.0246260 0.0007252 0.0246260 0.0007252 0.0246260 0.9992748 -0.0246260
1283 0.9992127 -0.0257480 0.0007873 0.0257480 0.0007873 0.0257480 0.9992127 -0.0257480
1342 0.9991452 -0.0269210 0.0008548 0.0269210 0.0008548 0.0269210 0.9991452 -0.0269210
1404 0.9990718 -0.0281472 0.0009282 0.0281472 0.0009282 0.0281472 0.9990718 -0.0281472
1468 0.9989919 -0.0294291 0.0010081 0.0294291 0.0010081 0.0294291 0.9989919 -0.0294291
1535 0.9989049 -0.0307693 0.0010951 0.0307693 0.0010951 0.0307693 0.9989049 -0.0307693
1606 0.9988102 -0.0321703 0.0011898 0.0321703 0.0011898 0.0321703 0.9988102 -0.0321703
1679 0.9987070 -0.0336348 0.0012930 0.0336348 0.0012930 0.0336348 0.9987070 -0.0336348
1756 0.9985947 -0.0351658 0.0014053 0.0351658 0.0014053 0.0351658 0.9985947 -0.0351658
1836 0.9984722 -0.0367662 0.0015278 0.0367662 0.0015278 0.0367662 0.9984722 -0.0367662
1920 0.9983387 -0.0384392 0.0016613 0.0384392 0.0016613 0.0384392 0.9983387 -0.0384392
2008 0.9981932 -0.0401878 0.0018068 0.0401878 0.0018068 0.0401878 0.9981932 -0.0401878
2100 0.9980345 -0.0420156 0.0019655 0.0420156 0.0019655 0.0420156 0.9980345 -0.0420156
2196 0.9978614 -0.0439260 0.0021386 0.0439260 0.0021386 0.0439260 0.9978614 -0.0439260
2297 0.9976726 -0.0459226 0.0023274 0.0459226 0.0023274 0.0459226 0.9976726 -0.0459226
2402 0.9974666 -0.0480093 0.0025334 0.0480093 0.0025334 0.0480093 0.9974666 -0.0480093
2512 0.9972419 -0.0501899 0.0027581 0.0501899 0.0027581 0.0501899 0.9972419 -0.0501899
2627 0.9969966 -0.0524686 0.0030034 0.0524686 0.0030034 0.0524686 0.9969966 -0.0524686
2748 0.9967289 -0.0548496 0.0032711 0.0548496 0.0032711 0.0548496 0.9967289 -0.0548496
2873 0.9964368 -0.0573373 0.0035632 0.0573373 0.0035632 0.0573373 0.9964368 -0.0573373
3005 0.9961179 -0.0599362 0.0038821 0.0599362 0.0038821 0.0599362 0.9961179 -0.0599362
3143 0.9957699 -0.0626512 0.0042301 0.0626512 0.0042301 0.0626512 0.9957699 -0.0626512
3287 0.9953900 -0.0654870 0.0046100 0.0654870 0.0046100 0.0654870 0.9953900 -0.0654870
3437 0.9949753 -0.0684487 0.0050247 0.0684487 0.0050247 0.0684487 0.9949753 -0.0684487
3594 0.9945228 -0.0715416 0.0054772 0.0715416 0.0054772 0.0715416 0.9945228 -0.0715416
3759 0.9940289 -0.0747710 0.0059711 0.0747710 0.0059711 0.0747710 0.9940289 -0.0747710
3931 0.9934899 -0.0781424 0.0065101 0.0781424 0.0065101 0.0781424 0.9934899 -0.0781424
4111 0.9929018 -0.0816616 0.0070982 0.0816616 0.0070982 0.0816616 0.9929018 -0.0816616
4299 0.9922601 -0.0853345 0.0077399 0.0853345 0.0077399 0.0853345 0.9922601 -0.0853345
4496 0.9915600 -0.0891669 0.0084400 0.0891669 0.0084400 0.0891669 0.9915600 -0.0891669
4702 0.9907964 -0.0931652 0.0092036 0.0931652 0.0092036 0.0931652 0.9907964 -0.0931652
4918 0.9899635 -0.0973355 0.0100365 0.0973355 0.0100365 0.0973355 0.9899635 -0.0973355
5143 0.9890553 -0.1016842 0.0109447 0.1016842 0.0109447 0.1016842 0.9890553 -0.1016842
5378 0.9880651 -0.1062179 0.0119349 0.1062179 0.0119349 0.1062179 0.9880651 -0.1062179
5625 0.9869857 -0.1109430 0.0130143 0.1109430 0.0130143 0.1109430 0.9869857 -0.1109430
5882 0.9858094 -0.1158663 0.0141906 0.1158663 0.0141906 0.1158663 0.9858094 -0.1158663
6151 0.9845277 -0.1209944 0.0154723 0.1209944 0.0154723 0.1209944 0.9845277 -0.1209944
6433 0.9831315 -0.1263339 0.0168685 0.1263339 0.0168685 0.1263339 0.9831315 -0.1263339
6728 0.9816110 -0.1318914 0.0183890 0.1318914 0.0183890 0.1318914 0.9816110 -0.1318914
7036 0.9799555 -0.1376734 0.0200445 0.1376734 0.0200445 0.1376734 0.9799555 -0.1376734
7358 0.9781536 -0.1436864 0.0218464 0.1436864 0.0218464 0.1436864 0.9781536 -0.1436864
7695 0.9761930 -0.1499365 0.0238070 0.1499365 0.0238070 0.1499365 0.9761930 -0.1499365
8047 0.9740604 -0.1564295 0.0259396 0.1564295 0.0259396 0.1564295 0.9740604 -0.1564295
8416 0.9717416 -0.1631711 0.0282584 0.1631711 0.0282584 0.1631711 0.9717416 -0.1631711
8801 0.9692212 -0.1701663 0.0307788 0.1701663 0.0307788 0.1701663 0.9692212 -0.1701663
9204 0.9664830 -0.1774196 0.0335170 0.1774196 0.0335170 0.1774196 0.9664830 -0.1774196
9626 0.9635095 -0.1849350 0.0364905 0.1849350 0.0364905 0.1849350 0.9635095 -0.1849350
10066 0.9602819 -0.1927155 0.0397181 0.1927155 0.0397181 0.1927155 0.9602819 -0.1927155
10527 0.9567805 -0.2007632 0.0432195 0.2007632 0.0432195 0.2007632 0.9567805 -0.2007632
11009 0.9529843 -0.2090792 0.0470157 0.2090792 0.0470157 0.2090792 0.9529843 -0.2090792
11514 0.9488710 -0.2176633 0.0511290 0.2176633 0.0511290 0.2176633 0.9488710 -0.2176633
12041 0.9444171 -0.2265136 0.0555829 0.2265136 0.0555829 0.2265136 0.9444171 -0.2265136
12592 0.9395981 -0.2356270 0.0604019 0.2356270 0.0604019 0.2356270 0.9395981 -0.2356270
13169 0.9343882 -0.2449979 0.0656118 0.2449979 0.0656118 0.2449979 0.9343882 -0.2449979
13772 0.9287608 -0.2546192 0.0712392 0.2546192 0.0712392 0.2546192 0.9287608 -0.2546192
14402 0.9226881 -0.2644808 0.0773119 0.2644808 0.0773119 0.2644808 0.9226881 -0.2644808
15062 0.9161417 -0.2745706 0.0838583 0.2745706 0.0838583 0.2745706 0.9161417 -0.2745706
15752 0.9090926 -0.2848731 0.0909074 0.2848731 0.0909074 0.2848731 0.9090926 -0.2848731
16473 0.9015115 -0.2953699 0.0984885 0.2953699 0.0984885 0.2953699 0.9015115 -0.2953699
17227 0.8933690 -0.3060393 0.1066310 0.3060393 0.1066310 0.3060393 0.8933690 -0.3060393
18016 0.8846359 -0.3168559 0.1153641 0.3168559 0.1153641 0.3168559 0.8846359 -0.3168559
18841 0.8752838 -0.3277903 0.1247162 0.3277903 0.1247162 0.3277903 0.8752838 -0.3277903
19704 0.8652852 -0.3388095 0.1347148 0.3388095 0.1347148 0.3388095 0.8652852 -0.3388095
20606 0.8546145 -0.3498762 0.1453855 0.3498762 0.1453855 0.3498762 0.8546145 -0.3498762
21550 0.8432479 -0.3609487 0.1567521 0.3609487 0.1567521 0.3609487 0.8432479 -0.3609487
22537 0.8311645 -0.3719816 0.1688355 0.3719816 0.1688355 0.3719816 0.8311645 -0.3719816
23569 0.8183468 -0.3829249 0.1816532 0.3829249 0.1816532 0.3829249 0.8183468 -0.3829249
24648 0.8047813 -0.3937250 0.1952187 0.3937250 0.1952187 0.3937250 0.8047813 -0.3937250
25777 0.7904590 -0.4043246 0.2095410 0.4043246 0.2095410 0.4043246 0.7904590 -0.4043246
26957 0.7753766 -0.4146632 0.2246234 0.4146632 0.2246234 0.4146632 0.7753766 -0.4146632
28191 0.7595366 -0.4246774 0.2404634 0.4246774 0.2404634 0.4246774 0.7595366 -0.4246774
29482 0.7429481 -0.4343020 0.2570519 0.4343020 0.2570519 0.4343020 0.7429481 -0.4343020
30832 0.7256273 -0.4434704 0.2743727 0.4434704 0.2743727 0.4434704 0.7256273 -0.4434704
32244 0.7075981 -0.4521156 0.2924019 0.4521156 0.2924019 0.4521156 0.7075981 -0.4521156
33721 0.6888920 -0.4601713 0.3111080 0.4601713 0.3111080 0.4601713 0.6888920 -0.4601713
35265 0.6695487 -0.4675728 0.3304513 0.4675728 0.3304513 0.4675728 0.6695487 -0.4675728
36880 0.6496158 -0.4742581 0.3503842 0.4742581 0.3503842 0.4742581 0.6496158 -0.4742581
38569 0.6291484 -0.4801696 0.3708516 0.4801696 0.3708516 0.4801696 0.6291484 -0.4801696
40335 0.6082093 -0.4852543 0.3917907 0.4852543 0.3917907 0.4852543 0.6082093 -0.4852543
42182 0.5868676 -0.4894658 0.4131324 0.4894658 0.4131324 0.4894658 0.5868676 -0.4894658
44113 0.5651986 -0.4927648 0.4348014 0.4927648 0.4348014 0.4927648 0.5651986 -0.4927648
46134 0.5432820 -0.4951202 0.4567180 0.4951202 0.4567180 0.4951202 0.5432820 -0.4951202
48246 0.5212018 -0.4965096 0.4787982 0.4965096 0.4787982 0.4965096 0.5212018 -0.4965096
50455 0.4990440 -0.4969199 0.5009560 0.4969199 0.5009560 0.4969199 0.4990440 -0.4969199
52766 0.4768960 -0.4963478 0.5231040 0.4963478 0.5231040 0.4963478 0.4768960 -0.4963478
55182 0.4548447 -0.4947996 0.5451553 0.4947996 0.5451553 0.4947996 0.4548447 -0.4947996
57709 0.4329756 -0.4922910 0.5670244 0.4922910 0.5670244 0.4922910 0.4329756 -0.4922910
60352 0.4113711 -0.4888472 0.5886289 0.4888472 0.5886289 0.4888472 0.4113711 -0.4888472
63115 0.3901096 -0.4845014 0.6098904 0.4845014 0.6098904 0.4845014 0.3901096 -0.4845014
66005 0.3692641 -0.4792949 0.6307359 0.4792949 0.6307359 0.4792949 0.3692641 -0.4792949
69028 0.3489016 -0.4732757 0.6510984 0.4732757 0.6510984 0.4732757 0.3489016 -0.4732757
72189 0.3290824 -0.4664976 0.6709176 0.4664976 0.6709176 0.4664976 0.3290824 -0.4664976
75495 0.3098591 -0.4590191 0.6901409 0.4590191 0.6901409 0.4590191 0.3098591 -0.4590191
78952 0.2912768 -0.4509022 0.7087232 0.4509022 0.7087232 0.4509022 0.2912768 -0.4509022
82567 0.2733728 -0.4422112 0.7266272 0.4422112 0.7266272 0.4422112 0.2733728 -0.4422112
86348 0.2561766 -0.4330119 0.7438234 0.4330119 0.7438234 0.4330119 0.2561766 -0.4330119
90302 0.2397099 -0.4233703 0.7602901 0.4233703 0.7602901 0.4233703 0.2397099 -0.4233703
94437 0.2239875 -0.4133517 0.7760125 0.4133517 0.7760125 0.4133517 0.2239875 -0.4133517
98762 0.2090170 -0.4030201 0.7909830 0.4030201 0.7909830 0.4030201 0.2090170 -0.4030201
103284 0.1947999 -0.3924373 0.8052001 0.3924373 0.8052001 0.3924373 0.1947999 -0.3924373
108014 0.1813321 -0.3816622 0.8186679 0.3816622 0.8186679 0.3816622 0.1813321 -0.3816622
112960 0.1686042 -0.3707506 0.8313958 0.3707506 0.8313958 0.3707506 0.1686042 -0.3707506
118133 0.1566025 -0.3597547 0.8433975 0.3597547 0.8433975 0.3597547 0.1566025 -0.3597547
123542 0.1453096 -0.3487229 0.8546904 0.3487229 0.8546904 0.3487229 0.1453096 -0.3487229
129199 0.1347047 -0.3376997 0.8652953 0.3376997 0.8652953 0.3376997 0.1347047 -0.3376997
135116 0.1247646 -0.3267254 0.8752354 0.3267254 0.8752354 0.3267254 0.1247646 -0.3267254
141303 0.1154641 -0.3158364 0.8845359 0.3158364 0.8845359 0.3158364 0.1154641 -0.3158364
147774 0.1067764 -0.3050651 0.8932236 0.3050651 0.8932236 0.3050651 0.1067764 -0.3050651
154540 0.0986735 -0.2944401 0.9013265 0.2944401 0.9013265 0.2944401 0.0986735 -0.2944401
161617 0.0911272 -0.2839864 0.9088728 0.2839864 0.9088728 0.2839864 0.0911272 -0.2839864
169018 0.0841085 -0.2737255 0.9158915 0.2737255 0.9158915 0.2737255 0.0841085 -0.2737255
176758 0.0775888 -0.2636755 0.9224112 0.2636755 0.9224112 0.2636755 0.0775888 -0.2636755
184852 0.0715397 -0.2538516 0.9284603 0.2538516 0.9284603 0.2538516 0.0715397 -0.2538516
193316 0.0659332 -0.2442662 0.9340668 0.2442662 0.9340668 0.2442662 0.0659332 -0.2442662
202169 0.0607422 -0.2349293 0.9392578 0.2349293 0.9392578 0.2349293 0.0607422 -0.2349293
211427 0.0559403 -0.2258482 0.9440597 0.2258482 0.9440597 0.2258482 0.0559403 -0.2258482
221108 0.0515021 -0.2170285 0.9484979 0.2170285 0.9484979 0.2170285 0.0515021 -0.2170285
231233 0.0474033 -0.2084738 0.9525967 0.2084738 0.9525967 0.2084738 0.0474033 -0.2084738
241822 0.0436206 -0.2001858 0.9563794 0.2001858 0.9563794 0.2001858 0.0436206 -0.2001858
252896 0.0401319 -0.1921651 0.9598681 0.1921651 0.9598681 0.1921651 0.0401319 -0.1921651
264476 0.0369163 -0.1844107 0.9630837 0.1844107 0.9630837 0.1844107 0.0369163 -0.1844107
276587 0.0339540 -0.1769208 0.9660460 0.1769208 0.9660460 0.1769208 0.0339540 -0.1769208
289253 0.0312264 -0.1696923 0.9687736 0.1696923 0.9687736 0.1696923 0.0312264 -0.1696923
302498 0.0287159 -0.1627215 0.9712841 0.1627215 0.9712841 0.1627215 0.0287159 -0.1627215
316350 0.0264061 -0.1560039 0.9735939 0.1560039 0.9735939 0.1560039 0.0264061 -0.1560039
330837 0.0242818 -0.1495346 0.9757182 0.1495346 0.9757182 0.1495346 0.0242818 -0.1495346
345986 0.0223287 -0.1433079 0.9776713 0.1433079 0.9776713 0.1433079 0.0223287 -0.1433079
361830 0.0205333 -0.1373180 0.9794667 0.1373180 0.9794667 0.1373180 0.0205333 -0.1373180
378399 0.0188834 -0.1315587 0.9811166 0.1315587 0.9811166 0.1315587 0.0188834 -0.1315587
395726 0.0173674 -0.1260236 0.9826326 0.1260236 0.9826326 0.1260236 0.0173674 -0.1260236
413847 0.0159748 -0.1207061 0.9840252 0.1207061 0.9840252 0.1207061 0.0159748 -0.1207061
432798 0.0146955 -0.1155996 0.9853045 0.1155996 0.9853045 0.1155996 0.0146955 -0.1155996
452617 0.0135206 -0.1106974 0.9864794 0.1106974 0.9864794 0.1106974 0.0135206 -0.1106974
473344 0.0124416 -0.1059926 0.9875584 0.1059926 0.9875584 0.1059926 0.0124416 -0.1059926
495019 0.0114508 -0.1014787 0.9885492 0.1014787 0.9885492 0.1014787 0.0114508 -0.1014787
517687 0.0105410 -0.0971489 0.9894590 0.0971489 0.9894590 0.0971489 0.0105410 -0.0971489
541393 0.0097055 -0.0929968 0.9902945 0.0929968 0.9902945 0.0929968 0.0097055 -0.0929968
566185 0.0089385 -0.0890158 0.9910615 0.0890158 0.9910615 0.0890158 0.0089385 -0.0890158
592111 0.0082342 -0.0851996 0.9917658 0.0851996 0.9917658 0.0851996 0.0082342 -0.0851996
619225 0.0075876 -0.0815421 0.9924124 0.0815421 0.9924124 0.0815421 0.0075876 -0.0815421
647581 0.0069939 -0.0780372 0.9930061 0.0780372 0.9930061 0.0780372 0.0069939 -0.0780372
677235 0.0064489 -0.0746790 0.9935511 0.0746790 0.9935511 0.0746790 0.0064489 -0.0746790
708247 0.0059485 -0.0714618 0.9940515 0.0714618 0.9940515 0.0714618 0.0059485 -0.0714618
740679 0.0054891 -0.0683801 0.9945109 0.0683801 0.9945109 0.0683801 0.0054891 -0.0683801
774597 0.0050674 -0.0654285 0.9949326 0.0654285 0.9949326 0.0654285 0.0050674 -0.0654285
810067 0.0046802 -0.0626019 0.9953198 0.0626019 0.9953198 0.0626019 0.0046802 -0.0626019
847162 0.0043247 -0.0598951 0.9956753 0.0598951 0.9956753 0.0598951 0.0043247 -0.0598951
885955 0.0039984 -0.0573033 0.9960016 0.0573033 0.9960016 0.0573033 0.0039984 -0.0573033
926525 0.0036988 -0.0548220 0.9963012 0.0548220 0.9963012 0.0548220 0.0036988 -0.0548220
968953 0.0034238 -0.0524464 0.9965762 0.0524464 0.9965762 0.0524464 0.0034238 -0.0524464
1013323 0.0031712 -0.0501724 0.9968288 0.0501724 0.9968288 0.0501724 0.0031712 -0.0501724
1059725 0.0029394 -0.0479956 0.9970606 0.0479956 0.9970606 0.0479956 0.0029394 -0.0479956
1108252 0.0027265 -0.0459122 0.9972735 0.0459122 0.9972735 0.0459122 0.0027265 -0.0459122
1159002 0.0025311 -0.0439181 0.9974689 0.0439181 0.9974689 0.0439181 0.0025311 -0.0439181
1212075 0.0023516 -0.0420096 0.9976484 0.0420096 0.9976484 0.0420096 0.0023516 -0.0420096
1267578 0.0021867 -0.0401833 0.9978133 0.0401833 0.9978133 0.0401833 0.0021867 -0.0401833
1325623 0.0020352 -0.0384355 0.9979648 0.0384355 0.9979648 0.0384355 0.0020352 -0.0384355
1386327 0.0018961 -0.0367630 0.9981039 0.0367630 0.9981039 0.0367630 0.0018961 -0.0367630
1449809 0.0017682 -0.0351626 0.9982318 0.0351626 0.9982318 0.0351626 0.0017682 -0.0351626
1516199 0.0016506 -0.0336313 0.9983494 0.0336313 0.9983494 0.0336313 0.0016506 -0.0336313
1585629 0.0015425 -0.0321660 0.9984575 0.0321660 0.9984575 0.0321660 0.0015425 -0.0321660
1658239 0.0014430 -0.0307640 0.9985570 0.0307640 0.9985570 0.0307640 0.0014430 -0.0307640
1734173 0.0013515 -0.0294225 0.9986485 0.0294225 0.9986485 0.0294225 0.0013515 -0.0294225
1813585 0.0012672 -0.0281389 0.9987328 0.0281389 0.9987328 0.0281389 0.0012672 -0.0281389
1896632 0.0011896 -0.0269108 0.9988104 0.0269108 0.9988104 0.0269108 0.0011896 -0.0269108
1983483 0.0011181 -0.0257357 0.9988819 0.0257357 0.9988819 0.0257357 0.0011181 -0.0257357
2074311 0.0010521 -0.0246113 0.9989479 0.0246113 0.9989479 0.0246113 0.0010521 -0.0246113
