!Murata Part Number: GRM188R72A681KA01
!These Parameters are Measured in Series Mode Connection
!Data Generated on Mar 30, 2021
!       o--ll--o
!Port1            Port2
!       o------o
!Operation Temp=25[degC], DC Bias Voltage=0[V]
!Freq. Start=100[Hz] Stop=6[GHz] 401[Steps]
# Hz S RI R 50
!Freq.(Hz) S11(Real) S11(Imag) S21(Real) S21(Imag) S12(Real) S12(Imag) S22(Real) S22(Imag)
100 0.9999997 -0.0000434 0.0000003 0.0000434 0.0000003 0.0000434 0.9999997 -0.0000434
105 0.9999997 -0.0000454 0.0000003 0.0000454 0.0000003 0.0000454 0.9999997 -0.0000454
109 0.9999997 -0.0000475 0.0000003 0.0000475 0.0000003 0.0000475 0.9999997 -0.0000475
114 0.9999997 -0.0000496 0.0000003 0.0000496 0.0000003 0.0000496 0.9999997 -0.0000496
120 0.9999997 -0.0000519 0.0000003 0.0000519 0.0000003 0.0000519 0.9999997 -0.0000519
125 0.9999997 -0.0000543 0.0000003 0.0000543 0.0000003 0.0000543 0.9999997 -0.0000543
131 0.9999997 -0.0000567 0.0000003 0.0000567 0.0000003 0.0000567 0.9999997 -0.0000567
137 0.9999997 -0.0000593 0.0000003 0.0000593 0.0000003 0.0000593 0.9999997 -0.0000593
143 0.9999996 -0.0000620 0.0000004 0.0000620 0.0000004 0.0000620 0.9999996 -0.0000620
150 0.9999996 -0.0000649 0.0000004 0.0000649 0.0000004 0.0000649 0.9999996 -0.0000649
156 0.9999996 -0.0000678 0.0000004 0.0000678 0.0000004 0.0000678 0.9999996 -0.0000678
164 0.9999996 -0.0000709 0.0000004 0.0000709 0.0000004 0.0000709 0.9999996 -0.0000709
171 0.9999996 -0.0000741 0.0000004 0.0000741 0.0000004 0.0000741 0.9999996 -0.0000741
179 0.9999996 -0.0000775 0.0000004 0.0000775 0.0000004 0.0000775 0.9999996 -0.0000775
187 0.9999995 -0.0000810 0.0000005 0.0000810 0.0000005 0.0000810 0.9999995 -0.0000810
196 0.9999995 -0.0000847 0.0000005 0.0000847 0.0000005 0.0000847 0.9999995 -0.0000847
205 0.9999995 -0.0000886 0.0000005 0.0000886 0.0000005 0.0000886 0.9999995 -0.0000886
214 0.9999995 -0.0000927 0.0000005 0.0000927 0.0000005 0.0000927 0.9999995 -0.0000927
224 0.9999995 -0.0000969 0.0000005 0.0000969 0.0000005 0.0000969 0.9999995 -0.0000969
234 0.9999994 -0.0001013 0.0000006 0.0001013 0.0000006 0.0001013 0.9999994 -0.0001013
245 0.9999994 -0.0001059 0.0000006 0.0001059 0.0000006 0.0001059 0.9999994 -0.0001059
256 0.9999994 -0.0001108 0.0000006 0.0001108 0.0000006 0.0001108 0.9999994 -0.0001108
268 0.9999994 -0.0001158 0.0000006 0.0001158 0.0000006 0.0001158 0.9999994 -0.0001158
280 0.9999993 -0.0001211 0.0000007 0.0001211 0.0000007 0.0001211 0.9999993 -0.0001211
293 0.9999993 -0.0001266 0.0000007 0.0001266 0.0000007 0.0001266 0.9999993 -0.0001266
306 0.9999993 -0.0001324 0.0000007 0.0001324 0.0000007 0.0001324 0.9999993 -0.0001324
320 0.9999993 -0.0001385 0.0000007 0.0001385 0.0000007 0.0001385 0.9999993 -0.0001385
335 0.9999992 -0.0001448 0.0000008 0.0001448 0.0000008 0.0001448 0.9999992 -0.0001448
350 0.9999992 -0.0001514 0.0000008 0.0001514 0.0000008 0.0001514 0.9999992 -0.0001514
366 0.9999992 -0.0001583 0.0000008 0.0001583 0.0000008 0.0001583 0.9999992 -0.0001583
383 0.9999991 -0.0001655 0.0000009 0.0001655 0.0000009 0.0001655 0.9999991 -0.0001655
401 0.9999991 -0.0001731 0.0000009 0.0001731 0.0000009 0.0001731 0.9999991 -0.0001731
419 0.9999990 -0.0001810 0.0000010 0.0001810 0.0000010 0.0001810 0.9999990 -0.0001810
438 0.9999990 -0.0001893 0.0000010 0.0001893 0.0000010 0.0001893 0.9999990 -0.0001893
458 0.9999990 -0.0001979 0.0000010 0.0001979 0.0000010 0.0001979 0.9999990 -0.0001979
479 0.9999989 -0.0002069 0.0000011 0.0002069 0.0000011 0.0002069 0.9999989 -0.0002069
501 0.9999988 -0.0002164 0.0000012 0.0002164 0.0000012 0.0002164 0.9999988 -0.0002164
524 0.9999988 -0.0002263 0.0000012 0.0002263 0.0000012 0.0002263 0.9999988 -0.0002263
548 0.9999987 -0.0002366 0.0000013 0.0002366 0.0000013 0.0002366 0.9999987 -0.0002366
573 0.9999987 -0.0002474 0.0000013 0.0002474 0.0000013 0.0002474 0.9999987 -0.0002474
600 0.9999986 -0.0002587 0.0000014 0.0002587 0.0000014 0.0002587 0.9999986 -0.0002587
627 0.9999985 -0.0002705 0.0000015 0.0002705 0.0000015 0.0002705 0.9999985 -0.0002705
656 0.9999985 -0.0002828 0.0000015 0.0002828 0.0000015 0.0002828 0.9999985 -0.0002828
686 0.9999984 -0.0002957 0.0000016 0.0002957 0.0000016 0.0002957 0.9999984 -0.0002957
717 0.9999983 -0.0003092 0.0000017 0.0003092 0.0000017 0.0003092 0.9999983 -0.0003092
750 0.9999982 -0.0003233 0.0000018 0.0003233 0.0000018 0.0003233 0.9999982 -0.0003233
784 0.9999981 -0.0003381 0.0000019 0.0003381 0.0000019 0.0003381 0.9999981 -0.0003381
820 0.9999980 -0.0003535 0.0000020 0.0003535 0.0000020 0.0003535 0.9999980 -0.0003535
858 0.9999979 -0.0003696 0.0000021 0.0003696 0.0000021 0.0003696 0.9999979 -0.0003696
897 0.9999978 -0.0003865 0.0000022 0.0003865 0.0000022 0.0003865 0.9999978 -0.0003865
938 0.9999977 -0.0004041 0.0000023 0.0004041 0.0000023 0.0004041 0.9999977 -0.0004041
981 0.9999976 -0.0004226 0.0000024 0.0004226 0.0000024 0.0004226 0.9999976 -0.0004226
1026 0.9999975 -0.0004418 0.0000025 0.0004418 0.0000025 0.0004418 0.9999975 -0.0004418
1073 0.9999974 -0.0004620 0.0000026 0.0004620 0.0000026 0.0004620 0.9999974 -0.0004620
1122 0.9999973 -0.0004831 0.0000027 0.0004831 0.0000027 0.0004831 0.9999973 -0.0004831
1174 0.9999971 -0.0005051 0.0000029 0.0005051 0.0000029 0.0005051 0.9999971 -0.0005051
1227 0.9999970 -0.0005282 0.0000030 0.0005282 0.0000030 0.0005282 0.9999970 -0.0005282
1283 0.9999969 -0.0005523 0.0000031 0.0005523 0.0000031 0.0005523 0.9999969 -0.0005523
1342 0.9999967 -0.0005775 0.0000033 0.0005775 0.0000033 0.0005775 0.9999967 -0.0005775
1404 0.9999966 -0.0006038 0.0000034 0.0006038 0.0000034 0.0006038 0.9999966 -0.0006038
1468 0.9999964 -0.0006314 0.0000036 0.0006314 0.0000036 0.0006314 0.9999964 -0.0006314
1535 0.9999963 -0.0006602 0.0000037 0.0006602 0.0000037 0.0006602 0.9999963 -0.0006602
1606 0.9999961 -0.0006903 0.0000039 0.0006903 0.0000039 0.0006903 0.9999961 -0.0006903
1679 0.9999959 -0.0007218 0.0000041 0.0007218 0.0000041 0.0007218 0.9999959 -0.0007218
1756 0.9999958 -0.0007548 0.0000042 0.0007548 0.0000042 0.0007548 0.9999958 -0.0007548
1836 0.9999956 -0.0007892 0.0000044 0.0007892 0.0000044 0.0007892 0.9999956 -0.0007892
1920 0.9999954 -0.0008253 0.0000046 0.0008253 0.0000046 0.0008253 0.9999954 -0.0008253
2008 0.9999951 -0.0008630 0.0000049 0.0008630 0.0000049 0.0008630 0.9999951 -0.0008630
2100 0.9999949 -0.0009024 0.0000051 0.0009024 0.0000051 0.0009024 0.9999949 -0.0009024
2196 0.9999946 -0.0009436 0.0000054 0.0009436 0.0000054 0.0009436 0.9999946 -0.0009436
2297 0.9999944 -0.0009867 0.0000056 0.0009867 0.0000056 0.0009867 0.9999944 -0.0009867
2402 0.9999941 -0.0010318 0.0000059 0.0010318 0.0000059 0.0010318 0.9999941 -0.0010318
2512 0.9999938 -0.0010789 0.0000062 0.0010789 0.0000062 0.0010789 0.9999938 -0.0010789
2627 0.9999935 -0.0011282 0.0000065 0.0011282 0.0000065 0.0011282 0.9999935 -0.0011282
2748 0.9999931 -0.0011797 0.0000069 0.0011797 0.0000069 0.0011797 0.9999931 -0.0011797
2873 0.9999927 -0.0012336 0.0000073 0.0012336 0.0000073 0.0012336 0.9999927 -0.0012336
3005 0.9999923 -0.0012899 0.0000077 0.0012899 0.0000077 0.0012899 0.9999923 -0.0012899
3143 0.9999919 -0.0013489 0.0000081 0.0013489 0.0000081 0.0013489 0.9999919 -0.0013489
3287 0.9999914 -0.0014105 0.0000086 0.0014105 0.0000086 0.0014105 0.9999914 -0.0014105
3437 0.9999909 -0.0014749 0.0000091 0.0014749 0.0000091 0.0014749 0.9999909 -0.0014749
3594 0.9999904 -0.0015423 0.0000096 0.0015423 0.0000096 0.0015423 0.9999904 -0.0015423
3759 0.9999898 -0.0016127 0.0000102 0.0016127 0.0000102 0.0016127 0.9999898 -0.0016127
3931 0.9999892 -0.0016864 0.0000108 0.0016864 0.0000108 0.0016864 0.9999892 -0.0016864
4111 0.9999885 -0.0017634 0.0000115 0.0017634 0.0000115 0.0017634 0.9999885 -0.0017634
4299 0.9999877 -0.0018439 0.0000123 0.0018439 0.0000123 0.0018439 0.9999877 -0.0018439
4496 0.9999870 -0.0019281 0.0000130 0.0019281 0.0000130 0.0019281 0.9999870 -0.0019281
4702 0.9999861 -0.0020162 0.0000139 0.0020162 0.0000139 0.0020162 0.9999861 -0.0020162
4918 0.9999852 -0.0021082 0.0000148 0.0021082 0.0000148 0.0021082 0.9999852 -0.0021082
5143 0.9999843 -0.0022045 0.0000157 0.0022045 0.0000157 0.0022045 0.9999843 -0.0022045
5378 0.9999832 -0.0023051 0.0000168 0.0023051 0.0000168 0.0023051 0.9999832 -0.0023051
5625 0.9999821 -0.0024103 0.0000179 0.0024103 0.0000179 0.0024103 0.9999821 -0.0024103
5882 0.9999809 -0.0025204 0.0000191 0.0025204 0.0000191 0.0025204 0.9999809 -0.0025204
6151 0.9999797 -0.0026354 0.0000203 0.0026354 0.0000203 0.0026354 0.9999797 -0.0026354
6433 0.9999783 -0.0027557 0.0000217 0.0027557 0.0000217 0.0027557 0.9999783 -0.0027557
6728 0.9999769 -0.0028814 0.0000231 0.0028814 0.0000231 0.0028814 0.9999769 -0.0028814
7036 0.9999753 -0.0030129 0.0000247 0.0030129 0.0000247 0.0030129 0.9999753 -0.0030129
7358 0.9999736 -0.0031504 0.0000264 0.0031504 0.0000264 0.0031504 0.9999736 -0.0031504
7695 0.9999719 -0.0032941 0.0000281 0.0032941 0.0000281 0.0032941 0.9999719 -0.0032941
8047 0.9999700 -0.0034444 0.0000300 0.0034444 0.0000300 0.0034444 0.9999700 -0.0034444
8416 0.9999679 -0.0036015 0.0000321 0.0036015 0.0000321 0.0036015 0.9999679 -0.0036015
8801 0.9999658 -0.0037658 0.0000342 0.0037658 0.0000342 0.0037658 0.9999658 -0.0037658
9204 0.9999635 -0.0039376 0.0000365 0.0039376 0.0000365 0.0039376 0.9999635 -0.0039376
9626 0.9999610 -0.0041172 0.0000390 0.0041172 0.0000390 0.0041172 0.9999610 -0.0041172
10066 0.9999583 -0.0043050 0.0000417 0.0043050 0.0000417 0.0043050 0.9999583 -0.0043050
10527 0.9999555 -0.0045014 0.0000445 0.0045014 0.0000445 0.0045014 0.9999555 -0.0045014
11009 0.9999525 -0.0047068 0.0000475 0.0047068 0.0000475 0.0047068 0.9999525 -0.0047068
11514 0.9999492 -0.0049215 0.0000508 0.0049215 0.0000508 0.0049215 0.9999492 -0.0049215
12041 0.9999457 -0.0051460 0.0000543 0.0051460 0.0000543 0.0051460 0.9999457 -0.0051460
12592 0.9999419 -0.0053808 0.0000581 0.0053808 0.0000581 0.0053808 0.9999419 -0.0053808
13169 0.9999378 -0.0056263 0.0000622 0.0056263 0.0000622 0.0056263 0.9999378 -0.0056263
13772 0.9999335 -0.0058831 0.0000665 0.0058831 0.0000665 0.0058831 0.9999335 -0.0058831
14402 0.9999288 -0.0061515 0.0000712 0.0061515 0.0000712 0.0061515 0.9999288 -0.0061515
15062 0.9999237 -0.0064322 0.0000763 0.0064322 0.0000763 0.0064322 0.9999237 -0.0064322
15752 0.9999182 -0.0067257 0.0000818 0.0067257 0.0000818 0.0067257 0.9999182 -0.0067257
16473 0.9999122 -0.0070327 0.0000878 0.0070327 0.0000878 0.0070327 0.9999122 -0.0070327
17227 0.9999058 -0.0073536 0.0000942 0.0073536 0.0000942 0.0073536 0.9999058 -0.0073536
18016 0.9998988 -0.0076893 0.0001012 0.0076893 0.0001012 0.0076893 0.9998988 -0.0076893
18841 0.9998912 -0.0080402 0.0001088 0.0080402 0.0001088 0.0080402 0.9998912 -0.0080402
19704 0.9998830 -0.0084072 0.0001170 0.0084072 0.0001170 0.0084072 0.9998830 -0.0084072
20606 0.9998741 -0.0087909 0.0001259 0.0087909 0.0001259 0.0087909 0.9998741 -0.0087909
21550 0.9998644 -0.0091921 0.0001356 0.0091921 0.0001356 0.0091921 0.9998644 -0.0091921
22537 0.9998539 -0.0096116 0.0001461 0.0096116 0.0001461 0.0096116 0.9998539 -0.0096116
23569 0.9998425 -0.0100503 0.0001575 0.0100503 0.0001575 0.0100503 0.9998425 -0.0100503
24648 0.9998301 -0.0105089 0.0001699 0.0105089 0.0001699 0.0105089 0.9998301 -0.0105089
25777 0.9998167 -0.0109885 0.0001833 0.0109885 0.0001833 0.0109885 0.9998167 -0.0109885
26957 0.9998020 -0.0114899 0.0001980 0.0114899 0.0001980 0.0114899 0.9998020 -0.0114899
28191 0.9997861 -0.0120141 0.0002139 0.0120141 0.0002139 0.0120141 0.9997861 -0.0120141
29482 0.9997688 -0.0125622 0.0002312 0.0125622 0.0002312 0.0125622 0.9997688 -0.0125622
30832 0.9997500 -0.0131353 0.0002500 0.0131353 0.0002500 0.0131353 0.9997500 -0.0131353
32244 0.9997296 -0.0137344 0.0002704 0.0137344 0.0002704 0.0137344 0.9997296 -0.0137344
33721 0.9997073 -0.0143608 0.0002927 0.0143608 0.0002927 0.0143608 0.9997073 -0.0143608
35265 0.9996832 -0.0150156 0.0003168 0.0150156 0.0003168 0.0150156 0.9996832 -0.0150156
36880 0.9996569 -0.0157002 0.0003431 0.0157002 0.0003431 0.0157002 0.9996569 -0.0157002
38569 0.9996284 -0.0164159 0.0003716 0.0164159 0.0003716 0.0164159 0.9996284 -0.0164159
40335 0.9995974 -0.0171640 0.0004026 0.0171640 0.0004026 0.0171640 0.9995974 -0.0171640
42182 0.9995638 -0.0179462 0.0004362 0.0179462 0.0004362 0.0179462 0.9995638 -0.0179462
44113 0.9995272 -0.0187638 0.0004728 0.0187638 0.0004728 0.0187638 0.9995272 -0.0187638
46134 0.9994875 -0.0196185 0.0005125 0.0196185 0.0005125 0.0196185 0.9994875 -0.0196185
48246 0.9994444 -0.0205119 0.0005556 0.0205119 0.0005556 0.0205119 0.9994444 -0.0205119
50455 0.9993975 -0.0214459 0.0006025 0.0214459 0.0006025 0.0214459 0.9993975 -0.0214459
52766 0.9993467 -0.0224221 0.0006533 0.0224221 0.0006533 0.0224221 0.9993467 -0.0224221
55182 0.9992915 -0.0234426 0.0007085 0.0234426 0.0007085 0.0234426 0.9992915 -0.0234426
57709 0.9992315 -0.0245094 0.0007685 0.0245094 0.0007685 0.0245094 0.9992315 -0.0245094
60352 0.9991664 -0.0256244 0.0008336 0.0256244 0.0008336 0.0256244 0.9991664 -0.0256244
63115 0.9990957 -0.0267900 0.0009043 0.0267900 0.0009043 0.0267900 0.9990957 -0.0267900
66005 0.9990189 -0.0280083 0.0009811 0.0280083 0.0009811 0.0280083 0.9990189 -0.0280083
69028 0.9989355 -0.0292817 0.0010645 0.0292817 0.0010645 0.0292817 0.9989355 -0.0292817
72189 0.9988449 -0.0306128 0.0011551 0.0306128 0.0011551 0.0306128 0.9988449 -0.0306128
75495 0.9987464 -0.0320042 0.0012536 0.0320042 0.0012536 0.0320042 0.9987464 -0.0320042
78952 0.9986394 -0.0334584 0.0013606 0.0334584 0.0013606 0.0334584 0.9986394 -0.0334584
82567 0.9985231 -0.0349785 0.0014769 0.0349785 0.0014769 0.0349785 0.9985231 -0.0349785
86348 0.9983965 -0.0365672 0.0016035 0.0365672 0.0016035 0.0365672 0.9983965 -0.0365672
90302 0.9982589 -0.0382278 0.0017411 0.0382278 0.0017411 0.0382278 0.9982589 -0.0382278
94437 0.9981091 -0.0399634 0.0018909 0.0399634 0.0018909 0.0399634 0.9981091 -0.0399634
98762 0.9979462 -0.0417773 0.0020538 0.0417773 0.0020538 0.0417773 0.9979462 -0.0417773
103284 0.9977687 -0.0436730 0.0022313 0.0436730 0.0022313 0.0436730 0.9977687 -0.0436730
108014 0.9975755 -0.0456541 0.0024245 0.0456541 0.0024245 0.0456541 0.9975755 -0.0456541
112960 0.9973650 -0.0477245 0.0026350 0.0477245 0.0026350 0.0477245 0.9973650 -0.0477245
118133 0.9971357 -0.0498879 0.0028643 0.0498879 0.0028643 0.0498879 0.9971357 -0.0498879
123542 0.9968858 -0.0521485 0.0031142 0.0521485 0.0031142 0.0521485 0.9968858 -0.0521485
129199 0.9966134 -0.0545105 0.0033866 0.0545105 0.0033866 0.0545105 0.9966134 -0.0545105
135116 0.9963164 -0.0569782 0.0036836 0.0569782 0.0036836 0.0569782 0.9963164 -0.0569782
141303 0.9959926 -0.0595561 0.0040074 0.0595561 0.0040074 0.0595561 0.9959926 -0.0595561
147774 0.9956394 -0.0622490 0.0043606 0.0622490 0.0043606 0.0622490 0.9956394 -0.0622490
154540 0.9952543 -0.0650617 0.0047457 0.0650617 0.0047457 0.0650617 0.9952543 -0.0650617
161617 0.9948342 -0.0679991 0.0051658 0.0679991 0.0051658 0.0679991 0.9948342 -0.0679991
169018 0.9943760 -0.0710664 0.0056240 0.0710664 0.0056240 0.0710664 0.9943760 -0.0710664
176758 0.9938761 -0.0742690 0.0061239 0.0742690 0.0061239 0.0742690 0.9938761 -0.0742690
184852 0.9933309 -0.0776123 0.0066691 0.0776123 0.0066691 0.0776123 0.9933309 -0.0776123
193316 0.9927361 -0.0811018 0.0072639 0.0811018 0.0072639 0.0811018 0.9927361 -0.0811018
202169 0.9920874 -0.0847434 0.0079126 0.0847434 0.0079126 0.0847434 0.9920874 -0.0847434
211427 0.9913798 -0.0885430 0.0086202 0.0885430 0.0086202 0.0885430 0.9913798 -0.0885430
221108 0.9906082 -0.0925064 0.0093918 0.0925064 0.0093918 0.0925064 0.9906082 -0.0925064
231233 0.9897668 -0.0966400 0.0102332 0.0966400 0.0102332 0.0966400 0.9897668 -0.0966400
241822 0.9888495 -0.1009497 0.0111505 0.1009497 0.0111505 0.1009497 0.9888495 -0.1009497
252896 0.9878496 -0.1054421 0.0121504 0.1054421 0.0121504 0.1054421 0.9878496 -0.1054421
264476 0.9867599 -0.1101233 0.0132401 0.1101233 0.0132401 0.1101233 0.9867599 -0.1101233
276587 0.9855725 -0.1149998 0.0144275 0.1149998 0.0144275 0.1149998 0.9855725 -0.1149998
289253 0.9842790 -0.1200779 0.0157210 0.1200779 0.0157210 0.1200779 0.9842790 -0.1200779
302498 0.9828705 -0.1253640 0.0171295 0.1253640 0.0171295 0.1253640 0.9828705 -0.1253640
316350 0.9813370 -0.1308644 0.0186630 0.1308644 0.0186630 0.1308644 0.9813370 -0.1308644
330837 0.9796680 -0.1365851 0.0203320 0.1365851 0.0203320 0.1365851 0.9796680 -0.1365851
345986 0.9778522 -0.1425322 0.0221478 0.1425322 0.0221478 0.1425322 0.9778522 -0.1425322
361830 0.9758775 -0.1487114 0.0241225 0.1487114 0.0241225 0.1487114 0.9758775 -0.1487114
378399 0.9737308 -0.1551281 0.0262692 0.1551281 0.0262692 0.1551281 0.9737308 -0.1551281
395726 0.9713981 -0.1617874 0.0286019 0.1617874 0.0286019 0.1617874 0.9713981 -0.1617874
413847 0.9688646 -0.1686940 0.0311354 0.1686940 0.0311354 0.1686940 0.9688646 -0.1686940
432798 0.9661143 -0.1758518 0.0338857 0.1758518 0.0338857 0.1758518 0.9661143 -0.1758518
452617 0.9631302 -0.1832643 0.0368698 0.1832643 0.0368698 0.1832643 0.9631302 -0.1832643
473344 0.9598944 -0.1909342 0.0401056 0.1909342 0.0401056 0.1909342 0.9598944 -0.1909342
495019 0.9563877 -0.1988630 0.0436123 0.1988630 0.0436123 0.1988630 0.9563877 -0.1988630
517687 0.9525899 -0.2070515 0.0474101 0.2070515 0.0474101 0.2070515 0.9525899 -0.2070515
541393 0.9484797 -0.2154992 0.0515203 0.2154992 0.0515203 0.2154992 0.9484797 -0.2154992
566185 0.9440347 -0.2242041 0.0559653 0.2242041 0.0559653 0.2242041 0.9440347 -0.2242041
592111 0.9392314 -0.2331627 0.0607686 0.2331627 0.0607686 0.2331627 0.9392314 -0.2331627
619225 0.9340452 -0.2423698 0.0659548 0.2423698 0.0659548 0.2423698 0.9340452 -0.2423698
647581 0.9284506 -0.2518181 0.0715494 0.2518181 0.0715494 0.2518181 0.9284506 -0.2518181
677235 0.9224214 -0.2614981 0.0775786 0.2614981 0.0775786 0.2614981 0.9224214 -0.2614981
708247 0.9159304 -0.2713980 0.0840696 0.2713980 0.0840696 0.2713980 0.9159304 -0.2713980
740679 0.9089500 -0.2815031 0.0910500 0.2815031 0.0910500 0.2815031 0.9089500 -0.2815031
774597 0.9014521 -0.2917960 0.0985479 0.2917960 0.0985479 0.2917960 0.9014521 -0.2917960
810067 0.8934087 -0.3022558 0.1065913 0.3022558 0.1065913 0.3022558 0.8934087 -0.3022558
847162 0.8847916 -0.3128587 0.1152084 0.3128587 0.1152084 0.3128587 0.8847916 -0.3128587
885955 0.8755737 -0.3235768 0.1244263 0.3235768 0.1244263 0.3235768 0.8755737 -0.3235768
926525 0.8657283 -0.3343787 0.1342717 0.3343787 0.1342717 0.3343787 0.8657283 -0.3343787
968953 0.8552304 -0.3452289 0.1447696 0.3452289 0.1447696 0.3452289 0.8552304 -0.3452289
1013323 0.8440569 -0.3560881 0.1559431 0.3560881 0.1559431 0.3560881 0.8440569 -0.3560881
1059725 0.8321871 -0.3669127 0.1678129 0.3669127 0.1678129 0.3669127 0.8321871 -0.3669127
1108252 0.8196035 -0.3776552 0.1803965 0.3776552 0.1803965 0.3776552 0.8196035 -0.3776552
1159002 0.8062922 -0.3882644 0.1937078 0.3882644 0.1937078 0.3882644 0.8062922 -0.3882644
1212075 0.7922436 -0.3986851 0.2077564 0.3986851 0.2077564 0.3986851 0.7922436 -0.3986851
1267578 0.7774535 -0.4088593 0.2225465 0.4088593 0.2225465 0.4088593 0.7774535 -0.4088593
1325623 0.7619229 -0.4187258 0.2380771 0.4187258 0.2380771 0.4187258 0.7619229 -0.4187258
1386327 0.7456595 -0.4282215 0.2543405 0.4282215 0.2543405 0.4282215 0.7456595 -0.4282215
1449809 0.7286776 -0.4372815 0.2713224 0.4372815 0.2713224 0.4372815 0.7286776 -0.4372815
1516199 0.7109987 -0.4458406 0.2890013 0.4458406 0.2890013 0.4458406 0.7109987 -0.4458406
1585629 0.6926523 -0.4538338 0.3073477 0.4538338 0.3073477 0.4538338 0.6926523 -0.4538338
1658239 0.6736751 -0.4611974 0.3263249 0.4611974 0.3263249 0.4611974 0.6736751 -0.4611974
1734173 0.6541123 -0.4678702 0.3458877 0.4678702 0.3458877 0.4678702 0.6541123 -0.4678702
1813585 0.6340161 -0.4737946 0.3659839 0.4737946 0.3659839 0.4737946 0.6340161 -0.4737946
1896632 0.6134466 -0.4789176 0.3865534 0.4789176 0.3865534 0.4789176 0.6134466 -0.4789176
1983483 0.5924702 -0.4831925 0.4075298 0.4831925 0.4075298 0.4831925 0.5924702 -0.4831925
2074311 0.5711596 -0.4865789 0.4288404 0.4865789 0.4288404 0.4865789 0.5711596 -0.4865789
