!Murata Part Number: GRM188B11E154KA01
!These Parameters are Measured in Series Mode Connection
!Data Generated on Mar 30, 2021
!       o--ll--o
!Port1            Port2
!       o------o
!Operation Temp=25[degC], DC Bias Voltage=0[V]
!Freq. Start=100[Hz] Stop=6[GHz] 401[Steps]
# Hz S RI R 50
!Freq.(Hz) S11(Real) S11(Imag) S21(Real) S21(Imag) S12(Real) S12(Imag) S22(Real) S22(Imag)
100 0.9998706 -0.0091290 0.0001294 0.0091290 0.0001294 0.0091290 0.9998706 -0.0091290
105 0.9998608 -0.0095455 0.0001392 0.0095455 0.0001392 0.0095455 0.9998608 -0.0095455
109 0.9998501 -0.0099810 0.0001499 0.0099810 0.0001499 0.0099810 0.9998501 -0.0099810
114 0.9998386 -0.0104364 0.0001614 0.0104364 0.0001614 0.0104364 0.9998386 -0.0104364
120 0.9998261 -0.0109126 0.0001739 0.0109126 0.0001739 0.0109126 0.9998261 -0.0109126
125 0.9998125 -0.0114105 0.0001875 0.0114105 0.0001875 0.0114105 0.9998125 -0.0114105
131 0.9997978 -0.0119310 0.0002022 0.0119310 0.0002022 0.0119310 0.9997978 -0.0119310
137 0.9997818 -0.0124753 0.0002182 0.0124753 0.0002182 0.0124753 0.9997818 -0.0124753
143 0.9997644 -0.0130444 0.0002356 0.0130444 0.0002356 0.0130444 0.9997644 -0.0130444
150 0.9997455 -0.0136395 0.0002545 0.0136395 0.0002545 0.0136395 0.9997455 -0.0136395
156 0.9997251 -0.0142616 0.0002749 0.0142616 0.0002749 0.0142616 0.9997251 -0.0142616
164 0.9997028 -0.0149121 0.0002972 0.0149121 0.0002972 0.0149121 0.9997028 -0.0149121
171 0.9996787 -0.0155923 0.0003213 0.0155923 0.0003213 0.0155923 0.9996787 -0.0155923
179 0.9996525 -0.0163033 0.0003475 0.0163033 0.0003475 0.0163033 0.9996525 -0.0163033
187 0.9996240 -0.0170468 0.0003760 0.0170468 0.0003760 0.0170468 0.9996240 -0.0170468
196 0.9995931 -0.0178241 0.0004069 0.0178241 0.0004069 0.0178241 0.9995931 -0.0178241
205 0.9995595 -0.0186369 0.0004405 0.0186369 0.0004405 0.0186369 0.9995595 -0.0186369
214 0.9995229 -0.0194866 0.0004771 0.0194866 0.0004771 0.0194866 0.9995229 -0.0194866
224 0.9994832 -0.0203750 0.0005168 0.0203750 0.0005168 0.0203750 0.9994832 -0.0203750
234 0.9994401 -0.0213038 0.0005599 0.0213038 0.0005599 0.0213038 0.9994401 -0.0213038
245 0.9993932 -0.0222749 0.0006068 0.0222749 0.0006068 0.0222749 0.9993932 -0.0222749
256 0.9993421 -0.0232902 0.0006579 0.0232902 0.0006579 0.0232902 0.9993421 -0.0232902
268 0.9992866 -0.0243517 0.0007134 0.0243517 0.0007134 0.0243517 0.9992866 -0.0243517
280 0.9992262 -0.0254615 0.0007738 0.0254615 0.0007738 0.0254615 0.9992262 -0.0254615
293 0.9991604 -0.0266217 0.0008396 0.0266217 0.0008396 0.0266217 0.9991604 -0.0266217
306 0.9990887 -0.0278348 0.0009113 0.0278348 0.0009113 0.0278348 0.9990887 -0.0278348
320 0.9990107 -0.0291029 0.0009893 0.0291029 0.0009893 0.0291029 0.9990107 -0.0291029
335 0.9989258 -0.0304287 0.0010742 0.0304287 0.0010742 0.0304287 0.9989258 -0.0304287
350 0.9988331 -0.0318147 0.0011669 0.0318147 0.0011669 0.0318147 0.9988331 -0.0318147
366 0.9987322 -0.0332637 0.0012678 0.0332637 0.0012678 0.0332637 0.9987322 -0.0332637
383 0.9986222 -0.0347784 0.0013778 0.0347784 0.0013778 0.0347784 0.9986222 -0.0347784
401 0.9985022 -0.0363618 0.0014978 0.0363618 0.0014978 0.0363618 0.9985022 -0.0363618
419 0.9983713 -0.0380169 0.0016287 0.0380169 0.0016287 0.0380169 0.9983713 -0.0380169
438 0.9982286 -0.0397469 0.0017714 0.0397469 0.0017714 0.0397469 0.9982286 -0.0397469
458 0.9980728 -0.0415552 0.0019272 0.0415552 0.0019272 0.0415552 0.9980728 -0.0415552
479 0.9979029 -0.0434452 0.0020971 0.0434452 0.0020971 0.0434452 0.9979029 -0.0434452
501 0.9977175 -0.0454205 0.0022825 0.0454205 0.0022825 0.0454205 0.9977175 -0.0454205
524 0.9975152 -0.0474848 0.0024848 0.0474848 0.0024848 0.0474848 0.9975152 -0.0474848
548 0.9972944 -0.0496420 0.0027056 0.0496420 0.0027056 0.0496420 0.9972944 -0.0496420
573 0.9970534 -0.0518962 0.0029466 0.0518962 0.0029466 0.0518962 0.9970534 -0.0518962
600 0.9967904 -0.0542515 0.0032096 0.0542515 0.0032096 0.0542515 0.9967904 -0.0542515
627 0.9965033 -0.0567122 0.0034967 0.0567122 0.0034967 0.0567122 0.9965033 -0.0567122
656 0.9961900 -0.0592829 0.0038100 0.0592829 0.0038100 0.0592829 0.9961900 -0.0592829
686 0.9958481 -0.0619683 0.0041519 0.0619683 0.0041519 0.0619683 0.9958481 -0.0619683
717 0.9954749 -0.0647731 0.0045251 0.0647731 0.0045251 0.0647731 0.9954749 -0.0647731
750 0.9950677 -0.0677024 0.0049323 0.0677024 0.0049323 0.0677024 0.9950677 -0.0677024
784 0.9946234 -0.0707613 0.0053766 0.0707613 0.0053766 0.0707613 0.9946234 -0.0707613
820 0.9941386 -0.0739551 0.0058614 0.0739551 0.0058614 0.0739551 0.9941386 -0.0739551
858 0.9936097 -0.0772894 0.0063903 0.0772894 0.0063903 0.0772894 0.9936097 -0.0772894
897 0.9930327 -0.0807698 0.0069673 0.0807698 0.0069673 0.0807698 0.9930327 -0.0807698
938 0.9924034 -0.0844021 0.0075966 0.0844021 0.0075966 0.0844021 0.9924034 -0.0844021
981 0.9917170 -0.0881923 0.0082830 0.0881923 0.0082830 0.0881923 0.9917170 -0.0881923
1026 0.9909686 -0.0921465 0.0090314 0.0921465 0.0090314 0.0921465 0.9909686 -0.0921465
1073 0.9901526 -0.0962709 0.0098474 0.0962709 0.0098474 0.0962709 0.9901526 -0.0962709
1122 0.9892630 -0.1005720 0.0107370 0.1005720 0.0107370 0.1005720 0.9892630 -0.1005720
1174 0.9882933 -0.1050563 0.0117067 0.1050563 0.0117067 0.1050563 0.9882933 -0.1050563
1227 0.9872366 -0.1097302 0.0127634 0.1097302 0.0127634 0.1097302 0.9872366 -0.1097302
1283 0.9860852 -0.1146006 0.0139148 0.1146006 0.0139148 0.1146006 0.9860852 -0.1146006
1342 0.9848309 -0.1196739 0.0151691 0.1196739 0.0151691 0.1196739 0.9848309 -0.1196739
1404 0.9834647 -0.1249571 0.0165353 0.1249571 0.0165353 0.1249571 0.9834647 -0.1249571
1468 0.9819770 -0.1304567 0.0180230 0.1304567 0.0180230 0.1304567 0.9819770 -0.1304567
1535 0.9803574 -0.1361793 0.0196426 0.1361793 0.0196426 0.1361793 0.9803574 -0.1361793
1606 0.9785946 -0.1421313 0.0214054 0.1421313 0.0214054 0.1421313 0.9785946 -0.1421313
1679 0.9766765 -0.1483191 0.0233235 0.1483191 0.0233235 0.1483191 0.9766765 -0.1483191
1756 0.9745899 -0.1547487 0.0254101 0.1547487 0.0254101 0.1547487 0.9745899 -0.1547487
1836 0.9723209 -0.1614257 0.0276791 0.1614257 0.0276791 0.1614257 0.9723209 -0.1614257
1920 0.9698544 -0.1683553 0.0301456 0.1683553 0.0301456 0.1683553 0.9698544 -0.1683553
2008 0.9671741 -0.1755423 0.0328259 0.1755423 0.0328259 0.1755423 0.9671741 -0.1755423
2100 0.9642629 -0.1829907 0.0357371 0.1829907 0.0357371 0.1829907 0.9642629 -0.1829907
2196 0.9611023 -0.1907037 0.0388977 0.1907037 0.0388977 0.1907037 0.9611023 -0.1907037
2297 0.9576727 -0.1986837 0.0423273 0.1986837 0.0423273 0.1986837 0.9576727 -0.1986837
2402 0.9539534 -0.2069318 0.0460466 0.2069318 0.0460466 0.2069318 0.9539534 -0.2069318
2512 0.9499222 -0.2154482 0.0500778 0.2154482 0.0500778 0.2154482 0.9499222 -0.2154482
2627 0.9455561 -0.2242314 0.0544439 0.2242314 0.0544439 0.2242314 0.9455561 -0.2242314
2748 0.9408307 -0.2332782 0.0591693 0.2332782 0.0591693 0.2332782 0.9408307 -0.2332782
2873 0.9357205 -0.2425838 0.0642795 0.2425838 0.0642795 0.2425838 0.9357205 -0.2425838
3005 0.9301993 -0.2521412 0.0698007 0.2521412 0.0698007 0.2521412 0.9301993 -0.2521412
3143 0.9242395 -0.2619409 0.0757605 0.2619409 0.0757605 0.2619409 0.9242395 -0.2619409
3287 0.9178132 -0.2719712 0.0821868 0.2719712 0.0821868 0.2719712 0.9178132 -0.2719712
3437 0.9108915 -0.2822173 0.0891085 0.2822173 0.0891085 0.2822173 0.9108915 -0.2822173
3594 0.9034455 -0.2926616 0.0965545 0.2926616 0.0965545 0.2926616 0.9034455 -0.2926616
3759 0.8954459 -0.3032829 0.1045541 0.3032829 0.1045541 0.3032829 0.8954459 -0.3032829
3931 0.8868639 -0.3140569 0.1131361 0.3140569 0.1131361 0.3140569 0.8868639 -0.3140569
4111 0.8776711 -0.3249552 0.1223289 0.3249552 0.1223289 0.3249552 0.8776711 -0.3249552
4299 0.8678402 -0.3359458 0.1321598 0.3359458 0.1321598 0.3359458 0.8678402 -0.3359458
4496 0.8573452 -0.3469926 0.1426548 0.3469926 0.1426548 0.3469926 0.8573452 -0.3469926
4702 0.8461624 -0.3580554 0.1538376 0.3580554 0.1538376 0.3580554 0.8461624 -0.3580554
4918 0.8342704 -0.3690899 0.1657296 0.3690899 0.1657296 0.3690899 0.8342704 -0.3690899
5143 0.8216511 -0.3800478 0.1783489 0.3800478 0.1783489 0.3800478 0.8216511 -0.3800478
5378 0.8082900 -0.3908770 0.1917100 0.3908770 0.1917100 0.3908770 0.8082900 -0.3908770
5625 0.7941774 -0.4015215 0.2058226 0.4015215 0.2058226 0.4015215 0.7941774 -0.4015215
5882 0.7793083 -0.4119223 0.2206917 0.4119223 0.2206917 0.4119223 0.7793083 -0.4119223
6151 0.7636836 -0.4220175 0.2363164 0.4220175 0.2363164 0.4220175 0.7636836 -0.4220175
6433 0.7473105 -0.4317430 0.2526895 0.4317430 0.2526895 0.4317430 0.7473105 -0.4317430
6728 0.7302030 -0.4410333 0.2697970 0.4410333 0.2697970 0.4410333 0.7302030 -0.4410333
7036 0.7123824 -0.4498221 0.2876176 0.4498221 0.2876176 0.4498221 0.7123824 -0.4498221
7358 0.6938775 -0.4580433 0.3061225 0.4580433 0.3061225 0.4580433 0.6938775 -0.4580433
7695 0.6747250 -0.4656324 0.3252750 0.4656324 0.3252750 0.4656324 0.6747250 -0.4656324
8047 0.6549694 -0.4725269 0.3450306 0.4725269 0.3450306 0.4725269 0.6549694 -0.4725269
8416 0.6346629 -0.4786681 0.3653371 0.4786681 0.3653371 0.4786681 0.6346629 -0.4786681
8801 0.6138651 -0.4840016 0.3861349 0.4840016 0.3861349 0.4840016 0.6138651 -0.4840016
9204 0.5926423 -0.4884789 0.4073577 0.4884789 0.4073577 0.4884789 0.5926423 -0.4884789
9626 0.5710671 -0.4920582 0.4289329 0.4920582 0.4289329 0.4920582 0.5710671 -0.4920582
10066 0.5492173 -0.4947053 0.4507827 0.4947053 0.4507827 0.4947053 0.5492173 -0.4947053
10527 0.5271748 -0.4963945 0.4728252 0.4963945 0.4728252 0.4963945 0.5271748 -0.4963945
11009 0.5050247 -0.4971090 0.4949753 0.4971090 0.4949753 0.4971090 0.5050247 -0.4971090
11514 0.4828536 -0.4968415 0.5171464 0.4968415 0.5171464 0.4968415 0.4828536 -0.4968415
12041 0.4607486 -0.4955944 0.5392514 0.4955944 0.5392514 0.4955944 0.4607486 -0.4955944
12592 0.4387959 -0.4933794 0.5612041 0.4933794 0.5612041 0.4933794 0.4387959 -0.4933794
13169 0.4170793 -0.4902179 0.5829207 0.4902179 0.5829207 0.4902179 0.4170793 -0.4902179
13772 0.3956790 -0.4861397 0.6043210 0.4861397 0.6043210 0.4861397 0.3956790 -0.4861397
14402 0.3746707 -0.4811830 0.6253293 0.4811830 0.6253293 0.4811830 0.3746707 -0.4811830
15062 0.3541241 -0.4753933 0.6458759 0.4753933 0.6458759 0.4753933 0.3541241 -0.4753933
15752 0.3341027 -0.4688223 0.6658973 0.4688223 0.6658973 0.4688223 0.3341027 -0.4688223
16473 0.3146627 -0.4615270 0.6853373 0.4615270 0.6853373 0.4615270 0.3146627 -0.4615270
17227 0.2958525 -0.4535685 0.7041475 0.4535685 0.7041475 0.4535685 0.2958525 -0.4535685
18016 0.2777130 -0.4450108 0.7222870 0.4450108 0.7222870 0.4450108 0.2777130 -0.4450108
18841 0.2602768 -0.4359201 0.7397232 0.4359201 0.7397232 0.4359201 0.2602768 -0.4359201
19704 0.2435691 -0.4263629 0.7564309 0.4263629 0.7564309 0.4263629 0.2435691 -0.4263629
20606 0.2276071 -0.4164057 0.7723929 0.4164057 0.7723929 0.4164057 0.2276071 -0.4164057
21550 0.2124013 -0.4061140 0.7875987 0.4061140 0.7875987 0.4061140 0.2124013 -0.4061140
22537 0.1979552 -0.3955513 0.8020448 0.3955513 0.8020448 0.3955513 0.1979552 -0.3955513
23569 0.1842664 -0.3847784 0.8157336 0.3847784 0.8157336 0.3847784 0.1842664 -0.3847784
24648 0.1713269 -0.3738531 0.8286731 0.3738531 0.8286731 0.3738531 0.1713269 -0.3738531
25777 0.1591241 -0.3628296 0.8408759 0.3628296 0.8408759 0.3628296 0.1591241 -0.3628296
26957 0.1476412 -0.3517584 0.8523588 0.3517584 0.8523588 0.3517584 0.1476412 -0.3517584
28191 0.1368578 -0.3406858 0.8631422 0.3406858 0.8631422 0.3406858 0.1368578 -0.3406858
29482 0.1267508 -0.3296540 0.8732492 0.3296540 0.8732492 0.3296540 0.1267508 -0.3296540
30832 0.1172948 -0.3187011 0.8827052 0.3187011 0.8827052 0.3187011 0.1172948 -0.3187011
32244 0.1084628 -0.3078609 0.8915372 0.3078609 0.8915372 0.3078609 0.1084628 -0.3078609
33721 0.1002264 -0.2971635 0.8997736 0.2971635 0.8997736 0.2971635 0.1002264 -0.2971635
35265 0.0925566 -0.2866350 0.9074434 0.2866350 0.9074434 0.2866350 0.0925566 -0.2866350
36880 0.0854241 -0.2762977 0.9145759 0.2762977 0.9145759 0.2762977 0.0854241 -0.2762977
38569 0.0787994 -0.2661708 0.9212006 0.2661708 0.9212006 0.2661708 0.0787994 -0.2661708
40335 0.0726534 -0.2562702 0.9273466 0.2562702 0.9273466 0.2562702 0.0726534 -0.2562702
42182 0.0669575 -0.2466087 0.9330425 0.2466087 0.9330425 0.2466087 0.0669575 -0.2466087
44113 0.0616839 -0.2371966 0.9383161 0.2371966 0.9383161 0.2371966 0.0616839 -0.2371966
46134 0.0568055 -0.2280419 0.9431945 0.2280419 0.9431945 0.2280419 0.0568055 -0.2280419
48246 0.0522963 -0.2191500 0.9477037 0.2191500 0.9477037 0.2191500 0.0522963 -0.2191500
50455 0.0481316 -0.2105247 0.9518684 0.2105247 0.9518684 0.2105247 0.0481316 -0.2105247
52766 0.0442874 -0.2021681 0.9557126 0.2021681 0.9557126 0.2021681 0.0442874 -0.2021681
55182 0.0407414 -0.1940804 0.9592586 0.1940804 0.9592586 0.1940804 0.0407414 -0.1940804
57709 0.0374720 -0.1862609 0.9625280 0.1862609 0.9625280 0.1862609 0.0374720 -0.1862609
60352 0.0344593 -0.1787075 0.9655407 0.1787075 0.9655407 0.1787075 0.0344593 -0.1787075
63115 0.0316843 -0.1714172 0.9683157 0.1714172 0.9683157 0.1714172 0.0316843 -0.1714172
66005 0.0291293 -0.1643862 0.9708707 0.1643862 0.9708707 0.1643862 0.0291293 -0.1643862
69028 0.0267777 -0.1576099 0.9732223 0.1576099 0.9732223 0.1576099 0.0267777 -0.1576099
72189 0.0246140 -0.1510832 0.9753860 0.1510832 0.9753860 0.1510832 0.0246140 -0.1510832
75495 0.0226237 -0.1448005 0.9773763 0.1448005 0.9773763 0.1448005 0.0226237 -0.1448005
78952 0.0207935 -0.1387559 0.9792065 0.1387559 0.9792065 0.1387559 0.0207935 -0.1387559
82567 0.0191108 -0.1329431 0.9808892 0.1329431 0.9808892 0.1329431 0.0191108 -0.1329431
86348 0.0175642 -0.1273557 0.9824358 0.1273557 0.9824358 0.1273557 0.0175642 -0.1273557
90302 0.0161429 -0.1219872 0.9838571 0.1219872 0.9838571 0.1219872 0.0161429 -0.1219872
94437 0.0148370 -0.1168307 0.9851630 0.1168307 0.9851630 0.1168307 0.0148370 -0.1168307
98762 0.0136373 -0.1118798 0.9863627 0.1118798 0.9863627 0.1118798 0.0136373 -0.1118798
103284 0.0125355 -0.1071275 0.9874645 0.1071275 0.9874645 0.1071275 0.0125355 -0.1071275
108014 0.0115236 -0.1025673 0.9884764 0.1025673 0.9884764 0.1025673 0.0115236 -0.1025673
112960 0.0105945 -0.0981925 0.9894055 0.0981925 0.9894055 0.0981925 0.0105945 -0.0981925
118133 0.0097416 -0.0939966 0.9902584 0.0939966 0.9902584 0.0939966 0.0097416 -0.0939966
123542 0.0089586 -0.0899732 0.9910414 0.0899732 0.9910414 0.0899732 0.0089586 -0.0899732
129199 0.0082400 -0.0861161 0.9917600 0.0861161 0.9917600 0.0861161 0.0082400 -0.0861161
135116 0.0075806 -0.0824190 0.9924194 0.0824190 0.9924194 0.0824190 0.0075806 -0.0824190
141303 0.0069755 -0.0788759 0.9930245 0.0788759 0.9930245 0.0788759 0.0069755 -0.0788759
147774 0.0064203 -0.0754810 0.9935797 0.0754810 0.9935797 0.0754810 0.0064203 -0.0754810
154540 0.0059110 -0.0722287 0.9940890 0.0722287 0.9940890 0.0722287 0.0059110 -0.0722287
161617 0.0054438 -0.0691133 0.9945562 0.0691133 0.9945562 0.0691133 0.0054438 -0.0691133
169018 0.0050152 -0.0661295 0.9949848 0.0661295 0.9949848 0.0661295 0.0050152 -0.0661295
176758 0.0046221 -0.0632721 0.9953779 0.0632721 0.9953779 0.0632721 0.0046221 -0.0632721
184852 0.0042616 -0.0605360 0.9957384 0.0605360 0.9957384 0.0605360 0.0042616 -0.0605360
193316 0.0039310 -0.0579165 0.9960690 0.0579165 0.9960690 0.0579165 0.0039310 -0.0579165
202169 0.0036277 -0.0554087 0.9963723 0.0554087 0.9963723 0.0554087 0.0036277 -0.0554087
211427 0.0033496 -0.0530082 0.9966504 0.0530082 0.9966504 0.0530082 0.0033496 -0.0530082
221108 0.0030945 -0.0507105 0.9969055 0.0507105 0.9969055 0.0507105 0.0030945 -0.0507105
231233 0.0028605 -0.0485114 0.9971395 0.0485114 0.9971395 0.0485114 0.0028605 -0.0485114
241822 0.0026458 -0.0464068 0.9973542 0.0464068 0.9973542 0.0464068 0.0026458 -0.0464068
252896 0.0024487 -0.0443929 0.9975513 0.0443929 0.9975513 0.0443929 0.0024487 -0.0443929
264476 0.0022679 -0.0424657 0.9977321 0.0424657 0.9977321 0.0424657 0.0022679 -0.0424657
276587 0.0021020 -0.0406217 0.9978980 0.0406217 0.9978980 0.0406217 0.0021020 -0.0406217
289253 0.0019496 -0.0388574 0.9980504 0.0388574 0.9980504 0.0388574 0.0019496 -0.0388574
302498 0.0018096 -0.0371694 0.9981904 0.0371694 0.9981904 0.0371694 0.0018096 -0.0371694
316350 0.0016810 -0.0355544 0.9983190 0.0355544 0.9983190 0.0355544 0.0016810 -0.0355544
330837 0.0015628 -0.0340094 0.9984372 0.0340094 0.9984372 0.0340094 0.0015628 -0.0340094
345986 0.0014540 -0.0325313 0.9985460 0.0325313 0.9985460 0.0325313 0.0014540 -0.0325313
361830 0.0013540 -0.0311173 0.9986460 0.0311173 0.9986460 0.0311173 0.0013540 -0.0311173
378399 0.0012619 -0.0297647 0.9987381 0.0297647 0.9987381 0.0297647 0.0012619 -0.0297647
395726 0.0011771 -0.0284706 0.9988229 0.0284706 0.9988229 0.0284706 0.0011771 -0.0284706
413847 0.0010990 -0.0272328 0.9989010 0.0272328 0.9989010 0.0272328 0.0010990 -0.0272328
432798 0.0010269 -0.0260486 0.9989731 0.0260486 0.9989731 0.0260486 0.0010269 -0.0260486
452617 0.0009604 -0.0249158 0.9990396 0.0249158 0.9990396 0.0249158 0.0009604 -0.0249158
473344 0.0008991 -0.0238321 0.9991009 0.0238321 0.9991009 0.0238321 0.0008991 -0.0238321
495019 0.0008424 -0.0227954 0.9991576 0.0227954 0.9991576 0.0227954 0.0008424 -0.0227954
517687 0.0007900 -0.0218037 0.9992100 0.0218037 0.9992100 0.0218037 0.0007900 -0.0218037
541393 0.0007415 -0.0208550 0.9992585 0.0208550 0.9992585 0.0208550 0.0007415 -0.0208550
566185 0.0006967 -0.0199473 0.9993033 0.0199473 0.9993033 0.0199473 0.0006967 -0.0199473
592111 0.0006552 -0.0190790 0.9993448 0.0190790 0.9993448 0.0190790 0.0006552 -0.0190790
619225 0.0006168 -0.0182482 0.9993832 0.0182482 0.9993832 0.0182482 0.0006168 -0.0182482
647581 0.0005812 -0.0174534 0.9994188 0.0174534 0.9994188 0.0174534 0.0005812 -0.0174534
677235 0.0005483 -0.0166930 0.9994517 0.0166930 0.9994517 0.0166930 0.0005483 -0.0166930
708247 0.0005177 -0.0159654 0.9994823 0.0159654 0.9994823 0.0159654 0.0005177 -0.0159654
740679 0.0004894 -0.0152693 0.9995106 0.0152693 0.9995106 0.0152693 0.0004894 -0.0152693
774597 0.0004632 -0.0146033 0.9995368 0.0146033 0.9995368 0.0146033 0.0004632 -0.0146033
810067 0.0004389 -0.0139660 0.9995611 0.0139660 0.9995611 0.0139660 0.0004389 -0.0139660
847162 0.0004163 -0.0133563 0.9995837 0.0133563 0.9995837 0.0133563 0.0004163 -0.0133563
885955 0.0003954 -0.0127729 0.9996046 0.0127729 0.9996046 0.0127729 0.0003954 -0.0127729
926525 0.0003761 -0.0122146 0.9996239 0.0122146 0.9996239 0.0122146 0.0003761 -0.0122146
968953 0.0003582 -0.0116804 0.9996418 0.0116804 0.9996418 0.0116804 0.0003582 -0.0116804
1013323 0.0003416 -0.0111693 0.9996584 0.0111693 0.9996584 0.0111693 0.0003416 -0.0111693
1059725 0.0003262 -0.0106802 0.9996738 0.0106802 0.9996738 0.0106802 0.0003262 -0.0106802
1108252 0.0003119 -0.0102121 0.9996881 0.0102121 0.9996881 0.0102121 0.0003119 -0.0102121
1159002 0.0002988 -0.0097643 0.9997012 0.0097643 0.9997012 0.0097643 0.0002988 -0.0097643
1212075 0.0002866 -0.0093357 0.9997134 0.0093357 0.9997134 0.0093357 0.0002866 -0.0093357
1267578 0.0002753 -0.0089256 0.9997247 0.0089256 0.9997247 0.0089256 0.0002753 -0.0089256
1325623 0.0002649 -0.0085332 0.9997351 0.0085332 0.9997351 0.0085332 0.0002649 -0.0085332
1386327 0.0002553 -0.0081576 0.9997447 0.0081576 0.9997447 0.0081576 0.0002553 -0.0081576
1449809 0.0002464 -0.0077982 0.9997536 0.0077982 0.9997536 0.0077982 0.0002464 -0.0077982
1516199 0.0002381 -0.0074543 0.9997619 0.0074543 0.9997619 0.0074543 0.0002381 -0.0074543
1585629 0.0002305 -0.0071251 0.9997695 0.0071251 0.9997695 0.0071251 0.0002305 -0.0071251
1658239 0.0002235 -0.0068100 0.9997765 0.0068100 0.9997765 0.0068100 0.0002235 -0.0068100
1734173 0.0002170 -0.0065085 0.9997830 0.0065085 0.9997830 0.0065085 0.0002170 -0.0065085
1813585 0.0002110 -0.0062199 0.9997890 0.0062199 0.9997890 0.0062199 0.0002110 -0.0062199
1896632 0.0002054 -0.0059436 0.9997946 0.0059436 0.9997946 0.0059436 0.0002054 -0.0059436
1983483 0.0002003 -0.0056792 0.9997997 0.0056792 0.9997997 0.0056792 0.0002003 -0.0056792
2074311 0.0001955 -0.0054260 0.9998045 0.0054260 0.9998045 0.0054260 0.0001955 -0.0054260
