!Murata Part Number: GRM188R71H472JA01
!These Parameters are Measured in Series Mode Connection
!Data Generated on Mar 30, 2021
!       o--ll--o
!Port1            Port2
!       o------o
!Operation Temp=25[degC], DC Bias Voltage=0[V]
!Freq. Start=100[Hz] Stop=6[GHz] 401[Steps]
# Hz S RI R 50
!Freq.(Hz) S11(Real) S11(Imag) S21(Real) S21(Imag) S12(Real) S12(Imag) S22(Real) S22(Imag)
100 0.9999986 -0.0002930 0.0000014 0.0002930 0.0000014 0.0002930 0.9999986 -0.0002930
105 0.9999986 -0.0003064 0.0000014 0.0003064 0.0000014 0.0003064 0.9999986 -0.0003064
109 0.9999985 -0.0003204 0.0000015 0.0003204 0.0000015 0.0003204 0.9999985 -0.0003204
114 0.9999984 -0.0003350 0.0000016 0.0003350 0.0000016 0.0003350 0.9999984 -0.0003350
120 0.9999983 -0.0003503 0.0000017 0.0003503 0.0000017 0.0003503 0.9999983 -0.0003503
125 0.9999982 -0.0003663 0.0000018 0.0003663 0.0000018 0.0003663 0.9999982 -0.0003663
131 0.9999982 -0.0003830 0.0000018 0.0003830 0.0000018 0.0003830 0.9999982 -0.0003830
137 0.9999981 -0.0004005 0.0000019 0.0004005 0.0000019 0.0004005 0.9999981 -0.0004005
143 0.9999980 -0.0004188 0.0000020 0.0004188 0.0000020 0.0004188 0.9999980 -0.0004188
150 0.9999979 -0.0004379 0.0000021 0.0004379 0.0000021 0.0004379 0.9999979 -0.0004379
156 0.9999978 -0.0004578 0.0000022 0.0004578 0.0000022 0.0004578 0.9999978 -0.0004578
164 0.9999976 -0.0004787 0.0000024 0.0004787 0.0000024 0.0004787 0.9999976 -0.0004787
171 0.9999975 -0.0005006 0.0000025 0.0005006 0.0000025 0.0005006 0.9999975 -0.0005006
179 0.9999974 -0.0005234 0.0000026 0.0005234 0.0000026 0.0005234 0.9999974 -0.0005234
187 0.9999973 -0.0005473 0.0000027 0.0005473 0.0000027 0.0005473 0.9999973 -0.0005473
196 0.9999972 -0.0005723 0.0000028 0.0005723 0.0000028 0.0005723 0.9999972 -0.0005723
205 0.9999970 -0.0005984 0.0000030 0.0005984 0.0000030 0.0005984 0.9999970 -0.0005984
214 0.9999969 -0.0006258 0.0000031 0.0006258 0.0000031 0.0006258 0.9999969 -0.0006258
224 0.9999967 -0.0006543 0.0000033 0.0006543 0.0000033 0.0006543 0.9999967 -0.0006543
234 0.9999965 -0.0006842 0.0000035 0.0006842 0.0000035 0.0006842 0.9999965 -0.0006842
245 0.9999964 -0.0007154 0.0000036 0.0007154 0.0000036 0.0007154 0.9999964 -0.0007154
256 0.9999962 -0.0007481 0.0000038 0.0007481 0.0000038 0.0007481 0.9999962 -0.0007481
268 0.9999960 -0.0007823 0.0000040 0.0007823 0.0000040 0.0007823 0.9999960 -0.0007823
280 0.9999958 -0.0008180 0.0000042 0.0008180 0.0000042 0.0008180 0.9999958 -0.0008180
293 0.9999956 -0.0008553 0.0000044 0.0008553 0.0000044 0.0008553 0.9999956 -0.0008553
306 0.9999953 -0.0008944 0.0000047 0.0008944 0.0000047 0.0008944 0.9999953 -0.0008944
320 0.9999951 -0.0009352 0.0000049 0.0009352 0.0000049 0.0009352 0.9999951 -0.0009352
335 0.9999948 -0.0009779 0.0000052 0.0009779 0.0000052 0.0009779 0.9999948 -0.0009779
350 0.9999946 -0.0010226 0.0000054 0.0010226 0.0000054 0.0010226 0.9999946 -0.0010226
366 0.9999943 -0.0010692 0.0000057 0.0010692 0.0000057 0.0010692 0.9999943 -0.0010692
383 0.9999940 -0.0011181 0.0000060 0.0011181 0.0000060 0.0011181 0.9999940 -0.0011181
401 0.9999937 -0.0011691 0.0000063 0.0011691 0.0000063 0.0011691 0.9999937 -0.0011691
419 0.9999933 -0.0012225 0.0000067 0.0012225 0.0000067 0.0012225 0.9999933 -0.0012225
438 0.9999930 -0.0012783 0.0000070 0.0012783 0.0000070 0.0012783 0.9999930 -0.0012783
458 0.9999926 -0.0013367 0.0000074 0.0013367 0.0000074 0.0013367 0.9999926 -0.0013367
479 0.9999922 -0.0013977 0.0000078 0.0013977 0.0000078 0.0013977 0.9999922 -0.0013977
501 0.9999918 -0.0014616 0.0000082 0.0014616 0.0000082 0.0014616 0.9999918 -0.0014616
524 0.9999913 -0.0015283 0.0000087 0.0015283 0.0000087 0.0015283 0.9999913 -0.0015283
548 0.9999908 -0.0015981 0.0000092 0.0015981 0.0000092 0.0015981 0.9999908 -0.0015981
573 0.9999903 -0.0016711 0.0000097 0.0016711 0.0000097 0.0016711 0.9999903 -0.0016711
600 0.9999898 -0.0017474 0.0000102 0.0017474 0.0000102 0.0017474 0.9999898 -0.0017474
627 0.9999892 -0.0018272 0.0000108 0.0018272 0.0000108 0.0018272 0.9999892 -0.0018272
656 0.9999886 -0.0019107 0.0000114 0.0019107 0.0000114 0.0019107 0.9999886 -0.0019107
686 0.9999879 -0.0019980 0.0000121 0.0019980 0.0000121 0.0019980 0.9999879 -0.0019980
717 0.9999872 -0.0020893 0.0000128 0.0020893 0.0000128 0.0020893 0.9999872 -0.0020893
750 0.9999864 -0.0021847 0.0000136 0.0021847 0.0000136 0.0021847 0.9999864 -0.0021847
784 0.9999856 -0.0022845 0.0000144 0.0022845 0.0000144 0.0022845 0.9999856 -0.0022845
820 0.9999847 -0.0023889 0.0000153 0.0023889 0.0000153 0.0023889 0.9999847 -0.0023889
858 0.9999838 -0.0024981 0.0000162 0.0024981 0.0000162 0.0024981 0.9999838 -0.0024981
897 0.9999827 -0.0026122 0.0000173 0.0026122 0.0000173 0.0026122 0.9999827 -0.0026122
938 0.9999816 -0.0027316 0.0000184 0.0027316 0.0000184 0.0027316 0.9999816 -0.0027316
981 0.9999804 -0.0028564 0.0000196 0.0028564 0.0000196 0.0028564 0.9999804 -0.0028564
1026 0.9999791 -0.0029869 0.0000209 0.0029869 0.0000209 0.0029869 0.9999791 -0.0029869
1073 0.9999777 -0.0031234 0.0000223 0.0031234 0.0000223 0.0031234 0.9999777 -0.0031234
1122 0.9999762 -0.0032661 0.0000238 0.0032661 0.0000238 0.0032661 0.9999762 -0.0032661
1174 0.9999746 -0.0034153 0.0000254 0.0034153 0.0000254 0.0034153 0.9999746 -0.0034153
1227 0.9999728 -0.0035714 0.0000272 0.0035714 0.0000272 0.0035714 0.9999728 -0.0035714
1283 0.9999708 -0.0037346 0.0000292 0.0037346 0.0000292 0.0037346 0.9999708 -0.0037346
1342 0.9999688 -0.0039052 0.0000312 0.0039052 0.0000312 0.0039052 0.9999688 -0.0039052
1404 0.9999665 -0.0040836 0.0000335 0.0040836 0.0000335 0.0040836 0.9999665 -0.0040836
1468 0.9999640 -0.0042701 0.0000360 0.0042701 0.0000360 0.0042701 0.9999640 -0.0042701
1535 0.9999614 -0.0044652 0.0000386 0.0044652 0.0000386 0.0044652 0.9999614 -0.0044652
1606 0.9999585 -0.0046692 0.0000415 0.0046692 0.0000415 0.0046692 0.9999585 -0.0046692
1679 0.9999554 -0.0048824 0.0000446 0.0048824 0.0000446 0.0048824 0.9999554 -0.0048824
1756 0.9999520 -0.0051054 0.0000480 0.0051054 0.0000480 0.0051054 0.9999520 -0.0051054
1836 0.9999484 -0.0053386 0.0000516 0.0053386 0.0000516 0.0053386 0.9999484 -0.0053386
1920 0.9999444 -0.0055823 0.0000556 0.0055823 0.0000556 0.0055823 0.9999444 -0.0055823
2008 0.9999402 -0.0058372 0.0000598 0.0058372 0.0000598 0.0058372 0.9999402 -0.0058372
2100 0.9999355 -0.0061037 0.0000645 0.0061037 0.0000645 0.0061037 0.9999355 -0.0061037
2196 0.9999306 -0.0063823 0.0000694 0.0063823 0.0000694 0.0063823 0.9999306 -0.0063823
2297 0.9999252 -0.0066736 0.0000748 0.0066736 0.0000748 0.0066736 0.9999252 -0.0066736
2402 0.9999194 -0.0069782 0.0000806 0.0069782 0.0000806 0.0069782 0.9999194 -0.0069782
2512 0.9999131 -0.0072966 0.0000869 0.0072966 0.0000869 0.0072966 0.9999131 -0.0072966
2627 0.9999063 -0.0076296 0.0000937 0.0076296 0.0000937 0.0076296 0.9999063 -0.0076296
2748 0.9998990 -0.0079777 0.0001010 0.0079777 0.0001010 0.0079777 0.9998990 -0.0079777
2873 0.9998911 -0.0083416 0.0001089 0.0083416 0.0001089 0.0083416 0.9998911 -0.0083416
3005 0.9998826 -0.0087222 0.0001174 0.0087222 0.0001174 0.0087222 0.9998826 -0.0087222
3143 0.9998733 -0.0091200 0.0001267 0.0091200 0.0001267 0.0091200 0.9998733 -0.0091200
3287 0.9998634 -0.0095360 0.0001366 0.0095360 0.0001366 0.0095360 0.9998634 -0.0095360
3437 0.9998527 -0.0099709 0.0001473 0.0099709 0.0001473 0.0099709 0.9998527 -0.0099709
3594 0.9998411 -0.0104257 0.0001589 0.0104257 0.0001589 0.0104257 0.9998411 -0.0104257
3759 0.9998286 -0.0109012 0.0001714 0.0109012 0.0001714 0.0109012 0.9998286 -0.0109012
3931 0.9998150 -0.0113983 0.0001850 0.0113983 0.0001850 0.0113983 0.9998150 -0.0113983
4111 0.9998004 -0.0119181 0.0001996 0.0119181 0.0001996 0.0119181 0.9998004 -0.0119181
4299 0.9997846 -0.0124617 0.0002154 0.0124617 0.0002154 0.0124617 0.9997846 -0.0124617
4496 0.9997674 -0.0130300 0.0002326 0.0130300 0.0002326 0.0130300 0.9997674 -0.0130300
4702 0.9997489 -0.0136242 0.0002511 0.0136242 0.0002511 0.0136242 0.9997489 -0.0136242
4918 0.9997288 -0.0142456 0.0002712 0.0142456 0.0002712 0.0142456 0.9997288 -0.0142456
5143 0.9997070 -0.0148953 0.0002930 0.0148953 0.0002930 0.0148953 0.9997070 -0.0148953
5378 0.9996833 -0.0155747 0.0003167 0.0155747 0.0003167 0.0155747 0.9996833 -0.0155747
5625 0.9996576 -0.0162851 0.0003424 0.0162851 0.0003424 0.0162851 0.9996576 -0.0162851
5882 0.9996298 -0.0170279 0.0003702 0.0170279 0.0003702 0.0170279 0.9996298 -0.0170279
6151 0.9995994 -0.0178046 0.0004006 0.0178046 0.0004006 0.0178046 0.9995994 -0.0178046
6433 0.9995665 -0.0186168 0.0004335 0.0186168 0.0004335 0.0186168 0.9995665 -0.0186168
6728 0.9995306 -0.0194660 0.0004694 0.0194660 0.0004694 0.0194660 0.9995306 -0.0194660
7036 0.9994916 -0.0203540 0.0005084 0.0203540 0.0005084 0.0203540 0.9994916 -0.0203540
7358 0.9994490 -0.0212825 0.0005510 0.0212825 0.0005510 0.0212825 0.9994490 -0.0212825
7695 0.9994027 -0.0222533 0.0005973 0.0222533 0.0005973 0.0222533 0.9994027 -0.0222533
8047 0.9993522 -0.0232684 0.0006478 0.0232684 0.0006478 0.0232684 0.9993522 -0.0232684
8416 0.9992972 -0.0243298 0.0007028 0.0243298 0.0007028 0.0243298 0.9992972 -0.0243298
8801 0.9992372 -0.0254395 0.0007628 0.0254395 0.0007628 0.0254395 0.9992372 -0.0254395
9204 0.9991718 -0.0265998 0.0008282 0.0265998 0.0008282 0.0265998 0.9991718 -0.0265998
9626 0.9991004 -0.0278128 0.0008996 0.0278128 0.0008996 0.0278128 0.9991004 -0.0278128
10066 0.9990224 -0.0290811 0.0009776 0.0290811 0.0009776 0.0290811 0.9990224 -0.0290811
10527 0.9989374 -0.0304070 0.0010626 0.0304070 0.0010626 0.0304070 0.9989374 -0.0304070
11009 0.9988446 -0.0317931 0.0011554 0.0317931 0.0011554 0.0317931 0.9988446 -0.0317931
11514 0.9987433 -0.0332422 0.0012567 0.0332422 0.0012567 0.0332422 0.9987433 -0.0332422
12041 0.9986327 -0.0347569 0.0013673 0.0347569 0.0013673 0.0347569 0.9986327 -0.0347569
12592 0.9985120 -0.0363403 0.0014880 0.0363403 0.0014880 0.0363403 0.9985120 -0.0363403
13169 0.9983802 -0.0379954 0.0016198 0.0379954 0.0016198 0.0379954 0.9983802 -0.0379954
13772 0.9982363 -0.0397253 0.0017637 0.0397253 0.0017637 0.0397253 0.9982363 -0.0397253
14402 0.9980793 -0.0415334 0.0019207 0.0415334 0.0019207 0.0415334 0.9980793 -0.0415334
15062 0.9979078 -0.0434230 0.0020922 0.0434230 0.0020922 0.0434230 0.9979078 -0.0434230
15752 0.9977207 -0.0453977 0.0022793 0.0453977 0.0022793 0.0453977 0.9977207 -0.0453977
16473 0.9975164 -0.0474613 0.0024836 0.0474613 0.0024836 0.0474613 0.9975164 -0.0474613
17227 0.9972934 -0.0496176 0.0027066 0.0496176 0.0027066 0.0496176 0.9972934 -0.0496176
18016 0.9970500 -0.0518705 0.0029500 0.0518705 0.0029500 0.0518705 0.9970500 -0.0518705
18841 0.9967844 -0.0542243 0.0032156 0.0542243 0.0032156 0.0542243 0.9967844 -0.0542243
19704 0.9964946 -0.0566833 0.0035054 0.0566833 0.0035054 0.0566833 0.9964946 -0.0566833
20606 0.9961783 -0.0592519 0.0038217 0.0592519 0.0038217 0.0592519 0.9961783 -0.0592519
21550 0.9958333 -0.0619348 0.0041667 0.0619348 0.0041667 0.0619348 0.9958333 -0.0619348
22537 0.9954569 -0.0647367 0.0045431 0.0647367 0.0045431 0.0647367 0.9954569 -0.0647367
23569 0.9950464 -0.0676627 0.0049536 0.0676627 0.0049536 0.0676627 0.9950464 -0.0676627
24648 0.9945986 -0.0707180 0.0054014 0.0707180 0.0054014 0.0707180 0.9945986 -0.0707180
25777 0.9941103 -0.0739077 0.0058897 0.0739077 0.0058897 0.0739077 0.9941103 -0.0739077
26957 0.9935778 -0.0772374 0.0064222 0.0772374 0.0064222 0.0772374 0.9935778 -0.0772374
28191 0.9929972 -0.0807128 0.0070028 0.0807128 0.0070028 0.0807128 0.9929972 -0.0807128
29482 0.9923643 -0.0843396 0.0076357 0.0843396 0.0076357 0.0843396 0.9923643 -0.0843396
30832 0.9916744 -0.0881239 0.0083256 0.0881239 0.0083256 0.0881239 0.9916744 -0.0881239
32244 0.9909224 -0.0920716 0.0090776 0.0920716 0.0090776 0.0920716 0.9909224 -0.0920716
33721 0.9901029 -0.0961892 0.0098971 0.0961892 0.0098971 0.0961892 0.9901029 -0.0961892
35265 0.9892098 -0.1004829 0.0107902 0.1004829 0.0107902 0.1004829 0.9892098 -0.1004829
36880 0.9882368 -0.1049593 0.0117632 0.1049593 0.0117632 0.1049593 0.9882368 -0.1049593
38569 0.9871768 -0.1096249 0.0128232 0.1096249 0.0128232 0.1096249 0.9871768 -0.1096249
40335 0.9860222 -0.1144865 0.0139778 0.1144865 0.0139778 0.1144865 0.9860222 -0.1144865
42182 0.9847647 -0.1195506 0.0152353 0.1195506 0.0152353 0.1195506 0.9847647 -0.1195506
44113 0.9833954 -0.1248240 0.0166046 0.1248240 0.0166046 0.1248240 0.9833954 -0.1248240
46134 0.9819046 -0.1303134 0.0180954 0.1303134 0.0180954 0.1303134 0.9819046 -0.1303134
48246 0.9802819 -0.1360253 0.0197181 0.1360253 0.0197181 0.1360253 0.9802819 -0.1360253
50455 0.9785160 -0.1419661 0.0214840 0.1419661 0.0214840 0.1419661 0.9785160 -0.1419661
52766 0.9765946 -0.1481420 0.0234054 0.1481420 0.0234054 0.1481420 0.9765946 -0.1481420
55182 0.9745048 -0.1545590 0.0254952 0.1545590 0.0254952 0.1545590 0.9745048 -0.1545590
57709 0.9722324 -0.1612228 0.0277676 0.1612228 0.0277676 0.1612228 0.9722324 -0.1612228
60352 0.9697624 -0.1681384 0.0302376 0.1681384 0.0302376 0.1681384 0.9697624 -0.1681384
63115 0.9670785 -0.1753104 0.0329215 0.1753104 0.0329215 0.1753104 0.9670785 -0.1753104
66005 0.9641636 -0.1827427 0.0358364 0.1827427 0.0358364 0.1827427 0.9641636 -0.1827427
69028 0.9609992 -0.1904385 0.0390008 0.1904385 0.0390008 0.1904385 0.9609992 -0.1904385
72189 0.9575657 -0.1984001 0.0424343 0.1984001 0.0424343 0.1984001 0.9575657 -0.1984001
75495 0.9538425 -0.2066284 0.0461575 0.2066284 0.0461575 0.2066284 0.9538425 -0.2066284
78952 0.9498077 -0.2151233 0.0501923 0.2151233 0.0501923 0.2151233 0.9498077 -0.2151233
82567 0.9454381 -0.2238833 0.0545619 0.2238833 0.0545619 0.2238833 0.9454381 -0.2238833
86348 0.9407097 -0.2329052 0.0592903 0.2329052 0.0592903 0.2329052 0.9407097 -0.2329052
90302 0.9355973 -0.2421838 0.0644027 0.2421838 0.0644027 0.2421838 0.9355973 -0.2421838
94437 0.9300745 -0.2517121 0.0699255 0.2517121 0.0699255 0.2517121 0.9300745 -0.2517121
98762 0.9241143 -0.2614807 0.0758857 0.2614807 0.0758857 0.2614807 0.9241143 -0.2614807
103284 0.9176888 -0.2714775 0.0823112 0.2714775 0.0823112 0.2714775 0.9176888 -0.2714775
108014 0.9107697 -0.2816880 0.0892303 0.2816880 0.0892303 0.2816880 0.9107697 -0.2816880
112960 0.9033282 -0.2920944 0.0966718 0.2920944 0.0966718 0.2920944 0.9033282 -0.2920944
118133 0.8953355 -0.3026759 0.1046645 0.3026759 0.1046645 0.3026759 0.8953355 -0.3026759
123542 0.8867630 -0.3134079 0.1132370 0.3134079 0.1132370 0.3134079 0.8867630 -0.3134079
129199 0.8775827 -0.3242626 0.1224173 0.3242626 0.1224173 0.3242626 0.8775827 -0.3242626
135116 0.8677675 -0.3352080 0.1322325 0.3352080 0.1322325 0.3352080 0.8677675 -0.3352080
141303 0.8572919 -0.3462084 0.1427081 0.3462084 0.1427081 0.3462084 0.8572919 -0.3462084
147774 0.8461323 -0.3572239 0.1538677 0.3572239 0.1538677 0.3572239 0.8461323 -0.3572239
154540 0.8342675 -0.3682106 0.1657325 0.3682106 0.1657325 0.3682106 0.8342675 -0.3682106
161617 0.8216794 -0.3791206 0.1783206 0.3791206 0.1783206 0.3791206 0.8216794 -0.3791206
169018 0.8083539 -0.3899023 0.1916461 0.3899023 0.1916461 0.3899023 0.8083539 -0.3899023
176758 0.7942810 -0.4005003 0.2057190 0.4005003 0.2057190 0.4005003 0.7942810 -0.4005003
184852 0.7794558 -0.4108558 0.2205442 0.4108558 0.2205442 0.4108558 0.7794558 -0.4108558
193316 0.7638789 -0.4209076 0.2361211 0.4209076 0.2361211 0.4209076 0.7638789 -0.4209076
202169 0.7475574 -0.4305919 0.2524426 0.4305919 0.2524426 0.4305919 0.7475574 -0.4305919
211427 0.7305049 -0.4398434 0.2694951 0.4398434 0.2694951 0.4398434 0.7305049 -0.4398434
221108 0.7127425 -0.4485963 0.2872575 0.4485963 0.2872575 0.4485963 0.7127425 -0.4485963
231233 0.6942987 -0.4567847 0.3057013 0.4567847 0.3057013 0.4567847 0.6942987 -0.4567847
241822 0.6752099 -0.4643442 0.3247901 0.4643442 0.3247901 0.4643442 0.6752099 -0.4643442
252896 0.6555201 -0.4712125 0.3444799 0.4712125 0.3444799 0.4712125 0.6555201 -0.4712125
264476 0.6352813 -0.4773308 0.3647187 0.4773308 0.3647187 0.4773308 0.6352813 -0.4773308
276587 0.6145529 -0.4826449 0.3854471 0.4826449 0.3854471 0.4826449 0.6145529 -0.4826449
289253 0.5934009 -0.4871062 0.4065991 0.4871062 0.4065991 0.4871062 0.5934009 -0.4871062
302498 0.5718978 -0.4906730 0.4281022 0.4906730 0.4281022 0.4906730 0.5718978 -0.4906730
316350 0.5501211 -0.4933110 0.4498789 0.4933110 0.4498789 0.4933110 0.5501211 -0.4933110
330837 0.5281529 -0.4949945 0.4718471 0.4949945 0.4718471 0.4949945 0.5281529 -0.4949945
345986 0.5060779 -0.4957069 0.4939221 0.4957069 0.4939221 0.4957069 0.5060779 -0.4957069
361830 0.4839827 -0.4954410 0.5160173 0.4954410 0.5160173 0.4954410 0.4839827 -0.4954410
378399 0.4619545 -0.4941994 0.5380455 0.4941994 0.5380455 0.4941994 0.4619545 -0.4941994
395726 0.4400791 -0.4919940 0.5599209 0.4919940 0.5599209 0.4919940 0.4400791 -0.4919940
413847 0.4184402 -0.4888464 0.5815598 0.4888464 0.5815598 0.4888464 0.4184402 -0.4888464
432798 0.3971177 -0.4847867 0.6028823 0.4847867 0.6028823 0.4847867 0.3971177 -0.4847867
452617 0.3761869 -0.4798535 0.6238131 0.4798535 0.6238131 0.4798535 0.3761869 -0.4798535
473344 0.3557173 -0.4740923 0.6442827 0.4740923 0.6442827 0.4740923 0.3557173 -0.4740923
495019 0.3357716 -0.4675550 0.6642284 0.4675550 0.6642284 0.4675550 0.3357716 -0.4675550
517687 0.3164054 -0.4602988 0.6835946 0.4602988 0.6835946 0.4602988 0.3164054 -0.4602988
541393 0.2976668 -0.4523848 0.7023332 0.4523848 0.7023332 0.4523848 0.2976668 -0.4523848
566185 0.2795958 -0.4438770 0.7204042 0.4438770 0.7204042 0.4438770 0.2795958 -0.4438770
592111 0.2622244 -0.4348411 0.7377756 0.4348411 0.7377756 0.4348411 0.2622244 -0.4348411
619225 0.2455771 -0.4253437 0.7544229 0.4253437 0.7544229 0.4253437 0.2455771 -0.4253437
647581 0.2296705 -0.4154507 0.7703295 0.4154507 0.7703295 0.4154507 0.2296705 -0.4154507
677235 0.2145145 -0.4052271 0.7854855 0.4052271 0.7854855 0.4052271 0.2145145 -0.4052271
708247 0.2001122 -0.3947357 0.7998878 0.3947357 0.7998878 0.3947357 0.2001122 -0.3947357
740679 0.1864607 -0.3840367 0.8135393 0.3840367 0.8135393 0.3840367 0.1864607 -0.3840367
774597 0.1735518 -0.3731872 0.8264482 0.3731872 0.8264482 0.3731872 0.1735518 -0.3731872
810067 0.1613726 -0.3622406 0.8386274 0.3622406 0.8386274 0.3622406 0.1613726 -0.3622406
847162 0.1499063 -0.3512465 0.8500937 0.3512465 0.8500937 0.3512465 0.1499063 -0.3512465
885955 0.1391325 -0.3402505 0.8608675 0.3402505 0.8608675 0.3402505 0.1391325 -0.3402505
926525 0.1290284 -0.3292941 0.8709716 0.3292941 0.8709716 0.3292941 0.1290284 -0.3292941
968953 0.1195688 -0.3184145 0.8804312 0.3184145 0.8804312 0.3184145 0.1195688 -0.3184145
1013323 0.1107270 -0.3076449 0.8892730 0.3076449 0.8892730 0.3076449 0.1107270 -0.3076449
1059725 0.1024751 -0.2970147 0.8975249 0.2970147 0.8975249 0.2970147 0.1024751 -0.2970147
1108252 0.0947847 -0.2865496 0.9052153 0.2865496 0.9052153 0.2865496 0.0947847 -0.2865496
1159002 0.0876270 -0.2762714 0.9123730 0.2762714 0.9123730 0.2762714 0.0876270 -0.2762714
1212075 0.0809731 -0.2661989 0.9190269 0.2661989 0.9190269 0.2661989 0.0809731 -0.2661989
1267578 0.0747946 -0.2563478 0.9252054 0.2563478 0.9252054 0.2563478 0.0747946 -0.2563478
1325623 0.0690637 -0.2467307 0.9309363 0.2467307 0.9309363 0.2467307 0.0690637 -0.2467307
1386327 0.0637530 -0.2373580 0.9362470 0.2373580 0.9362470 0.2373580 0.0637530 -0.2373580
1449809 0.0588363 -0.2282375 0.9411637 0.2282375 0.9411637 0.2282375 0.0588363 -0.2282375
1516199 0.0542880 -0.2193749 0.9457120 0.2193749 0.9457120 0.2193749 0.0542880 -0.2193749
1585629 0.0500840 -0.2107742 0.9499160 0.2107742 0.9499160 0.2107742 0.0500840 -0.2107742
1658239 0.0462010 -0.2024375 0.9537990 0.2024375 0.9537990 0.2024375 0.0462010 -0.2024375
1734173 0.0426168 -0.1943656 0.9573832 0.1943656 0.9573832 0.1943656 0.0426168 -0.1943656
1813585 0.0393106 -0.1865580 0.9606894 0.1865580 0.9606894 0.1865580 0.0393106 -0.1865580
1896632 0.0362625 -0.1790131 0.9637375 0.1790131 0.9637375 0.1790131 0.0362625 -0.1790131
1983483 0.0334539 -0.1717282 0.9665461 0.1717282 0.9665461 0.1717282 0.0334539 -0.1717282
2074311 0.0308672 -0.1646999 0.9691328 0.1646999 0.9691328 0.1646999 0.0308672 -0.1646999
