!Murata Part Number: GRM188R71E823KA01
!These Parameters are Measured in Series Mode Connection
!Data Generated on Mar 30, 2021
!       o--ll--o
!Port1            Port2
!       o------o
!Operation Temp=25[degC], DC Bias Voltage=0[V]
!Freq. Start=100[Hz] Stop=6[GHz] 401[Steps]
# Hz S RI R 50
!Freq.(Hz) S11(Real) S11(Imag) S21(Real) S21(Imag) S12(Real) S12(Imag) S22(Real) S22(Imag)
100 0.9999496 -0.0051268 0.0000504 0.0051268 0.0000504 0.0051268 0.9999496 -0.0051268
105 0.9999462 -0.0053608 0.0000538 0.0053608 0.0000538 0.0053608 0.9999462 -0.0053608
109 0.9999424 -0.0056055 0.0000576 0.0056055 0.0000576 0.0056055 0.9999424 -0.0056055
114 0.9999384 -0.0058614 0.0000616 0.0058614 0.0000616 0.0058614 0.9999384 -0.0058614
120 0.9999340 -0.0061290 0.0000660 0.0061290 0.0000660 0.0061290 0.9999340 -0.0061290
125 0.9999292 -0.0064088 0.0000708 0.0064088 0.0000708 0.0064088 0.9999292 -0.0064088
131 0.9999241 -0.0067014 0.0000759 0.0067014 0.0000759 0.0067014 0.9999241 -0.0067014
137 0.9999185 -0.0070073 0.0000815 0.0070073 0.0000815 0.0070073 0.9999185 -0.0070073
143 0.9999125 -0.0073272 0.0000875 0.0073272 0.0000875 0.0073272 0.9999125 -0.0073272
150 0.9999060 -0.0076617 0.0000940 0.0076617 0.0000940 0.0076617 0.9999060 -0.0076617
156 0.9998989 -0.0080114 0.0001011 0.0080114 0.0001011 0.0080114 0.9998989 -0.0080114
164 0.9998912 -0.0083771 0.0001088 0.0083771 0.0001088 0.0083771 0.9998912 -0.0083771
171 0.9998829 -0.0087595 0.0001171 0.0087595 0.0001171 0.0087595 0.9998829 -0.0087595
179 0.9998739 -0.0091593 0.0001261 0.0091593 0.0001261 0.0091593 0.9998739 -0.0091593
187 0.9998642 -0.0095774 0.0001358 0.0095774 0.0001358 0.0095774 0.9998642 -0.0095774
196 0.9998536 -0.0100145 0.0001464 0.0100145 0.0001464 0.0100145 0.9998536 -0.0100145
205 0.9998422 -0.0104715 0.0001578 0.0104715 0.0001578 0.0104715 0.9998422 -0.0104715
214 0.9998298 -0.0109494 0.0001702 0.0109494 0.0001702 0.0109494 0.9998298 -0.0109494
224 0.9998164 -0.0114491 0.0001836 0.0114491 0.0001836 0.0114491 0.9998164 -0.0114491
234 0.9998018 -0.0119715 0.0001982 0.0119715 0.0001982 0.0119715 0.9998018 -0.0119715
245 0.9997860 -0.0125178 0.0002140 0.0125178 0.0002140 0.0125178 0.9997860 -0.0125178
256 0.9997688 -0.0130890 0.0002312 0.0130890 0.0002312 0.0130890 0.9997688 -0.0130890
268 0.9997502 -0.0136862 0.0002498 0.0136862 0.0002498 0.0136862 0.9997502 -0.0136862
280 0.9997300 -0.0143107 0.0002700 0.0143107 0.0002700 0.0143107 0.9997300 -0.0143107
293 0.9997081 -0.0149637 0.0002919 0.0149637 0.0002919 0.0149637 0.9997081 -0.0149637
306 0.9996843 -0.0156464 0.0003157 0.0156464 0.0003157 0.0156464 0.9996843 -0.0156464
320 0.9996584 -0.0163603 0.0003416 0.0163603 0.0003416 0.0163603 0.9996584 -0.0163603
335 0.9996302 -0.0171067 0.0003698 0.0171067 0.0003698 0.0171067 0.9996302 -0.0171067
350 0.9995996 -0.0178872 0.0004004 0.0178872 0.0004004 0.0178872 0.9995996 -0.0178872
366 0.9995663 -0.0187033 0.0004337 0.0187033 0.0004337 0.0187033 0.9995663 -0.0187033
383 0.9995301 -0.0195565 0.0004699 0.0195565 0.0004699 0.0195565 0.9995301 -0.0195565
401 0.9994907 -0.0204487 0.0005093 0.0204487 0.0005093 0.0204487 0.9994907 -0.0204487
419 0.9994478 -0.0213815 0.0005522 0.0213815 0.0005522 0.0213815 0.9994478 -0.0213815
438 0.9994010 -0.0223569 0.0005990 0.0223569 0.0005990 0.0223569 0.9994010 -0.0223569
458 0.9993500 -0.0233766 0.0006500 0.0233766 0.0006500 0.0233766 0.9993500 -0.0233766
479 0.9992945 -0.0244428 0.0007055 0.0244428 0.0007055 0.0244428 0.9992945 -0.0244428
501 0.9992340 -0.0255576 0.0007660 0.0255576 0.0007660 0.0255576 0.9992340 -0.0255576
524 0.9991680 -0.0267230 0.0008320 0.0267230 0.0008320 0.0267230 0.9991680 -0.0267230
548 0.9990960 -0.0279415 0.0009040 0.0279415 0.0009040 0.0279415 0.9990960 -0.0279415
573 0.9990175 -0.0292153 0.0009825 0.0292153 0.0009825 0.0292153 0.9990175 -0.0292153
600 0.9989319 -0.0305470 0.0010681 0.0305470 0.0010681 0.0305470 0.9989319 -0.0305470
627 0.9988385 -0.0319391 0.0011615 0.0319391 0.0011615 0.0319391 0.9988385 -0.0319391
656 0.9987366 -0.0333944 0.0012634 0.0333944 0.0012634 0.0333944 0.9987366 -0.0333944
686 0.9986255 -0.0349157 0.0013745 0.0349157 0.0013745 0.0349157 0.9986255 -0.0349157
717 0.9985042 -0.0365058 0.0014958 0.0365058 0.0014958 0.0365058 0.9985042 -0.0365058
750 0.9983718 -0.0381678 0.0016282 0.0381678 0.0016282 0.0381678 0.9983718 -0.0381678
784 0.9982275 -0.0399050 0.0017725 0.0399050 0.0017725 0.0399050 0.9982275 -0.0399050
820 0.9980699 -0.0417206 0.0019301 0.0417206 0.0019301 0.0417206 0.9980699 -0.0417206
858 0.9978980 -0.0436180 0.0021020 0.0436180 0.0021020 0.0436180 0.9978980 -0.0436180
897 0.9977105 -0.0456010 0.0022895 0.0456010 0.0022895 0.0456010 0.9977105 -0.0456010
938 0.9975059 -0.0476731 0.0024941 0.0476731 0.0024941 0.0476731 0.9975059 -0.0476731
981 0.9972827 -0.0498383 0.0027173 0.0498383 0.0027173 0.0498383 0.9972827 -0.0498383
1026 0.9970393 -0.0521006 0.0029607 0.0521006 0.0029607 0.0521006 0.9970393 -0.0521006
1073 0.9967737 -0.0544642 0.0032263 0.0544642 0.0032263 0.0544642 0.9967737 -0.0544642
1122 0.9964840 -0.0569335 0.0035160 0.0569335 0.0035160 0.0569335 0.9964840 -0.0569335
1174 0.9961681 -0.0595129 0.0038319 0.0595129 0.0038319 0.0595129 0.9961681 -0.0595129
1227 0.9958235 -0.0622072 0.0041765 0.0622072 0.0041765 0.0622072 0.9958235 -0.0622072
1283 0.9954478 -0.0650213 0.0045522 0.0650213 0.0045522 0.0650213 0.9954478 -0.0650213
1342 0.9950380 -0.0679601 0.0049620 0.0679601 0.0049620 0.0679601 0.9950380 -0.0679601
1404 0.9945912 -0.0710289 0.0054088 0.0710289 0.0054088 0.0710289 0.9945912 -0.0710289
1468 0.9941039 -0.0742331 0.0058961 0.0742331 0.0058961 0.0742331 0.9941039 -0.0742331
1535 0.9935727 -0.0775782 0.0064273 0.0775782 0.0064273 0.0775782 0.9935727 -0.0775782
1606 0.9929934 -0.0810700 0.0070066 0.0810700 0.0070066 0.0810700 0.9929934 -0.0810700
1679 0.9923619 -0.0847144 0.0076381 0.0847144 0.0076381 0.0847144 0.9923619 -0.0847144
1756 0.9916735 -0.0885173 0.0083265 0.0885173 0.0083265 0.0885173 0.9916735 -0.0885173
1836 0.9909229 -0.0924851 0.0090771 0.0924851 0.0090771 0.0924851 0.9909229 -0.0924851
1920 0.9901048 -0.0966241 0.0098952 0.0966241 0.0098952 0.0966241 0.9901048 -0.0966241
2008 0.9892130 -0.1009407 0.0107870 0.1009407 0.0107870 0.1009407 0.9892130 -0.1009407
2100 0.9882411 -0.1054416 0.0117589 0.1054416 0.0117589 0.1054416 0.9882411 -0.1054416
2196 0.9871818 -0.1101334 0.0128182 0.1101334 0.0128182 0.1101334 0.9871818 -0.1101334
2297 0.9860274 -0.1150229 0.0139726 0.1150229 0.0139726 0.1150229 0.9860274 -0.1150229
2402 0.9847696 -0.1201169 0.0152304 0.1201169 0.0152304 0.1201169 0.9847696 -0.1201169
2512 0.9833994 -0.1254220 0.0166006 0.1254220 0.0166006 0.1254220 0.9833994 -0.1254220
2627 0.9819067 -0.1309451 0.0180933 0.1309451 0.0180933 0.1309451 0.9819067 -0.1309451
2748 0.9802812 -0.1366927 0.0197188 0.1366927 0.0197188 0.1366927 0.9802812 -0.1366927
2873 0.9785113 -0.1426714 0.0214887 0.1426714 0.0214887 0.1426714 0.9785113 -0.1426714
3005 0.9765846 -0.1488874 0.0234154 0.1488874 0.0234154 0.1488874 0.9765846 -0.1488874
3143 0.9744879 -0.1553467 0.0255121 0.1553467 0.0255121 0.1553467 0.9744879 -0.1553467
3287 0.9722068 -0.1620549 0.0277932 0.1620549 0.0277932 0.1620549 0.9722068 -0.1620549
3437 0.9697262 -0.1690171 0.0302738 0.1690171 0.0302738 0.1690171 0.9697262 -0.1690171
3594 0.9670295 -0.1762380 0.0329705 0.1762380 0.0329705 0.1762380 0.9670295 -0.1762380
3759 0.9640993 -0.1837214 0.0359007 0.1837214 0.0359007 0.1837214 0.9640993 -0.1837214
3931 0.9609169 -0.1914704 0.0390831 0.1914704 0.0390831 0.1914704 0.9609169 -0.1914704
4111 0.9574625 -0.1994872 0.0425375 0.1994872 0.0425375 0.1994872 0.9574625 -0.1994872
4299 0.9537151 -0.2077728 0.0462849 0.2077728 0.0462849 0.2077728 0.9537151 -0.2077728
4496 0.9496525 -0.2163268 0.0503475 0.2163268 0.0503475 0.2163268 0.9496525 -0.2163268
4702 0.9452514 -0.2251477 0.0547486 0.2251477 0.0547486 0.2251477 0.9452514 -0.2251477
4918 0.9404873 -0.2342319 0.0595127 0.2342319 0.0595127 0.2342319 0.9404873 -0.2342319
5143 0.9353346 -0.2435741 0.0646654 0.2435741 0.0646654 0.2435741 0.9353346 -0.2435741
5378 0.9297667 -0.2531671 0.0702333 0.2531671 0.0702333 0.2531671 0.9297667 -0.2531671
5625 0.9237564 -0.2630010 0.0762436 0.2630010 0.0762436 0.2630010 0.9237564 -0.2630010
5882 0.9172755 -0.2730636 0.0827245 0.2730636 0.0827245 0.2730636 0.9172755 -0.2730636
6151 0.9102951 -0.2833397 0.0897049 0.2833397 0.0897049 0.2833397 0.9102951 -0.2833397
6433 0.9027865 -0.2938111 0.0972135 0.2938111 0.0972135 0.2938111 0.9027865 -0.2938111
6728 0.8947205 -0.3044563 0.1052795 0.3044563 0.1052795 0.3044563 0.8947205 -0.3044563
7036 0.8860684 -0.3152504 0.1139316 0.3152504 0.1139316 0.3152504 0.8860684 -0.3152504
7358 0.8768020 -0.3261647 0.1231980 0.3261647 0.1231980 0.3261647 0.8768020 -0.3261647
7695 0.8668943 -0.3371665 0.1331057 0.3371665 0.1331057 0.3371665 0.8668943 -0.3371665
8047 0.8563198 -0.3482193 0.1436802 0.3482193 0.1436802 0.3482193 0.8563198 -0.3482193
8416 0.8450550 -0.3592825 0.1549450 0.3592825 0.1549450 0.3592825 0.8450550 -0.3592825
8801 0.8330791 -0.3703114 0.1669209 0.3703114 0.1669209 0.3703114 0.8330791 -0.3703114
9204 0.8203745 -0.3812573 0.1796255 0.3812573 0.1796255 0.3812573 0.8203745 -0.3812573
9626 0.8069274 -0.3920677 0.1930726 0.3920677 0.1930726 0.3920677 0.8069274 -0.3920677
10066 0.7927285 -0.4026865 0.2072715 0.4026865 0.2072715 0.4026865 0.7927285 -0.4026865
10527 0.7777737 -0.4130544 0.2222263 0.4130544 0.2222263 0.4130544 0.7777737 -0.4130544
11009 0.7620646 -0.4231094 0.2379354 0.4231094 0.2379354 0.4231094 0.7620646 -0.4231094
11514 0.7456091 -0.4327874 0.2543909 0.4327874 0.2543909 0.4327874 0.7456091 -0.4327874
12041 0.7284221 -0.4420228 0.2715779 0.4420228 0.2715779 0.4420228 0.7284221 -0.4420228
12592 0.7105255 -0.4507496 0.2894745 0.4507496 0.2894745 0.4507496 0.7105255 -0.4507496
13169 0.6919491 -0.4589020 0.3080509 0.4589020 0.3080509 0.4589020 0.6919491 -0.4589020
13772 0.6727304 -0.4664156 0.3272696 0.4664156 0.3272696 0.4664156 0.6727304 -0.4664156
14402 0.6529145 -0.4732286 0.3470855 0.4732286 0.3470855 0.4732286 0.6529145 -0.4732286
15062 0.6325545 -0.4792826 0.3674455 0.4792826 0.3674455 0.4792826 0.6325545 -0.4792826
15752 0.6117103 -0.4845241 0.3882897 0.4845241 0.3882897 0.4845241 0.6117103 -0.4845241
16473 0.5904492 -0.4889052 0.4095508 0.4889052 0.4095508 0.4889052 0.5904492 -0.4889052
17227 0.5688440 -0.4923848 0.4311560 0.4923848 0.4311560 0.4923848 0.5688440 -0.4923848
18016 0.5469730 -0.4949298 0.4530270 0.4949298 0.4530270 0.4949298 0.5469730 -0.4949298
18841 0.5249183 -0.4965153 0.4750817 0.4965153 0.4750817 0.4965153 0.5249183 -0.4965153
19704 0.5027652 -0.4971254 0.4972348 0.4971254 0.4972348 0.4971254 0.5027652 -0.4971254
20606 0.4806003 -0.4967539 0.5193997 0.4967539 0.5193997 0.4967539 0.4806003 -0.4967539
21550 0.4585107 -0.4954041 0.5414893 0.4954041 0.5414893 0.4954041 0.4585107 -0.4954041
22537 0.4365822 -0.4930889 0.5634178 0.4930889 0.5634178 0.4930889 0.4365822 -0.4930889
23569 0.4148984 -0.4898302 0.5851016 0.4898302 0.5851016 0.4898302 0.4148984 -0.4898302
24648 0.3935389 -0.4856590 0.6064611 0.4856590 0.6064611 0.4856590 0.3935389 -0.4856590
25777 0.3725789 -0.4806143 0.6274211 0.4806143 0.6274211 0.4806143 0.3725789 -0.4806143
26957 0.3520874 -0.4747420 0.6479126 0.4747420 0.6479126 0.4747420 0.3520874 -0.4747420
28191 0.3321271 -0.4680946 0.6678729 0.4680946 0.6678729 0.4680946 0.3321271 -0.4680946
29482 0.3127534 -0.4607295 0.6872466 0.4607295 0.6872466 0.4607295 0.3127534 -0.4607295
30832 0.2940140 -0.4527082 0.7059860 0.4527082 0.7059860 0.4527082 0.2940140 -0.4527082
32244 0.2759487 -0.4440951 0.7240513 0.4440951 0.7240513 0.4440951 0.2759487 -0.4440951
33721 0.2585895 -0.4349561 0.7414105 0.4349561 0.7414105 0.4349561 0.2585895 -0.4349561
35265 0.2419604 -0.4253581 0.7580396 0.4253581 0.7580396 0.4253581 0.2419604 -0.4253581
36880 0.2260781 -0.4153674 0.7739219 0.4153674 0.7739219 0.4153674 0.2260781 -0.4153674
38569 0.2109520 -0.4050491 0.7890480 0.4050491 0.7890480 0.4050491 0.2109520 -0.4050491
40335 0.1965852 -0.3944666 0.8034148 0.3944666 0.8034148 0.3944666 0.1965852 -0.3944666
42182 0.1829744 -0.3836802 0.8170256 0.3836802 0.8170256 0.3836802 0.1829744 -0.3836802
44113 0.1701113 -0.3727475 0.8298887 0.3727475 0.8298887 0.3727475 0.1701113 -0.3727475
46134 0.1579825 -0.3617220 0.8420175 0.3617220 0.8420175 0.3617220 0.1579825 -0.3617220
48246 0.1465710 -0.3506539 0.8534290 0.3506539 0.8534290 0.3506539 0.1465710 -0.3506539
50455 0.1358560 -0.3395888 0.8641440 0.3395888 0.8641440 0.3395888 0.1358560 -0.3395888
52766 0.1258141 -0.3285684 0.8741859 0.3285684 0.8741859 0.3285684 0.1258141 -0.3285684
55182 0.1164198 -0.3176303 0.8835802 0.3176303 0.8835802 0.3176303 0.1164198 -0.3176303
57709 0.1076458 -0.3068079 0.8923542 0.3068079 0.8923542 0.3068079 0.1076458 -0.3068079
60352 0.0994639 -0.2961306 0.9005361 0.2961306 0.9005361 0.2961306 0.0994639 -0.2961306
63115 0.0918449 -0.2856241 0.9081551 0.2856241 0.9081551 0.2856241 0.0918449 -0.2856241
66005 0.0847596 -0.2753103 0.9152404 0.2753103 0.9152404 0.2753103 0.0847596 -0.2753103
69028 0.0781787 -0.2652078 0.9218213 0.2652078 0.9218213 0.2652078 0.0781787 -0.2652078
72189 0.0720732 -0.2553323 0.9279268 0.2553323 0.9279268 0.2553323 0.0720732 -0.2553323
75495 0.0664146 -0.2456962 0.9335854 0.2456962 0.9335854 0.2456962 0.0664146 -0.2456962
78952 0.0611753 -0.2363095 0.9388247 0.2363095 0.9388247 0.2363095 0.0611753 -0.2363095
82567 0.0563286 -0.2271799 0.9436714 0.2271799 0.9436714 0.2271799 0.0563286 -0.2271799
86348 0.0518487 -0.2183127 0.9481513 0.2183127 0.9481513 0.2183127 0.0518487 -0.2183127
90302 0.0477109 -0.2097115 0.9522891 0.2097115 0.9522891 0.2097115 0.0477109 -0.2097115
94437 0.0438917 -0.2013781 0.9561083 0.2013781 0.9561083 0.2013781 0.0438917 -0.2013781
98762 0.0403689 -0.1933129 0.9596311 0.1933129 0.9596311 0.1933129 0.0403689 -0.1933129
103284 0.0371213 -0.1855149 0.9628787 0.1855149 0.9628787 0.1855149 0.0371213 -0.1855149
108014 0.0341291 -0.1779821 0.9658709 0.1779821 0.9658709 0.1779821 0.0341291 -0.1779821
112960 0.0313734 -0.1707115 0.9686266 0.1707115 0.9686266 0.1707115 0.0313734 -0.1707115
118133 0.0288368 -0.1636993 0.9711632 0.1636993 0.9711632 0.1636993 0.0288368 -0.1636993
123542 0.0265029 -0.1569410 0.9734971 0.1569410 0.9734971 0.1569410 0.0265029 -0.1569410
129199 0.0243562 -0.1504315 0.9756438 0.1504315 0.9756438 0.1504315 0.0243562 -0.1504315
135116 0.0223825 -0.1441653 0.9776175 0.1441653 0.9776175 0.1441653 0.0223825 -0.1441653
141303 0.0205685 -0.1381367 0.9794315 0.1381367 0.9794315 0.1381367 0.0205685 -0.1381367
147774 0.0189017 -0.1323393 0.9810983 0.1323393 0.9810983 0.1323393 0.0189017 -0.1323393
154540 0.0173706 -0.1267670 0.9826294 0.1267670 0.9826294 0.1267670 0.0173706 -0.1267670
161617 0.0159646 -0.1214132 0.9840354 0.1214132 0.9840354 0.1214132 0.0159646 -0.1214132
169018 0.0146738 -0.1162713 0.9853262 0.1162713 0.9853262 0.1162713 0.0146738 -0.1162713
176758 0.0134889 -0.1113347 0.9865111 0.1113347 0.9865111 0.1113347 0.0134889 -0.1113347
184852 0.0124016 -0.1065967 0.9875984 0.1065967 0.9875984 0.1065967 0.0124016 -0.1065967
193316 0.0114040 -0.1020506 0.9885960 0.1020506 0.9885960 0.1020506 0.0114040 -0.1020506
202169 0.0104888 -0.0976900 0.9895112 0.0976900 0.9895112 0.0976900 0.0104888 -0.0976900
211427 0.0096494 -0.0935084 0.9903506 0.0935084 0.9903506 0.0935084 0.0096494 -0.0935084
221108 0.0088795 -0.0894992 0.9911205 0.0894992 0.9911205 0.0894992 0.0088795 -0.0894992
231233 0.0081736 -0.0856563 0.9918264 0.0856563 0.9918264 0.0856563 0.0081736 -0.0856563
241822 0.0075264 -0.0819736 0.9924736 0.0819736 0.9924736 0.0819736 0.0075264 -0.0819736
252896 0.0069330 -0.0784449 0.9930670 0.0784449 0.9930670 0.0784449 0.0069330 -0.0784449
264476 0.0063890 -0.0750644 0.9936110 0.0750644 0.9936110 0.0750644 0.0063890 -0.0750644
276587 0.0058902 -0.0718264 0.9941098 0.0718264 0.9941098 0.0718264 0.0058902 -0.0718264
289253 0.0054330 -0.0687253 0.9945670 0.0687253 0.9945670 0.0687253 0.0054330 -0.0687253
302498 0.0050138 -0.0657558 0.9949862 0.0657558 0.9949862 0.0657558 0.0050138 -0.0657558
316350 0.0046295 -0.0629125 0.9953705 0.0629125 0.9953705 0.0629125 0.0046295 -0.0629125
330837 0.0042771 -0.0601905 0.9957229 0.0601905 0.9957229 0.0601905 0.0042771 -0.0601905
345986 0.0039540 -0.0575848 0.9960460 0.0575848 0.9960460 0.0575848 0.0039540 -0.0575848
361830 0.0036576 -0.0550908 0.9963424 0.0550908 0.9963424 0.0550908 0.0036576 -0.0550908
378399 0.0033858 -0.0527037 0.9966142 0.0527037 0.9966142 0.0527037 0.0033858 -0.0527037
395726 0.0031363 -0.0504191 0.9968637 0.0504191 0.9968637 0.0504191 0.0031363 -0.0504191
413847 0.0029073 -0.0482329 0.9970927 0.0482329 0.9970927 0.0482329 0.0029073 -0.0482329
432798 0.0026972 -0.0461409 0.9973028 0.0461409 0.9973028 0.0461409 0.0026972 -0.0461409
452617 0.0025041 -0.0441392 0.9974959 0.0441392 0.9974959 0.0441392 0.0025041 -0.0441392
473344 0.0023268 -0.0422238 0.9976732 0.0422238 0.9976732 0.0422238 0.0023268 -0.0422238
495019 0.0021637 -0.0403913 0.9978363 0.0403913 0.9978363 0.0403913 0.0021637 -0.0403913
517687 0.0020138 -0.0386380 0.9979862 0.0386380 0.9979862 0.0386380 0.0020138 -0.0386380
541393 0.0018759 -0.0369605 0.9981241 0.0369605 0.9981241 0.0369605 0.0018759 -0.0369605
566185 0.0017490 -0.0353556 0.9982510 0.0353556 0.9982510 0.0353556 0.0017490 -0.0353556
592111 0.0016320 -0.0338202 0.9983680 0.0338202 0.9983680 0.0338202 0.0016320 -0.0338202
619225 0.0015243 -0.0323513 0.9984757 0.0323513 0.9984757 0.0323513 0.0015243 -0.0323513
647581 0.0014250 -0.0309459 0.9985750 0.0309459 0.9985750 0.0309459 0.0014250 -0.0309459
677235 0.0013333 -0.0296014 0.9986667 0.0296014 0.9986667 0.0296014 0.0013333 -0.0296014
708247 0.0012487 -0.0283151 0.9987513 0.0283151 0.9987513 0.0283151 0.0012487 -0.0283151
740679 0.0011706 -0.0270845 0.9988294 0.0270845 0.9988294 0.0270845 0.0011706 -0.0270845
774597 0.0010984 -0.0259071 0.9989016 0.0259071 0.9989016 0.0259071 0.0010984 -0.0259071
810067 0.0010316 -0.0247806 0.9989684 0.0247806 0.9989684 0.0247806 0.0010316 -0.0247806
847162 0.0009699 -0.0237028 0.9990301 0.0237028 0.9990301 0.0237028 0.0009699 -0.0237028
885955 0.0009128 -0.0226715 0.9990872 0.0226715 0.9990872 0.0226715 0.0009128 -0.0226715
926525 0.0008599 -0.0216848 0.9991401 0.0216848 0.9991401 0.0216848 0.0008599 -0.0216848
968953 0.0008110 -0.0207407 0.9991890 0.0207407 0.9991890 0.0207407 0.0008110 -0.0207407
1013323 0.0007657 -0.0198373 0.9992343 0.0198373 0.9992343 0.0198373 0.0007657 -0.0198373
1059725 0.0007237 -0.0189729 0.9992763 0.0189729 0.9992763 0.0189729 0.0007237 -0.0189729
1108252 0.0006849 -0.0181457 0.9993151 0.0181457 0.9993151 0.0181457 0.0006849 -0.0181457
1159002 0.0006489 -0.0173542 0.9993511 0.0173542 0.9993511 0.0173542 0.0006489 -0.0173542
1212075 0.0006156 -0.0165968 0.9993844 0.0165968 0.9993844 0.0165968 0.0006156 -0.0165968
1267578 0.0005847 -0.0158719 0.9994153 0.0158719 0.9994153 0.0158719 0.0005847 -0.0158719
1325623 0.0005562 -0.0151783 0.9994438 0.0151783 0.9994438 0.0151783 0.0005562 -0.0151783
1386327 0.0005298 -0.0145146 0.9994702 0.0145146 0.9994702 0.0145146 0.0005298 -0.0145146
1449809 0.0005054 -0.0138794 0.9994946 0.0138794 0.9994946 0.0138794 0.0005054 -0.0138794
1516199 0.0004828 -0.0132715 0.9995172 0.0132715 0.9995172 0.0132715 0.0004828 -0.0132715
1585629 0.0004620 -0.0126898 0.9995380 0.0126898 0.9995380 0.0126898 0.0004620 -0.0126898
1658239 0.0004427 -0.0121331 0.9995573 0.0121331 0.9995573 0.0121331 0.0004427 -0.0121331
1734173 0.0004249 -0.0116003 0.9995751 0.0116003 0.9995751 0.0116003 0.0004249 -0.0116003
1813585 0.0004085 -0.0110904 0.9995915 0.0110904 0.9995915 0.0110904 0.0004085 -0.0110904
1896632 0.0003933 -0.0106025 0.9996067 0.0106025 0.9996067 0.0106025 0.0003933 -0.0106025
1983483 0.0003793 -0.0101354 0.9996207 0.0101354 0.9996207 0.0101354 0.0003793 -0.0101354
2074311 0.0003665 -0.0096884 0.9996335 0.0096884 0.9996335 0.0096884 0.0003665 -0.0096884
