!Murata Part Number: GRM188R61A335KE15
!These Parameters are Measured in Series Mode Connection
!Data Generated on Mar 30, 2021
!       o--ll--o
!Port1            Port2
!       o------o
!Operation Temp=25[degC], DC Bias Voltage=0[V]
!Freq. Start=100[Hz] Stop=6[GHz] 401[Steps]
# Hz S RI R 50
!Freq.(Hz) S11(Real) S11(Imag) S21(Real) S21(Imag) S12(Real) S12(Imag) S22(Real) S22(Imag)
100 0.9774700 -0.1411002 0.0225300 0.1411002 0.0225300 0.1411002 0.9774700 -0.1411002
105 0.9754932 -0.1471857 0.0245068 0.1471857 0.0245068 0.1471857 0.9754932 -0.1471857
109 0.9733464 -0.1535028 0.0266536 0.1535028 0.0266536 0.1535028 0.9733464 -0.1535028
114 0.9710160 -0.1600562 0.0289840 0.1600562 0.0289840 0.1600562 0.9710160 -0.1600562
120 0.9684877 -0.1668501 0.0315123 0.1668501 0.0315123 0.1668501 0.9684877 -0.1668501
125 0.9657460 -0.1738881 0.0342540 0.1738881 0.0342540 0.1738881 0.9657460 -0.1738881
131 0.9627747 -0.1811731 0.0372253 0.1811731 0.0372253 0.1811731 0.9627747 -0.1811731
137 0.9595565 -0.1887075 0.0404435 0.1887075 0.0404435 0.1887075 0.9595565 -0.1887075
143 0.9560733 -0.1964926 0.0439267 0.1964926 0.0439267 0.1964926 0.9560733 -0.1964926
150 0.9523058 -0.2045286 0.0476942 0.2045286 0.0476942 0.2045286 0.9523058 -0.2045286
156 0.9482340 -0.2128150 0.0517660 0.2128150 0.0517660 0.2128150 0.9482340 -0.2128150
164 0.9438367 -0.2213495 0.0561633 0.2213495 0.0561633 0.2213495 0.9438367 -0.2213495
171 0.9390918 -0.2301287 0.0609082 0.2301287 0.0609082 0.2301287 0.9390918 -0.2301287
179 0.9339764 -0.2391475 0.0660236 0.2391475 0.0660236 0.2391475 0.9339764 -0.2391475
187 0.9284668 -0.2483990 0.0715332 0.2483990 0.0715332 0.2483990 0.9284668 -0.2483990
196 0.9225383 -0.2578744 0.0774617 0.2578744 0.0774617 0.2578744 0.9225383 -0.2578744
205 0.9161659 -0.2675627 0.0838341 0.2675627 0.0838341 0.2675627 0.9161659 -0.2675627
214 0.9093236 -0.2774504 0.0906764 0.2774504 0.0906764 0.2774504 0.9093236 -0.2774504
224 0.9019856 -0.2875214 0.0980144 0.2875214 0.0980144 0.2875214 0.9019856 -0.2875214
234 0.8941255 -0.2977571 0.1058745 0.2977571 0.1058745 0.2977571 0.8941255 -0.2977571
245 0.8857171 -0.3081356 0.1142829 0.3081356 0.1142829 0.3081356 0.8857171 -0.3081356
256 0.8767347 -0.3186318 0.1232653 0.3186318 0.1232653 0.3186318 0.8767347 -0.3186318
268 0.8671531 -0.3292173 0.1328469 0.3292173 0.1328469 0.3292173 0.8671531 -0.3292173
280 0.8569484 -0.3398600 0.1430516 0.3398600 0.1430516 0.3398600 0.8569484 -0.3398600
293 0.8460980 -0.3505244 0.1539020 0.3505244 0.1539020 0.3505244 0.8460980 -0.3505244
306 0.8345814 -0.3611708 0.1654186 0.3611708 0.1654186 0.3611708 0.8345814 -0.3611708
320 0.8223807 -0.3717562 0.1776193 0.3717562 0.1776193 0.3717562 0.8223807 -0.3717562
335 0.8094810 -0.3822336 0.1905190 0.3822336 0.1905190 0.3822336 0.8094810 -0.3822336
350 0.7958711 -0.3925525 0.2041289 0.3925525 0.2041289 0.3925525 0.7958711 -0.3925525
366 0.7815443 -0.4026591 0.2184557 0.4026591 0.2184557 0.4026591 0.7815443 -0.4026591
383 0.7664986 -0.4124967 0.2335014 0.4124967 0.2335014 0.4124967 0.7664986 -0.4124967
401 0.7507378 -0.4220060 0.2492622 0.4220060 0.2492622 0.4220060 0.7507378 -0.4220060
419 0.7342717 -0.4311258 0.2657283 0.4311258 0.2657283 0.4311258 0.7342717 -0.4311258
438 0.7171168 -0.4397938 0.2828832 0.4397938 0.2828832 0.4397938 0.7171168 -0.4397938
458 0.6992967 -0.4479473 0.3007033 0.4479473 0.3007033 0.4479473 0.6992967 -0.4479473
479 0.6808421 -0.4555242 0.3191579 0.4555242 0.3191579 0.4555242 0.6808421 -0.4555242
501 0.6617914 -0.4624640 0.3382086 0.4624640 0.3382086 0.4624640 0.6617914 -0.4624640
524 0.6421906 -0.4687086 0.3578094 0.4687086 0.3578094 0.4687086 0.6421906 -0.4687086
548 0.6220927 -0.4742041 0.3779073 0.4742041 0.3779073 0.4742041 0.6220927 -0.4742041
573 0.6015577 -0.4789012 0.3984423 0.4789012 0.3984423 0.4789012 0.6015577 -0.4789012
600 0.5806522 -0.4827565 0.4193478 0.4827565 0.4193478 0.4827565 0.5806522 -0.4827565
627 0.5594478 -0.4857336 0.4405522 0.4857336 0.4405522 0.4857336 0.5594478 -0.4857336
656 0.5380212 -0.4878038 0.4619788 0.4878038 0.4619788 0.4878038 0.5380212 -0.4878038
686 0.5164525 -0.4889468 0.4835475 0.4889468 0.4835475 0.4889468 0.5164525 -0.4889468
717 0.4948238 -0.4891512 0.5051762 0.4891512 0.5051762 0.4891512 0.4948238 -0.4891512
750 0.4732185 -0.4884149 0.5267815 0.4884149 0.5267815 0.4884149 0.4732185 -0.4884149
784 0.4517196 -0.4867450 0.5482804 0.4867450 0.5482804 0.4867450 0.4517196 -0.4867450
820 0.4304084 -0.4841576 0.5695916 0.4841576 0.5695916 0.4841576 0.4304084 -0.4841576
858 0.4093634 -0.4806778 0.5906366 0.4806778 0.5906366 0.4806778 0.4093634 -0.4806778
897 0.3886588 -0.4763387 0.6113412 0.4763387 0.6113412 0.4763387 0.3886588 -0.4763387
938 0.3683640 -0.4711806 0.6316360 0.4711806 0.6316360 0.4711806 0.3683640 -0.4711806
981 0.3485420 -0.4652504 0.6514580 0.4652504 0.6514580 0.4652504 0.3485420 -0.4652504
1026 0.3292496 -0.4586004 0.6707504 0.4586004 0.6707504 0.4586004 0.3292496 -0.4586004
1073 0.3105359 -0.4512874 0.6894641 0.4512874 0.6894641 0.4512874 0.3105359 -0.4512874
1122 0.2924430 -0.4433711 0.7075570 0.4433711 0.7075570 0.4433711 0.2924430 -0.4433711
1174 0.2750051 -0.4349135 0.7249949 0.4349135 0.7249949 0.4349135 0.2750051 -0.4349135
1227 0.2582490 -0.4259778 0.7417510 0.4259778 0.7417510 0.4259778 0.2582490 -0.4259778
1283 0.2421941 -0.4166271 0.7578059 0.4166271 0.7578059 0.4166271 0.2421941 -0.4166271
1342 0.2268531 -0.4069235 0.7731469 0.4069235 0.7731469 0.4069235 0.2268531 -0.4069235
1404 0.2122318 -0.3969278 0.7877682 0.3969278 0.7877682 0.3969278 0.2122318 -0.3969278
1468 0.1983306 -0.3866983 0.8016694 0.3866983 0.8016694 0.3866983 0.1983306 -0.3866983
1535 0.1851442 -0.3762906 0.8148558 0.3762906 0.8148558 0.3762906 0.1851442 -0.3762906
1606 0.1726627 -0.3657568 0.8273373 0.3657568 0.8273373 0.3657568 0.1726627 -0.3657568
1679 0.1608723 -0.3551457 0.8391277 0.3551457 0.8391277 0.3551457 0.1608723 -0.3551457
1756 0.1497557 -0.3445022 0.8502443 0.3445022 0.8502443 0.3445022 0.1497557 -0.3445022
1836 0.1392928 -0.3338672 0.8607072 0.3338672 0.8607072 0.3338672 0.1392928 -0.3338672
1920 0.1294613 -0.3232781 0.8705387 0.3232781 0.8705387 0.3232781 0.1294613 -0.3232781
2008 0.1202373 -0.3127681 0.8797627 0.3127681 0.8797627 0.3127681 0.1202373 -0.3127681
2100 0.1115955 -0.3023669 0.8884045 0.3023669 0.8884045 0.3023669 0.1115955 -0.3023669
2196 0.1035100 -0.2921006 0.8964900 0.2921006 0.8964900 0.2921006 0.1035100 -0.2921006
2297 0.0959544 -0.2819918 0.9040456 0.2819918 0.9040456 0.2819918 0.0959544 -0.2819918
2402 0.0889023 -0.2720602 0.9110977 0.2720602 0.9110977 0.2720602 0.0889023 -0.2720602
2512 0.0823273 -0.2623223 0.9176727 0.2623223 0.9176727 0.2623223 0.0823273 -0.2623223
2627 0.0762034 -0.2527923 0.9237966 0.2527923 0.9237966 0.2527923 0.0762034 -0.2527923
2748 0.0705054 -0.2434815 0.9294946 0.2434815 0.9294946 0.2434815 0.0705054 -0.2434815
2873 0.0652083 -0.2343992 0.9347917 0.2343992 0.9347917 0.2343992 0.0652083 -0.2343992
3005 0.0602884 -0.2255527 0.9397116 0.2255527 0.9397116 0.2255527 0.0602884 -0.2255527
3143 0.0557226 -0.2169474 0.9442774 0.2169474 0.9442774 0.2169474 0.0557226 -0.2169474
3287 0.0514887 -0.2085872 0.9485113 0.2085872 0.9485113 0.2085872 0.0514887 -0.2085872
3437 0.0475656 -0.2004745 0.9524344 0.2004745 0.9524344 0.2004745 0.0475656 -0.2004745
3594 0.0439330 -0.1926102 0.9560670 0.1926102 0.9560670 0.1926102 0.0439330 -0.1926102
3759 0.0405718 -0.1849945 0.9594282 0.1849945 0.9594282 0.1849945 0.0405718 -0.1849945
3931 0.0374637 -0.1776263 0.9625363 0.1776263 0.9625363 0.1776263 0.0374637 -0.1776263
4111 0.0345914 -0.1705038 0.9654086 0.1705038 0.9654086 0.1705038 0.0345914 -0.1705038
4299 0.0319385 -0.1636241 0.9680615 0.1636241 0.9680615 0.1636241 0.0319385 -0.1636241
4496 0.0294897 -0.1569842 0.9705103 0.1569842 0.9705103 0.1569842 0.0294897 -0.1569842
4702 0.0272303 -0.1505801 0.9727697 0.1505801 0.9727697 0.1505801 0.0272303 -0.1505801
4918 0.0251467 -0.1444075 0.9748533 0.1444075 0.9748533 0.1444075 0.0251467 -0.1444075
5143 0.0232260 -0.1384617 0.9767740 0.1384617 0.9767740 0.1384617 0.0232260 -0.1384617
5378 0.0214563 -0.1327376 0.9785437 0.1327376 0.9785437 0.1327376 0.0214563 -0.1327376
5625 0.0198261 -0.1272298 0.9801739 0.1272298 0.9801739 0.1272298 0.0198261 -0.1272298
5882 0.0183250 -0.1219328 0.9816750 0.1219328 0.9816750 0.1219328 0.0183250 -0.1219328
6151 0.0169431 -0.1168410 0.9830569 0.1168410 0.9830569 0.1168410 0.0169431 -0.1168410
6433 0.0156712 -0.1119483 0.9843288 0.1119483 0.9843288 0.1119483 0.0156712 -0.1119483
6728 0.0145007 -0.1072490 0.9854993 0.1072490 0.9854993 0.1072490 0.0145007 -0.1072490
7036 0.0134236 -0.1027371 0.9865764 0.1027371 0.9865764 0.1027371 0.0134236 -0.1027371
7358 0.0124326 -0.0984064 0.9875674 0.0984064 0.9875674 0.0984064 0.0124326 -0.0984064
7695 0.0115207 -0.0942512 0.9884793 0.0942512 0.9884793 0.0942512 0.0115207 -0.0942512
8047 0.0106816 -0.0902653 0.9893184 0.0902653 0.9893184 0.0902653 0.0106816 -0.0902653
8416 0.0099093 -0.0864430 0.9900907 0.0864430 0.9900907 0.0864430 0.0099093 -0.0864430
8801 0.0091983 -0.0827784 0.9908017 0.0827784 0.9908017 0.0827784 0.0091983 -0.0827784
9204 0.0085437 -0.0792656 0.9914563 0.0792656 0.9914563 0.0792656 0.0085437 -0.0792656
9626 0.0079407 -0.0758992 0.9920593 0.0758992 0.9920593 0.0758992 0.0079407 -0.0758992
10066 0.0073850 -0.0726736 0.9926150 0.0726736 0.9926150 0.0726736 0.0073850 -0.0726736
10527 0.0068726 -0.0695833 0.9931274 0.0695833 0.9931274 0.0695833 0.0068726 -0.0695833
11009 0.0064000 -0.0666231 0.9936000 0.0666231 0.9936000 0.0666231 0.0064000 -0.0666231
11514 0.0059637 -0.0637879 0.9940363 0.0637879 0.9940363 0.0637879 0.0059637 -0.0637879
12041 0.0055607 -0.0610725 0.9944393 0.0610725 0.9944393 0.0610725 0.0055607 -0.0610725
12592 0.0051881 -0.0584722 0.9948119 0.0584722 0.9948119 0.0584722 0.0051881 -0.0584722
13169 0.0048434 -0.0559823 0.9951566 0.0559823 0.9951566 0.0559823 0.0048434 -0.0559823
13772 0.0045243 -0.0535981 0.9954757 0.0535981 0.9954757 0.0535981 0.0045243 -0.0535981
14402 0.0042285 -0.0513153 0.9957715 0.0513153 0.9957715 0.0513153 0.0042285 -0.0513153
15062 0.0039542 -0.0491296 0.9960458 0.0491296 0.9960458 0.0491296 0.0039542 -0.0491296
15752 0.0036995 -0.0470369 0.9963005 0.0470369 0.9963005 0.0470369 0.0036995 -0.0470369
16473 0.0034628 -0.0450332 0.9965372 0.0450332 0.9965372 0.0450332 0.0034628 -0.0450332
17227 0.0032428 -0.0431146 0.9967572 0.0431146 0.9967572 0.0431146 0.0032428 -0.0431146
18016 0.0030380 -0.0412777 0.9969620 0.0412777 0.9969620 0.0412777 0.0030380 -0.0412777
18841 0.0028473 -0.0395188 0.9971527 0.0395188 0.9971527 0.0395188 0.0028473 -0.0395188
19704 0.0026695 -0.0378346 0.9973305 0.0378346 0.9973305 0.0378346 0.0026695 -0.0378346
20606 0.0025038 -0.0362218 0.9974962 0.0362218 0.9974962 0.0362218 0.0025038 -0.0362218
21550 0.0023492 -0.0346775 0.9976508 0.0346775 0.9976508 0.0346775 0.0023492 -0.0346775
22537 0.0022050 -0.0331986 0.9977950 0.0331986 0.9977950 0.0331986 0.0022050 -0.0331986
23569 0.0020703 -0.0317824 0.9979297 0.0317824 0.9979297 0.0317824 0.0020703 -0.0317824
24648 0.0019446 -0.0304261 0.9980554 0.0304261 0.9980554 0.0304261 0.0019446 -0.0304261
25777 0.0018271 -0.0291273 0.9981729 0.0291273 0.9981729 0.0291273 0.0018271 -0.0291273
26957 0.0017175 -0.0278834 0.9982825 0.0278834 0.9982825 0.0278834 0.0017175 -0.0278834
28191 0.0016151 -0.0266922 0.9983849 0.0266922 0.9983849 0.0266922 0.0016151 -0.0266922
29482 0.0015195 -0.0255514 0.9984805 0.0255514 0.9984805 0.0255514 0.0015195 -0.0255514
30832 0.0014303 -0.0244589 0.9985697 0.0244589 0.9985697 0.0244589 0.0014303 -0.0244589
32244 0.0013470 -0.0234127 0.9986530 0.0234127 0.9986530 0.0234127 0.0013470 -0.0234127
33721 0.0012692 -0.0224109 0.9987308 0.0224109 0.9987308 0.0224109 0.0012692 -0.0224109
35265 0.0011967 -0.0214516 0.9988033 0.0214516 0.9988033 0.0214516 0.0011967 -0.0214516
36880 0.0011290 -0.0205330 0.9988710 0.0205330 0.9988710 0.0205330 0.0011290 -0.0205330
38569 0.0010658 -0.0196535 0.9989342 0.0196535 0.9989342 0.0196535 0.0010658 -0.0196535
40335 0.0010069 -0.0188114 0.9989931 0.0188114 0.9989931 0.0188114 0.0010069 -0.0188114
42182 0.0009519 -0.0180053 0.9990481 0.0180053 0.9990481 0.0180053 0.0009519 -0.0180053
44113 0.0009006 -0.0172335 0.9990994 0.0172335 0.9990994 0.0172335 0.0009006 -0.0172335
46134 0.0008528 -0.0164947 0.9991472 0.0164947 0.9991472 0.0164947 0.0008528 -0.0164947
48246 0.0008081 -0.0157875 0.9991919 0.0157875 0.9991919 0.0157875 0.0008081 -0.0157875
50455 0.0007663 -0.0151106 0.9992337 0.0151106 0.9992337 0.0151106 0.0007663 -0.0151106
52766 0.0007272 -0.0144627 0.9992728 0.0144627 0.9992728 0.0144627 0.0007272 -0.0144627
55182 0.0006907 -0.0138426 0.9993093 0.0138426 0.9993093 0.0138426 0.0006907 -0.0138426
57709 0.0006565 -0.0132491 0.9993435 0.0132491 0.9993435 0.0132491 0.0006565 -0.0132491
60352 0.0006245 -0.0126811 0.9993755 0.0126811 0.9993755 0.0126811 0.0006245 -0.0126811
63115 0.0005944 -0.0121376 0.9994056 0.0121376 0.9994056 0.0121376 0.0005944 -0.0121376
66005 0.0005662 -0.0116174 0.9994338 0.0116174 0.9994338 0.0116174 0.0005662 -0.0116174
69028 0.0005396 -0.0111197 0.9994604 0.0111197 0.9994604 0.0111197 0.0005396 -0.0111197
72189 0.0005146 -0.0106433 0.9994854 0.0106433 0.9994854 0.0106433 0.0005146 -0.0106433
75495 0.0004910 -0.0101874 0.9995090 0.0101874 0.9995090 0.0101874 0.0004910 -0.0101874
78952 0.0004687 -0.0097512 0.9995313 0.0097512 0.9995313 0.0097512 0.0004687 -0.0097512
82567 0.0004476 -0.0093337 0.9995524 0.0093337 0.9995524 0.0093337 0.0004476 -0.0093337
86348 0.0004276 -0.0089341 0.9995724 0.0089341 0.9995724 0.0089341 0.0004276 -0.0089341
90302 0.0004087 -0.0085517 0.9995913 0.0085517 0.9995913 0.0085517 0.0004087 -0.0085517
94437 0.0003907 -0.0081857 0.9996093 0.0081857 0.9996093 0.0081857 0.0003907 -0.0081857
98762 0.0003736 -0.0078353 0.9996264 0.0078353 0.9996264 0.0078353 0.0003736 -0.0078353
103284 0.0003574 -0.0075000 0.9996426 0.0075000 0.9996426 0.0075000 0.0003574 -0.0075000
108014 0.0003419 -0.0071790 0.9996581 0.0071790 0.9996581 0.0071790 0.0003419 -0.0071790
112960 0.0003272 -0.0068717 0.9996728 0.0068717 0.9996728 0.0068717 0.0003272 -0.0068717
118133 0.0003132 -0.0065775 0.9996868 0.0065775 0.9996868 0.0065775 0.0003132 -0.0065775
123542 0.0002999 -0.0062958 0.9997001 0.0062958 0.9997001 0.0062958 0.0002999 -0.0062958
129199 0.0002872 -0.0060261 0.9997128 0.0060261 0.9997128 0.0060261 0.0002872 -0.0060261
135116 0.0002751 -0.0057679 0.9997249 0.0057679 0.9997249 0.0057679 0.0002751 -0.0057679
141303 0.0002636 -0.0055206 0.9997364 0.0055206 0.9997364 0.0055206 0.0002636 -0.0055206
147774 0.0002527 -0.0052839 0.9997473 0.0052839 0.9997473 0.0052839 0.0002527 -0.0052839
154540 0.0002424 -0.0050571 0.9997576 0.0050571 0.9997576 0.0050571 0.0002424 -0.0050571
161617 0.0002325 -0.0048400 0.9997675 0.0048400 0.9997675 0.0048400 0.0002325 -0.0048400
169018 0.0002232 -0.0046321 0.9997768 0.0046321 0.9997768 0.0046321 0.0002232 -0.0046321
176758 0.0002144 -0.0044330 0.9997856 0.0044330 0.9997856 0.0044330 0.0002144 -0.0044330
184852 0.0002060 -0.0042423 0.9997940 0.0042423 0.9997940 0.0042423 0.0002060 -0.0042423
193316 0.0001981 -0.0040598 0.9998019 0.0040598 0.9998019 0.0040598 0.0001981 -0.0040598
202169 0.0001906 -0.0038849 0.9998094 0.0038849 0.9998094 0.0038849 0.0001906 -0.0038849
211427 0.0001836 -0.0037175 0.9998164 0.0037175 0.9998164 0.0037175 0.0001836 -0.0037175
221108 0.0001769 -0.0035572 0.9998231 0.0035572 0.9998231 0.0035572 0.0001769 -0.0035572
231233 0.0001707 -0.0034037 0.9998293 0.0034037 0.9998293 0.0034037 0.0001707 -0.0034037
241822 0.0001648 -0.0032567 0.9998352 0.0032567 0.9998352 0.0032567 0.0001648 -0.0032567
252896 0.0001592 -0.0031160 0.9998408 0.0031160 0.9998408 0.0031160 0.0001592 -0.0031160
264476 0.0001540 -0.0029813 0.9998460 0.0029813 0.9998460 0.0029813 0.0001540 -0.0029813
276587 0.0001491 -0.0028523 0.9998509 0.0028523 0.9998509 0.0028523 0.0001491 -0.0028523
289253 0.0001445 -0.0027288 0.9998555 0.0027288 0.9998555 0.0027288 0.0001445 -0.0027288
302498 0.0001401 -0.0026106 0.9998599 0.0026106 0.9998599 0.0026106 0.0001401 -0.0026106
316350 0.0001360 -0.0024975 0.9998640 0.0024975 0.9998640 0.0024975 0.0001360 -0.0024975
330837 0.0001322 -0.0023892 0.9998678 0.0023892 0.9998678 0.0023892 0.0001322 -0.0023892
345986 0.0001285 -0.0022855 0.9998715 0.0022855 0.9998715 0.0022855 0.0001285 -0.0022855
361830 0.0001250 -0.0021862 0.9998750 0.0021862 0.9998750 0.0021862 0.0001250 -0.0021862
378399 0.0001218 -0.0020912 0.9998782 0.0020912 0.9998782 0.0020912 0.0001218 -0.0020912
395726 0.0001187 -0.0020003 0.9998813 0.0020003 0.9998813 0.0020003 0.0001187 -0.0020003
413847 0.0001157 -0.0019132 0.9998843 0.0019132 0.9998843 0.0019132 0.0001157 -0.0019132
432798 0.0001129 -0.0018298 0.9998871 0.0018298 0.9998871 0.0018298 0.0001129 -0.0018298
452617 0.0001102 -0.0017500 0.9998898 0.0017500 0.9998898 0.0017500 0.0001102 -0.0017500
473344 0.0001076 -0.0016736 0.9998924 0.0016736 0.9998924 0.0016736 0.0001076 -0.0016736
495019 0.0001052 -0.0016004 0.9998948 0.0016004 0.9998948 0.0016004 0.0001052 -0.0016004
517687 0.0001028 -0.0015304 0.9998972 0.0015304 0.9998972 0.0015304 0.0001028 -0.0015304
541393 0.0001005 -0.0014633 0.9998995 0.0014633 0.9998995 0.0014633 0.0001005 -0.0014633
566185 0.0000983 -0.0013990 0.9999017 0.0013990 0.9999017 0.0013990 0.0000983 -0.0013990
592111 0.0000962 -0.0013374 0.9999038 0.0013374 0.9999038 0.0013374 0.0000962 -0.0013374
619225 0.0000941 -0.0012784 0.9999059 0.0012784 0.9999059 0.0012784 0.0000941 -0.0012784
647581 0.0000921 -0.0012218 0.9999079 0.0012218 0.9999079 0.0012218 0.0000921 -0.0012218
677235 0.0000901 -0.0011676 0.9999099 0.0011676 0.9999099 0.0011676 0.0000901 -0.0011676
708247 0.0000882 -0.0011156 0.9999118 0.0011156 0.9999118 0.0011156 0.0000882 -0.0011156
740679 0.0000863 -0.0010657 0.9999137 0.0010657 0.9999137 0.0010657 0.0000863 -0.0010657
774597 0.0000845 -0.0010179 0.9999155 0.0010179 0.9999155 0.0010179 0.0000845 -0.0010179
810067 0.0000827 -0.0009719 0.9999173 0.0009719 0.9999173 0.0009719 0.0000827 -0.0009719
847162 0.0000810 -0.0009278 0.9999190 0.0009278 0.9999190 0.0009278 0.0000810 -0.0009278
885955 0.0000793 -0.0008855 0.9999207 0.0008855 0.9999207 0.0008855 0.0000793 -0.0008855
926525 0.0000777 -0.0008448 0.9999223 0.0008448 0.9999223 0.0008448 0.0000777 -0.0008448
968953 0.0000761 -0.0008057 0.9999239 0.0008057 0.9999239 0.0008057 0.0000761 -0.0008057
1013323 0.0000745 -0.0007680 0.9999255 0.0007680 0.9999255 0.0007680 0.0000745 -0.0007680
1059725 0.0000731 -0.0007318 0.9999269 0.0007318 0.9999269 0.0007318 0.0000731 -0.0007318
1108252 0.0000716 -0.0006970 0.9999284 0.0006970 0.9999284 0.0006970 0.0000716 -0.0006970
1159002 0.0000702 -0.0006635 0.9999298 0.0006635 0.9999298 0.0006635 0.0000702 -0.0006635
1212075 0.0000689 -0.0006311 0.9999311 0.0006311 0.9999311 0.0006311 0.0000689 -0.0006311
1267578 0.0000677 -0.0005999 0.9999323 0.0005999 0.9999323 0.0005999 0.0000677 -0.0005999
1325623 0.0000665 -0.0005699 0.9999335 0.0005699 0.9999335 0.0005699 0.0000665 -0.0005699
1386327 0.0000654 -0.0005408 0.9999346 0.0005408 0.9999346 0.0005408 0.0000654 -0.0005408
1449809 0.0000643 -0.0005128 0.9999357 0.0005128 0.9999357 0.0005128 0.0000643 -0.0005128
1516199 0.0000634 -0.0004857 0.9999366 0.0004857 0.9999366 0.0004857 0.0000634 -0.0004857
1585629 0.0000625 -0.0004595 0.9999375 0.0004595 0.9999375 0.0004595 0.0000625 -0.0004595
1658239 0.0000617 -0.0004341 0.9999383 0.0004341 0.9999383 0.0004341 0.0000617 -0.0004341
1734173 0.0000610 -0.0004095 0.9999390 0.0004095 0.9999390 0.0004095 0.0000610 -0.0004095
1813585 0.0000603 -0.0003857 0.9999397 0.0003857 0.9999397 0.0003857 0.0000603 -0.0003857
1896632 0.0000598 -0.0003625 0.9999402 0.0003625 0.9999402 0.0003625 0.0000598 -0.0003625
1983483 0.0000594 -0.0003401 0.9999406 0.0003401 0.9999406 0.0003401 0.0000594 -0.0003401
2074311 0.0000591 -0.0003182 0.9999409 0.0003182 0.9999409 0.0003182 0.0000591 -0.0003182
