!Murata Part Number: GRM188R71H153JA01
!These Parameters are Measured in Series Mode Connection
!Data Generated on Mar 30, 2021
!       o--ll--o
!Port1            Port2
!       o------o
!Operation Temp=25[degC], DC Bias Voltage=0[V]
!Freq. Start=100[Hz] Stop=6[GHz] 401[Steps]
# Hz S RI R 50
!Freq.(Hz) S11(Real) S11(Imag) S21(Real) S21(Imag) S12(Real) S12(Imag) S22(Real) S22(Imag)
100 0.9999953 -0.0009059 0.0000047 0.0009059 0.0000047 0.0009059 0.9999953 -0.0009059
105 0.9999950 -0.0009472 0.0000050 0.0009472 0.0000050 0.0009472 0.9999950 -0.0009472
109 0.9999947 -0.0009905 0.0000053 0.0009905 0.0000053 0.0009905 0.9999947 -0.0009905
114 0.9999945 -0.0010357 0.0000055 0.0010357 0.0000055 0.0010357 0.9999945 -0.0010357
120 0.9999942 -0.0010830 0.0000058 0.0010830 0.0000058 0.0010830 0.9999942 -0.0010830
125 0.9999938 -0.0011324 0.0000062 0.0011324 0.0000062 0.0011324 0.9999938 -0.0011324
131 0.9999935 -0.0011841 0.0000065 0.0011841 0.0000065 0.0011841 0.9999935 -0.0011841
137 0.9999931 -0.0012382 0.0000069 0.0012382 0.0000069 0.0012382 0.9999931 -0.0012382
143 0.9999928 -0.0012947 0.0000072 0.0012947 0.0000072 0.0012947 0.9999928 -0.0012947
150 0.9999924 -0.0013538 0.0000076 0.0013538 0.0000076 0.0013538 0.9999924 -0.0013538
156 0.9999919 -0.0014157 0.0000081 0.0014157 0.0000081 0.0014157 0.9999919 -0.0014157
164 0.9999915 -0.0014803 0.0000085 0.0014803 0.0000085 0.0014803 0.9999915 -0.0014803
171 0.9999910 -0.0015479 0.0000090 0.0015479 0.0000090 0.0015479 0.9999910 -0.0015479
179 0.9999905 -0.0016185 0.0000095 0.0016185 0.0000095 0.0016185 0.9999905 -0.0016185
187 0.9999899 -0.0016924 0.0000101 0.0016924 0.0000101 0.0016924 0.9999899 -0.0016924
196 0.9999893 -0.0017697 0.0000107 0.0017697 0.0000107 0.0017697 0.9999893 -0.0017697
205 0.9999887 -0.0018505 0.0000113 0.0018505 0.0000113 0.0018505 0.9999887 -0.0018505
214 0.9999881 -0.0019350 0.0000119 0.0019350 0.0000119 0.0019350 0.9999881 -0.0019350
224 0.9999874 -0.0020233 0.0000126 0.0020233 0.0000126 0.0020233 0.9999874 -0.0020233
234 0.9999866 -0.0021157 0.0000134 0.0021157 0.0000134 0.0021157 0.9999866 -0.0021157
245 0.9999858 -0.0022123 0.0000142 0.0022123 0.0000142 0.0022123 0.9999858 -0.0022123
256 0.9999850 -0.0023133 0.0000150 0.0023133 0.0000150 0.0023133 0.9999850 -0.0023133
268 0.9999841 -0.0024189 0.0000159 0.0024189 0.0000159 0.0024189 0.9999841 -0.0024189
280 0.9999832 -0.0025294 0.0000168 0.0025294 0.0000168 0.0025294 0.9999832 -0.0025294
293 0.9999822 -0.0026448 0.0000178 0.0026448 0.0000178 0.0026448 0.9999822 -0.0026448
306 0.9999811 -0.0027656 0.0000189 0.0027656 0.0000189 0.0027656 0.9999811 -0.0027656
320 0.9999799 -0.0028919 0.0000201 0.0028919 0.0000201 0.0028919 0.9999799 -0.0028919
335 0.9999787 -0.0030240 0.0000213 0.0030240 0.0000213 0.0030240 0.9999787 -0.0030240
350 0.9999774 -0.0031621 0.0000226 0.0031621 0.0000226 0.0031621 0.9999774 -0.0031621
366 0.9999760 -0.0033065 0.0000240 0.0033065 0.0000240 0.0033065 0.9999760 -0.0033065
383 0.9999744 -0.0034575 0.0000256 0.0034575 0.0000256 0.0034575 0.9999744 -0.0034575
401 0.9999728 -0.0036155 0.0000272 0.0036155 0.0000272 0.0036155 0.9999728 -0.0036155
419 0.9999710 -0.0037806 0.0000290 0.0037806 0.0000290 0.0037806 0.9999710 -0.0037806
438 0.9999691 -0.0039534 0.0000309 0.0039534 0.0000309 0.0039534 0.9999691 -0.0039534
458 0.9999671 -0.0041340 0.0000329 0.0041340 0.0000329 0.0041340 0.9999671 -0.0041340
479 0.9999649 -0.0043229 0.0000351 0.0043229 0.0000351 0.0043229 0.9999649 -0.0043229
501 0.9999625 -0.0045204 0.0000375 0.0045204 0.0000375 0.0045204 0.9999625 -0.0045204
524 0.9999599 -0.0047269 0.0000401 0.0047269 0.0000401 0.0047269 0.9999599 -0.0047269
548 0.9999570 -0.0049429 0.0000430 0.0049429 0.0000430 0.0049429 0.9999570 -0.0049429
573 0.9999540 -0.0051688 0.0000460 0.0051688 0.0000460 0.0051688 0.9999540 -0.0051688
600 0.9999507 -0.0054050 0.0000493 0.0054050 0.0000493 0.0054050 0.9999507 -0.0054050
627 0.9999471 -0.0056520 0.0000529 0.0056520 0.0000529 0.0056520 0.9999471 -0.0056520
656 0.9999432 -0.0059104 0.0000568 0.0059104 0.0000568 0.0059104 0.9999432 -0.0059104
686 0.9999389 -0.0061805 0.0000611 0.0061805 0.0000611 0.0061805 0.9999389 -0.0061805
717 0.9999343 -0.0064629 0.0000657 0.0064629 0.0000657 0.0064629 0.9999343 -0.0064629
750 0.9999292 -0.0067583 0.0000708 0.0067583 0.0000708 0.0067583 0.9999292 -0.0067583
784 0.9999238 -0.0070671 0.0000762 0.0070671 0.0000762 0.0070671 0.9999238 -0.0070671
820 0.9999178 -0.0073901 0.0000822 0.0073901 0.0000822 0.0073901 0.9999178 -0.0073901
858 0.9999113 -0.0077278 0.0000887 0.0077278 0.0000887 0.0077278 0.9999113 -0.0077278
897 0.9999043 -0.0080809 0.0000957 0.0080809 0.0000957 0.0080809 0.9999043 -0.0080809
938 0.9998966 -0.0084501 0.0001034 0.0084501 0.0001034 0.0084501 0.9998966 -0.0084501
981 0.9998883 -0.0088362 0.0001117 0.0088362 0.0001117 0.0088362 0.9998883 -0.0088362
1026 0.9998792 -0.0092399 0.0001208 0.0092399 0.0001208 0.0092399 0.9998792 -0.0092399
1073 0.9998694 -0.0096620 0.0001306 0.0096620 0.0001306 0.0096620 0.9998694 -0.0096620
1122 0.9998586 -0.0101033 0.0001414 0.0101033 0.0001414 0.0101033 0.9998586 -0.0101033
1174 0.9998469 -0.0105648 0.0001531 0.0105648 0.0001531 0.0105648 0.9998469 -0.0105648
1227 0.9998343 -0.0110472 0.0001657 0.0110472 0.0001657 0.0110472 0.9998343 -0.0110472
1283 0.9998205 -0.0115517 0.0001795 0.0115517 0.0001795 0.0115517 0.9998205 -0.0115517
1342 0.9998055 -0.0120791 0.0001945 0.0120791 0.0001945 0.0120791 0.9998055 -0.0120791
1404 0.9997892 -0.0126306 0.0002108 0.0126306 0.0002108 0.0126306 0.9997892 -0.0126306
1468 0.9997715 -0.0132072 0.0002285 0.0132072 0.0002285 0.0132072 0.9997715 -0.0132072
1535 0.9997522 -0.0138100 0.0002478 0.0138100 0.0002478 0.0138100 0.9997522 -0.0138100
1606 0.9997313 -0.0144402 0.0002687 0.0144402 0.0002687 0.0144402 0.9997313 -0.0144402
1679 0.9997086 -0.0150992 0.0002914 0.0150992 0.0002914 0.0150992 0.9997086 -0.0150992
1756 0.9996839 -0.0157881 0.0003161 0.0157881 0.0003161 0.0157881 0.9996839 -0.0157881
1836 0.9996571 -0.0165084 0.0003429 0.0165084 0.0003429 0.0165084 0.9996571 -0.0165084
1920 0.9996280 -0.0172615 0.0003720 0.0172615 0.0003720 0.0172615 0.9996280 -0.0172615
2008 0.9995964 -0.0180488 0.0004036 0.0180488 0.0004036 0.0180488 0.9995964 -0.0180488
2100 0.9995620 -0.0188719 0.0004380 0.0188719 0.0004380 0.0188719 0.9995620 -0.0188719
2196 0.9995246 -0.0197325 0.0004754 0.0197325 0.0004754 0.0197325 0.9995246 -0.0197325
2297 0.9994840 -0.0206323 0.0005160 0.0206323 0.0005160 0.0206323 0.9994840 -0.0206323
2402 0.9994399 -0.0215730 0.0005601 0.0215730 0.0005601 0.0215730 0.9994399 -0.0215730
2512 0.9993920 -0.0225564 0.0006080 0.0225564 0.0006080 0.0225564 0.9993920 -0.0225564
2627 0.9993398 -0.0235847 0.0006602 0.0235847 0.0006602 0.0235847 0.9993398 -0.0235847
2748 0.9992831 -0.0246597 0.0007169 0.0246597 0.0007169 0.0246597 0.9992831 -0.0246597
2873 0.9992213 -0.0257835 0.0007787 0.0257835 0.0007787 0.0257835 0.9992213 -0.0257835
3005 0.9991542 -0.0269586 0.0008458 0.0269586 0.0008458 0.0269586 0.9991542 -0.0269586
3143 0.9990810 -0.0281870 0.0009190 0.0281870 0.0009190 0.0281870 0.9990810 -0.0281870
3287 0.9990014 -0.0294713 0.0009986 0.0294713 0.0009986 0.0294713 0.9990014 -0.0294713
3437 0.9989146 -0.0308139 0.0010854 0.0308139 0.0010854 0.0308139 0.9989146 -0.0308139
3594 0.9988201 -0.0322175 0.0011799 0.0322175 0.0011799 0.0322175 0.9988201 -0.0322175
3759 0.9987171 -0.0336849 0.0012829 0.0336849 0.0012829 0.0336849 0.9987171 -0.0336849
3931 0.9986048 -0.0352189 0.0013952 0.0352189 0.0013952 0.0352189 0.9986048 -0.0352189
4111 0.9984824 -0.0368224 0.0015176 0.0368224 0.0015176 0.0368224 0.9984824 -0.0368224
4299 0.9983488 -0.0384987 0.0016512 0.0384987 0.0016512 0.0384987 0.9983488 -0.0384987
4496 0.9982032 -0.0402508 0.0017968 0.0402508 0.0017968 0.0402508 0.9982032 -0.0402508
4702 0.9980442 -0.0420822 0.0019558 0.0420822 0.0019558 0.0420822 0.9980442 -0.0420822
4918 0.9978708 -0.0439965 0.0021292 0.0439965 0.0021292 0.0439965 0.9978708 -0.0439965
5143 0.9976815 -0.0459971 0.0023185 0.0459971 0.0023185 0.0459971 0.9976815 -0.0459971
5378 0.9974750 -0.0480880 0.0025250 0.0480880 0.0025250 0.0480880 0.9974750 -0.0480880
5625 0.9972495 -0.0502730 0.0027505 0.0502730 0.0027505 0.0502730 0.9972495 -0.0502730
5882 0.9970033 -0.0525563 0.0029967 0.0525563 0.0029967 0.0525563 0.9970033 -0.0525563
6151 0.9967346 -0.0549421 0.0032654 0.0549421 0.0032654 0.0549421 0.9967346 -0.0549421
6433 0.9964412 -0.0574347 0.0035588 0.0574347 0.0035588 0.0574347 0.9964412 -0.0574347
6728 0.9961209 -0.0600388 0.0038791 0.0600388 0.0038791 0.0600388 0.9961209 -0.0600388
7036 0.9957712 -0.0627591 0.0042288 0.0627591 0.0042288 0.0627591 0.9957712 -0.0627591
7358 0.9953895 -0.0656004 0.0046105 0.0656004 0.0046105 0.0656004 0.9953895 -0.0656004
7695 0.9949728 -0.0685678 0.0050272 0.0685678 0.0050272 0.0685678 0.9949728 -0.0685678
8047 0.9945179 -0.0716666 0.0054821 0.0716666 0.0054821 0.0716666 0.9945179 -0.0716666
8416 0.9940214 -0.0749020 0.0059786 0.0749020 0.0059786 0.0749020 0.9940214 -0.0749020
8801 0.9934795 -0.0782797 0.0065205 0.0782797 0.0065205 0.0782797 0.9934795 -0.0782797
9204 0.9928882 -0.0818053 0.0071118 0.0818053 0.0071118 0.0818053 0.9928882 -0.0818053
9626 0.9922430 -0.0854847 0.0077570 0.0854847 0.0077570 0.0854847 0.9922430 -0.0854847
10066 0.9915390 -0.0893239 0.0084610 0.0893239 0.0084610 0.0893239 0.9915390 -0.0893239
10527 0.9907711 -0.0933290 0.0092289 0.0933290 0.0092289 0.0933290 0.9907711 -0.0933290
11009 0.9899336 -0.0975063 0.0100664 0.0975063 0.0100664 0.0975063 0.9899336 -0.0975063
11514 0.9890204 -0.1018621 0.0109796 0.1018621 0.0109796 0.1018621 0.9890204 -0.1018621
12041 0.9880247 -0.1064030 0.0119753 0.1064030 0.0119753 0.1064030 0.9880247 -0.1064030
12592 0.9869393 -0.1111354 0.0130607 0.1111354 0.0130607 0.1111354 0.9869393 -0.1111354
13169 0.9857566 -0.1160660 0.0142434 0.1160660 0.0142434 0.1160660 0.9857566 -0.1160660
13772 0.9844679 -0.1212014 0.0155321 0.1212014 0.0155321 0.1212014 0.9844679 -0.1212014
14402 0.9830642 -0.1265482 0.0169358 0.1265482 0.0169358 0.1265482 0.9830642 -0.1265482
15062 0.9815357 -0.1321130 0.0184643 0.1321130 0.0184643 0.1321130 0.9815357 -0.1321130
15752 0.9798716 -0.1379023 0.0201284 0.1379023 0.0201284 0.1379023 0.9798716 -0.1379023
16473 0.9780606 -0.1439224 0.0219394 0.1439224 0.0219394 0.1439224 0.9780606 -0.1439224
17227 0.9760903 -0.1501794 0.0239097 0.1501794 0.0239097 0.1501794 0.9760903 -0.1501794
18016 0.9739474 -0.1566792 0.0260526 0.1566792 0.0260526 0.1566792 0.9739474 -0.1566792
18841 0.9716176 -0.1634273 0.0283824 0.1634273 0.0283824 0.1634273 0.9716176 -0.1634273
19704 0.9690858 -0.1704287 0.0309142 0.1704287 0.0309142 0.1704287 0.9690858 -0.1704287
20606 0.9663355 -0.1776879 0.0336645 0.1776879 0.0336645 0.1776879 0.9663355 -0.1776879
21550 0.9633492 -0.1852088 0.0366508 0.1852088 0.0366508 0.1852088 0.9633492 -0.1852088
22537 0.9601084 -0.1929944 0.0398916 0.1929944 0.0398916 0.1929944 0.9601084 -0.1929944
23569 0.9565931 -0.2010467 0.0434069 0.2010467 0.0434069 0.2010467 0.9565931 -0.2010467
24648 0.9527825 -0.2093669 0.0472175 0.2093669 0.0472175 0.2093669 0.9527825 -0.2093669
25777 0.9486542 -0.2179545 0.0513458 0.2179545 0.0513458 0.2179545 0.9486542 -0.2179545
26957 0.9441848 -0.2268078 0.0558152 0.2268078 0.0558152 0.2268078 0.9441848 -0.2268078
28191 0.9393498 -0.2359235 0.0606502 0.2359235 0.0606502 0.2359235 0.9393498 -0.2359235
29482 0.9341234 -0.2452961 0.0658766 0.2452961 0.0658766 0.2452961 0.9341234 -0.2452961
30832 0.9284790 -0.2549182 0.0715210 0.2549182 0.0715210 0.2549182 0.9284790 -0.2549182
32244 0.9223888 -0.2647801 0.0776112 0.2647801 0.0776112 0.2647801 0.9223888 -0.2647801
33721 0.9158245 -0.2748691 0.0841755 0.2748691 0.0841755 0.2748691 0.9158245 -0.2748691
35265 0.9087571 -0.2851701 0.0912429 0.2851701 0.0912429 0.2851701 0.9087571 -0.2851701
36880 0.9011573 -0.2956645 0.0988427 0.2956645 0.0988427 0.2956645 0.9011573 -0.2956645
38569 0.8929956 -0.3063305 0.1070044 0.3063305 0.1070044 0.3063305 0.8929956 -0.3063305
40335 0.8842431 -0.3171426 0.1157569 0.3171426 0.1157569 0.3171426 0.8842431 -0.3171426
42182 0.8748711 -0.3280716 0.1251289 0.3280716 0.1251289 0.3280716 0.8748711 -0.3280716
44113 0.8648524 -0.3390841 0.1351476 0.3390841 0.1351476 0.3390841 0.8648524 -0.3390841
46134 0.8541612 -0.3501428 0.1458388 0.3501428 0.1458388 0.3501428 0.8541612 -0.3501428
48246 0.8427739 -0.3612061 0.1572261 0.3612061 0.1572261 0.3612061 0.8427739 -0.3612061
50455 0.8306696 -0.3722282 0.1693304 0.3722282 0.1693304 0.3722282 0.8306696 -0.3722282
52766 0.8178309 -0.3831592 0.1821691 0.3831592 0.1821691 0.3831592 0.8178309 -0.3831592
55182 0.8042443 -0.3939455 0.1957557 0.3939455 0.1957557 0.3939455 0.8042443 -0.3939455
57709 0.7899010 -0.4045294 0.2100990 0.4045294 0.2100990 0.4045294 0.7899010 -0.4045294
60352 0.7747978 -0.4148504 0.2252022 0.4148504 0.2252022 0.4148504 0.7747978 -0.4148504
63115 0.7589373 -0.4248451 0.2410627 0.4248451 0.2410627 0.4248451 0.7589373 -0.4248451
66005 0.7423287 -0.4344481 0.2576713 0.4344481 0.2576713 0.4344481 0.7423287 -0.4344481
69028 0.7249886 -0.4435927 0.2750114 0.4435927 0.2750114 0.4435927 0.7249886 -0.4435927
72189 0.7069410 -0.4522118 0.2930590 0.4522118 0.2930590 0.4522118 0.7069410 -0.4522118
75495 0.6882177 -0.4602391 0.3117823 0.4602391 0.3117823 0.4602391 0.6882177 -0.4602391
78952 0.6688587 -0.4676098 0.3311413 0.4676098 0.3311413 0.4676098 0.6688587 -0.4676098
82567 0.6489118 -0.4742621 0.3510882 0.4742621 0.3510882 0.4742621 0.6489118 -0.4742621
86348 0.6284325 -0.4801382 0.3715675 0.4801382 0.3715675 0.4801382 0.6284325 -0.4801382
90302 0.6074839 -0.4851854 0.3925161 0.4851854 0.3925161 0.4851854 0.6074839 -0.4851854
94437 0.5861355 -0.4893574 0.4138645 0.4893574 0.4138645 0.4893574 0.5861355 -0.4893574
98762 0.5644628 -0.4926151 0.4355372 0.4926151 0.4355372 0.4926151 0.5644628 -0.4926151
103284 0.5425461 -0.4949275 0.4574539 0.4949275 0.4574539 0.4949275 0.5425461 -0.4949275
108014 0.5204693 -0.4962728 0.4795307 0.4962728 0.4795307 0.4962728 0.5204693 -0.4962728
112960 0.4983190 -0.4966382 0.5016810 0.4966382 0.5016810 0.4966382 0.4983190 -0.4966382
118133 0.4761826 -0.4960207 0.5238174 0.4960207 0.5238174 0.4960207 0.4761826 -0.4960207
123542 0.4541472 -0.4944273 0.5458528 0.4944273 0.5458528 0.4944273 0.4541472 -0.4944273
129199 0.4322984 -0.4918742 0.5677016 0.4918742 0.5677016 0.4918742 0.4322984 -0.4918742
135116 0.4107186 -0.4883869 0.5892814 0.4883869 0.5892814 0.4883869 0.4107186 -0.4883869
141303 0.3894861 -0.4839994 0.6105139 0.4839994 0.6105139 0.4839994 0.3894861 -0.4839994
147774 0.3686736 -0.4787535 0.6313264 0.4787535 0.6313264 0.4787535 0.3686736 -0.4787535
154540 0.3483480 -0.4726978 0.6516520 0.4726978 0.6516520 0.4726978 0.3483480 -0.4726978
161617 0.3285691 -0.4658864 0.6714309 0.4658864 0.6714309 0.4658864 0.3285691 -0.4658864
169018 0.3093891 -0.4583783 0.6906109 0.4583783 0.6906109 0.4583783 0.3093891 -0.4583783
176758 0.2908527 -0.4502358 0.7091473 0.4502358 0.7091473 0.4502358 0.2908527 -0.4502358
184852 0.2729965 -0.4415235 0.7270035 0.4415235 0.7270035 0.4415235 0.2729965 -0.4415235
193316 0.2558494 -0.4323075 0.7441506 0.4323075 0.7441506 0.4323075 0.2558494 -0.4323075
202169 0.2394327 -0.4226537 0.7605673 0.4226537 0.7605673 0.4226537 0.2394327 -0.4226537
211427 0.2237603 -0.4126275 0.7762397 0.4126275 0.7762397 0.4126275 0.2237603 -0.4126275
221108 0.2088395 -0.4022927 0.7911605 0.4022927 0.7911605 0.4022927 0.2088395 -0.4022927
231233 0.1946711 -0.3917109 0.8053289 0.3917109 0.8053289 0.3917109 0.1946711 -0.3917109
241822 0.1812505 -0.3809408 0.8187495 0.3809408 0.8187495 0.3809408 0.1812505 -0.3809408
252896 0.1685679 -0.3700378 0.8314321 0.3700378 0.8314321 0.3700378 0.1685679 -0.3700378
264476 0.1566094 -0.3590538 0.8433906 0.3590538 0.8433906 0.3590538 0.1566094 -0.3590538
276587 0.1453570 -0.3480366 0.8546430 0.3480366 0.8546430 0.3480366 0.1453570 -0.3480366
289253 0.1347899 -0.3370304 0.8652101 0.3370304 0.8652101 0.3370304 0.1347899 -0.3370304
302498 0.1248847 -0.3260750 0.8751153 0.3260750 0.8751153 0.3260750 0.1248847 -0.3260750
316350 0.1156162 -0.3152063 0.8843838 0.3152063 0.8843838 0.3152063 0.1156162 -0.3152063
330837 0.1069575 -0.3044563 0.8930425 0.3044563 0.8930425 0.3044563 0.1069575 -0.3044563
345986 0.0988808 -0.2938533 0.9011192 0.2938533 0.9011192 0.2938533 0.0988808 -0.2938533
361830 0.0913579 -0.2834218 0.9086421 0.2834218 0.9086421 0.2834218 0.0913579 -0.2834218
378399 0.0843601 -0.2731830 0.9156399 0.2731830 0.9156399 0.2731830 0.0843601 -0.2731830
395726 0.0778589 -0.2631548 0.9221411 0.2631548 0.9221411 0.2631548 0.0778589 -0.2631548
413847 0.0718261 -0.2533522 0.9281739 0.2533522 0.9281739 0.2533522 0.0718261 -0.2533522
432798 0.0662341 -0.2437874 0.9337659 0.2437874 0.9337659 0.2437874 0.0662341 -0.2437874
452617 0.0610558 -0.2344701 0.9389442 0.2344701 0.9389442 0.2344701 0.0610558 -0.2344701
473344 0.0562651 -0.2254077 0.9437349 0.2254077 0.9437349 0.2254077 0.0562651 -0.2254077
495019 0.0518370 -0.2166057 0.9481630 0.2166057 0.9481630 0.2166057 0.0518370 -0.2166057
517687 0.0477472 -0.2080675 0.9522528 0.2080675 0.9522528 0.2080675 0.0477472 -0.2080675
541393 0.0439727 -0.1997951 0.9560273 0.1997951 0.9560273 0.1997951 0.0439727 -0.1997951
566185 0.0404916 -0.1917890 0.9595084 0.1917890 0.9595084 0.1917890 0.0404916 -0.1917890
592111 0.0372831 -0.1840483 0.9627169 0.1840483 0.9627169 0.1840483 0.0372831 -0.1840483
619225 0.0343277 -0.1765712 0.9656723 0.1765712 0.9656723 0.1765712 0.0343277 -0.1765712
647581 0.0316067 -0.1693548 0.9683933 0.1693548 0.9683933 0.1693548 0.0316067 -0.1693548
677235 0.0291027 -0.1623954 0.9708973 0.1623954 0.9708973 0.1623954 0.0291027 -0.1623954
708247 0.0267995 -0.1556886 0.9732005 0.1556886 0.9732005 0.1556886 0.0267995 -0.1556886
740679 0.0246818 -0.1492297 0.9753182 0.1492297 0.9753182 0.1492297 0.0246818 -0.1492297
774597 0.0227353 -0.1430130 0.9772647 0.1430130 0.9772647 0.1430130 0.0227353 -0.1430130
810067 0.0209466 -0.1370330 0.9790534 0.1370330 0.9790534 0.1370330 0.0209466 -0.1370330
847162 0.0193035 -0.1312834 0.9806965 0.1312834 0.9806965 0.1312834 0.0193035 -0.1312834
885955 0.0177944 -0.1257580 0.9822056 0.1257580 0.9822056 0.1257580 0.0177944 -0.1257580
926525 0.0164086 -0.1204502 0.9835914 0.1204502 0.9835914 0.1204502 0.0164086 -0.1204502
968953 0.0151362 -0.1153536 0.9848638 0.1153536 0.9848638 0.1153536 0.0151362 -0.1153536
1013323 0.0139680 -0.1104614 0.9860320 0.1104614 0.9860320 0.1104614 0.0139680 -0.1104614
1059725 0.0128956 -0.1057670 0.9871044 0.1057670 0.9871044 0.1057670 0.0128956 -0.1057670
1108252 0.0119110 -0.1012637 0.9880890 0.1012637 0.9880890 0.1012637 0.0119110 -0.1012637
1159002 0.0110072 -0.0969449 0.9889928 0.0969449 0.9889928 0.0969449 0.0110072 -0.0969449
1212075 0.0101773 -0.0928039 0.9898227 0.0928039 0.9898227 0.0928039 0.0101773 -0.0928039
1267578 0.0094153 -0.0888344 0.9905847 0.0888344 0.9905847 0.0888344 0.0094153 -0.0888344
1325623 0.0087155 -0.0850300 0.9912845 0.0850300 0.9912845 0.0850300 0.0087155 -0.0850300
1386327 0.0080726 -0.0813845 0.9919274 0.0813845 0.9919274 0.0813845 0.0080726 -0.0813845
1449809 0.0074820 -0.0778917 0.9925180 0.0778917 0.9925180 0.0778917 0.0074820 -0.0778917
1516199 0.0069391 -0.0745457 0.9930609 0.0745457 0.9930609 0.0745457 0.0069391 -0.0745457
1585629 0.0064401 -0.0713408 0.9935599 0.0713408 0.9935599 0.0713408 0.0064401 -0.0713408
1658239 0.0059812 -0.0682713 0.9940188 0.0682713 0.9940188 0.0682713 0.0059812 -0.0682713
1734173 0.0055590 -0.0653316 0.9944410 0.0653316 0.9944410 0.0653316 0.0055590 -0.0653316
1813585 0.0051704 -0.0625167 0.9948296 0.0625167 0.9948296 0.0625167 0.0051704 -0.0625167
1896632 0.0048126 -0.0598212 0.9951874 0.0598212 0.9951874 0.0598212 0.0048126 -0.0598212
1983483 0.0044831 -0.0572403 0.9955169 0.0572403 0.9955169 0.0572403 0.0044831 -0.0572403
2074311 0.0041795 -0.0547691 0.9958205 0.0547691 0.9958205 0.0547691 0.0041795 -0.0547691
