!Murata Part Number: GRM188R71H473MA61
!These Parameters are Measured in Series Mode Connection
!Data Generated on Mar 30, 2021
!       o--ll--o
!Port1            Port2
!       o------o
!Operation Temp=25[degC], DC Bias Voltage=0[V]
!Freq. Start=100[Hz] Stop=6[GHz] 401[Steps]
# Hz S RI R 50
!Freq.(Hz) S11(Real) S11(Imag) S21(Real) S21(Imag) S12(Real) S12(Imag) S22(Real) S22(Imag)
100 0.9999787 -0.0028946 0.0000213 0.0028946 0.0000213 0.0028946 0.9999787 -0.0028946
105 0.9999774 -0.0030268 0.0000226 0.0030268 0.0000226 0.0030268 0.9999774 -0.0030268
109 0.9999759 -0.0031650 0.0000241 0.0031650 0.0000241 0.0031650 0.9999759 -0.0031650
114 0.9999744 -0.0033095 0.0000256 0.0033095 0.0000256 0.0033095 0.9999744 -0.0033095
120 0.9999727 -0.0034606 0.0000273 0.0034606 0.0000273 0.0034606 0.9999727 -0.0034606
125 0.9999709 -0.0036186 0.0000291 0.0036186 0.0000291 0.0036186 0.9999709 -0.0036186
131 0.9999689 -0.0037838 0.0000311 0.0037838 0.0000311 0.0037838 0.9999689 -0.0037838
137 0.9999668 -0.0039566 0.0000332 0.0039566 0.0000332 0.0039566 0.9999668 -0.0039566
143 0.9999646 -0.0041372 0.0000354 0.0041372 0.0000354 0.0041372 0.9999646 -0.0041372
150 0.9999621 -0.0043261 0.0000379 0.0043261 0.0000379 0.0043261 0.9999621 -0.0043261
156 0.9999595 -0.0045237 0.0000405 0.0045237 0.0000405 0.0045237 0.9999595 -0.0045237
164 0.9999566 -0.0047302 0.0000434 0.0047302 0.0000434 0.0047302 0.9999566 -0.0047302
171 0.9999535 -0.0049462 0.0000465 0.0049462 0.0000465 0.0049462 0.9999535 -0.0049462
179 0.9999502 -0.0051720 0.0000498 0.0051720 0.0000498 0.0051720 0.9999502 -0.0051720
187 0.9999466 -0.0054082 0.0000534 0.0054082 0.0000534 0.0054082 0.9999466 -0.0054082
196 0.9999427 -0.0056551 0.0000573 0.0056551 0.0000573 0.0056551 0.9999427 -0.0056551
205 0.9999385 -0.0059132 0.0000615 0.0059132 0.0000615 0.0059132 0.9999385 -0.0059132
214 0.9999339 -0.0061832 0.0000661 0.0061832 0.0000661 0.0061832 0.9999339 -0.0061832
224 0.9999290 -0.0064654 0.0000710 0.0064654 0.0000710 0.0064654 0.9999290 -0.0064654
234 0.9999237 -0.0067605 0.0000763 0.0067605 0.0000763 0.0067605 0.9999237 -0.0067605
245 0.9999179 -0.0070691 0.0000821 0.0070691 0.0000821 0.0070691 0.9999179 -0.0070691
256 0.9999117 -0.0073917 0.0000883 0.0073917 0.0000883 0.0073917 0.9999117 -0.0073917
268 0.9999050 -0.0077291 0.0000950 0.0077291 0.0000950 0.0077291 0.9999050 -0.0077291
280 0.9998978 -0.0080818 0.0001022 0.0080818 0.0001022 0.0080818 0.9998978 -0.0080818
293 0.9998900 -0.0084506 0.0001100 0.0084506 0.0001100 0.0084506 0.9998900 -0.0084506
306 0.9998815 -0.0088362 0.0001185 0.0088362 0.0001185 0.0088362 0.9998815 -0.0088362
320 0.9998724 -0.0092394 0.0001276 0.0092394 0.0001276 0.0092394 0.9998724 -0.0092394
335 0.9998625 -0.0096610 0.0001375 0.0096610 0.0001375 0.0096610 0.9998625 -0.0096610
350 0.9998518 -0.0101019 0.0001482 0.0101019 0.0001482 0.0101019 0.9998518 -0.0101019
366 0.9998402 -0.0105628 0.0001598 0.0105628 0.0001598 0.0105628 0.9998402 -0.0105628
383 0.9998277 -0.0110448 0.0001723 0.0110448 0.0001723 0.0110448 0.9998277 -0.0110448
401 0.9998141 -0.0115487 0.0001859 0.0115487 0.0001859 0.0115487 0.9998141 -0.0115487
419 0.9997994 -0.0120757 0.0002006 0.0120757 0.0002006 0.0120757 0.9997994 -0.0120757
438 0.9997835 -0.0126267 0.0002165 0.0126267 0.0002165 0.0126267 0.9997835 -0.0126267
458 0.9997662 -0.0132029 0.0002338 0.0132029 0.0002338 0.0132029 0.9997662 -0.0132029
479 0.9997475 -0.0138054 0.0002525 0.0138054 0.0002525 0.0138054 0.9997475 -0.0138054
501 0.9997271 -0.0144353 0.0002729 0.0144353 0.0002729 0.0144353 0.9997271 -0.0144353
524 0.9997050 -0.0150941 0.0002950 0.0150941 0.0002950 0.0150941 0.9997050 -0.0150941
548 0.9996809 -0.0157829 0.0003191 0.0157829 0.0003191 0.0157829 0.9996809 -0.0157829
573 0.9996547 -0.0165031 0.0003453 0.0165031 0.0003453 0.0165031 0.9996547 -0.0165031
600 0.9996263 -0.0172562 0.0003737 0.0172562 0.0003737 0.0172562 0.9996263 -0.0172562
627 0.9995953 -0.0180437 0.0004047 0.0180437 0.0004047 0.0180437 0.9995953 -0.0180437
656 0.9995615 -0.0188671 0.0004385 0.0188671 0.0004385 0.0188671 0.9995615 -0.0188671
686 0.9995248 -0.0197281 0.0004752 0.0197281 0.0004752 0.0197281 0.9995248 -0.0197281
717 0.9994847 -0.0206283 0.0005153 0.0206283 0.0005153 0.0206283 0.9994847 -0.0206283
750 0.9994411 -0.0215696 0.0005589 0.0215696 0.0005589 0.0215696 0.9994411 -0.0215696
784 0.9993935 -0.0225537 0.0006065 0.0225537 0.0006065 0.0225537 0.9993935 -0.0225537
820 0.9993416 -0.0235827 0.0006584 0.0235827 0.0006584 0.0235827 0.9993416 -0.0235827
858 0.9992850 -0.0246585 0.0007150 0.0246585 0.0007150 0.0246585 0.9992850 -0.0246585
897 0.9992233 -0.0257833 0.0007767 0.0257833 0.0007767 0.0257833 0.9992233 -0.0257833
938 0.9991559 -0.0269593 0.0008441 0.0269593 0.0008441 0.0269593 0.9991559 -0.0269593
981 0.9990825 -0.0281886 0.0009175 0.0281886 0.0009175 0.0281886 0.9990825 -0.0281886
1026 0.9990023 -0.0294739 0.0009977 0.0294739 0.0009977 0.0294739 0.9990023 -0.0294739
1073 0.9989148 -0.0308174 0.0010852 0.0308174 0.0010852 0.0308174 0.9989148 -0.0308174
1122 0.9988194 -0.0322220 0.0011806 0.0322220 0.0011806 0.0322220 0.9988194 -0.0322220
1174 0.9987153 -0.0336901 0.0012847 0.0336901 0.0012847 0.0336901 0.9987153 -0.0336901
1227 0.9986017 -0.0352247 0.0013983 0.0352247 0.0013983 0.0352247 0.9986017 -0.0352247
1283 0.9984777 -0.0368288 0.0015223 0.0368288 0.0015223 0.0368288 0.9984777 -0.0368288
1342 0.9983425 -0.0385054 0.0016575 0.0385054 0.0016575 0.0385054 0.9983425 -0.0385054
1404 0.9981949 -0.0402576 0.0018051 0.0402576 0.0018051 0.0402576 0.9981949 -0.0402576
1468 0.9980339 -0.0420888 0.0019661 0.0420888 0.0019661 0.0420888 0.9980339 -0.0420888
1535 0.9978583 -0.0440026 0.0021417 0.0440026 0.0021417 0.0440026 0.9978583 -0.0440026
1606 0.9976668 -0.0460024 0.0023332 0.0460024 0.0023332 0.0460024 0.9976668 -0.0460024
1679 0.9974579 -0.0480921 0.0025421 0.0480921 0.0025421 0.0480921 0.9974579 -0.0480921
1756 0.9972300 -0.0502756 0.0027700 0.0502756 0.0027700 0.0502756 0.9972300 -0.0502756
1836 0.9969815 -0.0525568 0.0030185 0.0525568 0.0030185 0.0525568 0.9969815 -0.0525568
1920 0.9967106 -0.0549402 0.0032894 0.0549402 0.0032894 0.0549402 0.9967106 -0.0549402
2008 0.9964151 -0.0574299 0.0035849 0.0574299 0.0035849 0.0574299 0.9964151 -0.0574299
2100 0.9960930 -0.0600306 0.0039070 0.0600306 0.0039070 0.0600306 0.9960930 -0.0600306
2196 0.9957417 -0.0627470 0.0042583 0.0627470 0.0042583 0.0627470 0.9957417 -0.0627470
2297 0.9953588 -0.0655840 0.0046412 0.0655840 0.0046412 0.0655840 0.9953588 -0.0655840
2402 0.9949413 -0.0685467 0.0050587 0.0685467 0.0050587 0.0685467 0.9949413 -0.0685467
2512 0.9944863 -0.0716403 0.0055137 0.0716403 0.0055137 0.0716403 0.9944863 -0.0716403
2627 0.9939902 -0.0748703 0.0060098 0.0748703 0.0060098 0.0748703 0.9939902 -0.0748703
2748 0.9934494 -0.0782422 0.0065506 0.0782422 0.0065506 0.0782422 0.9934494 -0.0782422
2873 0.9928599 -0.0817618 0.0071401 0.0817618 0.0071401 0.0817618 0.9928599 -0.0817618
3005 0.9922174 -0.0854350 0.0077826 0.0854350 0.0077826 0.0854350 0.9922174 -0.0854350
3143 0.9915171 -0.0892680 0.0084829 0.0892680 0.0084829 0.0892680 0.9915171 -0.0892680
3287 0.9907538 -0.0932670 0.0092462 0.0932670 0.0092462 0.0932670 0.9907538 -0.0932670
3437 0.9899219 -0.0974384 0.0100781 0.0974384 0.0100781 0.0974384 0.9899219 -0.0974384
3594 0.9890152 -0.1017886 0.0109848 0.1017886 0.0109848 0.1017886 0.9890152 -0.1017886
3759 0.9880271 -0.1063244 0.0119729 0.1063244 0.0119729 0.1063244 0.9880271 -0.1063244
3931 0.9869504 -0.1110524 0.0130496 0.1110524 0.0130496 0.1110524 0.9869504 -0.1110524
4111 0.9857772 -0.1159794 0.0142228 0.1159794 0.0142228 0.1159794 0.9857772 -0.1159794
4299 0.9844990 -0.1211121 0.0155010 0.1211121 0.0155010 0.1211121 0.9844990 -0.1211121
4496 0.9831066 -0.1264574 0.0168934 0.1264574 0.0168934 0.1264574 0.9831066 -0.1264574
4702 0.9815900 -0.1320219 0.0184100 0.1320219 0.0184100 0.1320219 0.9815900 -0.1320219
4918 0.9799385 -0.1378123 0.0200615 0.1378123 0.0200615 0.1378123 0.9799385 -0.1378123
5143 0.9781404 -0.1438350 0.0218596 0.1438350 0.0218596 0.1438350 0.9781404 -0.1438350
5378 0.9761831 -0.1500963 0.0238169 0.1500963 0.0238169 0.1500963 0.9761831 -0.1500963
5625 0.9740533 -0.1566020 0.0259467 0.1566020 0.0259467 0.1566020 0.9740533 -0.1566020
5882 0.9717365 -0.1633578 0.0282635 0.1633578 0.0282635 0.1633578 0.9717365 -0.1633578
6151 0.9692171 -0.1703687 0.0307829 0.1703687 0.0307829 0.1703687 0.9692171 -0.1703687
6433 0.9664784 -0.1776391 0.0335216 0.1776391 0.0335216 0.1776391 0.9664784 -0.1776391
6728 0.9635029 -0.1851729 0.0364971 0.1851729 0.0364971 0.1851729 0.9635029 -0.1851729
7036 0.9602716 -0.1929729 0.0397284 0.1929729 0.0397284 0.1929729 0.9602716 -0.1929729
7358 0.9567644 -0.2010412 0.0432356 0.2010412 0.0432356 0.2010412 0.9567644 -0.2010412
7695 0.9529602 -0.2093785 0.0470398 0.2093785 0.0470398 0.2093785 0.9529602 -0.2093785
8047 0.9488364 -0.2179843 0.0511636 0.2179843 0.0511636 0.2179843 0.9488364 -0.2179843
8416 0.9443695 -0.2268566 0.0556305 0.2268566 0.0556305 0.2268566 0.9443695 -0.2268566
8801 0.9395348 -0.2359917 0.0604652 0.2359917 0.0604652 0.2359917 0.9395348 -0.2359917
9204 0.9343065 -0.2453839 0.0656935 0.2453839 0.0656935 0.2453839 0.9343065 -0.2453839
9626 0.9286579 -0.2550254 0.0713421 0.2550254 0.0713421 0.2550254 0.9286579 -0.2550254
10066 0.9225614 -0.2649062 0.0774386 0.2649062 0.0774386 0.2649062 0.9225614 -0.2649062
10527 0.9159886 -0.2750132 0.0840114 0.2750132 0.0840114 0.2750132 0.9159886 -0.2750132
11009 0.9089107 -0.2853310 0.0910893 0.2853310 0.0910893 0.2853310 0.9089107 -0.2853310
11514 0.9012987 -0.2958406 0.0987013 0.2958406 0.0987013 0.2958406 0.9012987 -0.2958406
12041 0.8931234 -0.3065199 0.1068766 0.3065199 0.1068766 0.3065199 0.8931234 -0.3065199
12592 0.8843561 -0.3173434 0.1156439 0.3173434 0.1156439 0.3173434 0.8843561 -0.3173434
13169 0.8749688 -0.3282814 0.1250312 0.3282814 0.1250312 0.3282814 0.8749688 -0.3282814
13772 0.8649345 -0.3393007 0.1350655 0.3393007 0.1350655 0.3393007 0.8649345 -0.3393007
14402 0.8542279 -0.3503638 0.1457721 0.3503638 0.1457721 0.3503638 0.8542279 -0.3503638
15062 0.8428260 -0.3614292 0.1571740 0.3614292 0.1571740 0.3614292 0.8428260 -0.3614292
15752 0.8307083 -0.3724514 0.1692917 0.3724514 0.1692917 0.3724514 0.8307083 -0.3724514
16473 0.8178578 -0.3833808 0.1821422 0.3833808 0.1821422 0.3833808 0.8178578 -0.3833808
17227 0.8042615 -0.3941640 0.1957385 0.3941640 0.1957385 0.3941640 0.8042615 -0.3941640
18016 0.7899110 -0.4047441 0.2100890 0.4047441 0.2100890 0.4047441 0.7899110 -0.4047441
18841 0.7748031 -0.4150609 0.2251969 0.4150609 0.2251969 0.4150609 0.7748031 -0.4150609
19704 0.7589407 -0.4250517 0.2410593 0.4250517 0.2410593 0.4250517 0.7589407 -0.4250517
20606 0.7423329 -0.4346518 0.2576671 0.4346518 0.2576671 0.4346518 0.7423329 -0.4346518
21550 0.7249961 -0.4437952 0.2750039 0.4437952 0.2750039 0.4437952 0.7249961 -0.4437952
22537 0.7069540 -0.4524154 0.2930460 0.4524154 0.2930460 0.4524154 0.7069540 -0.4524154
23569 0.6882380 -0.4604467 0.3117620 0.4604467 0.3117620 0.4604467 0.6882380 -0.4604467
24648 0.6688873 -0.4678249 0.3311127 0.4678249 0.3311127 0.4678249 0.6688873 -0.4678249
25777 0.6489492 -0.4744884 0.3510508 0.4744884 0.3510508 0.4744884 0.6489492 -0.4744884
26957 0.6284783 -0.4803796 0.3715217 0.4803796 0.3715217 0.4803796 0.6284783 -0.4803796
28191 0.6075366 -0.4854459 0.3924634 0.4854459 0.3924634 0.4854459 0.6075366 -0.4854459
29482 0.5861931 -0.4896409 0.4138069 0.4896409 0.4138069 0.4896409 0.5861931 -0.4896409
30832 0.5645221 -0.4929250 0.4354779 0.4929250 0.4354779 0.4929250 0.5645221 -0.4929250
32244 0.5426033 -0.4952668 0.4573967 0.4952668 0.4573967 0.4952668 0.5426033 -0.4952668
33721 0.5205201 -0.4966437 0.4794799 0.4966437 0.4794799 0.4966437 0.5205201 -0.4966437
35265 0.4983583 -0.4970420 0.5016417 0.4970420 0.5016417 0.4970420 0.4983583 -0.4970420
36880 0.4762051 -0.4964580 0.5237949 0.4964580 0.5237949 0.4964580 0.4762051 -0.4964580
38569 0.4541476 -0.4948974 0.5458524 0.4948974 0.5458524 0.4948974 0.4541476 -0.4948974
40335 0.4322714 -0.4923755 0.5677286 0.4923755 0.5677286 0.4923755 0.4322714 -0.4923755
42182 0.4106591 -0.4889169 0.5893409 0.4889169 0.5893409 0.4889169 0.4106591 -0.4889169
44113 0.3893896 -0.4845546 0.6106104 0.4845546 0.6106104 0.4845546 0.3893896 -0.4845546
46134 0.3685364 -0.4793298 0.6314636 0.4793298 0.6314636 0.4793298 0.3685364 -0.4793298
48246 0.3481670 -0.4732902 0.6518330 0.4732902 0.6518330 0.4732902 0.3481670 -0.4732902
50455 0.3283421 -0.4664899 0.6716579 0.4664899 0.6716579 0.4664899 0.3283421 -0.4664899
52766 0.3091149 -0.4589873 0.6908851 0.4589873 0.6908851 0.4589873 0.3091149 -0.4589873
55182 0.2905310 -0.4508448 0.7094690 0.4508448 0.7094690 0.4508448 0.2905310 -0.4508448
57709 0.2726280 -0.4421271 0.7273720 0.4421271 0.7273720 0.4421271 0.2726280 -0.4421271
60352 0.2554356 -0.4329005 0.7445644 0.4329005 0.7445644 0.4329005 0.2554356 -0.4329005
63115 0.2389757 -0.4232315 0.7610243 0.4232315 0.7610243 0.4232315 0.2389757 -0.4232315
66005 0.2232630 -0.4131859 0.7767370 0.4131859 0.7767370 0.4131859 0.2232630 -0.4131859
69028 0.2083052 -0.4028281 0.7916948 0.4028281 0.7916948 0.4028281 0.2083052 -0.4028281
72189 0.1941037 -0.3922205 0.8058963 0.3922205 0.8058963 0.3922205 0.1941037 -0.3922205
75495 0.1806538 -0.3814224 0.8193462 0.3814224 0.8193462 0.3814224 0.1806538 -0.3814224
78952 0.1679459 -0.3704898 0.8320541 0.3704898 0.8320541 0.3704898 0.1679459 -0.3704898
82567 0.1559661 -0.3594754 0.8440339 0.3594754 0.8440339 0.3594754 0.1559661 -0.3594754
86348 0.1446963 -0.3484275 0.8553037 0.3484275 0.8553037 0.3484275 0.1446963 -0.3484275
90302 0.1341155 -0.3373908 0.8658845 0.3373908 0.8658845 0.3373908 0.1341155 -0.3373908
94437 0.1242000 -0.3264056 0.8758000 0.3264056 0.8758000 0.3264056 0.1242000 -0.3264056
98762 0.1149242 -0.3155082 0.8850758 0.3155082 0.8850758 0.3155082 0.1149242 -0.3155082
103284 0.1062610 -0.3047309 0.8937390 0.3047309 0.8937390 0.3047309 0.1062610 -0.3047309
108014 0.0981822 -0.2941021 0.9018178 0.2941021 0.9018178 0.2941021 0.0981822 -0.2941021
112960 0.0906591 -0.2836465 0.9093409 0.2836465 0.9093409 0.2836465 0.0906591 -0.2836465
118133 0.0836628 -0.2733854 0.9163372 0.2733854 0.9163372 0.2733854 0.0836628 -0.2733854
123542 0.0771645 -0.2633367 0.9228355 0.2633367 0.9228355 0.2633367 0.0771645 -0.2633367
129199 0.0711356 -0.2535154 0.9288644 0.2535154 0.9288644 0.2535154 0.0711356 -0.2535154
135116 0.0655481 -0.2439337 0.9344519 0.2439337 0.9344519 0.2439337 0.0655481 -0.2439337
141303 0.0603750 -0.2346012 0.9396250 0.2346012 0.9396250 0.2346012 0.0603750 -0.2346012
147774 0.0555899 -0.2255251 0.9444101 0.2255251 0.9444101 0.2255251 0.0555899 -0.2255251
154540 0.0511674 -0.2167109 0.9488326 0.2167109 0.9488326 0.2167109 0.0511674 -0.2167109
161617 0.0470833 -0.2081618 0.9529167 0.2081618 0.9529167 0.2081618 0.0470833 -0.2081618
169018 0.0433144 -0.1998798 0.9566856 0.1998798 0.9566856 0.1998798 0.0433144 -0.1998798
176758 0.0398387 -0.1918651 0.9601613 0.1918651 0.9601613 0.1918651 0.0398387 -0.1918651
184852 0.0366354 -0.1841167 0.9633646 0.1841167 0.9633646 0.1841167 0.0366354 -0.1841167
193316 0.0336848 -0.1766328 0.9663152 0.1766328 0.9663152 0.1766328 0.0336848 -0.1766328
202169 0.0309683 -0.1694102 0.9690317 0.1694102 0.9690317 0.1694102 0.0309683 -0.1694102
211427 0.0284686 -0.1624453 0.9715314 0.1624453 0.9715314 0.1624453 0.0284686 -0.1624453
221108 0.0261693 -0.1557336 0.9738307 0.1557336 0.9738307 0.1557336 0.0261693 -0.1557336
231233 0.0240551 -0.1492701 0.9759449 0.1492701 0.9759449 0.1492701 0.0240551 -0.1492701
241822 0.0221118 -0.1430493 0.9778882 0.1430493 0.9778882 0.1430493 0.0221118 -0.1430493
252896 0.0203260 -0.1370653 0.9796740 0.1370653 0.9796740 0.1370653 0.0203260 -0.1370653
264476 0.0186855 -0.1313120 0.9813145 0.1313120 0.9813145 0.1313120 0.0186855 -0.1313120
276587 0.0171788 -0.1257831 0.9828212 0.1257831 0.9828212 0.1257831 0.0171788 -0.1257831
289253 0.0157951 -0.1204720 0.9842049 0.1204720 0.9842049 0.1204720 0.0157951 -0.1204720
302498 0.0145246 -0.1153720 0.9854754 0.1153720 0.9854754 0.1153720 0.0145246 -0.1153720
316350 0.0133583 -0.1104766 0.9866417 0.1104766 0.9866417 0.1104766 0.0133583 -0.1104766
330837 0.0122875 -0.1057789 0.9877125 0.1057789 0.9877125 0.1057789 0.0122875 -0.1057789
345986 0.0113046 -0.1012722 0.9886954 0.1012722 0.9886954 0.1012722 0.0113046 -0.1012722
361830 0.0104023 -0.0969500 0.9895977 0.0969500 0.9895977 0.0969500 0.0104023 -0.0969500
378399 0.0095740 -0.0928056 0.9904260 0.0928056 0.9904260 0.0928056 0.0095740 -0.0928056
395726 0.0088137 -0.0888326 0.9911863 0.0888326 0.9911863 0.0888326 0.0088137 -0.0888326
413847 0.0081156 -0.0850247 0.9918844 0.0850247 0.9918844 0.0850247 0.0081156 -0.0850247
432798 0.0074747 -0.0813755 0.9925253 0.0813755 0.9925253 0.0813755 0.0074747 -0.0813755
452617 0.0068862 -0.0778791 0.9931138 0.0778791 0.9931138 0.0778791 0.0068862 -0.0778791
473344 0.0063457 -0.0745294 0.9936543 0.0745294 0.9936543 0.0745294 0.0063457 -0.0745294
495019 0.0058492 -0.0713208 0.9941508 0.0713208 0.9941508 0.0713208 0.0058492 -0.0713208
517687 0.0053932 -0.0682476 0.9946068 0.0682476 0.9946068 0.0682476 0.0053932 -0.0682476
541393 0.0049742 -0.0653044 0.9950258 0.0653044 0.9950258 0.0653044 0.0049742 -0.0653044
566185 0.0045892 -0.0624860 0.9954108 0.0624860 0.9954108 0.0624860 0.0045892 -0.0624860
592111 0.0042354 -0.0597872 0.9957646 0.0597872 0.9957646 0.0597872 0.0042354 -0.0597872
619225 0.0039102 -0.0572031 0.9960898 0.0572031 0.9960898 0.0572031 0.0039102 -0.0572031
647581 0.0036113 -0.0547291 0.9963887 0.0547291 0.9963887 0.0547291 0.0036113 -0.0547291
677235 0.0033365 -0.0523606 0.9966635 0.0523606 0.9966635 0.0523606 0.0033365 -0.0523606
708247 0.0030838 -0.0500932 0.9969162 0.0500932 0.9969162 0.0500932 0.0030838 -0.0500932
740679 0.0028515 -0.0479226 0.9971485 0.0479226 0.9971485 0.0479226 0.0028515 -0.0479226
774597 0.0026379 -0.0458449 0.9973621 0.0458449 0.9973621 0.0458449 0.0026379 -0.0458449
810067 0.0024415 -0.0438561 0.9975585 0.0438561 0.9975585 0.0438561 0.0024415 -0.0438561
847162 0.0022608 -0.0419525 0.9977392 0.0419525 0.9977392 0.0419525 0.0022608 -0.0419525
885955 0.0020947 -0.0401306 0.9979053 0.0401306 0.9979053 0.0401306 0.0020947 -0.0401306
926525 0.0019420 -0.0383868 0.9980580 0.0383868 0.9980580 0.0383868 0.0019420 -0.0383868
968953 0.0018016 -0.0367179 0.9981984 0.0367179 0.9981984 0.0367179 0.0018016 -0.0367179
1013323 0.0016725 -0.0351206 0.9983275 0.0351206 0.9983275 0.0351206 0.0016725 -0.0351206
1059725 0.0015538 -0.0335921 0.9984462 0.0335921 0.9984462 0.0335921 0.0015538 -0.0335921
1108252 0.0014447 -0.0321293 0.9985553 0.0321293 0.9985553 0.0321293 0.0014447 -0.0321293
1159002 0.0013445 -0.0307295 0.9986555 0.0307295 0.9986555 0.0307295 0.0013445 -0.0307295
1212075 0.0012523 -0.0293900 0.9987477 0.0293900 0.9987477 0.0293900 0.0012523 -0.0293900
1267578 0.0011676 -0.0281083 0.9988324 0.0281083 0.9988324 0.0281083 0.0011676 -0.0281083
1325623 0.0010898 -0.0268818 0.9989102 0.0268818 0.9989102 0.0268818 0.0010898 -0.0268818
1386327 0.0010183 -0.0257082 0.9989817 0.0257082 0.9989817 0.0257082 0.0010183 -0.0257082
1449809 0.0009526 -0.0245853 0.9990474 0.0245853 0.9990474 0.0245853 0.0009526 -0.0245853
1516199 0.0008922 -0.0235109 0.9991078 0.0235109 0.9991078 0.0235109 0.0008922 -0.0235109
1585629 0.0008368 -0.0224828 0.9991632 0.0224828 0.9991632 0.0224828 0.0008368 -0.0224828
1658239 0.0007858 -0.0214993 0.9992142 0.0214993 0.9992142 0.0214993 0.0007858 -0.0214993
1734173 0.0007390 -0.0205582 0.9992610 0.0205582 0.9992610 0.0205582 0.0007390 -0.0205582
1813585 0.0006959 -0.0196578 0.9993041 0.0196578 0.9993041 0.0196578 0.0006959 -0.0196578
1896632 0.0006564 -0.0187963 0.9993436 0.0187963 0.9993436 0.0187963 0.0006564 -0.0187963
1983483 0.0006200 -0.0179721 0.9993800 0.0179721 0.9993800 0.0179721 0.0006200 -0.0179721
2074311 0.0005866 -0.0171834 0.9994134 0.0171834 0.9994134 0.0171834 0.0005866 -0.0171834
