!Murata Part Number: GRM188R61H224KAC4
!These Parameters are Measured in Series Mode Connection
!Data Generated on Mar 30, 2021
!       o--ll--o
!Port1            Port2
!       o------o
!Operation Temp=25[degC], DC Bias Voltage=0[V]
!Freq. Start=100[Hz] Stop=6[GHz] 401[Steps]
# Hz S RI R 50
!Freq.(Hz) S11(Real) S11(Imag) S21(Real) S21(Imag) S12(Real) S12(Imag) S22(Real) S22(Imag)
100 0.9997401 -0.0140343 0.0002599 0.0140343 0.0002599 0.0140343 0.9997401 -0.0140343
105 0.9997192 -0.0146747 0.0002808 0.0146747 0.0002808 0.0146747 0.9997192 -0.0146747
109 0.9996965 -0.0153443 0.0003035 0.0153443 0.0003035 0.0153443 0.9996965 -0.0153443
114 0.9996718 -0.0160444 0.0003282 0.0160444 0.0003282 0.0160444 0.9996718 -0.0160444
120 0.9996449 -0.0167765 0.0003551 0.0167765 0.0003551 0.0167765 0.9996449 -0.0167765
125 0.9996156 -0.0175419 0.0003844 0.0175419 0.0003844 0.0175419 0.9996156 -0.0175419
131 0.9995838 -0.0183422 0.0004162 0.0183422 0.0004162 0.0183422 0.9995838 -0.0183422
137 0.9995492 -0.0191790 0.0004508 0.0191790 0.0004508 0.0191790 0.9995492 -0.0191790
143 0.9995115 -0.0200539 0.0004885 0.0200539 0.0004885 0.0200539 0.9995115 -0.0200539
150 0.9994705 -0.0209687 0.0005295 0.0209687 0.0005295 0.0209687 0.9994705 -0.0209687
156 0.9994258 -0.0219252 0.0005742 0.0219252 0.0005742 0.0219252 0.9994258 -0.0219252
164 0.9993772 -0.0229252 0.0006228 0.0229252 0.0006228 0.0229252 0.9993772 -0.0229252
171 0.9993242 -0.0239707 0.0006758 0.0239707 0.0006758 0.0239707 0.9993242 -0.0239707
179 0.9992665 -0.0250638 0.0007335 0.0250638 0.0007335 0.0250638 0.9992665 -0.0250638
187 0.9992036 -0.0262066 0.0007964 0.0262066 0.0007964 0.0262066 0.9992036 -0.0262066
196 0.9991351 -0.0274014 0.0008649 0.0274014 0.0008649 0.0274014 0.9991351 -0.0274014
205 0.9990605 -0.0286505 0.0009395 0.0286505 0.0009395 0.0286505 0.9990605 -0.0286505
214 0.9989791 -0.0299564 0.0010209 0.0299564 0.0010209 0.0299564 0.9989791 -0.0299564
224 0.9988904 -0.0313216 0.0011096 0.0313216 0.0011096 0.0313216 0.9988904 -0.0313216
234 0.9987938 -0.0327488 0.0012062 0.0327488 0.0012062 0.0327488 0.9987938 -0.0327488
245 0.9986884 -0.0342407 0.0013116 0.0342407 0.0013116 0.0342407 0.9986884 -0.0342407
256 0.9985734 -0.0358004 0.0014266 0.0358004 0.0014266 0.0358004 0.9985734 -0.0358004
268 0.9984481 -0.0374307 0.0015519 0.0374307 0.0015519 0.0374307 0.9984481 -0.0374307
280 0.9983113 -0.0391350 0.0016887 0.0391350 0.0016887 0.0391350 0.9983113 -0.0391350
293 0.9981621 -0.0409163 0.0018379 0.0409163 0.0018379 0.0409163 0.9981621 -0.0409163
306 0.9979994 -0.0427782 0.0020006 0.0427782 0.0020006 0.0427782 0.9979994 -0.0427782
320 0.9978218 -0.0447242 0.0021782 0.0447242 0.0021782 0.0447242 0.9978218 -0.0447242
335 0.9976280 -0.0467581 0.0023720 0.0467581 0.0023720 0.0467581 0.9976280 -0.0467581
350 0.9974164 -0.0488837 0.0025836 0.0488837 0.0025836 0.0488837 0.9974164 -0.0488837
366 0.9971855 -0.0511049 0.0028145 0.0511049 0.0028145 0.0511049 0.9971855 -0.0511049
383 0.9969335 -0.0534260 0.0030665 0.0534260 0.0030665 0.0534260 0.9969335 -0.0534260
401 0.9966584 -0.0558512 0.0033416 0.0558512 0.0033416 0.0558512 0.9966584 -0.0558512
419 0.9963581 -0.0583851 0.0036419 0.0583851 0.0036419 0.0583851 0.9963581 -0.0583851
438 0.9960303 -0.0610322 0.0039697 0.0610322 0.0039697 0.0610322 0.9960303 -0.0610322
458 0.9956725 -0.0637975 0.0043275 0.0637975 0.0043275 0.0637975 0.9956725 -0.0637975
479 0.9952819 -0.0666858 0.0047181 0.0666858 0.0047181 0.0666858 0.9952819 -0.0666858
501 0.9948555 -0.0697023 0.0051445 0.0697023 0.0051445 0.0697023 0.9948555 -0.0697023
524 0.9943900 -0.0728524 0.0056100 0.0728524 0.0056100 0.0728524 0.9943900 -0.0728524
548 0.9938820 -0.0761414 0.0061180 0.0761414 0.0061180 0.0761414 0.9938820 -0.0761414
573 0.9933276 -0.0795751 0.0066724 0.0795751 0.0066724 0.0795751 0.9933276 -0.0795751
600 0.9927226 -0.0831593 0.0072774 0.0831593 0.0072774 0.0831593 0.9927226 -0.0831593
627 0.9920624 -0.0868999 0.0079376 0.0868999 0.0079376 0.0868999 0.9920624 -0.0868999
656 0.9913421 -0.0908031 0.0086579 0.0908031 0.0086579 0.0908031 0.9913421 -0.0908031
686 0.9905563 -0.0948750 0.0094437 0.0948750 0.0094437 0.0948750 0.9905563 -0.0948750
717 0.9896991 -0.0991221 0.0103009 0.0991221 0.0103009 0.0991221 0.9896991 -0.0991221
750 0.9887644 -0.1035509 0.0112356 0.1035509 0.0112356 0.1035509 0.9887644 -0.1035509
784 0.9877450 -0.1081679 0.0122550 0.1081679 0.0122550 0.1081679 0.9877450 -0.1081679
820 0.9866338 -0.1129799 0.0133662 0.1129799 0.0133662 0.1129799 0.9866338 -0.1129799
858 0.9854224 -0.1179936 0.0145776 0.1179936 0.0145776 0.1179936 0.9854224 -0.1179936
897 0.9841023 -0.1232157 0.0158977 0.1232157 0.0158977 0.1232157 0.9841023 -0.1232157
938 0.9826640 -0.1286529 0.0173360 0.1286529 0.0173360 0.1286529 0.9826640 -0.1286529
981 0.9810973 -0.1343119 0.0189027 0.1343119 0.0189027 0.1343119 0.9810973 -0.1343119
1026 0.9793912 -0.1401992 0.0206088 0.1401992 0.0206088 0.1401992 0.9793912 -0.1401992
1073 0.9775337 -0.1463213 0.0224663 0.1463213 0.0224663 0.1463213 0.9775337 -0.1463213
1122 0.9755121 -0.1526842 0.0244879 0.1526842 0.0244879 0.1526842 0.9755121 -0.1526842
1174 0.9733126 -0.1592938 0.0266874 0.1592938 0.0266874 0.1592938 0.9733126 -0.1592938
1227 0.9709205 -0.1661555 0.0290795 0.1661555 0.0290795 0.1661555 0.9709205 -0.1661555
1283 0.9683198 -0.1732743 0.0316802 0.1732743 0.0316802 0.1732743 0.9683198 -0.1732743
1342 0.9654937 -0.1806546 0.0345063 0.1806546 0.0345063 0.1806546 0.9654937 -0.1806546
1404 0.9624239 -0.1882998 0.0375761 0.1882998 0.0375761 0.1882998 0.9624239 -0.1882998
1468 0.9590913 -0.1962127 0.0409087 0.1962127 0.0409087 0.1962127 0.9590913 -0.1962127
1535 0.9554753 -0.2043951 0.0445247 0.2043951 0.0445247 0.2043951 0.9554753 -0.2043951
1606 0.9515542 -0.2128474 0.0484458 0.2128474 0.0484458 0.2128474 0.9515542 -0.2128474
1679 0.9473051 -0.2215687 0.0526949 0.2215687 0.0526949 0.2215687 0.9473051 -0.2215687
1756 0.9427040 -0.2305567 0.0572960 0.2305567 0.0572960 0.2305567 0.9427040 -0.2305567
1836 0.9377254 -0.2398071 0.0622746 0.2398071 0.0622746 0.2398071 0.9377254 -0.2398071
1920 0.9323432 -0.2493137 0.0676568 0.2493137 0.0676568 0.2493137 0.9323432 -0.2493137
2008 0.9265301 -0.2590679 0.0734699 0.2590679 0.0734699 0.2590679 0.9265301 -0.2590679
2100 0.9202578 -0.2690588 0.0797422 0.2690588 0.0797422 0.2690588 0.9202578 -0.2690588
2196 0.9134976 -0.2792727 0.0865024 0.2792727 0.0865024 0.2792727 0.9134976 -0.2792727
2297 0.9062202 -0.2896929 0.0937798 0.2896929 0.0937798 0.2896929 0.9062202 -0.2896929
2402 0.8983961 -0.3002993 0.1016039 0.3002993 0.1016039 0.3002993 0.8983961 -0.3002993
2512 0.8899958 -0.3110685 0.1100042 0.3110685 0.1100042 0.3110685 0.8899958 -0.3110685
2627 0.8809904 -0.3219734 0.1190096 0.3219734 0.1190096 0.3219734 0.8809904 -0.3219734
2748 0.8713517 -0.3329829 0.1286483 0.3329829 0.1286483 0.3329829 0.8713517 -0.3329829
2873 0.8610530 -0.3440618 0.1389470 0.3440618 0.1389470 0.3440618 0.8610530 -0.3440618
3005 0.8500692 -0.3551710 0.1499308 0.3551710 0.1499308 0.3551710 0.8500692 -0.3551710
3143 0.8383779 -0.3662670 0.1616221 0.3662670 0.1616221 0.3662670 0.8383779 -0.3662670
3287 0.8259594 -0.3773021 0.1740406 0.3773021 0.1740406 0.3773021 0.8259594 -0.3773021
3437 0.8127978 -0.3882249 0.1872022 0.3882249 0.1872022 0.3882249 0.8127978 -0.3882249
3594 0.7988816 -0.3989798 0.2011184 0.3989798 0.2011184 0.3989798 0.7988816 -0.3989798
3759 0.7842040 -0.4095079 0.2157960 0.4095079 0.2157960 0.4095079 0.7842040 -0.4095079
3931 0.7687642 -0.4197474 0.2312358 0.4197474 0.2312358 0.4197474 0.7687642 -0.4197474
4111 0.7525674 -0.4296339 0.2474326 0.4296339 0.2474326 0.4296339 0.7525674 -0.4296339
4299 0.7356258 -0.4391013 0.2643742 0.4391013 0.2643742 0.4391013 0.7356258 -0.4391013
4496 0.7179587 -0.4480826 0.2820413 0.4480826 0.2820413 0.4480826 0.7179587 -0.4480826
4702 0.6995934 -0.4565109 0.3004066 0.4565109 0.3004066 0.4565109 0.6995934 -0.4565109
4918 0.6805647 -0.4643201 0.3194353 0.4643201 0.3194353 0.4643201 0.6805647 -0.4643201
5143 0.6609156 -0.4714466 0.3390844 0.4714466 0.3390844 0.4714466 0.6609156 -0.4714466
5378 0.6406972 -0.4778297 0.3593028 0.4778297 0.3593028 0.4778297 0.6406972 -0.4778297
5625 0.6199677 -0.4834134 0.3800323 0.4834134 0.3800323 0.4834134 0.6199677 -0.4834134
5882 0.5987928 -0.4881472 0.4012072 0.4881472 0.4012072 0.4881472 0.5987928 -0.4881472
6151 0.5772443 -0.4919873 0.4227557 0.4919873 0.4227557 0.4919873 0.5772443 -0.4919873
6433 0.5553996 -0.4948974 0.4446004 0.4948974 0.4446004 0.4948974 0.5553996 -0.4948974
6728 0.5333407 -0.4968496 0.4666593 0.4968496 0.4666593 0.4968496 0.5333407 -0.4968496
7036 0.5111526 -0.4978250 0.4888474 0.4978250 0.4888474 0.4978250 0.5111526 -0.4978250
7358 0.4889224 -0.4978144 0.5110776 0.4978144 0.5110776 0.4978144 0.4889224 -0.4978144
7695 0.4667378 -0.4968181 0.5332622 0.4968181 0.5332622 0.4968181 0.4667378 -0.4968181
8047 0.4446858 -0.4948461 0.5553142 0.4948461 0.5553142 0.4948461 0.4446858 -0.4948461
8416 0.4228512 -0.4919178 0.5771488 0.4919178 0.5771488 0.4919178 0.4228512 -0.4919178
8801 0.4013156 -0.4880616 0.5986844 0.4880616 0.5986844 0.4880616 0.4013156 -0.4880616
9204 0.3801557 -0.4833143 0.6198443 0.4833143 0.6198443 0.4833143 0.3801557 -0.4833143
9626 0.3594430 -0.4777199 0.6405570 0.4777199 0.6405570 0.4777199 0.3594430 -0.4777199
10066 0.3392425 -0.4713292 0.6607575 0.4713292 0.6607575 0.4713292 0.3392425 -0.4713292
10527 0.3196118 -0.4641983 0.6803882 0.4641983 0.6803882 0.4641983 0.3196118 -0.4641983
11009 0.3006014 -0.4563877 0.6993986 0.4563877 0.6993986 0.4563877 0.3006014 -0.4563877
11514 0.2822538 -0.4479609 0.7177462 0.4479609 0.7177462 0.4479609 0.2822538 -0.4479609
12041 0.2646034 -0.4389836 0.7353966 0.4389836 0.7353966 0.4389836 0.2646034 -0.4389836
12592 0.2476770 -0.4295226 0.7523230 0.4295226 0.7523230 0.4295226 0.2476770 -0.4295226
13169 0.2314937 -0.4196443 0.7685063 0.4196443 0.7685063 0.4196443 0.2314937 -0.4196443
13772 0.2160654 -0.4094146 0.7839346 0.4094146 0.7839346 0.4094146 0.2160654 -0.4094146
14402 0.2013974 -0.3988972 0.7986026 0.3988972 0.7986026 0.3988972 0.2013974 -0.3988972
15062 0.1874886 -0.3881538 0.8125114 0.3881538 0.8125114 0.3881538 0.1874886 -0.3881538
15752 0.1743325 -0.3772428 0.8256675 0.3772428 0.8256675 0.3772428 0.1743325 -0.3772428
16473 0.1619175 -0.3662193 0.8380825 0.3662193 0.8380825 0.3662193 0.1619175 -0.3662193
17227 0.1502280 -0.3551347 0.8497720 0.3551347 0.8497720 0.3551347 0.1502280 -0.3551347
18016 0.1392445 -0.3440363 0.8607555 0.3440363 0.8607555 0.3440363 0.1392445 -0.3440363
18841 0.1289447 -0.3329673 0.8710553 0.3329673 0.8710553 0.3329673 0.1289447 -0.3329673
19704 0.1193039 -0.3219670 0.8806961 0.3219670 0.8806961 0.3219670 0.1193039 -0.3219670
20606 0.1102955 -0.3110702 0.8897045 0.3110702 0.8897045 0.3110702 0.1102955 -0.3110702
21550 0.1018915 -0.3003081 0.8981085 0.3003081 0.8981085 0.3003081 0.1018915 -0.3003081
22537 0.0940633 -0.2897078 0.9059367 0.2897078 0.9059367 0.2897078 0.0940633 -0.2897078
23569 0.0867816 -0.2792928 0.9132184 0.2792928 0.9132184 0.2792928 0.0867816 -0.2792928
24648 0.0800170 -0.2690831 0.9199830 0.2690831 0.9199830 0.2690831 0.0800170 -0.2690831
25777 0.0737405 -0.2590956 0.9262595 0.2590956 0.9262595 0.2590956 0.0737405 -0.2590956
26957 0.0679232 -0.2493441 0.9320768 0.2493441 0.9320768 0.2493441 0.0679232 -0.2493441
28191 0.0625372 -0.2398397 0.9374628 0.2398397 0.9374628 0.2398397 0.0625372 -0.2398397
29482 0.0575552 -0.2305910 0.9424448 0.2305910 0.9424448 0.2305910 0.0575552 -0.2305910
30832 0.0529510 -0.2216043 0.9470490 0.2216043 0.9470490 0.2216043 0.0529510 -0.2216043
32244 0.0486993 -0.2128840 0.9513007 0.2128840 0.9513007 0.2128840 0.0486993 -0.2128840
33721 0.0447759 -0.2044327 0.9552241 0.2044327 0.9552241 0.2044327 0.0447759 -0.2044327
35265 0.0411580 -0.1962512 0.9588420 0.1962512 0.9588420 0.1962512 0.0411580 -0.1962512
36880 0.0378238 -0.1883393 0.9621762 0.1883393 0.9621762 0.1883393 0.0378238 -0.1883393
38569 0.0347527 -0.1806952 0.9652473 0.1806952 0.9652473 0.1806952 0.0347527 -0.1806952
40335 0.0319255 -0.1733163 0.9680745 0.1733163 0.9680745 0.1733163 0.0319255 -0.1733163
42182 0.0293238 -0.1661990 0.9706762 0.1661990 0.9706762 0.1661990 0.0293238 -0.1661990
44113 0.0269307 -0.1593390 0.9730693 0.1593390 0.9730693 0.1593390 0.0269307 -0.1593390
46134 0.0247303 -0.1527315 0.9752697 0.1527315 0.9752697 0.1527315 0.0247303 -0.1527315
48246 0.0227076 -0.1463709 0.9772924 0.1463709 0.9772924 0.1463709 0.0227076 -0.1463709
50455 0.0208489 -0.1402514 0.9791511 0.1402514 0.9791511 0.1402514 0.0208489 -0.1402514
52766 0.0191413 -0.1343668 0.9808587 0.1343668 0.9808587 0.1343668 0.0191413 -0.1343668
55182 0.0175729 -0.1287107 0.9824271 0.1287107 0.9824271 0.1287107 0.0175729 -0.1287107
57709 0.0161326 -0.1232765 0.9838674 0.1232765 0.9838674 0.1232765 0.0161326 -0.1232765
60352 0.0148102 -0.1180575 0.9851898 0.1180575 0.9851898 0.1180575 0.0148102 -0.1180575
63115 0.0135962 -0.1130469 0.9864038 0.1130469 0.9864038 0.1130469 0.0135962 -0.1130469
66005 0.0124819 -0.1082379 0.9875181 0.1082379 0.9875181 0.1082379 0.0124819 -0.1082379
69028 0.0114592 -0.1036237 0.9885408 0.1036237 0.9885408 0.1036237 0.0114592 -0.1036237
72189 0.0105207 -0.0991977 0.9894793 0.0991977 0.9894793 0.0991977 0.0105207 -0.0991977
75495 0.0096596 -0.0949531 0.9903404 0.0949531 0.9903404 0.0949531 0.0096596 -0.0949531
78952 0.0088695 -0.0908834 0.9911305 0.0908834 0.9911305 0.0908834 0.0088695 -0.0908834
82567 0.0081446 -0.0869822 0.9918554 0.0869822 0.9918554 0.0869822 0.0081446 -0.0869822
86348 0.0074797 -0.0832432 0.9925203 0.0832432 0.9925203 0.0832432 0.0074797 -0.0832432
90302 0.0068698 -0.0796602 0.9931302 0.0796602 0.9931302 0.0796602 0.0068698 -0.0796602
94437 0.0063104 -0.0762274 0.9936896 0.0762274 0.9936896 0.0762274 0.0063104 -0.0762274
98762 0.0057974 -0.0729389 0.9942026 0.0729389 0.9942026 0.0729389 0.0057974 -0.0729389
103284 0.0053269 -0.0697890 0.9946731 0.0697890 0.9946731 0.0697890 0.0053269 -0.0697890
108014 0.0048955 -0.0667722 0.9951045 0.0667722 0.9951045 0.0667722 0.0048955 -0.0667722
112960 0.0045000 -0.0638833 0.9955000 0.0638833 0.9955000 0.0638833 0.0045000 -0.0638833
118133 0.0041373 -0.0611172 0.9958627 0.0611172 0.9958627 0.0611172 0.0041373 -0.0611172
123542 0.0038048 -0.0584688 0.9961952 0.0584688 0.9961952 0.0584688 0.0038048 -0.0584688
129199 0.0035001 -0.0559334 0.9964999 0.0559334 0.9964999 0.0559334 0.0035001 -0.0559334
135116 0.0032207 -0.0535064 0.9967793 0.0535064 0.9967793 0.0535064 0.0032207 -0.0535064
141303 0.0029646 -0.0511834 0.9970354 0.0511834 0.9970354 0.0511834 0.0029646 -0.0511834
147774 0.0027299 -0.0489600 0.9972701 0.0489600 0.9972701 0.0489600 0.0027299 -0.0489600
154540 0.0025147 -0.0468321 0.9974853 0.0468321 0.9974853 0.0468321 0.0025147 -0.0468321
161617 0.0023176 -0.0447958 0.9976824 0.0447958 0.9976824 0.0447958 0.0023176 -0.0447958
169018 0.0021369 -0.0428472 0.9978631 0.0428472 0.9978631 0.0428472 0.0021369 -0.0428472
176758 0.0019713 -0.0409826 0.9980287 0.0409826 0.9980287 0.0409826 0.0019713 -0.0409826
184852 0.0018196 -0.0391986 0.9981804 0.0391986 0.9981804 0.0391986 0.0018196 -0.0391986
193316 0.0016805 -0.0374917 0.9983195 0.0374917 0.9983195 0.0374917 0.0016805 -0.0374917
202169 0.0015530 -0.0358586 0.9984470 0.0358586 0.9984470 0.0358586 0.0015530 -0.0358586
211427 0.0014361 -0.0342963 0.9985639 0.0342963 0.9985639 0.0342963 0.0014361 -0.0342963
221108 0.0013290 -0.0328017 0.9986710 0.0328017 0.9986710 0.0328017 0.0013290 -0.0328017
231233 0.0012308 -0.0313720 0.9987692 0.0313720 0.9987692 0.0313720 0.0012308 -0.0313720
241822 0.0011408 -0.0300043 0.9988592 0.0300043 0.9988592 0.0300043 0.0011408 -0.0300043
252896 0.0010582 -0.0286960 0.9989418 0.0286960 0.9989418 0.0286960 0.0010582 -0.0286960
264476 0.0009825 -0.0274445 0.9990175 0.0274445 0.9990175 0.0274445 0.0009825 -0.0274445
276587 0.0009130 -0.0262475 0.9990870 0.0262475 0.9990870 0.0262475 0.0009130 -0.0262475
289253 0.0008493 -0.0251026 0.9991507 0.0251026 0.9991507 0.0251026 0.0008493 -0.0251026
302498 0.0007908 -0.0240074 0.9992092 0.0240074 0.9992092 0.0240074 0.0007908 -0.0240074
316350 0.0007370 -0.0229600 0.9992630 0.0229600 0.9992630 0.0229600 0.0007370 -0.0229600
330837 0.0006877 -0.0219581 0.9993123 0.0219581 0.9993123 0.0219581 0.0006877 -0.0219581
345986 0.0006424 -0.0209999 0.9993576 0.0209999 0.9993576 0.0209999 0.0006424 -0.0209999
361830 0.0006007 -0.0200834 0.9993993 0.0200834 0.9993993 0.0200834 0.0006007 -0.0200834
378399 0.0005623 -0.0192068 0.9994377 0.0192068 0.9994377 0.0192068 0.0005623 -0.0192068
395726 0.0005271 -0.0183685 0.9994729 0.0183685 0.9994729 0.0183685 0.0005271 -0.0183685
413847 0.0004946 -0.0175666 0.9995054 0.0175666 0.9995054 0.0175666 0.0004946 -0.0175666
432798 0.0004647 -0.0167997 0.9995353 0.0167997 0.9995353 0.0167997 0.0004647 -0.0167997
452617 0.0004371 -0.0160661 0.9995629 0.0160661 0.9995629 0.0160661 0.0004371 -0.0160661
473344 0.0004117 -0.0153645 0.9995883 0.0153645 0.9995883 0.0153645 0.0004117 -0.0153645
495019 0.0003882 -0.0146935 0.9996118 0.0146935 0.9996118 0.0146935 0.0003882 -0.0146935
517687 0.0003665 -0.0140517 0.9996335 0.0140517 0.9996335 0.0140517 0.0003665 -0.0140517
541393 0.0003465 -0.0134377 0.9996535 0.0134377 0.9996535 0.0134377 0.0003465 -0.0134377
566185 0.0003280 -0.0128505 0.9996720 0.0128505 0.9996720 0.0128505 0.0003280 -0.0128505
592111 0.0003108 -0.0122888 0.9996892 0.0122888 0.9996892 0.0122888 0.0003108 -0.0122888
619225 0.0002949 -0.0117516 0.9997051 0.0117516 0.9997051 0.0117516 0.0002949 -0.0117516
647581 0.0002802 -0.0112376 0.9997198 0.0112376 0.9997198 0.0112376 0.0002802 -0.0112376
677235 0.0002666 -0.0107460 0.9997334 0.0107460 0.9997334 0.0107460 0.0002666 -0.0107460
708247 0.0002539 -0.0102756 0.9997461 0.0102756 0.9997461 0.0102756 0.0002539 -0.0102756
740679 0.0002421 -0.0098257 0.9997579 0.0098257 0.9997579 0.0098257 0.0002421 -0.0098257
774597 0.0002312 -0.0093953 0.9997688 0.0093953 0.9997688 0.0093953 0.0002312 -0.0093953
810067 0.0002211 -0.0089834 0.9997789 0.0089834 0.9997789 0.0089834 0.0002211 -0.0089834
847162 0.0002117 -0.0085894 0.9997883 0.0085894 0.9997883 0.0085894 0.0002117 -0.0085894
885955 0.0002029 -0.0082125 0.9997971 0.0082125 0.9997971 0.0082125 0.0002029 -0.0082125
926525 0.0001948 -0.0078518 0.9998052 0.0078518 0.9998052 0.0078518 0.0001948 -0.0078518
968953 0.0001872 -0.0075066 0.9998128 0.0075066 0.9998128 0.0075066 0.0001872 -0.0075066
1013323 0.0001802 -0.0071764 0.9998198 0.0071764 0.9998198 0.0071764 0.0001802 -0.0071764
1059725 0.0001737 -0.0068604 0.9998263 0.0068604 0.9998263 0.0068604 0.0001737 -0.0068604
1108252 0.0001677 -0.0065579 0.9998323 0.0065579 0.9998323 0.0065579 0.0001677 -0.0065579
1159002 0.0001621 -0.0062685 0.9998379 0.0062685 0.9998379 0.0062685 0.0001621 -0.0062685
1212075 0.0001568 -0.0059915 0.9998432 0.0059915 0.9998432 0.0059915 0.0001568 -0.0059915
1267578 0.0001520 -0.0057264 0.9998480 0.0057264 0.9998480 0.0057264 0.0001520 -0.0057264
1325623 0.0001475 -0.0054727 0.9998525 0.0054727 0.9998525 0.0054727 0.0001475 -0.0054727
1386327 0.0001434 -0.0052298 0.9998566 0.0052298 0.9998566 0.0052298 0.0001434 -0.0052298
1449809 0.0001396 -0.0049973 0.9998604 0.0049973 0.9998604 0.0049973 0.0001396 -0.0049973
1516199 0.0001360 -0.0047747 0.9998640 0.0047747 0.9998640 0.0047747 0.0001360 -0.0047747
1585629 0.0001328 -0.0045616 0.9998672 0.0045616 0.9998672 0.0045616 0.0001328 -0.0045616
1658239 0.0001298 -0.0043576 0.9998702 0.0043576 0.9998702 0.0043576 0.0001298 -0.0043576
1734173 0.0001270 -0.0041622 0.9998730 0.0041622 0.9998730 0.0041622 0.0001270 -0.0041622
1813585 0.0001244 -0.0039752 0.9998756 0.0039752 0.9998756 0.0039752 0.0001244 -0.0039752
1896632 0.0001221 -0.0037960 0.9998779 0.0037960 0.9998779 0.0037960 0.0001221 -0.0037960
1983483 0.0001199 -0.0036244 0.9998801 0.0036244 0.9998801 0.0036244 0.0001199 -0.0036244
2074311 0.0001179 -0.0034600 0.9998821 0.0034600 0.9998821 0.0034600 0.0001179 -0.0034600
