!Murata Part Number: GRM188R71C105KE15
!These Parameters are Measured in Series Mode Connection
!Data Generated on Mar 30, 2021
!       o--ll--o
!Port1            Port2
!       o------o
!Operation Temp=25[degC], DC Bias Voltage=0[V]
!Freq. Start=100[Hz] Stop=6[GHz] 401[Steps]
# Hz S RI R 50
!Freq.(Hz) S11(Real) S11(Imag) S21(Real) S21(Imag) S12(Real) S12(Imag) S22(Real) S22(Imag)
100 0.9977194 -0.0413269 0.0022806 0.0413269 0.0022806 0.0413269 0.9977194 -0.0413269
105 0.9975329 -0.0431929 0.0024671 0.0431929 0.0024671 0.0431929 0.9975329 -0.0431929
109 0.9973303 -0.0451424 0.0026697 0.0451424 0.0026697 0.0451424 0.9973303 -0.0451424
114 0.9971101 -0.0471790 0.0028899 0.0471790 0.0028899 0.0471790 0.9971101 -0.0471790
120 0.9968707 -0.0493063 0.0031293 0.0493063 0.0031293 0.0493063 0.9968707 -0.0493063
125 0.9966106 -0.0515284 0.0033894 0.0515284 0.0033894 0.0515284 0.9966106 -0.0515284
131 0.9963278 -0.0538492 0.0036722 0.0538492 0.0036722 0.0538492 0.9963278 -0.0538492
137 0.9960203 -0.0562728 0.0039797 0.0562728 0.0039797 0.0562728 0.9960203 -0.0562728
143 0.9956861 -0.0588035 0.0043139 0.0588035 0.0043139 0.0588035 0.9956861 -0.0588035
150 0.9953228 -0.0614459 0.0046772 0.0614459 0.0046772 0.0614459 0.9953228 -0.0614459
156 0.9949279 -0.0642045 0.0050721 0.0642045 0.0050721 0.0642045 0.9949279 -0.0642045
164 0.9944986 -0.0670841 0.0055014 0.0670841 0.0055014 0.0670841 0.9944986 -0.0670841
171 0.9940320 -0.0700896 0.0059680 0.0700896 0.0059680 0.0700896 0.9940320 -0.0700896
179 0.9935248 -0.0732262 0.0064752 0.0732262 0.0064752 0.0732262 0.9935248 -0.0732262
187 0.9929736 -0.0764991 0.0070264 0.0764991 0.0070264 0.0764991 0.9929736 -0.0764991
196 0.9923747 -0.0799138 0.0076253 0.0799138 0.0076253 0.0799138 0.9923747 -0.0799138
205 0.9917239 -0.0834759 0.0082761 0.0834759 0.0082761 0.0834759 0.9917239 -0.0834759
214 0.9910167 -0.0871911 0.0089833 0.0871911 0.0089833 0.0871911 0.9910167 -0.0871911
224 0.9902483 -0.0910653 0.0097517 0.0910653 0.0097517 0.0910653 0.9902483 -0.0910653
234 0.9894135 -0.0951046 0.0105865 0.0951046 0.0105865 0.0951046 0.9894135 -0.0951046
245 0.9885065 -0.0993153 0.0114935 0.0993153 0.0114935 0.0993153 0.9885065 -0.0993153
256 0.9875212 -0.1037035 0.0124788 0.1037035 0.0124788 0.1037035 0.9875212 -0.1037035
268 0.9864509 -0.1082758 0.0135491 0.1082758 0.0135491 0.1082758 0.9864509 -0.1082758
280 0.9852881 -0.1130386 0.0147119 0.1130386 0.0147119 0.1130386 0.9852881 -0.1130386
293 0.9840251 -0.1179984 0.0159749 0.1179984 0.0159749 0.1179984 0.9840251 -0.1179984
306 0.9826531 -0.1231619 0.0173469 0.1231619 0.0173469 0.1231619 0.9826531 -0.1231619
320 0.9811630 -0.1285356 0.0188370 0.1285356 0.0188370 0.1285356 0.9811630 -0.1285356
335 0.9795445 -0.1341258 0.0204555 0.1341258 0.0204555 0.1341258 0.9795445 -0.1341258
350 0.9777869 -0.1399389 0.0222131 0.1399389 0.0222131 0.1399389 0.9777869 -0.1399389
366 0.9758785 -0.1459811 0.0241215 0.1459811 0.0241215 0.1459811 0.9758785 -0.1459811
383 0.9738064 -0.1522583 0.0261936 0.1522583 0.0261936 0.1522583 0.9738064 -0.1522583
401 0.9715572 -0.1587759 0.0284428 0.1587759 0.0284428 0.1587759 0.9715572 -0.1587759
419 0.9691163 -0.1655390 0.0308837 0.1655390 0.0308837 0.1655390 0.9691163 -0.1655390
438 0.9664680 -0.1725523 0.0335320 0.1725523 0.0335320 0.1725523 0.9664680 -0.1725523
458 0.9635956 -0.1798196 0.0364044 0.1798196 0.0364044 0.1798196 0.9635956 -0.1798196
479 0.9604814 -0.1873440 0.0395186 0.1873440 0.0395186 0.1873440 0.9604814 -0.1873440
501 0.9571064 -0.1951277 0.0428936 0.1951277 0.0428936 0.1951277 0.9571064 -0.1951277
524 0.9534505 -0.2031720 0.0465495 0.2031720 0.0465495 0.2031720 0.9534505 -0.2031720
548 0.9494928 -0.2114768 0.0505072 0.2114768 0.0505072 0.2114768 0.9494928 -0.2114768
573 0.9452108 -0.2200406 0.0547892 0.2200406 0.0547892 0.2200406 0.9452108 -0.2200406
600 0.9405814 -0.2288604 0.0594186 0.2288604 0.0594186 0.2288604 0.9405814 -0.2288604
627 0.9355802 -0.2379313 0.0644198 0.2379313 0.0644198 0.2379313 0.9355802 -0.2379313
656 0.9301820 -0.2472467 0.0698180 0.2472467 0.0698180 0.2472467 0.9301820 -0.2472467
686 0.9243608 -0.2567976 0.0756392 0.2567976 0.0756392 0.2567976 0.9243608 -0.2567976
717 0.9180900 -0.2665725 0.0819100 0.2665725 0.0819100 0.2665725 0.9180900 -0.2665725
750 0.9113422 -0.2765575 0.0886578 0.2765575 0.0886578 0.2765575 0.9113422 -0.2765575
784 0.9040902 -0.2867358 0.0959098 0.2867358 0.0959098 0.2867358 0.9040902 -0.2867358
820 0.8963063 -0.2970875 0.1036937 0.2970875 0.1036937 0.2970875 0.8963063 -0.2970875
858 0.8879633 -0.3075896 0.1120367 0.3075896 0.1120367 0.3075896 0.8879633 -0.3075896
897 0.8790346 -0.3182154 0.1209654 0.3182154 0.1209654 0.3182154 0.8790346 -0.3182154
938 0.8694944 -0.3289351 0.1305056 0.3289351 0.1305056 0.3289351 0.8694944 -0.3289351
981 0.8593184 -0.3397149 0.1406816 0.3397149 0.1406816 0.3397149 0.8593184 -0.3397149
1026 0.8484841 -0.3505175 0.1515159 0.3505175 0.1515159 0.3505175 0.8484841 -0.3505175
1073 0.8369714 -0.3613016 0.1630286 0.3613016 0.1630286 0.3613016 0.8369714 -0.3613016
1122 0.8247628 -0.3720227 0.1752372 0.3720227 0.1752372 0.3720227 0.8247628 -0.3720227
1174 0.8118444 -0.3826323 0.1881556 0.3826323 0.1881556 0.3826323 0.8118444 -0.3826323
1227 0.7982062 -0.3930790 0.2017938 0.3930790 0.2017938 0.3930790 0.7982062 -0.3930790
1283 0.7838428 -0.4033082 0.2161572 0.4033082 0.2161572 0.4033082 0.7838428 -0.4033082
1342 0.7687538 -0.4132625 0.2312462 0.4132625 0.2312462 0.4132625 0.7687538 -0.4132625
1404 0.7529442 -0.4228828 0.2470558 0.4228828 0.2470558 0.4228828 0.7529442 -0.4228828
1468 0.7364252 -0.4321081 0.2635748 0.4321081 0.2635748 0.4321081 0.7364252 -0.4321081
1535 0.7192146 -0.4408767 0.2807854 0.4408767 0.2807854 0.4408767 0.7192146 -0.4408767
1606 0.7013368 -0.4491270 0.2986632 0.4491270 0.2986632 0.4491270 0.7013368 -0.4491270
1679 0.6828231 -0.4567978 0.3171769 0.4567978 0.3171769 0.4567978 0.6828231 -0.4567978
1756 0.6637121 -0.4638299 0.3362879 0.4638299 0.3362879 0.4638299 0.6637121 -0.4638299
1836 0.6440494 -0.4701668 0.3559506 0.4701668 0.3559506 0.4701668 0.6440494 -0.4701668
1920 0.6238874 -0.4757554 0.3761126 0.4757554 0.3761126 0.4757554 0.6238874 -0.4757554
2008 0.6032851 -0.4805473 0.3967149 0.4805473 0.3967149 0.4805473 0.6032851 -0.4805473
2100 0.5823073 -0.4845000 0.4176927 0.4845000 0.4176927 0.4845000 0.5823073 -0.4845000
2196 0.5610244 -0.4875771 0.4389756 0.4875771 0.4389756 0.4875771 0.5610244 -0.4875771
2297 0.5395110 -0.4897494 0.4604890 0.4897494 0.4604890 0.4897494 0.5395110 -0.4897494
2402 0.5178455 -0.4909960 0.4821545 0.4909960 0.4821545 0.4909960 0.5178455 -0.4909960
2512 0.4961083 -0.4913040 0.5038917 0.4913040 0.5038917 0.4913040 0.4961083 -0.4913040
2627 0.4743817 -0.4906694 0.5256183 0.4906694 0.5256183 0.4906694 0.4743817 -0.4906694
2748 0.4527474 -0.4890972 0.5472526 0.4890972 0.5472526 0.4890972 0.4527474 -0.4890972
2873 0.4312866 -0.4866008 0.5687134 0.4866008 0.5687134 0.4866008 0.4312866 -0.4866008
3005 0.4100775 -0.4832026 0.5899225 0.4832026 0.5899225 0.4832026 0.4100775 -0.4832026
3143 0.3891954 -0.4789327 0.6108046 0.4789327 0.6108046 0.4789327 0.3891954 -0.4789327
3287 0.3687107 -0.4738290 0.6312893 0.4738290 0.6312893 0.4738290 0.3687107 -0.4738290
3437 0.3486886 -0.4679358 0.6513114 0.4679358 0.6513114 0.4679358 0.3486886 -0.4679358
3594 0.3291880 -0.4613034 0.6708120 0.4613034 0.6708120 0.4613034 0.3291880 -0.4613034
3759 0.3102610 -0.4539867 0.6897390 0.4539867 0.6897390 0.4539867 0.3102610 -0.4539867
3931 0.2919527 -0.4460445 0.7080473 0.4460445 0.7080473 0.4460445 0.2919527 -0.4460445
4111 0.2743008 -0.4375382 0.7256992 0.4375382 0.7256992 0.4375382 0.2743008 -0.4375382
4299 0.2573353 -0.4285310 0.7426647 0.4285310 0.7426647 0.4285310 0.2573353 -0.4285310
4496 0.2410791 -0.4190866 0.7589209 0.4190866 0.7589209 0.4190866 0.2410791 -0.4190866
4702 0.2255480 -0.4092687 0.7744520 0.4092687 0.7744520 0.4092687 0.2255480 -0.4092687
4918 0.2107508 -0.3991395 0.7892492 0.3991395 0.7892492 0.3991395 0.2107508 -0.3991395
5143 0.1966902 -0.3887597 0.8033098 0.3887597 0.8033098 0.3887597 0.1966902 -0.3887597
5378 0.1833632 -0.3781873 0.8166368 0.3781873 0.8166368 0.3781873 0.1833632 -0.3781873
5625 0.1707615 -0.3674774 0.8292385 0.3674774 0.8292385 0.3674774 0.1707615 -0.3674774
5882 0.1588725 -0.3566818 0.8411275 0.3566818 0.8411275 0.3566818 0.1588725 -0.3566818
6151 0.1476794 -0.3458485 0.8523206 0.3458485 0.8523206 0.3458485 0.1476794 -0.3458485
6433 0.1371622 -0.3350216 0.8628378 0.3350216 0.8628378 0.3350216 0.1371622 -0.3350216
6728 0.1272983 -0.3242413 0.8727017 0.3242413 0.8727017 0.3242413 0.1272983 -0.3242413
7036 0.1180629 -0.3135437 0.8819371 0.3135437 0.8819371 0.3135437 0.1180629 -0.3135437
7358 0.1094297 -0.3029612 0.8905703 0.3029612 0.8905703 0.3029612 0.1094297 -0.3029612
7695 0.1013710 -0.2925220 0.8986290 0.2925220 0.8986290 0.2925220 0.1013710 -0.2925220
8047 0.0938588 -0.2822510 0.9061412 0.2822510 0.9061412 0.2822510 0.0938588 -0.2822510
8416 0.0868644 -0.2721691 0.9131356 0.2721691 0.9131356 0.2721691 0.0868644 -0.2721691
8801 0.0803595 -0.2622945 0.9196405 0.2622945 0.9196405 0.2622945 0.0803595 -0.2622945
9204 0.0743157 -0.2526419 0.9256843 0.2526419 0.9256843 0.2526419 0.0743157 -0.2526419
9626 0.0687056 -0.2432233 0.9312944 0.2432233 0.9312944 0.2432233 0.0687056 -0.2432233
10066 0.0635021 -0.2340482 0.9364979 0.2340482 0.9364979 0.2340482 0.0635021 -0.2340482
10527 0.0586792 -0.2251236 0.9413208 0.2251236 0.9413208 0.2251236 0.0586792 -0.2251236
11009 0.0542119 -0.2164547 0.9457881 0.2164547 0.9457881 0.2164547 0.0542119 -0.2164547
11514 0.0500762 -0.2080445 0.9499238 0.2080445 0.9499238 0.2080445 0.0500762 -0.2080445
12041 0.0462495 -0.1998945 0.9537505 0.1998945 0.9537505 0.1998945 0.0462495 -0.1998945
12592 0.0427100 -0.1920048 0.9572900 0.1920048 0.9572900 0.1920048 0.0427100 -0.1920048
13169 0.0394374 -0.1843742 0.9605626 0.1843742 0.9605626 0.1843742 0.0394374 -0.1843742
13772 0.0364126 -0.1770004 0.9635874 0.1770004 0.9635874 0.1770004 0.0364126 -0.1770004
14402 0.0336175 -0.1698802 0.9663825 0.1698802 0.9663825 0.1698802 0.0336175 -0.1698802
15062 0.0310353 -0.1630097 0.9689647 0.1630097 0.9689647 0.1630097 0.0310353 -0.1630097
15752 0.0286503 -0.1563844 0.9713497 0.1563844 0.9713497 0.1563844 0.0286503 -0.1563844
16473 0.0264479 -0.1499991 0.9735521 0.1499991 0.9735521 0.1499991 0.0264479 -0.1499991
17227 0.0244144 -0.1438484 0.9755856 0.1438484 0.9755856 0.1438484 0.0244144 -0.1438484
18016 0.0225371 -0.1379265 0.9774629 0.1379265 0.9774629 0.1379265 0.0225371 -0.1379265
18841 0.0208045 -0.1322274 0.9791955 0.1322274 0.9791955 0.1322274 0.0208045 -0.1322274
19704 0.0192056 -0.1267449 0.9807944 0.1267449 0.9807944 0.1267449 0.0192056 -0.1267449
20606 0.0177303 -0.1214728 0.9822697 0.1214728 0.9822697 0.1214728 0.0177303 -0.1214728
21550 0.0163694 -0.1164046 0.9836306 0.1164046 0.9836306 0.1164046 0.0163694 -0.1164046
22537 0.0151142 -0.1115342 0.9848858 0.1115342 0.9848858 0.1115342 0.0151142 -0.1115342
23569 0.0139567 -0.1068551 0.9860433 0.1068551 0.9860433 0.1068551 0.0139567 -0.1068551
24648 0.0128895 -0.1023612 0.9871105 0.1023612 0.9871105 0.1023612 0.0128895 -0.1023612
25777 0.0119059 -0.0980462 0.9880941 0.0980462 0.9880941 0.0980462 0.0119059 -0.0980462
26957 0.0109994 -0.0939041 0.9890006 0.0939041 0.9890006 0.0939041 0.0109994 -0.0939041
28191 0.0101642 -0.0899289 0.9898358 0.0899289 0.9898358 0.0899289 0.0101642 -0.0899289
29482 0.0093949 -0.0861147 0.9906051 0.0861147 0.9906051 0.0861147 0.0093949 -0.0861147
30832 0.0086864 -0.0824559 0.9913136 0.0824559 0.9913136 0.0824559 0.0086864 -0.0824559
32244 0.0080340 -0.0789467 0.9919660 0.0789467 0.9919660 0.0789467 0.0080340 -0.0789467
33721 0.0074335 -0.0755819 0.9925665 0.0755819 0.9925665 0.0755819 0.0074335 -0.0755819
35265 0.0068808 -0.0723560 0.9931192 0.0723560 0.9931192 0.0723560 0.0068808 -0.0723560
36880 0.0063722 -0.0692639 0.9936278 0.0692639 0.9936278 0.0692639 0.0063722 -0.0692639
38569 0.0059042 -0.0663005 0.9940958 0.0663005 0.9940958 0.0663005 0.0059042 -0.0663005
40335 0.0054736 -0.0634610 0.9945264 0.0634610 0.9945264 0.0634610 0.0054736 -0.0634610
42182 0.0050776 -0.0607406 0.9949224 0.0607406 0.9949224 0.0607406 0.0050776 -0.0607406
44113 0.0047132 -0.0581347 0.9952868 0.0581347 0.9952868 0.0581347 0.0047132 -0.0581347
46134 0.0043780 -0.0556388 0.9956220 0.0556388 0.9956220 0.0556388 0.0043780 -0.0556388
48246 0.0040697 -0.0532486 0.9959303 0.0532486 0.9959303 0.0532486 0.0040697 -0.0532486
50455 0.0037859 -0.0509598 0.9962141 0.0509598 0.9962141 0.0509598 0.0037859 -0.0509598
52766 0.0035248 -0.0487686 0.9964752 0.0487686 0.9964752 0.0487686 0.0035248 -0.0487686
55182 0.0032844 -0.0466709 0.9967156 0.0466709 0.9967156 0.0466709 0.0032844 -0.0466709
57709 0.0030631 -0.0446629 0.9969369 0.0446629 0.9969369 0.0446629 0.0030631 -0.0446629
60352 0.0028592 -0.0427409 0.9971408 0.0427409 0.9971408 0.0427409 0.0028592 -0.0427409
63115 0.0026712 -0.0409015 0.9973288 0.0409015 0.9973288 0.0409015 0.0026712 -0.0409015
66005 0.0024979 -0.0391412 0.9975021 0.0391412 0.9975021 0.0391412 0.0024979 -0.0391412
69028 0.0023379 -0.0374568 0.9976621 0.0374568 0.9976621 0.0374568 0.0023379 -0.0374568
72189 0.0021901 -0.0358449 0.9978099 0.0358449 0.9978099 0.0358449 0.0021901 -0.0358449
75495 0.0020535 -0.0343027 0.9979465 0.0343027 0.9979465 0.0343027 0.0020535 -0.0343027
78952 0.0019271 -0.0328271 0.9980729 0.0328271 0.9980729 0.0328271 0.0019271 -0.0328271
82567 0.0018100 -0.0314153 0.9981900 0.0314153 0.9981900 0.0314153 0.0018100 -0.0314153
86348 0.0017014 -0.0300645 0.9982986 0.0300645 0.9982986 0.0300645 0.0017014 -0.0300645
90302 0.0016005 -0.0287721 0.9983995 0.0287721 0.9983995 0.0287721 0.0016005 -0.0287721
94437 0.0015068 -0.0275357 0.9984932 0.0275357 0.9984932 0.0275357 0.0015068 -0.0275357
98762 0.0014195 -0.0263527 0.9985805 0.0263527 0.9985805 0.0263527 0.0014195 -0.0263527
103284 0.0013381 -0.0252209 0.9986619 0.0252209 0.9986619 0.0252209 0.0013381 -0.0252209
108014 0.0012622 -0.0241379 0.9987378 0.0241379 0.9987378 0.0241379 0.0012622 -0.0241379
112960 0.0011912 -0.0231017 0.9988088 0.0231017 0.9988088 0.0231017 0.0011912 -0.0231017
118133 0.0011247 -0.0221102 0.9988753 0.0221102 0.9988753 0.0221102 0.0011247 -0.0221102
123542 0.0010624 -0.0211614 0.9989376 0.0211614 0.9989376 0.0211614 0.0010624 -0.0211614
129199 0.0010040 -0.0202534 0.9989960 0.0202534 0.9989960 0.0202534 0.0010040 -0.0202534
135116 0.0009492 -0.0193845 0.9990508 0.0193845 0.9990508 0.0193845 0.0009492 -0.0193845
141303 0.0008977 -0.0185529 0.9991023 0.0185529 0.9991023 0.0185529 0.0008977 -0.0185529
147774 0.0008492 -0.0177569 0.9991508 0.0177569 0.9991508 0.0177569 0.0008492 -0.0177569
154540 0.0008036 -0.0169950 0.9991964 0.0169950 0.9991964 0.0169950 0.0008036 -0.0169950
161617 0.0007606 -0.0162657 0.9992394 0.0162657 0.9992394 0.0162657 0.0007606 -0.0162657
169018 0.0007202 -0.0155675 0.9992798 0.0155675 0.9992798 0.0155675 0.0007202 -0.0155675
176758 0.0006821 -0.0148991 0.9993179 0.0148991 0.9993179 0.0148991 0.0006821 -0.0148991
184852 0.0006463 -0.0142593 0.9993537 0.0142593 0.9993537 0.0142593 0.0006463 -0.0142593
193316 0.0006125 -0.0136466 0.9993875 0.0136466 0.9993875 0.0136466 0.0006125 -0.0136466
202169 0.0005808 -0.0130601 0.9994192 0.0130601 0.9994192 0.0130601 0.0005808 -0.0130601
211427 0.0005509 -0.0124985 0.9994491 0.0124985 0.9994491 0.0124985 0.0005509 -0.0124985
221108 0.0005228 -0.0119609 0.9994772 0.0119609 0.9994772 0.0119609 0.0005228 -0.0119609
231233 0.0004964 -0.0114461 0.9995036 0.0114461 0.9995036 0.0114461 0.0004964 -0.0114461
241822 0.0004716 -0.0109532 0.9995284 0.0109532 0.9995284 0.0109532 0.0004716 -0.0109532
252896 0.0004484 -0.0104813 0.9995516 0.0104813 0.9995516 0.0104813 0.0004484 -0.0104813
264476 0.0004266 -0.0100294 0.9995734 0.0100294 0.9995734 0.0100294 0.0004266 -0.0100294
276587 0.0004061 -0.0095969 0.9995939 0.0095969 0.9995939 0.0095969 0.0004061 -0.0095969
289253 0.0003870 -0.0091827 0.9996130 0.0091827 0.9996130 0.0091827 0.0003870 -0.0091827
302498 0.0003691 -0.0087862 0.9996309 0.0087862 0.9996309 0.0087862 0.0003691 -0.0087862
316350 0.0003524 -0.0084067 0.9996476 0.0084067 0.9996476 0.0084067 0.0003524 -0.0084067
330837 0.0003367 -0.0080434 0.9996633 0.0080434 0.9996633 0.0080434 0.0003367 -0.0080434
345986 0.0003221 -0.0076956 0.9996779 0.0076956 0.9996779 0.0076956 0.0003221 -0.0076956
361830 0.0003084 -0.0073627 0.9996916 0.0073627 0.9996916 0.0073627 0.0003084 -0.0073627
378399 0.0002956 -0.0070440 0.9997044 0.0070440 0.9997044 0.0070440 0.0002956 -0.0070440
395726 0.0002837 -0.0067391 0.9997163 0.0067391 0.9997163 0.0067391 0.0002837 -0.0067391
413847 0.0002725 -0.0064472 0.9997275 0.0064472 0.9997275 0.0064472 0.0002725 -0.0064472
432798 0.0002621 -0.0061679 0.9997379 0.0061679 0.9997379 0.0061679 0.0002621 -0.0061679
452617 0.0002523 -0.0059005 0.9997477 0.0059005 0.9997477 0.0059005 0.0002523 -0.0059005
473344 0.0002431 -0.0056447 0.9997569 0.0056447 0.9997569 0.0056447 0.0002431 -0.0056447
495019 0.0002346 -0.0053999 0.9997654 0.0053999 0.9997654 0.0053999 0.0002346 -0.0053999
517687 0.0002265 -0.0051656 0.9997735 0.0051656 0.9997735 0.0051656 0.0002265 -0.0051656
541393 0.0002189 -0.0049414 0.9997811 0.0049414 0.9997811 0.0049414 0.0002189 -0.0049414
566185 0.0002118 -0.0047269 0.9997882 0.0047269 0.9997882 0.0047269 0.0002118 -0.0047269
592111 0.0002051 -0.0045216 0.9997949 0.0045216 0.9997949 0.0045216 0.0002051 -0.0045216
619225 0.0001987 -0.0043251 0.9998013 0.0043251 0.9998013 0.0043251 0.0001987 -0.0043251
647581 0.0001927 -0.0041371 0.9998073 0.0041371 0.9998073 0.0041371 0.0001927 -0.0041371
677235 0.0001870 -0.0039572 0.9998130 0.0039572 0.9998130 0.0039572 0.0001870 -0.0039572
708247 0.0001816 -0.0037850 0.9998184 0.0037850 0.9998184 0.0037850 0.0001816 -0.0037850
740679 0.0001764 -0.0036201 0.9998236 0.0036201 0.9998236 0.0036201 0.0001764 -0.0036201
774597 0.0001715 -0.0034623 0.9998285 0.0034623 0.9998285 0.0034623 0.0001715 -0.0034623
810067 0.0001668 -0.0033113 0.9998332 0.0033113 0.9998332 0.0033113 0.0001668 -0.0033113
847162 0.0001622 -0.0031667 0.9998378 0.0031667 0.9998378 0.0031667 0.0001622 -0.0031667
885955 0.0001579 -0.0030282 0.9998421 0.0030282 0.9998421 0.0030282 0.0001579 -0.0030282
926525 0.0001537 -0.0028956 0.9998463 0.0028956 0.9998463 0.0028956 0.0001537 -0.0028956
968953 0.0001497 -0.0027686 0.9998503 0.0027686 0.9998503 0.0027686 0.0001497 -0.0027686
1013323 0.0001458 -0.0026470 0.9998542 0.0026470 0.9998542 0.0026470 0.0001458 -0.0026470
1059725 0.0001421 -0.0025304 0.9998579 0.0025304 0.9998579 0.0025304 0.0001421 -0.0025304
1108252 0.0001385 -0.0024188 0.9998615 0.0024188 0.9998615 0.0024188 0.0001385 -0.0024188
1159002 0.0001350 -0.0023117 0.9998650 0.0023117 0.9998650 0.0023117 0.0001350 -0.0023117
1212075 0.0001317 -0.0022092 0.9998683 0.0022092 0.9998683 0.0022092 0.0001317 -0.0022092
1267578 0.0001285 -0.0021108 0.9998715 0.0021108 0.9998715 0.0021108 0.0001285 -0.0021108
1325623 0.0001254 -0.0020165 0.9998746 0.0020165 0.9998746 0.0020165 0.0001254 -0.0020165
1386327 0.0001224 -0.0019260 0.9998776 0.0019260 0.9998776 0.0019260 0.0001224 -0.0019260
1449809 0.0001196 -0.0018392 0.9998804 0.0018392 0.9998804 0.0018392 0.0001196 -0.0018392
1516199 0.0001168 -0.0017560 0.9998832 0.0017560 0.9998832 0.0017560 0.0001168 -0.0017560
1585629 0.0001142 -0.0016761 0.9998858 0.0016761 0.9998858 0.0016761 0.0001142 -0.0016761
1658239 0.0001118 -0.0015993 0.9998882 0.0015993 0.9998882 0.0015993 0.0001118 -0.0015993
1734173 0.0001094 -0.0015256 0.9998906 0.0015256 0.9998906 0.0015256 0.0001094 -0.0015256
1813585 0.0001072 -0.0014549 0.9998928 0.0014549 0.9998928 0.0014549 0.0001072 -0.0014549
1896632 0.0001051 -0.0013869 0.9998949 0.0013869 0.9998949 0.0013869 0.0001051 -0.0013869
1983483 0.0001031 -0.0013215 0.9998969 0.0013215 0.9998969 0.0013215 0.0001031 -0.0013215
2074311 0.0001012 -0.0012587 0.9998988 0.0012587 0.9998988 0.0012587 0.0001012 -0.0012587
