!Murata Part Number: GRM188B31A106KE69
!These Parameters are Measured in Series Mode Connection
!Data Generated on Mar 30, 2021
!       o--ll--o
!Port1            Port2
!       o------o
!Operation Temp=25[degC], DC Bias Voltage=0[V]
!Freq. Start=100[Hz] Stop=6[GHz] 401[Steps]
# Hz S RI R 50
!Freq.(Hz) S11(Real) S11(Imag) S21(Real) S21(Imag) S12(Real) S12(Imag) S22(Real) S22(Imag)
100 0.7892457 -0.4000093 0.2107543 0.4000093 0.2107543 0.4000093 0.7892457 -0.4000093
105 0.7744346 -0.4101347 0.2255654 0.4101347 0.2255654 0.4101347 0.7744346 -0.4101347
109 0.7588936 -0.4199529 0.2411064 0.4199529 0.2411064 0.4199529 0.7588936 -0.4199529
114 0.7426308 -0.4294029 0.2573692 0.4294029 0.2573692 0.4294029 0.7426308 -0.4294029
120 0.7256606 -0.4384221 0.2743394 0.4384221 0.2743394 0.4384221 0.7256606 -0.4384221
125 0.7080044 -0.4469477 0.2919956 0.4469477 0.2919956 0.4469477 0.7080044 -0.4469477
131 0.6896905 -0.4549171 0.3103095 0.4549171 0.3103095 0.4549171 0.6896905 -0.4549171
137 0.6707546 -0.4622688 0.3292454 0.4622688 0.3292454 0.4622688 0.6707546 -0.4622688
143 0.6512395 -0.4689439 0.3487605 0.4689439 0.3487605 0.4689439 0.6512395 -0.4689439
150 0.6311955 -0.4748865 0.3688045 0.4748865 0.3688045 0.4748865 0.6311955 -0.4748865
156 0.6106795 -0.4800450 0.3893205 0.4800450 0.3893205 0.4800450 0.6106795 -0.4800450
164 0.5897550 -0.4843733 0.4102450 0.4843733 0.4102450 0.4843733 0.5897550 -0.4843733
171 0.5684912 -0.4878314 0.4315088 0.4878314 0.4315088 0.4878314 0.5684912 -0.4878314
179 0.5469623 -0.4903864 0.4530377 0.4903864 0.4530377 0.4903864 0.5469623 -0.4903864
187 0.5252466 -0.4920135 0.4747534 0.4920135 0.4747534 0.4920135 0.5252466 -0.4920135
196 0.5034254 -0.4926959 0.4965746 0.4926959 0.4965746 0.4926959 0.5034254 -0.4926959
205 0.4815816 -0.4924262 0.5184184 0.4924262 0.5184184 0.4924262 0.4815816 -0.4924262
214 0.4597989 -0.4912058 0.5402011 0.4912058 0.5402011 0.4912058 0.4597989 -0.4912058
224 0.4381601 -0.4890450 0.5618399 0.4890450 0.5618399 0.4890450 0.4381601 -0.4890450
234 0.4167460 -0.4859634 0.5832540 0.4859634 0.5832540 0.4859634 0.4167460 -0.4859634
245 0.3956343 -0.4819888 0.6043657 0.4819888 0.6043657 0.4819888 0.3956343 -0.4819888
256 0.3748985 -0.4771570 0.6251015 0.4771570 0.6251015 0.4771570 0.3748985 -0.4771570
268 0.3546066 -0.4715107 0.6453934 0.4715107 0.6453934 0.4715107 0.3546066 -0.4715107
280 0.3348207 -0.4650991 0.6651793 0.4650991 0.6651793 0.4650991 0.3348207 -0.4650991
293 0.3155962 -0.4579765 0.6844038 0.4579765 0.6844038 0.4579765 0.3155962 -0.4579765
306 0.2969810 -0.4502014 0.7030190 0.4502014 0.7030190 0.4502014 0.2969810 -0.4502014
320 0.2790158 -0.4418352 0.7209842 0.4418352 0.7209842 0.4418352 0.2790158 -0.4418352
335 0.2617335 -0.4329417 0.7382665 0.4329417 0.7382665 0.4329417 0.2617335 -0.4329417
350 0.2451596 -0.4235852 0.7548404 0.4235852 0.7548404 0.4235852 0.2451596 -0.4235852
366 0.2293121 -0.4138304 0.7706879 0.4138304 0.7706879 0.4138304 0.2293121 -0.4138304
383 0.2142022 -0.4037407 0.7857978 0.4037407 0.7857978 0.4037407 0.2142022 -0.4037407
401 0.1998345 -0.3933782 0.8001655 0.3933782 0.8001655 0.3933782 0.1998345 -0.3933782
419 0.1862074 -0.3828023 0.8137926 0.3828023 0.8137926 0.3828023 0.1862074 -0.3828023
438 0.1733144 -0.3720697 0.8266856 0.3720697 0.8266856 0.3720697 0.1733144 -0.3720697
458 0.1611437 -0.3612337 0.8388563 0.3612337 0.8388563 0.3612337 0.1611437 -0.3612337
479 0.1496796 -0.3503439 0.8503204 0.3503439 0.8503204 0.3503439 0.1496796 -0.3503439
501 0.1389029 -0.3394460 0.8610971 0.3394460 0.8610971 0.3394460 0.1389029 -0.3394460
524 0.1287917 -0.3285817 0.8712083 0.3285817 0.8712083 0.3285817 0.1287917 -0.3285817
548 0.1193213 -0.3177886 0.8806787 0.3177886 0.8806787 0.3177886 0.1193213 -0.3177886
573 0.1104659 -0.3071005 0.8895341 0.3071005 0.8895341 0.3071005 0.1104659 -0.3071005
600 0.1021979 -0.2965470 0.8978021 0.2965470 0.8978021 0.2965470 0.1021979 -0.2965470
627 0.0944893 -0.2861541 0.9055107 0.2861541 0.9055107 0.2861541 0.0944893 -0.2861541
656 0.0873115 -0.2759442 0.9126885 0.2759442 0.9126885 0.2759442 0.0873115 -0.2759442
686 0.0806359 -0.2659362 0.9193641 0.2659362 0.9193641 0.2659362 0.0806359 -0.2659362
717 0.0744340 -0.2561462 0.9255660 0.2561462 0.9255660 0.2561462 0.0744340 -0.2561462
750 0.0686781 -0.2465870 0.9313219 0.2465870 0.9313219 0.2465870 0.0686781 -0.2465870
784 0.0633410 -0.2372690 0.9366590 0.2372690 0.9366590 0.2372690 0.0633410 -0.2372690
820 0.0583962 -0.2282001 0.9416038 0.2282001 0.9416038 0.2282001 0.0583962 -0.2282001
858 0.0538185 -0.2193863 0.9461815 0.2193863 0.9461815 0.2193863 0.0538185 -0.2193863
897 0.0495836 -0.2108312 0.9504164 0.2108312 0.9504164 0.2108312 0.0495836 -0.2108312
938 0.0456682 -0.2025372 0.9543318 0.2025372 0.9543318 0.2025372 0.0456682 -0.2025372
981 0.0420504 -0.1945049 0.9579496 0.1945049 0.9579496 0.1945049 0.0420504 -0.1945049
1026 0.0387094 -0.1867338 0.9612906 0.1867338 0.9612906 0.1867338 0.0387094 -0.1867338
1073 0.0356254 -0.1792220 0.9643746 0.1792220 0.9643746 0.1792220 0.0356254 -0.1792220
1122 0.0327801 -0.1719670 0.9672199 0.1719670 0.9672199 0.1719670 0.0327801 -0.1719670
1174 0.0301561 -0.1649652 0.9698439 0.1649652 0.9698439 0.1649652 0.0301561 -0.1649652
1227 0.0277370 -0.1582125 0.9722630 0.1582125 0.9722630 0.1582125 0.0277370 -0.1582125
1283 0.0255079 -0.1517042 0.9744921 0.1517042 0.9744921 0.1517042 0.0255079 -0.1517042
1342 0.0234544 -0.1454351 0.9765456 0.1454351 0.9765456 0.1454351 0.0234544 -0.1454351
1404 0.0215634 -0.1393997 0.9784366 0.1393997 0.9784366 0.1393997 0.0215634 -0.1393997
1468 0.0198226 -0.1335921 0.9801774 0.1335921 0.9801774 0.1335921 0.0198226 -0.1335921
1535 0.0182205 -0.1280064 0.9817795 0.1280064 0.9817795 0.1280064 0.0182205 -0.1280064
1606 0.0167466 -0.1226363 0.9832534 0.1226363 0.9832534 0.1226363 0.0167466 -0.1226363
1679 0.0153910 -0.1174756 0.9846090 0.1174756 0.9846090 0.1174756 0.0153910 -0.1174756
1756 0.0141445 -0.1125179 0.9858555 0.1125179 0.9858555 0.1125179 0.0141445 -0.1125179
1836 0.0129986 -0.1077568 0.9870014 0.1077568 0.9870014 0.1077568 0.0129986 -0.1077568
1920 0.0119455 -0.1031861 0.9880545 0.1031861 0.9880545 0.1031861 0.0119455 -0.1031861
2008 0.0109780 -0.0987994 0.9890220 0.0987994 0.9890220 0.0987994 0.0109780 -0.0987994
2100 0.0100892 -0.0945904 0.9899108 0.0945904 0.9899108 0.0945904 0.0100892 -0.0945904
2196 0.0092729 -0.0905529 0.9907271 0.0905529 0.9907271 0.0905529 0.0092729 -0.0905529
2297 0.0085234 -0.0866810 0.9914766 0.0866810 0.9914766 0.0866810 0.0085234 -0.0866810
2402 0.0078354 -0.0829687 0.9921646 0.0829687 0.9921646 0.0829687 0.0078354 -0.0829687
2512 0.0072038 -0.0794101 0.9927962 0.0794101 0.9927962 0.0794101 0.0072038 -0.0794101
2627 0.0066241 -0.0759995 0.9933759 0.0759995 0.9933759 0.0759995 0.0066241 -0.0759995
2748 0.0060922 -0.0727313 0.9939078 0.0727313 0.9939078 0.0727313 0.0060922 -0.0727313
2873 0.0056041 -0.0696001 0.9943959 0.0696001 0.9943959 0.0696001 0.0056041 -0.0696001
3005 0.0051563 -0.0666007 0.9948437 0.0666007 0.9948437 0.0666007 0.0051563 -0.0666007
3143 0.0047454 -0.0637279 0.9952546 0.0637279 0.9952546 0.0637279 0.0047454 -0.0637279
3287 0.0043685 -0.0609767 0.9956315 0.0609767 0.9956315 0.0609767 0.0043685 -0.0609767
3437 0.0040227 -0.0583423 0.9959773 0.0583423 0.9959773 0.0583423 0.0040227 -0.0583423
3594 0.0037054 -0.0558201 0.9962946 0.0558201 0.9962946 0.0558201 0.0037054 -0.0558201
3759 0.0034142 -0.0534054 0.9965858 0.0534054 0.9965858 0.0534054 0.0034142 -0.0534054
3931 0.0031471 -0.0510940 0.9968529 0.0510940 0.9968529 0.0510940 0.0031471 -0.0510940
4111 0.0029019 -0.0488815 0.9970981 0.0488815 0.9970981 0.0488815 0.0029019 -0.0488815
4299 0.0026768 -0.0467640 0.9973232 0.0467640 0.9973232 0.0467640 0.0026768 -0.0467640
4496 0.0024702 -0.0447375 0.9975298 0.0447375 0.9975298 0.0447375 0.0024702 -0.0447375
4702 0.0022804 -0.0427982 0.9977196 0.0427982 0.9977196 0.0427982 0.0022804 -0.0427982
4918 0.0021061 -0.0409424 0.9978939 0.0409424 0.9978939 0.0409424 0.0021061 -0.0409424
5143 0.0019459 -0.0391667 0.9980541 0.0391667 0.9980541 0.0391667 0.0019459 -0.0391667
5378 0.0017986 -0.0374676 0.9982014 0.0374676 0.9982014 0.0374676 0.0017986 -0.0374676
5625 0.0016632 -0.0358419 0.9983368 0.0358419 0.9983368 0.0358419 0.0016632 -0.0358419
5882 0.0015387 -0.0342864 0.9984613 0.0342864 0.9984613 0.0342864 0.0015387 -0.0342864
6151 0.0014241 -0.0327983 0.9985759 0.0327983 0.9985759 0.0327983 0.0014241 -0.0327983
6433 0.0013186 -0.0313745 0.9986814 0.0313745 0.9986814 0.0313745 0.0013186 -0.0313745
6728 0.0012214 -0.0300124 0.9987786 0.0300124 0.9987786 0.0300124 0.0012214 -0.0300124
7036 0.0011319 -0.0287092 0.9988681 0.0287092 0.9988681 0.0287092 0.0011319 -0.0287092
7358 0.0010494 -0.0274624 0.9989506 0.0274624 0.9989506 0.0274624 0.0010494 -0.0274624
7695 0.0009733 -0.0262697 0.9990267 0.0262697 0.9990267 0.0262697 0.0009733 -0.0262697
8047 0.0009032 -0.0251286 0.9990968 0.0251286 0.9990968 0.0251286 0.0009032 -0.0251286
8416 0.0008384 -0.0240369 0.9991616 0.0240369 0.9991616 0.0240369 0.0008384 -0.0240369
8801 0.0007787 -0.0229925 0.9992213 0.0229925 0.9992213 0.0229925 0.0007787 -0.0229925
9204 0.0007235 -0.0219934 0.9992765 0.0219934 0.9992765 0.0219934 0.0007235 -0.0219934
9626 0.0006726 -0.0210375 0.9993274 0.0210375 0.9993274 0.0210375 0.0006726 -0.0210375
10066 0.0006256 -0.0201230 0.9993744 0.0201230 0.9993744 0.0201230 0.0006256 -0.0201230
10527 0.0005822 -0.0192482 0.9994178 0.0192482 0.9994178 0.0192482 0.0005822 -0.0192482
11009 0.0005421 -0.0184112 0.9994579 0.0184112 0.9994579 0.0184112 0.0005421 -0.0184112
11514 0.0005050 -0.0176106 0.9994950 0.0176106 0.9994950 0.0176106 0.0005050 -0.0176106
12041 0.0004708 -0.0168446 0.9995292 0.0168446 0.9995292 0.0168446 0.0004708 -0.0168446
12592 0.0004392 -0.0161118 0.9995608 0.0161118 0.9995608 0.0161118 0.0004392 -0.0161118
13169 0.0004100 -0.0154108 0.9995900 0.0154108 0.9995900 0.0154108 0.0004100 -0.0154108
13772 0.0003830 -0.0147401 0.9996170 0.0147401 0.9996170 0.0147401 0.0003830 -0.0147401
14402 0.0003581 -0.0140986 0.9996419 0.0140986 0.9996419 0.0140986 0.0003581 -0.0140986
15062 0.0003351 -0.0134849 0.9996649 0.0134849 0.9996649 0.0134849 0.0003351 -0.0134849
15752 0.0003139 -0.0128979 0.9996861 0.0128979 0.9996861 0.0128979 0.0003139 -0.0128979
16473 0.0002943 -0.0123363 0.9997057 0.0123363 0.9997057 0.0123363 0.0002943 -0.0123363
17227 0.0002762 -0.0117992 0.9997238 0.0117992 0.9997238 0.0117992 0.0002762 -0.0117992
18016 0.0002595 -0.0112853 0.9997405 0.0112853 0.9997405 0.0112853 0.0002595 -0.0112853
18841 0.0002440 -0.0107939 0.9997560 0.0107939 0.9997560 0.0107939 0.0002440 -0.0107939
19704 0.0002298 -0.0103238 0.9997702 0.0103238 0.9997702 0.0103238 0.0002298 -0.0103238
20606 0.0002166 -0.0098742 0.9997834 0.0098742 0.9997834 0.0098742 0.0002166 -0.0098742
21550 0.0002045 -0.0094441 0.9997955 0.0094441 0.9997955 0.0094441 0.0002045 -0.0094441
22537 0.0001932 -0.0090328 0.9998068 0.0090328 0.9998068 0.0090328 0.0001932 -0.0090328
23569 0.0001828 -0.0086394 0.9998172 0.0086394 0.9998172 0.0086394 0.0001828 -0.0086394
24648 0.0001732 -0.0082631 0.9998268 0.0082631 0.9998268 0.0082631 0.0001732 -0.0082631
25777 0.0001643 -0.0079033 0.9998357 0.0079033 0.9998357 0.0079033 0.0001643 -0.0079033
26957 0.0001560 -0.0075591 0.9998440 0.0075591 0.9998440 0.0075591 0.0001560 -0.0075591
28191 0.0001484 -0.0072300 0.9998516 0.0072300 0.9998516 0.0072300 0.0001484 -0.0072300
29482 0.0001413 -0.0069152 0.9998587 0.0069152 0.9998587 0.0069152 0.0001413 -0.0069152
30832 0.0001346 -0.0066142 0.9998654 0.0066142 0.9998654 0.0066142 0.0001346 -0.0066142
32244 0.0001285 -0.0063263 0.9998715 0.0063263 0.9998715 0.0063263 0.0001285 -0.0063263
33721 0.0001227 -0.0060510 0.9998773 0.0060510 0.9998773 0.0060510 0.0001227 -0.0060510
35265 0.0001174 -0.0057877 0.9998826 0.0057877 0.9998826 0.0057877 0.0001174 -0.0057877
36880 0.0001123 -0.0055359 0.9998877 0.0055359 0.9998877 0.0055359 0.0001123 -0.0055359
38569 0.0001076 -0.0052950 0.9998924 0.0052950 0.9998924 0.0052950 0.0001076 -0.0052950
40335 0.0001032 -0.0050647 0.9998968 0.0050647 0.9998968 0.0050647 0.0001032 -0.0050647
42182 0.0000990 -0.0048445 0.9999010 0.0048445 0.9999010 0.0048445 0.0000990 -0.0048445
44113 0.0000951 -0.0046338 0.9999049 0.0046338 0.9999049 0.0046338 0.0000951 -0.0046338
46134 0.0000913 -0.0044323 0.9999087 0.0044323 0.9999087 0.0044323 0.0000913 -0.0044323
48246 0.0000878 -0.0042396 0.9999122 0.0042396 0.9999122 0.0042396 0.0000878 -0.0042396
50455 0.0000845 -0.0040553 0.9999155 0.0040553 0.9999155 0.0040553 0.0000845 -0.0040553
52766 0.0000813 -0.0038790 0.9999187 0.0038790 0.9999187 0.0038790 0.0000813 -0.0038790
55182 0.0000783 -0.0037104 0.9999217 0.0037104 0.9999217 0.0037104 0.0000783 -0.0037104
57709 0.0000754 -0.0035490 0.9999246 0.0035490 0.9999246 0.0035490 0.0000754 -0.0035490
60352 0.0000727 -0.0033947 0.9999273 0.0033947 0.9999273 0.0033947 0.0000727 -0.0033947
63115 0.0000700 -0.0032471 0.9999300 0.0032471 0.9999300 0.0032471 0.0000700 -0.0032471
66005 0.0000675 -0.0031059 0.9999325 0.0031059 0.9999325 0.0031059 0.0000675 -0.0031059
69028 0.0000652 -0.0029708 0.9999348 0.0029708 0.9999348 0.0029708 0.0000652 -0.0029708
72189 0.0000629 -0.0028416 0.9999371 0.0028416 0.9999371 0.0028416 0.0000629 -0.0028416
75495 0.0000607 -0.0027179 0.9999393 0.0027179 0.9999393 0.0027179 0.0000607 -0.0027179
78952 0.0000587 -0.0025996 0.9999413 0.0025996 0.9999413 0.0025996 0.0000587 -0.0025996
82567 0.0000567 -0.0024864 0.9999433 0.0024864 0.9999433 0.0024864 0.0000567 -0.0024864
86348 0.0000548 -0.0023780 0.9999452 0.0023780 0.9999452 0.0023780 0.0000548 -0.0023780
90302 0.0000530 -0.0022744 0.9999470 0.0022744 0.9999470 0.0022744 0.0000530 -0.0022744
94437 0.0000513 -0.0021752 0.9999487 0.0021752 0.9999487 0.0021752 0.0000513 -0.0021752
98762 0.0000497 -0.0020803 0.9999503 0.0020803 0.9999503 0.0020803 0.0000497 -0.0020803
103284 0.0000482 -0.0019894 0.9999518 0.0019894 0.9999518 0.0019894 0.0000482 -0.0019894
108014 0.0000468 -0.0019025 0.9999532 0.0019025 0.9999532 0.0019025 0.0000468 -0.0019025
112960 0.0000454 -0.0018193 0.9999546 0.0018193 0.9999546 0.0018193 0.0000454 -0.0018193
118133 0.0000442 -0.0017397 0.9999558 0.0017397 0.9999558 0.0017397 0.0000442 -0.0017397
123542 0.0000430 -0.0016635 0.9999570 0.0016635 0.9999570 0.0016635 0.0000430 -0.0016635
129199 0.0000418 -0.0015906 0.9999582 0.0015906 0.9999582 0.0015906 0.0000418 -0.0015906
135116 0.0000408 -0.0015209 0.9999592 0.0015209 0.9999592 0.0015209 0.0000408 -0.0015209
141303 0.0000398 -0.0014541 0.9999602 0.0014541 0.9999602 0.0014541 0.0000398 -0.0014541
147774 0.0000389 -0.0013902 0.9999611 0.0013902 0.9999611 0.0013902 0.0000389 -0.0013902
154540 0.0000380 -0.0013290 0.9999620 0.0013290 0.9999620 0.0013290 0.0000380 -0.0013290
161617 0.0000372 -0.0012705 0.9999628 0.0012705 0.9999628 0.0012705 0.0000372 -0.0012705
169018 0.0000365 -0.0012145 0.9999635 0.0012145 0.9999635 0.0012145 0.0000365 -0.0012145
176758 0.0000358 -0.0011608 0.9999642 0.0011608 0.9999642 0.0011608 0.0000358 -0.0011608
184852 0.0000351 -0.0011095 0.9999649 0.0011095 0.9999649 0.0011095 0.0000351 -0.0011095
193316 0.0000345 -0.0010604 0.9999655 0.0010604 0.9999655 0.0010604 0.0000345 -0.0010604
202169 0.0000340 -0.0010134 0.9999660 0.0010134 0.9999660 0.0010134 0.0000340 -0.0010134
211427 0.0000335 -0.0009684 0.9999665 0.0009684 0.9999665 0.0009684 0.0000335 -0.0009684
221108 0.0000330 -0.0009253 0.9999670 0.0009253 0.9999670 0.0009253 0.0000330 -0.0009253
231233 0.0000326 -0.0008840 0.9999674 0.0008840 0.9999674 0.0008840 0.0000326 -0.0008840
241822 0.0000322 -0.0008445 0.9999678 0.0008445 0.9999678 0.0008445 0.0000322 -0.0008445
252896 0.0000318 -0.0008067 0.9999682 0.0008067 0.9999682 0.0008067 0.0000318 -0.0008067
264476 0.0000315 -0.0007705 0.9999685 0.0007705 0.9999685 0.0007705 0.0000315 -0.0007705
276587 0.0000312 -0.0007358 0.9999688 0.0007358 0.9999688 0.0007358 0.0000312 -0.0007358
289253 0.0000309 -0.0007026 0.9999691 0.0007026 0.9999691 0.0007026 0.0000309 -0.0007026
302498 0.0000307 -0.0006708 0.9999693 0.0006708 0.9999693 0.0006708 0.0000307 -0.0006708
316350 0.0000304 -0.0006403 0.9999696 0.0006403 0.9999696 0.0006403 0.0000304 -0.0006403
330837 0.0000302 -0.0006111 0.9999698 0.0006111 0.9999698 0.0006111 0.0000302 -0.0006111
345986 0.0000300 -0.0005831 0.9999700 0.0005831 0.9999700 0.0005831 0.0000300 -0.0005831
361830 0.0000299 -0.0005563 0.9999701 0.0005563 0.9999701 0.0005563 0.0000299 -0.0005563
378399 0.0000297 -0.0005306 0.9999703 0.0005306 0.9999703 0.0005306 0.0000297 -0.0005306
395726 0.0000296 -0.0005060 0.9999704 0.0005060 0.9999704 0.0005060 0.0000296 -0.0005060
413847 0.0000295 -0.0004824 0.9999705 0.0004824 0.9999705 0.0004824 0.0000295 -0.0004824
432798 0.0000294 -0.0004597 0.9999706 0.0004597 0.9999706 0.0004597 0.0000294 -0.0004597
452617 0.0000293 -0.0004379 0.9999707 0.0004379 0.9999707 0.0004379 0.0000293 -0.0004379
473344 0.0000292 -0.0004171 0.9999708 0.0004171 0.9999708 0.0004171 0.0000292 -0.0004171
495019 0.0000292 -0.0003970 0.9999708 0.0003970 0.9999708 0.0003970 0.0000292 -0.0003970
517687 0.0000292 -0.0003778 0.9999708 0.0003778 0.9999708 0.0003778 0.0000292 -0.0003778
541393 0.0000291 -0.0003593 0.9999709 0.0003593 0.9999709 0.0003593 0.0000291 -0.0003593
566185 0.0000291 -0.0003415 0.9999709 0.0003415 0.9999709 0.0003415 0.0000291 -0.0003415
592111 0.0000291 -0.0003245 0.9999709 0.0003245 0.9999709 0.0003245 0.0000291 -0.0003245
619225 0.0000292 -0.0003080 0.9999708 0.0003080 0.9999708 0.0003080 0.0000292 -0.0003080
647581 0.0000292 -0.0002922 0.9999708 0.0002922 0.9999708 0.0002922 0.0000292 -0.0002922
677235 0.0000293 -0.0002770 0.9999707 0.0002770 0.9999707 0.0002770 0.0000293 -0.0002770
708247 0.0000293 -0.0002623 0.9999707 0.0002623 0.9999707 0.0002623 0.0000293 -0.0002623
740679 0.0000294 -0.0002481 0.9999706 0.0002481 0.9999706 0.0002481 0.0000294 -0.0002481
774597 0.0000295 -0.0002345 0.9999705 0.0002345 0.9999705 0.0002345 0.0000295 -0.0002345
810067 0.0000296 -0.0002213 0.9999704 0.0002213 0.9999704 0.0002213 0.0000296 -0.0002213
847162 0.0000297 -0.0002086 0.9999703 0.0002086 0.9999703 0.0002086 0.0000297 -0.0002086
885955 0.0000299 -0.0001962 0.9999701 0.0001962 0.9999701 0.0001962 0.0000299 -0.0001962
926525 0.0000301 -0.0001843 0.9999699 0.0001843 0.9999699 0.0001843 0.0000301 -0.0001843
968953 0.0000302 -0.0001728 0.9999698 0.0001728 0.9999698 0.0001728 0.0000302 -0.0001728
1013323 0.0000305 -0.0001616 0.9999695 0.0001616 0.9999695 0.0001616 0.0000305 -0.0001616
1059725 0.0000307 -0.0001507 0.9999693 0.0001507 0.9999693 0.0001507 0.0000307 -0.0001507
1108252 0.0000310 -0.0001401 0.9999690 0.0001401 0.9999690 0.0001401 0.0000310 -0.0001401
1159002 0.0000313 -0.0001298 0.9999687 0.0001298 0.9999687 0.0001298 0.0000313 -0.0001298
1212075 0.0000316 -0.0001197 0.9999684 0.0001197 0.9999684 0.0001197 0.0000316 -0.0001197
1267578 0.0000320 -0.0001099 0.9999680 0.0001099 0.9999680 0.0001099 0.0000320 -0.0001099
1325623 0.0000324 -0.0001004 0.9999676 0.0001004 0.9999676 0.0001004 0.0000324 -0.0001004
1386327 0.0000328 -0.0000910 0.9999672 0.0000910 0.9999672 0.0000910 0.0000328 -0.0000910
1449809 0.0000333 -0.0000818 0.9999667 0.0000818 0.9999667 0.0000818 0.0000333 -0.0000818
1516199 0.0000338 -0.0000728 0.9999662 0.0000728 0.9999662 0.0000728 0.0000338 -0.0000728
1585629 0.0000344 -0.0000639 0.9999656 0.0000639 0.9999656 0.0000639 0.0000344 -0.0000639
1658239 0.0000351 -0.0000551 0.9999649 0.0000551 0.9999649 0.0000551 0.0000351 -0.0000551
1734173 0.0000358 -0.0000465 0.9999642 0.0000465 0.9999642 0.0000465 0.0000358 -0.0000465
1813585 0.0000366 -0.0000379 0.9999634 0.0000379 0.9999634 0.0000379 0.0000366 -0.0000379
1896632 0.0000375 -0.0000295 0.9999625 0.0000295 0.9999625 0.0000295 0.0000375 -0.0000295
1983483 0.0000384 -0.0000210 0.9999616 0.0000210 0.9999616 0.0000210 0.0000384 -0.0000210
2074311 0.0000395 -0.0000127 0.9999605 0.0000127 0.9999605 0.0000127 0.0000395 -0.0000127
