!Murata Part Number: GRM188C71C475ME21
!These Parameters are Measured in Series Mode Connection
!Data Generated on Mar 30, 2021
!       o--ll--o
!Port1            Port2
!       o------o
!Operation Temp=25[degC], DC Bias Voltage=0[V]
!Freq. Start=100[Hz] Stop=6[GHz] 401[Steps]
# Hz S RI R 50
!Freq.(Hz) S11(Real) S11(Imag) S21(Real) S21(Imag) S12(Real) S12(Imag) S22(Real) S22(Imag)
100 0.9536699 -0.2037689 0.0463301 0.2037689 0.0463301 0.2037689 0.9536699 -0.2037689
105 0.9497143 -0.2121078 0.0502857 0.2121078 0.0502857 0.2121078 0.9497143 -0.2121078
109 0.9454340 -0.2207090 0.0545660 0.2207090 0.0545660 0.2207090 0.9454340 -0.2207090
114 0.9408052 -0.2295696 0.0591948 0.2295696 0.0591948 0.2295696 0.9408052 -0.2295696
120 0.9358033 -0.2386851 0.0641967 0.2386851 0.0641967 0.2386851 0.9358033 -0.2386851
125 0.9304026 -0.2480490 0.0695974 0.2480490 0.0695974 0.2480490 0.9304026 -0.2480490
131 0.9245764 -0.2576522 0.0754236 0.2576522 0.0754236 0.2576522 0.9245764 -0.2576522
137 0.9182976 -0.2674837 0.0817024 0.2674837 0.0817024 0.2674837 0.9182976 -0.2674837
143 0.9115383 -0.2775293 0.0884617 0.2775293 0.0884617 0.2775293 0.9115383 -0.2775293
150 0.9042703 -0.2877722 0.0957297 0.2877722 0.0957297 0.2877722 0.9042703 -0.2877722
156 0.8964654 -0.2981924 0.1035346 0.2981924 0.1035346 0.2981924 0.8964654 -0.2981924
164 0.8880955 -0.3087664 0.1119045 0.3087664 0.1119045 0.3087664 0.8880955 -0.3087664
171 0.8791332 -0.3194672 0.1208668 0.3194672 0.1208668 0.3194672 0.8791332 -0.3194672
179 0.8695519 -0.3302643 0.1304481 0.3302643 0.1304481 0.3302643 0.8695519 -0.3302643
187 0.8593266 -0.3411232 0.1406734 0.3411232 0.1406734 0.3411232 0.8593266 -0.3411232
196 0.8484341 -0.3520057 0.1515659 0.3520057 0.1515659 0.3520057 0.8484341 -0.3520057
205 0.8368536 -0.3628695 0.1631464 0.3628695 0.1631464 0.3628695 0.8368536 -0.3628695
214 0.8245674 -0.3736687 0.1754326 0.3736687 0.1754326 0.3736687 0.8245674 -0.3736687
224 0.8115612 -0.3843535 0.1884388 0.3843535 0.1884388 0.3843535 0.8115612 -0.3843535
234 0.7978249 -0.3948711 0.2021751 0.3948711 0.2021751 0.3948711 0.7978249 -0.3948711
245 0.7833533 -0.4051651 0.2166467 0.4051651 0.2166467 0.4051651 0.7833533 -0.4051651
256 0.7681463 -0.4151768 0.2318537 0.4151768 0.2318537 0.4151768 0.7681463 -0.4151768
268 0.7522099 -0.4248453 0.2477901 0.4248453 0.2477901 0.4248453 0.7522099 -0.4248453
280 0.7355562 -0.4341083 0.2644438 0.4341083 0.2644438 0.4341083 0.7355562 -0.4341083
293 0.7182043 -0.4429026 0.2817957 0.4429026 0.2817957 0.4429026 0.7182043 -0.4429026
306 0.7001800 -0.4511653 0.2998200 0.4511653 0.2998200 0.4511653 0.7001800 -0.4511653
320 0.6815167 -0.4588344 0.3184833 0.4588344 0.3184833 0.4588344 0.6815167 -0.4588344
335 0.6622549 -0.4658502 0.3377451 0.4658502 0.3377451 0.4658502 0.6622549 -0.4658502
350 0.6424422 -0.4721558 0.3575578 0.4721558 0.3575578 0.4721558 0.6424422 -0.4721558
366 0.6221333 -0.4776982 0.3778667 0.4776982 0.3778667 0.4776982 0.6221333 -0.4776982
383 0.6013892 -0.4824298 0.3986108 0.4824298 0.3986108 0.4824298 0.6013892 -0.4824298
401 0.5802768 -0.4863085 0.4197232 0.4863085 0.4197232 0.4863085 0.5802768 -0.4863085
419 0.5588681 -0.4892993 0.4411319 0.4892993 0.4411319 0.4892993 0.5588681 -0.4892993
438 0.5372395 -0.4913747 0.4627605 0.4913747 0.4627605 0.4913747 0.5372395 -0.4913747
458 0.5154703 -0.4925153 0.4845297 0.4925153 0.4845297 0.4925153 0.5154703 -0.4925153
479 0.4936423 -0.4927102 0.5063577 0.4927102 0.5063577 0.4927102 0.4936423 -0.4927102
501 0.4718377 -0.4919572 0.5281623 0.4919572 0.5281623 0.4919572 0.4718377 -0.4919572
524 0.4501389 -0.4902634 0.5498611 0.4902634 0.5498611 0.4902634 0.4501389 -0.4902634
548 0.4286264 -0.4876440 0.5713736 0.4876440 0.5713736 0.4876440 0.4286264 -0.4876440
573 0.4073784 -0.4841231 0.5926216 0.4841231 0.5926216 0.4841231 0.4073784 -0.4841231
600 0.3864691 -0.4797325 0.6135309 0.4797325 0.6135309 0.4797325 0.3864691 -0.4797325
627 0.3659680 -0.4745112 0.6340320 0.4745112 0.6340320 0.4745112 0.3659680 -0.4745112
656 0.3459393 -0.4685046 0.6540607 0.4685046 0.6540607 0.4685046 0.3459393 -0.4685046
686 0.3264406 -0.4617637 0.6735594 0.4617637 0.6735594 0.4617637 0.3264406 -0.4617637
717 0.3075229 -0.4543440 0.6924771 0.4543440 0.6924771 0.4543440 0.3075229 -0.4543440
750 0.2892302 -0.4463045 0.7107698 0.4463045 0.7107698 0.4463045 0.2892302 -0.4463045
784 0.2715989 -0.4377069 0.7284011 0.4377069 0.7284011 0.4377069 0.2715989 -0.4377069
820 0.2546582 -0.4286141 0.7453418 0.4286141 0.7453418 0.4286141 0.2546582 -0.4286141
858 0.2384301 -0.4190897 0.7615699 0.4190897 0.7615699 0.4190897 0.2384301 -0.4190897
897 0.2229294 -0.4091968 0.7770706 0.4091968 0.7770706 0.4091968 0.2229294 -0.4091968
938 0.2081646 -0.3989975 0.7918354 0.3989975 0.7918354 0.3989975 0.2081646 -0.3989975
981 0.1941379 -0.3885519 0.8058621 0.3885519 0.8058621 0.3885519 0.1941379 -0.3885519
1026 0.1808459 -0.3779177 0.8191541 0.3779177 0.8191541 0.3779177 0.1808459 -0.3779177
1073 0.1682800 -0.3671494 0.8317200 0.3671494 0.8317200 0.3671494 0.1682800 -0.3671494
1122 0.1564274 -0.3562985 0.8435726 0.3562985 0.8435726 0.3562985 0.1564274 -0.3562985
1174 0.1452715 -0.3454125 0.8547285 0.3454125 0.8547285 0.3454125 0.1452715 -0.3454125
1227 0.1347921 -0.3345354 0.8652079 0.3345354 0.8652079 0.3345354 0.1347921 -0.3345354
1283 0.1249667 -0.3237069 0.8750333 0.3237069 0.8750333 0.3237069 0.1249667 -0.3237069
1342 0.1157707 -0.3129632 0.8842293 0.3129632 0.8842293 0.3129632 0.1157707 -0.3129632
1404 0.1071777 -0.3023363 0.8928223 0.3023363 0.8928223 0.3023363 0.1071777 -0.3023363
1468 0.0991603 -0.2918545 0.9008397 0.2918545 0.9008397 0.2918545 0.0991603 -0.2918545
1535 0.0916904 -0.2815425 0.9083096 0.2815425 0.9083096 0.2815425 0.0916904 -0.2815425
1606 0.0847396 -0.2714214 0.9152604 0.2714214 0.9152604 0.2714214 0.0847396 -0.2714214
1679 0.0782795 -0.2615093 0.9217205 0.2615093 0.9217205 0.2615093 0.0782795 -0.2615093
1756 0.0722820 -0.2518210 0.9277180 0.2518210 0.9277180 0.2518210 0.0722820 -0.2518210
1836 0.0667195 -0.2423687 0.9332805 0.2423687 0.9332805 0.2423687 0.0667195 -0.2423687
1920 0.0615649 -0.2331619 0.9384351 0.2331619 0.9384351 0.2331619 0.0615649 -0.2331619
2008 0.0567923 -0.2242079 0.9432077 0.2242079 0.9432077 0.2242079 0.0567923 -0.2242079
2100 0.0523765 -0.2155119 0.9476235 0.2155119 0.9476235 0.2155119 0.0523765 -0.2155119
2196 0.0482935 -0.2070770 0.9517065 0.2070770 0.9517065 0.2070770 0.0482935 -0.2070770
2297 0.0445205 -0.1989049 0.9554795 0.1989049 0.9554795 0.1989049 0.0445205 -0.1989049
2402 0.0410355 -0.1909958 0.9589645 0.1909958 0.9589645 0.1909958 0.0410355 -0.1909958
2512 0.0378182 -0.1833486 0.9621818 0.1833486 0.9621818 0.1833486 0.0378182 -0.1833486
2627 0.0348490 -0.1759611 0.9651510 0.1759611 0.9651510 0.1759611 0.0348490 -0.1759611
2748 0.0321097 -0.1688301 0.9678903 0.1688301 0.9678903 0.1688301 0.0321097 -0.1688301
2873 0.0295834 -0.1619517 0.9704166 0.1619517 0.9704166 0.1619517 0.0295834 -0.1619517
3005 0.0272541 -0.1553213 0.9727459 0.1553213 0.9727459 0.1553213 0.0272541 -0.1553213
3143 0.0251068 -0.1489338 0.9748932 0.1489338 0.9748932 0.1489338 0.0251068 -0.1489338
3287 0.0231277 -0.1427837 0.9768723 0.1427837 0.9768723 0.1427837 0.0231277 -0.1427837
3437 0.0213041 -0.1368650 0.9786959 0.1368650 0.9786959 0.1368650 0.0213041 -0.1368650
3594 0.0196239 -0.1311717 0.9803761 0.1311717 0.9803761 0.1311717 0.0196239 -0.1311717
3759 0.0180760 -0.1256974 0.9819240 0.1256974 0.9819240 0.1256974 0.0180760 -0.1256974
3931 0.0166504 -0.1204356 0.9833496 0.1204356 0.9833496 0.1204356 0.0166504 -0.1204356
4111 0.0153374 -0.1153798 0.9846626 0.1153798 0.9846626 0.1153798 0.0153374 -0.1153798
4299 0.0141285 -0.1105236 0.9858715 0.1105236 0.9858715 0.1105236 0.0141285 -0.1105236
4496 0.0130154 -0.1058604 0.9869846 0.1058604 0.9869846 0.1058604 0.0130154 -0.1058604
4702 0.0119907 -0.1013837 0.9880093 0.1013837 0.9880093 0.1013837 0.0119907 -0.1013837
4918 0.0110476 -0.0970872 0.9889524 0.0970872 0.9889524 0.0970872 0.0110476 -0.0970872
5143 0.0101797 -0.0929646 0.9898203 0.0929646 0.9898203 0.0929646 0.0101797 -0.0929646
5378 0.0093811 -0.0890098 0.9906189 0.0890098 0.9906189 0.0890098 0.0093811 -0.0890098
5625 0.0086464 -0.0852166 0.9913536 0.0852166 0.9913536 0.0852166 0.0086464 -0.0852166
5882 0.0079706 -0.0815792 0.9920294 0.0815792 0.9920294 0.0815792 0.0079706 -0.0815792
6151 0.0073491 -0.0780919 0.9926509 0.0780919 0.9926509 0.0780919 0.0073491 -0.0780919
6433 0.0067777 -0.0747490 0.9932223 0.0747490 0.9932223 0.0747490 0.0067777 -0.0747490
6728 0.0062523 -0.0715451 0.9937477 0.0715451 0.9937477 0.0715451 0.0062523 -0.0715451
7036 0.0057693 -0.0684748 0.9942307 0.0684748 0.9942307 0.0684748 0.0057693 -0.0684748
7358 0.0053254 -0.0655331 0.9946746 0.0655331 0.9946746 0.0655331 0.0053254 -0.0655331
7695 0.0049174 -0.0627150 0.9950826 0.0627150 0.9950826 0.0627150 0.0049174 -0.0627150
8047 0.0045426 -0.0600156 0.9954574 0.0600156 0.9954574 0.0600156 0.0045426 -0.0600156
8416 0.0041981 -0.0574303 0.9958019 0.0574303 0.9958019 0.0574303 0.0041981 -0.0574303
8801 0.0038816 -0.0549545 0.9961184 0.0549545 0.9961184 0.0549545 0.0038816 -0.0549545
9204 0.0035909 -0.0525838 0.9964091 0.0525838 0.9964091 0.0525838 0.0035909 -0.0525838
9626 0.0033237 -0.0503142 0.9966763 0.0503142 0.9966763 0.0503142 0.0033237 -0.0503142
10066 0.0030782 -0.0481413 0.9969218 0.0481413 0.9969218 0.0481413 0.0030782 -0.0481413
10527 0.0028527 -0.0460614 0.9971473 0.0460614 0.9971473 0.0460614 0.0028527 -0.0460614
11009 0.0026453 -0.0440706 0.9973547 0.0440706 0.9973547 0.0440706 0.0026453 -0.0440706
11514 0.0024547 -0.0421653 0.9975453 0.0421653 0.9975453 0.0421653 0.0024547 -0.0421653
12041 0.0022795 -0.0403419 0.9977205 0.0403419 0.9977205 0.0403419 0.0022795 -0.0403419
12592 0.0021183 -0.0385970 0.9978817 0.0385970 0.9978817 0.0385970 0.0021183 -0.0385970
13169 0.0019700 -0.0369273 0.9980300 0.0369273 0.9980300 0.0369273 0.0019700 -0.0369273
13772 0.0018334 -0.0353297 0.9981666 0.0353297 0.9981666 0.0353297 0.0018334 -0.0353297
14402 0.0017076 -0.0338012 0.9982924 0.0338012 0.9982924 0.0338012 0.0017076 -0.0338012
15062 0.0015917 -0.0323388 0.9984083 0.0323388 0.9984083 0.0323388 0.0015917 -0.0323388
15752 0.0014848 -0.0309396 0.9985152 0.0309396 0.9985152 0.0309396 0.0014848 -0.0309396
16473 0.0013862 -0.0296011 0.9986138 0.0296011 0.9986138 0.0296011 0.0013862 -0.0296011
17227 0.0012950 -0.0283206 0.9987050 0.0283206 0.9987050 0.0283206 0.0012950 -0.0283206
18016 0.0012108 -0.0270956 0.9987892 0.0270956 0.9987892 0.0270956 0.0012108 -0.0270956
18841 0.0011329 -0.0259237 0.9988671 0.0259237 0.9988671 0.0259237 0.0011329 -0.0259237
19704 0.0010607 -0.0248025 0.9989393 0.0248025 0.9989393 0.0248025 0.0010607 -0.0248025
20606 0.0009938 -0.0237300 0.9990062 0.0237300 0.9990062 0.0237300 0.0009938 -0.0237300
21550 0.0009317 -0.0227040 0.9990683 0.0227040 0.9990683 0.0227040 0.0009317 -0.0227040
22537 0.0008740 -0.0217225 0.9991260 0.0217225 0.9991260 0.0217225 0.0008740 -0.0217225
23569 0.0008204 -0.0207834 0.9991796 0.0207834 0.9991796 0.0207834 0.0008204 -0.0207834
24648 0.0007705 -0.0198850 0.9992295 0.0198850 0.9992295 0.0198850 0.0007705 -0.0198850
25777 0.0007241 -0.0190255 0.9992759 0.0190255 0.9992759 0.0190255 0.0007241 -0.0190255
26957 0.0006808 -0.0182032 0.9993192 0.0182032 0.9993192 0.0182032 0.0006808 -0.0182032
28191 0.0006404 -0.0174164 0.9993596 0.0174164 0.9993596 0.0174164 0.0006404 -0.0174164
29482 0.0006027 -0.0166636 0.9993973 0.0166636 0.9993973 0.0166636 0.0006027 -0.0166636
30832 0.0005675 -0.0159433 0.9994325 0.0159433 0.9994325 0.0159433 0.0005675 -0.0159433
32244 0.0005346 -0.0152540 0.9994654 0.0152540 0.9994654 0.0152540 0.0005346 -0.0152540
33721 0.0005039 -0.0145945 0.9994961 0.0145945 0.9994961 0.0145945 0.0005039 -0.0145945
35265 0.0004752 -0.0139634 0.9995248 0.0139634 0.9995248 0.0139634 0.0004752 -0.0139634
36880 0.0004483 -0.0133595 0.9995517 0.0133595 0.9995517 0.0133595 0.0004483 -0.0133595
38569 0.0004232 -0.0127816 0.9995768 0.0127816 0.9995768 0.0127816 0.0004232 -0.0127816
40335 0.0003998 -0.0122286 0.9996002 0.0122286 0.9996002 0.0122286 0.0003998 -0.0122286
42182 0.0003779 -0.0116994 0.9996221 0.0116994 0.9996221 0.0116994 0.0003779 -0.0116994
44113 0.0003574 -0.0111930 0.9996426 0.0111930 0.9996426 0.0111930 0.0003574 -0.0111930
46134 0.0003383 -0.0107084 0.9996617 0.0107084 0.9996617 0.0107084 0.0003383 -0.0107084
48246 0.0003205 -0.0102447 0.9996795 0.0102447 0.9996795 0.0102447 0.0003205 -0.0102447
50455 0.0003038 -0.0098010 0.9996962 0.0098010 0.9996962 0.0098010 0.0003038 -0.0098010
52766 0.0002883 -0.0093764 0.9997117 0.0093764 0.9997117 0.0093764 0.0002883 -0.0093764
55182 0.0002738 -0.0089701 0.9997262 0.0089701 0.9997262 0.0089701 0.0002738 -0.0089701
57709 0.0002603 -0.0085813 0.9997397 0.0085813 0.9997397 0.0085813 0.0002603 -0.0085813
60352 0.0002477 -0.0082093 0.9997523 0.0082093 0.9997523 0.0082093 0.0002477 -0.0082093
63115 0.0002360 -0.0078534 0.9997640 0.0078534 0.9997640 0.0078534 0.0002360 -0.0078534
66005 0.0002251 -0.0075128 0.9997749 0.0075128 0.9997749 0.0075128 0.0002251 -0.0075128
69028 0.0002149 -0.0071870 0.9997851 0.0071870 0.9997851 0.0071870 0.0002149 -0.0071870
72189 0.0002054 -0.0068753 0.9997946 0.0068753 0.9997946 0.0068753 0.0002054 -0.0068753
75495 0.0001965 -0.0065772 0.9998035 0.0065772 0.9998035 0.0065772 0.0001965 -0.0065772
78952 0.0001882 -0.0062919 0.9998118 0.0062919 0.9998118 0.0062919 0.0001882 -0.0062919
82567 0.0001805 -0.0060190 0.9998195 0.0060190 0.9998195 0.0060190 0.0001805 -0.0060190
86348 0.0001733 -0.0057579 0.9998267 0.0057579 0.9998267 0.0057579 0.0001733 -0.0057579
90302 0.0001665 -0.0055082 0.9998335 0.0055082 0.9998335 0.0055082 0.0001665 -0.0055082
94437 0.0001602 -0.0052693 0.9998398 0.0052693 0.9998398 0.0052693 0.0001602 -0.0052693
98762 0.0001543 -0.0050408 0.9998457 0.0050408 0.9998457 0.0050408 0.0001543 -0.0050408
103284 0.0001487 -0.0048223 0.9998513 0.0048223 0.9998513 0.0048223 0.0001487 -0.0048223
108014 0.0001434 -0.0046132 0.9998566 0.0046132 0.9998566 0.0046132 0.0001434 -0.0046132
112960 0.0001385 -0.0044133 0.9998615 0.0044133 0.9998615 0.0044133 0.0001385 -0.0044133
118133 0.0001338 -0.0042220 0.9998662 0.0042220 0.9998662 0.0042220 0.0001338 -0.0042220
123542 0.0001294 -0.0040390 0.9998706 0.0040390 0.9998706 0.0040390 0.0001294 -0.0040390
129199 0.0001252 -0.0038640 0.9998748 0.0038640 0.9998748 0.0038640 0.0001252 -0.0038640
135116 0.0001211 -0.0036966 0.9998789 0.0036966 0.9998789 0.0036966 0.0001211 -0.0036966
141303 0.0001173 -0.0035365 0.9998827 0.0035365 0.9998827 0.0035365 0.0001173 -0.0035365
147774 0.0001137 -0.0033833 0.9998863 0.0033833 0.9998863 0.0033833 0.0001137 -0.0033833
154540 0.0001101 -0.0032367 0.9998899 0.0032367 0.9998899 0.0032367 0.0001101 -0.0032367
161617 0.0001068 -0.0030965 0.9998932 0.0030965 0.9998932 0.0030965 0.0001068 -0.0030965
169018 0.0001035 -0.0029623 0.9998965 0.0029623 0.9998965 0.0029623 0.0001035 -0.0029623
176758 0.0001004 -0.0028340 0.9998996 0.0028340 0.9998996 0.0028340 0.0001004 -0.0028340
184852 0.0000974 -0.0027111 0.9999026 0.0027111 0.9999026 0.0027111 0.0000974 -0.0027111
193316 0.0000945 -0.0025936 0.9999055 0.0025936 0.9999055 0.0025936 0.0000945 -0.0025936
202169 0.0000917 -0.0024811 0.9999083 0.0024811 0.9999083 0.0024811 0.0000917 -0.0024811
211427 0.0000890 -0.0023734 0.9999110 0.0023734 0.9999110 0.0023734 0.0000890 -0.0023734
221108 0.0000864 -0.0022704 0.9999136 0.0022704 0.9999136 0.0022704 0.0000864 -0.0022704
231233 0.0000838 -0.0021717 0.9999162 0.0021717 0.9999162 0.0021717 0.0000838 -0.0021717
241822 0.0000814 -0.0020772 0.9999186 0.0020772 0.9999186 0.0020772 0.0000814 -0.0020772
252896 0.0000790 -0.0019868 0.9999210 0.0019868 0.9999210 0.0019868 0.0000790 -0.0019868
264476 0.0000768 -0.0019002 0.9999232 0.0019002 0.9999232 0.0019002 0.0000768 -0.0019002
276587 0.0000746 -0.0018173 0.9999254 0.0018173 0.9999254 0.0018173 0.0000746 -0.0018173
289253 0.0000725 -0.0017378 0.9999275 0.0017378 0.9999275 0.0017378 0.0000725 -0.0017378
302498 0.0000705 -0.0016618 0.9999295 0.0016618 0.9999295 0.0016618 0.0000705 -0.0016618
316350 0.0000686 -0.0015889 0.9999314 0.0015889 0.9999314 0.0015889 0.0000686 -0.0015889
330837 0.0000667 -0.0015191 0.9999333 0.0015191 0.9999333 0.0015191 0.0000667 -0.0015191
345986 0.0000650 -0.0014522 0.9999350 0.0014522 0.9999350 0.0014522 0.0000650 -0.0014522
361830 0.0000633 -0.0013882 0.9999367 0.0013882 0.9999367 0.0013882 0.0000633 -0.0013882
378399 0.0000617 -0.0013268 0.9999383 0.0013268 0.9999383 0.0013268 0.0000617 -0.0013268
395726 0.0000602 -0.0012680 0.9999398 0.0012680 0.9999398 0.0012680 0.0000602 -0.0012680
413847 0.0000588 -0.0012116 0.9999412 0.0012116 0.9999412 0.0012116 0.0000588 -0.0012116
432798 0.0000575 -0.0011576 0.9999425 0.0011576 0.9999425 0.0011576 0.0000575 -0.0011576
452617 0.0000562 -0.0011058 0.9999438 0.0011058 0.9999438 0.0011058 0.0000562 -0.0011058
473344 0.0000551 -0.0010562 0.9999449 0.0010562 0.9999449 0.0010562 0.0000551 -0.0010562
495019 0.0000540 -0.0010086 0.9999460 0.0010086 0.9999460 0.0010086 0.0000540 -0.0010086
517687 0.0000530 -0.0009629 0.9999470 0.0009629 0.9999470 0.0009629 0.0000530 -0.0009629
541393 0.0000520 -0.0009192 0.9999480 0.0009192 0.9999480 0.0009192 0.0000520 -0.0009192
566185 0.0000511 -0.0008772 0.9999489 0.0008772 0.9999489 0.0008772 0.0000511 -0.0008772
592111 0.0000503 -0.0008370 0.9999497 0.0008370 0.9999497 0.0008370 0.0000503 -0.0008370
619225 0.0000495 -0.0007984 0.9999505 0.0007984 0.9999505 0.0007984 0.0000495 -0.0007984
647581 0.0000489 -0.0007613 0.9999511 0.0007613 0.9999511 0.0007613 0.0000489 -0.0007613
677235 0.0000482 -0.0007258 0.9999518 0.0007258 0.9999518 0.0007258 0.0000482 -0.0007258
708247 0.0000476 -0.0006916 0.9999524 0.0006916 0.9999524 0.0006916 0.0000476 -0.0006916
740679 0.0000471 -0.0006589 0.9999529 0.0006589 0.9999529 0.0006589 0.0000471 -0.0006589
774597 0.0000466 -0.0006274 0.9999534 0.0006274 0.9999534 0.0006274 0.0000466 -0.0006274
810067 0.0000462 -0.0005972 0.9999538 0.0005972 0.9999538 0.0005972 0.0000462 -0.0005972
847162 0.0000458 -0.0005681 0.9999542 0.0005681 0.9999542 0.0005681 0.0000458 -0.0005681
885955 0.0000455 -0.0005402 0.9999545 0.0005402 0.9999545 0.0005402 0.0000455 -0.0005402
926525 0.0000452 -0.0005133 0.9999548 0.0005133 0.9999548 0.0005133 0.0000452 -0.0005133
968953 0.0000450 -0.0004874 0.9999550 0.0004874 0.9999550 0.0004874 0.0000450 -0.0004874
1013323 0.0000447 -0.0004625 0.9999553 0.0004625 0.9999553 0.0004625 0.0000447 -0.0004625
1059725 0.0000446 -0.0004386 0.9999554 0.0004386 0.9999554 0.0004386 0.0000446 -0.0004386
1108252 0.0000444 -0.0004155 0.9999556 0.0004155 0.9999556 0.0004155 0.0000444 -0.0004155
1159002 0.0000444 -0.0003932 0.9999556 0.0003932 0.9999556 0.0003932 0.0000444 -0.0003932
1212075 0.0000443 -0.0003717 0.9999557 0.0003717 0.9999557 0.0003717 0.0000443 -0.0003717
1267578 0.0000443 -0.0003509 0.9999557 0.0003509 0.9999557 0.0003509 0.0000443 -0.0003509
1325623 0.0000443 -0.0003309 0.9999557 0.0003309 0.9999557 0.0003309 0.0000443 -0.0003309
1386327 0.0000444 -0.0003115 0.9999556 0.0003115 0.9999556 0.0003115 0.0000444 -0.0003115
1449809 0.0000445 -0.0002927 0.9999555 0.0002927 0.9999555 0.0002927 0.0000445 -0.0002927
1516199 0.0000446 -0.0002745 0.9999554 0.0002745 0.9999554 0.0002745 0.0000446 -0.0002745
1585629 0.0000448 -0.0002568 0.9999552 0.0002568 0.9999552 0.0002568 0.0000448 -0.0002568
1658239 0.0000451 -0.0002397 0.9999549 0.0002397 0.9999549 0.0002397 0.0000451 -0.0002397
1734173 0.0000454 -0.0002230 0.9999546 0.0002230 0.9999546 0.0002230 0.0000454 -0.0002230
1813585 0.0000457 -0.0002067 0.9999543 0.0002067 0.9999543 0.0002067 0.0000457 -0.0002067
1896632 0.0000461 -0.0001909 0.9999539 0.0001909 0.9999539 0.0001909 0.0000461 -0.0001909
1983483 0.0000465 -0.0001755 0.9999535 0.0001755 0.9999535 0.0001755 0.0000465 -0.0001755
2074311 0.0000470 -0.0001604 0.9999530 0.0001604 0.9999530 0.0001604 0.0000470 -0.0001604
