!Murata Part Number: GRM188C71C684MA12
!These Parameters are Measured in Series Mode Connection
!Data Generated on Mar 30, 2021
!       o--ll--o
!Port1            Port2
!       o------o
!Operation Temp=25[degC], DC Bias Voltage=0[V]
!Freq. Start=100[kHz] Stop=6[GHz] 401[Steps]
# Hz S RI R 50
!Freq.(Hz) S11(Real) S11(Imag) S21(Real) S21(Imag) S12(Real) S12(Imag) S22(Real) S22(Imag)
100000 0.0025876 -0.0359850 0.9974124 0.0359850 0.9974124 0.0359850 0.0025876 -0.0359850
102789 0.0024866 -0.0350370 0.9975134 0.0350370 0.9975134 0.0350370 0.0024866 -0.0350370
105655 0.0023898 -0.0341135 0.9976102 0.0341135 0.9976102 0.0341135 0.0023898 -0.0341135
108602 0.0022972 -0.0332140 0.9977028 0.0332140 0.9977028 0.0332140 0.0022972 -0.0332140
111630 0.0022084 -0.0323377 0.9977916 0.0323377 0.9977916 0.0323377 0.0022084 -0.0323377
114743 0.0021235 -0.0314841 0.9978765 0.0314841 0.9978765 0.0314841 0.0021235 -0.0314841
117943 0.0020421 -0.0306526 0.9979579 0.0306526 0.9979579 0.0306526 0.0020421 -0.0306526
121232 0.0019642 -0.0298428 0.9980358 0.0298428 0.9980358 0.0298428 0.0019642 -0.0298428
124613 0.0018897 -0.0290539 0.9981103 0.0290539 0.9981103 0.0290539 0.0018897 -0.0290539
128088 0.0018184 -0.0282856 0.9981816 0.0282856 0.9981816 0.0282856 0.0018184 -0.0282856
131660 0.0017501 -0.0275373 0.9982499 0.0275373 0.9982499 0.0275373 0.0017501 -0.0275373
135332 0.0016848 -0.0268085 0.9983152 0.0268085 0.9983152 0.0268085 0.0016848 -0.0268085
139106 0.0016223 -0.0260988 0.9983777 0.0260988 0.9983777 0.0260988 0.0016223 -0.0260988
142985 0.0015625 -0.0254075 0.9984375 0.0254075 0.9984375 0.0254075 0.0015625 -0.0254075
146972 0.0015053 -0.0247344 0.9984947 0.0247344 0.9984947 0.0247344 0.0015053 -0.0247344
151071 0.0014506 -0.0240789 0.9985494 0.0240789 0.9985494 0.0240789 0.0014506 -0.0240789
155284 0.0013982 -0.0234405 0.9986018 0.0234405 0.9986018 0.0234405 0.0013982 -0.0234405
159614 0.0013481 -0.0228189 0.9986519 0.0228189 0.9986519 0.0228189 0.0013481 -0.0228189
164065 0.0013002 -0.0222137 0.9986998 0.0222137 0.9986998 0.0222137 0.0013002 -0.0222137
168641 0.0012544 -0.0216243 0.9987456 0.0216243 0.9987456 0.0216243 0.0012544 -0.0216243
173344 0.0012105 -0.0210505 0.9987895 0.0210505 0.9987895 0.0210505 0.0012105 -0.0210505
178178 0.0011685 -0.0204918 0.9988315 0.0204918 0.9988315 0.0204918 0.0011685 -0.0204918
183146 0.0011283 -0.0199478 0.9988717 0.0199478 0.9988717 0.0199478 0.0011283 -0.0199478
188254 0.0010898 -0.0194182 0.9989102 0.0194182 0.9989102 0.0194182 0.0010898 -0.0194182
193504 0.0010530 -0.0189025 0.9989470 0.0189025 0.9989470 0.0189025 0.0010530 -0.0189025
198900 0.0010177 -0.0184005 0.9989823 0.0184005 0.9989823 0.0184005 0.0010177 -0.0184005
204447 0.0009839 -0.0179118 0.9990161 0.0179118 0.9990161 0.0179118 0.0009839 -0.0179118
210148 0.0009515 -0.0174360 0.9990485 0.0174360 0.9990485 0.0174360 0.0009515 -0.0174360
216008 0.0009204 -0.0169728 0.9990796 0.0169728 0.9990796 0.0169728 0.0009204 -0.0169728
222032 0.0008906 -0.0165219 0.9991094 0.0165219 0.9991094 0.0165219 0.0008906 -0.0165219
228224 0.0008621 -0.0160830 0.9991379 0.0160830 0.9991379 0.0160830 0.0008621 -0.0160830
234589 0.0008347 -0.0156556 0.9991653 0.0156556 0.9991653 0.0156556 0.0008347 -0.0156556
241130 0.0008084 -0.0152396 0.9991916 0.0152396 0.9991916 0.0152396 0.0008084 -0.0152396
247855 0.0007831 -0.0148347 0.9992169 0.0148347 0.9992169 0.0148347 0.0007831 -0.0148347
254767 0.0007589 -0.0144405 0.9992411 0.0144405 0.9992411 0.0144405 0.0007589 -0.0144405
261871 0.0007356 -0.0140568 0.9992644 0.0140568 0.9992644 0.0140568 0.0007356 -0.0140568
269174 0.0007132 -0.0136832 0.9992868 0.0136832 0.9992868 0.0136832 0.0007132 -0.0136832
276681 0.0006917 -0.0133196 0.9993083 0.0133196 0.9993083 0.0133196 0.0006917 -0.0133196
284397 0.0006710 -0.0129656 0.9993290 0.0129656 0.9993290 0.0129656 0.0006710 -0.0129656
292328 0.0006511 -0.0126210 0.9993489 0.0126210 0.9993489 0.0126210 0.0006511 -0.0126210
300480 0.0006319 -0.0122855 0.9993681 0.0122855 0.9993681 0.0122855 0.0006319 -0.0122855
308859 0.0006134 -0.0119589 0.9993866 0.0119589 0.9993866 0.0119589 0.0006134 -0.0119589
317472 0.0005957 -0.0116410 0.9994043 0.0116410 0.9994043 0.0116410 0.0005957 -0.0116410
326326 0.0005785 -0.0113316 0.9994215 0.0113316 0.9994215 0.0113316 0.0005785 -0.0113316
335426 0.0005620 -0.0110303 0.9994380 0.0110303 0.9994380 0.0110303 0.0005620 -0.0110303
344780 0.0005461 -0.0107370 0.9994539 0.0107370 0.9994539 0.0107370 0.0005461 -0.0107370
354395 0.0005308 -0.0104515 0.9994692 0.0104515 0.9994692 0.0104515 0.0005308 -0.0104515
364278 0.0005160 -0.0101735 0.9994840 0.0101735 0.9994840 0.0101735 0.0005160 -0.0101735
374436 0.0005017 -0.0099029 0.9994983 0.0099029 0.9994983 0.0099029 0.0005017 -0.0099029
384878 0.0004879 -0.0096395 0.9995121 0.0096395 0.9995121 0.0096395 0.0004879 -0.0096395
395611 0.0004747 -0.0093830 0.9995253 0.0093830 0.9995253 0.0093830 0.0004747 -0.0093830
406644 0.0004618 -0.0091333 0.9995382 0.0091333 0.9995382 0.0091333 0.0004618 -0.0091333
417984 0.0004495 -0.0088902 0.9995505 0.0088902 0.9995505 0.0088902 0.0004495 -0.0088902
429640 0.0004375 -0.0086535 0.9995625 0.0086535 0.9995625 0.0086535 0.0004375 -0.0086535
441622 0.0004260 -0.0084231 0.9995740 0.0084231 0.9995740 0.0084231 0.0004260 -0.0084231
453937 0.0004149 -0.0081987 0.9995851 0.0081987 0.9995851 0.0081987 0.0004149 -0.0081987
466596 0.0004041 -0.0079803 0.9995959 0.0079803 0.9995959 0.0079803 0.0004041 -0.0079803
479608 0.0003938 -0.0077677 0.9996062 0.0077677 0.9996062 0.0077677 0.0003938 -0.0077677
492983 0.0003837 -0.0075606 0.9996163 0.0075606 0.9996163 0.0075606 0.0003837 -0.0075606
506731 0.0003741 -0.0073590 0.9996259 0.0073590 0.9996259 0.0073590 0.0003741 -0.0073590
520862 0.0003647 -0.0071628 0.9996353 0.0071628 0.9996353 0.0071628 0.0003647 -0.0071628
535387 0.0003557 -0.0069717 0.9996443 0.0069717 0.9996443 0.0069717 0.0003557 -0.0069717
550318 0.0003470 -0.0067856 0.9996530 0.0067856 0.9996530 0.0067856 0.0003470 -0.0067856
565664 0.0003386 -0.0066045 0.9996614 0.0066045 0.9996614 0.0066045 0.0003386 -0.0066045
581439 0.0003305 -0.0064281 0.9996695 0.0064281 0.9996695 0.0064281 0.0003305 -0.0064281
597654 0.0003227 -0.0062564 0.9996773 0.0062564 0.9996773 0.0062564 0.0003227 -0.0062564
614320 0.0003151 -0.0060892 0.9996849 0.0060892 0.9996849 0.0060892 0.0003151 -0.0060892
631452 0.0003078 -0.0059264 0.9996922 0.0059264 0.9996922 0.0059264 0.0003078 -0.0059264
649061 0.0003007 -0.0057679 0.9996993 0.0057679 0.9996993 0.0057679 0.0003007 -0.0057679
667162 0.0002939 -0.0056136 0.9997061 0.0056136 0.9997061 0.0056136 0.0002939 -0.0056136
685767 0.0002873 -0.0054633 0.9997127 0.0054633 0.9997127 0.0054633 0.0002873 -0.0054633
704891 0.0002809 -0.0053171 0.9997191 0.0053171 0.9997191 0.0053171 0.0002809 -0.0053171
724548 0.0002748 -0.0051746 0.9997252 0.0051746 0.9997252 0.0051746 0.0002748 -0.0051746
744754 0.0002688 -0.0050359 0.9997312 0.0050359 0.9997312 0.0050359 0.0002688 -0.0050359
765523 0.0002631 -0.0049009 0.9997369 0.0049009 0.9997369 0.0049009 0.0002631 -0.0049009
786871 0.0002575 -0.0047694 0.9997425 0.0047694 0.9997425 0.0047694 0.0002575 -0.0047694
808814 0.0002521 -0.0046414 0.9997479 0.0046414 0.9997479 0.0046414 0.0002521 -0.0046414
831370 0.0002469 -0.0045167 0.9997531 0.0045167 0.9997531 0.0045167 0.0002469 -0.0045167
854554 0.0002418 -0.0043953 0.9997582 0.0043953 0.9997582 0.0043953 0.0002418 -0.0043953
878385 0.0002369 -0.0042771 0.9997631 0.0042771 0.9997631 0.0042771 0.0002369 -0.0042771
902880 0.0002322 -0.0041620 0.9997678 0.0041620 0.9997678 0.0041620 0.0002322 -0.0041620
928059 0.0002276 -0.0040499 0.9997724 0.0040499 0.9997724 0.0040499 0.0002276 -0.0040499
953940 0.0002231 -0.0039408 0.9997769 0.0039408 0.9997769 0.0039408 0.0002231 -0.0039408
980542 0.0002188 -0.0038345 0.9997812 0.0038345 0.9997812 0.0038345 0.0002188 -0.0038345
1007887 0.0002146 -0.0037310 0.9997854 0.0037310 0.9997854 0.0037310 0.0002146 -0.0037310
1035994 0.0002105 -0.0036302 0.9997895 0.0036302 0.9997895 0.0036302 0.0002105 -0.0036302
1064885 0.0002066 -0.0035320 0.9997934 0.0035320 0.9997934 0.0035320 0.0002066 -0.0035320
1094581 0.0002027 -0.0034364 0.9997973 0.0034364 0.9997973 0.0034364 0.0002027 -0.0034364
1125106 0.0001990 -0.0033433 0.9998010 0.0033433 0.9998010 0.0033433 0.0001990 -0.0033433
1156481 0.0001954 -0.0032525 0.9998046 0.0032525 0.9998046 0.0032525 0.0001954 -0.0032525
1188732 0.0001919 -0.0031642 0.9998081 0.0031642 0.9998081 0.0031642 0.0001919 -0.0031642
1221882 0.0001884 -0.0030781 0.9998116 0.0030781 0.9998116 0.0030781 0.0001884 -0.0030781
1255957 0.0001851 -0.0029942 0.9998149 0.0029942 0.9998149 0.0029942 0.0001851 -0.0029942
1290982 0.0001818 -0.0029125 0.9998182 0.0029125 0.9998182 0.0029125 0.0001818 -0.0029125
1326984 0.0001787 -0.0028329 0.9998213 0.0028329 0.9998213 0.0028329 0.0001787 -0.0028329
1363989 0.0001756 -0.0027554 0.9998244 0.0027554 0.9998244 0.0027554 0.0001756 -0.0027554
1402027 0.0001726 -0.0026798 0.9998274 0.0026798 0.9998274 0.0026798 0.0001726 -0.0026798
1441125 0.0001697 -0.0026062 0.9998303 0.0026062 0.9998303 0.0026062 0.0001697 -0.0026062
1481314 0.0001669 -0.0025344 0.9998331 0.0025344 0.9998331 0.0025344 0.0001669 -0.0025344
1522623 0.0001641 -0.0024644 0.9998359 0.0024644 0.9998359 0.0024644 0.0001641 -0.0024644
1565085 0.0001615 -0.0023963 0.9998385 0.0023963 0.9998385 0.0023963 0.0001615 -0.0023963
1608730 0.0001589 -0.0023298 0.9998411 0.0023298 0.9998411 0.0023298 0.0001589 -0.0023298
1653593 0.0001563 -0.0022650 0.9998437 0.0022650 0.9998437 0.0022650 0.0001563 -0.0022650
1699707 0.0001539 -0.0022018 0.9998461 0.0022018 0.9998461 0.0022018 0.0001539 -0.0022018
1747106 0.0001515 -0.0021403 0.9998485 0.0021403 0.9998485 0.0021403 0.0001515 -0.0021403
1795828 0.0001492 -0.0020802 0.9998508 0.0020802 0.9998508 0.0020802 0.0001492 -0.0020802
1845908 0.0001469 -0.0020216 0.9998531 0.0020216 0.9998531 0.0020216 0.0001469 -0.0020216
1897385 0.0001447 -0.0019645 0.9998553 0.0019645 0.9998553 0.0019645 0.0001447 -0.0019645
1950297 0.0001426 -0.0019088 0.9998574 0.0019088 0.9998574 0.0019088 0.0001426 -0.0019088
2004685 0.0001406 -0.0018545 0.9998594 0.0018545 0.9998594 0.0018545 0.0001406 -0.0018545
2060590 0.0001386 -0.0018015 0.9998614 0.0018015 0.9998614 0.0018015 0.0001386 -0.0018015
2118054 0.0001367 -0.0017497 0.9998633 0.0017497 0.9998633 0.0017497 0.0001367 -0.0017497
2177120 0.0001349 -0.0016993 0.9998651 0.0016993 0.9998651 0.0016993 0.0001349 -0.0016993
2237833 0.0001331 -0.0016500 0.9998669 0.0016500 0.9998669 0.0016500 0.0001331 -0.0016500
2300240 0.0001314 -0.0016019 0.9998686 0.0016019 0.9998686 0.0016019 0.0001314 -0.0016019
2364387 0.0001297 -0.0015550 0.9998703 0.0015550 0.9998703 0.0015550 0.0001297 -0.0015550
2430322 0.0001281 -0.0015092 0.9998719 0.0015092 0.9998719 0.0015092 0.0001281 -0.0015092
2498097 0.0001266 -0.0014645 0.9998734 0.0014645 0.9998734 0.0014645 0.0001266 -0.0014645
2567761 0.0001251 -0.0014208 0.9998749 0.0014208 0.9998749 0.0014208 0.0001251 -0.0014208
2639368 0.0001237 -0.0013781 0.9998763 0.0013781 0.9998763 0.0013781 0.0001237 -0.0013781
2712972 0.0001224 -0.0013365 0.9998776 0.0013365 0.9998776 0.0013365 0.0001224 -0.0013365
2788629 0.0001211 -0.0012958 0.9998789 0.0012958 0.9998789 0.0012958 0.0001211 -0.0012958
2866396 0.0001199 -0.0012560 0.9998801 0.0012560 0.9998801 0.0012560 0.0001199 -0.0012560
2946331 0.0001187 -0.0012171 0.9998813 0.0012171 0.9998813 0.0012171 0.0001187 -0.0012171
3028495 0.0001176 -0.0011791 0.9998824 0.0011791 0.9998824 0.0011791 0.0001176 -0.0011791
3112951 0.0001165 -0.0011420 0.9998835 0.0011420 0.9998835 0.0011420 0.0001165 -0.0011420
3199762 0.0001155 -0.0011057 0.9998845 0.0011057 0.9998845 0.0011057 0.0001155 -0.0011057
3288994 0.0001146 -0.0010702 0.9998854 0.0010702 0.9998854 0.0010702 0.0001146 -0.0010702
3380714 0.0001137 -0.0010354 0.9998863 0.0010354 0.9998863 0.0010354 0.0001137 -0.0010354
3474992 0.0001128 -0.0010014 0.9998872 0.0010014 0.9998872 0.0010014 0.0001128 -0.0010014
3571899 0.0001121 -0.0009682 0.9998879 0.0009682 0.9998879 0.0009682 0.0001121 -0.0009682
3671508 0.0001113 -0.0009356 0.9998887 0.0009356 0.9998887 0.0009356 0.0001113 -0.0009356
3773896 0.0001106 -0.0009037 0.9998894 0.0009037 0.9998894 0.0009037 0.0001106 -0.0009037
3879139 0.0001100 -0.0008725 0.9998900 0.0008725 0.9998900 0.0008725 0.0001100 -0.0008725
3987316 0.0001094 -0.0008419 0.9998906 0.0008419 0.9998906 0.0008419 0.0001094 -0.0008419
4098510 0.0001089 -0.0008119 0.9998911 0.0008119 0.9998911 0.0008119 0.0001089 -0.0008119
4212806 0.0001084 -0.0007825 0.9998916 0.0007825 0.9998916 0.0007825 0.0001084 -0.0007825
4330288 0.0001080 -0.0007537 0.9998920 0.0007537 0.9998920 0.0007537 0.0001080 -0.0007537
4451047 0.0001076 -0.0007255 0.9998924 0.0007255 0.9998924 0.0007255 0.0001076 -0.0007255
4575173 0.0001073 -0.0006977 0.9998927 0.0006977 0.9998927 0.0006977 0.0001073 -0.0006977
4702761 0.0001070 -0.0006705 0.9998930 0.0006705 0.9998930 0.0006705 0.0001070 -0.0006705
4833907 0.0001068 -0.0006437 0.9998932 0.0006437 0.9998932 0.0006437 0.0001068 -0.0006437
4968711 0.0001066 -0.0006175 0.9998934 0.0006175 0.9998934 0.0006175 0.0001066 -0.0006175
5107273 0.0001065 -0.0005916 0.9998935 0.0005916 0.9998935 0.0005916 0.0001065 -0.0005916
5249700 0.0001064 -0.0005663 0.9998936 0.0005663 0.9998936 0.0005663 0.0001064 -0.0005663
5396098 0.0001064 -0.0005413 0.9998936 0.0005413 0.9998936 0.0005413 0.0001064 -0.0005413
5546579 0.0001064 -0.0005167 0.9998936 0.0005167 0.9998936 0.0005167 0.0001064 -0.0005167
5701257 0.0001065 -0.0004925 0.9998935 0.0004925 0.9998935 0.0004925 0.0001065 -0.0004925
5860248 0.0001066 -0.0004686 0.9998934 0.0004686 0.9998934 0.0004686 0.0001066 -0.0004686
6023672 0.0001068 -0.0004451 0.9998932 0.0004451 0.9998932 0.0004451 0.0001068 -0.0004451
6191655 0.0001070 -0.0004219 0.9998930 0.0004219 0.9998930 0.0004219 0.0001070 -0.0004219
6364321 0.0001073 -0.0003991 0.9998927 0.0003991 0.9998927 0.0003991 0.0001073 -0.0003991
6541803 0.0001077 -0.0003765 0.9998923 0.0003765 0.9998923 0.0003765 0.0001077 -0.0003765
6724235 0.0001081 -0.0003542 0.9998919 0.0003542 0.9998919 0.0003542 0.0001081 -0.0003542
6911753 0.0001086 -0.0003321 0.9998914 0.0003321 0.9998914 0.0003321 0.0001086 -0.0003321
7104501 0.0001091 -0.0003102 0.9998909 0.0003102 0.9998909 0.0003102 0.0001091 -0.0003102
7302625 0.0001097 -0.0002886 0.9998903 0.0002886 0.9998903 0.0002886 0.0001097 -0.0002886
7506273 0.0001104 -0.0002672 0.9998896 0.0002672 0.9998896 0.0002672 0.0001104 -0.0002672
7715601 0.0001112 -0.0002460 0.9998888 0.0002460 0.9998888 0.0002460 0.0001112 -0.0002460
7930766 0.0001120 -0.0002249 0.9998880 0.0002249 0.9998880 0.0002249 0.0001120 -0.0002249
8151931 0.0001129 -0.0002040 0.9998871 0.0002040 0.9998871 0.0002040 0.0001129 -0.0002040
8379264 0.0001139 -0.0001832 0.9998861 0.0001832 0.9998861 0.0001832 0.0001139 -0.0001832
8612937 0.0001150 -0.0001626 0.9998850 0.0001626 0.9998850 0.0001626 0.0001150 -0.0001626
8853126 0.0001162 -0.0001420 0.9998838 0.0001420 0.9998838 0.0001420 0.0001162 -0.0001420
9100013 0.0001175 -0.0001215 0.9998825 0.0001215 0.9998825 0.0001215 0.0001175 -0.0001215
9353785 0.0001189 -0.0001011 0.9998811 0.0001011 0.9998811 0.0001011 0.0001189 -0.0001011
9614634 0.0001204 -0.0000807 0.9998796 0.0000807 0.9998796 0.0000807 0.0001204 -0.0000807
9882758 0.0001221 -0.0000603 0.9998779 0.0000603 0.9998779 0.0000603 0.0001221 -0.0000603
10158358 0.0001239 -0.0000400 0.9998761 0.0000400 0.9998761 0.0000400 0.0001239 -0.0000400
10441645 0.0001259 -0.0000196 0.9998741 0.0000196 0.9998741 0.0000196 0.0001259 -0.0000196
10732831 0.0001280 0.0000008 0.9998720 -0.0000008 0.9998720 -0.0000008 0.0001280 0.0000008
11032137 0.0001303 0.0000213 0.9998697 -0.0000213 0.9998697 -0.0000213 0.0001303 0.0000213
11339791 0.0001329 0.0000418 0.9998671 -0.0000418 0.9998671 -0.0000418 0.0001329 0.0000418
11656024 0.0001356 0.0000625 0.9998644 -0.0000625 0.9998644 -0.0000625 0.0001356 0.0000625
11981075 0.0001387 0.0000833 0.9998613 -0.0000833 0.9998613 -0.0000833 0.0001387 0.0000833
12315192 0.0001420 0.0001043 0.9998580 -0.0001043 0.9998580 -0.0001043 0.0001420 0.0001043
12658625 0.0001457 0.0001254 0.9998543 -0.0001254 0.9998543 -0.0001254 0.0001457 0.0001254
13011637 0.0001497 0.0001468 0.9998503 -0.0001468 0.9998503 -0.0001468 0.0001497 0.0001468
13374492 0.0001542 0.0001684 0.9998458 -0.0001684 0.9998458 -0.0001684 0.0001542 0.0001684
13747467 0.0001593 0.0001902 0.9998407 -0.0001902 0.9998407 -0.0001902 0.0001593 0.0001902
14130843 0.0001650 0.0002123 0.9998350 -0.0002123 0.9998350 -0.0002123 0.0001650 0.0002123
14524910 0.0001715 0.0002348 0.9998285 -0.0002348 0.9998285 -0.0002348 0.0001715 0.0002348
14929966 0.0001789 0.0002575 0.9998211 -0.0002575 0.9998211 -0.0002575 0.0001789 0.0002575
15346318 0.0001876 0.0002804 0.9998124 -0.0002804 0.9998124 -0.0002804 0.0001876 0.0002804
15774281 0.0001977 0.0003034 0.9998023 -0.0003034 0.9998023 -0.0003034 0.0001977 0.0003034
16214179 0.0002097 0.0003263 0.9997903 -0.0003263 0.9997903 -0.0003263 0.0002097 0.0003263
16666344 0.0002239 0.0003485 0.9997761 -0.0003485 0.9997761 -0.0003485 0.0002239 0.0003485
17131118 0.0002407 0.0003691 0.9997593 -0.0003691 0.9997593 -0.0003691 0.0002407 0.0003691
17608854 0.0002600 0.0003869 0.9997400 -0.0003869 0.9997400 -0.0003869 0.0002600 0.0003869
18099912 0.0002808 0.0004000 0.9997192 -0.0004000 0.9997192 -0.0004000 0.0002808 0.0004000
18604665 0.0003007 0.0004072 0.9996993 -0.0004072 0.9996993 -0.0004072 0.0003007 0.0004072
19123493 0.0003160 0.0004092 0.9996840 -0.0004092 0.9996840 -0.0004092 0.0003160 0.0004092
19656790 0.0003242 0.0004097 0.9996758 -0.0004097 0.9996758 -0.0004097 0.0003242 0.0004097
20204959 0.0003261 0.0004130 0.9996739 -0.0004130 0.9996739 -0.0004130 0.0003261 0.0004130
20768415 0.0003251 0.0004217 0.9996749 -0.0004217 0.9996749 -0.0004217 0.0003251 0.0004217
21347584 0.0003247 0.0004353 0.9996753 -0.0004353 0.9996753 -0.0004353 0.0003247 0.0004353
21942904 0.0003268 0.0004519 0.9996732 -0.0004519 0.9996732 -0.0004519 0.0003268 0.0004519
22554827 0.0003318 0.0004696 0.9996682 -0.0004696 0.9996682 -0.0004696 0.0003318 0.0004696
23183813 0.0003394 0.0004871 0.9996606 -0.0004871 0.9996606 -0.0004871 0.0003394 0.0004871
23830340 0.0003491 0.0005032 0.9996509 -0.0005032 0.9996509 -0.0005032 0.0003491 0.0005032
24494897 0.0003600 0.0005174 0.9996400 -0.0005174 0.9996400 -0.0005174 0.0003600 0.0005174
25177987 0.0003712 0.0005293 0.9996288 -0.0005293 0.9996288 -0.0005293 0.0003712 0.0005293
25880126 0.0003817 0.0005389 0.9996183 -0.0005389 0.9996183 -0.0005389 0.0003817 0.0005389
26601845 0.0003907 0.0005465 0.9996093 -0.0005465 0.9996093 -0.0005465 0.0003907 0.0005465
27343691 0.0003974 0.0005526 0.9996026 -0.0005526 0.9996026 -0.0005526 0.0003974 0.0005526
28106225 0.0004013 0.0005582 0.9995987 -0.0005582 0.9995987 -0.0005582 0.0004013 0.0005582
28890023 0.0004023 0.0005642 0.9995977 -0.0005642 0.9995977 -0.0005642 0.0004023 0.0005642
29695680 0.0004006 0.0005714 0.9995994 -0.0005714 0.9995994 -0.0005714 0.0004006 0.0005714
30523804 0.0003967 0.0005807 0.9996033 -0.0005807 0.9996033 -0.0005807 0.0003967 0.0005807
31375021 0.0003914 0.0005924 0.9996086 -0.0005924 0.9996086 -0.0005924 0.0003914 0.0005924
32249977 0.0003853 0.0006067 0.9996147 -0.0006067 0.9996147 -0.0006067 0.0003853 0.0006067
33149332 0.0003790 0.0006236 0.9996210 -0.0006236 0.9996210 -0.0006236 0.0003790 0.0006236
34073768 0.0003731 0.0006427 0.9996269 -0.0006427 0.9996269 -0.0006427 0.0003731 0.0006427
35023984 0.0003679 0.0006639 0.9996321 -0.0006639 0.9996321 -0.0006639 0.0003679 0.0006639
36000698 0.0003636 0.0006867 0.9996364 -0.0006867 0.9996364 -0.0006867 0.0003636 0.0006867
37004650 0.0003602 0.0007110 0.9996398 -0.0007110 0.9996398 -0.0007110 0.0003602 0.0007110
38036599 0.0003579 0.0007363 0.9996421 -0.0007363 0.9996421 -0.0007363 0.0003579 0.0007363
39097326 0.0003566 0.0007626 0.9996434 -0.0007626 0.9996434 -0.0007626 0.0003566 0.0007626
