!Murata Part Number: GRM186R60G226ME15
!These Parameters are Measured in Series Mode Connection
!Data Generated on Mar 30, 2021
!       o--ll--o
!Port1            Port2
!       o------o
!Operation Temp=25[degC], DC Bias Voltage=0[V]
!Freq. Start=100[Hz] Stop=6[GHz] 401[Steps]
# Hz S RI R 50
!Freq.(Hz) S11(Real) S11(Imag) S21(Real) S21(Imag) S12(Real) S12(Imag) S22(Real) S22(Imag)
100 0.5063847 -0.4949012 0.4936153 0.4949012 0.4936153 0.4949012 0.5063847 -0.4949012
105 0.4843730 -0.4947122 0.5156270 0.4947122 0.5156270 0.4947122 0.4843730 -0.4947122
109 0.4624177 -0.4935554 0.5375823 0.4935554 0.5375823 0.4935554 0.4624177 -0.4935554
114 0.4406040 -0.4914413 0.5593960 0.4914413 0.5593960 0.4914413 0.4406040 -0.4914413
120 0.4190151 -0.4883898 0.5809849 0.4883898 0.5809849 0.4883898 0.4190151 -0.4883898
125 0.3977310 -0.4844293 0.6022690 0.4844293 0.6022690 0.4844293 0.3977310 -0.4844293
131 0.3768268 -0.4795966 0.6231732 0.4795966 0.6231732 0.4795966 0.3768268 -0.4795966
137 0.3563725 -0.4739359 0.6436275 0.4739359 0.6436275 0.4739359 0.3563725 -0.4739359
143 0.3364314 -0.4674978 0.6635686 0.4674978 0.6635686 0.4674978 0.3364314 -0.4674978
150 0.3170598 -0.4603381 0.6829402 0.4603381 0.6829402 0.4603381 0.3170598 -0.4603381
156 0.2983065 -0.4525170 0.7016935 0.4525170 0.7016935 0.4525170 0.2983065 -0.4525170
164 0.2802126 -0.4440977 0.7197874 0.4440977 0.7197874 0.4440977 0.2802126 -0.4440977
171 0.2628111 -0.4351452 0.7371889 0.4351452 0.7371889 0.4351452 0.2628111 -0.4351452
179 0.2461273 -0.4257255 0.7538727 0.4257255 0.7538727 0.4257255 0.2461273 -0.4257255
187 0.2301792 -0.4159045 0.7698208 0.4159045 0.7698208 0.4159045 0.2301792 -0.4159045
196 0.2149773 -0.4057468 0.7850227 0.4057468 0.7850227 0.4057468 0.2149773 -0.4057468
205 0.2005256 -0.3953154 0.7994744 0.3953154 0.7994744 0.3953154 0.2005256 -0.3953154
214 0.1868222 -0.3846706 0.8131778 0.3846706 0.8131778 0.3846706 0.1868222 -0.3846706
224 0.1738595 -0.3738696 0.8261405 0.3738696 0.8261405 0.3738696 0.1738595 -0.3738696
234 0.1616253 -0.3629663 0.8383747 0.3629663 0.8383747 0.3629663 0.1616253 -0.3629663
245 0.1501031 -0.3520105 0.8498969 0.3520105 0.8498969 0.3520105 0.1501031 -0.3520105
256 0.1392733 -0.3410482 0.8607267 0.3410482 0.8607267 0.3410482 0.1392733 -0.3410482
268 0.1291130 -0.3301212 0.8708870 0.3301212 0.8708870 0.3301212 0.1291130 -0.3301212
280 0.1195975 -0.3192670 0.8804025 0.3192670 0.8804025 0.3192670 0.1195975 -0.3192670
293 0.1107001 -0.3085194 0.8892999 0.3085194 0.8892999 0.3085194 0.1107001 -0.3085194
306 0.1023933 -0.2979080 0.8976067 0.2979080 0.8976067 0.2979080 0.1023933 -0.2979080
320 0.0946485 -0.2874585 0.9053515 0.2874585 0.9053515 0.2874585 0.0946485 -0.2874585
335 0.0874369 -0.2771933 0.9125631 0.2771933 0.9125631 0.2771933 0.0874369 -0.2771933
350 0.0807300 -0.2671312 0.9192700 0.2671312 0.9192700 0.2671312 0.0807300 -0.2671312
366 0.0744990 -0.2572880 0.9255010 0.2572880 0.9255010 0.2572880 0.0744990 -0.2572880
383 0.0687163 -0.2476766 0.9312837 0.2476766 0.9312837 0.2476766 0.0687163 -0.2476766
401 0.0633544 -0.2383073 0.9366456 0.2383073 0.9366456 0.2383073 0.0633544 -0.2383073
419 0.0583872 -0.2291880 0.9416128 0.2291880 0.9416128 0.2291880 0.0583872 -0.2291880
438 0.0537892 -0.2203245 0.9462108 0.2203245 0.9462108 0.2203245 0.0537892 -0.2203245
458 0.0495361 -0.2117207 0.9504639 0.2117207 0.9504639 0.2117207 0.0495361 -0.2117207
479 0.0456049 -0.2033790 0.9543951 0.2033790 0.9543951 0.2033790 0.0456049 -0.2033790
501 0.0419734 -0.1953000 0.9580266 0.1953000 0.9580266 0.1953000 0.0419734 -0.1953000
524 0.0386209 -0.1874832 0.9613791 0.1874832 0.9613791 0.1874832 0.0386209 -0.1874832
548 0.0355276 -0.1799272 0.9644724 0.1799272 0.9644724 0.1799272 0.0355276 -0.1799272
573 0.0326750 -0.1726292 0.9673250 0.1726292 0.9673250 0.1726292 0.0326750 -0.1726292
600 0.0300458 -0.1655860 0.9699542 0.1655860 0.9699542 0.1655860 0.0300458 -0.1655860
627 0.0276234 -0.1587935 0.9723766 0.1587935 0.9723766 0.1587935 0.0276234 -0.1587935
656 0.0253926 -0.1522471 0.9746074 0.1522471 0.9746074 0.1522471 0.0253926 -0.1522471
686 0.0233392 -0.1459418 0.9766608 0.1459418 0.9766608 0.1459418 0.0233392 -0.1459418
717 0.0214497 -0.1398719 0.9785503 0.1398719 0.9785503 0.1398719 0.0214497 -0.1398719
750 0.0197117 -0.1340319 0.9802883 0.1340319 0.9802883 0.1340319 0.0197117 -0.1340319
784 0.0181135 -0.1284156 0.9818865 0.1284156 0.9818865 0.1284156 0.0181135 -0.1284156
820 0.0166445 -0.1230170 0.9833555 0.1230170 0.9833555 0.1230170 0.0166445 -0.1230170
858 0.0152945 -0.1178297 0.9847055 0.1178297 0.9847055 0.1178297 0.0152945 -0.1178297
897 0.0140543 -0.1128473 0.9859457 0.1128473 0.9859457 0.1128473 0.0140543 -0.1128473
938 0.0129152 -0.1080635 0.9870848 0.1080635 0.9870848 0.1080635 0.0129152 -0.1080635
981 0.0118692 -0.1034718 0.9881308 0.1034718 0.9881308 0.1034718 0.0118692 -0.1034718
1026 0.0109089 -0.0990658 0.9890911 0.0990658 0.9890911 0.0990658 0.0109089 -0.0990658
1073 0.0100274 -0.0948393 0.9899726 0.0948393 0.9899726 0.0948393 0.0100274 -0.0948393
1122 0.0092185 -0.0907859 0.9907815 0.0907859 0.9907815 0.0907859 0.0092185 -0.0907859
1174 0.0084761 -0.0868996 0.9915239 0.0868996 0.9915239 0.0868996 0.0084761 -0.0868996
1227 0.0077949 -0.0831742 0.9922051 0.0831742 0.9922051 0.0831742 0.0077949 -0.0831742
1283 0.0071700 -0.0796038 0.9928300 0.0796038 0.9928300 0.0796038 0.0071700 -0.0796038
1342 0.0065966 -0.0761826 0.9934034 0.0761826 0.9934034 0.0761826 0.0065966 -0.0761826
1404 0.0060705 -0.0729049 0.9939295 0.0729049 0.9939295 0.0729049 0.0060705 -0.0729049
1468 0.0055879 -0.0697653 0.9944121 0.0697653 0.9944121 0.0697653 0.0055879 -0.0697653
1535 0.0051451 -0.0667583 0.9948549 0.0667583 0.9948549 0.0667583 0.0051451 -0.0667583
1606 0.0047387 -0.0638787 0.9952613 0.0638787 0.9952613 0.0638787 0.0047387 -0.0638787
1679 0.0043658 -0.0611214 0.9956342 0.0611214 0.9956342 0.0611214 0.0043658 -0.0611214
1756 0.0040235 -0.0584815 0.9959765 0.0584815 0.9959765 0.0584815 0.0040235 -0.0584815
1836 0.0037093 -0.0559543 0.9962907 0.0559543 0.9962907 0.0559543 0.0037093 -0.0559543
1920 0.0034208 -0.0535352 0.9965792 0.0535352 0.9965792 0.0535352 0.0034208 -0.0535352
2008 0.0031557 -0.0512197 0.9968443 0.0512197 0.9968443 0.0512197 0.0031557 -0.0512197
2100 0.0029122 -0.0490035 0.9970878 0.0490035 0.9970878 0.0490035 0.0029122 -0.0490035
2196 0.0026885 -0.0468825 0.9973115 0.0468825 0.9973115 0.0468825 0.0026885 -0.0468825
2297 0.0024827 -0.0448527 0.9975173 0.0448527 0.9975173 0.0448527 0.0024827 -0.0448527
2402 0.0022935 -0.0429103 0.9977065 0.0429103 0.9977065 0.0429103 0.0022935 -0.0429103
2512 0.0021194 -0.0410516 0.9978806 0.0410516 0.9978806 0.0410516 0.0021194 -0.0410516
2627 0.0019592 -0.0392730 0.9980408 0.0392730 0.9980408 0.0392730 0.0019592 -0.0392730
2748 0.0018117 -0.0375711 0.9981883 0.0375711 0.9981883 0.0375711 0.0018117 -0.0375711
2873 0.0016757 -0.0359426 0.9983243 0.0359426 0.9983243 0.0359426 0.0016757 -0.0359426
3005 0.0015505 -0.0343844 0.9984495 0.0343844 0.9984495 0.0343844 0.0015505 -0.0343844
3143 0.0014351 -0.0328935 0.9985649 0.0328935 0.9985649 0.0328935 0.0014351 -0.0328935
3287 0.0013286 -0.0314669 0.9986714 0.0314669 0.9986714 0.0314669 0.0013286 -0.0314669
3437 0.0012304 -0.0301020 0.9987696 0.0301020 0.9987696 0.0301020 0.0012304 -0.0301020
3594 0.0011398 -0.0287959 0.9988602 0.0287959 0.9988602 0.0287959 0.0011398 -0.0287959
3759 0.0010561 -0.0275463 0.9989439 0.0275463 0.9989439 0.0275463 0.0010561 -0.0275463
3931 0.0009789 -0.0263507 0.9990211 0.0263507 0.9990211 0.0263507 0.0009789 -0.0263507
4111 0.0009077 -0.0252067 0.9990923 0.0252067 0.9990923 0.0252067 0.0009077 -0.0252067
4299 0.0008419 -0.0241121 0.9991581 0.0241121 0.9991581 0.0241121 0.0008419 -0.0241121
4496 0.0007811 -0.0230648 0.9992189 0.0230648 0.9992189 0.0230648 0.0007811 -0.0230648
4702 0.0007250 -0.0220627 0.9992750 0.0220627 0.9992750 0.0220627 0.0007250 -0.0220627
4918 0.0006731 -0.0211040 0.9993269 0.0211040 0.9993269 0.0211040 0.0006731 -0.0211040
5143 0.0006253 -0.0201867 0.9993747 0.0201867 0.9993747 0.0201867 0.0006253 -0.0201867
5378 0.0005811 -0.0193090 0.9994189 0.0193090 0.9994189 0.0193090 0.0005811 -0.0193090
5625 0.0005404 -0.0184693 0.9994596 0.0184693 0.9994596 0.0184693 0.0005404 -0.0184693
5882 0.0005027 -0.0176659 0.9994973 0.0176659 0.9994973 0.0176659 0.0005027 -0.0176659
6151 0.0004680 -0.0168973 0.9995320 0.0168973 0.9995320 0.0168973 0.0004680 -0.0168973
6433 0.0004360 -0.0161620 0.9995640 0.0161620 0.9995640 0.0161620 0.0004360 -0.0161620
6728 0.0004064 -0.0154585 0.9995936 0.0154585 0.9995936 0.0154585 0.0004064 -0.0154585
7036 0.0003792 -0.0147855 0.9996208 0.0147855 0.9996208 0.0147855 0.0003792 -0.0147855
7358 0.0003541 -0.0141416 0.9996459 0.0141416 0.9996459 0.0141416 0.0003541 -0.0141416
7695 0.0003309 -0.0135257 0.9996691 0.0135257 0.9996691 0.0135257 0.0003309 -0.0135257
8047 0.0003095 -0.0129366 0.9996905 0.0129366 0.9996905 0.0129366 0.0003095 -0.0129366
8416 0.0002898 -0.0123730 0.9997102 0.0123730 0.9997102 0.0123730 0.0002898 -0.0123730
8801 0.0002717 -0.0118339 0.9997283 0.0118339 0.9997283 0.0118339 0.0002717 -0.0118339
9204 0.0002550 -0.0113182 0.9997450 0.0113182 0.9997450 0.0113182 0.0002550 -0.0113182
9626 0.0002396 -0.0108250 0.9997604 0.0108250 0.9997604 0.0108250 0.0002396 -0.0108250
10066 0.0002254 -0.0103532 0.9997746 0.0103532 0.9997746 0.0103532 0.0002254 -0.0103532
10527 0.0002123 -0.0099019 0.9997877 0.0099019 0.9997877 0.0099019 0.0002123 -0.0099019
11009 0.0002002 -0.0094703 0.9997998 0.0094703 0.9997998 0.0094703 0.0002002 -0.0094703
11514 0.0001890 -0.0090575 0.9998110 0.0090575 0.9998110 0.0090575 0.0001890 -0.0090575
12041 0.0001787 -0.0086627 0.9998213 0.0086627 0.9998213 0.0086627 0.0001787 -0.0086627
12592 0.0001692 -0.0082851 0.9998308 0.0082851 0.9998308 0.0082851 0.0001692 -0.0082851
13169 0.0001605 -0.0079240 0.9998395 0.0079240 0.9998395 0.0079240 0.0001605 -0.0079240
13772 0.0001523 -0.0075786 0.9998477 0.0075786 0.9998477 0.0075786 0.0001523 -0.0075786
14402 0.0001448 -0.0072483 0.9998552 0.0072483 0.9998552 0.0072483 0.0001448 -0.0072483
15062 0.0001379 -0.0069324 0.9998621 0.0069324 0.9998621 0.0069324 0.0001379 -0.0069324
15752 0.0001314 -0.0066303 0.9998686 0.0066303 0.9998686 0.0066303 0.0001314 -0.0066303
16473 0.0001254 -0.0063414 0.9998746 0.0063414 0.9998746 0.0063414 0.0001254 -0.0063414
17227 0.0001198 -0.0060651 0.9998802 0.0060651 0.9998802 0.0060651 0.0001198 -0.0060651
18016 0.0001146 -0.0058009 0.9998854 0.0058009 0.9998854 0.0058009 0.0001146 -0.0058009
18841 0.0001098 -0.0055481 0.9998902 0.0055481 0.9998902 0.0055481 0.0001098 -0.0055481
19704 0.0001053 -0.0053065 0.9998947 0.0053065 0.9998947 0.0053065 0.0001053 -0.0053065
20606 0.0001011 -0.0050753 0.9998989 0.0050753 0.9998989 0.0050753 0.0001011 -0.0050753
21550 0.0000971 -0.0048543 0.9999029 0.0048543 0.9999029 0.0048543 0.0000971 -0.0048543
22537 0.0000934 -0.0046428 0.9999066 0.0046428 0.9999066 0.0046428 0.0000934 -0.0046428
23569 0.0000900 -0.0044406 0.9999100 0.0044406 0.9999100 0.0044406 0.0000900 -0.0044406
24648 0.0000867 -0.0042472 0.9999133 0.0042472 0.9999133 0.0042472 0.0000867 -0.0042472
25777 0.0000837 -0.0040623 0.9999163 0.0040623 0.9999163 0.0040623 0.0000837 -0.0040623
26957 0.0000808 -0.0038854 0.9999192 0.0038854 0.9999192 0.0038854 0.0000808 -0.0038854
28191 0.0000781 -0.0037162 0.9999219 0.0037162 0.9999219 0.0037162 0.0000781 -0.0037162
29482 0.0000755 -0.0035543 0.9999245 0.0035543 0.9999245 0.0035543 0.0000755 -0.0035543
30832 0.0000731 -0.0033996 0.9999269 0.0033996 0.9999269 0.0033996 0.0000731 -0.0033996
32244 0.0000708 -0.0032515 0.9999292 0.0032515 0.9999292 0.0032515 0.0000708 -0.0032515
33721 0.0000687 -0.0031099 0.9999313 0.0031099 0.9999313 0.0031099 0.0000687 -0.0031099
35265 0.0000667 -0.0029744 0.9999333 0.0029744 0.9999333 0.0029744 0.0000667 -0.0029744
36880 0.0000648 -0.0028449 0.9999352 0.0028449 0.9999352 0.0028449 0.0000648 -0.0028449
38569 0.0000630 -0.0027209 0.9999370 0.0027209 0.9999370 0.0027209 0.0000630 -0.0027209
40335 0.0000612 -0.0026024 0.9999388 0.0026024 0.9999388 0.0026024 0.0000612 -0.0026024
42182 0.0000596 -0.0024890 0.9999404 0.0024890 0.9999404 0.0024890 0.0000596 -0.0024890
44113 0.0000581 -0.0023805 0.9999419 0.0023805 0.9999419 0.0023805 0.0000581 -0.0023805
46134 0.0000567 -0.0022767 0.9999433 0.0022767 0.9999433 0.0022767 0.0000567 -0.0022767
48246 0.0000553 -0.0021775 0.9999447 0.0021775 0.9999447 0.0021775 0.0000553 -0.0021775
50455 0.0000540 -0.0020825 0.9999460 0.0020825 0.9999460 0.0020825 0.0000540 -0.0020825
52766 0.0000528 -0.0019917 0.9999472 0.0019917 0.9999472 0.0019917 0.0000528 -0.0019917
55182 0.0000516 -0.0019048 0.9999484 0.0019048 0.9999484 0.0019048 0.0000516 -0.0019048
57709 0.0000505 -0.0018217 0.9999495 0.0018217 0.9999495 0.0018217 0.0000505 -0.0018217
60352 0.0000495 -0.0017422 0.9999505 0.0017422 0.9999505 0.0017422 0.0000495 -0.0017422
63115 0.0000485 -0.0016661 0.9999515 0.0016661 0.9999515 0.0016661 0.0000485 -0.0016661
66005 0.0000476 -0.0015934 0.9999524 0.0015934 0.9999524 0.0015934 0.0000476 -0.0015934
69028 0.0000467 -0.0015238 0.9999533 0.0015238 0.9999533 0.0015238 0.0000467 -0.0015238
72189 0.0000459 -0.0014572 0.9999541 0.0014572 0.9999541 0.0014572 0.0000459 -0.0014572
75495 0.0000451 -0.0013935 0.9999549 0.0013935 0.9999549 0.0013935 0.0000451 -0.0013935
78952 0.0000443 -0.0013325 0.9999557 0.0013325 0.9999557 0.0013325 0.0000443 -0.0013325
82567 0.0000436 -0.0012742 0.9999564 0.0012742 0.9999564 0.0012742 0.0000436 -0.0012742
86348 0.0000429 -0.0012184 0.9999571 0.0012184 0.9999571 0.0012184 0.0000429 -0.0012184
90302 0.0000422 -0.0011651 0.9999578 0.0011651 0.9999578 0.0011651 0.0000422 -0.0011651
94437 0.0000416 -0.0011140 0.9999584 0.0011140 0.9999584 0.0011140 0.0000416 -0.0011140
98762 0.0000410 -0.0010651 0.9999590 0.0010651 0.9999590 0.0010651 0.0000410 -0.0010651
103284 0.0000404 -0.0010183 0.9999596 0.0010183 0.9999596 0.0010183 0.0000404 -0.0010183
108014 0.0000399 -0.0009736 0.9999601 0.0009736 0.9999601 0.0009736 0.0000399 -0.0009736
112960 0.0000394 -0.0009307 0.9999606 0.0009307 0.9999606 0.0009307 0.0000394 -0.0009307
118133 0.0000389 -0.0008897 0.9999611 0.0008897 0.9999611 0.0008897 0.0000389 -0.0008897
123542 0.0000384 -0.0008505 0.9999616 0.0008505 0.9999616 0.0008505 0.0000384 -0.0008505
129199 0.0000380 -0.0008129 0.9999620 0.0008129 0.9999620 0.0008129 0.0000380 -0.0008129
135116 0.0000376 -0.0007770 0.9999624 0.0007770 0.9999624 0.0007770 0.0000376 -0.0007770
141303 0.0000372 -0.0007426 0.9999628 0.0007426 0.9999628 0.0007426 0.0000372 -0.0007426
147774 0.0000368 -0.0007096 0.9999632 0.0007096 0.9999632 0.0007096 0.0000368 -0.0007096
154540 0.0000364 -0.0006780 0.9999636 0.0006780 0.9999636 0.0006780 0.0000364 -0.0006780
161617 0.0000361 -0.0006478 0.9999639 0.0006478 0.9999639 0.0006478 0.0000361 -0.0006478
169018 0.0000358 -0.0006189 0.9999642 0.0006189 0.9999642 0.0006189 0.0000358 -0.0006189
176758 0.0000355 -0.0005912 0.9999645 0.0005912 0.9999645 0.0005912 0.0000355 -0.0005912
184852 0.0000352 -0.0005646 0.9999648 0.0005646 0.9999648 0.0005646 0.0000352 -0.0005646
193316 0.0000350 -0.0005392 0.9999650 0.0005392 0.9999650 0.0005392 0.0000350 -0.0005392
202169 0.0000348 -0.0005149 0.9999652 0.0005149 0.9999652 0.0005149 0.0000348 -0.0005149
211427 0.0000345 -0.0004915 0.9999655 0.0004915 0.9999655 0.0004915 0.0000345 -0.0004915
221108 0.0000343 -0.0004692 0.9999657 0.0004692 0.9999657 0.0004692 0.0000343 -0.0004692
231233 0.0000342 -0.0004477 0.9999658 0.0004477 0.9999658 0.0004477 0.0000342 -0.0004477
241822 0.0000340 -0.0004272 0.9999660 0.0004272 0.9999660 0.0004272 0.0000340 -0.0004272
252896 0.0000339 -0.0004075 0.9999661 0.0004075 0.9999661 0.0004075 0.0000339 -0.0004075
264476 0.0000337 -0.0003886 0.9999663 0.0003886 0.9999663 0.0003886 0.0000337 -0.0003886
276587 0.0000336 -0.0003705 0.9999664 0.0003705 0.9999664 0.0003705 0.0000336 -0.0003705
289253 0.0000335 -0.0003531 0.9999665 0.0003531 0.9999665 0.0003531 0.0000335 -0.0003531
302498 0.0000334 -0.0003364 0.9999666 0.0003364 0.9999666 0.0003364 0.0000334 -0.0003364
316350 0.0000334 -0.0003204 0.9999666 0.0003204 0.9999666 0.0003204 0.0000334 -0.0003204
330837 0.0000333 -0.0003050 0.9999667 0.0003050 0.9999667 0.0003050 0.0000333 -0.0003050
345986 0.0000333 -0.0002902 0.9999667 0.0002902 0.9999667 0.0002902 0.0000333 -0.0002902
361830 0.0000333 -0.0002761 0.9999667 0.0002761 0.9999667 0.0002761 0.0000333 -0.0002761
378399 0.0000333 -0.0002624 0.9999667 0.0002624 0.9999667 0.0002624 0.0000333 -0.0002624
395726 0.0000333 -0.0002493 0.9999667 0.0002493 0.9999667 0.0002493 0.0000333 -0.0002493
413847 0.0000333 -0.0002367 0.9999667 0.0002367 0.9999667 0.0002367 0.0000333 -0.0002367
432798 0.0000334 -0.0002246 0.9999666 0.0002246 0.9999666 0.0002246 0.0000334 -0.0002246
452617 0.0000334 -0.0002129 0.9999666 0.0002129 0.9999666 0.0002129 0.0000334 -0.0002129
473344 0.0000335 -0.0002016 0.9999665 0.0002016 0.9999665 0.0002016 0.0000335 -0.0002016
495019 0.0000336 -0.0001908 0.9999664 0.0001908 0.9999664 0.0001908 0.0000336 -0.0001908
517687 0.0000338 -0.0001803 0.9999662 0.0001803 0.9999662 0.0001803 0.0000338 -0.0001803
541393 0.0000339 -0.0001702 0.9999661 0.0001702 0.9999661 0.0001702 0.0000339 -0.0001702
566185 0.0000341 -0.0001605 0.9999659 0.0001605 0.9999659 0.0001605 0.0000341 -0.0001605
592111 0.0000342 -0.0001510 0.9999658 0.0001510 0.9999658 0.0001510 0.0000342 -0.0001510
619225 0.0000344 -0.0001419 0.9999656 0.0001419 0.9999656 0.0001419 0.0000344 -0.0001419
647581 0.0000347 -0.0001331 0.9999653 0.0001331 0.9999653 0.0001331 0.0000347 -0.0001331
677235 0.0000349 -0.0001245 0.9999651 0.0001245 0.9999651 0.0001245 0.0000349 -0.0001245
708247 0.0000352 -0.0001162 0.9999648 0.0001162 0.9999648 0.0001162 0.0000352 -0.0001162
740679 0.0000355 -0.0001082 0.9999645 0.0001082 0.9999645 0.0001082 0.0000355 -0.0001082
774597 0.0000359 -0.0001003 0.9999641 0.0001003 0.9999641 0.0001003 0.0000359 -0.0001003
810067 0.0000363 -0.0000927 0.9999637 0.0000927 0.9999637 0.0000927 0.0000363 -0.0000927
847162 0.0000367 -0.0000853 0.9999633 0.0000853 0.9999633 0.0000853 0.0000367 -0.0000853
885955 0.0000371 -0.0000781 0.9999629 0.0000781 0.9999629 0.0000781 0.0000371 -0.0000781
926525 0.0000376 -0.0000711 0.9999624 0.0000711 0.9999624 0.0000711 0.0000376 -0.0000711
968953 0.0000382 -0.0000642 0.9999618 0.0000642 0.9999618 0.0000642 0.0000382 -0.0000642
1013323 0.0000388 -0.0000575 0.9999612 0.0000575 0.9999612 0.0000575 0.0000388 -0.0000575
1059725 0.0000394 -0.0000509 0.9999606 0.0000509 0.9999606 0.0000509 0.0000394 -0.0000509
1108252 0.0000401 -0.0000444 0.9999599 0.0000444 0.9999599 0.0000444 0.0000401 -0.0000444
1159002 0.0000409 -0.0000381 0.9999591 0.0000381 0.9999591 0.0000381 0.0000409 -0.0000381
1212075 0.0000417 -0.0000319 0.9999583 0.0000319 0.9999583 0.0000319 0.0000417 -0.0000319
1267578 0.0000426 -0.0000258 0.9999574 0.0000258 0.9999574 0.0000258 0.0000426 -0.0000258
1325623 0.0000435 -0.0000198 0.9999565 0.0000198 0.9999565 0.0000198 0.0000435 -0.0000198
1386327 0.0000446 -0.0000139 0.9999554 0.0000139 0.9999554 0.0000139 0.0000446 -0.0000139
1449809 0.0000457 -0.0000081 0.9999543 0.0000081 0.9999543 0.0000081 0.0000457 -0.0000081
1516199 0.0000469 -0.0000024 0.9999531 0.0000024 0.9999531 0.0000024 0.0000469 -0.0000024
1585629 0.0000482 0.0000032 0.9999518 -0.0000032 0.9999518 -0.0000032 0.0000482 0.0000032
1658239 0.0000495 0.0000087 0.9999505 -0.0000087 0.9999505 -0.0000087 0.0000495 0.0000087
1734173 0.0000510 0.0000141 0.9999490 -0.0000141 0.9999490 -0.0000141 0.0000510 0.0000141
1813585 0.0000526 0.0000194 0.9999474 -0.0000194 0.9999474 -0.0000194 0.0000526 0.0000194
1896632 0.0000542 0.0000246 0.9999458 -0.0000246 0.9999458 -0.0000246 0.0000542 0.0000246
1983483 0.0000560 0.0000297 0.9999440 -0.0000297 0.9999440 -0.0000297 0.0000560 0.0000297
2074311 0.0000578 0.0000346 0.9999422 -0.0000346 0.9999422 -0.0000346 0.0000578 0.0000346
