!Murata Part Number: GRM188R61C106MAAL
!These Parameters are Measured in Series Mode Connection
!Data Generated on Mar 30, 2021
!       o--ll--o
!Port1            Port2
!       o------o
!Operation Temp=25[degC], DC Bias Voltage=0[V]
!Freq. Start=100[Hz] Stop=6[GHz] 401[Steps]
# Hz S RI R 50
!Freq.(Hz) S11(Real) S11(Imag) S21(Real) S21(Imag) S12(Real) S12(Imag) S22(Real) S22(Imag)
100 0.8062478 -0.3855287 0.1937522 0.3855287 0.1937522 0.3855287 0.8062478 -0.3855287
105 0.7924503 -0.3959165 0.2075497 0.3959165 0.2075497 0.3959165 0.7924503 -0.3959165
109 0.7779195 -0.4060803 0.2220805 0.4060803 0.2220805 0.4060803 0.7779195 -0.4060803
114 0.7626546 -0.4159605 0.2373454 0.4159605 0.2373454 0.4159605 0.7626546 -0.4159605
120 0.7466609 -0.4254951 0.2533391 0.4254951 0.2533391 0.4254951 0.7466609 -0.4254951
125 0.7299502 -0.4346201 0.2700498 0.4346201 0.2700498 0.4346201 0.7299502 -0.4346201
131 0.7125416 -0.4432709 0.2874584 0.4432709 0.2874584 0.4432709 0.7125416 -0.4432709
137 0.6944615 -0.4513828 0.3055385 0.4513828 0.3055385 0.4513828 0.6944615 -0.4513828
143 0.6757443 -0.4588924 0.3242557 0.4588924 0.3242557 0.4588924 0.6757443 -0.4588924
150 0.6564319 -0.4657381 0.3435681 0.4657381 0.3435681 0.4657381 0.6564319 -0.4657381
156 0.6365739 -0.4718619 0.3634261 0.4718619 0.3634261 0.4718619 0.6365739 -0.4718619
164 0.6162272 -0.4772099 0.3837728 0.4772099 0.3837728 0.4772099 0.6162272 -0.4772099
171 0.5954556 -0.4817339 0.4045444 0.4817339 0.4045444 0.4817339 0.5954556 -0.4817339
179 0.5743290 -0.4853922 0.4256710 0.4853922 0.4256710 0.4853922 0.5743290 -0.4853922
187 0.5529225 -0.4881506 0.4470775 0.4881506 0.4470775 0.4881506 0.5529225 -0.4881506
196 0.5313153 -0.4899829 0.4686847 0.4899829 0.4686847 0.4899829 0.5313153 -0.4899829
205 0.5095897 -0.4908720 0.4904103 0.4908720 0.4904103 0.4908720 0.5095897 -0.4908720
214 0.4878298 -0.4908098 0.5121702 0.4908098 0.5121702 0.4908098 0.4878298 -0.4908098
224 0.4661199 -0.4897978 0.5338801 0.4897978 0.5338801 0.4897978 0.4661199 -0.4897978
234 0.4445434 -0.4878466 0.5554566 0.4878466 0.5554566 0.4878466 0.4445434 -0.4878466
245 0.4231816 -0.4849759 0.5768184 0.4849759 0.5768184 0.4849759 0.4231816 -0.4849759
256 0.4021121 -0.4812140 0.5978879 0.4812140 0.5978879 0.4812140 0.4021121 -0.4812140
268 0.3814082 -0.4765970 0.6185918 0.4765970 0.6185918 0.4765970 0.3814082 -0.4765970
280 0.3611374 -0.4711680 0.6388626 0.4711680 0.6388626 0.4711680 0.3611374 -0.4711680
293 0.3413609 -0.4649760 0.6586391 0.4649760 0.6586391 0.4649760 0.3413609 -0.4649760
306 0.3221333 -0.4580752 0.6778667 0.4580752 0.6778667 0.4580752 0.3221333 -0.4580752
320 0.3035016 -0.4505236 0.6964984 0.4505236 0.6964984 0.4505236 0.3035016 -0.4505236
335 0.2855055 -0.4423819 0.7144945 0.4423819 0.7144945 0.4423819 0.2855055 -0.4423819
350 0.2681770 -0.4337125 0.7318230 0.4337125 0.7318230 0.4337125 0.2681770 -0.4337125
366 0.2515409 -0.4245787 0.7484591 0.4245787 0.7484591 0.4245787 0.2515409 -0.4245787
383 0.2356147 -0.4150433 0.7643853 0.4150433 0.7643853 0.4150433 0.2356147 -0.4150433
401 0.2204094 -0.4051683 0.7795906 0.4051683 0.7795906 0.4051683 0.2204094 -0.4051683
419 0.2059298 -0.3950135 0.7940702 0.3950135 0.7940702 0.3950135 0.2059298 -0.3950135
438 0.1921747 -0.3846368 0.8078253 0.3846368 0.8078253 0.3846368 0.1921747 -0.3846368
458 0.1791383 -0.3740928 0.8208617 0.3740928 0.8208617 0.3740928 0.1791383 -0.3740928
479 0.1668100 -0.3634332 0.8331900 0.3634332 0.8331900 0.3634332 0.1668100 -0.3634332
501 0.1551755 -0.3527061 0.8448245 0.3527061 0.8448245 0.3527061 0.1551755 -0.3527061
524 0.1442172 -0.3419557 0.8557828 0.3419557 0.8557828 0.3419557 0.1442172 -0.3419557
548 0.1339148 -0.3312227 0.8660852 0.3312227 0.8660852 0.3312227 0.1339148 -0.3312227
573 0.1242460 -0.3205441 0.8757540 0.3205441 0.8757540 0.3205441 0.1242460 -0.3205441
600 0.1151866 -0.3099530 0.8848134 0.3099530 0.8848134 0.3099530 0.1151866 -0.3099530
627 0.1067113 -0.2994789 0.8932887 0.2994789 0.8932887 0.2994789 0.1067113 -0.2994789
656 0.0987940 -0.2891480 0.9012060 0.2891480 0.9012060 0.2891480 0.0987940 -0.2891480
686 0.0914081 -0.2789831 0.9085919 0.2789831 0.9085919 0.2789831 0.0914081 -0.2789831
717 0.0845268 -0.2690038 0.9154732 0.2690038 0.9154732 0.2690038 0.0845268 -0.2690038
750 0.0781234 -0.2592270 0.9218766 0.2592270 0.9218766 0.2592270 0.0781234 -0.2592270
784 0.0721714 -0.2496667 0.9278286 0.2496667 0.9278286 0.2496667 0.0721714 -0.2496667
820 0.0666449 -0.2403345 0.9333551 0.2403345 0.9333551 0.2403345 0.0666449 -0.2403345
858 0.0615186 -0.2312398 0.9384814 0.2312398 0.9384814 0.2312398 0.0615186 -0.2312398
897 0.0567680 -0.2223895 0.9432320 0.2223895 0.9432320 0.2223895 0.0567680 -0.2223895
938 0.0523694 -0.2137892 0.9476306 0.2137892 0.9476306 0.2137892 0.0523694 -0.2137892
981 0.0482998 -0.2054424 0.9517002 0.2054424 0.9517002 0.2054424 0.0482998 -0.2054424
1026 0.0445377 -0.1973512 0.9554623 0.1973512 0.9554623 0.1973512 0.0445377 -0.1973512
1073 0.0410620 -0.1895162 0.9589380 0.1895162 0.9589380 0.1895162 0.0410620 -0.1895162
1122 0.0378531 -0.1819371 0.9621469 0.1819371 0.9621469 0.1819371 0.0378531 -0.1819371
1174 0.0348920 -0.1746123 0.9651080 0.1746123 0.9651080 0.1746123 0.0348920 -0.1746123
1227 0.0321612 -0.1675393 0.9678388 0.1675393 0.9678388 0.1675393 0.0321612 -0.1675393
1283 0.0296438 -0.1607148 0.9703562 0.1607148 0.9703562 0.1607148 0.0296438 -0.1607148
1342 0.0273242 -0.1541350 0.9726758 0.1541350 0.9726758 0.1541350 0.0273242 -0.1541350
1404 0.0251874 -0.1477954 0.9748126 0.1477954 0.9748126 0.1477954 0.0251874 -0.1477954
1468 0.0232198 -0.1416909 0.9767802 0.1416909 0.9767802 0.1416909 0.0232198 -0.1416909
1535 0.0214083 -0.1358161 0.9785917 0.1358161 0.9785917 0.1358161 0.0214083 -0.1358161
1606 0.0197409 -0.1301654 0.9802591 0.1301654 0.9802591 0.1301654 0.0197409 -0.1301654
1679 0.0182063 -0.1247328 0.9817937 0.1247328 0.9817937 0.1247328 0.0182063 -0.1247328
1756 0.0167940 -0.1195121 0.9832060 0.1195121 0.9832060 0.1195121 0.0167940 -0.1195121
1836 0.0154945 -0.1144970 0.9845055 0.1144970 0.9845055 0.1144970 0.0154945 -0.1144970
1920 0.0142986 -0.1096812 0.9857014 0.1096812 0.9857014 0.1096812 0.0142986 -0.1096812
2008 0.0131980 -0.1050582 0.9868020 0.1050582 0.9868020 0.1050582 0.0131980 -0.1050582
2100 0.0121851 -0.1006217 0.9878149 0.1006217 0.9878149 0.1006217 0.0121851 -0.1006217
2196 0.0112527 -0.0963652 0.9887473 0.0963652 0.9887473 0.0963652 0.0112527 -0.0963652
2297 0.0103942 -0.0922823 0.9896058 0.0922823 0.9896058 0.0922823 0.0103942 -0.0922823
2402 0.0096038 -0.0883669 0.9903962 0.0883669 0.9903962 0.0883669 0.0096038 -0.0883669
2512 0.0088757 -0.0846126 0.9911243 0.0846126 0.9911243 0.0846126 0.0088757 -0.0846126
2627 0.0082050 -0.0810136 0.9917950 0.0810136 0.9917950 0.0810136 0.0082050 -0.0810136
2748 0.0075869 -0.0775638 0.9924131 0.0775638 0.9924131 0.0775638 0.0075869 -0.0775638
2873 0.0070172 -0.0742576 0.9929828 0.0742576 0.9929828 0.0742576 0.0070172 -0.0742576
3005 0.0064919 -0.0710892 0.9935081 0.0710892 0.9935081 0.0710892 0.0064919 -0.0710892
3143 0.0060075 -0.0680533 0.9939925 0.0680533 0.9939925 0.0680533 0.0060075 -0.0680533
3287 0.0055607 -0.0651445 0.9944393 0.0651445 0.9944393 0.0651445 0.0055607 -0.0651445
3437 0.0051484 -0.0623578 0.9948516 0.0623578 0.9948516 0.0623578 0.0051484 -0.0623578
3594 0.0047680 -0.0596882 0.9952320 0.0596882 0.9952320 0.0596882 0.0047680 -0.0596882
3759 0.0044169 -0.0571309 0.9955831 0.0571309 0.9955831 0.0571309 0.0044169 -0.0571309
3931 0.0040927 -0.0546814 0.9959073 0.0546814 0.9959073 0.0546814 0.0040927 -0.0546814
4111 0.0037935 -0.0523353 0.9962065 0.0523353 0.9962065 0.0523353 0.0037935 -0.0523353
4299 0.0035173 -0.0500883 0.9964827 0.0500883 0.9964827 0.0500883 0.0035173 -0.0500883
4496 0.0032622 -0.0479363 0.9967378 0.0479363 0.9967378 0.0479363 0.0032622 -0.0479363
4702 0.0030267 -0.0458755 0.9969733 0.0458755 0.9969733 0.0458755 0.0030267 -0.0458755
4918 0.0028093 -0.0439021 0.9971907 0.0439021 0.9971907 0.0439021 0.0028093 -0.0439021
5143 0.0026086 -0.0420124 0.9973914 0.0420124 0.9973914 0.0420124 0.0026086 -0.0420124
5378 0.0024233 -0.0402031 0.9975767 0.0402031 0.9975767 0.0402031 0.0024233 -0.0402031
5625 0.0022522 -0.0384708 0.9977478 0.0384708 0.9977478 0.0384708 0.0022522 -0.0384708
5882 0.0020943 -0.0368123 0.9979057 0.0368123 0.9979057 0.0368123 0.0020943 -0.0368123
6151 0.0019486 -0.0352245 0.9980514 0.0352245 0.9980514 0.0352245 0.0019486 -0.0352245
6433 0.0018141 -0.0337046 0.9981859 0.0337046 0.9981859 0.0337046 0.0018141 -0.0337046
6728 0.0016900 -0.0322497 0.9983100 0.0322497 0.9983100 0.0322497 0.0016900 -0.0322497
7036 0.0015755 -0.0308572 0.9984245 0.0308572 0.9984245 0.0308572 0.0015755 -0.0308572
7358 0.0014698 -0.0295243 0.9985302 0.0295243 0.9985302 0.0295243 0.0014698 -0.0295243
7695 0.0013722 -0.0282488 0.9986278 0.0282488 0.9986278 0.0282488 0.0013722 -0.0282488
8047 0.0012821 -0.0270280 0.9987179 0.0270280 0.9987179 0.0270280 0.0012821 -0.0270280
8416 0.0011990 -0.0258599 0.9988010 0.0258599 0.9988010 0.0258599 0.0011990 -0.0258599
8801 0.0011222 -0.0247420 0.9988778 0.0247420 0.9988778 0.0247420 0.0011222 -0.0247420
9204 0.0010512 -0.0236725 0.9989488 0.0236725 0.9989488 0.0236725 0.0010512 -0.0236725
9626 0.0009856 -0.0226491 0.9990144 0.0226491 0.9990144 0.0226491 0.0009856 -0.0226491
10066 0.0009249 -0.0216699 0.9990751 0.0216699 0.9990751 0.0216699 0.0009249 -0.0216699
10527 0.0008688 -0.0207332 0.9991312 0.0207332 0.9991312 0.0207332 0.0008688 -0.0207332
11009 0.0008168 -0.0198370 0.9991832 0.0198370 0.9991832 0.0198370 0.0008168 -0.0198370
11514 0.0007686 -0.0189796 0.9992314 0.0189796 0.9992314 0.0189796 0.0007686 -0.0189796
12041 0.0007238 -0.0181594 0.9992762 0.0181594 0.9992762 0.0181594 0.0007238 -0.0181594
12592 0.0006823 -0.0173748 0.9993177 0.0173748 0.9993177 0.0173748 0.0006823 -0.0173748
13169 0.0006437 -0.0166242 0.9993563 0.0166242 0.9993563 0.0166242 0.0006437 -0.0166242
13772 0.0006077 -0.0159062 0.9993923 0.0159062 0.9993923 0.0159062 0.0006077 -0.0159062
14402 0.0005741 -0.0152193 0.9994259 0.0152193 0.9994259 0.0152193 0.0005741 -0.0152193
15062 0.0005428 -0.0145622 0.9994572 0.0145622 0.9994572 0.0145622 0.0005428 -0.0145622
15752 0.0005136 -0.0139336 0.9994864 0.0139336 0.9994864 0.0139336 0.0005136 -0.0139336
16473 0.0004862 -0.0133323 0.9995138 0.0133323 0.9995138 0.0133323 0.0004862 -0.0133323
17227 0.0004605 -0.0127570 0.9995395 0.0127570 0.9995395 0.0127570 0.0004605 -0.0127570
18016 0.0004364 -0.0122067 0.9995636 0.0122067 0.9995636 0.0122067 0.0004364 -0.0122067
18841 0.0004138 -0.0116801 0.9995862 0.0116801 0.9995862 0.0116801 0.0004138 -0.0116801
19704 0.0003925 -0.0111764 0.9996075 0.0111764 0.9996075 0.0111764 0.0003925 -0.0111764
20606 0.0003725 -0.0106944 0.9996275 0.0106944 0.9996275 0.0106944 0.0003725 -0.0106944
21550 0.0003536 -0.0102332 0.9996464 0.0102332 0.9996464 0.0102332 0.0003536 -0.0102332
22537 0.0003358 -0.0097919 0.9996642 0.0097919 0.9996642 0.0097919 0.0003358 -0.0097919
23569 0.0003190 -0.0093696 0.9996810 0.0093696 0.9996810 0.0093696 0.0003190 -0.0093696
24648 0.0003031 -0.0089655 0.9996969 0.0089655 0.9996969 0.0089655 0.0003031 -0.0089655
25777 0.0002882 -0.0085788 0.9997118 0.0085788 0.9997118 0.0085788 0.0002882 -0.0085788
26957 0.0002740 -0.0082088 0.9997260 0.0082088 0.9997260 0.0082088 0.0002740 -0.0082088
28191 0.0002607 -0.0078546 0.9997393 0.0078546 0.9997393 0.0078546 0.0002607 -0.0078546
29482 0.0002481 -0.0075157 0.9997519 0.0075157 0.9997519 0.0075157 0.0002481 -0.0075157
30832 0.0002362 -0.0071913 0.9997638 0.0071913 0.9997638 0.0071913 0.0002362 -0.0071913
32244 0.0002250 -0.0068809 0.9997750 0.0068809 0.9997750 0.0068809 0.0002250 -0.0068809
33721 0.0002145 -0.0065838 0.9997855 0.0065838 0.9997855 0.0065838 0.0002145 -0.0065838
35265 0.0002045 -0.0062995 0.9997955 0.0062995 0.9997955 0.0062995 0.0002045 -0.0062995
36880 0.0001952 -0.0060273 0.9998048 0.0060273 0.9998048 0.0060273 0.0001952 -0.0060273
38569 0.0001864 -0.0057669 0.9998136 0.0057669 0.9998136 0.0057669 0.0001864 -0.0057669
40335 0.0001781 -0.0055176 0.9998219 0.0055176 0.9998219 0.0055176 0.0001781 -0.0055176
42182 0.0001703 -0.0052791 0.9998297 0.0052791 0.9998297 0.0052791 0.0001703 -0.0052791
44113 0.0001630 -0.0050508 0.9998370 0.0050508 0.9998370 0.0050508 0.0001630 -0.0050508
46134 0.0001561 -0.0048324 0.9998439 0.0048324 0.9998439 0.0048324 0.0001561 -0.0048324
48246 0.0001497 -0.0046233 0.9998503 0.0046233 0.9998503 0.0046233 0.0001497 -0.0046233
50455 0.0001437 -0.0044233 0.9998563 0.0044233 0.9998563 0.0044233 0.0001437 -0.0044233
52766 0.0001380 -0.0042319 0.9998620 0.0042319 0.9998620 0.0042319 0.0001380 -0.0042319
55182 0.0001326 -0.0040488 0.9998674 0.0040488 0.9998674 0.0040488 0.0001326 -0.0040488
57709 0.0001276 -0.0038736 0.9998724 0.0038736 0.9998724 0.0038736 0.0001276 -0.0038736
60352 0.0001229 -0.0037059 0.9998771 0.0037059 0.9998771 0.0037059 0.0001229 -0.0037059
63115 0.0001185 -0.0035455 0.9998815 0.0035455 0.9998815 0.0035455 0.0001185 -0.0035455
66005 0.0001143 -0.0033921 0.9998857 0.0033921 0.9998857 0.0033921 0.0001143 -0.0033921
69028 0.0001104 -0.0032452 0.9998896 0.0032452 0.9998896 0.0032452 0.0001104 -0.0032452
72189 0.0001067 -0.0031048 0.9998933 0.0031048 0.9998933 0.0031048 0.0001067 -0.0031048
75495 0.0001032 -0.0029704 0.9998968 0.0029704 0.9998968 0.0029704 0.0001032 -0.0029704
78952 0.0000999 -0.0028419 0.9999001 0.0028419 0.9999001 0.0028419 0.0000999 -0.0028419
82567 0.0000968 -0.0027189 0.9999032 0.0027189 0.9999032 0.0027189 0.0000968 -0.0027189
86348 0.0000938 -0.0026013 0.9999062 0.0026013 0.9999062 0.0026013 0.0000938 -0.0026013
90302 0.0000909 -0.0024887 0.9999091 0.0024887 0.9999091 0.0024887 0.0000909 -0.0024887
94437 0.0000882 -0.0023811 0.9999118 0.0023811 0.9999118 0.0023811 0.0000882 -0.0023811
98762 0.0000856 -0.0022781 0.9999144 0.0022781 0.9999144 0.0022781 0.0000856 -0.0022781
103284 0.0000831 -0.0021795 0.9999169 0.0021795 0.9999169 0.0021795 0.0000831 -0.0021795
108014 0.0000807 -0.0020852 0.9999193 0.0020852 0.9999193 0.0020852 0.0000807 -0.0020852
112960 0.0000784 -0.0019950 0.9999216 0.0019950 0.9999216 0.0019950 0.0000784 -0.0019950
118133 0.0000762 -0.0019086 0.9999238 0.0019086 0.9999238 0.0019086 0.0000762 -0.0019086
123542 0.0000741 -0.0018260 0.9999259 0.0018260 0.9999259 0.0018260 0.0000741 -0.0018260
129199 0.0000720 -0.0017470 0.9999280 0.0017470 0.9999280 0.0017470 0.0000720 -0.0017470
135116 0.0000700 -0.0016713 0.9999300 0.0016713 0.9999300 0.0016713 0.0000700 -0.0016713
141303 0.0000681 -0.0015989 0.9999319 0.0015989 0.9999319 0.0015989 0.0000681 -0.0015989
147774 0.0000662 -0.0015295 0.9999338 0.0015295 0.9999338 0.0015295 0.0000662 -0.0015295
154540 0.0000644 -0.0014631 0.9999356 0.0014631 0.9999356 0.0014631 0.0000644 -0.0014631
161617 0.0000626 -0.0013996 0.9999374 0.0013996 0.9999374 0.0013996 0.0000626 -0.0013996
169018 0.0000610 -0.0013387 0.9999390 0.0013387 0.9999390 0.0013387 0.0000610 -0.0013387
176758 0.0000593 -0.0012805 0.9999407 0.0012805 0.9999407 0.0012805 0.0000593 -0.0012805
184852 0.0000578 -0.0012247 0.9999422 0.0012247 0.9999422 0.0012247 0.0000578 -0.0012247
193316 0.0000563 -0.0011712 0.9999437 0.0011712 0.9999437 0.0011712 0.0000563 -0.0011712
202169 0.0000548 -0.0011200 0.9999452 0.0011200 0.9999452 0.0011200 0.0000548 -0.0011200
211427 0.0000534 -0.0010710 0.9999466 0.0010710 0.9999466 0.0010710 0.0000534 -0.0010710
221108 0.0000521 -0.0010240 0.9999479 0.0010240 0.9999479 0.0010240 0.0000521 -0.0010240
231233 0.0000508 -0.0009789 0.9999492 0.0009789 0.9999492 0.0009789 0.0000508 -0.0009789
241822 0.0000496 -0.0009358 0.9999504 0.0009358 0.9999504 0.0009358 0.0000496 -0.0009358
252896 0.0000485 -0.0008945 0.9999515 0.0008945 0.9999515 0.0008945 0.0000485 -0.0008945
264476 0.0000474 -0.0008549 0.9999526 0.0008549 0.9999526 0.0008549 0.0000474 -0.0008549
276587 0.0000463 -0.0008169 0.9999537 0.0008169 0.9999537 0.0008169 0.0000463 -0.0008169
289253 0.0000454 -0.0007805 0.9999546 0.0007805 0.9999546 0.0007805 0.0000454 -0.0007805
302498 0.0000444 -0.0007456 0.9999556 0.0007456 0.9999556 0.0007456 0.0000444 -0.0007456
316350 0.0000436 -0.0007121 0.9999564 0.0007121 0.9999564 0.0007121 0.0000436 -0.0007121
330837 0.0000428 -0.0006801 0.9999572 0.0006801 0.9999572 0.0006801 0.0000428 -0.0006801
345986 0.0000420 -0.0006493 0.9999580 0.0006493 0.9999580 0.0006493 0.0000420 -0.0006493
361830 0.0000413 -0.0006198 0.9999587 0.0006198 0.9999587 0.0006198 0.0000413 -0.0006198
378399 0.0000407 -0.0005915 0.9999593 0.0005915 0.9999593 0.0005915 0.0000407 -0.0005915
395726 0.0000401 -0.0005644 0.9999599 0.0005644 0.9999599 0.0005644 0.0000401 -0.0005644
413847 0.0000395 -0.0005383 0.9999605 0.0005383 0.9999605 0.0005383 0.0000395 -0.0005383
432798 0.0000390 -0.0005134 0.9999610 0.0005134 0.9999610 0.0005134 0.0000390 -0.0005134
452617 0.0000385 -0.0004894 0.9999615 0.0004894 0.9999615 0.0004894 0.0000385 -0.0004894
473344 0.0000381 -0.0004663 0.9999619 0.0004663 0.9999619 0.0004663 0.0000381 -0.0004663
495019 0.0000377 -0.0004442 0.9999623 0.0004442 0.9999623 0.0004442 0.0000377 -0.0004442
517687 0.0000373 -0.0004230 0.9999627 0.0004230 0.9999627 0.0004230 0.0000373 -0.0004230
541393 0.0000370 -0.0004026 0.9999630 0.0004026 0.9999630 0.0004026 0.0000370 -0.0004026
566185 0.0000367 -0.0003829 0.9999633 0.0003829 0.9999633 0.0003829 0.0000367 -0.0003829
592111 0.0000364 -0.0003641 0.9999636 0.0003641 0.9999636 0.0003641 0.0000364 -0.0003641
619225 0.0000362 -0.0003459 0.9999638 0.0003459 0.9999638 0.0003459 0.0000362 -0.0003459
647581 0.0000360 -0.0003284 0.9999640 0.0003284 0.9999640 0.0003284 0.0000360 -0.0003284
677235 0.0000359 -0.0003116 0.9999641 0.0003116 0.9999641 0.0003116 0.0000359 -0.0003116
708247 0.0000357 -0.0002954 0.9999643 0.0002954 0.9999643 0.0002954 0.0000357 -0.0002954
740679 0.0000356 -0.0002798 0.9999644 0.0002798 0.9999644 0.0002798 0.0000356 -0.0002798
774597 0.0000355 -0.0002647 0.9999645 0.0002647 0.9999645 0.0002647 0.0000355 -0.0002647
810067 0.0000355 -0.0002502 0.9999645 0.0002502 0.9999645 0.0002502 0.0000355 -0.0002502
847162 0.0000355 -0.0002361 0.9999645 0.0002361 0.9999645 0.0002361 0.0000355 -0.0002361
885955 0.0000355 -0.0002225 0.9999645 0.0002225 0.9999645 0.0002225 0.0000355 -0.0002225
926525 0.0000355 -0.0002094 0.9999645 0.0002094 0.9999645 0.0002094 0.0000355 -0.0002094
968953 0.0000356 -0.0001967 0.9999644 0.0001967 0.9999644 0.0001967 0.0000356 -0.0001967
1013323 0.0000357 -0.0001843 0.9999643 0.0001843 0.9999643 0.0001843 0.0000357 -0.0001843
1059725 0.0000358 -0.0001723 0.9999642 0.0001723 0.9999642 0.0001723 0.0000358 -0.0001723
1108252 0.0000360 -0.0001607 0.9999640 0.0001607 0.9999640 0.0001607 0.0000360 -0.0001607
1159002 0.0000362 -0.0001494 0.9999638 0.0001494 0.9999638 0.0001494 0.0000362 -0.0001494
1212075 0.0000364 -0.0001384 0.9999636 0.0001384 0.9999636 0.0001384 0.0000364 -0.0001384
1267578 0.0000367 -0.0001276 0.9999633 0.0001276 0.9999633 0.0001276 0.0000367 -0.0001276
1325623 0.0000370 -0.0001171 0.9999630 0.0001171 0.9999630 0.0001171 0.0000370 -0.0001171
1386327 0.0000374 -0.0001068 0.9999626 0.0001068 0.9999626 0.0001068 0.0000374 -0.0001068
1449809 0.0000378 -0.0000967 0.9999622 0.0000967 0.9999622 0.0000967 0.0000378 -0.0000967
1516199 0.0000383 -0.0000869 0.9999617 0.0000869 0.9999617 0.0000869 0.0000383 -0.0000869
1585629 0.0000388 -0.0000771 0.9999612 0.0000771 0.9999612 0.0000771 0.0000388 -0.0000771
1658239 0.0000394 -0.0000675 0.9999606 0.0000675 0.9999606 0.0000675 0.0000394 -0.0000675
1734173 0.0000401 -0.0000581 0.9999599 0.0000581 0.9999599 0.0000581 0.0000401 -0.0000581
1813585 0.0000409 -0.0000487 0.9999591 0.0000487 0.9999591 0.0000487 0.0000409 -0.0000487
1896632 0.0000418 -0.0000394 0.9999582 0.0000394 0.9999582 0.0000394 0.0000418 -0.0000394
1983483 0.0000428 -0.0000302 0.9999572 0.0000302 0.9999572 0.0000302 0.0000428 -0.0000302
2074311 0.0000439 -0.0000210 0.9999561 0.0000210 0.9999561 0.0000210 0.0000439 -0.0000210
