!Murata Part Number: GRM188R11A224KA01
!These Parameters are Measured in Series Mode Connection
!Data Generated on Mar 30, 2021
!       o--ll--o
!Port1            Port2
!       o------o
!Operation Temp=25[degC], DC Bias Voltage=0[V]
!Freq. Start=100[kHz] Stop=6[GHz] 401[Steps]
# Hz S RI R 50
!Freq.(Hz) S11(Real) S11(Imag) S21(Real) S21(Imag) S12(Real) S12(Imag) S22(Real) S22(Imag)
100000 0.0067586 -0.0771183 0.9932414 0.0771183 0.9932414 0.0771183 0.0067586 -0.0771183
102789 0.0064243 -0.0750649 0.9935757 0.0750649 0.9935757 0.0750649 0.0064243 -0.0750649
105655 0.0061070 -0.0730650 0.9938930 0.0730650 0.9938930 0.0730650 0.0061070 -0.0730650
108602 0.0058058 -0.0711172 0.9941942 0.0711172 0.9941942 0.0711172 0.0058058 -0.0711172
111630 0.0055198 -0.0692204 0.9944802 0.0692204 0.9944802 0.0692204 0.0055198 -0.0692204
114743 0.0052484 -0.0673731 0.9947516 0.0673731 0.9947516 0.0673731 0.0052484 -0.0673731
117943 0.0049908 -0.0655743 0.9950092 0.0655743 0.9950092 0.0655743 0.0049908 -0.0655743
121232 0.0047462 -0.0638226 0.9952538 0.0638226 0.9952538 0.0638226 0.0047462 -0.0638226
124613 0.0045140 -0.0621169 0.9954860 0.0621169 0.9954860 0.0621169 0.0045140 -0.0621169
128088 0.0042935 -0.0604561 0.9957065 0.0604561 0.9957065 0.0604561 0.0042935 -0.0604561
131660 0.0040842 -0.0588390 0.9959158 0.0588390 0.9959158 0.0588390 0.0040842 -0.0588390
135332 0.0038854 -0.0572645 0.9961146 0.0572645 0.9961146 0.0572645 0.0038854 -0.0572645
139106 0.0036967 -0.0557315 0.9963033 0.0557315 0.9963033 0.0557315 0.0036967 -0.0557315
142985 0.0035175 -0.0542389 0.9964825 0.0542389 0.9964825 0.0542389 0.0035175 -0.0542389
146972 0.0033473 -0.0527858 0.9966527 0.0527858 0.9966527 0.0527858 0.0033473 -0.0527858
151071 0.0031857 -0.0513712 0.9968143 0.0513712 0.9968143 0.0513712 0.0031857 -0.0513712
155284 0.0030323 -0.0499939 0.9969677 0.0499939 0.9969677 0.0499939 0.0030323 -0.0499939
159614 0.0028866 -0.0486531 0.9971134 0.0486531 0.9971134 0.0486531 0.0028866 -0.0486531
164065 0.0027482 -0.0473479 0.9972518 0.0473479 0.9972518 0.0473479 0.0027482 -0.0473479
168641 0.0026167 -0.0460772 0.9973833 0.0460772 0.9973833 0.0460772 0.0026167 -0.0460772
173344 0.0024919 -0.0448403 0.9975081 0.0448403 0.9975081 0.0448403 0.0024919 -0.0448403
178178 0.0023734 -0.0436362 0.9976266 0.0436362 0.9976266 0.0436362 0.0023734 -0.0436362
183146 0.0022608 -0.0424641 0.9977392 0.0424641 0.9977392 0.0424641 0.0022608 -0.0424641
188254 0.0021539 -0.0413232 0.9978461 0.0413232 0.9978461 0.0413232 0.0021539 -0.0413232
193504 0.0020524 -0.0402126 0.9979476 0.0402126 0.9979476 0.0402126 0.0020524 -0.0402126
198900 0.0019560 -0.0391316 0.9980440 0.0391316 0.9980440 0.0391316 0.0019560 -0.0391316
204447 0.0018644 -0.0380793 0.9981356 0.0380793 0.9981356 0.0380793 0.0018644 -0.0380793
210148 0.0017775 -0.0370551 0.9982225 0.0370551 0.9982225 0.0370551 0.0017775 -0.0370551
216008 0.0016949 -0.0360582 0.9983051 0.0360582 0.9983051 0.0360582 0.0016949 -0.0360582
222032 0.0016165 -0.0350879 0.9983835 0.0350879 0.9983835 0.0350879 0.0016165 -0.0350879
228224 0.0015420 -0.0341435 0.9984580 0.0341435 0.9984580 0.0341435 0.0015420 -0.0341435
234589 0.0014713 -0.0332243 0.9985287 0.0332243 0.9985287 0.0332243 0.0014713 -0.0332243
241130 0.0014041 -0.0323296 0.9985959 0.0323296 0.9985959 0.0323296 0.0014041 -0.0323296
247855 0.0013403 -0.0314589 0.9986597 0.0314589 0.9986597 0.0314589 0.0013403 -0.0314589
254767 0.0012797 -0.0306115 0.9987203 0.0306115 0.9987203 0.0306115 0.0012797 -0.0306115
261871 0.0012222 -0.0297867 0.9987778 0.0297867 0.9987778 0.0297867 0.0012222 -0.0297867
269174 0.0011676 -0.0289840 0.9988324 0.0289840 0.9988324 0.0289840 0.0011676 -0.0289840
276681 0.0011157 -0.0282027 0.9988843 0.0282027 0.9988843 0.0282027 0.0011157 -0.0282027
284397 0.0010664 -0.0274425 0.9989336 0.0274425 0.9989336 0.0274425 0.0010664 -0.0274425
292328 0.0010196 -0.0267025 0.9989804 0.0267025 0.9989804 0.0267025 0.0010196 -0.0267025
300480 0.0009752 -0.0259825 0.9990248 0.0259825 0.9990248 0.0259825 0.0009752 -0.0259825
308859 0.0009330 -0.0252817 0.9990670 0.0252817 0.9990670 0.0252817 0.0009330 -0.0252817
317472 0.0008929 -0.0245997 0.9991071 0.0245997 0.9991071 0.0245997 0.0008929 -0.0245997
326326 0.0008548 -0.0239361 0.9991452 0.0239361 0.9991452 0.0239361 0.0008548 -0.0239361
335426 0.0008186 -0.0232902 0.9991814 0.0232902 0.9991814 0.0232902 0.0008186 -0.0232902
344780 0.0007842 -0.0226617 0.9992158 0.0226617 0.9992158 0.0226617 0.0007842 -0.0226617
354395 0.0007516 -0.0220501 0.9992484 0.0220501 0.9992484 0.0220501 0.0007516 -0.0220501
364278 0.0007206 -0.0214549 0.9992794 0.0214549 0.9992794 0.0214549 0.0007206 -0.0214549
374436 0.0006911 -0.0208758 0.9993089 0.0208758 0.9993089 0.0208758 0.0006911 -0.0208758
384878 0.0006630 -0.0203121 0.9993370 0.0203121 0.9993370 0.0203121 0.0006630 -0.0203121
395611 0.0006364 -0.0197637 0.9993636 0.0197637 0.9993636 0.0197637 0.0006364 -0.0197637
406644 0.0006111 -0.0192300 0.9993889 0.0192300 0.9993889 0.0192300 0.0006111 -0.0192300
417984 0.0005870 -0.0187106 0.9994130 0.0187106 0.9994130 0.0187106 0.0005870 -0.0187106
429640 0.0005641 -0.0182053 0.9994359 0.0182053 0.9994359 0.0182053 0.0005641 -0.0182053
441622 0.0005423 -0.0177135 0.9994577 0.0177135 0.9994577 0.0177135 0.0005423 -0.0177135
453937 0.0005216 -0.0172349 0.9994784 0.0172349 0.9994784 0.0172349 0.0005216 -0.0172349
466596 0.0005019 -0.0167693 0.9994981 0.0167693 0.9994981 0.0167693 0.0005019 -0.0167693
479608 0.0004831 -0.0163161 0.9995169 0.0163161 0.9995169 0.0163161 0.0004831 -0.0163161
492983 0.0004653 -0.0158752 0.9995347 0.0158752 0.9995347 0.0158752 0.0004653 -0.0158752
506731 0.0004482 -0.0154461 0.9995518 0.0154461 0.9995518 0.0154461 0.0004482 -0.0154461
520862 0.0004321 -0.0150285 0.9995679 0.0150285 0.9995679 0.0150285 0.0004321 -0.0150285
535387 0.0004166 -0.0146222 0.9995834 0.0146222 0.9995834 0.0146222 0.0004166 -0.0146222
550318 0.0004019 -0.0142269 0.9995981 0.0142269 0.9995981 0.0142269 0.0004019 -0.0142269
565664 0.0003879 -0.0138421 0.9996121 0.0138421 0.9996121 0.0138421 0.0003879 -0.0138421
581439 0.0003746 -0.0134677 0.9996254 0.0134677 0.9996254 0.0134677 0.0003746 -0.0134677
597654 0.0003619 -0.0131034 0.9996381 0.0131034 0.9996381 0.0131034 0.0003619 -0.0131034
614320 0.0003497 -0.0127489 0.9996503 0.0127489 0.9996503 0.0127489 0.0003497 -0.0127489
631452 0.0003381 -0.0124039 0.9996619 0.0124039 0.9996619 0.0124039 0.0003381 -0.0124039
649061 0.0003271 -0.0120681 0.9996729 0.0120681 0.9996729 0.0120681 0.0003271 -0.0120681
667162 0.0003166 -0.0117414 0.9996834 0.0117414 0.9996834 0.0117414 0.0003166 -0.0117414
685767 0.0003065 -0.0114235 0.9996935 0.0114235 0.9996935 0.0114235 0.0003065 -0.0114235
704891 0.0002969 -0.0111141 0.9997031 0.0111141 0.9997031 0.0111141 0.0002969 -0.0111141
724548 0.0002877 -0.0108130 0.9997123 0.0108130 0.9997123 0.0108130 0.0002877 -0.0108130
744754 0.0002790 -0.0105199 0.9997210 0.0105199 0.9997210 0.0105199 0.0002790 -0.0105199
765523 0.0002706 -0.0102348 0.9997294 0.0102348 0.9997294 0.0102348 0.0002706 -0.0102348
786871 0.0002626 -0.0099573 0.9997374 0.0099573 0.9997374 0.0099573 0.0002626 -0.0099573
808814 0.0002550 -0.0096872 0.9997450 0.0096872 0.9997450 0.0096872 0.0002550 -0.0096872
831370 0.0002477 -0.0094243 0.9997523 0.0094243 0.9997523 0.0094243 0.0002477 -0.0094243
854554 0.0002407 -0.0091685 0.9997593 0.0091685 0.9997593 0.0091685 0.0002407 -0.0091685
878385 0.0002340 -0.0089195 0.9997660 0.0089195 0.9997660 0.0089195 0.0002340 -0.0089195
902880 0.0002277 -0.0086772 0.9997723 0.0086772 0.9997723 0.0086772 0.0002277 -0.0086772
928059 0.0002216 -0.0084414 0.9997784 0.0084414 0.9997784 0.0084414 0.0002216 -0.0084414
953940 0.0002158 -0.0082118 0.9997842 0.0082118 0.9997842 0.0082118 0.0002158 -0.0082118
980542 0.0002102 -0.0079884 0.9997898 0.0079884 0.9997898 0.0079884 0.0002102 -0.0079884
1007887 0.0002049 -0.0077710 0.9997951 0.0077710 0.9997951 0.0077710 0.0002049 -0.0077710
1035994 0.0001998 -0.0075594 0.9998002 0.0075594 0.9998002 0.0075594 0.0001998 -0.0075594
1064885 0.0001950 -0.0073534 0.9998050 0.0073534 0.9998050 0.0073534 0.0001950 -0.0073534
1094581 0.0001903 -0.0071529 0.9998097 0.0071529 0.9998097 0.0071529 0.0001903 -0.0071529
1125106 0.0001859 -0.0069577 0.9998141 0.0069577 0.9998141 0.0069577 0.0001859 -0.0069577
1156481 0.0001817 -0.0067678 0.9998183 0.0067678 0.9998183 0.0067678 0.0001817 -0.0067678
1188732 0.0001776 -0.0065828 0.9998224 0.0065828 0.9998224 0.0065828 0.0001776 -0.0065828
1221882 0.0001738 -0.0064029 0.9998262 0.0064029 0.9998262 0.0064029 0.0001738 -0.0064029
1255957 0.0001701 -0.0062277 0.9998299 0.0062277 0.9998299 0.0062277 0.0001701 -0.0062277
1290982 0.0001666 -0.0060571 0.9998334 0.0060571 0.9998334 0.0060571 0.0001666 -0.0060571
1326984 0.0001632 -0.0058911 0.9998368 0.0058911 0.9998368 0.0058911 0.0001632 -0.0058911
1363989 0.0001600 -0.0057295 0.9998400 0.0057295 0.9998400 0.0057295 0.0001600 -0.0057295
1402027 0.0001570 -0.0055721 0.9998430 0.0055721 0.9998430 0.0055721 0.0001570 -0.0055721
1441125 0.0001541 -0.0054190 0.9998459 0.0054190 0.9998459 0.0054190 0.0001541 -0.0054190
1481314 0.0001513 -0.0052699 0.9998487 0.0052699 0.9998487 0.0052699 0.0001513 -0.0052699
1522623 0.0001487 -0.0051247 0.9998513 0.0051247 0.9998513 0.0051247 0.0001487 -0.0051247
1565085 0.0001461 -0.0049834 0.9998539 0.0049834 0.9998539 0.0049834 0.0001461 -0.0049834
1608730 0.0001437 -0.0048458 0.9998563 0.0048458 0.9998563 0.0048458 0.0001437 -0.0048458
1653593 0.0001415 -0.0047118 0.9998585 0.0047118 0.9998585 0.0047118 0.0001415 -0.0047118
1699707 0.0001393 -0.0045814 0.9998607 0.0045814 0.9998607 0.0045814 0.0001393 -0.0045814
1747106 0.0001372 -0.0044544 0.9998628 0.0044544 0.9998628 0.0044544 0.0001372 -0.0044544
1795828 0.0001352 -0.0043307 0.9998648 0.0043307 0.9998648 0.0043307 0.0001352 -0.0043307
1845908 0.0001334 -0.0042103 0.9998666 0.0042103 0.9998666 0.0042103 0.0001334 -0.0042103
1897385 0.0001316 -0.0040930 0.9998684 0.0040930 0.9998684 0.0040930 0.0001316 -0.0040930
1950297 0.0001299 -0.0039788 0.9998701 0.0039788 0.9998701 0.0039788 0.0001299 -0.0039788
2004685 0.0001283 -0.0038676 0.9998717 0.0038676 0.9998717 0.0038676 0.0001283 -0.0038676
2060590 0.0001268 -0.0037593 0.9998732 0.0037593 0.9998732 0.0037593 0.0001268 -0.0037593
2118054 0.0001253 -0.0036538 0.9998747 0.0036538 0.9998747 0.0036538 0.0001253 -0.0036538
2177120 0.0001240 -0.0035511 0.9998760 0.0035511 0.9998760 0.0035511 0.0001240 -0.0035511
2237833 0.0001227 -0.0034510 0.9998773 0.0034510 0.9998773 0.0034510 0.0001227 -0.0034510
2300240 0.0001214 -0.0033536 0.9998786 0.0033536 0.9998786 0.0033536 0.0001214 -0.0033536
2364387 0.0001203 -0.0032586 0.9998797 0.0032586 0.9998797 0.0032586 0.0001203 -0.0032586
2430322 0.0001192 -0.0031661 0.9998808 0.0031661 0.9998808 0.0031661 0.0001192 -0.0031661
2498097 0.0001181 -0.0030760 0.9998819 0.0030760 0.9998819 0.0030760 0.0001181 -0.0030760
2567761 0.0001171 -0.0029882 0.9998829 0.0029882 0.9998829 0.0029882 0.0001171 -0.0029882
2639368 0.0001162 -0.0029026 0.9998838 0.0029026 0.9998838 0.0029026 0.0001162 -0.0029026
2712972 0.0001153 -0.0028192 0.9998847 0.0028192 0.9998847 0.0028192 0.0001153 -0.0028192
2788629 0.0001145 -0.0027380 0.9998855 0.0027380 0.9998855 0.0027380 0.0001145 -0.0027380
2866396 0.0001137 -0.0026588 0.9998863 0.0026588 0.9998863 0.0026588 0.0001137 -0.0026588
2946331 0.0001130 -0.0025816 0.9998870 0.0025816 0.9998870 0.0025816 0.0001130 -0.0025816
3028495 0.0001123 -0.0025064 0.9998877 0.0025064 0.9998877 0.0025064 0.0001123 -0.0025064
3112951 0.0001117 -0.0024330 0.9998883 0.0024330 0.9998883 0.0024330 0.0001117 -0.0024330
3199762 0.0001111 -0.0023615 0.9998889 0.0023615 0.9998889 0.0023615 0.0001111 -0.0023615
3288994 0.0001105 -0.0022917 0.9998895 0.0022917 0.9998895 0.0022917 0.0001105 -0.0022917
3380714 0.0001100 -0.0022237 0.9998900 0.0022237 0.9998900 0.0022237 0.0001100 -0.0022237
3474992 0.0001095 -0.0021574 0.9998905 0.0021574 0.9998905 0.0021574 0.0001095 -0.0021574
3571899 0.0001090 -0.0020927 0.9998910 0.0020927 0.9998910 0.0020927 0.0001090 -0.0020927
3671508 0.0001086 -0.0020295 0.9998914 0.0020295 0.9998914 0.0020295 0.0001086 -0.0020295
3773896 0.0001082 -0.0019679 0.9998918 0.0019679 0.9998918 0.0019679 0.0001082 -0.0019679
3879139 0.0001079 -0.0019078 0.9998921 0.0019078 0.9998921 0.0019078 0.0001079 -0.0019078
3987316 0.0001076 -0.0018491 0.9998924 0.0018491 0.9998924 0.0018491 0.0001076 -0.0018491
4098510 0.0001073 -0.0017918 0.9998927 0.0017918 0.9998927 0.0017918 0.0001073 -0.0017918
4212806 0.0001070 -0.0017359 0.9998930 0.0017359 0.9998930 0.0017359 0.0001070 -0.0017359
4330288 0.0001068 -0.0016813 0.9998932 0.0016813 0.9998932 0.0016813 0.0001068 -0.0016813
4451047 0.0001066 -0.0016279 0.9998934 0.0016279 0.9998934 0.0016279 0.0001066 -0.0016279
4575173 0.0001064 -0.0015758 0.9998936 0.0015758 0.9998936 0.0015758 0.0001064 -0.0015758
4702761 0.0001062 -0.0015249 0.9998938 0.0015249 0.9998938 0.0015249 0.0001062 -0.0015249
4833907 0.0001061 -0.0014751 0.9998939 0.0014751 0.9998939 0.0014751 0.0001061 -0.0014751
4968711 0.0001060 -0.0014264 0.9998940 0.0014264 0.9998940 0.0014264 0.0001060 -0.0014264
5107273 0.0001060 -0.0013788 0.9998940 0.0013788 0.9998940 0.0013788 0.0001060 -0.0013788
5249700 0.0001059 -0.0013323 0.9998941 0.0013323 0.9998941 0.0013323 0.0001059 -0.0013323
5396098 0.0001059 -0.0012868 0.9998941 0.0012868 0.9998941 0.0012868 0.0001059 -0.0012868
5546579 0.0001059 -0.0012422 0.9998941 0.0012422 0.9998941 0.0012422 0.0001059 -0.0012422
5701257 0.0001059 -0.0011986 0.9998941 0.0011986 0.9998941 0.0011986 0.0001059 -0.0011986
5860248 0.0001060 -0.0011558 0.9998940 0.0011558 0.9998940 0.0011558 0.0001060 -0.0011558
6023672 0.0001061 -0.0011140 0.9998939 0.0011140 0.9998939 0.0011140 0.0001061 -0.0011140
6191655 0.0001062 -0.0010730 0.9998938 0.0010730 0.9998938 0.0010730 0.0001062 -0.0010730
6364321 0.0001064 -0.0010328 0.9998936 0.0010328 0.9998936 0.0010328 0.0001064 -0.0010328
6541803 0.0001065 -0.0009934 0.9998935 0.0009934 0.9998935 0.0009934 0.0001065 -0.0009934
6724235 0.0001067 -0.0009548 0.9998933 0.0009548 0.9998933 0.0009548 0.0001067 -0.0009548
6911753 0.0001069 -0.0009168 0.9998931 0.0009168 0.9998931 0.0009168 0.0001069 -0.0009168
7104501 0.0001072 -0.0008796 0.9998928 0.0008796 0.9998928 0.0008796 0.0001072 -0.0008796
7302625 0.0001075 -0.0008430 0.9998925 0.0008430 0.9998925 0.0008430 0.0001075 -0.0008430
7506273 0.0001078 -0.0008071 0.9998922 0.0008071 0.9998922 0.0008071 0.0001078 -0.0008071
7715601 0.0001082 -0.0007718 0.9998918 0.0007718 0.9998918 0.0007718 0.0001082 -0.0007718
7930766 0.0001085 -0.0007371 0.9998915 0.0007371 0.9998915 0.0007371 0.0001085 -0.0007371
8151931 0.0001090 -0.0007029 0.9998910 0.0007029 0.9998910 0.0007029 0.0001090 -0.0007029
8379264 0.0001094 -0.0006693 0.9998906 0.0006693 0.9998906 0.0006693 0.0001094 -0.0006693
8612937 0.0001099 -0.0006361 0.9998901 0.0006361 0.9998901 0.0006361 0.0001099 -0.0006361
8853126 0.0001104 -0.0006035 0.9998896 0.0006035 0.9998896 0.0006035 0.0001104 -0.0006035
9100013 0.0001110 -0.0005713 0.9998890 0.0005713 0.9998890 0.0005713 0.0001110 -0.0005713
9353785 0.0001116 -0.0005396 0.9998884 0.0005396 0.9998884 0.0005396 0.0001116 -0.0005396
9614634 0.0001122 -0.0005082 0.9998878 0.0005082 0.9998878 0.0005082 0.0001122 -0.0005082
9882758 0.0001129 -0.0004773 0.9998871 0.0004773 0.9998871 0.0004773 0.0001129 -0.0004773
10158358 0.0001137 -0.0004467 0.9998863 0.0004467 0.9998863 0.0004467 0.0001137 -0.0004467
10441645 0.0001145 -0.0004165 0.9998855 0.0004165 0.9998855 0.0004165 0.0001145 -0.0004165
10732831 0.0001153 -0.0003866 0.9998847 0.0003866 0.9998847 0.0003866 0.0001153 -0.0003866
11032137 0.0001162 -0.0003570 0.9998838 0.0003570 0.9998838 0.0003570 0.0001162 -0.0003570
11339791 0.0001172 -0.0003277 0.9998828 0.0003277 0.9998828 0.0003277 0.0001172 -0.0003277
11656024 0.0001182 -0.0002986 0.9998818 0.0002986 0.9998818 0.0002986 0.0001182 -0.0002986
11981075 0.0001192 -0.0002697 0.9998808 0.0002697 0.9998808 0.0002697 0.0001192 -0.0002697
12315192 0.0001204 -0.0002411 0.9998796 0.0002411 0.9998796 0.0002411 0.0001204 -0.0002411
12658625 0.0001216 -0.0002127 0.9998784 0.0002127 0.9998784 0.0002127 0.0001216 -0.0002127
13011637 0.0001229 -0.0001844 0.9998771 0.0001844 0.9998771 0.0001844 0.0001229 -0.0001844
13374492 0.0001242 -0.0001563 0.9998758 0.0001563 0.9998758 0.0001563 0.0001242 -0.0001563
13747467 0.0001257 -0.0001283 0.9998743 0.0001283 0.9998743 0.0001283 0.0001257 -0.0001283
14130843 0.0001272 -0.0001004 0.9998728 0.0001004 0.9998728 0.0001004 0.0001272 -0.0001004
14524910 0.0001288 -0.0000726 0.9998712 0.0000726 0.9998712 0.0000726 0.0001288 -0.0000726
14929966 0.0001306 -0.0000449 0.9998694 0.0000449 0.9998694 0.0000449 0.0001306 -0.0000449
15346318 0.0001324 -0.0000172 0.9998676 0.0000172 0.9998676 0.0000172 0.0001324 -0.0000172
15774281 0.0001343 0.0000105 0.9998657 -0.0000105 0.9998657 -0.0000105 0.0001343 0.0000105
16214179 0.0001364 0.0000381 0.9998636 -0.0000381 0.9998636 -0.0000381 0.0001364 0.0000381
16666344 0.0001385 0.0000658 0.9998615 -0.0000658 0.9998615 -0.0000658 0.0001385 0.0000658
17131118 0.0001408 0.0000935 0.9998592 -0.0000935 0.9998592 -0.0000935 0.0001408 0.0000935
17608854 0.0001433 0.0001213 0.9998567 -0.0001213 0.9998567 -0.0001213 0.0001433 0.0001213
18099912 0.0001459 0.0001491 0.9998541 -0.0001491 0.9998541 -0.0001491 0.0001459 0.0001491
18604665 0.0001487 0.0001771 0.9998513 -0.0001771 0.9998513 -0.0001771 0.0001487 0.0001771
19123493 0.0001516 0.0002052 0.9998484 -0.0002052 0.9998484 -0.0002052 0.0001516 0.0002052
19656790 0.0001548 0.0002334 0.9998452 -0.0002334 0.9998452 -0.0002334 0.0001548 0.0002334
20204959 0.0001581 0.0002618 0.9998419 -0.0002618 0.9998419 -0.0002618 0.0001581 0.0002618
20768415 0.0001617 0.0002904 0.9998383 -0.0002904 0.9998383 -0.0002904 0.0001617 0.0002904
21347584 0.0001656 0.0003192 0.9998344 -0.0003192 0.9998344 -0.0003192 0.0001656 0.0003192
21942904 0.0001697 0.0003483 0.9998303 -0.0003483 0.9998303 -0.0003483 0.0001697 0.0003483
22554827 0.0001742 0.0003776 0.9998258 -0.0003776 0.9998258 -0.0003776 0.0001742 0.0003776
23183813 0.0001790 0.0004072 0.9998210 -0.0004072 0.9998210 -0.0004072 0.0001790 0.0004072
23830340 0.0001843 0.0004370 0.9998157 -0.0004370 0.9998157 -0.0004370 0.0001843 0.0004370
24494897 0.0001900 0.0004673 0.9998100 -0.0004673 0.9998100 -0.0004673 0.0001900 0.0004673
25177987 0.0001963 0.0004978 0.9998037 -0.0004978 0.9998037 -0.0004978 0.0001963 0.0004978
25880126 0.0002032 0.0005287 0.9997968 -0.0005287 0.9997968 -0.0005287 0.0002032 0.0005287
26601845 0.0002109 0.0005598 0.9997891 -0.0005598 0.9997891 -0.0005598 0.0002109 0.0005598
27343691 0.0002194 0.0005913 0.9997806 -0.0005913 0.9997806 -0.0005913 0.0002194 0.0005913
28106225 0.0002289 0.0006230 0.9997711 -0.0006230 0.9997711 -0.0006230 0.0002289 0.0006230
28890023 0.0002397 0.0006547 0.9997603 -0.0006547 0.9997603 -0.0006547 0.0002397 0.0006547
29695680 0.0002518 0.0006863 0.9997482 -0.0006863 0.9997482 -0.0006863 0.0002518 0.0006863
30523804 0.0002655 0.0007175 0.9997345 -0.0007175 0.9997345 -0.0007175 0.0002655 0.0007175
31375021 0.0002810 0.0007478 0.9997190 -0.0007478 0.9997190 -0.0007478 0.0002810 0.0007478
32249977 0.0002983 0.0007765 0.9997017 -0.0007765 0.9997017 -0.0007765 0.0002983 0.0007765
33149332 0.0003171 0.0008029 0.9996829 -0.0008029 0.9996829 -0.0008029 0.0003171 0.0008029
34073768 0.0003368 0.0008259 0.9996632 -0.0008259 0.9996632 -0.0008259 0.0003368 0.0008259
35023984 0.0003562 0.0008448 0.9996438 -0.0008448 0.9996438 -0.0008448 0.0003562 0.0008448
36000698 0.0003734 0.0008592 0.9996266 -0.0008592 0.9996266 -0.0008592 0.0003734 0.0008592
37004650 0.0003862 0.0008701 0.9996138 -0.0008701 0.9996138 -0.0008701 0.0003862 0.0008701
38036599 0.0003930 0.0008793 0.9996070 -0.0008793 0.9996070 -0.0008793 0.0003930 0.0008793
39097326 0.0003934 0.0008896 0.9996066 -0.0008896 0.9996066 -0.0008896 0.0003934 0.0008896
