!Murata Part Number: GRM188R6YA225MA12
!These Parameters are Measured in Series Mode Connection
!Data Generated on Mar 30, 2021
!       o--ll--o
!Port1            Port2
!       o------o
!Operation Temp=25[degC], DC Bias Voltage=0[V]
!Freq. Start=100[Hz] Stop=6[GHz] 401[Steps]
# Hz S RI R 50
!Freq.(Hz) S11(Real) S11(Imag) S21(Real) S21(Imag) S12(Real) S12(Imag) S22(Real) S22(Imag)
100 0.9884872 -0.0951187 0.0115128 0.0951187 0.0115128 0.0951187 0.9884872 -0.0951187
105 0.9875737 -0.0993198 0.0124263 0.0993198 0.0124263 0.0993198 0.9875737 -0.0993198
109 0.9865799 -0.1036989 0.0134201 0.1036989 0.0134201 0.1036989 0.9865799 -0.1036989
114 0.9854990 -0.1082621 0.0145010 0.1082621 0.0145010 0.1082621 0.9854990 -0.1082621
120 0.9843233 -0.1130155 0.0156767 0.1130155 0.0156767 0.1130155 0.9843233 -0.1130155
125 0.9830446 -0.1179652 0.0169554 0.1179652 0.0169554 0.1179652 0.9830446 -0.1179652
131 0.9816543 -0.1231172 0.0183457 0.1231172 0.0183457 0.1231172 0.9816543 -0.1231172
137 0.9801430 -0.1284775 0.0198570 0.1284775 0.0198570 0.1284775 0.9801430 -0.1284775
143 0.9785005 -0.1340519 0.0214995 0.1340519 0.0214995 0.1340519 0.9785005 -0.1340519
150 0.9767160 -0.1398460 0.0232840 0.1398460 0.0232840 0.1398460 0.9767160 -0.1398460
156 0.9747780 -0.1458655 0.0252220 0.1458655 0.0252220 0.1458655 0.9747780 -0.1458655
164 0.9726741 -0.1521153 0.0273259 0.1521153 0.0273259 0.1521153 0.9726741 -0.1521153
171 0.9703910 -0.1586004 0.0296090 0.1586004 0.0296090 0.1586004 0.9703910 -0.1586004
179 0.9679148 -0.1653251 0.0320852 0.1653251 0.0320852 0.1653251 0.9679148 -0.1653251
187 0.9652304 -0.1722933 0.0347696 0.1722933 0.0347696 0.1722933 0.9652304 -0.1722933
196 0.9623219 -0.1795085 0.0376781 0.1795085 0.0376781 0.1795085 0.9623219 -0.1795085
205 0.9591724 -0.1869731 0.0408276 0.1869731 0.0408276 0.1869731 0.9591724 -0.1869731
214 0.9557640 -0.1946890 0.0442360 0.1946890 0.0442360 0.1946890 0.9557640 -0.1946890
224 0.9520780 -0.2026571 0.0479220 0.2026571 0.0479220 0.2026571 0.9520780 -0.2026571
234 0.9480943 -0.2108772 0.0519057 0.2108772 0.0519057 0.2108772 0.9480943 -0.2108772
245 0.9437920 -0.2193479 0.0562080 0.2193479 0.0562080 0.2193479 0.9437920 -0.2193479
256 0.9391494 -0.2280666 0.0608506 0.2280666 0.0608506 0.2280666 0.9391494 -0.2280666
268 0.9341434 -0.2370289 0.0658566 0.2370289 0.0658566 0.2370289 0.9341434 -0.2370289
280 0.9287503 -0.2462287 0.0712497 0.2462287 0.0712497 0.2462287 0.9287503 -0.2462287
293 0.9229454 -0.2556582 0.0770546 0.2556582 0.0770546 0.2556582 0.9229454 -0.2556582
306 0.9167032 -0.2653072 0.0832968 0.2653072 0.0832968 0.2653072 0.9167032 -0.2653072
320 0.9099976 -0.2751632 0.0900024 0.2751632 0.0900024 0.2751632 0.9099976 -0.2751632
335 0.9028020 -0.2852112 0.0971980 0.2852112 0.0971980 0.2852112 0.9028020 -0.2852112
350 0.8950895 -0.2954332 0.1049105 0.2954332 0.1049105 0.2954332 0.8950895 -0.2954332
366 0.8868332 -0.3058082 0.1131668 0.3058082 0.1131668 0.3058082 0.8868332 -0.3058082
383 0.8780063 -0.3163119 0.1219937 0.3163119 0.1219937 0.3163119 0.8780063 -0.3163119
401 0.8685827 -0.3269165 0.1314173 0.3269165 0.1314173 0.3269165 0.8685827 -0.3269165
419 0.8585373 -0.3375907 0.1414627 0.3375907 0.1414627 0.3375907 0.8585373 -0.3375907
438 0.8478463 -0.3482990 0.1521537 0.3482990 0.1521537 0.3482990 0.8478463 -0.3482990
458 0.8364880 -0.3590023 0.1635120 0.3590023 0.1635120 0.3590023 0.8364880 -0.3590023
479 0.8244431 -0.3696576 0.1755569 0.3696576 0.1755569 0.3696576 0.8244431 -0.3696576
501 0.8116952 -0.3802178 0.1883048 0.3802178 0.1883048 0.3802178 0.8116952 -0.3802178
524 0.7982321 -0.3906322 0.2017679 0.3906322 0.2017679 0.3906322 0.7982321 -0.3906322
548 0.7840454 -0.4008467 0.2159546 0.4008467 0.2159546 0.4008467 0.7840454 -0.4008467
573 0.7691320 -0.4108039 0.2308680 0.4108039 0.2308680 0.4108039 0.7691320 -0.4108039
600 0.7534945 -0.4204440 0.2465055 0.4204440 0.2465055 0.4204440 0.7534945 -0.4204440
627 0.7371415 -0.4297049 0.2628585 0.4297049 0.2628585 0.4297049 0.7371415 -0.4297049
656 0.7200885 -0.4385234 0.2799115 0.4385234 0.2799115 0.4385234 0.7200885 -0.4385234
686 0.7023580 -0.4468357 0.2976420 0.4468357 0.2976420 0.4468357 0.7023580 -0.4468357
717 0.6839803 -0.4545786 0.3160197 0.4545786 0.3160197 0.4545786 0.6839803 -0.4545786
750 0.6649929 -0.4616902 0.3350071 0.4616902 0.3350071 0.4616902 0.6649929 -0.4616902
784 0.6454412 -0.4681115 0.3545588 0.4681115 0.3545588 0.4681115 0.6454412 -0.4681115
820 0.6253779 -0.4737869 0.3746221 0.4737869 0.3746221 0.4737869 0.6253779 -0.4737869
858 0.6048630 -0.4786660 0.3951370 0.4786660 0.3951370 0.4786660 0.6048630 -0.4786660
897 0.5839625 -0.4827040 0.4160375 0.4827040 0.4160375 0.4827040 0.5839625 -0.4827040
938 0.5627485 -0.4858631 0.4372515 0.4858631 0.4372515 0.4858631 0.5627485 -0.4858631
981 0.5412976 -0.4881134 0.4587024 0.4881134 0.4587024 0.4881134 0.5412976 -0.4881134
1026 0.5196903 -0.4894333 0.4803097 0.4894333 0.4803097 0.4894333 0.5196903 -0.4894333
1073 0.4980091 -0.4898101 0.5019909 0.4898101 0.5019909 0.4898101 0.4980091 -0.4898101
1122 0.4763380 -0.4892406 0.5236620 0.4892406 0.5236620 0.4892406 0.4763380 -0.4892406
1174 0.4547606 -0.4877307 0.5452394 0.4877307 0.5452394 0.4877307 0.4547606 -0.4877307
1227 0.4333589 -0.4852957 0.5666411 0.4852957 0.5666411 0.4852957 0.4333589 -0.4852957
1283 0.4122122 -0.4819596 0.5877878 0.4819596 0.5877878 0.4819596 0.4122122 -0.4819596
1342 0.3913957 -0.4777545 0.6086043 0.4777545 0.6086043 0.4777545 0.3913957 -0.4777545
1404 0.3709797 -0.4727202 0.6290203 0.4727202 0.6290203 0.4727202 0.3709797 -0.4727202
1468 0.3510283 -0.4669028 0.6489717 0.4669028 0.6489717 0.4669028 0.3510283 -0.4669028
1535 0.3315991 -0.4603541 0.6684009 0.4603541 0.6684009 0.4603541 0.3315991 -0.4603541
1606 0.3127428 -0.4531304 0.6872572 0.4531304 0.6872572 0.4531304 0.3127428 -0.4531304
1679 0.2945022 -0.4452910 0.7054978 0.4452910 0.7054978 0.4452910 0.2945022 -0.4452910
1756 0.2769129 -0.4368978 0.7230871 0.4368978 0.7230871 0.4368978 0.2769129 -0.4368978
1836 0.2600028 -0.4280138 0.7399972 0.4280138 0.7399972 0.4280138 0.2600028 -0.4280138
1920 0.2437926 -0.4187019 0.7562074 0.4187019 0.7562074 0.4187019 0.2437926 -0.4187019
2008 0.2282961 -0.4090246 0.7717039 0.4090246 0.7717039 0.4090246 0.2282961 -0.4090246
2100 0.2135204 -0.3990427 0.7864796 0.3990427 0.7864796 0.3990427 0.2135204 -0.3990427
2196 0.1994669 -0.3888150 0.8005331 0.3888150 0.8005331 0.3888150 0.1994669 -0.3888150
2297 0.1861315 -0.3783974 0.8138685 0.3783974 0.8138685 0.3783974 0.1861315 -0.3783974
2402 0.1735053 -0.3678427 0.8264947 0.3678427 0.8264947 0.3678427 0.1735053 -0.3678427
2512 0.1615755 -0.3572003 0.8384245 0.3572003 0.8384245 0.3572003 0.1615755 -0.3572003
2627 0.1503256 -0.3465159 0.8496744 0.3465159 0.8496744 0.3465159 0.1503256 -0.3465159
2748 0.1397364 -0.3358314 0.8602636 0.3358314 0.8602636 0.3358314 0.1397364 -0.3358314
2873 0.1297862 -0.3251848 0.8702138 0.3251848 0.8702138 0.3251848 0.1297862 -0.3251848
3005 0.1204515 -0.3146106 0.8795485 0.3146106 0.8795485 0.3146106 0.1204515 -0.3146106
3143 0.1117077 -0.3041395 0.8882923 0.3041395 0.8882923 0.3041395 0.1117077 -0.3041395
3287 0.1035291 -0.2937984 0.8964709 0.2937984 0.8964709 0.2937984 0.1035291 -0.2937984
3437 0.0958893 -0.2836113 0.9041107 0.2836113 0.9041107 0.2836113 0.0958893 -0.2836113
3594 0.0887620 -0.2735987 0.9112380 0.2735987 0.9112380 0.2735987 0.0887620 -0.2735987
3759 0.0821207 -0.2637782 0.9178793 0.2637782 0.9178793 0.2637782 0.0821207 -0.2637782
3931 0.0759392 -0.2541649 0.9240608 0.2541649 0.9240608 0.2541649 0.0759392 -0.2541649
4111 0.0701918 -0.2447710 0.9298082 0.2447710 0.9298082 0.2447710 0.0701918 -0.2447710
4299 0.0648534 -0.2356067 0.9351466 0.2356067 0.9351466 0.2356067 0.0648534 -0.2356067
4496 0.0598995 -0.2266799 0.9401005 0.2266799 0.9401005 0.2266799 0.0598995 -0.2266799
4702 0.0553066 -0.2179966 0.9446934 0.2179966 0.9446934 0.2179966 0.0553066 -0.2179966
4918 0.0510519 -0.2095613 0.9489481 0.2095613 0.9489481 0.2095613 0.0510519 -0.2095613
5143 0.0471137 -0.2013766 0.9528863 0.2013766 0.9528863 0.2013766 0.0471137 -0.2013766
5378 0.0434710 -0.1934440 0.9565290 0.1934440 0.9565290 0.1934440 0.0434710 -0.1934440
5625 0.0401041 -0.1857638 0.9598959 0.1857638 0.9598959 0.1857638 0.0401041 -0.1857638
5882 0.0369940 -0.1783351 0.9630060 0.1783351 0.9630060 0.1783351 0.0369940 -0.1783351
6151 0.0341230 -0.1711559 0.9658770 0.1711559 0.9658770 0.1711559 0.0341230 -0.1711559
6433 0.0314741 -0.1642238 0.9685259 0.1642238 0.9685259 0.1642238 0.0314741 -0.1642238
6728 0.0290313 -0.1575353 0.9709687 0.1575353 0.9709687 0.1575353 0.0290313 -0.1575353
7036 0.0267797 -0.1510864 0.9732203 0.1510864 0.9732203 0.1510864 0.0267797 -0.1510864
7358 0.0247051 -0.1448728 0.9752949 0.1448728 0.9752949 0.1448728 0.0247051 -0.1448728
7695 0.0227943 -0.1388895 0.9772057 0.1388895 0.9772057 0.1388895 0.0227943 -0.1388895
8047 0.0210350 -0.1331311 0.9789650 0.1331311 0.9789650 0.1331311 0.0210350 -0.1331311
8416 0.0194155 -0.1275922 0.9805845 0.1275922 0.9805845 0.1275922 0.0194155 -0.1275922
8801 0.0179250 -0.1222670 0.9820750 0.1222670 0.9820750 0.1222670 0.0179250 -0.1222670
9204 0.0165536 -0.1171494 0.9834464 0.1171494 0.9834464 0.1171494 0.0165536 -0.1171494
9626 0.0152917 -0.1122334 0.9847083 0.1122334 0.9847083 0.1122334 0.0152917 -0.1122334
10066 0.0141308 -0.1075129 0.9858692 0.1075129 0.9858692 0.1075129 0.0141308 -0.1075129
10527 0.0130627 -0.1029816 0.9869373 0.1029816 0.9869373 0.1029816 0.0130627 -0.1029816
11009 0.0120799 -0.0986332 0.9879201 0.0986332 0.9879201 0.0986332 0.0120799 -0.0986332
11514 0.0111756 -0.0944617 0.9888244 0.0944617 0.9888244 0.0944617 0.0111756 -0.0944617
12041 0.0103433 -0.0904607 0.9896567 0.0904607 0.9896567 0.0904607 0.0103433 -0.0904607
12592 0.0095771 -0.0866243 0.9904229 0.0866243 0.9904229 0.0866243 0.0095771 -0.0866243
13169 0.0088716 -0.0829464 0.9911284 0.0829464 0.9911284 0.0829464 0.0088716 -0.0829464
13772 0.0082217 -0.0794211 0.9917783 0.0794211 0.9917783 0.0794211 0.0082217 -0.0794211
14402 0.0076229 -0.0760426 0.9923771 0.0760426 0.9923771 0.0760426 0.0076229 -0.0760426
15062 0.0070709 -0.0728053 0.9929291 0.0728053 0.9929291 0.0728053 0.0070709 -0.0728053
15752 0.0065618 -0.0697036 0.9934382 0.0697036 0.9934382 0.0697036 0.0065618 -0.0697036
16473 0.0060920 -0.0667321 0.9939080 0.0667321 0.9939080 0.0667321 0.0060920 -0.0667321
17227 0.0056584 -0.0638857 0.9943416 0.0638857 0.9943416 0.0638857 0.0056584 -0.0638857
18016 0.0052578 -0.0611593 0.9947422 0.0611593 0.9947422 0.0611593 0.0052578 -0.0611593
18841 0.0048877 -0.0585479 0.9951123 0.0585479 0.9951123 0.0585479 0.0048877 -0.0585479
19704 0.0045454 -0.0560468 0.9954546 0.0560468 0.9954546 0.0560468 0.0045454 -0.0560468
20606 0.0042289 -0.0536515 0.9957711 0.0536515 0.9957711 0.0536515 0.0042289 -0.0536515
21550 0.0039359 -0.0513576 0.9960641 0.0513576 0.9960641 0.0513576 0.0039359 -0.0513576
22537 0.0036647 -0.0491608 0.9963353 0.0491608 0.9963353 0.0491608 0.0036647 -0.0491608
23569 0.0034134 -0.0470570 0.9965866 0.0470570 0.9965866 0.0470570 0.0034134 -0.0470570
24648 0.0031807 -0.0450423 0.9968193 0.0450423 0.9968193 0.0450423 0.0031807 -0.0450423
25777 0.0029650 -0.0431131 0.9970350 0.0431131 0.9970350 0.0431131 0.0029650 -0.0431131
26957 0.0027650 -0.0412656 0.9972350 0.0412656 0.9972350 0.0412656 0.0027650 -0.0412656
28191 0.0025796 -0.0394964 0.9974204 0.0394964 0.9974204 0.0394964 0.0025796 -0.0394964
29482 0.0024077 -0.0378023 0.9975923 0.0378023 0.9975923 0.0378023 0.0024077 -0.0378023
30832 0.0022483 -0.0361801 0.9977517 0.0361801 0.9977517 0.0361801 0.0022483 -0.0361801
32244 0.0021005 -0.0346268 0.9978995 0.0346268 0.9978995 0.0346268 0.0021005 -0.0346268
33721 0.0019634 -0.0331395 0.9980366 0.0331395 0.9980366 0.0331395 0.0019634 -0.0331395
35265 0.0018363 -0.0317154 0.9981637 0.0317154 0.9981637 0.0317154 0.0018363 -0.0317154
36880 0.0017184 -0.0303519 0.9982816 0.0303519 0.9982816 0.0303519 0.0017184 -0.0303519
38569 0.0016092 -0.0290465 0.9983908 0.0290465 0.9983908 0.0290465 0.0016092 -0.0290465
40335 0.0015079 -0.0277967 0.9984921 0.0277967 0.9984921 0.0277967 0.0015079 -0.0277967
42182 0.0014141 -0.0266003 0.9985859 0.0266003 0.9985859 0.0266003 0.0014141 -0.0266003
44113 0.0013271 -0.0254550 0.9986729 0.0254550 0.9986729 0.0254550 0.0013271 -0.0254550
46134 0.0012465 -0.0243586 0.9987535 0.0243586 0.9987535 0.0243586 0.0012465 -0.0243586
48246 0.0011718 -0.0233092 0.9988282 0.0233092 0.9988282 0.0233092 0.0011718 -0.0233092
50455 0.0011025 -0.0223048 0.9988975 0.0223048 0.9988975 0.0223048 0.0011025 -0.0223048
52766 0.0010383 -0.0213435 0.9989617 0.0213435 0.9989617 0.0213435 0.0010383 -0.0213435
55182 0.0009788 -0.0204236 0.9990212 0.0204236 0.9990212 0.0204236 0.0009788 -0.0204236
57709 0.0009236 -0.0195432 0.9990764 0.0195432 0.9990764 0.0195432 0.0009236 -0.0195432
60352 0.0008723 -0.0187007 0.9991277 0.0187007 0.9991277 0.0187007 0.0008723 -0.0187007
63115 0.0008247 -0.0178945 0.9991753 0.0178945 0.9991753 0.0178945 0.0008247 -0.0178945
66005 0.0007805 -0.0171232 0.9992195 0.0171232 0.9992195 0.0171232 0.0007805 -0.0171232
69028 0.0007394 -0.0163852 0.9992606 0.0163852 0.9992606 0.0163852 0.0007394 -0.0163852
72189 0.0007012 -0.0156790 0.9992988 0.0156790 0.9992988 0.0156790 0.0007012 -0.0156790
75495 0.0006655 -0.0150035 0.9993345 0.0150035 0.9993345 0.0150035 0.0006655 -0.0150035
78952 0.0006323 -0.0143571 0.9993677 0.0143571 0.9993677 0.0143571 0.0006323 -0.0143571
82567 0.0006012 -0.0137388 0.9993988 0.0137388 0.9993988 0.0137388 0.0006012 -0.0137388
86348 0.0005721 -0.0131472 0.9994279 0.0131472 0.9994279 0.0131472 0.0005721 -0.0131472
90302 0.0005449 -0.0125813 0.9994551 0.0125813 0.9994551 0.0125813 0.0005449 -0.0125813
94437 0.0005194 -0.0120399 0.9994806 0.0120399 0.9994806 0.0120399 0.0005194 -0.0120399
98762 0.0004953 -0.0115219 0.9995047 0.0115219 0.9995047 0.0115219 0.0004953 -0.0115219
103284 0.0004727 -0.0110264 0.9995273 0.0110264 0.9995273 0.0110264 0.0004727 -0.0110264
108014 0.0004514 -0.0105522 0.9995486 0.0105522 0.9995486 0.0105522 0.0004514 -0.0105522
112960 0.0004313 -0.0100986 0.9995687 0.0100986 0.9995687 0.0100986 0.0004313 -0.0100986
118133 0.0004122 -0.0096646 0.9995878 0.0096646 0.9995878 0.0096646 0.0004122 -0.0096646
123542 0.0003942 -0.0092493 0.9996058 0.0092493 0.9996058 0.0092493 0.0003942 -0.0092493
129199 0.0003771 -0.0088519 0.9996229 0.0088519 0.9996229 0.0088519 0.0003771 -0.0088519
135116 0.0003608 -0.0084716 0.9996392 0.0084716 0.9996392 0.0084716 0.0003608 -0.0084716
141303 0.0003454 -0.0081077 0.9996546 0.0081077 0.9996546 0.0081077 0.0003454 -0.0081077
147774 0.0003307 -0.0077594 0.9996693 0.0077594 0.9996693 0.0077594 0.0003307 -0.0077594
154540 0.0003168 -0.0074260 0.9996832 0.0074260 0.9996832 0.0074260 0.0003168 -0.0074260
161617 0.0003035 -0.0071070 0.9996965 0.0071070 0.9996965 0.0071070 0.0003035 -0.0071070
169018 0.0002908 -0.0068016 0.9997092 0.0068016 0.9997092 0.0068016 0.0002908 -0.0068016
176758 0.0002788 -0.0065092 0.9997212 0.0065092 0.9997212 0.0065092 0.0002788 -0.0065092
184852 0.0002673 -0.0062294 0.9997327 0.0062294 0.9997327 0.0062294 0.0002673 -0.0062294
193316 0.0002564 -0.0059614 0.9997436 0.0059614 0.9997436 0.0059614 0.0002564 -0.0059614
202169 0.0002461 -0.0057050 0.9997539 0.0057050 0.9997539 0.0057050 0.0002461 -0.0057050
211427 0.0002362 -0.0054594 0.9997638 0.0054594 0.9997638 0.0054594 0.0002362 -0.0054594
221108 0.0002268 -0.0052243 0.9997732 0.0052243 0.9997732 0.0052243 0.0002268 -0.0052243
231233 0.0002180 -0.0049992 0.9997820 0.0049992 0.9997820 0.0049992 0.0002180 -0.0049992
241822 0.0002095 -0.0047837 0.9997905 0.0047837 0.9997905 0.0047837 0.0002095 -0.0047837
252896 0.0002015 -0.0045774 0.9997985 0.0045774 0.9997985 0.0045774 0.0002015 -0.0045774
264476 0.0001940 -0.0043799 0.9998060 0.0043799 0.9998060 0.0043799 0.0001940 -0.0043799
276587 0.0001868 -0.0041907 0.9998132 0.0041907 0.9998132 0.0041907 0.0001868 -0.0041907
289253 0.0001800 -0.0040096 0.9998200 0.0040096 0.9998200 0.0040096 0.0001800 -0.0040096
302498 0.0001736 -0.0038363 0.9998264 0.0038363 0.9998264 0.0038363 0.0001736 -0.0038363
316350 0.0001675 -0.0036703 0.9998325 0.0036703 0.9998325 0.0036703 0.0001675 -0.0036703
330837 0.0001618 -0.0035114 0.9998382 0.0035114 0.9998382 0.0035114 0.0001618 -0.0035114
345986 0.0001564 -0.0033592 0.9998436 0.0033592 0.9998436 0.0033592 0.0001564 -0.0033592
361830 0.0001512 -0.0032135 0.9998488 0.0032135 0.9998488 0.0032135 0.0001512 -0.0032135
378399 0.0001464 -0.0030741 0.9998536 0.0030741 0.9998536 0.0030741 0.0001464 -0.0030741
395726 0.0001418 -0.0029405 0.9998582 0.0029405 0.9998582 0.0029405 0.0001418 -0.0029405
413847 0.0001374 -0.0028127 0.9998626 0.0028127 0.9998626 0.0028127 0.0001374 -0.0028127
432798 0.0001333 -0.0026903 0.9998667 0.0026903 0.9998667 0.0026903 0.0001333 -0.0026903
452617 0.0001294 -0.0025731 0.9998706 0.0025731 0.9998706 0.0025731 0.0001294 -0.0025731
473344 0.0001257 -0.0024609 0.9998743 0.0024609 0.9998743 0.0024609 0.0001257 -0.0024609
495019 0.0001221 -0.0023534 0.9998779 0.0023534 0.9998779 0.0023534 0.0001221 -0.0023534
517687 0.0001188 -0.0022505 0.9998812 0.0022505 0.9998812 0.0022505 0.0001188 -0.0022505
541393 0.0001156 -0.0021519 0.9998844 0.0021519 0.9998844 0.0021519 0.0001156 -0.0021519
566185 0.0001125 -0.0020575 0.9998875 0.0020575 0.9998875 0.0020575 0.0001125 -0.0020575
592111 0.0001096 -0.0019671 0.9998904 0.0019671 0.9998904 0.0019671 0.0001096 -0.0019671
619225 0.0001068 -0.0018805 0.9998932 0.0018805 0.9998932 0.0018805 0.0001068 -0.0018805
647581 0.0001042 -0.0017975 0.9998958 0.0017975 0.9998958 0.0017975 0.0001042 -0.0017975
677235 0.0001017 -0.0017179 0.9998983 0.0017179 0.9998983 0.0017179 0.0001017 -0.0017179
708247 0.0000993 -0.0016417 0.9999007 0.0016417 0.9999007 0.0016417 0.0000993 -0.0016417
740679 0.0000970 -0.0015686 0.9999030 0.0015686 0.9999030 0.0015686 0.0000970 -0.0015686
774597 0.0000948 -0.0014986 0.9999052 0.0014986 0.9999052 0.0014986 0.0000948 -0.0014986
810067 0.0000927 -0.0014314 0.9999073 0.0014314 0.9999073 0.0014314 0.0000927 -0.0014314
847162 0.0000907 -0.0013670 0.9999093 0.0013670 0.9999093 0.0013670 0.0000907 -0.0013670
885955 0.0000888 -0.0013052 0.9999112 0.0013052 0.9999112 0.0013052 0.0000888 -0.0013052
926525 0.0000871 -0.0012460 0.9999129 0.0012460 0.9999129 0.0012460 0.0000871 -0.0012460
968953 0.0000854 -0.0011891 0.9999146 0.0011891 0.9999146 0.0011891 0.0000854 -0.0011891
1013323 0.0000838 -0.0011345 0.9999162 0.0011345 0.9999162 0.0011345 0.0000838 -0.0011345
1059725 0.0000823 -0.0010821 0.9999177 0.0010821 0.9999177 0.0010821 0.0000823 -0.0010821
1108252 0.0000809 -0.0010317 0.9999191 0.0010317 0.9999191 0.0010317 0.0000809 -0.0010317
1159002 0.0000795 -0.0009834 0.9999205 0.0009834 0.9999205 0.0009834 0.0000795 -0.0009834
1212075 0.0000783 -0.0009369 0.9999217 0.0009369 0.9999217 0.0009369 0.0000783 -0.0009369
1267578 0.0000771 -0.0008922 0.9999229 0.0008922 0.9999229 0.0008922 0.0000771 -0.0008922
1325623 0.0000761 -0.0008493 0.9999239 0.0008493 0.9999239 0.0008493 0.0000761 -0.0008493
1386327 0.0000751 -0.0008080 0.9999249 0.0008080 0.9999249 0.0008080 0.0000751 -0.0008080
1449809 0.0000742 -0.0007683 0.9999258 0.0007683 0.9999258 0.0007683 0.0000742 -0.0007683
1516199 0.0000734 -0.0007300 0.9999266 0.0007300 0.9999266 0.0007300 0.0000734 -0.0007300
1585629 0.0000726 -0.0006932 0.9999274 0.0006932 0.9999274 0.0006932 0.0000726 -0.0006932
1658239 0.0000720 -0.0006577 0.9999280 0.0006577 0.9999280 0.0006577 0.0000720 -0.0006577
1734173 0.0000714 -0.0006235 0.9999286 0.0006235 0.9999286 0.0006235 0.0000714 -0.0006235
1813585 0.0000709 -0.0005905 0.9999291 0.0005905 0.9999291 0.0005905 0.0000709 -0.0005905
1896632 0.0000704 -0.0005586 0.9999296 0.0005586 0.9999296 0.0005586 0.0000704 -0.0005586
1983483 0.0000701 -0.0005279 0.9999299 0.0005279 0.9999299 0.0005279 0.0000701 -0.0005279
2074311 0.0000698 -0.0004982 0.9999302 0.0004982 0.9999302 0.0004982 0.0000698 -0.0004982
