!Murata Part Number: GRM188R71H123JA01
!These Parameters are Measured in Series Mode Connection
!Data Generated on Mar 30, 2021
!       o--ll--o
!Port1            Port2
!       o------o
!Operation Temp=25[degC], DC Bias Voltage=0[V]
!Freq. Start=100[Hz] Stop=6[GHz] 401[Steps]
# Hz S RI R 50
!Freq.(Hz) S11(Real) S11(Imag) S21(Real) S21(Imag) S12(Real) S12(Imag) S22(Real) S22(Imag)
100 0.9999958 -0.0007433 0.0000042 0.0007433 0.0000042 0.0007433 0.9999958 -0.0007433
105 0.9999956 -0.0007772 0.0000044 0.0007772 0.0000044 0.0007772 0.9999956 -0.0007772
109 0.9999954 -0.0008127 0.0000046 0.0008127 0.0000046 0.0008127 0.9999954 -0.0008127
114 0.9999952 -0.0008498 0.0000048 0.0008498 0.0000048 0.0008498 0.9999952 -0.0008498
120 0.9999950 -0.0008886 0.0000050 0.0008886 0.0000050 0.0008886 0.9999950 -0.0008886
125 0.9999947 -0.0009292 0.0000053 0.0009292 0.0000053 0.0009292 0.9999947 -0.0009292
131 0.9999944 -0.0009716 0.0000056 0.0009716 0.0000056 0.0009716 0.9999944 -0.0009716
137 0.9999941 -0.0010160 0.0000059 0.0010160 0.0000059 0.0010160 0.9999941 -0.0010160
143 0.9999938 -0.0010624 0.0000062 0.0010624 0.0000062 0.0010624 0.9999938 -0.0010624
150 0.9999935 -0.0011109 0.0000065 0.0011109 0.0000065 0.0011109 0.9999935 -0.0011109
156 0.9999931 -0.0011616 0.0000069 0.0011616 0.0000069 0.0011616 0.9999931 -0.0011616
164 0.9999928 -0.0012147 0.0000072 0.0012147 0.0000072 0.0012147 0.9999928 -0.0012147
171 0.9999924 -0.0012701 0.0000076 0.0012701 0.0000076 0.0012701 0.9999924 -0.0012701
179 0.9999919 -0.0013281 0.0000081 0.0013281 0.0000081 0.0013281 0.9999919 -0.0013281
187 0.9999914 -0.0013888 0.0000086 0.0013888 0.0000086 0.0013888 0.9999914 -0.0013888
196 0.9999910 -0.0014522 0.0000090 0.0014522 0.0000090 0.0014522 0.9999910 -0.0014522
205 0.9999904 -0.0015185 0.0000096 0.0015185 0.0000096 0.0015185 0.9999904 -0.0015185
214 0.9999899 -0.0015878 0.0000101 0.0015878 0.0000101 0.0015878 0.9999899 -0.0015878
224 0.9999893 -0.0016603 0.0000107 0.0016603 0.0000107 0.0016603 0.9999893 -0.0016603
234 0.9999886 -0.0017360 0.0000114 0.0017360 0.0000114 0.0017360 0.9999886 -0.0017360
245 0.9999879 -0.0018153 0.0000121 0.0018153 0.0000121 0.0018153 0.9999879 -0.0018153
256 0.9999872 -0.0018981 0.0000128 0.0018981 0.0000128 0.0018981 0.9999872 -0.0018981
268 0.9999865 -0.0019847 0.0000135 0.0019847 0.0000135 0.0019847 0.9999865 -0.0019847
280 0.9999857 -0.0020753 0.0000143 0.0020753 0.0000143 0.0020753 0.9999857 -0.0020753
293 0.9999848 -0.0021700 0.0000152 0.0021700 0.0000152 0.0021700 0.9999848 -0.0021700
306 0.9999839 -0.0022690 0.0000161 0.0022690 0.0000161 0.0022690 0.9999839 -0.0022690
320 0.9999829 -0.0023726 0.0000171 0.0023726 0.0000171 0.0023726 0.9999829 -0.0023726
335 0.9999819 -0.0024809 0.0000181 0.0024809 0.0000181 0.0024809 0.9999819 -0.0024809
350 0.9999808 -0.0025941 0.0000192 0.0025941 0.0000192 0.0025941 0.9999808 -0.0025941
366 0.9999796 -0.0027124 0.0000204 0.0027124 0.0000204 0.0027124 0.9999796 -0.0027124
383 0.9999784 -0.0028362 0.0000216 0.0028362 0.0000216 0.0028362 0.9999784 -0.0028362
401 0.9999771 -0.0029657 0.0000229 0.0029657 0.0000229 0.0029657 0.9999771 -0.0029657
419 0.9999757 -0.0031010 0.0000243 0.0031010 0.0000243 0.0031010 0.9999757 -0.0031010
438 0.9999742 -0.0032426 0.0000258 0.0032426 0.0000258 0.0032426 0.9999742 -0.0032426
458 0.9999725 -0.0033906 0.0000275 0.0033906 0.0000275 0.0033906 0.9999725 -0.0033906
479 0.9999708 -0.0035453 0.0000292 0.0035453 0.0000292 0.0035453 0.9999708 -0.0035453
501 0.9999690 -0.0037072 0.0000310 0.0037072 0.0000310 0.0037072 0.9999690 -0.0037072
524 0.9999670 -0.0038764 0.0000330 0.0038764 0.0000330 0.0038764 0.9999670 -0.0038764
548 0.9999649 -0.0040534 0.0000351 0.0040534 0.0000351 0.0040534 0.9999649 -0.0040534
573 0.9999626 -0.0042385 0.0000374 0.0042385 0.0000374 0.0042385 0.9999626 -0.0042385
600 0.9999601 -0.0044320 0.0000399 0.0044320 0.0000399 0.0044320 0.9999601 -0.0044320
627 0.9999575 -0.0046344 0.0000425 0.0046344 0.0000425 0.0046344 0.9999575 -0.0046344
656 0.9999546 -0.0048460 0.0000454 0.0048460 0.0000454 0.0048460 0.9999546 -0.0048460
686 0.9999515 -0.0050673 0.0000485 0.0050673 0.0000485 0.0050673 0.9999515 -0.0050673
717 0.9999481 -0.0052988 0.0000519 0.0052988 0.0000519 0.0052988 0.9999481 -0.0052988
750 0.9999445 -0.0055408 0.0000555 0.0055408 0.0000555 0.0055408 0.9999445 -0.0055408
784 0.9999405 -0.0057939 0.0000595 0.0057939 0.0000595 0.0057939 0.9999405 -0.0057939
820 0.9999362 -0.0060585 0.0000638 0.0060585 0.0000638 0.0060585 0.9999362 -0.0060585
858 0.9999316 -0.0063353 0.0000684 0.0063353 0.0000684 0.0063353 0.9999316 -0.0063353
897 0.9999266 -0.0066246 0.0000734 0.0066246 0.0000734 0.0066246 0.9999266 -0.0066246
938 0.9999211 -0.0069272 0.0000789 0.0069272 0.0000789 0.0069272 0.9999211 -0.0069272
981 0.9999151 -0.0072436 0.0000849 0.0072436 0.0000849 0.0072436 0.9999151 -0.0072436
1026 0.9999087 -0.0075745 0.0000913 0.0075745 0.0000913 0.0075745 0.9999087 -0.0075745
1073 0.9999016 -0.0079204 0.0000984 0.0079204 0.0000984 0.0079204 0.9999016 -0.0079204
1122 0.9998940 -0.0082822 0.0001060 0.0082822 0.0001060 0.0082822 0.9998940 -0.0082822
1174 0.9998857 -0.0086604 0.0001143 0.0086604 0.0001143 0.0086604 0.9998857 -0.0086604
1227 0.9998767 -0.0090559 0.0001233 0.0090559 0.0001233 0.0090559 0.9998767 -0.0090559
1283 0.9998669 -0.0094694 0.0001331 0.0094694 0.0001331 0.0094694 0.9998669 -0.0094694
1342 0.9998563 -0.0099018 0.0001437 0.0099018 0.0001437 0.0099018 0.9998563 -0.0099018
1404 0.9998447 -0.0103538 0.0001553 0.0103538 0.0001553 0.0103538 0.9998447 -0.0103538
1468 0.9998321 -0.0108265 0.0001679 0.0108265 0.0001679 0.0108265 0.9998321 -0.0108265
1535 0.9998185 -0.0113206 0.0001815 0.0113206 0.0001815 0.0113206 0.9998185 -0.0113206
1606 0.9998036 -0.0118373 0.0001964 0.0118373 0.0001964 0.0118373 0.9998036 -0.0118373
1679 0.9997875 -0.0123775 0.0002125 0.0123775 0.0002125 0.0123775 0.9997875 -0.0123775
1756 0.9997700 -0.0129422 0.0002300 0.0129422 0.0002300 0.0129422 0.9997700 -0.0129422
1836 0.9997510 -0.0135327 0.0002490 0.0135327 0.0002490 0.0135327 0.9997510 -0.0135327
1920 0.9997304 -0.0141500 0.0002696 0.0141500 0.0002696 0.0141500 0.9997304 -0.0141500
2008 0.9997080 -0.0147954 0.0002920 0.0147954 0.0002920 0.0147954 0.9997080 -0.0147954
2100 0.9996837 -0.0154702 0.0003163 0.0154702 0.0003163 0.0154702 0.9996837 -0.0154702
2196 0.9996574 -0.0161756 0.0003426 0.0161756 0.0003426 0.0161756 0.9996574 -0.0161756
2297 0.9996288 -0.0169131 0.0003712 0.0169131 0.0003712 0.0169131 0.9996288 -0.0169131
2402 0.9995977 -0.0176841 0.0004023 0.0176841 0.0004023 0.0176841 0.9995977 -0.0176841
2512 0.9995640 -0.0184902 0.0004360 0.0184902 0.0004360 0.0184902 0.9995640 -0.0184902
2627 0.9995274 -0.0193329 0.0004726 0.0193329 0.0004726 0.0193329 0.9995274 -0.0193329
2748 0.9994877 -0.0202140 0.0005123 0.0202140 0.0005123 0.0202140 0.9994877 -0.0202140
2873 0.9994445 -0.0211351 0.0005555 0.0211351 0.0005555 0.0211351 0.9994445 -0.0211351
3005 0.9993976 -0.0220981 0.0006024 0.0220981 0.0006024 0.0220981 0.9993976 -0.0220981
3143 0.9993467 -0.0231048 0.0006533 0.0231048 0.0006533 0.0231048 0.9993467 -0.0231048
3287 0.9992914 -0.0241573 0.0007086 0.0241573 0.0007086 0.0241573 0.9992914 -0.0241573
3437 0.9992313 -0.0252577 0.0007687 0.0252577 0.0007687 0.0252577 0.9992313 -0.0252577
3594 0.9991659 -0.0264081 0.0008341 0.0264081 0.0008341 0.0264081 0.9991659 -0.0264081
3759 0.9990948 -0.0276108 0.0009052 0.0276108 0.0009052 0.0276108 0.9990948 -0.0276108
3931 0.9990174 -0.0288681 0.0009826 0.0288681 0.0009826 0.0288681 0.9990174 -0.0288681
4111 0.9989332 -0.0301825 0.0010668 0.0301825 0.0010668 0.0301825 0.9989332 -0.0301825
4299 0.9988415 -0.0315566 0.0011585 0.0315566 0.0011585 0.0315566 0.9988415 -0.0315566
4496 0.9987417 -0.0329932 0.0012583 0.0329932 0.0012583 0.0329932 0.9987417 -0.0329932
4702 0.9986329 -0.0344949 0.0013671 0.0344949 0.0013671 0.0344949 0.9986329 -0.0344949
4918 0.9985144 -0.0360647 0.0014856 0.0360647 0.0014856 0.0360647 0.9985144 -0.0360647
5143 0.9983852 -0.0377056 0.0016148 0.0377056 0.0016148 0.0377056 0.9983852 -0.0377056
5378 0.9982444 -0.0394209 0.0017556 0.0394209 0.0017556 0.0394209 0.9982444 -0.0394209
5625 0.9980908 -0.0412138 0.0019092 0.0412138 0.0019092 0.0412138 0.9980908 -0.0412138
5882 0.9979233 -0.0430877 0.0020767 0.0430877 0.0020767 0.0430877 0.9979233 -0.0430877
6151 0.9977406 -0.0450463 0.0022594 0.0450463 0.0022594 0.0450463 0.9977406 -0.0450463
6433 0.9975412 -0.0470932 0.0024588 0.0470932 0.0024588 0.0470932 0.9975412 -0.0470932
6728 0.9973237 -0.0492323 0.0026763 0.0492323 0.0026763 0.0492323 0.9973237 -0.0492323
7036 0.9970863 -0.0514677 0.0029137 0.0514677 0.0029137 0.0514677 0.9970863 -0.0514677
7358 0.9968273 -0.0538034 0.0031727 0.0538034 0.0031727 0.0538034 0.9968273 -0.0538034
7695 0.9965446 -0.0562437 0.0034554 0.0562437 0.0034554 0.0562437 0.9965446 -0.0562437
8047 0.9962360 -0.0587933 0.0037640 0.0587933 0.0037640 0.0587933 0.9962360 -0.0587933
8416 0.9958992 -0.0614567 0.0041008 0.0614567 0.0041008 0.0614567 0.9958992 -0.0614567
8801 0.9955316 -0.0642386 0.0044684 0.0642386 0.0044684 0.0642386 0.9955316 -0.0642386
9204 0.9951304 -0.0671441 0.0048696 0.0671441 0.0048696 0.0671441 0.9951304 -0.0671441
9626 0.9946926 -0.0701784 0.0053074 0.0701784 0.0053074 0.0701784 0.9946926 -0.0701784
10066 0.9942148 -0.0733465 0.0057852 0.0733465 0.0057852 0.0733465 0.9942148 -0.0733465
10527 0.9936934 -0.0766542 0.0063066 0.0766542 0.0063066 0.0766542 0.9936934 -0.0766542
11009 0.9931245 -0.0801068 0.0068755 0.0801068 0.0068755 0.0801068 0.9931245 -0.0801068
11514 0.9925040 -0.0837103 0.0074960 0.0837103 0.0074960 0.0837103 0.9925040 -0.0837103
12041 0.9918270 -0.0874705 0.0081730 0.0874705 0.0081730 0.0874705 0.9918270 -0.0874705
12592 0.9910887 -0.0913935 0.0089113 0.0913935 0.0089113 0.0913935 0.9910887 -0.0913935
13169 0.9902835 -0.0954855 0.0097165 0.0954855 0.0097165 0.0954855 0.9902835 -0.0954855
13772 0.9894056 -0.0997528 0.0105944 0.0997528 0.0105944 0.0997528 0.9894056 -0.0997528
14402 0.9884487 -0.1042018 0.0115513 0.1042018 0.0115513 0.1042018 0.9884487 -0.1042018
15062 0.9874056 -0.1088391 0.0125944 0.1088391 0.0125944 0.1088391 0.9874056 -0.1088391
15752 0.9862691 -0.1136712 0.0137309 0.1136712 0.0137309 0.1136712 0.9862691 -0.1136712
16473 0.9850308 -0.1187047 0.0149692 0.1187047 0.0149692 0.1187047 0.9850308 -0.1187047
17227 0.9836822 -0.1239463 0.0163178 0.1239463 0.0163178 0.1239463 0.9836822 -0.1239463
18016 0.9822136 -0.1294026 0.0177864 0.1294026 0.0177864 0.1294026 0.9822136 -0.1294026
18841 0.9806148 -0.1350801 0.0193852 0.1350801 0.0193852 0.1350801 0.9806148 -0.1350801
19704 0.9788748 -0.1409853 0.0211252 0.1409853 0.0211252 0.1409853 0.9788748 -0.1409853
20606 0.9769816 -0.1471244 0.0230184 0.1471244 0.0230184 0.1471244 0.9769816 -0.1471244
21550 0.9749225 -0.1535035 0.0250775 0.1535035 0.0250775 0.1535035 0.9749225 -0.1535035
22537 0.9726837 -0.1601281 0.0273163 0.1601281 0.0273163 0.1601281 0.9726837 -0.1601281
23569 0.9702504 -0.1670037 0.0297496 0.1670037 0.0297496 0.1670037 0.9702504 -0.1670037
24648 0.9676067 -0.1741350 0.0323933 0.1741350 0.0323933 0.1741350 0.9676067 -0.1741350
25777 0.9647356 -0.1815261 0.0352644 0.1815261 0.0352644 0.1815261 0.9647356 -0.1815261
26957 0.9616191 -0.1891806 0.0383809 0.1891806 0.0383809 0.1891806 0.9616191 -0.1891806
28191 0.9582379 -0.1971009 0.0417621 0.1971009 0.0417621 0.1971009 0.9582379 -0.1971009
29482 0.9545715 -0.2052887 0.0454285 0.2052887 0.0454285 0.2052887 0.9545715 -0.2052887
30832 0.9505982 -0.2137442 0.0494018 0.2137442 0.0494018 0.2137442 0.9505982 -0.2137442
32244 0.9462951 -0.2224664 0.0537049 0.2224664 0.0537049 0.2224664 0.9462951 -0.2224664
33721 0.9416382 -0.2314526 0.0583618 0.2314526 0.0583618 0.2314526 0.9416382 -0.2314526
35265 0.9366023 -0.2406984 0.0633977 0.2406984 0.0633977 0.2406984 0.9366023 -0.2406984
36880 0.9311610 -0.2501973 0.0688390 0.2501973 0.0688390 0.2501973 0.9311610 -0.2501973
38569 0.9252872 -0.2599407 0.0747128 0.2599407 0.0747128 0.2599407 0.9252872 -0.2599407
40335 0.9189528 -0.2699172 0.0810472 0.2699172 0.0810472 0.2699172 0.9189528 -0.2699172
42182 0.9121291 -0.2801128 0.0878709 0.2801128 0.0878709 0.2801128 0.9121291 -0.2801128
44113 0.9047869 -0.2905105 0.0952131 0.2905105 0.0952131 0.2905105 0.9047869 -0.2905105
46134 0.8968969 -0.3010899 0.1031031 0.3010899 0.1031031 0.3010899 0.8968969 -0.3010899
48246 0.8884299 -0.3118274 0.1115701 0.3118274 0.1115701 0.3118274 0.8884299 -0.3118274
50455 0.8793571 -0.3226952 0.1206429 0.3226952 0.1206429 0.3226952 0.8793571 -0.3226952
52766 0.8696508 -0.3336621 0.1303492 0.3336621 0.1303492 0.3336621 0.8696508 -0.3336621
55182 0.8592845 -0.3446925 0.1407155 0.3446925 0.1407155 0.3446925 0.8592845 -0.3446925
57709 0.8482338 -0.3557468 0.1517662 0.3557468 0.1517662 0.3557468 0.8482338 -0.3557468
60352 0.8364765 -0.3667812 0.1635235 0.3667812 0.1635235 0.3667812 0.8364765 -0.3667812
63115 0.8239937 -0.3777477 0.1760063 0.3777477 0.1760063 0.3777477 0.8239937 -0.3777477
66005 0.8107703 -0.3885945 0.1892297 0.3885945 0.1892297 0.3885945 0.8107703 -0.3885945
69028 0.7967953 -0.3992660 0.2032047 0.3992660 0.2032047 0.3992660 0.7967953 -0.3992660
72189 0.7820631 -0.4097030 0.2179369 0.4097030 0.2179369 0.4097030 0.7820631 -0.4097030
75495 0.7665736 -0.4198436 0.2334264 0.4198436 0.2334264 0.4198436 0.7665736 -0.4198436
78952 0.7503331 -0.4296236 0.2496669 0.4296236 0.2496669 0.4296236 0.7503331 -0.4296236
82567 0.7333549 -0.4389771 0.2666451 0.4389771 0.2666451 0.4389771 0.7333549 -0.4389771
86348 0.7156594 -0.4478375 0.2843406 0.4478375 0.2843406 0.4478375 0.7156594 -0.4478375
90302 0.6972749 -0.4561382 0.3027251 0.4561382 0.3027251 0.4561382 0.6972749 -0.4561382
94437 0.6782375 -0.4638142 0.3217625 0.4638142 0.3217625 0.4638142 0.6782375 -0.4638142
98762 0.6585912 -0.4708025 0.3414088 0.4708025 0.3414088 0.4708025 0.6585912 -0.4708025
103284 0.6383879 -0.4770439 0.3616121 0.4770439 0.3616121 0.4770439 0.6383879 -0.4770439
108014 0.6176869 -0.4824834 0.3823131 0.4824834 0.3823131 0.4824834 0.6176869 -0.4824834
112960 0.5965543 -0.4870722 0.4034457 0.4870722 0.4034457 0.4870722 0.5965543 -0.4870722
118133 0.5750626 -0.4907680 0.4249374 0.4907680 0.4249374 0.4907680 0.5750626 -0.4907680
123542 0.5532893 -0.4935363 0.4467107 0.4935363 0.4467107 0.4935363 0.5532893 -0.4935363
129199 0.5313162 -0.4953511 0.4686838 0.4953511 0.4686838 0.4953511 0.5313162 -0.4953511
135116 0.5092282 -0.4961956 0.4907718 0.4961956 0.4907718 0.4961956 0.5092282 -0.4961956
141303 0.4871117 -0.4960620 0.5128883 0.4960620 0.5128883 0.4960620 0.4871117 -0.4960620
147774 0.4650535 -0.4949527 0.5349465 0.4949527 0.5349465 0.4949527 0.4650535 -0.4949527
154540 0.4431392 -0.4928792 0.5568608 0.4928792 0.5568608 0.4928792 0.4431392 -0.4928792
161617 0.4214522 -0.4898625 0.5785478 0.4898625 0.5785478 0.4898625 0.4214522 -0.4898625
169018 0.4000722 -0.4859320 0.5999278 0.4859320 0.5999278 0.4859320 0.4000722 -0.4859320
176758 0.3790743 -0.4811256 0.6209257 0.4811256 0.6209257 0.4811256 0.3790743 -0.4811256
184852 0.3585278 -0.4754879 0.6414722 0.4754879 0.6414722 0.4754879 0.3585278 -0.4754879
193316 0.3384954 -0.4690699 0.6615046 0.4690699 0.6615046 0.4690699 0.3384954 -0.4690699
202169 0.3190330 -0.4619277 0.6809670 0.4619277 0.6809670 0.4619277 0.3190330 -0.4619277
211427 0.3001887 -0.4541214 0.6998113 0.4541214 0.6998113 0.4541214 0.3001887 -0.4541214
221108 0.2820032 -0.4457138 0.7179968 0.4457138 0.7179968 0.4457138 0.2820032 -0.4457138
231233 0.2645092 -0.4367697 0.7354908 0.4367697 0.7354908 0.4367697 0.2645092 -0.4367697
241822 0.2477319 -0.4273545 0.7522681 0.4273545 0.7522681 0.4273545 0.2477319 -0.4273545
252896 0.2316891 -0.4175335 0.7683109 0.4175335 0.7683109 0.4175335 0.2316891 -0.4175335
264476 0.2163918 -0.4073709 0.7836082 0.4073709 0.7836082 0.4073709 0.2163918 -0.4073709
276587 0.2018442 -0.3969290 0.7981558 0.3969290 0.7981558 0.3969290 0.2018442 -0.3969290
289253 0.1880450 -0.3862676 0.8119550 0.3862676 0.8119550 0.3862676 0.1880450 -0.3862676
302498 0.1749873 -0.3754437 0.8250127 0.3754437 0.8250127 0.3754437 0.1749873 -0.3754437
316350 0.1626596 -0.3645109 0.8373404 0.3645109 0.8373404 0.3645109 0.1626596 -0.3645109
330837 0.1510464 -0.3535191 0.8489536 0.3535191 0.8489536 0.3535191 0.1510464 -0.3535191
345986 0.1401288 -0.3425142 0.8598712 0.3425142 0.8598712 0.3425142 0.1401288 -0.3425142
361830 0.1298848 -0.3315385 0.8701152 0.3315385 0.8701152 0.3315385 0.1298848 -0.3315385
378399 0.1202904 -0.3206299 0.8797096 0.3206299 0.8797096 0.3206299 0.1202904 -0.3206299
395726 0.1113198 -0.3098226 0.8886802 0.3098226 0.8886802 0.3098226 0.1113198 -0.3098226
413847 0.1029459 -0.2991470 0.8970541 0.2991470 0.8970541 0.2991470 0.1029459 -0.2991470
432798 0.0951408 -0.2886296 0.9048592 0.2886296 0.9048592 0.2886296 0.0951408 -0.2886296
452617 0.0878759 -0.2782937 0.9121241 0.2782937 0.9121241 0.2782937 0.0878759 -0.2782937
473344 0.0811229 -0.2681588 0.9188771 0.2681588 0.9188771 0.2681588 0.0811229 -0.2681588
495019 0.0748532 -0.2582417 0.9251468 0.2582417 0.9251468 0.2582417 0.0748532 -0.2582417
517687 0.0690390 -0.2485562 0.9309610 0.2485562 0.9309610 0.2485562 0.0690390 -0.2485562
541393 0.0636528 -0.2391133 0.9363472 0.2391133 0.9363472 0.2391133 0.0636528 -0.2391133
566185 0.0586681 -0.2299219 0.9413319 0.2299219 0.9413319 0.2299219 0.0586681 -0.2299219
592111 0.0540590 -0.2209883 0.9459410 0.2209883 0.9459410 0.2209883 0.0540590 -0.2209883
619225 0.0498009 -0.2123171 0.9501991 0.2123171 0.9501991 0.2123171 0.0498009 -0.2123171
647581 0.0458700 -0.2039111 0.9541300 0.2039111 0.9541300 0.2039111 0.0458700 -0.2039111
677235 0.0422438 -0.1957716 0.9577562 0.1957716 0.9577562 0.1957716 0.0422438 -0.1957716
708247 0.0389007 -0.1878983 0.9610993 0.1878983 0.9610993 0.1878983 0.0389007 -0.1878983
740679 0.0358206 -0.1802900 0.9641794 0.1802900 0.9641794 0.1802900 0.0358206 -0.1802900
774597 0.0329843 -0.1729443 0.9670157 0.1729443 0.9670157 0.1729443 0.0329843 -0.1729443
810067 0.0303736 -0.1658578 0.9696264 0.1658578 0.9696264 0.1658578 0.0303736 -0.1658578
847162 0.0279717 -0.1590265 0.9720283 0.1590265 0.9720283 0.1590265 0.0279717 -0.1590265
885955 0.0257628 -0.1524458 0.9742372 0.1524458 0.9742372 0.1524458 0.0257628 -0.1524458
926525 0.0237319 -0.1461105 0.9762681 0.1461105 0.9762681 0.1461105 0.0237319 -0.1461105
968953 0.0218653 -0.1400148 0.9781347 0.1400148 0.9781347 0.1400148 0.0218653 -0.1400148
1013323 0.0201500 -0.1341528 0.9798500 0.1341528 0.9798500 0.1341528 0.0201500 -0.1341528
1059725 0.0185742 -0.1285184 0.9814258 0.1285184 0.9814258 0.1285184 0.0185742 -0.1285184
1108252 0.0171267 -0.1231049 0.9828733 0.1231049 0.9828733 0.1231049 0.0171267 -0.1231049
1159002 0.0157972 -0.1179059 0.9842028 0.1179059 0.9842028 0.1179059 0.0157972 -0.1179059
1212075 0.0145761 -0.1129146 0.9854239 0.1129146 0.9854239 0.1129146 0.0145761 -0.1129146
1267578 0.0134546 -0.1081244 0.9865454 0.1081244 0.9865454 0.1081244 0.0134546 -0.1081244
1325623 0.0124246 -0.1035284 0.9875754 0.1035284 0.9875754 0.1035284 0.0124246 -0.1035284
1386327 0.0114785 -0.0991201 0.9885215 0.0991201 0.9885215 0.0991201 0.0114785 -0.0991201
1449809 0.0106094 -0.0948927 0.9893906 0.0948927 0.9893906 0.0948927 0.0106094 -0.0948927
1516199 0.0098110 -0.0908398 0.9901890 0.0908398 0.9901890 0.0908398 0.0098110 -0.0908398
1585629 0.0090773 -0.0869549 0.9909227 0.0869549 0.9909227 0.0869549 0.0090773 -0.0869549
1658239 0.0084030 -0.0832316 0.9915970 0.0832316 0.9915970 0.0832316 0.0084030 -0.0832316
1734173 0.0077831 -0.0796638 0.9922169 0.0796638 0.9922169 0.0796638 0.0077831 -0.0796638
1813585 0.0072130 -0.0762454 0.9927870 0.0762454 0.9927870 0.0762454 0.0072130 -0.0762454
1896632 0.0066887 -0.0729705 0.9933113 0.0729705 0.9933113 0.0729705 0.0066887 -0.0729705
1983483 0.0062063 -0.0698335 0.9937937 0.0698335 0.9937937 0.0698335 0.0062063 -0.0698335
2074311 0.0057622 -0.0668288 0.9942378 0.0668288 0.9942378 0.0668288 0.0057622 -0.0668288
