!  American Technical Ceramics  Date:    3/13/98
!  One Norden Lane
!  Huntington Station,  NY.   11746-2102
!  Tel:  (516) 547-5700               Fax:  (516) 547-5748
!  Part Number  100A180F
!  Description: Porcelain, High Q, Low ESR
!  Application: Bypass, Coupling, Timing, Feedback
!               Tuning, Impedance Match, Blocking
# GHZ S DB R 50
! Freq   |S11|   S11 Ph  |S21|   S21 Ph  |S12|   S12 Ph  |S22|   S22 Ph
    0.05   -1.15  -29.21   -6.12   60.57   -6.12   60.57   -1.15  -29.21
    0.11   -4.12  -51.39   -2.10   38.34   -2.10   38.34   -4.12  -51.39
    0.17   -6.79  -63.59   -1.01   26.93   -1.01   26.93   -6.79  -63.59
    0.24   -9.08  -69.97   -0.56   20.56   -0.56   20.56   -9.08  -69.97
    0.30  -10.94  -74.48   -0.34   16.39   -0.34   16.39  -10.94  -74.48
    0.36  -12.56  -77.50   -0.22   13.65   -0.22   13.65  -12.56  -77.50
    0.42  -13.89  -79.88   -0.16   11.49   -0.16   11.49  -13.89  -79.88
    0.48  -15.13  -81.40   -0.11    9.94   -0.11    9.94  -15.13  -81.40
    0.54  -16.46  -82.57   -0.10    8.41   -0.10    8.41  -16.46  -82.57
    0.61  -17.45  -83.93   -0.08    7.41   -0.08    7.41  -17.45  -83.93
    0.67  -18.37  -84.66   -0.07    6.79   -0.07    6.79  -18.37  -84.66
    0.73  -19.25  -85.29   -0.04    6.07   -0.04    6.07  -19.25  -85.29
    0.79  -20.04  -86.18   -0.05    5.62   -0.05    5.62  -20.04  -86.18
    0.85  -20.84  -86.80   -0.03    5.05   -0.03    5.05  -20.84  -86.80
    0.91  -21.60  -87.31   -0.03    4.63   -0.03    4.63  -21.60  -87.31
    0.98  -22.29  -88.19   -0.01    4.13   -0.01    4.13  -22.29  -88.19
    1.04  -23.03  -88.31   -0.03    3.90   -0.03    3.90  -23.03  -88.31
    1.10  -23.75  -89.05   -0.01    3.60   -0.01    3.60  -23.75  -89.05
    1.16  -24.35  -89.40   -0.02    3.14   -0.02    3.14  -24.35  -89.40
    1.22  -25.08  -89.29   -0.02    2.93   -0.02    2.93  -25.08  -89.29
    1.29  -25.76  -89.63   -0.01    2.61   -0.01    2.61  -25.76  -89.63
    1.35  -26.43  -89.97   -0.01    2.48   -0.01    2.48  -26.43  -89.97
    1.41  -27.15  -89.79    0.00    2.25    0.00    2.25  -27.15  -89.79
    1.47  -27.91  -90.71    0.00    2.04    0.00    2.04  -27.91  -90.71
    1.53  -28.65  -90.04    0.00    1.85    0.00    1.85  -28.65  -90.04
    1.59  -29.50  -91.12    0.00    1.60    0.00    1.60  -29.50  -91.12
    1.66  -30.16  -90.14    0.00    1.37    0.00    1.37  -30.16  -90.14
    1.72  -31.04  -89.68   -0.01    1.12   -0.01    1.12  -31.04  -89.68
    1.78  -32.07  -89.61    0.00    1.06    0.00    1.06  -32.07  -89.61
    1.84  -33.04  -89.45   -0.01    0.86   -0.01    0.86  -33.04  -89.45
    1.90  -33.91  -88.51    0.00    0.79    0.00    0.79  -33.91  -88.51
    1.96  -35.09  -87.64    0.00    0.53    0.00    0.53  -35.09  -87.64
    2.03  -36.55  -85.49   -0.02    0.49   -0.02    0.49  -36.55  -85.49
    2.09  -38.26  -84.42   -0.03    0.32   -0.03    0.32  -38.26  -84.42
    2.15  -39.47  -84.46   -0.03    0.21   -0.03    0.21  -39.47  -84.46
    2.21  -41.45  -77.03   -0.02    0.00   -0.02    0.00  -41.45  -77.03
    2.27  -44.11  -70.53   -0.01    0.03   -0.01    0.03  -44.11  -70.53
    2.33  -47.19  -59.82   -0.03   -0.04   -0.03   -0.04  -47.19  -59.82
    2.40  -49.93  -30.15   -0.01   -0.28   -0.01   -0.28  -49.93  -30.15
    2.46  -51.10    2.53   -0.02   -0.38   -0.02   -0.38  -51.10    2.53
    2.52  -48.16   29.32   -0.01   -0.40   -0.01   -0.40  -48.16   29.32
    2.58  -45.80   47.34   -0.01   -0.56   -0.01   -0.56  -45.80   47.34
    2.64  -43.25   58.49   -0.04   -0.59   -0.04   -0.59  -43.25   58.49
    2.71  -41.39   60.46   -0.04   -0.70   -0.04   -0.70  -41.39   60.46
    2.77  -39.82   63.15   -0.02   -0.82   -0.02   -0.82  -39.82   63.15
    2.83  -38.83   64.18   -0.02   -0.87   -0.02   -0.87  -38.83   64.18
    2.89  -37.47   66.78   -0.02   -0.93   -0.02   -0.93  -37.47   66.78
    2.95  -36.61   67.10   -0.02   -1.13   -0.02   -1.13  -36.61   67.10
    3.01  -35.82   68.03   -0.02   -1.43   -0.02   -1.43  -35.82   68.03
    3.08  -34.98   69.06   -0.03   -1.48   -0.03   -1.48  -34.98   69.06
    3.14  -34.41   68.03   -0.04   -1.38   -0.04   -1.38  -34.41   68.03
    3.20  -33.77   69.06   -0.04   -1.53   -0.04   -1.53  -33.77   69.06
    3.26  -33.04   68.28   -0.02   -1.75   -0.02   -1.75  -33.04   68.28
    3.32  -32.88   69.04   -0.03   -1.76   -0.03   -1.76  -32.88   69.04
    3.38  -32.37   68.49   -0.05   -1.91   -0.05   -1.91  -32.37   68.49
    3.45  -32.05   68.33   -0.03   -1.94   -0.03   -1.94  -32.05   68.33
    3.51  -31.81   68.47   -0.03   -1.83   -0.03   -1.83  -31.81   68.47
    3.57  -31.40   68.25   -0.03   -2.17   -0.03   -2.17  -31.40   68.25
    3.63  -31.08   68.80   -0.04   -2.07   -0.04   -2.07  -31.08   68.80
    3.69  -31.18   68.11   -0.04   -2.33   -0.04   -2.33  -31.18   68.11
    3.76  -30.80   67.82   -0.06   -2.31   -0.06   -2.31  -30.80   67.82
    3.82  -30.61   67.35   -0.03   -2.60   -0.03   -2.60  -30.61   67.35
    3.88  -30.74   67.13   -0.03   -2.54   -0.03   -2.54  -30.74   67.13
    3.94  -30.54   67.21   -0.05   -2.58   -0.05   -2.58  -30.54   67.21
    4.00  -29.86   68.59   -0.07   -2.63   -0.07   -2.63  -29.86   68.59
    4.06  -29.69   68.73   -0.06   -2.76   -0.06   -2.76  -29.69   68.73
    4.13  -29.60   68.37   -0.05   -2.82   -0.05   -2.82  -29.60   68.37
    4.19  -29.50   68.16   -0.05   -2.99   -0.05   -2.99  -29.50   68.16
    4.25  -29.28   69.09   -0.07   -2.76   -0.07   -2.76  -29.28   69.09
    4.31  -29.22   69.45   -0.05   -3.10   -0.05   -3.10  -29.22   69.45
    4.37  -28.85   70.69   -0.06   -3.08   -0.06   -3.08  -28.85   70.69
    4.43  -29.00   69.65   -0.08   -3.20   -0.08   -3.20  -29.00   69.65
    4.50  -28.66   69.96   -0.09   -3.25   -0.09   -3.25  -28.66   69.96
    4.56  -28.40   70.54   -0.05   -3.40   -0.05   -3.40  -28.40   70.54
    4.62  -28.40   70.60   -0.08   -3.46   -0.08   -3.46  -28.40   70.60
    4.68  -28.23   70.08   -0.07   -3.56   -0.07   -3.56  -28.23   70.08
    4.74  -28.04   70.59   -0.07   -3.60   -0.07   -3.60  -28.04   70.59
    4.80  -27.91   70.47   -0.10   -3.79   -0.10   -3.79  -27.91   70.47
    4.87  -27.61   70.71   -0.09   -3.81   -0.09   -3.81  -27.61   70.71
    4.93  -27.53   71.56   -0.10   -4.00   -0.10   -4.00  -27.53   71.56
    4.99  -27.24   70.50   -0.08   -4.18   -0.08   -4.18  -27.24   70.50
    5.05  -26.91   71.34   -0.09   -4.29   -0.09   -4.29  -26.91   71.34
    5.11  -26.73   71.15   -0.06   -4.50   -0.06   -4.50  -26.73   71.15
    5.18  -26.52   70.03   -0.09   -4.69   -0.09   -4.69  -26.52   70.03
    5.24  -26.24   70.62   -0.11   -4.65   -0.11   -4.65  -26.24   70.62
    5.30  -25.88   70.98   -0.11   -4.85   -0.11   -4.85  -25.88   70.98
    5.36  -25.71   70.32   -0.13   -4.79   -0.13   -4.79  -25.71   70.32
    5.42  -25.38   70.04   -0.10   -5.14   -0.10   -5.14  -25.38   70.04
    5.48  -24.84   70.07   -0.13   -5.10   -0.13   -5.10  -24.84   70.07
    5.55  -24.55   69.21   -0.11   -5.30   -0.11   -5.30  -24.55   69.21
    5.61  -24.26   68.73   -0.14   -5.56   -0.14   -5.56  -24.26   68.73
    5.67  -23.77   68.86   -0.15   -5.90   -0.15   -5.90  -23.77   68.86
    5.73  -23.15   68.61   -0.16   -5.85   -0.16   -5.85  -23.15   68.61
    5.79  -22.64   67.96   -0.16   -6.34   -0.16   -6.34  -22.64   67.96
    5.85  -22.00   66.81   -0.16   -6.52   -0.16   -6.52  -22.00   66.81
    5.92  -21.32   65.46   -0.20   -7.12   -0.20   -7.12  -21.32   65.46
    5.98  -20.42   64.33   -0.24   -7.29   -0.24   -7.29  -20.42   64.33
    6.04  -19.62   61.49   -0.27   -8.02   -0.27   -8.02  -19.62   61.49
    6.10  -18.58   58.84   -0.35   -8.74   -0.35   -8.74  -18.58   58.84
    6.16  -17.34   54.29   -0.45   -9.74   -0.45   -9.74  -17.34   54.29
    6.23  -15.82   48.18   -0.67  -10.79   -0.67  -10.79  -15.82   48.18
    6.29  -14.19   36.81   -1.09  -11.87   -1.09  -11.87  -14.19   36.81
    6.35  -12.72   17.29   -1.89  -10.54   -1.89  -10.54  -12.72   17.29
    6.41  -12.76  -11.02   -2.40   -3.44   -2.40   -3.44  -12.76  -11.02
    6.47  -15.08  -35.25   -1.64    2.37   -1.64    2.37  -15.08  -35.25
    6.53  -18.76  -50.22   -0.95    2.46   -0.95    2.46  -18.76  -50.22
    6.60  -22.34  -55.13   -0.60    1.30   -0.60    1.30  -22.34  -55.13
    6.66  -26.05  -51.93   -0.44    0.07   -0.44    0.07  -26.05  -51.93
    6.72  -29.33  -41.62   -0.34   -0.88   -0.34   -0.88  -29.33  -41.62
    6.78  -31.90  -21.49   -0.30   -1.49   -0.30   -1.49  -31.90  -21.49
    6.84  -32.45    2.70   -0.27   -2.01   -0.27   -2.01  -32.45    2.70
    6.90  -31.48   20.63   -0.23   -2.49   -0.23   -2.49  -31.48   20.63
    6.97  -30.16   31.22   -0.23   -2.89   -0.23   -2.89  -30.16   31.22
    7.03  -29.04   38.15   -0.25   -2.99   -0.25   -2.99  -29.04   38.15
    7.09  -27.89   44.02   -0.24   -3.32   -0.24   -3.32  -27.89   44.02
    7.15  -26.77   45.90   -0.26   -3.53   -0.26   -3.53  -26.77   45.90
    7.21  -25.74   46.92   -0.24   -3.79   -0.24   -3.79  -25.74   46.92
    7.27  -25.12   48.27   -0.26   -4.11   -0.26   -4.11  -25.12   48.27
    7.34  -24.52   47.81   -0.26   -4.15   -0.26   -4.15  -24.52   47.81
    7.40  -23.72   47.61   -0.26   -4.27   -0.26   -4.27  -23.72   47.61
    7.46  -23.48   49.12   -0.27   -4.49   -0.27   -4.49  -23.48   49.12
    7.52  -23.06   47.94   -0.29   -4.45   -0.29   -4.45  -23.06   47.94
    7.58  -22.47   47.64   -0.29   -4.59   -0.29   -4.59  -22.47   47.64
    7.65  -22.35   48.95   -0.31   -4.65   -0.31   -4.65  -22.35   48.95
    7.71  -22.01   49.14   -0.31   -4.77   -0.31   -4.77  -22.01   49.14
    7.77  -21.61   48.98   -0.28   -4.67   -0.28   -4.67  -21.61   48.98
    7.83  -21.45   50.04   -0.30   -4.92   -0.30   -4.92  -21.45   50.04
    7.89  -20.97   51.29   -0.31   -4.83   -0.31   -4.83  -20.97   51.29
    7.95  -20.71   50.89   -0.30   -4.96   -0.30   -4.96  -20.71   50.89
    8.02  -20.53   50.92   -0.32   -5.07   -0.32   -5.07  -20.53   50.92
    8.08  -20.14   52.56   -0.33   -5.03   -0.33   -5.03  -20.14   52.56
    8.14  -19.84   51.88   -0.32   -5.26   -0.32   -5.26  -19.84   51.88
    8.20  -19.64   52.40   -0.33   -5.31   -0.33   -5.31  -19.64   52.40
    8.26  -19.45   52.01   -0.33   -5.44   -0.33   -5.44  -19.45   52.01
    8.32  -19.16   52.87   -0.34   -5.29   -0.34   -5.29  -19.16   52.87
    8.39  -18.94   53.52   -0.35   -5.30   -0.35   -5.30  -18.94   53.52
    8.45  -18.84   54.08   -0.35   -5.51   -0.35   -5.51  -18.84   54.08
    8.51  -18.52   53.49   -0.33   -5.69   -0.33   -5.69  -18.52   53.49
    8.57  -18.25   54.31   -0.32   -5.69   -0.32   -5.69  -18.25   54.31
    8.63  -18.15   54.51   -0.32   -5.71   -0.32   -5.71  -18.15   54.51
    8.70  -17.98   55.57   -0.34   -5.55   -0.34   -5.55  -17.98   55.57
    8.76  -17.83   54.75   -0.33   -5.81   -0.33   -5.81  -17.83   54.75
    8.82  -17.56   56.46   -0.34   -5.69   -0.34   -5.69  -17.56   56.46
    8.88  -17.37   56.30   -0.33   -5.99   -0.33   -5.99  -17.37   56.30
    8.94  -17.18   55.60   -0.34   -5.85   -0.34   -5.85  -17.18   55.60
    9.00  -16.95   55.42   -0.34   -5.96   -0.34   -5.96  -16.95   55.42
    9.07  -16.84   56.63   -0.39   -6.21   -0.39   -6.21  -16.84   56.63
    9.13  -16.77   55.99   -0.38   -6.15   -0.38   -6.15  -16.77   55.99
    9.19  -16.67   55.57   -0.35   -6.00   -0.35   -6.00  -16.67   55.57
    9.25  -16.51   55.72   -0.35   -6.22   -0.35   -6.22  -16.51   55.72
    9.31  -16.45   56.49   -0.38   -6.08   -0.38   -6.08  -16.45   56.49
    9.37  -16.35   56.18   -0.37   -6.21   -0.37   -6.21  -16.35   56.18
    9.44  -16.38   56.65   -0.37   -6.14   -0.37   -6.14  -16.38   56.65
    9.50  -16.19   56.51   -0.35   -6.24   -0.35   -6.24  -16.19   56.51
    9.56  -16.04   57.34   -0.35   -6.21   -0.35   -6.21  -16.04   57.34
    9.62  -16.13   57.22   -0.37   -6.09   -0.37   -6.09  -16.13   57.22
    9.68  -15.99   56.69   -0.36   -6.32   -0.36   -6.32  -15.99   56.69
    9.74  -15.94   57.33   -0.38   -6.45   -0.38   -6.45  -15.94   57.33
    9.81  -15.83   58.62   -0.33   -6.30   -0.33   -6.30  -15.83   58.62
    9.87  -15.79   57.80   -0.35   -6.58   -0.35   -6.58  -15.79   57.80
    9.93  -15.73   58.83   -0.33   -6.44   -0.33   -6.44  -15.73   58.83
    9.99  -15.60   58.43   -0.36   -6.57   -0.36   -6.57  -15.60   58.43
   10.05  -15.53   59.28   -0.35   -6.48   -0.35   -6.48  -15.53   59.28
   10.12  -15.57   58.52   -0.37   -6.62   -0.37   -6.62  -15.57   58.52
   10.18  -15.45   58.95   -0.33   -6.87   -0.33   -6.87  -15.45   58.95
   10.24  -15.38   59.24   -0.35   -6.55   -0.35   -6.55  -15.38   59.24
   10.30  -15.33   60.04   -0.33   -6.76   -0.33   -6.76  -15.33   60.04
   10.36  -15.31   59.40   -0.35   -7.00   -0.35   -7.00  -15.31   59.40
   10.42  -15.27   59.97   -0.36   -6.95   -0.36   -6.95  -15.27   59.97
   10.49  -15.07   59.92   -0.35   -7.02   -0.35   -7.02  -15.07   59.92
   10.55  -15.10   60.43   -0.34   -7.09   -0.34   -7.09  -15.10   60.43
   10.61  -15.02   59.91   -0.36   -7.16   -0.36   -7.16  -15.02   59.91
   10.67  -14.91   60.22   -0.34   -7.42   -0.34   -7.42  -14.91   60.22
   10.73  -14.85   59.98   -0.37   -7.37   -0.37   -7.37  -14.85   59.98
   10.79  -14.72   60.22   -0.35   -7.69   -0.35   -7.69  -14.72   60.22
   10.86  -14.60   59.41   -0.38   -7.79   -0.38   -7.79  -14.60   59.41
   10.92  -14.58   59.46   -0.39   -7.99   -0.39   -7.99  -14.58   59.46
   10.98  -14.42   59.03   -0.40   -8.08   -0.40   -8.08  -14.42   59.03
   11.04  -14.21   58.46   -0.40   -8.24   -0.40   -8.24  -14.21   58.46
   11.10  -14.25   57.58   -0.42   -8.52   -0.42   -8.52  -14.25   57.58
   11.17  -14.07   56.98   -0.46   -8.71   -0.46   -8.71  -14.07   56.98
   11.23  -13.83   55.91   -0.54   -8.99   -0.54   -8.99  -13.83   55.91
   11.29  -13.78   54.68   -0.52   -9.26   -0.52   -9.26  -13.78   54.68
   11.35  -13.61   51.93   -0.60   -9.47   -0.60   -9.47  -13.61   51.93
   11.41  -13.37   49.62   -0.69   -9.83   -0.69   -9.83  -13.37   49.62
   11.47  -13.26   45.92   -0.85   -9.70   -0.85   -9.70  -13.26   45.92
   11.54  -13.32   40.29   -1.01   -9.60   -1.01   -9.60  -13.32   40.29
   11.60  -13.72   34.15   -1.19   -8.69   -1.19   -8.69  -13.72   34.15
   11.66  -14.64   27.87   -1.29   -6.64   -1.29   -6.64  -14.64   27.87
   11.72  -16.09   24.24   -1.20   -4.71   -1.20   -4.71  -16.09   24.24
   11.78  -17.78   27.23   -1.00   -3.86   -1.00   -3.86  -17.78   27.23
   11.84  -18.95   34.27   -0.81   -3.63   -0.81   -3.63  -18.95   34.27
   11.91  -19.29   42.19   -0.63   -3.42   -0.63   -3.42  -19.29   42.19
   11.97  -19.02   49.15   -0.53   -4.10   -0.53   -4.10  -19.02   49.15
   12.03  -18.84   52.96   -0.49   -4.35   -0.49   -4.35  -18.84   52.96
   12.09  -18.44   54.87   -0.40   -4.83   -0.40   -4.83  -18.44   54.87
   12.15  -18.05   56.42   -0.38   -5.23   -0.38   -5.23  -18.05   56.42
   12.21  -17.68   57.47   -0.37   -5.38   -0.37   -5.38  -17.68   57.47
   12.28  -17.60   57.68   -0.33   -5.75   -0.33   -5.75  -17.60   57.68
   12.34  -17.30   57.71   -0.32   -6.06   -0.32   -6.06  -17.30   57.71
   12.40  -17.08   57.85   -0.30   -6.26   -0.30   -6.26  -17.08   57.85
