!  American Technical Ceramics  Date:    3/13/98
!  One Norden Lane
!  Huntington Station,  NY.   11746-2102
!  Tel:  (516) 547-5700               Fax:  (516) 547-5748
!  Part Number  100b221f
!  Description: Porcelain, High Q, Low ESR
!  Application: Bypass, Coupling, Timing, Feedback
!               Tuning, Impedance Match, Blocking
# GHZ S DB R 50
! Freq   |S11|   S11 Ph  |S21|   S21 Ph  |S12|   S12 Ph  |S22|   S22 Ph
    0.05  -16.38  -82.27   -0.08    8.46   -0.08    8.46  -16.38  -82.27
    0.07  -19.33  -85.21   -0.01    6.18   -0.01    6.18  -19.33  -85.21
    0.09  -21.36  -85.48    0.00    4.71    0.00    4.71  -21.36  -85.48
    0.11  -22.76  -85.73   -0.01    3.93   -0.01    3.93  -22.76  -85.73
    0.13  -24.09  -87.97    0.02    2.87    0.02    2.87  -24.09  -87.97
    0.15  -25.23  -89.39    0.04    2.77    0.04    2.77  -25.23  -89.39
    0.17  -26.06  -89.14    0.01    2.25    0.01    2.25  -26.06  -89.14
    0.19  -26.89  -88.71    0.03    2.18    0.03    2.18  -26.89  -88.71
    0.21  -27.37  -90.05    0.03    1.85    0.03    1.85  -27.37  -90.05
    0.23  -27.78  -89.15    0.03    1.50    0.03    1.50  -27.78  -89.15
    0.25  -28.19  -89.73    0.02    1.28    0.02    1.28  -28.19  -89.73
    0.27  -28.44  -90.52    0.02    1.33    0.02    1.33  -28.44  -90.52
    0.29  -28.82  -90.93    0.03    1.08    0.03    1.08  -28.82  -90.93
    0.31  -29.08  -90.92    0.03    0.93    0.03    0.93  -29.08  -90.92
    0.33  -29.26  -90.48    0.03    0.65    0.03    0.65  -29.26  -90.48
    0.35  -29.35  -90.84    0.03    0.56    0.03    0.56  -29.35  -90.84
    0.37  -29.33  -91.21    0.02    0.52    0.02    0.52  -29.33  -91.21
    0.39  -29.50  -91.72    0.03    0.36    0.03    0.36  -29.50  -91.72
    0.41  -29.63  -92.20    0.03    0.26    0.03    0.26  -29.63  -92.20
    0.43  -29.63  -91.97    0.02    0.31    0.02    0.31  -29.63  -91.97
    0.45  -29.68  -92.37    0.01    0.17    0.01    0.17  -29.68  -92.37
    0.46  -29.53  -91.95    0.04    0.15    0.04    0.15  -29.53  -91.95
    0.48  -29.44  -93.05    0.02   -0.04    0.02   -0.04  -29.44  -93.05
    0.50  -29.27  -93.94    0.01   -0.09    0.01   -0.09  -29.27  -93.94
    0.52  -29.34  -94.05    0.01   -0.18    0.01   -0.18  -29.34  -94.05
    0.54  -29.21  -92.93    0.03   -0.26    0.03   -0.26  -29.21  -92.93
    0.56  -28.96  -95.00    0.02   -0.13    0.02   -0.13  -28.96  -95.00
    0.58  -29.11  -94.98    0.03   -0.45    0.03   -0.45  -29.11  -94.98
    0.60  -29.02  -94.97    0.01   -0.48    0.01   -0.48  -29.02  -94.97
    0.62  -28.79  -94.18    0.01   -0.63    0.01   -0.63  -28.79  -94.18
    0.64  -28.63  -94.87    0.02   -0.55    0.02   -0.55  -28.63  -94.87
    0.66  -28.56  -95.65    0.02   -0.66    0.02   -0.66  -28.56  -95.65
    0.68  -28.47  -95.70    0.02   -0.71    0.02   -0.71  -28.47  -95.70
    0.70  -28.48  -94.88    0.02   -0.75    0.02   -0.75  -28.48  -94.88
    0.72  -28.28  -95.42    0.01   -0.90    0.01   -0.90  -28.28  -95.42
    0.74  -28.07  -96.40    0.00   -0.74    0.00   -0.74  -28.07  -96.40
    0.76  -28.00  -96.73    0.01   -0.88    0.01   -0.88  -28.00  -96.73
    0.78  -27.96  -96.78    0.01   -0.99    0.01   -0.99  -27.96  -96.78
    0.80  -27.80  -96.63    0.01   -1.07    0.01   -1.07  -27.80  -96.63
    0.82  -27.70  -96.54    0.01   -1.06    0.01   -1.06  -27.70  -96.54
    0.84  -27.56  -96.87    0.02   -1.14    0.02   -1.14  -27.56  -96.87
    0.86  -27.56  -97.32    0.00   -1.21    0.00   -1.21  -27.56  -97.32
    0.88  -27.43  -97.28    0.01   -1.19    0.01   -1.19  -27.43  -97.28
    0.90  -27.27  -96.99    0.01   -1.18    0.01   -1.18  -27.27  -96.99
    0.92  -27.01  -97.75    0.01   -1.33    0.01   -1.33  -27.01  -97.75
    0.94  -26.97  -98.65    0.01   -1.45    0.01   -1.45  -26.97  -98.65
    0.96  -26.93  -98.95    0.01   -1.39    0.01   -1.39  -26.93  -98.95
    0.98  -26.77  -98.68    0.00   -1.55    0.00   -1.55  -26.77  -98.68
    1.00  -26.69  -98.77    0.01   -1.71    0.01   -1.71  -26.69  -98.77
    1.02  -26.63  -99.28    0.01   -1.60    0.01   -1.60  -26.63  -99.28
    1.04  -26.53  -99.13    0.00   -1.65    0.00   -1.65  -26.53  -99.13
    1.06  -26.42  -99.61    0.00   -1.86    0.00   -1.86  -26.42  -99.61
    1.08  -26.36  -99.79    0.01   -1.73    0.01   -1.73  -26.36  -99.79
    1.10  -26.30  -99.61    0.01   -1.96    0.01   -1.96  -26.30  -99.61
    1.12  -26.16  -99.73    0.01   -2.00    0.01   -2.00  -26.16  -99.73
    1.14  -26.05 -100.34   -0.01   -1.93   -0.01   -1.93  -26.05 -100.34
    1.16  -26.04 -100.93    0.01   -2.02    0.01   -2.02  -26.04 -100.93
    1.18  -26.06 -101.40    0.00   -2.18    0.00   -2.18  -26.06 -101.40
    1.20  -26.09 -101.59   -0.02   -2.15   -0.02   -2.15  -26.09 -101.59
    1.22  -26.01 -100.63   -0.01   -2.22   -0.01   -2.22  -26.01 -100.63
    1.24  -26.10 -101.34   -0.01   -2.38   -0.01   -2.38  -26.10 -101.34
    1.25  -26.20 -101.63   -0.02   -2.53   -0.02   -2.53  -26.20 -101.63
    1.27  -26.41 -100.81    0.00   -2.63    0.00   -2.63  -26.41 -100.81
    1.29  -26.42 -100.45    0.00   -2.83    0.00   -2.83  -26.42 -100.45
    1.31  -26.68 -101.09   -0.02   -2.89   -0.02   -2.89  -26.68 -101.09
    1.33  -27.33 -101.17   -0.03   -3.20   -0.03   -3.20  -27.33 -101.17
    1.35  -28.54  -97.95   -0.04   -3.55   -0.04   -3.55  -28.54  -97.95
    1.37  -30.39  -86.53   -0.10   -4.08   -0.10   -4.08  -30.39  -86.53
    1.39  -30.42  -41.96   -0.26   -5.14   -0.26   -5.14  -30.42  -41.96
    1.41  -21.38  -30.94   -0.74   -4.42   -0.74   -4.42  -21.38  -30.94
    1.43  -18.30  -68.29   -0.60    0.16   -0.60    0.16  -18.30  -68.29
    1.45  -19.37  -86.85   -0.25    0.05   -0.25    0.05  -19.37  -86.85
    1.47  -20.23  -93.36   -0.12   -0.72   -0.12   -0.72  -20.23  -93.36
    1.49  -20.74  -96.65   -0.07   -1.04   -0.07   -1.04  -20.74  -96.65
    1.51  -21.09  -98.42   -0.05   -1.42   -0.05   -1.42  -21.09  -98.42
    1.53  -21.30  -99.71   -0.06   -1.67   -0.06   -1.67  -21.30  -99.71
    1.55  -21.43 -100.67   -0.05   -1.80   -0.05   -1.80  -21.43 -100.67
    1.57  -21.49 -100.80   -0.03   -1.81   -0.03   -1.81  -21.49 -100.80
    1.59  -21.56 -101.38   -0.02   -2.03   -0.02   -2.03  -21.56 -101.38
    1.61  -21.56 -101.99   -0.03   -2.04   -0.03   -2.04  -21.56 -101.99
    1.63  -21.57 -102.40   -0.04   -2.22   -0.04   -2.22  -21.57 -102.40
    1.65  -21.63 -102.26   -0.03   -2.19   -0.03   -2.19  -21.63 -102.26
    1.67  -21.52 -102.49   -0.03   -2.22   -0.03   -2.22  -21.52 -102.49
    1.69  -21.44 -102.91   -0.02   -2.39   -0.02   -2.39  -21.44 -102.91
    1.71  -21.42 -103.50   -0.04   -2.31   -0.04   -2.31  -21.42 -103.50
    1.73  -21.39 -103.49   -0.01   -2.62   -0.01   -2.62  -21.39 -103.49
    1.75  -21.39 -103.35   -0.02   -2.61   -0.02   -2.61  -21.39 -103.35
    1.77  -21.31 -103.62   -0.04   -2.60   -0.04   -2.60  -21.31 -103.62
    1.79  -21.20 -104.04   -0.06   -2.77   -0.06   -2.77  -21.20 -104.04
    1.81  -21.10 -104.46   -0.02   -2.83   -0.02   -2.83  -21.10 -104.46
    1.83  -21.13 -104.64   -0.03   -2.83   -0.03   -2.83  -21.13 -104.64
    1.85  -21.12 -104.79   -0.03   -2.85   -0.03   -2.85  -21.12 -104.79
    1.87  -21.00 -104.64   -0.05   -2.96   -0.05   -2.96  -21.00 -104.64
    1.89  -20.85 -104.78   -0.03   -2.93   -0.03   -2.93  -20.85 -104.78
    1.91  -20.80 -105.12   -0.03   -3.03   -0.03   -3.03  -20.80 -105.12
    1.93  -20.80 -105.47   -0.05   -3.00   -0.05   -3.00  -20.80 -105.47
    1.95  -20.80 -105.54   -0.06   -3.08   -0.06   -3.08  -20.80 -105.54
    1.97  -20.65 -105.64   -0.03   -3.27   -0.03   -3.27  -20.65 -105.64
    1.99  -20.58 -105.65   -0.04   -3.24   -0.04   -3.24  -20.58 -105.65
    2.01  -20.54 -105.81   -0.03   -3.31   -0.03   -3.31  -20.54 -105.81
    2.03  -20.54 -106.10   -0.05   -3.26   -0.05   -3.26  -20.54 -106.10
    2.04  -20.46 -106.07   -0.05   -3.31   -0.05   -3.31  -20.46 -106.07
    2.06  -20.35 -105.89   -0.03   -3.39   -0.03   -3.39  -20.35 -105.89
    2.08  -20.25 -106.14   -0.04   -3.38   -0.04   -3.38  -20.25 -106.14
    2.10  -20.21 -106.93   -0.04   -3.53   -0.04   -3.53  -20.21 -106.93
    2.12  -20.16 -106.85   -0.04   -3.60   -0.04   -3.60  -20.16 -106.85
    2.14  -20.11 -106.34   -0.03   -3.63   -0.03   -3.63  -20.11 -106.34
    2.16  -20.06 -106.55   -0.05   -3.59   -0.05   -3.59  -20.06 -106.55
    2.18  -19.98 -107.16   -0.05   -3.76   -0.05   -3.76  -19.98 -107.16
    2.20  -19.95 -107.44   -0.06   -3.69   -0.06   -3.69  -19.95 -107.44
    2.22  -19.91 -107.56   -0.05   -3.93   -0.05   -3.93  -19.91 -107.56
    2.24  -19.84 -107.35   -0.05   -3.89   -0.05   -3.89  -19.84 -107.35
    2.26  -19.81 -107.53   -0.06   -3.85   -0.06   -3.85  -19.81 -107.53
    2.28  -19.70 -107.51   -0.05   -4.00   -0.05   -4.00  -19.70 -107.51
    2.30  -19.65 -107.86   -0.06   -4.07   -0.06   -4.07  -19.65 -107.86
    2.32  -19.67 -108.32   -0.07   -4.16   -0.07   -4.16  -19.67 -108.32
    2.34  -19.71 -108.14   -0.07   -4.09   -0.07   -4.09  -19.71 -108.14
    2.36  -19.68 -108.20   -0.07   -4.19   -0.07   -4.19  -19.68 -108.20
    2.38  -19.61 -108.22   -0.08   -4.17   -0.08   -4.17  -19.61 -108.22
    2.40  -19.58 -108.42   -0.07   -4.33   -0.07   -4.33  -19.58 -108.42
    2.42  -19.62 -108.33   -0.07   -4.44   -0.07   -4.44  -19.62 -108.33
    2.44  -19.66 -108.25   -0.10   -4.51   -0.10   -4.51  -19.66 -108.25
    2.46  -19.67 -107.85   -0.07   -4.61   -0.07   -4.61  -19.67 -107.85
    2.48  -19.72 -107.93   -0.10   -4.71   -0.10   -4.71  -19.72 -107.93
    2.50  -19.87 -107.50   -0.10   -5.06   -0.10   -5.06  -19.87 -107.50
    2.52  -20.07 -106.32   -0.13   -5.19   -0.13   -5.19  -20.07 -106.32
    2.54  -20.26 -103.78   -0.15   -5.22   -0.15   -5.22  -20.26 -103.78
    2.56  -20.36 -100.06   -0.23   -5.52   -0.23   -5.52  -20.36 -100.06
    2.58  -20.06  -93.32   -0.32   -5.60   -0.32   -5.60  -20.06  -93.32
    2.60  -18.78  -89.09   -0.42   -5.04   -0.42   -5.04  -18.78  -89.09
    2.62  -17.57  -92.12   -0.44   -3.86   -0.44   -3.86  -17.57  -92.12
    2.64  -17.00  -97.15   -0.33   -3.30   -0.33   -3.30  -17.00  -97.15
    2.66  -16.92 -100.93   -0.26   -3.29   -0.26   -3.29  -16.92 -100.93
    2.68  -17.00 -103.62   -0.20   -3.58   -0.20   -3.58  -17.00 -103.62
    2.70  -17.02 -105.26   -0.17   -3.54   -0.17   -3.54  -17.02 -105.26
    2.72  -17.10 -106.63   -0.15   -3.85   -0.15   -3.85  -17.10 -106.63
    2.74  -17.19 -107.21   -0.14   -3.87   -0.14   -3.87  -17.19 -107.21
    2.76  -17.18 -107.51   -0.13   -4.01   -0.13   -4.01  -17.18 -107.51
    2.78  -17.14 -108.06   -0.13   -4.12   -0.13   -4.12  -17.14 -108.06
    2.80  -17.09 -108.55   -0.12   -4.18   -0.12   -4.18  -17.09 -108.55
    2.82  -17.11 -108.89   -0.13   -4.17   -0.13   -4.17  -17.11 -108.89
    2.83  -17.17 -109.14   -0.12   -4.30   -0.12   -4.30  -17.17 -109.14
    2.85  -17.14 -109.32   -0.13   -4.39   -0.13   -4.39  -17.14 -109.32
    2.87  -17.08 -109.31   -0.12   -4.42   -0.12   -4.42  -17.08 -109.31
    2.89  -17.00 -109.72   -0.14   -4.49   -0.14   -4.49  -17.00 -109.72
    2.91  -17.01 -110.19   -0.11   -4.55   -0.11   -4.55  -17.01 -110.19
    2.93  -17.02 -110.43   -0.13   -4.54   -0.13   -4.54  -17.02 -110.43
    2.95  -16.96 -110.43   -0.14   -4.70   -0.14   -4.70  -16.96 -110.43
    2.97  -16.93 -110.33   -0.12   -4.72   -0.12   -4.72  -16.93 -110.33
    2.99  -16.90 -110.64   -0.13   -4.83   -0.13   -4.83  -16.90 -110.64
    3.01  -16.88 -110.50   -0.12   -4.71   -0.12   -4.71  -16.88 -110.50
    3.03  -16.84 -110.69   -0.13   -4.88   -0.13   -4.88  -16.84 -110.69
    3.05  -16.78 -110.79   -0.12   -4.89   -0.12   -4.89  -16.78 -110.79
    3.07  -16.77 -111.10   -0.12   -4.93   -0.12   -4.93  -16.77 -111.10
    3.09  -16.75 -111.48   -0.13   -5.14   -0.13   -5.14  -16.75 -111.48
    3.11  -16.73 -111.52   -0.13   -5.16   -0.13   -5.16  -16.73 -111.52
    3.13  -16.68 -111.19   -0.13   -5.06   -0.13   -5.06  -16.68 -111.19
    3.15  -16.64 -111.26   -0.14   -5.10   -0.14   -5.10  -16.64 -111.26
    3.17  -16.58 -111.39   -0.13   -5.20   -0.13   -5.20  -16.58 -111.39
    3.19  -16.58 -111.67   -0.15   -5.18   -0.15   -5.18  -16.58 -111.67
    3.21  -16.52 -111.56   -0.14   -5.21   -0.14   -5.21  -16.52 -111.56
    3.23  -16.52 -111.87   -0.15   -5.33   -0.15   -5.33  -16.52 -111.87
    3.25  -16.50 -111.55   -0.14   -5.43   -0.14   -5.43  -16.50 -111.55
    3.27  -16.43 -111.55   -0.15   -5.32   -0.15   -5.32  -16.43 -111.55
    3.29  -16.36 -111.87   -0.14   -5.42   -0.14   -5.42  -16.36 -111.87
    3.31  -16.35 -112.05   -0.15   -5.44   -0.15   -5.44  -16.35 -112.05
    3.33  -16.34 -112.09   -0.14   -5.65   -0.14   -5.65  -16.34 -112.09
    3.35  -16.30 -111.98   -0.16   -5.56   -0.16   -5.56  -16.30 -111.98
    3.37  -16.24 -112.21   -0.16   -5.67   -0.16   -5.67  -16.24 -112.21
    3.39  -16.21 -111.82   -0.16   -5.69   -0.16   -5.69  -16.21 -111.82
    3.41  -16.20 -112.04   -0.15   -5.74   -0.15   -5.74  -16.20 -112.04
    3.43  -16.18 -112.15   -0.15   -5.82   -0.15   -5.82  -16.18 -112.15
    3.45  -16.16 -112.26   -0.18   -5.93   -0.18   -5.93  -16.16 -112.26
    3.47  -16.12 -112.23   -0.17   -5.95   -0.17   -5.95  -16.12 -112.23
    3.49  -16.13 -112.42   -0.18   -6.04   -0.18   -6.04  -16.13 -112.42
    3.51  -16.10 -112.34   -0.18   -6.11   -0.18   -6.11  -16.10 -112.34
    3.53  -16.04 -112.31   -0.18   -6.11   -0.18   -6.11  -16.04 -112.31
    3.55  -16.02 -112.30   -0.17   -6.14   -0.17   -6.14  -16.02 -112.30
    3.57  -16.04 -112.07   -0.20   -6.22   -0.20   -6.22  -16.04 -112.07
    3.59  -16.01 -112.04   -0.20   -6.23   -0.20   -6.23  -16.01 -112.04
    3.61  -16.03 -111.92   -0.21   -6.52   -0.21   -6.52  -16.03 -111.92
    3.62  -16.04 -111.75   -0.21   -6.52   -0.21   -6.52  -16.04 -111.75
    3.64  -16.03 -111.34   -0.21   -6.65   -0.21   -6.65  -16.03 -111.34
    3.66  -16.03 -110.94   -0.25   -6.67   -0.25   -6.67  -16.03 -110.94
    3.68  -16.04 -110.46   -0.27   -6.74   -0.27   -6.74  -16.04 -110.46
    3.70  -16.00 -109.60   -0.28   -6.73   -0.28   -6.73  -16.00 -109.60
    3.72  -15.96 -108.32   -0.31   -6.88   -0.31   -6.88  -15.96 -108.32
    3.74  -15.84 -106.85   -0.35   -6.86   -0.35   -6.86  -15.84 -106.85
    3.76  -15.56 -105.95   -0.38   -6.77   -0.38   -6.77  -15.56 -105.95
    3.78  -15.28 -105.81   -0.41   -6.54   -0.41   -6.54  -15.28 -105.81
    3.80  -14.99 -106.10   -0.40   -5.99   -0.40   -5.99  -14.99 -106.10
    3.82  -14.75 -107.10   -0.36   -5.94   -0.36   -5.94  -14.75 -107.10
    3.84  -14.64 -108.18   -0.34   -5.81   -0.34   -5.81  -14.64 -108.18
    3.86  -14.55 -109.14   -0.33   -5.78   -0.33   -5.78  -14.55 -109.14
    3.88  -14.49 -110.04   -0.32   -5.86   -0.32   -5.86  -14.49 -110.04
    3.90  -14.49 -110.35   -0.31   -5.86   -0.31   -5.86  -14.49 -110.35
    3.92  -14.46 -111.08   -0.28   -5.96   -0.28   -5.96  -14.46 -111.08
    3.94  -14.45 -111.36   -0.28   -6.03   -0.28   -6.03  -14.45 -111.36
    3.96  -14.42 -111.58   -0.28   -6.08   -0.28   -6.08  -14.42 -111.58
    3.98  -14.41 -111.72   -0.27   -6.25   -0.27   -6.25  -14.41 -111.72
    4.00  -14.61 -113.71   -0.23   -6.29   -0.23   -6.29  -14.61 -113.71
