!  American Technical Ceramics  Date:    3/13/98
!  One Norden Lane
!  Huntington Station,  NY.   11746-2102
!  Tel:  (516) 547-5700               Fax:  (516) 547-5748
!  Part Number  100b1r2b
!  Description: Porcelain, High Q, Low ESR
!  Application: Bypass, Coupling, Timing, Feedback
!               Tuning, Impedance Match, Blocking
# GHZ S DB R 50
! Freq   |S11|   S11 Ph  |S21|   S21 Ph  |S12|   S12 Ph  |S22|   S22 Ph
    0.05   -0.06   -1.25  -28.52   87.85  -28.52   87.85   -0.06   -1.25
    0.15   -0.03   -7.32  -19.22   83.30  -19.22   83.30   -0.03   -7.32
    0.25   -0.17  -12.05  -14.86   78.57  -14.86   78.57   -0.17  -12.05
    0.35   -0.27  -16.69  -12.05   74.22  -12.05   74.22   -0.27  -16.69
    0.45   -0.42  -21.40  -10.04   69.86  -10.04   69.86   -0.42  -21.40
    0.55   -0.76  -26.21   -8.41   65.07   -8.41   65.07   -0.76  -26.21
    0.65   -1.00  -30.56   -7.20   61.14   -7.20   61.14   -1.00  -30.56
    0.75   -1.25  -34.43   -6.24   57.36   -6.24   57.36   -1.25  -34.43
    0.85   -1.57  -38.38   -5.46   53.84   -5.46   53.84   -1.57  -38.38
    0.95   -1.82  -41.81   -4.86   50.77   -4.86   50.77   -1.82  -41.81
    1.05   -2.11  -45.17   -4.35   47.74   -4.35   47.74   -2.11  -45.17
    1.15   -2.37  -48.34   -3.88   44.98   -3.88   44.98   -2.37  -48.34
    1.25   -2.68  -50.96   -3.46   42.64   -3.46   42.64   -2.68  -50.96
    1.35   -3.00  -53.95   -3.16   40.13   -3.16   40.13   -3.00  -53.95
    1.45   -3.24  -56.47   -2.94   37.93   -2.94   37.93   -3.24  -56.47
    1.55   -3.49  -58.99   -2.71   35.65   -2.71   35.65   -3.49  -58.99
    1.65   -3.75  -61.36   -2.49   33.66   -2.49   33.66   -3.75  -61.36
    1.75   -3.99  -63.52   -2.27   32.02   -2.27   32.02   -3.99  -63.52
    1.85   -4.28  -65.84   -2.13   30.49   -2.13   30.49   -4.28  -65.84
    1.95   -4.51  -67.45   -2.03   28.76   -2.03   28.76   -4.51  -67.45
    2.05   -4.72  -69.30   -1.94   27.23   -1.94   27.23   -4.72  -69.30
    2.14   -4.88  -71.12   -1.78   25.62   -1.78   25.62   -4.88  -71.12
    2.24   -5.14  -72.99   -1.66   24.60   -1.66   24.60   -5.14  -72.99
    2.34   -5.37  -74.86   -1.60   23.20   -1.60   23.20   -5.37  -74.86
    2.44   -5.55  -76.54   -1.54   22.11   -1.54   22.11   -5.55  -76.54
    2.54   -5.70  -77.62   -1.49   20.94   -1.49   20.94   -5.70  -77.62
    2.64   -5.84  -78.21   -1.39   19.45   -1.39   19.45   -5.84  -78.21
    2.74   -6.05  -79.83   -1.32   18.85   -1.32   18.85   -6.05  -79.83
    2.84   -6.29  -81.36   -1.30   17.55   -1.30   17.55   -6.29  -81.36
    2.94   -6.40  -83.30   -1.24   16.64   -1.24   16.64   -6.40  -83.30
    3.04   -6.46  -83.64   -1.25   15.63   -1.25   15.63   -6.46  -83.64
    3.14   -6.62  -84.85   -1.17   14.70   -1.17   14.70   -6.62  -84.85
    3.24   -6.72  -85.68   -1.17   14.02   -1.17   14.02   -6.72  -85.68
    3.34   -7.06  -87.63   -1.14   12.79   -1.14   12.79   -7.06  -87.63
    3.44   -7.04  -88.87   -1.12   12.34   -1.12   12.34   -7.04  -88.87
    3.54   -7.17  -89.03   -1.13   11.28   -1.13   11.28   -7.17  -89.03
    3.64   -7.13  -90.16   -1.05   10.62   -1.05   10.62   -7.13  -90.16
    3.74   -7.36  -90.51   -1.08   10.05   -1.08   10.05   -7.36  -90.51
    3.84   -7.54  -92.36   -1.06    9.08   -1.06    9.08   -7.54  -92.36
    3.94   -7.58  -92.96   -1.05    8.38   -1.05    8.38   -7.58  -92.96
    4.04   -7.69  -94.53   -1.03    7.94   -1.03    7.94   -7.69  -94.53
    4.14   -7.65  -94.97   -0.96    7.32   -0.96    7.32   -7.65  -94.97
    4.24   -7.81  -95.36   -0.96    6.80   -0.96    6.80   -7.81  -95.36
    4.34   -8.01  -97.21   -0.96    6.20   -0.96    6.20   -8.01  -97.21
    4.44   -8.12  -97.92   -0.95    5.80   -0.95    5.80   -8.12  -97.92
    4.54   -8.23  -98.40   -0.96    4.86   -0.96    4.86   -8.23  -98.40
    4.64   -8.27  -98.68   -0.88    4.44   -0.88    4.44   -8.27  -98.68
    4.74   -8.40  -98.01   -0.87    4.41   -0.87    4.41   -8.40  -98.01
    4.84   -8.56  -99.36   -0.89    3.57   -0.89    3.57   -8.56  -99.36
    4.94   -8.69  -99.67   -0.91    3.25   -0.91    3.25   -8.69  -99.67
    5.04   -8.92 -100.20   -0.88    2.42   -0.88    2.42   -8.92 -100.20
    5.14   -8.89 -100.85   -0.83    1.87   -0.83    1.87   -8.89 -100.85
    5.24   -9.14 -100.71   -0.79    1.80   -0.79    1.80   -9.14 -100.71
    5.34   -9.24 -101.28   -0.79    1.56   -0.79    1.56   -9.24 -101.28
    5.44   -9.60 -101.00   -0.83    0.89   -0.83    0.89   -9.60 -101.00
    5.54   -9.64 -102.17   -0.78    0.07   -0.78    0.07   -9.64 -102.17
    5.64   -9.79 -101.48   -0.78   -0.18   -0.78   -0.18   -9.79 -101.48
    5.74   -9.89 -102.61   -0.75   -0.53   -0.75   -0.53   -9.89 -102.61
    5.84  -10.14 -102.01   -0.72   -0.68   -0.72   -0.68  -10.14 -102.01
    5.94  -10.42 -103.44   -0.73   -1.37   -0.73   -1.37  -10.42 -103.44
    6.04  -10.66 -103.38   -0.71   -1.96   -0.71   -1.96  -10.66 -103.38
    6.13  -10.80 -103.74   -0.68   -2.45   -0.68   -2.45  -10.80 -103.74
    6.23  -11.05 -103.54   -0.71   -2.82   -0.71   -2.82  -11.05 -103.54
    6.33  -11.31 -103.87   -0.67   -3.14   -0.67   -3.14  -11.31 -103.87
    6.43  -11.70 -104.46   -0.69   -3.50   -0.69   -3.50  -11.70 -104.46
    6.53  -11.93 -105.16   -0.66   -4.38   -0.66   -4.38  -11.93 -105.16
    6.63  -12.27 -104.55   -0.67   -4.91   -0.67   -4.91  -12.27 -104.55
    6.73  -12.48 -103.97   -0.65   -5.46   -0.65   -5.46  -12.48 -103.97
    6.83  -12.98 -103.13   -0.69   -5.79   -0.69   -5.79  -12.98 -103.13
    6.93  -13.08 -102.71   -0.73   -6.34   -0.73   -6.34  -13.08 -102.71
    7.03  -13.34 -102.25   -0.74   -6.46   -0.74   -6.46  -13.34 -102.25
    7.13  -13.38 -101.54   -0.77   -6.86   -0.77   -6.86  -13.38 -101.54
    7.23  -13.73 -101.07   -0.73   -7.62   -0.73   -7.62  -13.73 -101.07
    7.33  -13.88  -99.48   -0.78   -7.77   -0.78   -7.77  -13.88  -99.48
    7.43  -14.18  -99.78   -0.82   -7.84   -0.82   -7.84  -14.18  -99.78
    7.53  -14.09  -98.25   -0.81   -8.38   -0.81   -8.38  -14.09  -98.25
    7.63  -14.19  -99.07   -0.84   -8.24   -0.84   -8.24  -14.19  -99.07
    7.73  -14.10  -98.78   -0.80   -8.81   -0.80   -8.81  -14.10  -98.78
    7.83  -14.50 -100.04   -0.76   -8.67   -0.76   -8.67  -14.50 -100.04
    7.93  -14.65 -101.08   -0.75   -9.27   -0.75   -9.27  -14.65 -101.08
    8.03  -15.10 -101.81   -0.70   -9.72   -0.70   -9.72  -15.10 -101.81
    8.13  -15.16 -101.52   -0.72  -10.36   -0.72  -10.36  -15.16 -101.52
    8.23  -15.47 -100.92   -0.71  -10.75   -0.71  -10.75  -15.47 -100.92
    8.33  -15.71 -101.70   -0.66  -11.14   -0.66  -11.14  -15.71 -101.70
    8.43  -16.17 -103.57   -0.67  -11.48   -0.67  -11.48  -16.17 -103.57
    8.53  -16.48 -103.34   -0.66  -11.94   -0.66  -11.94  -16.48 -103.34
    8.63  -16.87 -103.53   -0.68  -12.67   -0.68  -12.67  -16.87 -103.53
    8.73  -17.12 -103.54   -0.62  -13.30   -0.62  -13.30  -17.12 -103.54
    8.83  -17.74 -104.21   -0.62  -13.78   -0.62  -13.78  -17.74 -104.21
    8.93  -18.30 -104.66   -0.64  -14.45   -0.64  -14.45  -18.30 -104.66
    9.03  -18.74 -105.23   -0.65  -14.97   -0.65  -14.97  -18.74 -105.23
    9.13  -19.14 -104.13   -0.60  -15.54   -0.60  -15.54  -19.14 -104.13
    9.23  -19.82 -105.26   -0.62  -16.14   -0.62  -16.14  -19.82 -105.26
    9.33  -20.38 -104.31   -0.64  -16.94   -0.64  -16.94  -20.38 -104.31
    9.43  -21.25 -106.90   -0.64  -17.37   -0.64  -17.37  -21.25 -106.90
    9.53  -21.94 -106.94   -0.65  -17.81   -0.65  -17.81  -21.94 -106.94
    9.63  -23.05 -107.17   -0.65  -18.66   -0.65  -18.66  -23.05 -107.17
    9.73  -24.12 -106.45   -0.67  -19.08   -0.67  -19.08  -24.12 -106.45
    9.83  -25.71 -106.79   -0.67  -19.93   -0.67  -19.93  -25.71 -106.79
    9.93  -27.95 -104.65   -0.66  -20.45   -0.66  -20.45  -27.95 -104.65
   10.03  -30.06 -101.76   -0.66  -21.10   -0.66  -21.10  -30.06 -101.76
   10.12  -33.55  -88.05   -0.68  -21.83   -0.68  -21.83  -33.55  -88.05
   10.22  -36.78  -62.83   -0.69  -22.68   -0.69  -22.68  -36.78  -62.83
   10.32  -37.72  -19.01   -0.74  -23.46   -0.74  -23.46  -37.72  -19.01
   10.42  -33.56   15.76   -0.77  -24.19   -0.77  -24.19  -33.56   15.76
   10.52  -30.56   27.07   -0.85  -25.14   -0.85  -25.14  -30.56   27.07
   10.62  -27.30   33.04   -0.90  -25.74   -0.90  -25.74  -27.30   33.04
   10.72  -24.90   37.97   -0.99  -26.30   -0.99  -26.30  -24.90   37.97
   10.82  -22.47   40.98   -1.07  -26.95   -1.07  -26.95  -22.47   40.98
   10.92  -20.94   39.60   -1.13  -27.42   -1.13  -27.42  -20.94   39.60
   11.02  -19.18   39.78   -1.17  -27.88   -1.17  -27.88  -19.18   39.78
   11.12  -17.85   38.04   -1.19  -28.09   -1.19  -28.09  -17.85   38.04
   11.22  -16.43   37.09   -1.26  -28.40   -1.26  -28.40  -16.43   37.09
   11.32  -15.47   33.98   -1.32  -29.13   -1.32  -29.13  -15.47   33.98
   11.42  -14.58   32.33   -1.34  -29.73   -1.34  -29.73  -14.58   32.33
   11.52  -13.87   28.34   -1.40  -29.74   -1.40  -29.74  -13.87   28.34
   11.62  -13.26   28.07   -1.41  -30.32   -1.41  -30.32  -13.26   28.07
   11.72  -12.66   25.85   -1.47  -30.48   -1.47  -30.48  -12.66   25.85
   11.82  -12.22   24.98   -1.51  -31.60   -1.51  -31.60  -12.22   24.98
   11.92  -11.82   22.52   -1.50  -32.04   -1.50  -32.04  -11.82   22.52
   12.02  -11.27   21.78   -1.57  -32.38   -1.57  -32.38  -11.27   21.78
   12.12  -10.86   20.44   -1.57  -33.10   -1.57  -33.10  -10.86   20.44
   12.22  -10.40   20.19   -1.63  -33.42   -1.63  -33.42  -10.40   20.19
   12.32  -10.03   18.42   -1.66  -34.53   -1.66  -34.53  -10.03   18.42
   12.42   -9.86   17.26   -1.71  -35.54   -1.71  -35.54   -9.86   17.26
   12.52   -9.38   14.98   -1.77  -35.84   -1.77  -35.84   -9.38   14.98
   12.62   -9.03   15.54   -1.90  -36.56   -1.90  -36.56   -9.03   15.54
   12.72   -8.57   13.77   -1.89  -36.95   -1.89  -36.95   -8.57   13.77
   12.82   -8.38   14.11   -2.05  -37.69   -2.05  -37.69   -8.38   14.11
   12.92   -8.18   10.38   -2.06  -38.84   -2.06  -38.84   -8.18   10.38
   13.02   -7.98   10.31   -2.15  -39.24   -2.15  -39.24   -7.98   10.31
   13.12   -7.61    8.30   -2.16  -39.74   -2.16  -39.74   -7.61    8.30
   13.22   -7.53    9.45   -2.30  -40.39   -2.30  -40.39   -7.53    9.45
   13.32   -7.23    7.38   -2.40  -41.31   -2.40  -41.31   -7.23    7.38
   13.42   -7.26    6.78   -2.52  -42.20   -2.52  -42.20   -7.26    6.78
   13.52   -6.92    3.91   -2.49  -42.94   -2.49  -42.94   -6.92    3.91
   13.62   -6.84    6.08   -2.62  -43.11   -2.62  -43.11   -6.84    6.08
   13.72   -6.55    3.87   -2.70  -44.58   -2.70  -44.58   -6.55    3.87
   13.82   -6.38    5.08   -2.86  -44.42   -2.86  -44.42   -6.38    5.08
   13.92   -6.38    3.25   -2.92  -45.73   -2.92  -45.73   -6.38    3.25
   14.02   -6.36    1.98   -3.03  -46.61   -3.03  -46.61   -6.36    1.98
   14.11   -6.00    0.72   -3.13  -47.62   -3.13  -47.62   -6.00    0.72
   14.21   -5.86    1.73   -3.17  -47.48   -3.17  -47.48   -5.86    1.73
   14.31   -5.72    2.34   -3.25  -48.46   -3.25  -48.46   -5.72    2.34
   14.41   -5.75    0.96   -3.40  -49.46   -3.40  -49.46   -5.75    0.96
   14.51   -5.69    0.52   -3.49  -50.32   -3.49  -50.32   -5.69    0.52
   14.61   -5.61   -0.02   -3.68  -51.50   -3.68  -51.50   -5.61   -0.02
   14.71   -5.33   -0.36   -3.77  -52.59   -3.77  -52.59   -5.33   -0.36
   14.81   -5.08    0.15   -3.88  -53.39   -3.88  -53.39   -5.08    0.15
   14.91   -4.98    0.06   -4.04  -54.14   -4.04  -54.14   -4.98    0.06
   15.01   -5.00   -0.49   -4.29  -54.48   -4.29  -54.48   -5.00   -0.49
   15.11   -4.82   -0.82   -4.46  -55.05   -4.46  -55.05   -4.82   -0.82
   15.21   -4.66   -2.04   -4.63  -55.79   -4.63  -55.79   -4.66   -2.04
   15.31   -4.25   -2.30   -4.61  -55.84   -4.61  -55.84   -4.25   -2.30
   15.41   -4.25   -2.95   -4.76  -56.27   -4.76  -56.27   -4.25   -2.95
   15.51   -4.06   -4.52   -4.81  -57.17   -4.81  -57.17   -4.06   -4.52
   15.61   -4.09   -5.72   -4.97  -57.53   -4.97  -57.53   -4.09   -5.72
   15.71   -3.87   -6.16   -5.12  -58.65   -5.12  -58.65   -3.87   -6.16
   15.81   -3.73   -7.47   -5.26  -59.74   -5.26  -59.74   -3.73   -7.47
   15.91   -3.53   -7.86   -5.33  -60.52   -5.33  -60.52   -3.53   -7.86
   16.01   -3.61   -9.90   -5.53  -61.03   -5.53  -61.03   -3.61   -9.90
   16.11   -3.45  -10.44   -5.69  -62.10   -5.69  -62.10   -3.45  -10.44
   16.21   -3.38  -11.02   -5.92  -62.70   -5.92  -62.70   -3.38  -11.02
   16.31   -3.18  -11.79   -6.02  -64.09   -6.02  -64.09   -3.18  -11.79
   16.41   -3.08  -13.00   -6.18  -64.92   -6.18  -64.92   -3.08  -13.00
   16.51   -3.00  -14.34   -6.39  -66.01   -6.39  -66.01   -3.00  -14.34
   16.61   -2.92  -15.05   -6.60  -66.99   -6.60  -66.99   -2.92  -15.05
   16.71   -2.80  -15.20   -6.76  -67.36   -6.76  -67.36   -2.80  -15.20
   16.81   -2.68  -15.77   -7.19  -68.59   -7.19  -68.59   -2.68  -15.77
   16.91   -2.60  -17.19   -7.32  -70.44   -7.32  -70.44   -2.60  -17.19
   17.01   -2.51  -16.37   -7.83  -70.77   -7.83  -70.77   -2.51  -16.37
   17.11   -2.42  -18.12   -7.95  -71.04   -7.95  -71.04   -2.42  -18.12
   17.21   -2.20  -16.91   -8.38  -70.19   -8.38  -70.19   -2.20  -16.91
   17.31   -2.08  -18.90   -8.57  -71.07   -8.57  -71.07   -2.08  -18.90
   17.41   -2.02  -18.89   -8.92  -71.78   -8.92  -71.78   -2.02  -18.89
   17.51   -1.92  -20.44   -9.07  -71.65   -9.07  -71.65   -1.92  -20.44
   17.61   -1.88  -19.52   -9.45  -71.39   -9.45  -71.39   -1.88  -19.52
   17.71   -1.80  -22.08   -9.51  -71.52   -9.51  -71.52   -1.80  -22.08
   17.81   -1.62  -21.25   -9.81  -72.15   -9.81  -72.15   -1.62  -21.25
   17.91   -1.86  -21.95  -10.11  -73.91  -10.11  -73.91   -1.86  -21.95
   18.01   -1.56  -23.83  -10.20  -74.47  -10.20  -74.47   -1.56  -23.83
   18.10   -1.83  -23.60  -10.65  -76.52  -10.65  -76.52   -1.83  -23.60
   18.20   -1.43  -25.01  -10.91  -76.79  -10.91  -76.79   -1.43  -25.01
   18.30   -1.53  -24.89  -11.50  -79.21  -11.50  -79.21   -1.53  -24.89
   18.40   -1.59  -26.36  -12.24  -81.32  -12.24  -81.32   -1.59  -26.36
   18.50   -1.65  -28.07  -13.38  -82.43  -13.38  -82.43   -1.65  -28.07
   18.60   -1.83  -30.12  -15.41  -72.41  -15.41  -72.41   -1.83  -30.12
   18.70   -2.17  -27.84  -12.85  -56.56  -12.85  -56.56   -2.17  -27.84
   18.80   -1.66  -26.50  -11.84  -68.21  -11.84  -68.21   -1.66  -26.50
   18.90   -1.62  -28.19  -12.27  -75.23  -12.27  -75.23   -1.62  -28.19
   19.00   -1.49  -30.78  -12.72  -78.95  -12.72  -78.95   -1.49  -30.78
   19.10   -1.47  -31.71  -13.19  -81.62  -13.19  -81.62   -1.47  -31.71
   19.20   -1.54  -33.62  -13.58  -84.33  -13.58  -84.33   -1.54  -33.62
   19.30   -1.34  -35.63  -13.68  -87.04  -13.68  -87.04   -1.34  -35.63
   19.40   -1.63  -37.41  -13.59  -92.99  -13.59  -92.99   -1.63  -37.41
   19.50   -1.91  -41.41  -13.21 -105.87  -13.21 -105.87   -1.91  -41.41
   19.60   -2.44  -41.23  -13.55 -130.16  -13.55 -130.16   -2.44  -41.23
   19.70   -2.89  -42.01  -16.73 -168.00  -16.73 -168.00   -2.89  -42.01
   19.80   -2.99  -38.31  -23.90  138.58  -23.90  138.58   -2.99  -38.31
   19.90   -3.03  -38.78  -27.95    9.71  -27.95    9.71   -3.03  -38.78
   20.00   -3.59  -39.80  -24.62  -68.07  -24.62  -68.07   -3.59  -39.80
