!  American Technical Ceramics  Date:    3/13/98
!  One Norden Lane
!  Huntington Station,  NY.   11746-2102
!  Tel:  (516) 547-5700               Fax:  (516) 547-5748
!  Part Number  100b390f
!  Description: Porcelain, High Q, Low ESR
!  Application: Bypass, Coupling, Timing, Feedback
!               Tuning, Impedance Match, Blocking
# GHZ S DB R 50
! Freq   |S11|   S11 Ph  |S21|   S21 Ph  |S12|   S12 Ph  |S22|   S22 Ph
    0.05   -3.88  -50.79   -2.24   39.55   -2.24   39.55   -3.88  -50.79
    0.09   -7.47  -65.82   -0.84   24.54   -0.84   24.54   -7.47  -65.82
    0.13  -10.20  -72.81   -0.51   17.40   -0.51   17.40  -10.20  -72.81
    0.17  -12.31  -77.44   -0.26   13.24   -0.26   13.24  -12.31  -77.44
    0.21  -13.96  -80.07   -0.16   10.69   -0.16   10.69  -13.96  -80.07
    0.25  -15.25  -81.92   -0.12    8.76   -0.12    8.76  -15.25  -81.92
    0.29  -16.32  -83.61   -0.11    7.57   -0.11    7.57  -16.32  -83.61
    0.33  -17.20  -84.90   -0.08    6.47   -0.08    6.47  -17.20  -84.90
    0.37  -17.99  -85.93   -0.06    5.42   -0.06    5.42  -17.99  -85.93
    0.41  -18.63  -86.73   -0.04    4.97   -0.04    4.97  -18.63  -86.73
    0.45  -19.19  -87.54   -0.04    4.20   -0.04    4.20  -19.19  -87.54
    0.49  -19.60  -88.31   -0.02    3.86   -0.02    3.86  -19.60  -88.31
    0.53  -20.14  -89.02   -0.03    3.20   -0.03    3.20  -20.14  -89.02
    0.57  -20.42  -89.99   -0.03    2.85   -0.03    2.85  -20.42  -89.99
    0.61  -20.73  -90.19   -0.04    2.42   -0.04    2.42  -20.73  -90.19
    0.65  -20.86  -90.88   -0.02    2.18   -0.02    2.18  -20.86  -90.88
    0.69  -21.04  -91.51   -0.05    2.00   -0.05    2.00  -21.04  -91.51
    0.73  -21.18  -91.96   -0.04    1.63   -0.04    1.63  -21.18  -91.96
    0.77  -21.29  -92.58   -0.03    1.38   -0.03    1.38  -21.29  -92.58
    0.81  -21.34  -93.06   -0.04    1.24   -0.04    1.24  -21.34  -93.06
    0.85  -21.39  -93.52   -0.03    1.08   -0.03    1.08  -21.39  -93.52
    0.88  -21.44  -93.98   -0.04    0.80   -0.04    0.80  -21.44  -93.98
    0.92  -21.43  -94.68   -0.03    0.56   -0.03    0.56  -21.43  -94.68
    0.96  -21.43  -95.15   -0.04    0.44   -0.04    0.44  -21.43  -95.15
    1.00  -21.42  -95.80   -0.04    0.30   -0.04    0.30  -21.42  -95.80
    1.04  -21.38  -95.98   -0.05    0.14   -0.05    0.14  -21.38  -95.98
    1.08  -21.35  -96.64   -0.04   -0.02   -0.04   -0.02  -21.35  -96.64
    1.12  -21.24  -97.00   -0.03   -0.34   -0.03   -0.34  -21.24  -97.00
    1.16  -21.18  -97.65   -0.02   -0.45   -0.02   -0.45  -21.18  -97.65
    1.20  -21.15  -97.61   -0.05   -0.50   -0.05   -0.50  -21.15  -97.61
    1.24  -21.07  -98.14   -0.03   -0.74   -0.03   -0.74  -21.07  -98.14
    1.28  -20.99  -98.40   -0.05   -0.83   -0.05   -0.83  -20.99  -98.40
    1.32  -20.85  -98.95   -0.04   -0.94   -0.04   -0.94  -20.85  -98.95
    1.36  -20.83  -99.53   -0.06   -1.02   -0.06   -1.02  -20.83  -99.53
    1.40  -20.68  -99.70   -0.05   -1.15   -0.05   -1.15  -20.68  -99.70
    1.44  -20.64 -100.40   -0.06   -1.32   -0.06   -1.32  -20.64 -100.40
    1.48  -20.48 -100.49   -0.05   -1.32   -0.05   -1.32  -20.48 -100.49
    1.52  -20.43 -101.36   -0.05   -1.60   -0.05   -1.60  -20.43 -101.36
    1.56  -20.26 -101.37   -0.05   -1.73   -0.05   -1.73  -20.26 -101.37
    1.60  -20.21 -101.94   -0.06   -1.78   -0.06   -1.78  -20.21 -101.94
    1.64  -20.05 -102.17   -0.06   -1.94   -0.06   -1.94  -20.05 -102.17
    1.68  -19.98 -102.96   -0.07   -2.16   -0.07   -2.16  -19.98 -102.96
    1.72  -19.85 -102.92   -0.06   -2.11   -0.06   -2.11  -19.85 -102.92
    1.76  -19.78 -103.18   -0.07   -2.07   -0.07   -2.07  -19.78 -103.18
    1.80  -19.60 -103.68   -0.07   -2.51   -0.07   -2.51  -19.60 -103.68
    1.84  -19.55 -104.09   -0.07   -2.54   -0.07   -2.54  -19.55 -104.09
    1.88  -19.40 -103.96   -0.06   -2.46   -0.06   -2.46  -19.40 -103.96
    1.92  -19.32 -104.47   -0.07   -2.66   -0.07   -2.66  -19.32 -104.47
    1.96  -19.23 -104.63   -0.08   -2.93   -0.08   -2.93  -19.23 -104.63
    2.00  -19.12 -104.84   -0.08   -2.82   -0.08   -2.82  -19.12 -104.84
    2.04  -18.99 -105.51   -0.09   -2.98   -0.09   -2.98  -18.99 -105.51
    2.08  -18.90 -105.65   -0.06   -3.09   -0.06   -3.09  -18.90 -105.65
    2.12  -18.78 -105.92   -0.09   -3.10   -0.09   -3.10  -18.78 -105.92
    2.16  -18.63 -106.14   -0.07   -3.40   -0.07   -3.40  -18.63 -106.14
    2.20  -18.57 -107.00   -0.08   -3.48   -0.08   -3.48  -18.57 -107.00
    2.24  -18.47 -107.12   -0.07   -3.56   -0.07   -3.56  -18.47 -107.12
    2.28  -18.42 -107.34   -0.08   -3.67   -0.08   -3.67  -18.42 -107.34
    2.32  -18.24 -107.52   -0.09   -3.68   -0.09   -3.68  -18.24 -107.52
    2.36  -18.21 -108.07   -0.09   -3.88   -0.09   -3.88  -18.21 -108.07
    2.40  -18.06 -108.19   -0.10   -3.99   -0.10   -3.99  -18.06 -108.19
    2.44  -18.06 -108.65   -0.11   -4.01   -0.11   -4.01  -18.06 -108.65
    2.47  -17.90 -108.53   -0.09   -4.12   -0.09   -4.12  -17.90 -108.53
    2.51  -17.84 -109.24   -0.11   -4.14   -0.11   -4.14  -17.84 -109.24
    2.55  -17.78 -109.27   -0.11   -4.35   -0.11   -4.35  -17.78 -109.27
    2.59  -17.74 -109.85   -0.14   -4.38   -0.14   -4.38  -17.74 -109.85
    2.63  -17.60 -109.73   -0.11   -4.68   -0.11   -4.68  -17.60 -109.73
    2.67  -17.57 -110.31   -0.11   -4.63   -0.11   -4.63  -17.57 -110.31
    2.71  -17.49 -110.52   -0.13   -4.98   -0.13   -4.98  -17.49 -110.52
    2.75  -17.46 -110.82   -0.11   -4.92   -0.11   -4.92  -17.46 -110.82
    2.79  -17.37 -110.92   -0.12   -5.21   -0.12   -5.21  -17.37 -110.92
    2.83  -17.39 -111.46   -0.12   -5.25   -0.12   -5.25  -17.39 -111.46
    2.87  -17.34 -111.62   -0.14   -5.48   -0.14   -5.48  -17.34 -111.62
    2.91  -17.32 -112.06   -0.13   -5.43   -0.13   -5.43  -17.32 -112.06
    2.95  -17.39 -112.27   -0.12   -5.87   -0.12   -5.87  -17.39 -112.27
    2.99  -17.37 -112.43   -0.11   -5.98   -0.11   -5.98  -17.37 -112.43
    3.03  -17.43 -112.65   -0.16   -6.02   -0.16   -6.02  -17.43 -112.65
    3.07  -17.51 -112.77   -0.14   -6.55   -0.14   -6.55  -17.51 -112.77
    3.11  -17.73 -113.39   -0.16   -6.67   -0.16   -6.67  -17.73 -113.39
    3.15  -17.88 -112.96   -0.14   -7.09   -0.14   -7.09  -17.88 -112.96
    3.19  -18.30 -113.01   -0.18   -7.65   -0.18   -7.65  -18.30 -113.01
    3.23  -18.77 -112.38   -0.18   -8.24   -0.18   -8.24  -18.77 -112.38
    3.27  -19.87 -110.55   -0.24   -9.02   -0.24   -9.02  -19.87 -110.55
    3.31  -21.77 -101.84   -0.33  -10.56   -0.33  -10.56  -21.77 -101.84
    3.35  -23.01  -62.72   -0.64  -12.98   -0.64  -12.98  -23.01  -62.72
    3.39  -14.61  -41.13   -1.82  -13.26   -1.82  -13.26  -14.61  -41.13
    3.43  -10.67  -74.14   -2.00   -1.57   -2.00   -1.57  -10.67  -74.14
    3.47  -11.25  -93.79   -0.98   -0.06   -0.98   -0.06  -11.25  -93.79
    3.51  -12.13 -101.86   -0.62   -1.46   -0.62   -1.46  -12.13 -101.86
    3.55  -12.56 -105.27   -0.47   -2.58   -0.47   -2.58  -12.56 -105.27
    3.59  -12.91 -107.67   -0.39   -3.16   -0.39   -3.16  -12.91 -107.67
    3.63  -13.10 -109.12   -0.36   -3.69   -0.36   -3.69  -13.10 -109.12
    3.67  -13.32 -110.08   -0.35   -4.06   -0.35   -4.06  -13.32 -110.08
    3.71  -13.41 -110.43   -0.33   -4.47   -0.33   -4.47  -13.41 -110.43
    3.75  -13.42 -111.12   -0.31   -4.71   -0.31   -4.71  -13.42 -111.12
    3.79  -13.48 -111.85   -0.30   -4.93   -0.30   -4.93  -13.48 -111.85
    3.83  -13.52 -111.79   -0.32   -5.04   -0.32   -5.04  -13.52 -111.79
    3.87  -13.50 -112.47   -0.33   -5.38   -0.33   -5.38  -13.50 -112.47
    3.91  -13.46 -112.52   -0.31   -5.62   -0.31   -5.62  -13.46 -112.52
    3.95  -13.45 -112.98   -0.33   -5.66   -0.33   -5.66  -13.45 -112.98
    3.99  -13.40 -113.06   -0.32   -5.90   -0.32   -5.90  -13.40 -113.06
    4.03  -13.69 -115.07   -0.30   -5.99   -0.30   -5.99  -13.69 -115.07
    4.06  -13.65 -114.95   -0.29   -6.17   -0.29   -6.17  -13.65 -114.95
    4.10  -13.64 -115.56   -0.30   -6.24   -0.30   -6.24  -13.64 -115.56
    4.14  -13.57 -115.73   -0.29   -6.34   -0.29   -6.34  -13.57 -115.73
    4.18  -13.65 -115.99   -0.33   -6.38   -0.33   -6.38  -13.65 -115.99
    4.22  -13.54 -115.79   -0.30   -6.41   -0.30   -6.41  -13.54 -115.79
    4.26  -13.56 -116.88   -0.31   -6.67   -0.31   -6.67  -13.56 -116.88
    4.30  -13.52 -117.04   -0.30   -6.58   -0.30   -6.58  -13.52 -117.04
    4.34  -13.56 -117.51   -0.32   -6.69   -0.32   -6.69  -13.56 -117.51
    4.38  -13.55 -117.45   -0.28   -6.97   -0.28   -6.97  -13.55 -117.45
    4.42  -13.58 -117.69   -0.30   -7.04   -0.30   -7.04  -13.58 -117.69
    4.46  -13.53 -118.11   -0.29   -7.13   -0.29   -7.13  -13.53 -118.11
    4.50  -13.59 -118.24   -0.30   -7.25   -0.30   -7.25  -13.59 -118.24
    4.54  -13.55 -118.31   -0.31   -7.20   -0.31   -7.20  -13.55 -118.31
    4.58  -13.56 -118.43   -0.31   -7.36   -0.31   -7.36  -13.56 -118.43
    4.62  -13.60 -118.66   -0.33   -7.36   -0.33   -7.36  -13.60 -118.66
    4.66  -13.57 -118.66   -0.32   -7.70   -0.32   -7.70  -13.57 -118.66
    4.70  -13.62 -118.61   -0.34   -7.63   -0.34   -7.63  -13.62 -118.61
    4.74  -13.57 -118.84   -0.32   -7.83   -0.32   -7.83  -13.57 -118.84
    4.78  -13.64 -119.16   -0.34   -7.75   -0.34   -7.75  -13.64 -119.16
    4.82  -13.58 -119.12   -0.31   -7.95   -0.31   -7.95  -13.58 -119.12
    4.86  -13.65 -119.66   -0.35   -8.03   -0.35   -8.03  -13.65 -119.66
    4.90  -13.64 -119.43   -0.33   -8.13   -0.33   -8.13  -13.64 -119.43
    4.94  -13.70 -119.79   -0.34   -8.00   -0.34   -8.00  -13.70 -119.79
    4.98  -13.66 -120.12   -0.31   -8.27   -0.31   -8.27  -13.66 -120.12
    5.02  -13.80 -120.34   -0.34   -8.33   -0.34   -8.33  -13.80 -120.34
    5.06  -13.77 -120.02   -0.34   -8.36   -0.34   -8.36  -13.77 -120.02
    5.10  -13.80 -120.48   -0.33   -8.54   -0.33   -8.54  -13.80 -120.48
    5.14  -13.84 -120.62   -0.35   -8.81   -0.35   -8.81  -13.84 -120.62
    5.18  -13.91 -120.62   -0.36   -8.47   -0.36   -8.47  -13.91 -120.62
    5.22  -13.92 -120.44   -0.32   -8.80   -0.32   -8.80  -13.92 -120.44
    5.26  -14.07 -121.04   -0.33   -8.94   -0.33   -8.94  -14.07 -121.04
    5.30  -14.04 -120.44   -0.34   -9.12   -0.34   -9.12  -14.04 -120.44
    5.34  -14.12 -121.08   -0.35   -9.07   -0.35   -9.07  -14.12 -121.08
    5.38  -14.21 -121.25   -0.32   -9.33   -0.32   -9.33  -14.21 -121.25
    5.42  -14.34 -120.79   -0.35   -9.24   -0.35   -9.24  -14.34 -120.79
    5.46  -14.32 -120.72   -0.34   -9.49   -0.34   -9.49  -14.32 -120.72
    5.50  -14.43 -121.41   -0.34   -9.74   -0.34   -9.74  -14.43 -121.41
    5.54  -14.59 -121.14   -0.38   -9.62   -0.38   -9.62  -14.59 -121.14
    5.58  -14.62 -119.77   -0.35   -9.74   -0.35   -9.74  -14.62 -119.77
    5.62  -14.75 -120.89   -0.37   -9.90   -0.37   -9.90  -14.75 -120.89
    5.65  -14.84 -120.52   -0.37   -9.94   -0.37   -9.94  -14.84 -120.52
    5.69  -14.92 -120.87   -0.37  -10.26   -0.37  -10.26  -14.92 -120.87
    5.73  -15.02 -121.11   -0.35  -10.41   -0.35  -10.41  -15.02 -121.11
    5.77  -15.30 -121.17   -0.38  -10.43   -0.38  -10.43  -15.30 -121.17
    5.81  -15.37 -120.64   -0.35  -10.70   -0.35  -10.70  -15.37 -120.64
    5.85  -15.66 -120.99   -0.36  -10.97   -0.36  -10.97  -15.66 -120.99
    5.89  -15.91 -120.64   -0.36  -11.31   -0.36  -11.31  -15.91 -120.64
    5.93  -16.30 -120.13   -0.38  -11.65   -0.38  -11.65  -16.30 -120.13
    5.97  -16.63 -118.74   -0.42  -12.02   -0.42  -12.02  -16.63 -118.74
    6.01  -17.24 -116.91   -0.45  -12.66   -0.45  -12.66  -17.24 -116.91
    6.05  -17.68 -112.62   -0.52  -13.26   -0.52  -13.26  -17.68 -112.62
    6.09  -18.20 -105.84   -0.64  -14.00   -0.64  -14.00  -18.20 -105.84
    6.13  -18.10  -94.09   -0.84  -14.82   -0.84  -14.82  -18.10  -94.09
    6.17  -16.52  -82.69   -1.18  -14.65   -1.18  -14.65  -16.52  -82.69
    6.21  -14.00  -82.68   -1.59  -12.30   -1.59  -12.30  -14.00  -82.68
    6.25  -12.53  -92.16   -1.52   -9.11   -1.52   -9.11  -12.53  -92.16
    6.29  -12.22 -101.19   -1.25   -7.14   -1.25   -7.14  -12.22 -101.19
    6.33  -12.39 -107.61   -0.96   -6.91   -0.96   -6.91  -12.39 -107.61
    6.37  -12.73 -111.97   -0.79   -7.20   -0.79   -7.20  -12.73 -111.97
    6.41  -13.09 -114.60   -0.69   -7.57   -0.69   -7.57  -13.09 -114.60
    6.45  -13.38 -116.05   -0.63   -7.98   -0.63   -7.98  -13.38 -116.05
    6.49  -13.58 -117.64   -0.58   -8.31   -0.58   -8.31  -13.58 -117.64
    6.53  -13.96 -118.46   -0.57   -8.67   -0.57   -8.67  -13.96 -118.46
    6.57  -14.09 -119.16   -0.52   -8.91   -0.52   -8.91  -14.09 -119.16
    6.61  -14.33 -119.78   -0.52   -9.11   -0.52   -9.11  -14.33 -119.78
    6.65  -14.55 -119.58   -0.50   -9.35   -0.50   -9.35  -14.55 -119.58
    6.69  -14.75 -119.87   -0.50   -9.54   -0.50   -9.54  -14.75 -119.87
    6.73  -14.84 -120.21   -0.50   -9.86   -0.50   -9.86  -14.84 -120.21
    6.77  -15.08 -120.18   -0.52   -9.87   -0.52   -9.87  -15.08 -120.18
    6.81  -15.19 -119.53   -0.50  -10.15   -0.50  -10.15  -15.19 -119.53
    6.85  -15.34 -119.28   -0.51  -10.26   -0.51  -10.26  -15.34 -119.28
    6.89  -15.35 -119.37   -0.51  -10.68   -0.51  -10.68  -15.35 -119.37
    6.93  -15.56 -119.70   -0.52  -10.48   -0.52  -10.48  -15.56 -119.70
    6.97  -15.54 -119.19   -0.53  -10.68   -0.53  -10.68  -15.54 -119.19
    7.01  -15.70 -119.45   -0.53  -10.73   -0.53  -10.73  -15.70 -119.45
    7.05  -15.78 -118.67   -0.51  -10.69   -0.51  -10.69  -15.78 -118.67
    7.09  -15.88 -119.39   -0.54  -10.85   -0.54  -10.85  -15.88 -119.39
    7.13  -15.99 -119.04   -0.54  -11.01   -0.54  -11.01  -15.99 -119.04
    7.17  -16.08 -118.80   -0.55  -11.07   -0.55  -11.07  -16.08 -118.80
    7.21  -16.19 -118.25   -0.57  -11.19   -0.57  -11.19  -16.19 -118.25
    7.24  -16.24 -117.93   -0.57  -11.43   -0.57  -11.43  -16.24 -117.93
    7.28  -16.32 -117.38   -0.59  -11.42   -0.59  -11.42  -16.32 -117.38
    7.32  -16.32 -117.18   -0.60  -11.49   -0.60  -11.49  -16.32 -117.18
    7.36  -16.29 -116.95   -0.63  -11.45   -0.63  -11.45  -16.29 -116.95
    7.40  -16.32 -116.97   -0.62  -11.48   -0.62  -11.48  -16.32 -116.97
    7.44  -16.41 -116.30   -0.64  -11.48   -0.64  -11.48  -16.41 -116.30
    7.48  -16.23 -116.28   -0.63  -11.49   -0.63  -11.49  -16.23 -116.28
    7.52  -16.35 -116.68   -0.67  -11.22   -0.67  -11.22  -16.35 -116.68
    7.56  -16.18 -116.22   -0.64  -11.57   -0.64  -11.57  -16.18 -116.22
    7.60  -16.26 -117.26   -0.64  -11.37   -0.64  -11.37  -16.26 -117.26
    7.64  -16.24 -116.99   -0.63  -11.33   -0.63  -11.33  -16.24 -116.99
    7.68  -16.27 -117.67   -0.63  -11.58   -0.63  -11.58  -16.27 -117.67
    7.72  -16.22 -118.10   -0.63  -11.45   -0.63  -11.45  -16.22 -118.10
    7.76  -16.30 -118.98   -0.65  -11.53   -0.65  -11.53  -16.30 -118.98
    7.80  -16.33 -119.30   -0.63  -11.38   -0.63  -11.38  -16.33 -119.30
    7.84  -16.43 -119.79   -0.62  -11.69   -0.62  -11.69  -16.43 -119.79
    7.88  -16.42 -120.21   -0.59  -11.68   -0.59  -11.68  -16.42 -120.21
    7.92  -16.57 -120.68   -0.61  -11.81   -0.61  -11.81  -16.57 -120.68
    7.96  -16.60 -120.70   -0.59  -11.97   -0.59  -11.97  -16.60 -120.70
    8.00  -16.70 -121.89   -0.58  -11.96   -0.58  -11.96  -16.70 -121.89
