!  American Technical Ceramics  Date:    3/13/98
!  One Norden Lane
!  Huntington Station,  NY.   11746-2102
!  Tel:  (516) 547-5700               Fax:  (516) 547-5748
!  Part Number  180r1r2d
!  Description: Porcelain, High Q, Low ESR
!  Application: Bypass, Coupling, Timing, Feedback
!               Tuning, Impedance Match, Blocking
# GHZ S DB R 50
! Freq   |S11|   S11 Ph  |S21|   S21 Ph  |S12|   S12 Ph  |S22|   S22 Ph
    0.05   -0.01   -1.43  -27.92   87.92  -27.92   87.92   -0.01   -1.43
    0.15   -0.01   -7.57  -18.97   83.10  -18.97   83.10   -0.01   -7.57
    0.25   -0.13  -12.13  -14.66   78.21  -14.66   78.21   -0.13  -12.13
    0.35   -0.24  -16.87  -11.87   73.88  -11.87   73.88   -0.24  -16.87
    0.45   -0.41  -21.43   -9.91   69.68   -9.91   69.68   -0.41  -21.43
    0.55   -0.75  -26.34   -8.29   64.88   -8.29   64.88   -0.75  -26.34
    0.65   -0.98  -30.41   -7.09   61.01   -7.09   61.01   -0.98  -30.41
    0.75   -1.24  -34.21   -6.14   57.17   -6.14   57.17   -1.24  -34.21
    0.85   -1.56  -38.11   -5.41   53.84   -5.41   53.84   -1.56  -38.11
    0.95   -1.80  -41.27   -4.78   50.89   -4.78   50.89   -1.80  -41.27
    1.05   -2.07  -44.40   -4.30   47.96   -4.30   47.96   -2.07  -44.40
    1.15   -2.33  -47.46   -3.82   45.23   -3.82   45.23   -2.33  -47.46
    1.25   -2.66  -49.75   -3.42   43.00   -3.42   43.00   -2.66  -49.75
    1.35   -2.95  -52.60   -3.14   40.65   -3.14   40.65   -2.95  -52.60
    1.45   -3.20  -54.82   -2.91   38.46   -2.91   38.46   -3.20  -54.82
    1.55   -3.43  -57.06   -2.69   36.37   -2.69   36.37   -3.43  -57.06
    1.65   -3.69  -59.11   -2.48   34.58   -2.48   34.58   -3.69  -59.11
    1.75   -3.92  -61.05   -2.24   33.04   -2.24   33.04   -3.92  -61.05
    1.85   -4.21  -63.02   -2.11   31.56   -2.11   31.56   -4.21  -63.02
    1.95   -4.43  -64.44   -2.01   29.91   -2.01   29.91   -4.43  -64.44
    2.05   -4.63  -66.10   -1.91   28.39   -1.91   28.39   -4.63  -66.10
    2.14   -4.80  -67.60   -1.77   26.97   -1.77   26.97   -4.80  -67.60
    2.24   -5.02  -69.17   -1.62   25.95   -1.62   25.95   -5.02  -69.17
    2.34   -5.25  -70.88   -1.56   24.73   -1.56   24.73   -5.25  -70.88
    2.44   -5.44  -72.23   -1.52   23.78   -1.52   23.78   -5.44  -72.23
    2.54   -5.61  -73.22   -1.48   22.69   -1.48   22.69   -5.61  -73.22
    2.64   -5.73  -73.68   -1.38   21.49   -1.38   21.49   -5.73  -73.68
    2.74   -5.95  -74.86   -1.31   20.59   -1.31   20.59   -5.95  -74.86
    2.84   -6.18  -76.39   -1.26   19.38   -1.26   19.38   -6.18  -76.39
    2.94   -6.26  -78.08   -1.20   18.54   -1.20   18.54   -6.26  -78.08
    3.04   -6.37  -78.18   -1.23   17.67   -1.23   17.67   -6.37  -78.18
    3.14   -6.51  -79.46   -1.15   16.70   -1.15   16.70   -6.51  -79.46
    3.24   -6.59  -79.93   -1.14   16.36   -1.14   16.36   -6.59  -79.93
    3.34   -6.90  -81.99   -1.09   14.88   -1.09   14.88   -6.90  -81.99
    3.44   -6.89  -83.20   -1.09   14.65   -1.09   14.65   -6.89  -83.20
    3.54   -6.98  -83.39   -1.10   13.67   -1.10   13.67   -6.98  -83.39
    3.64   -6.92  -84.31   -1.03   13.07   -1.03   13.07   -6.92  -84.31
    3.74   -7.15  -84.56   -1.07   12.36   -1.07   12.36   -7.15  -84.56
    3.84   -7.26  -86.41   -1.03   11.62   -1.03   11.62   -7.26  -86.41
    3.94   -7.28  -87.06   -1.05   11.03   -1.05   11.03   -7.28  -87.06
    4.04   -7.31  -88.47   -1.01   10.47   -1.01   10.47   -7.31  -88.47
    4.14   -7.27  -89.27   -0.96    9.99   -0.96    9.99   -7.27  -89.27
    4.24   -7.34  -89.57   -0.98    9.61   -0.98    9.61   -7.34  -89.57
    4.34   -7.49  -91.47   -0.98    8.91   -0.98    8.91   -7.49  -91.47
    4.44   -7.50  -92.18   -0.99    8.70   -0.99    8.70   -7.50  -92.18
    4.54   -7.52  -92.89   -1.01    7.69   -1.01    7.69   -7.52  -92.89
    4.64   -7.49  -93.32   -0.93    7.31   -0.93    7.31   -7.49  -93.32
    4.74   -7.47  -92.62   -0.94    7.52   -0.94    7.52   -7.47  -92.62
    4.84   -7.61  -94.10   -0.97    6.81   -0.97    6.81   -7.61  -94.10
    4.94   -7.59  -94.48   -1.01    6.68   -1.01    6.68   -7.59  -94.48
    5.04   -7.68  -95.38   -0.99    5.77   -0.99    5.77   -7.68  -95.38
    5.14   -7.50  -95.84   -0.96    5.33   -0.96    5.33   -7.50  -95.84
    5.24   -7.65  -96.00   -0.95    5.54   -0.95    5.54   -7.65  -96.00
    5.34   -7.57  -96.76   -0.93    5.29   -0.93    5.29   -7.57  -96.76
    5.44   -7.78  -96.53   -1.03    4.89   -1.03    4.89   -7.78  -96.53
    5.54   -7.64  -98.00   -1.02    4.18   -1.02    4.18   -7.64  -98.00
    5.64   -7.65  -97.66   -0.99    4.07   -0.99    4.07   -7.65  -97.66
    5.74   -7.57  -99.08   -0.96    3.93   -0.96    3.93   -7.57  -99.08
    5.84   -7.69  -98.45   -0.98    3.99   -0.98    3.99   -7.69  -98.45
    5.94   -7.76 -100.12   -1.01    3.45   -1.01    3.45   -7.76 -100.12
    6.04   -7.81 -100.24   -1.01    3.10   -1.01    3.10   -7.81 -100.24
    6.13   -7.68 -100.81   -0.96    2.76   -0.96    2.76   -7.68 -100.81
    6.23   -7.77 -100.89   -0.99    2.78   -0.99    2.78   -7.77 -100.89
    6.33   -7.79 -101.49   -0.96    2.79   -0.96    2.79   -7.79 -101.49
    6.43   -7.98 -102.33   -1.01    2.71   -1.01    2.71   -7.98 -102.33
    6.53   -7.94 -103.30   -0.99    2.01   -0.99    2.01   -7.94 -103.30
    6.63   -7.98 -103.30   -0.99    1.96   -0.99    1.96   -7.98 -103.30
    6.73   -7.99 -103.59   -0.95    1.56   -0.95    1.56   -7.99 -103.59
    6.83   -8.26 -103.78   -0.99    1.84   -0.99    1.84   -8.26 -103.78
    6.93   -8.24 -104.62   -1.03    1.39   -1.03    1.39   -8.24 -104.62
    7.03   -8.33 -104.64   -1.04    1.45   -1.04    1.45   -8.33 -104.64
    7.13   -8.22 -104.79   -1.03    1.07   -1.03    1.07   -8.22 -104.79
    7.23   -8.38 -105.06   -0.98    0.79   -0.98    0.79   -8.38 -105.06
    7.33   -8.47 -105.07   -1.02    0.91   -1.02    0.91   -8.47 -105.07
    7.43   -8.66 -105.59   -1.05    0.79   -1.05    0.79   -8.66 -105.59
    7.53   -8.54 -104.78   -1.06    0.56   -1.06    0.56   -8.54 -104.78
    7.63   -8.65 -105.21   -1.09    0.74   -1.09    0.74   -8.65 -105.21
    7.73   -8.49 -105.23   -1.04    0.05   -1.04    0.05   -8.49 -105.23
    7.83   -8.73 -105.84   -1.03    0.64   -1.03    0.64   -8.73 -105.84
    7.93   -8.72 -106.53   -1.04    0.10   -1.04    0.10   -8.72 -106.53
    8.03   -8.88 -106.57   -1.01    0.11   -1.01    0.11   -8.88 -106.57
    8.13   -8.73 -106.74   -1.06   -0.30   -1.06   -0.30   -8.73 -106.74
    8.23   -8.81 -106.46   -1.02   -0.64   -1.02   -0.64   -8.81 -106.46
    8.33   -8.86 -107.01   -1.02   -0.48   -1.02   -0.48   -8.86 -107.01
    8.43   -8.96 -108.21   -1.03   -0.65   -1.03   -0.65   -8.96 -108.21
    8.53   -8.95 -108.93   -1.01   -0.71   -1.01   -0.71   -8.95 -108.93
    8.63   -9.02 -108.89   -1.01   -1.00   -1.01   -1.00   -9.02 -108.89
    8.73   -9.10 -109.36   -1.00   -1.63   -1.00   -1.63   -9.10 -109.36
    8.83   -9.19 -109.92   -0.95   -1.74   -0.95   -1.74   -9.19 -109.92
    8.93   -9.31 -111.16   -0.97   -2.13   -0.97   -2.13   -9.31 -111.16
    9.03   -9.27 -111.67   -1.02   -2.43   -1.02   -2.43   -9.27 -111.67
    9.13   -9.30 -111.70   -1.02   -2.37   -1.02   -2.37   -9.30 -111.70
    9.23   -9.31 -112.60   -1.02   -2.72   -1.02   -2.72   -9.31 -112.60
    9.33   -9.32 -113.05   -1.02   -3.12   -1.02   -3.12   -9.32 -113.05
    9.43   -9.47 -115.21   -1.03   -3.28   -1.03   -3.28   -9.47 -115.21
    9.53   -9.41 -116.34   -1.02   -3.36   -1.02   -3.36   -9.41 -116.34
    9.63   -9.44 -116.96   -1.01   -3.81   -1.01   -3.81   -9.44 -116.96
    9.73   -9.33 -118.26   -1.03   -3.76   -1.03   -3.76   -9.33 -118.26
    9.83   -9.35 -119.30   -1.07   -4.14   -1.07   -4.14   -9.35 -119.30
    9.93   -9.49 -121.66   -1.04   -4.51   -1.04   -4.51   -9.49 -121.66
   10.03   -9.39 -123.27   -1.01   -4.62   -1.01   -4.62   -9.39 -123.27
   10.12   -9.37 -124.52   -1.03   -4.97   -1.03   -4.97   -9.37 -124.52
   10.22   -9.19 -125.50   -1.07   -4.99   -1.07   -4.99   -9.19 -125.50
   10.32   -9.26 -126.35   -1.12   -5.29   -1.12   -5.29   -9.26 -126.35
   10.42   -9.38 -128.33   -1.13   -5.45   -1.13   -5.45   -9.38 -128.33
   10.52   -9.31 -130.49   -1.16   -6.04   -1.16   -6.04   -9.31 -130.49
   10.62   -9.28 -130.90   -1.13   -6.23   -1.13   -6.23   -9.28 -130.90
   10.72   -9.17 -132.86   -1.11   -6.24   -1.11   -6.24   -9.17 -132.86
   10.82   -9.17 -132.17   -1.17   -6.01   -1.17   -6.01   -9.17 -132.17
   10.92   -9.34 -134.89   -1.22   -6.72   -1.22   -6.72   -9.34 -134.89
   11.02   -9.25 -135.22   -1.20   -6.71   -1.20   -6.71   -9.25 -135.22
   11.12   -9.29 -136.96   -1.19   -7.20   -1.19   -7.20   -9.29 -136.96
   11.22   -9.07 -136.90   -1.18   -7.01   -1.18   -7.01   -9.07 -136.90
   11.32   -9.22 -137.81   -1.26   -7.18   -1.26   -7.18   -9.22 -137.81
   11.42   -9.28 -138.68   -1.29   -7.40   -1.29   -7.40   -9.28 -138.68
   11.52   -9.23 -139.66   -1.31   -7.64   -1.31   -7.64   -9.23 -139.66
   11.62   -9.26 -139.26   -1.28   -7.76   -1.28   -7.76   -9.26 -139.26
   11.72   -9.25 -140.86   -1.30   -8.06   -1.30   -8.06   -9.25 -140.86
   11.82   -9.26 -140.54   -1.32   -7.91   -1.32   -7.91   -9.26 -140.54
   11.92   -9.55 -142.11   -1.37   -8.21   -1.37   -8.21   -9.55 -142.11
   12.02   -9.44 -143.03   -1.35   -8.13   -1.35   -8.13   -9.44 -143.03
   12.12   -9.55 -143.74   -1.37   -8.47   -1.37   -8.47   -9.55 -143.74
   12.22   -9.54 -144.13   -1.37   -8.41   -1.37   -8.41   -9.54 -144.13
   12.32   -9.60 -144.90   -1.37   -8.52   -1.37   -8.52   -9.60 -144.90
   12.42   -9.88 -145.28   -1.42   -8.50   -1.42   -8.50   -9.88 -145.28
   12.52   -9.96 -147.21   -1.46   -8.78   -1.46   -8.78   -9.96 -147.21
   12.62  -10.06 -146.45   -1.42   -8.41   -1.42   -8.41  -10.06 -146.45
   12.72  -10.13 -148.29   -1.46   -9.00   -1.46   -9.00  -10.13 -148.29
   12.82  -10.13 -148.69   -1.41   -8.90   -1.41   -8.90  -10.13 -148.69
   12.92  -10.70 -152.25   -1.50   -7.99   -1.50   -7.99  -10.70 -152.25
   13.02  -11.01 -150.75   -1.35   -7.93   -1.35   -7.93  -11.01 -150.75
   13.12  -11.13 -151.31   -1.36   -8.70   -1.36   -8.70  -11.13 -151.31
   13.22  -11.24 -151.22   -1.28   -8.97   -1.28   -8.97  -11.24 -151.22
   13.32  -11.44 -152.82   -1.29   -9.31   -1.29   -9.31  -11.44 -152.82
   13.42  -11.74 -153.73   -1.27   -9.24   -1.27   -9.24  -11.74 -153.73
   13.52  -11.97 -156.29   -1.30   -9.43   -1.30   -9.43  -11.97 -156.29
   13.62  -12.15 -157.15   -1.28   -9.76   -1.28   -9.76  -12.15 -157.15
   13.72  -12.51 -158.68   -1.33  -10.49   -1.33  -10.49  -12.51 -158.68
   13.82  -12.81 -159.19   -1.24  -10.48   -1.24  -10.48  -12.81 -159.19
   13.92  -13.15 -161.58   -1.27  -10.74   -1.27  -10.74  -13.15 -161.58
   14.02  -13.53 -163.39   -1.28  -10.93   -1.28  -10.93  -13.53 -163.39
   14.11  -13.99 -166.22   -1.29  -11.26   -1.29  -11.26  -13.99 -166.22
   14.21  -14.19 -167.03   -1.30  -11.75   -1.30  -11.75  -14.19 -167.03
   14.31  -14.41 -168.08   -1.29  -12.11   -1.29  -12.11  -14.41 -168.08
   14.41  -14.86 -172.24   -1.33  -12.66   -1.33  -12.66  -14.86 -172.24
   14.51  -15.16 -175.76   -1.29  -12.87   -1.29  -12.87  -15.16 -175.76
   14.61  -15.53 -178.48   -1.35  -13.26   -1.35  -13.26  -15.53 -178.48
   14.71  -15.71  178.03   -1.40  -13.74   -1.40  -13.74  -15.71  178.03
   14.81  -15.98  174.08   -1.41  -13.92   -1.41  -13.92  -15.98  174.08
   14.91  -16.17  170.11   -1.46  -14.28   -1.46  -14.28  -16.17  170.11
   15.01  -16.59  163.47   -1.49  -14.60   -1.49  -14.60  -16.59  163.47
   15.11  -16.86  159.99   -1.54  -14.72   -1.54  -14.72  -16.86  159.99
   15.21  -16.96  154.21   -1.57  -14.90   -1.57  -14.90  -16.96  154.21
   15.31  -17.13  151.55   -1.59  -15.25   -1.59  -15.25  -17.13  151.55
   15.41  -17.26  145.09   -1.57  -15.56   -1.57  -15.56  -17.26  145.09
   15.51  -17.49  142.37   -1.58  -15.80   -1.58  -15.80  -17.49  142.37
   15.61  -17.52  137.50   -1.59  -16.09   -1.59  -16.09  -17.52  137.50
   15.71  -17.33  136.11   -1.65  -16.09   -1.65  -16.09  -17.33  136.11
   15.81  -17.15  133.00   -1.68  -16.58   -1.68  -16.58  -17.15  133.00
   15.91  -17.20  130.20   -1.72  -17.00   -1.72  -17.00  -17.20  130.20
   16.01  -17.22  126.91   -1.74  -17.34   -1.74  -17.34  -17.22  126.91
   16.11  -16.97  125.50   -1.72  -17.76   -1.72  -17.76  -16.97  125.50
   16.21  -16.72  123.73   -1.75  -18.05   -1.75  -18.05  -16.72  123.73
   16.31  -16.38  121.49   -1.74  -18.51   -1.74  -18.51  -16.38  121.49
   16.41  -16.26  120.81   -1.79  -18.78   -1.79  -18.78  -16.26  120.81
   16.51  -16.05  118.60   -1.78  -19.36   -1.78  -19.36  -16.05  118.60
   16.61  -15.89  116.71   -1.87  -20.04   -1.87  -20.04  -15.89  116.71
   16.71  -15.74  116.56   -1.87  -20.57   -1.87  -20.57  -15.74  116.56
   16.81  -15.15  114.85   -1.92  -21.00   -1.92  -21.00  -15.15  114.85
   16.91  -14.99  114.44   -2.00  -21.62   -2.00  -21.62  -14.99  114.44
   17.01  -14.35  111.91   -2.06  -22.08   -2.06  -22.08  -14.35  111.91
   17.11  -14.26  110.31   -2.18  -22.27   -2.18  -22.27  -14.26  110.31
   17.21  -13.79  106.02   -2.30  -22.82   -2.30  -22.82  -13.79  106.02
   17.31  -13.76  103.76   -2.34  -22.76   -2.34  -22.76  -13.76  103.76
   17.41  -13.47  100.71   -2.33  -22.95   -2.33  -22.95  -13.47  100.71
   17.51  -13.58   96.52   -2.39  -23.07   -2.39  -23.07  -13.58   96.52
   17.61  -13.36   93.77   -2.36  -23.50   -2.36  -23.50  -13.36   93.77
   17.71  -13.69   90.49   -2.42  -23.35   -2.42  -23.35  -13.69   90.49
   17.81  -13.43   87.49   -2.39  -24.28   -2.39  -24.28  -13.43   87.49
   17.91  -13.62   84.40   -2.41  -24.72   -2.41  -24.72  -13.62   84.40
   18.01  -13.60   81.42   -2.42  -25.45   -2.42  -25.45  -13.60   81.42
   18.10  -13.58   78.44   -2.42  -26.48   -2.42  -26.48  -13.58   78.44
   18.20  -13.34   75.56   -2.54  -26.89   -2.54  -26.89  -13.34   75.56
   18.30  -13.12   72.60   -2.60  -28.15   -2.60  -28.15  -13.12   72.60
   18.40  -12.85   69.07   -2.72  -28.64   -2.72  -28.64  -12.85   69.07
   18.50  -12.40   64.68   -2.83  -29.29   -2.83  -29.29  -12.40   64.68
   18.60  -12.14   59.89   -2.91  -29.74   -2.91  -29.74  -12.14   59.89
   18.70  -11.76   55.67   -3.00  -30.27   -3.00  -30.27  -11.76   55.67
   18.80  -11.22   51.39   -3.13  -30.86   -3.13  -30.86  -11.22   51.39
   18.90  -10.89   46.93   -3.22  -31.51   -3.22  -31.51  -10.89   46.93
   19.00  -10.41   41.40   -3.28  -31.82   -3.28  -31.82  -10.41   41.40
   19.10  -10.04   37.81   -3.36  -32.81   -3.36  -32.81  -10.04   37.81
   19.20   -9.63   33.67   -3.46  -33.41   -3.46  -33.41   -9.63   33.67
   19.30   -9.16   30.07   -3.59  -34.14   -3.59  -34.14   -9.16   30.07
   19.40   -8.79   26.62   -3.68  -35.39   -3.68  -35.39   -8.79   26.62
   19.50   -8.35   22.42   -3.75  -36.24   -3.75  -36.24   -8.35   22.42
   19.60   -8.02   20.82   -3.99  -37.16   -3.99  -37.16   -8.02   20.82
   19.70   -7.47   16.54   -4.11  -38.25   -4.11  -38.25   -7.47   16.54
   19.80   -7.05   15.62   -4.32  -38.99   -4.32  -38.99   -7.05   15.62
   19.90   -6.67   12.03   -4.49  -39.80   -4.49  -39.80   -6.67   12.03
   20.00   -6.38   10.07   -4.69  -40.54   -4.69  -40.54   -6.38   10.07
