!  American Technical Ceramics  Date:    3/13/98
!  One Norden Lane
!  Huntington Station,  NY.   11746-2102
!  Tel:  (516) 547-5700               Fax:  (516) 547-5748
!  Part Number  180r560k
!  Description: Porcelain, High Q, Low ESR
!  Application: Bypass, Coupling, Timing, Feedback
!               Tuning, Impedance Match, Blocking
# GHZ S DB R 50
! Freq   |S11|   S11 Ph  |S21|   S21 Ph  |S12|   S12 Ph  |S22|   S22 Ph
    0.05   -6.13  -60.68   -1.19   29.42   -1.19   29.42   -6.13  -60.68
    0.09  -10.27  -73.04   -0.42   17.63   -0.42   17.63  -10.27  -73.04
    0.13  -13.09  -78.49   -0.30   12.29   -0.30   12.29  -13.09  -78.49
    0.17  -15.20  -81.70   -0.14    9.35   -0.14    9.35  -15.20  -81.70
    0.21  -16.80  -83.84   -0.08    7.46   -0.08    7.46  -16.80  -83.84
    0.25  -18.05  -85.39   -0.04    6.36   -0.04    6.36  -18.05  -85.39
    0.29  -19.02  -86.59   -0.06    5.49   -0.06    5.49  -19.02  -86.59
    0.33  -19.76  -87.31   -0.05    4.75   -0.05    4.75  -19.76  -87.31
    0.37  -20.44  -87.99   -0.04    3.95   -0.04    3.95  -20.44  -87.99
    0.41  -20.92  -88.77   -0.03    3.75   -0.03    3.75  -20.92  -88.77
    0.45  -21.31  -89.04   -0.02    3.30   -0.02    3.30  -21.31  -89.04
    0.49  -21.61  -89.78   -0.01    3.01   -0.01    3.01  -21.61  -89.78
    0.53  -21.98  -90.27   -0.03    2.55   -0.03    2.55  -21.98  -90.27
    0.57  -22.12  -90.76   -0.04    2.55   -0.04    2.55  -22.12  -90.76
    0.61  -22.27  -90.97   -0.03    2.18   -0.03    2.18  -22.27  -90.97
    0.65  -22.28  -91.21   -0.03    2.03   -0.03    2.03  -22.28  -91.21
    0.69  -22.34  -91.69   -0.04    1.92   -0.04    1.92  -22.34  -91.69
    0.73  -22.36  -91.84   -0.03    1.65   -0.03    1.65  -22.36  -91.84
    0.77  -22.36  -92.13   -0.03    1.55   -0.03    1.55  -22.36  -92.13
    0.81  -22.30  -92.17   -0.02    1.49   -0.02    1.49  -22.30  -92.17
    0.85  -22.28  -92.46   -0.03    1.44   -0.03    1.44  -22.28  -92.46
    0.88  -22.23  -92.41   -0.04    1.30   -0.04    1.30  -22.23  -92.41
    0.92  -22.15  -92.60   -0.03    1.13   -0.03    1.13  -22.15  -92.60
    0.96  -22.04  -93.00   -0.04    0.99   -0.04    0.99  -22.04  -93.00
    1.00  -21.98  -93.29   -0.04    0.92   -0.04    0.92  -21.98  -93.29
    1.04  -21.87  -93.16   -0.04    1.02   -0.04    1.02  -21.87  -93.16
    1.08  -21.75  -93.71   -0.03    0.80   -0.03    0.80  -21.75  -93.71
    1.12  -21.62  -93.57   -0.04    0.75   -0.04    0.75  -21.62  -93.57
    1.16  -21.50  -93.77   -0.03    0.59   -0.03    0.59  -21.50  -93.77
    1.20  -21.40  -93.73   -0.05    0.54   -0.05    0.54  -21.40  -93.73
    1.24  -21.30  -94.13   -0.03    0.51   -0.03    0.51  -21.30  -94.13
    1.28  -21.17  -93.91   -0.06    0.47   -0.06    0.47  -21.17  -93.91
    1.32  -21.01  -94.14   -0.05    0.46   -0.05    0.46  -21.01  -94.14
    1.36  -20.91  -94.23   -0.06    0.34   -0.06    0.34  -20.91  -94.23
    1.40  -20.79  -94.19   -0.05    0.44   -0.05    0.44  -20.79  -94.19
    1.44  -20.71  -94.65   -0.05    0.21   -0.05    0.21  -20.71  -94.65
    1.48  -20.56  -94.60   -0.05    0.32   -0.05    0.32  -20.56  -94.60
    1.52  -20.49  -94.93   -0.05    0.12   -0.05    0.12  -20.49  -94.93
    1.56  -20.28  -94.98   -0.05    0.10   -0.05    0.10  -20.28  -94.98
    1.60  -20.24  -95.32   -0.06    0.08   -0.06    0.08  -20.24  -95.32
    1.64  -20.07  -95.09   -0.05   -0.03   -0.05   -0.03  -20.07  -95.09
    1.68  -20.03  -95.79   -0.08   -0.07   -0.08   -0.07  -20.03  -95.79
    1.72  -19.91  -95.18   -0.06   -0.10   -0.06   -0.10  -19.91  -95.18
    1.76  -19.93  -94.97   -0.07    0.05   -0.07    0.05  -19.93  -94.97
    1.80  -19.33  -92.25   -0.13   -0.10   -0.13   -0.10  -19.33  -92.25
    1.84  -19.25  -96.09   -0.08    0.02   -0.08    0.02  -19.25  -96.09
    1.88  -19.21  -95.66   -0.07   -0.08   -0.07   -0.08  -19.21  -95.66
    1.92  -19.17  -96.07   -0.08   -0.07   -0.08   -0.07  -19.17  -96.07
    1.96  -19.03  -96.07   -0.08   -0.25   -0.08   -0.25  -19.03  -96.07
    2.00  -18.98  -96.32   -0.06   -0.15   -0.06   -0.15  -18.98  -96.32
    2.04  -18.85  -96.71   -0.08   -0.28   -0.08   -0.28  -18.85  -96.71
    2.08  -18.78  -96.82   -0.07   -0.27   -0.07   -0.27  -18.78  -96.82
    2.12  -18.63  -96.86   -0.10   -0.35   -0.10   -0.35  -18.63  -96.86
    2.16  -18.51  -96.95   -0.08   -0.41   -0.08   -0.41  -18.51  -96.95
    2.20  -18.46  -97.37   -0.09   -0.44   -0.09   -0.44  -18.46  -97.37
    2.24  -18.33  -97.51   -0.09   -0.50   -0.09   -0.50  -18.33  -97.51
    2.28  -18.29  -97.54   -0.10   -0.46   -0.10   -0.46  -18.29  -97.54
    2.32  -18.10  -97.59   -0.10   -0.59   -0.10   -0.59  -18.10  -97.59
    2.36  -18.08  -98.08   -0.09   -0.63   -0.09   -0.63  -18.08  -98.08
    2.40  -17.91  -97.94   -0.09   -0.62   -0.09   -0.62  -17.91  -97.94
    2.44  -17.92  -98.40   -0.12   -0.61   -0.12   -0.61  -17.92  -98.40
    2.47  -17.75  -98.14   -0.09   -0.72   -0.09   -0.72  -17.75  -98.14
    2.51  -17.68  -98.66   -0.10   -0.62   -0.10   -0.62  -17.68  -98.66
    2.55  -17.61  -98.55   -0.13   -0.79   -0.13   -0.79  -17.61  -98.55
    2.59  -17.57  -99.20   -0.14   -0.70   -0.14   -0.70  -17.57  -99.20
    2.63  -17.43  -99.05   -0.12   -0.87   -0.12   -0.87  -17.43  -99.05
    2.67  -17.39  -99.41   -0.11   -0.87   -0.11   -0.87  -17.39  -99.41
    2.71  -17.29  -99.45   -0.13   -1.14   -0.13   -1.14  -17.29  -99.45
    2.75  -17.26  -99.80   -0.11   -0.98   -0.11   -0.98  -17.26  -99.80
    2.79  -17.17  -99.78   -0.12   -1.15   -0.12   -1.15  -17.17  -99.78
    2.83  -17.19 -100.07   -0.12   -1.20   -0.12   -1.20  -17.19 -100.07
    2.87  -17.16 -100.13   -0.14   -1.40   -0.14   -1.40  -17.16 -100.13
    2.91  -17.20 -100.25   -0.13   -1.40   -0.13   -1.40  -17.20 -100.25
    2.95  -17.41 -100.07   -0.14   -1.79   -0.14   -1.79  -17.41 -100.07
    2.99  -17.69  -99.04   -0.16   -2.21   -0.16   -2.21  -17.69  -99.04
    3.03  -18.42  -94.42   -0.26   -2.80   -0.26   -2.80  -18.42  -94.42
    3.07  -17.37  -72.27   -0.69   -3.67   -0.69   -3.67  -17.37  -72.27
    3.11  -13.91  -87.10   -0.66    1.28   -0.66    1.28  -13.91  -87.10
    3.15  -14.41  -96.56   -0.30    0.82   -0.30    0.82  -14.41  -96.56
    3.19  -14.80  -99.01   -0.26    0.30   -0.26    0.30  -14.80  -99.01
    3.23  -14.84 -100.14   -0.21   -0.17   -0.21   -0.17  -14.84 -100.14
    3.27  -14.99 -101.15   -0.22   -0.12   -0.22   -0.12  -14.99 -101.15
    3.31  -14.95 -101.23   -0.22   -0.55   -0.22   -0.55  -14.95 -101.23
    3.35  -14.94 -101.62   -0.21   -0.53   -0.21   -0.53  -14.94 -101.62
    3.39  -14.79 -101.85   -0.21   -0.73   -0.21   -0.73  -14.79 -101.85
    3.43  -14.84 -102.55   -0.21   -0.73   -0.21   -0.73  -14.84 -102.55
    3.47  -14.75 -102.05   -0.22   -0.79   -0.22   -0.79  -14.75 -102.05
    3.51  -14.74 -102.63   -0.23   -0.81   -0.23   -0.81  -14.74 -102.63
    3.55  -14.56 -102.59   -0.22   -0.93   -0.22   -0.93  -14.56 -102.59
    3.59  -14.49 -103.07   -0.22   -0.95   -0.22   -0.95  -14.49 -103.07
    3.63  -14.40 -103.44   -0.24   -0.92   -0.24   -0.92  -14.40 -103.44
    3.67  -14.35 -103.71   -0.23   -1.01   -0.23   -1.01  -14.35 -103.71
    3.71  -14.27 -103.40   -0.25   -1.08   -0.25   -1.08  -14.27 -103.40
    3.75  -14.12 -103.83   -0.24   -1.08   -0.24   -1.08  -14.12 -103.83
    3.79  -14.04 -104.30   -0.25   -1.17   -0.25   -1.17  -14.04 -104.30
    3.83  -13.95 -104.16   -0.26   -1.13   -0.26   -1.13  -13.95 -104.16
    3.87  -13.86 -104.51   -0.30   -1.23   -0.30   -1.23  -13.86 -104.51
    3.91  -13.71 -104.47   -0.28   -1.41   -0.28   -1.41  -13.71 -104.47
    3.95  -13.60 -104.97   -0.29   -1.21   -0.29   -1.21  -13.60 -104.97
    3.99  -13.47 -104.95   -0.29   -1.48   -0.29   -1.48  -13.47 -104.95
    4.03  -13.66 -106.85   -0.28   -1.32   -0.28   -1.32  -13.66 -106.85
    4.06  -13.51 -106.67   -0.28   -1.36   -0.28   -1.36  -13.51 -106.67
    4.10  -13.43 -107.29   -0.29   -1.46   -0.29   -1.46  -13.43 -107.29
    4.14  -13.31 -107.44   -0.28   -1.39   -0.28   -1.39  -13.31 -107.44
    4.18  -13.32 -107.91   -0.31   -1.42   -0.31   -1.42  -13.32 -107.91
    4.22  -13.15 -107.64   -0.28   -1.40   -0.28   -1.40  -13.15 -107.64
    4.26  -13.12 -108.63   -0.31   -1.43   -0.31   -1.43  -13.12 -108.63
    4.30  -13.02 -108.71   -0.31   -1.45   -0.31   -1.45  -13.02 -108.71
    4.34  -12.98 -109.15   -0.33   -1.44   -0.33   -1.44  -12.98 -109.15
    4.38  -12.88 -109.04   -0.32   -1.50   -0.32   -1.50  -12.88 -109.04
    4.42  -12.83 -109.29   -0.31   -1.50   -0.31   -1.50  -12.83 -109.29
    4.46  -12.71 -109.68   -0.33   -1.59   -0.33   -1.59  -12.71 -109.68
    4.50  -12.68 -109.85   -0.32   -1.75   -0.32   -1.75  -12.68 -109.85
    4.54  -12.59 -110.03   -0.34   -1.53   -0.34   -1.53  -12.59 -110.03
    4.58  -12.52 -110.11   -0.35   -1.54   -0.35   -1.54  -12.52 -110.11
    4.62  -12.48 -110.40   -0.36   -1.62   -0.36   -1.62  -12.48 -110.40
    4.66  -12.39 -110.63   -0.35   -1.75   -0.35   -1.75  -12.39 -110.63
    4.70  -12.37 -110.60   -0.38   -1.61   -0.38   -1.61  -12.37 -110.60
    4.74  -12.26 -110.81   -0.36   -1.81   -0.36   -1.81  -12.26 -110.81
    4.78  -12.25 -111.08   -0.39   -1.63   -0.39   -1.63  -12.25 -111.08
    4.82  -12.13 -110.96   -0.36   -1.77   -0.36   -1.77  -12.13 -110.96
    4.86  -12.11 -111.46   -0.40   -1.68   -0.40   -1.68  -12.11 -111.46
    4.90  -12.02 -111.27   -0.38   -1.68   -0.38   -1.68  -12.02 -111.27
    4.94  -11.99 -111.70   -0.40   -1.77   -0.40   -1.77  -11.99 -111.70
    4.98  -11.88 -111.99   -0.36   -1.76   -0.36   -1.76  -11.88 -111.99
    5.02  -11.95 -112.21   -0.41   -1.90   -0.41   -1.90  -11.95 -112.21
    5.06  -11.83 -111.84   -0.41   -1.69   -0.41   -1.69  -11.83 -111.84
    5.10  -11.78 -112.31   -0.41   -1.69   -0.41   -1.69  -11.78 -112.31
    5.14  -11.74 -112.63   -0.43   -2.15   -0.43   -2.15  -11.74 -112.63
    5.18  -11.75 -112.60   -0.43   -1.86   -0.43   -1.86  -11.75 -112.60
    5.22  -11.68 -112.37   -0.44   -2.01   -0.44   -2.01  -11.68 -112.37
    5.26  -11.74 -113.00   -0.43   -2.04   -0.43   -2.04  -11.74 -113.00
    5.30  -11.65 -112.46   -0.44   -2.09   -0.44   -2.09  -11.65 -112.46
    5.34  -11.66 -113.12   -0.44   -2.13   -0.44   -2.13  -11.66 -113.12
    5.38  -11.73 -113.26   -0.44   -2.38   -0.44   -2.38  -11.73 -113.26
    5.42  -11.82 -112.61   -0.47   -2.48   -0.47   -2.48  -11.82 -112.61
    5.46  -11.86 -112.12   -0.49   -2.68   -0.49   -2.68  -11.86 -112.12
    5.50  -12.04 -111.42   -0.52   -3.08   -0.52   -3.08  -12.04 -111.42
    5.54  -12.26 -107.87   -0.68   -3.57   -0.68   -3.57  -12.26 -107.87
    5.58  -11.59 -101.18   -0.91   -2.82   -0.91   -2.82  -11.59 -101.18
    5.62  -10.60 -104.28   -0.95   -0.69   -0.95   -0.69  -10.60 -104.28
    5.65  -10.35 -107.91   -0.73   -0.17   -0.73   -0.17  -10.35 -107.91
    5.69  -10.38 -110.18   -0.67   -0.22   -0.67   -0.22  -10.38 -110.18
    5.73  -10.42 -111.53   -0.61   -0.37   -0.61   -0.37  -10.42 -111.53
    5.77  -10.53 -112.14   -0.59   -0.36   -0.59   -0.36  -10.53 -112.14
    5.81  -10.46 -112.09   -0.56   -0.52   -0.56   -0.52  -10.46 -112.09
    5.85  -10.51 -112.88   -0.55   -0.63   -0.55   -0.63  -10.51 -112.88
    5.89  -10.48 -113.09   -0.54   -0.67   -0.54   -0.67  -10.48 -113.09
    5.93  -10.55 -113.46   -0.55   -0.68   -0.55   -0.68  -10.55 -113.46
    5.97  -10.48 -113.32   -0.57   -0.67   -0.57   -0.67  -10.48 -113.32
    6.01  -10.58 -113.84   -0.56   -0.70   -0.56   -0.70  -10.58 -113.84
    6.05  -10.47 -113.48   -0.56   -0.65   -0.56   -0.65  -10.47 -113.48
    6.09  -10.49 -114.07   -0.56   -0.80   -0.56   -0.80  -10.49 -114.07
    6.13  -10.47 -114.14   -0.57   -0.89   -0.57   -0.89  -10.47 -114.14
    6.17  -10.54 -114.17   -0.57   -0.63   -0.57   -0.63  -10.54 -114.17
    6.21  -10.45 -114.07   -0.58   -0.77   -0.58   -0.77  -10.45 -114.07
    6.25  -10.45 -114.56   -0.56   -0.71   -0.56   -0.71  -10.45 -114.56
    6.29  -10.46 -114.45   -0.57   -0.68   -0.57   -0.68  -10.46 -114.45
    6.33  -10.42 -114.65   -0.57   -0.58   -0.57   -0.58  -10.42 -114.65
    6.37  -10.43 -114.94   -0.57   -0.71   -0.57   -0.71  -10.43 -114.94
    6.41  -10.47 -115.03   -0.58   -0.55   -0.58   -0.55  -10.47 -115.03
    6.45  -10.47 -114.84   -0.59   -0.68   -0.59   -0.68  -10.47 -114.84
    6.49  -10.40 -115.39   -0.57   -0.63   -0.57   -0.63  -10.40 -115.39
    6.53  -10.50 -115.23   -0.62   -0.61   -0.62   -0.61  -10.50 -115.23
    6.57  -10.39 -115.35   -0.57   -0.57   -0.57   -0.57  -10.39 -115.35
    6.61  -10.47 -115.65   -0.61   -0.62   -0.61   -0.62  -10.47 -115.65
    6.65  -10.41 -115.30   -0.59   -0.45   -0.59   -0.45  -10.41 -115.30
    6.69  -10.42 -115.59   -0.60   -0.45   -0.60   -0.45  -10.42 -115.59
    6.73  -10.38 -115.77   -0.60   -0.65   -0.60   -0.65  -10.38 -115.77
    6.77  -10.45 -115.92   -0.64   -0.37   -0.64   -0.37  -10.45 -115.92
    6.81  -10.42 -115.49   -0.61   -0.48   -0.61   -0.48  -10.42 -115.49
    6.85  -10.46 -115.59   -0.62   -0.41   -0.62   -0.41  -10.46 -115.59
    6.89  -10.36 -115.66   -0.63   -0.62   -0.63   -0.62  -10.36 -115.66
    6.93  -10.48 -115.89   -0.62   -0.35   -0.62   -0.35  -10.48 -115.89
    6.97  -10.39 -115.55   -0.63   -0.47   -0.63   -0.47  -10.39 -115.55
    7.01  -10.49 -115.72   -0.65   -0.23   -0.65   -0.23  -10.49 -115.72
    7.05  -10.46 -115.26   -0.63   -0.34   -0.63   -0.34  -10.46 -115.26
    7.09  -10.45 -115.92   -0.64   -0.39   -0.64   -0.39  -10.45 -115.92
    7.13  -10.45 -115.83   -0.67   -0.31   -0.67   -0.31  -10.45 -115.83
    7.17  -10.46 -115.77   -0.65   -0.18   -0.65   -0.18  -10.46 -115.77
    7.21  -10.49 -115.54   -0.69   -0.23   -0.69   -0.23  -10.49 -115.54
    7.24  -10.51 -115.96   -0.66   -0.22   -0.66   -0.22  -10.51 -115.96
    7.28  -10.54 -115.72   -0.69   -0.26   -0.69   -0.26  -10.54 -115.72
    7.32  -10.51 -115.50   -0.66   -0.24   -0.66   -0.24  -10.51 -115.50
    7.36  -10.53 -115.61   -0.70   -0.22   -0.70   -0.22  -10.53 -115.61
    7.40  -10.52 -115.80   -0.68   -0.16   -0.68   -0.16  -10.52 -115.80
    7.44  -10.63 -115.38   -0.71   -0.11   -0.71   -0.11  -10.63 -115.38
    7.48  -10.48 -115.30   -0.69   -0.18   -0.69   -0.18  -10.48 -115.30
    7.52  -10.59 -115.50   -0.73   -0.06   -0.73   -0.06  -10.59 -115.50
    7.56  -10.50 -115.26   -0.72   -0.22   -0.72   -0.22  -10.50 -115.26
    7.60  -10.56 -115.65   -0.72   -0.03   -0.72   -0.03  -10.56 -115.65
    7.64  -10.57 -114.94   -0.73    0.06   -0.73    0.06  -10.57 -114.94
    7.68  -10.62 -115.34   -0.74   -0.03   -0.74   -0.03  -10.62 -115.34
    7.72  -10.54 -115.13   -0.76   -0.01   -0.76   -0.01  -10.54 -115.13
    7.76  -10.67 -115.49   -0.80   -0.02   -0.80   -0.02  -10.67 -115.49
    7.80  -10.67 -114.85   -0.76   -0.11   -0.76   -0.11  -10.67 -114.85
    7.84  -10.75 -114.64   -0.77   -0.16   -0.77   -0.16  -10.75 -114.64
    7.88  -10.72 -114.05   -0.81   -0.40   -0.81   -0.40  -10.72 -114.05
    7.92  -10.87 -113.63   -0.86   -0.52   -0.86   -0.52  -10.87 -113.63
    7.96  -10.84 -111.47   -0.93   -0.73   -0.93   -0.73  -10.84 -111.47
    8.00  -10.59 -110.18   -1.06   -0.20   -1.06   -0.20  -10.59 -110.18
