!  American Technical Ceramics  Date:    3/13/98
!  One Norden Lane
!  Huntington Station,  NY.   11746-2102
!  Tel:  (516) 547-5700               Fax:  (516) 547-5748
!  Part Number  180r330j
!  Description: Porcelain, High Q, Low ESR
!  Application: Bypass, Coupling, Timing, Feedback
!               Tuning, Impedance Match, Blocking
# GHZ S DB R 50
! Freq   |S11|   S11 Ph  |S21|   S21 Ph  |S12|   S12 Ph  |S22|   S22 Ph
    0.05   -3.24  -46.40   -2.81   44.18   -2.81   44.18   -3.24  -46.40
    0.09   -6.48  -62.29   -1.09   27.95   -1.09   27.95   -6.48  -62.29
    0.13   -9.07  -70.15   -0.65   19.96   -0.65   19.96   -9.07  -70.15
    0.17  -11.10  -74.84   -0.40   15.49   -0.40   15.49  -11.10  -74.84
    0.21  -12.73  -77.88   -0.24   12.64   -0.24   12.64  -12.73  -77.88
    0.25  -14.00  -80.10   -0.16   10.53   -0.16   10.53  -14.00  -80.10
    0.29  -15.04  -81.82   -0.16    9.13   -0.16    9.13  -15.04  -81.82
    0.33  -15.93  -83.03   -0.12    7.97   -0.12    7.97  -15.93  -83.03
    0.37  -16.70  -84.19   -0.09    6.97   -0.09    6.97  -16.70  -84.19
    0.41  -17.32  -85.07   -0.07    6.37   -0.07    6.37  -17.32  -85.07
    0.45  -17.83  -85.73   -0.06    5.66   -0.06    5.66  -17.83  -85.73
    0.49  -18.29  -86.61   -0.05    5.27   -0.05    5.27  -18.29  -86.61
    0.53  -18.83  -86.95   -0.07    4.61   -0.07    4.61  -18.83  -86.95
    0.57  -19.11  -87.70   -0.06    4.28   -0.06    4.28  -19.11  -87.70
    0.61  -19.36  -87.90   -0.06    3.80   -0.06    3.80  -19.36  -87.90
    0.65  -19.54  -88.40   -0.05    3.65   -0.05    3.65  -19.54  -88.40
    0.69  -19.70  -88.80   -0.05    3.40   -0.05    3.40  -19.70  -88.80
    0.73  -19.86  -89.09   -0.05    3.03   -0.05    3.03  -19.86  -89.09
    0.77  -19.98  -89.57   -0.04    2.84   -0.04    2.84  -19.98  -89.57
    0.81  -20.04  -89.73   -0.04    2.65   -0.04    2.65  -20.04  -89.73
    0.85  -20.13  -90.00   -0.04    2.54   -0.04    2.54  -20.13  -90.00
    0.88  -20.14  -90.20   -0.05    2.36   -0.05    2.36  -20.14  -90.20
    0.92  -20.17  -90.59   -0.04    2.10   -0.04    2.10  -20.17  -90.59
    0.96  -20.13  -90.99   -0.05    2.03   -0.05    2.03  -20.13  -90.99
    1.00  -20.19  -91.22   -0.06    2.04   -0.06    2.04  -20.19  -91.22
    1.04  -20.15  -91.32   -0.06    1.77   -0.06    1.77  -20.15  -91.32
    1.08  -20.09  -91.73   -0.03    1.71   -0.03    1.71  -20.09  -91.73
    1.12  -20.04  -91.86   -0.04    1.49   -0.04    1.49  -20.04  -91.86
    1.16  -19.99  -92.26   -0.03    1.37   -0.03    1.37  -19.99  -92.26
    1.20  -19.95  -92.09   -0.05    1.22   -0.05    1.22  -19.95  -92.09
    1.24  -19.91  -92.31   -0.05    1.27   -0.05    1.27  -19.91  -92.31
    1.28  -19.85  -92.36   -0.06    1.17   -0.06    1.17  -19.85  -92.36
    1.32  -19.72  -92.60   -0.06    1.10   -0.06    1.10  -19.72  -92.60
    1.36  -19.70  -92.94   -0.06    0.92   -0.06    0.92  -19.70  -92.94
    1.40  -19.60  -92.84   -0.06    1.04   -0.06    1.04  -19.60  -92.84
    1.44  -19.57  -93.42   -0.07    0.83   -0.07    0.83  -19.57  -93.42
    1.48  -19.47  -93.34   -0.06    0.83   -0.06    0.83  -19.47  -93.34
    1.52  -19.43  -93.75   -0.07    0.70   -0.07    0.70  -19.43  -93.75
    1.56  -19.26  -93.70   -0.07    0.56   -0.07    0.56  -19.26  -93.70
    1.60  -19.27  -94.04   -0.07    0.44   -0.07    0.44  -19.27  -94.04
    1.64  -19.11  -93.99   -0.07    0.46   -0.07    0.46  -19.11  -93.99
    1.68  -19.08  -94.77   -0.08    0.38   -0.08    0.38  -19.08  -94.77
    1.72  -18.93  -94.39   -0.06    0.41   -0.06    0.41  -18.93  -94.39
    1.76  -18.89  -94.84   -0.06    0.51   -0.06    0.51  -18.89  -94.84
    1.80  -18.73  -94.75   -0.08    0.16   -0.08    0.16  -18.73  -94.75
    1.84  -18.68  -95.22   -0.08    0.12   -0.08    0.12  -18.68  -95.22
    1.88  -18.58  -94.96   -0.08    0.14   -0.08    0.14  -18.58  -94.96
    1.92  -18.51  -95.18   -0.08    0.09   -0.08    0.09  -18.51  -95.18
    1.96  -18.39  -95.25   -0.08    0.02   -0.08    0.02  -18.39  -95.25
    2.00  -18.36  -95.47   -0.08    0.01   -0.08    0.01  -18.36  -95.47
    2.04  -18.23  -95.82   -0.09    0.00   -0.09    0.00  -18.23  -95.82
    2.08  -18.16  -95.90   -0.06   -0.09   -0.06   -0.09  -18.16  -95.90
    2.12  -18.07  -96.02   -0.10   -0.24   -0.10   -0.24  -18.07  -96.02
    2.16  -17.95  -96.11   -0.09   -0.30   -0.09   -0.30  -17.95  -96.11
    2.20  -17.89  -96.58   -0.09   -0.21   -0.09   -0.21  -17.89  -96.58
    2.24  -17.77  -96.68   -0.08   -0.38   -0.08   -0.38  -17.77  -96.68
    2.28  -17.74  -96.85   -0.10   -0.41   -0.10   -0.41  -17.74  -96.85
    2.32  -17.58  -96.92   -0.10   -0.36   -0.10   -0.36  -17.58  -96.92
    2.36  -17.57  -97.59   -0.11   -0.48   -0.11   -0.48  -17.57  -97.59
    2.40  -17.42  -97.35   -0.09   -0.39   -0.09   -0.39  -17.42  -97.35
    2.44  -17.40  -97.84   -0.12   -0.46   -0.12   -0.46  -17.40  -97.84
    2.47  -17.26  -97.59   -0.11   -0.54   -0.11   -0.54  -17.26  -97.59
    2.51  -17.18  -98.17   -0.13   -0.42   -0.13   -0.42  -17.18  -98.17
    2.55  -17.12  -98.13   -0.11   -0.72   -0.11   -0.72  -17.12  -98.13
    2.59  -17.08  -98.57   -0.13   -0.72   -0.13   -0.72  -17.08  -98.57
    2.63  -16.90  -98.53   -0.12   -0.76   -0.12   -0.76  -16.90  -98.53
    2.67  -16.87  -98.93   -0.11   -0.68   -0.11   -0.68  -16.87  -98.93
    2.71  -16.75  -99.05   -0.12   -1.06   -0.12   -1.06  -16.75  -99.05
    2.75  -16.68  -99.31   -0.11   -0.85   -0.11   -0.85  -16.68  -99.31
    2.79  -16.56  -99.51   -0.12   -1.02   -0.12   -1.02  -16.56  -99.51
    2.83  -16.53  -99.80   -0.12   -1.01   -0.12   -1.01  -16.53  -99.80
    2.87  -16.42  -99.86   -0.14   -1.00   -0.14   -1.00  -16.42  -99.86
    2.91  -16.33 -100.23   -0.12   -1.03   -0.12   -1.03  -16.33 -100.23
    2.95  -16.28 -100.43   -0.13   -1.16   -0.13   -1.16  -16.28 -100.43
    2.99  -16.18 -100.48   -0.12   -1.20   -0.12   -1.20  -16.18 -100.48
    3.03  -16.08 -100.77   -0.16   -0.98   -0.16   -0.98  -16.08 -100.77
    3.07  -16.03 -100.69   -0.15   -1.29   -0.15   -1.29  -16.03 -100.69
    3.11  -15.99 -101.40   -0.17   -1.31   -0.17   -1.31  -15.99 -101.40
    3.15  -15.87 -101.21   -0.14   -1.24   -0.14   -1.24  -15.87 -101.21
    3.19  -15.85 -101.44   -0.17   -1.36   -0.17   -1.36  -15.85 -101.44
    3.23  -15.67 -101.56   -0.16   -1.56   -0.16   -1.56  -15.67 -101.56
    3.27  -15.68 -102.14   -0.19   -1.42   -0.19   -1.42  -15.68 -102.14
    3.31  -15.56 -102.09   -0.18   -1.71   -0.18   -1.71  -15.56 -102.09
    3.35  -15.51 -102.36   -0.19   -1.67   -0.19   -1.67  -15.51 -102.36
    3.39  -15.33 -102.34   -0.18   -1.84   -0.18   -1.84  -15.33 -102.34
    3.43  -15.35 -102.98   -0.19   -1.90   -0.19   -1.90  -15.35 -102.98
    3.47  -15.28 -102.55   -0.19   -1.86   -0.19   -1.86  -15.28 -102.55
    3.51  -15.26 -103.14   -0.20   -1.96   -0.20   -1.96  -15.26 -103.14
    3.55  -15.11 -103.09   -0.21   -2.06   -0.21   -2.06  -15.11 -103.09
    3.59  -15.06 -103.66   -0.18   -2.15   -0.18   -2.15  -15.06 -103.66
    3.63  -15.02 -103.89   -0.22   -2.06   -0.22   -2.06  -15.02 -103.89
    3.67  -15.05 -104.22   -0.22   -2.34   -0.22   -2.34  -15.05 -104.22
    3.71  -15.05 -103.95   -0.23   -2.45   -0.23   -2.45  -15.05 -103.95
    3.75  -15.04 -104.14   -0.22   -2.70   -0.22   -2.70  -15.04 -104.14
    3.79  -15.17 -104.62   -0.24   -3.08   -0.24   -3.08  -15.17 -104.62
    3.83  -15.40 -104.08   -0.25   -3.45   -0.25   -3.45  -15.40 -104.08
    3.87  -15.87 -103.19   -0.32   -4.21   -0.32   -4.21  -15.87 -103.19
    3.91  -16.85  -96.51   -0.43   -5.63   -0.43   -5.63  -16.85  -96.51
    3.95  -15.52  -71.90   -1.08   -6.29   -1.08   -6.29  -15.52  -71.90
    3.99  -11.50  -84.37   -1.18    0.41   -1.18    0.41  -11.50  -84.37
    4.03  -11.91  -97.78   -0.61    0.96   -0.61    0.96  -11.91  -97.78
    4.06  -12.23 -101.61   -0.44    0.07   -0.44    0.07  -12.23 -101.61
    4.10  -12.45 -103.90   -0.38   -0.42   -0.38   -0.42  -12.45 -103.90
    4.14  -12.52 -104.89   -0.34   -0.70   -0.34   -0.70  -12.52 -104.89
    4.18  -12.66 -105.82   -0.36   -0.94   -0.36   -0.94  -12.66 -105.82
    4.22  -12.57 -105.86   -0.34   -1.11   -0.34   -1.11  -12.57 -105.86
    4.26  -12.61 -107.08   -0.33   -1.27   -0.33   -1.27  -12.61 -107.08
    4.30  -12.56 -107.34   -0.33   -1.29   -0.33   -1.29  -12.56 -107.34
    4.34  -12.58 -107.96   -0.36   -1.31   -0.36   -1.31  -12.58 -107.96
    4.38  -12.51 -108.03   -0.33   -1.57   -0.33   -1.57  -12.51 -108.03
    4.42  -12.48 -108.26   -0.33   -1.48   -0.33   -1.48  -12.48 -108.26
    4.46  -12.38 -108.80   -0.33   -1.64   -0.33   -1.64  -12.38 -108.80
    4.50  -12.40 -109.04   -0.34   -1.83   -0.34   -1.83  -12.40 -109.04
    4.54  -12.33 -109.26   -0.36   -1.70   -0.36   -1.70  -12.33 -109.26
    4.58  -12.28 -109.38   -0.36   -1.76   -0.36   -1.76  -12.28 -109.38
    4.62  -12.23 -109.78   -0.38   -1.74   -0.38   -1.74  -12.23 -109.78
    4.66  -12.15 -109.99   -0.36   -1.99   -0.36   -1.99  -12.15 -109.99
    4.70  -12.15 -109.86   -0.38   -1.89   -0.38   -1.89  -12.15 -109.86
    4.74  -12.05 -110.18   -0.35   -2.06   -0.35   -2.06  -12.05 -110.18
    4.78  -12.05 -110.63   -0.40   -1.95   -0.40   -1.95  -12.05 -110.63
    4.82  -11.93 -110.44   -0.37   -1.99   -0.37   -1.99  -11.93 -110.44
    4.86  -11.94 -111.08   -0.41   -1.96   -0.41   -1.96  -11.94 -111.08
    4.90  -11.83 -110.66   -0.37   -2.11   -0.37   -2.11  -11.83 -110.66
    4.94  -11.81 -111.14   -0.39   -2.00   -0.39   -2.00  -11.81 -111.14
    4.98  -11.70 -111.50   -0.39   -2.12   -0.39   -2.12  -11.70 -111.50
    5.02  -11.76 -111.78   -0.41   -2.21   -0.41   -2.21  -11.76 -111.78
    5.06  -11.64 -111.38   -0.43   -2.02   -0.43   -2.02  -11.64 -111.38
    5.10  -11.56 -111.81   -0.40   -2.12   -0.40   -2.12  -11.56 -111.81
    5.14  -11.53 -112.15   -0.44   -2.34   -0.44   -2.34  -11.53 -112.15
    5.18  -11.52 -112.13   -0.43   -2.09   -0.43   -2.09  -11.52 -112.13
    5.22  -11.42 -111.91   -0.43   -2.29   -0.43   -2.29  -11.42 -111.91
    5.26  -11.46 -112.58   -0.43   -2.24   -0.43   -2.24  -11.46 -112.58
    5.30  -11.35 -112.09   -0.45   -2.34   -0.45   -2.34  -11.35 -112.09
    5.34  -11.31 -112.73   -0.44   -2.25   -0.44   -2.25  -11.31 -112.73
    5.38  -11.30 -113.01   -0.44   -2.34   -0.44   -2.34  -11.30 -113.01
    5.42  -11.25 -112.61   -0.46   -2.19   -0.46   -2.19  -11.25 -112.61
    5.46  -11.15 -112.37   -0.45   -2.17   -0.45   -2.17  -11.15 -112.37
    5.50  -11.14 -113.05   -0.46   -2.31   -0.46   -2.31  -11.14 -113.05
    5.54  -11.15 -113.14   -0.48   -2.20   -0.48   -2.20  -11.15 -113.14
    5.58  -11.02 -111.97   -0.45   -2.13   -0.45   -2.13  -11.02 -111.97
    5.62  -11.05 -113.36   -0.48   -2.22   -0.48   -2.22  -11.05 -113.36
    5.65  -10.98 -113.23   -0.46   -2.30   -0.46   -2.30  -10.98 -113.23
    5.69  -10.93 -113.47   -0.48   -2.32   -0.48   -2.32  -10.93 -113.47
    5.73  -10.89 -113.81   -0.47   -2.30   -0.47   -2.30  -10.89 -113.81
    5.77  -10.96 -113.98   -0.50   -2.23   -0.50   -2.23  -10.96 -113.98
    5.81  -10.83 -113.33   -0.48   -2.19   -0.48   -2.19  -10.83 -113.33
    5.85  -10.84 -114.07   -0.49   -2.16   -0.49   -2.16  -10.84 -114.07
    5.89  -10.80 -114.10   -0.49   -2.21   -0.49   -2.21  -10.80 -114.10
    5.93  -10.86 -114.10   -0.49   -2.14   -0.49   -2.14  -10.86 -114.10
    5.97  -10.76 -114.05   -0.52   -2.19   -0.52   -2.19  -10.76 -114.05
    6.01  -10.87 -114.60   -0.50   -2.14   -0.50   -2.14  -10.87 -114.60
    6.05  -10.75 -114.04   -0.51   -2.23   -0.51   -2.23  -10.75 -114.04
    6.09  -10.77 -114.64   -0.51   -2.20   -0.51   -2.20  -10.77 -114.64
    6.13  -10.79 -114.78   -0.52   -2.30   -0.52   -2.30  -10.79 -114.78
    6.17  -10.85 -114.86   -0.51   -2.21   -0.51   -2.21  -10.85 -114.86
    6.21  -10.77 -114.65   -0.54   -2.04   -0.54   -2.04  -10.77 -114.65
    6.25  -10.76 -115.19   -0.52   -2.32   -0.52   -2.32  -10.76 -115.19
    6.29  -10.77 -115.14   -0.52   -2.22   -0.52   -2.22  -10.77 -115.14
    6.33  -10.75 -115.28   -0.51   -2.19   -0.51   -2.19  -10.75 -115.28
    6.37  -10.78 -115.57   -0.53   -2.21   -0.53   -2.21  -10.78 -115.57
    6.41  -10.82 -115.80   -0.54   -2.23   -0.54   -2.23  -10.82 -115.80
    6.45  -10.81 -115.53   -0.53   -2.18   -0.53   -2.18  -10.81 -115.53
    6.49  -10.75 -116.07   -0.53   -2.24   -0.53   -2.24  -10.75 -116.07
    6.53  -10.88 -116.04   -0.55   -2.22   -0.55   -2.22  -10.88 -116.04
    6.57  -10.82 -116.11   -0.53   -2.30   -0.53   -2.30  -10.82 -116.11
    6.61  -10.88 -116.33   -0.56   -2.29   -0.56   -2.29  -10.88 -116.33
    6.65  -10.90 -116.11   -0.54   -2.26   -0.54   -2.26  -10.90 -116.11
    6.69  -10.99 -116.33   -0.55   -2.41   -0.55   -2.41  -10.99 -116.33
    6.73  -10.95 -116.34   -0.56   -2.56   -0.56   -2.56  -10.95 -116.34
    6.77  -11.10 -116.66   -0.58   -2.54   -0.58   -2.54  -11.10 -116.66
    6.81  -11.14 -116.25   -0.56   -2.68   -0.56   -2.68  -11.14 -116.25
    6.85  -11.21 -116.04   -0.57   -2.78   -0.57   -2.78  -11.21 -116.04
    6.89  -11.23 -115.90   -0.59   -3.16   -0.59   -3.16  -11.23 -115.90
    6.93  -11.48 -115.84   -0.60   -3.33   -0.60   -3.33  -11.48 -115.84
    6.97  -11.61 -114.70   -0.63   -3.81   -0.63   -3.81  -11.61 -114.70
    7.01  -11.97 -113.54   -0.71   -4.12   -0.71   -4.12  -11.97 -113.54
    7.05  -12.25 -108.42   -0.86   -4.80   -0.86   -4.80  -12.25 -108.42
    7.09  -11.81 -101.68   -1.19   -4.72   -1.19   -4.72  -11.81 -101.68
    7.13  -10.42 -100.23   -1.43   -2.09   -1.43   -2.09  -10.42 -100.23
    7.17   -9.70 -105.38   -1.22    0.15   -1.22    0.15   -9.70 -105.38
    7.21   -9.67 -109.06   -1.03    0.53   -1.03    0.53   -9.67 -109.06
    7.24   -9.80 -111.58   -0.88    0.32   -0.88    0.32   -9.80 -111.58
    7.28   -9.93 -112.61   -0.84    0.04   -0.84    0.04   -9.93 -112.61
    7.32  -10.01 -113.43   -0.78    0.01   -0.78    0.01  -10.01 -113.43
    7.36  -10.06 -113.74   -0.78   -0.23   -0.78   -0.23  -10.06 -113.74
    7.40  -10.16 -114.35   -0.75   -0.25   -0.75   -0.25  -10.16 -114.35
    7.44  -10.25 -114.21   -0.75   -0.38   -0.75   -0.38  -10.25 -114.21
    7.48  -10.16 -114.36   -0.74   -0.35   -0.74   -0.35  -10.16 -114.36
    7.52  -10.29 -114.66   -0.77   -0.30   -0.77   -0.30  -10.29 -114.66
    7.56  -10.19 -114.35   -0.73   -0.50   -0.73   -0.50  -10.19 -114.35
    7.60  -10.32 -114.81   -0.77   -0.35   -0.77   -0.35  -10.32 -114.81
    7.64  -10.29 -114.74   -0.74   -0.37   -0.74   -0.37  -10.29 -114.74
    7.68  -10.31 -114.95   -0.74   -0.43   -0.74   -0.43  -10.31 -114.95
    7.72  -10.23 -114.81   -0.74   -0.36   -0.74   -0.36  -10.23 -114.81
    7.76  -10.31 -115.38   -0.79   -0.33   -0.79   -0.33  -10.31 -115.38
    7.80  -10.34 -115.10   -0.77   -0.27   -0.77   -0.27  -10.34 -115.10
    7.84  -10.34 -115.43   -0.75   -0.34   -0.75   -0.34  -10.34 -115.43
    7.88  -10.27 -115.35   -0.74   -0.35   -0.74   -0.35  -10.27 -115.35
    7.92  -10.34 -115.79   -0.75   -0.25   -0.75   -0.25  -10.34 -115.79
    7.96  -10.35 -115.51   -0.75   -0.32   -0.75   -0.32  -10.35 -115.51
    8.00  -10.36 -116.08   -0.75   -0.33   -0.75   -0.33  -10.36 -116.08
