!  American Technical Ceramics  Date:    3/13/98
!  One Norden Lane
!  Huntington Station,  NY.   11746-2102
!  Tel:  (516) 547-5700               Fax:  (516) 547-5748
!  Part Number  180r3r9c
!  Description: Porcelain, High Q, Low ESR
!  Application: Bypass, Coupling, Timing, Feedback
!               Tuning, Impedance Match, Blocking
# GHZ S DB R 50
! Freq   |S11|   S11 Ph  |S21|   S21 Ph  |S12|   S12 Ph  |S22|   S22 Ph
    0.05    0.03   -7.45  -18.14   82.75  -18.14   82.75    0.03   -7.45
    0.14   -0.46  -20.28   -9.64   70.19   -9.64   70.19   -0.46  -20.28
    0.23   -1.16  -31.55   -6.09   59.55   -6.09   59.55   -1.16  -31.55
    0.32   -2.03  -40.76   -4.10   50.40   -4.10   50.40   -2.03  -40.76
    0.41   -2.99  -48.35   -2.93   43.31   -2.93   43.31   -2.99  -48.35
    0.50   -3.91  -54.26   -2.23   37.61   -2.23   37.61   -3.91  -54.26
    0.59   -4.94  -59.60   -1.70   32.35   -1.70   32.35   -4.94  -59.60
    0.68   -5.73  -63.45   -1.38   28.75   -1.38   28.75   -5.73  -63.45
    0.77   -6.44  -66.75   -1.15   25.74   -1.15   25.74   -6.44  -66.75
    0.86   -7.07  -69.69   -0.99   23.23   -0.99   23.23   -7.07  -69.69
    0.95   -7.63  -71.92   -0.85   21.13   -0.85   21.13   -7.63  -71.92
    1.04   -8.14  -74.14   -0.77   19.26   -0.77   19.26   -8.14  -74.14
    1.13   -8.57  -76.02   -0.68   17.67   -0.68   17.67   -8.57  -76.02
    1.22   -8.98  -77.23   -0.63   16.46   -0.63   16.46   -8.98  -77.23
    1.31   -9.33  -78.67   -0.57   15.21   -0.57   15.21   -9.33  -78.67
    1.40   -9.65  -80.10   -0.51   14.13   -0.51   14.13   -9.65  -80.10
    1.49   -9.94  -81.41   -0.46   13.16   -0.46   13.16   -9.94  -81.41
    1.58  -10.19  -82.83   -0.43   12.29   -0.43   12.29  -10.19  -82.83
    1.67  -10.47  -83.81   -0.43   11.51   -0.43   11.51  -10.47  -83.81
    1.76  -10.68  -84.47   -0.39   10.82   -0.39   10.82  -10.68  -84.47
    1.85  -10.86  -85.48   -0.38   10.25   -0.38   10.25  -10.86  -85.48
    1.93  -11.06  -85.94   -0.38    9.63   -0.38    9.63  -11.06  -85.94
    2.02  -11.13  -86.69   -0.38    8.87   -0.38    8.87  -11.13  -86.69
    2.11  -11.28  -87.34   -0.36    8.49   -0.36    8.49  -11.28  -87.34
    2.20  -11.41  -88.07   -0.37    8.11   -0.37    8.11  -11.41  -88.07
    2.29  -11.48  -88.61   -0.36    7.46   -0.36    7.46  -11.48  -88.61
    2.38  -11.58  -89.11   -0.35    7.13   -0.35    7.13  -11.58  -89.11
    2.47  -11.67  -89.62   -0.32    6.57   -0.32    6.57  -11.67  -89.62
    2.56  -11.79  -89.63   -0.31    6.17   -0.31    6.17  -11.79  -89.63
    2.65  -11.85  -90.19   -0.34    6.03   -0.34    6.03  -11.85  -90.19
    2.74  -11.85  -90.93   -0.32    5.60   -0.32    5.60  -11.85  -90.93
    2.83  -11.94  -91.55   -0.31    5.17   -0.31    5.17  -11.94  -91.55
    2.92  -11.97  -92.57   -0.32    5.11   -0.32    5.11  -11.97  -92.57
    3.01  -12.00  -92.69   -0.34    4.56   -0.34    4.56  -12.00  -92.69
    3.10  -12.04  -93.58   -0.34    4.35   -0.34    4.35  -12.04  -93.58
    3.19  -12.03  -93.62   -0.39    3.86   -0.39    3.86  -12.03  -93.62
    3.28  -11.93  -94.55   -0.32    3.43   -0.32    3.43  -11.93  -94.55
    3.37  -11.92  -93.98   -0.40    3.33   -0.40    3.33  -11.92  -93.98
    3.46  -11.87  -94.96   -0.36    3.01   -0.36    3.01  -11.87  -94.96
    3.55  -11.78  -94.80   -0.38    2.84   -0.38    2.84  -11.78  -94.80
    3.64  -11.69  -95.75   -0.37    2.51   -0.37    2.51  -11.69  -95.75
    3.73  -11.68  -95.37   -0.40    2.15   -0.40    2.15  -11.68  -95.37
    3.82  -11.64  -96.48   -0.39    2.11   -0.39    2.11  -11.64  -96.48
    3.91  -11.56  -96.58   -0.44    1.94   -0.44    1.94  -11.56  -96.58
    4.00  -11.53  -98.70   -0.38    1.60   -0.38    1.60  -11.53  -98.70
    4.09  -11.50  -99.03   -0.42    1.51   -0.42    1.51  -11.50  -99.03
    4.18  -11.45 -100.22   -0.43    1.19   -0.43    1.19  -11.45 -100.22
    4.27  -11.24 -100.75   -0.44    1.23   -0.44    1.23  -11.24 -100.75
    4.36  -11.28 -101.04   -0.47    0.86   -0.47    0.86  -11.28 -101.04
    4.45  -11.15 -101.43   -0.48    0.79   -0.48    0.79  -11.15 -101.43
    4.54  -11.09 -101.96   -0.47    0.50   -0.47    0.50  -11.09 -101.96
    4.63  -10.95 -102.27   -0.46    0.40   -0.46    0.40  -10.95 -102.27
    4.72  -10.89 -101.38   -0.50    0.19   -0.50    0.19  -10.89 -101.38
    4.81  -10.79 -102.47   -0.50    0.07   -0.50    0.07  -10.79 -102.47
    4.90  -10.75 -102.19   -0.50    0.03   -0.50    0.03  -10.75 -102.19
    4.99  -10.59 -103.48   -0.46   -0.06   -0.46   -0.06  -10.59 -103.48
    5.08  -10.57 -102.76   -0.52   -0.08   -0.52   -0.08  -10.57 -102.76
    5.17  -10.63 -104.28   -0.53   -0.29   -0.53   -0.29  -10.63 -104.28
    5.26  -10.56 -104.15   -0.53   -0.42   -0.53   -0.42  -10.56 -104.15
    5.35  -10.41 -104.49   -0.52   -0.34   -0.52   -0.34  -10.41 -104.49
    5.44  -10.56 -103.91   -0.59   -0.43   -0.59   -0.43  -10.56 -103.91
    5.52  -10.39 -105.32   -0.55   -0.77   -0.55   -0.77  -10.39 -105.32
    5.61  -10.29 -104.92   -0.56   -0.54   -0.56   -0.54  -10.29 -104.92
    5.70  -10.20 -104.63   -0.57   -0.77   -0.57   -0.77  -10.20 -104.63
    5.79  -10.27 -105.07   -0.62   -0.96   -0.62   -0.96  -10.27 -105.07
    5.88  -10.11 -105.40   -0.56   -0.86   -0.56   -0.86  -10.11 -105.40
    5.97  -10.12 -105.22   -0.57   -0.82   -0.57   -0.82  -10.12 -105.22
    6.06  -10.22 -105.07   -0.59   -1.06   -0.59   -1.06  -10.22 -105.07
    6.15  -10.17 -106.12   -0.61   -1.14   -0.61   -1.14  -10.17 -106.12
    6.24  -10.16 -106.13   -0.58   -1.15   -0.58   -1.15  -10.16 -106.13
    6.33  -10.16 -106.12   -0.61   -1.01   -0.61   -1.01  -10.16 -106.12
    6.42  -10.33 -106.62   -0.64   -1.07   -0.64   -1.07  -10.33 -106.62
    6.51  -10.25 -107.36   -0.60   -1.29   -0.60   -1.29  -10.25 -107.36
    6.60  -10.32 -107.63   -0.64   -1.40   -0.64   -1.40  -10.32 -107.63
    6.69  -10.35 -106.89   -0.61   -1.37   -0.61   -1.37  -10.35 -106.89
    6.78  -10.36 -106.99   -0.68   -1.43   -0.68   -1.43  -10.36 -106.99
    6.87  -10.36 -106.27   -0.63   -1.56   -0.63   -1.56  -10.36 -106.27
    6.96  -10.35 -106.59   -0.65   -1.70   -0.65   -1.70  -10.35 -106.59
    7.05  -10.47 -106.04   -0.66   -1.43   -0.66   -1.43  -10.47 -106.04
    7.14  -10.45 -106.54   -0.68   -1.36   -0.68   -1.36  -10.45 -106.54
    7.23  -10.54 -106.54   -0.68   -1.50   -0.68   -1.50  -10.54 -106.54
    7.32  -10.58 -106.20   -0.70   -1.43   -0.70   -1.43  -10.58 -106.20
    7.41  -10.68 -106.46   -0.72   -1.63   -0.72   -1.63  -10.68 -106.46
    7.50  -10.59 -105.82   -0.72   -1.71   -0.72   -1.71  -10.59 -105.82
    7.59  -10.63 -106.05   -0.76   -1.95   -0.76   -1.95  -10.63 -106.05
    7.68  -10.72 -105.15   -0.72   -1.52   -0.72   -1.52  -10.72 -105.15
    7.77  -10.68 -105.80   -0.80   -1.41   -0.80   -1.41  -10.68 -105.80
    7.86  -10.75 -105.27   -0.74   -1.51   -0.74   -1.51  -10.75 -105.27
    7.95  -10.76 -105.42   -0.75   -1.75   -0.75   -1.75  -10.76 -105.42
    8.04  -10.84 -105.31   -0.71   -1.49   -0.71   -1.49  -10.84 -105.31
    8.13  -10.78 -105.61   -0.78   -1.70   -0.78   -1.70  -10.78 -105.61
    8.22  -10.77 -105.23   -0.73   -1.82   -0.73   -1.82  -10.77 -105.23
    8.31  -10.83 -105.32   -0.76   -1.93   -0.76   -1.93  -10.83 -105.32
    8.40  -10.81 -106.07   -0.77   -1.76   -0.77   -1.76  -10.81 -106.07
    8.49  -10.83 -105.69   -0.73   -2.21   -0.73   -2.21  -10.83 -105.69
    8.58  -10.99 -106.31   -0.76   -2.03   -0.76   -2.03  -10.99 -106.31
    8.67  -11.04 -107.00   -0.73   -2.12   -0.73   -2.12  -11.04 -107.00
    8.76  -11.06 -107.89   -0.77   -2.07   -0.77   -2.07  -11.06 -107.89
    8.85  -11.15 -107.82   -0.76   -2.43   -0.76   -2.43  -11.15 -107.82
    8.94  -11.19 -108.50   -0.76   -2.58   -0.76   -2.58  -11.19 -108.50
    9.03  -11.22 -108.99   -0.77   -2.49   -0.77   -2.49  -11.22 -108.99
    9.11  -11.21 -109.31   -0.79   -2.84   -0.79   -2.84  -11.21 -109.31
    9.20  -11.23 -109.95   -0.82   -3.07   -0.82   -3.07  -11.23 -109.95
    9.29  -11.21 -110.79   -0.80   -3.17   -0.80   -3.17  -11.21 -110.79
    9.38  -11.14 -111.50   -0.82   -2.87   -0.82   -2.87  -11.14 -111.50
    9.47  -11.17 -112.11   -0.84   -3.19   -0.84   -3.19  -11.17 -112.11
    9.56  -11.21 -113.24   -0.84   -3.43   -0.84   -3.43  -11.21 -113.24
    9.65  -11.24 -114.44   -0.84   -3.69   -0.84   -3.69  -11.24 -114.44
    9.74  -11.26 -116.06   -0.84   -3.54   -0.84   -3.54  -11.26 -116.06
    9.83  -11.24 -116.78   -0.86   -3.85   -0.86   -3.85  -11.24 -116.78
    9.92  -11.40 -119.04   -0.81   -4.32   -0.81   -4.32  -11.40 -119.04
   10.01  -11.33 -120.71   -0.83   -4.37   -0.83   -4.37  -11.33 -120.71
   10.10  -11.40 -121.94   -0.85   -4.53   -0.85   -4.53  -11.40 -121.94
   10.19  -11.43 -122.67   -0.88   -4.96   -0.88   -4.96  -11.43 -122.67
   10.28  -11.61 -124.54   -0.87   -5.49   -0.87   -5.49  -11.61 -124.54
   10.37  -11.58 -126.10   -0.86   -5.64   -0.86   -5.64  -11.58 -126.10
   10.46  -11.86 -126.64   -0.89   -6.31   -0.89   -6.31  -11.86 -126.64
   10.55  -12.15 -128.22   -0.88   -6.99   -0.88   -6.99  -12.15 -128.22
   10.64  -12.50 -129.27   -0.91   -7.85   -0.91   -7.85  -12.50 -129.27
   10.73  -13.05 -131.22   -0.90   -8.91   -0.90   -8.91  -13.05 -131.22
   10.82  -14.06 -129.94   -0.97  -10.23   -0.97  -10.23  -14.06 -129.94
   10.91  -15.81 -128.17   -1.02  -12.97   -1.02  -12.97  -15.81 -128.17
   11.00  -18.93 -105.00   -1.33  -17.38   -1.33  -17.38  -18.93 -105.00
   11.09  -14.15  -56.69   -2.63  -24.35   -2.63  -24.35  -14.15  -56.69
   11.18   -7.18  -73.53   -6.07  -13.48   -6.07  -13.48   -7.18  -73.53
   11.27   -6.06 -101.98   -4.28    7.66   -4.28    7.66   -6.06 -101.98
   11.36   -6.66 -115.03   -2.72    7.29   -2.72    7.29   -6.66 -115.03
   11.45   -7.29 -121.07   -2.16    5.33   -2.16    5.33   -7.29 -121.07
   11.54   -7.79 -124.59   -1.89    3.70   -1.89    3.70   -7.79 -124.59
   11.63   -8.03 -126.96   -1.77    2.52   -1.77    2.52   -8.03 -126.96
   11.72   -8.29 -129.25   -1.65    1.62   -1.65    1.62   -8.29 -129.25
   11.81   -8.55 -129.19   -1.67    1.64   -1.67    1.64   -8.55 -129.19
   11.90   -8.79 -131.85   -1.62    0.48   -1.62    0.48   -8.79 -131.85
   11.99   -8.87 -132.34   -1.59    0.74   -1.59    0.74   -8.87 -132.34
   12.08   -9.07 -133.68   -1.60    0.40   -1.60    0.40   -9.07 -133.68
   12.17   -9.31 -134.09   -1.63    0.37   -1.63    0.37   -9.31 -134.09
   12.26   -9.40 -135.20   -1.60    0.01   -1.60    0.01   -9.40 -135.20
   12.35   -9.55 -135.89   -1.58    0.04   -1.58    0.04   -9.55 -135.89
   12.44   -9.77 -135.56   -1.56    0.17   -1.56    0.17   -9.77 -135.56
   12.53   -9.95 -137.08   -1.60    0.06   -1.60    0.06   -9.95 -137.08
   12.62  -10.13 -136.13   -1.57    0.24   -1.57    0.24  -10.13 -136.13
   12.70  -10.15 -137.43   -1.54   -0.13   -1.54   -0.13  -10.15 -137.43
   12.79  -10.39 -136.53   -1.48    0.33   -1.48    0.33  -10.39 -136.53
   12.88  -10.54 -138.00   -1.56    0.14   -1.56    0.14  -10.54 -138.00
   12.97  -10.74 -137.24   -1.49    0.33   -1.49    0.33  -10.74 -137.24
   13.06  -10.75 -138.02   -1.48    0.18   -1.48    0.18  -10.75 -138.02
   13.15  -11.11 -138.58   -1.48    0.28   -1.48    0.28  -11.11 -138.58
   13.24  -11.17 -139.85   -1.47    0.03   -1.47    0.03  -11.17 -139.85
   13.33  -11.51 -140.29   -1.47   -0.20   -1.47   -0.20  -11.51 -140.29
   13.42  -11.81 -140.40   -1.42    0.05   -1.42    0.05  -11.81 -140.40
   13.51  -11.96 -141.99   -1.46   -0.12   -1.46   -0.12  -11.96 -141.99
   13.60  -12.35 -142.82   -1.38    0.01   -1.38    0.01  -12.35 -142.82
   13.69  -12.63 -142.62   -1.43   -0.29   -1.43   -0.29  -12.63 -142.62
   13.78  -13.09 -143.38   -1.39   -0.54   -1.39   -0.54  -13.09 -143.38
   13.87  -13.20 -143.42   -1.38   -0.42   -1.38   -0.42  -13.20 -143.42
   13.96  -13.61 -143.81   -1.42   -0.55   -1.42   -0.55  -13.61 -143.81
   14.05  -13.90 -144.29   -1.42   -1.06   -1.42   -1.06  -13.90 -144.29
   14.14  -14.26 -145.99   -1.36   -0.96   -1.36   -0.96  -14.26 -145.99
   14.23  -14.48 -146.12   -1.42   -1.40   -1.42   -1.40  -14.48 -146.12
   14.32  -14.88 -146.77   -1.41   -1.46   -1.41   -1.46  -14.88 -146.77
   14.41  -15.36 -148.87   -1.43   -1.79   -1.43   -1.79  -15.36 -148.87
   14.50  -15.81 -151.32   -1.46   -2.01   -1.46   -2.01  -15.81 -151.32
   14.59  -16.09 -152.50   -1.46   -2.12   -1.46   -2.12  -16.09 -152.50
   14.68  -16.61 -154.90   -1.48   -2.45   -1.48   -2.45  -16.61 -154.90
   14.77  -17.09 -157.22   -1.50   -2.25   -1.50   -2.25  -17.09 -157.22
   14.86  -17.67 -161.50   -1.55   -2.45   -1.55   -2.45  -17.67 -161.50
   14.95  -18.10 -163.87   -1.57   -2.45   -1.57   -2.45  -18.10 -163.87
   15.04  -18.88 -168.28   -1.66   -2.64   -1.66   -2.64  -18.88 -168.28
   15.13  -19.50 -168.71   -1.66   -2.12   -1.66   -2.12  -19.50 -168.71
   15.22  -20.03 -174.83   -1.62   -2.36   -1.62   -2.36  -20.03 -174.83
   15.31  -20.56 -177.18   -1.66   -2.13   -1.66   -2.13  -20.56 -177.18
   15.40  -21.32  177.21   -1.68   -2.39   -1.68   -2.39  -21.32  177.21
   15.49  -21.71  174.88   -1.68   -2.83   -1.68   -2.83  -21.71  174.88
   15.58  -22.08  170.91   -1.67   -2.61   -1.67   -2.61  -22.08  170.91
   15.67  -22.29  169.47   -1.71   -2.89   -1.71   -2.89  -22.29  169.47
   15.76  -22.57  164.43   -1.68   -2.71   -1.68   -2.71  -22.57  164.43
   15.85  -22.66  161.53   -1.75   -2.97   -1.75   -2.97  -22.66  161.53
   15.94  -22.73  157.41   -1.75   -3.06   -1.75   -3.06  -22.73  157.41
   16.03  -22.71  156.29   -1.77   -3.17   -1.77   -3.17  -22.71  156.29
   16.12  -22.70  153.09   -1.79   -3.22   -1.79   -3.22  -22.70  153.09
   16.21  -22.37  149.65   -1.77   -3.23   -1.77   -3.23  -22.37  149.65
   16.29  -22.10  147.05   -1.76   -3.44   -1.76   -3.44  -22.10  147.05
   16.38  -21.90  146.19   -1.81   -3.36   -1.81   -3.36  -21.90  146.19
   16.47  -21.70  143.39   -1.78   -3.83   -1.78   -3.83  -21.70  143.39
   16.56  -21.38  143.46   -1.79   -4.12   -1.79   -4.12  -21.38  143.46
   16.65  -20.89  141.48   -1.89   -4.25   -1.89   -4.25  -20.89  141.48
   16.74  -20.67  141.32   -1.95   -4.64   -1.95   -4.64  -20.67  141.32
   16.83  -19.98  136.01   -1.96   -4.91   -1.96   -4.91  -19.98  136.01
   16.92  -19.68  135.02   -2.06   -4.83   -2.06   -4.83  -19.68  135.02
   17.01  -19.05  130.05   -2.09   -5.02   -2.09   -5.02  -19.05  130.05
   17.10  -19.00  127.51   -2.16   -4.86   -2.16   -4.86  -19.00  127.51
   17.19  -18.41  121.26   -2.24   -5.09   -2.24   -5.09  -18.41  121.26
   17.28  -18.49  118.40   -2.28   -4.58   -2.28   -4.58  -18.49  118.40
   17.37  -18.42  113.92   -2.32   -4.37   -2.32   -4.37  -18.42  113.92
   17.46  -18.48  109.75   -2.33   -4.12   -2.33   -4.12  -18.48  109.75
   17.55  -18.58  104.53   -2.30   -4.17   -2.30   -4.17  -18.58  104.53
   17.64  -18.67  100.95   -2.33   -4.44   -2.33   -4.44  -18.67  100.95
   17.73  -19.03   96.61   -2.31   -4.02   -2.31   -4.02  -19.03   96.61
   17.82  -18.97   93.06   -2.29   -4.30   -2.29   -4.30  -18.97   93.06
   17.91  -19.15   89.99   -2.26   -4.90   -2.26   -4.90  -19.15   89.99
   18.00  -19.20   85.86   -2.29   -5.00   -2.29   -5.00  -19.20   85.86
