!  American Technical Ceramics  Date:     4/6/98
!  One Norden Lane
!  Huntington Station,  NY.   11746-2102
!  Tel:  (516) 547-5700               Fax:  (516) 547-5748
!  Part Number  500S0R8
!  Description: Broadband Microwave capacitor
!  Application:
!
# GHZ S DB R 50
! Freq   |S11|   S11 Ph  |S21|   S21 Ph  |S12|   S12 Ph  |S22|   S22 Ph
    0.05   -0.07   -1.52  -32.72   89.70  -32.72   89.70   -0.07   -1.52
    0.18   -0.06   -4.82  -21.45   85.25  -21.45   85.25   -0.06   -4.82
    0.31   -0.09   -8.33  -16.72   81.66  -16.72   81.66   -0.09   -8.33
    0.45   -0.20  -11.77  -13.78   78.66  -13.78   78.66   -0.20  -11.77
    0.58   -0.35  -15.65  -11.56   74.20  -11.56   74.20   -0.35  -15.65
    0.71   -0.57  -19.09   -9.97   70.32   -9.97   70.32   -0.57  -19.09
    0.84   -0.76  -22.89   -8.68   67.45   -8.68   67.45   -0.76  -22.89
    0.98   -0.81  -24.81   -7.54   64.14   -7.54   64.14   -0.81  -24.81
    1.11   -1.17  -28.04   -6.73   61.92   -6.73   61.92   -1.17  -28.04
    1.24   -1.48  -30.06   -5.99   59.58   -5.99   59.58   -1.48  -30.06
    1.37   -1.56  -33.06   -5.31   56.47   -5.31   56.47   -1.56  -33.06
    1.50   -1.90  -35.84   -4.79   54.31   -4.79   54.31   -1.90  -35.84
    1.64   -2.05  -37.32   -4.24   51.76   -4.24   51.76   -2.05  -37.32
    1.77   -2.34  -40.21   -3.81   49.54   -3.81   49.54   -2.34  -40.21
    1.90   -2.65  -42.00   -3.47   47.43   -3.47   47.43   -2.65  -42.00
    2.03   -2.90  -44.38   -3.17   45.31   -3.17   45.31   -2.90  -44.38
    2.17   -3.25  -46.14   -2.87   43.32   -2.87   43.32   -3.25  -46.14
    2.30   -3.51  -47.74   -2.62   41.41   -2.62   41.41   -3.51  -47.74
    2.43   -3.86  -50.01   -2.41   39.90   -2.41   39.90   -3.86  -50.01
    2.56   -4.18  -50.84   -2.16   37.97   -2.16   37.97   -4.18  -50.84
    2.70   -4.49  -53.19   -1.98   36.38   -1.98   36.38   -4.49  -53.19
    2.83   -4.84  -54.40   -1.84   34.90   -1.84   34.90   -4.84  -54.40
    2.96   -5.12  -55.41   -1.69   33.07   -1.69   33.07   -5.12  -55.41
    3.09   -5.58  -57.17   -1.56   31.73   -1.56   31.73   -5.58  -57.17
    3.22   -5.88  -57.81   -1.46   30.15   -1.46   30.15   -5.88  -57.81
    3.36   -6.22  -59.61   -1.36   28.88   -1.36   28.88   -6.22  -59.61
    3.49   -6.55  -59.85   -1.27   27.69   -1.27   27.69   -6.55  -59.85
    3.62   -6.88  -60.86   -1.21   26.31   -1.21   26.31   -6.88  -60.86
    3.75   -7.35  -61.97   -1.13   25.08   -1.13   25.08   -7.35  -61.97
    3.89   -7.60  -62.48   -1.07   23.70   -1.07   23.70   -7.60  -62.48
    4.02   -7.72  -65.19   -0.90   23.39   -0.90   23.39   -7.72  -65.19
    4.15   -7.98  -65.44   -0.83   22.41   -0.83   22.41   -7.98  -65.44
    4.28   -8.26  -66.62   -0.79   21.42   -0.79   21.42   -8.26  -66.62
    4.41   -8.67  -67.07   -0.78   20.50   -0.78   20.50   -8.67  -67.07
    4.55   -8.90  -67.70   -0.75   19.53   -0.75   19.53   -8.90  -67.70
    4.68   -9.21  -68.67   -0.72   18.75   -0.72   18.75   -9.21  -68.67
    4.81   -9.39  -68.30   -0.70   18.16   -0.70   18.16   -9.39  -68.30
    4.94   -9.62  -68.62   -0.67   17.71   -0.67   17.71   -9.62  -68.62
    5.08   -9.92  -68.85   -0.65   17.07   -0.65   17.07   -9.92  -68.85
    5.21  -10.08  -69.77   -0.62   16.33   -0.62   16.33  -10.08  -69.77
    5.34  -10.29  -70.39   -0.58   15.87   -0.58   15.87  -10.29  -70.39
    5.47  -10.45  -70.23   -0.55   15.20   -0.55   15.20  -10.45  -70.23
    5.60  -10.74  -71.60   -0.55   14.66   -0.55   14.66  -10.74  -71.60
    5.74  -10.94  -71.37   -0.51   14.31   -0.51   14.31  -10.94  -71.37
    5.87  -11.20  -72.13   -0.51   13.68   -0.51   13.68  -11.20  -72.13
    6.00  -11.49  -73.63   -0.52   13.06   -0.52   13.06  -11.49  -73.63
    6.13  -11.53  -73.18   -0.47   12.70   -0.47   12.70  -11.53  -73.18
    6.27  -11.86  -73.80   -0.45   12.37   -0.45   12.37  -11.86  -73.80
    6.40  -12.14  -74.75   -0.46   11.82   -0.46   11.82  -12.14  -74.75
    6.53  -12.48  -75.35   -0.45   11.51   -0.45   11.51  -12.48  -75.35
    6.66  -12.81  -75.90   -0.44   11.02   -0.44   11.02  -12.81  -75.90
    6.79  -13.01  -76.32   -0.44   10.39   -0.44   10.39  -13.01  -76.32
    6.93  -13.41  -75.97   -0.43   10.30   -0.43   10.30  -13.41  -75.97
    7.06  -13.73  -74.94   -0.41    9.96   -0.41    9.96  -13.73  -74.94
    7.19  -14.05  -76.42   -0.44    9.44   -0.44    9.44  -14.05  -76.42
    7.32  -14.40  -75.89   -0.43    9.28   -0.43    9.28  -14.40  -75.89
    7.46  -14.81  -75.45   -0.42    8.97   -0.42    8.97  -14.81  -75.45
    7.59  -15.04  -75.55   -0.43    8.52   -0.43    8.52  -15.04  -75.55
    7.72  -15.42  -74.05   -0.41    8.34   -0.41    8.34  -15.42  -74.05
    7.85  -16.03  -74.09   -0.40    8.23   -0.40    8.23  -16.03  -74.09
    7.99  -16.21  -73.86   -0.41    7.82   -0.41    7.82  -16.21  -73.86
    8.12  -16.62  -73.75   -0.39    7.52   -0.39    7.52  -16.62  -73.75
    8.25  -17.26  -73.58   -0.37    7.34   -0.37    7.34  -17.26  -73.58
    8.38  -17.70  -72.56   -0.37    6.95   -0.37    6.95  -17.70  -72.56
    8.51  -18.41  -72.44   -0.35    6.66   -0.35    6.66  -18.41  -72.44
    8.65  -19.08  -71.69   -0.33    6.41   -0.33    6.41  -19.08  -71.69
    8.78  -19.77  -70.23   -0.34    6.04   -0.34    6.04  -19.77  -70.23
    8.91  -20.47  -68.18   -0.34    5.66   -0.34    5.66  -20.47  -68.18
    9.04  -21.15  -66.31   -0.34    5.40   -0.34    5.40  -21.15  -66.31
    9.18  -21.85  -65.47   -0.33    5.20   -0.33    5.20  -21.85  -65.47
    9.31  -22.47  -63.11   -0.33    4.92   -0.33    4.92  -22.47  -63.11
    9.44  -23.24  -62.49   -0.32    4.75   -0.32    4.75  -23.24  -62.49
    9.57  -23.98  -60.46   -0.32    4.48   -0.32    4.48  -23.98  -60.46
    9.70  -24.69  -58.82   -0.31    4.26   -0.31    4.26  -24.69  -58.82
    9.84  -25.52  -57.97   -0.30    4.06   -0.30    4.06  -25.52  -57.97
    9.97  -26.26  -56.33   -0.29    3.80   -0.29    3.80  -26.26  -56.33
   10.10  -27.11  -55.96   -0.28    3.62   -0.28    3.62  -27.11  -55.96
   10.23  -27.91  -55.06   -0.26    3.45   -0.26    3.45  -27.91  -55.06
   10.37  -28.94  -54.80   -0.25    3.21   -0.25    3.21  -28.94  -54.80
   10.50  -29.96  -54.72   -0.24    3.01   -0.24    3.01  -29.96  -54.72
   10.63  -31.17  -53.02   -0.22    2.77   -0.22    2.77  -31.17  -53.02
   10.76  -32.39  -51.14   -0.21    2.51   -0.21    2.51  -32.39  -51.14
   10.89  -33.39  -48.47   -0.21    2.26   -0.21    2.26  -33.39  -48.47
   11.03  -34.52  -45.04   -0.20    2.03   -0.20    2.03  -34.52  -45.04
   11.16  -35.40  -42.15   -0.19    1.80   -0.19    1.80  -35.40  -42.15
   11.29  -36.13  -40.33   -0.18    1.60   -0.18    1.60  -36.13  -40.33
   11.42  -37.21  -38.18   -0.18    1.41   -0.18    1.41  -37.21  -38.18
   11.56  -38.09  -33.89   -0.17    1.15   -0.17    1.15  -38.09  -33.89
   11.69  -38.68  -30.29   -0.17    0.94   -0.17    0.94  -38.68  -30.29
   11.82  -39.44  -23.05   -0.16    0.71   -0.16    0.71  -39.44  -23.05
   11.95  -40.15  -17.62   -0.17    0.49   -0.17    0.49  -40.15  -17.62
   12.08  -39.99  -11.48   -0.16    0.27   -0.16    0.27  -39.99  -11.48
   12.22  -40.07   -2.43   -0.16    0.09   -0.16    0.09  -40.07   -2.43
   12.35  -39.71    4.70   -0.16   -0.16   -0.16   -0.16  -39.71    4.70
   12.48  -38.83   15.36   -0.15   -0.38   -0.15   -0.38  -38.83   15.36
   12.61  -38.25   24.44   -0.15   -0.60   -0.15   -0.60  -38.25   24.44
   12.75  -37.18   28.57   -0.15   -0.82   -0.15   -0.82  -37.18   28.57
   12.88  -36.38   38.45   -0.15   -1.05   -0.15   -1.05  -36.38   38.45
   13.01  -35.58   48.30   -0.15   -1.23   -0.15   -1.23  -35.58   48.30
   13.14  -33.74   54.99   -0.15   -1.41   -0.15   -1.41  -33.74   54.99
   13.28  -32.45   62.05   -0.15   -1.63   -0.15   -1.63  -32.45   62.05
   13.41  -30.83   67.98   -0.15   -1.84   -0.15   -1.84  -30.83   67.98
   13.54  -29.26   71.41   -0.15   -2.08   -0.15   -2.08  -29.26   71.41
   13.67  -27.82   73.74   -0.16   -2.31   -0.16   -2.31  -27.82   73.74
   13.80  -26.53   77.04   -0.16   -2.52   -0.16   -2.52  -26.53   77.04
   13.94  -25.11   78.31   -0.17   -2.73   -0.17   -2.73  -25.11   78.31
   14.07  -23.89   79.56   -0.18   -2.95   -0.18   -2.95  -23.89   79.56
   14.20  -22.95   80.65   -0.18   -3.12   -0.18   -3.12  -22.95   80.65
   14.33  -21.83   81.35   -0.18   -3.39   -0.18   -3.39  -21.83   81.35
   14.47  -20.89   82.57   -0.19   -3.58   -0.19   -3.58  -20.89   82.57
   14.60  -20.02   82.19   -0.20   -3.83   -0.20   -3.83  -20.02   82.19
   14.73  -19.18   82.94   -0.21   -4.07   -0.21   -4.07  -19.18   82.94
   14.86  -18.60   82.72   -0.24   -4.27   -0.24   -4.27  -18.60   82.72
   14.99  -17.99   82.87   -0.25   -4.47   -0.25   -4.47  -17.99   82.87
   15.13  -17.48   83.46   -0.26   -4.59   -0.26   -4.59  -17.48   83.46
   15.26  -17.10   82.78   -0.29   -4.75   -0.29   -4.75  -17.10   82.78
   15.39  -16.57   84.14   -0.29   -4.81   -0.29   -4.81  -16.57   84.14
   15.52  -16.22   84.31   -0.29   -4.82   -0.29   -4.82  -16.22   84.31
   15.66  -15.94   84.05   -0.31   -4.95   -0.31   -4.95  -15.94   84.05
   15.79  -15.60   84.29   -0.32   -5.01   -0.32   -5.01  -15.60   84.29
   15.92  -15.22   84.38   -0.31   -5.06   -0.31   -5.06  -15.22   84.38
   16.05  -15.08   83.80   -0.33   -5.12   -0.33   -5.12  -15.08   83.80
   16.18  -14.95   83.02   -0.34   -5.25   -0.34   -5.25  -14.95   83.02
   16.32  -14.81   83.61   -0.32   -5.23   -0.32   -5.23  -14.81   83.61
   16.45  -14.70   83.28   -0.33   -5.29   -0.33   -5.29  -14.70   83.28
   16.58  -14.61   83.28   -0.31   -5.36   -0.31   -5.36  -14.61   83.28
   16.71  -14.68   83.08   -0.32   -5.31   -0.32   -5.31  -14.68   83.08
   16.85  -14.61   82.22   -0.33   -5.48   -0.33   -5.48  -14.61   82.22
   16.98  -14.52   83.11   -0.29   -5.60   -0.29   -5.60  -14.52   83.11
   17.11  -14.73   81.97   -0.32   -5.56   -0.32   -5.56  -14.73   81.97
   17.24  -14.72   82.19   -0.36   -5.79   -0.36   -5.79  -14.72   82.19
   17.37  -14.83   83.05   -0.32   -5.89   -0.32   -5.89  -14.83   83.05
   17.51  -14.94   82.55   -0.31   -5.95   -0.31   -5.95  -14.94   82.55
   17.64  -14.95   82.37   -0.34   -6.09   -0.34   -6.09  -14.95   82.37
   17.77  -15.12   83.01   -0.30   -6.20   -0.30   -6.20  -15.12   83.01
   17.90  -15.17   83.14   -0.29   -6.60   -0.29   -6.60  -15.17   83.14
   18.04  -15.28   81.66   -0.32   -6.60   -0.32   -6.60  -15.28   81.66
   18.17  -15.33   82.35   -0.32   -6.95   -0.32   -6.95  -15.33   82.35
   18.30  -15.38   82.37   -0.30   -7.11   -0.30   -7.11  -15.38   82.37
   18.43  -15.36   81.83   -0.33   -7.38   -0.33   -7.38  -15.36   81.83
   18.57  -15.33   81.50   -0.33   -7.51   -0.33   -7.51  -15.33   81.50
   18.70  -15.37   81.22   -0.33   -7.85   -0.33   -7.85  -15.37   81.22
   18.83  -15.22   80.54   -0.34   -8.14   -0.34   -8.14  -15.22   80.54
   18.96  -14.99   80.52   -0.36   -8.28   -0.36   -8.28  -14.99   80.52
   19.09  -14.88   79.85   -0.36   -8.59   -0.36   -8.59  -14.88   79.85
   19.23  -14.62   80.11   -0.38   -8.87   -0.38   -8.87  -14.62   80.11
   19.36  -14.33   79.31   -0.39   -9.09   -0.39   -9.09  -14.33   79.31
   19.49  -13.98   78.48   -0.39   -9.31   -0.39   -9.31  -13.98   78.48
   19.62  -13.84   79.09   -0.42   -9.68   -0.42   -9.68  -13.84   79.09
   19.76  -13.58   78.78   -0.43  -10.02   -0.43  -10.02  -13.58   78.78
   19.89  -13.08   78.53   -0.43  -10.12   -0.43  -10.12  -13.08   78.53
   20.02  -12.88   78.49   -0.48  -10.48   -0.48  -10.48  -12.88   78.49
   20.15  -12.61   79.17   -0.52  -10.90   -0.52  -10.90  -12.61   79.17
   20.28  -12.21   79.61   -0.54  -11.10   -0.54  -11.10  -12.21   79.61
   20.42  -11.89   80.29   -0.55  -11.33   -0.55  -11.33  -11.89   80.29
   20.55  -11.76   80.69   -0.61  -11.62   -0.61  -11.62  -11.76   80.69
   20.68  -11.49   82.10   -0.64  -11.60   -0.64  -11.60  -11.49   82.10
   20.81  -11.07   82.52   -0.64  -11.82   -0.64  -11.82  -11.07   82.52
   20.95  -10.96   82.89   -0.69  -12.05   -0.69  -12.05  -10.96   82.89
   21.08  -10.76   84.47   -0.75  -11.89   -0.75  -11.89  -10.76   84.47
   21.21  -10.62   84.31   -0.78  -12.10   -0.78  -12.10  -10.62   84.31
   21.34  -10.36   84.12   -0.78  -12.25   -0.78  -12.25  -10.36   84.12
   21.47  -10.31   86.02   -0.80  -11.77   -0.80  -11.77  -10.31   86.02
   21.61  -10.24   85.71   -0.83  -11.85   -0.83  -11.85  -10.24   85.71
   21.74  -10.01   85.45   -0.83  -12.05   -0.83  -12.05  -10.01   85.45
   21.87  -10.02   86.27   -0.85  -11.68   -0.85  -11.68  -10.02   86.27
   22.00   -9.98   85.13   -0.87  -11.66   -0.87  -11.66   -9.98   85.13
   22.14   -9.80   85.07   -0.87  -11.78   -0.87  -11.78   -9.80   85.07
   22.27   -9.82   85.39   -0.86  -11.53   -0.86  -11.53   -9.82   85.39
   22.40   -9.96   84.90   -0.89  -11.23   -0.89  -11.23   -9.96   84.90
   22.53   -9.89   84.56   -0.92  -11.34   -0.92  -11.34   -9.89   84.56
   22.66   -9.85   84.88   -0.92  -11.25   -0.92  -11.25   -9.85   84.88
   22.80   -9.97   84.58   -0.94  -10.93   -0.94  -10.93   -9.97   84.58
   22.93  -10.03   84.01   -0.94  -10.84   -0.94  -10.84  -10.03   84.01
   23.06   -9.95   85.39   -0.92  -10.74   -0.92  -10.74   -9.95   85.39
   23.19  -10.03   84.83   -0.92  -10.75   -0.92  -10.75  -10.03   84.83
   23.33  -10.01   84.62   -0.93  -10.76   -0.93  -10.76  -10.01   84.62
   23.46  -10.07   84.50   -0.90  -11.00   -0.90  -11.00  -10.07   84.50
   23.59  -10.08   84.39   -0.92  -11.35   -0.92  -11.35  -10.08   84.39
   23.72  -10.05   84.48   -0.95  -11.52   -0.95  -11.52  -10.05   84.48
   23.86  -10.09   83.82   -0.96  -11.68   -0.96  -11.68  -10.09   83.82
   23.99   -9.99   83.24   -1.01  -12.16   -1.01  -12.16   -9.99   83.24
   24.12   -9.91   82.53   -1.08  -12.47   -1.08  -12.47   -9.91   82.53
   24.25   -9.73   81.34   -1.07  -12.69   -1.07  -12.69   -9.73   81.34
   24.38   -9.55   80.25   -1.13  -12.96   -1.13  -12.96   -9.55   80.25
   24.52   -9.42   79.19   -1.22  -13.51   -1.22  -13.51   -9.42   79.19
   24.65   -9.15   78.01   -1.21  -13.85   -1.21  -13.85   -9.15   78.01
   24.78   -8.99   76.11   -1.23  -14.25   -1.23  -14.25   -8.99   76.11
   24.91   -8.68   75.09   -1.30  -14.73   -1.30  -14.73   -8.68   75.09
   25.05   -8.35   74.01   -1.38  -15.33   -1.38  -15.33   -8.35   74.01
   25.18   -8.06   72.86   -1.41  -15.91   -1.41  -15.91   -8.06   72.86
   25.31   -7.77   71.39   -1.51  -16.20   -1.51  -16.20   -7.77   71.39
   25.44   -7.50   71.15   -1.59  -16.41   -1.59  -16.41   -7.50   71.15
   25.57   -7.20   71.24   -1.58  -16.82   -1.58  -16.82   -7.20   71.24
   25.71   -6.95   70.90   -1.67  -17.31   -1.67  -17.31   -6.95   70.90
   25.84   -6.69   71.96   -1.74  -17.37   -1.74  -17.37   -6.69   71.96
   25.97   -6.53   73.39   -1.76  -17.97   -1.76  -17.97   -6.53   73.39
   26.10   -6.21   75.67   -1.84  -18.53   -1.84  -18.53   -6.21   75.67
   26.24   -5.86   79.94   -1.94  -18.46   -1.94  -18.46   -5.86   79.94
   26.37   -5.87   81.96   -2.00  -18.47   -2.00  -18.47   -5.87   81.96
   26.50   -5.74   83.95   -2.08  -18.69   -2.08  -18.69   -5.74   83.95
