!  American Technical Ceramics  Date:     3/6/98
!  One Norden Lane
!  Huntington Station,  NY.   11746-2102
!  Tel:  (516) 547-5700               Fax:  (516) 547-5748
!  Part Number  500S3R9
!  Description: Broadband Microwave capacitor
!  Application:
!
# GHZ S DB R 50
! Freq   |S11|   S11 Ph  |S21|   S21 Ph  |S12|   S12 Ph  |S22|   S22 Ph
    0.05   -0.10   -7.00  -18.50   82.72  -18.50   82.72   -0.10   -7.00
    0.18   -0.77  -23.77   -8.02   66.62   -8.02   66.62   -0.77  -23.77
    0.31   -1.95  -37.21   -4.42   53.01   -4.42   53.01   -1.95  -37.21
    0.45   -3.30  -47.48   -2.73   43.22   -2.73   43.22   -3.30  -47.48
    0.58   -4.78  -54.93   -1.83   35.20   -1.83   35.20   -4.78  -54.93
    0.71   -6.10  -60.11   -1.34   29.66   -1.34   29.66   -6.10  -60.11
    0.84   -7.25  -64.90   -1.01   25.73   -1.01   25.73   -7.25  -64.90
    0.98   -8.20  -67.00   -0.75   22.39   -0.75   22.39   -8.20  -67.00
    1.11   -9.23  -70.20   -0.61   20.13   -0.61   20.13   -9.23  -70.20
    1.24  -10.17  -71.82   -0.49   18.23   -0.49   18.23  -10.17  -71.82
    1.37  -10.88  -73.58   -0.41   16.26   -0.41   16.26  -10.88  -73.58
    1.50  -11.70  -75.40   -0.35   14.95   -0.35   14.95  -11.70  -75.40
    1.64  -12.36  -75.75   -0.28   13.53   -0.28   13.53  -12.36  -75.75
    1.77  -13.08  -77.37   -0.25   12.46   -0.25   12.46  -13.08  -77.37
    1.90  -13.72  -77.97   -0.22   11.58   -0.22   11.58  -13.72  -77.97
    2.03  -14.28  -79.07   -0.20   10.70   -0.20   10.70  -14.28  -79.07
    2.17  -14.94  -79.48   -0.18    9.93   -0.18    9.93  -14.94  -79.48
    2.30  -15.45  -79.85   -0.17    9.23   -0.17    9.23  -15.45  -79.85
    2.43  -16.03  -81.18   -0.16    8.66   -0.16    8.66  -16.03  -81.18
    2.56  -16.61  -80.58   -0.14    8.01   -0.14    8.01  -16.61  -80.58
    2.70  -17.09  -81.82   -0.13    7.48   -0.13    7.48  -17.09  -81.82
    2.83  -17.58  -81.80   -0.13    7.05   -0.13    7.05  -17.58  -81.80
    2.96  -18.01  -81.35   -0.12    6.53   -0.12    6.53  -18.01  -81.35
    3.09  -18.57  -81.99   -0.13    6.13   -0.13    6.13  -18.57  -81.99
    3.22  -18.95  -81.30   -0.13    5.72   -0.13    5.72  -18.95  -81.30
    3.36  -19.35  -81.94   -0.12    5.35   -0.12    5.35  -19.35  -81.94
    3.49  -19.65  -81.16   -0.12    5.06   -0.12    5.06  -19.65  -81.16
    3.62  -19.97  -81.16   -0.12    4.70   -0.12    4.70  -19.97  -81.16
    3.75  -20.35  -81.26   -0.13    4.38   -0.13    4.38  -20.35  -81.26
    3.89  -20.47  -80.94   -0.13    4.03   -0.13    4.03  -20.47  -80.94
    4.02  -20.90  -81.60   -0.11    3.86   -0.11    3.86  -20.90  -81.60
    4.15  -21.10  -81.18   -0.10    3.58   -0.10    3.58  -21.10  -81.18
    4.28  -21.28  -81.59   -0.11    3.35   -0.11    3.35  -21.28  -81.59
    4.41  -21.61  -81.35   -0.12    3.11   -0.12    3.11  -21.61  -81.35
    4.55  -21.67  -81.62   -0.12    2.90   -0.12    2.90  -21.67  -81.62
    4.68  -21.86  -82.54   -0.13    2.69   -0.13    2.69  -21.86  -82.54
    4.81  -21.93  -82.02   -0.13    2.55   -0.13    2.55  -21.93  -82.02
    4.94  -22.01  -82.24   -0.13    2.40   -0.13    2.40  -22.01  -82.24
    5.08  -22.10  -82.11   -0.14    2.24   -0.14    2.24  -22.10  -82.11
    5.21  -22.11  -83.13   -0.14    2.03   -0.14    2.03  -22.11  -83.13
    5.34  -22.21  -83.51   -0.13    1.92   -0.13    1.92  -22.21  -83.51
    5.47  -22.15  -83.03   -0.14    1.76   -0.14    1.76  -22.15  -83.03
    5.60  -22.24  -84.20   -0.14    1.63   -0.14    1.63  -22.24  -84.20
    5.74  -22.32  -83.89   -0.14    1.52   -0.14    1.52  -22.32  -83.89
    5.87  -22.47  -83.85   -0.15    1.40   -0.15    1.40  -22.47  -83.85
    6.00  -22.64  -84.63   -0.16    1.24   -0.16    1.24  -22.64  -84.63
    6.13  -22.68  -83.78   -0.15    1.14   -0.15    1.14  -22.68  -83.78
    6.27  -23.04  -83.47   -0.15    1.06   -0.15    1.06  -23.04  -83.47
    6.40  -23.32  -82.95   -0.17    0.93   -0.17    0.93  -23.32  -82.95
    6.53  -23.66  -82.34   -0.17    0.87   -0.17    0.87  -23.66  -82.34
    6.66  -24.17  -81.31   -0.17    0.74   -0.17    0.74  -24.17  -81.31
    6.79  -24.50  -79.39   -0.18    0.56   -0.18    0.56  -24.50  -79.39
    6.93  -25.04  -76.91   -0.19    0.58   -0.19    0.58  -25.04  -76.91
    7.06  -25.65  -74.35   -0.19    0.51   -0.19    0.51  -25.65  -74.35
    7.19  -26.19  -71.99   -0.21    0.40   -0.21    0.40  -26.19  -71.99
    7.32  -26.68  -68.18   -0.22    0.37   -0.22    0.37  -26.68  -68.18
    7.46  -27.38  -64.03   -0.23    0.30   -0.23    0.30  -27.38  -64.03
    7.59  -27.66  -59.77   -0.25    0.25   -0.25    0.25  -27.66  -59.77
    7.72  -27.92  -55.37   -0.25    0.31   -0.25    0.31  -27.92  -55.37
    7.85  -28.76  -54.05   -0.24    0.35   -0.24    0.35  -28.76  -54.05
    7.99  -29.35  -49.40   -0.25    0.29   -0.25    0.29  -29.35  -49.40
    8.12  -29.88  -43.80   -0.25    0.25   -0.25    0.25  -29.88  -43.80
    8.25  -30.55  -39.73   -0.25    0.26   -0.25    0.26  -30.55  -39.73
    8.38  -31.05  -34.69   -0.25    0.15   -0.25    0.15  -31.05  -34.69
    8.51  -31.74  -28.87   -0.25    0.18   -0.25    0.18  -31.74  -28.87
    8.65  -32.36  -22.46   -0.25    0.16   -0.25    0.16  -32.36  -22.46
    8.78  -32.50  -13.34   -0.25    0.12   -0.25    0.12  -32.50  -13.34
    8.91  -32.42   -5.81   -0.26    0.01   -0.26    0.01  -32.42   -5.81
    9.04  -32.23    0.23   -0.27   -0.01   -0.27   -0.01  -32.23    0.23
    9.18  -31.89    4.25   -0.27    0.01   -0.27    0.01  -31.89    4.25
    9.31  -31.65    6.13   -0.28    0.04   -0.28    0.04  -31.65    6.13
    9.44  -32.12    7.91   -0.27    0.10   -0.27    0.10  -32.12    7.91
    9.57  -31.87   12.42   -0.27    0.05   -0.27    0.05  -31.87   12.42
    9.70  -32.12   13.47   -0.26    0.10   -0.26    0.10  -32.12   13.47
    9.84  -32.55   15.00   -0.25    0.13   -0.25    0.13  -32.55   15.00
    9.97  -32.75   18.27   -0.24    0.11   -0.24    0.11  -32.75   18.27
   10.10  -33.20   17.46   -0.24    0.18   -0.24    0.18  -33.20   17.46
   10.23  -34.06   18.66   -0.23    0.21   -0.23    0.21  -34.06   18.66
   10.37  -35.11   20.08   -0.22    0.18   -0.22    0.18  -35.11   20.08
   10.50  -36.27   24.34   -0.21    0.15   -0.21    0.15  -36.27   24.34
   10.63  -37.24   27.66   -0.20    0.12   -0.20    0.12  -37.24   27.66
   10.76  -38.63   26.40   -0.19    0.05   -0.19    0.05  -38.63   26.40
   10.89  -40.15   28.63   -0.19    0.01   -0.19    0.01  -40.15   28.63
   11.03  -41.50   31.01   -0.18   -0.01   -0.18   -0.01  -41.50   31.01
   11.16  -43.65   19.74   -0.17   -0.07   -0.17   -0.07  -43.65   19.74
   11.29  -45.98    1.61   -0.17   -0.09   -0.17   -0.09  -45.98    1.61
   11.42  -47.50  -24.80   -0.16   -0.16   -0.16   -0.16  -47.50  -24.80
   11.56  -44.92  -49.53   -0.15   -0.20   -0.15   -0.20  -44.92  -49.53
   11.69  -42.72  -61.35   -0.16   -0.26   -0.16   -0.26  -42.72  -61.35
   11.82  -41.02  -67.99   -0.15   -0.35   -0.15   -0.35  -41.02  -67.99
   11.95  -39.22  -69.16   -0.14   -0.38   -0.14   -0.38  -39.22  -69.16
   12.08  -37.78  -68.32   -0.15   -0.44   -0.15   -0.44  -37.78  -68.32
   12.22  -36.92  -64.75   -0.15   -0.51   -0.15   -0.51  -36.92  -64.75
   12.35  -36.14  -63.65   -0.14   -0.57   -0.14   -0.57  -36.14  -63.65
   12.48  -35.53  -56.85   -0.13   -0.67   -0.13   -0.67  -35.53  -56.85
   12.61  -35.85  -50.83   -0.14   -0.74   -0.14   -0.74  -35.85  -50.83
   12.75  -35.16  -46.54   -0.14   -0.82   -0.14   -0.82  -35.16  -46.54
   12.88  -35.38  -40.12   -0.14   -0.89   -0.14   -0.89  -35.38  -40.12
   13.01  -36.24  -28.58   -0.14   -0.87   -0.14   -0.87  -36.24  -28.58
   13.14  -36.06  -19.85   -0.14   -0.96   -0.14   -0.96  -36.06  -19.85
   13.28  -36.33   -4.22   -0.14   -1.00   -0.14   -1.00  -36.33   -4.22
   13.41  -36.06   13.50   -0.14   -1.07   -0.14   -1.07  -36.06   13.50
   13.54  -34.79   29.23   -0.14   -1.19   -0.14   -1.19  -34.79   29.23
   13.67  -33.24   39.26   -0.14   -1.31   -0.14   -1.31  -33.24   39.26
   13.80  -32.05   51.69   -0.15   -1.39   -0.15   -1.39  -32.05   51.69
   13.94  -30.31   60.40   -0.15   -1.46   -0.15   -1.46  -30.31   60.40
   14.07  -28.57   64.91   -0.15   -1.48   -0.15   -1.48  -28.57   64.91
   14.20  -27.58   68.68   -0.16   -1.65   -0.16   -1.65  -27.58   68.68
   14.33  -26.21   72.39   -0.16   -1.75   -0.16   -1.75  -26.21   72.39
   14.47  -25.17   74.45   -0.16   -1.84   -0.16   -1.84  -25.17   74.45
   14.60  -24.26   75.22   -0.16   -2.00   -0.16   -2.00  -24.26   75.22
   14.73  -23.29   77.42   -0.17   -2.09   -0.17   -2.09  -23.29   77.42
   14.86  -22.58   77.81   -0.20   -2.22   -0.20   -2.22  -22.58   77.81
   14.99  -21.90   77.97   -0.20   -2.32   -0.20   -2.32  -21.90   77.97
   15.13  -21.40   78.14   -0.21   -2.41   -0.21   -2.41  -21.40   78.14
   15.26  -20.97   78.20   -0.23   -2.44   -0.23   -2.44  -20.97   78.20
   15.39  -20.37   79.68   -0.23   -2.52   -0.23   -2.52  -20.37   79.68
   15.52  -19.97   79.94   -0.23   -2.52   -0.23   -2.52  -19.97   79.94
   15.66  -19.62   79.66   -0.25   -2.64   -0.25   -2.64  -19.62   79.66
   15.79  -19.30   79.81   -0.25   -2.61   -0.25   -2.61  -19.30   79.81
   15.92  -18.82   80.06   -0.25   -2.73   -0.25   -2.73  -18.82   80.06
   16.05  -18.61   79.38   -0.26   -2.82   -0.26   -2.82  -18.61   79.38
   16.18  -18.46   78.91   -0.27   -2.88   -0.27   -2.88  -18.46   78.91
   16.32  -18.33   79.47   -0.27   -2.88   -0.27   -2.88  -18.33   79.47
   16.45  -18.21   78.95   -0.27   -3.03   -0.27   -3.03  -18.21   78.95
   16.58  -18.11   79.64   -0.27   -3.08   -0.27   -3.08  -18.11   79.64
   16.71  -18.28   79.71   -0.27   -3.10   -0.27   -3.10  -18.28   79.71
   16.85  -18.16   78.83   -0.28   -3.22   -0.28   -3.22  -18.16   78.83
   16.98  -18.10   80.29   -0.26   -3.43   -0.26   -3.43  -18.10   80.29
   17.11  -18.40   79.22   -0.27   -3.52   -0.27   -3.52  -18.40   79.22
   17.24  -18.39   79.89   -0.30   -3.70   -0.30   -3.70  -18.39   79.89
   17.37  -18.60   79.71   -0.29   -3.96   -0.29   -3.96  -18.60   79.71
   17.51  -18.67   79.02   -0.28   -4.13   -0.28   -4.13  -18.67   79.02
   17.64  -18.73   78.52   -0.31   -4.41   -0.31   -4.41  -18.73   78.52
   17.77  -18.84   78.21   -0.29   -4.72   -0.29   -4.72  -18.84   78.21
   17.90  -18.78   77.71   -0.30   -5.20   -0.30   -5.20  -18.78   77.71
   18.04  -18.72   74.33   -0.33   -5.39   -0.33   -5.39  -18.72   74.33
   18.17  -18.51   74.70   -0.34   -5.87   -0.34   -5.87  -18.51   74.70
   18.30  -18.21   73.11   -0.35   -6.34   -0.35   -6.34  -18.21   73.11
   18.43  -17.71   71.01   -0.40   -6.80   -0.40   -6.80  -17.71   71.01
   18.57  -17.23   69.84   -0.42   -7.26   -0.42   -7.26  -17.23   69.84
   18.70  -16.74   68.69   -0.45   -7.95   -0.45   -7.95  -16.74   68.69
   18.83  -16.00   67.44   -0.50   -8.57   -0.50   -8.57  -16.00   67.44
   18.96  -15.21   65.69   -0.55   -9.18   -0.55   -9.18  -15.21   65.69
   19.09  -14.44   64.25   -0.61   -9.95   -0.61   -9.95  -14.44   64.25
   19.23  -13.61   64.03   -0.69  -10.85   -0.69  -10.85  -13.61   64.03
   19.36  -12.81   62.09   -0.78  -11.80   -0.78  -11.80  -12.81   62.09
   19.49  -11.85   59.98   -0.87  -12.87   -0.87  -12.87  -11.85   59.98
   19.62  -11.18   59.25   -1.04  -14.09   -1.04  -14.09  -11.18   59.25
   19.76  -10.42   57.13   -1.22  -15.53   -1.22  -15.53  -10.42   57.13
   19.89   -9.43   54.68   -1.41  -16.81   -1.41  -16.81   -9.43   54.68
   20.02   -8.73   52.36   -1.72  -18.41   -1.72  -18.41   -8.73   52.36
   20.15   -7.98   49.77   -2.11  -20.12   -2.11  -20.12   -7.98   49.77
   20.28   -7.09   46.24   -2.58  -21.79   -2.58  -21.79   -7.09   46.24
   20.42   -6.41   41.90   -3.20  -23.39   -3.20  -23.39   -6.41   41.90
   20.55   -5.91   36.98   -4.06  -24.18   -4.06  -24.18   -5.91   36.98
   20.68   -5.26   31.69   -5.11  -23.75   -5.11  -23.75   -5.26   31.69
   20.81   -4.75   24.41   -6.42  -21.26   -6.42  -21.26   -4.75   24.41
   20.95   -4.62   16.87   -7.79  -13.34   -7.79  -13.34   -4.62   16.87
   21.08   -4.51    9.53   -8.50   -0.46   -8.50   -0.46   -4.51    9.53
   21.21   -4.75    0.48   -8.22   13.26   -8.22   13.26   -4.75    0.48
   21.34   -5.08   -8.19   -7.14   23.00   -7.14   23.00   -5.08   -8.19
   21.47   -5.55  -15.07   -5.66   27.93   -5.66   27.93   -5.55  -15.07
   21.61   -6.42  -23.65   -4.47   29.48   -4.47   29.48   -6.42  -23.65
   21.74   -7.26  -30.36   -3.55   29.03   -3.55   29.03   -7.26  -30.36
   21.87   -8.28  -35.71   -2.76   27.20   -2.76   27.20   -8.28  -35.71
   22.00   -9.31  -41.53   -2.25   25.52   -2.25   25.52   -9.31  -41.53
   22.14  -10.33  -45.71   -1.90   23.69   -1.90   23.69  -10.33  -45.71
   22.27  -11.46  -48.87   -1.62   21.66   -1.62   21.66  -11.46  -48.87
   22.40  -12.41  -52.83   -1.39   20.21   -1.39   20.21  -12.41  -52.83
   22.53  -13.33  -55.86   -1.24   19.10   -1.24   19.10  -13.33  -55.86
   22.66  -14.30  -58.13   -1.15   17.90   -1.15   17.90  -14.30  -58.13
   22.80  -15.11  -60.70   -1.05   16.87   -1.05   16.87  -15.11  -60.70
   22.93  -15.85  -62.92   -0.98   16.00   -0.98   16.00  -15.85  -62.92
   23.06  -16.46  -63.94   -0.93   15.29   -0.93   15.29  -16.46  -63.94
   23.19  -17.05  -65.04   -0.87   14.59   -0.87   14.59  -17.05  -65.04
   23.33  -17.41  -65.61   -0.83   14.00   -0.83   14.00  -17.41  -65.61
   23.46  -17.64  -65.77   -0.81   13.40   -0.81   13.40  -17.64  -65.77
   23.59  -17.88  -66.77   -0.79   13.04   -0.79   13.04  -17.88  -66.77
   23.72  -18.21  -66.25   -0.79   12.56   -0.79   12.56  -18.21  -66.25
   23.86  -18.59  -65.41   -0.79   12.19   -0.79   12.19  -18.59  -65.41
   23.99  -18.85  -64.40   -0.77   11.98   -0.77   11.98  -18.85  -64.40
   24.12  -19.23  -62.64   -0.76   11.66   -0.76   11.66  -19.23  -62.64
   24.25  -19.85  -58.70   -0.76   11.53   -0.76   11.53  -19.85  -58.70
   24.38  -20.15  -56.67   -0.73   11.30   -0.73   11.30  -20.15  -56.67
   24.52  -20.78  -54.92   -0.71   11.10   -0.71   11.10  -20.78  -54.92
   24.65  -21.72  -49.46   -0.71   10.96   -0.71   10.96  -21.72  -49.46
   24.78  -22.60  -44.77   -0.69   10.86   -0.69   10.86  -22.60  -44.77
   24.91  -23.68  -40.30   -0.67   10.66   -0.67   10.66  -23.68  -40.30
   25.05  -25.53  -28.75   -0.66   10.56   -0.66   10.56  -25.53  -28.75
   25.18  -26.38  -11.74   -0.65   10.41   -0.65   10.41  -26.38  -11.74
   25.31  -27.43    1.37   -0.62   10.31   -0.62   10.31  -27.43    1.37
   25.44  -27.82   18.86   -0.59   10.23   -0.59   10.23  -27.82   18.86
   25.57  -27.64   39.92   -0.56   10.02   -0.56   10.02  -27.64   39.92
   25.71  -26.15   59.86   -0.55    9.71   -0.55    9.71  -26.15   59.86
   25.84  -25.04   71.69   -0.54    9.34   -0.54    9.34  -25.04   71.69
   25.97  -23.62   88.27   -0.54    9.08   -0.54    9.08  -23.62   88.27
   26.10  -22.41   97.37   -0.56    8.67   -0.56    8.67  -22.41   97.37
   26.24  -21.18  103.63   -0.57    8.31   -0.57    8.31  -21.18  103.63
   26.37  -20.41  111.15   -0.58    8.26   -0.58    8.26  -20.41  111.15
   26.50  -19.53  119.60   -0.62    8.04   -0.62    8.04  -19.53  119.60
