!  American Technical Ceramics  Date:    3/13/98
!  One Norden Lane
!  Huntington Station,  NY.   11746-2102
!  Tel:  (516) 547-5700               Fax:  (516) 547-5748
!  Part Number  700A151G
!  Description: Porcelain, High Q, Low ESR
!  Application: Bypass, Coupling, Timing, Feedback
!               Tuning, Impedance Match, Blocking
# GHZ S DB R 50
! Freq   |S11|   S11 Ph  |S21|   S21 Ph  |S12|   S12 Ph  |S22|   S22 Ph
    0.05  -13.27  -78.47   -0.23   12.23   -0.23   12.23  -13.27  -78.47
    0.07  -16.30  -82.01   -0.11    8.82   -0.11    8.82  -16.30  -82.01
    0.09  -18.46  -83.80   -0.07    6.71   -0.07    6.71  -18.46  -83.80
    0.11  -19.98  -85.99   -0.05    5.48   -0.05    5.48  -19.98  -85.99
    0.13  -21.66  -86.96   -0.04    4.34   -0.04    4.34  -21.66  -86.96
    0.15  -22.93  -87.88   -0.04    4.07   -0.04    4.07  -22.93  -87.88
    0.17  -23.98  -88.29   -0.04    3.37   -0.04    3.37  -23.98  -88.29
    0.19  -25.12  -88.25    0.00    3.11    0.00    3.11  -25.12  -88.25
    0.21  -26.05  -89.84   -0.01    2.98   -0.01    2.98  -26.05  -89.84
    0.23  -26.86  -89.92   -0.01    2.61   -0.01    2.61  -26.86  -89.92
    0.25  -27.67  -89.74   -0.01    2.29   -0.01    2.29  -27.67  -89.74
    0.27  -28.37  -90.64   -0.02    2.09   -0.02    2.09  -28.37  -90.64
    0.29  -29.16  -90.79   -0.01    1.83   -0.01    1.83  -29.16  -90.79
    0.31  -29.71  -91.58   -0.01    1.68   -0.01    1.68  -29.71  -91.58
    0.33  -30.39  -91.47    0.00    1.53    0.00    1.53  -30.39  -91.47
    0.35  -31.08  -92.27   -0.01    1.43   -0.01    1.43  -31.08  -92.27
    0.37  -31.70  -91.20   -0.01    1.21   -0.01    1.21  -31.70  -91.20
    0.39  -32.21  -91.16   -0.01    1.00   -0.01    1.00  -32.21  -91.16
    0.41  -32.89  -91.25   -0.01    1.10   -0.01    1.10  -32.89  -91.25
    0.43  -33.32  -92.66   -0.02    1.11   -0.02    1.11  -33.32  -92.66
    0.45  -33.95  -93.93    0.00    0.95    0.00    0.95  -33.95  -93.93
    0.46  -34.50  -93.40    0.00    0.85    0.00    0.85  -34.50  -93.40
    0.48  -35.11  -93.48   -0.02    0.82   -0.02    0.82  -35.11  -93.48
    0.50  -35.63  -93.63   -0.01    0.61   -0.01    0.61  -35.63  -93.63
    0.52  -36.00  -94.50   -0.01    0.65   -0.01    0.65  -36.00  -94.50
    0.54  -36.52  -95.41   -0.01    0.51   -0.01    0.51  -36.52  -95.41
    0.56  -37.41  -94.51   -0.01    0.62   -0.01    0.62  -37.41  -94.51
    0.58  -37.68  -93.85   -0.01    0.42   -0.01    0.42  -37.68  -93.85
    0.60  -38.06  -97.93   -0.01    0.44   -0.01    0.44  -38.06  -97.93
    0.62  -38.88  -96.68   -0.02    0.26   -0.02    0.26  -38.88  -96.68
    0.64  -39.59  -95.39   -0.01    0.45   -0.01    0.45  -39.59  -95.39
    0.66  -39.76  -94.38   -0.01    0.23   -0.01    0.23  -39.76  -94.38
    0.68  -40.18  -96.16    0.00    0.16    0.00    0.16  -40.18  -96.16
    0.70  -40.98  -95.35   -0.02    0.16   -0.02    0.16  -40.98  -95.35
    0.72  -41.78  -97.08   -0.02    0.05   -0.02    0.05  -41.78  -97.08
    0.74  -41.96  -96.99   -0.01    0.15   -0.01    0.15  -41.96  -96.99
    0.76  -42.83  -96.27   -0.01    0.06   -0.01    0.06  -42.83  -96.27
    0.78  -43.70  -97.30   -0.01    0.06   -0.01    0.06  -43.70  -97.30
    0.80  -44.17  -98.35   -0.01    0.08   -0.01    0.08  -44.17  -98.35
    0.82  -44.69  -99.88   -0.01   -0.14   -0.01   -0.14  -44.69  -99.88
    0.84  -45.87 -102.18   -0.01    0.00   -0.01    0.00  -45.87 -102.18
    0.86  -47.67  -94.16   -0.02   -0.23   -0.02   -0.23  -47.67  -94.16
    0.88  -47.01  -94.16   -0.01   -0.23   -0.01   -0.23  -47.01  -94.16
    0.90  -47.99 -107.05   -0.02   -0.09   -0.02   -0.09  -47.99 -107.05
    0.92  -50.15 -101.02   -0.02   -0.09   -0.02   -0.09  -50.15 -101.02
    0.94  -51.46  -92.36   -0.01   -0.31   -0.01   -0.31  -51.46  -92.36
    0.96  -51.51 -102.28   -0.01   -0.22   -0.01   -0.22  -51.51 -102.28
    0.98  -53.51 -104.56   -0.02   -0.33   -0.02   -0.33  -53.51 -104.56
    1.00  -56.66 -109.50   -0.01   -0.41   -0.01   -0.41  -56.66 -109.50
    1.02  -62.44 -114.81   -0.01   -0.46   -0.01   -0.46  -62.44 -114.81
    1.04  -65.21  -71.57   -0.02   -0.42   -0.02   -0.42  -65.21  -71.57
    1.06  -65.29  -90.86    0.00   -0.44    0.00   -0.44  -65.29  -90.86
    1.08  -73.12 -134.00   -0.02   -0.39   -0.02   -0.39  -73.12 -134.00
    1.10  -65.42  106.78   -0.02   -0.48   -0.02   -0.48  -65.42  106.78
    1.12  -58.91   99.16   -0.02   -0.51   -0.02   -0.51  -58.91   99.16
    1.14  -55.10   84.57   -0.02   -0.48   -0.02   -0.48  -55.10   84.57
    1.16  -54.74   76.22   -0.01   -0.47   -0.01   -0.47  -54.74   76.22
    1.18  -54.31   75.59   -0.01   -0.55   -0.01   -0.55  -54.31   75.59
    1.20  -53.36   83.70   -0.02   -0.61   -0.02   -0.61  -53.36   83.70
    1.22  -50.11   85.55   -0.01   -0.62   -0.01   -0.62  -50.11   85.55
    1.24  -49.06   80.09   -0.02   -0.67   -0.02   -0.67  -49.06   80.09
    1.25  -48.35   72.08   -0.02   -0.87   -0.02   -0.87  -48.35   72.08
    1.27  -48.37   75.33   -0.01   -0.87   -0.01   -0.87  -48.37   75.33
    1.29  -46.96   86.52   -0.03   -0.71   -0.03   -0.71  -46.96   86.52
    1.31  -44.96   81.01   -0.03   -0.74   -0.03   -0.74  -44.96   81.01
    1.33  -45.11   74.25   -0.04   -0.73   -0.04   -0.73  -45.11   74.25
    1.35  -45.37   75.90   -0.02   -0.85   -0.02   -0.85  -45.37   75.90
    1.37  -44.79   82.93   -0.02   -0.85   -0.02   -0.85  -44.79   82.93
    1.39  -43.47   79.07   -0.02   -0.95   -0.02   -0.95  -43.47   79.07
    1.41  -43.02   75.00   -0.02   -1.00   -0.02   -1.00  -43.02   75.00
    1.43  -43.02   73.10   -0.02   -0.93   -0.02   -0.93  -43.02   73.10
    1.45  -42.69   79.64   -0.02   -0.86   -0.02   -0.86  -42.69   79.64
    1.47  -41.80   82.65   -0.02   -0.94   -0.02   -0.94  -41.80   82.65
    1.49  -41.10   83.22   -0.02   -0.88   -0.02   -0.88  -41.10   83.22
    1.51  -40.43   76.55   -0.01   -1.03   -0.01   -1.03  -40.43   76.55
    1.53  -40.54   75.62   -0.03   -1.18   -0.03   -1.18  -40.54   75.62
    1.55  -40.65   75.79   -0.01   -1.19   -0.01   -1.19  -40.65   75.79
    1.57  -40.33   79.40   -0.01   -1.07   -0.01   -1.07  -40.33   79.40
    1.59  -39.23   79.64   -0.02   -1.16   -0.02   -1.16  -39.23   79.64
    1.61  -38.53   76.29   -0.02   -1.23   -0.02   -1.23  -38.53   76.29
    1.63  -38.65   73.59   -0.02   -1.25   -0.02   -1.25  -38.65   73.59
    1.65  -38.98   76.54   -0.03   -1.24   -0.03   -1.24  -38.98   76.54
    1.67  -37.98   82.27   -0.03   -1.36   -0.03   -1.36  -37.98   82.27
    1.69  -36.99   76.70   -0.03   -1.28   -0.03   -1.28  -36.99   76.70
    1.71  -37.20   72.83   -0.05   -1.20   -0.05   -1.20  -37.20   72.83
    1.73  -37.57   73.22   -0.04   -1.44   -0.04   -1.44  -37.57   73.22
    1.75  -36.98   77.02   -0.03   -1.44   -0.03   -1.44  -36.98   77.02
    1.77  -36.13   77.85   -0.03   -1.37   -0.03   -1.37  -36.13   77.85
    1.79  -35.70   75.91   -0.05   -1.51   -0.05   -1.51  -35.70   75.91
    1.81  -35.67   73.28   -0.02   -1.36   -0.02   -1.36  -35.67   73.28
    1.83  -35.73   73.00   -0.04   -1.40   -0.04   -1.40  -35.73   73.00
    1.85  -35.57   74.40   -0.04   -1.55   -0.04   -1.55  -35.57   74.40
    1.87  -35.02   76.61   -0.05   -1.64   -0.05   -1.64  -35.02   76.61
    1.89  -34.41   75.20   -0.03   -1.59   -0.03   -1.59  -34.41   75.20
    1.91  -34.07   72.68   -0.04   -1.63   -0.04   -1.63  -34.07   72.68
    1.93  -33.93   71.31   -0.03   -1.72   -0.03   -1.72  -33.93   71.31
    1.95  -33.88   70.75   -0.05   -1.72   -0.05   -1.72  -33.88   70.75
    1.97  -33.44   72.42   -0.03   -1.96   -0.03   -1.96  -33.44   72.42
    1.99  -32.88   72.72   -0.04   -1.81   -0.04   -1.81  -32.88   72.72
    2.01  -32.39   70.41   -0.04   -1.92   -0.04   -1.92  -32.39   70.41
    2.03  -32.22   68.57   -0.04   -1.94   -0.04   -1.94  -32.22   68.57
    2.04  -32.15   69.02   -0.05   -1.95   -0.05   -1.95  -32.15   69.02
    2.06  -31.92   69.41   -0.05   -2.18   -0.05   -2.18  -31.92   69.41
    2.08  -31.12   68.11   -0.08   -2.19   -0.08   -2.19  -31.12   68.11
    2.10  -30.73   65.12   -0.10   -2.31   -0.10   -2.31  -30.73   65.12
    2.12  -30.60   63.02   -0.10   -2.34   -0.10   -2.34  -30.60   63.02
    2.14  -30.37   62.23   -0.11   -2.35   -0.11   -2.35  -30.37   62.23
    2.16  -29.65   61.86   -0.13   -2.43   -0.13   -2.43  -29.65   61.86
    2.18  -29.30   58.24   -0.14   -2.45   -0.14   -2.45  -29.30   58.24
    2.20  -29.00   53.87   -0.17   -2.41   -0.17   -2.41  -29.00   53.87
    2.22  -28.80   50.55   -0.19   -2.41   -0.19   -2.41  -28.80   50.55
    2.24  -28.62   46.32   -0.21   -2.35   -0.21   -2.35  -28.62   46.32
    2.26  -28.35   42.13   -0.24   -2.15   -0.24   -2.15  -28.35   42.13
    2.28  -28.23   35.76   -0.25   -2.17   -0.25   -2.17  -28.23   35.76
    2.30  -28.38   28.94   -0.27   -1.79   -0.27   -1.79  -28.38   28.94
    2.32  -28.94   23.15   -0.29   -1.62   -0.29   -1.62  -28.94   23.15
    2.34  -29.59   18.57   -0.27   -1.37   -0.27   -1.37  -29.59   18.57
    2.36  -30.48   15.88   -0.24   -1.14   -0.24   -1.14  -30.48   15.88
    2.38  -31.33   14.21   -0.22   -1.03   -0.22   -1.03  -31.33   14.21
    2.40  -32.24   12.91   -0.20   -0.85   -0.20   -0.85  -32.24   12.91
    2.42  -33.07   11.46   -0.17   -0.95   -0.17   -0.95  -33.07   11.46
    2.44  -34.22   13.75   -0.16   -1.01   -0.16   -1.01  -34.22   13.75
    2.46  -34.74   18.26   -0.13   -1.05   -0.13   -1.05  -34.74   18.26
    2.48  -35.17   21.25   -0.14   -1.07   -0.14   -1.07  -35.17   21.25
    2.50  -35.46   22.33   -0.12   -1.12   -0.12   -1.12  -35.46   22.33
    2.52  -36.21   27.05   -0.11   -1.23   -0.11   -1.23  -36.21   27.05
    2.54  -36.34   33.60   -0.10   -1.21   -0.10   -1.21  -36.34   33.60
    2.56  -36.22   39.90   -0.11   -1.22   -0.11   -1.22  -36.22   39.90
    2.58  -35.80   41.44   -0.09   -1.25   -0.09   -1.25  -35.80   41.44
    2.60  -35.97   41.44   -0.08   -1.53   -0.08   -1.53  -35.97   41.44
    2.62  -36.11   45.42   -0.09   -1.46   -0.09   -1.46  -36.11   45.42
    2.64  -36.14   48.55   -0.08   -1.33   -0.08   -1.33  -36.14   48.55
    2.66  -35.39   52.44   -0.09   -1.41   -0.09   -1.41  -35.39   52.44
    2.68  -35.09   53.02   -0.08   -1.60   -0.08   -1.60  -35.09   53.02
    2.70  -35.13   52.07   -0.07   -1.46   -0.07   -1.46  -35.13   52.07
    2.72  -34.93   53.85   -0.07   -1.58   -0.07   -1.58  -34.93   53.85
    2.74  -34.78   56.83   -0.08   -1.57   -0.08   -1.57  -34.78   56.83
    2.76  -34.63   58.19   -0.07   -1.69   -0.07   -1.69  -34.63   58.19
    2.78  -34.11   58.82   -0.06   -1.72   -0.06   -1.72  -34.11   58.82
    2.80  -34.00   59.34   -0.06   -1.71   -0.06   -1.71  -34.00   59.34
    2.82  -33.91   58.86   -0.07   -1.63   -0.07   -1.63  -33.91   58.86
    2.83  -33.84   58.60   -0.07   -1.73   -0.07   -1.73  -33.84   58.60
    2.85  -33.83   60.30   -0.07   -1.77   -0.07   -1.77  -33.83   60.30
    2.87  -33.59   61.84   -0.05   -1.83   -0.05   -1.83  -33.59   61.84
    2.89  -33.31   62.07   -0.06   -1.80   -0.06   -1.80  -33.31   62.07
    2.91  -33.13   61.88   -0.05   -1.87   -0.05   -1.87  -33.13   61.88
    2.93  -33.12   61.48   -0.07   -1.98   -0.07   -1.98  -33.12   61.48
    2.95  -33.07   63.05   -0.06   -2.01   -0.06   -2.01  -33.07   63.05
    2.97  -32.81   62.22   -0.06   -2.05   -0.06   -2.05  -32.81   62.22
    2.99  -32.66   62.76   -0.05   -2.01   -0.05   -2.01  -32.66   62.76
    3.01  -32.64   62.04   -0.06   -2.01   -0.06   -2.01  -32.64   62.04
    3.03  -32.53   62.49   -0.08   -2.00   -0.08   -2.00  -32.53   62.49
    3.05  -32.33   63.40   -0.06   -1.95   -0.06   -1.95  -32.33   63.40
    3.07  -32.10   63.89   -0.06   -2.17   -0.06   -2.17  -32.10   63.89
    3.09  -32.12   62.38   -0.07   -2.23   -0.07   -2.23  -32.12   62.38
    3.11  -32.12   63.63   -0.06   -2.21   -0.06   -2.21  -32.12   63.63
    3.13  -31.88   63.39   -0.06   -2.17   -0.06   -2.17  -31.88   63.39
    3.15  -31.75   63.89   -0.06   -2.03   -0.06   -2.03  -31.75   63.89
    3.17  -31.57   63.83   -0.04   -2.21   -0.04   -2.21  -31.57   63.83
    3.19  -31.54   63.48   -0.06   -2.22   -0.06   -2.22  -31.54   63.48
    3.21  -31.51   62.21   -0.06   -2.13   -0.06   -2.13  -31.51   62.21
    3.23  -31.47   63.36   -0.06   -2.23   -0.06   -2.23  -31.47   63.36
    3.25  -31.31   63.73   -0.06   -2.39   -0.06   -2.39  -31.31   63.73
    3.27  -31.15   63.16   -0.05   -2.30   -0.05   -2.30  -31.15   63.16
    3.29  -31.10   62.35   -0.06   -2.35   -0.06   -2.35  -31.10   62.35
    3.31  -31.08   62.85   -0.07   -2.30   -0.07   -2.30  -31.08   62.85
    3.33  -31.08   63.02   -0.06   -2.44   -0.06   -2.44  -31.08   63.02
    3.35  -30.91   63.30   -0.06   -2.42   -0.06   -2.42  -30.91   63.30
    3.37  -30.91   62.41   -0.07   -2.50   -0.07   -2.50  -30.91   62.41
    3.39  -30.81   61.53   -0.06   -2.60   -0.06   -2.60  -30.81   61.53
    3.41  -30.80   62.47   -0.08   -2.49   -0.08   -2.49  -30.80   62.47
    3.43  -30.73   63.00   -0.08   -2.56   -0.08   -2.56  -30.73   63.00
    3.45  -30.55   62.88   -0.08   -2.52   -0.08   -2.52  -30.55   62.88
    3.47  -30.47   61.65   -0.08   -2.63   -0.08   -2.63  -30.47   61.65
    3.49  -30.47   61.80   -0.08   -2.55   -0.08   -2.55  -30.47   61.80
    3.51  -30.58   61.69   -0.07   -2.59   -0.07   -2.59  -30.58   61.69
    3.53  -30.50   62.10   -0.07   -2.67   -0.07   -2.67  -30.50   62.10
    3.55  -30.30   62.15   -0.07   -2.57   -0.07   -2.57  -30.30   62.15
    3.57  -30.12   62.04   -0.08   -2.73   -0.08   -2.73  -30.12   62.04
    3.59  -30.22   60.44   -0.08   -2.56   -0.08   -2.56  -30.22   60.44
    3.61  -30.13   60.08   -0.08   -2.79   -0.08   -2.79  -30.13   60.08
    3.62  -30.10   61.00   -0.08   -2.70   -0.08   -2.70  -30.10   61.00
    3.64  -30.02   61.60   -0.08   -2.77   -0.08   -2.77  -30.02   61.60
    3.66  -29.94   60.38   -0.08   -2.83   -0.08   -2.83  -29.94   60.38
    3.68  -29.84   59.94   -0.08   -2.85   -0.08   -2.85  -29.84   59.94
    3.70  -29.95   59.18   -0.08   -2.80   -0.08   -2.80  -29.95   59.18
    3.72  -29.81   58.64   -0.10   -2.91   -0.10   -2.91  -29.81   58.64
    3.74  -29.72   58.43   -0.09   -2.99   -0.09   -2.99  -29.72   58.43
    3.76  -29.78   57.29   -0.08   -2.99   -0.08   -2.99  -29.78   57.29
    3.78  -29.67   57.62   -0.10   -3.09   -0.10   -3.09  -29.67   57.62
    3.80  -29.66   57.80   -0.12   -2.92   -0.12   -2.92  -29.66   57.80
    3.82  -29.65   56.67   -0.10   -3.00   -0.10   -3.00  -29.65   56.67
    3.84  -29.55   56.31   -0.10   -3.00   -0.10   -3.00  -29.55   56.31
    3.86  -29.63   55.20   -0.10   -3.06   -0.10   -3.06  -29.63   55.20
    3.88  -29.67   54.51   -0.13   -3.05   -0.13   -3.05  -29.67   54.51
    3.90  -29.61   54.13   -0.12   -3.03   -0.12   -3.03  -29.61   54.13
    3.92  -29.53   53.42   -0.11   -3.01   -0.11   -3.01  -29.53   53.42
    3.94  -29.43   52.25   -0.12   -3.13   -0.12   -3.13  -29.43   52.25
    3.96  -29.48   51.37   -0.13   -2.99   -0.13   -2.99  -29.48   51.37
    3.98  -29.52   50.46   -0.14   -3.17   -0.14   -3.17  -29.52   50.46
    4.00  -29.08   52.61   -0.12   -3.26   -0.12   -3.26  -29.08   52.61
