!  American Technical Ceramics  Date:    3/13/98
!  One Norden Lane
!  Huntington Station,  NY.   11746-2102
!  Tel:  (516) 547-5700               Fax:  (516) 547-5748
!  Part Number  700A1R2B
!  Description: Porcelain, High Q, Low ESR
!  Application: Bypass, Coupling, Timing, Feedback
!               Tuning, Impedance Match, Blocking
# GHZ S DB R 50
! Freq   |S11|   S11 Ph  |S21|   S21 Ph  |S12|   S12 Ph  |S22|   S22 Ph
    0.05   -0.01   -1.23  -29.08   89.90  -29.08   89.90   -0.01   -1.23
    0.15   -0.04   -6.70  -19.01   83.62  -19.01   83.62   -0.04   -6.70
    0.25   -0.14  -10.89  -14.70   79.02  -14.70   79.02   -0.14  -10.89
    0.35   -0.25  -15.16  -11.89   75.24  -11.89   75.24   -0.25  -15.16
    0.45   -0.43  -19.39   -9.88   71.14   -9.88   71.14   -0.43  -19.39
    0.55   -0.78  -23.85   -8.22   66.73   -8.22   66.73   -0.78  -23.85
    0.65   -1.03  -27.73   -6.99   62.97   -6.99   62.97   -1.03  -27.73
    0.75   -1.31  -31.19   -6.02   59.58   -6.02   59.58   -1.31  -31.19
    0.85   -1.65  -34.82   -5.21   56.22   -5.21   56.22   -1.65  -34.82
    0.95   -1.96  -37.81   -4.57   53.41   -4.57   53.41   -1.96  -37.81
    1.05   -2.25  -40.77   -4.05   50.47   -4.05   50.47   -2.25  -40.77
    1.15   -2.58  -43.67   -3.55   47.81   -3.55   47.81   -2.58  -43.67
    1.25   -2.96  -45.92   -3.13   45.67   -3.13   45.67   -2.96  -45.92
    1.35   -3.34  -48.56   -2.80   43.28   -2.80   43.28   -3.34  -48.56
    1.45   -3.67  -50.67   -2.55   41.29   -2.55   41.29   -3.67  -50.67
    1.55   -3.99  -52.82   -2.30   39.06   -2.30   39.06   -3.99  -52.82
    1.65   -4.35  -54.92   -2.06   37.11   -2.06   37.11   -4.35  -54.92
    1.75   -4.70  -56.72   -1.83   35.81   -1.83   35.81   -4.70  -56.72
    1.85   -5.08  -58.57   -1.67   34.26   -1.67   34.26   -5.08  -58.57
    1.95   -5.45  -59.88   -1.55   32.61   -1.55   32.61   -5.45  -59.88
    2.05   -5.78  -61.60   -1.43   30.94   -1.43   30.94   -5.78  -61.60
    2.14   -6.12  -62.79   -1.29   29.59   -1.29   29.59   -6.12  -62.79
    2.24   -6.51  -64.45   -1.14   28.61   -1.14   28.61   -6.51  -64.45
    2.34   -6.91  -65.96   -1.05   27.32   -1.05   27.32   -6.91  -65.96
    2.44   -7.26  -67.28   -0.97   26.30   -0.97   26.30   -7.26  -67.28
    2.54   -7.59  -68.28   -0.94   25.07   -0.94   25.07   -7.59  -68.28
    2.64   -7.91  -68.29   -0.84   24.09   -0.84   24.09   -7.91  -68.29
    2.74   -8.30  -69.62   -0.76   23.05   -0.76   23.05   -8.30  -69.62
    2.84   -8.75  -71.00   -0.70   21.95   -0.70   21.95   -8.75  -71.00
    2.94   -9.06  -72.34   -0.63   21.09   -0.63   21.09   -9.06  -72.34
    3.04   -9.36  -72.64   -0.63   20.11   -0.63   20.11   -9.36  -72.64
    3.14   -9.76  -73.42   -0.58   19.26   -0.58   19.26   -9.76  -73.42
    3.24  -10.06  -74.10   -0.54   18.71   -0.54   18.71  -10.06  -74.10
    3.34  -10.59  -75.52   -0.48   17.42   -0.48   17.42  -10.59  -75.52
    3.44  -10.86  -76.44   -0.47   17.15   -0.47   17.15  -10.86  -76.44
    3.54  -11.16  -76.51   -0.46   16.17   -0.46   16.17  -11.16  -76.51
    3.64  -11.42  -77.24   -0.42   15.51   -0.42   15.51  -11.42  -77.24
    3.74  -11.87  -77.31   -0.42   14.88   -0.42   14.88  -11.87  -77.31
    3.84  -12.29  -78.63   -0.38   14.25   -0.38   14.25  -12.29  -78.63
    3.94  -12.64  -79.07   -0.36   13.54   -0.36   13.54  -12.64  -79.07
    4.04  -12.91  -80.07   -0.35   13.26   -0.35   13.26  -12.91  -80.07
    4.14  -13.12  -80.63   -0.31   12.66   -0.31   12.66  -13.12  -80.63
    4.24  -13.48  -80.71   -0.31   12.12   -0.31   12.12  -13.48  -80.71
    4.34  -13.89  -82.27   -0.30   11.68   -0.30   11.68  -13.89  -82.27
    4.44  -14.20  -82.85   -0.29   11.17   -0.29   11.17  -14.20  -82.85
    4.54  -14.50  -83.08   -0.29   10.54   -0.29   10.54  -14.50  -83.08
    4.64  -14.76  -83.13   -0.23   10.15   -0.23   10.15  -14.76  -83.13
    4.74  -15.08  -82.72   -0.27   10.01   -0.27   10.01  -15.08  -82.72
    4.84  -15.45  -83.47   -0.27    9.40   -0.27    9.40  -15.45  -83.47
    4.94  -15.69  -84.06   -0.27    9.22   -0.27    9.22  -15.69  -84.06
    5.04  -16.09  -84.17   -0.24    8.64   -0.24    8.64  -16.09  -84.17
    5.14  -16.24  -84.63   -0.22    8.16   -0.22    8.16  -16.24  -84.63
    5.24  -16.66  -84.70   -0.21    7.97   -0.21    7.97  -16.66  -84.70
    5.34  -16.93  -85.12   -0.22    7.70   -0.22    7.70  -16.93  -85.12
    5.44  -17.43  -85.17   -0.24    7.16   -0.24    7.16  -17.43  -85.17
    5.54  -17.59  -85.95   -0.24    6.72   -0.24    6.72  -17.59  -85.95
    5.64  -17.93  -85.44   -0.23    6.62   -0.23    6.62  -17.93  -85.44
    5.74  -18.20  -86.76   -0.21    6.25   -0.21    6.25  -18.20  -86.76
    5.84  -18.70  -86.56   -0.20    6.05   -0.20    6.05  -18.70  -86.56
    5.94  -19.12  -87.72   -0.21    5.63   -0.21    5.63  -19.12  -87.72
    6.04  -19.57  -87.44   -0.21    5.37   -0.21    5.37  -19.57  -87.44
    6.13  -19.91  -87.84   -0.20    4.98   -0.20    4.98  -19.91  -87.84
    6.23  -20.41  -87.55   -0.23    4.74   -0.23    4.74  -20.41  -87.55
    6.33  -20.97  -87.84   -0.20    4.65   -0.20    4.65  -20.97  -87.84
    6.43  -21.72  -88.84   -0.21    4.41   -0.21    4.41  -21.72  -88.84
    6.53  -22.31  -88.80   -0.20    3.86   -0.20    3.86  -22.31  -88.80
    6.63  -23.20  -86.63   -0.21    3.51   -0.21    3.51  -23.20  -86.63
    6.73  -24.01  -85.17   -0.21    3.30   -0.21    3.30  -24.01  -85.17
    6.83  -25.15  -81.83   -0.23    3.11   -0.23    3.11  -25.15  -81.83
    6.93  -25.86  -78.33   -0.23    2.70   -0.23    2.70  -25.86  -78.33
    7.03  -27.02  -75.09   -0.24    2.51   -0.24    2.51  -27.02  -75.09
    7.13  -27.69  -70.17   -0.24    2.46   -0.24    2.46  -27.69  -70.17
    7.23  -28.91  -61.35   -0.24    1.91   -0.24    1.91  -28.91  -61.35
    7.33  -29.39  -51.26   -0.27    1.81   -0.27    1.81  -29.39  -51.26
    7.43  -30.20  -42.37   -0.28    1.60   -0.28    1.60  -30.20  -42.37
    7.53  -29.86  -28.85   -0.30    1.37   -0.30    1.37  -29.86  -28.85
    7.63  -30.30  -18.05   -0.32    1.27   -0.32    1.27  -30.30  -18.05
    7.73  -29.94   -8.62   -0.32    1.12   -0.32    1.12  -29.94   -8.62
    7.83  -29.88    3.78   -0.32    1.02   -0.32    1.02  -29.88    3.78
    7.93  -28.96   13.60   -0.31    0.73   -0.31    0.73  -28.96   13.60
    8.03  -28.34   22.10   -0.31    0.46   -0.31    0.46  -28.34   22.10
    8.13  -26.89   27.27   -0.31    0.32   -0.31    0.32  -26.89   27.27
    8.23  -26.02   33.69   -0.34    0.11   -0.34    0.11  -26.02   33.69
    8.33  -25.21   37.73   -0.34    0.01   -0.34    0.01  -25.21   37.73
    8.43  -24.49   41.51   -0.32   -0.34   -0.32   -0.34  -24.49   41.51
    8.53  -23.49   44.62   -0.31   -0.12   -0.31   -0.12  -23.49   44.62
    8.63  -22.85   47.39   -0.37   -0.64   -0.37   -0.64  -22.85   47.39
    8.73  -21.97   49.73   -0.32   -0.72   -0.32   -0.72  -21.97   49.73
    8.83  -21.39   51.36   -0.33   -0.99   -0.33   -0.99  -21.39   51.36
    8.93  -20.79   51.09   -0.33   -1.17   -0.33   -1.17  -20.79   51.09
    9.03  -20.18   51.78   -0.36   -1.65   -0.36   -1.65  -20.18   51.78
    9.13  -19.74   53.29   -0.34   -1.42   -0.34   -1.42  -19.74   53.29
    9.23  -19.35   54.42   -0.37   -1.76   -0.37   -1.76  -19.35   54.42
    9.33  -18.98   54.68   -0.35   -1.87   -0.35   -1.87  -18.98   54.68
    9.43  -18.89   55.25   -0.37   -1.97   -0.37   -1.97  -18.89   55.25
    9.53  -18.56   55.80   -0.37   -2.00   -0.37   -2.00  -18.56   55.80
    9.63  -18.18   56.88   -0.38   -2.22   -0.38   -2.22  -18.18   56.88
    9.73  -17.85   57.61   -0.38   -2.30   -0.38   -2.30  -17.85   57.61
    9.83  -17.58   58.91   -0.34   -2.59   -0.34   -2.59  -17.58   58.91
    9.93  -17.49   58.91   -0.34   -2.36   -0.34   -2.36  -17.49   58.91
   10.03  -17.22   59.22   -0.34   -2.71   -0.34   -2.71  -17.22   59.22
   10.12  -17.09   60.02   -0.35   -2.73   -0.35   -2.73  -17.09   60.02
   10.22  -16.80   60.38   -0.37   -3.14   -0.37   -3.14  -16.80   60.38
   10.32  -16.67   61.23   -0.33   -3.21   -0.33   -3.21  -16.67   61.23
   10.42  -16.56   61.25   -0.31   -3.25   -0.31   -3.25  -16.56   61.25
   10.52  -16.48   61.38   -0.35   -3.55   -0.35   -3.55  -16.48   61.38
   10.62  -16.13   62.57   -0.33   -3.57   -0.33   -3.57  -16.13   62.57
   10.72  -16.01   62.44   -0.36   -3.78   -0.36   -3.78  -16.01   62.44
   10.82  -15.73   63.12   -0.32   -4.16   -0.32   -4.16  -15.73   63.12
   10.92  -15.78   62.52   -0.32   -4.20   -0.32   -4.20  -15.78   62.52
   11.02  -15.53   63.23   -0.31   -4.50   -0.31   -4.50  -15.53   63.23
   11.12  -15.51   62.79   -0.31   -4.49   -0.31   -4.49  -15.51   62.79
   11.22  -15.16   63.34   -0.32   -4.76   -0.32   -4.76  -15.16   63.34
   11.32  -15.19   63.22   -0.34   -4.98   -0.34   -4.98  -15.19   63.22
   11.42  -15.07   63.08   -0.33   -5.23   -0.33   -5.23  -15.07   63.08
   11.52  -14.96   61.68   -0.35   -5.35   -0.35   -5.35  -14.96   61.68
   11.62  -14.82   62.94   -0.32   -5.63   -0.32   -5.63  -14.82   62.94
   11.72  -14.76   62.14   -0.36   -5.55   -0.36   -5.55  -14.76   62.14
   11.82  -14.60   62.46   -0.36   -6.25   -0.36   -6.25  -14.60   62.46
   11.92  -14.64   61.12   -0.32   -6.26   -0.32   -6.26  -14.64   61.12
   12.02  -14.42   61.29   -0.35   -6.60   -0.35   -6.60  -14.42   61.29
   12.12  -14.33   60.25   -0.34   -6.64   -0.34   -6.64  -14.33   60.25
   12.22  -14.11   60.06   -0.37   -6.79   -0.37   -6.79  -14.11   60.06
   12.32  -13.99   58.78   -0.37   -7.13   -0.37   -7.13  -13.99   58.78
   12.42  -14.01   57.68   -0.36   -7.50   -0.36   -7.50  -14.01   57.68
   12.52  -13.78   55.72   -0.37   -7.50   -0.37   -7.50  -13.78   55.72
   12.62  -13.57   56.58   -0.39   -8.00   -0.39   -8.00  -13.57   56.58
   12.72  -13.33   55.06   -0.38   -7.99   -0.38   -7.99  -13.33   55.06
   12.82  -13.17   55.10   -0.45   -8.49   -0.45   -8.49  -13.17   55.10
   12.92  -13.04   52.47   -0.40   -9.05   -0.40   -9.05  -13.04   52.47
   13.02  -12.87   52.65   -0.42   -9.27   -0.42   -9.27  -12.87   52.65
   13.12  -12.54   51.34   -0.44   -9.29   -0.44   -9.29  -12.54   51.34
   13.22  -12.32   52.48   -0.48   -9.55   -0.48   -9.55  -12.32   52.48
   13.32  -12.07   50.33   -0.51  -10.10   -0.51  -10.10  -12.07   50.33
   13.42  -11.98   50.11   -0.55  -10.47   -0.55  -10.47  -11.98   50.11
   13.52  -11.60   48.07   -0.49  -10.63   -0.49  -10.63  -11.60   48.07
   13.62  -11.44   50.49   -0.56  -10.91   -0.56  -10.91  -11.44   50.49
   13.72  -11.04   48.39   -0.65  -11.22   -0.65  -11.22  -11.04   48.39
   13.82  -10.84   49.53   -0.67  -11.53   -0.67  -11.53  -10.84   49.53
   13.92  -10.62   47.59   -0.70  -11.73   -0.70  -11.73  -10.62   47.59
   14.02  -10.49   46.79   -0.67  -12.09   -0.67  -12.09  -10.49   46.79
   14.11  -10.12   45.95   -0.68  -12.26   -0.68  -12.26  -10.12   45.95
   14.21   -9.79   47.19   -0.78  -12.49   -0.78  -12.49   -9.79   47.19
   14.31   -9.51   48.11   -0.75  -12.49   -0.75  -12.49   -9.51   48.11
   14.41   -9.47   46.20   -0.84  -12.91   -0.84  -12.91   -9.47   46.20
   14.51   -9.34   46.08   -0.83  -12.95   -0.83  -12.95   -9.34   46.08
   14.61   -9.16   45.55   -0.92  -13.57   -0.92  -13.57   -9.16   45.55
   14.71   -8.82   45.75   -0.92  -13.80   -0.92  -13.80   -8.82   45.75
   14.81   -8.55   46.51   -0.92  -13.67   -0.92  -13.67   -8.55   46.51
   14.91   -8.48   46.57   -0.98  -13.91   -0.98  -13.91   -8.48   46.57
   15.01   -8.45   45.72   -1.03  -13.97   -1.03  -13.97   -8.45   45.72
   15.11   -8.36   46.27   -1.10  -14.08   -1.10  -14.08   -8.36   46.27
   15.21   -8.18   45.75   -1.15  -14.41   -1.15  -14.41   -8.18   45.75
   15.31   -7.86   47.14   -1.10  -14.05   -1.10  -14.05   -7.86   47.14
   15.41   -7.80   46.85   -1.17  -14.18   -1.17  -14.18   -7.80   46.85
   15.51   -7.69   46.92   -1.14  -14.14   -1.14  -14.14   -7.69   46.92
   15.61   -7.68   45.79   -1.20  -14.15   -1.20  -14.15   -7.68   45.79
   15.71   -7.53   46.49   -1.21  -14.09   -1.21  -14.09   -7.53   46.49
   15.81   -7.40   46.14   -1.23  -14.31   -1.23  -14.31   -7.40   46.14
   15.91   -7.26   46.63   -1.20  -14.21   -1.20  -14.21   -7.26   46.63
   16.01   -7.44   45.22   -1.29  -13.89   -1.29  -13.89   -7.44   45.22
   16.11   -7.30   45.50   -1.26  -14.15   -1.26  -14.15   -7.30   45.50
   16.21   -7.31   45.31   -1.31  -14.18   -1.31  -14.18   -7.31   45.31
   16.31   -7.10   45.20   -1.28  -14.44   -1.28  -14.44   -7.10   45.20
   16.41   -7.13   45.25   -1.27  -14.21   -1.27  -14.21   -7.13   45.25
   16.51   -7.13   44.62   -1.27  -14.29   -1.27  -14.29   -7.13   44.62
   16.61   -7.12   44.01   -1.30  -14.46   -1.30  -14.46   -7.12   44.01
   16.71   -7.20   44.75   -1.28  -14.14   -1.28  -14.14   -7.20   44.75
   16.81   -7.04   43.51   -1.33  -14.77   -1.33  -14.77   -7.04   43.51
   16.91   -7.09   43.78   -1.27  -15.20   -1.27  -15.20   -7.09   43.78
   17.01   -6.98   43.58   -1.32  -15.26   -1.32  -15.26   -6.98   43.58
   17.11   -7.14   43.54   -1.26  -15.02   -1.26  -15.02   -7.14   43.54
   17.21   -7.16   44.13   -1.43  -15.29   -1.43  -15.29   -7.16   44.13
   17.31   -7.19   43.45   -1.37  -15.09   -1.37  -15.09   -7.19   43.45
   17.41   -7.07   43.89   -1.34  -15.59   -1.34  -15.59   -7.07   43.89
   17.51   -7.13   42.64   -1.33  -15.57   -1.33  -15.57   -7.13   42.64
   17.61   -7.16   43.58   -1.39  -16.03   -1.39  -16.03   -7.16   43.58
   17.71   -7.23   42.56   -1.34  -15.35   -1.34  -15.35   -7.23   42.56
   17.81   -7.05   42.34   -1.36  -16.27   -1.36  -16.27   -7.05   42.34
   17.91   -7.18   41.79   -1.37  -16.81   -1.37  -16.81   -7.18   41.79
   18.01   -7.11   40.62   -1.32  -16.87   -1.32  -16.87   -7.11   40.62
   18.10   -7.18   40.29   -1.33  -17.75   -1.33  -17.75   -7.18   40.29
   18.20   -7.11   39.69   -1.38  -17.17   -1.38  -17.17   -7.11   39.69
   18.30   -7.02   38.78   -1.39  -18.26   -1.39  -18.26   -7.02   38.78
   18.40   -7.05   37.56   -1.42  -18.74   -1.42  -18.74   -7.05   37.56
   18.50   -7.06   36.84   -1.43  -19.35   -1.43  -19.35   -7.06   36.84
   18.60   -7.00   35.34   -1.48  -19.59   -1.48  -19.59   -7.00   35.34
   18.70   -6.95   35.09   -1.52  -19.96   -1.52  -19.96   -6.95   35.09
   18.80   -6.76   34.50   -1.61  -20.41   -1.61  -20.41   -6.76   34.50
   18.90   -6.74   33.39   -1.65  -21.04   -1.65  -21.04   -6.74   33.39
   19.00   -6.54   31.01   -1.66  -21.42   -1.66  -21.42   -6.54   31.01
   19.10   -6.49   30.54   -1.72  -21.99   -1.72  -21.99   -6.49   30.54
   19.20   -6.41   29.54   -1.80  -22.33   -1.80  -22.33   -6.41   29.54
   19.30   -6.21   28.75   -1.88  -22.58   -1.88  -22.58   -6.21   28.75
   19.40   -6.18   28.01   -1.96  -23.68   -1.96  -23.68   -6.18   28.01
   19.50   -5.99   25.89   -1.93  -24.04   -1.93  -24.04   -5.99   25.89
   19.60   -6.00   26.48   -2.07  -24.32   -2.07  -24.32   -6.00   26.48
   19.70   -5.76   24.29   -2.09  -25.20   -2.09  -25.20   -5.76   24.29
   19.80   -5.71   25.93   -2.23  -25.32   -2.23  -25.32   -5.71   25.93
   19.90   -5.58   24.09   -2.30  -26.06   -2.30  -26.06   -5.58   24.09
   20.00   -5.53   24.36   -2.41  -26.35   -2.41  -26.35   -5.53   24.36
