!  American Technical Ceramics  Date:    3/13/98
!  One Norden Lane
!  Huntington Station,  NY.   11746-2102
!  Tel:  (516) 547-5700               Fax:  (516) 547-5748
!  Part Number  700A101J
!  Description: Porcelain, High Q, Low ESR
!  Application: Bypass, Coupling, Timing, Feedback
!               Tuning, Impedance Match, Blocking
# GHZ S DB R 50
! Freq   |S11|   S11 Ph  |S21|   S21 Ph  |S12|   S12 Ph  |S22|   S22 Ph
    0.05  -10.55  -72.91   -0.45   17.34   -0.45   17.34  -10.55  -72.91
    0.09  -15.21  -81.57   -0.14    9.85   -0.14    9.85  -15.21  -81.57
    0.13  -18.37  -83.82   -0.12    6.82   -0.12    6.82  -18.37  -83.82
    0.17  -20.80  -85.58   -0.04    5.16   -0.04    5.16  -20.80  -85.58
    0.21  -22.72  -87.38   -0.03    4.06   -0.03    4.06  -22.72  -87.38
    0.25  -24.34  -88.16    0.00    3.40    0.00    3.40  -24.34  -88.16
    0.29  -25.75  -89.95   -0.02    2.78   -0.02    2.78  -25.75  -89.95
    0.33  -27.03  -89.69   -0.02    2.46   -0.02    2.46  -27.03  -89.69
    0.37  -28.34  -91.07   -0.02    1.97   -0.02    1.97  -28.34  -91.07
    0.41  -29.40  -90.81   -0.01    1.95   -0.01    1.95  -29.40  -90.81
    0.45  -30.42  -92.64    0.00    1.48    0.00    1.48  -30.42  -92.64
    0.49  -31.49  -93.11    0.01    1.38    0.01    1.38  -31.49  -93.11
    0.53  -32.53  -92.66    0.00    1.16    0.00    1.16  -32.53  -92.66
    0.57  -33.77  -93.04   -0.01    1.05   -0.01    1.05  -33.77  -93.04
    0.61  -34.39  -93.73    0.00    0.76    0.00    0.76  -34.39  -93.73
    0.65  -35.52  -94.24    0.00    0.91    0.00    0.91  -35.52  -94.24
    0.69  -36.31  -94.18   -0.01    0.70   -0.01    0.70  -36.31  -94.18
    0.73  -37.63  -94.46   -0.01    0.51   -0.01    0.51  -37.63  -94.46
    0.77  -38.56  -95.16    0.00    0.48    0.00    0.48  -38.56  -95.16
    0.81  -39.37  -96.54    0.00    0.36    0.00    0.36  -39.37  -96.54
    0.85  -41.19  -96.75   -0.01    0.30   -0.01    0.30  -41.19  -96.75
    0.88  -41.69  -96.01   -0.01    0.22   -0.01    0.22  -41.69  -96.01
    0.92  -44.03  -97.19   -0.01    0.04   -0.01    0.04  -44.03  -97.19
    0.96  -44.98  -99.90   -0.01    0.11   -0.01    0.11  -44.98  -99.90
    1.00  -47.51 -100.40   -0.01   -0.01   -0.01   -0.01  -47.51 -100.40
    1.04  -49.86  -93.05   -0.01   -0.06   -0.01   -0.06  -49.86  -93.05
    1.08  -52.08 -105.23    0.00   -0.02    0.00   -0.02  -52.08 -105.23
    1.12  -58.85 -123.80    0.01   -0.15    0.01   -0.15  -58.85 -123.80
    1.16  -67.13  -65.50    0.00   -0.24    0.00   -0.24  -67.13  -65.50
    1.20  -62.32  123.19   -0.01   -0.34   -0.01   -0.34  -62.32  123.19
    1.24  -53.85   83.13   -0.01   -0.45   -0.01   -0.45  -53.85   83.13
    1.28  -52.85   92.55   -0.02   -0.50   -0.02   -0.50  -52.85   92.55
    1.32  -48.18   83.01   -0.02   -0.43   -0.02   -0.43  -48.18   83.01
    1.36  -47.75   82.71   -0.01   -0.52   -0.01   -0.52  -47.75   82.71
    1.40  -44.93   81.01   -0.02   -0.43   -0.02   -0.43  -44.93   81.01
    1.44  -44.08   81.22   -0.02   -0.64   -0.02   -0.64  -44.08   81.22
    1.48  -42.54   84.06    0.00   -0.59    0.00   -0.59  -42.54   84.06
    1.52  -41.32   79.78    0.00   -0.71    0.00   -0.71  -41.32   79.78
    1.56  -41.38   80.49   -0.01   -0.80   -0.01   -0.80  -41.38   80.49
    1.60  -39.31   82.43   -0.01   -0.89   -0.01   -0.89  -39.31   82.43
    1.64  -39.65   78.29   -0.02   -1.01   -0.02   -1.01  -39.65   78.29
    1.68  -37.88   82.84   -0.04   -1.08   -0.04   -1.08  -37.88   82.84
    1.72  -38.12   75.89   -0.03   -0.92   -0.03   -0.92  -38.12   75.89
    1.76  -37.28   82.16   -0.03   -0.82   -0.03   -0.82  -37.28   82.16
    1.80  -36.36   77.64   -0.02   -1.14   -0.02   -1.14  -36.36   77.64
    1.84  -36.42   77.65   -0.03   -1.17   -0.03   -1.17  -36.42   77.65
    1.88  -35.40   80.60   -0.01   -1.24   -0.01   -1.24  -35.40   80.60
    1.92  -34.94   76.97   -0.02   -1.21   -0.02   -1.21  -34.94   76.97
    1.96  -34.67   78.60   -0.02   -1.34   -0.02   -1.34  -34.67   78.60
    2.00  -33.65   77.62   -0.01   -1.40   -0.01   -1.40  -33.65   77.62
    2.04  -33.66   76.26   -0.02   -1.42   -0.02   -1.42  -33.66   76.26
    2.08  -32.84   79.11   -0.01   -1.59   -0.01   -1.59  -32.84   79.11
    2.12  -32.73   76.11   -0.04   -1.58   -0.04   -1.58  -32.73   76.11
    2.16  -32.32   78.21   -0.04   -1.57   -0.04   -1.57  -32.32   78.21
    2.20  -31.80   75.74   -0.04   -1.66   -0.04   -1.66  -31.80   75.74
    2.24  -31.50   77.31   -0.04   -1.77   -0.04   -1.77  -31.50   77.31
    2.28  -30.79   77.07   -0.03   -1.76   -0.03   -1.76  -30.79   77.07
    2.32  -30.61   74.87   -0.04   -1.88   -0.04   -1.88  -30.61   74.87
    2.36  -30.04   76.30   -0.03   -1.99   -0.03   -1.99  -30.04   76.30
    2.40  -29.29   74.95   -0.03   -2.24   -0.03   -2.24  -29.29   74.95
    2.44  -29.09   74.42   -0.05   -2.11   -0.05   -2.11  -29.09   74.42
    2.47  -28.17   73.80   -0.04   -2.49   -0.04   -2.49  -28.17   73.80
    2.51  -27.73   72.59   -0.08   -2.51   -0.08   -2.51  -27.73   72.59
    2.55  -26.78   72.25   -0.09   -2.90   -0.09   -2.90  -26.78   72.25
    2.59  -25.80   69.15   -0.14   -3.01   -0.14   -3.01  -25.80   69.15
    2.63  -24.51   65.54   -0.15   -3.58   -0.15   -3.58  -24.51   65.54
    2.67  -22.76   57.65   -0.26   -3.98   -0.26   -3.98  -22.76   57.65
    2.71  -20.87   40.20   -0.53   -4.30   -0.53   -4.30  -20.87   40.20
    2.75  -20.60    6.99   -0.83   -1.67   -0.83   -1.67  -20.60    6.99
    2.79  -24.38  -22.54   -0.53    0.90   -0.53    0.90  -24.38  -22.54
    2.83  -29.83  -31.02   -0.25    0.71   -0.25    0.71  -29.83  -31.02
    2.87  -34.84  -19.87   -0.14    0.09   -0.14    0.09  -34.84  -19.87
    2.91  -37.73    5.24   -0.11   -0.19   -0.11   -0.19  -37.73    5.24
    2.95  -38.12   30.41   -0.07   -0.60   -0.07   -0.60  -38.12   30.41
    2.99  -36.77   45.03   -0.06   -0.82   -0.06   -0.82  -36.77   45.03
    3.03  -35.96   52.80   -0.06   -1.04   -0.06   -1.04  -35.96   52.80
    3.07  -34.53   58.41   -0.07   -1.34   -0.07   -1.34  -34.53   58.41
    3.11  -33.94   60.41   -0.06   -1.20   -0.06   -1.20  -33.94   60.41
    3.15  -33.36   62.96   -0.05   -1.31   -0.05   -1.31  -33.36   62.96
    3.19  -32.87   62.93   -0.05   -1.31   -0.05   -1.31  -32.87   62.93
    3.23  -32.50   65.42   -0.05   -1.56   -0.05   -1.56  -32.50   65.42
    3.27  -32.01   65.15   -0.06   -1.56   -0.06   -1.56  -32.01   65.15
    3.31  -31.78   64.67   -0.07   -1.75   -0.07   -1.75  -31.78   64.67
    3.35  -31.59   65.63   -0.05   -1.74   -0.05   -1.74  -31.59   65.63
    3.39  -31.37   66.02   -0.05   -1.85   -0.05   -1.85  -31.37   66.02
    3.43  -31.18   65.71   -0.05   -2.03   -0.05   -2.03  -31.18   65.71
    3.47  -30.78   65.25   -0.06   -1.84   -0.06   -1.84  -30.78   65.25
    3.51  -30.88   65.98   -0.05   -2.00   -0.05   -2.00  -30.88   65.98
    3.55  -30.64   66.13   -0.05   -2.00   -0.05   -2.00  -30.64   66.13
    3.59  -30.55   65.30   -0.05   -2.14   -0.05   -2.14  -30.55   65.30
    3.63  -30.43   65.71   -0.06   -2.02   -0.06   -2.02  -30.43   65.71
    3.67  -30.44   65.73   -0.07   -2.08   -0.07   -2.08  -30.44   65.73
    3.71  -30.21   65.11   -0.05   -2.24   -0.05   -2.24  -30.21   65.11
    3.75  -30.21   65.62   -0.05   -2.32   -0.05   -2.32  -30.21   65.62
    3.79  -30.17   65.57   -0.05   -2.35   -0.05   -2.35  -30.17   65.57
    3.83  -30.03   65.73   -0.06   -2.28   -0.06   -2.28  -30.03   65.73
    3.87  -30.17   65.34   -0.07   -2.38   -0.07   -2.38  -30.17   65.34
    3.91  -30.05   65.25   -0.08   -2.54   -0.08   -2.54  -30.05   65.25
    3.95  -30.03   64.60   -0.06   -2.39   -0.06   -2.39  -30.03   64.60
    3.99  -30.08   64.32   -0.07   -2.44   -0.07   -2.44  -30.08   64.32
    4.03  -29.34   66.54   -0.06   -2.53   -0.06   -2.53  -29.34   66.54
    4.06  -29.21   66.05   -0.07   -2.66   -0.07   -2.66  -29.21   66.05
    4.10  -29.28   64.91   -0.07   -2.70   -0.07   -2.70  -29.28   64.91
    4.14  -29.15   65.37   -0.08   -2.61   -0.08   -2.61  -29.15   65.37
    4.18  -29.20   64.82   -0.08   -2.63   -0.08   -2.63  -29.20   64.82
    4.22  -28.97   66.17   -0.08   -2.66   -0.08   -2.66  -28.97   66.17
    4.26  -29.15   65.63   -0.08   -2.79   -0.08   -2.79  -29.15   65.63
    4.30  -29.04   66.94   -0.08   -2.93   -0.08   -2.93  -29.04   66.94
    4.34  -28.85   66.57   -0.09   -2.75   -0.09   -2.75  -28.85   66.57
    4.38  -28.64   66.48   -0.08   -2.97   -0.08   -2.97  -28.64   66.48
    4.42  -28.67   66.62   -0.09   -2.99   -0.09   -2.99  -28.67   66.62
    4.46  -28.47   66.15   -0.08   -3.20   -0.08   -3.20  -28.47   66.15
    4.50  -28.45   65.80   -0.11   -3.12   -0.11   -3.12  -28.45   65.80
    4.54  -28.16   66.35   -0.08   -3.06   -0.08   -3.06  -28.16   66.35
    4.58  -27.95   65.45   -0.11   -3.22   -0.11   -3.22  -27.95   65.45
    4.62  -27.86   64.64   -0.12   -3.28   -0.12   -3.28  -27.86   64.64
    4.66  -27.61   64.20   -0.11   -3.35   -0.11   -3.35  -27.61   64.20
    4.70  -27.30   63.98   -0.12   -3.56   -0.12   -3.56  -27.30   63.98
    4.74  -27.03   62.74   -0.15   -3.71   -0.15   -3.71  -27.03   62.74
    4.78  -26.72   61.25   -0.16   -3.60   -0.16   -3.60  -26.72   61.25
    4.82  -26.14   59.59   -0.17   -3.99   -0.17   -3.99  -26.14   59.59
    4.86  -25.74   55.81   -0.20   -3.88   -0.20   -3.88  -25.74   55.81
    4.90  -25.25   51.44   -0.24   -4.07   -0.24   -4.07  -25.25   51.44
    4.94  -24.80   44.19   -0.32   -3.99   -0.32   -3.99  -24.80   44.19
    4.98  -24.66   33.73   -0.40   -3.72   -0.40   -3.72  -24.66   33.73
    5.02  -25.50   21.12   -0.43   -3.17   -0.43   -3.17  -25.50   21.12
    5.06  -27.03   12.67   -0.42   -2.39   -0.42   -2.39  -27.03   12.67
    5.10  -29.18    8.66   -0.33   -2.10   -0.33   -2.10  -29.18    8.66
    5.14  -31.34   12.18   -0.29   -2.12   -0.29   -2.12  -31.34   12.18
    5.18  -32.84   19.55   -0.22   -2.01   -0.22   -2.01  -32.84   19.55
    5.22  -33.55   29.02   -0.19   -2.26   -0.19   -2.26  -33.55   29.02
    5.26  -33.84   37.12   -0.16   -2.27   -0.16   -2.27  -33.84   37.12
    5.30  -33.72   43.99   -0.15   -2.54   -0.15   -2.54  -33.72   43.99
    5.34  -33.15   48.42   -0.15   -2.51   -0.15   -2.51  -33.15   48.42
    5.38  -32.86   49.91   -0.13   -2.78   -0.13   -2.78  -32.86   49.91
    5.42  -32.83   54.59   -0.14   -2.72   -0.14   -2.72  -32.83   54.59
    5.46  -32.17   57.20   -0.13   -2.83   -0.13   -2.83  -32.17   57.20
    5.50  -31.93   57.12   -0.13   -2.93   -0.13   -2.93  -31.93   57.12
    5.54  -31.82   58.29   -0.13   -2.86   -0.13   -2.86  -31.82   58.29
    5.58  -31.58   60.13   -0.11   -3.04   -0.11   -3.04  -31.58   60.13
    5.62  -31.37   60.50   -0.11   -2.93   -0.11   -2.93  -31.37   60.50
    5.65  -31.12   61.26   -0.14   -3.13   -0.14   -3.13  -31.12   61.26
    5.69  -30.79   62.85   -0.13   -3.29   -0.13   -3.29  -30.79   62.85
    5.73  -30.38   62.13   -0.13   -3.18   -0.13   -3.18  -30.38   62.13
    5.77  -30.34   63.54   -0.12   -3.31   -0.12   -3.31  -30.34   63.54
    5.81  -29.83   64.31   -0.11   -3.36   -0.11   -3.36  -29.83   64.31
    5.85  -29.62   63.03   -0.12   -3.44   -0.12   -3.44  -29.62   63.03
    5.89  -29.45   63.17   -0.12   -3.50   -0.12   -3.50  -29.45   63.17
    5.93  -29.32   63.20   -0.12   -3.61   -0.12   -3.61  -29.32   63.20
    5.97  -28.94   63.27   -0.16   -3.55   -0.16   -3.55  -28.94   63.27
    6.01  -28.78   62.19   -0.13   -3.58   -0.13   -3.58  -28.78   62.19
    6.05  -28.63   62.72   -0.14   -3.66   -0.14   -3.66  -28.63   62.72
    6.09  -28.35   62.40   -0.14   -3.73   -0.14   -3.73  -28.35   62.40
    6.13  -28.21   62.26   -0.14   -3.83   -0.14   -3.83  -28.21   62.26
    6.17  -28.06   62.17   -0.13   -3.87   -0.13   -3.87  -28.06   62.17
    6.21  -27.61   62.02   -0.14   -3.75   -0.14   -3.75  -27.61   62.02
    6.25  -27.55   61.56   -0.14   -4.05   -0.14   -4.05  -27.55   61.56
    6.29  -27.36   62.28   -0.15   -4.08   -0.15   -4.08  -27.36   62.28
    6.33  -27.06   61.57   -0.14   -3.97   -0.14   -3.97  -27.06   61.57
    6.37  -26.89   61.69   -0.14   -4.04   -0.14   -4.04  -26.89   61.69
    6.41  -26.56   61.23   -0.15   -4.00   -0.15   -4.00  -26.56   61.23
    6.45  -26.39   61.80   -0.17   -4.23   -0.17   -4.23  -26.39   61.80
    6.49  -25.99   61.53   -0.18   -4.23   -0.18   -4.23  -25.99   61.53
    6.53  -25.88   60.96   -0.16   -4.35   -0.16   -4.35  -25.88   60.96
    6.57  -25.51   61.01   -0.18   -4.34   -0.18   -4.34  -25.51   61.01
    6.61  -25.13   59.61   -0.17   -4.50   -0.17   -4.50  -25.13   59.61
    6.65  -24.85   59.81   -0.18   -4.44   -0.18   -4.44  -24.85   59.81
    6.69  -24.64   59.57   -0.19   -4.48   -0.19   -4.48  -24.64   59.57
    6.73  -24.30   58.63   -0.20   -4.63   -0.20   -4.63  -24.30   58.63
    6.77  -24.06   57.45   -0.20   -4.62   -0.20   -4.62  -24.06   57.45
    6.81  -23.63   56.95   -0.19   -4.77   -0.19   -4.77  -23.63   56.95
    6.85  -23.44   56.37   -0.22   -4.69   -0.22   -4.69  -23.44   56.37
    6.89  -23.16   55.32   -0.21   -5.01   -0.21   -5.01  -23.16   55.32
    6.93  -22.96   54.18   -0.24   -4.96   -0.24   -4.96  -22.96   54.18
    6.97  -22.48   53.87   -0.25   -5.12   -0.25   -5.12  -22.48   53.87
    7.01  -22.31   51.81   -0.28   -4.92   -0.28   -4.92  -22.31   51.81
    7.05  -22.15   51.68   -0.27   -5.14   -0.27   -5.14  -22.15   51.68
    7.09  -21.80   50.41   -0.31   -5.19   -0.31   -5.19  -21.80   50.41
    7.13  -21.55   48.27   -0.32   -5.26   -0.32   -5.26  -21.55   48.27
    7.17  -21.24   46.12   -0.35   -5.31   -0.35   -5.31  -21.24   46.12
    7.21  -21.02   44.05   -0.38   -5.14   -0.38   -5.14  -21.02   44.05
    7.24  -20.92   41.70   -0.42   -5.17   -0.42   -5.17  -20.92   41.70
    7.28  -20.99   38.68   -0.45   -5.04   -0.45   -5.04  -20.99   38.68
    7.32  -21.16   36.00   -0.48   -4.74   -0.48   -4.74  -21.16   36.00
    7.36  -21.41   34.41   -0.48   -4.39   -0.48   -4.39  -21.41   34.41
    7.40  -21.72   33.79   -0.46   -4.22   -0.46   -4.22  -21.72   33.79
    7.44  -22.15   34.97   -0.45   -4.11   -0.45   -4.11  -22.15   34.97
    7.48  -22.20   36.58   -0.44   -3.85   -0.44   -3.85  -22.20   36.58
    7.52  -22.33   37.23   -0.41   -3.90   -0.41   -3.90  -22.33   37.23
    7.56  -22.13   39.17   -0.40   -3.99   -0.40   -3.99  -22.13   39.17
    7.60  -22.08   40.53   -0.36   -4.00   -0.36   -4.00  -22.08   40.53
    7.64  -22.03   42.36   -0.38   -3.89   -0.38   -3.89  -22.03   42.36
    7.68  -21.98   42.94   -0.35   -3.95   -0.35   -3.95  -21.98   42.94
    7.72  -21.71   44.12   -0.35   -3.89   -0.35   -3.89  -21.71   44.12
    7.76  -21.54   44.29   -0.34   -4.17   -0.34   -4.17  -21.54   44.29
    7.80  -21.39   45.36   -0.35   -4.11   -0.35   -4.11  -21.39   45.36
    7.84  -21.26   46.43   -0.35   -4.21   -0.35   -4.21  -21.26   46.43
    7.88  -20.99   47.01   -0.33   -4.10   -0.33   -4.10  -20.99   47.01
    7.92  -20.87   46.39   -0.34   -4.16   -0.34   -4.16  -20.87   46.39
    7.96  -20.64   47.48   -0.33   -4.28   -0.33   -4.28  -20.64   47.48
    8.00  -20.54   47.37   -0.33   -4.44   -0.33   -4.44  -20.54   47.37
