!  American Technical Ceramics  Date:    3/13/98
!  One Norden Lane
!  Huntington Station,  NY.   11746-2102
!  Tel:  (516) 547-5700               Fax:  (516) 547-5748
!  Part Number  700B102F
!  Description: Porcelain, High Q, Low ESR
!  Application: Bypass, Coupling, Timing, Feedback
!               Tuning, Impedance Match, Blocking
# GHZ S DB R 50
! Freq   |S11|   S11 Ph  |S21|   S21 Ph  |S12|   S12 Ph  |S22|   S22 Ph
    0.05  -28.47  -88.44   -0.02    1.65   -0.02    1.65  -28.47  -88.44
    0.07  -31.44  -89.92    0.00    1.10    0.00    1.10  -31.44  -89.92
    0.09  -33.69  -86.06    0.00    0.88    0.00    0.88  -33.69  -86.06
    0.11  -33.36  -90.34    0.00    0.63    0.00    0.63  -33.36  -90.34
    0.13  -34.99  -89.87    0.02    0.43    0.02    0.43  -34.99  -89.87
    0.15  -35.32  -91.64    0.03    0.36    0.03    0.36  -35.32  -91.64
    0.17  -35.21  -92.53    0.02    0.14    0.02    0.14  -35.21  -92.53
    0.19  -35.64  -89.32    0.00    0.29    0.00    0.29  -35.64  -89.32
    0.21  -35.46  -91.24    0.01   -0.02    0.01   -0.02  -35.46  -91.24
    0.23  -35.62  -91.15    0.03   -0.07    0.03   -0.07  -35.62  -91.15
    0.25  -35.27  -89.68    0.00   -0.21    0.00   -0.21  -35.27  -89.68
    0.27  -34.85  -90.99    0.00   -0.12    0.00   -0.12  -34.85  -90.99
    0.29  -34.79  -92.28    0.02   -0.30    0.02   -0.30  -34.79  -92.28
    0.31  -34.57  -91.69   -0.01   -0.37   -0.01   -0.37  -34.57  -91.69
    0.33  -34.28  -91.61    0.01   -0.56    0.01   -0.56  -34.28  -91.61
    0.35  -34.13  -90.82    0.01   -0.54    0.01   -0.54  -34.13  -90.82
    0.37  -33.79  -90.99    0.00   -0.62    0.00   -0.62  -33.79  -90.99
    0.39  -33.38  -91.93    0.01   -0.71    0.01   -0.71  -33.38  -91.93
    0.41  -33.23  -91.33   -0.01   -0.74   -0.01   -0.74  -33.23  -91.33
    0.43  -33.05  -92.22    0.00   -0.75    0.00   -0.75  -33.05  -92.22
    0.45  -32.88  -92.29   -0.01   -0.74   -0.01   -0.74  -32.88  -92.29
    0.46  -32.54  -91.85    0.00   -0.88    0.00   -0.88  -32.54  -91.85
    0.48  -32.32  -92.46   -0.01   -0.89   -0.01   -0.89  -32.32  -92.46
    0.50  -31.77  -93.98   -0.02   -1.05   -0.02   -1.05  -31.77  -93.98
    0.52  -31.71  -93.71   -0.01   -1.14   -0.01   -1.14  -31.71  -93.71
    0.54  -31.44  -92.45   -0.02   -1.23   -0.02   -1.23  -31.44  -92.45
    0.56  -31.32  -92.54   -0.03   -1.12   -0.03   -1.12  -31.32  -92.54
    0.58  -31.32  -90.30   -0.03   -1.50   -0.03   -1.50  -31.32  -90.30
    0.60  -30.94  -88.27   -0.05   -1.44   -0.05   -1.44  -30.94  -88.27
    0.62  -30.33  -84.21   -0.07   -1.52   -0.07   -1.52  -30.33  -84.21
    0.64  -29.44  -83.18   -0.06   -1.38   -0.06   -1.38  -29.44  -83.18
    0.66  -28.60  -85.54   -0.06   -1.30   -0.06   -1.30  -28.60  -85.54
    0.68  -28.10  -88.16   -0.06   -1.14   -0.06   -1.14  -28.10  -88.16
    0.70  -27.87  -90.11   -0.04   -1.39   -0.04   -1.39  -27.87  -90.11
    0.72  -27.76  -92.07   -0.05   -1.43   -0.05   -1.43  -27.76  -92.07
    0.74  -27.50  -93.27   -0.04   -1.34   -0.04   -1.34  -27.50  -93.27
    0.76  -27.44  -94.44   -0.02   -1.37   -0.02   -1.37  -27.44  -94.44
    0.78  -27.27  -95.01   -0.04   -1.40   -0.04   -1.40  -27.27  -95.01
    0.80  -27.07  -95.30   -0.03   -1.58   -0.03   -1.58  -27.07  -95.30
    0.82  -26.94  -95.86   -0.02   -1.72   -0.02   -1.72  -26.94  -95.86
    0.84  -26.83  -96.18   -0.02   -1.65   -0.02   -1.65  -26.83  -96.18
    0.86  -26.71  -96.23   -0.03   -1.75   -0.03   -1.75  -26.71  -96.23
    0.88  -26.53  -96.80   -0.03   -1.73   -0.03   -1.73  -26.53  -96.80
    0.90  -26.34  -96.81   -0.03   -1.84   -0.03   -1.84  -26.34  -96.81
    0.92  -26.16  -97.07   -0.03   -1.74   -0.03   -1.74  -26.16  -97.07
    0.94  -26.09  -97.56   -0.03   -1.94   -0.03   -1.94  -26.09  -97.56
    0.96  -25.89  -98.16   -0.02   -1.98   -0.02   -1.98  -25.89  -98.16
    0.98  -25.72  -98.06   -0.04   -2.06   -0.04   -2.06  -25.72  -98.06
    1.00  -25.61  -98.08   -0.03   -2.18   -0.03   -2.18  -25.61  -98.08
    1.02  -25.49  -98.27   -0.02   -2.20   -0.02   -2.20  -25.49  -98.27
    1.04  -25.38  -97.99   -0.05   -2.19   -0.05   -2.19  -25.38  -97.99
    1.06  -25.19  -98.18   -0.04   -2.24   -0.04   -2.24  -25.19  -98.18
    1.08  -25.04  -98.18   -0.04   -2.11   -0.04   -2.11  -25.04  -98.18
    1.10  -24.91  -98.12   -0.04   -2.37   -0.04   -2.37  -24.91  -98.12
    1.12  -24.73  -98.28   -0.05   -2.35   -0.05   -2.35  -24.73  -98.28
    1.14  -24.50  -98.17   -0.04   -2.39   -0.04   -2.39  -24.50  -98.17
    1.16  -24.35  -98.39   -0.05   -2.42   -0.05   -2.42  -24.35  -98.39
    1.18  -24.17  -98.75   -0.05   -2.48   -0.05   -2.48  -24.17  -98.75
    1.20  -24.02  -99.30   -0.05   -2.47   -0.05   -2.47  -24.02  -99.30
    1.22  -23.83  -98.65   -0.07   -2.41   -0.07   -2.41  -23.83  -98.65
    1.24  -23.68  -99.28   -0.07   -2.55   -0.07   -2.55  -23.68  -99.28
    1.25  -23.54  -99.30   -0.06   -2.65   -0.06   -2.65  -23.54  -99.30
    1.27  -23.41  -99.65   -0.06   -2.52   -0.06   -2.52  -23.41  -99.65
    1.29  -23.23 -100.00   -0.07   -2.68   -0.07   -2.68  -23.23 -100.00
    1.31  -23.08 -100.36   -0.06   -2.53   -0.06   -2.53  -23.08 -100.36
    1.33  -22.95 -100.78   -0.07   -2.77   -0.07   -2.77  -22.95 -100.78
    1.35  -22.84 -101.02   -0.07   -2.73   -0.07   -2.73  -22.84 -101.02
    1.37  -22.68 -101.19   -0.07   -2.78   -0.07   -2.78  -22.68 -101.19
    1.39  -22.54 -101.39   -0.07   -2.94   -0.07   -2.94  -22.54 -101.39
    1.41  -22.45 -101.48   -0.06   -2.98   -0.06   -2.98  -22.45 -101.48
    1.43  -22.34 -101.72   -0.06   -2.86   -0.06   -2.86  -22.34 -101.72
    1.45  -22.22 -102.28   -0.07   -2.97   -0.07   -2.97  -22.22 -102.28
    1.47  -22.10 -102.42   -0.06   -3.04   -0.06   -3.04  -22.10 -102.42
    1.49  -22.02 -102.77   -0.06   -3.00   -0.06   -3.00  -22.02 -102.77
    1.51  -21.91 -102.73   -0.06   -3.04   -0.06   -3.04  -21.91 -102.73
    1.53  -21.77 -103.02   -0.08   -3.22   -0.08   -3.22  -21.77 -103.02
    1.55  -21.63 -103.08   -0.06   -3.20   -0.06   -3.20  -21.63 -103.08
    1.57  -21.50 -103.19   -0.06   -3.17   -0.06   -3.17  -21.50 -103.19
    1.59  -21.48 -103.42   -0.06   -3.28   -0.06   -3.28  -21.48 -103.42
    1.61  -21.39 -103.57   -0.07   -3.24   -0.07   -3.24  -21.39 -103.57
    1.63  -21.23 -103.66   -0.09   -3.31   -0.09   -3.31  -21.23 -103.66
    1.65  -21.11 -103.95   -0.08   -3.43   -0.08   -3.43  -21.11 -103.95
    1.67  -21.03 -104.41   -0.08   -3.37   -0.08   -3.37  -21.03 -104.41
    1.69  -20.93 -104.23   -0.08   -3.46   -0.08   -3.46  -20.93 -104.23
    1.71  -20.81 -104.20   -0.09   -3.39   -0.09   -3.39  -20.81 -104.20
    1.73  -20.66 -104.39   -0.07   -3.69   -0.07   -3.69  -20.66 -104.39
    1.75  -20.60 -104.71   -0.08   -3.62   -0.08   -3.62  -20.60 -104.71
    1.77  -20.53 -105.05   -0.09   -3.69   -0.09   -3.69  -20.53 -105.05
    1.79  -20.41 -104.97   -0.11   -3.72   -0.11   -3.72  -20.41 -104.97
    1.81  -20.25 -105.01   -0.08   -3.64   -0.08   -3.64  -20.25 -105.01
    1.83  -20.19 -105.30   -0.09   -3.65   -0.09   -3.65  -20.19 -105.30
    1.85  -20.12 -105.72   -0.09   -3.69   -0.09   -3.69  -20.12 -105.72
    1.87  -19.99 -105.94   -0.10   -3.74   -0.10   -3.74  -19.99 -105.94
    1.89  -19.89 -105.84   -0.08   -3.80   -0.08   -3.80  -19.89 -105.84
    1.91  -19.81 -105.97   -0.09   -3.85   -0.09   -3.85  -19.81 -105.97
    1.93  -19.74 -106.13   -0.10   -3.98   -0.10   -3.98  -19.74 -106.13
    1.95  -19.66 -106.42   -0.11   -4.06   -0.11   -4.06  -19.66 -106.42
    1.97  -19.54 -106.45   -0.09   -4.19   -0.09   -4.19  -19.54 -106.45
    1.99  -19.45 -106.74   -0.10   -3.97   -0.10   -3.97  -19.45 -106.74
    2.01  -19.37 -106.83   -0.08   -4.14   -0.08   -4.14  -19.37 -106.83
    2.03  -19.29 -107.01   -0.10   -4.13   -0.10   -4.13  -19.29 -107.01
    2.04  -19.20 -107.16   -0.11   -4.12   -0.11   -4.12  -19.20 -107.16
    2.06  -19.09 -107.50   -0.09   -4.22   -0.09   -4.22  -19.09 -107.50
    2.08  -19.04 -107.46   -0.12   -4.24   -0.12   -4.24  -19.04 -107.46
    2.10  -18.96 -107.90   -0.12   -4.35   -0.12   -4.35  -18.96 -107.90
    2.12  -18.83 -107.66   -0.11   -4.36   -0.11   -4.36  -18.83 -107.66
    2.14  -18.74 -107.77   -0.10   -4.38   -0.10   -4.38  -18.74 -107.77
    2.16  -18.70 -108.13   -0.12   -4.36   -0.12   -4.36  -18.70 -108.13
    2.18  -18.61 -108.37   -0.11   -4.46   -0.11   -4.46  -18.61 -108.37
    2.20  -18.52 -108.40   -0.12   -4.51   -0.12   -4.51  -18.52 -108.40
    2.22  -18.45 -108.55   -0.12   -4.55   -0.12   -4.55  -18.45 -108.55
    2.24  -18.36 -108.82   -0.11   -4.55   -0.11   -4.55  -18.36 -108.82
    2.26  -18.31 -109.01   -0.12   -4.49   -0.12   -4.49  -18.31 -109.01
    2.28  -18.22 -108.91   -0.13   -4.62   -0.13   -4.62  -18.22 -108.91
    2.30  -18.09 -108.99   -0.13   -4.53   -0.13   -4.53  -18.09 -108.99
    2.32  -18.05 -109.42   -0.15   -4.82   -0.15   -4.82  -18.05 -109.42
    2.34  -18.03 -109.49   -0.13   -4.63   -0.13   -4.63  -18.03 -109.49
    2.36  -17.94 -109.62   -0.13   -4.74   -0.13   -4.74  -17.94 -109.62
    2.38  -17.85 -109.73   -0.13   -4.83   -0.13   -4.83  -17.85 -109.73
    2.40  -17.75 -109.86   -0.14   -4.63   -0.14   -4.63  -17.75 -109.86
    2.42  -17.70 -110.04   -0.13   -4.74   -0.13   -4.74  -17.70 -110.04
    2.44  -17.63 -110.38   -0.14   -4.89   -0.14   -4.89  -17.63 -110.38
    2.46  -17.56 -110.24   -0.13   -4.78   -0.13   -4.78  -17.56 -110.24
    2.48  -17.48 -110.43   -0.14   -4.97   -0.14   -4.97  -17.48 -110.43
    2.50  -17.42 -110.48   -0.16   -5.09   -0.16   -5.09  -17.42 -110.48
    2.52  -17.35 -110.85   -0.16   -4.97   -0.16   -4.97  -17.35 -110.85
    2.54  -17.30 -110.86   -0.14   -5.02   -0.14   -5.02  -17.30 -110.86
    2.56  -17.22 -111.11   -0.14   -5.02   -0.14   -5.02  -17.22 -111.11
    2.58  -17.17 -111.08   -0.14   -5.09   -0.14   -5.09  -17.17 -111.08
    2.60  -17.08 -111.38   -0.15   -5.38   -0.15   -5.38  -17.08 -111.38
    2.62  -17.06 -111.69   -0.17   -5.32   -0.17   -5.32  -17.06 -111.69
    2.64  -16.96 -111.48   -0.16   -5.20   -0.16   -5.20  -16.96 -111.48
    2.66  -16.89 -111.59   -0.16   -5.22   -0.16   -5.22  -16.89 -111.59
    2.68  -16.85 -111.77   -0.16   -5.39   -0.16   -5.39  -16.85 -111.77
    2.70  -16.76 -111.89   -0.16   -5.32   -0.16   -5.32  -16.76 -111.89
    2.72  -16.72 -112.19   -0.18   -5.41   -0.18   -5.41  -16.72 -112.19
    2.74  -16.67 -112.47   -0.17   -5.42   -0.17   -5.42  -16.67 -112.47
    2.76  -16.61 -112.42   -0.17   -5.50   -0.17   -5.50  -16.61 -112.42
    2.78  -16.54 -112.67   -0.17   -5.64   -0.17   -5.64  -16.54 -112.67
    2.80  -16.45 -112.72   -0.16   -5.57   -0.16   -5.57  -16.45 -112.72
    2.82  -16.40 -112.66   -0.18   -5.55   -0.18   -5.55  -16.40 -112.66
    2.83  -16.38 -112.72   -0.17   -5.62   -0.17   -5.62  -16.38 -112.72
    2.85  -16.30 -112.98   -0.18   -5.68   -0.18   -5.68  -16.30 -112.98
    2.87  -16.25 -113.07   -0.18   -5.79   -0.18   -5.79  -16.25 -113.07
    2.89  -16.16 -113.19   -0.18   -5.62   -0.18   -5.62  -16.16 -113.19
    2.91  -16.13 -113.46   -0.17   -5.83   -0.17   -5.83  -16.13 -113.46
    2.93  -16.11 -113.75   -0.19   -5.85   -0.19   -5.85  -16.11 -113.75
    2.95  -16.02 -113.74   -0.19   -5.94   -0.19   -5.94  -16.02 -113.74
    2.97  -15.94 -113.72   -0.18   -5.96   -0.18   -5.96  -15.94 -113.72
    2.99  -15.90 -113.78   -0.18   -6.00   -0.18   -6.00  -15.90 -113.78
    3.01  -15.87 -113.73   -0.20   -5.83   -0.20   -5.83  -15.87 -113.73
    3.03  -15.83 -113.96   -0.23   -5.95   -0.23   -5.95  -15.83 -113.96
    3.05  -15.73 -114.07   -0.18   -6.07   -0.18   -6.07  -15.73 -114.07
    3.07  -15.71 -114.40   -0.19   -6.08   -0.19   -6.08  -15.71 -114.40
    3.09  -15.67 -114.61   -0.20   -6.21   -0.20   -6.21  -15.67 -114.61
    3.11  -15.63 -114.64   -0.22   -6.10   -0.22   -6.10  -15.63 -114.64
    3.13  -15.56 -114.30   -0.20   -6.20   -0.20   -6.20  -15.56 -114.30
    3.15  -15.49 -114.47   -0.20   -6.20   -0.20   -6.20  -15.49 -114.47
    3.17  -15.45 -114.58   -0.21   -6.28   -0.21   -6.28  -15.45 -114.58
    3.19  -15.44 -114.87   -0.24   -6.32   -0.24   -6.32  -15.44 -114.87
    3.21  -15.36 -114.59   -0.22   -6.14   -0.22   -6.14  -15.36 -114.59
    3.23  -15.30 -114.90   -0.22   -6.29   -0.22   -6.29  -15.30 -114.90
    3.25  -15.29 -115.03   -0.22   -6.42   -0.22   -6.42  -15.29 -115.03
    3.27  -15.22 -115.05   -0.22   -6.44   -0.22   -6.44  -15.22 -115.05
    3.29  -15.17 -115.18   -0.23   -6.44   -0.23   -6.44  -15.17 -115.18
    3.31  -15.11 -115.24   -0.23   -6.55   -0.23   -6.55  -15.11 -115.24
    3.33  -15.07 -115.53   -0.23   -6.62   -0.23   -6.62  -15.07 -115.53
    3.35  -15.04 -115.43   -0.24   -6.56   -0.24   -6.56  -15.04 -115.43
    3.37  -14.97 -115.56   -0.25   -6.72   -0.25   -6.72  -14.97 -115.56
    3.39  -14.90 -115.37   -0.25   -6.57   -0.25   -6.57  -14.90 -115.37
    3.41  -14.87 -115.66   -0.25   -6.63   -0.25   -6.63  -14.87 -115.66
    3.43  -14.86 -115.83   -0.26   -6.71   -0.26   -6.71  -14.86 -115.83
    3.45  -14.83 -115.92   -0.26   -6.79   -0.26   -6.79  -14.83 -115.92
    3.47  -14.76 -115.92   -0.26   -6.90   -0.26   -6.90  -14.76 -115.92
    3.49  -14.71 -116.11   -0.26   -6.87   -0.26   -6.87  -14.71 -116.11
    3.51  -14.69 -116.09   -0.27   -6.90   -0.27   -6.90  -14.69 -116.09
    3.53  -14.60 -116.26   -0.28   -6.99   -0.28   -6.99  -14.60 -116.26
    3.55  -14.54 -116.21   -0.27   -6.95   -0.27   -6.95  -14.54 -116.21
    3.57  -14.51 -116.14   -0.28   -6.92   -0.28   -6.92  -14.51 -116.14
    3.59  -14.46 -116.29   -0.28   -6.94   -0.28   -6.94  -14.46 -116.29
    3.61  -14.41 -116.46   -0.27   -7.12   -0.27   -7.12  -14.41 -116.46
    3.62  -14.35 -116.65   -0.27   -7.11   -0.27   -7.11  -14.35 -116.65
    3.64  -14.32 -116.57   -0.29   -7.06   -0.29   -7.06  -14.32 -116.57
    3.66  -14.30 -116.81   -0.28   -7.27   -0.28   -7.27  -14.30 -116.81
    3.68  -14.25 -116.81   -0.29   -7.28   -0.29   -7.28  -14.25 -116.81
    3.70  -14.17 -116.73   -0.30   -7.17   -0.30   -7.17  -14.17 -116.73
    3.72  -14.11 -116.76   -0.31   -7.28   -0.31   -7.28  -14.11 -116.76
    3.74  -14.09 -116.91   -0.31   -7.42   -0.31   -7.42  -14.09 -116.91
    3.76  -14.05 -117.06   -0.30   -7.37   -0.30   -7.37  -14.05 -117.06
    3.78  -14.02 -117.26   -0.31   -7.45   -0.31   -7.45  -14.02 -117.26
    3.80  -13.99 -117.22   -0.30   -7.46   -0.30   -7.46  -13.99 -117.22
    3.82  -13.92 -117.24   -0.33   -7.50   -0.33   -7.50  -13.92 -117.24
    3.84  -13.91 -117.26   -0.31   -7.47   -0.31   -7.47  -13.91 -117.26
    3.86  -13.83 -117.36   -0.33   -7.57   -0.33   -7.57  -13.83 -117.36
    3.88  -13.76 -117.39   -0.33   -7.55   -0.33   -7.55  -13.76 -117.39
    3.90  -13.72 -117.44   -0.33   -7.61   -0.33   -7.61  -13.72 -117.44
    3.92  -13.68 -117.56   -0.33   -7.62   -0.33   -7.62  -13.68 -117.56
    3.94  -13.64 -117.69   -0.33   -7.73   -0.33   -7.73  -13.64 -117.69
    3.96  -13.59 -117.71   -0.34   -7.64   -0.34   -7.64  -13.59 -117.71
    3.98  -13.53 -117.70   -0.33   -7.82   -0.33   -7.82  -13.53 -117.70
    4.00  -13.71 -119.73   -0.30   -7.93   -0.30   -7.93  -13.71 -119.73
