!  American Technical Ceramics  Date:    3/13/98
!  One Norden Lane
!  Huntington Station,  NY.   11746-2102
!  Tel:  (516) 547-5700               Fax:  (516) 547-5748
!  Part Number  700B1R0C
!  Description: Porcelain, High Q, Low ESR
!  Application: Bypass, Coupling, Timing, Feedback
!               Tuning, Impedance Match, Blocking
# GHZ S DB R 50
! Freq   |S11|   S11 Ph  |S21|   S21 Ph  |S12|   S12 Ph  |S22|   S22 Ph
    0.05    0.02   -0.87  -30.01   88.36  -30.01   88.36    0.02   -0.87
    0.15    0.02   -6.64  -20.28   83.75  -20.28   83.75    0.02   -6.64
    0.25   -0.10  -10.73  -15.94   79.67  -15.94   79.67   -0.10  -10.73
    0.35   -0.18  -14.78  -13.11   75.78  -13.11   75.78   -0.18  -14.78
    0.45   -0.29  -19.04  -11.08   71.94  -11.08   71.94   -0.29  -19.04
    0.55   -0.58  -23.50   -9.38   67.47   -9.38   67.47   -0.58  -23.50
    0.65   -0.76  -27.53   -8.12   63.70   -8.12   63.70   -0.76  -27.53
    0.75   -0.99  -31.09   -7.11   60.27   -7.11   60.27   -0.99  -31.09
    0.85   -1.26  -34.88   -6.29   56.97   -6.29   56.97   -1.26  -34.88
    0.95   -1.46  -38.09   -5.62   54.00   -5.62   54.00   -1.46  -38.09
    1.05   -1.70  -41.26   -5.08   51.06   -5.08   51.06   -1.70  -41.26
    1.15   -1.92  -44.35   -4.54   48.33   -4.54   48.33   -1.92  -44.35
    1.25   -2.19  -46.81   -4.09   45.98   -4.09   45.98   -2.19  -46.81
    1.35   -2.48  -49.80   -3.75   43.49   -3.75   43.49   -2.48  -49.80
    1.45   -2.71  -52.35   -3.48   41.23   -3.48   41.23   -2.71  -52.35
    1.55   -2.93  -54.80   -3.23   38.99   -3.23   38.99   -2.93  -54.80
    1.65   -3.17  -57.25   -2.96   36.88   -2.96   36.88   -3.17  -57.25
    1.75   -3.37  -59.38   -2.71   35.30   -2.71   35.30   -3.37  -59.38
    1.85   -3.67  -61.67   -2.56   33.51   -2.56   33.51   -3.67  -61.67
    1.95   -3.87  -63.42   -2.42   31.78   -2.42   31.78   -3.87  -63.42
    2.05   -4.07  -65.28   -2.31   30.07   -2.31   30.07   -4.07  -65.28
    2.14   -4.23  -66.94   -2.16   28.56   -2.16   28.56   -4.23  -66.94
    2.24   -4.46  -69.00   -1.97   27.33   -1.97   27.33   -4.46  -69.00
    2.34   -4.67  -71.03   -1.89   25.79   -1.89   25.79   -4.67  -71.03
    2.44   -4.86  -72.73   -1.82   24.78   -1.82   24.78   -4.86  -72.73
    2.54   -5.02  -73.89   -1.78   23.36   -1.78   23.36   -5.02  -73.89
    2.64   -5.16  -74.65   -1.66   22.05   -1.66   22.05   -5.16  -74.65
    2.74   -5.37  -76.23   -1.56   21.11   -1.56   21.11   -5.37  -76.23
    2.84   -5.60  -77.97   -1.53   19.79   -1.53   19.79   -5.60  -77.97
    2.94   -5.71  -79.82   -1.46   18.84   -1.46   18.84   -5.71  -79.82
    3.04   -5.79  -80.44   -1.48   17.70   -1.48   17.70   -5.79  -80.44
    3.14   -5.96  -81.78   -1.38   16.57   -1.38   16.57   -5.96  -81.78
    3.24   -6.08  -82.46   -1.38   16.13   -1.38   16.13   -6.08  -82.46
    3.34   -6.37  -84.62   -1.30   14.41   -1.30   14.41   -6.37  -84.62
    3.44   -6.37  -85.90   -1.29   14.10   -1.29   14.10   -6.37  -85.90
    3.54   -6.50  -86.30   -1.30   12.96   -1.30   12.96   -6.50  -86.30
    3.64   -6.47  -87.38   -1.22   12.30   -1.22   12.30   -6.47  -87.38
    3.74   -6.72  -87.68   -1.23   11.52   -1.23   11.52   -6.72  -87.68
    3.84   -6.88  -89.82   -1.20   10.73   -1.20   10.73   -6.88  -89.82
    3.94   -6.93  -90.56   -1.20    9.82   -1.20    9.82   -6.93  -90.56
    4.04   -7.02  -91.92   -1.16    9.28   -1.16    9.28   -7.02  -91.92
    4.14   -6.99  -92.74   -1.09    8.59   -1.09    8.59   -6.99  -92.74
    4.24   -7.17  -92.91   -1.10    8.12   -1.10    8.12   -7.17  -92.91
    4.34   -7.38  -94.98   -1.07    7.43   -1.07    7.43   -7.38  -94.98
    4.44   -7.46  -95.83   -1.08    6.91   -1.08    6.91   -7.46  -95.83
    4.54   -7.59  -96.39   -1.08    5.88   -1.08    5.88   -7.59  -96.39
    4.64   -7.64  -96.74   -0.99    5.40   -0.99    5.40   -7.64  -96.74
    4.74   -7.73  -96.17   -0.99    5.38   -0.99    5.38   -7.73  -96.17
    4.84   -7.94  -97.65   -1.02    4.61   -1.02    4.61   -7.94  -97.65
    4.94   -8.03  -98.04   -1.03    4.24   -1.03    4.24   -8.03  -98.04
    5.04   -8.26  -98.81   -0.98    3.13   -0.98    3.13   -8.26  -98.81
    5.14   -8.20  -99.50   -0.94    2.71   -0.94    2.71   -8.20  -99.50
    5.24   -8.47  -99.38   -0.91    2.63   -0.91    2.63   -8.47  -99.38
    5.34   -8.55  -99.98   -0.87    2.19   -0.87    2.19   -8.55  -99.98
    5.44   -8.87  -99.93   -0.93    1.56   -0.93    1.56   -8.87  -99.93
    5.54   -8.92 -101.26   -0.92    0.76   -0.92    0.76   -8.92 -101.26
    5.64   -9.09 -100.61   -0.88    0.40   -0.88    0.40   -9.09 -100.61
    5.74   -9.19 -101.73   -0.87    0.02   -0.87    0.02   -9.19 -101.73
    5.84   -9.39 -101.20   -0.82   -0.11   -0.82   -0.11   -9.39 -101.20
    5.94   -9.63 -102.90   -0.84   -0.84   -0.84   -0.84   -9.63 -102.90
    6.04   -9.85 -103.27   -0.81   -1.50   -0.81   -1.50   -9.85 -103.27
    6.13   -9.93 -103.63   -0.78   -2.03   -0.78   -2.03   -9.93 -103.63
    6.23  -10.19 -103.54   -0.79   -2.35   -0.79   -2.35  -10.19 -103.54
    6.33  -10.40 -104.26   -0.76   -2.67   -0.76   -2.67  -10.40 -104.26
    6.43  -10.72 -104.94   -0.77   -3.11   -0.77   -3.11  -10.72 -104.94
    6.53  -10.95 -106.10   -0.75   -4.17   -0.75   -4.17  -10.95 -106.10
    6.63  -11.24 -105.72   -0.75   -4.59   -0.75   -4.59  -11.24 -105.72
    6.73  -11.42 -105.23   -0.74   -5.22   -0.74   -5.22  -11.42 -105.23
    6.83  -11.91 -104.97   -0.77   -5.41   -0.77   -5.41  -11.91 -104.97
    6.93  -12.02 -105.14   -0.81   -6.05   -0.81   -6.05  -12.02 -105.14
    7.03  -12.24 -104.64   -0.83   -6.28   -0.83   -6.28  -12.24 -104.64
    7.13  -12.31 -104.62   -0.84   -6.65   -0.84   -6.65  -12.31 -104.62
    7.23  -12.61 -104.11   -0.83   -7.29   -0.83   -7.29  -12.61 -104.11
    7.33  -12.74 -103.38   -0.86   -7.51   -0.86   -7.51  -12.74 -103.38
    7.43  -13.02 -103.67   -0.90   -7.76   -0.90   -7.76  -13.02 -103.67
    7.53  -12.89 -102.77   -0.91   -8.22   -0.91   -8.22  -12.89 -102.77
    7.63  -12.96 -103.66   -0.92   -7.93   -0.92   -7.93  -12.96 -103.66
    7.73  -12.93 -103.90   -0.86   -8.58   -0.86   -8.58  -12.93 -103.90
    7.83  -13.31 -105.68   -0.84   -8.49   -0.84   -8.49  -13.31 -105.68
    7.93  -13.45 -106.96   -0.82   -9.18   -0.82   -9.18  -13.45 -106.96
    8.03  -13.82 -107.44   -0.79   -9.59   -0.79   -9.59  -13.82 -107.44
    8.13  -13.81 -107.61   -0.79  -10.11   -0.79  -10.11  -13.81 -107.61
    8.23  -14.08 -107.78   -0.76  -10.69   -0.76  -10.69  -14.08 -107.78
    8.33  -14.26 -108.51   -0.75  -10.96   -0.75  -10.96  -14.26 -108.51
    8.43  -14.58 -110.76   -0.73  -11.42   -0.73  -11.42  -14.58 -110.76
    8.53  -14.81 -111.69   -0.73  -11.90   -0.73  -11.90  -14.81 -111.69
    8.63  -15.07 -112.08   -0.74  -12.57   -0.74  -12.57  -15.07 -112.08
    8.73  -15.29 -112.85   -0.68  -13.13   -0.68  -13.13  -15.29 -112.85
    8.83  -15.71 -114.01   -0.65  -13.70   -0.65  -13.70  -15.71 -114.01
    8.93  -16.12 -115.69   -0.66  -14.40   -0.66  -14.40  -16.12 -115.69
    9.03  -16.40 -116.76   -0.70  -14.91   -0.70  -14.91  -16.40 -116.76
    9.13  -16.71 -117.12   -0.67  -15.28   -0.67  -15.28  -16.71 -117.12
    9.23  -17.08 -119.24   -0.69  -16.01   -0.69  -16.01  -17.08 -119.24
    9.33  -17.53 -119.66   -0.69  -16.68   -0.69  -16.68  -17.53 -119.66
    9.43  -18.11 -122.77   -0.69  -17.20   -0.69  -17.20  -18.11 -122.77
    9.53  -18.52 -124.46   -0.70  -17.64   -0.70  -17.64  -18.52 -124.46
    9.63  -19.16 -126.37   -0.69  -18.24   -0.69  -18.24  -19.16 -126.37
    9.73  -19.70 -128.70   -0.73  -18.94   -0.73  -18.94  -19.70 -128.70
    9.83  -20.40 -131.69   -0.71  -19.64   -0.71  -19.64  -20.40 -131.69
    9.93  -21.47 -134.57   -0.71  -20.12   -0.71  -20.12  -21.47 -134.57
   10.03  -22.25 -138.38   -0.69  -20.85   -0.69  -20.85  -22.25 -138.38
   10.12  -23.38 -141.67   -0.71  -21.53   -0.71  -21.53  -23.38 -141.67
   10.22  -24.50 -145.48   -0.71  -22.36   -0.71  -22.36  -24.50 -145.48
   10.32  -25.82 -150.91   -0.73  -22.91   -0.73  -22.91  -25.82 -150.91
   10.42  -27.81 -161.56   -0.79  -23.73   -0.79  -23.73  -27.81 -161.56
   10.52  -29.47 -175.11   -0.87  -24.76   -0.87  -24.76  -29.47 -175.11
   10.62  -31.19  160.97   -0.92  -25.33   -0.92  -25.33  -31.19  160.97
   10.72  -31.18  130.39   -0.98  -25.80   -0.98  -25.80  -31.18  130.39
   10.82  -29.20  101.86   -1.04  -26.24   -1.04  -26.24  -29.20  101.86
   10.92  -27.15   82.98   -1.11  -26.67   -1.11  -26.67  -27.15   82.98
   11.02  -24.67   71.79   -1.11  -27.12   -1.11  -27.12  -24.67   71.79
   11.12  -22.80   63.38   -1.14  -27.42   -1.14  -27.42  -22.80   63.38
   11.22  -20.82   57.76   -1.17  -27.93   -1.17  -27.93  -20.82   57.76
   11.32  -19.49   51.52   -1.23  -28.44   -1.23  -28.44  -19.49   51.52
   11.42  -18.23   46.37   -1.25  -29.01   -1.25  -29.01  -18.23   46.37
   11.52  -17.27   40.41   -1.29  -29.28   -1.29  -29.28  -17.27   40.41
   11.62  -16.58   38.76   -1.30  -29.61   -1.30  -29.61  -16.58   38.76
   11.72  -15.80   35.82   -1.33  -29.89   -1.33  -29.89  -15.80   35.82
   11.82  -15.13   34.01   -1.36  -31.04   -1.36  -31.04  -15.13   34.01
   11.92  -14.64   31.10   -1.35  -31.48   -1.35  -31.48  -14.64   31.10
   12.02  -14.00   29.93   -1.41  -31.85   -1.41  -31.85  -14.00   29.93
   12.12  -13.41   28.05   -1.39  -32.52   -1.39  -32.52  -13.41   28.05
   12.22  -12.83   27.54   -1.46  -32.82   -1.46  -32.82  -12.83   27.54
   12.32  -12.35   25.66   -1.49  -33.69   -1.49  -33.69  -12.35   25.66
   12.42  -12.09   23.81   -1.50  -34.78   -1.50  -34.78  -12.09   23.81
   12.52  -11.54   21.38   -1.55  -35.14   -1.55  -35.14  -11.54   21.38
   12.62  -11.13   21.66   -1.63  -36.01   -1.63  -36.01  -11.13   21.66
   12.72  -10.61   19.64   -1.66  -36.38   -1.66  -36.38  -10.61   19.64
   12.82  -10.36   19.42   -1.79  -36.99   -1.79  -36.99  -10.36   19.42
   12.92  -10.10   15.87   -1.77  -37.94   -1.77  -37.94  -10.10   15.87
   13.02   -9.87   15.37   -1.84  -38.58   -1.84  -38.58   -9.87   15.37
   13.12   -9.49   13.64   -1.87  -39.00   -1.87  -39.00   -9.49   13.64
   13.22   -9.36   14.37   -1.97  -39.77   -1.97  -39.77   -9.36   14.37
   13.32   -9.02   12.22   -2.06  -40.60   -2.06  -40.60   -9.02   12.22
   13.42   -9.02   11.39   -2.14  -41.47   -2.14  -41.47   -9.02   11.39
   13.52   -8.67    8.70   -2.14  -42.26   -2.14  -42.26   -8.67    8.70
   13.62   -8.57   10.55   -2.26  -42.47   -2.26  -42.47   -8.57   10.55
   13.72   -8.21    8.39   -2.35  -43.74   -2.35  -43.74   -8.21    8.39
   13.82   -8.14    9.18   -2.44  -43.80   -2.44  -43.80   -8.14    9.18
   13.92   -8.15    7.07   -2.53  -44.96   -2.53  -44.96   -8.15    7.07
   14.02   -8.02    6.04   -2.59  -45.60   -2.59  -45.60   -8.02    6.04
   14.11   -7.80    5.00   -2.62  -46.54   -2.62  -46.54   -7.80    5.00
   14.21   -7.55    6.27   -2.68  -46.88   -2.68  -46.88   -7.55    6.27
   14.31   -7.39    6.84   -2.82  -47.89   -2.82  -47.89   -7.39    6.84
   14.41   -7.38    5.31   -2.91  -48.60   -2.91  -48.60   -7.38    5.31
   14.51   -7.34    4.88   -2.96  -49.30   -2.96  -49.30   -7.34    4.88
   14.61   -7.17    4.45   -3.16  -50.62   -3.16  -50.62   -7.17    4.45
   14.71   -6.86    4.34   -3.21  -51.62   -3.21  -51.62   -6.86    4.34
   14.81   -6.62    4.78   -3.35  -52.22   -3.35  -52.22   -6.62    4.78
   14.91   -6.45    4.75   -3.46  -52.89   -3.46  -52.89   -6.45    4.75
   15.01   -6.47    3.93   -3.65  -53.21   -3.65  -53.21   -6.47    3.93
   15.11   -6.26    3.43   -3.81  -53.72   -3.81  -53.72   -6.26    3.43
   15.21   -6.06    2.20   -3.97  -54.43   -3.97  -54.43   -6.06    2.20
   15.31   -5.70    1.90   -3.93  -54.64   -3.93  -54.64   -5.70    1.90
   15.41   -5.65    0.77   -4.04  -54.98   -4.04  -54.98   -5.65    0.77
   15.51   -5.50   -0.57   -4.10  -55.74   -4.10  -55.74   -5.50   -0.57
   15.61   -5.47   -2.04   -4.22  -56.26   -4.22  -56.26   -5.47   -2.04
   15.71   -5.25   -2.35   -4.34  -57.02   -4.34  -57.02   -5.25   -2.35
   15.81   -5.10   -3.57   -4.42  -58.02   -4.42  -58.02   -5.10   -3.57
   15.91   -4.93   -4.07   -4.49  -58.73   -4.49  -58.73   -4.93   -4.07
   16.01   -5.00   -6.09   -4.66  -59.30   -4.66  -59.30   -5.00   -6.09
   16.11   -4.76   -6.79   -4.77  -60.27   -4.77  -60.27   -4.76   -6.79
   16.21   -4.69   -7.47   -4.91  -60.67   -4.91  -60.67   -4.69   -7.47
   16.31   -4.47   -8.34   -5.03  -61.94   -5.03  -61.94   -4.47   -8.34
   16.41   -4.37   -9.45   -5.09  -63.01   -5.09  -63.01   -4.37   -9.45
   16.51   -4.24  -11.08   -5.23  -63.77   -5.23  -63.77   -4.24  -11.08
   16.61   -4.13  -11.95   -5.39  -64.84   -5.39  -64.84   -4.13  -11.95
   16.71   -3.99  -12.36   -5.53  -65.44   -5.53  -65.44   -3.99  -12.36
   16.81   -3.86  -13.00   -5.94  -66.48   -5.94  -66.48   -3.86  -13.00
   16.91   -3.75  -14.36   -6.00  -68.00   -6.00  -68.00   -3.75  -14.36
   17.01   -3.61  -13.90   -6.38  -68.23   -6.38  -68.23   -3.61  -13.90
   17.11   -3.52  -15.62   -6.49  -68.66   -6.49  -68.66   -3.52  -15.62
   17.21   -3.22  -15.30   -6.80  -67.99   -6.80  -67.99   -3.22  -15.30
   17.31   -3.10  -17.33   -6.91  -68.80   -6.91  -68.80   -3.10  -17.33
   17.41   -2.99  -17.81   -7.09  -69.65   -7.09  -69.65   -2.99  -17.81
   17.51   -2.92  -20.02   -7.19  -69.72   -7.19  -69.72   -2.92  -20.02
   17.61   -2.83  -19.80   -7.39  -69.55   -7.39  -69.55   -2.83  -19.80
   17.71   -2.75  -22.94   -7.32  -70.08   -7.32  -70.08   -2.75  -22.94
   17.81   -2.58  -23.35   -7.55  -71.13   -7.55  -71.13   -2.58  -23.35
   17.91   -2.93  -25.54   -7.79  -72.66   -7.79  -72.66   -2.93  -25.54
   18.01   -3.11  -28.78   -7.81  -71.28   -7.81  -71.28   -3.11  -28.78
   18.10   -3.57  -27.51   -7.42  -72.39   -7.42  -72.39   -3.57  -27.51
   18.20   -3.48  -29.86   -7.04  -75.51   -7.04  -75.51   -3.48  -29.86
   18.30   -4.21  -27.86   -6.99  -80.94   -6.99  -80.94   -4.21  -27.86
   18.40   -4.52  -25.26   -6.96  -89.66   -6.96  -89.66   -4.52  -25.26
   18.50   -4.35  -21.88   -8.11  -97.43   -8.11  -97.43   -4.35  -21.88
   18.60   -4.37  -23.10   -8.38 -100.06   -8.38 -100.06   -4.37  -23.10
   18.70   -4.77  -16.69   -8.82 -115.06   -8.82 -115.06   -4.77  -16.69
   18.80   -3.34  -11.92  -12.39 -127.06  -12.39 -127.06   -3.34  -11.92
   18.90   -2.73  -15.55  -15.77 -117.51  -15.77 -117.51   -2.73  -15.55
   19.00   -2.31  -19.30  -16.69 -106.00  -16.69 -106.00   -2.31  -19.30
   19.10   -2.12  -21.26  -17.13  -99.24  -17.13  -99.24   -2.12  -21.26
   19.20   -2.01  -23.98  -17.51  -95.92  -17.51  -95.92   -2.01  -23.98
   19.30   -1.77  -26.17  -17.84  -94.16  -17.84  -94.16   -1.77  -26.17
   19.40   -1.92  -27.90  -18.39  -94.59  -18.39  -94.59   -1.92  -27.90
   19.50   -1.91  -31.36  -19.09  -95.50  -19.09  -95.50   -1.91  -31.36
   19.60   -1.97  -31.25  -19.84  -94.45  -19.84  -94.45   -1.97  -31.25
   19.70   -1.93  -33.94  -20.07  -96.77  -20.07  -96.77   -1.93  -33.94
   19.80   -1.67  -33.44  -20.30 -105.18  -20.30 -105.18   -1.67  -33.44
   19.90   -1.66  -36.72  -21.31 -118.87  -21.31 -118.87   -1.66  -36.72
   20.00   -1.63  -39.00  -22.37 -135.73  -22.37 -135.73   -1.63  -39.00
