!  American Technical Ceramics  Date:    3/13/98
!  One Norden Lane
!  Huntington Station,  NY.   11746-2102
!  Tel:  (516) 547-5700               Fax:  (516) 547-5748
!  Part Number  700B1R8C
!  Description: Porcelain, High Q, Low ESR
!  Application: Bypass, Coupling, Timing, Feedback
!               Tuning, Impedance Match, Blocking
# GHZ S DB R 50
! Freq   |S11|   S11 Ph  |S21|   S21 Ph  |S12|   S12 Ph  |S22|   S22 Ph
    0.05    0.01   -2.61  -24.83   84.36  -24.83   84.36    0.01   -2.61
    0.15   -0.07  -10.94  -15.45   79.69  -15.45   79.69   -0.07  -10.94
    0.25   -0.32  -17.56  -11.25   73.09  -11.25   73.09   -0.32  -17.56
    0.35   -0.59  -24.11   -8.62   66.72   -8.62   66.72   -0.59  -24.11
    0.45   -0.95  -30.21   -6.81   61.13   -6.81   61.13   -0.95  -30.21
    0.55   -1.52  -36.23   -5.44   54.89   -5.44   54.89   -1.52  -36.23
    0.65   -1.97  -41.34   -4.49   50.17   -4.49   50.17   -1.97  -41.34
    0.75   -2.43  -45.73   -3.75   45.97   -3.75   45.97   -2.43  -45.73
    0.85   -2.94  -49.95   -3.20   42.13   -3.20   42.13   -2.94  -49.95
    0.95   -3.36  -53.56   -2.78   38.85   -2.78   38.85   -3.36  -53.56
    1.05   -3.79  -56.92   -2.44   35.69   -2.44   35.69   -3.79  -56.92
    1.15   -4.20  -60.06   -2.12   33.17   -2.12   33.17   -4.20  -60.06
    1.25   -4.64  -62.58   -1.87   30.75   -1.87   30.75   -4.64  -62.58
    1.35   -5.03  -65.25   -1.69   28.55   -1.69   28.55   -5.03  -65.25
    1.45   -5.37  -67.58   -1.57   26.57   -1.57   26.57   -5.37  -67.58
    1.55   -5.68  -69.70   -1.45   24.68   -1.45   24.68   -5.68  -69.70
    1.65   -5.98  -71.89   -1.32   22.89   -1.32   22.89   -5.98  -71.89
    1.75   -6.27  -73.81   -1.19   21.58   -1.19   21.58   -6.27  -73.81
    1.85   -6.62  -75.90   -1.11   20.20   -1.11   20.20   -6.62  -75.90
    1.95   -6.86  -77.33   -1.09   18.73   -1.09   18.73   -6.86  -77.33
    2.05   -7.09  -78.95   -1.04   17.47   -1.04   17.47   -7.09  -78.95
    2.14   -7.27  -80.26   -0.96   16.22   -0.96   16.22   -7.27  -80.26
    2.24   -7.52  -82.06   -0.87   15.36   -0.87   15.36   -7.52  -82.06
    2.34   -7.72  -83.59   -0.85   14.21   -0.85   14.21   -7.72  -83.59
    2.44   -7.92  -85.11   -0.83   13.50   -0.83   13.50   -7.92  -85.11
    2.54   -8.04  -86.08   -0.83   12.50   -0.83   12.50   -8.04  -86.08
    2.64   -8.14  -86.52   -0.77   11.56   -0.77   11.56   -8.14  -86.52
    2.74   -8.35  -87.88   -0.74   10.94   -0.74   10.94   -8.35  -87.88
    2.84   -8.58  -89.24   -0.75    9.81   -0.75    9.81   -8.58  -89.24
    2.94   -8.68  -91.00   -0.71    9.09   -0.71    9.09   -8.68  -91.00
    3.04   -8.71  -91.17   -0.74    8.44   -0.74    8.44   -8.71  -91.17
    3.14   -8.86  -92.13   -0.70    7.55   -0.70    7.55   -8.86  -92.13
    3.24   -8.90  -92.91   -0.70    7.13   -0.70    7.13   -8.90  -92.91
    3.34   -9.18  -94.50   -0.69    5.96   -0.69    5.96   -9.18  -94.50
    3.44   -9.16  -95.76   -0.67    5.69   -0.67    5.69   -9.16  -95.76
    3.54   -9.21  -95.76   -0.70    4.93   -0.70    4.93   -9.21  -95.76
    3.64   -9.18  -96.55   -0.64    4.40   -0.64    4.40   -9.18  -96.55
    3.74   -9.35  -96.93   -0.68    3.90   -0.68    3.90   -9.35  -96.93
    3.84   -9.46  -98.44   -0.67    3.26   -0.67    3.26   -9.46  -98.44
    3.94   -9.46  -98.96   -0.69    2.61   -0.69    2.61   -9.46  -98.96
    4.04   -9.59 -100.43   -0.66    2.17   -0.66    2.17   -9.59 -100.43
    4.14   -9.54 -101.31   -0.63    1.79   -0.63    1.79   -9.54 -101.31
    4.24   -9.65 -101.44   -0.64    1.42   -0.64    1.42   -9.65 -101.44
    4.34   -9.82 -103.24   -0.64    0.80   -0.64    0.80   -9.82 -103.24
    4.44   -9.91 -103.86   -0.64    0.47   -0.64    0.47   -9.91 -103.86
    4.54   -9.98 -104.11   -0.66   -0.28   -0.66   -0.28   -9.98 -104.11
    4.64  -10.03 -104.46   -0.60   -0.54   -0.60   -0.54  -10.03 -104.46
    4.74  -10.12 -103.67   -0.59   -0.57   -0.59   -0.57  -10.12 -103.67
    4.84  -10.31 -105.08   -0.63   -1.07   -0.63   -1.07  -10.31 -105.08
    4.94  -10.39 -105.58   -0.64   -1.61   -0.64   -1.61  -10.39 -105.58
    5.04  -10.58 -105.94   -0.61   -2.17   -0.61   -2.17  -10.58 -105.94
    5.14  -10.56 -106.41   -0.57   -2.62   -0.57   -2.62  -10.56 -106.41
    5.24  -10.82 -106.24   -0.57   -2.76   -0.57   -2.76  -10.82 -106.24
    5.34  -10.85 -106.89   -0.57   -2.93   -0.57   -2.93  -10.85 -106.89
    5.44  -11.23 -106.70   -0.61   -3.59   -0.61   -3.59  -11.23 -106.70
    5.54  -11.25 -107.69   -0.58   -4.17   -0.58   -4.17  -11.25 -107.69
    5.64  -11.41 -107.29   -0.58   -4.45   -0.58   -4.45  -11.41 -107.29
    5.74  -11.51 -108.26   -0.57   -4.79   -0.57   -4.79  -11.51 -108.26
    5.84  -11.77 -107.87   -0.54   -4.83   -0.54   -4.83  -11.77 -107.87
    5.94  -12.07 -109.08   -0.57   -5.34   -0.57   -5.34  -12.07 -109.08
    6.04  -12.32 -109.06   -0.56   -5.90   -0.56   -5.90  -12.32 -109.06
    6.13  -12.40 -109.54   -0.51   -6.36   -0.51   -6.36  -12.40 -109.54
    6.23  -12.69 -109.25   -0.56   -6.59   -0.56   -6.59  -12.69 -109.25
    6.33  -12.92 -109.69   -0.52   -6.80   -0.52   -6.80  -12.92 -109.69
    6.43  -13.32 -110.43   -0.54   -7.05   -0.54   -7.05  -13.32 -110.43
    6.53  -13.53 -111.13   -0.53   -7.98   -0.53   -7.98  -13.53 -111.13
    6.63  -13.85 -110.33   -0.55   -8.27   -0.55   -8.27  -13.85 -110.33
    6.73  -14.12 -109.81   -0.54   -8.83   -0.54   -8.83  -14.12 -109.81
    6.83  -14.58 -109.10   -0.57   -8.93   -0.57   -8.93  -14.58 -109.10
    6.93  -14.73 -108.79   -0.62   -9.41   -0.62   -9.41  -14.73 -108.79
    7.03  -14.96 -108.38   -0.63   -9.60   -0.63   -9.60  -14.96 -108.38
    7.13  -15.03 -107.83   -0.64  -10.03   -0.64  -10.03  -15.03 -107.83
    7.23  -15.31 -107.14   -0.63  -10.50   -0.63  -10.50  -15.31 -107.14
    7.33  -15.46 -105.90   -0.68  -10.61   -0.68  -10.61  -15.46 -105.90
    7.43  -15.64 -106.17   -0.71  -10.78   -0.71  -10.78  -15.64 -106.17
    7.53  -15.54 -104.92   -0.71  -10.99   -0.71  -10.99  -15.54 -104.92
    7.63  -15.66 -105.57   -0.75  -10.96   -0.75  -10.96  -15.66 -105.57
    7.73  -15.51 -105.98   -0.72  -11.29   -0.72  -11.29  -15.51 -105.98
    7.83  -15.95 -107.82   -0.67  -11.18   -0.67  -11.18  -15.95 -107.82
    7.93  -16.09 -109.16   -0.66  -11.86   -0.66  -11.86  -16.09 -109.16
    8.03  -16.48 -110.02   -0.61  -12.19   -0.61  -12.19  -16.48 -110.02
    8.13  -16.44 -110.00   -0.64  -12.52   -0.64  -12.52  -16.44 -110.00
    8.23  -16.73 -109.81   -0.63  -12.92   -0.63  -12.92  -16.73 -109.81
    8.33  -16.96 -111.03   -0.63  -13.50   -0.63  -13.50  -16.96 -111.03
    8.43  -17.29 -113.36   -0.57  -13.62   -0.57  -13.62  -17.29 -113.36
    8.53  -17.56 -114.05   -0.60  -13.83   -0.60  -13.83  -17.56 -114.05
    8.63  -17.85 -114.68   -0.60  -14.52   -0.60  -14.52  -17.85 -114.68
    8.73  -18.09 -115.44   -0.58  -15.04   -0.58  -15.04  -18.09 -115.44
    8.83  -18.59 -116.74   -0.56  -15.40   -0.56  -15.40  -18.59 -116.74
    8.93  -19.09 -118.55   -0.56  -16.07   -0.56  -16.07  -19.09 -118.55
    9.03  -19.37 -119.79   -0.59  -16.63   -0.59  -16.63  -19.37 -119.79
    9.13  -19.69 -120.42   -0.59  -16.88   -0.59  -16.88  -19.69 -120.42
    9.23  -20.16 -122.88   -0.59  -17.47   -0.59  -17.47  -20.16 -122.88
    9.33  -20.66 -123.51   -0.60  -18.02   -0.60  -18.02  -20.66 -123.51
    9.43  -21.28 -126.88   -0.60  -18.43   -0.60  -18.43  -21.28 -126.88
    9.53  -21.75 -129.77   -0.60  -18.78   -0.60  -18.78  -21.75 -129.77
    9.63  -22.56 -132.49   -0.61  -19.60   -0.61  -19.60  -22.56 -132.49
    9.73  -23.16 -137.99   -0.64  -20.14   -0.64  -20.14  -23.16 -137.99
    9.83  -24.92 -143.09   -0.66  -20.46   -0.66  -20.46  -24.92 -143.09
    9.93  -26.10 -144.63   -0.64  -20.85   -0.64  -20.85  -26.10 -144.63
   10.03  -27.07 -152.01   -0.61  -21.57   -0.61  -21.57  -27.07 -152.01
   10.12  -28.53 -159.36   -0.62  -22.13   -0.62  -22.13  -28.53 -159.36
   10.22  -30.11 -169.08   -0.66  -22.83   -0.66  -22.83  -30.11 -169.08
   10.32  -31.54  175.84   -0.70  -23.54   -0.70  -23.54  -31.54  175.84
   10.42  -32.28  150.76   -0.73  -24.02   -0.73  -24.02  -32.28  150.76
   10.52  -31.72  126.85   -0.79  -24.95   -0.79  -24.95  -31.72  126.85
   10.62  -29.62  104.27   -0.84  -25.56   -0.84  -25.56  -29.62  104.27
   10.72  -27.31   90.39   -0.92  -25.96   -0.92  -25.96  -27.31   90.39
   10.82  -24.90   79.84   -0.96  -26.31   -0.96  -26.31  -24.90   79.84
   10.92  -23.29   70.64   -1.04  -26.78   -1.04  -26.78  -23.29   70.64
   11.02  -21.52   64.85   -1.07  -27.10   -1.07  -27.10  -21.52   64.85
   11.12  -20.13   59.01   -1.07  -27.30   -1.07  -27.30  -20.13   59.01
   11.22  -18.68   54.86   -1.12  -27.79   -1.12  -27.79  -18.68   54.86
   11.32  -17.63   49.79   -1.17  -28.21   -1.17  -28.21  -17.63   49.79
   11.42  -16.73   45.20   -1.20  -28.76   -1.20  -28.76  -16.73   45.20
   11.52  -15.98   40.40   -1.24  -28.90   -1.24  -28.90  -15.98   40.40
   11.62  -15.38   38.80   -1.25  -29.32   -1.25  -29.32  -15.38   38.80
   11.72  -14.70   36.23   -1.29  -29.42   -1.29  -29.42  -14.70   36.23
   11.82  -14.10   34.51   -1.33  -30.55   -1.33  -30.55  -14.10   34.51
   11.92  -13.69   31.66   -1.30  -30.95   -1.30  -30.95  -13.69   31.66
   12.02  -13.13   30.51   -1.37  -31.19   -1.37  -31.19  -13.13   30.51
   12.12  -12.61   28.46   -1.34  -31.74   -1.34  -31.74  -12.61   28.46
   12.22  -12.11   27.69   -1.42  -32.39   -1.42  -32.39  -12.11   27.69
   12.32  -11.67   25.80   -1.43  -33.13   -1.43  -33.13  -11.67   25.80
   12.42  -11.42   24.11   -1.47  -34.14   -1.47  -34.14  -11.42   24.11
   12.52  -10.86   21.52   -1.50  -34.48   -1.50  -34.48  -10.86   21.52
   12.62  -10.50   21.62   -1.60  -35.30   -1.60  -35.30  -10.50   21.62
   12.72  -10.02   19.48   -1.61  -35.68   -1.61  -35.68  -10.02   19.48
   12.82   -9.79   19.17   -1.73  -36.44   -1.73  -36.44   -9.79   19.17
   12.92   -9.52   15.70   -1.73  -37.49   -1.73  -37.49   -9.52   15.70
   13.02   -9.29   14.77   -1.81  -38.05   -1.81  -38.05   -9.29   14.77
   13.12   -8.92   13.14   -1.84  -38.54   -1.84  -38.54   -8.92   13.14
   13.22   -8.78   13.63   -1.97  -39.26   -1.97  -39.26   -8.78   13.63
   13.32   -8.42   11.45   -2.06  -40.29   -2.06  -40.29   -8.42   11.45
   13.42   -8.43   10.35   -2.18  -41.20   -2.18  -41.20   -8.43   10.35
   13.52   -8.05    7.68   -2.17  -42.23   -2.17  -42.23   -8.05    7.68
   13.62   -7.89    9.17   -2.27  -42.38   -2.27  -42.38   -7.89    9.17
   13.72   -7.50    7.02   -2.38  -43.39   -2.38  -43.39   -7.50    7.02
   13.82   -7.38    7.39   -2.50  -44.01   -2.50  -44.01   -7.38    7.39
   13.92   -7.34    5.11   -2.63  -45.45   -2.63  -45.45   -7.34    5.11
   14.02   -7.19    3.28   -2.67  -46.58   -2.67  -46.58   -7.19    3.28
   14.11   -6.90    1.87   -2.76  -47.85   -2.76  -47.85   -6.90    1.87
   14.21   -6.55    2.46   -2.86  -48.56   -2.86  -48.56   -6.55    2.46
   14.31   -6.36    2.63   -3.02  -49.62   -3.02  -49.62   -6.36    2.63
   14.41   -6.26    0.49   -3.16  -50.90   -3.16  -50.90   -6.26    0.49
   14.51   -6.15   -0.79   -3.28  -52.14   -3.28  -52.14   -6.15   -0.79
   14.61   -6.02   -2.17   -3.53  -54.08   -3.53  -54.08   -6.02   -2.17
   14.71   -5.64   -3.13   -3.69  -55.85   -3.69  -55.85   -5.64   -3.13
   14.81   -5.29   -3.75   -3.86  -57.21   -3.86  -57.21   -5.29   -3.75
   14.91   -5.05   -4.84   -4.11  -58.70   -4.11  -58.70   -5.05   -4.84
   15.01   -5.00   -6.80   -4.47  -60.24   -4.47  -60.24   -5.00   -6.80
   15.11   -4.69   -8.29   -4.80  -62.09   -4.80  -62.09   -4.69   -8.29
   15.21   -4.40  -11.52   -5.17  -64.28   -5.17  -64.28   -4.40  -11.52
   15.31   -3.90  -13.81   -5.45  -66.63   -5.45  -66.63   -3.90  -13.81
   15.41   -3.71  -17.08   -6.00  -69.27   -6.00  -69.27   -3.71  -17.08
   15.51   -3.41  -21.44   -6.59  -72.95   -6.59  -72.95   -3.41  -21.44
   15.61   -3.19  -26.33   -7.53  -77.03   -7.53  -77.03   -3.19  -26.33
   15.71   -2.91  -31.55   -8.89  -82.65   -8.89  -82.65   -2.91  -31.55
   15.81   -2.71  -38.85  -10.99  -89.48  -10.99  -89.48   -2.71  -38.85
   15.91   -2.68  -47.52  -14.79  -97.70  -14.79  -97.70   -2.68  -47.52
   16.01   -3.08  -59.16  -25.60 -105.10  -25.60 -105.10   -3.08  -59.16
   16.11   -3.82  -71.62  -19.76   56.77  -19.76   56.77   -3.82  -71.62
   16.21   -5.32  -85.65  -11.39   43.98  -11.39   43.98   -5.32  -85.65
   16.31   -7.95  -99.24   -7.56   30.09   -7.56   30.09   -7.95  -99.24
   16.41  -12.33 -112.11   -5.46   16.98   -5.46   16.98  -12.33 -112.11
   16.51  -20.07 -121.08   -4.29    5.57   -4.29    5.57  -20.07 -121.08
   16.61  -31.39   21.76   -3.80   -3.82   -3.80   -3.82  -31.39   21.76
   16.71  -18.06   30.29   -3.59  -11.43   -3.59  -11.43  -18.06   30.29
   16.81  -14.24   26.82   -3.67  -15.55   -3.67  -15.55  -14.24   26.82
   16.91  -11.63   25.76   -3.52  -20.61   -3.52  -20.61  -11.63   25.76
   17.01   -9.71   22.00   -3.63  -24.63   -3.63  -24.63   -9.71   22.00
   17.11   -8.56   17.76   -3.69  -27.76   -3.69  -27.76   -8.56   17.76
   17.21   -7.53   14.81   -3.95  -30.08   -3.95  -30.08   -7.53   14.81
   17.31   -6.77   11.47   -4.00  -32.52   -4.00  -32.52   -6.77   11.47
   17.41   -6.18    9.12   -4.18  -35.01   -4.18  -35.01   -6.18    9.12
   17.51   -5.69    5.75   -4.28  -36.72   -4.28  -36.72   -5.69    5.75
   17.61   -5.25    4.59   -4.50  -37.98   -4.50  -37.98   -5.25    4.59
   17.71   -5.03    1.60   -4.54  -39.53   -4.54  -39.53   -5.03    1.60
   17.81   -4.57    0.50   -4.75  -41.49   -4.75  -41.49   -4.57    0.50
   17.91   -4.57   -1.32   -4.99  -43.69   -4.99  -43.69   -4.57   -1.32
   18.01   -4.16   -3.34   -5.04  -44.99   -5.04  -44.99   -4.16   -3.34
   18.10   -4.25   -4.52   -5.36  -47.20   -5.36  -47.20   -4.25   -4.52
   18.20   -3.79   -5.82   -5.57  -47.30   -5.57  -47.30   -3.79   -5.82
   18.30   -3.72   -6.30   -5.87  -49.75   -5.87  -49.75   -3.72   -6.30
   18.40   -3.64   -7.68   -6.17  -52.08   -6.17  -52.08   -3.64   -7.68
   18.50   -3.49   -9.11   -6.53  -54.54   -6.53  -54.54   -3.49   -9.11
   18.60   -3.18  -10.03   -7.23  -58.26   -7.23  -58.26   -3.18  -10.03
   18.70   -2.63  -12.45   -9.08  -59.39   -9.08  -59.39   -2.63  -12.45
   18.80   -2.45  -17.58   -9.78  -43.10   -9.78  -43.10   -2.45  -17.58
   18.90   -2.95  -20.96   -8.66  -40.07   -8.66  -40.07   -2.95  -20.96
   19.00   -3.19  -23.38   -8.03  -40.95   -8.03  -40.95   -3.19  -23.38
   19.10   -3.26  -23.91   -7.78  -44.36   -7.78  -44.36   -3.26  -23.91
   19.20   -3.45  -26.72   -7.88  -47.30   -7.88  -47.30   -3.45  -26.72
   19.30   -3.76  -30.50   -7.96  -49.07   -7.96  -49.07   -3.76  -30.50
   19.40   -5.17  -30.35   -7.48  -52.25   -7.48  -52.25   -5.17  -30.35
   19.50   -5.99  -21.75   -7.46  -67.49   -7.46  -67.49   -5.99  -21.75
   19.60   -4.88  -10.16  -10.34  -80.43  -10.34  -80.43   -4.88  -10.16
   19.70   -3.33  -13.95  -13.66  -73.75  -13.66  -73.75   -3.33  -13.95
   19.80   -2.62  -16.75  -14.97  -61.15  -14.97  -61.15   -2.62  -16.75
   19.90   -2.47  -22.28  -15.68  -54.50  -15.68  -54.50   -2.47  -22.28
   20.00   -2.43  -26.11  -16.81  -48.76  -16.81  -48.76   -2.43  -26.11
