!Murata Part Number: GRM55D7U2J473JW31
!These Parameters are Measured in Series Mode Connection
!Data Generated on Mar 30, 2021
!       o--ll--o
!Port1            Port2
!       o------o
!Operation Temp=25[degC], DC Bias Voltage=0[V]
!Freq. Start=1000[kHz] Stop=3[GHz] 401[Steps]
# Hz S RI R 50
!Freq.(Hz) S11(Real) S11(Imag) S21(Real) S21(Imag) S12(Real) S12(Imag) S22(Real) S22(Imag)
1000000 0.0011636 -0.0337710 0.9988364 0.0337710 0.9988364 0.0337710 0.0011636 -0.0337710
1020218 0.0011187 -0.0331012 0.9988813 0.0331012 0.9988813 0.0331012 0.0011187 -0.0331012
1040844 0.0010756 -0.0324445 0.9989244 0.0324445 0.9989244 0.0324445 0.0010756 -0.0324445
1061887 0.0010342 -0.0318008 0.9989658 0.0318008 0.9989658 0.0318008 0.0010342 -0.0318008
1083356 0.0009944 -0.0311696 0.9990056 0.0311696 0.9990056 0.0311696 0.0009944 -0.0311696
1105259 0.0009561 -0.0305509 0.9990439 0.0305509 0.9990439 0.0305509 0.0009561 -0.0305509
1127605 0.0009194 -0.0299443 0.9990806 0.0299443 0.9990806 0.0299443 0.0009194 -0.0299443
1150402 0.0008841 -0.0293496 0.9991159 0.0293496 0.9991159 0.0293496 0.0008841 -0.0293496
1173660 0.0008502 -0.0287666 0.9991498 0.0287666 0.9991498 0.0287666 0.0008502 -0.0287666
1197389 0.0008176 -0.0281950 0.9991824 0.0281950 0.9991824 0.0281950 0.0008176 -0.0281950
1221597 0.0007863 -0.0276347 0.9992137 0.0276347 0.9992137 0.0276347 0.0007863 -0.0276347
1246295 0.0007562 -0.0270853 0.9992438 0.0270853 0.9992438 0.0270853 0.0007562 -0.0270853
1271492 0.0007273 -0.0265468 0.9992727 0.0265468 0.9992727 0.0265468 0.0007273 -0.0265468
1297199 0.0006995 -0.0260188 0.9993005 0.0260188 0.9993005 0.0260188 0.0006995 -0.0260188
1323425 0.0006728 -0.0255012 0.9993272 0.0255012 0.9993272 0.0255012 0.0006728 -0.0255012
1350181 0.0006472 -0.0249938 0.9993528 0.0249938 0.9993528 0.0249938 0.0006472 -0.0249938
1377479 0.0006226 -0.0244963 0.9993774 0.0244963 0.9993774 0.0244963 0.0006226 -0.0244963
1405328 0.0005989 -0.0240086 0.9994011 0.0240086 0.9994011 0.0240086 0.0005989 -0.0240086
1433740 0.0005762 -0.0235305 0.9994238 0.0235305 0.9994238 0.0235305 0.0005762 -0.0235305
1462727 0.0005543 -0.0230617 0.9994457 0.0230617 0.9994457 0.0230617 0.0005543 -0.0230617
1492300 0.0005334 -0.0226022 0.9994666 0.0226022 0.9994666 0.0226022 0.0005334 -0.0226022
1522470 0.0005132 -0.0221517 0.9994868 0.0221517 0.9994868 0.0221517 0.0005132 -0.0221517
1553251 0.0004939 -0.0217100 0.9995061 0.0217100 0.9995061 0.0217100 0.0004939 -0.0217100
1584654 0.0004752 -0.0212769 0.9995248 0.0212769 0.9995248 0.0212769 0.0004752 -0.0212769
1616692 0.0004574 -0.0208524 0.9995426 0.0208524 0.9995426 0.0208524 0.0004574 -0.0208524
1649378 0.0004402 -0.0204362 0.9995598 0.0204362 0.9995598 0.0204362 0.0004402 -0.0204362
1682724 0.0004237 -0.0200282 0.9995763 0.0200282 0.9995763 0.0200282 0.0004237 -0.0200282
1716745 0.0004079 -0.0196281 0.9995921 0.0196281 0.9995921 0.0196281 0.0004079 -0.0196281
1751453 0.0003927 -0.0192359 0.9996073 0.0192359 0.9996073 0.0192359 0.0003927 -0.0192359
1786863 0.0003780 -0.0188514 0.9996220 0.0188514 0.9996220 0.0188514 0.0003780 -0.0188514
1822989 0.0003640 -0.0184744 0.9996360 0.0184744 0.9996360 0.0184744 0.0003640 -0.0184744
1859846 0.0003505 -0.0181048 0.9996495 0.0181048 0.9996495 0.0181048 0.0003505 -0.0181048
1897447 0.0003375 -0.0177425 0.9996625 0.0177425 0.9996625 0.0177425 0.0003375 -0.0177425
1935809 0.0003251 -0.0173872 0.9996749 0.0173872 0.9996749 0.0173872 0.0003251 -0.0173872
1974946 0.0003131 -0.0170389 0.9996869 0.0170389 0.9996869 0.0170389 0.0003131 -0.0170389
2014875 0.0003016 -0.0166974 0.9996984 0.0166974 0.9996984 0.0166974 0.0003016 -0.0166974
2055611 0.0002906 -0.0163625 0.9997094 0.0163625 0.9997094 0.0163625 0.0002906 -0.0163625
2097170 0.0002800 -0.0160342 0.9997200 0.0160342 0.9997200 0.0160342 0.0002800 -0.0160342
2139570 0.0002698 -0.0157123 0.9997302 0.0157123 0.9997302 0.0157123 0.0002698 -0.0157123
2182827 0.0002600 -0.0153967 0.9997400 0.0153967 0.9997400 0.0153967 0.0002600 -0.0153967
2226959 0.0002506 -0.0150873 0.9997494 0.0150873 0.9997494 0.0150873 0.0002506 -0.0150873
2271982 0.0002416 -0.0147839 0.9997584 0.0147839 0.9997584 0.0147839 0.0002416 -0.0147839
2317916 0.0002330 -0.0144864 0.9997670 0.0144864 0.9997670 0.0144864 0.0002330 -0.0144864
2364779 0.0002246 -0.0141947 0.9997754 0.0141947 0.9997754 0.0141947 0.0002246 -0.0141947
2412589 0.0002166 -0.0139087 0.9997834 0.0139087 0.9997834 0.0139087 0.0002166 -0.0139087
2461366 0.0002090 -0.0136282 0.9997910 0.0136282 0.9997910 0.0136282 0.0002090 -0.0136282
2511129 0.0002016 -0.0133532 0.9997984 0.0133532 0.9997984 0.0133532 0.0002016 -0.0133532
2561897 0.0001945 -0.0130835 0.9998055 0.0130835 0.9998055 0.0130835 0.0001945 -0.0130835
2613693 0.0001877 -0.0128191 0.9998123 0.0128191 0.9998123 0.0128191 0.0001877 -0.0128191
2666535 0.0001812 -0.0125598 0.9998188 0.0125598 0.9998188 0.0125598 0.0001812 -0.0125598
2720446 0.0001749 -0.0123055 0.9998251 0.0123055 0.9998251 0.0123055 0.0001749 -0.0123055
2775447 0.0001689 -0.0120562 0.9998311 0.0120562 0.9998311 0.0120562 0.0001689 -0.0120562
2831560 0.0001631 -0.0118117 0.9998369 0.0118117 0.9998369 0.0118117 0.0001631 -0.0118117
2888807 0.0001575 -0.0115719 0.9998425 0.0115719 0.9998425 0.0115719 0.0001575 -0.0115719
2947212 0.0001522 -0.0113367 0.9998478 0.0113367 0.9998478 0.0113367 0.0001522 -0.0113367
3006797 0.0001471 -0.0111061 0.9998529 0.0111061 0.9998529 0.0111061 0.0001471 -0.0111061
3067588 0.0001422 -0.0108799 0.9998578 0.0108799 0.9998578 0.0108799 0.0001422 -0.0108799
3129607 0.0001375 -0.0106581 0.9998625 0.0106581 0.9998625 0.0106581 0.0001375 -0.0106581
3192880 0.0001329 -0.0104406 0.9998671 0.0104406 0.9998671 0.0104406 0.0001329 -0.0104406
3257432 0.0001286 -0.0102272 0.9998714 0.0102272 0.9998714 0.0102272 0.0001286 -0.0102272
3323290 0.0001244 -0.0100179 0.9998756 0.0100179 0.9998756 0.0100179 0.0001244 -0.0100179
3390478 0.0001204 -0.0098126 0.9998796 0.0098126 0.9998796 0.0098126 0.0001204 -0.0098126
3459026 0.0001165 -0.0096113 0.9998835 0.0096113 0.9998835 0.0096113 0.0001165 -0.0096113
3528959 0.0001129 -0.0094138 0.9998871 0.0094138 0.9998871 0.0094138 0.0001129 -0.0094138
3600306 0.0001093 -0.0092201 0.9998907 0.0092201 0.9998907 0.0092201 0.0001093 -0.0092201
3673095 0.0001059 -0.0090300 0.9998941 0.0090300 0.9998941 0.0090300 0.0001059 -0.0090300
3747356 0.0001027 -0.0088436 0.9998973 0.0088436 0.9998973 0.0088436 0.0001027 -0.0088436
3823119 0.0000995 -0.0086607 0.9999005 0.0086607 0.9999005 0.0086607 0.0000995 -0.0086607
3900413 0.0000965 -0.0084813 0.9999035 0.0084813 0.9999035 0.0084813 0.0000965 -0.0084813
3979270 0.0000936 -0.0083053 0.9999064 0.0083053 0.9999064 0.0083053 0.0000936 -0.0083053
4059721 0.0000909 -0.0081326 0.9999091 0.0081326 0.9999091 0.0081326 0.0000909 -0.0081326
4141799 0.0000882 -0.0079632 0.9999118 0.0079632 0.9999118 0.0079632 0.0000882 -0.0079632
4225536 0.0000857 -0.0077969 0.9999143 0.0077969 0.9999143 0.0077969 0.0000857 -0.0077969
4310966 0.0000833 -0.0076338 0.9999167 0.0076338 0.9999167 0.0076338 0.0000833 -0.0076338
4398124 0.0000809 -0.0074738 0.9999191 0.0074738 0.9999191 0.0074738 0.0000809 -0.0074738
4487043 0.0000787 -0.0073167 0.9999213 0.0073167 0.9999213 0.0073167 0.0000787 -0.0073167
4577760 0.0000765 -0.0071625 0.9999235 0.0071625 0.9999235 0.0071625 0.0000765 -0.0071625
4670311 0.0000745 -0.0070113 0.9999255 0.0070113 0.9999255 0.0070113 0.0000745 -0.0070113
4764734 0.0000725 -0.0068628 0.9999275 0.0068628 0.9999275 0.0068628 0.0000725 -0.0068628
4861065 0.0000706 -0.0067171 0.9999294 0.0067171 0.9999294 0.0067171 0.0000706 -0.0067171
4959344 0.0000688 -0.0065740 0.9999312 0.0065740 0.9999312 0.0065740 0.0000688 -0.0065740
5059610 0.0000671 -0.0064336 0.9999329 0.0064336 0.9999329 0.0064336 0.0000671 -0.0064336
5161903 0.0000655 -0.0062958 0.9999345 0.0062958 0.9999345 0.0062958 0.0000655 -0.0062958
5266264 0.0000639 -0.0061605 0.9999361 0.0061605 0.9999361 0.0061605 0.0000639 -0.0061605
5372736 0.0000624 -0.0060276 0.9999376 0.0060276 0.9999376 0.0060276 0.0000624 -0.0060276
5481359 0.0000609 -0.0058972 0.9999391 0.0058972 0.9999391 0.0058972 0.0000609 -0.0058972
5592179 0.0000596 -0.0057691 0.9999404 0.0057691 0.9999404 0.0057691 0.0000596 -0.0057691
5705239 0.0000582 -0.0056434 0.9999418 0.0056434 0.9999418 0.0056434 0.0000582 -0.0056434
5820586 0.0000570 -0.0055198 0.9999430 0.0055198 0.9999430 0.0055198 0.0000570 -0.0055198
5938264 0.0000558 -0.0053985 0.9999442 0.0053985 0.9999442 0.0053985 0.0000558 -0.0053985
6058321 0.0000547 -0.0052794 0.9999453 0.0052794 0.9999453 0.0052794 0.0000547 -0.0052794
6180806 0.0000536 -0.0051624 0.9999464 0.0051624 0.9999464 0.0051624 0.0000536 -0.0051624
6305767 0.0000525 -0.0050474 0.9999475 0.0050474 0.9999475 0.0050474 0.0000525 -0.0050474
6433254 0.0000516 -0.0049344 0.9999484 0.0049344 0.9999484 0.0049344 0.0000516 -0.0049344
6563319 0.0000506 -0.0048234 0.9999494 0.0048234 0.9999494 0.0048234 0.0000506 -0.0048234
6696013 0.0000497 -0.0047144 0.9999503 0.0047144 0.9999503 0.0047144 0.0000497 -0.0047144
6831390 0.0000489 -0.0046072 0.9999511 0.0046072 0.9999511 0.0046072 0.0000489 -0.0046072
6969505 0.0000481 -0.0045019 0.9999519 0.0045019 0.9999519 0.0045019 0.0000481 -0.0045019
7110411 0.0000474 -0.0043983 0.9999526 0.0043983 0.9999526 0.0043983 0.0000474 -0.0043983
7254166 0.0000467 -0.0042966 0.9999533 0.0042966 0.9999533 0.0042966 0.0000467 -0.0042966
7400828 0.0000460 -0.0041965 0.9999540 0.0041965 0.9999540 0.0041965 0.0000460 -0.0041965
7550455 0.0000454 -0.0040981 0.9999546 0.0040981 0.9999546 0.0040981 0.0000454 -0.0040981
7703107 0.0000448 -0.0040013 0.9999552 0.0040013 0.9999552 0.0040013 0.0000448 -0.0040013
7858845 0.0000443 -0.0039061 0.9999557 0.0039061 0.9999557 0.0039061 0.0000443 -0.0039061
8017732 0.0000438 -0.0038125 0.9999562 0.0038125 0.9999562 0.0038125 0.0000438 -0.0038125
8179831 0.0000433 -0.0037204 0.9999567 0.0037204 0.9999567 0.0037204 0.0000433 -0.0037204
8345207 0.0000429 -0.0036298 0.9999571 0.0036298 0.9999571 0.0036298 0.0000429 -0.0036298
8513927 0.0000425 -0.0035406 0.9999575 0.0035406 0.9999575 0.0035406 0.0000425 -0.0035406
8686058 0.0000421 -0.0034528 0.9999579 0.0034528 0.9999579 0.0034528 0.0000421 -0.0034528
8861669 0.0000418 -0.0033664 0.9999582 0.0033664 0.9999582 0.0033664 0.0000418 -0.0033664
9040831 0.0000415 -0.0032813 0.9999585 0.0032813 0.9999585 0.0032813 0.0000415 -0.0032813
9223615 0.0000412 -0.0031976 0.9999588 0.0031976 0.9999588 0.0031976 0.0000412 -0.0031976
9410094 0.0000410 -0.0031150 0.9999590 0.0031150 0.9999590 0.0031150 0.0000410 -0.0031150
9600343 0.0000408 -0.0030338 0.9999592 0.0030338 0.9999592 0.0030338 0.0000408 -0.0030338
9794439 0.0000407 -0.0029537 0.9999593 0.0029537 0.9999593 0.0029537 0.0000407 -0.0029537
9992459 0.0000405 -0.0028747 0.9999595 0.0028747 0.9999595 0.0028747 0.0000405 -0.0028747
10194482 0.0000404 -0.0027969 0.9999596 0.0027969 0.9999596 0.0027969 0.0000404 -0.0027969
10400590 0.0000404 -0.0027202 0.9999596 0.0027202 0.9999596 0.0027202 0.0000404 -0.0027202
10610865 0.0000404 -0.0026446 0.9999596 0.0026446 0.9999596 0.0026446 0.0000404 -0.0026446
10825391 0.0000404 -0.0025700 0.9999596 0.0025700 0.9999596 0.0025700 0.0000404 -0.0025700
11044254 0.0000404 -0.0024964 0.9999596 0.0024964 0.9999596 0.0024964 0.0000404 -0.0024964
11267542 0.0000405 -0.0024237 0.9999595 0.0024237 0.9999595 0.0024237 0.0000405 -0.0024237
11495344 0.0000406 -0.0023520 0.9999594 0.0023520 0.9999594 0.0023520 0.0000406 -0.0023520
11727752 0.0000407 -0.0022812 0.9999593 0.0022812 0.9999593 0.0022812 0.0000407 -0.0022812
11964859 0.0000409 -0.0022113 0.9999591 0.0022113 0.9999591 0.0022113 0.0000409 -0.0022113
12206760 0.0000411 -0.0021422 0.9999589 0.0021422 0.9999589 0.0021422 0.0000411 -0.0021422
12453551 0.0000414 -0.0020740 0.9999586 0.0020740 0.9999586 0.0020740 0.0000414 -0.0020740
12705331 0.0000417 -0.0020065 0.9999583 0.0020065 0.9999583 0.0020065 0.0000417 -0.0020065
12962202 0.0000420 -0.0019397 0.9999580 0.0019397 0.9999580 0.0019397 0.0000420 -0.0019397
13224267 0.0000423 -0.0018737 0.9999577 0.0018737 0.9999577 0.0018737 0.0000423 -0.0018737
13491630 0.0000427 -0.0018084 0.9999573 0.0018084 0.9999573 0.0018084 0.0000427 -0.0018084
13764398 0.0000432 -0.0017438 0.9999568 0.0017438 0.9999568 0.0017438 0.0000432 -0.0017438
14042680 0.0000437 -0.0016798 0.9999563 0.0016798 0.9999563 0.0016798 0.0000437 -0.0016798
14326589 0.0000442 -0.0016163 0.9999558 0.0016163 0.9999558 0.0016163 0.0000442 -0.0016163
14616238 0.0000447 -0.0015535 0.9999553 0.0015535 0.9999553 0.0015535 0.0000447 -0.0015535
14911743 0.0000454 -0.0014912 0.9999546 0.0014912 0.9999546 0.0014912 0.0000454 -0.0014912
15213223 0.0000460 -0.0014294 0.9999540 0.0014294 0.9999540 0.0014294 0.0000460 -0.0014294
15520797 0.0000467 -0.0013681 0.9999533 0.0013681 0.9999533 0.0013681 0.0000467 -0.0013681
15834590 0.0000475 -0.0013072 0.9999525 0.0013072 0.9999525 0.0013072 0.0000475 -0.0013072
16154727 0.0000483 -0.0012467 0.9999517 0.0012467 0.9999517 0.0012467 0.0000483 -0.0012467
16481337 0.0000492 -0.0011866 0.9999508 0.0011866 0.9999508 0.0011866 0.0000492 -0.0011866
16814550 0.0000501 -0.0011269 0.9999499 0.0011269 0.9999499 0.0011269 0.0000501 -0.0011269
17154499 0.0000511 -0.0010675 0.9999489 0.0010675 0.9999489 0.0010675 0.0000511 -0.0010675
17501322 0.0000522 -0.0010083 0.9999478 0.0010083 0.9999478 0.0010083 0.0000522 -0.0010083
17855156 0.0000533 -0.0009494 0.9999467 0.0009494 0.9999467 0.0009494 0.0000533 -0.0009494
18216144 0.0000545 -0.0008907 0.9999455 0.0008907 0.9999455 0.0008907 0.0000545 -0.0008907
18584431 0.0000558 -0.0008322 0.9999442 0.0008322 0.9999442 0.0008322 0.0000558 -0.0008322
18960163 0.0000571 -0.0007738 0.9999429 0.0007738 0.9999429 0.0007738 0.0000571 -0.0007738
19343491 0.0000586 -0.0007155 0.9999414 0.0007155 0.9999414 0.0007155 0.0000586 -0.0007155
19734570 0.0000601 -0.0006573 0.9999399 0.0006573 0.9999399 0.0006573 0.0000601 -0.0006573
20133555 0.0000617 -0.0005990 0.9999383 0.0005990 0.9999383 0.0005990 0.0000617 -0.0005990
20540607 0.0000635 -0.0005408 0.9999365 0.0005408 0.9999365 0.0005408 0.0000635 -0.0005408
20955888 0.0000653 -0.0004824 0.9999347 0.0004824 0.9999347 0.0004824 0.0000653 -0.0004824
21379566 0.0000673 -0.0004239 0.9999327 0.0004239 0.9999327 0.0004239 0.0000673 -0.0004239
21811809 0.0000694 -0.0003652 0.9999306 0.0003652 0.9999306 0.0003652 0.0000694 -0.0003652
22252791 0.0000716 -0.0003063 0.9999284 0.0003063 0.9999284 0.0003063 0.0000716 -0.0003063
22702688 0.0000740 -0.0002470 0.9999260 0.0002470 0.9999260 0.0002470 0.0000740 -0.0002470
23161682 0.0000766 -0.0001874 0.9999234 0.0001874 0.9999234 0.0001874 0.0000766 -0.0001874
23629955 0.0000793 -0.0001274 0.9999207 0.0001274 0.9999207 0.0001274 0.0000793 -0.0001274
24107696 0.0000823 -0.0000668 0.9999177 0.0000668 0.9999177 0.0000668 0.0000823 -0.0000668
24595095 0.0000854 -0.0000057 0.9999146 0.0000057 0.9999146 0.0000057 0.0000854 -0.0000057
25092348 0.0000888 0.0000561 0.9999112 -0.0000561 0.9999112 -0.0000561 0.0000888 0.0000561
25599655 0.0000925 0.0001187 0.9999075 -0.0001187 0.9999075 -0.0001187 0.0000925 0.0001187
26117218 0.0000964 0.0001822 0.9999036 -0.0001822 0.9999036 -0.0001822 0.0000964 0.0001822
26645245 0.0001007 0.0002467 0.9998993 -0.0002467 0.9998993 -0.0002467 0.0001007 0.0002467
27183947 0.0001053 0.0003123 0.9998947 -0.0003123 0.9998947 -0.0003123 0.0001053 0.0003123
27733541 0.0001103 0.0003791 0.9998897 -0.0003791 0.9998897 -0.0003791 0.0001103 0.0003791
28294246 0.0001158 0.0004474 0.9998842 -0.0004474 0.9998842 -0.0004474 0.0001158 0.0004474
28866287 0.0001218 0.0005172 0.9998782 -0.0005172 0.9998782 -0.0005172 0.0001218 0.0005172
29449894 0.0001284 0.0005889 0.9998716 -0.0005889 0.9998716 -0.0005889 0.0001284 0.0005889
30045299 0.0001356 0.0006627 0.9998644 -0.0006627 0.9998644 -0.0006627 0.0001356 0.0006627
30652742 0.0001437 0.0007387 0.9998563 -0.0007387 0.9998563 -0.0007387 0.0001437 0.0007387
31272467 0.0001527 0.0008174 0.9998473 -0.0008174 0.9998473 -0.0008174 0.0001527 0.0008174
31904720 0.0001628 0.0008990 0.9998372 -0.0008990 0.9998372 -0.0008990 0.0001628 0.0008990
32549757 0.0001741 0.0009841 0.9998259 -0.0009841 0.9998259 -0.0009841 0.0001741 0.0009841
33207834 0.0001870 0.0010731 0.9998130 -0.0010731 0.9998130 -0.0010731 0.0001870 0.0010731
33879216 0.0002018 0.0011666 0.9997982 -0.0011666 0.9997982 -0.0011666 0.0002018 0.0011666
34564172 0.0002189 0.0012654 0.9997811 -0.0012654 0.9997811 -0.0012654 0.0002189 0.0012654
35262976 0.0002388 0.0013704 0.9997612 -0.0013704 0.9997612 -0.0013704 0.0002388 0.0013704
35975908 0.0002622 0.0014826 0.9997378 -0.0014826 0.9997378 -0.0014826 0.0002622 0.0014826
36703254 0.0002903 0.0016034 0.9997097 -0.0016034 0.9997097 -0.0016034 0.0002903 0.0016034
37445305 0.0003242 0.0017345 0.9996758 -0.0017345 0.9996758 -0.0017345 0.0003242 0.0017345
38202358 0.0003659 0.0018780 0.9996341 -0.0018780 0.9996341 -0.0018780 0.0003659 0.0018780
38974717 0.0004183 0.0020367 0.9995817 -0.0020367 0.9995817 -0.0020367 0.0004183 0.0020367
39762692 0.0004853 0.0022141 0.9995147 -0.0022141 0.9995147 -0.0022141 0.0004853 0.0022141
40566597 0.0005732 0.0024148 0.9994268 -0.0024148 0.9994268 -0.0024148 0.0005732 0.0024148
41386756 0.0006919 0.0026443 0.9993081 -0.0026443 0.9993081 -0.0026443 0.0006919 0.0026443
42223496 0.0008573 0.0029095 0.9991427 -0.0029095 0.9991427 -0.0029095 0.0008573 0.0029095
43077153 0.0010967 0.0032170 0.9989033 -0.0032170 0.9989033 -0.0032170 0.0010967 0.0032170
43948069 0.0014579 0.0035687 0.9985421 -0.0035687 0.9985421 -0.0035687 0.0014579 0.0035687
44836592 0.0020253 0.0039438 0.9979747 -0.0039438 0.9979747 -0.0039438 0.0020253 0.0039438
45743080 0.0029371 0.0042427 0.9970629 -0.0042427 0.9970629 -0.0042427 0.0029371 0.0042427
46667894 0.0043287 0.0041376 0.9956713 -0.0041376 0.9956713 -0.0041376 0.0043287 0.0041376
47611406 0.0058990 0.0029503 0.9941010 -0.0029503 0.9941010 -0.0029503 0.0058990 0.0029503
48573993 0.0063065 0.0006198 0.9936935 -0.0006198 0.9936935 -0.0006198 0.0063065 0.0006198
49556042 0.0050404 -0.0011515 0.9949596 0.0011515 0.9949596 0.0011515 0.0050404 -0.0011515
50557945 0.0034940 -0.0016095 0.9965060 0.0016095 0.9965060 0.0016095 0.0034940 -0.0016095
51580105 0.0024055 -0.0014032 0.9975945 0.0014032 0.9975945 0.0014032 0.0024055 -0.0014032
52622929 0.0017324 -0.0010194 0.9982676 0.0010194 0.9982676 0.0010194 0.0017324 -0.0010194
53686838 0.0013186 -0.0006286 0.9986814 0.0006286 0.9986814 0.0006286 0.0013186 -0.0006286
54772256 0.0010580 -0.0002732 0.9989420 0.0002732 0.9989420 0.0002732 0.0010580 -0.0002732
55879618 0.0008901 0.0000433 0.9991099 -0.0000433 0.9991099 -0.0000433 0.0008901 0.0000433
57009369 0.0007810 0.0003274 0.9992190 -0.0003274 0.9992190 -0.0003274 0.0007810 0.0003274
58161960 0.0007113 0.0005870 0.9992887 -0.0005870 0.9992887 -0.0005870 0.0007113 0.0005870
59337855 0.0006701 0.0008294 0.9993299 -0.0008294 0.9993299 -0.0008294 0.0006701 0.0008294
60537522 0.0006512 0.0010612 0.9993488 -0.0010612 0.9993488 -0.0010612 0.0006512 0.0010612
61761445 0.0006516 0.0012881 0.9993484 -0.0012881 0.9993484 -0.0012881 0.0006516 0.0012881
63010112 0.0006708 0.0015156 0.9993292 -0.0015156 0.9993292 -0.0015156 0.0006708 0.0015156
64284024 0.0007109 0.0017490 0.9992891 -0.0017490 0.9992891 -0.0017490 0.0007109 0.0017490
65583691 0.0007768 0.0019941 0.9992232 -0.0019941 0.9992232 -0.0019941 0.0007768 0.0019941
66909635 0.0008777 0.0022570 0.9991223 -0.0022570 0.9991223 -0.0022570 0.0008777 0.0022570
68262386 0.0010306 0.0025439 0.9989694 -0.0025439 0.9989694 -0.0025439 0.0010306 0.0025439
69642486 0.0012650 0.0028580 0.9987350 -0.0028580 0.9987350 -0.0028580 0.0012650 0.0028580
71050488 0.0016339 0.0031907 0.9983661 -0.0031907 0.9983661 -0.0031907 0.0016339 0.0031907
72486957 0.0022268 0.0034899 0.9977732 -0.0034899 0.9977732 -0.0034899 0.0022268 0.0034899
73952468 0.0031516 0.0035735 0.9968484 -0.0035735 0.9968484 -0.0035735 0.0031516 0.0035735
