!Murata Part Number: GRM033B31C153KE84
!These Parameters are Measured in Series Mode Connection
!Data Generated on Mar 30, 2021
!       o--ll--o
!Port1            Port2
!       o------o
!Operation Temp=25[degC], DC Bias Voltage=0[V]
!Freq. Start=100[Hz] Stop=6[GHz] 401[Steps]
# Hz S RI R 50
!Freq.(Hz) S11(Real) S11(Imag) S21(Real) S21(Imag) S12(Real) S12(Imag) S22(Real) S22(Imag)
100 0.9999918 -0.0008802 0.0000082 0.0008802 0.0000082 0.0008802 0.9999918 -0.0008802
105 0.9999914 -0.0009202 0.0000086 0.0009202 0.0000086 0.0009202 0.9999914 -0.0009202
109 0.9999910 -0.0009621 0.0000090 0.0009621 0.0000090 0.0009621 0.9999910 -0.0009621
114 0.9999906 -0.0010059 0.0000094 0.0010059 0.0000094 0.0010059 0.9999906 -0.0010059
120 0.9999901 -0.0010517 0.0000099 0.0010517 0.0000099 0.0010517 0.9999901 -0.0010517
125 0.9999897 -0.0010996 0.0000103 0.0010996 0.0000103 0.0010996 0.9999897 -0.0010996
131 0.9999892 -0.0011497 0.0000108 0.0011497 0.0000108 0.0011497 0.9999892 -0.0011497
137 0.9999887 -0.0012021 0.0000113 0.0012021 0.0000113 0.0012021 0.9999887 -0.0012021
143 0.9999882 -0.0012568 0.0000118 0.0012568 0.0000118 0.0012568 0.9999882 -0.0012568
150 0.9999876 -0.0013141 0.0000124 0.0013141 0.0000124 0.0013141 0.9999876 -0.0013141
156 0.9999870 -0.0013739 0.0000130 0.0013739 0.0000130 0.0013739 0.9999870 -0.0013739
164 0.9999864 -0.0014365 0.0000136 0.0014365 0.0000136 0.0014365 0.9999864 -0.0014365
171 0.9999857 -0.0015019 0.0000143 0.0015019 0.0000143 0.0015019 0.9999857 -0.0015019
179 0.9999850 -0.0015704 0.0000150 0.0015704 0.0000150 0.0015704 0.9999850 -0.0015704
187 0.9999842 -0.0016419 0.0000158 0.0016419 0.0000158 0.0016419 0.9999842 -0.0016419
196 0.9999834 -0.0017167 0.0000166 0.0017167 0.0000166 0.0017167 0.9999834 -0.0017167
205 0.9999826 -0.0017949 0.0000174 0.0017949 0.0000174 0.0017949 0.9999826 -0.0017949
214 0.9999817 -0.0018767 0.0000183 0.0018767 0.0000183 0.0018767 0.9999817 -0.0018767
224 0.9999807 -0.0019622 0.0000193 0.0019622 0.0000193 0.0019622 0.9999807 -0.0019622
234 0.9999797 -0.0020516 0.0000203 0.0020516 0.0000203 0.0020516 0.9999797 -0.0020516
245 0.9999787 -0.0021451 0.0000213 0.0021451 0.0000213 0.0021451 0.9999787 -0.0021451
256 0.9999775 -0.0022429 0.0000225 0.0022429 0.0000225 0.0022429 0.9999775 -0.0022429
268 0.9999763 -0.0023451 0.0000237 0.0023451 0.0000237 0.0023451 0.9999763 -0.0023451
280 0.9999750 -0.0024519 0.0000250 0.0024519 0.0000250 0.0024519 0.9999750 -0.0024519
293 0.9999736 -0.0025637 0.0000264 0.0025637 0.0000264 0.0025637 0.9999736 -0.0025637
306 0.9999721 -0.0026805 0.0000279 0.0026805 0.0000279 0.0026805 0.9999721 -0.0026805
320 0.9999705 -0.0028026 0.0000295 0.0028026 0.0000295 0.0028026 0.9999705 -0.0028026
335 0.9999689 -0.0029303 0.0000311 0.0029303 0.0000311 0.0029303 0.9999689 -0.0029303
350 0.9999671 -0.0030638 0.0000329 0.0030638 0.0000329 0.0030638 0.9999671 -0.0030638
366 0.9999651 -0.0032034 0.0000349 0.0032034 0.0000349 0.0032034 0.9999651 -0.0032034
383 0.9999631 -0.0033494 0.0000369 0.0033494 0.0000369 0.0033494 0.9999631 -0.0033494
401 0.9999609 -0.0035020 0.0000391 0.0035020 0.0000391 0.0035020 0.9999609 -0.0035020
419 0.9999586 -0.0036615 0.0000414 0.0036615 0.0000414 0.0036615 0.9999586 -0.0036615
438 0.9999561 -0.0038283 0.0000439 0.0038283 0.0000439 0.0038283 0.9999561 -0.0038283
458 0.9999534 -0.0040027 0.0000466 0.0040027 0.0000466 0.0040027 0.9999534 -0.0040027
479 0.9999505 -0.0041850 0.0000495 0.0041850 0.0000495 0.0041850 0.9999505 -0.0041850
501 0.9999475 -0.0043757 0.0000525 0.0043757 0.0000525 0.0043757 0.9999475 -0.0043757
524 0.9999442 -0.0045749 0.0000558 0.0045749 0.0000558 0.0045749 0.9999442 -0.0045749
548 0.9999407 -0.0047833 0.0000593 0.0047833 0.0000593 0.0047833 0.9999407 -0.0047833
573 0.9999370 -0.0050011 0.0000630 0.0050011 0.0000630 0.0050011 0.9999370 -0.0050011
600 0.9999330 -0.0052289 0.0000670 0.0052289 0.0000670 0.0052289 0.9999330 -0.0052289
627 0.9999288 -0.0054670 0.0000712 0.0054670 0.0000712 0.0054670 0.9999288 -0.0054670
656 0.9999243 -0.0057159 0.0000757 0.0057159 0.0000757 0.0057159 0.9999243 -0.0057159
686 0.9999194 -0.0059762 0.0000806 0.0059762 0.0000806 0.0059762 0.9999194 -0.0059762
717 0.9999143 -0.0062483 0.0000857 0.0062483 0.0000857 0.0062483 0.9999143 -0.0062483
750 0.9999087 -0.0065328 0.0000913 0.0065328 0.0000913 0.0065328 0.9999087 -0.0065328
784 0.9999028 -0.0068303 0.0000972 0.0068303 0.0000972 0.0068303 0.9999028 -0.0068303
820 0.9998965 -0.0071414 0.0001035 0.0071414 0.0001035 0.0071414 0.9998965 -0.0071414
858 0.9998897 -0.0074666 0.0001103 0.0074666 0.0001103 0.0074666 0.9998897 -0.0074666
897 0.9998824 -0.0078066 0.0001176 0.0078066 0.0001176 0.0078066 0.9998824 -0.0078066
938 0.9998746 -0.0081622 0.0001254 0.0081622 0.0001254 0.0081622 0.9998746 -0.0081622
981 0.9998662 -0.0085339 0.0001338 0.0085339 0.0001338 0.0085339 0.9998662 -0.0085339
1026 0.9998572 -0.0089227 0.0001428 0.0089227 0.0001428 0.0089227 0.9998572 -0.0089227
1073 0.9998475 -0.0093292 0.0001525 0.0093292 0.0001525 0.0093292 0.9998475 -0.0093292
1122 0.9998371 -0.0097542 0.0001629 0.0097542 0.0001629 0.0097542 0.9998371 -0.0097542
1174 0.9998258 -0.0101986 0.0001742 0.0101986 0.0001742 0.0101986 0.9998258 -0.0101986
1227 0.9998136 -0.0106634 0.0001864 0.0106634 0.0001864 0.0106634 0.9998136 -0.0106634
1283 0.9998005 -0.0111493 0.0001995 0.0111493 0.0001995 0.0111493 0.9998005 -0.0111493
1342 0.9997862 -0.0116575 0.0002138 0.0116575 0.0002138 0.0116575 0.9997862 -0.0116575
1404 0.9997708 -0.0121889 0.0002292 0.0121889 0.0002292 0.0121889 0.9997708 -0.0121889
1468 0.9997541 -0.0127445 0.0002459 0.0127445 0.0002459 0.0127445 0.9997541 -0.0127445
1535 0.9997360 -0.0133255 0.0002640 0.0133255 0.0002640 0.0133255 0.9997360 -0.0133255
1606 0.9997164 -0.0139330 0.0002836 0.0139330 0.0002836 0.0139330 0.9997164 -0.0139330
1679 0.9996951 -0.0145682 0.0003049 0.0145682 0.0003049 0.0145682 0.9996951 -0.0145682
1756 0.9996719 -0.0152325 0.0003281 0.0152325 0.0003281 0.0152325 0.9996719 -0.0152325
1836 0.9996468 -0.0159270 0.0003532 0.0159270 0.0003532 0.0159270 0.9996468 -0.0159270
1920 0.9996194 -0.0166532 0.0003806 0.0166532 0.0003806 0.0166532 0.9996194 -0.0166532
2008 0.9995896 -0.0174125 0.0004104 0.0174125 0.0004104 0.0174125 0.9995896 -0.0174125
2100 0.9995572 -0.0182065 0.0004428 0.0182065 0.0004428 0.0182065 0.9995572 -0.0182065
2196 0.9995220 -0.0190366 0.0004780 0.0190366 0.0004780 0.0190366 0.9995220 -0.0190366
2297 0.9994836 -0.0199045 0.0005164 0.0199045 0.0005164 0.0199045 0.9994836 -0.0199045
2402 0.9994418 -0.0208119 0.0005582 0.0208119 0.0005582 0.0208119 0.9994418 -0.0208119
2512 0.9993964 -0.0217606 0.0006036 0.0217606 0.0006036 0.0217606 0.9993964 -0.0217606
2627 0.9993469 -0.0227524 0.0006531 0.0227524 0.0006531 0.0227524 0.9993469 -0.0227524
2748 0.9992929 -0.0237893 0.0007071 0.0237893 0.0007071 0.0237893 0.9992929 -0.0237893
2873 0.9992342 -0.0248733 0.0007658 0.0248733 0.0007658 0.0248733 0.9992342 -0.0248733
3005 0.9991703 -0.0260066 0.0008297 0.0260066 0.0008297 0.0260066 0.9991703 -0.0260066
3143 0.9991006 -0.0271912 0.0008994 0.0271912 0.0008994 0.0271912 0.9991006 -0.0271912
3287 0.9990248 -0.0284297 0.0009752 0.0284297 0.0009752 0.0284297 0.9990248 -0.0284297
3437 0.9989422 -0.0297242 0.0010578 0.0297242 0.0010578 0.0297242 0.9989422 -0.0297242
3594 0.9988522 -0.0310774 0.0011478 0.0310774 0.0011478 0.0310774 0.9988522 -0.0310774
3759 0.9987542 -0.0324919 0.0012458 0.0324919 0.0012458 0.0324919 0.9987542 -0.0324919
3931 0.9986476 -0.0339704 0.0013524 0.0339704 0.0013524 0.0339704 0.9986476 -0.0339704
4111 0.9985314 -0.0355158 0.0014686 0.0355158 0.0014686 0.0355158 0.9985314 -0.0355158
4299 0.9984048 -0.0371311 0.0015952 0.0371311 0.0015952 0.0371311 0.9984048 -0.0371311
4496 0.9982670 -0.0388193 0.0017330 0.0388193 0.0017330 0.0388193 0.9982670 -0.0388193
4702 0.9981168 -0.0405837 0.0018832 0.0405837 0.0018832 0.0405837 0.9981168 -0.0405837
4918 0.9979533 -0.0424277 0.0020467 0.0424277 0.0020467 0.0424277 0.9979533 -0.0424277
5143 0.9977751 -0.0443548 0.0022249 0.0443548 0.0022249 0.0443548 0.9977751 -0.0443548
5378 0.9975810 -0.0463688 0.0024190 0.0463688 0.0024190 0.0463688 0.9975810 -0.0463688
5625 0.9973694 -0.0484733 0.0026306 0.0484733 0.0026306 0.0484733 0.9973694 -0.0484733
5882 0.9971389 -0.0506724 0.0028611 0.0506724 0.0028611 0.0506724 0.9971389 -0.0506724
6151 0.9968877 -0.0529702 0.0031123 0.0529702 0.0031123 0.0529702 0.9968877 -0.0529702
6433 0.9966139 -0.0553710 0.0033861 0.0553710 0.0033861 0.0553710 0.9966139 -0.0553710
6728 0.9963154 -0.0578793 0.0036846 0.0578793 0.0036846 0.0578793 0.9963154 -0.0578793
7036 0.9959899 -0.0604998 0.0040101 0.0604998 0.0040101 0.0604998 0.9959899 -0.0604998
7358 0.9956351 -0.0632371 0.0043649 0.0632371 0.0043649 0.0632371 0.9956351 -0.0632371
7695 0.9952482 -0.0660962 0.0047518 0.0660962 0.0047518 0.0660962 0.9952482 -0.0660962
8047 0.9948262 -0.0690824 0.0051738 0.0690824 0.0051738 0.0690824 0.9948262 -0.0690824
8416 0.9943659 -0.0722009 0.0056341 0.0722009 0.0056341 0.0722009 0.9943659 -0.0722009
8801 0.9938639 -0.0754572 0.0061361 0.0754572 0.0061361 0.0754572 0.9938639 -0.0754572
9204 0.9933163 -0.0788569 0.0066837 0.0788569 0.0066837 0.0788569 0.9933163 -0.0788569
9626 0.9927190 -0.0824058 0.0072810 0.0824058 0.0072810 0.0824058 0.9927190 -0.0824058
10066 0.9920675 -0.0861098 0.0079325 0.0861098 0.0079325 0.0861098 0.9920675 -0.0861098
10527 0.9913568 -0.0899751 0.0086432 0.0899751 0.0086432 0.0899751 0.9913568 -0.0899751
11009 0.9905816 -0.0940079 0.0094184 0.0940079 0.0094184 0.0940079 0.9905816 -0.0940079
11514 0.9897361 -0.0982146 0.0102639 0.0982146 0.0102639 0.0982146 0.9897361 -0.0982146
12041 0.9888140 -0.1026016 0.0111860 0.1026016 0.0111860 0.1026016 0.9888140 -0.1026016
12592 0.9878085 -0.1071754 0.0121915 0.1071754 0.0121915 0.1071754 0.9878085 -0.1071754
13169 0.9867121 -0.1119427 0.0132879 0.1119427 0.0132879 0.1119427 0.9867121 -0.1119427
13772 0.9855168 -0.1169101 0.0144832 0.1169101 0.0144832 0.1169101 0.9855168 -0.1169101
14402 0.9842140 -0.1220843 0.0157860 0.1220843 0.0157860 0.1220843 0.9842140 -0.1220843
15062 0.9827942 -0.1274719 0.0172058 0.1274719 0.0172058 0.1274719 0.9827942 -0.1274719
15752 0.9812474 -0.1330795 0.0187526 0.1330795 0.0187526 0.1330795 0.9812474 -0.1330795
16473 0.9795626 -0.1389135 0.0204374 0.1389135 0.0204374 0.1389135 0.9795626 -0.1389135
17227 0.9777281 -0.1449801 0.0222719 0.1449801 0.0222719 0.1449801 0.9777281 -0.1449801
18016 0.9757312 -0.1512854 0.0242688 0.1512854 0.0242688 0.1512854 0.9757312 -0.1512854
18841 0.9735583 -0.1578351 0.0264417 0.1578351 0.0264417 0.1578351 0.9735583 -0.1578351
19704 0.9711949 -0.1646344 0.0288051 0.1646344 0.0288051 0.1646344 0.9711949 -0.1646344
20606 0.9686254 -0.1716882 0.0313746 0.1716882 0.0313746 0.1716882 0.9686254 -0.1716882
21550 0.9658331 -0.1790006 0.0341669 0.1790006 0.0341669 0.1790006 0.9658331 -0.1790006
22537 0.9628003 -0.1865751 0.0371997 0.1865751 0.0371997 0.1865751 0.9628003 -0.1865751
23569 0.9595080 -0.1944145 0.0404920 0.1944145 0.0404920 0.1944145 0.9595080 -0.1944145
24648 0.9559364 -0.2025202 0.0440636 0.2025202 0.0440636 0.2025202 0.9559364 -0.2025202
25777 0.9520641 -0.2108929 0.0479359 0.2108929 0.0479359 0.2108929 0.9520641 -0.2108929
26957 0.9478688 -0.2195317 0.0521312 0.2195317 0.0521312 0.2195317 0.9478688 -0.2195317
28191 0.9433271 -0.2284344 0.0566729 0.2284344 0.0566729 0.2284344 0.9433271 -0.2284344
29482 0.9384144 -0.2375968 0.0615856 0.2375968 0.0615856 0.2375968 0.9384144 -0.2375968
30832 0.9331050 -0.2470132 0.0668950 0.2470132 0.0668950 0.2470132 0.9331050 -0.2470132
32244 0.9273723 -0.2566754 0.0726277 0.2566754 0.0726277 0.2566754 0.9273723 -0.2566754
33721 0.9211890 -0.2665731 0.0788110 0.2665731 0.0788110 0.2665731 0.9211890 -0.2665731
35265 0.9145269 -0.2766931 0.0854731 0.2766931 0.0854731 0.2766931 0.9145269 -0.2766931
36880 0.9073573 -0.2870197 0.0926427 0.2870197 0.0926427 0.2870197 0.9073573 -0.2870197
38569 0.8996514 -0.2975338 0.1003486 0.2975338 0.1003486 0.2975338 0.8996514 -0.2975338
40335 0.8913803 -0.3082130 0.1086197 0.3082130 0.1086197 0.3082130 0.8913803 -0.3082130
42182 0.8825153 -0.3190316 0.1174847 0.3190316 0.1174847 0.3190316 0.8825153 -0.3190316
44113 0.8730286 -0.3299598 0.1269714 0.3299598 0.1269714 0.3299598 0.8730286 -0.3299598
46134 0.8628935 -0.3409641 0.1371065 0.3409641 0.1371065 0.3409641 0.8628935 -0.3409641
48246 0.8520848 -0.3520069 0.1479152 0.3520069 0.1479152 0.3520069 0.8520848 -0.3520069
50455 0.8405796 -0.3630463 0.1594204 0.3630463 0.1594204 0.3630463 0.8405796 -0.3630463
52766 0.8283578 -0.3740365 0.1716422 0.3740365 0.1716422 0.3740365 0.8283578 -0.3740365
55182 0.8154024 -0.3849276 0.1845976 0.3849276 0.1845976 0.3849276 0.8154024 -0.3849276
57709 0.8017008 -0.3956658 0.1982992 0.3956658 0.1982992 0.3956658 0.8017008 -0.3956658
60352 0.7872447 -0.4061937 0.2127553 0.4061937 0.2127553 0.4061937 0.7872447 -0.4061937
63115 0.7720317 -0.4164508 0.2279683 0.4164508 0.2279683 0.4164508 0.7720317 -0.4164508
66005 0.7560648 -0.4263739 0.2439352 0.4263739 0.2439352 0.4263739 0.7560648 -0.4263739
69028 0.7393541 -0.4358978 0.2606459 0.4358978 0.2606459 0.4358978 0.7393541 -0.4358978
72189 0.7219165 -0.4449560 0.2780835 0.4449560 0.2780835 0.4449560 0.7219165 -0.4449560
75495 0.7037767 -0.4534817 0.2962233 0.4534817 0.2962233 0.4534817 0.7037767 -0.4534817
78952 0.6849670 -0.4614090 0.3150330 0.4614090 0.3150330 0.4614090 0.6849670 -0.4614090
82567 0.6655280 -0.4686733 0.3344720 0.4686733 0.3344720 0.4686733 0.6655280 -0.4686733
86348 0.6455079 -0.4752133 0.3544921 0.4752133 0.3544921 0.4752133 0.6455079 -0.4752133
90302 0.6249629 -0.4809715 0.3750371 0.4809715 0.3750371 0.4809715 0.6249629 -0.4809715
94437 0.6039564 -0.4858958 0.3960436 0.4858958 0.3960436 0.4858958 0.6039564 -0.4858958
98762 0.5825584 -0.4899402 0.4174416 0.4899402 0.4174416 0.4899402 0.5825584 -0.4899402
103284 0.5608448 -0.4930662 0.4391552 0.4930662 0.4391552 0.4930662 0.5608448 -0.4930662
108014 0.5388964 -0.4952435 0.4611036 0.4952435 0.4611036 0.4952435 0.5388964 -0.4952435
112960 0.5167976 -0.4964508 0.4832024 0.4964508 0.4832024 0.4964508 0.5167976 -0.4964508
118133 0.4946352 -0.4966761 0.5053648 0.4966761 0.5053648 0.4966761 0.4946352 -0.4966761
123542 0.4724969 -0.4959172 0.5275031 0.4959172 0.5275031 0.4959172 0.4724969 -0.4959172
129199 0.4504702 -0.4941817 0.5495298 0.4941817 0.5495298 0.4941817 0.4504702 -0.4941817
135116 0.4286407 -0.4914868 0.5713593 0.4914868 0.5713593 0.4914868 0.4286407 -0.4914868
141303 0.4070910 -0.4878589 0.5929090 0.4878589 0.5929090 0.4878589 0.4070910 -0.4878589
147774 0.3858992 -0.4833330 0.6141008 0.4833330 0.6141008 0.4833330 0.3858992 -0.4833330
154540 0.3651383 -0.4779518 0.6348617 0.4779518 0.6348617 0.4779518 0.3651383 -0.4779518
161617 0.3448745 -0.4717648 0.6551255 0.4717648 0.6551255 0.4717648 0.3448745 -0.4717648
169018 0.3251675 -0.4648273 0.6748325 0.4648273 0.6748325 0.4648273 0.3251675 -0.4648273
176758 0.3060691 -0.4571991 0.6939309 0.4571991 0.6939309 0.4571991 0.3060691 -0.4571991
184852 0.2876231 -0.4489434 0.7123769 0.4489434 0.7123769 0.4489434 0.2876231 -0.4489434
193316 0.2698657 -0.4401257 0.7301343 0.4401257 0.7301343 0.4401257 0.2698657 -0.4401257
202169 0.2528249 -0.4308128 0.7471751 0.4308128 0.7471751 0.4308128 0.2528249 -0.4308128
211427 0.2365210 -0.4210713 0.7634790 0.4210713 0.7634790 0.4210713 0.2365210 -0.4210713
221108 0.2209669 -0.4109671 0.7790331 0.4109671 0.7790331 0.4109671 0.2209669 -0.4109671
231233 0.2061689 -0.4005644 0.7938311 0.4005644 0.7938311 0.4005644 0.2061689 -0.4005644
241822 0.1921267 -0.3899250 0.8078733 0.3899250 0.8078733 0.3899250 0.1921267 -0.3899250
252896 0.1788345 -0.3791078 0.8211655 0.3791078 0.8211655 0.3791078 0.1788345 -0.3791078
264476 0.1662815 -0.3681683 0.8337185 0.3681683 0.8337185 0.3681683 0.1662815 -0.3681683
276587 0.1544525 -0.3571579 0.8455475 0.3571579 0.8455475 0.3571579 0.1544525 -0.3571579
289253 0.1433288 -0.3461245 0.8566712 0.3461245 0.8566712 0.3461245 0.1433288 -0.3461245
302498 0.1328883 -0.3351116 0.8671117 0.3351116 0.8671117 0.3351116 0.1328883 -0.3351116
316350 0.1231070 -0.3241585 0.8768930 0.3241585 0.8768930 0.3241585 0.1231070 -0.3241585
330837 0.1139586 -0.3133006 0.8860414 0.3133006 0.8860414 0.3133006 0.1139586 -0.3133006
345986 0.1054157 -0.3025692 0.8945843 0.3025692 0.8945843 0.3025692 0.1054157 -0.3025692
361830 0.0974500 -0.2919918 0.9025500 0.2919918 0.9025500 0.2919918 0.0974500 -0.2919918
378399 0.0900326 -0.2815921 0.9099674 0.2815921 0.9099674 0.2815921 0.0900326 -0.2815921
395726 0.0831346 -0.2713905 0.9168654 0.2713905 0.9168654 0.2713905 0.0831346 -0.2713905
413847 0.0767273 -0.2614042 0.9232727 0.2614042 0.9232727 0.2614042 0.0767273 -0.2614042
432798 0.0707824 -0.2516474 0.9292176 0.2516474 0.9292176 0.2516474 0.0707824 -0.2516474
452617 0.0652720 -0.2421316 0.9347280 0.2421316 0.9347280 0.2421316 0.0652720 -0.2421316
473344 0.0601692 -0.2328657 0.9398308 0.2328657 0.9398308 0.2328657 0.0601692 -0.2328657
495019 0.0554481 -0.2238565 0.9445519 0.2238565 0.9445519 0.2238565 0.0554481 -0.2238565
517687 0.0510837 -0.2151089 0.9489163 0.2151089 0.9489163 0.2151089 0.0510837 -0.2151089
541393 0.0470520 -0.2066258 0.9529480 0.2066258 0.9529480 0.2066258 0.0470520 -0.2066258
566185 0.0433303 -0.1984087 0.9566697 0.1984087 0.9566697 0.1984087 0.0433303 -0.1984087
592111 0.0398969 -0.1904575 0.9601031 0.1904575 0.9601031 0.1904575 0.0398969 -0.1904575
619225 0.0367313 -0.1827711 0.9632687 0.1827711 0.9632687 0.1827711 0.0367313 -0.1827711
647581 0.0338143 -0.1753472 0.9661857 0.1753472 0.9661857 0.1753472 0.0338143 -0.1753472
677235 0.0311275 -0.1681828 0.9688725 0.1681828 0.9688725 0.1681828 0.0311275 -0.1681828
708247 0.0286541 -0.1612740 0.9713459 0.1612740 0.9713459 0.1612740 0.0286541 -0.1612740
740679 0.0263779 -0.1546161 0.9736221 0.1546161 0.9736221 0.1546161 0.0263779 -0.1546161
774597 0.0242840 -0.1482042 0.9757160 0.1482042 0.9757160 0.1482042 0.0242840 -0.1482042
810067 0.0223585 -0.1420327 0.9776415 0.1420327 0.9776415 0.1420327 0.0223585 -0.1420327
847162 0.0205883 -0.1360957 0.9794117 0.1360957 0.9794117 0.1360957 0.0205883 -0.1360957
885955 0.0189614 -0.1303871 0.9810386 0.1303871 0.9810386 0.1303871 0.0189614 -0.1303871
926525 0.0174664 -0.1249006 0.9825336 0.1249006 0.9825336 0.1249006 0.0174664 -0.1249006
968953 0.0160931 -0.1196297 0.9839069 0.1196297 0.9839069 0.1196297 0.0160931 -0.1196297
1013323 0.0148316 -0.1145679 0.9851684 0.1145679 0.9851684 0.1145679 0.0148316 -0.1145679
1059725 0.0136732 -0.1097084 0.9863268 0.1097084 0.9863268 0.1097084 0.0136732 -0.1097084
1108252 0.0126094 -0.1050447 0.9873906 0.1050447 0.9873906 0.1050447 0.0126094 -0.1050447
1159002 0.0116327 -0.1005702 0.9883673 0.1005702 0.9883673 0.1005702 0.0116327 -0.1005702
1212075 0.0107360 -0.0962783 0.9892640 0.0962783 0.9892640 0.0962783 0.0107360 -0.0962783
1267578 0.0099128 -0.0921626 0.9900872 0.0921626 0.9900872 0.0921626 0.0099128 -0.0921626
1325623 0.0091570 -0.0882167 0.9908430 0.0882167 0.9908430 0.0882167 0.0091570 -0.0882167
1386327 0.0084633 -0.0844343 0.9915367 0.0844343 0.9915367 0.0844343 0.0084633 -0.0844343
1449809 0.0078264 -0.0808094 0.9921736 0.0808094 0.9921736 0.0808094 0.0078264 -0.0808094
1516199 0.0072417 -0.0773360 0.9927583 0.0773360 0.9927583 0.0773360 0.0072417 -0.0773360
1585629 0.0067049 -0.0740081 0.9932951 0.0740081 0.9932951 0.0740081 0.0067049 -0.0740081
1658239 0.0062119 -0.0708202 0.9937881 0.0708202 0.9937881 0.0708202 0.0062119 -0.0708202
1734173 0.0057593 -0.0677668 0.9942407 0.0677668 0.9942407 0.0677668 0.0057593 -0.0677668
1813585 0.0053436 -0.0648424 0.9946564 0.0648424 0.9946564 0.0648424 0.0053436 -0.0648424
1896632 0.0049618 -0.0620420 0.9950382 0.0620420 0.9950382 0.0620420 0.0049618 -0.0620420
1983483 0.0046111 -0.0593605 0.9953889 0.0593605 0.9953889 0.0593605 0.0046111 -0.0593605
2074311 0.0042888 -0.0567930 0.9957112 0.0567930 0.9957112 0.0567930 0.0042888 -0.0567930
