!Murata Part Number: GRM033R71C682ME14
!These Parameters are Measured in Series Mode Connection
!Data Generated on Mar 30, 2021
!       o--ll--o
!Port1            Port2
!       o------o
!Operation Temp=25[degC], DC Bias Voltage=0[V]
!Freq. Start=100[Hz] Stop=6[GHz] 401[Steps]
# Hz S RI R 50
!Freq.(Hz) S11(Real) S11(Imag) S21(Real) S21(Imag) S12(Real) S12(Imag) S22(Real) S22(Imag)
100 0.9999971 -0.0004296 0.0000029 0.0004296 0.0000029 0.0004296 0.9999971 -0.0004296
105 0.9999970 -0.0004491 0.0000030 0.0004491 0.0000030 0.0004491 0.9999970 -0.0004491
109 0.9999969 -0.0004696 0.0000031 0.0004696 0.0000031 0.0004696 0.9999969 -0.0004696
114 0.9999967 -0.0004910 0.0000033 0.0004910 0.0000033 0.0004910 0.9999967 -0.0004910
120 0.9999966 -0.0005134 0.0000034 0.0005134 0.0000034 0.0005134 0.9999966 -0.0005134
125 0.9999965 -0.0005368 0.0000035 0.0005368 0.0000035 0.0005368 0.9999965 -0.0005368
131 0.9999963 -0.0005612 0.0000037 0.0005612 0.0000037 0.0005612 0.9999963 -0.0005612
137 0.9999962 -0.0005868 0.0000038 0.0005868 0.0000038 0.0005868 0.9999962 -0.0005868
143 0.9999960 -0.0006136 0.0000040 0.0006136 0.0000040 0.0006136 0.9999960 -0.0006136
150 0.9999958 -0.0006416 0.0000042 0.0006416 0.0000042 0.0006416 0.9999958 -0.0006416
156 0.9999957 -0.0006708 0.0000043 0.0006708 0.0000043 0.0006708 0.9999957 -0.0006708
164 0.9999955 -0.0007014 0.0000045 0.0007014 0.0000045 0.0007014 0.9999955 -0.0007014
171 0.9999953 -0.0007334 0.0000047 0.0007334 0.0000047 0.0007334 0.9999953 -0.0007334
179 0.9999951 -0.0007669 0.0000049 0.0007669 0.0000049 0.0007669 0.9999951 -0.0007669
187 0.9999949 -0.0008019 0.0000051 0.0008019 0.0000051 0.0008019 0.9999949 -0.0008019
196 0.9999946 -0.0008385 0.0000054 0.0008385 0.0000054 0.0008385 0.9999946 -0.0008385
205 0.9999944 -0.0008768 0.0000056 0.0008768 0.0000056 0.0008768 0.9999944 -0.0008768
214 0.9999941 -0.0009168 0.0000059 0.0009168 0.0000059 0.0009168 0.9999941 -0.0009168
224 0.9999938 -0.0009586 0.0000062 0.0009586 0.0000062 0.0009586 0.9999938 -0.0009586
234 0.9999935 -0.0010024 0.0000065 0.0010024 0.0000065 0.0010024 0.9999935 -0.0010024
245 0.9999932 -0.0010482 0.0000068 0.0010482 0.0000068 0.0010482 0.9999932 -0.0010482
256 0.9999929 -0.0010960 0.0000071 0.0010960 0.0000071 0.0010960 0.9999929 -0.0010960
268 0.9999925 -0.0011461 0.0000075 0.0011461 0.0000075 0.0011461 0.9999925 -0.0011461
280 0.9999921 -0.0011984 0.0000079 0.0011984 0.0000079 0.0011984 0.9999921 -0.0011984
293 0.9999917 -0.0012531 0.0000083 0.0012531 0.0000083 0.0012531 0.9999917 -0.0012531
306 0.9999913 -0.0013103 0.0000087 0.0013103 0.0000087 0.0013103 0.9999913 -0.0013103
320 0.9999908 -0.0013702 0.0000092 0.0013702 0.0000092 0.0013702 0.9999908 -0.0013702
335 0.9999902 -0.0014327 0.0000098 0.0014327 0.0000098 0.0014327 0.9999902 -0.0014327
350 0.9999897 -0.0014981 0.0000103 0.0014981 0.0000103 0.0014981 0.9999897 -0.0014981
366 0.9999891 -0.0015665 0.0000109 0.0015665 0.0000109 0.0015665 0.9999891 -0.0015665
383 0.9999884 -0.0016380 0.0000116 0.0016380 0.0000116 0.0016380 0.9999884 -0.0016380
401 0.9999878 -0.0017128 0.0000122 0.0017128 0.0000122 0.0017128 0.9999878 -0.0017128
419 0.9999870 -0.0017910 0.0000130 0.0017910 0.0000130 0.0017910 0.9999870 -0.0017910
438 0.9999862 -0.0018727 0.0000138 0.0018727 0.0000138 0.0018727 0.9999862 -0.0018727
458 0.9999854 -0.0019582 0.0000146 0.0019582 0.0000146 0.0019582 0.9999854 -0.0019582
479 0.9999845 -0.0020475 0.0000155 0.0020475 0.0000155 0.0020475 0.9999845 -0.0020475
501 0.9999835 -0.0021409 0.0000165 0.0021409 0.0000165 0.0021409 0.9999835 -0.0021409
524 0.9999825 -0.0022386 0.0000175 0.0022386 0.0000175 0.0022386 0.9999825 -0.0022386
548 0.9999814 -0.0023407 0.0000186 0.0023407 0.0000186 0.0023407 0.9999814 -0.0023407
573 0.9999802 -0.0024475 0.0000198 0.0024475 0.0000198 0.0024475 0.9999802 -0.0024475
600 0.9999790 -0.0025591 0.0000210 0.0025591 0.0000210 0.0025591 0.9999790 -0.0025591
627 0.9999776 -0.0026758 0.0000224 0.0026758 0.0000224 0.0026758 0.9999776 -0.0026758
656 0.9999762 -0.0027978 0.0000238 0.0027978 0.0000238 0.0027978 0.9999762 -0.0027978
686 0.9999747 -0.0029254 0.0000253 0.0029254 0.0000253 0.0029254 0.9999747 -0.0029254
717 0.9999732 -0.0030588 0.0000268 0.0030588 0.0000268 0.0030588 0.9999732 -0.0030588
750 0.9999715 -0.0031983 0.0000285 0.0031983 0.0000285 0.0031983 0.9999715 -0.0031983
784 0.9999697 -0.0033441 0.0000303 0.0033441 0.0000303 0.0033441 0.9999697 -0.0033441
820 0.9999678 -0.0034966 0.0000322 0.0034966 0.0000322 0.0034966 0.9999678 -0.0034966
858 0.9999657 -0.0036560 0.0000343 0.0036560 0.0000343 0.0036560 0.9999657 -0.0036560
897 0.9999636 -0.0038227 0.0000364 0.0038227 0.0000364 0.0038227 0.9999636 -0.0038227
938 0.9999613 -0.0039970 0.0000387 0.0039970 0.0000387 0.0039970 0.9999613 -0.0039970
981 0.9999588 -0.0041793 0.0000412 0.0041793 0.0000412 0.0041793 0.9999588 -0.0041793
1026 0.9999562 -0.0043698 0.0000438 0.0043698 0.0000438 0.0043698 0.9999562 -0.0043698
1073 0.9999534 -0.0045691 0.0000466 0.0045691 0.0000466 0.0045691 0.9999534 -0.0045691
1122 0.9999504 -0.0047775 0.0000496 0.0047775 0.0000496 0.0047775 0.9999504 -0.0047775
1174 0.9999472 -0.0049954 0.0000528 0.0049954 0.0000528 0.0049954 0.9999472 -0.0049954
1227 0.9999438 -0.0052232 0.0000562 0.0052232 0.0000562 0.0052232 0.9999438 -0.0052232
1283 0.9999401 -0.0054615 0.0000599 0.0054615 0.0000599 0.0054615 0.9999401 -0.0054615
1342 0.9999361 -0.0057107 0.0000639 0.0057107 0.0000639 0.0057107 0.9999361 -0.0057107
1404 0.9999318 -0.0059712 0.0000682 0.0059712 0.0000682 0.0059712 0.9999318 -0.0059712
1468 0.9999272 -0.0062437 0.0000728 0.0062437 0.0000728 0.0062437 0.9999272 -0.0062437
1535 0.9999223 -0.0065286 0.0000777 0.0065286 0.0000777 0.0065286 0.9999223 -0.0065286
1606 0.9999169 -0.0068265 0.0000831 0.0068265 0.0000831 0.0068265 0.9999169 -0.0068265
1679 0.9999111 -0.0071381 0.0000889 0.0071381 0.0000889 0.0071381 0.9999111 -0.0071381
1756 0.9999048 -0.0074639 0.0000952 0.0074639 0.0000952 0.0074639 0.9999048 -0.0074639
1836 0.9998980 -0.0078046 0.0001020 0.0078046 0.0001020 0.0078046 0.9998980 -0.0078046
1920 0.9998906 -0.0081608 0.0001094 0.0081608 0.0001094 0.0081608 0.9998906 -0.0081608
2008 0.9998826 -0.0085334 0.0001174 0.0085334 0.0001174 0.0085334 0.9998826 -0.0085334
2100 0.9998739 -0.0089229 0.0001261 0.0089229 0.0001261 0.0089229 0.9998739 -0.0089229
2196 0.9998645 -0.0093303 0.0001355 0.0093303 0.0001355 0.0093303 0.9998645 -0.0093303
2297 0.9998542 -0.0097563 0.0001458 0.0097563 0.0001458 0.0097563 0.9998542 -0.0097563
2402 0.9998431 -0.0102017 0.0001569 0.0102017 0.0001569 0.0102017 0.9998431 -0.0102017
2512 0.9998309 -0.0106674 0.0001691 0.0106674 0.0001691 0.0106674 0.9998309 -0.0106674
2627 0.9998177 -0.0111544 0.0001823 0.0111544 0.0001823 0.0111544 0.9998177 -0.0111544
2748 0.9998034 -0.0116636 0.0001966 0.0116636 0.0001966 0.0116636 0.9998034 -0.0116636
2873 0.9997877 -0.0121960 0.0002123 0.0121960 0.0002123 0.0121960 0.9997877 -0.0121960
3005 0.9997707 -0.0127526 0.0002293 0.0127526 0.0002293 0.0127526 0.9997707 -0.0127526
3143 0.9997522 -0.0133347 0.0002478 0.0133347 0.0002478 0.0133347 0.9997522 -0.0133347
3287 0.9997321 -0.0139432 0.0002679 0.0139432 0.0002679 0.0139432 0.9997321 -0.0139432
3437 0.9997102 -0.0145794 0.0002898 0.0145794 0.0002898 0.0145794 0.9997102 -0.0145794
3594 0.9996863 -0.0152446 0.0003137 0.0152446 0.0003137 0.0152446 0.9996863 -0.0152446
3759 0.9996604 -0.0159401 0.0003396 0.0159401 0.0003396 0.0159401 0.9996604 -0.0159401
3931 0.9996322 -0.0166672 0.0003678 0.0166672 0.0003678 0.0166672 0.9996322 -0.0166672
4111 0.9996015 -0.0174273 0.0003985 0.0174273 0.0003985 0.0174273 0.9996015 -0.0174273
4299 0.9995681 -0.0182220 0.0004319 0.0182220 0.0004319 0.0182220 0.9995681 -0.0182220
4496 0.9995318 -0.0190527 0.0004682 0.0190527 0.0004682 0.0190527 0.9995318 -0.0190527
4702 0.9994923 -0.0199212 0.0005077 0.0199212 0.0005077 0.0199212 0.9994923 -0.0199212
4918 0.9994494 -0.0208291 0.0005506 0.0208291 0.0005506 0.0208291 0.9994494 -0.0208291
5143 0.9994028 -0.0217783 0.0005972 0.0217783 0.0005972 0.0217783 0.9994028 -0.0217783
5378 0.9993521 -0.0227704 0.0006479 0.0227704 0.0006479 0.0227704 0.9993521 -0.0227704
5625 0.9992969 -0.0238076 0.0007031 0.0238076 0.0007031 0.0238076 0.9992969 -0.0238076
5882 0.9992370 -0.0248918 0.0007630 0.0248918 0.0007630 0.0248918 0.9992370 -0.0248918
6151 0.9991718 -0.0260252 0.0008282 0.0260252 0.0008282 0.0260252 0.9991718 -0.0260252
6433 0.9991010 -0.0272099 0.0008990 0.0272099 0.0008990 0.0272099 0.9991010 -0.0272099
6728 0.9990240 -0.0284483 0.0009760 0.0284483 0.0009760 0.0284483 0.9990240 -0.0284483
7036 0.9989403 -0.0297428 0.0010597 0.0297428 0.0010597 0.0297428 0.9989403 -0.0297428
7358 0.9988492 -0.0310960 0.0011508 0.0310960 0.0011508 0.0310960 0.9988492 -0.0310960
7695 0.9987502 -0.0325104 0.0012498 0.0325104 0.0012498 0.0325104 0.9987502 -0.0325104
8047 0.9986425 -0.0339888 0.0013575 0.0339888 0.0013575 0.0339888 0.9986425 -0.0339888
8416 0.9985253 -0.0355341 0.0014747 0.0355341 0.0014747 0.0355341 0.9985253 -0.0355341
8801 0.9983977 -0.0371494 0.0016023 0.0371494 0.0016023 0.0371494 0.9983977 -0.0371494
9204 0.9982589 -0.0388376 0.0017411 0.0388376 0.0017411 0.0388376 0.9982589 -0.0388376
9626 0.9981078 -0.0406022 0.0018922 0.0406022 0.0018922 0.0406022 0.9981078 -0.0406022
10066 0.9979432 -0.0424464 0.0020568 0.0424464 0.0020568 0.0424464 0.9979432 -0.0424464
10527 0.9977640 -0.0443738 0.0022360 0.0443738 0.0022360 0.0443738 0.9977640 -0.0443738
11009 0.9975687 -0.0463881 0.0024313 0.0463881 0.0024313 0.0463881 0.9975687 -0.0463881
11514 0.9973559 -0.0484932 0.0026441 0.0484932 0.0026441 0.0484932 0.9973559 -0.0484932
12041 0.9971240 -0.0506929 0.0028760 0.0506929 0.0028760 0.0506929 0.9971240 -0.0506929
12592 0.9968711 -0.0529915 0.0031289 0.0529915 0.0031289 0.0529915 0.9968711 -0.0529915
13169 0.9965954 -0.0553933 0.0034046 0.0553933 0.0034046 0.0553933 0.9965954 -0.0553933
13772 0.9962948 -0.0579026 0.0037052 0.0579026 0.0037052 0.0579026 0.9962948 -0.0579026
14402 0.9959669 -0.0605241 0.0040331 0.0605241 0.0040331 0.0605241 0.9959669 -0.0605241
15062 0.9956092 -0.0632625 0.0043908 0.0632625 0.0043908 0.0632625 0.9956092 -0.0632625
15752 0.9952190 -0.0661228 0.0047810 0.0661228 0.0047810 0.0661228 0.9952190 -0.0661228
16473 0.9947933 -0.0691102 0.0052067 0.0691102 0.0052067 0.0691102 0.9947933 -0.0691102
17227 0.9943288 -0.0722297 0.0056712 0.0722297 0.0056712 0.0722297 0.9943288 -0.0722297
18016 0.9938220 -0.0754870 0.0061780 0.0754870 0.0061780 0.0754870 0.9938220 -0.0754870
18841 0.9932691 -0.0788875 0.0067309 0.0788875 0.0067309 0.0788875 0.9932691 -0.0788875
19704 0.9926658 -0.0824370 0.0073342 0.0824370 0.0073342 0.0824370 0.9926658 -0.0824370
20606 0.9920076 -0.0861414 0.0079924 0.0861414 0.0079924 0.0861414 0.9920076 -0.0861414
21550 0.9912896 -0.0900066 0.0087104 0.0900066 0.0087104 0.0900066 0.9912896 -0.0900066
22537 0.9905063 -0.0940389 0.0094937 0.0940389 0.0094937 0.0940389 0.9905063 -0.0940389
23569 0.9896520 -0.0982445 0.0103480 0.0982445 0.0103480 0.0982445 0.9896520 -0.0982445
24648 0.9887204 -0.1026297 0.0112796 0.1026297 0.0112796 0.1026297 0.9887204 -0.1026297
25777 0.9877045 -0.1072010 0.0122955 0.1072010 0.0122955 0.1072010 0.9877045 -0.1072010
26957 0.9865970 -0.1119649 0.0134030 0.1119649 0.0134030 0.1119649 0.9865970 -0.1119649
28191 0.9853899 -0.1169279 0.0146101 0.1169279 0.0146101 0.1169279 0.9853899 -0.1169279
29482 0.9840745 -0.1220965 0.0159255 0.1220965 0.0159255 0.1220965 0.9840745 -0.1220965
30832 0.9826415 -0.1274772 0.0173585 0.1274772 0.0173585 0.1274772 0.9826415 -0.1274772
32244 0.9810808 -0.1330765 0.0189192 0.1330765 0.0189192 0.1330765 0.9810808 -0.1330765
33721 0.9793816 -0.1389007 0.0206184 0.1389007 0.0206184 0.1389007 0.9793816 -0.1389007
35265 0.9775321 -0.1449557 0.0224679 0.1449557 0.0224679 0.1449557 0.9775321 -0.1449557
36880 0.9755200 -0.1512476 0.0244800 0.1512476 0.0244800 0.1512476 0.9755200 -0.1512476
38569 0.9733316 -0.1577817 0.0266684 0.1577817 0.0266684 0.1577817 0.9733316 -0.1577817
40335 0.9709527 -0.1645634 0.0290473 0.1645634 0.0290473 0.1645634 0.9709527 -0.1645634
42182 0.9683677 -0.1715972 0.0316323 0.1715972 0.0316323 0.1715972 0.9683677 -0.1715972
44113 0.9655603 -0.1788872 0.0344397 0.1788872 0.0344397 0.1788872 0.9655603 -0.1788872
46134 0.9625130 -0.1864367 0.0374870 0.1864367 0.0374870 0.1864367 0.9625130 -0.1864367
48246 0.9592070 -0.1942485 0.0407930 0.1942485 0.0407930 0.1942485 0.9592070 -0.1942485
50455 0.9556227 -0.2023239 0.0443773 0.2023239 0.0443773 0.2023239 0.9556227 -0.2023239
52766 0.9517392 -0.2106636 0.0482608 0.2106636 0.0482608 0.2106636 0.9517392 -0.2106636
55182 0.9475344 -0.2192666 0.0524656 0.2192666 0.0524656 0.2192666 0.9475344 -0.2192666
57709 0.9429853 -0.2281307 0.0570147 0.2281307 0.0570147 0.2281307 0.9429853 -0.2281307
60352 0.9380675 -0.2372521 0.0619325 0.2372521 0.0619325 0.2372521 0.9380675 -0.2372521
63115 0.9327558 -0.2466248 0.0672442 0.2466248 0.0672442 0.2466248 0.9327558 -0.2466248
66005 0.9270239 -0.2562410 0.0729761 0.2562410 0.0729761 0.2562410 0.9270239 -0.2562410
69028 0.9208449 -0.2660905 0.0791551 0.2660905 0.0791551 0.2660905 0.9208449 -0.2660905
72189 0.9141908 -0.2761606 0.0858092 0.2761606 0.0858092 0.2761606 0.9141908 -0.2761606
75495 0.9070333 -0.2864357 0.0929667 0.2864357 0.0929667 0.2864357 0.9070333 -0.2864357
78952 0.8993439 -0.2968970 0.1006561 0.2968970 0.1006561 0.2968970 0.8993439 -0.2968970
82567 0.8910939 -0.3075228 0.1089061 0.3075228 0.1089061 0.3075228 0.8910939 -0.3075228
86348 0.8822548 -0.3182875 0.1177452 0.3182875 0.1177452 0.3182875 0.8822548 -0.3182875
90302 0.8727989 -0.3291621 0.1272011 0.3291621 0.1272011 0.3291621 0.8727989 -0.3291621
94437 0.8626997 -0.3401133 0.1373003 0.3401133 0.1373003 0.3401133 0.8626997 -0.3401133
98762 0.8519320 -0.3511041 0.1480680 0.3511041 0.1480680 0.3511041 0.8519320 -0.3511041
103284 0.8404728 -0.3620933 0.1595272 0.3620933 0.1595272 0.3620933 0.8404728 -0.3620933
108014 0.8283019 -0.3730355 0.1716981 0.3730355 0.1716981 0.3730355 0.8283019 -0.3730355
112960 0.8154024 -0.3838813 0.1845976 0.3838813 0.1845976 0.3838813 0.8154024 -0.3838813
118133 0.8017612 -0.3945775 0.1982388 0.3945775 0.1982388 0.3945775 0.8017612 -0.3945775
123542 0.7873699 -0.4050672 0.2126301 0.4050672 0.2126301 0.4050672 0.7873699 -0.4050672
129199 0.7722256 -0.4152904 0.2277744 0.4152904 0.2277744 0.4152904 0.7722256 -0.4152904
135116 0.7563311 -0.4251843 0.2436689 0.4251843 0.2436689 0.4251843 0.7563311 -0.4251843
141303 0.7396960 -0.4346840 0.2603040 0.4346840 0.2603040 0.4346840 0.7396960 -0.4346840
147774 0.7223366 -0.4437236 0.2776634 0.4437236 0.2776634 0.4437236 0.7223366 -0.4437236
154540 0.7042772 -0.4522365 0.2957228 0.4522365 0.2957228 0.4522365 0.7042772 -0.4522365
161617 0.6855495 -0.4601569 0.3144505 0.4601569 0.3144505 0.4601569 0.6855495 -0.4601569
169018 0.6661934 -0.4674206 0.3338066 0.4674206 0.3338066 0.4674206 0.6661934 -0.4674206
176758 0.6462566 -0.4739662 0.3537434 0.4739662 0.3537434 0.4739662 0.6462566 -0.4739662
184852 0.6257946 -0.4797363 0.3742054 0.4797363 0.3742054 0.4797363 0.6257946 -0.4797363
193316 0.6048702 -0.4846788 0.3951298 0.4846788 0.3951298 0.4846788 0.6048702 -0.4846788
202169 0.5835529 -0.4887475 0.4164471 0.4887475 0.4164471 0.4887475 0.5835529 -0.4887475
211427 0.5619179 -0.4919039 0.4380821 0.4919039 0.4380821 0.4919039 0.5619179 -0.4919039
221108 0.5400454 -0.4941174 0.4599546 0.4941174 0.4599546 0.4941174 0.5400454 -0.4941174
231233 0.5180193 -0.4953663 0.4819807 0.4953663 0.4819807 0.4953663 0.5180193 -0.4953663
241822 0.4959259 -0.4956382 0.5040741 0.4956382 0.5040741 0.4956382 0.4959259 -0.4956382
252896 0.4738526 -0.4949307 0.5261474 0.4949307 0.5261474 0.4949307 0.4738526 -0.4949307
264476 0.4518863 -0.4932508 0.5481137 0.4932508 0.5481137 0.4932508 0.4518863 -0.4932508
276587 0.4301125 -0.4906154 0.5698875 0.4906154 0.5698875 0.4906154 0.4301125 -0.4906154
289253 0.4086134 -0.4870502 0.5913866 0.4870502 0.5913866 0.4870502 0.4086134 -0.4870502
302498 0.3874670 -0.4825899 0.6125330 0.4825899 0.6125330 0.4825899 0.3874670 -0.4825899
316350 0.3667461 -0.4772766 0.6332539 0.4772766 0.6332539 0.4772766 0.3667461 -0.4772766
330837 0.3465168 -0.4711593 0.6534832 0.4711593 0.6534832 0.4711593 0.3465168 -0.4711593
345986 0.3268388 -0.4642928 0.6731612 0.4642928 0.6731612 0.4642928 0.3268388 -0.4642928
361830 0.3077638 -0.4567366 0.6922362 0.4567366 0.6922362 0.4567366 0.3077638 -0.4567366
378399 0.2893358 -0.4485533 0.7106642 0.4485533 0.7106642 0.4485533 0.2893358 -0.4485533
395726 0.2715910 -0.4398081 0.7284090 0.4398081 0.7284090 0.4398081 0.2715910 -0.4398081
413847 0.2545575 -0.4305673 0.7454425 0.4305673 0.7454425 0.4305673 0.2545575 -0.4305673
432798 0.2382557 -0.4208971 0.7617443 0.4208971 0.7617443 0.4208971 0.2382557 -0.4208971
452617 0.2226987 -0.4108631 0.7773013 0.4108631 0.7773013 0.4108631 0.2226987 -0.4108631
473344 0.2078930 -0.4005292 0.7921070 0.4005292 0.7921070 0.4005292 0.2078930 -0.4005292
495019 0.1938384 -0.3899569 0.8061616 0.3899569 0.8061616 0.3899569 0.1938384 -0.3899569
517687 0.1805294 -0.3792047 0.8194706 0.3792047 0.8194706 0.3792047 0.1805294 -0.3792047
541393 0.1679554 -0.3683277 0.8320446 0.3683277 0.8320446 0.3683277 0.1679554 -0.3683277
566185 0.1561014 -0.3573775 0.8438986 0.3573775 0.8438986 0.3573775 0.1561014 -0.3573775
592111 0.1449490 -0.3464013 0.8550510 0.3464013 0.8550510 0.3464013 0.1449490 -0.3464013
619225 0.1344764 -0.3354425 0.8655236 0.3354425 0.8655236 0.3354425 0.1344764 -0.3354425
647581 0.1246597 -0.3245403 0.8753403 0.3245403 0.8753403 0.3245403 0.1246597 -0.3245403
677235 0.1154732 -0.3137299 0.8845268 0.3137299 0.8845268 0.3137299 0.1154732 -0.3137299
708247 0.1068896 -0.3030424 0.8931104 0.3030424 0.8931104 0.3030424 0.1068896 -0.3030424
740679 0.0988810 -0.2925051 0.9011190 0.2925051 0.9011190 0.2925051 0.0988810 -0.2925051
774597 0.0914189 -0.2821418 0.9085811 0.2821418 0.9085811 0.2821418 0.0914189 -0.2821418
810067 0.0844747 -0.2719727 0.9155253 0.2719727 0.9155253 0.2719727 0.0844747 -0.2719727
847162 0.0780200 -0.2620150 0.9219800 0.2620150 0.9219800 0.2620150 0.0780200 -0.2620150
885955 0.0720268 -0.2522830 0.9279732 0.2522830 0.9279732 0.2522830 0.0720268 -0.2522830
926525 0.0664677 -0.2427880 0.9335323 0.2427880 0.9335323 0.2427880 0.0664677 -0.2427880
968953 0.0613161 -0.2335392 0.9386839 0.2335392 0.9386839 0.2335392 0.0613161 -0.2335392
1013323 0.0565464 -0.2245436 0.9434536 0.2245436 0.9434536 0.2245436 0.0565464 -0.2245436
1059725 0.0521339 -0.2158059 0.9478661 0.2158059 0.9478661 0.2158059 0.0521339 -0.2158059
1108252 0.0480548 -0.2073295 0.9519452 0.2073295 0.9519452 0.2073295 0.0480548 -0.2073295
1159002 0.0442868 -0.1991158 0.9557132 0.1991158 0.9557132 0.1991158 0.0442868 -0.1991158
1212075 0.0408083 -0.1911652 0.9591917 0.1911652 0.9591917 0.1911652 0.0408083 -0.1911652
1267578 0.0375991 -0.1834767 0.9624009 0.1834767 0.9624009 0.1834767 0.0375991 -0.1834767
1325623 0.0346401 -0.1760483 0.9653599 0.1760483 0.9653599 0.1760483 0.0346401 -0.1760483
1386327 0.0319131 -0.1688771 0.9680869 0.1688771 0.9680869 0.1688771 0.0319131 -0.1688771
1449809 0.0294013 -0.1619596 0.9705987 0.1619596 0.9705987 0.1619596 0.0294013 -0.1619596
1516199 0.0270886 -0.1552914 0.9729114 0.1552914 0.9729114 0.1552914 0.0270886 -0.1552914
1585629 0.0249602 -0.1488676 0.9750398 0.1488676 0.9750398 0.1488676 0.0249602 -0.1488676
1658239 0.0230021 -0.1426831 0.9769979 0.1426831 0.9769979 0.1426831 0.0230021 -0.1426831
1734173 0.0212012 -0.1367322 0.9787988 0.1367322 0.9787988 0.1367322 0.0212012 -0.1367322
1813585 0.0195456 -0.1310089 0.9804544 0.1310089 0.9804544 0.1310089 0.0195456 -0.1310089
1896632 0.0180237 -0.1255072 0.9819763 0.1255072 0.9819763 0.1255072 0.0180237 -0.1255072
1983483 0.0166252 -0.1202207 0.9833748 0.1202207 0.9833748 0.1202207 0.0166252 -0.1202207
2074311 0.0153403 -0.1151430 0.9846597 0.1151430 0.9846597 0.1151430 0.0153403 -0.1151430
