!Murata Part Number: GRM033R60J225ME15
!These Parameters are Measured in Series Mode Connection
!Data Generated on Mar 30, 2021
!       o--ll--o
!Port1            Port2
!       o------o
!Operation Temp=25[degC], DC Bias Voltage=0[V]
!Freq. Start=100[Hz] Stop=6[GHz] 401[Steps]
# Hz S RI R 50
!Freq.(Hz) S11(Real) S11(Imag) S21(Real) S21(Imag) S12(Real) S12(Imag) S22(Real) S22(Imag)
100 0.9878890 -0.1030381 0.0121110 0.1030381 0.0121110 0.1030381 0.9878890 -0.1030381
105 0.9868462 -0.1076007 0.0131538 0.1076007 0.0131538 0.1076007 0.9868462 -0.1076007
109 0.9857111 -0.1123543 0.0142889 0.1123543 0.0142889 0.1123543 0.9857111 -0.1123543
114 0.9844758 -0.1173052 0.0155242 0.1173052 0.0155242 0.1173052 0.9844758 -0.1173052
120 0.9831316 -0.1224600 0.0168684 0.1224600 0.0168684 0.1224600 0.9831316 -0.1224600
125 0.9816693 -0.1278248 0.0183307 0.1278248 0.0183307 0.1278248 0.9816693 -0.1278248
131 0.9800791 -0.1334059 0.0199209 0.1334059 0.0199209 0.1334059 0.9800791 -0.1334059
137 0.9783502 -0.1392094 0.0216498 0.1392094 0.0216498 0.1392094 0.9783502 -0.1392094
143 0.9764711 -0.1452413 0.0235289 0.1452413 0.0235289 0.1452413 0.9764711 -0.1452413
150 0.9744295 -0.1515074 0.0255705 0.1515074 0.0255705 0.1515074 0.9744295 -0.1515074
156 0.9722122 -0.1580129 0.0277878 0.1580129 0.0277878 0.1580129 0.9722122 -0.1580129
164 0.9698051 -0.1647631 0.0301949 0.1647631 0.0301949 0.1647631 0.9698051 -0.1647631
171 0.9671930 -0.1717624 0.0328070 0.1717624 0.0328070 0.1717624 0.9671930 -0.1717624
179 0.9643597 -0.1790149 0.0356403 0.1790149 0.0356403 0.1790149 0.9643597 -0.1790149
187 0.9612882 -0.1865241 0.0387118 0.1865241 0.0387118 0.1865241 0.9612882 -0.1865241
196 0.9579599 -0.1942924 0.0420401 0.1942924 0.0420401 0.1942924 0.9579599 -0.1942924
205 0.9543556 -0.2023216 0.0456444 0.2023216 0.0456444 0.2023216 0.9543556 -0.2023216
214 0.9504547 -0.2106122 0.0495453 0.2106122 0.0495453 0.2106122 0.9504547 -0.2106122
224 0.9462353 -0.2191635 0.0537647 0.2191635 0.0537647 0.2191635 0.9462353 -0.2191635
234 0.9416747 -0.2279736 0.0583253 0.2279736 0.0583253 0.2279736 0.9416747 -0.2279736
245 0.9367488 -0.2370386 0.0632512 0.2370386 0.0632512 0.2370386 0.9367488 -0.2370386
256 0.9314326 -0.2463530 0.0685674 0.2463530 0.0685674 0.2463530 0.9314326 -0.2463530
268 0.9257000 -0.2559092 0.0743000 0.2559092 0.0743000 0.2559092 0.9257000 -0.2559092
280 0.9195242 -0.2656972 0.0804758 0.2656972 0.0804758 0.2656972 0.9195242 -0.2656972
293 0.9128775 -0.2757046 0.0871225 0.2757046 0.0871225 0.2757046 0.9128775 -0.2757046
306 0.9057316 -0.2859160 0.0942684 0.2859160 0.0942684 0.2859160 0.9057316 -0.2859160
320 0.8980580 -0.2963130 0.1019420 0.2963130 0.1019420 0.2963130 0.8980580 -0.2963130
335 0.8898280 -0.3068740 0.1101720 0.3068740 0.1101720 0.3068740 0.8898280 -0.3068740
350 0.8810135 -0.3175738 0.1189865 0.3175738 0.1189865 0.3175738 0.8810135 -0.3175738
366 0.8715867 -0.3283833 0.1284133 0.3283833 0.1284133 0.3283833 0.8715867 -0.3283833
383 0.8615210 -0.3392697 0.1384790 0.3392697 0.1384790 0.3392697 0.8615210 -0.3392697
401 0.8507914 -0.3501961 0.1492086 0.3501961 0.1492086 0.3501961 0.8507914 -0.3501961
419 0.8393751 -0.3611215 0.1606249 0.3611215 0.1606249 0.3611215 0.8393751 -0.3611215
438 0.8272520 -0.3720008 0.1727480 0.3720008 0.1727480 0.3720008 0.8272520 -0.3720008
458 0.8144052 -0.3827848 0.1855948 0.3827848 0.1855948 0.3827848 0.8144052 -0.3827848
479 0.8008219 -0.3934205 0.1991781 0.3934205 0.1991781 0.3934205 0.8008219 -0.3934205
501 0.7864940 -0.4038514 0.2135060 0.4038514 0.2135060 0.4038514 0.7864940 -0.4038514
524 0.7714187 -0.4140179 0.2285813 0.4140179 0.2285813 0.4140179 0.7714187 -0.4140179
548 0.7555990 -0.4238576 0.2444010 0.4238576 0.2444010 0.4238576 0.7555990 -0.4238576
573 0.7390447 -0.4333065 0.2609553 0.4333065 0.2609553 0.4333065 0.7390447 -0.4333065
600 0.7217723 -0.4422990 0.2782277 0.4422990 0.2782277 0.4422990 0.7217723 -0.4422990
627 0.7038061 -0.4507695 0.2961939 0.4507695 0.2961939 0.4507695 0.7038061 -0.4507695
656 0.6851778 -0.4586531 0.3148222 0.4586531 0.3148222 0.4586531 0.6851778 -0.4586531
686 0.6659271 -0.4658863 0.3340729 0.4658863 0.3340729 0.4658863 0.6659271 -0.4658863
717 0.6461014 -0.4724090 0.3538986 0.4724090 0.3538986 0.4724090 0.6461014 -0.4724090
750 0.6257558 -0.4781648 0.3742442 0.4781648 0.3742442 0.4781648 0.6257558 -0.4781648
784 0.6049523 -0.4831024 0.3950477 0.4831024 0.3950477 0.4831024 0.6049523 -0.4831024
820 0.5837594 -0.4871770 0.4162406 0.4871770 0.4162406 0.4871770 0.5837594 -0.4871770
858 0.5622513 -0.4903506 0.4377487 0.4903506 0.4377487 0.4903506 0.5622513 -0.4903506
897 0.5405069 -0.4925937 0.4594931 0.4925937 0.4594931 0.4925937 0.5405069 -0.4925937
938 0.5186086 -0.4938850 0.4813914 0.4938850 0.4813914 0.4938850 0.5186086 -0.4938850
981 0.4966409 -0.4942126 0.5033591 0.4942126 0.5033591 0.4942126 0.4966409 -0.4942126
1026 0.4746895 -0.4935742 0.5253105 0.4935742 0.5253105 0.4935742 0.4746895 -0.4935742
1073 0.4528395 -0.4919766 0.5471605 0.4919766 0.5471605 0.4919766 0.4528395 -0.4919766
1122 0.4311743 -0.4894361 0.5688257 0.4894361 0.5688257 0.4894361 0.4311743 -0.4894361
1174 0.4097744 -0.4859779 0.5902256 0.4859779 0.5902256 0.4859779 0.4097744 -0.4859779
1227 0.3887162 -0.4816352 0.6112838 0.4816352 0.6112838 0.4816352 0.3887162 -0.4816352
1283 0.3680706 -0.4764488 0.6319294 0.4764488 0.6319294 0.4764488 0.3680706 -0.4764488
1342 0.3479029 -0.4704662 0.6520971 0.4704662 0.6520971 0.4704662 0.3479029 -0.4704662
1404 0.3282713 -0.4637400 0.6717287 0.4637400 0.6717287 0.4637400 0.3282713 -0.4637400
1468 0.3092270 -0.4563278 0.6907730 0.4563278 0.6907730 0.4563278 0.3092270 -0.4563278
1535 0.2908138 -0.4482900 0.7091862 0.4482900 0.7091862 0.4482900 0.2908138 -0.4482900
1606 0.2730676 -0.4396896 0.7269324 0.4396896 0.7269324 0.4396896 0.2730676 -0.4396896
1679 0.2560170 -0.4305907 0.7439830 0.4305907 0.7439830 0.4305907 0.2560170 -0.4305907
1756 0.2396831 -0.4210575 0.7603169 0.4210575 0.7603169 0.4210575 0.2396831 -0.4210575
1836 0.2240801 -0.4111539 0.7759199 0.4111539 0.7759199 0.4111539 0.2240801 -0.4111539
1920 0.2092156 -0.4009418 0.7907844 0.4009418 0.7907844 0.4009418 0.2092156 -0.4009418
2008 0.1950910 -0.3904816 0.8049090 0.3904816 0.8049090 0.3904816 0.1950910 -0.3904816
2100 0.1817026 -0.3798305 0.8182974 0.3798305 0.8182974 0.3798305 0.1817026 -0.3798305
2196 0.1690414 -0.3690430 0.8309586 0.3690430 0.8309586 0.3690430 0.1690414 -0.3690430
2297 0.1570943 -0.3581698 0.8429057 0.3581698 0.8429057 0.3581698 0.1570943 -0.3581698
2402 0.1458446 -0.3472583 0.8541554 0.3472583 0.8541554 0.3472583 0.1458446 -0.3472583
2512 0.1352724 -0.3363519 0.8647276 0.3363519 0.8647276 0.3363519 0.1352724 -0.3363519
2627 0.1253554 -0.3254901 0.8746446 0.3254901 0.8746446 0.3254901 0.1253554 -0.3254901
2748 0.1160693 -0.3147085 0.8839307 0.3147085 0.8839307 0.3147085 0.1160693 -0.3147085
2873 0.1073883 -0.3040392 0.8926117 0.3040392 0.8926117 0.3040392 0.1073883 -0.3040392
3005 0.0992856 -0.2935103 0.9007144 0.2935103 0.9007144 0.2935103 0.0992856 -0.2935103
3143 0.0917336 -0.2831466 0.9082664 0.2831466 0.9082664 0.2831466 0.0917336 -0.2831466
3287 0.0847044 -0.2729693 0.9152956 0.2729693 0.9152956 0.2729693 0.0847044 -0.2729693
3437 0.0781703 -0.2629967 0.9218297 0.2629967 0.9218297 0.2629967 0.0781703 -0.2629967
3594 0.0721035 -0.2532442 0.9278965 0.2532442 0.9278965 0.2532442 0.0721035 -0.2532442
3759 0.0664769 -0.2437242 0.9335231 0.2437242 0.9335231 0.2437242 0.0664769 -0.2437242
3931 0.0612640 -0.2344468 0.9387360 0.2344468 0.9387360 0.2344468 0.0612640 -0.2344468
4111 0.0564389 -0.2254199 0.9435611 0.2254199 0.9435611 0.2254199 0.0564389 -0.2254199
4299 0.0519769 -0.2166492 0.9480231 0.2166492 0.9480231 0.2166492 0.0519769 -0.2166492
4496 0.0478539 -0.2081386 0.9521461 0.2081386 0.9521461 0.2081386 0.0478539 -0.2081386
4702 0.0440472 -0.1998904 0.9559528 0.1998904 0.9559528 0.1998904 0.0440472 -0.1998904
4918 0.0405348 -0.1919054 0.9594652 0.1919054 0.9594652 0.1919054 0.0405348 -0.1919054
5143 0.0372962 -0.1841830 0.9627038 0.1841830 0.9627038 0.1841830 0.0372962 -0.1841830
5378 0.0343118 -0.1767217 0.9656882 0.1767217 0.9656882 0.1767217 0.0343118 -0.1767217
5625 0.0315629 -0.1695189 0.9684371 0.1695189 0.9684371 0.1695189 0.0315629 -0.1695189
5882 0.0290323 -0.1625710 0.9709677 0.1625710 0.9709677 0.1625710 0.0290323 -0.1625710
6151 0.0267037 -0.1558741 0.9732963 0.1558741 0.9732963 0.1558741 0.0267037 -0.1558741
6433 0.0245616 -0.1494233 0.9754384 0.1494233 0.9754384 0.1494233 0.0245616 -0.1494233
6728 0.0225919 -0.1432135 0.9774081 0.1432135 0.9774081 0.1432135 0.0225919 -0.1432135
7036 0.0207811 -0.1372390 0.9792189 0.1372390 0.9792189 0.1372390 0.0207811 -0.1372390
7358 0.0191169 -0.1314937 0.9808831 0.1314937 0.9808831 0.1314937 0.0191169 -0.1314937
7695 0.0175877 -0.1259717 0.9824123 0.1259717 0.9824123 0.1259717 0.0175877 -0.1259717
8047 0.0161827 -0.1206664 0.9838173 0.1206664 0.9838173 0.1206664 0.0161827 -0.1206664
8416 0.0148920 -0.1155713 0.9851080 0.1155713 0.9851080 0.1155713 0.0148920 -0.1155713
8801 0.0137064 -0.1106799 0.9862936 0.1106799 0.9862936 0.1106799 0.0137064 -0.1106799
9204 0.0126174 -0.1059855 0.9873826 0.1059855 0.9873826 0.1059855 0.0126174 -0.1059855
9626 0.0116172 -0.1014816 0.9883828 0.1014816 0.9883828 0.1014816 0.0116172 -0.1014816
10066 0.0106983 -0.0971615 0.9893017 0.0971615 0.9893017 0.0971615 0.0106983 -0.0971615
10527 0.0098543 -0.0930187 0.9901457 0.0930187 0.9901457 0.0930187 0.0098543 -0.0930187
11009 0.0090789 -0.0890469 0.9909211 0.0890469 0.9909211 0.0890469 0.0090789 -0.0890469
11514 0.0083664 -0.0852396 0.9916336 0.0852396 0.9916336 0.0852396 0.0083664 -0.0852396
12041 0.0077117 -0.0815908 0.9922883 0.0815908 0.9922883 0.0815908 0.0077117 -0.0815908
12592 0.0071100 -0.0780943 0.9928900 0.0780943 0.9928900 0.0780943 0.0071100 -0.0780943
13169 0.0065569 -0.0747443 0.9934431 0.0747443 0.9934431 0.0747443 0.0065569 -0.0747443
13772 0.0060484 -0.0715351 0.9939516 0.0715351 0.9939516 0.0715351 0.0060484 -0.0715351
14402 0.0055808 -0.0684609 0.9944192 0.0684609 0.9944192 0.0684609 0.0055808 -0.0684609
15062 0.0051507 -0.0655165 0.9948493 0.0655165 0.9948493 0.0655165 0.0051507 -0.0655165
15752 0.0047551 -0.0626966 0.9952449 0.0626966 0.9952449 0.0626966 0.0047551 -0.0626966
16473 0.0043912 -0.0599962 0.9956088 0.0599962 0.9956088 0.0599962 0.0043912 -0.0599962
17227 0.0040563 -0.0574103 0.9959437 0.0574103 0.9959437 0.0574103 0.0040563 -0.0574103
18016 0.0037481 -0.0549343 0.9962519 0.0549343 0.9962519 0.0549343 0.0037481 -0.0549343
18841 0.0034645 -0.0525636 0.9965355 0.0525636 0.9965355 0.0525636 0.0034645 -0.0525636
19704 0.0032034 -0.0502939 0.9967966 0.0502939 0.9967966 0.0502939 0.0032034 -0.0502939
20606 0.0029631 -0.0481209 0.9970369 0.0481209 0.9970369 0.0481209 0.0029631 -0.0481209
21550 0.0027419 -0.0460408 0.9972581 0.0460408 0.9972581 0.0460408 0.0027419 -0.0460408
22537 0.0025383 -0.0440495 0.9974617 0.0440495 0.9974617 0.0440495 0.0025383 -0.0440495
23569 0.0023508 -0.0421433 0.9976492 0.0421433 0.9976492 0.0421433 0.0023508 -0.0421433
24648 0.0021783 -0.0403188 0.9978217 0.0403188 0.9978217 0.0403188 0.0021783 -0.0403188
25777 0.0020195 -0.0385725 0.9979805 0.0385725 0.9979805 0.0385725 0.0020195 -0.0385725
26957 0.0018734 -0.0369011 0.9981266 0.0369011 0.9981266 0.0369011 0.0018734 -0.0369011
28191 0.0017388 -0.0353015 0.9982612 0.0353015 0.9982612 0.0353015 0.0017388 -0.0353015
29482 0.0016151 -0.0337707 0.9983849 0.0337707 0.9983849 0.0337707 0.0016151 -0.0337707
30832 0.0015012 -0.0323057 0.9984988 0.0323057 0.9984988 0.0323057 0.0015012 -0.0323057
32244 0.0013964 -0.0309037 0.9986036 0.0309037 0.9986036 0.0309037 0.0013964 -0.0309037
33721 0.0013000 -0.0295623 0.9987000 0.0295623 0.9987000 0.0295623 0.0013000 -0.0295623
35265 0.0012113 -0.0282787 0.9987887 0.0282787 0.9987887 0.0282787 0.0012113 -0.0282787
36880 0.0011297 -0.0270505 0.9988703 0.0270505 0.9988703 0.0270505 0.0011297 -0.0270505
38569 0.0010547 -0.0258755 0.9989453 0.0258755 0.9989453 0.0258755 0.0010547 -0.0258755
40335 0.0009857 -0.0247513 0.9990143 0.0247513 0.9990143 0.0247513 0.0009857 -0.0247513
42182 0.0009221 -0.0236758 0.9990779 0.0236758 0.9990779 0.0236758 0.0009221 -0.0236758
44113 0.0008637 -0.0226469 0.9991363 0.0226469 0.9991363 0.0226469 0.0008637 -0.0226469
46134 0.0008099 -0.0216626 0.9991901 0.0216626 0.9991901 0.0216626 0.0008099 -0.0216626
48246 0.0007604 -0.0207211 0.9992396 0.0207211 0.9992396 0.0207211 0.0007604 -0.0207211
50455 0.0007147 -0.0198204 0.9992853 0.0198204 0.9992853 0.0198204 0.0007147 -0.0198204
52766 0.0006727 -0.0189590 0.9993273 0.0189590 0.9993273 0.0189590 0.0006727 -0.0189590
55182 0.0006340 -0.0181350 0.9993660 0.0181350 0.9993660 0.0181350 0.0006340 -0.0181350
57709 0.0005983 -0.0173468 0.9994017 0.0173468 0.9994017 0.0173468 0.0005983 -0.0173468
60352 0.0005653 -0.0165930 0.9994347 0.0165930 0.9994347 0.0165930 0.0005653 -0.0165930
63115 0.0005349 -0.0158720 0.9994651 0.0158720 0.9994651 0.0158720 0.0005349 -0.0158720
66005 0.0005067 -0.0151825 0.9994933 0.0151825 0.9994933 0.0151825 0.0005067 -0.0151825
69028 0.0004807 -0.0145230 0.9995193 0.0145230 0.9995193 0.0145230 0.0004807 -0.0145230
72189 0.0004566 -0.0138922 0.9995434 0.0138922 0.9995434 0.0138922 0.0004566 -0.0138922
75495 0.0004342 -0.0132890 0.9995658 0.0132890 0.9995658 0.0132890 0.0004342 -0.0132890
78952 0.0004134 -0.0127121 0.9995866 0.0127121 0.9995866 0.0127121 0.0004134 -0.0127121
82567 0.0003941 -0.0121603 0.9996059 0.0121603 0.9996059 0.0121603 0.0003941 -0.0121603
86348 0.0003760 -0.0116326 0.9996240 0.0116326 0.9996240 0.0116326 0.0003760 -0.0116326
90302 0.0003593 -0.0111279 0.9996407 0.0111279 0.9996407 0.0111279 0.0003593 -0.0111279
94437 0.0003436 -0.0106452 0.9996564 0.0106452 0.9996564 0.0106452 0.0003436 -0.0106452
98762 0.0003289 -0.0101835 0.9996711 0.0101835 0.9996711 0.0101835 0.0003289 -0.0101835
103284 0.0003152 -0.0097419 0.9996848 0.0097419 0.9996848 0.0097419 0.0003152 -0.0097419
108014 0.0003023 -0.0093195 0.9996977 0.0093195 0.9996977 0.0093195 0.0003023 -0.0093195
112960 0.0002902 -0.0089155 0.9997098 0.0089155 0.9997098 0.0089155 0.0002902 -0.0089155
118133 0.0002788 -0.0085291 0.9997212 0.0085291 0.9997212 0.0085291 0.0002788 -0.0085291
123542 0.0002680 -0.0081594 0.9997320 0.0081594 0.9997320 0.0081594 0.0002680 -0.0081594
129199 0.0002579 -0.0078058 0.9997421 0.0078058 0.9997421 0.0078058 0.0002579 -0.0078058
135116 0.0002484 -0.0074675 0.9997516 0.0074675 0.9997516 0.0074675 0.0002484 -0.0074675
141303 0.0002394 -0.0071439 0.9997606 0.0071439 0.9997606 0.0071439 0.0002394 -0.0071439
147774 0.0002309 -0.0068343 0.9997691 0.0068343 0.9997691 0.0068343 0.0002309 -0.0068343
154540 0.0002229 -0.0065381 0.9997771 0.0065381 0.9997771 0.0065381 0.0002229 -0.0065381
161617 0.0002153 -0.0062548 0.9997847 0.0062548 0.9997847 0.0062548 0.0002153 -0.0062548
169018 0.0002081 -0.0059836 0.9997919 0.0059836 0.9997919 0.0059836 0.0002081 -0.0059836
176758 0.0002013 -0.0057242 0.9997987 0.0057242 0.9997987 0.0057242 0.0002013 -0.0057242
184852 0.0001949 -0.0054760 0.9998051 0.0054760 0.9998051 0.0054760 0.0001949 -0.0054760
193316 0.0001889 -0.0052386 0.9998111 0.0052386 0.9998111 0.0052386 0.0001889 -0.0052386
202169 0.0001832 -0.0050113 0.9998168 0.0050113 0.9998168 0.0050113 0.0001832 -0.0050113
211427 0.0001778 -0.0047939 0.9998222 0.0047939 0.9998222 0.0047939 0.0001778 -0.0047939
221108 0.0001727 -0.0045859 0.9998273 0.0045859 0.9998273 0.0045859 0.0001727 -0.0045859
231233 0.0001679 -0.0043869 0.9998321 0.0043869 0.9998321 0.0043869 0.0001679 -0.0043869
241822 0.0001634 -0.0041964 0.9998366 0.0041964 0.9998366 0.0041964 0.0001634 -0.0041964
252896 0.0001591 -0.0040142 0.9998409 0.0040142 0.9998409 0.0040142 0.0001591 -0.0040142
264476 0.0001551 -0.0038398 0.9998449 0.0038398 0.9998449 0.0038398 0.0001551 -0.0038398
276587 0.0001513 -0.0036730 0.9998487 0.0036730 0.9998487 0.0036730 0.0001513 -0.0036730
289253 0.0001478 -0.0035134 0.9998522 0.0035134 0.9998522 0.0035134 0.0001478 -0.0035134
302498 0.0001444 -0.0033607 0.9998556 0.0033607 0.9998556 0.0033607 0.0001444 -0.0033607
316350 0.0001412 -0.0032146 0.9998588 0.0032146 0.9998588 0.0032146 0.0001412 -0.0032146
330837 0.0001383 -0.0030748 0.9998617 0.0030748 0.9998617 0.0030748 0.0001383 -0.0030748
345986 0.0001354 -0.0029410 0.9998646 0.0029410 0.9998646 0.0029410 0.0001354 -0.0029410
361830 0.0001328 -0.0028130 0.9998672 0.0028130 0.9998672 0.0028130 0.0001328 -0.0028130
378399 0.0001303 -0.0026906 0.9998697 0.0026906 0.9998697 0.0026906 0.0001303 -0.0026906
395726 0.0001279 -0.0025735 0.9998721 0.0025735 0.9998721 0.0025735 0.0001279 -0.0025735
413847 0.0001256 -0.0024614 0.9998744 0.0024614 0.9998744 0.0024614 0.0001256 -0.0024614
432798 0.0001235 -0.0023541 0.9998765 0.0023541 0.9998765 0.0023541 0.0001235 -0.0023541
452617 0.0001214 -0.0022515 0.9998786 0.0022515 0.9998786 0.0022515 0.0001214 -0.0022515
473344 0.0001195 -0.0021533 0.9998805 0.0021533 0.9998805 0.0021533 0.0001195 -0.0021533
495019 0.0001177 -0.0020594 0.9998823 0.0020594 0.9998823 0.0020594 0.0001177 -0.0020594
517687 0.0001159 -0.0019695 0.9998841 0.0019695 0.9998841 0.0019695 0.0001159 -0.0019695
541393 0.0001142 -0.0018834 0.9998858 0.0018834 0.9998858 0.0018834 0.0001142 -0.0018834
566185 0.0001126 -0.0018011 0.9998874 0.0018011 0.9998874 0.0018011 0.0001126 -0.0018011
592111 0.0001110 -0.0017223 0.9998890 0.0017223 0.9998890 0.0017223 0.0001110 -0.0017223
619225 0.0001096 -0.0016468 0.9998904 0.0016468 0.9998904 0.0016468 0.0001096 -0.0016468
647581 0.0001081 -0.0015746 0.9998919 0.0015746 0.9998919 0.0015746 0.0001081 -0.0015746
677235 0.0001068 -0.0015055 0.9998932 0.0015055 0.9998932 0.0015055 0.0001068 -0.0015055
708247 0.0001054 -0.0014393 0.9998946 0.0014393 0.9998946 0.0014393 0.0001054 -0.0014393
740679 0.0001042 -0.0013760 0.9998958 0.0013760 0.9998958 0.0013760 0.0001042 -0.0013760
774597 0.0001030 -0.0013153 0.9998970 0.0013153 0.9998970 0.0013153 0.0001030 -0.0013153
810067 0.0001018 -0.0012572 0.9998982 0.0012572 0.9998982 0.0012572 0.0001018 -0.0012572
847162 0.0001007 -0.0012015 0.9998993 0.0012015 0.9998993 0.0012015 0.0001007 -0.0012015
885955 0.0000996 -0.0011482 0.9999004 0.0011482 0.9999004 0.0011482 0.0000996 -0.0011482
926525 0.0000986 -0.0010972 0.9999014 0.0010972 0.9999014 0.0010972 0.0000986 -0.0010972
968953 0.0000976 -0.0010482 0.9999024 0.0010482 0.9999024 0.0010482 0.0000976 -0.0010482
1013323 0.0000967 -0.0010013 0.9999033 0.0010013 0.9999033 0.0010013 0.0000967 -0.0010013
1059725 0.0000958 -0.0009564 0.9999042 0.0009564 0.9999042 0.0009564 0.0000958 -0.0009564
1108252 0.0000950 -0.0009133 0.9999050 0.0009133 0.9999050 0.0009133 0.0000950 -0.0009133
1159002 0.0000942 -0.0008720 0.9999058 0.0008720 0.9999058 0.0008720 0.0000942 -0.0008720
1212075 0.0000934 -0.0008324 0.9999066 0.0008324 0.9999066 0.0008324 0.0000934 -0.0008324
1267578 0.0000927 -0.0007944 0.9999073 0.0007944 0.9999073 0.0007944 0.0000927 -0.0007944
1325623 0.0000920 -0.0007580 0.9999080 0.0007580 0.9999080 0.0007580 0.0000920 -0.0007580
1386327 0.0000914 -0.0007230 0.9999086 0.0007230 0.9999086 0.0007230 0.0000914 -0.0007230
1449809 0.0000908 -0.0006895 0.9999092 0.0006895 0.9999092 0.0006895 0.0000908 -0.0006895
1516199 0.0000903 -0.0006573 0.9999097 0.0006573 0.9999097 0.0006573 0.0000903 -0.0006573
1585629 0.0000898 -0.0006264 0.9999102 0.0006264 0.9999102 0.0006264 0.0000898 -0.0006264
1658239 0.0000893 -0.0005967 0.9999107 0.0005967 0.9999107 0.0005967 0.0000893 -0.0005967
1734173 0.0000889 -0.0005682 0.9999111 0.0005682 0.9999111 0.0005682 0.0000889 -0.0005682
1813585 0.0000885 -0.0005408 0.9999115 0.0005408 0.9999115 0.0005408 0.0000885 -0.0005408
1896632 0.0000882 -0.0005144 0.9999118 0.0005144 0.9999118 0.0005144 0.0000882 -0.0005144
1983483 0.0000879 -0.0004891 0.9999121 0.0004891 0.9999121 0.0004891 0.0000879 -0.0004891
2074311 0.0000876 -0.0004647 0.9999124 0.0004647 0.9999124 0.0004647 0.0000876 -0.0004647
