!Murata Part Number: GRM033R71E821KA01
!These Parameters are Measured in Series Mode Connection
!Data Generated on Mar 30, 2021
!       o--ll--o
!Port1            Port2
!       o------o
!Operation Temp=25[degC], DC Bias Voltage=0[V]
!Freq. Start=100[Hz] Stop=6[GHz] 401[Steps]
# Hz S RI R 50
!Freq.(Hz) S11(Real) S11(Imag) S21(Real) S21(Imag) S12(Real) S12(Imag) S22(Real) S22(Imag)
100 0.9999997 -0.0000497 0.0000003 0.0000497 0.0000003 0.0000497 0.9999997 -0.0000497
105 0.9999996 -0.0000520 0.0000004 0.0000520 0.0000004 0.0000520 0.9999996 -0.0000520
109 0.9999996 -0.0000543 0.0000004 0.0000543 0.0000004 0.0000543 0.9999996 -0.0000543
114 0.9999996 -0.0000568 0.0000004 0.0000568 0.0000004 0.0000568 0.9999996 -0.0000568
120 0.9999996 -0.0000594 0.0000004 0.0000594 0.0000004 0.0000594 0.9999996 -0.0000594
125 0.9999996 -0.0000621 0.0000004 0.0000621 0.0000004 0.0000621 0.9999996 -0.0000621
131 0.9999996 -0.0000649 0.0000004 0.0000649 0.0000004 0.0000649 0.9999996 -0.0000649
137 0.9999995 -0.0000679 0.0000005 0.0000679 0.0000005 0.0000679 0.9999995 -0.0000679
143 0.9999995 -0.0000709 0.0000005 0.0000709 0.0000005 0.0000709 0.9999995 -0.0000709
150 0.9999995 -0.0000742 0.0000005 0.0000742 0.0000005 0.0000742 0.9999995 -0.0000742
156 0.9999995 -0.0000776 0.0000005 0.0000776 0.0000005 0.0000776 0.9999995 -0.0000776
164 0.9999995 -0.0000811 0.0000005 0.0000811 0.0000005 0.0000811 0.9999995 -0.0000811
171 0.9999994 -0.0000848 0.0000006 0.0000848 0.0000006 0.0000848 0.9999994 -0.0000848
179 0.9999994 -0.0000887 0.0000006 0.0000887 0.0000006 0.0000887 0.9999994 -0.0000887
187 0.9999994 -0.0000927 0.0000006 0.0000927 0.0000006 0.0000927 0.9999994 -0.0000927
196 0.9999994 -0.0000969 0.0000006 0.0000969 0.0000006 0.0000969 0.9999994 -0.0000969
205 0.9999994 -0.0001013 0.0000006 0.0001013 0.0000006 0.0001013 0.9999994 -0.0001013
214 0.9999993 -0.0001060 0.0000007 0.0001060 0.0000007 0.0001060 0.9999993 -0.0001060
224 0.9999993 -0.0001108 0.0000007 0.0001108 0.0000007 0.0001108 0.9999993 -0.0001108
234 0.9999993 -0.0001158 0.0000007 0.0001158 0.0000007 0.0001158 0.9999993 -0.0001158
245 0.9999993 -0.0001211 0.0000007 0.0001211 0.0000007 0.0001211 0.9999993 -0.0001211
256 0.9999992 -0.0001267 0.0000008 0.0001267 0.0000008 0.0001267 0.9999992 -0.0001267
268 0.9999992 -0.0001324 0.0000008 0.0001324 0.0000008 0.0001324 0.9999992 -0.0001324
280 0.9999992 -0.0001385 0.0000008 0.0001385 0.0000008 0.0001385 0.9999992 -0.0001385
293 0.9999991 -0.0001448 0.0000009 0.0001448 0.0000009 0.0001448 0.9999991 -0.0001448
306 0.9999991 -0.0001514 0.0000009 0.0001514 0.0000009 0.0001514 0.9999991 -0.0001514
320 0.9999991 -0.0001583 0.0000009 0.0001583 0.0000009 0.0001583 0.9999991 -0.0001583
335 0.9999990 -0.0001655 0.0000010 0.0001655 0.0000010 0.0001655 0.9999990 -0.0001655
350 0.9999990 -0.0001731 0.0000010 0.0001731 0.0000010 0.0001731 0.9999990 -0.0001731
366 0.9999989 -0.0001810 0.0000011 0.0001810 0.0000011 0.0001810 0.9999989 -0.0001810
383 0.9999989 -0.0001893 0.0000011 0.0001893 0.0000011 0.0001893 0.9999989 -0.0001893
401 0.9999988 -0.0001979 0.0000012 0.0001979 0.0000012 0.0001979 0.9999988 -0.0001979
419 0.9999988 -0.0002069 0.0000012 0.0002069 0.0000012 0.0002069 0.9999988 -0.0002069
438 0.9999987 -0.0002164 0.0000013 0.0002164 0.0000013 0.0002164 0.9999987 -0.0002164
458 0.9999987 -0.0002263 0.0000013 0.0002263 0.0000013 0.0002263 0.9999987 -0.0002263
479 0.9999986 -0.0002366 0.0000014 0.0002366 0.0000014 0.0002366 0.9999986 -0.0002366
501 0.9999985 -0.0002474 0.0000015 0.0002474 0.0000015 0.0002474 0.9999985 -0.0002474
524 0.9999985 -0.0002587 0.0000015 0.0002587 0.0000015 0.0002587 0.9999985 -0.0002587
548 0.9999984 -0.0002705 0.0000016 0.0002705 0.0000016 0.0002705 0.9999984 -0.0002705
573 0.9999983 -0.0002828 0.0000017 0.0002828 0.0000017 0.0002828 0.9999983 -0.0002828
600 0.9999982 -0.0002957 0.0000018 0.0002957 0.0000018 0.0002957 0.9999982 -0.0002957
627 0.9999982 -0.0003092 0.0000018 0.0003092 0.0000018 0.0003092 0.9999982 -0.0003092
656 0.9999981 -0.0003233 0.0000019 0.0003233 0.0000019 0.0003233 0.9999981 -0.0003233
686 0.9999980 -0.0003381 0.0000020 0.0003381 0.0000020 0.0003381 0.9999980 -0.0003381
717 0.9999979 -0.0003535 0.0000021 0.0003535 0.0000021 0.0003535 0.9999979 -0.0003535
750 0.9999978 -0.0003696 0.0000022 0.0003696 0.0000022 0.0003696 0.9999978 -0.0003696
784 0.9999977 -0.0003865 0.0000023 0.0003865 0.0000023 0.0003865 0.9999977 -0.0003865
820 0.9999976 -0.0004041 0.0000024 0.0004041 0.0000024 0.0004041 0.9999976 -0.0004041
858 0.9999974 -0.0004226 0.0000026 0.0004226 0.0000026 0.0004226 0.9999974 -0.0004226
897 0.9999973 -0.0004418 0.0000027 0.0004418 0.0000027 0.0004418 0.9999973 -0.0004418
938 0.9999972 -0.0004620 0.0000028 0.0004620 0.0000028 0.0004620 0.9999972 -0.0004620
981 0.9999971 -0.0004831 0.0000029 0.0004831 0.0000029 0.0004831 0.9999971 -0.0004831
1026 0.9999969 -0.0005051 0.0000031 0.0005051 0.0000031 0.0005051 0.9999969 -0.0005051
1073 0.9999968 -0.0005281 0.0000032 0.0005281 0.0000032 0.0005281 0.9999968 -0.0005281
1122 0.9999966 -0.0005522 0.0000034 0.0005522 0.0000034 0.0005522 0.9999966 -0.0005522
1174 0.9999965 -0.0005774 0.0000035 0.0005774 0.0000035 0.0005774 0.9999965 -0.0005774
1227 0.9999963 -0.0006038 0.0000037 0.0006038 0.0000037 0.0006038 0.9999963 -0.0006038
1283 0.9999961 -0.0006313 0.0000039 0.0006313 0.0000039 0.0006313 0.9999961 -0.0006313
1342 0.9999960 -0.0006601 0.0000040 0.0006601 0.0000040 0.0006601 0.9999960 -0.0006601
1404 0.9999958 -0.0006902 0.0000042 0.0006902 0.0000042 0.0006902 0.9999958 -0.0006902
1468 0.9999956 -0.0007217 0.0000044 0.0007217 0.0000044 0.0007217 0.9999956 -0.0007217
1535 0.9999954 -0.0007547 0.0000046 0.0007547 0.0000046 0.0007547 0.9999954 -0.0007547
1606 0.9999952 -0.0007891 0.0000048 0.0007891 0.0000048 0.0007891 0.9999952 -0.0007891
1679 0.9999949 -0.0008251 0.0000051 0.0008251 0.0000051 0.0008251 0.9999949 -0.0008251
1756 0.9999947 -0.0008628 0.0000053 0.0008628 0.0000053 0.0008628 0.9999947 -0.0008628
1836 0.9999944 -0.0009022 0.0000056 0.0009022 0.0000056 0.0009022 0.9999944 -0.0009022
1920 0.9999941 -0.0009434 0.0000059 0.0009434 0.0000059 0.0009434 0.9999941 -0.0009434
2008 0.9999938 -0.0009865 0.0000062 0.0009865 0.0000062 0.0009865 0.9999938 -0.0009865
2100 0.9999935 -0.0010315 0.0000065 0.0010315 0.0000065 0.0010315 0.9999935 -0.0010315
2196 0.9999932 -0.0010786 0.0000068 0.0010786 0.0000068 0.0010786 0.9999932 -0.0010786
2297 0.9999928 -0.0011278 0.0000072 0.0011278 0.0000072 0.0011278 0.9999928 -0.0011278
2402 0.9999924 -0.0011793 0.0000076 0.0011793 0.0000076 0.0011793 0.9999924 -0.0011793
2512 0.9999920 -0.0012332 0.0000080 0.0012332 0.0000080 0.0012332 0.9999920 -0.0012332
2627 0.9999916 -0.0012895 0.0000084 0.0012895 0.0000084 0.0012895 0.9999916 -0.0012895
2748 0.9999911 -0.0013484 0.0000089 0.0013484 0.0000089 0.0013484 0.9999911 -0.0013484
2873 0.9999906 -0.0014099 0.0000094 0.0014099 0.0000094 0.0014099 0.9999906 -0.0014099
3005 0.9999900 -0.0014743 0.0000100 0.0014743 0.0000100 0.0014743 0.9999900 -0.0014743
3143 0.9999894 -0.0015416 0.0000106 0.0015416 0.0000106 0.0015416 0.9999894 -0.0015416
3287 0.9999888 -0.0016120 0.0000112 0.0016120 0.0000112 0.0016120 0.9999888 -0.0016120
3437 0.9999881 -0.0016856 0.0000119 0.0016856 0.0000119 0.0016856 0.9999881 -0.0016856
3594 0.9999874 -0.0017625 0.0000126 0.0017625 0.0000126 0.0017625 0.9999874 -0.0017625
3759 0.9999866 -0.0018430 0.0000134 0.0018430 0.0000134 0.0018430 0.9999866 -0.0018430
3931 0.9999858 -0.0019271 0.0000142 0.0019271 0.0000142 0.0019271 0.9999858 -0.0019271
4111 0.9999849 -0.0020150 0.0000151 0.0020150 0.0000151 0.0020150 0.9999849 -0.0020150
4299 0.9999839 -0.0021070 0.0000161 0.0021070 0.0000161 0.0021070 0.9999839 -0.0021070
4496 0.9999829 -0.0022031 0.0000171 0.0022031 0.0000171 0.0022031 0.9999829 -0.0022031
4702 0.9999818 -0.0023036 0.0000182 0.0023036 0.0000182 0.0023036 0.9999818 -0.0023036
4918 0.9999807 -0.0024087 0.0000193 0.0024087 0.0000193 0.0024087 0.9999807 -0.0024087
5143 0.9999794 -0.0025186 0.0000206 0.0025186 0.0000206 0.0025186 0.9999794 -0.0025186
5378 0.9999781 -0.0026335 0.0000219 0.0026335 0.0000219 0.0026335 0.9999781 -0.0026335
5625 0.9999767 -0.0027536 0.0000233 0.0027536 0.0000233 0.0027536 0.9999767 -0.0027536
5882 0.9999752 -0.0028792 0.0000248 0.0028792 0.0000248 0.0028792 0.9999752 -0.0028792
6151 0.9999736 -0.0030105 0.0000264 0.0030105 0.0000264 0.0030105 0.9999736 -0.0030105
6433 0.9999719 -0.0031478 0.0000281 0.0031478 0.0000281 0.0031478 0.9999719 -0.0031478
6728 0.9999701 -0.0032913 0.0000299 0.0032913 0.0000299 0.0032913 0.9999701 -0.0032913
7036 0.9999682 -0.0034414 0.0000318 0.0034414 0.0000318 0.0034414 0.9999682 -0.0034414
7358 0.9999661 -0.0035983 0.0000339 0.0035983 0.0000339 0.0035983 0.9999661 -0.0035983
7695 0.9999639 -0.0037624 0.0000361 0.0037624 0.0000361 0.0037624 0.9999639 -0.0037624
8047 0.9999616 -0.0039339 0.0000384 0.0039339 0.0000384 0.0039339 0.9999616 -0.0039339
8416 0.9999591 -0.0041133 0.0000409 0.0041133 0.0000409 0.0041133 0.9999591 -0.0041133
8801 0.9999564 -0.0043009 0.0000436 0.0043009 0.0000436 0.0043009 0.9999564 -0.0043009
9204 0.9999536 -0.0044970 0.0000464 0.0044970 0.0000464 0.0044970 0.9999536 -0.0044970
9626 0.9999506 -0.0047021 0.0000494 0.0047021 0.0000494 0.0047021 0.9999506 -0.0047021
10066 0.9999473 -0.0049166 0.0000527 0.0049166 0.0000527 0.0049166 0.9999473 -0.0049166
10527 0.9999438 -0.0051408 0.0000562 0.0051408 0.0000562 0.0051408 0.9999438 -0.0051408
11009 0.9999400 -0.0053753 0.0000600 0.0053753 0.0000600 0.0053753 0.9999400 -0.0053753
11514 0.9999360 -0.0056205 0.0000640 0.0056205 0.0000640 0.0056205 0.9999360 -0.0056205
12041 0.9999316 -0.0058769 0.0000684 0.0058769 0.0000684 0.0058769 0.9999316 -0.0058769
12592 0.9999270 -0.0061451 0.0000730 0.0061451 0.0000730 0.0061451 0.9999270 -0.0061451
13169 0.9999219 -0.0064255 0.0000781 0.0064255 0.0000781 0.0064255 0.9999219 -0.0064255
13772 0.9999164 -0.0067187 0.0000836 0.0067187 0.0000836 0.0067187 0.9999164 -0.0067187
14402 0.9999105 -0.0070253 0.0000895 0.0070253 0.0000895 0.0070253 0.9999105 -0.0070253
15062 0.9999041 -0.0073459 0.0000959 0.0073459 0.0000959 0.0073459 0.9999041 -0.0073459
15752 0.9998972 -0.0076812 0.0001028 0.0076812 0.0001028 0.0076812 0.9998972 -0.0076812
16473 0.9998896 -0.0080318 0.0001104 0.0080318 0.0001104 0.0080318 0.9998896 -0.0080318
17227 0.9998815 -0.0083984 0.0001185 0.0083984 0.0001185 0.0083984 0.9998815 -0.0083984
18016 0.9998726 -0.0087817 0.0001274 0.0087817 0.0001274 0.0087817 0.9998726 -0.0087817
18841 0.9998630 -0.0091826 0.0001370 0.0091826 0.0001370 0.0091826 0.9998630 -0.0091826
19704 0.9998525 -0.0096018 0.0001475 0.0096018 0.0001475 0.0096018 0.9998525 -0.0096018
20606 0.9998411 -0.0100400 0.0001589 0.0100400 0.0001589 0.0100400 0.9998411 -0.0100400
21550 0.9998288 -0.0104983 0.0001712 0.0104983 0.0001712 0.0104983 0.9998288 -0.0104983
22537 0.9998153 -0.0109775 0.0001847 0.0109775 0.0001847 0.0109775 0.9998153 -0.0109775
23569 0.9998006 -0.0114785 0.0001994 0.0114785 0.0001994 0.0114785 0.9998006 -0.0114785
24648 0.9997847 -0.0120024 0.0002153 0.0120024 0.0002153 0.0120024 0.9997847 -0.0120024
25777 0.9997673 -0.0125501 0.0002327 0.0125501 0.0002327 0.0125501 0.9997673 -0.0125501
26957 0.9997484 -0.0131227 0.0002516 0.0131227 0.0002516 0.0131227 0.9997484 -0.0131227
28191 0.9997278 -0.0137215 0.0002722 0.0137215 0.0002722 0.0137215 0.9997278 -0.0137215
29482 0.9997055 -0.0143474 0.0002945 0.0143474 0.0002945 0.0143474 0.9997055 -0.0143474
30832 0.9996811 -0.0150018 0.0003189 0.0150018 0.0003189 0.0150018 0.9996811 -0.0150018
32244 0.9996546 -0.0156859 0.0003454 0.0156859 0.0003454 0.0156859 0.9996546 -0.0156859
33721 0.9996257 -0.0164011 0.0003743 0.0164011 0.0003743 0.0164011 0.9996257 -0.0164011
35265 0.9995944 -0.0171488 0.0004056 0.0171488 0.0004056 0.0171488 0.9995944 -0.0171488
36880 0.9995603 -0.0179304 0.0004397 0.0179304 0.0004397 0.0179304 0.9995603 -0.0179304
38569 0.9995232 -0.0187474 0.0004768 0.0187474 0.0004768 0.0187474 0.9995232 -0.0187474
40335 0.9994828 -0.0196014 0.0005172 0.0196014 0.0005172 0.0196014 0.9994828 -0.0196014
42182 0.9994390 -0.0204942 0.0005610 0.0204942 0.0005610 0.0204942 0.9994390 -0.0204942
44113 0.9993913 -0.0214273 0.0006087 0.0214273 0.0006087 0.0214273 0.9993913 -0.0214273
46134 0.9993395 -0.0224027 0.0006605 0.0224027 0.0006605 0.0224027 0.9993395 -0.0224027
48246 0.9992833 -0.0234221 0.0007167 0.0234221 0.0007167 0.0234221 0.9992833 -0.0234221
50455 0.9992222 -0.0244877 0.0007778 0.0244877 0.0007778 0.0244877 0.9992222 -0.0244877
52766 0.9991558 -0.0256014 0.0008442 0.0256014 0.0008442 0.0256014 0.9991558 -0.0256014
55182 0.9990838 -0.0267654 0.0009162 0.0267654 0.0009162 0.0267654 0.9990838 -0.0267654
57709 0.9990055 -0.0279820 0.0009945 0.0279820 0.0009945 0.0279820 0.9990055 -0.0279820
60352 0.9989205 -0.0292535 0.0010795 0.0292535 0.0010795 0.0292535 0.9989205 -0.0292535
63115 0.9988283 -0.0305824 0.0011717 0.0305824 0.0011717 0.0305824 0.9988283 -0.0305824
66005 0.9987281 -0.0319712 0.0012719 0.0319712 0.0012719 0.0319712 0.9987281 -0.0319712
69028 0.9986193 -0.0334226 0.0013807 0.0334226 0.0013807 0.0334226 0.9986193 -0.0334226
72189 0.9985012 -0.0349395 0.0014988 0.0349395 0.0014988 0.0349395 0.9985012 -0.0349395
75495 0.9983729 -0.0365247 0.0016271 0.0365247 0.0016271 0.0365247 0.9983729 -0.0365247
78952 0.9982335 -0.0381813 0.0017665 0.0381813 0.0017665 0.0381813 0.9982335 -0.0381813
82567 0.9980820 -0.0399126 0.0019180 0.0399126 0.0019180 0.0399126 0.9980820 -0.0399126
86348 0.9979174 -0.0417217 0.0020826 0.0417217 0.0020826 0.0417217 0.9979174 -0.0417217
90302 0.9977386 -0.0436122 0.0022614 0.0436122 0.0022614 0.0436122 0.9977386 -0.0436122
94437 0.9975440 -0.0455878 0.0024560 0.0455878 0.0024560 0.0455878 0.9975440 -0.0455878
98762 0.9973325 -0.0476520 0.0026675 0.0476520 0.0026675 0.0476520 0.9973325 -0.0476520
103284 0.9971024 -0.0498089 0.0028976 0.0498089 0.0028976 0.0498089 0.9971024 -0.0498089
108014 0.9968520 -0.0520625 0.0031480 0.0520625 0.0031480 0.0520625 0.9968520 -0.0520625
112960 0.9965795 -0.0544171 0.0034205 0.0544171 0.0034205 0.0544171 0.9965795 -0.0544171
118133 0.9962829 -0.0568769 0.0037171 0.0568769 0.0037171 0.0568769 0.9962829 -0.0568769
123542 0.9959598 -0.0594466 0.0040402 0.0594466 0.0040402 0.0594466 0.9959598 -0.0594466
129199 0.9956079 -0.0621308 0.0043921 0.0621308 0.0043921 0.0621308 0.9956079 -0.0621308
135116 0.9952246 -0.0649343 0.0047754 0.0649343 0.0047754 0.0649343 0.9952246 -0.0649343
141303 0.9948069 -0.0678623 0.0051931 0.0678623 0.0051931 0.0678623 0.9948069 -0.0678623
147774 0.9943517 -0.0709199 0.0056483 0.0709199 0.0056483 0.0709199 0.9943517 -0.0709199
154540 0.9938556 -0.0741124 0.0061444 0.0741124 0.0061444 0.0741124 0.9938556 -0.0741124
161617 0.9933148 -0.0774453 0.0066852 0.0774453 0.0066852 0.0774453 0.9933148 -0.0774453
169018 0.9927253 -0.0809243 0.0072747 0.0809243 0.0072747 0.0809243 0.9927253 -0.0809243
176758 0.9920827 -0.0845551 0.0079173 0.0845551 0.0079173 0.0845551 0.9920827 -0.0845551
184852 0.9913821 -0.0883438 0.0086179 0.0883438 0.0086179 0.0883438 0.9913821 -0.0883438
193316 0.9906184 -0.0922963 0.0093816 0.0922963 0.0093816 0.0922963 0.9906184 -0.0922963
202169 0.9897858 -0.0964188 0.0102142 0.0964188 0.0102142 0.0964188 0.9897858 -0.0964188
211427 0.9888784 -0.1007176 0.0111216 0.1007176 0.0111216 0.1007176 0.9888784 -0.1007176
221108 0.9878893 -0.1051991 0.0121107 0.1051991 0.0121107 0.1051991 0.9878893 -0.1051991
231233 0.9868115 -0.1098696 0.0131885 0.1098696 0.0131885 0.1098696 0.9868115 -0.1098696
241822 0.9856372 -0.1147356 0.0143628 0.1147356 0.0143628 0.1147356 0.9856372 -0.1147356
252896 0.9843579 -0.1198036 0.0156421 0.1198036 0.0156421 0.1198036 0.9843579 -0.1198036
264476 0.9829647 -0.1250800 0.0170353 0.1250800 0.0170353 0.1250800 0.9829647 -0.1250800
276587 0.9814478 -0.1305712 0.0185522 0.1305712 0.0185522 0.1305712 0.9814478 -0.1305712
289253 0.9797966 -0.1362834 0.0202034 0.1362834 0.0202034 0.1362834 0.9797966 -0.1362834
302498 0.9779998 -0.1422226 0.0220002 0.1422226 0.0220002 0.1422226 0.9779998 -0.1422226
316350 0.9760453 -0.1483949 0.0239547 0.1483949 0.0239547 0.1483949 0.9760453 -0.1483949
330837 0.9739200 -0.1548056 0.0260800 0.1548056 0.0260800 0.1548056 0.9739200 -0.1548056
345986 0.9716100 -0.1614600 0.0283900 0.1614600 0.0283900 0.1614600 0.9716100 -0.1614600
361830 0.9691003 -0.1683628 0.0308997 0.1683628 0.0308997 0.1683628 0.9691003 -0.1683628
378399 0.9663750 -0.1755183 0.0336250 0.1755183 0.0336250 0.1755183 0.9663750 -0.1755183
395726 0.9634171 -0.1829300 0.0365829 0.1829300 0.0365829 0.1829300 0.9634171 -0.1829300
413847 0.9602085 -0.1906007 0.0397915 0.1906007 0.0397915 0.1906007 0.9602085 -0.1906007
432798 0.9567300 -0.1985321 0.0432700 0.1985321 0.0432700 0.1985321 0.9567300 -0.1985321
452617 0.9529614 -0.2067251 0.0470386 0.2067251 0.0470386 0.2067251 0.9529614 -0.2067251
473344 0.9488812 -0.2151794 0.0511188 0.2151794 0.0511188 0.2151794 0.9488812 -0.2151794
495019 0.9444670 -0.2238931 0.0555330 0.2238931 0.0555330 0.2238931 0.9444670 -0.2238931
517687 0.9396950 -0.2328629 0.0603050 0.2328629 0.0603050 0.2328629 0.9396950 -0.2328629
541393 0.9345407 -0.2420837 0.0654593 0.2420837 0.0654593 0.2420837 0.9345407 -0.2420837
566185 0.9289785 -0.2515483 0.0710215 0.2515483 0.0710215 0.2515483 0.9289785 -0.2515483
592111 0.9229817 -0.2612475 0.0770183 0.2612475 0.0770183 0.2612475 0.9229817 -0.2612475
619225 0.9165232 -0.2711694 0.0834768 0.2711694 0.0834768 0.2711694 0.9165232 -0.2711694
647581 0.9095750 -0.2812997 0.0904250 0.2812997 0.0904250 0.2812997 0.9095750 -0.2812997
677235 0.9021091 -0.2916209 0.0978909 0.2916209 0.0978909 0.2916209 0.9021091 -0.2916209
708247 0.8940969 -0.3021124 0.1059031 0.3021124 0.1059031 0.3021124 0.8940969 -0.3021124
740679 0.8855103 -0.3127503 0.1144897 0.3127503 0.1144897 0.3127503 0.8855103 -0.3127503
774597 0.8763215 -0.3235070 0.1236785 0.3235070 0.1236785 0.3235070 0.8763215 -0.3235070
810067 0.8665039 -0.3343510 0.1334961 0.3343510 0.1334961 0.3343510 0.8665039 -0.3343510
847162 0.8560320 -0.3452470 0.1439680 0.3452470 0.1439680 0.3452470 0.8560320 -0.3452470
885955 0.8448823 -0.3561557 0.1551177 0.3561557 0.1551177 0.3561557 0.8448823 -0.3561557
926525 0.8330337 -0.3670334 0.1669663 0.3670334 0.1669663 0.3670334 0.8330337 -0.3670334
968953 0.8204683 -0.3778327 0.1795317 0.3778327 0.1795317 0.3778327 0.8204683 -0.3778327
1013323 0.8071719 -0.3885022 0.1928281 0.3885022 0.1928281 0.3885022 0.8071719 -0.3885022
1059725 0.7931344 -0.3989866 0.2068656 0.3989866 0.2068656 0.3989866 0.7931344 -0.3989866
1108252 0.7783509 -0.4092277 0.2216491 0.4092277 0.2216491 0.4092277 0.7783509 -0.4092277
1159002 0.7628224 -0.4191640 0.2371776 0.4191640 0.2371776 0.4191640 0.7628224 -0.4191640
1212075 0.7465558 -0.4287320 0.2534442 0.4287320 0.2534442 0.4287320 0.7465558 -0.4287320
1267578 0.7295651 -0.4378667 0.2704349 0.4378667 0.2704349 0.4378667 0.7295651 -0.4378667
1325623 0.7118715 -0.4465022 0.2881285 0.4465022 0.2881285 0.4465022 0.7118715 -0.4465022
1386327 0.6935039 -0.4545730 0.3064961 0.4545730 0.3064961 0.4545730 0.6935039 -0.4545730
1449809 0.6744990 -0.4620147 0.3255010 0.4620147 0.3255010 0.4620147 0.6744990 -0.4620147
1516199 0.6549015 -0.4687657 0.3450985 0.4687657 0.3450985 0.4687657 0.6549015 -0.4687657
1585629 0.6347638 -0.4747675 0.3652362 0.4747675 0.3652362 0.4747675 0.6347638 -0.4747675
1658239 0.6141455 -0.4799665 0.3858545 0.4799665 0.3858545 0.4799665 0.6141455 -0.4799665
1734173 0.5931133 -0.4843150 0.4068867 0.4843150 0.4068867 0.4843150 0.5931133 -0.4843150
1813585 0.5717400 -0.4877721 0.4282600 0.4877721 0.4282600 0.4877721 0.5717400 -0.4877721
1896632 0.5501033 -0.4903047 0.4498967 0.4903047 0.4498967 0.4903047 0.5501033 -0.4903047
1983483 0.5282854 -0.4918883 0.4717146 0.4918883 0.4717146 0.4918883 0.5282854 -0.4918883
2074311 0.5063709 -0.4925075 0.4936291 0.4925075 0.4936291 0.4925075 0.5063709 -0.4925075
