!Murata Part Number: GRM035R60E475ME01
!These Parameters are Measured in Series Mode Connection
!Data Generated on Mar 30, 2021
!       o--ll--o
!Port1            Port2
!       o------o
!Operation Temp=25[degC], DC Bias Voltage=0[V]
!Freq. Start=100[Hz] Stop=6[GHz] 401[Steps]
# Hz S RI R 50
!Freq.(Hz) S11(Real) S11(Imag) S21(Real) S21(Imag) S12(Real) S12(Imag) S22(Real) S22(Imag)
100 0.9581932 -0.1916141 0.0418068 0.1916141 0.0418068 0.1916141 0.9581932 -0.1916141
105 0.9547053 -0.1995781 0.0452947 0.1995781 0.0452947 0.1995781 0.9547053 -0.1995781
109 0.9509240 -0.2078075 0.0490760 0.2078075 0.0490760 0.2078075 0.9509240 -0.2078075
114 0.9468271 -0.2163016 0.0531729 0.2163016 0.0531729 0.2163016 0.9468271 -0.2163016
120 0.9423915 -0.2250583 0.0576085 0.2250583 0.0576085 0.2250583 0.9423915 -0.2250583
125 0.9375930 -0.2340736 0.0624070 0.2340736 0.0624070 0.2340736 0.9375930 -0.2340736
131 0.9324063 -0.2433418 0.0675937 0.2433418 0.0675937 0.2433418 0.9324063 -0.2433418
137 0.9268055 -0.2528549 0.0731945 0.2528549 0.0731945 0.2528549 0.9268055 -0.2528549
143 0.9207635 -0.2626029 0.0792365 0.2626029 0.0792365 0.2626029 0.9207635 -0.2626029
150 0.9142529 -0.2725729 0.0857471 0.2725729 0.0857471 0.2725729 0.9142529 -0.2725729
156 0.9072458 -0.2827494 0.0927542 0.2827494 0.0927542 0.2827494 0.9072458 -0.2827494
164 0.8997138 -0.2931139 0.1002862 0.2931139 0.1002862 0.2931139 0.8997138 -0.2931139
171 0.8916291 -0.3036446 0.1083709 0.3036446 0.1083709 0.3036446 0.8916291 -0.3036446
179 0.8829637 -0.3143163 0.1170363 0.3143163 0.1170363 0.3143163 0.8829637 -0.3143163
187 0.8736909 -0.3251003 0.1263091 0.3251003 0.1263091 0.3251003 0.8736909 -0.3251003
196 0.8637847 -0.3359641 0.1362153 0.3359641 0.1362153 0.3359641 0.8637847 -0.3359641
205 0.8532209 -0.3468714 0.1467791 0.3468714 0.1467791 0.3468714 0.8532209 -0.3468714
214 0.8419776 -0.3577820 0.1580224 0.3577820 0.1580224 0.3577820 0.8419776 -0.3577820
224 0.8300353 -0.3686520 0.1699647 0.3686520 0.1699647 0.3686520 0.8300353 -0.3686520
234 0.8173777 -0.3794335 0.1826223 0.3794335 0.1826223 0.3794335 0.8173777 -0.3794335
245 0.8039925 -0.3900754 0.1960075 0.3900754 0.1960075 0.3900754 0.8039925 -0.3900754
256 0.7898717 -0.4005229 0.2101283 0.4005229 0.2101283 0.4005229 0.7898717 -0.4005229
268 0.7750121 -0.4107185 0.2249879 0.4107185 0.2249879 0.4107185 0.7750121 -0.4107185
280 0.7594164 -0.4206023 0.2405836 0.4206023 0.2405836 0.4206023 0.7594164 -0.4206023
293 0.7430931 -0.4301124 0.2569069 0.4301124 0.2569069 0.4301124 0.7430931 -0.4301124
306 0.7260573 -0.4391857 0.2739427 0.4391857 0.2739427 0.4391857 0.7260573 -0.4391857
320 0.7083311 -0.4477587 0.2916689 0.4477587 0.2916689 0.4477587 0.7083311 -0.4477587
335 0.6899435 -0.4557683 0.3100565 0.4557683 0.3100565 0.4557683 0.6899435 -0.4557683
350 0.6709312 -0.4631530 0.3290688 0.4631530 0.3290688 0.4631530 0.6709312 -0.4631530
366 0.6513380 -0.4698534 0.3486620 0.4698534 0.3486620 0.4698534 0.6513380 -0.4698534
383 0.6312149 -0.4758138 0.3687851 0.4758138 0.3687851 0.4758138 0.6312149 -0.4758138
401 0.6106198 -0.4809826 0.3893802 0.4809826 0.3893802 0.4809826 0.6106198 -0.4809826
419 0.5896171 -0.4853140 0.4103829 0.4853140 0.4103829 0.4853140 0.5896171 -0.4853140
438 0.5682767 -0.4887683 0.4317233 0.4887683 0.4317233 0.4887683 0.5682767 -0.4887683
458 0.5466735 -0.4913131 0.4533265 0.4913131 0.4533265 0.4913131 0.5466735 -0.4913131
479 0.5248864 -0.4929241 0.4751136 0.4929241 0.4751136 0.4929241 0.5248864 -0.4929241
501 0.5029971 -0.4935853 0.4970029 0.4935853 0.4970029 0.4935853 0.5029971 -0.4935853
524 0.4810889 -0.4932896 0.5189111 0.4932896 0.5189111 0.4932896 0.4810889 -0.4932896
548 0.4592455 -0.4920391 0.5407545 0.4920391 0.5407545 0.4920391 0.4592455 -0.4920391
573 0.4375500 -0.4898449 0.5624500 0.4898449 0.5624500 0.4898449 0.4375500 -0.4898449
600 0.4160833 -0.4867268 0.5839167 0.4867268 0.5839167 0.4867268 0.4160833 -0.4867268
627 0.3949229 -0.4827131 0.6050771 0.4827131 0.6050771 0.4827131 0.3949229 -0.4827131
656 0.3741423 -0.4778401 0.6258577 0.4778401 0.6258577 0.4778401 0.3741423 -0.4778401
686 0.3538094 -0.4721509 0.6461906 0.4721509 0.6461906 0.4721509 0.3538094 -0.4721509
717 0.3339861 -0.4656948 0.6660139 0.4656948 0.6660139 0.4656948 0.3339861 -0.4656948
750 0.3147277 -0.4585265 0.6852723 0.4585265 0.6852723 0.4585265 0.3147277 -0.4585265
784 0.2960821 -0.4507044 0.7039179 0.4507044 0.7039179 0.4507044 0.2960821 -0.4507044
820 0.2780898 -0.4422904 0.7219102 0.4422904 0.7219102 0.4422904 0.2780898 -0.4422904
858 0.2607837 -0.4333480 0.7392163 0.4333480 0.7392163 0.4333480 0.2607837 -0.4333480
897 0.2441893 -0.4239420 0.7558107 0.4239420 0.7558107 0.4239420 0.2441893 -0.4239420
938 0.2283247 -0.4141369 0.7716753 0.4141369 0.7716753 0.4141369 0.2283247 -0.4141369
981 0.2132010 -0.4039964 0.7867990 0.4039964 0.7867990 0.4039964 0.2132010 -0.4039964
1026 0.1988228 -0.3935826 0.8011772 0.3935826 0.8011772 0.3935826 0.1988228 -0.3935826
1073 0.1851888 -0.3829551 0.8148112 0.3829551 0.8148112 0.3829551 0.1851888 -0.3829551
1122 0.1722922 -0.3721709 0.8277078 0.3721709 0.8277078 0.3721709 0.1722922 -0.3721709
1174 0.1601216 -0.3612834 0.8398784 0.3612834 0.8398784 0.3612834 0.1601216 -0.3612834
1227 0.1486613 -0.3503424 0.8513387 0.3503424 0.8513387 0.3503424 0.1486613 -0.3503424
1283 0.1378920 -0.3393940 0.8621080 0.3393940 0.8621080 0.3393940 0.1378920 -0.3393940
1342 0.1277917 -0.3284800 0.8722083 0.3284800 0.8722083 0.3284800 0.1277917 -0.3284800
1404 0.1183360 -0.3176384 0.8816640 0.3176384 0.8816640 0.3176384 0.1183360 -0.3176384
1468 0.1094987 -0.3069033 0.8905013 0.3069033 0.8905013 0.3069033 0.1094987 -0.3069033
1535 0.1012524 -0.2963045 0.8987476 0.2963045 0.8987476 0.2963045 0.1012524 -0.2963045
1606 0.0935687 -0.2858685 0.9064313 0.2858685 0.9064313 0.2858685 0.0935687 -0.2858685
1679 0.0864189 -0.2756178 0.9135811 0.2756178 0.9135811 0.2756178 0.0864189 -0.2756178
1756 0.0797742 -0.2655718 0.9202258 0.2655718 0.9202258 0.2655718 0.0797742 -0.2655718
1836 0.0736059 -0.2557465 0.9263941 0.2557465 0.9263941 0.2557465 0.0736059 -0.2557465
1920 0.0678859 -0.2461553 0.9321141 0.2461553 0.9321141 0.2461553 0.0678859 -0.2461553
2008 0.0625867 -0.2368086 0.9374133 0.2368086 0.9374133 0.2368086 0.0625867 -0.2368086
2100 0.0576815 -0.2277146 0.9423185 0.2277146 0.9423185 0.2277146 0.0576815 -0.2277146
2196 0.0531447 -0.2188792 0.9468553 0.2188792 0.9468553 0.2188792 0.0531447 -0.2188792
2297 0.0489515 -0.2103063 0.9510485 0.2103063 0.9510485 0.2103063 0.0489515 -0.2103063
2402 0.0450784 -0.2019982 0.9549216 0.2019982 0.9549216 0.2019982 0.0450784 -0.2019982
2512 0.0415031 -0.1939555 0.9584969 0.1939555 0.9584969 0.1939555 0.0415031 -0.1939555
2627 0.0382042 -0.1861775 0.9617958 0.1861775 0.9617958 0.1861775 0.0382042 -0.1861775
2748 0.0351618 -0.1786623 0.9648382 0.1786623 0.9648382 0.1786623 0.0351618 -0.1786623
2873 0.0323570 -0.1714072 0.9676430 0.1714072 0.9676430 0.1714072 0.0323570 -0.1714072
3005 0.0297723 -0.1644085 0.9702277 0.1644085 0.9702277 0.1644085 0.0297723 -0.1644085
3143 0.0273910 -0.1576617 0.9726090 0.1576617 0.9726090 0.1576617 0.0273910 -0.1576617
3287 0.0251978 -0.1511618 0.9748022 0.1511618 0.9748022 0.1511618 0.0251978 -0.1511618
3437 0.0231783 -0.1449035 0.9768217 0.1449035 0.9768217 0.1449035 0.0231783 -0.1449035
3594 0.0213192 -0.1388808 0.9786808 0.1388808 0.9786808 0.1388808 0.0213192 -0.1388808
3759 0.0196080 -0.1330877 0.9803920 0.1330877 0.9803920 0.1330877 0.0196080 -0.1330877
3931 0.0180333 -0.1275178 0.9819667 0.1275178 0.9819667 0.1275178 0.0180333 -0.1275178
4111 0.0165843 -0.1221645 0.9834157 0.1221645 0.9834157 0.1221645 0.0165843 -0.1221645
4299 0.0152514 -0.1170215 0.9847486 0.1170215 0.9847486 0.1170215 0.0152514 -0.1170215
4496 0.0140253 -0.1120819 0.9859747 0.1120819 0.9859747 0.1120819 0.0140253 -0.1120819
4702 0.0128977 -0.1073392 0.9871023 0.1073392 0.9871023 0.1073392 0.0128977 -0.1073392
4918 0.0118609 -0.1027869 0.9881391 0.1027869 0.9881391 0.1027869 0.0118609 -0.1027869
5143 0.0109075 -0.0984185 0.9890925 0.0984185 0.9890925 0.0984185 0.0109075 -0.0984185
5378 0.0100312 -0.0942274 0.9899688 0.0942274 0.9899688 0.0942274 0.0100312 -0.0942274
5625 0.0092257 -0.0902074 0.9907743 0.0902074 0.9907743 0.0902074 0.0092257 -0.0902074
5882 0.0084855 -0.0863523 0.9915145 0.0863523 0.9915145 0.0863523 0.0084855 -0.0863523
6151 0.0078053 -0.0826561 0.9921947 0.0826561 0.9921947 0.0826561 0.0078053 -0.0826561
6433 0.0071805 -0.0791129 0.9928195 0.0791129 0.9928195 0.0791129 0.0071805 -0.0791129
6728 0.0066065 -0.0757169 0.9933935 0.0757169 0.9933935 0.0757169 0.0066065 -0.0757169
7036 0.0060794 -0.0724624 0.9939206 0.0724624 0.9939206 0.0724624 0.0060794 -0.0724624
7358 0.0055953 -0.0693442 0.9944047 0.0693442 0.9944047 0.0693442 0.0055953 -0.0693442
7695 0.0051510 -0.0663568 0.9948490 0.0663568 0.9948490 0.0663568 0.0051510 -0.0663568
8047 0.0047430 -0.0634953 0.9952570 0.0634953 0.9952570 0.0634953 0.0047430 -0.0634953
8416 0.0043686 -0.0607546 0.9956314 0.0607546 0.9956314 0.0607546 0.0043686 -0.0607546
8801 0.0040249 -0.0581299 0.9959751 0.0581299 0.9959751 0.0581299 0.0040249 -0.0581299
9204 0.0037096 -0.0556167 0.9962904 0.0556167 0.9962904 0.0556167 0.0037096 -0.0556167
9626 0.0034203 -0.0532104 0.9965797 0.0532104 0.9965797 0.0532104 0.0034203 -0.0532104
10066 0.0031549 -0.0509067 0.9968451 0.0509067 0.9968451 0.0509067 0.0031549 -0.0509067
10527 0.0029113 -0.0487015 0.9970887 0.0487015 0.9970887 0.0487015 0.0029113 -0.0487015
11009 0.0026879 -0.0465907 0.9973121 0.0465907 0.9973121 0.0465907 0.0026879 -0.0465907
11514 0.0024830 -0.0445704 0.9975170 0.0445704 0.9975170 0.0445704 0.0024830 -0.0445704
12041 0.0022950 -0.0426370 0.9977050 0.0426370 0.9977050 0.0426370 0.0022950 -0.0426370
12592 0.0021225 -0.0407868 0.9978775 0.0407868 0.9978775 0.0407868 0.0021225 -0.0407868
13169 0.0019642 -0.0390164 0.9980358 0.0390164 0.9980358 0.0390164 0.0019642 -0.0390164
13772 0.0018190 -0.0373223 0.9981810 0.0373223 0.9981810 0.0373223 0.0018190 -0.0373223
14402 0.0016857 -0.0357015 0.9983143 0.0357015 0.9983143 0.0357015 0.0016857 -0.0357015
15062 0.0015633 -0.0341509 0.9984367 0.0341509 0.9984367 0.0341509 0.0015633 -0.0341509
15752 0.0014509 -0.0326673 0.9985491 0.0326673 0.9985491 0.0326673 0.0014509 -0.0326673
16473 0.0013477 -0.0312482 0.9986523 0.0312482 0.9986523 0.0312482 0.0013477 -0.0312482
17227 0.0012528 -0.0298906 0.9987472 0.0298906 0.9987472 0.0298906 0.0012528 -0.0298906
18016 0.0011656 -0.0285919 0.9988344 0.0285919 0.9988344 0.0285919 0.0011656 -0.0285919
18841 0.0010853 -0.0273497 0.9989147 0.0273497 0.9989147 0.0273497 0.0010853 -0.0273497
19704 0.0010115 -0.0261615 0.9989885 0.0261615 0.9989885 0.0261615 0.0010115 -0.0261615
20606 0.0009435 -0.0250249 0.9990565 0.0250249 0.9990565 0.0250249 0.0009435 -0.0250249
21550 0.0008808 -0.0239378 0.9991192 0.0239378 0.9991192 0.0239378 0.0008808 -0.0239378
22537 0.0008230 -0.0228981 0.9991770 0.0228981 0.9991770 0.0228981 0.0008230 -0.0228981
23569 0.0007696 -0.0219035 0.9992304 0.0219035 0.9992304 0.0219035 0.0007696 -0.0219035
24648 0.0007203 -0.0209523 0.9992797 0.0209523 0.9992797 0.0209523 0.0007203 -0.0209523
25777 0.0006747 -0.0200425 0.9993253 0.0200425 0.9993253 0.0200425 0.0006747 -0.0200425
26957 0.0006326 -0.0191722 0.9993674 0.0191722 0.9993674 0.0191722 0.0006326 -0.0191722
28191 0.0005935 -0.0183399 0.9994065 0.0183399 0.9994065 0.0183399 0.0005935 -0.0183399
29482 0.0005572 -0.0175437 0.9994428 0.0175437 0.9994428 0.0175437 0.0005572 -0.0175437
30832 0.0005236 -0.0167822 0.9994764 0.0167822 0.9994764 0.0167822 0.0005236 -0.0167822
32244 0.0004923 -0.0160537 0.9995077 0.0160537 0.9995077 0.0160537 0.0004923 -0.0160537
33721 0.0004633 -0.0153569 0.9995367 0.0153569 0.9995367 0.0153569 0.0004633 -0.0153569
35265 0.0004362 -0.0146904 0.9995638 0.0146904 0.9995638 0.0146904 0.0004362 -0.0146904
36880 0.0004110 -0.0140527 0.9995890 0.0140527 0.9995890 0.0140527 0.0004110 -0.0140527
38569 0.0003876 -0.0134428 0.9996124 0.0134428 0.9996124 0.0134428 0.0003876 -0.0134428
40335 0.0003657 -0.0128593 0.9996343 0.0128593 0.9996343 0.0128593 0.0003657 -0.0128593
42182 0.0003453 -0.0123010 0.9996547 0.0123010 0.9996547 0.0123010 0.0003453 -0.0123010
44113 0.0003263 -0.0117670 0.9996737 0.0117670 0.9996737 0.0117670 0.0003263 -0.0117670
46134 0.0003085 -0.0112560 0.9996915 0.0112560 0.9996915 0.0112560 0.0003085 -0.0112560
48246 0.0002920 -0.0107672 0.9997080 0.0107672 0.9997080 0.0107672 0.0002920 -0.0107672
50455 0.0002765 -0.0102995 0.9997235 0.0102995 0.9997235 0.0102995 0.0002765 -0.0102995
52766 0.0002621 -0.0098521 0.9997379 0.0098521 0.9997379 0.0098521 0.0002621 -0.0098521
55182 0.0002486 -0.0094240 0.9997514 0.0094240 0.9997514 0.0094240 0.0002486 -0.0094240
57709 0.0002361 -0.0090144 0.9997639 0.0090144 0.9997639 0.0090144 0.0002361 -0.0090144
60352 0.0002244 -0.0086225 0.9997756 0.0086225 0.9997756 0.0086225 0.0002244 -0.0086225
63115 0.0002135 -0.0082476 0.9997865 0.0082476 0.9997865 0.0082476 0.0002135 -0.0082476
66005 0.0002033 -0.0078889 0.9997967 0.0078889 0.9997967 0.0078889 0.0002033 -0.0078889
69028 0.0001939 -0.0075457 0.9998061 0.0075457 0.9998061 0.0075457 0.0001939 -0.0075457
72189 0.0001851 -0.0072174 0.9998149 0.0072174 0.9998149 0.0072174 0.0001851 -0.0072174
75495 0.0001770 -0.0069032 0.9998230 0.0069032 0.9998230 0.0069032 0.0001770 -0.0069032
78952 0.0001694 -0.0066027 0.9998306 0.0066027 0.9998306 0.0066027 0.0001694 -0.0066027
82567 0.0001623 -0.0063152 0.9998377 0.0063152 0.9998377 0.0063152 0.0001623 -0.0063152
86348 0.0001558 -0.0060402 0.9998442 0.0060402 0.9998442 0.0060402 0.0001558 -0.0060402
90302 0.0001497 -0.0057770 0.9998503 0.0057770 0.9998503 0.0057770 0.0001497 -0.0057770
94437 0.0001441 -0.0055253 0.9998559 0.0055253 0.9998559 0.0055253 0.0001441 -0.0055253
98762 0.0001389 -0.0052845 0.9998611 0.0052845 0.9998611 0.0052845 0.0001389 -0.0052845
103284 0.0001340 -0.0050542 0.9998660 0.0050542 0.9998660 0.0050542 0.0001340 -0.0050542
108014 0.0001296 -0.0048338 0.9998704 0.0048338 0.9998704 0.0048338 0.0001296 -0.0048338
112960 0.0001254 -0.0046231 0.9998746 0.0046231 0.9998746 0.0046231 0.0001254 -0.0046231
118133 0.0001216 -0.0044215 0.9998784 0.0044215 0.9998784 0.0044215 0.0001216 -0.0044215
123542 0.0001180 -0.0042287 0.9998820 0.0042287 0.9998820 0.0042287 0.0001180 -0.0042287
129199 0.0001147 -0.0040442 0.9998853 0.0040442 0.9998853 0.0040442 0.0001147 -0.0040442
135116 0.0001116 -0.0038678 0.9998884 0.0038678 0.9998884 0.0038678 0.0001116 -0.0038678
141303 0.0001088 -0.0036991 0.9998912 0.0036991 0.9998912 0.0036991 0.0001088 -0.0036991
147774 0.0001062 -0.0035377 0.9998938 0.0035377 0.9998938 0.0035377 0.0001062 -0.0035377
154540 0.0001037 -0.0033834 0.9998963 0.0033834 0.9998963 0.0033834 0.0001037 -0.0033834
161617 0.0001014 -0.0032358 0.9998986 0.0032358 0.9998986 0.0032358 0.0001014 -0.0032358
169018 0.0000993 -0.0030946 0.9999007 0.0030946 0.9999007 0.0030946 0.0000993 -0.0030946
176758 0.0000973 -0.0029596 0.9999027 0.0029596 0.9999027 0.0029596 0.0000973 -0.0029596
184852 0.0000954 -0.0028305 0.9999046 0.0028305 0.9999046 0.0028305 0.0000954 -0.0028305
193316 0.0000937 -0.0027070 0.9999063 0.0027070 0.9999063 0.0027070 0.0000937 -0.0027070
202169 0.0000920 -0.0025888 0.9999080 0.0025888 0.9999080 0.0025888 0.0000920 -0.0025888
211427 0.0000905 -0.0024759 0.9999095 0.0024759 0.9999095 0.0024759 0.0000905 -0.0024759
221108 0.0000890 -0.0023678 0.9999110 0.0023678 0.9999110 0.0023678 0.0000890 -0.0023678
231233 0.0000876 -0.0022645 0.9999124 0.0022645 0.9999124 0.0022645 0.0000876 -0.0022645
241822 0.0000863 -0.0021657 0.9999137 0.0021657 0.9999137 0.0021657 0.0000863 -0.0021657
252896 0.0000850 -0.0020711 0.9999150 0.0020711 0.9999150 0.0020711 0.0000850 -0.0020711
264476 0.0000838 -0.0019807 0.9999162 0.0019807 0.9999162 0.0019807 0.0000838 -0.0019807
276587 0.0000827 -0.0018942 0.9999173 0.0018942 0.9999173 0.0018942 0.0000827 -0.0018942
289253 0.0000816 -0.0018115 0.9999184 0.0018115 0.9999184 0.0018115 0.0000816 -0.0018115
302498 0.0000805 -0.0017323 0.9999195 0.0017323 0.9999195 0.0017323 0.0000805 -0.0017323
316350 0.0000795 -0.0016566 0.9999205 0.0016566 0.9999205 0.0016566 0.0000795 -0.0016566
330837 0.0000785 -0.0015842 0.9999215 0.0015842 0.9999215 0.0015842 0.0000785 -0.0015842
345986 0.0000775 -0.0015149 0.9999225 0.0015149 0.9999225 0.0015149 0.0000775 -0.0015149
361830 0.0000765 -0.0014485 0.9999235 0.0014485 0.9999235 0.0014485 0.0000765 -0.0014485
378399 0.0000756 -0.0013851 0.9999244 0.0013851 0.9999244 0.0013851 0.0000756 -0.0013851
395726 0.0000747 -0.0013243 0.9999253 0.0013243 0.9999253 0.0013243 0.0000747 -0.0013243
413847 0.0000739 -0.0012662 0.9999261 0.0012662 0.9999261 0.0012662 0.0000739 -0.0012662
432798 0.0000730 -0.0012105 0.9999270 0.0012105 0.9999270 0.0012105 0.0000730 -0.0012105
452617 0.0000722 -0.0011572 0.9999278 0.0011572 0.9999278 0.0011572 0.0000722 -0.0011572
473344 0.0000714 -0.0011062 0.9999286 0.0011062 0.9999286 0.0011062 0.0000714 -0.0011062
495019 0.0000706 -0.0010574 0.9999294 0.0010574 0.9999294 0.0010574 0.0000706 -0.0010574
517687 0.0000699 -0.0010106 0.9999301 0.0010106 0.9999301 0.0010106 0.0000699 -0.0010106
541393 0.0000692 -0.0009658 0.9999308 0.0009658 0.9999308 0.0009658 0.0000692 -0.0009658
566185 0.0000685 -0.0009229 0.9999315 0.0009229 0.9999315 0.0009229 0.0000685 -0.0009229
592111 0.0000678 -0.0008818 0.9999322 0.0008818 0.9999322 0.0008818 0.0000678 -0.0008818
619225 0.0000671 -0.0008424 0.9999329 0.0008424 0.9999329 0.0008424 0.0000671 -0.0008424
647581 0.0000665 -0.0008047 0.9999335 0.0008047 0.9999335 0.0008047 0.0000665 -0.0008047
677235 0.0000659 -0.0007685 0.9999341 0.0007685 0.9999341 0.0007685 0.0000659 -0.0007685
708247 0.0000654 -0.0007338 0.9999346 0.0007338 0.9999346 0.0007338 0.0000654 -0.0007338
740679 0.0000648 -0.0007006 0.9999352 0.0007006 0.9999352 0.0007006 0.0000648 -0.0007006
774597 0.0000643 -0.0006687 0.9999357 0.0006687 0.9999357 0.0006687 0.0000643 -0.0006687
810067 0.0000639 -0.0006382 0.9999361 0.0006382 0.9999361 0.0006382 0.0000639 -0.0006382
847162 0.0000634 -0.0006089 0.9999366 0.0006089 0.9999366 0.0006089 0.0000634 -0.0006089
885955 0.0000630 -0.0005807 0.9999370 0.0005807 0.9999370 0.0005807 0.0000630 -0.0005807
926525 0.0000626 -0.0005537 0.9999374 0.0005537 0.9999374 0.0005537 0.0000626 -0.0005537
968953 0.0000623 -0.0005278 0.9999377 0.0005278 0.9999377 0.0005278 0.0000623 -0.0005278
1013323 0.0000619 -0.0005030 0.9999381 0.0005030 0.9999381 0.0005030 0.0000619 -0.0005030
1059725 0.0000616 -0.0004791 0.9999384 0.0004791 0.9999384 0.0004791 0.0000616 -0.0004791
1108252 0.0000614 -0.0004562 0.9999386 0.0004562 0.9999386 0.0004562 0.0000614 -0.0004562
1159002 0.0000611 -0.0004341 0.9999389 0.0004341 0.9999389 0.0004341 0.0000611 -0.0004341
1212075 0.0000609 -0.0004129 0.9999391 0.0004129 0.9999391 0.0004129 0.0000609 -0.0004129
1267578 0.0000607 -0.0003926 0.9999393 0.0003926 0.9999393 0.0003926 0.0000607 -0.0003926
1325623 0.0000605 -0.0003730 0.9999395 0.0003730 0.9999395 0.0003730 0.0000605 -0.0003730
1386327 0.0000604 -0.0003541 0.9999396 0.0003541 0.9999396 0.0003541 0.0000604 -0.0003541
1449809 0.0000603 -0.0003359 0.9999397 0.0003359 0.9999397 0.0003359 0.0000603 -0.0003359
1516199 0.0000602 -0.0003184 0.9999398 0.0003184 0.9999398 0.0003184 0.0000602 -0.0003184
1585629 0.0000602 -0.0003016 0.9999398 0.0003016 0.9999398 0.0003016 0.0000602 -0.0003016
1658239 0.0000601 -0.0002853 0.9999399 0.0002853 0.9999399 0.0002853 0.0000601 -0.0002853
1734173 0.0000601 -0.0002696 0.9999399 0.0002696 0.9999399 0.0002696 0.0000601 -0.0002696
1813585 0.0000601 -0.0002544 0.9999399 0.0002544 0.9999399 0.0002544 0.0000601 -0.0002544
1896632 0.0000602 -0.0002398 0.9999398 0.0002398 0.9999398 0.0002398 0.0000602 -0.0002398
1983483 0.0000603 -0.0002256 0.9999397 0.0002256 0.9999397 0.0002256 0.0000603 -0.0002256
2074311 0.0000604 -0.0002118 0.9999396 0.0002118 0.9999396 0.0002118 0.0000604 -0.0002118
