!Murata Part Number: GRM033R61A182KA01
!These Parameters are Measured in Series Mode Connection
!Data Generated on Mar 30, 2021
!       o--ll--o
!Port1            Port2
!       o------o
!Operation Temp=25[degC], DC Bias Voltage=0[V]
!Freq. Start=100[Hz] Stop=6[GHz] 401[Steps]
# Hz S RI R 50
!Freq.(Hz) S11(Real) S11(Imag) S21(Real) S21(Imag) S12(Real) S12(Imag) S22(Real) S22(Imag)
100 0.9999993 -0.0001129 0.0000007 0.0001129 0.0000007 0.0001129 0.9999993 -0.0001129
105 0.9999992 -0.0001180 0.0000008 0.0001180 0.0000008 0.0001180 0.9999992 -0.0001180
109 0.9999992 -0.0001234 0.0000008 0.0001234 0.0000008 0.0001234 0.9999992 -0.0001234
114 0.9999991 -0.0001290 0.0000009 0.0001290 0.0000009 0.0001290 0.9999991 -0.0001290
120 0.9999991 -0.0001349 0.0000009 0.0001349 0.0000009 0.0001349 0.9999991 -0.0001349
125 0.9999990 -0.0001410 0.0000010 0.0001410 0.0000010 0.0001410 0.9999990 -0.0001410
131 0.9999990 -0.0001475 0.0000010 0.0001475 0.0000010 0.0001475 0.9999990 -0.0001475
137 0.9999989 -0.0001542 0.0000011 0.0001542 0.0000011 0.0001542 0.9999989 -0.0001542
143 0.9999989 -0.0001612 0.0000011 0.0001612 0.0000011 0.0001612 0.9999989 -0.0001612
150 0.9999988 -0.0001685 0.0000012 0.0001685 0.0000012 0.0001685 0.9999988 -0.0001685
156 0.9999988 -0.0001762 0.0000012 0.0001762 0.0000012 0.0001762 0.9999988 -0.0001762
164 0.9999987 -0.0001842 0.0000013 0.0001842 0.0000013 0.0001842 0.9999987 -0.0001842
171 0.9999987 -0.0001926 0.0000013 0.0001926 0.0000013 0.0001926 0.9999987 -0.0001926
179 0.9999986 -0.0002014 0.0000014 0.0002014 0.0000014 0.0002014 0.9999986 -0.0002014
187 0.9999986 -0.0002106 0.0000014 0.0002106 0.0000014 0.0002106 0.9999986 -0.0002106
196 0.9999985 -0.0002201 0.0000015 0.0002201 0.0000015 0.0002201 0.9999985 -0.0002201
205 0.9999985 -0.0002302 0.0000015 0.0002302 0.0000015 0.0002302 0.9999985 -0.0002302
214 0.9999984 -0.0002407 0.0000016 0.0002407 0.0000016 0.0002407 0.9999984 -0.0002407
224 0.9999984 -0.0002516 0.0000016 0.0002516 0.0000016 0.0002516 0.9999984 -0.0002516
234 0.9999983 -0.0002631 0.0000017 0.0002631 0.0000017 0.0002631 0.9999983 -0.0002631
245 0.9999982 -0.0002751 0.0000018 0.0002751 0.0000018 0.0002751 0.9999982 -0.0002751
256 0.9999982 -0.0002876 0.0000018 0.0002876 0.0000018 0.0002876 0.9999982 -0.0002876
268 0.9999981 -0.0003008 0.0000019 0.0003008 0.0000019 0.0003008 0.9999981 -0.0003008
280 0.9999980 -0.0003145 0.0000020 0.0003145 0.0000020 0.0003145 0.9999980 -0.0003145
293 0.9999980 -0.0003288 0.0000020 0.0003288 0.0000020 0.0003288 0.9999980 -0.0003288
306 0.9999979 -0.0003438 0.0000021 0.0003438 0.0000021 0.0003438 0.9999979 -0.0003438
320 0.9999978 -0.0003595 0.0000022 0.0003595 0.0000022 0.0003595 0.9999978 -0.0003595
335 0.9999977 -0.0003759 0.0000023 0.0003759 0.0000023 0.0003759 0.9999977 -0.0003759
350 0.9999976 -0.0003931 0.0000024 0.0003931 0.0000024 0.0003931 0.9999976 -0.0003931
366 0.9999976 -0.0004110 0.0000024 0.0004110 0.0000024 0.0004110 0.9999976 -0.0004110
383 0.9999975 -0.0004298 0.0000025 0.0004298 0.0000025 0.0004298 0.9999975 -0.0004298
401 0.9999973 -0.0004494 0.0000027 0.0004494 0.0000027 0.0004494 0.9999973 -0.0004494
419 0.9999972 -0.0004700 0.0000028 0.0004700 0.0000028 0.0004700 0.9999972 -0.0004700
438 0.9999971 -0.0004914 0.0000029 0.0004914 0.0000029 0.0004914 0.9999971 -0.0004914
458 0.9999970 -0.0005139 0.0000030 0.0005139 0.0000030 0.0005139 0.9999970 -0.0005139
479 0.9999968 -0.0005373 0.0000032 0.0005373 0.0000032 0.0005373 0.9999968 -0.0005373
501 0.9999967 -0.0005619 0.0000033 0.0005619 0.0000033 0.0005619 0.9999967 -0.0005619
524 0.9999965 -0.0005875 0.0000035 0.0005875 0.0000035 0.0005875 0.9999965 -0.0005875
548 0.9999964 -0.0006143 0.0000036 0.0006143 0.0000036 0.0006143 0.9999964 -0.0006143
573 0.9999962 -0.0006424 0.0000038 0.0006424 0.0000038 0.0006424 0.9999962 -0.0006424
600 0.9999960 -0.0006717 0.0000040 0.0006717 0.0000040 0.0006717 0.9999960 -0.0006717
627 0.9999958 -0.0007024 0.0000042 0.0007024 0.0000042 0.0007024 0.9999958 -0.0007024
656 0.9999956 -0.0007345 0.0000044 0.0007345 0.0000044 0.0007345 0.9999956 -0.0007345
686 0.9999953 -0.0007680 0.0000047 0.0007680 0.0000047 0.0007680 0.9999953 -0.0007680
717 0.9999951 -0.0008031 0.0000049 0.0008031 0.0000049 0.0008031 0.9999951 -0.0008031
750 0.9999948 -0.0008397 0.0000052 0.0008397 0.0000052 0.0008397 0.9999948 -0.0008397
784 0.9999945 -0.0008781 0.0000055 0.0008781 0.0000055 0.0008781 0.9999945 -0.0008781
820 0.9999942 -0.0009181 0.0000058 0.0009181 0.0000058 0.0009181 0.9999942 -0.0009181
858 0.9999939 -0.0009600 0.0000061 0.0009600 0.0000061 0.0009600 0.9999939 -0.0009600
897 0.9999936 -0.0010038 0.0000064 0.0010038 0.0000064 0.0010038 0.9999936 -0.0010038
938 0.9999932 -0.0010496 0.0000068 0.0010496 0.0000068 0.0010496 0.9999932 -0.0010496
981 0.9999928 -0.0010975 0.0000072 0.0010975 0.0000072 0.0010975 0.9999928 -0.0010975
1026 0.9999924 -0.0011476 0.0000076 0.0011476 0.0000076 0.0011476 0.9999924 -0.0011476
1073 0.9999920 -0.0012000 0.0000080 0.0012000 0.0000080 0.0012000 0.9999920 -0.0012000
1122 0.9999915 -0.0012547 0.0000085 0.0012547 0.0000085 0.0012547 0.9999915 -0.0012547
1174 0.9999911 -0.0013120 0.0000089 0.0013120 0.0000089 0.0013120 0.9999911 -0.0013120
1227 0.9999906 -0.0013718 0.0000094 0.0013718 0.0000094 0.0013718 0.9999906 -0.0013718
1283 0.9999900 -0.0014344 0.0000100 0.0014344 0.0000100 0.0014344 0.9999900 -0.0014344
1342 0.9999895 -0.0014998 0.0000105 0.0014998 0.0000105 0.0014998 0.9999895 -0.0014998
1404 0.9999889 -0.0015682 0.0000111 0.0015682 0.0000111 0.0015682 0.9999889 -0.0015682
1468 0.9999883 -0.0016397 0.0000117 0.0016397 0.0000117 0.0016397 0.9999883 -0.0016397
1535 0.9999876 -0.0017145 0.0000124 0.0017145 0.0000124 0.0017145 0.9999876 -0.0017145
1606 0.9999869 -0.0017927 0.0000131 0.0017927 0.0000131 0.0017927 0.9999869 -0.0017927
1679 0.9999862 -0.0018745 0.0000138 0.0018745 0.0000138 0.0018745 0.9999862 -0.0018745
1756 0.9999854 -0.0019600 0.0000146 0.0019600 0.0000146 0.0019600 0.9999854 -0.0019600
1836 0.9999846 -0.0020494 0.0000154 0.0020494 0.0000154 0.0020494 0.9999846 -0.0020494
1920 0.9999838 -0.0021429 0.0000162 0.0021429 0.0000162 0.0021429 0.9999838 -0.0021429
2008 0.9999828 -0.0022407 0.0000172 0.0022407 0.0000172 0.0022407 0.9999828 -0.0022407
2100 0.9999819 -0.0023429 0.0000181 0.0023429 0.0000181 0.0023429 0.9999819 -0.0023429
2196 0.9999808 -0.0024499 0.0000192 0.0024499 0.0000192 0.0024499 0.9999808 -0.0024499
2297 0.9999797 -0.0025617 0.0000203 0.0025617 0.0000203 0.0025617 0.9999797 -0.0025617
2402 0.9999785 -0.0026786 0.0000215 0.0026786 0.0000215 0.0026786 0.9999785 -0.0026786
2512 0.9999773 -0.0028008 0.0000227 0.0028008 0.0000227 0.0028008 0.9999773 -0.0028008
2627 0.9999759 -0.0029287 0.0000241 0.0029287 0.0000241 0.0029287 0.9999759 -0.0029287
2748 0.9999745 -0.0030623 0.0000255 0.0030623 0.0000255 0.0030623 0.9999745 -0.0030623
2873 0.9999729 -0.0032021 0.0000271 0.0032021 0.0000271 0.0032021 0.9999729 -0.0032021
3005 0.9999712 -0.0033483 0.0000288 0.0033483 0.0000288 0.0033483 0.9999712 -0.0033483
3143 0.9999694 -0.0035012 0.0000306 0.0035012 0.0000306 0.0035012 0.9999694 -0.0035012
3287 0.9999674 -0.0036611 0.0000326 0.0036611 0.0000326 0.0036611 0.9999674 -0.0036611
3437 0.9999653 -0.0038282 0.0000347 0.0038282 0.0000347 0.0038282 0.9999653 -0.0038282
3594 0.9999630 -0.0040030 0.0000370 0.0040030 0.0000370 0.0040030 0.9999630 -0.0040030
3759 0.9999605 -0.0041858 0.0000395 0.0041858 0.0000395 0.0041858 0.9999605 -0.0041858
3931 0.9999579 -0.0043769 0.0000421 0.0043769 0.0000421 0.0043769 0.9999579 -0.0043769
4111 0.9999550 -0.0045768 0.0000450 0.0045768 0.0000450 0.0045768 0.9999550 -0.0045768
4299 0.9999518 -0.0047857 0.0000482 0.0047857 0.0000482 0.0047857 0.9999518 -0.0047857
4496 0.9999484 -0.0050042 0.0000516 0.0050042 0.0000516 0.0050042 0.9999484 -0.0050042
4702 0.9999447 -0.0052327 0.0000553 0.0052327 0.0000553 0.0052327 0.9999447 -0.0052327
4918 0.9999407 -0.0054716 0.0000593 0.0054716 0.0000593 0.0054716 0.9999407 -0.0054716
5143 0.9999364 -0.0057214 0.0000636 0.0057214 0.0000636 0.0057214 0.9999364 -0.0057214
5378 0.9999317 -0.0059825 0.0000683 0.0059825 0.0000683 0.0059825 0.9999317 -0.0059825
5625 0.9999267 -0.0062556 0.0000733 0.0062556 0.0000733 0.0062556 0.9999267 -0.0062556
5882 0.9999212 -0.0065411 0.0000788 0.0065411 0.0000788 0.0065411 0.9999212 -0.0065411
6151 0.9999153 -0.0068396 0.0000847 0.0068396 0.0000847 0.0068396 0.9999153 -0.0068396
6433 0.9999088 -0.0071516 0.0000912 0.0071516 0.0000912 0.0071516 0.9999088 -0.0071516
6728 0.9999019 -0.0074779 0.0000981 0.0074779 0.0000981 0.0074779 0.9999019 -0.0074779
7036 0.9998944 -0.0078191 0.0001056 0.0078191 0.0001056 0.0078191 0.9998944 -0.0078191
7358 0.9998863 -0.0081757 0.0001137 0.0081757 0.0001137 0.0081757 0.9998863 -0.0081757
7695 0.9998775 -0.0085486 0.0001225 0.0085486 0.0001225 0.0085486 0.9998775 -0.0085486
8047 0.9998680 -0.0089384 0.0001320 0.0089384 0.0001320 0.0089384 0.9998680 -0.0089384
8416 0.9998577 -0.0093460 0.0001423 0.0093460 0.0001423 0.0093460 0.9998577 -0.0093460
8801 0.9998466 -0.0097721 0.0001534 0.0097721 0.0001534 0.0097721 0.9998466 -0.0097721
9204 0.9998347 -0.0102175 0.0001653 0.0102175 0.0001653 0.0102175 0.9998347 -0.0102175
9626 0.9998217 -0.0106832 0.0001783 0.0106832 0.0001783 0.0106832 0.9998217 -0.0106832
10066 0.9998077 -0.0111702 0.0001923 0.0111702 0.0001923 0.0111702 0.9998077 -0.0111702
10527 0.9997926 -0.0116792 0.0002074 0.0116792 0.0002074 0.0116792 0.9997926 -0.0116792
11009 0.9997763 -0.0122114 0.0002237 0.0122114 0.0002237 0.0122114 0.9997763 -0.0122114
11514 0.9997587 -0.0127678 0.0002413 0.0127678 0.0002413 0.0127678 0.9997587 -0.0127678
12041 0.9997397 -0.0133496 0.0002603 0.0133496 0.0002603 0.0133496 0.9997397 -0.0133496
12592 0.9997191 -0.0139578 0.0002809 0.0139578 0.0002809 0.0139578 0.9997191 -0.0139578
13169 0.9996968 -0.0145937 0.0003032 0.0145937 0.0003032 0.0145937 0.9996968 -0.0145937
13772 0.9996727 -0.0152586 0.0003273 0.0152586 0.0003273 0.0152586 0.9996727 -0.0152586
14402 0.9996466 -0.0159537 0.0003534 0.0159537 0.0003534 0.0159537 0.9996466 -0.0159537
15062 0.9996183 -0.0166805 0.0003817 0.0166805 0.0003817 0.0166805 0.9996183 -0.0166805
15752 0.9995876 -0.0174404 0.0004124 0.0174404 0.0004124 0.0174404 0.9995876 -0.0174404
16473 0.9995544 -0.0182349 0.0004456 0.0182349 0.0004456 0.0182349 0.9995544 -0.0182349
17227 0.9995184 -0.0190656 0.0004816 0.0190656 0.0004816 0.0190656 0.9995184 -0.0190656
18016 0.9994792 -0.0199342 0.0005208 0.0199342 0.0005208 0.0199342 0.9994792 -0.0199342
18841 0.9994367 -0.0208423 0.0005633 0.0208423 0.0005633 0.0208423 0.9994367 -0.0208423
19704 0.9993905 -0.0217918 0.0006095 0.0217918 0.0006095 0.0217918 0.9993905 -0.0217918
20606 0.9993403 -0.0227846 0.0006597 0.0227846 0.0006597 0.0227846 0.9993403 -0.0227846
21550 0.9992857 -0.0238225 0.0007143 0.0238225 0.0007143 0.0238225 0.9992857 -0.0238225
22537 0.9992263 -0.0249078 0.0007737 0.0249078 0.0007737 0.0249078 0.9992263 -0.0249078
23569 0.9991616 -0.0260424 0.0008384 0.0260424 0.0008384 0.0260424 0.9991616 -0.0260424
24648 0.9990911 -0.0272286 0.0009089 0.0272286 0.0009089 0.0272286 0.9990911 -0.0272286
25777 0.9990143 -0.0284688 0.0009857 0.0284688 0.0009857 0.0284688 0.9990143 -0.0284688
26957 0.9989306 -0.0297653 0.0010694 0.0297653 0.0010694 0.0297653 0.9989306 -0.0297653
28191 0.9988394 -0.0311208 0.0011606 0.0311208 0.0011606 0.0311208 0.9988394 -0.0311208
29482 0.9987399 -0.0325377 0.0012601 0.0325377 0.0012601 0.0325377 0.9987399 -0.0325377
30832 0.9986315 -0.0340189 0.0013685 0.0340189 0.0013685 0.0340189 0.9986315 -0.0340189
32244 0.9985132 -0.0355672 0.0014868 0.0355672 0.0014868 0.0355672 0.9985132 -0.0355672
33721 0.9983841 -0.0371856 0.0016159 0.0371856 0.0016159 0.0371856 0.9983841 -0.0371856
35265 0.9982433 -0.0388772 0.0017567 0.0388772 0.0017567 0.0388772 0.9982433 -0.0388772
36880 0.9980897 -0.0406451 0.0019103 0.0406451 0.0019103 0.0406451 0.9980897 -0.0406451
38569 0.9979220 -0.0424928 0.0020780 0.0424928 0.0020780 0.0424928 0.9979220 -0.0424928
40335 0.9977391 -0.0444237 0.0022609 0.0444237 0.0022609 0.0444237 0.9977391 -0.0444237
42182 0.9975396 -0.0464415 0.0024604 0.0464415 0.0024604 0.0464415 0.9975396 -0.0464415
44113 0.9973218 -0.0485498 0.0026782 0.0485498 0.0026782 0.0485498 0.9973218 -0.0485498
46134 0.9970842 -0.0507527 0.0029158 0.0507527 0.0029158 0.0507527 0.9970842 -0.0507527
48246 0.9968250 -0.0530540 0.0031750 0.0530540 0.0031750 0.0530540 0.9968250 -0.0530540
50455 0.9965423 -0.0554582 0.0034577 0.0554582 0.0034577 0.0554582 0.9965423 -0.0554582
52766 0.9962338 -0.0579694 0.0037662 0.0579694 0.0037662 0.0579694 0.9962338 -0.0579694
55182 0.9958974 -0.0605923 0.0041026 0.0605923 0.0041026 0.0605923 0.9958974 -0.0605923
57709 0.9955305 -0.0633314 0.0044695 0.0633314 0.0044695 0.0633314 0.9955305 -0.0633314
60352 0.9951304 -0.0661917 0.0048696 0.0661917 0.0048696 0.0661917 0.9951304 -0.0661917
63115 0.9946941 -0.0691781 0.0053059 0.0691781 0.0053059 0.0691781 0.9946941 -0.0691781
66005 0.9942185 -0.0722958 0.0057815 0.0722958 0.0057815 0.0722958 0.9942185 -0.0722958
69028 0.9937002 -0.0755501 0.0062998 0.0755501 0.0062998 0.0755501 0.9937002 -0.0755501
72189 0.9931352 -0.0789464 0.0068648 0.0789464 0.0068648 0.0789464 0.9931352 -0.0789464
75495 0.9925195 -0.0824905 0.0074805 0.0824905 0.0074805 0.0824905 0.9925195 -0.0824905
78952 0.9918487 -0.0861881 0.0081513 0.0861881 0.0081513 0.0861881 0.9918487 -0.0861881
82567 0.9911180 -0.0900452 0.0088820 0.0900452 0.0088820 0.0900452 0.9911180 -0.0900452
86348 0.9903221 -0.0940678 0.0096779 0.0940678 0.0096779 0.0940678 0.9903221 -0.0940678
90302 0.9894553 -0.0982623 0.0105447 0.0982623 0.0105447 0.0982623 0.9894553 -0.0982623
94437 0.9885115 -0.1026348 0.0114885 0.1026348 0.0114885 0.1026348 0.9885115 -0.1026348
98762 0.9874840 -0.1071919 0.0125160 0.1071919 0.0125160 0.1071919 0.9874840 -0.1071919
103284 0.9863656 -0.1119400 0.0136344 0.1119400 0.0136344 0.1119400 0.9863656 -0.1119400
108014 0.9851483 -0.1168858 0.0148517 0.1168858 0.0148517 0.1168858 0.9851483 -0.1168858
112960 0.9838238 -0.1220358 0.0161762 0.1220358 0.0161762 0.1220358 0.9838238 -0.1220358
118133 0.9823828 -0.1273966 0.0176172 0.1273966 0.0176172 0.1273966 0.9823828 -0.1273966
123542 0.9808154 -0.1329748 0.0191846 0.1329748 0.0191846 0.1329748 0.9808154 -0.1329748
129199 0.9791109 -0.1387768 0.0208891 0.1387768 0.0208891 0.1387768 0.9791109 -0.1387768
135116 0.9772577 -0.1448088 0.0227423 0.1448088 0.0227423 0.1448088 0.9772577 -0.1448088
141303 0.9752433 -0.1510769 0.0247567 0.1510769 0.0247567 0.1510769 0.9752433 -0.1510769
147774 0.9730544 -0.1575868 0.0269456 0.1575868 0.0269456 0.1575868 0.9730544 -0.1575868
154540 0.9706765 -0.1643439 0.0293235 0.1643439 0.0293235 0.1643439 0.9706765 -0.1643439
161617 0.9680941 -0.1713531 0.0319059 0.1713531 0.0319059 0.1713531 0.9680941 -0.1713531
169018 0.9652908 -0.1786185 0.0347092 0.1786185 0.0347092 0.1786185 0.9652908 -0.1786185
176758 0.9622488 -0.1861438 0.0377512 0.1861438 0.0377512 0.1861438 0.9622488 -0.1861438
184852 0.9589496 -0.1939316 0.0410504 0.1939316 0.0410504 0.1939316 0.9589496 -0.1939316
193316 0.9553730 -0.2019837 0.0446270 0.2019837 0.0446270 0.2019837 0.9553730 -0.2019837
202169 0.9514980 -0.2103007 0.0485020 0.2103007 0.0485020 0.2103007 0.9514980 -0.2103007
211427 0.9473023 -0.2188816 0.0526977 0.2188816 0.0526977 0.2188816 0.9473023 -0.2188816
221108 0.9427626 -0.2277244 0.0572374 0.2277244 0.0572374 0.2277244 0.9427626 -0.2277244
231233 0.9378543 -0.2368249 0.0621457 0.2368249 0.0621457 0.2368249 0.9378543 -0.2368249
241822 0.9325518 -0.2461772 0.0674482 0.2461772 0.0674482 0.2461772 0.9325518 -0.2461772
252896 0.9268288 -0.2557732 0.0731712 0.2557732 0.0731712 0.2557732 0.9268288 -0.2557732
264476 0.9206580 -0.2656025 0.0793420 0.2656025 0.0793420 0.2656025 0.9206580 -0.2656025
276587 0.9140113 -0.2756519 0.0859887 0.2756519 0.0859887 0.2756519 0.9140113 -0.2756519
289253 0.9068604 -0.2859056 0.0931396 0.2859056 0.0931396 0.2859056 0.9068604 -0.2859056
302498 0.8991767 -0.2963444 0.1008233 0.2963444 0.1008233 0.2963444 0.8991767 -0.2963444
316350 0.8909317 -0.3069460 0.1090683 0.3069460 0.1090683 0.3069460 0.8909317 -0.3069460
330837 0.8820970 -0.3176845 0.1179030 0.3176845 0.1179030 0.3176845 0.8820970 -0.3176845
345986 0.8726452 -0.3285304 0.1273548 0.3285304 0.1273548 0.3285304 0.8726452 -0.3285304
361830 0.8625502 -0.3394501 0.1374498 0.3394501 0.1374498 0.3394501 0.8625502 -0.3394501
378399 0.8517872 -0.3504063 0.1482128 0.3504063 0.1482128 0.3504063 0.8517872 -0.3504063
395726 0.8403340 -0.3613574 0.1596660 0.3613574 0.1596660 0.3613574 0.8403340 -0.3613574
413847 0.8281709 -0.3722580 0.1718291 0.3722580 0.1718291 0.3722580 0.8281709 -0.3722580
432798 0.8152816 -0.3830586 0.1847184 0.3830586 0.1847184 0.3830586 0.8152816 -0.3830586
452617 0.8016538 -0.3937062 0.1983462 0.3937062 0.1983462 0.3937062 0.8016538 -0.3937062
473344 0.7872799 -0.4041442 0.2127201 0.4041442 0.2127201 0.4041442 0.7872799 -0.4041442
495019 0.7721576 -0.4143127 0.2278424 0.4143127 0.2278424 0.4143127 0.7721576 -0.4143127
517687 0.7562903 -0.4241497 0.2437097 0.4241497 0.2437097 0.4241497 0.7562903 -0.4241497
541393 0.7396882 -0.4335910 0.2603118 0.4335910 0.2603118 0.4335910 0.7396882 -0.4335910
566185 0.7223682 -0.4425713 0.2776318 0.4425713 0.2776318 0.4425713 0.7223682 -0.4425713
592111 0.7043547 -0.4510249 0.2956453 0.4510249 0.2956453 0.4510249 0.7043547 -0.4510249
619225 0.6856797 -0.4588870 0.3143203 0.4588870 0.3143203 0.4588870 0.6856797 -0.4588870
647581 0.6663830 -0.4660942 0.3336170 0.4660942 0.3336170 0.4660942 0.6663830 -0.4660942
677235 0.6465123 -0.4725862 0.3534877 0.4725862 0.3534877 0.4725862 0.6465123 -0.4725862
708247 0.6261227 -0.4783066 0.3738773 0.4783066 0.3738773 0.4783066 0.6261227 -0.4783066
740679 0.6052766 -0.4832039 0.3947234 0.4832039 0.3947234 0.4832039 0.6052766 -0.4832039
774597 0.5840427 -0.4872330 0.4159573 0.4872330 0.4159573 0.4872330 0.5840427 -0.4872330
810067 0.5624957 -0.4903559 0.4375043 0.4903559 0.4375043 0.4903559 0.5624957 -0.4903559
847162 0.5407149 -0.4925425 0.4592851 0.4925425 0.4592851 0.4925425 0.5407149 -0.4925425
885955 0.5187834 -0.4937717 0.4812166 0.4937717 0.4812166 0.4937717 0.5187834 -0.4937717
926525 0.4967865 -0.4940313 0.5032135 0.4940313 0.5032135 0.4940313 0.4967865 -0.4940313
968953 0.4748107 -0.4933189 0.5251893 0.4933189 0.5251893 0.4933189 0.4748107 -0.4933189
1013323 0.4529421 -0.4916417 0.5470579 0.4916417 0.5470579 0.4916417 0.4529421 -0.4916417
1059725 0.4312652 -0.4890163 0.5687348 0.4890163 0.5687348 0.4890163 0.4312652 -0.4890163
1108252 0.4098614 -0.4854683 0.5901386 0.4854683 0.5901386 0.4854683 0.4098614 -0.4854683
1159002 0.3888079 -0.4810318 0.6111921 0.4810318 0.6111921 0.4810318 0.3888079 -0.4810318
1212075 0.3681769 -0.4757487 0.6318231 0.4757487 0.6318231 0.4757487 0.3681769 -0.4757487
1267578 0.3480341 -0.4696675 0.6519659 0.4696675 0.6519659 0.4696675 0.3480341 -0.4696675
1325623 0.3284384 -0.4628424 0.6715616 0.4628424 0.6715616 0.4628424 0.3284384 -0.4628424
1386327 0.3094413 -0.4553323 0.6905587 0.4553323 0.6905587 0.4553323 0.3094413 -0.4553323
1449809 0.2910866 -0.4471994 0.7089134 0.4471994 0.7089134 0.4471994 0.2910866 -0.4471994
1516199 0.2734100 -0.4385081 0.7265900 0.4385081 0.7265900 0.4385081 0.2734100 -0.4385081
1585629 0.2564395 -0.4293243 0.7435605 0.4293243 0.7435605 0.4293243 0.2564395 -0.4293243
1658239 0.2401956 -0.4197137 0.7598044 0.4197137 0.7598044 0.4197137 0.2401956 -0.4197137
1734173 0.2246912 -0.4097413 0.7753088 0.4097413 0.7753088 0.4097413 0.2246912 -0.4097413
1813585 0.2099327 -0.3994706 0.7900673 0.3994706 0.7900673 0.3994706 0.2099327 -0.3994706
1896632 0.1959203 -0.3889626 0.8040797 0.3889626 0.8040797 0.3889626 0.1959203 -0.3889626
1983483 0.1826482 -0.3782754 0.8173518 0.3782754 0.8173518 0.3782754 0.1826482 -0.3782754
2074311 0.1701060 -0.3674638 0.8298940 0.3674638 0.8298940 0.3674638 0.1701060 -0.3674638
