!Murata Part Number: GRM033C81A473KE05
!These Parameters are Measured in Series Mode Connection
!Data Generated on Mar 30, 2021
!       o--ll--o
!Port1            Port2
!       o------o
!Operation Temp=25[degC], DC Bias Voltage=0[V]
!Freq. Start=100[Hz] Stop=6[GHz] 401[Steps]
# Hz S RI R 50
!Freq.(Hz) S11(Real) S11(Imag) S21(Real) S21(Imag) S12(Real) S12(Imag) S22(Real) S22(Imag)
100 0.9999625 -0.0028079 0.0000375 0.0028079 0.0000375 0.0028079 0.9999625 -0.0028079
105 0.9999607 -0.0029356 0.0000393 0.0029356 0.0000393 0.0029356 0.9999607 -0.0029356
109 0.9999588 -0.0030691 0.0000412 0.0030691 0.0000412 0.0030691 0.9999588 -0.0030691
114 0.9999567 -0.0032087 0.0000433 0.0032087 0.0000433 0.0032087 0.9999567 -0.0032087
120 0.9999546 -0.0033547 0.0000454 0.0033547 0.0000454 0.0033547 0.9999546 -0.0033547
125 0.9999522 -0.0035074 0.0000478 0.0035074 0.0000478 0.0035074 0.9999522 -0.0035074
131 0.9999498 -0.0036670 0.0000502 0.0036670 0.0000502 0.0036670 0.9999498 -0.0036670
137 0.9999471 -0.0038339 0.0000529 0.0038339 0.0000529 0.0038339 0.9999471 -0.0038339
143 0.9999443 -0.0040084 0.0000557 0.0040084 0.0000557 0.0040084 0.9999443 -0.0040084
150 0.9999412 -0.0041908 0.0000588 0.0041908 0.0000588 0.0041908 0.9999412 -0.0041908
156 0.9999380 -0.0043816 0.0000620 0.0043816 0.0000620 0.0043816 0.9999380 -0.0043816
164 0.9999345 -0.0045810 0.0000655 0.0045810 0.0000655 0.0045810 0.9999345 -0.0045810
171 0.9999307 -0.0047896 0.0000693 0.0047896 0.0000693 0.0047896 0.9999307 -0.0047896
179 0.9999267 -0.0050076 0.0000733 0.0050076 0.0000733 0.0050076 0.9999267 -0.0050076
187 0.9999224 -0.0052355 0.0000776 0.0052355 0.0000776 0.0052355 0.9999224 -0.0052355
196 0.9999178 -0.0054738 0.0000822 0.0054738 0.0000822 0.0054738 0.9999178 -0.0054738
205 0.9999128 -0.0057229 0.0000872 0.0057229 0.0000872 0.0057229 0.9999128 -0.0057229
214 0.9999075 -0.0059834 0.0000925 0.0059834 0.0000925 0.0059834 0.9999075 -0.0059834
224 0.9999018 -0.0062557 0.0000982 0.0062557 0.0000982 0.0062557 0.9999018 -0.0062557
234 0.9998957 -0.0065404 0.0001043 0.0065404 0.0001043 0.0065404 0.9998957 -0.0065404
245 0.9998891 -0.0068380 0.0001109 0.0068380 0.0001109 0.0068380 0.9998891 -0.0068380
256 0.9998821 -0.0071491 0.0001179 0.0071491 0.0001179 0.0071491 0.9998821 -0.0071491
268 0.9998745 -0.0074744 0.0001255 0.0074744 0.0001255 0.0074744 0.9998745 -0.0074744
280 0.9998664 -0.0078145 0.0001336 0.0078145 0.0001336 0.0078145 0.9998664 -0.0078145
293 0.9998577 -0.0081700 0.0001423 0.0081700 0.0001423 0.0081700 0.9998577 -0.0081700
306 0.9998484 -0.0085417 0.0001516 0.0085417 0.0001516 0.0085417 0.9998484 -0.0085417
320 0.9998384 -0.0089303 0.0001616 0.0089303 0.0001616 0.0089303 0.9998384 -0.0089303
335 0.9998277 -0.0093366 0.0001723 0.0093366 0.0001723 0.0093366 0.9998277 -0.0093366
350 0.9998162 -0.0097614 0.0001838 0.0097614 0.0001838 0.0097614 0.9998162 -0.0097614
366 0.9998038 -0.0102055 0.0001962 0.0102055 0.0001962 0.0102055 0.9998038 -0.0102055
383 0.9997904 -0.0106698 0.0002096 0.0106698 0.0002096 0.0106698 0.9997904 -0.0106698
401 0.9997761 -0.0111553 0.0002239 0.0111553 0.0002239 0.0111553 0.9997761 -0.0111553
419 0.9997606 -0.0116628 0.0002394 0.0116628 0.0002394 0.0116628 0.9997606 -0.0116628
438 0.9997439 -0.0121935 0.0002561 0.0121935 0.0002561 0.0121935 0.9997439 -0.0121935
458 0.9997259 -0.0127484 0.0002741 0.0127484 0.0002741 0.0127484 0.9997259 -0.0127484
479 0.9997065 -0.0133285 0.0002935 0.0133285 0.0002935 0.0133285 0.9997065 -0.0133285
501 0.9996855 -0.0139351 0.0003145 0.0139351 0.0003145 0.0139351 0.9996855 -0.0139351
524 0.9996627 -0.0145692 0.0003373 0.0145692 0.0003373 0.0145692 0.9996627 -0.0145692
548 0.9996381 -0.0152323 0.0003619 0.0152323 0.0003619 0.0152323 0.9996381 -0.0152323
573 0.9996115 -0.0159256 0.0003885 0.0159256 0.0003885 0.0159256 0.9996115 -0.0159256
600 0.9995827 -0.0166504 0.0004173 0.0166504 0.0004173 0.0166504 0.9995827 -0.0166504
627 0.9995514 -0.0174082 0.0004486 0.0174082 0.0004486 0.0174082 0.9995514 -0.0174082
656 0.9995175 -0.0182005 0.0004825 0.0182005 0.0004825 0.0182005 0.9995175 -0.0182005
686 0.9994806 -0.0190289 0.0005194 0.0190289 0.0005194 0.0190289 0.9994806 -0.0190289
717 0.9994407 -0.0198949 0.0005593 0.0198949 0.0005593 0.0198949 0.9994407 -0.0198949
750 0.9993973 -0.0208003 0.0006027 0.0208003 0.0006027 0.0208003 0.9993973 -0.0208003
784 0.9993502 -0.0217468 0.0006498 0.0217468 0.0006498 0.0217468 0.9993502 -0.0217468
820 0.9992990 -0.0227363 0.0007010 0.0227363 0.0007010 0.0227363 0.9992990 -0.0227363
858 0.9992433 -0.0237708 0.0007567 0.0237708 0.0007567 0.0237708 0.9992433 -0.0237708
897 0.9991828 -0.0248521 0.0008172 0.0248521 0.0008172 0.0248521 0.9991828 -0.0248521
938 0.9991171 -0.0259825 0.0008829 0.0259825 0.0008829 0.0259825 0.9991171 -0.0259825
981 0.9990457 -0.0271641 0.0009543 0.0271641 0.0009543 0.0271641 0.9990457 -0.0271641
1026 0.9989680 -0.0283993 0.0010320 0.0283993 0.0010320 0.0283993 0.9989680 -0.0283993
1073 0.9988836 -0.0296903 0.0011164 0.0296903 0.0011164 0.0296903 0.9988836 -0.0296903
1122 0.9987917 -0.0310398 0.0012083 0.0310398 0.0012083 0.0310398 0.9987917 -0.0310398
1174 0.9986919 -0.0324503 0.0013081 0.0324503 0.0013081 0.0324503 0.9986919 -0.0324503
1227 0.9985834 -0.0339245 0.0014166 0.0339245 0.0014166 0.0339245 0.9985834 -0.0339245
1283 0.9984653 -0.0354654 0.0015347 0.0354654 0.0015347 0.0354654 0.9984653 -0.0354654
1342 0.9983369 -0.0370758 0.0016631 0.0370758 0.0016631 0.0370758 0.9983369 -0.0370758
1404 0.9981973 -0.0387588 0.0018027 0.0387588 0.0018027 0.0387588 0.9981973 -0.0387588
1468 0.9980454 -0.0405177 0.0019546 0.0405177 0.0019546 0.0405177 0.9980454 -0.0405177
1535 0.9978801 -0.0423559 0.0021199 0.0423559 0.0021199 0.0423559 0.9978801 -0.0423559
1606 0.9977003 -0.0442769 0.0022997 0.0442769 0.0022997 0.0442769 0.9977003 -0.0442769
1679 0.9975046 -0.0462842 0.0024954 0.0462842 0.0024954 0.0462842 0.9975046 -0.0462842
1756 0.9972916 -0.0483818 0.0027084 0.0483818 0.0027084 0.0483818 0.9972916 -0.0483818
1836 0.9970598 -0.0505736 0.0029402 0.0505736 0.0029402 0.0505736 0.9970598 -0.0505736
1920 0.9968074 -0.0528638 0.0031926 0.0528638 0.0031926 0.0528638 0.9968074 -0.0528638
2008 0.9965325 -0.0552565 0.0034675 0.0552565 0.0034675 0.0552565 0.9965325 -0.0552565
2100 0.9962332 -0.0577563 0.0037668 0.0577563 0.0037668 0.0577563 0.9962332 -0.0577563
2196 0.9959070 -0.0603677 0.0040930 0.0603677 0.0040930 0.0603677 0.9959070 -0.0603677
2297 0.9955517 -0.0630956 0.0044483 0.0630956 0.0044483 0.0630956 0.9955517 -0.0630956
2402 0.9951646 -0.0659450 0.0048354 0.0659450 0.0048354 0.0659450 0.9951646 -0.0659450
2512 0.9947426 -0.0689209 0.0052574 0.0689209 0.0052574 0.0689209 0.9947426 -0.0689209
2627 0.9942827 -0.0720287 0.0057173 0.0720287 0.0057173 0.0720287 0.9942827 -0.0720287
2748 0.9937813 -0.0752737 0.0062187 0.0752737 0.0062187 0.0752737 0.9937813 -0.0752737
2873 0.9932346 -0.0786618 0.0067654 0.0786618 0.0067654 0.0786618 0.9932346 -0.0786618
3005 0.9926386 -0.0821986 0.0073614 0.0821986 0.0073614 0.0821986 0.9926386 -0.0821986
3143 0.9919887 -0.0858900 0.0080113 0.0858900 0.0080113 0.0858900 0.9919887 -0.0858900
3287 0.9912800 -0.0897422 0.0087200 0.0897422 0.0087200 0.0897422 0.9912800 -0.0897422
3437 0.9905072 -0.0937615 0.0094928 0.0937615 0.0094928 0.0937615 0.9905072 -0.0937615
3594 0.9896646 -0.0979541 0.0103354 0.0979541 0.0103354 0.0979541 0.9896646 -0.0979541
3759 0.9887458 -0.1023264 0.0112542 0.1023264 0.0112542 0.1023264 0.9887458 -0.1023264
3931 0.9877440 -0.1068852 0.0122560 0.1068852 0.0122560 0.1068852 0.9877440 -0.1068852
4111 0.9866519 -0.1116368 0.0133481 0.1116368 0.0133481 0.1116368 0.9866519 -0.1116368
4299 0.9854615 -0.1165881 0.0145385 0.1165881 0.0145385 0.1165881 0.9854615 -0.1165881
4496 0.9841641 -0.1217456 0.0158359 0.1217456 0.0158359 0.1217456 0.9841641 -0.1217456
4702 0.9827504 -0.1271160 0.0172496 0.1271160 0.0172496 0.1271160 0.9827504 -0.1271160
4918 0.9812103 -0.1327058 0.0187897 0.1327058 0.0187897 0.1327058 0.9812103 -0.1327058
5143 0.9795329 -0.1385214 0.0204671 0.1385214 0.0204671 0.1385214 0.9795329 -0.1385214
5378 0.9777066 -0.1445690 0.0222934 0.1445690 0.0222934 0.1445690 0.9777066 -0.1445690
5625 0.9757186 -0.1508548 0.0242814 0.1508548 0.0242814 0.1508548 0.9757186 -0.1508548
5882 0.9735556 -0.1573843 0.0264444 0.1573843 0.0264444 0.1573843 0.9735556 -0.1573843
6151 0.9712029 -0.1641629 0.0287971 0.1641629 0.0287971 0.1641629 0.9712029 -0.1641629
6433 0.9686451 -0.1711953 0.0313549 0.1711953 0.0313549 0.1711953 0.9686451 -0.1711953
6728 0.9658656 -0.1784857 0.0341344 0.1784857 0.0341344 0.1784857 0.9658656 -0.1784857
7036 0.9628468 -0.1860376 0.0371532 0.1860376 0.0371532 0.1860376 0.9628468 -0.1860376
7358 0.9595697 -0.1938536 0.0404303 0.1938536 0.0404303 0.1938536 0.9595697 -0.1938536
7695 0.9560147 -0.2019355 0.0439853 0.2019355 0.0439853 0.2019355 0.9560147 -0.2019355
8047 0.9521605 -0.2102836 0.0478395 0.2102836 0.0478395 0.2102836 0.9521605 -0.2102836
8416 0.9479850 -0.2188973 0.0520150 0.2188973 0.0520150 0.2188973 0.9479850 -0.2188973
8801 0.9434648 -0.2277742 0.0565352 0.2277742 0.0565352 0.2277742 0.9434648 -0.2277742
9204 0.9385755 -0.2369105 0.0614245 0.2369105 0.0614245 0.2369105 0.9385755 -0.2369105
9626 0.9332917 -0.2463002 0.0667083 0.2463002 0.0667083 0.2463002 0.9332917 -0.2463002
10066 0.9275871 -0.2559354 0.0724129 0.2559354 0.0724129 0.2559354 0.9275871 -0.2559354
10527 0.9214343 -0.2658058 0.0785657 0.2658058 0.0785657 0.2658058 0.9214343 -0.2658058
11009 0.9148055 -0.2758985 0.0851945 0.2758985 0.0851945 0.2758985 0.9148055 -0.2758985
11514 0.9076723 -0.2861980 0.0923277 0.2861980 0.0923277 0.2861980 0.9076723 -0.2861980
12041 0.9000060 -0.2966853 0.0999940 0.2966853 0.0999940 0.2966853 0.9000060 -0.2966853
12592 0.8917780 -0.3073386 0.1082220 0.3073386 0.1082220 0.3073386 0.8917780 -0.3073386
13169 0.8829598 -0.3181323 0.1170402 0.3181323 0.1170402 0.3181323 0.8829598 -0.3181323
13772 0.8735239 -0.3290372 0.1264761 0.3290372 0.1264761 0.3290372 0.8735239 -0.3290372
14402 0.8634435 -0.3400202 0.1365565 0.3400202 0.1365565 0.3400202 0.8634435 -0.3400202
15062 0.8526936 -0.3510443 0.1473064 0.3510443 0.1473064 0.3510443 0.8526936 -0.3510443
15752 0.8412514 -0.3620682 0.1587486 0.3620682 0.1587486 0.3620682 0.8412514 -0.3620682
16473 0.8290966 -0.3730468 0.1709034 0.3730468 0.1709034 0.3730468 0.8290966 -0.3730468
17227 0.8162121 -0.3839309 0.1837879 0.3839309 0.1837879 0.3839309 0.8162121 -0.3839309
18016 0.8025850 -0.3946674 0.1974150 0.3946674 0.1974150 0.3946674 0.8025850 -0.3946674
18841 0.7882067 -0.4051997 0.2117933 0.4051997 0.2117933 0.4051997 0.7882067 -0.4051997
19704 0.7730739 -0.4154679 0.2269261 0.4154679 0.2269261 0.4154679 0.7730739 -0.4154679
20606 0.7571894 -0.4254096 0.2428106 0.4254096 0.2428106 0.4254096 0.7571894 -0.4254096
21550 0.7405621 -0.4349600 0.2594379 0.4349600 0.2594379 0.4349600 0.7405621 -0.4349600
22537 0.7232082 -0.4440533 0.2767918 0.4440533 0.2767918 0.4440533 0.7232082 -0.4440533
23569 0.7051511 -0.4526230 0.2948489 0.4526230 0.2948489 0.4526230 0.7051511 -0.4526230
24648 0.6864223 -0.4606032 0.3135777 0.4606032 0.3135777 0.4606032 0.6864223 -0.4606032
25777 0.6670608 -0.4679297 0.3329392 0.4679297 0.3329392 0.4679297 0.6670608 -0.4679297
26957 0.6471138 -0.4745408 0.3528862 0.4745408 0.3528862 0.4745408 0.6471138 -0.4745408
28191 0.6266361 -0.4803787 0.3733639 0.4803787 0.3733639 0.4803787 0.6266361 -0.4803787
29482 0.6056899 -0.4853906 0.3943101 0.4853906 0.3943101 0.4853906 0.6056899 -0.4853906
30832 0.5843442 -0.4895300 0.4156558 0.4895300 0.4156558 0.4895300 0.5843442 -0.4895300
32244 0.5626737 -0.4927573 0.4373263 0.4927573 0.4373263 0.4927573 0.5626737 -0.4927573
33721 0.5407584 -0.4950410 0.4592416 0.4950410 0.4592416 0.4950410 0.5407584 -0.4950410
35265 0.5186820 -0.4963586 0.4813180 0.4963586 0.4813180 0.4963586 0.5186820 -0.4963586
36880 0.4965306 -0.4966967 0.5034694 0.4966967 0.5034694 0.4966967 0.4965306 -0.4966967
38569 0.4743920 -0.4960516 0.5256080 0.4960516 0.5256080 0.4960516 0.4743920 -0.4960516
40335 0.4523534 -0.4944296 0.5476466 0.4944296 0.5476466 0.4944296 0.4523534 -0.4944296
42182 0.4305007 -0.4918463 0.5694993 0.4918463 0.5694993 0.4918463 0.4305007 -0.4918463
44113 0.4089168 -0.4883268 0.5910832 0.4883268 0.5910832 0.4883268 0.4089168 -0.4883268
46134 0.3876805 -0.4839047 0.6123195 0.4839047 0.6123195 0.4839047 0.3876805 -0.4839047
48246 0.3668655 -0.4786216 0.6331345 0.4786216 0.6331345 0.4786216 0.3668655 -0.4786216
50455 0.3465392 -0.4725261 0.6534608 0.4725261 0.6534608 0.4725261 0.3465392 -0.4725261
52766 0.3267620 -0.4656724 0.6732380 0.4656724 0.6732380 0.4656724 0.3267620 -0.4656724
55182 0.3075871 -0.4581199 0.6924129 0.4581199 0.6924129 0.4581199 0.3075871 -0.4581199
57709 0.2890595 -0.4499313 0.7109405 0.4499313 0.7109405 0.4499313 0.2890595 -0.4499313
60352 0.2712164 -0.4411718 0.7287836 0.4411718 0.7287836 0.4411718 0.2712164 -0.4411718
63115 0.2540871 -0.4319081 0.7459129 0.4319081 0.7459129 0.4319081 0.2540871 -0.4319081
66005 0.2376930 -0.4222069 0.7623070 0.4222069 0.7623070 0.4222069 0.2376930 -0.4222069
69028 0.2220481 -0.4121344 0.7779519 0.4121344 0.7779519 0.4121344 0.2220481 -0.4121344
72189 0.2071596 -0.4017552 0.7928404 0.4017552 0.7928404 0.4017552 0.2071596 -0.4017552
75495 0.1930281 -0.3911315 0.8069719 0.3911315 0.8069719 0.3911315 0.1930281 -0.3911315
78952 0.1796484 -0.3803226 0.8203516 0.3803226 0.8203516 0.3803226 0.1796484 -0.3803226
82567 0.1670105 -0.3693847 0.8329895 0.3693847 0.8329895 0.3693847 0.1670105 -0.3693847
86348 0.1550997 -0.3583700 0.8449003 0.3583700 0.8449003 0.3583700 0.1550997 -0.3583700
90302 0.1438975 -0.3473268 0.8561025 0.3473268 0.8561025 0.3473268 0.1438975 -0.3473268
94437 0.1333824 -0.3362994 0.8666176 0.3362994 0.8666176 0.3362994 0.1333824 -0.3362994
98762 0.1235302 -0.3253277 0.8764698 0.3253277 0.8764698 0.3253277 0.1235302 -0.3253277
103284 0.1143151 -0.3144476 0.8856849 0.3144476 0.8856849 0.3144476 0.1143151 -0.3144476
108014 0.1057095 -0.3036911 0.8942905 0.3036911 0.8942905 0.3036911 0.1057095 -0.3036911
112960 0.0976852 -0.2930861 0.9023148 0.2930861 0.9023148 0.2930861 0.0976852 -0.2930861
118133 0.0902132 -0.2826569 0.9097868 0.2826569 0.9097868 0.2826569 0.0902132 -0.2826569
123542 0.0832645 -0.2724243 0.9167355 0.2724243 0.9167355 0.2724243 0.0832645 -0.2724243
129199 0.0768102 -0.2624058 0.9231898 0.2624058 0.9231898 0.2624058 0.0768102 -0.2624058
135116 0.0708218 -0.2526160 0.9291782 0.2526160 0.9291782 0.2526160 0.0708218 -0.2526160
141303 0.0652714 -0.2430666 0.9347286 0.2430666 0.9347286 0.2430666 0.0652714 -0.2430666
147774 0.0601319 -0.2337669 0.9398681 0.2337669 0.9398681 0.2337669 0.0601319 -0.2337669
154540 0.0553772 -0.2247239 0.9446228 0.2247239 0.9446228 0.2247239 0.0553772 -0.2247239
161617 0.0509820 -0.2159425 0.9490180 0.2159425 0.9490180 0.2159425 0.0509820 -0.2159425
169018 0.0469222 -0.2074260 0.9530778 0.2074260 0.9530778 0.2074260 0.0469222 -0.2074260
176758 0.0431749 -0.1991758 0.9568251 0.1991758 0.9568251 0.1991758 0.0431749 -0.1991758
184852 0.0397184 -0.1911921 0.9602816 0.1911921 0.9602816 0.1911921 0.0397184 -0.1911921
193316 0.0365319 -0.1834738 0.9634681 0.1834738 0.9634681 0.1834738 0.0365319 -0.1834738
202169 0.0335960 -0.1760189 0.9664040 0.1760189 0.9664040 0.1760189 0.0335960 -0.1760189
211427 0.0308924 -0.1688242 0.9691076 0.1688242 0.9691076 0.1688242 0.0308924 -0.1688242
221108 0.0284039 -0.1618858 0.9715961 0.1618858 0.9715961 0.1618858 0.0284039 -0.1618858
231233 0.0261143 -0.1551994 0.9738857 0.1551994 0.9738857 0.1551994 0.0261143 -0.1551994
241822 0.0240086 -0.1487599 0.9759914 0.1487599 0.9759914 0.1487599 0.0240086 -0.1487599
252896 0.0220727 -0.1425617 0.9779273 0.1425617 0.9779273 0.1425617 0.0220727 -0.1425617
264476 0.0202934 -0.1365991 0.9797066 0.1365991 0.9797066 0.1365991 0.0202934 -0.1365991
276587 0.0186585 -0.1308659 0.9813415 0.1308659 0.9813415 0.1308659 0.0186585 -0.1308659
289253 0.0171567 -0.1253559 0.9828433 0.1253559 0.9828433 0.1253559 0.0171567 -0.1253559
302498 0.0157775 -0.1200625 0.9842225 0.1200625 0.9842225 0.1200625 0.0157775 -0.1200625
316350 0.0145111 -0.1149791 0.9854889 0.1149791 0.9854889 0.1149791 0.0145111 -0.1149791
330837 0.0133485 -0.1100991 0.9866515 0.1100991 0.9866515 0.1100991 0.0133485 -0.1100991
345986 0.0122813 -0.1054159 0.9877187 0.1054159 0.9877187 0.1054159 0.0122813 -0.1054159
361830 0.0113017 -0.1009229 0.9886983 0.1009229 0.9886983 0.1009229 0.0113017 -0.1009229
378399 0.0104028 -0.0966134 0.9895972 0.0966134 0.9895972 0.0966134 0.0104028 -0.0966134
395726 0.0095778 -0.0924809 0.9904222 0.0924809 0.9904222 0.0924809 0.0095778 -0.0924809
413847 0.0088207 -0.0885192 0.9911793 0.0885192 0.9911793 0.0885192 0.0088207 -0.0885192
432798 0.0081260 -0.0847218 0.9918740 0.0847218 0.9918740 0.0847218 0.0081260 -0.0847218
452617 0.0074885 -0.0810826 0.9925115 0.0810826 0.9925115 0.0810826 0.0074885 -0.0810826
473344 0.0069035 -0.0775957 0.9930965 0.0775957 0.9930965 0.0775957 0.0069035 -0.0775957
495019 0.0063667 -0.0742551 0.9936333 0.0742551 0.9936333 0.0742551 0.0063667 -0.0742551
517687 0.0058741 -0.0710552 0.9941259 0.0710552 0.9941259 0.0710552 0.0058741 -0.0710552
541393 0.0054220 -0.0679904 0.9945780 0.0679904 0.9945780 0.0679904 0.0054220 -0.0679904
566185 0.0050071 -0.0650553 0.9949929 0.0650553 0.9949929 0.0650553 0.0050071 -0.0650553
592111 0.0046264 -0.0622448 0.9953736 0.0622448 0.9953736 0.0622448 0.0046264 -0.0622448
619225 0.0042768 -0.0595537 0.9957232 0.0595537 0.9957232 0.0595537 0.0042768 -0.0595537
647581 0.0039560 -0.0569774 0.9960440 0.0569774 0.9960440 0.0569774 0.0039560 -0.0569774
677235 0.0036615 -0.0545110 0.9963385 0.0545110 0.9963385 0.0545110 0.0036615 -0.0545110
708247 0.0033912 -0.0521501 0.9966088 0.0521501 0.9966088 0.0521501 0.0033912 -0.0521501
740679 0.0031430 -0.0498903 0.9968570 0.0498903 0.9968570 0.0498903 0.0031430 -0.0498903
774597 0.0029150 -0.0477273 0.9970850 0.0477273 0.9970850 0.0477273 0.0029150 -0.0477273
810067 0.0027058 -0.0456573 0.9972942 0.0456573 0.9972942 0.0456573 0.0027058 -0.0456573
847162 0.0025135 -0.0436762 0.9974865 0.0436762 0.9974865 0.0436762 0.0025135 -0.0436762
885955 0.0023370 -0.0417804 0.9976630 0.0417804 0.9976630 0.0417804 0.0023370 -0.0417804
926525 0.0021748 -0.0399663 0.9978252 0.0399663 0.9978252 0.0399663 0.0021748 -0.0399663
968953 0.0020258 -0.0382304 0.9979742 0.0382304 0.9979742 0.0382304 0.0020258 -0.0382304
1013323 0.0018889 -0.0365694 0.9981111 0.0365694 0.9981111 0.0365694 0.0018889 -0.0365694
1059725 0.0017630 -0.0349802 0.9982370 0.0349802 0.9982370 0.0349802 0.0017630 -0.0349802
1108252 0.0016473 -0.0334596 0.9983527 0.0334596 0.9983527 0.0334596 0.0016473 -0.0334596
1159002 0.0015408 -0.0320048 0.9984592 0.0320048 0.9984592 0.0320048 0.0015408 -0.0320048
1212075 0.0014429 -0.0306130 0.9985571 0.0306130 0.9985571 0.0306130 0.0014429 -0.0306130
1267578 0.0013528 -0.0292815 0.9986472 0.0292815 0.9986472 0.0292815 0.0013528 -0.0292815
1325623 0.0012698 -0.0280076 0.9987302 0.0280076 0.9987302 0.0280076 0.0012698 -0.0280076
1386327 0.0011934 -0.0267889 0.9988066 0.0267889 0.9988066 0.0267889 0.0011934 -0.0267889
1449809 0.0011229 -0.0256230 0.9988771 0.0256230 0.9988771 0.0256230 0.0011229 -0.0256230
1516199 0.0010579 -0.0245076 0.9989421 0.0245076 0.9989421 0.0245076 0.0010579 -0.0245076
1585629 0.0009980 -0.0234406 0.9990020 0.0234406 0.9990020 0.0234406 0.0009980 -0.0234406
1658239 0.0009426 -0.0224198 0.9990574 0.0224198 0.9990574 0.0224198 0.0009426 -0.0224198
1734173 0.0008915 -0.0214432 0.9991085 0.0214432 0.9991085 0.0214432 0.0008915 -0.0214432
1813585 0.0008442 -0.0205089 0.9991558 0.0205089 0.9991558 0.0205089 0.0008442 -0.0205089
1896632 0.0008005 -0.0196151 0.9991995 0.0196151 0.9991995 0.0196151 0.0008005 -0.0196151
1983483 0.0007600 -0.0187599 0.9992400 0.0187599 0.9992400 0.0187599 0.0007600 -0.0187599
2074311 0.0007224 -0.0179418 0.9992776 0.0179418 0.9992776 0.0179418 0.0007224 -0.0179418
