!Murata Part Number: GRM033R61E472KA12
!These Parameters are Measured in Series Mode Connection
!Data Generated on Mar 30, 2021
!       o--ll--o
!Port1            Port2
!       o------o
!Operation Temp=25[degC], DC Bias Voltage=0[V]
!Freq. Start=100[Hz] Stop=6[GHz] 401[Steps]
# Hz S RI R 50
!Freq.(Hz) S11(Real) S11(Imag) S21(Real) S21(Imag) S12(Real) S12(Imag) S22(Real) S22(Imag)
100 0.9999980 -0.0002829 0.0000020 0.0002829 0.0000020 0.0002829 0.9999980 -0.0002829
105 0.9999980 -0.0002958 0.0000020 0.0002958 0.0000020 0.0002958 0.9999980 -0.0002958
109 0.9999979 -0.0003092 0.0000021 0.0003092 0.0000021 0.0003092 0.9999979 -0.0003092
114 0.9999978 -0.0003233 0.0000022 0.0003233 0.0000022 0.0003233 0.9999978 -0.0003233
120 0.9999977 -0.0003380 0.0000023 0.0003380 0.0000023 0.0003380 0.9999977 -0.0003380
125 0.9999976 -0.0003534 0.0000024 0.0003534 0.0000024 0.0003534 0.9999976 -0.0003534
131 0.9999975 -0.0003695 0.0000025 0.0003695 0.0000025 0.0003695 0.9999975 -0.0003695
137 0.9999973 -0.0003864 0.0000027 0.0003864 0.0000027 0.0003864 0.9999973 -0.0003864
143 0.9999972 -0.0004040 0.0000028 0.0004040 0.0000028 0.0004040 0.9999972 -0.0004040
150 0.9999971 -0.0004224 0.0000029 0.0004224 0.0000029 0.0004224 0.9999971 -0.0004224
156 0.9999970 -0.0004417 0.0000030 0.0004417 0.0000030 0.0004417 0.9999970 -0.0004417
164 0.9999969 -0.0004618 0.0000031 0.0004618 0.0000031 0.0004618 0.9999969 -0.0004618
171 0.9999967 -0.0004829 0.0000033 0.0004829 0.0000033 0.0004829 0.9999967 -0.0004829
179 0.9999966 -0.0005049 0.0000034 0.0005049 0.0000034 0.0005049 0.9999966 -0.0005049
187 0.9999964 -0.0005279 0.0000036 0.0005279 0.0000036 0.0005279 0.9999964 -0.0005279
196 0.9999963 -0.0005520 0.0000037 0.0005520 0.0000037 0.0005520 0.9999963 -0.0005520
205 0.9999961 -0.0005772 0.0000039 0.0005772 0.0000039 0.0005772 0.9999961 -0.0005772
214 0.9999959 -0.0006035 0.0000041 0.0006035 0.0000041 0.0006035 0.9999959 -0.0006035
224 0.9999957 -0.0006310 0.0000043 0.0006310 0.0000043 0.0006310 0.9999957 -0.0006310
234 0.9999955 -0.0006598 0.0000045 0.0006598 0.0000045 0.0006598 0.9999955 -0.0006598
245 0.9999953 -0.0006899 0.0000047 0.0006899 0.0000047 0.0006899 0.9999953 -0.0006899
256 0.9999951 -0.0007214 0.0000049 0.0007214 0.0000049 0.0007214 0.9999951 -0.0007214
268 0.9999948 -0.0007543 0.0000052 0.0007543 0.0000052 0.0007543 0.9999948 -0.0007543
280 0.9999946 -0.0007887 0.0000054 0.0007887 0.0000054 0.0007887 0.9999946 -0.0007887
293 0.9999943 -0.0008247 0.0000057 0.0008247 0.0000057 0.0008247 0.9999943 -0.0008247
306 0.9999940 -0.0008623 0.0000060 0.0008623 0.0000060 0.0008623 0.9999940 -0.0008623
320 0.9999937 -0.0009016 0.0000063 0.0009016 0.0000063 0.0009016 0.9999937 -0.0009016
335 0.9999934 -0.0009428 0.0000066 0.0009428 0.0000066 0.0009428 0.9999934 -0.0009428
350 0.9999931 -0.0009858 0.0000069 0.0009858 0.0000069 0.0009858 0.9999931 -0.0009858
366 0.9999927 -0.0010307 0.0000073 0.0010307 0.0000073 0.0010307 0.9999927 -0.0010307
383 0.9999923 -0.0010777 0.0000077 0.0010777 0.0000077 0.0010777 0.9999923 -0.0010777
401 0.9999919 -0.0011269 0.0000081 0.0011269 0.0000081 0.0011269 0.9999919 -0.0011269
419 0.9999915 -0.0011783 0.0000085 0.0011783 0.0000085 0.0011783 0.9999915 -0.0011783
438 0.9999910 -0.0012320 0.0000090 0.0012320 0.0000090 0.0012320 0.9999910 -0.0012320
458 0.9999906 -0.0012882 0.0000094 0.0012882 0.0000094 0.0012882 0.9999906 -0.0012882
479 0.9999901 -0.0013470 0.0000099 0.0013470 0.0000099 0.0013470 0.9999901 -0.0013470
501 0.9999895 -0.0014084 0.0000105 0.0014084 0.0000105 0.0014084 0.9999895 -0.0014084
524 0.9999890 -0.0014726 0.0000110 0.0014726 0.0000110 0.0014726 0.9999890 -0.0014726
548 0.9999884 -0.0015398 0.0000116 0.0015398 0.0000116 0.0015398 0.9999884 -0.0015398
573 0.9999878 -0.0016100 0.0000122 0.0016100 0.0000122 0.0016100 0.9999878 -0.0016100
600 0.9999871 -0.0016834 0.0000129 0.0016834 0.0000129 0.0016834 0.9999871 -0.0016834
627 0.9999864 -0.0017602 0.0000136 0.0017602 0.0000136 0.0017602 0.9999864 -0.0017602
656 0.9999857 -0.0018404 0.0000143 0.0018404 0.0000143 0.0018404 0.9999857 -0.0018404
686 0.9999849 -0.0019244 0.0000151 0.0019244 0.0000151 0.0019244 0.9999849 -0.0019244
717 0.9999841 -0.0020121 0.0000159 0.0020121 0.0000159 0.0020121 0.9999841 -0.0020121
750 0.9999832 -0.0021039 0.0000168 0.0021039 0.0000168 0.0021039 0.9999832 -0.0021039
784 0.9999823 -0.0021999 0.0000177 0.0021999 0.0000177 0.0021999 0.9999823 -0.0021999
820 0.9999813 -0.0023002 0.0000187 0.0023002 0.0000187 0.0023002 0.9999813 -0.0023002
858 0.9999803 -0.0024052 0.0000197 0.0024052 0.0000197 0.0024052 0.9999803 -0.0024052
897 0.9999792 -0.0025149 0.0000208 0.0025149 0.0000208 0.0025149 0.9999792 -0.0025149
938 0.9999780 -0.0026297 0.0000220 0.0026297 0.0000220 0.0026297 0.9999780 -0.0026297
981 0.9999768 -0.0027497 0.0000232 0.0027497 0.0000232 0.0027497 0.9999768 -0.0027497
1026 0.9999754 -0.0028751 0.0000246 0.0028751 0.0000246 0.0028751 0.9999754 -0.0028751
1073 0.9999740 -0.0030064 0.0000260 0.0030064 0.0000260 0.0030064 0.9999740 -0.0030064
1122 0.9999724 -0.0031436 0.0000276 0.0031436 0.0000276 0.0031436 0.9999724 -0.0031436
1174 0.9999707 -0.0032871 0.0000293 0.0032871 0.0000293 0.0032871 0.9999707 -0.0032871
1227 0.9999689 -0.0034371 0.0000311 0.0034371 0.0000311 0.0034371 0.9999689 -0.0034371
1283 0.9999670 -0.0035940 0.0000330 0.0035940 0.0000330 0.0035940 0.9999670 -0.0035940
1342 0.9999649 -0.0037580 0.0000351 0.0037580 0.0000351 0.0037580 0.9999649 -0.0037580
1404 0.9999627 -0.0039296 0.0000373 0.0039296 0.0000373 0.0039296 0.9999627 -0.0039296
1468 0.9999602 -0.0041090 0.0000398 0.0041090 0.0000398 0.0041090 0.9999602 -0.0041090
1535 0.9999576 -0.0042966 0.0000424 0.0042966 0.0000424 0.0042966 0.9999576 -0.0042966
1606 0.9999547 -0.0044927 0.0000453 0.0044927 0.0000453 0.0044927 0.9999547 -0.0044927
1679 0.9999517 -0.0046978 0.0000483 0.0046978 0.0000483 0.0046978 0.9999517 -0.0046978
1756 0.9999483 -0.0049122 0.0000517 0.0049122 0.0000517 0.0049122 0.9999483 -0.0049122
1836 0.9999447 -0.0051365 0.0000553 0.0051365 0.0000553 0.0051365 0.9999447 -0.0051365
1920 0.9999408 -0.0053709 0.0000592 0.0053709 0.0000592 0.0053709 0.9999408 -0.0053709
2008 0.9999366 -0.0056160 0.0000634 0.0056160 0.0000634 0.0056160 0.9999366 -0.0056160
2100 0.9999320 -0.0058723 0.0000680 0.0058723 0.0000680 0.0058723 0.9999320 -0.0058723
2196 0.9999271 -0.0061403 0.0000729 0.0061403 0.0000729 0.0061403 0.9999271 -0.0061403
2297 0.9999217 -0.0064205 0.0000783 0.0064205 0.0000783 0.0064205 0.9999217 -0.0064205
2402 0.9999159 -0.0067134 0.0000841 0.0067134 0.0000841 0.0067134 0.9999159 -0.0067134
2512 0.9999097 -0.0070197 0.0000903 0.0070197 0.0000903 0.0070197 0.9999097 -0.0070197
2627 0.9999029 -0.0073399 0.0000971 0.0073399 0.0000971 0.0073399 0.9999029 -0.0073399
2748 0.9998956 -0.0076746 0.0001044 0.0076746 0.0001044 0.0076746 0.9998956 -0.0076746
2873 0.9998877 -0.0080246 0.0001123 0.0080246 0.0001123 0.0080246 0.9998877 -0.0080246
3005 0.9998792 -0.0083905 0.0001208 0.0083905 0.0001208 0.0083905 0.9998792 -0.0083905
3143 0.9998700 -0.0087731 0.0001300 0.0087731 0.0001300 0.0087731 0.9998700 -0.0087731
3287 0.9998601 -0.0091730 0.0001399 0.0091730 0.0001399 0.0091730 0.9998601 -0.0091730
3437 0.9998493 -0.0095912 0.0001507 0.0095912 0.0001507 0.0095912 0.9998493 -0.0095912
3594 0.9998378 -0.0100283 0.0001622 0.0100283 0.0001622 0.0100283 0.9998378 -0.0100283
3759 0.9998253 -0.0104853 0.0001747 0.0104853 0.0001747 0.0104853 0.9998253 -0.0104853
3931 0.9998118 -0.0109632 0.0001882 0.0109632 0.0001882 0.0109632 0.9998118 -0.0109632
4111 0.9997972 -0.0114627 0.0002028 0.0114627 0.0002028 0.0114627 0.9997972 -0.0114627
4299 0.9997815 -0.0119850 0.0002185 0.0119850 0.0002185 0.0119850 0.9997815 -0.0119850
4496 0.9997645 -0.0125310 0.0002355 0.0125310 0.0002355 0.0125310 0.9997645 -0.0125310
4702 0.9997461 -0.0131019 0.0002539 0.0131019 0.0002539 0.0131019 0.9997461 -0.0131019
4918 0.9997263 -0.0136988 0.0002737 0.0136988 0.0002737 0.0136988 0.9997263 -0.0136988
5143 0.9997049 -0.0143228 0.0002951 0.0143228 0.0002951 0.0143228 0.9997049 -0.0143228
5378 0.9996817 -0.0149753 0.0003183 0.0149753 0.0003183 0.0149753 0.9996817 -0.0149753
5625 0.9996566 -0.0156575 0.0003434 0.0156575 0.0003434 0.0156575 0.9996566 -0.0156575
5882 0.9996294 -0.0163708 0.0003706 0.0163708 0.0003706 0.0163708 0.9996294 -0.0163708
6151 0.9995999 -0.0171165 0.0004001 0.0171165 0.0004001 0.0171165 0.9995999 -0.0171165
6433 0.9995680 -0.0178963 0.0004320 0.0178963 0.0004320 0.0178963 0.9995680 -0.0178963
6728 0.9995334 -0.0187116 0.0004666 0.0187116 0.0004666 0.0187116 0.9995334 -0.0187116
7036 0.9994958 -0.0195640 0.0005042 0.0195640 0.0005042 0.0195640 0.9994958 -0.0195640
7358 0.9994550 -0.0204553 0.0005450 0.0204553 0.0005450 0.0204553 0.9994550 -0.0204553
7695 0.9994107 -0.0213873 0.0005893 0.0213873 0.0005893 0.0213873 0.9994107 -0.0213873
8047 0.9993625 -0.0223616 0.0006375 0.0223616 0.0006375 0.0223616 0.9993625 -0.0223616
8416 0.9993100 -0.0233804 0.0006900 0.0233804 0.0006900 0.0233804 0.9993100 -0.0233804
8801 0.9992530 -0.0244456 0.0007470 0.0244456 0.0007470 0.0244456 0.9992530 -0.0244456
9204 0.9991908 -0.0255593 0.0008092 0.0255593 0.0008092 0.0255593 0.9991908 -0.0255593
9626 0.9991232 -0.0267236 0.0008768 0.0267236 0.0008768 0.0267236 0.9991232 -0.0267236
10066 0.9990495 -0.0279409 0.0009505 0.0279409 0.0009505 0.0279409 0.9990495 -0.0279409
10527 0.9989691 -0.0292136 0.0010309 0.0292136 0.0010309 0.0292136 0.9989691 -0.0292136
11009 0.9988816 -0.0305441 0.0011184 0.0305441 0.0011184 0.0305441 0.9988816 -0.0305441
11514 0.9987861 -0.0319350 0.0012139 0.0319350 0.0012139 0.0319350 0.9987861 -0.0319350
12041 0.9986820 -0.0333890 0.0013180 0.0333890 0.0013180 0.0333890 0.9986820 -0.0333890
12592 0.9985684 -0.0349089 0.0014316 0.0349089 0.0014316 0.0349089 0.9985684 -0.0349089
13169 0.9984444 -0.0364977 0.0015556 0.0364977 0.0015556 0.0364977 0.9984444 -0.0364977
13772 0.9983092 -0.0381583 0.0016908 0.0381583 0.0016908 0.0381583 0.9983092 -0.0381583
14402 0.9981617 -0.0398940 0.0018383 0.0398940 0.0018383 0.0398940 0.9981617 -0.0398940
15062 0.9980008 -0.0417079 0.0019992 0.0417079 0.0019992 0.0417079 0.9980008 -0.0417079
15752 0.9978251 -0.0436037 0.0021749 0.0436037 0.0021749 0.0436037 0.9978251 -0.0436037
16473 0.9976335 -0.0455848 0.0023665 0.0455848 0.0023665 0.0455848 0.9976335 -0.0455848
17227 0.9974243 -0.0476549 0.0025757 0.0476549 0.0025757 0.0476549 0.9974243 -0.0476549
18016 0.9971961 -0.0498178 0.0028039 0.0498178 0.0028039 0.0498178 0.9971961 -0.0498178
18841 0.9969472 -0.0520776 0.0030528 0.0520776 0.0030528 0.0520776 0.9969472 -0.0520776
19704 0.9966756 -0.0544384 0.0033244 0.0544384 0.0033244 0.0544384 0.9966756 -0.0544384
20606 0.9963793 -0.0569045 0.0036207 0.0569045 0.0036207 0.0569045 0.9963793 -0.0569045
21550 0.9960561 -0.0594804 0.0039439 0.0594804 0.0039439 0.0594804 0.9960561 -0.0594804
22537 0.9957037 -0.0621706 0.0042963 0.0621706 0.0042963 0.0621706 0.9957037 -0.0621706
23569 0.9953193 -0.0649799 0.0046807 0.0649799 0.0046807 0.0649799 0.9953193 -0.0649799
24648 0.9949002 -0.0679133 0.0050998 0.0679133 0.0050998 0.0679133 0.9949002 -0.0679133
25777 0.9944433 -0.0709758 0.0055567 0.0709758 0.0055567 0.0709758 0.9944433 -0.0709758
26957 0.9939452 -0.0741728 0.0060548 0.0741728 0.0060548 0.0741728 0.9939452 -0.0741728
28191 0.9934024 -0.0775096 0.0065976 0.0775096 0.0065976 0.0775096 0.9934024 -0.0775096
29482 0.9928108 -0.0809919 0.0071892 0.0809919 0.0071892 0.0809919 0.9928108 -0.0809919
30832 0.9921662 -0.0846254 0.0078338 0.0846254 0.0078338 0.0846254 0.9921662 -0.0846254
32244 0.9914640 -0.0884160 0.0085360 0.0884160 0.0085360 0.0884160 0.9914640 -0.0884160
33721 0.9906991 -0.0923697 0.0093009 0.0923697 0.0093009 0.0923697 0.9906991 -0.0923697
35265 0.9898660 -0.0964928 0.0101340 0.0964928 0.0101340 0.0964928 0.9898660 -0.0964928
36880 0.9889588 -0.1007916 0.0110412 0.1007916 0.0110412 0.1007916 0.9889588 -0.1007916
38569 0.9879711 -0.1052725 0.0120289 0.1052725 0.0120289 0.1052725 0.9879711 -0.1052725
40335 0.9868959 -0.1099421 0.0131041 0.1099421 0.0131041 0.1099421 0.9868959 -0.1099421
42182 0.9857256 -0.1148069 0.0142744 0.1148069 0.0142744 0.1148069 0.9857256 -0.1148069
44113 0.9844520 -0.1198737 0.0155480 0.1198737 0.0155480 0.1198737 0.9844520 -0.1198737
46134 0.9830663 -0.1251490 0.0169337 0.1251490 0.0169337 0.1251490 0.9830663 -0.1251490
48246 0.9815587 -0.1306395 0.0184413 0.1306395 0.0184413 0.1306395 0.9815587 -0.1306395
50455 0.9799190 -0.1363517 0.0200810 0.1363517 0.0200810 0.1363517 0.9799190 -0.1363517
52766 0.9781358 -0.1422922 0.0218642 0.1422922 0.0218642 0.1422922 0.9781358 -0.1422922
55182 0.9761972 -0.1484670 0.0238028 0.1484670 0.0238028 0.1484670 0.9761972 -0.1484670
57709 0.9740899 -0.1548823 0.0259101 0.1548823 0.0259101 0.1548823 0.9740899 -0.1548823
60352 0.9718001 -0.1615436 0.0281999 0.1615436 0.0281999 0.1615436 0.9718001 -0.1615436
63115 0.9693125 -0.1684561 0.0306875 0.1684561 0.0306875 0.1684561 0.9693125 -0.1684561
66005 0.9666112 -0.1756245 0.0333888 0.1756245 0.0333888 0.1756245 0.9666112 -0.1756245
69028 0.9636787 -0.1830527 0.0363213 0.1830527 0.0363213 0.1830527 0.9636787 -0.1830527
72189 0.9604967 -0.1907439 0.0395033 0.1907439 0.0395033 0.1907439 0.9604967 -0.1907439
75495 0.9570455 -0.1987004 0.0429545 0.1987004 0.0429545 0.1987004 0.9570455 -0.1987004
78952 0.9533044 -0.2069234 0.0466956 0.2069234 0.0466956 0.2069234 0.9533044 -0.2069234
82567 0.9492513 -0.2154126 0.0507487 0.2154126 0.0507487 0.2154126 0.9492513 -0.2154126
86348 0.9448630 -0.2241665 0.0551370 0.2241665 0.0551370 0.2241665 0.9448630 -0.2241665
90302 0.9401153 -0.2331819 0.0598847 0.2331819 0.0598847 0.2331819 0.9401153 -0.2331819
94437 0.9349827 -0.2424536 0.0650173 0.2424536 0.0650173 0.2424536 0.9349827 -0.2424536
98762 0.9294389 -0.2519744 0.0705611 0.2519744 0.0705611 0.2519744 0.9294389 -0.2519744
103284 0.9234565 -0.2617348 0.0765435 0.2617348 0.0765435 0.2617348 0.9234565 -0.2617348
108014 0.9170075 -0.2717225 0.0829925 0.2717225 0.0829925 0.2717225 0.9170075 -0.2717225
112960 0.9100633 -0.2819226 0.0899367 0.2819226 0.0899367 0.2819226 0.9100633 -0.2819226
118133 0.9025951 -0.2923171 0.0974049 0.2923171 0.0974049 0.2923171 0.9025951 -0.2923171
123542 0.8945740 -0.3028846 0.1054260 0.3028846 0.1054260 0.3028846 0.8945740 -0.3028846
129199 0.8859712 -0.3136002 0.1140288 0.3136002 0.1140288 0.3136002 0.8859712 -0.3136002
135116 0.8767588 -0.3244354 0.1232412 0.3244354 0.1232412 0.3244354 0.8767588 -0.3244354
141303 0.8669099 -0.3353576 0.1330901 0.3353576 0.1330901 0.3353576 0.8669099 -0.3353576
147774 0.8563992 -0.3463305 0.1436008 0.3463305 0.1436008 0.3463305 0.8563992 -0.3463305
154540 0.8452035 -0.3573135 0.1547965 0.3573135 0.1547965 0.3573135 0.8452035 -0.3573135
161617 0.8333022 -0.3682622 0.1666978 0.3682622 0.1666978 0.3682622 0.8333022 -0.3682622
169018 0.8206781 -0.3791279 0.1793219 0.3791279 0.1793219 0.3791279 0.8206781 -0.3791279
176758 0.8073176 -0.3898584 0.1926824 0.3898584 0.1926824 0.3898584 0.8073176 -0.3898584
184852 0.7932120 -0.4003979 0.2067880 0.4003979 0.2067880 0.4003979 0.7932120 -0.4003979
193316 0.7783576 -0.4106876 0.2216424 0.4106876 0.2216424 0.4106876 0.7783576 -0.4106876
202169 0.7627565 -0.4206659 0.2372435 0.4206659 0.2372435 0.4206659 0.7627565 -0.4206659
211427 0.7464171 -0.4302693 0.2535829 0.4302693 0.2535829 0.4302693 0.7464171 -0.4302693
221108 0.7293547 -0.4394331 0.2706453 0.4394331 0.2706453 0.4394331 0.7293547 -0.4394331
231233 0.7115918 -0.4480923 0.2884082 0.4480923 0.2884082 0.4480923 0.7115918 -0.4480923
241822 0.6931584 -0.4561821 0.3068416 0.4561821 0.3068416 0.4561821 0.6931584 -0.4561821
252896 0.6740921 -0.4636395 0.3259079 0.4636395 0.3259079 0.4636395 0.6740921 -0.4636395
264476 0.6544383 -0.4704042 0.3455617 0.4704042 0.3455617 0.4704042 0.6544383 -0.4704042
276587 0.6342495 -0.4764193 0.3657505 0.4764193 0.3657505 0.4764193 0.6342495 -0.4764193
289253 0.6135854 -0.4816330 0.3864146 0.4816330 0.3864146 0.4816330 0.6135854 -0.4816330
302498 0.5925122 -0.4859992 0.4074878 0.4859992 0.4074878 0.4859992 0.5925122 -0.4859992
316350 0.5711017 -0.4894786 0.4288983 0.4894786 0.4288983 0.4894786 0.5711017 -0.4894786
330837 0.5494305 -0.4920392 0.4505695 0.4920392 0.4505695 0.4920392 0.5494305 -0.4920392
345986 0.5275789 -0.4936578 0.4724211 0.4936578 0.4724211 0.4936578 0.5275789 -0.4936578
361830 0.5056299 -0.4943197 0.4943701 0.4943197 0.4943701 0.4943197 0.5056299 -0.4943197
378399 0.4836678 -0.4940191 0.5163322 0.4940191 0.5163322 0.4940191 0.4836678 -0.4940191
395726 0.4617768 -0.4927598 0.5382232 0.4927598 0.5382232 0.4927598 0.4617768 -0.4927598
413847 0.4400402 -0.4905544 0.5599598 0.4905544 0.5599598 0.4905544 0.4400402 -0.4905544
432798 0.4185385 -0.4874243 0.5814615 0.4874243 0.5814615 0.4874243 0.4185385 -0.4874243
452617 0.3973491 -0.4833993 0.6026509 0.4833993 0.6026509 0.4833993 0.3973491 -0.4833993
473344 0.3765442 -0.4785168 0.6234558 0.4785168 0.6234558 0.4785168 0.3765442 -0.4785168
495019 0.3561911 -0.4728208 0.6438089 0.4728208 0.6438089 0.4728208 0.3561911 -0.4728208
517687 0.3363505 -0.4663613 0.6636495 0.4663613 0.6636495 0.4663613 0.3363505 -0.4663613
541393 0.3170763 -0.4591932 0.6829237 0.4591932 0.6829237 0.4591932 0.3170763 -0.4591932
566185 0.2984154 -0.4513752 0.7015846 0.4513752 0.7015846 0.4513752 0.2984154 -0.4513752
592111 0.2804072 -0.4429686 0.7195928 0.4429686 0.7195928 0.4429686 0.2804072 -0.4429686
619225 0.2630838 -0.4340368 0.7369162 0.4340368 0.7369162 0.4340368 0.2630838 -0.4340368
647581 0.2464696 -0.4246438 0.7535304 0.4246438 0.7535304 0.4246438 0.2464696 -0.4246438
677235 0.2305823 -0.4148533 0.7694177 0.4148533 0.7694177 0.4148533 0.2305823 -0.4148533
708247 0.2154326 -0.4047283 0.7845674 0.4047283 0.7845674 0.4047283 0.2154326 -0.4047283
740679 0.2010251 -0.3943299 0.7989749 0.3943299 0.7989749 0.3943299 0.2010251 -0.3943299
774597 0.1873584 -0.3837171 0.8126416 0.3837171 0.8126416 0.3837171 0.1873584 -0.3837171
810067 0.1744260 -0.3729460 0.8255740 0.3729460 0.8255740 0.3729460 0.1744260 -0.3729460
847162 0.1622166 -0.3620692 0.8377834 0.3620692 0.8377834 0.3620692 0.1622166 -0.3620692
885955 0.1507152 -0.3511362 0.8492848 0.3511362 0.8492848 0.3511362 0.1507152 -0.3511362
926525 0.1399030 -0.3401925 0.8600970 0.3401925 0.8600970 0.3401925 0.1399030 -0.3401925
968953 0.1297586 -0.3292797 0.8702414 0.3292797 0.8702414 0.3292797 0.1297586 -0.3292797
1013323 0.1202581 -0.3184356 0.8797419 0.3184356 0.8797419 0.3184356 0.1202581 -0.3184356
1059725 0.1113761 -0.3076941 0.8886239 0.3076941 0.8886239 0.3076941 0.1113761 -0.3076941
1108252 0.1030856 -0.2970853 0.8969144 0.2970853 0.8969144 0.2970853 0.1030856 -0.2970853
1159002 0.0953589 -0.2866356 0.9046411 0.2866356 0.9046411 0.2866356 0.0953589 -0.2866356
1212075 0.0881678 -0.2763679 0.9118322 0.2763679 0.9118322 0.2763679 0.0881678 -0.2763679
1267578 0.0814839 -0.2663019 0.9185161 0.2663019 0.9185161 0.2663019 0.0814839 -0.2663019
1325623 0.0752789 -0.2564539 0.9247211 0.2564539 0.9247211 0.2564539 0.0752789 -0.2564539
1386327 0.0695250 -0.2468377 0.9304750 0.2468377 0.9304750 0.2468377 0.0695250 -0.2468377
1449809 0.0641949 -0.2374642 0.9358051 0.2374642 0.9358051 0.2374642 0.0641949 -0.2374642
1516199 0.0592620 -0.2283419 0.9407380 0.2283419 0.9407380 0.2283419 0.0592620 -0.2283419
1585629 0.0547008 -0.2194772 0.9452992 0.2194772 0.9452992 0.2194772 0.0547008 -0.2194772
1658239 0.0504866 -0.2108746 0.9495134 0.2108746 0.9495134 0.2108746 0.0504866 -0.2108746
1734173 0.0465958 -0.2025366 0.9534042 0.2025366 0.9534042 0.2025366 0.0465958 -0.2025366
1813585 0.0430058 -0.1944644 0.9569942 0.1944644 0.9569942 0.1944644 0.0430058 -0.1944644
1896632 0.0396954 -0.1866575 0.9603046 0.1866575 0.9603046 0.1866575 0.0396954 -0.1866575
1983483 0.0366443 -0.1791147 0.9633557 0.1791147 0.9633557 0.1791147 0.0366443 -0.1791147
2074311 0.0338335 -0.1718333 0.9661665 0.1718333 0.9661665 0.1718333 0.0338335 -0.1718333
