!Murata Part Number: GRM033B31H331KA12
!These Parameters are Measured in Series Mode Connection
!Data Generated on Mar 30, 2021
!       o--ll--o
!Port1            Port2
!       o------o
!Operation Temp=25[degC], DC Bias Voltage=0[V]
!Freq. Start=100[Hz] Stop=6[GHz] 401[Steps]
# Hz S RI R 50
!Freq.(Hz) S11(Real) S11(Imag) S21(Real) S21(Imag) S12(Real) S12(Imag) S22(Real) S22(Imag)
100 0.9999999 -0.0000207 0.0000001 0.0000207 0.0000001 0.0000207 0.9999999 -0.0000207
105 0.9999999 -0.0000216 0.0000001 0.0000216 0.0000001 0.0000216 0.9999999 -0.0000216
109 0.9999999 -0.0000226 0.0000001 0.0000226 0.0000001 0.0000226 0.9999999 -0.0000226
114 0.9999999 -0.0000236 0.0000001 0.0000236 0.0000001 0.0000236 0.9999999 -0.0000236
120 0.9999999 -0.0000247 0.0000001 0.0000247 0.0000001 0.0000247 0.9999999 -0.0000247
125 0.9999999 -0.0000258 0.0000001 0.0000258 0.0000001 0.0000258 0.9999999 -0.0000258
131 0.9999999 -0.0000270 0.0000001 0.0000270 0.0000001 0.0000270 0.9999999 -0.0000270
137 0.9999999 -0.0000282 0.0000001 0.0000282 0.0000001 0.0000282 0.9999999 -0.0000282
143 0.9999998 -0.0000295 0.0000002 0.0000295 0.0000002 0.0000295 0.9999998 -0.0000295
150 0.9999998 -0.0000309 0.0000002 0.0000309 0.0000002 0.0000309 0.9999998 -0.0000309
156 0.9999998 -0.0000323 0.0000002 0.0000323 0.0000002 0.0000323 0.9999998 -0.0000323
164 0.9999998 -0.0000337 0.0000002 0.0000337 0.0000002 0.0000337 0.9999998 -0.0000337
171 0.9999998 -0.0000353 0.0000002 0.0000353 0.0000002 0.0000353 0.9999998 -0.0000353
179 0.9999998 -0.0000369 0.0000002 0.0000369 0.0000002 0.0000369 0.9999998 -0.0000369
187 0.9999998 -0.0000386 0.0000002 0.0000386 0.0000002 0.0000386 0.9999998 -0.0000386
196 0.9999998 -0.0000403 0.0000002 0.0000403 0.0000002 0.0000403 0.9999998 -0.0000403
205 0.9999998 -0.0000422 0.0000002 0.0000422 0.0000002 0.0000422 0.9999998 -0.0000422
214 0.9999998 -0.0000441 0.0000002 0.0000441 0.0000002 0.0000441 0.9999998 -0.0000441
224 0.9999998 -0.0000461 0.0000002 0.0000461 0.0000002 0.0000461 0.9999998 -0.0000461
234 0.9999997 -0.0000482 0.0000003 0.0000482 0.0000003 0.0000482 0.9999997 -0.0000482
245 0.9999997 -0.0000504 0.0000003 0.0000504 0.0000003 0.0000504 0.9999997 -0.0000504
256 0.9999997 -0.0000527 0.0000003 0.0000527 0.0000003 0.0000527 0.9999997 -0.0000527
268 0.9999997 -0.0000551 0.0000003 0.0000551 0.0000003 0.0000551 0.9999997 -0.0000551
280 0.9999997 -0.0000576 0.0000003 0.0000576 0.0000003 0.0000576 0.9999997 -0.0000576
293 0.9999997 -0.0000603 0.0000003 0.0000603 0.0000003 0.0000603 0.9999997 -0.0000603
306 0.9999996 -0.0000630 0.0000004 0.0000630 0.0000004 0.0000630 0.9999996 -0.0000630
320 0.9999996 -0.0000659 0.0000004 0.0000659 0.0000004 0.0000659 0.9999996 -0.0000659
335 0.9999996 -0.0000689 0.0000004 0.0000689 0.0000004 0.0000689 0.9999996 -0.0000689
350 0.9999996 -0.0000720 0.0000004 0.0000720 0.0000004 0.0000720 0.9999996 -0.0000720
366 0.9999996 -0.0000753 0.0000004 0.0000753 0.0000004 0.0000753 0.9999996 -0.0000753
383 0.9999995 -0.0000788 0.0000005 0.0000788 0.0000005 0.0000788 0.9999995 -0.0000788
401 0.9999995 -0.0000824 0.0000005 0.0000824 0.0000005 0.0000824 0.9999995 -0.0000824
419 0.9999995 -0.0000861 0.0000005 0.0000861 0.0000005 0.0000861 0.9999995 -0.0000861
438 0.9999995 -0.0000900 0.0000005 0.0000900 0.0000005 0.0000900 0.9999995 -0.0000900
458 0.9999995 -0.0000941 0.0000005 0.0000941 0.0000005 0.0000941 0.9999995 -0.0000941
479 0.9999994 -0.0000984 0.0000006 0.0000984 0.0000006 0.0000984 0.9999994 -0.0000984
501 0.9999994 -0.0001029 0.0000006 0.0001029 0.0000006 0.0001029 0.9999994 -0.0001029
524 0.9999994 -0.0001076 0.0000006 0.0001076 0.0000006 0.0001076 0.9999994 -0.0001076
548 0.9999993 -0.0001125 0.0000007 0.0001125 0.0000007 0.0001125 0.9999993 -0.0001125
573 0.9999993 -0.0001177 0.0000007 0.0001177 0.0000007 0.0001177 0.9999993 -0.0001177
600 0.9999993 -0.0001230 0.0000007 0.0001230 0.0000007 0.0001230 0.9999993 -0.0001230
627 0.9999992 -0.0001286 0.0000008 0.0001286 0.0000008 0.0001286 0.9999992 -0.0001286
656 0.9999992 -0.0001345 0.0000008 0.0001345 0.0000008 0.0001345 0.9999992 -0.0001345
686 0.9999992 -0.0001406 0.0000008 0.0001406 0.0000008 0.0001406 0.9999992 -0.0001406
717 0.9999991 -0.0001470 0.0000009 0.0001470 0.0000009 0.0001470 0.9999991 -0.0001470
750 0.9999991 -0.0001537 0.0000009 0.0001537 0.0000009 0.0001537 0.9999991 -0.0001537
784 0.9999991 -0.0001607 0.0000009 0.0001607 0.0000009 0.0001607 0.9999991 -0.0001607
820 0.9999990 -0.0001681 0.0000010 0.0001681 0.0000010 0.0001681 0.9999990 -0.0001681
858 0.9999990 -0.0001757 0.0000010 0.0001757 0.0000010 0.0001757 0.9999990 -0.0001757
897 0.9999990 -0.0001838 0.0000010 0.0001838 0.0000010 0.0001838 0.9999990 -0.0001838
938 0.9999989 -0.0001921 0.0000011 0.0001921 0.0000011 0.0001921 0.9999989 -0.0001921
981 0.9999989 -0.0002009 0.0000011 0.0002009 0.0000011 0.0002009 0.9999989 -0.0002009
1026 0.9999988 -0.0002101 0.0000012 0.0002101 0.0000012 0.0002101 0.9999988 -0.0002101
1073 0.9999988 -0.0002197 0.0000012 0.0002197 0.0000012 0.0002197 0.9999988 -0.0002197
1122 0.9999987 -0.0002297 0.0000013 0.0002297 0.0000013 0.0002297 0.9999987 -0.0002297
1174 0.9999987 -0.0002402 0.0000013 0.0002402 0.0000013 0.0002402 0.9999987 -0.0002402
1227 0.9999986 -0.0002511 0.0000014 0.0002511 0.0000014 0.0002511 0.9999986 -0.0002511
1283 0.9999986 -0.0002626 0.0000014 0.0002626 0.0000014 0.0002626 0.9999986 -0.0002626
1342 0.9999985 -0.0002746 0.0000015 0.0002746 0.0000015 0.0002746 0.9999985 -0.0002746
1404 0.9999985 -0.0002871 0.0000015 0.0002871 0.0000015 0.0002871 0.9999985 -0.0002871
1468 0.9999984 -0.0003002 0.0000016 0.0003002 0.0000016 0.0003002 0.9999984 -0.0003002
1535 0.9999984 -0.0003139 0.0000016 0.0003139 0.0000016 0.0003139 0.9999984 -0.0003139
1606 0.9999983 -0.0003283 0.0000017 0.0003283 0.0000017 0.0003283 0.9999983 -0.0003283
1679 0.9999982 -0.0003433 0.0000018 0.0003433 0.0000018 0.0003433 0.9999982 -0.0003433
1756 0.9999981 -0.0003589 0.0000019 0.0003589 0.0000019 0.0003589 0.9999981 -0.0003589
1836 0.9999981 -0.0003753 0.0000019 0.0003753 0.0000019 0.0003753 0.9999981 -0.0003753
1920 0.9999980 -0.0003925 0.0000020 0.0003925 0.0000020 0.0003925 0.9999980 -0.0003925
2008 0.9999979 -0.0004104 0.0000021 0.0004104 0.0000021 0.0004104 0.9999979 -0.0004104
2100 0.9999978 -0.0004292 0.0000022 0.0004292 0.0000022 0.0004292 0.9999978 -0.0004292
2196 0.9999977 -0.0004488 0.0000023 0.0004488 0.0000023 0.0004488 0.9999977 -0.0004488
2297 0.9999976 -0.0004693 0.0000024 0.0004693 0.0000024 0.0004693 0.9999976 -0.0004693
2402 0.9999974 -0.0004907 0.0000026 0.0004907 0.0000026 0.0004907 0.9999974 -0.0004907
2512 0.9999973 -0.0005131 0.0000027 0.0005131 0.0000027 0.0005131 0.9999973 -0.0005131
2627 0.9999972 -0.0005366 0.0000028 0.0005366 0.0000028 0.0005366 0.9999972 -0.0005366
2748 0.9999970 -0.0005611 0.0000030 0.0005611 0.0000030 0.0005611 0.9999970 -0.0005611
2873 0.9999968 -0.0005867 0.0000032 0.0005867 0.0000032 0.0005867 0.9999968 -0.0005867
3005 0.9999967 -0.0006135 0.0000033 0.0006135 0.0000033 0.0006135 0.9999967 -0.0006135
3143 0.9999965 -0.0006416 0.0000035 0.0006416 0.0000035 0.0006416 0.9999965 -0.0006416
3287 0.9999963 -0.0006709 0.0000037 0.0006709 0.0000037 0.0006709 0.9999963 -0.0006709
3437 0.9999961 -0.0007015 0.0000039 0.0007015 0.0000039 0.0007015 0.9999961 -0.0007015
3594 0.9999958 -0.0007335 0.0000042 0.0007335 0.0000042 0.0007335 0.9999958 -0.0007335
3759 0.9999956 -0.0007670 0.0000044 0.0007670 0.0000044 0.0007670 0.9999956 -0.0007670
3931 0.9999953 -0.0008021 0.0000047 0.0008021 0.0000047 0.0008021 0.9999953 -0.0008021
4111 0.9999950 -0.0008387 0.0000050 0.0008387 0.0000050 0.0008387 0.9999950 -0.0008387
4299 0.9999947 -0.0008770 0.0000053 0.0008770 0.0000053 0.0008770 0.9999947 -0.0008770
4496 0.9999944 -0.0009170 0.0000056 0.0009170 0.0000056 0.0009170 0.9999944 -0.0009170
4702 0.9999940 -0.0009588 0.0000060 0.0009588 0.0000060 0.0009588 0.9999940 -0.0009588
4918 0.9999937 -0.0010026 0.0000063 0.0010026 0.0000063 0.0010026 0.9999937 -0.0010026
5143 0.9999933 -0.0010483 0.0000067 0.0010483 0.0000067 0.0010483 0.9999933 -0.0010483
5378 0.9999929 -0.0010962 0.0000071 0.0010962 0.0000071 0.0010962 0.9999929 -0.0010962
5625 0.9999924 -0.0011462 0.0000076 0.0011462 0.0000076 0.0011462 0.9999924 -0.0011462
5882 0.9999920 -0.0011985 0.0000080 0.0011985 0.0000080 0.0011985 0.9999920 -0.0011985
6151 0.9999915 -0.0012531 0.0000085 0.0012531 0.0000085 0.0012531 0.9999915 -0.0012531
6433 0.9999910 -0.0013103 0.0000090 0.0013103 0.0000090 0.0013103 0.9999910 -0.0013103
6728 0.9999905 -0.0013700 0.0000095 0.0013700 0.0000095 0.0013700 0.9999905 -0.0013700
7036 0.9999899 -0.0014325 0.0000101 0.0014325 0.0000101 0.0014325 0.9999899 -0.0014325
7358 0.9999893 -0.0014978 0.0000107 0.0014978 0.0000107 0.0014978 0.9999893 -0.0014978
7695 0.9999887 -0.0015661 0.0000113 0.0015661 0.0000113 0.0015661 0.9999887 -0.0015661
8047 0.9999880 -0.0016375 0.0000120 0.0016375 0.0000120 0.0016375 0.9999880 -0.0016375
8416 0.9999873 -0.0017122 0.0000127 0.0017122 0.0000127 0.0017122 0.9999873 -0.0017122
8801 0.9999866 -0.0017902 0.0000134 0.0017902 0.0000134 0.0017902 0.9999866 -0.0017902
9204 0.9999858 -0.0018719 0.0000142 0.0018719 0.0000142 0.0018719 0.9999858 -0.0018719
9626 0.9999850 -0.0019572 0.0000150 0.0019572 0.0000150 0.0019572 0.9999850 -0.0019572
10066 0.9999841 -0.0020465 0.0000159 0.0020465 0.0000159 0.0020465 0.9999841 -0.0020465
10527 0.9999832 -0.0021398 0.0000168 0.0021398 0.0000168 0.0021398 0.9999832 -0.0021398
11009 0.9999823 -0.0022374 0.0000177 0.0022374 0.0000177 0.0022374 0.9999823 -0.0022374
11514 0.9999812 -0.0023394 0.0000188 0.0023394 0.0000188 0.0023394 0.9999812 -0.0023394
12041 0.9999801 -0.0024462 0.0000199 0.0024462 0.0000199 0.0024462 0.9999801 -0.0024462
12592 0.9999790 -0.0025577 0.0000210 0.0025577 0.0000210 0.0025577 0.9999790 -0.0025577
13169 0.9999778 -0.0026744 0.0000222 0.0026744 0.0000222 0.0026744 0.9999778 -0.0026744
13772 0.9999765 -0.0027965 0.0000235 0.0027965 0.0000235 0.0027965 0.9999765 -0.0027965
14402 0.9999751 -0.0029241 0.0000249 0.0029241 0.0000249 0.0029241 0.9999751 -0.0029241
15062 0.9999736 -0.0030575 0.0000264 0.0030575 0.0000264 0.0030575 0.9999736 -0.0030575
15752 0.9999719 -0.0031971 0.0000281 0.0031971 0.0000281 0.0031971 0.9999719 -0.0031971
16473 0.9999702 -0.0033430 0.0000298 0.0033430 0.0000298 0.0033430 0.9999702 -0.0033430
17227 0.9999684 -0.0034956 0.0000316 0.0034956 0.0000316 0.0034956 0.9999684 -0.0034956
18016 0.9999663 -0.0036551 0.0000337 0.0036551 0.0000337 0.0036551 0.9999663 -0.0036551
18841 0.9999642 -0.0038220 0.0000358 0.0038220 0.0000358 0.0038220 0.9999642 -0.0038220
19704 0.9999618 -0.0039965 0.0000382 0.0039965 0.0000382 0.0039965 0.9999618 -0.0039965
20606 0.9999593 -0.0041790 0.0000407 0.0041790 0.0000407 0.0041790 0.9999593 -0.0041790
21550 0.9999566 -0.0043698 0.0000434 0.0043698 0.0000434 0.0043698 0.9999566 -0.0043698
22537 0.9999536 -0.0045693 0.0000464 0.0045693 0.0000464 0.0045693 0.9999536 -0.0045693
23569 0.9999504 -0.0047780 0.0000496 0.0047780 0.0000496 0.0047780 0.9999504 -0.0047780
24648 0.9999469 -0.0049961 0.0000531 0.0049961 0.0000531 0.0049961 0.9999469 -0.0049961
25777 0.9999431 -0.0052243 0.0000569 0.0052243 0.0000569 0.0052243 0.9999431 -0.0052243
26957 0.9999390 -0.0054628 0.0000610 0.0054628 0.0000610 0.0054628 0.9999390 -0.0054628
28191 0.9999345 -0.0057122 0.0000655 0.0057122 0.0000655 0.0057122 0.9999345 -0.0057122
29482 0.9999297 -0.0059730 0.0000703 0.0059730 0.0000703 0.0059730 0.9999297 -0.0059730
30832 0.9999244 -0.0062457 0.0000756 0.0062457 0.0000756 0.0062457 0.9999244 -0.0062457
32244 0.9999187 -0.0065308 0.0000813 0.0065308 0.0000813 0.0065308 0.9999187 -0.0065308
33721 0.9999126 -0.0068289 0.0000874 0.0068289 0.0000874 0.0068289 0.9999126 -0.0068289
35265 0.9999059 -0.0071405 0.0000941 0.0071405 0.0000941 0.0071405 0.9999059 -0.0071405
36880 0.9998986 -0.0074664 0.0001014 0.0074664 0.0001014 0.0074664 0.9998986 -0.0074664
38569 0.9998907 -0.0078071 0.0001093 0.0078071 0.0001093 0.0078071 0.9998907 -0.0078071
40335 0.9998821 -0.0081632 0.0001179 0.0081632 0.0001179 0.0081632 0.9998821 -0.0081632
42182 0.9998728 -0.0085356 0.0001272 0.0085356 0.0001272 0.0085356 0.9998728 -0.0085356
44113 0.9998628 -0.0089249 0.0001372 0.0089249 0.0001372 0.0089249 0.9998628 -0.0089249
46134 0.9998519 -0.0093318 0.0001481 0.0093318 0.0001481 0.0093318 0.9998519 -0.0093318
48246 0.9998401 -0.0097573 0.0001599 0.0097573 0.0001599 0.0097573 0.9998401 -0.0097573
50455 0.9998273 -0.0102021 0.0001727 0.0102021 0.0001727 0.0102021 0.9998273 -0.0102021
52766 0.9998134 -0.0106670 0.0001866 0.0106670 0.0001866 0.0106670 0.9998134 -0.0106670
55182 0.9997985 -0.0111531 0.0002015 0.0111531 0.0002015 0.0111531 0.9997985 -0.0111531
57709 0.9997823 -0.0116612 0.0002177 0.0116612 0.0002177 0.0116612 0.9997823 -0.0116612
60352 0.9997648 -0.0121924 0.0002352 0.0121924 0.0002352 0.0121924 0.9997648 -0.0121924
63115 0.9997458 -0.0127477 0.0002542 0.0127477 0.0002542 0.0127477 0.9997458 -0.0127477
66005 0.9997254 -0.0133281 0.0002746 0.0133281 0.0002746 0.0133281 0.9997254 -0.0133281
69028 0.9997033 -0.0139349 0.0002967 0.0139349 0.0002967 0.0139349 0.9997033 -0.0139349
72189 0.9996793 -0.0145692 0.0003207 0.0145692 0.0003207 0.0145692 0.9996793 -0.0145692
75495 0.9996535 -0.0152323 0.0003465 0.0152323 0.0003465 0.0152323 0.9996535 -0.0152323
78952 0.9996255 -0.0159254 0.0003745 0.0159254 0.0003745 0.0159254 0.9996255 -0.0159254
82567 0.9995953 -0.0166500 0.0004047 0.0166500 0.0004047 0.0166500 0.9995953 -0.0166500
86348 0.9995626 -0.0174075 0.0004374 0.0174075 0.0004374 0.0174075 0.9995626 -0.0174075
90302 0.9995273 -0.0181994 0.0004727 0.0181994 0.0004727 0.0181994 0.9995273 -0.0181994
94437 0.9994890 -0.0190272 0.0005110 0.0190272 0.0005110 0.0190272 0.9994890 -0.0190272
98762 0.9994476 -0.0198926 0.0005524 0.0198926 0.0005524 0.0198926 0.9994476 -0.0198926
103284 0.9994028 -0.0207973 0.0005972 0.0207973 0.0005972 0.0207973 0.9994028 -0.0207973
108014 0.9993542 -0.0217430 0.0006458 0.0217430 0.0006458 0.0217430 0.9993542 -0.0217430
112960 0.9993016 -0.0227317 0.0006984 0.0227317 0.0006984 0.0227317 0.9993016 -0.0227317
118133 0.9992445 -0.0237654 0.0007555 0.0237654 0.0007555 0.0237654 0.9992445 -0.0237654
123542 0.9991825 -0.0248459 0.0008175 0.0248459 0.0008175 0.0248459 0.9991825 -0.0248459
129199 0.9991153 -0.0259756 0.0008847 0.0259756 0.0008847 0.0259756 0.9991153 -0.0259756
135116 0.9990422 -0.0271565 0.0009578 0.0271565 0.0009578 0.0271565 0.9990422 -0.0271565
141303 0.9989629 -0.0283910 0.0010371 0.0283910 0.0010371 0.0283910 0.9989629 -0.0283910
147774 0.9988766 -0.0296816 0.0011234 0.0296816 0.0011234 0.0296816 0.9988766 -0.0296816
154540 0.9987828 -0.0310306 0.0012172 0.0310306 0.0012172 0.0310306 0.9987828 -0.0310306
161617 0.9986807 -0.0324409 0.0013193 0.0324409 0.0013193 0.0324409 0.9986807 -0.0324409
169018 0.9985696 -0.0339150 0.0014304 0.0339150 0.0014304 0.0339150 0.9985696 -0.0339150
176758 0.9984487 -0.0354559 0.0015513 0.0354559 0.0015513 0.0354559 0.9984487 -0.0354559
184852 0.9983169 -0.0370664 0.0016831 0.0370664 0.0016831 0.0370664 0.9983169 -0.0370664
193316 0.9981734 -0.0387497 0.0018266 0.0387497 0.0018266 0.0387497 0.9981734 -0.0387497
202169 0.9980170 -0.0405090 0.0019830 0.0405090 0.0019830 0.0405090 0.9980170 -0.0405090
211427 0.9978466 -0.0423476 0.0021534 0.0423476 0.0021534 0.0423476 0.9978466 -0.0423476
221108 0.9976608 -0.0442690 0.0023392 0.0442690 0.0023392 0.0442690 0.9976608 -0.0442690
231233 0.9974582 -0.0462767 0.0025418 0.0462767 0.0025418 0.0462767 0.9974582 -0.0462767
241822 0.9972374 -0.0483745 0.0027626 0.0483745 0.0027626 0.0483745 0.9972374 -0.0483745
252896 0.9969967 -0.0505663 0.0030033 0.0505663 0.0030033 0.0505663 0.9969967 -0.0505663
264476 0.9967342 -0.0528561 0.0032658 0.0528561 0.0032658 0.0528561 0.9967342 -0.0528561
276587 0.9964480 -0.0552480 0.0035520 0.0552480 0.0035520 0.0552480 0.9964480 -0.0552480
289253 0.9961359 -0.0577463 0.0038641 0.0577463 0.0038641 0.0577463 0.9961359 -0.0577463
302498 0.9957957 -0.0603556 0.0042043 0.0603556 0.0042043 0.0603556 0.9957957 -0.0603556
316350 0.9954248 -0.0630804 0.0045752 0.0630804 0.0045752 0.0630804 0.9954248 -0.0630804
330837 0.9950205 -0.0659255 0.0049795 0.0659255 0.0049795 0.0659255 0.9950205 -0.0659255
345986 0.9945799 -0.0688958 0.0054201 0.0688958 0.0054201 0.0688958 0.9945799 -0.0688958
361830 0.9940996 -0.0719965 0.0059004 0.0719965 0.0059004 0.0719965 0.9940996 -0.0719965
378399 0.9935764 -0.0752327 0.0064236 0.0752327 0.0064236 0.0752327 0.9935764 -0.0752327
395726 0.9930063 -0.0786098 0.0069937 0.0786098 0.0069937 0.0786098 0.9930063 -0.0786098
413847 0.9923853 -0.0821334 0.0076147 0.0821334 0.0076147 0.0821334 0.9923853 -0.0821334
432798 0.9917090 -0.0858091 0.0082910 0.0858091 0.0082910 0.0858091 0.9917090 -0.0858091
452617 0.9909725 -0.0896429 0.0090275 0.0896429 0.0090275 0.0896429 0.9909725 -0.0896429
473344 0.9901708 -0.0936406 0.0098292 0.0936406 0.0098292 0.0936406 0.9901708 -0.0936406
495019 0.9892980 -0.0978083 0.0107020 0.0978083 0.0107020 0.0978083 0.9892980 -0.0978083
517687 0.9883483 -0.1021523 0.0116517 0.1021523 0.0116517 0.1021523 0.9883483 -0.1021523
541393 0.9873148 -0.1066789 0.0126852 0.1066789 0.0126852 0.1066789 0.9873148 -0.1066789
566185 0.9861907 -0.1113944 0.0138093 0.1113944 0.0138093 0.1113944 0.9861907 -0.1113944
592111 0.9849680 -0.1163053 0.0150320 0.1163053 0.0150320 0.1163053 0.9849680 -0.1163053
619225 0.9836384 -0.1214180 0.0163616 0.1214180 0.0163616 0.1214180 0.9836384 -0.1214180
647581 0.9821930 -0.1267391 0.0178070 0.1267391 0.0178070 0.1267391 0.9821930 -0.1267391
677235 0.9806219 -0.1322748 0.0193781 0.1322748 0.0193781 0.1322748 0.9806219 -0.1322748
708247 0.9789147 -0.1380317 0.0210853 0.1380317 0.0210853 0.1380317 0.9789147 -0.1380317
740679 0.9770599 -0.1440158 0.0229401 0.1440158 0.0229401 0.1440158 0.9770599 -0.1440158
774597 0.9750454 -0.1502332 0.0249546 0.1502332 0.0249546 0.1502332 0.9750454 -0.1502332
810067 0.9728578 -0.1566896 0.0271422 0.1566896 0.0271422 0.1566896 0.9728578 -0.1566896
847162 0.9704832 -0.1633902 0.0295168 0.1633902 0.0295168 0.1633902 0.9704832 -0.1633902
885955 0.9679062 -0.1703400 0.0320938 0.1703400 0.0320938 0.1703400 0.9679062 -0.1703400
926525 0.9651106 -0.1775433 0.0348894 0.1775433 0.0348894 0.1775433 0.9651106 -0.1775433
968953 0.9620791 -0.1850037 0.0379209 0.1850037 0.0379209 0.1850037 0.9620791 -0.1850037
1013323 0.9587929 -0.1927240 0.0412071 0.1927240 0.0412071 0.1927240 0.9587929 -0.1927240
1059725 0.9552325 -0.2007059 0.0447675 0.2007059 0.0447675 0.2007059 0.9552325 -0.2007059
1108252 0.9513769 -0.2089503 0.0486231 0.2089503 0.0486231 0.2089503 0.9513769 -0.2089503
1159002 0.9472039 -0.2174564 0.0527961 0.2174564 0.0527961 0.2174564 0.9472039 -0.2174564
1212075 0.9426905 -0.2262221 0.0573095 0.2262221 0.0573095 0.2262221 0.9426905 -0.2262221
1267578 0.9378122 -0.2352435 0.0621878 0.2352435 0.0621878 0.2352435 0.9378122 -0.2352435
1325623 0.9325436 -0.2445149 0.0674564 0.2445149 0.0674564 0.2445149 0.9325436 -0.2445149
1386327 0.9268583 -0.2540282 0.0731417 0.2540282 0.0731417 0.2540282 0.9268583 -0.2540282
1449809 0.9207293 -0.2637731 0.0792707 0.2637731 0.0792707 0.2637731 0.9207293 -0.2637731
1516199 0.9141285 -0.2737366 0.0858715 0.2737366 0.0858715 0.2737366 0.9141285 -0.2737366
1585629 0.9070278 -0.2839028 0.0929722 0.2839028 0.0929722 0.2839028 0.9070278 -0.2839028
1658239 0.8993986 -0.2942526 0.1006014 0.2942526 0.1006014 0.2942526 0.8993986 -0.2942526
1734173 0.8912124 -0.3047639 0.1087876 0.3047639 0.1087876 0.3047639 0.8912124 -0.3047639
1813585 0.8824414 -0.3154106 0.1175586 0.3154106 0.1175586 0.3154106 0.8824414 -0.3154106
1896632 0.8730583 -0.3261631 0.1269417 0.3261631 0.1269417 0.3261631 0.8730583 -0.3261631
1983483 0.8630371 -0.3369880 0.1369629 0.3369880 0.1369629 0.3369880 0.8630371 -0.3369880
2074311 0.8523537 -0.3478478 0.1476463 0.3478478 0.1476463 0.3478478 0.8523537 -0.3478478
