!Murata Part Number: GRM033B31C104KE84
!These Parameters are Measured in Series Mode Connection
!Data Generated on Mar 30, 2021
!       o--ll--o
!Port1            Port2
!       o------o
!Operation Temp=25[degC], DC Bias Voltage=0[V]
!Freq. Start=100[Hz] Stop=6[GHz] 401[Steps]
# Hz S RI R 50
!Freq.(Hz) S11(Real) S11(Imag) S21(Real) S21(Imag) S12(Real) S12(Imag) S22(Real) S22(Imag)
100 0.9999113 -0.0061284 0.0000887 0.0061284 0.0000887 0.0061284 0.9999113 -0.0061284
105 0.9999056 -0.0064073 0.0000944 0.0064073 0.0000944 0.0064073 0.9999056 -0.0064073
109 0.9998994 -0.0066990 0.0001006 0.0066990 0.0001006 0.0066990 0.9998994 -0.0066990
114 0.9998929 -0.0070040 0.0001071 0.0070040 0.0001071 0.0070040 0.9998929 -0.0070040
120 0.9998858 -0.0073228 0.0001142 0.0073228 0.0001142 0.0073228 0.9998858 -0.0073228
125 0.9998782 -0.0076562 0.0001218 0.0076562 0.0001218 0.0076562 0.9998782 -0.0076562
131 0.9998700 -0.0080048 0.0001300 0.0080048 0.0001300 0.0080048 0.9998700 -0.0080048
137 0.9998611 -0.0083693 0.0001389 0.0083693 0.0001389 0.0083693 0.9998611 -0.0083693
143 0.9998516 -0.0087504 0.0001484 0.0087504 0.0001484 0.0087504 0.9998516 -0.0087504
150 0.9998413 -0.0091488 0.0001587 0.0091488 0.0001587 0.0091488 0.9998413 -0.0091488
156 0.9998301 -0.0095654 0.0001699 0.0095654 0.0001699 0.0095654 0.9998301 -0.0095654
164 0.9998181 -0.0100009 0.0001819 0.0100009 0.0001819 0.0100009 0.9998181 -0.0100009
171 0.9998051 -0.0104562 0.0001949 0.0104562 0.0001949 0.0104562 0.9998051 -0.0104562
179 0.9997911 -0.0109322 0.0002089 0.0109322 0.0002089 0.0109322 0.9997911 -0.0109322
187 0.9997760 -0.0114299 0.0002240 0.0114299 0.0002240 0.0114299 0.9997760 -0.0114299
196 0.9997596 -0.0119502 0.0002404 0.0119502 0.0002404 0.0119502 0.9997596 -0.0119502
205 0.9997419 -0.0124941 0.0002581 0.0124941 0.0002581 0.0124941 0.9997419 -0.0124941
214 0.9997228 -0.0130628 0.0002772 0.0130628 0.0002772 0.0130628 0.9997228 -0.0130628
224 0.9997021 -0.0136573 0.0002979 0.0136573 0.0002979 0.0136573 0.9997021 -0.0136573
234 0.9996798 -0.0142788 0.0003202 0.0142788 0.0003202 0.0142788 0.9996798 -0.0142788
245 0.9996556 -0.0149286 0.0003444 0.0149286 0.0003444 0.0149286 0.9996556 -0.0149286
256 0.9996295 -0.0156079 0.0003705 0.0156079 0.0003705 0.0156079 0.9996295 -0.0156079
268 0.9996013 -0.0163180 0.0003987 0.0163180 0.0003987 0.0163180 0.9996013 -0.0163180
280 0.9995707 -0.0170604 0.0004293 0.0170604 0.0004293 0.0170604 0.9995707 -0.0170604
293 0.9995376 -0.0178366 0.0004624 0.0178366 0.0004624 0.0178366 0.9995376 -0.0178366
306 0.9995018 -0.0186480 0.0004982 0.0186480 0.0004982 0.0186480 0.9995018 -0.0186480
320 0.9994631 -0.0194962 0.0005369 0.0194962 0.0005369 0.0194962 0.9994631 -0.0194962
335 0.9994210 -0.0203830 0.0005790 0.0203830 0.0005790 0.0203830 0.9994210 -0.0203830
350 0.9993755 -0.0213101 0.0006245 0.0213101 0.0006245 0.0213101 0.9993755 -0.0213101
366 0.9993262 -0.0222794 0.0006738 0.0222794 0.0006738 0.0222794 0.9993262 -0.0222794
383 0.9992726 -0.0232927 0.0007274 0.0232927 0.0007274 0.0232927 0.9992726 -0.0232927
401 0.9992145 -0.0243520 0.0007855 0.0243520 0.0007855 0.0243520 0.9992145 -0.0243520
419 0.9991514 -0.0254594 0.0008486 0.0254594 0.0008486 0.0254594 0.9991514 -0.0254594
438 0.9990829 -0.0266171 0.0009171 0.0266171 0.0009171 0.0266171 0.9990829 -0.0266171
458 0.9990084 -0.0278274 0.0009916 0.0278274 0.0009916 0.0278274 0.9990084 -0.0278274
479 0.9989274 -0.0290925 0.0010726 0.0290925 0.0010726 0.0290925 0.9989274 -0.0290925
501 0.9988394 -0.0304151 0.0011606 0.0304151 0.0011606 0.0304151 0.9988394 -0.0304151
524 0.9987436 -0.0317976 0.0012564 0.0317976 0.0012564 0.0317976 0.9987436 -0.0317976
548 0.9986394 -0.0332428 0.0013606 0.0332428 0.0013606 0.0332428 0.9986394 -0.0332428
573 0.9985260 -0.0347533 0.0014740 0.0347533 0.0014740 0.0347533 0.9985260 -0.0347533
600 0.9984025 -0.0363323 0.0015975 0.0363323 0.0015975 0.0363323 0.9984025 -0.0363323
627 0.9982681 -0.0379825 0.0017319 0.0379825 0.0017319 0.0379825 0.9982681 -0.0379825
656 0.9981216 -0.0397073 0.0018784 0.0397073 0.0018784 0.0397073 0.9981216 -0.0397073
686 0.9979621 -0.0415099 0.0020379 0.0415099 0.0020379 0.0415099 0.9979621 -0.0415099
717 0.9977883 -0.0433937 0.0022117 0.0433937 0.0022117 0.0433937 0.9977883 -0.0433937
750 0.9975990 -0.0453622 0.0024010 0.0453622 0.0024010 0.0453622 0.9975990 -0.0453622
784 0.9973927 -0.0474192 0.0026073 0.0474192 0.0026073 0.0474192 0.9973927 -0.0474192
820 0.9971680 -0.0495684 0.0028320 0.0495684 0.0028320 0.0495684 0.9971680 -0.0495684
858 0.9969231 -0.0518140 0.0030769 0.0518140 0.0030769 0.0518140 0.9969231 -0.0518140
897 0.9966563 -0.0541600 0.0033437 0.0541600 0.0033437 0.0541600 0.9966563 -0.0541600
938 0.9963655 -0.0566107 0.0036345 0.0566107 0.0036345 0.0566107 0.9963655 -0.0566107
981 0.9960487 -0.0591706 0.0039513 0.0591706 0.0039513 0.0591706 0.9960487 -0.0591706
1026 0.9957035 -0.0618443 0.0042965 0.0618443 0.0042965 0.0618443 0.9957035 -0.0618443
1073 0.9953274 -0.0646366 0.0046726 0.0646366 0.0046726 0.0646366 0.9953274 -0.0646366
1122 0.9949176 -0.0675526 0.0050824 0.0675526 0.0050824 0.0675526 0.9949176 -0.0675526
1174 0.9944712 -0.0705973 0.0055288 0.0705973 0.0055288 0.0705973 0.9944712 -0.0705973
1227 0.9939849 -0.0737761 0.0060151 0.0737761 0.0060151 0.0737761 0.9939849 -0.0737761
1283 0.9934550 -0.0770945 0.0065450 0.0770945 0.0065450 0.0770945 0.9934550 -0.0770945
1342 0.9928779 -0.0805581 0.0071221 0.0805581 0.0071221 0.0805581 0.9928779 -0.0805581
1404 0.9922492 -0.0841728 0.0077508 0.0841728 0.0077508 0.0841728 0.9922492 -0.0841728
1468 0.9915644 -0.0879446 0.0084356 0.0879446 0.0084356 0.0879446 0.9915644 -0.0879446
1535 0.9908184 -0.0918797 0.0091816 0.0918797 0.0091816 0.0918797 0.9908184 -0.0918797
1606 0.9900059 -0.0959844 0.0099941 0.0959844 0.0099941 0.0959844 0.9900059 -0.0959844
1679 0.9891210 -0.1002652 0.0108790 0.1002652 0.0108790 0.1002652 0.9891210 -0.1002652
1756 0.9881573 -0.1047285 0.0118427 0.1047285 0.0118427 0.1047285 0.9881573 -0.1047285
1836 0.9871077 -0.1093811 0.0128923 0.1093811 0.0128923 0.1093811 0.9871077 -0.1093811
1920 0.9859648 -0.1142297 0.0140352 0.1142297 0.0140352 0.1142297 0.9859648 -0.1142297
2008 0.9847202 -0.1192811 0.0152798 0.1192811 0.0152798 0.1192811 0.9847202 -0.1192811
2100 0.9833652 -0.1245421 0.0166348 0.1245421 0.0166348 0.1245421 0.9833652 -0.1245421
2196 0.9818900 -0.1300194 0.0181100 0.1300194 0.0181100 0.1300194 0.9818900 -0.1300194
2297 0.9802843 -0.1357198 0.0197157 0.1357198 0.0197157 0.1357198 0.9802843 -0.1357198
2402 0.9785367 -0.1416497 0.0214633 0.1416497 0.0214633 0.1416497 0.9785367 -0.1416497
2512 0.9766352 -0.1478156 0.0233648 0.1478156 0.0233648 0.1478156 0.9766352 -0.1478156
2627 0.9745666 -0.1542236 0.0254334 0.1542236 0.0254334 0.1542236 0.9745666 -0.1542236
2748 0.9723168 -0.1608793 0.0276832 0.1608793 0.0276832 0.1608793 0.9723168 -0.1608793
2873 0.9698708 -0.1677881 0.0301292 0.1677881 0.0301292 0.1677881 0.9698708 -0.1677881
3005 0.9672123 -0.1749547 0.0327877 0.1749547 0.0327877 0.1749547 0.9672123 -0.1749547
3143 0.9643240 -0.1823833 0.0356760 0.1823833 0.0356760 0.1823833 0.9643240 -0.1823833
3287 0.9611875 -0.1900770 0.0388125 0.1900770 0.0388125 0.1900770 0.9611875 -0.1900770
3437 0.9577831 -0.1980384 0.0422169 0.1980384 0.0422169 0.1980384 0.9577831 -0.1980384
3594 0.9540899 -0.2062687 0.0459101 0.2062687 0.0459101 0.2062687 0.9540899 -0.2062687
3759 0.9500861 -0.2147679 0.0499139 0.2147679 0.0499139 0.2147679 0.9500861 -0.2147679
3931 0.9457483 -0.2235347 0.0542517 0.2235347 0.0542517 0.2235347 0.9457483 -0.2235347
4111 0.9410522 -0.2325659 0.0589478 0.2325659 0.0589478 0.2325659 0.9410522 -0.2325659
4299 0.9359724 -0.2418567 0.0640276 0.2418567 0.0640276 0.2418567 0.9359724 -0.2418567
4496 0.9304823 -0.2514002 0.0695177 0.2514002 0.0695177 0.2514002 0.9304823 -0.2514002
4702 0.9245547 -0.2611869 0.0754453 0.2611869 0.0754453 0.2611869 0.9245547 -0.2611869
4918 0.9181613 -0.2712051 0.0818387 0.2712051 0.0818387 0.2712051 0.9181613 -0.2712051
5143 0.9112735 -0.2814401 0.0887265 0.2814401 0.0887265 0.2814401 0.9112735 -0.2814401
5378 0.9038622 -0.2918742 0.0961378 0.2918742 0.0961378 0.2918742 0.9038622 -0.2918742
5625 0.8958981 -0.3024865 0.1041019 0.3024865 0.1041019 0.3024865 0.8958981 -0.3024865
5882 0.8873524 -0.3132524 0.1126476 0.3132524 0.1126476 0.3132524 0.8873524 -0.3132524
6151 0.8781966 -0.3241438 0.1218034 0.3241438 0.1218034 0.3241438 0.8781966 -0.3241438
6433 0.8684035 -0.3351287 0.1315965 0.3351287 0.1315965 0.3351287 0.8684035 -0.3351287
6728 0.8579472 -0.3461709 0.1420528 0.3461709 0.1420528 0.3461709 0.8579472 -0.3461709
7036 0.8468037 -0.3572302 0.1531963 0.3572302 0.1531963 0.3572302 0.8468037 -0.3572302
7358 0.8349518 -0.3682626 0.1650482 0.3682626 0.1650482 0.3682626 0.8349518 -0.3682626
7695 0.8223734 -0.3792196 0.1776266 0.3792196 0.1776266 0.3792196 0.8223734 -0.3792196
8047 0.8090541 -0.3900492 0.1909459 0.3900492 0.1909459 0.3900492 0.8090541 -0.3900492
8416 0.7949840 -0.4006956 0.2050160 0.4006956 0.2050160 0.4006956 0.7949840 -0.4006956
8801 0.7801584 -0.4110998 0.2198416 0.4110998 0.2198416 0.4110998 0.7801584 -0.4110998
9204 0.7645782 -0.4212001 0.2354218 0.4212001 0.2354218 0.4212001 0.7645782 -0.4212001
9626 0.7482506 -0.4309326 0.2517494 0.4309326 0.2517494 0.4309326 0.7482506 -0.4309326
10066 0.7311897 -0.4402318 0.2688103 0.4402318 0.2688103 0.4402318 0.7311897 -0.4402318
10527 0.7134167 -0.4490317 0.2865833 0.4490317 0.2865833 0.4490317 0.7134167 -0.4490317
11009 0.6949606 -0.4572668 0.3050394 0.4572668 0.3050394 0.4572668 0.6949606 -0.4572668
11514 0.6758580 -0.4648726 0.3241420 0.4648726 0.3241420 0.4648726 0.6758580 -0.4648726
12041 0.6561531 -0.4717872 0.3438469 0.4717872 0.3438469 0.4717872 0.6561531 -0.4717872
12592 0.6358981 -0.4779522 0.3641019 0.4779522 0.3641019 0.4779522 0.6358981 -0.4779522
13169 0.6151521 -0.4833137 0.3848479 0.4833137 0.3848479 0.4833137 0.6151521 -0.4833137
13772 0.5939812 -0.4878235 0.4060188 0.4878235 0.4060188 0.4878235 0.5939812 -0.4878235
14402 0.5724573 -0.4914402 0.4275427 0.4914402 0.4275427 0.4914402 0.5724573 -0.4914402
15062 0.5506577 -0.4941300 0.4493423 0.4941300 0.4493423 0.4941300 0.5506577 -0.4941300
15752 0.5286636 -0.4958672 0.4713364 0.4958672 0.4713364 0.4958672 0.5286636 -0.4958672
16473 0.5065591 -0.4966353 0.4934409 0.4966353 0.4934409 0.4966353 0.5065591 -0.4966353
17227 0.4844302 -0.4964268 0.5155698 0.4964268 0.5155698 0.4964268 0.4844302 -0.4964268
18016 0.4623630 -0.4952439 0.5376370 0.4952439 0.5376370 0.4952439 0.4623630 -0.4952439
18841 0.4404429 -0.4930981 0.5595571 0.4930981 0.5595571 0.4930981 0.4404429 -0.4930981
19704 0.4187528 -0.4900099 0.5812472 0.4900099 0.5812472 0.4900099 0.4187528 -0.4900099
20606 0.3973723 -0.4860087 0.6026277 0.4860087 0.6026277 0.4860087 0.3973723 -0.4860087
21550 0.3763763 -0.4811318 0.6236237 0.4811318 0.6236237 0.4811318 0.3763763 -0.4811318
22537 0.3558343 -0.4754236 0.6441657 0.4754236 0.6441657 0.4754236 0.3558343 -0.4754236
23569 0.3358094 -0.4689349 0.6641906 0.4689349 0.6641906 0.4689349 0.3358094 -0.4689349
24648 0.3163575 -0.4617216 0.6836425 0.4617216 0.6836425 0.4617216 0.3163575 -0.4617216
25777 0.2975274 -0.4538436 0.7024726 0.4538436 0.7024726 0.4538436 0.2975274 -0.4538436
26957 0.2793600 -0.4453642 0.7206400 0.4453642 0.7206400 0.4453642 0.2793600 -0.4453642
28191 0.2618885 -0.4363482 0.7381115 0.4363482 0.7381115 0.4363482 0.2618885 -0.4363482
29482 0.2451385 -0.4268614 0.7548615 0.4268614 0.7548615 0.4268614 0.2451385 -0.4268614
30832 0.2291280 -0.4169696 0.7708720 0.4169696 0.7708720 0.4169696 0.2291280 -0.4169696
32244 0.2138682 -0.4067376 0.7861318 0.4067376 0.7861318 0.4067376 0.2138682 -0.4067376
33721 0.1993635 -0.3962283 0.8006365 0.3962283 0.8006365 0.3962283 0.1993635 -0.3962283
35265 0.1856123 -0.3855022 0.8143877 0.3855022 0.8143877 0.3855022 0.1856123 -0.3855022
36880 0.1726077 -0.3746170 0.8273923 0.3746170 0.8273923 0.3746170 0.1726077 -0.3746170
38569 0.1603377 -0.3636267 0.8396623 0.3636267 0.8396623 0.3636267 0.1603377 -0.3636267
40335 0.1487866 -0.3525819 0.8512134 0.3525819 0.8512134 0.3525819 0.1487866 -0.3525819
42182 0.1379347 -0.3415290 0.8620653 0.3415290 0.8620653 0.3415290 0.1379347 -0.3415290
44113 0.1277596 -0.3305106 0.8722404 0.3305106 0.8722404 0.3305106 0.1277596 -0.3305106
46134 0.1182367 -0.3195649 0.8817633 0.3195649 0.8817633 0.3195649 0.1182367 -0.3195649
48246 0.1093395 -0.3087263 0.8906605 0.3087263 0.8906605 0.3087263 0.1093395 -0.3087263
50455 0.1010401 -0.2980253 0.8989599 0.2980253 0.8989599 0.2980253 0.1010401 -0.2980253
52766 0.0933100 -0.2874884 0.9066900 0.2874884 0.9066900 0.2874884 0.0933100 -0.2874884
55182 0.0861202 -0.2771385 0.9138798 0.2771385 0.9138798 0.2771385 0.0861202 -0.2771385
57709 0.0794414 -0.2669953 0.9205586 0.2669953 0.9205586 0.2669953 0.0794414 -0.2669953
60352 0.0732449 -0.2570752 0.9267551 0.2570752 0.9267551 0.2570752 0.0732449 -0.2570752
63115 0.0675021 -0.2473915 0.9324979 0.2473915 0.9324979 0.2473915 0.0675021 -0.2473915
66005 0.0621852 -0.2379551 0.9378148 0.2379551 0.9378148 0.2379551 0.0621852 -0.2379551
69028 0.0572673 -0.2287742 0.9427327 0.2287742 0.9427327 0.2287742 0.0572673 -0.2287742
72189 0.0527223 -0.2198550 0.9472777 0.2198550 0.9472777 0.2198550 0.0527223 -0.2198550
75495 0.0485252 -0.2112016 0.9514748 0.2112016 0.9514748 0.2112016 0.0485252 -0.2112016
78952 0.0446523 -0.2028163 0.9553477 0.2028163 0.9553477 0.2028163 0.0446523 -0.2028163
82567 0.0410807 -0.1946999 0.9589193 0.1946999 0.9589193 0.1946999 0.0410807 -0.1946999
86348 0.0377890 -0.1868519 0.9622110 0.1868519 0.9622110 0.1868519 0.0377890 -0.1868519
90302 0.0347568 -0.1792705 0.9652432 0.1792705 0.9652432 0.1792705 0.0347568 -0.1792705
94437 0.0319650 -0.1719529 0.9680350 0.1719529 0.9680350 0.1719529 0.0319650 -0.1719529
98762 0.0293956 -0.1648955 0.9706044 0.1648955 0.9706044 0.1648955 0.0293956 -0.1648955
103284 0.0270318 -0.1580939 0.9729682 0.1580939 0.9729682 0.1580939 0.0270318 -0.1580939
108014 0.0248579 -0.1515432 0.9751421 0.1515432 0.9751421 0.1515432 0.0248579 -0.1515432
112960 0.0228591 -0.1452378 0.9771409 0.1452378 0.9771409 0.1452378 0.0228591 -0.1452378
118133 0.0210218 -0.1391719 0.9789782 0.1391719 0.9789782 0.1391719 0.0210218 -0.1391719
123542 0.0193334 -0.1333393 0.9806666 0.1333393 0.9806666 0.1333393 0.0193334 -0.1333393
129199 0.0177819 -0.1277334 0.9822181 0.1277334 0.9822181 0.1277334 0.0177819 -0.1277334
135116 0.0163566 -0.1223478 0.9836434 0.1223478 0.9836434 0.1223478 0.0163566 -0.1223478
141303 0.0150472 -0.1171756 0.9849528 0.1171756 0.9849528 0.1171756 0.0150472 -0.1171756
147774 0.0138446 -0.1122102 0.9861554 0.1122102 0.9861554 0.1122102 0.0138446 -0.1122102
154540 0.0127400 -0.1074446 0.9872600 0.1074446 0.9872600 0.1074446 0.0127400 -0.1074446
161617 0.0117256 -0.1028722 0.9882744 0.1028722 0.9882744 0.1028722 0.0117256 -0.1028722
169018 0.0107940 -0.0984862 0.9892060 0.0984862 0.9892060 0.0984862 0.0107940 -0.0984862
176758 0.0099385 -0.0942799 0.9900615 0.0942799 0.9900615 0.0942799 0.0099385 -0.0942799
184852 0.0091529 -0.0902470 0.9908471 0.0902470 0.9908471 0.0902470 0.0091529 -0.0902470
193316 0.0084315 -0.0863809 0.9915685 0.0863809 0.9915685 0.0863809 0.0084315 -0.0863809
202169 0.0077690 -0.0826754 0.9922310 0.0826754 0.9922310 0.0826754 0.0077690 -0.0826754
211427 0.0071608 -0.0791244 0.9928392 0.0791244 0.9928392 0.0791244 0.0071608 -0.0791244
221108 0.0066023 -0.0757220 0.9933977 0.0757220 0.9933977 0.0757220 0.0066023 -0.0757220
231233 0.0060895 -0.0724624 0.9939105 0.0724624 0.9939105 0.0724624 0.0060895 -0.0724624
241822 0.0056186 -0.0693400 0.9943814 0.0693400 0.9943814 0.0693400 0.0056186 -0.0693400
252896 0.0051863 -0.0663493 0.9948137 0.0663493 0.9948137 0.0663493 0.0051863 -0.0663493
264476 0.0047894 -0.0634852 0.9952106 0.0634852 0.9952106 0.0634852 0.0047894 -0.0634852
276587 0.0044250 -0.0607425 0.9955750 0.0607425 0.9955750 0.0607425 0.0044250 -0.0607425
289253 0.0040905 -0.0581163 0.9959095 0.0581163 0.9959095 0.0581163 0.0040905 -0.0581163
302498 0.0037834 -0.0556019 0.9962166 0.0556019 0.9962166 0.0556019 0.0037834 -0.0556019
316350 0.0035014 -0.0531948 0.9964986 0.0531948 0.9964986 0.0531948 0.0035014 -0.0531948
330837 0.0032426 -0.0508906 0.9967574 0.0508906 0.9967574 0.0508906 0.0032426 -0.0508906
345986 0.0030050 -0.0486849 0.9969950 0.0486849 0.9969950 0.0486849 0.0030050 -0.0486849
361830 0.0027869 -0.0465738 0.9972131 0.0465738 0.9972131 0.0465738 0.0027869 -0.0465738
378399 0.0025867 -0.0445534 0.9974133 0.0445534 0.9974133 0.0445534 0.0025867 -0.0445534
395726 0.0024029 -0.0426197 0.9975971 0.0426197 0.9975971 0.0426197 0.0024029 -0.0426197
413847 0.0022341 -0.0407693 0.9977659 0.0407693 0.9977659 0.0407693 0.0022341 -0.0407693
432798 0.0020791 -0.0389987 0.9979209 0.0389987 0.9979209 0.0389987 0.0020791 -0.0389987
452617 0.0019368 -0.0373044 0.9980632 0.0373044 0.9980632 0.0373044 0.0019368 -0.0373044
473344 0.0018060 -0.0356832 0.9981940 0.0356832 0.9981940 0.0356832 0.0018060 -0.0356832
495019 0.0016859 -0.0341321 0.9983141 0.0341321 0.9983141 0.0341321 0.0016859 -0.0341321
517687 0.0015756 -0.0326481 0.9984244 0.0326481 0.9984244 0.0326481 0.0015756 -0.0326481
541393 0.0014741 -0.0312284 0.9985259 0.0312284 0.9985259 0.0312284 0.0014741 -0.0312284
566185 0.0013809 -0.0298701 0.9986191 0.0298701 0.9986191 0.0298701 0.0013809 -0.0298701
592111 0.0012951 -0.0285707 0.9987049 0.0285707 0.9987049 0.0285707 0.0012951 -0.0285707
619225 0.0012161 -0.0273276 0.9987839 0.0273276 0.9987839 0.0273276 0.0012161 -0.0273276
647581 0.0011435 -0.0261384 0.9988565 0.0261384 0.9988565 0.0261384 0.0011435 -0.0261384
677235 0.0010766 -0.0250007 0.9989234 0.0250007 0.9989234 0.0250007 0.0010766 -0.0250007
708247 0.0010150 -0.0239125 0.9989850 0.0239125 0.9989850 0.0239125 0.0010150 -0.0239125
740679 0.0009581 -0.0228714 0.9990419 0.0228714 0.9990419 0.0228714 0.0009581 -0.0228714
774597 0.0009057 -0.0218755 0.9990943 0.0218755 0.9990943 0.0218755 0.0009057 -0.0218755
810067 0.0008574 -0.0209228 0.9991426 0.0209228 0.9991426 0.0209228 0.0008574 -0.0209228
847162 0.0008128 -0.0200114 0.9991872 0.0200114 0.9991872 0.0200114 0.0008128 -0.0200114
885955 0.0007716 -0.0191396 0.9992284 0.0191396 0.9992284 0.0191396 0.0007716 -0.0191396
926525 0.0007335 -0.0183055 0.9992665 0.0183055 0.9992665 0.0183055 0.0007335 -0.0183055
968953 0.0006983 -0.0175076 0.9993017 0.0175076 0.9993017 0.0175076 0.0006983 -0.0175076
1013323 0.0006657 -0.0167443 0.9993343 0.0167443 0.9993343 0.0167443 0.0006657 -0.0167443
1059725 0.0006356 -0.0160141 0.9993644 0.0160141 0.9993644 0.0160141 0.0006356 -0.0160141
1108252 0.0006078 -0.0153154 0.9993922 0.0153154 0.9993922 0.0153154 0.0006078 -0.0153154
1159002 0.0005820 -0.0146471 0.9994180 0.0146471 0.9994180 0.0146471 0.0005820 -0.0146471
1212075 0.0005582 -0.0140076 0.9994418 0.0140076 0.9994418 0.0140076 0.0005582 -0.0140076
1267578 0.0005361 -0.0133958 0.9994639 0.0133958 0.9994639 0.0133958 0.0005361 -0.0133958
1325623 0.0005156 -0.0128104 0.9994844 0.0128104 0.9994844 0.0128104 0.0005156 -0.0128104
1386327 0.0004967 -0.0122504 0.9995033 0.0122504 0.9995033 0.0122504 0.0004967 -0.0122504
1449809 0.0004792 -0.0117145 0.9995208 0.0117145 0.9995208 0.0117145 0.0004792 -0.0117145
1516199 0.0004630 -0.0112018 0.9995370 0.0112018 0.9995370 0.0112018 0.0004630 -0.0112018
1585629 0.0004480 -0.0107113 0.9995520 0.0107113 0.9995520 0.0107113 0.0004480 -0.0107113
1658239 0.0004342 -0.0102419 0.9995658 0.0102419 0.9995658 0.0102419 0.0004342 -0.0102419
1734173 0.0004213 -0.0097927 0.9995787 0.0097927 0.9995787 0.0097927 0.0004213 -0.0097927
1813585 0.0004095 -0.0093630 0.9995905 0.0093630 0.9995905 0.0093630 0.0004095 -0.0093630
1896632 0.0003986 -0.0089518 0.9996014 0.0089518 0.9996014 0.0089518 0.0003986 -0.0089518
1983483 0.0003885 -0.0085583 0.9996115 0.0085583 0.9996115 0.0085583 0.0003885 -0.0085583
2074311 0.0003791 -0.0081817 0.9996209 0.0081817 0.9996209 0.0081817 0.0003791 -0.0081817
