!Murata Part Number: GRM033R60G225ME47
!These Parameters are Measured in Series Mode Connection
!Data Generated on Mar 30, 2021
!       o--ll--o
!Port1            Port2
!       o------o
!Operation Temp=25[degC], DC Bias Voltage=0[V]
!Freq. Start=100[Hz] Stop=6[GHz] 401[Steps]
# Hz S RI R 50
!Freq.(Hz) S11(Real) S11(Imag) S21(Real) S21(Imag) S12(Real) S12(Imag) S22(Real) S22(Imag)
100 0.9876231 -0.1052716 0.0123769 0.1052716 0.0123769 0.1052716 0.9876231 -0.1052716
105 0.9865434 -0.1099341 0.0134566 0.1099341 0.0134566 0.1099341 0.9865434 -0.1099341
109 0.9853678 -0.1147918 0.0146322 0.1147918 0.0146322 0.1147918 0.9853678 -0.1147918
114 0.9840879 -0.1198514 0.0159121 0.1198514 0.0159121 0.1198514 0.9840879 -0.1198514
120 0.9826947 -0.1251192 0.0173053 0.1251192 0.0173053 0.1251192 0.9826947 -0.1251192
125 0.9811784 -0.1306016 0.0188216 0.1306016 0.0188216 0.1306016 0.9811784 -0.1306016
131 0.9795286 -0.1363049 0.0204714 0.1363049 0.0204714 0.1363049 0.9795286 -0.1363049
137 0.9777339 -0.1422351 0.0222661 0.1422351 0.0222661 0.1422351 0.9777339 -0.1422351
143 0.9757823 -0.1483981 0.0242177 0.1483981 0.0242177 0.1483981 0.9757823 -0.1483981
150 0.9736608 -0.1547994 0.0263392 0.1547994 0.0263392 0.1547994 0.9736608 -0.1547994
156 0.9713555 -0.1614443 0.0286445 0.1614443 0.0286445 0.1614443 0.9713555 -0.1614443
164 0.9688514 -0.1683375 0.0311486 0.1683375 0.0311486 0.1683375 0.9688514 -0.1683375
171 0.9661329 -0.1754832 0.0338671 0.1754832 0.0338671 0.1754832 0.9661329 -0.1754832
179 0.9631829 -0.1828850 0.0368171 0.1828850 0.0368171 0.1828850 0.9631829 -0.1828850
187 0.9599835 -0.1905455 0.0400165 0.1905455 0.0400165 0.1905455 0.9599835 -0.1905455
196 0.9565157 -0.1984668 0.0434843 0.1984668 0.0434843 0.1984668 0.9565157 -0.1984668
205 0.9527594 -0.2066496 0.0472406 0.2066496 0.0472406 0.2066496 0.9527594 -0.2066496
214 0.9486933 -0.2150937 0.0513067 0.2150937 0.0513067 0.2150937 0.9486933 -0.2150937
224 0.9442951 -0.2237973 0.0557049 0.2237973 0.0557049 0.2237973 0.9442951 -0.2237973
234 0.9395415 -0.2327572 0.0604585 0.2327572 0.0604585 0.2327572 0.9395415 -0.2327572
245 0.9344079 -0.2419685 0.0655921 0.2419685 0.0655921 0.2419685 0.9344079 -0.2419685
256 0.9288690 -0.2514241 0.0711310 0.2514241 0.0711310 0.2514241 0.9288690 -0.2514241
268 0.9228986 -0.2611152 0.0771014 0.2611152 0.0771014 0.2611152 0.9228986 -0.2611152
280 0.9164697 -0.2710302 0.0835303 0.2710302 0.0835303 0.2710302 0.9164697 -0.2710302
293 0.9095546 -0.2811550 0.0904454 0.2811550 0.0904454 0.2811550 0.9095546 -0.2811550
306 0.9021253 -0.2914727 0.0978747 0.2914727 0.0978747 0.2914727 0.9021253 -0.2914727
320 0.8941537 -0.3019632 0.1058463 0.3019632 0.1058463 0.3019632 0.8941537 -0.3019632
335 0.8856117 -0.3126032 0.1143883 0.3126032 0.1143883 0.3126032 0.8856117 -0.3126032
350 0.8764717 -0.3233658 0.1235283 0.3233658 0.1235283 0.3233658 0.8764717 -0.3233658
366 0.8667069 -0.3342202 0.1332931 0.3342202 0.1332931 0.3342202 0.8667069 -0.3342202
383 0.8562919 -0.3451319 0.1437081 0.3451319 0.1437081 0.3451319 0.8562919 -0.3451319
401 0.8452029 -0.3560623 0.1547971 0.3560623 0.1547971 0.3560623 0.8452029 -0.3560623
419 0.8334185 -0.3669689 0.1665815 0.3669689 0.1665815 0.3669689 0.8334185 -0.3669689
438 0.8209203 -0.3778051 0.1790797 0.3778051 0.1790797 0.3778051 0.8209203 -0.3778051
458 0.8076934 -0.3885201 0.1923066 0.3885201 0.1923066 0.3885201 0.8076934 -0.3885201
479 0.7937269 -0.3990600 0.2062731 0.3990600 0.2062731 0.3990600 0.7937269 -0.3990600
501 0.7790152 -0.4093668 0.2209848 0.4093668 0.2209848 0.4093668 0.7790152 -0.4093668
524 0.7635577 -0.4193802 0.2364423 0.4193802 0.2364423 0.4193802 0.7635577 -0.4193802
548 0.7473602 -0.4290371 0.2526398 0.4290371 0.2526398 0.4290371 0.7473602 -0.4290371
573 0.7304353 -0.4382728 0.2695647 0.4382728 0.2695647 0.4382728 0.7304353 -0.4382728
600 0.7128026 -0.4470217 0.2871974 0.4470217 0.2871974 0.4470217 0.7128026 -0.4470217
627 0.6944892 -0.4552182 0.3055108 0.4552182 0.3055108 0.4552182 0.6944892 -0.4552182
656 0.6755303 -0.4627979 0.3244697 0.4627979 0.3244697 0.4627979 0.6755303 -0.4627979
686 0.6559686 -0.4696983 0.3440314 0.4696983 0.3440314 0.4696983 0.6559686 -0.4696983
717 0.6358548 -0.4758604 0.3641452 0.4758604 0.3641452 0.4758604 0.6358548 -0.4758604
750 0.6152470 -0.4812293 0.3847530 0.4812293 0.3847530 0.4812293 0.6152470 -0.4812293
784 0.5942104 -0.4857561 0.4057896 0.4857561 0.4057896 0.4857561 0.5942104 -0.4857561
820 0.5728162 -0.4893983 0.4271838 0.4893983 0.4271838 0.4893983 0.5728162 -0.4893983
858 0.5511413 -0.4921208 0.4488587 0.4921208 0.4488587 0.4921208 0.5511413 -0.4921208
897 0.5292667 -0.4938972 0.4707333 0.4938972 0.4707333 0.4938972 0.5292667 -0.4938972
938 0.5072766 -0.4947100 0.4927234 0.4947100 0.4927234 0.4947100 0.5072766 -0.4947100
981 0.4852571 -0.4945510 0.5147429 0.4945510 0.5147429 0.4945510 0.4852571 -0.4945510
1026 0.4632948 -0.4934218 0.5367052 0.4934218 0.5367052 0.4934218 0.4632948 -0.4934218
1073 0.4414752 -0.4913336 0.5585248 0.4913336 0.5585248 0.4913336 0.4414752 -0.4913336
1122 0.4198816 -0.4883067 0.5801184 0.4883067 0.5801184 0.4883067 0.4198816 -0.4883067
1174 0.3985939 -0.4843705 0.6014061 0.4843705 0.6014061 0.4843705 0.3985939 -0.4843705
1227 0.3776872 -0.4795624 0.6223128 0.4795624 0.6223128 0.4795624 0.3776872 -0.4795624
1283 0.3572309 -0.4739270 0.6427691 0.4739270 0.6427691 0.4739270 0.3572309 -0.4739270
1342 0.3372880 -0.4675154 0.6627120 0.4675154 0.6627120 0.4675154 0.3372880 -0.4675154
1404 0.3179142 -0.4603836 0.6820858 0.4603836 0.6820858 0.4603836 0.3179142 -0.4603836
1468 0.2991577 -0.4525920 0.7008423 0.4525920 0.7008423 0.4525920 0.2991577 -0.4525920
1535 0.2810590 -0.4442037 0.7189410 0.4442037 0.7189410 0.4442037 0.2810590 -0.4442037
1606 0.2636505 -0.4352835 0.7363495 0.4352835 0.7363495 0.4352835 0.2636505 -0.4352835
1679 0.2469570 -0.4258972 0.7530430 0.4258972 0.7530430 0.4258972 0.2469570 -0.4258972
1756 0.2309960 -0.4161100 0.7690040 0.4161100 0.7690040 0.4161100 0.2309960 -0.4161100
1836 0.2157778 -0.4059861 0.7842222 0.4059861 0.7842222 0.4059861 0.2157778 -0.4059861
1920 0.2013063 -0.3955878 0.7986937 0.3955878 0.7986937 0.3955878 0.2013063 -0.3955878
2008 0.1875793 -0.3849749 0.8124207 0.3849749 0.8124207 0.3849749 0.1875793 -0.3849749
2100 0.1745896 -0.3742039 0.8254104 0.3742039 0.8254104 0.3742039 0.1745896 -0.3742039
2196 0.1623250 -0.3633280 0.8376750 0.3633280 0.8376750 0.3633280 0.1623250 -0.3633280
2297 0.1507695 -0.3523966 0.8492305 0.3523966 0.8492305 0.3523966 0.1507695 -0.3523966
2402 0.1399038 -0.3414551 0.8600962 0.3414551 0.8600962 0.3414551 0.1399038 -0.3414551
2512 0.1297058 -0.3305450 0.8702942 0.3305450 0.8702942 0.3305450 0.1297058 -0.3305450
2627 0.1201511 -0.3197035 0.8798489 0.3197035 0.8798489 0.3197035 0.1201511 -0.3197035
2748 0.1112140 -0.3089643 0.8887860 0.3089643 0.8887860 0.3089643 0.1112140 -0.3089643
2873 0.1028672 -0.2983568 0.8971328 0.2983568 0.8971328 0.2983568 0.1028672 -0.2983568
3005 0.0950830 -0.2879070 0.9049170 0.2879070 0.9049170 0.2879070 0.0950830 -0.2879070
3143 0.0878333 -0.2776373 0.9121667 0.2776373 0.9121667 0.2776373 0.0878333 -0.2776373
3287 0.0810898 -0.2675670 0.9189102 0.2675670 0.9189102 0.2675670 0.0810898 -0.2675670
3437 0.0748246 -0.2577121 0.9251754 0.2577121 0.9251754 0.2577121 0.0748246 -0.2577121
3594 0.0690100 -0.2480860 0.9309900 0.2480860 0.9309900 0.2480860 0.0690100 -0.2480860
3759 0.0636192 -0.2386994 0.9363808 0.2386994 0.9363808 0.2386994 0.0636192 -0.2386994
3931 0.0586262 -0.2295608 0.9413738 0.2295608 0.9413738 0.2295608 0.0586262 -0.2295608
4111 0.0540055 -0.2206765 0.9459945 0.2206765 0.9459945 0.2206765 0.0540055 -0.2206765
4299 0.0497331 -0.2120508 0.9502669 0.2120508 0.9502669 0.2120508 0.0497331 -0.2120508
4496 0.0457858 -0.2036866 0.9542142 0.2036866 0.9542142 0.2036866 0.0457858 -0.2036866
4702 0.0421413 -0.1955850 0.9578587 0.1955850 0.9578587 0.1955850 0.0421413 -0.1955850
4918 0.0387787 -0.1877460 0.9612213 0.1877460 0.9612213 0.1877460 0.0387787 -0.1877460
5143 0.0356781 -0.1801683 0.9643219 0.1801683 0.9643219 0.1801683 0.0356781 -0.1801683
5378 0.0328208 -0.1728497 0.9671792 0.1728497 0.9671792 0.1728497 0.0328208 -0.1728497
5625 0.0301889 -0.1657870 0.9698111 0.1657870 0.9698111 0.1657870 0.0301889 -0.1657870
5882 0.0277658 -0.1589764 0.9722342 0.1589764 0.9722342 0.1589764 0.0277658 -0.1589764
6151 0.0255360 -0.1524135 0.9744640 0.1524135 0.9744640 0.1524135 0.0255360 -0.1524135
6433 0.0234849 -0.1460932 0.9765151 0.1460932 0.9765151 0.1460932 0.0234849 -0.1460932
6728 0.0215987 -0.1400101 0.9784013 0.1400101 0.9784013 0.1400101 0.0215987 -0.1400101
7036 0.0198647 -0.1341585 0.9801353 0.1341585 0.9801353 0.1341585 0.0198647 -0.1341585
7358 0.0182712 -0.1285324 0.9817288 0.1285324 0.9817288 0.1285324 0.0182712 -0.1285324
7695 0.0168070 -0.1231254 0.9831930 0.1231254 0.9831930 0.1231254 0.0168070 -0.1231254
8047 0.0154619 -0.1179312 0.9845381 0.1179312 0.9845381 0.1179312 0.0154619 -0.1179312
8416 0.0142264 -0.1129434 0.9857736 0.1129434 0.9857736 0.1129434 0.0142264 -0.1129434
8801 0.0130918 -0.1081554 0.9869082 0.1081554 0.9869082 0.1081554 0.0130918 -0.1081554
9204 0.0120498 -0.1035606 0.9879502 0.1035606 0.9879502 0.1035606 0.0120498 -0.1035606
9626 0.0110931 -0.0991525 0.9889069 0.0991525 0.9889069 0.0991525 0.0110931 -0.0991525
10066 0.0102145 -0.0949247 0.9897855 0.0949247 0.9897855 0.0949247 0.0102145 -0.0949247
10527 0.0094078 -0.0908708 0.9905922 0.0908708 0.9905922 0.0908708 0.0094078 -0.0908708
11009 0.0086670 -0.0869843 0.9913330 0.0869843 0.9913330 0.0869843 0.0086670 -0.0869843
11514 0.0079867 -0.0832592 0.9920133 0.0832592 0.9920133 0.0832592 0.0079867 -0.0832592
12041 0.0073619 -0.0796894 0.9926381 0.0796894 0.9926381 0.0796894 0.0073619 -0.0796894
12592 0.0067880 -0.0762689 0.9932120 0.0762689 0.9932120 0.0762689 0.0067880 -0.0762689
13169 0.0062609 -0.0729920 0.9937391 0.0729920 0.9937391 0.0729920 0.0062609 -0.0729920
13772 0.0057765 -0.0698530 0.9942235 0.0698530 0.9942235 0.0698530 0.0057765 -0.0698530
14402 0.0053315 -0.0668465 0.9946685 0.0668465 0.9946685 0.0668465 0.0053315 -0.0668465
15062 0.0049224 -0.0639671 0.9950776 0.0639671 0.9950776 0.0639671 0.0049224 -0.0639671
15752 0.0045465 -0.0612097 0.9954535 0.0612097 0.9954535 0.0612097 0.0045465 -0.0612097
16473 0.0042009 -0.0585694 0.9957991 0.0585694 0.9957991 0.0585694 0.0042009 -0.0585694
17227 0.0038831 -0.0560415 0.9961169 0.0560415 0.9961169 0.0560415 0.0038831 -0.0560415
18016 0.0035909 -0.0536211 0.9964091 0.0536211 0.9964091 0.0536211 0.0035909 -0.0536211
18841 0.0033222 -0.0513041 0.9966778 0.0513041 0.9966778 0.0513041 0.0033222 -0.0513041
19704 0.0030750 -0.0490859 0.9969250 0.0490859 0.9969250 0.0490859 0.0030750 -0.0490859
20606 0.0028476 -0.0469626 0.9971524 0.0469626 0.9971524 0.0469626 0.0028476 -0.0469626
21550 0.0026385 -0.0449301 0.9973615 0.0449301 0.9973615 0.0449301 0.0026385 -0.0449301
22537 0.0024461 -0.0429847 0.9975539 0.0429847 0.9975539 0.0429847 0.0024461 -0.0429847
23569 0.0022691 -0.0411227 0.9977309 0.0411227 0.9977309 0.0411227 0.0022691 -0.0411227
24648 0.0021063 -0.0393407 0.9978937 0.0393407 0.9978937 0.0393407 0.0021063 -0.0393407
25777 0.0019565 -0.0376351 0.9980435 0.0376351 0.9980435 0.0376351 0.0019565 -0.0376351
26957 0.0018188 -0.0360029 0.9981812 0.0360029 0.9981812 0.0360029 0.0018188 -0.0360029
28191 0.0016920 -0.0344410 0.9983080 0.0344410 0.9983080 0.0344410 0.0016920 -0.0344410
29482 0.0015754 -0.0329463 0.9984246 0.0329463 0.9984246 0.0329463 0.0015754 -0.0329463
30832 0.0014682 -0.0315161 0.9985318 0.0315161 0.9985318 0.0315161 0.0014682 -0.0315161
32244 0.0013696 -0.0301475 0.9986304 0.0301475 0.9986304 0.0301475 0.0013696 -0.0301475
33721 0.0012788 -0.0288381 0.9987212 0.0288381 0.9987212 0.0288381 0.0012788 -0.0288381
35265 0.0011954 -0.0275853 0.9988046 0.0275853 0.9988046 0.0275853 0.0011954 -0.0275853
36880 0.0011187 -0.0263866 0.9988813 0.0263866 0.9988813 0.0263866 0.0011187 -0.0263866
38569 0.0010481 -0.0252399 0.9989519 0.0252399 0.9989519 0.0252399 0.0010481 -0.0252399
40335 0.0009832 -0.0241428 0.9990168 0.0241428 0.9990168 0.0241428 0.0009832 -0.0241428
42182 0.0009235 -0.0230933 0.9990765 0.0230933 0.9990765 0.0230933 0.0009235 -0.0230933
44113 0.0008685 -0.0220893 0.9991315 0.0220893 0.9991315 0.0220893 0.0008685 -0.0220893
46134 0.0008180 -0.0211290 0.9991820 0.0211290 0.9991820 0.0211290 0.0008180 -0.0211290
48246 0.0007714 -0.0202104 0.9992286 0.0202104 0.9992286 0.0202104 0.0007714 -0.0202104
50455 0.0007286 -0.0193317 0.9992714 0.0193317 0.9992714 0.0193317 0.0007286 -0.0193317
52766 0.0006891 -0.0184912 0.9993109 0.0184912 0.9993109 0.0184912 0.0006891 -0.0184912
55182 0.0006527 -0.0176874 0.9993473 0.0176874 0.9993473 0.0176874 0.0006527 -0.0176874
57709 0.0006191 -0.0169185 0.9993809 0.0169185 0.9993809 0.0169185 0.0006191 -0.0169185
60352 0.0005881 -0.0161832 0.9994119 0.0161832 0.9994119 0.0161832 0.0005881 -0.0161832
63115 0.0005595 -0.0154799 0.9994405 0.0154799 0.9994405 0.0154799 0.0005595 -0.0154799
66005 0.0005330 -0.0148073 0.9994670 0.0148073 0.9994670 0.0148073 0.0005330 -0.0148073
69028 0.0005085 -0.0141641 0.9994915 0.0141641 0.9994915 0.0141641 0.0005085 -0.0141641
72189 0.0004858 -0.0135489 0.9995142 0.0135489 0.9995142 0.0135489 0.0004858 -0.0135489
75495 0.0004648 -0.0129605 0.9995352 0.0129605 0.9995352 0.0129605 0.0004648 -0.0129605
78952 0.0004452 -0.0123978 0.9995548 0.0123978 0.9995548 0.0123978 0.0004452 -0.0123978
82567 0.0004270 -0.0118597 0.9995730 0.0118597 0.9995730 0.0118597 0.0004270 -0.0118597
86348 0.0004101 -0.0113451 0.9995899 0.0113451 0.9995899 0.0113451 0.0004101 -0.0113451
90302 0.0003943 -0.0108529 0.9996057 0.0108529 0.9996057 0.0108529 0.0003943 -0.0108529
94437 0.0003795 -0.0103821 0.9996205 0.0103821 0.9996205 0.0103821 0.0003795 -0.0103821
98762 0.0003657 -0.0099319 0.9996343 0.0099319 0.9996343 0.0099319 0.0003657 -0.0099319
103284 0.0003527 -0.0095013 0.9996473 0.0095013 0.9996473 0.0095013 0.0003527 -0.0095013
108014 0.0003405 -0.0090894 0.9996595 0.0090894 0.9996595 0.0090894 0.0003405 -0.0090894
112960 0.0003291 -0.0086955 0.9996709 0.0086955 0.9996709 0.0086955 0.0003291 -0.0086955
118133 0.0003183 -0.0083187 0.9996817 0.0083187 0.9996817 0.0083187 0.0003183 -0.0083187
123542 0.0003082 -0.0079583 0.9996918 0.0079583 0.9996918 0.0079583 0.0003082 -0.0079583
129199 0.0002986 -0.0076135 0.9997014 0.0076135 0.9997014 0.0076135 0.0002986 -0.0076135
135116 0.0002895 -0.0072837 0.9997105 0.0072837 0.9997105 0.0072837 0.0002895 -0.0072837
141303 0.0002810 -0.0069682 0.9997190 0.0069682 0.9997190 0.0069682 0.0002810 -0.0069682
147774 0.0002729 -0.0066664 0.9997271 0.0066664 0.9997271 0.0066664 0.0002729 -0.0066664
154540 0.0002653 -0.0063777 0.9997347 0.0063777 0.9997347 0.0063777 0.0002653 -0.0063777
161617 0.0002581 -0.0061014 0.9997419 0.0061014 0.9997419 0.0061014 0.0002581 -0.0061014
169018 0.0002512 -0.0058372 0.9997488 0.0058372 0.9997488 0.0058372 0.0002512 -0.0058372
176758 0.0002448 -0.0055843 0.9997552 0.0055843 0.9997552 0.0055843 0.0002448 -0.0055843
184852 0.0002386 -0.0053424 0.9997614 0.0053424 0.9997614 0.0053424 0.0002386 -0.0053424
193316 0.0002329 -0.0051110 0.9997671 0.0051110 0.9997671 0.0051110 0.0002329 -0.0051110
202169 0.0002274 -0.0048895 0.9997726 0.0048895 0.9997726 0.0048895 0.0002274 -0.0048895
211427 0.0002222 -0.0046777 0.9997778 0.0046777 0.9997778 0.0046777 0.0002222 -0.0046777
221108 0.0002174 -0.0044749 0.9997826 0.0044749 0.9997826 0.0044749 0.0002174 -0.0044749
231233 0.0002127 -0.0042810 0.9997873 0.0042810 0.9997873 0.0042810 0.0002127 -0.0042810
241822 0.0002084 -0.0040955 0.9997916 0.0040955 0.9997916 0.0040955 0.0002084 -0.0040955
252896 0.0002043 -0.0039179 0.9997957 0.0039179 0.9997957 0.0039179 0.0002043 -0.0039179
264476 0.0002004 -0.0037481 0.9997996 0.0037481 0.9997996 0.0037481 0.0002004 -0.0037481
276587 0.0001968 -0.0035856 0.9998032 0.0035856 0.9998032 0.0035856 0.0001968 -0.0035856
289253 0.0001933 -0.0034301 0.9998067 0.0034301 0.9998067 0.0034301 0.0001933 -0.0034301
302498 0.0001901 -0.0032814 0.9998099 0.0032814 0.9998099 0.0032814 0.0001901 -0.0032814
316350 0.0001870 -0.0031392 0.9998130 0.0031392 0.9998130 0.0031392 0.0001870 -0.0031392
330837 0.0001841 -0.0030031 0.9998159 0.0030031 0.9998159 0.0030031 0.0001841 -0.0030031
345986 0.0001814 -0.0028729 0.9998186 0.0028729 0.9998186 0.0028729 0.0001814 -0.0028729
361830 0.0001788 -0.0027484 0.9998212 0.0027484 0.9998212 0.0027484 0.0001788 -0.0027484
378399 0.0001763 -0.0026292 0.9998237 0.0026292 0.9998237 0.0026292 0.0001763 -0.0026292
395726 0.0001739 -0.0025153 0.9998261 0.0025153 0.9998261 0.0025153 0.0001739 -0.0025153
413847 0.0001717 -0.0024063 0.9998283 0.0024063 0.9998283 0.0024063 0.0001717 -0.0024063
432798 0.0001695 -0.0023020 0.9998305 0.0023020 0.9998305 0.0023020 0.0001695 -0.0023020
452617 0.0001674 -0.0022023 0.9998326 0.0022023 0.9998326 0.0022023 0.0001674 -0.0022023
473344 0.0001655 -0.0021069 0.9998345 0.0021069 0.9998345 0.0021069 0.0001655 -0.0021069
495019 0.0001635 -0.0020157 0.9998365 0.0020157 0.9998365 0.0020157 0.0001635 -0.0020157
517687 0.0001617 -0.0019284 0.9998383 0.0019284 0.9998383 0.0019284 0.0001617 -0.0019284
541393 0.0001598 -0.0018449 0.9998402 0.0018449 0.9998402 0.0018449 0.0001598 -0.0018449
566185 0.0001581 -0.0017650 0.9998419 0.0017650 0.9998419 0.0017650 0.0001581 -0.0017650
592111 0.0001563 -0.0016886 0.9998437 0.0016886 0.9998437 0.0016886 0.0001563 -0.0016886
619225 0.0001546 -0.0016155 0.9998454 0.0016155 0.9998454 0.0016155 0.0001546 -0.0016155
647581 0.0001529 -0.0015455 0.9998471 0.0015455 0.9998471 0.0015455 0.0001529 -0.0015455
677235 0.0001513 -0.0014786 0.9998487 0.0014786 0.9998487 0.0014786 0.0001513 -0.0014786
708247 0.0001496 -0.0014145 0.9998504 0.0014145 0.9998504 0.0014145 0.0001496 -0.0014145
740679 0.0001480 -0.0013531 0.9998520 0.0013531 0.9998520 0.0013531 0.0001480 -0.0013531
774597 0.0001463 -0.0012944 0.9998537 0.0012944 0.9998537 0.0012944 0.0001463 -0.0012944
810067 0.0001447 -0.0012382 0.9998553 0.0012382 0.9998553 0.0012382 0.0001447 -0.0012382
847162 0.0001430 -0.0011843 0.9998570 0.0011843 0.9998570 0.0011843 0.0001430 -0.0011843
885955 0.0001414 -0.0011327 0.9998586 0.0011327 0.9998586 0.0011327 0.0001414 -0.0011327
926525 0.0001398 -0.0010833 0.9998602 0.0010833 0.9998602 0.0010833 0.0001398 -0.0010833
968953 0.0001381 -0.0010359 0.9998619 0.0010359 0.9998619 0.0010359 0.0001381 -0.0010359
1013323 0.0001365 -0.0009905 0.9998635 0.0009905 0.9998635 0.0009905 0.0001365 -0.0009905
1059725 0.0001349 -0.0009470 0.9998651 0.0009470 0.9998651 0.0009470 0.0001349 -0.0009470
1108252 0.0001333 -0.0009052 0.9998667 0.0009052 0.9998667 0.0009052 0.0001333 -0.0009052
1159002 0.0001317 -0.0008651 0.9998683 0.0008651 0.9998683 0.0008651 0.0001317 -0.0008651
1212075 0.0001301 -0.0008267 0.9998699 0.0008267 0.9998699 0.0008267 0.0001301 -0.0008267
1267578 0.0001286 -0.0007897 0.9998714 0.0007897 0.9998714 0.0007897 0.0001286 -0.0007897
1325623 0.0001270 -0.0007542 0.9998730 0.0007542 0.9998730 0.0007542 0.0001270 -0.0007542
1386327 0.0001255 -0.0007201 0.9998745 0.0007201 0.9998745 0.0007201 0.0001255 -0.0007201
1449809 0.0001241 -0.0006874 0.9998759 0.0006874 0.9998759 0.0006874 0.0001241 -0.0006874
1516199 0.0001227 -0.0006558 0.9998773 0.0006558 0.9998773 0.0006558 0.0001227 -0.0006558
1585629 0.0001213 -0.0006255 0.9998787 0.0006255 0.9998787 0.0006255 0.0001213 -0.0006255
1658239 0.0001199 -0.0005963 0.9998801 0.0005963 0.9998801 0.0005963 0.0001199 -0.0005963
1734173 0.0001186 -0.0005683 0.9998814 0.0005683 0.9998814 0.0005683 0.0001186 -0.0005683
1813585 0.0001174 -0.0005412 0.9998826 0.0005412 0.9998826 0.0005412 0.0001174 -0.0005412
1896632 0.0001162 -0.0005151 0.9998838 0.0005151 0.9998838 0.0005151 0.0001162 -0.0005151
1983483 0.0001151 -0.0004900 0.9998849 0.0004900 0.9998849 0.0004900 0.0001151 -0.0004900
2074311 0.0001140 -0.0004658 0.9998860 0.0004658 0.9998860 0.0004658 0.0001140 -0.0004658
