!Murata Part Number: GRM033R60J224ME90
!These Parameters are Measured in Series Mode Connection
!Data Generated on Mar 30, 2021
!       o--ll--o
!Port1            Port2
!       o------o
!Operation Temp=25[degC], DC Bias Voltage=0[V]
!Freq. Start=100[Hz] Stop=6[GHz] 401[Steps]
# Hz S RI R 50
!Freq.(Hz) S11(Real) S11(Imag) S21(Real) S21(Imag) S12(Real) S12(Imag) S22(Real) S22(Imag)
100 0.9997259 -0.0118914 0.0002741 0.0118914 0.0002741 0.0118914 0.9997259 -0.0118914
105 0.9997074 -0.0124315 0.0002926 0.0124315 0.0002926 0.0124315 0.9997074 -0.0124315
109 0.9996873 -0.0129963 0.0003127 0.0129963 0.0003127 0.0129963 0.9996873 -0.0129963
114 0.9996657 -0.0135866 0.0003343 0.0135866 0.0003343 0.0135866 0.9996657 -0.0135866
120 0.9996424 -0.0142038 0.0003576 0.0142038 0.0003576 0.0142038 0.9996424 -0.0142038
125 0.9996172 -0.0148491 0.0003828 0.0148491 0.0003828 0.0148491 0.9996172 -0.0148491
131 0.9995899 -0.0155236 0.0004101 0.0155236 0.0004101 0.0155236 0.9995899 -0.0155236
137 0.9995605 -0.0162287 0.0004395 0.0162287 0.0004395 0.0162287 0.9995605 -0.0162287
143 0.9995286 -0.0169658 0.0004714 0.0169658 0.0004714 0.0169658 0.9995286 -0.0169658
150 0.9994942 -0.0177363 0.0005058 0.0177363 0.0005058 0.0177363 0.9994942 -0.0177363
156 0.9994570 -0.0185417 0.0005430 0.0185417 0.0005430 0.0185417 0.9994570 -0.0185417
164 0.9994167 -0.0193836 0.0005833 0.0193836 0.0005833 0.0193836 0.9994167 -0.0193836
171 0.9993731 -0.0202637 0.0006269 0.0202637 0.0006269 0.0202637 0.9993731 -0.0202637
179 0.9993260 -0.0211836 0.0006740 0.0211836 0.0006740 0.0211836 0.9993260 -0.0211836
187 0.9992751 -0.0221452 0.0007249 0.0221452 0.0007249 0.0221452 0.9992751 -0.0221452
196 0.9992199 -0.0231504 0.0007801 0.0231504 0.0007801 0.0231504 0.9992199 -0.0231504
205 0.9991602 -0.0242010 0.0008398 0.0242010 0.0008398 0.0242010 0.9991602 -0.0242010
214 0.9990956 -0.0252992 0.0009044 0.0252992 0.0009044 0.0252992 0.9990956 -0.0252992
224 0.9990256 -0.0264471 0.0009744 0.0264471 0.0009744 0.0264471 0.9990256 -0.0264471
234 0.9989498 -0.0276470 0.0010502 0.0276470 0.0010502 0.0276470 0.9989498 -0.0276470
245 0.9988677 -0.0289012 0.0011323 0.0289012 0.0011323 0.0289012 0.9988677 -0.0289012
256 0.9987786 -0.0302122 0.0012214 0.0302122 0.0012214 0.0302122 0.9987786 -0.0302122
268 0.9986821 -0.0315825 0.0013179 0.0315825 0.0013179 0.0315825 0.9986821 -0.0315825
280 0.9985774 -0.0330148 0.0014226 0.0330148 0.0014226 0.0330148 0.9985774 -0.0330148
293 0.9984637 -0.0345119 0.0015363 0.0345119 0.0015363 0.0345119 0.9984637 -0.0345119
306 0.9983403 -0.0360768 0.0016597 0.0360768 0.0016597 0.0360768 0.9983403 -0.0360768
320 0.9982063 -0.0377123 0.0017937 0.0377123 0.0017937 0.0377123 0.9982063 -0.0377123
335 0.9980606 -0.0394219 0.0019394 0.0394219 0.0019394 0.0394219 0.9980606 -0.0394219
350 0.9979023 -0.0412086 0.0020977 0.0412086 0.0020977 0.0412086 0.9979023 -0.0412086
366 0.9977301 -0.0430760 0.0022699 0.0430760 0.0022699 0.0430760 0.9977301 -0.0430760
383 0.9975427 -0.0450276 0.0024573 0.0450276 0.0024573 0.0450276 0.9975427 -0.0450276
401 0.9973388 -0.0470671 0.0026612 0.0470671 0.0026612 0.0470671 0.9973388 -0.0470671
419 0.9971168 -0.0491984 0.0028832 0.0491984 0.0028832 0.0491984 0.9971168 -0.0491984
438 0.9968751 -0.0514255 0.0031249 0.0514255 0.0031249 0.0514255 0.9968751 -0.0514255
458 0.9966117 -0.0537525 0.0033883 0.0537525 0.0033883 0.0537525 0.9966117 -0.0537525
479 0.9963247 -0.0561838 0.0036753 0.0561838 0.0036753 0.0561838 0.9963247 -0.0561838
501 0.9960120 -0.0587238 0.0039880 0.0587238 0.0039880 0.0587238 0.9960120 -0.0587238
524 0.9956712 -0.0613771 0.0043288 0.0613771 0.0043288 0.0613771 0.9956712 -0.0613771
548 0.9952996 -0.0641486 0.0047004 0.0641486 0.0047004 0.0641486 0.9952996 -0.0641486
573 0.9948945 -0.0670431 0.0051055 0.0670431 0.0051055 0.0670431 0.9948945 -0.0670431
600 0.9944528 -0.0700657 0.0055472 0.0700657 0.0055472 0.0700657 0.9944528 -0.0700657
627 0.9939713 -0.0732218 0.0060287 0.0732218 0.0060287 0.0732218 0.9939713 -0.0732218
656 0.9934462 -0.0765167 0.0065538 0.0765167 0.0065538 0.0765167 0.9934462 -0.0765167
686 0.9928737 -0.0799561 0.0071263 0.0799561 0.0071263 0.0799561 0.9928737 -0.0799561
717 0.9922495 -0.0835455 0.0077505 0.0835455 0.0077505 0.0835455 0.9922495 -0.0835455
750 0.9915690 -0.0872910 0.0084310 0.0872910 0.0084310 0.0872910 0.9915690 -0.0872910
784 0.9908272 -0.0911984 0.0091728 0.0911984 0.0091728 0.0911984 0.9908272 -0.0911984
820 0.9900187 -0.0952740 0.0099813 0.0952740 0.0099813 0.0952740 0.9900187 -0.0952740
858 0.9891375 -0.0995240 0.0108625 0.0995240 0.0108625 0.0995240 0.9891375 -0.0995240
897 0.9881774 -0.1039546 0.0118226 0.1039546 0.0118226 0.1039546 0.9881774 -0.1039546
938 0.9871314 -0.1085725 0.0128686 0.1085725 0.0128686 0.1085725 0.9871314 -0.1085725
981 0.9859920 -0.1133840 0.0140080 0.1133840 0.0140080 0.1133840 0.9859920 -0.1133840
1026 0.9847513 -0.1183957 0.0152487 0.1183957 0.0152487 0.1183957 0.9847513 -0.1183957
1073 0.9834004 -0.1236141 0.0165996 0.1236141 0.0165996 0.1236141 0.9834004 -0.1236141
1122 0.9819300 -0.1290458 0.0180700 0.1290458 0.0180700 0.1290458 0.9819300 -0.1290458
1174 0.9803300 -0.1346971 0.0196700 0.1346971 0.0196700 0.1346971 0.9803300 -0.1346971
1227 0.9785894 -0.1405745 0.0214106 0.1405745 0.0214106 0.1405745 0.9785894 -0.1405745
1283 0.9766965 -0.1466840 0.0233035 0.1466840 0.0233035 0.1466840 0.9766965 -0.1466840
1342 0.9746385 -0.1530317 0.0253615 0.1530317 0.0253615 0.1530317 0.9746385 -0.1530317
1404 0.9724020 -0.1596230 0.0275980 0.1596230 0.0275980 0.1596230 0.9724020 -0.1596230
1468 0.9699722 -0.1664633 0.0300278 0.1664633 0.0300278 0.1664633 0.9699722 -0.1664633
1535 0.9673337 -0.1735573 0.0326663 0.1735573 0.0326663 0.1735573 0.9673337 -0.1735573
1606 0.9644696 -0.1809091 0.0355304 0.1809091 0.0355304 0.1809091 0.9644696 -0.1809091
1679 0.9613621 -0.1885222 0.0386379 0.1885222 0.0386379 0.1885222 0.9613621 -0.1885222
1756 0.9579923 -0.1963991 0.0420077 0.1963991 0.0420077 0.1963991 0.9579923 -0.1963991
1836 0.9543400 -0.2045414 0.0456600 0.2045414 0.0456600 0.2045414 0.9543400 -0.2045414
1920 0.9503837 -0.2129496 0.0496163 0.2129496 0.0496163 0.2129496 0.9503837 -0.2129496
2008 0.9461011 -0.2216226 0.0538989 0.2216226 0.0538989 0.2216226 0.9461011 -0.2216226
2100 0.9414682 -0.2305581 0.0585318 0.2305581 0.0585318 0.2305581 0.9414682 -0.2305581
2196 0.9364603 -0.2397517 0.0635397 0.2397517 0.0635397 0.2397517 0.9364603 -0.2397517
2297 0.9310515 -0.2491973 0.0689485 0.2491973 0.0689485 0.2491973 0.9310515 -0.2491973
2402 0.9252148 -0.2588865 0.0747852 0.2588865 0.0747852 0.2588865 0.9252148 -0.2588865
2512 0.9189226 -0.2688083 0.0810774 0.2688083 0.0810774 0.2688083 0.9189226 -0.2688083
2627 0.9121464 -0.2789492 0.0878536 0.2789492 0.0878536 0.2789492 0.9121464 -0.2789492
2748 0.9048573 -0.2892926 0.0951427 0.2892926 0.0951427 0.2892926 0.9048573 -0.2892926
2873 0.8970263 -0.2998187 0.1029737 0.2998187 0.1029737 0.2998187 0.8970263 -0.2998187
3005 0.8886243 -0.3105043 0.1113757 0.3105043 0.1113757 0.3105043 0.8886243 -0.3105043
3143 0.8796229 -0.3213225 0.1203771 0.3213225 0.1203771 0.3213225 0.8796229 -0.3213225
3287 0.8699942 -0.3322425 0.1300058 0.3322425 0.1300058 0.3322425 0.8699942 -0.3322425
3437 0.8597120 -0.3432297 0.1402880 0.3432297 0.1402880 0.3432297 0.8597120 -0.3432297
3594 0.8487516 -0.3542452 0.1512484 0.3542452 0.1512484 0.3542452 0.8487516 -0.3542452
3759 0.8370909 -0.3652460 0.1629091 0.3652460 0.1629091 0.3652460 0.8370909 -0.3652460
3931 0.8247107 -0.3761851 0.1752893 0.3761851 0.1752893 0.3761851 0.8247107 -0.3761851
4111 0.8115955 -0.3870114 0.1884045 0.3870114 0.1884045 0.3870114 0.8115955 -0.3870114
4299 0.7977338 -0.3976702 0.2022662 0.3976702 0.2022662 0.3976702 0.7977338 -0.3976702
4496 0.7831195 -0.4081034 0.2168805 0.4081034 0.2168805 0.4081034 0.7831195 -0.4081034
4702 0.7677516 -0.4182498 0.2322484 0.4182498 0.2322484 0.4182498 0.7677516 -0.4182498
4918 0.7516357 -0.4280460 0.2483643 0.4280460 0.2483643 0.4280460 0.7516357 -0.4280460
5143 0.7347840 -0.4374268 0.2652160 0.4374268 0.2652160 0.4374268 0.7347840 -0.4374268
5378 0.7172156 -0.4463262 0.2827844 0.4463262 0.2827844 0.4463262 0.7172156 -0.4463262
5625 0.6989576 -0.4546783 0.3010424 0.4546783 0.3010424 0.4546783 0.6989576 -0.4546783
5882 0.6800447 -0.4624182 0.3199553 0.4624182 0.3199553 0.4624182 0.6800447 -0.4624182
6151 0.6605194 -0.4694832 0.3394806 0.4694832 0.3394806 0.4694832 0.6605194 -0.4694832
6433 0.6404318 -0.4758139 0.3595682 0.4758139 0.3595682 0.4758139 0.6404318 -0.4758139
6728 0.6198396 -0.4813551 0.3801604 0.4813551 0.3801604 0.4813551 0.6198396 -0.4813551
7036 0.5988074 -0.4860574 0.4011926 0.4860574 0.4011926 0.4860574 0.5988074 -0.4860574
7358 0.5774058 -0.4898777 0.4225942 0.4898777 0.4225942 0.4898777 0.5774058 -0.4898777
7695 0.5557111 -0.4927804 0.4442889 0.4927804 0.4442889 0.4927804 0.5557111 -0.4927804
8047 0.5338037 -0.4947383 0.4661963 0.4947383 0.4661963 0.4947383 0.5338037 -0.4947383
8416 0.5117671 -0.4957327 0.4882329 0.4957327 0.4882329 0.4957327 0.5117671 -0.4957327
8801 0.4896868 -0.4957544 0.5103132 0.4957544 0.5103132 0.4957544 0.4896868 -0.4957544
9204 0.4676489 -0.4948036 0.5323511 0.4948036 0.5323511 0.4948036 0.4676489 -0.4948036
9626 0.4457388 -0.4928900 0.5542612 0.4928900 0.5542612 0.4928900 0.4457388 -0.4928900
10066 0.4240397 -0.4900324 0.5759603 0.4900324 0.5759603 0.4900324 0.4240397 -0.4900324
10527 0.4026316 -0.4862583 0.5973684 0.4862583 0.5973684 0.4862583 0.4026316 -0.4862583
11009 0.3815902 -0.4816033 0.6184098 0.4816033 0.6184098 0.4816033 0.3815902 -0.4816033
11514 0.3609857 -0.4761104 0.6390143 0.4761104 0.6390143 0.4761104 0.3609857 -0.4761104
12041 0.3408820 -0.4698289 0.6591180 0.4698289 0.6591180 0.4698289 0.3408820 -0.4698289
12592 0.3213364 -0.4628134 0.6786636 0.4628134 0.6786636 0.4628134 0.3213364 -0.4628134
13169 0.3023987 -0.4551227 0.6976013 0.4551227 0.6976013 0.4551227 0.3023987 -0.4551227
13772 0.2841111 -0.4468189 0.7158889 0.4468189 0.7158889 0.4468189 0.2841111 -0.4468189
14402 0.2665081 -0.4379661 0.7334919 0.4379661 0.7334919 0.4379661 0.2665081 -0.4379661
15062 0.2496169 -0.4286295 0.7503831 0.4286295 0.7503831 0.4286295 0.2496169 -0.4286295
15752 0.2334569 -0.4188744 0.7665431 0.4188744 0.7665431 0.4188744 0.2334569 -0.4188744
16473 0.2180407 -0.4087651 0.7819593 0.4087651 0.7819593 0.4087651 0.2180407 -0.4087651
17227 0.2033743 -0.3983644 0.7966257 0.3983644 0.7966257 0.3983644 0.2033743 -0.3983644
18016 0.1894574 -0.3877330 0.8105426 0.3877330 0.8105426 0.3877330 0.1894574 -0.3877330
18841 0.1762846 -0.3769285 0.8237154 0.3769285 0.8237154 0.3769285 0.1762846 -0.3769285
19704 0.1638452 -0.3660054 0.8361548 0.3660054 0.8361548 0.3660054 0.1638452 -0.3660054
20606 0.1521247 -0.3550146 0.8478753 0.3550146 0.8478753 0.3550146 0.1521247 -0.3550146
21550 0.1411045 -0.3440032 0.8588955 0.3440032 0.8588955 0.3440032 0.1411045 -0.3440032
22537 0.1307634 -0.3330143 0.8692366 0.3330143 0.8692366 0.3330143 0.1307634 -0.3330143
23569 0.1210776 -0.3220869 0.8789224 0.3220869 0.8789224 0.3220869 0.1210776 -0.3220869
24648 0.1120212 -0.3112563 0.8879788 0.3112563 0.8879788 0.3112563 0.1120212 -0.3112563
25777 0.1035673 -0.3005535 0.8964327 0.3005535 0.8964327 0.3005535 0.1035673 -0.3005535
26957 0.0956878 -0.2900062 0.9043122 0.2900062 0.9043122 0.2900062 0.0956878 -0.2900062
28191 0.0883541 -0.2796379 0.9116459 0.2796379 0.9116459 0.2796379 0.0883541 -0.2796379
29482 0.0815374 -0.2694693 0.9184626 0.2694693 0.9184626 0.2694693 0.0815374 -0.2694693
30832 0.0752090 -0.2595175 0.9247910 0.2595175 0.9247910 0.2595175 0.0752090 -0.2595175
32244 0.0693407 -0.2497967 0.9306593 0.2497967 0.9306593 0.2497967 0.0693407 -0.2497967
33721 0.0639046 -0.2403184 0.9360954 0.2403184 0.9360954 0.2403184 0.0639046 -0.2403184
35265 0.0588739 -0.2310918 0.9411261 0.2310918 0.9411261 0.2310918 0.0588739 -0.2310918
36880 0.0542224 -0.2221235 0.9457776 0.2221235 0.9457776 0.2221235 0.0542224 -0.2221235
38569 0.0499250 -0.2134183 0.9500750 0.2134183 0.9500750 0.2134183 0.0499250 -0.2134183
40335 0.0459577 -0.2049791 0.9540423 0.2049791 0.9540423 0.2049791 0.0459577 -0.2049791
42182 0.0422976 -0.1968073 0.9577024 0.1968073 0.9577024 0.1968073 0.0422976 -0.1968073
44113 0.0389230 -0.1889028 0.9610770 0.1889028 0.9610770 0.1889028 0.0389230 -0.1889028
46134 0.0358133 -0.1812642 0.9641867 0.1812642 0.9641867 0.1812642 0.0358133 -0.1812642
48246 0.0329491 -0.1738891 0.9670509 0.1738891 0.9670509 0.1738891 0.0329491 -0.1738891
50455 0.0303121 -0.1667743 0.9696879 0.1667743 0.9696879 0.1667743 0.0303121 -0.1667743
52766 0.0278853 -0.1599156 0.9721147 0.1599156 0.9721147 0.1599156 0.0278853 -0.1599156
55182 0.0256526 -0.1533083 0.9743474 0.1533083 0.9743474 0.1533083 0.0256526 -0.1533083
57709 0.0235990 -0.1469471 0.9764010 0.1469471 0.9764010 0.1469471 0.0235990 -0.1469471
60352 0.0217106 -0.1408263 0.9782894 0.1408263 0.9782894 0.1408263 0.0217106 -0.1408263
63115 0.0199745 -0.1349399 0.9800255 0.1349399 0.9800255 0.1349399 0.0199745 -0.1349399
66005 0.0183787 -0.1292814 0.9816213 0.1292814 0.9816213 0.1292814 0.0183787 -0.1292814
69028 0.0169118 -0.1238445 0.9830882 0.1238445 0.9830882 0.1238445 0.0169118 -0.1238445
72189 0.0155637 -0.1186224 0.9844363 0.1186224 0.9844363 0.1186224 0.0155637 -0.1186224
75495 0.0143248 -0.1136083 0.9856752 0.1136083 0.9856752 0.1136083 0.0143248 -0.1136083
78952 0.0131862 -0.1087955 0.9868138 0.1087955 0.9868138 0.1087955 0.0131862 -0.1087955
82567 0.0121398 -0.1041772 0.9878602 0.1041772 0.9878602 0.1041772 0.0121398 -0.1041772
86348 0.0111782 -0.0997468 0.9888218 0.0997468 0.9888218 0.0997468 0.0111782 -0.0997468
90302 0.0102944 -0.0954974 0.9897056 0.0954974 0.9897056 0.0954974 0.0102944 -0.0954974
94437 0.0094822 -0.0914227 0.9905178 0.0914227 0.9905178 0.0914227 0.0094822 -0.0914227
98762 0.0087356 -0.0875160 0.9912644 0.0875160 0.9912644 0.0875160 0.0087356 -0.0875160
103284 0.0080493 -0.0837713 0.9919507 0.0837713 0.9919507 0.0837713 0.0080493 -0.0837713
108014 0.0074185 -0.0801822 0.9925815 0.0801822 0.9925815 0.0801822 0.0074185 -0.0801822
112960 0.0068386 -0.0767428 0.9931614 0.0767428 0.9931614 0.0767428 0.0068386 -0.0767428
118133 0.0063055 -0.0734472 0.9936945 0.0734472 0.9936945 0.0734472 0.0063055 -0.0734472
123542 0.0058155 -0.0702899 0.9941845 0.0702899 0.9941845 0.0702899 0.0058155 -0.0702899
129199 0.0053649 -0.0672653 0.9946351 0.0672653 0.9946351 0.0672653 0.0053649 -0.0672653
135116 0.0049507 -0.0643682 0.9950493 0.0643682 0.9950493 0.0643682 0.0049507 -0.0643682
141303 0.0045700 -0.0615934 0.9954300 0.0615934 0.9954300 0.0615934 0.0045700 -0.0615934
147774 0.0042200 -0.0589361 0.9957800 0.0589361 0.9957800 0.0589361 0.0042200 -0.0589361
154540 0.0038982 -0.0563913 0.9961018 0.0563913 0.9961018 0.0563913 0.0038982 -0.0563913
161617 0.0036025 -0.0539547 0.9963975 0.0539547 0.9963975 0.0539547 0.0036025 -0.0539547
169018 0.0033307 -0.0516217 0.9966693 0.0516217 0.9966693 0.0516217 0.0033307 -0.0516217
176758 0.0030809 -0.0493881 0.9969191 0.0493881 0.9969191 0.0493881 0.0030809 -0.0493881
184852 0.0028513 -0.0472498 0.9971487 0.0472498 0.9971487 0.0472498 0.0028513 -0.0472498
193316 0.0026404 -0.0452029 0.9973596 0.0452029 0.9973596 0.0452029 0.0026404 -0.0452029
202169 0.0024467 -0.0432436 0.9975533 0.0432436 0.9975533 0.0432436 0.0024467 -0.0432436
211427 0.0022687 -0.0413683 0.9977313 0.0413683 0.9977313 0.0413683 0.0022687 -0.0413683
221108 0.0021052 -0.0395735 0.9978948 0.0395735 0.9978948 0.0395735 0.0021052 -0.0395735
231233 0.0019550 -0.0378558 0.9980450 0.0378558 0.9980450 0.0378558 0.0019550 -0.0378558
241822 0.0018171 -0.0362120 0.9981829 0.0362120 0.9981829 0.0362120 0.0018171 -0.0362120
252896 0.0016904 -0.0346390 0.9983096 0.0346390 0.9983096 0.0346390 0.0016904 -0.0346390
264476 0.0015741 -0.0331339 0.9984259 0.0331339 0.9984259 0.0331339 0.0015741 -0.0331339
276587 0.0014672 -0.0316938 0.9985328 0.0316938 0.9985328 0.0316938 0.0014672 -0.0316938
289253 0.0013691 -0.0303159 0.9986309 0.0303159 0.9986309 0.0303159 0.0013691 -0.0303159
302498 0.0012790 -0.0289976 0.9987210 0.0289976 0.9987210 0.0289976 0.0012790 -0.0289976
316350 0.0011962 -0.0277364 0.9988038 0.0277364 0.9988038 0.0277364 0.0011962 -0.0277364
330837 0.0011201 -0.0265299 0.9988799 0.0265299 0.9988799 0.0265299 0.0011201 -0.0265299
345986 0.0010502 -0.0253757 0.9989498 0.0253757 0.9989498 0.0253757 0.0010502 -0.0253757
361830 0.0009859 -0.0242716 0.9990141 0.0242716 0.9990141 0.0242716 0.0009859 -0.0242716
378399 0.0009269 -0.0232155 0.9990731 0.0232155 0.9990731 0.0232155 0.0009269 -0.0232155
395726 0.0008725 -0.0222053 0.9991275 0.0222053 0.9991275 0.0222053 0.0008725 -0.0222053
413847 0.0008225 -0.0212390 0.9991775 0.0212390 0.9991775 0.0212390 0.0008225 -0.0212390
432798 0.0007764 -0.0203147 0.9992236 0.0203147 0.9992236 0.0203147 0.0007764 -0.0203147
452617 0.0007339 -0.0194307 0.9992661 0.0194307 0.9992661 0.0194307 0.0007339 -0.0194307
473344 0.0006948 -0.0185852 0.9993052 0.0185852 0.9993052 0.0185852 0.0006948 -0.0185852
495019 0.0006586 -0.0177764 0.9993414 0.0177764 0.9993414 0.0177764 0.0006586 -0.0177764
517687 0.0006252 -0.0170029 0.9993748 0.0170029 0.9993748 0.0170029 0.0006252 -0.0170029
541393 0.0005944 -0.0162631 0.9994056 0.0162631 0.9994056 0.0162631 0.0005944 -0.0162631
566185 0.0005658 -0.0155555 0.9994342 0.0155555 0.9994342 0.0155555 0.0005658 -0.0155555
592111 0.0005393 -0.0148787 0.9994607 0.0148787 0.9994607 0.0148787 0.0005393 -0.0148787
619225 0.0005147 -0.0142314 0.9994853 0.0142314 0.9994853 0.0142314 0.0005147 -0.0142314
647581 0.0004919 -0.0136122 0.9995081 0.0136122 0.9995081 0.0136122 0.0004919 -0.0136122
677235 0.0004707 -0.0130200 0.9995293 0.0130200 0.9995293 0.0130200 0.0004707 -0.0130200
708247 0.0004509 -0.0124535 0.9995491 0.0124535 0.9995491 0.0124535 0.0004509 -0.0124535
740679 0.0004325 -0.0119116 0.9995675 0.0119116 0.9995675 0.0119116 0.0004325 -0.0119116
774597 0.0004153 -0.0113933 0.9995847 0.0113933 0.9995847 0.0113933 0.0004153 -0.0113933
810067 0.0003992 -0.0108974 0.9996008 0.0108974 0.9996008 0.0108974 0.0003992 -0.0108974
847162 0.0003842 -0.0104230 0.9996158 0.0104230 0.9996158 0.0104230 0.0003842 -0.0104230
885955 0.0003702 -0.0099692 0.9996298 0.0099692 0.9996298 0.0099692 0.0003702 -0.0099692
926525 0.0003570 -0.0095350 0.9996430 0.0095350 0.9996430 0.0095350 0.0003570 -0.0095350
968953 0.0003447 -0.0091196 0.9996553 0.0091196 0.9996553 0.0091196 0.0003447 -0.0091196
1013323 0.0003331 -0.0087221 0.9996669 0.0087221 0.9996669 0.0087221 0.0003331 -0.0087221
1059725 0.0003222 -0.0083418 0.9996778 0.0083418 0.9996778 0.0083418 0.0003222 -0.0083418
1108252 0.0003121 -0.0079779 0.9996879 0.0079779 0.9996879 0.0079779 0.0003121 -0.0079779
1159002 0.0003025 -0.0076297 0.9996975 0.0076297 0.9996975 0.0076297 0.0003025 -0.0076297
1212075 0.0002935 -0.0072964 0.9997065 0.0072964 0.9997065 0.0072964 0.0002935 -0.0072964
1267578 0.0002851 -0.0069775 0.9997149 0.0069775 0.9997149 0.0069775 0.0002851 -0.0069775
1325623 0.0002773 -0.0066723 0.9997227 0.0066723 0.9997227 0.0066723 0.0002773 -0.0066723
1386327 0.0002699 -0.0063802 0.9997301 0.0063802 0.9997301 0.0063802 0.0002699 -0.0063802
1449809 0.0002630 -0.0061006 0.9997370 0.0061006 0.9997370 0.0061006 0.0002630 -0.0061006
1516199 0.0002565 -0.0058331 0.9997435 0.0058331 0.9997435 0.0058331 0.0002565 -0.0058331
1585629 0.0002505 -0.0055769 0.9997495 0.0055769 0.9997495 0.0055769 0.0002505 -0.0055769
1658239 0.0002448 -0.0053318 0.9997552 0.0053318 0.9997552 0.0053318 0.0002448 -0.0053318
1734173 0.0002396 -0.0050971 0.9997604 0.0050971 0.9997604 0.0050971 0.0002396 -0.0050971
1813585 0.0002346 -0.0048725 0.9997654 0.0048725 0.9997654 0.0048725 0.0002346 -0.0048725
1896632 0.0002301 -0.0046574 0.9997699 0.0046574 0.9997699 0.0046574 0.0002301 -0.0046574
1983483 0.0002258 -0.0044515 0.9997742 0.0044515 0.9997742 0.0044515 0.0002258 -0.0044515
2074311 0.0002219 -0.0042544 0.9997781 0.0042544 0.9997781 0.0042544 0.0002219 -0.0042544
