!Murata Part Number: GRM033R61E681KA01
!These Parameters are Measured in Series Mode Connection
!Data Generated on Mar 30, 2021
!       o--ll--o
!Port1            Port2
!       o------o
!Operation Temp=25[degC], DC Bias Voltage=0[V]
!Freq. Start=100[Hz] Stop=6[GHz] 401[Steps]
# Hz S RI R 50
!Freq.(Hz) S11(Real) S11(Imag) S21(Real) S21(Imag) S12(Real) S12(Imag) S22(Real) S22(Imag)
100 0.9999997 -0.0000423 0.0000003 0.0000423 0.0000003 0.0000423 0.9999997 -0.0000423
105 0.9999997 -0.0000442 0.0000003 0.0000442 0.0000003 0.0000442 0.9999997 -0.0000442
109 0.9999997 -0.0000463 0.0000003 0.0000463 0.0000003 0.0000463 0.9999997 -0.0000463
114 0.9999997 -0.0000484 0.0000003 0.0000484 0.0000003 0.0000484 0.9999997 -0.0000484
120 0.9999997 -0.0000506 0.0000003 0.0000506 0.0000003 0.0000506 0.9999997 -0.0000506
125 0.9999996 -0.0000529 0.0000004 0.0000529 0.0000004 0.0000529 0.9999996 -0.0000529
131 0.9999996 -0.0000553 0.0000004 0.0000553 0.0000004 0.0000553 0.9999996 -0.0000553
137 0.9999996 -0.0000578 0.0000004 0.0000578 0.0000004 0.0000578 0.9999996 -0.0000578
143 0.9999996 -0.0000604 0.0000004 0.0000604 0.0000004 0.0000604 0.9999996 -0.0000604
150 0.9999996 -0.0000632 0.0000004 0.0000632 0.0000004 0.0000632 0.9999996 -0.0000632
156 0.9999996 -0.0000661 0.0000004 0.0000661 0.0000004 0.0000661 0.9999996 -0.0000661
164 0.9999995 -0.0000691 0.0000005 0.0000691 0.0000005 0.0000691 0.9999995 -0.0000691
171 0.9999995 -0.0000722 0.0000005 0.0000722 0.0000005 0.0000722 0.9999995 -0.0000722
179 0.9999995 -0.0000755 0.0000005 0.0000755 0.0000005 0.0000755 0.9999995 -0.0000755
187 0.9999995 -0.0000790 0.0000005 0.0000790 0.0000005 0.0000790 0.9999995 -0.0000790
196 0.9999995 -0.0000826 0.0000005 0.0000826 0.0000005 0.0000826 0.9999995 -0.0000826
205 0.9999994 -0.0000863 0.0000006 0.0000863 0.0000006 0.0000863 0.9999994 -0.0000863
214 0.9999994 -0.0000903 0.0000006 0.0000903 0.0000006 0.0000903 0.9999994 -0.0000903
224 0.9999994 -0.0000944 0.0000006 0.0000944 0.0000006 0.0000944 0.9999994 -0.0000944
234 0.9999994 -0.0000987 0.0000006 0.0000987 0.0000006 0.0000987 0.9999994 -0.0000987
245 0.9999993 -0.0001032 0.0000007 0.0001032 0.0000007 0.0001032 0.9999993 -0.0001032
256 0.9999993 -0.0001079 0.0000007 0.0001079 0.0000007 0.0001079 0.9999993 -0.0001079
268 0.9999993 -0.0001128 0.0000007 0.0001128 0.0000007 0.0001128 0.9999993 -0.0001128
280 0.9999993 -0.0001180 0.0000007 0.0001180 0.0000007 0.0001180 0.9999993 -0.0001180
293 0.9999992 -0.0001234 0.0000008 0.0001234 0.0000008 0.0001234 0.9999992 -0.0001234
306 0.9999992 -0.0001290 0.0000008 0.0001290 0.0000008 0.0001290 0.9999992 -0.0001290
320 0.9999992 -0.0001349 0.0000008 0.0001349 0.0000008 0.0001349 0.9999992 -0.0001349
335 0.9999991 -0.0001410 0.0000009 0.0001410 0.0000009 0.0001410 0.9999991 -0.0001410
350 0.9999991 -0.0001475 0.0000009 0.0001475 0.0000009 0.0001475 0.9999991 -0.0001475
366 0.9999990 -0.0001542 0.0000010 0.0001542 0.0000010 0.0001542 0.9999990 -0.0001542
383 0.9999990 -0.0001612 0.0000010 0.0001612 0.0000010 0.0001612 0.9999990 -0.0001612
401 0.9999989 -0.0001686 0.0000011 0.0001686 0.0000011 0.0001686 0.9999989 -0.0001686
419 0.9999989 -0.0001763 0.0000011 0.0001763 0.0000011 0.0001763 0.9999989 -0.0001763
438 0.9999988 -0.0001843 0.0000012 0.0001843 0.0000012 0.0001843 0.9999988 -0.0001843
458 0.9999988 -0.0001927 0.0000012 0.0001927 0.0000012 0.0001927 0.9999988 -0.0001927
479 0.9999987 -0.0002015 0.0000013 0.0002015 0.0000013 0.0002015 0.9999987 -0.0002015
501 0.9999987 -0.0002107 0.0000013 0.0002107 0.0000013 0.0002107 0.9999987 -0.0002107
524 0.9999986 -0.0002203 0.0000014 0.0002203 0.0000014 0.0002203 0.9999986 -0.0002203
548 0.9999985 -0.0002303 0.0000015 0.0002303 0.0000015 0.0002303 0.9999985 -0.0002303
573 0.9999985 -0.0002408 0.0000015 0.0002408 0.0000015 0.0002408 0.9999985 -0.0002408
600 0.9999984 -0.0002518 0.0000016 0.0002518 0.0000016 0.0002518 0.9999984 -0.0002518
627 0.9999983 -0.0002633 0.0000017 0.0002633 0.0000017 0.0002633 0.9999983 -0.0002633
656 0.9999983 -0.0002753 0.0000017 0.0002753 0.0000017 0.0002753 0.9999983 -0.0002753
686 0.9999982 -0.0002878 0.0000018 0.0002878 0.0000018 0.0002878 0.9999982 -0.0002878
717 0.9999981 -0.0003010 0.0000019 0.0003010 0.0000019 0.0003010 0.9999981 -0.0003010
750 0.9999980 -0.0003147 0.0000020 0.0003147 0.0000020 0.0003147 0.9999980 -0.0003147
784 0.9999979 -0.0003290 0.0000021 0.0003290 0.0000021 0.0003290 0.9999979 -0.0003290
820 0.9999979 -0.0003441 0.0000021 0.0003441 0.0000021 0.0003441 0.9999979 -0.0003441
858 0.9999978 -0.0003597 0.0000022 0.0003597 0.0000022 0.0003597 0.9999978 -0.0003597
897 0.9999977 -0.0003762 0.0000023 0.0003762 0.0000023 0.0003762 0.9999977 -0.0003762
938 0.9999976 -0.0003933 0.0000024 0.0003933 0.0000024 0.0003933 0.9999976 -0.0003933
981 0.9999975 -0.0004113 0.0000025 0.0004113 0.0000025 0.0004113 0.9999975 -0.0004113
1026 0.9999974 -0.0004300 0.0000026 0.0004300 0.0000026 0.0004300 0.9999974 -0.0004300
1073 0.9999973 -0.0004497 0.0000027 0.0004497 0.0000027 0.0004497 0.9999973 -0.0004497
1122 0.9999972 -0.0004702 0.0000028 0.0004702 0.0000028 0.0004702 0.9999972 -0.0004702
1174 0.9999970 -0.0004916 0.0000030 0.0004916 0.0000030 0.0004916 0.9999970 -0.0004916
1227 0.9999969 -0.0005141 0.0000031 0.0005141 0.0000031 0.0005141 0.9999969 -0.0005141
1283 0.9999968 -0.0005375 0.0000032 0.0005375 0.0000032 0.0005375 0.9999968 -0.0005375
1342 0.9999966 -0.0005621 0.0000034 0.0005621 0.0000034 0.0005621 0.9999966 -0.0005621
1404 0.9999965 -0.0005877 0.0000035 0.0005877 0.0000035 0.0005877 0.9999965 -0.0005877
1468 0.9999963 -0.0006146 0.0000037 0.0006146 0.0000037 0.0006146 0.9999963 -0.0006146
1535 0.9999962 -0.0006426 0.0000038 0.0006426 0.0000038 0.0006426 0.9999962 -0.0006426
1606 0.9999960 -0.0006720 0.0000040 0.0006720 0.0000040 0.0006720 0.9999960 -0.0006720
1679 0.9999958 -0.0007027 0.0000042 0.0007027 0.0000042 0.0007027 0.9999958 -0.0007027
1756 0.9999956 -0.0007348 0.0000044 0.0007348 0.0000044 0.0007348 0.9999956 -0.0007348
1836 0.9999954 -0.0007683 0.0000046 0.0007683 0.0000046 0.0007683 0.9999954 -0.0007683
1920 0.9999951 -0.0008034 0.0000049 0.0008034 0.0000049 0.0008034 0.9999951 -0.0008034
2008 0.9999949 -0.0008401 0.0000051 0.0008401 0.0000051 0.0008401 0.9999949 -0.0008401
2100 0.9999946 -0.0008785 0.0000054 0.0008785 0.0000054 0.0008785 0.9999946 -0.0008785
2196 0.9999943 -0.0009186 0.0000057 0.0009186 0.0000057 0.0009186 0.9999943 -0.0009186
2297 0.9999940 -0.0009605 0.0000060 0.0009605 0.0000060 0.0009605 0.9999940 -0.0009605
2402 0.9999936 -0.0010044 0.0000064 0.0010044 0.0000064 0.0010044 0.9999936 -0.0010044
2512 0.9999933 -0.0010502 0.0000067 0.0010502 0.0000067 0.0010502 0.9999933 -0.0010502
2627 0.9999929 -0.0010982 0.0000071 0.0010982 0.0000071 0.0010982 0.9999929 -0.0010982
2748 0.9999925 -0.0011483 0.0000075 0.0011483 0.0000075 0.0011483 0.9999925 -0.0011483
2873 0.9999920 -0.0012008 0.0000080 0.0012008 0.0000080 0.0012008 0.9999920 -0.0012008
3005 0.9999915 -0.0012556 0.0000085 0.0012556 0.0000085 0.0012556 0.9999915 -0.0012556
3143 0.9999910 -0.0013129 0.0000090 0.0013129 0.0000090 0.0013129 0.9999910 -0.0013129
3287 0.9999905 -0.0013728 0.0000095 0.0013728 0.0000095 0.0013728 0.9999905 -0.0013728
3437 0.9999899 -0.0014354 0.0000101 0.0014354 0.0000101 0.0014354 0.9999899 -0.0014354
3594 0.9999893 -0.0015009 0.0000107 0.0015009 0.0000107 0.0015009 0.9999893 -0.0015009
3759 0.9999886 -0.0015694 0.0000114 0.0015694 0.0000114 0.0015694 0.9999886 -0.0015694
3931 0.9999879 -0.0016410 0.0000121 0.0016410 0.0000121 0.0016410 0.9999879 -0.0016410
4111 0.9999872 -0.0017158 0.0000128 0.0017158 0.0000128 0.0017158 0.9999872 -0.0017158
4299 0.9999864 -0.0017941 0.0000136 0.0017941 0.0000136 0.0017941 0.9999864 -0.0017941
4496 0.9999855 -0.0018759 0.0000145 0.0018759 0.0000145 0.0018759 0.9999855 -0.0018759
4702 0.9999846 -0.0019615 0.0000154 0.0019615 0.0000154 0.0019615 0.9999846 -0.0019615
4918 0.9999837 -0.0020509 0.0000163 0.0020509 0.0000163 0.0020509 0.9999837 -0.0020509
5143 0.9999827 -0.0021444 0.0000173 0.0021444 0.0000173 0.0021444 0.9999827 -0.0021444
5378 0.9999816 -0.0022422 0.0000184 0.0022422 0.0000184 0.0022422 0.9999816 -0.0022422
5625 0.9999805 -0.0023444 0.0000195 0.0023444 0.0000195 0.0023444 0.9999805 -0.0023444
5882 0.9999793 -0.0024512 0.0000207 0.0024512 0.0000207 0.0024512 0.9999793 -0.0024512
6151 0.9999780 -0.0025630 0.0000220 0.0025630 0.0000220 0.0025630 0.9999780 -0.0025630
6433 0.9999767 -0.0026798 0.0000233 0.0026798 0.0000233 0.0026798 0.9999767 -0.0026798
6728 0.9999753 -0.0028020 0.0000247 0.0028020 0.0000247 0.0028020 0.9999753 -0.0028020
7036 0.9999738 -0.0029297 0.0000262 0.0029297 0.0000262 0.0029297 0.9999738 -0.0029297
7358 0.9999722 -0.0030633 0.0000278 0.0030633 0.0000278 0.0030633 0.9999722 -0.0030633
7695 0.9999705 -0.0032029 0.0000295 0.0032029 0.0000295 0.0032029 0.9999705 -0.0032029
8047 0.9999687 -0.0033490 0.0000313 0.0033490 0.0000313 0.0033490 0.9999687 -0.0033490
8416 0.9999668 -0.0035017 0.0000332 0.0035017 0.0000332 0.0035017 0.9999668 -0.0035017
8801 0.9999648 -0.0036613 0.0000352 0.0036613 0.0000352 0.0036613 0.9999648 -0.0036613
9204 0.9999626 -0.0038283 0.0000374 0.0038283 0.0000374 0.0038283 0.9999626 -0.0038283
9626 0.9999603 -0.0040029 0.0000397 0.0040029 0.0000397 0.0040029 0.9999603 -0.0040029
10066 0.9999578 -0.0041855 0.0000422 0.0041855 0.0000422 0.0041855 0.9999578 -0.0041855
10527 0.9999551 -0.0043764 0.0000449 0.0043764 0.0000449 0.0043764 0.9999551 -0.0043764
11009 0.9999523 -0.0045761 0.0000477 0.0045761 0.0000477 0.0045761 0.9999523 -0.0045761
11514 0.9999492 -0.0047848 0.0000508 0.0047848 0.0000508 0.0047848 0.9999492 -0.0047848
12041 0.9999459 -0.0050032 0.0000541 0.0050032 0.0000541 0.0050032 0.9999459 -0.0050032
12592 0.9999423 -0.0052315 0.0000577 0.0052315 0.0000577 0.0052315 0.9999423 -0.0052315
13169 0.9999385 -0.0054702 0.0000615 0.0054702 0.0000615 0.0054702 0.9999385 -0.0054702
13772 0.9999343 -0.0057199 0.0000657 0.0057199 0.0000657 0.0057199 0.9999343 -0.0057199
14402 0.9999298 -0.0059810 0.0000702 0.0059810 0.0000702 0.0059810 0.9999298 -0.0059810
15062 0.9999249 -0.0062540 0.0000751 0.0062540 0.0000751 0.0062540 0.9999249 -0.0062540
15752 0.9999197 -0.0065395 0.0000803 0.0065395 0.0000803 0.0065395 0.9999197 -0.0065395
16473 0.9999139 -0.0068380 0.0000861 0.0068380 0.0000861 0.0068380 0.9999139 -0.0068380
17227 0.9999077 -0.0071502 0.0000923 0.0071502 0.0000923 0.0071502 0.9999077 -0.0071502
18016 0.9999009 -0.0074766 0.0000991 0.0074766 0.0000991 0.0074766 0.9999009 -0.0074766
18841 0.9998936 -0.0078179 0.0001064 0.0078179 0.0001064 0.0078179 0.9998936 -0.0078179
19704 0.9998856 -0.0081748 0.0001144 0.0081748 0.0001144 0.0081748 0.9998856 -0.0081748
20606 0.9998770 -0.0085480 0.0001230 0.0085480 0.0001230 0.0085480 0.9998770 -0.0085480
21550 0.9998675 -0.0089382 0.0001325 0.0089382 0.0001325 0.0089382 0.9998675 -0.0089382
22537 0.9998573 -0.0093461 0.0001427 0.0093461 0.0001427 0.0093461 0.9998573 -0.0093461
23569 0.9998462 -0.0097727 0.0001538 0.0097727 0.0001538 0.0097727 0.9998462 -0.0097727
24648 0.9998340 -0.0102187 0.0001660 0.0102187 0.0001660 0.0102187 0.9998340 -0.0102187
25777 0.9998209 -0.0106850 0.0001791 0.0106850 0.0001791 0.0106850 0.9998209 -0.0106850
26957 0.9998066 -0.0111725 0.0001934 0.0111725 0.0001934 0.0111725 0.9998066 -0.0111725
28191 0.9997910 -0.0116822 0.0002090 0.0116822 0.0002090 0.0116822 0.9997910 -0.0116822
29482 0.9997741 -0.0122151 0.0002259 0.0122151 0.0002259 0.0122151 0.9997741 -0.0122151
30832 0.9997557 -0.0127722 0.0002443 0.0127722 0.0002443 0.0127722 0.9997557 -0.0127722
32244 0.9997358 -0.0133546 0.0002642 0.0133546 0.0002642 0.0133546 0.9997358 -0.0133546
33721 0.9997141 -0.0139634 0.0002859 0.0139634 0.0002859 0.0139634 0.9997141 -0.0139634
35265 0.9996905 -0.0145999 0.0003095 0.0145999 0.0003095 0.0145999 0.9996905 -0.0145999
36880 0.9996650 -0.0152653 0.0003350 0.0152653 0.0003350 0.0152653 0.9996650 -0.0152653
38569 0.9996372 -0.0159608 0.0003628 0.0159608 0.0003628 0.0159608 0.9996372 -0.0159608
40335 0.9996071 -0.0166879 0.0003929 0.0166879 0.0003929 0.0166879 0.9996071 -0.0166879
42182 0.9995745 -0.0174480 0.0004255 0.0174480 0.0004255 0.0174480 0.9995745 -0.0174480
44113 0.9995390 -0.0182425 0.0004610 0.0182425 0.0004610 0.0182425 0.9995390 -0.0182425
46134 0.9995006 -0.0190729 0.0004994 0.0190729 0.0004994 0.0190729 0.9995006 -0.0190729
48246 0.9994589 -0.0199410 0.0005411 0.0199410 0.0005411 0.0199410 0.9994589 -0.0199410
50455 0.9994137 -0.0208485 0.0005863 0.0208485 0.0005863 0.0208485 0.9994137 -0.0208485
52766 0.9993646 -0.0217970 0.0006354 0.0217970 0.0006354 0.0217970 0.9993646 -0.0217970
55182 0.9993115 -0.0227884 0.0006885 0.0227884 0.0006885 0.0227884 0.9993115 -0.0227884
57709 0.9992538 -0.0238247 0.0007462 0.0238247 0.0007462 0.0238247 0.9992538 -0.0238247
60352 0.9991913 -0.0249080 0.0008087 0.0249080 0.0008087 0.0249080 0.9991913 -0.0249080
63115 0.9991235 -0.0260402 0.0008765 0.0260402 0.0008765 0.0260402 0.9991235 -0.0260402
66005 0.9990499 -0.0272237 0.0009501 0.0272237 0.0009501 0.0272237 0.9990499 -0.0272237
69028 0.9989701 -0.0284608 0.0010299 0.0284608 0.0010299 0.0284608 0.9989701 -0.0284608
72189 0.9988834 -0.0297539 0.0011166 0.0297539 0.0011166 0.0297539 0.9988834 -0.0297539
75495 0.9987894 -0.0311054 0.0012106 0.0311054 0.0012106 0.0311054 0.9987894 -0.0311054
78952 0.9986872 -0.0325182 0.0013128 0.0325182 0.0013128 0.0325182 0.9986872 -0.0325182
82567 0.9985762 -0.0339948 0.0014238 0.0339948 0.0014238 0.0339948 0.9985762 -0.0339948
86348 0.9984556 -0.0355382 0.0015444 0.0355382 0.0015444 0.0355382 0.9984556 -0.0355382
90302 0.9983245 -0.0371513 0.0016755 0.0371513 0.0016755 0.0371513 0.9983245 -0.0371513
94437 0.9981820 -0.0388374 0.0018180 0.0388374 0.0018180 0.0388374 0.9981820 -0.0388374
98762 0.9980269 -0.0405996 0.0019731 0.0405996 0.0019731 0.0405996 0.9980269 -0.0405996
103284 0.9978581 -0.0424413 0.0021419 0.0424413 0.0021419 0.0424413 0.9978581 -0.0424413
108014 0.9976744 -0.0443661 0.0023256 0.0443661 0.0023256 0.0443661 0.9976744 -0.0443661
112960 0.9974743 -0.0463776 0.0025257 0.0463776 0.0025257 0.0463776 0.9974743 -0.0463776
118133 0.9972564 -0.0484795 0.0027436 0.0484795 0.0027436 0.0484795 0.9972564 -0.0484795
123542 0.9970190 -0.0506760 0.0029810 0.0506760 0.0029810 0.0506760 0.9970190 -0.0506760
129199 0.9967603 -0.0529709 0.0032397 0.0529709 0.0032397 0.0529709 0.9967603 -0.0529709
135116 0.9964783 -0.0553687 0.0035217 0.0553687 0.0035217 0.0553687 0.9964783 -0.0553687
141303 0.9961709 -0.0578738 0.0038291 0.0578738 0.0038291 0.0578738 0.9961709 -0.0578738
147774 0.9958357 -0.0604905 0.0041643 0.0604905 0.0041643 0.0604905 0.9958357 -0.0604905
154540 0.9954702 -0.0632238 0.0045298 0.0632238 0.0045298 0.0632238 0.9954702 -0.0632238
161617 0.9950716 -0.0660784 0.0049284 0.0660784 0.0049284 0.0660784 0.9950716 -0.0660784
169018 0.9946369 -0.0690594 0.0053631 0.0690594 0.0053631 0.0690594 0.9946369 -0.0690594
176758 0.9941627 -0.0721719 0.0058373 0.0721719 0.0058373 0.0721719 0.9941627 -0.0721719
184852 0.9936456 -0.0754214 0.0063544 0.0754214 0.0063544 0.0754214 0.9936456 -0.0754214
193316 0.9930816 -0.0788132 0.0069184 0.0788132 0.0069184 0.0788132 0.9930816 -0.0788132
202169 0.9924665 -0.0823530 0.0075335 0.0823530 0.0075335 0.0823530 0.9924665 -0.0823530
211427 0.9917957 -0.0860466 0.0082043 0.0860466 0.0082043 0.0860466 0.9917957 -0.0860466
221108 0.9910644 -0.0898999 0.0089356 0.0898999 0.0089356 0.0898999 0.9910644 -0.0898999
231233 0.9902671 -0.0939188 0.0097329 0.0939188 0.0097329 0.0939188 0.9902671 -0.0939188
241822 0.9893979 -0.0981095 0.0106021 0.0981095 0.0106021 0.0981095 0.9893979 -0.0981095
252896 0.9884507 -0.1024782 0.0115493 0.1024782 0.0115493 0.1024782 0.9884507 -0.1024782
264476 0.9874186 -0.1070312 0.0125814 0.1070312 0.0125814 0.1070312 0.9874186 -0.1070312
276587 0.9862941 -0.1117747 0.0137059 0.1117747 0.0137059 0.1117747 0.9862941 -0.1117747
289253 0.9850695 -0.1167151 0.0149305 0.1167151 0.0149305 0.1167151 0.9850695 -0.1167151
302498 0.9837361 -0.1218589 0.0162639 0.1218589 0.0162639 0.1218589 0.9837361 -0.1218589
316350 0.9822847 -0.1272122 0.0177153 0.1272122 0.0177153 0.1272122 0.9822847 -0.1272122
330837 0.9807053 -0.1327813 0.0192947 0.1327813 0.0192947 0.1327813 0.9807053 -0.1327813
345986 0.9789873 -0.1385723 0.0210127 0.1385723 0.0210127 0.1385723 0.9789873 -0.1385723
361830 0.9771191 -0.1445910 0.0228809 0.1445910 0.0228809 0.1445910 0.9771191 -0.1445910
378399 0.9750885 -0.1508433 0.0249115 0.1508433 0.0249115 0.1508433 0.9750885 -0.1508433
395726 0.9728821 -0.1573344 0.0271179 0.1573344 0.0271179 0.1573344 0.9728821 -0.1573344
413847 0.9704859 -0.1640694 0.0295141 0.1640694 0.0295141 0.1640694 0.9704859 -0.1640694
432798 0.9678848 -0.1710528 0.0321152 0.1710528 0.0321152 0.1710528 0.9678848 -0.1710528
452617 0.9650626 -0.1782884 0.0349374 0.1782884 0.0349374 0.1782884 0.9650626 -0.1782884
473344 0.9620021 -0.1857798 0.0379979 0.1857798 0.0379979 0.1857798 0.9620021 -0.1857798
495019 0.9586850 -0.1935292 0.0413150 0.1935292 0.0413150 0.1935292 0.9586850 -0.1935292
517687 0.9550921 -0.2015384 0.0449079 0.2015384 0.0449079 0.2015384 0.9550921 -0.2015384
541393 0.9512026 -0.2098077 0.0487974 0.2098077 0.0487974 0.2098077 0.9512026 -0.2098077
566185 0.9469952 -0.2183365 0.0530048 0.2183365 0.0530048 0.2183365 0.9469952 -0.2183365
592111 0.9424469 -0.2271226 0.0575531 0.2271226 0.0575531 0.2271226 0.9424469 -0.2271226
619225 0.9375339 -0.2361622 0.0624661 0.2361622 0.0624661 0.2361622 0.9375339 -0.2361622
647581 0.9322312 -0.2454497 0.0677688 0.2454497 0.0677688 0.2454497 0.9322312 -0.2454497
677235 0.9265132 -0.2549774 0.0734868 0.2549774 0.0734868 0.2549774 0.9265132 -0.2549774
708247 0.9203528 -0.2647353 0.0796472 0.2647353 0.0796472 0.2647353 0.9203528 -0.2647353
740679 0.9137228 -0.2747111 0.0862772 0.2747111 0.0862772 0.2747111 0.9137228 -0.2747111
774597 0.9065950 -0.2848894 0.0934050 0.2848894 0.0934050 0.2848894 0.9065950 -0.2848894
810067 0.8989410 -0.2952519 0.1010590 0.2952519 0.1010590 0.2952519 0.8989410 -0.2952519
847162 0.8907325 -0.3057771 0.1092675 0.3057771 0.1092675 0.3057771 0.8907325 -0.3057771
885955 0.8819412 -0.3164398 0.1180588 0.3164398 0.1180588 0.3164398 0.8819412 -0.3164398
926525 0.8725396 -0.3272113 0.1274604 0.3272113 0.1274604 0.3272113 0.8725396 -0.3272113
968953 0.8625013 -0.3380589 0.1374987 0.3380589 0.1374987 0.3380589 0.8625013 -0.3380589
1013323 0.8518011 -0.3489458 0.1481989 0.3489458 0.1481989 0.3489458 0.8518011 -0.3489458
1059725 0.8404165 -0.3598312 0.1595835 0.3598312 0.1595835 0.3598312 0.8404165 -0.3598312
1108252 0.8283271 -0.3706702 0.1716729 0.3706702 0.1716729 0.3706702 0.8283271 -0.3706702
1159002 0.8155160 -0.3814138 0.1844840 0.3814138 0.1844840 0.3814138 0.8155160 -0.3814138
1212075 0.8019705 -0.3920092 0.1980295 0.3920092 0.1980295 0.3920092 0.8019705 -0.3920092
1267578 0.7876821 -0.4024000 0.2123179 0.4024000 0.2123179 0.4024000 0.7876821 -0.4024000
1325623 0.7726479 -0.4125267 0.2273521 0.4125267 0.2273521 0.4125267 0.7726479 -0.4125267
1386327 0.7568709 -0.4223269 0.2431291 0.4223269 0.2431291 0.4223269 0.7568709 -0.4223269
1449809 0.7403604 -0.4317365 0.2596396 0.4317365 0.2596396 0.4317365 0.7403604 -0.4317365
1516199 0.7231330 -0.4406899 0.2768670 0.4406899 0.2768670 0.4406899 0.7231330 -0.4406899
1585629 0.7052126 -0.4491212 0.2947874 0.4491212 0.2947874 0.4491212 0.7052126 -0.4491212
1658239 0.6866311 -0.4569653 0.3133689 0.4569653 0.3133689 0.4569653 0.6866311 -0.4569653
1734173 0.6674279 -0.4641587 0.3325721 0.4641587 0.3325721 0.4641587 0.6674279 -0.4641587
1813585 0.6476506 -0.4706406 0.3523494 0.4706406 0.3523494 0.4706406 0.6476506 -0.4706406
1896632 0.6273542 -0.4763544 0.3726458 0.4763544 0.3726458 0.4763544 0.6273542 -0.4763544
1983483 0.6066012 -0.4812485 0.3933988 0.4812485 0.3933988 0.4812485 0.6066012 -0.4812485
2074311 0.5854604 -0.4852777 0.4145396 0.4852777 0.4145396 0.4852777 0.5854604 -0.4852777
