!Murata Part Number: GRM033R71A562KA01
!These Parameters are Measured in Series Mode Connection
!Data Generated on Mar 30, 2021
!       o--ll--o
!Port1            Port2
!       o------o
!Operation Temp=25[degC], DC Bias Voltage=0[V]
!Freq. Start=100[Hz] Stop=6[GHz] 401[Steps]
# Hz S RI R 50
!Freq.(Hz) S11(Real) S11(Imag) S21(Real) S21(Imag) S12(Real) S12(Imag) S22(Real) S22(Imag)
100 0.9999976 -0.0003507 0.0000024 0.0003507 0.0000024 0.0003507 0.9999976 -0.0003507
105 0.9999975 -0.0003667 0.0000025 0.0003667 0.0000025 0.0003667 0.9999975 -0.0003667
109 0.9999974 -0.0003834 0.0000026 0.0003834 0.0000026 0.0003834 0.9999974 -0.0003834
114 0.9999973 -0.0004009 0.0000027 0.0004009 0.0000027 0.0004009 0.9999973 -0.0004009
120 0.9999972 -0.0004191 0.0000028 0.0004191 0.0000028 0.0004191 0.9999972 -0.0004191
125 0.9999971 -0.0004382 0.0000029 0.0004382 0.0000029 0.0004382 0.9999971 -0.0004382
131 0.9999969 -0.0004582 0.0000031 0.0004582 0.0000031 0.0004582 0.9999969 -0.0004582
137 0.9999968 -0.0004791 0.0000032 0.0004791 0.0000032 0.0004791 0.9999968 -0.0004791
143 0.9999967 -0.0005009 0.0000033 0.0005009 0.0000033 0.0005009 0.9999967 -0.0005009
150 0.9999965 -0.0005238 0.0000035 0.0005238 0.0000035 0.0005238 0.9999965 -0.0005238
156 0.9999964 -0.0005477 0.0000036 0.0005477 0.0000036 0.0005477 0.9999964 -0.0005477
164 0.9999963 -0.0005726 0.0000037 0.0005726 0.0000037 0.0005726 0.9999963 -0.0005726
171 0.9999961 -0.0005988 0.0000039 0.0005988 0.0000039 0.0005988 0.9999961 -0.0005988
179 0.9999960 -0.0006261 0.0000040 0.0006261 0.0000040 0.0006261 0.9999960 -0.0006261
187 0.9999958 -0.0006547 0.0000042 0.0006547 0.0000042 0.0006547 0.9999958 -0.0006547
196 0.9999956 -0.0006845 0.0000044 0.0006845 0.0000044 0.0006845 0.9999956 -0.0006845
205 0.9999954 -0.0007158 0.0000046 0.0007158 0.0000046 0.0007158 0.9999954 -0.0007158
214 0.9999952 -0.0007484 0.0000048 0.0007484 0.0000048 0.0007484 0.9999952 -0.0007484
224 0.9999950 -0.0007826 0.0000050 0.0007826 0.0000050 0.0007826 0.9999950 -0.0007826
234 0.9999948 -0.0008183 0.0000052 0.0008183 0.0000052 0.0008183 0.9999948 -0.0008183
245 0.9999945 -0.0008557 0.0000055 0.0008557 0.0000055 0.0008557 0.9999945 -0.0008557
256 0.9999943 -0.0008948 0.0000057 0.0008948 0.0000057 0.0008948 0.9999943 -0.0008948
268 0.9999940 -0.0009356 0.0000060 0.0009356 0.0000060 0.0009356 0.9999940 -0.0009356
280 0.9999937 -0.0009784 0.0000063 0.0009784 0.0000063 0.0009784 0.9999937 -0.0009784
293 0.9999933 -0.0010230 0.0000067 0.0010230 0.0000067 0.0010230 0.9999933 -0.0010230
306 0.9999930 -0.0010697 0.0000070 0.0010697 0.0000070 0.0010697 0.9999930 -0.0010697
320 0.9999926 -0.0011186 0.0000074 0.0011186 0.0000074 0.0011186 0.9999926 -0.0011186
335 0.9999922 -0.0011697 0.0000078 0.0011697 0.0000078 0.0011697 0.9999922 -0.0011697
350 0.9999918 -0.0012231 0.0000082 0.0012231 0.0000082 0.0012231 0.9999918 -0.0012231
366 0.9999913 -0.0012789 0.0000087 0.0012789 0.0000087 0.0012789 0.9999913 -0.0012789
383 0.9999908 -0.0013373 0.0000092 0.0013373 0.0000092 0.0013373 0.9999908 -0.0013373
401 0.9999902 -0.0013984 0.0000098 0.0013984 0.0000098 0.0013984 0.9999902 -0.0013984
419 0.9999897 -0.0014622 0.0000103 0.0014622 0.0000103 0.0014622 0.9999897 -0.0014622
438 0.9999890 -0.0015289 0.0000110 0.0015289 0.0000110 0.0015289 0.9999890 -0.0015289
458 0.9999884 -0.0015987 0.0000116 0.0015987 0.0000116 0.0015987 0.9999884 -0.0015987
479 0.9999877 -0.0016717 0.0000123 0.0016717 0.0000123 0.0016717 0.9999877 -0.0016717
501 0.9999869 -0.0017480 0.0000131 0.0017480 0.0000131 0.0017480 0.9999869 -0.0017480
524 0.9999861 -0.0018277 0.0000139 0.0018277 0.0000139 0.0018277 0.9999861 -0.0018277
548 0.9999852 -0.0019111 0.0000148 0.0019111 0.0000148 0.0019111 0.9999852 -0.0019111
573 0.9999843 -0.0019982 0.0000157 0.0019982 0.0000157 0.0019982 0.9999843 -0.0019982
600 0.9999833 -0.0020894 0.0000167 0.0020894 0.0000167 0.0020894 0.9999833 -0.0020894
627 0.9999822 -0.0021847 0.0000178 0.0021847 0.0000178 0.0021847 0.9999822 -0.0021847
656 0.9999811 -0.0022843 0.0000189 0.0022843 0.0000189 0.0022843 0.9999811 -0.0022843
686 0.9999799 -0.0023884 0.0000201 0.0023884 0.0000201 0.0023884 0.9999799 -0.0023884
717 0.9999786 -0.0024973 0.0000214 0.0024973 0.0000214 0.0024973 0.9999786 -0.0024973
750 0.9999773 -0.0026111 0.0000227 0.0026111 0.0000227 0.0026111 0.9999773 -0.0026111
784 0.9999758 -0.0027302 0.0000242 0.0027302 0.0000242 0.0027302 0.9999758 -0.0027302
820 0.9999743 -0.0028546 0.0000257 0.0028546 0.0000257 0.0028546 0.9999743 -0.0028546
858 0.9999727 -0.0029847 0.0000273 0.0029847 0.0000273 0.0029847 0.9999727 -0.0029847
897 0.9999710 -0.0031207 0.0000290 0.0031207 0.0000290 0.0031207 0.9999710 -0.0031207
938 0.9999692 -0.0032629 0.0000308 0.0032629 0.0000308 0.0032629 0.9999692 -0.0032629
981 0.9999673 -0.0034116 0.0000327 0.0034116 0.0000327 0.0034116 0.9999673 -0.0034116
1026 0.9999653 -0.0035671 0.0000347 0.0035671 0.0000347 0.0035671 0.9999653 -0.0035671
1073 0.9999631 -0.0037297 0.0000369 0.0037297 0.0000369 0.0037297 0.9999631 -0.0037297
1122 0.9999609 -0.0038996 0.0000391 0.0038996 0.0000391 0.0038996 0.9999609 -0.0038996
1174 0.9999584 -0.0040774 0.0000416 0.0040774 0.0000416 0.0040774 0.9999584 -0.0040774
1227 0.9999559 -0.0042632 0.0000441 0.0042632 0.0000441 0.0042632 0.9999559 -0.0042632
1283 0.9999531 -0.0044575 0.0000469 0.0044575 0.0000469 0.0044575 0.9999531 -0.0044575
1342 0.9999502 -0.0046607 0.0000498 0.0046607 0.0000498 0.0046607 0.9999502 -0.0046607
1404 0.9999470 -0.0048732 0.0000530 0.0048732 0.0000530 0.0048732 0.9999470 -0.0048732
1468 0.9999437 -0.0050954 0.0000563 0.0050954 0.0000563 0.0050954 0.9999437 -0.0050954
1535 0.9999401 -0.0053278 0.0000599 0.0053278 0.0000599 0.0053278 0.9999401 -0.0053278
1606 0.9999362 -0.0055707 0.0000638 0.0055707 0.0000638 0.0055707 0.9999362 -0.0055707
1679 0.9999321 -0.0058248 0.0000679 0.0058248 0.0000679 0.0058248 0.9999321 -0.0058248
1756 0.9999276 -0.0060905 0.0000724 0.0060905 0.0000724 0.0060905 0.9999276 -0.0060905
1836 0.9999228 -0.0063684 0.0000772 0.0063684 0.0000772 0.0063684 0.9999228 -0.0063684
1920 0.9999177 -0.0066589 0.0000823 0.0066589 0.0000823 0.0066589 0.9999177 -0.0066589
2008 0.9999121 -0.0069628 0.0000879 0.0069628 0.0000879 0.0069628 0.9999121 -0.0069628
2100 0.9999060 -0.0072805 0.0000940 0.0072805 0.0000940 0.0072805 0.9999060 -0.0072805
2196 0.9998994 -0.0076128 0.0001006 0.0076128 0.0001006 0.0076128 0.9998994 -0.0076128
2297 0.9998923 -0.0079603 0.0001077 0.0079603 0.0001077 0.0079603 0.9998923 -0.0079603
2402 0.9998846 -0.0083236 0.0001154 0.0083236 0.0001154 0.0083236 0.9998846 -0.0083236
2512 0.9998762 -0.0087036 0.0001238 0.0087036 0.0001238 0.0087036 0.9998762 -0.0087036
2627 0.9998671 -0.0091009 0.0001329 0.0091009 0.0001329 0.0091009 0.9998671 -0.0091009
2748 0.9998573 -0.0095163 0.0001427 0.0095163 0.0001427 0.0095163 0.9998573 -0.0095163
2873 0.9998465 -0.0099508 0.0001535 0.0099508 0.0001535 0.0099508 0.9998465 -0.0099508
3005 0.9998348 -0.0104050 0.0001652 0.0104050 0.0001652 0.0104050 0.9998348 -0.0104050
3143 0.9998221 -0.0108800 0.0001779 0.0108800 0.0001779 0.0108800 0.9998221 -0.0108800
3287 0.9998082 -0.0113767 0.0001918 0.0113767 0.0001918 0.0113767 0.9998082 -0.0113767
3437 0.9997932 -0.0118960 0.0002068 0.0118960 0.0002068 0.0118960 0.9997932 -0.0118960
3594 0.9997768 -0.0124390 0.0002232 0.0124390 0.0002232 0.0124390 0.9997768 -0.0124390
3759 0.9997589 -0.0130067 0.0002411 0.0130067 0.0002411 0.0130067 0.9997589 -0.0130067
3931 0.9997395 -0.0136004 0.0002605 0.0136004 0.0002605 0.0136004 0.9997395 -0.0136004
4111 0.9997183 -0.0142210 0.0002817 0.0142210 0.0002817 0.0142210 0.9997183 -0.0142210
4299 0.9996953 -0.0148699 0.0003047 0.0148699 0.0003047 0.0148699 0.9996953 -0.0148699
4496 0.9996702 -0.0155483 0.0003298 0.0155483 0.0003298 0.0155483 0.9996702 -0.0155483
4702 0.9996429 -0.0162575 0.0003571 0.0162575 0.0003571 0.0162575 0.9996429 -0.0162575
4918 0.9996132 -0.0169990 0.0003868 0.0169990 0.0003868 0.0169990 0.9996132 -0.0169990
5143 0.9995809 -0.0177742 0.0004191 0.0177742 0.0004191 0.0177742 0.9995809 -0.0177742
5378 0.9995457 -0.0185845 0.0004543 0.0185845 0.0004543 0.0185845 0.9995457 -0.0185845
5625 0.9995075 -0.0194317 0.0004925 0.0194317 0.0004925 0.0194317 0.9995075 -0.0194317
5882 0.9994659 -0.0203173 0.0005341 0.0203173 0.0005341 0.0203173 0.9994659 -0.0203173
6151 0.9994206 -0.0212430 0.0005794 0.0212430 0.0005794 0.0212430 0.9994206 -0.0212430
6433 0.9993714 -0.0222107 0.0006286 0.0222107 0.0006286 0.0222107 0.9993714 -0.0222107
6728 0.9993180 -0.0232222 0.0006820 0.0232222 0.0006820 0.0232222 0.9993180 -0.0232222
7036 0.9992598 -0.0242796 0.0007402 0.0242796 0.0007402 0.0242796 0.9992598 -0.0242796
7358 0.9991966 -0.0253848 0.0008034 0.0253848 0.0008034 0.0253848 0.9991966 -0.0253848
7695 0.9991280 -0.0265401 0.0008720 0.0265401 0.0008720 0.0265401 0.9991280 -0.0265401
8047 0.9990533 -0.0277476 0.0009467 0.0277476 0.0009467 0.0277476 0.9990533 -0.0277476
8416 0.9989722 -0.0290098 0.0010278 0.0290098 0.0010278 0.0290098 0.9989722 -0.0290098
8801 0.9988841 -0.0303290 0.0011159 0.0303290 0.0011159 0.0303290 0.9988841 -0.0303290
9204 0.9987882 -0.0317078 0.0012118 0.0317078 0.0012118 0.0317078 0.9987882 -0.0317078
9626 0.9986841 -0.0331490 0.0013159 0.0331490 0.0013159 0.0331490 0.9986841 -0.0331490
10066 0.9985709 -0.0346552 0.0014291 0.0346552 0.0014291 0.0346552 0.9985709 -0.0346552
10527 0.9984478 -0.0362295 0.0015522 0.0362295 0.0015522 0.0362295 0.9984478 -0.0362295
11009 0.9983140 -0.0378748 0.0016860 0.0378748 0.0016860 0.0378748 0.9983140 -0.0378748
11514 0.9981685 -0.0395944 0.0018315 0.0395944 0.0018315 0.0395944 0.9981685 -0.0395944
12041 0.9980102 -0.0413915 0.0019898 0.0413915 0.0019898 0.0413915 0.9980102 -0.0413915
12592 0.9978380 -0.0432696 0.0021620 0.0432696 0.0021620 0.0432696 0.9978380 -0.0432696
13169 0.9976506 -0.0452324 0.0023494 0.0452324 0.0023494 0.0452324 0.9976506 -0.0452324
13772 0.9974466 -0.0472834 0.0025534 0.0472834 0.0025534 0.0472834 0.9974466 -0.0472834
14402 0.9972245 -0.0494268 0.0027755 0.0494268 0.0027755 0.0494268 0.9972245 -0.0494268
15062 0.9969826 -0.0516664 0.0030174 0.0516664 0.0030174 0.0516664 0.9969826 -0.0516664
15752 0.9967191 -0.0540065 0.0032809 0.0540065 0.0032809 0.0540065 0.9967191 -0.0540065
16473 0.9964321 -0.0564515 0.0035679 0.0564515 0.0035679 0.0564515 0.9964321 -0.0564515
17227 0.9961193 -0.0590058 0.0038807 0.0590058 0.0038807 0.0590058 0.9961193 -0.0590058
18016 0.9957784 -0.0616743 0.0042216 0.0616743 0.0042216 0.0616743 0.9957784 -0.0616743
18841 0.9954067 -0.0644617 0.0045933 0.0644617 0.0045933 0.0644617 0.9954067 -0.0644617
19704 0.9950015 -0.0673731 0.0049985 0.0673731 0.0049985 0.0673731 0.9950015 -0.0673731
20606 0.9945596 -0.0704137 0.0054404 0.0704137 0.0054404 0.0704137 0.9945596 -0.0704137
21550 0.9940777 -0.0735888 0.0059223 0.0735888 0.0059223 0.0735888 0.9940777 -0.0735888
22537 0.9935522 -0.0769039 0.0064478 0.0769039 0.0064478 0.0769039 0.9935522 -0.0769039
23569 0.9929789 -0.0803647 0.0070211 0.0803647 0.0070211 0.0803647 0.9929789 -0.0803647
24648 0.9923537 -0.0839771 0.0076463 0.0839771 0.0076463 0.0839771 0.9923537 -0.0839771
25777 0.9916717 -0.0877469 0.0083283 0.0877469 0.0083283 0.0877469 0.9916717 -0.0877469
26957 0.9909278 -0.0916804 0.0090722 0.0916804 0.0090722 0.0916804 0.9909278 -0.0916804
28191 0.9901164 -0.0957837 0.0098836 0.0957837 0.0098836 0.0957837 0.9901164 -0.0957837
29482 0.9892316 -0.1000632 0.0107684 0.1000632 0.0107684 0.1000632 0.9892316 -0.1000632
30832 0.9882667 -0.1045253 0.0117333 0.1045253 0.0117333 0.1045253 0.9882667 -0.1045253
32244 0.9872147 -0.1091764 0.0127853 0.1091764 0.0127853 0.1091764 0.9872147 -0.1091764
33721 0.9860678 -0.1140233 0.0139322 0.1140233 0.0139322 0.1140233 0.9860678 -0.1140233
35265 0.9848177 -0.1190723 0.0151823 0.1190723 0.0151823 0.1190723 0.9848177 -0.1190723
36880 0.9834555 -0.1243300 0.0165445 0.1243300 0.0165445 0.1243300 0.9834555 -0.1243300
38569 0.9819714 -0.1298030 0.0180286 0.1298030 0.0180286 0.1298030 0.9819714 -0.1298030
40335 0.9803550 -0.1354977 0.0196450 0.1354977 0.0196450 0.1354977 0.9803550 -0.1354977
42182 0.9785950 -0.1414201 0.0214050 0.1414201 0.0214050 0.1414201 0.9785950 -0.1414201
44113 0.9766793 -0.1475764 0.0233207 0.1475764 0.0233207 0.1475764 0.9766793 -0.1475764
46134 0.9745949 -0.1539723 0.0254051 0.1539723 0.0254051 0.1539723 0.9745949 -0.1539723
48246 0.9723279 -0.1606130 0.0276721 0.1606130 0.0276721 0.1606130 0.9723279 -0.1606130
50455 0.9698633 -0.1675036 0.0301367 0.1675036 0.0301367 0.1675036 0.9698633 -0.1675036
52766 0.9671851 -0.1746485 0.0328149 0.1746485 0.0328149 0.1746485 0.9671851 -0.1746485
55182 0.9642764 -0.1820512 0.0357236 0.1820512 0.0357236 0.1820512 0.9642764 -0.1820512
57709 0.9611192 -0.1897148 0.0388808 0.1897148 0.0388808 0.1897148 0.9611192 -0.1897148
60352 0.9576941 -0.1976412 0.0423059 0.1976412 0.0423059 0.1976412 0.9576941 -0.1976412
63115 0.9539810 -0.2058316 0.0460190 0.2058316 0.0460190 0.2058316 0.9539810 -0.2058316
66005 0.9499584 -0.2142855 0.0500416 0.2142855 0.0500416 0.2142855 0.9499584 -0.2142855
69028 0.9456036 -0.2230016 0.0543964 0.2230016 0.0543964 0.2230016 0.9456036 -0.2230016
72189 0.9408932 -0.2319764 0.0591068 0.2319764 0.0591068 0.2319764 0.9408932 -0.2319764
75495 0.9358025 -0.2412053 0.0641975 0.2412053 0.0641975 0.2412053 0.9358025 -0.2412053
78952 0.9303058 -0.2506811 0.0696942 0.2506811 0.0696942 0.2506811 0.9303058 -0.2506811
82567 0.9243766 -0.2603949 0.0756234 0.2603949 0.0756234 0.2603949 0.9243766 -0.2603949
86348 0.9179877 -0.2703351 0.0820123 0.2703351 0.0820123 0.2703351 0.9179877 -0.2703351
90302 0.9111113 -0.2804876 0.0888887 0.2804876 0.0888887 0.2804876 0.9111113 -0.2804876
94437 0.9037192 -0.2908354 0.0962808 0.2908354 0.0962808 0.2908354 0.9037192 -0.2908354
98762 0.8957829 -0.3013581 0.1042171 0.3013581 0.1042171 0.3013581 0.8957829 -0.3013581
103284 0.8872743 -0.3120324 0.1127257 0.3120324 0.1127257 0.3120324 0.8872743 -0.3120324
108014 0.8781657 -0.3228311 0.1218343 0.3228311 0.1218343 0.3228311 0.8781657 -0.3228311
112960 0.8684301 -0.3337234 0.1315699 0.3337234 0.1315699 0.3337234 0.8684301 -0.3337234
118133 0.8580419 -0.3446745 0.1419581 0.3446745 0.1419581 0.3446745 0.8580419 -0.3446745
123542 0.8469775 -0.3556459 0.1530225 0.3556459 0.1530225 0.3556459 0.8469775 -0.3556459
129199 0.8352153 -0.3665947 0.1647847 0.3665947 0.1647847 0.3665947 0.8352153 -0.3665947
135116 0.8227369 -0.3774742 0.1772631 0.3774742 0.1772631 0.3774742 0.8227369 -0.3774742
141303 0.8095273 -0.3882338 0.1904727 0.3882338 0.1904727 0.3882338 0.8095273 -0.3882338
147774 0.7955756 -0.3988191 0.2044244 0.3988191 0.2044244 0.3988191 0.7955756 -0.3988191
154540 0.7808760 -0.4091725 0.2191240 0.4091725 0.2191240 0.4091725 0.7808760 -0.4091725
161617 0.7654281 -0.4192331 0.2345719 0.4192331 0.2345719 0.4192331 0.7654281 -0.4192331
169018 0.7492374 -0.4289381 0.2507626 0.4289381 0.2507626 0.4289381 0.7492374 -0.4289381
176758 0.7323165 -0.4382225 0.2676835 0.4382225 0.2676835 0.4382225 0.7323165 -0.4382225
184852 0.7146846 -0.4470208 0.2853154 0.4470208 0.2853154 0.4470208 0.7146846 -0.4470208
193316 0.6963691 -0.4552672 0.3036309 0.4552672 0.3036309 0.4552672 0.6963691 -0.4552672
202169 0.6774045 -0.4628971 0.3225955 0.4628971 0.3225955 0.4628971 0.6774045 -0.4628971
211427 0.6578338 -0.4698478 0.3421662 0.4698478 0.3421662 0.4698478 0.6578338 -0.4698478
221108 0.6377072 -0.4760600 0.3622928 0.4760600 0.3622928 0.4760600 0.6377072 -0.4760600
231233 0.6170829 -0.4814788 0.3829171 0.4814788 0.3829171 0.4814788 0.6170829 -0.4814788
241822 0.5960257 -0.4860546 0.4039743 0.4860546 0.4039743 0.4860546 0.5960257 -0.4860546
252896 0.5746069 -0.4897446 0.4253931 0.4897446 0.4253931 0.4897446 0.5746069 -0.4897446
264476 0.5529033 -0.4925134 0.4470967 0.4925134 0.4470967 0.4925134 0.5529033 -0.4925134
276587 0.5309960 -0.4943339 0.4690040 0.4943339 0.4690040 0.4943339 0.5309960 -0.4943339
289253 0.5089693 -0.4951883 0.4910307 0.4951883 0.4910307 0.4951883 0.5089693 -0.4951883
302498 0.4869095 -0.4950679 0.5130905 0.4950679 0.5130905 0.4950679 0.4869095 -0.4950679
316350 0.4649033 -0.4939738 0.5350967 0.4939738 0.5350967 0.4939738 0.4649033 -0.4939738
330837 0.4430367 -0.4919167 0.5569633 0.4919167 0.5569633 0.4919167 0.4430367 -0.4919167
345986 0.4213934 -0.4889165 0.5786066 0.4889165 0.5786066 0.4889165 0.4213934 -0.4889165
361830 0.4000538 -0.4850023 0.5999462 0.4850023 0.5999462 0.4850023 0.4000538 -0.4850023
378399 0.3790935 -0.4802111 0.6209065 0.4802111 0.6209065 0.4802111 0.3790935 -0.4802111
395726 0.3585826 -0.4745875 0.6414174 0.4745875 0.6414174 0.4745875 0.3585826 -0.4745875
413847 0.3385847 -0.4681823 0.6614153 0.4681823 0.6614153 0.4681823 0.3385847 -0.4681823
432798 0.3191562 -0.4610517 0.6808438 0.4610517 0.6808438 0.4610517 0.3191562 -0.4610517
452617 0.3003458 -0.4532560 0.6996542 0.4532560 0.6996542 0.4532560 0.3003458 -0.4532560
473344 0.2821948 -0.4448584 0.7178052 0.4448584 0.7178052 0.4448584 0.2821948 -0.4448584
495019 0.2647361 -0.4359242 0.7352639 0.4359242 0.7352639 0.4359242 0.2647361 -0.4359242
517687 0.2479952 -0.4265194 0.7520048 0.4265194 0.7520048 0.4265194 0.2479952 -0.4265194
541393 0.2319900 -0.4167097 0.7680100 0.4167097 0.7680100 0.4167097 0.2319900 -0.4167097
566185 0.2167312 -0.4065598 0.7832688 0.4065598 0.7832688 0.4065598 0.2167312 -0.4065598
592111 0.2022231 -0.3961326 0.7977769 0.3961326 0.7977769 0.3961326 0.2022231 -0.3961326
619225 0.1884637 -0.3854883 0.8115363 0.3854883 0.8115363 0.3854883 0.1884637 -0.3854883
647581 0.1754461 -0.3746842 0.8245539 0.3746842 0.8245539 0.3746842 0.1754461 -0.3746842
677235 0.1631581 -0.3637740 0.8368419 0.3637740 0.8368419 0.3637740 0.1631581 -0.3637740
708247 0.1515837 -0.3528077 0.8484163 0.3528077 0.8484163 0.3528077 0.1515837 -0.3528077
740679 0.1407036 -0.3418314 0.8592964 0.3418314 0.8592964 0.3418314 0.1407036 -0.3418314
774597 0.1304953 -0.3308870 0.8695047 0.3308870 0.8695047 0.3308870 0.1304953 -0.3308870
810067 0.1209344 -0.3200124 0.8790656 0.3200124 0.8790656 0.3200124 0.1209344 -0.3200124
847162 0.1119947 -0.3092416 0.8880053 0.3092416 0.8880053 0.3092416 0.1119947 -0.3092416
885955 0.1036487 -0.2986046 0.8963513 0.2986046 0.8963513 0.2986046 0.1036487 -0.2986046
926525 0.0958683 -0.2881275 0.9041317 0.2881275 0.9041317 0.2881275 0.0958683 -0.2881275
968953 0.0886248 -0.2778332 0.9113752 0.2778332 0.9113752 0.2778332 0.0886248 -0.2778332
1013323 0.0818895 -0.2677410 0.9181105 0.2677410 0.9181105 0.2677410 0.0818895 -0.2677410
1059725 0.0756341 -0.2578671 0.9243659 0.2578671 0.9243659 0.2578671 0.0756341 -0.2578671
1108252 0.0698305 -0.2482250 0.9301695 0.2482250 0.9301695 0.2482250 0.0698305 -0.2482250
1159002 0.0644514 -0.2388254 0.9355486 0.2388254 0.9355486 0.2388254 0.0644514 -0.2388254
1212075 0.0594702 -0.2296766 0.9405298 0.2296766 0.9405298 0.2296766 0.0594702 -0.2296766
1267578 0.0548613 -0.2207848 0.9451387 0.2207848 0.9451387 0.2207848 0.0548613 -0.2207848
1325623 0.0506001 -0.2121542 0.9493999 0.2121542 0.9493999 0.2121542 0.0506001 -0.2121542
1386327 0.0466632 -0.2037875 0.9533368 0.2037875 0.9533368 0.2037875 0.0466632 -0.2037875
1449809 0.0430280 -0.1956855 0.9569720 0.1956855 0.9569720 0.1956855 0.0430280 -0.1956855
1516199 0.0396734 -0.1878479 0.9603266 0.1878479 0.9603266 0.1878479 0.0396734 -0.1878479
1585629 0.0365794 -0.1802732 0.9634206 0.1802732 0.9634206 0.1802732 0.0365794 -0.1802732
1658239 0.0337269 -0.1729588 0.9662731 0.1729588 0.9662731 0.1729588 0.0337269 -0.1729588
1734173 0.0310982 -0.1659012 0.9689018 0.1659012 0.9689018 0.1659012 0.0310982 -0.1659012
1813585 0.0286766 -0.1590965 0.9713234 0.1590965 0.9713234 0.1590965 0.0286766 -0.1590965
1896632 0.0264465 -0.1525397 0.9735535 0.1525397 0.9735535 0.1525397 0.0264465 -0.1525397
1983483 0.0243933 -0.1462256 0.9756067 0.1462256 0.9756067 0.1462256 0.0243933 -0.1462256
2074311 0.0225035 -0.1401486 0.9774965 0.1401486 0.9774965 0.1401486 0.0225035 -0.1401486
