!Murata Part Number: GRM035R60J475ME15
!These Parameters are Measured in Series Mode Connection
!Data Generated on Mar 30, 2021
!       o--ll--o
!Port1            Port2
!       o------o
!Operation Temp=25[degC], DC Bias Voltage=0[V]
!Freq. Start=100[Hz] Stop=6[GHz] 401[Steps]
# Hz S RI R 50
!Freq.(Hz) S11(Real) S11(Imag) S21(Real) S21(Imag) S12(Real) S12(Imag) S22(Real) S22(Imag)
100 0.9568772 -0.1976556 0.0431228 0.1976556 0.0431228 0.1976556 0.9568772 -0.1976556
105 0.9531663 -0.2058031 0.0468337 0.2058031 0.0468337 0.2058031 0.9531663 -0.2058031
109 0.9491496 -0.2142151 0.0508504 0.2142151 0.0508504 0.2142151 0.9491496 -0.2142151
114 0.9448046 -0.2228906 0.0551954 0.2228906 0.0551954 0.2228906 0.9448046 -0.2228906
120 0.9401073 -0.2318268 0.0598927 0.2318268 0.0598927 0.2318268 0.9401073 -0.2318268
125 0.9350326 -0.2410193 0.0649674 0.2410193 0.0649674 0.2410193 0.9350326 -0.2410193
131 0.9295544 -0.2504614 0.0704456 0.2504614 0.0704456 0.2504614 0.9295544 -0.2504614
137 0.9236458 -0.2601442 0.0763542 0.2601442 0.0763542 0.2601442 0.9236458 -0.2601442
143 0.9172789 -0.2700565 0.0827211 0.2700565 0.0827211 0.2700565 0.9172789 -0.2700565
150 0.9104253 -0.2801839 0.0895747 0.2801839 0.0895747 0.2801839 0.9104253 -0.2801839
156 0.9030562 -0.2905095 0.0969438 0.2905095 0.0969438 0.2905095 0.9030562 -0.2905095
164 0.8951427 -0.3010127 0.1048573 0.3010127 0.1048573 0.3010127 0.8951427 -0.3010127
171 0.8866560 -0.3116696 0.1133440 0.3116696 0.1133440 0.3116696 0.8866560 -0.3116696
179 0.8775681 -0.3224527 0.1224319 0.3224527 0.1224319 0.3224527 0.8775681 -0.3224527
187 0.8678516 -0.3333305 0.1321484 0.3333305 0.1321484 0.3333305 0.8678516 -0.3333305
196 0.8574810 -0.3442678 0.1425190 0.3442678 0.1425190 0.3442678 0.8574810 -0.3442678
205 0.8464323 -0.3552250 0.1535677 0.3552250 0.1535677 0.3552250 0.8464323 -0.3552250
214 0.8346843 -0.3661586 0.1653157 0.3661586 0.1653157 0.3661586 0.8346843 -0.3661586
224 0.8222188 -0.3770211 0.1777812 0.3770211 0.1777812 0.3770211 0.8222188 -0.3770211
234 0.8090216 -0.3877613 0.1909784 0.3877613 0.1909784 0.3877613 0.8090216 -0.3877613
245 0.7950825 -0.3983243 0.2049175 0.3983243 0.2049175 0.3983243 0.7950825 -0.3983243
256 0.7803965 -0.4086518 0.2196035 0.4086518 0.2196035 0.4086518 0.7803965 -0.4086518
268 0.7649643 -0.4186832 0.2350357 0.4186832 0.2350357 0.4186832 0.7649643 -0.4186832
280 0.7487929 -0.4283553 0.2512071 0.4283553 0.2512071 0.4283553 0.7487929 -0.4283553
293 0.7318956 -0.4376037 0.2681044 0.4376037 0.2681044 0.4376037 0.7318956 -0.4376037
306 0.7142933 -0.4463635 0.2857067 0.4463635 0.2857067 0.4463635 0.7142933 -0.4463635
320 0.6960142 -0.4545699 0.3039858 0.4545699 0.3039858 0.4545699 0.6960142 -0.4545699
335 0.6770940 -0.4621594 0.3229060 0.4621594 0.3229060 0.4621594 0.6770940 -0.4621594
350 0.6575760 -0.4690710 0.3424240 0.4690710 0.3424240 0.4690710 0.6575760 -0.4690710
366 0.6375113 -0.4752471 0.3624887 0.4752471 0.3624887 0.4752471 0.6375113 -0.4752471
383 0.6169577 -0.4806346 0.3830423 0.4806346 0.3830423 0.4806346 0.6169577 -0.4806346
401 0.5959798 -0.4851860 0.4040202 0.4851860 0.4040202 0.4851860 0.5959798 -0.4851860
419 0.5746482 -0.4888604 0.4253518 0.4888604 0.4253518 0.4888604 0.5746482 -0.4888604
438 0.5530382 -0.4916241 0.4469618 0.4916241 0.4469618 0.4916241 0.5530382 -0.4916241
458 0.5312293 -0.4934518 0.4687707 0.4934518 0.4687707 0.4934518 0.5312293 -0.4934518
479 0.5093039 -0.4943267 0.4906961 0.4943267 0.4906961 0.4943267 0.5093039 -0.4943267
501 0.4873459 -0.4942411 0.5126541 0.4942411 0.5126541 0.4942411 0.4873459 -0.4942411
524 0.4654396 -0.4931964 0.5345604 0.4931964 0.5345604 0.4931964 0.4654396 -0.4931964
548 0.4436683 -0.4912032 0.5563317 0.4912032 0.5563317 0.4912032 0.4436683 -0.4912032
573 0.4221135 -0.4882808 0.5778865 0.4882808 0.5778865 0.4882808 0.4221135 -0.4882808
600 0.4008529 -0.4844571 0.5991471 0.4844571 0.5991471 0.4844571 0.4008529 -0.4844571
627 0.3799602 -0.4797676 0.6200398 0.4797676 0.6200398 0.4797676 0.3799602 -0.4797676
656 0.3595037 -0.4742549 0.6404963 0.4742549 0.6404963 0.4742549 0.3595037 -0.4742549
686 0.3395457 -0.4679676 0.6604543 0.4679676 0.6604543 0.4679676 0.3395457 -0.4679676
717 0.3201415 -0.4609593 0.6798585 0.4609593 0.6798585 0.4609593 0.3201415 -0.4609593
750 0.3013398 -0.4532879 0.6986602 0.4532879 0.6986602 0.4532879 0.3013398 -0.4532879
784 0.2831817 -0.4450142 0.7168183 0.4450142 0.7168183 0.4450142 0.2831817 -0.4450142
820 0.2657007 -0.4362010 0.7342993 0.4362010 0.7342993 0.4362010 0.2657007 -0.4362010
858 0.2489232 -0.4269121 0.7510768 0.4269121 0.7510768 0.4269121 0.2489232 -0.4269121
897 0.2328684 -0.4172114 0.7671316 0.4172114 0.7671316 0.4172114 0.2328684 -0.4172114
938 0.2175487 -0.4071619 0.7824513 0.4071619 0.7824513 0.4071619 0.2175487 -0.4071619
981 0.2029698 -0.3968253 0.7970302 0.3968253 0.7970302 0.3968253 0.2029698 -0.3968253
1026 0.1891319 -0.3862609 0.8108681 0.3862609 0.8108681 0.3862609 0.1891319 -0.3862609
1073 0.1760295 -0.3755254 0.8239705 0.3755254 0.8239705 0.3755254 0.1760295 -0.3755254
1122 0.1636526 -0.3646725 0.8363474 0.3646725 0.8363474 0.3646725 0.1636526 -0.3646725
1174 0.1519868 -0.3537520 0.8480132 0.3537520 0.8480132 0.3537520 0.1519868 -0.3537520
1227 0.1410143 -0.3428105 0.8589857 0.3428105 0.8589857 0.3428105 0.1410143 -0.3428105
1283 0.1307143 -0.3318905 0.8692857 0.3318905 0.8692857 0.3318905 0.1307143 -0.3318905
1342 0.1210634 -0.3210305 0.8789366 0.3210305 0.8789366 0.3210305 0.1210634 -0.3210305
1404 0.1120366 -0.3102655 0.8879634 0.3102655 0.8879634 0.3102655 0.1120366 -0.3102655
1468 0.1036071 -0.2996262 0.8963929 0.2996262 0.8963929 0.2996262 0.1036071 -0.2996262
1535 0.0957476 -0.2891399 0.9042524 0.2891399 0.9042524 0.2891399 0.0957476 -0.2891399
1606 0.0884298 -0.2788303 0.9115702 0.2788303 0.9115702 0.2788303 0.0884298 -0.2788303
1679 0.0816254 -0.2687177 0.9183746 0.2687177 0.9183746 0.2687177 0.0816254 -0.2687177
1756 0.0753062 -0.2588193 0.9246938 0.2588193 0.9246938 0.2588193 0.0753062 -0.2588193
1836 0.0694441 -0.2491493 0.9305559 0.2491493 0.9305559 0.2491493 0.0694441 -0.2491493
1920 0.0640119 -0.2397192 0.9359881 0.2397192 0.9359881 0.2397192 0.0640119 -0.2397192
2008 0.0589827 -0.2305382 0.9410173 0.2305382 0.9410173 0.2305382 0.0589827 -0.2305382
2100 0.0543308 -0.2216130 0.9456692 0.2216130 0.9456692 0.2216130 0.0543308 -0.2216130
2196 0.0500313 -0.2129484 0.9499687 0.2129484 0.9499687 0.2129484 0.0500313 -0.2129484
2297 0.0460605 -0.2045475 0.9539395 0.2045475 0.9539395 0.2045475 0.0460605 -0.2045475
2402 0.0423955 -0.1964116 0.9576045 0.1964116 0.9576045 0.1964116 0.0423955 -0.1964116
2512 0.0390149 -0.1885406 0.9609851 0.1885406 0.9609851 0.1885406 0.0390149 -0.1885406
2627 0.0358982 -0.1809334 0.9641018 0.1809334 0.9641018 0.1809334 0.0358982 -0.1809334
2748 0.0330262 -0.1735876 0.9669738 0.1735876 0.9669738 0.1735876 0.0330262 -0.1735876
2873 0.0303807 -0.1665000 0.9696193 0.1665000 0.9696193 0.1665000 0.0303807 -0.1665000
3005 0.0279448 -0.1596666 0.9720552 0.1596666 0.9720552 0.1596666 0.0279448 -0.1596666
3143 0.0257026 -0.1530826 0.9742974 0.1530826 0.9742974 0.1530826 0.0257026 -0.1530826
3287 0.0236391 -0.1467428 0.9763609 0.1467428 0.9763609 0.1467428 0.0236391 -0.1467428
3437 0.0217407 -0.1406417 0.9782593 0.1406417 0.9782593 0.1406417 0.0217407 -0.1406417
3594 0.0199943 -0.1347731 0.9800057 0.1347731 0.9800057 0.1347731 0.0199943 -0.1347731
3759 0.0183881 -0.1291309 0.9816119 0.1291309 0.9816119 0.1291309 0.0183881 -0.1291309
3931 0.0169110 -0.1237086 0.9830890 0.1237086 0.9830890 0.1237086 0.0169110 -0.1237086
4111 0.0155528 -0.1184996 0.9844472 0.1184996 0.9844472 0.1184996 0.0155528 -0.1184996
4299 0.0143039 -0.1134972 0.9856961 0.1134972 0.9856961 0.1134972 0.0143039 -0.1134972
4496 0.0131557 -0.1086948 0.9868443 0.1086948 0.9868443 0.1086948 0.0131557 -0.1086948
4702 0.0121001 -0.1040856 0.9878999 0.1040856 0.9878999 0.1040856 0.0121001 -0.1040856
4918 0.0111297 -0.0996630 0.9888703 0.0996630 0.9888703 0.0996630 0.0111297 -0.0996630
5143 0.0102376 -0.0954204 0.9897624 0.0954204 0.9897624 0.0954204 0.0102376 -0.0954204
5378 0.0094175 -0.0913515 0.9905825 0.0913515 0.9905825 0.0913515 0.0094175 -0.0913515
5625 0.0086637 -0.0874499 0.9913363 0.0874499 0.9913363 0.0874499 0.0086637 -0.0874499
5882 0.0079708 -0.0837093 0.9920292 0.0837093 0.9920292 0.0837093 0.0079708 -0.0837093
6151 0.0073340 -0.0801237 0.9926660 0.0801237 0.9926660 0.0801237 0.0073340 -0.0801237
6433 0.0067486 -0.0766872 0.9932514 0.0766872 0.9932514 0.0766872 0.0067486 -0.0766872
6728 0.0062107 -0.0733940 0.9937893 0.0733940 0.9937893 0.0733940 0.0062107 -0.0733940
7036 0.0057164 -0.0702387 0.9942836 0.0702387 0.9942836 0.0702387 0.0057164 -0.0702387
7358 0.0052622 -0.0672158 0.9947378 0.0672158 0.9947378 0.0672158 0.0052622 -0.0672158
7695 0.0048448 -0.0643201 0.9951552 0.0643201 0.9951552 0.0643201 0.0048448 -0.0643201
8047 0.0044614 -0.0615466 0.9955386 0.0615466 0.9955386 0.0615466 0.0044614 -0.0615466
8416 0.0041092 -0.0588904 0.9958908 0.0588904 0.9958908 0.0588904 0.0041092 -0.0588904
8801 0.0037857 -0.0563467 0.9962143 0.0563467 0.9962143 0.0563467 0.0037857 -0.0563467
9204 0.0034886 -0.0539110 0.9965114 0.0539110 0.9965114 0.0539110 0.0034886 -0.0539110
9626 0.0032157 -0.0515790 0.9967843 0.0515790 0.9967843 0.0515790 0.0032157 -0.0515790
10066 0.0029652 -0.0493465 0.9970348 0.0493465 0.9970348 0.0493465 0.0029652 -0.0493465
10527 0.0027352 -0.0472093 0.9972648 0.0472093 0.9972648 0.0472093 0.0027352 -0.0472093
11009 0.0025240 -0.0451635 0.9974760 0.0451635 0.9974760 0.0451635 0.0025240 -0.0451635
11514 0.0023301 -0.0432055 0.9976699 0.0432055 0.9976699 0.0432055 0.0023301 -0.0432055
12041 0.0021521 -0.0413315 0.9978479 0.0413315 0.9978479 0.0413315 0.0021521 -0.0413315
12592 0.0019887 -0.0395381 0.9980113 0.0395381 0.9980113 0.0395381 0.0019887 -0.0395381
13169 0.0018387 -0.0378219 0.9981613 0.0378219 0.9981613 0.0378219 0.0018387 -0.0378219
13772 0.0017010 -0.0361796 0.9982990 0.0361796 0.9982990 0.0361796 0.0017010 -0.0361796
14402 0.0015746 -0.0346083 0.9984254 0.0346083 0.9984254 0.0346083 0.0015746 -0.0346083
15062 0.0014585 -0.0331049 0.9985415 0.0331049 0.9985415 0.0331049 0.0014585 -0.0331049
15752 0.0013518 -0.0316665 0.9986482 0.0316665 0.9986482 0.0316665 0.0013518 -0.0316665
16473 0.0012539 -0.0302904 0.9987461 0.0302904 0.9987461 0.0302904 0.0012539 -0.0302904
17227 0.0011639 -0.0289739 0.9988361 0.0289739 0.9988361 0.0289739 0.0011639 -0.0289739
18016 0.0010812 -0.0277145 0.9989188 0.0277145 0.9989188 0.0277145 0.0010812 -0.0277145
18841 0.0010052 -0.0265098 0.9989948 0.0265098 0.9989948 0.0265098 0.0010052 -0.0265098
19704 0.0009352 -0.0253575 0.9990648 0.0253575 0.9990648 0.0253575 0.0009352 -0.0253575
20606 0.0008708 -0.0242552 0.9991292 0.0242552 0.9991292 0.0242552 0.0008708 -0.0242552
21550 0.0008116 -0.0232008 0.9991884 0.0232008 0.9991884 0.0232008 0.0008116 -0.0232008
22537 0.0007570 -0.0221923 0.9992430 0.0221923 0.9992430 0.0221923 0.0007570 -0.0221923
23569 0.0007066 -0.0212277 0.9992934 0.0212277 0.9992934 0.0212277 0.0007066 -0.0212277
24648 0.0006602 -0.0203050 0.9993398 0.0203050 0.9993398 0.0203050 0.0006602 -0.0203050
25777 0.0006173 -0.0194225 0.9993827 0.0194225 0.9993827 0.0194225 0.0006173 -0.0194225
26957 0.0005777 -0.0185785 0.9994223 0.0185785 0.9994223 0.0185785 0.0005777 -0.0185785
28191 0.0005411 -0.0177711 0.9994589 0.0177711 0.9994589 0.0177711 0.0005411 -0.0177711
29482 0.0005072 -0.0169989 0.9994928 0.0169989 0.9994928 0.0169989 0.0005072 -0.0169989
30832 0.0004758 -0.0162603 0.9995242 0.0162603 0.9995242 0.0162603 0.0004758 -0.0162603
32244 0.0004467 -0.0155539 0.9995533 0.0155539 0.9995533 0.0155539 0.0004467 -0.0155539
33721 0.0004196 -0.0148781 0.9995804 0.0148781 0.9995804 0.0148781 0.0004196 -0.0148781
35265 0.0003946 -0.0142318 0.9996054 0.0142318 0.9996054 0.0142318 0.0003946 -0.0142318
36880 0.0003713 -0.0136135 0.9996287 0.0136135 0.9996287 0.0136135 0.0003713 -0.0136135
38569 0.0003496 -0.0130221 0.9996504 0.0130221 0.9996504 0.0130221 0.0003496 -0.0130221
40335 0.0003294 -0.0124564 0.9996706 0.0124564 0.9996706 0.0124564 0.0003294 -0.0124564
42182 0.0003107 -0.0119153 0.9996893 0.0119153 0.9996893 0.0119153 0.0003107 -0.0119153
44113 0.0002932 -0.0113977 0.9997068 0.0113977 0.9997068 0.0113977 0.0002932 -0.0113977
46134 0.0002769 -0.0109025 0.9997231 0.0109025 0.9997231 0.0109025 0.0002769 -0.0109025
48246 0.0002618 -0.0104288 0.9997382 0.0104288 0.9997382 0.0104288 0.0002618 -0.0104288
50455 0.0002476 -0.0099756 0.9997524 0.0099756 0.9997524 0.0099756 0.0002476 -0.0099756
52766 0.0002344 -0.0095421 0.9997656 0.0095421 0.9997656 0.0095421 0.0002344 -0.0095421
55182 0.0002222 -0.0091274 0.9997778 0.0091274 0.9997778 0.0091274 0.0002222 -0.0091274
57709 0.0002107 -0.0087307 0.9997893 0.0087307 0.9997893 0.0087307 0.0002107 -0.0087307
60352 0.0002000 -0.0083512 0.9998000 0.0083512 0.9998000 0.0083512 0.0002000 -0.0083512
63115 0.0001901 -0.0079881 0.9998099 0.0079881 0.9998099 0.0079881 0.0001901 -0.0079881
66005 0.0001808 -0.0076408 0.9998192 0.0076408 0.9998192 0.0076408 0.0001808 -0.0076408
69028 0.0001722 -0.0073086 0.9998278 0.0073086 0.9998278 0.0073086 0.0001722 -0.0073086
72189 0.0001641 -0.0069907 0.9998359 0.0069907 0.9998359 0.0069907 0.0001641 -0.0069907
75495 0.0001566 -0.0066867 0.9998434 0.0066867 0.9998434 0.0066867 0.0001566 -0.0066867
78952 0.0001496 -0.0063958 0.9998504 0.0063958 0.9998504 0.0063958 0.0001496 -0.0063958
82567 0.0001431 -0.0061176 0.9998569 0.0061176 0.9998569 0.0061176 0.0001431 -0.0061176
86348 0.0001370 -0.0058515 0.9998630 0.0058515 0.9998630 0.0058515 0.0001370 -0.0058515
90302 0.0001313 -0.0055969 0.9998687 0.0055969 0.9998687 0.0055969 0.0001313 -0.0055969
94437 0.0001261 -0.0053534 0.9998739 0.0053534 0.9998739 0.0053534 0.0001261 -0.0053534
98762 0.0001211 -0.0051205 0.9998789 0.0051205 0.9998789 0.0051205 0.0001211 -0.0051205
103284 0.0001165 -0.0048977 0.9998835 0.0048977 0.9998835 0.0048977 0.0001165 -0.0048977
108014 0.0001122 -0.0046846 0.9998878 0.0046846 0.9998878 0.0046846 0.0001122 -0.0046846
112960 0.0001082 -0.0044807 0.9998918 0.0044807 0.9998918 0.0044807 0.0001082 -0.0044807
118133 0.0001044 -0.0042858 0.9998956 0.0042858 0.9998956 0.0042858 0.0001044 -0.0042858
123542 0.0001009 -0.0040993 0.9998991 0.0040993 0.9998991 0.0040993 0.0001009 -0.0040993
129199 0.0000976 -0.0039209 0.9999024 0.0039209 0.9999024 0.0039209 0.0000976 -0.0039209
135116 0.0000945 -0.0037504 0.9999055 0.0037504 0.9999055 0.0037504 0.0000945 -0.0037504
141303 0.0000915 -0.0035872 0.9999085 0.0035872 0.9999085 0.0035872 0.0000915 -0.0035872
147774 0.0000887 -0.0034311 0.9999113 0.0034311 0.9999113 0.0034311 0.0000887 -0.0034311
154540 0.0000861 -0.0032818 0.9999139 0.0032818 0.9999139 0.0032818 0.0000861 -0.0032818
161617 0.0000836 -0.0031390 0.9999164 0.0031390 0.9999164 0.0031390 0.0000836 -0.0031390
169018 0.0000813 -0.0030025 0.9999187 0.0030025 0.9999187 0.0030025 0.0000813 -0.0030025
176758 0.0000790 -0.0028718 0.9999210 0.0028718 0.9999210 0.0028718 0.0000790 -0.0028718
184852 0.0000769 -0.0027469 0.9999231 0.0027469 0.9999231 0.0027469 0.0000769 -0.0027469
193316 0.0000749 -0.0026273 0.9999251 0.0026273 0.9999251 0.0026273 0.0000749 -0.0026273
202169 0.0000729 -0.0025129 0.9999271 0.0025129 0.9999271 0.0025129 0.0000729 -0.0025129
211427 0.0000711 -0.0024035 0.9999289 0.0024035 0.9999289 0.0024035 0.0000711 -0.0024035
221108 0.0000693 -0.0022989 0.9999307 0.0022989 0.9999307 0.0022989 0.0000693 -0.0022989
231233 0.0000676 -0.0021987 0.9999324 0.0021987 0.9999324 0.0021987 0.0000676 -0.0021987
241822 0.0000659 -0.0021029 0.9999341 0.0021029 0.9999341 0.0021029 0.0000659 -0.0021029
252896 0.0000644 -0.0020112 0.9999356 0.0020112 0.9999356 0.0020112 0.0000644 -0.0020112
264476 0.0000629 -0.0019235 0.9999371 0.0019235 0.9999371 0.0019235 0.0000629 -0.0019235
276587 0.0000614 -0.0018395 0.9999386 0.0018395 0.9999386 0.0018395 0.0000614 -0.0018395
289253 0.0000601 -0.0017592 0.9999399 0.0017592 0.9999399 0.0017592 0.0000601 -0.0017592
302498 0.0000588 -0.0016823 0.9999412 0.0016823 0.9999412 0.0016823 0.0000588 -0.0016823
316350 0.0000575 -0.0016087 0.9999425 0.0016087 0.9999425 0.0016087 0.0000575 -0.0016087
330837 0.0000563 -0.0015383 0.9999437 0.0015383 0.9999437 0.0015383 0.0000563 -0.0015383
345986 0.0000552 -0.0014709 0.9999448 0.0014709 0.9999448 0.0014709 0.0000552 -0.0014709
361830 0.0000541 -0.0014063 0.9999459 0.0014063 0.9999459 0.0014063 0.0000541 -0.0014063
378399 0.0000530 -0.0013445 0.9999470 0.0013445 0.9999470 0.0013445 0.0000530 -0.0013445
395726 0.0000521 -0.0012854 0.9999479 0.0012854 0.9999479 0.0012854 0.0000521 -0.0012854
413847 0.0000511 -0.0012288 0.9999489 0.0012288 0.9999489 0.0012288 0.0000511 -0.0012288
432798 0.0000503 -0.0011746 0.9999497 0.0011746 0.9999497 0.0011746 0.0000503 -0.0011746
452617 0.0000494 -0.0011227 0.9999506 0.0011227 0.9999506 0.0011227 0.0000494 -0.0011227
473344 0.0000487 -0.0010730 0.9999513 0.0010730 0.9999513 0.0010730 0.0000487 -0.0010730
495019 0.0000479 -0.0010254 0.9999521 0.0010254 0.9999521 0.0010254 0.0000479 -0.0010254
517687 0.0000472 -0.0009798 0.9999528 0.0009798 0.9999528 0.0009798 0.0000472 -0.0009798
541393 0.0000466 -0.0009362 0.9999534 0.0009362 0.9999534 0.0009362 0.0000466 -0.0009362
566185 0.0000460 -0.0008944 0.9999540 0.0008944 0.9999540 0.0008944 0.0000460 -0.0008944
592111 0.0000455 -0.0008543 0.9999545 0.0008543 0.9999545 0.0008543 0.0000455 -0.0008543
619225 0.0000449 -0.0008160 0.9999551 0.0008160 0.9999551 0.0008160 0.0000449 -0.0008160
647581 0.0000445 -0.0007793 0.9999555 0.0007793 0.9999555 0.0007793 0.0000445 -0.0007793
677235 0.0000440 -0.0007441 0.9999560 0.0007441 0.9999560 0.0007441 0.0000440 -0.0007441
708247 0.0000436 -0.0007103 0.9999564 0.0007103 0.9999564 0.0007103 0.0000436 -0.0007103
740679 0.0000432 -0.0006780 0.9999568 0.0006780 0.9999568 0.0006780 0.0000432 -0.0006780
774597 0.0000429 -0.0006470 0.9999571 0.0006470 0.9999571 0.0006470 0.0000429 -0.0006470
810067 0.0000426 -0.0006173 0.9999574 0.0006173 0.9999574 0.0006173 0.0000426 -0.0006173
847162 0.0000423 -0.0005889 0.9999577 0.0005889 0.9999577 0.0005889 0.0000423 -0.0005889
885955 0.0000421 -0.0005616 0.9999579 0.0005616 0.9999579 0.0005616 0.0000421 -0.0005616
926525 0.0000418 -0.0005354 0.9999582 0.0005354 0.9999582 0.0005354 0.0000418 -0.0005354
968953 0.0000416 -0.0005102 0.9999584 0.0005102 0.9999584 0.0005102 0.0000416 -0.0005102
1013323 0.0000415 -0.0004861 0.9999585 0.0004861 0.9999585 0.0004861 0.0000415 -0.0004861
1059725 0.0000413 -0.0004630 0.9999587 0.0004630 0.9999587 0.0004630 0.0000413 -0.0004630
1108252 0.0000412 -0.0004408 0.9999588 0.0004408 0.9999588 0.0004408 0.0000412 -0.0004408
1159002 0.0000411 -0.0004194 0.9999589 0.0004194 0.9999589 0.0004194 0.0000411 -0.0004194
1212075 0.0000410 -0.0003989 0.9999590 0.0003989 0.9999590 0.0003989 0.0000410 -0.0003989
1267578 0.0000409 -0.0003792 0.9999591 0.0003792 0.9999591 0.0003792 0.0000409 -0.0003792
1325623 0.0000408 -0.0003603 0.9999592 0.0003603 0.9999592 0.0003603 0.0000408 -0.0003603
1386327 0.0000408 -0.0003420 0.9999592 0.0003420 0.9999592 0.0003420 0.0000408 -0.0003420
1449809 0.0000408 -0.0003245 0.9999592 0.0003245 0.9999592 0.0003245 0.0000408 -0.0003245
1516199 0.0000408 -0.0003076 0.9999592 0.0003076 0.9999592 0.0003076 0.0000408 -0.0003076
1585629 0.0000408 -0.0002913 0.9999592 0.0002913 0.9999592 0.0002913 0.0000408 -0.0002913
1658239 0.0000409 -0.0002756 0.9999591 0.0002756 0.9999591 0.0002756 0.0000409 -0.0002756
1734173 0.0000410 -0.0002604 0.9999590 0.0002604 0.9999590 0.0002604 0.0000410 -0.0002604
1813585 0.0000411 -0.0002458 0.9999589 0.0002458 0.9999589 0.0002458 0.0000411 -0.0002458
1896632 0.0000412 -0.0002316 0.9999588 0.0002316 0.9999588 0.0002316 0.0000412 -0.0002316
1983483 0.0000413 -0.0002180 0.9999587 0.0002180 0.9999587 0.0002180 0.0000413 -0.0002180
2074311 0.0000415 -0.0002047 0.9999585 0.0002047 0.9999585 0.0002047 0.0000415 -0.0002047
