!Murata Part Number: GRM035C80J225ME01
!These Parameters are Measured in Series Mode Connection
!Data Generated on Mar 30, 2021
!       o--ll--o
!Port1            Port2
!       o------o
!Operation Temp=25[degC], DC Bias Voltage=0[V]
!Freq. Start=100[Hz] Stop=6[GHz] 401[Steps]
# Hz S RI R 50
!Freq.(Hz) S11(Real) S11(Imag) S21(Real) S21(Imag) S12(Real) S12(Imag) S22(Real) S22(Imag)
100 0.9873672 -0.1072451 0.0126328 0.1072451 0.0126328 0.1072451 0.9873672 -0.1072451
105 0.9862461 -0.1119829 0.0137539 0.1119829 0.0137539 0.1119829 0.9862461 -0.1119829
109 0.9850274 -0.1169178 0.0149726 0.1169178 0.0149726 0.1169178 0.9850274 -0.1169178
114 0.9837027 -0.1220565 0.0162973 0.1220565 0.0162973 0.1220565 0.9837027 -0.1220565
120 0.9822631 -0.1274056 0.0177369 0.1274056 0.0177369 0.1274056 0.9822631 -0.1274056
125 0.9806985 -0.1329720 0.0193015 0.1329720 0.0193015 0.1329720 0.9806985 -0.1329720
131 0.9789985 -0.1387620 0.0210015 0.1387620 0.0210015 0.1387620 0.9789985 -0.1387620
137 0.9771515 -0.1447822 0.0228485 0.1447822 0.0228485 0.1447822 0.9771515 -0.1447822
143 0.9751450 -0.1510388 0.0248550 0.1510388 0.0248550 0.1510388 0.9751450 -0.1510388
150 0.9729658 -0.1575377 0.0270342 0.1575377 0.0270342 0.1575377 0.9729658 -0.1575377
156 0.9705993 -0.1642845 0.0294007 0.1642845 0.0294007 0.1642845 0.9705993 -0.1642845
164 0.9680303 -0.1712842 0.0319697 0.1712842 0.0319697 0.1712842 0.9680303 -0.1712842
171 0.9652421 -0.1785413 0.0347579 0.1785413 0.0347579 0.1785413 0.9652421 -0.1785413
179 0.9622171 -0.1860596 0.0377829 0.1860596 0.0377829 0.1860596 0.9622171 -0.1860596
187 0.9589363 -0.1938420 0.0410637 0.1938420 0.0410637 0.1938420 0.9589363 -0.1938420
196 0.9553799 -0.2018905 0.0446201 0.2018905 0.0446201 0.2018905 0.9553799 -0.2018905
205 0.9515266 -0.2102057 0.0484734 0.2102057 0.0484734 0.2102057 0.9515266 -0.2102057
214 0.9473539 -0.2187872 0.0526461 0.2187872 0.0526461 0.2187872 0.9473539 -0.2187872
224 0.9428383 -0.2276328 0.0571617 0.2276328 0.0571617 0.2276328 0.9428383 -0.2276328
234 0.9379550 -0.2367387 0.0620450 0.2367387 0.0620450 0.2367387 0.9379550 -0.2367387
245 0.9326785 -0.2460992 0.0673215 0.2460992 0.0673215 0.2460992 0.9326785 -0.2460992
256 0.9269819 -0.2557062 0.0730181 0.2557062 0.0730181 0.2557062 0.9269819 -0.2557062
268 0.9208377 -0.2655494 0.0791623 0.2655494 0.0791623 0.2655494 0.9208377 -0.2655494
280 0.9142177 -0.2756158 0.0857823 0.2756158 0.0857823 0.2756158 0.9142177 -0.2756158
293 0.9070933 -0.2858894 0.0929067 0.2858894 0.0929067 0.2858894 0.9070933 -0.2858894
306 0.8994355 -0.2963513 0.1005645 0.2963513 0.1005645 0.2963513 0.8994355 -0.2963513
320 0.8912155 -0.3069789 0.1087845 0.3069789 0.1087845 0.3069789 0.8912155 -0.3069789
335 0.8824049 -0.3177464 0.1175951 0.3177464 0.1175951 0.3177464 0.8824049 -0.3177464
350 0.8729759 -0.3286241 0.1270241 0.3286241 0.1270241 0.3286241 0.8729759 -0.3286241
366 0.8629022 -0.3395783 0.1370978 0.3395783 0.1370978 0.3395783 0.8629022 -0.3395783
383 0.8521590 -0.3505714 0.1478410 0.3505714 0.1478410 0.3505714 0.8521590 -0.3505714
401 0.8407239 -0.3615618 0.1592761 0.3615618 0.1592761 0.3615618 0.8407239 -0.3615618
419 0.8285771 -0.3725039 0.1714229 0.3725039 0.1714229 0.3725039 0.8285771 -0.3725039
438 0.8157025 -0.3833482 0.1842975 0.3833482 0.1842975 0.3833482 0.8157025 -0.3833482
458 0.8020877 -0.3940413 0.1979123 0.3940413 0.1979123 0.3940413 0.8020877 -0.3940413
479 0.7877253 -0.4045268 0.2122747 0.4045268 0.2122747 0.4045268 0.7877253 -0.4045268
501 0.7726131 -0.4147449 0.2273869 0.4147449 0.2273869 0.4147449 0.7726131 -0.4147449
524 0.7567546 -0.4246335 0.2432454 0.4246335 0.2432454 0.4246335 0.7567546 -0.4246335
548 0.7401600 -0.4341289 0.2598400 0.4341289 0.2598400 0.4341289 0.7401600 -0.4341289
573 0.7228463 -0.4431659 0.2771537 0.4431659 0.2771537 0.4431659 0.7228463 -0.4431659
600 0.7048377 -0.4516793 0.2951623 0.4516793 0.2951623 0.4516793 0.7048377 -0.4516793
627 0.6861661 -0.4596047 0.3138339 0.4596047 0.3138339 0.4596047 0.6861661 -0.4596047
656 0.6668710 -0.4668794 0.3331290 0.4668794 0.3331290 0.4668794 0.6668710 -0.4668794
686 0.6469994 -0.4734433 0.3530006 0.4734433 0.3530006 0.4734433 0.6469994 -0.4734433
717 0.6266057 -0.4792405 0.3733943 0.4792405 0.3733943 0.4792405 0.6266057 -0.4792405
750 0.6057514 -0.4842198 0.3942486 0.4842198 0.3942486 0.4842198 0.6057514 -0.4842198
784 0.5845042 -0.4883363 0.4154958 0.4883363 0.4154958 0.4883363 0.5845042 -0.4883363
820 0.5629376 -0.4915517 0.4370624 0.4915517 0.4370624 0.4915517 0.5629376 -0.4915517
858 0.5411297 -0.4938357 0.4588703 0.4938357 0.4588703 0.4938357 0.5411297 -0.4938357
897 0.5191623 -0.4951665 0.4808377 0.4951665 0.4808377 0.4951665 0.5191623 -0.4951665
938 0.4971195 -0.4955310 0.5028805 0.4955310 0.5028805 0.4955310 0.4971195 -0.4955310
981 0.4750866 -0.4949256 0.5249134 0.4949256 0.5249134 0.4949256 0.4750866 -0.4949256
1026 0.4531489 -0.4933559 0.5468511 0.4933559 0.5468511 0.4933559 0.4531489 -0.4933559
1073 0.4313904 -0.4908368 0.5686096 0.4908368 0.5686096 0.4908368 0.4313904 -0.4908368
1122 0.4098920 -0.4873921 0.5901080 0.4873921 0.5901080 0.4873921 0.4098920 -0.4873921
1174 0.3887312 -0.4830539 0.6112688 0.4830539 0.6112688 0.4830539 0.3887312 -0.4830539
1227 0.3679803 -0.4778620 0.6320197 0.4778620 0.6320197 0.4778620 0.3679803 -0.4778620
1283 0.3477061 -0.4718629 0.6522939 0.4718629 0.6522939 0.4718629 0.3477061 -0.4718629
1342 0.3279685 -0.4651092 0.6720315 0.4651092 0.6720315 0.4651092 0.3279685 -0.4651092
1404 0.3088206 -0.4576581 0.6911794 0.4576581 0.6911794 0.4576581 0.3088206 -0.4576581
1468 0.2903078 -0.4495704 0.7096922 0.4495704 0.7096922 0.4495704 0.2903078 -0.4495704
1535 0.2724679 -0.4409096 0.7275321 0.4409096 0.7275321 0.4409096 0.2724679 -0.4409096
1606 0.2553309 -0.4317409 0.7446691 0.4317409 0.7446691 0.4317409 0.2553309 -0.4317409
1679 0.2389195 -0.4221297 0.7610805 0.4221297 0.7610805 0.4221297 0.2389195 -0.4221297
1756 0.2232489 -0.4121411 0.7767511 0.4121411 0.7767511 0.4121411 0.2232489 -0.4121411
1836 0.2083275 -0.4018390 0.7916725 0.4018390 0.7916725 0.4018390 0.2083275 -0.4018390
1920 0.1941574 -0.3912851 0.8058426 0.3912851 0.8058426 0.3912851 0.1941574 -0.3912851
2008 0.1807347 -0.3805386 0.8192653 0.3805386 0.8192653 0.3805386 0.1807347 -0.3805386
2100 0.1680506 -0.3696555 0.8319494 0.3696555 0.8319494 0.3696555 0.1680506 -0.3696555
2196 0.1560916 -0.3586883 0.8439084 0.3586883 0.8439084 0.3586883 0.1560916 -0.3586883
2297 0.1448402 -0.3476856 0.8551598 0.3476856 0.8551598 0.3476856 0.1448402 -0.3476856
2402 0.1342759 -0.3366922 0.8657241 0.3366922 0.8657241 0.3366922 0.1342759 -0.3366922
2512 0.1243752 -0.3257486 0.8756248 0.3257486 0.8756248 0.3257486 0.1243752 -0.3257486
2627 0.1151128 -0.3148914 0.8848872 0.3148914 0.8848872 0.3148914 0.1151128 -0.3148914
2748 0.1064617 -0.3041531 0.8935383 0.3041531 0.8935383 0.3041531 0.1064617 -0.3041531
2873 0.0983939 -0.2935625 0.9016061 0.2935625 0.9016061 0.2935625 0.0983939 -0.2935625
3005 0.0908806 -0.2831443 0.9091194 0.2831443 0.9091194 0.2831443 0.0908806 -0.2831443
3143 0.0838928 -0.2729200 0.9161072 0.2729200 0.9161072 0.2729200 0.0838928 -0.2729200
3287 0.0774016 -0.2629077 0.9225984 0.2629077 0.9225984 0.2629077 0.0774016 -0.2629077
3437 0.0713784 -0.2531224 0.9286216 0.2531224 0.9286216 0.2531224 0.0713784 -0.2531224
3594 0.0657952 -0.2435762 0.9342048 0.2435762 0.9342048 0.2435762 0.0657952 -0.2435762
3759 0.0606245 -0.2342787 0.9393755 0.2342787 0.9393755 0.2342787 0.0606245 -0.2342787
3931 0.0558401 -0.2252372 0.9441599 0.2252372 0.9441599 0.2252372 0.0558401 -0.2252372
4111 0.0514164 -0.2164568 0.9485836 0.2164568 0.9485836 0.2164568 0.0514164 -0.2164568
4299 0.0473292 -0.2079408 0.9526708 0.2079408 0.9526708 0.2079408 0.0473292 -0.2079408
4496 0.0435554 -0.1996907 0.9564446 0.1996907 0.9564446 0.1996907 0.0435554 -0.1996907
4702 0.0400728 -0.1917068 0.9599272 0.1917068 0.9599272 0.1917068 0.0400728 -0.1917068
4918 0.0368609 -0.1839879 0.9631391 0.1839879 0.9631391 0.1839879 0.0368609 -0.1839879
5143 0.0338999 -0.1765318 0.9661001 0.1765318 0.9661001 0.1765318 0.0338999 -0.1765318
5378 0.0311715 -0.1693354 0.9688285 0.1693354 0.9688285 0.1693354 0.0311715 -0.1693354
5625 0.0286584 -0.1623948 0.9713416 0.1623948 0.9713416 0.1623948 0.0286584 -0.1623948
5882 0.0263445 -0.1557054 0.9736555 0.1557054 0.9736555 0.1557054 0.0263445 -0.1557054
6151 0.0242147 -0.1492621 0.9757853 0.1492621 0.9757853 0.1492621 0.0242147 -0.1492621
6433 0.0222550 -0.1430593 0.9777450 0.1430593 0.9777450 0.1430593 0.0222550 -0.1430593
6728 0.0204523 -0.1370912 0.9795477 0.1370912 0.9795477 0.1370912 0.0204523 -0.1370912
7036 0.0187946 -0.1313516 0.9812054 0.1313516 0.9812054 0.1313516 0.0187946 -0.1313516
7358 0.0172704 -0.1258342 0.9827296 0.1258342 0.9827296 0.1258342 0.0172704 -0.1258342
7695 0.0158694 -0.1205325 0.9841306 0.1205325 0.9841306 0.1205325 0.0158694 -0.1205325
8047 0.0145820 -0.1154400 0.9854180 0.1154400 0.9854180 0.1154400 0.0145820 -0.1154400
8416 0.0133992 -0.1105501 0.9866008 0.1105501 0.9866008 0.1105501 0.0133992 -0.1105501
8801 0.0123126 -0.1058561 0.9876874 0.1058561 0.9876874 0.1058561 0.0123126 -0.1058561
9204 0.0113147 -0.1013516 0.9886853 0.1013516 0.9886853 0.1013516 0.0113147 -0.1013516
9626 0.0103985 -0.0970301 0.9896015 0.0970301 0.9896015 0.0970301 0.0103985 -0.0970301
10066 0.0095573 -0.0928852 0.9904427 0.0928852 0.9904427 0.0928852 0.0095573 -0.0928852
10527 0.0087851 -0.0889106 0.9912149 0.0889106 0.9912149 0.0889106 0.0087851 -0.0889106
11009 0.0080764 -0.0851001 0.9919236 0.0851001 0.9919236 0.0851001 0.0080764 -0.0851001
11514 0.0074261 -0.0814477 0.9925739 0.0814477 0.9925739 0.0814477 0.0074261 -0.0814477
12041 0.0068294 -0.0779474 0.9931706 0.0779474 0.9931706 0.0779474 0.0068294 -0.0779474
12592 0.0062819 -0.0745936 0.9937181 0.0745936 0.9937181 0.0745936 0.0062819 -0.0745936
13169 0.0057797 -0.0713805 0.9942203 0.0713805 0.9942203 0.0713805 0.0057797 -0.0713805
13772 0.0053190 -0.0683028 0.9946810 0.0683028 0.9946810 0.0683028 0.0053190 -0.0683028
14402 0.0048964 -0.0653551 0.9951036 0.0653551 0.9951036 0.0653551 0.0048964 -0.0653551
15062 0.0045087 -0.0625324 0.9954913 0.0625324 0.9954913 0.0625324 0.0045087 -0.0625324
15752 0.0041532 -0.0598296 0.9958468 0.0598296 0.9958468 0.0598296 0.0041532 -0.0598296
16473 0.0038270 -0.0572420 0.9961730 0.0572420 0.9961730 0.0572420 0.0038270 -0.0572420
17227 0.0035279 -0.0547648 0.9964721 0.0547648 0.9964721 0.0547648 0.0035279 -0.0547648
18016 0.0032534 -0.0523936 0.9967466 0.0523936 0.9967466 0.0523936 0.0032534 -0.0523936
18841 0.0030015 -0.0501241 0.9969985 0.0501241 0.9969985 0.0501241 0.0030015 -0.0501241
19704 0.0027704 -0.0479519 0.9972296 0.0479519 0.9972296 0.0479519 0.0027704 -0.0479519
20606 0.0025583 -0.0458732 0.9974417 0.0458732 0.9974417 0.0458732 0.0025583 -0.0458732
21550 0.0023636 -0.0438841 0.9976364 0.0438841 0.9976364 0.0438841 0.0023636 -0.0438841
22537 0.0021847 -0.0419806 0.9978153 0.0419806 0.9978153 0.0419806 0.0021847 -0.0419806
23569 0.0020205 -0.0401594 0.9979795 0.0401594 0.9979795 0.0401594 0.0020205 -0.0401594
24648 0.0018695 -0.0384168 0.9981305 0.0384168 0.9981305 0.0384168 0.0018695 -0.0384168
25777 0.0017308 -0.0367495 0.9982692 0.0367495 0.9982692 0.0367495 0.0017308 -0.0367495
26957 0.0016032 -0.0351544 0.9983968 0.0351544 0.9983968 0.0351544 0.0016032 -0.0351544
28191 0.0014858 -0.0336284 0.9985142 0.0336284 0.9985142 0.0336284 0.0014858 -0.0336284
29482 0.0013778 -0.0321685 0.9986222 0.0321685 0.9986222 0.0321685 0.0013778 -0.0321685
30832 0.0012784 -0.0307718 0.9987216 0.0307718 0.9987216 0.0307718 0.0012784 -0.0307718
32244 0.0011867 -0.0294356 0.9988133 0.0294356 0.9988133 0.0294356 0.0011867 -0.0294356
33721 0.0011023 -0.0281574 0.9988977 0.0281574 0.9988977 0.0281574 0.0011023 -0.0281574
35265 0.0010244 -0.0269345 0.9989756 0.0269345 0.9989756 0.0269345 0.0010244 -0.0269345
36880 0.0009526 -0.0257647 0.9990474 0.0257647 0.9990474 0.0257647 0.0009526 -0.0257647
38569 0.0008863 -0.0246456 0.9991137 0.0246456 0.9991137 0.0246456 0.0008863 -0.0246456
40335 0.0008251 -0.0235751 0.9991749 0.0235751 0.9991749 0.0235751 0.0008251 -0.0235751
42182 0.0007686 -0.0225509 0.9992314 0.0225509 0.9992314 0.0225509 0.0007686 -0.0225509
44113 0.0007163 -0.0215711 0.9992837 0.0215711 0.9992837 0.0215711 0.0007163 -0.0215711
46134 0.0006681 -0.0206338 0.9993319 0.0206338 0.9993319 0.0206338 0.0006681 -0.0206338
48246 0.0006235 -0.0197371 0.9993765 0.0197371 0.9993765 0.0197371 0.0006235 -0.0197371
50455 0.0005822 -0.0188793 0.9994178 0.0188793 0.9994178 0.0188793 0.0005822 -0.0188793
52766 0.0005441 -0.0180587 0.9994559 0.0180587 0.9994559 0.0180587 0.0005441 -0.0180587
55182 0.0005088 -0.0172736 0.9994912 0.0172736 0.9994912 0.0172736 0.0005088 -0.0172736
57709 0.0004761 -0.0165226 0.9995239 0.0165226 0.9995239 0.0165226 0.0004761 -0.0165226
60352 0.0004460 -0.0158041 0.9995540 0.0158041 0.9995540 0.0158041 0.0004460 -0.0158041
63115 0.0004180 -0.0151167 0.9995820 0.0151167 0.9995820 0.0151167 0.0004180 -0.0151167
66005 0.0003922 -0.0144592 0.9996078 0.0144592 0.9996078 0.0144592 0.0003922 -0.0144592
69028 0.0003683 -0.0138302 0.9996317 0.0138302 0.9996317 0.0138302 0.0003683 -0.0138302
72189 0.0003463 -0.0132284 0.9996537 0.0132284 0.9996537 0.0132284 0.0003463 -0.0132284
75495 0.0003258 -0.0126528 0.9996742 0.0126528 0.9996742 0.0126528 0.0003258 -0.0126528
78952 0.0003070 -0.0121022 0.9996930 0.0121022 0.9996930 0.0121022 0.0003070 -0.0121022
82567 0.0002895 -0.0115754 0.9997105 0.0115754 0.9997105 0.0115754 0.0002895 -0.0115754
86348 0.0002733 -0.0110716 0.9997267 0.0110716 0.9997267 0.0110716 0.0002733 -0.0110716
90302 0.0002584 -0.0105897 0.9997416 0.0105897 0.9997416 0.0105897 0.0002584 -0.0105897
94437 0.0002446 -0.0101287 0.9997554 0.0101287 0.9997554 0.0101287 0.0002446 -0.0101287
98762 0.0002318 -0.0096877 0.9997682 0.0096877 0.9997682 0.0096877 0.0002318 -0.0096877
103284 0.0002200 -0.0092660 0.9997800 0.0092660 0.9997800 0.0092660 0.0002200 -0.0092660
108014 0.0002090 -0.0088626 0.9997910 0.0088626 0.9997910 0.0088626 0.0002090 -0.0088626
112960 0.0001988 -0.0084767 0.9998012 0.0084767 0.9998012 0.0084767 0.0001988 -0.0084767
118133 0.0001894 -0.0081077 0.9998106 0.0081077 0.9998106 0.0081077 0.0001894 -0.0081077
123542 0.0001807 -0.0077548 0.9998193 0.0077548 0.9998193 0.0077548 0.0001807 -0.0077548
129199 0.0001726 -0.0074172 0.9998274 0.0074172 0.9998274 0.0074172 0.0001726 -0.0074172
135116 0.0001650 -0.0070944 0.9998350 0.0070944 0.9998350 0.0070944 0.0001650 -0.0070944
141303 0.0001580 -0.0067856 0.9998420 0.0067856 0.9998420 0.0067856 0.0001580 -0.0067856
147774 0.0001515 -0.0064903 0.9998485 0.0064903 0.9998485 0.0064903 0.0001515 -0.0064903
154540 0.0001454 -0.0062079 0.9998546 0.0062079 0.9998546 0.0062079 0.0001454 -0.0062079
161617 0.0001397 -0.0059378 0.9998603 0.0059378 0.9998603 0.0059378 0.0001397 -0.0059378
169018 0.0001343 -0.0056794 0.9998657 0.0056794 0.9998657 0.0056794 0.0001343 -0.0056794
176758 0.0001293 -0.0054323 0.9998707 0.0054323 0.9998707 0.0054323 0.0001293 -0.0054323
184852 0.0001246 -0.0051960 0.9998754 0.0051960 0.9998754 0.0051960 0.0001246 -0.0051960
193316 0.0001202 -0.0049700 0.9998798 0.0049700 0.9998798 0.0049700 0.0001202 -0.0049700
202169 0.0001160 -0.0047539 0.9998840 0.0047539 0.9998840 0.0047539 0.0001160 -0.0047539
211427 0.0001120 -0.0045471 0.9998880 0.0045471 0.9998880 0.0045471 0.0001120 -0.0045471
221108 0.0001083 -0.0043494 0.9998917 0.0043494 0.9998917 0.0043494 0.0001083 -0.0043494
231233 0.0001048 -0.0041602 0.9998952 0.0041602 0.9998952 0.0041602 0.0001048 -0.0041602
241822 0.0001014 -0.0039793 0.9998986 0.0039793 0.9998986 0.0039793 0.0001014 -0.0039793
252896 0.0000982 -0.0038062 0.9999018 0.0038062 0.9999018 0.0038062 0.0000982 -0.0038062
264476 0.0000952 -0.0036406 0.9999048 0.0036406 0.9999048 0.0036406 0.0000952 -0.0036406
276587 0.0000923 -0.0034823 0.9999077 0.0034823 0.9999077 0.0034823 0.0000923 -0.0034823
289253 0.0000895 -0.0033307 0.9999105 0.0033307 0.9999105 0.0033307 0.0000895 -0.0033307
302498 0.0000869 -0.0031858 0.9999131 0.0031858 0.9999131 0.0031858 0.0000869 -0.0031858
316350 0.0000844 -0.0030471 0.9999156 0.0030471 0.9999156 0.0030471 0.0000844 -0.0030471
330837 0.0000820 -0.0029144 0.9999180 0.0029144 0.9999180 0.0029144 0.0000820 -0.0029144
345986 0.0000797 -0.0027874 0.9999203 0.0027874 0.9999203 0.0027874 0.0000797 -0.0027874
361830 0.0000776 -0.0026659 0.9999224 0.0026659 0.9999224 0.0026659 0.0000776 -0.0026659
378399 0.0000755 -0.0025496 0.9999245 0.0025496 0.9999245 0.0025496 0.0000755 -0.0025496
395726 0.0000736 -0.0024384 0.9999264 0.0024384 0.9999264 0.0024384 0.0000736 -0.0024384
413847 0.0000717 -0.0023319 0.9999283 0.0023319 0.9999283 0.0023319 0.0000717 -0.0023319
432798 0.0000700 -0.0022300 0.9999300 0.0022300 0.9999300 0.0022300 0.0000700 -0.0022300
452617 0.0000683 -0.0021325 0.9999317 0.0021325 0.9999317 0.0021325 0.0000683 -0.0021325
473344 0.0000667 -0.0020392 0.9999333 0.0020392 0.9999333 0.0020392 0.0000667 -0.0020392
495019 0.0000653 -0.0019499 0.9999347 0.0019499 0.9999347 0.0019499 0.0000653 -0.0019499
517687 0.0000639 -0.0018645 0.9999361 0.0018645 0.9999361 0.0018645 0.0000639 -0.0018645
541393 0.0000626 -0.0017827 0.9999374 0.0017827 0.9999374 0.0017827 0.0000626 -0.0017827
566185 0.0000613 -0.0017044 0.9999387 0.0017044 0.9999387 0.0017044 0.0000613 -0.0017044
592111 0.0000602 -0.0016295 0.9999398 0.0016295 0.9999398 0.0016295 0.0000602 -0.0016295
619225 0.0000591 -0.0015578 0.9999409 0.0015578 0.9999409 0.0015578 0.0000591 -0.0015578
647581 0.0000581 -0.0014891 0.9999419 0.0014891 0.9999419 0.0014891 0.0000581 -0.0014891
677235 0.0000572 -0.0014234 0.9999428 0.0014234 0.9999428 0.0014234 0.0000572 -0.0014234
708247 0.0000563 -0.0013605 0.9999437 0.0013605 0.9999437 0.0013605 0.0000563 -0.0013605
740679 0.0000555 -0.0013003 0.9999445 0.0013003 0.9999445 0.0013003 0.0000555 -0.0013003
774597 0.0000547 -0.0012427 0.9999453 0.0012427 0.9999453 0.0012427 0.0000547 -0.0012427
810067 0.0000540 -0.0011875 0.9999460 0.0011875 0.9999460 0.0011875 0.0000540 -0.0011875
847162 0.0000534 -0.0011347 0.9999466 0.0011347 0.9999466 0.0011347 0.0000534 -0.0011347
885955 0.0000528 -0.0010841 0.9999472 0.0010841 0.9999472 0.0010841 0.0000528 -0.0010841
926525 0.0000522 -0.0010357 0.9999478 0.0010357 0.9999478 0.0010357 0.0000522 -0.0010357
968953 0.0000517 -0.0009893 0.9999483 0.0009893 0.9999483 0.0009893 0.0000517 -0.0009893
1013323 0.0000512 -0.0009449 0.9999488 0.0009449 0.9999488 0.0009449 0.0000512 -0.0009449
1059725 0.0000508 -0.0009024 0.9999492 0.0009024 0.9999492 0.0009024 0.0000508 -0.0009024
1108252 0.0000504 -0.0008616 0.9999496 0.0008616 0.9999496 0.0008616 0.0000504 -0.0008616
1159002 0.0000501 -0.0008226 0.9999499 0.0008226 0.9999499 0.0008226 0.0000501 -0.0008226
1212075 0.0000498 -0.0007852 0.9999502 0.0007852 0.9999502 0.0007852 0.0000498 -0.0007852
1267578 0.0000495 -0.0007494 0.9999505 0.0007494 0.9999505 0.0007494 0.0000495 -0.0007494
1325623 0.0000492 -0.0007151 0.9999508 0.0007151 0.9999508 0.0007151 0.0000492 -0.0007151
1386327 0.0000490 -0.0006822 0.9999510 0.0006822 0.9999510 0.0006822 0.0000490 -0.0006822
1449809 0.0000488 -0.0006507 0.9999512 0.0006507 0.9999512 0.0006507 0.0000488 -0.0006507
1516199 0.0000486 -0.0006204 0.9999514 0.0006204 0.9999514 0.0006204 0.0000486 -0.0006204
1585629 0.0000484 -0.0005914 0.9999516 0.0005914 0.9999516 0.0005914 0.0000484 -0.0005914
1658239 0.0000483 -0.0005636 0.9999517 0.0005636 0.9999517 0.0005636 0.0000483 -0.0005636
1734173 0.0000482 -0.0005369 0.9999518 0.0005369 0.9999518 0.0005369 0.0000482 -0.0005369
1813585 0.0000481 -0.0005113 0.9999519 0.0005113 0.9999519 0.0005113 0.0000481 -0.0005113
1896632 0.0000480 -0.0004867 0.9999520 0.0004867 0.9999520 0.0004867 0.0000480 -0.0004867
1983483 0.0000480 -0.0004631 0.9999520 0.0004631 0.9999520 0.0004631 0.0000480 -0.0004631
2074311 0.0000479 -0.0004404 0.9999521 0.0004404 0.9999521 0.0004404 0.0000479 -0.0004404
