!Murata Part Number: GRM033R60J225ME01
!These Parameters are Measured in Series Mode Connection
!Data Generated on Mar 30, 2021
!       o--ll--o
!Port1            Port2
!       o------o
!Operation Temp=25[degC], DC Bias Voltage=0[V]
!Freq. Start=100[Hz] Stop=6[GHz] 401[Steps]
# Hz S RI R 50
!Freq.(Hz) S11(Real) S11(Imag) S21(Real) S21(Imag) S12(Real) S12(Imag) S22(Real) S22(Imag)
100 0.9881429 -0.1031379 0.0118571 0.1031379 0.0118571 0.1031379 0.9881429 -0.1031379
105 0.9870971 -0.1076964 0.0129029 0.1076964 0.0129029 0.1076964 0.9870971 -0.1076964
109 0.9859607 -0.1124454 0.0140393 0.1124454 0.0140393 0.1124454 0.9859607 -0.1124454
114 0.9847261 -0.1173916 0.0152739 0.1173916 0.0152739 0.1173916 0.9847261 -0.1173916
120 0.9833847 -0.1225416 0.0166153 0.1225416 0.0166153 0.1225416 0.9833847 -0.1225416
125 0.9819276 -0.1279022 0.0180724 0.1279022 0.0180724 0.1279022 0.9819276 -0.1279022
131 0.9803446 -0.1334799 0.0196554 0.1334799 0.0196554 0.1334799 0.9803446 -0.1334799
137 0.9786252 -0.1392815 0.0213748 0.1392815 0.0213748 0.1392815 0.9786252 -0.1392815
143 0.9767578 -0.1453131 0.0232422 0.1453131 0.0232422 0.1453131 0.9767578 -0.1453131
150 0.9747298 -0.1515811 0.0252702 0.1515811 0.0252702 0.1515811 0.9747298 -0.1515811
156 0.9725277 -0.1580912 0.0274723 0.1580912 0.0274723 0.1580912 0.9725277 -0.1580912
164 0.9701372 -0.1648489 0.0298628 0.1648489 0.0298628 0.1648489 0.9701372 -0.1648489
171 0.9675427 -0.1718591 0.0324573 0.1718591 0.0324573 0.1718591 0.9675427 -0.1718591
179 0.9647275 -0.1791264 0.0352725 0.1791264 0.0352725 0.1791264 0.9647275 -0.1791264
187 0.9616739 -0.1866541 0.0383261 0.1866541 0.0383261 0.1866541 0.9616739 -0.1866541
196 0.9583629 -0.1944452 0.0416371 0.1944452 0.0416371 0.1944452 0.9583629 -0.1944452
205 0.9547746 -0.2025013 0.0452254 0.2025013 0.0452254 0.2025013 0.9547746 -0.2025013
214 0.9508875 -0.2108230 0.0491125 0.2108230 0.0491125 0.2108230 0.9508875 -0.2108230
224 0.9466793 -0.2194095 0.0533207 0.2194095 0.0533207 0.2194095 0.9466793 -0.2194095
234 0.9421265 -0.2282585 0.0578735 0.2282585 0.0578735 0.2282585 0.9421265 -0.2282585
245 0.9372042 -0.2373658 0.0627958 0.2373658 0.0627958 0.2373658 0.9372042 -0.2373658
256 0.9318869 -0.2467254 0.0681131 0.2467254 0.0681131 0.2467254 0.9318869 -0.2467254
268 0.9261480 -0.2563291 0.0738520 0.2563291 0.0738520 0.2563291 0.9261480 -0.2563291
280 0.9199600 -0.2661660 0.0800400 0.2661660 0.0800400 0.2661660 0.9199600 -0.2661660
293 0.9132949 -0.2762230 0.0867051 0.2762230 0.0867051 0.2762230 0.9132949 -0.2762230
306 0.9061243 -0.2864837 0.0938757 0.2864837 0.0938757 0.2864837 0.9061243 -0.2864837
320 0.8984195 -0.2969289 0.1015805 0.2969289 0.1015805 0.2969289 0.8984195 -0.2969289
335 0.8901520 -0.3075358 0.1098480 0.3075358 0.1098480 0.3075358 0.8901520 -0.3075358
350 0.8812939 -0.3182782 0.1187061 0.3182782 0.1187061 0.3182782 0.8812939 -0.3182782
366 0.8718178 -0.3291261 0.1281822 0.3291261 0.1281822 0.3291261 0.8718178 -0.3291261
383 0.8616978 -0.3400459 0.1383022 0.3400459 0.1383022 0.3400459 0.8616978 -0.3400459
401 0.8509099 -0.3509997 0.1490901 0.3509997 0.1490901 0.3509997 0.8509099 -0.3509997
419 0.8394320 -0.3619458 0.1605680 0.3619458 0.1605680 0.3619458 0.8394320 -0.3619458
438 0.8272451 -0.3728388 0.1727549 0.3728388 0.1727549 0.3728388 0.8272451 -0.3728388
458 0.8143336 -0.3836291 0.1856664 0.3836291 0.1856664 0.3836291 0.8143336 -0.3836291
479 0.8006861 -0.3942637 0.1993139 0.3942637 0.1993139 0.3942637 0.8006861 -0.3942637
501 0.7862955 -0.4046864 0.2137045 0.4046864 0.2137045 0.4046864 0.7862955 -0.4046864
524 0.7711602 -0.4148379 0.2288398 0.4148379 0.2288398 0.4148379 0.7711602 -0.4148379
548 0.7552846 -0.4246567 0.2447154 0.4246567 0.2447154 0.4246567 0.7552846 -0.4246567
573 0.7386792 -0.4340795 0.2613208 0.4340795 0.2613208 0.4340795 0.7386792 -0.4340795
600 0.7213613 -0.4430420 0.2786387 0.4430420 0.2786387 0.4430420 0.7213613 -0.4430420
627 0.7033557 -0.4514798 0.2966443 0.4514798 0.2966443 0.4514798 0.7033557 -0.4514798
656 0.6846943 -0.4593292 0.3153057 0.4593292 0.3153057 0.4593292 0.6846943 -0.4593292
686 0.6654166 -0.4665284 0.3345834 0.4665284 0.3345834 0.4665284 0.6654166 -0.4665284
717 0.6455696 -0.4730184 0.3544304 0.4730184 0.3544304 0.4730184 0.6455696 -0.4730184
750 0.6252077 -0.4787439 0.3747923 0.4787439 0.3747923 0.4787439 0.6252077 -0.4787439
784 0.6043917 -0.4836548 0.3956083 0.4836548 0.3956083 0.4836548 0.6043917 -0.4836548
820 0.5831891 -0.4877067 0.4168109 0.4877067 0.4168109 0.4877067 0.5831891 -0.4877067
858 0.5616727 -0.4908621 0.4383273 0.4908621 0.4383273 0.4908621 0.5616727 -0.4908621
897 0.5399199 -0.4930913 0.4600801 0.4930913 0.4600801 0.4930913 0.5399199 -0.4930913
938 0.5180118 -0.4943728 0.4819882 0.4943728 0.4819882 0.4943728 0.5180118 -0.4943728
981 0.4960318 -0.4946940 0.5039682 0.4946940 0.5039682 0.4946940 0.4960318 -0.4946940
1026 0.4740645 -0.4940515 0.5259355 0.4940515 0.5259355 0.4940515 0.4740645 -0.4940515
1073 0.4521943 -0.4924509 0.5478057 0.4924509 0.5478057 0.4924509 0.4521943 -0.4924509
1122 0.4305042 -0.4899071 0.5694958 0.4899071 0.5694958 0.4899071 0.4305042 -0.4899071
1174 0.4090749 -0.4864438 0.5909251 0.4864438 0.5909251 0.4864438 0.4090749 -0.4864438
1227 0.3879828 -0.4820928 0.6120172 0.4820928 0.6120172 0.4820928 0.3879828 -0.4820928
1283 0.3672999 -0.4768937 0.6327001 0.4768937 0.6327001 0.4768937 0.3672999 -0.4768937
1342 0.3470923 -0.4708928 0.6529077 0.4708928 0.6529077 0.4708928 0.3470923 -0.4708928
1404 0.3274195 -0.4641421 0.6725805 0.4641421 0.6725805 0.4641421 0.3274195 -0.4641421
1468 0.3083342 -0.4566984 0.6916658 0.4566984 0.6916658 0.4566984 0.3083342 -0.4566984
1535 0.2898816 -0.4486221 0.7101184 0.4486221 0.7101184 0.4486221 0.2898816 -0.4486221
1606 0.2720991 -0.4399765 0.7279009 0.4399765 0.7279009 0.4399765 0.2720991 -0.4399765
1679 0.2550168 -0.4308260 0.7449832 0.4308260 0.7449832 0.4308260 0.2550168 -0.4308260
1756 0.2386570 -0.4212359 0.7613430 0.4212359 0.7613430 0.4212359 0.2386570 -0.4212359
1836 0.2230349 -0.4112708 0.7769651 0.4112708 0.7769651 0.4112708 0.2230349 -0.4112708
1920 0.2081589 -0.4009942 0.7918411 0.4009942 0.7918411 0.4009942 0.2081589 -0.4009942
2008 0.1940310 -0.3904676 0.8059690 0.3904676 0.8059690 0.3904676 0.1940310 -0.3904676
2100 0.1806476 -0.3797497 0.8193524 0.3797497 0.8193524 0.3797497 0.1806476 -0.3797497
2196 0.1679996 -0.3688963 0.8320004 0.3688963 0.8320004 0.3688963 0.1679996 -0.3688963
2297 0.1560737 -0.3579596 0.8439263 0.3579596 0.8439263 0.3579596 0.1560737 -0.3579596
2402 0.1448526 -0.3469880 0.8551474 0.3469880 0.8551474 0.3469880 0.1448526 -0.3469880
2512 0.1343158 -0.3360260 0.8656842 0.3360260 0.8656842 0.3360260 0.1343158 -0.3360260
2627 0.1244399 -0.3251139 0.8755601 0.3251139 0.8755601 0.3251139 0.1244399 -0.3251139
2748 0.1151997 -0.3142882 0.8848003 0.3142882 0.8848003 0.3142882 0.1151997 -0.3142882
2873 0.1065683 -0.3035813 0.8934317 0.3035813 0.8934317 0.3035813 0.1065683 -0.3035813
3005 0.0985178 -0.2930216 0.9014822 0.2930216 0.9014822 0.2930216 0.0985178 -0.2930216
3143 0.0910196 -0.2826338 0.9089804 0.2826338 0.9089804 0.2826338 0.0910196 -0.2826338
3287 0.0840449 -0.2724394 0.9159551 0.2724394 0.9159551 0.2724394 0.0840449 -0.2724394
3437 0.0775648 -0.2624561 0.9224352 0.2624561 0.9224352 0.2624561 0.0775648 -0.2624561
3594 0.0715508 -0.2526990 0.9284492 0.2526990 0.9284492 0.2526990 0.0715508 -0.2526990
3759 0.0659751 -0.2431802 0.9340249 0.2431802 0.9340249 0.2431802 0.0659751 -0.2431802
3931 0.0608103 -0.2339091 0.9391897 0.2339091 0.9391897 0.2339091 0.0608103 -0.2339091
4111 0.0560304 -0.2248929 0.9439696 0.2248929 0.9439696 0.2248929 0.0560304 -0.2248929
4299 0.0516099 -0.2161367 0.9483901 0.2161367 0.9483901 0.2161367 0.0516099 -0.2161367
4496 0.0475246 -0.2076438 0.9524754 0.2076438 0.9524754 0.2076438 0.0475246 -0.2076438
4702 0.0437517 -0.1994157 0.9562483 0.1994157 0.9562483 0.1994157 0.0437517 -0.1994157
4918 0.0402691 -0.1914526 0.9597309 0.1914526 0.9597309 0.1914526 0.0402691 -0.1914526
5143 0.0370563 -0.1837534 0.9629437 0.1837534 0.9629437 0.1837534 0.0370563 -0.1837534
5378 0.0340937 -0.1763158 0.9659063 0.1763158 0.9659063 0.1763158 0.0340937 -0.1763158
5625 0.0313631 -0.1691368 0.9686369 0.1691368 0.9686369 0.1691368 0.0313631 -0.1691368
5882 0.0288473 -0.1622125 0.9711527 0.1622125 0.9711527 0.1622125 0.0288473 -0.1622125
6151 0.0265303 -0.1555384 0.9734697 0.1555384 0.9734697 0.1555384 0.0265303 -0.1555384
6433 0.0243970 -0.1491093 0.9756030 0.1491093 0.9756030 0.1491093 0.0243970 -0.1491093
6728 0.0224336 -0.1429197 0.9775664 0.1429197 0.9775664 0.1429197 0.0224336 -0.1429197
7036 0.0206270 -0.1369639 0.9793730 0.1369639 0.9793730 0.1369639 0.0206270 -0.1369639
7358 0.0189652 -0.1312357 0.9810348 0.1312357 0.9810348 0.1312357 0.0189652 -0.1312357
7695 0.0174369 -0.1257289 0.9825631 0.1257289 0.9825631 0.1257289 0.0174369 -0.1257289
8047 0.0160318 -0.1204370 0.9839682 0.1204370 0.9839682 0.1204370 0.0160318 -0.1204370
8416 0.0147402 -0.1153536 0.9852598 0.1153536 0.9852598 0.1153536 0.0147402 -0.1153536
8801 0.0135533 -0.1104720 0.9864467 0.1104720 0.9864467 0.1104720 0.0135533 -0.1104720
9204 0.0124628 -0.1057859 0.9875372 0.1057859 0.9875372 0.1057859 0.0124628 -0.1057859
9626 0.0114609 -0.1012886 0.9885391 0.1012886 0.9885391 0.1012886 0.0114609 -0.1012886
10066 0.0105408 -0.0969738 0.9894592 0.0969738 0.9894592 0.0969738 0.0105408 -0.0969738
10527 0.0096959 -0.0928351 0.9903041 0.0928351 0.9903041 0.0928351 0.0096959 -0.0928351
11009 0.0089201 -0.0888663 0.9910799 0.0888663 0.9910799 0.0888663 0.0089201 -0.0888663
11514 0.0082079 -0.0850611 0.9917921 0.0850611 0.9917921 0.0850611 0.0082079 -0.0850611
12041 0.0075541 -0.0814137 0.9924459 0.0814137 0.9924459 0.0814137 0.0075541 -0.0814137
12592 0.0069541 -0.0779182 0.9930459 0.0779182 0.9930459 0.0779182 0.0069541 -0.0779182
13169 0.0064034 -0.0745687 0.9935966 0.0745687 0.9935966 0.0745687 0.0064034 -0.0745687
13772 0.0058981 -0.0713598 0.9941019 0.0713598 0.9941019 0.0713598 0.0058981 -0.0713598
14402 0.0054343 -0.0682859 0.9945657 0.0682859 0.9945657 0.0682859 0.0054343 -0.0682859
15062 0.0050088 -0.0653419 0.9949912 0.0653419 0.9949912 0.0653419 0.0050088 -0.0653419
15752 0.0046183 -0.0625225 0.9953817 0.0625225 0.9953817 0.0625225 0.0046183 -0.0625225
16473 0.0042599 -0.0598229 0.9957401 0.0598229 0.9957401 0.0598229 0.0042599 -0.0598229
17227 0.0039309 -0.0572382 0.9960691 0.0572382 0.9960691 0.0572382 0.0039309 -0.0572382
18016 0.0036290 -0.0547638 0.9963710 0.0547638 0.9963710 0.0547638 0.0036290 -0.0547638
18841 0.0033518 -0.0523952 0.9966482 0.0523952 0.9966482 0.0523952 0.0033518 -0.0523952
19704 0.0030973 -0.0501281 0.9969027 0.0501281 0.9969027 0.0501281 0.0030973 -0.0501281
20606 0.0028636 -0.0479582 0.9971364 0.0479582 0.9971364 0.0479582 0.0028636 -0.0479582
21550 0.0026488 -0.0458816 0.9973512 0.0458816 0.9973512 0.0458816 0.0026488 -0.0458816
22537 0.0024515 -0.0438943 0.9975485 0.0438943 0.9975485 0.0438943 0.0024515 -0.0438943
23569 0.0022702 -0.0419926 0.9977298 0.0419926 0.9977298 0.0419926 0.0022702 -0.0419926
24648 0.0021034 -0.0401729 0.9978966 0.0401729 0.9978966 0.0401729 0.0021034 -0.0401729
25777 0.0019499 -0.0384317 0.9980501 0.0384317 0.9980501 0.0384317 0.0019499 -0.0384317
26957 0.0018088 -0.0367657 0.9981912 0.0367657 0.9981912 0.0367657 0.0018088 -0.0367657
28191 0.0016788 -0.0351716 0.9983212 0.0351716 0.9983212 0.0351716 0.0016788 -0.0351716
29482 0.0015590 -0.0336465 0.9984410 0.0336465 0.9984410 0.0336465 0.0015590 -0.0336465
30832 0.0014487 -0.0321873 0.9985513 0.0321873 0.9985513 0.0321873 0.0014487 -0.0321873
32244 0.0013470 -0.0307912 0.9986530 0.0307912 0.9986530 0.0307912 0.0013470 -0.0307912
33721 0.0012532 -0.0294555 0.9987468 0.0294555 0.9987468 0.0294555 0.0012532 -0.0294555
35265 0.0011666 -0.0281776 0.9988334 0.0281776 0.9988334 0.0281776 0.0011666 -0.0281776
36880 0.0010867 -0.0269550 0.9989133 0.0269550 0.9989133 0.0269550 0.0010867 -0.0269550
38569 0.0010130 -0.0257853 0.9989870 0.0257853 0.9989870 0.0257853 0.0010130 -0.0257853
40335 0.0009448 -0.0246661 0.9990552 0.0246661 0.9990552 0.0246661 0.0009448 -0.0246661
42182 0.0008819 -0.0235954 0.9991181 0.0235954 0.9991181 0.0235954 0.0008819 -0.0235954
44113 0.0008237 -0.0225710 0.9991763 0.0225710 0.9991763 0.0225710 0.0008237 -0.0225710
46134 0.0007699 -0.0215910 0.9992301 0.0215910 0.9992301 0.0215910 0.0007699 -0.0215910
48246 0.0007202 -0.0206533 0.9992798 0.0206533 0.9992798 0.0206533 0.0007202 -0.0206533
50455 0.0006743 -0.0197562 0.9993257 0.0197562 0.9993257 0.0197562 0.0006743 -0.0197562
52766 0.0006318 -0.0188979 0.9993682 0.0188979 0.9993682 0.0188979 0.0006318 -0.0188979
55182 0.0005925 -0.0180768 0.9994075 0.0180768 0.9994075 0.0180768 0.0005925 -0.0180768
57709 0.0005562 -0.0172912 0.9994438 0.0172912 0.9994438 0.0172912 0.0005562 -0.0172912
60352 0.0005226 -0.0165396 0.9994774 0.0165396 0.9994774 0.0165396 0.0005226 -0.0165396
63115 0.0004915 -0.0158205 0.9995085 0.0158205 0.9995085 0.0158205 0.0004915 -0.0158205
66005 0.0004628 -0.0151326 0.9995372 0.0151326 0.9995372 0.0151326 0.0004628 -0.0151326
69028 0.0004363 -0.0144745 0.9995637 0.0144745 0.9995637 0.0144745 0.0004363 -0.0144745
72189 0.0004118 -0.0138449 0.9995882 0.0138449 0.9995882 0.0138449 0.0004118 -0.0138449
75495 0.0003891 -0.0132427 0.9996109 0.0132427 0.9996109 0.0132427 0.0003891 -0.0132427
78952 0.0003682 -0.0126665 0.9996318 0.0126665 0.9996318 0.0126665 0.0003682 -0.0126665
82567 0.0003488 -0.0121154 0.9996512 0.0121154 0.9996512 0.0121154 0.0003488 -0.0121154
86348 0.0003310 -0.0115882 0.9996690 0.0115882 0.9996690 0.0115882 0.0003310 -0.0115882
90302 0.0003144 -0.0110839 0.9996856 0.0110839 0.9996856 0.0110839 0.0003144 -0.0110839
94437 0.0002992 -0.0106016 0.9997008 0.0106016 0.9997008 0.0106016 0.0002992 -0.0106016
98762 0.0002850 -0.0101402 0.9997150 0.0101402 0.9997150 0.0101402 0.0002850 -0.0101402
103284 0.0002720 -0.0096989 0.9997280 0.0096989 0.9997280 0.0096989 0.0002720 -0.0096989
108014 0.0002599 -0.0092768 0.9997401 0.0092768 0.9997401 0.0092768 0.0002599 -0.0092768
112960 0.0002487 -0.0088731 0.9997513 0.0088731 0.9997513 0.0088731 0.0002487 -0.0088731
118133 0.0002383 -0.0084870 0.9997617 0.0084870 0.9997617 0.0084870 0.0002383 -0.0084870
123542 0.0002287 -0.0081177 0.9997713 0.0081177 0.9997713 0.0081177 0.0002287 -0.0081177
129199 0.0002197 -0.0077645 0.9997803 0.0077645 0.9997803 0.0077645 0.0002197 -0.0077645
135116 0.0002114 -0.0074267 0.9997886 0.0074267 0.9997886 0.0074267 0.0002114 -0.0074267
141303 0.0002037 -0.0071036 0.9997963 0.0071036 0.9997963 0.0071036 0.0002037 -0.0071036
147774 0.0001965 -0.0067947 0.9998035 0.0067947 0.9998035 0.0067947 0.0001965 -0.0067947
154540 0.0001898 -0.0064992 0.9998102 0.0064992 0.9998102 0.0064992 0.0001898 -0.0064992
161617 0.0001835 -0.0062166 0.9998165 0.0062166 0.9998165 0.0062166 0.0001835 -0.0062166
169018 0.0001776 -0.0059464 0.9998224 0.0059464 0.9998224 0.0059464 0.0001776 -0.0059464
176758 0.0001720 -0.0056879 0.9998280 0.0056879 0.9998280 0.0056879 0.0001720 -0.0056879
184852 0.0001668 -0.0054407 0.9998332 0.0054407 0.9998332 0.0054407 0.0001668 -0.0054407
193316 0.0001619 -0.0052043 0.9998381 0.0052043 0.9998381 0.0052043 0.0001619 -0.0052043
202169 0.0001572 -0.0049782 0.9998428 0.0049782 0.9998428 0.0049782 0.0001572 -0.0049782
211427 0.0001528 -0.0047619 0.9998472 0.0047619 0.9998472 0.0047619 0.0001528 -0.0047619
221108 0.0001486 -0.0045550 0.9998514 0.0045550 0.9998514 0.0045550 0.0001486 -0.0045550
231233 0.0001446 -0.0043572 0.9998554 0.0043572 0.9998554 0.0043572 0.0001446 -0.0043572
241822 0.0001408 -0.0041679 0.9998592 0.0041679 0.9998592 0.0041679 0.0001408 -0.0041679
252896 0.0001372 -0.0039869 0.9998628 0.0039869 0.9998628 0.0039869 0.0001372 -0.0039869
264476 0.0001338 -0.0038137 0.9998662 0.0038137 0.9998662 0.0038137 0.0001338 -0.0038137
276587 0.0001304 -0.0036480 0.9998696 0.0036480 0.9998696 0.0036480 0.0001304 -0.0036480
289253 0.0001273 -0.0034895 0.9998727 0.0034895 0.9998727 0.0034895 0.0001273 -0.0034895
302498 0.0001242 -0.0033378 0.9998758 0.0033378 0.9998758 0.0033378 0.0001242 -0.0033378
316350 0.0001213 -0.0031927 0.9998787 0.0031927 0.9998787 0.0031927 0.0001213 -0.0031927
330837 0.0001186 -0.0030538 0.9998814 0.0030538 0.9998814 0.0030538 0.0001186 -0.0030538
345986 0.0001159 -0.0029210 0.9998841 0.0029210 0.9998841 0.0029210 0.0001159 -0.0029210
361830 0.0001133 -0.0027938 0.9998867 0.0027938 0.9998867 0.0027938 0.0001133 -0.0027938
378399 0.0001109 -0.0026721 0.9998891 0.0026721 0.9998891 0.0026721 0.0001109 -0.0026721
395726 0.0001086 -0.0025557 0.9998914 0.0025557 0.9998914 0.0025557 0.0001086 -0.0025557
413847 0.0001063 -0.0024442 0.9998937 0.0024442 0.9998937 0.0024442 0.0001063 -0.0024442
432798 0.0001042 -0.0023375 0.9998958 0.0023375 0.9998958 0.0023375 0.0001042 -0.0023375
452617 0.0001022 -0.0022354 0.9998978 0.0022354 0.9998978 0.0022354 0.0001022 -0.0022354
473344 0.0001003 -0.0021377 0.9998997 0.0021377 0.9998997 0.0021377 0.0001003 -0.0021377
495019 0.0000985 -0.0020441 0.9999015 0.0020441 0.9999015 0.0020441 0.0000985 -0.0020441
517687 0.0000967 -0.0019545 0.9999033 0.0019545 0.9999033 0.0019545 0.0000967 -0.0019545
541393 0.0000951 -0.0018688 0.9999049 0.0018688 0.9999049 0.0018688 0.0000951 -0.0018688
566185 0.0000936 -0.0017867 0.9999064 0.0017867 0.9999064 0.0017867 0.0000936 -0.0017867
592111 0.0000921 -0.0017081 0.9999079 0.0017081 0.9999079 0.0017081 0.0000921 -0.0017081
619225 0.0000907 -0.0016329 0.9999093 0.0016329 0.9999093 0.0016329 0.0000907 -0.0016329
647581 0.0000895 -0.0015608 0.9999105 0.0015608 0.9999105 0.0015608 0.0000895 -0.0015608
677235 0.0000883 -0.0014918 0.9999117 0.0014918 0.9999117 0.0014918 0.0000883 -0.0014918
708247 0.0000872 -0.0014258 0.9999128 0.0014258 0.9999128 0.0014258 0.0000872 -0.0014258
740679 0.0000861 -0.0013626 0.9999139 0.0013626 0.9999139 0.0013626 0.0000861 -0.0013626
774597 0.0000851 -0.0013020 0.9999149 0.0013020 0.9999149 0.0013020 0.0000851 -0.0013020
810067 0.0000842 -0.0012440 0.9999158 0.0012440 0.9999158 0.0012440 0.0000842 -0.0012440
847162 0.0000834 -0.0011884 0.9999166 0.0011884 0.9999166 0.0011884 0.0000834 -0.0011884
885955 0.0000826 -0.0011352 0.9999174 0.0011352 0.9999174 0.0011352 0.0000826 -0.0011352
926525 0.0000819 -0.0010843 0.9999181 0.0010843 0.9999181 0.0010843 0.0000819 -0.0010843
968953 0.0000812 -0.0010355 0.9999188 0.0010355 0.9999188 0.0010355 0.0000812 -0.0010355
1013323 0.0000806 -0.0009887 0.9999194 0.0009887 0.9999194 0.0009887 0.0000806 -0.0009887
1059725 0.0000801 -0.0009439 0.9999199 0.0009439 0.9999199 0.0009439 0.0000801 -0.0009439
1108252 0.0000795 -0.0009010 0.9999205 0.0009010 0.9999205 0.0009010 0.0000795 -0.0009010
1159002 0.0000791 -0.0008598 0.9999209 0.0008598 0.9999209 0.0008598 0.0000791 -0.0008598
1212075 0.0000786 -0.0008204 0.9999214 0.0008204 0.9999214 0.0008204 0.0000786 -0.0008204
1267578 0.0000782 -0.0007826 0.9999218 0.0007826 0.9999218 0.0007826 0.0000782 -0.0007826
1325623 0.0000779 -0.0007463 0.9999221 0.0007463 0.9999221 0.0007463 0.0000779 -0.0007463
1386327 0.0000776 -0.0007115 0.9999224 0.0007115 0.9999224 0.0007115 0.0000776 -0.0007115
1449809 0.0000773 -0.0006782 0.9999227 0.0006782 0.9999227 0.0006782 0.0000773 -0.0006782
1516199 0.0000770 -0.0006462 0.9999230 0.0006462 0.9999230 0.0006462 0.0000770 -0.0006462
1585629 0.0000768 -0.0006154 0.9999232 0.0006154 0.9999232 0.0006154 0.0000768 -0.0006154
1658239 0.0000766 -0.0005859 0.9999234 0.0005859 0.9999234 0.0005859 0.0000766 -0.0005859
1734173 0.0000764 -0.0005576 0.9999236 0.0005576 0.9999236 0.0005576 0.0000764 -0.0005576
1813585 0.0000763 -0.0005304 0.9999237 0.0005304 0.9999237 0.0005304 0.0000763 -0.0005304
1896632 0.0000762 -0.0005043 0.9999238 0.0005043 0.9999238 0.0005043 0.0000762 -0.0005043
1983483 0.0000761 -0.0004791 0.9999239 0.0004791 0.9999239 0.0004791 0.0000761 -0.0004791
2074311 0.0000760 -0.0004549 0.9999240 0.0004549 0.9999240 0.0004549 0.0000760 -0.0004549
