!Murata Part Number: GRM033R61A123ME84
!These Parameters are Measured in Series Mode Connection
!Data Generated on Mar 30, 2021
!       o--ll--o
!Port1            Port2
!       o------o
!Operation Temp=25[degC], DC Bias Voltage=0[V]
!Freq. Start=100[Hz] Stop=6[GHz] 401[Steps]
# Hz S RI R 50
!Freq.(Hz) S11(Real) S11(Imag) S21(Real) S21(Imag) S12(Real) S12(Imag) S22(Real) S22(Imag)
100 0.9999934 -0.0007484 0.0000066 0.0007484 0.0000066 0.0007484 0.9999934 -0.0007484
105 0.9999931 -0.0007825 0.0000069 0.0007825 0.0000069 0.0007825 0.9999931 -0.0007825
109 0.9999928 -0.0008182 0.0000072 0.0008182 0.0000072 0.0008182 0.9999928 -0.0008182
114 0.9999925 -0.0008554 0.0000075 0.0008554 0.0000075 0.0008554 0.9999925 -0.0008554
120 0.9999922 -0.0008944 0.0000078 0.0008944 0.0000078 0.0008944 0.9999922 -0.0008944
125 0.9999918 -0.0009352 0.0000082 0.0009352 0.0000082 0.0009352 0.9999918 -0.0009352
131 0.9999915 -0.0009778 0.0000085 0.0009778 0.0000085 0.0009778 0.9999915 -0.0009778
137 0.9999911 -0.0010223 0.0000089 0.0010223 0.0000089 0.0010223 0.9999911 -0.0010223
143 0.9999906 -0.0010689 0.0000094 0.0010689 0.0000094 0.0010689 0.9999906 -0.0010689
150 0.9999902 -0.0011177 0.0000098 0.0011177 0.0000098 0.0011177 0.9999902 -0.0011177
156 0.9999897 -0.0011686 0.0000103 0.0011686 0.0000103 0.0011686 0.9999897 -0.0011686
164 0.9999892 -0.0012218 0.0000108 0.0012218 0.0000108 0.0012218 0.9999892 -0.0012218
171 0.9999887 -0.0012775 0.0000113 0.0012775 0.0000113 0.0012775 0.9999887 -0.0012775
179 0.9999882 -0.0013357 0.0000118 0.0013357 0.0000118 0.0013357 0.9999882 -0.0013357
187 0.9999876 -0.0013966 0.0000124 0.0013966 0.0000124 0.0013966 0.9999876 -0.0013966
196 0.9999870 -0.0014603 0.0000130 0.0014603 0.0000130 0.0014603 0.9999870 -0.0014603
205 0.9999863 -0.0015268 0.0000137 0.0015268 0.0000137 0.0015268 0.9999863 -0.0015268
214 0.9999856 -0.0015964 0.0000144 0.0015964 0.0000144 0.0015964 0.9999856 -0.0015964
224 0.9999849 -0.0016691 0.0000151 0.0016691 0.0000151 0.0016691 0.9999849 -0.0016691
234 0.9999841 -0.0017452 0.0000159 0.0017452 0.0000159 0.0017452 0.9999841 -0.0017452
245 0.9999833 -0.0018247 0.0000167 0.0018247 0.0000167 0.0018247 0.9999833 -0.0018247
256 0.9999824 -0.0019079 0.0000176 0.0019079 0.0000176 0.0019079 0.9999824 -0.0019079
268 0.9999815 -0.0019948 0.0000185 0.0019948 0.0000185 0.0019948 0.9999815 -0.0019948
280 0.9999805 -0.0020858 0.0000195 0.0020858 0.0000195 0.0020858 0.9999805 -0.0020858
293 0.9999795 -0.0021808 0.0000205 0.0021808 0.0000205 0.0021808 0.9999795 -0.0021808
306 0.9999784 -0.0022802 0.0000216 0.0022802 0.0000216 0.0022802 0.9999784 -0.0022802
320 0.9999773 -0.0023842 0.0000227 0.0023842 0.0000227 0.0023842 0.9999773 -0.0023842
335 0.9999760 -0.0024928 0.0000240 0.0024928 0.0000240 0.0024928 0.9999760 -0.0024928
350 0.9999747 -0.0026065 0.0000253 0.0026065 0.0000253 0.0026065 0.9999747 -0.0026065
366 0.9999733 -0.0027253 0.0000267 0.0027253 0.0000267 0.0027253 0.9999733 -0.0027253
383 0.9999718 -0.0028495 0.0000282 0.0028495 0.0000282 0.0028495 0.9999718 -0.0028495
401 0.9999702 -0.0029794 0.0000298 0.0029794 0.0000298 0.0029794 0.9999702 -0.0029794
419 0.9999685 -0.0031153 0.0000315 0.0031153 0.0000315 0.0031153 0.9999685 -0.0031153
438 0.9999667 -0.0032573 0.0000333 0.0032573 0.0000333 0.0032573 0.9999667 -0.0032573
458 0.9999647 -0.0034058 0.0000353 0.0034058 0.0000353 0.0034058 0.9999647 -0.0034058
479 0.9999627 -0.0035611 0.0000373 0.0035611 0.0000373 0.0035611 0.9999627 -0.0035611
501 0.9999604 -0.0037234 0.0000396 0.0037234 0.0000396 0.0037234 0.9999604 -0.0037234
524 0.9999580 -0.0038932 0.0000420 0.0038932 0.0000420 0.0038932 0.9999580 -0.0038932
548 0.9999554 -0.0040707 0.0000446 0.0040707 0.0000446 0.0040707 0.9999554 -0.0040707
573 0.9999527 -0.0042562 0.0000473 0.0042562 0.0000473 0.0042562 0.9999527 -0.0042562
600 0.9999497 -0.0044503 0.0000503 0.0044503 0.0000503 0.0044503 0.9999497 -0.0044503
627 0.9999465 -0.0046532 0.0000535 0.0046532 0.0000535 0.0046532 0.9999465 -0.0046532
656 0.9999431 -0.0048653 0.0000569 0.0048653 0.0000569 0.0048653 0.9999431 -0.0048653
686 0.9999394 -0.0050870 0.0000606 0.0050870 0.0000606 0.0050870 0.9999394 -0.0050870
717 0.9999355 -0.0053189 0.0000645 0.0053189 0.0000645 0.0053189 0.9999355 -0.0053189
750 0.9999313 -0.0055614 0.0000687 0.0055614 0.0000687 0.0055614 0.9999313 -0.0055614
784 0.9999267 -0.0058148 0.0000733 0.0058148 0.0000733 0.0058148 0.9999267 -0.0058148
820 0.9999219 -0.0060798 0.0000781 0.0060798 0.0000781 0.0060798 0.9999219 -0.0060798
858 0.9999166 -0.0063569 0.0000834 0.0063569 0.0000834 0.0063569 0.9999166 -0.0063569
897 0.9999110 -0.0066466 0.0000890 0.0066466 0.0000890 0.0066466 0.9999110 -0.0066466
938 0.9999049 -0.0069495 0.0000951 0.0069495 0.0000951 0.0069495 0.9999049 -0.0069495
981 0.9998984 -0.0072662 0.0001016 0.0072662 0.0001016 0.0072662 0.9998984 -0.0072662
1026 0.9998914 -0.0075973 0.0001086 0.0075973 0.0001086 0.0075973 0.9998914 -0.0075973
1073 0.9998839 -0.0079435 0.0001161 0.0079435 0.0001161 0.0079435 0.9998839 -0.0079435
1122 0.9998759 -0.0083055 0.0001241 0.0083055 0.0001241 0.0083055 0.9998759 -0.0083055
1174 0.9998672 -0.0086839 0.0001328 0.0086839 0.0001328 0.0086839 0.9998672 -0.0086839
1227 0.9998578 -0.0090796 0.0001422 0.0090796 0.0001422 0.0090796 0.9998578 -0.0090796
1283 0.9998477 -0.0094934 0.0001523 0.0094934 0.0001523 0.0094934 0.9998477 -0.0094934
1342 0.9998369 -0.0099260 0.0001631 0.0099260 0.0001631 0.0099260 0.9998369 -0.0099260
1404 0.9998251 -0.0103783 0.0001749 0.0103783 0.0001749 0.0103783 0.9998251 -0.0103783
1468 0.9998125 -0.0108513 0.0001875 0.0108513 0.0001875 0.0108513 0.9998125 -0.0108513
1535 0.9997988 -0.0113458 0.0002012 0.0113458 0.0002012 0.0113458 0.9997988 -0.0113458
1606 0.9997840 -0.0118629 0.0002160 0.0118629 0.0002160 0.0118629 0.9997840 -0.0118629
1679 0.9997680 -0.0124036 0.0002320 0.0124036 0.0002320 0.0124036 0.9997680 -0.0124036
1756 0.9997507 -0.0129690 0.0002493 0.0129690 0.0002493 0.0129690 0.9997507 -0.0129690
1836 0.9997320 -0.0135602 0.0002680 0.0135602 0.0002680 0.0135602 0.9997320 -0.0135602
1920 0.9997116 -0.0141783 0.0002884 0.0141783 0.0002884 0.0141783 0.9997116 -0.0141783
2008 0.9996896 -0.0148247 0.0003104 0.0148247 0.0003104 0.0148247 0.9996896 -0.0148247
2100 0.9996657 -0.0155005 0.0003343 0.0155005 0.0003343 0.0155005 0.9996657 -0.0155005
2196 0.9996397 -0.0162071 0.0003603 0.0162071 0.0003603 0.0162071 0.9996397 -0.0162071
2297 0.9996114 -0.0169460 0.0003886 0.0169460 0.0003886 0.0169460 0.9996114 -0.0169460
2402 0.9995807 -0.0177186 0.0004193 0.0177186 0.0004193 0.0177186 0.9995807 -0.0177186
2512 0.9995473 -0.0185263 0.0004527 0.0185263 0.0004527 0.0185263 0.9995473 -0.0185263
2627 0.9995110 -0.0193709 0.0004890 0.0193709 0.0004890 0.0193709 0.9995110 -0.0193709
2748 0.9994715 -0.0202540 0.0005285 0.0202540 0.0005285 0.0202540 0.9994715 -0.0202540
2873 0.9994285 -0.0211772 0.0005715 0.0211772 0.0005715 0.0211772 0.9994285 -0.0211772
3005 0.9993817 -0.0221425 0.0006183 0.0221425 0.0006183 0.0221425 0.9993817 -0.0221425
3143 0.9993308 -0.0231516 0.0006692 0.0231516 0.0006692 0.0231516 0.9993308 -0.0231516
3287 0.9992753 -0.0242067 0.0007247 0.0242067 0.0007247 0.0242067 0.9992753 -0.0242067
3437 0.9992149 -0.0253097 0.0007851 0.0253097 0.0007851 0.0253097 0.9992149 -0.0253097
3594 0.9991490 -0.0264629 0.0008510 0.0264629 0.0008510 0.0264629 0.9991490 -0.0264629
3759 0.9990774 -0.0276683 0.0009226 0.0276683 0.0009226 0.0276683 0.9990774 -0.0276683
3931 0.9989993 -0.0289285 0.0010007 0.0289285 0.0010007 0.0289285 0.9989993 -0.0289285
4111 0.9989143 -0.0302458 0.0010857 0.0302458 0.0010857 0.0302458 0.9989143 -0.0302458
4299 0.9988216 -0.0316229 0.0011784 0.0316229 0.0011784 0.0316229 0.9988216 -0.0316229
4496 0.9987207 -0.0330623 0.0012793 0.0330623 0.0012793 0.0330623 0.9987207 -0.0330623
4702 0.9986108 -0.0345669 0.0013892 0.0345669 0.0013892 0.0345669 0.9986108 -0.0345669
4918 0.9984910 -0.0361395 0.0015090 0.0361395 0.0015090 0.0361395 0.9984910 -0.0361395
5143 0.9983605 -0.0377832 0.0016395 0.0377832 0.0016395 0.0377832 0.9983605 -0.0377832
5378 0.9982184 -0.0395012 0.0017816 0.0395012 0.0017816 0.0395012 0.9982184 -0.0395012
5625 0.9980635 -0.0412967 0.0019365 0.0412967 0.0019365 0.0412967 0.9980635 -0.0412967
5882 0.9978948 -0.0431733 0.0021052 0.0431733 0.0021052 0.0431733 0.9978948 -0.0431733
6151 0.9977109 -0.0451344 0.0022891 0.0451344 0.0022891 0.0451344 0.9977109 -0.0451344
6433 0.9975105 -0.0471838 0.0024895 0.0471838 0.0024895 0.0471838 0.9975105 -0.0471838
6728 0.9972921 -0.0493253 0.0027079 0.0493253 0.0027079 0.0493253 0.9972921 -0.0493253
7036 0.9970540 -0.0515631 0.0029460 0.0515631 0.0029460 0.0515631 0.9970540 -0.0515631
7358 0.9967945 -0.0539013 0.0032055 0.0539013 0.0032055 0.0539013 0.9967945 -0.0539013
7695 0.9965116 -0.0563443 0.0034884 0.0563443 0.0034884 0.0563443 0.9965116 -0.0563443
8047 0.9962032 -0.0588965 0.0037968 0.0588965 0.0037968 0.0588965 0.9962032 -0.0588965
8416 0.9958669 -0.0615628 0.0041331 0.0615628 0.0041331 0.0615628 0.9958669 -0.0615628
8801 0.9955002 -0.0643479 0.0044998 0.0643479 0.0044998 0.0643479 0.9955002 -0.0643479
9204 0.9951003 -0.0672569 0.0048997 0.0672569 0.0048997 0.0672569 0.9951003 -0.0672569
9626 0.9946641 -0.0702950 0.0053359 0.0702950 0.0053359 0.0702950 0.9946641 -0.0702950
10066 0.9941883 -0.0734676 0.0058117 0.0734676 0.0058117 0.0734676 0.9941883 -0.0734676
10527 0.9936693 -0.0767803 0.0063307 0.0767803 0.0063307 0.0767803 0.9936693 -0.0767803
11009 0.9931032 -0.0802386 0.0068968 0.0802386 0.0068968 0.0802386 0.9931032 -0.0802386
11514 0.9924857 -0.0838486 0.0075143 0.0838486 0.0075143 0.0838486 0.9924857 -0.0838486
12041 0.9918121 -0.0876162 0.0081879 0.0876162 0.0081879 0.0876162 0.9918121 -0.0876162
12592 0.9910773 -0.0915476 0.0089227 0.0915476 0.0089227 0.0915476 0.9910773 -0.0915476
13169 0.9902758 -0.0956490 0.0097242 0.0956490 0.0097242 0.0956490 0.9902758 -0.0956490
13772 0.9894015 -0.0999270 0.0105985 0.0999270 0.0105985 0.0999270 0.9894015 -0.0999270
14402 0.9884481 -0.1043879 0.0115519 0.1043879 0.0115519 0.1043879 0.9884481 -0.1043879
15062 0.9874083 -0.1090385 0.0125917 0.1090385 0.0125917 0.1090385 0.9874083 -0.1090385
15752 0.9862746 -0.1138853 0.0137254 0.1138853 0.0137254 0.1138853 0.9862746 -0.1138853
16473 0.9850386 -0.1189351 0.0149614 0.1189351 0.0149614 0.1189351 0.9850386 -0.1189351
17227 0.9836915 -0.1241944 0.0163085 0.1241944 0.0163085 0.1241944 0.9836915 -0.1241944
18016 0.9822234 -0.1296700 0.0177766 0.1296700 0.0177766 0.1296700 0.9822234 -0.1296700
18841 0.9806239 -0.1353682 0.0193761 0.1353682 0.0193761 0.1353682 0.9806239 -0.1353682
19704 0.9788818 -0.1412956 0.0211182 0.1412956 0.0211182 0.1412956 0.9788818 -0.1412956
20606 0.9769849 -0.1474583 0.0230151 0.1474583 0.0230151 0.1474583 0.9769849 -0.1474583
21550 0.9749201 -0.1538622 0.0250799 0.1538622 0.0250799 0.1538622 0.9749201 -0.1538622
22537 0.9726734 -0.1605128 0.0273266 0.1605128 0.0273266 0.1605128 0.9726734 -0.1605128
23569 0.9702299 -0.1674152 0.0297701 0.1674152 0.0297701 0.1674152 0.9702299 -0.1674152
24648 0.9675734 -0.1745739 0.0324266 0.1745739 0.0324266 0.1745739 0.9675734 -0.1745739
25777 0.9646869 -0.1819930 0.0353131 0.1819930 0.0353131 0.1819930 0.9646869 -0.1819930
26957 0.9615520 -0.1896754 0.0384480 0.1896754 0.0384480 0.1896754 0.9615520 -0.1896754
28191 0.9581494 -0.1976235 0.0418506 0.1976235 0.0418506 0.1976235 0.9581494 -0.1976235
29482 0.9544586 -0.2058383 0.0455414 0.2058383 0.0455414 0.2058383 0.9544586 -0.2058383
30832 0.9504578 -0.2143197 0.0495422 0.2143197 0.0495422 0.2143197 0.9504578 -0.2143197
32244 0.9461243 -0.2230664 0.0538757 0.2230664 0.0538757 0.2230664 0.9461243 -0.2230664
33721 0.9414340 -0.2320753 0.0585660 0.2320753 0.0585660 0.2320753 0.9414340 -0.2320753
35265 0.9363621 -0.2413414 0.0636379 0.2413414 0.0636379 0.2413414 0.9363621 -0.2413414
36880 0.9308824 -0.2508580 0.0691176 0.2508580 0.0691176 0.2508580 0.9308824 -0.2508580
38569 0.9249681 -0.2606160 0.0750319 0.2606160 0.0750319 0.2606160 0.9249681 -0.2606160
40335 0.9185915 -0.2706037 0.0814085 0.2706037 0.0814085 0.2706037 0.9185915 -0.2706037
42182 0.9117243 -0.2808069 0.0882757 0.2808069 0.0882757 0.2808069 0.9117243 -0.2808069
44113 0.9043380 -0.2912084 0.0956620 0.2912084 0.0956620 0.2912084 0.9043380 -0.2912084
46134 0.8964038 -0.3017879 0.1035962 0.3017879 0.1035962 0.3017879 0.8964038 -0.3017879
48246 0.8878929 -0.3125214 0.1121071 0.3125214 0.1121071 0.3125214 0.8878929 -0.3125214
50455 0.8787773 -0.3233817 0.1212227 0.3233817 0.1212227 0.3233817 0.8787773 -0.3233817
52766 0.8690298 -0.3343375 0.1309702 0.3343375 0.1309702 0.3343375 0.8690298 -0.3343375
55182 0.8586243 -0.3453536 0.1413757 0.3453536 0.1413757 0.3453536 0.8586243 -0.3453536
57709 0.8475369 -0.3563909 0.1524631 0.3563909 0.1524631 0.3563909 0.8475369 -0.3563909
60352 0.8357458 -0.3674061 0.1642542 0.3674061 0.1642542 0.3674061 0.8357458 -0.3674061
63115 0.8232324 -0.3783519 0.1767676 0.3783519 0.1767676 0.3783519 0.8232324 -0.3783519
66005 0.8099816 -0.3891771 0.1900184 0.3891771 0.1900184 0.3891771 0.8099816 -0.3891771
69028 0.7959824 -0.3998267 0.2040176 0.3998267 0.2040176 0.3998267 0.7959824 -0.3998267
72189 0.7812291 -0.4102424 0.2187709 0.4102424 0.2187709 0.4102424 0.7812291 -0.4102424
75495 0.7657211 -0.4203628 0.2342789 0.4203628 0.2342789 0.4203628 0.7657211 -0.4203628
78952 0.7494643 -0.4301242 0.2505357 0.4301242 0.2505357 0.4301242 0.7494643 -0.4301242
82567 0.7324713 -0.4394612 0.2675287 0.4394612 0.2675287 0.4394612 0.7324713 -0.4394612
86348 0.7147619 -0.4483075 0.2852381 0.4483075 0.2852381 0.4483075 0.7147619 -0.4483075
90302 0.6963634 -0.4565968 0.3036366 0.4565968 0.3036366 0.4565968 0.6963634 -0.4565968
94437 0.6773110 -0.4642637 0.3226890 0.4642637 0.3226890 0.4642637 0.6773110 -0.4642637
98762 0.6576480 -0.4712451 0.3423520 0.4712451 0.3423520 0.4712451 0.6576480 -0.4712451
103284 0.6374254 -0.4774811 0.3625746 0.4774811 0.3625746 0.4774811 0.6374254 -0.4774811
108014 0.6167017 -0.4829162 0.3832983 0.4829162 0.3832983 0.4829162 0.6167017 -0.4829162
112960 0.5955427 -0.4875004 0.4044573 0.4875004 0.4044573 0.4875004 0.5955427 -0.4875004
118133 0.5740204 -0.4911906 0.4259796 0.4911906 0.4259796 0.4911906 0.5740204 -0.4911906
123542 0.5522123 -0.4939510 0.4477877 0.4939510 0.4477877 0.4939510 0.5522123 -0.4939510
129199 0.5302005 -0.4957544 0.4697995 0.4957544 0.4697995 0.4957544 0.5302005 -0.4957544
135116 0.5080702 -0.4965827 0.4919298 0.4965827 0.4919298 0.4965827 0.5080702 -0.4965827
141303 0.4859085 -0.4964273 0.5140915 0.4964273 0.5140915 0.4964273 0.4859085 -0.4964273
147774 0.4638033 -0.4952894 0.5361967 0.4952894 0.5361967 0.4952894 0.4638033 -0.4952894
154540 0.4418415 -0.4931799 0.5581585 0.4931799 0.5581585 0.4931799 0.4418415 -0.4931799
161617 0.4201078 -0.4901192 0.5798922 0.4901192 0.5798922 0.4901192 0.4201078 -0.4901192
169018 0.3986835 -0.4861367 0.6013165 0.4861367 0.6013165 0.4861367 0.3986835 -0.4861367
176758 0.3776450 -0.4812702 0.6223550 0.4812702 0.6223550 0.4812702 0.3776450 -0.4812702
184852 0.3570633 -0.4755649 0.6429367 0.4755649 0.6429367 0.4755649 0.3570633 -0.4755649
193316 0.3370026 -0.4690724 0.6629974 0.4690724 0.6629974 0.4690724 0.3370026 -0.4690724
202169 0.3175199 -0.4618500 0.6824801 0.4618500 0.6824801 0.4618500 0.3175199 -0.4618500
211427 0.2986645 -0.4539588 0.7013355 0.4539588 0.7013355 0.4539588 0.2986645 -0.4539588
221108 0.2804778 -0.4454633 0.7195222 0.4454633 0.7195222 0.4454633 0.2804778 -0.4454633
231233 0.2629930 -0.4364297 0.7370070 0.4364297 0.7370070 0.4364297 0.2629930 -0.4364297
241822 0.2462356 -0.4269251 0.7537644 0.4269251 0.7537644 0.4269251 0.2462356 -0.4269251
252896 0.2302232 -0.4170164 0.7697768 0.4170164 0.7697768 0.4170164 0.2302232 -0.4170164
264476 0.2149665 -0.4067693 0.7850335 0.4067693 0.7850335 0.4067693 0.2149665 -0.4067693
276587 0.2004691 -0.3962477 0.7995309 0.3962477 0.7995309 0.3962477 0.2004691 -0.3962477
289253 0.1867288 -0.3855127 0.8132712 0.3855127 0.8132712 0.3855127 0.1867288 -0.3855127
302498 0.1737376 -0.3746224 0.8262624 0.3746224 0.8262624 0.3746224 0.1737376 -0.3746224
316350 0.1614828 -0.3636311 0.8385172 0.3636311 0.8385172 0.3636311 0.1614828 -0.3636311
330837 0.1499477 -0.3525895 0.8500523 0.3525895 0.8500523 0.3525895 0.1499477 -0.3525895
345986 0.1391118 -0.3415441 0.8608882 0.3415441 0.8608882 0.3415441 0.1391118 -0.3415441
361830 0.1289520 -0.3305370 0.8710480 0.3305370 0.8710480 0.3305370 0.1289520 -0.3305370
378399 0.1194428 -0.3196063 0.8805572 0.3196063 0.8805572 0.3196063 0.1194428 -0.3196063
395726 0.1105573 -0.3087861 0.8894427 0.3087861 0.8894427 0.3087861 0.1105573 -0.3087861
413847 0.1022670 -0.2981062 0.8977330 0.2981062 0.8977330 0.2981062 0.1022670 -0.2981062
432798 0.0945431 -0.2875926 0.9054569 0.2875926 0.9054569 0.2875926 0.0945431 -0.2875926
452617 0.0873562 -0.2772677 0.9126438 0.2772677 0.9126438 0.2772677 0.0873562 -0.2772677
473344 0.0806771 -0.2671507 0.9193229 0.2671507 0.9193229 0.2671507 0.0806771 -0.2671507
495019 0.0744766 -0.2572572 0.9255234 0.2572572 0.9255234 0.2572572 0.0744766 -0.2572572
517687 0.0687264 -0.2476002 0.9312736 0.2476002 0.9312736 0.2476002 0.0687264 -0.2476002
541393 0.0633988 -0.2381899 0.9366012 0.2381899 0.9366012 0.2381899 0.0633988 -0.2381899
566185 0.0584670 -0.2290341 0.9415330 0.2290341 0.9415330 0.2290341 0.0584670 -0.2290341
592111 0.0539053 -0.2201385 0.9460947 0.2201385 0.9460947 0.2201385 0.0539053 -0.2201385
619225 0.0496888 -0.2115069 0.9503112 0.2115069 0.9503112 0.2115069 0.0496888 -0.2115069
647581 0.0457941 -0.2031413 0.9542059 0.2031413 0.9542059 0.2031413 0.0457941 -0.2031413
677235 0.0421989 -0.1950423 0.9578011 0.1950423 0.9578011 0.1950423 0.0421989 -0.1950423
708247 0.0388821 -0.1872091 0.9611179 0.1872091 0.9611179 0.1872091 0.0388821 -0.1872091
740679 0.0358236 -0.1796399 0.9641764 0.1796399 0.9641764 0.1796399 0.0358236 -0.1796399
774597 0.0330048 -0.1723318 0.9669952 0.1723318 0.9669952 0.1723318 0.0330048 -0.1723318
810067 0.0304080 -0.1652812 0.9695920 0.1652812 0.9695920 0.1652812 0.0304080 -0.1652812
847162 0.0280168 -0.1584839 0.9719832 0.1584839 0.9719832 0.1584839 0.0280168 -0.1584839
885955 0.0258157 -0.1519348 0.9741843 0.1519348 0.9741843 0.1519348 0.0258157 -0.1519348
926525 0.0237904 -0.1456288 0.9762096 0.1456288 0.9762096 0.1456288 0.0237904 -0.1456288
968953 0.0219275 -0.1395601 0.9780725 0.1395601 0.9780725 0.1395601 0.0219275 -0.1395601
1013323 0.0202144 -0.1337226 0.9797856 0.1337226 0.9797856 0.1337226 0.0202144 -0.1337226
1059725 0.0186397 -0.1281103 0.9813603 0.1281103 0.9813603 0.1281103 0.0186397 -0.1281103
1108252 0.0171924 -0.1227166 0.9828076 0.1227166 0.9828076 0.1227166 0.0171924 -0.1227166
1159002 0.0158626 -0.1175352 0.9841374 0.1175352 0.9841374 0.1175352 0.0158626 -0.1175352
1212075 0.0146411 -0.1125594 0.9853589 0.1125594 0.9853589 0.1125594 0.0146411 -0.1125594
1267578 0.0135193 -0.1077828 0.9864807 0.1077828 0.9864807 0.1077828 0.0135193 -0.1077828
1325623 0.0124891 -0.1031988 0.9875109 0.1031988 0.9875109 0.1031988 0.0124891 -0.1031988
1386327 0.0115433 -0.0988009 0.9884567 0.0988009 0.9884567 0.0988009 0.0115433 -0.0988009
1449809 0.0106751 -0.0945827 0.9893249 0.0945827 0.9893249 0.0945827 0.0106751 -0.0945827
1516199 0.0098781 -0.0905377 0.9901219 0.0905377 0.9901219 0.0905377 0.0098781 -0.0905377
1585629 0.0091466 -0.0866598 0.9908534 0.0866598 0.9908534 0.0866598 0.0091466 -0.0866598
1658239 0.0084753 -0.0829428 0.9915247 0.0829428 0.9915247 0.0829428 0.0084753 -0.0829428
1734173 0.0078591 -0.0793808 0.9921409 0.0793808 0.9921409 0.0793808 0.0078591 -0.0793808
1813585 0.0072936 -0.0759678 0.9927064 0.0759678 0.9927064 0.0759678 0.0072936 -0.0759678
1896632 0.0067745 -0.0726981 0.9932255 0.0726981 0.9932255 0.0726981 0.0067745 -0.0726981
1983483 0.0062980 -0.0695663 0.9937020 0.0695663 0.9937020 0.0695663 0.0062980 -0.0695663
2074311 0.0058606 -0.0665667 0.9941394 0.0665667 0.9941394 0.0665667 0.0058606 -0.0665667
