!Murata Part Number: GRM155D70J225ME44
!These Parameters are Measured in Series Mode Connection
!Data Generated on Mar 30, 2021
!       o--ll--o
!Port1            Port2
!       o------o
!Operation Temp=25[degC], DC Bias Voltage=0[V]
!Freq. Start=100[Hz] Stop=6[GHz] 401[Steps]
# Hz S RI R 50
!Freq.(Hz) S11(Real) S11(Imag) S21(Real) S21(Imag) S12(Real) S12(Imag) S22(Real) S22(Imag)
100 0.9871228 -0.1045477 0.0128772 0.1045477 0.0128772 0.1045477 0.9871228 -0.1045477
105 0.9860099 -0.1091280 0.0139901 0.1091280 0.0139901 0.1091280 0.9860099 -0.1091280
109 0.9848039 -0.1138963 0.0151961 0.1138963 0.0151961 0.1138963 0.9848039 -0.1138963
114 0.9834973 -0.1188591 0.0165027 0.1188591 0.0165027 0.1188591 0.9834973 -0.1188591
120 0.9820817 -0.1240230 0.0179183 0.1240230 0.0179183 0.1240230 0.9820817 -0.1240230
125 0.9805481 -0.1293943 0.0194519 0.1293943 0.0194519 0.1293943 0.9805481 -0.1293943
131 0.9788868 -0.1349797 0.0211132 0.1349797 0.0211132 0.1349797 0.9788868 -0.1349797
137 0.9770871 -0.1407855 0.0229129 0.1407855 0.0229129 0.1407855 0.9770871 -0.1407855
143 0.9751376 -0.1468179 0.0248624 0.1468179 0.0248624 0.1468179 0.9751376 -0.1468179
150 0.9730260 -0.1530830 0.0269740 0.1530830 0.0269740 0.1530830 0.9730260 -0.1530830
156 0.9707390 -0.1595866 0.0292610 0.1595866 0.0292610 0.1595866 0.9707390 -0.1595866
164 0.9682621 -0.1663339 0.0317379 0.1663339 0.0317379 0.1663339 0.9682621 -0.1663339
171 0.9655799 -0.1733299 0.0344201 0.1733299 0.0344201 0.1733299 0.9655799 -0.1733299
179 0.9626760 -0.1805788 0.0373240 0.1805788 0.0373240 0.1805788 0.9626760 -0.1805788
187 0.9595325 -0.1880840 0.0404675 0.1880840 0.0404675 0.1880840 0.9595325 -0.1880840
196 0.9561308 -0.1958483 0.0438692 0.1958483 0.0438692 0.1958483 0.9561308 -0.1958483
205 0.9524506 -0.2038730 0.0475494 0.2038730 0.0475494 0.2038730 0.9524506 -0.2038730
214 0.9484709 -0.2121588 0.0515291 0.2121588 0.0515291 0.2121588 0.9484709 -0.2121588
224 0.9441691 -0.2207044 0.0558309 0.2207044 0.0558309 0.2207044 0.9441691 -0.2207044
234 0.9395219 -0.2295072 0.0604781 0.2295072 0.0604781 0.2295072 0.9395219 -0.2295072
245 0.9345045 -0.2385630 0.0654955 0.2385630 0.0654955 0.2385630 0.9345045 -0.2385630
256 0.9290913 -0.2478651 0.0709087 0.2478651 0.0709087 0.2478651 0.9290913 -0.2478651
268 0.9232559 -0.2574049 0.0767441 0.2574049 0.0767441 0.2574049 0.9232559 -0.2574049
280 0.9169710 -0.2671714 0.0830290 0.2671714 0.0830290 0.2671714 0.9169710 -0.2671714
293 0.9102089 -0.2771505 0.0897911 0.2771505 0.0897911 0.2771505 0.9102089 -0.2771505
306 0.9029413 -0.2873256 0.0970587 0.2873256 0.0970587 0.2873256 0.9029413 -0.2873256
320 0.8951400 -0.2976765 0.1048600 0.2976765 0.1048600 0.2976765 0.8951400 -0.2976765
335 0.8867771 -0.3081801 0.1132229 0.3081801 0.1132229 0.3081801 0.8867771 -0.3081801
350 0.8778251 -0.3188093 0.1221749 0.3188093 0.1221749 0.3188093 0.8778251 -0.3188093
366 0.8682576 -0.3295335 0.1317424 0.3295335 0.1317424 0.3295335 0.8682576 -0.3295335
383 0.8580496 -0.3403184 0.1419504 0.3403184 0.1419504 0.3403184 0.8580496 -0.3403184
401 0.8471780 -0.3511256 0.1528220 0.3511256 0.1528220 0.3511256 0.8471780 -0.3511256
419 0.8356221 -0.3619128 0.1643779 0.3619128 0.1643779 0.3619128 0.8356221 -0.3619128
438 0.8233646 -0.3726341 0.1766354 0.3726341 0.1766354 0.3726341 0.8233646 -0.3726341
458 0.8103913 -0.3832398 0.1896087 0.3832398 0.1896087 0.3832398 0.8103913 -0.3832398
479 0.7966926 -0.3936768 0.2033074 0.3936768 0.2033074 0.3936768 0.7966926 -0.3936768
501 0.7822636 -0.4038889 0.2177364 0.4038889 0.2177364 0.4038889 0.7822636 -0.4038889
524 0.7671048 -0.4138176 0.2328952 0.4138176 0.2328952 0.4138176 0.7671048 -0.4138176
548 0.7512226 -0.4234021 0.2487774 0.4234021 0.2487774 0.4234021 0.7512226 -0.4234021
573 0.7346298 -0.4325804 0.2653702 0.4325804 0.2653702 0.4325804 0.7346298 -0.4325804
600 0.7173461 -0.4412898 0.2826539 0.4412898 0.2826539 0.4412898 0.7173461 -0.4412898
627 0.6993980 -0.4494680 0.3006020 0.4494680 0.3006020 0.4494680 0.6993980 -0.4494680
656 0.6808195 -0.4570538 0.3191805 0.4570538 0.3191805 0.4570538 0.6808195 -0.4570538
686 0.6616515 -0.4639885 0.3383485 0.4639885 0.3383485 0.4639885 0.6616515 -0.4639885
717 0.6419422 -0.4702162 0.3580578 0.4702162 0.3580578 0.4702162 0.6419422 -0.4702162
750 0.6217463 -0.4756854 0.3782537 0.4756854 0.3782537 0.4756854 0.6217463 -0.4756854
784 0.6011251 -0.4803497 0.3988749 0.4803497 0.3988749 0.4803497 0.6011251 -0.4803497
820 0.5801451 -0.4841690 0.4198549 0.4841690 0.4198549 0.4841690 0.5801451 -0.4841690
858 0.5588780 -0.4871096 0.4411220 0.4871096 0.4411220 0.4871096 0.5588780 -0.4871096
897 0.5373991 -0.4891456 0.4626009 0.4891456 0.4626009 0.4891456 0.5373991 -0.4891456
938 0.5157868 -0.4902593 0.4842132 0.4902593 0.4842132 0.4902593 0.5157868 -0.4902593
981 0.4941212 -0.4904409 0.5058788 0.4904409 0.5058788 0.4904409 0.4941212 -0.4904409
1026 0.4724830 -0.4896898 0.5275170 0.4896898 0.5275170 0.4896898 0.4724830 -0.4896898
1073 0.4509524 -0.4880135 0.5490476 0.4880135 0.5490476 0.4880135 0.4509524 -0.4880135
1122 0.4296078 -0.4854280 0.5703922 0.4854280 0.5703922 0.4854280 0.4296078 -0.4854280
1174 0.4085251 -0.4819573 0.5914749 0.4819573 0.5914749 0.4819573 0.4085251 -0.4819573
1227 0.3877761 -0.4776331 0.6122239 0.4776331 0.6122239 0.4776331 0.3877761 -0.4776331
1283 0.3674283 -0.4724936 0.6325717 0.4724936 0.6325717 0.4724936 0.3674283 -0.4724936
1342 0.3475436 -0.4665831 0.6524564 0.4665831 0.6524564 0.4665831 0.3475436 -0.4665831
1404 0.3281778 -0.4599514 0.6718222 0.4599514 0.6718222 0.4599514 0.3281778 -0.4599514
1468 0.3093804 -0.4526521 0.6906196 0.4526521 0.6906196 0.4526521 0.3093804 -0.4526521
1535 0.2911939 -0.4447424 0.7088061 0.4447424 0.7088061 0.4447424 0.2911939 -0.4447424
1606 0.2736539 -0.4362818 0.7263461 0.4362818 0.7263461 0.4362818 0.2736539 -0.4362818
1679 0.2567892 -0.4273312 0.7432108 0.4273312 0.7432108 0.4273312 0.2567892 -0.4273312
1756 0.2406214 -0.4179520 0.7593786 0.4179520 0.7593786 0.4179520 0.2406214 -0.4179520
1836 0.2251658 -0.4082054 0.7748342 0.4082054 0.7748342 0.4082054 0.2251658 -0.4082054
1920 0.2104311 -0.3981514 0.7895689 0.3981514 0.7895689 0.3981514 0.2104311 -0.3981514
2008 0.1964203 -0.3878485 0.8035797 0.3878485 0.8035797 0.3878485 0.1964203 -0.3878485
2100 0.1831309 -0.3773527 0.8168691 0.3773527 0.8168691 0.3773527 0.1831309 -0.3773527
2196 0.1705556 -0.3667174 0.8294444 0.3667174 0.8294444 0.3667174 0.1705556 -0.3667174
2297 0.1586828 -0.3559928 0.8413172 0.3559928 0.8413172 0.3559928 0.1586828 -0.3559928
2402 0.1474970 -0.3452259 0.8525030 0.3452259 0.8525030 0.3452259 0.1474970 -0.3452259
2512 0.1369795 -0.3344597 0.8630205 0.3344597 0.8630205 0.3344597 0.1369795 -0.3344597
2627 0.1271092 -0.3237340 0.8728908 0.3237340 0.8728908 0.3237340 0.1271092 -0.3237340
2748 0.1178625 -0.3130844 0.8821375 0.3130844 0.8821375 0.3130844 0.1178625 -0.3130844
2873 0.1092143 -0.3025432 0.8907857 0.3025432 0.8907857 0.3025432 0.1092143 -0.3025432
3005 0.1011384 -0.2921386 0.8988616 0.2921386 0.8988616 0.2921386 0.1011384 -0.2921386
3143 0.0936076 -0.2818957 0.9063924 0.2818957 0.9063924 0.2818957 0.0936076 -0.2818957
3287 0.0865945 -0.2718361 0.9134055 0.2718361 0.9134055 0.2718361 0.0865945 -0.2718361
3437 0.0800713 -0.2619780 0.9199287 0.2619780 0.9199287 0.2619780 0.0800713 -0.2619780
3594 0.0740106 -0.2523370 0.9259894 0.2523370 0.9259894 0.2523370 0.0740106 -0.2523370
3759 0.0683853 -0.2429256 0.9316147 0.2429256 0.9316147 0.2429256 0.0683853 -0.2429256
3931 0.0631690 -0.2337539 0.9368310 0.2337539 0.9368310 0.2337539 0.0631690 -0.2337539
4111 0.0583359 -0.2248298 0.9416641 0.2248298 0.9416641 0.2248298 0.0583359 -0.2248298
4299 0.0538612 -0.2161588 0.9461388 0.2161588 0.9461388 0.2161588 0.0538612 -0.2161588
4496 0.0497211 -0.2077448 0.9502789 0.2077448 0.9502789 0.2077448 0.0497211 -0.2077448
4702 0.0458927 -0.1995898 0.9541073 0.1995898 0.9541073 0.1995898 0.0458927 -0.1995898
4918 0.0423545 -0.1916945 0.9576455 0.1916945 0.9576455 0.1916945 0.0423545 -0.1916945
5143 0.0390857 -0.1840581 0.9609143 0.1840581 0.9609143 0.1840581 0.0390857 -0.1840581
5378 0.0360671 -0.1766788 0.9639329 0.1766788 0.9639329 0.1766788 0.0360671 -0.1766788
5625 0.0332804 -0.1695538 0.9667196 0.1695538 0.9667196 0.1695538 0.0332804 -0.1695538
5882 0.0307084 -0.1626794 0.9692916 0.1626794 0.9692916 0.1626794 0.0307084 -0.1626794
6151 0.0283350 -0.1560513 0.9716650 0.1560513 0.9716650 0.1560513 0.0283350 -0.1560513
6433 0.0261455 -0.1496646 0.9738545 0.1496646 0.9738545 0.1496646 0.0261455 -0.1496646
6728 0.0241257 -0.1435139 0.9758743 0.1435139 0.9758743 0.1435139 0.0241257 -0.1435139
7036 0.0222627 -0.1375934 0.9777373 0.1375934 0.9777373 0.1375934 0.0222627 -0.1375934
7358 0.0205446 -0.1318972 0.9794554 0.1318972 0.9794554 0.1318972 0.0205446 -0.1318972
7695 0.0189602 -0.1264189 0.9810398 0.1264189 0.9810398 0.1264189 0.0189602 -0.1264189
8047 0.0174991 -0.1211523 0.9825009 0.1211523 0.9825009 0.1211523 0.0174991 -0.1211523
8416 0.0161519 -0.1160909 0.9838481 0.1160909 0.9838481 0.1160909 0.0161519 -0.1160909
8801 0.0149097 -0.1112282 0.9850903 0.1112282 0.9850903 0.1112282 0.0149097 -0.1112282
9204 0.0137646 -0.1065578 0.9862354 0.1065578 0.9862354 0.1065578 0.0137646 -0.1065578
9626 0.0127088 -0.1020732 0.9872912 0.1020732 0.9872912 0.1020732 0.0127088 -0.1020732
10066 0.0117356 -0.0977681 0.9882644 0.0977681 0.9882644 0.0977681 0.0117356 -0.0977681
10527 0.0108387 -0.0936362 0.9891613 0.0936362 0.9891613 0.0936362 0.0108387 -0.0936362
11009 0.0100120 -0.0896715 0.9899880 0.0896715 0.9899880 0.0896715 0.0100120 -0.0896715
11514 0.0092502 -0.0858679 0.9907498 0.0858679 0.9907498 0.0858679 0.0092502 -0.0858679
12041 0.0085483 -0.0822196 0.9914517 0.0822196 0.9914517 0.0822196 0.0085483 -0.0822196
12592 0.0079016 -0.0787209 0.9920984 0.0787209 0.9920984 0.0787209 0.0079016 -0.0787209
13169 0.0073060 -0.0753661 0.9926940 0.0753661 0.9926940 0.0753661 0.0073060 -0.0753661
13772 0.0067574 -0.0721500 0.9932426 0.0721500 0.9932426 0.0721500 0.0067574 -0.0721500
14402 0.0062522 -0.0690673 0.9937478 0.0690673 0.9937478 0.0690673 0.0062522 -0.0690673
15062 0.0057870 -0.0661129 0.9942130 0.0661129 0.9942130 0.0661129 0.0057870 -0.0661129
15752 0.0053588 -0.0632818 0.9946412 0.0632818 0.9946412 0.0632818 0.0053588 -0.0632818
16473 0.0049645 -0.0605693 0.9950355 0.0605693 0.9950355 0.0605693 0.0049645 -0.0605693
17227 0.0046016 -0.0579708 0.9953984 0.0579708 0.9953984 0.0579708 0.0046016 -0.0579708
18016 0.0042675 -0.0554818 0.9957325 0.0554818 0.9957325 0.0554818 0.0042675 -0.0554818
18841 0.0039600 -0.0530979 0.9960400 0.0530979 0.9960400 0.0530979 0.0039600 -0.0530979
19704 0.0036769 -0.0508150 0.9963231 0.0508150 0.9963231 0.0508150 0.0036769 -0.0508150
20606 0.0034164 -0.0486291 0.9965836 0.0486291 0.9965836 0.0486291 0.0034164 -0.0486291
21550 0.0031764 -0.0465362 0.9968236 0.0465362 0.9968236 0.0465362 0.0031764 -0.0465362
22537 0.0029555 -0.0445327 0.9970445 0.0445327 0.9970445 0.0445327 0.0029555 -0.0445327
23569 0.0027520 -0.0426147 0.9972480 0.0426147 0.9972480 0.0426147 0.0027520 -0.0426147
24648 0.0025644 -0.0407789 0.9974356 0.0407789 0.9974356 0.0407789 0.0025644 -0.0407789
25777 0.0023916 -0.0390218 0.9976084 0.0390218 0.9976084 0.0390218 0.0023916 -0.0390218
26957 0.0022321 -0.0373401 0.9977679 0.0373401 0.9977679 0.0373401 0.0022321 -0.0373401
28191 0.0020850 -0.0357309 0.9979150 0.0357309 0.9979150 0.0357309 0.0020850 -0.0357309
29482 0.0019492 -0.0341909 0.9980508 0.0341909 0.9980508 0.0341909 0.0019492 -0.0341909
30832 0.0018237 -0.0327173 0.9981763 0.0327173 0.9981763 0.0327173 0.0018237 -0.0327173
32244 0.0017076 -0.0313072 0.9982924 0.0313072 0.9982924 0.0313072 0.0017076 -0.0313072
33721 0.0016002 -0.0299580 0.9983998 0.0299580 0.9983998 0.0299580 0.0016002 -0.0299580
35265 0.0015007 -0.0286671 0.9984993 0.0286671 0.9984993 0.0286671 0.0015007 -0.0286671
36880 0.0014085 -0.0274319 0.9985915 0.0274319 0.9985915 0.0274319 0.0014085 -0.0274319
38569 0.0013229 -0.0262501 0.9986771 0.0262501 0.9986771 0.0262501 0.0013229 -0.0262501
40335 0.0012433 -0.0251193 0.9987567 0.0251193 0.9987567 0.0251193 0.0012433 -0.0251193
42182 0.0011694 -0.0240374 0.9988306 0.0240374 0.9988306 0.0240374 0.0011694 -0.0240374
44113 0.0011005 -0.0230022 0.9988995 0.0230022 0.9988995 0.0230022 0.0011005 -0.0230022
46134 0.0010364 -0.0220116 0.9989636 0.0220116 0.9989636 0.0220116 0.0010364 -0.0220116
48246 0.0009765 -0.0210638 0.9990235 0.0210638 0.9990235 0.0210638 0.0009765 -0.0210638
50455 0.0009207 -0.0201569 0.9990793 0.0201569 0.9990793 0.0201569 0.0009207 -0.0201569
52766 0.0008685 -0.0192890 0.9991315 0.0192890 0.9991315 0.0192890 0.0008685 -0.0192890
55182 0.0008198 -0.0184585 0.9991802 0.0184585 0.9991802 0.0184585 0.0008198 -0.0184585
57709 0.0007742 -0.0176637 0.9992258 0.0176637 0.9992258 0.0176637 0.0007742 -0.0176637
60352 0.0007315 -0.0169031 0.9992685 0.0169031 0.9992685 0.0169031 0.0007315 -0.0169031
63115 0.0006915 -0.0161752 0.9993085 0.0161752 0.9993085 0.0161752 0.0006915 -0.0161752
66005 0.0006541 -0.0154785 0.9993459 0.0154785 0.9993459 0.0154785 0.0006541 -0.0154785
69028 0.0006190 -0.0148117 0.9993810 0.0148117 0.9993810 0.0148117 0.0006190 -0.0148117
72189 0.0005862 -0.0141736 0.9994138 0.0141736 0.9994138 0.0141736 0.0005862 -0.0141736
75495 0.0005554 -0.0135629 0.9994446 0.0135629 0.9994446 0.0135629 0.0005554 -0.0135629
78952 0.0005266 -0.0129783 0.9994734 0.0129783 0.9994734 0.0129783 0.0005266 -0.0129783
82567 0.0004996 -0.0124188 0.9995004 0.0124188 0.9995004 0.0124188 0.0004996 -0.0124188
86348 0.0004744 -0.0118834 0.9995256 0.0118834 0.9995256 0.0118834 0.0004744 -0.0118834
90302 0.0004507 -0.0113709 0.9995493 0.0113709 0.9995493 0.0113709 0.0004507 -0.0113709
94437 0.0004286 -0.0108804 0.9995714 0.0108804 0.9995714 0.0108804 0.0004286 -0.0108804
98762 0.0004078 -0.0104110 0.9995922 0.0104110 0.9995922 0.0104110 0.0004078 -0.0104110
103284 0.0003884 -0.0099617 0.9996116 0.0099617 0.9996116 0.0099617 0.0003884 -0.0099617
108014 0.0003703 -0.0095318 0.9996297 0.0095318 0.9996297 0.0095318 0.0003703 -0.0095318
112960 0.0003533 -0.0091204 0.9996467 0.0091204 0.9996467 0.0091204 0.0003533 -0.0091204
118133 0.0003374 -0.0087266 0.9996626 0.0087266 0.9996626 0.0087266 0.0003374 -0.0087266
123542 0.0003226 -0.0083499 0.9996774 0.0083499 0.9996774 0.0083499 0.0003226 -0.0083499
129199 0.0003086 -0.0079894 0.9996914 0.0079894 0.9996914 0.0079894 0.0003086 -0.0079894
135116 0.0002956 -0.0076444 0.9997044 0.0076444 0.9997044 0.0076444 0.0002956 -0.0076444
141303 0.0002834 -0.0073144 0.9997166 0.0073144 0.9997166 0.0073144 0.0002834 -0.0073144
147774 0.0002719 -0.0069986 0.9997281 0.0069986 0.9997281 0.0069986 0.0002719 -0.0069986
154540 0.0002611 -0.0066964 0.9997389 0.0066964 0.9997389 0.0066964 0.0002611 -0.0066964
161617 0.0002510 -0.0064073 0.9997490 0.0064073 0.9997490 0.0064073 0.0002510 -0.0064073
169018 0.0002415 -0.0061308 0.9997585 0.0061308 0.9997585 0.0061308 0.0002415 -0.0061308
176758 0.0002325 -0.0058662 0.9997675 0.0058662 0.9997675 0.0058662 0.0002325 -0.0058662
184852 0.0002240 -0.0056130 0.9997760 0.0056130 0.9997760 0.0056130 0.0002240 -0.0056130
193316 0.0002159 -0.0053708 0.9997841 0.0053708 0.9997841 0.0053708 0.0002159 -0.0053708
202169 0.0002083 -0.0051391 0.9997917 0.0051391 0.9997917 0.0051391 0.0002083 -0.0051391
211427 0.0002011 -0.0049174 0.9997989 0.0049174 0.9997989 0.0049174 0.0002011 -0.0049174
221108 0.0001942 -0.0047053 0.9998058 0.0047053 0.9998058 0.0047053 0.0001942 -0.0047053
231233 0.0001876 -0.0045024 0.9998124 0.0045024 0.9998124 0.0045024 0.0001876 -0.0045024
241822 0.0001814 -0.0043082 0.9998186 0.0043082 0.9998186 0.0043082 0.0001814 -0.0043082
252896 0.0001754 -0.0041224 0.9998246 0.0041224 0.9998246 0.0041224 0.0001754 -0.0041224
264476 0.0001697 -0.0039446 0.9998303 0.0039446 0.9998303 0.0039446 0.0001697 -0.0039446
276587 0.0001642 -0.0037744 0.9998358 0.0037744 0.9998358 0.0037744 0.0001642 -0.0037744
289253 0.0001589 -0.0036115 0.9998411 0.0036115 0.9998411 0.0036115 0.0001589 -0.0036115
302498 0.0001538 -0.0034557 0.9998462 0.0034557 0.9998462 0.0034557 0.0001538 -0.0034557
316350 0.0001490 -0.0033065 0.9998510 0.0033065 0.9998510 0.0033065 0.0001490 -0.0033065
330837 0.0001443 -0.0031637 0.9998557 0.0031637 0.9998557 0.0031637 0.0001443 -0.0031637
345986 0.0001398 -0.0030269 0.9998602 0.0030269 0.9998602 0.0030269 0.0001398 -0.0030269
361830 0.0001355 -0.0028960 0.9998645 0.0028960 0.9998645 0.0028960 0.0001355 -0.0028960
378399 0.0001313 -0.0027707 0.9998687 0.0027707 0.9998687 0.0027707 0.0001313 -0.0027707
395726 0.0001273 -0.0026507 0.9998727 0.0026507 0.9998727 0.0026507 0.0001273 -0.0026507
413847 0.0001235 -0.0025357 0.9998765 0.0025357 0.9998765 0.0025357 0.0001235 -0.0025357
432798 0.0001199 -0.0024257 0.9998801 0.0024257 0.9998801 0.0024257 0.0001199 -0.0024257
452617 0.0001164 -0.0023202 0.9998836 0.0023202 0.9998836 0.0023202 0.0001164 -0.0023202
473344 0.0001130 -0.0022192 0.9998870 0.0022192 0.9998870 0.0022192 0.0001130 -0.0022192
495019 0.0001099 -0.0021225 0.9998901 0.0021225 0.9998901 0.0021225 0.0001099 -0.0021225
517687 0.0001068 -0.0020298 0.9998932 0.0020298 0.9998932 0.0020298 0.0001068 -0.0020298
541393 0.0001040 -0.0019411 0.9998960 0.0019411 0.9998960 0.0019411 0.0001040 -0.0019411
566185 0.0001012 -0.0018560 0.9998988 0.0018560 0.9998988 0.0018560 0.0001012 -0.0018560
592111 0.0000987 -0.0017745 0.9999013 0.0017745 0.9999013 0.0017745 0.0000987 -0.0017745
619225 0.0000962 -0.0016964 0.9999038 0.0016964 0.9999038 0.0016964 0.0000962 -0.0016964
647581 0.0000939 -0.0016216 0.9999061 0.0016216 0.9999061 0.0016216 0.0000939 -0.0016216
677235 0.0000918 -0.0015499 0.9999082 0.0015499 0.9999082 0.0015499 0.0000918 -0.0015499
708247 0.0000898 -0.0014812 0.9999102 0.0014812 0.9999102 0.0014812 0.0000898 -0.0014812
740679 0.0000879 -0.0014154 0.9999121 0.0014154 0.9999121 0.0014154 0.0000879 -0.0014154
774597 0.0000861 -0.0013522 0.9999139 0.0013522 0.9999139 0.0013522 0.0000861 -0.0013522
810067 0.0000844 -0.0012918 0.9999156 0.0012918 0.9999156 0.0012918 0.0000844 -0.0012918
847162 0.0000829 -0.0012338 0.9999171 0.0012338 0.9999171 0.0012338 0.0000829 -0.0012338
885955 0.0000815 -0.0011782 0.9999185 0.0011782 0.9999185 0.0011782 0.0000815 -0.0011782
926525 0.0000801 -0.0011249 0.9999199 0.0011249 0.9999199 0.0011249 0.0000801 -0.0011249
968953 0.0000789 -0.0010738 0.9999211 0.0010738 0.9999211 0.0010738 0.0000789 -0.0010738
1013323 0.0000778 -0.0010248 0.9999222 0.0010248 0.9999222 0.0010248 0.0000778 -0.0010248
1059725 0.0000767 -0.0009778 0.9999233 0.0009778 0.9999233 0.0009778 0.0000767 -0.0009778
1108252 0.0000758 -0.0009327 0.9999242 0.0009327 0.9999242 0.0009327 0.0000758 -0.0009327
1159002 0.0000749 -0.0008895 0.9999251 0.0008895 0.9999251 0.0008895 0.0000749 -0.0008895
1212075 0.0000741 -0.0008480 0.9999259 0.0008480 0.9999259 0.0008480 0.0000741 -0.0008480
1267578 0.0000733 -0.0008081 0.9999267 0.0008081 0.9999267 0.0008081 0.0000733 -0.0008081
1325623 0.0000727 -0.0007699 0.9999273 0.0007699 0.9999273 0.0007699 0.0000727 -0.0007699
1386327 0.0000721 -0.0007332 0.9999279 0.0007332 0.9999279 0.0007332 0.0000721 -0.0007332
1449809 0.0000715 -0.0006979 0.9999285 0.0006979 0.9999285 0.0006979 0.0000715 -0.0006979
1516199 0.0000710 -0.0006640 0.9999290 0.0006640 0.9999290 0.0006640 0.0000710 -0.0006640
1585629 0.0000706 -0.0006314 0.9999294 0.0006314 0.9999294 0.0006314 0.0000706 -0.0006314
1658239 0.0000702 -0.0006001 0.9999298 0.0006001 0.9999298 0.0006001 0.0000702 -0.0006001
1734173 0.0000699 -0.0005699 0.9999301 0.0005699 0.9999301 0.0005699 0.0000699 -0.0005699
1813585 0.0000696 -0.0005409 0.9999304 0.0005409 0.9999304 0.0005409 0.0000696 -0.0005409
1896632 0.0000694 -0.0005130 0.9999306 0.0005130 0.9999306 0.0005130 0.0000694 -0.0005130
1983483 0.0000692 -0.0004860 0.9999308 0.0004860 0.9999308 0.0004860 0.0000692 -0.0004860
2074311 0.0000691 -0.0004601 0.9999309 0.0004601 0.9999309 0.0004601 0.0000691 -0.0004601
