!Murata Part Number: GRM155B11H681KA01
!These Parameters are Measured in Series Mode Connection
!Data Generated on Mar 30, 2021
!       o--ll--o
!Port1            Port2
!       o------o
!Operation Temp=25[degC], DC Bias Voltage=0[V]
!Freq. Start=100[Hz] Stop=6[GHz] 401[Steps]
# Hz S RI R 50
!Freq.(Hz) S11(Real) S11(Imag) S21(Real) S21(Imag) S12(Real) S12(Imag) S22(Real) S22(Imag)
100 0.9999997 -0.0000415 0.0000003 0.0000415 0.0000003 0.0000415 0.9999997 -0.0000415
105 0.9999997 -0.0000433 0.0000003 0.0000433 0.0000003 0.0000433 0.9999997 -0.0000433
109 0.9999997 -0.0000453 0.0000003 0.0000453 0.0000003 0.0000453 0.9999997 -0.0000453
114 0.9999997 -0.0000474 0.0000003 0.0000474 0.0000003 0.0000474 0.9999997 -0.0000474
120 0.9999997 -0.0000495 0.0000003 0.0000495 0.0000003 0.0000495 0.9999997 -0.0000495
125 0.9999996 -0.0000518 0.0000004 0.0000518 0.0000004 0.0000518 0.9999996 -0.0000518
131 0.9999996 -0.0000542 0.0000004 0.0000542 0.0000004 0.0000542 0.9999996 -0.0000542
137 0.9999996 -0.0000566 0.0000004 0.0000566 0.0000004 0.0000566 0.9999996 -0.0000566
143 0.9999996 -0.0000592 0.0000004 0.0000592 0.0000004 0.0000592 0.9999996 -0.0000592
150 0.9999996 -0.0000619 0.0000004 0.0000619 0.0000004 0.0000619 0.9999996 -0.0000619
156 0.9999996 -0.0000647 0.0000004 0.0000647 0.0000004 0.0000647 0.9999996 -0.0000647
164 0.9999996 -0.0000677 0.0000004 0.0000677 0.0000004 0.0000677 0.9999996 -0.0000677
171 0.9999996 -0.0000707 0.0000004 0.0000707 0.0000004 0.0000707 0.9999996 -0.0000707
179 0.9999996 -0.0000740 0.0000004 0.0000740 0.0000004 0.0000740 0.9999996 -0.0000740
187 0.9999995 -0.0000773 0.0000005 0.0000773 0.0000005 0.0000773 0.9999995 -0.0000773
196 0.9999995 -0.0000809 0.0000005 0.0000809 0.0000005 0.0000809 0.9999995 -0.0000809
205 0.9999995 -0.0000846 0.0000005 0.0000846 0.0000005 0.0000846 0.9999995 -0.0000846
214 0.9999995 -0.0000884 0.0000005 0.0000884 0.0000005 0.0000884 0.9999995 -0.0000884
224 0.9999995 -0.0000925 0.0000005 0.0000925 0.0000005 0.0000925 0.9999995 -0.0000925
234 0.9999995 -0.0000967 0.0000005 0.0000967 0.0000005 0.0000967 0.9999995 -0.0000967
245 0.9999995 -0.0001011 0.0000005 0.0001011 0.0000005 0.0001011 0.9999995 -0.0001011
256 0.9999994 -0.0001057 0.0000006 0.0001057 0.0000006 0.0001057 0.9999994 -0.0001057
268 0.9999994 -0.0001105 0.0000006 0.0001105 0.0000006 0.0001105 0.9999994 -0.0001105
280 0.9999994 -0.0001156 0.0000006 0.0001156 0.0000006 0.0001156 0.9999994 -0.0001156
293 0.9999994 -0.0001209 0.0000006 0.0001209 0.0000006 0.0001209 0.9999994 -0.0001209
306 0.9999994 -0.0001264 0.0000006 0.0001264 0.0000006 0.0001264 0.9999994 -0.0001264
320 0.9999994 -0.0001322 0.0000006 0.0001322 0.0000006 0.0001322 0.9999994 -0.0001322
335 0.9999993 -0.0001382 0.0000007 0.0001382 0.0000007 0.0001382 0.9999993 -0.0001382
350 0.9999993 -0.0001445 0.0000007 0.0001445 0.0000007 0.0001445 0.9999993 -0.0001445
366 0.9999993 -0.0001511 0.0000007 0.0001511 0.0000007 0.0001511 0.9999993 -0.0001511
383 0.9999993 -0.0001580 0.0000007 0.0001580 0.0000007 0.0001580 0.9999993 -0.0001580
401 0.9999993 -0.0001652 0.0000007 0.0001652 0.0000007 0.0001652 0.9999993 -0.0001652
419 0.9999992 -0.0001728 0.0000008 0.0001728 0.0000008 0.0001728 0.9999992 -0.0001728
438 0.9999992 -0.0001807 0.0000008 0.0001807 0.0000008 0.0001807 0.9999992 -0.0001807
458 0.9999992 -0.0001889 0.0000008 0.0001889 0.0000008 0.0001889 0.9999992 -0.0001889
479 0.9999991 -0.0001976 0.0000009 0.0001976 0.0000009 0.0001976 0.9999991 -0.0001976
501 0.9999991 -0.0002066 0.0000009 0.0002066 0.0000009 0.0002066 0.9999991 -0.0002066
524 0.9999991 -0.0002161 0.0000009 0.0002161 0.0000009 0.0002161 0.9999991 -0.0002161
548 0.9999990 -0.0002259 0.0000010 0.0002259 0.0000010 0.0002259 0.9999990 -0.0002259
573 0.9999990 -0.0002363 0.0000010 0.0002363 0.0000010 0.0002363 0.9999990 -0.0002363
600 0.9999989 -0.0002471 0.0000011 0.0002471 0.0000011 0.0002471 0.9999989 -0.0002471
627 0.9999989 -0.0002584 0.0000011 0.0002584 0.0000011 0.0002584 0.9999989 -0.0002584
656 0.9999988 -0.0002702 0.0000012 0.0002702 0.0000012 0.0002702 0.9999988 -0.0002702
686 0.9999987 -0.0002825 0.0000013 0.0002825 0.0000013 0.0002825 0.9999987 -0.0002825
717 0.9999987 -0.0002954 0.0000013 0.0002954 0.0000013 0.0002954 0.9999987 -0.0002954
750 0.9999986 -0.0003089 0.0000014 0.0003089 0.0000014 0.0003089 0.9999986 -0.0003089
784 0.9999985 -0.0003230 0.0000015 0.0003230 0.0000015 0.0003230 0.9999985 -0.0003230
820 0.9999985 -0.0003378 0.0000015 0.0003378 0.0000015 0.0003378 0.9999985 -0.0003378
858 0.9999984 -0.0003532 0.0000016 0.0003532 0.0000016 0.0003532 0.9999984 -0.0003532
897 0.9999983 -0.0003694 0.0000017 0.0003694 0.0000017 0.0003694 0.9999983 -0.0003694
938 0.9999982 -0.0003862 0.0000018 0.0003862 0.0000018 0.0003862 0.9999982 -0.0003862
981 0.9999981 -0.0004039 0.0000019 0.0004039 0.0000019 0.0004039 0.9999981 -0.0004039
1026 0.9999980 -0.0004223 0.0000020 0.0004223 0.0000020 0.0004223 0.9999980 -0.0004223
1073 0.9999979 -0.0004416 0.0000021 0.0004416 0.0000021 0.0004416 0.9999979 -0.0004416
1122 0.9999977 -0.0004618 0.0000023 0.0004618 0.0000023 0.0004618 0.9999977 -0.0004618
1174 0.9999976 -0.0004829 0.0000024 0.0004829 0.0000024 0.0004829 0.9999976 -0.0004829
1227 0.9999975 -0.0005049 0.0000025 0.0005049 0.0000025 0.0005049 0.9999975 -0.0005049
1283 0.9999974 -0.0005280 0.0000026 0.0005280 0.0000026 0.0005280 0.9999974 -0.0005280
1342 0.9999972 -0.0005521 0.0000028 0.0005521 0.0000028 0.0005521 0.9999972 -0.0005521
1404 0.9999970 -0.0005773 0.0000030 0.0005773 0.0000030 0.0005773 0.9999970 -0.0005773
1468 0.9999969 -0.0006036 0.0000031 0.0006036 0.0000031 0.0006036 0.9999969 -0.0006036
1535 0.9999967 -0.0006312 0.0000033 0.0006312 0.0000033 0.0006312 0.9999967 -0.0006312
1606 0.9999965 -0.0006600 0.0000035 0.0006600 0.0000035 0.0006600 0.9999965 -0.0006600
1679 0.9999964 -0.0006901 0.0000036 0.0006901 0.0000036 0.0006901 0.9999964 -0.0006901
1756 0.9999962 -0.0007216 0.0000038 0.0007216 0.0000038 0.0007216 0.9999962 -0.0007216
1836 0.9999960 -0.0007545 0.0000040 0.0007545 0.0000040 0.0007545 0.9999960 -0.0007545
1920 0.9999958 -0.0007889 0.0000042 0.0007889 0.0000042 0.0007889 0.9999958 -0.0007889
2008 0.9999955 -0.0008249 0.0000045 0.0008249 0.0000045 0.0008249 0.9999955 -0.0008249
2100 0.9999953 -0.0008626 0.0000047 0.0008626 0.0000047 0.0008626 0.9999953 -0.0008626
2196 0.9999951 -0.0009020 0.0000049 0.0009020 0.0000049 0.0009020 0.9999951 -0.0009020
2297 0.9999948 -0.0009431 0.0000052 0.0009431 0.0000052 0.0009431 0.9999948 -0.0009431
2402 0.9999946 -0.0009862 0.0000054 0.0009862 0.0000054 0.0009862 0.9999946 -0.0009862
2512 0.9999943 -0.0010312 0.0000057 0.0010312 0.0000057 0.0010312 0.9999943 -0.0010312
2627 0.9999940 -0.0010783 0.0000060 0.0010783 0.0000060 0.0010783 0.9999940 -0.0010783
2748 0.9999937 -0.0011275 0.0000063 0.0011275 0.0000063 0.0011275 0.9999937 -0.0011275
2873 0.9999933 -0.0011790 0.0000067 0.0011790 0.0000067 0.0011790 0.9999933 -0.0011790
3005 0.9999930 -0.0012328 0.0000070 0.0012328 0.0000070 0.0012328 0.9999930 -0.0012328
3143 0.9999926 -0.0012891 0.0000074 0.0012891 0.0000074 0.0012891 0.9999926 -0.0012891
3287 0.9999922 -0.0013480 0.0000078 0.0013480 0.0000078 0.0013480 0.9999922 -0.0013480
3437 0.9999918 -0.0014096 0.0000082 0.0014096 0.0000082 0.0014096 0.9999918 -0.0014096
3594 0.9999914 -0.0014740 0.0000086 0.0014740 0.0000086 0.0014740 0.9999914 -0.0014740
3759 0.9999909 -0.0015413 0.0000091 0.0015413 0.0000091 0.0015413 0.9999909 -0.0015413
3931 0.9999904 -0.0016117 0.0000096 0.0016117 0.0000096 0.0016117 0.9999904 -0.0016117
4111 0.9999898 -0.0016853 0.0000102 0.0016853 0.0000102 0.0016853 0.9999898 -0.0016853
4299 0.9999892 -0.0017623 0.0000108 0.0017623 0.0000108 0.0017623 0.9999892 -0.0017623
4496 0.9999886 -0.0018428 0.0000114 0.0018428 0.0000114 0.0018428 0.9999886 -0.0018428
4702 0.9999879 -0.0019270 0.0000121 0.0019270 0.0000121 0.0019270 0.9999879 -0.0019270
4918 0.9999872 -0.0020151 0.0000128 0.0020151 0.0000128 0.0020151 0.9999872 -0.0020151
5143 0.9999864 -0.0021071 0.0000136 0.0021071 0.0000136 0.0021071 0.9999864 -0.0021071
5378 0.9999855 -0.0022034 0.0000145 0.0022034 0.0000145 0.0022034 0.9999855 -0.0022034
5625 0.9999846 -0.0023041 0.0000154 0.0023041 0.0000154 0.0023041 0.9999846 -0.0023041
5882 0.9999836 -0.0024093 0.0000164 0.0024093 0.0000164 0.0024093 0.9999836 -0.0024093
6151 0.9999825 -0.0025194 0.0000175 0.0025194 0.0000175 0.0025194 0.9999825 -0.0025194
6433 0.9999813 -0.0026345 0.0000187 0.0026345 0.0000187 0.0026345 0.9999813 -0.0026345
6728 0.9999800 -0.0027549 0.0000200 0.0027549 0.0000200 0.0027549 0.9999800 -0.0027549
7036 0.9999787 -0.0028807 0.0000213 0.0028807 0.0000213 0.0028807 0.9999787 -0.0028807
7358 0.9999772 -0.0030123 0.0000228 0.0030123 0.0000228 0.0030123 0.9999772 -0.0030123
7695 0.9999756 -0.0031499 0.0000244 0.0031499 0.0000244 0.0031499 0.9999756 -0.0031499
8047 0.9999738 -0.0032937 0.0000262 0.0032937 0.0000262 0.0032937 0.9999738 -0.0032937
8416 0.9999720 -0.0034441 0.0000280 0.0034441 0.0000280 0.0034441 0.9999720 -0.0034441
8801 0.9999699 -0.0036014 0.0000301 0.0036014 0.0000301 0.0036014 0.9999699 -0.0036014
9204 0.9999677 -0.0037658 0.0000323 0.0037658 0.0000323 0.0037658 0.9999677 -0.0037658
9626 0.9999654 -0.0039377 0.0000346 0.0039377 0.0000346 0.0039377 0.9999654 -0.0039377
10066 0.9999629 -0.0041175 0.0000371 0.0041175 0.0000371 0.0041175 0.9999629 -0.0041175
10527 0.9999601 -0.0043054 0.0000399 0.0043054 0.0000399 0.0043054 0.9999601 -0.0043054
11009 0.9999572 -0.0045019 0.0000428 0.0045019 0.0000428 0.0045019 0.9999572 -0.0045019
11514 0.9999540 -0.0047074 0.0000460 0.0047074 0.0000460 0.0047074 0.9999540 -0.0047074
12041 0.9999506 -0.0049221 0.0000494 0.0049221 0.0000494 0.0049221 0.9999506 -0.0049221
12592 0.9999470 -0.0051467 0.0000530 0.0051467 0.0000530 0.0051467 0.9999470 -0.0051467
13169 0.9999430 -0.0053815 0.0000570 0.0053815 0.0000570 0.0053815 0.9999430 -0.0053815
13772 0.9999388 -0.0056270 0.0000612 0.0056270 0.0000612 0.0056270 0.9999388 -0.0056270
14402 0.9999343 -0.0058836 0.0000657 0.0058836 0.0000657 0.0058836 0.9999343 -0.0058836
15062 0.9999294 -0.0061520 0.0000706 0.0061520 0.0000706 0.0061520 0.9999294 -0.0061520
15752 0.9999241 -0.0064326 0.0000759 0.0064326 0.0000759 0.0064326 0.9999241 -0.0064326
16473 0.9999185 -0.0067259 0.0000815 0.0067259 0.0000815 0.0067259 0.9999185 -0.0067259
17227 0.9999124 -0.0070326 0.0000876 0.0070326 0.0000876 0.0070326 0.9999124 -0.0070326
18016 0.9999059 -0.0073533 0.0000941 0.0073533 0.0000941 0.0073533 0.9999059 -0.0073533
18841 0.9998988 -0.0076886 0.0001012 0.0076886 0.0001012 0.0076886 0.9998988 -0.0076886
19704 0.9998913 -0.0080392 0.0001087 0.0080392 0.0001087 0.0080392 0.9998913 -0.0080392
20606 0.9998831 -0.0084058 0.0001169 0.0084058 0.0001169 0.0084058 0.9998831 -0.0084058
21550 0.9998743 -0.0087891 0.0001257 0.0087891 0.0001257 0.0087891 0.9998743 -0.0087891
22537 0.9998648 -0.0091899 0.0001352 0.0091899 0.0001352 0.0091899 0.9998648 -0.0091899
23569 0.9998546 -0.0096090 0.0001454 0.0096090 0.0001454 0.0096090 0.9998546 -0.0096090
24648 0.9998435 -0.0100472 0.0001565 0.0100472 0.0001565 0.0100472 0.9998435 -0.0100472
25777 0.9998315 -0.0105054 0.0001685 0.0105054 0.0001685 0.0105054 0.9998315 -0.0105054
26957 0.9998186 -0.0109845 0.0001814 0.0109845 0.0001814 0.0109845 0.9998186 -0.0109845
28191 0.9998045 -0.0114855 0.0001955 0.0114855 0.0001955 0.0114855 0.9998045 -0.0114855
29482 0.9997893 -0.0120094 0.0002107 0.0120094 0.0002107 0.0120094 0.9997893 -0.0120094
30832 0.9997728 -0.0125572 0.0002272 0.0125572 0.0002272 0.0125572 0.9997728 -0.0125572
32244 0.9997549 -0.0131300 0.0002451 0.0131300 0.0002451 0.0131300 0.9997549 -0.0131300
33721 0.9997355 -0.0137290 0.0002645 0.0137290 0.0002645 0.0137290 0.9997355 -0.0137290
35265 0.9997144 -0.0143552 0.0002856 0.0143552 0.0002856 0.0143552 0.9997144 -0.0143552
36880 0.9996914 -0.0150101 0.0003086 0.0150101 0.0003086 0.0150101 0.9996914 -0.0150101
38569 0.9996664 -0.0156948 0.0003336 0.0156948 0.0003336 0.0156948 0.9996664 -0.0156948
40335 0.9996392 -0.0164108 0.0003608 0.0164108 0.0003608 0.0164108 0.9996392 -0.0164108
42182 0.9996097 -0.0171594 0.0003903 0.0171594 0.0003903 0.0171594 0.9996097 -0.0171594
44113 0.9995775 -0.0179421 0.0004225 0.0179421 0.0004225 0.0179421 0.9995775 -0.0179421
46134 0.9995424 -0.0187605 0.0004576 0.0187605 0.0004576 0.0187605 0.9995424 -0.0187605
48246 0.9995042 -0.0196162 0.0004958 0.0196162 0.0004958 0.0196162 0.9995042 -0.0196162
50455 0.9994626 -0.0205108 0.0005374 0.0205108 0.0005374 0.0205108 0.9994626 -0.0205108
52766 0.9994172 -0.0214461 0.0005828 0.0214461 0.0005828 0.0214461 0.9994172 -0.0214461
55182 0.9993678 -0.0224239 0.0006322 0.0224239 0.0006322 0.0224239 0.9993678 -0.0224239
57709 0.9993139 -0.0234462 0.0006861 0.0234462 0.0006861 0.0234462 0.9993139 -0.0234462
60352 0.9992552 -0.0245149 0.0007448 0.0245149 0.0007448 0.0245149 0.9992552 -0.0245149
63115 0.9991913 -0.0256321 0.0008087 0.0256321 0.0008087 0.0256321 0.9991913 -0.0256321
66005 0.9991216 -0.0268000 0.0008784 0.0268000 0.0008784 0.0268000 0.9991216 -0.0268000
69028 0.9990456 -0.0280208 0.0009544 0.0280208 0.0009544 0.0280208 0.9990456 -0.0280208
72189 0.9989628 -0.0292970 0.0010372 0.0292970 0.0010372 0.0292970 0.9989628 -0.0292970
75495 0.9988726 -0.0306309 0.0011274 0.0306309 0.0011274 0.0306309 0.9988726 -0.0306309
78952 0.9987743 -0.0320251 0.0012257 0.0320251 0.0012257 0.0320251 0.9987743 -0.0320251
82567 0.9986672 -0.0334824 0.0013328 0.0334824 0.0013328 0.0334824 0.9986672 -0.0334824
86348 0.9985505 -0.0350054 0.0014495 0.0350054 0.0014495 0.0350054 0.9985505 -0.0350054
90302 0.9984234 -0.0365972 0.0015766 0.0365972 0.0015766 0.0365972 0.9984234 -0.0365972
94437 0.9982849 -0.0382608 0.0017151 0.0382608 0.0017151 0.0382608 0.9982849 -0.0382608
98762 0.9981341 -0.0399992 0.0018659 0.0399992 0.0018659 0.0399992 0.9981341 -0.0399992
103284 0.9979698 -0.0418160 0.0020302 0.0418160 0.0020302 0.0418160 0.9979698 -0.0418160
108014 0.9977908 -0.0437143 0.0022092 0.0437143 0.0022092 0.0437143 0.9977908 -0.0437143
112960 0.9975958 -0.0456980 0.0024042 0.0456980 0.0024042 0.0456980 0.9975958 -0.0456980
118133 0.9973834 -0.0477706 0.0026166 0.0477706 0.0026166 0.0477706 0.9973834 -0.0477706
123542 0.9971521 -0.0499361 0.0028479 0.0499361 0.0028479 0.0499361 0.9971521 -0.0499361
129199 0.9969001 -0.0521985 0.0030999 0.0521985 0.0030999 0.0521985 0.9969001 -0.0521985
135116 0.9966256 -0.0545620 0.0033744 0.0545620 0.0033744 0.0545620 0.9966256 -0.0545620
141303 0.9963265 -0.0570309 0.0036735 0.0570309 0.0036735 0.0570309 0.9963265 -0.0570309
147774 0.9960007 -0.0596098 0.0039993 0.0596098 0.0039993 0.0596098 0.9960007 -0.0596098
154540 0.9956457 -0.0623033 0.0043543 0.0623033 0.0043543 0.0623033 0.9956457 -0.0623033
161617 0.9952589 -0.0651164 0.0047411 0.0651164 0.0047411 0.0651164 0.9952589 -0.0651164
169018 0.9948375 -0.0680540 0.0051625 0.0680540 0.0051625 0.0680540 0.9948375 -0.0680540
176758 0.9943782 -0.0711213 0.0056218 0.0711213 0.0056218 0.0711213 0.9943782 -0.0711213
184852 0.9938777 -0.0743237 0.0061223 0.0743237 0.0061223 0.0743237 0.9938777 -0.0743237
193316 0.9933322 -0.0776666 0.0066678 0.0776666 0.0066678 0.0776666 0.9933322 -0.0776666
202169 0.9927377 -0.0811558 0.0072623 0.0811558 0.0072623 0.0811558 0.9927377 -0.0811558
211427 0.9920897 -0.0847971 0.0079103 0.0847971 0.0079103 0.0847971 0.9920897 -0.0847971
221108 0.9913836 -0.0885964 0.0086164 0.0885964 0.0086164 0.0885964 0.9913836 -0.0885964
231233 0.9906139 -0.0925598 0.0093861 0.0925598 0.0093861 0.0925598 0.9906139 -0.0925598
241822 0.9897751 -0.0966935 0.0102249 0.0966935 0.0102249 0.0966935 0.9897751 -0.0966935
252896 0.9888611 -0.1010039 0.0111389 0.1010039 0.0111389 0.1010039 0.9888611 -0.1010039
264476 0.9878650 -0.1054973 0.0121350 0.1054973 0.0121350 0.1054973 0.9878650 -0.1054973
276587 0.9867798 -0.1101802 0.0132202 0.1101802 0.0132202 0.1101802 0.9867798 -0.1101802
289253 0.9855976 -0.1150590 0.0144024 0.1150590 0.0144024 0.1150590 0.9855976 -0.1150590
302498 0.9843099 -0.1201404 0.0156901 0.1201404 0.0156901 0.1201404 0.9843099 -0.1201404
316350 0.9829075 -0.1254306 0.0170925 0.1254306 0.0170925 0.1254306 0.9829075 -0.1254306
330837 0.9813807 -0.1309362 0.0186193 0.1309362 0.0186193 0.1309362 0.9813807 -0.1309362
345986 0.9797189 -0.1366634 0.0202811 0.1366634 0.0202811 0.1366634 0.9797189 -0.1366634
361830 0.9779105 -0.1426182 0.0220895 0.1426182 0.0220895 0.1426182 0.9779105 -0.1426182
378399 0.9759433 -0.1488066 0.0240567 0.1488066 0.0240567 0.1488066 0.9759433 -0.1488066
395726 0.9738041 -0.1552341 0.0261959 0.1552341 0.0261959 0.1552341 0.9738041 -0.1552341
413847 0.9714788 -0.1619058 0.0285212 0.1619058 0.0285212 0.1619058 0.9714788 -0.1619058
432798 0.9689523 -0.1688266 0.0310477 0.1688266 0.0310477 0.1688266 0.9689523 -0.1688266
452617 0.9662085 -0.1760004 0.0337915 0.1760004 0.0337915 0.1760004 0.9662085 -0.1760004
473344 0.9632302 -0.1834308 0.0367698 0.1834308 0.0367698 0.1834308 0.9632302 -0.1834308
495019 0.9599990 -0.1911204 0.0400010 0.1911204 0.0400010 0.1911204 0.9599990 -0.1911204
517687 0.9564957 -0.1990709 0.0435043 0.1990709 0.0435043 0.1990709 0.9564957 -0.1990709
541393 0.9526998 -0.2072830 0.0473002 0.2072830 0.0473002 0.2072830 0.9526998 -0.2072830
566185 0.9485895 -0.2157560 0.0514105 0.2157560 0.0514105 0.2157560 0.9485895 -0.2157560
592111 0.9441423 -0.2244879 0.0558577 0.2244879 0.0558577 0.2244879 0.9441423 -0.2244879
619225 0.9393343 -0.2334750 0.0606657 0.2334750 0.0606657 0.2334750 0.9393343 -0.2334750
647581 0.9341406 -0.2427119 0.0658594 0.2427119 0.0658594 0.2427119 0.9341406 -0.2427119
677235 0.9285356 -0.2521911 0.0714644 0.2521911 0.0714644 0.2521911 0.9285356 -0.2521911
708247 0.9224926 -0.2619027 0.0775074 0.2619027 0.0775074 0.2619027 0.9224926 -0.2619027
740679 0.9159842 -0.2718346 0.0840158 0.2718346 0.0840158 0.2718346 0.9159842 -0.2718346
774597 0.9089826 -0.2819718 0.0910174 0.2819718 0.0910174 0.2819718 0.9089826 -0.2819718
810067 0.9014596 -0.2922962 0.0985404 0.2922962 0.0985404 0.2922962 0.9014596 -0.2922962
847162 0.8933869 -0.3027868 0.1066131 0.3027868 0.1066131 0.3027868 0.8933869 -0.3027868
885955 0.8847366 -0.3134188 0.1152634 0.3134188 0.1152634 0.3134188 0.8847366 -0.3134188
926525 0.8754813 -0.3241640 0.1245187 0.3241640 0.1245187 0.3241640 0.8754813 -0.3241640
968953 0.8655945 -0.3349904 0.1344055 0.3349904 0.1344055 0.3349904 0.8655945 -0.3349904
1013323 0.8550515 -0.3458619 0.1449485 0.3458619 0.1449485 0.3458619 0.8550515 -0.3458619
1059725 0.8438292 -0.3567386 0.1561708 0.3567386 0.1561708 0.3567386 0.8438292 -0.3567386
1108252 0.8319075 -0.3675762 0.1680925 0.3675762 0.1680925 0.3675762 0.8319075 -0.3675762
1159002 0.8192692 -0.3783269 0.1807308 0.3783269 0.1807308 0.3783269 0.8192692 -0.3783269
1212075 0.8059011 -0.3889386 0.1940989 0.3889386 0.1940989 0.3889386 0.8059011 -0.3889386
1267578 0.7917942 -0.3993560 0.2082058 0.3993560 0.2082058 0.3993560 0.7917942 -0.3993560
1325623 0.7769450 -0.4095205 0.2230550 0.4095205 0.2230550 0.4095205 0.7769450 -0.4095205
1386327 0.7613555 -0.4193708 0.2386445 0.4193708 0.2386445 0.4193708 0.7613555 -0.4193708
1449809 0.7450341 -0.4288434 0.2549659 0.4288434 0.2549659 0.4288434 0.7450341 -0.4288434
1516199 0.7279963 -0.4378737 0.2720037 0.4378737 0.2720037 0.4378737 0.7279963 -0.4378737
1585629 0.7102645 -0.4463965 0.2897355 0.4463965 0.2897355 0.4463965 0.7102645 -0.4463965
1658239 0.6918690 -0.4543470 0.3081310 0.4543470 0.3081310 0.4543470 0.6918690 -0.4543470
1734173 0.6728479 -0.4616622 0.3271521 0.4616622 0.3271521 0.4616622 0.6728479 -0.4616622
1813585 0.6532469 -0.4682814 0.3467531 0.4682814 0.3467531 0.4682814 0.6532469 -0.4682814
1896632 0.6331193 -0.4741478 0.3668807 0.4741478 0.3668807 0.4741478 0.6331193 -0.4741478
1983483 0.6125257 -0.4792097 0.3874743 0.4792097 0.3874743 0.4792097 0.6125257 -0.4792097
2074311 0.5915333 -0.4834211 0.4084667 0.4834211 0.4084667 0.4834211 0.5915333 -0.4834211
