!Murata Part Number: GRM155C80G106ME44
!These Parameters are Measured in Series Mode Connection
!Data Generated on Mar 30, 2021
!       o--ll--o
!Port1            Port2
!       o------o
!Operation Temp=25[degC], DC Bias Voltage=0[V]
!Freq. Start=100[Hz] Stop=6[GHz] 401[Steps]
# Hz S RI R 50
!Freq.(Hz) S11(Real) S11(Imag) S21(Real) S21(Imag) S12(Real) S12(Imag) S22(Real) S22(Imag)
100 0.8443653 -0.3587044 0.1556347 0.3587044 0.1556347 0.3587044 0.8443653 -0.3587044
105 0.8324036 -0.3696541 0.1675964 0.3696541 0.1675964 0.3696541 0.8324036 -0.3696541
109 0.8197204 -0.3805195 0.1802796 0.3805195 0.1802796 0.3805195 0.8197204 -0.3805195
114 0.8063023 -0.3912490 0.1936977 0.3912490 0.1936977 0.3912490 0.8063023 -0.3912490
120 0.7921401 -0.4017872 0.2078599 0.4017872 0.2078599 0.4017872 0.7921401 -0.4017872
125 0.7772298 -0.4120756 0.2227702 0.4120756 0.2227702 0.4120756 0.7772298 -0.4120756
131 0.7615728 -0.4220531 0.2384272 0.4220531 0.2384272 0.4220531 0.7615728 -0.4220531
137 0.7451770 -0.4316563 0.2548230 0.4316563 0.2548230 0.4316563 0.7451770 -0.4316563
143 0.7280569 -0.4408205 0.2719431 0.4408205 0.2719431 0.4408205 0.7280569 -0.4408205
150 0.7102342 -0.4494803 0.2897658 0.4494803 0.2897658 0.4494803 0.7102342 -0.4494803
156 0.6917383 -0.4575706 0.3082617 0.4575706 0.3082617 0.4575706 0.6917383 -0.4575706
164 0.6726061 -0.4650278 0.3273939 0.4650278 0.3273939 0.4650278 0.6726061 -0.4650278
171 0.6528823 -0.4717904 0.3471177 0.4717904 0.3471177 0.4717904 0.6528823 -0.4717904
179 0.6326194 -0.4778006 0.3673806 0.4778006 0.3673806 0.4778006 0.6326194 -0.4778006
187 0.6118770 -0.4830054 0.3881230 0.4830054 0.3881230 0.4830054 0.6118770 -0.4830054
196 0.5907214 -0.4873572 0.4092786 0.4873572 0.4092786 0.4873572 0.5907214 -0.4873572
205 0.5692251 -0.4908155 0.4307749 0.4908155 0.4307749 0.4908155 0.5692251 -0.4908155
214 0.5474657 -0.4933473 0.4525343 0.4933473 0.4525343 0.4933473 0.5474657 -0.4933473
224 0.5255248 -0.4949280 0.4744752 0.4949280 0.4744752 0.4949280 0.5255248 -0.4949280
234 0.5034867 -0.4955423 0.4965133 0.4955423 0.4965133 0.4955423 0.5034867 -0.4955423
245 0.4814375 -0.4951841 0.5185625 0.4951841 0.5185625 0.4951841 0.4814375 -0.4951841
256 0.4594633 -0.4938569 0.5405367 0.4938569 0.5405367 0.4938569 0.4594633 -0.4938569
268 0.4376493 -0.4915737 0.5623507 0.4915737 0.5623507 0.4915737 0.4376493 -0.4915737
280 0.4160779 -0.4883566 0.5839221 0.4883566 0.5839221 0.4883566 0.4160779 -0.4883566
293 0.3948279 -0.4842365 0.6051721 0.4842365 0.6051721 0.4842365 0.3948279 -0.4842365
306 0.3739734 -0.4792522 0.6260266 0.4792522 0.6260266 0.4792522 0.3739734 -0.4792522
320 0.3535826 -0.4734496 0.6464174 0.4734496 0.6464174 0.4734496 0.3535826 -0.4734496
335 0.3337169 -0.4668805 0.6662831 0.4668805 0.6662831 0.4668805 0.3337169 -0.4668805
350 0.3144307 -0.4596020 0.6855693 0.4596020 0.6855693 0.4596020 0.3144307 -0.4596020
366 0.2957709 -0.4516746 0.7042291 0.4516746 0.7042291 0.4516746 0.2957709 -0.4516746
383 0.2777763 -0.4431620 0.7222237 0.4431620 0.7222237 0.4431620 0.2777763 -0.4431620
401 0.2604782 -0.4341292 0.7395218 0.4341292 0.7395218 0.4341292 0.2604782 -0.4341292
419 0.2439001 -0.4246419 0.7560999 0.4246419 0.7560999 0.4246419 0.2439001 -0.4246419
438 0.2280581 -0.4147652 0.7719419 0.4147652 0.7719419 0.4147652 0.2280581 -0.4147652
458 0.2129615 -0.4045631 0.7870385 0.4045631 0.7870385 0.4045631 0.2129615 -0.4045631
479 0.1986130 -0.3940975 0.8013870 0.3940975 0.8013870 0.3940975 0.1986130 -0.3940975
501 0.1850097 -0.3834276 0.8149903 0.3834276 0.8149903 0.3834276 0.1850097 -0.3834276
524 0.1721433 -0.3726098 0.8278567 0.3726098 0.8278567 0.3726098 0.1721433 -0.3726098
548 0.1600011 -0.3616964 0.8399989 0.3616964 0.8399989 0.3616964 0.1600011 -0.3616964
573 0.1485664 -0.3507364 0.8514336 0.3507364 0.8514336 0.3507364 0.1485664 -0.3507364
600 0.1378193 -0.3397747 0.8621807 0.3397747 0.8621807 0.3397747 0.1378193 -0.3397747
627 0.1277371 -0.3288521 0.8722629 0.3288521 0.8722629 0.3288521 0.1277371 -0.3288521
656 0.1182953 -0.3180054 0.8817047 0.3180054 0.8817047 0.3180054 0.1182953 -0.3180054
686 0.1094676 -0.3072676 0.8905324 0.3072676 0.8905324 0.3072676 0.1094676 -0.3072676
717 0.1012266 -0.2966676 0.8987734 0.2966676 0.8987734 0.2966676 0.1012266 -0.2966676
750 0.0935443 -0.2862309 0.9064557 0.2862309 0.9064557 0.2862309 0.0935443 -0.2862309
784 0.0863923 -0.2759795 0.9136077 0.2759795 0.9136077 0.2759795 0.0863923 -0.2759795
820 0.0797423 -0.2659319 0.9202577 0.2659319 0.9202577 0.2659319 0.0797423 -0.2659319
858 0.0735662 -0.2561039 0.9264338 0.2561039 0.9264338 0.2561039 0.0735662 -0.2561039
897 0.0678363 -0.2465082 0.9321637 0.2465082 0.9321637 0.2465082 0.0678363 -0.2465082
938 0.0625258 -0.2371554 0.9374742 0.2371554 0.9374742 0.2371554 0.0625258 -0.2371554
981 0.0576084 -0.2280532 0.9423916 0.2280532 0.9423916 0.2280532 0.0576084 -0.2280532
1026 0.0530590 -0.2192077 0.9469410 0.2192077 0.9469410 0.2192077 0.0530590 -0.2192077
1073 0.0488533 -0.2106229 0.9511467 0.2106229 0.9511467 0.2106229 0.0488533 -0.2106229
1122 0.0449682 -0.2023010 0.9550318 0.2023010 0.9550318 0.2023010 0.0449682 -0.2023010
1174 0.0413816 -0.1942430 0.9586184 0.1942430 0.9586184 0.1942430 0.0413816 -0.1942430
1227 0.0380727 -0.1864485 0.9619273 0.1864485 0.9619273 0.1864485 0.0380727 -0.1864485
1283 0.0350216 -0.1789158 0.9649784 0.1789158 0.9649784 0.1789158 0.0350216 -0.1789158
1342 0.0322096 -0.1716424 0.9677904 0.1716424 0.9677904 0.1716424 0.0322096 -0.1716424
1404 0.0296193 -0.1646250 0.9703807 0.1646250 0.9703807 0.1646250 0.0296193 -0.1646250
1468 0.0272342 -0.1578593 0.9727658 0.1578593 0.9727658 0.1578593 0.0272342 -0.1578593
1535 0.0250387 -0.1513407 0.9749613 0.1513407 0.9749613 0.1513407 0.0250387 -0.1513407
1606 0.0230186 -0.1450639 0.9769814 0.1450639 0.9769814 0.1450639 0.0230186 -0.1450639
1679 0.0211603 -0.1390234 0.9788397 0.1390234 0.9788397 0.1390234 0.0211603 -0.1390234
1756 0.0194513 -0.1332132 0.9805487 0.1332132 0.9805487 0.1332132 0.0194513 -0.1332132
1836 0.0178800 -0.1276272 0.9821200 0.1276272 0.9821200 0.1276272 0.0178800 -0.1276272
1920 0.0164357 -0.1222589 0.9835643 0.1222589 0.9835643 0.1222589 0.0164357 -0.1222589
2008 0.0151082 -0.1171019 0.9848918 0.1171019 0.9848918 0.1171019 0.0151082 -0.1171019
2100 0.0138883 -0.1121496 0.9861117 0.1121496 0.9861117 0.1121496 0.0138883 -0.1121496
2196 0.0127675 -0.1073954 0.9872325 0.1073954 0.9872325 0.1073954 0.0127675 -0.1073954
2297 0.0117378 -0.1028328 0.9882622 0.1028328 0.9882622 0.1028328 0.0117378 -0.1028328
2402 0.0107919 -0.0984553 0.9892081 0.0984553 0.9892081 0.0984553 0.0107919 -0.0984553
2512 0.0099231 -0.0942563 0.9900769 0.0942563 0.9900769 0.0942563 0.0099231 -0.0942563
2627 0.0091251 -0.0902296 0.9908749 0.0902296 0.9908749 0.0902296 0.0091251 -0.0902296
2748 0.0083923 -0.0863688 0.9916077 0.0863688 0.9916077 0.0863688 0.0083923 -0.0863688
2873 0.0077194 -0.0826679 0.9922806 0.0826679 0.9922806 0.0826679 0.0077194 -0.0826679
3005 0.0071015 -0.0791208 0.9928985 0.0791208 0.9928985 0.0791208 0.0071015 -0.0791208
3143 0.0065341 -0.0757217 0.9934659 0.0757217 0.9934659 0.0757217 0.0065341 -0.0757217
3287 0.0060132 -0.0724650 0.9939868 0.0724650 0.9939868 0.0724650 0.0060132 -0.0724650
3437 0.0055350 -0.0693450 0.9944650 0.0693450 0.9944650 0.0693450 0.0055350 -0.0693450
3594 0.0050960 -0.0663566 0.9949040 0.0663566 0.9949040 0.0663566 0.0050960 -0.0663566
3759 0.0046929 -0.0634944 0.9953071 0.0634944 0.9953071 0.0634944 0.0046929 -0.0634944
3931 0.0043229 -0.0607534 0.9956771 0.0607534 0.9956771 0.0607534 0.0043229 -0.0607534
4111 0.0039833 -0.0581288 0.9960167 0.0581288 0.9960167 0.0581288 0.0039833 -0.0581288
4299 0.0036715 -0.0556159 0.9963285 0.0556159 0.9963285 0.0556159 0.0036715 -0.0556159
4496 0.0033853 -0.0532102 0.9966147 0.0532102 0.9966147 0.0532102 0.0033853 -0.0532102
4702 0.0031225 -0.0509073 0.9968775 0.0509073 0.9968775 0.0509073 0.0031225 -0.0509073
4918 0.0028813 -0.0487029 0.9971187 0.0487029 0.9971187 0.0487029 0.0028813 -0.0487029
5143 0.0026598 -0.0465930 0.9973402 0.0465930 0.9973402 0.0465930 0.0026598 -0.0465930
5378 0.0024564 -0.0445738 0.9975436 0.0445738 0.9975436 0.0445738 0.0024564 -0.0445738
5625 0.0022697 -0.0426414 0.9977303 0.0426414 0.9977303 0.0426414 0.0022697 -0.0426414
5882 0.0020981 -0.0407922 0.9979019 0.0407922 0.9979019 0.0407922 0.0020981 -0.0407922
6151 0.0019405 -0.0390227 0.9980595 0.0390227 0.9980595 0.0390227 0.0019405 -0.0390227
6433 0.0017957 -0.0373295 0.9982043 0.0373295 0.9982043 0.0373295 0.0017957 -0.0373295
6728 0.0016626 -0.0357095 0.9983374 0.0357095 0.9983374 0.0357095 0.0016626 -0.0357095
7036 0.0015402 -0.0341595 0.9984598 0.0341595 0.9984598 0.0341595 0.0015402 -0.0341595
7358 0.0014276 -0.0326766 0.9985724 0.0326766 0.9985724 0.0326766 0.0014276 -0.0326766
7695 0.0013240 -0.0312579 0.9986760 0.0312579 0.9986760 0.0312579 0.0013240 -0.0312579
8047 0.0012286 -0.0299006 0.9987714 0.0299006 0.9987714 0.0299006 0.0012286 -0.0299006
8416 0.0011408 -0.0286022 0.9988592 0.0286022 0.9988592 0.0286022 0.0011408 -0.0286022
8801 0.0010599 -0.0273600 0.9989401 0.0273600 0.9989401 0.0273600 0.0010599 -0.0273600
9204 0.0009853 -0.0261717 0.9990147 0.0261717 0.9990147 0.0261717 0.0009853 -0.0261717
9626 0.0009165 -0.0250349 0.9990835 0.0250349 0.9990835 0.0250349 0.0009165 -0.0250349
10066 0.0008531 -0.0239474 0.9991469 0.0239474 0.9991469 0.0239474 0.0008531 -0.0239474
10527 0.0007945 -0.0229071 0.9992055 0.0229071 0.9992055 0.0229071 0.0007945 -0.0229071
11009 0.0007404 -0.0219118 0.9992596 0.0219118 0.9992596 0.0219118 0.0007404 -0.0219118
11514 0.0006904 -0.0209598 0.9993096 0.0209598 0.9993096 0.0209598 0.0006904 -0.0209598
12041 0.0006442 -0.0200490 0.9993558 0.0200490 0.9993558 0.0200490 0.0006442 -0.0200490
12592 0.0006015 -0.0191778 0.9993985 0.0191778 0.9993985 0.0191778 0.0006015 -0.0191778
13169 0.0005620 -0.0183443 0.9994380 0.0183443 0.9994380 0.0183443 0.0005620 -0.0183443
13772 0.0005254 -0.0175469 0.9994746 0.0175469 0.9994746 0.0175469 0.0005254 -0.0175469
14402 0.0004916 -0.0167841 0.9995084 0.0167841 0.9995084 0.0167841 0.0004916 -0.0167841
15062 0.0004603 -0.0160544 0.9995397 0.0160544 0.9995397 0.0160544 0.0004603 -0.0160544
15752 0.0004313 -0.0153563 0.9995687 0.0153563 0.9995687 0.0153563 0.0004313 -0.0153563
16473 0.0004045 -0.0146884 0.9995955 0.0146884 0.9995955 0.0146884 0.0004045 -0.0146884
17227 0.0003797 -0.0140495 0.9996203 0.0140495 0.9996203 0.0140495 0.0003797 -0.0140495
18016 0.0003567 -0.0134383 0.9996433 0.0134383 0.9996433 0.0134383 0.0003567 -0.0134383
18841 0.0003354 -0.0128536 0.9996646 0.0128536 0.9996646 0.0128536 0.0003354 -0.0128536
19704 0.0003158 -0.0122943 0.9996842 0.0122943 0.9996842 0.0122943 0.0003158 -0.0122943
20606 0.0002976 -0.0117592 0.9997024 0.0117592 0.9997024 0.0117592 0.0002976 -0.0117592
21550 0.0002807 -0.0112474 0.9997193 0.0112474 0.9997193 0.0112474 0.0002807 -0.0112474
22537 0.0002651 -0.0107577 0.9997349 0.0107577 0.9997349 0.0107577 0.0002651 -0.0107577
23569 0.0002507 -0.0102893 0.9997493 0.0102893 0.9997493 0.0102893 0.0002507 -0.0102893
24648 0.0002374 -0.0098413 0.9997626 0.0098413 0.9997626 0.0098413 0.0002374 -0.0098413
25777 0.0002250 -0.0094127 0.9997750 0.0094127 0.9997750 0.0094127 0.0002250 -0.0094127
26957 0.0002136 -0.0090028 0.9997864 0.0090028 0.9997864 0.0090028 0.0002136 -0.0090028
28191 0.0002031 -0.0086107 0.9997969 0.0086107 0.9997969 0.0086107 0.0002031 -0.0086107
29482 0.0001934 -0.0082356 0.9998066 0.0082356 0.9998066 0.0082356 0.0001934 -0.0082356
30832 0.0001844 -0.0078769 0.9998156 0.0078769 0.9998156 0.0078769 0.0001844 -0.0078769
32244 0.0001760 -0.0075337 0.9998240 0.0075337 0.9998240 0.0075337 0.0001760 -0.0075337
33721 0.0001683 -0.0072056 0.9998317 0.0072056 0.9998317 0.0072056 0.0001683 -0.0072056
35265 0.0001611 -0.0068917 0.9998389 0.0068917 0.9998389 0.0068917 0.0001611 -0.0068917
36880 0.0001545 -0.0065915 0.9998455 0.0065915 0.9998455 0.0065915 0.0001545 -0.0065915
38569 0.0001484 -0.0063044 0.9998516 0.0063044 0.9998516 0.0063044 0.0001484 -0.0063044
40335 0.0001427 -0.0060299 0.9998573 0.0060299 0.9998573 0.0060299 0.0001427 -0.0060299
42182 0.0001374 -0.0057673 0.9998626 0.0057673 0.9998626 0.0057673 0.0001374 -0.0057673
44113 0.0001325 -0.0055162 0.9998675 0.0055162 0.9998675 0.0055162 0.0001325 -0.0055162
46134 0.0001279 -0.0052760 0.9998721 0.0052760 0.9998721 0.0052760 0.0001279 -0.0052760
48246 0.0001236 -0.0050463 0.9998764 0.0050463 0.9998764 0.0050463 0.0001236 -0.0050463
50455 0.0001196 -0.0048267 0.9998804 0.0048267 0.9998804 0.0048267 0.0001196 -0.0048267
52766 0.0001159 -0.0046167 0.9998841 0.0046167 0.9998841 0.0046167 0.0001159 -0.0046167
55182 0.0001123 -0.0044158 0.9998877 0.0044158 0.9998877 0.0044158 0.0001123 -0.0044158
57709 0.0001090 -0.0042237 0.9998910 0.0042237 0.9998910 0.0042237 0.0001090 -0.0042237
60352 0.0001059 -0.0040400 0.9998941 0.0040400 0.9998941 0.0040400 0.0001059 -0.0040400
63115 0.0001030 -0.0038643 0.9998970 0.0038643 0.9998970 0.0038643 0.0001030 -0.0038643
66005 0.0001002 -0.0036963 0.9998998 0.0036963 0.9998998 0.0036963 0.0001002 -0.0036963
69028 0.0000975 -0.0035356 0.9999025 0.0035356 0.9999025 0.0035356 0.0000975 -0.0035356
72189 0.0000950 -0.0033819 0.9999050 0.0033819 0.9999050 0.0033819 0.0000950 -0.0033819
75495 0.0000926 -0.0032349 0.9999074 0.0032349 0.9999074 0.0032349 0.0000926 -0.0032349
78952 0.0000902 -0.0030943 0.9999098 0.0030943 0.9999098 0.0030943 0.0000902 -0.0030943
82567 0.0000880 -0.0029598 0.9999120 0.0029598 0.9999120 0.0029598 0.0000880 -0.0029598
86348 0.0000859 -0.0028312 0.9999141 0.0028312 0.9999141 0.0028312 0.0000859 -0.0028312
90302 0.0000839 -0.0027082 0.9999161 0.0027082 0.9999161 0.0027082 0.0000839 -0.0027082
94437 0.0000819 -0.0025904 0.9999181 0.0025904 0.9999181 0.0025904 0.0000819 -0.0025904
98762 0.0000800 -0.0024778 0.9999200 0.0024778 0.9999200 0.0024778 0.0000800 -0.0024778
103284 0.0000782 -0.0023701 0.9999218 0.0023701 0.9999218 0.0023701 0.0000782 -0.0023701
108014 0.0000764 -0.0022670 0.9999236 0.0022670 0.9999236 0.0022670 0.0000764 -0.0022670
112960 0.0000747 -0.0021684 0.9999253 0.0021684 0.9999253 0.0021684 0.0000747 -0.0021684
118133 0.0000731 -0.0020741 0.9999269 0.0020741 0.9999269 0.0020741 0.0000731 -0.0020741
123542 0.0000715 -0.0019838 0.9999285 0.0019838 0.9999285 0.0019838 0.0000715 -0.0019838
129199 0.0000700 -0.0018974 0.9999300 0.0018974 0.9999300 0.0018974 0.0000700 -0.0018974
135116 0.0000686 -0.0018147 0.9999314 0.0018147 0.9999314 0.0018147 0.0000686 -0.0018147
141303 0.0000672 -0.0017355 0.9999328 0.0017355 0.9999328 0.0017355 0.0000672 -0.0017355
147774 0.0000659 -0.0016598 0.9999341 0.0016598 0.9999341 0.0016598 0.0000659 -0.0016598
154540 0.0000646 -0.0015873 0.9999354 0.0015873 0.9999354 0.0015873 0.0000646 -0.0015873
161617 0.0000634 -0.0015179 0.9999366 0.0015179 0.9999366 0.0015179 0.0000634 -0.0015179
169018 0.0000622 -0.0014515 0.9999378 0.0014515 0.9999378 0.0014515 0.0000622 -0.0014515
176758 0.0000611 -0.0013879 0.9999389 0.0013879 0.9999389 0.0013879 0.0000611 -0.0013879
184852 0.0000601 -0.0013270 0.9999399 0.0013270 0.9999399 0.0013270 0.0000601 -0.0013270
193316 0.0000591 -0.0012688 0.9999409 0.0012688 0.9999409 0.0012688 0.0000591 -0.0012688
202169 0.0000582 -0.0012130 0.9999418 0.0012130 0.9999418 0.0012130 0.0000582 -0.0012130
211427 0.0000573 -0.0011596 0.9999427 0.0011596 0.9999427 0.0011596 0.0000573 -0.0011596
221108 0.0000565 -0.0011085 0.9999435 0.0011085 0.9999435 0.0011085 0.0000565 -0.0011085
231233 0.0000557 -0.0010596 0.9999443 0.0010596 0.9999443 0.0010596 0.0000557 -0.0010596
241822 0.0000550 -0.0010127 0.9999450 0.0010127 0.9999450 0.0010127 0.0000550 -0.0010127
252896 0.0000543 -0.0009678 0.9999457 0.0009678 0.9999457 0.0009678 0.0000543 -0.0009678
264476 0.0000536 -0.0009249 0.9999464 0.0009249 0.9999464 0.0009249 0.0000536 -0.0009249
276587 0.0000531 -0.0008837 0.9999469 0.0008837 0.9999469 0.0008837 0.0000531 -0.0008837
289253 0.0000525 -0.0008443 0.9999475 0.0008443 0.9999475 0.0008443 0.0000525 -0.0008443
302498 0.0000520 -0.0008066 0.9999480 0.0008066 0.9999480 0.0008066 0.0000520 -0.0008066
316350 0.0000515 -0.0007705 0.9999485 0.0007705 0.9999485 0.0007705 0.0000515 -0.0007705
330837 0.0000511 -0.0007359 0.9999489 0.0007359 0.9999489 0.0007359 0.0000511 -0.0007359
345986 0.0000507 -0.0007027 0.9999493 0.0007027 0.9999493 0.0007027 0.0000507 -0.0007027
361830 0.0000503 -0.0006709 0.9999497 0.0006709 0.9999497 0.0006709 0.0000503 -0.0006709
378399 0.0000500 -0.0006405 0.9999500 0.0006405 0.9999500 0.0006405 0.0000500 -0.0006405
395726 0.0000497 -0.0006113 0.9999503 0.0006113 0.9999503 0.0006113 0.0000497 -0.0006113
413847 0.0000494 -0.0005834 0.9999506 0.0005834 0.9999506 0.0005834 0.0000494 -0.0005834
432798 0.0000492 -0.0005566 0.9999508 0.0005566 0.9999508 0.0005566 0.0000492 -0.0005566
452617 0.0000489 -0.0005309 0.9999511 0.0005309 0.9999511 0.0005309 0.0000489 -0.0005309
473344 0.0000487 -0.0005063 0.9999513 0.0005063 0.9999513 0.0005063 0.0000487 -0.0005063
495019 0.0000486 -0.0004826 0.9999514 0.0004826 0.9999514 0.0004826 0.0000486 -0.0004826
517687 0.0000484 -0.0004600 0.9999516 0.0004600 0.9999516 0.0004600 0.0000484 -0.0004600
541393 0.0000483 -0.0004382 0.9999517 0.0004382 0.9999517 0.0004382 0.0000483 -0.0004382
566185 0.0000481 -0.0004173 0.9999519 0.0004173 0.9999519 0.0004173 0.0000481 -0.0004173
592111 0.0000480 -0.0003973 0.9999520 0.0003973 0.9999520 0.0003973 0.0000480 -0.0003973
619225 0.0000480 -0.0003781 0.9999520 0.0003781 0.9999520 0.0003781 0.0000480 -0.0003781
647581 0.0000479 -0.0003596 0.9999521 0.0003596 0.9999521 0.0003596 0.0000479 -0.0003596
677235 0.0000479 -0.0003418 0.9999521 0.0003418 0.9999521 0.0003418 0.0000479 -0.0003418
708247 0.0000478 -0.0003247 0.9999522 0.0003247 0.9999522 0.0003247 0.0000478 -0.0003247
740679 0.0000478 -0.0003082 0.9999522 0.0003082 0.9999522 0.0003082 0.0000478 -0.0003082
774597 0.0000478 -0.0002924 0.9999522 0.0002924 0.9999522 0.0002924 0.0000478 -0.0002924
810067 0.0000479 -0.0002772 0.9999521 0.0002772 0.9999521 0.0002772 0.0000479 -0.0002772
847162 0.0000479 -0.0002625 0.9999521 0.0002625 0.9999521 0.0002625 0.0000479 -0.0002625
885955 0.0000480 -0.0002483 0.9999520 0.0002483 0.9999520 0.0002483 0.0000480 -0.0002483
926525 0.0000481 -0.0002347 0.9999519 0.0002347 0.9999519 0.0002347 0.0000481 -0.0002347
968953 0.0000482 -0.0002215 0.9999518 0.0002215 0.9999518 0.0002215 0.0000482 -0.0002215
1013323 0.0000483 -0.0002087 0.9999517 0.0002087 0.9999517 0.0002087 0.0000483 -0.0002087
1059725 0.0000485 -0.0001964 0.9999515 0.0001964 0.9999515 0.0001964 0.0000485 -0.0001964
1108252 0.0000486 -0.0001844 0.9999514 0.0001844 0.9999514 0.0001844 0.0000486 -0.0001844
1159002 0.0000488 -0.0001729 0.9999512 0.0001729 0.9999512 0.0001729 0.0000488 -0.0001729
1212075 0.0000491 -0.0001616 0.9999509 0.0001616 0.9999509 0.0001616 0.0000491 -0.0001616
1267578 0.0000493 -0.0001508 0.9999507 0.0001508 0.9999507 0.0001508 0.0000493 -0.0001508
1325623 0.0000496 -0.0001402 0.9999504 0.0001402 0.9999504 0.0001402 0.0000496 -0.0001402
1386327 0.0000499 -0.0001299 0.9999501 0.0001299 0.9999501 0.0001299 0.0000499 -0.0001299
1449809 0.0000503 -0.0001198 0.9999497 0.0001198 0.9999497 0.0001198 0.0000503 -0.0001198
1516199 0.0000507 -0.0001100 0.9999493 0.0001100 0.9999493 0.0001100 0.0000507 -0.0001100
1585629 0.0000511 -0.0001004 0.9999489 0.0001004 0.9999489 0.0001004 0.0000511 -0.0001004
1658239 0.0000516 -0.0000910 0.9999484 0.0000910 0.9999484 0.0000910 0.0000516 -0.0000910
1734173 0.0000521 -0.0000818 0.9999479 0.0000818 0.9999479 0.0000818 0.0000521 -0.0000818
1813585 0.0000527 -0.0000728 0.9999473 0.0000728 0.9999473 0.0000728 0.0000527 -0.0000728
1896632 0.0000534 -0.0000640 0.9999466 0.0000640 0.9999466 0.0000640 0.0000534 -0.0000640
1983483 0.0000541 -0.0000552 0.9999459 0.0000552 0.9999459 0.0000552 0.0000541 -0.0000552
2074311 0.0000549 -0.0000466 0.9999451 0.0000466 0.9999451 0.0000466 0.0000549 -0.0000466
