!Murata Part Number: GRM155R61C225ME44
!These Parameters are Measured in Series Mode Connection
!Data Generated on Mar 30, 2021
!       o--ll--o
!Port1            Port2
!       o------o
!Operation Temp=25[degC], DC Bias Voltage=0[V]
!Freq. Start=100[Hz] Stop=6[GHz] 401[Steps]
# Hz S RI R 50
!Freq.(Hz) S11(Real) S11(Imag) S21(Real) S21(Imag) S12(Real) S12(Imag) S22(Real) S22(Imag)
100 0.9873798 -0.1059980 0.0126202 0.1059980 0.0126202 0.1059980 0.9873798 -0.1059980
105 0.9862453 -0.1106733 0.0137547 0.1106733 0.0137547 0.1106733 0.9862453 -0.1106733
109 0.9850121 -0.1155401 0.0149879 0.1155401 0.0149879 0.1155401 0.9850121 -0.1155401
114 0.9836721 -0.1206046 0.0163279 0.1206046 0.0163279 0.1206046 0.9836721 -0.1206046
120 0.9822167 -0.1258730 0.0177833 0.1258730 0.0177833 0.1258730 0.9822167 -0.1258730
125 0.9806363 -0.1313511 0.0193637 0.1313511 0.0193637 0.1313511 0.9806363 -0.1313511
131 0.9789210 -0.1370452 0.0210790 0.1370452 0.0210790 0.1370452 0.9789210 -0.1370452
137 0.9770598 -0.1429608 0.0229402 0.1429608 0.0229402 0.1429608 0.9770598 -0.1429608
143 0.9750410 -0.1491039 0.0249590 0.1491039 0.0249590 0.1491039 0.9750410 -0.1491039
150 0.9728522 -0.1554797 0.0271478 0.1554797 0.0271478 0.1554797 0.9728522 -0.1554797
156 0.9704800 -0.1620933 0.0295200 0.1620933 0.0295200 0.1620933 0.9704800 -0.1620933
164 0.9679099 -0.1689497 0.0320901 0.1689497 0.0320901 0.1689497 0.9679099 -0.1689497
171 0.9651267 -0.1760528 0.0348733 0.1760528 0.0348733 0.1760528 0.9651267 -0.1760528
179 0.9621138 -0.1834065 0.0378862 0.1834065 0.0378862 0.1834065 0.9621138 -0.1834065
187 0.9588537 -0.1910137 0.0411463 0.1910137 0.0411463 0.1910137 0.9588537 -0.1910137
196 0.9553278 -0.1988764 0.0446722 0.1988764 0.0446722 0.1988764 0.9553278 -0.1988764
205 0.9515164 -0.2069958 0.0484836 0.2069958 0.0484836 0.2069958 0.9515164 -0.2069958
214 0.9473984 -0.2153719 0.0526016 0.2153719 0.0526016 0.2153719 0.9473984 -0.2153719
224 0.9429517 -0.2240032 0.0570483 0.2240032 0.0570483 0.2240032 0.9429517 -0.2240032
234 0.9381530 -0.2328867 0.0618470 0.2328867 0.0618470 0.2328867 0.9381530 -0.2328867
245 0.9329781 -0.2420179 0.0670219 0.2420179 0.0670219 0.2420179 0.9329781 -0.2420179
256 0.9274014 -0.2513899 0.0725986 0.2513899 0.0725986 0.2513899 0.9274014 -0.2513899
268 0.9213967 -0.2609939 0.0786033 0.2609939 0.0786033 0.2609939 0.9213967 -0.2609939
280 0.9149368 -0.2708184 0.0850632 0.2708184 0.0850632 0.2708184 0.9149368 -0.2708184
293 0.9079942 -0.2808494 0.0920058 0.2808494 0.0920058 0.2808494 0.9079942 -0.2808494
306 0.9005405 -0.2910698 0.0994595 0.2910698 0.0994595 0.2910698 0.9005405 -0.2910698
320 0.8925477 -0.3014593 0.1074523 0.3014593 0.1074523 0.3014593 0.8925477 -0.3014593
335 0.8839876 -0.3119940 0.1160124 0.3119940 0.1160124 0.3119940 0.8839876 -0.3119940
350 0.8748329 -0.3226468 0.1251671 0.3226468 0.1251671 0.3226468 0.8748329 -0.3226468
366 0.8650570 -0.3333862 0.1349430 0.3333862 0.1349430 0.3333862 0.8650570 -0.3333862
383 0.8546348 -0.3441773 0.1453652 0.3441773 0.1453652 0.3441773 0.8546348 -0.3441773
401 0.8435434 -0.3549809 0.1564566 0.3549809 0.1564566 0.3549809 0.8435434 -0.3549809
419 0.8317622 -0.3657538 0.1682378 0.3657538 0.1682378 0.3657538 0.8317622 -0.3657538
438 0.8192738 -0.3764490 0.1807262 0.3764490 0.1807262 0.3764490 0.8192738 -0.3764490
458 0.8060647 -0.3870156 0.1939353 0.3870156 0.1939353 0.3870156 0.8060647 -0.3870156
479 0.7921256 -0.3973992 0.2078744 0.3973992 0.2078744 0.3973992 0.7921256 -0.3973992
501 0.7774524 -0.4075423 0.2225476 0.4075423 0.2225476 0.4075423 0.7774524 -0.4075423
524 0.7620466 -0.4173850 0.2379534 0.4173850 0.2379534 0.4173850 0.7620466 -0.4173850
548 0.7459159 -0.4268650 0.2540841 0.4268650 0.2540841 0.4268650 0.7459159 -0.4268650
573 0.7290748 -0.4359189 0.2709252 0.4359189 0.2709252 0.4359189 0.7290748 -0.4359189
600 0.7115447 -0.4444830 0.2884553 0.4444830 0.2884553 0.4444830 0.7115447 -0.4444830
627 0.6933546 -0.4524938 0.3066454 0.4524938 0.3066454 0.4524938 0.6933546 -0.4524938
656 0.6745409 -0.4598894 0.3254591 0.4598894 0.3254591 0.4598894 0.6745409 -0.4598894
686 0.6551474 -0.4666105 0.3448526 0.4666105 0.3448526 0.4666105 0.6551474 -0.4666105
717 0.6352254 -0.4726015 0.3647746 0.4726015 0.3647746 0.4726015 0.6352254 -0.4726015
750 0.6148329 -0.4778111 0.3851671 0.4778111 0.3851671 0.4778111 0.6148329 -0.4778111
784 0.5940343 -0.4821941 0.4059657 0.4821941 0.4059657 0.4821941 0.5940343 -0.4821941
820 0.5728997 -0.4857119 0.4271003 0.4857119 0.4271003 0.4857119 0.5728997 -0.4857119
858 0.5515036 -0.4883330 0.4484964 0.4883330 0.4484964 0.4883330 0.5515036 -0.4883330
897 0.5299244 -0.4900344 0.4700756 0.4900344 0.4700756 0.4900344 0.5299244 -0.4900344
938 0.5082428 -0.4908015 0.4917572 0.4908015 0.4917572 0.4908015 0.5082428 -0.4908015
981 0.4865409 -0.4906285 0.5134591 0.4906285 0.5134591 0.4906285 0.4865409 -0.4906285
1026 0.4649006 -0.4895188 0.5350994 0.4895188 0.5350994 0.4895188 0.4649006 -0.4895188
1073 0.4434028 -0.4874843 0.5565972 0.4874843 0.5565972 0.4874843 0.4434028 -0.4874843
1122 0.4221258 -0.4845456 0.5778742 0.4845456 0.5778742 0.4845456 0.4221258 -0.4845456
1174 0.4011445 -0.4807311 0.5988555 0.4807311 0.5988555 0.4807311 0.4011445 -0.4807311
1227 0.3805294 -0.4760767 0.6194706 0.4760767 0.6194706 0.4760767 0.3805294 -0.4760767
1283 0.3603454 -0.4706244 0.6396546 0.4706244 0.6396546 0.4706244 0.3603454 -0.4706244
1342 0.3406515 -0.4644223 0.6593485 0.4644223 0.6593485 0.4644223 0.3406515 -0.4644223
1404 0.3215004 -0.4575227 0.6784996 0.4575227 0.6784996 0.4575227 0.3215004 -0.4575227
1468 0.3029376 -0.4499816 0.6970624 0.4499816 0.6970624 0.4499816 0.3029376 -0.4499816
1535 0.2850018 -0.4418578 0.7149982 0.4418578 0.7149982 0.4418578 0.2850018 -0.4418578
1606 0.2677245 -0.4332117 0.7322755 0.4332117 0.7322755 0.4332117 0.2677245 -0.4332117
1679 0.2511305 -0.4241041 0.7488695 0.4241041 0.7488695 0.4241041 0.2511305 -0.4241041
1756 0.2352376 -0.4145963 0.7647624 0.4145963 0.7647624 0.4145963 0.2352376 -0.4145963
1836 0.2200575 -0.4047483 0.7799425 0.4047483 0.7799425 0.4047483 0.2200575 -0.4047483
1920 0.2055958 -0.3946187 0.7944042 0.3946187 0.7944042 0.3946187 0.2055958 -0.3946187
2008 0.1918527 -0.3842641 0.8081473 0.3842641 0.8081473 0.3842641 0.1918527 -0.3842641
2100 0.1788235 -0.3737385 0.8211765 0.3737385 0.8211765 0.3737385 0.1788235 -0.3737385
2196 0.1664989 -0.3630929 0.8335011 0.3630929 0.8335011 0.3630929 0.1664989 -0.3630929
2297 0.1548659 -0.3523753 0.8451341 0.3523753 0.8451341 0.3523753 0.1548659 -0.3523753
2402 0.1439080 -0.3416300 0.8560920 0.3416300 0.8560920 0.3416300 0.1439080 -0.3416300
2512 0.1336062 -0.3308981 0.8663938 0.3308981 0.8663938 0.3308981 0.1336062 -0.3308981
2627 0.1239388 -0.3202169 0.8760612 0.3202169 0.8760612 0.3202169 0.1239388 -0.3202169
2748 0.1148824 -0.3096201 0.8851176 0.3096201 0.8851176 0.3096201 0.1148824 -0.3096201
2873 0.1064124 -0.2991380 0.8935876 0.2991380 0.8935876 0.2991380 0.1064124 -0.2991380
3005 0.0985028 -0.2887974 0.9014972 0.2887974 0.9014972 0.2887974 0.0985028 -0.2887974
3143 0.0911274 -0.2786219 0.9088726 0.2786219 0.9088726 0.2786219 0.0911274 -0.2786219
3287 0.0842592 -0.2686318 0.9157408 0.2686318 0.9157408 0.2686318 0.0842592 -0.2686318
3437 0.0778716 -0.2588445 0.9221284 0.2588445 0.9221284 0.2588445 0.0778716 -0.2588445
3594 0.0719378 -0.2492746 0.9280622 0.2492746 0.9280622 0.2492746 0.0719378 -0.2492746
3759 0.0664317 -0.2399341 0.9335683 0.2399341 0.9335683 0.2399341 0.0664317 -0.2399341
3931 0.0613276 -0.2308328 0.9386724 0.2308328 0.9386724 0.2308328 0.0613276 -0.2308328
4111 0.0566005 -0.2219781 0.9433995 0.2219781 0.9433995 0.2219781 0.0566005 -0.2219781
4299 0.0522264 -0.2133755 0.9477736 0.2133755 0.9477736 0.2133755 0.0522264 -0.2133755
4496 0.0481821 -0.2050286 0.9518179 0.2050286 0.9518179 0.2050286 0.0481821 -0.2050286
4702 0.0444453 -0.1969397 0.9555547 0.1969397 0.9555547 0.1969397 0.0444453 -0.1969397
4918 0.0409948 -0.1891094 0.9590052 0.1891094 0.9590052 0.1891094 0.0409948 -0.1891094
5143 0.0378106 -0.1815372 0.9621894 0.1815372 0.9621894 0.1815372 0.0378106 -0.1815372
5378 0.0348735 -0.1742214 0.9651265 0.1742214 0.9651265 0.1742214 0.0348735 -0.1742214
5625 0.0321656 -0.1671593 0.9678344 0.1671593 0.9678344 0.1671593 0.0321656 -0.1671593
5882 0.0296698 -0.1603475 0.9703302 0.1603475 0.9703302 0.1603475 0.0296698 -0.1603475
6151 0.0273702 -0.1537818 0.9726298 0.1537818 0.9726298 0.1537818 0.0273702 -0.1537818
6433 0.0252520 -0.1474577 0.9747480 0.1474577 0.9747480 0.1474577 0.0252520 -0.1474577
6728 0.0233011 -0.1413697 0.9766989 0.1413697 0.9766989 0.1413697 0.0233011 -0.1413697
7036 0.0215046 -0.1355123 0.9784954 0.1355123 0.9784954 0.1355123 0.0215046 -0.1355123
7358 0.0198504 -0.1298795 0.9801496 0.1298795 0.9801496 0.1298795 0.0198504 -0.1298795
7695 0.0183271 -0.1244652 0.9816729 0.1244652 0.9816729 0.1244652 0.0183271 -0.1244652
8047 0.0169244 -0.1192629 0.9830756 0.1192629 0.9830756 0.1192629 0.0169244 -0.1192629
8416 0.0156326 -0.1142663 0.9843674 0.1142663 0.9843674 0.1142663 0.0156326 -0.1142663
8801 0.0144428 -0.1094687 0.9855572 0.1094687 0.9855572 0.1094687 0.0144428 -0.1094687
9204 0.0133467 -0.1048636 0.9866533 0.1048636 0.9866533 0.1048636 0.0133467 -0.1048636
9626 0.0123368 -0.1004443 0.9876632 0.1004443 0.9876632 0.1004443 0.0123368 -0.1004443
10066 0.0114060 -0.0962043 0.9885940 0.0962043 0.9885940 0.0962043 0.0114060 -0.0962043
10527 0.0105480 -0.0921373 0.9894520 0.0921373 0.9894520 0.0921373 0.0105480 -0.0921373
11009 0.0097568 -0.0882368 0.9902432 0.0882368 0.9902432 0.0882368 0.0097568 -0.0882368
11514 0.0090270 -0.0844965 0.9909730 0.0844965 0.9909730 0.0844965 0.0090270 -0.0844965
12041 0.0083537 -0.0809105 0.9916463 0.0809105 0.9916463 0.0809105 0.0083537 -0.0809105
12592 0.0077324 -0.0774728 0.9922676 0.0774728 0.9922676 0.0774728 0.0077324 -0.0774728
13169 0.0071589 -0.0741775 0.9928411 0.0741775 0.9928411 0.0741775 0.0071589 -0.0741775
13772 0.0066294 -0.0710191 0.9933706 0.0710191 0.9933706 0.0710191 0.0066294 -0.0710191
14402 0.0061404 -0.0679921 0.9938596 0.0679921 0.9938596 0.0679921 0.0061404 -0.0679921
15062 0.0056889 -0.0650914 0.9943111 0.0650914 0.9943111 0.0650914 0.0056889 -0.0650914
15752 0.0052718 -0.0623117 0.9947282 0.0623117 0.9947282 0.0623117 0.0052718 -0.0623117
16473 0.0048865 -0.0596484 0.9951135 0.0596484 0.9951135 0.0596484 0.0048865 -0.0596484
17227 0.0045305 -0.0570965 0.9954695 0.0570965 0.9954695 0.0570965 0.0045305 -0.0570965
18016 0.0042017 -0.0546517 0.9957983 0.0546517 0.9957983 0.0546517 0.0042017 -0.0546517
18841 0.0038980 -0.0523097 0.9961020 0.0523097 0.9961020 0.0523097 0.0038980 -0.0523097
19704 0.0036175 -0.0500661 0.9963825 0.0500661 0.9963825 0.0500661 0.0036175 -0.0500661
20606 0.0033584 -0.0479170 0.9966416 0.0479170 0.9966416 0.0479170 0.0033584 -0.0479170
21550 0.0031191 -0.0458586 0.9968809 0.0458586 0.9968809 0.0458586 0.0031191 -0.0458586
22537 0.0028982 -0.0438872 0.9971018 0.0438872 0.9971018 0.0438872 0.0028982 -0.0438872
23569 0.0026943 -0.0419992 0.9973057 0.0419992 0.9973057 0.0419992 0.0026943 -0.0419992
24648 0.0025061 -0.0401913 0.9974939 0.0401913 0.9974939 0.0401913 0.0025061 -0.0401913
25777 0.0023324 -0.0384601 0.9976676 0.0384601 0.9976676 0.0384601 0.0023324 -0.0384601
26957 0.0021722 -0.0368025 0.9978278 0.0368025 0.9978278 0.0368025 0.0021722 -0.0368025
28191 0.0020244 -0.0352155 0.9979756 0.0352155 0.9979756 0.0352155 0.0020244 -0.0352155
29482 0.0018881 -0.0336963 0.9981119 0.0336963 0.9981119 0.0336963 0.0018881 -0.0336963
30832 0.0017623 -0.0322419 0.9982377 0.0322419 0.9982377 0.0322419 0.0017623 -0.0322419
32244 0.0016464 -0.0308498 0.9983536 0.0308498 0.9983536 0.0308498 0.0016464 -0.0308498
33721 0.0015394 -0.0295174 0.9984606 0.0295174 0.9984606 0.0295174 0.0015394 -0.0295174
35265 0.0014408 -0.0282422 0.9985592 0.0282422 0.9985592 0.0282422 0.0014408 -0.0282422
36880 0.0013498 -0.0270219 0.9986502 0.0270219 0.9986502 0.0270219 0.0013498 -0.0270219
38569 0.0012659 -0.0258541 0.9987341 0.0258541 0.9987341 0.0258541 0.0012659 -0.0258541
40335 0.0011885 -0.0247366 0.9988115 0.0247366 0.9988115 0.0247366 0.0011885 -0.0247366
42182 0.0011170 -0.0236674 0.9988830 0.0236674 0.9988830 0.0236674 0.0011170 -0.0236674
44113 0.0010509 -0.0226444 0.9989491 0.0226444 0.9989491 0.0226444 0.0010509 -0.0226444
46134 0.0009899 -0.0216657 0.9990101 0.0216657 0.9990101 0.0216657 0.0009899 -0.0216657
48246 0.0009335 -0.0207294 0.9990665 0.0207294 0.9990665 0.0207294 0.0009335 -0.0207294
50455 0.0008812 -0.0198337 0.9991188 0.0198337 0.9991188 0.0198337 0.0008812 -0.0198337
52766 0.0008328 -0.0189769 0.9991672 0.0189769 0.9991672 0.0189769 0.0008328 -0.0189769
55182 0.0007879 -0.0181572 0.9992121 0.0181572 0.9992121 0.0181572 0.0007879 -0.0181572
57709 0.0007462 -0.0173732 0.9992538 0.0173732 0.9992538 0.0173732 0.0007462 -0.0173732
60352 0.0007075 -0.0166233 0.9992925 0.0166233 0.9992925 0.0166233 0.0007075 -0.0166233
63115 0.0006714 -0.0159059 0.9993286 0.0159059 0.9993286 0.0159059 0.0006714 -0.0159059
66005 0.0006377 -0.0152198 0.9993623 0.0152198 0.9993623 0.0152198 0.0006377 -0.0152198
69028 0.0006062 -0.0145635 0.9993938 0.0145635 0.9993938 0.0145635 0.0006062 -0.0145635
72189 0.0005768 -0.0139357 0.9994232 0.0139357 0.9994232 0.0139357 0.0005768 -0.0139357
75495 0.0005492 -0.0133352 0.9994508 0.0133352 0.9994508 0.0133352 0.0005492 -0.0133352
78952 0.0005233 -0.0127607 0.9994767 0.0127607 0.9994767 0.0127607 0.0005233 -0.0127607
82567 0.0004989 -0.0122113 0.9995011 0.0122113 0.9995011 0.0122113 0.0004989 -0.0122113
86348 0.0004760 -0.0116856 0.9995240 0.0116856 0.9995240 0.0116856 0.0004760 -0.0116856
90302 0.0004543 -0.0111827 0.9995457 0.0111827 0.9995457 0.0111827 0.0004543 -0.0111827
94437 0.0004338 -0.0107016 0.9995662 0.0107016 0.9995662 0.0107016 0.0004338 -0.0107016
98762 0.0004144 -0.0102413 0.9995856 0.0102413 0.9995856 0.0102413 0.0004144 -0.0102413
103284 0.0003961 -0.0098009 0.9996039 0.0098009 0.9996039 0.0098009 0.0003961 -0.0098009
108014 0.0003787 -0.0093794 0.9996213 0.0093794 0.9996213 0.0093794 0.0003787 -0.0093794
112960 0.0003621 -0.0089762 0.9996379 0.0089762 0.9996379 0.0089762 0.0003621 -0.0089762
118133 0.0003464 -0.0085903 0.9996536 0.0085903 0.9996536 0.0085903 0.0003464 -0.0085903
123542 0.0003315 -0.0082210 0.9996685 0.0082210 0.9996685 0.0082210 0.0003315 -0.0082210
129199 0.0003173 -0.0078675 0.9996827 0.0078675 0.9996827 0.0078675 0.0003173 -0.0078675
135116 0.0003038 -0.0075292 0.9996962 0.0075292 0.9996962 0.0075292 0.0003038 -0.0075292
141303 0.0002910 -0.0072055 0.9997090 0.0072055 0.9997090 0.0072055 0.0002910 -0.0072055
147774 0.0002788 -0.0068955 0.9997212 0.0068955 0.9997212 0.0068955 0.0002788 -0.0068955
154540 0.0002672 -0.0065989 0.9997328 0.0065989 0.9997328 0.0065989 0.0002672 -0.0065989
161617 0.0002563 -0.0063149 0.9997437 0.0063149 0.9997437 0.0063149 0.0002563 -0.0063149
169018 0.0002458 -0.0060431 0.9997542 0.0060431 0.9997542 0.0060431 0.0002458 -0.0060431
176758 0.0002359 -0.0057829 0.9997641 0.0057829 0.9997641 0.0057829 0.0002359 -0.0057829
184852 0.0002266 -0.0055339 0.9997734 0.0055339 0.9997734 0.0055339 0.0002266 -0.0055339
193316 0.0002177 -0.0052955 0.9997823 0.0052955 0.9997823 0.0052955 0.0002177 -0.0052955
202169 0.0002093 -0.0050672 0.9997907 0.0050672 0.9997907 0.0050672 0.0002093 -0.0050672
211427 0.0002013 -0.0048488 0.9997987 0.0048488 0.9997987 0.0048488 0.0002013 -0.0048488
221108 0.0001938 -0.0046397 0.9998062 0.0046397 0.9998062 0.0046397 0.0001938 -0.0046397
231233 0.0001867 -0.0044395 0.9998133 0.0044395 0.9998133 0.0044395 0.0001867 -0.0044395
241822 0.0001799 -0.0042479 0.9998201 0.0042479 0.9998201 0.0042479 0.0001799 -0.0042479
252896 0.0001735 -0.0040645 0.9998265 0.0040645 0.9998265 0.0040645 0.0001735 -0.0040645
264476 0.0001675 -0.0038889 0.9998325 0.0038889 0.9998325 0.0038889 0.0001675 -0.0038889
276587 0.0001618 -0.0037209 0.9998382 0.0037209 0.9998382 0.0037209 0.0001618 -0.0037209
289253 0.0001564 -0.0035601 0.9998436 0.0035601 0.9998436 0.0035601 0.0001564 -0.0035601
302498 0.0001513 -0.0034062 0.9998487 0.0034062 0.9998487 0.0034062 0.0001513 -0.0034062
316350 0.0001464 -0.0032588 0.9998536 0.0032588 0.9998536 0.0032588 0.0001464 -0.0032588
330837 0.0001418 -0.0031178 0.9998582 0.0031178 0.9998582 0.0031178 0.0001418 -0.0031178
345986 0.0001375 -0.0029828 0.9998625 0.0029828 0.9998625 0.0029828 0.0001375 -0.0029828
361830 0.0001333 -0.0028536 0.9998667 0.0028536 0.9998667 0.0028536 0.0001333 -0.0028536
378399 0.0001294 -0.0027299 0.9998706 0.0027299 0.9998706 0.0027299 0.0001294 -0.0027299
395726 0.0001256 -0.0026116 0.9998744 0.0026116 0.9998744 0.0026116 0.0001256 -0.0026116
413847 0.0001221 -0.0024982 0.9998779 0.0024982 0.9998779 0.0024982 0.0001221 -0.0024982
432798 0.0001187 -0.0023897 0.9998813 0.0023897 0.9998813 0.0023897 0.0001187 -0.0023897
452617 0.0001154 -0.0022859 0.9998846 0.0022859 0.9998846 0.0022859 0.0001154 -0.0022859
473344 0.0001123 -0.0021864 0.9998877 0.0021864 0.9998877 0.0021864 0.0001123 -0.0021864
495019 0.0001093 -0.0020912 0.9998907 0.0020912 0.9998907 0.0020912 0.0001093 -0.0020912
517687 0.0001065 -0.0020000 0.9998935 0.0020000 0.9998935 0.0020000 0.0001065 -0.0020000
541393 0.0001038 -0.0019127 0.9998962 0.0019127 0.9998962 0.0019127 0.0001038 -0.0019127
566185 0.0001012 -0.0018291 0.9998988 0.0018291 0.9998988 0.0018291 0.0001012 -0.0018291
592111 0.0000988 -0.0017490 0.9999012 0.0017490 0.9999012 0.0017490 0.0000988 -0.0017490
619225 0.0000964 -0.0016722 0.9999036 0.0016722 0.9999036 0.0016722 0.0000964 -0.0016722
647581 0.0000942 -0.0015987 0.9999058 0.0015987 0.9999058 0.0015987 0.0000942 -0.0015987
677235 0.0000920 -0.0015283 0.9999080 0.0015283 0.9999080 0.0015283 0.0000920 -0.0015283
708247 0.0000900 -0.0014608 0.9999100 0.0014608 0.9999100 0.0014608 0.0000900 -0.0014608
740679 0.0000881 -0.0013962 0.9999119 0.0013962 0.9999119 0.0013962 0.0000881 -0.0013962
774597 0.0000862 -0.0013342 0.9999138 0.0013342 0.9999138 0.0013342 0.0000862 -0.0013342
810067 0.0000845 -0.0012748 0.9999155 0.0012748 0.9999155 0.0012748 0.0000845 -0.0012748
847162 0.0000829 -0.0012178 0.9999171 0.0012178 0.9999171 0.0012178 0.0000829 -0.0012178
885955 0.0000813 -0.0011632 0.9999187 0.0011632 0.9999187 0.0011632 0.0000813 -0.0011632
926525 0.0000799 -0.0011108 0.9999201 0.0011108 0.9999201 0.0011108 0.0000799 -0.0011108
968953 0.0000785 -0.0010606 0.9999215 0.0010606 0.9999215 0.0010606 0.0000785 -0.0010606
1013323 0.0000772 -0.0010124 0.9999228 0.0010124 0.9999228 0.0010124 0.0000772 -0.0010124
1059725 0.0000760 -0.0009662 0.9999240 0.0009662 0.9999240 0.0009662 0.0000760 -0.0009662
1108252 0.0000749 -0.0009219 0.9999251 0.0009219 0.9999251 0.0009219 0.0000749 -0.0009219
1159002 0.0000738 -0.0008793 0.9999262 0.0008793 0.9999262 0.0008793 0.0000738 -0.0008793
1212075 0.0000729 -0.0008385 0.9999271 0.0008385 0.9999271 0.0008385 0.0000729 -0.0008385
1267578 0.0000720 -0.0007993 0.9999280 0.0007993 0.9999280 0.0007993 0.0000720 -0.0007993
1325623 0.0000711 -0.0007616 0.9999289 0.0007616 0.9999289 0.0007616 0.0000711 -0.0007616
1386327 0.0000704 -0.0007255 0.9999296 0.0007255 0.9999296 0.0007255 0.0000704 -0.0007255
1449809 0.0000697 -0.0006907 0.9999303 0.0006907 0.9999303 0.0006907 0.0000697 -0.0006907
1516199 0.0000691 -0.0006573 0.9999309 0.0006573 0.9999309 0.0006573 0.0000691 -0.0006573
1585629 0.0000685 -0.0006252 0.9999315 0.0006252 0.9999315 0.0006252 0.0000685 -0.0006252
1658239 0.0000680 -0.0005943 0.9999320 0.0005943 0.9999320 0.0005943 0.0000680 -0.0005943
1734173 0.0000676 -0.0005646 0.9999324 0.0005646 0.9999324 0.0005646 0.0000676 -0.0005646
1813585 0.0000672 -0.0005360 0.9999328 0.0005360 0.9999328 0.0005360 0.0000672 -0.0005360
1896632 0.0000668 -0.0005084 0.9999332 0.0005084 0.9999332 0.0005084 0.0000668 -0.0005084
1983483 0.0000665 -0.0004819 0.9999335 0.0004819 0.9999335 0.0004819 0.0000665 -0.0004819
2074311 0.0000663 -0.0004562 0.9999337 0.0004562 0.9999337 0.0004562 0.0000663 -0.0004562
