!Murata Part Number: GRM155C81A105MA12
!These Parameters are Measured in Series Mode Connection
!Data Generated on Mar 30, 2021
!       o--ll--o
!Port1            Port2
!       o------o
!Operation Temp=25[degC], DC Bias Voltage=0[V]
!Freq. Start=100[Hz] Stop=6[GHz] 401[Steps]
# Hz S RI R 50
!Freq.(Hz) S11(Real) S11(Imag) S21(Real) S21(Imag) S12(Real) S12(Imag) S22(Real) S22(Imag)
100 0.9981037 -0.0340992 0.0018963 0.0340992 0.0018963 0.0340992 0.9981037 -0.0340992
105 0.9979616 -0.0356288 0.0020384 0.0356288 0.0020384 0.0356288 0.9979616 -0.0356288
109 0.9978084 -0.0372271 0.0021916 0.0372271 0.0021916 0.0372271 0.9978084 -0.0372271
114 0.9976430 -0.0388969 0.0023570 0.0388969 0.0023570 0.0388969 0.9976430 -0.0388969
120 0.9974644 -0.0406416 0.0025356 0.0406416 0.0025356 0.0406416 0.9974644 -0.0406416
125 0.9972714 -0.0424644 0.0027286 0.0424644 0.0027286 0.0424644 0.9972714 -0.0424644
131 0.9970625 -0.0443687 0.0029375 0.0443687 0.0029375 0.0443687 0.9970625 -0.0443687
137 0.9968364 -0.0463581 0.0031636 0.0463581 0.0031636 0.0463581 0.9968364 -0.0463581
143 0.9965914 -0.0484362 0.0034086 0.0484362 0.0034086 0.0484362 0.9965914 -0.0484362
150 0.9963259 -0.0506068 0.0036741 0.0506068 0.0036741 0.0506068 0.9963259 -0.0506068
156 0.9960379 -0.0528738 0.0039621 0.0528738 0.0039621 0.0528738 0.9960379 -0.0528738
164 0.9957255 -0.0552413 0.0042745 0.0552413 0.0042745 0.0552413 0.9957255 -0.0552413
171 0.9953864 -0.0577134 0.0046136 0.0577134 0.0046136 0.0577134 0.9953864 -0.0577134
179 0.9950183 -0.0602945 0.0049817 0.0602945 0.0049817 0.0602945 0.9950183 -0.0602945
187 0.9946185 -0.0629890 0.0053815 0.0629890 0.0053815 0.0629890 0.9946185 -0.0629890
196 0.9941843 -0.0658014 0.0058157 0.0658014 0.0058157 0.0658014 0.9941843 -0.0658014
205 0.9937126 -0.0687365 0.0062874 0.0687365 0.0062874 0.0687365 0.9937126 -0.0687365
214 0.9932003 -0.0717990 0.0067997 0.0717990 0.0067997 0.0717990 0.9932003 -0.0717990
224 0.9926438 -0.0749940 0.0073562 0.0749940 0.0073562 0.0749940 0.9926438 -0.0749940
234 0.9920393 -0.0783265 0.0079607 0.0783265 0.0079607 0.0783265 0.9920393 -0.0783265
245 0.9913828 -0.0818017 0.0086172 0.0818017 0.0086172 0.0818017 0.9913828 -0.0818017
256 0.9906699 -0.0854249 0.0093301 0.0854249 0.0093301 0.0854249 0.9906699 -0.0854249
268 0.9898959 -0.0892015 0.0101041 0.0892015 0.0101041 0.0892015 0.9898959 -0.0892015
280 0.9890557 -0.0931372 0.0109443 0.0931372 0.0109443 0.0931372 0.9890557 -0.0931372
293 0.9881439 -0.0972375 0.0118561 0.0972375 0.0118561 0.0972375 0.9881439 -0.0972375
306 0.9871545 -0.1015082 0.0128455 0.1015082 0.0128455 0.1015082 0.9871545 -0.1015082
320 0.9860813 -0.1059551 0.0139187 0.1059551 0.0139187 0.1059551 0.9860813 -0.1059551
335 0.9849175 -0.1105841 0.0150825 0.1105841 0.0150825 0.1105841 0.9849175 -0.1105841
350 0.9836557 -0.1154012 0.0163443 0.1154012 0.0163443 0.1154012 0.9836557 -0.1154012
366 0.9822881 -0.1204124 0.0177119 0.1204124 0.0177119 0.1204124 0.9822881 -0.1204124
383 0.9808062 -0.1256235 0.0191938 0.1256235 0.0191938 0.1256235 0.9808062 -0.1256235
401 0.9792009 -0.1310407 0.0207991 0.1310407 0.0207991 0.1310407 0.9792009 -0.1310407
419 0.9774625 -0.1366698 0.0225375 0.1366698 0.0225375 0.1366698 0.9774625 -0.1366698
438 0.9755802 -0.1425166 0.0244198 0.1425166 0.0244198 0.1425166 0.9755802 -0.1425166
458 0.9735429 -0.1485868 0.0264571 0.1485868 0.0264571 0.1485868 0.9735429 -0.1485868
479 0.9713383 -0.1548859 0.0286617 0.1548859 0.0286617 0.1548859 0.9713383 -0.1548859
501 0.9689532 -0.1614191 0.0310468 0.1614191 0.0310468 0.1614191 0.9689532 -0.1614191
524 0.9663736 -0.1681911 0.0336264 0.1681911 0.0336264 0.1681911 0.9663736 -0.1681911
548 0.9635845 -0.1752063 0.0364155 0.1752063 0.0364155 0.1752063 0.9635845 -0.1752063
573 0.9605695 -0.1824684 0.0394305 0.1824684 0.0394305 0.1824684 0.9605695 -0.1824684
600 0.9573115 -0.1899806 0.0426885 0.1899806 0.0426885 0.1899806 0.9573115 -0.1899806
627 0.9537921 -0.1977451 0.0462079 0.1977451 0.0462079 0.1977451 0.9537921 -0.1977451
656 0.9499916 -0.2057631 0.0500084 0.2057631 0.0500084 0.2057631 0.9499916 -0.2057631
686 0.9458894 -0.2140346 0.0541106 0.2140346 0.0541106 0.2140346 0.9458894 -0.2140346
717 0.9414634 -0.2225585 0.0585366 0.2225585 0.0585366 0.2225585 0.9414634 -0.2225585
750 0.9366907 -0.2313318 0.0633093 0.2313318 0.0633093 0.2313318 0.9366907 -0.2313318
784 0.9315471 -0.2403500 0.0684529 0.2403500 0.0684529 0.2403500 0.9315471 -0.2403500
820 0.9260074 -0.2496065 0.0739926 0.2496065 0.0739926 0.2496065 0.9260074 -0.2496065
858 0.9200457 -0.2590923 0.0799543 0.2590923 0.0799543 0.2590923 0.9200457 -0.2590923
897 0.9136350 -0.2687962 0.0863650 0.2687962 0.0863650 0.2687962 0.9136350 -0.2687962
938 0.9067480 -0.2787042 0.0932520 0.2787042 0.0932520 0.2787042 0.9067480 -0.2787042
981 0.8993570 -0.2887993 0.1006430 0.2887993 0.1006430 0.2887993 0.8993570 -0.2887993
1026 0.8914343 -0.2990613 0.1085657 0.2990613 0.1085657 0.2990613 0.8914343 -0.2990613
1073 0.8829523 -0.3094666 0.1170477 0.3094666 0.1170477 0.3094666 0.8829523 -0.3094666
1122 0.8738840 -0.3199881 0.1261160 0.3199881 0.1261160 0.3199881 0.8738840 -0.3199881
1174 0.8642037 -0.3305949 0.1357963 0.3305949 0.1357963 0.3305949 0.8642037 -0.3305949
1227 0.8538869 -0.3412524 0.1461131 0.3412524 0.1461131 0.3412524 0.8538869 -0.3412524
1283 0.8429113 -0.3519218 0.1570887 0.3519218 0.1570887 0.3519218 0.8429113 -0.3519218
1342 0.8312571 -0.3625608 0.1687429 0.3625608 0.1687429 0.3625608 0.8312571 -0.3625608
1404 0.8189076 -0.3731230 0.1810924 0.3731230 0.1810924 0.3731230 0.8189076 -0.3731230
1468 0.8058500 -0.3835586 0.1941500 0.3835586 0.1941500 0.3835586 0.8058500 -0.3835586
1535 0.7920758 -0.3938143 0.2079242 0.3938143 0.2079242 0.3938143 0.7920758 -0.3938143
1606 0.7775813 -0.4038342 0.2224187 0.4038342 0.2224187 0.4038342 0.7775813 -0.4038342
1679 0.7623684 -0.4135596 0.2376316 0.4135596 0.2376316 0.4135596 0.7623684 -0.4135596
1756 0.7464453 -0.4229301 0.2535547 0.4229301 0.2535547 0.4229301 0.7464453 -0.4229301
1836 0.7298262 -0.4318842 0.2701738 0.4318842 0.2701738 0.4318842 0.7298262 -0.4318842
1920 0.7125327 -0.4403601 0.2874673 0.4403601 0.2874673 0.4403601 0.7125327 -0.4403601
2008 0.6945929 -0.4482967 0.3054071 0.4482967 0.3054071 0.4482967 0.6945929 -0.4482967
2100 0.6760426 -0.4556341 0.3239574 0.4556341 0.3239574 0.4556341 0.6760426 -0.4556341
2196 0.6569243 -0.4623152 0.3430757 0.4623152 0.3430757 0.4623152 0.6569243 -0.4623152
2297 0.6372877 -0.4682864 0.3627123 0.4682864 0.3627123 0.4682864 0.6372877 -0.4682864
2402 0.6171888 -0.4734987 0.3828112 0.4734987 0.3828112 0.4734987 0.6171888 -0.4734987
2512 0.5966898 -0.4779085 0.4033102 0.4779085 0.4033102 0.4779085 0.5966898 -0.4779085
2627 0.5758577 -0.4814785 0.4241423 0.4814785 0.4241423 0.4814785 0.5758577 -0.4814785
2748 0.5547643 -0.4841786 0.4452357 0.4841786 0.4452357 0.4841786 0.5547643 -0.4841786
2873 0.5334846 -0.4859861 0.4665154 0.4859861 0.4665154 0.4859861 0.5334846 -0.4859861
3005 0.5120958 -0.4868867 0.4879042 0.4868867 0.4879042 0.4868867 0.5120958 -0.4868867
3143 0.4906765 -0.4868743 0.5093235 0.4868743 0.5093235 0.4868743 0.4906765 -0.4868743
3287 0.4693053 -0.4859512 0.5306947 0.4859512 0.5306947 0.4859512 0.4693053 -0.4859512
3437 0.4480595 -0.4841278 0.5519405 0.4841278 0.5519405 0.4841278 0.4480595 -0.4841278
3594 0.4270144 -0.4814226 0.5729856 0.4814226 0.5729856 0.4814226 0.4270144 -0.4814226
3759 0.4062422 -0.4778616 0.5937578 0.4778616 0.5937578 0.4778616 0.4062422 -0.4778616
3931 0.3858108 -0.4734776 0.6141892 0.4734776 0.6141892 0.4734776 0.3858108 -0.4734776
4111 0.3657834 -0.4683096 0.6342166 0.4683096 0.6342166 0.4683096 0.3657834 -0.4683096
4299 0.3462177 -0.4624020 0.6537823 0.4624020 0.6537823 0.4624020 0.3462177 -0.4624020
4496 0.3271654 -0.4558036 0.6728346 0.4558036 0.6728346 0.4558036 0.3271654 -0.4558036
4702 0.3086721 -0.4485668 0.6913279 0.4485668 0.6913279 0.4485668 0.3086721 -0.4485668
4918 0.2907767 -0.4407468 0.7092233 0.4407468 0.7092233 0.4407468 0.2907767 -0.4407468
5143 0.2735116 -0.4324005 0.7264884 0.4324005 0.7264884 0.4324005 0.2735116 -0.4324005
5378 0.2569029 -0.4235859 0.7430971 0.4235859 0.7430971 0.4235859 0.2569029 -0.4235859
5625 0.2409702 -0.4143612 0.7590298 0.4143612 0.7590298 0.4143612 0.2409702 -0.4143612
5882 0.2257271 -0.4047843 0.7742729 0.4047843 0.7742729 0.4047843 0.2257271 -0.4047843
6151 0.2111815 -0.3949116 0.7888185 0.3949116 0.7888185 0.3949116 0.2111815 -0.3949116
6433 0.1973360 -0.3847982 0.8026640 0.3847982 0.8026640 0.3847982 0.1973360 -0.3847982
6728 0.1841884 -0.3744969 0.8158116 0.3744969 0.8158116 0.3744969 0.1841884 -0.3744969
7036 0.1717320 -0.3640579 0.8282680 0.3640579 0.8282680 0.3640579 0.1717320 -0.3640579
7358 0.1599561 -0.3535288 0.8400439 0.3535288 0.8400439 0.3535288 0.1599561 -0.3535288
7695 0.1488468 -0.3429540 0.8511532 0.3429540 0.8511532 0.3429540 0.1488468 -0.3429540
8047 0.1383869 -0.3323745 0.8616131 0.3323745 0.8616131 0.3323745 0.1383869 -0.3323745
8416 0.1285570 -0.3218283 0.8714430 0.3218283 0.8714430 0.3218283 0.1285570 -0.3218283
8801 0.1193355 -0.3113497 0.8806645 0.3113497 0.8806645 0.3113497 0.1193355 -0.3113497
9204 0.1106993 -0.3009698 0.8893007 0.3009698 0.8893007 0.3009698 0.1106993 -0.3009698
9626 0.1026240 -0.2907164 0.8973760 0.2907164 0.8973760 0.2907164 0.1026240 -0.2907164
10066 0.0950844 -0.2806141 0.9049156 0.2806141 0.9049156 0.2806141 0.0950844 -0.2806141
10527 0.0880546 -0.2706842 0.9119454 0.2706842 0.9119454 0.2706842 0.0880546 -0.2706842
11009 0.0815087 -0.2609453 0.9184913 0.2609453 0.9184913 0.2609453 0.0815087 -0.2609453
11514 0.0754206 -0.2514131 0.9245794 0.2514131 0.9245794 0.2514131 0.0754206 -0.2514131
12041 0.0697647 -0.2421006 0.9302353 0.2421006 0.9302353 0.2421006 0.0697647 -0.2421006
12592 0.0645156 -0.2330186 0.9354844 0.2330186 0.9354844 0.2330186 0.0645156 -0.2330186
13169 0.0596486 -0.2241753 0.9403514 0.2241753 0.9403514 0.2241753 0.0596486 -0.2241753
13772 0.0551397 -0.2155774 0.9448603 0.2155774 0.9448603 0.2155774 0.0551397 -0.2155774
14402 0.0509657 -0.2072292 0.9490343 0.2072292 0.9490343 0.2072292 0.0509657 -0.2072292
15062 0.0471044 -0.1991336 0.9528956 0.1991336 0.9528956 0.1991336 0.0471044 -0.1991336
15752 0.0435344 -0.1912920 0.9564656 0.1912920 0.9564656 0.1912920 0.0435344 -0.1912920
16473 0.0402355 -0.1837043 0.9597645 0.1837043 0.9597645 0.1837043 0.0402355 -0.1837043
17227 0.0371885 -0.1763696 0.9628115 0.1763696 0.9628115 0.1763696 0.0371885 -0.1763696
18016 0.0343751 -0.1692855 0.9656249 0.1692855 0.9656249 0.1692855 0.0343751 -0.1692855
18841 0.0317782 -0.1624491 0.9682218 0.1624491 0.9682218 0.1624491 0.0317782 -0.1624491
19704 0.0293816 -0.1558565 0.9706184 0.1558565 0.9706184 0.1558565 0.0293816 -0.1558565
20606 0.0271702 -0.1495032 0.9728298 0.1495032 0.9728298 0.1495032 0.0271702 -0.1495032
21550 0.0251300 -0.1433844 0.9748700 0.1433844 0.9748700 0.1433844 0.0251300 -0.1433844
22537 0.0232476 -0.1374945 0.9767524 0.1374945 0.9767524 0.1374945 0.0232476 -0.1374945
23569 0.0215108 -0.1318278 0.9784892 0.1318278 0.9784892 0.1318278 0.0215108 -0.1318278
24648 0.0199083 -0.1263783 0.9800917 0.1263783 0.9800917 0.1263783 0.0199083 -0.1263783
25777 0.0184295 -0.1211396 0.9815705 0.1211396 0.9815705 0.1211396 0.0184295 -0.1211396
26957 0.0170646 -0.1161055 0.9829354 0.1161055 0.9829354 0.1161055 0.0170646 -0.1161055
28191 0.0158046 -0.1112694 0.9841954 0.1112694 0.9841954 0.1112694 0.0158046 -0.1112694
29482 0.0146413 -0.1066249 0.9853587 0.1066249 0.9853587 0.1066249 0.0146413 -0.1066249
30832 0.0135669 -0.1021655 0.9864331 0.1021655 0.9864331 0.1021655 0.0135669 -0.1021655
32244 0.0125744 -0.0978847 0.9874256 0.0978847 0.9874256 0.0978847 0.0125744 -0.0978847
33721 0.0116575 -0.0937761 0.9883425 0.0937761 0.9883425 0.0937761 0.0116575 -0.0937761
35265 0.0108101 -0.0898337 0.9891899 0.0898337 0.9891899 0.0898337 0.0108101 -0.0898337
36880 0.0100269 -0.0860511 0.9899731 0.0860511 0.9899731 0.0860511 0.0100269 -0.0860511
38569 0.0093029 -0.0824225 0.9906971 0.0824225 0.9906971 0.0824225 0.0093029 -0.0824225
40335 0.0086335 -0.0789419 0.9913665 0.0789419 0.9913665 0.0789419 0.0086335 -0.0789419
42182 0.0080145 -0.0756039 0.9919855 0.0756039 0.9919855 0.0756039 0.0080145 -0.0756039
44113 0.0074422 -0.0724028 0.9925578 0.0724028 0.9925578 0.0724028 0.0074422 -0.0724028
46134 0.0069129 -0.0693334 0.9930871 0.0693334 0.9930871 0.0693334 0.0069129 -0.0693334
48246 0.0064234 -0.0663906 0.9935766 0.0663906 0.9935766 0.0663906 0.0064234 -0.0663906
50455 0.0059709 -0.0635694 0.9940291 0.0635694 0.9940291 0.0635694 0.0059709 -0.0635694
52766 0.0055524 -0.0608651 0.9944476 0.0608651 0.9944476 0.0608651 0.0055524 -0.0608651
55182 0.0051656 -0.0582730 0.9948344 0.0582730 0.9948344 0.0582730 0.0051656 -0.0582730
57709 0.0048079 -0.0557888 0.9951921 0.0557888 0.9951921 0.0557888 0.0048079 -0.0557888
60352 0.0044774 -0.0534083 0.9955226 0.0534083 0.9955226 0.0534083 0.0044774 -0.0534083
63115 0.0041720 -0.0511272 0.9958280 0.0511272 0.9958280 0.0511272 0.0041720 -0.0511272
66005 0.0038897 -0.0489418 0.9961103 0.0489418 0.9961103 0.0489418 0.0038897 -0.0489418
69028 0.0036289 -0.0468481 0.9963711 0.0468481 0.9963711 0.0468481 0.0036289 -0.0468481
72189 0.0033880 -0.0448426 0.9966120 0.0448426 0.9966120 0.0448426 0.0033880 -0.0448426
75495 0.0031655 -0.0429218 0.9968345 0.0429218 0.9968345 0.0429218 0.0031655 -0.0429218
78952 0.0029600 -0.0410821 0.9970400 0.0410821 0.9970400 0.0410821 0.0029600 -0.0410821
82567 0.0027701 -0.0393205 0.9972299 0.0393205 0.9972299 0.0393205 0.0027701 -0.0393205
86348 0.0025947 -0.0376337 0.9974053 0.0376337 0.9974053 0.0376337 0.0025947 -0.0376337
90302 0.0024327 -0.0360187 0.9975673 0.0360187 0.9975673 0.0360187 0.0024327 -0.0360187
94437 0.0022829 -0.0344726 0.9977171 0.0344726 0.9977171 0.0344726 0.0022829 -0.0344726
98762 0.0021445 -0.0329926 0.9978555 0.0329926 0.9978555 0.0329926 0.0021445 -0.0329926
103284 0.0020165 -0.0315760 0.9979835 0.0315760 0.9979835 0.0315760 0.0020165 -0.0315760
108014 0.0018981 -0.0302201 0.9981019 0.0302201 0.9981019 0.0302201 0.0018981 -0.0302201
112960 0.0017884 -0.0289225 0.9982116 0.0289225 0.9982116 0.0289225 0.0017884 -0.0289225
118133 0.0016868 -0.0276807 0.9983132 0.0276807 0.9983132 0.0276807 0.0016868 -0.0276807
123542 0.0015926 -0.0264925 0.9984074 0.0264925 0.9984074 0.0264925 0.0015926 -0.0264925
129199 0.0015051 -0.0253554 0.9984949 0.0253554 0.9984949 0.0253554 0.0015051 -0.0253554
135116 0.0014239 -0.0242674 0.9985761 0.0242674 0.9985761 0.0242674 0.0014239 -0.0242674
141303 0.0013482 -0.0232265 0.9986518 0.0232265 0.9986518 0.0232265 0.0013482 -0.0232265
147774 0.0012778 -0.0222305 0.9987222 0.0222305 0.9987222 0.0222305 0.0012778 -0.0222305
154540 0.0012121 -0.0212775 0.9987879 0.0212775 0.9987879 0.0212775 0.0012121 -0.0212775
161617 0.0011507 -0.0203658 0.9988493 0.0203658 0.9988493 0.0203658 0.0011507 -0.0203658
169018 0.0010932 -0.0194935 0.9989068 0.0194935 0.9989068 0.0194935 0.0010932 -0.0194935
176758 0.0010393 -0.0186588 0.9989607 0.0186588 0.9989607 0.0186588 0.0010393 -0.0186588
184852 0.0009887 -0.0178602 0.9990113 0.0178602 0.9990113 0.0178602 0.0009887 -0.0178602
193316 0.0009412 -0.0170960 0.9990588 0.0170960 0.9990588 0.0170960 0.0009412 -0.0170960
202169 0.0008964 -0.0163648 0.9991036 0.0163648 0.9991036 0.0163648 0.0008964 -0.0163648
211427 0.0008541 -0.0156651 0.9991459 0.0156651 0.9991459 0.0156651 0.0008541 -0.0156651
221108 0.0008142 -0.0149955 0.9991858 0.0149955 0.9991858 0.0149955 0.0008142 -0.0149955
231233 0.0007765 -0.0143546 0.9992235 0.0143546 0.9992235 0.0143546 0.0007765 -0.0143546
241822 0.0007408 -0.0137412 0.9992592 0.0137412 0.9992592 0.0137412 0.0007408 -0.0137412
252896 0.0007069 -0.0131541 0.9992931 0.0131541 0.9992931 0.0131541 0.0007069 -0.0131541
264476 0.0006748 -0.0125921 0.9993252 0.0125921 0.9993252 0.0125921 0.0006748 -0.0125921
276587 0.0006444 -0.0120541 0.9993556 0.0120541 0.9993556 0.0120541 0.0006444 -0.0120541
289253 0.0006155 -0.0115390 0.9993845 0.0115390 0.9993845 0.0115390 0.0006155 -0.0115390
302498 0.0005881 -0.0110459 0.9994119 0.0110459 0.9994119 0.0110459 0.0005881 -0.0110459
316350 0.0005620 -0.0105737 0.9994380 0.0105737 0.9994380 0.0105737 0.0005620 -0.0105737
330837 0.0005373 -0.0101216 0.9994627 0.0101216 0.9994627 0.0101216 0.0005373 -0.0101216
345986 0.0005139 -0.0096887 0.9994861 0.0096887 0.9994861 0.0096887 0.0005139 -0.0096887
361830 0.0004917 -0.0092741 0.9995083 0.0092741 0.9995083 0.0092741 0.0004917 -0.0092741
378399 0.0004706 -0.0088771 0.9995294 0.0088771 0.9995294 0.0088771 0.0004706 -0.0088771
395726 0.0004506 -0.0084969 0.9995494 0.0084969 0.9995494 0.0084969 0.0004506 -0.0084969
413847 0.0004317 -0.0081329 0.9995683 0.0081329 0.9995683 0.0081329 0.0004317 -0.0081329
432798 0.0004138 -0.0077842 0.9995862 0.0077842 0.9995862 0.0077842 0.0004138 -0.0077842
452617 0.0003969 -0.0074504 0.9996031 0.0074504 0.9996031 0.0074504 0.0003969 -0.0074504
473344 0.0003809 -0.0071306 0.9996191 0.0071306 0.9996191 0.0071306 0.0003809 -0.0071306
495019 0.0003657 -0.0068244 0.9996343 0.0068244 0.9996343 0.0068244 0.0003657 -0.0068244
517687 0.0003514 -0.0065312 0.9996486 0.0065312 0.9996486 0.0065312 0.0003514 -0.0065312
541393 0.0003379 -0.0062505 0.9996621 0.0062505 0.9996621 0.0062505 0.0003379 -0.0062505
566185 0.0003252 -0.0059816 0.9996748 0.0059816 0.9996748 0.0059816 0.0003252 -0.0059816
592111 0.0003131 -0.0057242 0.9996869 0.0057242 0.9996869 0.0057242 0.0003131 -0.0057242
619225 0.0003018 -0.0054776 0.9996982 0.0054776 0.9996982 0.0054776 0.0003018 -0.0054776
647581 0.0002910 -0.0052416 0.9997090 0.0052416 0.9997090 0.0052416 0.0002910 -0.0052416
677235 0.0002809 -0.0050156 0.9997191 0.0050156 0.9997191 0.0050156 0.0002809 -0.0050156
708247 0.0002713 -0.0047992 0.9997287 0.0047992 0.9997287 0.0047992 0.0002713 -0.0047992
740679 0.0002622 -0.0045919 0.9997378 0.0045919 0.9997378 0.0045919 0.0002622 -0.0045919
774597 0.0002536 -0.0043935 0.9997464 0.0043935 0.9997464 0.0043935 0.0002536 -0.0043935
810067 0.0002455 -0.0042035 0.9997545 0.0042035 0.9997545 0.0042035 0.0002455 -0.0042035
847162 0.0002377 -0.0040216 0.9997623 0.0040216 0.9997623 0.0040216 0.0002377 -0.0040216
885955 0.0002304 -0.0038474 0.9997696 0.0038474 0.9997696 0.0038474 0.0002304 -0.0038474
926525 0.0002235 -0.0036805 0.9997765 0.0036805 0.9997765 0.0036805 0.0002235 -0.0036805
968953 0.0002168 -0.0035207 0.9997832 0.0035207 0.9997832 0.0035207 0.0002168 -0.0035207
1013323 0.0002106 -0.0033677 0.9997894 0.0033677 0.9997894 0.0033677 0.0002106 -0.0033677
1059725 0.0002046 -0.0032211 0.9997954 0.0032211 0.9997954 0.0032211 0.0002046 -0.0032211
1108252 0.0001989 -0.0030807 0.9998011 0.0030807 0.9998011 0.0030807 0.0001989 -0.0030807
1159002 0.0001935 -0.0029461 0.9998065 0.0029461 0.9998065 0.0029461 0.0001935 -0.0029461
1212075 0.0001883 -0.0028172 0.9998117 0.0028172 0.9998117 0.0028172 0.0001883 -0.0028172
1267578 0.0001834 -0.0026937 0.9998166 0.0026937 0.9998166 0.0026937 0.0001834 -0.0026937
1325623 0.0001787 -0.0025754 0.9998213 0.0025754 0.9998213 0.0025754 0.0001787 -0.0025754
1386327 0.0001743 -0.0024619 0.9998257 0.0024619 0.9998257 0.0024619 0.0001743 -0.0024619
1449809 0.0001701 -0.0023532 0.9998299 0.0023532 0.9998299 0.0023532 0.0001701 -0.0023532
1516199 0.0001661 -0.0022489 0.9998339 0.0022489 0.9998339 0.0022489 0.0001661 -0.0022489
1585629 0.0001623 -0.0021489 0.9998377 0.0021489 0.9998377 0.0021489 0.0001623 -0.0021489
1658239 0.0001587 -0.0020531 0.9998413 0.0020531 0.9998413 0.0020531 0.0001587 -0.0020531
1734173 0.0001552 -0.0019611 0.9998448 0.0019611 0.9998448 0.0019611 0.0001552 -0.0019611
1813585 0.0001520 -0.0018729 0.9998480 0.0018729 0.9998480 0.0018729 0.0001520 -0.0018729
1896632 0.0001490 -0.0017883 0.9998510 0.0017883 0.9998510 0.0017883 0.0001490 -0.0017883
1983483 0.0001461 -0.0017071 0.9998539 0.0017071 0.9998539 0.0017071 0.0001461 -0.0017071
2074311 0.0001435 -0.0016291 0.9998565 0.0016291 0.9998565 0.0016291 0.0001435 -0.0016291
