!Murata Part Number: GRM155R71E273KA88
!These Parameters are Measured in Series Mode Connection
!Data Generated on Mar 30, 2021
!       o--ll--o
!Port1            Port2
!       o------o
!Operation Temp=25[degC], DC Bias Voltage=0[V]
!Freq. Start=100[Hz] Stop=6[GHz] 401[Steps]
# Hz S RI R 50
!Freq.(Hz) S11(Real) S11(Imag) S21(Real) S21(Imag) S12(Real) S12(Imag) S22(Real) S22(Imag)
100 0.9999871 -0.0017314 0.0000129 0.0017314 0.0000129 0.0017314 0.9999871 -0.0017314
105 0.9999864 -0.0018104 0.0000136 0.0018104 0.0000136 0.0018104 0.9999864 -0.0018104
109 0.9999857 -0.0018929 0.0000143 0.0018929 0.0000143 0.0018929 0.9999857 -0.0018929
114 0.9999850 -0.0019793 0.0000150 0.0019793 0.0000150 0.0019793 0.9999850 -0.0019793
120 0.9999842 -0.0020696 0.0000158 0.0020696 0.0000158 0.0020696 0.9999842 -0.0020696
125 0.9999834 -0.0021641 0.0000166 0.0021641 0.0000166 0.0021641 0.9999834 -0.0021641
131 0.9999824 -0.0022628 0.0000176 0.0022628 0.0000176 0.0022628 0.9999824 -0.0022628
137 0.9999815 -0.0023661 0.0000185 0.0023661 0.0000185 0.0023661 0.9999815 -0.0023661
143 0.9999804 -0.0024741 0.0000196 0.0024741 0.0000196 0.0024741 0.9999804 -0.0024741
150 0.9999793 -0.0025870 0.0000207 0.0025870 0.0000207 0.0025870 0.9999793 -0.0025870
156 0.9999781 -0.0027051 0.0000219 0.0027051 0.0000219 0.0027051 0.9999781 -0.0027051
164 0.9999769 -0.0028286 0.0000231 0.0028286 0.0000231 0.0028286 0.9999769 -0.0028286
171 0.9999755 -0.0029577 0.0000245 0.0029577 0.0000245 0.0029577 0.9999755 -0.0029577
179 0.9999740 -0.0030927 0.0000260 0.0030927 0.0000260 0.0030927 0.9999740 -0.0030927
187 0.9999724 -0.0032339 0.0000276 0.0032339 0.0000276 0.0032339 0.9999724 -0.0032339
196 0.9999707 -0.0033815 0.0000293 0.0033815 0.0000293 0.0033815 0.9999707 -0.0033815
205 0.9999689 -0.0035359 0.0000311 0.0035359 0.0000311 0.0035359 0.9999689 -0.0035359
214 0.9999669 -0.0036973 0.0000331 0.0036973 0.0000331 0.0036973 0.9999669 -0.0036973
224 0.9999648 -0.0038661 0.0000352 0.0038661 0.0000352 0.0038661 0.9999648 -0.0038661
234 0.9999625 -0.0040426 0.0000375 0.0040426 0.0000375 0.0040426 0.9999625 -0.0040426
245 0.9999600 -0.0042271 0.0000400 0.0042271 0.0000400 0.0042271 0.9999600 -0.0042271
256 0.9999573 -0.0044201 0.0000427 0.0044201 0.0000427 0.0044201 0.9999573 -0.0044201
268 0.9999545 -0.0046219 0.0000455 0.0046219 0.0000455 0.0046219 0.9999545 -0.0046219
280 0.9999513 -0.0048329 0.0000487 0.0048329 0.0000487 0.0048329 0.9999513 -0.0048329
293 0.9999480 -0.0050535 0.0000520 0.0050535 0.0000520 0.0050535 0.9999480 -0.0050535
306 0.9999444 -0.0052842 0.0000556 0.0052842 0.0000556 0.0052842 0.9999444 -0.0052842
320 0.9999405 -0.0055254 0.0000595 0.0055254 0.0000595 0.0055254 0.9999405 -0.0055254
335 0.9999362 -0.0057776 0.0000638 0.0057776 0.0000638 0.0057776 0.9999362 -0.0057776
350 0.9999317 -0.0060414 0.0000683 0.0060414 0.0000683 0.0060414 0.9999317 -0.0060414
366 0.9999267 -0.0063171 0.0000733 0.0063171 0.0000733 0.0063171 0.9999267 -0.0063171
383 0.9999213 -0.0066055 0.0000787 0.0066055 0.0000787 0.0066055 0.9999213 -0.0066055
401 0.9999156 -0.0069070 0.0000844 0.0069070 0.0000844 0.0069070 0.9999156 -0.0069070
419 0.9999093 -0.0072222 0.0000907 0.0072222 0.0000907 0.0072222 0.9999093 -0.0072222
438 0.9999025 -0.0075518 0.0000975 0.0075518 0.0000975 0.0075518 0.9999025 -0.0075518
458 0.9998951 -0.0078965 0.0001049 0.0078965 0.0001049 0.0078965 0.9998951 -0.0078965
479 0.9998871 -0.0082568 0.0001129 0.0082568 0.0001129 0.0082568 0.9998871 -0.0082568
501 0.9998785 -0.0086336 0.0001215 0.0086336 0.0001215 0.0086336 0.9998785 -0.0086336
524 0.9998691 -0.0090275 0.0001309 0.0090275 0.0001309 0.0090275 0.9998691 -0.0090275
548 0.9998589 -0.0094394 0.0001411 0.0094394 0.0001411 0.0094394 0.9998589 -0.0094394
573 0.9998479 -0.0098700 0.0001521 0.0098700 0.0001521 0.0098700 0.9998479 -0.0098700
600 0.9998360 -0.0103203 0.0001640 0.0103203 0.0001640 0.0103203 0.9998360 -0.0103203
627 0.9998230 -0.0107910 0.0001770 0.0107910 0.0001770 0.0107910 0.9998230 -0.0107910
656 0.9998090 -0.0112832 0.0001910 0.0112832 0.0001910 0.0112832 0.9998090 -0.0112832
686 0.9997938 -0.0117977 0.0002062 0.0117977 0.0002062 0.0117977 0.9997938 -0.0117977
717 0.9997773 -0.0123356 0.0002227 0.0123356 0.0002227 0.0123356 0.9997773 -0.0123356
750 0.9997595 -0.0128980 0.0002405 0.0128980 0.0002405 0.0128980 0.9997595 -0.0128980
784 0.9997401 -0.0134860 0.0002599 0.0134860 0.0002599 0.0134860 0.9997401 -0.0134860
820 0.9997191 -0.0141007 0.0002809 0.0141007 0.0002809 0.0141007 0.9997191 -0.0141007
858 0.9996964 -0.0147434 0.0003036 0.0147434 0.0003036 0.0147434 0.9996964 -0.0147434
897 0.9996717 -0.0154152 0.0003283 0.0154152 0.0003283 0.0154152 0.9996717 -0.0154152
938 0.9996450 -0.0161176 0.0003550 0.0161176 0.0003550 0.0161176 0.9996450 -0.0161176
981 0.9996161 -0.0168519 0.0003839 0.0168519 0.0003839 0.0168519 0.9996161 -0.0168519
1026 0.9995847 -0.0176196 0.0004153 0.0176196 0.0004153 0.0176196 0.9995847 -0.0176196
1073 0.9995507 -0.0184222 0.0004493 0.0184222 0.0004493 0.0184222 0.9995507 -0.0184222
1122 0.9995138 -0.0192613 0.0004862 0.0192613 0.0004862 0.0192613 0.9995138 -0.0192613
1174 0.9994738 -0.0201385 0.0005262 0.0201385 0.0005262 0.0201385 0.9994738 -0.0201385
1227 0.9994304 -0.0210556 0.0005696 0.0210556 0.0005696 0.0210556 0.9994304 -0.0210556
1283 0.9993833 -0.0220143 0.0006167 0.0220143 0.0006167 0.0220143 0.9993833 -0.0220143
1342 0.9993321 -0.0230167 0.0006679 0.0230167 0.0006679 0.0230167 0.9993321 -0.0230167
1404 0.9992766 -0.0240646 0.0007234 0.0240646 0.0007234 0.0240646 0.9992766 -0.0240646
1468 0.9992163 -0.0251601 0.0007837 0.0251601 0.0007837 0.0251601 0.9992163 -0.0251601
1535 0.9991508 -0.0263055 0.0008492 0.0263055 0.0008492 0.0263055 0.9991508 -0.0263055
1606 0.9990795 -0.0275028 0.0009205 0.0275028 0.0009205 0.0275028 0.9990795 -0.0275028
1679 0.9990020 -0.0287546 0.0009980 0.0287546 0.0009980 0.0287546 0.9990020 -0.0287546
1756 0.9989178 -0.0300633 0.0010822 0.0300633 0.0010822 0.0300633 0.9989178 -0.0300633
1836 0.9988260 -0.0314314 0.0011740 0.0314314 0.0011740 0.0314314 0.9988260 -0.0314314
1920 0.9987262 -0.0328615 0.0012738 0.0328615 0.0012738 0.0328615 0.9987262 -0.0328615
2008 0.9986174 -0.0343566 0.0013826 0.0343566 0.0013826 0.0343566 0.9986174 -0.0343566
2100 0.9984989 -0.0359195 0.0015011 0.0359195 0.0015011 0.0359195 0.9984989 -0.0359195
2196 0.9983699 -0.0375532 0.0016301 0.0375532 0.0016301 0.0375532 0.9983699 -0.0375532
2297 0.9982292 -0.0392608 0.0017708 0.0392608 0.0017708 0.0392608 0.9982292 -0.0392608
2402 0.9980758 -0.0410458 0.0019242 0.0410458 0.0019242 0.0410458 0.9980758 -0.0410458
2512 0.9979085 -0.0429114 0.0020915 0.0429114 0.0020915 0.0429114 0.9979085 -0.0429114
2627 0.9977261 -0.0448612 0.0022739 0.0448612 0.0022739 0.0448612 0.9977261 -0.0448612
2748 0.9975271 -0.0468989 0.0024729 0.0468989 0.0024729 0.0468989 0.9975271 -0.0468989
2873 0.9973100 -0.0490284 0.0026900 0.0490284 0.0026900 0.0490284 0.9973100 -0.0490284
3005 0.9970731 -0.0512537 0.0029269 0.0512537 0.0029269 0.0512537 0.9970731 -0.0512537
3143 0.9968147 -0.0535788 0.0031853 0.0535788 0.0031853 0.0535788 0.9968147 -0.0535788
3287 0.9965327 -0.0560082 0.0034673 0.0560082 0.0034673 0.0560082 0.9965327 -0.0560082
3437 0.9962250 -0.0585461 0.0037750 0.0585461 0.0037750 0.0585461 0.9962250 -0.0585461
3594 0.9958892 -0.0611973 0.0041108 0.0611973 0.0041108 0.0611973 0.9958892 -0.0611973
3759 0.9955228 -0.0639665 0.0044772 0.0639665 0.0044772 0.0639665 0.9955228 -0.0639665
3931 0.9951230 -0.0668587 0.0048770 0.0668587 0.0048770 0.0668587 0.9951230 -0.0668587
4111 0.9946867 -0.0698789 0.0053133 0.0698789 0.0053133 0.0698789 0.9946867 -0.0698789
4299 0.9942106 -0.0730324 0.0057894 0.0730324 0.0057894 0.0730324 0.9942106 -0.0730324
4496 0.9936913 -0.0763247 0.0063087 0.0763247 0.0063087 0.0763247 0.9936913 -0.0763247
4702 0.9931247 -0.0797613 0.0068753 0.0797613 0.0068753 0.0797613 0.9931247 -0.0797613
4918 0.9925067 -0.0833480 0.0074933 0.0833480 0.0074933 0.0833480 0.9925067 -0.0833480
5143 0.9918326 -0.0870906 0.0081674 0.0870906 0.0081674 0.0870906 0.9918326 -0.0870906
5378 0.9910975 -0.0909951 0.0089025 0.0909951 0.0089025 0.0909951 0.9910975 -0.0909951
5625 0.9902960 -0.0950678 0.0097040 0.0950678 0.0097040 0.0950678 0.9902960 -0.0950678
5882 0.9894222 -0.0993149 0.0105778 0.0993149 0.0105778 0.0993149 0.9894222 -0.0993149
6151 0.9884697 -0.1037428 0.0115303 0.1037428 0.0115303 0.1037428 0.9884697 -0.1037428
6433 0.9874317 -0.1083580 0.0125683 0.1083580 0.0125683 0.1083580 0.9874317 -0.1083580
6728 0.9863007 -0.1131669 0.0136993 0.1131669 0.0136993 0.1131669 0.9863007 -0.1131669
7036 0.9850687 -0.1181762 0.0149313 0.1181762 0.0149313 0.1181762 0.9850687 -0.1181762
7358 0.9837269 -0.1233923 0.0162731 0.1233923 0.0162731 0.1233923 0.9837269 -0.1233923
7695 0.9822660 -0.1288220 0.0177340 0.1288220 0.0177340 0.1288220 0.9822660 -0.1288220
8047 0.9806757 -0.1344716 0.0193243 0.1344716 0.0193243 0.1344716 0.9806757 -0.1344716
8416 0.9789453 -0.1403476 0.0210547 0.1403476 0.0210547 0.1403476 0.9789453 -0.1403476
8801 0.9770628 -0.1464560 0.0229372 0.1464560 0.0229372 0.1464560 0.9770628 -0.1464560
9204 0.9750156 -0.1528029 0.0249844 0.1528029 0.0249844 0.1528029 0.9750156 -0.1528029
9626 0.9727902 -0.1593939 0.0272098 0.1593939 0.0272098 0.1593939 0.9727902 -0.1593939
10066 0.9703718 -0.1662343 0.0296282 0.1662343 0.0296282 0.1662343 0.9703718 -0.1662343
10527 0.9677449 -0.1733289 0.0322551 0.1733289 0.0322551 0.1733289 0.9677449 -0.1733289
11009 0.9648928 -0.1806817 0.0351072 0.1806817 0.0351072 0.1806817 0.9648928 -0.1806817
11514 0.9617976 -0.1882963 0.0382024 0.1882963 0.0382024 0.1882963 0.9617976 -0.1882963
12041 0.9584403 -0.1961753 0.0415597 0.1961753 0.0415597 0.1961753 0.9584403 -0.1961753
12592 0.9548007 -0.2043204 0.0451993 0.2043204 0.0451993 0.2043204 0.9548007 -0.2043204
13169 0.9508575 -0.2127319 0.0491425 0.2127319 0.0491425 0.2127319 0.9508575 -0.2127319
13772 0.9465882 -0.2214090 0.0534118 0.2214090 0.0534118 0.2214090 0.9465882 -0.2214090
14402 0.9419689 -0.2303494 0.0580311 0.2303494 0.0580311 0.2303494 0.9419689 -0.2303494
15062 0.9369748 -0.2395487 0.0630252 0.2395487 0.0630252 0.2395487 0.9369748 -0.2395487
15752 0.9315799 -0.2490010 0.0684201 0.2490010 0.0684201 0.2490010 0.9315799 -0.2490010
16473 0.9257573 -0.2586980 0.0742427 0.2586980 0.0742427 0.2586980 0.9257573 -0.2586980
17227 0.9194792 -0.2686287 0.0805208 0.2686287 0.0805208 0.2686287 0.9194792 -0.2686287
18016 0.9127172 -0.2787798 0.0872828 0.2787798 0.0872828 0.2787798 0.9127172 -0.2787798
18841 0.9054421 -0.2891348 0.0945579 0.2891348 0.0945579 0.2891348 0.9054421 -0.2891348
19704 0.8976249 -0.2996740 0.1023751 0.2996740 0.1023751 0.2996740 0.8976249 -0.2996740
20606 0.8892363 -0.3103743 0.1107637 0.3103743 0.1107637 0.3103743 0.8892363 -0.3103743
21550 0.8802475 -0.3212090 0.1197525 0.3212090 0.1197525 0.3212090 0.8802475 -0.3212090
22537 0.8706306 -0.3321474 0.1293694 0.3321474 0.1293694 0.3321474 0.8706306 -0.3321474
23569 0.8603590 -0.3431547 0.1396410 0.3431547 0.1396410 0.3431547 0.8603590 -0.3431547
24648 0.8494077 -0.3541921 0.1505923 0.3541921 0.1505923 0.3541921 0.8494077 -0.3541921
25777 0.8377543 -0.3652167 0.1622457 0.3652167 0.1622457 0.3652167 0.8377543 -0.3652167
26957 0.8253792 -0.3761813 0.1746208 0.3761813 0.1746208 0.3761813 0.8253792 -0.3761813
28191 0.8122663 -0.3870347 0.1877337 0.3870347 0.1877337 0.3870347 0.8122663 -0.3870347
29482 0.7984042 -0.3977218 0.2015958 0.3977218 0.2015958 0.3977218 0.7984042 -0.3977218
30832 0.7837860 -0.4081841 0.2162140 0.4081841 0.2162140 0.4081841 0.7837860 -0.4081841
32244 0.7684107 -0.4183603 0.2315893 0.4183603 0.2315893 0.4183603 0.7684107 -0.4183603
33721 0.7522833 -0.4281862 0.2477167 0.4281862 0.2477167 0.4281862 0.7522833 -0.4281862
35265 0.7354159 -0.4375961 0.2645841 0.4375961 0.2645841 0.4375961 0.7354159 -0.4375961
36880 0.7178277 -0.4465234 0.2821723 0.4465234 0.2821723 0.4465234 0.7178277 -0.4465234
38569 0.6995456 -0.4549014 0.3004544 0.4549014 0.3004544 0.4549014 0.6995456 -0.4549014
40335 0.6806044 -0.4626645 0.3193956 0.4626645 0.3193956 0.4626645 0.6806044 -0.4626645
42182 0.6610469 -0.4697491 0.3389531 0.4697491 0.3389531 0.4697491 0.6610469 -0.4697491
44113 0.6409238 -0.4760952 0.3590762 0.4760952 0.3590762 0.4760952 0.6409238 -0.4760952
46134 0.6202933 -0.4816469 0.3797067 0.4816469 0.3797067 0.4816469 0.6202933 -0.4816469
48246 0.5992207 -0.4863540 0.4007793 0.4863540 0.4007793 0.4863540 0.5992207 -0.4863540
50455 0.5777776 -0.4901732 0.4222224 0.4901732 0.4222224 0.4901732 0.5777776 -0.4901732
52766 0.5560413 -0.4930685 0.4439587 0.4930685 0.4439587 0.4930685 0.5560413 -0.4930685
55182 0.5340931 -0.4950123 0.4659069 0.4950123 0.4659069 0.4950123 0.5340931 -0.4950123
57709 0.5120179 -0.4959864 0.4879821 0.4959864 0.4879821 0.4959864 0.5120179 -0.4959864
60352 0.4899023 -0.4959819 0.5100977 0.4959819 0.5100977 0.4959819 0.4899023 -0.4959819
63115 0.4678334 -0.4949993 0.5321666 0.4949993 0.5321666 0.4949993 0.4678334 -0.4949993
66005 0.4458974 -0.4930492 0.5541026 0.4930492 0.5541026 0.4930492 0.4458974 -0.4930492
69028 0.4241786 -0.4901513 0.5758214 0.4901513 0.5758214 0.4901513 0.4241786 -0.4901513
72189 0.4027575 -0.4863343 0.5972425 0.4863343 0.5972425 0.4863343 0.4027575 -0.4863343
75495 0.3817101 -0.4816349 0.6182899 0.4816349 0.6182899 0.4816349 0.3817101 -0.4816349
78952 0.3611067 -0.4760975 0.6388933 0.4760975 0.6388933 0.4760975 0.3611067 -0.4760975
82567 0.3410114 -0.4697725 0.6589886 0.4697725 0.6589886 0.4697725 0.3410114 -0.4697725
86348 0.3214808 -0.4627159 0.6785192 0.4627159 0.6785192 0.4627159 0.3214808 -0.4627159
90302 0.3025642 -0.4549875 0.6974358 0.4549875 0.6974358 0.4549875 0.3025642 -0.4549875
94437 0.2843031 -0.4466504 0.7156969 0.4466504 0.7156969 0.4466504 0.2843031 -0.4466504
98762 0.2667311 -0.4377695 0.7332689 0.4377695 0.7332689 0.4377695 0.2667311 -0.4377695
103284 0.2498741 -0.4284105 0.7501259 0.4284105 0.7501259 0.4284105 0.2498741 -0.4284105
108014 0.2337508 -0.4186390 0.7662492 0.4186390 0.7662492 0.4186390 0.2337508 -0.4186390
112960 0.2183723 -0.4085195 0.7816277 0.4085195 0.7816277 0.4085195 0.2183723 -0.4085195
118133 0.2037438 -0.3981148 0.7962562 0.3981148 0.7962562 0.3981148 0.2037438 -0.3981148
123542 0.1898639 -0.3874851 0.8101361 0.3874851 0.8101361 0.3874851 0.1898639 -0.3874851
129199 0.1767262 -0.3766878 0.8232738 0.3766878 0.8232738 0.3766878 0.1767262 -0.3766878
135116 0.1643195 -0.3657767 0.8356805 0.3657767 0.8356805 0.3657767 0.1643195 -0.3657767
141303 0.1526284 -0.3548020 0.8473716 0.3548020 0.8473716 0.3548020 0.1526284 -0.3548020
147774 0.1416341 -0.3438102 0.8583659 0.3438102 0.8583659 0.3438102 0.1416341 -0.3438102
154540 0.1313149 -0.3328436 0.8686851 0.3328436 0.8686851 0.3328436 0.1313149 -0.3328436
161617 0.1216468 -0.3219405 0.8783532 0.3219405 0.8783532 0.3219405 0.1216468 -0.3219405
169018 0.1126041 -0.3111353 0.8873959 0.3111353 0.8873959 0.3111353 0.1126041 -0.3111353
176758 0.1041598 -0.3004586 0.8958402 0.3004586 0.8958402 0.3004586 0.1041598 -0.3004586
184852 0.0962861 -0.2899372 0.9037139 0.2899372 0.9037139 0.2899372 0.0962861 -0.2899372
193316 0.0889545 -0.2795943 0.9110455 0.2795943 0.9110455 0.2795943 0.0889545 -0.2795943
202169 0.0821366 -0.2694501 0.9178634 0.2694501 0.9178634 0.2694501 0.0821366 -0.2694501
211427 0.0758042 -0.2595212 0.9241958 0.2595212 0.9241958 0.2595212 0.0758042 -0.2595212
221108 0.0699292 -0.2498216 0.9300708 0.2498216 0.9300708 0.2498216 0.0699292 -0.2498216
231233 0.0644843 -0.2403628 0.9355157 0.2403628 0.9355157 0.2403628 0.0644843 -0.2403628
241822 0.0594430 -0.2311534 0.9405570 0.2311534 0.9405570 0.2311534 0.0594430 -0.2311534
252896 0.0547795 -0.2222004 0.9452205 0.2222004 0.9452205 0.2222004 0.0547795 -0.2222004
264476 0.0504691 -0.2135083 0.9495309 0.2135083 0.9495309 0.2135083 0.0504691 -0.2135083
276587 0.0464881 -0.2050801 0.9535119 0.2050801 0.9535119 0.2050801 0.0464881 -0.2050801
289253 0.0428138 -0.1969172 0.9571862 0.1969172 0.9571862 0.1969172 0.0428138 -0.1969172
302498 0.0394249 -0.1890197 0.9605751 0.1890197 0.9605751 0.1890197 0.0394249 -0.1890197
316350 0.0363009 -0.1813862 0.9636991 0.1813862 0.9636991 0.1813862 0.0363009 -0.1813862
330837 0.0334227 -0.1740146 0.9665773 0.1740146 0.9665773 0.1740146 0.0334227 -0.1740146
345986 0.0307722 -0.1669017 0.9692278 0.1669017 0.9692278 0.1669017 0.0307722 -0.1669017
361830 0.0283324 -0.1600436 0.9716676 0.1600436 0.9716676 0.1600436 0.0283324 -0.1600436
378399 0.0260874 -0.1534356 0.9739126 0.1534356 0.9739126 0.1534356 0.0260874 -0.1534356
395726 0.0240223 -0.1470727 0.9759777 0.1470727 0.9759777 0.1470727 0.0240223 -0.1470727
413847 0.0221232 -0.1409492 0.9778768 0.1409492 0.9778768 0.1409492 0.0221232 -0.1409492
432798 0.0203772 -0.1350594 0.9796228 0.1350594 0.9796228 0.1350594 0.0203772 -0.1350594
452617 0.0187722 -0.1293969 0.9812278 0.1293969 0.9812278 0.1293969 0.0187722 -0.1293969
473344 0.0172972 -0.1239554 0.9827028 0.1239554 0.9827028 0.1239554 0.0172972 -0.1239554
495019 0.0159418 -0.1187283 0.9840582 0.1187283 0.9840582 0.1187283 0.0159418 -0.1187283
517687 0.0146963 -0.1137091 0.9853037 0.1137091 0.9853037 0.1137091 0.0146963 -0.1137091
541393 0.0135520 -0.1088910 0.9864480 0.1088910 0.9864480 0.1088910 0.0135520 -0.1088910
566185 0.0125006 -0.1042673 0.9874994 0.1042673 0.9874994 0.1042673 0.0125006 -0.1042673
592111 0.0115347 -0.0998314 0.9884653 0.0998314 0.9884653 0.0998314 0.0115347 -0.0998314
619225 0.0106473 -0.0955767 0.9893527 0.0955767 0.9893527 0.0955767 0.0106473 -0.0955767
647581 0.0098320 -0.0914967 0.9901680 0.0914967 0.9901680 0.0914967 0.0098320 -0.0914967
677235 0.0090828 -0.0875851 0.9909172 0.0875851 0.9909172 0.0875851 0.0090828 -0.0875851
708247 0.0083945 -0.0838355 0.9916055 0.0838355 0.9916055 0.0838355 0.0083945 -0.0838355
740679 0.0077620 -0.0802418 0.9922380 0.0802418 0.9922380 0.0802418 0.0077620 -0.0802418
774597 0.0071808 -0.0767980 0.9928192 0.0767980 0.9928192 0.0767980 0.0071808 -0.0767980
810067 0.0066467 -0.0734984 0.9933533 0.0734984 0.9933533 0.0734984 0.0066467 -0.0734984
847162 0.0061558 -0.0703372 0.9938442 0.0703372 0.9938442 0.0703372 0.0061558 -0.0703372
885955 0.0057047 -0.0673091 0.9942953 0.0673091 0.9942953 0.0673091 0.0057047 -0.0673091
926525 0.0052900 -0.0644087 0.9947100 0.0644087 0.9947100 0.0644087 0.0052900 -0.0644087
968953 0.0049089 -0.0616309 0.9950911 0.0616309 0.9950911 0.0616309 0.0049089 -0.0616309
1013323 0.0045586 -0.0589707 0.9954414 0.0589707 0.9954414 0.0589707 0.0045586 -0.0589707
1059725 0.0042366 -0.0564234 0.9957634 0.0564234 0.9957634 0.0564234 0.0042366 -0.0564234
1108252 0.0039407 -0.0539844 0.9960593 0.0539844 0.9960593 0.0539844 0.0039407 -0.0539844
1159002 0.0036686 -0.0516492 0.9963314 0.0516492 0.9963314 0.0516492 0.0036686 -0.0516492
1212075 0.0034185 -0.0494135 0.9965815 0.0494135 0.9965815 0.0494135 0.0034185 -0.0494135
1267578 0.0031886 -0.0472734 0.9968114 0.0472734 0.9968114 0.0472734 0.0031886 -0.0472734
1325623 0.0029773 -0.0452247 0.9970227 0.0452247 0.9970227 0.0452247 0.0029773 -0.0452247
1386327 0.0027830 -0.0432637 0.9972170 0.0432637 0.9972170 0.0432637 0.0027830 -0.0432637
1449809 0.0026044 -0.0413868 0.9973956 0.0413868 0.9973956 0.0413868 0.0026044 -0.0413868
1516199 0.0024402 -0.0395904 0.9975598 0.0395904 0.9975598 0.0395904 0.0024402 -0.0395904
1585629 0.0022891 -0.0378712 0.9977109 0.0378712 0.9977109 0.0378712 0.0022891 -0.0378712
1658239 0.0021502 -0.0362258 0.9978498 0.0362258 0.9978498 0.0362258 0.0021502 -0.0362258
1734173 0.0020224 -0.0346513 0.9979776 0.0346513 0.9979776 0.0346513 0.0020224 -0.0346513
1813585 0.0019049 -0.0331446 0.9980951 0.0331446 0.9980951 0.0331446 0.0019049 -0.0331446
1896632 0.0017967 -0.0317028 0.9982033 0.0317028 0.9982033 0.0317028 0.0017967 -0.0317028
1983483 0.0016971 -0.0303231 0.9983029 0.0303231 0.9983029 0.0303231 0.0016971 -0.0303231
2074311 0.0016053 -0.0290030 0.9983947 0.0290030 0.9983947 0.0290030 0.0016053 -0.0290030
