!Murata Part Number: GRM155R71E123KA61
!These Parameters are Measured in Series Mode Connection
!Data Generated on Mar 30, 2021
!       o--ll--o
!Port1            Port2
!       o------o
!Operation Temp=25[degC], DC Bias Voltage=0[V]
!Freq. Start=100[Hz] Stop=6[GHz] 401[Steps]
# Hz S RI R 50
!Freq.(Hz) S11(Real) S11(Imag) S21(Real) S21(Imag) S12(Real) S12(Imag) S22(Real) S22(Imag)
100 0.9999958 -0.0007641 0.0000042 0.0007641 0.0000042 0.0007641 0.9999958 -0.0007641
105 0.9999956 -0.0007990 0.0000044 0.0007990 0.0000044 0.0007990 0.9999956 -0.0007990
109 0.9999954 -0.0008355 0.0000046 0.0008355 0.0000046 0.0008355 0.9999954 -0.0008355
114 0.9999951 -0.0008736 0.0000049 0.0008736 0.0000049 0.0008736 0.9999951 -0.0008736
120 0.9999949 -0.0009135 0.0000051 0.0009135 0.0000051 0.0009135 0.9999949 -0.0009135
125 0.9999946 -0.0009552 0.0000054 0.0009552 0.0000054 0.0009552 0.9999946 -0.0009552
131 0.9999944 -0.0009988 0.0000056 0.0009988 0.0000056 0.0009988 0.9999944 -0.0009988
137 0.9999941 -0.0010445 0.0000059 0.0010445 0.0000059 0.0010445 0.9999941 -0.0010445
143 0.9999937 -0.0010922 0.0000063 0.0010922 0.0000063 0.0010922 0.9999937 -0.0010922
150 0.9999934 -0.0011420 0.0000066 0.0011420 0.0000066 0.0011420 0.9999934 -0.0011420
156 0.9999931 -0.0011942 0.0000069 0.0011942 0.0000069 0.0011942 0.9999931 -0.0011942
164 0.9999927 -0.0012487 0.0000073 0.0012487 0.0000073 0.0012487 0.9999927 -0.0012487
171 0.9999923 -0.0013057 0.0000077 0.0013057 0.0000077 0.0013057 0.9999923 -0.0013057
179 0.9999918 -0.0013654 0.0000082 0.0013654 0.0000082 0.0013654 0.9999918 -0.0013654
187 0.9999914 -0.0014277 0.0000086 0.0014277 0.0000086 0.0014277 0.9999914 -0.0014277
196 0.9999909 -0.0014929 0.0000091 0.0014929 0.0000091 0.0014929 0.9999909 -0.0014929
205 0.9999903 -0.0015611 0.0000097 0.0015611 0.0000097 0.0015611 0.9999903 -0.0015611
214 0.9999897 -0.0016324 0.0000103 0.0016324 0.0000103 0.0016324 0.9999897 -0.0016324
224 0.9999891 -0.0017069 0.0000109 0.0017069 0.0000109 0.0017069 0.9999891 -0.0017069
234 0.9999885 -0.0017848 0.0000115 0.0017848 0.0000115 0.0017848 0.9999885 -0.0017848
245 0.9999878 -0.0018663 0.0000122 0.0018663 0.0000122 0.0018663 0.9999878 -0.0018663
256 0.9999870 -0.0019515 0.0000130 0.0019515 0.0000130 0.0019515 0.9999870 -0.0019515
268 0.9999862 -0.0020406 0.0000138 0.0020406 0.0000138 0.0020406 0.9999862 -0.0020406
280 0.9999854 -0.0021337 0.0000146 0.0021337 0.0000146 0.0021337 0.9999854 -0.0021337
293 0.9999845 -0.0022311 0.0000155 0.0022311 0.0000155 0.0022311 0.9999845 -0.0022311
306 0.9999835 -0.0023330 0.0000165 0.0023330 0.0000165 0.0023330 0.9999835 -0.0023330
320 0.9999825 -0.0024395 0.0000175 0.0024395 0.0000175 0.0024395 0.9999825 -0.0024395
335 0.9999814 -0.0025508 0.0000186 0.0025508 0.0000186 0.0025508 0.9999814 -0.0025508
350 0.9999802 -0.0026672 0.0000198 0.0026672 0.0000198 0.0026672 0.9999802 -0.0026672
366 0.9999789 -0.0027890 0.0000211 0.0027890 0.0000211 0.0027890 0.9999789 -0.0027890
383 0.9999776 -0.0029163 0.0000224 0.0029163 0.0000224 0.0029163 0.9999776 -0.0029163
401 0.9999762 -0.0030494 0.0000238 0.0030494 0.0000238 0.0030494 0.9999762 -0.0030494
419 0.9999747 -0.0031885 0.0000253 0.0031885 0.0000253 0.0031885 0.9999747 -0.0031885
438 0.9999730 -0.0033341 0.0000270 0.0033341 0.0000270 0.0033341 0.9999730 -0.0033341
458 0.9999713 -0.0034862 0.0000287 0.0034862 0.0000287 0.0034862 0.9999713 -0.0034862
479 0.9999694 -0.0036454 0.0000306 0.0036454 0.0000306 0.0036454 0.9999694 -0.0036454
501 0.9999674 -0.0038117 0.0000326 0.0038117 0.0000326 0.0038117 0.9999674 -0.0038117
524 0.9999653 -0.0039857 0.0000347 0.0039857 0.0000347 0.0039857 0.9999653 -0.0039857
548 0.9999629 -0.0041677 0.0000371 0.0041677 0.0000371 0.0041677 0.9999629 -0.0041677
573 0.9999605 -0.0043579 0.0000395 0.0043579 0.0000395 0.0043579 0.9999605 -0.0043579
600 0.9999578 -0.0045569 0.0000422 0.0045569 0.0000422 0.0045569 0.9999578 -0.0045569
627 0.9999549 -0.0047649 0.0000451 0.0047649 0.0000451 0.0047649 0.9999549 -0.0047649
656 0.9999518 -0.0049825 0.0000482 0.0049825 0.0000482 0.0049825 0.9999518 -0.0049825
686 0.9999484 -0.0052100 0.0000516 0.0052100 0.0000516 0.0052100 0.9999484 -0.0052100
717 0.9999448 -0.0054478 0.0000552 0.0054478 0.0000552 0.0054478 0.9999448 -0.0054478
750 0.9999409 -0.0056966 0.0000591 0.0056966 0.0000591 0.0056966 0.9999409 -0.0056966
784 0.9999367 -0.0059567 0.0000633 0.0059567 0.0000633 0.0059567 0.9999367 -0.0059567
820 0.9999321 -0.0062287 0.0000679 0.0062287 0.0000679 0.0062287 0.9999321 -0.0062287
858 0.9999271 -0.0065131 0.0000729 0.0065131 0.0000729 0.0065131 0.9999271 -0.0065131
897 0.9999217 -0.0068104 0.0000783 0.0068104 0.0000783 0.0068104 0.9999217 -0.0068104
938 0.9999158 -0.0071214 0.0000842 0.0071214 0.0000842 0.0071214 0.9999158 -0.0071214
981 0.9999095 -0.0074466 0.0000905 0.0074466 0.0000905 0.0074466 0.9999095 -0.0074466
1026 0.9999026 -0.0077865 0.0000974 0.0077865 0.0000974 0.0077865 0.9999026 -0.0077865
1073 0.9998951 -0.0081420 0.0001049 0.0081420 0.0001049 0.0081420 0.9998951 -0.0081420
1122 0.9998870 -0.0085137 0.0001130 0.0085137 0.0001130 0.0085137 0.9998870 -0.0085137
1174 0.9998783 -0.0089024 0.0001217 0.0089024 0.0001217 0.0089024 0.9998783 -0.0089024
1227 0.9998687 -0.0093088 0.0001313 0.0093088 0.0001313 0.0093088 0.9998687 -0.0093088
1283 0.9998584 -0.0097336 0.0001416 0.0097336 0.0001416 0.0097336 0.9998584 -0.0097336
1342 0.9998471 -0.0101779 0.0001529 0.0101779 0.0001529 0.0101779 0.9998471 -0.0101779
1404 0.9998349 -0.0106424 0.0001651 0.0106424 0.0001651 0.0106424 0.9998349 -0.0106424
1468 0.9998217 -0.0111280 0.0001783 0.0111280 0.0001783 0.0111280 0.9998217 -0.0111280
1535 0.9998074 -0.0116357 0.0001926 0.0116357 0.0001926 0.0116357 0.9998074 -0.0116357
1606 0.9997918 -0.0121666 0.0002082 0.0121666 0.0002082 0.0121666 0.9997918 -0.0121666
1679 0.9997749 -0.0127216 0.0002251 0.0127216 0.0002251 0.0127216 0.9997749 -0.0127216
1756 0.9997566 -0.0133019 0.0002434 0.0133019 0.0002434 0.0133019 0.9997566 -0.0133019
1836 0.9997368 -0.0139086 0.0002632 0.0139086 0.0002632 0.0139086 0.9997368 -0.0139086
1920 0.9997152 -0.0145429 0.0002848 0.0145429 0.0002848 0.0145429 0.9997152 -0.0145429
2008 0.9996918 -0.0152061 0.0003082 0.0152061 0.0003082 0.0152061 0.9996918 -0.0152061
2100 0.9996665 -0.0158994 0.0003335 0.0158994 0.0003335 0.0158994 0.9996665 -0.0158994
2196 0.9996390 -0.0166243 0.0003610 0.0166243 0.0003610 0.0166243 0.9996390 -0.0166243
2297 0.9996091 -0.0173822 0.0003909 0.0173822 0.0003909 0.0173822 0.9996091 -0.0173822
2402 0.9995767 -0.0181746 0.0004233 0.0181746 0.0004233 0.0181746 0.9995767 -0.0181746
2512 0.9995415 -0.0190030 0.0004585 0.0190030 0.0004585 0.0190030 0.9995415 -0.0190030
2627 0.9995033 -0.0198692 0.0004967 0.0198692 0.0004967 0.0198692 0.9995033 -0.0198692
2748 0.9994618 -0.0207747 0.0005382 0.0207747 0.0005382 0.0207747 0.9994618 -0.0207747
2873 0.9994168 -0.0217215 0.0005832 0.0217215 0.0005832 0.0217215 0.9994168 -0.0217215
3005 0.9993678 -0.0227113 0.0006322 0.0227113 0.0006322 0.0227113 0.9993678 -0.0227113
3143 0.9993145 -0.0237462 0.0006855 0.0237462 0.0006855 0.0237462 0.9993145 -0.0237462
3287 0.9992566 -0.0248282 0.0007434 0.0248282 0.0007434 0.0248282 0.9992566 -0.0248282
3437 0.9991936 -0.0259593 0.0008064 0.0259593 0.0008064 0.0259593 0.9991936 -0.0259593
3594 0.9991250 -0.0271420 0.0008750 0.0271420 0.0008750 0.0271420 0.9991250 -0.0271420
3759 0.9990503 -0.0283784 0.0009497 0.0283784 0.0009497 0.0283784 0.9990503 -0.0283784
3931 0.9989690 -0.0296710 0.0010310 0.0296710 0.0010310 0.0296710 0.9989690 -0.0296710
4111 0.9988804 -0.0310224 0.0011196 0.0310224 0.0011196 0.0310224 0.9988804 -0.0310224
4299 0.9987839 -0.0324351 0.0012161 0.0324351 0.0012161 0.0324351 0.9987839 -0.0324351
4496 0.9986787 -0.0339119 0.0013213 0.0339119 0.0013213 0.0339119 0.9986787 -0.0339119
4702 0.9985641 -0.0354558 0.0014359 0.0354558 0.0014359 0.0354558 0.9985641 -0.0354558
4918 0.9984390 -0.0370696 0.0015610 0.0370696 0.0015610 0.0370696 0.9984390 -0.0370696
5143 0.9983026 -0.0387565 0.0016974 0.0387565 0.0016974 0.0387565 0.9983026 -0.0387565
5378 0.9981538 -0.0405198 0.0018462 0.0405198 0.0018462 0.0405198 0.9981538 -0.0405198
5625 0.9979915 -0.0423627 0.0020085 0.0423627 0.0020085 0.0423627 0.9979915 -0.0423627
5882 0.9978144 -0.0442889 0.0021856 0.0442889 0.0021856 0.0442889 0.9978144 -0.0442889
6151 0.9976212 -0.0463020 0.0023788 0.0463020 0.0023788 0.0463020 0.9976212 -0.0463020
6433 0.9974103 -0.0484057 0.0025897 0.0484057 0.0025897 0.0484057 0.9974103 -0.0484057
6728 0.9971801 -0.0506040 0.0028199 0.0506040 0.0028199 0.0506040 0.9971801 -0.0506040
7036 0.9969289 -0.0529009 0.0030711 0.0529009 0.0030711 0.0529009 0.9969289 -0.0529009
7358 0.9966548 -0.0553008 0.0033452 0.0553008 0.0033452 0.0553008 0.9966548 -0.0553008
7695 0.9963556 -0.0578081 0.0036444 0.0578081 0.0036444 0.0578081 0.9963556 -0.0578081
8047 0.9960291 -0.0604272 0.0039709 0.0604272 0.0039709 0.0604272 0.9960291 -0.0604272
8416 0.9956728 -0.0631630 0.0043272 0.0631630 0.0043272 0.0631630 0.9956728 -0.0631630
8801 0.9952839 -0.0660203 0.0047161 0.0660203 0.0047161 0.0660203 0.9952839 -0.0660203
9204 0.9948597 -0.0690041 0.0051403 0.0690041 0.0051403 0.0690041 0.9948597 -0.0690041
9626 0.9943968 -0.0721197 0.0056032 0.0721197 0.0056032 0.0721197 0.9943968 -0.0721197
10066 0.9938918 -0.0753725 0.0061082 0.0753725 0.0061082 0.0753725 0.9938918 -0.0753725
10527 0.9933410 -0.0787681 0.0066590 0.0787681 0.0066590 0.0787681 0.9933410 -0.0787681
11009 0.9927402 -0.0823121 0.0072598 0.0823121 0.0072598 0.0823121 0.9927402 -0.0823121
11514 0.9920849 -0.0860104 0.0079151 0.0860104 0.0079151 0.0860104 0.9920849 -0.0860104
12041 0.9913705 -0.0898690 0.0086295 0.0898690 0.0086295 0.0898690 0.9913705 -0.0898690
12592 0.9905915 -0.0938941 0.0094085 0.0938941 0.0094085 0.0938941 0.9905915 -0.0938941
13169 0.9897424 -0.0980921 0.0102576 0.0980921 0.0102576 0.0980921 0.9897424 -0.0980921
13772 0.9888169 -0.1024692 0.0111831 0.1024692 0.0111831 0.1024692 0.9888169 -0.1024692
14402 0.9878083 -0.1070321 0.0121917 0.1070321 0.0121917 0.1070321 0.9878083 -0.1070321
15062 0.9867094 -0.1117874 0.0132906 0.1117874 0.0132906 0.1117874 0.9867094 -0.1117874
15752 0.9855123 -0.1167416 0.0144877 0.1167416 0.0144877 0.1167416 0.9855123 -0.1167416
16473 0.9842085 -0.1219016 0.0157915 0.1219016 0.0157915 0.1219016 0.9842085 -0.1219016
17227 0.9827888 -0.1272739 0.0172112 0.1272739 0.0172112 0.1272739 0.9827888 -0.1272739
18016 0.9812431 -0.1328652 0.0187569 0.1328652 0.0187569 0.1328652 0.9812431 -0.1328652
18841 0.9795608 -0.1386821 0.0204392 0.1386821 0.0204392 0.1386821 0.9795608 -0.1386821
19704 0.9777301 -0.1447309 0.0222699 0.1447309 0.0222699 0.1447309 0.9777301 -0.1447309
20606 0.9757387 -0.1510179 0.0242613 0.1510179 0.0242613 0.1510179 0.9757387 -0.1510179
21550 0.9735729 -0.1575488 0.0264271 0.1575488 0.0264271 0.1575488 0.9735729 -0.1575488
22537 0.9712184 -0.1643291 0.0287816 0.1643291 0.0287816 0.1643291 0.9712184 -0.1643291
23569 0.9686595 -0.1713640 0.0313405 0.1713640 0.0313405 0.1713640 0.9686595 -0.1713640
24648 0.9658797 -0.1786578 0.0341203 0.1786578 0.0341203 0.1786578 0.9658797 -0.1786578
25777 0.9628611 -0.1862143 0.0371389 0.1862143 0.0371389 0.1862143 0.9628611 -0.1862143
26957 0.9595849 -0.1940362 0.0404151 0.1940362 0.0404151 0.1940362 0.9595849 -0.1940362
28191 0.9560308 -0.2021257 0.0439692 0.2021257 0.0439692 0.2021257 0.9560308 -0.2021257
29482 0.9521775 -0.2104832 0.0478225 0.2104832 0.0478225 0.2104832 0.9521775 -0.2104832
30832 0.9480025 -0.2191084 0.0519975 0.2191084 0.0519975 0.2191084 0.9480025 -0.2191084
32244 0.9434821 -0.2279989 0.0565179 0.2279989 0.0565179 0.2279989 0.9434821 -0.2279989
33721 0.9385914 -0.2371510 0.0614086 0.2371510 0.0614086 0.2371510 0.9385914 -0.2371510
35265 0.9333045 -0.2465588 0.0666955 0.2465588 0.0666955 0.2465588 0.9333045 -0.2465588
36880 0.9275945 -0.2562143 0.0724055 0.2562143 0.0724055 0.2562143 0.9275945 -0.2562143
38569 0.9214335 -0.2661070 0.0785665 0.2661070 0.0785665 0.2661070 0.9214335 -0.2661070
40335 0.9147931 -0.2762238 0.0852069 0.2762238 0.0852069 0.2762238 0.9147931 -0.2762238
42182 0.9076445 -0.2865485 0.0923555 0.2865485 0.0923555 0.2865485 0.9076445 -0.2865485
44113 0.8999583 -0.2970620 0.1000417 0.2970620 0.1000417 0.2970620 0.8999583 -0.2970620
46134 0.8917054 -0.3077416 0.1082946 0.3077416 0.1082946 0.3077416 0.8917054 -0.3077416
48246 0.8828570 -0.3185610 0.1171430 0.3185610 0.1171430 0.3185610 0.8828570 -0.3185610
50455 0.8733852 -0.3294900 0.1266148 0.3294900 0.1266148 0.3294900 0.8733852 -0.3294900
52766 0.8632633 -0.3404947 0.1367367 0.3404947 0.1367367 0.3404947 0.8632633 -0.3404947
55182 0.8524663 -0.3515368 0.1475337 0.3515368 0.1475337 0.3515368 0.8524663 -0.3515368
57709 0.8409714 -0.3625741 0.1590286 0.3625741 0.1590286 0.3625741 0.8409714 -0.3625741
60352 0.8287588 -0.3735602 0.1712412 0.3735602 0.1712412 0.3735602 0.8287588 -0.3735602
63115 0.8158122 -0.3844447 0.1841878 0.3844447 0.1841878 0.3844447 0.8158122 -0.3844447
66005 0.8021195 -0.3951737 0.1978805 0.3951737 0.1978805 0.3951737 0.8021195 -0.3951737
69028 0.7876733 -0.4056894 0.2123267 0.4056894 0.2123267 0.4056894 0.7876733 -0.4056894
72189 0.7724716 -0.4159314 0.2275284 0.4159314 0.2275284 0.4159314 0.7724716 -0.4159314
75495 0.7565187 -0.4258364 0.2434813 0.4258364 0.2434813 0.4258364 0.7565187 -0.4258364
78952 0.7398254 -0.4353397 0.2601746 0.4353397 0.2601746 0.4353397 0.7398254 -0.4353397
82567 0.7224094 -0.4443754 0.2775906 0.4443754 0.2775906 0.4443754 0.7224094 -0.4443754
86348 0.7042963 -0.4528773 0.2957037 0.4528773 0.2957037 0.4528773 0.7042963 -0.4528773
90302 0.6855189 -0.4607805 0.3144811 0.4607805 0.3144811 0.4607805 0.6855189 -0.4607805
94437 0.6661184 -0.4680215 0.3338816 0.4680215 0.3338816 0.4680215 0.6661184 -0.4680215
98762 0.6461431 -0.4745403 0.3538569 0.4745403 0.3538569 0.4745403 0.6461431 -0.4745403
103284 0.6256493 -0.4802808 0.3743507 0.4802808 0.3743507 0.4802808 0.6256493 -0.4802808
108014 0.6046999 -0.4851922 0.3953001 0.4851922 0.3953001 0.4851922 0.6046999 -0.4851922
112960 0.5833645 -0.4892301 0.4166355 0.4892301 0.4166355 0.4892301 0.5833645 -0.4892301
118133 0.5617180 -0.4923571 0.4382820 0.4923571 0.4382820 0.4923571 0.5617180 -0.4923571
123542 0.5398399 -0.4945441 0.4601601 0.4945441 0.4601601 0.4945441 0.5398399 -0.4945441
129199 0.5178131 -0.4957705 0.4821869 0.4957705 0.4821869 0.4957705 0.5178131 -0.4957705
135116 0.4957228 -0.4960251 0.5042772 0.4960251 0.5042772 0.4960251 0.4957228 -0.4960251
141303 0.4736550 -0.4953059 0.5263450 0.4953059 0.5263450 0.4953059 0.4736550 -0.4953059
147774 0.4516952 -0.4936204 0.5483048 0.4936204 0.5483048 0.4936204 0.4516952 -0.4936204
154540 0.4299272 -0.4909852 0.5700728 0.4909852 0.5700728 0.4909852 0.4299272 -0.4909852
161617 0.4084318 -0.4874259 0.5915682 0.4874259 0.5915682 0.4874259 0.4084318 -0.4874259
169018 0.3872858 -0.4829762 0.6127142 0.4829762 0.6127142 0.4829762 0.3872858 -0.4829762
176758 0.3665607 -0.4776775 0.6334393 0.4776775 0.6334393 0.4776775 0.3665607 -0.4776775
184852 0.3463219 -0.4715775 0.6536781 0.4715775 0.6536781 0.4715775 0.3463219 -0.4715775
193316 0.3266284 -0.4647296 0.6733716 0.4647296 0.6733716 0.4647296 0.3266284 -0.4647296
202169 0.3075318 -0.4571919 0.6924682 0.4571919 0.6924682 0.4571919 0.3075318 -0.4571919
211427 0.2890761 -0.4490256 0.7109239 0.4490256 0.7109239 0.4490256 0.2890761 -0.4490256
221108 0.2712978 -0.4402944 0.7287022 0.4402944 0.7287022 0.4402944 0.2712978 -0.4402944
231233 0.2542257 -0.4310634 0.7457743 0.4310634 0.7457743 0.4310634 0.2542257 -0.4310634
241822 0.2378812 -0.4213978 0.7621188 0.4213978 0.7621188 0.4213978 0.2378812 -0.4213978
252896 0.2222785 -0.4113623 0.7777215 0.4113623 0.7777215 0.4113623 0.2222785 -0.4113623
264476 0.2074252 -0.4010203 0.7925748 0.4010203 0.7925748 0.4010203 0.2074252 -0.4010203
276587 0.1933225 -0.3904329 0.8066775 0.3904329 0.8066775 0.3904329 0.1933225 -0.3904329
289253 0.1799662 -0.3796586 0.8200338 0.3796586 0.8200338 0.3796586 0.1799662 -0.3796586
302498 0.1673469 -0.3687529 0.8326531 0.3687529 0.8326531 0.3687529 0.1673469 -0.3687529
316350 0.1554508 -0.3577674 0.8445492 0.3577674 0.8445492 0.3577674 0.1554508 -0.3577674
330837 0.1442604 -0.3467502 0.8557396 0.3467502 0.8557396 0.3467502 0.1442604 -0.3467502
345986 0.1337550 -0.3357456 0.8662450 0.3357456 0.8662450 0.3357456 0.1337550 -0.3357456
361830 0.1239113 -0.3247936 0.8760887 0.3247936 0.8760887 0.3247936 0.1239113 -0.3247936
378399 0.1147040 -0.3139302 0.8852960 0.3139302 0.8852960 0.3139302 0.1147040 -0.3139302
395726 0.1061062 -0.3031878 0.8938938 0.3031878 0.8938938 0.3031878 0.1061062 -0.3031878
413847 0.0980901 -0.2925947 0.9019099 0.2925947 0.9019099 0.2925947 0.0980901 -0.2925947
432798 0.0906272 -0.2821755 0.9093728 0.2821755 0.9093728 0.2821755 0.0906272 -0.2821755
452617 0.0836886 -0.2719516 0.9163114 0.2719516 0.9163114 0.2719516 0.0836886 -0.2719516
473344 0.0772456 -0.2619408 0.9227544 0.2619408 0.9227544 0.2619408 0.0772456 -0.2619408
495019 0.0712697 -0.2521583 0.9287303 0.2521583 0.9287303 0.2521583 0.0712697 -0.2521583
517687 0.0657331 -0.2426161 0.9342669 0.2426161 0.9342669 0.2426161 0.0657331 -0.2426161
541393 0.0606084 -0.2333238 0.9393916 0.2333238 0.9393916 0.2333238 0.0606084 -0.2333238
566185 0.0558694 -0.2242888 0.9441306 0.2242888 0.9441306 0.2242888 0.0558694 -0.2242888
592111 0.0514907 -0.2155163 0.9485093 0.2155163 0.9485093 0.2155163 0.0514907 -0.2155163
619225 0.0474479 -0.2070096 0.9525521 0.2070096 0.9525521 0.2070096 0.0474479 -0.2070096
647581 0.0437179 -0.1987705 0.9562821 0.1987705 0.9562821 0.1987705 0.0437179 -0.1987705
677235 0.0402786 -0.1907991 0.9597214 0.1907991 0.9597214 0.1907991 0.0402786 -0.1907991
708247 0.0371091 -0.1830944 0.9628909 0.1830944 0.9628909 0.1830944 0.0371091 -0.1830944
740679 0.0341897 -0.1756544 0.9658103 0.1756544 0.9658103 0.1756544 0.0341897 -0.1756544
774597 0.0315020 -0.1684757 0.9684980 0.1684757 0.9684980 0.1684757 0.0315020 -0.1684757
810067 0.0290283 -0.1615547 0.9709717 0.1615547 0.9709717 0.1615547 0.0290283 -0.1615547
847162 0.0267525 -0.1548866 0.9732475 0.1548866 0.9732475 0.1548866 0.0267525 -0.1548866
885955 0.0246593 -0.1484663 0.9753407 0.1484663 0.9753407 0.1484663 0.0246593 -0.1484663
926525 0.0227344 -0.1422882 0.9772656 0.1422882 0.9772656 0.1422882 0.0227344 -0.1422882
968953 0.0209647 -0.1363462 0.9790353 0.1363462 0.9790353 0.1363462 0.0209647 -0.1363462
1013323 0.0193378 -0.1306342 0.9806622 0.1306342 0.9806622 0.1306342 0.0193378 -0.1306342
1059725 0.0178424 -0.1251455 0.9821576 0.1251455 0.9821576 0.1251455 0.0178424 -0.1251455
1108252 0.0164679 -0.1198736 0.9835321 0.1198736 0.9835321 0.1198736 0.0164679 -0.1198736
1159002 0.0152044 -0.1148116 0.9847956 0.1148116 0.9847956 0.1148116 0.0152044 -0.1148116
1212075 0.0140430 -0.1099528 0.9859570 0.1099528 0.9859570 0.1099528 0.0140430 -0.1099528
1267578 0.0129754 -0.1052904 0.9870246 0.1052904 0.9870246 0.1052904 0.0129754 -0.1052904
1325623 0.0119939 -0.1008175 0.9880061 0.1008175 0.9880061 0.1008175 0.0119939 -0.1008175
1386327 0.0110913 -0.0965275 0.9889087 0.0965275 0.9889087 0.0965275 0.0110913 -0.0965275
1449809 0.0102613 -0.0924137 0.9897387 0.0924137 0.9897387 0.0924137 0.0102613 -0.0924137
1516199 0.0094979 -0.0884695 0.9905021 0.0884695 0.9905021 0.0884695 0.0094979 -0.0884695
1585629 0.0087955 -0.0846887 0.9912045 0.0846887 0.9912045 0.0846887 0.0087955 -0.0846887
1658239 0.0081493 -0.0810649 0.9918507 0.0810649 0.9918507 0.0810649 0.0081493 -0.0810649
1734173 0.0075545 -0.0775921 0.9924455 0.0775921 0.9924455 0.0775921 0.0075545 -0.0775921
1813585 0.0070070 -0.0742643 0.9929930 0.0742643 0.9929930 0.0742643 0.0070070 -0.0742643
1896632 0.0065030 -0.0710757 0.9934970 0.0710757 0.9934970 0.0710757 0.0065030 -0.0710757
1983483 0.0060389 -0.0680209 0.9939611 0.0680209 0.9939611 0.0680209 0.0060389 -0.0680209
2074311 0.0056115 -0.0650944 0.9943885 0.0650944 0.9943885 0.0650944 0.0056115 -0.0650944
