!Murata Part Number: GRM155C81A225ME44
!These Parameters are Measured in Series Mode Connection
!Data Generated on Mar 30, 2021
!       o--ll--o
!Port1            Port2
!       o------o
!Operation Temp=25[degC], DC Bias Voltage=0[V]
!Freq. Start=100[Hz] Stop=6[GHz] 401[Steps]
# Hz S RI R 50
!Freq.(Hz) S11(Real) S11(Imag) S21(Real) S21(Imag) S12(Real) S12(Imag) S22(Real) S22(Imag)
100 0.9839444 -0.1161302 0.0160556 0.1161302 0.0160556 0.1161302 0.9839444 -0.1161302
105 0.9825796 -0.1211698 0.0174204 0.1211698 0.0174204 0.1211698 0.9825796 -0.1211698
109 0.9811022 -0.1264123 0.0188978 0.1264123 0.0188978 0.1264123 0.9811022 -0.1264123
114 0.9795029 -0.1318642 0.0204971 0.1318642 0.0204971 0.1318642 0.9795029 -0.1318642
120 0.9777717 -0.1375321 0.0222283 0.1375321 0.0222283 0.1375321 0.9777717 -0.1375321
125 0.9758976 -0.1434222 0.0241024 0.1434222 0.0241024 0.1434222 0.9758976 -0.1434222
131 0.9738688 -0.1495407 0.0261312 0.1495407 0.0261312 0.1495407 0.9738688 -0.1495407
137 0.9716726 -0.1558936 0.0283274 0.1558936 0.0283274 0.1558936 0.9716726 -0.1558936
143 0.9692952 -0.1624865 0.0307048 0.1624865 0.0307048 0.1624865 0.9692952 -0.1624865
150 0.9667218 -0.1693244 0.0332782 0.1693244 0.0332782 0.1693244 0.9667218 -0.1693244
156 0.9639366 -0.1764120 0.0360634 0.1764120 0.0360634 0.1764120 0.9639366 -0.1764120
164 0.9609225 -0.1837531 0.0390775 0.1837531 0.0390775 0.1837531 0.9609225 -0.1837531
171 0.9576613 -0.1913510 0.0423387 0.1913510 0.0423387 0.1913510 0.9576613 -0.1913510
179 0.9541337 -0.1992077 0.0458663 0.1992077 0.0458663 0.1992077 0.9541337 -0.1992077
187 0.9503191 -0.2073243 0.0496809 0.2073243 0.0496809 0.2073243 0.9503191 -0.2073243
196 0.9461959 -0.2157005 0.0538041 0.2157005 0.0538041 0.2157005 0.9461959 -0.2157005
205 0.9417411 -0.2243346 0.0582589 0.2243346 0.0582589 0.2243346 0.9417411 -0.2243346
214 0.9369309 -0.2332231 0.0630691 0.2332231 0.0630691 0.2332231 0.9369309 -0.2332231
224 0.9317402 -0.2423607 0.0682598 0.2423607 0.0682598 0.2423607 0.9317402 -0.2423607
234 0.9261430 -0.2517399 0.0738570 0.2517399 0.0738570 0.2517399 0.9261430 -0.2517399
245 0.9201126 -0.2613510 0.0798874 0.2613510 0.0798874 0.2613510 0.9201126 -0.2613510
256 0.9136216 -0.2711814 0.0863784 0.2711814 0.0863784 0.2711814 0.9136216 -0.2711814
268 0.9066422 -0.2812161 0.0933578 0.2812161 0.0933578 0.2812161 0.9066422 -0.2812161
280 0.8991462 -0.2914368 0.1008538 0.2914368 0.1008538 0.2914368 0.8991462 -0.2914368
293 0.8911057 -0.3018220 0.1088943 0.3018220 0.1088943 0.3018220 0.8911057 -0.3018220
306 0.8824930 -0.3123467 0.1175070 0.3123467 0.1175070 0.3123467 0.8824930 -0.3123467
320 0.8732814 -0.3229824 0.1267186 0.3229824 0.1267186 0.3229824 0.8732814 -0.3229824
335 0.8634452 -0.3336967 0.1365548 0.3336967 0.1365548 0.3336967 0.8634452 -0.3336967
350 0.8529605 -0.3444537 0.1470395 0.3444537 0.1470395 0.3444537 0.8529605 -0.3444537
366 0.8418056 -0.3552131 0.1581944 0.3552131 0.1581944 0.3552131 0.8418056 -0.3552131
383 0.8299614 -0.3659313 0.1700386 0.3659313 0.1700386 0.3659313 0.8299614 -0.3659313
401 0.8174122 -0.3765606 0.1825878 0.3765606 0.1825878 0.3765606 0.8174122 -0.3765606
419 0.8041463 -0.3870502 0.1958537 0.3870502 0.1958537 0.3870502 0.8041463 -0.3870502
438 0.7901565 -0.3973456 0.2098435 0.3973456 0.2098435 0.3973456 0.7901565 -0.3973456
458 0.7754404 -0.4073900 0.2245596 0.4073900 0.2245596 0.4073900 0.7754404 -0.4073900
479 0.7600016 -0.4171242 0.2399984 0.4171242 0.2399984 0.4171242 0.7600016 -0.4171242
501 0.7438495 -0.4264871 0.2561505 0.4264871 0.2561505 0.4264871 0.7438495 -0.4264871
524 0.7270003 -0.4354170 0.2729997 0.4354170 0.2729997 0.4354170 0.7270003 -0.4354170
548 0.7094768 -0.4438519 0.2905232 0.4438519 0.2905232 0.4438519 0.7094768 -0.4438519
573 0.6913092 -0.4517306 0.3086908 0.4517306 0.3086908 0.4517306 0.6913092 -0.4517306
600 0.6725345 -0.4589937 0.3274655 0.4589937 0.3274655 0.4589937 0.6725345 -0.4589937
627 0.6531968 -0.4655845 0.3468032 0.4655845 0.3468032 0.4655845 0.6531968 -0.4655845
656 0.6333472 -0.4714498 0.3666528 0.4714498 0.3666528 0.4714498 0.6333472 -0.4714498
686 0.6130430 -0.4765414 0.3869570 0.4765414 0.3869570 0.4765414 0.6130430 -0.4765414
717 0.5923473 -0.4808163 0.4076527 0.4808163 0.4076527 0.4808163 0.5923473 -0.4808163
750 0.5713284 -0.4842382 0.4286716 0.4842382 0.4286716 0.4842382 0.5713284 -0.4842382
784 0.5500590 -0.4867776 0.4499410 0.4867776 0.4499410 0.4867776 0.5500590 -0.4867776
820 0.5286147 -0.4884129 0.4713853 0.4884129 0.4713853 0.4884129 0.5286147 -0.4884129
858 0.5070737 -0.4891305 0.4929263 0.4891305 0.4929263 0.4891305 0.5070737 -0.4891305
897 0.4855152 -0.4889252 0.5144848 0.4889252 0.5144848 0.4889252 0.4855152 -0.4889252
938 0.4640185 -0.4877999 0.5359815 0.4877999 0.5359815 0.4877999 0.4640185 -0.4877999
981 0.4426616 -0.4857662 0.5573384 0.4857662 0.5573384 0.4857662 0.4426616 -0.4857662
1026 0.4215204 -0.4828435 0.5784796 0.4828435 0.5784796 0.4828435 0.4215204 -0.4828435
1073 0.4006678 -0.4790586 0.5993322 0.4790586 0.5993322 0.4790586 0.4006678 -0.4790586
1122 0.3801724 -0.4744454 0.6198276 0.4744454 0.6198276 0.4744454 0.3801724 -0.4744454
1174 0.3600980 -0.4690442 0.6399020 0.4690442 0.6399020 0.4690442 0.3600980 -0.4690442
1227 0.3405027 -0.4629004 0.6594973 0.4629004 0.6594973 0.4629004 0.3405027 -0.4629004
1283 0.3214390 -0.4560646 0.6785610 0.4560646 0.6785610 0.4560646 0.3214390 -0.4560646
1342 0.3029524 -0.4485904 0.6970476 0.4485904 0.6970476 0.4485904 0.3029524 -0.4485904
1404 0.2850821 -0.4405349 0.7149179 0.4405349 0.7149179 0.4405349 0.2850821 -0.4405349
1468 0.2678605 -0.4319566 0.7321395 0.4319566 0.7321395 0.4319566 0.2678605 -0.4319566
1535 0.2513133 -0.4229154 0.7486867 0.4229154 0.7486867 0.4229154 0.2513133 -0.4229154
1606 0.2354596 -0.4134711 0.7645404 0.4134711 0.7645404 0.4134711 0.2354596 -0.4134711
1679 0.2203122 -0.4036833 0.7796878 0.4036833 0.7796878 0.4036833 0.2203122 -0.4036833
1756 0.2058780 -0.3936101 0.7941220 0.3936101 0.7941220 0.3936101 0.2058780 -0.3936101
1836 0.1921584 -0.3833079 0.8078416 0.3833079 0.8078416 0.3833079 0.1921584 -0.3833079
1920 0.1791497 -0.3728309 0.8208503 0.3728309 0.8208503 0.3728309 0.1791497 -0.3728309
2008 0.1668435 -0.3622303 0.8331565 0.3622303 0.8331565 0.3622303 0.1668435 -0.3622303
2100 0.1552277 -0.3515545 0.8447723 0.3515545 0.8447723 0.3515545 0.1552277 -0.3515545
2196 0.1442863 -0.3408484 0.8557137 0.3408484 0.8557137 0.3408484 0.1442863 -0.3408484
2297 0.1340005 -0.3301535 0.8659995 0.3301535 0.8659995 0.3301535 0.1340005 -0.3301535
2402 0.1243491 -0.3195076 0.8756509 0.3195076 0.8756509 0.3195076 0.1243491 -0.3195076
2512 0.1153089 -0.3089451 0.8846911 0.3089451 0.8846911 0.3089451 0.1153089 -0.3089451
2627 0.1068550 -0.2984967 0.8931450 0.2984967 0.8931450 0.2984967 0.1068550 -0.2984967
2748 0.0989616 -0.2881897 0.9010384 0.2881897 0.9010384 0.2881897 0.0989616 -0.2881897
2873 0.0916020 -0.2780478 0.9083980 0.2780478 0.9083980 0.2780478 0.0916020 -0.2780478
3005 0.0847492 -0.2680917 0.9152508 0.2680917 0.9152508 0.2680917 0.0847492 -0.2680917
3143 0.0783762 -0.2583390 0.9216238 0.2583390 0.9216238 0.2583390 0.0783762 -0.2583390
3287 0.0724560 -0.2488043 0.9275440 0.2488043 0.9275440 0.2488043 0.0724560 -0.2488043
3437 0.0669622 -0.2394999 0.9330378 0.2394999 0.9330378 0.2394999 0.0669622 -0.2394999
3594 0.0618688 -0.2304352 0.9381312 0.2304352 0.9381312 0.2304352 0.0618688 -0.2304352
3759 0.0571507 -0.2216176 0.9428493 0.2216176 0.9428493 0.2216176 0.0571507 -0.2216176
3931 0.0527834 -0.2130525 0.9472166 0.2130525 0.9472166 0.2130525 0.0527834 -0.2130525
4111 0.0487437 -0.2047434 0.9512563 0.2047434 0.9512563 0.2047434 0.0487437 -0.2047434
4299 0.0450092 -0.1966923 0.9549908 0.1966923 0.9549908 0.1966923 0.0450092 -0.1966923
4496 0.0415587 -0.1888994 0.9584413 0.1888994 0.9584413 0.1888994 0.0415587 -0.1888994
4702 0.0383718 -0.1813641 0.9616282 0.1813641 0.9616282 0.1813641 0.0383718 -0.1813641
4918 0.0354296 -0.1740844 0.9645704 0.1740844 0.9645704 0.1740844 0.0354296 -0.1740844
5143 0.0327140 -0.1670575 0.9672860 0.1670575 0.9672860 0.1670575 0.0327140 -0.1670575
5378 0.0302082 -0.1602795 0.9697918 0.1602795 0.9697918 0.1602795 0.0302082 -0.1602795
5625 0.0278964 -0.1537461 0.9721036 0.1537461 0.9721036 0.1537461 0.0278964 -0.1537461
5882 0.0257638 -0.1474523 0.9742362 0.1474523 0.9742362 0.1474523 0.0257638 -0.1474523
6151 0.0237966 -0.1413928 0.9762034 0.1413928 0.9762034 0.1413928 0.0237966 -0.1413928
6433 0.0219821 -0.1355616 0.9780179 0.1355616 0.9780179 0.1355616 0.0219821 -0.1355616
6728 0.0203083 -0.1299528 0.9796917 0.1299528 0.9796917 0.1299528 0.0203083 -0.1299528
7036 0.0187643 -0.1245600 0.9812357 0.1245600 0.9812357 0.1245600 0.0187643 -0.1245600
7358 0.0173400 -0.1193767 0.9826600 0.1193767 0.9826600 0.1193767 0.0173400 -0.1193767
7695 0.0160259 -0.1143964 0.9839741 0.1143964 0.9839741 0.1143964 0.0160259 -0.1143964
8047 0.0148133 -0.1096127 0.9851867 0.1096127 0.9851867 0.1096127 0.0148133 -0.1096127
8416 0.0136945 -0.1050188 0.9863055 0.1050188 0.9863055 0.1050188 0.0136945 -0.1050188
8801 0.0126619 -0.1006084 0.9873381 0.1006084 0.9873381 0.1006084 0.0126619 -0.1006084
9204 0.0117089 -0.0963749 0.9882911 0.0963749 0.9882911 0.0963749 0.0117089 -0.0963749
9626 0.0108293 -0.0923121 0.9891707 0.0923121 0.9891707 0.0923121 0.0108293 -0.0923121
10066 0.0100174 -0.0884139 0.9899826 0.0884139 0.9899826 0.0884139 0.0100174 -0.0884139
10527 0.0092680 -0.0846740 0.9907320 0.0846740 0.9907320 0.0846740 0.0092680 -0.0846740
11009 0.0085763 -0.0810867 0.9914237 0.0810867 0.9914237 0.0810867 0.0085763 -0.0810867
11514 0.0079378 -0.0776462 0.9920622 0.0776462 0.9920622 0.0776462 0.0079378 -0.0776462
12041 0.0073486 -0.0743470 0.9926514 0.0743470 0.9926514 0.0743470 0.0073486 -0.0743470
12592 0.0068047 -0.0711836 0.9931953 0.0711836 0.9931953 0.0711836 0.0068047 -0.0711836
13169 0.0063029 -0.0681509 0.9936971 0.0681509 0.9936971 0.0681509 0.0063029 -0.0681509
13772 0.0058399 -0.0652438 0.9941601 0.0652438 0.9941601 0.0652438 0.0058399 -0.0652438
14402 0.0054128 -0.0624575 0.9945872 0.0624575 0.9945872 0.0624575 0.0054128 -0.0624575
15062 0.0050188 -0.0597873 0.9949812 0.0597873 0.9949812 0.0597873 0.0050188 -0.0597873
15752 0.0046555 -0.0572285 0.9953445 0.0572285 0.9953445 0.0572285 0.0046555 -0.0572285
16473 0.0043205 -0.0547770 0.9956795 0.0547770 0.9956795 0.0547770 0.0043205 -0.0547770
17227 0.0040117 -0.0524283 0.9959883 0.0524283 0.9959883 0.0524283 0.0040117 -0.0524283
18016 0.0037270 -0.0501785 0.9962730 0.0501785 0.9962730 0.0501785 0.0037270 -0.0501785
18841 0.0034646 -0.0480237 0.9965354 0.0480237 0.9965354 0.0480237 0.0034646 -0.0480237
19704 0.0032228 -0.0459600 0.9967772 0.0459600 0.9967772 0.0459600 0.0032228 -0.0459600
20606 0.0030000 -0.0439838 0.9970000 0.0439838 0.9970000 0.0439838 0.0030000 -0.0439838
21550 0.0027947 -0.0420915 0.9972053 0.0420915 0.9972053 0.0420915 0.0027947 -0.0420915
22537 0.0026054 -0.0402799 0.9973946 0.0402799 0.9973946 0.0402799 0.0026054 -0.0402799
23569 0.0024310 -0.0385456 0.9975690 0.0385456 0.9975690 0.0385456 0.0024310 -0.0385456
24648 0.0022703 -0.0368854 0.9977297 0.0368854 0.9977297 0.0368854 0.0022703 -0.0368854
25777 0.0021221 -0.0352964 0.9978779 0.0352964 0.9978779 0.0352964 0.0021221 -0.0352964
26957 0.0019854 -0.0337756 0.9980146 0.0337756 0.9980146 0.0337756 0.0019854 -0.0337756
28191 0.0018592 -0.0323202 0.9981408 0.0323202 0.9981408 0.0323202 0.0018592 -0.0323202
29482 0.0017428 -0.0309275 0.9982572 0.0309275 0.9982572 0.0309275 0.0017428 -0.0309275
30832 0.0016353 -0.0295948 0.9983647 0.0295948 0.9983647 0.0295948 0.0016353 -0.0295948
32244 0.0015358 -0.0283196 0.9984642 0.0283196 0.9984642 0.0283196 0.0015358 -0.0283196
33721 0.0014439 -0.0270996 0.9985561 0.0270996 0.9985561 0.0270996 0.0014439 -0.0270996
35265 0.0013587 -0.0259323 0.9986413 0.0259323 0.9986413 0.0259323 0.0013587 -0.0259323
36880 0.0012797 -0.0248156 0.9987203 0.0248156 0.9987203 0.0248156 0.0012797 -0.0248156
38569 0.0012065 -0.0237472 0.9987935 0.0237472 0.9987935 0.0237472 0.0012065 -0.0237472
40335 0.0011384 -0.0227252 0.9988616 0.0227252 0.9988616 0.0227252 0.0011384 -0.0227252
42182 0.0010751 -0.0217474 0.9989249 0.0217474 0.9989249 0.0217474 0.0010751 -0.0217474
44113 0.0010160 -0.0208120 0.9989840 0.0208120 0.9989840 0.0208120 0.0010160 -0.0208120
46134 0.0009609 -0.0199172 0.9990391 0.0199172 0.9990391 0.0199172 0.0009609 -0.0199172
48246 0.0009095 -0.0190611 0.9990905 0.0190611 0.9990905 0.0190611 0.0009095 -0.0190611
50455 0.0008613 -0.0182421 0.9991387 0.0182421 0.9991387 0.0182421 0.0008613 -0.0182421
52766 0.0008161 -0.0174585 0.9991839 0.0174585 0.9991839 0.0174585 0.0008161 -0.0174585
55182 0.0007737 -0.0167089 0.9992263 0.0167089 0.9992263 0.0167089 0.0007737 -0.0167089
57709 0.0007338 -0.0159916 0.9992662 0.0159916 0.9992662 0.0159916 0.0007338 -0.0159916
60352 0.0006963 -0.0153052 0.9993037 0.0153052 0.9993037 0.0153052 0.0006963 -0.0153052
63115 0.0006609 -0.0146484 0.9993391 0.0146484 0.9993391 0.0146484 0.0006609 -0.0146484
66005 0.0006276 -0.0140200 0.9993724 0.0140200 0.9993724 0.0140200 0.0006276 -0.0140200
69028 0.0005961 -0.0134185 0.9994039 0.0134185 0.9994039 0.0134185 0.0005961 -0.0134185
72189 0.0005663 -0.0128428 0.9994337 0.0128428 0.9994337 0.0128428 0.0005663 -0.0128428
75495 0.0005381 -0.0122919 0.9994619 0.0122919 0.9994619 0.0122919 0.0005381 -0.0122919
78952 0.0005115 -0.0117645 0.9994885 0.0117645 0.9994885 0.0117645 0.0005115 -0.0117645
82567 0.0004863 -0.0112597 0.9995137 0.0112597 0.9995137 0.0112597 0.0004863 -0.0112597
86348 0.0004625 -0.0107765 0.9995375 0.0107765 0.9995375 0.0107765 0.0004625 -0.0107765
90302 0.0004399 -0.0103139 0.9995601 0.0103139 0.9995601 0.0103139 0.0004399 -0.0103139
94437 0.0004186 -0.0098711 0.9995814 0.0098711 0.9995814 0.0098711 0.0004186 -0.0098711
98762 0.0003984 -0.0094472 0.9996016 0.0094472 0.9996016 0.0094472 0.0003984 -0.0094472
103284 0.0003794 -0.0090413 0.9996206 0.0090413 0.9996206 0.0090413 0.0003794 -0.0090413
108014 0.0003614 -0.0086527 0.9996386 0.0086527 0.9996386 0.0086527 0.0003614 -0.0086527
112960 0.0003445 -0.0082807 0.9996555 0.0082807 0.9996555 0.0082807 0.0003445 -0.0082807
118133 0.0003285 -0.0079245 0.9996715 0.0079245 0.9996715 0.0079245 0.0003285 -0.0079245
123542 0.0003134 -0.0075836 0.9996866 0.0075836 0.9996866 0.0075836 0.0003134 -0.0075836
129199 0.0002992 -0.0072571 0.9997008 0.0072571 0.9997008 0.0072571 0.0002992 -0.0072571
135116 0.0002859 -0.0069447 0.9997141 0.0069447 0.9997141 0.0069447 0.0002859 -0.0069447
141303 0.0002733 -0.0066455 0.9997267 0.0066455 0.9997267 0.0066455 0.0002733 -0.0066455
147774 0.0002615 -0.0063591 0.9997385 0.0063591 0.9997385 0.0063591 0.0002615 -0.0063591
154540 0.0002504 -0.0060850 0.9997496 0.0060850 0.9997496 0.0060850 0.0002504 -0.0060850
161617 0.0002400 -0.0058226 0.9997600 0.0058226 0.9997600 0.0058226 0.0002400 -0.0058226
169018 0.0002302 -0.0055715 0.9997698 0.0055715 0.9997698 0.0055715 0.0002302 -0.0055715
176758 0.0002210 -0.0053311 0.9997790 0.0053311 0.9997790 0.0053311 0.0002210 -0.0053311
184852 0.0002124 -0.0051010 0.9997876 0.0051010 0.9997876 0.0051010 0.0002124 -0.0051010
193316 0.0002042 -0.0048809 0.9997958 0.0048809 0.9997958 0.0048809 0.0002042 -0.0048809
202169 0.0001966 -0.0046701 0.9998034 0.0046701 0.9998034 0.0046701 0.0001966 -0.0046701
211427 0.0001894 -0.0044685 0.9998106 0.0044685 0.9998106 0.0044685 0.0001894 -0.0044685
221108 0.0001826 -0.0042755 0.9998174 0.0042755 0.9998174 0.0042755 0.0001826 -0.0042755
231233 0.0001763 -0.0040909 0.9998237 0.0040909 0.9998237 0.0040909 0.0001763 -0.0040909
241822 0.0001702 -0.0039141 0.9998298 0.0039141 0.9998298 0.0039141 0.0001702 -0.0039141
252896 0.0001645 -0.0037450 0.9998355 0.0037450 0.9998355 0.0037450 0.0001645 -0.0037450
264476 0.0001591 -0.0035832 0.9998409 0.0035832 0.9998409 0.0035832 0.0001591 -0.0035832
276587 0.0001540 -0.0034284 0.9998460 0.0034284 0.9998460 0.0034284 0.0001540 -0.0034284
289253 0.0001492 -0.0032802 0.9998508 0.0032802 0.9998508 0.0032802 0.0001492 -0.0032802
302498 0.0001446 -0.0031384 0.9998554 0.0031384 0.9998554 0.0031384 0.0001446 -0.0031384
316350 0.0001402 -0.0030026 0.9998598 0.0030026 0.9998598 0.0030026 0.0001402 -0.0030026
330837 0.0001360 -0.0028727 0.9998640 0.0028727 0.9998640 0.0028727 0.0001360 -0.0028727
345986 0.0001320 -0.0027484 0.9998680 0.0027484 0.9998680 0.0027484 0.0001320 -0.0027484
361830 0.0001281 -0.0026294 0.9998719 0.0026294 0.9998719 0.0026294 0.0001281 -0.0026294
378399 0.0001244 -0.0025155 0.9998756 0.0025155 0.9998756 0.0025155 0.0001244 -0.0025155
395726 0.0001209 -0.0024065 0.9998791 0.0024065 0.9998791 0.0024065 0.0001209 -0.0024065
413847 0.0001176 -0.0023021 0.9998824 0.0023021 0.9998824 0.0023021 0.0001176 -0.0023021
432798 0.0001143 -0.0022021 0.9998857 0.0022021 0.9998857 0.0022021 0.0001143 -0.0022021
452617 0.0001112 -0.0021064 0.9998888 0.0021064 0.9998888 0.0021064 0.0001112 -0.0021064
473344 0.0001083 -0.0020148 0.9998917 0.0020148 0.9998917 0.0020148 0.0001083 -0.0020148
495019 0.0001054 -0.0019270 0.9998946 0.0019270 0.9998946 0.0019270 0.0001054 -0.0019270
517687 0.0001027 -0.0018429 0.9998973 0.0018429 0.9998973 0.0018429 0.0001027 -0.0018429
541393 0.0001001 -0.0017624 0.9998999 0.0017624 0.9998999 0.0017624 0.0001001 -0.0017624
566185 0.0000976 -0.0016852 0.9999024 0.0016852 0.9999024 0.0016852 0.0000976 -0.0016852
592111 0.0000952 -0.0016113 0.9999048 0.0016113 0.9999048 0.0016113 0.0000952 -0.0016113
619225 0.0000929 -0.0015405 0.9999071 0.0015405 0.9999071 0.0015405 0.0000929 -0.0015405
647581 0.0000908 -0.0014726 0.9999092 0.0014726 0.9999092 0.0014726 0.0000908 -0.0014726
677235 0.0000887 -0.0014075 0.9999113 0.0014075 0.9999113 0.0014075 0.0000887 -0.0014075
708247 0.0000868 -0.0013452 0.9999132 0.0013452 0.9999132 0.0013452 0.0000868 -0.0013452
740679 0.0000850 -0.0012854 0.9999150 0.0012854 0.9999150 0.0012854 0.0000850 -0.0012854
774597 0.0000832 -0.0012281 0.9999168 0.0012281 0.9999168 0.0012281 0.0000832 -0.0012281
810067 0.0000816 -0.0011732 0.9999184 0.0011732 0.9999184 0.0011732 0.0000816 -0.0011732
847162 0.0000800 -0.0011205 0.9999200 0.0011205 0.9999200 0.0011205 0.0000800 -0.0011205
885955 0.0000786 -0.0010700 0.9999214 0.0010700 0.9999214 0.0010700 0.0000786 -0.0010700
926525 0.0000773 -0.0010215 0.9999227 0.0010215 0.9999227 0.0010215 0.0000773 -0.0010215
968953 0.0000760 -0.0009751 0.9999240 0.0009751 0.9999240 0.0009751 0.0000760 -0.0009751
1013323 0.0000748 -0.0009305 0.9999252 0.0009305 0.9999252 0.0009305 0.0000748 -0.0009305
1059725 0.0000737 -0.0008877 0.9999263 0.0008877 0.9999263 0.0008877 0.0000737 -0.0008877
1108252 0.0000727 -0.0008466 0.9999273 0.0008466 0.9999273 0.0008466 0.0000727 -0.0008466
1159002 0.0000718 -0.0008072 0.9999282 0.0008072 0.9999282 0.0008072 0.0000718 -0.0008072
1212075 0.0000710 -0.0007694 0.9999290 0.0007694 0.9999290 0.0007694 0.0000710 -0.0007694
1267578 0.0000702 -0.0007330 0.9999298 0.0007330 0.9999298 0.0007330 0.0000702 -0.0007330
1325623 0.0000695 -0.0006981 0.9999305 0.0006981 0.9999305 0.0006981 0.0000695 -0.0006981
1386327 0.0000688 -0.0006646 0.9999312 0.0006646 0.9999312 0.0006646 0.0000688 -0.0006646
1449809 0.0000682 -0.0006324 0.9999318 0.0006324 0.9999318 0.0006324 0.0000682 -0.0006324
1516199 0.0000677 -0.0006014 0.9999323 0.0006014 0.9999323 0.0006014 0.0000677 -0.0006014
1585629 0.0000673 -0.0005716 0.9999327 0.0005716 0.9999327 0.0005716 0.0000673 -0.0005716
1658239 0.0000669 -0.0005429 0.9999331 0.0005429 0.9999331 0.0005429 0.0000669 -0.0005429
1734173 0.0000665 -0.0005152 0.9999335 0.0005152 0.9999335 0.0005152 0.0000665 -0.0005152
1813585 0.0000662 -0.0004886 0.9999338 0.0004886 0.9999338 0.0004886 0.0000662 -0.0004886
1896632 0.0000660 -0.0004630 0.9999340 0.0004630 0.9999340 0.0004630 0.0000660 -0.0004630
1983483 0.0000658 -0.0004383 0.9999342 0.0004383 0.9999342 0.0004383 0.0000658 -0.0004383
2074311 0.0000656 -0.0004144 0.9999344 0.0004144 0.9999344 0.0004144 0.0000656 -0.0004144
