!Murata Part Number: GRM153R60J475ME15
!These Parameters are Measured in Series Mode Connection
!Data Generated on Mar 30, 2021
!       o--ll--o
!Port1            Port2
!       o------o
!Operation Temp=25[degC], DC Bias Voltage=0[V]
!Freq. Start=100[Hz] Stop=6[GHz] 401[Steps]
# Hz S RI R 50
!Freq.(Hz) S11(Real) S11(Imag) S21(Real) S21(Imag) S12(Real) S12(Imag) S22(Real) S22(Imag)
100 0.9498272 -0.2134495 0.0501728 0.2134495 0.0501728 0.2134495 0.9498272 -0.2134495
105 0.9455095 -0.2221279 0.0544905 0.2221279 0.0544905 0.2221279 0.9455095 -0.2221279
109 0.9408384 -0.2310664 0.0591616 0.2310664 0.0591616 0.2310664 0.9408384 -0.2310664
114 0.9357890 -0.2402601 0.0642110 0.2402601 0.0642110 0.2402601 0.9357890 -0.2402601
120 0.9303357 -0.2497022 0.0696643 0.2497022 0.0696643 0.2497022 0.9303357 -0.2497022
125 0.9244519 -0.2593835 0.0755481 0.2593835 0.0755481 0.2593835 0.9244519 -0.2593835
131 0.9181103 -0.2692925 0.0818897 0.2692925 0.0818897 0.2692925 0.9181103 -0.2692925
137 0.9112830 -0.2794148 0.0887170 0.2794148 0.0887170 0.2794148 0.9112830 -0.2794148
143 0.9039419 -0.2897334 0.0960581 0.2897334 0.0960581 0.2897334 0.9039419 -0.2897334
150 0.8960588 -0.3002279 0.1039412 0.3002279 0.1039412 0.3002279 0.8960588 -0.3002279
156 0.8876056 -0.3108748 0.1123944 0.3108748 0.1123944 0.3108748 0.8876056 -0.3108748
164 0.8785549 -0.3216469 0.1214451 0.3216469 0.1214451 0.3216469 0.8785549 -0.3216469
171 0.8688801 -0.3325135 0.1311199 0.3325135 0.1311199 0.3325135 0.8688801 -0.3325135
179 0.8585561 -0.3434400 0.1414439 0.3434400 0.1414439 0.3434400 0.8585561 -0.3434400
187 0.8475596 -0.3543878 0.1524404 0.3543878 0.1524404 0.3543878 0.8475596 -0.3543878
196 0.8358697 -0.3653147 0.1641303 0.3653147 0.1641303 0.3653147 0.8358697 -0.3653147
205 0.8234682 -0.3761744 0.1765318 0.3761744 0.1765318 0.3761744 0.8234682 -0.3761744
214 0.8103407 -0.3869170 0.1896593 0.3869170 0.1896593 0.3869170 0.8103407 -0.3869170
224 0.7964768 -0.3974890 0.2035232 0.3974890 0.2035232 0.3974890 0.7964768 -0.3974890
234 0.7818708 -0.4078338 0.2181292 0.4078338 0.2181292 0.4078338 0.7818708 -0.4078338
245 0.7665222 -0.4178918 0.2334778 0.4178918 0.2334778 0.4178918 0.7665222 -0.4178918
256 0.7504367 -0.4276014 0.2495633 0.4276014 0.2495633 0.4276014 0.7504367 -0.4276014
268 0.7336261 -0.4368991 0.2663739 0.4368991 0.2663739 0.4368991 0.7336261 -0.4368991
280 0.7161091 -0.4457207 0.2838909 0.4457207 0.2838909 0.4457207 0.7161091 -0.4457207
293 0.6979119 -0.4540019 0.3020881 0.4540019 0.3020881 0.4540019 0.6979119 -0.4540019
306 0.6790678 -0.4616792 0.3209322 0.4616792 0.3209322 0.4616792 0.6790678 -0.4616792
320 0.6596179 -0.4686910 0.3403821 0.4686910 0.3403821 0.4686910 0.6596179 -0.4686910
335 0.6396107 -0.4749788 0.3603893 0.4749788 0.3603893 0.4749788 0.6396107 -0.4749788
350 0.6191020 -0.4804881 0.3808980 0.4804881 0.3808980 0.4804881 0.6191020 -0.4804881
366 0.5981544 -0.4851694 0.4018456 0.4851694 0.4018456 0.4851694 0.5981544 -0.4851694
383 0.5768368 -0.4889794 0.4231632 0.4889794 0.4231632 0.4889794 0.5768368 -0.4889794
401 0.5552237 -0.4918819 0.4447763 0.4918819 0.4447763 0.4918819 0.5552237 -0.4918819
419 0.5333939 -0.4938487 0.4666061 0.4938487 0.4666061 0.4938487 0.5333939 -0.4938487
438 0.5114297 -0.4948600 0.4885703 0.4948600 0.4885703 0.4948600 0.5114297 -0.4948600
458 0.4894157 -0.4949051 0.5105843 0.4949051 0.5105843 0.4949051 0.4894157 -0.4949051
479 0.4674373 -0.4939828 0.5325627 0.4939828 0.5325627 0.4939828 0.4674373 -0.4939828
501 0.4455797 -0.4921012 0.5544203 0.4921012 0.5544203 0.4921012 0.4455797 -0.4921012
524 0.4239262 -0.4892776 0.5760738 0.4892776 0.5760738 0.4892776 0.4239262 -0.4892776
548 0.4025572 -0.4855381 0.5974428 0.4855381 0.5974428 0.4855381 0.4025572 -0.4855381
573 0.3815489 -0.4809173 0.6184511 0.4809173 0.6184511 0.4809173 0.3815489 -0.4809173
600 0.3609725 -0.4754573 0.6390275 0.4754573 0.6390275 0.4754573 0.3609725 -0.4754573
627 0.3408927 -0.4692066 0.6591073 0.4692066 0.6591073 0.4692066 0.3408927 -0.4692066
656 0.3213679 -0.4622194 0.6786321 0.4622194 0.6786321 0.4622194 0.3213679 -0.4622194
686 0.3024487 -0.4545547 0.6975513 0.4545547 0.6975513 0.4545547 0.3024487 -0.4545547
717 0.2841784 -0.4462745 0.7158216 0.4462745 0.7158216 0.4462745 0.2841784 -0.4462745
750 0.2665922 -0.4374432 0.7334078 0.4374432 0.7334078 0.4374432 0.2665922 -0.4374432
784 0.2497178 -0.4281265 0.7502822 0.4281265 0.7502822 0.4281265 0.2497178 -0.4281265
820 0.2335751 -0.4183902 0.7664249 0.4183902 0.7664249 0.4183902 0.2335751 -0.4183902
858 0.2181769 -0.4082993 0.7818231 0.4082993 0.7818231 0.4082993 0.2181769 -0.4082993
897 0.2035293 -0.3979171 0.7964707 0.3979171 0.7964707 0.3979171 0.2035293 -0.3979171
938 0.1896320 -0.3873049 0.8103680 0.3873049 0.8103680 0.3873049 0.1896320 -0.3873049
981 0.1764792 -0.3765208 0.8235208 0.3765208 0.8235208 0.3765208 0.1764792 -0.3765208
1026 0.1640601 -0.3656198 0.8359399 0.3656198 0.8359399 0.3656198 0.1640601 -0.3656198
1073 0.1523595 -0.3546530 0.8476405 0.3546530 0.8476405 0.3546530 0.1523595 -0.3546530
1122 0.1413585 -0.3436677 0.8586415 0.3436677 0.8586415 0.3436677 0.1413585 -0.3436677
1174 0.1310353 -0.3327069 0.8689647 0.3327069 0.8689647 0.3327069 0.1310353 -0.3327069
1227 0.1213656 -0.3218098 0.8786344 0.3218098 0.8786344 0.3218098 0.1213656 -0.3218098
1283 0.1123233 -0.3110114 0.8876767 0.3110114 0.8876767 0.3110114 0.1123233 -0.3110114
1342 0.1038808 -0.3003424 0.8961192 0.3003424 0.8961192 0.3003424 0.1038808 -0.3003424
1404 0.0960097 -0.2898301 0.9039903 0.2898301 0.9039903 0.2898301 0.0960097 -0.2898301
1468 0.0886812 -0.2794978 0.9113188 0.2794978 0.9113188 0.2794978 0.0886812 -0.2794978
1535 0.0818663 -0.2693656 0.9181337 0.2693656 0.9181337 0.2693656 0.0818663 -0.2693656
1606 0.0755362 -0.2594501 0.9244638 0.2594501 0.9244638 0.2594501 0.0755362 -0.2594501
1679 0.0696627 -0.2497651 0.9303373 0.2497651 0.9303373 0.2497651 0.0696627 -0.2497651
1756 0.0642179 -0.2403217 0.9357821 0.2403217 0.9357821 0.2403217 0.0642179 -0.2403217
1836 0.0591751 -0.2311284 0.9408249 0.2311284 0.9408249 0.2311284 0.0591751 -0.2311284
1920 0.0545084 -0.2221916 0.9454916 0.2221916 0.9454916 0.2221916 0.0545084 -0.2221916
2008 0.0501931 -0.2135157 0.9498069 0.2135157 0.9498069 0.2135157 0.0501931 -0.2135157
2100 0.0462053 -0.2051033 0.9537947 0.2051033 0.9537947 0.2051033 0.0462053 -0.2051033
2196 0.0425226 -0.1969554 0.9574774 0.1969554 0.9574774 0.1969554 0.0425226 -0.1969554
2297 0.0391236 -0.1890717 0.9608764 0.1890717 0.9608764 0.1890717 0.0391236 -0.1890717
2402 0.0359881 -0.1814508 0.9640119 0.1814508 0.9640119 0.1814508 0.0359881 -0.1814508
2512 0.0330973 -0.1740902 0.9669027 0.1740902 0.9669027 0.1740902 0.0330973 -0.1740902
2627 0.0304332 -0.1669865 0.9695668 0.1669865 0.9695668 0.1669865 0.0304332 -0.1669865
2748 0.0279791 -0.1601358 0.9720209 0.1601358 0.9720209 0.1601358 0.0279791 -0.1601358
2873 0.0257194 -0.1535334 0.9742806 0.1535334 0.9742806 0.1535334 0.0257194 -0.1535334
3005 0.0236395 -0.1471741 0.9763605 0.1471741 0.9763605 0.1471741 0.0236395 -0.1471741
3143 0.0217258 -0.1410525 0.9782742 0.1410525 0.9782742 0.1410525 0.0217258 -0.1410525
3287 0.0199656 -0.1351626 0.9800344 0.1351626 0.9800344 0.1351626 0.0199656 -0.1351626
3437 0.0183471 -0.1294985 0.9816529 0.1294985 0.9816529 0.1294985 0.0183471 -0.1294985
3594 0.0168594 -0.1240538 0.9831406 0.1240538 0.9831406 0.1240538 0.0168594 -0.1240538
3759 0.0154922 -0.1188222 0.9845078 0.1188222 0.9845078 0.1188222 0.0154922 -0.1188222
3931 0.0142362 -0.1137973 0.9857638 0.1137973 0.9857638 0.1137973 0.0142362 -0.1137973
4111 0.0130825 -0.1089724 0.9869175 0.1089724 0.9869175 0.1089724 0.0130825 -0.1089724
4299 0.0120231 -0.1043413 0.9879769 0.1043413 0.9879769 0.1043413 0.0120231 -0.1043413
4496 0.0110506 -0.0998974 0.9889494 0.0998974 0.9889494 0.0998974 0.0110506 -0.0998974
4702 0.0101579 -0.0956343 0.9898421 0.0956343 0.9898421 0.0956343 0.0101579 -0.0956343
4918 0.0093386 -0.0915458 0.9906614 0.0915458 0.9906614 0.0915458 0.0093386 -0.0915458
5143 0.0085868 -0.0876255 0.9914132 0.0876255 0.9914132 0.0876255 0.0085868 -0.0876255
5378 0.0078971 -0.0838675 0.9921029 0.0838675 0.9921029 0.0838675 0.0078971 -0.0838675
5625 0.0072644 -0.0802657 0.9927356 0.0802657 0.9927356 0.0802657 0.0072644 -0.0802657
5882 0.0066840 -0.0768143 0.9933160 0.0768143 0.9933160 0.0768143 0.0066840 -0.0768143
6151 0.0061517 -0.0735076 0.9938483 0.0735076 0.9938483 0.0735076 0.0061517 -0.0735076
6433 0.0056635 -0.0703400 0.9943365 0.0703400 0.9943365 0.0703400 0.0056635 -0.0703400
6728 0.0052157 -0.0673061 0.9947843 0.0673061 0.9947843 0.0673061 0.0052157 -0.0673061
7036 0.0048050 -0.0644007 0.9951950 0.0644007 0.9951950 0.0644007 0.0048050 -0.0644007
7358 0.0044283 -0.0616186 0.9955717 0.0616186 0.9955717 0.0616186 0.0044283 -0.0616186
7695 0.0040827 -0.0589551 0.9959173 0.0589551 0.9959173 0.0589551 0.0040827 -0.0589551
8047 0.0037657 -0.0564051 0.9962343 0.0564051 0.9962343 0.0564051 0.0037657 -0.0564051
8416 0.0034749 -0.0539642 0.9965251 0.0539642 0.9965251 0.0539642 0.0034749 -0.0539642
8801 0.0032079 -0.0516279 0.9967921 0.0516279 0.9967921 0.0516279 0.0032079 -0.0516279
9204 0.0029629 -0.0493919 0.9970371 0.0493919 0.9970371 0.0493919 0.0029629 -0.0493919
9626 0.0027380 -0.0472519 0.9972620 0.0472519 0.9972620 0.0472519 0.0027380 -0.0472519
10066 0.0025314 -0.0452041 0.9974686 0.0452041 0.9974686 0.0452041 0.0025314 -0.0452041
10527 0.0023417 -0.0432445 0.9976583 0.0432445 0.9976583 0.0432445 0.0023417 -0.0432445
11009 0.0021673 -0.0413694 0.9978327 0.0413694 0.9978327 0.0413694 0.0021673 -0.0413694
11514 0.0020070 -0.0395752 0.9979930 0.0395752 0.9979930 0.0395752 0.0020070 -0.0395752
12041 0.0018595 -0.0378586 0.9981405 0.0378586 0.9981405 0.0378586 0.0018595 -0.0378586
12592 0.0017239 -0.0362162 0.9982761 0.0362162 0.9982761 0.0362162 0.0017239 -0.0362162
13169 0.0015990 -0.0346447 0.9984010 0.0346447 0.9984010 0.0346447 0.0015990 -0.0346447
13772 0.0014841 -0.0331413 0.9985159 0.0331413 0.9985159 0.0331413 0.0014841 -0.0331413
14402 0.0013782 -0.0317029 0.9986218 0.0317029 0.9986218 0.0317029 0.0013782 -0.0317029
15062 0.0012806 -0.0303268 0.9987194 0.0303268 0.9987194 0.0303268 0.0012806 -0.0303268
15752 0.0011906 -0.0290102 0.9988094 0.0290102 0.9988094 0.0290102 0.0011906 -0.0290102
16473 0.0011076 -0.0277506 0.9988924 0.0277506 0.9988924 0.0277506 0.0011076 -0.0277506
17227 0.0010311 -0.0265456 0.9989689 0.0265456 0.9989689 0.0265456 0.0010311 -0.0265456
18016 0.0009604 -0.0253927 0.9990396 0.0253927 0.9990396 0.0253927 0.0009604 -0.0253927
18841 0.0008952 -0.0242897 0.9991048 0.0242897 0.9991048 0.0242897 0.0008952 -0.0242897
19704 0.0008349 -0.0232345 0.9991651 0.0232345 0.9991651 0.0232345 0.0008349 -0.0232345
20606 0.0007793 -0.0222249 0.9992207 0.0222249 0.9992207 0.0222249 0.0007793 -0.0222249
21550 0.0007279 -0.0212590 0.9992721 0.0212590 0.9992721 0.0212590 0.0007279 -0.0212590
22537 0.0006805 -0.0203349 0.9993195 0.0203349 0.9993195 0.0203349 0.0006805 -0.0203349
23569 0.0006366 -0.0194509 0.9993634 0.0194509 0.9993634 0.0194509 0.0006366 -0.0194509
24648 0.0005961 -0.0186051 0.9994039 0.0186051 0.9994039 0.0186051 0.0005961 -0.0186051
25777 0.0005587 -0.0177959 0.9994413 0.0177959 0.9994413 0.0177959 0.0005587 -0.0177959
26957 0.0005241 -0.0170218 0.9994759 0.0170218 0.9994759 0.0170218 0.0005241 -0.0170218
28191 0.0004922 -0.0162812 0.9995078 0.0162812 0.9995078 0.0162812 0.0004922 -0.0162812
29482 0.0004627 -0.0155727 0.9995373 0.0155727 0.9995373 0.0155727 0.0004627 -0.0155727
30832 0.0004355 -0.0148949 0.9995645 0.0148949 0.9995645 0.0148949 0.0004355 -0.0148949
32244 0.0004104 -0.0142465 0.9995896 0.0142465 0.9995896 0.0142465 0.0004104 -0.0142465
33721 0.0003872 -0.0136262 0.9996128 0.0136262 0.9996128 0.0136262 0.0003872 -0.0136262
35265 0.0003658 -0.0130328 0.9996342 0.0130328 0.9996342 0.0130328 0.0003658 -0.0130328
36880 0.0003460 -0.0124652 0.9996540 0.0124652 0.9996540 0.0124652 0.0003460 -0.0124652
38569 0.0003278 -0.0119222 0.9996722 0.0119222 0.9996722 0.0119222 0.0003278 -0.0119222
40335 0.0003110 -0.0114028 0.9996890 0.0114028 0.9996890 0.0114028 0.0003110 -0.0114028
42182 0.0002955 -0.0109060 0.9997045 0.0109060 0.9997045 0.0109060 0.0002955 -0.0109060
44113 0.0002812 -0.0104308 0.9997188 0.0104308 0.9997188 0.0104308 0.0002812 -0.0104308
46134 0.0002680 -0.0099763 0.9997320 0.0099763 0.9997320 0.0099763 0.0002680 -0.0099763
48246 0.0002558 -0.0095416 0.9997442 0.0095416 0.9997442 0.0095416 0.0002558 -0.0095416
50455 0.0002446 -0.0091258 0.9997554 0.0091258 0.9997554 0.0091258 0.0002446 -0.0091258
52766 0.0002342 -0.0087281 0.9997658 0.0087281 0.9997658 0.0087281 0.0002342 -0.0087281
55182 0.0002247 -0.0083477 0.9997753 0.0083477 0.9997753 0.0083477 0.0002247 -0.0083477
57709 0.0002158 -0.0079840 0.9997842 0.0079840 0.9997842 0.0079840 0.0002158 -0.0079840
60352 0.0002076 -0.0076361 0.9997924 0.0076361 0.9997924 0.0076361 0.0002076 -0.0076361
63115 0.0002000 -0.0073034 0.9998000 0.0073034 0.9998000 0.0073034 0.0002000 -0.0073034
66005 0.0001930 -0.0069852 0.9998070 0.0069852 0.9998070 0.0069852 0.0001930 -0.0069852
69028 0.0001865 -0.0066809 0.9998135 0.0066809 0.9998135 0.0066809 0.0001865 -0.0066809
72189 0.0001804 -0.0063899 0.9998196 0.0063899 0.9998196 0.0063899 0.0001804 -0.0063899
75495 0.0001748 -0.0061116 0.9998252 0.0061116 0.9998252 0.0061116 0.0001748 -0.0061116
78952 0.0001695 -0.0058454 0.9998305 0.0058454 0.9998305 0.0058454 0.0001695 -0.0058454
82567 0.0001646 -0.0055909 0.9998354 0.0055909 0.9998354 0.0055909 0.0001646 -0.0055909
86348 0.0001601 -0.0053475 0.9998399 0.0053475 0.9998399 0.0053475 0.0001601 -0.0053475
90302 0.0001558 -0.0051147 0.9998442 0.0051147 0.9998442 0.0051147 0.0001558 -0.0051147
94437 0.0001517 -0.0048921 0.9998483 0.0048921 0.9998483 0.0048921 0.0001517 -0.0048921
98762 0.0001479 -0.0046792 0.9998521 0.0046792 0.9998521 0.0046792 0.0001479 -0.0046792
103284 0.0001443 -0.0044757 0.9998557 0.0044757 0.9998557 0.0044757 0.0001443 -0.0044757
108014 0.0001409 -0.0042809 0.9998591 0.0042809 0.9998591 0.0042809 0.0001409 -0.0042809
112960 0.0001377 -0.0040947 0.9998623 0.0040947 0.9998623 0.0040947 0.0001377 -0.0040947
118133 0.0001347 -0.0039166 0.9998653 0.0039166 0.9998653 0.0039166 0.0001347 -0.0039166
123542 0.0001318 -0.0037462 0.9998682 0.0037462 0.9998682 0.0037462 0.0001318 -0.0037462
129199 0.0001290 -0.0035833 0.9998710 0.0035833 0.9998710 0.0035833 0.0001290 -0.0035833
135116 0.0001263 -0.0034274 0.9998737 0.0034274 0.9998737 0.0034274 0.0001263 -0.0034274
141303 0.0001238 -0.0032783 0.9998762 0.0032783 0.9998762 0.0032783 0.0001238 -0.0032783
147774 0.0001214 -0.0031357 0.9998786 0.0031357 0.9998786 0.0031357 0.0001214 -0.0031357
154540 0.0001190 -0.0029992 0.9998810 0.0029992 0.9998810 0.0029992 0.0001190 -0.0029992
161617 0.0001168 -0.0028687 0.9998832 0.0028687 0.9998832 0.0028687 0.0001168 -0.0028687
169018 0.0001147 -0.0027438 0.9998853 0.0027438 0.9998853 0.0027438 0.0001147 -0.0027438
176758 0.0001126 -0.0026243 0.9998874 0.0026243 0.9998874 0.0026243 0.0001126 -0.0026243
184852 0.0001106 -0.0025100 0.9998894 0.0025100 0.9998894 0.0025100 0.0001106 -0.0025100
193316 0.0001087 -0.0024006 0.9998913 0.0024006 0.9998913 0.0024006 0.0001087 -0.0024006
202169 0.0001069 -0.0022959 0.9998931 0.0022959 0.9998931 0.0022959 0.0001069 -0.0022959
211427 0.0001052 -0.0021957 0.9998948 0.0021957 0.9998948 0.0021957 0.0001052 -0.0021957
221108 0.0001036 -0.0020998 0.9998964 0.0020998 0.9998964 0.0020998 0.0001036 -0.0020998
231233 0.0001020 -0.0020080 0.9998980 0.0020080 0.9998980 0.0020080 0.0001020 -0.0020080
241822 0.0001005 -0.0019202 0.9998995 0.0019202 0.9998995 0.0019202 0.0001005 -0.0019202
252896 0.0000990 -0.0018361 0.9999010 0.0018361 0.9999010 0.0018361 0.0000990 -0.0018361
264476 0.0000977 -0.0017557 0.9999023 0.0017557 0.9999023 0.0017557 0.0000977 -0.0017557
276587 0.0000964 -0.0016787 0.9999036 0.0016787 0.9999036 0.0016787 0.0000964 -0.0016787
289253 0.0000952 -0.0016049 0.9999048 0.0016049 0.9999048 0.0016049 0.0000952 -0.0016049
302498 0.0000940 -0.0015343 0.9999060 0.0015343 0.9999060 0.0015343 0.0000940 -0.0015343
316350 0.0000929 -0.0014668 0.9999071 0.0014668 0.9999071 0.0014668 0.0000929 -0.0014668
330837 0.0000919 -0.0014021 0.9999081 0.0014021 0.9999081 0.0014021 0.0000919 -0.0014021
345986 0.0000909 -0.0013402 0.9999091 0.0013402 0.9999091 0.0013402 0.0000909 -0.0013402
361830 0.0000900 -0.0012809 0.9999100 0.0012809 0.9999100 0.0012809 0.0000900 -0.0012809
378399 0.0000892 -0.0012241 0.9999108 0.0012241 0.9999108 0.0012241 0.0000892 -0.0012241
395726 0.0000884 -0.0011697 0.9999116 0.0011697 0.9999116 0.0011697 0.0000884 -0.0011697
413847 0.0000877 -0.0011177 0.9999123 0.0011177 0.9999123 0.0011177 0.0000877 -0.0011177
432798 0.0000870 -0.0010678 0.9999130 0.0010678 0.9999130 0.0010678 0.0000870 -0.0010678
452617 0.0000864 -0.0010201 0.9999136 0.0010201 0.9999136 0.0010201 0.0000864 -0.0010201
473344 0.0000858 -0.0009744 0.9999142 0.0009744 0.9999142 0.0009744 0.0000858 -0.0009744
495019 0.0000853 -0.0009306 0.9999147 0.0009306 0.9999147 0.0009306 0.0000853 -0.0009306
517687 0.0000848 -0.0008886 0.9999152 0.0008886 0.9999152 0.0008886 0.0000848 -0.0008886
541393 0.0000843 -0.0008485 0.9999157 0.0008485 0.9999157 0.0008485 0.0000843 -0.0008485
566185 0.0000839 -0.0008099 0.9999161 0.0008099 0.9999161 0.0008099 0.0000839 -0.0008099
592111 0.0000835 -0.0007730 0.9999165 0.0007730 0.9999165 0.0007730 0.0000835 -0.0007730
619225 0.0000832 -0.0007377 0.9999168 0.0007377 0.9999168 0.0007377 0.0000832 -0.0007377
647581 0.0000828 -0.0007038 0.9999172 0.0007038 0.9999172 0.0007038 0.0000828 -0.0007038
677235 0.0000825 -0.0006713 0.9999175 0.0006713 0.9999175 0.0006713 0.0000825 -0.0006713
708247 0.0000823 -0.0006401 0.9999177 0.0006401 0.9999177 0.0006401 0.0000823 -0.0006401
740679 0.0000821 -0.0006102 0.9999179 0.0006102 0.9999179 0.0006102 0.0000821 -0.0006102
774597 0.0000819 -0.0005815 0.9999181 0.0005815 0.9999181 0.0005815 0.0000819 -0.0005815
810067 0.0000817 -0.0005540 0.9999183 0.0005540 0.9999183 0.0005540 0.0000817 -0.0005540
847162 0.0000815 -0.0005276 0.9999185 0.0005276 0.9999185 0.0005276 0.0000815 -0.0005276
885955 0.0000814 -0.0005023 0.9999186 0.0005023 0.9999186 0.0005023 0.0000814 -0.0005023
926525 0.0000813 -0.0004779 0.9999187 0.0004779 0.9999187 0.0004779 0.0000813 -0.0004779
968953 0.0000812 -0.0004545 0.9999188 0.0004545 0.9999188 0.0004545 0.0000812 -0.0004545
1013323 0.0000811 -0.0004320 0.9999189 0.0004320 0.9999189 0.0004320 0.0000811 -0.0004320
1059725 0.0000811 -0.0004104 0.9999189 0.0004104 0.9999189 0.0004104 0.0000811 -0.0004104
1108252 0.0000811 -0.0003896 0.9999189 0.0003896 0.9999189 0.0003896 0.0000811 -0.0003896
1159002 0.0000811 -0.0003695 0.9999189 0.0003695 0.9999189 0.0003695 0.0000811 -0.0003695
1212075 0.0000811 -0.0003503 0.9999189 0.0003503 0.9999189 0.0003503 0.0000811 -0.0003503
1267578 0.0000811 -0.0003317 0.9999189 0.0003317 0.9999189 0.0003317 0.0000811 -0.0003317
1325623 0.0000812 -0.0003137 0.9999188 0.0003137 0.9999188 0.0003137 0.0000812 -0.0003137
1386327 0.0000812 -0.0002965 0.9999188 0.0002965 0.9999188 0.0002965 0.0000812 -0.0002965
1449809 0.0000813 -0.0002798 0.9999187 0.0002798 0.9999187 0.0002798 0.0000813 -0.0002798
1516199 0.0000815 -0.0002636 0.9999185 0.0002636 0.9999185 0.0002636 0.0000815 -0.0002636
1585629 0.0000816 -0.0002480 0.9999184 0.0002480 0.9999184 0.0002480 0.0000816 -0.0002480
1658239 0.0000818 -0.0002329 0.9999182 0.0002329 0.9999182 0.0002329 0.0000818 -0.0002329
1734173 0.0000820 -0.0002183 0.9999180 0.0002183 0.9999180 0.0002183 0.0000820 -0.0002183
1813585 0.0000822 -0.0002041 0.9999178 0.0002041 0.9999178 0.0002041 0.0000822 -0.0002041
1896632 0.0000825 -0.0001903 0.9999175 0.0001903 0.9999175 0.0001903 0.0000825 -0.0001903
1983483 0.0000828 -0.0001769 0.9999172 0.0001769 0.9999172 0.0001769 0.0000828 -0.0001769
2074311 0.0000831 -0.0001639 0.9999169 0.0001639 0.9999169 0.0001639 0.0000831 -0.0001639
