!Murata Part Number: GRM15XR61A153KA86
!These Parameters are Measured in Series Mode Connection
!Data Generated on Mar 30, 2021
!       o--ll--o
!Port1            Port2
!       o------o
!Operation Temp=25[degC], DC Bias Voltage=0[V]
!Freq. Start=100[Hz] Stop=6[GHz] 401[Steps]
# Hz S RI R 50
!Freq.(Hz) S11(Real) S11(Imag) S21(Real) S21(Imag) S12(Real) S12(Imag) S22(Real) S22(Imag)
100 0.9999930 -0.0009635 0.0000070 0.0009635 0.0000070 0.0009635 0.9999930 -0.0009635
105 0.9999927 -0.0010074 0.0000073 0.0010074 0.0000073 0.0010074 0.9999927 -0.0010074
109 0.9999923 -0.0010533 0.0000077 0.0010533 0.0000077 0.0010533 0.9999923 -0.0010533
114 0.9999919 -0.0011014 0.0000081 0.0011014 0.0000081 0.0011014 0.9999919 -0.0011014
120 0.9999915 -0.0011516 0.0000085 0.0011516 0.0000085 0.0011516 0.9999915 -0.0011516
125 0.9999910 -0.0012041 0.0000090 0.0012041 0.0000090 0.0012041 0.9999910 -0.0012041
131 0.9999906 -0.0012590 0.0000094 0.0012590 0.0000094 0.0012590 0.9999906 -0.0012590
137 0.9999901 -0.0013164 0.0000099 0.0013164 0.0000099 0.0013164 0.9999901 -0.0013164
143 0.9999895 -0.0013765 0.0000105 0.0013765 0.0000105 0.0013765 0.9999895 -0.0013765
150 0.9999890 -0.0014393 0.0000110 0.0014393 0.0000110 0.0014393 0.9999890 -0.0014393
156 0.9999884 -0.0015049 0.0000116 0.0015049 0.0000116 0.0015049 0.9999884 -0.0015049
164 0.9999877 -0.0015735 0.0000123 0.0015735 0.0000123 0.0015735 0.9999877 -0.0015735
171 0.9999871 -0.0016453 0.0000129 0.0016453 0.0000129 0.0016453 0.9999871 -0.0016453
179 0.9999864 -0.0017203 0.0000136 0.0017203 0.0000136 0.0017203 0.9999864 -0.0017203
187 0.9999856 -0.0017987 0.0000144 0.0017987 0.0000144 0.0017987 0.9999856 -0.0017987
196 0.9999848 -0.0018808 0.0000152 0.0018808 0.0000152 0.0018808 0.9999848 -0.0018808
205 0.9999839 -0.0019665 0.0000161 0.0019665 0.0000161 0.0019665 0.9999839 -0.0019665
214 0.9999830 -0.0020562 0.0000170 0.0020562 0.0000170 0.0020562 0.9999830 -0.0020562
224 0.9999821 -0.0021500 0.0000179 0.0021500 0.0000179 0.0021500 0.9999821 -0.0021500
234 0.9999811 -0.0022480 0.0000189 0.0022480 0.0000189 0.0022480 0.9999811 -0.0022480
245 0.9999800 -0.0023505 0.0000200 0.0023505 0.0000200 0.0023505 0.9999800 -0.0023505
256 0.9999788 -0.0024577 0.0000212 0.0024577 0.0000212 0.0024577 0.9999788 -0.0024577
268 0.9999776 -0.0025698 0.0000224 0.0025698 0.0000224 0.0025698 0.9999776 -0.0025698
280 0.9999763 -0.0026870 0.0000237 0.0026870 0.0000237 0.0026870 0.9999763 -0.0026870
293 0.9999750 -0.0028095 0.0000250 0.0028095 0.0000250 0.0028095 0.9999750 -0.0028095
306 0.9999735 -0.0029376 0.0000265 0.0029376 0.0000265 0.0029376 0.9999735 -0.0029376
320 0.9999719 -0.0030716 0.0000281 0.0030716 0.0000281 0.0030716 0.9999719 -0.0030716
335 0.9999702 -0.0032117 0.0000298 0.0032117 0.0000298 0.0032117 0.9999702 -0.0032117
350 0.9999684 -0.0033582 0.0000316 0.0033582 0.0000316 0.0033582 0.9999684 -0.0033582
366 0.9999665 -0.0035114 0.0000335 0.0035114 0.0000335 0.0035114 0.9999665 -0.0035114
383 0.9999645 -0.0036716 0.0000355 0.0036716 0.0000355 0.0036716 0.9999645 -0.0036716
401 0.9999623 -0.0038391 0.0000377 0.0038391 0.0000377 0.0038391 0.9999623 -0.0038391
419 0.9999599 -0.0040142 0.0000401 0.0040142 0.0000401 0.0040142 0.9999599 -0.0040142
438 0.9999574 -0.0041974 0.0000426 0.0041974 0.0000426 0.0041974 0.9999574 -0.0041974
458 0.9999546 -0.0043889 0.0000454 0.0043889 0.0000454 0.0043889 0.9999546 -0.0043889
479 0.9999517 -0.0045891 0.0000483 0.0045891 0.0000483 0.0045891 0.9999517 -0.0045891
501 0.9999485 -0.0047985 0.0000515 0.0047985 0.0000515 0.0047985 0.9999485 -0.0047985
524 0.9999450 -0.0050175 0.0000550 0.0050175 0.0000550 0.0050175 0.9999450 -0.0050175
548 0.9999413 -0.0052464 0.0000587 0.0052464 0.0000587 0.0052464 0.9999413 -0.0052464
573 0.9999373 -0.0054858 0.0000627 0.0054858 0.0000627 0.0054858 0.9999373 -0.0054858
600 0.9999330 -0.0057361 0.0000670 0.0057361 0.0000670 0.0057361 0.9999330 -0.0057361
627 0.9999283 -0.0059978 0.0000717 0.0059978 0.0000717 0.0059978 0.9999283 -0.0059978
656 0.9999233 -0.0062715 0.0000767 0.0062715 0.0000767 0.0062715 0.9999233 -0.0062715
686 0.9999178 -0.0065576 0.0000822 0.0065576 0.0000822 0.0065576 0.9999178 -0.0065576
717 0.9999119 -0.0068568 0.0000881 0.0068568 0.0000881 0.0068568 0.9999119 -0.0068568
750 0.9999055 -0.0071696 0.0000945 0.0071696 0.0000945 0.0071696 0.9999055 -0.0071696
784 0.9998985 -0.0074966 0.0001015 0.0074966 0.0001015 0.0074966 0.9998985 -0.0074966
820 0.9998911 -0.0078386 0.0001089 0.0078386 0.0001089 0.0078386 0.9998911 -0.0078386
858 0.9998830 -0.0081961 0.0001170 0.0081961 0.0001170 0.0081961 0.9998830 -0.0081961
897 0.9998742 -0.0085699 0.0001258 0.0085699 0.0001258 0.0085699 0.9998742 -0.0085699
938 0.9998647 -0.0089607 0.0001353 0.0089607 0.0001353 0.0089607 0.9998647 -0.0089607
981 0.9998545 -0.0093692 0.0001455 0.0093692 0.0001455 0.0093692 0.9998545 -0.0093692
1026 0.9998434 -0.0097964 0.0001566 0.0097964 0.0001566 0.0097964 0.9998434 -0.0097964
1073 0.9998314 -0.0102430 0.0001686 0.0102430 0.0001686 0.0102430 0.9998314 -0.0102430
1122 0.9998185 -0.0107099 0.0001815 0.0107099 0.0001815 0.0107099 0.9998185 -0.0107099
1174 0.9998045 -0.0111981 0.0001955 0.0111981 0.0001955 0.0111981 0.9998045 -0.0111981
1227 0.9997893 -0.0117085 0.0002107 0.0117085 0.0002107 0.0117085 0.9997893 -0.0117085
1283 0.9997729 -0.0122421 0.0002271 0.0122421 0.0002271 0.0122421 0.9997729 -0.0122421
1342 0.9997552 -0.0128000 0.0002448 0.0128000 0.0002448 0.0128000 0.9997552 -0.0128000
1404 0.9997361 -0.0133833 0.0002639 0.0133833 0.0002639 0.0133833 0.9997361 -0.0133833
1468 0.9997153 -0.0139931 0.0002847 0.0139931 0.0002847 0.0139931 0.9997153 -0.0139931
1535 0.9996929 -0.0146306 0.0003071 0.0146306 0.0003071 0.0146306 0.9996929 -0.0146306
1606 0.9996685 -0.0152972 0.0003315 0.0152972 0.0003315 0.0152972 0.9996685 -0.0152972
1679 0.9996422 -0.0159941 0.0003578 0.0159941 0.0003578 0.0159941 0.9996422 -0.0159941
1756 0.9996136 -0.0167228 0.0003864 0.0167228 0.0003864 0.0167228 0.9996136 -0.0167228
1836 0.9995827 -0.0174846 0.0004173 0.0174846 0.0004173 0.0174846 0.9995827 -0.0174846
1920 0.9995491 -0.0182811 0.0004509 0.0182811 0.0004509 0.0182811 0.9995491 -0.0182811
2008 0.9995127 -0.0191139 0.0004873 0.0191139 0.0004873 0.0191139 0.9995127 -0.0191139
2100 0.9994731 -0.0199846 0.0005269 0.0199846 0.0005269 0.0199846 0.9994731 -0.0199846
2196 0.9994301 -0.0208949 0.0005699 0.0208949 0.0005699 0.0208949 0.9994301 -0.0208949
2297 0.9993834 -0.0218466 0.0006166 0.0218466 0.0006166 0.0218466 0.9993834 -0.0218466
2402 0.9993327 -0.0228417 0.0006673 0.0228417 0.0006673 0.0228417 0.9993327 -0.0228417
2512 0.9992775 -0.0238820 0.0007225 0.0238820 0.0007225 0.0238820 0.9992775 -0.0238820
2627 0.9992174 -0.0249696 0.0007826 0.0249696 0.0007826 0.0249696 0.9992174 -0.0249696
2748 0.9991520 -0.0261067 0.0008480 0.0261067 0.0008480 0.0261067 0.9991520 -0.0261067
2873 0.9990809 -0.0272954 0.0009191 0.0272954 0.0009191 0.0272954 0.9990809 -0.0272954
3005 0.9990033 -0.0285381 0.0009967 0.0285381 0.0009967 0.0285381 0.9990033 -0.0285381
3143 0.9989189 -0.0298372 0.0010811 0.0298372 0.0010811 0.0298372 0.9989189 -0.0298372
3287 0.9988270 -0.0311952 0.0011730 0.0311952 0.0011730 0.0311952 0.9988270 -0.0311952
3437 0.9987267 -0.0326147 0.0012733 0.0326147 0.0012733 0.0326147 0.9987267 -0.0326147
3594 0.9986175 -0.0340986 0.0013825 0.0340986 0.0013825 0.0340986 0.9986175 -0.0340986
3759 0.9984985 -0.0356495 0.0015015 0.0356495 0.0015015 0.0356495 0.9984985 -0.0356495
3931 0.9983688 -0.0372706 0.0016312 0.0372706 0.0016312 0.0372706 0.9983688 -0.0372706
4111 0.9982273 -0.0389648 0.0017727 0.0389648 0.0017727 0.0389648 0.9982273 -0.0389648
4299 0.9980732 -0.0407354 0.0019268 0.0407354 0.0019268 0.0407354 0.9980732 -0.0407354
4496 0.9979051 -0.0425858 0.0020949 0.0425858 0.0020949 0.0425858 0.9979051 -0.0425858
4702 0.9977219 -0.0445194 0.0022781 0.0445194 0.0022781 0.0445194 0.9977219 -0.0445194
4918 0.9975222 -0.0465399 0.0024778 0.0465399 0.0024778 0.0465399 0.9975222 -0.0465399
5143 0.9973046 -0.0486510 0.0026954 0.0486510 0.0026954 0.0486510 0.9973046 -0.0486510
5378 0.9970673 -0.0508566 0.0029327 0.0508566 0.0029327 0.0508566 0.9970673 -0.0508566
5625 0.9968087 -0.0531609 0.0031913 0.0531609 0.0031913 0.0531609 0.9968087 -0.0531609
5882 0.9965269 -0.0555680 0.0034731 0.0555680 0.0034731 0.0555680 0.9965269 -0.0555680
6151 0.9962198 -0.0580823 0.0037802 0.0580823 0.0037802 0.0580823 0.9962198 -0.0580823
6433 0.9958851 -0.0607085 0.0041149 0.0607085 0.0041149 0.0607085 0.9958851 -0.0607085
6728 0.9955204 -0.0634511 0.0044796 0.0634511 0.0044796 0.0634511 0.9955204 -0.0634511
7036 0.9951231 -0.0663152 0.0048769 0.0663152 0.0048769 0.0663152 0.9951231 -0.0663152
7358 0.9946901 -0.0693058 0.0053099 0.0693058 0.0053099 0.0693058 0.9946901 -0.0693058
7695 0.9942185 -0.0724281 0.0057815 0.0724281 0.0057815 0.0724281 0.9942185 -0.0724281
8047 0.9937047 -0.0756876 0.0062953 0.0756876 0.0062953 0.0756876 0.9937047 -0.0756876
8416 0.9931449 -0.0790898 0.0068551 0.0790898 0.0068551 0.0790898 0.9931449 -0.0790898
8801 0.9925352 -0.0826405 0.0074648 0.0826405 0.0074648 0.0826405 0.9925352 -0.0826405
9204 0.9918711 -0.0863457 0.0081289 0.0863457 0.0081289 0.0863457 0.9918711 -0.0863457
9626 0.9911476 -0.0902114 0.0088524 0.0902114 0.0088524 0.0902114 0.9911476 -0.0902114
10066 0.9903597 -0.0942438 0.0096403 0.0942438 0.0096403 0.0942438 0.9903597 -0.0942438
10527 0.9895015 -0.0984494 0.0104985 0.0984494 0.0104985 0.0984494 0.9895015 -0.0984494
11009 0.9885668 -0.1028346 0.0114332 0.1028346 0.0114332 0.1028346 0.9885668 -0.1028346
11514 0.9875489 -0.1074061 0.0124511 0.1074061 0.0124511 0.1074061 0.9875489 -0.1074061
12041 0.9864404 -0.1121704 0.0135596 0.1121704 0.0135596 0.1121704 0.9864404 -0.1121704
12592 0.9852333 -0.1171344 0.0147667 0.1171344 0.0147667 0.1171344 0.9852333 -0.1171344
13169 0.9839190 -0.1223047 0.0160810 0.1223047 0.0160810 0.1223047 0.9839190 -0.1223047
13772 0.9824882 -0.1276882 0.0175118 0.1276882 0.0175118 0.1276882 0.9824882 -0.1276882
14402 0.9809307 -0.1332913 0.0190693 0.1332913 0.0190693 0.1332913 0.9809307 -0.1332913
15062 0.9792355 -0.1391208 0.0207645 0.1391208 0.0207645 0.1391208 0.9792355 -0.1391208
15752 0.9773910 -0.1451829 0.0226090 0.1451829 0.0226090 0.1451829 0.9773910 -0.1451829
16473 0.9753842 -0.1514838 0.0246158 0.1514838 0.0246158 0.1514838 0.9753842 -0.1514838
17227 0.9732017 -0.1580292 0.0267983 0.1580292 0.0267983 0.1580292 0.9732017 -0.1580292
18016 0.9708286 -0.1648245 0.0291714 0.1648245 0.0291714 0.1648245 0.9708286 -0.1648245
18841 0.9682493 -0.1718745 0.0317507 0.1718745 0.0317507 0.1718745 0.9682493 -0.1718745
19704 0.9654469 -0.1791836 0.0345531 0.1791836 0.0345531 0.1791836 0.9654469 -0.1791836
20606 0.9624035 -0.1867553 0.0375965 0.1867553 0.0375965 0.1867553 0.9624035 -0.1867553
21550 0.9591000 -0.1945920 0.0409000 0.1945920 0.0409000 0.1945920 0.9591000 -0.1945920
22537 0.9555160 -0.2026955 0.0444840 0.2026955 0.0444840 0.2026955 0.9555160 -0.2026955
23569 0.9516303 -0.2110661 0.0483697 0.2110661 0.0483697 0.2110661 0.9516303 -0.2110661
24648 0.9474201 -0.2197029 0.0525799 0.2197029 0.0525799 0.2197029 0.9474201 -0.2197029
25777 0.9428618 -0.2286033 0.0571382 0.2286033 0.0571382 0.2286033 0.9428618 -0.2286033
26957 0.9379304 -0.2377630 0.0620696 0.2377630 0.0620696 0.2377630 0.9379304 -0.2377630
28191 0.9326003 -0.2471759 0.0673997 0.2471759 0.0673997 0.2471759 0.9326003 -0.2471759
29482 0.9268445 -0.2568333 0.0731555 0.2568333 0.0731555 0.2568333 0.9268445 -0.2568333
30832 0.9206356 -0.2667245 0.0793644 0.2667245 0.0793644 0.2667245 0.9206356 -0.2667245
32244 0.9139453 -0.2768358 0.0860547 0.2768358 0.0860547 0.2768358 0.9139453 -0.2768358
33721 0.9067451 -0.2871507 0.0932549 0.2871507 0.0932549 0.2871507 0.9067451 -0.2871507
35265 0.8990062 -0.2976496 0.1009938 0.2976496 0.1009938 0.2976496 0.8990062 -0.2976496
36880 0.8906999 -0.3083095 0.1093001 0.3083095 0.1093001 0.3083095 0.8906999 -0.3083095
38569 0.8817980 -0.3191037 0.1182020 0.3191037 0.1182020 0.3191037 0.8817980 -0.3191037
40335 0.8722732 -0.3300021 0.1277268 0.3300021 0.1277268 0.3300021 0.8722732 -0.3300021
42182 0.8620995 -0.3409703 0.1379005 0.3409703 0.1379005 0.3409703 0.8620995 -0.3409703
44113 0.8512524 -0.3519703 0.1487476 0.3519703 0.1487476 0.3519703 0.8512524 -0.3519703
46134 0.8397102 -0.3629596 0.1602898 0.3629596 0.1602898 0.3629596 0.8397102 -0.3629596
48246 0.8274537 -0.3738923 0.1725463 0.3738923 0.1725463 0.3738923 0.8274537 -0.3738923
50455 0.8144673 -0.3847182 0.1855327 0.3847182 0.1855327 0.3847182 0.8144673 -0.3847182
52766 0.8007397 -0.3953837 0.1992603 0.3953837 0.1992603 0.3953837 0.8007397 -0.3953837
55182 0.7862639 -0.4058316 0.2137361 0.4058316 0.2137361 0.4058316 0.7862639 -0.4058316
57709 0.7710388 -0.4160021 0.2289612 0.4160021 0.2289612 0.4160021 0.7710388 -0.4160021
60352 0.7550689 -0.4258328 0.2449311 0.4258328 0.2449311 0.4258328 0.7550689 -0.4258328
63115 0.7383653 -0.4352596 0.2616347 0.4352596 0.2616347 0.4352596 0.7383653 -0.4352596
66005 0.7209462 -0.4442174 0.2790538 0.4442174 0.2790538 0.4442174 0.7209462 -0.4442174
69028 0.7028368 -0.4526410 0.2971632 0.4526410 0.2971632 0.4526410 0.7028368 -0.4526410
72189 0.6840703 -0.4604662 0.3159297 0.4604662 0.3159297 0.4604662 0.6840703 -0.4604662
75495 0.6646873 -0.4676303 0.3353127 0.4676303 0.3353127 0.4676303 0.6646873 -0.4676303
78952 0.6447361 -0.4740740 0.3552639 0.4740740 0.3552639 0.4740740 0.6447361 -0.4740740
82567 0.6242723 -0.4797419 0.3757277 0.4797419 0.3757277 0.4797419 0.6242723 -0.4797419
86348 0.6033586 -0.4845835 0.3966414 0.4845835 0.3966414 0.4845835 0.6033586 -0.4845835
90302 0.5820638 -0.4885547 0.4179362 0.4885547 0.4179362 0.4885547 0.5820638 -0.4885547
94437 0.5604625 -0.4916187 0.4395375 0.4916187 0.4395375 0.4916187 0.5604625 -0.4916187
98762 0.5386336 -0.4937463 0.4613664 0.4937463 0.4613664 0.4937463 0.5386336 -0.4937463
103284 0.5166598 -0.4949172 0.4833402 0.4949172 0.4833402 0.4949172 0.5166598 -0.4949172
108014 0.4946257 -0.4951200 0.5053743 0.4951200 0.5053743 0.4951200 0.4946257 -0.4951200
112960 0.4726171 -0.4943527 0.5273829 0.4943527 0.5273829 0.4943527 0.4726171 -0.4943527
118133 0.4507194 -0.4926229 0.5492806 0.4926229 0.5492806 0.4926229 0.4507194 -0.4926229
123542 0.4290161 -0.4899473 0.5709839 0.4899473 0.5709839 0.4899473 0.4290161 -0.4899473
129199 0.4075880 -0.4863516 0.5924120 0.4863516 0.5924120 0.4863516 0.4075880 -0.4863516
135116 0.3865117 -0.4818695 0.6134883 0.4818695 0.6134883 0.4818695 0.3865117 -0.4818695
141303 0.3658586 -0.4765427 0.6341414 0.4765427 0.6341414 0.4765427 0.3658586 -0.4765427
147774 0.3456940 -0.4704191 0.6543060 0.4704191 0.6543060 0.4704191 0.3456940 -0.4704191
154540 0.3260766 -0.4635525 0.6739234 0.4635525 0.6739234 0.4635525 0.3260766 -0.4635525
161617 0.3070576 -0.4560012 0.6929424 0.4560012 0.6929424 0.4560012 0.3070576 -0.4560012
169018 0.2886809 -0.4478268 0.7113191 0.4478268 0.7113191 0.4478268 0.2886809 -0.4478268
176758 0.2709822 -0.4390933 0.7290178 0.4390933 0.7290178 0.4390933 0.2709822 -0.4390933
184852 0.2539900 -0.4298659 0.7460100 0.4298659 0.7460100 0.4298659 0.2539900 -0.4298659
193316 0.2377248 -0.4202100 0.7622752 0.4202100 0.7622752 0.4202100 0.2377248 -0.4202100
202169 0.2222004 -0.4101904 0.7777996 0.4101904 0.7777996 0.4101904 0.2222004 -0.4101904
211427 0.2074234 -0.3998702 0.7925766 0.3998702 0.7925766 0.3998702 0.2074234 -0.3998702
221108 0.1933946 -0.3893105 0.8066054 0.3893105 0.8066054 0.3893105 0.1933946 -0.3893105
231233 0.1801090 -0.3785695 0.8198910 0.3785695 0.8198910 0.3785695 0.1801090 -0.3785695
241822 0.1675566 -0.3677021 0.8324434 0.3677021 0.8324434 0.3677021 0.1675566 -0.3677021
252896 0.1557230 -0.3567596 0.8442770 0.3567596 0.8442770 0.3567596 0.1557230 -0.3567596
264476 0.1445904 -0.3457895 0.8554096 0.3457895 0.8554096 0.3457895 0.1445904 -0.3457895
276587 0.1341376 -0.3348354 0.8658624 0.3348354 0.8658624 0.3348354 0.1341376 -0.3348354
289253 0.1243411 -0.3239366 0.8756589 0.3239366 0.8756589 0.3239366 0.1243411 -0.3239366
302498 0.1151754 -0.3131287 0.8848246 0.3131287 0.8848246 0.3131287 0.1151754 -0.3131287
316350 0.1066137 -0.3024432 0.8933863 0.3024432 0.8933863 0.3024432 0.1066137 -0.3024432
330837 0.0986281 -0.2919078 0.9013719 0.2919078 0.9013719 0.2919078 0.0986281 -0.2919078
345986 0.0911901 -0.2815467 0.9088099 0.2815467 0.9088099 0.2815467 0.0911901 -0.2815467
361830 0.0842711 -0.2713805 0.9157289 0.2713805 0.9157289 0.2713805 0.0842711 -0.2713805
378399 0.0778427 -0.2614267 0.9221573 0.2614267 0.9221573 0.2614267 0.0778427 -0.2614267
395726 0.0718765 -0.2516998 0.9281235 0.2516998 0.9281235 0.2516998 0.0718765 -0.2516998
413847 0.0663451 -0.2422116 0.9336549 0.2422116 0.9336549 0.2422116 0.0663451 -0.2422116
432798 0.0612215 -0.2329714 0.9387785 0.2329714 0.9387785 0.2329714 0.0612215 -0.2329714
452617 0.0564797 -0.2239862 0.9435203 0.2239862 0.9435203 0.2239862 0.0564797 -0.2239862
473344 0.0520947 -0.2152609 0.9479053 0.2152609 0.9479053 0.2152609 0.0520947 -0.2152609
495019 0.0480426 -0.2067989 0.9519574 0.2067989 0.9519574 0.2067989 0.0480426 -0.2067989
517687 0.0443005 -0.1986015 0.9556995 0.1986015 0.9556995 0.1986015 0.0443005 -0.1986015
541393 0.0408467 -0.1906689 0.9591533 0.1906689 0.9591533 0.1906689 0.0408467 -0.1906689
566185 0.0376607 -0.1830000 0.9623393 0.1830000 0.9623393 0.1830000 0.0376607 -0.1830000
592111 0.0347231 -0.1755927 0.9652769 0.1755927 0.9652769 0.1755927 0.0347231 -0.1755927
619225 0.0320156 -0.1684437 0.9679844 0.1684437 0.9679844 0.1684437 0.0320156 -0.1684437
647581 0.0295211 -0.1615493 0.9704789 0.1615493 0.9704789 0.1615493 0.0295211 -0.1615493
677235 0.0272237 -0.1549048 0.9727763 0.1549048 0.9727763 0.1549048 0.0272237 -0.1549048
708247 0.0251083 -0.1485051 0.9748917 0.1485051 0.9748917 0.1485051 0.0251083 -0.1485051
740679 0.0231610 -0.1423447 0.9768390 0.1423447 0.9768390 0.1423447 0.0231610 -0.1423447
774597 0.0213689 -0.1364177 0.9786311 0.1364177 0.9786311 0.1364177 0.0213689 -0.1364177
810067 0.0197198 -0.1307179 0.9802802 0.1307179 0.9802802 0.1307179 0.0197198 -0.1307179
847162 0.0182027 -0.1252389 0.9817973 0.1252389 0.9817973 0.1252389 0.0182027 -0.1252389
885955 0.0168071 -0.1199743 0.9831929 0.1199743 0.9831929 0.1199743 0.0168071 -0.1199743
926525 0.0155235 -0.1149174 0.9844765 0.1149174 0.9844765 0.1149174 0.0155235 -0.1149174
968953 0.0143430 -0.1100617 0.9856570 0.1100617 0.9856570 0.1100617 0.0143430 -0.1100617
1013323 0.0132575 -0.1054005 0.9867425 0.1054005 0.9867425 0.1054005 0.0132575 -0.1054005
1059725 0.0122593 -0.1009272 0.9877407 0.1009272 0.9877407 0.1009272 0.0122593 -0.1009272
1108252 0.0113416 -0.0966354 0.9886584 0.0966354 0.9886584 0.0966354 0.0113416 -0.0966354
1159002 0.0104979 -0.0925186 0.9895021 0.0925186 0.9895021 0.0925186 0.0104979 -0.0925186
1212075 0.0097223 -0.0885705 0.9902777 0.0885705 0.9902777 0.0885705 0.0097223 -0.0885705
1267578 0.0090094 -0.0847850 0.9909906 0.0847850 0.9909906 0.0847850 0.0090094 -0.0847850
1325623 0.0083541 -0.0811561 0.9916459 0.0811561 0.9916459 0.0811561 0.0083541 -0.0811561
1386327 0.0077517 -0.0776778 0.9922483 0.0776778 0.9922483 0.0776778 0.0077517 -0.0776778
1449809 0.0071982 -0.0743443 0.9928018 0.0743443 0.9928018 0.0743443 0.0071982 -0.0743443
1516199 0.0066894 -0.0711503 0.9933106 0.0711503 0.9933106 0.0711503 0.0066894 -0.0711503
1585629 0.0062218 -0.0680902 0.9937782 0.0680902 0.9937782 0.0680902 0.0062218 -0.0680902
1658239 0.0057921 -0.0651587 0.9942079 0.0651587 0.9942079 0.0651587 0.0057921 -0.0651587
1734173 0.0053972 -0.0623509 0.9946028 0.0623509 0.9946028 0.0623509 0.0053972 -0.0623509
1813585 0.0050343 -0.0596618 0.9949657 0.0596618 0.9949657 0.0596618 0.0050343 -0.0596618
1896632 0.0047007 -0.0570867 0.9952993 0.0570867 0.9952993 0.0570867 0.0047007 -0.0570867
1983483 0.0043940 -0.0546208 0.9956060 0.0546208 0.9956060 0.0546208 0.0043940 -0.0546208
2074311 0.0041121 -0.0522599 0.9958879 0.0522599 0.9958879 0.0522599 0.0041121 -0.0522599
