!Murata Part Number: GRM155D80J225KE95
!These Parameters are Measured in Series Mode Connection
!Data Generated on Mar 30, 2021
!       o--ll--o
!Port1            Port2
!       o------o
!Operation Temp=25[degC], DC Bias Voltage=0[V]
!Freq. Start=100[Hz] Stop=6[GHz] 401[Steps]
# Hz S RI R 50
!Freq.(Hz) S11(Real) S11(Imag) S21(Real) S21(Imag) S12(Real) S12(Imag) S22(Real) S22(Imag)
100 0.9892540 -0.0940505 0.0107460 0.0940505 0.0107460 0.0940505 0.9892540 -0.0940505
105 0.9883641 -0.0982166 0.0116359 0.0982166 0.0116359 0.0982166 0.9883641 -0.0982166
109 0.9873960 -0.1025588 0.0126040 0.1025588 0.0126040 0.1025588 0.9873960 -0.1025588
114 0.9863429 -0.1070830 0.0136571 0.1070830 0.0136571 0.1070830 0.9863429 -0.1070830
120 0.9851976 -0.1117956 0.0148024 0.1117956 0.0148024 0.1117956 0.9851976 -0.1117956
125 0.9839522 -0.1167024 0.0160478 0.1167024 0.0160478 0.1167024 0.9839522 -0.1167024
131 0.9825985 -0.1218098 0.0174015 0.1218098 0.0174015 0.1218098 0.9825985 -0.1218098
137 0.9811272 -0.1271238 0.0188728 0.1271238 0.0188728 0.1271238 0.9811272 -0.1271238
143 0.9795289 -0.1326503 0.0204711 0.1326503 0.0204711 0.1326503 0.9795289 -0.1326503
150 0.9777929 -0.1383952 0.0222071 0.1383952 0.0222071 0.1383952 0.9777929 -0.1383952
156 0.9759084 -0.1443643 0.0240916 0.1443643 0.0240916 0.1443643 0.9759084 -0.1443643
164 0.9738631 -0.1505631 0.0261369 0.1505631 0.0261369 0.1505631 0.9738631 -0.1505631
171 0.9716445 -0.1569968 0.0283555 0.1569968 0.0283555 0.1569968 0.9716445 -0.1569968
179 0.9692389 -0.1636702 0.0307611 0.1636702 0.0307611 0.1636702 0.9692389 -0.1636702
187 0.9666316 -0.1705879 0.0333684 0.1705879 0.0333684 0.1705879 0.9666316 -0.1705879
196 0.9638071 -0.1777537 0.0361929 0.1777537 0.0361929 0.1777537 0.9638071 -0.1777537
205 0.9607490 -0.1851711 0.0392510 0.1851711 0.0392510 0.1851711 0.9607490 -0.1851711
214 0.9574394 -0.1928426 0.0425606 0.1928426 0.0425606 0.1928426 0.9574394 -0.1928426
224 0.9538599 -0.2007700 0.0461401 0.2007700 0.0461401 0.2007700 0.9538599 -0.2007700
234 0.9499906 -0.2089542 0.0500094 0.2089542 0.0500094 0.2089542 0.9499906 -0.2089542
245 0.9458106 -0.2173947 0.0541894 0.2173947 0.0541894 0.2173947 0.9458106 -0.2173947
256 0.9412979 -0.2260899 0.0587021 0.2260899 0.0587021 0.2260899 0.9412979 -0.2260899
268 0.9364293 -0.2350367 0.0635707 0.2350367 0.0635707 0.2350367 0.9364293 -0.2350367
280 0.9311806 -0.2442301 0.0688194 0.2442301 0.0688194 0.2442301 0.9311806 -0.2442301
293 0.9255266 -0.2536634 0.0744734 0.2536634 0.0744734 0.2536634 0.9255266 -0.2536634
306 0.9194412 -0.2633275 0.0805588 0.2633275 0.0805588 0.2633275 0.9194412 -0.2633275
320 0.9128974 -0.2732111 0.0871026 0.2732111 0.0871026 0.2732111 0.9128974 -0.2732111
335 0.9058675 -0.2833001 0.0941325 0.2833001 0.0941325 0.2833001 0.9058675 -0.2833001
350 0.8983235 -0.2935777 0.1016765 0.2935777 0.1016765 0.2935777 0.8983235 -0.2935777
366 0.8902372 -0.3040235 0.1097628 0.3040235 0.1097628 0.3040235 0.8902372 -0.3040235
383 0.8815803 -0.3146140 0.1184197 0.3146140 0.1184197 0.3146140 0.8815803 -0.3146140
401 0.8723251 -0.3253222 0.1276749 0.3253222 0.1276749 0.3253222 0.8723251 -0.3253222
419 0.8624449 -0.3361168 0.1375551 0.3361168 0.1375551 0.3361168 0.8624449 -0.3361168
438 0.8519141 -0.3469629 0.1480859 0.3469629 0.1480859 0.3469629 0.8519141 -0.3469629
458 0.8407092 -0.3578213 0.1592908 0.3578213 0.1592908 0.3578213 0.8407092 -0.3578213
479 0.8288088 -0.3686489 0.1711912 0.3686489 0.1711912 0.3686489 0.8288088 -0.3686489
501 0.8161949 -0.3793983 0.1838051 0.3793983 0.1838051 0.3793983 0.8161949 -0.3793983
524 0.8028530 -0.3900182 0.1971470 0.3900182 0.1971470 0.3900182 0.8028530 -0.3900182
548 0.7887731 -0.4004536 0.2112269 0.4004536 0.2112269 0.4004536 0.7887731 -0.4004536
573 0.7739500 -0.4106463 0.2260500 0.4106463 0.2260500 0.4106463 0.7739500 -0.4106463
600 0.7583846 -0.4205351 0.2416154 0.4205351 0.2416154 0.4205351 0.7583846 -0.4205351
627 0.7420836 -0.4300563 0.2579164 0.4300563 0.2579164 0.4300563 0.7420836 -0.4300563
656 0.7250610 -0.4391451 0.2749390 0.4391451 0.2749390 0.4391451 0.7250610 -0.4391451
686 0.7073379 -0.4477358 0.2926621 0.4477358 0.2926621 0.4477358 0.7073379 -0.4477358
717 0.6889431 -0.4557627 0.3110569 0.4557627 0.3110569 0.4557627 0.6889431 -0.4557627
750 0.6699134 -0.4631619 0.3300866 0.4631619 0.3300866 0.4631619 0.6699134 -0.4631619
784 0.6502932 -0.4698714 0.3497068 0.4698714 0.3497068 0.4698714 0.6502932 -0.4698714
820 0.6301349 -0.4758333 0.3698651 0.4758333 0.3698651 0.4758333 0.6301349 -0.4758333
858 0.6094982 -0.4809939 0.3905018 0.4809939 0.3905018 0.4809939 0.6094982 -0.4809939
897 0.5884494 -0.4853058 0.4115506 0.4853058 0.4115506 0.4853058 0.5884494 -0.4853058
938 0.5670613 -0.4887282 0.4329387 0.4887282 0.4329387 0.4887282 0.5670613 -0.4887282
981 0.5454114 -0.4912282 0.4545886 0.4912282 0.4545886 0.4912282 0.5454114 -0.4912282
1026 0.5235816 -0.4927815 0.4764184 0.4927815 0.4764184 0.4927815 0.5235816 -0.4927815
1073 0.5016563 -0.4933727 0.4983437 0.4933727 0.4983437 0.4933727 0.5016563 -0.4933727
1122 0.4797215 -0.4929962 0.5202785 0.4929962 0.5202785 0.4929962 0.4797215 -0.4929962
1174 0.4578634 -0.4916559 0.5421366 0.4916559 0.5421366 0.4916559 0.4578634 -0.4916559
1227 0.4361667 -0.4893651 0.5638333 0.4893651 0.5638333 0.4893651 0.4361667 -0.4893651
1283 0.4147137 -0.4861465 0.5852863 0.4861465 0.5852863 0.4861465 0.4147137 -0.4861465
1342 0.3935827 -0.4820312 0.6064173 0.4820312 0.6064173 0.4820312 0.3935827 -0.4820312
1404 0.3728473 -0.4770584 0.6271527 0.4770584 0.6271527 0.4770584 0.3728473 -0.4770584
1468 0.3525749 -0.4712742 0.6474251 0.4712742 0.6474251 0.4712742 0.3525749 -0.4712742
1535 0.3328264 -0.4647307 0.6671736 0.4647307 0.6671736 0.4647307 0.3328264 -0.4647307
1606 0.3136554 -0.4574847 0.6863446 0.4574847 0.6863446 0.4574847 0.3136554 -0.4574847
1679 0.2951079 -0.4495971 0.7048921 0.4495971 0.7048921 0.4495971 0.2951079 -0.4495971
1756 0.2772220 -0.4411311 0.7227780 0.4411311 0.7227780 0.4411311 0.2772220 -0.4411311
1836 0.2600283 -0.4321513 0.7399717 0.4321513 0.7399717 0.4321513 0.2600283 -0.4321513
1920 0.2435495 -0.4227231 0.7564505 0.4227231 0.7564505 0.4227231 0.2435495 -0.4227231
2008 0.2278010 -0.4129110 0.7721990 0.4129110 0.7721990 0.4129110 0.2278010 -0.4129110
2100 0.2127916 -0.4027783 0.7872084 0.4027783 0.7872084 0.4027783 0.2127916 -0.4027783
2196 0.1985236 -0.3923863 0.8014764 0.3923863 0.8014764 0.3923863 0.1985236 -0.3923863
2297 0.1849936 -0.3817934 0.8150064 0.3817934 0.8150064 0.3817934 0.1849936 -0.3817934
2402 0.1721932 -0.3710549 0.8278068 0.3710549 0.8278068 0.3710549 0.1721932 -0.3710549
2512 0.1601094 -0.3602227 0.8398906 0.3602227 0.8398906 0.3602227 0.1601094 -0.3602227
2627 0.1487257 -0.3493448 0.8512743 0.3493448 0.8512743 0.3493448 0.1487257 -0.3493448
2748 0.1380220 -0.3384651 0.8619780 0.3384651 0.8619780 0.3384651 0.1380220 -0.3384651
2873 0.1279762 -0.3276239 0.8720238 0.3276239 0.8720238 0.3276239 0.1279762 -0.3276239
3005 0.1185638 -0.3168571 0.8814362 0.3168571 0.8814362 0.3168571 0.1185638 -0.3168571
3143 0.1097590 -0.3061971 0.8902410 0.3061971 0.8902410 0.3061971 0.1097590 -0.3061971
3287 0.1015348 -0.2956723 0.8984652 0.2956723 0.8984652 0.2956723 0.1015348 -0.2956723
3437 0.0938637 -0.2853076 0.9061363 0.2853076 0.9061363 0.2853076 0.0938637 -0.2853076
3594 0.0867179 -0.2751245 0.9132821 0.2751245 0.9132821 0.2751245 0.0867179 -0.2751245
3759 0.0800697 -0.2651415 0.9199303 0.2651415 0.9199303 0.2651415 0.0800697 -0.2651415
3931 0.0738914 -0.2553738 0.9261086 0.2553738 0.9261086 0.2553738 0.0738914 -0.2553738
4111 0.0681562 -0.2458342 0.9318438 0.2458342 0.9318438 0.2458342 0.0681562 -0.2458342
4299 0.0628376 -0.2365330 0.9371624 0.2365330 0.9371624 0.2365330 0.0628376 -0.2365330
4496 0.0579100 -0.2274781 0.9420900 0.2274781 0.9420900 0.2274781 0.0579100 -0.2274781
4702 0.0533488 -0.2186755 0.9466512 0.2186755 0.9466512 0.2186755 0.0533488 -0.2186755
4918 0.0491302 -0.2101293 0.9508698 0.2101293 0.9508698 0.2101293 0.0491302 -0.2101293
5143 0.0452315 -0.2018421 0.9547685 0.2018421 0.9547685 0.2018421 0.0452315 -0.2018421
5378 0.0416312 -0.1938149 0.9583688 0.1938149 0.9583688 0.1938149 0.0416312 -0.1938149
5625 0.0383086 -0.1860476 0.9616914 0.1860476 0.9616914 0.1860476 0.0383086 -0.1860476
5882 0.0352443 -0.1785388 0.9647557 0.1785388 0.9647557 0.1785388 0.0352443 -0.1785388
6151 0.0324199 -0.1712862 0.9675801 0.1712862 0.9675801 0.1712862 0.0324199 -0.1712862
6433 0.0298180 -0.1642869 0.9701820 0.1642869 0.9701820 0.1642869 0.0298180 -0.1642869
6728 0.0274223 -0.1575369 0.9725777 0.1575369 0.9725777 0.1575369 0.0274223 -0.1575369
7036 0.0252176 -0.1510319 0.9747824 0.1510319 0.9747824 0.1510319 0.0252176 -0.1510319
7358 0.0231895 -0.1447669 0.9768105 0.1447669 0.9768105 0.1447669 0.0231895 -0.1447669
7695 0.0213246 -0.1387366 0.9786754 0.1387366 0.9786754 0.1387366 0.0213246 -0.1387366
8047 0.0196104 -0.1329355 0.9803896 0.1329355 0.9803896 0.1329355 0.0196104 -0.1329355
8416 0.0180352 -0.1273575 0.9819648 0.1273575 0.9819648 0.1273575 0.0180352 -0.1273575
8801 0.0165882 -0.1219965 0.9834118 0.1219965 0.9834118 0.1219965 0.0165882 -0.1219965
9204 0.0152593 -0.1168463 0.9847407 0.1168463 0.9847407 0.1168463 0.0152593 -0.1168463
9626 0.0140391 -0.1119005 0.9859609 0.1119005 0.9859609 0.1119005 0.0140391 -0.1119005
10066 0.0129190 -0.1071527 0.9870810 0.1071527 0.9870810 0.1071527 0.0129190 -0.1071527
10527 0.0118908 -0.1025965 0.9881092 0.1025965 0.9881092 0.1025965 0.0118908 -0.1025965
11009 0.0109473 -0.0982255 0.9890527 0.0982255 0.9890527 0.0982255 0.0109473 -0.0982255
11514 0.0100814 -0.0940333 0.9899186 0.0940333 0.9899186 0.0940333 0.0100814 -0.0940333
12041 0.0092868 -0.0900137 0.9907132 0.0900137 0.9907132 0.0900137 0.0092868 -0.0900137
12592 0.0085578 -0.0861603 0.9914422 0.0861603 0.9914422 0.0861603 0.0085578 -0.0861603
13169 0.0078887 -0.0824672 0.9921113 0.0824672 0.9921113 0.0824672 0.0078887 -0.0824672
13772 0.0072748 -0.0789283 0.9927252 0.0789283 0.9927252 0.0789283 0.0072748 -0.0789283
14402 0.0067114 -0.0755379 0.9932886 0.0755379 0.9932886 0.0755379 0.0067114 -0.0755379
15062 0.0061942 -0.0722901 0.9938058 0.0722901 0.9938058 0.0722901 0.0061942 -0.0722901
15752 0.0057194 -0.0691794 0.9942806 0.0691794 0.9942806 0.0691794 0.0057194 -0.0691794
16473 0.0052835 -0.0662005 0.9947165 0.0662005 0.9947165 0.0662005 0.0052835 -0.0662005
17227 0.0048831 -0.0633480 0.9951169 0.0633480 0.9951169 0.0633480 0.0048831 -0.0633480
18016 0.0045152 -0.0606169 0.9954848 0.0606169 0.9954848 0.0606169 0.0045152 -0.0606169
18841 0.0041772 -0.0580022 0.9958228 0.0580022 0.9958228 0.0580022 0.0041772 -0.0580022
19704 0.0038665 -0.0554992 0.9961335 0.0554992 0.9961335 0.0554992 0.0038665 -0.0554992
20606 0.0035808 -0.0531033 0.9964192 0.0531033 0.9964192 0.0531033 0.0035808 -0.0531033
21550 0.0033179 -0.0508099 0.9966821 0.0508099 0.9966821 0.0508099 0.0033179 -0.0508099
22537 0.0030760 -0.0486149 0.9969240 0.0486149 0.9969240 0.0486149 0.0030760 -0.0486149
23569 0.0028533 -0.0465140 0.9971467 0.0465140 0.9971467 0.0465140 0.0028533 -0.0465140
24648 0.0026482 -0.0445034 0.9973518 0.0445034 0.9973518 0.0445034 0.0026482 -0.0445034
25777 0.0024593 -0.0425792 0.9975407 0.0425792 0.9975407 0.0425792 0.0024593 -0.0425792
26957 0.0022851 -0.0407376 0.9977149 0.0407376 0.9977149 0.0407376 0.0022851 -0.0407376
28191 0.0021246 -0.0389753 0.9978754 0.0389753 0.9978754 0.0389753 0.0021246 -0.0389753
29482 0.0019765 -0.0372888 0.9980235 0.0372888 0.9980235 0.0372888 0.0019765 -0.0372888
30832 0.0018399 -0.0356748 0.9981601 0.0356748 0.9981601 0.0356748 0.0018399 -0.0356748
32244 0.0017138 -0.0341303 0.9982862 0.0341303 0.9982862 0.0341303 0.0017138 -0.0341303
33721 0.0015975 -0.0326523 0.9984025 0.0326523 0.9984025 0.0326523 0.0015975 -0.0326523
35265 0.0014901 -0.0312379 0.9985099 0.0312379 0.9985099 0.0312379 0.0014901 -0.0312379
36880 0.0013909 -0.0298844 0.9986091 0.0298844 0.9986091 0.0298844 0.0013909 -0.0298844
38569 0.0012994 -0.0285892 0.9987006 0.0285892 0.9987006 0.0285892 0.0012994 -0.0285892
40335 0.0012148 -0.0273497 0.9987852 0.0273497 0.9987852 0.0273497 0.0012148 -0.0273497
42182 0.0011368 -0.0261638 0.9988632 0.0261638 0.9988632 0.0261638 0.0011368 -0.0261638
44113 0.0010647 -0.0250289 0.9989353 0.0250289 0.9989353 0.0250289 0.0010647 -0.0250289
46134 0.0009981 -0.0239430 0.9990019 0.0239430 0.9990019 0.0239430 0.0009981 -0.0239430
48246 0.0009367 -0.0229039 0.9990633 0.0229039 0.9990633 0.0229039 0.0009367 -0.0229039
50455 0.0008800 -0.0219096 0.9991200 0.0219096 0.9991200 0.0219096 0.0008800 -0.0219096
52766 0.0008277 -0.0209583 0.9991723 0.0209583 0.9991723 0.0209583 0.0008277 -0.0209583
55182 0.0007794 -0.0200482 0.9992206 0.0200482 0.9992206 0.0200482 0.0007794 -0.0200482
57709 0.0007348 -0.0191773 0.9992652 0.0191773 0.9992652 0.0191773 0.0007348 -0.0191773
60352 0.0006937 -0.0183442 0.9993063 0.0183442 0.9993063 0.0183442 0.0006937 -0.0183442
63115 0.0006558 -0.0175471 0.9993442 0.0175471 0.9993442 0.0175471 0.0006558 -0.0175471
66005 0.0006208 -0.0167845 0.9993792 0.0167845 0.9993792 0.0167845 0.0006208 -0.0167845
69028 0.0005885 -0.0160550 0.9994115 0.0160550 0.9994115 0.0160550 0.0005885 -0.0160550
72189 0.0005587 -0.0153572 0.9994413 0.0153572 0.9994413 0.0153572 0.0005587 -0.0153572
75495 0.0005312 -0.0146897 0.9994688 0.0146897 0.9994688 0.0146897 0.0005312 -0.0146897
78952 0.0005058 -0.0140511 0.9994942 0.0140511 0.9994942 0.0140511 0.0005058 -0.0140511
82567 0.0004824 -0.0134403 0.9995176 0.0134403 0.9995176 0.0134403 0.0004824 -0.0134403
86348 0.0004608 -0.0128561 0.9995392 0.0128561 0.9995392 0.0128561 0.0004608 -0.0128561
90302 0.0004408 -0.0122973 0.9995592 0.0122973 0.9995592 0.0122973 0.0004408 -0.0122973
94437 0.0004223 -0.0117629 0.9995777 0.0117629 0.9995777 0.0117629 0.0004223 -0.0117629
98762 0.0004052 -0.0112517 0.9995948 0.0112517 0.9995948 0.0112517 0.0004052 -0.0112517
103284 0.0003894 -0.0107629 0.9996106 0.0107629 0.9996106 0.0107629 0.0003894 -0.0107629
108014 0.0003747 -0.0102953 0.9996253 0.0102953 0.9996253 0.0102953 0.0003747 -0.0102953
112960 0.0003610 -0.0098482 0.9996390 0.0098482 0.9996390 0.0098482 0.0003610 -0.0098482
118133 0.0003483 -0.0094206 0.9996517 0.0094206 0.9996517 0.0094206 0.0003483 -0.0094206
123542 0.0003365 -0.0090116 0.9996635 0.0090116 0.9996635 0.0090116 0.0003365 -0.0090116
129199 0.0003255 -0.0086206 0.9996745 0.0086206 0.9996745 0.0086206 0.0003255 -0.0086206
135116 0.0003152 -0.0082466 0.9996848 0.0082466 0.9996848 0.0082466 0.0003152 -0.0082466
141303 0.0003055 -0.0078889 0.9996945 0.0078889 0.9996945 0.0078889 0.0003055 -0.0078889
147774 0.0002964 -0.0075468 0.9997036 0.0075468 0.9997036 0.0075468 0.0002964 -0.0075468
154540 0.0002879 -0.0072197 0.9997121 0.0072197 0.9997121 0.0072197 0.0002879 -0.0072197
161617 0.0002798 -0.0069069 0.9997202 0.0069069 0.9997202 0.0069069 0.0002798 -0.0069069
169018 0.0002721 -0.0066077 0.9997279 0.0066077 0.9997279 0.0066077 0.0002721 -0.0066077
176758 0.0002649 -0.0063215 0.9997351 0.0063215 0.9997351 0.0063215 0.0002649 -0.0063215
184852 0.0002580 -0.0060479 0.9997420 0.0060479 0.9997420 0.0060479 0.0002580 -0.0060479
193316 0.0002514 -0.0057861 0.9997486 0.0057861 0.9997486 0.0057861 0.0002514 -0.0057861
202169 0.0002451 -0.0055357 0.9997549 0.0055357 0.9997549 0.0055357 0.0002451 -0.0055357
211427 0.0002391 -0.0052962 0.9997609 0.0052962 0.9997609 0.0052962 0.0002391 -0.0052962
221108 0.0002334 -0.0050670 0.9997666 0.0050670 0.9997666 0.0050670 0.0002334 -0.0050670
231233 0.0002278 -0.0048478 0.9997722 0.0048478 0.9997722 0.0048478 0.0002278 -0.0048478
241822 0.0002225 -0.0046381 0.9997775 0.0046381 0.9997775 0.0046381 0.0002225 -0.0046381
252896 0.0002173 -0.0044374 0.9997827 0.0044374 0.9997827 0.0044374 0.0002173 -0.0044374
264476 0.0002124 -0.0042454 0.9997876 0.0042454 0.9997876 0.0042454 0.0002124 -0.0042454
276587 0.0002076 -0.0040617 0.9997924 0.0040617 0.9997924 0.0040617 0.0002076 -0.0040617
289253 0.0002030 -0.0038858 0.9997970 0.0038858 0.9997970 0.0038858 0.0002030 -0.0038858
302498 0.0001986 -0.0037175 0.9998014 0.0037175 0.9998014 0.0037175 0.0001986 -0.0037175
316350 0.0001943 -0.0035564 0.9998057 0.0035564 0.9998057 0.0035564 0.0001943 -0.0035564
330837 0.0001902 -0.0034022 0.9998098 0.0034022 0.9998098 0.0034022 0.0001902 -0.0034022
345986 0.0001862 -0.0032545 0.9998138 0.0032545 0.9998138 0.0032545 0.0001862 -0.0032545
361830 0.0001824 -0.0031132 0.9998176 0.0031132 0.9998176 0.0031132 0.0001824 -0.0031132
378399 0.0001788 -0.0029779 0.9998212 0.0029779 0.9998212 0.0029779 0.0001788 -0.0029779
395726 0.0001753 -0.0028483 0.9998247 0.0028483 0.9998247 0.0028483 0.0001753 -0.0028483
413847 0.0001720 -0.0027242 0.9998280 0.0027242 0.9998280 0.0027242 0.0001720 -0.0027242
432798 0.0001688 -0.0026054 0.9998312 0.0026054 0.9998312 0.0026054 0.0001688 -0.0026054
452617 0.0001658 -0.0024916 0.9998342 0.0024916 0.9998342 0.0024916 0.0001658 -0.0024916
473344 0.0001629 -0.0023827 0.9998371 0.0023827 0.9998371 0.0023827 0.0001629 -0.0023827
495019 0.0001602 -0.0022783 0.9998398 0.0022783 0.9998398 0.0022783 0.0001602 -0.0022783
517687 0.0001576 -0.0021784 0.9998424 0.0021784 0.9998424 0.0021784 0.0001576 -0.0021784
541393 0.0001552 -0.0020826 0.9998448 0.0020826 0.9998448 0.0020826 0.0001552 -0.0020826
566185 0.0001529 -0.0019909 0.9998471 0.0019909 0.9998471 0.0019909 0.0001529 -0.0019909
592111 0.0001508 -0.0019031 0.9998492 0.0019031 0.9998492 0.0019031 0.0001508 -0.0019031
619225 0.0001488 -0.0018190 0.9998512 0.0018190 0.9998512 0.0018190 0.0001488 -0.0018190
647581 0.0001469 -0.0017384 0.9998531 0.0017384 0.9998531 0.0017384 0.0001469 -0.0017384
677235 0.0001451 -0.0016612 0.9998549 0.0016612 0.9998549 0.0016612 0.0001451 -0.0016612
708247 0.0001435 -0.0015872 0.9998565 0.0015872 0.9998565 0.0015872 0.0001435 -0.0015872
740679 0.0001420 -0.0015163 0.9998580 0.0015163 0.9998580 0.0015163 0.0001420 -0.0015163
774597 0.0001406 -0.0014484 0.9998594 0.0014484 0.9998594 0.0014484 0.0001406 -0.0014484
810067 0.0001393 -0.0013833 0.9998607 0.0013833 0.9998607 0.0013833 0.0001393 -0.0013833
847162 0.0001381 -0.0013210 0.9998619 0.0013210 0.9998619 0.0013210 0.0001381 -0.0013210
885955 0.0001370 -0.0012612 0.9998630 0.0012612 0.9998630 0.0012612 0.0001370 -0.0012612
926525 0.0001359 -0.0012039 0.9998641 0.0012039 0.9998641 0.0012039 0.0001359 -0.0012039
968953 0.0001350 -0.0011490 0.9998650 0.0011490 0.9998650 0.0011490 0.0001350 -0.0011490
1013323 0.0001342 -0.0010964 0.9998658 0.0010964 0.9998658 0.0010964 0.0001342 -0.0010964
1059725 0.0001334 -0.0010459 0.9998666 0.0010459 0.9998666 0.0010459 0.0001334 -0.0010459
1108252 0.0001327 -0.0009975 0.9998673 0.0009975 0.9998673 0.0009975 0.0001327 -0.0009975
1159002 0.0001321 -0.0009511 0.9998679 0.0009511 0.9998679 0.0009511 0.0001321 -0.0009511
1212075 0.0001316 -0.0009065 0.9998684 0.0009065 0.9998684 0.0009065 0.0001316 -0.0009065
1267578 0.0001311 -0.0008637 0.9998689 0.0008637 0.9998689 0.0008637 0.0001311 -0.0008637
1325623 0.0001307 -0.0008227 0.9998693 0.0008227 0.9998693 0.0008227 0.0001307 -0.0008227
1386327 0.0001303 -0.0007833 0.9998697 0.0007833 0.9998697 0.0007833 0.0001303 -0.0007833
1449809 0.0001300 -0.0007454 0.9998700 0.0007454 0.9998700 0.0007454 0.0001300 -0.0007454
1516199 0.0001298 -0.0007091 0.9998702 0.0007091 0.9998702 0.0007091 0.0001298 -0.0007091
1585629 0.0001296 -0.0006741 0.9998704 0.0006741 0.9998704 0.0006741 0.0001296 -0.0006741
1658239 0.0001295 -0.0006405 0.9998705 0.0006405 0.9998705 0.0006405 0.0001295 -0.0006405
1734173 0.0001294 -0.0006082 0.9998706 0.0006082 0.9998706 0.0006082 0.0001294 -0.0006082
1813585 0.0001294 -0.0005771 0.9998706 0.0005771 0.9998706 0.0005771 0.0001294 -0.0005771
1896632 0.0001294 -0.0005472 0.9998706 0.0005472 0.9998706 0.0005472 0.0001294 -0.0005472
1983483 0.0001295 -0.0005183 0.9998705 0.0005183 0.9998705 0.0005183 0.0001295 -0.0005183
2074311 0.0001296 -0.0004905 0.9998704 0.0004905 0.9998704 0.0004905 0.0001296 -0.0004905
