!Murata Part Number: GRM155R61A124KE19
!These Parameters are Measured in Series Mode Connection
!Data Generated on Mar 30, 2021
!       o--ll--o
!Port1            Port2
!       o------o
!Operation Temp=25[degC], DC Bias Voltage=0[V]
!Freq. Start=100[Hz] Stop=6[GHz] 401[Steps]
# Hz S RI R 50
!Freq.(Hz) S11(Real) S11(Imag) S21(Real) S21(Imag) S12(Real) S12(Imag) S22(Real) S22(Imag)
100 0.9998904 -0.0073754 0.0001096 0.0073754 0.0001096 0.0073754 0.9998904 -0.0073754
105 0.9998828 -0.0077113 0.0001172 0.0077113 0.0001172 0.0077113 0.9998828 -0.0077113
109 0.9998747 -0.0080626 0.0001253 0.0080626 0.0001253 0.0080626 0.9998747 -0.0080626
114 0.9998659 -0.0084298 0.0001341 0.0084298 0.0001341 0.0084298 0.9998659 -0.0084298
120 0.9998565 -0.0088138 0.0001435 0.0088138 0.0001435 0.0088138 0.9998565 -0.0088138
125 0.9998463 -0.0092152 0.0001537 0.0092152 0.0001537 0.0092152 0.9998463 -0.0092152
131 0.9998352 -0.0096349 0.0001648 0.0096349 0.0001648 0.0096349 0.9998352 -0.0096349
137 0.9998233 -0.0100737 0.0001767 0.0100737 0.0001767 0.0100737 0.9998233 -0.0100737
143 0.9998105 -0.0105324 0.0001895 0.0105324 0.0001895 0.0105324 0.9998105 -0.0105324
150 0.9997966 -0.0110120 0.0002034 0.0110120 0.0002034 0.0110120 0.9997966 -0.0110120
156 0.9997816 -0.0115134 0.0002184 0.0115134 0.0002184 0.0115134 0.9997816 -0.0115134
164 0.9997654 -0.0120376 0.0002346 0.0120376 0.0002346 0.0120376 0.9997654 -0.0120376
171 0.9997479 -0.0125856 0.0002521 0.0125856 0.0002521 0.0125856 0.9997479 -0.0125856
179 0.9997290 -0.0131585 0.0002710 0.0131585 0.0002710 0.0131585 0.9997290 -0.0131585
187 0.9997086 -0.0137575 0.0002914 0.0137575 0.0002914 0.0137575 0.9997086 -0.0137575
196 0.9996866 -0.0143837 0.0003134 0.0143837 0.0003134 0.0143837 0.9996866 -0.0143837
205 0.9996628 -0.0150383 0.0003372 0.0150383 0.0003372 0.0150383 0.9996628 -0.0150383
214 0.9996370 -0.0157228 0.0003630 0.0157228 0.0003630 0.0157228 0.9996370 -0.0157228
224 0.9996092 -0.0164383 0.0003908 0.0164383 0.0003908 0.0164383 0.9996092 -0.0164383
234 0.9995791 -0.0171863 0.0004209 0.0171863 0.0004209 0.0171863 0.9995791 -0.0171863
245 0.9995465 -0.0179684 0.0004535 0.0179684 0.0004535 0.0179684 0.9995465 -0.0179684
256 0.9995113 -0.0187861 0.0004887 0.0187861 0.0004887 0.0187861 0.9995113 -0.0187861
268 0.9994731 -0.0196410 0.0005269 0.0196410 0.0005269 0.0196410 0.9994731 -0.0196410
280 0.9994318 -0.0205347 0.0005682 0.0205347 0.0005682 0.0205347 0.9994318 -0.0205347
293 0.9993870 -0.0214692 0.0006130 0.0214692 0.0006130 0.0214692 0.9993870 -0.0214692
306 0.9993384 -0.0224461 0.0006616 0.0224461 0.0006616 0.0224461 0.9993384 -0.0224461
320 0.9992856 -0.0234675 0.0007144 0.0234675 0.0007144 0.0234675 0.9992856 -0.0234675
335 0.9992284 -0.0245354 0.0007716 0.0245354 0.0007716 0.0245354 0.9992284 -0.0245354
350 0.9991662 -0.0256519 0.0008338 0.0256519 0.0008338 0.0256519 0.9991662 -0.0256519
366 0.9990986 -0.0268192 0.0009014 0.0268192 0.0009014 0.0268192 0.9990986 -0.0268192
383 0.9990251 -0.0280396 0.0009749 0.0280396 0.0009749 0.0280396 0.9990251 -0.0280396
401 0.9989452 -0.0293155 0.0010548 0.0293155 0.0010548 0.0293155 0.9989452 -0.0293155
419 0.9988582 -0.0306494 0.0011418 0.0306494 0.0011418 0.0306494 0.9988582 -0.0306494
438 0.9987635 -0.0320439 0.0012365 0.0320439 0.0012365 0.0320439 0.9987635 -0.0320439
458 0.9986604 -0.0335017 0.0013396 0.0335017 0.0013396 0.0335017 0.9986604 -0.0335017
479 0.9985480 -0.0350257 0.0014520 0.0350257 0.0014520 0.0350257 0.9985480 -0.0350257
501 0.9984256 -0.0366189 0.0015744 0.0366189 0.0015744 0.0366189 0.9984256 -0.0366189
524 0.9982921 -0.0382842 0.0017079 0.0382842 0.0017079 0.0382842 0.9982921 -0.0382842
548 0.9981465 -0.0400249 0.0018535 0.0400249 0.0018535 0.0400249 0.9981465 -0.0400249
573 0.9979878 -0.0418444 0.0020122 0.0418444 0.0020122 0.0418444 0.9979878 -0.0418444
600 0.9978147 -0.0437460 0.0021853 0.0437460 0.0021853 0.0437460 0.9978147 -0.0437460
627 0.9976258 -0.0457335 0.0023742 0.0457335 0.0023742 0.0457335 0.9976258 -0.0457335
656 0.9974198 -0.0478105 0.0025802 0.0478105 0.0025802 0.0478105 0.9974198 -0.0478105
686 0.9971950 -0.0499810 0.0028050 0.0499810 0.0028050 0.0499810 0.9971950 -0.0499810
717 0.9969496 -0.0522489 0.0030504 0.0522489 0.0030504 0.0522489 0.9969496 -0.0522489
750 0.9966820 -0.0546186 0.0033180 0.0546186 0.0033180 0.0546186 0.9966820 -0.0546186
784 0.9963899 -0.0570943 0.0036101 0.0570943 0.0036101 0.0570943 0.9963899 -0.0570943
820 0.9960712 -0.0596806 0.0039288 0.0596806 0.0039288 0.0596806 0.9960712 -0.0596806
858 0.9957235 -0.0623821 0.0042765 0.0623821 0.0042765 0.0623821 0.9957235 -0.0623821
897 0.9953441 -0.0652037 0.0046559 0.0652037 0.0046559 0.0652037 0.9953441 -0.0652037
938 0.9949301 -0.0681504 0.0050699 0.0681504 0.0050699 0.0681504 0.9949301 -0.0681504
981 0.9944785 -0.0712274 0.0055215 0.0712274 0.0055215 0.0712274 0.9944785 -0.0712274
1026 0.9939859 -0.0744400 0.0060141 0.0744400 0.0060141 0.0744400 0.9939859 -0.0744400
1073 0.9934486 -0.0777937 0.0065514 0.0777937 0.0065514 0.0777937 0.9934486 -0.0777937
1122 0.9928627 -0.0812942 0.0071373 0.0812942 0.0071373 0.0812942 0.9928627 -0.0812942
1174 0.9922236 -0.0849473 0.0077764 0.0849473 0.0077764 0.0849473 0.9922236 -0.0849473
1227 0.9915269 -0.0887590 0.0084731 0.0887590 0.0084731 0.0887590 0.9915269 -0.0887590
1283 0.9907672 -0.0927355 0.0092328 0.0927355 0.0092328 0.0927355 0.9907672 -0.0927355
1342 0.9899392 -0.0968829 0.0100608 0.0968829 0.0100608 0.0968829 0.9899392 -0.0968829
1404 0.9890366 -0.1012078 0.0109634 0.1012078 0.0109634 0.1012078 0.9890366 -0.1012078
1468 0.9880531 -0.1057166 0.0119469 0.1057166 0.0119469 0.1057166 0.9880531 -0.1057166
1535 0.9869815 -0.1104159 0.0130185 0.1104159 0.0130185 0.1104159 0.9869815 -0.1104159
1606 0.9858140 -0.1153123 0.0141860 0.1153123 0.0141860 0.1153123 0.9858140 -0.1153123
1679 0.9845425 -0.1204125 0.0154575 0.1204125 0.0154575 0.1204125 0.9845425 -0.1204125
1756 0.9831577 -0.1257233 0.0168423 0.1257233 0.0168423 0.1257233 0.9831577 -0.1257233
1836 0.9816501 -0.1312512 0.0183499 0.1312512 0.0183499 0.1312512 0.9816501 -0.1312512
1920 0.9800090 -0.1370029 0.0199910 0.1370029 0.0199910 0.1370029 0.9800090 -0.1370029
2008 0.9782231 -0.1429847 0.0217769 0.1429847 0.0217769 0.1429847 0.9782231 -0.1429847
2100 0.9762801 -0.1492029 0.0237199 0.1492029 0.0237199 0.1492029 0.9762801 -0.1492029
2196 0.9741668 -0.1556634 0.0258332 0.1556634 0.0258332 0.1556634 0.9741668 -0.1556634
2297 0.9718690 -0.1623719 0.0281310 0.1623719 0.0281310 0.1623719 0.9718690 -0.1623719
2402 0.9693716 -0.1693334 0.0306284 0.1693334 0.0306284 0.1693334 0.9693716 -0.1693334
2512 0.9666581 -0.1765526 0.0333419 0.1765526 0.0333419 0.1765526 0.9666581 -0.1765526
2627 0.9637113 -0.1840333 0.0362887 0.1840333 0.0362887 0.1840333 0.9637113 -0.1840333
2748 0.9605126 -0.1917787 0.0394874 0.1917787 0.0394874 0.1917787 0.9605126 -0.1917787
2873 0.9570421 -0.1997909 0.0429579 0.1997909 0.0429579 0.1997909 0.9570421 -0.1997909
3005 0.9532791 -0.2080709 0.0467209 0.2080709 0.0467209 0.2080709 0.9532791 -0.2080709
3143 0.9492013 -0.2166187 0.0507987 0.2166187 0.0507987 0.2166187 0.9492013 -0.2166187
3287 0.9447856 -0.2254324 0.0552144 0.2254324 0.0552144 0.2254324 0.9447856 -0.2254324
3437 0.9400075 -0.2345088 0.0599925 0.2345088 0.0599925 0.2345088 0.9400075 -0.2345088
3594 0.9348415 -0.2438426 0.0651585 0.2438426 0.0651585 0.2438426 0.9348415 -0.2438426
3759 0.9292612 -0.2534265 0.0707388 0.2534265 0.0707388 0.2534265 0.9292612 -0.2534265
3931 0.9232391 -0.2632510 0.0767609 0.2632510 0.0767609 0.2632510 0.9232391 -0.2632510
4111 0.9167472 -0.2733037 0.0832528 0.2733037 0.0832528 0.2733037 0.9167472 -0.2733037
4299 0.9097568 -0.2835698 0.0902432 0.2835698 0.0902432 0.2835698 0.9097568 -0.2835698
4496 0.9022388 -0.2940310 0.0977612 0.2940310 0.0977612 0.2940310 0.9022388 -0.2940310
4702 0.8941643 -0.3046660 0.1058357 0.3046660 0.1058357 0.3046660 0.8941643 -0.3046660
4918 0.8855045 -0.3154500 0.1144955 0.3154500 0.1144955 0.3154500 0.8855045 -0.3154500
5143 0.8762310 -0.3263544 0.1237690 0.3263544 0.1237690 0.3263544 0.8762310 -0.3263544
5378 0.8663169 -0.3373466 0.1336831 0.3373466 0.1336831 0.3373466 0.8663169 -0.3373466
5625 0.8557364 -0.3483903 0.1442636 0.3483903 0.1442636 0.3483903 0.8557364 -0.3483903
5882 0.8444660 -0.3594448 0.1555340 0.3594448 0.1555340 0.3594448 0.8444660 -0.3594448
6151 0.8324846 -0.3704655 0.1675154 0.3704655 0.1675154 0.3704655 0.8324846 -0.3704655
6433 0.8197744 -0.3814038 0.1802256 0.3814038 0.1802256 0.3814038 0.8197744 -0.3814038
6728 0.8063216 -0.3922071 0.1936784 0.3922071 0.1936784 0.3922071 0.8063216 -0.3922071
7036 0.7921165 -0.4028191 0.2078835 0.4028191 0.2078835 0.4028191 0.7921165 -0.4028191
7358 0.7771548 -0.4131806 0.2228452 0.4131806 0.2228452 0.4131806 0.7771548 -0.4131806
7695 0.7614380 -0.4232293 0.2385620 0.4232293 0.2385620 0.4232293 0.7614380 -0.4232293
8047 0.7449739 -0.4329007 0.2550261 0.4329007 0.2550261 0.4329007 0.7449739 -0.4329007
8416 0.7277770 -0.4421292 0.2722230 0.4421292 0.2722230 0.4421292 0.7277770 -0.4421292
8801 0.7098696 -0.4508482 0.2901304 0.4508482 0.2901304 0.4508482 0.7098696 -0.4508482
9204 0.6912811 -0.4589916 0.3087189 0.4589916 0.3087189 0.4589916 0.6912811 -0.4589916
9626 0.6720494 -0.4664946 0.3279506 0.4664946 0.3279506 0.4664946 0.6720494 -0.4664946
10066 0.6522197 -0.4732951 0.3477803 0.4732951 0.3477803 0.4732951 0.6522197 -0.4732951
10527 0.6318453 -0.4793343 0.3681547 0.4793343 0.3681547 0.4793343 0.6318453 -0.4793343
11009 0.6109868 -0.4845583 0.3890132 0.4845583 0.3890132 0.4845583 0.6109868 -0.4845583
11514 0.5897118 -0.4889191 0.4102882 0.4889191 0.4102882 0.4889191 0.5897118 -0.4889191
12041 0.5680936 -0.4923755 0.4319064 0.4923755 0.4319064 0.4923755 0.5680936 -0.4923755
12592 0.5462112 -0.4948943 0.4537888 0.4948943 0.4537888 0.4948943 0.5462112 -0.4948943
13169 0.5241473 -0.4964506 0.4758527 0.4964506 0.4758527 0.4964506 0.5241473 -0.4964506
13772 0.5019877 -0.4970291 0.4980123 0.4970291 0.4980123 0.4970291 0.5019877 -0.4970291
14402 0.4798197 -0.4966237 0.5201803 0.4966237 0.5201803 0.4966237 0.4798197 -0.4966237
15062 0.4577307 -0.4952383 0.5422693 0.4952383 0.5422693 0.4952383 0.4577307 -0.4952383
15752 0.4358071 -0.4928863 0.5641929 0.4928863 0.5641929 0.4928863 0.4358071 -0.4928863
16473 0.4141325 -0.4895904 0.5858675 0.4895904 0.5858675 0.4895904 0.4141325 -0.4895904
17227 0.3927869 -0.4853822 0.6072131 0.4853822 0.6072131 0.4853822 0.3927869 -0.4853822
18016 0.3718452 -0.4803015 0.6281548 0.4803015 0.6281548 0.4803015 0.3718452 -0.4803015
18841 0.3513764 -0.4743949 0.6486236 0.4743949 0.6486236 0.4743949 0.3513764 -0.4743949
19704 0.3314430 -0.4677156 0.6685570 0.4677156 0.6685570 0.4677156 0.3314430 -0.4677156
20606 0.3120998 -0.4603217 0.6879002 0.4603217 0.6879002 0.4603217 0.3120998 -0.4603217
21550 0.2933940 -0.4522751 0.7066060 0.4522751 0.7066060 0.4522751 0.2933940 -0.4522751
22537 0.2753649 -0.4436405 0.7246351 0.4436405 0.7246351 0.4436405 0.2753649 -0.4436405
23569 0.2580437 -0.4344844 0.7419563 0.4344844 0.7419563 0.4344844 0.2580437 -0.4344844
24648 0.2414540 -0.4248736 0.7585460 0.4248736 0.7585460 0.4248736 0.2414540 -0.4248736
25777 0.2256115 -0.4148746 0.7743885 0.4148746 0.7743885 0.4148746 0.2256115 -0.4148746
26957 0.2105252 -0.4045524 0.7894748 0.4045524 0.7894748 0.4045524 0.2105252 -0.4045524
28191 0.1961973 -0.3939701 0.8038027 0.3939701 0.8038027 0.3939701 0.1961973 -0.3939701
29482 0.1826242 -0.3831879 0.8173758 0.3831879 0.8173758 0.3831879 0.1826242 -0.3831879
30832 0.1697969 -0.3722629 0.8302031 0.3722629 0.8302031 0.3722629 0.1697969 -0.3722629
32244 0.1577018 -0.3612483 0.8422982 0.3612483 0.8422982 0.3612483 0.1577018 -0.3612483
33721 0.1463214 -0.3501937 0.8536786 0.3501937 0.8536786 0.3501937 0.1463214 -0.3501937
35265 0.1356346 -0.3391444 0.8643654 0.3391444 0.8643654 0.3391444 0.1356346 -0.3391444
36880 0.1256181 -0.3281415 0.8743819 0.3281415 0.8743819 0.3281415 0.1256181 -0.3281415
38569 0.1162461 -0.3172220 0.8837539 0.3172220 0.8837539 0.3172220 0.1162461 -0.3172220
40335 0.1074916 -0.3064190 0.8925084 0.3064190 0.8925084 0.3064190 0.1074916 -0.3064190
42182 0.0993261 -0.2957613 0.9006739 0.2957613 0.9006739 0.2957613 0.0993261 -0.2957613
44113 0.0917209 -0.2852743 0.9082791 0.2852743 0.9082791 0.2852743 0.0917209 -0.2852743
46134 0.0846469 -0.2749796 0.9153531 0.2749796 0.9153531 0.2749796 0.0846469 -0.2749796
48246 0.0780749 -0.2648955 0.9219251 0.2648955 0.9219251 0.2648955 0.0780749 -0.2648955
50455 0.0719762 -0.2550373 0.9280238 0.2550373 0.9280238 0.2550373 0.0719762 -0.2550373
52766 0.0663229 -0.2454173 0.9336771 0.2454173 0.9336771 0.2454173 0.0663229 -0.2454173
55182 0.0610873 -0.2360455 0.9389127 0.2360455 0.9389127 0.2360455 0.0610873 -0.2360455
57709 0.0562432 -0.2269294 0.9437568 0.2269294 0.9437568 0.2269294 0.0562432 -0.2269294
60352 0.0517649 -0.2180743 0.9482351 0.2180743 0.9482351 0.2180743 0.0517649 -0.2180743
63115 0.0476282 -0.2094837 0.9523718 0.2094837 0.9523718 0.2094837 0.0476282 -0.2094837
66005 0.0438097 -0.2011597 0.9561903 0.2011597 0.9561903 0.2011597 0.0438097 -0.2011597
69028 0.0402873 -0.1931026 0.9597127 0.1931026 0.9597127 0.1931026 0.0402873 -0.1931026
72189 0.0370401 -0.1853116 0.9629599 0.1853116 0.9629599 0.1853116 0.0370401 -0.1853116
75495 0.0340484 -0.1777848 0.9659516 0.1777848 0.9659516 0.1777848 0.0340484 -0.1777848
78952 0.0312935 -0.1705193 0.9687065 0.1705193 0.9687065 0.1705193 0.0312935 -0.1705193
82567 0.0287580 -0.1635114 0.9712420 0.1635114 0.9712420 0.1635114 0.0287580 -0.1635114
86348 0.0264255 -0.1567567 0.9735745 0.1567567 0.9735745 0.1567567 0.0264255 -0.1567567
90302 0.0242807 -0.1502505 0.9757193 0.1502505 0.9757193 0.1502505 0.0242807 -0.1502505
94437 0.0223093 -0.1439872 0.9776907 0.1439872 0.9776907 0.1439872 0.0223093 -0.1439872
98762 0.0204979 -0.1379611 0.9795021 0.1379611 0.9795021 0.1379611 0.0204979 -0.1379611
103284 0.0188341 -0.1321662 0.9811659 0.1321662 0.9811659 0.1321662 0.0188341 -0.1321662
108014 0.0173064 -0.1265962 0.9826936 0.1265962 0.9826936 0.1265962 0.0173064 -0.1265962
112960 0.0159040 -0.1212446 0.9840960 0.1212446 0.9840960 0.1212446 0.0159040 -0.1212446
118133 0.0146171 -0.1161051 0.9853829 0.1161051 0.9853829 0.1161051 0.0146171 -0.1161051
123542 0.0134364 -0.1111708 0.9865636 0.1111708 0.9865636 0.1111708 0.0134364 -0.1111708
129199 0.0123533 -0.1064353 0.9876467 0.1064353 0.9876467 0.1064353 0.0123533 -0.1064353
135116 0.0113601 -0.1018919 0.9886399 0.1018919 0.9886399 0.1018919 0.0113601 -0.1018919
141303 0.0104494 -0.0975341 0.9895506 0.0975341 0.9895506 0.0975341 0.0104494 -0.0975341
147774 0.0096144 -0.0933554 0.9903856 0.0933554 0.9903856 0.0933554 0.0096144 -0.0933554
154540 0.0088490 -0.0893493 0.9911510 0.0893493 0.9911510 0.0893493 0.0088490 -0.0893493
161617 0.0081475 -0.0855097 0.9918525 0.0855097 0.9918525 0.0855097 0.0081475 -0.0855097
169018 0.0075046 -0.0818302 0.9924954 0.0818302 0.9924954 0.0818302 0.0075046 -0.0818302
176758 0.0069154 -0.0783050 0.9930846 0.0783050 0.9930846 0.0783050 0.0069154 -0.0783050
184852 0.0063754 -0.0749280 0.9936246 0.0749280 0.9936246 0.0749280 0.0063754 -0.0749280
193316 0.0058806 -0.0716937 0.9941194 0.0716937 0.9941194 0.0716937 0.0058806 -0.0716937
202169 0.0054272 -0.0685963 0.9945728 0.0685963 0.9945728 0.0685963 0.0054272 -0.0685963
211427 0.0050116 -0.0656305 0.9949884 0.0656305 0.9949884 0.0656305 0.0050116 -0.0656305
221108 0.0046307 -0.0627911 0.9953693 0.0627911 0.9953693 0.0627911 0.0046307 -0.0627911
231233 0.0042816 -0.0600729 0.9957184 0.0600729 0.9957184 0.0600729 0.0042816 -0.0600729
241822 0.0039616 -0.0574710 0.9960384 0.0574710 0.9960384 0.0574710 0.0039616 -0.0574710
252896 0.0036681 -0.0549807 0.9963319 0.0549807 0.9963319 0.0549807 0.0036681 -0.0549807
264476 0.0033990 -0.0525974 0.9966010 0.0525974 0.9966010 0.0525974 0.0033990 -0.0525974
276587 0.0031521 -0.0503166 0.9968479 0.0503166 0.9968479 0.0503166 0.0031521 -0.0503166
289253 0.0029256 -0.0481341 0.9970744 0.0481341 0.9970744 0.0481341 0.0029256 -0.0481341
302498 0.0027177 -0.0460457 0.9972823 0.0460457 0.9972823 0.0460457 0.0027177 -0.0460457
316350 0.0025268 -0.0440475 0.9974732 0.0440475 0.9974732 0.0440475 0.0025268 -0.0440475
330837 0.0023514 -0.0421357 0.9976486 0.0421357 0.9976486 0.0421357 0.0023514 -0.0421357
345986 0.0021903 -0.0403066 0.9978097 0.0403066 0.9978097 0.0403066 0.0021903 -0.0403066
361830 0.0020421 -0.0385566 0.9979579 0.0385566 0.9979579 0.0385566 0.0020421 -0.0385566
378399 0.0019058 -0.0368824 0.9980942 0.0368824 0.9980942 0.0368824 0.0019058 -0.0368824
395726 0.0017803 -0.0352807 0.9982197 0.0352807 0.9982197 0.0352807 0.0017803 -0.0352807
413847 0.0016648 -0.0337485 0.9983352 0.0337485 0.9983352 0.0337485 0.0016648 -0.0337485
432798 0.0015584 -0.0322826 0.9984416 0.0322826 0.9984416 0.0322826 0.0015584 -0.0322826
452617 0.0014602 -0.0308802 0.9985398 0.0308802 0.9985398 0.0308802 0.0014602 -0.0308802
473344 0.0013697 -0.0295386 0.9986303 0.0295386 0.9986303 0.0295386 0.0013697 -0.0295386
495019 0.0012862 -0.0282550 0.9987138 0.0282550 0.9987138 0.0282550 0.0012862 -0.0282550
517687 0.0012090 -0.0270271 0.9987910 0.0270271 0.9987910 0.0270271 0.0012090 -0.0270271
541393 0.0011378 -0.0258523 0.9988622 0.0258523 0.9988622 0.0258523 0.0011378 -0.0258523
566185 0.0010719 -0.0247284 0.9989281 0.0247284 0.9989281 0.0247284 0.0010719 -0.0247284
592111 0.0010110 -0.0236531 0.9989890 0.0236531 0.9989890 0.0236531 0.0010110 -0.0236531
619225 0.0009546 -0.0226242 0.9990454 0.0226242 0.9990454 0.0226242 0.0009546 -0.0226242
647581 0.0009025 -0.0216399 0.9990975 0.0216399 0.9990975 0.0216399 0.0009025 -0.0216399
677235 0.0008542 -0.0206981 0.9991458 0.0206981 0.9991458 0.0206981 0.0008542 -0.0206981
708247 0.0008095 -0.0197969 0.9991905 0.0197969 0.9991905 0.0197969 0.0008095 -0.0197969
740679 0.0007682 -0.0189347 0.9992318 0.0189347 0.9992318 0.0189347 0.0007682 -0.0189347
774597 0.0007299 -0.0181097 0.9992701 0.0181097 0.9992701 0.0181097 0.0007299 -0.0181097
810067 0.0006944 -0.0173202 0.9993056 0.0173202 0.9993056 0.0173202 0.0006944 -0.0173202
847162 0.0006616 -0.0165649 0.9993384 0.0165649 0.9993384 0.0165649 0.0006616 -0.0165649
885955 0.0006313 -0.0158421 0.9993687 0.0158421 0.9993687 0.0158421 0.0006313 -0.0158421
926525 0.0006032 -0.0151504 0.9993968 0.0151504 0.9993968 0.0151504 0.0006032 -0.0151504
968953 0.0005772 -0.0144886 0.9994228 0.0144886 0.9994228 0.0144886 0.0005772 -0.0144886
1013323 0.0005531 -0.0138553 0.9994469 0.0138553 0.9994469 0.0138553 0.0005531 -0.0138553
1059725 0.0005309 -0.0132493 0.9994691 0.0132493 0.9994691 0.0132493 0.0005309 -0.0132493
1108252 0.0005104 -0.0126694 0.9994896 0.0126694 0.9994896 0.0126694 0.0005104 -0.0126694
1159002 0.0004914 -0.0121145 0.9995086 0.0121145 0.9995086 0.0121145 0.0004914 -0.0121145
1212075 0.0004739 -0.0115835 0.9995261 0.0115835 0.9995261 0.0115835 0.0004739 -0.0115835
1267578 0.0004578 -0.0110753 0.9995422 0.0110753 0.9995422 0.0110753 0.0004578 -0.0110753
1325623 0.0004429 -0.0105891 0.9995571 0.0105891 0.9995571 0.0105891 0.0004429 -0.0105891
1386327 0.0004292 -0.0101238 0.9995708 0.0101238 0.9995708 0.0101238 0.0004292 -0.0101238
1449809 0.0004165 -0.0096785 0.9995835 0.0096785 0.9995835 0.0096785 0.0004165 -0.0096785
1516199 0.0004049 -0.0092524 0.9995951 0.0092524 0.9995951 0.0092524 0.0004049 -0.0092524
1585629 0.0003941 -0.0088446 0.9996059 0.0088446 0.9996059 0.0088446 0.0003941 -0.0088446
1658239 0.0003843 -0.0084544 0.9996157 0.0084544 0.9996157 0.0084544 0.0003843 -0.0084544
1734173 0.0003752 -0.0080809 0.9996248 0.0080809 0.9996248 0.0080809 0.0003752 -0.0080809
1813585 0.0003669 -0.0077235 0.9996331 0.0077235 0.9996331 0.0077235 0.0003669 -0.0077235
1896632 0.0003592 -0.0073814 0.9996408 0.0073814 0.9996408 0.0073814 0.0003592 -0.0073814
1983483 0.0003522 -0.0070540 0.9996478 0.0070540 0.9996478 0.0070540 0.0003522 -0.0070540
2074311 0.0003457 -0.0067406 0.9996543 0.0067406 0.9996543 0.0067406 0.0003457 -0.0067406
