!Murata Part Number: GRM155B30J475ME87
!These Parameters are Measured in Series Mode Connection
!Data Generated on Mar 30, 2021
!       o--ll--o
!Port1            Port2
!       o------o
!Operation Temp=25[degC], DC Bias Voltage=0[V]
!Freq. Start=100[Hz] Stop=6[GHz] 401[Steps]
# Hz S RI R 50
!Freq.(Hz) S11(Real) S11(Imag) S21(Real) S21(Imag) S12(Real) S12(Imag) S22(Real) S22(Imag)
100 0.9411694 -0.2294654 0.0588306 0.2294654 0.0588306 0.2294654 0.9411694 -0.2294654
105 0.9361851 -0.2386113 0.0638149 0.2386113 0.0638149 0.2386113 0.9361851 -0.2386113
109 0.9308003 -0.2480069 0.0691997 0.2480069 0.0691997 0.2480069 0.9308003 -0.2480069
114 0.9249885 -0.2576431 0.0750115 0.2576431 0.0750115 0.2576431 0.9249885 -0.2576431
120 0.9187224 -0.2675087 0.0812776 0.2675087 0.0812776 0.2675087 0.9187224 -0.2675087
125 0.9119743 -0.2775897 0.0880257 0.2775897 0.0880257 0.2775897 0.9119743 -0.2775897
131 0.9047159 -0.2878690 0.0952841 0.2878690 0.0952841 0.2878690 0.9047159 -0.2878690
137 0.8969191 -0.2983266 0.1030809 0.2983266 0.1030809 0.2983266 0.8969191 -0.2983266
143 0.8885557 -0.3089392 0.1114443 0.3089392 0.1114443 0.3089392 0.8885557 -0.3089392
150 0.8795984 -0.3196798 0.1204016 0.3196798 0.1204016 0.3196798 0.8795984 -0.3196798
156 0.8700205 -0.3305179 0.1299795 0.3305179 0.1299795 0.3305179 0.8700205 -0.3305179
164 0.8597971 -0.3414192 0.1402029 0.3414192 0.1402029 0.3414192 0.8597971 -0.3414192
171 0.8489048 -0.3523454 0.1510952 0.3523454 0.1510952 0.3523454 0.8489048 -0.3523454
179 0.8373226 -0.3632545 0.1626774 0.3632545 0.1626774 0.3632545 0.8373226 -0.3632545
187 0.8250328 -0.3741005 0.1749672 0.3741005 0.1749672 0.3741005 0.8250328 -0.3741005
196 0.8120207 -0.3848341 0.1879793 0.3848341 0.1879793 0.3848341 0.8120207 -0.3848341
205 0.7982761 -0.3954021 0.2017239 0.3954021 0.2017239 0.3954021 0.7982761 -0.3954021
214 0.7837933 -0.4057486 0.2162067 0.4057486 0.2162067 0.4057486 0.7837933 -0.4057486
224 0.7685719 -0.4158145 0.2314281 0.4158145 0.2314281 0.4158145 0.7685719 -0.4158145
234 0.7526173 -0.4255391 0.2473827 0.4255391 0.2473827 0.4255391 0.7526173 -0.4255391
245 0.7359414 -0.4348597 0.2640586 0.4348597 0.2640586 0.4348597 0.7359414 -0.4348597
256 0.7185625 -0.4437131 0.2814375 0.4437131 0.2814375 0.4437131 0.7185625 -0.4437131
268 0.7005061 -0.4520358 0.2994939 0.4520358 0.2994939 0.4520358 0.7005061 -0.4520358
280 0.6818051 -0.4597656 0.3181949 0.4597656 0.3181949 0.4597656 0.6818051 -0.4597656
293 0.6624995 -0.4668419 0.3375005 0.4668419 0.3375005 0.4668419 0.6624995 -0.4668419
306 0.6426366 -0.4732071 0.3573634 0.4732071 0.3573634 0.4732071 0.6426366 -0.4732071
320 0.6222707 -0.4788076 0.3777293 0.4788076 0.3777293 0.4788076 0.6222707 -0.4788076
335 0.6014628 -0.4835945 0.3985372 0.4835945 0.3985372 0.4835945 0.6014628 -0.4835945
350 0.5802800 -0.4875251 0.4197200 0.4875251 0.4197200 0.4875251 0.5802800 -0.4875251
366 0.5587943 -0.4905633 0.4412057 0.4905633 0.4412057 0.4905633 0.5587943 -0.4905633
383 0.5370826 -0.4926805 0.4629174 0.4926805 0.4629174 0.4926805 0.5370826 -0.4926805
401 0.5152248 -0.4938562 0.4847752 0.4938562 0.4847752 0.4938562 0.5152248 -0.4938562
419 0.4933034 -0.4940789 0.5066966 0.4940789 0.5066966 0.4940789 0.4933034 -0.4940789
438 0.4714016 -0.4933458 0.5285984 0.4933458 0.5285984 0.4933458 0.4714016 -0.4933458
458 0.4496028 -0.4916629 0.5503972 0.4916629 0.5503972 0.4916629 0.4496028 -0.4916629
479 0.4279887 -0.4890455 0.5720113 0.4890455 0.5720113 0.4890455 0.4279887 -0.4890455
501 0.4066386 -0.4855173 0.5933614 0.4855173 0.5933614 0.4855173 0.4066386 -0.4855173
524 0.3856280 -0.4811100 0.6143720 0.4811100 0.6143720 0.4811100 0.3856280 -0.4811100
548 0.3650276 -0.4758629 0.6349724 0.4758629 0.6349724 0.4758629 0.3650276 -0.4758629
573 0.3449026 -0.4698219 0.6550974 0.4698219 0.6550974 0.4698219 0.3449026 -0.4698219
600 0.3253117 -0.4630384 0.6746883 0.4630384 0.6746883 0.4630384 0.3253117 -0.4630384
627 0.3063069 -0.4555686 0.6936931 0.4555686 0.6936931 0.4555686 0.3063069 -0.4555686
656 0.2879327 -0.4474724 0.7120673 0.4474724 0.7120673 0.4474724 0.2879327 -0.4474724
686 0.2702263 -0.4388121 0.7297737 0.4388121 0.7297737 0.4388121 0.2702263 -0.4388121
717 0.2532172 -0.4296517 0.7467828 0.4296517 0.7467828 0.4296517 0.2532172 -0.4296517
750 0.2369277 -0.4200557 0.7630723 0.4200557 0.7630723 0.4200557 0.2369277 -0.4200557
784 0.2213730 -0.4100880 0.7786270 0.4100880 0.7786270 0.4100880 0.2213730 -0.4100880
820 0.2065614 -0.3998117 0.7934386 0.3998117 0.7934386 0.3998117 0.2065614 -0.3998117
858 0.1924950 -0.3892876 0.8075050 0.3892876 0.8075050 0.3892876 0.1924950 -0.3892876
897 0.1791703 -0.3785740 0.8208297 0.3785740 0.8208297 0.3785740 0.1791703 -0.3785740
938 0.1665785 -0.3677264 0.8334215 0.3677264 0.8334215 0.3677264 0.1665785 -0.3677264
981 0.1547065 -0.3567965 0.8452935 0.3567965 0.8452935 0.3567965 0.1547065 -0.3567965
1026 0.1435371 -0.3458326 0.8564629 0.3458326 0.8564629 0.3458326 0.1435371 -0.3458326
1073 0.1330501 -0.3348789 0.8669499 0.3348789 0.8669499 0.3348789 0.1330501 -0.3348789
1122 0.1232225 -0.3239757 0.8767775 0.3239757 0.8767775 0.3239757 0.1232225 -0.3239757
1174 0.1140292 -0.3131592 0.8859708 0.3131592 0.8859708 0.3131592 0.1140292 -0.3131592
1227 0.1054435 -0.3024619 0.8945565 0.3024619 0.8945565 0.3024619 0.1054435 -0.3024619
1283 0.0974378 -0.2919121 0.9025622 0.2919121 0.9025622 0.2919121 0.0974378 -0.2919121
1342 0.0899835 -0.2815347 0.9100165 0.2815347 0.9100165 0.2815347 0.0899835 -0.2815347
1404 0.0830519 -0.2713511 0.9169481 0.2713511 0.9169481 0.2713511 0.0830519 -0.2713511
1468 0.0766144 -0.2613792 0.9233856 0.2613792 0.9233856 0.2613792 0.0766144 -0.2613792
1535 0.0706425 -0.2516341 0.9293575 0.2516341 0.9293575 0.2516341 0.0706425 -0.2516341
1606 0.0651083 -0.2421280 0.9348917 0.2421280 0.9348917 0.2421280 0.0651083 -0.2421280
1679 0.0599847 -0.2328704 0.9400153 0.2328704 0.9400153 0.2328704 0.0599847 -0.2328704
1756 0.0552452 -0.2238686 0.9447548 0.2238686 0.9447548 0.2238686 0.0552452 -0.2238686
1836 0.0508647 -0.2151279 0.9491353 0.2151279 0.9491353 0.2151279 0.0508647 -0.2151279
1920 0.0468189 -0.2066515 0.9531811 0.2066515 0.9531811 0.2066515 0.0468189 -0.2066515
2008 0.0430845 -0.1984410 0.9569155 0.1984410 0.9569155 0.1984410 0.0430845 -0.1984410
2100 0.0396396 -0.1904967 0.9603604 0.1904967 0.9603604 0.1904967 0.0396396 -0.1904967
2196 0.0364635 -0.1828174 0.9635365 0.1828174 0.9635365 0.1828174 0.0364635 -0.1828174
2297 0.0335366 -0.1754009 0.9664634 0.1754009 0.9664634 0.1754009 0.0335366 -0.1754009
2402 0.0308403 -0.1682441 0.9691597 0.1682441 0.9691597 0.1682441 0.0308403 -0.1682441
2512 0.0283575 -0.1613430 0.9716425 0.1613430 0.9716425 0.1613430 0.0283575 -0.1613430
2627 0.0260719 -0.1546929 0.9739281 0.1546929 0.9739281 0.1546929 0.0260719 -0.1546929
2748 0.0239685 -0.1482888 0.9760315 0.1482888 0.9760315 0.1482888 0.0239685 -0.1482888
2873 0.0220331 -0.1421248 0.9779669 0.1421248 0.9779669 0.1421248 0.0220331 -0.1421248
3005 0.0202529 -0.1361952 0.9797471 0.1361952 0.9797471 0.1361952 0.0202529 -0.1361952
3143 0.0186155 -0.1304936 0.9813845 0.1304936 0.9813845 0.1304936 0.0186155 -0.1304936
3287 0.0171099 -0.1250135 0.9828901 0.1250135 0.9828901 0.1250135 0.0171099 -0.1250135
3437 0.0157256 -0.1197484 0.9842744 0.1197484 0.9842744 0.1197484 0.0157256 -0.1197484
3594 0.0144529 -0.1146916 0.9855471 0.1146916 0.9855471 0.1146916 0.0144529 -0.1146916
3759 0.0132831 -0.1098365 0.9867169 0.1098365 0.9867169 0.1098365 0.0132831 -0.1098365
3931 0.0122078 -0.1051763 0.9877922 0.1051763 0.9877922 0.1051763 0.0122078 -0.1051763
4111 0.0112197 -0.1007044 0.9887803 0.1007044 0.9887803 0.1007044 0.0112197 -0.1007044
4299 0.0103117 -0.0964143 0.9896883 0.0964143 0.9896883 0.0964143 0.0103117 -0.0964143
4496 0.0094774 -0.0922994 0.9905226 0.0922994 0.9905226 0.0922994 0.0094774 -0.0922994
4702 0.0087108 -0.0883535 0.9912892 0.0883535 0.9912892 0.0883535 0.0087108 -0.0883535
4918 0.0080067 -0.0845703 0.9919933 0.0845703 0.9919933 0.0845703 0.0080067 -0.0845703
5143 0.0073599 -0.0809438 0.9926401 0.0809438 0.9926401 0.0809438 0.0073599 -0.0809438
5378 0.0067660 -0.0774681 0.9932340 0.0774681 0.9932340 0.0774681 0.0067660 -0.0774681
5625 0.0062205 -0.0741373 0.9937795 0.0741373 0.9937795 0.0741373 0.0062205 -0.0741373
5882 0.0057196 -0.0709460 0.9942804 0.0709460 0.9942804 0.0709460 0.0057196 -0.0709460
6151 0.0052598 -0.0678886 0.9947402 0.0678886 0.9947402 0.0678886 0.0052598 -0.0678886
6433 0.0048378 -0.0649600 0.9951622 0.0649600 0.9951622 0.0649600 0.0048378 -0.0649600
6728 0.0044504 -0.0621551 0.9955496 0.0621551 0.9955496 0.0621551 0.0044504 -0.0621551
7036 0.0040949 -0.0594688 0.9959051 0.0594688 0.9959051 0.0594688 0.0040949 -0.0594688
7358 0.0037687 -0.0568966 0.9962313 0.0568966 0.9962313 0.0568966 0.0037687 -0.0568966
7695 0.0034694 -0.0544337 0.9965306 0.0544337 0.9965306 0.0544337 0.0034694 -0.0544337
8047 0.0031948 -0.0520758 0.9968052 0.0520758 0.9968052 0.0520758 0.0031948 -0.0520758
8416 0.0029429 -0.0498186 0.9970571 0.0498186 0.9970571 0.0498186 0.0029429 -0.0498186
8801 0.0027119 -0.0476580 0.9972881 0.0476580 0.9972881 0.0476580 0.0027119 -0.0476580
9204 0.0025001 -0.0455900 0.9974999 0.0455900 0.9974999 0.0455900 0.0025001 -0.0455900
9626 0.0023058 -0.0436108 0.9976942 0.0436108 0.9976942 0.0436108 0.0023058 -0.0436108
10066 0.0021276 -0.0417166 0.9978724 0.0417166 0.9978724 0.0417166 0.0021276 -0.0417166
10527 0.0019642 -0.0399041 0.9980358 0.0399041 0.9980358 0.0399041 0.0019642 -0.0399041
11009 0.0018144 -0.0381697 0.9981856 0.0381697 0.9981856 0.0381697 0.0018144 -0.0381697
11514 0.0016770 -0.0365102 0.9983230 0.0365102 0.9983230 0.0365102 0.0016770 -0.0365102
12041 0.0015510 -0.0349224 0.9984490 0.0349224 0.9984490 0.0349224 0.0015510 -0.0349224
12592 0.0014354 -0.0334033 0.9985646 0.0334033 0.9985646 0.0334033 0.0014354 -0.0334033
13169 0.0013294 -0.0319501 0.9986706 0.0319501 0.9986706 0.0319501 0.0013294 -0.0319501
13772 0.0012321 -0.0305598 0.9987679 0.0305598 0.9987679 0.0305598 0.0012321 -0.0305598
14402 0.0011428 -0.0292299 0.9988572 0.0292299 0.9988572 0.0292299 0.0011428 -0.0292299
15062 0.0010609 -0.0279578 0.9989391 0.0279578 0.9989391 0.0279578 0.0010609 -0.0279578
15752 0.0009856 -0.0267409 0.9990144 0.0267409 0.9990144 0.0267409 0.0009856 -0.0267409
16473 0.0009165 -0.0255770 0.9990835 0.0255770 0.9990835 0.0255770 0.0009165 -0.0255770
17227 0.0008530 -0.0244637 0.9991470 0.0244637 0.9991470 0.0244637 0.0008530 -0.0244637
18016 0.0007946 -0.0233988 0.9992054 0.0233988 0.9992054 0.0233988 0.0007946 -0.0233988
18841 0.0007409 -0.0223804 0.9992591 0.0223804 0.9992591 0.0223804 0.0007409 -0.0223804
19704 0.0006914 -0.0214063 0.9993086 0.0214063 0.9993086 0.0214063 0.0006914 -0.0214063
20606 0.0006459 -0.0204746 0.9993541 0.0204746 0.9993541 0.0204746 0.0006459 -0.0204746
21550 0.0006039 -0.0195836 0.9993961 0.0195836 0.9993961 0.0195836 0.0006039 -0.0195836
22537 0.0005652 -0.0187314 0.9994348 0.0187314 0.9994348 0.0187314 0.0005652 -0.0187314
23569 0.0005295 -0.0179163 0.9994705 0.0179163 0.9994705 0.0179163 0.0005295 -0.0179163
24648 0.0004965 -0.0171367 0.9995035 0.0171367 0.9995035 0.0171367 0.0004965 -0.0171367
25777 0.0004659 -0.0163911 0.9995341 0.0163911 0.9995341 0.0163911 0.0004659 -0.0163911
26957 0.0004377 -0.0156780 0.9995623 0.0156780 0.9995623 0.0156780 0.0004377 -0.0156780
28191 0.0004116 -0.0149960 0.9995884 0.0149960 0.9995884 0.0149960 0.0004116 -0.0149960
29482 0.0003873 -0.0143436 0.9996127 0.0143436 0.9996127 0.0143436 0.0003873 -0.0143436
30832 0.0003649 -0.0137197 0.9996351 0.0137197 0.9996351 0.0137197 0.0003649 -0.0137197
32244 0.0003440 -0.0131229 0.9996560 0.0131229 0.9996560 0.0131229 0.0003440 -0.0131229
33721 0.0003246 -0.0125520 0.9996754 0.0125520 0.9996754 0.0125520 0.0003246 -0.0125520
35265 0.0003066 -0.0120060 0.9996934 0.0120060 0.9996934 0.0120060 0.0003066 -0.0120060
36880 0.0002898 -0.0114837 0.9997102 0.0114837 0.9997102 0.0114837 0.0002898 -0.0114837
38569 0.0002743 -0.0109841 0.9997257 0.0109841 0.9997257 0.0109841 0.0002743 -0.0109841
40335 0.0002598 -0.0105062 0.9997402 0.0105062 0.9997402 0.0105062 0.0002598 -0.0105062
42182 0.0002463 -0.0100491 0.9997537 0.0100491 0.9997537 0.0100491 0.0002463 -0.0100491
44113 0.0002337 -0.0096118 0.9997663 0.0096118 0.9997663 0.0096118 0.0002337 -0.0096118
46134 0.0002220 -0.0091934 0.9997780 0.0091934 0.9997780 0.0091934 0.0002220 -0.0091934
48246 0.0002111 -0.0087933 0.9997889 0.0087933 0.9997889 0.0087933 0.0002111 -0.0087933
50455 0.0002009 -0.0084105 0.9997991 0.0084105 0.9997991 0.0084105 0.0002009 -0.0084105
52766 0.0001915 -0.0080443 0.9998085 0.0080443 0.9998085 0.0080443 0.0001915 -0.0080443
55182 0.0001827 -0.0076939 0.9998173 0.0076939 0.9998173 0.0076939 0.0001827 -0.0076939
57709 0.0001745 -0.0073588 0.9998255 0.0073588 0.9998255 0.0073588 0.0001745 -0.0073588
60352 0.0001669 -0.0070382 0.9998331 0.0070382 0.9998331 0.0070382 0.0001669 -0.0070382
63115 0.0001599 -0.0067315 0.9998401 0.0067315 0.9998401 0.0067315 0.0001599 -0.0067315
66005 0.0001533 -0.0064382 0.9998467 0.0064382 0.9998467 0.0064382 0.0001533 -0.0064382
69028 0.0001472 -0.0061575 0.9998528 0.0061575 0.9998528 0.0061575 0.0001472 -0.0061575
72189 0.0001415 -0.0058891 0.9998585 0.0058891 0.9998585 0.0058891 0.0001415 -0.0058891
75495 0.0001363 -0.0056323 0.9998637 0.0056323 0.9998637 0.0056323 0.0001363 -0.0056323
78952 0.0001314 -0.0053866 0.9998686 0.0053866 0.9998686 0.0053866 0.0001314 -0.0053866
82567 0.0001269 -0.0051517 0.9998731 0.0051517 0.9998731 0.0051517 0.0001269 -0.0051517
86348 0.0001227 -0.0049269 0.9998773 0.0049269 0.9998773 0.0049269 0.0001227 -0.0049269
90302 0.0001188 -0.0047119 0.9998812 0.0047119 0.9998812 0.0047119 0.0001188 -0.0047119
94437 0.0001152 -0.0045063 0.9998848 0.0045063 0.9998848 0.0045063 0.0001152 -0.0045063
98762 0.0001119 -0.0043096 0.9998881 0.0043096 0.9998881 0.0043096 0.0001119 -0.0043096
103284 0.0001088 -0.0041214 0.9998912 0.0041214 0.9998912 0.0041214 0.0001088 -0.0041214
108014 0.0001059 -0.0039415 0.9998941 0.0039415 0.9998941 0.0039415 0.0001059 -0.0039415
112960 0.0001032 -0.0037694 0.9998968 0.0037694 0.9998968 0.0037694 0.0001032 -0.0037694
118133 0.0001008 -0.0036048 0.9998992 0.0036048 0.9998992 0.0036048 0.0001008 -0.0036048
123542 0.0000985 -0.0034473 0.9999015 0.0034473 0.9999015 0.0034473 0.0000985 -0.0034473
129199 0.0000963 -0.0032968 0.9999037 0.0032968 0.9999037 0.0032968 0.0000963 -0.0032968
135116 0.0000943 -0.0031527 0.9999057 0.0031527 0.9999057 0.0031527 0.0000943 -0.0031527
141303 0.0000925 -0.0030150 0.9999075 0.0030150 0.9999075 0.0030150 0.0000925 -0.0030150
147774 0.0000907 -0.0028833 0.9999093 0.0028833 0.9999093 0.0028833 0.0000907 -0.0028833
154540 0.0000891 -0.0027572 0.9999109 0.0027572 0.9999109 0.0027572 0.0000891 -0.0027572
161617 0.0000876 -0.0026367 0.9999124 0.0026367 0.9999124 0.0026367 0.0000876 -0.0026367
169018 0.0000862 -0.0025215 0.9999138 0.0025215 0.9999138 0.0025215 0.0000862 -0.0025215
176758 0.0000848 -0.0024112 0.9999152 0.0024112 0.9999152 0.0024112 0.0000848 -0.0024112
184852 0.0000835 -0.0023058 0.9999165 0.0023058 0.9999165 0.0023058 0.0000835 -0.0023058
193316 0.0000823 -0.0022049 0.9999177 0.0022049 0.9999177 0.0022049 0.0000823 -0.0022049
202169 0.0000812 -0.0021084 0.9999188 0.0021084 0.9999188 0.0021084 0.0000812 -0.0021084
211427 0.0000801 -0.0020162 0.9999199 0.0020162 0.9999199 0.0020162 0.0000801 -0.0020162
221108 0.0000791 -0.0019279 0.9999209 0.0019279 0.9999209 0.0019279 0.0000791 -0.0019279
231233 0.0000781 -0.0018434 0.9999219 0.0018434 0.9999219 0.0018434 0.0000781 -0.0018434
241822 0.0000771 -0.0017626 0.9999229 0.0017626 0.9999229 0.0017626 0.0000771 -0.0017626
252896 0.0000762 -0.0016854 0.9999238 0.0016854 0.9999238 0.0016854 0.0000762 -0.0016854
264476 0.0000753 -0.0016114 0.9999247 0.0016114 0.9999247 0.0016114 0.0000753 -0.0016114
276587 0.0000745 -0.0015407 0.9999255 0.0015407 0.9999255 0.0015407 0.0000745 -0.0015407
289253 0.0000736 -0.0014729 0.9999264 0.0014729 0.9999264 0.0014729 0.0000736 -0.0014729
302498 0.0000729 -0.0014081 0.9999271 0.0014081 0.9999271 0.0014081 0.0000729 -0.0014081
316350 0.0000721 -0.0013461 0.9999279 0.0013461 0.9999279 0.0013461 0.0000721 -0.0013461
330837 0.0000713 -0.0012868 0.9999287 0.0012868 0.9999287 0.0012868 0.0000713 -0.0012868
345986 0.0000706 -0.0012300 0.9999294 0.0012300 0.9999294 0.0012300 0.0000706 -0.0012300
361830 0.0000699 -0.0011756 0.9999301 0.0011756 0.9999301 0.0011756 0.0000699 -0.0011756
378399 0.0000693 -0.0011235 0.9999307 0.0011235 0.9999307 0.0011235 0.0000693 -0.0011235
395726 0.0000686 -0.0010736 0.9999314 0.0010736 0.9999314 0.0010736 0.0000686 -0.0010736
413847 0.0000680 -0.0010259 0.9999320 0.0010259 0.9999320 0.0010259 0.0000680 -0.0010259
432798 0.0000674 -0.0009801 0.9999326 0.0009801 0.9999326 0.0009801 0.0000674 -0.0009801
452617 0.0000668 -0.0009363 0.9999332 0.0009363 0.9999332 0.0009363 0.0000668 -0.0009363
473344 0.0000663 -0.0008944 0.9999337 0.0008944 0.9999337 0.0008944 0.0000663 -0.0008944
495019 0.0000658 -0.0008541 0.9999342 0.0008541 0.9999342 0.0008541 0.0000658 -0.0008541
517687 0.0000653 -0.0008156 0.9999347 0.0008156 0.9999347 0.0008156 0.0000653 -0.0008156
541393 0.0000648 -0.0007787 0.9999352 0.0007787 0.9999352 0.0007787 0.0000648 -0.0007787
566185 0.0000644 -0.0007433 0.9999356 0.0007433 0.9999356 0.0007433 0.0000644 -0.0007433
592111 0.0000639 -0.0007093 0.9999361 0.0007093 0.9999361 0.0007093 0.0000639 -0.0007093
619225 0.0000635 -0.0006768 0.9999365 0.0006768 0.9999365 0.0006768 0.0000635 -0.0006768
647581 0.0000632 -0.0006456 0.9999368 0.0006456 0.9999368 0.0006456 0.0000632 -0.0006456
677235 0.0000628 -0.0006156 0.9999372 0.0006156 0.9999372 0.0006156 0.0000628 -0.0006156
708247 0.0000625 -0.0005869 0.9999375 0.0005869 0.9999375 0.0005869 0.0000625 -0.0005869
740679 0.0000622 -0.0005593 0.9999378 0.0005593 0.9999378 0.0005593 0.0000622 -0.0005593
774597 0.0000620 -0.0005328 0.9999380 0.0005328 0.9999380 0.0005328 0.0000620 -0.0005328
810067 0.0000618 -0.0005074 0.9999382 0.0005074 0.9999382 0.0005074 0.0000618 -0.0005074
847162 0.0000615 -0.0004829 0.9999385 0.0004829 0.9999385 0.0004829 0.0000615 -0.0004829
885955 0.0000614 -0.0004595 0.9999386 0.0004595 0.9999386 0.0004595 0.0000614 -0.0004595
926525 0.0000612 -0.0004369 0.9999388 0.0004369 0.9999388 0.0004369 0.0000612 -0.0004369
968953 0.0000611 -0.0004152 0.9999389 0.0004152 0.9999389 0.0004152 0.0000611 -0.0004152
1013323 0.0000610 -0.0003943 0.9999390 0.0003943 0.9999390 0.0003943 0.0000610 -0.0003943
1059725 0.0000609 -0.0003742 0.9999391 0.0003742 0.9999391 0.0003742 0.0000609 -0.0003742
1108252 0.0000608 -0.0003548 0.9999392 0.0003548 0.9999392 0.0003548 0.0000608 -0.0003548
1159002 0.0000608 -0.0003362 0.9999392 0.0003362 0.9999392 0.0003362 0.0000608 -0.0003362
1212075 0.0000608 -0.0003182 0.9999392 0.0003182 0.9999392 0.0003182 0.0000608 -0.0003182
1267578 0.0000609 -0.0003008 0.9999391 0.0003008 0.9999391 0.0003008 0.0000609 -0.0003008
1325623 0.0000609 -0.0002841 0.9999391 0.0002841 0.9999391 0.0002841 0.0000609 -0.0002841
1386327 0.0000610 -0.0002679 0.9999390 0.0002679 0.9999390 0.0002679 0.0000610 -0.0002679
1449809 0.0000611 -0.0002522 0.9999389 0.0002522 0.9999389 0.0002522 0.0000611 -0.0002522
1516199 0.0000613 -0.0002371 0.9999387 0.0002371 0.9999387 0.0002371 0.0000613 -0.0002371
1585629 0.0000615 -0.0002224 0.9999385 0.0002224 0.9999385 0.0002224 0.0000615 -0.0002224
1658239 0.0000617 -0.0002082 0.9999383 0.0002082 0.9999383 0.0002082 0.0000617 -0.0002082
1734173 0.0000619 -0.0001944 0.9999381 0.0001944 0.9999381 0.0001944 0.0000619 -0.0001944
1813585 0.0000622 -0.0001809 0.9999378 0.0001809 0.9999378 0.0001809 0.0000622 -0.0001809
1896632 0.0000626 -0.0001679 0.9999374 0.0001679 0.9999374 0.0001679 0.0000626 -0.0001679
1983483 0.0000630 -0.0001551 0.9999370 0.0001551 0.9999370 0.0001551 0.0000630 -0.0001551
2074311 0.0000634 -0.0001427 0.9999366 0.0001427 0.9999366 0.0001427 0.0000634 -0.0001427
