!Murata Part Number: GRM155R61A473KA01
!These Parameters are Measured in Series Mode Connection
!Data Generated on Mar 30, 2021
!       o--ll--o
!Port1            Port2
!       o------o
!Operation Temp=25[degC], DC Bias Voltage=0[V]
!Freq. Start=100[Hz] Stop=6[GHz] 401[Steps]
# Hz S RI R 50
!Freq.(Hz) S11(Real) S11(Imag) S21(Real) S21(Imag) S12(Real) S12(Imag) S22(Real) S22(Imag)
100 0.9999763 -0.0027883 0.0000237 0.0027883 0.0000237 0.0027883 0.9999763 -0.0027883
105 0.9999748 -0.0029155 0.0000252 0.0029155 0.0000252 0.0029155 0.9999748 -0.0029155
109 0.9999733 -0.0030484 0.0000267 0.0030484 0.0000267 0.0030484 0.9999733 -0.0030484
114 0.9999716 -0.0031875 0.0000284 0.0031875 0.0000284 0.0031875 0.9999716 -0.0031875
120 0.9999698 -0.0033329 0.0000302 0.0033329 0.0000302 0.0033329 0.9999698 -0.0033329
125 0.9999679 -0.0034849 0.0000321 0.0034849 0.0000321 0.0034849 0.9999679 -0.0034849
131 0.9999659 -0.0036438 0.0000341 0.0036438 0.0000341 0.0036438 0.9999659 -0.0036438
137 0.9999637 -0.0038100 0.0000363 0.0038100 0.0000363 0.0038100 0.9999637 -0.0038100
143 0.9999613 -0.0039838 0.0000387 0.0039838 0.0000387 0.0039838 0.9999613 -0.0039838
150 0.9999588 -0.0041655 0.0000412 0.0041655 0.0000412 0.0041655 0.9999588 -0.0041655
156 0.9999561 -0.0043555 0.0000439 0.0043555 0.0000439 0.0043555 0.9999561 -0.0043555
164 0.9999533 -0.0045541 0.0000467 0.0045541 0.0000467 0.0045541 0.9999533 -0.0045541
171 0.9999502 -0.0047618 0.0000498 0.0047618 0.0000498 0.0047618 0.9999502 -0.0047618
179 0.9999469 -0.0049790 0.0000531 0.0049790 0.0000531 0.0049790 0.9999469 -0.0049790
187 0.9999433 -0.0052061 0.0000567 0.0052061 0.0000567 0.0052061 0.9999433 -0.0052061
196 0.9999395 -0.0054436 0.0000605 0.0054436 0.0000605 0.0054436 0.9999395 -0.0054436
205 0.9999354 -0.0056919 0.0000646 0.0056919 0.0000646 0.0056919 0.9999354 -0.0056919
214 0.9999310 -0.0059515 0.0000690 0.0059515 0.0000690 0.0059515 0.9999310 -0.0059515
224 0.9999262 -0.0062230 0.0000738 0.0062230 0.0000738 0.0062230 0.9999262 -0.0062230
234 0.9999211 -0.0065069 0.0000789 0.0065069 0.0000789 0.0065069 0.9999211 -0.0065069
245 0.9999156 -0.0068037 0.0000844 0.0068037 0.0000844 0.0068037 0.9999156 -0.0068037
256 0.9999096 -0.0071141 0.0000904 0.0071141 0.0000904 0.0071141 0.9999096 -0.0071141
268 0.9999032 -0.0074387 0.0000968 0.0074387 0.0000968 0.0074387 0.9999032 -0.0074387
280 0.9998962 -0.0077781 0.0001038 0.0077781 0.0001038 0.0077781 0.9998962 -0.0077781
293 0.9998887 -0.0081330 0.0001113 0.0081330 0.0001113 0.0081330 0.9998887 -0.0081330
306 0.9998805 -0.0085041 0.0001195 0.0085041 0.0001195 0.0085041 0.9998805 -0.0085041
320 0.9998717 -0.0088921 0.0001283 0.0088921 0.0001283 0.0088921 0.9998717 -0.0088921
335 0.9998621 -0.0092978 0.0001379 0.0092978 0.0001379 0.0092978 0.9998621 -0.0092978
350 0.9998517 -0.0097221 0.0001483 0.0097221 0.0001483 0.0097221 0.9998517 -0.0097221
366 0.9998404 -0.0101657 0.0001596 0.0101657 0.0001596 0.0101657 0.9998404 -0.0101657
383 0.9998282 -0.0106295 0.0001718 0.0106295 0.0001718 0.0106295 0.9998282 -0.0106295
401 0.9998149 -0.0111145 0.0001851 0.0111145 0.0001851 0.0111145 0.9998149 -0.0111145
419 0.9998004 -0.0116216 0.0001996 0.0116216 0.0001996 0.0116216 0.9998004 -0.0116216
438 0.9997847 -0.0121518 0.0002153 0.0121518 0.0002153 0.0121518 0.9997847 -0.0121518
458 0.9997677 -0.0127062 0.0002323 0.0127062 0.0002323 0.0127062 0.9997677 -0.0127062
479 0.9997492 -0.0132858 0.0002508 0.0132858 0.0002508 0.0132858 0.9997492 -0.0132858
501 0.9997291 -0.0138917 0.0002709 0.0138917 0.0002709 0.0138917 0.9997291 -0.0138917
524 0.9997072 -0.0145253 0.0002928 0.0145253 0.0002928 0.0145253 0.9997072 -0.0145253
548 0.9996834 -0.0151877 0.0003166 0.0151877 0.0003166 0.0151877 0.9996834 -0.0151877
573 0.9996576 -0.0158802 0.0003424 0.0158802 0.0003424 0.0158802 0.9996576 -0.0158802
600 0.9996296 -0.0166041 0.0003704 0.0166041 0.0003704 0.0166041 0.9996296 -0.0166041
627 0.9995991 -0.0173610 0.0004009 0.0173610 0.0004009 0.0173610 0.9995991 -0.0173610
656 0.9995660 -0.0181523 0.0004340 0.0181523 0.0004340 0.0181523 0.9995660 -0.0181523
686 0.9995301 -0.0189795 0.0004699 0.0189795 0.0004699 0.0189795 0.9995301 -0.0189795
717 0.9994910 -0.0198443 0.0005090 0.0198443 0.0005090 0.0198443 0.9994910 -0.0198443
750 0.9994486 -0.0207484 0.0005514 0.0207484 0.0005514 0.0207484 0.9994486 -0.0207484
784 0.9994025 -0.0216934 0.0005975 0.0216934 0.0005975 0.0216934 0.9994025 -0.0216934
820 0.9993525 -0.0226814 0.0006475 0.0226814 0.0006475 0.0226814 0.9993525 -0.0226814
858 0.9992981 -0.0237142 0.0007019 0.0237142 0.0007019 0.0237142 0.9992981 -0.0237142
897 0.9992391 -0.0247939 0.0007609 0.0247939 0.0007609 0.0247939 0.9992391 -0.0247939
938 0.9991749 -0.0259226 0.0008251 0.0259226 0.0008251 0.0259226 0.9991749 -0.0259226
981 0.9991052 -0.0271024 0.0008948 0.0271024 0.0008948 0.0271024 0.9991052 -0.0271024
1026 0.9990294 -0.0283357 0.0009706 0.0283357 0.0009706 0.0283357 0.9990294 -0.0283357
1073 0.9989470 -0.0296250 0.0010530 0.0296250 0.0010530 0.0296250 0.9989470 -0.0296250
1122 0.9988575 -0.0309727 0.0011425 0.0309727 0.0011425 0.0309727 0.9988575 -0.0309727
1174 0.9987601 -0.0323815 0.0012399 0.0323815 0.0012399 0.0323815 0.9987601 -0.0323815
1227 0.9986541 -0.0338541 0.0013459 0.0338541 0.0013459 0.0338541 0.9986541 -0.0338541
1283 0.9985389 -0.0353935 0.0014611 0.0353935 0.0014611 0.0353935 0.9985389 -0.0353935
1342 0.9984134 -0.0370025 0.0015866 0.0370025 0.0015866 0.0370025 0.9984134 -0.0370025
1404 0.9982769 -0.0386844 0.0017231 0.0386844 0.0017231 0.0386844 0.9982769 -0.0386844
1468 0.9981282 -0.0404423 0.0018718 0.0404423 0.0018718 0.0404423 0.9981282 -0.0404423
1535 0.9979662 -0.0422797 0.0020338 0.0422797 0.0020338 0.0422797 0.9979662 -0.0422797
1606 0.9977897 -0.0442001 0.0022103 0.0442001 0.0022103 0.0442001 0.9977897 -0.0442001
1679 0.9975974 -0.0462071 0.0024026 0.0462071 0.0024026 0.0462071 0.9975974 -0.0462071
1756 0.9973878 -0.0483046 0.0026122 0.0483046 0.0026122 0.0483046 0.9973878 -0.0483046
1836 0.9971592 -0.0504966 0.0028408 0.0504966 0.0028408 0.0504966 0.9971592 -0.0504966
1920 0.9969100 -0.0527872 0.0030900 0.0527872 0.0030900 0.0527872 0.9969100 -0.0527872
2008 0.9966382 -0.0551806 0.0033618 0.0551806 0.0033618 0.0551806 0.9966382 -0.0551806
2100 0.9963417 -0.0576812 0.0036583 0.0576812 0.0036583 0.0576812 0.9963417 -0.0576812
2196 0.9960182 -0.0602938 0.0039818 0.0602938 0.0039818 0.0602938 0.9960182 -0.0602938
2297 0.9956653 -0.0630230 0.0043347 0.0630230 0.0043347 0.0630230 0.9956653 -0.0630230
2402 0.9952802 -0.0658738 0.0047198 0.0658738 0.0047198 0.0658738 0.9952802 -0.0658738
2512 0.9948600 -0.0688512 0.0051400 0.0688512 0.0051400 0.0688512 0.9948600 -0.0688512
2627 0.9944015 -0.0719606 0.0055985 0.0719606 0.0055985 0.0719606 0.9944015 -0.0719606
2748 0.9939011 -0.0752073 0.0060989 0.0752073 0.0060989 0.0752073 0.9939011 -0.0752073
2873 0.9933551 -0.0785969 0.0066449 0.0785969 0.0066449 0.0785969 0.9933551 -0.0785969
3005 0.9927592 -0.0821351 0.0072408 0.0821351 0.0072408 0.0821351 0.9927592 -0.0821351
3143 0.9921091 -0.0858279 0.0078909 0.0858279 0.0078909 0.0858279 0.9921091 -0.0858279
3287 0.9913998 -0.0896812 0.0086002 0.0896812 0.0086002 0.0896812 0.9913998 -0.0896812
3437 0.9906260 -0.0937012 0.0093740 0.0937012 0.0093740 0.0937012 0.9906260 -0.0937012
3594 0.9897819 -0.0978943 0.0102181 0.0978943 0.0102181 0.0978943 0.9897819 -0.0978943
3759 0.9888613 -0.1022667 0.0111387 0.1022667 0.0111387 0.1022667 0.9888613 -0.1022667
3931 0.9878575 -0.1068249 0.0121425 0.1068249 0.0121425 0.1068249 0.9878575 -0.1068249
4111 0.9867630 -0.1115756 0.0132370 0.1115756 0.0132370 0.1115756 0.9867630 -0.1115756
4299 0.9855700 -0.1165253 0.0144300 0.1165253 0.0144300 0.1165253 0.9855700 -0.1165253
4496 0.9842699 -0.1216805 0.0157301 0.1216805 0.0157301 0.1216805 0.9842699 -0.1216805
4702 0.9828534 -0.1270480 0.0171466 0.1270480 0.0171466 0.1270480 0.9828534 -0.1270480
4918 0.9813105 -0.1326340 0.0186895 0.1326340 0.0186895 0.1326340 0.9813105 -0.1326340
5143 0.9796304 -0.1384452 0.0203696 0.1384452 0.0203696 0.1384452 0.9796304 -0.1384452
5378 0.9778016 -0.1444877 0.0221984 0.1444877 0.0221984 0.1444877 0.9778016 -0.1444877
5625 0.9758115 -0.1507674 0.0241885 0.1507674 0.0241885 0.1507674 0.9758115 -0.1507674
5882 0.9736468 -0.1572902 0.0263532 0.1572902 0.0263532 0.1572902 0.9736468 -0.1572902
6151 0.9712929 -0.1640613 0.0287071 0.1640613 0.0287071 0.1640613 0.9712929 -0.1640613
6433 0.9687346 -0.1710855 0.0312654 0.1710855 0.0312654 0.1710855 0.9687346 -0.1710855
6728 0.9659554 -0.1783672 0.0340446 0.1783672 0.0340446 0.1783672 0.9659554 -0.1783672
7036 0.9629377 -0.1859100 0.0370623 0.1859100 0.0370623 0.1859100 0.9629377 -0.1859100
7358 0.9596628 -0.1937165 0.0403372 0.1937165 0.0403372 0.1937165 0.9596628 -0.1937165
7695 0.9561108 -0.2017887 0.0438892 0.2017887 0.0438892 0.2017887 0.9561108 -0.2017887
8047 0.9522607 -0.2101271 0.0477393 0.2101271 0.0477393 0.2101271 0.9522607 -0.2101271
8416 0.9480903 -0.2187312 0.0519097 0.2187312 0.0519097 0.2187312 0.9480903 -0.2187312
8801 0.9435762 -0.2275988 0.0564238 0.2275988 0.0564238 0.2275988 0.9435762 -0.2275988
9204 0.9386940 -0.2367263 0.0613060 0.2367263 0.0613060 0.2367263 0.9386940 -0.2367263
9626 0.9334181 -0.2461078 0.0665819 0.2461078 0.0665819 0.2461078 0.9334181 -0.2461078
10066 0.9277219 -0.2557357 0.0722781 0.2557357 0.0722781 0.2557357 0.9277219 -0.2557357
10527 0.9215780 -0.2655996 0.0784220 0.2655996 0.0784220 0.2655996 0.9215780 -0.2655996
11009 0.9149584 -0.2756869 0.0850416 0.2756869 0.0850416 0.2756869 0.9149584 -0.2756869
11514 0.9078343 -0.2859819 0.0921657 0.2859819 0.0921657 0.2859819 0.9078343 -0.2859819
12041 0.9001769 -0.2964657 0.0998231 0.2964657 0.0998231 0.2964657 0.9001769 -0.2964657
12592 0.8919571 -0.3071163 0.1080429 0.3071163 0.1080429 0.3071163 0.8919571 -0.3071163
13169 0.8831463 -0.3179080 0.1168537 0.3179080 0.1168537 0.3179080 0.8831463 -0.3179080
13772 0.8737167 -0.3288113 0.1262833 0.3288113 0.1262833 0.3288113 0.8737167 -0.3288113
14402 0.8636414 -0.3397927 0.1363586 0.3397927 0.1363586 0.3397927 0.8636414 -0.3397927
15062 0.8528954 -0.3508148 0.1471046 0.3508148 0.1471046 0.3508148 0.8528954 -0.3508148
15752 0.8414557 -0.3618362 0.1585443 0.3618362 0.1585443 0.3618362 0.8414557 -0.3618362
16473 0.8293022 -0.3728109 0.1706978 0.3728109 0.1706978 0.3728109 0.8293022 -0.3728109
17227 0.8164180 -0.3836895 0.1835820 0.3836895 0.1835820 0.3836895 0.8164180 -0.3836895
18016 0.8027905 -0.3944184 0.1972095 0.3944184 0.1972095 0.3944184 0.8027905 -0.3944184
18841 0.7884117 -0.4049407 0.2115883 0.4049407 0.2115883 0.4049407 0.7884117 -0.4049407
19704 0.7732788 -0.4151961 0.2267212 0.4151961 0.2267212 0.4151961 0.7732788 -0.4151961
20606 0.7573952 -0.4251221 0.2426048 0.4251221 0.2426048 0.4251221 0.7573952 -0.4251221
21550 0.7407707 -0.4346539 0.2592293 0.4346539 0.2592293 0.4346539 0.7407707 -0.4346539
22537 0.7234222 -0.4437259 0.2765778 0.4437259 0.2765778 0.4437259 0.7234222 -0.4437259
23569 0.7053739 -0.4522720 0.2946261 0.4522720 0.2946261 0.4522720 0.7053739 -0.4522720
24648 0.6866580 -0.4602268 0.3133420 0.4602268 0.3133420 0.4602268 0.6866580 -0.4602268
25777 0.6673142 -0.4675269 0.3326858 0.4675269 0.3326858 0.4675269 0.6673142 -0.4675269
26957 0.6473902 -0.4741113 0.3526098 0.4741113 0.3526098 0.4741113 0.6473902 -0.4741113
28191 0.6269410 -0.4799236 0.3730590 0.4799236 0.3730590 0.4799236 0.6269410 -0.4799236
29482 0.6060290 -0.4849120 0.3939710 0.4849120 0.3939710 0.4849120 0.6060290 -0.4849120
30832 0.5847228 -0.4890311 0.4152772 0.4890311 0.4152772 0.4890311 0.5847228 -0.4890311
32244 0.5630969 -0.4922425 0.4369031 0.4922425 0.4369031 0.4922425 0.5630969 -0.4922425
33721 0.5412304 -0.4945161 0.4587696 0.4945161 0.4587696 0.4945161 0.5412304 -0.4945161
35265 0.5192061 -0.4958299 0.4807939 0.4958299 0.4807939 0.4958299 0.5192061 -0.4958299
36880 0.4971090 -0.4961715 0.5028910 0.4961715 0.5028910 0.4961715 0.4971090 -0.4961715
38569 0.4750255 -0.4955378 0.5249745 0.4955378 0.5249745 0.4955378 0.4750255 -0.4955378
40335 0.4530413 -0.4939350 0.5469587 0.4939350 0.5469587 0.4939350 0.4530413 -0.4939350
42182 0.4312409 -0.4913789 0.5687591 0.4913789 0.5687591 0.4913789 0.4312409 -0.4913789
44113 0.4097058 -0.4878940 0.5902942 0.4878940 0.5902942 0.4878940 0.4097058 -0.4878940
46134 0.3885135 -0.4835134 0.6114865 0.4835134 0.6114865 0.4835134 0.3885135 -0.4835134
48246 0.3677365 -0.4782777 0.6322635 0.4782777 0.6322635 0.4782777 0.3677365 -0.4782777
50455 0.3474412 -0.4722342 0.6525588 0.4722342 0.6525588 0.4722342 0.3474412 -0.4722342
52766 0.3276875 -0.4654361 0.6723125 0.4654361 0.6723125 0.4654361 0.3276875 -0.4654361
55182 0.3085280 -0.4579411 0.6914720 0.4579411 0.6914720 0.4579411 0.3085280 -0.4579411
57709 0.2900077 -0.4498108 0.7099923 0.4498108 0.7099923 0.4498108 0.2900077 -0.4498108
60352 0.2721640 -0.4411088 0.7278360 0.4411088 0.7278360 0.4411088 0.2721640 -0.4411088
63115 0.2550264 -0.4319006 0.7449736 0.4319006 0.7449736 0.4319006 0.2550264 -0.4319006
66005 0.2386172 -0.4222518 0.7613828 0.4222518 0.7613828 0.4222518 0.2386172 -0.4222518
69028 0.2229510 -0.4122275 0.7770490 0.4122275 0.7770490 0.4122275 0.2229510 -0.4122275
72189 0.2080360 -0.4018916 0.7919640 0.4018916 0.7919640 0.4018916 0.2080360 -0.4018916
75495 0.1938740 -0.3913057 0.8061260 0.3913057 0.8061260 0.3913057 0.1938740 -0.3913057
78952 0.1804608 -0.3805290 0.8195392 0.3805290 0.8195392 0.3805290 0.1804608 -0.3805290
82567 0.1677873 -0.3696172 0.8322127 0.3696172 0.8322127 0.3696172 0.1677873 -0.3696172
86348 0.1558400 -0.3586228 0.8441600 0.3586228 0.8441600 0.3586228 0.1558400 -0.3586228
90302 0.1446014 -0.3475942 0.8553986 0.3475942 0.8553986 0.3475942 0.1446014 -0.3475942
94437 0.1340506 -0.3365761 0.8659494 0.3365761 0.8659494 0.3365761 0.1340506 -0.3365761
98762 0.1241645 -0.3256090 0.8758355 0.3256090 0.8758355 0.3256090 0.1241645 -0.3256090
103284 0.1149175 -0.3147295 0.8850825 0.3147295 0.8850825 0.3147295 0.1149175 -0.3147295
108014 0.1062828 -0.3039699 0.8937172 0.3039699 0.8937172 0.3039699 0.1062828 -0.3039699
112960 0.0982322 -0.2933590 0.9017678 0.2933590 0.9017678 0.2933590 0.0982322 -0.2933590
118133 0.0907372 -0.2829218 0.9092628 0.2829218 0.9092628 0.2829218 0.0907372 -0.2829218
123542 0.0837686 -0.2726796 0.9162314 0.2726796 0.9162314 0.2726796 0.0837686 -0.2726796
129199 0.0772977 -0.2626506 0.9227023 0.2626506 0.9227023 0.2626506 0.0772977 -0.2626506
135116 0.0712956 -0.2528499 0.9287044 0.2528499 0.9287044 0.2528499 0.0712956 -0.2528499
141303 0.0657345 -0.2432898 0.9342655 0.2432898 0.9342655 0.2432898 0.0657345 -0.2432898
147774 0.0605867 -0.2339799 0.9394133 0.2339799 0.9394133 0.2339799 0.0605867 -0.2339799
154540 0.0558260 -0.2249277 0.9441740 0.2249277 0.9441740 0.2249277 0.0558260 -0.2249277
161617 0.0514267 -0.2161383 0.9485733 0.2161383 0.9485733 0.2161383 0.0514267 -0.2161383
169018 0.0473644 -0.2076151 0.9526356 0.2076151 0.9526356 0.2076151 0.0473644 -0.2076151
176758 0.0436158 -0.1993598 0.9563842 0.1993598 0.9563842 0.1993598 0.0436158 -0.1993598
184852 0.0401587 -0.1913727 0.9598413 0.1913727 0.9598413 0.1913727 0.0401587 -0.1913727
193316 0.0369722 -0.1836526 0.9630278 0.1836526 0.9630278 0.1836526 0.0369722 -0.1836526
202169 0.0340364 -0.1761974 0.9659636 0.1761974 0.9659636 0.1761974 0.0340364 -0.1761974
211427 0.0313328 -0.1690039 0.9686672 0.1690039 0.9686672 0.1690039 0.0313328 -0.1690039
221108 0.0288439 -0.1620681 0.9711561 0.1620681 0.9711561 0.1620681 0.0288439 -0.1620681
231233 0.0265534 -0.1553855 0.9734466 0.1553855 0.9734466 0.1553855 0.0265534 -0.1553855
241822 0.0244459 -0.1489508 0.9755541 0.1489508 0.9755541 0.1489508 0.0244459 -0.1489508
252896 0.0225073 -0.1427583 0.9774927 0.1427583 0.9774927 0.1427583 0.0225073 -0.1427583
264476 0.0207243 -0.1368021 0.9792757 0.1368021 0.9792757 0.1368021 0.0207243 -0.1368021
276587 0.0190847 -0.1310757 0.9809153 0.1310757 0.9809153 0.1310757 0.0190847 -0.1310757
289253 0.0175770 -0.1255727 0.9824230 0.1255727 0.9824230 0.1255727 0.0175770 -0.1255727
302498 0.0161908 -0.1202863 0.9838092 0.1202863 0.9838092 0.1202863 0.0161908 -0.1202863
316350 0.0149163 -0.1152099 0.9850837 0.1152099 0.9850837 0.1152099 0.0149163 -0.1152099
330837 0.0137445 -0.1103365 0.9862555 0.1103365 0.9862555 0.1103365 0.0137445 -0.1103365
345986 0.0126672 -0.1056595 0.9873328 0.1056595 0.9873328 0.1056595 0.0126672 -0.1056595
361830 0.0116766 -0.1011721 0.9883234 0.1011721 0.9883234 0.1011721 0.0116766 -0.1011721
378399 0.0107659 -0.0968675 0.9892341 0.0968675 0.9892341 0.0968675 0.0107659 -0.0968675
395726 0.0099285 -0.0927391 0.9900715 0.0927391 0.9900715 0.0927391 0.0099285 -0.0927391
413847 0.0091585 -0.0887806 0.9908415 0.0887806 0.9908415 0.0887806 0.0091585 -0.0887806
432798 0.0084505 -0.0849856 0.9915495 0.0849856 0.9915495 0.0849856 0.0084505 -0.0849856
452617 0.0077994 -0.0813478 0.9922006 0.0813478 0.9922006 0.0813478 0.0077994 -0.0813478
473344 0.0072007 -0.0778613 0.9927993 0.0778613 0.9927993 0.0778613 0.0072007 -0.0778613
495019 0.0066502 -0.0745203 0.9933498 0.0745203 0.9933498 0.0745203 0.0066502 -0.0745203
517687 0.0061439 -0.0713189 0.9938561 0.0713189 0.9938561 0.0713189 0.0061439 -0.0713189
541393 0.0056784 -0.0682518 0.9943216 0.0682518 0.9943216 0.0682518 0.0056784 -0.0682518
566185 0.0052504 -0.0653137 0.9947496 0.0653137 0.9947496 0.0653137 0.0052504 -0.0653137
592111 0.0048569 -0.0624993 0.9951431 0.0624993 0.9951431 0.0624993 0.0048569 -0.0624993
619225 0.0044950 -0.0598037 0.9955050 0.0598037 0.9955050 0.0598037 0.0044950 -0.0598037
647581 0.0041624 -0.0572221 0.9958376 0.0572221 0.9958376 0.0572221 0.0041624 -0.0572221
677235 0.0038567 -0.0547500 0.9961433 0.0547500 0.9961433 0.0547500 0.0038567 -0.0547500
708247 0.0035757 -0.0523828 0.9964243 0.0523828 0.9964243 0.0523828 0.0035757 -0.0523828
740679 0.0033174 -0.0501164 0.9966826 0.0501164 0.9966826 0.0501164 0.0033174 -0.0501164
774597 0.0030801 -0.0479464 0.9969199 0.0479464 0.9969199 0.0479464 0.0030801 -0.0479464
810067 0.0028620 -0.0458691 0.9971380 0.0458691 0.9971380 0.0458691 0.0028620 -0.0458691
847162 0.0026616 -0.0438806 0.9973384 0.0438806 0.9973384 0.0438806 0.0026616 -0.0438806
885955 0.0024775 -0.0419772 0.9975225 0.0419772 0.9975225 0.0419772 0.0024775 -0.0419772
926525 0.0023084 -0.0401553 0.9976916 0.0401553 0.9976916 0.0401553 0.0023084 -0.0401553
968953 0.0021531 -0.0384117 0.9978469 0.0384117 0.9978469 0.0384117 0.0021531 -0.0384117
1013323 0.0020104 -0.0367430 0.9979896 0.0367430 0.9979896 0.0367430 0.0020104 -0.0367430
1059725 0.0018793 -0.0351461 0.9981207 0.0351461 0.9981207 0.0351461 0.0018793 -0.0351461
1108252 0.0017589 -0.0336180 0.9982411 0.0336180 0.9982411 0.0336180 0.0017589 -0.0336180
1159002 0.0016483 -0.0321557 0.9983517 0.0321557 0.9983517 0.0321557 0.0016483 -0.0321557
1212075 0.0015467 -0.0307566 0.9984533 0.0307566 0.9984533 0.0307566 0.0015467 -0.0307566
1267578 0.0014533 -0.0294179 0.9985467 0.0294179 0.9985467 0.0294179 0.0014533 -0.0294179
1325623 0.0013674 -0.0281370 0.9986326 0.0281370 0.9986326 0.0281370 0.0013674 -0.0281370
1386327 0.0012885 -0.0269116 0.9987115 0.0269116 0.9987115 0.0269116 0.0012885 -0.0269116
1449809 0.0012159 -0.0257392 0.9987841 0.0257392 0.9987841 0.0257392 0.0012159 -0.0257392
1516199 0.0011491 -0.0246176 0.9988509 0.0246176 0.9988509 0.0246176 0.0011491 -0.0246176
1585629 0.0010876 -0.0235446 0.9989124 0.0235446 0.9989124 0.0235446 0.0010876 -0.0235446
1658239 0.0010309 -0.0225180 0.9989691 0.0225180 0.9989691 0.0225180 0.0010309 -0.0225180
1734173 0.0009787 -0.0215360 0.9990213 0.0215360 0.9990213 0.0215360 0.0009787 -0.0215360
1813585 0.0009306 -0.0205965 0.9990694 0.0205965 0.9990694 0.0205965 0.0009306 -0.0205965
1896632 0.0008861 -0.0196977 0.9991139 0.0196977 0.9991139 0.0196977 0.0008861 -0.0196977
1983483 0.0008451 -0.0188379 0.9991549 0.0188379 0.9991549 0.0188379 0.0008451 -0.0188379
2074311 0.0008071 -0.0180153 0.9991929 0.0180153 0.9991929 0.0180153 0.0008071 -0.0180153
