!Murata Part Number: GRM155C80J154ME01
!These Parameters are Measured in Series Mode Connection
!Data Generated on Mar 30, 2021
!       o--ll--o
!Port1            Port2
!       o------o
!Operation Temp=25[degC], DC Bias Voltage=0[V]
!Freq. Start=100[Hz] Stop=6[GHz] 401[Steps]
# Hz S RI R 50
!Freq.(Hz) S11(Real) S11(Imag) S21(Real) S21(Imag) S12(Real) S12(Imag) S22(Real) S22(Imag)
100 0.9998491 -0.0092102 0.0001509 0.0092102 0.0001509 0.0092102 0.9998491 -0.0092102
105 0.9998386 -0.0096299 0.0001614 0.0096299 0.0001614 0.0096299 0.9998386 -0.0096299
109 0.9998272 -0.0100688 0.0001728 0.0100688 0.0001728 0.0100688 0.9998272 -0.0100688
114 0.9998149 -0.0105277 0.0001851 0.0105277 0.0001851 0.0105277 0.9998149 -0.0105277
120 0.9998015 -0.0110075 0.0001985 0.0110075 0.0001985 0.0110075 0.9998015 -0.0110075
125 0.9997870 -0.0115092 0.0002130 0.0115092 0.0002130 0.0115092 0.9997870 -0.0115092
131 0.9997713 -0.0120338 0.0002287 0.0120338 0.0002287 0.0120338 0.9997713 -0.0120338
137 0.9997543 -0.0125823 0.0002457 0.0125823 0.0002457 0.0125823 0.9997543 -0.0125823
143 0.9997358 -0.0131558 0.0002642 0.0131558 0.0002642 0.0131558 0.9997358 -0.0131558
150 0.9997157 -0.0137553 0.0002843 0.0137553 0.0002843 0.0137553 0.9997157 -0.0137553
156 0.9996940 -0.0143822 0.0003060 0.0143822 0.0003060 0.0143822 0.9996940 -0.0143822
164 0.9996703 -0.0150376 0.0003297 0.0150376 0.0003297 0.0150376 0.9996703 -0.0150376
171 0.9996447 -0.0157228 0.0003553 0.0157228 0.0003553 0.0157228 0.9996447 -0.0157228
179 0.9996168 -0.0164391 0.0003832 0.0164391 0.0003832 0.0164391 0.9996168 -0.0164391
187 0.9995866 -0.0171880 0.0004134 0.0171880 0.0004134 0.0171880 0.9995866 -0.0171880
196 0.9995538 -0.0179710 0.0004462 0.0179710 0.0004462 0.0179710 0.9995538 -0.0179710
205 0.9995182 -0.0187895 0.0004818 0.0187895 0.0004818 0.0187895 0.9995182 -0.0187895
214 0.9994795 -0.0196452 0.0005205 0.0196452 0.0005205 0.0196452 0.9994795 -0.0196452
224 0.9994376 -0.0205397 0.0005624 0.0205397 0.0005624 0.0205397 0.9994376 -0.0205397
234 0.9993920 -0.0214749 0.0006080 0.0214749 0.0006080 0.0214749 0.9993920 -0.0214749
245 0.9993425 -0.0224525 0.0006575 0.0224525 0.0006575 0.0224525 0.9993425 -0.0224525
256 0.9992888 -0.0234745 0.0007112 0.0234745 0.0007112 0.0234745 0.9992888 -0.0234745
268 0.9992304 -0.0245429 0.0007696 0.0245429 0.0007696 0.0245429 0.9992304 -0.0245429
280 0.9991670 -0.0256598 0.0008330 0.0256598 0.0008330 0.0256598 0.9991670 -0.0256598
293 0.9990982 -0.0268273 0.0009018 0.0268273 0.0009018 0.0268273 0.9990982 -0.0268273
306 0.9990233 -0.0280478 0.0009767 0.0280478 0.0009767 0.0280478 0.9990233 -0.0280478
320 0.9989420 -0.0293236 0.0010580 0.0293236 0.0010580 0.0293236 0.9989420 -0.0293236
335 0.9988536 -0.0306573 0.0011464 0.0306573 0.0011464 0.0306573 0.9988536 -0.0306573
350 0.9987574 -0.0320515 0.0012426 0.0320515 0.0012426 0.0320515 0.9987574 -0.0320515
366 0.9986528 -0.0335088 0.0013472 0.0335088 0.0013472 0.0335088 0.9986528 -0.0335088
383 0.9985389 -0.0350321 0.0014611 0.0350321 0.0014611 0.0350321 0.9985389 -0.0350321
401 0.9984151 -0.0366244 0.0015849 0.0366244 0.0015849 0.0366244 0.9984151 -0.0366244
419 0.9982802 -0.0382887 0.0017198 0.0382887 0.0017198 0.0382887 0.9982802 -0.0382887
438 0.9981333 -0.0400283 0.0018667 0.0400283 0.0018667 0.0400283 0.9981333 -0.0400283
458 0.9979733 -0.0418465 0.0020267 0.0418465 0.0020267 0.0418465 0.9979733 -0.0418465
479 0.9977989 -0.0437467 0.0022011 0.0437467 0.0022011 0.0437467 0.9977989 -0.0437467
501 0.9976090 -0.0457327 0.0023910 0.0457327 0.0023910 0.0457327 0.9976090 -0.0457327
524 0.9974019 -0.0478081 0.0025981 0.0478081 0.0025981 0.0478081 0.9974019 -0.0478081
548 0.9971761 -0.0499768 0.0028239 0.0499768 0.0028239 0.0499768 0.9971761 -0.0499768
573 0.9969300 -0.0522430 0.0030700 0.0522430 0.0030700 0.0522430 0.9969300 -0.0522430
600 0.9966616 -0.0546108 0.0033384 0.0546108 0.0033384 0.0546108 0.9966616 -0.0546108
627 0.9963689 -0.0570846 0.0036311 0.0570846 0.0036311 0.0570846 0.9963689 -0.0570846
656 0.9960496 -0.0596689 0.0039504 0.0596689 0.0039504 0.0596689 0.9960496 -0.0596689
686 0.9957013 -0.0623685 0.0042987 0.0623685 0.0042987 0.0623685 0.9957013 -0.0623685
717 0.9953214 -0.0651881 0.0046786 0.0651881 0.0046786 0.0651881 0.9953214 -0.0651881
750 0.9949071 -0.0681327 0.0050929 0.0681327 0.0050929 0.0681327 0.9949071 -0.0681327
784 0.9944551 -0.0712076 0.0055449 0.0712076 0.0055449 0.0712076 0.9944551 -0.0712076
820 0.9939621 -0.0744181 0.0060379 0.0744181 0.0060379 0.0744181 0.9939621 -0.0744181
858 0.9934244 -0.0777696 0.0065756 0.0777696 0.0065756 0.0777696 0.9934244 -0.0777696
897 0.9928379 -0.0812679 0.0071621 0.0812679 0.0071621 0.0812679 0.9928379 -0.0812679
938 0.9921984 -0.0849187 0.0078016 0.0849187 0.0078016 0.0849187 0.9921984 -0.0849187
981 0.9915011 -0.0887280 0.0084989 0.0887280 0.0084989 0.0887280 0.9915011 -0.0887280
1026 0.9907409 -0.0927018 0.0092591 0.0927018 0.0092591 0.0927018 0.9907409 -0.0927018
1073 0.9899122 -0.0968465 0.0100878 0.0968465 0.0100878 0.0968465 0.9899122 -0.0968465
1122 0.9890089 -0.1011684 0.0109911 0.1011684 0.0109911 0.1011684 0.9890089 -0.1011684
1174 0.9880246 -0.1056739 0.0119754 0.1056739 0.0119754 0.1056739 0.9880246 -0.1056739
1227 0.9869522 -0.1103695 0.0130478 0.1103695 0.0130478 0.1103695 0.9869522 -0.1103695
1283 0.9857839 -0.1152619 0.0142161 0.1152619 0.0142161 0.1152619 0.9857839 -0.1152619
1342 0.9845116 -0.1203577 0.0154884 0.1203577 0.0154884 0.1203577 0.9845116 -0.1203577
1404 0.9831262 -0.1256635 0.0168738 0.1256635 0.0168738 0.1256635 0.9831262 -0.1256635
1468 0.9816181 -0.1311859 0.0183819 0.1311859 0.0183819 0.1311859 0.9816181 -0.1311859
1535 0.9799769 -0.1369315 0.0200231 0.1369315 0.0200231 0.1369315 0.9799769 -0.1369315
1606 0.9781911 -0.1429066 0.0218089 0.1429066 0.0218089 0.1429066 0.9781911 -0.1429066
1679 0.9762488 -0.1491175 0.0237512 0.1491175 0.0237512 0.1491175 0.9762488 -0.1491175
1756 0.9741369 -0.1555702 0.0258631 0.1555702 0.0258631 0.1555702 0.9741369 -0.1555702
1836 0.9718412 -0.1622702 0.0281588 0.1622702 0.0281588 0.1622702 0.9718412 -0.1622702
1920 0.9693468 -0.1692227 0.0306532 0.1692227 0.0306532 0.1692227 0.9693468 -0.1692227
2008 0.9666374 -0.1764324 0.0333626 0.1764324 0.0333626 0.1764324 0.9666374 -0.1764324
2100 0.9636958 -0.1839033 0.0363042 0.1839033 0.0363042 0.1839033 0.9636958 -0.1839033
2196 0.9605036 -0.1916387 0.0394964 0.1916387 0.0394964 0.1916387 0.9605036 -0.1916387
2297 0.9570411 -0.1996409 0.0429589 0.1996409 0.0429589 0.1996409 0.9570411 -0.1996409
2402 0.9532876 -0.2079112 0.0467124 0.2079112 0.0467124 0.2079112 0.9532876 -0.2079112
2512 0.9492210 -0.2164496 0.0507790 0.2164496 0.0507790 0.2164496 0.9492210 -0.2164496
2627 0.9448181 -0.2252546 0.0551819 0.2252546 0.0551819 0.2252546 0.9448181 -0.2252546
2748 0.9400544 -0.2343232 0.0599456 0.2343232 0.0599456 0.2343232 0.9400544 -0.2343232
2873 0.9349044 -0.2436505 0.0650956 0.2436505 0.0650956 0.2436505 0.9349044 -0.2436505
3005 0.9293415 -0.2532295 0.0706585 0.2532295 0.0706585 0.2532295 0.9293415 -0.2532295
3143 0.9233383 -0.2630508 0.0766617 0.2630508 0.0766617 0.2630508 0.9233383 -0.2630508
3287 0.9168663 -0.2731024 0.0831337 0.2731024 0.0831337 0.2731024 0.9168663 -0.2731024
3437 0.9098967 -0.2833697 0.0901033 0.2833697 0.0901033 0.2833697 0.9098967 -0.2833697
3594 0.9024001 -0.2938347 0.0975999 0.2938347 0.0975999 0.2938347 0.9024001 -0.2938347
3759 0.8943471 -0.3044763 0.1056529 0.3044763 0.1056529 0.3044763 0.8943471 -0.3044763
3931 0.8857085 -0.3152697 0.1142915 0.3152697 0.1142915 0.3152697 0.8857085 -0.3152697
4111 0.8764556 -0.3261864 0.1235444 0.3261864 0.1235444 0.3261864 0.8764556 -0.3261864
4299 0.8665609 -0.3371938 0.1334391 0.3371938 0.1334391 0.3371938 0.8665609 -0.3371938
4496 0.8559982 -0.3482555 0.1440018 0.3482555 0.1440018 0.3482555 0.8559982 -0.3482555
4702 0.8447435 -0.3593305 0.1552565 0.3593305 0.1552565 0.3593305 0.8447435 -0.3593305
4918 0.8327753 -0.3703741 0.1672247 0.3703741 0.1672247 0.3703741 0.8327753 -0.3703741
5143 0.8200755 -0.3813371 0.1799245 0.3813371 0.1799245 0.3813371 0.8200755 -0.3813371
5378 0.8066296 -0.3921666 0.1933704 0.3921666 0.1933704 0.3921666 0.8066296 -0.3921666
5625 0.7924279 -0.4028058 0.2075721 0.4028058 0.2075721 0.4028058 0.7924279 -0.4028058
5882 0.7774660 -0.4131948 0.2225340 0.4131948 0.2225340 0.4131948 0.7774660 -0.4131948
6151 0.7617453 -0.4232708 0.2382547 0.4232708 0.2382547 0.4232708 0.7617453 -0.4232708
6433 0.7452734 -0.4329687 0.2547266 0.4329687 0.2547266 0.4329687 0.7452734 -0.4329687
6728 0.7280654 -0.4422221 0.2719346 0.4422221 0.2719346 0.4422221 0.7280654 -0.4422221
7036 0.7101436 -0.4509640 0.2898564 0.4509640 0.2898564 0.4509640 0.7101436 -0.4509640
7358 0.6915380 -0.4591278 0.3084620 0.4591278 0.3084620 0.4591278 0.6915380 -0.4591278
7695 0.6722868 -0.4666484 0.3277132 0.4666484 0.3277132 0.4666484 0.6722868 -0.4666484
8047 0.6524359 -0.4734631 0.3475641 0.4734631 0.3475641 0.4734631 0.6524359 -0.4734631
8416 0.6320392 -0.4795132 0.3679608 0.4795132 0.3679608 0.4795132 0.6320392 -0.4795132
8801 0.6111579 -0.4847446 0.3888421 0.4847446 0.3888421 0.4847446 0.6111579 -0.4847446
9204 0.5898602 -0.4891095 0.4101398 0.4891095 0.4101398 0.4891095 0.5898602 -0.4891095
9626 0.5682200 -0.4925668 0.4317800 0.4925668 0.4317800 0.4925668 0.5682200 -0.4925668
10066 0.5463167 -0.4950835 0.4536833 0.4950835 0.4536833 0.4950835 0.5463167 -0.4950835
10527 0.5242336 -0.4966354 0.4757664 0.4966354 0.4757664 0.4966354 0.5242336 -0.4966354
11009 0.5020566 -0.4972073 0.4979434 0.4972073 0.4979434 0.4972073 0.5020566 -0.4972073
11514 0.4798733 -0.4967937 0.5201267 0.4967937 0.5201267 0.4967937 0.4798733 -0.4967937
12041 0.4577713 -0.4953991 0.5422287 0.4953991 0.5422287 0.4953991 0.4577713 -0.4953991
12592 0.4358367 -0.4930371 0.5641633 0.4930371 0.5641633 0.4930371 0.4358367 -0.4930371
13169 0.4141532 -0.4897311 0.5858468 0.4897311 0.5858468 0.4897311 0.4141532 -0.4897311
13772 0.3928006 -0.4855129 0.6071994 0.4855129 0.6071994 0.4855129 0.3928006 -0.4855129
14402 0.3718535 -0.4804224 0.6281465 0.4804224 0.6281465 0.4804224 0.3718535 -0.4804224
15062 0.3513809 -0.4745068 0.6486191 0.4745068 0.6486191 0.4745068 0.3513809 -0.4745068
15752 0.3314446 -0.4678192 0.6685554 0.4678192 0.6685554 0.4678192 0.3314446 -0.4678192
16473 0.3120995 -0.4604176 0.6879005 0.4604176 0.6879005 0.4604176 0.3120995 -0.4604176
17227 0.2933924 -0.4523642 0.7066076 0.4523642 0.7066076 0.4523642 0.2933924 -0.4523642
18016 0.2753624 -0.4437236 0.7246376 0.4437236 0.7246376 0.4437236 0.2753624 -0.4437236
18841 0.2580407 -0.4345621 0.7419593 0.4345621 0.7419593 0.4345621 0.2580407 -0.4345621
19704 0.2414505 -0.4249465 0.7585495 0.4249465 0.7585495 0.4249465 0.2414505 -0.4249465
20606 0.2256077 -0.4149431 0.7743923 0.4149431 0.7743923 0.4149431 0.2256077 -0.4149431
21550 0.2105210 -0.4046169 0.7894790 0.4046169 0.7894790 0.4046169 0.2105210 -0.4046169
22537 0.1961929 -0.3940308 0.8038071 0.3940308 0.8038071 0.3940308 0.1961929 -0.3940308
23569 0.1826195 -0.3832451 0.8173805 0.3832451 0.8173805 0.3832451 0.1826195 -0.3832451
24648 0.1697920 -0.3723166 0.8302080 0.3723166 0.8302080 0.3723166 0.1697920 -0.3723166
25777 0.1576968 -0.3612987 0.8423032 0.3612987 0.8423032 0.3612987 0.1576968 -0.3612987
26957 0.1463165 -0.3502408 0.8536835 0.3502408 0.8536835 0.3502408 0.1463165 -0.3502408
28191 0.1356300 -0.3391882 0.8643700 0.3391882 0.8643700 0.3391882 0.1356300 -0.3391882
29482 0.1256141 -0.3281822 0.8743859 0.3281822 0.8743859 0.3281822 0.1256141 -0.3281822
30832 0.1162429 -0.3172599 0.8837571 0.3172599 0.8837571 0.3172599 0.1162429 -0.3172599
32244 0.1074895 -0.3064541 0.8925105 0.3064541 0.8925105 0.3064541 0.1074895 -0.3064541
33721 0.0993254 -0.2957940 0.9006746 0.2957940 0.9006746 0.2957940 0.0993254 -0.2957940
35265 0.0917218 -0.2853049 0.9082782 0.2853049 0.9082782 0.2853049 0.0917218 -0.2853049
36880 0.0846496 -0.2750084 0.9153504 0.2750084 0.9153504 0.2750084 0.0846496 -0.2750084
38569 0.0780797 -0.2649229 0.9219203 0.2649229 0.9219203 0.2649229 0.0780797 -0.2649229
40335 0.0719833 -0.2550638 0.9280167 0.2550638 0.9280167 0.2550638 0.0719833 -0.2550638
42182 0.0663322 -0.2454434 0.9336678 0.2454434 0.9336678 0.2454434 0.0663322 -0.2454434
44113 0.0610989 -0.2360716 0.9389011 0.2360716 0.9389011 0.2360716 0.0610989 -0.2360716
46134 0.0562570 -0.2269559 0.9437430 0.2269559 0.9437430 0.2269559 0.0562570 -0.2269559
48246 0.0517808 -0.2181018 0.9482192 0.2181018 0.9482192 0.2181018 0.0517808 -0.2181018
50455 0.0476460 -0.2095127 0.9523540 0.2095127 0.9523540 0.2095127 0.0476460 -0.2095127
52766 0.0438292 -0.2011905 0.9561708 0.2011905 0.9561708 0.2011905 0.0438292 -0.2011905
55182 0.0403082 -0.1931357 0.9596918 0.1931357 0.9596918 0.1931357 0.0403082 -0.1931357
57709 0.0370620 -0.1853472 0.9629380 0.1853472 0.9629380 0.1853472 0.0370620 -0.1853472
60352 0.0340710 -0.1778233 0.9659290 0.1778233 0.9659290 0.1778233 0.0340710 -0.1778233
63115 0.0313163 -0.1705609 0.9686837 0.1705609 0.9686837 0.1705609 0.0313163 -0.1705609
66005 0.0287806 -0.1635563 0.9712194 0.1635563 0.9712194 0.1635563 0.0287806 -0.1635563
69028 0.0264475 -0.1568051 0.9735525 0.1568051 0.9735525 0.1568051 0.0264475 -0.1568051
72189 0.0243016 -0.1503023 0.9756984 0.1503023 0.9756984 0.1503023 0.0243016 -0.1503023
75495 0.0223286 -0.1440425 0.9776714 0.1440425 0.9776714 0.1440425 0.0223286 -0.1440425
78952 0.0205152 -0.1380199 0.9794848 0.1380199 0.9794848 0.1380199 0.0205152 -0.1380199
82567 0.0188489 -0.1322284 0.9811511 0.1322284 0.9811511 0.1322284 0.0188489 -0.1322284
86348 0.0173183 -0.1266616 0.9826817 0.1266616 0.9826817 0.1266616 0.0173183 -0.1266616
90302 0.0159126 -0.1213131 0.9840874 0.1213131 0.9840874 0.1213131 0.0159126 -0.1213131
94437 0.0146220 -0.1161764 0.9853780 0.1161764 0.9853780 0.1161764 0.0146220 -0.1161764
98762 0.0134372 -0.1112447 0.9865628 0.1112447 0.9865628 0.1112447 0.0134372 -0.1112447
103284 0.0123498 -0.1065114 0.9876502 0.1065114 0.9876502 0.1065114 0.0123498 -0.1065114
108014 0.0113519 -0.1019698 0.9886481 0.1019698 0.9886481 0.1019698 0.0113519 -0.1019698
112960 0.0104362 -0.0976135 0.9895638 0.0976135 0.9895638 0.0976135 0.0104362 -0.0976135
118133 0.0095962 -0.0934358 0.9904038 0.0934358 0.9904038 0.0934358 0.0095962 -0.0934358
123542 0.0088256 -0.0894303 0.9911744 0.0894303 0.9911744 0.0894303 0.0088256 -0.0894303
129199 0.0081187 -0.0855909 0.9918813 0.0855909 0.9918813 0.0855909 0.0081187 -0.0855909
135116 0.0074704 -0.0819111 0.9925296 0.0819111 0.9925296 0.0819111 0.0074704 -0.0819111
141303 0.0068758 -0.0783852 0.9931242 0.0783852 0.9931242 0.0783852 0.0068758 -0.0783852
147774 0.0063305 -0.0750070 0.9936695 0.0750070 0.9936695 0.0750070 0.0063305 -0.0750070
154540 0.0058304 -0.0717710 0.9941696 0.0717710 0.9941696 0.0717710 0.0058304 -0.0717710
161617 0.0053719 -0.0686716 0.9946281 0.0686716 0.9946281 0.0686716 0.0053719 -0.0686716
169018 0.0049514 -0.0657033 0.9950486 0.0657033 0.9950486 0.0657033 0.0049514 -0.0657033
176758 0.0045659 -0.0628610 0.9954341 0.0628610 0.9954341 0.0628610 0.0045659 -0.0628610
184852 0.0042124 -0.0601395 0.9957876 0.0601395 0.9957876 0.0601395 0.0042124 -0.0601395
193316 0.0038883 -0.0575340 0.9961117 0.0575340 0.9961117 0.0575340 0.0038883 -0.0575340
202169 0.0035912 -0.0550399 0.9964088 0.0550399 0.9964088 0.0550399 0.0035912 -0.0550399
211427 0.0033187 -0.0526524 0.9966813 0.0526524 0.9966813 0.0526524 0.0033187 -0.0526524
221108 0.0030690 -0.0503672 0.9969310 0.0503672 0.9969310 0.0503672 0.0030690 -0.0503672
231233 0.0028400 -0.0481802 0.9971600 0.0481802 0.9971600 0.0481802 0.0028400 -0.0481802
241822 0.0026300 -0.0460871 0.9973700 0.0460871 0.9973700 0.0460871 0.0026300 -0.0460871
252896 0.0024375 -0.0440842 0.9975625 0.0440842 0.9975625 0.0440842 0.0024375 -0.0440842
264476 0.0022610 -0.0421676 0.9977390 0.0421676 0.9977390 0.0421676 0.0022610 -0.0421676
276587 0.0020991 -0.0403337 0.9979009 0.0403337 0.9979009 0.0403337 0.0020991 -0.0403337
289253 0.0019507 -0.0385791 0.9980493 0.0385791 0.9980493 0.0385791 0.0019507 -0.0385791
302498 0.0018146 -0.0369003 0.9981854 0.0369003 0.9981854 0.0369003 0.0018146 -0.0369003
316350 0.0016897 -0.0352942 0.9983103 0.0352942 0.9983103 0.0352942 0.0016897 -0.0352942
330837 0.0015752 -0.0337577 0.9984248 0.0337577 0.9984248 0.0337577 0.0015752 -0.0337577
345986 0.0014701 -0.0322878 0.9985299 0.0322878 0.9985299 0.0322878 0.0014701 -0.0322878
361830 0.0013736 -0.0308817 0.9986264 0.0308817 0.9986264 0.0308817 0.0013736 -0.0308817
378399 0.0012851 -0.0295366 0.9987149 0.0295366 0.9987149 0.0295366 0.0012851 -0.0295366
395726 0.0012037 -0.0282499 0.9987963 0.0282499 0.9987963 0.0282499 0.0012037 -0.0282499
413847 0.0011290 -0.0270191 0.9988710 0.0270191 0.9988710 0.0270191 0.0011290 -0.0270191
432798 0.0010604 -0.0258419 0.9989396 0.0258419 0.9989396 0.0258419 0.0010604 -0.0258419
452617 0.0009973 -0.0247158 0.9990027 0.0247158 0.9990027 0.0247158 0.0009973 -0.0247158
473344 0.0009392 -0.0236388 0.9990608 0.0236388 0.9990608 0.0236388 0.0009392 -0.0236388
495019 0.0008858 -0.0226085 0.9991142 0.0226085 0.9991142 0.0226085 0.0008858 -0.0226085
517687 0.0008365 -0.0216231 0.9991635 0.0216231 0.9991635 0.0216231 0.0008365 -0.0216231
541393 0.0007912 -0.0206806 0.9992088 0.0206806 0.9992088 0.0206806 0.0007912 -0.0206806
566185 0.0007494 -0.0197791 0.9992506 0.0197791 0.9992506 0.0197791 0.0007494 -0.0197791
592111 0.0007108 -0.0189167 0.9992892 0.0189167 0.9992892 0.0189167 0.0007108 -0.0189167
619225 0.0006752 -0.0180919 0.9993248 0.0180919 0.9993248 0.0180919 0.0006752 -0.0180919
647581 0.0006423 -0.0173030 0.9993577 0.0173030 0.9993577 0.0173030 0.0006423 -0.0173030
677235 0.0006119 -0.0165483 0.9993881 0.0165483 0.9993881 0.0165483 0.0006119 -0.0165483
708247 0.0005837 -0.0158264 0.9994163 0.0158264 0.9994163 0.0158264 0.0005837 -0.0158264
740679 0.0005577 -0.0151358 0.9994423 0.0151358 0.9994423 0.0151358 0.0005577 -0.0151358
774597 0.0005335 -0.0144752 0.9994665 0.0144752 0.9994665 0.0144752 0.0005335 -0.0144752
810067 0.0005112 -0.0138433 0.9994888 0.0138433 0.9994888 0.0138433 0.0005112 -0.0138433
847162 0.0004904 -0.0132388 0.9995096 0.0132388 0.9995096 0.0132388 0.0004904 -0.0132388
885955 0.0004712 -0.0126604 0.9995288 0.0126604 0.9995288 0.0126604 0.0004712 -0.0126604
926525 0.0004533 -0.0121071 0.9995467 0.0121071 0.9995467 0.0121071 0.0004533 -0.0121071
968953 0.0004367 -0.0115777 0.9995633 0.0115777 0.9995633 0.0115777 0.0004367 -0.0115777
1013323 0.0004213 -0.0110712 0.9995787 0.0110712 0.9995787 0.0110712 0.0004213 -0.0110712
1059725 0.0004070 -0.0105866 0.9995930 0.0105866 0.9995930 0.0105866 0.0004070 -0.0105866
1108252 0.0003937 -0.0101230 0.9996063 0.0101230 0.9996063 0.0101230 0.0003937 -0.0101230
1159002 0.0003814 -0.0096793 0.9996186 0.0096793 0.9996186 0.0096793 0.0003814 -0.0096793
1212075 0.0003700 -0.0092548 0.9996300 0.0092548 0.9996300 0.0092548 0.0003700 -0.0092548
1267578 0.0003594 -0.0088485 0.9996406 0.0088485 0.9996406 0.0088485 0.0003594 -0.0088485
1325623 0.0003495 -0.0084598 0.9996505 0.0084598 0.9996505 0.0084598 0.0003495 -0.0084598
1386327 0.0003404 -0.0080878 0.9996596 0.0080878 0.9996596 0.0080878 0.0003404 -0.0080878
1449809 0.0003319 -0.0077318 0.9996681 0.0077318 0.9996681 0.0077318 0.0003319 -0.0077318
1516199 0.0003241 -0.0073911 0.9996759 0.0073911 0.9996759 0.0073911 0.0003241 -0.0073911
1585629 0.0003168 -0.0070650 0.9996832 0.0070650 0.9996832 0.0070650 0.0003168 -0.0070650
1658239 0.0003101 -0.0067529 0.9996899 0.0067529 0.9996899 0.0067529 0.0003101 -0.0067529
1734173 0.0003039 -0.0064542 0.9996961 0.0064542 0.9996961 0.0064542 0.0003039 -0.0064542
1813585 0.0002981 -0.0061683 0.9997019 0.0061683 0.9997019 0.0061683 0.0002981 -0.0061683
1896632 0.0002928 -0.0058946 0.9997072 0.0058946 0.9997072 0.0058946 0.0002928 -0.0058946
1983483 0.0002879 -0.0056326 0.9997121 0.0056326 0.9997121 0.0056326 0.0002879 -0.0056326
2074311 0.0002834 -0.0053818 0.9997166 0.0053818 0.9997166 0.0053818 0.0002834 -0.0053818
