!Murata Part Number: GRM155R71H392KA01
!These Parameters are Measured in Series Mode Connection
!Data Generated on Mar 30, 2021
!       o--ll--o
!Port1            Port2
!       o------o
!Operation Temp=25[degC], DC Bias Voltage=0[V]
!Freq. Start=100[Hz] Stop=6[GHz] 401[Steps]
# Hz S RI R 50
!Freq.(Hz) S11(Real) S11(Imag) S21(Real) S21(Imag) S12(Real) S12(Imag) S22(Real) S22(Imag)
100 0.9999989 -0.0002349 0.0000011 0.0002349 0.0000011 0.0002349 0.9999989 -0.0002349
105 0.9999988 -0.0002456 0.0000012 0.0002456 0.0000012 0.0002456 0.9999988 -0.0002456
109 0.9999988 -0.0002568 0.0000012 0.0002568 0.0000012 0.0002568 0.9999988 -0.0002568
114 0.9999987 -0.0002685 0.0000013 0.0002685 0.0000013 0.0002685 0.9999987 -0.0002685
120 0.9999987 -0.0002808 0.0000013 0.0002808 0.0000013 0.0002808 0.9999987 -0.0002808
125 0.9999986 -0.0002936 0.0000014 0.0002936 0.0000014 0.0002936 0.9999986 -0.0002936
131 0.9999985 -0.0003070 0.0000015 0.0003070 0.0000015 0.0003070 0.9999985 -0.0003070
137 0.9999985 -0.0003210 0.0000015 0.0003210 0.0000015 0.0003210 0.9999985 -0.0003210
143 0.9999984 -0.0003357 0.0000016 0.0003357 0.0000016 0.0003357 0.9999984 -0.0003357
150 0.9999983 -0.0003510 0.0000017 0.0003510 0.0000017 0.0003510 0.9999983 -0.0003510
156 0.9999983 -0.0003670 0.0000017 0.0003670 0.0000017 0.0003670 0.9999983 -0.0003670
164 0.9999982 -0.0003838 0.0000018 0.0003838 0.0000018 0.0003838 0.9999982 -0.0003838
171 0.9999981 -0.0004013 0.0000019 0.0004013 0.0000019 0.0004013 0.9999981 -0.0004013
179 0.9999980 -0.0004196 0.0000020 0.0004196 0.0000020 0.0004196 0.9999980 -0.0004196
187 0.9999979 -0.0004388 0.0000021 0.0004388 0.0000021 0.0004388 0.9999979 -0.0004388
196 0.9999978 -0.0004589 0.0000022 0.0004589 0.0000022 0.0004589 0.9999978 -0.0004589
205 0.9999977 -0.0004798 0.0000023 0.0004798 0.0000023 0.0004798 0.9999977 -0.0004798
214 0.9999976 -0.0005017 0.0000024 0.0005017 0.0000024 0.0005017 0.9999976 -0.0005017
224 0.9999975 -0.0005246 0.0000025 0.0005246 0.0000025 0.0005246 0.9999975 -0.0005246
234 0.9999973 -0.0005486 0.0000027 0.0005486 0.0000027 0.0005486 0.9999973 -0.0005486
245 0.9999972 -0.0005737 0.0000028 0.0005737 0.0000028 0.0005737 0.9999972 -0.0005737
256 0.9999971 -0.0005999 0.0000029 0.0005999 0.0000029 0.0005999 0.9999971 -0.0005999
268 0.9999969 -0.0006273 0.0000031 0.0006273 0.0000031 0.0006273 0.9999969 -0.0006273
280 0.9999967 -0.0006559 0.0000033 0.0006559 0.0000033 0.0006559 0.9999967 -0.0006559
293 0.9999966 -0.0006859 0.0000034 0.0006859 0.0000034 0.0006859 0.9999966 -0.0006859
306 0.9999964 -0.0007172 0.0000036 0.0007172 0.0000036 0.0007172 0.9999964 -0.0007172
320 0.9999962 -0.0007500 0.0000038 0.0007500 0.0000038 0.0007500 0.9999962 -0.0007500
335 0.9999960 -0.0007842 0.0000040 0.0007842 0.0000040 0.0007842 0.9999960 -0.0007842
350 0.9999957 -0.0008200 0.0000043 0.0008200 0.0000043 0.0008200 0.9999957 -0.0008200
366 0.9999955 -0.0008575 0.0000045 0.0008575 0.0000045 0.0008575 0.9999955 -0.0008575
383 0.9999952 -0.0008966 0.0000048 0.0008966 0.0000048 0.0008966 0.9999952 -0.0008966
401 0.9999950 -0.0009376 0.0000050 0.0009376 0.0000050 0.0009376 0.9999950 -0.0009376
419 0.9999947 -0.0009804 0.0000053 0.0009804 0.0000053 0.0009804 0.9999947 -0.0009804
438 0.9999944 -0.0010251 0.0000056 0.0010251 0.0000056 0.0010251 0.9999944 -0.0010251
458 0.9999941 -0.0010719 0.0000059 0.0010719 0.0000059 0.0010719 0.9999941 -0.0010719
479 0.9999937 -0.0011208 0.0000063 0.0011208 0.0000063 0.0011208 0.9999937 -0.0011208
501 0.9999934 -0.0011720 0.0000066 0.0011720 0.0000066 0.0011720 0.9999934 -0.0011720
524 0.9999930 -0.0012255 0.0000070 0.0012255 0.0000070 0.0012255 0.9999930 -0.0012255
548 0.9999926 -0.0012814 0.0000074 0.0012814 0.0000074 0.0012814 0.9999926 -0.0012814
573 0.9999921 -0.0013399 0.0000079 0.0013399 0.0000079 0.0013399 0.9999921 -0.0013399
600 0.9999917 -0.0014011 0.0000083 0.0014011 0.0000083 0.0014011 0.9999917 -0.0014011
627 0.9999912 -0.0014650 0.0000088 0.0014650 0.0000088 0.0014650 0.9999912 -0.0014650
656 0.9999907 -0.0015319 0.0000093 0.0015319 0.0000093 0.0015319 0.9999907 -0.0015319
686 0.9999902 -0.0016018 0.0000098 0.0016018 0.0000098 0.0016018 0.9999902 -0.0016018
717 0.9999897 -0.0016749 0.0000103 0.0016749 0.0000103 0.0016749 0.9999897 -0.0016749
750 0.9999891 -0.0017514 0.0000109 0.0017514 0.0000109 0.0017514 0.9999891 -0.0017514
784 0.9999885 -0.0018313 0.0000115 0.0018313 0.0000115 0.0018313 0.9999885 -0.0018313
820 0.9999878 -0.0019149 0.0000122 0.0019149 0.0000122 0.0019149 0.9999878 -0.0019149
858 0.9999871 -0.0020023 0.0000129 0.0020023 0.0000129 0.0020023 0.9999871 -0.0020023
897 0.9999864 -0.0020937 0.0000136 0.0020937 0.0000136 0.0020937 0.9999864 -0.0020937
938 0.9999856 -0.0021893 0.0000144 0.0021893 0.0000144 0.0021893 0.9999856 -0.0021893
981 0.9999847 -0.0022893 0.0000153 0.0022893 0.0000153 0.0022893 0.9999847 -0.0022893
1026 0.9999839 -0.0023938 0.0000161 0.0023938 0.0000161 0.0023938 0.9999839 -0.0023938
1073 0.9999829 -0.0025031 0.0000171 0.0025031 0.0000171 0.0025031 0.9999829 -0.0025031
1122 0.9999819 -0.0026175 0.0000181 0.0026175 0.0000181 0.0026175 0.9999819 -0.0026175
1174 0.9999808 -0.0027370 0.0000192 0.0027370 0.0000192 0.0027370 0.9999808 -0.0027370
1227 0.9999796 -0.0028620 0.0000204 0.0028620 0.0000204 0.0028620 0.9999796 -0.0028620
1283 0.9999783 -0.0029927 0.0000217 0.0029927 0.0000217 0.0029927 0.9999783 -0.0029927
1342 0.9999770 -0.0031295 0.0000230 0.0031295 0.0000230 0.0031295 0.9999770 -0.0031295
1404 0.9999755 -0.0032724 0.0000245 0.0032724 0.0000245 0.0032724 0.9999755 -0.0032724
1468 0.9999739 -0.0034219 0.0000261 0.0034219 0.0000261 0.0034219 0.9999739 -0.0034219
1535 0.9999722 -0.0035782 0.0000278 0.0035782 0.0000278 0.0035782 0.9999722 -0.0035782
1606 0.9999703 -0.0037417 0.0000297 0.0037417 0.0000297 0.0037417 0.9999703 -0.0037417
1679 0.9999683 -0.0039127 0.0000317 0.0039127 0.0000317 0.0039127 0.9999683 -0.0039127
1756 0.9999661 -0.0040914 0.0000339 0.0040914 0.0000339 0.0040914 0.9999661 -0.0040914
1836 0.9999637 -0.0042784 0.0000363 0.0042784 0.0000363 0.0042784 0.9999637 -0.0042784
1920 0.9999611 -0.0044739 0.0000389 0.0044739 0.0000389 0.0044739 0.9999611 -0.0044739
2008 0.9999583 -0.0046783 0.0000417 0.0046783 0.0000417 0.0046783 0.9999583 -0.0046783
2100 0.9999553 -0.0048920 0.0000447 0.0048920 0.0000447 0.0048920 0.9999553 -0.0048920
2196 0.9999520 -0.0051155 0.0000480 0.0051155 0.0000480 0.0051155 0.9999520 -0.0051155
2297 0.9999485 -0.0053492 0.0000515 0.0053492 0.0000515 0.0053492 0.9999485 -0.0053492
2402 0.9999446 -0.0055935 0.0000554 0.0055935 0.0000554 0.0055935 0.9999446 -0.0055935
2512 0.9999404 -0.0058490 0.0000596 0.0058490 0.0000596 0.0058490 0.9999404 -0.0058490
2627 0.9999358 -0.0061162 0.0000642 0.0061162 0.0000642 0.0061162 0.9999358 -0.0061162
2748 0.9999309 -0.0063955 0.0000691 0.0063955 0.0000691 0.0063955 0.9999309 -0.0063955
2873 0.9999255 -0.0066876 0.0000745 0.0066876 0.0000745 0.0066876 0.9999255 -0.0066876
3005 0.9999197 -0.0069930 0.0000803 0.0069930 0.0000803 0.0069930 0.9999197 -0.0069930
3143 0.9999134 -0.0073123 0.0000866 0.0073123 0.0000866 0.0073123 0.9999134 -0.0073123
3287 0.9999066 -0.0076461 0.0000934 0.0076461 0.0000934 0.0076461 0.9999066 -0.0076461
3437 0.9998992 -0.0079952 0.0001008 0.0079952 0.0001008 0.0079952 0.9998992 -0.0079952
3594 0.9998912 -0.0083601 0.0001088 0.0083601 0.0001088 0.0083601 0.9998912 -0.0083601
3759 0.9998825 -0.0087416 0.0001175 0.0087416 0.0001175 0.0087416 0.9998825 -0.0087416
3931 0.9998731 -0.0091406 0.0001269 0.0091406 0.0001269 0.0091406 0.9998731 -0.0091406
4111 0.9998629 -0.0095576 0.0001371 0.0095576 0.0001371 0.0095576 0.9998629 -0.0095576
4299 0.9998519 -0.0099937 0.0001481 0.0099937 0.0001481 0.0099937 0.9998519 -0.0099937
4496 0.9998400 -0.0104496 0.0001600 0.0104496 0.0001600 0.0104496 0.9998400 -0.0104496
4702 0.9998271 -0.0109263 0.0001729 0.0109263 0.0001729 0.0109263 0.9998271 -0.0109263
4918 0.9998132 -0.0114246 0.0001868 0.0114246 0.0001868 0.0114246 0.9998132 -0.0114246
5143 0.9997980 -0.0119457 0.0002020 0.0119457 0.0002020 0.0119457 0.9997980 -0.0119457
5378 0.9997817 -0.0124904 0.0002183 0.0124904 0.0002183 0.0124904 0.9997817 -0.0124904
5625 0.9997640 -0.0130600 0.0002360 0.0130600 0.0002360 0.0130600 0.9997640 -0.0130600
5882 0.9997448 -0.0136555 0.0002552 0.0136555 0.0002552 0.0136555 0.9997448 -0.0136555
6151 0.9997241 -0.0142781 0.0002759 0.0142781 0.0002759 0.0142781 0.9997241 -0.0142781
6433 0.9997016 -0.0149290 0.0002984 0.0149290 0.0002984 0.0149290 0.9997016 -0.0149290
6728 0.9996773 -0.0156097 0.0003227 0.0156097 0.0003227 0.0156097 0.9996773 -0.0156097
7036 0.9996508 -0.0163213 0.0003492 0.0163213 0.0003492 0.0163213 0.9996508 -0.0163213
7358 0.9996222 -0.0170653 0.0003778 0.0170653 0.0003778 0.0170653 0.9996222 -0.0170653
7695 0.9995911 -0.0178433 0.0004089 0.0178433 0.0004089 0.0178433 0.9995911 -0.0178433
8047 0.9995574 -0.0186567 0.0004426 0.0186567 0.0004426 0.0186567 0.9995574 -0.0186567
8416 0.9995208 -0.0195072 0.0004792 0.0195072 0.0004792 0.0195072 0.9995208 -0.0195072
8801 0.9994810 -0.0203964 0.0005190 0.0203964 0.0005190 0.0203964 0.9994810 -0.0203964
9204 0.9994377 -0.0213262 0.0005623 0.0213262 0.0005623 0.0213262 0.9994377 -0.0213262
9626 0.9993907 -0.0222983 0.0006093 0.0222983 0.0006093 0.0222983 0.9993907 -0.0222983
10066 0.9993395 -0.0233148 0.0006605 0.0233148 0.0006605 0.0233148 0.9993395 -0.0233148
10527 0.9992838 -0.0243775 0.0007162 0.0243775 0.0007162 0.0243775 0.9992838 -0.0243775
11009 0.9992231 -0.0254887 0.0007769 0.0254887 0.0007769 0.0254887 0.9992231 -0.0254887
11514 0.9991570 -0.0266505 0.0008430 0.0266505 0.0008430 0.0266505 0.9991570 -0.0266505
12041 0.9990850 -0.0278651 0.0009150 0.0278651 0.0009150 0.0278651 0.9990850 -0.0278651
12592 0.9990065 -0.0291350 0.0009935 0.0291350 0.0009935 0.0291350 0.9990065 -0.0291350
13169 0.9989210 -0.0304627 0.0010790 0.0304627 0.0010790 0.0304627 0.9989210 -0.0304627
13772 0.9988276 -0.0318507 0.0011724 0.0318507 0.0011724 0.0318507 0.9988276 -0.0318507
14402 0.9987258 -0.0333017 0.0012742 0.0333017 0.0012742 0.0333017 0.9987258 -0.0333017
15062 0.9986147 -0.0348186 0.0013853 0.0348186 0.0013853 0.0348186 0.9986147 -0.0348186
15752 0.9984935 -0.0364042 0.0015065 0.0364042 0.0015065 0.0364042 0.9984935 -0.0364042
16473 0.9983611 -0.0380617 0.0016389 0.0380617 0.0016389 0.0380617 0.9983611 -0.0380617
17227 0.9982167 -0.0397942 0.0017833 0.0397942 0.0017833 0.0397942 0.9982167 -0.0397942
18016 0.9980591 -0.0416050 0.0019409 0.0416050 0.0019409 0.0416050 0.9980591 -0.0416050
18841 0.9978870 -0.0434976 0.0021130 0.0434976 0.0021130 0.0434976 0.9978870 -0.0434976
19704 0.9976991 -0.0454755 0.0023009 0.0454755 0.0023009 0.0454755 0.9976991 -0.0454755
20606 0.9974940 -0.0475425 0.0025060 0.0475425 0.0025060 0.0475425 0.9974940 -0.0475425
21550 0.9972701 -0.0497024 0.0027299 0.0497024 0.0027299 0.0497024 0.9972701 -0.0497024
22537 0.9970257 -0.0519592 0.0029743 0.0519592 0.0029743 0.0519592 0.9970257 -0.0519592
23569 0.9967589 -0.0543171 0.0032411 0.0543171 0.0032411 0.0543171 0.9967589 -0.0543171
24648 0.9964677 -0.0567804 0.0035323 0.0567804 0.0035323 0.0567804 0.9964677 -0.0567804
25777 0.9961499 -0.0593536 0.0038501 0.0593536 0.0038501 0.0593536 0.9961499 -0.0593536
26957 0.9958029 -0.0620413 0.0041971 0.0620413 0.0041971 0.0620413 0.9958029 -0.0620413
28191 0.9954244 -0.0648483 0.0045756 0.0648483 0.0045756 0.0648483 0.9954244 -0.0648483
29482 0.9950113 -0.0677796 0.0049887 0.0677796 0.0049887 0.0677796 0.9950113 -0.0677796
30832 0.9945607 -0.0708403 0.0054393 0.0708403 0.0054393 0.0708403 0.9945607 -0.0708403
32244 0.9940690 -0.0740356 0.0059310 0.0740356 0.0059310 0.0740356 0.9940690 -0.0740356
33721 0.9935328 -0.0773711 0.0064672 0.0773711 0.0064672 0.0773711 0.9935328 -0.0773711
35265 0.9929480 -0.0808522 0.0070520 0.0808522 0.0070520 0.0808522 0.9929480 -0.0808522
36880 0.9923104 -0.0844849 0.0076896 0.0844849 0.0076896 0.0844849 0.9923104 -0.0844849
38569 0.9916152 -0.0882749 0.0083848 0.0882749 0.0083848 0.0882749 0.9916152 -0.0882749
40335 0.9908574 -0.0922285 0.0091426 0.0922285 0.0091426 0.0922285 0.9908574 -0.0922285
42182 0.9900316 -0.0963516 0.0099684 0.0963516 0.0099684 0.0963516 0.9900316 -0.0963516
44113 0.9891317 -0.1006507 0.0108683 0.1006507 0.0108683 0.1006507 0.9891317 -0.1006507
46134 0.9881513 -0.1051322 0.0118487 0.1051322 0.0118487 0.1051322 0.9881513 -0.1051322
48246 0.9870834 -0.1098026 0.0129166 0.1098026 0.0129166 0.1098026 0.9870834 -0.1098026
50455 0.9859205 -0.1146685 0.0140795 0.1146685 0.0140795 0.1146685 0.9859205 -0.1146685
52766 0.9846543 -0.1197364 0.0153457 0.1197364 0.0153457 0.1197364 0.9846543 -0.1197364
55182 0.9832760 -0.1250132 0.0167240 0.1250132 0.0167240 0.1250132 0.9832760 -0.1250132
57709 0.9817760 -0.1305052 0.0182240 0.1305052 0.0182240 0.1305052 0.9817760 -0.1305052
60352 0.9801439 -0.1362192 0.0198561 0.1362192 0.0198561 0.1362192 0.9801439 -0.1362192
63115 0.9783685 -0.1421615 0.0216315 0.1421615 0.0216315 0.1421615 0.9783685 -0.1421615
66005 0.9764378 -0.1483384 0.0235622 0.1483384 0.0235622 0.1483384 0.9764378 -0.1483384
69028 0.9743388 -0.1547558 0.0256612 0.1547558 0.0256612 0.1547558 0.9743388 -0.1547558
72189 0.9720575 -0.1614194 0.0279425 0.1614194 0.0279425 0.1614194 0.9720575 -0.1614194
75495 0.9695790 -0.1683344 0.0304210 0.1683344 0.0304210 0.1683344 0.9695790 -0.1683344
78952 0.9668871 -0.1755055 0.0331129 0.1755055 0.0331129 0.1755055 0.9668871 -0.1755055
82567 0.9639646 -0.1829369 0.0360354 0.1829369 0.0360354 0.1829369 0.9639646 -0.1829369
86348 0.9607933 -0.1906317 0.0392067 0.1906317 0.0392067 0.1906317 0.9607933 -0.1906317
90302 0.9573534 -0.1985923 0.0426466 0.1985923 0.0426466 0.1985923 0.9573534 -0.1985923
94437 0.9536244 -0.2068202 0.0463756 0.2068202 0.0463756 0.2068202 0.9536244 -0.2068202
98762 0.9495841 -0.2153152 0.0504159 0.2153152 0.0504159 0.2153152 0.9495841 -0.2153152
103284 0.9452095 -0.2240760 0.0547905 0.2240760 0.0547905 0.2240760 0.9452095 -0.2240760
108014 0.9404762 -0.2330997 0.0595238 0.2330997 0.0595238 0.2330997 0.9404762 -0.2330997
112960 0.9353588 -0.2423812 0.0646412 0.2423812 0.0646412 0.2423812 0.9353588 -0.2423812
118133 0.9298307 -0.2519136 0.0701693 0.2519136 0.0701693 0.2519136 0.9298307 -0.2519136
123542 0.9238645 -0.2616877 0.0761355 0.2616877 0.0761355 0.2616877 0.9238645 -0.2616877
129199 0.9174320 -0.2716915 0.0825680 0.2716915 0.0825680 0.2716915 0.9174320 -0.2716915
135116 0.9105043 -0.2819103 0.0894957 0.2819103 0.0894957 0.2819103 0.9105043 -0.2819103
141303 0.9030524 -0.2923263 0.0969476 0.2923263 0.0969476 0.2923263 0.9030524 -0.2923263
147774 0.8950469 -0.3029185 0.1049531 0.3029185 0.1049531 0.3029185 0.8950469 -0.3029185
154540 0.8864586 -0.3136620 0.1135414 0.3136620 0.1135414 0.3136620 0.8864586 -0.3136620
161617 0.8772593 -0.3245285 0.1227407 0.3245285 0.1227407 0.3245285 0.8772593 -0.3245285
169018 0.8674213 -0.3354856 0.1325787 0.3354856 0.1325787 0.3354856 0.8674213 -0.3354856
176758 0.8569188 -0.3464968 0.1430812 0.3464968 0.1430812 0.3464968 0.8569188 -0.3464968
184852 0.8457279 -0.3575216 0.1542721 0.3575216 0.1542721 0.3575216 0.8457279 -0.3575216
193316 0.8338274 -0.3685153 0.1661726 0.3685153 0.1661726 0.3685153 0.8338274 -0.3685153
202169 0.8211991 -0.3794289 0.1788009 0.3794289 0.1788009 0.3794289 0.8211991 -0.3794289
211427 0.8078290 -0.3902099 0.1921710 0.3902099 0.1921710 0.3902099 0.8078290 -0.3902099
221108 0.7937076 -0.4008017 0.2062924 0.4008017 0.2062924 0.4008017 0.7937076 -0.4008017
231233 0.7788305 -0.4111447 0.2211695 0.4111447 0.2211695 0.4111447 0.7788305 -0.4111447
241822 0.7631992 -0.4211766 0.2368008 0.4211766 0.2368008 0.4211766 0.7631992 -0.4211766
252896 0.7468217 -0.4308328 0.2531783 0.4308328 0.2531783 0.4308328 0.7468217 -0.4308328
264476 0.7297130 -0.4400473 0.2702870 0.4400473 0.2702870 0.4400473 0.7297130 -0.4400473
276587 0.7118955 -0.4487537 0.2881045 0.4487537 0.2881045 0.4487537 0.7118955 -0.4487537
289253 0.6933993 -0.4568860 0.3066007 0.4568860 0.3066007 0.4568860 0.6933993 -0.4568860
302498 0.6742624 -0.4643797 0.3257376 0.4643797 0.3257376 0.4643797 0.6742624 -0.4643797
316350 0.6545308 -0.4711729 0.3454692 0.4711729 0.3454692 0.4711729 0.6545308 -0.4711729
330837 0.6342579 -0.4772075 0.3657421 0.4772075 0.3657421 0.4772075 0.6342579 -0.4772075
345986 0.6135048 -0.4824304 0.3864952 0.4824304 0.3864952 0.4824304 0.6135048 -0.4824304
361830 0.5923389 -0.4867943 0.4076611 0.4867943 0.4076611 0.4867943 0.5923389 -0.4867943
378399 0.5708338 -0.4902591 0.4291662 0.4902591 0.4291662 0.4902591 0.5708338 -0.4902591
395726 0.5490681 -0.4927925 0.4509319 0.4927925 0.4509319 0.4927925 0.5490681 -0.4927925
413847 0.5271240 -0.4943707 0.4728760 0.4943707 0.4728760 0.4943707 0.5271240 -0.4943707
432798 0.5050867 -0.4949794 0.4949133 0.4949794 0.4949133 0.4949794 0.5050867 -0.4949794
452617 0.4830423 -0.4946133 0.5169577 0.4946133 0.5169577 0.4946133 0.4830423 -0.4946133
473344 0.4610773 -0.4932772 0.5389227 0.4932772 0.5389227 0.4932772 0.4610773 -0.4932772
495019 0.4392766 -0.4909849 0.5607234 0.4909849 0.5607234 0.4909849 0.4392766 -0.4909849
517687 0.4177223 -0.4877595 0.5822777 0.4877595 0.5822777 0.4877595 0.4177223 -0.4877595
541393 0.3964927 -0.4836326 0.6035073 0.4836326 0.6035073 0.4836326 0.3964927 -0.4836326
566185 0.3756614 -0.4786435 0.6243386 0.4786435 0.6243386 0.4786435 0.3756614 -0.4786435
592111 0.3552957 -0.4728385 0.6447043 0.4728385 0.6447043 0.4728385 0.3552957 -0.4728385
619225 0.3354565 -0.4662698 0.6645435 0.4662698 0.6645435 0.4662698 0.3354565 -0.4662698
647581 0.3161975 -0.4589943 0.6838025 0.4589943 0.6838025 0.4589943 0.3161975 -0.4589943
677235 0.2975648 -0.4510726 0.7024352 0.4510726 0.7024352 0.4510726 0.2975648 -0.4510726
708247 0.2795969 -0.4425680 0.7204031 0.4425680 0.7204031 0.4425680 0.2795969 -0.4425680
740679 0.2623246 -0.4335453 0.7376754 0.4335453 0.7376754 0.4335453 0.2623246 -0.4335453
774597 0.2457710 -0.4240696 0.7542290 0.4240696 0.7542290 0.4240696 0.2457710 -0.4240696
810067 0.2299521 -0.4142058 0.7700479 0.4142058 0.7700479 0.4142058 0.2299521 -0.4142058
847162 0.2148772 -0.4040174 0.7851228 0.4040174 0.7851228 0.4040174 0.2148772 -0.4040174
885955 0.2005490 -0.3935660 0.7994510 0.3935660 0.7994510 0.3935660 0.2005490 -0.3935660
926525 0.1869647 -0.3829106 0.8130353 0.3829106 0.8130353 0.3829106 0.1869647 -0.3829106
968953 0.1741163 -0.3721070 0.8258837 0.3721070 0.8258837 0.3721070 0.1741163 -0.3721070
1013323 0.1619912 -0.3612078 0.8380088 0.3612078 0.8380088 0.3612078 0.1619912 -0.3612078
1059725 0.1505731 -0.3502618 0.8494269 0.3502618 0.8494269 0.3502618 0.1505731 -0.3502618
1108252 0.1398421 -0.3393137 0.8601579 0.3393137 0.8601579 0.3393137 0.1398421 -0.3393137
1159002 0.1297759 -0.3284047 0.8702241 0.3284047 0.8702241 0.3284047 0.1297759 -0.3284047
1212075 0.1203500 -0.3175715 0.8796500 0.3175715 0.8796500 0.3175715 0.1203500 -0.3175715
1267578 0.1115383 -0.3068474 0.8884617 0.3068474 0.8884617 0.3068474 0.1115383 -0.3068474
1325623 0.1033133 -0.2962615 0.8966867 0.2962615 0.8966867 0.2962615 0.1033133 -0.2962615
1386327 0.0956472 -0.2858394 0.9043528 0.2858394 0.9043528 0.2858394 0.0956472 -0.2858394
1449809 0.0885114 -0.2756032 0.9114886 0.2756032 0.9114886 0.2756032 0.0885114 -0.2756032
1516199 0.0818775 -0.2655719 0.9181225 0.2655719 0.9181225 0.2655719 0.0818775 -0.2655719
1585629 0.0757172 -0.2557611 0.9242828 0.2557611 0.9242828 0.2557611 0.0757172 -0.2557611
1658239 0.0700027 -0.2461839 0.9299973 0.2461839 0.9299973 0.2461839 0.0700027 -0.2461839
1734173 0.0647068 -0.2368506 0.9352932 0.2368506 0.9352932 0.2368506 0.0647068 -0.2368506
1813585 0.0598033 -0.2277691 0.9401967 0.2277691 0.9401967 0.2277691 0.0598033 -0.2277691
1896632 0.0552666 -0.2189455 0.9447334 0.2189455 0.9447334 0.2189455 0.0552666 -0.2189455
1983483 0.0510724 -0.2103836 0.9489276 0.2103836 0.9489276 0.2103836 0.0510724 -0.2103836
2074311 0.0471972 -0.2020856 0.9528028 0.2020856 0.9528028 0.2020856 0.0471972 -0.2020856
