!Murata Part Number: GRM155B11E472KA01
!These Parameters are Measured in Series Mode Connection
!Data Generated on Mar 30, 2021
!       o--ll--o
!Port1            Port2
!       o------o
!Operation Temp=25[degC], DC Bias Voltage=0[V]
!Freq. Start=100[Hz] Stop=6[GHz] 401[Steps]
# Hz S RI R 50
!Freq.(Hz) S11(Real) S11(Imag) S21(Real) S21(Imag) S12(Real) S12(Imag) S22(Real) S22(Imag)
100 0.9999986 -0.0002919 0.0000014 0.0002919 0.0000014 0.0002919 0.9999986 -0.0002919
105 0.9999985 -0.0003052 0.0000015 0.0003052 0.0000015 0.0003052 0.9999985 -0.0003052
109 0.9999985 -0.0003191 0.0000015 0.0003191 0.0000015 0.0003191 0.9999985 -0.0003191
114 0.9999984 -0.0003336 0.0000016 0.0003336 0.0000016 0.0003336 0.9999984 -0.0003336
120 0.9999983 -0.0003489 0.0000017 0.0003489 0.0000017 0.0003489 0.9999983 -0.0003489
125 0.9999982 -0.0003648 0.0000018 0.0003648 0.0000018 0.0003648 0.9999982 -0.0003648
131 0.9999981 -0.0003814 0.0000019 0.0003814 0.0000019 0.0003814 0.9999981 -0.0003814
137 0.9999981 -0.0003988 0.0000019 0.0003988 0.0000019 0.0003988 0.9999981 -0.0003988
143 0.9999980 -0.0004170 0.0000020 0.0004170 0.0000020 0.0004170 0.9999980 -0.0004170
150 0.9999979 -0.0004360 0.0000021 0.0004360 0.0000021 0.0004360 0.9999979 -0.0004360
156 0.9999978 -0.0004559 0.0000022 0.0004559 0.0000022 0.0004559 0.9999978 -0.0004559
164 0.9999977 -0.0004767 0.0000023 0.0004767 0.0000023 0.0004767 0.9999977 -0.0004767
171 0.9999976 -0.0004985 0.0000024 0.0004985 0.0000024 0.0004985 0.9999976 -0.0004985
179 0.9999975 -0.0005213 0.0000025 0.0005213 0.0000025 0.0005213 0.9999975 -0.0005213
187 0.9999974 -0.0005451 0.0000026 0.0005451 0.0000026 0.0005451 0.9999974 -0.0005451
196 0.9999973 -0.0005699 0.0000027 0.0005699 0.0000027 0.0005699 0.9999973 -0.0005699
205 0.9999972 -0.0005960 0.0000028 0.0005960 0.0000028 0.0005960 0.9999972 -0.0005960
214 0.9999971 -0.0006232 0.0000029 0.0006232 0.0000029 0.0006232 0.9999971 -0.0006232
224 0.9999969 -0.0006517 0.0000031 0.0006517 0.0000031 0.0006517 0.9999969 -0.0006517
234 0.9999968 -0.0006814 0.0000032 0.0006814 0.0000032 0.0006814 0.9999968 -0.0006814
245 0.9999967 -0.0007125 0.0000033 0.0007125 0.0000033 0.0007125 0.9999967 -0.0007125
256 0.9999965 -0.0007451 0.0000035 0.0007451 0.0000035 0.0007451 0.9999965 -0.0007451
268 0.9999964 -0.0007791 0.0000036 0.0007791 0.0000036 0.0007791 0.9999964 -0.0007791
280 0.9999962 -0.0008147 0.0000038 0.0008147 0.0000038 0.0008147 0.9999962 -0.0008147
293 0.9999960 -0.0008520 0.0000040 0.0008520 0.0000040 0.0008520 0.9999960 -0.0008520
306 0.9999958 -0.0008909 0.0000042 0.0008909 0.0000042 0.0008909 0.9999958 -0.0008909
320 0.9999956 -0.0009316 0.0000044 0.0009316 0.0000044 0.0009316 0.9999956 -0.0009316
335 0.9999954 -0.0009742 0.0000046 0.0009742 0.0000046 0.0009742 0.9999954 -0.0009742
350 0.9999951 -0.0010187 0.0000049 0.0010187 0.0000049 0.0010187 0.9999951 -0.0010187
366 0.9999949 -0.0010653 0.0000051 0.0010653 0.0000051 0.0010653 0.9999949 -0.0010653
383 0.9999946 -0.0011140 0.0000054 0.0011140 0.0000054 0.0011140 0.9999946 -0.0011140
401 0.9999943 -0.0011649 0.0000057 0.0011649 0.0000057 0.0011649 0.9999943 -0.0011649
419 0.9999940 -0.0012182 0.0000060 0.0012182 0.0000060 0.0012182 0.9999940 -0.0012182
438 0.9999936 -0.0012739 0.0000064 0.0012739 0.0000064 0.0012739 0.9999936 -0.0012739
458 0.9999932 -0.0013321 0.0000068 0.0013321 0.0000068 0.0013321 0.9999932 -0.0013321
479 0.9999928 -0.0013930 0.0000072 0.0013930 0.0000072 0.0013930 0.9999928 -0.0013930
501 0.9999924 -0.0014566 0.0000076 0.0014566 0.0000076 0.0014566 0.9999924 -0.0014566
524 0.9999919 -0.0015232 0.0000081 0.0015232 0.0000081 0.0015232 0.9999919 -0.0015232
548 0.9999914 -0.0015928 0.0000086 0.0015928 0.0000086 0.0015928 0.9999914 -0.0015928
573 0.9999908 -0.0016656 0.0000092 0.0016656 0.0000092 0.0016656 0.9999908 -0.0016656
600 0.9999902 -0.0017417 0.0000098 0.0017417 0.0000098 0.0017417 0.9999902 -0.0017417
627 0.9999895 -0.0018213 0.0000105 0.0018213 0.0000105 0.0018213 0.9999895 -0.0018213
656 0.9999888 -0.0019045 0.0000112 0.0019045 0.0000112 0.0019045 0.9999888 -0.0019045
686 0.9999881 -0.0019915 0.0000119 0.0019915 0.0000119 0.0019915 0.9999881 -0.0019915
717 0.9999873 -0.0020824 0.0000127 0.0020824 0.0000127 0.0020824 0.9999873 -0.0020824
750 0.9999864 -0.0021776 0.0000136 0.0021776 0.0000136 0.0021776 0.9999864 -0.0021776
784 0.9999855 -0.0022770 0.0000145 0.0022770 0.0000145 0.0022770 0.9999855 -0.0022770
820 0.9999845 -0.0023810 0.0000155 0.0023810 0.0000155 0.0023810 0.9999845 -0.0023810
858 0.9999834 -0.0024897 0.0000166 0.0024897 0.0000166 0.0024897 0.9999834 -0.0024897
897 0.9999823 -0.0026034 0.0000177 0.0026034 0.0000177 0.0026034 0.9999823 -0.0026034
938 0.9999811 -0.0027222 0.0000189 0.0027222 0.0000189 0.0027222 0.9999811 -0.0027222
981 0.9999798 -0.0028465 0.0000202 0.0028465 0.0000202 0.0028465 0.9999798 -0.0028465
1026 0.9999784 -0.0029764 0.0000216 0.0029764 0.0000216 0.0029764 0.9999784 -0.0029764
1073 0.9999769 -0.0031123 0.0000231 0.0031123 0.0000231 0.0031123 0.9999769 -0.0031123
1122 0.9999753 -0.0032543 0.0000247 0.0032543 0.0000247 0.0032543 0.9999753 -0.0032543
1174 0.9999736 -0.0034029 0.0000264 0.0034029 0.0000264 0.0034029 0.9999736 -0.0034029
1227 0.9999717 -0.0035582 0.0000283 0.0035582 0.0000283 0.0035582 0.9999717 -0.0035582
1283 0.9999698 -0.0037205 0.0000302 0.0037205 0.0000302 0.0037205 0.9999698 -0.0037205
1342 0.9999677 -0.0038903 0.0000323 0.0038903 0.0000323 0.0038903 0.9999677 -0.0038903
1404 0.9999655 -0.0040678 0.0000345 0.0040678 0.0000345 0.0040678 0.9999655 -0.0040678
1468 0.9999631 -0.0042535 0.0000369 0.0042535 0.0000369 0.0042535 0.9999631 -0.0042535
1535 0.9999606 -0.0044476 0.0000394 0.0044476 0.0000394 0.0044476 0.9999606 -0.0044476
1606 0.9999579 -0.0046505 0.0000421 0.0046505 0.0000421 0.0046505 0.9999579 -0.0046505
1679 0.9999550 -0.0048628 0.0000450 0.0048628 0.0000450 0.0048628 0.9999550 -0.0048628
1756 0.9999519 -0.0050847 0.0000481 0.0050847 0.0000481 0.0050847 0.9999519 -0.0050847
1836 0.9999485 -0.0053168 0.0000515 0.0053168 0.0000515 0.0053168 0.9999485 -0.0053168
1920 0.9999449 -0.0055595 0.0000551 0.0055595 0.0000551 0.0055595 0.9999449 -0.0055595
2008 0.9999410 -0.0058132 0.0000590 0.0058132 0.0000590 0.0058132 0.9999410 -0.0058132
2100 0.9999368 -0.0060786 0.0000632 0.0060786 0.0000632 0.0060786 0.9999368 -0.0060786
2196 0.9999323 -0.0063561 0.0000677 0.0063561 0.0000677 0.0063561 0.9999323 -0.0063561
2297 0.9999275 -0.0066463 0.0000725 0.0066463 0.0000725 0.0066463 0.9999275 -0.0066463
2402 0.9999222 -0.0069497 0.0000778 0.0069497 0.0000778 0.0069497 0.9999222 -0.0069497
2512 0.9999165 -0.0072671 0.0000835 0.0072671 0.0000835 0.0072671 0.9999165 -0.0072671
2627 0.9999104 -0.0075989 0.0000896 0.0075989 0.0000896 0.0075989 0.9999104 -0.0075989
2748 0.9999037 -0.0079460 0.0000963 0.0079460 0.0000963 0.0079460 0.9999037 -0.0079460
2873 0.9998965 -0.0083089 0.0001035 0.0083089 0.0001035 0.0083089 0.9998965 -0.0083089
3005 0.9998886 -0.0086884 0.0001114 0.0086884 0.0001114 0.0086884 0.9998886 -0.0086884
3143 0.9998800 -0.0090852 0.0001200 0.0090852 0.0001200 0.0090852 0.9998800 -0.0090852
3287 0.9998708 -0.0095002 0.0001292 0.0095002 0.0001292 0.0095002 0.9998708 -0.0095002
3437 0.9998607 -0.0099342 0.0001393 0.0099342 0.0001393 0.0099342 0.9998607 -0.0099342
3594 0.9998497 -0.0103880 0.0001503 0.0103880 0.0001503 0.0103880 0.9998497 -0.0103880
3759 0.9998377 -0.0108625 0.0001623 0.0108625 0.0001623 0.0108625 0.9998377 -0.0108625
3931 0.9998246 -0.0113587 0.0001754 0.0113587 0.0001754 0.0113587 0.9998246 -0.0113587
4111 0.9998104 -0.0118776 0.0001896 0.0118776 0.0001896 0.0118776 0.9998104 -0.0118776
4299 0.9997950 -0.0124202 0.0002050 0.0124202 0.0002050 0.0124202 0.9997950 -0.0124202
4496 0.9997781 -0.0129875 0.0002219 0.0129875 0.0002219 0.0129875 0.9997781 -0.0129875
4702 0.9997597 -0.0135807 0.0002403 0.0135807 0.0002403 0.0135807 0.9997597 -0.0135807
4918 0.9997397 -0.0142010 0.0002603 0.0142010 0.0002603 0.0142010 0.9997397 -0.0142010
5143 0.9997178 -0.0148496 0.0002822 0.0148496 0.0002822 0.0148496 0.9997178 -0.0148496
5378 0.9996940 -0.0155278 0.0003060 0.0155278 0.0003060 0.0155278 0.9996940 -0.0155278
5625 0.9996681 -0.0162368 0.0003319 0.0162368 0.0003319 0.0162368 0.9996681 -0.0162368
5882 0.9996398 -0.0169781 0.0003602 0.0169781 0.0003602 0.0169781 0.9996398 -0.0169781
6151 0.9996089 -0.0177533 0.0003911 0.0177533 0.0003911 0.0177533 0.9996089 -0.0177533
6433 0.9995753 -0.0185636 0.0004247 0.0185636 0.0004247 0.0185636 0.9995753 -0.0185636
6728 0.9995386 -0.0194109 0.0004614 0.0194109 0.0004614 0.0194109 0.9995386 -0.0194109
7036 0.9994987 -0.0202967 0.0005013 0.0202967 0.0005013 0.0202967 0.9994987 -0.0202967
7358 0.9994551 -0.0212227 0.0005449 0.0212227 0.0005449 0.0212227 0.9994551 -0.0212227
7695 0.9994077 -0.0221908 0.0005923 0.0221908 0.0005923 0.0221908 0.9994077 -0.0221908
8047 0.9993560 -0.0232029 0.0006440 0.0232029 0.0006440 0.0232029 0.9993560 -0.0232029
8416 0.9992997 -0.0242609 0.0007003 0.0242609 0.0007003 0.0242609 0.9992997 -0.0242609
8801 0.9992384 -0.0253669 0.0007616 0.0253669 0.0007616 0.0253669 0.9992384 -0.0253669
9204 0.9991716 -0.0265231 0.0008284 0.0265231 0.0008284 0.0265231 0.9991716 -0.0265231
9626 0.9990988 -0.0277317 0.0009012 0.0277317 0.0009012 0.0277317 0.9990988 -0.0277317
10066 0.9990196 -0.0289950 0.0009804 0.0289950 0.0009804 0.0289950 0.9990196 -0.0289950
10527 0.9989333 -0.0303156 0.0010667 0.0303156 0.0010667 0.0303156 0.9989333 -0.0303156
11009 0.9988393 -0.0316959 0.0011607 0.0316959 0.0011607 0.0316959 0.9988393 -0.0316959
11514 0.9987370 -0.0331387 0.0012630 0.0331387 0.0012630 0.0331387 0.9987370 -0.0331387
12041 0.9986255 -0.0346467 0.0013745 0.0346467 0.0013745 0.0346467 0.9986255 -0.0346467
12592 0.9985042 -0.0362229 0.0014958 0.0362229 0.0014958 0.0362229 0.9985042 -0.0362229
13169 0.9983720 -0.0378702 0.0016280 0.0378702 0.0016280 0.0378702 0.9983720 -0.0378702
13772 0.9982281 -0.0395919 0.0017719 0.0395919 0.0017719 0.0395919 0.9982281 -0.0395919
14402 0.9980713 -0.0413913 0.0019287 0.0413913 0.0019287 0.0413913 0.9980713 -0.0413913
15062 0.9979006 -0.0432717 0.0020994 0.0432717 0.0020994 0.0432717 0.9979006 -0.0432717
15752 0.9977146 -0.0452369 0.0022854 0.0452369 0.0022854 0.0452369 0.9977146 -0.0452369
16473 0.9975119 -0.0472905 0.0024881 0.0472905 0.0024881 0.0472905 0.9975119 -0.0472905
17227 0.9972911 -0.0494364 0.0027089 0.0494364 0.0027089 0.0494364 0.9972911 -0.0494364
18016 0.9970505 -0.0516787 0.0029495 0.0516787 0.0029495 0.0516787 0.9970505 -0.0516787
18841 0.9967882 -0.0540215 0.0032118 0.0540215 0.0032118 0.0540215 0.9967882 -0.0540215
19704 0.9965023 -0.0564693 0.0034977 0.0564693 0.0034977 0.0564693 0.9965023 -0.0564693
20606 0.9961907 -0.0590265 0.0038093 0.0590265 0.0038093 0.0590265 0.9961907 -0.0590265
21550 0.9958509 -0.0616979 0.0041491 0.0616979 0.0041491 0.0616979 0.9958509 -0.0616979
22537 0.9954804 -0.0644883 0.0045196 0.0644883 0.0045196 0.0644883 0.9954804 -0.0644883
23569 0.9950763 -0.0674027 0.0049237 0.0674027 0.0049237 0.0674027 0.9950763 -0.0674027
24648 0.9946357 -0.0704463 0.0053643 0.0704463 0.0053643 0.0704463 0.9946357 -0.0704463
25777 0.9941551 -0.0736246 0.0058449 0.0736246 0.0058449 0.0736246 0.9941551 -0.0736246
26957 0.9936309 -0.0769429 0.0063691 0.0769429 0.0063691 0.0769429 0.9936309 -0.0769429
28191 0.9930591 -0.0804070 0.0069409 0.0804070 0.0069409 0.0804070 0.9930591 -0.0804070
29482 0.9924354 -0.0840228 0.0075646 0.0840228 0.0075646 0.0840228 0.9924354 -0.0840228
30832 0.9917552 -0.0877962 0.0082448 0.0877962 0.0082448 0.0877962 0.9917552 -0.0877962
32244 0.9910132 -0.0917333 0.0089868 0.0917333 0.0089868 0.0917333 0.9910132 -0.0917333
33721 0.9902040 -0.0958404 0.0097960 0.0958404 0.0097960 0.0958404 0.9902040 -0.0958404
35265 0.9893216 -0.1001239 0.0106784 0.1001239 0.0106784 0.1001239 0.9893216 -0.1001239
36880 0.9883593 -0.1045903 0.0116407 0.1045903 0.0116407 0.1045903 0.9883593 -0.1045903
38569 0.9873102 -0.1092459 0.0126898 0.1092459 0.0126898 0.1092459 0.9873102 -0.1092459
40335 0.9861666 -0.1140976 0.0138334 0.1140976 0.0138334 0.1140976 0.9861666 -0.1140976
42182 0.9849202 -0.1191518 0.0150798 0.1191518 0.0150798 0.1191518 0.9849202 -0.1191518
44113 0.9835619 -0.1244152 0.0164381 0.1244152 0.0164381 0.1244152 0.9835619 -0.1244152
46134 0.9820823 -0.1298944 0.0179177 0.1298944 0.0179177 0.1298944 0.9820823 -0.1298944
48246 0.9804707 -0.1355958 0.0195293 0.1355958 0.0195293 0.1355958 0.9804707 -0.1355958
50455 0.9787161 -0.1415257 0.0212839 0.1415257 0.0212839 0.1415257 0.9787161 -0.1415257
52766 0.9768062 -0.1476903 0.0231938 0.1476903 0.0231938 0.1476903 0.9768062 -0.1476903
55182 0.9747280 -0.1540953 0.0252720 0.1540953 0.0252720 0.1540953 0.9747280 -0.1540953
57709 0.9724677 -0.1607464 0.0275323 0.1607464 0.0275323 0.1607464 0.9724677 -0.1607464
60352 0.9700102 -0.1676486 0.0299898 0.1676486 0.0299898 0.1676486 0.9700102 -0.1676486
63115 0.9673396 -0.1748063 0.0326604 0.1748063 0.0326604 0.1748063 0.9673396 -0.1748063
66005 0.9644388 -0.1822236 0.0355612 0.1822236 0.0355612 0.1822236 0.9644388 -0.1822236
69028 0.9612897 -0.1899035 0.0387103 0.1899035 0.0387103 0.1899035 0.9612897 -0.1899035
72189 0.9578728 -0.1978483 0.0421272 0.1978483 0.0421272 0.1978483 0.9578728 -0.1978483
75495 0.9541677 -0.2060592 0.0458323 0.2060592 0.0458323 0.2060592 0.9541677 -0.2060592
78952 0.9501528 -0.2145362 0.0498472 0.2145362 0.0498472 0.2145362 0.9501528 -0.2145362
82567 0.9458052 -0.2232778 0.0541948 0.2232778 0.0541948 0.2232778 0.9458052 -0.2232778
86348 0.9411010 -0.2322811 0.0588990 0.2322811 0.0588990 0.2322811 0.9411010 -0.2322811
90302 0.9360152 -0.2415413 0.0639848 0.2415413 0.0639848 0.2415413 0.9360152 -0.2415413
94437 0.9305217 -0.2510516 0.0694783 0.2510516 0.0694783 0.2510516 0.9305217 -0.2510516
98762 0.9245934 -0.2608030 0.0754066 0.2608030 0.0754066 0.2608030 0.9245934 -0.2608030
103284 0.9182027 -0.2707839 0.0817973 0.2707839 0.0817973 0.2707839 0.9182027 -0.2707839
108014 0.9113211 -0.2809802 0.0886789 0.2809802 0.0886789 0.2809802 0.9113211 -0.2809802
112960 0.9039197 -0.2913746 0.0960803 0.2913746 0.0960803 0.2913746 0.9039197 -0.2913746
118133 0.8959696 -0.3019467 0.1040304 0.3019467 0.1040304 0.3019467 0.8959696 -0.3019467
123542 0.8874418 -0.3126724 0.1125582 0.3126724 0.1125582 0.3126724 0.8874418 -0.3126724
129199 0.8783081 -0.3235242 0.1216919 0.3235242 0.1216919 0.3235242 0.8783081 -0.3235242
135116 0.8685409 -0.3344706 0.1314591 0.3344706 0.1314591 0.3344706 0.8685409 -0.3344706
141303 0.8581141 -0.3454760 0.1418859 0.3454760 0.1418859 0.3454760 0.8581141 -0.3454760
147774 0.8470037 -0.3565009 0.1529963 0.3565009 0.1529963 0.3565009 0.8470037 -0.3565009
154540 0.8351878 -0.3675015 0.1648122 0.3675015 0.1648122 0.3675015 0.8351878 -0.3675015
161617 0.8226477 -0.3784299 0.1773523 0.3784299 0.1773523 0.3784299 0.8226477 -0.3784299
169018 0.8093687 -0.3892342 0.1906313 0.3892342 0.1906313 0.3892342 0.8093687 -0.3892342
176758 0.7953400 -0.3998589 0.2046600 0.3998589 0.2046600 0.3998589 0.7953400 -0.3998589
184852 0.7805563 -0.4102449 0.2194437 0.4102449 0.2194437 0.4102449 0.7805563 -0.4102449
193316 0.7650178 -0.4203304 0.2349822 0.4203304 0.2349822 0.4203304 0.7650178 -0.4203304
202169 0.7487311 -0.4300511 0.2512689 0.4300511 0.2512689 0.4300511 0.7487311 -0.4300511
211427 0.7317095 -0.4393413 0.2682905 0.4393413 0.2682905 0.4393413 0.7317095 -0.4393413
221108 0.7139741 -0.4481344 0.2860259 0.4481344 0.2860259 0.4481344 0.7139741 -0.4481344
231233 0.6955532 -0.4563639 0.3044468 0.4563639 0.3044468 0.4563639 0.6955532 -0.4563639
241822 0.6764833 -0.4639648 0.3235167 0.4639648 0.3235167 0.4639648 0.6764833 -0.4639648
252896 0.6568090 -0.4708743 0.3431910 0.4708743 0.3431910 0.4708743 0.6568090 -0.4708743
264476 0.6365823 -0.4770331 0.3634177 0.4770331 0.3634177 0.4770331 0.6365823 -0.4770331
276587 0.6158631 -0.4823867 0.3841369 0.4823867 0.3841369 0.4823867 0.6158631 -0.4823867
289253 0.5947179 -0.4868863 0.4052821 0.4868863 0.4052821 0.4868863 0.5947179 -0.4868863
302498 0.5732196 -0.4904900 0.4267804 0.4904900 0.4267804 0.4904900 0.5732196 -0.4904900
316350 0.5514463 -0.4931637 0.4485537 0.4931637 0.4485537 0.4931637 0.5514463 -0.4931637
330837 0.5294803 -0.4948818 0.4705197 0.4948818 0.4705197 0.4948818 0.5294803 -0.4948818
345986 0.5074067 -0.4956279 0.4925933 0.4956279 0.4925933 0.4956279 0.5074067 -0.4956279
361830 0.4853126 -0.4953952 0.5146874 0.4953952 0.5146874 0.4953952 0.4853126 -0.4953952
378399 0.4632848 -0.4941865 0.5367152 0.4941865 0.5367152 0.4941865 0.4632848 -0.4941865
395726 0.4414094 -0.4920144 0.5585906 0.4920144 0.5585906 0.4920144 0.4414094 -0.4920144
413847 0.4197699 -0.4889005 0.5802301 0.4889005 0.5802301 0.4889005 0.4197699 -0.4889005
432798 0.3984460 -0.4848755 0.6015540 0.4848755 0.6015540 0.4848755 0.3984460 -0.4848755
452617 0.3775126 -0.4799779 0.6224874 0.4799779 0.6224874 0.4799779 0.3775126 -0.4799779
473344 0.3570386 -0.4742535 0.6429614 0.4742535 0.6429614 0.4742535 0.3570386 -0.4742535
495019 0.3370866 -0.4677543 0.6629134 0.4677543 0.6629134 0.4677543 0.3370866 -0.4677543
517687 0.3177115 -0.4605371 0.6822885 0.4605371 0.6822885 0.4605371 0.3177115 -0.4605371
541393 0.2989611 -0.4526630 0.7010389 0.4526630 0.7010389 0.4526630 0.2989611 -0.4526630
566185 0.2808748 -0.4441954 0.7191252 0.4441954 0.7191252 0.4441954 0.2808748 -0.4441954
592111 0.2634847 -0.4351997 0.7365153 0.4351997 0.7365153 0.4351997 0.2634847 -0.4351997
619225 0.2468147 -0.4257417 0.7531853 0.4257417 0.7531853 0.4257417 0.2468147 -0.4257417
647581 0.2308818 -0.4158871 0.7691182 0.4158871 0.7691182 0.4158871 0.2308818 -0.4158871
677235 0.2156956 -0.4057000 0.7843044 0.4057000 0.7843044 0.4057000 0.2156956 -0.4057000
708247 0.2012594 -0.3952427 0.7987406 0.3952427 0.7987406 0.3952427 0.2012594 -0.3952427
740679 0.1875708 -0.3845749 0.8124292 0.3845749 0.8124292 0.3845749 0.1875708 -0.3845749
774597 0.1746219 -0.3737532 0.8253781 0.3737532 0.8253781 0.3737532 0.1746219 -0.3737532
810067 0.1624004 -0.3628306 0.8375996 0.3628306 0.8375996 0.3628306 0.1624004 -0.3628306
847162 0.1508899 -0.3518565 0.8491101 0.3518565 0.8491101 0.3518565 0.1508899 -0.3518565
885955 0.1400707 -0.3408761 0.8599293 0.3408761 0.8599293 0.3408761 0.1400707 -0.3408761
926525 0.1299205 -0.3299309 0.8700795 0.3299309 0.8700795 0.3299309 0.1299205 -0.3299309
968953 0.1204149 -0.3190582 0.8795851 0.3190582 0.8795851 0.3190582 0.1204149 -0.3190582
1013323 0.1115275 -0.3082913 0.8884725 0.3082913 0.8884725 0.3082913 0.1115275 -0.3082913
1059725 0.1032313 -0.2976599 0.8967687 0.2976599 0.8967687 0.2976599 0.1032313 -0.2976599
1108252 0.0954981 -0.2871898 0.9045019 0.2871898 0.9045019 0.2871898 0.0954981 -0.2871898
1159002 0.0882995 -0.2769033 0.9117005 0.2769033 0.9117005 0.2769033 0.0882995 -0.2769033
1212075 0.0816071 -0.2668197 0.9183929 0.2668197 0.9183929 0.2668197 0.0816071 -0.2668197
1267578 0.0753928 -0.2569550 0.9246072 0.2569550 0.9246072 0.2569550 0.0753928 -0.2569550
1325623 0.0696286 -0.2473223 0.9303714 0.2473223 0.9303714 0.2473223 0.0696286 -0.2473223
1386327 0.0642876 -0.2379324 0.9357124 0.2379324 0.9357124 0.2379324 0.0642876 -0.2379324
1449809 0.0593433 -0.2287936 0.9406567 0.2287936 0.9406567 0.2287936 0.0593433 -0.2287936
1516199 0.0547704 -0.2199121 0.9452296 0.2199121 0.9452296 0.2199121 0.0547704 -0.2199121
1585629 0.0505443 -0.2112921 0.9494557 0.2112921 0.9494557 0.2112921 0.0505443 -0.2112921
1658239 0.0466418 -0.2029361 0.9533582 0.2029361 0.9533582 0.2029361 0.0466418 -0.2029361
1734173 0.0430404 -0.1948452 0.9569596 0.1948452 0.9569596 0.1948452 0.0430404 -0.1948452
1813585 0.0397192 -0.1870191 0.9602808 0.1870191 0.9602808 0.1870191 0.0397192 -0.1870191
1896632 0.0366580 -0.1794564 0.9633420 0.1794564 0.9633420 0.1794564 0.0366580 -0.1794564
1983483 0.0338380 -0.1721546 0.9661620 0.1721546 0.9661620 0.1721546 0.0338380 -0.1721546
2074311 0.0312413 -0.1651104 0.9687587 0.1651104 0.9687587 0.1651104 0.0312413 -0.1651104
