!Murata Part Number: GRM152R60G105ME15
!These Parameters are Measured in Series Mode Connection
!Data Generated on Mar 30, 2021
!       o--ll--o
!Port1            Port2
!       o------o
!Operation Temp=25[degC], DC Bias Voltage=0[V]
!Freq. Start=100[Hz] Stop=6[GHz] 401[Steps]
# Hz S RI R 50
!Freq.(Hz) S11(Real) S11(Imag) S21(Real) S21(Imag) S12(Real) S12(Imag) S22(Real) S22(Imag)
100 0.9966730 -0.0515861 0.0033270 0.0515861 0.0033270 0.0515861 0.9966730 -0.0515861
105 0.9963980 -0.0539129 0.0036020 0.0539129 0.0036020 0.0539129 0.9963980 -0.0539129
109 0.9960988 -0.0563434 0.0039012 0.0563434 0.0039012 0.0563434 0.9960988 -0.0563434
114 0.9957732 -0.0588819 0.0042268 0.0588819 0.0042268 0.0588819 0.9957732 -0.0588819
120 0.9954188 -0.0615330 0.0045812 0.0615330 0.0045812 0.0615330 0.9954188 -0.0615330
125 0.9950330 -0.0643013 0.0049670 0.0643013 0.0049670 0.0643013 0.9950330 -0.0643013
131 0.9946131 -0.0671917 0.0053869 0.0671917 0.0053869 0.0671917 0.9946131 -0.0671917
137 0.9941561 -0.0702091 0.0058439 0.0702091 0.0058439 0.0702091 0.9941561 -0.0702091
143 0.9936587 -0.0733587 0.0063413 0.0733587 0.0063413 0.0733587 0.9936587 -0.0733587
150 0.9931174 -0.0766459 0.0068826 0.0766459 0.0068826 0.0766459 0.9931174 -0.0766459
156 0.9925283 -0.0800760 0.0074717 0.0800760 0.0074717 0.0800760 0.9925283 -0.0800760
164 0.9918873 -0.0836547 0.0081127 0.0836547 0.0081127 0.0836547 0.9918873 -0.0836547
171 0.9911900 -0.0873877 0.0088100 0.0873877 0.0088100 0.0873877 0.9911900 -0.0873877
179 0.9904313 -0.0912811 0.0095687 0.0912811 0.0095687 0.0912811 0.9904313 -0.0912811
187 0.9896062 -0.0953409 0.0103938 0.0953409 0.0103938 0.0953409 0.9896062 -0.0953409
196 0.9887088 -0.0995732 0.0112912 0.0995732 0.0112912 0.0995732 0.9887088 -0.0995732
205 0.9877329 -0.1039844 0.0122671 0.1039844 0.0122671 0.1039844 0.9877329 -0.1039844
214 0.9866718 -0.1085809 0.0133282 0.1085809 0.0133282 0.1085809 0.9866718 -0.1085809
224 0.9855182 -0.1133693 0.0144818 0.1133693 0.0144818 0.1133693 0.9855182 -0.1133693
234 0.9842642 -0.1183560 0.0157358 0.1183560 0.0157358 0.1183560 0.9842642 -0.1183560
245 0.9829014 -0.1235477 0.0170986 0.1235477 0.0170986 0.1235477 0.9829014 -0.1235477
256 0.9814204 -0.1289510 0.0185796 0.1289510 0.0185796 0.1289510 0.9814204 -0.1289510
268 0.9798112 -0.1345724 0.0201888 0.1345724 0.0201888 0.1345724 0.9798112 -0.1345724
280 0.9780630 -0.1404183 0.0219370 0.1404183 0.0219370 0.1404183 0.9780630 -0.1404183
293 0.9761643 -0.1464951 0.0238357 0.1464951 0.0238357 0.1464951 0.9761643 -0.1464951
306 0.9741023 -0.1528087 0.0258977 0.1528087 0.0258977 0.1528087 0.9741023 -0.1528087
320 0.9718636 -0.1593649 0.0281364 0.1593649 0.0281364 0.1593649 0.9718636 -0.1593649
335 0.9694336 -0.1661691 0.0305664 0.1661691 0.0305664 0.1661691 0.9694336 -0.1661691
350 0.9667968 -0.1732261 0.0332032 0.1732261 0.0332032 0.1732261 0.9667968 -0.1732261
366 0.9639364 -0.1805401 0.0360636 0.1805401 0.0360636 0.1805401 0.9639364 -0.1805401
383 0.9608345 -0.1881147 0.0391655 0.1881147 0.0391655 0.1881147 0.9608345 -0.1881147
401 0.9574723 -0.1959525 0.0425277 0.1959525 0.0425277 0.1959525 0.9574723 -0.1959525
419 0.9538295 -0.2040551 0.0461705 0.2040551 0.0461705 0.2040551 0.9538295 -0.2040551
438 0.9498848 -0.2124229 0.0501152 0.2124229 0.0501152 0.2124229 0.9498848 -0.2124229
458 0.9456156 -0.2210551 0.0543844 0.2210551 0.0543844 0.2210551 0.9456156 -0.2210551
479 0.9409982 -0.2299490 0.0590018 0.2299490 0.0590018 0.2299490 0.9409982 -0.2299490
501 0.9360078 -0.2391005 0.0639922 0.2391005 0.0639922 0.2391005 0.9360078 -0.2391005
524 0.9306187 -0.2485032 0.0693813 0.2485032 0.0693813 0.2485032 0.9306187 -0.2485032
548 0.9248041 -0.2581488 0.0751959 0.2581488 0.0751959 0.2581488 0.9248041 -0.2581488
573 0.9185365 -0.2680263 0.0814635 0.2680263 0.0814635 0.2680263 0.9185365 -0.2680263
600 0.9117877 -0.2781220 0.0882123 0.2781220 0.0882123 0.2781220 0.9117877 -0.2781220
627 0.9045291 -0.2884195 0.0954709 0.2884195 0.0954709 0.2884195 0.9045291 -0.2884195
656 0.8967319 -0.2988991 0.1032681 0.2988991 0.1032681 0.2988991 0.8967319 -0.2988991
686 0.8883676 -0.3095377 0.1116324 0.3095377 0.1116324 0.3095377 0.8883676 -0.3095377
717 0.8794079 -0.3203087 0.1205921 0.3203087 0.1205921 0.3203087 0.8794079 -0.3203087
750 0.8698256 -0.3311817 0.1301744 0.3311817 0.1301744 0.3311817 0.8698256 -0.3311817
784 0.8595946 -0.3421223 0.1404054 0.3421223 0.1404054 0.3421223 0.8595946 -0.3421223
820 0.8486907 -0.3530923 0.1513093 0.3530923 0.1513093 0.3530923 0.8486907 -0.3530923
858 0.8370920 -0.3640494 0.1629080 0.3640494 0.1629080 0.3640494 0.8370920 -0.3640494
897 0.8247796 -0.3749473 0.1752204 0.3749473 0.1752204 0.3749473 0.8247796 -0.3749473
938 0.8117378 -0.3857357 0.1882622 0.3857357 0.1882622 0.3857357 0.8117378 -0.3857357
981 0.7979555 -0.3963609 0.2020445 0.3963609 0.2020445 0.3963609 0.7979555 -0.3963609
1026 0.7834260 -0.4067658 0.2165740 0.4067658 0.2165740 0.4067658 0.7834260 -0.4067658
1073 0.7681482 -0.4168900 0.2318518 0.4168900 0.2318518 0.4168900 0.7681482 -0.4168900
1122 0.7521267 -0.4266712 0.2478733 0.4266712 0.2478733 0.4266712 0.7521267 -0.4266712
1174 0.7353731 -0.4360452 0.2646269 0.4360452 0.2646269 0.4360452 0.7353731 -0.4360452
1227 0.7179057 -0.4449465 0.2820943 0.4449465 0.2820943 0.4449465 0.7179057 -0.4449465
1283 0.6997501 -0.4533101 0.3002499 0.4533101 0.3002499 0.4533101 0.6997501 -0.4533101
1342 0.6809399 -0.4610714 0.3190601 0.4610714 0.3190601 0.4610714 0.6809399 -0.4610714
1404 0.6615160 -0.4681678 0.3384840 0.4681678 0.3384840 0.4681678 0.6615160 -0.4681678
1468 0.6415273 -0.4745399 0.3584727 0.4745399 0.3584727 0.4745399 0.6415273 -0.4745399
1535 0.6210299 -0.4801324 0.3789701 0.4801324 0.3789701 0.4801324 0.6210299 -0.4801324
1606 0.6000870 -0.4848949 0.3999130 0.4848949 0.3999130 0.4848949 0.6000870 -0.4848949
1679 0.5787681 -0.4887837 0.4212319 0.4887837 0.4212319 0.4887837 0.5787681 -0.4887837
1756 0.5571483 -0.4917620 0.4428517 0.4917620 0.4428517 0.4917620 0.5571483 -0.4917620
1836 0.5353072 -0.4938013 0.4646928 0.4938013 0.4646928 0.4938013 0.5353072 -0.4938013
1920 0.5133277 -0.4948817 0.4866723 0.4948817 0.4866723 0.4948817 0.5133277 -0.4948817
2008 0.4912950 -0.4949926 0.5087050 0.4949926 0.5087050 0.4949926 0.4912950 -0.4949926
2100 0.4692953 -0.4941326 0.5307047 0.4941326 0.5307047 0.4941326 0.4692953 -0.4941326
2196 0.4474142 -0.4923102 0.5525858 0.4923102 0.5525858 0.4923102 0.4474142 -0.4923102
2297 0.4257353 -0.4895430 0.5742647 0.4895430 0.5742647 0.4895430 0.4257353 -0.4895430
2402 0.4043394 -0.4858574 0.5956606 0.4858574 0.5956606 0.4858574 0.4043394 -0.4858574
2512 0.3833029 -0.4812884 0.6166971 0.4812884 0.6166971 0.4812884 0.3833029 -0.4812884
2627 0.3626969 -0.4758782 0.6373031 0.4758782 0.6373031 0.4758782 0.3626969 -0.4758782
2748 0.3425863 -0.4696758 0.6574137 0.4696758 0.6574137 0.4696758 0.3425863 -0.4696758
2873 0.3230291 -0.4627357 0.6769709 0.4627357 0.6769709 0.4627357 0.3230291 -0.4627357
3005 0.3040760 -0.4551168 0.6959240 0.4551168 0.6959240 0.4551168 0.3040760 -0.4551168
3143 0.2857697 -0.4468813 0.7142303 0.4468813 0.7142303 0.4468813 0.2857697 -0.4468813
3287 0.2681455 -0.4380935 0.7318545 0.4380935 0.7318545 0.4380935 0.2681455 -0.4380935
3437 0.2512307 -0.4288190 0.7487693 0.4288190 0.7487693 0.4288190 0.2512307 -0.4288190
3594 0.2350451 -0.4191234 0.7649549 0.4191234 0.7649549 0.4191234 0.2350451 -0.4191234
3759 0.2196013 -0.4090713 0.7803987 0.4090713 0.7803987 0.4090713 0.2196013 -0.4090713
3931 0.2049054 -0.3987259 0.7950946 0.3987259 0.7950946 0.3987259 0.2049054 -0.3987259
4111 0.1909569 -0.3881479 0.8090431 0.3881479 0.8090431 0.3881479 0.1909569 -0.3881479
4299 0.1777504 -0.3773950 0.8222496 0.3773950 0.8222496 0.3773950 0.1777504 -0.3773950
4496 0.1652750 -0.3665218 0.8347250 0.3665218 0.8347250 0.3665218 0.1652750 -0.3665218
4702 0.1535158 -0.3555791 0.8464842 0.3555791 0.8464842 0.3555791 0.1535158 -0.3555791
4918 0.1424545 -0.3446138 0.8575455 0.3446138 0.8575455 0.3446138 0.1424545 -0.3446138
5143 0.1320696 -0.3336687 0.8679304 0.3336687 0.8679304 0.3336687 0.1320696 -0.3336687
5378 0.1223372 -0.3227826 0.8776628 0.3227826 0.8776628 0.3227826 0.1223372 -0.3227826
5625 0.1132318 -0.3119904 0.8867682 0.3119904 0.8867682 0.3119904 0.1132318 -0.3119904
5882 0.1047263 -0.3013229 0.8952737 0.3013229 0.8952737 0.3013229 0.1047263 -0.3013229
6151 0.0967930 -0.2908073 0.9032070 0.2908073 0.9032070 0.2908073 0.0967930 -0.2908073
6433 0.0894035 -0.2804671 0.9105965 0.2804671 0.9105965 0.2804671 0.0894035 -0.2804671
6728 0.0825293 -0.2703225 0.9174707 0.2703225 0.9174707 0.2703225 0.0825293 -0.2703225
7036 0.0761423 -0.2603904 0.9238577 0.2603904 0.9238577 0.2603904 0.0761423 -0.2603904
7358 0.0702145 -0.2506851 0.9297855 0.2506851 0.9297855 0.2506851 0.0702145 -0.2506851
7695 0.0647186 -0.2412180 0.9352814 0.2412180 0.9352814 0.2412180 0.0647186 -0.2412180
8047 0.0596280 -0.2319980 0.9403720 0.2319980 0.9403720 0.2319980 0.0596280 -0.2319980
8416 0.0549172 -0.2230321 0.9450828 0.2230321 0.9450828 0.2230321 0.0549172 -0.2230321
8801 0.0505614 -0.2143251 0.9494386 0.2143251 0.9494386 0.2143251 0.0505614 -0.2143251
9204 0.0465371 -0.2058801 0.9534629 0.2058801 0.9534629 0.2058801 0.0465371 -0.2058801
9626 0.0428217 -0.1976987 0.9571783 0.1976987 0.9571783 0.1976987 0.0428217 -0.1976987
10066 0.0393939 -0.1897810 0.9606061 0.1897810 0.9606061 0.1897810 0.0393939 -0.1897810
10527 0.0362332 -0.1821260 0.9637668 0.1821260 0.9637668 0.1821260 0.0362332 -0.1821260
11009 0.0333206 -0.1747316 0.9666794 0.1747316 0.9666794 0.1747316 0.0333206 -0.1747316
11514 0.0306381 -0.1675949 0.9693619 0.1675949 0.9693619 0.1675949 0.0306381 -0.1675949
12041 0.0281686 -0.1607121 0.9718314 0.1607121 0.9718314 0.1607121 0.0281686 -0.1607121
12592 0.0258962 -0.1540789 0.9741038 0.1540789 0.9741038 0.1540789 0.0258962 -0.1540789
13169 0.0238061 -0.1476903 0.9761939 0.1476903 0.9761939 0.1476903 0.0238061 -0.1476903
13772 0.0218844 -0.1415409 0.9781156 0.1415409 0.9781156 0.1415409 0.0218844 -0.1415409
14402 0.0201180 -0.1356250 0.9798820 0.1356250 0.9798820 0.1356250 0.0201180 -0.1356250
15062 0.0184949 -0.1299366 0.9815051 0.1299366 0.9815051 0.1299366 0.0184949 -0.1299366
15752 0.0170038 -0.1244695 0.9829962 0.1244695 0.9829962 0.1244695 0.0170038 -0.1244695
16473 0.0156342 -0.1192173 0.9843658 0.1192173 0.9843658 0.1192173 0.0156342 -0.1192173
17227 0.0143766 -0.1141734 0.9856234 0.1141734 0.9856234 0.1141734 0.0143766 -0.1141734
18016 0.0132219 -0.1093314 0.9867781 0.1093314 0.9867781 0.1093314 0.0132219 -0.1093314
18841 0.0121619 -0.1046847 0.9878381 0.1046847 0.9878381 0.1046847 0.0121619 -0.1046847
19704 0.0111888 -0.1002267 0.9888112 0.1002267 0.9888112 0.1002267 0.0111888 -0.1002267
20606 0.0102955 -0.0959510 0.9897045 0.0959510 0.9897045 0.0959510 0.0102955 -0.0959510
21550 0.0094756 -0.0918510 0.9905244 0.0918510 0.9905244 0.0918510 0.0094756 -0.0918510
22537 0.0087230 -0.0879204 0.9912770 0.0879204 0.9912770 0.0879204 0.0087230 -0.0879204
23569 0.0080321 -0.0841530 0.9919679 0.0841530 0.9919679 0.0841530 0.0080321 -0.0841530
24648 0.0073979 -0.0805427 0.9926021 0.0805427 0.9926021 0.0805427 0.0073979 -0.0805427
25777 0.0068156 -0.0770835 0.9931844 0.0770835 0.9931844 0.0770835 0.0068156 -0.0770835
26957 0.0062810 -0.0737695 0.9937190 0.0737695 0.9937190 0.0737695 0.0062810 -0.0737695
28191 0.0057900 -0.0705952 0.9942100 0.0705952 0.9942100 0.0705952 0.0057900 -0.0705952
29482 0.0053390 -0.0675549 0.9946610 0.0675549 0.9946610 0.0675549 0.0053390 -0.0675549
30832 0.0049248 -0.0646433 0.9950752 0.0646433 0.9950752 0.0646433 0.0049248 -0.0646433
32244 0.0045442 -0.0618552 0.9954558 0.0618552 0.9954558 0.0618552 0.0045442 -0.0618552
33721 0.0041945 -0.0591856 0.9958055 0.0591856 0.9958055 0.0591856 0.0041945 -0.0591856
35265 0.0038731 -0.0566297 0.9961269 0.0566297 0.9961269 0.0566297 0.0038731 -0.0566297
36880 0.0035776 -0.0541828 0.9964224 0.0541828 0.9964224 0.0541828 0.0035776 -0.0541828
38569 0.0033060 -0.0518404 0.9966940 0.0518404 0.9966940 0.0518404 0.0033060 -0.0518404
40335 0.0030562 -0.0495981 0.9969438 0.0495981 0.9969438 0.0495981 0.0030562 -0.0495981
42182 0.0028265 -0.0474517 0.9971735 0.0474517 0.9971735 0.0474517 0.0028265 -0.0474517
44113 0.0026153 -0.0453973 0.9973847 0.0453973 0.9973847 0.0453973 0.0026153 -0.0453973
46134 0.0024210 -0.0434310 0.9975790 0.0434310 0.9975790 0.0434310 0.0024210 -0.0434310
48246 0.0022422 -0.0415491 0.9977578 0.0415491 0.9977578 0.0415491 0.0022422 -0.0415491
50455 0.0020778 -0.0397479 0.9979222 0.0397479 0.9979222 0.0397479 0.0020778 -0.0397479
52766 0.0019266 -0.0380242 0.9980734 0.0380242 0.9980734 0.0380242 0.0019266 -0.0380242
55182 0.0017874 -0.0363747 0.9982126 0.0363747 0.9982126 0.0363747 0.0017874 -0.0363747
57709 0.0016594 -0.0347961 0.9983406 0.0347961 0.9983406 0.0347961 0.0016594 -0.0347961
60352 0.0015416 -0.0332856 0.9984584 0.0332856 0.9984584 0.0332856 0.0015416 -0.0332856
63115 0.0014333 -0.0318402 0.9985667 0.0318402 0.9985667 0.0318402 0.0014333 -0.0318402
66005 0.0013337 -0.0304571 0.9986663 0.0304571 0.9986663 0.0304571 0.0013337 -0.0304571
69028 0.0012420 -0.0291338 0.9987580 0.0291338 0.9987580 0.0291338 0.0012420 -0.0291338
72189 0.0011577 -0.0278676 0.9988423 0.0278676 0.9988423 0.0278676 0.0011577 -0.0278676
75495 0.0010801 -0.0266562 0.9989199 0.0266562 0.9989199 0.0266562 0.0010801 -0.0266562
78952 0.0010088 -0.0254972 0.9989912 0.0254972 0.9989912 0.0254972 0.0010088 -0.0254972
82567 0.0009432 -0.0243884 0.9990568 0.0243884 0.9990568 0.0243884 0.0009432 -0.0243884
86348 0.0008829 -0.0233276 0.9991171 0.0233276 0.9991171 0.0233276 0.0008829 -0.0233276
90302 0.0008274 -0.0223129 0.9991726 0.0223129 0.9991726 0.0223129 0.0008274 -0.0223129
94437 0.0007763 -0.0213421 0.9992237 0.0213421 0.9992237 0.0213421 0.0007763 -0.0213421
98762 0.0007293 -0.0204136 0.9992707 0.0204136 0.9992707 0.0204136 0.0007293 -0.0204136
103284 0.0006861 -0.0195253 0.9993139 0.0195253 0.9993139 0.0195253 0.0006861 -0.0195253
108014 0.0006463 -0.0186757 0.9993537 0.0186757 0.9993537 0.0186757 0.0006463 -0.0186757
112960 0.0006096 -0.0178631 0.9993904 0.0178631 0.9993904 0.0178631 0.0006096 -0.0178631
118133 0.0005758 -0.0170858 0.9994242 0.0170858 0.9994242 0.0170858 0.0005758 -0.0170858
123542 0.0005447 -0.0163424 0.9994553 0.0163424 0.9994553 0.0163424 0.0005447 -0.0163424
129199 0.0005160 -0.0156313 0.9994840 0.0156313 0.9994840 0.0156313 0.0005160 -0.0156313
135116 0.0004895 -0.0149513 0.9995105 0.0149513 0.9995105 0.0149513 0.0004895 -0.0149513
141303 0.0004650 -0.0143009 0.9995350 0.0143009 0.9995350 0.0143009 0.0004650 -0.0143009
147774 0.0004423 -0.0136788 0.9995577 0.0136788 0.9995577 0.0136788 0.0004423 -0.0136788
154540 0.0004213 -0.0130839 0.9995787 0.0130839 0.9995787 0.0130839 0.0004213 -0.0130839
161617 0.0004019 -0.0125149 0.9995981 0.0125149 0.9995981 0.0125149 0.0004019 -0.0125149
169018 0.0003838 -0.0119708 0.9996162 0.0119708 0.9996162 0.0119708 0.0003838 -0.0119708
176758 0.0003671 -0.0114504 0.9996329 0.0114504 0.9996329 0.0114504 0.0003671 -0.0114504
184852 0.0003515 -0.0109526 0.9996485 0.0109526 0.9996485 0.0109526 0.0003515 -0.0109526
193316 0.0003369 -0.0104766 0.9996631 0.0104766 0.9996631 0.0104766 0.0003369 -0.0104766
202169 0.0003233 -0.0100213 0.9996767 0.0100213 0.9996767 0.0100213 0.0003233 -0.0100213
211427 0.0003106 -0.0095859 0.9996894 0.0095859 0.9996894 0.0095859 0.0003106 -0.0095859
221108 0.0002988 -0.0091694 0.9997012 0.0091694 0.9997012 0.0091694 0.0002988 -0.0091694
231233 0.0002876 -0.0087710 0.9997124 0.0087710 0.9997124 0.0087710 0.0002876 -0.0087710
241822 0.0002771 -0.0083900 0.9997229 0.0083900 0.9997229 0.0083900 0.0002771 -0.0083900
252896 0.0002673 -0.0080255 0.9997327 0.0080255 0.9997327 0.0080255 0.0002673 -0.0080255
264476 0.0002580 -0.0076769 0.9997420 0.0076769 0.9997420 0.0076769 0.0002580 -0.0076769
276587 0.0002492 -0.0073434 0.9997508 0.0073434 0.9997508 0.0073434 0.0002492 -0.0073434
289253 0.0002410 -0.0070243 0.9997590 0.0070243 0.9997590 0.0070243 0.0002410 -0.0070243
302498 0.0002332 -0.0067190 0.9997668 0.0067190 0.9997668 0.0067190 0.0002332 -0.0067190
316350 0.0002258 -0.0064270 0.9997742 0.0064270 0.9997742 0.0064270 0.0002258 -0.0064270
330837 0.0002188 -0.0061476 0.9997812 0.0061476 0.9997812 0.0061476 0.0002188 -0.0061476
345986 0.0002122 -0.0058802 0.9997878 0.0058802 0.9997878 0.0058802 0.0002122 -0.0058802
361830 0.0002059 -0.0056244 0.9997941 0.0056244 0.9997941 0.0056244 0.0002059 -0.0056244
378399 0.0002000 -0.0053796 0.9998000 0.0053796 0.9998000 0.0053796 0.0002000 -0.0053796
395726 0.0001944 -0.0051454 0.9998056 0.0051454 0.9998056 0.0051454 0.0001944 -0.0051454
413847 0.0001892 -0.0049212 0.9998108 0.0049212 0.9998108 0.0049212 0.0001892 -0.0049212
432798 0.0001842 -0.0047067 0.9998158 0.0047067 0.9998158 0.0047067 0.0001842 -0.0047067
452617 0.0001795 -0.0045014 0.9998205 0.0045014 0.9998205 0.0045014 0.0001795 -0.0045014
473344 0.0001750 -0.0043049 0.9998250 0.0043049 0.9998250 0.0043049 0.0001750 -0.0043049
495019 0.0001708 -0.0041169 0.9998292 0.0041169 0.9998292 0.0041169 0.0001708 -0.0041169
517687 0.0001669 -0.0039369 0.9998331 0.0039369 0.9998331 0.0039369 0.0001669 -0.0039369
541393 0.0001632 -0.0037646 0.9998368 0.0037646 0.9998368 0.0037646 0.0001632 -0.0037646
566185 0.0001598 -0.0035998 0.9998402 0.0035998 0.9998402 0.0035998 0.0001598 -0.0035998
592111 0.0001565 -0.0034419 0.9998435 0.0034419 0.9998435 0.0034419 0.0001565 -0.0034419
619225 0.0001535 -0.0032909 0.9998465 0.0032909 0.9998465 0.0032909 0.0001535 -0.0032909
647581 0.0001506 -0.0031463 0.9998494 0.0031463 0.9998494 0.0031463 0.0001506 -0.0031463
677235 0.0001480 -0.0030079 0.9998520 0.0030079 0.9998520 0.0030079 0.0001480 -0.0030079
708247 0.0001455 -0.0028754 0.9998545 0.0028754 0.9998545 0.0028754 0.0001455 -0.0028754
740679 0.0001432 -0.0027486 0.9998568 0.0027486 0.9998568 0.0027486 0.0001432 -0.0027486
774597 0.0001411 -0.0026272 0.9998589 0.0026272 0.9998589 0.0026272 0.0001411 -0.0026272
810067 0.0001391 -0.0025110 0.9998609 0.0025110 0.9998609 0.0025110 0.0001391 -0.0025110
847162 0.0001373 -0.0023998 0.9998627 0.0023998 0.9998627 0.0023998 0.0001373 -0.0023998
885955 0.0001356 -0.0022932 0.9998644 0.0022932 0.9998644 0.0022932 0.0001356 -0.0022932
926525 0.0001340 -0.0021913 0.9998660 0.0021913 0.9998660 0.0021913 0.0001340 -0.0021913
968953 0.0001325 -0.0020936 0.9998675 0.0020936 0.9998675 0.0020936 0.0001325 -0.0020936
1013323 0.0001312 -0.0020001 0.9998688 0.0020001 0.9998688 0.0020001 0.0001312 -0.0020001
1059725 0.0001299 -0.0019106 0.9998701 0.0019106 0.9998701 0.0019106 0.0001299 -0.0019106
1108252 0.0001288 -0.0018249 0.9998712 0.0018249 0.9998712 0.0018249 0.0001288 -0.0018249
1159002 0.0001277 -0.0017428 0.9998723 0.0017428 0.9998723 0.0017428 0.0001277 -0.0017428
1212075 0.0001268 -0.0016641 0.9998732 0.0016641 0.9998732 0.0016641 0.0001268 -0.0016641
1267578 0.0001259 -0.0015888 0.9998741 0.0015888 0.9998741 0.0015888 0.0001259 -0.0015888
1325623 0.0001251 -0.0015166 0.9998749 0.0015166 0.9998749 0.0015166 0.0001251 -0.0015166
1386327 0.0001244 -0.0014475 0.9998756 0.0014475 0.9998756 0.0014475 0.0001244 -0.0014475
1449809 0.0001237 -0.0013812 0.9998763 0.0013812 0.9998763 0.0013812 0.0001237 -0.0013812
1516199 0.0001231 -0.0013177 0.9998769 0.0013177 0.9998769 0.0013177 0.0001231 -0.0013177
1585629 0.0001225 -0.0012568 0.9998775 0.0012568 0.9998775 0.0012568 0.0001225 -0.0012568
1658239 0.0001220 -0.0011984 0.9998780 0.0011984 0.9998780 0.0011984 0.0001220 -0.0011984
1734173 0.0001216 -0.0011424 0.9998784 0.0011424 0.9998784 0.0011424 0.0001216 -0.0011424
1813585 0.0001212 -0.0010886 0.9998788 0.0010886 0.9998788 0.0010886 0.0001212 -0.0010886
1896632 0.0001208 -0.0010371 0.9998792 0.0010371 0.9998792 0.0010371 0.0001208 -0.0010371
1983483 0.0001205 -0.0009876 0.9998795 0.0009876 0.9998795 0.0009876 0.0001205 -0.0009876
2074311 0.0001203 -0.0009401 0.9998797 0.0009401 0.9998797 0.0009401 0.0001203 -0.0009401
