!Murata Part Number: GRM155R61C225ME15
!These Parameters are Measured in Series Mode Connection
!Data Generated on Mar 30, 2021
!       o--ll--o
!Port1            Port2
!       o------o
!Operation Temp=25[degC], DC Bias Voltage=0[V]
!Freq. Start=100[Hz] Stop=6[GHz] 401[Steps]
# Hz S RI R 50
!Freq.(Hz) S11(Real) S11(Imag) S21(Real) S21(Imag) S12(Real) S12(Imag) S22(Real) S22(Imag)
100 0.9871123 -0.1044219 0.0128877 0.1044219 0.0128877 0.1044219 0.9871123 -0.1044219
105 0.9860274 -0.1090262 0.0139726 0.1090262 0.0139726 0.1090262 0.9860274 -0.1090262
109 0.9848473 -0.1138228 0.0151527 0.1138228 0.0151527 0.1138228 0.9848473 -0.1138228
114 0.9835637 -0.1188180 0.0164363 0.1188180 0.0164363 0.1188180 0.9835637 -0.1188180
120 0.9821676 -0.1240180 0.0178324 0.1240180 0.0178324 0.1240180 0.9821676 -0.1240180
125 0.9806496 -0.1294290 0.0193504 0.1294290 0.0193504 0.1294290 0.9806496 -0.1294290
131 0.9789991 -0.1350569 0.0210009 0.1350569 0.0210009 0.1350569 0.9789991 -0.1350569
137 0.9772052 -0.1409077 0.0227948 0.1409077 0.0227948 0.1409077 0.9772052 -0.1409077
143 0.9752560 -0.1469869 0.0247440 0.1469869 0.0247440 0.1469869 0.9752560 -0.1469869
150 0.9731389 -0.1532997 0.0268611 0.1532997 0.0268611 0.1532997 0.9731389 -0.1532997
156 0.9708401 -0.1598512 0.0291599 0.1598512 0.0291599 0.1598512 0.9708401 -0.1598512
164 0.9683453 -0.1666459 0.0316547 0.1666459 0.0316547 0.1666459 0.9683453 -0.1666459
171 0.9656390 -0.1736876 0.0343610 0.1736876 0.0343610 0.1736876 0.9656390 -0.1736876
179 0.9627048 -0.1809797 0.0372952 0.1809797 0.0372952 0.1809797 0.9627048 -0.1809797
187 0.9595253 -0.1885247 0.0404747 0.1885247 0.0404747 0.1885247 0.9595253 -0.1885247
196 0.9560822 -0.1963244 0.0439178 0.1963244 0.0439178 0.1963244 0.9560822 -0.1963244
205 0.9523559 -0.2043795 0.0476441 0.2043795 0.0476441 0.2043795 0.9523559 -0.2043795
214 0.9483261 -0.2126896 0.0516739 0.2126896 0.0516739 0.2126896 0.9483261 -0.2126896
224 0.9439711 -0.2212530 0.0560289 0.2212530 0.0560289 0.2212530 0.9439711 -0.2212530
234 0.9392686 -0.2300664 0.0607314 0.2300664 0.0607314 0.2300664 0.9392686 -0.2300664
245 0.9341950 -0.2391252 0.0658050 0.2391252 0.0658050 0.2391252 0.9341950 -0.2391252
256 0.9287260 -0.2484228 0.0712740 0.2484228 0.0712740 0.2484228 0.9287260 -0.2484228
268 0.9228364 -0.2579504 0.0771636 0.2579504 0.0771636 0.2579504 0.9228364 -0.2579504
280 0.9165003 -0.2676972 0.0834997 0.2676972 0.0834997 0.2676972 0.9165003 -0.2676972
293 0.9096910 -0.2776498 0.0903090 0.2776498 0.0903090 0.2776498 0.9096910 -0.2776498
306 0.9023818 -0.2877922 0.0976182 0.2877922 0.0976182 0.2877922 0.9023818 -0.2877922
320 0.8945455 -0.2981054 0.1054545 0.2981054 0.1054545 0.2981054 0.8945455 -0.2981054
335 0.8861551 -0.3085673 0.1138449 0.3085673 0.1138449 0.3085673 0.8861551 -0.3085673
350 0.8771837 -0.3191524 0.1228163 0.3191524 0.1228163 0.3191524 0.8771837 -0.3191524
366 0.8676055 -0.3298318 0.1323945 0.3298318 0.1323945 0.3298318 0.8676055 -0.3298318
383 0.8573955 -0.3405727 0.1426045 0.3405727 0.1426045 0.3405727 0.8573955 -0.3405727
401 0.8465306 -0.3513385 0.1534694 0.3513385 0.1534694 0.3513385 0.8465306 -0.3513385
419 0.8349894 -0.3620889 0.1650106 0.3620889 0.1650106 0.3620889 0.8349894 -0.3620889
438 0.8227535 -0.3727794 0.1772465 0.3727794 0.1772465 0.3727794 0.8227535 -0.3727794
458 0.8098077 -0.3833620 0.1901923 0.3833620 0.1901923 0.3833620 0.8098077 -0.3833620
479 0.7961404 -0.3937848 0.2038596 0.3937848 0.2038596 0.3937848 0.7961404 -0.3937848
501 0.7817449 -0.4039926 0.2182551 0.4039926 0.2182551 0.4039926 0.7817449 -0.4039926
524 0.7666194 -0.4139273 0.2333806 0.4139273 0.2333806 0.4139273 0.7666194 -0.4139273
548 0.7507680 -0.4235282 0.2492320 0.4235282 0.2492320 0.4235282 0.7507680 -0.4235282
573 0.7342012 -0.4327327 0.2657988 0.4327327 0.2657988 0.4327327 0.7342012 -0.4327327
600 0.7169360 -0.4414772 0.2830640 0.4414772 0.2830640 0.4414772 0.7169360 -0.4414772
627 0.6989972 -0.4496979 0.3010028 0.4496979 0.3010028 0.4496979 0.6989972 -0.4496979
656 0.6804166 -0.4573314 0.3195834 0.4573314 0.3195834 0.4573314 0.6804166 -0.4573314
686 0.6612340 -0.4643164 0.3387660 0.4643164 0.3387660 0.4643164 0.6612340 -0.4643164
717 0.6414967 -0.4705944 0.3585033 0.4705944 0.3585033 0.4705944 0.6414967 -0.4705944
750 0.6212593 -0.4761108 0.3787407 0.4761108 0.3787407 0.4761108 0.6212593 -0.4761108
784 0.6005833 -0.4808161 0.3994167 0.4808161 0.3994167 0.4808161 0.6005833 -0.4808161
820 0.5795368 -0.4846670 0.4204632 0.4846670 0.4204632 0.4846670 0.5795368 -0.4846670
858 0.5581930 -0.4876274 0.4418070 0.4876274 0.4418070 0.4876274 0.5581930 -0.4876274
897 0.5366299 -0.4896689 0.4633701 0.4896689 0.4633701 0.4896689 0.5366299 -0.4896689
938 0.5149289 -0.4907719 0.4850711 0.4907719 0.4850711 0.4907719 0.5149289 -0.4907719
981 0.4931734 -0.4909259 0.5068266 0.4909259 0.5068266 0.4909259 0.4931734 -0.4909259
1026 0.4714477 -0.4901297 0.5285523 0.4901297 0.5285523 0.4901297 0.4714477 -0.4901297
1073 0.4498356 -0.4883914 0.5501644 0.4883914 0.5501644 0.4883914 0.4498356 -0.4883914
1122 0.4284189 -0.4857283 0.5715811 0.4857283 0.5715811 0.4857283 0.4284189 -0.4857283
1174 0.4072766 -0.4821664 0.5927234 0.4821664 0.5927234 0.4821664 0.4072766 -0.4821664
1227 0.3864831 -0.4777399 0.6135169 0.4777399 0.6135169 0.4777399 0.3864831 -0.4777399
1283 0.3661079 -0.4724901 0.6338921 0.4724901 0.6338921 0.4724901 0.3661079 -0.4724901
1342 0.3462139 -0.4664650 0.6537861 0.4664650 0.6537861 0.4664650 0.3462139 -0.4664650
1404 0.3268577 -0.4597177 0.6731423 0.4597177 0.6731423 0.4597177 0.3268577 -0.4597177
1468 0.3080883 -0.4523055 0.6919117 0.4523055 0.6919117 0.4523055 0.3080883 -0.4523055
1535 0.2899474 -0.4442890 0.7100526 0.4442890 0.7100526 0.4442890 0.2899474 -0.4442890
1606 0.2724688 -0.4357306 0.7275312 0.4357306 0.7275312 0.4357306 0.2724688 -0.4357306
1679 0.2556791 -0.4266938 0.7443209 0.4266938 0.7443209 0.4266938 0.2556791 -0.4266938
1756 0.2395974 -0.4172420 0.7604026 0.4172420 0.7604026 0.4172420 0.2395974 -0.4172420
1836 0.2242360 -0.4074379 0.7757640 0.4074379 0.7757640 0.4074379 0.2242360 -0.4074379
1920 0.2096007 -0.3973423 0.7903993 0.3973423 0.7903993 0.3973423 0.2096007 -0.3973423
2008 0.1956916 -0.3870137 0.8043084 0.3870137 0.8043084 0.3870137 0.1956916 -0.3870137
2100 0.1825032 -0.3765078 0.8174968 0.3765078 0.8174968 0.3765078 0.1825032 -0.3765078
2196 0.1700257 -0.3658772 0.8299743 0.3658772 0.8299743 0.3658772 0.1700257 -0.3658772
2297 0.1582451 -0.3551706 0.8417549 0.3551706 0.8417549 0.3551706 0.1582451 -0.3551706
2402 0.1471440 -0.3444333 0.8528560 0.3444333 0.8528560 0.3444333 0.1471440 -0.3444333
2512 0.1367024 -0.3337066 0.8632976 0.3337066 0.8632976 0.3337066 0.1367024 -0.3337066
2627 0.1268978 -0.3230280 0.8731022 0.3230280 0.8731022 0.3230280 0.1268978 -0.3230280
2748 0.1177063 -0.3124312 0.8822937 0.3124312 0.8822937 0.3124312 0.1177063 -0.3124312
2873 0.1091025 -0.3019463 0.8908975 0.3019463 0.8908975 0.3019463 0.1091025 -0.3019463
3005 0.1010602 -0.2915997 0.8989398 0.2915997 0.8989398 0.2915997 0.1010602 -0.2915997
3143 0.0935528 -0.2814146 0.9064472 0.2814146 0.9064472 0.2814146 0.0935528 -0.2814146
3287 0.0865535 -0.2714109 0.9134465 0.2714109 0.9134465 0.2714109 0.0865535 -0.2714109
3437 0.0800356 -0.2616056 0.9199644 0.2616056 0.9199644 0.2616056 0.0800356 -0.2616056
3594 0.0739728 -0.2520130 0.9260272 0.2520130 0.9260272 0.2520130 0.0739728 -0.2520130
3759 0.0683391 -0.2426450 0.9316609 0.2426450 0.9316609 0.2426450 0.0683391 -0.2426450
3931 0.0631094 -0.2335110 0.9368906 0.2335110 0.9368906 0.2335110 0.0631094 -0.2335110
4111 0.0582591 -0.2246185 0.9417409 0.2246185 0.9417409 0.2246185 0.0582591 -0.2246185
4299 0.0537647 -0.2159729 0.9462353 0.2159729 0.9462353 0.2159729 0.0537647 -0.2159729
4496 0.0496035 -0.2075782 0.9503965 0.2075782 0.9503965 0.2075782 0.0496035 -0.2075782
4702 0.0457537 -0.1994366 0.9542463 0.1994366 0.9542463 0.1994366 0.0457537 -0.1994366
4918 0.0421946 -0.1915491 0.9578054 0.1915491 0.9578054 0.1915491 0.0421946 -0.1915491
5143 0.0389064 -0.1839156 0.9610936 0.1839156 0.9610936 0.1839156 0.0389064 -0.1839156
5378 0.0358705 -0.1765348 0.9641295 0.1765348 0.9641295 0.1765348 0.0358705 -0.1765348
5625 0.0330690 -0.1694046 0.9669310 0.1694046 0.9669310 0.1694046 0.0330690 -0.1694046
5882 0.0304853 -0.1625219 0.9695147 0.1625219 0.9695147 0.1625219 0.0304853 -0.1625219
6151 0.0281036 -0.1558832 0.9718964 0.1558832 0.9718964 0.1558832 0.0281036 -0.1558832
6433 0.0259090 -0.1494842 0.9740910 0.1494842 0.9740910 0.1494842 0.0259090 -0.1494842
6728 0.0238877 -0.1433202 0.9761123 0.1433202 0.9761123 0.1433202 0.0238877 -0.1433202
7036 0.0220266 -0.1373862 0.9779734 0.1373862 0.9779734 0.1373862 0.0220266 -0.1373862
7358 0.0203135 -0.1316766 0.9796865 0.1316766 0.9796865 0.1316766 0.0203135 -0.1316766
7695 0.0187371 -0.1261857 0.9812629 0.1261857 0.9812629 0.1261857 0.0187371 -0.1261857
8047 0.0172866 -0.1209077 0.9827134 0.1209077 0.9827134 0.1209077 0.0172866 -0.1209077
8416 0.0159523 -0.1158364 0.9840477 0.1158364 0.9840477 0.1158364 0.0159523 -0.1158364
8801 0.0147250 -0.1109656 0.9852750 0.1109656 0.9852750 0.1109656 0.0147250 -0.1109656
9204 0.0135961 -0.1062891 0.9864039 0.1062891 0.9864039 0.1062891 0.0135961 -0.1062891
9626 0.0125578 -0.1018007 0.9874422 0.1018007 0.9874422 0.1018007 0.0125578 -0.1018007
10066 0.0116027 -0.0974939 0.9883973 0.0974939 0.9883973 0.0974939 0.0116027 -0.0974939
10527 0.0107241 -0.0933627 0.9892759 0.0933627 0.9892759 0.0933627 0.0107241 -0.0933627
11009 0.0099157 -0.0894008 0.9900843 0.0894008 0.9900843 0.0894008 0.0099157 -0.0894008
11514 0.0091717 -0.0856022 0.9908283 0.0856022 0.9908283 0.0856022 0.0091717 -0.0856022
12041 0.0084870 -0.0819607 0.9915130 0.0819607 0.9915130 0.0819607 0.0084870 -0.0819607
12592 0.0078564 -0.0784705 0.9921436 0.0784705 0.9921436 0.0784705 0.0078564 -0.0784705
13169 0.0072757 -0.0751259 0.9927243 0.0751259 0.9927243 0.0751259 0.0072757 -0.0751259
13772 0.0067406 -0.0719211 0.9932594 0.0719211 0.9932594 0.0719211 0.0067406 -0.0719211
14402 0.0062474 -0.0688508 0.9937526 0.0688508 0.9937526 0.0688508 0.0062474 -0.0688508
15062 0.0057927 -0.0659095 0.9942073 0.0659095 0.9942073 0.0659095 0.0057927 -0.0659095
15752 0.0053731 -0.0630921 0.9946269 0.0630921 0.9946269 0.0630921 0.0053731 -0.0630921
16473 0.0049860 -0.0603935 0.9950140 0.0603935 0.9950140 0.0603935 0.0049860 -0.0603935
17227 0.0046285 -0.0578090 0.9953715 0.0578090 0.9953715 0.0578090 0.0046285 -0.0578090
18016 0.0042984 -0.0553337 0.9957016 0.0553337 0.9957016 0.0553337 0.0042984 -0.0553337
18841 0.0039933 -0.0529633 0.9960067 0.0529633 0.9960067 0.0529633 0.0039933 -0.0529633
19704 0.0037114 -0.0506932 0.9962886 0.0506932 0.9962886 0.0506932 0.0037114 -0.0506932
20606 0.0034507 -0.0485195 0.9965493 0.0485195 0.9965493 0.0485195 0.0034507 -0.0485195
21550 0.0032096 -0.0464379 0.9967904 0.0464379 0.9967904 0.0464379 0.0032096 -0.0464379
22537 0.0029865 -0.0444447 0.9970135 0.0444447 0.9970135 0.0444447 0.0029865 -0.0444447
23569 0.0027801 -0.0425362 0.9972199 0.0425362 0.9972199 0.0425362 0.0027801 -0.0425362
24648 0.0025891 -0.0407087 0.9974109 0.0407087 0.9974109 0.0407087 0.0025891 -0.0407087
25777 0.0024124 -0.0389590 0.9975876 0.0389590 0.9975876 0.0389590 0.0024124 -0.0389590
26957 0.0022488 -0.0372837 0.9977512 0.0372837 0.9977512 0.0372837 0.0022488 -0.0372837
28191 0.0020974 -0.0356797 0.9979026 0.0356797 0.9979026 0.0356797 0.0020974 -0.0356797
29482 0.0019572 -0.0341440 0.9980428 0.0341440 0.9980428 0.0341440 0.0019572 -0.0341440
30832 0.0018275 -0.0326739 0.9981725 0.0326739 0.9981725 0.0326739 0.0018275 -0.0326739
32244 0.0017074 -0.0312664 0.9982926 0.0312664 0.9982926 0.0312664 0.0017074 -0.0312664
33721 0.0015963 -0.0299191 0.9984037 0.0299191 0.9984037 0.0299191 0.0015963 -0.0299191
35265 0.0014935 -0.0286294 0.9985065 0.0286294 0.9985065 0.0286294 0.0014935 -0.0286294
36880 0.0013983 -0.0273949 0.9986017 0.0273949 0.9986017 0.0273949 0.0013983 -0.0273949
38569 0.0013103 -0.0262132 0.9986897 0.0262132 0.9986897 0.0262132 0.0013103 -0.0262132
40335 0.0012288 -0.0250823 0.9987712 0.0250823 0.9987712 0.0250823 0.0012288 -0.0250823
42182 0.0011534 -0.0239999 0.9988466 0.0239999 0.9988466 0.0239999 0.0011534 -0.0239999
44113 0.0010836 -0.0229640 0.9989164 0.0229640 0.9989164 0.0229640 0.0010836 -0.0229640
46134 0.0010189 -0.0219727 0.9989811 0.0219727 0.9989811 0.0219727 0.0010189 -0.0219727
48246 0.0009591 -0.0210241 0.9990409 0.0210241 0.9990409 0.0210241 0.0009591 -0.0210241
50455 0.0009037 -0.0201164 0.9990963 0.0201164 0.9990963 0.0201164 0.0009037 -0.0201164
52766 0.0008523 -0.0192479 0.9991477 0.0192479 0.9991477 0.0192479 0.0008523 -0.0192479
55182 0.0008047 -0.0184169 0.9991953 0.0184169 0.9991953 0.0184169 0.0008047 -0.0184169
57709 0.0007604 -0.0176218 0.9992396 0.0176218 0.9992396 0.0176218 0.0007604 -0.0176218
60352 0.0007194 -0.0168611 0.9992806 0.0168611 0.9992806 0.0168611 0.0007194 -0.0168611
63115 0.0006812 -0.0161334 0.9993188 0.0161334 0.9993188 0.0161334 0.0006812 -0.0161334
66005 0.0006457 -0.0154372 0.9993543 0.0154372 0.9993543 0.0154372 0.0006457 -0.0154372
69028 0.0006126 -0.0147712 0.9993874 0.0147712 0.9993874 0.0147712 0.0006126 -0.0147712
72189 0.0005817 -0.0141341 0.9994183 0.0141341 0.9994183 0.0141341 0.0005817 -0.0141341
75495 0.0005528 -0.0135246 0.9994472 0.0135246 0.9994472 0.0135246 0.0005528 -0.0135246
78952 0.0005259 -0.0129415 0.9994741 0.0129415 0.9994741 0.0129415 0.0005259 -0.0129415
82567 0.0005006 -0.0123837 0.9994994 0.0123837 0.9994994 0.0123837 0.0005006 -0.0123837
86348 0.0004769 -0.0118501 0.9995231 0.0118501 0.9995231 0.0118501 0.0004769 -0.0118501
90302 0.0004546 -0.0113396 0.9995454 0.0113396 0.9995454 0.0113396 0.0004546 -0.0113396
94437 0.0004336 -0.0108512 0.9995664 0.0108512 0.9995664 0.0108512 0.0004336 -0.0108512
98762 0.0004139 -0.0103840 0.9995861 0.0103840 0.9995861 0.0103840 0.0004139 -0.0103840
103284 0.0003952 -0.0099370 0.9996048 0.0099370 0.9996048 0.0099370 0.0003952 -0.0099370
108014 0.0003776 -0.0095093 0.9996224 0.0095093 0.9996224 0.0095093 0.0003776 -0.0095093
112960 0.0003609 -0.0091000 0.9996391 0.0091000 0.9996391 0.0091000 0.0003609 -0.0091000
118133 0.0003451 -0.0087085 0.9996549 0.0087085 0.9996549 0.0087085 0.0003451 -0.0087085
123542 0.0003302 -0.0083338 0.9996698 0.0083338 0.9996698 0.0083338 0.0003302 -0.0083338
129199 0.0003160 -0.0079753 0.9996840 0.0079753 0.9996840 0.0079753 0.0003160 -0.0079753
135116 0.0003025 -0.0076322 0.9996975 0.0076322 0.9996975 0.0076322 0.0003025 -0.0076322
141303 0.0002897 -0.0073038 0.9997103 0.0073038 0.9997103 0.0073038 0.0002897 -0.0073038
147774 0.0002776 -0.0069896 0.9997224 0.0069896 0.9997224 0.0069896 0.0002776 -0.0069896
154540 0.0002661 -0.0066889 0.9997339 0.0066889 0.9997339 0.0066889 0.0002661 -0.0066889
161617 0.0002551 -0.0064010 0.9997449 0.0064010 0.9997449 0.0064010 0.0002551 -0.0064010
169018 0.0002447 -0.0061255 0.9997553 0.0061255 0.9997553 0.0061255 0.0002447 -0.0061255
176758 0.0002348 -0.0058619 0.9997652 0.0058619 0.9997652 0.0058619 0.0002348 -0.0058619
184852 0.0002254 -0.0056095 0.9997746 0.0056095 0.9997746 0.0056095 0.0002254 -0.0056095
193316 0.0002165 -0.0053679 0.9997835 0.0053679 0.9997835 0.0053679 0.0002165 -0.0053679
202169 0.0002080 -0.0051367 0.9997920 0.0051367 0.9997920 0.0051367 0.0002080 -0.0051367
211427 0.0002000 -0.0049154 0.9998000 0.0049154 0.9998000 0.0049154 0.0002000 -0.0049154
221108 0.0001923 -0.0047036 0.9998077 0.0047036 0.9998077 0.0047036 0.0001923 -0.0047036
231233 0.0001851 -0.0045008 0.9998149 0.0045008 0.9998149 0.0045008 0.0001851 -0.0045008
241822 0.0001782 -0.0043067 0.9998218 0.0043067 0.9998218 0.0043067 0.0001782 -0.0043067
252896 0.0001717 -0.0041209 0.9998283 0.0041209 0.9998283 0.0041209 0.0001717 -0.0041209
264476 0.0001654 -0.0039431 0.9998346 0.0039431 0.9998346 0.0039431 0.0001654 -0.0039431
276587 0.0001595 -0.0037728 0.9998405 0.0037728 0.9998405 0.0037728 0.0001595 -0.0037728
289253 0.0001539 -0.0036099 0.9998461 0.0036099 0.9998461 0.0036099 0.0001539 -0.0036099
302498 0.0001486 -0.0034539 0.9998514 0.0034539 0.9998514 0.0034539 0.0001486 -0.0034539
316350 0.0001435 -0.0033046 0.9998565 0.0033046 0.9998565 0.0033046 0.0001435 -0.0033046
330837 0.0001387 -0.0031617 0.9998613 0.0031617 0.9998613 0.0031617 0.0001387 -0.0031617
345986 0.0001341 -0.0030248 0.9998659 0.0030248 0.9998659 0.0030248 0.0001341 -0.0030248
361830 0.0001297 -0.0028938 0.9998703 0.0028938 0.9998703 0.0028938 0.0001297 -0.0028938
378399 0.0001256 -0.0027684 0.9998744 0.0027684 0.9998744 0.0027684 0.0001256 -0.0027684
395726 0.0001216 -0.0026483 0.9998784 0.0026483 0.9998784 0.0026483 0.0001216 -0.0026483
413847 0.0001178 -0.0025334 0.9998822 0.0025334 0.9998822 0.0025334 0.0001178 -0.0025334
432798 0.0001142 -0.0024233 0.9998858 0.0024233 0.9998858 0.0024233 0.0001142 -0.0024233
452617 0.0001108 -0.0023179 0.9998892 0.0023179 0.9998892 0.0023179 0.0001108 -0.0023179
473344 0.0001075 -0.0022169 0.9998925 0.0022169 0.9998925 0.0022169 0.0001075 -0.0022169
495019 0.0001044 -0.0021202 0.9998956 0.0021202 0.9998956 0.0021202 0.0001044 -0.0021202
517687 0.0001015 -0.0020276 0.9998985 0.0020276 0.9998985 0.0020276 0.0001015 -0.0020276
541393 0.0000987 -0.0019389 0.9999013 0.0019389 0.9999013 0.0019389 0.0000987 -0.0019389
566185 0.0000960 -0.0018540 0.9999040 0.0018540 0.9999040 0.0018540 0.0000960 -0.0018540
592111 0.0000935 -0.0017726 0.9999065 0.0017726 0.9999065 0.0017726 0.0000935 -0.0017726
619225 0.0000911 -0.0016946 0.9999089 0.0016946 0.9999089 0.0016946 0.0000911 -0.0016946
647581 0.0000888 -0.0016199 0.9999112 0.0016199 0.9999112 0.0016199 0.0000888 -0.0016199
677235 0.0000867 -0.0015483 0.9999133 0.0015483 0.9999133 0.0015483 0.0000867 -0.0015483
708247 0.0000846 -0.0014797 0.9999154 0.0014797 0.9999154 0.0014797 0.0000846 -0.0014797
740679 0.0000827 -0.0014140 0.9999173 0.0014140 0.9999173 0.0014140 0.0000827 -0.0014140
774597 0.0000810 -0.0013510 0.9999190 0.0013510 0.9999190 0.0013510 0.0000810 -0.0013510
810067 0.0000793 -0.0012906 0.9999207 0.0012906 0.9999207 0.0012906 0.0000793 -0.0012906
847162 0.0000777 -0.0012327 0.9999223 0.0012327 0.9999223 0.0012327 0.0000777 -0.0012327
885955 0.0000762 -0.0011772 0.9999238 0.0011772 0.9999238 0.0011772 0.0000762 -0.0011772
926525 0.0000749 -0.0011240 0.9999251 0.0011240 0.9999251 0.0011240 0.0000749 -0.0011240
968953 0.0000736 -0.0010730 0.9999264 0.0010730 0.9999264 0.0010730 0.0000736 -0.0010730
1013323 0.0000724 -0.0010241 0.9999276 0.0010241 0.9999276 0.0010241 0.0000724 -0.0010241
1059725 0.0000713 -0.0009771 0.9999287 0.0009771 0.9999287 0.0009771 0.0000713 -0.0009771
1108252 0.0000703 -0.0009321 0.9999297 0.0009321 0.9999297 0.0009321 0.0000703 -0.0009321
1159002 0.0000694 -0.0008889 0.9999306 0.0008889 0.9999306 0.0008889 0.0000694 -0.0008889
1212075 0.0000685 -0.0008474 0.9999315 0.0008474 0.9999315 0.0008474 0.0000685 -0.0008474
1267578 0.0000678 -0.0008076 0.9999322 0.0008076 0.9999322 0.0008076 0.0000678 -0.0008076
1325623 0.0000671 -0.0007694 0.9999329 0.0007694 0.9999329 0.0007694 0.0000671 -0.0007694
1386327 0.0000664 -0.0007327 0.9999336 0.0007327 0.9999336 0.0007327 0.0000664 -0.0007327
1449809 0.0000658 -0.0006974 0.9999342 0.0006974 0.9999342 0.0006974 0.0000658 -0.0006974
1516199 0.0000653 -0.0006635 0.9999347 0.0006635 0.9999347 0.0006635 0.0000653 -0.0006635
1585629 0.0000649 -0.0006309 0.9999351 0.0006309 0.9999351 0.0006309 0.0000649 -0.0006309
1658239 0.0000644 -0.0005996 0.9999356 0.0005996 0.9999356 0.0005996 0.0000644 -0.0005996
1734173 0.0000641 -0.0005694 0.9999359 0.0005694 0.9999359 0.0005694 0.0000641 -0.0005694
1813585 0.0000638 -0.0005404 0.9999362 0.0005404 0.9999362 0.0005404 0.0000638 -0.0005404
1896632 0.0000636 -0.0005124 0.9999364 0.0005124 0.9999364 0.0005124 0.0000636 -0.0005124
1983483 0.0000634 -0.0004855 0.9999366 0.0004855 0.9999366 0.0004855 0.0000634 -0.0004855
2074311 0.0000632 -0.0004595 0.9999368 0.0004595 0.9999368 0.0004595 0.0000632 -0.0004595
