!Murata Part Number: GRM155R61E222KA01
!These Parameters are Measured in Series Mode Connection
!Data Generated on Mar 30, 2021
!       o--ll--o
!Port1            Port2
!       o------o
!Operation Temp=25[degC], DC Bias Voltage=0[V]
!Freq. Start=100[Hz] Stop=6[GHz] 401[Steps]
# Hz S RI R 50
!Freq.(Hz) S11(Real) S11(Imag) S21(Real) S21(Imag) S12(Real) S12(Imag) S22(Real) S22(Imag)
100 0.9999994 -0.0001376 0.0000006 0.0001376 0.0000006 0.0001376 0.9999994 -0.0001376
105 0.9999994 -0.0001439 0.0000006 0.0001439 0.0000006 0.0001439 0.9999994 -0.0001439
109 0.9999994 -0.0001504 0.0000006 0.0001504 0.0000006 0.0001504 0.9999994 -0.0001504
114 0.9999993 -0.0001573 0.0000007 0.0001573 0.0000007 0.0001573 0.9999993 -0.0001573
120 0.9999993 -0.0001645 0.0000007 0.0001645 0.0000007 0.0001645 0.9999993 -0.0001645
125 0.9999993 -0.0001720 0.0000007 0.0001720 0.0000007 0.0001720 0.9999993 -0.0001720
131 0.9999992 -0.0001799 0.0000008 0.0001799 0.0000008 0.0001799 0.9999992 -0.0001799
137 0.9999992 -0.0001881 0.0000008 0.0001881 0.0000008 0.0001881 0.9999992 -0.0001881
143 0.9999992 -0.0001967 0.0000008 0.0001967 0.0000008 0.0001967 0.9999992 -0.0001967
150 0.9999991 -0.0002056 0.0000009 0.0002056 0.0000009 0.0002056 0.9999991 -0.0002056
156 0.9999991 -0.0002150 0.0000009 0.0002150 0.0000009 0.0002150 0.9999991 -0.0002150
164 0.9999990 -0.0002249 0.0000010 0.0002249 0.0000010 0.0002249 0.9999990 -0.0002249
171 0.9999990 -0.0002351 0.0000010 0.0002351 0.0000010 0.0002351 0.9999990 -0.0002351
179 0.9999989 -0.0002459 0.0000011 0.0002459 0.0000011 0.0002459 0.9999989 -0.0002459
187 0.9999989 -0.0002571 0.0000011 0.0002571 0.0000011 0.0002571 0.9999989 -0.0002571
196 0.9999988 -0.0002688 0.0000012 0.0002688 0.0000012 0.0002688 0.9999988 -0.0002688
205 0.9999987 -0.0002811 0.0000013 0.0002811 0.0000013 0.0002811 0.9999987 -0.0002811
214 0.9999987 -0.0002939 0.0000013 0.0002939 0.0000013 0.0002939 0.9999987 -0.0002939
224 0.9999986 -0.0003074 0.0000014 0.0003074 0.0000014 0.0003074 0.9999986 -0.0003074
234 0.9999985 -0.0003214 0.0000015 0.0003214 0.0000015 0.0003214 0.9999985 -0.0003214
245 0.9999984 -0.0003361 0.0000016 0.0003361 0.0000016 0.0003361 0.9999984 -0.0003361
256 0.9999983 -0.0003514 0.0000017 0.0003514 0.0000017 0.0003514 0.9999983 -0.0003514
268 0.9999983 -0.0003675 0.0000017 0.0003675 0.0000017 0.0003675 0.9999983 -0.0003675
280 0.9999982 -0.0003842 0.0000018 0.0003842 0.0000018 0.0003842 0.9999982 -0.0003842
293 0.9999981 -0.0004018 0.0000019 0.0004018 0.0000019 0.0004018 0.9999981 -0.0004018
306 0.9999980 -0.0004201 0.0000020 0.0004201 0.0000020 0.0004201 0.9999980 -0.0004201
320 0.9999979 -0.0004393 0.0000021 0.0004393 0.0000021 0.0004393 0.9999979 -0.0004393
335 0.9999978 -0.0004593 0.0000022 0.0004593 0.0000022 0.0004593 0.9999978 -0.0004593
350 0.9999977 -0.0004803 0.0000023 0.0004803 0.0000023 0.0004803 0.9999977 -0.0004803
366 0.9999975 -0.0005022 0.0000025 0.0005022 0.0000025 0.0005022 0.9999975 -0.0005022
383 0.9999974 -0.0005252 0.0000026 0.0005252 0.0000026 0.0005252 0.9999974 -0.0005252
401 0.9999973 -0.0005491 0.0000027 0.0005491 0.0000027 0.0005491 0.9999973 -0.0005491
419 0.9999971 -0.0005742 0.0000029 0.0005742 0.0000029 0.0005742 0.9999971 -0.0005742
438 0.9999970 -0.0006004 0.0000030 0.0006004 0.0000030 0.0006004 0.9999970 -0.0006004
458 0.9999969 -0.0006278 0.0000031 0.0006278 0.0000031 0.0006278 0.9999969 -0.0006278
479 0.9999967 -0.0006565 0.0000033 0.0006565 0.0000033 0.0006565 0.9999967 -0.0006565
501 0.9999966 -0.0006864 0.0000034 0.0006864 0.0000034 0.0006864 0.9999966 -0.0006864
524 0.9999964 -0.0007178 0.0000036 0.0007178 0.0000036 0.0007178 0.9999964 -0.0007178
548 0.9999962 -0.0007506 0.0000038 0.0007506 0.0000038 0.0007506 0.9999962 -0.0007506
573 0.9999960 -0.0007848 0.0000040 0.0007848 0.0000040 0.0007848 0.9999960 -0.0007848
600 0.9999958 -0.0008207 0.0000042 0.0008207 0.0000042 0.0008207 0.9999958 -0.0008207
627 0.9999956 -0.0008581 0.0000044 0.0008581 0.0000044 0.0008581 0.9999956 -0.0008581
656 0.9999954 -0.0008973 0.0000046 0.0008973 0.0000046 0.0008973 0.9999954 -0.0008973
686 0.9999952 -0.0009383 0.0000048 0.0009383 0.0000048 0.0009383 0.9999952 -0.0009383
717 0.9999949 -0.0009812 0.0000051 0.0009812 0.0000051 0.0009812 0.9999949 -0.0009812
750 0.9999946 -0.0010260 0.0000054 0.0010260 0.0000054 0.0010260 0.9999946 -0.0010260
784 0.9999944 -0.0010729 0.0000056 0.0010729 0.0000056 0.0010729 0.9999944 -0.0010729
820 0.9999941 -0.0011219 0.0000059 0.0011219 0.0000059 0.0011219 0.9999941 -0.0011219
858 0.9999937 -0.0011731 0.0000063 0.0011731 0.0000063 0.0011731 0.9999937 -0.0011731
897 0.9999934 -0.0012267 0.0000066 0.0012267 0.0000066 0.0012267 0.9999934 -0.0012267
938 0.9999930 -0.0012828 0.0000070 0.0012828 0.0000070 0.0012828 0.9999930 -0.0012828
981 0.9999926 -0.0013414 0.0000074 0.0013414 0.0000074 0.0013414 0.9999926 -0.0013414
1026 0.9999922 -0.0014027 0.0000078 0.0014027 0.0000078 0.0014027 0.9999922 -0.0014027
1073 0.9999917 -0.0014667 0.0000083 0.0014667 0.0000083 0.0014667 0.9999917 -0.0014667
1122 0.9999912 -0.0015338 0.0000088 0.0015338 0.0000088 0.0015338 0.9999912 -0.0015338
1174 0.9999907 -0.0016038 0.0000093 0.0016038 0.0000093 0.0016038 0.9999907 -0.0016038
1227 0.9999901 -0.0016771 0.0000099 0.0016771 0.0000099 0.0016771 0.9999901 -0.0016771
1283 0.9999895 -0.0017537 0.0000105 0.0017537 0.0000105 0.0017537 0.9999895 -0.0017537
1342 0.9999888 -0.0018338 0.0000112 0.0018338 0.0000112 0.0018338 0.9999888 -0.0018338
1404 0.9999881 -0.0019176 0.0000119 0.0019176 0.0000119 0.0019176 0.9999881 -0.0019176
1468 0.9999873 -0.0020052 0.0000127 0.0020052 0.0000127 0.0020052 0.9999873 -0.0020052
1535 0.9999865 -0.0020967 0.0000135 0.0020967 0.0000135 0.0020967 0.9999865 -0.0020967
1606 0.9999856 -0.0021925 0.0000144 0.0021925 0.0000144 0.0021925 0.9999856 -0.0021925
1679 0.9999846 -0.0022926 0.0000154 0.0022926 0.0000154 0.0022926 0.9999846 -0.0022926
1756 0.9999836 -0.0023973 0.0000164 0.0023973 0.0000164 0.0023973 0.9999836 -0.0023973
1836 0.9999825 -0.0025067 0.0000175 0.0025067 0.0000175 0.0025067 0.9999825 -0.0025067
1920 0.9999813 -0.0026212 0.0000187 0.0026212 0.0000187 0.0026212 0.9999813 -0.0026212
2008 0.9999801 -0.0027408 0.0000199 0.0027408 0.0000199 0.0027408 0.9999801 -0.0027408
2100 0.9999787 -0.0028659 0.0000213 0.0028659 0.0000213 0.0028659 0.9999787 -0.0028659
2196 0.9999773 -0.0029968 0.0000227 0.0029968 0.0000227 0.0029968 0.9999773 -0.0029968
2297 0.9999757 -0.0031335 0.0000243 0.0031335 0.0000243 0.0031335 0.9999757 -0.0031335
2402 0.9999741 -0.0032765 0.0000259 0.0032765 0.0000259 0.0032765 0.9999741 -0.0032765
2512 0.9999723 -0.0034261 0.0000277 0.0034261 0.0000277 0.0034261 0.9999723 -0.0034261
2627 0.9999704 -0.0035824 0.0000296 0.0035824 0.0000296 0.0035824 0.9999704 -0.0035824
2748 0.9999684 -0.0037459 0.0000316 0.0037459 0.0000316 0.0037459 0.9999684 -0.0037459
2873 0.9999663 -0.0039168 0.0000337 0.0039168 0.0000337 0.0039168 0.9999663 -0.0039168
3005 0.9999640 -0.0040956 0.0000360 0.0040956 0.0000360 0.0040956 0.9999640 -0.0040956
3143 0.9999615 -0.0042824 0.0000385 0.0042824 0.0000385 0.0042824 0.9999615 -0.0042824
3287 0.9999588 -0.0044779 0.0000412 0.0044779 0.0000412 0.0044779 0.9999588 -0.0044779
3437 0.9999560 -0.0046822 0.0000440 0.0046822 0.0000440 0.0046822 0.9999560 -0.0046822
3594 0.9999530 -0.0048959 0.0000470 0.0048959 0.0000470 0.0048959 0.9999530 -0.0048959
3759 0.9999497 -0.0051193 0.0000503 0.0051193 0.0000503 0.0051193 0.9999497 -0.0051193
3931 0.9999462 -0.0053529 0.0000538 0.0053529 0.0000538 0.0053529 0.9999462 -0.0053529
4111 0.9999424 -0.0055972 0.0000576 0.0055972 0.0000576 0.0055972 0.9999424 -0.0055972
4299 0.9999384 -0.0058527 0.0000616 0.0058527 0.0000616 0.0058527 0.9999384 -0.0058527
4496 0.9999340 -0.0061198 0.0000660 0.0061198 0.0000660 0.0061198 0.9999340 -0.0061198
4702 0.9999293 -0.0063991 0.0000707 0.0063991 0.0000707 0.0063991 0.9999293 -0.0063991
4918 0.9999242 -0.0066913 0.0000758 0.0066913 0.0000758 0.0066913 0.9999242 -0.0066913
5143 0.9999187 -0.0069967 0.0000813 0.0069967 0.0000813 0.0069967 0.9999187 -0.0069967
5378 0.9999127 -0.0073161 0.0000873 0.0073161 0.0000873 0.0073161 0.9999127 -0.0073161
5625 0.9999062 -0.0076502 0.0000938 0.0076502 0.0000938 0.0076502 0.9999062 -0.0076502
5882 0.9998992 -0.0079994 0.0001008 0.0079994 0.0001008 0.0079994 0.9998992 -0.0079994
6151 0.9998916 -0.0083647 0.0001084 0.0083647 0.0001084 0.0083647 0.9998916 -0.0083647
6433 0.9998834 -0.0087466 0.0001166 0.0087466 0.0001166 0.0087466 0.9998834 -0.0087466
6728 0.9998745 -0.0091460 0.0001255 0.0091460 0.0001255 0.0091460 0.9998745 -0.0091460
7036 0.9998647 -0.0095637 0.0001353 0.0095637 0.0001353 0.0095637 0.9998647 -0.0095637
7358 0.9998542 -0.0100004 0.0001458 0.0100004 0.0001458 0.0100004 0.9998542 -0.0100004
7695 0.9998427 -0.0104570 0.0001573 0.0104570 0.0001573 0.0104570 0.9998427 -0.0104570
8047 0.9998302 -0.0109345 0.0001698 0.0109345 0.0001698 0.0109345 0.9998302 -0.0109345
8416 0.9998166 -0.0114338 0.0001834 0.0114338 0.0001834 0.0114338 0.9998166 -0.0114338
8801 0.9998018 -0.0119559 0.0001982 0.0119559 0.0001982 0.0119559 0.9998018 -0.0119559
9204 0.9997857 -0.0125018 0.0002143 0.0125018 0.0002143 0.0125018 0.9997857 -0.0125018
9626 0.9997681 -0.0130726 0.0002319 0.0130726 0.0002319 0.0130726 0.9997681 -0.0130726
10066 0.9997490 -0.0136694 0.0002510 0.0136694 0.0002510 0.0136694 0.9997490 -0.0136694
10527 0.9997282 -0.0142934 0.0002718 0.0142934 0.0002718 0.0142934 0.9997282 -0.0142934
11009 0.9997056 -0.0149458 0.0002944 0.0149458 0.0002944 0.0149458 0.9997056 -0.0149458
11514 0.9996810 -0.0156279 0.0003190 0.0156279 0.0003190 0.0156279 0.9996810 -0.0156279
12041 0.9996541 -0.0163411 0.0003459 0.0163411 0.0003459 0.0163411 0.9996541 -0.0163411
12592 0.9996249 -0.0170867 0.0003751 0.0170867 0.0003751 0.0170867 0.9996249 -0.0170867
13169 0.9995931 -0.0178663 0.0004069 0.0178663 0.0004069 0.0178663 0.9995931 -0.0178663
13772 0.9995585 -0.0186812 0.0004415 0.0186812 0.0004415 0.0186812 0.9995585 -0.0186812
14402 0.9995209 -0.0195333 0.0004791 0.0195333 0.0004791 0.0195333 0.9995209 -0.0195333
15062 0.9994799 -0.0204240 0.0005201 0.0204240 0.0005201 0.0204240 0.9994799 -0.0204240
15752 0.9994353 -0.0213552 0.0005647 0.0213552 0.0005647 0.0213552 0.9994353 -0.0213552
16473 0.9993867 -0.0223287 0.0006133 0.0223287 0.0006133 0.0223287 0.9993867 -0.0223287
17227 0.9993339 -0.0233464 0.0006661 0.0233464 0.0006661 0.0233464 0.9993339 -0.0233464
18016 0.9992764 -0.0244103 0.0007236 0.0244103 0.0007236 0.0244103 0.9992764 -0.0244103
18841 0.9992139 -0.0255224 0.0007861 0.0255224 0.0007861 0.0255224 0.9992139 -0.0255224
19704 0.9991459 -0.0266849 0.0008541 0.0266849 0.0008541 0.0266849 0.9991459 -0.0266849
20606 0.9990718 -0.0279001 0.0009282 0.0279001 0.0009282 0.0279001 0.9990718 -0.0279001
21550 0.9989913 -0.0291705 0.0010087 0.0291705 0.0010087 0.0291705 0.9989913 -0.0291705
22537 0.9989036 -0.0304983 0.0010964 0.0304983 0.0010964 0.0304983 0.9989036 -0.0304983
23569 0.9988082 -0.0318863 0.0011918 0.0318863 0.0011918 0.0318863 0.9988082 -0.0318863
24648 0.9987043 -0.0333371 0.0012957 0.0333371 0.0012957 0.0333371 0.9987043 -0.0333371
25777 0.9985913 -0.0348536 0.0014087 0.0348536 0.0014087 0.0348536 0.9985913 -0.0348536
26957 0.9984682 -0.0364386 0.0015318 0.0364386 0.0015318 0.0364386 0.9984682 -0.0364386
28191 0.9983342 -0.0380953 0.0016658 0.0380953 0.0016658 0.0380953 0.9983342 -0.0380953
29482 0.9981883 -0.0398268 0.0018117 0.0398268 0.0018117 0.0398268 0.9981883 -0.0398268
30832 0.9980293 -0.0416365 0.0019707 0.0416365 0.0019707 0.0416365 0.9980293 -0.0416365
32244 0.9978561 -0.0435278 0.0021439 0.0435278 0.0021439 0.0435278 0.9978561 -0.0435278
33721 0.9976674 -0.0455044 0.0023326 0.0455044 0.0023326 0.0455044 0.9976674 -0.0455044
35265 0.9974618 -0.0475699 0.0025382 0.0475699 0.0025382 0.0475699 0.9974618 -0.0475699
36880 0.9972377 -0.0497283 0.0027623 0.0497283 0.0027623 0.0497283 0.9972377 -0.0497283
38569 0.9969933 -0.0519837 0.0030067 0.0519837 0.0030067 0.0519837 0.9969933 -0.0519837
40335 0.9967269 -0.0543402 0.0032731 0.0543402 0.0032731 0.0543402 0.9967269 -0.0543402
42182 0.9964365 -0.0568022 0.0035635 0.0568022 0.0035635 0.0568022 0.9964365 -0.0568022
44113 0.9961197 -0.0593743 0.0038803 0.0593743 0.0038803 0.0593743 0.9961197 -0.0593743
46134 0.9957742 -0.0620611 0.0042258 0.0620611 0.0042258 0.0620611 0.9957742 -0.0620611
48246 0.9953974 -0.0648674 0.0046026 0.0648674 0.0046026 0.0648674 0.9953974 -0.0648674
50455 0.9949864 -0.0677984 0.0050136 0.0677984 0.0050136 0.0677984 0.9949864 -0.0677984
52766 0.9945381 -0.0708590 0.0054619 0.0708590 0.0054619 0.0708590 0.9945381 -0.0708590
55182 0.9940491 -0.0740548 0.0059509 0.0740548 0.0059509 0.0740548 0.9940491 -0.0740548
57709 0.9935157 -0.0773912 0.0064843 0.0773912 0.0064843 0.0773912 0.9935157 -0.0773912
60352 0.9929339 -0.0808739 0.0070661 0.0808739 0.0070661 0.0808739 0.9929339 -0.0808739
63115 0.9922994 -0.0845086 0.0077006 0.0845086 0.0077006 0.0845086 0.9922994 -0.0845086
66005 0.9916074 -0.0883013 0.0083926 0.0883013 0.0083926 0.0883013 0.9916074 -0.0883013
69028 0.9908527 -0.0922582 0.0091473 0.0922582 0.0091473 0.0922582 0.9908527 -0.0922582
72189 0.9900299 -0.0963854 0.0099701 0.0963854 0.0099701 0.0963854 0.9900299 -0.0963854
75495 0.9891328 -0.1006893 0.0108672 0.1006893 0.0108672 0.1006893 0.9891328 -0.1006893
78952 0.9881550 -0.1051763 0.0118450 0.1051763 0.0118450 0.1051763 0.9881550 -0.1051763
82567 0.9870892 -0.1098529 0.0129108 0.1098529 0.0129108 0.1098529 0.9870892 -0.1098529
86348 0.9859279 -0.1147257 0.0140721 0.1147257 0.0140721 0.1147257 0.9859279 -0.1147257
90302 0.9846627 -0.1198014 0.0153373 0.1198014 0.0153373 0.1198014 0.9846627 -0.1198014
94437 0.9832847 -0.1250864 0.0167153 0.1250864 0.0167153 0.1250864 0.9832847 -0.1250864
98762 0.9817841 -0.1305875 0.0182159 0.1305875 0.0182159 0.1305875 0.9817841 -0.1305875
103284 0.9801504 -0.1363109 0.0198496 0.1363109 0.0198496 0.1363109 0.9801504 -0.1363109
108014 0.9783725 -0.1422631 0.0216275 0.1422631 0.0216275 0.1422631 0.9783725 -0.1422631
112960 0.9764381 -0.1484502 0.0235619 0.1484502 0.0235619 0.1484502 0.9764381 -0.1484502
118133 0.9743342 -0.1548781 0.0256658 0.1548781 0.0256658 0.1548781 0.9743342 -0.1548781
123542 0.9720467 -0.1615523 0.0279533 0.1615523 0.0279533 0.1615523 0.9720467 -0.1615523
129199 0.9695605 -0.1684778 0.0304395 0.1684778 0.0304395 0.1684778 0.9695605 -0.1684778
135116 0.9668596 -0.1756593 0.0331404 0.1756593 0.0331404 0.1756593 0.9668596 -0.1756593
141303 0.9639267 -0.1831006 0.0360733 0.1831006 0.0360733 0.1831006 0.9639267 -0.1831006
147774 0.9607434 -0.1908049 0.0392566 0.1908049 0.0392566 0.1908049 0.9607434 -0.1908049
154540 0.9572902 -0.1987743 0.0427098 0.1987743 0.0427098 0.1987743 0.9572902 -0.1987743
161617 0.9535464 -0.2070100 0.0464536 0.2070100 0.0464536 0.2070100 0.9535464 -0.2070100
169018 0.9494900 -0.2155119 0.0505100 0.2155119 0.0505100 0.2155119 0.9494900 -0.2155119
176758 0.9450980 -0.2242784 0.0549020 0.2242784 0.0549020 0.2242784 0.9450980 -0.2242784
184852 0.9403460 -0.2333063 0.0596540 0.2333063 0.0596540 0.2333063 0.9403460 -0.2333063
193316 0.9352087 -0.2425905 0.0647913 0.2425905 0.0647913 0.2425905 0.9352087 -0.2425905
202169 0.9296597 -0.2521239 0.0703403 0.2521239 0.0703403 0.2521239 0.9296597 -0.2521239
211427 0.9236717 -0.2618971 0.0763283 0.2618971 0.0763283 0.2618971 0.9236717 -0.2618971
221108 0.9172167 -0.2718980 0.0827833 0.2718980 0.0827833 0.2718980 0.9172167 -0.2718980
231233 0.9102659 -0.2821117 0.0897341 0.2821117 0.0897341 0.2821117 0.9102659 -0.2821117
241822 0.9027905 -0.2925204 0.0972095 0.2925204 0.0972095 0.2925204 0.9027905 -0.2925204
252896 0.8947612 -0.3031028 0.1052388 0.3031028 0.1052388 0.3031028 0.8947612 -0.3031028
264476 0.8861493 -0.3138340 0.1138507 0.3138340 0.1138507 0.3138340 0.8861493 -0.3138340
276587 0.8769265 -0.3246857 0.1230735 0.3246857 0.1230735 0.3246857 0.8769265 -0.3246857
289253 0.8670656 -0.3356252 0.1329344 0.3356252 0.1329344 0.3356252 0.8670656 -0.3356252
302498 0.8565410 -0.3466162 0.1434590 0.3466162 0.1434590 0.3466162 0.8565410 -0.3466162
316350 0.8453290 -0.3576181 0.1546710 0.3576181 0.1546710 0.3576181 0.8453290 -0.3576181
330837 0.8334089 -0.3685860 0.1665911 0.3685860 0.1665911 0.3685860 0.8334089 -0.3685860
345986 0.8207627 -0.3794713 0.1792373 0.3794713 0.1792373 0.3794713 0.8207627 -0.3794713
361830 0.8073769 -0.3902213 0.1926231 0.3902213 0.1926231 0.3902213 0.8073769 -0.3902213
378399 0.7932421 -0.4007798 0.2067579 0.4007798 0.2067579 0.4007798 0.7932421 -0.4007798
395726 0.7783544 -0.4110874 0.2216456 0.4110874 0.2216456 0.4110874 0.7783544 -0.4110874
413847 0.7627157 -0.4210818 0.2372843 0.4210818 0.2372843 0.4210818 0.7627157 -0.4210818
432798 0.7463341 -0.4306989 0.2536659 0.4306989 0.2536659 0.4306989 0.7463341 -0.4306989
452617 0.7292251 -0.4398730 0.2707749 0.4398730 0.2707749 0.4398730 0.7292251 -0.4398730
473344 0.7114111 -0.4485382 0.2885889 0.4485382 0.2885889 0.4485382 0.7114111 -0.4485382
495019 0.6929225 -0.4566290 0.3070775 0.4566290 0.3070775 0.4566290 0.6929225 -0.4566290
517687 0.6737973 -0.4640813 0.3262027 0.4640813 0.3262027 0.4640813 0.6737973 -0.4640813
541393 0.6540815 -0.4708338 0.3459185 0.4708338 0.3459185 0.4708338 0.6540815 -0.4708338
566185 0.6338285 -0.4768290 0.3661715 0.4768290 0.3661715 0.4768290 0.6338285 -0.4768290
592111 0.6130991 -0.4820142 0.3869009 0.4820142 0.3869009 0.4820142 0.6130991 -0.4820142
619225 0.5919606 -0.4863427 0.4080394 0.4863427 0.4080394 0.4863427 0.5919606 -0.4863427
647581 0.5704862 -0.4897748 0.4295138 0.4897748 0.4295138 0.4897748 0.5704862 -0.4897748
677235 0.5487538 -0.4922786 0.4512462 0.4922786 0.4512462 0.4922786 0.5487538 -0.4922786
708247 0.5268454 -0.4938308 0.4731546 0.4938308 0.4731546 0.4938308 0.5268454 -0.4938308
740679 0.5048455 -0.4944170 0.4951545 0.4944170 0.4951545 0.4944170 0.5048455 -0.4944170
774597 0.4828397 -0.4940322 0.5171603 0.4940322 0.5171603 0.4940322 0.4828397 -0.4940322
810067 0.4609139 -0.4926811 0.5390861 0.4926811 0.5390861 0.4926811 0.4609139 -0.4926811
847162 0.4391523 -0.4903774 0.5608477 0.4903774 0.5608477 0.4903774 0.4391523 -0.4903774
885955 0.4176367 -0.4871441 0.5823633 0.4871441 0.5823633 0.4871441 0.4176367 -0.4871441
926525 0.3964449 -0.4830124 0.6035551 0.4830124 0.6035551 0.4830124 0.3964449 -0.4830124
968953 0.3756501 -0.4780213 0.6243499 0.4780213 0.6243499 0.4780213 0.3756501 -0.4780213
1013323 0.3553193 -0.4722166 0.6446807 0.4722166 0.6446807 0.4722166 0.3553193 -0.4722166
1059725 0.3355133 -0.4656501 0.6644867 0.4656501 0.6644867 0.4656501 0.3355133 -0.4656501
1108252 0.3162856 -0.4583783 0.6837144 0.4583783 0.6837144 0.4583783 0.3162856 -0.4583783
1159002 0.2976826 -0.4504614 0.7023174 0.4504614 0.7023174 0.4504614 0.2976826 -0.4504614
1212075 0.2797426 -0.4419624 0.7202574 0.4419624 0.7202574 0.4419624 0.2797426 -0.4419624
1267578 0.2624966 -0.4329456 0.7375034 0.4329456 0.7375034 0.4329456 0.2624966 -0.4329456
1325623 0.2459680 -0.4234761 0.7540320 0.4234761 0.7540320 0.4234761 0.2459680 -0.4234761
1386327 0.2301730 -0.4136184 0.7698270 0.4136184 0.7698270 0.4136184 0.2301730 -0.4136184
1449809 0.2151210 -0.4034361 0.7848790 0.4034361 0.7848790 0.4034361 0.2151210 -0.4034361
1516199 0.2008151 -0.3929906 0.7991849 0.3929906 0.7991849 0.3929906 0.2008151 -0.3929906
1585629 0.1872527 -0.3823409 0.8127473 0.3823409 0.8127473 0.3823409 0.1872527 -0.3823409
1658239 0.1744259 -0.3715431 0.8255741 0.3715431 0.8255741 0.3715431 0.1744259 -0.3715431
1734173 0.1623222 -0.3606497 0.8376778 0.3606497 0.8376778 0.3606497 0.1623222 -0.3606497
1813585 0.1509254 -0.3497095 0.8490746 0.3497095 0.8490746 0.3497095 0.1509254 -0.3497095
1896632 0.1402158 -0.3387676 0.8597842 0.3387676 0.8597842 0.3387676 0.1402158 -0.3387676
1983483 0.1301710 -0.3278652 0.8698290 0.3278652 0.8698290 0.3278652 0.1301710 -0.3278652
2074311 0.1207665 -0.3170392 0.8792335 0.3170392 0.8792335 0.3170392 0.1207665 -0.3170392
