!Murata Part Number: GRM155C80J105KA12
!These Parameters are Measured in Series Mode Connection
!Data Generated on Mar 30, 2021
!       o--ll--o
!Port1            Port2
!       o------o
!Operation Temp=25[degC], DC Bias Voltage=0[V]
!Freq. Start=100[Hz] Stop=6[GHz] 401[Steps]
# Hz S RI R 50
!Freq.(Hz) S11(Real) S11(Imag) S21(Real) S21(Imag) S12(Real) S12(Imag) S22(Real) S22(Imag)
100 0.9982239 -0.0327792 0.0017761 0.0327792 0.0017761 0.0327792 0.9982239 -0.0327792
105 0.9980915 -0.0342478 0.0019085 0.0342478 0.0019085 0.0342478 0.9980915 -0.0342478
109 0.9979493 -0.0357821 0.0020507 0.0357821 0.0020507 0.0357821 0.9979493 -0.0357821
114 0.9977963 -0.0373852 0.0022037 0.0373852 0.0022037 0.0373852 0.9977963 -0.0373852
120 0.9976315 -0.0390602 0.0023685 0.0390602 0.0023685 0.0390602 0.9976315 -0.0390602
125 0.9974539 -0.0408102 0.0025461 0.0408102 0.0025461 0.0408102 0.9974539 -0.0408102
131 0.9972624 -0.0426388 0.0027376 0.0426388 0.0027376 0.0426388 0.9972624 -0.0426388
137 0.9970555 -0.0445493 0.0029445 0.0445493 0.0029445 0.0445493 0.9970555 -0.0445493
143 0.9968318 -0.0465454 0.0031682 0.0465454 0.0031682 0.0465454 0.9968318 -0.0465454
150 0.9965898 -0.0486308 0.0034102 0.0486308 0.0034102 0.0486308 0.9965898 -0.0486308
156 0.9963279 -0.0508096 0.0036721 0.0508096 0.0036721 0.0508096 0.9963279 -0.0508096
164 0.9960440 -0.0530856 0.0039560 0.0530856 0.0039560 0.0530856 0.9960440 -0.0530856
171 0.9957362 -0.0554631 0.0042638 0.0554631 0.0042638 0.0554631 0.9957362 -0.0554631
179 0.9954022 -0.0579463 0.0045978 0.0579463 0.0045978 0.0579463 0.9954022 -0.0579463
187 0.9950396 -0.0605398 0.0049604 0.0605398 0.0049604 0.0605398 0.9950396 -0.0605398
196 0.9946457 -0.0632481 0.0053543 0.0632481 0.0053543 0.0632481 0.9946457 -0.0632481
205 0.9942178 -0.0660758 0.0057822 0.0660758 0.0057822 0.0660758 0.9942178 -0.0660758
214 0.9937527 -0.0690280 0.0062473 0.0690280 0.0062473 0.0690280 0.9937527 -0.0690280
224 0.9932470 -0.0721095 0.0067530 0.0721095 0.0067530 0.0721095 0.9932470 -0.0721095
234 0.9926970 -0.0753254 0.0073030 0.0753254 0.0073030 0.0753254 0.9926970 -0.0753254
245 0.9920989 -0.0786810 0.0079011 0.0786810 0.0079011 0.0786810 0.9920989 -0.0786810
256 0.9914483 -0.0821816 0.0085517 0.0821816 0.0085517 0.0821816 0.9914483 -0.0821816
268 0.9907407 -0.0858326 0.0092593 0.0858326 0.0092593 0.0858326 0.9907407 -0.0858326
280 0.9899711 -0.0896396 0.0100289 0.0896396 0.0100289 0.0896396 0.9899711 -0.0896396
293 0.9891341 -0.0936083 0.0108659 0.0936083 0.0108659 0.0936083 0.9891341 -0.0936083
306 0.9882240 -0.0977442 0.0117760 0.0977442 0.0117760 0.0977442 0.9882240 -0.0977442
320 0.9872344 -0.1020532 0.0127656 0.1020532 0.0127656 0.1020532 0.9872344 -0.1020532
335 0.9861588 -0.1065410 0.0138412 0.1065410 0.0138412 0.1065410 0.9861588 -0.1065410
350 0.9849899 -0.1112136 0.0150101 0.1112136 0.0150101 0.1112136 0.9849899 -0.1112136
366 0.9837201 -0.1160766 0.0162799 0.1160766 0.0162799 0.1160766 0.9837201 -0.1160766
383 0.9823410 -0.1211358 0.0176590 0.1211358 0.0176590 0.1211358 0.9823410 -0.1211358
401 0.9808439 -0.1263970 0.0191561 0.1263970 0.0191561 0.1263970 0.9808439 -0.1263970
419 0.9792191 -0.1318659 0.0207809 0.1318659 0.0207809 0.1318659 0.9792191 -0.1318659
438 0.9774565 -0.1375478 0.0225435 0.1375478 0.0225435 0.1375478 0.9774565 -0.1375478
458 0.9755454 -0.1434481 0.0244546 0.1434481 0.0244546 0.1434481 0.9755454 -0.1434481
479 0.9734740 -0.1495720 0.0265260 0.1495720 0.0265260 0.1495720 0.9734740 -0.1495720
501 0.9712301 -0.1559243 0.0287699 0.1559243 0.0287699 0.1559243 0.9712301 -0.1559243
524 0.9688003 -0.1625094 0.0311997 0.1625094 0.0311997 0.1625094 0.9688003 -0.1625094
548 0.9661708 -0.1693315 0.0338292 0.1693315 0.0338292 0.1693315 0.9661708 -0.1693315
573 0.9633264 -0.1763941 0.0366736 0.1763941 0.0366736 0.1763941 0.9633264 -0.1763941
600 0.9602514 -0.1837004 0.0397486 0.1837004 0.0397486 0.1837004 0.9602514 -0.1837004
627 0.9569289 -0.1912526 0.0430711 0.1912526 0.0430711 0.1912526 0.9569289 -0.1912526
656 0.9533411 -0.1990523 0.0466589 0.1990523 0.0466589 0.1990523 0.9533411 -0.1990523
686 0.9494689 -0.2071003 0.0505311 0.2071003 0.0505311 0.2071003 0.9494689 -0.2071003
717 0.9452925 -0.2153961 0.0547075 0.2153961 0.0547075 0.2153961 0.9452925 -0.2153961
750 0.9407908 -0.2239381 0.0592092 0.2239381 0.0592092 0.2239381 0.9407908 -0.2239381
784 0.9359417 -0.2327232 0.0640583 0.2327232 0.0640583 0.2327232 0.9359417 -0.2327232
820 0.9307222 -0.2417469 0.0692778 0.2417469 0.0692778 0.2417469 0.9307222 -0.2417469
858 0.9251080 -0.2510027 0.0748920 0.2510027 0.0748920 0.2510027 0.9251080 -0.2510027
897 0.9190742 -0.2604822 0.0809258 0.2604822 0.0809258 0.2604822 0.9190742 -0.2604822
938 0.9125950 -0.2701747 0.0874050 0.2701747 0.0874050 0.2701747 0.9125950 -0.2701747
981 0.9056437 -0.2800669 0.0943563 0.2800669 0.0943563 0.2800669 0.9056437 -0.2800669
1026 0.8981935 -0.2901429 0.1018065 0.2901429 0.1018065 0.2901429 0.8981935 -0.2901429
1073 0.8902170 -0.3003835 0.1097830 0.3003835 0.1097830 0.3003835 0.8902170 -0.3003835
1122 0.8816870 -0.3107666 0.1183130 0.3107666 0.1183130 0.3107666 0.8816870 -0.3107666
1174 0.8725767 -0.3212663 0.1274233 0.3212663 0.1274233 0.3212663 0.8725767 -0.3212663
1227 0.8628599 -0.3318532 0.1371401 0.3318532 0.1371401 0.3318532 0.8628599 -0.3318532
1283 0.8525118 -0.3424940 0.1474882 0.3424940 0.1474882 0.3424940 0.8525118 -0.3424940
1342 0.8415090 -0.3531514 0.1584910 0.3531514 0.1584910 0.3531514 0.8415090 -0.3531514
1404 0.8298306 -0.3637840 0.1701694 0.3637840 0.1701694 0.3637840 0.8298306 -0.3637840
1468 0.8174585 -0.3743466 0.1825415 0.3743466 0.1825415 0.3743466 0.8174585 -0.3743466
1535 0.8043781 -0.3847901 0.1956219 0.3847901 0.1956219 0.3847901 0.8043781 -0.3847901
1606 0.7905787 -0.3950615 0.2094213 0.3950615 0.2094213 0.3950615 0.7905787 -0.3950615
1679 0.7760548 -0.4051048 0.2239452 0.4051048 0.2239452 0.4051048 0.7760548 -0.4051048
1756 0.7608061 -0.4148609 0.2391939 0.4148609 0.2391939 0.4148609 0.7608061 -0.4148609
1836 0.7448382 -0.4242683 0.2551618 0.4242683 0.2551618 0.4242683 0.7448382 -0.4242683
1920 0.7281636 -0.4332641 0.2718364 0.4332641 0.2718364 0.4332641 0.7281636 -0.4332641
2008 0.7108017 -0.4417845 0.2891983 0.4417845 0.2891983 0.4417845 0.7108017 -0.4417845
2100 0.6927793 -0.4497656 0.3072207 0.4497656 0.3072207 0.4497656 0.6927793 -0.4497656
2196 0.6741309 -0.4571450 0.3258691 0.4571450 0.3258691 0.4571450 0.6741309 -0.4571450
2297 0.6548987 -0.4638620 0.3451013 0.4638620 0.3451013 0.4638620 0.6548987 -0.4638620
2402 0.6351323 -0.4698597 0.3648677 0.4698597 0.3648677 0.4698597 0.6351323 -0.4698597
2512 0.6148886 -0.4750853 0.3851114 0.4750853 0.3851114 0.4750853 0.6148886 -0.4750853
2627 0.5942314 -0.4794916 0.4057686 0.4794916 0.4057686 0.4794916 0.5942314 -0.4794916
2748 0.5732302 -0.4830381 0.4267698 0.4830381 0.4267698 0.4830381 0.5732302 -0.4830381
2873 0.5519599 -0.4856916 0.4480401 0.4856916 0.4480401 0.4856916 0.5519599 -0.4856916
3005 0.5304993 -0.4874271 0.4695007 0.4874271 0.4695007 0.4874271 0.5304993 -0.4874271
3143 0.5089299 -0.4882287 0.4910701 0.4882287 0.4910701 0.4882287 0.5089299 -0.4882287
3287 0.4873353 -0.4880892 0.5126647 0.4880892 0.5126647 0.4880892 0.4873353 -0.4880892
3437 0.4657988 -0.4870111 0.5342012 0.4870111 0.5342012 0.4870111 0.4657988 -0.4870111
3594 0.4444031 -0.4850061 0.5555969 0.4850061 0.5555969 0.4850061 0.4444031 -0.4850061
3759 0.4232281 -0.4820948 0.5767719 0.4820948 0.5767719 0.4820948 0.4232281 -0.4820948
3931 0.4023504 -0.4783061 0.5976496 0.4783061 0.5976496 0.4783061 0.4023504 -0.4783061
4111 0.3818419 -0.4736768 0.6181581 0.4736768 0.6181581 0.4736768 0.3818419 -0.4736768
4299 0.3617687 -0.4682506 0.6382313 0.4682506 0.6382313 0.4682506 0.3617687 -0.4682506
4496 0.3421906 -0.4620769 0.6578094 0.4620769 0.6578094 0.4620769 0.3421906 -0.4620769
4702 0.3231605 -0.4552101 0.6768395 0.4552101 0.6768395 0.4552101 0.3231605 -0.4552101
4918 0.3047240 -0.4477081 0.6952760 0.4477081 0.6952760 0.4477081 0.3047240 -0.4477081
5143 0.2869189 -0.4396317 0.7130811 0.4396317 0.7130811 0.4396317 0.2869189 -0.4396317
5378 0.2697757 -0.4310428 0.7302243 0.4310428 0.7302243 0.4310428 0.2697757 -0.4310428
5625 0.2533176 -0.4220042 0.7466824 0.4220042 0.7466824 0.4220042 0.2533176 -0.4220042
5882 0.2375605 -0.4125780 0.7624395 0.4125780 0.7624395 0.4125780 0.2375605 -0.4125780
6151 0.2225140 -0.4028251 0.7774860 0.4028251 0.7774860 0.4028251 0.2225140 -0.4028251
6433 0.2081814 -0.3928044 0.7918186 0.3928044 0.7918186 0.3928044 0.2081814 -0.3928044
6728 0.1945604 -0.3825724 0.8054396 0.3825724 0.8054396 0.3825724 0.1945604 -0.3825724
7036 0.1816441 -0.3721823 0.8183559 0.3721823 0.8183559 0.3721823 0.1816441 -0.3721823
7358 0.1694209 -0.3616841 0.8305791 0.3616841 0.8305791 0.3616841 0.1694209 -0.3616841
7695 0.1578761 -0.3511243 0.8421239 0.3511243 0.8421239 0.3511243 0.1578761 -0.3511243
8047 0.1469914 -0.3405454 0.8530086 0.3405454 0.8530086 0.3405454 0.1469914 -0.3405454
8416 0.1367466 -0.3299863 0.8632534 0.3299863 0.8632534 0.3299863 0.1367466 -0.3299863
8801 0.1271191 -0.3194822 0.8728809 0.3194822 0.8728809 0.3194822 0.1271191 -0.3194822
9204 0.1180852 -0.3090644 0.8819148 0.3090644 0.8819148 0.3090644 0.1180852 -0.3090644
9626 0.1096201 -0.2987609 0.8903799 0.2987609 0.8903799 0.2987609 0.1096201 -0.2987609
10066 0.1016984 -0.2885962 0.8983016 0.2885962 0.8983016 0.2885962 0.1016984 -0.2885962
10527 0.0942942 -0.2785918 0.9057058 0.2785918 0.9057058 0.2785918 0.0942942 -0.2785918
11009 0.0873819 -0.2687660 0.9126181 0.2687660 0.9126181 0.2687660 0.0873819 -0.2687660
11514 0.0809359 -0.2591347 0.9190641 0.2591347 0.9190641 0.2591347 0.0809359 -0.2591347
12041 0.0749310 -0.2497110 0.9250690 0.2497110 0.9250690 0.2497110 0.0749310 -0.2497110
12592 0.0693427 -0.2405057 0.9306573 0.2405057 0.9306573 0.2405057 0.0693427 -0.2405057
13169 0.0641468 -0.2315277 0.9358532 0.2315277 0.9358532 0.2315277 0.0641468 -0.2315277
13772 0.0593203 -0.2227839 0.9406797 0.2227839 0.9406797 0.2227839 0.0593203 -0.2227839
14402 0.0548407 -0.2142794 0.9451593 0.2142794 0.9451593 0.2142794 0.0548407 -0.2142794
15062 0.0506865 -0.2060179 0.9493135 0.2060179 0.9493135 0.2060179 0.0506865 -0.2060179
15752 0.0468370 -0.1980017 0.9531630 0.1980017 0.9531630 0.1980017 0.0468370 -0.1980017
16473 0.0432726 -0.1902318 0.9567274 0.1902318 0.9567274 0.1902318 0.0432726 -0.1902318
17227 0.0399744 -0.1827080 0.9600256 0.1827080 0.9600256 0.1827080 0.0399744 -0.1827080
18016 0.0369245 -0.1754295 0.9630755 0.1754295 0.9630755 0.1754295 0.0369245 -0.1754295
18841 0.0341061 -0.1683943 0.9658939 0.1683943 0.9658939 0.1683943 0.0341061 -0.1683943
19704 0.0315030 -0.1615997 0.9684970 0.1615997 0.9684970 0.1615997 0.0315030 -0.1615997
20606 0.0291000 -0.1550426 0.9709000 0.1550426 0.9709000 0.1550426 0.0291000 -0.1550426
21550 0.0268830 -0.1487190 0.9731170 0.1487190 0.9731170 0.1487190 0.0268830 -0.1487190
22537 0.0248384 -0.1426247 0.9751616 0.1426247 0.9751616 0.1426247 0.0248384 -0.1426247
23569 0.0229535 -0.1367549 0.9770465 0.1367549 0.9770465 0.1367549 0.0229535 -0.1367549
24648 0.0212165 -0.1311047 0.9787835 0.1311047 0.9787835 0.1311047 0.0212165 -0.1311047
25777 0.0196162 -0.1256686 0.9803838 0.1256686 0.9803838 0.1256686 0.0196162 -0.1256686
26957 0.0181422 -0.1204412 0.9818578 0.1204412 0.9818578 0.1204412 0.0181422 -0.1204412
28191 0.0167849 -0.1154167 0.9832151 0.1154167 0.9832151 0.1154167 0.0167849 -0.1154167
29482 0.0155351 -0.1105892 0.9844649 0.1105892 0.9844649 0.1105892 0.0155351 -0.1105892
30832 0.0143844 -0.1059530 0.9856156 0.1059530 0.9856156 0.1059530 0.0143844 -0.1059530
32244 0.0133249 -0.1015019 0.9866751 0.1015019 0.9866751 0.1015019 0.0133249 -0.1015019
33721 0.0123493 -0.0972300 0.9876507 0.0972300 0.9876507 0.0972300 0.0123493 -0.0972300
35265 0.0114510 -0.0931314 0.9885490 0.0931314 0.9885490 0.0931314 0.0114510 -0.0931314
36880 0.0106235 -0.0891999 0.9893765 0.0891999 0.9893765 0.0891999 0.0106235 -0.0891999
38569 0.0098611 -0.0854299 0.9901389 0.0854299 0.9901389 0.0854299 0.0098611 -0.0854299
40335 0.0091585 -0.0818153 0.9908415 0.0818153 0.9908415 0.0818153 0.0091585 -0.0818153
42182 0.0085106 -0.0783505 0.9914894 0.0783505 0.9914894 0.0783505 0.0085106 -0.0783505
44113 0.0079130 -0.0750299 0.9920870 0.0750299 0.9920870 0.0750299 0.0079130 -0.0750299
46134 0.0073614 -0.0718479 0.9926386 0.0718479 0.9926386 0.0718479 0.0073614 -0.0718479
48246 0.0068521 -0.0687992 0.9931479 0.0687992 0.9931479 0.0687992 0.0068521 -0.0687992
50455 0.0063814 -0.0658784 0.9936186 0.0658784 0.9936186 0.0658784 0.0063814 -0.0658784
52766 0.0059461 -0.0630805 0.9940539 0.0630805 0.9940539 0.0630805 0.0059461 -0.0630805
55182 0.0055432 -0.0604004 0.9944568 0.0604004 0.9944568 0.0604004 0.0055432 -0.0604004
57709 0.0051702 -0.0578333 0.9948298 0.0578333 0.9948298 0.0578333 0.0051702 -0.0578333
60352 0.0048244 -0.0553746 0.9951756 0.0553746 0.9951756 0.0553746 0.0048244 -0.0553746
63115 0.0045038 -0.0530197 0.9954962 0.0530197 0.9954962 0.0530197 0.0045038 -0.0530197
66005 0.0042061 -0.0507644 0.9957939 0.0507644 0.9957939 0.0507644 0.0042061 -0.0507644
69028 0.0039297 -0.0486043 0.9960703 0.0486043 0.9960703 0.0486043 0.0039297 -0.0486043
72189 0.0036728 -0.0465354 0.9963272 0.0465354 0.9963272 0.0465354 0.0036728 -0.0465354
75495 0.0034338 -0.0445539 0.9965662 0.0445539 0.9965662 0.0445539 0.0034338 -0.0445539
78952 0.0032115 -0.0426560 0.9967885 0.0426560 0.9967885 0.0426560 0.0032115 -0.0426560
82567 0.0030046 -0.0408382 0.9969954 0.0408382 0.9969954 0.0408382 0.0030046 -0.0408382
86348 0.0028119 -0.0390971 0.9971881 0.0390971 0.9971881 0.0390971 0.0028119 -0.0390971
90302 0.0026324 -0.0374294 0.9973676 0.0374294 0.9973676 0.0374294 0.0026324 -0.0374294
94437 0.0024652 -0.0358320 0.9975348 0.0358320 0.9975348 0.0358320 0.0024652 -0.0358320
98762 0.0023095 -0.0343018 0.9976905 0.0343018 0.9976905 0.0343018 0.0023095 -0.0343018
103284 0.0021644 -0.0328361 0.9978356 0.0328361 0.9978356 0.0328361 0.0021644 -0.0328361
108014 0.0020292 -0.0314322 0.9979708 0.0314322 0.9979708 0.0314322 0.0020292 -0.0314322
112960 0.0019034 -0.0300874 0.9980966 0.0300874 0.9980966 0.0300874 0.0019034 -0.0300874
118133 0.0017862 -0.0287993 0.9982138 0.0287993 0.9982138 0.0287993 0.0017862 -0.0287993
123542 0.0016771 -0.0275655 0.9983229 0.0275655 0.9983229 0.0275655 0.0016771 -0.0275655
129199 0.0015757 -0.0263838 0.9984243 0.0263838 0.9984243 0.0263838 0.0015757 -0.0263838
135116 0.0014813 -0.0252520 0.9985187 0.0252520 0.9985187 0.0252520 0.0014813 -0.0252520
141303 0.0013936 -0.0241681 0.9986064 0.0241681 0.9986064 0.0241681 0.0013936 -0.0241681
147774 0.0013121 -0.0231300 0.9986879 0.0231300 0.9986879 0.0231300 0.0013121 -0.0231300
154540 0.0012364 -0.0221360 0.9987636 0.0221360 0.9987636 0.0221360 0.0012364 -0.0221360
161617 0.0011661 -0.0211841 0.9988339 0.0211841 0.9988339 0.0211841 0.0011661 -0.0211841
169018 0.0011009 -0.0202727 0.9988991 0.0202727 0.9988991 0.0202727 0.0011009 -0.0202727
176758 0.0010404 -0.0194001 0.9989596 0.0194001 0.9989596 0.0194001 0.0010404 -0.0194001
184852 0.0009843 -0.0185648 0.9990157 0.0185648 0.9990157 0.0185648 0.0009843 -0.0185648
193316 0.0009323 -0.0177651 0.9990677 0.0177651 0.9990677 0.0177651 0.0009323 -0.0177651
202169 0.0008840 -0.0169996 0.9991160 0.0169996 0.9991160 0.0169996 0.0008840 -0.0169996
211427 0.0008393 -0.0162669 0.9991607 0.0162669 0.9991607 0.0162669 0.0008393 -0.0162669
221108 0.0007979 -0.0155657 0.9992021 0.0155657 0.9992021 0.0155657 0.0007979 -0.0155657
231233 0.0007594 -0.0148947 0.9992406 0.0148947 0.9992406 0.0148947 0.0007594 -0.0148947
241822 0.0007238 -0.0142525 0.9992762 0.0142525 0.9992762 0.0142525 0.0007238 -0.0142525
252896 0.0006907 -0.0136380 0.9993093 0.0136380 0.9993093 0.0136380 0.0006907 -0.0136380
264476 0.0006600 -0.0130501 0.9993400 0.0130501 0.9993400 0.0130501 0.0006600 -0.0130501
276587 0.0006314 -0.0124876 0.9993686 0.0124876 0.9993686 0.0124876 0.0006314 -0.0124876
289253 0.0006048 -0.0119495 0.9993952 0.0119495 0.9993952 0.0119495 0.0006048 -0.0119495
302498 0.0005801 -0.0114347 0.9994199 0.0114347 0.9994199 0.0114347 0.0005801 -0.0114347
316350 0.0005570 -0.0109422 0.9994430 0.0109422 0.9994430 0.0109422 0.0005570 -0.0109422
330837 0.0005354 -0.0104711 0.9994646 0.0104711 0.9994646 0.0104711 0.0005354 -0.0104711
345986 0.0005152 -0.0100206 0.9994848 0.0100206 0.9994848 0.0100206 0.0005152 -0.0100206
361830 0.0004962 -0.0095895 0.9995038 0.0095895 0.9995038 0.0095895 0.0004962 -0.0095895
378399 0.0004784 -0.0091773 0.9995216 0.0091773 0.9995216 0.0091773 0.0004784 -0.0091773
395726 0.0004616 -0.0087830 0.9995384 0.0087830 0.9995384 0.0087830 0.0004616 -0.0087830
413847 0.0004457 -0.0084058 0.9995543 0.0084058 0.9995543 0.0084058 0.0004457 -0.0084058
432798 0.0004306 -0.0080451 0.9995694 0.0080451 0.9995694 0.0080451 0.0004306 -0.0080451
452617 0.0004163 -0.0077000 0.9995837 0.0077000 0.9995837 0.0077000 0.0004163 -0.0077000
473344 0.0004027 -0.0073699 0.9995973 0.0073699 0.9995973 0.0073699 0.0004027 -0.0073699
495019 0.0003896 -0.0070541 0.9996104 0.0070541 0.9996104 0.0070541 0.0003896 -0.0070541
517687 0.0003771 -0.0067520 0.9996229 0.0067520 0.9996229 0.0067520 0.0003771 -0.0067520
541393 0.0003651 -0.0064630 0.9996349 0.0064630 0.9996349 0.0064630 0.0003651 -0.0064630
566185 0.0003535 -0.0061864 0.9996465 0.0061864 0.9996465 0.0061864 0.0003535 -0.0061864
592111 0.0003424 -0.0059218 0.9996576 0.0059218 0.9996576 0.0059218 0.0003424 -0.0059218
619225 0.0003316 -0.0056685 0.9996684 0.0056685 0.9996684 0.0056685 0.0003316 -0.0056685
647581 0.0003211 -0.0054261 0.9996789 0.0054261 0.9996789 0.0054261 0.0003211 -0.0054261
677235 0.0003110 -0.0051941 0.9996890 0.0051941 0.9996890 0.0051941 0.0003110 -0.0051941
708247 0.0003011 -0.0049719 0.9996989 0.0049719 0.9996989 0.0049719 0.0003011 -0.0049719
740679 0.0002916 -0.0047592 0.9997084 0.0047592 0.9997084 0.0047592 0.0002916 -0.0047592
774597 0.0002823 -0.0045555 0.9997177 0.0045555 0.9997177 0.0045555 0.0002823 -0.0045555
810067 0.0002733 -0.0043603 0.9997267 0.0043603 0.9997267 0.0043603 0.0002733 -0.0043603
847162 0.0002646 -0.0041734 0.9997354 0.0041734 0.9997354 0.0041734 0.0002646 -0.0041734
885955 0.0002561 -0.0039943 0.9997439 0.0039943 0.9997439 0.0039943 0.0002561 -0.0039943
926525 0.0002480 -0.0038227 0.9997520 0.0038227 0.9997520 0.0038227 0.0002480 -0.0038227
968953 0.0002400 -0.0036583 0.9997600 0.0036583 0.9997600 0.0036583 0.0002400 -0.0036583
1013323 0.0002324 -0.0035006 0.9997676 0.0035006 0.9997676 0.0035006 0.0002324 -0.0035006
1059725 0.0002250 -0.0033495 0.9997750 0.0033495 0.9997750 0.0033495 0.0002250 -0.0033495
1108252 0.0002180 -0.0032046 0.9997820 0.0032046 0.9997820 0.0032046 0.0002180 -0.0032046
1159002 0.0002112 -0.0030657 0.9997888 0.0030657 0.9997888 0.0030657 0.0002112 -0.0030657
1212075 0.0002047 -0.0029325 0.9997953 0.0029325 0.9997953 0.0029325 0.0002047 -0.0029325
1267578 0.0001985 -0.0028047 0.9998015 0.0028047 0.9998015 0.0028047 0.0001985 -0.0028047
1325623 0.0001925 -0.0026822 0.9998075 0.0026822 0.9998075 0.0026822 0.0001925 -0.0026822
1386327 0.0001869 -0.0025647 0.9998131 0.0025647 0.9998131 0.0025647 0.0001869 -0.0025647
1449809 0.0001816 -0.0024519 0.9998184 0.0024519 0.9998184 0.0024519 0.0001816 -0.0024519
1516199 0.0001765 -0.0023438 0.9998235 0.0023438 0.9998235 0.0023438 0.0001765 -0.0023438
1585629 0.0001717 -0.0022400 0.9998283 0.0022400 0.9998283 0.0022400 0.0001717 -0.0022400
1658239 0.0001672 -0.0021404 0.9998328 0.0021404 0.9998328 0.0021404 0.0001672 -0.0021404
1734173 0.0001630 -0.0020449 0.9998370 0.0020449 0.9998370 0.0020449 0.0001630 -0.0020449
1813585 0.0001590 -0.0019532 0.9998410 0.0019532 0.9998410 0.0019532 0.0001590 -0.0019532
1896632 0.0001553 -0.0018652 0.9998447 0.0018652 0.9998447 0.0018652 0.0001553 -0.0018652
1983483 0.0001518 -0.0017807 0.9998482 0.0017807 0.9998482 0.0017807 0.0001518 -0.0017807
2074311 0.0001486 -0.0016996 0.9998514 0.0016996 0.9998514 0.0016996 0.0001486 -0.0016996
