!Murata Part Number: GRM155R60E106ME16
!These Parameters are Measured in Series Mode Connection
!Data Generated on Mar 30, 2021
!       o--ll--o
!Port1            Port2
!       o------o
!Operation Temp=25[degC], DC Bias Voltage=0[V]
!Freq. Start=100[Hz] Stop=6[GHz] 401[Steps]
# Hz S RI R 50
!Freq.(Hz) S11(Real) S11(Imag) S21(Real) S21(Imag) S12(Real) S12(Imag) S22(Real) S22(Imag)
100 0.8309035 -0.3693053 0.1690965 0.3693053 0.1690965 0.3693053 0.8309035 -0.3693053
105 0.8182380 -0.3801214 0.1817620 0.3801214 0.1817620 0.3801214 0.8182380 -0.3801214
109 0.8048385 -0.3908023 0.1951615 0.3908023 0.1951615 0.3908023 0.8048385 -0.3908023
114 0.7906957 -0.4012924 0.2093043 0.4012924 0.2093043 0.4012924 0.7906957 -0.4012924
120 0.7758056 -0.4115327 0.2241944 0.4115327 0.2241944 0.4115327 0.7758056 -0.4115327
125 0.7601699 -0.4214616 0.2398301 0.4214616 0.2398301 0.4214616 0.7601699 -0.4214616
131 0.7437968 -0.4310151 0.2562032 0.4310151 0.2562032 0.4310151 0.7437968 -0.4310151
137 0.7267012 -0.4401283 0.2732988 0.4401283 0.2732988 0.4401283 0.7267012 -0.4401283
143 0.7089057 -0.4487355 0.2910943 0.4487355 0.2910943 0.4487355 0.7089057 -0.4487355
150 0.6904402 -0.4567715 0.3095598 0.4567715 0.3095598 0.4567715 0.6904402 -0.4567715
156 0.6713425 -0.4641728 0.3286575 0.4641728 0.3286575 0.4641728 0.6713425 -0.4641728
164 0.6516583 -0.4708785 0.3483417 0.4708785 0.3483417 0.4708785 0.6516583 -0.4708785
171 0.6314407 -0.4768313 0.3685593 0.4768313 0.3685593 0.4768313 0.6314407 -0.4768313
179 0.6107500 -0.4819790 0.3892500 0.4819790 0.3892500 0.4819790 0.6107500 -0.4819790
187 0.5896531 -0.4862752 0.4103469 0.4862752 0.4103469 0.4862752 0.5896531 -0.4862752
196 0.5682228 -0.4896804 0.4317772 0.4896804 0.4317772 0.4896804 0.5682228 -0.4896804
205 0.5465367 -0.4921630 0.4534633 0.4921630 0.4534633 0.4921630 0.5465367 -0.4921630
214 0.5246759 -0.4937000 0.4753241 0.4937000 0.4753241 0.4937000 0.5246759 -0.4937000
224 0.5027245 -0.4942771 0.4972755 0.4942771 0.4972755 0.4942771 0.5027245 -0.4942771
234 0.4807676 -0.4938897 0.5192324 0.4938897 0.5192324 0.4938897 0.4807676 -0.4938897
245 0.4588901 -0.4925424 0.5411099 0.4925424 0.5411099 0.4925424 0.4588901 -0.4925424
256 0.4371758 -0.4902489 0.5628242 0.4902489 0.5628242 0.4902489 0.4371758 -0.4902489
268 0.4157055 -0.4870321 0.5842945 0.4870321 0.5842945 0.4870321 0.4157055 -0.4870321
280 0.3945566 -0.4829230 0.6054434 0.4829230 0.6054434 0.4829230 0.3945566 -0.4829230
293 0.3738011 -0.4779605 0.6261989 0.4779605 0.6261989 0.4779605 0.3738011 -0.4779605
306 0.3535056 -0.4721898 0.6464944 0.4721898 0.6464944 0.4721898 0.3535056 -0.4721898
320 0.3337301 -0.4656623 0.6662699 0.4656623 0.6662699 0.4656623 0.3337301 -0.4656623
335 0.3145276 -0.4584339 0.6854724 0.4584339 0.6854724 0.4584339 0.3145276 -0.4584339
350 0.2959437 -0.4505641 0.7040563 0.4505641 0.7040563 0.4505641 0.2959437 -0.4505641
366 0.2780165 -0.4421148 0.7219835 0.4421148 0.7219835 0.4421148 0.2780165 -0.4421148
383 0.2607766 -0.4331499 0.7392234 0.4331499 0.7392234 0.4331499 0.2607766 -0.4331499
401 0.2442471 -0.4237332 0.7557529 0.4237332 0.7557529 0.4237332 0.2442471 -0.4237332
419 0.2284444 -0.4139285 0.7715556 0.4139285 0.7715556 0.4139285 0.2284444 -0.4139285
438 0.2133778 -0.4037983 0.7866222 0.4037983 0.7866222 0.4037983 0.2133778 -0.4037983
458 0.1990508 -0.3934033 0.8009492 0.3934033 0.8009492 0.3934033 0.1990508 -0.3934033
479 0.1854609 -0.3828015 0.8145391 0.3828015 0.8145391 0.3828015 0.1854609 -0.3828015
501 0.1726008 -0.3720481 0.8273992 0.3720481 0.8273992 0.3720481 0.1726008 -0.3720481
524 0.1604588 -0.3611952 0.8395412 0.3611952 0.8395412 0.3611952 0.1604588 -0.3611952
548 0.1490191 -0.3502908 0.8509809 0.3502908 0.8509809 0.3502908 0.1490191 -0.3502908
573 0.1382629 -0.3393798 0.8617371 0.3393798 0.8617371 0.3393798 0.1382629 -0.3393798
600 0.1281685 -0.3285026 0.8718315 0.3285026 0.8718315 0.3285026 0.1281685 -0.3285026
627 0.1187121 -0.3176963 0.8812879 0.3176963 0.8812879 0.3176963 0.1187121 -0.3176963
656 0.1098684 -0.3069939 0.8901316 0.3069939 0.8901316 0.3069939 0.1098684 -0.3069939
686 0.1016107 -0.2964247 0.8983893 0.2964247 0.8983893 0.2964247 0.1016107 -0.2964247
717 0.0939116 -0.2860145 0.9060884 0.2860145 0.9060884 0.2860145 0.0939116 -0.2860145
750 0.0867433 -0.2757857 0.9132567 0.2757857 0.9132567 0.2757857 0.0867433 -0.2757857
784 0.0800778 -0.2657573 0.9199222 0.2657573 0.9199222 0.2657573 0.0800778 -0.2657573
820 0.0738873 -0.2559456 0.9261127 0.2559456 0.9261127 0.2559456 0.0738873 -0.2559456
858 0.0681443 -0.2463638 0.9318557 0.2463638 0.9318557 0.2463638 0.0681443 -0.2463638
897 0.0628221 -0.2370227 0.9371779 0.2370227 0.9371779 0.2370227 0.0628221 -0.2370227
938 0.0578945 -0.2279308 0.9421055 0.2279308 0.9421055 0.2279308 0.0578945 -0.2279308
981 0.0533362 -0.2190942 0.9466638 0.2190942 0.9466638 0.2190942 0.0533362 -0.2190942
1026 0.0491231 -0.2105174 0.9508769 0.2105174 0.9508769 0.2105174 0.0491231 -0.2105174
1073 0.0452319 -0.2022029 0.9547681 0.2022029 0.9547681 0.2022029 0.0452319 -0.2022029
1122 0.0416403 -0.1941520 0.9583597 0.1941520 0.9583597 0.1941520 0.0416403 -0.1941520
1174 0.0383274 -0.1863643 0.9616726 0.1863643 0.9616726 0.1863643 0.0383274 -0.1863643
1227 0.0352731 -0.1788384 0.9647269 0.1788384 0.9647269 0.1788384 0.0352731 -0.1788384
1283 0.0324587 -0.1715720 0.9675413 0.1715720 0.9675413 0.1715720 0.0324587 -0.1715720
1342 0.0298665 -0.1645617 0.9701335 0.1645617 0.9701335 0.1645617 0.0298665 -0.1645617
1404 0.0274797 -0.1578034 0.9725203 0.1578034 0.9725203 0.1578034 0.0274797 -0.1578034
1468 0.0252828 -0.1512925 0.9747172 0.1512925 0.9747172 0.1512925 0.0252828 -0.1512925
1535 0.0232613 -0.1450238 0.9767387 0.1450238 0.9767387 0.1450238 0.0232613 -0.1450238
1606 0.0214016 -0.1389916 0.9785984 0.1389916 0.9785984 0.1389916 0.0214016 -0.1389916
1679 0.0196911 -0.1331900 0.9803089 0.1331900 0.9803089 0.1331900 0.0196911 -0.1331900
1756 0.0181180 -0.1276127 0.9818820 0.1276127 0.9818820 0.1276127 0.0181180 -0.1276127
1836 0.0166714 -0.1222534 0.9833286 0.1222534 0.9833286 0.1222534 0.0166714 -0.1222534
1920 0.0153412 -0.1171054 0.9846588 0.1171054 0.9846588 0.1171054 0.0153412 -0.1171054
2008 0.0141182 -0.1121622 0.9858818 0.1121622 0.9858818 0.1121622 0.0141182 -0.1121622
2100 0.0129937 -0.1074170 0.9870063 0.1074170 0.9870063 0.1074170 0.0129937 -0.1074170
2196 0.0119597 -0.1028633 0.9880403 0.1028633 0.9880403 0.1028633 0.0119597 -0.1028633
2297 0.0110090 -0.0984944 0.9889910 0.0984944 0.9889910 0.0984944 0.0110090 -0.0984944
2402 0.0101348 -0.0943038 0.9898652 0.0943038 0.9898652 0.0943038 0.0101348 -0.0943038
2512 0.0093309 -0.0902851 0.9906691 0.0902851 0.9906691 0.0902851 0.0093309 -0.0902851
2627 0.0085917 -0.0864319 0.9914083 0.0864319 0.9914083 0.0864319 0.0085917 -0.0864319
2748 0.0079118 -0.0827379 0.9920882 0.0827379 0.9920882 0.0827379 0.0079118 -0.0827379
2873 0.0072865 -0.0791973 0.9927135 0.0791973 0.9927135 0.0791973 0.0072865 -0.0791973
3005 0.0067114 -0.0758040 0.9932886 0.0758040 0.9932886 0.0758040 0.0067114 -0.0758040
3143 0.0061824 -0.0725525 0.9938176 0.0725525 0.9938176 0.0725525 0.0061824 -0.0725525
3287 0.0056959 -0.0694370 0.9943041 0.0694370 0.9943041 0.0694370 0.0056959 -0.0694370
3437 0.0052484 -0.0664523 0.9947516 0.0664523 0.9947516 0.0664523 0.0052484 -0.0664523
3594 0.0048368 -0.0635931 0.9951632 0.0635931 0.9951632 0.0635931 0.0048368 -0.0635931
3759 0.0044582 -0.0608544 0.9955418 0.0608544 0.9955418 0.0608544 0.0044582 -0.0608544
3931 0.0041100 -0.0582315 0.9958900 0.0582315 0.9958900 0.0582315 0.0041100 -0.0582315
4111 0.0037899 -0.0557195 0.9962101 0.0557195 0.9962101 0.0557195 0.0037899 -0.0557195
4299 0.0034954 -0.0533140 0.9965046 0.0533140 0.9965046 0.0533140 0.0034954 -0.0533140
4496 0.0032247 -0.0510107 0.9967753 0.0510107 0.9967753 0.0510107 0.0032247 -0.0510107
4702 0.0029758 -0.0488054 0.9970242 0.0488054 0.9970242 0.0488054 0.0029758 -0.0488054
4918 0.0027470 -0.0466940 0.9972530 0.0466940 0.9972530 0.0466940 0.0027470 -0.0466940
5143 0.0025367 -0.0446728 0.9974633 0.0446728 0.9974633 0.0446728 0.0025367 -0.0446728
5378 0.0023434 -0.0427380 0.9976566 0.0427380 0.9976566 0.0427380 0.0023434 -0.0427380
5625 0.0021658 -0.0408860 0.9978342 0.0408860 0.9978342 0.0408860 0.0021658 -0.0408860
5882 0.0020026 -0.0391133 0.9979974 0.0391133 0.9979974 0.0391133 0.0020026 -0.0391133
6151 0.0018526 -0.0374168 0.9981474 0.0374168 0.9981474 0.0374168 0.0018526 -0.0374168
6433 0.0017149 -0.0357933 0.9982851 0.0357933 0.9982851 0.0357933 0.0017149 -0.0357933
6728 0.0015883 -0.0342396 0.9984117 0.0342396 0.9984117 0.0342396 0.0015883 -0.0342396
7036 0.0014720 -0.0327529 0.9985280 0.0327529 0.9985280 0.0327529 0.0014720 -0.0327529
7358 0.0013652 -0.0313303 0.9986348 0.0313303 0.9986348 0.0313303 0.0013652 -0.0313303
7695 0.0012671 -0.0299692 0.9987329 0.0299692 0.9987329 0.0299692 0.0012671 -0.0299692
8047 0.0011770 -0.0286669 0.9988230 0.0286669 0.9988230 0.0286669 0.0011770 -0.0286669
8416 0.0010942 -0.0274210 0.9989058 0.0274210 0.9989058 0.0274210 0.0010942 -0.0274210
8801 0.0010180 -0.0262291 0.9989820 0.0262291 0.9989820 0.0262291 0.0010180 -0.0262291
9204 0.0009481 -0.0250888 0.9990519 0.0250888 0.9990519 0.0250888 0.0009481 -0.0250888
9626 0.0008837 -0.0239981 0.9991163 0.0239981 0.9991163 0.0239981 0.0008837 -0.0239981
10066 0.0008245 -0.0229547 0.9991755 0.0229547 0.9991755 0.0229547 0.0008245 -0.0229547
10527 0.0007701 -0.0219567 0.9992299 0.0219567 0.9992299 0.0219567 0.0007701 -0.0219567
11009 0.0007200 -0.0210021 0.9992800 0.0210021 0.9992800 0.0210021 0.0007200 -0.0210021
11514 0.0006738 -0.0200890 0.9993262 0.0200890 0.9993262 0.0200890 0.0006738 -0.0200890
12041 0.0006312 -0.0192156 0.9993688 0.0192156 0.9993688 0.0192156 0.0006312 -0.0192156
12592 0.0005919 -0.0183803 0.9994081 0.0183803 0.9994081 0.0183803 0.0005919 -0.0183803
13169 0.0005557 -0.0175814 0.9994443 0.0175814 0.9994443 0.0175814 0.0005557 -0.0175814
13772 0.0005222 -0.0168173 0.9994778 0.0168173 0.9994778 0.0168173 0.0005222 -0.0168173
14402 0.0004912 -0.0160864 0.9995088 0.0160864 0.9995088 0.0160864 0.0004912 -0.0160864
15062 0.0004625 -0.0153874 0.9995375 0.0153874 0.9995375 0.0153874 0.0004625 -0.0153874
15752 0.0004360 -0.0147189 0.9995640 0.0147189 0.9995640 0.0147189 0.0004360 -0.0147189
16473 0.0004113 -0.0140794 0.9995887 0.0140794 0.9995887 0.0140794 0.0004113 -0.0140794
17227 0.0003884 -0.0134679 0.9996116 0.0134679 0.9996116 0.0134679 0.0003884 -0.0134679
18016 0.0003672 -0.0128829 0.9996328 0.0128829 0.9996328 0.0128829 0.0003672 -0.0128829
18841 0.0003473 -0.0123234 0.9996527 0.0123234 0.9996527 0.0123234 0.0003473 -0.0123234
19704 0.0003289 -0.0117883 0.9996711 0.0117883 0.9996711 0.0117883 0.0003289 -0.0117883
20606 0.0003117 -0.0112764 0.9996883 0.0112764 0.9996883 0.0112764 0.0003117 -0.0112764
21550 0.0002956 -0.0107868 0.9997044 0.0107868 0.9997044 0.0107868 0.0002956 -0.0107868
22537 0.0002806 -0.0103184 0.9997194 0.0103184 0.9997194 0.0103184 0.0002806 -0.0103184
23569 0.0002666 -0.0098704 0.9997334 0.0098704 0.9997334 0.0098704 0.0002666 -0.0098704
24648 0.0002534 -0.0094418 0.9997466 0.0094418 0.9997466 0.0094418 0.0002534 -0.0094418
25777 0.0002412 -0.0090318 0.9997588 0.0090318 0.9997588 0.0090318 0.0002412 -0.0090318
26957 0.0002297 -0.0086396 0.9997703 0.0086396 0.9997703 0.0086396 0.0002297 -0.0086396
28191 0.0002189 -0.0082644 0.9997811 0.0082644 0.9997811 0.0082644 0.0002189 -0.0082644
29482 0.0002088 -0.0079055 0.9997912 0.0079055 0.9997912 0.0079055 0.0002088 -0.0079055
30832 0.0001993 -0.0075621 0.9998007 0.0075621 0.9998007 0.0075621 0.0001993 -0.0075621
32244 0.0001905 -0.0072335 0.9998095 0.0072335 0.9998095 0.0072335 0.0001905 -0.0072335
33721 0.0001822 -0.0069192 0.9998178 0.0069192 0.9998178 0.0069192 0.0001822 -0.0069192
35265 0.0001744 -0.0066185 0.9998256 0.0066185 0.9998256 0.0066185 0.0001744 -0.0066185
36880 0.0001672 -0.0063308 0.9998328 0.0063308 0.9998328 0.0063308 0.0001672 -0.0063308
38569 0.0001604 -0.0060556 0.9998396 0.0060556 0.9998396 0.0060556 0.0001604 -0.0060556
40335 0.0001540 -0.0057922 0.9998460 0.0057922 0.9998460 0.0057922 0.0001540 -0.0057922
42182 0.0001481 -0.0055403 0.9998519 0.0055403 0.9998519 0.0055403 0.0001481 -0.0055403
44113 0.0001426 -0.0052993 0.9998574 0.0052993 0.9998574 0.0052993 0.0001426 -0.0052993
46134 0.0001374 -0.0050687 0.9998626 0.0050687 0.9998626 0.0050687 0.0001374 -0.0050687
48246 0.0001326 -0.0048481 0.9998674 0.0048481 0.9998674 0.0048481 0.0001326 -0.0048481
50455 0.0001281 -0.0046370 0.9998719 0.0046370 0.9998719 0.0046370 0.0001281 -0.0046370
52766 0.0001239 -0.0044352 0.9998761 0.0044352 0.9998761 0.0044352 0.0001239 -0.0044352
55182 0.0001200 -0.0042420 0.9998800 0.0042420 0.9998800 0.0042420 0.0001200 -0.0042420
57709 0.0001164 -0.0040573 0.9998836 0.0040573 0.9998836 0.0040573 0.0001164 -0.0040573
60352 0.0001130 -0.0038805 0.9998870 0.0038805 0.9998870 0.0038805 0.0001130 -0.0038805
63115 0.0001098 -0.0037115 0.9998902 0.0037115 0.9998902 0.0037115 0.0001098 -0.0037115
66005 0.0001069 -0.0035498 0.9998931 0.0035498 0.9998931 0.0035498 0.0001069 -0.0035498
69028 0.0001042 -0.0033951 0.9998958 0.0033951 0.9998958 0.0033951 0.0001042 -0.0033951
72189 0.0001016 -0.0032471 0.9998984 0.0032471 0.9998984 0.0032471 0.0001016 -0.0032471
75495 0.0000992 -0.0031056 0.9999008 0.0031056 0.9999008 0.0031056 0.0000992 -0.0031056
78952 0.0000970 -0.0029703 0.9999030 0.0029703 0.9999030 0.0029703 0.0000970 -0.0029703
82567 0.0000949 -0.0028408 0.9999051 0.0028408 0.9999051 0.0028408 0.0000949 -0.0028408
86348 0.0000930 -0.0027169 0.9999070 0.0027169 0.9999070 0.0027169 0.0000930 -0.0027169
90302 0.0000911 -0.0025985 0.9999089 0.0025985 0.9999089 0.0025985 0.0000911 -0.0025985
94437 0.0000894 -0.0024852 0.9999106 0.0024852 0.9999106 0.0024852 0.0000894 -0.0024852
98762 0.0000878 -0.0023768 0.9999122 0.0023768 0.9999122 0.0023768 0.0000878 -0.0023768
103284 0.0000863 -0.0022732 0.9999137 0.0022732 0.9999137 0.0022732 0.0000863 -0.0022732
108014 0.0000849 -0.0021741 0.9999151 0.0021741 0.9999151 0.0021741 0.0000849 -0.0021741
112960 0.0000835 -0.0020792 0.9999165 0.0020792 0.9999165 0.0020792 0.0000835 -0.0020792
118133 0.0000822 -0.0019886 0.9999178 0.0019886 0.9999178 0.0019886 0.0000822 -0.0019886
123542 0.0000810 -0.0019018 0.9999190 0.0019018 0.9999190 0.0019018 0.0000810 -0.0019018
129199 0.0000798 -0.0018188 0.9999202 0.0018188 0.9999202 0.0018188 0.0000798 -0.0018188
135116 0.0000787 -0.0017394 0.9999213 0.0017394 0.9999213 0.0017394 0.0000787 -0.0017394
141303 0.0000776 -0.0016635 0.9999224 0.0016635 0.9999224 0.0016635 0.0000776 -0.0016635
147774 0.0000766 -0.0015909 0.9999234 0.0015909 0.9999234 0.0015909 0.0000766 -0.0015909
154540 0.0000756 -0.0015214 0.9999244 0.0015214 0.9999244 0.0015214 0.0000756 -0.0015214
161617 0.0000746 -0.0014549 0.9999254 0.0014549 0.9999254 0.0014549 0.0000746 -0.0014549
169018 0.0000737 -0.0013912 0.9999263 0.0013912 0.9999263 0.0013912 0.0000737 -0.0013912
176758 0.0000728 -0.0013304 0.9999272 0.0013304 0.9999272 0.0013304 0.0000728 -0.0013304
184852 0.0000719 -0.0012721 0.9999281 0.0012721 0.9999281 0.0012721 0.0000719 -0.0012721
193316 0.0000711 -0.0012163 0.9999289 0.0012163 0.9999289 0.0012163 0.0000711 -0.0012163
202169 0.0000703 -0.0011630 0.9999297 0.0011630 0.9999297 0.0011630 0.0000703 -0.0011630
211427 0.0000695 -0.0011119 0.9999305 0.0011119 0.9999305 0.0011119 0.0000695 -0.0011119
221108 0.0000688 -0.0010630 0.9999312 0.0010630 0.9999312 0.0010630 0.0000688 -0.0010630
231233 0.0000680 -0.0010162 0.9999320 0.0010162 0.9999320 0.0010162 0.0000680 -0.0010162
241822 0.0000673 -0.0009714 0.9999327 0.0009714 0.9999327 0.0009714 0.0000673 -0.0009714
252896 0.0000667 -0.0009285 0.9999333 0.0009285 0.9999333 0.0009285 0.0000667 -0.0009285
264476 0.0000660 -0.0008874 0.9999340 0.0008874 0.9999340 0.0008874 0.0000660 -0.0008874
276587 0.0000654 -0.0008480 0.9999346 0.0008480 0.9999346 0.0008480 0.0000654 -0.0008480
289253 0.0000648 -0.0008103 0.9999352 0.0008103 0.9999352 0.0008103 0.0000648 -0.0008103
302498 0.0000643 -0.0007742 0.9999357 0.0007742 0.9999357 0.0007742 0.0000643 -0.0007742
316350 0.0000637 -0.0007396 0.9999363 0.0007396 0.9999363 0.0007396 0.0000637 -0.0007396
330837 0.0000632 -0.0007064 0.9999368 0.0007064 0.9999368 0.0007064 0.0000632 -0.0007064
345986 0.0000627 -0.0006747 0.9999373 0.0006747 0.9999373 0.0006747 0.0000627 -0.0006747
361830 0.0000623 -0.0006442 0.9999377 0.0006442 0.9999377 0.0006442 0.0000623 -0.0006442
378399 0.0000619 -0.0006150 0.9999381 0.0006150 0.9999381 0.0006150 0.0000619 -0.0006150
395726 0.0000615 -0.0005871 0.9999385 0.0005871 0.9999385 0.0005871 0.0000615 -0.0005871
413847 0.0000611 -0.0005602 0.9999389 0.0005602 0.9999389 0.0005602 0.0000611 -0.0005602
432798 0.0000608 -0.0005345 0.9999392 0.0005345 0.9999392 0.0005345 0.0000608 -0.0005345
452617 0.0000604 -0.0005098 0.9999396 0.0005098 0.9999396 0.0005098 0.0000604 -0.0005098
473344 0.0000602 -0.0004861 0.9999398 0.0004861 0.9999398 0.0004861 0.0000602 -0.0004861
495019 0.0000599 -0.0004634 0.9999401 0.0004634 0.9999401 0.0004634 0.0000599 -0.0004634
517687 0.0000597 -0.0004416 0.9999403 0.0004416 0.9999403 0.0004416 0.0000597 -0.0004416
541393 0.0000595 -0.0004207 0.9999405 0.0004207 0.9999405 0.0004207 0.0000595 -0.0004207
566185 0.0000593 -0.0004006 0.9999407 0.0004006 0.9999407 0.0004006 0.0000593 -0.0004006
592111 0.0000591 -0.0003813 0.9999409 0.0003813 0.9999409 0.0003813 0.0000591 -0.0003813
619225 0.0000590 -0.0003627 0.9999410 0.0003627 0.9999410 0.0003627 0.0000590 -0.0003627
647581 0.0000589 -0.0003449 0.9999411 0.0003449 0.9999411 0.0003449 0.0000589 -0.0003449
677235 0.0000588 -0.0003277 0.9999412 0.0003277 0.9999412 0.0003277 0.0000588 -0.0003277
708247 0.0000587 -0.0003112 0.9999413 0.0003112 0.9999413 0.0003112 0.0000587 -0.0003112
740679 0.0000587 -0.0002953 0.9999413 0.0002953 0.9999413 0.0002953 0.0000587 -0.0002953
774597 0.0000587 -0.0002800 0.9999413 0.0002800 0.9999413 0.0002800 0.0000587 -0.0002800
810067 0.0000587 -0.0002653 0.9999413 0.0002653 0.9999413 0.0002653 0.0000587 -0.0002653
847162 0.0000587 -0.0002511 0.9999413 0.0002511 0.9999413 0.0002511 0.0000587 -0.0002511
885955 0.0000588 -0.0002374 0.9999412 0.0002374 0.9999412 0.0002374 0.0000588 -0.0002374
926525 0.0000589 -0.0002242 0.9999411 0.0002242 0.9999411 0.0002242 0.0000589 -0.0002242
968953 0.0000590 -0.0002114 0.9999410 0.0002114 0.9999410 0.0002114 0.0000590 -0.0002114
1013323 0.0000592 -0.0001990 0.9999408 0.0001990 0.9999408 0.0001990 0.0000592 -0.0001990
1059725 0.0000593 -0.0001871 0.9999407 0.0001871 0.9999407 0.0001871 0.0000593 -0.0001871
1108252 0.0000596 -0.0001755 0.9999404 0.0001755 0.9999404 0.0001755 0.0000596 -0.0001755
1159002 0.0000598 -0.0001643 0.9999402 0.0001643 0.9999402 0.0001643 0.0000598 -0.0001643
1212075 0.0000601 -0.0001534 0.9999399 0.0001534 0.9999399 0.0001534 0.0000601 -0.0001534
1267578 0.0000604 -0.0001429 0.9999396 0.0001429 0.9999396 0.0001429 0.0000604 -0.0001429
1325623 0.0000607 -0.0001326 0.9999393 0.0001326 0.9999393 0.0001326 0.0000607 -0.0001326
1386327 0.0000611 -0.0001227 0.9999389 0.0001227 0.9999389 0.0001227 0.0000611 -0.0001227
1449809 0.0000616 -0.0001129 0.9999384 0.0001129 0.9999384 0.0001129 0.0000616 -0.0001129
1516199 0.0000621 -0.0001035 0.9999379 0.0001035 0.9999379 0.0001035 0.0000621 -0.0001035
1585629 0.0000626 -0.0000942 0.9999374 0.0000942 0.9999374 0.0000942 0.0000626 -0.0000942
1658239 0.0000632 -0.0000852 0.9999368 0.0000852 0.9999368 0.0000852 0.0000632 -0.0000852
1734173 0.0000638 -0.0000764 0.9999362 0.0000764 0.9999362 0.0000764 0.0000638 -0.0000764
1813585 0.0000645 -0.0000677 0.9999355 0.0000677 0.9999355 0.0000677 0.0000645 -0.0000677
1896632 0.0000652 -0.0000592 0.9999348 0.0000592 0.9999348 0.0000592 0.0000652 -0.0000592
1983483 0.0000661 -0.0000509 0.9999339 0.0000509 0.9999339 0.0000509 0.0000661 -0.0000509
2074311 0.0000669 -0.0000428 0.9999331 0.0000428 0.9999331 0.0000428 0.0000669 -0.0000428
