!Murata Part Number: GRM15XB11C682MA86
!These Parameters are Measured in Series Mode Connection
!Data Generated on Mar 30, 2021
!       o--ll--o
!Port1            Port2
!       o------o
!Operation Temp=25[degC], DC Bias Voltage=0[V]
!Freq. Start=100[Hz] Stop=6[GHz] 401[Steps]
# Hz S RI R 50
!Freq.(Hz) S11(Real) S11(Imag) S21(Real) S21(Imag) S12(Real) S12(Imag) S22(Real) S22(Imag)
100 0.9999975 -0.0004185 0.0000025 0.0004185 0.0000025 0.0004185 0.9999975 -0.0004185
105 0.9999974 -0.0004376 0.0000026 0.0004376 0.0000026 0.0004376 0.9999974 -0.0004376
109 0.9999973 -0.0004576 0.0000027 0.0004576 0.0000027 0.0004576 0.9999973 -0.0004576
114 0.9999971 -0.0004784 0.0000029 0.0004784 0.0000029 0.0004784 0.9999971 -0.0004784
120 0.9999970 -0.0005002 0.0000030 0.0005002 0.0000030 0.0005002 0.9999970 -0.0005002
125 0.9999969 -0.0005230 0.0000031 0.0005230 0.0000031 0.0005230 0.9999969 -0.0005230
131 0.9999968 -0.0005469 0.0000032 0.0005469 0.0000032 0.0005469 0.9999968 -0.0005469
137 0.9999966 -0.0005718 0.0000034 0.0005718 0.0000034 0.0005718 0.9999966 -0.0005718
143 0.9999965 -0.0005979 0.0000035 0.0005979 0.0000035 0.0005979 0.9999965 -0.0005979
150 0.9999963 -0.0006252 0.0000037 0.0006252 0.0000037 0.0006252 0.9999963 -0.0006252
156 0.9999962 -0.0006537 0.0000038 0.0006537 0.0000038 0.0006537 0.9999962 -0.0006537
164 0.9999960 -0.0006835 0.0000040 0.0006835 0.0000040 0.0006835 0.9999960 -0.0006835
171 0.9999959 -0.0007147 0.0000041 0.0007147 0.0000041 0.0007147 0.9999959 -0.0007147
179 0.9999957 -0.0007474 0.0000043 0.0007474 0.0000043 0.0007474 0.9999957 -0.0007474
187 0.9999955 -0.0007815 0.0000045 0.0007815 0.0000045 0.0007815 0.9999955 -0.0007815
196 0.9999953 -0.0008172 0.0000047 0.0008172 0.0000047 0.0008172 0.9999953 -0.0008172
205 0.9999951 -0.0008545 0.0000049 0.0008545 0.0000049 0.0008545 0.9999951 -0.0008545
214 0.9999949 -0.0008935 0.0000051 0.0008935 0.0000051 0.0008935 0.9999949 -0.0008935
224 0.9999946 -0.0009343 0.0000054 0.0009343 0.0000054 0.0009343 0.9999946 -0.0009343
234 0.9999944 -0.0009769 0.0000056 0.0009769 0.0000056 0.0009769 0.9999944 -0.0009769
245 0.9999941 -0.0010216 0.0000059 0.0010216 0.0000059 0.0010216 0.9999941 -0.0010216
256 0.9999938 -0.0010682 0.0000062 0.0010682 0.0000062 0.0010682 0.9999938 -0.0010682
268 0.9999935 -0.0011170 0.0000065 0.0011170 0.0000065 0.0011170 0.9999935 -0.0011170
280 0.9999931 -0.0011680 0.0000069 0.0011680 0.0000069 0.0011680 0.9999931 -0.0011680
293 0.9999928 -0.0012214 0.0000072 0.0012214 0.0000072 0.0012214 0.9999928 -0.0012214
306 0.9999924 -0.0012772 0.0000076 0.0012772 0.0000076 0.0012772 0.9999924 -0.0012772
320 0.9999920 -0.0013355 0.0000080 0.0013355 0.0000080 0.0013355 0.9999920 -0.0013355
335 0.9999915 -0.0013965 0.0000085 0.0013965 0.0000085 0.0013965 0.9999915 -0.0013965
350 0.9999910 -0.0014603 0.0000090 0.0014603 0.0000090 0.0014603 0.9999910 -0.0014603
366 0.9999905 -0.0015270 0.0000095 0.0015270 0.0000095 0.0015270 0.9999905 -0.0015270
383 0.9999899 -0.0015968 0.0000101 0.0015968 0.0000101 0.0015968 0.9999899 -0.0015968
401 0.9999893 -0.0016697 0.0000107 0.0016697 0.0000107 0.0016697 0.9999893 -0.0016697
419 0.9999887 -0.0017459 0.0000113 0.0017459 0.0000113 0.0017459 0.9999887 -0.0017459
438 0.9999880 -0.0018257 0.0000120 0.0018257 0.0000120 0.0018257 0.9999880 -0.0018257
458 0.9999872 -0.0019090 0.0000128 0.0019090 0.0000128 0.0019090 0.9999872 -0.0019090
479 0.9999864 -0.0019962 0.0000136 0.0019962 0.0000136 0.0019962 0.9999864 -0.0019962
501 0.9999856 -0.0020873 0.0000144 0.0020873 0.0000144 0.0020873 0.9999856 -0.0020873
524 0.9999847 -0.0021826 0.0000153 0.0021826 0.0000153 0.0021826 0.9999847 -0.0021826
548 0.9999837 -0.0022822 0.0000163 0.0022822 0.0000163 0.0022822 0.9999837 -0.0022822
573 0.9999826 -0.0023864 0.0000174 0.0023864 0.0000174 0.0023864 0.9999826 -0.0023864
600 0.9999815 -0.0024953 0.0000185 0.0024953 0.0000185 0.0024953 0.9999815 -0.0024953
627 0.9999803 -0.0026092 0.0000197 0.0026092 0.0000197 0.0026092 0.9999803 -0.0026092
656 0.9999791 -0.0027282 0.0000209 0.0027282 0.0000209 0.0027282 0.9999791 -0.0027282
686 0.9999777 -0.0028527 0.0000223 0.0028527 0.0000223 0.0028527 0.9999777 -0.0028527
717 0.9999763 -0.0029829 0.0000237 0.0029829 0.0000237 0.0029829 0.9999763 -0.0029829
750 0.9999747 -0.0031190 0.0000253 0.0031190 0.0000253 0.0031190 0.9999747 -0.0031190
784 0.9999731 -0.0032613 0.0000269 0.0032613 0.0000269 0.0032613 0.9999731 -0.0032613
820 0.9999713 -0.0034100 0.0000287 0.0034100 0.0000287 0.0034100 0.9999713 -0.0034100
858 0.9999694 -0.0035656 0.0000306 0.0035656 0.0000306 0.0035656 0.9999694 -0.0035656
897 0.9999675 -0.0037283 0.0000325 0.0037283 0.0000325 0.0037283 0.9999675 -0.0037283
938 0.9999653 -0.0038984 0.0000347 0.0038984 0.0000347 0.0038984 0.9999653 -0.0038984
981 0.9999631 -0.0040762 0.0000369 0.0040762 0.0000369 0.0040762 0.9999631 -0.0040762
1026 0.9999606 -0.0042622 0.0000394 0.0042622 0.0000394 0.0042622 0.9999606 -0.0042622
1073 0.9999581 -0.0044566 0.0000419 0.0044566 0.0000419 0.0044566 0.9999581 -0.0044566
1122 0.9999553 -0.0046600 0.0000447 0.0046600 0.0000447 0.0046600 0.9999553 -0.0046600
1174 0.9999523 -0.0048726 0.0000477 0.0048726 0.0000477 0.0048726 0.9999523 -0.0048726
1227 0.9999491 -0.0050949 0.0000509 0.0050949 0.0000509 0.0050949 0.9999491 -0.0050949
1283 0.9999457 -0.0053274 0.0000543 0.0053274 0.0000543 0.0053274 0.9999457 -0.0053274
1342 0.9999420 -0.0055706 0.0000580 0.0055706 0.0000580 0.0055706 0.9999420 -0.0055706
1404 0.9999380 -0.0058248 0.0000620 0.0058248 0.0000620 0.0058248 0.9999380 -0.0058248
1468 0.9999338 -0.0060907 0.0000662 0.0060907 0.0000662 0.0060907 0.9999338 -0.0060907
1535 0.9999291 -0.0063687 0.0000709 0.0063687 0.0000709 0.0063687 0.9999291 -0.0063687
1606 0.9999241 -0.0066595 0.0000759 0.0066595 0.0000759 0.0066595 0.9999241 -0.0066595
1679 0.9999187 -0.0069635 0.0000813 0.0069635 0.0000813 0.0069635 0.9999187 -0.0069635
1756 0.9999129 -0.0072814 0.0000871 0.0072814 0.0000871 0.0072814 0.9999129 -0.0072814
1836 0.9999066 -0.0076139 0.0000934 0.0076139 0.0000934 0.0076139 0.9999066 -0.0076139
1920 0.9998997 -0.0079616 0.0001003 0.0079616 0.0001003 0.0079616 0.9998997 -0.0079616
2008 0.9998922 -0.0083252 0.0001078 0.0083252 0.0001078 0.0083252 0.9998922 -0.0083252
2100 0.9998841 -0.0087054 0.0001159 0.0087054 0.0001159 0.0087054 0.9998841 -0.0087054
2196 0.9998753 -0.0091029 0.0001247 0.0091029 0.0001247 0.0091029 0.9998753 -0.0091029
2297 0.9998658 -0.0095187 0.0001342 0.0095187 0.0001342 0.0095187 0.9998658 -0.0095187
2402 0.9998553 -0.0099534 0.0001447 0.0099534 0.0001447 0.0099534 0.9998553 -0.0099534
2512 0.9998440 -0.0104080 0.0001560 0.0104080 0.0001560 0.0104080 0.9998440 -0.0104080
2627 0.9998317 -0.0108833 0.0001683 0.0108833 0.0001683 0.0108833 0.9998317 -0.0108833
2748 0.9998183 -0.0113804 0.0001817 0.0113804 0.0001817 0.0113804 0.9998183 -0.0113804
2873 0.9998036 -0.0119001 0.0001964 0.0119001 0.0001964 0.0119001 0.9998036 -0.0119001
3005 0.9997877 -0.0124435 0.0002123 0.0124435 0.0002123 0.0124435 0.9997877 -0.0124435
3143 0.9997704 -0.0130117 0.0002296 0.0130117 0.0002296 0.0130117 0.9997704 -0.0130117
3287 0.9997515 -0.0136059 0.0002485 0.0136059 0.0002485 0.0136059 0.9997515 -0.0136059
3437 0.9997309 -0.0142270 0.0002691 0.0142270 0.0002691 0.0142270 0.9997309 -0.0142270
3594 0.9997085 -0.0148765 0.0002915 0.0148765 0.0002915 0.0148765 0.9997085 -0.0148765
3759 0.9996840 -0.0155556 0.0003160 0.0155556 0.0003160 0.0155556 0.9996840 -0.0155556
3931 0.9996574 -0.0162656 0.0003426 0.0162656 0.0003426 0.0162656 0.9996574 -0.0162656
4111 0.9996285 -0.0170079 0.0003715 0.0170079 0.0003715 0.0170079 0.9996285 -0.0170079
4299 0.9995969 -0.0177839 0.0004031 0.0177839 0.0004031 0.0177839 0.9995969 -0.0177839
4496 0.9995626 -0.0185953 0.0004374 0.0185953 0.0004374 0.0185953 0.9995626 -0.0185953
4702 0.9995252 -0.0194435 0.0004748 0.0194435 0.0004748 0.0194435 0.9995252 -0.0194435
4918 0.9994845 -0.0203302 0.0005155 0.0203302 0.0005155 0.0203302 0.9994845 -0.0203302
5143 0.9994401 -0.0212572 0.0005599 0.0212572 0.0005599 0.0212572 0.9994401 -0.0212572
5378 0.9993919 -0.0222263 0.0006081 0.0222263 0.0006081 0.0222263 0.9993919 -0.0222263
5625 0.9993394 -0.0232393 0.0006606 0.0232393 0.0006606 0.0232393 0.9993394 -0.0232393
5882 0.9992823 -0.0242983 0.0007177 0.0242983 0.0007177 0.0242983 0.9992823 -0.0242983
6151 0.9992201 -0.0254053 0.0007799 0.0254053 0.0007799 0.0254053 0.9992201 -0.0254053
6433 0.9991525 -0.0265625 0.0008475 0.0265625 0.0008475 0.0265625 0.9991525 -0.0265625
6728 0.9990789 -0.0277721 0.0009211 0.0277721 0.0009211 0.0277721 0.9990789 -0.0277721
7036 0.9989989 -0.0290365 0.0010011 0.0290365 0.0010011 0.0290365 0.9989989 -0.0290365
7358 0.9989117 -0.0303581 0.0010883 0.0303581 0.0010883 0.0303581 0.9989117 -0.0303581
7695 0.9988170 -0.0317396 0.0011830 0.0317396 0.0011830 0.0317396 0.9988170 -0.0317396
8047 0.9987138 -0.0331835 0.0012862 0.0331835 0.0012862 0.0331835 0.9987138 -0.0331835
8416 0.9986016 -0.0346927 0.0013984 0.0346927 0.0013984 0.0346927 0.9986016 -0.0346927
8801 0.9984794 -0.0362702 0.0015206 0.0362702 0.0015206 0.0362702 0.9984794 -0.0362702
9204 0.9983464 -0.0379189 0.0016536 0.0379189 0.0016536 0.0379189 0.9983464 -0.0379189
9626 0.9982016 -0.0396420 0.0017984 0.0396420 0.0017984 0.0396420 0.9982016 -0.0396420
10066 0.9980440 -0.0414429 0.0019560 0.0414429 0.0019560 0.0414429 0.9980440 -0.0414429
10527 0.9978723 -0.0433250 0.0021277 0.0433250 0.0021277 0.0433250 0.9978723 -0.0433250
11009 0.9976853 -0.0452918 0.0023147 0.0452918 0.0023147 0.0452918 0.9976853 -0.0452918
11514 0.9974816 -0.0473472 0.0025184 0.0473472 0.0025184 0.0473472 0.9974816 -0.0473472
12041 0.9972597 -0.0494950 0.0027403 0.0494950 0.0027403 0.0494950 0.9972597 -0.0494950
12592 0.9970178 -0.0517393 0.0029822 0.0517393 0.0029822 0.0517393 0.9970178 -0.0517393
13169 0.9967542 -0.0540842 0.0032458 0.0540842 0.0032458 0.0540842 0.9967542 -0.0540842
13772 0.9964669 -0.0565341 0.0035331 0.0565341 0.0035331 0.0565341 0.9964669 -0.0565341
14402 0.9961536 -0.0590936 0.0038464 0.0590936 0.0038464 0.0590936 0.9961536 -0.0590936
15062 0.9958120 -0.0617672 0.0041880 0.0617672 0.0041880 0.0617672 0.9958120 -0.0617672
15752 0.9954396 -0.0645599 0.0045604 0.0645599 0.0045604 0.0645599 0.9954396 -0.0645599
16473 0.9950335 -0.0674766 0.0049665 0.0674766 0.0049665 0.0674766 0.9950335 -0.0674766
17227 0.9945905 -0.0705225 0.0054095 0.0705225 0.0054095 0.0705225 0.9945905 -0.0705225
18016 0.9941074 -0.0737030 0.0058926 0.0737030 0.0058926 0.0737030 0.9941074 -0.0737030
18841 0.9935805 -0.0770236 0.0064195 0.0770236 0.0064195 0.0770236 0.9935805 -0.0770236
19704 0.9930059 -0.0804898 0.0069941 0.0804898 0.0069941 0.0804898 0.9930059 -0.0804898
20606 0.9923792 -0.0841076 0.0076208 0.0841076 0.0076208 0.0841076 0.9923792 -0.0841076
21550 0.9916958 -0.0878828 0.0083042 0.0878828 0.0083042 0.0878828 0.9916958 -0.0878828
22537 0.9909505 -0.0918216 0.0090495 0.0918216 0.0090495 0.0918216 0.9909505 -0.0918216
23569 0.9901379 -0.0959302 0.0098621 0.0959302 0.0098621 0.0959302 0.9901379 -0.0959302
24648 0.9892519 -0.1002149 0.0107481 0.1002149 0.0107481 0.1002149 0.9892519 -0.1002149
25777 0.9882862 -0.1046823 0.0117138 0.1046823 0.0117138 0.1046823 0.9882862 -0.1046823
26957 0.9872335 -0.1093387 0.0127665 0.1093387 0.0127665 0.1093387 0.9872335 -0.1093387
28191 0.9860864 -0.1141908 0.0139136 0.1141908 0.0139136 0.1141908 0.9860864 -0.1141908
29482 0.9848366 -0.1192452 0.0151634 0.1192452 0.0151634 0.1192452 0.9848366 -0.1192452
30832 0.9834752 -0.1245085 0.0165248 0.1245085 0.0165248 0.1245085 0.9834752 -0.1245085
32244 0.9819925 -0.1299874 0.0180075 0.1299874 0.0180075 0.1299874 0.9819925 -0.1299874
33721 0.9803783 -0.1356882 0.0196217 0.1356882 0.0196217 0.1356882 0.9803783 -0.1356882
35265 0.9786213 -0.1416174 0.0213787 0.1416174 0.0213787 0.1416174 0.9786213 -0.1416174
36880 0.9767095 -0.1477811 0.0232905 0.1477811 0.0232905 0.1477811 0.9767095 -0.1477811
38569 0.9746299 -0.1541853 0.0253701 0.1541853 0.0253701 0.1541853 0.9746299 -0.1541853
40335 0.9723686 -0.1608355 0.0276314 0.1608355 0.0276314 0.1608355 0.9723686 -0.1608355
42182 0.9699108 -0.1677369 0.0300892 0.1677369 0.0300892 0.1677369 0.9699108 -0.1677369
44113 0.9672403 -0.1748942 0.0327597 0.1748942 0.0327597 0.1748942 0.9672403 -0.1748942
46134 0.9643402 -0.1823113 0.0356598 0.1823113 0.0356598 0.1823113 0.9643402 -0.1823113
48246 0.9611922 -0.1899916 0.0388078 0.1899916 0.0388078 0.1899916 0.9611922 -0.1899916
50455 0.9577770 -0.1979373 0.0422230 0.1979373 0.0422230 0.1979373 0.9577770 -0.1979373
52766 0.9540741 -0.2061497 0.0459259 0.2061497 0.0459259 0.2061497 0.9540741 -0.2061497
55182 0.9500615 -0.2146291 0.0499385 0.2146291 0.0499385 0.2146291 0.9500615 -0.2146291
57709 0.9457165 -0.2233740 0.0542835 0.2233740 0.0542835 0.2233740 0.9457165 -0.2233740
60352 0.9410149 -0.2323816 0.0589851 0.2323816 0.0589851 0.2323816 0.9410149 -0.2323816
63115 0.9359316 -0.2416471 0.0640684 0.2416471 0.0640684 0.2416471 0.9359316 -0.2416471
66005 0.9304402 -0.2511637 0.0695598 0.2511637 0.0695598 0.2511637 0.9304402 -0.2511637
69028 0.9245136 -0.2609224 0.0754864 0.2609224 0.0754864 0.2609224 0.9245136 -0.2609224
72189 0.9181238 -0.2709117 0.0818762 0.2709117 0.0818762 0.2709117 0.9181238 -0.2709117
75495 0.9112423 -0.2811171 0.0887577 0.2811171 0.0887577 0.2811171 0.9112423 -0.2811171
78952 0.9038400 -0.2915213 0.0961600 0.2915213 0.0961600 0.2915213 0.9038400 -0.2915213
82567 0.8958878 -0.3021037 0.1041122 0.3021037 0.1041122 0.3021037 0.8958878 -0.3021037
86348 0.8873568 -0.3128401 0.1126432 0.3128401 0.1126432 0.3128401 0.8873568 -0.3128401
90302 0.8782184 -0.3237026 0.1217816 0.3237026 0.1217816 0.3237026 0.8782184 -0.3237026
94437 0.8684453 -0.3346596 0.1315547 0.3346596 0.1315547 0.3346596 0.8684453 -0.3346596
98762 0.8580115 -0.3456752 0.1419885 0.3456752 0.1419885 0.3456752 0.8580115 -0.3456752
103284 0.8468927 -0.3567096 0.1531073 0.3567096 0.1531073 0.3567096 0.8468927 -0.3567096
108014 0.8350676 -0.3677189 0.1649324 0.3677189 0.1649324 0.3677189 0.8350676 -0.3677189
112960 0.8225176 -0.3786549 0.1774824 0.3786549 0.1774824 0.3786549 0.8225176 -0.3786549
118133 0.8092282 -0.3894656 0.1907718 0.3894656 0.1907718 0.3894656 0.8092282 -0.3894656
123542 0.7951890 -0.4000955 0.2048110 0.4000955 0.2048110 0.4000955 0.7951890 -0.4000955
129199 0.7803950 -0.4104855 0.2196050 0.4104855 0.2196050 0.4104855 0.7803950 -0.4104855
135116 0.7648468 -0.4205739 0.2351532 0.4205739 0.2351532 0.4205739 0.7648468 -0.4205739
141303 0.7485511 -0.4302966 0.2514489 0.4302966 0.2514489 0.4302966 0.7485511 -0.4302966
147774 0.7315219 -0.4395882 0.2684781 0.4395882 0.2684781 0.4395882 0.7315219 -0.4395882
154540 0.7137800 -0.4483824 0.2862200 0.4483824 0.2862200 0.4483824 0.7137800 -0.4483824
161617 0.6953541 -0.4566133 0.3046459 0.4566133 0.3046459 0.4566133 0.6953541 -0.4566133
169018 0.6762808 -0.4642162 0.3237192 0.4642162 0.3237192 0.4642162 0.6762808 -0.4642162
176758 0.6566042 -0.4711289 0.3433958 0.4711289 0.3433958 0.4711289 0.6566042 -0.4711289
184852 0.6363764 -0.4772926 0.3636236 0.4772926 0.3636236 0.4772926 0.6363764 -0.4772926
193316 0.6156567 -0.4826531 0.3843433 0.4826531 0.3843433 0.4826531 0.6156567 -0.4826531
202169 0.5945112 -0.4871621 0.4054888 0.4871621 0.4054888 0.4871621 0.5945112 -0.4871621
211427 0.5730122 -0.4907778 0.4269878 0.4907778 0.4269878 0.4907778 0.5730122 -0.4907778
221108 0.5512370 -0.4934662 0.4487630 0.4934662 0.4487630 0.4934662 0.5512370 -0.4934662
231233 0.5292672 -0.4952016 0.4707328 0.4952016 0.4707328 0.4952016 0.5292672 -0.4952016
241822 0.5071873 -0.4959674 0.4928127 0.4959674 0.4928127 0.4959674 0.5071873 -0.4959674
252896 0.4850835 -0.4957563 0.5149165 0.4957563 0.5149165 0.4957563 0.4850835 -0.4957563
264476 0.4630422 -0.4945704 0.5369578 0.4945704 0.5369578 0.4945704 0.4630422 -0.4945704
276587 0.4411490 -0.4924216 0.5588510 0.4924216 0.5588510 0.4924216 0.4411490 -0.4924216
289253 0.4194871 -0.4893307 0.5805129 0.4893307 0.5805129 0.4893307 0.4194871 -0.4893307
302498 0.3981362 -0.4853273 0.6018638 0.4853273 0.6018638 0.4853273 0.3981362 -0.4853273
316350 0.3771712 -0.4804490 0.6228288 0.4804490 0.6228288 0.4804490 0.3771712 -0.4804490
330837 0.3566616 -0.4747407 0.6433384 0.4747407 0.6433384 0.4747407 0.3566616 -0.4747407
345986 0.3366703 -0.4682534 0.6633297 0.4682534 0.6633297 0.4682534 0.3366703 -0.4682534
361830 0.3172532 -0.4610433 0.6827468 0.4610433 0.6827468 0.4610433 0.3172532 -0.4610433
378399 0.2984587 -0.4531708 0.7015413 0.4531708 0.7015413 0.4531708 0.2984587 -0.4531708
395726 0.2803275 -0.4446992 0.7196725 0.4446992 0.7196725 0.4446992 0.2803275 -0.4446992
413847 0.2628926 -0.4356935 0.7371074 0.4356935 0.7371074 0.4356935 0.2628926 -0.4356935
432798 0.2461790 -0.4262197 0.7538210 0.4262197 0.7538210 0.4262197 0.2461790 -0.4262197
452617 0.2302045 -0.4163437 0.7697955 0.4163437 0.7697955 0.4163437 0.2302045 -0.4163437
473344 0.2149799 -0.4061301 0.7850201 0.4061301 0.7850201 0.4061301 0.2149799 -0.4061301
495019 0.2005093 -0.3956418 0.7994907 0.3956418 0.7994907 0.3956418 0.2005093 -0.3956418
517687 0.1867907 -0.3849394 0.8132093 0.3849394 0.8132093 0.3849394 0.1867907 -0.3849394
541393 0.1738168 -0.3740801 0.8261832 0.3740801 0.8261832 0.3740801 0.1738168 -0.3740801
566185 0.1615757 -0.3631180 0.8384243 0.3631180 0.8384243 0.3631180 0.1615757 -0.3631180
592111 0.1500509 -0.3521033 0.8499491 0.3521033 0.8499491 0.3521033 0.1500509 -0.3521033
619225 0.1392230 -0.3410821 0.8607770 0.3410821 0.8607770 0.3410821 0.1392230 -0.3410821
647581 0.1290692 -0.3300968 0.8709308 0.3300968 0.8709308 0.3300968 0.1290692 -0.3300968
677235 0.1195648 -0.3191854 0.8804352 0.3191854 0.8804352 0.3191854 0.1195648 -0.3191854
708247 0.1106831 -0.3083819 0.8893169 0.3083819 0.8893169 0.3083819 0.1106831 -0.3083819
740679 0.1023964 -0.2977165 0.8976036 0.2977165 0.8976036 0.2977165 0.1023964 -0.2977165
774597 0.0946760 -0.2872154 0.9053240 0.2872154 0.9053240 0.2872154 0.0946760 -0.2872154
810067 0.0874929 -0.2769012 0.9125071 0.2769012 0.9125071 0.2769012 0.0874929 -0.2769012
847162 0.0808181 -0.2667934 0.9191819 0.2667934 0.9191819 0.2667934 0.0808181 -0.2667934
885955 0.0746227 -0.2569080 0.9253773 0.2569080 0.9253773 0.2569080 0.0746227 -0.2569080
926525 0.0688783 -0.2472582 0.9311217 0.2472582 0.9311217 0.2472582 0.0688783 -0.2472582
968953 0.0635574 -0.2378545 0.9364426 0.2378545 0.9364426 0.2378545 0.0635574 -0.2378545
1013323 0.0586331 -0.2287051 0.9413669 0.2287051 0.9413669 0.2287051 0.0586331 -0.2287051
1059725 0.0540795 -0.2198158 0.9459205 0.2198158 0.9459205 0.2198158 0.0540795 -0.2198158
1108252 0.0498718 -0.2111907 0.9501282 0.2111907 0.9501282 0.2111907 0.0498718 -0.2111907
1159002 0.0459865 -0.2028318 0.9540135 0.2028318 0.9540135 0.2028318 0.0459865 -0.2028318
1212075 0.0424010 -0.1947400 0.9575990 0.1947400 0.9575990 0.1947400 0.0424010 -0.1947400
1267578 0.0390941 -0.1869145 0.9609059 0.1869145 0.9609059 0.1869145 0.0390941 -0.1869145
1325623 0.0360456 -0.1793535 0.9639544 0.1793535 0.9639544 0.1793535 0.0360456 -0.1793535
1386327 0.0332367 -0.1720544 0.9667633 0.1720544 0.9667633 0.1720544 0.0332367 -0.1720544
1449809 0.0306496 -0.1650134 0.9693504 0.1650134 0.9693504 0.1650134 0.0306496 -0.1650134
1516199 0.0282677 -0.1582261 0.9717323 0.1582261 0.9717323 0.1582261 0.0282677 -0.1582261
1585629 0.0260754 -0.1516878 0.9739246 0.1516878 0.9739246 0.1516878 0.0260754 -0.1516878
1658239 0.0240583 -0.1453929 0.9759417 0.1453929 0.9759417 0.1453929 0.0240583 -0.1453929
1734173 0.0222029 -0.1393358 0.9777971 0.1393358 0.9777971 0.1393358 0.0222029 -0.1393358
1813585 0.0204967 -0.1335102 0.9795033 0.1335102 0.9795033 0.1335102 0.0204967 -0.1335102
1896632 0.0189280 -0.1279100 0.9810720 0.1279100 0.9810720 0.1279100 0.0189280 -0.1279100
1983483 0.0174859 -0.1225286 0.9825141 0.1225286 0.9825141 0.1225286 0.0174859 -0.1225286
2074311 0.0161605 -0.1173595 0.9838395 0.1173595 0.9838395 0.1173595 0.0161605 -0.1173595
