!Murata Part Number: GRM155R71H561KA01
!These Parameters are Measured in Series Mode Connection
!Data Generated on Mar 30, 2021
!       o--ll--o
!Port1            Port2
!       o------o
!Operation Temp=25[degC], DC Bias Voltage=0[V]
!Freq. Start=100[Hz] Stop=6[GHz] 401[Steps]
# Hz S RI R 50
!Freq.(Hz) S11(Real) S11(Imag) S21(Real) S21(Imag) S12(Real) S12(Imag) S22(Real) S22(Imag)
100 0.9999998 -0.0000358 0.0000002 0.0000358 0.0000002 0.0000358 0.9999998 -0.0000358
105 0.9999998 -0.0000374 0.0000002 0.0000374 0.0000002 0.0000374 0.9999998 -0.0000374
109 0.9999998 -0.0000391 0.0000002 0.0000391 0.0000002 0.0000391 0.9999998 -0.0000391
114 0.9999998 -0.0000409 0.0000002 0.0000409 0.0000002 0.0000409 0.9999998 -0.0000409
120 0.9999998 -0.0000428 0.0000002 0.0000428 0.0000002 0.0000428 0.9999998 -0.0000428
125 0.9999997 -0.0000447 0.0000003 0.0000447 0.0000003 0.0000447 0.9999997 -0.0000447
131 0.9999997 -0.0000468 0.0000003 0.0000468 0.0000003 0.0000468 0.9999997 -0.0000468
137 0.9999997 -0.0000489 0.0000003 0.0000489 0.0000003 0.0000489 0.9999997 -0.0000489
143 0.9999997 -0.0000511 0.0000003 0.0000511 0.0000003 0.0000511 0.9999997 -0.0000511
150 0.9999997 -0.0000534 0.0000003 0.0000534 0.0000003 0.0000534 0.9999997 -0.0000534
156 0.9999997 -0.0000559 0.0000003 0.0000559 0.0000003 0.0000559 0.9999997 -0.0000559
164 0.9999997 -0.0000584 0.0000003 0.0000584 0.0000003 0.0000584 0.9999997 -0.0000584
171 0.9999997 -0.0000611 0.0000003 0.0000611 0.0000003 0.0000611 0.9999997 -0.0000611
179 0.9999997 -0.0000639 0.0000003 0.0000639 0.0000003 0.0000639 0.9999997 -0.0000639
187 0.9999997 -0.0000668 0.0000003 0.0000668 0.0000003 0.0000668 0.9999997 -0.0000668
196 0.9999996 -0.0000699 0.0000004 0.0000699 0.0000004 0.0000699 0.9999996 -0.0000699
205 0.9999996 -0.0000730 0.0000004 0.0000730 0.0000004 0.0000730 0.9999996 -0.0000730
214 0.9999996 -0.0000764 0.0000004 0.0000764 0.0000004 0.0000764 0.9999996 -0.0000764
224 0.9999996 -0.0000799 0.0000004 0.0000799 0.0000004 0.0000799 0.9999996 -0.0000799
234 0.9999996 -0.0000835 0.0000004 0.0000835 0.0000004 0.0000835 0.9999996 -0.0000835
245 0.9999996 -0.0000873 0.0000004 0.0000873 0.0000004 0.0000873 0.9999996 -0.0000873
256 0.9999996 -0.0000913 0.0000004 0.0000913 0.0000004 0.0000913 0.9999996 -0.0000913
268 0.9999996 -0.0000955 0.0000004 0.0000955 0.0000004 0.0000955 0.9999996 -0.0000955
280 0.9999995 -0.0000998 0.0000005 0.0000998 0.0000005 0.0000998 0.9999995 -0.0000998
293 0.9999995 -0.0001044 0.0000005 0.0001044 0.0000005 0.0001044 0.9999995 -0.0001044
306 0.9999995 -0.0001092 0.0000005 0.0001092 0.0000005 0.0001092 0.9999995 -0.0001092
320 0.9999995 -0.0001142 0.0000005 0.0001142 0.0000005 0.0001142 0.9999995 -0.0001142
335 0.9999995 -0.0001194 0.0000005 0.0001194 0.0000005 0.0001194 0.9999995 -0.0001194
350 0.9999994 -0.0001248 0.0000006 0.0001248 0.0000006 0.0001248 0.9999994 -0.0001248
366 0.9999994 -0.0001305 0.0000006 0.0001305 0.0000006 0.0001305 0.9999994 -0.0001305
383 0.9999994 -0.0001365 0.0000006 0.0001365 0.0000006 0.0001365 0.9999994 -0.0001365
401 0.9999994 -0.0001427 0.0000006 0.0001427 0.0000006 0.0001427 0.9999994 -0.0001427
419 0.9999993 -0.0001493 0.0000007 0.0001493 0.0000007 0.0001493 0.9999993 -0.0001493
438 0.9999993 -0.0001561 0.0000007 0.0001561 0.0000007 0.0001561 0.9999993 -0.0001561
458 0.9999993 -0.0001632 0.0000007 0.0001632 0.0000007 0.0001632 0.9999993 -0.0001632
479 0.9999992 -0.0001707 0.0000008 0.0001707 0.0000008 0.0001707 0.9999992 -0.0001707
501 0.9999992 -0.0001785 0.0000008 0.0001785 0.0000008 0.0001785 0.9999992 -0.0001785
524 0.9999992 -0.0001866 0.0000008 0.0001866 0.0000008 0.0001866 0.9999992 -0.0001866
548 0.9999991 -0.0001952 0.0000009 0.0001952 0.0000009 0.0001952 0.9999991 -0.0001952
573 0.9999991 -0.0002041 0.0000009 0.0002041 0.0000009 0.0002041 0.9999991 -0.0002041
600 0.9999990 -0.0002134 0.0000010 0.0002134 0.0000010 0.0002134 0.9999990 -0.0002134
627 0.9999990 -0.0002232 0.0000010 0.0002232 0.0000010 0.0002232 0.9999990 -0.0002232
656 0.9999989 -0.0002334 0.0000011 0.0002334 0.0000011 0.0002334 0.9999989 -0.0002334
686 0.9999989 -0.0002440 0.0000011 0.0002440 0.0000011 0.0002440 0.9999989 -0.0002440
717 0.9999988 -0.0002552 0.0000012 0.0002552 0.0000012 0.0002552 0.9999988 -0.0002552
750 0.9999987 -0.0002668 0.0000013 0.0002668 0.0000013 0.0002668 0.9999987 -0.0002668
784 0.9999987 -0.0002790 0.0000013 0.0002790 0.0000013 0.0002790 0.9999987 -0.0002790
820 0.9999986 -0.0002917 0.0000014 0.0002917 0.0000014 0.0002917 0.9999986 -0.0002917
858 0.9999985 -0.0003051 0.0000015 0.0003051 0.0000015 0.0003051 0.9999985 -0.0003051
897 0.9999984 -0.0003190 0.0000016 0.0003190 0.0000016 0.0003190 0.9999984 -0.0003190
938 0.9999983 -0.0003335 0.0000017 0.0003335 0.0000017 0.0003335 0.9999983 -0.0003335
981 0.9999983 -0.0003488 0.0000017 0.0003488 0.0000017 0.0003488 0.9999983 -0.0003488
1026 0.9999982 -0.0003647 0.0000018 0.0003647 0.0000018 0.0003647 0.9999982 -0.0003647
1073 0.9999981 -0.0003813 0.0000019 0.0003813 0.0000019 0.0003813 0.9999981 -0.0003813
1122 0.9999980 -0.0003987 0.0000020 0.0003987 0.0000020 0.0003987 0.9999980 -0.0003987
1174 0.9999978 -0.0004169 0.0000022 0.0004169 0.0000022 0.0004169 0.9999978 -0.0004169
1227 0.9999977 -0.0004360 0.0000023 0.0004360 0.0000023 0.0004360 0.9999977 -0.0004360
1283 0.9999976 -0.0004558 0.0000024 0.0004558 0.0000024 0.0004558 0.9999976 -0.0004558
1342 0.9999975 -0.0004766 0.0000025 0.0004766 0.0000025 0.0004766 0.9999975 -0.0004766
1404 0.9999974 -0.0004984 0.0000026 0.0004984 0.0000026 0.0004984 0.9999974 -0.0004984
1468 0.9999972 -0.0005211 0.0000028 0.0005211 0.0000028 0.0005211 0.9999972 -0.0005211
1535 0.9999971 -0.0005449 0.0000029 0.0005449 0.0000029 0.0005449 0.9999971 -0.0005449
1606 0.9999969 -0.0005698 0.0000031 0.0005698 0.0000031 0.0005698 0.9999969 -0.0005698
1679 0.9999968 -0.0005958 0.0000032 0.0005958 0.0000032 0.0005958 0.9999968 -0.0005958
1756 0.9999966 -0.0006230 0.0000034 0.0006230 0.0000034 0.0006230 0.9999966 -0.0006230
1836 0.9999965 -0.0006514 0.0000035 0.0006514 0.0000035 0.0006514 0.9999965 -0.0006514
1920 0.9999963 -0.0006811 0.0000037 0.0006811 0.0000037 0.0006811 0.9999963 -0.0006811
2008 0.9999961 -0.0007122 0.0000039 0.0007122 0.0000039 0.0007122 0.9999961 -0.0007122
2100 0.9999959 -0.0007447 0.0000041 0.0007447 0.0000041 0.0007447 0.9999959 -0.0007447
2196 0.9999958 -0.0007787 0.0000042 0.0007787 0.0000042 0.0007787 0.9999958 -0.0007787
2297 0.9999956 -0.0008142 0.0000044 0.0008142 0.0000044 0.0008142 0.9999956 -0.0008142
2402 0.9999953 -0.0008514 0.0000047 0.0008514 0.0000047 0.0008514 0.9999953 -0.0008514
2512 0.9999951 -0.0008903 0.0000049 0.0008903 0.0000049 0.0008903 0.9999951 -0.0008903
2627 0.9999949 -0.0009309 0.0000051 0.0009309 0.0000051 0.0009309 0.9999949 -0.0009309
2748 0.9999946 -0.0009734 0.0000054 0.0009734 0.0000054 0.0009734 0.9999946 -0.0009734
2873 0.9999944 -0.0010179 0.0000056 0.0010179 0.0000056 0.0010179 0.9999944 -0.0010179
3005 0.9999941 -0.0010644 0.0000059 0.0010644 0.0000059 0.0010644 0.9999941 -0.0010644
3143 0.9999938 -0.0011130 0.0000062 0.0011130 0.0000062 0.0011130 0.9999938 -0.0011130
3287 0.9999934 -0.0011639 0.0000066 0.0011639 0.0000066 0.0011639 0.9999934 -0.0011639
3437 0.9999931 -0.0012170 0.0000069 0.0012170 0.0000069 0.0012170 0.9999931 -0.0012170
3594 0.9999927 -0.0012726 0.0000073 0.0012726 0.0000073 0.0012726 0.9999927 -0.0012726
3759 0.9999923 -0.0013308 0.0000077 0.0013308 0.0000077 0.0013308 0.9999923 -0.0013308
3931 0.9999919 -0.0013916 0.0000081 0.0013916 0.0000081 0.0013916 0.9999919 -0.0013916
4111 0.9999914 -0.0014551 0.0000086 0.0014551 0.0000086 0.0014551 0.9999914 -0.0014551
4299 0.9999909 -0.0015216 0.0000091 0.0015216 0.0000091 0.0015216 0.9999909 -0.0015216
4496 0.9999904 -0.0015911 0.0000096 0.0015911 0.0000096 0.0015911 0.9999904 -0.0015911
4702 0.9999898 -0.0016638 0.0000102 0.0016638 0.0000102 0.0016638 0.9999898 -0.0016638
4918 0.9999891 -0.0017398 0.0000109 0.0017398 0.0000109 0.0017398 0.9999891 -0.0017398
5143 0.9999885 -0.0018193 0.0000115 0.0018193 0.0000115 0.0018193 0.9999885 -0.0018193
5378 0.9999877 -0.0019024 0.0000123 0.0019024 0.0000123 0.0019024 0.9999877 -0.0019024
5625 0.9999869 -0.0019893 0.0000131 0.0019893 0.0000131 0.0019893 0.9999869 -0.0019893
5882 0.9999861 -0.0020802 0.0000139 0.0020802 0.0000139 0.0020802 0.9999861 -0.0020802
6151 0.9999851 -0.0021752 0.0000149 0.0021752 0.0000149 0.0021752 0.9999851 -0.0021752
6433 0.9999842 -0.0022746 0.0000158 0.0022746 0.0000158 0.0022746 0.9999842 -0.0022746
6728 0.9999831 -0.0023784 0.0000169 0.0023784 0.0000169 0.0023784 0.9999831 -0.0023784
7036 0.9999819 -0.0024870 0.0000181 0.0024870 0.0000181 0.0024870 0.9999819 -0.0024870
7358 0.9999807 -0.0026006 0.0000193 0.0026006 0.0000193 0.0026006 0.9999807 -0.0026006
7695 0.9999794 -0.0027193 0.0000206 0.0027193 0.0000206 0.0027193 0.9999794 -0.0027193
8047 0.9999779 -0.0028435 0.0000221 0.0028435 0.0000221 0.0028435 0.9999779 -0.0028435
8416 0.9999764 -0.0029733 0.0000236 0.0029733 0.0000236 0.0029733 0.9999764 -0.0029733
8801 0.9999747 -0.0031090 0.0000253 0.0031090 0.0000253 0.0031090 0.9999747 -0.0031090
9204 0.9999730 -0.0032508 0.0000270 0.0032508 0.0000270 0.0032508 0.9999730 -0.0032508
9626 0.9999710 -0.0033992 0.0000290 0.0033992 0.0000290 0.0033992 0.9999710 -0.0033992
10066 0.9999690 -0.0035543 0.0000310 0.0035543 0.0000310 0.0035543 0.9999690 -0.0035543
10527 0.9999668 -0.0037164 0.0000332 0.0037164 0.0000332 0.0037164 0.9999668 -0.0037164
11009 0.9999645 -0.0038859 0.0000355 0.0038859 0.0000355 0.0038859 0.9999645 -0.0038859
11514 0.9999620 -0.0040632 0.0000380 0.0040632 0.0000380 0.0040632 0.9999620 -0.0040632
12041 0.9999593 -0.0042485 0.0000407 0.0042485 0.0000407 0.0042485 0.9999593 -0.0042485
12592 0.9999564 -0.0044423 0.0000436 0.0044423 0.0000436 0.0044423 0.9999564 -0.0044423
13169 0.9999534 -0.0046449 0.0000466 0.0046449 0.0000466 0.0046449 0.9999534 -0.0046449
13772 0.9999501 -0.0048567 0.0000499 0.0048567 0.0000499 0.0048567 0.9999501 -0.0048567
14402 0.9999466 -0.0050782 0.0000534 0.0050782 0.0000534 0.0050782 0.9999466 -0.0050782
15062 0.9999428 -0.0053097 0.0000572 0.0053097 0.0000572 0.0053097 0.9999428 -0.0053097
15752 0.9999388 -0.0055519 0.0000612 0.0055519 0.0000612 0.0055519 0.9999388 -0.0055519
16473 0.9999345 -0.0058050 0.0000655 0.0058050 0.0000655 0.0058050 0.9999345 -0.0058050
17227 0.9999298 -0.0060698 0.0000702 0.0060698 0.0000702 0.0060698 0.9999298 -0.0060698
18016 0.9999249 -0.0063466 0.0000751 0.0063466 0.0000751 0.0063466 0.9999249 -0.0063466
18841 0.9999195 -0.0066360 0.0000805 0.0066360 0.0000805 0.0066360 0.9999195 -0.0066360
19704 0.9999138 -0.0069387 0.0000862 0.0069387 0.0000862 0.0069387 0.9999138 -0.0069387
20606 0.9999076 -0.0072551 0.0000924 0.0072551 0.0000924 0.0072551 0.9999076 -0.0072551
21550 0.9999009 -0.0075860 0.0000991 0.0075860 0.0000991 0.0075860 0.9999009 -0.0075860
22537 0.9998937 -0.0079321 0.0001063 0.0079321 0.0001063 0.0079321 0.9998937 -0.0079321
23569 0.9998860 -0.0082939 0.0001140 0.0082939 0.0001140 0.0082939 0.9998860 -0.0082939
24648 0.9998776 -0.0086723 0.0001224 0.0086723 0.0001224 0.0086723 0.9998776 -0.0086723
25777 0.9998685 -0.0090680 0.0001315 0.0090680 0.0001315 0.0090680 0.9998685 -0.0090680
26957 0.9998587 -0.0094818 0.0001413 0.0094818 0.0001413 0.0094818 0.9998587 -0.0094818
28191 0.9998480 -0.0099144 0.0001520 0.0099144 0.0001520 0.0099144 0.9998480 -0.0099144
29482 0.9998364 -0.0103669 0.0001636 0.0103669 0.0001636 0.0103669 0.9998364 -0.0103669
30832 0.9998239 -0.0108400 0.0001761 0.0108400 0.0001761 0.0108400 0.9998239 -0.0108400
32244 0.9998102 -0.0113347 0.0001898 0.0113347 0.0001898 0.0113347 0.9998102 -0.0113347
33721 0.9997954 -0.0118520 0.0002046 0.0118520 0.0002046 0.0118520 0.9997954 -0.0118520
35265 0.9997793 -0.0123929 0.0002207 0.0123929 0.0002207 0.0123929 0.9997793 -0.0123929
36880 0.9997618 -0.0129586 0.0002382 0.0129586 0.0002382 0.0129586 0.9997618 -0.0129586
38569 0.9997427 -0.0135500 0.0002573 0.0135500 0.0002573 0.0135500 0.9997427 -0.0135500
40335 0.9997219 -0.0141685 0.0002781 0.0141685 0.0002781 0.0141685 0.9997219 -0.0141685
42182 0.9996993 -0.0148151 0.0003007 0.0148151 0.0003007 0.0148151 0.9996993 -0.0148151
44113 0.9996746 -0.0154912 0.0003254 0.0154912 0.0003254 0.0154912 0.9996746 -0.0154912
46134 0.9996478 -0.0161982 0.0003522 0.0161982 0.0003522 0.0161982 0.9996478 -0.0161982
48246 0.9996186 -0.0169373 0.0003814 0.0169373 0.0003814 0.0169373 0.9996186 -0.0169373
50455 0.9995867 -0.0177101 0.0004133 0.0177101 0.0004133 0.0177101 0.9995867 -0.0177101
52766 0.9995519 -0.0185181 0.0004481 0.0185181 0.0004481 0.0185181 0.9995519 -0.0185181
55182 0.9995141 -0.0193628 0.0004859 0.0193628 0.0004859 0.0193628 0.9995141 -0.0193628
57709 0.9994729 -0.0202459 0.0005271 0.0202459 0.0005271 0.0202459 0.9994729 -0.0202459
60352 0.9994279 -0.0211691 0.0005721 0.0211691 0.0005721 0.0211691 0.9994279 -0.0211691
63115 0.9993789 -0.0221343 0.0006211 0.0221343 0.0006211 0.0221343 0.9993789 -0.0221343
66005 0.9993256 -0.0231433 0.0006744 0.0231433 0.0006744 0.0231433 0.9993256 -0.0231433
69028 0.9992675 -0.0241980 0.0007325 0.0241980 0.0007325 0.0241980 0.9992675 -0.0241980
72189 0.9992041 -0.0253006 0.0007959 0.0253006 0.0007959 0.0253006 0.9992041 -0.0253006
75495 0.9991352 -0.0264531 0.0008648 0.0264531 0.0008648 0.0264531 0.9991352 -0.0264531
78952 0.9990600 -0.0276578 0.0009400 0.0276578 0.0009400 0.0276578 0.9990600 -0.0276578
82567 0.9989782 -0.0289169 0.0010218 0.0289169 0.0010218 0.0289169 0.9989782 -0.0289169
86348 0.9988891 -0.0302330 0.0011109 0.0302330 0.0011109 0.0302330 0.9988891 -0.0302330
90302 0.9987921 -0.0316086 0.0012079 0.0316086 0.0012079 0.0316086 0.9987921 -0.0316086
94437 0.9986865 -0.0330462 0.0013135 0.0330462 0.0013135 0.0330462 0.9986865 -0.0330462
98762 0.9985716 -0.0345487 0.0014284 0.0345487 0.0014284 0.0345487 0.9985716 -0.0345487
103284 0.9984465 -0.0361190 0.0015535 0.0361190 0.0015535 0.0361190 0.9984465 -0.0361190
108014 0.9983102 -0.0377600 0.0016898 0.0377600 0.0016898 0.0377600 0.9983102 -0.0377600
112960 0.9981620 -0.0394748 0.0018380 0.0394748 0.0018380 0.0394748 0.9981620 -0.0394748
118133 0.9980006 -0.0412668 0.0019994 0.0412668 0.0019994 0.0412668 0.9980006 -0.0412668
123542 0.9978249 -0.0431393 0.0021751 0.0431393 0.0021751 0.0431393 0.9978249 -0.0431393
129199 0.9976337 -0.0450959 0.0023663 0.0450959 0.0023663 0.0450959 0.9976337 -0.0450959
135116 0.9974256 -0.0471402 0.0025744 0.0471402 0.0025744 0.0471402 0.9974256 -0.0471402
141303 0.9971990 -0.0492762 0.0028010 0.0492762 0.0028010 0.0492762 0.9971990 -0.0492762
147774 0.9969523 -0.0515077 0.0030477 0.0515077 0.0030477 0.0515077 0.9969523 -0.0515077
154540 0.9966837 -0.0538390 0.0033163 0.0538390 0.0033163 0.0538390 0.9966837 -0.0538390
161617 0.9963912 -0.0562744 0.0036088 0.0562744 0.0036088 0.0562744 0.9963912 -0.0562744
169018 0.9960726 -0.0588183 0.0039274 0.0588183 0.0039274 0.0588183 0.9960726 -0.0588183
176758 0.9957257 -0.0614754 0.0042743 0.0614754 0.0042743 0.0614754 0.9957257 -0.0614754
184852 0.9953477 -0.0642505 0.0046523 0.0642505 0.0046523 0.0642505 0.9953477 -0.0642505
193316 0.9949360 -0.0671486 0.0050640 0.0671486 0.0050640 0.0671486 0.9949360 -0.0671486
202169 0.9944874 -0.0701748 0.0055126 0.0701748 0.0055126 0.0701748 0.9944874 -0.0701748
211427 0.9939986 -0.0733344 0.0060014 0.0733344 0.0060014 0.0733344 0.9939986 -0.0733344
221108 0.9934659 -0.0766328 0.0065341 0.0766328 0.0065341 0.0766328 0.9934659 -0.0766328
231233 0.9928855 -0.0800758 0.0071145 0.0800758 0.0071145 0.0800758 0.9928855 -0.0800758
241822 0.9922528 -0.0836690 0.0077472 0.0836690 0.0077472 0.0836690 0.9922528 -0.0836690
252896 0.9915633 -0.0874183 0.0084367 0.0874183 0.0084367 0.0874183 0.9915633 -0.0874183
264476 0.9908119 -0.0913299 0.0091881 0.0913299 0.0091881 0.0913299 0.9908119 -0.0913299
276587 0.9899929 -0.0954099 0.0100071 0.0954099 0.0100071 0.0954099 0.9899929 -0.0954099
289253 0.9891004 -0.0996644 0.0108996 0.0996644 0.0108996 0.0996644 0.9891004 -0.0996644
302498 0.9881279 -0.1041000 0.0118721 0.1041000 0.0118721 0.1041000 0.9881279 -0.1041000
316350 0.9870682 -0.1087229 0.0129318 0.1087229 0.0129318 0.1087229 0.9870682 -0.1087229
330837 0.9859137 -0.1135397 0.0140863 0.1135397 0.0140863 0.1135397 0.9859137 -0.1135397
345986 0.9846561 -0.1185568 0.0153439 0.1185568 0.0153439 0.1185568 0.9846561 -0.1185568
361830 0.9832865 -0.1237807 0.0167135 0.1237807 0.0167135 0.1237807 0.9832865 -0.1237807
378399 0.9817953 -0.1292176 0.0182047 0.1292176 0.0182047 0.1292176 0.9817953 -0.1292176
395726 0.9801720 -0.1348740 0.0198280 0.1348740 0.0198280 0.1348740 0.9801720 -0.1348740
413847 0.9784054 -0.1407559 0.0215946 0.1407559 0.0215946 0.1407559 0.9784054 -0.1407559
432798 0.9764836 -0.1468692 0.0235164 0.1468692 0.0235164 0.1468692 0.9764836 -0.1468692
452617 0.9743936 -0.1532196 0.0256064 0.1532196 0.0256064 0.1532196 0.9743936 -0.1532196
473344 0.9721217 -0.1598121 0.0278783 0.1598121 0.0278783 0.1598121 0.9721217 -0.1598121
495019 0.9696529 -0.1666517 0.0303471 0.1666517 0.0303471 0.1666517 0.9696529 -0.1666517
517687 0.9669716 -0.1737426 0.0330284 0.1737426 0.0330284 0.1737426 0.9669716 -0.1737426
541393 0.9640608 -0.1810885 0.0359392 0.1810885 0.0359392 0.1810885 0.9640608 -0.1810885
566185 0.9609027 -0.1886920 0.0390973 0.1886920 0.0390973 0.1886920 0.9609027 -0.1886920
592111 0.9574783 -0.1965553 0.0425217 0.1965553 0.0425217 0.1965553 0.9574783 -0.1965553
619225 0.9537674 -0.2046792 0.0462326 0.2046792 0.0462326 0.2046792 0.9537674 -0.2046792
647581 0.9497488 -0.2130634 0.0502512 0.2130634 0.0502512 0.2130634 0.9497488 -0.2130634
677235 0.9454003 -0.2217062 0.0545997 0.2217062 0.0545997 0.2217062 0.9454003 -0.2217062
708247 0.9406983 -0.2306045 0.0593017 0.2306045 0.0593017 0.2306045 0.9406983 -0.2306045
740679 0.9356185 -0.2397533 0.0643815 0.2397533 0.0643815 0.2397533 0.9356185 -0.2397533
774597 0.9301354 -0.2491457 0.0698646 0.2491457 0.0698646 0.2491457 0.9301354 -0.2491457
810067 0.9242228 -0.2587725 0.0757772 0.2587725 0.0757772 0.2587725 0.9242228 -0.2587725
847162 0.9178536 -0.2686223 0.0821464 0.2686223 0.0821464 0.2686223 0.9178536 -0.2686223
885955 0.9110003 -0.2786809 0.0889997 0.2786809 0.0889997 0.2786809 0.9110003 -0.2786809
926525 0.9036349 -0.2889312 0.0963651 0.2889312 0.0963651 0.2889312 0.9036349 -0.2889312
968953 0.8957292 -0.2993530 0.1042708 0.2993530 0.1042708 0.2993530 0.8957292 -0.2993530
1013323 0.8872552 -0.3099229 0.1127448 0.3099229 0.1127448 0.3099229 0.8872552 -0.3099229
1059725 0.8781856 -0.3206136 0.1218144 0.3206136 0.1218144 0.3206136 0.8781856 -0.3206136
1108252 0.8684936 -0.3313944 0.1315064 0.3313944 0.1315064 0.3313944 0.8684936 -0.3313944
1159002 0.8581541 -0.3422304 0.1418459 0.3422304 0.1418459 0.3422304 0.8581541 -0.3422304
1212075 0.8471437 -0.3530829 0.1528563 0.3530829 0.1528563 0.3530829 0.8471437 -0.3530829
1267578 0.8354413 -0.3639092 0.1645587 0.3639092 0.1645587 0.3639092 0.8354413 -0.3639092
1325623 0.8230290 -0.3746625 0.1769710 0.3746625 0.1769710 0.3746625 0.8230290 -0.3746625
1386327 0.8098923 -0.3852922 0.1901077 0.3852922 0.1901077 0.3852922 0.8098923 -0.3852922
1449809 0.7960212 -0.3957440 0.2039788 0.3957440 0.2039788 0.3957440 0.7960212 -0.3957440
1516199 0.7814104 -0.4059605 0.2185896 0.4059605 0.2185896 0.4059605 0.7814104 -0.4059605
1585629 0.7660603 -0.4158811 0.2339397 0.4158811 0.2339397 0.4158811 0.7660603 -0.4158811
1658239 0.7499774 -0.4254433 0.2500226 0.4254433 0.2500226 0.4254433 0.7499774 -0.4254433
1734173 0.7331749 -0.4345828 0.2668251 0.4345828 0.2668251 0.4345828 0.7331749 -0.4345828
1813585 0.7156734 -0.4432347 0.2843266 0.4432347 0.2843266 0.4432347 0.7156734 -0.4432347
1896632 0.6975006 -0.4513342 0.3024994 0.4513342 0.3024994 0.4513342 0.6975006 -0.4513342
1983483 0.6786924 -0.4588178 0.3213076 0.4588178 0.3213076 0.4588178 0.6786924 -0.4588178
2074311 0.6592920 -0.4656241 0.3407080 0.4656241 0.3407080 0.4656241 0.6592920 -0.4656241
