!Murata Part Number: GRM15XR71H471KA86
!These Parameters are Measured in Series Mode Connection
!Data Generated on Mar 30, 2021
!       o--ll--o
!Port1            Port2
!       o------o
!Operation Temp=25[degC], DC Bias Voltage=0[V]
!Freq. Start=100[Hz] Stop=6[GHz] 401[Steps]
# Hz S RI R 50
!Freq.(Hz) S11(Real) S11(Imag) S21(Real) S21(Imag) S12(Real) S12(Imag) S22(Real) S22(Imag)
100 0.9999998 -0.0000306 0.0000002 0.0000306 0.0000002 0.0000306 0.9999998 -0.0000306
105 0.9999998 -0.0000320 0.0000002 0.0000320 0.0000002 0.0000320 0.9999998 -0.0000320
109 0.9999998 -0.0000335 0.0000002 0.0000335 0.0000002 0.0000335 0.9999998 -0.0000335
114 0.9999998 -0.0000350 0.0000002 0.0000350 0.0000002 0.0000350 0.9999998 -0.0000350
120 0.9999998 -0.0000366 0.0000002 0.0000366 0.0000002 0.0000366 0.9999998 -0.0000366
125 0.9999997 -0.0000382 0.0000003 0.0000382 0.0000003 0.0000382 0.9999997 -0.0000382
131 0.9999997 -0.0000400 0.0000003 0.0000400 0.0000003 0.0000400 0.9999997 -0.0000400
137 0.9999997 -0.0000418 0.0000003 0.0000418 0.0000003 0.0000418 0.9999997 -0.0000418
143 0.9999997 -0.0000437 0.0000003 0.0000437 0.0000003 0.0000437 0.9999997 -0.0000437
150 0.9999997 -0.0000457 0.0000003 0.0000457 0.0000003 0.0000457 0.9999997 -0.0000457
156 0.9999997 -0.0000478 0.0000003 0.0000478 0.0000003 0.0000478 0.9999997 -0.0000478
164 0.9999997 -0.0000500 0.0000003 0.0000500 0.0000003 0.0000500 0.9999997 -0.0000500
171 0.9999997 -0.0000522 0.0000003 0.0000522 0.0000003 0.0000522 0.9999997 -0.0000522
179 0.9999997 -0.0000546 0.0000003 0.0000546 0.0000003 0.0000546 0.9999997 -0.0000546
187 0.9999997 -0.0000571 0.0000003 0.0000571 0.0000003 0.0000571 0.9999997 -0.0000571
196 0.9999996 -0.0000597 0.0000004 0.0000597 0.0000004 0.0000597 0.9999996 -0.0000597
205 0.9999996 -0.0000624 0.0000004 0.0000624 0.0000004 0.0000624 0.9999996 -0.0000624
214 0.9999996 -0.0000653 0.0000004 0.0000653 0.0000004 0.0000653 0.9999996 -0.0000653
224 0.9999996 -0.0000683 0.0000004 0.0000683 0.0000004 0.0000683 0.9999996 -0.0000683
234 0.9999996 -0.0000714 0.0000004 0.0000714 0.0000004 0.0000714 0.9999996 -0.0000714
245 0.9999996 -0.0000746 0.0000004 0.0000746 0.0000004 0.0000746 0.9999996 -0.0000746
256 0.9999996 -0.0000780 0.0000004 0.0000780 0.0000004 0.0000780 0.9999996 -0.0000780
268 0.9999996 -0.0000816 0.0000004 0.0000816 0.0000004 0.0000816 0.9999996 -0.0000816
280 0.9999995 -0.0000853 0.0000005 0.0000853 0.0000005 0.0000853 0.9999995 -0.0000853
293 0.9999995 -0.0000892 0.0000005 0.0000892 0.0000005 0.0000892 0.9999995 -0.0000892
306 0.9999995 -0.0000933 0.0000005 0.0000933 0.0000005 0.0000933 0.9999995 -0.0000933
320 0.9999995 -0.0000976 0.0000005 0.0000976 0.0000005 0.0000976 0.9999995 -0.0000976
335 0.9999995 -0.0001020 0.0000005 0.0001020 0.0000005 0.0001020 0.9999995 -0.0001020
350 0.9999995 -0.0001067 0.0000005 0.0001067 0.0000005 0.0001067 0.9999995 -0.0001067
366 0.9999994 -0.0001115 0.0000006 0.0001115 0.0000006 0.0001115 0.9999994 -0.0001115
383 0.9999994 -0.0001166 0.0000006 0.0001166 0.0000006 0.0001166 0.9999994 -0.0001166
401 0.9999994 -0.0001220 0.0000006 0.0001220 0.0000006 0.0001220 0.9999994 -0.0001220
419 0.9999994 -0.0001275 0.0000006 0.0001275 0.0000006 0.0001275 0.9999994 -0.0001275
438 0.9999993 -0.0001334 0.0000007 0.0001334 0.0000007 0.0001334 0.9999993 -0.0001334
458 0.9999993 -0.0001395 0.0000007 0.0001395 0.0000007 0.0001395 0.9999993 -0.0001395
479 0.9999993 -0.0001458 0.0000007 0.0001458 0.0000007 0.0001458 0.9999993 -0.0001458
501 0.9999993 -0.0001525 0.0000007 0.0001525 0.0000007 0.0001525 0.9999993 -0.0001525
524 0.9999992 -0.0001595 0.0000008 0.0001595 0.0000008 0.0001595 0.9999992 -0.0001595
548 0.9999992 -0.0001667 0.0000008 0.0001667 0.0000008 0.0001667 0.9999992 -0.0001667
573 0.9999991 -0.0001744 0.0000009 0.0001744 0.0000009 0.0001744 0.9999991 -0.0001744
600 0.9999991 -0.0001823 0.0000009 0.0001823 0.0000009 0.0001823 0.9999991 -0.0001823
627 0.9999991 -0.0001906 0.0000009 0.0001906 0.0000009 0.0001906 0.9999991 -0.0001906
656 0.9999990 -0.0001994 0.0000010 0.0001994 0.0000010 0.0001994 0.9999990 -0.0001994
686 0.9999990 -0.0002085 0.0000010 0.0002085 0.0000010 0.0002085 0.9999990 -0.0002085
717 0.9999989 -0.0002180 0.0000011 0.0002180 0.0000011 0.0002180 0.9999989 -0.0002180
750 0.9999989 -0.0002279 0.0000011 0.0002279 0.0000011 0.0002279 0.9999989 -0.0002279
784 0.9999988 -0.0002383 0.0000012 0.0002383 0.0000012 0.0002383 0.9999988 -0.0002383
820 0.9999988 -0.0002492 0.0000012 0.0002492 0.0000012 0.0002492 0.9999988 -0.0002492
858 0.9999987 -0.0002606 0.0000013 0.0002606 0.0000013 0.0002606 0.9999987 -0.0002606
897 0.9999986 -0.0002725 0.0000014 0.0002725 0.0000014 0.0002725 0.9999986 -0.0002725
938 0.9999986 -0.0002849 0.0000014 0.0002849 0.0000014 0.0002849 0.9999986 -0.0002849
981 0.9999985 -0.0002979 0.0000015 0.0002979 0.0000015 0.0002979 0.9999985 -0.0002979
1026 0.9999984 -0.0003115 0.0000016 0.0003115 0.0000016 0.0003115 0.9999984 -0.0003115
1073 0.9999983 -0.0003258 0.0000017 0.0003258 0.0000017 0.0003258 0.9999983 -0.0003258
1122 0.9999983 -0.0003406 0.0000017 0.0003406 0.0000017 0.0003406 0.9999983 -0.0003406
1174 0.9999982 -0.0003562 0.0000018 0.0003562 0.0000018 0.0003562 0.9999982 -0.0003562
1227 0.9999981 -0.0003724 0.0000019 0.0003724 0.0000019 0.0003724 0.9999981 -0.0003724
1283 0.9999980 -0.0003894 0.0000020 0.0003894 0.0000020 0.0003894 0.9999980 -0.0003894
1342 0.9999979 -0.0004072 0.0000021 0.0004072 0.0000021 0.0004072 0.9999979 -0.0004072
1404 0.9999978 -0.0004258 0.0000022 0.0004258 0.0000022 0.0004258 0.9999978 -0.0004258
1468 0.9999977 -0.0004452 0.0000023 0.0004452 0.0000023 0.0004452 0.9999977 -0.0004452
1535 0.9999976 -0.0004655 0.0000024 0.0004655 0.0000024 0.0004655 0.9999976 -0.0004655
1606 0.9999975 -0.0004868 0.0000025 0.0004868 0.0000025 0.0004868 0.9999975 -0.0004868
1679 0.9999974 -0.0005090 0.0000026 0.0005090 0.0000026 0.0005090 0.9999974 -0.0005090
1756 0.9999973 -0.0005322 0.0000027 0.0005322 0.0000027 0.0005322 0.9999973 -0.0005322
1836 0.9999971 -0.0005565 0.0000029 0.0005565 0.0000029 0.0005565 0.9999971 -0.0005565
1920 0.9999970 -0.0005819 0.0000030 0.0005819 0.0000030 0.0005819 0.9999970 -0.0005819
2008 0.9999969 -0.0006085 0.0000031 0.0006085 0.0000031 0.0006085 0.9999969 -0.0006085
2100 0.9999967 -0.0006363 0.0000033 0.0006363 0.0000033 0.0006363 0.9999967 -0.0006363
2196 0.9999966 -0.0006654 0.0000034 0.0006654 0.0000034 0.0006654 0.9999966 -0.0006654
2297 0.9999964 -0.0006958 0.0000036 0.0006958 0.0000036 0.0006958 0.9999964 -0.0006958
2402 0.9999962 -0.0007275 0.0000038 0.0007275 0.0000038 0.0007275 0.9999962 -0.0007275
2512 0.9999961 -0.0007608 0.0000039 0.0007608 0.0000039 0.0007608 0.9999961 -0.0007608
2627 0.9999959 -0.0007955 0.0000041 0.0007955 0.0000041 0.0007955 0.9999959 -0.0007955
2748 0.9999957 -0.0008319 0.0000043 0.0008319 0.0000043 0.0008319 0.9999957 -0.0008319
2873 0.9999954 -0.0008699 0.0000046 0.0008699 0.0000046 0.0008699 0.9999954 -0.0008699
3005 0.9999952 -0.0009096 0.0000048 0.0009096 0.0000048 0.0009096 0.9999952 -0.0009096
3143 0.9999950 -0.0009511 0.0000050 0.0009511 0.0000050 0.0009511 0.9999950 -0.0009511
3287 0.9999947 -0.0009946 0.0000053 0.0009946 0.0000053 0.0009946 0.9999947 -0.0009946
3437 0.9999944 -0.0010400 0.0000056 0.0010400 0.0000056 0.0010400 0.9999944 -0.0010400
3594 0.9999941 -0.0010876 0.0000059 0.0010876 0.0000059 0.0010876 0.9999941 -0.0010876
3759 0.9999938 -0.0011372 0.0000062 0.0011372 0.0000062 0.0011372 0.9999938 -0.0011372
3931 0.9999934 -0.0011892 0.0000066 0.0011892 0.0000066 0.0011892 0.9999934 -0.0011892
4111 0.9999930 -0.0012435 0.0000070 0.0012435 0.0000070 0.0012435 0.9999930 -0.0012435
4299 0.9999926 -0.0013003 0.0000074 0.0013003 0.0000074 0.0013003 0.9999926 -0.0013003
4496 0.9999922 -0.0013597 0.0000078 0.0013597 0.0000078 0.0013597 0.9999922 -0.0013597
4702 0.9999917 -0.0014219 0.0000083 0.0014219 0.0000083 0.0014219 0.9999917 -0.0014219
4918 0.9999912 -0.0014868 0.0000088 0.0014868 0.0000088 0.0014868 0.9999912 -0.0014868
5143 0.9999906 -0.0015547 0.0000094 0.0015547 0.0000094 0.0015547 0.9999906 -0.0015547
5378 0.9999900 -0.0016257 0.0000100 0.0016257 0.0000100 0.0016257 0.9999900 -0.0016257
5625 0.9999894 -0.0017000 0.0000106 0.0017000 0.0000106 0.0017000 0.9999894 -0.0017000
5882 0.9999887 -0.0017776 0.0000113 0.0017776 0.0000113 0.0017776 0.9999887 -0.0017776
6151 0.9999880 -0.0018588 0.0000120 0.0018588 0.0000120 0.0018588 0.9999880 -0.0018588
6433 0.9999872 -0.0019436 0.0000128 0.0019436 0.0000128 0.0019436 0.9999872 -0.0019436
6728 0.9999864 -0.0020324 0.0000136 0.0020324 0.0000136 0.0020324 0.9999864 -0.0020324
7036 0.9999855 -0.0021251 0.0000145 0.0021251 0.0000145 0.0021251 0.9999855 -0.0021251
7358 0.9999845 -0.0022221 0.0000155 0.0022221 0.0000155 0.0022221 0.9999845 -0.0022221
7695 0.9999835 -0.0023236 0.0000165 0.0023236 0.0000165 0.0023236 0.9999835 -0.0023236
8047 0.9999824 -0.0024296 0.0000176 0.0024296 0.0000176 0.0024296 0.9999824 -0.0024296
8416 0.9999812 -0.0025405 0.0000188 0.0025405 0.0000188 0.0025405 0.9999812 -0.0025405
8801 0.9999800 -0.0026564 0.0000200 0.0026564 0.0000200 0.0026564 0.9999800 -0.0026564
9204 0.9999787 -0.0027777 0.0000213 0.0027777 0.0000213 0.0027777 0.9999787 -0.0027777
9626 0.9999773 -0.0029044 0.0000227 0.0029044 0.0000227 0.0029044 0.9999773 -0.0029044
10066 0.9999758 -0.0030369 0.0000242 0.0030369 0.0000242 0.0030369 0.9999758 -0.0030369
10527 0.9999742 -0.0031755 0.0000258 0.0031755 0.0000258 0.0031755 0.9999742 -0.0031755
11009 0.9999725 -0.0033204 0.0000275 0.0033204 0.0000275 0.0033204 0.9999725 -0.0033204
11514 0.9999706 -0.0034719 0.0000294 0.0034719 0.0000294 0.0034719 0.9999706 -0.0034719
12041 0.9999687 -0.0036303 0.0000313 0.0036303 0.0000313 0.0036303 0.9999687 -0.0036303
12592 0.9999666 -0.0037960 0.0000334 0.0037960 0.0000334 0.0037960 0.9999666 -0.0037960
13169 0.9999644 -0.0039692 0.0000356 0.0039692 0.0000356 0.0039692 0.9999644 -0.0039692
13772 0.9999620 -0.0041503 0.0000380 0.0041503 0.0000380 0.0041503 0.9999620 -0.0041503
14402 0.9999594 -0.0043397 0.0000406 0.0043397 0.0000406 0.0043397 0.9999594 -0.0043397
15062 0.9999567 -0.0045377 0.0000433 0.0045377 0.0000433 0.0045377 0.9999567 -0.0045377
15752 0.9999537 -0.0047448 0.0000463 0.0047448 0.0000463 0.0047448 0.9999537 -0.0047448
16473 0.9999506 -0.0049614 0.0000494 0.0049614 0.0000494 0.0049614 0.9999506 -0.0049614
17227 0.9999471 -0.0051878 0.0000529 0.0051878 0.0000529 0.0051878 0.9999471 -0.0051878
18016 0.9999435 -0.0054246 0.0000565 0.0054246 0.0000565 0.0054246 0.9999435 -0.0054246
18841 0.9999395 -0.0056723 0.0000605 0.0056723 0.0000605 0.0056723 0.9999395 -0.0056723
19704 0.9999352 -0.0059312 0.0000648 0.0059312 0.0000648 0.0059312 0.9999352 -0.0059312
20606 0.9999305 -0.0062020 0.0000695 0.0062020 0.0000695 0.0062020 0.9999305 -0.0062020
21550 0.9999255 -0.0064851 0.0000745 0.0064851 0.0000745 0.0064851 0.9999255 -0.0064851
22537 0.9999201 -0.0067812 0.0000799 0.0067812 0.0000799 0.0067812 0.9999201 -0.0067812
23569 0.9999142 -0.0070908 0.0000858 0.0070908 0.0000858 0.0070908 0.9999142 -0.0070908
24648 0.9999078 -0.0074146 0.0000922 0.0074146 0.0000922 0.0074146 0.9999078 -0.0074146
25777 0.9999008 -0.0077531 0.0000992 0.0077531 0.0000992 0.0077531 0.9999008 -0.0077531
26957 0.9998932 -0.0081071 0.0001068 0.0081071 0.0001068 0.0081071 0.9998932 -0.0081071
28191 0.9998850 -0.0084773 0.0001150 0.0084773 0.0001150 0.0084773 0.9998850 -0.0084773
29482 0.9998761 -0.0088644 0.0001239 0.0088644 0.0001239 0.0088644 0.9998761 -0.0088644
30832 0.9998664 -0.0092691 0.0001336 0.0092691 0.0001336 0.0092691 0.9998664 -0.0092691
32244 0.9998559 -0.0096923 0.0001441 0.0096923 0.0001441 0.0096923 0.9998559 -0.0096923
33721 0.9998445 -0.0101348 0.0001555 0.0101348 0.0001555 0.0101348 0.9998445 -0.0101348
35265 0.9998320 -0.0105975 0.0001680 0.0105975 0.0001680 0.0105975 0.9998320 -0.0105975
36880 0.9998184 -0.0110812 0.0001816 0.0110812 0.0001816 0.0110812 0.9998184 -0.0110812
38569 0.9998037 -0.0115870 0.0001963 0.0115870 0.0001963 0.0115870 0.9998037 -0.0115870
40335 0.9997877 -0.0121158 0.0002123 0.0121158 0.0002123 0.0121158 0.9997877 -0.0121158
42182 0.9997702 -0.0126687 0.0002298 0.0126687 0.0002298 0.0126687 0.9997702 -0.0126687
44113 0.9997513 -0.0132468 0.0002487 0.0132468 0.0002487 0.0132468 0.9997513 -0.0132468
46134 0.9997307 -0.0138512 0.0002693 0.0138512 0.0002693 0.0138512 0.9997307 -0.0138512
48246 0.9997082 -0.0144830 0.0002918 0.0144830 0.0002918 0.0144830 0.9997082 -0.0144830
50455 0.9996839 -0.0151436 0.0003161 0.0151436 0.0003161 0.0151436 0.9996839 -0.0151436
52766 0.9996574 -0.0158341 0.0003426 0.0158341 0.0003426 0.0158341 0.9996574 -0.0158341
55182 0.9996286 -0.0165561 0.0003714 0.0165561 0.0003714 0.0165561 0.9996286 -0.0165561
57709 0.9995973 -0.0173108 0.0004027 0.0173108 0.0004027 0.0173108 0.9995973 -0.0173108
60352 0.9995633 -0.0180998 0.0004367 0.0180998 0.0004367 0.0180998 0.9995633 -0.0180998
63115 0.9995264 -0.0189246 0.0004736 0.0189246 0.0004736 0.0189246 0.9995264 -0.0189246
66005 0.9994863 -0.0197869 0.0005137 0.0197869 0.0005137 0.0197869 0.9994863 -0.0197869
69028 0.9994427 -0.0206882 0.0005573 0.0206882 0.0005573 0.0206882 0.9994427 -0.0206882
72189 0.9993954 -0.0216304 0.0006046 0.0216304 0.0006046 0.0216304 0.9993954 -0.0216304
75495 0.9993439 -0.0226154 0.0006561 0.0226154 0.0006561 0.0226154 0.9993439 -0.0226154
78952 0.9992881 -0.0236449 0.0007119 0.0236449 0.0007119 0.0236449 0.9992881 -0.0236449
82567 0.9992274 -0.0247212 0.0007726 0.0247212 0.0007726 0.0247212 0.9992274 -0.0247212
86348 0.9991615 -0.0258462 0.0008385 0.0258462 0.0008385 0.0258462 0.9991615 -0.0258462
90302 0.9990898 -0.0270222 0.0009102 0.0270222 0.0009102 0.0270222 0.9990898 -0.0270222
94437 0.9990120 -0.0282515 0.0009880 0.0282515 0.0009880 0.0282515 0.9990120 -0.0282515
98762 0.9989274 -0.0295364 0.0010726 0.0295364 0.0010726 0.0295364 0.9989274 -0.0295364
103284 0.9988354 -0.0308795 0.0011646 0.0308795 0.0011646 0.0308795 0.9988354 -0.0308795
108014 0.9987354 -0.0322835 0.0012646 0.0322835 0.0012646 0.0322835 0.9987354 -0.0322835
112960 0.9986266 -0.0337509 0.0013734 0.0337509 0.0013734 0.0337509 0.9986266 -0.0337509
118133 0.9985083 -0.0352847 0.0014917 0.0352847 0.0014917 0.0352847 0.9985083 -0.0352847
123542 0.9983796 -0.0368878 0.0016204 0.0368878 0.0016204 0.0368878 0.9983796 -0.0368878
129199 0.9982394 -0.0385633 0.0017606 0.0385633 0.0017606 0.0385633 0.9982394 -0.0385633
135116 0.9980869 -0.0403145 0.0019131 0.0403145 0.0019131 0.0403145 0.9980869 -0.0403145
141303 0.9979208 -0.0421447 0.0020792 0.0421447 0.0020792 0.0421447 0.9979208 -0.0421447
147774 0.9977398 -0.0440574 0.0022602 0.0440574 0.0022602 0.0440574 0.9977398 -0.0440574
154540 0.9975427 -0.0460562 0.0024573 0.0460562 0.0024573 0.0460562 0.9975427 -0.0460562
161617 0.9973280 -0.0481449 0.0026720 0.0481449 0.0026720 0.0481449 0.9973280 -0.0481449
169018 0.9970940 -0.0503273 0.0029060 0.0503273 0.0029060 0.0503273 0.9970940 -0.0503273
176758 0.9968389 -0.0526077 0.0031611 0.0526077 0.0031611 0.0526077 0.9968389 -0.0526077
184852 0.9965608 -0.0549901 0.0034392 0.0549901 0.0034392 0.0549901 0.9965608 -0.0549901
193316 0.9962577 -0.0574790 0.0037423 0.0574790 0.0037423 0.0574790 0.9962577 -0.0574790
202169 0.9959272 -0.0600788 0.0040728 0.0600788 0.0040728 0.0600788 0.9959272 -0.0600788
211427 0.9955669 -0.0627944 0.0044331 0.0627944 0.0044331 0.0627944 0.9955669 -0.0627944
221108 0.9951739 -0.0656304 0.0048261 0.0656304 0.0048261 0.0656304 0.9951739 -0.0656304
231233 0.9947455 -0.0685920 0.0052545 0.0685920 0.0052545 0.0685920 0.9947455 -0.0685920
241822 0.9942783 -0.0716843 0.0057217 0.0716843 0.0057217 0.0716843 0.9942783 -0.0716843
252896 0.9937689 -0.0749127 0.0062311 0.0749127 0.0062311 0.0749127 0.9937689 -0.0749127
264476 0.9932135 -0.0782825 0.0067865 0.0782825 0.0067865 0.0782825 0.9932135 -0.0782825
276587 0.9926079 -0.0817996 0.0073921 0.0817996 0.0073921 0.0817996 0.9926079 -0.0817996
289253 0.9919478 -0.0854696 0.0080522 0.0854696 0.0080522 0.0854696 0.9919478 -0.0854696
302498 0.9912282 -0.0892985 0.0087718 0.0892985 0.0087718 0.0892985 0.9912282 -0.0892985
316350 0.9904438 -0.0932924 0.0095562 0.0932924 0.0095562 0.0932924 0.9904438 -0.0932924
330837 0.9895890 -0.0974574 0.0104110 0.0974574 0.0104110 0.0974574 0.9895890 -0.0974574
345986 0.9886576 -0.1017999 0.0113424 0.1017999 0.0113424 0.1017999 0.9886576 -0.1017999
361830 0.9876427 -0.1063263 0.0123573 0.1063263 0.0123573 0.1063263 0.9876427 -0.1063263
378399 0.9865373 -0.1110430 0.0134627 0.1110430 0.0134627 0.1110430 0.9865373 -0.1110430
395726 0.9853332 -0.1159565 0.0146668 0.1159565 0.0146668 0.1159565 0.9853332 -0.1159565
413847 0.9840222 -0.1210734 0.0159778 0.1210734 0.0159778 0.1210734 0.9840222 -0.1210734
432798 0.9825948 -0.1264002 0.0174052 0.1264002 0.0174052 0.1264002 0.9825948 -0.1264002
452617 0.9810411 -0.1319433 0.0189589 0.1319433 0.0189589 0.1319433 0.9810411 -0.1319433
473344 0.9793505 -0.1377089 0.0206495 0.1377089 0.0206495 0.1377089 0.9793505 -0.1377089
495019 0.9775113 -0.1437034 0.0224887 0.1437034 0.0224887 0.1437034 0.9775113 -0.1437034
517687 0.9755109 -0.1499325 0.0244891 0.1499325 0.0244891 0.1499325 0.9755109 -0.1499325
541393 0.9733361 -0.1564020 0.0266639 0.1564020 0.0266639 0.1564020 0.9733361 -0.1564020
566185 0.9709724 -0.1631169 0.0290276 0.1631169 0.0290276 0.1631169 0.9709724 -0.1631169
592111 0.9684043 -0.1700820 0.0315957 0.1700820 0.0315957 0.1700820 0.9684043 -0.1700820
619225 0.9656154 -0.1773014 0.0343846 0.1773014 0.0343846 0.1773014 0.9656154 -0.1773014
647581 0.9625881 -0.1847785 0.0374119 0.1847785 0.0374119 0.1847785 0.9625881 -0.1847785
677235 0.9593035 -0.1925157 0.0406965 0.1925157 0.0406965 0.1925157 0.9593035 -0.1925157
708247 0.9557419 -0.2005146 0.0442581 0.2005146 0.0442581 0.2005146 0.9557419 -0.2005146
740679 0.9518823 -0.2087755 0.0481177 0.2087755 0.0481177 0.2087755 0.9518823 -0.2087755
774597 0.9477023 -0.2172973 0.0522977 0.2172973 0.0522977 0.2172973 0.9477023 -0.2172973
810067 0.9431788 -0.2260775 0.0568212 0.2260775 0.0568212 0.2260775 0.9431788 -0.2260775
847162 0.9382874 -0.2351119 0.0617126 0.2351119 0.0617126 0.2351119 0.9382874 -0.2351119
885955 0.9330027 -0.2443941 0.0669973 0.2443941 0.0669973 0.2443941 0.9330027 -0.2443941
926525 0.9272986 -0.2539156 0.0727014 0.2539156 0.0727014 0.2539156 0.9272986 -0.2539156
968953 0.9211480 -0.2636658 0.0788520 0.2636658 0.0788520 0.2636658 0.9211480 -0.2636658
1013323 0.9145233 -0.2736310 0.0854767 0.2736310 0.0854767 0.2736310 0.9145233 -0.2736310
1059725 0.9073966 -0.2837950 0.0926034 0.2837950 0.0926034 0.2837950 0.9073966 -0.2837950
1108252 0.8997398 -0.2941382 0.1002602 0.2941382 0.1002602 0.2941382 0.8997398 -0.2941382
1159002 0.8915250 -0.3046380 0.1084750 0.3046380 0.1084750 0.3046380 0.8915250 -0.3046380
1212075 0.8827246 -0.3152682 0.1172754 0.3152682 0.1172754 0.3152682 0.8827246 -0.3152682
1267578 0.8733123 -0.3259987 0.1266877 0.3259987 0.1266877 0.3259987 0.8733123 -0.3259987
1325623 0.8632626 -0.3367960 0.1367374 0.3367960 0.1367374 0.3367960 0.8632626 -0.3367960
1386327 0.8525523 -0.3476225 0.1474477 0.3476225 0.1474477 0.3476225 0.8525523 -0.3476225
1449809 0.8411601 -0.3584368 0.1588399 0.3584368 0.1588399 0.3584368 0.8411601 -0.3584368
1516199 0.8290680 -0.3691936 0.1709320 0.3691936 0.1709320 0.3691936 0.8290680 -0.3691936
1585629 0.8162611 -0.3798440 0.1837389 0.3798440 0.1837389 0.3798440 0.8162611 -0.3798440
1658239 0.8027287 -0.3903355 0.1972713 0.3903355 0.1972713 0.3903355 0.8027287 -0.3903355
1734173 0.7884648 -0.4006127 0.2115352 0.4006127 0.2115352 0.4006127 0.7884648 -0.4006127
1813585 0.7734686 -0.4106173 0.2265314 0.4106173 0.2265314 0.4106173 0.7734686 -0.4106173
1896632 0.7577451 -0.4202887 0.2422549 0.4202887 0.2422549 0.4202887 0.7577451 -0.4202887
1983483 0.7413056 -0.4295648 0.2586944 0.4295648 0.2586944 0.4295648 0.7413056 -0.4295648
2074311 0.7241680 -0.4383829 0.2758320 0.4383829 0.2758320 0.4383829 0.7241680 -0.4383829
