!Murata Part Number: GRM155C81H104KE19
!These Parameters are Measured in Series Mode Connection
!Data Generated on Mar 30, 2021
!       o--ll--o
!Port1            Port2
!       o------o
!Operation Temp=25[degC], DC Bias Voltage=0[V]
!Freq. Start=100[Hz] Stop=6[GHz] 401[Steps]
# Hz S RI R 50
!Freq.(Hz) S11(Real) S11(Imag) S21(Real) S21(Imag) S12(Real) S12(Imag) S22(Real) S22(Imag)
100 0.9999398 -0.0063548 0.0000602 0.0063548 0.0000602 0.0063548 0.9999398 -0.0063548
105 0.9999352 -0.0066452 0.0000648 0.0066452 0.0000648 0.0066452 0.9999352 -0.0066452
109 0.9999302 -0.0069488 0.0000698 0.0069488 0.0000698 0.0069488 0.9999302 -0.0069488
114 0.9999248 -0.0072664 0.0000752 0.0072664 0.0000752 0.0072664 0.9999248 -0.0072664
120 0.9999189 -0.0075984 0.0000811 0.0075984 0.0000811 0.0075984 0.9999189 -0.0075984
125 0.9999125 -0.0079456 0.0000875 0.0079456 0.0000875 0.0079456 0.9999125 -0.0079456
131 0.9999056 -0.0083087 0.0000944 0.0083087 0.0000944 0.0083087 0.9999056 -0.0083087
137 0.9998980 -0.0086884 0.0001020 0.0086884 0.0001020 0.0086884 0.9998980 -0.0086884
143 0.9998899 -0.0090854 0.0001101 0.0090854 0.0001101 0.0090854 0.9998899 -0.0090854
150 0.9998809 -0.0095005 0.0001191 0.0095005 0.0001191 0.0095005 0.9998809 -0.0095005
156 0.9998713 -0.0099346 0.0001287 0.0099346 0.0001287 0.0099346 0.9998713 -0.0099346
164 0.9998607 -0.0103885 0.0001393 0.0103885 0.0001393 0.0103885 0.9998607 -0.0103885
171 0.9998493 -0.0108632 0.0001507 0.0108632 0.0001507 0.0108632 0.9998493 -0.0108632
179 0.9998368 -0.0113595 0.0001632 0.0113595 0.0001632 0.0113595 0.9998368 -0.0113595
187 0.9998233 -0.0118785 0.0001767 0.0118785 0.0001767 0.0118785 0.9998233 -0.0118785
196 0.9998085 -0.0124212 0.0001915 0.0124212 0.0001915 0.0124212 0.9998085 -0.0124212
205 0.9997925 -0.0129887 0.0002075 0.0129887 0.0002075 0.0129887 0.9997925 -0.0129887
214 0.9997750 -0.0135820 0.0002250 0.0135820 0.0002250 0.0135820 0.9997750 -0.0135820
224 0.9997560 -0.0142025 0.0002440 0.0142025 0.0002440 0.0142025 0.9997560 -0.0142025
234 0.9997353 -0.0148513 0.0002647 0.0148513 0.0002647 0.0148513 0.9997353 -0.0148513
245 0.9997128 -0.0155297 0.0002872 0.0155297 0.0002872 0.0155297 0.9997128 -0.0155297
256 0.9996883 -0.0162390 0.0003117 0.0162390 0.0003117 0.0162390 0.9996883 -0.0162390
268 0.9996616 -0.0169807 0.0003384 0.0169807 0.0003384 0.0169807 0.9996616 -0.0169807
280 0.9996325 -0.0177563 0.0003675 0.0177563 0.0003675 0.0177563 0.9996325 -0.0177563
293 0.9996008 -0.0185672 0.0003992 0.0185672 0.0003992 0.0185672 0.9996008 -0.0185672
306 0.9995663 -0.0194152 0.0004337 0.0194152 0.0004337 0.0194152 0.9995663 -0.0194152
320 0.9995286 -0.0203018 0.0004714 0.0203018 0.0004714 0.0203018 0.9995286 -0.0203018
335 0.9994876 -0.0212289 0.0005124 0.0212289 0.0005124 0.0212289 0.9994876 -0.0212289
350 0.9994428 -0.0221982 0.0005572 0.0221982 0.0005572 0.0221982 0.9994428 -0.0221982
366 0.9993940 -0.0232118 0.0006060 0.0232118 0.0006060 0.0232118 0.9993940 -0.0232118
383 0.9993407 -0.0242715 0.0006593 0.0242715 0.0006593 0.0242715 0.9993407 -0.0242715
401 0.9992826 -0.0253795 0.0007174 0.0253795 0.0007174 0.0253795 0.9992826 -0.0253795
419 0.9992191 -0.0265379 0.0007809 0.0265379 0.0007809 0.0265379 0.9992191 -0.0265379
438 0.9991499 -0.0277491 0.0008501 0.0277491 0.0008501 0.0277491 0.9991499 -0.0277491
458 0.9990744 -0.0290154 0.0009256 0.0290154 0.0009256 0.0290154 0.9990744 -0.0290154
479 0.9989919 -0.0303393 0.0010081 0.0303393 0.0010081 0.0303393 0.9989919 -0.0303393
501 0.9989019 -0.0317233 0.0010981 0.0317233 0.0010981 0.0317233 0.9989019 -0.0317233
524 0.9988036 -0.0331702 0.0011964 0.0331702 0.0011964 0.0331702 0.9988036 -0.0331702
548 0.9986963 -0.0346828 0.0013037 0.0346828 0.0013037 0.0346828 0.9986963 -0.0346828
573 0.9985791 -0.0362640 0.0014209 0.0362640 0.0014209 0.0362640 0.9985791 -0.0362640
600 0.9984512 -0.0379168 0.0015488 0.0379168 0.0015488 0.0379168 0.9984512 -0.0379168
627 0.9983115 -0.0396445 0.0016885 0.0396445 0.0016885 0.0396445 0.9983115 -0.0396445
656 0.9981590 -0.0414503 0.0018410 0.0414503 0.0018410 0.0414503 0.9981590 -0.0414503
686 0.9979925 -0.0433377 0.0020075 0.0433377 0.0020075 0.0433377 0.9979925 -0.0433377
717 0.9978106 -0.0453103 0.0021894 0.0453103 0.0021894 0.0453103 0.9978106 -0.0453103
750 0.9976121 -0.0473718 0.0023879 0.0473718 0.0023879 0.0473718 0.9976121 -0.0473718
784 0.9973953 -0.0495261 0.0026047 0.0495261 0.0026047 0.0495261 0.9973953 -0.0495261
820 0.9971587 -0.0517773 0.0028413 0.0517773 0.0028413 0.0517773 0.9971587 -0.0517773
858 0.9969003 -0.0541295 0.0030997 0.0541295 0.0030997 0.0541295 0.9969003 -0.0541295
897 0.9966183 -0.0565870 0.0033817 0.0565870 0.0033817 0.0565870 0.9966183 -0.0565870
938 0.9963104 -0.0591545 0.0036896 0.0591545 0.0036896 0.0591545 0.9963104 -0.0591545
981 0.9959743 -0.0618366 0.0040257 0.0618366 0.0040257 0.0618366 0.9959743 -0.0618366
1026 0.9956075 -0.0646382 0.0043925 0.0646382 0.0043925 0.0646382 0.9956075 -0.0646382
1073 0.9952072 -0.0675642 0.0047928 0.0675642 0.0047928 0.0675642 0.9952072 -0.0675642
1122 0.9947703 -0.0706200 0.0052297 0.0706200 0.0052297 0.0706200 0.9947703 -0.0706200
1174 0.9942935 -0.0738109 0.0057065 0.0738109 0.0057065 0.0738109 0.9942935 -0.0738109
1227 0.9937733 -0.0771424 0.0062267 0.0771424 0.0062267 0.0771424 0.9937733 -0.0771424
1283 0.9932057 -0.0806203 0.0067943 0.0806203 0.0067943 0.0806203 0.9932057 -0.0806203
1342 0.9925864 -0.0842505 0.0074136 0.0842505 0.0074136 0.0842505 0.9925864 -0.0842505
1404 0.9919108 -0.0880390 0.0080892 0.0880390 0.0080892 0.0880390 0.9919108 -0.0880390
1468 0.9911738 -0.0919920 0.0088262 0.0919920 0.0088262 0.0919920 0.9911738 -0.0919920
1535 0.9903699 -0.0961159 0.0096301 0.0961159 0.0096301 0.0961159 0.9903699 -0.0961159
1606 0.9894932 -0.1004172 0.0105068 0.1004172 0.0105068 0.1004172 0.9894932 -0.1004172
1679 0.9885371 -0.1049024 0.0114629 0.1049024 0.0114629 0.1049024 0.9885371 -0.1049024
1756 0.9874946 -0.1095783 0.0125054 0.1095783 0.0125054 0.1095783 0.9874946 -0.1095783
1836 0.9863580 -0.1144515 0.0136420 0.1144515 0.0136420 0.1144515 0.9863580 -0.1144515
1920 0.9851190 -0.1195289 0.0148810 0.1195289 0.0148810 0.1195289 0.9851190 -0.1195289
2008 0.9837686 -0.1248173 0.0162314 0.1248173 0.0162314 0.1248173 0.9837686 -0.1248173
2100 0.9822972 -0.1303235 0.0177028 0.1303235 0.0177028 0.1303235 0.9822972 -0.1303235
2196 0.9806941 -0.1360540 0.0193059 0.1360540 0.0193059 0.1360540 0.9806941 -0.1360540
2297 0.9789481 -0.1420155 0.0210519 0.1420155 0.0210519 0.1420155 0.9789481 -0.1420155
2402 0.9770468 -0.1482143 0.0229532 0.1482143 0.0229532 0.1482143 0.9770468 -0.1482143
2512 0.9749771 -0.1546564 0.0250229 0.1546564 0.0250229 0.1546564 0.9749771 -0.1546564
2627 0.9727249 -0.1613476 0.0272751 0.1613476 0.0272751 0.1613476 0.9727249 -0.1613476
2748 0.9702749 -0.1682932 0.0297251 0.1682932 0.0297251 0.1682932 0.9702749 -0.1682932
2873 0.9676108 -0.1754977 0.0323892 0.1754977 0.0323892 0.1754977 0.9676108 -0.1754977
3005 0.9647153 -0.1829654 0.0352847 0.1829654 0.0352847 0.1829654 0.9647153 -0.1829654
3143 0.9615698 -0.1906995 0.0384302 0.1906995 0.0384302 0.1906995 0.9615698 -0.1906995
3287 0.9581545 -0.1987024 0.0418455 0.1987024 0.0418455 0.1987024 0.9581545 -0.1987024
3437 0.9544486 -0.2069752 0.0455514 0.2069752 0.0455514 0.2069752 0.9544486 -0.2069752
3594 0.9504300 -0.2155180 0.0495700 0.2155180 0.0495700 0.2155180 0.9504300 -0.2155180
3759 0.9460753 -0.2243293 0.0539247 0.2243293 0.0539247 0.2243293 0.9460753 -0.2243293
3931 0.9413600 -0.2334061 0.0586400 0.2334061 0.0586400 0.2334061 0.9413600 -0.2334061
4111 0.9362588 -0.2427433 0.0637412 0.2427433 0.0637412 0.2427433 0.9362588 -0.2427433
4299 0.9307448 -0.2523340 0.0692552 0.2523340 0.0692552 0.2523340 0.9307448 -0.2523340
4496 0.9247908 -0.2621688 0.0752092 0.2621688 0.0752092 0.2621688 0.9247908 -0.2621688
4702 0.9183684 -0.2722358 0.0816316 0.2722358 0.0816316 0.2722358 0.9183684 -0.2722358
4918 0.9114487 -0.2825204 0.0885513 0.2825204 0.0885513 0.2825204 0.9114487 -0.2825204
5143 0.9040026 -0.2930046 0.0959974 0.2930046 0.0959974 0.2930046 0.9040026 -0.2930046
5378 0.8960006 -0.3036676 0.1039994 0.3036676 0.1039994 0.3036676 0.8960006 -0.3036676
5625 0.8874137 -0.3144847 0.1125863 0.3144847 0.1125863 0.3144847 0.8874137 -0.3144847
5882 0.8782134 -0.3254276 0.1217866 0.3254276 0.1217866 0.3254276 0.8782134 -0.3254276
6151 0.8683719 -0.3364642 0.1316281 0.3364642 0.1316281 0.3364642 0.8683719 -0.3364642
6433 0.8578633 -0.3475582 0.1421367 0.3475582 0.1421367 0.3475582 0.8578633 -0.3475582
6728 0.8466634 -0.3586692 0.1533366 0.3586692 0.1533366 0.3586692 0.8466634 -0.3586692
7036 0.8347506 -0.3697529 0.1652494 0.3697529 0.1652494 0.3697529 0.8347506 -0.3697529
7358 0.8221066 -0.3807605 0.1778934 0.3807605 0.1778934 0.3807605 0.8221066 -0.3807605
7695 0.8087166 -0.3916397 0.1912834 0.3916397 0.1912834 0.3916397 0.8087166 -0.3916397
8047 0.7945706 -0.4023343 0.2054294 0.4023343 0.2054294 0.4023343 0.7945706 -0.4023343
8416 0.7796633 -0.4127847 0.2203367 0.4127847 0.2203367 0.4127847 0.7796633 -0.4127847
8801 0.7639956 -0.4229286 0.2360044 0.4229286 0.2360044 0.4229286 0.7639956 -0.4229286
9204 0.7475745 -0.4327013 0.2524255 0.4327013 0.2524255 0.4327013 0.7475745 -0.4327013
9626 0.7304138 -0.4420367 0.2695862 0.4420367 0.2695862 0.4420367 0.7304138 -0.4420367
10066 0.7125349 -0.4508679 0.2874651 0.4508679 0.2874651 0.4508679 0.7125349 -0.4508679
10527 0.6939667 -0.4591281 0.3060333 0.4591281 0.3060333 0.4591281 0.6939667 -0.4591281
11009 0.6747462 -0.4667521 0.3252538 0.4667521 0.3252538 0.4667521 0.6747462 -0.4667521
11514 0.6549182 -0.4736768 0.3450818 0.4736768 0.3450818 0.4736768 0.6549182 -0.4736768
12041 0.6345352 -0.4798426 0.3654648 0.4798426 0.3654648 0.4798426 0.6345352 -0.4798426
12592 0.6136575 -0.4851947 0.3863425 0.4851947 0.3863425 0.4851947 0.6136575 -0.4851947
13169 0.5923521 -0.4896839 0.4076479 0.4896839 0.4076479 0.4896839 0.5923521 -0.4896839
13772 0.5706924 -0.4932680 0.4293076 0.4932680 0.4293076 0.4932680 0.5706924 -0.4932680
14402 0.5487570 -0.4959126 0.4512430 0.4959126 0.4512430 0.4959126 0.5487570 -0.4959126
15062 0.5266289 -0.4975915 0.4733711 0.4975915 0.4733711 0.4975915 0.5266289 -0.4975915
15752 0.5043938 -0.4982882 0.4956062 0.4982882 0.4956062 0.4982882 0.5043938 -0.4982882
16473 0.4821397 -0.4979953 0.5178603 0.4979953 0.5178603 0.4979953 0.4821397 -0.4979953
17227 0.4599544 -0.4967155 0.5400456 0.4967155 0.5400456 0.4967155 0.4599544 -0.4967155
18016 0.4379251 -0.4944610 0.5620749 0.4944610 0.5620749 0.4944610 0.4379251 -0.4944610
18841 0.4161363 -0.4912536 0.5838637 0.4912536 0.5838637 0.4912536 0.4161363 -0.4912536
19704 0.3946690 -0.4871240 0.6053310 0.4871240 0.6053310 0.4871240 0.3946690 -0.4871240
20606 0.3735994 -0.4821110 0.6264006 0.4821110 0.6264006 0.4821110 0.3735994 -0.4821110
21550 0.3529977 -0.4762608 0.6470023 0.4762608 0.6470023 0.4762608 0.3529977 -0.4762608
22537 0.3329277 -0.4696261 0.6670723 0.4696261 0.6670723 0.4696261 0.3329277 -0.4696261
23569 0.3134456 -0.4622647 0.6865544 0.4622647 0.6865544 0.4622647 0.3134456 -0.4622647
24648 0.2946002 -0.4542386 0.7053998 0.4542386 0.7053998 0.4542386 0.2946002 -0.4542386
25777 0.2764319 -0.4456126 0.7235681 0.4456126 0.7235681 0.4456126 0.2764319 -0.4456126
26957 0.2589734 -0.4364534 0.7410266 0.4364534 0.7410266 0.4364534 0.2589734 -0.4364534
28191 0.2422494 -0.4268284 0.7577506 0.4268284 0.7577506 0.4268284 0.2422494 -0.4268284
29482 0.2262770 -0.4168048 0.7737230 0.4168048 0.7737230 0.4168048 0.2262770 -0.4168048
30832 0.2110660 -0.4064483 0.7889340 0.4064483 0.7889340 0.4064483 0.2110660 -0.4064483
32244 0.1966195 -0.3958229 0.8033805 0.3958229 0.8033805 0.3958229 0.1966195 -0.3958229
33721 0.1829348 -0.3849898 0.8170652 0.3849898 0.8170652 0.3849898 0.1829348 -0.3849898
35265 0.1700034 -0.3740069 0.8299966 0.3740069 0.8299966 0.3740069 0.1700034 -0.3740069
36880 0.1578122 -0.3629288 0.8421878 0.3629288 0.8421878 0.3629288 0.1578122 -0.3629288
38569 0.1463439 -0.3518060 0.8536561 0.3518060 0.8536561 0.3518060 0.1463439 -0.3518060
40335 0.1355777 -0.3406847 0.8644223 0.3406847 0.8644223 0.3406847 0.1355777 -0.3406847
42182 0.1254902 -0.3296073 0.8745098 0.3296073 0.8745098 0.3296073 0.1254902 -0.3296073
44113 0.1160557 -0.3186117 0.8839443 0.3186117 0.8839443 0.3186117 0.1160557 -0.3186117
46134 0.1072466 -0.3077319 0.8927534 0.3077319 0.8927534 0.3077319 0.1072466 -0.3077319
48246 0.0990345 -0.2969975 0.9009655 0.2969975 0.9009655 0.2969975 0.0990345 -0.2969975
50455 0.0913901 -0.2864347 0.9086099 0.2864347 0.9086099 0.2864347 0.0913901 -0.2864347
52766 0.0842838 -0.2760658 0.9157162 0.2760658 0.9157162 0.2760658 0.0842838 -0.2760658
55182 0.0776860 -0.2659097 0.9223140 0.2659097 0.9223140 0.2659097 0.0776860 -0.2659097
57709 0.0715674 -0.2559822 0.9284326 0.2559822 0.9284326 0.2559822 0.0715674 -0.2559822
60352 0.0658993 -0.2462961 0.9341007 0.2462961 0.9341007 0.2462961 0.0658993 -0.2462961
63115 0.0606538 -0.2368615 0.9393462 0.2368615 0.9393462 0.2368615 0.0606538 -0.2368615
66005 0.0558037 -0.2276862 0.9441963 0.2276862 0.9441963 0.2276862 0.0558037 -0.2276862
69028 0.0513231 -0.2187756 0.9486769 0.2187756 0.9486769 0.2187756 0.0513231 -0.2187756
72189 0.0471868 -0.2101335 0.9528132 0.2101335 0.9528132 0.2101335 0.0471868 -0.2101335
75495 0.0433712 -0.2017617 0.9566288 0.2017617 0.9566288 0.2017617 0.0433712 -0.2017617
78952 0.0398536 -0.1936606 0.9601464 0.1936606 0.9601464 0.1936606 0.0398536 -0.1936606
82567 0.0366127 -0.1858292 0.9633873 0.1858292 0.9633873 0.1858292 0.0366127 -0.1858292
86348 0.0336282 -0.1782655 0.9663718 0.1782655 0.9663718 0.1782655 0.0336282 -0.1782655
90302 0.0308813 -0.1709664 0.9691187 0.1709664 0.9691187 0.1709664 0.0308813 -0.1709664
94437 0.0283541 -0.1639279 0.9716459 0.1639279 0.9716459 0.1639279 0.0283541 -0.1639279
98762 0.0260300 -0.1571455 0.9739700 0.1571455 0.9739700 0.1571455 0.0260300 -0.1571455
103284 0.0238935 -0.1506141 0.9761065 0.1506141 0.9761065 0.1506141 0.0238935 -0.1506141
108014 0.0219300 -0.1443280 0.9780700 0.1443280 0.9780700 0.1443280 0.0219300 -0.1443280
112960 0.0201262 -0.1382812 0.9798738 0.1382812 0.9798738 0.1382812 0.0201262 -0.1382812
118133 0.0184694 -0.1324675 0.9815306 0.1324675 0.9815306 0.1324675 0.0184694 -0.1324675
123542 0.0169482 -0.1268803 0.9830518 0.1268803 0.9830518 0.1268803 0.0169482 -0.1268803
129199 0.0155516 -0.1215130 0.9844484 0.1215130 0.9844484 0.1215130 0.0155516 -0.1215130
135116 0.0142699 -0.1163589 0.9857301 0.1163589 0.9857301 0.1163589 0.0142699 -0.1163589
141303 0.0130937 -0.1114111 0.9869063 0.1114111 0.9869063 0.1114111 0.0130937 -0.1114111
147774 0.0120146 -0.1066630 0.9879854 0.1066630 0.9879854 0.1066630 0.0120146 -0.1066630
154540 0.0110247 -0.1021077 0.9889753 0.1021077 0.9889753 0.1021077 0.0110247 -0.1021077
161617 0.0101169 -0.0977386 0.9898831 0.0977386 0.9898831 0.0977386 0.0101169 -0.0977386
169018 0.0092843 -0.0935491 0.9907157 0.0935491 0.9907157 0.0935491 0.0092843 -0.0935491
176758 0.0085210 -0.0895327 0.9914790 0.0895327 0.9914790 0.0895327 0.0085210 -0.0895327
184852 0.0078211 -0.0856831 0.9921789 0.0856831 0.9921789 0.0856831 0.0078211 -0.0856831
193316 0.0071796 -0.0819940 0.9928204 0.0819940 0.9928204 0.0819940 0.0071796 -0.0819940
202169 0.0065915 -0.0784593 0.9934085 0.0784593 0.9934085 0.0784593 0.0065915 -0.0784593
211427 0.0060526 -0.0750731 0.9939474 0.0750731 0.9939474 0.0750731 0.0060526 -0.0750731
221108 0.0055587 -0.0718296 0.9944413 0.0718296 0.9944413 0.0718296 0.0055587 -0.0718296
231233 0.0051061 -0.0687233 0.9948939 0.0687233 0.9948939 0.0687233 0.0051061 -0.0687233
241822 0.0046914 -0.0657488 0.9953086 0.0657488 0.9953086 0.0657488 0.0046914 -0.0657488
252896 0.0043114 -0.0629007 0.9956886 0.0629007 0.9956886 0.0629007 0.0043114 -0.0629007
264476 0.0039632 -0.0601740 0.9960368 0.0601740 0.9960368 0.0601740 0.0039632 -0.0601740
276587 0.0036442 -0.0575637 0.9963558 0.0575637 0.9963558 0.0575637 0.0036442 -0.0575637
289253 0.0033519 -0.0550652 0.9966481 0.0550652 0.9966481 0.0550652 0.0033519 -0.0550652
302498 0.0030841 -0.0526738 0.9969159 0.0526738 0.9969159 0.0526738 0.0030841 -0.0526738
316350 0.0028387 -0.0503851 0.9971613 0.0503851 0.9971613 0.0503851 0.0028387 -0.0503851
330837 0.0026139 -0.0481949 0.9973861 0.0481949 0.9973861 0.0481949 0.0026139 -0.0481949
345986 0.0024078 -0.0460990 0.9975922 0.0460990 0.9975922 0.0460990 0.0024078 -0.0460990
361830 0.0022190 -0.0440934 0.9977810 0.0440934 0.9977810 0.0440934 0.0022190 -0.0440934
378399 0.0020459 -0.0421745 0.9979541 0.0421745 0.9979541 0.0421745 0.0020459 -0.0421745
395726 0.0018872 -0.0403385 0.9981128 0.0403385 0.9981128 0.0403385 0.0018872 -0.0403385
413847 0.0017417 -0.0385820 0.9982583 0.0385820 0.9982583 0.0385820 0.0017417 -0.0385820
432798 0.0016083 -0.0369014 0.9983917 0.0369014 0.9983917 0.0369014 0.0016083 -0.0369014
452617 0.0014860 -0.0352937 0.9985140 0.0352937 0.9985140 0.0352937 0.0014860 -0.0352937
473344 0.0013737 -0.0337557 0.9986263 0.0337557 0.9986263 0.0337557 0.0013737 -0.0337557
495019 0.0012707 -0.0322843 0.9987293 0.0322843 0.9987293 0.0322843 0.0012707 -0.0322843
517687 0.0011762 -0.0308768 0.9988238 0.0308768 0.9988238 0.0308768 0.0011762 -0.0308768
541393 0.0010894 -0.0295304 0.9989106 0.0295304 0.9989106 0.0295304 0.0010894 -0.0295304
566185 0.0010098 -0.0282424 0.9989902 0.0282424 0.9989902 0.0282424 0.0010098 -0.0282424
592111 0.0009366 -0.0270104 0.9990634 0.0270104 0.9990634 0.0270104 0.0009366 -0.0270104
619225 0.0008694 -0.0258318 0.9991306 0.0258318 0.9991306 0.0258318 0.0008694 -0.0258318
647581 0.0008076 -0.0247045 0.9991924 0.0247045 0.9991924 0.0247045 0.0008076 -0.0247045
677235 0.0007508 -0.0236261 0.9992492 0.0236261 0.9992492 0.0236261 0.0007508 -0.0236261
708247 0.0006986 -0.0225945 0.9993014 0.0225945 0.9993014 0.0225945 0.0006986 -0.0225945
740679 0.0006506 -0.0216078 0.9993494 0.0216078 0.9993494 0.0216078 0.0006506 -0.0216078
774597 0.0006065 -0.0206638 0.9993935 0.0206638 0.9993935 0.0206638 0.0006065 -0.0206638
810067 0.0005659 -0.0197609 0.9994341 0.0197609 0.9994341 0.0197609 0.0005659 -0.0197609
847162 0.0005286 -0.0188972 0.9994714 0.0188972 0.9994714 0.0188972 0.0005286 -0.0188972
885955 0.0004942 -0.0180710 0.9995058 0.0180710 0.9995058 0.0180710 0.0004942 -0.0180710
926525 0.0004626 -0.0172806 0.9995374 0.0172806 0.9995374 0.0172806 0.0004626 -0.0172806
968953 0.0004336 -0.0165245 0.9995664 0.0165245 0.9995664 0.0165245 0.0004336 -0.0165245
1013323 0.0004069 -0.0158013 0.9995931 0.0158013 0.9995931 0.0158013 0.0004069 -0.0158013
1059725 0.0003823 -0.0151094 0.9996177 0.0151094 0.9996177 0.0151094 0.0003823 -0.0151094
1108252 0.0003596 -0.0144476 0.9996404 0.0144476 0.9996404 0.0144476 0.0003596 -0.0144476
1159002 0.0003388 -0.0138144 0.9996612 0.0138144 0.9996612 0.0138144 0.0003388 -0.0138144
1212075 0.0003197 -0.0132087 0.9996803 0.0132087 0.9996803 0.0132087 0.0003197 -0.0132087
1267578 0.0003021 -0.0126293 0.9996979 0.0126293 0.9996979 0.0126293 0.0003021 -0.0126293
1325623 0.0002860 -0.0120750 0.9997140 0.0120750 0.9997140 0.0120750 0.0002860 -0.0120750
1386327 0.0002711 -0.0115447 0.9997289 0.0115447 0.9997289 0.0115447 0.0002711 -0.0115447
1449809 0.0002575 -0.0110374 0.9997425 0.0110374 0.9997425 0.0110374 0.0002575 -0.0110374
1516199 0.0002449 -0.0105521 0.9997551 0.0105521 0.9997551 0.0105521 0.0002449 -0.0105521
1585629 0.0002334 -0.0100878 0.9997666 0.0100878 0.9997666 0.0100878 0.0002334 -0.0100878
1658239 0.0002228 -0.0096436 0.9997772 0.0096436 0.9997772 0.0096436 0.0002228 -0.0096436
1734173 0.0002131 -0.0092186 0.9997869 0.0092186 0.9997869 0.0092186 0.0002131 -0.0092186
1813585 0.0002042 -0.0088119 0.9997958 0.0088119 0.9997958 0.0088119 0.0002042 -0.0088119
1896632 0.0001961 -0.0084229 0.9998039 0.0084229 0.9998039 0.0084229 0.0001961 -0.0084229
1983483 0.0001886 -0.0080507 0.9998114 0.0080507 0.9998114 0.0080507 0.0001886 -0.0080507
2074311 0.0001817 -0.0076945 0.9998183 0.0076945 0.9998183 0.0076945 0.0001817 -0.0076945
