!Murata Part Number: GRM155C71H473KE19
!These Parameters are Measured in Series Mode Connection
!Data Generated on Mar 30, 2021
!       o--ll--o
!Port1            Port2
!       o------o
!Operation Temp=25[degC], DC Bias Voltage=0[V]
!Freq. Start=100[Hz] Stop=6[GHz] 401[Steps]
# Hz S RI R 50
!Freq.(Hz) S11(Real) S11(Imag) S21(Real) S21(Imag) S12(Real) S12(Imag) S22(Real) S22(Imag)
100 0.9999815 -0.0029655 0.0000185 0.0029655 0.0000185 0.0029655 0.9999815 -0.0029655
105 0.9999804 -0.0031010 0.0000196 0.0031010 0.0000196 0.0031010 0.9999804 -0.0031010
109 0.9999791 -0.0032427 0.0000209 0.0032427 0.0000209 0.0032427 0.9999791 -0.0032427
114 0.9999777 -0.0033909 0.0000223 0.0033909 0.0000223 0.0033909 0.9999777 -0.0033909
120 0.9999762 -0.0035459 0.0000238 0.0035459 0.0000238 0.0035459 0.9999762 -0.0035459
125 0.9999747 -0.0037079 0.0000253 0.0037079 0.0000253 0.0037079 0.9999747 -0.0037079
131 0.9999729 -0.0038774 0.0000271 0.0038774 0.0000271 0.0038774 0.9999729 -0.0038774
137 0.9999710 -0.0040546 0.0000290 0.0040546 0.0000290 0.0040546 0.9999710 -0.0040546
143 0.9999690 -0.0042400 0.0000310 0.0042400 0.0000310 0.0042400 0.9999690 -0.0042400
150 0.9999668 -0.0044338 0.0000332 0.0044338 0.0000332 0.0044338 0.9999668 -0.0044338
156 0.9999644 -0.0046365 0.0000356 0.0046365 0.0000356 0.0046365 0.9999644 -0.0046365
164 0.9999618 -0.0048484 0.0000382 0.0048484 0.0000382 0.0048484 0.9999618 -0.0048484
171 0.9999590 -0.0050700 0.0000410 0.0050700 0.0000410 0.0050700 0.9999590 -0.0050700
179 0.9999559 -0.0053018 0.0000441 0.0053018 0.0000441 0.0053018 0.9999559 -0.0053018
187 0.9999526 -0.0055441 0.0000474 0.0055441 0.0000474 0.0055441 0.9999526 -0.0055441
196 0.9999490 -0.0057976 0.0000510 0.0057976 0.0000510 0.0057976 0.9999490 -0.0057976
205 0.9999451 -0.0060626 0.0000549 0.0060626 0.0000549 0.0060626 0.9999451 -0.0060626
214 0.9999408 -0.0063397 0.0000592 0.0063397 0.0000592 0.0063397 0.9999408 -0.0063397
224 0.9999362 -0.0066294 0.0000638 0.0066294 0.0000638 0.0066294 0.9999362 -0.0066294
234 0.9999312 -0.0069324 0.0000688 0.0069324 0.0000688 0.0069324 0.9999312 -0.0069324
245 0.9999258 -0.0072493 0.0000742 0.0072493 0.0000742 0.0072493 0.9999258 -0.0072493
256 0.9999198 -0.0075806 0.0000802 0.0075806 0.0000802 0.0075806 0.9999198 -0.0075806
268 0.9999134 -0.0079270 0.0000866 0.0079270 0.0000866 0.0079270 0.9999134 -0.0079270
280 0.9999064 -0.0082893 0.0000936 0.0082893 0.0000936 0.0082893 0.9999064 -0.0082893
293 0.9998989 -0.0086681 0.0001011 0.0086681 0.0001011 0.0086681 0.9998989 -0.0086681
306 0.9998906 -0.0090642 0.0001094 0.0090642 0.0001094 0.0090642 0.9998906 -0.0090642
320 0.9998817 -0.0094784 0.0001183 0.0094784 0.0001183 0.0094784 0.9998817 -0.0094784
335 0.9998719 -0.0099115 0.0001281 0.0099115 0.0001281 0.0099115 0.9998719 -0.0099115
350 0.9998614 -0.0103644 0.0001386 0.0103644 0.0001386 0.0103644 0.9998614 -0.0103644
366 0.9998499 -0.0108379 0.0001501 0.0108379 0.0001501 0.0108379 0.9998499 -0.0108379
383 0.9998374 -0.0113331 0.0001626 0.0113331 0.0001626 0.0113331 0.9998374 -0.0113331
401 0.9998238 -0.0118509 0.0001762 0.0118509 0.0001762 0.0118509 0.9998238 -0.0118509
419 0.9998090 -0.0123923 0.0001910 0.0123923 0.0001910 0.0123923 0.9998090 -0.0123923
438 0.9997929 -0.0129585 0.0002071 0.0129585 0.0002071 0.0129585 0.9997929 -0.0129585
458 0.9997754 -0.0135505 0.0002246 0.0135505 0.0002246 0.0135505 0.9997754 -0.0135505
479 0.9997564 -0.0141695 0.0002436 0.0141695 0.0002436 0.0141695 0.9997564 -0.0141695
501 0.9997356 -0.0148167 0.0002644 0.0148167 0.0002644 0.0148167 0.9997356 -0.0148167
524 0.9997130 -0.0154936 0.0002870 0.0154936 0.0002870 0.0154936 0.9997130 -0.0154936
548 0.9996884 -0.0162012 0.0003116 0.0162012 0.0003116 0.0162012 0.9996884 -0.0162012
573 0.9996616 -0.0169412 0.0003384 0.0169412 0.0003384 0.0169412 0.9996616 -0.0169412
600 0.9996323 -0.0177150 0.0003677 0.0177150 0.0003677 0.0177150 0.9996323 -0.0177150
627 0.9996005 -0.0185240 0.0003995 0.0185240 0.0003995 0.0185240 0.9996005 -0.0185240
656 0.9995657 -0.0193699 0.0004343 0.0193699 0.0004343 0.0193699 0.9995657 -0.0193699
686 0.9995279 -0.0202543 0.0004721 0.0202543 0.0004721 0.0202543 0.9995279 -0.0202543
717 0.9994866 -0.0211791 0.0005134 0.0211791 0.0005134 0.0211791 0.9994866 -0.0211791
750 0.9994416 -0.0221460 0.0005584 0.0221460 0.0005584 0.0221460 0.9994416 -0.0221460
784 0.9993925 -0.0231569 0.0006075 0.0231569 0.0006075 0.0231569 0.9993925 -0.0231569
820 0.9993390 -0.0242139 0.0006610 0.0242139 0.0006610 0.0242139 0.9993390 -0.0242139
858 0.9992806 -0.0253189 0.0007194 0.0253189 0.0007194 0.0253189 0.9992806 -0.0253189
897 0.9992170 -0.0264742 0.0007830 0.0264742 0.0007830 0.0264742 0.9992170 -0.0264742
938 0.9991475 -0.0276821 0.0008525 0.0276821 0.0008525 0.0276821 0.9991475 -0.0276821
981 0.9990718 -0.0289448 0.0009282 0.0289448 0.0009282 0.0289448 0.9990718 -0.0289448
1026 0.9989892 -0.0302649 0.0010108 0.0302649 0.0010108 0.0302649 0.9989892 -0.0302649
1073 0.9988991 -0.0316450 0.0011009 0.0316450 0.0011009 0.0316450 0.9988991 -0.0316450
1122 0.9988008 -0.0330876 0.0011992 0.0330876 0.0011992 0.0330876 0.9988008 -0.0330876
1174 0.9986935 -0.0345957 0.0013065 0.0345957 0.0013065 0.0345957 0.9986935 -0.0345957
1227 0.9985766 -0.0361721 0.0014234 0.0361721 0.0014234 0.0361721 0.9985766 -0.0361721
1283 0.9984490 -0.0378200 0.0015510 0.0378200 0.0015510 0.0378200 0.9984490 -0.0378200
1342 0.9983097 -0.0395424 0.0016903 0.0395424 0.0016903 0.0395424 0.9983097 -0.0395424
1404 0.9981579 -0.0413427 0.0018421 0.0413427 0.0018421 0.0413427 0.9981579 -0.0413427
1468 0.9979921 -0.0432243 0.0020079 0.0432243 0.0020079 0.0432243 0.9979921 -0.0432243
1535 0.9978113 -0.0451910 0.0021887 0.0451910 0.0021887 0.0451910 0.9978113 -0.0451910
1606 0.9976140 -0.0472463 0.0023860 0.0472463 0.0023860 0.0472463 0.9976140 -0.0472463
1679 0.9973987 -0.0493941 0.0026013 0.0493941 0.0026013 0.0493941 0.9973987 -0.0493941
1756 0.9971638 -0.0516387 0.0028362 0.0516387 0.0028362 0.0516387 0.9971638 -0.0516387
1836 0.9969074 -0.0539841 0.0030926 0.0539841 0.0030926 0.0539841 0.9969074 -0.0539841
1920 0.9966276 -0.0564347 0.0033724 0.0564347 0.0033724 0.0564347 0.9966276 -0.0564347
2008 0.9963222 -0.0589950 0.0036778 0.0589950 0.0036778 0.0589950 0.9963222 -0.0589950
2100 0.9959888 -0.0616699 0.0040112 0.0616699 0.0040112 0.0616699 0.9959888 -0.0616699
2196 0.9956250 -0.0644641 0.0043750 0.0644641 0.0043750 0.0644641 0.9956250 -0.0644641
2297 0.9952279 -0.0673827 0.0047721 0.0673827 0.0047721 0.0673827 0.9952279 -0.0673827
2402 0.9947944 -0.0704309 0.0052056 0.0704309 0.0052056 0.0704309 0.9947944 -0.0704309
2512 0.9943212 -0.0736141 0.0056788 0.0736141 0.0056788 0.0736141 0.9943212 -0.0736141
2627 0.9938048 -0.0769378 0.0061952 0.0769378 0.0061952 0.0769378 0.9938048 -0.0769378
2748 0.9932411 -0.0804079 0.0067589 0.0804079 0.0067589 0.0804079 0.9932411 -0.0804079
2873 0.9926258 -0.0840301 0.0073742 0.0840301 0.0073742 0.0840301 0.9926258 -0.0840301
3005 0.9919544 -0.0878104 0.0080456 0.0878104 0.0080456 0.0878104 0.9919544 -0.0878104
3143 0.9912217 -0.0917552 0.0087783 0.0917552 0.0087783 0.0917552 0.9912217 -0.0917552
3287 0.9904221 -0.0958706 0.0095779 0.0958706 0.0095779 0.0958706 0.9904221 -0.0958706
3437 0.9895497 -0.1001631 0.0104503 0.1001631 0.0104503 0.1001631 0.9895497 -0.1001631
3594 0.9885981 -0.1046393 0.0114019 0.1046393 0.0114019 0.1046393 0.9885981 -0.1046393
3759 0.9875600 -0.1093058 0.0124400 0.1093058 0.0124400 0.1093058 0.9875600 -0.1093058
3931 0.9864280 -0.1141693 0.0135720 0.1141693 0.0135720 0.1141693 0.9864280 -0.1141693
4111 0.9851936 -0.1192364 0.0148064 0.1192364 0.0148064 0.1192364 0.9851936 -0.1192364
4299 0.9838480 -0.1245140 0.0161520 0.1245140 0.0161520 0.1245140 0.9838480 -0.1245140
4496 0.9823814 -0.1300087 0.0176186 0.1300087 0.0176186 0.1300087 0.9823814 -0.1300087
4702 0.9807834 -0.1357271 0.0192166 0.1357271 0.0192166 0.1357271 0.9807834 -0.1357271
4918 0.9790428 -0.1416756 0.0209572 0.1416756 0.0209572 0.1416756 0.9790428 -0.1416756
5143 0.9771474 -0.1478606 0.0228526 0.1478606 0.0228526 0.1478606 0.9771474 -0.1478606
5378 0.9750841 -0.1542880 0.0249159 0.1542880 0.0249159 0.1542880 0.9750841 -0.1542880
5625 0.9728389 -0.1609636 0.0271611 0.1609636 0.0271611 0.1609636 0.9728389 -0.1609636
5882 0.9703967 -0.1678925 0.0296033 0.1678925 0.0296033 0.1678925 0.9703967 -0.1678925
6151 0.9677415 -0.1750794 0.0322585 0.1750794 0.0322585 0.1750794 0.9677415 -0.1750794
6433 0.9648560 -0.1825286 0.0351440 0.1825286 0.0351440 0.1825286 0.9648560 -0.1825286
6728 0.9617219 -0.1902431 0.0382781 0.1902431 0.0382781 0.1902431 0.9617219 -0.1902431
7036 0.9583197 -0.1982256 0.0416803 0.1982256 0.0416803 0.1982256 0.9583197 -0.1982256
7358 0.9546286 -0.2064772 0.0453714 0.2064772 0.0453714 0.2064772 0.9546286 -0.2064772
7695 0.9506268 -0.2149982 0.0493732 0.2149982 0.0493732 0.2149982 0.9506268 -0.2149982
8047 0.9462911 -0.2237874 0.0537089 0.2237874 0.0537089 0.2237874 0.9462911 -0.2237874
8416 0.9415974 -0.2328417 0.0584026 0.2328417 0.0584026 0.2328417 0.9415974 -0.2328417
8801 0.9365202 -0.2421567 0.0634798 0.2421567 0.0634798 0.2421567 0.9365202 -0.2421567
9204 0.9310331 -0.2517255 0.0689669 0.2517255 0.0689669 0.2517255 0.9310331 -0.2517255
9626 0.9251087 -0.2615391 0.0748913 0.2615391 0.0748913 0.2615391 0.9251087 -0.2615391
10066 0.9187188 -0.2715861 0.0812812 0.2715861 0.0812812 0.2715861 0.9187188 -0.2715861
10527 0.9118346 -0.2818521 0.0881654 0.2818521 0.0881654 0.2818521 0.9118346 -0.2818521
11009 0.9044267 -0.2923199 0.0955733 0.2923199 0.0955733 0.2923199 0.9044267 -0.2923199
11514 0.8964657 -0.3029688 0.1035343 0.3029688 0.1035343 0.3029688 0.8964657 -0.3029688
12041 0.8879223 -0.3137747 0.1120777 0.3137747 0.1120777 0.3137747 0.8879223 -0.3137747
12592 0.8787675 -0.3247098 0.1212325 0.3247098 0.1212325 0.3247098 0.8787675 -0.3247098
13169 0.8689735 -0.3357422 0.1310265 0.3357422 0.1310265 0.3357422 0.8689735 -0.3357422
13772 0.8585137 -0.3468360 0.1414863 0.3468360 0.1414863 0.3468360 0.8585137 -0.3468360
14402 0.8473635 -0.3579513 0.1526365 0.3579513 0.1526365 0.3579513 0.8473635 -0.3579513
15062 0.8355007 -0.3690436 0.1644993 0.3690436 0.1644993 0.3690436 0.8355007 -0.3690436
15752 0.8229062 -0.3800647 0.1770938 0.3800647 0.1770938 0.3800647 0.8229062 -0.3800647
16473 0.8095649 -0.3909619 0.1904351 0.3909619 0.1904351 0.3909619 0.8095649 -0.3909619
17227 0.7954657 -0.4016790 0.2045343 0.4016790 0.2045343 0.4016790 0.7954657 -0.4016790
18016 0.7806032 -0.4121563 0.2193968 0.4121563 0.2193968 0.4121563 0.7806032 -0.4121563
18841 0.7649772 -0.4223311 0.2350228 0.4223311 0.2350228 0.4223311 0.7649772 -0.4223311
19704 0.7485944 -0.4321382 0.2514056 0.4321382 0.2514056 0.4321382 0.7485944 -0.4321382
20606 0.7314681 -0.4415110 0.2685319 0.4415110 0.2685319 0.4415110 0.7314681 -0.4415110
21550 0.7136193 -0.4503819 0.2863807 0.4503819 0.2863807 0.4503819 0.7136193 -0.4503819
22537 0.6950769 -0.4586836 0.3049231 0.4586836 0.3049231 0.4586836 0.6950769 -0.4586836
23569 0.6758775 -0.4663499 0.3241225 0.4663499 0.3241225 0.4663499 0.6758775 -0.4663499
24648 0.6560660 -0.4733172 0.3439340 0.4733172 0.3439340 0.4733172 0.6560660 -0.4733172
25777 0.6356954 -0.4795253 0.3643046 0.4795253 0.3643046 0.4795253 0.6356954 -0.4795253
26957 0.6148260 -0.4849186 0.3851740 0.4849186 0.3851740 0.4849186 0.6148260 -0.4849186
28191 0.5935253 -0.4894476 0.4064747 0.4894476 0.4064747 0.4894476 0.5935253 -0.4894476
29482 0.5718673 -0.4930695 0.4281327 0.4930695 0.4281327 0.4930695 0.5718673 -0.4930695
30832 0.5499310 -0.4957496 0.4500690 0.4957496 0.4500690 0.4957496 0.5499310 -0.4957496
32244 0.5278001 -0.4974619 0.4721999 0.4974619 0.4721999 0.4974619 0.5278001 -0.4974619
33721 0.5055609 -0.4981895 0.4944391 0.4981895 0.4944391 0.4981895 0.5055609 -0.4981895
35265 0.4833019 -0.4979255 0.5166981 0.4979255 0.5166981 0.4979255 0.4833019 -0.4979255
36880 0.4611114 -0.4966726 0.5388886 0.4966726 0.5388886 0.4966726 0.4611114 -0.4966726
38569 0.4390768 -0.4944435 0.5609232 0.4944435 0.5609232 0.4944435 0.4390768 -0.4944435
40335 0.4172831 -0.4912602 0.5827169 0.4912602 0.5827169 0.4912602 0.4172831 -0.4912602
42182 0.3958114 -0.4871540 0.6041886 0.4871540 0.6041886 0.4871540 0.3958114 -0.4871540
44113 0.3747378 -0.4821641 0.6252622 0.4821641 0.6252622 0.4821641 0.3747378 -0.4821641
46134 0.3541325 -0.4763372 0.6458675 0.4763372 0.6458675 0.4763372 0.3541325 -0.4763372
48246 0.3340590 -0.4697262 0.6659410 0.4697262 0.6659410 0.4697262 0.3340590 -0.4697262
50455 0.3145734 -0.4623893 0.6854266 0.4623893 0.6854266 0.4623893 0.3145734 -0.4623893
52766 0.2957239 -0.4543887 0.7042761 0.4543887 0.7042761 0.4543887 0.2957239 -0.4543887
55182 0.2775508 -0.4457892 0.7224492 0.4457892 0.7224492 0.4457892 0.2775508 -0.4457892
57709 0.2600862 -0.4366577 0.7399138 0.4366577 0.7399138 0.4366577 0.2600862 -0.4366577
60352 0.2433545 -0.4270613 0.7566455 0.4270613 0.7566455 0.4270613 0.2433545 -0.4270613
63115 0.2273725 -0.4170671 0.7726275 0.4170671 0.7726275 0.4170671 0.2273725 -0.4170671
66005 0.2121496 -0.4067405 0.7878504 0.4067405 0.7878504 0.4067405 0.2121496 -0.4067405
69028 0.1976888 -0.3961453 0.8023112 0.3961453 0.8023112 0.3961453 0.1976888 -0.3961453
72189 0.1839871 -0.3853421 0.8160129 0.3853421 0.8160129 0.3853421 0.1839871 -0.3853421
75495 0.1710360 -0.3743888 0.8289640 0.3743888 0.8289640 0.3743888 0.1710360 -0.3743888
78952 0.1588224 -0.3633392 0.8411776 0.3633392 0.8411776 0.3633392 0.1588224 -0.3633392
82567 0.1473290 -0.3522434 0.8526710 0.3522434 0.8526710 0.3522434 0.1473290 -0.3522434
86348 0.1365354 -0.3411476 0.8634646 0.3411476 0.8634646 0.3411476 0.1365354 -0.3411476
90302 0.1264182 -0.3300935 0.8735818 0.3300935 0.8735818 0.3300935 0.1264182 -0.3300935
94437 0.1169519 -0.3191189 0.8830481 0.3191189 0.8830481 0.3191189 0.1169519 -0.3191189
98762 0.1081096 -0.3082575 0.8918904 0.3082575 0.8918904 0.3082575 0.1081096 -0.3082575
103284 0.0998628 -0.2975388 0.9001372 0.2975388 0.9001372 0.2975388 0.0998628 -0.2975388
108014 0.0921828 -0.2869889 0.9078172 0.2869889 0.9078172 0.2869889 0.0921828 -0.2869889
112960 0.0850404 -0.2766299 0.9149596 0.2766299 0.9149596 0.2766299 0.0850404 -0.2766299
118133 0.0784062 -0.2664808 0.9215938 0.2664808 0.9215938 0.2664808 0.0784062 -0.2664808
123542 0.0722514 -0.2565574 0.9277486 0.2565574 0.9277486 0.2565574 0.0722514 -0.2565574
129199 0.0665476 -0.2468727 0.9334524 0.2468727 0.9334524 0.2468727 0.0665476 -0.2468727
135116 0.0612670 -0.2374370 0.9387330 0.2374370 0.9387330 0.2374370 0.0612670 -0.2374370
141303 0.0563830 -0.2282580 0.9436170 0.2282580 0.9436170 0.2282580 0.0563830 -0.2282580
147774 0.0518695 -0.2193417 0.9481305 0.2193417 0.9481305 0.2193417 0.0518695 -0.2193417
154540 0.0477020 -0.2106919 0.9522980 0.2106919 0.9522980 0.2106919 0.0477020 -0.2106919
161617 0.0438566 -0.2023107 0.9561434 0.2023107 0.9561434 0.2023107 0.0438566 -0.2023107
169018 0.0403109 -0.1941986 0.9596891 0.1941986 0.9596891 0.1941986 0.0403109 -0.1941986
176758 0.0370437 -0.1863551 0.9629563 0.1863551 0.9629563 0.1863551 0.0370437 -0.1863551
184852 0.0340347 -0.1787782 0.9659653 0.1787782 0.9659653 0.1787782 0.0340347 -0.1787782
193316 0.0312650 -0.1714652 0.9687350 0.1714652 0.9687350 0.1714652 0.0312650 -0.1714652
202169 0.0287168 -0.1644124 0.9712832 0.1644124 0.9712832 0.1644124 0.0287168 -0.1644124
211427 0.0263735 -0.1576153 0.9736265 0.1576153 0.9736265 0.1576153 0.0263735 -0.1576153
221108 0.0242192 -0.1510691 0.9757808 0.1510691 0.9757808 0.1510691 0.0242192 -0.1510691
231233 0.0222396 -0.1447683 0.9777604 0.1447683 0.9777604 0.1447683 0.0222396 -0.1447683
241822 0.0204211 -0.1387069 0.9795789 0.1387069 0.9795789 0.1387069 0.0204211 -0.1387069
252896 0.0187509 -0.1328788 0.9812491 0.1328788 0.9812491 0.1328788 0.0187509 -0.1328788
264476 0.0172173 -0.1272777 0.9827827 0.1272777 0.9827827 0.1272777 0.0172173 -0.1272777
276587 0.0158096 -0.1218970 0.9841904 0.1218970 0.9841904 0.1218970 0.0158096 -0.1218970
289253 0.0145175 -0.1167300 0.9854825 0.1167300 0.9854825 0.1167300 0.0145175 -0.1167300
302498 0.0133318 -0.1117698 0.9866682 0.1117698 0.9866682 0.1117698 0.0133318 -0.1117698
316350 0.0122438 -0.1070099 0.9877562 0.1070099 0.9877562 0.1070099 0.0122438 -0.1070099
330837 0.0112457 -0.1024434 0.9887543 0.1024434 0.9887543 0.1024434 0.0112457 -0.1024434
345986 0.0103300 -0.0980636 0.9896700 0.0980636 0.9896700 0.0980636 0.0103300 -0.0980636
361830 0.0094899 -0.0938639 0.9905101 0.0938639 0.9905101 0.0938639 0.0094899 -0.0938639
378399 0.0087194 -0.0898377 0.9912806 0.0898377 0.9912806 0.0898377 0.0087194 -0.0898377
395726 0.0080126 -0.0859788 0.9919874 0.0859788 0.9919874 0.0859788 0.0080126 -0.0859788
413847 0.0073642 -0.0822807 0.9926358 0.0822807 0.9926358 0.0822807 0.0073642 -0.0822807
432798 0.0067695 -0.0787373 0.9932305 0.0787373 0.9932305 0.0787373 0.0067695 -0.0787373
452617 0.0062240 -0.0753427 0.9937760 0.0753427 0.9937760 0.0753427 0.0062240 -0.0753427
473344 0.0057236 -0.0720911 0.9942764 0.0720911 0.9942764 0.0720911 0.0057236 -0.0720911
495019 0.0052646 -0.0689768 0.9947354 0.0689768 0.9947354 0.0689768 0.0052646 -0.0689768
517687 0.0048436 -0.0659943 0.9951564 0.0659943 0.9951564 0.0659943 0.0048436 -0.0659943
541393 0.0044574 -0.0631383 0.9955426 0.0631383 0.9955426 0.0631383 0.0044574 -0.0631383
566185 0.0041030 -0.0604038 0.9958970 0.0604038 0.9958970 0.0604038 0.0041030 -0.0604038
592111 0.0037780 -0.0577857 0.9962220 0.0577857 0.9962220 0.0577857 0.0037780 -0.0577857
619225 0.0034799 -0.0552793 0.9965201 0.0552793 0.9965201 0.0552793 0.0034799 -0.0552793
647581 0.0032064 -0.0528800 0.9967936 0.0528800 0.9967936 0.0528800 0.0032064 -0.0528800
677235 0.0029555 -0.0505834 0.9970445 0.0505834 0.9970445 0.0505834 0.0029555 -0.0505834
708247 0.0027254 -0.0483851 0.9972746 0.0483851 0.9972746 0.0483851 0.0027254 -0.0483851
740679 0.0025143 -0.0462812 0.9974857 0.0462812 0.9974857 0.0462812 0.0025143 -0.0462812
774597 0.0023207 -0.0442676 0.9976793 0.0442676 0.9976793 0.0442676 0.0023207 -0.0442676
810067 0.0021432 -0.0423405 0.9978568 0.0423405 0.9978568 0.0423405 0.0021432 -0.0423405
847162 0.0019804 -0.0404964 0.9980196 0.0404964 0.9980196 0.0404964 0.0019804 -0.0404964
885955 0.0018311 -0.0387317 0.9981689 0.0387317 0.9981689 0.0387317 0.0018311 -0.0387317
926525 0.0016942 -0.0370430 0.9983058 0.0370430 0.9983058 0.0370430 0.0016942 -0.0370430
968953 0.0015687 -0.0354272 0.9984313 0.0354272 0.9984313 0.0354272 0.0015687 -0.0354272
1013323 0.0014536 -0.0338812 0.9985464 0.0338812 0.9985464 0.0338812 0.0014536 -0.0338812
1059725 0.0013482 -0.0324019 0.9986518 0.0324019 0.9986518 0.0324019 0.0013482 -0.0324019
1108252 0.0012515 -0.0309866 0.9987485 0.0309866 0.9987485 0.0309866 0.0012515 -0.0309866
1159002 0.0011630 -0.0296325 0.9988370 0.0296325 0.9988370 0.0296325 0.0011630 -0.0296325
1212075 0.0010818 -0.0283370 0.9989182 0.0283370 0.9989182 0.0283370 0.0010818 -0.0283370
1267578 0.0010075 -0.0270975 0.9989925 0.0270975 0.9989925 0.0270975 0.0010075 -0.0270975
1325623 0.0009394 -0.0259118 0.9990606 0.0259118 0.9990606 0.0259118 0.0009394 -0.0259118
1386327 0.0008770 -0.0247774 0.9991230 0.0247774 0.9991230 0.0247774 0.0008770 -0.0247774
1449809 0.0008199 -0.0236922 0.9991801 0.0236922 0.9991801 0.0236922 0.0008199 -0.0236922
1516199 0.0007675 -0.0226541 0.9992325 0.0226541 0.9992325 0.0226541 0.0007675 -0.0226541
1585629 0.0007196 -0.0216609 0.9992804 0.0216609 0.9992804 0.0216609 0.0007196 -0.0216609
1658239 0.0006758 -0.0207109 0.9993242 0.0207109 0.9993242 0.0207109 0.0006758 -0.0207109
1734173 0.0006356 -0.0198020 0.9993644 0.0198020 0.9993644 0.0198020 0.0006356 -0.0198020
1813585 0.0005988 -0.0189326 0.9994012 0.0189326 0.9994012 0.0189326 0.0005988 -0.0189326
1896632 0.0005652 -0.0181009 0.9994348 0.0181009 0.9994348 0.0181009 0.0005652 -0.0181009
1983483 0.0005344 -0.0173052 0.9994656 0.0173052 0.9994656 0.0173052 0.0005344 -0.0173052
2074311 0.0005062 -0.0165441 0.9994938 0.0165441 0.9994938 0.0165441 0.0005062 -0.0165441
