!Murata Part Number: GRM155R71H223KA12
!These Parameters are Measured in Series Mode Connection
!Data Generated on Mar 30, 2021
!       o--ll--o
!Port1            Port2
!       o------o
!Operation Temp=25[degC], DC Bias Voltage=0[V]
!Freq. Start=100[Hz] Stop=6[GHz] 401[Steps]
# Hz S RI R 50
!Freq.(Hz) S11(Real) S11(Imag) S21(Real) S21(Imag) S12(Real) S12(Imag) S22(Real) S22(Imag)
100 0.9999906 -0.0013948 0.0000094 0.0013948 0.0000094 0.0013948 0.9999906 -0.0013948
105 0.9999901 -0.0014585 0.0000099 0.0014585 0.0000099 0.0014585 0.9999901 -0.0014585
109 0.9999897 -0.0015250 0.0000103 0.0015250 0.0000103 0.0015250 0.9999897 -0.0015250
114 0.9999892 -0.0015946 0.0000108 0.0015946 0.0000108 0.0015946 0.9999892 -0.0015946
120 0.9999886 -0.0016674 0.0000114 0.0016674 0.0000114 0.0016674 0.9999886 -0.0016674
125 0.9999881 -0.0017434 0.0000119 0.0017434 0.0000119 0.0017434 0.9999881 -0.0017434
131 0.9999874 -0.0018230 0.0000126 0.0018230 0.0000126 0.0018230 0.9999874 -0.0018230
137 0.9999868 -0.0019062 0.0000132 0.0019062 0.0000132 0.0019062 0.9999868 -0.0019062
143 0.9999861 -0.0019933 0.0000139 0.0019933 0.0000139 0.0019933 0.9999861 -0.0019933
150 0.9999854 -0.0020843 0.0000146 0.0020843 0.0000146 0.0020843 0.9999854 -0.0020843
156 0.9999846 -0.0021794 0.0000154 0.0021794 0.0000154 0.0021794 0.9999846 -0.0021794
164 0.9999837 -0.0022789 0.0000163 0.0022789 0.0000163 0.0022789 0.9999837 -0.0022789
171 0.9999828 -0.0023830 0.0000172 0.0023830 0.0000172 0.0023830 0.9999828 -0.0023830
179 0.9999818 -0.0024918 0.0000182 0.0024918 0.0000182 0.0024918 0.9999818 -0.0024918
187 0.9999807 -0.0026056 0.0000193 0.0026056 0.0000193 0.0026056 0.9999807 -0.0026056
196 0.9999796 -0.0027246 0.0000204 0.0027246 0.0000204 0.0027246 0.9999796 -0.0027246
205 0.9999783 -0.0028491 0.0000217 0.0028491 0.0000217 0.0028491 0.9999783 -0.0028491
214 0.9999770 -0.0029792 0.0000230 0.0029792 0.0000230 0.0029792 0.9999770 -0.0029792
224 0.9999756 -0.0031152 0.0000244 0.0031152 0.0000244 0.0031152 0.9999756 -0.0031152
234 0.9999740 -0.0032575 0.0000260 0.0032575 0.0000260 0.0032575 0.9999740 -0.0032575
245 0.9999724 -0.0034063 0.0000276 0.0034063 0.0000276 0.0034063 0.9999724 -0.0034063
256 0.9999706 -0.0035618 0.0000294 0.0035618 0.0000294 0.0035618 0.9999706 -0.0035618
268 0.9999686 -0.0037245 0.0000314 0.0037245 0.0000314 0.0037245 0.9999686 -0.0037245
280 0.9999665 -0.0038946 0.0000335 0.0038946 0.0000335 0.0038946 0.9999665 -0.0038946
293 0.9999643 -0.0040725 0.0000357 0.0040725 0.0000357 0.0040725 0.9999643 -0.0040725
306 0.9999618 -0.0042584 0.0000382 0.0042584 0.0000382 0.0042584 0.9999618 -0.0042584
320 0.9999592 -0.0044529 0.0000408 0.0044529 0.0000408 0.0044529 0.9999592 -0.0044529
335 0.9999563 -0.0046562 0.0000437 0.0046562 0.0000437 0.0046562 0.9999563 -0.0046562
350 0.9999533 -0.0048689 0.0000467 0.0048689 0.0000467 0.0048689 0.9999533 -0.0048689
366 0.9999500 -0.0050912 0.0000500 0.0050912 0.0000500 0.0050912 0.9999500 -0.0050912
383 0.9999464 -0.0053236 0.0000536 0.0053236 0.0000536 0.0053236 0.9999464 -0.0053236
401 0.9999425 -0.0055667 0.0000575 0.0055667 0.0000575 0.0055667 0.9999425 -0.0055667
419 0.9999383 -0.0058209 0.0000617 0.0058209 0.0000617 0.0058209 0.9999383 -0.0058209
438 0.9999338 -0.0060866 0.0000662 0.0060866 0.0000662 0.0060866 0.9999338 -0.0060866
458 0.9999289 -0.0063645 0.0000711 0.0063645 0.0000711 0.0063645 0.9999289 -0.0063645
479 0.9999236 -0.0066551 0.0000764 0.0066551 0.0000764 0.0066551 0.9999236 -0.0066551
501 0.9999179 -0.0069589 0.0000821 0.0069589 0.0000821 0.0069589 0.9999179 -0.0069589
524 0.9999117 -0.0072766 0.0000883 0.0072766 0.0000883 0.0072766 0.9999117 -0.0072766
548 0.9999049 -0.0076088 0.0000951 0.0076088 0.0000951 0.0076088 0.9999049 -0.0076088
573 0.9998976 -0.0079561 0.0001024 0.0079561 0.0001024 0.0079561 0.9998976 -0.0079561
600 0.9998897 -0.0083193 0.0001103 0.0083193 0.0001103 0.0083193 0.9998897 -0.0083193
627 0.9998812 -0.0086990 0.0001188 0.0086990 0.0001188 0.0086990 0.9998812 -0.0086990
656 0.9998719 -0.0090960 0.0001281 0.0090960 0.0001281 0.0090960 0.9998719 -0.0090960
686 0.9998618 -0.0095112 0.0001382 0.0095112 0.0001382 0.0095112 0.9998618 -0.0095112
717 0.9998509 -0.0099452 0.0001491 0.0099452 0.0001491 0.0099452 0.9998509 -0.0099452
750 0.9998390 -0.0103990 0.0001610 0.0103990 0.0001610 0.0103990 0.9998390 -0.0103990
784 0.9998262 -0.0108735 0.0001738 0.0108735 0.0001738 0.0108735 0.9998262 -0.0108735
820 0.9998122 -0.0113696 0.0001878 0.0113696 0.0001878 0.0113696 0.9998122 -0.0113696
858 0.9997971 -0.0118883 0.0002029 0.0118883 0.0002029 0.0118883 0.9997971 -0.0118883
897 0.9997806 -0.0124305 0.0002194 0.0124305 0.0002194 0.0124305 0.9997806 -0.0124305
938 0.9997628 -0.0129975 0.0002372 0.0129975 0.0002372 0.0129975 0.9997628 -0.0129975
981 0.9997435 -0.0135902 0.0002565 0.0135902 0.0002565 0.0135902 0.9997435 -0.0135902
1026 0.9997225 -0.0142099 0.0002775 0.0142099 0.0002775 0.0142099 0.9997225 -0.0142099
1073 0.9996997 -0.0148578 0.0003003 0.0148578 0.0003003 0.0148578 0.9996997 -0.0148578
1122 0.9996750 -0.0155351 0.0003250 0.0155351 0.0003250 0.0155351 0.9996750 -0.0155351
1174 0.9996482 -0.0162432 0.0003518 0.0162432 0.0003518 0.0162432 0.9996482 -0.0162432
1227 0.9996191 -0.0169835 0.0003809 0.0169835 0.0003809 0.0169835 0.9996191 -0.0169835
1283 0.9995876 -0.0177574 0.0004124 0.0177574 0.0004124 0.0177574 0.9995876 -0.0177574
1342 0.9995534 -0.0185665 0.0004466 0.0185665 0.0004466 0.0185665 0.9995534 -0.0185665
1404 0.9995162 -0.0194124 0.0004838 0.0194124 0.0004838 0.0194124 0.9995162 -0.0194124
1468 0.9994759 -0.0202966 0.0005241 0.0202966 0.0005241 0.0202966 0.9994759 -0.0202966
1535 0.9994322 -0.0212211 0.0005678 0.0212211 0.0005678 0.0212211 0.9994322 -0.0212211
1606 0.9993847 -0.0221876 0.0006153 0.0221876 0.0006153 0.0221876 0.9993847 -0.0221876
1679 0.9993332 -0.0231979 0.0006668 0.0231979 0.0006668 0.0231979 0.9993332 -0.0231979
1756 0.9992772 -0.0242542 0.0007228 0.0242542 0.0007228 0.0242542 0.9992772 -0.0242542
1836 0.9992164 -0.0253585 0.0007836 0.0253585 0.0007836 0.0253585 0.9992164 -0.0253585
1920 0.9991504 -0.0265129 0.0008496 0.0265129 0.0008496 0.0265129 0.9991504 -0.0265129
2008 0.9990786 -0.0277198 0.0009214 0.0277198 0.0009214 0.0277198 0.9990786 -0.0277198
2100 0.9990006 -0.0289814 0.0009994 0.0289814 0.0009994 0.0289814 0.9990006 -0.0289814
2196 0.9989157 -0.0303004 0.0010843 0.0303004 0.0010843 0.0303004 0.9989157 -0.0303004
2297 0.9988234 -0.0316792 0.0011766 0.0316792 0.0011766 0.0316792 0.9988234 -0.0316792
2402 0.9987230 -0.0331207 0.0012770 0.0331207 0.0012770 0.0331207 0.9987230 -0.0331207
2512 0.9986136 -0.0346275 0.0013864 0.0346275 0.0013864 0.0346275 0.9986136 -0.0346275
2627 0.9984945 -0.0362027 0.0015055 0.0362027 0.0015055 0.0362027 0.9984945 -0.0362027
2748 0.9983648 -0.0378493 0.0016352 0.0378493 0.0016352 0.0378493 0.9983648 -0.0378493
2873 0.9982234 -0.0395705 0.0017766 0.0395705 0.0017766 0.0395705 0.9982234 -0.0395705
3005 0.9980693 -0.0413696 0.0019307 0.0413696 0.0019307 0.0413696 0.9980693 -0.0413696
3143 0.9979014 -0.0432501 0.0020986 0.0432501 0.0020986 0.0432501 0.9979014 -0.0432501
3287 0.9977182 -0.0452155 0.0022818 0.0452155 0.0022818 0.0452155 0.9977182 -0.0452155
3437 0.9975185 -0.0472697 0.0024815 0.0472697 0.0024815 0.0472697 0.9975185 -0.0472697
3594 0.9973006 -0.0494165 0.0026994 0.0494165 0.0026994 0.0494165 0.9973006 -0.0494165
3759 0.9970628 -0.0516599 0.0029372 0.0516599 0.0029372 0.0516599 0.9970628 -0.0516599
3931 0.9968034 -0.0540042 0.0031966 0.0540042 0.0031966 0.0540042 0.9968034 -0.0540042
4111 0.9965203 -0.0564538 0.0034797 0.0564538 0.0034797 0.0564538 0.9965203 -0.0564538
4299 0.9962113 -0.0590130 0.0037887 0.0590130 0.0037887 0.0590130 0.9962113 -0.0590130
4496 0.9958740 -0.0616866 0.0041260 0.0616866 0.0041260 0.0616866 0.9958740 -0.0616866
4702 0.9955058 -0.0644795 0.0044942 0.0644795 0.0044942 0.0644795 0.9955058 -0.0644795
4918 0.9951040 -0.0673966 0.0048960 0.0673966 0.0048960 0.0673966 0.9951040 -0.0673966
5143 0.9946654 -0.0704432 0.0053346 0.0704432 0.0053346 0.0704432 0.9946654 -0.0704432
5378 0.9941866 -0.0736245 0.0058134 0.0736245 0.0058134 0.0736245 0.9941866 -0.0736245
5625 0.9936641 -0.0769461 0.0063359 0.0769461 0.0063359 0.0769461 0.9936641 -0.0769461
5882 0.9930938 -0.0804135 0.0069062 0.0804135 0.0069062 0.0804135 0.9930938 -0.0804135
6151 0.9924714 -0.0840328 0.0075286 0.0840328 0.0075286 0.0840328 0.9924714 -0.0840328
6433 0.9917922 -0.0878097 0.0082078 0.0878097 0.0082078 0.0878097 0.9917922 -0.0878097
6728 0.9910512 -0.0917505 0.0089488 0.0917505 0.0089488 0.0917505 0.9910512 -0.0917505
7036 0.9902428 -0.0958613 0.0097572 0.0958613 0.0097572 0.0958613 0.9902428 -0.0958613
7358 0.9893610 -0.1001485 0.0106390 0.1001485 0.0106390 0.1001485 0.9893610 -0.1001485
7695 0.9883992 -0.1046186 0.0116008 0.1046186 0.0116008 0.1046186 0.9883992 -0.1046186
8047 0.9873506 -0.1092781 0.0126494 0.1092781 0.0126494 0.1092781 0.9873506 -0.1092781
8416 0.9862073 -0.1141336 0.0137927 0.1141336 0.0137927 0.1141336 0.9862073 -0.1141336
8801 0.9849611 -0.1191917 0.0150389 0.1191917 0.0150389 0.1191917 0.9849611 -0.1191917
9204 0.9836032 -0.1244591 0.0163968 0.1244591 0.0163968 0.1244591 0.9836032 -0.1244591
9626 0.9821238 -0.1299423 0.0178762 0.1299423 0.0178762 0.1299423 0.9821238 -0.1299423
10066 0.9805124 -0.1356479 0.0194876 0.1356479 0.0194876 0.1356479 0.9805124 -0.1356479
10527 0.9787580 -0.1415822 0.0212420 0.1415822 0.0212420 0.1415822 0.9787580 -0.1415822
11009 0.9768483 -0.1477513 0.0231517 0.1477513 0.0231517 0.1477513 0.9768483 -0.1477513
11514 0.9747704 -0.1541612 0.0252296 0.1541612 0.0252296 0.1541612 0.9747704 -0.1541612
12041 0.9725103 -0.1608175 0.0274897 0.1608175 0.0274897 0.1608175 0.9725103 -0.1608175
12592 0.9700529 -0.1677251 0.0299471 0.1677251 0.0299471 0.1677251 0.9700529 -0.1677251
13169 0.9673823 -0.1748887 0.0326177 0.1748887 0.0326177 0.1748887 0.9673823 -0.1748887
13772 0.9644812 -0.1823123 0.0355188 0.1823123 0.0355188 0.1823123 0.9644812 -0.1823123
14402 0.9613315 -0.1899990 0.0386685 0.1899990 0.0386685 0.1899990 0.9613315 -0.1899990
15062 0.9579137 -0.1979510 0.0420863 0.1979510 0.0420863 0.1979510 0.9579137 -0.1979510
15752 0.9542073 -0.2061695 0.0457927 0.2061695 0.0457927 0.2061695 0.9542073 -0.2061695
16473 0.9501904 -0.2146544 0.0498096 0.2146544 0.0498096 0.2146544 0.9501904 -0.2146544
17227 0.9458401 -0.2234044 0.0541599 0.2234044 0.0541599 0.2234044 0.9458401 -0.2234044
18016 0.9411325 -0.2324162 0.0588675 0.2324162 0.0588675 0.2324162 0.9411325 -0.2324162
18841 0.9360424 -0.2416851 0.0639576 0.2416851 0.0639576 0.2416851 0.9360424 -0.2416851
19704 0.9305436 -0.2512040 0.0694564 0.2512040 0.0694564 0.2512040 0.9305436 -0.2512040
20606 0.9246091 -0.2609638 0.0753909 0.2609638 0.0753909 0.2609638 0.9246091 -0.2609638
21550 0.9182111 -0.2709527 0.0817889 0.2709527 0.0817889 0.2709527 0.9182111 -0.2709527
22537 0.9113213 -0.2811563 0.0886787 0.2811563 0.0886787 0.2811563 0.9113213 -0.2811563
23569 0.9039109 -0.2915572 0.0960891 0.2915572 0.0960891 0.2915572 0.9039109 -0.2915572
24648 0.8959510 -0.3021345 0.1040490 0.3021345 0.1040490 0.3021345 0.8959510 -0.3021345
25777 0.8874131 -0.3128642 0.1125869 0.3128642 0.1125869 0.3128642 0.8874131 -0.3128642
26957 0.8782690 -0.3237186 0.1217310 0.3237186 0.1217310 0.3237186 0.8782690 -0.3237186
28191 0.8684915 -0.3346660 0.1315085 0.3346660 0.1315085 0.3346660 0.8684915 -0.3346660
29482 0.8580551 -0.3456708 0.1419449 0.3456708 0.1419449 0.3456708 0.8580551 -0.3456708
30832 0.8469358 -0.3566935 0.1530642 0.3566935 0.1530642 0.3566935 0.8469358 -0.3566935
32244 0.8351124 -0.3676904 0.1648876 0.3676904 0.1648876 0.3676904 0.8351124 -0.3676904
33721 0.8225667 -0.3786139 0.1774333 0.3786139 0.1774333 0.3786139 0.8225667 -0.3786139
35265 0.8092841 -0.3894125 0.1907159 0.3894125 0.1907159 0.3894125 0.8092841 -0.3894125
36880 0.7952544 -0.4000309 0.2047456 0.4000309 0.2047456 0.4000309 0.7952544 -0.4000309
38569 0.7804724 -0.4104107 0.2195276 0.4104107 0.2195276 0.4104107 0.7804724 -0.4104107
40335 0.7649384 -0.4204908 0.2350616 0.4204908 0.2350616 0.4204908 0.7649384 -0.4204908
42182 0.7486591 -0.4302074 0.2513409 0.4302074 0.2513409 0.4302074 0.7486591 -0.4302074
44113 0.7316479 -0.4394955 0.2683521 0.4394955 0.2683521 0.4394955 0.7316479 -0.4394955
46134 0.7139252 -0.4482893 0.2860748 0.4482893 0.2860748 0.4482893 0.7139252 -0.4482893
48246 0.6955192 -0.4565229 0.3044808 0.4565229 0.3044808 0.4565229 0.6955192 -0.4565229
50455 0.6764656 -0.4641319 0.3235344 0.4641319 0.3235344 0.4641319 0.6764656 -0.4641319
52766 0.6568083 -0.4710539 0.3431917 0.4710539 0.3431917 0.4710539 0.6568083 -0.4710539
55182 0.6365986 -0.4772300 0.3634014 0.4772300 0.3634014 0.4772300 0.6365986 -0.4772300
57709 0.6158952 -0.4826057 0.3841048 0.4826057 0.3841048 0.4826057 0.6158952 -0.4826057
60352 0.5947638 -0.4871323 0.4052362 0.4871323 0.4052362 0.4871323 0.5947638 -0.4871323
63115 0.5732764 -0.4907674 0.4267236 0.4907674 0.4267236 0.4907674 0.5732764 -0.4907674
66005 0.5515102 -0.4934766 0.4484898 0.4934766 0.4484898 0.4934766 0.5515102 -0.4934766
69028 0.5295465 -0.4952336 0.4704535 0.4952336 0.4704535 0.4952336 0.5295465 -0.4952336
72189 0.5074701 -0.4960211 0.4925299 0.4960211 0.4925299 0.4960211 0.5074701 -0.4960211
75495 0.4853673 -0.4958314 0.5146327 0.4958314 0.5146327 0.4958314 0.4853673 -0.4958314
78952 0.4633249 -0.4946663 0.5366751 0.4946663 0.5366751 0.4946663 0.4633249 -0.4946663
82567 0.4414288 -0.4925372 0.5585712 0.4925372 0.5585712 0.4925372 0.4414288 -0.4925372
86348 0.4197628 -0.4894648 0.5802372 0.4894648 0.5802372 0.4894648 0.4197628 -0.4894648
90302 0.3984068 -0.4854787 0.6015932 0.4854787 0.6015932 0.4854787 0.3984068 -0.4854787
94437 0.3774364 -0.4806166 0.6225636 0.4806166 0.6225636 0.4806166 0.3774364 -0.4806166
98762 0.3569213 -0.4749236 0.6430787 0.4749236 0.6430787 0.4749236 0.3569213 -0.4749236
103284 0.3369247 -0.4684510 0.6630753 0.4684510 0.6630753 0.4684510 0.3369247 -0.4684510
108014 0.3175028 -0.4612554 0.6824972 0.4612554 0.6824972 0.4612554 0.3175028 -0.4612554
112960 0.2987040 -0.4533976 0.7012960 0.4533976 0.7012960 0.4533976 0.2987040 -0.4533976
118133 0.2805688 -0.4449411 0.7194312 0.4449411 0.7194312 0.4449411 0.2805688 -0.4449411
123542 0.2631300 -0.4359515 0.7368700 0.4359515 0.7368700 0.4359515 0.2631300 -0.4359515
129199 0.2464125 -0.4264950 0.7535875 0.4264950 0.7535875 0.4264950 0.2464125 -0.4264950
135116 0.2304337 -0.4166376 0.7695663 0.4166376 0.7695663 0.4166376 0.2304337 -0.4166376
141303 0.2152039 -0.4064441 0.7847961 0.4064441 0.7847961 0.4064441 0.2152039 -0.4064441
147774 0.2007268 -0.3959775 0.7992732 0.3959775 0.7992732 0.3959775 0.2007268 -0.3959775
154540 0.1870000 -0.3852979 0.8130000 0.3852979 0.8130000 0.3852979 0.1870000 -0.3852979
161617 0.1740160 -0.3744627 0.8259840 0.3744627 0.8259840 0.3744627 0.1740160 -0.3744627
169018 0.1617622 -0.3635254 0.8382378 0.3635254 0.8382378 0.3635254 0.1617622 -0.3635254
176758 0.1502223 -0.3525360 0.8497777 0.3525360 0.8497777 0.3525360 0.1502223 -0.3525360
184852 0.1393762 -0.3415402 0.8606238 0.3415402 0.8606238 0.3415402 0.1393762 -0.3415402
193316 0.1292015 -0.3305797 0.8707985 0.3305797 0.8707985 0.3305797 0.1292015 -0.3305797
202169 0.1196732 -0.3196922 0.8803268 0.3196922 0.8803268 0.3196922 0.1196732 -0.3196922
211427 0.1107650 -0.3089112 0.8892350 0.3089112 0.8892350 0.3089112 0.1107650 -0.3089112
221108 0.1024491 -0.2982665 0.8975509 0.2982665 0.8975509 0.2982665 0.1024491 -0.2982665
231233 0.0946972 -0.2877839 0.9053028 0.2877839 0.9053028 0.2877839 0.0946972 -0.2877839
241822 0.0874808 -0.2774858 0.9125192 0.2774858 0.9125192 0.2774858 0.0874808 -0.2774858
252896 0.0807709 -0.2673912 0.9192291 0.2673912 0.9192291 0.2673912 0.0807709 -0.2673912
264476 0.0745394 -0.2575161 0.9254606 0.2575161 0.9254606 0.2575161 0.0745394 -0.2575161
276587 0.0687581 -0.2478735 0.9312419 0.2478735 0.9312419 0.2478735 0.0687581 -0.2478735
289253 0.0634000 -0.2384740 0.9366000 0.2384740 0.9366000 0.2384740 0.0634000 -0.2384740
302498 0.0584386 -0.2293257 0.9415614 0.2293257 0.9415614 0.2293257 0.0584386 -0.2293257
316350 0.0538484 -0.2204346 0.9461516 0.2204346 0.9461516 0.2204346 0.0538484 -0.2204346
330837 0.0496051 -0.2118049 0.9503949 0.2118049 0.9503949 0.2118049 0.0496051 -0.2118049
345986 0.0456853 -0.2034389 0.9543147 0.2034389 0.9543147 0.2034389 0.0456853 -0.2034389
361830 0.0420668 -0.1953377 0.9579332 0.1953377 0.9579332 0.1953377 0.0420668 -0.1953377
378399 0.0387285 -0.1875008 0.9612715 0.1875008 0.9612715 0.1875008 0.0387285 -0.1875008
395726 0.0356505 -0.1799267 0.9643495 0.1799267 0.9643495 0.1799267 0.0356505 -0.1799267
413847 0.0328140 -0.1726130 0.9671860 0.1726130 0.9671860 0.1726130 0.0328140 -0.1726130
432798 0.0302014 -0.1655563 0.9697986 0.1655563 0.9697986 0.1655563 0.0302014 -0.1655563
452617 0.0277959 -0.1587526 0.9722041 0.1587526 0.9722041 0.1587526 0.0277959 -0.1587526
473344 0.0255822 -0.1521972 0.9744178 0.1521972 0.9744178 0.1521972 0.0255822 -0.1521972
495019 0.0235455 -0.1458849 0.9764545 0.1458849 0.9764545 0.1458849 0.0235455 -0.1458849
517687 0.0216724 -0.1398103 0.9783276 0.1398103 0.9783276 0.1398103 0.0216724 -0.1398103
541393 0.0199501 -0.1339673 0.9800499 0.1339673 0.9800499 0.1339673 0.0199501 -0.1339673
566185 0.0183670 -0.1283499 0.9816330 0.1283499 0.9816330 0.1283499 0.0183670 -0.1283499
592111 0.0169120 -0.1229518 0.9830880 0.1229518 0.9830880 0.1229518 0.0169120 -0.1229518
619225 0.0155750 -0.1177664 0.9844250 0.1177664 0.9844250 0.1177664 0.0155750 -0.1177664
647581 0.0143465 -0.1127872 0.9856535 0.1127872 0.9856535 0.1127872 0.0143465 -0.1127872
677235 0.0132179 -0.1080076 0.9867821 0.1080076 0.9867821 0.1080076 0.0132179 -0.1080076
708247 0.0121811 -0.1034211 0.9878189 0.1034211 0.9878189 0.1034211 0.0121811 -0.1034211
740679 0.0112287 -0.0990209 0.9887713 0.0990209 0.9887713 0.0990209 0.0112287 -0.0990209
774597 0.0103537 -0.0948007 0.9896463 0.0948007 0.9896463 0.0948007 0.0103537 -0.0948007
810067 0.0095498 -0.0907540 0.9904502 0.0907540 0.9904502 0.0907540 0.0095498 -0.0907540
847162 0.0088113 -0.0868745 0.9911887 0.0868745 0.9911887 0.0868745 0.0088113 -0.0868745
885955 0.0081327 -0.0831559 0.9918673 0.0831559 0.9918673 0.0831559 0.0081327 -0.0831559
926525 0.0075090 -0.0795921 0.9924910 0.0795921 0.9924910 0.0795921 0.0075090 -0.0795921
968953 0.0069359 -0.0761773 0.9930641 0.0761773 0.9930641 0.0761773 0.0069359 -0.0761773
1013323 0.0064090 -0.0729056 0.9935910 0.0729056 0.9935910 0.0729056 0.0064090 -0.0729056
1059725 0.0059247 -0.0697713 0.9940753 0.0697713 0.9940753 0.0697713 0.0059247 -0.0697713
1108252 0.0054793 -0.0667691 0.9945207 0.0667691 0.9945207 0.0667691 0.0054793 -0.0667691
1159002 0.0050697 -0.0638937 0.9949303 0.0638937 0.9949303 0.0638937 0.0050697 -0.0638937
1212075 0.0046930 -0.0611398 0.9953070 0.0611398 0.9953070 0.0611398 0.0046930 -0.0611398
1267578 0.0043464 -0.0585026 0.9956536 0.0585026 0.9956536 0.0585026 0.0043464 -0.0585026
1325623 0.0040276 -0.0559773 0.9959724 0.0559773 0.9959724 0.0559773 0.0040276 -0.0559773
1386327 0.0037342 -0.0535593 0.9962658 0.0535593 0.9962658 0.0535593 0.0037342 -0.0535593
1449809 0.0034642 -0.0512441 0.9965358 0.0512441 0.9965358 0.0512441 0.0034642 -0.0512441
1516199 0.0032158 -0.0490275 0.9967842 0.0490275 0.9967842 0.0490275 0.0032158 -0.0490275
1585629 0.0029871 -0.0469054 0.9970129 0.0469054 0.9970129 0.0469054 0.0029871 -0.0469054
1658239 0.0027766 -0.0448738 0.9972234 0.0448738 0.9972234 0.0448738 0.0027766 -0.0448738
1734173 0.0025829 -0.0429290 0.9974171 0.0429290 0.9974171 0.0429290 0.0025829 -0.0429290
1813585 0.0024045 -0.0410673 0.9975955 0.0410673 0.9975955 0.0410673 0.0024045 -0.0410673
1896632 0.0022404 -0.0392852 0.9977596 0.0392852 0.9977596 0.0392852 0.0022404 -0.0392852
1983483 0.0020894 -0.0375795 0.9979106 0.0375795 0.9979106 0.0375795 0.0020894 -0.0375795
2074311 0.0019503 -0.0359468 0.9980497 0.0359468 0.9980497 0.0359468 0.0019503 -0.0359468
