!Murata Part Number: GRM155R71H272KA01
!These Parameters are Measured in Series Mode Connection
!Data Generated on Mar 30, 2021
!       o--ll--o
!Port1            Port2
!       o------o
!Operation Temp=25[degC], DC Bias Voltage=0[V]
!Freq. Start=100[Hz] Stop=6[GHz] 401[Steps]
# Hz S RI R 50
!Freq.(Hz) S11(Real) S11(Imag) S21(Real) S21(Imag) S12(Real) S12(Imag) S22(Real) S22(Imag)
100 0.9999991 -0.0001737 0.0000009 0.0001737 0.0000009 0.0001737 0.9999991 -0.0001737
105 0.9999991 -0.0001816 0.0000009 0.0001816 0.0000009 0.0001816 0.9999991 -0.0001816
109 0.9999990 -0.0001899 0.0000010 0.0001899 0.0000010 0.0001899 0.9999990 -0.0001899
114 0.9999990 -0.0001986 0.0000010 0.0001986 0.0000010 0.0001986 0.9999990 -0.0001986
120 0.9999989 -0.0002076 0.0000011 0.0002076 0.0000011 0.0002076 0.9999989 -0.0002076
125 0.9999989 -0.0002171 0.0000011 0.0002171 0.0000011 0.0002171 0.9999989 -0.0002171
131 0.9999989 -0.0002270 0.0000011 0.0002270 0.0000011 0.0002270 0.9999989 -0.0002270
137 0.9999988 -0.0002374 0.0000012 0.0002374 0.0000012 0.0002374 0.9999988 -0.0002374
143 0.9999988 -0.0002482 0.0000012 0.0002482 0.0000012 0.0002482 0.9999988 -0.0002482
150 0.9999987 -0.0002596 0.0000013 0.0002596 0.0000013 0.0002596 0.9999987 -0.0002596
156 0.9999987 -0.0002714 0.0000013 0.0002714 0.0000013 0.0002714 0.9999987 -0.0002714
164 0.9999986 -0.0002838 0.0000014 0.0002838 0.0000014 0.0002838 0.9999986 -0.0002838
171 0.9999986 -0.0002968 0.0000014 0.0002968 0.0000014 0.0002968 0.9999986 -0.0002968
179 0.9999985 -0.0003103 0.0000015 0.0003103 0.0000015 0.0003103 0.9999985 -0.0003103
187 0.9999985 -0.0003245 0.0000015 0.0003245 0.0000015 0.0003245 0.9999985 -0.0003245
196 0.9999984 -0.0003393 0.0000016 0.0003393 0.0000016 0.0003393 0.9999984 -0.0003393
205 0.9999983 -0.0003549 0.0000017 0.0003549 0.0000017 0.0003549 0.9999983 -0.0003549
214 0.9999983 -0.0003711 0.0000017 0.0003711 0.0000017 0.0003711 0.9999983 -0.0003711
224 0.9999982 -0.0003880 0.0000018 0.0003880 0.0000018 0.0003880 0.9999982 -0.0003880
234 0.9999981 -0.0004058 0.0000019 0.0004058 0.0000019 0.0004058 0.9999981 -0.0004058
245 0.9999980 -0.0004243 0.0000020 0.0004243 0.0000020 0.0004243 0.9999980 -0.0004243
256 0.9999979 -0.0004437 0.0000021 0.0004437 0.0000021 0.0004437 0.9999979 -0.0004437
268 0.9999978 -0.0004640 0.0000022 0.0004640 0.0000022 0.0004640 0.9999978 -0.0004640
280 0.9999977 -0.0004852 0.0000023 0.0004852 0.0000023 0.0004852 0.9999977 -0.0004852
293 0.9999976 -0.0005073 0.0000024 0.0005073 0.0000024 0.0005073 0.9999976 -0.0005073
306 0.9999974 -0.0005305 0.0000026 0.0005305 0.0000026 0.0005305 0.9999974 -0.0005305
320 0.9999973 -0.0005547 0.0000027 0.0005547 0.0000027 0.0005547 0.9999973 -0.0005547
335 0.9999972 -0.0005801 0.0000028 0.0005801 0.0000028 0.0005801 0.9999972 -0.0005801
350 0.9999970 -0.0006066 0.0000030 0.0006066 0.0000030 0.0006066 0.9999970 -0.0006066
366 0.9999968 -0.0006343 0.0000032 0.0006343 0.0000032 0.0006343 0.9999968 -0.0006343
383 0.9999967 -0.0006633 0.0000033 0.0006633 0.0000033 0.0006633 0.9999967 -0.0006633
401 0.9999965 -0.0006936 0.0000035 0.0006936 0.0000035 0.0006936 0.9999965 -0.0006936
419 0.9999962 -0.0007252 0.0000038 0.0007252 0.0000038 0.0007252 0.9999962 -0.0007252
438 0.9999960 -0.0007584 0.0000040 0.0007584 0.0000040 0.0007584 0.9999960 -0.0007584
458 0.9999958 -0.0007930 0.0000042 0.0007930 0.0000042 0.0007930 0.9999958 -0.0007930
479 0.9999955 -0.0008292 0.0000045 0.0008292 0.0000045 0.0008292 0.9999955 -0.0008292
501 0.9999953 -0.0008671 0.0000047 0.0008671 0.0000047 0.0008671 0.9999953 -0.0008671
524 0.9999950 -0.0009066 0.0000050 0.0009066 0.0000050 0.0009066 0.9999950 -0.0009066
548 0.9999947 -0.0009480 0.0000053 0.0009480 0.0000053 0.0009480 0.9999947 -0.0009480
573 0.9999944 -0.0009913 0.0000056 0.0009913 0.0000056 0.0009913 0.9999944 -0.0009913
600 0.9999941 -0.0010365 0.0000059 0.0010365 0.0000059 0.0010365 0.9999941 -0.0010365
627 0.9999937 -0.0010838 0.0000063 0.0010838 0.0000063 0.0010838 0.9999937 -0.0010838
656 0.9999933 -0.0011333 0.0000067 0.0011333 0.0000067 0.0011333 0.9999933 -0.0011333
686 0.9999929 -0.0011850 0.0000071 0.0011850 0.0000071 0.0011850 0.9999929 -0.0011850
717 0.9999925 -0.0012391 0.0000075 0.0012391 0.0000075 0.0012391 0.9999925 -0.0012391
750 0.9999921 -0.0012956 0.0000079 0.0012956 0.0000079 0.0012956 0.9999921 -0.0012956
784 0.9999917 -0.0013547 0.0000083 0.0013547 0.0000083 0.0013547 0.9999917 -0.0013547
820 0.9999912 -0.0014165 0.0000088 0.0014165 0.0000088 0.0014165 0.9999912 -0.0014165
858 0.9999907 -0.0014811 0.0000093 0.0014811 0.0000093 0.0014811 0.9999907 -0.0014811
897 0.9999902 -0.0015487 0.0000098 0.0015487 0.0000098 0.0015487 0.9999902 -0.0015487
938 0.9999896 -0.0016193 0.0000104 0.0016193 0.0000104 0.0016193 0.9999896 -0.0016193
981 0.9999890 -0.0016932 0.0000110 0.0016932 0.0000110 0.0016932 0.9999890 -0.0016932
1026 0.9999884 -0.0017705 0.0000116 0.0017705 0.0000116 0.0017705 0.9999884 -0.0017705
1073 0.9999878 -0.0018513 0.0000122 0.0018513 0.0000122 0.0018513 0.9999878 -0.0018513
1122 0.9999871 -0.0019357 0.0000129 0.0019357 0.0000129 0.0019357 0.9999871 -0.0019357
1174 0.9999864 -0.0020241 0.0000136 0.0020241 0.0000136 0.0020241 0.9999864 -0.0020241
1227 0.9999856 -0.0021164 0.0000144 0.0021164 0.0000144 0.0021164 0.9999856 -0.0021164
1283 0.9999848 -0.0022130 0.0000152 0.0022130 0.0000152 0.0022130 0.9999848 -0.0022130
1342 0.9999840 -0.0023141 0.0000160 0.0023141 0.0000160 0.0023141 0.9999840 -0.0023141
1404 0.9999831 -0.0024197 0.0000169 0.0024197 0.0000169 0.0024197 0.9999831 -0.0024197
1468 0.9999821 -0.0025302 0.0000179 0.0025302 0.0000179 0.0025302 0.9999821 -0.0025302
1535 0.9999811 -0.0026457 0.0000189 0.0026457 0.0000189 0.0026457 0.9999811 -0.0026457
1606 0.9999800 -0.0027665 0.0000200 0.0027665 0.0000200 0.0027665 0.9999800 -0.0027665
1679 0.9999788 -0.0028928 0.0000212 0.0028928 0.0000212 0.0028928 0.9999788 -0.0028928
1756 0.9999775 -0.0030249 0.0000225 0.0030249 0.0000225 0.0030249 0.9999775 -0.0030249
1836 0.9999762 -0.0031631 0.0000238 0.0031631 0.0000238 0.0031631 0.9999762 -0.0031631
1920 0.9999747 -0.0033076 0.0000253 0.0033076 0.0000253 0.0033076 0.9999747 -0.0033076
2008 0.9999731 -0.0034587 0.0000269 0.0034587 0.0000269 0.0034587 0.9999731 -0.0034587
2100 0.9999714 -0.0036167 0.0000286 0.0036167 0.0000286 0.0036167 0.9999714 -0.0036167
2196 0.9999695 -0.0037819 0.0000305 0.0037819 0.0000305 0.0037819 0.9999695 -0.0037819
2297 0.9999675 -0.0039547 0.0000325 0.0039547 0.0000325 0.0039547 0.9999675 -0.0039547
2402 0.9999653 -0.0041354 0.0000347 0.0041354 0.0000347 0.0041354 0.9999653 -0.0041354
2512 0.9999630 -0.0043243 0.0000370 0.0043243 0.0000370 0.0043243 0.9999630 -0.0043243
2627 0.9999604 -0.0045219 0.0000396 0.0045219 0.0000396 0.0045219 0.9999604 -0.0045219
2748 0.9999576 -0.0047285 0.0000424 0.0047285 0.0000424 0.0047285 0.9999576 -0.0047285
2873 0.9999546 -0.0049446 0.0000454 0.0049446 0.0000454 0.0049446 0.9999546 -0.0049446
3005 0.9999513 -0.0051705 0.0000487 0.0051705 0.0000487 0.0051705 0.9999513 -0.0051705
3143 0.9999477 -0.0054067 0.0000523 0.0054067 0.0000523 0.0054067 0.9999477 -0.0054067
3287 0.9999439 -0.0056538 0.0000561 0.0056538 0.0000561 0.0056538 0.9999439 -0.0056538
3437 0.9999396 -0.0059121 0.0000604 0.0059121 0.0000604 0.0059121 0.9999396 -0.0059121
3594 0.9999351 -0.0061822 0.0000649 0.0061822 0.0000649 0.0061822 0.9999351 -0.0061822
3759 0.9999301 -0.0064646 0.0000699 0.0064646 0.0000699 0.0064646 0.9999301 -0.0064646
3931 0.9999247 -0.0067599 0.0000753 0.0067599 0.0000753 0.0067599 0.9999247 -0.0067599
4111 0.9999189 -0.0070686 0.0000811 0.0070686 0.0000811 0.0070686 0.9999189 -0.0070686
4299 0.9999125 -0.0073915 0.0000875 0.0073915 0.0000875 0.0073915 0.9999125 -0.0073915
4496 0.9999056 -0.0077290 0.0000944 0.0077290 0.0000944 0.0077290 0.9999056 -0.0077290
4702 0.9998981 -0.0080819 0.0001019 0.0080819 0.0001019 0.0080819 0.9998981 -0.0080819
4918 0.9998900 -0.0084509 0.0001100 0.0084509 0.0001100 0.0084509 0.9998900 -0.0084509
5143 0.9998812 -0.0088367 0.0001188 0.0088367 0.0001188 0.0088367 0.9998812 -0.0088367
5378 0.9998716 -0.0092401 0.0001284 0.0092401 0.0001284 0.0092401 0.9998716 -0.0092401
5625 0.9998613 -0.0096618 0.0001387 0.0096618 0.0001387 0.0096618 0.9998613 -0.0096618
5882 0.9998500 -0.0101028 0.0001500 0.0101028 0.0001500 0.0101028 0.9998500 -0.0101028
6151 0.9998379 -0.0105638 0.0001621 0.0105638 0.0001621 0.0105638 0.9998379 -0.0105638
6433 0.9998247 -0.0110457 0.0001753 0.0110457 0.0001753 0.0110457 0.9998247 -0.0110457
6728 0.9998104 -0.0115497 0.0001896 0.0115497 0.0001896 0.0115497 0.9998104 -0.0115497
7036 0.9997949 -0.0120765 0.0002051 0.0120765 0.0002051 0.0120765 0.9997949 -0.0120765
7358 0.9997781 -0.0126273 0.0002219 0.0126273 0.0002219 0.0126273 0.9997781 -0.0126273
7695 0.9997600 -0.0132032 0.0002400 0.0132032 0.0002400 0.0132032 0.9997600 -0.0132032
8047 0.9997403 -0.0138053 0.0002597 0.0138053 0.0002597 0.0138053 0.9997403 -0.0138053
8416 0.9997189 -0.0144348 0.0002811 0.0144348 0.0002811 0.0144348 0.9997189 -0.0144348
8801 0.9996958 -0.0150929 0.0003042 0.0150929 0.0003042 0.0150929 0.9996958 -0.0150929
9204 0.9996708 -0.0157810 0.0003292 0.0157810 0.0003292 0.0157810 0.9996708 -0.0157810
9626 0.9996436 -0.0165005 0.0003564 0.0165005 0.0003564 0.0165005 0.9996436 -0.0165005
10066 0.9996141 -0.0172526 0.0003859 0.0172526 0.0003859 0.0172526 0.9996141 -0.0172526
10527 0.9995821 -0.0180391 0.0004179 0.0180391 0.0004179 0.0180391 0.9995821 -0.0180391
11009 0.9995474 -0.0188613 0.0004526 0.0188613 0.0004526 0.0188613 0.9995474 -0.0188613
11514 0.9995097 -0.0197210 0.0004903 0.0197210 0.0004903 0.0197210 0.9995097 -0.0197210
12041 0.9994688 -0.0206198 0.0005312 0.0206198 0.0005312 0.0206198 0.9994688 -0.0206198
12592 0.9994244 -0.0215596 0.0005756 0.0215596 0.0005756 0.0215596 0.9994244 -0.0215596
13169 0.9993760 -0.0225422 0.0006240 0.0225422 0.0006240 0.0225422 0.9993760 -0.0225422
13772 0.9993234 -0.0235695 0.0006766 0.0235695 0.0006766 0.0235695 0.9993234 -0.0235695
14402 0.9992662 -0.0246436 0.0007338 0.0246436 0.0007338 0.0246436 0.9992662 -0.0246436
15062 0.9992040 -0.0257666 0.0007960 0.0257666 0.0007960 0.0257666 0.9992040 -0.0257666
15752 0.9991362 -0.0269406 0.0008638 0.0269406 0.0008638 0.0269406 0.9991362 -0.0269406
16473 0.9990624 -0.0281681 0.0009376 0.0281681 0.0009376 0.0281681 0.9990624 -0.0281681
17227 0.9989819 -0.0294514 0.0010181 0.0294514 0.0010181 0.0294514 0.9989819 -0.0294514
18016 0.9988943 -0.0307931 0.0011057 0.0307931 0.0011057 0.0307931 0.9988943 -0.0307931
18841 0.9987987 -0.0321957 0.0012013 0.0321957 0.0012013 0.0321957 0.9987987 -0.0321957
19704 0.9986945 -0.0336620 0.0013055 0.0336620 0.0013055 0.0336620 0.9986945 -0.0336620
20606 0.9985808 -0.0351948 0.0014192 0.0351948 0.0014192 0.0351948 0.9985808 -0.0351948
21550 0.9984569 -0.0367970 0.0015431 0.0367970 0.0015431 0.0367970 0.9984569 -0.0367970
22537 0.9983216 -0.0384719 0.0016784 0.0384719 0.0016784 0.0384719 0.9983216 -0.0384719
23569 0.9981740 -0.0402225 0.0018260 0.0402225 0.0018260 0.0402225 0.9981740 -0.0402225
24648 0.9980129 -0.0420523 0.0019871 0.0420523 0.0019871 0.0420523 0.9980129 -0.0420523
25777 0.9978371 -0.0439646 0.0021629 0.0439646 0.0021629 0.0439646 0.9978371 -0.0439646
26957 0.9976452 -0.0459631 0.0023548 0.0459631 0.0023548 0.0459631 0.9976452 -0.0459631
28191 0.9974358 -0.0480516 0.0025642 0.0480516 0.0025642 0.0480516 0.9974358 -0.0480516
29482 0.9972072 -0.0502340 0.0027928 0.0502340 0.0027928 0.0502340 0.9972072 -0.0502340
30832 0.9969577 -0.0525143 0.0030423 0.0525143 0.0030423 0.0525143 0.9969577 -0.0525143
32244 0.9966854 -0.0548967 0.0033146 0.0548967 0.0033146 0.0548967 0.9966854 -0.0548967
33721 0.9963882 -0.0573856 0.0036118 0.0573856 0.0036118 0.0573856 0.9963882 -0.0573856
35265 0.9960638 -0.0599854 0.0039362 0.0599854 0.0039362 0.0599854 0.9960638 -0.0599854
36880 0.9957098 -0.0627010 0.0042902 0.0627010 0.0042902 0.0627010 0.9957098 -0.0627010
38569 0.9953236 -0.0655370 0.0046764 0.0655370 0.0046764 0.0655370 0.9953236 -0.0655370
40335 0.9949022 -0.0684986 0.0050978 0.0684986 0.0050978 0.0684986 0.9949022 -0.0684986
42182 0.9944425 -0.0715909 0.0055575 0.0715909 0.0055575 0.0715909 0.9944425 -0.0715909
44113 0.9939410 -0.0748191 0.0060590 0.0748191 0.0060590 0.0748191 0.9939410 -0.0748191
46134 0.9933940 -0.0781889 0.0066060 0.0781889 0.0066060 0.0781889 0.9933940 -0.0781889
48246 0.9927975 -0.0817059 0.0072025 0.0817059 0.0072025 0.0817059 0.9927975 -0.0817059
50455 0.9921471 -0.0853758 0.0078529 0.0853758 0.0078529 0.0853758 0.9921471 -0.0853758
52766 0.9914380 -0.0892047 0.0085620 0.0892047 0.0085620 0.0892047 0.9914380 -0.0892047
55182 0.9906651 -0.0931986 0.0093349 0.0931986 0.0093349 0.0931986 0.9906651 -0.0931986
57709 0.9898227 -0.0973638 0.0101773 0.0973638 0.0101773 0.0973638 0.9898227 -0.0973638
60352 0.9889048 -0.1017066 0.0110952 0.1017066 0.0110952 0.1017066 0.9889048 -0.1017066
63115 0.9879047 -0.1062335 0.0120953 0.1062335 0.0120953 0.1062335 0.9879047 -0.1062335
66005 0.9868153 -0.1109510 0.0131847 0.1109510 0.0131847 0.1109510 0.9868153 -0.1109510
69028 0.9856289 -0.1158658 0.0143711 0.1158658 0.0143711 0.1158658 0.9856289 -0.1158658
72189 0.9843370 -0.1209845 0.0156630 0.1209845 0.0156630 0.1209845 0.9843370 -0.1209845
75495 0.9829307 -0.1263138 0.0170693 0.1263138 0.0170693 0.1263138 0.9829307 -0.1263138
78952 0.9814000 -0.1318601 0.0186000 0.1318601 0.0186000 0.1318601 0.9814000 -0.1318601
82567 0.9797344 -0.1376301 0.0202656 0.1376301 0.0202656 0.1376301 0.9797344 -0.1376301
86348 0.9779224 -0.1436301 0.0220776 0.1436301 0.0220776 0.1436301 0.9779224 -0.1436301
90302 0.9759518 -0.1498663 0.0240482 0.1498663 0.0240482 0.1498663 0.9759518 -0.1498663
94437 0.9738092 -0.1563446 0.0261908 0.1563446 0.0261908 0.1563446 0.9738092 -0.1563446
98762 0.9714803 -0.1630704 0.0285197 0.1630704 0.0285197 0.1630704 0.9714803 -0.1630704
103284 0.9689500 -0.1700489 0.0310500 0.1700489 0.0310500 0.1700489 0.9689500 -0.1700489
108014 0.9662017 -0.1772845 0.0337983 0.1772845 0.0337983 0.1772845 0.9662017 -0.1772845
112960 0.9632179 -0.1847811 0.0367821 0.1847811 0.0367821 0.1847811 0.9632179 -0.1847811
118133 0.9599801 -0.1925417 0.0400199 0.1925417 0.0400199 0.1925417 0.9599801 -0.1925417
123542 0.9564682 -0.2005682 0.0435318 0.2005682 0.0435318 0.2005682 0.9564682 -0.2005682
129199 0.9526613 -0.2088616 0.0473387 0.2088616 0.0473387 0.2088616 0.9526613 -0.2088616
135116 0.9485370 -0.2174216 0.0514630 0.2174216 0.0514630 0.2174216 0.9485370 -0.2174216
141303 0.9440719 -0.2262461 0.0559281 0.2262461 0.0559281 0.2262461 0.9440719 -0.2262461
147774 0.9392415 -0.2353316 0.0607585 0.2353316 0.0607585 0.2353316 0.9392415 -0.2353316
154540 0.9340201 -0.2446726 0.0659799 0.2446726 0.0659799 0.2446726 0.9340201 -0.2446726
161617 0.9283810 -0.2542614 0.0716190 0.2542614 0.0716190 0.2542614 0.9283810 -0.2542614
169018 0.9222967 -0.2640879 0.0777033 0.2640879 0.0777033 0.2640879 0.9222967 -0.2640879
176758 0.9157389 -0.2741395 0.0842611 0.2741395 0.0842611 0.2741395 0.9157389 -0.2741395
184852 0.9086790 -0.2844006 0.0913210 0.2844006 0.0913210 0.2844006 0.9086790 -0.2844006
193316 0.9010879 -0.2948525 0.0989121 0.2948525 0.0989121 0.2948525 0.9010879 -0.2948525
202169 0.8929365 -0.3054732 0.1070635 0.3054732 0.1070635 0.3054732 0.8929365 -0.3054732
211427 0.8841961 -0.3162369 0.1158039 0.3162369 0.1158039 0.3162369 0.8841961 -0.3162369
221108 0.8748389 -0.3271143 0.1251611 0.3271143 0.1251611 0.3271143 0.8748389 -0.3271143
231233 0.8648380 -0.3380722 0.1351620 0.3380722 0.1351620 0.3380722 0.8648380 -0.3380722
241822 0.8541682 -0.3490730 0.1458318 0.3490730 0.1458318 0.3490730 0.8541682 -0.3490730
252896 0.8428067 -0.3600754 0.1571933 0.3600754 0.1571933 0.3600754 0.8428067 -0.3600754
264476 0.8307332 -0.3710339 0.1692668 0.3710339 0.1692668 0.3710339 0.8307332 -0.3710339
276587 0.8179309 -0.3818989 0.1820691 0.3818989 0.1820691 0.3818989 0.8179309 -0.3818989
289253 0.8043872 -0.3926172 0.1956128 0.3926172 0.1956128 0.3926172 0.8043872 -0.3926172
302498 0.7900939 -0.4031320 0.2099061 0.4031320 0.2099061 0.4031320 0.7900939 -0.4031320
316350 0.7750483 -0.4133835 0.2249517 0.4133835 0.2249517 0.4133835 0.7750483 -0.4133835
330837 0.7592536 -0.4233092 0.2407464 0.4233092 0.2407464 0.4233092 0.7592536 -0.4233092
345986 0.7427193 -0.4328450 0.2572807 0.4328450 0.2572807 0.4328450 0.7427193 -0.4328450
361830 0.7254622 -0.4419253 0.2745378 0.4419253 0.2745378 0.4419253 0.7254622 -0.4419253
378399 0.7075063 -0.4504844 0.2924937 0.4504844 0.2924937 0.4504844 0.7075063 -0.4504844
395726 0.6888831 -0.4584573 0.3111169 0.4584573 0.3111169 0.4584573 0.6888831 -0.4584573
413847 0.6696321 -0.4657807 0.3303679 0.4657807 0.3303679 0.4657807 0.6696321 -0.4657807
432798 0.6498004 -0.4723940 0.3501996 0.4723940 0.3501996 0.4723940 0.6498004 -0.4723940
452617 0.6294426 -0.4782407 0.3705574 0.4782407 0.3705574 0.4782407 0.6294426 -0.4782407
473344 0.6086202 -0.4832693 0.3913798 0.4832693 0.3913798 0.4832693 0.6086202 -0.4832693
495019 0.5874014 -0.4874343 0.4125986 0.4874343 0.4125986 0.4874343 0.5874014 -0.4874343
517687 0.5658599 -0.4906973 0.4341401 0.4906973 0.4341401 0.4906973 0.5658599 -0.4906973
541393 0.5440742 -0.4930277 0.4559258 0.4930277 0.4559258 0.4930277 0.5440742 -0.4930277
566185 0.5221265 -0.4944034 0.4778735 0.4944034 0.4778735 0.4944034 0.5221265 -0.4944034
592111 0.5001013 -0.4948115 0.4998987 0.4948115 0.4998987 0.4948115 0.5001013 -0.4948115
619225 0.4780843 -0.4942483 0.5219157 0.4942483 0.5219157 0.4942483 0.4780843 -0.4942483
647581 0.4561610 -0.4927195 0.5438390 0.4927195 0.5438390 0.4927195 0.4561610 -0.4927195
677235 0.4344155 -0.4902403 0.5655845 0.4902403 0.5655845 0.4902403 0.4344155 -0.4902403
708247 0.4129291 -0.4868345 0.5870709 0.4868345 0.5870709 0.4868345 0.4129291 -0.4868345
740679 0.3917792 -0.4825344 0.6082208 0.4825344 0.6082208 0.4825344 0.3917792 -0.4825344
774597 0.3710383 -0.4773801 0.6289617 0.4773801 0.6289617 0.4773801 0.3710383 -0.4773801
810067 0.3507730 -0.4714182 0.6492270 0.4714182 0.6492270 0.4714182 0.3507730 -0.4714182
847162 0.3310432 -0.4647013 0.6689568 0.4647013 0.6689568 0.4647013 0.3310432 -0.4647013
885955 0.3119019 -0.4572866 0.6880981 0.4572866 0.6880981 0.4572866 0.3119019 -0.4572866
926525 0.2933945 -0.4492352 0.7066055 0.4492352 0.7066055 0.4492352 0.2933945 -0.4492352
968953 0.2755585 -0.4406104 0.7244415 0.4406104 0.7244415 0.4406104 0.2755585 -0.4406104
1013323 0.2584242 -0.4314773 0.7415758 0.4314773 0.7415758 0.4314773 0.2584242 -0.4314773
1059725 0.2420138 -0.4219014 0.7579862 0.4219014 0.7579862 0.4219014 0.2420138 -0.4219014
1108252 0.2263427 -0.4119475 0.7736573 0.4119475 0.7736573 0.4119475 0.2263427 -0.4119475
1159002 0.2114193 -0.4016795 0.7885807 0.4016795 0.7885807 0.4016795 0.2114193 -0.4016795
1212075 0.1972456 -0.3911590 0.8027544 0.3911590 0.8027544 0.3911590 0.1972456 -0.3911590
1267578 0.1838180 -0.3804450 0.8161820 0.3804450 0.8161820 0.3804450 0.1838180 -0.3804450
1325623 0.1711276 -0.3695935 0.8288724 0.3695935 0.8288724 0.3695935 0.1711276 -0.3695935
1386327 0.1591609 -0.3586568 0.8408391 0.3586568 0.8408391 0.3586568 0.1591609 -0.3586568
1449809 0.1479008 -0.3476836 0.8520992 0.3476836 0.8520992 0.3476836 0.1479008 -0.3476836
1516199 0.1373266 -0.3367186 0.8626734 0.3367186 0.8626734 0.3367186 0.1373266 -0.3367186
1585629 0.1274152 -0.3258023 0.8725848 0.3258023 0.8725848 0.3258023 0.1274152 -0.3258023
1658239 0.1181412 -0.3149714 0.8818588 0.3149714 0.8818588 0.3149714 0.1181412 -0.3149714
1734173 0.1094777 -0.3042583 0.8905223 0.3042583 0.8905223 0.3042583 0.1094777 -0.3042583
1813585 0.1013969 -0.2936917 0.8986031 0.2936917 0.8986031 0.2936917 0.1013969 -0.2936917
1896632 0.0938699 -0.2832967 0.9061301 0.2832967 0.9061301 0.2832967 0.0938699 -0.2832967
1983483 0.0868680 -0.2730947 0.9131320 0.2730947 0.9131320 0.2730947 0.0868680 -0.2730947
2074311 0.0803621 -0.2631039 0.9196379 0.2631039 0.9196379 0.2631039 0.0803621 -0.2631039
