!Murata Part Number: GRM155R11A104KA01
!These Parameters are Measured in Series Mode Connection
!Data Generated on Mar 30, 2021
!       o--ll--o
!Port1            Port2
!       o------o
!Operation Temp=25[degC], DC Bias Voltage=0[V]
!Freq. Start=100[Hz] Stop=6[GHz] 401[Steps]
# Hz S RI R 50
!Freq.(Hz) S11(Real) S11(Imag) S21(Real) S21(Imag) S12(Real) S12(Imag) S22(Real) S22(Imag)
100 0.9999320 -0.0058505 0.0000680 0.0058505 0.0000680 0.0058505 0.9999320 -0.0058505
105 0.9999273 -0.0061174 0.0000727 0.0061174 0.0000727 0.0061174 0.9999273 -0.0061174
109 0.9999223 -0.0063964 0.0000777 0.0063964 0.0000777 0.0063964 0.9999223 -0.0063964
114 0.9999169 -0.0066882 0.0000831 0.0066882 0.0000831 0.0066882 0.9999169 -0.0066882
120 0.9999110 -0.0069934 0.0000890 0.0069934 0.0000890 0.0069934 0.9999110 -0.0069934
125 0.9999047 -0.0073124 0.0000953 0.0073124 0.0000953 0.0073124 0.9999047 -0.0073124
131 0.9998978 -0.0076460 0.0001022 0.0076460 0.0001022 0.0076460 0.9998978 -0.0076460
137 0.9998904 -0.0079948 0.0001096 0.0079948 0.0001096 0.0079948 0.9998904 -0.0079948
143 0.9998823 -0.0083594 0.0001177 0.0083594 0.0001177 0.0083594 0.9998823 -0.0083594
150 0.9998736 -0.0087407 0.0001264 0.0087407 0.0001264 0.0087407 0.9998736 -0.0087407
156 0.9998642 -0.0091394 0.0001358 0.0091394 0.0001358 0.0091394 0.9998642 -0.0091394
164 0.9998540 -0.0095563 0.0001460 0.0095563 0.0001460 0.0095563 0.9998540 -0.0095563
171 0.9998429 -0.0099921 0.0001571 0.0099921 0.0001571 0.0099921 0.9998429 -0.0099921
179 0.9998310 -0.0104478 0.0001690 0.0104478 0.0001690 0.0104478 0.9998310 -0.0104478
187 0.9998180 -0.0109242 0.0001820 0.0109242 0.0001820 0.0109242 0.9998180 -0.0109242
196 0.9998040 -0.0114223 0.0001960 0.0114223 0.0001960 0.0114223 0.9998040 -0.0114223
205 0.9997888 -0.0119431 0.0002112 0.0119431 0.0002112 0.0119431 0.9997888 -0.0119431
214 0.9997723 -0.0124876 0.0002277 0.0124876 0.0002277 0.0124876 0.9997723 -0.0124876
224 0.9997545 -0.0130569 0.0002455 0.0130569 0.0002455 0.0130569 0.9997545 -0.0130569
234 0.9997352 -0.0136521 0.0002648 0.0136521 0.0002648 0.0136521 0.9997352 -0.0136521
245 0.9997144 -0.0142744 0.0002856 0.0142744 0.0002856 0.0142744 0.9997144 -0.0142744
256 0.9996917 -0.0149251 0.0003083 0.0149251 0.0003083 0.0149251 0.9996917 -0.0149251
268 0.9996672 -0.0156054 0.0003328 0.0156054 0.0003328 0.0156054 0.9996672 -0.0156054
280 0.9996406 -0.0163166 0.0003594 0.0163166 0.0003594 0.0163166 0.9996406 -0.0163166
293 0.9996118 -0.0170603 0.0003882 0.0170603 0.0003882 0.0170603 0.9996118 -0.0170603
306 0.9995805 -0.0178378 0.0004195 0.0178378 0.0004195 0.0178378 0.9995805 -0.0178378
320 0.9995465 -0.0186507 0.0004535 0.0186507 0.0004535 0.0186507 0.9995465 -0.0186507
335 0.9995097 -0.0195006 0.0004903 0.0195006 0.0004903 0.0195006 0.9995097 -0.0195006
350 0.9994696 -0.0203893 0.0005304 0.0203893 0.0005304 0.0203893 0.9994696 -0.0203893
366 0.9994261 -0.0213184 0.0005739 0.0213184 0.0005739 0.0213184 0.9994261 -0.0213184
383 0.9993789 -0.0222899 0.0006211 0.0222899 0.0006211 0.0222899 0.9993789 -0.0222899
401 0.9993275 -0.0233055 0.0006725 0.0233055 0.0006725 0.0233055 0.9993275 -0.0233055
419 0.9992715 -0.0243675 0.0007285 0.0243675 0.0007285 0.0243675 0.9992715 -0.0243675
438 0.9992107 -0.0254777 0.0007893 0.0254777 0.0007893 0.0254777 0.9992107 -0.0254777
458 0.9991444 -0.0266385 0.0008556 0.0266385 0.0008556 0.0266385 0.9991444 -0.0266385
479 0.9990722 -0.0278521 0.0009278 0.0278521 0.0009278 0.0278521 0.9990722 -0.0278521
501 0.9989936 -0.0291209 0.0010064 0.0291209 0.0010064 0.0291209 0.9989936 -0.0291209
524 0.9989080 -0.0304473 0.0010920 0.0304473 0.0010920 0.0304473 0.9989080 -0.0304473
548 0.9988146 -0.0318340 0.0011854 0.0318340 0.0011854 0.0318340 0.9988146 -0.0318340
573 0.9987128 -0.0332837 0.0012872 0.0332837 0.0012872 0.0332837 0.9987128 -0.0332837
600 0.9986018 -0.0347991 0.0013982 0.0347991 0.0013982 0.0347991 0.9986018 -0.0347991
627 0.9984807 -0.0363832 0.0015193 0.0363832 0.0015193 0.0363832 0.9984807 -0.0363832
656 0.9983486 -0.0380390 0.0016514 0.0380390 0.0016514 0.0380390 0.9983486 -0.0380390
686 0.9982045 -0.0397697 0.0017955 0.0397697 0.0017955 0.0397697 0.9982045 -0.0397697
717 0.9980473 -0.0415787 0.0019527 0.0415787 0.0019527 0.0415787 0.9980473 -0.0415787
750 0.9978758 -0.0434693 0.0021242 0.0434693 0.0021242 0.0434693 0.9978758 -0.0434693
784 0.9976886 -0.0454451 0.0023114 0.0454451 0.0023114 0.0454451 0.9976886 -0.0454451
820 0.9974844 -0.0475099 0.0025156 0.0475099 0.0025156 0.0475099 0.9974844 -0.0475099
858 0.9972615 -0.0496675 0.0027385 0.0496675 0.0027385 0.0496675 0.9972615 -0.0496675
897 0.9970183 -0.0519219 0.0029817 0.0519219 0.0029817 0.0519219 0.9970183 -0.0519219
938 0.9967530 -0.0542773 0.0032470 0.0542773 0.0032470 0.0542773 0.9967530 -0.0542773
981 0.9964634 -0.0567381 0.0035366 0.0567381 0.0035366 0.0567381 0.9964634 -0.0567381
1026 0.9961476 -0.0593086 0.0038524 0.0593086 0.0038524 0.0593086 0.9961476 -0.0593086
1073 0.9958029 -0.0619936 0.0041971 0.0619936 0.0041971 0.0619936 0.9958029 -0.0619936
1122 0.9954269 -0.0647979 0.0045731 0.0647979 0.0045731 0.0647979 0.9954269 -0.0647979
1174 0.9950168 -0.0677264 0.0049832 0.0677264 0.0049832 0.0677264 0.9950168 -0.0677264
1227 0.9945695 -0.0707843 0.0054305 0.0707843 0.0054305 0.0707843 0.9945695 -0.0707843
1283 0.9940816 -0.0739770 0.0059184 0.0739770 0.0059184 0.0739770 0.9940816 -0.0739770
1342 0.9935496 -0.0773098 0.0064504 0.0773098 0.0064504 0.0773098 0.9935496 -0.0773098
1404 0.9929694 -0.0807885 0.0070306 0.0807885 0.0070306 0.0807885 0.9929694 -0.0807885
1468 0.9923369 -0.0844189 0.0076631 0.0844189 0.0076631 0.0844189 0.9923369 -0.0844189
1535 0.9916473 -0.0882070 0.0083527 0.0882070 0.0083527 0.0882070 0.9916473 -0.0882070
1606 0.9908957 -0.0921588 0.0091043 0.0921588 0.0091043 0.0921588 0.9908957 -0.0921588
1679 0.9900764 -0.0962806 0.0099236 0.0962806 0.0099236 0.0962806 0.9900764 -0.0962806
1756 0.9891835 -0.1005789 0.0108165 0.1005789 0.0108165 0.1005789 0.9891835 -0.1005789
1836 0.9882107 -0.1050601 0.0117893 0.1050601 0.0117893 0.1050601 0.9882107 -0.1050601
1920 0.9871507 -0.1097307 0.0128493 0.1097307 0.0128493 0.1097307 0.9871507 -0.1097307
2008 0.9859960 -0.1145976 0.0140040 0.1145976 0.0140040 0.1145976 0.9859960 -0.1145976
2100 0.9847384 -0.1196672 0.0152616 0.1196672 0.0152616 0.1196672 0.9847384 -0.1196672
2196 0.9833689 -0.1249464 0.0166311 0.1249464 0.0166311 0.1249464 0.9833689 -0.1249464
2297 0.9818778 -0.1304418 0.0181222 0.1304418 0.0181222 0.1304418 0.9818778 -0.1304418
2402 0.9802546 -0.1361599 0.0197454 0.1361599 0.0197454 0.1361599 0.9802546 -0.1361599
2512 0.9784882 -0.1421072 0.0215118 0.1421072 0.0215118 0.1421072 0.9784882 -0.1421072
2627 0.9765662 -0.1482899 0.0234338 0.1482899 0.0234338 0.1482899 0.9765662 -0.1482899
2748 0.9744756 -0.1547139 0.0255244 0.1547139 0.0255244 0.1547139 0.9744756 -0.1547139
2873 0.9722024 -0.1613849 0.0277976 0.1613849 0.0277976 0.1613849 0.9722024 -0.1613849
3005 0.9697315 -0.1683080 0.0302685 0.1683080 0.0302685 0.1683080 0.9697315 -0.1683080
3143 0.9670467 -0.1754878 0.0329533 0.1754878 0.0329533 0.1754878 0.9670467 -0.1754878
3287 0.9641307 -0.1829282 0.0358693 0.1829282 0.0358693 0.1829282 0.9641307 -0.1829282
3437 0.9609652 -0.1906324 0.0390348 0.1906324 0.0390348 0.1906324 0.9609652 -0.1906324
3594 0.9575306 -0.1986025 0.0424694 0.1986025 0.0424694 0.1986025 0.9575306 -0.1986025
3759 0.9538062 -0.2068398 0.0461938 0.2068398 0.0461938 0.2068398 0.9538062 -0.2068398
3931 0.9497702 -0.2153441 0.0502298 0.2153441 0.0502298 0.2153441 0.9497702 -0.2153441
4111 0.9453995 -0.2241138 0.0546005 0.2241138 0.0546005 0.2241138 0.9453995 -0.2241138
4299 0.9406699 -0.2331458 0.0593301 0.2331458 0.0593301 0.2331458 0.9406699 -0.2331458
4496 0.9355563 -0.2424350 0.0644437 0.2424350 0.0644437 0.2424350 0.9355563 -0.2424350
4702 0.9300323 -0.2519744 0.0699677 0.2519744 0.0699677 0.2519744 0.9300323 -0.2519744
4918 0.9240710 -0.2617546 0.0759290 0.2617546 0.0759290 0.2617546 0.9240710 -0.2617546
5143 0.9176446 -0.2717637 0.0823554 0.2717637 0.0823554 0.2717637 0.9176446 -0.2717637
5378 0.9107245 -0.2819871 0.0892755 0.2819871 0.0892755 0.2819871 0.9107245 -0.2819871
5625 0.9032821 -0.2924073 0.0967179 0.2924073 0.0967179 0.2924073 0.9032821 -0.2924073
5882 0.8952885 -0.3030034 0.1047115 0.3030034 0.1047115 0.3030034 0.8952885 -0.3030034
6151 0.8867151 -0.3137510 0.1132849 0.3137510 0.1132849 0.3137510 0.8867151 -0.3137510
6433 0.8775339 -0.3246224 0.1224661 0.3246224 0.1224661 0.3246224 0.8775339 -0.3246224
6728 0.8677177 -0.3355857 0.1322823 0.3355857 0.1322823 0.3355857 0.8677177 -0.3355857
7036 0.8572409 -0.3466053 0.1427591 0.3466053 0.1427591 0.3466053 0.8572409 -0.3466053
7358 0.8460798 -0.3576415 0.1539202 0.3576415 0.1539202 0.3576415 0.8460798 -0.3576415
7695 0.8342131 -0.3686506 0.1657869 0.3686506 0.1657869 0.3686506 0.8342131 -0.3686506
8047 0.8216225 -0.3795849 0.1783775 0.3795849 0.1783775 0.3795849 0.8216225 -0.3795849
8416 0.8082937 -0.3903926 0.1917063 0.3903926 0.1917063 0.3903926 0.8082937 -0.3903926
8801 0.7942164 -0.4010186 0.2057836 0.4010186 0.2057836 0.4010186 0.7942164 -0.4010186
9204 0.7793854 -0.4114043 0.2206146 0.4114043 0.2206146 0.4114043 0.7793854 -0.4114043
9626 0.7638011 -0.4214883 0.2361989 0.4214883 0.2361989 0.4214883 0.7638011 -0.4214883
10066 0.7474701 -0.4312069 0.2525299 0.4312069 0.2525299 0.4312069 0.7474701 -0.4312069
10527 0.7304058 -0.4404949 0.2695942 0.4404949 0.2695942 0.4404949 0.7304058 -0.4404949
11009 0.7126286 -0.4492861 0.2873714 0.4492861 0.2873714 0.4492861 0.7126286 -0.4492861
11514 0.6941668 -0.4575147 0.3058332 0.4575147 0.3058332 0.4575147 0.6941668 -0.4575147
12041 0.6750563 -0.4651158 0.3249437 0.4651158 0.3249437 0.4651158 0.6750563 -0.4651158
12592 0.6553408 -0.4720269 0.3446592 0.4720269 0.3446592 0.4720269 0.6553408 -0.4720269
13169 0.6350718 -0.4781887 0.3649282 0.4781887 0.3649282 0.4781887 0.6350718 -0.4781887
13772 0.6143083 -0.4835465 0.3856917 0.4835465 0.3856917 0.4835465 0.6143083 -0.4835465
14402 0.5931163 -0.4880511 0.4068837 0.4880511 0.4068837 0.4880511 0.5931163 -0.4880511
15062 0.5715679 -0.4916600 0.4284321 0.4916600 0.4284321 0.4916600 0.5715679 -0.4916600
15752 0.5497407 -0.4943383 0.4502593 0.4943383 0.4502593 0.4943383 0.5497407 -0.4943383
16473 0.5277166 -0.4960597 0.4722834 0.4960597 0.4722834 0.4960597 0.5277166 -0.4960597
17227 0.5055807 -0.4968066 0.4944193 0.4968066 0.4944193 0.4968066 0.5055807 -0.4968066
18016 0.4834199 -0.4965712 0.5165801 0.4965712 0.5165801 0.4965712 0.4834199 -0.4965712
18841 0.4613217 -0.4953551 0.5386783 0.4953551 0.5386783 0.4953551 0.4613217 -0.4953551
19704 0.4393725 -0.4931698 0.5606275 0.4931698 0.5606275 0.4931698 0.4393725 -0.4931698
20606 0.4176566 -0.4900362 0.5823434 0.4900362 0.5823434 0.4900362 0.4176566 -0.4900362
21550 0.3962549 -0.4859839 0.6037451 0.4859839 0.6037451 0.4859839 0.3962549 -0.4859839
22537 0.3752432 -0.4810511 0.6247568 0.4810511 0.6247568 0.4810511 0.3752432 -0.4810511
23569 0.3546921 -0.4752830 0.6453079 0.4752830 0.6453079 0.4752830 0.3546921 -0.4752830
24648 0.3346653 -0.4687315 0.6653347 0.4687315 0.6653347 0.4687315 0.3346653 -0.4687315
25777 0.3152194 -0.4614538 0.6847806 0.4614538 0.6847806 0.4614538 0.3152194 -0.4614538
26957 0.2964031 -0.4535111 0.7035969 0.4535111 0.7035969 0.4535111 0.2964031 -0.4535111
28191 0.2782577 -0.4449678 0.7217423 0.4449678 0.7217423 0.4449678 0.2782577 -0.4449678
29482 0.2608158 -0.4358901 0.7391842 0.4358901 0.7391842 0.4358901 0.2608158 -0.4358901
30832 0.2441028 -0.4263450 0.7558972 0.4263450 0.7558972 0.4263450 0.2441028 -0.4263450
32244 0.2281360 -0.4163992 0.7718640 0.4163992 0.7718640 0.4163992 0.2281360 -0.4163992
33721 0.2129257 -0.4061184 0.7870743 0.4061184 0.7870743 0.4061184 0.2129257 -0.4061184
35265 0.1984756 -0.3955662 0.8015244 0.3955662 0.8015244 0.3955662 0.1984756 -0.3955662
36880 0.1847830 -0.3848038 0.8152170 0.3848038 0.8152170 0.3848038 0.1847830 -0.3848038
38569 0.1718399 -0.3738889 0.8281601 0.3738889 0.8281601 0.3738889 0.1718399 -0.3738889
40335 0.1596336 -0.3628761 0.8403664 0.3628761 0.8403664 0.3628761 0.1596336 -0.3628761
42182 0.1481471 -0.3518157 0.8518529 0.3518157 0.8518529 0.3518157 0.1481471 -0.3518157
44113 0.1373599 -0.3407541 0.8626401 0.3407541 0.8626401 0.3407541 0.1373599 -0.3407541
46134 0.1272487 -0.3297336 0.8727513 0.3297336 0.8727513 0.3297336 0.1272487 -0.3297336
48246 0.1177881 -0.3187921 0.8822119 0.3187921 0.8822119 0.3187921 0.1177881 -0.3187921
50455 0.1089509 -0.3079635 0.8910491 0.3079635 0.8910491 0.3079635 0.1089509 -0.3079635
52766 0.1007086 -0.2972777 0.8992914 0.2972777 0.8992914 0.2972777 0.1007086 -0.2972777
55182 0.0930322 -0.2867607 0.9069678 0.2867607 0.9069678 0.2867607 0.0930322 -0.2867607
57709 0.0858922 -0.2764349 0.9141078 0.2764349 0.9141078 0.2764349 0.0858922 -0.2764349
60352 0.0792593 -0.2663193 0.9207407 0.2663193 0.9207407 0.2663193 0.0792593 -0.2663193
63115 0.0731042 -0.2564294 0.9268958 0.2564294 0.9268958 0.2564294 0.0731042 -0.2564294
66005 0.0673985 -0.2467783 0.9326015 0.2467783 0.9326015 0.2467783 0.0673985 -0.2467783
69028 0.0621142 -0.2373761 0.9378858 0.2373761 0.9378858 0.2373761 0.0621142 -0.2373761
72189 0.0572245 -0.2282304 0.9427755 0.2282304 0.9427755 0.2282304 0.0572245 -0.2282304
75495 0.0527034 -0.2193469 0.9472966 0.2193469 0.9472966 0.2193469 0.0527034 -0.2193469
78952 0.0485261 -0.2107292 0.9514739 0.2107292 0.9514739 0.2107292 0.0485261 -0.2107292
82567 0.0446690 -0.2023791 0.9553310 0.2023791 0.9553310 0.2023791 0.0446690 -0.2023791
86348 0.0411096 -0.1942972 0.9588904 0.1942972 0.9588904 0.1942972 0.0411096 -0.1942972
90302 0.0378267 -0.1864824 0.9621733 0.1864824 0.9621733 0.1864824 0.0378267 -0.1864824
94437 0.0348003 -0.1789328 0.9651997 0.1789328 0.9651997 0.1789328 0.0348003 -0.1789328
98762 0.0320116 -0.1716453 0.9679884 0.1716453 0.9679884 0.1716453 0.0320116 -0.1716453
103284 0.0294430 -0.1646161 0.9705570 0.1646161 0.9705570 0.1646161 0.0294430 -0.1646161
108014 0.0270779 -0.1578408 0.9729221 0.1578408 0.9729221 0.1578408 0.0270779 -0.1578408
112960 0.0249009 -0.1513142 0.9750991 0.1513142 0.9750991 0.1513142 0.0249009 -0.1513142
118133 0.0228978 -0.1450308 0.9771022 0.1450308 0.9771022 0.1450308 0.0228978 -0.1450308
123542 0.0210551 -0.1389848 0.9789449 0.1389848 0.9789449 0.1389848 0.0210551 -0.1389848
129199 0.0193604 -0.1331700 0.9806396 0.1331700 0.9806396 0.1331700 0.0193604 -0.1331700
135116 0.0178023 -0.1275800 0.9821977 0.1275800 0.9821977 0.1275800 0.0178023 -0.1275800
141303 0.0163700 -0.1222084 0.9836300 0.1222084 0.9836300 0.1222084 0.0163700 -0.1222084
147774 0.0150536 -0.1170485 0.9849464 0.1170485 0.9849464 0.1170485 0.0150536 -0.1170485
154540 0.0138441 -0.1120937 0.9861559 0.1120937 0.9861559 0.1120937 0.0138441 -0.1120937
161617 0.0127329 -0.1073374 0.9872671 0.1073374 0.9872671 0.1073374 0.0127329 -0.1073374
169018 0.0117121 -0.1027729 0.9882879 0.1027729 0.9882879 0.1027729 0.0117121 -0.1027729
176758 0.0107747 -0.0983937 0.9892253 0.0983937 0.9892253 0.0983937 0.0107747 -0.0983937
184852 0.0099138 -0.0941934 0.9900862 0.0941934 0.9900862 0.0941934 0.0099138 -0.0941934
193316 0.0091234 -0.0901654 0.9908766 0.0901654 0.9908766 0.0901654 0.0091234 -0.0901654
202169 0.0083977 -0.0863037 0.9916023 0.0863037 0.9916023 0.0863037 0.0083977 -0.0863037
211427 0.0077315 -0.0826020 0.9922685 0.0826020 0.9922685 0.0826020 0.0077315 -0.0826020
221108 0.0071199 -0.0790544 0.9928801 0.0790544 0.9928801 0.0790544 0.0071199 -0.0790544
231233 0.0065586 -0.0756550 0.9934414 0.0756550 0.9934414 0.0756550 0.0065586 -0.0756550
241822 0.0060434 -0.0723981 0.9939566 0.0723981 0.9939566 0.0723981 0.0060434 -0.0723981
252896 0.0055706 -0.0692782 0.9944294 0.0692782 0.9944294 0.0692782 0.0055706 -0.0692782
264476 0.0051366 -0.0662899 0.9948634 0.0662899 0.9948634 0.0662899 0.0051366 -0.0662899
276587 0.0047383 -0.0634280 0.9952617 0.0634280 0.9952617 0.0634280 0.0047383 -0.0634280
289253 0.0043728 -0.0606875 0.9956272 0.0606875 0.9956272 0.0606875 0.0043728 -0.0606875
302498 0.0040373 -0.0580635 0.9959627 0.0580635 0.9959627 0.0580635 0.0040373 -0.0580635
316350 0.0037294 -0.0555512 0.9962706 0.0555512 0.9962706 0.0555512 0.0037294 -0.0555512
330837 0.0034468 -0.0531461 0.9965532 0.0531461 0.9965532 0.0531461 0.0034468 -0.0531461
345986 0.0031874 -0.0508438 0.9968126 0.0508438 0.9968126 0.0508438 0.0031874 -0.0508438
361830 0.0029493 -0.0486400 0.9970507 0.0486400 0.9970507 0.0486400 0.0029493 -0.0486400
378399 0.0027307 -0.0465308 0.9972693 0.0465308 0.9972693 0.0465308 0.0027307 -0.0465308
395726 0.0025301 -0.0445121 0.9974699 0.0445121 0.9974699 0.0445121 0.0025301 -0.0445121
413847 0.0023459 -0.0425801 0.9976541 0.0425801 0.9976541 0.0425801 0.0023459 -0.0425801
432798 0.0021768 -0.0407313 0.9978232 0.0407313 0.9978232 0.0407313 0.0021768 -0.0407313
452617 0.0020215 -0.0389622 0.9979785 0.0389622 0.9979785 0.0389622 0.0020215 -0.0389622
473344 0.0018789 -0.0372693 0.9981211 0.0372693 0.9981211 0.0372693 0.0018789 -0.0372693
495019 0.0017480 -0.0356495 0.9982520 0.0356495 0.9982520 0.0356495 0.0017480 -0.0356495
517687 0.0016278 -0.0340997 0.9983722 0.0340997 0.9983722 0.0340997 0.0016278 -0.0340997
541393 0.0015174 -0.0326169 0.9984826 0.0326169 0.9984826 0.0326169 0.0015174 -0.0326169
566185 0.0014159 -0.0311983 0.9985841 0.0311983 0.9985841 0.0311983 0.0014159 -0.0311983
592111 0.0013228 -0.0298411 0.9986772 0.0298411 0.9986772 0.0298411 0.0013228 -0.0298411
619225 0.0012371 -0.0285427 0.9987629 0.0285427 0.9987629 0.0285427 0.0012371 -0.0285427
647581 0.0011585 -0.0273006 0.9988415 0.0273006 0.9988415 0.0273006 0.0011585 -0.0273006
677235 0.0010861 -0.0261125 0.9989139 0.0261125 0.9989139 0.0261125 0.0010861 -0.0261125
708247 0.0010196 -0.0249759 0.9989804 0.0249759 0.9989804 0.0249759 0.0010196 -0.0249759
740679 0.0009585 -0.0238886 0.9990415 0.0238886 0.9990415 0.0238886 0.0009585 -0.0238886
774597 0.0009022 -0.0228487 0.9990978 0.0228487 0.9990978 0.0228487 0.0009022 -0.0228487
810067 0.0008504 -0.0218539 0.9991496 0.0218539 0.9991496 0.0218539 0.0008504 -0.0218539
847162 0.0008026 -0.0209025 0.9991974 0.0209025 0.9991974 0.0209025 0.0008026 -0.0209025
885955 0.0007586 -0.0199924 0.9992414 0.0199924 0.9992414 0.0199924 0.0007586 -0.0199924
926525 0.0007181 -0.0191220 0.9992819 0.0191220 0.9992819 0.0191220 0.0007181 -0.0191220
968953 0.0006806 -0.0182894 0.9993194 0.0182894 0.9993194 0.0182894 0.0006806 -0.0182894
1013323 0.0006460 -0.0174931 0.9993540 0.0174931 0.9993540 0.0174931 0.0006460 -0.0174931
1059725 0.0006140 -0.0167315 0.9993860 0.0167315 0.9993860 0.0167315 0.0006140 -0.0167315
1108252 0.0005843 -0.0160030 0.9994157 0.0160030 0.9994157 0.0160030 0.0005843 -0.0160030
1159002 0.0005568 -0.0153062 0.9994432 0.0153062 0.9994432 0.0153062 0.0005568 -0.0153062
1212075 0.0005312 -0.0146398 0.9994688 0.0146398 0.9994688 0.0146398 0.0005312 -0.0146398
1267578 0.0005075 -0.0140023 0.9994925 0.0140023 0.9994925 0.0140023 0.0005075 -0.0140023
1325623 0.0004853 -0.0133926 0.9995147 0.0133926 0.9995147 0.0133926 0.0004853 -0.0133926
1386327 0.0004647 -0.0128094 0.9995353 0.0128094 0.9995353 0.0128094 0.0004647 -0.0128094
1449809 0.0004453 -0.0122514 0.9995547 0.0122514 0.9995547 0.0122514 0.0004453 -0.0122514
1516199 0.0004272 -0.0117177 0.9995728 0.0117177 0.9995728 0.0117177 0.0004272 -0.0117177
1585629 0.0004103 -0.0112071 0.9995897 0.0112071 0.9995897 0.0112071 0.0004103 -0.0112071
1658239 0.0003943 -0.0107186 0.9996057 0.0107186 0.9996057 0.0107186 0.0003943 -0.0107186
1734173 0.0003793 -0.0102512 0.9996207 0.0102512 0.9996207 0.0102512 0.0003793 -0.0102512
1813585 0.0003651 -0.0098040 0.9996349 0.0098040 0.9996349 0.0098040 0.0003651 -0.0098040
1896632 0.0003517 -0.0093760 0.9996483 0.0093760 0.9996483 0.0093760 0.0003517 -0.0093760
1983483 0.0003390 -0.0089665 0.9996610 0.0089665 0.9996610 0.0089665 0.0003390 -0.0089665
2074311 0.0003270 -0.0085745 0.9996730 0.0085745 0.9996730 0.0085745 0.0003270 -0.0085745
