!Murata Part Number: GRM43DR72E334KW01
!These Parameters are Measured in Series Mode Connection
!Data Generated on Mar 30, 2021
!       o--ll--o
!Port1            Port2
!       o------o
!Operation Temp=25[degC], DC Bias Voltage=0[V]
!Freq. Start=100[kHz] Stop=6[GHz] 401[Steps]
# Hz S RI R 50
!Freq.(Hz) S11(Real) S11(Imag) S21(Real) S21(Imag) S12(Real) S12(Imag) S22(Real) S22(Imag)
100000 0.0031266 -0.0510175 0.9968734 0.0510175 0.9968734 0.0510175 0.0031266 -0.0510175
102789 0.0029775 -0.0496499 0.9970225 0.0496499 0.9970225 0.0496499 0.0029775 -0.0496499
105655 0.0028358 -0.0483185 0.9971642 0.0483185 0.9971642 0.0483185 0.0028358 -0.0483185
108602 0.0027013 -0.0470224 0.9972987 0.0470224 0.9972987 0.0470224 0.0027013 -0.0470224
111630 0.0025734 -0.0457607 0.9974266 0.0457607 0.9974266 0.0457607 0.0025734 -0.0457607
114743 0.0024520 -0.0445324 0.9975480 0.0445324 0.9975480 0.0445324 0.0024520 -0.0445324
117943 0.0023366 -0.0433367 0.9976634 0.0433367 0.9976634 0.0433367 0.0023366 -0.0433367
121232 0.0022270 -0.0421728 0.9977730 0.0421728 0.9977730 0.0421728 0.0022270 -0.0421728
124613 0.0021229 -0.0410398 0.9978771 0.0410398 0.9978771 0.0410398 0.0021229 -0.0410398
128088 0.0020239 -0.0399369 0.9979761 0.0399369 0.9979761 0.0399369 0.0020239 -0.0399369
131660 0.0019300 -0.0388633 0.9980700 0.0388633 0.9980700 0.0388633 0.0019300 -0.0388633
135332 0.0018407 -0.0378183 0.9981593 0.0378183 0.9981593 0.0378183 0.0018407 -0.0378183
139106 0.0017559 -0.0368011 0.9982441 0.0368011 0.9982441 0.0368011 0.0017559 -0.0368011
142985 0.0016753 -0.0358111 0.9983247 0.0358111 0.9983247 0.0358111 0.0016753 -0.0358111
146972 0.0015988 -0.0348474 0.9984012 0.0348474 0.9984012 0.0348474 0.0015988 -0.0348474
151071 0.0015262 -0.0339094 0.9984738 0.0339094 0.9984738 0.0339094 0.0015262 -0.0339094
155284 0.0014572 -0.0329964 0.9985428 0.0329964 0.9985428 0.0329964 0.0014572 -0.0329964
159614 0.0013916 -0.0321078 0.9986084 0.0321078 0.9986084 0.0321078 0.0013916 -0.0321078
164065 0.0013294 -0.0312429 0.9986706 0.0312429 0.9986706 0.0312429 0.0013294 -0.0312429
168641 0.0012703 -0.0304012 0.9987297 0.0304012 0.9987297 0.0304012 0.0012703 -0.0304012
173344 0.0012141 -0.0295819 0.9987859 0.0295819 0.9987859 0.0295819 0.0012141 -0.0295819
178178 0.0011608 -0.0287846 0.9988392 0.0287846 0.9988392 0.0287846 0.0011608 -0.0287846
183146 0.0011102 -0.0280086 0.9988898 0.0280086 0.9988898 0.0280086 0.0011102 -0.0280086
188254 0.0010621 -0.0272533 0.9989379 0.0272533 0.9989379 0.0272533 0.0010621 -0.0272533
193504 0.0010164 -0.0265183 0.9989836 0.0265183 0.9989836 0.0265183 0.0010164 -0.0265183
198900 0.0009731 -0.0258030 0.9990269 0.0258030 0.9990269 0.0258030 0.0009731 -0.0258030
204447 0.0009319 -0.0251069 0.9990681 0.0251069 0.9990681 0.0251069 0.0009319 -0.0251069
210148 0.0008928 -0.0244294 0.9991072 0.0244294 0.9991072 0.0244294 0.0008928 -0.0244294
216008 0.0008556 -0.0237701 0.9991444 0.0237701 0.9991444 0.0237701 0.0008556 -0.0237701
222032 0.0008204 -0.0231285 0.9991796 0.0231285 0.9991796 0.0231285 0.0008204 -0.0231285
228224 0.0007869 -0.0225041 0.9992131 0.0225041 0.9992131 0.0225041 0.0007869 -0.0225041
234589 0.0007551 -0.0218965 0.9992449 0.0218965 0.9992449 0.0218965 0.0007551 -0.0218965
241130 0.0007248 -0.0213053 0.9992752 0.0213053 0.9992752 0.0213053 0.0007248 -0.0213053
247855 0.0006961 -0.0207299 0.9993039 0.0207299 0.9993039 0.0207299 0.0006961 -0.0207299
254767 0.0006688 -0.0201700 0.9993312 0.0201700 0.9993312 0.0201700 0.0006688 -0.0201700
261871 0.0006429 -0.0196251 0.9993571 0.0196251 0.9993571 0.0196251 0.0006429 -0.0196251
269174 0.0006183 -0.0190949 0.9993817 0.0190949 0.9993817 0.0190949 0.0006183 -0.0190949
276681 0.0005949 -0.0185790 0.9994051 0.0185790 0.9994051 0.0185790 0.0005949 -0.0185790
284397 0.0005726 -0.0180769 0.9994274 0.0180769 0.9994274 0.0180769 0.0005726 -0.0180769
292328 0.0005514 -0.0175883 0.9994486 0.0175883 0.9994486 0.0175883 0.0005514 -0.0175883
300480 0.0005313 -0.0171129 0.9994687 0.0171129 0.9994687 0.0171129 0.0005313 -0.0171129
308859 0.0005122 -0.0166503 0.9994878 0.0166503 0.9994878 0.0166503 0.0005122 -0.0166503
317472 0.0004940 -0.0162002 0.9995060 0.0162002 0.9995060 0.0162002 0.0004940 -0.0162002
326326 0.0004766 -0.0157622 0.9995234 0.0157622 0.9995234 0.0157622 0.0004766 -0.0157622
335426 0.0004601 -0.0153359 0.9995399 0.0153359 0.9995399 0.0153359 0.0004601 -0.0153359
344780 0.0004444 -0.0149211 0.9995556 0.0149211 0.9995556 0.0149211 0.0004444 -0.0149211
354395 0.0004295 -0.0145175 0.9995705 0.0145175 0.9995705 0.0145175 0.0004295 -0.0145175
364278 0.0004152 -0.0141248 0.9995848 0.0141248 0.9995848 0.0141248 0.0004152 -0.0141248
374436 0.0004017 -0.0137426 0.9995983 0.0137426 0.9995983 0.0137426 0.0004017 -0.0137426
384878 0.0003887 -0.0133707 0.9996113 0.0133707 0.9996113 0.0133707 0.0003887 -0.0133707
395611 0.0003764 -0.0130088 0.9996236 0.0130088 0.9996236 0.0130088 0.0003764 -0.0130088
406644 0.0003646 -0.0126567 0.9996354 0.0126567 0.9996354 0.0126567 0.0003646 -0.0126567
417984 0.0003534 -0.0123140 0.9996466 0.0123140 0.9996466 0.0123140 0.0003534 -0.0123140
429640 0.0003427 -0.0119805 0.9996573 0.0119805 0.9996573 0.0119805 0.0003427 -0.0119805
441622 0.0003325 -0.0116560 0.9996675 0.0116560 0.9996675 0.0116560 0.0003325 -0.0116560
453937 0.0003227 -0.0113402 0.9996773 0.0113402 0.9996773 0.0113402 0.0003227 -0.0113402
466596 0.0003134 -0.0110329 0.9996866 0.0110329 0.9996866 0.0110329 0.0003134 -0.0110329
479608 0.0003044 -0.0107338 0.9996956 0.0107338 0.9996956 0.0107338 0.0003044 -0.0107338
492983 0.0002959 -0.0104428 0.9997041 0.0104428 0.9997041 0.0104428 0.0002959 -0.0104428
506731 0.0002878 -0.0101596 0.9997122 0.0101596 0.9997122 0.0101596 0.0002878 -0.0101596
520862 0.0002800 -0.0098839 0.9997200 0.0098839 0.9997200 0.0098839 0.0002800 -0.0098839
535387 0.0002725 -0.0096157 0.9997275 0.0096157 0.9997275 0.0096157 0.0002725 -0.0096157
550318 0.0002653 -0.0093546 0.9997347 0.0093546 0.9997347 0.0093546 0.0002653 -0.0093546
565664 0.0002585 -0.0091005 0.9997415 0.0091005 0.9997415 0.0091005 0.0002585 -0.0091005
581439 0.0002520 -0.0088532 0.9997480 0.0088532 0.9997480 0.0088532 0.0002520 -0.0088532
597654 0.0002457 -0.0086125 0.9997543 0.0086125 0.9997543 0.0086125 0.0002457 -0.0086125
614320 0.0002397 -0.0083783 0.9997603 0.0083783 0.9997603 0.0083783 0.0002397 -0.0083783
631452 0.0002339 -0.0081503 0.9997661 0.0081503 0.9997661 0.0081503 0.0002339 -0.0081503
649061 0.0002284 -0.0079283 0.9997716 0.0079283 0.9997716 0.0079283 0.0002284 -0.0079283
667162 0.0002231 -0.0077123 0.9997769 0.0077123 0.9997769 0.0077123 0.0002231 -0.0077123
685767 0.0002181 -0.0075021 0.9997819 0.0075021 0.9997819 0.0075021 0.0002181 -0.0075021
704891 0.0002132 -0.0072974 0.9997868 0.0072974 0.9997868 0.0072974 0.0002132 -0.0072974
724548 0.0002085 -0.0070982 0.9997915 0.0070982 0.9997915 0.0070982 0.0002085 -0.0070982
744754 0.0002041 -0.0069043 0.9997959 0.0069043 0.9997959 0.0069043 0.0002041 -0.0069043
765523 0.0001998 -0.0067155 0.9998002 0.0067155 0.9998002 0.0067155 0.0001998 -0.0067155
786871 0.0001957 -0.0065317 0.9998043 0.0065317 0.9998043 0.0065317 0.0001957 -0.0065317
808814 0.0001918 -0.0063528 0.9998082 0.0063528 0.9998082 0.0063528 0.0001918 -0.0063528
831370 0.0001880 -0.0061787 0.9998120 0.0061787 0.9998120 0.0061787 0.0001880 -0.0061787
854554 0.0001844 -0.0060091 0.9998156 0.0060091 0.9998156 0.0060091 0.0001844 -0.0060091
878385 0.0001810 -0.0058440 0.9998190 0.0058440 0.9998190 0.0058440 0.0001810 -0.0058440
902880 0.0001776 -0.0056833 0.9998224 0.0056833 0.9998224 0.0056833 0.0001776 -0.0056833
928059 0.0001745 -0.0055268 0.9998255 0.0055268 0.9998255 0.0055268 0.0001745 -0.0055268
953940 0.0001714 -0.0053745 0.9998286 0.0053745 0.9998286 0.0053745 0.0001714 -0.0053745
980542 0.0001685 -0.0052261 0.9998315 0.0052261 0.9998315 0.0052261 0.0001685 -0.0052261
1007887 0.0001657 -0.0050817 0.9998343 0.0050817 0.9998343 0.0050817 0.0001657 -0.0050817
1035994 0.0001631 -0.0049410 0.9998369 0.0049410 0.9998369 0.0049410 0.0001631 -0.0049410
1064885 0.0001605 -0.0048041 0.9998395 0.0048041 0.9998395 0.0048041 0.0001605 -0.0048041
1094581 0.0001581 -0.0046707 0.9998419 0.0046707 0.9998419 0.0046707 0.0001581 -0.0046707
1125106 0.0001558 -0.0045408 0.9998442 0.0045408 0.9998442 0.0045408 0.0001558 -0.0045408
1156481 0.0001535 -0.0044143 0.9998465 0.0044143 0.9998465 0.0044143 0.0001535 -0.0044143
1188732 0.0001514 -0.0042911 0.9998486 0.0042911 0.9998486 0.0042911 0.0001514 -0.0042911
1221882 0.0001494 -0.0041711 0.9998506 0.0041711 0.9998506 0.0041711 0.0001494 -0.0041711
1255957 0.0001474 -0.0040542 0.9998526 0.0040542 0.9998526 0.0040542 0.0001474 -0.0040542
1290982 0.0001455 -0.0039404 0.9998545 0.0039404 0.9998545 0.0039404 0.0001455 -0.0039404
1326984 0.0001438 -0.0038295 0.9998562 0.0038295 0.9998562 0.0038295 0.0001438 -0.0038295
1363989 0.0001421 -0.0037214 0.9998579 0.0037214 0.9998579 0.0037214 0.0001421 -0.0037214
1402027 0.0001404 -0.0036162 0.9998596 0.0036162 0.9998596 0.0036162 0.0001404 -0.0036162
1441125 0.0001389 -0.0035136 0.9998611 0.0035136 0.9998611 0.0035136 0.0001389 -0.0035136
1481314 0.0001374 -0.0034137 0.9998626 0.0034137 0.9998626 0.0034137 0.0001374 -0.0034137
1522623 0.0001360 -0.0033164 0.9998640 0.0033164 0.9998640 0.0033164 0.0001360 -0.0033164
1565085 0.0001346 -0.0032215 0.9998654 0.0032215 0.9998654 0.0032215 0.0001346 -0.0032215
1608730 0.0001334 -0.0031290 0.9998666 0.0031290 0.9998666 0.0031290 0.0001334 -0.0031290
1653593 0.0001321 -0.0030389 0.9998679 0.0030389 0.9998679 0.0030389 0.0001321 -0.0030389
1699707 0.0001310 -0.0029511 0.9998690 0.0029511 0.9998690 0.0029511 0.0001310 -0.0029511
1747106 0.0001298 -0.0028654 0.9998702 0.0028654 0.9998702 0.0028654 0.0001298 -0.0028654
1795828 0.0001288 -0.0027819 0.9998712 0.0027819 0.9998712 0.0027819 0.0001288 -0.0027819
1845908 0.0001278 -0.0027005 0.9998722 0.0027005 0.9998722 0.0027005 0.0001278 -0.0027005
1897385 0.0001268 -0.0026212 0.9998732 0.0026212 0.9998732 0.0026212 0.0001268 -0.0026212
1950297 0.0001259 -0.0025438 0.9998741 0.0025438 0.9998741 0.0025438 0.0001259 -0.0025438
2004685 0.0001250 -0.0024683 0.9998750 0.0024683 0.9998750 0.0024683 0.0001250 -0.0024683
2060590 0.0001241 -0.0023946 0.9998759 0.0023946 0.9998759 0.0023946 0.0001241 -0.0023946
2118054 0.0001233 -0.0023228 0.9998767 0.0023228 0.9998767 0.0023228 0.0001233 -0.0023228
2177120 0.0001226 -0.0022527 0.9998774 0.0022527 0.9998774 0.0022527 0.0001226 -0.0022527
2237833 0.0001218 -0.0021842 0.9998782 0.0021842 0.9998782 0.0021842 0.0001218 -0.0021842
2300240 0.0001211 -0.0021175 0.9998789 0.0021175 0.9998789 0.0021175 0.0001211 -0.0021175
2364387 0.0001205 -0.0020523 0.9998795 0.0020523 0.9998795 0.0020523 0.0001205 -0.0020523
2430322 0.0001198 -0.0019886 0.9998802 0.0019886 0.9998802 0.0019886 0.0001198 -0.0019886
2498097 0.0001192 -0.0019265 0.9998808 0.0019265 0.9998808 0.0019265 0.0001192 -0.0019265
2567761 0.0001187 -0.0018658 0.9998813 0.0018658 0.9998813 0.0018658 0.0001187 -0.0018658
2639368 0.0001181 -0.0018064 0.9998819 0.0018064 0.9998819 0.0018064 0.0001181 -0.0018064
2712972 0.0001176 -0.0017485 0.9998824 0.0017485 0.9998824 0.0017485 0.0001176 -0.0017485
2788629 0.0001171 -0.0016918 0.9998829 0.0016918 0.9998829 0.0016918 0.0001171 -0.0016918
2866396 0.0001166 -0.0016364 0.9998834 0.0016364 0.9998834 0.0016364 0.0001166 -0.0016364
2946331 0.0001162 -0.0015823 0.9998838 0.0015823 0.9998838 0.0015823 0.0001162 -0.0015823
3028495 0.0001158 -0.0015293 0.9998842 0.0015293 0.9998842 0.0015293 0.0001158 -0.0015293
3112951 0.0001154 -0.0014775 0.9998846 0.0014775 0.9998846 0.0014775 0.0001154 -0.0014775
3199762 0.0001150 -0.0014267 0.9998850 0.0014267 0.9998850 0.0014267 0.0001150 -0.0014267
3288994 0.0001146 -0.0013771 0.9998854 0.0013771 0.9998854 0.0013771 0.0001146 -0.0013771
3380714 0.0001143 -0.0013284 0.9998857 0.0013284 0.9998857 0.0013284 0.0001143 -0.0013284
3474992 0.0001140 -0.0012808 0.9998860 0.0012808 0.9998860 0.0012808 0.0001140 -0.0012808
3571899 0.0001137 -0.0012341 0.9998863 0.0012341 0.9998863 0.0012341 0.0001137 -0.0012341
3671508 0.0001134 -0.0011883 0.9998866 0.0011883 0.9998866 0.0011883 0.0001134 -0.0011883
3773896 0.0001131 -0.0011435 0.9998869 0.0011435 0.9998869 0.0011435 0.0001131 -0.0011435
3879139 0.0001129 -0.0010994 0.9998871 0.0010994 0.9998871 0.0010994 0.0001129 -0.0010994
3987316 0.0001127 -0.0010562 0.9998873 0.0010562 0.9998873 0.0010562 0.0001127 -0.0010562
4098510 0.0001125 -0.0010138 0.9998875 0.0010138 0.9998875 0.0010138 0.0001125 -0.0010138
4212806 0.0001123 -0.0009721 0.9998877 0.0009721 0.9998877 0.0009721 0.0001123 -0.0009721
4330288 0.0001122 -0.0009311 0.9998878 0.0009311 0.9998878 0.0009311 0.0001122 -0.0009311
4451047 0.0001121 -0.0008908 0.9998879 0.0008908 0.9998879 0.0008908 0.0001121 -0.0008908
4575173 0.0001120 -0.0008512 0.9998880 0.0008512 0.9998880 0.0008512 0.0001120 -0.0008512
4702761 0.0001119 -0.0008122 0.9998881 0.0008122 0.9998881 0.0008122 0.0001119 -0.0008122
4833907 0.0001118 -0.0007738 0.9998882 0.0007738 0.9998882 0.0007738 0.0001118 -0.0007738
4968711 0.0001118 -0.0007360 0.9998882 0.0007360 0.9998882 0.0007360 0.0001118 -0.0007360
5107273 0.0001118 -0.0006987 0.9998882 0.0006987 0.9998882 0.0006987 0.0001118 -0.0006987
5249700 0.0001118 -0.0006619 0.9998882 0.0006619 0.9998882 0.0006619 0.0001118 -0.0006619
5396098 0.0001119 -0.0006256 0.9998881 0.0006256 0.9998881 0.0006256 0.0001119 -0.0006256
5546579 0.0001120 -0.0005897 0.9998880 0.0005897 0.9998880 0.0005897 0.0001120 -0.0005897
5701257 0.0001121 -0.0005543 0.9998879 0.0005543 0.9998879 0.0005543 0.0001121 -0.0005543
5860248 0.0001123 -0.0005193 0.9998877 0.0005193 0.9998877 0.0005193 0.0001123 -0.0005193
6023672 0.0001125 -0.0004846 0.9998875 0.0004846 0.9998875 0.0004846 0.0001125 -0.0004846
6191655 0.0001128 -0.0004503 0.9998872 0.0004503 0.9998872 0.0004503 0.0001128 -0.0004503
6364321 0.0001131 -0.0004162 0.9998869 0.0004162 0.9998869 0.0004162 0.0001131 -0.0004162
6541803 0.0001134 -0.0003825 0.9998866 0.0003825 0.9998866 0.0003825 0.0001134 -0.0003825
6724235 0.0001138 -0.0003490 0.9998862 0.0003490 0.9998862 0.0003490 0.0001138 -0.0003490
6911753 0.0001142 -0.0003158 0.9998858 0.0003158 0.9998858 0.0003158 0.0001142 -0.0003158
7104501 0.0001147 -0.0002828 0.9998853 0.0002828 0.9998853 0.0002828 0.0001147 -0.0002828
7302625 0.0001153 -0.0002500 0.9998847 0.0002500 0.9998847 0.0002500 0.0001153 -0.0002500
7506273 0.0001159 -0.0002173 0.9998841 0.0002173 0.9998841 0.0002173 0.0001159 -0.0002173
7715601 0.0001166 -0.0001847 0.9998834 0.0001847 0.9998834 0.0001847 0.0001166 -0.0001847
7930766 0.0001173 -0.0001523 0.9998827 0.0001523 0.9998827 0.0001523 0.0001173 -0.0001523
8151931 0.0001181 -0.0001199 0.9998819 0.0001199 0.9998819 0.0001199 0.0001181 -0.0001199
8379264 0.0001191 -0.0000876 0.9998809 0.0000876 0.9998809 0.0000876 0.0001191 -0.0000876
8612937 0.0001201 -0.0000553 0.9998799 0.0000553 0.9998799 0.0000553 0.0001201 -0.0000553
8853126 0.0001212 -0.0000230 0.9998788 0.0000230 0.9998788 0.0000230 0.0001212 -0.0000230
9100013 0.0001224 0.0000094 0.9998776 -0.0000094 0.9998776 -0.0000094 0.0001224 0.0000094
9353785 0.0001237 0.0000418 0.9998763 -0.0000418 0.9998763 -0.0000418 0.0001237 0.0000418
9614634 0.0001251 0.0000743 0.9998749 -0.0000743 0.9998749 -0.0000743 0.0001251 0.0000743
9882758 0.0001267 0.0001069 0.9998733 -0.0001069 0.9998733 -0.0001069 0.0001267 0.0001069
10158358 0.0001284 0.0001396 0.9998716 -0.0001396 0.9998716 -0.0001396 0.0001284 0.0001396
10441645 0.0001303 0.0001726 0.9998697 -0.0001726 0.9998697 -0.0001726 0.0001303 0.0001726
10732831 0.0001324 0.0002057 0.9998676 -0.0002057 0.9998676 -0.0002057 0.0001324 0.0002057
11032137 0.0001346 0.0002391 0.9998654 -0.0002391 0.9998654 -0.0002391 0.0001346 0.0002391
11339791 0.0001371 0.0002728 0.9998629 -0.0002728 0.9998629 -0.0002728 0.0001371 0.0002728
11656024 0.0001397 0.0003067 0.9998603 -0.0003067 0.9998603 -0.0003067 0.0001397 0.0003067
11981075 0.0001427 0.0003410 0.9998573 -0.0003410 0.9998573 -0.0003410 0.0001427 0.0003410
12315192 0.0001460 0.0003757 0.9998540 -0.0003757 0.9998540 -0.0003757 0.0001460 0.0003757
12658625 0.0001495 0.0004108 0.9998505 -0.0004108 0.9998505 -0.0004108 0.0001495 0.0004108
13011637 0.0001535 0.0004464 0.9998465 -0.0004464 0.9998465 -0.0004464 0.0001535 0.0004464
13374492 0.0001579 0.0004824 0.9998421 -0.0004824 0.9998421 -0.0004824 0.0001579 0.0004824
13747467 0.0001628 0.0005190 0.9998372 -0.0005190 0.9998372 -0.0005190 0.0001628 0.0005190
14130843 0.0001682 0.0005561 0.9998318 -0.0005561 0.9998318 -0.0005561 0.0001682 0.0005561
14524910 0.0001743 0.0005938 0.9998257 -0.0005938 0.9998257 -0.0005938 0.0001743 0.0005938
14929966 0.0001811 0.0006321 0.9998189 -0.0006321 0.9998189 -0.0006321 0.0001811 0.0006321
15346318 0.0001889 0.0006710 0.9998111 -0.0006710 0.9998111 -0.0006710 0.0001889 0.0006710
15774281 0.0001977 0.0007106 0.9998023 -0.0007106 0.9998023 -0.0007106 0.0001977 0.0007106
16214179 0.0002077 0.0007507 0.9997923 -0.0007507 0.9997923 -0.0007507 0.0002077 0.0007507
16666344 0.0002191 0.0007914 0.9997809 -0.0007914 0.9997809 -0.0007914 0.0002191 0.0007914
17131118 0.0002323 0.0008325 0.9997677 -0.0008325 0.9997677 -0.0008325 0.0002323 0.0008325
17608854 0.0002475 0.0008739 0.9997525 -0.0008739 0.9997525 -0.0008739 0.0002475 0.0008739
18099912 0.0002651 0.0009150 0.9997349 -0.0009150 0.9997349 -0.0009150 0.0002651 0.0009150
18604665 0.0002854 0.0009555 0.9997146 -0.0009555 0.9997146 -0.0009555 0.0002854 0.0009555
19123493 0.0003086 0.0009945 0.9996914 -0.0009945 0.9996914 -0.0009945 0.0003086 0.0009945
19656790 0.0003349 0.0010310 0.9996651 -0.0010310 0.9996651 -0.0010310 0.0003349 0.0010310
20204959 0.0003638 0.0010635 0.9996362 -0.0010635 0.9996362 -0.0010635 0.0003638 0.0010635
20768415 0.0003942 0.0010905 0.9996058 -0.0010905 0.9996058 -0.0010905 0.0003942 0.0010905
21347584 0.0004241 0.0011107 0.9995759 -0.0011107 0.9995759 -0.0011107 0.0004241 0.0011107
21942904 0.0004504 0.0011239 0.9995496 -0.0011239 0.9995496 -0.0011239 0.0004504 0.0011239
22554827 0.0004697 0.0011313 0.9995303 -0.0011313 0.9995303 -0.0011313 0.0004697 0.0011313
23183813 0.0004794 0.0011363 0.9995206 -0.0011363 0.9995206 -0.0011363 0.0004794 0.0011363
23830340 0.0004791 0.0011433 0.9995209 -0.0011433 0.9995209 -0.0011433 0.0004791 0.0011433
24494897 0.0004706 0.0011563 0.9995294 -0.0011563 0.9995294 -0.0011563 0.0004706 0.0011563
25177987 0.0004574 0.0011774 0.9995426 -0.0011774 0.9995426 -0.0011774 0.0004574 0.0011774
25880126 0.0004428 0.0012069 0.9995572 -0.0012069 0.9995572 -0.0012069 0.0004428 0.0012069
26601845 0.0004295 0.0012438 0.9995705 -0.0012438 0.9995705 -0.0012438 0.0004295 0.0012438
27343691 0.0004190 0.0012864 0.9995810 -0.0012864 0.9995810 -0.0012864 0.0004190 0.0012864
28106225 0.0004120 0.0013331 0.9995880 -0.0013331 0.9995880 -0.0013331 0.0004120 0.0013331
28890023 0.0004088 0.0013826 0.9995912 -0.0013826 0.9995912 -0.0013826 0.0004088 0.0013826
29695680 0.0004092 0.0014338 0.9995908 -0.0014338 0.9995908 -0.0014338 0.0004092 0.0014338
30523804 0.0004129 0.0014859 0.9995871 -0.0014859 0.9995871 -0.0014859 0.0004129 0.0014859
31375021 0.0004196 0.0015383 0.9995804 -0.0015383 0.9995804 -0.0015383 0.0004196 0.0015383
32249977 0.0004289 0.0015904 0.9995711 -0.0015904 0.9995711 -0.0015904 0.0004289 0.0015904
33149332 0.0004403 0.0016417 0.9995597 -0.0016417 0.9995597 -0.0016417 0.0004403 0.0016417
34073768 0.0004535 0.0016920 0.9995465 -0.0016920 0.9995465 -0.0016920 0.0004535 0.0016920
35023984 0.0004678 0.0017408 0.9995322 -0.0017408 0.9995322 -0.0017408 0.0004678 0.0017408
36000698 0.0004828 0.0017881 0.9995172 -0.0017881 0.9995172 -0.0017881 0.0004828 0.0017881
37004650 0.0004977 0.0018336 0.9995023 -0.0018336 0.9995023 -0.0018336 0.0004977 0.0018336
38036599 0.0005118 0.0018775 0.9994882 -0.0018775 0.9994882 -0.0018775 0.0005118 0.0018775
39097326 0.0005243 0.0019199 0.9994757 -0.0019199 0.9994757 -0.0019199 0.0005243 0.0019199
