!Murata Part Number: GRM43DR72J104KW01
!These Parameters are Measured in Series Mode Connection
!Data Generated on Mar 30, 2021
!       o--ll--o
!Port1            Port2
!       o------o
!Operation Temp=25[degC], DC Bias Voltage=0[V]
!Freq. Start=100[kHz] Stop=6[GHz] 401[Steps]
# Hz S RI R 50
!Freq.(Hz) S11(Real) S11(Imag) S21(Real) S21(Imag) S12(Real) S12(Imag) S22(Real) S22(Imag)
100000 0.0292346 -0.1639713 0.9707654 0.1639713 0.9707654 0.1639713 0.0292346 -0.1639713
102789 0.0277673 -0.1597965 0.9722327 0.1597965 0.9722327 0.1597965 0.0277673 -0.1597965
105655 0.0263726 -0.1557156 0.9736274 0.1557156 0.9736274 0.1557156 0.0263726 -0.1557156
108602 0.0250472 -0.1517275 0.9749528 0.1517275 0.9749528 0.1517275 0.0250472 -0.1517275
111630 0.0237878 -0.1478310 0.9762122 0.1478310 0.9762122 0.1478310 0.0237878 -0.1478310
114743 0.0225913 -0.1440247 0.9774087 0.1440247 0.9774087 0.1440247 0.0225913 -0.1440247
117943 0.0214546 -0.1403073 0.9785454 0.1403073 0.9785454 0.1403073 0.0214546 -0.1403073
121232 0.0203749 -0.1366774 0.9796251 0.1366774 0.9796251 0.1366774 0.0203749 -0.1366774
124613 0.0193495 -0.1331335 0.9806505 0.1331335 0.9806505 0.1331335 0.0193495 -0.1331335
128088 0.0183757 -0.1296743 0.9816243 0.1296743 0.9816243 0.1296743 0.0183757 -0.1296743
131660 0.0174511 -0.1262982 0.9825489 0.1262982 0.9825489 0.1262982 0.0174511 -0.1262982
135332 0.0165732 -0.1230038 0.9834268 0.1230038 0.9834268 0.1230038 0.0165732 -0.1230038
139106 0.0157398 -0.1197896 0.9842602 0.1197896 0.9842602 0.1197896 0.0157398 -0.1197896
142985 0.0149487 -0.1166540 0.9850513 0.1166540 0.9850513 0.1166540 0.0149487 -0.1166540
146972 0.0141978 -0.1135955 0.9858022 0.1135955 0.9858022 0.1135955 0.0141978 -0.1135955
151071 0.0134851 -0.1106127 0.9865149 0.1106127 0.9865149 0.1106127 0.0134851 -0.1106127
155284 0.0128087 -0.1077039 0.9871913 0.1077039 0.9871913 0.1077039 0.0128087 -0.1077039
159614 0.0121669 -0.1048678 0.9878331 0.1048678 0.9878331 0.1048678 0.0121669 -0.1048678
164065 0.0115578 -0.1021027 0.9884422 0.1021027 0.9884422 0.1021027 0.0115578 -0.1021027
168641 0.0109799 -0.0994072 0.9890201 0.0994072 0.9890201 0.0994072 0.0109799 -0.0994072
173344 0.0104316 -0.0967799 0.9895684 0.0967799 0.9895684 0.0967799 0.0104316 -0.0967799
178178 0.0099113 -0.0942191 0.9900887 0.0942191 0.9900887 0.0942191 0.0099113 -0.0942191
183146 0.0094178 -0.0917235 0.9905822 0.0917235 0.9905822 0.0917235 0.0094178 -0.0917235
188254 0.0089495 -0.0892916 0.9910505 0.0892916 0.9910505 0.0892916 0.0089495 -0.0892916
193504 0.0085053 -0.0869220 0.9914947 0.0869220 0.9914947 0.0869220 0.0085053 -0.0869220
198900 0.0080839 -0.0846132 0.9919161 0.0846132 0.9919161 0.0846132 0.0080839 -0.0846132
204447 0.0076841 -0.0823639 0.9923159 0.0823639 0.9923159 0.0823639 0.0076841 -0.0823639
210148 0.0073049 -0.0801727 0.9926951 0.0801727 0.9926951 0.0801727 0.0073049 -0.0801727
216008 0.0069451 -0.0780381 0.9930549 0.0780381 0.9930549 0.0780381 0.0069451 -0.0780381
222032 0.0066038 -0.0759590 0.9933962 0.0759590 0.9933962 0.0759590 0.0066038 -0.0759590
228224 0.0062801 -0.0739339 0.9937199 0.0739339 0.9937199 0.0739339 0.0062801 -0.0739339
234589 0.0059729 -0.0719616 0.9940271 0.0719616 0.9940271 0.0719616 0.0059729 -0.0719616
241130 0.0056815 -0.0700407 0.9943185 0.0700407 0.9943185 0.0700407 0.0056815 -0.0700407
247855 0.0054051 -0.0681701 0.9945949 0.0681701 0.9945949 0.0681701 0.0054051 -0.0681701
254767 0.0051428 -0.0663485 0.9948572 0.0663485 0.9948572 0.0663485 0.0051428 -0.0663485
261871 0.0048940 -0.0645747 0.9951060 0.0645747 0.9951060 0.0645747 0.0048940 -0.0645747
269174 0.0046579 -0.0628474 0.9953421 0.0628474 0.9953421 0.0628474 0.0046579 -0.0628474
276681 0.0044339 -0.0611657 0.9955661 0.0611657 0.9955661 0.0611657 0.0044339 -0.0611657
284397 0.0042213 -0.0595282 0.9957787 0.0595282 0.9957787 0.0595282 0.0042213 -0.0595282
292328 0.0040196 -0.0579340 0.9959804 0.0579340 0.9959804 0.0579340 0.0040196 -0.0579340
300480 0.0038281 -0.0563818 0.9961719 0.0563818 0.9961719 0.0563818 0.0038281 -0.0563818
308859 0.0036464 -0.0548707 0.9963536 0.0548707 0.9963536 0.0548707 0.0036464 -0.0548707
317472 0.0034739 -0.0533995 0.9965261 0.0533995 0.9965261 0.0533995 0.0034739 -0.0533995
326326 0.0033102 -0.0519674 0.9966898 0.0519674 0.9966898 0.0519674 0.0033102 -0.0519674
335426 0.0031548 -0.0505732 0.9968452 0.0505732 0.9968452 0.0505732 0.0031548 -0.0505732
344780 0.0030073 -0.0492159 0.9969927 0.0492159 0.9969927 0.0492159 0.0030073 -0.0492159
354395 0.0028672 -0.0478947 0.9971328 0.0478947 0.9971328 0.0478947 0.0028672 -0.0478947
364278 0.0027342 -0.0466086 0.9972658 0.0466086 0.9972658 0.0466086 0.0027342 -0.0466086
374436 0.0026079 -0.0453567 0.9973921 0.0453567 0.9973921 0.0453567 0.0026079 -0.0453567
384878 0.0024880 -0.0441381 0.9975120 0.0441381 0.9975120 0.0441381 0.0024880 -0.0441381
395611 0.0023741 -0.0429519 0.9976259 0.0429519 0.9976259 0.0429519 0.0023741 -0.0429519
406644 0.0022659 -0.0417973 0.9977341 0.0417973 0.9977341 0.0417973 0.0022659 -0.0417973
417984 0.0021631 -0.0406734 0.9978369 0.0406734 0.9978369 0.0406734 0.0021631 -0.0406734
429640 0.0020655 -0.0395795 0.9979345 0.0395795 0.9979345 0.0395795 0.0020655 -0.0395795
441622 0.0019728 -0.0385148 0.9980272 0.0385148 0.9980272 0.0385148 0.0019728 -0.0385148
453937 0.0018848 -0.0374784 0.9981152 0.0374784 0.9981152 0.0374784 0.0018848 -0.0374784
466596 0.0018011 -0.0364697 0.9981989 0.0364697 0.9981989 0.0364697 0.0018011 -0.0364697
479608 0.0017216 -0.0354879 0.9982784 0.0354879 0.9982784 0.0354879 0.0017216 -0.0354879
492983 0.0016460 -0.0345322 0.9983540 0.0345322 0.9983540 0.0345322 0.0016460 -0.0345322
506731 0.0015742 -0.0336022 0.9984258 0.0336022 0.9984258 0.0336022 0.0015742 -0.0336022
520862 0.0015060 -0.0326969 0.9984940 0.0326969 0.9984940 0.0326969 0.0015060 -0.0326969
535387 0.0014412 -0.0318158 0.9985588 0.0318158 0.9985588 0.0318158 0.0014412 -0.0318158
550318 0.0013796 -0.0309583 0.9986204 0.0309583 0.9986204 0.0309583 0.0013796 -0.0309583
565664 0.0013210 -0.0301236 0.9986790 0.0301236 0.9986790 0.0301236 0.0013210 -0.0301236
581439 0.0012654 -0.0293113 0.9987346 0.0293113 0.9987346 0.0293113 0.0012654 -0.0293113
597654 0.0012125 -0.0285207 0.9987875 0.0285207 0.9987875 0.0285207 0.0012125 -0.0285207
614320 0.0011622 -0.0277513 0.9988378 0.0277513 0.9988378 0.0277513 0.0011622 -0.0277513
631452 0.0011144 -0.0270024 0.9988856 0.0270024 0.9988856 0.0270024 0.0011144 -0.0270024
649061 0.0010690 -0.0262735 0.9989310 0.0262735 0.9989310 0.0262735 0.0010690 -0.0262735
667162 0.0010258 -0.0255642 0.9989742 0.0255642 0.9989742 0.0255642 0.0010258 -0.0255642
685767 0.0009847 -0.0248738 0.9990153 0.0248738 0.9990153 0.0248738 0.0009847 -0.0248738
704891 0.0009457 -0.0242019 0.9990543 0.0242019 0.9990543 0.0242019 0.0009457 -0.0242019
724548 0.0009086 -0.0235480 0.9990914 0.0235480 0.9990914 0.0235480 0.0009086 -0.0235480
744754 0.0008733 -0.0229116 0.9991267 0.0229116 0.9991267 0.0229116 0.0008733 -0.0229116
765523 0.0008397 -0.0222923 0.9991603 0.0222923 0.9991603 0.0222923 0.0008397 -0.0222923
786871 0.0008078 -0.0216895 0.9991922 0.0216895 0.9991922 0.0216895 0.0008078 -0.0216895
808814 0.0007775 -0.0211028 0.9992225 0.0211028 0.9992225 0.0211028 0.0007775 -0.0211028
831370 0.0007486 -0.0205319 0.9992514 0.0205319 0.9992514 0.0205319 0.0007486 -0.0205319
854554 0.0007211 -0.0199762 0.9992789 0.0199762 0.9992789 0.0199762 0.0007211 -0.0199762
878385 0.0006950 -0.0194355 0.9993050 0.0194355 0.9993050 0.0194355 0.0006950 -0.0194355
902880 0.0006701 -0.0189092 0.9993299 0.0189092 0.9993299 0.0189092 0.0006701 -0.0189092
928059 0.0006464 -0.0183970 0.9993536 0.0183970 0.9993536 0.0183970 0.0006464 -0.0183970
953940 0.0006239 -0.0178985 0.9993761 0.0178985 0.9993761 0.0178985 0.0006239 -0.0178985
980542 0.0006025 -0.0174134 0.9993975 0.0174134 0.9993975 0.0174134 0.0006025 -0.0174134
1007887 0.0005821 -0.0169412 0.9994179 0.0169412 0.9994179 0.0169412 0.0005821 -0.0169412
1035994 0.0005626 -0.0164817 0.9994374 0.0164817 0.9994374 0.0164817 0.0005626 -0.0164817
1064885 0.0005441 -0.0160345 0.9994559 0.0160345 0.9994559 0.0160345 0.0005441 -0.0160345
1094581 0.0005264 -0.0155993 0.9994736 0.0155993 0.9994736 0.0155993 0.0005264 -0.0155993
1125106 0.0005096 -0.0151757 0.9994904 0.0151757 0.9994904 0.0151757 0.0005096 -0.0151757
1156481 0.0004936 -0.0147634 0.9995064 0.0147634 0.9995064 0.0147634 0.0004936 -0.0147634
1188732 0.0004783 -0.0143621 0.9995217 0.0143621 0.9995217 0.0143621 0.0004783 -0.0143621
1221882 0.0004637 -0.0139715 0.9995363 0.0139715 0.9995363 0.0139715 0.0004637 -0.0139715
1255957 0.0004498 -0.0135914 0.9995502 0.0135914 0.9995502 0.0135914 0.0004498 -0.0135914
1290982 0.0004366 -0.0132214 0.9995634 0.0132214 0.9995634 0.0132214 0.0004366 -0.0132214
1326984 0.0004239 -0.0128613 0.9995761 0.0128613 0.9995761 0.0128613 0.0004239 -0.0128613
1363989 0.0004118 -0.0125108 0.9995882 0.0125108 0.9995882 0.0125108 0.0004118 -0.0125108
1402027 0.0004003 -0.0121697 0.9995997 0.0121697 0.9995997 0.0121697 0.0004003 -0.0121697
1441125 0.0003893 -0.0118376 0.9996107 0.0118376 0.9996107 0.0118376 0.0003893 -0.0118376
1481314 0.0003787 -0.0115143 0.9996213 0.0115143 0.9996213 0.0115143 0.0003787 -0.0115143
1522623 0.0003687 -0.0111996 0.9996313 0.0111996 0.9996313 0.0111996 0.0003687 -0.0111996
1565085 0.0003590 -0.0108933 0.9996410 0.0108933 0.9996410 0.0108933 0.0003590 -0.0108933
1608730 0.0003498 -0.0105951 0.9996502 0.0105951 0.9996502 0.0105951 0.0003498 -0.0105951
1653593 0.0003410 -0.0103048 0.9996590 0.0103048 0.9996590 0.0103048 0.0003410 -0.0103048
1699707 0.0003326 -0.0100222 0.9996674 0.0100222 0.9996674 0.0100222 0.0003326 -0.0100222
1747106 0.0003245 -0.0097471 0.9996755 0.0097471 0.9996755 0.0097471 0.0003245 -0.0097471
1795828 0.0003168 -0.0094792 0.9996832 0.0094792 0.9996832 0.0094792 0.0003168 -0.0094792
1845908 0.0003094 -0.0092184 0.9996906 0.0092184 0.9996906 0.0092184 0.0003094 -0.0092184
1897385 0.0003023 -0.0089645 0.9996977 0.0089645 0.9996977 0.0089645 0.0003023 -0.0089645
1950297 0.0002955 -0.0087172 0.9997045 0.0087172 0.9997045 0.0087172 0.0002955 -0.0087172
2004685 0.0002890 -0.0084765 0.9997110 0.0084765 0.9997110 0.0084765 0.0002890 -0.0084765
2060590 0.0002828 -0.0082421 0.9997172 0.0082421 0.9997172 0.0082421 0.0002828 -0.0082421
2118054 0.0002768 -0.0080137 0.9997232 0.0080137 0.9997232 0.0080137 0.0002768 -0.0080137
2177120 0.0002711 -0.0077914 0.9997289 0.0077914 0.9997289 0.0077914 0.0002711 -0.0077914
2237833 0.0002656 -0.0075749 0.9997344 0.0075749 0.9997344 0.0075749 0.0002656 -0.0075749
2300240 0.0002604 -0.0073640 0.9997396 0.0073640 0.9997396 0.0073640 0.0002604 -0.0073640
2364387 0.0002553 -0.0071586 0.9997447 0.0071586 0.9997447 0.0071586 0.0002553 -0.0071586
2430322 0.0002505 -0.0069585 0.9997495 0.0069585 0.9997495 0.0069585 0.0002505 -0.0069585
2498097 0.0002459 -0.0067636 0.9997541 0.0067636 0.9997541 0.0067636 0.0002459 -0.0067636
2567761 0.0002414 -0.0065737 0.9997586 0.0065737 0.9997586 0.0065737 0.0002414 -0.0065737
2639368 0.0002372 -0.0063888 0.9997628 0.0063888 0.9997628 0.0063888 0.0002372 -0.0063888
2712972 0.0002331 -0.0062085 0.9997669 0.0062085 0.9997669 0.0062085 0.0002331 -0.0062085
2788629 0.0002292 -0.0060330 0.9997708 0.0060330 0.9997708 0.0060330 0.0002292 -0.0060330
2866396 0.0002255 -0.0058619 0.9997745 0.0058619 0.9997745 0.0058619 0.0002255 -0.0058619
2946331 0.0002219 -0.0056951 0.9997781 0.0056951 0.9997781 0.0056951 0.0002219 -0.0056951
3028495 0.0002184 -0.0055326 0.9997816 0.0055326 0.9997816 0.0055326 0.0002184 -0.0055326
3112951 0.0002151 -0.0053742 0.9997849 0.0053742 0.9997849 0.0053742 0.0002151 -0.0053742
3199762 0.0002120 -0.0052199 0.9997880 0.0052199 0.9997880 0.0052199 0.0002120 -0.0052199
3288994 0.0002090 -0.0050694 0.9997910 0.0050694 0.9997910 0.0050694 0.0002090 -0.0050694
3380714 0.0002061 -0.0049227 0.9997939 0.0049227 0.9997939 0.0049227 0.0002061 -0.0049227
3474992 0.0002033 -0.0047796 0.9997967 0.0047796 0.9997967 0.0047796 0.0002033 -0.0047796
3571899 0.0002006 -0.0046401 0.9997994 0.0046401 0.9997994 0.0046401 0.0002006 -0.0046401
3671508 0.0001981 -0.0045041 0.9998019 0.0045041 0.9998019 0.0045041 0.0001981 -0.0045041
3773896 0.0001956 -0.0043714 0.9998044 0.0043714 0.9998044 0.0043714 0.0001956 -0.0043714
3879139 0.0001933 -0.0042420 0.9998067 0.0042420 0.9998067 0.0042420 0.0001933 -0.0042420
3987316 0.0001911 -0.0041158 0.9998089 0.0041158 0.9998089 0.0041158 0.0001911 -0.0041158
4098510 0.0001889 -0.0039926 0.9998111 0.0039926 0.9998111 0.0039926 0.0001889 -0.0039926
4212806 0.0001869 -0.0038724 0.9998131 0.0038724 0.9998131 0.0038724 0.0001869 -0.0038724
4330288 0.0001849 -0.0037550 0.9998151 0.0037550 0.9998151 0.0037550 0.0001849 -0.0037550
4451047 0.0001830 -0.0036405 0.9998170 0.0036405 0.9998170 0.0036405 0.0001830 -0.0036405
4575173 0.0001812 -0.0035287 0.9998188 0.0035287 0.9998188 0.0035287 0.0001812 -0.0035287
4702761 0.0001795 -0.0034195 0.9998205 0.0034195 0.9998205 0.0034195 0.0001795 -0.0034195
4833907 0.0001779 -0.0033128 0.9998221 0.0033128 0.9998221 0.0033128 0.0001779 -0.0033128
4968711 0.0001763 -0.0032086 0.9998237 0.0032086 0.9998237 0.0032086 0.0001763 -0.0032086
5107273 0.0001748 -0.0031069 0.9998252 0.0031069 0.9998252 0.0031069 0.0001748 -0.0031069
5249700 0.0001733 -0.0030074 0.9998267 0.0030074 0.9998267 0.0030074 0.0001733 -0.0030074
5396098 0.0001720 -0.0029101 0.9998280 0.0029101 0.9998280 0.0029101 0.0001720 -0.0029101
5546579 0.0001706 -0.0028150 0.9998294 0.0028150 0.9998294 0.0028150 0.0001706 -0.0028150
5701257 0.0001694 -0.0027220 0.9998306 0.0027220 0.9998306 0.0027220 0.0001694 -0.0027220
5860248 0.0001682 -0.0026310 0.9998318 0.0026310 0.9998318 0.0026310 0.0001682 -0.0026310
6023672 0.0001670 -0.0025420 0.9998330 0.0025420 0.9998330 0.0025420 0.0001670 -0.0025420
6191655 0.0001659 -0.0024549 0.9998341 0.0024549 0.9998341 0.0024549 0.0001659 -0.0024549
6364321 0.0001648 -0.0023695 0.9998352 0.0023695 0.9998352 0.0023695 0.0001648 -0.0023695
6541803 0.0001638 -0.0022859 0.9998362 0.0022859 0.9998362 0.0022859 0.0001638 -0.0022859
6724235 0.0001629 -0.0022040 0.9998371 0.0022040 0.9998371 0.0022040 0.0001629 -0.0022040
6911753 0.0001620 -0.0021237 0.9998380 0.0021237 0.9998380 0.0021237 0.0001620 -0.0021237
7104501 0.0001611 -0.0020450 0.9998389 0.0020450 0.9998389 0.0020450 0.0001611 -0.0020450
7302625 0.0001603 -0.0019678 0.9998397 0.0019678 0.9998397 0.0019678 0.0001603 -0.0019678
7506273 0.0001596 -0.0018920 0.9998404 0.0018920 0.9998404 0.0018920 0.0001596 -0.0018920
7715601 0.0001588 -0.0018176 0.9998412 0.0018176 0.9998412 0.0018176 0.0001588 -0.0018176
7930766 0.0001582 -0.0017445 0.9998418 0.0017445 0.9998418 0.0017445 0.0001582 -0.0017445
8151931 0.0001576 -0.0016726 0.9998424 0.0016726 0.9998424 0.0016726 0.0001576 -0.0016726
8379264 0.0001570 -0.0016020 0.9998430 0.0016020 0.9998430 0.0016020 0.0001570 -0.0016020
8612937 0.0001565 -0.0015325 0.9998435 0.0015325 0.9998435 0.0015325 0.0001565 -0.0015325
8853126 0.0001560 -0.0014641 0.9998440 0.0014641 0.9998440 0.0014641 0.0001560 -0.0014641
9100013 0.0001556 -0.0013967 0.9998444 0.0013967 0.9998444 0.0013967 0.0001556 -0.0013967
9353785 0.0001553 -0.0013303 0.9998447 0.0013303 0.9998447 0.0013303 0.0001553 -0.0013303
9614634 0.0001550 -0.0012648 0.9998450 0.0012648 0.9998450 0.0012648 0.0001550 -0.0012648
9882758 0.0001548 -0.0012003 0.9998452 0.0012003 0.9998452 0.0012003 0.0001548 -0.0012003
10158358 0.0001547 -0.0011365 0.9998453 0.0011365 0.9998453 0.0011365 0.0001547 -0.0011365
10441645 0.0001546 -0.0010735 0.9998454 0.0010735 0.9998454 0.0010735 0.0001546 -0.0010735
10732831 0.0001546 -0.0010112 0.9998454 0.0010112 0.9998454 0.0010112 0.0001546 -0.0010112
11032137 0.0001547 -0.0009495 0.9998453 0.0009495 0.9998453 0.0009495 0.0001547 -0.0009495
11339791 0.0001549 -0.0008885 0.9998451 0.0008885 0.9998451 0.0008885 0.0001549 -0.0008885
11656024 0.0001552 -0.0008280 0.9998448 0.0008280 0.9998448 0.0008280 0.0001552 -0.0008280
11981075 0.0001557 -0.0007680 0.9998443 0.0007680 0.9998443 0.0007680 0.0001557 -0.0007680
12315192 0.0001562 -0.0007085 0.9998438 0.0007085 0.9998438 0.0007085 0.0001562 -0.0007085
12658625 0.0001569 -0.0006494 0.9998431 0.0006494 0.9998431 0.0006494 0.0001569 -0.0006494
13011637 0.0001577 -0.0005906 0.9998423 0.0005906 0.9998423 0.0005906 0.0001577 -0.0005906
13374492 0.0001586 -0.0005321 0.9998414 0.0005321 0.9998414 0.0005321 0.0001586 -0.0005321
13747467 0.0001598 -0.0004738 0.9998402 0.0004738 0.9998402 0.0004738 0.0001598 -0.0004738
14130843 0.0001611 -0.0004157 0.9998389 0.0004157 0.9998389 0.0004157 0.0001611 -0.0004157
14524910 0.0001626 -0.0003578 0.9998374 0.0003578 0.9998374 0.0003578 0.0001626 -0.0003578
14929966 0.0001643 -0.0002999 0.9998357 0.0002999 0.9998357 0.0002999 0.0001643 -0.0002999
15346318 0.0001663 -0.0002420 0.9998337 0.0002420 0.9998337 0.0002420 0.0001663 -0.0002420
15774281 0.0001686 -0.0001840 0.9998314 0.0001840 0.9998314 0.0001840 0.0001686 -0.0001840
16214179 0.0001711 -0.0001260 0.9998289 0.0001260 0.9998289 0.0001260 0.0001711 -0.0001260
16666344 0.0001739 -0.0000677 0.9998261 0.0000677 0.9998261 0.0000677 0.0001739 -0.0000677
17131118 0.0001771 -0.0000093 0.9998229 0.0000093 0.9998229 0.0000093 0.0001771 -0.0000093
17608854 0.0001807 0.0000495 0.9998193 -0.0000495 0.9998193 -0.0000495 0.0001807 0.0000495
18099912 0.0001847 0.0001087 0.9998153 -0.0001087 0.9998153 -0.0001087 0.0001847 0.0001087
18604665 0.0001892 0.0001684 0.9998108 -0.0001684 0.9998108 -0.0001684 0.0001892 0.0001684
19123493 0.0001942 0.0002286 0.9998058 -0.0002286 0.9998058 -0.0002286 0.0001942 0.0002286
19656790 0.0001998 0.0002894 0.9998002 -0.0002894 0.9998002 -0.0002894 0.0001998 0.0002894
20204959 0.0002061 0.0003510 0.9997939 -0.0003510 0.9997939 -0.0003510 0.0002061 0.0003510
20768415 0.0002131 0.0004133 0.9997869 -0.0004133 0.9997869 -0.0004133 0.0002131 0.0004133
21347584 0.0002210 0.0004767 0.9997790 -0.0004767 0.9997790 -0.0004767 0.0002210 0.0004767
21942904 0.0002299 0.0005410 0.9997701 -0.0005410 0.9997701 -0.0005410 0.0002299 0.0005410
22554827 0.0002400 0.0006066 0.9997600 -0.0006066 0.9997600 -0.0006066 0.0002400 0.0006066
23183813 0.0002514 0.0006735 0.9997486 -0.0006735 0.9997486 -0.0006735 0.0002514 0.0006735
23830340 0.0002643 0.0007418 0.9997357 -0.0007418 0.9997357 -0.0007418 0.0002643 0.0007418
24494897 0.0002792 0.0008118 0.9997208 -0.0008118 0.9997208 -0.0008118 0.0002792 0.0008118
25177987 0.0002962 0.0008836 0.9997038 -0.0008836 0.9997038 -0.0008836 0.0002962 0.0008836
25880126 0.0003160 0.0009574 0.9996840 -0.0009574 0.9996840 -0.0009574 0.0003160 0.0009574
26601845 0.0003391 0.0010332 0.9996609 -0.0010332 0.9996609 -0.0010332 0.0003391 0.0010332
27343691 0.0003663 0.0011113 0.9996337 -0.0011113 0.9996337 -0.0011113 0.0003663 0.0011113
28106225 0.0003986 0.0011916 0.9996014 -0.0011916 0.9996014 -0.0011916 0.0003986 0.0011916
28890023 0.0004374 0.0012741 0.9995626 -0.0012741 0.9995626 -0.0012741 0.0004374 0.0012741
29695680 0.0004844 0.0013582 0.9995156 -0.0013582 0.9995156 -0.0013582 0.0004844 0.0013582
30523804 0.0005418 0.0014431 0.9994582 -0.0014431 0.9994582 -0.0014431 0.0005418 0.0014431
31375021 0.0006124 0.0015265 0.9993876 -0.0015265 0.9993876 -0.0015265 0.0006124 0.0015265
32249977 0.0006994 0.0016049 0.9993006 -0.0016049 0.9993006 -0.0016049 0.0006994 0.0016049
33149332 0.0008055 0.0016720 0.9991945 -0.0016720 0.9991945 -0.0016720 0.0008055 0.0016720
34073768 0.0009315 0.0017174 0.9990685 -0.0017174 0.9990685 -0.0017174 0.0009315 0.0017174
35023984 0.0010725 0.0017275 0.9989275 -0.0017275 0.9989275 -0.0017275 0.0010725 0.0017275
36000698 0.0012126 0.0016881 0.9987874 -0.0016881 0.9987874 -0.0016881 0.0012126 0.0016881
37004650 0.0013235 0.0015949 0.9986765 -0.0015949 0.9986765 -0.0015949 0.0013235 0.0015949
38036599 0.0013736 0.0014659 0.9986264 -0.0014659 0.9986264 -0.0014659 0.0013736 0.0014659
39097326 0.0013494 0.0013400 0.9986506 -0.0013400 0.9986506 -0.0013400 0.0013494 0.0013400
