!Murata Part Number: GRM43DR72E474KW01
!These Parameters are Measured in Series Mode Connection
!Data Generated on Mar 30, 2021
!       o--ll--o
!Port1            Port2
!       o------o
!Operation Temp=25[degC], DC Bias Voltage=0[V]
!Freq. Start=100[kHz] Stop=6[GHz] 401[Steps]
# Hz S RI R 50
!Freq.(Hz) S11(Real) S11(Imag) S21(Real) S21(Imag) S12(Real) S12(Imag) S22(Real) S22(Imag)
100000 0.0016865 -0.0361852 0.9983135 0.0361852 0.9983135 0.0361852 0.0016865 -0.0361852
102789 0.0016094 -0.0352124 0.9983906 0.0352124 0.9983906 0.0352124 0.0016094 -0.0352124
105655 0.0015361 -0.0342655 0.9984639 0.0342655 0.9984639 0.0342655 0.0015361 -0.0342655
108602 0.0014664 -0.0333440 0.9985336 0.0333440 0.9985336 0.0333440 0.0014664 -0.0333440
111630 0.0014001 -0.0324470 0.9985999 0.0324470 0.9985999 0.0324470 0.0014001 -0.0324470
114743 0.0013370 -0.0315740 0.9986630 0.0315740 0.9986630 0.0315740 0.0013370 -0.0315740
117943 0.0012771 -0.0307242 0.9987229 0.0307242 0.9987229 0.0307242 0.0012771 -0.0307242
121232 0.0012201 -0.0298972 0.9987799 0.0298972 0.9987799 0.0298972 0.0012201 -0.0298972
124613 0.0011659 -0.0290923 0.9988341 0.0290923 0.9988341 0.0290923 0.0011659 -0.0290923
128088 0.0011144 -0.0283089 0.9988856 0.0283089 0.9988856 0.0283089 0.0011144 -0.0283089
131660 0.0010654 -0.0275464 0.9989346 0.0275464 0.9989346 0.0275464 0.0010654 -0.0275464
135332 0.0010188 -0.0268043 0.9989812 0.0268043 0.9989812 0.0268043 0.0010188 -0.0268043
139106 0.0009745 -0.0260821 0.9990255 0.0260821 0.9990255 0.0260821 0.0009745 -0.0260821
142985 0.0009324 -0.0253792 0.9990676 0.0253792 0.9990676 0.0253792 0.0009324 -0.0253792
146972 0.0008923 -0.0246951 0.9991077 0.0246951 0.9991077 0.0246951 0.0008923 -0.0246951
151071 0.0008543 -0.0240293 0.9991457 0.0240293 0.9991457 0.0240293 0.0008543 -0.0240293
155284 0.0008181 -0.0233813 0.9991819 0.0233813 0.9991819 0.0233813 0.0008181 -0.0233813
159614 0.0007837 -0.0227507 0.9992163 0.0227507 0.9992163 0.0227507 0.0007837 -0.0227507
164065 0.0007510 -0.0221370 0.9992490 0.0221370 0.9992490 0.0221370 0.0007510 -0.0221370
168641 0.0007200 -0.0215398 0.9992800 0.0215398 0.9992800 0.0215398 0.0007200 -0.0215398
173344 0.0006905 -0.0209586 0.9993095 0.0209586 0.9993095 0.0209586 0.0006905 -0.0209586
178178 0.0006624 -0.0203929 0.9993376 0.0203929 0.9993376 0.0203929 0.0006624 -0.0203929
183146 0.0006357 -0.0198424 0.9993643 0.0198424 0.9993643 0.0198424 0.0006357 -0.0198424
188254 0.0006104 -0.0193068 0.9993896 0.0193068 0.9993896 0.0193068 0.0006104 -0.0193068
193504 0.0005863 -0.0187854 0.9994137 0.0187854 0.9994137 0.0187854 0.0005863 -0.0187854
198900 0.0005634 -0.0182781 0.9994366 0.0182781 0.9994366 0.0182781 0.0005634 -0.0182781
204447 0.0005416 -0.0177845 0.9994584 0.0177845 0.9994584 0.0177845 0.0005416 -0.0177845
210148 0.0005210 -0.0173040 0.9994790 0.0173040 0.9994790 0.0173040 0.0005210 -0.0173040
216008 0.0005013 -0.0168366 0.9994987 0.0168366 0.9994987 0.0168366 0.0005013 -0.0168366
222032 0.0004826 -0.0163816 0.9995174 0.0163816 0.9995174 0.0163816 0.0004826 -0.0163816
228224 0.0004649 -0.0159389 0.9995351 0.0159389 0.9995351 0.0159389 0.0004649 -0.0159389
234589 0.0004480 -0.0155082 0.9995520 0.0155082 0.9995520 0.0155082 0.0004480 -0.0155082
241130 0.0004320 -0.0150890 0.9995680 0.0150890 0.9995680 0.0150890 0.0004320 -0.0150890
247855 0.0004167 -0.0146811 0.9995833 0.0146811 0.9995833 0.0146811 0.0004167 -0.0146811
254767 0.0004022 -0.0142841 0.9995978 0.0142841 0.9995978 0.0142841 0.0004022 -0.0142841
261871 0.0003884 -0.0138979 0.9996116 0.0138979 0.9996116 0.0138979 0.0003884 -0.0138979
269174 0.0003753 -0.0135221 0.9996247 0.0135221 0.9996247 0.0135221 0.0003753 -0.0135221
276681 0.0003628 -0.0131564 0.9996372 0.0131564 0.9996372 0.0131564 0.0003628 -0.0131564
284397 0.0003509 -0.0128005 0.9996491 0.0128005 0.9996491 0.0128005 0.0003509 -0.0128005
292328 0.0003396 -0.0124542 0.9996604 0.0124542 0.9996604 0.0124542 0.0003396 -0.0124542
300480 0.0003289 -0.0121173 0.9996711 0.0121173 0.9996711 0.0121173 0.0003289 -0.0121173
308859 0.0003186 -0.0117894 0.9996814 0.0117894 0.9996814 0.0117894 0.0003186 -0.0117894
317472 0.0003089 -0.0114704 0.9996911 0.0114704 0.9996911 0.0114704 0.0003089 -0.0114704
326326 0.0002996 -0.0111600 0.9997004 0.0111600 0.9997004 0.0111600 0.0002996 -0.0111600
335426 0.0002907 -0.0108579 0.9997093 0.0108579 0.9997093 0.0108579 0.0002907 -0.0108579
344780 0.0002822 -0.0105640 0.9997178 0.0105640 0.9997178 0.0105640 0.0002822 -0.0105640
354395 0.0002742 -0.0102780 0.9997258 0.0102780 0.9997258 0.0102780 0.0002742 -0.0102780
364278 0.0002665 -0.0099997 0.9997335 0.0099997 0.9997335 0.0099997 0.0002665 -0.0099997
374436 0.0002591 -0.0097289 0.9997409 0.0097289 0.9997409 0.0097289 0.0002591 -0.0097289
384878 0.0002521 -0.0094653 0.9997479 0.0094653 0.9997479 0.0094653 0.0002521 -0.0094653
395611 0.0002454 -0.0092089 0.9997546 0.0092089 0.9997546 0.0092089 0.0002454 -0.0092089
406644 0.0002390 -0.0089594 0.9997610 0.0089594 0.9997610 0.0089594 0.0002390 -0.0089594
417984 0.0002328 -0.0087166 0.9997672 0.0087166 0.9997672 0.0087166 0.0002328 -0.0087166
429640 0.0002270 -0.0084803 0.9997730 0.0084803 0.9997730 0.0084803 0.0002270 -0.0084803
441622 0.0002213 -0.0082504 0.9997787 0.0082504 0.9997787 0.0082504 0.0002213 -0.0082504
453937 0.0002159 -0.0080266 0.9997841 0.0080266 0.9997841 0.0080266 0.0002159 -0.0080266
466596 0.0002108 -0.0078089 0.9997892 0.0078089 0.9997892 0.0078089 0.0002108 -0.0078089
479608 0.0002058 -0.0075970 0.9997942 0.0075970 0.9997942 0.0075970 0.0002058 -0.0075970
492983 0.0002010 -0.0073907 0.9997990 0.0073907 0.9997990 0.0073907 0.0002010 -0.0073907
506731 0.0001965 -0.0071901 0.9998035 0.0071901 0.9998035 0.0071901 0.0001965 -0.0071901
520862 0.0001921 -0.0069948 0.9998079 0.0069948 0.9998079 0.0069948 0.0001921 -0.0069948
535387 0.0001879 -0.0068047 0.9998121 0.0068047 0.9998121 0.0068047 0.0001879 -0.0068047
550318 0.0001838 -0.0066197 0.9998162 0.0066197 0.9998162 0.0066197 0.0001838 -0.0066197
565664 0.0001799 -0.0064396 0.9998201 0.0064396 0.9998201 0.0064396 0.0001799 -0.0064396
581439 0.0001761 -0.0062644 0.9998239 0.0062644 0.9998239 0.0062644 0.0001761 -0.0062644
597654 0.0001725 -0.0060938 0.9998275 0.0060938 0.9998275 0.0060938 0.0001725 -0.0060938
614320 0.0001690 -0.0059278 0.9998310 0.0059278 0.9998310 0.0059278 0.0001690 -0.0059278
631452 0.0001656 -0.0057662 0.9998344 0.0057662 0.9998344 0.0057662 0.0001656 -0.0057662
649061 0.0001624 -0.0056089 0.9998376 0.0056089 0.9998376 0.0056089 0.0001624 -0.0056089
667162 0.0001593 -0.0054558 0.9998407 0.0054558 0.9998407 0.0054558 0.0001593 -0.0054558
685767 0.0001562 -0.0053068 0.9998438 0.0053068 0.9998438 0.0053068 0.0001562 -0.0053068
704891 0.0001533 -0.0051617 0.9998467 0.0051617 0.9998467 0.0051617 0.0001533 -0.0051617
724548 0.0001505 -0.0050204 0.9998495 0.0050204 0.9998495 0.0050204 0.0001505 -0.0050204
744754 0.0001478 -0.0048829 0.9998522 0.0048829 0.9998522 0.0048829 0.0001478 -0.0048829
765523 0.0001452 -0.0047490 0.9998548 0.0047490 0.9998548 0.0047490 0.0001452 -0.0047490
786871 0.0001427 -0.0046187 0.9998573 0.0046187 0.9998573 0.0046187 0.0001427 -0.0046187
808814 0.0001402 -0.0044918 0.9998598 0.0044918 0.9998598 0.0044918 0.0001402 -0.0044918
831370 0.0001379 -0.0043682 0.9998621 0.0043682 0.9998621 0.0043682 0.0001379 -0.0043682
854554 0.0001356 -0.0042479 0.9998644 0.0042479 0.9998644 0.0042479 0.0001356 -0.0042479
878385 0.0001334 -0.0041307 0.9998666 0.0041307 0.9998666 0.0041307 0.0001334 -0.0041307
902880 0.0001313 -0.0040166 0.9998687 0.0040166 0.9998687 0.0040166 0.0001313 -0.0040166
928059 0.0001292 -0.0039055 0.9998708 0.0039055 0.9998708 0.0039055 0.0001292 -0.0039055
953940 0.0001273 -0.0037973 0.9998727 0.0037973 0.9998727 0.0037973 0.0001273 -0.0037973
980542 0.0001254 -0.0036919 0.9998746 0.0036919 0.9998746 0.0036919 0.0001254 -0.0036919
1007887 0.0001235 -0.0035893 0.9998765 0.0035893 0.9998765 0.0035893 0.0001235 -0.0035893
1035994 0.0001218 -0.0034893 0.9998782 0.0034893 0.9998782 0.0034893 0.0001218 -0.0034893
1064885 0.0001201 -0.0033919 0.9998799 0.0033919 0.9998799 0.0033919 0.0001201 -0.0033919
1094581 0.0001184 -0.0032971 0.9998816 0.0032971 0.9998816 0.0032971 0.0001184 -0.0032971
1125106 0.0001168 -0.0032047 0.9998832 0.0032047 0.9998832 0.0032047 0.0001168 -0.0032047
1156481 0.0001153 -0.0031146 0.9998847 0.0031146 0.9998847 0.0031146 0.0001153 -0.0031146
1188732 0.0001139 -0.0030269 0.9998861 0.0030269 0.9998861 0.0030269 0.0001139 -0.0030269
1221882 0.0001125 -0.0029415 0.9998875 0.0029415 0.9998875 0.0029415 0.0001125 -0.0029415
1255957 0.0001111 -0.0028582 0.9998889 0.0028582 0.9998889 0.0028582 0.0001111 -0.0028582
1290982 0.0001098 -0.0027770 0.9998902 0.0027770 0.9998902 0.0027770 0.0001098 -0.0027770
1326984 0.0001086 -0.0026980 0.9998914 0.0026980 0.9998914 0.0026980 0.0001086 -0.0026980
1363989 0.0001074 -0.0026209 0.9998926 0.0026209 0.9998926 0.0026209 0.0001074 -0.0026209
1402027 0.0001062 -0.0025458 0.9998938 0.0025458 0.9998938 0.0025458 0.0001062 -0.0025458
1441125 0.0001051 -0.0024725 0.9998949 0.0024725 0.9998949 0.0024725 0.0001051 -0.0024725
1481314 0.0001041 -0.0024012 0.9998959 0.0024012 0.9998959 0.0024012 0.0001041 -0.0024012
1522623 0.0001030 -0.0023316 0.9998970 0.0023316 0.9998970 0.0023316 0.0001030 -0.0023316
1565085 0.0001021 -0.0022637 0.9998979 0.0022637 0.9998979 0.0022637 0.0001021 -0.0022637
1608730 0.0001011 -0.0021975 0.9998989 0.0021975 0.9998989 0.0021975 0.0001011 -0.0021975
1653593 0.0001003 -0.0021330 0.9998997 0.0021330 0.9998997 0.0021330 0.0001003 -0.0021330
1699707 0.0000994 -0.0020700 0.9999006 0.0020700 0.9999006 0.0020700 0.0000994 -0.0020700
1747106 0.0000986 -0.0020086 0.9999014 0.0020086 0.9999014 0.0020086 0.0000986 -0.0020086
1795828 0.0000978 -0.0019487 0.9999022 0.0019487 0.9999022 0.0019487 0.0000978 -0.0019487
1845908 0.0000971 -0.0018902 0.9999029 0.0018902 0.9999029 0.0018902 0.0000971 -0.0018902
1897385 0.0000964 -0.0018332 0.9999036 0.0018332 0.9999036 0.0018332 0.0000964 -0.0018332
1950297 0.0000957 -0.0017775 0.9999043 0.0017775 0.9999043 0.0017775 0.0000957 -0.0017775
2004685 0.0000951 -0.0017231 0.9999049 0.0017231 0.9999049 0.0017231 0.0000951 -0.0017231
2060590 0.0000945 -0.0016701 0.9999055 0.0016701 0.9999055 0.0016701 0.0000945 -0.0016701
2118054 0.0000939 -0.0016182 0.9999061 0.0016182 0.9999061 0.0016182 0.0000939 -0.0016182
2177120 0.0000933 -0.0015676 0.9999067 0.0015676 0.9999067 0.0015676 0.0000933 -0.0015676
2237833 0.0000928 -0.0015182 0.9999072 0.0015182 0.9999072 0.0015182 0.0000928 -0.0015182
2300240 0.0000923 -0.0014698 0.9999077 0.0014698 0.9999077 0.0014698 0.0000923 -0.0014698
2364387 0.0000918 -0.0014226 0.9999082 0.0014226 0.9999082 0.0014226 0.0000918 -0.0014226
2430322 0.0000914 -0.0013764 0.9999086 0.0013764 0.9999086 0.0013764 0.0000914 -0.0013764
2498097 0.0000910 -0.0013313 0.9999090 0.0013313 0.9999090 0.0013313 0.0000910 -0.0013313
2567761 0.0000906 -0.0012871 0.9999094 0.0012871 0.9999094 0.0012871 0.0000906 -0.0012871
2639368 0.0000903 -0.0012439 0.9999097 0.0012439 0.9999097 0.0012439 0.0000903 -0.0012439
2712972 0.0000899 -0.0012017 0.9999101 0.0012017 0.9999101 0.0012017 0.0000899 -0.0012017
2788629 0.0000896 -0.0011603 0.9999104 0.0011603 0.9999104 0.0011603 0.0000896 -0.0011603
2866396 0.0000893 -0.0011198 0.9999107 0.0011198 0.9999107 0.0011198 0.0000893 -0.0011198
2946331 0.0000891 -0.0010801 0.9999109 0.0010801 0.9999109 0.0010801 0.0000891 -0.0010801
3028495 0.0000888 -0.0010412 0.9999112 0.0010412 0.9999112 0.0010412 0.0000888 -0.0010412
3112951 0.0000886 -0.0010031 0.9999114 0.0010031 0.9999114 0.0010031 0.0000886 -0.0010031
3199762 0.0000885 -0.0009657 0.9999115 0.0009657 0.9999115 0.0009657 0.0000885 -0.0009657
3288994 0.0000883 -0.0009290 0.9999117 0.0009290 0.9999117 0.0009290 0.0000883 -0.0009290
3380714 0.0000882 -0.0008930 0.9999118 0.0008930 0.9999118 0.0008930 0.0000882 -0.0008930
3474992 0.0000881 -0.0008577 0.9999119 0.0008577 0.9999119 0.0008577 0.0000881 -0.0008577
3571899 0.0000880 -0.0008230 0.9999120 0.0008230 0.9999120 0.0008230 0.0000880 -0.0008230
3671508 0.0000880 -0.0007889 0.9999120 0.0007889 0.9999120 0.0007889 0.0000880 -0.0007889
3773896 0.0000880 -0.0007554 0.9999120 0.0007554 0.9999120 0.0007554 0.0000880 -0.0007554
3879139 0.0000880 -0.0007224 0.9999120 0.0007224 0.9999120 0.0007224 0.0000880 -0.0007224
3987316 0.0000881 -0.0006900 0.9999119 0.0006900 0.9999119 0.0006900 0.0000881 -0.0006900
4098510 0.0000882 -0.0006580 0.9999118 0.0006580 0.9999118 0.0006580 0.0000882 -0.0006580
4212806 0.0000883 -0.0006266 0.9999117 0.0006266 0.9999117 0.0006266 0.0000883 -0.0006266
4330288 0.0000885 -0.0005956 0.9999115 0.0005956 0.9999115 0.0005956 0.0000885 -0.0005956
4451047 0.0000888 -0.0005650 0.9999112 0.0005650 0.9999112 0.0005650 0.0000888 -0.0005650
4575173 0.0000890 -0.0005348 0.9999110 0.0005348 0.9999110 0.0005348 0.0000890 -0.0005348
4702761 0.0000893 -0.0005050 0.9999107 0.0005050 0.9999107 0.0005050 0.0000893 -0.0005050
4833907 0.0000897 -0.0004756 0.9999103 0.0004756 0.9999103 0.0004756 0.0000897 -0.0004756
4968711 0.0000901 -0.0004465 0.9999099 0.0004465 0.9999099 0.0004465 0.0000901 -0.0004465
5107273 0.0000906 -0.0004177 0.9999094 0.0004177 0.9999094 0.0004177 0.0000906 -0.0004177
5249700 0.0000911 -0.0003891 0.9999089 0.0003891 0.9999089 0.0003891 0.0000911 -0.0003891
5396098 0.0000917 -0.0003609 0.9999083 0.0003609 0.9999083 0.0003609 0.0000917 -0.0003609
5546579 0.0000924 -0.0003329 0.9999076 0.0003329 0.9999076 0.0003329 0.0000924 -0.0003329
5701257 0.0000931 -0.0003051 0.9999069 0.0003051 0.9999069 0.0003051 0.0000931 -0.0003051
5860248 0.0000939 -0.0002775 0.9999061 0.0002775 0.9999061 0.0002775 0.0000939 -0.0002775
6023672 0.0000948 -0.0002501 0.9999052 0.0002501 0.9999052 0.0002501 0.0000948 -0.0002501
6191655 0.0000957 -0.0002229 0.9999043 0.0002229 0.9999043 0.0002229 0.0000957 -0.0002229
6364321 0.0000968 -0.0001957 0.9999032 0.0001957 0.9999032 0.0001957 0.0000968 -0.0001957
6541803 0.0000980 -0.0001687 0.9999020 0.0001687 0.9999020 0.0001687 0.0000980 -0.0001687
6724235 0.0000992 -0.0001418 0.9999008 0.0001418 0.9999008 0.0001418 0.0000992 -0.0001418
6911753 0.0001006 -0.0001149 0.9998994 0.0001149 0.9998994 0.0001149 0.0001006 -0.0001149
7104501 0.0001021 -0.0000881 0.9998979 0.0000881 0.9998979 0.0000881 0.0001021 -0.0000881
7302625 0.0001037 -0.0000612 0.9998963 0.0000612 0.9998963 0.0000612 0.0001037 -0.0000612
7506273 0.0001055 -0.0000344 0.9998945 0.0000344 0.9998945 0.0000344 0.0001055 -0.0000344
7715601 0.0001074 -0.0000075 0.9998926 0.0000075 0.9998926 0.0000075 0.0001074 -0.0000075
7930766 0.0001095 0.0000194 0.9998905 -0.0000194 0.9998905 -0.0000194 0.0001095 0.0000194
8151931 0.0001118 0.0000464 0.9998882 -0.0000464 0.9998882 -0.0000464 0.0001118 0.0000464
8379264 0.0001143 0.0000736 0.9998857 -0.0000736 0.9998857 -0.0000736 0.0001143 0.0000736
8612937 0.0001170 0.0001009 0.9998830 -0.0001009 0.9998830 -0.0001009 0.0001170 0.0001009
8853126 0.0001199 0.0001283 0.9998801 -0.0001283 0.9998801 -0.0001283 0.0001199 0.0001283
9100013 0.0001231 0.0001560 0.9998769 -0.0001560 0.9998769 -0.0001560 0.0001231 0.0001560
9353785 0.0001267 0.0001839 0.9998733 -0.0001839 0.9998733 -0.0001839 0.0001267 0.0001839
9614634 0.0001305 0.0002121 0.9998695 -0.0002121 0.9998695 -0.0002121 0.0001305 0.0002121
9882758 0.0001347 0.0002406 0.9998653 -0.0002406 0.9998653 -0.0002406 0.0001347 0.0002406
10158358 0.0001394 0.0002694 0.9998606 -0.0002694 0.9998606 -0.0002694 0.0001394 0.0002694
10441645 0.0001446 0.0002986 0.9998554 -0.0002986 0.9998554 -0.0002986 0.0001446 0.0002986
10732831 0.0001503 0.0003283 0.9998497 -0.0003283 0.9998497 -0.0003283 0.0001503 0.0003283
11032137 0.0001567 0.0003584 0.9998433 -0.0003584 0.9998433 -0.0003584 0.0001567 0.0003584
11339791 0.0001638 0.0003890 0.9998362 -0.0003890 0.9998362 -0.0003890 0.0001638 0.0003890
11656024 0.0001719 0.0004201 0.9998281 -0.0004201 0.9998281 -0.0004201 0.0001719 0.0004201
11981075 0.0001811 0.0004517 0.9998189 -0.0004517 0.9998189 -0.0004517 0.0001811 0.0004517
12315192 0.0001916 0.0004839 0.9998084 -0.0004839 0.9998084 -0.0004839 0.0001916 0.0004839
12658625 0.0002037 0.0005165 0.9997963 -0.0005165 0.9997963 -0.0005165 0.0002037 0.0005165
13011637 0.0002178 0.0005496 0.9997822 -0.0005496 0.9997822 -0.0005496 0.0002178 0.0005496
13374492 0.0002342 0.0005827 0.9997658 -0.0005827 0.9997658 -0.0005827 0.0002342 0.0005827
13747467 0.0002535 0.0006157 0.9997465 -0.0006157 0.9997465 -0.0006157 0.0002535 0.0006157
14130843 0.0002763 0.0006476 0.9997237 -0.0006476 0.9997237 -0.0006476 0.0002763 0.0006476
14524910 0.0003031 0.0006776 0.9996969 -0.0006776 0.9996969 -0.0006776 0.0003031 0.0006776
14929966 0.0003339 0.0007038 0.9996661 -0.0007038 0.9996661 -0.0007038 0.0003339 0.0007038
15346318 0.0003683 0.0007239 0.9996317 -0.0007239 0.9996317 -0.0007239 0.0003683 0.0007239
15774281 0.0004043 0.0007355 0.9995957 -0.0007355 0.9995957 -0.0007355 0.0004043 0.0007355
16214179 0.0004377 0.0007368 0.9995623 -0.0007368 0.9995623 -0.0007368 0.0004377 0.0007368
16666344 0.0004632 0.0007287 0.9995368 -0.0007287 0.9995368 -0.0007287 0.0004632 0.0007287
17131118 0.0004759 0.0007159 0.9995241 -0.0007159 0.9995241 -0.0007159 0.0004759 0.0007159
17608854 0.0004750 0.0007053 0.9995250 -0.0007053 0.9995250 -0.0007053 0.0004750 0.0007053
18099912 0.0004639 0.0007030 0.9995361 -0.0007030 0.9995361 -0.0007030 0.0004639 0.0007030
18604665 0.0004482 0.0007114 0.9995518 -0.0007114 0.9995518 -0.0007114 0.0004482 0.0007114
19123493 0.0004329 0.0007298 0.9995671 -0.0007298 0.9995671 -0.0007298 0.0004329 0.0007298
19656790 0.0004209 0.0007555 0.9995791 -0.0007555 0.9995791 -0.0007555 0.0004209 0.0007555
20204959 0.0004135 0.0007861 0.9995865 -0.0007861 0.9995865 -0.0007861 0.0004135 0.0007861
20768415 0.0004107 0.0008194 0.9995893 -0.0008194 0.9995893 -0.0008194 0.0004107 0.0008194
21347584 0.0004122 0.0008538 0.9995878 -0.0008538 0.9995878 -0.0008538 0.0004122 0.0008538
21942904 0.0004175 0.0008885 0.9995825 -0.0008885 0.9995825 -0.0008885 0.0004175 0.0008885
22554827 0.0004259 0.0009225 0.9995741 -0.0009225 0.9995741 -0.0009225 0.0004259 0.0009225
23183813 0.0004370 0.0009555 0.9995630 -0.0009555 0.9995630 -0.0009555 0.0004370 0.0009555
23830340 0.0004501 0.0009869 0.9995499 -0.0009869 0.9995499 -0.0009869 0.0004501 0.0009869
24494897 0.0004648 0.0010165 0.9995352 -0.0010165 0.9995352 -0.0010165 0.0004648 0.0010165
25177987 0.0004804 0.0010441 0.9995196 -0.0010441 0.9995196 -0.0010441 0.0004804 0.0010441
25880126 0.0004964 0.0010694 0.9995036 -0.0010694 0.9995036 -0.0010694 0.0004964 0.0010694
26601845 0.0005120 0.0010926 0.9994880 -0.0010926 0.9994880 -0.0010926 0.0005120 0.0010926
27343691 0.0005267 0.0011138 0.9994733 -0.0011138 0.9994733 -0.0011138 0.0005267 0.0011138
28106225 0.0005397 0.0011332 0.9994603 -0.0011332 0.9994603 -0.0011332 0.0005397 0.0011332
28890023 0.0005506 0.0011513 0.9994494 -0.0011513 0.9994494 -0.0011513 0.0005506 0.0011513
29695680 0.0005589 0.0011689 0.9994411 -0.0011689 0.9994411 -0.0011689 0.0005589 0.0011689
30523804 0.0005643 0.0011865 0.9994357 -0.0011865 0.9994357 -0.0011865 0.0005643 0.0011865
31375021 0.0005669 0.0012049 0.9994331 -0.0012049 0.9994331 -0.0012049 0.0005669 0.0012049
32249977 0.0005669 0.0012249 0.9994331 -0.0012249 0.9994331 -0.0012249 0.0005669 0.0012249
33149332 0.0005646 0.0012470 0.9994354 -0.0012470 0.9994354 -0.0012470 0.0005646 0.0012470
34073768 0.0005605 0.0012717 0.9994395 -0.0012717 0.9994395 -0.0012717 0.0005605 0.0012717
35023984 0.0005552 0.0012992 0.9994448 -0.0012992 0.9994448 -0.0012992 0.0005552 0.0012992
36000698 0.0005491 0.0013295 0.9994509 -0.0013295 0.9994509 -0.0013295 0.0005491 0.0013295
37004650 0.0005427 0.0013628 0.9994573 -0.0013628 0.9994573 -0.0013628 0.0005427 0.0013628
38036599 0.0005365 0.0013988 0.9994635 -0.0013988 0.9994635 -0.0013988 0.0005365 0.0013988
39097326 0.0005307 0.0014374 0.9994693 -0.0014374 0.9994693 -0.0014374 0.0005307 0.0014374
