!Murata Part Number: GRM43ER61H475KA88
!These Parameters are Measured in Series Mode Connection
!Data Generated on Mar 30, 2021
!       o--ll--o
!Port1            Port2
!       o------o
!Operation Temp=25[degC], DC Bias Voltage=0[V]
!Freq. Start=100[Hz] Stop=6[GHz] 401[Steps]
# Hz S RI R 50
!Freq.(Hz) S11(Real) S11(Imag) S21(Real) S21(Imag) S12(Real) S12(Imag) S22(Real) S22(Imag)
100 0.9240545 -0.2623794 0.0759455 0.2623794 0.0759455 0.2623794 0.9240545 -0.2623794
105 0.9176086 -0.2724309 0.0823914 0.2724309 0.0823914 0.2724309 0.9176086 -0.2724309
109 0.9106650 -0.2826978 0.0893350 0.2826978 0.0893350 0.2826978 0.9106650 -0.2826978
114 0.9031945 -0.2931620 0.0968055 0.2931620 0.0968055 0.2931620 0.9031945 -0.2931620
120 0.8951679 -0.3038023 0.1048321 0.3038023 0.1048321 0.3038023 0.8951679 -0.3038023
125 0.8865563 -0.3145939 0.1134437 0.3145939 0.1134437 0.3145939 0.8865563 -0.3145939
131 0.8773315 -0.3255081 0.1226685 0.3255081 0.1226685 0.3255081 0.8773315 -0.3255081
137 0.8674661 -0.3365126 0.1325339 0.3365126 0.1325339 0.3365126 0.8674661 -0.3365126
143 0.8569345 -0.3475710 0.1430655 0.3475710 0.1430655 0.3475710 0.8569345 -0.3475710
150 0.8457129 -0.3586427 0.1542871 0.3586427 0.1542871 0.3586427 0.8457129 -0.3586427
156 0.8337804 -0.3696832 0.1662196 0.3696832 0.1662196 0.3696832 0.8337804 -0.3696832
164 0.8211189 -0.3806437 0.1788811 0.3806437 0.1788811 0.3806437 0.8211189 -0.3806437
171 0.8077146 -0.3914719 0.1922854 0.3914719 0.1922854 0.3914719 0.8077146 -0.3914719
179 0.7935577 -0.4021117 0.2064423 0.4021117 0.2064423 0.4021117 0.7935577 -0.4021117
187 0.7786441 -0.4125037 0.2213559 0.4125037 0.2213559 0.4125037 0.7786441 -0.4125037
196 0.7629748 -0.4225860 0.2370252 0.4225860 0.2370252 0.4225860 0.7629748 -0.4225860
205 0.7465578 -0.4322943 0.2534422 0.4322943 0.2534422 0.4322943 0.7465578 -0.4322943
214 0.7294074 -0.4415631 0.2705926 0.4415631 0.2705926 0.4415631 0.7294074 -0.4415631
224 0.7115456 -0.4503261 0.2884544 0.4503261 0.2884544 0.4503261 0.7115456 -0.4503261
234 0.6930017 -0.4585176 0.3069983 0.4585176 0.3069983 0.4585176 0.6930017 -0.4585176
245 0.6738130 -0.4660730 0.3261870 0.4660730 0.3261870 0.4660730 0.6738130 -0.4660730
256 0.6540245 -0.4729303 0.3459755 0.4729303 0.3459755 0.4729303 0.6540245 -0.4729303
268 0.6336888 -0.4790312 0.3663112 0.4790312 0.3663112 0.4790312 0.6336888 -0.4790312
280 0.6128659 -0.4843217 0.3871341 0.4843217 0.3871341 0.4843217 0.6128659 -0.4843217
293 0.5916225 -0.4887540 0.4083775 0.4887540 0.4083775 0.4887540 0.5916225 -0.4887540
306 0.5700314 -0.4922867 0.4299686 0.4922867 0.4299686 0.4922867 0.5700314 -0.4922867
320 0.5481705 -0.4948863 0.4518295 0.4948863 0.4518295 0.4948863 0.5481705 -0.4948863
335 0.5261219 -0.4965278 0.4738781 0.4965278 0.4738781 0.4965278 0.5261219 -0.4965278
350 0.5039704 -0.4971949 0.4960296 0.4971949 0.4960296 0.4971949 0.5039704 -0.4971949
366 0.4818025 -0.4968810 0.5181975 0.4968810 0.5181975 0.4968810 0.4818025 -0.4968810
383 0.4597052 -0.4955889 0.5402948 0.4955889 0.5402948 0.4955889 0.4597052 -0.4955889
401 0.4377642 -0.4933311 0.5622358 0.4933311 0.5622358 0.4933311 0.4377642 -0.4933311
419 0.4160630 -0.4901290 0.5839370 0.4901290 0.5839370 0.4901290 0.4160630 -0.4901290
438 0.3946813 -0.4860131 0.6053187 0.4860131 0.6053187 0.4860131 0.3946813 -0.4860131
458 0.3736943 -0.4810218 0.6263057 0.4810218 0.6263057 0.4810218 0.3736943 -0.4810218
479 0.3531713 -0.4752006 0.6468287 0.4752006 0.6468287 0.4752006 0.3531713 -0.4752006
501 0.3331753 -0.4686013 0.6668247 0.4686013 0.6668247 0.4686013 0.3331753 -0.4686013
524 0.3137620 -0.4612810 0.6862380 0.4612810 0.6862380 0.4612810 0.3137620 -0.4612810
548 0.2949794 -0.4533008 0.7050206 0.4533008 0.7050206 0.4533008 0.2949794 -0.4533008
573 0.2768680 -0.4447247 0.7231320 0.4447247 0.7231320 0.4447247 0.2768680 -0.4447247
600 0.2594600 -0.4356183 0.7405400 0.4356183 0.7405400 0.4356183 0.2594600 -0.4356183
627 0.2427803 -0.4260483 0.7572197 0.4260483 0.7572197 0.4260483 0.2427803 -0.4260483
656 0.2268459 -0.4160810 0.7731541 0.4160810 0.7731541 0.4160810 0.2268459 -0.4160810
686 0.2116670 -0.4057814 0.7883330 0.4057814 0.7883330 0.4057814 0.2116670 -0.4057814
717 0.1972470 -0.3952129 0.8027530 0.3952129 0.8027530 0.3952129 0.1972470 -0.3952129
750 0.1835833 -0.3844361 0.8164167 0.3844361 0.8164167 0.3844361 0.1835833 -0.3844361
784 0.1706679 -0.3735085 0.8293321 0.3735085 0.8293321 0.3735085 0.1706679 -0.3735085
820 0.1584881 -0.3624842 0.8415119 0.3624842 0.8415119 0.3624842 0.1584881 -0.3624842
858 0.1470271 -0.3514134 0.8529729 0.3514134 0.8529729 0.3514134 0.1470271 -0.3514134
897 0.1362644 -0.3403422 0.8637356 0.3403422 0.8637356 0.3403422 0.1362644 -0.3403422
938 0.1261771 -0.3293127 0.8738229 0.3293127 0.8738229 0.3293127 0.1261771 -0.3293127
981 0.1167398 -0.3183627 0.8832602 0.3183627 0.8832602 0.3183627 0.1167398 -0.3183627
1026 0.1079254 -0.3075261 0.8920746 0.3075261 0.8920746 0.3075261 0.1079254 -0.3075261
1073 0.0997056 -0.2968326 0.9002944 0.2968326 0.9002944 0.2968326 0.0997056 -0.2968326
1122 0.0920516 -0.2863084 0.9079484 0.2863084 0.9079484 0.2863084 0.0920516 -0.2863084
1174 0.0849339 -0.2759757 0.9150661 0.2759757 0.9150661 0.2759757 0.0849339 -0.2759757
1227 0.0783233 -0.2658536 0.9216767 0.2658536 0.9216767 0.2658536 0.0783233 -0.2658536
1283 0.0721907 -0.2559578 0.9278093 0.2559578 0.9278093 0.2559578 0.0721907 -0.2559578
1342 0.0665076 -0.2463013 0.9334924 0.2463013 0.9334924 0.2463013 0.0665076 -0.2463013
1404 0.0612461 -0.2368943 0.9387539 0.2368943 0.9387539 0.2368943 0.0612461 -0.2368943
1468 0.0563793 -0.2277446 0.9436207 0.2277446 0.9436207 0.2277446 0.0563793 -0.2277446
1535 0.0518813 -0.2188578 0.9481187 0.2188578 0.9481187 0.2188578 0.0518813 -0.2188578
1606 0.0477272 -0.2102376 0.9522728 0.2102376 0.9522728 0.2102376 0.0477272 -0.2102376
1679 0.0438933 -0.2018860 0.9561067 0.2018860 0.9561067 0.2018860 0.0438933 -0.2018860
1756 0.0403571 -0.1938035 0.9596429 0.1938035 0.9596429 0.1938035 0.0403571 -0.1938035
1836 0.0370973 -0.1859890 0.9629027 0.1859890 0.9629027 0.1859890 0.0370973 -0.1859890
1920 0.0340939 -0.1784406 0.9659061 0.1784406 0.9659061 0.1784406 0.0340939 -0.1784406
2008 0.0313278 -0.1711554 0.9686722 0.1711554 0.9686722 0.1711554 0.0313278 -0.1711554
2100 0.0287814 -0.1641294 0.9712186 0.1641294 0.9712186 0.1641294 0.0287814 -0.1641294
2196 0.0264382 -0.1573581 0.9735618 0.1573581 0.9735618 0.1573581 0.0264382 -0.1573581
2297 0.0242825 -0.1508364 0.9757175 0.1508364 0.9757175 0.1508364 0.0242825 -0.1508364
2402 0.0223001 -0.1445588 0.9776999 0.1445588 0.9776999 0.1445588 0.0223001 -0.1445588
2512 0.0204775 -0.1385192 0.9795225 0.1385192 0.9795225 0.1385192 0.0204775 -0.1385192
2627 0.0188022 -0.1327115 0.9811978 0.1327115 0.9811978 0.1327115 0.0188022 -0.1327115
2748 0.0172627 -0.1271292 0.9827373 0.1271292 0.9827373 0.1271292 0.0172627 -0.1271292
2873 0.0158483 -0.1217658 0.9841517 0.1217658 0.9841517 0.1217658 0.0158483 -0.1217658
3005 0.0145490 -0.1166144 0.9854510 0.1166144 0.9854510 0.1166144 0.0145490 -0.1166144
3143 0.0133557 -0.1116686 0.9866443 0.1116686 0.9866443 0.1116686 0.0133557 -0.1116686
3287 0.0122600 -0.1069214 0.9877400 0.1069214 0.9877400 0.1069214 0.0122600 -0.1069214
3437 0.0112540 -0.1023662 0.9887460 0.1023662 0.9887460 0.1023662 0.0112540 -0.1023662
3594 0.0103306 -0.0979965 0.9896694 0.0979965 0.9896694 0.0979965 0.0103306 -0.0979965
3759 0.0094830 -0.0938056 0.9905170 0.0938056 0.9905170 0.0938056 0.0094830 -0.0938056
3931 0.0087052 -0.0897872 0.9912948 0.0897872 0.9912948 0.0897872 0.0087052 -0.0897872
4111 0.0079915 -0.0859350 0.9920085 0.0859350 0.9920085 0.0859350 0.0079915 -0.0859350
4299 0.0073368 -0.0822427 0.9926632 0.0822427 0.9926632 0.0822427 0.0073368 -0.0822427
4496 0.0067361 -0.0787044 0.9932639 0.0787044 0.9932639 0.0787044 0.0067361 -0.0787044
4702 0.0061852 -0.0753142 0.9938148 0.0753142 0.9938148 0.0753142 0.0061852 -0.0753142
4918 0.0056799 -0.0720665 0.9943201 0.0720665 0.9943201 0.0720665 0.0056799 -0.0720665
5143 0.0052165 -0.0689555 0.9947835 0.0689555 0.9947835 0.0689555 0.0052165 -0.0689555
5378 0.0047916 -0.0659761 0.9952084 0.0659761 0.9952084 0.0659761 0.0047916 -0.0659761
5625 0.0044020 -0.0631230 0.9955980 0.0631230 0.9955980 0.0631230 0.0044020 -0.0631230
5882 0.0040448 -0.0603910 0.9959552 0.0603910 0.9959552 0.0603910 0.0040448 -0.0603910
6151 0.0037173 -0.0577755 0.9962827 0.0577755 0.9962827 0.0577755 0.0037173 -0.0577755
6433 0.0034170 -0.0552716 0.9965830 0.0552716 0.9965830 0.0552716 0.0034170 -0.0552716
6728 0.0031418 -0.0528747 0.9968582 0.0528747 0.9968582 0.0528747 0.0031418 -0.0528747
7036 0.0028894 -0.0505806 0.9971106 0.0505806 0.9971106 0.0505806 0.0028894 -0.0505806
7358 0.0026580 -0.0483850 0.9973420 0.0483850 0.9973420 0.0483850 0.0026580 -0.0483850
7695 0.0024459 -0.0462837 0.9975541 0.0462837 0.9975541 0.0462837 0.0024459 -0.0462837
8047 0.0022513 -0.0442729 0.9977487 0.0442729 0.9977487 0.0442729 0.0022513 -0.0442729
8416 0.0020730 -0.0423488 0.9979270 0.0423488 0.9979270 0.0423488 0.0020730 -0.0423488
8801 0.0019094 -0.0405077 0.9980906 0.0405077 0.9980906 0.0405077 0.0019094 -0.0405077
9204 0.0017593 -0.0387461 0.9982407 0.0387461 0.9982407 0.0387461 0.0017593 -0.0387461
9626 0.0016216 -0.0370608 0.9983784 0.0370608 0.9983784 0.0370608 0.0016216 -0.0370608
10066 0.0014953 -0.0354483 0.9985047 0.0354483 0.9985047 0.0354483 0.0014953 -0.0354483
10527 0.0013794 -0.0339057 0.9986206 0.0339057 0.9986206 0.0339057 0.0013794 -0.0339057
11009 0.0012730 -0.0324300 0.9987270 0.0324300 0.9987270 0.0324300 0.0012730 -0.0324300
11514 0.0011753 -0.0310182 0.9988247 0.0310182 0.9988247 0.0310182 0.0011753 -0.0310182
12041 0.0010855 -0.0296677 0.9989145 0.0296677 0.9989145 0.0296677 0.0010855 -0.0296677
12592 0.0010031 -0.0283758 0.9989969 0.0283758 0.9989969 0.0283758 0.0010031 -0.0283758
13169 0.0009274 -0.0271400 0.9990726 0.0271400 0.9990726 0.0271400 0.0009274 -0.0271400
13772 0.0008578 -0.0259579 0.9991422 0.0259579 0.9991422 0.0259579 0.0008578 -0.0259579
14402 0.0007938 -0.0248271 0.9992062 0.0248271 0.9992062 0.0248271 0.0007938 -0.0248271
15062 0.0007349 -0.0237455 0.9992651 0.0237455 0.9992651 0.0237455 0.0007349 -0.0237455
15752 0.0006808 -0.0227109 0.9993192 0.0227109 0.9993192 0.0227109 0.0006808 -0.0227109
16473 0.0006311 -0.0217212 0.9993689 0.0217212 0.9993689 0.0217212 0.0006311 -0.0217212
17227 0.0005853 -0.0207746 0.9994147 0.0207746 0.9994147 0.0207746 0.0005853 -0.0207746
18016 0.0005431 -0.0198691 0.9994569 0.0198691 0.9994569 0.0198691 0.0005431 -0.0198691
18841 0.0005043 -0.0190030 0.9994957 0.0190030 0.9994957 0.0190030 0.0005043 -0.0190030
19704 0.0004686 -0.0181745 0.9995314 0.0181745 0.9995314 0.0181745 0.0004686 -0.0181745
20606 0.0004358 -0.0173821 0.9995642 0.0173821 0.9995642 0.0173821 0.0004358 -0.0173821
21550 0.0004055 -0.0166242 0.9995945 0.0166242 0.9995945 0.0166242 0.0004055 -0.0166242
22537 0.0003776 -0.0158992 0.9996224 0.0158992 0.9996224 0.0158992 0.0003776 -0.0158992
23569 0.0003520 -0.0152058 0.9996480 0.0152058 0.9996480 0.0152058 0.0003520 -0.0152058
24648 0.0003284 -0.0145425 0.9996716 0.0145425 0.9996716 0.0145425 0.0003284 -0.0145425
25777 0.0003066 -0.0139082 0.9996934 0.0139082 0.9996934 0.0139082 0.0003066 -0.0139082
26957 0.0002866 -0.0133014 0.9997134 0.0133014 0.9997134 0.0133014 0.0002866 -0.0133014
28191 0.0002681 -0.0127211 0.9997319 0.0127211 0.9997319 0.0127211 0.0002681 -0.0127211
29482 0.0002511 -0.0121660 0.9997489 0.0121660 0.9997489 0.0121660 0.0002511 -0.0121660
30832 0.0002355 -0.0116351 0.9997645 0.0116351 0.9997645 0.0116351 0.0002355 -0.0116351
32244 0.0002210 -0.0111274 0.9997790 0.0111274 0.9997790 0.0111274 0.0002210 -0.0111274
33721 0.0002078 -0.0106417 0.9997922 0.0106417 0.9997922 0.0106417 0.0002078 -0.0106417
35265 0.0001955 -0.0101773 0.9998045 0.0101773 0.9998045 0.0101773 0.0001955 -0.0101773
36880 0.0001842 -0.0097331 0.9998158 0.0097331 0.9998158 0.0097331 0.0001842 -0.0097331
38569 0.0001738 -0.0093083 0.9998262 0.0093083 0.9998262 0.0093083 0.0001738 -0.0093083
40335 0.0001642 -0.0089020 0.9998358 0.0089020 0.9998358 0.0089020 0.0001642 -0.0089020
42182 0.0001553 -0.0085134 0.9998447 0.0085134 0.9998447 0.0085134 0.0001553 -0.0085134
44113 0.0001471 -0.0081418 0.9998529 0.0081418 0.9998529 0.0081418 0.0001471 -0.0081418
46134 0.0001395 -0.0077864 0.9998605 0.0077864 0.9998605 0.0077864 0.0001395 -0.0077864
48246 0.0001325 -0.0074465 0.9998675 0.0074465 0.9998675 0.0074465 0.0001325 -0.0074465
50455 0.0001260 -0.0071214 0.9998740 0.0071214 0.9998740 0.0071214 0.0001260 -0.0071214
52766 0.0001200 -0.0068105 0.9998800 0.0068105 0.9998800 0.0068105 0.0001200 -0.0068105
55182 0.0001144 -0.0065132 0.9998856 0.0065132 0.9998856 0.0065132 0.0001144 -0.0065132
57709 0.0001092 -0.0062289 0.9998908 0.0062289 0.9998908 0.0062289 0.0001092 -0.0062289
60352 0.0001044 -0.0059570 0.9998956 0.0059570 0.9998956 0.0059570 0.0001044 -0.0059570
63115 0.0000999 -0.0056969 0.9999001 0.0056969 0.9999001 0.0056969 0.0000999 -0.0056969
66005 0.0000957 -0.0054482 0.9999043 0.0054482 0.9999043 0.0054482 0.0000957 -0.0054482
69028 0.0000918 -0.0052103 0.9999082 0.0052103 0.9999082 0.0052103 0.0000918 -0.0052103
72189 0.0000881 -0.0049828 0.9999119 0.0049828 0.9999119 0.0049828 0.0000881 -0.0049828
75495 0.0000847 -0.0047652 0.9999153 0.0047652 0.9999153 0.0047652 0.0000847 -0.0047652
78952 0.0000815 -0.0045570 0.9999185 0.0045570 0.9999185 0.0045570 0.0000815 -0.0045570
82567 0.0000784 -0.0043580 0.9999216 0.0043580 0.9999216 0.0043580 0.0000784 -0.0043580
86348 0.0000756 -0.0041675 0.9999244 0.0041675 0.9999244 0.0041675 0.0000756 -0.0041675
90302 0.0000729 -0.0039854 0.9999271 0.0039854 0.9999271 0.0039854 0.0000729 -0.0039854
94437 0.0000704 -0.0038112 0.9999296 0.0038112 0.9999296 0.0038112 0.0000704 -0.0038112
98762 0.0000680 -0.0036445 0.9999320 0.0036445 0.9999320 0.0036445 0.0000680 -0.0036445
103284 0.0000657 -0.0034850 0.9999343 0.0034850 0.9999343 0.0034850 0.0000657 -0.0034850
108014 0.0000636 -0.0033325 0.9999364 0.0033325 0.9999364 0.0033325 0.0000636 -0.0033325
112960 0.0000616 -0.0031866 0.9999384 0.0031866 0.9999384 0.0031866 0.0000616 -0.0031866
118133 0.0000597 -0.0030470 0.9999403 0.0030470 0.9999403 0.0030470 0.0000597 -0.0030470
123542 0.0000579 -0.0029134 0.9999421 0.0029134 0.9999421 0.0029134 0.0000579 -0.0029134
129199 0.0000562 -0.0027856 0.9999438 0.0027856 0.9999438 0.0027856 0.0000562 -0.0027856
135116 0.0000546 -0.0026633 0.9999454 0.0026633 0.9999454 0.0026633 0.0000546 -0.0026633
141303 0.0000531 -0.0025463 0.9999469 0.0025463 0.9999469 0.0025463 0.0000531 -0.0025463
147774 0.0000516 -0.0024343 0.9999484 0.0024343 0.9999484 0.0024343 0.0000516 -0.0024343
154540 0.0000503 -0.0023271 0.9999497 0.0023271 0.9999497 0.0023271 0.0000503 -0.0023271
161617 0.0000490 -0.0022246 0.9999510 0.0022246 0.9999510 0.0022246 0.0000490 -0.0022246
169018 0.0000479 -0.0021264 0.9999521 0.0021264 0.9999521 0.0021264 0.0000479 -0.0021264
176758 0.0000467 -0.0020325 0.9999533 0.0020325 0.9999533 0.0020325 0.0000467 -0.0020325
184852 0.0000457 -0.0019426 0.9999543 0.0019426 0.9999543 0.0019426 0.0000457 -0.0019426
193316 0.0000447 -0.0018565 0.9999553 0.0018565 0.9999553 0.0018565 0.0000447 -0.0018565
202169 0.0000438 -0.0017741 0.9999562 0.0017741 0.9999562 0.0017741 0.0000438 -0.0017741
211427 0.0000430 -0.0016953 0.9999570 0.0016953 0.9999570 0.0016953 0.0000430 -0.0016953
221108 0.0000422 -0.0016198 0.9999578 0.0016198 0.9999578 0.0016198 0.0000422 -0.0016198
231233 0.0000414 -0.0015475 0.9999586 0.0015475 0.9999586 0.0015475 0.0000414 -0.0015475
241822 0.0000408 -0.0014783 0.9999592 0.0014783 0.9999592 0.0014783 0.0000408 -0.0014783
252896 0.0000401 -0.0014120 0.9999599 0.0014120 0.9999599 0.0014120 0.0000401 -0.0014120
264476 0.0000395 -0.0013485 0.9999605 0.0013485 0.9999605 0.0013485 0.0000395 -0.0013485
276587 0.0000390 -0.0012877 0.9999610 0.0012877 0.9999610 0.0012877 0.0000390 -0.0012877
289253 0.0000385 -0.0012295 0.9999615 0.0012295 0.9999615 0.0012295 0.0000385 -0.0012295
302498 0.0000380 -0.0011737 0.9999620 0.0011737 0.9999620 0.0011737 0.0000380 -0.0011737
316350 0.0000376 -0.0011203 0.9999624 0.0011203 0.9999624 0.0011203 0.0000376 -0.0011203
330837 0.0000372 -0.0010691 0.9999628 0.0010691 0.9999628 0.0010691 0.0000372 -0.0010691
345986 0.0000369 -0.0010200 0.9999631 0.0010200 0.9999631 0.0010200 0.0000369 -0.0010200
361830 0.0000366 -0.0009730 0.9999634 0.0009730 0.9999634 0.0009730 0.0000366 -0.0009730
378399 0.0000363 -0.0009278 0.9999637 0.0009278 0.9999637 0.0009278 0.0000363 -0.0009278
395726 0.0000360 -0.0008846 0.9999640 0.0008846 0.9999640 0.0008846 0.0000360 -0.0008846
413847 0.0000358 -0.0008431 0.9999642 0.0008431 0.9999642 0.0008431 0.0000358 -0.0008431
432798 0.0000356 -0.0008033 0.9999644 0.0008033 0.9999644 0.0008033 0.0000356 -0.0008033
452617 0.0000354 -0.0007651 0.9999646 0.0007651 0.9999646 0.0007651 0.0000354 -0.0007651
473344 0.0000352 -0.0007284 0.9999648 0.0007284 0.9999648 0.0007284 0.0000352 -0.0007284
495019 0.0000351 -0.0006932 0.9999649 0.0006932 0.9999649 0.0006932 0.0000351 -0.0006932
517687 0.0000350 -0.0006593 0.9999650 0.0006593 0.9999650 0.0006593 0.0000350 -0.0006593
541393 0.0000349 -0.0006268 0.9999651 0.0006268 0.9999651 0.0006268 0.0000349 -0.0006268
566185 0.0000348 -0.0005956 0.9999652 0.0005956 0.9999652 0.0005956 0.0000348 -0.0005956
592111 0.0000348 -0.0005655 0.9999652 0.0005655 0.9999652 0.0005655 0.0000348 -0.0005655
619225 0.0000347 -0.0005365 0.9999653 0.0005365 0.9999653 0.0005365 0.0000347 -0.0005365
647581 0.0000347 -0.0005087 0.9999653 0.0005087 0.9999653 0.0005087 0.0000347 -0.0005087
677235 0.0000347 -0.0004818 0.9999653 0.0004818 0.9999653 0.0004818 0.0000347 -0.0004818
708247 0.0000347 -0.0004559 0.9999653 0.0004559 0.9999653 0.0004559 0.0000347 -0.0004559
740679 0.0000348 -0.0004309 0.9999652 0.0004309 0.9999652 0.0004309 0.0000348 -0.0004309
774597 0.0000349 -0.0004068 0.9999651 0.0004068 0.9999651 0.0004068 0.0000349 -0.0004068
810067 0.0000349 -0.0003835 0.9999651 0.0003835 0.9999651 0.0003835 0.0000349 -0.0003835
847162 0.0000351 -0.0003609 0.9999649 0.0003609 0.9999649 0.0003609 0.0000351 -0.0003609
885955 0.0000352 -0.0003391 0.9999648 0.0003391 0.9999648 0.0003391 0.0000352 -0.0003391
926525 0.0000353 -0.0003180 0.9999647 0.0003180 0.9999647 0.0003180 0.0000353 -0.0003180
968953 0.0000355 -0.0002975 0.9999645 0.0002975 0.9999645 0.0002975 0.0000355 -0.0002975
1013323 0.0000357 -0.0002775 0.9999643 0.0002775 0.9999643 0.0002775 0.0000357 -0.0002775
1059725 0.0000360 -0.0002582 0.9999640 0.0002582 0.9999640 0.0002582 0.0000360 -0.0002582
1108252 0.0000362 -0.0002393 0.9999638 0.0002393 0.9999638 0.0002393 0.0000362 -0.0002393
1159002 0.0000365 -0.0002209 0.9999635 0.0002209 0.9999635 0.0002209 0.0000365 -0.0002209
1212075 0.0000369 -0.0002030 0.9999631 0.0002030 0.9999631 0.0002030 0.0000369 -0.0002030
1267578 0.0000373 -0.0001854 0.9999627 0.0001854 0.9999627 0.0001854 0.0000373 -0.0001854
1325623 0.0000377 -0.0001683 0.9999623 0.0001683 0.9999623 0.0001683 0.0000377 -0.0001683
1386327 0.0000382 -0.0001514 0.9999618 0.0001514 0.9999618 0.0001514 0.0000382 -0.0001514
1449809 0.0000387 -0.0001348 0.9999613 0.0001348 0.9999613 0.0001348 0.0000387 -0.0001348
1516199 0.0000393 -0.0001185 0.9999607 0.0001185 0.9999607 0.0001185 0.0000393 -0.0001185
1585629 0.0000399 -0.0001024 0.9999601 0.0001024 0.9999601 0.0001024 0.0000399 -0.0001024
1658239 0.0000406 -0.0000865 0.9999594 0.0000865 0.9999594 0.0000865 0.0000406 -0.0000865
1734173 0.0000414 -0.0000708 0.9999586 0.0000708 0.9999586 0.0000708 0.0000414 -0.0000708
1813585 0.0000423 -0.0000552 0.9999577 0.0000552 0.9999577 0.0000552 0.0000423 -0.0000552
1896632 0.0000432 -0.0000396 0.9999568 0.0000396 0.9999568 0.0000396 0.0000432 -0.0000396
1983483 0.0000443 -0.0000241 0.9999557 0.0000241 0.9999557 0.0000241 0.0000443 -0.0000241
2074311 0.0000455 -0.0000085 0.9999545 0.0000085 0.9999545 0.0000085 0.0000455 -0.0000085
