!Murata Part Number: GRM43DR73A473KW01
!These Parameters are Measured in Series Mode Connection
!Data Generated on Mar 30, 2021
!       o--ll--o
!Port1            Port2
!       o------o
!Operation Temp=25[degC], DC Bias Voltage=0[V]
!Freq. Start=100[kHz] Stop=6[GHz] 401[Steps]
# Hz S RI R 50
!Freq.(Hz) S11(Real) S11(Imag) S21(Real) S21(Imag) S12(Real) S12(Imag) S22(Real) S22(Imag)
100000 0.1000816 -0.2954289 0.8999184 0.2954289 0.8999184 0.2954289 0.1000816 -0.2954289
102789 0.0953477 -0.2889988 0.9046523 0.2889988 0.9046523 0.2889988 0.0953477 -0.2889988
105655 0.0908166 -0.2826370 0.9091834 0.2826370 0.9091834 0.2826370 0.0908166 -0.2826370
108602 0.0864818 -0.2763483 0.9135182 0.2763483 0.9135182 0.2763483 0.0864818 -0.2763483
111630 0.0823367 -0.2701367 0.9176633 0.2701367 0.9176633 0.2701367 0.0823367 -0.2701367
114743 0.0783747 -0.2640062 0.9216253 0.2640062 0.9216253 0.2640062 0.0783747 -0.2640062
117943 0.0745894 -0.2579599 0.9254106 0.2579599 0.9254106 0.2579599 0.0745894 -0.2579599
121232 0.0709745 -0.2520009 0.9290255 0.2520009 0.9290255 0.2520009 0.0709745 -0.2520009
124613 0.0675235 -0.2461317 0.9324765 0.2461317 0.9324765 0.2461317 0.0675235 -0.2461317
128088 0.0642304 -0.2403547 0.9357696 0.2403547 0.9357696 0.2403547 0.0642304 -0.2403547
131660 0.0610890 -0.2346717 0.9389110 0.2346717 0.9389110 0.2346717 0.0610890 -0.2346717
135332 0.0580934 -0.2290844 0.9419066 0.2290844 0.9419066 0.2290844 0.0580934 -0.2290844
139106 0.0552377 -0.2235941 0.9447623 0.2235941 0.9447623 0.2235941 0.0552377 -0.2235941
142985 0.0525163 -0.2182018 0.9474837 0.2182018 0.9474837 0.2182018 0.0525163 -0.2182018
146972 0.0499236 -0.2129083 0.9500764 0.2129083 0.9500764 0.2129083 0.0499236 -0.2129083
151071 0.0474542 -0.2077143 0.9525458 0.2077143 0.9525458 0.2077143 0.0474542 -0.2077143
155284 0.0451029 -0.2026201 0.9548971 0.2026201 0.9548971 0.2026201 0.0451029 -0.2026201
159614 0.0428646 -0.1976258 0.9571354 0.1976258 0.9571354 0.1976258 0.0428646 -0.1976258
164065 0.0407344 -0.1927314 0.9592656 0.1927314 0.9592656 0.1927314 0.0407344 -0.1927314
168641 0.0387076 -0.1879366 0.9612924 0.1879366 0.9612924 0.1879366 0.0387076 -0.1879366
173344 0.0367795 -0.1832412 0.9632205 0.1832412 0.9632205 0.1832412 0.0367795 -0.1832412
178178 0.0349457 -0.1786446 0.9650543 0.1786446 0.9650543 0.1786446 0.0349457 -0.1786446
183146 0.0332020 -0.1741461 0.9667980 0.1741461 0.9667980 0.1741461 0.0332020 -0.1741461
188254 0.0315442 -0.1697451 0.9684558 0.1697451 0.9684558 0.1697451 0.0315442 -0.1697451
193504 0.0299683 -0.1654406 0.9700317 0.1654406 0.9700317 0.1654406 0.0299683 -0.1654406
198900 0.0284706 -0.1612317 0.9715294 0.1612317 0.9715294 0.1612317 0.0284706 -0.1612317
204447 0.0270473 -0.1571173 0.9729527 0.1571173 0.9729527 0.1571173 0.0270473 -0.1571173
210148 0.0256950 -0.1530962 0.9743050 0.1530962 0.9743050 0.1530962 0.0256950 -0.1530962
216008 0.0244102 -0.1491673 0.9755898 0.1491673 0.9755898 0.1491673 0.0244102 -0.1491673
222032 0.0231898 -0.1453294 0.9768102 0.1453294 0.9768102 0.1453294 0.0231898 -0.1453294
228224 0.0220306 -0.1415810 0.9779694 0.1415810 0.9779694 0.1415810 0.0220306 -0.1415810
234589 0.0209298 -0.1379208 0.9790702 0.1379208 0.9790702 0.1379208 0.0209298 -0.1379208
241130 0.0198843 -0.1343474 0.9801157 0.1343474 0.9801157 0.1343474 0.0198843 -0.1343474
247855 0.0188916 -0.1308594 0.9811084 0.1308594 0.9811084 0.1308594 0.0188916 -0.1308594
254767 0.0179490 -0.1274553 0.9820510 0.1274553 0.9820510 0.1274553 0.0179490 -0.1274553
261871 0.0170541 -0.1241336 0.9829459 0.1241336 0.9829459 0.1241336 0.0170541 -0.1241336
269174 0.0162045 -0.1208927 0.9837955 0.1208927 0.9837955 0.1208927 0.0162045 -0.1208927
276681 0.0153979 -0.1177313 0.9846021 0.1177313 0.9846021 0.1177313 0.0153979 -0.1177313
284397 0.0146322 -0.1146476 0.9853678 0.1146476 0.9853678 0.1146476 0.0146322 -0.1146476
292328 0.0139054 -0.1116403 0.9860946 0.1116403 0.9860946 0.1116403 0.0139054 -0.1116403
300480 0.0132155 -0.1087077 0.9867845 0.1087077 0.9867845 0.1087077 0.0132155 -0.1087077
308859 0.0125606 -0.1058483 0.9874394 0.1058483 0.9874394 0.1058483 0.0125606 -0.1058483
317472 0.0119391 -0.1030606 0.9880609 0.1030606 0.9880609 0.1030606 0.0119391 -0.1030606
326326 0.0113491 -0.1003431 0.9886509 0.1003431 0.9886509 0.1003431 0.0113491 -0.1003431
335426 0.0107891 -0.0976942 0.9892109 0.0976942 0.9892109 0.0976942 0.0107891 -0.0976942
344780 0.0102575 -0.0951124 0.9897425 0.0951124 0.9897425 0.0951124 0.0102575 -0.0951124
354395 0.0097530 -0.0925962 0.9902470 0.0925962 0.9902470 0.0925962 0.0097530 -0.0925962
364278 0.0092742 -0.0901442 0.9907258 0.0901442 0.9907258 0.0901442 0.0092742 -0.0901442
374436 0.0088197 -0.0877549 0.9911803 0.0877549 0.9911803 0.0877549 0.0088197 -0.0877549
384878 0.0083883 -0.0854269 0.9916117 0.0854269 0.9916117 0.0854269 0.0083883 -0.0854269
395611 0.0079789 -0.0831586 0.9920211 0.0831586 0.9920211 0.0831586 0.0079789 -0.0831586
406644 0.0075903 -0.0809489 0.9924097 0.0809489 0.9924097 0.0809489 0.0075903 -0.0809489
417984 0.0072214 -0.0787961 0.9927786 0.0787961 0.9927786 0.0787961 0.0072214 -0.0787961
429640 0.0068713 -0.0766991 0.9931287 0.0766991 0.9931287 0.0766991 0.0068713 -0.0766991
441622 0.0065390 -0.0746564 0.9934610 0.0746564 0.9934610 0.0746564 0.0065390 -0.0746564
453937 0.0062236 -0.0726668 0.9937764 0.0726668 0.9937764 0.0726668 0.0062236 -0.0726668
466596 0.0059242 -0.0707289 0.9940758 0.0707289 0.9940758 0.0707289 0.0059242 -0.0707289
479608 0.0056400 -0.0688415 0.9943600 0.0688415 0.9943600 0.0688415 0.0056400 -0.0688415
492983 0.0053702 -0.0670034 0.9946298 0.0670034 0.9946298 0.0670034 0.0053702 -0.0670034
506731 0.0051142 -0.0652133 0.9948858 0.0652133 0.9948858 0.0652133 0.0051142 -0.0652133
520862 0.0048711 -0.0634701 0.9951289 0.0634701 0.9951289 0.0634701 0.0048711 -0.0634701
535387 0.0046405 -0.0617725 0.9953595 0.0617725 0.9953595 0.0617725 0.0046405 -0.0617725
550318 0.0044215 -0.0601195 0.9955785 0.0601195 0.9955785 0.0601195 0.0044215 -0.0601195
565664 0.0042136 -0.0585100 0.9957864 0.0585100 0.9957864 0.0585100 0.0042136 -0.0585100
581439 0.0040163 -0.0569427 0.9959837 0.0569427 0.9959837 0.0569427 0.0040163 -0.0569427
597654 0.0038290 -0.0554168 0.9961710 0.0554168 0.9961710 0.0554168 0.0038290 -0.0554168
614320 0.0036513 -0.0539311 0.9963487 0.0539311 0.9963487 0.0539311 0.0036513 -0.0539311
631452 0.0034825 -0.0524846 0.9965175 0.0524846 0.9965175 0.0524846 0.0034825 -0.0524846
649061 0.0033223 -0.0510763 0.9966777 0.0510763 0.9966777 0.0510763 0.0033223 -0.0510763
667162 0.0031703 -0.0497052 0.9968297 0.0497052 0.9968297 0.0497052 0.0031703 -0.0497052
685767 0.0030259 -0.0483704 0.9969741 0.0483704 0.9969741 0.0483704 0.0030259 -0.0483704
704891 0.0028889 -0.0470710 0.9971111 0.0470710 0.9971111 0.0470710 0.0028889 -0.0470710
724548 0.0027589 -0.0458060 0.9972411 0.0458060 0.9972411 0.0458060 0.0027589 -0.0458060
744754 0.0026354 -0.0445746 0.9973646 0.0445746 0.9973646 0.0445746 0.0026354 -0.0445746
765523 0.0025182 -0.0433759 0.9974818 0.0433759 0.9974818 0.0433759 0.0025182 -0.0433759
786871 0.0024069 -0.0422090 0.9975931 0.0422090 0.9975931 0.0422090 0.0024069 -0.0422090
808814 0.0023013 -0.0410732 0.9976987 0.0410732 0.9976987 0.0410732 0.0023013 -0.0410732
831370 0.0022010 -0.0399675 0.9977990 0.0399675 0.9977990 0.0399675 0.0022010 -0.0399675
854554 0.0021057 -0.0388913 0.9978943 0.0388913 0.9978943 0.0388913 0.0021057 -0.0388913
878385 0.0020153 -0.0378438 0.9979847 0.0378438 0.9979847 0.0378438 0.0020153 -0.0378438
902880 0.0019294 -0.0368242 0.9980706 0.0368242 0.9980706 0.0368242 0.0019294 -0.0368242
928059 0.0018479 -0.0358317 0.9981521 0.0358317 0.9981521 0.0358317 0.0018479 -0.0358317
953940 0.0017705 -0.0348658 0.9982295 0.0348658 0.9982295 0.0348658 0.0017705 -0.0348658
980542 0.0016969 -0.0339256 0.9983031 0.0339256 0.9983031 0.0339256 0.0016969 -0.0339256
1007887 0.0016270 -0.0330105 0.9983730 0.0330105 0.9983730 0.0330105 0.0016270 -0.0330105
1035994 0.0015607 -0.0321198 0.9984393 0.0321198 0.9984393 0.0321198 0.0015607 -0.0321198
1064885 0.0014976 -0.0312530 0.9985024 0.0312530 0.9985024 0.0312530 0.0014976 -0.0312530
1094581 0.0014377 -0.0304093 0.9985623 0.0304093 0.9985623 0.0304093 0.0014377 -0.0304093
1125106 0.0013808 -0.0295881 0.9986192 0.0295881 0.9986192 0.0295881 0.0013808 -0.0295881
1156481 0.0013267 -0.0287889 0.9986733 0.0287889 0.9986733 0.0287889 0.0013267 -0.0287889
1188732 0.0012752 -0.0280111 0.9987248 0.0280111 0.9987248 0.0280111 0.0012752 -0.0280111
1221882 0.0012263 -0.0272541 0.9987737 0.0272541 0.9987737 0.0272541 0.0012263 -0.0272541
1255957 0.0011798 -0.0265173 0.9988202 0.0265173 0.9988202 0.0265173 0.0011798 -0.0265173
1290982 0.0011356 -0.0258002 0.9988644 0.0258002 0.9988644 0.0258002 0.0011356 -0.0258002
1326984 0.0010935 -0.0251022 0.9989065 0.0251022 0.9989065 0.0251022 0.0010935 -0.0251022
1363989 0.0010534 -0.0244229 0.9989466 0.0244229 0.9989466 0.0244229 0.0010534 -0.0244229
1402027 0.0010154 -0.0237618 0.9989846 0.0237618 0.9989846 0.0237618 0.0010154 -0.0237618
1441125 0.0009791 -0.0231184 0.9990209 0.0231184 0.9990209 0.0231184 0.0009791 -0.0231184
1481314 0.0009446 -0.0224921 0.9990554 0.0224921 0.9990554 0.0224921 0.0009446 -0.0224921
1522623 0.0009117 -0.0218826 0.9990883 0.0218826 0.9990883 0.0218826 0.0009117 -0.0218826
1565085 0.0008804 -0.0212893 0.9991196 0.0212893 0.9991196 0.0212893 0.0008804 -0.0212893
1608730 0.0008506 -0.0207119 0.9991494 0.0207119 0.9991494 0.0207119 0.0008506 -0.0207119
1653593 0.0008221 -0.0201499 0.9991779 0.0201499 0.9991779 0.0201499 0.0008221 -0.0201499
1699707 0.0007951 -0.0196028 0.9992049 0.0196028 0.9992049 0.0196028 0.0007951 -0.0196028
1747106 0.0007692 -0.0190704 0.9992308 0.0190704 0.9992308 0.0190704 0.0007692 -0.0190704
1795828 0.0007446 -0.0185521 0.9992554 0.0185521 0.9992554 0.0185521 0.0007446 -0.0185521
1845908 0.0007211 -0.0180476 0.9992789 0.0180476 0.9992789 0.0180476 0.0007211 -0.0180476
1897385 0.0006987 -0.0175566 0.9993013 0.0175566 0.9993013 0.0175566 0.0006987 -0.0175566
1950297 0.0006774 -0.0170786 0.9993226 0.0170786 0.9993226 0.0170786 0.0006774 -0.0170786
2004685 0.0006570 -0.0166133 0.9993430 0.0166133 0.9993430 0.0166133 0.0006570 -0.0166133
2060590 0.0006375 -0.0161603 0.9993625 0.0161603 0.9993625 0.0161603 0.0006375 -0.0161603
2118054 0.0006190 -0.0157194 0.9993810 0.0157194 0.9993810 0.0157194 0.0006190 -0.0157194
2177120 0.0006012 -0.0152902 0.9993988 0.0152902 0.9993988 0.0152902 0.0006012 -0.0152902
2237833 0.0005843 -0.0148723 0.9994157 0.0148723 0.9994157 0.0148723 0.0005843 -0.0148723
2300240 0.0005681 -0.0144655 0.9994319 0.0144655 0.9994319 0.0144655 0.0005681 -0.0144655
2364387 0.0005526 -0.0140694 0.9994474 0.0140694 0.9994474 0.0140694 0.0005526 -0.0140694
2430322 0.0005379 -0.0136838 0.9994621 0.0136838 0.9994621 0.0136838 0.0005379 -0.0136838
2498097 0.0005238 -0.0133084 0.9994762 0.0133084 0.9994762 0.0133084 0.0005238 -0.0133084
2567761 0.0005103 -0.0129429 0.9994897 0.0129429 0.9994897 0.0129429 0.0005103 -0.0129429
2639368 0.0004974 -0.0125869 0.9995026 0.0125869 0.9995026 0.0125869 0.0004974 -0.0125869
2712972 0.0004851 -0.0122404 0.9995149 0.0122404 0.9995149 0.0122404 0.0004851 -0.0122404
2788629 0.0004733 -0.0119029 0.9995267 0.0119029 0.9995267 0.0119029 0.0004733 -0.0119029
2866396 0.0004620 -0.0115743 0.9995380 0.0115743 0.9995380 0.0115743 0.0004620 -0.0115743
2946331 0.0004513 -0.0112543 0.9995487 0.0112543 0.9995487 0.0112543 0.0004513 -0.0112543
3028495 0.0004410 -0.0109427 0.9995590 0.0109427 0.9995590 0.0109427 0.0004410 -0.0109427
3112951 0.0004311 -0.0106392 0.9995689 0.0106392 0.9995689 0.0106392 0.0004311 -0.0106392
3199762 0.0004217 -0.0103436 0.9995783 0.0103436 0.9995783 0.0103436 0.0004217 -0.0103436
3288994 0.0004126 -0.0100557 0.9995874 0.0100557 0.9995874 0.0100557 0.0004126 -0.0100557
3380714 0.0004040 -0.0097752 0.9995960 0.0097752 0.9995960 0.0097752 0.0004040 -0.0097752
3474992 0.0003957 -0.0095021 0.9996043 0.0095021 0.9996043 0.0095021 0.0003957 -0.0095021
3571899 0.0003878 -0.0092360 0.9996122 0.0092360 0.9996122 0.0092360 0.0003878 -0.0092360
3671508 0.0003802 -0.0089768 0.9996198 0.0089768 0.9996198 0.0089768 0.0003802 -0.0089768
3773896 0.0003730 -0.0087242 0.9996270 0.0087242 0.9996270 0.0087242 0.0003730 -0.0087242
3879139 0.0003660 -0.0084781 0.9996340 0.0084781 0.9996340 0.0084781 0.0003660 -0.0084781
3987316 0.0003594 -0.0082384 0.9996406 0.0082384 0.9996406 0.0082384 0.0003594 -0.0082384
4098510 0.0003530 -0.0080048 0.9996470 0.0080048 0.9996470 0.0080048 0.0003530 -0.0080048
4212806 0.0003469 -0.0077771 0.9996531 0.0077771 0.9996531 0.0077771 0.0003469 -0.0077771
4330288 0.0003410 -0.0075552 0.9996590 0.0075552 0.9996590 0.0075552 0.0003410 -0.0075552
4451047 0.0003353 -0.0073389 0.9996647 0.0073389 0.9996647 0.0073389 0.0003353 -0.0073389
4575173 0.0003299 -0.0071281 0.9996701 0.0071281 0.9996701 0.0071281 0.0003299 -0.0071281
4702761 0.0003247 -0.0069226 0.9996753 0.0069226 0.9996753 0.0069226 0.0003247 -0.0069226
4833907 0.0003197 -0.0067222 0.9996803 0.0067222 0.9996803 0.0067222 0.0003197 -0.0067222
4968711 0.0003149 -0.0065269 0.9996851 0.0065269 0.9996851 0.0065269 0.0003149 -0.0065269
5107273 0.0003103 -0.0063363 0.9996897 0.0063363 0.9996897 0.0063363 0.0003103 -0.0063363
5249700 0.0003059 -0.0061505 0.9996941 0.0061505 0.9996941 0.0061505 0.0003059 -0.0061505
5396098 0.0003016 -0.0059693 0.9996984 0.0059693 0.9996984 0.0059693 0.0003016 -0.0059693
5546579 0.0002975 -0.0057925 0.9997025 0.0057925 0.9997025 0.0057925 0.0002975 -0.0057925
5701257 0.0002936 -0.0056199 0.9997064 0.0056199 0.9997064 0.0056199 0.0002936 -0.0056199
5860248 0.0002898 -0.0054516 0.9997102 0.0054516 0.9997102 0.0054516 0.0002898 -0.0054516
6023672 0.0002861 -0.0052873 0.9997139 0.0052873 0.9997139 0.0052873 0.0002861 -0.0052873
6191655 0.0002826 -0.0051269 0.9997174 0.0051269 0.9997174 0.0051269 0.0002826 -0.0051269
6364321 0.0002792 -0.0049703 0.9997208 0.0049703 0.9997208 0.0049703 0.0002792 -0.0049703
6541803 0.0002759 -0.0048174 0.9997241 0.0048174 0.9997241 0.0048174 0.0002759 -0.0048174
6724235 0.0002728 -0.0046680 0.9997272 0.0046680 0.9997272 0.0046680 0.0002728 -0.0046680
6911753 0.0002697 -0.0045221 0.9997303 0.0045221 0.9997303 0.0045221 0.0002697 -0.0045221
7104501 0.0002668 -0.0043795 0.9997332 0.0043795 0.9997332 0.0043795 0.0002668 -0.0043795
7302625 0.0002640 -0.0042402 0.9997360 0.0042402 0.9997360 0.0042402 0.0002640 -0.0042402
7506273 0.0002612 -0.0041040 0.9997388 0.0041040 0.9997388 0.0041040 0.0002612 -0.0041040
7715601 0.0002586 -0.0039708 0.9997414 0.0039708 0.9997414 0.0039708 0.0002586 -0.0039708
7930766 0.0002561 -0.0038405 0.9997439 0.0038405 0.9997439 0.0038405 0.0002561 -0.0038405
8151931 0.0002536 -0.0037130 0.9997464 0.0037130 0.9997464 0.0037130 0.0002536 -0.0037130
8379264 0.0002513 -0.0035883 0.9997487 0.0035883 0.9997487 0.0035883 0.0002513 -0.0035883
8612937 0.0002491 -0.0034661 0.9997509 0.0034661 0.9997509 0.0034661 0.0002491 -0.0034661
8853126 0.0002469 -0.0033466 0.9997531 0.0033466 0.9997531 0.0033466 0.0002469 -0.0033466
9100013 0.0002449 -0.0032294 0.9997551 0.0032294 0.9997551 0.0032294 0.0002449 -0.0032294
9353785 0.0002429 -0.0031147 0.9997571 0.0031147 0.9997571 0.0031147 0.0002429 -0.0031147
9614634 0.0002410 -0.0030021 0.9997590 0.0030021 0.9997590 0.0030021 0.0002410 -0.0030021
9882758 0.0002393 -0.0028918 0.9997607 0.0028918 0.9997607 0.0028918 0.0002393 -0.0028918
10158358 0.0002376 -0.0027836 0.9997624 0.0027836 0.9997624 0.0027836 0.0002376 -0.0027836
10441645 0.0002360 -0.0026774 0.9997640 0.0026774 0.9997640 0.0026774 0.0002360 -0.0026774
10732831 0.0002345 -0.0025731 0.9997655 0.0025731 0.9997655 0.0025731 0.0002345 -0.0025731
11032137 0.0002331 -0.0024707 0.9997669 0.0024707 0.9997669 0.0024707 0.0002331 -0.0024707
11339791 0.0002318 -0.0023700 0.9997682 0.0023700 0.9997682 0.0023700 0.0002318 -0.0023700
11656024 0.0002307 -0.0022711 0.9997693 0.0022711 0.9997693 0.0022711 0.0002307 -0.0022711
11981075 0.0002296 -0.0021737 0.9997704 0.0021737 0.9997704 0.0021737 0.0002296 -0.0021737
12315192 0.0002286 -0.0020780 0.9997714 0.0020780 0.9997714 0.0020780 0.0002286 -0.0020780
12658625 0.0002277 -0.0019837 0.9997723 0.0019837 0.9997723 0.0019837 0.0002277 -0.0019837
13011637 0.0002270 -0.0018908 0.9997730 0.0018908 0.9997730 0.0018908 0.0002270 -0.0018908
13374492 0.0002264 -0.0017993 0.9997736 0.0017993 0.9997736 0.0017993 0.0002264 -0.0017993
13747467 0.0002258 -0.0017090 0.9997742 0.0017090 0.9997742 0.0017090 0.0002258 -0.0017090
14130843 0.0002255 -0.0016199 0.9997745 0.0016199 0.9997745 0.0016199 0.0002255 -0.0016199
14524910 0.0002252 -0.0015319 0.9997748 0.0015319 0.9997748 0.0015319 0.0002252 -0.0015319
14929966 0.0002251 -0.0014450 0.9997749 0.0014450 0.9997749 0.0014450 0.0002251 -0.0014450
15346318 0.0002251 -0.0013591 0.9997749 0.0013591 0.9997749 0.0013591 0.0002251 -0.0013591
15774281 0.0002253 -0.0012742 0.9997747 0.0012742 0.9997747 0.0012742 0.0002253 -0.0012742
16214179 0.0002256 -0.0011900 0.9997744 0.0011900 0.9997744 0.0011900 0.0002256 -0.0011900
16666344 0.0002261 -0.0011067 0.9997739 0.0011067 0.9997739 0.0011067 0.0002261 -0.0011067
17131118 0.0002267 -0.0010241 0.9997733 0.0010241 0.9997733 0.0010241 0.0002267 -0.0010241
17608854 0.0002275 -0.0009421 0.9997725 0.0009421 0.9997725 0.0009421 0.0002275 -0.0009421
18099912 0.0002285 -0.0008608 0.9997715 0.0008608 0.9997715 0.0008608 0.0002285 -0.0008608
18604665 0.0002297 -0.0007799 0.9997703 0.0007799 0.9997703 0.0007799 0.0002297 -0.0007799
19123493 0.0002311 -0.0006996 0.9997689 0.0006996 0.9997689 0.0006996 0.0002311 -0.0006996
19656790 0.0002327 -0.0006196 0.9997673 0.0006196 0.9997673 0.0006196 0.0002327 -0.0006196
20204959 0.0002345 -0.0005399 0.9997655 0.0005399 0.9997655 0.0005399 0.0002345 -0.0005399
20768415 0.0002366 -0.0004604 0.9997634 0.0004604 0.9997634 0.0004604 0.0002366 -0.0004604
21347584 0.0002389 -0.0003811 0.9997611 0.0003811 0.9997611 0.0003811 0.0002389 -0.0003811
21942904 0.0002414 -0.0003020 0.9997586 0.0003020 0.9997586 0.0003020 0.0002414 -0.0003020
22554827 0.0002443 -0.0002228 0.9997557 0.0002228 0.9997557 0.0002228 0.0002443 -0.0002228
23183813 0.0002475 -0.0001436 0.9997525 0.0001436 0.9997525 0.0001436 0.0002475 -0.0001436
23830340 0.0002510 -0.0000642 0.9997490 0.0000642 0.9997490 0.0000642 0.0002510 -0.0000642
24494897 0.0002548 0.0000154 0.9997452 -0.0000154 0.9997452 -0.0000154 0.0002548 0.0000154
25177987 0.0002591 0.0000952 0.9997409 -0.0000952 0.9997409 -0.0000952 0.0002591 0.0000952
25880126 0.0002638 0.0001755 0.9997362 -0.0001755 0.9997362 -0.0001755 0.0002638 0.0001755
26601845 0.0002689 0.0002563 0.9997311 -0.0002563 0.9997311 -0.0002563 0.0002689 0.0002563
27343691 0.0002746 0.0003378 0.9997254 -0.0003378 0.9997254 -0.0003378 0.0002746 0.0003378
28106225 0.0002808 0.0004199 0.9997192 -0.0004199 0.9997192 -0.0004199 0.0002808 0.0004199
28890023 0.0002876 0.0005028 0.9997124 -0.0005028 0.9997124 -0.0005028 0.0002876 0.0005028
29695680 0.0002952 0.0005868 0.9997048 -0.0005868 0.9997048 -0.0005868 0.0002952 0.0005868
30523804 0.0003035 0.0006718 0.9996965 -0.0006718 0.9996965 -0.0006718 0.0003035 0.0006718
31375021 0.0003127 0.0007581 0.9996873 -0.0007581 0.9996873 -0.0007581 0.0003127 0.0007581
32249977 0.0003230 0.0008459 0.9996770 -0.0008459 0.9996770 -0.0008459 0.0003230 0.0008459
33149332 0.0003345 0.0009352 0.9996655 -0.0009352 0.9996655 -0.0009352 0.0003345 0.0009352
34073768 0.0003474 0.0010264 0.9996526 -0.0010264 0.9996526 -0.0010264 0.0003474 0.0010264
35023984 0.0003620 0.0011196 0.9996380 -0.0011196 0.9996380 -0.0011196 0.0003620 0.0011196
36000698 0.0003785 0.0012152 0.9996215 -0.0012152 0.9996215 -0.0012152 0.0003785 0.0012152
37004650 0.0003974 0.0013133 0.9996026 -0.0013133 0.9996026 -0.0013133 0.0003974 0.0013133
38036599 0.0004193 0.0014144 0.9995807 -0.0014144 0.9995807 -0.0014144 0.0004193 0.0014144
39097326 0.0004448 0.0015187 0.9995552 -0.0015187 0.9995552 -0.0015187 0.0004448 0.0015187
