!Murata Part Number: GRM43DR72E224KW01
!These Parameters are Measured in Series Mode Connection
!Data Generated on Mar 30, 2021
!       o--ll--o
!Port1            Port2
!       o------o
!Operation Temp=25[degC], DC Bias Voltage=0[V]
!Freq. Start=100[kHz] Stop=6[GHz] 401[Steps]
# Hz S RI R 50
!Freq.(Hz) S11(Real) S11(Imag) S21(Real) S21(Imag) S12(Real) S12(Imag) S22(Real) S22(Imag)
100000 0.0064656 -0.0754972 0.9935344 0.0754972 0.9935344 0.0754972 0.0064656 -0.0754972
102789 0.0061470 -0.0734862 0.9938530 0.0734862 0.9938530 0.0734862 0.0061470 -0.0734862
105655 0.0058446 -0.0715274 0.9941554 0.0715274 0.9941554 0.0715274 0.0058446 -0.0715274
108602 0.0055574 -0.0696196 0.9944426 0.0696196 0.9944426 0.0696196 0.0055574 -0.0696196
111630 0.0052848 -0.0677616 0.9947152 0.0677616 0.9947152 0.0677616 0.0052848 -0.0677616
114743 0.0050259 -0.0659521 0.9949741 0.0659521 0.9949741 0.0659521 0.0050259 -0.0659521
117943 0.0047803 -0.0641899 0.9952197 0.0641899 0.9952197 0.0641899 0.0047803 -0.0641899
121232 0.0045470 -0.0624738 0.9954530 0.0624738 0.9954530 0.0624738 0.0045470 -0.0624738
124613 0.0043256 -0.0608027 0.9956744 0.0608027 0.9956744 0.0608027 0.0043256 -0.0608027
128088 0.0041155 -0.0591756 0.9958845 0.0591756 0.9958845 0.0591756 0.0041155 -0.0591756
131660 0.0039160 -0.0575911 0.9960840 0.0575911 0.9960840 0.0575911 0.0039160 -0.0575911
135332 0.0037266 -0.0560484 0.9962734 0.0560484 0.9962734 0.0560484 0.0037266 -0.0560484
139106 0.0035469 -0.0545463 0.9964531 0.0545463 0.9964531 0.0545463 0.0035469 -0.0545463
142985 0.0033763 -0.0530838 0.9966237 0.0530838 0.9966237 0.0530838 0.0033763 -0.0530838
146972 0.0032144 -0.0516600 0.9967856 0.0516600 0.9967856 0.0516600 0.0032144 -0.0516600
151071 0.0030608 -0.0502738 0.9969392 0.0502738 0.9969392 0.0502738 0.0030608 -0.0502738
155284 0.0029150 -0.0489242 0.9970850 0.0489242 0.9970850 0.0489242 0.0029150 -0.0489242
159614 0.0027766 -0.0476104 0.9972234 0.0476104 0.9972234 0.0476104 0.0027766 -0.0476104
164065 0.0026453 -0.0463314 0.9973547 0.0463314 0.9973547 0.0463314 0.0026453 -0.0463314
168641 0.0025207 -0.0450864 0.9974793 0.0450864 0.9974793 0.0450864 0.0025207 -0.0450864
173344 0.0024024 -0.0438744 0.9975976 0.0438744 0.9975976 0.0438744 0.0024024 -0.0438744
178178 0.0022902 -0.0426946 0.9977098 0.0426946 0.9977098 0.0426946 0.0022902 -0.0426946
183146 0.0021838 -0.0415462 0.9978162 0.0415462 0.9978162 0.0415462 0.0021838 -0.0415462
188254 0.0020827 -0.0404284 0.9979173 0.0404284 0.9979173 0.0404284 0.0020827 -0.0404284
193504 0.0019869 -0.0393403 0.9980131 0.0393403 0.9980131 0.0393403 0.0019869 -0.0393403
198900 0.0018959 -0.0382813 0.9981041 0.0382813 0.9981041 0.0382813 0.0018959 -0.0382813
204447 0.0018097 -0.0372505 0.9981903 0.0372505 0.9981903 0.0372505 0.0018097 -0.0372505
210148 0.0017278 -0.0362473 0.9982722 0.0362473 0.9982722 0.0362473 0.0017278 -0.0362473
216008 0.0016501 -0.0352708 0.9983499 0.0352708 0.9983499 0.0352708 0.0016501 -0.0352708
222032 0.0015763 -0.0343205 0.9984237 0.0343205 0.9984237 0.0343205 0.0015763 -0.0343205
228224 0.0015064 -0.0333956 0.9984936 0.0333956 0.9984936 0.0333956 0.0015064 -0.0333956
234589 0.0014400 -0.0324954 0.9985600 0.0324954 0.9985600 0.0324954 0.0014400 -0.0324954
241130 0.0013770 -0.0316194 0.9986230 0.0316194 0.9986230 0.0316194 0.0013770 -0.0316194
247855 0.0013172 -0.0307668 0.9986828 0.0307668 0.9986828 0.0307668 0.0013172 -0.0307668
254767 0.0012605 -0.0299371 0.9987395 0.0299371 0.9987395 0.0299371 0.0012605 -0.0299371
261871 0.0012066 -0.0291297 0.9987934 0.0291297 0.9987934 0.0291297 0.0012066 -0.0291297
269174 0.0011555 -0.0283439 0.9988445 0.0283439 0.9988445 0.0283439 0.0011555 -0.0283439
276681 0.0011069 -0.0275792 0.9988931 0.0275792 0.9988931 0.0275792 0.0011069 -0.0275792
284397 0.0010608 -0.0268351 0.9989392 0.0268351 0.9989392 0.0268351 0.0010608 -0.0268351
292328 0.0010171 -0.0261109 0.9989829 0.0261109 0.9989829 0.0261109 0.0010171 -0.0261109
300480 0.0009755 -0.0254062 0.9990245 0.0254062 0.9990245 0.0254062 0.0009755 -0.0254062
308859 0.0009360 -0.0247204 0.9990640 0.0247204 0.9990640 0.0247204 0.0009360 -0.0247204
317472 0.0008985 -0.0240531 0.9991015 0.0240531 0.9991015 0.0240531 0.0008985 -0.0240531
326326 0.0008629 -0.0234037 0.9991371 0.0234037 0.9991371 0.0234037 0.0008629 -0.0234037
335426 0.0008290 -0.0227718 0.9991710 0.0227718 0.9991710 0.0227718 0.0008290 -0.0227718
344780 0.0007968 -0.0221569 0.9992032 0.0221569 0.9992032 0.0221569 0.0007968 -0.0221569
354395 0.0007662 -0.0215585 0.9992338 0.0215585 0.9992338 0.0215585 0.0007662 -0.0215585
364278 0.0007371 -0.0209763 0.9992629 0.0209763 0.9992629 0.0209763 0.0007371 -0.0209763
374436 0.0007095 -0.0204097 0.9992905 0.0204097 0.9992905 0.0204097 0.0007095 -0.0204097
384878 0.0006831 -0.0198583 0.9993169 0.0198583 0.9993169 0.0198583 0.0006831 -0.0198583
395611 0.0006581 -0.0193218 0.9993419 0.0193218 0.9993419 0.0193218 0.0006581 -0.0193218
406644 0.0006343 -0.0187997 0.9993657 0.0187997 0.9993657 0.0187997 0.0006343 -0.0187997
417984 0.0006116 -0.0182916 0.9993884 0.0182916 0.9993884 0.0182916 0.0006116 -0.0182916
429640 0.0005899 -0.0177973 0.9994101 0.0177973 0.9994101 0.0177973 0.0005899 -0.0177973
441622 0.0005694 -0.0173162 0.9994306 0.0173162 0.9994306 0.0173162 0.0005694 -0.0173162
453937 0.0005498 -0.0168480 0.9994502 0.0168480 0.9994502 0.0168480 0.0005498 -0.0168480
466596 0.0005311 -0.0163925 0.9994689 0.0163925 0.9994689 0.0163925 0.0005311 -0.0163925
479608 0.0005133 -0.0159491 0.9994867 0.0159491 0.9994867 0.0159491 0.0005133 -0.0159491
492983 0.0004963 -0.0155177 0.9995037 0.0155177 0.9995037 0.0155177 0.0004963 -0.0155177
506731 0.0004801 -0.0150979 0.9995199 0.0150979 0.9995199 0.0150979 0.0004801 -0.0150979
520862 0.0004646 -0.0146894 0.9995354 0.0146894 0.9995354 0.0146894 0.0004646 -0.0146894
535387 0.0004499 -0.0142918 0.9995501 0.0142918 0.9995501 0.0142918 0.0004499 -0.0142918
550318 0.0004358 -0.0139049 0.9995642 0.0139049 0.9995642 0.0139049 0.0004358 -0.0139049
565664 0.0004224 -0.0135283 0.9995776 0.0135283 0.9995776 0.0135283 0.0004224 -0.0135283
581439 0.0004096 -0.0131619 0.9995904 0.0131619 0.9995904 0.0131619 0.0004096 -0.0131619
597654 0.0003973 -0.0128053 0.9996027 0.0128053 0.9996027 0.0128053 0.0003973 -0.0128053
614320 0.0003856 -0.0124582 0.9996144 0.0124582 0.9996144 0.0124582 0.0003856 -0.0124582
631452 0.0003744 -0.0121204 0.9996256 0.0121204 0.9996256 0.0121204 0.0003744 -0.0121204
649061 0.0003638 -0.0117917 0.9996362 0.0117917 0.9996362 0.0117917 0.0003638 -0.0117917
667162 0.0003536 -0.0114718 0.9996464 0.0114718 0.9996464 0.0114718 0.0003536 -0.0114718
685767 0.0003438 -0.0111604 0.9996562 0.0111604 0.9996562 0.0111604 0.0003438 -0.0111604
704891 0.0003345 -0.0108573 0.9996655 0.0108573 0.9996655 0.0108573 0.0003345 -0.0108573
724548 0.0003256 -0.0105624 0.9996744 0.0105624 0.9996744 0.0105624 0.0003256 -0.0105624
744754 0.0003171 -0.0102753 0.9996829 0.0102753 0.9996829 0.0102753 0.0003171 -0.0102753
765523 0.0003089 -0.0099959 0.9996911 0.0099959 0.9996911 0.0099959 0.0003089 -0.0099959
786871 0.0003011 -0.0097239 0.9996989 0.0097239 0.9996989 0.0097239 0.0003011 -0.0097239
808814 0.0002937 -0.0094592 0.9997063 0.0094592 0.9997063 0.0094592 0.0002937 -0.0094592
831370 0.0002866 -0.0092015 0.9997134 0.0092015 0.9997134 0.0092015 0.0002866 -0.0092015
854554 0.0002798 -0.0089507 0.9997202 0.0089507 0.9997202 0.0089507 0.0002798 -0.0089507
878385 0.0002732 -0.0087066 0.9997268 0.0087066 0.9997268 0.0087066 0.0002732 -0.0087066
902880 0.0002670 -0.0084689 0.9997330 0.0084689 0.9997330 0.0084689 0.0002670 -0.0084689
928059 0.0002611 -0.0082376 0.9997389 0.0082376 0.9997389 0.0082376 0.0002611 -0.0082376
953940 0.0002554 -0.0080124 0.9997446 0.0080124 0.9997446 0.0080124 0.0002554 -0.0080124
980542 0.0002499 -0.0077932 0.9997501 0.0077932 0.9997501 0.0077932 0.0002499 -0.0077932
1007887 0.0002447 -0.0075798 0.9997553 0.0075798 0.9997553 0.0075798 0.0002447 -0.0075798
1035994 0.0002398 -0.0073721 0.9997602 0.0073721 0.9997602 0.0073721 0.0002398 -0.0073721
1064885 0.0002350 -0.0071699 0.9997650 0.0071699 0.9997650 0.0071699 0.0002350 -0.0071699
1094581 0.0002304 -0.0069730 0.9997696 0.0069730 0.9997696 0.0069730 0.0002304 -0.0069730
1125106 0.0002261 -0.0067813 0.9997739 0.0067813 0.9997739 0.0067813 0.0002261 -0.0067813
1156481 0.0002219 -0.0065947 0.9997781 0.0065947 0.9997781 0.0065947 0.0002219 -0.0065947
1188732 0.0002180 -0.0064130 0.9997820 0.0064130 0.9997820 0.0064130 0.0002180 -0.0064130
1221882 0.0002142 -0.0062361 0.9997858 0.0062361 0.9997858 0.0062361 0.0002142 -0.0062361
1255957 0.0002105 -0.0060638 0.9997895 0.0060638 0.9997895 0.0060638 0.0002105 -0.0060638
1290982 0.0002070 -0.0058961 0.9997930 0.0058961 0.9997930 0.0058961 0.0002070 -0.0058961
1326984 0.0002037 -0.0057328 0.9997963 0.0057328 0.9997963 0.0057328 0.0002037 -0.0057328
1363989 0.0002005 -0.0055738 0.9997995 0.0055738 0.9997995 0.0055738 0.0002005 -0.0055738
1402027 0.0001975 -0.0054190 0.9998025 0.0054190 0.9998025 0.0054190 0.0001975 -0.0054190
1441125 0.0001946 -0.0052682 0.9998054 0.0052682 0.9998054 0.0052682 0.0001946 -0.0052682
1481314 0.0001918 -0.0051213 0.9998082 0.0051213 0.9998082 0.0051213 0.0001918 -0.0051213
1522623 0.0001891 -0.0049783 0.9998109 0.0049783 0.9998109 0.0049783 0.0001891 -0.0049783
1565085 0.0001866 -0.0048390 0.9998134 0.0048390 0.9998134 0.0048390 0.0001866 -0.0048390
1608730 0.0001841 -0.0047033 0.9998159 0.0047033 0.9998159 0.0047033 0.0001841 -0.0047033
1653593 0.0001818 -0.0045711 0.9998182 0.0045711 0.9998182 0.0045711 0.0001818 -0.0045711
1699707 0.0001795 -0.0044424 0.9998205 0.0044424 0.9998205 0.0044424 0.0001795 -0.0044424
1747106 0.0001773 -0.0043169 0.9998227 0.0043169 0.9998227 0.0043169 0.0001773 -0.0043169
1795828 0.0001753 -0.0041947 0.9998247 0.0041947 0.9998247 0.0041947 0.0001753 -0.0041947
1845908 0.0001733 -0.0040757 0.9998267 0.0040757 0.9998267 0.0040757 0.0001733 -0.0040757
1897385 0.0001714 -0.0039597 0.9998286 0.0039597 0.9998286 0.0039597 0.0001714 -0.0039597
1950297 0.0001696 -0.0038466 0.9998304 0.0038466 0.9998304 0.0038466 0.0001696 -0.0038466
2004685 0.0001678 -0.0037365 0.9998322 0.0037365 0.9998322 0.0037365 0.0001678 -0.0037365
2060590 0.0001661 -0.0036291 0.9998339 0.0036291 0.9998339 0.0036291 0.0001661 -0.0036291
2118054 0.0001645 -0.0035244 0.9998355 0.0035244 0.9998355 0.0035244 0.0001645 -0.0035244
2177120 0.0001629 -0.0034224 0.9998371 0.0034224 0.9998371 0.0034224 0.0001629 -0.0034224
2237833 0.0001614 -0.0033229 0.9998386 0.0033229 0.9998386 0.0033229 0.0001614 -0.0033229
2300240 0.0001599 -0.0032259 0.9998401 0.0032259 0.9998401 0.0032259 0.0001599 -0.0032259
2364387 0.0001585 -0.0031314 0.9998415 0.0031314 0.9998415 0.0031314 0.0001585 -0.0031314
2430322 0.0001572 -0.0030391 0.9998428 0.0030391 0.9998428 0.0030391 0.0001572 -0.0030391
2498097 0.0001559 -0.0029492 0.9998441 0.0029492 0.9998441 0.0029492 0.0001559 -0.0029492
2567761 0.0001546 -0.0028614 0.9998454 0.0028614 0.9998454 0.0028614 0.0001546 -0.0028614
2639368 0.0001534 -0.0027757 0.9998466 0.0027757 0.9998466 0.0027757 0.0001534 -0.0027757
2712972 0.0001523 -0.0026922 0.9998477 0.0026922 0.9998477 0.0026922 0.0001523 -0.0026922
2788629 0.0001511 -0.0026106 0.9998489 0.0026106 0.9998489 0.0026106 0.0001511 -0.0026106
2866396 0.0001500 -0.0025310 0.9998500 0.0025310 0.9998500 0.0025310 0.0001500 -0.0025310
2946331 0.0001490 -0.0024533 0.9998510 0.0024533 0.9998510 0.0024533 0.0001490 -0.0024533
3028495 0.0001480 -0.0023774 0.9998520 0.0023774 0.9998520 0.0023774 0.0001480 -0.0023774
3112951 0.0001470 -0.0023032 0.9998530 0.0023032 0.9998530 0.0023032 0.0001470 -0.0023032
3199762 0.0001461 -0.0022308 0.9998539 0.0022308 0.9998539 0.0022308 0.0001461 -0.0022308
3288994 0.0001452 -0.0021600 0.9998548 0.0021600 0.9998548 0.0021600 0.0001452 -0.0021600
3380714 0.0001443 -0.0020908 0.9998557 0.0020908 0.9998557 0.0020908 0.0001443 -0.0020908
3474992 0.0001435 -0.0020232 0.9998565 0.0020232 0.9998565 0.0020232 0.0001435 -0.0020232
3571899 0.0001427 -0.0019570 0.9998573 0.0019570 0.9998573 0.0019570 0.0001427 -0.0019570
3671508 0.0001419 -0.0018924 0.9998581 0.0018924 0.9998581 0.0018924 0.0001419 -0.0018924
3773896 0.0001412 -0.0018291 0.9998588 0.0018291 0.9998588 0.0018291 0.0001412 -0.0018291
3879139 0.0001405 -0.0017671 0.9998595 0.0017671 0.9998595 0.0017671 0.0001405 -0.0017671
3987316 0.0001398 -0.0017065 0.9998602 0.0017065 0.9998602 0.0017065 0.0001398 -0.0017065
4098510 0.0001392 -0.0016471 0.9998608 0.0016471 0.9998608 0.0016471 0.0001392 -0.0016471
4212806 0.0001386 -0.0015890 0.9998614 0.0015890 0.9998614 0.0015890 0.0001386 -0.0015890
4330288 0.0001381 -0.0015320 0.9998619 0.0015320 0.9998619 0.0015320 0.0001381 -0.0015320
4451047 0.0001376 -0.0014761 0.9998624 0.0014761 0.9998624 0.0014761 0.0001376 -0.0014761
4575173 0.0001371 -0.0014213 0.9998629 0.0014213 0.9998629 0.0014213 0.0001371 -0.0014213
4702761 0.0001367 -0.0013676 0.9998633 0.0013676 0.9998633 0.0013676 0.0001367 -0.0013676
4833907 0.0001363 -0.0013149 0.9998637 0.0013149 0.9998637 0.0013149 0.0001363 -0.0013149
4968711 0.0001359 -0.0012631 0.9998641 0.0012631 0.9998641 0.0012631 0.0001359 -0.0012631
5107273 0.0001356 -0.0012122 0.9998644 0.0012122 0.9998644 0.0012122 0.0001356 -0.0012122
5249700 0.0001354 -0.0011623 0.9998646 0.0011623 0.9998646 0.0011623 0.0001354 -0.0011623
5396098 0.0001352 -0.0011132 0.9998648 0.0011132 0.9998648 0.0011132 0.0001352 -0.0011132
5546579 0.0001350 -0.0010649 0.9998650 0.0010649 0.9998650 0.0010649 0.0001350 -0.0010649
5701257 0.0001349 -0.0010173 0.9998651 0.0010173 0.9998651 0.0010173 0.0001349 -0.0010173
5860248 0.0001348 -0.0009705 0.9998652 0.0009705 0.9998652 0.0009705 0.0001348 -0.0009705
6023672 0.0001348 -0.0009244 0.9998652 0.0009244 0.9998652 0.0009244 0.0001348 -0.0009244
6191655 0.0001348 -0.0008790 0.9998652 0.0008790 0.9998652 0.0008790 0.0001348 -0.0008790
6364321 0.0001349 -0.0008342 0.9998651 0.0008342 0.9998651 0.0008342 0.0001349 -0.0008342
6541803 0.0001351 -0.0007901 0.9998649 0.0007901 0.9998649 0.0007901 0.0001351 -0.0007901
6724235 0.0001353 -0.0007464 0.9998647 0.0007464 0.9998647 0.0007464 0.0001353 -0.0007464
6911753 0.0001356 -0.0007034 0.9998644 0.0007034 0.9998644 0.0007034 0.0001356 -0.0007034
7104501 0.0001360 -0.0006608 0.9998640 0.0006608 0.9998640 0.0006608 0.0001360 -0.0006608
7302625 0.0001364 -0.0006187 0.9998636 0.0006187 0.9998636 0.0006187 0.0001364 -0.0006187
7506273 0.0001369 -0.0005770 0.9998631 0.0005770 0.9998631 0.0005770 0.0001369 -0.0005770
7715601 0.0001375 -0.0005357 0.9998625 0.0005357 0.9998625 0.0005357 0.0001375 -0.0005357
7930766 0.0001382 -0.0004948 0.9998618 0.0004948 0.9998618 0.0004948 0.0001382 -0.0004948
8151931 0.0001389 -0.0004543 0.9998611 0.0004543 0.9998611 0.0004543 0.0001389 -0.0004543
8379264 0.0001397 -0.0004140 0.9998603 0.0004140 0.9998603 0.0004140 0.0001397 -0.0004140
8612937 0.0001407 -0.0003741 0.9998593 0.0003741 0.9998593 0.0003741 0.0001407 -0.0003741
8853126 0.0001417 -0.0003344 0.9998583 0.0003344 0.9998583 0.0003344 0.0001417 -0.0003344
9100013 0.0001429 -0.0002949 0.9998571 0.0002949 0.9998571 0.0002949 0.0001429 -0.0002949
9353785 0.0001441 -0.0002555 0.9998559 0.0002555 0.9998559 0.0002555 0.0001441 -0.0002555
9614634 0.0001455 -0.0002164 0.9998545 0.0002164 0.9998545 0.0002164 0.0001455 -0.0002164
9882758 0.0001470 -0.0001773 0.9998530 0.0001773 0.9998530 0.0001773 0.0001470 -0.0001773
10158358 0.0001487 -0.0001383 0.9998513 0.0001383 0.9998513 0.0001383 0.0001487 -0.0001383
10441645 0.0001505 -0.0000994 0.9998495 0.0000994 0.9998495 0.0000994 0.0001505 -0.0000994
10732831 0.0001524 -0.0000605 0.9998476 0.0000605 0.9998476 0.0000605 0.0001524 -0.0000605
11032137 0.0001545 -0.0000216 0.9998455 0.0000216 0.9998455 0.0000216 0.0001545 -0.0000216
11339791 0.0001569 0.0000173 0.9998431 -0.0000173 0.9998431 -0.0000173 0.0001569 0.0000173
11656024 0.0001594 0.0000563 0.9998406 -0.0000563 0.9998406 -0.0000563 0.0001594 0.0000563
11981075 0.0001621 0.0000955 0.9998379 -0.0000955 0.9998379 -0.0000955 0.0001621 0.0000955
12315192 0.0001651 0.0001348 0.9998349 -0.0001348 0.9998349 -0.0001348 0.0001651 0.0001348
12658625 0.0001683 0.0001743 0.9998317 -0.0001743 0.9998317 -0.0001743 0.0001683 0.0001743
13011637 0.0001718 0.0002140 0.9998282 -0.0002140 0.9998282 -0.0002140 0.0001718 0.0002140
13374492 0.0001756 0.0002540 0.9998244 -0.0002540 0.9998244 -0.0002540 0.0001756 0.0002540
13747467 0.0001798 0.0002942 0.9998202 -0.0002942 0.9998202 -0.0002942 0.0001798 0.0002942
14130843 0.0001844 0.0003349 0.9998156 -0.0003349 0.9998156 -0.0003349 0.0001844 0.0003349
14524910 0.0001894 0.0003759 0.9998106 -0.0003759 0.9998106 -0.0003759 0.0001894 0.0003759
14929966 0.0001948 0.0004173 0.9998052 -0.0004173 0.9998052 -0.0004173 0.0001948 0.0004173
15346318 0.0002008 0.0004592 0.9997992 -0.0004592 0.9997992 -0.0004592 0.0002008 0.0004592
15774281 0.0002075 0.0005015 0.9997925 -0.0005015 0.9997925 -0.0005015 0.0002075 0.0005015
16214179 0.0002148 0.0005445 0.9997852 -0.0005445 0.9997852 -0.0005445 0.0002148 0.0005445
16666344 0.0002230 0.0005879 0.9997770 -0.0005879 0.9997770 -0.0005879 0.0002230 0.0005879
17131118 0.0002320 0.0006320 0.9997680 -0.0006320 0.9997680 -0.0006320 0.0002320 0.0006320
17608854 0.0002422 0.0006767 0.9997578 -0.0006767 0.9997578 -0.0006767 0.0002422 0.0006767
18099912 0.0002536 0.0007219 0.9997464 -0.0007219 0.9997464 -0.0007219 0.0002536 0.0007219
18604665 0.0002664 0.0007678 0.9997336 -0.0007678 0.9997336 -0.0007678 0.0002664 0.0007678
19123493 0.0002809 0.0008141 0.9997191 -0.0008141 0.9997191 -0.0008141 0.0002809 0.0008141
19656790 0.0002974 0.0008608 0.9997026 -0.0008608 0.9997026 -0.0008608 0.0002974 0.0008608
20204959 0.0003162 0.0009076 0.9996838 -0.0009076 0.9996838 -0.0009076 0.0003162 0.0009076
20768415 0.0003376 0.0009542 0.9996624 -0.0009542 0.9996624 -0.0009542 0.0003376 0.0009542
21347584 0.0003621 0.0010001 0.9996379 -0.0010001 0.9996379 -0.0010001 0.0003621 0.0010001
21942904 0.0003898 0.0010445 0.9996102 -0.0010445 0.9996102 -0.0010445 0.0003898 0.0010445
22554827 0.0004210 0.0010863 0.9995790 -0.0010863 0.9995790 -0.0010863 0.0004210 0.0010863
23183813 0.0004554 0.0011243 0.9995446 -0.0011243 0.9995446 -0.0011243 0.0004554 0.0011243
23830340 0.0004923 0.0011569 0.9995077 -0.0011569 0.9995077 -0.0011569 0.0004923 0.0011569
24494897 0.0005300 0.0011824 0.9994700 -0.0011824 0.9994700 -0.0011824 0.0005300 0.0011824
25177987 0.0005659 0.0012000 0.9994341 -0.0012000 0.9994341 -0.0012000 0.0005659 0.0012000
25880126 0.0005965 0.0012098 0.9994035 -0.0012098 0.9994035 -0.0012098 0.0005965 0.0012098
26601845 0.0006185 0.0012139 0.9993815 -0.0012139 0.9993815 -0.0012139 0.0006185 0.0012139
27343691 0.0006295 0.0012162 0.9993705 -0.0012162 0.9993705 -0.0012162 0.0006295 0.0012162
28106225 0.0006296 0.0012213 0.9993704 -0.0012213 0.9993704 -0.0012213 0.0006296 0.0012213
28890023 0.0006210 0.0012332 0.9993790 -0.0012332 0.9993790 -0.0012332 0.0006210 0.0012332
29695680 0.0006073 0.0012541 0.9993927 -0.0012541 0.9993927 -0.0012541 0.0006073 0.0012541
30523804 0.0005919 0.0012842 0.9994081 -0.0012842 0.9994081 -0.0012842 0.0005919 0.0012842
31375021 0.0005779 0.0013225 0.9994221 -0.0013225 0.9994221 -0.0013225 0.0005779 0.0013225
32249977 0.0005670 0.0013674 0.9994330 -0.0013674 0.9994330 -0.0013674 0.0005670 0.0013674
33149332 0.0005602 0.0014170 0.9994398 -0.0014170 0.9994398 -0.0014170 0.0005602 0.0014170
34073768 0.0005577 0.0014699 0.9994423 -0.0014699 0.9994423 -0.0014699 0.0005577 0.0014699
35023984 0.0005597 0.0015247 0.9994403 -0.0015247 0.9994403 -0.0015247 0.0005597 0.0015247
36000698 0.0005657 0.0015804 0.9994343 -0.0015804 0.9994343 -0.0015804 0.0005657 0.0015804
37004650 0.0005754 0.0016360 0.9994246 -0.0016360 0.9994246 -0.0016360 0.0005754 0.0016360
38036599 0.0005883 0.0016908 0.9994117 -0.0016908 0.9994117 -0.0016908 0.0005883 0.0016908
39097326 0.0006039 0.0017443 0.9993961 -0.0017443 0.9993961 -0.0017443 0.0006039 0.0017443
