!Murata Part Number: GRM0335C2AR80WA01
!These Parameters are Measured in Series Mode Connection
!Data Generated on Mar 30, 2021
!       o--ll--o
!Port1            Port2
!       o------o
!Operation Temp=25[degC], DC Bias Voltage=0[V]
!Freq. Start=100[MHz] Stop=20[GHz] 401[Steps]
# Hz S RI R 50
!Freq.(Hz) S11(Real) S11(Imag) S21(Real) S21(Imag) S12(Real) S12(Imag) S22(Real) S22(Imag)
100000000 0.9974591 -0.0501415 0.0025409 0.0501415 0.0025409 0.0501415 0.9974591 -0.0501415
149750000 0.9943187 -0.0748573 0.0056813 0.0748573 0.0056813 0.0748573 0.9943187 -0.0748573
199500000 0.9899581 -0.0993019 0.0100419 0.0993019 0.0100419 0.0993019 0.9899581 -0.0993019
249250000 0.9844073 -0.1233898 0.0155927 0.1233898 0.0155927 0.1233898 0.9844073 -0.1233898
299000000 0.9777041 -0.1470400 0.0222959 0.1470400 0.0222959 0.1470400 0.9777041 -0.1470400
348750000 0.9698933 -0.1701762 0.0301067 0.1701762 0.0301067 0.1701762 0.9698933 -0.1701762
398500000 0.9610260 -0.1927274 0.0389740 0.1927274 0.0389740 0.1927274 0.9610260 -0.1927274
448250000 0.9511589 -0.2146292 0.0488411 0.2146292 0.0488411 0.2146292 0.9511589 -0.2146292
498000000 0.9403534 -0.2358235 0.0596466 0.2358235 0.0596466 0.2358235 0.9403534 -0.2358235
547750000 0.9286743 -0.2562594 0.0713257 0.2562594 0.0713257 0.2562594 0.9286743 -0.2562594
597500000 0.9161899 -0.2758929 0.0838101 0.2758929 0.0838101 0.2758929 0.9161899 -0.2758929
647250000 0.9029698 -0.2946874 0.0970302 0.2946874 0.0970302 0.2946874 0.9029698 -0.2946874
697000000 0.8890852 -0.3126134 0.1109148 0.3126134 0.1109148 0.3126134 0.8890852 -0.3126134
746750000 0.8746075 -0.3296483 0.1253925 0.3296483 0.1253925 0.3296483 0.8746075 -0.3296483
796500000 0.8596076 -0.3457765 0.1403924 0.3457765 0.1403924 0.3457765 0.8596076 -0.3457765
846250000 0.8441553 -0.3609886 0.1558447 0.3609886 0.1558447 0.3609886 0.8441553 -0.3609886
896000000 0.8283186 -0.3752813 0.1716814 0.3752813 0.1716814 0.3752813 0.8283186 -0.3752813
945750000 0.8121634 -0.3886568 0.1878366 0.3886568 0.1878366 0.3886568 0.8121634 -0.3886568
995500000 0.7957528 -0.4011225 0.2042472 0.4011225 0.2042472 0.4011225 0.7957528 -0.4011225
1045250000 0.7791470 -0.4126903 0.2208530 0.4126903 0.2208530 0.4126903 0.7791470 -0.4126903
1095000000 0.7624027 -0.4233761 0.2375973 0.4233761 0.2375973 0.4233761 0.7624027 -0.4233761
1144750000 0.7455732 -0.4331995 0.2544268 0.4331995 0.2544268 0.4331995 0.7455732 -0.4331995
1194500000 0.7287082 -0.4421830 0.2712918 0.4421830 0.2712918 0.4421830 0.7287082 -0.4421830
1244250000 0.7118534 -0.4503518 0.2881466 0.4503518 0.2881466 0.4503518 0.7118534 -0.4503518
1294000000 0.6950510 -0.4577328 0.3049490 0.4577328 0.3049490 0.4577328 0.6950510 -0.4577328
1343750000 0.6783395 -0.4643551 0.3216605 0.4643551 0.3216605 0.4643551 0.6783395 -0.4643551
1393500000 0.6617535 -0.4702487 0.3382465 0.4702487 0.3382465 0.4702487 0.6617535 -0.4702487
1443250000 0.6453244 -0.4754445 0.3546756 0.4754445 0.3546756 0.4754445 0.6453244 -0.4754445
1493000000 0.6290798 -0.4799741 0.3709202 0.4799741 0.3709202 0.4799741 0.6290798 -0.4799741
1542750000 0.6130445 -0.4838692 0.3869555 0.4838692 0.3869555 0.4838692 0.6130445 -0.4838692
1592500000 0.5972399 -0.4871616 0.4027601 0.4871616 0.4027601 0.4871616 0.5972399 -0.4871616
1642250000 0.5816845 -0.4898828 0.4183155 0.4898828 0.4183155 0.4898828 0.5816845 -0.4898828
1692000000 0.5663944 -0.4920640 0.4336056 0.4920640 0.4336056 0.4920640 0.5663944 -0.4920640
1741750000 0.5513828 -0.4937356 0.4486172 0.4937356 0.4486172 0.4937356 0.5513828 -0.4937356
1791500000 0.5366609 -0.4949274 0.4633391 0.4949274 0.4633391 0.4949274 0.5366609 -0.4949274
1841250000 0.5222375 -0.4956683 0.4777625 0.4956683 0.4777625 0.4956683 0.5222375 -0.4956683
1891000000 0.5081197 -0.4959865 0.4918803 0.4959865 0.4918803 0.4959865 0.5081197 -0.4959865
1940750000 0.4943127 -0.4959088 0.5056873 0.4959088 0.5056873 0.4959088 0.4943127 -0.4959088
1990500000 0.4808199 -0.4954613 0.5191801 0.4954613 0.5191801 0.4954613 0.4808199 -0.4954613
2040250000 0.4676437 -0.4946688 0.5323563 0.4946688 0.5323563 0.4946688 0.4676437 -0.4946688
2090000000 0.4547849 -0.4935551 0.5452151 0.4935551 0.5452151 0.4935551 0.4547849 -0.4935551
2139750000 0.4422432 -0.4921428 0.5577568 0.4921428 0.5577568 0.4921428 0.4422432 -0.4921428
2189500000 0.4300174 -0.4904536 0.5699826 0.4904536 0.5699826 0.4904536 0.4300174 -0.4904536
2239250000 0.4181051 -0.4885078 0.5818949 0.4885078 0.5818949 0.4885078 0.4181051 -0.4885078
2289000000 0.4065036 -0.4863249 0.5934964 0.4863249 0.5934964 0.4863249 0.4065036 -0.4863249
2338750000 0.3952091 -0.4839232 0.6047909 0.4839232 0.6047909 0.4839232 0.3952091 -0.4839232
2388500000 0.3842175 -0.4813199 0.6157825 0.4813199 0.6157825 0.4813199 0.3842175 -0.4813199
2438250000 0.3735240 -0.4785314 0.6264760 0.4785314 0.6264760 0.4785314 0.3735240 -0.4785314
2488000000 0.3631235 -0.4755730 0.6368765 0.4755730 0.6368765 0.4755730 0.3631235 -0.4755730
2537750000 0.3530106 -0.4724591 0.6469894 0.4724591 0.6469894 0.4724591 0.3530106 -0.4724591
2587500000 0.3431795 -0.4692032 0.6568205 0.4692032 0.6568205 0.4692032 0.3431795 -0.4692032
2637250000 0.3336242 -0.4658180 0.6663758 0.4658180 0.6663758 0.4658180 0.3336242 -0.4658180
2687000000 0.3243385 -0.4623154 0.6756615 0.4623154 0.6756615 0.4623154 0.3243385 -0.4623154
2736750000 0.3153163 -0.4587065 0.6846837 0.4587065 0.6846837 0.4587065 0.3153163 -0.4587065
2786500000 0.3065511 -0.4550017 0.6934489 0.4550017 0.6934489 0.4550017 0.3065511 -0.4550017
2836250000 0.2980365 -0.4512107 0.7019635 0.4512107 0.7019635 0.4512107 0.2980365 -0.4512107
2886000000 0.2897661 -0.4473424 0.7102339 0.4473424 0.7102339 0.4473424 0.2897661 -0.4473424
2935750000 0.2817335 -0.4434053 0.7182665 0.4434053 0.7182665 0.4434053 0.2817335 -0.4434053
2985500000 0.2739322 -0.4394073 0.7260678 0.4394073 0.7260678 0.4394073 0.2739322 -0.4394073
3035250000 0.2663559 -0.4353557 0.7336441 0.4353557 0.7336441 0.4353557 0.2663559 -0.4353557
3085000000 0.2589983 -0.4312571 0.7410017 0.4312571 0.7410017 0.4312571 0.2589983 -0.4312571
3134750000 0.2518532 -0.4271180 0.7481468 0.4271180 0.7481468 0.4271180 0.2518532 -0.4271180
3184500000 0.2449145 -0.4229441 0.7550855 0.4229441 0.7550855 0.4229441 0.2449145 -0.4229441
3234250000 0.2381762 -0.4187408 0.7618238 0.4187408 0.7618238 0.4187408 0.2381762 -0.4187408
3284000000 0.2316325 -0.4145133 0.7683675 0.4145133 0.7683675 0.4145133 0.2316325 -0.4145133
3333750000 0.2252774 -0.4102660 0.7747226 0.4102660 0.7747226 0.4102660 0.2252774 -0.4102660
3383500000 0.2191054 -0.4060033 0.7808946 0.4060033 0.7808946 0.4060033 0.2191054 -0.4060033
3433250000 0.2131111 -0.4017292 0.7868889 0.4017292 0.7868889 0.4017292 0.2131111 -0.4017292
3483000000 0.2072889 -0.3974472 0.7927111 0.3974472 0.7927111 0.3974472 0.2072889 -0.3974472
3532750000 0.2016338 -0.3931608 0.7983662 0.3931608 0.7983662 0.3931608 0.2016338 -0.3931608
3582500000 0.1961405 -0.3888732 0.8038595 0.3888732 0.8038595 0.3888732 0.1961405 -0.3888732
3632250000 0.1908041 -0.3845870 0.8091959 0.3845870 0.8091959 0.3845870 0.1908041 -0.3845870
3682000000 0.1856198 -0.3803050 0.8143802 0.3803050 0.8143802 0.3803050 0.1856198 -0.3803050
3731750000 0.1805830 -0.3760295 0.8194170 0.3760295 0.8194170 0.3760295 0.1805830 -0.3760295
3781500000 0.1756890 -0.3717628 0.8243110 0.3717628 0.8243110 0.3717628 0.1756890 -0.3717628
3831250000 0.1709335 -0.3675069 0.8290665 0.3675069 0.8290665 0.3675069 0.1709335 -0.3675069
3881000000 0.1663122 -0.3632635 0.8336878 0.3632635 0.8336878 0.3632635 0.1663122 -0.3632635
3930750000 0.1618209 -0.3590345 0.8381791 0.3590345 0.8381791 0.3590345 0.1618209 -0.3590345
3980500000 0.1574557 -0.3548214 0.8425443 0.3548214 0.8425443 0.3548214 0.1574557 -0.3548214
4030250000 0.1532126 -0.3506254 0.8467874 0.3506254 0.8467874 0.3506254 0.1532126 -0.3506254
4080000000 0.1490879 -0.3464479 0.8509121 0.3464479 0.8509121 0.3464479 0.1490879 -0.3464479
4129750000 0.1450780 -0.3422901 0.8549220 0.3422901 0.8549220 0.3422901 0.1450780 -0.3422901
4179500000 0.1411793 -0.3381529 0.8588207 0.3381529 0.8588207 0.3381529 0.1411793 -0.3381529
4229250000 0.1373884 -0.3340372 0.8626116 0.3340372 0.8626116 0.3340372 0.1373884 -0.3340372
4279000000 0.1337020 -0.3299440 0.8662980 0.3299440 0.8662980 0.3299440 0.1337020 -0.3299440
4328750000 0.1301169 -0.3258738 0.8698831 0.3258738 0.8698831 0.3258738 0.1301169 -0.3258738
4378500000 0.1266302 -0.3218275 0.8733698 0.3218275 0.8733698 0.3218275 0.1266302 -0.3218275
4428250000 0.1232386 -0.3178055 0.8767614 0.3178055 0.8767614 0.3178055 0.1232386 -0.3178055
4478000000 0.1199395 -0.3138084 0.8800605 0.3138084 0.8800605 0.3138084 0.1199395 -0.3138084
4527750000 0.1167300 -0.3098365 0.8832700 0.3098365 0.8832700 0.3098365 0.1167300 -0.3098365
4577500000 0.1136075 -0.3058904 0.8863925 0.3058904 0.8863925 0.3058904 0.1136075 -0.3058904
4627250000 0.1105692 -0.3019702 0.8894308 0.3019702 0.8894308 0.3019702 0.1105692 -0.3019702
4677000000 0.1076128 -0.2980763 0.8923872 0.2980763 0.8923872 0.2980763 0.1076128 -0.2980763
4726750000 0.1047358 -0.2942089 0.8952642 0.2942089 0.8952642 0.2942089 0.1047358 -0.2942089
4776500000 0.1019359 -0.2903681 0.8980641 0.2903681 0.8980641 0.2903681 0.1019359 -0.2903681
4826250000 0.0992108 -0.2865541 0.9007892 0.2865541 0.9007892 0.2865541 0.0992108 -0.2865541
4876000000 0.0965582 -0.2827671 0.9034418 0.2827671 0.9034418 0.2827671 0.0965582 -0.2827671
4925750000 0.0939762 -0.2790069 0.9060238 0.2790069 0.9060238 0.2790069 0.0939762 -0.2790069
4975500000 0.0914627 -0.2752738 0.9085373 0.2752738 0.9085373 0.2752738 0.0914627 -0.2752738
5025250000 0.0890156 -0.2715676 0.9109844 0.2715676 0.9109844 0.2715676 0.0890156 -0.2715676
5075000000 0.0866331 -0.2678884 0.9133669 0.2678884 0.9133669 0.2678884 0.0866331 -0.2678884
5124750000 0.0843134 -0.2642360 0.9156866 0.2642360 0.9156866 0.2642360 0.0843134 -0.2642360
5174500000 0.0820546 -0.2606105 0.9179454 0.2606105 0.9179454 0.2606105 0.0820546 -0.2606105
5224250000 0.0798550 -0.2570118 0.9201450 0.2570118 0.9201450 0.2570118 0.0798550 -0.2570118
5274000000 0.0777131 -0.2534396 0.9222869 0.2534396 0.9222869 0.2534396 0.0777131 -0.2534396
5323750000 0.0756271 -0.2498940 0.9243729 0.2498940 0.9243729 0.2498940 0.0756271 -0.2498940
5373500000 0.0735956 -0.2463747 0.9264044 0.2463747 0.9264044 0.2463747 0.0735956 -0.2463747
5423250000 0.0716169 -0.2428815 0.9283831 0.2428815 0.9283831 0.2428815 0.0716169 -0.2428815
5473000000 0.0696898 -0.2394144 0.9303102 0.2394144 0.9303102 0.2394144 0.0696898 -0.2394144
5522750000 0.0678127 -0.2359731 0.9321873 0.2359731 0.9321873 0.2359731 0.0678127 -0.2359731
5572500000 0.0659843 -0.2325574 0.9340157 0.2325574 0.9340157 0.2325574 0.0659843 -0.2325574
5622250000 0.0642034 -0.2291672 0.9357966 0.2291672 0.9357966 0.2291672 0.0642034 -0.2291672
5672000000 0.0624686 -0.2258021 0.9375314 0.2258021 0.9375314 0.2258021 0.0624686 -0.2258021
5721750000 0.0607786 -0.2224621 0.9392214 0.2224621 0.9392214 0.2224621 0.0607786 -0.2224621
5771500000 0.0591324 -0.2191468 0.9408676 0.2191468 0.9408676 0.2191468 0.0591324 -0.2191468
5821250000 0.0575288 -0.2158560 0.9424712 0.2158560 0.9424712 0.2158560 0.0575288 -0.2158560
5871000000 0.0559667 -0.2125895 0.9440333 0.2125895 0.9440333 0.2125895 0.0559667 -0.2125895
5920750000 0.0544449 -0.2093470 0.9455551 0.2093470 0.9455551 0.2093470 0.0544449 -0.2093470
5970500000 0.0529625 -0.2061284 0.9470375 0.2061284 0.9470375 0.2061284 0.0529625 -0.2061284
6020250000 0.0515184 -0.2029333 0.9484816 0.2029333 0.9484816 0.2029333 0.0515184 -0.2029333
6070000000 0.0501117 -0.1997614 0.9498883 0.1997614 0.9498883 0.1997614 0.0501117 -0.1997614
6119750000 0.0487414 -0.1966126 0.9512586 0.1966126 0.9512586 0.1966126 0.0487414 -0.1966126
6169500000 0.0474066 -0.1934866 0.9525934 0.1934866 0.9525934 0.1934866 0.0474066 -0.1934866
6219250000 0.0461065 -0.1903830 0.9538935 0.1903830 0.9538935 0.1903830 0.0461065 -0.1903830
6269000000 0.0448401 -0.1873018 0.9551599 0.1873018 0.9551599 0.1873018 0.0448401 -0.1873018
6318750000 0.0436067 -0.1842425 0.9563933 0.1842425 0.9563933 0.1842425 0.0436067 -0.1842425
6368500000 0.0424054 -0.1812050 0.9575946 0.1812050 0.9575946 0.1812050 0.0424054 -0.1812050
6418250000 0.0412354 -0.1781889 0.9587646 0.1781889 0.9587646 0.1781889 0.0412354 -0.1781889
6468000000 0.0400961 -0.1751940 0.9599039 0.1751940 0.9599039 0.1751940 0.0400961 -0.1751940
6517750000 0.0389866 -0.1722201 0.9610134 0.1722201 0.9610134 0.1722201 0.0389866 -0.1722201
6567500000 0.0379063 -0.1692669 0.9620937 0.1692669 0.9620937 0.1692669 0.0379063 -0.1692669
6617250000 0.0368545 -0.1663341 0.9631455 0.1663341 0.9631455 0.1663341 0.0368545 -0.1663341
6667000000 0.0358305 -0.1634215 0.9641695 0.1634215 0.9641695 0.1634215 0.0358305 -0.1634215
6716750000 0.0348336 -0.1605288 0.9651664 0.1605288 0.9651664 0.1605288 0.0348336 -0.1605288
6766500000 0.0338633 -0.1576558 0.9661367 0.1576558 0.9661367 0.1576558 0.0338633 -0.1576558
6816250000 0.0329190 -0.1548021 0.9670810 0.1548021 0.9670810 0.1548021 0.0329190 -0.1548021
6866000000 0.0320000 -0.1519677 0.9680000 0.1519677 0.9680000 0.1519677 0.0320000 -0.1519677
6915750000 0.0311057 -0.1491521 0.9688943 0.1491521 0.9688943 0.1491521 0.0311057 -0.1491521
6965500000 0.0302357 -0.1463552 0.9697643 0.1463552 0.9697643 0.1463552 0.0302357 -0.1463552
7015250000 0.0293894 -0.1435767 0.9706106 0.1435767 0.9706106 0.1435767 0.0293894 -0.1435767
7065000000 0.0285662 -0.1408164 0.9714338 0.1408164 0.9714338 0.1408164 0.0285662 -0.1408164
7114750000 0.0277657 -0.1380740 0.9722343 0.1380740 0.9722343 0.1380740 0.0277657 -0.1380740
7164500000 0.0269874 -0.1353493 0.9730126 0.1353493 0.9730126 0.1353493 0.0269874 -0.1353493
7214250000 0.0262308 -0.1326421 0.9737692 0.1326421 0.9737692 0.1326421 0.0262308 -0.1326421
7264000000 0.0254954 -0.1299521 0.9745046 0.1299521 0.9745046 0.1299521 0.0254954 -0.1299521
7313750000 0.0247808 -0.1272791 0.9752192 0.1272791 0.9752192 0.1272791 0.0247808 -0.1272791
7363500000 0.0240865 -0.1246228 0.9759135 0.1246228 0.9759135 0.1246228 0.0240865 -0.1246228
7413250000 0.0234121 -0.1219831 0.9765879 0.1219831 0.9765879 0.1219831 0.0234121 -0.1219831
7463000000 0.0227573 -0.1193597 0.9772427 0.1193597 0.9772427 0.1193597 0.0227573 -0.1193597
7512750000 0.0221216 -0.1167524 0.9778784 0.1167524 0.9778784 0.1167524 0.0221216 -0.1167524
7562500000 0.0215046 -0.1141610 0.9784954 0.1141610 0.9784954 0.1141610 0.0215046 -0.1141610
7612250000 0.0209059 -0.1115852 0.9790941 0.1115852 0.9790941 0.1115852 0.0209059 -0.1115852
7662000000 0.0203253 -0.1090249 0.9796747 0.1090249 0.9796747 0.1090249 0.0203253 -0.1090249
7711750000 0.0197622 -0.1064798 0.9802378 0.1064798 0.9802378 0.1064798 0.0197622 -0.1064798
7761500000 0.0192165 -0.1039497 0.9807835 0.1039497 0.9807835 0.1039497 0.0192165 -0.1039497
7811250000 0.0186877 -0.1014344 0.9813123 0.1014344 0.9813123 0.1014344 0.0186877 -0.1014344
7861000000 0.0181755 -0.0989338 0.9818245 0.0989338 0.9818245 0.0989338 0.0181755 -0.0989338
7910750000 0.0176796 -0.0964476 0.9823204 0.0964476 0.9823204 0.0964476 0.0176796 -0.0964476
7960500000 0.0171998 -0.0939756 0.9828002 0.0939756 0.9828002 0.0939756 0.0171998 -0.0939756
8010250000 0.0167356 -0.0915176 0.9832644 0.0915176 0.9832644 0.0915176 0.0167356 -0.0915176
8060000000 0.0162868 -0.0890734 0.9837132 0.0890734 0.9837132 0.0890734 0.0162868 -0.0890734
8109750000 0.0158532 -0.0866429 0.9841468 0.0866429 0.9841468 0.0866429 0.0158532 -0.0866429
8159500000 0.0154344 -0.0842259 0.9845656 0.0842259 0.9845656 0.0842259 0.0154344 -0.0842259
8209250000 0.0150301 -0.0818221 0.9849699 0.0818221 0.9849699 0.0818221 0.0150301 -0.0818221
8259000000 0.0146402 -0.0794314 0.9853598 0.0794314 0.9853598 0.0794314 0.0146402 -0.0794314
8308750000 0.0142644 -0.0770537 0.9857356 0.0770537 0.9857356 0.0770537 0.0142644 -0.0770537
8358500000 0.0139024 -0.0746886 0.9860976 0.0746886 0.9860976 0.0746886 0.0139024 -0.0746886
8408250000 0.0135539 -0.0723361 0.9864461 0.0723361 0.9864461 0.0723361 0.0135539 -0.0723361
8458000000 0.0132188 -0.0699960 0.9867812 0.0699960 0.9867812 0.0699960 0.0132188 -0.0699960
8507750000 0.0128968 -0.0676681 0.9871032 0.0676681 0.9871032 0.0676681 0.0128968 -0.0676681
8557500000 0.0125877 -0.0653523 0.9874123 0.0653523 0.9874123 0.0653523 0.0125877 -0.0653523
8607250000 0.0122913 -0.0630483 0.9877087 0.0630483 0.9877087 0.0630483 0.0122913 -0.0630483
8657000000 0.0120074 -0.0607561 0.9879926 0.0607561 0.9879926 0.0607561 0.0120074 -0.0607561
8706750000 0.0117357 -0.0584754 0.9882643 0.0584754 0.9882643 0.0584754 0.0117357 -0.0584754
8756500000 0.0114761 -0.0562061 0.9885239 0.0562061 0.9885239 0.0562061 0.0114761 -0.0562061
8806250000 0.0112284 -0.0539481 0.9887716 0.0539481 0.9887716 0.0539481 0.0112284 -0.0539481
8856000000 0.0109924 -0.0517011 0.9890076 0.0517011 0.9890076 0.0517011 0.0109924 -0.0517011
8905750000 0.0107679 -0.0494651 0.9892321 0.0494651 0.9892321 0.0494651 0.0107679 -0.0494651
8955500000 0.0105547 -0.0472399 0.9894453 0.0472399 0.9894453 0.0472399 0.0105547 -0.0472399
9005250000 0.0103527 -0.0450253 0.9896473 0.0450253 0.9896473 0.0450253 0.0103527 -0.0450253
9055000000 0.0101616 -0.0428212 0.9898384 0.0428212 0.9898384 0.0428212 0.0101616 -0.0428212
9104750000 0.0099814 -0.0406275 0.9900186 0.0406275 0.9900186 0.0406275 0.0099814 -0.0406275
9154500000 0.0098118 -0.0384439 0.9901882 0.0384439 0.9901882 0.0384439 0.0098118 -0.0384439
9204250000 0.0096528 -0.0362705 0.9903472 0.0362705 0.9903472 0.0362705 0.0096528 -0.0362705
9254000000 0.0095041 -0.0341069 0.9904959 0.0341069 0.9904959 0.0341069 0.0095041 -0.0341069
9303750000 0.0093656 -0.0319532 0.9906344 0.0319532 0.9906344 0.0319532 0.0093656 -0.0319532
9353500000 0.0092372 -0.0298091 0.9907628 0.0298091 0.9907628 0.0298091 0.0092372 -0.0298091
9403250000 0.0091187 -0.0276746 0.9908813 0.0276746 0.9908813 0.0276746 0.0091187 -0.0276746
9453000000 0.0090100 -0.0255494 0.9909900 0.0255494 0.9909900 0.0255494 0.0090100 -0.0255494
9502750000 0.0089110 -0.0234336 0.9910890 0.0234336 0.9910890 0.0234336 0.0089110 -0.0234336
9552500000 0.0088215 -0.0213268 0.9911785 0.0213268 0.9911785 0.0213268 0.0088215 -0.0213268
9602250000 0.0087414 -0.0192291 0.9912586 0.0192291 0.9912586 0.0192291 0.0087414 -0.0192291
9652000000 0.0086706 -0.0171403 0.9913294 0.0171403 0.9913294 0.0171403 0.0086706 -0.0171403
9701750000 0.0086089 -0.0150603 0.9913911 0.0150603 0.9913911 0.0150603 0.0086089 -0.0150603
9751500000 0.0085563 -0.0129889 0.9914437 0.0129889 0.9914437 0.0129889 0.0085563 -0.0129889
9801250000 0.0085126 -0.0109261 0.9914874 0.0109261 0.9914874 0.0109261 0.0085126 -0.0109261
9851000000 0.0084777 -0.0088717 0.9915223 0.0088717 0.9915223 0.0088717 0.0084777 -0.0088717
9900750000 0.0084516 -0.0068256 0.9915484 0.0068256 0.9915484 0.0068256 0.0084516 -0.0068256
9950500000 0.0084341 -0.0047877 0.9915659 0.0047877 0.9915659 0.0047877 0.0084341 -0.0047877
10000250000 0.0084250 -0.0027579 0.9915750 0.0027579 0.9915750 0.0027579 0.0084250 -0.0027579
10050000000 0.0084244 -0.0007360 0.9915756 0.0007360 0.9915756 0.0007360 0.0084244 -0.0007360
10099750000 0.0084321 0.0012780 0.9915679 -0.0012780 0.9915679 -0.0012780 0.0084321 0.0012780
10149500000 0.0084480 0.0032842 0.9915520 -0.0032842 0.9915520 -0.0032842 0.0084480 0.0032842
10199250000 0.0084721 0.0052828 0.9915279 -0.0052828 0.9915279 -0.0052828 0.0084721 0.0052828
10249000000 0.0085042 0.0072738 0.9914958 -0.0072738 0.9914958 -0.0072738 0.0085042 0.0072738
10298750000 0.0085443 0.0092574 0.9914557 -0.0092574 0.9914557 -0.0092574 0.0085443 0.0092574
10348500000 0.0085922 0.0112336 0.9914078 -0.0112336 0.9914078 -0.0112336 0.0085922 0.0112336
10398250000 0.0086479 0.0132026 0.9913521 -0.0132026 0.9913521 -0.0132026 0.0086479 0.0132026
10448000000 0.0087113 0.0151644 0.9912887 -0.0151644 0.9912887 -0.0151644 0.0087113 0.0151644
10497750000 0.0087824 0.0171192 0.9912176 -0.0171192 0.9912176 -0.0171192 0.0087824 0.0171192
