!Murata Part Number: GRM0335C1H160JA01
!These Parameters are Measured in Series Mode Connection
!Data Generated on Mar 30, 2021
!       o--ll--o
!Port1            Port2
!       o------o
!Operation Temp=25[degC], DC Bias Voltage=0[V]
!Freq. Start=100[MHz] Stop=9[GHz] 401[Steps]
# Hz S RI R 50
!Freq.(Hz) S11(Real) S11(Imag) S21(Real) S21(Imag) S12(Real) S12(Imag) S22(Real) S22(Imag)
100000000 0.4965651 -0.4991201 0.5034349 0.4991201 0.5034349 0.4991201 0.4965651 -0.4991201
121000000 0.4023604 -0.4893218 0.5976396 0.4893218 0.5976396 0.4893218 0.4023604 -0.4893218
142000000 0.3281654 -0.4683086 0.6718346 0.4683086 0.6718346 0.4683086 0.3281654 -0.4683086
163000000 0.2702719 -0.4426776 0.7297281 0.4426776 0.7297281 0.4426776 0.2702719 -0.4426776
184000000 0.2250220 -0.4159871 0.7749780 0.4159871 0.7749780 0.4159871 0.2250220 -0.4159871
205000000 0.1893984 -0.3900267 0.8106016 0.3900267 0.8106016 0.3900267 0.1893984 -0.3900267
226000000 0.1610781 -0.3656149 0.8389219 0.3656149 0.8389219 0.3656149 0.1610781 -0.3656149
247000000 0.1383216 -0.3430575 0.8616784 0.3430575 0.8616784 0.3430575 0.1383216 -0.3430575
268000000 0.1198370 -0.3223977 0.8801630 0.3223977 0.8801630 0.3223977 0.1198370 -0.3223977
289000000 0.1046647 -0.3035522 0.8953353 0.3035522 0.8953353 0.3035522 0.1046647 -0.3035522
310000000 0.0920871 -0.2863825 0.9079129 0.2863825 0.9079129 0.2863825 0.0920871 -0.2863825
331000000 0.0815634 -0.2707321 0.9184366 0.2707321 0.9184366 0.2707321 0.0815634 -0.2707321
352000000 0.0726822 -0.2564454 0.9273178 0.2564454 0.9273178 0.2564454 0.0726822 -0.2564454
373000000 0.0651272 -0.2433763 0.9348728 0.2433763 0.9348728 0.2433763 0.0651272 -0.2433763
394000000 0.0586529 -0.2313921 0.9413471 0.2313921 0.9413471 0.2313921 0.0586529 -0.2313921
415000000 0.0530669 -0.2203743 0.9469331 0.2203743 0.9469331 0.2203743 0.0530669 -0.2203743
436000000 0.0482170 -0.2102178 0.9517830 0.2102178 0.9517830 0.2102178 0.0482170 -0.2102178
457000000 0.0439817 -0.2008305 0.9560183 0.2008305 0.9560183 0.2008305 0.0439817 -0.2008305
478000000 0.0402632 -0.1921312 0.9597368 0.1921312 0.9597368 0.1921312 0.0402632 -0.1921312
499000000 0.0369822 -0.1840490 0.9630178 0.1840490 0.9630178 0.1840490 0.0369822 -0.1840490
520000000 0.0340737 -0.1765214 0.9659263 0.1765214 0.9659263 0.1765214 0.0340737 -0.1765214
541000000 0.0314845 -0.1694937 0.9685155 0.1694937 0.9685155 0.1694937 0.0314845 -0.1694937
562000000 0.0291702 -0.1629176 0.9708298 0.1629176 0.9708298 0.1629176 0.0291702 -0.1629176
583000000 0.0270939 -0.1567508 0.9729061 0.1567508 0.9729061 0.1567508 0.0270939 -0.1567508
604000000 0.0252246 -0.1509554 0.9747754 0.1509554 0.9747754 0.1509554 0.0252246 -0.1509554
625000000 0.0235363 -0.1454984 0.9764637 0.1454984 0.9764637 0.1454984 0.0235363 -0.1454984
646000000 0.0220068 -0.1403500 0.9779932 0.1403500 0.9779932 0.1403500 0.0220068 -0.1403500
667000000 0.0206172 -0.1354839 0.9793828 0.1354839 0.9793828 0.1354839 0.0206172 -0.1354839
688000000 0.0193513 -0.1308767 0.9806487 0.1308767 0.9806487 0.1308767 0.0193513 -0.1308767
709000000 0.0181952 -0.1265072 0.9818048 0.1265072 0.9818048 0.1265072 0.0181952 -0.1265072
730000000 0.0171369 -0.1223565 0.9828631 0.1223565 0.9828631 0.1223565 0.0171369 -0.1223565
751000000 0.0161661 -0.1184077 0.9838339 0.1184077 0.9838339 0.1184077 0.0161661 -0.1184077
772000000 0.0152736 -0.1146455 0.9847264 0.1146455 0.9847264 0.1146455 0.0152736 -0.1146455
793000000 0.0144515 -0.1110560 0.9855485 0.1110560 0.9855485 0.1110560 0.0144515 -0.1110560
814000000 0.0136928 -0.1076267 0.9863072 0.1076267 0.9863072 0.1076267 0.0136928 -0.1076267
835000000 0.0129915 -0.1043462 0.9870085 0.1043462 0.9870085 0.1043462 0.0129915 -0.1043462
856000000 0.0123422 -0.1012042 0.9876578 0.1012042 0.9876578 0.1012042 0.0123422 -0.1012042
877000000 0.0117402 -0.0981913 0.9882598 0.0981913 0.9882598 0.0981913 0.0117402 -0.0981913
898000000 0.0111810 -0.0952989 0.9888190 0.0952989 0.9888190 0.0952989 0.0111810 -0.0952989
919000000 0.0106611 -0.0925190 0.9893389 0.0925190 0.9893389 0.0925190 0.0106611 -0.0925190
940000000 0.0101771 -0.0898446 0.9898229 0.0898446 0.9898229 0.0898446 0.0101771 -0.0898446
961000000 0.0097258 -0.0872689 0.9902742 0.0872689 0.9902742 0.0872689 0.0097258 -0.0872689
982000000 0.0093048 -0.0847860 0.9906952 0.0847860 0.9906952 0.0847860 0.0093048 -0.0847860
1003000000 0.0089114 -0.0823902 0.9910886 0.0823902 0.9910886 0.0823902 0.0089114 -0.0823902
1024000000 0.0085437 -0.0800764 0.9914563 0.0800764 0.9914563 0.0800764 0.0085437 -0.0800764
1045000000 0.0081995 -0.0778398 0.9918005 0.0778398 0.9918005 0.0778398 0.0081995 -0.0778398
1066000000 0.0078771 -0.0756760 0.9921229 0.0756760 0.9921229 0.0756760 0.0078771 -0.0756760
1087000000 0.0075749 -0.0735809 0.9924251 0.0735809 0.9924251 0.0735809 0.0075749 -0.0735809
1108000000 0.0072915 -0.0715507 0.9927085 0.0715507 0.9927085 0.0715507 0.0072915 -0.0715507
1129000000 0.0070254 -0.0695819 0.9929746 0.0695819 0.9929746 0.0695819 0.0070254 -0.0695819
1150000000 0.0067756 -0.0676712 0.9932244 0.0676712 0.9932244 0.0676712 0.0067756 -0.0676712
1171000000 0.0065408 -0.0658157 0.9934592 0.0658157 0.9934592 0.0658157 0.0065408 -0.0658157
1192000000 0.0063202 -0.0640123 0.9936798 0.0640123 0.9936798 0.0640123 0.0063202 -0.0640123
1213000000 0.0061126 -0.0622586 0.9938874 0.0622586 0.9938874 0.0622586 0.0061126 -0.0622586
1234000000 0.0059174 -0.0605520 0.9940826 0.0605520 0.9940826 0.0605520 0.0059174 -0.0605520
1255000000 0.0057337 -0.0588902 0.9942663 0.0588902 0.9942663 0.0588902 0.0057337 -0.0588902
1276000000 0.0055608 -0.0572711 0.9944392 0.0572711 0.9944392 0.0572711 0.0055608 -0.0572711
1297000000 0.0053981 -0.0556925 0.9946019 0.0556925 0.9946019 0.0556925 0.0053981 -0.0556925
1318000000 0.0052449 -0.0541527 0.9947551 0.0541527 0.9947551 0.0541527 0.0052449 -0.0541527
1339000000 0.0051007 -0.0526497 0.9948993 0.0526497 0.9948993 0.0526497 0.0051007 -0.0526497
1360000000 0.0049650 -0.0511819 0.9950350 0.0511819 0.9950350 0.0511819 0.0049650 -0.0511819
1381000000 0.0048372 -0.0497478 0.9951628 0.0497478 0.9951628 0.0497478 0.0048372 -0.0497478
1402000000 0.0047170 -0.0483458 0.9952830 0.0483458 0.9952830 0.0483458 0.0047170 -0.0483458
1423000000 0.0046039 -0.0469746 0.9953961 0.0469746 0.9953961 0.0469746 0.0046039 -0.0469746
1444000000 0.0044976 -0.0456327 0.9955024 0.0456327 0.9955024 0.0456327 0.0044976 -0.0456327
1465000000 0.0043976 -0.0443190 0.9956024 0.0443190 0.9956024 0.0443190 0.0043976 -0.0443190
1486000000 0.0043037 -0.0430322 0.9956963 0.0430322 0.9956963 0.0430322 0.0043037 -0.0430322
1507000000 0.0042155 -0.0417713 0.9957845 0.0417713 0.9957845 0.0417713 0.0042155 -0.0417713
1528000000 0.0041328 -0.0405352 0.9958672 0.0405352 0.9958672 0.0405352 0.0041328 -0.0405352
1549000000 0.0040553 -0.0393228 0.9959447 0.0393228 0.9959447 0.0393228 0.0040553 -0.0393228
1570000000 0.0039828 -0.0381332 0.9960172 0.0381332 0.9960172 0.0381332 0.0039828 -0.0381332
1591000000 0.0039149 -0.0369655 0.9960851 0.0369655 0.9960851 0.0369655 0.0039149 -0.0369655
1612000000 0.0038516 -0.0358189 0.9961484 0.0358189 0.9961484 0.0358189 0.0038516 -0.0358189
1633000000 0.0037925 -0.0346925 0.9962075 0.0346925 0.9962075 0.0346925 0.0037925 -0.0346925
1654000000 0.0037375 -0.0335856 0.9962625 0.0335856 0.9962625 0.0335856 0.0037375 -0.0335856
1675000000 0.0036864 -0.0324974 0.9963136 0.0324974 0.9963136 0.0324974 0.0036864 -0.0324974
1696000000 0.0036391 -0.0314272 0.9963609 0.0314272 0.9963609 0.0314272 0.0036391 -0.0314272
1717000000 0.0035953 -0.0303744 0.9964047 0.0303744 0.9964047 0.0303744 0.0035953 -0.0303744
1738000000 0.0035550 -0.0293383 0.9964450 0.0293383 0.9964450 0.0293383 0.0035550 -0.0293383
1759000000 0.0035179 -0.0283182 0.9964821 0.0283182 0.9964821 0.0283182 0.0035179 -0.0283182
1780000000 0.0034840 -0.0273137 0.9965160 0.0273137 0.9965160 0.0273137 0.0034840 -0.0273137
1801000000 0.0034532 -0.0263242 0.9965468 0.0263242 0.9965468 0.0263242 0.0034532 -0.0263242
1822000000 0.0034252 -0.0253491 0.9965748 0.0253491 0.9965748 0.0253491 0.0034252 -0.0253491
1843000000 0.0034001 -0.0243879 0.9965999 0.0243879 0.9965999 0.0243879 0.0034001 -0.0243879
1864000000 0.0033776 -0.0234402 0.9966224 0.0234402 0.9966224 0.0234402 0.0033776 -0.0234402
1885000000 0.0033578 -0.0225054 0.9966422 0.0225054 0.9966422 0.0225054 0.0033578 -0.0225054
1906000000 0.0033404 -0.0215832 0.9966596 0.0215832 0.9966596 0.0215832 0.0033404 -0.0215832
1927000000 0.0033255 -0.0206731 0.9966745 0.0206731 0.9966745 0.0206731 0.0033255 -0.0206731
1948000000 0.0033129 -0.0197748 0.9966871 0.0197748 0.9966871 0.0197748 0.0033129 -0.0197748
1969000000 0.0033026 -0.0188877 0.9966974 0.0188877 0.9966974 0.0188877 0.0033026 -0.0188877
1990000000 0.0032944 -0.0180116 0.9967056 0.0180116 0.9967056 0.0180116 0.0032944 -0.0180116
2011000000 0.0032883 -0.0171460 0.9967117 0.0171460 0.9967117 0.0171460 0.0032883 -0.0171460
2032000000 0.0032843 -0.0162907 0.9967157 0.0162907 0.9967157 0.0162907 0.0032843 -0.0162907
2053000000 0.0032823 -0.0154453 0.9967177 0.0154453 0.9967177 0.0154453 0.0032823 -0.0154453
2074000000 0.0032822 -0.0146094 0.9967178 0.0146094 0.9967178 0.0146094 0.0032822 -0.0146094
2095000000 0.0032839 -0.0137829 0.9967161 0.0137829 0.9967161 0.0137829 0.0032839 -0.0137829
2116000000 0.0032874 -0.0129653 0.9967126 0.0129653 0.9967126 0.0129653 0.0032874 -0.0129653
2137000000 0.0032927 -0.0121564 0.9967073 0.0121564 0.9967073 0.0121564 0.0032927 -0.0121564
2158000000 0.0032997 -0.0113559 0.9967003 0.0113559 0.9967003 0.0113559 0.0032997 -0.0113559
2179000000 0.0033083 -0.0105636 0.9966917 0.0105636 0.9966917 0.0105636 0.0033083 -0.0105636
2200000000 0.0033186 -0.0097791 0.9966814 0.0097791 0.9966814 0.0097791 0.0033186 -0.0097791
2221000000 0.0033304 -0.0090024 0.9966696 0.0090024 0.9966696 0.0090024 0.0033304 -0.0090024
2242000000 0.0033438 -0.0082330 0.9966562 0.0082330 0.9966562 0.0082330 0.0033438 -0.0082330
2263000000 0.0033586 -0.0074708 0.9966414 0.0074708 0.9966414 0.0074708 0.0033586 -0.0074708
2284000000 0.0033749 -0.0067156 0.9966251 0.0067156 0.9966251 0.0067156 0.0033749 -0.0067156
2305000000 0.0033926 -0.0059671 0.9966074 0.0059671 0.9966074 0.0059671 0.0033926 -0.0059671
2326000000 0.0034117 -0.0052251 0.9965883 0.0052251 0.9965883 0.0052251 0.0034117 -0.0052251
2347000000 0.0034322 -0.0044895 0.9965678 0.0044895 0.9965678 0.0044895 0.0034322 -0.0044895
2368000000 0.0034540 -0.0037601 0.9965460 0.0037601 0.9965460 0.0037601 0.0034540 -0.0037601
2389000000 0.0034771 -0.0030365 0.9965229 0.0030365 0.9965229 0.0030365 0.0034771 -0.0030365
2410000000 0.0035015 -0.0023188 0.9964985 0.0023188 0.9964985 0.0023188 0.0035015 -0.0023188
2431000000 0.0035271 -0.0016067 0.9964729 0.0016067 0.9964729 0.0016067 0.0035271 -0.0016067
2452000000 0.0035540 -0.0008999 0.9964460 0.0008999 0.9964460 0.0008999 0.0035540 -0.0008999
2473000000 0.0035820 -0.0001984 0.9964180 0.0001984 0.9964180 0.0001984 0.0035820 -0.0001984
2494000000 0.0036113 0.0004979 0.9963887 -0.0004979 0.9963887 -0.0004979 0.0036113 0.0004979
2515000000 0.0036417 0.0011894 0.9963583 -0.0011894 0.9963583 -0.0011894 0.0036417 0.0011894
2536000000 0.0036732 0.0018760 0.9963268 -0.0018760 0.9963268 -0.0018760 0.0036732 0.0018760
2557000000 0.0037059 0.0025581 0.9962941 -0.0025581 0.9962941 -0.0025581 0.0037059 0.0025581
2578000000 0.0037397 0.0032356 0.9962603 -0.0032356 0.9962603 -0.0032356 0.0037397 0.0032356
2599000000 0.0037745 0.0039088 0.9962255 -0.0039088 0.9962255 -0.0039088 0.0037745 0.0039088
2620000000 0.0038105 0.0045778 0.9961895 -0.0045778 0.9961895 -0.0045778 0.0038105 0.0045778
2641000000 0.0038475 0.0052427 0.9961525 -0.0052427 0.9961525 -0.0052427 0.0038475 0.0052427
2662000000 0.0038856 0.0059037 0.9961144 -0.0059037 0.9961144 -0.0059037 0.0038856 0.0059037
2683000000 0.0039247 0.0065608 0.9960753 -0.0065608 0.9960753 -0.0065608 0.0039247 0.0065608
2704000000 0.0039648 0.0072142 0.9960352 -0.0072142 0.9960352 -0.0072142 0.0039648 0.0072142
2725000000 0.0040060 0.0078641 0.9959940 -0.0078641 0.9959940 -0.0078641 0.0040060 0.0078641
2746000000 0.0040481 0.0085105 0.9959519 -0.0085105 0.9959519 -0.0085105 0.0040481 0.0085105
2767000000 0.0040913 0.0091536 0.9959087 -0.0091536 0.9959087 -0.0091536 0.0040913 0.0091536
2788000000 0.0041354 0.0097934 0.9958646 -0.0097934 0.9958646 -0.0097934 0.0041354 0.0097934
2809000000 0.0041806 0.0104302 0.9958194 -0.0104302 0.9958194 -0.0104302 0.0041806 0.0104302
2830000000 0.0042267 0.0110639 0.9957733 -0.0110639 0.9957733 -0.0110639 0.0042267 0.0110639
2851000000 0.0042738 0.0116947 0.9957262 -0.0116947 0.9957262 -0.0116947 0.0042738 0.0116947
2872000000 0.0043218 0.0123228 0.9956782 -0.0123228 0.9956782 -0.0123228 0.0043218 0.0123228
2893000000 0.0043708 0.0129481 0.9956292 -0.0129481 0.9956292 -0.0129481 0.0043708 0.0129481
2914000000 0.0044208 0.0135709 0.9955792 -0.0135709 0.9955792 -0.0135709 0.0044208 0.0135709
2935000000 0.0044718 0.0141912 0.9955282 -0.0141912 0.9955282 -0.0141912 0.0044718 0.0141912
2956000000 0.0045237 0.0148090 0.9954763 -0.0148090 0.9954763 -0.0148090 0.0045237 0.0148090
2977000000 0.0045765 0.0154246 0.9954235 -0.0154246 0.9954235 -0.0154246 0.0045765 0.0154246
2998000000 0.0046303 0.0160380 0.9953697 -0.0160380 0.9953697 -0.0160380 0.0046303 0.0160380
3019000000 0.0046851 0.0166493 0.9953149 -0.0166493 0.9953149 -0.0166493 0.0046851 0.0166493
3040000000 0.0047408 0.0172586 0.9952592 -0.0172586 0.9952592 -0.0172586 0.0047408 0.0172586
3061000000 0.0047975 0.0178659 0.9952025 -0.0178659 0.9952025 -0.0178659 0.0047975 0.0178659
3082000000 0.0048551 0.0184714 0.9951449 -0.0184714 0.9951449 -0.0184714 0.0048551 0.0184714
3103000000 0.0049138 0.0190752 0.9950862 -0.0190752 0.9950862 -0.0190752 0.0049138 0.0190752
3124000000 0.0049733 0.0196773 0.9950267 -0.0196773 0.9950267 -0.0196773 0.0049733 0.0196773
3145000000 0.0050339 0.0202779 0.9949661 -0.0202779 0.9949661 -0.0202779 0.0050339 0.0202779
3166000000 0.0050955 0.0208770 0.9949045 -0.0208770 0.9949045 -0.0208770 0.0050955 0.0208770
3187000000 0.0051580 0.0214747 0.9948420 -0.0214747 0.9948420 -0.0214747 0.0051580 0.0214747
3208000000 0.0052215 0.0220711 0.9947785 -0.0220711 0.9947785 -0.0220711 0.0052215 0.0220711
3229000000 0.0052861 0.0226663 0.9947139 -0.0226663 0.9947139 -0.0226663 0.0052861 0.0226663
3250000000 0.0053516 0.0232604 0.9946484 -0.0232604 0.9946484 -0.0232604 0.0053516 0.0232604
3271000000 0.0054182 0.0238534 0.9945818 -0.0238534 0.9945818 -0.0238534 0.0054182 0.0238534
3292000000 0.0054859 0.0244455 0.9945141 -0.0244455 0.9945141 -0.0244455 0.0054859 0.0244455
3313000000 0.0055546 0.0250367 0.9944454 -0.0250367 0.9944454 -0.0250367 0.0055546 0.0250367
3334000000 0.0056244 0.0256271 0.9943756 -0.0256271 0.9943756 -0.0256271 0.0056244 0.0256271
3355000000 0.0056952 0.0262168 0.9943048 -0.0262168 0.9943048 -0.0262168 0.0056952 0.0262168
3376000000 0.0057672 0.0268059 0.9942328 -0.0268059 0.9942328 -0.0268059 0.0057672 0.0268059
3397000000 0.0058403 0.0273945 0.9941597 -0.0273945 0.9941597 -0.0273945 0.0058403 0.0273945
3418000000 0.0059145 0.0279826 0.9940855 -0.0279826 0.9940855 -0.0279826 0.0059145 0.0279826
3439000000 0.0059899 0.0285704 0.9940101 -0.0285704 0.9940101 -0.0285704 0.0059899 0.0285704
3460000000 0.0060664 0.0291579 0.9939336 -0.0291579 0.9939336 -0.0291579 0.0060664 0.0291579
3481000000 0.0061442 0.0297453 0.9938558 -0.0297453 0.9938558 -0.0297453 0.0061442 0.0297453
3502000000 0.0062233 0.0303326 0.9937767 -0.0303326 0.9937767 -0.0303326 0.0062233 0.0303326
3523000000 0.0063036 0.0309199 0.9936964 -0.0309199 0.9936964 -0.0309199 0.0063036 0.0309199
3544000000 0.0063851 0.0315073 0.9936149 -0.0315073 0.9936149 -0.0315073 0.0063851 0.0315073
3565000000 0.0064681 0.0320949 0.9935319 -0.0320949 0.9935319 -0.0320949 0.0064681 0.0320949
3586000000 0.0065523 0.0326828 0.9934477 -0.0326828 0.9934477 -0.0326828 0.0065523 0.0326828
3607000000 0.0066380 0.0332710 0.9933620 -0.0332710 0.9933620 -0.0332710 0.0066380 0.0332710
3628000000 0.0067251 0.0338598 0.9932749 -0.0338598 0.9932749 -0.0338598 0.0067251 0.0338598
3649000000 0.0068137 0.0344492 0.9931863 -0.0344492 0.9931863 -0.0344492 0.0068137 0.0344492
3670000000 0.0069038 0.0350392 0.9930962 -0.0350392 0.9930962 -0.0350392 0.0069038 0.0350392
3691000000 0.0069955 0.0356301 0.9930045 -0.0356301 0.9930045 -0.0356301 0.0069955 0.0356301
3712000000 0.0070888 0.0362219 0.9929112 -0.0362219 0.9929112 -0.0362219 0.0070888 0.0362219
3733000000 0.0071838 0.0368147 0.9928162 -0.0368147 0.9928162 -0.0368147 0.0071838 0.0368147
3754000000 0.0072805 0.0374086 0.9927195 -0.0374086 0.9927195 -0.0374086 0.0072805 0.0374086
3775000000 0.0073790 0.0380038 0.9926210 -0.0380038 0.9926210 -0.0380038 0.0073790 0.0380038
3796000000 0.0074794 0.0386004 0.9925206 -0.0386004 0.9925206 -0.0386004 0.0074794 0.0386004
3817000000 0.0075817 0.0391985 0.9924183 -0.0391985 0.9924183 -0.0391985 0.0075817 0.0391985
3838000000 0.0076860 0.0397982 0.9923140 -0.0397982 0.9923140 -0.0397982 0.0076860 0.0397982
3859000000 0.0077924 0.0403997 0.9922076 -0.0403997 0.9922076 -0.0403997 0.0077924 0.0403997
3880000000 0.0079010 0.0410030 0.9920990 -0.0410030 0.9920990 -0.0410030 0.0079010 0.0410030
3901000000 0.0080118 0.0416085 0.9919882 -0.0416085 0.9919882 -0.0416085 0.0080118 0.0416085
3922000000 0.0081250 0.0422161 0.9918750 -0.0422161 0.9918750 -0.0422161 0.0081250 0.0422161
3943000000 0.0082407 0.0428261 0.9917593 -0.0428261 0.9917593 -0.0428261 0.0082407 0.0428261
3964000000 0.0083589 0.0434386 0.9916411 -0.0434386 0.9916411 -0.0434386 0.0083589 0.0434386
3985000000 0.0084799 0.0440538 0.9915201 -0.0440538 0.9915201 -0.0440538 0.0084799 0.0440538
4006000000 0.0086037 0.0446718 0.9913963 -0.0446718 0.9913963 -0.0446718 0.0086037 0.0446718
4027000000 0.0087305 0.0452929 0.9912695 -0.0452929 0.9912695 -0.0452929 0.0087305 0.0452929
4048000000 0.0088604 0.0459172 0.9911396 -0.0459172 0.9911396 -0.0459172 0.0088604 0.0459172
4069000000 0.0089937 0.0465450 0.9910063 -0.0465450 0.9910063 -0.0465450 0.0089937 0.0465450
4090000000 0.0091304 0.0471764 0.9908696 -0.0471764 0.9908696 -0.0471764 0.0091304 0.0471764
4111000000 0.0092709 0.0478117 0.9907291 -0.0478117 0.9907291 -0.0478117 0.0092709 0.0478117
4132000000 0.0094152 0.0484511 0.9905848 -0.0484511 0.9905848 -0.0484511 0.0094152 0.0484511
4153000000 0.0095637 0.0490948 0.9904363 -0.0490948 0.9904363 -0.0490948 0.0095637 0.0490948
4174000000 0.0097166 0.0497432 0.9902834 -0.0497432 0.9902834 -0.0497432 0.0097166 0.0497432
4195000000 0.0098742 0.0503965 0.9901258 -0.0503965 0.9901258 -0.0503965 0.0098742 0.0503965
4216000000 0.0100367 0.0510550 0.9899633 -0.0510550 0.9899633 -0.0510550 0.0100367 0.0510550
4237000000 0.0102046 0.0517191 0.9897954 -0.0517191 0.9897954 -0.0517191 0.0102046 0.0517191
4258000000 0.0103781 0.0523889 0.9896219 -0.0523889 0.9896219 -0.0523889 0.0103781 0.0523889
4279000000 0.0105577 0.0530650 0.9894423 -0.0530650 0.9894423 -0.0530650 0.0105577 0.0530650
4300000000 0.0107438 0.0537476 0.9892562 -0.0537476 0.9892562 -0.0537476 0.0107438 0.0537476
4321000000 0.0109370 0.0544372 0.9890630 -0.0544372 0.9890630 -0.0544372 0.0109370 0.0544372
4342000000 0.0111377 0.0551342 0.9888623 -0.0551342 0.9888623 -0.0551342 0.0111377 0.0551342
4363000000 0.0113465 0.0558391 0.9886535 -0.0558391 0.9886535 -0.0558391 0.0113465 0.0558391
4384000000 0.0115643 0.0565524 0.9884357 -0.0565524 0.9884357 -0.0565524 0.0115643 0.0565524
4405000000 0.0117916 0.0572746 0.9882084 -0.0572746 0.9882084 -0.0572746 0.0117916 0.0572746
4426000000 0.0120294 0.0580062 0.9879706 -0.0580062 0.9879706 -0.0580062 0.0120294 0.0580062
4447000000 0.0122786 0.0587480 0.9877214 -0.0587480 0.9877214 -0.0587480 0.0122786 0.0587480
4468000000 0.0125404 0.0595004 0.9874596 -0.0595004 0.9874596 -0.0595004 0.0125404 0.0595004
4489000000 0.0128159 0.0602644 0.9871841 -0.0602644 0.9871841 -0.0602644 0.0128159 0.0602644
4510000000 0.0131067 0.0610405 0.9868933 -0.0610405 0.9868933 -0.0610405 0.0131067 0.0610405
