!Murata Part Number: GRM0335C1ER60BA01
!These Parameters are Measured in Series Mode Connection
!Data Generated on Mar 30, 2021
!       o--ll--o
!Port1            Port2
!       o------o
!Operation Temp=25[degC], DC Bias Voltage=0[V]
!Freq. Start=100[MHz] Stop=20[GHz] 401[Steps]
# Hz S RI R 50
!Freq.(Hz) S11(Real) S11(Imag) S21(Real) S21(Imag) S12(Real) S12(Imag) S22(Real) S22(Imag)
100000000 0.9985684 -0.0376473 0.0014316 0.0376473 0.0014316 0.0376473 0.9985684 -0.0376473
149750000 0.9967948 -0.0562809 0.0032052 0.0562809 0.0032052 0.0562809 0.9967948 -0.0562809
199500000 0.9943242 -0.0748003 0.0056758 0.0748003 0.0056758 0.0748003 0.9943242 -0.0748003
249250000 0.9911660 -0.0931689 0.0088340 0.0931689 0.0088340 0.0931689 0.9911660 -0.0931689
299000000 0.9873322 -0.1113509 0.0126678 0.1113509 0.0126678 0.1113509 0.9873322 -0.1113509
348750000 0.9828373 -0.1293115 0.0171627 0.1293115 0.0171627 0.1293115 0.9828373 -0.1293115
398500000 0.9776978 -0.1470176 0.0223022 0.1470176 0.0223022 0.1470176 0.9776978 -0.1470176
448250000 0.9719327 -0.1644373 0.0280673 0.1644373 0.0280673 0.1644373 0.9719327 -0.1644373
498000000 0.9655627 -0.1815407 0.0344373 0.1815407 0.0344373 0.1815407 0.9655627 -0.1815407
547750000 0.9586105 -0.1982994 0.0413895 0.1982994 0.0413895 0.1982994 0.9586105 -0.1982994
597500000 0.9511001 -0.2146874 0.0488999 0.2146874 0.0488999 0.2146874 0.9511001 -0.2146874
647250000 0.9430573 -0.2306805 0.0569427 0.2306805 0.0569427 0.2306805 0.9430573 -0.2306805
697000000 0.9345088 -0.2462566 0.0654912 0.2462566 0.0654912 0.2462566 0.9345088 -0.2462566
746750000 0.9254824 -0.2613958 0.0745176 0.2613958 0.0745176 0.2613958 0.9254824 -0.2613958
796500000 0.9160066 -0.2760806 0.0839934 0.2760806 0.0839934 0.2760806 0.9160066 -0.2760806
846250000 0.9061107 -0.2902956 0.0938893 0.2902956 0.0938893 0.2902956 0.9061107 -0.2902956
896000000 0.8958240 -0.3040276 0.1041760 0.3040276 0.1041760 0.3040276 0.8958240 -0.3040276
945750000 0.8851765 -0.3172656 0.1148235 0.3172656 0.1148235 0.3172656 0.8851765 -0.3172656
995500000 0.8741978 -0.3300008 0.1258022 0.3300008 0.1258022 0.3300008 0.8741978 -0.3300008
1045250000 0.8629176 -0.3422264 0.1370824 0.3422264 0.1370824 0.3422264 0.8629176 -0.3422264
1095000000 0.8513651 -0.3539376 0.1486349 0.3539376 0.1486349 0.3539376 0.8513651 -0.3539376
1144750000 0.8395692 -0.3651316 0.1604308 0.3651316 0.1604308 0.3651316 0.8395692 -0.3651316
1194500000 0.8275582 -0.3758074 0.1724418 0.3758074 0.1724418 0.3758074 0.8275582 -0.3758074
1244250000 0.8153596 -0.3859657 0.1846404 0.3859657 0.1846404 0.3859657 0.8153596 -0.3859657
1294000000 0.8030003 -0.3956087 0.1969997 0.3956087 0.1969997 0.3956087 0.8030003 -0.3956087
1343750000 0.7905061 -0.4047403 0.2094939 0.4047403 0.2094939 0.4047403 0.7905061 -0.4047403
1393500000 0.7779020 -0.4133656 0.2220980 0.4133656 0.2220980 0.4133656 0.7779020 -0.4133656
1443250000 0.7652119 -0.4214911 0.2347881 0.4214911 0.2347881 0.4214911 0.7652119 -0.4214911
1493000000 0.7524585 -0.4291242 0.2475415 0.4291242 0.2475415 0.4291242 0.7524585 -0.4291242
1542750000 0.7396637 -0.4362736 0.2603363 0.4362736 0.2603363 0.4362736 0.7396637 -0.4362736
1592500000 0.7268480 -0.4429488 0.2731520 0.4429488 0.2731520 0.4429488 0.7268480 -0.4429488
1642250000 0.7140308 -0.4491600 0.2859692 0.4491600 0.2859692 0.4491600 0.7140308 -0.4491600
1692000000 0.7012304 -0.4549182 0.2987696 0.4549182 0.2987696 0.4549182 0.7012304 -0.4549182
1741750000 0.6884640 -0.4602349 0.3115360 0.4602349 0.3115360 0.4602349 0.6884640 -0.4602349
1791500000 0.6757475 -0.4651223 0.3242525 0.4651223 0.3242525 0.4651223 0.6757475 -0.4651223
1841250000 0.6630957 -0.4695927 0.3369043 0.4695927 0.3369043 0.4695927 0.6630957 -0.4695927
1891000000 0.6505225 -0.4736589 0.3494775 0.4736589 0.3494775 0.4736589 0.6505225 -0.4736589
1940750000 0.6380405 -0.4773338 0.3619595 0.4773338 0.3619595 0.4773338 0.6380405 -0.4773338
1990500000 0.6256612 -0.4806307 0.3743388 0.4806307 0.3743388 0.4806307 0.6256612 -0.4806307
2040250000 0.6133954 -0.4835627 0.3866046 0.4835627 0.3866046 0.4835627 0.6133954 -0.4835627
2090000000 0.6012526 -0.4861431 0.3987474 0.4861431 0.3987474 0.4861431 0.6012526 -0.4861431
2139750000 0.5892416 -0.4883852 0.4107584 0.4883852 0.4107584 0.4883852 0.5892416 -0.4883852
2189500000 0.5773702 -0.4903021 0.4226298 0.4903021 0.4226298 0.4903021 0.5773702 -0.4903021
2239250000 0.5656453 -0.4919069 0.4343547 0.4919069 0.4343547 0.4919069 0.5656453 -0.4919069
2289000000 0.5540732 -0.4932123 0.4459268 0.4932123 0.4459268 0.4932123 0.5540732 -0.4932123
2338750000 0.5426592 -0.4942312 0.4573408 0.4942312 0.4573408 0.4942312 0.5426592 -0.4942312
2388500000 0.5314080 -0.4949759 0.4685920 0.4949759 0.4685920 0.4949759 0.5314080 -0.4949759
2438250000 0.5203238 -0.4954587 0.4796762 0.4954587 0.4796762 0.4954587 0.5203238 -0.4954587
2488000000 0.5094098 -0.4956915 0.4905902 0.4956915 0.4905902 0.4956915 0.5094098 -0.4956915
2537750000 0.4986688 -0.4956859 0.5013312 0.4956859 0.5013312 0.4956859 0.4986688 -0.4956859
2587500000 0.4881033 -0.4954532 0.5118967 0.4954532 0.5118967 0.4954532 0.4881033 -0.4954532
2637250000 0.4777148 -0.4950044 0.5222852 0.4950044 0.5222852 0.4950044 0.4777148 -0.4950044
2687000000 0.4675047 -0.4943502 0.5324953 0.4943502 0.5324953 0.4943502 0.4675047 -0.4943502
2736750000 0.4574739 -0.4935010 0.5425261 0.4935010 0.5425261 0.4935010 0.4574739 -0.4935010
2786500000 0.4476228 -0.4924668 0.5523772 0.4924668 0.5523772 0.4924668 0.4476228 -0.4924668
2836250000 0.4379515 -0.4912571 0.5620485 0.4912571 0.5620485 0.4912571 0.4379515 -0.4912571
2886000000 0.4284598 -0.4898813 0.5715402 0.4898813 0.5715402 0.4898813 0.4284598 -0.4898813
2935750000 0.4191470 -0.4883484 0.5808530 0.4883484 0.5808530 0.4883484 0.4191470 -0.4883484
2985500000 0.4100124 -0.4866671 0.5899876 0.4866671 0.5899876 0.4866671 0.4100124 -0.4866671
3035250000 0.4010548 -0.4848455 0.5989452 0.4848455 0.5989452 0.4848455 0.4010548 -0.4848455
3085000000 0.3922730 -0.4828916 0.6077270 0.4828916 0.6077270 0.4828916 0.3922730 -0.4828916
3134750000 0.3836655 -0.4808132 0.6163345 0.4808132 0.6163345 0.4808132 0.3836655 -0.4808132
3184500000 0.3752305 -0.4786175 0.6247695 0.4786175 0.6247695 0.4786175 0.3752305 -0.4786175
3234250000 0.3669662 -0.4763115 0.6330338 0.4763115 0.6330338 0.4763115 0.3669662 -0.4763115
3284000000 0.3588706 -0.4739020 0.6411294 0.4739020 0.6411294 0.4739020 0.3588706 -0.4739020
3333750000 0.3509415 -0.4713953 0.6490585 0.4713953 0.6490585 0.4713953 0.3509415 -0.4713953
3383500000 0.3431768 -0.4687976 0.6568232 0.4687976 0.6568232 0.4687976 0.3431768 -0.4687976
3433250000 0.3355740 -0.4661146 0.6644260 0.4661146 0.6644260 0.4661146 0.3355740 -0.4661146
3483000000 0.3281308 -0.4633521 0.6718692 0.4633521 0.6718692 0.4633521 0.3281308 -0.4633521
3532750000 0.3208446 -0.4605152 0.6791554 0.4605152 0.6791554 0.4605152 0.3208446 -0.4605152
3582500000 0.3137130 -0.4576092 0.6862870 0.4576092 0.6862870 0.4576092 0.3137130 -0.4576092
3632250000 0.3067334 -0.4546387 0.6932666 0.4546387 0.6932666 0.4546387 0.3067334 -0.4546387
3682000000 0.2999030 -0.4516083 0.7000970 0.4516083 0.7000970 0.4516083 0.2999030 -0.4516083
3731750000 0.2932194 -0.4485226 0.7067806 0.4485226 0.7067806 0.4485226 0.2932194 -0.4485226
3781500000 0.2866797 -0.4453854 0.7133203 0.4453854 0.7133203 0.4453854 0.2866797 -0.4453854
3831250000 0.2802814 -0.4422009 0.7197186 0.4422009 0.7197186 0.4422009 0.2802814 -0.4422009
3881000000 0.2740217 -0.4389728 0.7259783 0.4389728 0.7259783 0.4389728 0.2740217 -0.4389728
3930750000 0.2678980 -0.4357046 0.7321020 0.4357046 0.7321020 0.4357046 0.2678980 -0.4357046
3980500000 0.2619076 -0.4323997 0.7380924 0.4323997 0.7380924 0.4323997 0.2619076 -0.4323997
4030250000 0.2560478 -0.4290612 0.7439522 0.4290612 0.7439522 0.4290612 0.2560478 -0.4290612
4080000000 0.2503160 -0.4256922 0.7496840 0.4256922 0.7496840 0.4256922 0.2503160 -0.4256922
4129750000 0.2447095 -0.4222956 0.7552905 0.4222956 0.7552905 0.4222956 0.2447095 -0.4222956
4179500000 0.2392258 -0.4188741 0.7607742 0.4188741 0.7607742 0.4188741 0.2392258 -0.4188741
4229250000 0.2338623 -0.4154302 0.7661377 0.4154302 0.7661377 0.4154302 0.2338623 -0.4154302
4279000000 0.2286163 -0.4119664 0.7713837 0.4119664 0.7713837 0.4119664 0.2286163 -0.4119664
4328750000 0.2234855 -0.4084850 0.7765145 0.4084850 0.7765145 0.4084850 0.2234855 -0.4084850
4378500000 0.2184674 -0.4049881 0.7815326 0.4049881 0.7815326 0.4049881 0.2184674 -0.4049881
4428250000 0.2135594 -0.4014778 0.7864406 0.4014778 0.7864406 0.4014778 0.2135594 -0.4014778
4478000000 0.2087592 -0.3979560 0.7912408 0.3979560 0.7912408 0.3979560 0.2087592 -0.3979560
4527750000 0.2040644 -0.3944246 0.7959356 0.3944246 0.7959356 0.3944246 0.2040644 -0.3944246
4577500000 0.1994727 -0.3908853 0.8005273 0.3908853 0.8005273 0.3908853 0.1994727 -0.3908853
4627250000 0.1949819 -0.3873397 0.8050181 0.3873397 0.8050181 0.3873397 0.1949819 -0.3873397
4677000000 0.1905896 -0.3837894 0.8094104 0.3837894 0.8094104 0.3837894 0.1905896 -0.3837894
4726750000 0.1862937 -0.3802357 0.8137063 0.3802357 0.8137063 0.3802357 0.1862937 -0.3802357
4776500000 0.1820919 -0.3766801 0.8179081 0.3766801 0.8179081 0.3766801 0.1820919 -0.3766801
4826250000 0.1779823 -0.3731238 0.8220177 0.3731238 0.8220177 0.3731238 0.1779823 -0.3731238
4876000000 0.1739627 -0.3695680 0.8260373 0.3695680 0.8260373 0.3695680 0.1739627 -0.3695680
4925750000 0.1700311 -0.3660138 0.8299689 0.3660138 0.8299689 0.3660138 0.1700311 -0.3660138
4975500000 0.1661855 -0.3624623 0.8338145 0.3624623 0.8338145 0.3624623 0.1661855 -0.3624623
5025250000 0.1624239 -0.3589146 0.8375761 0.3589146 0.8375761 0.3589146 0.1624239 -0.3589146
5075000000 0.1587445 -0.3553714 0.8412555 0.3553714 0.8412555 0.3553714 0.1587445 -0.3553714
5124750000 0.1551454 -0.3518338 0.8448546 0.3518338 0.8448546 0.3518338 0.1551454 -0.3518338
5174500000 0.1516248 -0.3483025 0.8483752 0.3483025 0.8483752 0.3483025 0.1516248 -0.3483025
5224250000 0.1481809 -0.3447782 0.8518191 0.3447782 0.8518191 0.3447782 0.1481809 -0.3447782
5274000000 0.1448120 -0.3412617 0.8551880 0.3412617 0.8551880 0.3412617 0.1448120 -0.3412617
5323750000 0.1415163 -0.3377537 0.8584837 0.3377537 0.8584837 0.3377537 0.1415163 -0.3377537
5373500000 0.1382922 -0.3342548 0.8617078 0.3342548 0.8617078 0.3342548 0.1382922 -0.3342548
5423250000 0.1351382 -0.3307655 0.8648618 0.3307655 0.8648618 0.3307655 0.1351382 -0.3307655
5473000000 0.1320525 -0.3272864 0.8679475 0.3272864 0.8679475 0.3272864 0.1320525 -0.3272864
5522750000 0.1290338 -0.3238180 0.8709662 0.3238180 0.8709662 0.3238180 0.1290338 -0.3238180
5572500000 0.1260804 -0.3203607 0.8739196 0.3203607 0.8739196 0.3203607 0.1260804 -0.3203607
5622250000 0.1231909 -0.3169150 0.8768091 0.3169150 0.8768091 0.3169150 0.1231909 -0.3169150
5672000000 0.1203639 -0.3134812 0.8796361 0.3134812 0.8796361 0.3134812 0.1203639 -0.3134812
5721750000 0.1175980 -0.3100598 0.8824020 0.3100598 0.8824020 0.3100598 0.1175980 -0.3100598
5771500000 0.1148918 -0.3066511 0.8851082 0.3066511 0.8851082 0.3066511 0.1148918 -0.3066511
5821250000 0.1122439 -0.3032553 0.8877561 0.3032553 0.8877561 0.3032553 0.1122439 -0.3032553
5871000000 0.1096532 -0.2998728 0.8903468 0.2998728 0.8903468 0.2998728 0.1096532 -0.2998728
5920750000 0.1071183 -0.2965038 0.8928817 0.2965038 0.8928817 0.2965038 0.1071183 -0.2965038
5970500000 0.1046380 -0.2931486 0.8953620 0.2931486 0.8953620 0.2931486 0.1046380 -0.2931486
6020250000 0.1022111 -0.2898073 0.8977889 0.2898073 0.8977889 0.2898073 0.1022111 -0.2898073
6070000000 0.0998364 -0.2864802 0.9001636 0.2864802 0.9001636 0.2864802 0.0998364 -0.2864802
6119750000 0.0975127 -0.2831674 0.9024873 0.2831674 0.9024873 0.2831674 0.0975127 -0.2831674
6169500000 0.0952391 -0.2798690 0.9047609 0.2798690 0.9047609 0.2798690 0.0952391 -0.2798690
6219250000 0.0930143 -0.2765853 0.9069857 0.2765853 0.9069857 0.2765853 0.0930143 -0.2765853
6269000000 0.0908374 -0.2733163 0.9091626 0.2733163 0.9091626 0.2733163 0.0908374 -0.2733163
6318750000 0.0887072 -0.2700622 0.9112928 0.2700622 0.9112928 0.2700622 0.0887072 -0.2700622
6368500000 0.0866228 -0.2668230 0.9133772 0.2668230 0.9133772 0.2668230 0.0866228 -0.2668230
6418250000 0.0845833 -0.2635987 0.9154167 0.2635987 0.9154167 0.2635987 0.0845833 -0.2635987
6468000000 0.0825875 -0.2603896 0.9174125 0.2603896 0.9174125 0.2603896 0.0825875 -0.2603896
6517750000 0.0806347 -0.2571955 0.9193653 0.2571955 0.9193653 0.2571955 0.0806347 -0.2571955
6567500000 0.0787239 -0.2540166 0.9212761 0.2540166 0.9212761 0.2540166 0.0787239 -0.2540166
6617250000 0.0768543 -0.2508529 0.9231457 0.2508529 0.9231457 0.2508529 0.0768543 -0.2508529
6667000000 0.0750249 -0.2477044 0.9249751 0.2477044 0.9249751 0.2477044 0.0750249 -0.2477044
6716750000 0.0732349 -0.2445710 0.9267651 0.2445710 0.9267651 0.2445710 0.0732349 -0.2445710
6766500000 0.0714835 -0.2414529 0.9285165 0.2414529 0.9285165 0.2414529 0.0714835 -0.2414529
6816250000 0.0697699 -0.2383500 0.9302301 0.2383500 0.9302301 0.2383500 0.0697699 -0.2383500
6866000000 0.0680934 -0.2352622 0.9319066 0.2352622 0.9319066 0.2352622 0.0680934 -0.2352622
6915750000 0.0664531 -0.2321896 0.9335469 0.2321896 0.9335469 0.2321896 0.0664531 -0.2321896
6965500000 0.0648484 -0.2291322 0.9351516 0.2291322 0.9351516 0.2291322 0.0648484 -0.2291322
7015250000 0.0632784 -0.2260898 0.9367216 0.2260898 0.9367216 0.2260898 0.0632784 -0.2260898
7065000000 0.0617426 -0.2230624 0.9382574 0.2230624 0.9382574 0.2230624 0.0617426 -0.2230624
7114750000 0.0602401 -0.2200501 0.9397599 0.2200501 0.9397599 0.2200501 0.0602401 -0.2200501
7164500000 0.0587704 -0.2170526 0.9412296 0.2170526 0.9412296 0.2170526 0.0587704 -0.2170526
7214250000 0.0573328 -0.2140701 0.9426672 0.2140701 0.9426672 0.2140701 0.0573328 -0.2140701
7264000000 0.0559267 -0.2111023 0.9440733 0.2111023 0.9440733 0.2111023 0.0559267 -0.2111023
7313750000 0.0545514 -0.2081493 0.9454486 0.2081493 0.9454486 0.2081493 0.0545514 -0.2081493
7363500000 0.0532063 -0.2052109 0.9467937 0.2052109 0.9467937 0.2052109 0.0532063 -0.2052109
7413250000 0.0518909 -0.2022872 0.9481091 0.2022872 0.9481091 0.2022872 0.0518909 -0.2022872
7463000000 0.0506045 -0.1993779 0.9493955 0.1993779 0.9493955 0.1993779 0.0506045 -0.1993779
7512750000 0.0493467 -0.1964831 0.9506533 0.1964831 0.9506533 0.1964831 0.0493467 -0.1964831
7562500000 0.0481168 -0.1936026 0.9518832 0.1936026 0.9518832 0.1936026 0.0481168 -0.1936026
7612250000 0.0469144 -0.1907364 0.9530856 0.1907364 0.9530856 0.1907364 0.0469144 -0.1907364
7662000000 0.0457388 -0.1878843 0.9542612 0.1878843 0.9542612 0.1878843 0.0457388 -0.1878843
7711750000 0.0445897 -0.1850463 0.9554103 0.1850463 0.9554103 0.1850463 0.0445897 -0.1850463
7761500000 0.0434664 -0.1822223 0.9565336 0.1822223 0.9565336 0.1822223 0.0434664 -0.1822223
7811250000 0.0423686 -0.1794121 0.9576314 0.1794121 0.9576314 0.1794121 0.0423686 -0.1794121
7861000000 0.0412958 -0.1766157 0.9587042 0.1766157 0.9587042 0.1766157 0.0412958 -0.1766157
7910750000 0.0402474 -0.1738330 0.9597526 0.1738330 0.9597526 0.1738330 0.0402474 -0.1738330
7960500000 0.0392231 -0.1710638 0.9607769 0.1710638 0.9607769 0.1710638 0.0392231 -0.1710638
8010250000 0.0382223 -0.1683081 0.9617777 0.1683081 0.9617777 0.1683081 0.0382223 -0.1683081
8060000000 0.0372448 -0.1655658 0.9627552 0.1655658 0.9627552 0.1655658 0.0372448 -0.1655658
8109750000 0.0362900 -0.1628367 0.9637100 0.1628367 0.9637100 0.1628367 0.0362900 -0.1628367
8159500000 0.0353576 -0.1601207 0.9646424 0.1601207 0.9646424 0.1601207 0.0353576 -0.1601207
8209250000 0.0344472 -0.1574178 0.9655528 0.1574178 0.9655528 0.1574178 0.0344472 -0.1574178
8259000000 0.0335583 -0.1547278 0.9664417 0.1547278 0.9664417 0.1547278 0.0335583 -0.1547278
8308750000 0.0326906 -0.1520507 0.9673094 0.1520507 0.9673094 0.1520507 0.0326906 -0.1520507
8358500000 0.0318437 -0.1493862 0.9681563 0.1493862 0.9681563 0.1493862 0.0318437 -0.1493862
8408250000 0.0310173 -0.1467344 0.9689827 0.1467344 0.9689827 0.1467344 0.0310173 -0.1467344
8458000000 0.0302110 -0.1440950 0.9697890 0.1440950 0.9697890 0.1440950 0.0302110 -0.1440950
8507750000 0.0294245 -0.1414680 0.9705755 0.1414680 0.9705755 0.1414680 0.0294245 -0.1414680
8557500000 0.0286574 -0.1388533 0.9713426 0.1388533 0.9713426 0.1388533 0.0286574 -0.1388533
8607250000 0.0279094 -0.1362507 0.9720906 0.1362507 0.9720906 0.1362507 0.0279094 -0.1362507
8657000000 0.0271803 -0.1336602 0.9728197 0.1336602 0.9728197 0.1336602 0.0271803 -0.1336602
8706750000 0.0264696 -0.1310816 0.9735304 0.1310816 0.9735304 0.1310816 0.0264696 -0.1310816
8756500000 0.0257770 -0.1285149 0.9742230 0.1285149 0.9742230 0.1285149 0.0257770 -0.1285149
8806250000 0.0251024 -0.1259598 0.9748976 0.1259598 0.9748976 0.1259598 0.0251024 -0.1259598
8856000000 0.0244453 -0.1234164 0.9755547 0.1234164 0.9755547 0.1234164 0.0244453 -0.1234164
8905750000 0.0238055 -0.1208844 0.9761945 0.1208844 0.9761945 0.1208844 0.0238055 -0.1208844
8955500000 0.0231828 -0.1183638 0.9768172 0.1183638 0.9768172 0.1183638 0.0231828 -0.1183638
9005250000 0.0225768 -0.1158546 0.9774232 0.1158546 0.9774232 0.1158546 0.0225768 -0.1158546
9055000000 0.0219873 -0.1133564 0.9780127 0.1133564 0.9780127 0.1133564 0.0219873 -0.1133564
9104750000 0.0214140 -0.1108694 0.9785860 0.1108694 0.9785860 0.1108694 0.0214140 -0.1108694
9154500000 0.0208567 -0.1083932 0.9791433 0.1083932 0.9791433 0.1083932 0.0208567 -0.1083932
9204250000 0.0203151 -0.1059280 0.9796849 0.1059280 0.9796849 0.1059280 0.0203151 -0.1059280
9254000000 0.0197891 -0.1034734 0.9802109 0.1034734 0.9802109 0.1034734 0.0197891 -0.1034734
9303750000 0.0192783 -0.1010295 0.9807217 0.1010295 0.9807217 0.1010295 0.0192783 -0.1010295
9353500000 0.0187825 -0.0985961 0.9812175 0.0985961 0.9812175 0.0985961 0.0187825 -0.0985961
9403250000 0.0183015 -0.0961731 0.9816985 0.0961731 0.9816985 0.0961731 0.0183015 -0.0961731
9453000000 0.0178351 -0.0937604 0.9821649 0.0937604 0.9821649 0.0937604 0.0178351 -0.0937604
9502750000 0.0173831 -0.0913580 0.9826169 0.0913580 0.9826169 0.0913580 0.0173831 -0.0913580
9552500000 0.0169452 -0.0889656 0.9830548 0.0889656 0.9830548 0.0889656 0.0169452 -0.0889656
9602250000 0.0165213 -0.0865833 0.9834787 0.0865833 0.9834787 0.0865833 0.0165213 -0.0865833
9652000000 0.0161112 -0.0842108 0.9838888 0.0842108 0.9838888 0.0842108 0.0161112 -0.0842108
9701750000 0.0157146 -0.0818481 0.9842854 0.0818481 0.9842854 0.0818481 0.0157146 -0.0818481
9751500000 0.0153313 -0.0794952 0.9846687 0.0794952 0.9846687 0.0794952 0.0153313 -0.0794952
9801250000 0.0149613 -0.0771518 0.9850387 0.0771518 0.9850387 0.0771518 0.0149613 -0.0771518
9851000000 0.0146043 -0.0748179 0.9853957 0.0748179 0.9853957 0.0748179 0.0146043 -0.0748179
9900750000 0.0142601 -0.0724934 0.9857399 0.0724934 0.9857399 0.0724934 0.0142601 -0.0724934
9950500000 0.0139285 -0.0701782 0.9860715 0.0701782 0.9860715 0.0701782 0.0139285 -0.0701782
10000250000 0.0136094 -0.0678723 0.9863906 0.0678723 0.9863906 0.0678723 0.0136094 -0.0678723
10050000000 0.0133027 -0.0655754 0.9866973 0.0655754 0.9866973 0.0655754 0.0133027 -0.0655754
10099750000 0.0130081 -0.0632875 0.9869919 0.0632875 0.9869919 0.0632875 0.0130081 -0.0632875
10149500000 0.0127254 -0.0610086 0.9872746 0.0610086 0.9872746 0.0610086 0.0127254 -0.0610086
10199250000 0.0124546 -0.0587385 0.9875454 0.0587385 0.9875454 0.0587385 0.0124546 -0.0587385
10249000000 0.0121956 -0.0564771 0.9878044 0.0564771 0.9878044 0.0564771 0.0121956 -0.0564771
10298750000 0.0119480 -0.0542243 0.9880520 0.0542243 0.9880520 0.0542243 0.0119480 -0.0542243
10348500000 0.0117118 -0.0519801 0.9882882 0.0519801 0.9882882 0.0519801 0.0117118 -0.0519801
10398250000 0.0114869 -0.0497443 0.9885131 0.0497443 0.9885131 0.0497443 0.0114869 -0.0497443
10448000000 0.0112731 -0.0475169 0.9887269 0.0475169 0.9887269 0.0475169 0.0112731 -0.0475169
10497750000 0.0110703 -0.0452978 0.9889297 0.0452978 0.9889297 0.0452978 0.0110703 -0.0452978
