!Murata Part Number: GRM0332C2A150JA01
!These Parameters are Measured in Series Mode Connection
!Data Generated on Mar 30, 2021
!       o--ll--o
!Port1            Port2
!       o------o
!Operation Temp=25[degC], DC Bias Voltage=0[V]
!Freq. Start=100[MHz] Stop=9[GHz] 401[Steps]
# Hz S RI R 50
!Freq.(Hz) S11(Real) S11(Imag) S21(Real) S21(Imag) S12(Real) S12(Imag) S22(Real) S22(Imag)
100000000 0.5287599 -0.4983308 0.4712401 0.4983308 0.4712401 0.4983308 0.5287599 -0.4983308
121000000 0.4336963 -0.4945647 0.5663037 0.4945647 0.5663037 0.4945647 0.4336963 -0.4945647
142000000 0.3571620 -0.4779644 0.6428380 0.4779644 0.6428380 0.4779644 0.3571620 -0.4779644
163000000 0.2963947 -0.4552883 0.7036053 0.4552883 0.7036053 0.4552883 0.2963947 -0.4552883
184000000 0.2482436 -0.4304337 0.7517564 0.4304337 0.7517564 0.4304337 0.2482436 -0.4304337
205000000 0.2099240 -0.4055113 0.7900760 0.4055113 0.7900760 0.4055113 0.2099240 -0.4055113
226000000 0.1791976 -0.3815908 0.8208024 0.3815908 0.8208024 0.3815908 0.1791976 -0.3815908
247000000 0.1543370 -0.3591589 0.8456630 0.3591589 0.8456630 0.3591589 0.1543370 -0.3591589
268000000 0.1340303 -0.3383848 0.8659697 0.3383848 0.8659697 0.3383848 0.1340303 -0.3383848
289000000 0.1172860 -0.3192712 0.8827140 0.3192712 0.8827140 0.3192712 0.1172860 -0.3192712
310000000 0.1033527 -0.3017380 0.8966473 0.3017380 0.8966473 0.3017380 0.1033527 -0.3017380
331000000 0.0916580 -0.2856677 0.9083420 0.2856677 0.9083420 0.2856677 0.0916580 -0.2856677
352000000 0.0817622 -0.2709311 0.9182378 0.2709311 0.9182378 0.2709311 0.0817622 -0.2709311
373000000 0.0733251 -0.2573997 0.9266749 0.2573997 0.9266749 0.2573997 0.0733251 -0.2573997
394000000 0.0660810 -0.2449524 0.9339190 0.2449524 0.9339190 0.2449524 0.0660810 -0.2449524
415000000 0.0598203 -0.2334781 0.9401797 0.2334781 0.9401797 0.2334781 0.0598203 -0.2334781
436000000 0.0543768 -0.2228769 0.9456232 0.2228769 0.9456232 0.2228769 0.0543768 -0.2228769
457000000 0.0496170 -0.2130592 0.9503830 0.2130592 0.9503830 0.2130592 0.0496170 -0.2130592
478000000 0.0454334 -0.2039457 0.9545666 0.2039457 0.9545666 0.2039457 0.0454334 -0.2039457
499000000 0.0417383 -0.1954661 0.9582617 0.1954661 0.9582617 0.1954661 0.0417383 -0.1954661
520000000 0.0384599 -0.1875584 0.9615401 0.1875584 0.9615401 0.1875584 0.0384599 -0.1875584
541000000 0.0355389 -0.1801675 0.9644611 0.1801675 0.9644611 0.1801675 0.0355389 -0.1801675
562000000 0.0329263 -0.1732448 0.9670737 0.1732448 0.9670737 0.1732448 0.0329263 -0.1732448
583000000 0.0305808 -0.1667472 0.9694192 0.1667472 0.9694192 0.1667472 0.0305808 -0.1667472
604000000 0.0284679 -0.1606364 0.9715321 0.1606364 0.9715321 0.1606364 0.0284679 -0.1606364
625000000 0.0265584 -0.1548785 0.9734416 0.1548785 0.9734416 0.1548785 0.0265584 -0.1548785
646000000 0.0248277 -0.1494430 0.9751723 0.1494430 0.9751723 0.1494430 0.0248277 -0.1494430
667000000 0.0232544 -0.1443029 0.9767456 0.1443029 0.9767456 0.1443029 0.0232544 -0.1443029
688000000 0.0218206 -0.1394340 0.9781794 0.1394340 0.9781794 0.1394340 0.0218206 -0.1394340
709000000 0.0205106 -0.1348144 0.9794894 0.1348144 0.9794894 0.1348144 0.0205106 -0.1348144
730000000 0.0193109 -0.1304247 0.9806891 0.1304247 0.9806891 0.1304247 0.0193109 -0.1304247
751000000 0.0182098 -0.1262472 0.9817902 0.1262472 0.9817902 0.1262472 0.0182098 -0.1262472
772000000 0.0171971 -0.1222660 0.9828029 0.1222660 0.9828029 0.1222660 0.0171971 -0.1222660
793000000 0.0162640 -0.1184667 0.9837360 0.1184667 0.9837360 0.1184667 0.0162640 -0.1184667
814000000 0.0154025 -0.1148363 0.9845975 0.1148363 0.9845975 0.1148363 0.0154025 -0.1148363
835000000 0.0146058 -0.1113628 0.9853942 0.1113628 0.9853942 0.1113628 0.0146058 -0.1113628
856000000 0.0138678 -0.1080356 0.9861322 0.1080356 0.9861322 0.1080356 0.0138678 -0.1080356
877000000 0.0131832 -0.1048447 0.9868168 0.1048447 0.9868168 0.1048447 0.0131832 -0.1048447
898000000 0.0125472 -0.1017812 0.9874528 0.1017812 0.9874528 0.1017812 0.0125472 -0.1017812
919000000 0.0119554 -0.0988368 0.9880446 0.0988368 0.9880446 0.0988368 0.0119554 -0.0988368
940000000 0.0114042 -0.0960040 0.9885958 0.0960040 0.9885958 0.0960040 0.0114042 -0.0960040
961000000 0.0108901 -0.0932758 0.9891099 0.0932758 0.9891099 0.0932758 0.0108901 -0.0932758
982000000 0.0104101 -0.0906459 0.9895899 0.0906459 0.9895899 0.0906459 0.0104101 -0.0906459
1003000000 0.0099614 -0.0881084 0.9900386 0.0881084 0.9900386 0.0881084 0.0099614 -0.0881084
1024000000 0.0095416 -0.0856578 0.9904584 0.0856578 0.9904584 0.0856578 0.0095416 -0.0856578
1045000000 0.0091484 -0.0832891 0.9908516 0.0832891 0.9908516 0.0832891 0.0091484 -0.0832891
1066000000 0.0087799 -0.0809978 0.9912201 0.0809978 0.9912201 0.0809978 0.0087799 -0.0809978
1087000000 0.0084342 -0.0787794 0.9915658 0.0787794 0.9915658 0.0787794 0.0084342 -0.0787794
1108000000 0.0081096 -0.0766301 0.9918904 0.0766301 0.9918904 0.0766301 0.0081096 -0.0766301
1129000000 0.0078047 -0.0745461 0.9921953 0.0745461 0.9921953 0.0745461 0.0078047 -0.0745461
1150000000 0.0075180 -0.0725239 0.9924820 0.0725239 0.9924820 0.0725239 0.0075180 -0.0725239
1171000000 0.0072483 -0.0705604 0.9927517 0.0705604 0.9927517 0.0705604 0.0072483 -0.0705604
1192000000 0.0069945 -0.0686525 0.9930055 0.0686525 0.9930055 0.0686525 0.0069945 -0.0686525
1213000000 0.0067555 -0.0667974 0.9932445 0.0667974 0.9932445 0.0667974 0.0067555 -0.0667974
1234000000 0.0065304 -0.0649926 0.9934696 0.0649926 0.9934696 0.0649926 0.0065304 -0.0649926
1255000000 0.0063182 -0.0632356 0.9936818 0.0632356 0.9936818 0.0632356 0.0063182 -0.0632356
1276000000 0.0061181 -0.0615241 0.9938819 0.0615241 0.9938819 0.0615241 0.0061181 -0.0615241
1297000000 0.0059295 -0.0598559 0.9940705 0.0598559 0.9940705 0.0598559 0.0059295 -0.0598559
1318000000 0.0057515 -0.0582290 0.9942485 0.0582290 0.9942485 0.0582290 0.0057515 -0.0582290
1339000000 0.0055836 -0.0566416 0.9944164 0.0566416 0.9944164 0.0566416 0.0055836 -0.0566416
1360000000 0.0054252 -0.0550919 0.9945748 0.0550919 0.9945748 0.0550919 0.0054252 -0.0550919
1381000000 0.0052757 -0.0535780 0.9947243 0.0535780 0.9947243 0.0535780 0.0052757 -0.0535780
1402000000 0.0051347 -0.0520986 0.9948653 0.0520986 0.9948653 0.0520986 0.0051347 -0.0520986
1423000000 0.0050016 -0.0506521 0.9949984 0.0506521 0.9949984 0.0506521 0.0050016 -0.0506521
1444000000 0.0048760 -0.0492371 0.9951240 0.0492371 0.9951240 0.0492371 0.0048760 -0.0492371
1465000000 0.0047575 -0.0478523 0.9952425 0.0478523 0.9952425 0.0478523 0.0047575 -0.0478523
1486000000 0.0046457 -0.0464963 0.9953543 0.0464963 0.9953543 0.0464963 0.0046457 -0.0464963
1507000000 0.0045403 -0.0451681 0.9954597 0.0451681 0.9954597 0.0451681 0.0045403 -0.0451681
1528000000 0.0044410 -0.0438665 0.9955590 0.0438665 0.9955590 0.0438665 0.0044410 -0.0438665
1549000000 0.0043474 -0.0425904 0.9956526 0.0425904 0.9956526 0.0425904 0.0043474 -0.0425904
1570000000 0.0042593 -0.0413389 0.9957407 0.0413389 0.9957407 0.0413389 0.0042593 -0.0413389
1591000000 0.0041763 -0.0401109 0.9958237 0.0401109 0.9958237 0.0401109 0.0041763 -0.0401109
1612000000 0.0040983 -0.0389055 0.9959017 0.0389055 0.9959017 0.0389055 0.0040983 -0.0389055
1633000000 0.0040250 -0.0377220 0.9959750 0.0377220 0.9959750 0.0377220 0.0040250 -0.0377220
1654000000 0.0039561 -0.0365594 0.9960439 0.0365594 0.9960439 0.0365594 0.0039561 -0.0365594
1675000000 0.0038916 -0.0354170 0.9961084 0.0354170 0.9961084 0.0354170 0.0038916 -0.0354170
1696000000 0.0038311 -0.0342941 0.9961689 0.0342941 0.9961689 0.0342941 0.0038311 -0.0342941
1717000000 0.0037745 -0.0331899 0.9962255 0.0331899 0.9962255 0.0331899 0.0037745 -0.0331899
1738000000 0.0037216 -0.0321038 0.9962784 0.0321038 0.9962784 0.0321038 0.0037216 -0.0321038
1759000000 0.0036723 -0.0310351 0.9963277 0.0310351 0.9963277 0.0310351 0.0036723 -0.0310351
1780000000 0.0036264 -0.0299831 0.9963736 0.0299831 0.9963736 0.0299831 0.0036264 -0.0299831
1801000000 0.0035837 -0.0289474 0.9964163 0.0289474 0.9964163 0.0289474 0.0035837 -0.0289474
1822000000 0.0035442 -0.0279274 0.9964558 0.0279274 0.9964558 0.0279274 0.0035442 -0.0279274
1843000000 0.0035077 -0.0269225 0.9964923 0.0269225 0.9964923 0.0269225 0.0035077 -0.0269225
1864000000 0.0034741 -0.0259322 0.9965259 0.0259322 0.9965259 0.0259322 0.0034741 -0.0259322
1885000000 0.0034432 -0.0249560 0.9965568 0.0249560 0.9965568 0.0249560 0.0034432 -0.0249560
1906000000 0.0034150 -0.0239934 0.9965850 0.0239934 0.9965850 0.0239934 0.0034150 -0.0239934
1927000000 0.0033894 -0.0230441 0.9966106 0.0230441 0.9966106 0.0230441 0.0033894 -0.0230441
1948000000 0.0033662 -0.0221075 0.9966338 0.0221075 0.9966338 0.0221075 0.0033662 -0.0221075
1969000000 0.0033454 -0.0211833 0.9966546 0.0211833 0.9966546 0.0211833 0.0033454 -0.0211833
1990000000 0.0033268 -0.0202710 0.9966732 0.0202710 0.9966732 0.0202710 0.0033268 -0.0202710
2011000000 0.0033105 -0.0193703 0.9966895 0.0193703 0.9966895 0.0193703 0.0033105 -0.0193703
2032000000 0.0032963 -0.0184809 0.9967037 0.0184809 0.9967037 0.0184809 0.0032963 -0.0184809
2053000000 0.0032841 -0.0176023 0.9967159 0.0176023 0.9967159 0.0176023 0.0032841 -0.0176023
2074000000 0.0032740 -0.0167342 0.9967260 0.0167342 0.9967260 0.0167342 0.0032740 -0.0167342
2095000000 0.0032657 -0.0158764 0.9967343 0.0158764 0.9967343 0.0158764 0.0032657 -0.0158764
2116000000 0.0032593 -0.0150284 0.9967407 0.0150284 0.9967407 0.0150284 0.0032593 -0.0150284
2137000000 0.0032547 -0.0141900 0.9967453 0.0141900 0.9967453 0.0141900 0.0032547 -0.0141900
2158000000 0.0032518 -0.0133610 0.9967482 0.0133610 0.9967482 0.0133610 0.0032518 -0.0133610
2179000000 0.0032506 -0.0125410 0.9967494 0.0125410 0.9967494 0.0125410 0.0032506 -0.0125410
2200000000 0.0032510 -0.0117297 0.9967490 0.0117297 0.9967490 0.0117297 0.0032510 -0.0117297
2221000000 0.0032530 -0.0109269 0.9967470 0.0109269 0.9967470 0.0109269 0.0032530 -0.0109269
2242000000 0.0032565 -0.0101324 0.9967435 0.0101324 0.9967435 0.0101324 0.0032565 -0.0101324
2263000000 0.0032615 -0.0093460 0.9967385 0.0093460 0.9967385 0.0093460 0.0032615 -0.0093460
2284000000 0.0032680 -0.0085673 0.9967320 0.0085673 0.9967320 0.0085673 0.0032680 -0.0085673
2305000000 0.0032759 -0.0077961 0.9967241 0.0077961 0.9967241 0.0077961 0.0032759 -0.0077961
2326000000 0.0032851 -0.0070323 0.9967149 0.0070323 0.9967149 0.0070323 0.0032851 -0.0070323
2347000000 0.0032957 -0.0062757 0.9967043 0.0062757 0.9967043 0.0062757 0.0032957 -0.0062757
2368000000 0.0033075 -0.0055260 0.9966925 0.0055260 0.9966925 0.0055260 0.0033075 -0.0055260
2389000000 0.0033207 -0.0047831 0.9966793 0.0047831 0.9966793 0.0047831 0.0033207 -0.0047831
2410000000 0.0033350 -0.0040467 0.9966650 0.0040467 0.9966650 0.0040467 0.0033350 -0.0040467
2431000000 0.0033506 -0.0033167 0.9966494 0.0033167 0.9966494 0.0033167 0.0033506 -0.0033167
2452000000 0.0033674 -0.0025928 0.9966326 0.0025928 0.9966326 0.0025928 0.0033674 -0.0025928
2473000000 0.0033852 -0.0018751 0.9966148 0.0018751 0.9966148 0.0018751 0.0033852 -0.0018751
2494000000 0.0034043 -0.0011632 0.9965957 0.0011632 0.9965957 0.0011632 0.0034043 -0.0011632
2515000000 0.0034244 -0.0004570 0.9965756 0.0004570 0.9965756 0.0004570 0.0034244 -0.0004570
2536000000 0.0034456 0.0002437 0.9965544 -0.0002437 0.9965544 -0.0002437 0.0034456 0.0002437
2557000000 0.0034678 0.0009389 0.9965322 -0.0009389 0.9965322 -0.0009389 0.0034678 0.0009389
2578000000 0.0034911 0.0016289 0.9965089 -0.0016289 0.9965089 -0.0016289 0.0034911 0.0016289
2599000000 0.0035153 0.0023138 0.9964847 -0.0023138 0.9964847 -0.0023138 0.0035153 0.0023138
2620000000 0.0035406 0.0029937 0.9964594 -0.0029937 0.9964594 -0.0029937 0.0035406 0.0029937
2641000000 0.0035669 0.0036687 0.9964331 -0.0036687 0.9964331 -0.0036687 0.0035669 0.0036687
2662000000 0.0035940 0.0043390 0.9964060 -0.0043390 0.9964060 -0.0043390 0.0035940 0.0043390
2683000000 0.0036222 0.0050047 0.9963778 -0.0050047 0.9963778 -0.0050047 0.0036222 0.0050047
2704000000 0.0036512 0.0056660 0.9963488 -0.0056660 0.9963488 -0.0056660 0.0036512 0.0056660
2725000000 0.0036812 0.0063228 0.9963188 -0.0063228 0.9963188 -0.0063228 0.0036812 0.0063228
2746000000 0.0037121 0.0069755 0.9962879 -0.0069755 0.9962879 -0.0069755 0.0037121 0.0069755
2767000000 0.0037438 0.0076240 0.9962562 -0.0076240 0.9962562 -0.0076240 0.0037438 0.0076240
2788000000 0.0037764 0.0082684 0.9962236 -0.0082684 0.9962236 -0.0082684 0.0037764 0.0082684
2809000000 0.0038099 0.0089090 0.9961901 -0.0089090 0.9961901 -0.0089090 0.0038099 0.0089090
2830000000 0.0038442 0.0095457 0.9961558 -0.0095457 0.9961558 -0.0095457 0.0038442 0.0095457
2851000000 0.0038793 0.0101787 0.9961207 -0.0101787 0.9961207 -0.0101787 0.0038793 0.0101787
2872000000 0.0039153 0.0108081 0.9960847 -0.0108081 0.9960847 -0.0108081 0.0039153 0.0108081
2893000000 0.0039521 0.0114340 0.9960479 -0.0114340 0.9960479 -0.0114340 0.0039521 0.0114340
2914000000 0.0039896 0.0120564 0.9960104 -0.0120564 0.9960104 -0.0120564 0.0039896 0.0120564
2935000000 0.0040280 0.0126755 0.9959720 -0.0126755 0.9959720 -0.0126755 0.0040280 0.0126755
2956000000 0.0040672 0.0132913 0.9959328 -0.0132913 0.9959328 -0.0132913 0.0040672 0.0132913
2977000000 0.0041071 0.0139039 0.9958929 -0.0139039 0.9958929 -0.0139039 0.0041071 0.0139039
2998000000 0.0041478 0.0145135 0.9958522 -0.0145135 0.9958522 -0.0145135 0.0041478 0.0145135
3019000000 0.0041893 0.0151200 0.9958107 -0.0151200 0.9958107 -0.0151200 0.0041893 0.0151200
3040000000 0.0042315 0.0157236 0.9957685 -0.0157236 0.9957685 -0.0157236 0.0042315 0.0157236
3061000000 0.0042745 0.0163244 0.9957255 -0.0163244 0.9957255 -0.0163244 0.0042745 0.0163244
3082000000 0.0043183 0.0169223 0.9956817 -0.0169223 0.9956817 -0.0169223 0.0043183 0.0169223
3103000000 0.0043628 0.0175176 0.9956372 -0.0175176 0.9956372 -0.0175176 0.0043628 0.0175176
3124000000 0.0044080 0.0181102 0.9955920 -0.0181102 0.9955920 -0.0181102 0.0044080 0.0181102
3145000000 0.0044539 0.0187002 0.9955461 -0.0187002 0.9955461 -0.0187002 0.0044539 0.0187002
3166000000 0.0045006 0.0192878 0.9954994 -0.0192878 0.9954994 -0.0192878 0.0045006 0.0192878
3187000000 0.0045480 0.0198729 0.9954520 -0.0198729 0.9954520 -0.0198729 0.0045480 0.0198729
3208000000 0.0045962 0.0204557 0.9954038 -0.0204557 0.9954038 -0.0204557 0.0045962 0.0204557
3229000000 0.0046450 0.0210361 0.9953550 -0.0210361 0.9953550 -0.0210361 0.0046450 0.0210361
3250000000 0.0046946 0.0216143 0.9953054 -0.0216143 0.9953054 -0.0216143 0.0046946 0.0216143
3271000000 0.0047449 0.0221903 0.9952551 -0.0221903 0.9952551 -0.0221903 0.0047449 0.0221903
3292000000 0.0047959 0.0227642 0.9952041 -0.0227642 0.9952041 -0.0227642 0.0047959 0.0227642
3313000000 0.0048477 0.0233361 0.9951523 -0.0233361 0.9951523 -0.0233361 0.0048477 0.0233361
3334000000 0.0049001 0.0239059 0.9950999 -0.0239059 0.9950999 -0.0239059 0.0049001 0.0239059
3355000000 0.0049533 0.0244738 0.9950467 -0.0244738 0.9950467 -0.0244738 0.0049533 0.0244738
3376000000 0.0050071 0.0250398 0.9949929 -0.0250398 0.9949929 -0.0250398 0.0050071 0.0250398
3397000000 0.0050617 0.0256039 0.9949383 -0.0256039 0.9949383 -0.0256039 0.0050617 0.0256039
3418000000 0.0051170 0.0261663 0.9948830 -0.0261663 0.9948830 -0.0261663 0.0051170 0.0261663
3439000000 0.0051730 0.0267269 0.9948270 -0.0267269 0.9948270 -0.0267269 0.0051730 0.0267269
3460000000 0.0052297 0.0272859 0.9947703 -0.0272859 0.9947703 -0.0272859 0.0052297 0.0272859
3481000000 0.0052871 0.0278432 0.9947129 -0.0278432 0.9947129 -0.0278432 0.0052871 0.0278432
3502000000 0.0053453 0.0283989 0.9946547 -0.0283989 0.9946547 -0.0283989 0.0053453 0.0283989
3523000000 0.0054041 0.0289530 0.9945959 -0.0289530 0.9945959 -0.0289530 0.0054041 0.0289530
3544000000 0.0054637 0.0295057 0.9945363 -0.0295057 0.9945363 -0.0295057 0.0054637 0.0295057
3565000000 0.0055240 0.0300570 0.9944760 -0.0300570 0.9944760 -0.0300570 0.0055240 0.0300570
3586000000 0.0055850 0.0306068 0.9944150 -0.0306068 0.9944150 -0.0306068 0.0055850 0.0306068
3607000000 0.0056467 0.0311553 0.9943533 -0.0311553 0.9943533 -0.0311553 0.0056467 0.0311553
3628000000 0.0057092 0.0317024 0.9942908 -0.0317024 0.9942908 -0.0317024 0.0057092 0.0317024
3649000000 0.0057724 0.0322483 0.9942276 -0.0322483 0.9942276 -0.0322483 0.0057724 0.0322483
3670000000 0.0058363 0.0327929 0.9941637 -0.0327929 0.9941637 -0.0327929 0.0058363 0.0327929
3691000000 0.0059009 0.0333364 0.9940991 -0.0333364 0.9940991 -0.0333364 0.0059009 0.0333364
3712000000 0.0059663 0.0338787 0.9940337 -0.0338787 0.9940337 -0.0338787 0.0059663 0.0338787
3733000000 0.0060324 0.0344199 0.9939676 -0.0344199 0.9939676 -0.0344199 0.0060324 0.0344199
3754000000 0.0060993 0.0349601 0.9939007 -0.0349601 0.9939007 -0.0349601 0.0060993 0.0349601
3775000000 0.0061669 0.0354992 0.9938331 -0.0354992 0.9938331 -0.0354992 0.0061669 0.0354992
3796000000 0.0062353 0.0360373 0.9937647 -0.0360373 0.9937647 -0.0360373 0.0062353 0.0360373
3817000000 0.0063044 0.0365745 0.9936956 -0.0365745 0.9936956 -0.0365745 0.0063044 0.0365745
3838000000 0.0063743 0.0371108 0.9936257 -0.0371108 0.9936257 -0.0371108 0.0063743 0.0371108
3859000000 0.0064450 0.0376461 0.9935550 -0.0376461 0.9935550 -0.0376461 0.0064450 0.0376461
3880000000 0.0065164 0.0381807 0.9934836 -0.0381807 0.9934836 -0.0381807 0.0065164 0.0381807
3901000000 0.0065886 0.0387144 0.9934114 -0.0387144 0.9934114 -0.0387144 0.0065886 0.0387144
3922000000 0.0066616 0.0392474 0.9933384 -0.0392474 0.9933384 -0.0392474 0.0066616 0.0392474
3943000000 0.0067354 0.0397796 0.9932646 -0.0397796 0.9932646 -0.0397796 0.0067354 0.0397796
3964000000 0.0068100 0.0403111 0.9931900 -0.0403111 0.9931900 -0.0403111 0.0068100 0.0403111
3985000000 0.0068854 0.0408419 0.9931146 -0.0408419 0.9931146 -0.0408419 0.0068854 0.0408419
4006000000 0.0069616 0.0413721 0.9930384 -0.0413721 0.9930384 -0.0413721 0.0069616 0.0413721
4027000000 0.0070386 0.0419017 0.9929614 -0.0419017 0.9929614 -0.0419017 0.0070386 0.0419017
4048000000 0.0071164 0.0424308 0.9928836 -0.0424308 0.9928836 -0.0424308 0.0071164 0.0424308
4069000000 0.0071951 0.0429593 0.9928049 -0.0429593 0.9928049 -0.0429593 0.0071951 0.0429593
4090000000 0.0072746 0.0434873 0.9927254 -0.0434873 0.9927254 -0.0434873 0.0072746 0.0434873
4111000000 0.0073549 0.0440148 0.9926451 -0.0440148 0.9926451 -0.0440148 0.0073549 0.0440148
4132000000 0.0074361 0.0445418 0.9925639 -0.0445418 0.9925639 -0.0445418 0.0074361 0.0445418
4153000000 0.0075181 0.0450685 0.9924819 -0.0450685 0.9924819 -0.0450685 0.0075181 0.0450685
4174000000 0.0076010 0.0455947 0.9923990 -0.0455947 0.9923990 -0.0455947 0.0076010 0.0455947
4195000000 0.0076848 0.0461207 0.9923152 -0.0461207 0.9923152 -0.0461207 0.0076848 0.0461207
4216000000 0.0077695 0.0466462 0.9922305 -0.0466462 0.9922305 -0.0466462 0.0077695 0.0466462
4237000000 0.0078551 0.0471715 0.9921449 -0.0471715 0.9921449 -0.0471715 0.0078551 0.0471715
4258000000 0.0079415 0.0476966 0.9920585 -0.0476966 0.9920585 -0.0476966 0.0079415 0.0476966
4279000000 0.0080289 0.0482213 0.9919711 -0.0482213 0.9919711 -0.0482213 0.0080289 0.0482213
4300000000 0.0081172 0.0487459 0.9918828 -0.0487459 0.9918828 -0.0487459 0.0081172 0.0487459
4321000000 0.0082064 0.0492703 0.9917936 -0.0492703 0.9917936 -0.0492703 0.0082064 0.0492703
4342000000 0.0082966 0.0497946 0.9917034 -0.0497946 0.9917034 -0.0497946 0.0082966 0.0497946
4363000000 0.0083877 0.0503187 0.9916123 -0.0503187 0.9916123 -0.0503187 0.0083877 0.0503187
4384000000 0.0084798 0.0508427 0.9915202 -0.0508427 0.9915202 -0.0508427 0.0084798 0.0508427
4405000000 0.0085729 0.0513666 0.9914271 -0.0513666 0.9914271 -0.0513666 0.0085729 0.0513666
4426000000 0.0086669 0.0518906 0.9913331 -0.0518906 0.9913331 -0.0518906 0.0086669 0.0518906
4447000000 0.0087620 0.0524145 0.9912380 -0.0524145 0.9912380 -0.0524145 0.0087620 0.0524145
4468000000 0.0088580 0.0529384 0.9911420 -0.0529384 0.9911420 -0.0529384 0.0088580 0.0529384
4489000000 0.0089551 0.0534623 0.9910449 -0.0534623 0.9910449 -0.0534623 0.0089551 0.0534623
4510000000 0.0090532 0.0539863 0.9909468 -0.0539863 0.9909468 -0.0539863 0.0090532 0.0539863
