!Murata Part Number: GRM0335C1E681JA01
!These Parameters are Measured in Series Mode Connection
!Data Generated on Mar 30, 2021
!       o--ll--o
!Port1            Port2
!       o------o
!Operation Temp=25[degC], DC Bias Voltage=0[V]
!Freq. Start=100[MHz] Stop=9[GHz] 401[Steps]
# Hz S RI R 50
!Freq.(Hz) S11(Real) S11(Imag) S21(Real) S21(Imag) S12(Real) S12(Imag) S22(Real) S22(Imag)
100000000 0.0011018 -0.0217734 0.9988982 0.0217734 0.9988982 0.0217734 0.0011018 -0.0217734
121000000 0.0009368 -0.0173869 0.9990632 0.0173869 0.9990632 0.0173869 0.0009368 -0.0173869
142000000 0.0008444 -0.0141976 0.9991556 0.0141976 0.9991556 0.0141976 0.0008444 -0.0141976
163000000 0.0007905 -0.0117433 0.9992095 0.0117433 0.9992095 0.0117433 0.0007905 -0.0117433
184000000 0.0007593 -0.0097724 0.9992407 0.0097724 0.9992407 0.0097724 0.0007593 -0.0097724
205000000 0.0007426 -0.0081365 0.9992574 0.0081365 0.9992574 0.0081365 0.0007426 -0.0081365
226000000 0.0007358 -0.0067423 0.9992642 0.0067423 0.9992642 0.0067423 0.0007358 -0.0067423
247000000 0.0007363 -0.0055279 0.9992637 0.0055279 0.9992637 0.0055279 0.0007363 -0.0055279
268000000 0.0007424 -0.0044512 0.9992576 0.0044512 0.9992576 0.0044512 0.0007424 -0.0044512
289000000 0.0007531 -0.0034820 0.9992469 0.0034820 0.9992469 0.0034820 0.0007531 -0.0034820
310000000 0.0007676 -0.0025984 0.9992324 0.0025984 0.9992324 0.0025984 0.0007676 -0.0025984
331000000 0.0007854 -0.0017841 0.9992146 0.0017841 0.9992146 0.0017841 0.0007854 -0.0017841
352000000 0.0008062 -0.0010265 0.9991938 0.0010265 0.9991938 0.0010265 0.0008062 -0.0010265
373000000 0.0008299 -0.0003159 0.9991701 0.0003159 0.9991701 0.0003159 0.0008299 -0.0003159
394000000 0.0008563 0.0003552 0.9991437 -0.0003552 0.9991437 -0.0003552 0.0008563 0.0003552
415000000 0.0008853 0.0009930 0.9991147 -0.0009930 0.9991147 -0.0009930 0.0008853 0.0009930
436000000 0.0009169 0.0016026 0.9990831 -0.0016026 0.9990831 -0.0016026 0.0009169 0.0016026
457000000 0.0009512 0.0021879 0.9990488 -0.0021879 0.9990488 -0.0021879 0.0009512 0.0021879
478000000 0.0009882 0.0027524 0.9990118 -0.0027524 0.9990118 -0.0027524 0.0009882 0.0027524
499000000 0.0010281 0.0032990 0.9989719 -0.0032990 0.9989719 -0.0032990 0.0010281 0.0032990
520000000 0.0010712 0.0038301 0.9989288 -0.0038301 0.9989288 -0.0038301 0.0010712 0.0038301
541000000 0.0011176 0.0043478 0.9988824 -0.0043478 0.9988824 -0.0043478 0.0011176 0.0043478
562000000 0.0011678 0.0048540 0.9988322 -0.0048540 0.9988322 -0.0048540 0.0011678 0.0048540
583000000 0.0012223 0.0053502 0.9987777 -0.0053502 0.9987777 -0.0053502 0.0012223 0.0053502
604000000 0.0012818 0.0058379 0.9987182 -0.0058379 0.9987182 -0.0058379 0.0012818 0.0058379
625000000 0.0013473 0.0063183 0.9986527 -0.0063183 0.9986527 -0.0063183 0.0013473 0.0063183
646000000 0.0014199 0.0067923 0.9985801 -0.0067923 0.9985801 -0.0067923 0.0014199 0.0067923
667000000 0.0015013 0.0072605 0.9984987 -0.0072605 0.9984987 -0.0072605 0.0015013 0.0072605
688000000 0.0015939 0.0077230 0.9984061 -0.0077230 0.9984061 -0.0077230 0.0015939 0.0077230
709000000 0.0017006 0.0081788 0.9982994 -0.0081788 0.9982994 -0.0081788 0.0017006 0.0081788
730000000 0.0018246 0.0086251 0.9981754 -0.0086251 0.9981754 -0.0086251 0.0018246 0.0086251
751000000 0.0019693 0.0090562 0.9980307 -0.0090562 0.9980307 -0.0090562 0.0019693 0.0090562
772000000 0.0021355 0.0094624 0.9978645 -0.0094624 0.9978645 -0.0094624 0.0021355 0.0094624
793000000 0.0023170 0.0098299 0.9976830 -0.0098299 0.9976830 -0.0098299 0.0023170 0.0098299
814000000 0.0024957 0.0101476 0.9975043 -0.0101476 0.9975043 -0.0101476 0.0024957 0.0101476
835000000 0.0026427 0.0104194 0.9973573 -0.0104194 0.9973573 -0.0104194 0.0026427 0.0104194
856000000 0.0027366 0.0106730 0.9972634 -0.0106730 0.9972634 -0.0106730 0.0027366 0.0106730
877000000 0.0027825 0.0109448 0.9972175 -0.0109448 0.9972175 -0.0109448 0.0027825 0.0109448
898000000 0.0028073 0.0112548 0.9971927 -0.0112548 0.9971927 -0.0112548 0.0028073 0.0112548
919000000 0.0028380 0.0116011 0.9971620 -0.0116011 0.9971620 -0.0116011 0.0028380 0.0116011
940000000 0.0028905 0.0119711 0.9971095 -0.0119711 0.9971095 -0.0119711 0.0028905 0.0119711
961000000 0.0029708 0.0123513 0.9970292 -0.0123513 0.9970292 -0.0123513 0.0029708 0.0123513
982000000 0.0030797 0.0127310 0.9969203 -0.0127310 0.9969203 -0.0127310 0.0030797 0.0127310
1003000000 0.0032162 0.0131019 0.9967838 -0.0131019 0.9967838 -0.0131019 0.0032162 0.0131019
1024000000 0.0033784 0.0134566 0.9966216 -0.0134566 0.9966216 -0.0134566 0.0033784 0.0134566
1045000000 0.0035636 0.0137882 0.9964364 -0.0137882 0.9964364 -0.0137882 0.0035636 0.0137882
1066000000 0.0037678 0.0140893 0.9962322 -0.0140893 0.9962322 -0.0140893 0.0037678 0.0140893
1087000000 0.0039845 0.0143530 0.9960155 -0.0143530 0.9960155 -0.0143530 0.0039845 0.0143530
1108000000 0.0042043 0.0145731 0.9957957 -0.0145731 0.9957957 -0.0145731 0.0042043 0.0145731
1129000000 0.0044147 0.0147463 0.9955853 -0.0147463 0.9955853 -0.0147463 0.0044147 0.0147463
1150000000 0.0046009 0.0148740 0.9953991 -0.0148740 0.9953991 -0.0148740 0.0046009 0.0148740
1171000000 0.0047482 0.0149637 0.9952518 -0.0149637 0.9952518 -0.0149637 0.0047482 0.0149637
1192000000 0.0048454 0.0150290 0.9951546 -0.0150290 0.9951546 -0.0150290 0.0048454 0.0150290
1213000000 0.0048877 0.0150875 0.9951123 -0.0150875 0.9951123 -0.0150875 0.0048877 0.0150875
1234000000 0.0048779 0.0151567 0.9951221 -0.0151567 0.9951221 -0.0151567 0.0048779 0.0151567
1255000000 0.0048250 0.0152508 0.9951750 -0.0152508 0.9951750 -0.0152508 0.0048250 0.0152508
1276000000 0.0047418 0.0153784 0.9952582 -0.0153784 0.9952582 -0.0153784 0.0047418 0.0153784
1297000000 0.0046414 0.0155421 0.9953586 -0.0155421 0.9953586 -0.0155421 0.0046414 0.0155421
1318000000 0.0045349 0.0157403 0.9954651 -0.0157403 0.9954651 -0.0157403 0.0045349 0.0157403
1339000000 0.0044309 0.0159686 0.9955691 -0.0159686 0.9955691 -0.0159686 0.0044309 0.0159686
1360000000 0.0043347 0.0162214 0.9956653 -0.0162214 0.9956653 -0.0162214 0.0043347 0.0162214
1381000000 0.0042496 0.0164933 0.9957504 -0.0164933 0.9957504 -0.0164933 0.0042496 0.0164933
1402000000 0.0041768 0.0167793 0.9958232 -0.0167793 0.9958232 -0.0167793 0.0041768 0.0167793
1423000000 0.0041164 0.0170752 0.9958836 -0.0170752 0.9958836 -0.0170752 0.0041164 0.0170752
1444000000 0.0040680 0.0173779 0.9959320 -0.0173779 0.9959320 -0.0173779 0.0040680 0.0173779
1465000000 0.0040306 0.0176848 0.9959694 -0.0176848 0.9959694 -0.0176848 0.0040306 0.0176848
1486000000 0.0040031 0.0179939 0.9959969 -0.0179939 0.9959969 -0.0179939 0.0040031 0.0179939
1507000000 0.0039844 0.0183038 0.9960156 -0.0183038 0.9960156 -0.0183038 0.0039844 0.0183038
1528000000 0.0039735 0.0186136 0.9960265 -0.0186136 0.9960265 -0.0186136 0.0039735 0.0186136
1549000000 0.0039693 0.0189224 0.9960307 -0.0189224 0.9960307 -0.0189224 0.0039693 0.0189224
1570000000 0.0039711 0.0192298 0.9960289 -0.0192298 0.9960289 -0.0192298 0.0039711 0.0192298
1591000000 0.0039779 0.0195354 0.9960221 -0.0195354 0.9960221 -0.0195354 0.0039779 0.0195354
1612000000 0.0039891 0.0198389 0.9960109 -0.0198389 0.9960109 -0.0198389 0.0039891 0.0198389
1633000000 0.0040042 0.0201403 0.9959958 -0.0201403 0.9959958 -0.0201403 0.0040042 0.0201403
1654000000 0.0040225 0.0204394 0.9959775 -0.0204394 0.9959775 -0.0204394 0.0040225 0.0204394
1675000000 0.0040436 0.0207363 0.9959564 -0.0207363 0.9959564 -0.0207363 0.0040436 0.0207363
1696000000 0.0040671 0.0210309 0.9959329 -0.0210309 0.9959329 -0.0210309 0.0040671 0.0210309
1717000000 0.0040927 0.0213232 0.9959073 -0.0213232 0.9959073 -0.0213232 0.0040927 0.0213232
1738000000 0.0041200 0.0216133 0.9958800 -0.0216133 0.9958800 -0.0216133 0.0041200 0.0216133
1759000000 0.0041489 0.0219013 0.9958511 -0.0219013 0.9958511 -0.0219013 0.0041489 0.0219013
1780000000 0.0041790 0.0221872 0.9958210 -0.0221872 0.9958210 -0.0221872 0.0041790 0.0221872
1801000000 0.0042101 0.0224711 0.9957899 -0.0224711 0.9957899 -0.0224711 0.0042101 0.0224711
1822000000 0.0042421 0.0227530 0.9957579 -0.0227530 0.9957579 -0.0227530 0.0042421 0.0227530
1843000000 0.0042748 0.0230331 0.9957252 -0.0230331 0.9957252 -0.0230331 0.0042748 0.0230331
1864000000 0.0043081 0.0233114 0.9956919 -0.0233114 0.9956919 -0.0233114 0.0043081 0.0233114
1885000000 0.0043419 0.0235879 0.9956581 -0.0235879 0.9956581 -0.0235879 0.0043419 0.0235879
1906000000 0.0043760 0.0238628 0.9956240 -0.0238628 0.9956240 -0.0238628 0.0043760 0.0238628
1927000000 0.0044103 0.0241362 0.9955897 -0.0241362 0.9955897 -0.0241362 0.0044103 0.0241362
1948000000 0.0044448 0.0244080 0.9955552 -0.0244080 0.9955552 -0.0244080 0.0044448 0.0244080
1969000000 0.0044793 0.0246784 0.9955207 -0.0246784 0.9955207 -0.0246784 0.0044793 0.0246784
1990000000 0.0045139 0.0249474 0.9954861 -0.0249474 0.9954861 -0.0249474 0.0045139 0.0249474
2011000000 0.0045484 0.0252151 0.9954516 -0.0252151 0.9954516 -0.0252151 0.0045484 0.0252151
2032000000 0.0045828 0.0254815 0.9954172 -0.0254815 0.9954172 -0.0254815 0.0045828 0.0254815
2053000000 0.0046170 0.0257468 0.9953830 -0.0257468 0.9953830 -0.0257468 0.0046170 0.0257468
2074000000 0.0046510 0.0260109 0.9953490 -0.0260109 0.9953490 -0.0260109 0.0046510 0.0260109
2095000000 0.0046848 0.0262740 0.9953152 -0.0262740 0.9953152 -0.0262740 0.0046848 0.0262740
2116000000 0.0047183 0.0265360 0.9952817 -0.0265360 0.9952817 -0.0265360 0.0047183 0.0265360
2137000000 0.0047515 0.0267971 0.9952485 -0.0267971 0.9952485 -0.0267971 0.0047515 0.0267971
2158000000 0.0047844 0.0270573 0.9952156 -0.0270573 0.9952156 -0.0270573 0.0047844 0.0270573
2179000000 0.0048169 0.0273166 0.9951831 -0.0273166 0.9951831 -0.0273166 0.0048169 0.0273166
2200000000 0.0048490 0.0275750 0.9951510 -0.0275750 0.9951510 -0.0275750 0.0048490 0.0275750
2221000000 0.0048807 0.0278328 0.9951193 -0.0278328 0.9951193 -0.0278328 0.0048807 0.0278328
2242000000 0.0049120 0.0280897 0.9950880 -0.0280897 0.9950880 -0.0280897 0.0049120 0.0280897
2263000000 0.0049429 0.0283460 0.9950571 -0.0283460 0.9950571 -0.0283460 0.0049429 0.0283460
2284000000 0.0049733 0.0286017 0.9950267 -0.0286017 0.9950267 -0.0286017 0.0049733 0.0286017
2305000000 0.0050033 0.0288568 0.9949967 -0.0288568 0.9949967 -0.0288568 0.0050033 0.0288568
2326000000 0.0050328 0.0291113 0.9949672 -0.0291113 0.9949672 -0.0291113 0.0050328 0.0291113
2347000000 0.0050618 0.0293653 0.9949382 -0.0293653 0.9949382 -0.0293653 0.0050618 0.0293653
2368000000 0.0050904 0.0296188 0.9949096 -0.0296188 0.9949096 -0.0296188 0.0050904 0.0296188
2389000000 0.0051184 0.0298718 0.9948816 -0.0298718 0.9948816 -0.0298718 0.0051184 0.0298718
2410000000 0.0051460 0.0301244 0.9948540 -0.0301244 0.9948540 -0.0301244 0.0051460 0.0301244
2431000000 0.0051732 0.0303767 0.9948268 -0.0303767 0.9948268 -0.0303767 0.0051732 0.0303767
2452000000 0.0051998 0.0306286 0.9948002 -0.0306286 0.9948002 -0.0306286 0.0051998 0.0306286
2473000000 0.0052259 0.0308802 0.9947741 -0.0308802 0.9947741 -0.0308802 0.0052259 0.0308802
2494000000 0.0052516 0.0311315 0.9947484 -0.0311315 0.9947484 -0.0311315 0.0052516 0.0311315
2515000000 0.0052768 0.0313825 0.9947232 -0.0313825 0.9947232 -0.0313825 0.0052768 0.0313825
2536000000 0.0053016 0.0316333 0.9946984 -0.0316333 0.9946984 -0.0316333 0.0053016 0.0316333
2557000000 0.0053258 0.0318839 0.9946742 -0.0318839 0.9946742 -0.0318839 0.0053258 0.0318839
2578000000 0.0053496 0.0321343 0.9946504 -0.0321343 0.9946504 -0.0321343 0.0053496 0.0321343
2599000000 0.0053730 0.0323846 0.9946270 -0.0323846 0.9946270 -0.0323846 0.0053730 0.0323846
2620000000 0.0053959 0.0326347 0.9946041 -0.0326347 0.9946041 -0.0326347 0.0053959 0.0326347
2641000000 0.0054183 0.0328848 0.9945817 -0.0328848 0.9945817 -0.0328848 0.0054183 0.0328848
2662000000 0.0054403 0.0331347 0.9945597 -0.0331347 0.9945597 -0.0331347 0.0054403 0.0331347
2683000000 0.0054619 0.0333846 0.9945381 -0.0333846 0.9945381 -0.0333846 0.0054619 0.0333846
2704000000 0.0054831 0.0336344 0.9945169 -0.0336344 0.9945169 -0.0336344 0.0054831 0.0336344
2725000000 0.0055039 0.0338843 0.9944961 -0.0338843 0.9944961 -0.0338843 0.0055039 0.0338843
2746000000 0.0055242 0.0341341 0.9944758 -0.0341341 0.9944758 -0.0341341 0.0055242 0.0341341
2767000000 0.0055442 0.0343839 0.9944558 -0.0343839 0.9944558 -0.0343839 0.0055442 0.0343839
2788000000 0.0055638 0.0346338 0.9944362 -0.0346338 0.9944362 -0.0346338 0.0055638 0.0346338
2809000000 0.0055830 0.0348837 0.9944170 -0.0348837 0.9944170 -0.0348837 0.0055830 0.0348837
2830000000 0.0056019 0.0351337 0.9943981 -0.0351337 0.9943981 -0.0351337 0.0056019 0.0351337
2851000000 0.0056204 0.0353837 0.9943796 -0.0353837 0.9943796 -0.0353837 0.0056204 0.0353837
2872000000 0.0056386 0.0356339 0.9943614 -0.0356339 0.9943614 -0.0356339 0.0056386 0.0356339
2893000000 0.0056564 0.0358842 0.9943436 -0.0358842 0.9943436 -0.0358842 0.0056564 0.0358842
2914000000 0.0056739 0.0361345 0.9943261 -0.0361345 0.9943261 -0.0361345 0.0056739 0.0361345
2935000000 0.0056912 0.0363851 0.9943088 -0.0363851 0.9943088 -0.0363851 0.0056912 0.0363851
2956000000 0.0057081 0.0366357 0.9942919 -0.0366357 0.9942919 -0.0366357 0.0057081 0.0366357
2977000000 0.0057247 0.0368866 0.9942753 -0.0368866 0.9942753 -0.0368866 0.0057247 0.0368866
2998000000 0.0057411 0.0371376 0.9942589 -0.0371376 0.9942589 -0.0371376 0.0057411 0.0371376
3019000000 0.0057572 0.0373887 0.9942428 -0.0373887 0.9942428 -0.0373887 0.0057572 0.0373887
3040000000 0.0057731 0.0376401 0.9942269 -0.0376401 0.9942269 -0.0376401 0.0057731 0.0376401
3061000000 0.0057887 0.0378917 0.9942113 -0.0378917 0.9942113 -0.0378917 0.0057887 0.0378917
3082000000 0.0058041 0.0381435 0.9941959 -0.0381435 0.9941959 -0.0381435 0.0058041 0.0381435
3103000000 0.0058193 0.0383954 0.9941807 -0.0383954 0.9941807 -0.0383954 0.0058193 0.0383954
3124000000 0.0058343 0.0386476 0.9941657 -0.0386476 0.9941657 -0.0386476 0.0058343 0.0386476
3145000000 0.0058490 0.0389001 0.9941510 -0.0389001 0.9941510 -0.0389001 0.0058490 0.0389001
3166000000 0.0058637 0.0391528 0.9941363 -0.0391528 0.9941363 -0.0391528 0.0058637 0.0391528
3187000000 0.0058781 0.0394057 0.9941219 -0.0394057 0.9941219 -0.0394057 0.0058781 0.0394057
3208000000 0.0058924 0.0396589 0.9941076 -0.0396589 0.9941076 -0.0396589 0.0058924 0.0396589
3229000000 0.0059065 0.0399123 0.9940935 -0.0399123 0.9940935 -0.0399123 0.0059065 0.0399123
3250000000 0.0059205 0.0401660 0.9940795 -0.0401660 0.9940795 -0.0401660 0.0059205 0.0401660
3271000000 0.0059343 0.0404199 0.9940657 -0.0404199 0.9940657 -0.0404199 0.0059343 0.0404199
3292000000 0.0059481 0.0406741 0.9940519 -0.0406741 0.9940519 -0.0406741 0.0059481 0.0406741
3313000000 0.0059617 0.0409286 0.9940383 -0.0409286 0.9940383 -0.0409286 0.0059617 0.0409286
3334000000 0.0059753 0.0411834 0.9940247 -0.0411834 0.9940247 -0.0411834 0.0059753 0.0411834
3355000000 0.0059887 0.0414384 0.9940113 -0.0414384 0.9940113 -0.0414384 0.0059887 0.0414384
3376000000 0.0060021 0.0416937 0.9939979 -0.0416937 0.9939979 -0.0416937 0.0060021 0.0416937
3397000000 0.0060154 0.0419493 0.9939846 -0.0419493 0.9939846 -0.0419493 0.0060154 0.0419493
3418000000 0.0060287 0.0422052 0.9939713 -0.0422052 0.9939713 -0.0422052 0.0060287 0.0422052
3439000000 0.0060419 0.0424614 0.9939581 -0.0424614 0.9939581 -0.0424614 0.0060419 0.0424614
3460000000 0.0060551 0.0427179 0.9939449 -0.0427179 0.9939449 -0.0427179 0.0060551 0.0427179
3481000000 0.0060682 0.0429746 0.9939318 -0.0429746 0.9939318 -0.0429746 0.0060682 0.0429746
3502000000 0.0060814 0.0432317 0.9939186 -0.0432317 0.9939186 -0.0432317 0.0060814 0.0432317
3523000000 0.0060945 0.0434890 0.9939055 -0.0434890 0.9939055 -0.0434890 0.0060945 0.0434890
3544000000 0.0061076 0.0437467 0.9938924 -0.0437467 0.9938924 -0.0437467 0.0061076 0.0437467
3565000000 0.0061207 0.0440046 0.9938793 -0.0440046 0.9938793 -0.0440046 0.0061207 0.0440046
3586000000 0.0061339 0.0442629 0.9938661 -0.0442629 0.9938661 -0.0442629 0.0061339 0.0442629
3607000000 0.0061470 0.0445214 0.9938530 -0.0445214 0.9938530 -0.0445214 0.0061470 0.0445214
3628000000 0.0061602 0.0447803 0.9938398 -0.0447803 0.9938398 -0.0447803 0.0061602 0.0447803
3649000000 0.0061735 0.0450394 0.9938265 -0.0450394 0.9938265 -0.0450394 0.0061735 0.0450394
3670000000 0.0061868 0.0452988 0.9938132 -0.0452988 0.9938132 -0.0452988 0.0061868 0.0452988
3691000000 0.0062001 0.0455586 0.9937999 -0.0455586 0.9937999 -0.0455586 0.0062001 0.0455586
3712000000 0.0062135 0.0458186 0.9937865 -0.0458186 0.9937865 -0.0458186 0.0062135 0.0458186
3733000000 0.0062270 0.0460789 0.9937730 -0.0460789 0.9937730 -0.0460789 0.0062270 0.0460789
3754000000 0.0062406 0.0463395 0.9937594 -0.0463395 0.9937594 -0.0463395 0.0062406 0.0463395
3775000000 0.0062543 0.0466005 0.9937457 -0.0466005 0.9937457 -0.0466005 0.0062543 0.0466005
3796000000 0.0062680 0.0468617 0.9937320 -0.0468617 0.9937320 -0.0468617 0.0062680 0.0468617
3817000000 0.0062818 0.0471232 0.9937182 -0.0471232 0.9937182 -0.0471232 0.0062818 0.0471232
3838000000 0.0062958 0.0473850 0.9937042 -0.0473850 0.9937042 -0.0473850 0.0062958 0.0473850
3859000000 0.0063098 0.0476471 0.9936902 -0.0476471 0.9936902 -0.0476471 0.0063098 0.0476471
3880000000 0.0063240 0.0479094 0.9936760 -0.0479094 0.9936760 -0.0479094 0.0063240 0.0479094
3901000000 0.0063383 0.0481721 0.9936617 -0.0481721 0.9936617 -0.0481721 0.0063383 0.0481721
3922000000 0.0063528 0.0484350 0.9936472 -0.0484350 0.9936472 -0.0484350 0.0063528 0.0484350
3943000000 0.0063673 0.0486983 0.9936327 -0.0486983 0.9936327 -0.0486983 0.0063673 0.0486983
3964000000 0.0063821 0.0489618 0.9936179 -0.0489618 0.9936179 -0.0489618 0.0063821 0.0489618
3985000000 0.0063969 0.0492256 0.9936031 -0.0492256 0.9936031 -0.0492256 0.0063969 0.0492256
4006000000 0.0064119 0.0494896 0.9935881 -0.0494896 0.9935881 -0.0494896 0.0064119 0.0494896
4027000000 0.0064271 0.0497540 0.9935729 -0.0497540 0.9935729 -0.0497540 0.0064271 0.0497540
4048000000 0.0064425 0.0500186 0.9935575 -0.0500186 0.9935575 -0.0500186 0.0064425 0.0500186
4069000000 0.0064580 0.0502835 0.9935420 -0.0502835 0.9935420 -0.0502835 0.0064580 0.0502835
4090000000 0.0064737 0.0505487 0.9935263 -0.0505487 0.9935263 -0.0505487 0.0064737 0.0505487
4111000000 0.0064895 0.0508141 0.9935105 -0.0508141 0.9935105 -0.0508141 0.0064895 0.0508141
4132000000 0.0065056 0.0510799 0.9934944 -0.0510799 0.9934944 -0.0510799 0.0065056 0.0510799
4153000000 0.0065218 0.0513458 0.9934782 -0.0513458 0.9934782 -0.0513458 0.0065218 0.0513458
4174000000 0.0065382 0.0516121 0.9934618 -0.0516121 0.9934618 -0.0516121 0.0065382 0.0516121
4195000000 0.0065549 0.0518786 0.9934451 -0.0518786 0.9934451 -0.0518786 0.0065549 0.0518786
4216000000 0.0065717 0.0521454 0.9934283 -0.0521454 0.9934283 -0.0521454 0.0065717 0.0521454
4237000000 0.0065887 0.0524124 0.9934113 -0.0524124 0.9934113 -0.0524124 0.0065887 0.0524124
4258000000 0.0066060 0.0526797 0.9933940 -0.0526797 0.9933940 -0.0526797 0.0066060 0.0526797
4279000000 0.0066234 0.0529472 0.9933766 -0.0529472 0.9933766 -0.0529472 0.0066234 0.0529472
4300000000 0.0066411 0.0532150 0.9933589 -0.0532150 0.9933589 -0.0532150 0.0066411 0.0532150
4321000000 0.0066590 0.0534830 0.9933410 -0.0534830 0.9933410 -0.0534830 0.0066590 0.0534830
4342000000 0.0066771 0.0537513 0.9933229 -0.0537513 0.9933229 -0.0537513 0.0066771 0.0537513
4363000000 0.0066955 0.0540198 0.9933045 -0.0540198 0.9933045 -0.0540198 0.0066955 0.0540198
4384000000 0.0067140 0.0542886 0.9932860 -0.0542886 0.9932860 -0.0542886 0.0067140 0.0542886
4405000000 0.0067329 0.0545576 0.9932671 -0.0545576 0.9932671 -0.0545576 0.0067329 0.0545576
4426000000 0.0067519 0.0548269 0.9932481 -0.0548269 0.9932481 -0.0548269 0.0067519 0.0548269
4447000000 0.0067712 0.0550964 0.9932288 -0.0550964 0.9932288 -0.0550964 0.0067712 0.0550964
4468000000 0.0067908 0.0553661 0.9932092 -0.0553661 0.9932092 -0.0553661 0.0067908 0.0553661
4489000000 0.0068106 0.0556361 0.9931894 -0.0556361 0.9931894 -0.0556361 0.0068106 0.0556361
4510000000 0.0068306 0.0559063 0.9931694 -0.0559063 0.9931694 -0.0559063 0.0068306 0.0559063
