!Murata Part Number: GRM0335C1H1R6BA01
!These Parameters are Measured in Series Mode Connection
!Data Generated on Mar 30, 2021
!       o--ll--o
!Port1            Port2
!       o------o
!Operation Temp=25[degC], DC Bias Voltage=0[V]
!Freq. Start=100[MHz] Stop=9[GHz] 401[Steps]
# Hz S RI R 50
!Freq.(Hz) S11(Real) S11(Imag) S21(Real) S21(Imag) S12(Real) S12(Imag) S22(Real) S22(Imag)
100000000 0.9899630 -0.0995352 0.0100370 0.0995352 0.0100370 0.0995352 0.9899630 -0.0995352
121000000 0.9853709 -0.1198864 0.0146291 0.1198864 0.0146291 0.1198864 0.9853709 -0.1198864
142000000 0.9799597 -0.1399309 0.0200403 0.1399309 0.0200403 0.1399309 0.9799597 -0.1399309
163000000 0.9737562 -0.1596218 0.0262438 0.1596218 0.0262438 0.1596218 0.9737562 -0.1596218
184000000 0.9667904 -0.1789150 0.0332096 0.1789150 0.0332096 0.1789150 0.9667904 -0.1789150
205000000 0.9590955 -0.1977698 0.0409045 0.1977698 0.0409045 0.1977698 0.9590955 -0.1977698
226000000 0.9507074 -0.2161484 0.0492926 0.2161484 0.0492926 0.2161484 0.9507074 -0.2161484
247000000 0.9416640 -0.2340170 0.0583360 0.2340170 0.0583360 0.2340170 0.9416640 -0.2340170
268000000 0.9320054 -0.2513452 0.0679946 0.2513452 0.0679946 0.2513452 0.9320054 -0.2513452
289000000 0.9217728 -0.2681064 0.0782272 0.2681064 0.0782272 0.2681064 0.9217728 -0.2681064
310000000 0.9110088 -0.2842777 0.0889912 0.2842777 0.0889912 0.2842777 0.9110088 -0.2842777
331000000 0.8997565 -0.2998402 0.1002435 0.2998402 0.1002435 0.2998402 0.8997565 -0.2998402
352000000 0.8880593 -0.3147783 0.1119407 0.3147783 0.1119407 0.3147783 0.8880593 -0.3147783
373000000 0.8759604 -0.3290804 0.1240396 0.3290804 0.1240396 0.3290804 0.8759604 -0.3290804
394000000 0.8635030 -0.3427381 0.1364970 0.3427381 0.1364970 0.3427381 0.8635030 -0.3427381
415000000 0.8507294 -0.3557465 0.1492706 0.3557465 0.1492706 0.3557465 0.8507294 -0.3557465
436000000 0.8376808 -0.3681035 0.1623192 0.3681035 0.1623192 0.3681035 0.8376808 -0.3681035
457000000 0.8243976 -0.3798104 0.1756024 0.3798104 0.1756024 0.3798104 0.8243976 -0.3798104
478000000 0.8109186 -0.3908708 0.1890814 0.3908708 0.1890814 0.3908708 0.8109186 -0.3908708
499000000 0.7972811 -0.4012909 0.2027189 0.4012909 0.2027189 0.4012909 0.7972811 -0.4012909
520000000 0.7835208 -0.4110791 0.2164792 0.4110791 0.2164792 0.4110791 0.7835208 -0.4110791
541000000 0.7696714 -0.4202461 0.2303286 0.4202461 0.2303286 0.4202461 0.7696714 -0.4202461
562000000 0.7557651 -0.4288039 0.2442349 0.4288039 0.2442349 0.4288039 0.7557651 -0.4288039
583000000 0.7418318 -0.4367665 0.2581682 0.4367665 0.2581682 0.4367665 0.7418318 -0.4367665
604000000 0.7278997 -0.4441489 0.2721003 0.4441489 0.2721003 0.4441489 0.7278997 -0.4441489
625000000 0.7139950 -0.4509674 0.2860050 0.4509674 0.2860050 0.4509674 0.7139950 -0.4509674
646000000 0.7001419 -0.4572393 0.2998581 0.4572393 0.2998581 0.4572393 0.7001419 -0.4572393
667000000 0.6863625 -0.4629824 0.3136375 0.4629824 0.3136375 0.4629824 0.6863625 -0.4629824
688000000 0.6726775 -0.4682153 0.3273225 0.4682153 0.3273225 0.4682153 0.6726775 -0.4682153
709000000 0.6591052 -0.4729569 0.3408948 0.4729569 0.3408948 0.4729569 0.6591052 -0.4729569
730000000 0.6456626 -0.4772264 0.3543374 0.4772264 0.3543374 0.4772264 0.6456626 -0.4772264
751000000 0.6323647 -0.4810432 0.3676353 0.4810432 0.3676353 0.4810432 0.6323647 -0.4810432
772000000 0.6192250 -0.4844265 0.3807750 0.4844265 0.3807750 0.4844265 0.6192250 -0.4844265
793000000 0.6062555 -0.4873956 0.3937445 0.4873956 0.3937445 0.4873956 0.6062555 -0.4873956
814000000 0.5934666 -0.4899696 0.4065334 0.4899696 0.4065334 0.4899696 0.5934666 -0.4899696
835000000 0.5808674 -0.4921674 0.4191326 0.4921674 0.4191326 0.4921674 0.5808674 -0.4921674
856000000 0.5684657 -0.4940073 0.4315343 0.4940073 0.4315343 0.4940073 0.5684657 -0.4940073
877000000 0.5562683 -0.4955075 0.4437317 0.4955075 0.4437317 0.4955075 0.5562683 -0.4955075
898000000 0.5442805 -0.4966856 0.4557195 0.4966856 0.4557195 0.4966856 0.5442805 -0.4966856
919000000 0.5325069 -0.4975588 0.4674931 0.4975588 0.4674931 0.4975588 0.5325069 -0.4975588
940000000 0.5209510 -0.4981437 0.4790490 0.4981437 0.4790490 0.4981437 0.5209510 -0.4981437
961000000 0.5096155 -0.4984564 0.4903845 0.4984564 0.4903845 0.4984564 0.5096155 -0.4984564
982000000 0.4985022 -0.4985125 0.5014978 0.4985125 0.5014978 0.4985125 0.4985022 -0.4985125
1003000000 0.4876122 -0.4983271 0.5123878 0.4983271 0.5123878 0.4983271 0.4876122 -0.4983271
1024000000 0.4769460 -0.4979144 0.5230540 0.4979144 0.5230540 0.4979144 0.4769460 -0.4979144
1045000000 0.4665035 -0.4972883 0.5334965 0.4972883 0.5334965 0.4972883 0.4665035 -0.4972883
1066000000 0.4562841 -0.4964621 0.5437159 0.4964621 0.5437159 0.4964621 0.4562841 -0.4964621
1087000000 0.4462864 -0.4954484 0.5537136 0.4954484 0.5537136 0.4954484 0.4462864 -0.4954484
1108000000 0.4365090 -0.4942593 0.5634910 0.4942593 0.5634910 0.4942593 0.4365090 -0.4942593
1129000000 0.4269500 -0.4929064 0.5730500 0.4929064 0.5730500 0.4929064 0.4269500 -0.4929064
1150000000 0.4176069 -0.4914007 0.5823931 0.4914007 0.5823931 0.4914007 0.4176069 -0.4914007
1171000000 0.4084772 -0.4897526 0.5915228 0.4897526 0.5915228 0.4897526 0.4084772 -0.4897526
1192000000 0.3995581 -0.4879720 0.6004419 0.4879720 0.6004419 0.4879720 0.3995581 -0.4879720
1213000000 0.3908464 -0.4860685 0.6091536 0.4860685 0.6091536 0.4860685 0.3908464 -0.4860685
1234000000 0.3823390 -0.4840509 0.6176610 0.4840509 0.6176610 0.4840509 0.3823390 -0.4840509
1255000000 0.3740323 -0.4819277 0.6259677 0.4819277 0.6259677 0.4819277 0.3740323 -0.4819277
1276000000 0.3659229 -0.4797070 0.6340771 0.4797070 0.6340771 0.4797070 0.3659229 -0.4797070
1297000000 0.3580071 -0.4773963 0.6419929 0.4773963 0.6419929 0.4773963 0.3580071 -0.4773963
1318000000 0.3502810 -0.4750028 0.6497190 0.4750028 0.6497190 0.4750028 0.3502810 -0.4750028
1339000000 0.3427409 -0.4725333 0.6572591 0.4725333 0.6572591 0.4725333 0.3427409 -0.4725333
1360000000 0.3353830 -0.4699941 0.6646170 0.4699941 0.6646170 0.4699941 0.3353830 -0.4699941
1381000000 0.3282033 -0.4673914 0.6717967 0.4673914 0.6717967 0.4673914 0.3282033 -0.4673914
1402000000 0.3211979 -0.4647307 0.6788021 0.4647307 0.6788021 0.4647307 0.3211979 -0.4647307
1423000000 0.3143630 -0.4620174 0.6856370 0.4620174 0.6856370 0.4620174 0.3143630 -0.4620174
1444000000 0.3076945 -0.4592565 0.6923055 0.4592565 0.6923055 0.4592565 0.3076945 -0.4592565
1465000000 0.3011886 -0.4564527 0.6988114 0.4564527 0.6988114 0.4564527 0.3011886 -0.4564527
1486000000 0.2948414 -0.4536106 0.7051586 0.4536106 0.7051586 0.4536106 0.2948414 -0.4536106
1507000000 0.2886492 -0.4507342 0.7113508 0.4507342 0.7113508 0.4507342 0.2886492 -0.4507342
1528000000 0.2826080 -0.4478275 0.7173920 0.4478275 0.7173920 0.4478275 0.2826080 -0.4478275
1549000000 0.2767143 -0.4448942 0.7232857 0.4448942 0.7232857 0.4448942 0.2767143 -0.4448942
1570000000 0.2709642 -0.4419376 0.7290358 0.4419376 0.7290358 0.4419376 0.2709642 -0.4419376
1591000000 0.2653541 -0.4389611 0.7346459 0.4389611 0.7346459 0.4389611 0.2653541 -0.4389611
1612000000 0.2598805 -0.4359676 0.7401195 0.4359676 0.7401195 0.4359676 0.2598805 -0.4359676
1633000000 0.2545399 -0.4329599 0.7454601 0.4329599 0.7454601 0.4329599 0.2545399 -0.4329599
1654000000 0.2493288 -0.4299407 0.7506712 0.4299407 0.7506712 0.4299407 0.2493288 -0.4299407
1675000000 0.2442438 -0.4269124 0.7557562 0.4269124 0.7557562 0.4269124 0.2442438 -0.4269124
1696000000 0.2392817 -0.4238775 0.7607183 0.4238775 0.7607183 0.4238775 0.2392817 -0.4238775
1717000000 0.2344392 -0.4208379 0.7655608 0.4208379 0.7655608 0.4208379 0.2344392 -0.4208379
1738000000 0.2297131 -0.4177957 0.7702869 0.4177957 0.7702869 0.4177957 0.2297131 -0.4177957
1759000000 0.2251004 -0.4147528 0.7748996 0.4147528 0.7748996 0.4147528 0.2251004 -0.4147528
1780000000 0.2205980 -0.4117108 0.7794020 0.4117108 0.7794020 0.4117108 0.2205980 -0.4117108
1801000000 0.2162030 -0.4086715 0.7837970 0.4086715 0.7837970 0.4086715 0.2162030 -0.4086715
1822000000 0.2119125 -0.4056364 0.7880875 0.4056364 0.7880875 0.4056364 0.2119125 -0.4056364
1843000000 0.2077237 -0.4026067 0.7922763 0.4026067 0.7922763 0.4026067 0.2077237 -0.4026067
1864000000 0.2036339 -0.3995838 0.7963661 0.3995838 0.7963661 0.3995838 0.2036339 -0.3995838
1885000000 0.1996405 -0.3965689 0.8003595 0.3965689 0.8003595 0.3965689 0.1996405 -0.3965689
1906000000 0.1957408 -0.3935631 0.8042592 0.3935631 0.8042592 0.3935631 0.1957408 -0.3935631
1927000000 0.1919323 -0.3905674 0.8080677 0.3905674 0.8080677 0.3905674 0.1919323 -0.3905674
1948000000 0.1882127 -0.3875828 0.8117873 0.3875828 0.8117873 0.3875828 0.1882127 -0.3875828
1969000000 0.1845794 -0.3846101 0.8154206 0.3846101 0.8154206 0.3846101 0.1845794 -0.3846101
1990000000 0.1810301 -0.3816502 0.8189699 0.3816502 0.8189699 0.3816502 0.1810301 -0.3816502
2011000000 0.1775627 -0.3787037 0.8224373 0.3787037 0.8224373 0.3787037 0.1775627 -0.3787037
2032000000 0.1741750 -0.3757713 0.8258250 0.3757713 0.8258250 0.3757713 0.1741750 -0.3757713
2053000000 0.1708647 -0.3728537 0.8291353 0.3728537 0.8291353 0.3728537 0.1708647 -0.3728537
2074000000 0.1676298 -0.3699514 0.8323702 0.3699514 0.8323702 0.3699514 0.1676298 -0.3699514
2095000000 0.1644683 -0.3670649 0.8355317 0.3670649 0.8355317 0.3670649 0.1644683 -0.3670649
2116000000 0.1613783 -0.3641947 0.8386217 0.3641947 0.8386217 0.3641947 0.1613783 -0.3641947
2137000000 0.1583579 -0.3613411 0.8416421 0.3613411 0.8416421 0.3613411 0.1583579 -0.3613411
2158000000 0.1554052 -0.3585046 0.8445948 0.3585046 0.8445948 0.3585046 0.1554052 -0.3585046
2179000000 0.1525184 -0.3556856 0.8474816 0.3556856 0.8474816 0.3556856 0.1525184 -0.3556856
2200000000 0.1496957 -0.3528842 0.8503043 0.3528842 0.8503043 0.3528842 0.1496957 -0.3528842
2221000000 0.1469356 -0.3501008 0.8530644 0.3501008 0.8530644 0.3501008 0.1469356 -0.3501008
2242000000 0.1442363 -0.3473356 0.8557637 0.3473356 0.8557637 0.3473356 0.1442363 -0.3473356
2263000000 0.1415962 -0.3445888 0.8584038 0.3445888 0.8584038 0.3445888 0.1415962 -0.3445888
2284000000 0.1390139 -0.3418606 0.8609861 0.3418606 0.8609861 0.3418606 0.1390139 -0.3418606
2305000000 0.1364878 -0.3391512 0.8635122 0.3391512 0.8635122 0.3391512 0.1364878 -0.3391512
2326000000 0.1340164 -0.3364605 0.8659836 0.3364605 0.8659836 0.3364605 0.1340164 -0.3364605
2347000000 0.1315984 -0.3337889 0.8684016 0.3337889 0.8684016 0.3337889 0.1315984 -0.3337889
2368000000 0.1292323 -0.3311363 0.8707677 0.3311363 0.8707677 0.3311363 0.1292323 -0.3311363
2389000000 0.1269169 -0.3285028 0.8730831 0.3285028 0.8730831 0.3285028 0.1269169 -0.3285028
2410000000 0.1246508 -0.3258884 0.8753492 0.3258884 0.8753492 0.3258884 0.1246508 -0.3258884
2431000000 0.1224328 -0.3232932 0.8775672 0.3232932 0.8775672 0.3232932 0.1224328 -0.3232932
2452000000 0.1202616 -0.3207172 0.8797384 0.3207172 0.8797384 0.3207172 0.1202616 -0.3207172
2473000000 0.1181361 -0.3181604 0.8818639 0.3181604 0.8818639 0.3181604 0.1181361 -0.3181604
2494000000 0.1160551 -0.3156227 0.8839449 0.3156227 0.8839449 0.3156227 0.1160551 -0.3156227
2515000000 0.1140175 -0.3131042 0.8859825 0.3131042 0.8859825 0.3131042 0.1140175 -0.3131042
2536000000 0.1120222 -0.3106047 0.8879778 0.3106047 0.8879778 0.3106047 0.1120222 -0.3106047
2557000000 0.1100681 -0.3081243 0.8899319 0.3081243 0.8899319 0.3081243 0.1100681 -0.3081243
2578000000 0.1081544 -0.3056629 0.8918456 0.3056629 0.8918456 0.3056629 0.1081544 -0.3056629
2599000000 0.1062798 -0.3032203 0.8937202 0.3032203 0.8937202 0.3032203 0.1062798 -0.3032203
2620000000 0.1044435 -0.3007966 0.8955565 0.3007966 0.8955565 0.3007966 0.1044435 -0.3007966
2641000000 0.1026446 -0.2983916 0.8973554 0.2983916 0.8973554 0.2983916 0.1026446 -0.2983916
2662000000 0.1008821 -0.2960052 0.8991179 0.2960052 0.8991179 0.2960052 0.1008821 -0.2960052
2683000000 0.0991551 -0.2936373 0.9008449 0.2936373 0.9008449 0.2936373 0.0991551 -0.2936373
2704000000 0.0974629 -0.2912879 0.9025371 0.2912879 0.9025371 0.2912879 0.0974629 -0.2912879
2725000000 0.0958044 -0.2889567 0.9041956 0.2889567 0.9041956 0.2889567 0.0958044 -0.2889567
2746000000 0.0941790 -0.2866438 0.9058210 0.2866438 0.9058210 0.2866438 0.0941790 -0.2866438
2767000000 0.0925859 -0.2843489 0.9074141 0.2843489 0.9074141 0.2843489 0.0925859 -0.2843489
2788000000 0.0910242 -0.2820719 0.9089758 0.2820719 0.9089758 0.2820719 0.0910242 -0.2820719
2809000000 0.0894933 -0.2798127 0.9105067 0.2798127 0.9105067 0.2798127 0.0894933 -0.2798127
2830000000 0.0879924 -0.2775711 0.9120076 0.2775711 0.9120076 0.2775711 0.0879924 -0.2775711
2851000000 0.0865208 -0.2753471 0.9134792 0.2753471 0.9134792 0.2753471 0.0865208 -0.2753471
2872000000 0.0850778 -0.2731404 0.9149222 0.2731404 0.9149222 0.2731404 0.0850778 -0.2731404
2893000000 0.0836628 -0.2709510 0.9163372 0.2709510 0.9163372 0.2709510 0.0836628 -0.2709510
2914000000 0.0822751 -0.2687787 0.9177249 0.2687787 0.9177249 0.2687787 0.0822751 -0.2687787
2935000000 0.0809141 -0.2666232 0.9190859 0.2666232 0.9190859 0.2666232 0.0809141 -0.2666232
2956000000 0.0795791 -0.2644846 0.9204209 0.2644846 0.9204209 0.2644846 0.0795791 -0.2644846
2977000000 0.0782697 -0.2623626 0.9217303 0.2623626 0.9217303 0.2623626 0.0782697 -0.2623626
2998000000 0.0769851 -0.2602570 0.9230149 0.2602570 0.9230149 0.2602570 0.0769851 -0.2602570
3019000000 0.0757249 -0.2581678 0.9242751 0.2581678 0.9242751 0.2581678 0.0757249 -0.2581678
3040000000 0.0744885 -0.2560947 0.9255115 0.2560947 0.9255115 0.2560947 0.0744885 -0.2560947
3061000000 0.0732753 -0.2540376 0.9267247 0.2540376 0.9267247 0.2540376 0.0732753 -0.2540376
3082000000 0.0720849 -0.2519964 0.9279151 0.2519964 0.9279151 0.2519964 0.0720849 -0.2519964
3103000000 0.0709167 -0.2499709 0.9290833 0.2499709 0.9290833 0.2499709 0.0709167 -0.2499709
3124000000 0.0697703 -0.2479609 0.9302297 0.2479609 0.9302297 0.2479609 0.0697703 -0.2479609
3145000000 0.0686452 -0.2459663 0.9313548 0.2459663 0.9313548 0.2459663 0.0686452 -0.2459663
3166000000 0.0675409 -0.2439869 0.9324591 0.2439869 0.9324591 0.2439869 0.0675409 -0.2439869
3187000000 0.0664569 -0.2420226 0.9335431 0.2420226 0.9335431 0.2420226 0.0664569 -0.2420226
3208000000 0.0653928 -0.2400732 0.9346072 0.2400732 0.9346072 0.2400732 0.0653928 -0.2400732
3229000000 0.0643483 -0.2381386 0.9356517 0.2381386 0.9356517 0.2381386 0.0643483 -0.2381386
3250000000 0.0633228 -0.2362185 0.9366772 0.2362185 0.9366772 0.2362185 0.0633228 -0.2362185
3271000000 0.0623159 -0.2343130 0.9376841 0.2343130 0.9376841 0.2343130 0.0623159 -0.2343130
3292000000 0.0613274 -0.2324217 0.9386726 0.2324217 0.9386726 0.2324217 0.0613274 -0.2324217
3313000000 0.0603567 -0.2305445 0.9396433 0.2305445 0.9396433 0.2305445 0.0603567 -0.2305445
3334000000 0.0594036 -0.2286813 0.9405964 0.2286813 0.9405964 0.2286813 0.0594036 -0.2286813
3355000000 0.0584676 -0.2268320 0.9415324 0.2268320 0.9415324 0.2268320 0.0584676 -0.2268320
3376000000 0.0575484 -0.2249964 0.9424516 0.2249964 0.9424516 0.2249964 0.0575484 -0.2249964
3397000000 0.0566456 -0.2231743 0.9433544 0.2231743 0.9433544 0.2231743 0.0566456 -0.2231743
3418000000 0.0557589 -0.2213656 0.9442411 0.2213656 0.9442411 0.2213656 0.0557589 -0.2213656
3439000000 0.0548880 -0.2195701 0.9451120 0.2195701 0.9451120 0.2195701 0.0548880 -0.2195701
3460000000 0.0540326 -0.2177878 0.9459674 0.2177878 0.9459674 0.2177878 0.0540326 -0.2177878
3481000000 0.0531923 -0.2160184 0.9468077 0.2160184 0.9468077 0.2160184 0.0531923 -0.2160184
3502000000 0.0523669 -0.2142618 0.9476331 0.2142618 0.9476331 0.2142618 0.0523669 -0.2142618
3523000000 0.0515560 -0.2125179 0.9484440 0.2125179 0.9484440 0.2125179 0.0515560 -0.2125179
3544000000 0.0507593 -0.2107865 0.9492407 0.2107865 0.9492407 0.2107865 0.0507593 -0.2107865
3565000000 0.0499766 -0.2090675 0.9500234 0.2090675 0.9500234 0.2090675 0.0499766 -0.2090675
3586000000 0.0492077 -0.2073608 0.9507923 0.2073608 0.9507923 0.2073608 0.0492077 -0.2073608
3607000000 0.0484521 -0.2056662 0.9515479 0.2056662 0.9515479 0.2056662 0.0484521 -0.2056662
3628000000 0.0477097 -0.2039836 0.9522903 0.2039836 0.9522903 0.2039836 0.0477097 -0.2039836
3649000000 0.0469802 -0.2023128 0.9530198 0.2023128 0.9530198 0.2023128 0.0469802 -0.2023128
3670000000 0.0462634 -0.2006537 0.9537366 0.2006537 0.9537366 0.2006537 0.0462634 -0.2006537
3691000000 0.0455590 -0.1990063 0.9544410 0.1990063 0.9544410 0.1990063 0.0455590 -0.1990063
3712000000 0.0448668 -0.1973703 0.9551332 0.1973703 0.9551332 0.1973703 0.0448668 -0.1973703
3733000000 0.0441865 -0.1957456 0.9558135 0.1957456 0.9558135 0.1957456 0.0441865 -0.1957456
3754000000 0.0435179 -0.1941321 0.9564821 0.1941321 0.9564821 0.1941321 0.0435179 -0.1941321
3775000000 0.0428609 -0.1925297 0.9571391 0.1925297 0.9571391 0.1925297 0.0428609 -0.1925297
3796000000 0.0422151 -0.1909383 0.9577849 0.1909383 0.9577849 0.1909383 0.0422151 -0.1909383
3817000000 0.0415804 -0.1893577 0.9584196 0.1893577 0.9584196 0.1893577 0.0415804 -0.1893577
3838000000 0.0409566 -0.1877878 0.9590434 0.1877878 0.9590434 0.1877878 0.0409566 -0.1877878
3859000000 0.0403434 -0.1862285 0.9596566 0.1862285 0.9596566 0.1862285 0.0403434 -0.1862285
3880000000 0.0397408 -0.1846797 0.9602592 0.1846797 0.9602592 0.1846797 0.0397408 -0.1846797
3901000000 0.0391484 -0.1831412 0.9608516 0.1831412 0.9608516 0.1831412 0.0391484 -0.1831412
3922000000 0.0385661 -0.1816130 0.9614339 0.1816130 0.9614339 0.1816130 0.0385661 -0.1816130
3943000000 0.0379937 -0.1800949 0.9620063 0.1800949 0.9620063 0.1800949 0.0379937 -0.1800949
3964000000 0.0374311 -0.1785868 0.9625689 0.1785868 0.9625689 0.1785868 0.0374311 -0.1785868
3985000000 0.0368781 -0.1770886 0.9631219 0.1770886 0.9631219 0.1770886 0.0368781 -0.1770886
4006000000 0.0363344 -0.1756003 0.9636656 0.1756003 0.9636656 0.1756003 0.0363344 -0.1756003
4027000000 0.0358000 -0.1741216 0.9642000 0.1741216 0.9642000 0.1741216 0.0358000 -0.1741216
4048000000 0.0352747 -0.1726525 0.9647253 0.1726525 0.9647253 0.1726525 0.0352747 -0.1726525
4069000000 0.0347582 -0.1711929 0.9652418 0.1711929 0.9652418 0.1711929 0.0347582 -0.1711929
4090000000 0.0342506 -0.1697427 0.9657494 0.1697427 0.9657494 0.1697427 0.0342506 -0.1697427
4111000000 0.0337515 -0.1683017 0.9662485 0.1683017 0.9662485 0.1683017 0.0337515 -0.1683017
4132000000 0.0332609 -0.1668699 0.9667391 0.1668699 0.9667391 0.1668699 0.0332609 -0.1668699
4153000000 0.0327786 -0.1654472 0.9672214 0.1654472 0.9672214 0.1654472 0.0327786 -0.1654472
4174000000 0.0323045 -0.1640334 0.9676955 0.1640334 0.9676955 0.1640334 0.0323045 -0.1640334
4195000000 0.0318384 -0.1626285 0.9681616 0.1626285 0.9681616 0.1626285 0.0318384 -0.1626285
4216000000 0.0313802 -0.1612324 0.9686198 0.1612324 0.9686198 0.1612324 0.0313802 -0.1612324
4237000000 0.0309299 -0.1598450 0.9690701 0.1598450 0.9690701 0.1598450 0.0309299 -0.1598450
4258000000 0.0304871 -0.1584662 0.9695129 0.1584662 0.9695129 0.1584662 0.0304871 -0.1584662
4279000000 0.0300519 -0.1570959 0.9699481 0.1570959 0.9699481 0.1570959 0.0300519 -0.1570959
4300000000 0.0296240 -0.1557340 0.9703760 0.1557340 0.9703760 0.1557340 0.0296240 -0.1557340
4321000000 0.0292035 -0.1543804 0.9707965 0.1543804 0.9707965 0.1543804 0.0292035 -0.1543804
4342000000 0.0287901 -0.1530350 0.9712099 0.1530350 0.9712099 0.1530350 0.0287901 -0.1530350
4363000000 0.0283837 -0.1516978 0.9716163 0.1516978 0.9716163 0.1516978 0.0283837 -0.1516978
4384000000 0.0279843 -0.1503686 0.9720157 0.1503686 0.9720157 0.1503686 0.0279843 -0.1503686
4405000000 0.0275917 -0.1490475 0.9724083 0.1490475 0.9724083 0.1490475 0.0275917 -0.1490475
4426000000 0.0272058 -0.1477342 0.9727942 0.1477342 0.9727942 0.1477342 0.0272058 -0.1477342
4447000000 0.0268265 -0.1464287 0.9731735 0.1464287 0.9731735 0.1464287 0.0268265 -0.1464287
4468000000 0.0264537 -0.1451309 0.9735463 0.1451309 0.9735463 0.1451309 0.0264537 -0.1451309
4489000000 0.0260873 -0.1438408 0.9739127 0.1438408 0.9739127 0.1438408 0.0260873 -0.1438408
4510000000 0.0257272 -0.1425582 0.9742728 0.1425582 0.9742728 0.1425582 0.0257272 -0.1425582
