!Murata Part Number: GRM0332C1H7R3DA01
!These Parameters are Measured in Series Mode Connection
!Data Generated on Mar 30, 2021
!       o--ll--o
!Port1            Port2
!       o------o
!Operation Temp=25[degC], DC Bias Voltage=0[V]
!Freq. Start=100[MHz] Stop=9[GHz] 401[Steps]
# Hz S RI R 50
!Freq.(Hz) S11(Real) S11(Imag) S21(Real) S21(Imag) S12(Real) S12(Imag) S22(Real) S22(Imag)
100000000 0.8257477 -0.3788781 0.1742523 0.3788781 0.1742523 0.3788781 0.8257477 -0.3788781
121000000 0.7638731 -0.4241581 0.2361269 0.4241581 0.2361269 0.4241581 0.7638731 -0.4241581
142000000 0.7012694 -0.4570634 0.2987306 0.4570634 0.2987306 0.4570634 0.7012694 -0.4570634
163000000 0.6403304 -0.4791699 0.3596696 0.4791699 0.3596696 0.4791699 0.6403304 -0.4791699
184000000 0.5826412 -0.4922934 0.4173588 0.4922934 0.4173588 0.4922934 0.5826412 -0.4922934
205000000 0.5291118 -0.4982254 0.4708882 0.4982254 0.4708882 0.4982254 0.5291118 -0.4982254
226000000 0.4801443 -0.4985820 0.5198557 0.4985820 0.5198557 0.4985820 0.4801443 -0.4985820
247000000 0.4357916 -0.4947385 0.5642084 0.4947385 0.5642084 0.4947385 0.4357916 -0.4947385
268000000 0.3958851 -0.4878197 0.6041149 0.4878197 0.6041149 0.4878197 0.3958851 -0.4878197
289000000 0.3601306 -0.4787182 0.6398694 0.4787182 0.6398694 0.4787182 0.3601306 -0.4787182
310000000 0.3281730 -0.4681279 0.6718270 0.4681279 0.6718270 0.4681279 0.3281730 -0.4681279
331000000 0.2996392 -0.4565783 0.7003608 0.4565783 0.7003608 0.4565783 0.2996392 -0.4565783
352000000 0.2741637 -0.4444679 0.7258363 0.4444679 0.7258363 0.4444679 0.2741637 -0.4444679
373000000 0.2514033 -0.4320924 0.7485967 0.4320924 0.7485967 0.4320924 0.2514033 -0.4320924
394000000 0.2310437 -0.4196683 0.7689563 0.4196683 0.7689563 0.4196683 0.2310437 -0.4196683
415000000 0.2128028 -0.4073516 0.7871972 0.4073516 0.7871972 0.4073516 0.2128028 -0.4073516
436000000 0.1964297 -0.3952524 0.8035703 0.3952524 0.8035703 0.3952524 0.1964297 -0.3952524
457000000 0.1817031 -0.3834465 0.8182969 0.3834465 0.8182969 0.3834465 0.1817031 -0.3834465
478000000 0.1684289 -0.3719839 0.8315711 0.3719839 0.8315711 0.3719839 0.1684289 -0.3719839
499000000 0.1564375 -0.3608957 0.8435625 0.3608957 0.8435625 0.3608957 0.1564375 -0.3608957
520000000 0.1455805 -0.3501986 0.8544195 0.3501986 0.8544195 0.3501986 0.1455805 -0.3501986
541000000 0.1357286 -0.3398994 0.8642714 0.3398994 0.8642714 0.3398994 0.1357286 -0.3398994
562000000 0.1267690 -0.3299975 0.8732310 0.3299975 0.8732310 0.3299975 0.1267690 -0.3299975
583000000 0.1186029 -0.3204867 0.8813971 0.3204867 0.8813971 0.3204867 0.1186029 -0.3204867
604000000 0.1111443 -0.3113576 0.8888557 0.3113576 0.8888557 0.3113576 0.1111443 -0.3113576
625000000 0.1043176 -0.3025979 0.8956824 0.3025979 0.8956824 0.3025979 0.1043176 -0.3025979
646000000 0.0980566 -0.2941942 0.9019434 0.2941942 0.9019434 0.2941942 0.0980566 -0.2941942
667000000 0.0923032 -0.2861318 0.9076968 0.2861318 0.9076968 0.2861318 0.0923032 -0.2861318
688000000 0.0870062 -0.2783958 0.9129938 0.2783958 0.9129938 0.2783958 0.0870062 -0.2783958
709000000 0.0821204 -0.2709710 0.9178796 0.2709710 0.9178796 0.2709710 0.0821204 -0.2709710
730000000 0.0776059 -0.2638426 0.9223941 0.2638426 0.9223941 0.2638426 0.0776059 -0.2638426
751000000 0.0734273 -0.2569960 0.9265727 0.2569960 0.9265727 0.2569960 0.0734273 -0.2569960
772000000 0.0695534 -0.2504172 0.9304466 0.2504172 0.9304466 0.2504172 0.0695534 -0.2504172
793000000 0.0659561 -0.2440924 0.9340439 0.2440924 0.9340439 0.2440924 0.0659561 -0.2440924
814000000 0.0626107 -0.2380088 0.9373893 0.2380088 0.9373893 0.2380088 0.0626107 -0.2380088
835000000 0.0594948 -0.2321540 0.9405052 0.2321540 0.9405052 0.2321540 0.0594948 -0.2321540
856000000 0.0565887 -0.2265162 0.9434113 0.2265162 0.9434113 0.2265162 0.0565887 -0.2265162
877000000 0.0538745 -0.2210843 0.9461255 0.2210843 0.9461255 0.2210843 0.0538745 -0.2210843
898000000 0.0513362 -0.2158478 0.9486638 0.2158478 0.9486638 0.2158478 0.0513362 -0.2158478
919000000 0.0489594 -0.2107966 0.9510406 0.2107966 0.9510406 0.2107966 0.0489594 -0.2107966
940000000 0.0467312 -0.2059214 0.9532688 0.2059214 0.9532688 0.2059214 0.0467312 -0.2059214
961000000 0.0446398 -0.2012134 0.9553602 0.2012134 0.9553602 0.2012134 0.0446398 -0.2012134
982000000 0.0426745 -0.1966642 0.9573255 0.1966642 0.9573255 0.1966642 0.0426745 -0.1966642
1003000000 0.0408258 -0.1922658 0.9591742 0.1922658 0.9591742 0.1922658 0.0408258 -0.1922658
1024000000 0.0390850 -0.1880110 0.9609150 0.1880110 0.9609150 0.1880110 0.0390850 -0.1880110
1045000000 0.0374440 -0.1838927 0.9625560 0.1838927 0.9625560 0.1838927 0.0374440 -0.1838927
1066000000 0.0358957 -0.1799044 0.9641043 0.1799044 0.9641043 0.1799044 0.0358957 -0.1799044
1087000000 0.0344334 -0.1760398 0.9655666 0.1760398 0.9655666 0.1760398 0.0344334 -0.1760398
1108000000 0.0330512 -0.1722931 0.9669488 0.1722931 0.9669488 0.1722931 0.0330512 -0.1722931
1129000000 0.0317435 -0.1686589 0.9682565 0.1686589 0.9682565 0.1686589 0.0317435 -0.1686589
1150000000 0.0305052 -0.1651318 0.9694948 0.1651318 0.9694948 0.1651318 0.0305052 -0.1651318
1171000000 0.0293318 -0.1617071 0.9706682 0.1617071 0.9706682 0.1617071 0.0293318 -0.1617071
1192000000 0.0282189 -0.1583801 0.9717811 0.1583801 0.9717811 0.1583801 0.0282189 -0.1583801
1213000000 0.0271627 -0.1551464 0.9728373 0.1551464 0.9728373 0.1551464 0.0271627 -0.1551464
1234000000 0.0261595 -0.1520020 0.9738405 0.1520020 0.9738405 0.1520020 0.0261595 -0.1520020
1255000000 0.0252060 -0.1489428 0.9747940 0.1489428 0.9747940 0.1489428 0.0252060 -0.1489428
1276000000 0.0242992 -0.1459654 0.9757008 0.1459654 0.9757008 0.1459654 0.0242992 -0.1459654
1297000000 0.0234361 -0.1430660 0.9765639 0.1430660 0.9765639 0.1430660 0.0234361 -0.1430660
1318000000 0.0226142 -0.1402416 0.9773858 0.1402416 0.9773858 0.1402416 0.0226142 -0.1402416
1339000000 0.0218311 -0.1374889 0.9781689 0.1374889 0.9781689 0.1374889 0.0218311 -0.1374889
1360000000 0.0210844 -0.1348050 0.9789156 0.1348050 0.9789156 0.1348050 0.0210844 -0.1348050
1381000000 0.0203721 -0.1321870 0.9796279 0.1321870 0.9796279 0.1321870 0.0203721 -0.1321870
1402000000 0.0196922 -0.1296325 0.9803078 0.1296325 0.9803078 0.1296325 0.0196922 -0.1296325
1423000000 0.0190429 -0.1271387 0.9809571 0.1271387 0.9809571 0.1271387 0.0190429 -0.1271387
1444000000 0.0184225 -0.1247033 0.9815775 0.1247033 0.9815775 0.1247033 0.0184225 -0.1247033
1465000000 0.0178295 -0.1223240 0.9821705 0.1223240 0.9821705 0.1223240 0.0178295 -0.1223240
1486000000 0.0172624 -0.1199988 0.9827376 0.1199988 0.9827376 0.1199988 0.0172624 -0.1199988
1507000000 0.0167197 -0.1177254 0.9832803 0.1177254 0.9832803 0.1177254 0.0167197 -0.1177254
1528000000 0.0162003 -0.1155021 0.9837997 0.1155021 0.9837997 0.1155021 0.0162003 -0.1155021
1549000000 0.0157029 -0.1133268 0.9842971 0.1133268 0.9842971 0.1133268 0.0157029 -0.1133268
1570000000 0.0152264 -0.1111978 0.9847736 0.1111978 0.9847736 0.1111978 0.0152264 -0.1111978
1591000000 0.0147698 -0.1091135 0.9852302 0.1091135 0.9852302 0.1091135 0.0147698 -0.1091135
1612000000 0.0143320 -0.1070722 0.9856680 0.1070722 0.9856680 0.1070722 0.0143320 -0.1070722
1633000000 0.0139122 -0.1050724 0.9860878 0.1050724 0.9860878 0.1050724 0.0139122 -0.1050724
1654000000 0.0135094 -0.1031127 0.9864906 0.1031127 0.9864906 0.1031127 0.0135094 -0.1031127
1675000000 0.0131228 -0.1011915 0.9868772 0.1011915 0.9868772 0.1011915 0.0131228 -0.1011915
1696000000 0.0127518 -0.0993077 0.9872482 0.0993077 0.9872482 0.0993077 0.0127518 -0.0993077
1717000000 0.0123955 -0.0974599 0.9876045 0.0974599 0.9876045 0.0974599 0.0123955 -0.0974599
1738000000 0.0120533 -0.0956468 0.9879467 0.0956468 0.9879467 0.0956468 0.0120533 -0.0956468
1759000000 0.0117245 -0.0938674 0.9882755 0.0938674 0.9882755 0.0938674 0.0117245 -0.0938674
1780000000 0.0114085 -0.0921205 0.9885915 0.0921205 0.9885915 0.0921205 0.0114085 -0.0921205
1801000000 0.0111048 -0.0904050 0.9888952 0.0904050 0.9888952 0.0904050 0.0111048 -0.0904050
1822000000 0.0108128 -0.0887200 0.9891872 0.0887200 0.9891872 0.0887200 0.0108128 -0.0887200
1843000000 0.0105320 -0.0870644 0.9894680 0.0870644 0.9894680 0.0870644 0.0105320 -0.0870644
1864000000 0.0102619 -0.0854372 0.9897381 0.0854372 0.9897381 0.0854372 0.0102619 -0.0854372
1885000000 0.0100021 -0.0838377 0.9899979 0.0838377 0.9899979 0.0838377 0.0100021 -0.0838377
1906000000 0.0097522 -0.0822649 0.9902478 0.0822649 0.9902478 0.0822649 0.0097522 -0.0822649
1927000000 0.0095116 -0.0807180 0.9904884 0.0807180 0.9904884 0.0807180 0.0095116 -0.0807180
1948000000 0.0092801 -0.0791961 0.9907199 0.0791961 0.9907199 0.0791961 0.0092801 -0.0791961
1969000000 0.0090572 -0.0776986 0.9909428 0.0776986 0.9909428 0.0776986 0.0090572 -0.0776986
1990000000 0.0088427 -0.0762247 0.9911573 0.0762247 0.9911573 0.0762247 0.0088427 -0.0762247
2011000000 0.0086361 -0.0747737 0.9913639 0.0747737 0.9913639 0.0747737 0.0086361 -0.0747737
2032000000 0.0084373 -0.0733449 0.9915627 0.0733449 0.9915627 0.0733449 0.0084373 -0.0733449
2053000000 0.0082457 -0.0719377 0.9917543 0.0719377 0.9917543 0.0719377 0.0082457 -0.0719377
2074000000 0.0080613 -0.0705514 0.9919387 0.0705514 0.9919387 0.0705514 0.0080613 -0.0705514
2095000000 0.0078837 -0.0691854 0.9921163 0.0691854 0.9921163 0.0691854 0.0078837 -0.0691854
2116000000 0.0077127 -0.0678392 0.9922873 0.0678392 0.9922873 0.0678392 0.0077127 -0.0678392
2137000000 0.0075480 -0.0665121 0.9924520 0.0665121 0.9924520 0.0665121 0.0075480 -0.0665121
2158000000 0.0073893 -0.0652036 0.9926107 0.0652036 0.9926107 0.0652036 0.0073893 -0.0652036
2179000000 0.0072366 -0.0639133 0.9927634 0.0639133 0.9927634 0.0639133 0.0072366 -0.0639133
2200000000 0.0070895 -0.0626406 0.9929105 0.0626406 0.9929105 0.0626406 0.0070895 -0.0626406
2221000000 0.0069478 -0.0613851 0.9930522 0.0613851 0.9930522 0.0613851 0.0069478 -0.0613851
2242000000 0.0068114 -0.0601461 0.9931886 0.0601461 0.9931886 0.0601461 0.0068114 -0.0601461
2263000000 0.0066800 -0.0589234 0.9933200 0.0589234 0.9933200 0.0589234 0.0066800 -0.0589234
2284000000 0.0065536 -0.0577165 0.9934464 0.0577165 0.9934464 0.0577165 0.0065536 -0.0577165
2305000000 0.0064319 -0.0565249 0.9935681 0.0565249 0.9935681 0.0565249 0.0064319 -0.0565249
2326000000 0.0063147 -0.0553483 0.9936853 0.0553483 0.9936853 0.0553483 0.0063147 -0.0553483
2347000000 0.0062020 -0.0541862 0.9937980 0.0541862 0.9937980 0.0541862 0.0062020 -0.0541862
2368000000 0.0060936 -0.0530384 0.9939064 0.0530384 0.9939064 0.0530384 0.0060936 -0.0530384
2389000000 0.0059893 -0.0519043 0.9940107 0.0519043 0.9940107 0.0519043 0.0059893 -0.0519043
2410000000 0.0058889 -0.0507837 0.9941111 0.0507837 0.9941111 0.0507837 0.0058889 -0.0507837
2431000000 0.0057925 -0.0496762 0.9942075 0.0496762 0.9942075 0.0496762 0.0057925 -0.0496762
2452000000 0.0056998 -0.0485814 0.9943002 0.0485814 0.9943002 0.0485814 0.0056998 -0.0485814
2473000000 0.0056107 -0.0474992 0.9943893 0.0474992 0.9943893 0.0474992 0.0056107 -0.0474992
2494000000 0.0055252 -0.0464291 0.9944748 0.0464291 0.9944748 0.0464291 0.0055252 -0.0464291
2515000000 0.0054431 -0.0453708 0.9945569 0.0453708 0.9945569 0.0453708 0.0054431 -0.0453708
2536000000 0.0053642 -0.0443241 0.9946358 0.0443241 0.9946358 0.0443241 0.0053642 -0.0443241
2557000000 0.0052886 -0.0432887 0.9947114 0.0432887 0.9947114 0.0432887 0.0052886 -0.0432887
2578000000 0.0052161 -0.0422642 0.9947839 0.0422642 0.9947839 0.0422642 0.0052161 -0.0422642
2599000000 0.0051466 -0.0412506 0.9948534 0.0412506 0.9948534 0.0412506 0.0051466 -0.0412506
2620000000 0.0050801 -0.0402474 0.9949199 0.0402474 0.9949199 0.0402474 0.0050801 -0.0402474
2641000000 0.0050164 -0.0392544 0.9949836 0.0392544 0.9949836 0.0392544 0.0050164 -0.0392544
2662000000 0.0049555 -0.0382714 0.9950445 0.0382714 0.9950445 0.0382714 0.0049555 -0.0382714
2683000000 0.0048973 -0.0372982 0.9951027 0.0372982 0.9951027 0.0372982 0.0048973 -0.0372982
2704000000 0.0048417 -0.0363345 0.9951583 0.0363345 0.9951583 0.0363345 0.0048417 -0.0363345
2725000000 0.0047887 -0.0353801 0.9952113 0.0353801 0.9952113 0.0353801 0.0047887 -0.0353801
2746000000 0.0047381 -0.0344348 0.9952619 0.0344348 0.9952619 0.0344348 0.0047381 -0.0344348
2767000000 0.0046900 -0.0334984 0.9953100 0.0334984 0.9953100 0.0334984 0.0046900 -0.0334984
2788000000 0.0046442 -0.0325707 0.9953558 0.0325707 0.9953558 0.0325707 0.0046442 -0.0325707
2809000000 0.0046007 -0.0316514 0.9953993 0.0316514 0.9953993 0.0316514 0.0046007 -0.0316514
2830000000 0.0045594 -0.0307405 0.9954406 0.0307405 0.9954406 0.0307405 0.0045594 -0.0307405
2851000000 0.0045203 -0.0298376 0.9954797 0.0298376 0.9954797 0.0298376 0.0045203 -0.0298376
2872000000 0.0044834 -0.0289427 0.9955166 0.0289427 0.9955166 0.0289427 0.0044834 -0.0289427
2893000000 0.0044485 -0.0280556 0.9955515 0.0280556 0.9955515 0.0280556 0.0044485 -0.0280556
2914000000 0.0044156 -0.0271760 0.9955844 0.0271760 0.9955844 0.0271760 0.0044156 -0.0271760
2935000000 0.0043847 -0.0263039 0.9956153 0.0263039 0.9956153 0.0263039 0.0043847 -0.0263039
2956000000 0.0043558 -0.0254390 0.9956442 0.0254390 0.9956442 0.0254390 0.0043558 -0.0254390
2977000000 0.0043287 -0.0245812 0.9956713 0.0245812 0.9956713 0.0245812 0.0043287 -0.0245812
2998000000 0.0043034 -0.0237304 0.9956966 0.0237304 0.9956966 0.0237304 0.0043034 -0.0237304
3019000000 0.0042800 -0.0228864 0.9957200 0.0228864 0.9957200 0.0228864 0.0042800 -0.0228864
3040000000 0.0042583 -0.0220490 0.9957417 0.0220490 0.9957417 0.0220490 0.0042583 -0.0220490
3061000000 0.0042383 -0.0212182 0.9957617 0.0212182 0.9957617 0.0212182 0.0042383 -0.0212182
3082000000 0.0042200 -0.0203937 0.9957800 0.0203937 0.9957800 0.0203937 0.0042200 -0.0203937
3103000000 0.0042034 -0.0195755 0.9957966 0.0195755 0.9957966 0.0195755 0.0042034 -0.0195755
3124000000 0.0041884 -0.0187634 0.9958116 0.0187634 0.9958116 0.0187634 0.0041884 -0.0187634
3145000000 0.0041749 -0.0179572 0.9958251 0.0179572 0.9958251 0.0179572 0.0041749 -0.0179572
3166000000 0.0041630 -0.0171570 0.9958370 0.0171570 0.9958370 0.0171570 0.0041630 -0.0171570
3187000000 0.0041526 -0.0163625 0.9958474 0.0163625 0.9958474 0.0163625 0.0041526 -0.0163625
3208000000 0.0041437 -0.0155736 0.9958563 0.0155736 0.9958563 0.0155736 0.0041437 -0.0155736
3229000000 0.0041363 -0.0147902 0.9958637 0.0147902 0.9958637 0.0147902 0.0041363 -0.0147902
3250000000 0.0041303 -0.0140123 0.9958697 0.0140123 0.9958697 0.0140123 0.0041303 -0.0140123
3271000000 0.0041257 -0.0132396 0.9958743 0.0132396 0.9958743 0.0132396 0.0041257 -0.0132396
3292000000 0.0041224 -0.0124721 0.9958776 0.0124721 0.9958776 0.0124721 0.0041224 -0.0124721
3313000000 0.0041206 -0.0117097 0.9958794 0.0117097 0.9958794 0.0117097 0.0041206 -0.0117097
3334000000 0.0041200 -0.0109523 0.9958800 0.0109523 0.9958800 0.0109523 0.0041200 -0.0109523
3355000000 0.0041208 -0.0101998 0.9958792 0.0101998 0.9958792 0.0101998 0.0041208 -0.0101998
3376000000 0.0041228 -0.0094521 0.9958772 0.0094521 0.9958772 0.0094521 0.0041228 -0.0094521
3397000000 0.0041261 -0.0087090 0.9958739 0.0087090 0.9958739 0.0087090 0.0041261 -0.0087090
3418000000 0.0041307 -0.0079706 0.9958693 0.0079706 0.9958693 0.0079706 0.0041307 -0.0079706
3439000000 0.0041365 -0.0072366 0.9958635 0.0072366 0.9958635 0.0072366 0.0041365 -0.0072366
3460000000 0.0041434 -0.0065071 0.9958566 0.0065071 0.9958566 0.0065071 0.0041434 -0.0065071
3481000000 0.0041516 -0.0057820 0.9958484 0.0057820 0.9958484 0.0057820 0.0041516 -0.0057820
3502000000 0.0041609 -0.0050611 0.9958391 0.0050611 0.9958391 0.0050611 0.0041609 -0.0050611
3523000000 0.0041714 -0.0043444 0.9958286 0.0043444 0.9958286 0.0043444 0.0041714 -0.0043444
3544000000 0.0041830 -0.0036318 0.9958170 0.0036318 0.9958170 0.0036318 0.0041830 -0.0036318
3565000000 0.0041957 -0.0029232 0.9958043 0.0029232 0.9958043 0.0029232 0.0041957 -0.0029232
3586000000 0.0042095 -0.0022185 0.9957905 0.0022185 0.9957905 0.0022185 0.0042095 -0.0022185
3607000000 0.0042244 -0.0015177 0.9957756 0.0015177 0.9957756 0.0015177 0.0042244 -0.0015177
3628000000 0.0042404 -0.0008207 0.9957596 0.0008207 0.9957596 0.0008207 0.0042404 -0.0008207
3649000000 0.0042575 -0.0001274 0.9957425 0.0001274 0.9957425 0.0001274 0.0042575 -0.0001274
3670000000 0.0042755 0.0005622 0.9957245 -0.0005622 0.9957245 -0.0005622 0.0042755 0.0005622
3691000000 0.0042946 0.0012482 0.9957054 -0.0012482 0.9957054 -0.0012482 0.0042946 0.0012482
3712000000 0.0043148 0.0019307 0.9956852 -0.0019307 0.9956852 -0.0019307 0.0043148 0.0019307
3733000000 0.0043359 0.0026097 0.9956641 -0.0026097 0.9956641 -0.0026097 0.0043359 0.0026097
3754000000 0.0043580 0.0032854 0.9956420 -0.0032854 0.9956420 -0.0032854 0.0043580 0.0032854
3775000000 0.0043812 0.0039577 0.9956188 -0.0039577 0.9956188 -0.0039577 0.0043812 0.0039577
3796000000 0.0044052 0.0046267 0.9955948 -0.0046267 0.9955948 -0.0046267 0.0044052 0.0046267
3817000000 0.0044303 0.0052926 0.9955697 -0.0052926 0.9955697 -0.0052926 0.0044303 0.0052926
3838000000 0.0044563 0.0059552 0.9955437 -0.0059552 0.9955437 -0.0059552 0.0044563 0.0059552
3859000000 0.0044832 0.0066148 0.9955168 -0.0066148 0.9955168 -0.0066148 0.0044832 0.0066148
3880000000 0.0045111 0.0072713 0.9954889 -0.0072713 0.9954889 -0.0072713 0.0045111 0.0072713
3901000000 0.0045399 0.0079249 0.9954601 -0.0079249 0.9954601 -0.0079249 0.0045399 0.0079249
3922000000 0.0045697 0.0085755 0.9954303 -0.0085755 0.9954303 -0.0085755 0.0045697 0.0085755
3943000000 0.0046003 0.0092233 0.9953997 -0.0092233 0.9953997 -0.0092233 0.0046003 0.0092233
3964000000 0.0046318 0.0098682 0.9953682 -0.0098682 0.9953682 -0.0098682 0.0046318 0.0098682
3985000000 0.0046642 0.0105103 0.9953358 -0.0105103 0.9953358 -0.0105103 0.0046642 0.0105103
4006000000 0.0046976 0.0111497 0.9953024 -0.0111497 0.9953024 -0.0111497 0.0046976 0.0111497
4027000000 0.0047318 0.0117864 0.9952682 -0.0117864 0.9952682 -0.0117864 0.0047318 0.0117864
4048000000 0.0047668 0.0124205 0.9952332 -0.0124205 0.9952332 -0.0124205 0.0047668 0.0124205
4069000000 0.0048028 0.0130520 0.9951972 -0.0130520 0.9951972 -0.0130520 0.0048028 0.0130520
4090000000 0.0048395 0.0136809 0.9951605 -0.0136809 0.9951605 -0.0136809 0.0048395 0.0136809
4111000000 0.0048772 0.0143074 0.9951228 -0.0143074 0.9951228 -0.0143074 0.0048772 0.0143074
4132000000 0.0049157 0.0149314 0.9950843 -0.0149314 0.9950843 -0.0149314 0.0049157 0.0149314
4153000000 0.0049550 0.0155530 0.9950450 -0.0155530 0.9950450 -0.0155530 0.0049550 0.0155530
4174000000 0.0049952 0.0161722 0.9950048 -0.0161722 0.9950048 -0.0161722 0.0049952 0.0161722
4195000000 0.0050362 0.0167891 0.9949638 -0.0167891 0.9949638 -0.0167891 0.0050362 0.0167891
4216000000 0.0050780 0.0174036 0.9949220 -0.0174036 0.9949220 -0.0174036 0.0050780 0.0174036
4237000000 0.0051207 0.0180160 0.9948793 -0.0180160 0.9948793 -0.0180160 0.0051207 0.0180160
4258000000 0.0051642 0.0186261 0.9948358 -0.0186261 0.9948358 -0.0186261 0.0051642 0.0186261
4279000000 0.0052085 0.0192341 0.9947915 -0.0192341 0.9947915 -0.0192341 0.0052085 0.0192341
4300000000 0.0052536 0.0198399 0.9947464 -0.0198399 0.9947464 -0.0198399 0.0052536 0.0198399
4321000000 0.0052995 0.0204436 0.9947005 -0.0204436 0.9947005 -0.0204436 0.0052995 0.0204436
4342000000 0.0053462 0.0210452 0.9946538 -0.0210452 0.9946538 -0.0210452 0.0053462 0.0210452
4363000000 0.0053938 0.0216448 0.9946062 -0.0216448 0.9946062 -0.0216448 0.0053938 0.0216448
4384000000 0.0054421 0.0222424 0.9945579 -0.0222424 0.9945579 -0.0222424 0.0054421 0.0222424
4405000000 0.0054912 0.0228381 0.9945088 -0.0228381 0.9945088 -0.0228381 0.0054912 0.0228381
4426000000 0.0055411 0.0234318 0.9944589 -0.0234318 0.9944589 -0.0234318 0.0055411 0.0234318
4447000000 0.0055918 0.0240236 0.9944082 -0.0240236 0.9944082 -0.0240236 0.0055918 0.0240236
4468000000 0.0056433 0.0246136 0.9943567 -0.0246136 0.9943567 -0.0246136 0.0056433 0.0246136
4489000000 0.0056956 0.0252017 0.9943044 -0.0252017 0.9943044 -0.0252017 0.0056956 0.0252017
4510000000 0.0057486 0.0257880 0.9942514 -0.0257880 0.9942514 -0.0257880 0.0057486 0.0257880
