!Murata Part Number: GRM0335C2A1R2CA01
!These Parameters are Measured in Series Mode Connection
!Data Generated on Mar 30, 2021
!       o--ll--o
!Port1            Port2
!       o------o
!Operation Temp=25[degC], DC Bias Voltage=0[V]
!Freq. Start=100[MHz] Stop=9[GHz] 401[Steps]
# Hz S RI R 50
!Freq.(Hz) S11(Real) S11(Imag) S21(Real) S21(Imag) S12(Real) S12(Imag) S22(Real) S22(Imag)
100000000 0.9943273 -0.0749775 0.0056727 0.0749775 0.0056727 0.0749775 0.9943273 -0.0749775
121000000 0.9917156 -0.0904884 0.0082844 0.0904884 0.0082844 0.0904884 0.9917156 -0.0904884
142000000 0.9886248 -0.1058675 0.0113752 0.1058675 0.0113752 0.1058675 0.9886248 -0.1058675
163000000 0.9850635 -0.1210934 0.0149365 0.1210934 0.0149365 0.1210934 0.9850635 -0.1210934
184000000 0.9810418 -0.1361456 0.0189582 0.1361456 0.0189582 0.1361456 0.9810418 -0.1361456
205000000 0.9765707 -0.1510041 0.0234293 0.1510041 0.0234293 0.1510041 0.9765707 -0.1510041
226000000 0.9716625 -0.1656501 0.0283375 0.1656501 0.0283375 0.1656501 0.9716625 -0.1656501
247000000 0.9663303 -0.1800655 0.0336697 0.1800655 0.0336697 0.1800655 0.9663303 -0.1800655
268000000 0.9605884 -0.1942334 0.0394116 0.1942334 0.0394116 0.1942334 0.9605884 -0.1942334
289000000 0.9544517 -0.2081378 0.0455483 0.2081378 0.0455483 0.2081378 0.9544517 -0.2081378
310000000 0.9479359 -0.2217638 0.0520641 0.2217638 0.0520641 0.2217638 0.9479359 -0.2217638
331000000 0.9410573 -0.2350977 0.0589427 0.2350977 0.0589427 0.2350977 0.9410573 -0.2350977
352000000 0.9338330 -0.2481270 0.0661670 0.2481270 0.0661670 0.2481270 0.9338330 -0.2481270
373000000 0.9262801 -0.2608404 0.0737199 0.2608404 0.0737199 0.2608404 0.9262801 -0.2608404
394000000 0.9184166 -0.2732276 0.0815834 0.2732276 0.0815834 0.2732276 0.9184166 -0.2732276
415000000 0.9102603 -0.2852797 0.0897397 0.2852797 0.0897397 0.2852797 0.9102603 -0.2852797
436000000 0.9018294 -0.2969889 0.0981706 0.2969889 0.0981706 0.2969889 0.9018294 -0.2969889
457000000 0.8931422 -0.3083484 0.1068578 0.3083484 0.1068578 0.3083484 0.8931422 -0.3083484
478000000 0.8842170 -0.3193527 0.1157830 0.3193527 0.1157830 0.3193527 0.8842170 -0.3193527
499000000 0.8750720 -0.3299976 0.1249280 0.3299976 0.1249280 0.3299976 0.8750720 -0.3299976
520000000 0.8657252 -0.3402796 0.1342748 0.3402796 0.1342748 0.3402796 0.8657252 -0.3402796
541000000 0.8561945 -0.3501965 0.1438055 0.3501965 0.1438055 0.3501965 0.8561945 -0.3501965
562000000 0.8464975 -0.3597470 0.1535025 0.3597470 0.1535025 0.3597470 0.8464975 -0.3597470
583000000 0.8366514 -0.3689307 0.1633486 0.3689307 0.1633486 0.3689307 0.8366514 -0.3689307
604000000 0.8266732 -0.3777482 0.1733268 0.3777482 0.1733268 0.3777482 0.8266732 -0.3777482
625000000 0.8165792 -0.3862010 0.1834208 0.3862010 0.1834208 0.3862010 0.8165792 -0.3862010
646000000 0.8063854 -0.3942913 0.1936146 0.3942913 0.1936146 0.3942913 0.8063854 -0.3942913
667000000 0.7961073 -0.4020219 0.2038927 0.4020219 0.2038927 0.4020219 0.7961073 -0.4020219
688000000 0.7857598 -0.4093967 0.2142402 0.4093967 0.2142402 0.4093967 0.7857598 -0.4093967
709000000 0.7753572 -0.4164198 0.2246428 0.4164198 0.2246428 0.4164198 0.7753572 -0.4164198
730000000 0.7649135 -0.4230962 0.2350865 0.4230962 0.2350865 0.4230962 0.7649135 -0.4230962
751000000 0.7544417 -0.4294312 0.2455583 0.4294312 0.2455583 0.4294312 0.7544417 -0.4294312
772000000 0.7439544 -0.4354306 0.2560456 0.4354306 0.2560456 0.4354306 0.7439544 -0.4354306
793000000 0.7334636 -0.4411009 0.2665364 0.4411009 0.2665364 0.4411009 0.7334636 -0.4411009
814000000 0.7229807 -0.4464486 0.2770193 0.4464486 0.2770193 0.4464486 0.7229807 -0.4464486
835000000 0.7125164 -0.4514808 0.2874836 0.4514808 0.2874836 0.4514808 0.7125164 -0.4514808
856000000 0.7020808 -0.4562047 0.2979192 0.4562047 0.2979192 0.4562047 0.7020808 -0.4562047
877000000 0.6916835 -0.4606278 0.3083165 0.4606278 0.3083165 0.4606278 0.6916835 -0.4606278
898000000 0.6813333 -0.4647578 0.3186667 0.4647578 0.3186667 0.4647578 0.6813333 -0.4647578
919000000 0.6710387 -0.4686027 0.3289613 0.4686027 0.3289613 0.4686027 0.6710387 -0.4686027
940000000 0.6608073 -0.4721702 0.3391927 0.4721702 0.3391927 0.4721702 0.6608073 -0.4721702
961000000 0.6506464 -0.4754686 0.3493536 0.4754686 0.3493536 0.4754686 0.6506464 -0.4754686
982000000 0.6405626 -0.4785059 0.3594374 0.4785059 0.3594374 0.4785059 0.6405626 -0.4785059
1003000000 0.6305621 -0.4812904 0.3694379 0.4812904 0.3694379 0.4812904 0.6305621 -0.4812904
1024000000 0.6206506 -0.4838300 0.3793494 0.4838300 0.3793494 0.4838300 0.6206506 -0.4838300
1045000000 0.6108331 -0.4861330 0.3891669 0.4861330 0.3891669 0.4861330 0.6108331 -0.4861330
1066000000 0.6011143 -0.4882075 0.3988857 0.4882075 0.3988857 0.4882075 0.6011143 -0.4882075
1087000000 0.5914986 -0.4900613 0.4085014 0.4900613 0.4085014 0.4900613 0.5914986 -0.4900613
1108000000 0.5819896 -0.4917025 0.4180104 0.4917025 0.4180104 0.4917025 0.5819896 -0.4917025
1129000000 0.5725908 -0.4931388 0.4274092 0.4931388 0.4274092 0.4931388 0.5725908 -0.4931388
1150000000 0.5633052 -0.4943780 0.4366948 0.4943780 0.4366948 0.4943780 0.5633052 -0.4943780
1171000000 0.5541355 -0.4954275 0.4458645 0.4954275 0.4458645 0.4954275 0.5541355 -0.4954275
1192000000 0.5450839 -0.4962949 0.4549161 0.4962949 0.4549161 0.4962949 0.5450839 -0.4962949
1213000000 0.5361525 -0.4969874 0.4638475 0.4969874 0.4638475 0.4969874 0.5361525 -0.4969874
1234000000 0.5273429 -0.4975121 0.4726571 0.4975121 0.4726571 0.4975121 0.5273429 -0.4975121
1255000000 0.5186564 -0.4978759 0.4813436 0.4978759 0.4813436 0.4978759 0.5186564 -0.4978759
1276000000 0.5100943 -0.4980858 0.4899057 0.4980858 0.4899057 0.4980858 0.5100943 -0.4980858
1297000000 0.5016573 -0.4981481 0.4983427 0.4981481 0.4983427 0.4981481 0.5016573 -0.4981481
1318000000 0.4933460 -0.4980694 0.5066540 0.4980694 0.5066540 0.4980694 0.4933460 -0.4980694
1339000000 0.4851609 -0.4978560 0.5148391 0.4978560 0.5148391 0.4978560 0.4851609 -0.4978560
1360000000 0.4771022 -0.4975138 0.5228978 0.4975138 0.5228978 0.4975138 0.4771022 -0.4975138
1381000000 0.4691698 -0.4970488 0.5308302 0.4970488 0.5308302 0.4970488 0.4691698 -0.4970488
1402000000 0.4613636 -0.4964666 0.5386364 0.4964666 0.5386364 0.4964666 0.4613636 -0.4964666
1423000000 0.4536832 -0.4957729 0.5463168 0.4957729 0.5463168 0.4957729 0.4536832 -0.4957729
1444000000 0.4461282 -0.4949728 0.5538718 0.4949728 0.5538718 0.4949728 0.4461282 -0.4949728
1465000000 0.4386979 -0.4940716 0.5613021 0.4940716 0.5613021 0.4940716 0.4386979 -0.4940716
1486000000 0.4313915 -0.4930743 0.5686085 0.4930743 0.5686085 0.4930743 0.4313915 -0.4930743
1507000000 0.4242083 -0.4919856 0.5757917 0.4919856 0.5757917 0.4919856 0.4242083 -0.4919856
1528000000 0.4171472 -0.4908102 0.5828528 0.4908102 0.5828528 0.4908102 0.4171472 -0.4908102
1549000000 0.4102072 -0.4895525 0.5897928 0.4895525 0.5897928 0.4895525 0.4102072 -0.4895525
1570000000 0.4033871 -0.4882169 0.5966129 0.4882169 0.5966129 0.4882169 0.4033871 -0.4882169
1591000000 0.3966858 -0.4868075 0.6033142 0.4868075 0.6033142 0.4868075 0.3966858 -0.4868075
1612000000 0.3901018 -0.4853282 0.6098982 0.4853282 0.6098982 0.4853282 0.3901018 -0.4853282
1633000000 0.3836338 -0.4837829 0.6163662 0.4837829 0.6163662 0.4837829 0.3836338 -0.4837829
1654000000 0.3772806 -0.4821753 0.6227194 0.4821753 0.6227194 0.4821753 0.3772806 -0.4821753
1675000000 0.3710404 -0.4805089 0.6289596 0.4805089 0.6289596 0.4805089 0.3710404 -0.4805089
1696000000 0.3649120 -0.4787870 0.6350880 0.4787870 0.6350880 0.4787870 0.3649120 -0.4787870
1717000000 0.3588937 -0.4770129 0.6411063 0.4770129 0.6411063 0.4770129 0.3588937 -0.4770129
1738000000 0.3529841 -0.4751898 0.6470159 0.4751898 0.6470159 0.4751898 0.3529841 -0.4751898
1759000000 0.3471814 -0.4733206 0.6528186 0.4733206 0.6528186 0.4733206 0.3471814 -0.4733206
1780000000 0.3414841 -0.4714082 0.6585159 0.4714082 0.6585159 0.4714082 0.3414841 -0.4714082
1801000000 0.3358906 -0.4694553 0.6641094 0.4694553 0.6641094 0.4694553 0.3358906 -0.4694553
1822000000 0.3303992 -0.4674645 0.6696008 0.4674645 0.6696008 0.4674645 0.3303992 -0.4674645
1843000000 0.3250083 -0.4654383 0.6749917 0.4654383 0.6749917 0.4654383 0.3250083 -0.4654383
1864000000 0.3197162 -0.4633792 0.6802838 0.4633792 0.6802838 0.4633792 0.3197162 -0.4633792
1885000000 0.3145214 -0.4612895 0.6854786 0.4612895 0.6854786 0.4612895 0.3145214 -0.4612895
1906000000 0.3094220 -0.4591712 0.6905780 0.4591712 0.6905780 0.4591712 0.3094220 -0.4591712
1927000000 0.3044166 -0.4570266 0.6955834 0.4570266 0.6955834 0.4570266 0.3044166 -0.4570266
1948000000 0.2995034 -0.4548576 0.7004966 0.4548576 0.7004966 0.4548576 0.2995034 -0.4548576
1969000000 0.2946808 -0.4526661 0.7053192 0.4526661 0.7053192 0.4526661 0.2946808 -0.4526661
1990000000 0.2899472 -0.4504540 0.7100528 0.4504540 0.7100528 0.4504540 0.2899472 -0.4504540
2011000000 0.2853010 -0.4482229 0.7146990 0.4482229 0.7146990 0.4482229 0.2853010 -0.4482229
2032000000 0.2807406 -0.4459746 0.7192594 0.4459746 0.7192594 0.4459746 0.2807406 -0.4459746
2053000000 0.2762643 -0.4437106 0.7237357 0.4437106 0.7237357 0.4437106 0.2762643 -0.4437106
2074000000 0.2718707 -0.4414324 0.7281293 0.4414324 0.7281293 0.4414324 0.2718707 -0.4414324
2095000000 0.2675581 -0.4391415 0.7324419 0.4391415 0.7324419 0.4391415 0.2675581 -0.4391415
2116000000 0.2633251 -0.4368392 0.7366749 0.4368392 0.7366749 0.4368392 0.2633251 -0.4368392
2137000000 0.2591701 -0.4345269 0.7408299 0.4345269 0.7408299 0.4345269 0.2591701 -0.4345269
2158000000 0.2550917 -0.4322057 0.7449083 0.4322057 0.7449083 0.4322057 0.2550917 -0.4322057
2179000000 0.2510882 -0.4298768 0.7489118 0.4298768 0.7489118 0.4298768 0.2510882 -0.4298768
2200000000 0.2471584 -0.4275414 0.7528416 0.4275414 0.7528416 0.4275414 0.2471584 -0.4275414
2221000000 0.2433008 -0.4252006 0.7566992 0.4252006 0.7566992 0.4252006 0.2433008 -0.4252006
2242000000 0.2395138 -0.4228552 0.7604862 0.4228552 0.7604862 0.4228552 0.2395138 -0.4228552
2263000000 0.2357963 -0.4205064 0.7642037 0.4205064 0.7642037 0.4205064 0.2357963 -0.4205064
2284000000 0.2321467 -0.4181550 0.7678533 0.4181550 0.7678533 0.4181550 0.2321467 -0.4181550
2305000000 0.2285638 -0.4158018 0.7714362 0.4158018 0.7714362 0.4158018 0.2285638 -0.4158018
2326000000 0.2250462 -0.4134477 0.7749538 0.4134477 0.7749538 0.4134477 0.2250462 -0.4134477
2347000000 0.2215927 -0.4110935 0.7784073 0.4110935 0.7784073 0.4110935 0.2215927 -0.4110935
2368000000 0.2182018 -0.4087400 0.7817982 0.4087400 0.7817982 0.4087400 0.2182018 -0.4087400
2389000000 0.2148725 -0.4063877 0.7851275 0.4063877 0.7851275 0.4063877 0.2148725 -0.4063877
2410000000 0.2116035 -0.4040374 0.7883965 0.4040374 0.7883965 0.4040374 0.2116035 -0.4040374
2431000000 0.2083935 -0.4016897 0.7916065 0.4016897 0.7916065 0.4016897 0.2083935 -0.4016897
2452000000 0.2052414 -0.3993452 0.7947586 0.3993452 0.7947586 0.3993452 0.2052414 -0.3993452
2473000000 0.2021459 -0.3970045 0.7978541 0.3970045 0.7978541 0.3970045 0.2021459 -0.3970045
2494000000 0.1991061 -0.3946680 0.8008939 0.3946680 0.8008939 0.3946680 0.1991061 -0.3946680
2515000000 0.1961207 -0.3923364 0.8038793 0.3923364 0.8038793 0.3923364 0.1961207 -0.3923364
2536000000 0.1931887 -0.3900099 0.8068113 0.3900099 0.8068113 0.3900099 0.1931887 -0.3900099
2557000000 0.1903089 -0.3876892 0.8096911 0.3876892 0.8096911 0.3876892 0.1903089 -0.3876892
2578000000 0.1874804 -0.3853746 0.8125196 0.3853746 0.8125196 0.3853746 0.1874804 -0.3853746
2599000000 0.1847020 -0.3830665 0.8152980 0.3830665 0.8152980 0.3830665 0.1847020 -0.3830665
2620000000 0.1819728 -0.3807653 0.8180272 0.3807653 0.8180272 0.3807653 0.1819728 -0.3807653
2641000000 0.1792919 -0.3784713 0.8207081 0.3784713 0.8207081 0.3784713 0.1792919 -0.3784713
2662000000 0.1766581 -0.3761848 0.8233419 0.3761848 0.8233419 0.3761848 0.1766581 -0.3761848
2683000000 0.1740707 -0.3739063 0.8259293 0.3739063 0.8259293 0.3739063 0.1740707 -0.3739063
2704000000 0.1715285 -0.3716359 0.8284715 0.3716359 0.8284715 0.3716359 0.1715285 -0.3716359
2725000000 0.1690308 -0.3693739 0.8309692 0.3693739 0.8309692 0.3693739 0.1690308 -0.3693739
2746000000 0.1665767 -0.3671205 0.8334233 0.3671205 0.8334233 0.3671205 0.1665767 -0.3671205
2767000000 0.1641652 -0.3648761 0.8358348 0.3648761 0.8358348 0.3648761 0.1641652 -0.3648761
2788000000 0.1617955 -0.3626408 0.8382045 0.3626408 0.8382045 0.3626408 0.1617955 -0.3626408
2809000000 0.1594668 -0.3604149 0.8405332 0.3604149 0.8405332 0.3604149 0.1594668 -0.3604149
2830000000 0.1571782 -0.3581984 0.8428218 0.3581984 0.8428218 0.3581984 0.1571782 -0.3581984
2851000000 0.1549291 -0.3559916 0.8450709 0.3559916 0.8450709 0.3559916 0.1549291 -0.3559916
2872000000 0.1527184 -0.3537947 0.8472816 0.3537947 0.8472816 0.3537947 0.1527184 -0.3537947
2893000000 0.1505456 -0.3516078 0.8494544 0.3516078 0.8494544 0.3516078 0.1505456 -0.3516078
2914000000 0.1484099 -0.3494311 0.8515901 0.3494311 0.8515901 0.3494311 0.1484099 -0.3494311
2935000000 0.1463104 -0.3472646 0.8536896 0.3472646 0.8536896 0.3472646 0.1463104 -0.3472646
2956000000 0.1442466 -0.3451084 0.8557534 0.3451084 0.8557534 0.3451084 0.1442466 -0.3451084
2977000000 0.1422177 -0.3429628 0.8577823 0.3429628 0.8577823 0.3429628 0.1422177 -0.3429628
2998000000 0.1402230 -0.3408277 0.8597770 0.3408277 0.8597770 0.3408277 0.1402230 -0.3408277
3019000000 0.1382618 -0.3387033 0.8617382 0.3387033 0.8617382 0.3387033 0.1382618 -0.3387033
3040000000 0.1363335 -0.3365897 0.8636665 0.3365897 0.8636665 0.3365897 0.1363335 -0.3365897
3061000000 0.1344375 -0.3344868 0.8655625 0.3344868 0.8655625 0.3344868 0.1344375 -0.3344868
3082000000 0.1325731 -0.3323948 0.8674269 0.3323948 0.8674269 0.3323948 0.1325731 -0.3323948
3103000000 0.1307396 -0.3303138 0.8692604 0.3303138 0.8692604 0.3303138 0.1307396 -0.3303138
3124000000 0.1289366 -0.3282437 0.8710634 0.3282437 0.8710634 0.3282437 0.1289366 -0.3282437
3145000000 0.1271633 -0.3261846 0.8728367 0.3261846 0.8728367 0.3261846 0.1271633 -0.3261846
3166000000 0.1254193 -0.3241365 0.8745807 0.3241365 0.8745807 0.3241365 0.1254193 -0.3241365
3187000000 0.1237039 -0.3220995 0.8762961 0.3220995 0.8762961 0.3220995 0.1237039 -0.3220995
3208000000 0.1220167 -0.3200736 0.8779833 0.3200736 0.8779833 0.3200736 0.1220167 -0.3200736
3229000000 0.1203570 -0.3180588 0.8796430 0.3180588 0.8796430 0.3180588 0.1203570 -0.3180588
3250000000 0.1187244 -0.3160551 0.8812756 0.3160551 0.8812756 0.3160551 0.1187244 -0.3160551
3271000000 0.1171182 -0.3140625 0.8828818 0.3140625 0.8828818 0.3140625 0.1171182 -0.3140625
3292000000 0.1155381 -0.3120810 0.8844619 0.3120810 0.8844619 0.3120810 0.1155381 -0.3120810
3313000000 0.1139836 -0.3101106 0.8860164 0.3101106 0.8860164 0.3101106 0.1139836 -0.3101106
3334000000 0.1124540 -0.3081513 0.8875460 0.3081513 0.8875460 0.3081513 0.1124540 -0.3081513
3355000000 0.1109491 -0.3062031 0.8890509 0.3062031 0.8890509 0.3062031 0.1109491 -0.3062031
3376000000 0.1094682 -0.3042659 0.8905318 0.3042659 0.8905318 0.3042659 0.1094682 -0.3042659
3397000000 0.1080110 -0.3023398 0.8919890 0.3023398 0.8919890 0.3023398 0.1080110 -0.3023398
3418000000 0.1065770 -0.3004248 0.8934230 0.3004248 0.8934230 0.3004248 0.1065770 -0.3004248
3439000000 0.1051658 -0.2985207 0.8948342 0.2985207 0.8948342 0.2985207 0.1051658 -0.2985207
3460000000 0.1037769 -0.2966275 0.8962231 0.2966275 0.8962231 0.2966275 0.1037769 -0.2966275
3481000000 0.1024099 -0.2947453 0.8975901 0.2947453 0.8975901 0.2947453 0.1024099 -0.2947453
3502000000 0.1010645 -0.2928740 0.8989355 0.2928740 0.8989355 0.2928740 0.1010645 -0.2928740
3523000000 0.0997402 -0.2910136 0.9002598 0.2910136 0.9002598 0.2910136 0.0997402 -0.2910136
3544000000 0.0984367 -0.2891640 0.9015633 0.2891640 0.9015633 0.2891640 0.0984367 -0.2891640
3565000000 0.0971535 -0.2873251 0.9028465 0.2873251 0.9028465 0.2873251 0.0971535 -0.2873251
3586000000 0.0958903 -0.2854970 0.9041097 0.2854970 0.9041097 0.2854970 0.0958903 -0.2854970
3607000000 0.0946467 -0.2836795 0.9053533 0.2836795 0.9053533 0.2836795 0.0946467 -0.2836795
3628000000 0.0934224 -0.2818727 0.9065776 0.2818727 0.9065776 0.2818727 0.0934224 -0.2818727
3649000000 0.0922170 -0.2800765 0.9077830 0.2800765 0.9077830 0.2800765 0.0922170 -0.2800765
3670000000 0.0910302 -0.2782907 0.9089698 0.2782907 0.9089698 0.2782907 0.0910302 -0.2782907
3691000000 0.0898616 -0.2765155 0.9101384 0.2765155 0.9101384 0.2765155 0.0898616 -0.2765155
3712000000 0.0887109 -0.2747507 0.9112891 0.2747507 0.9112891 0.2747507 0.0887109 -0.2747507
3733000000 0.0875778 -0.2729963 0.9124222 0.2729963 0.9124222 0.2729963 0.0875778 -0.2729963
3754000000 0.0864620 -0.2712521 0.9135380 0.2712521 0.9135380 0.2712521 0.0864620 -0.2712521
3775000000 0.0853632 -0.2695182 0.9146368 0.2695182 0.9146368 0.2695182 0.0853632 -0.2695182
3796000000 0.0842810 -0.2677945 0.9157190 0.2677945 0.9157190 0.2677945 0.0842810 -0.2677945
3817000000 0.0832152 -0.2660810 0.9167848 0.2660810 0.9167848 0.2660810 0.0832152 -0.2660810
3838000000 0.0821655 -0.2643775 0.9178345 0.2643775 0.9178345 0.2643775 0.0821655 -0.2643775
3859000000 0.0811315 -0.2626840 0.9188685 0.2626840 0.9188685 0.2626840 0.0811315 -0.2626840
3880000000 0.0801131 -0.2610005 0.9198869 0.2610005 0.9198869 0.2610005 0.0801131 -0.2610005
3901000000 0.0791100 -0.2593268 0.9208900 0.2593268 0.9208900 0.2593268 0.0791100 -0.2593268
3922000000 0.0781218 -0.2576630 0.9218782 0.2576630 0.9218782 0.2576630 0.0781218 -0.2576630
3943000000 0.0771483 -0.2560089 0.9228517 0.2560089 0.9228517 0.2560089 0.0771483 -0.2560089
3964000000 0.0761894 -0.2543645 0.9238106 0.2543645 0.9238106 0.2543645 0.0761894 -0.2543645
3985000000 0.0752446 -0.2527297 0.9247554 0.2527297 0.9247554 0.2527297 0.0752446 -0.2527297
4006000000 0.0743138 -0.2511045 0.9256862 0.2511045 0.9256862 0.2511045 0.0743138 -0.2511045
4027000000 0.0733968 -0.2494888 0.9266032 0.2494888 0.9266032 0.2494888 0.0733968 -0.2494888
4048000000 0.0724932 -0.2478825 0.9275068 0.2478825 0.9275068 0.2478825 0.0724932 -0.2478825
4069000000 0.0716029 -0.2462855 0.9283971 0.2462855 0.9283971 0.2462855 0.0716029 -0.2462855
4090000000 0.0707257 -0.2446979 0.9292743 0.2446979 0.9292743 0.2446979 0.0707257 -0.2446979
4111000000 0.0698613 -0.2431195 0.9301387 0.2431195 0.9301387 0.2431195 0.0698613 -0.2431195
4132000000 0.0690095 -0.2415502 0.9309905 0.2415502 0.9309905 0.2415502 0.0690095 -0.2415502
4153000000 0.0681701 -0.2399900 0.9318299 0.2399900 0.9318299 0.2399900 0.0681701 -0.2399900
4174000000 0.0673429 -0.2384389 0.9326571 0.2384389 0.9326571 0.2384389 0.0673429 -0.2384389
4195000000 0.0665276 -0.2368967 0.9334724 0.2368967 0.9334724 0.2368967 0.0665276 -0.2368967
4216000000 0.0657242 -0.2353634 0.9342758 0.2353634 0.9342758 0.2353634 0.0657242 -0.2353634
4237000000 0.0649323 -0.2338389 0.9350677 0.2338389 0.9350677 0.2338389 0.0649323 -0.2338389
4258000000 0.0641518 -0.2323232 0.9358482 0.2323232 0.9358482 0.2323232 0.0641518 -0.2323232
4279000000 0.0633826 -0.2308162 0.9366174 0.2308162 0.9366174 0.2308162 0.0633826 -0.2308162
4300000000 0.0626244 -0.2293178 0.9373756 0.2293178 0.9373756 0.2293178 0.0626244 -0.2293178
4321000000 0.0618770 -0.2278279 0.9381230 0.2278279 0.9381230 0.2278279 0.0618770 -0.2278279
4342000000 0.0611402 -0.2263466 0.9388598 0.2263466 0.9388598 0.2263466 0.0611402 -0.2263466
4363000000 0.0604140 -0.2248736 0.9395860 0.2248736 0.9395860 0.2248736 0.0604140 -0.2248736
4384000000 0.0596981 -0.2234090 0.9403019 0.2234090 0.9403019 0.2234090 0.0596981 -0.2234090
4405000000 0.0589923 -0.2219528 0.9410077 0.2219528 0.9410077 0.2219528 0.0589923 -0.2219528
4426000000 0.0582966 -0.2205047 0.9417034 0.2205047 0.9417034 0.2205047 0.0582966 -0.2205047
4447000000 0.0576106 -0.2190648 0.9423894 0.2190648 0.9423894 0.2190648 0.0576106 -0.2190648
4468000000 0.0569344 -0.2176330 0.9430656 0.2176330 0.9430656 0.2176330 0.0569344 -0.2176330
4489000000 0.0562676 -0.2162092 0.9437324 0.2162092 0.9437324 0.2162092 0.0562676 -0.2162092
4510000000 0.0556103 -0.2147934 0.9443897 0.2147934 0.9443897 0.2147934 0.0556103 -0.2147934
