!Murata Part Number: GRM0335C1H271GE01
!These Parameters are Measured in Series Mode Connection
!Data Generated on Mar 30, 2021
!       o--ll--o
!Port1            Port2
!       o------o
!Operation Temp=25[degC], DC Bias Voltage=0[V]
!Freq. Start=100[MHz] Stop=9[GHz] 401[Steps]
# Hz S RI R 50
!Freq.(Hz) S11(Real) S11(Imag) S21(Real) S21(Imag) S12(Real) S12(Imag) S22(Real) S22(Imag)
100000000 0.0042204 -0.0568729 0.9957796 0.0568729 0.9957796 0.0568729 0.0042204 -0.0568729
121000000 0.0031326 -0.0463749 0.9968674 0.0463749 0.9968674 0.0463749 0.0031326 -0.0463749
142000000 0.0024922 -0.0388531 0.9975078 0.0388531 0.9975078 0.0388531 0.0024922 -0.0388531
163000000 0.0020853 -0.0331650 0.9979147 0.0331650 0.9979147 0.0331650 0.0020853 -0.0331650
184000000 0.0018123 -0.0286859 0.9981877 0.0286859 0.9981877 0.0286859 0.0018123 -0.0286859
205000000 0.0016217 -0.0250457 0.9983783 0.0250457 0.9983783 0.0250457 0.0016217 -0.0250457
226000000 0.0014846 -0.0220114 0.9985154 0.0220114 0.9985154 0.0220114 0.0014846 -0.0220114
247000000 0.0013841 -0.0194287 0.9986159 0.0194287 0.9986159 0.0194287 0.0013841 -0.0194287
268000000 0.0013093 -0.0171917 0.9986907 0.0171917 0.9986907 0.0171917 0.0013093 -0.0171917
289000000 0.0012534 -0.0152252 0.9987466 0.0152252 0.9987466 0.0152252 0.0012534 -0.0152252
310000000 0.0012116 -0.0134744 0.9987884 0.0134744 0.9987884 0.0134744 0.0012116 -0.0134744
331000000 0.0011807 -0.0118981 0.9988193 0.0118981 0.9988193 0.0118981 0.0011807 -0.0118981
352000000 0.0011585 -0.0104653 0.9988415 0.0104653 0.9988415 0.0104653 0.0011585 -0.0104653
373000000 0.0011432 -0.0091516 0.9988568 0.0091516 0.9988568 0.0091516 0.0011432 -0.0091516
394000000 0.0011336 -0.0079381 0.9988664 0.0079381 0.9988664 0.0079381 0.0011336 -0.0079381
415000000 0.0011288 -0.0068095 0.9988712 0.0068095 0.9988712 0.0068095 0.0011288 -0.0068095
436000000 0.0011281 -0.0057536 0.9988719 0.0057536 0.9988719 0.0057536 0.0011281 -0.0057536
457000000 0.0011309 -0.0047603 0.9988691 0.0047603 0.9988691 0.0047603 0.0011309 -0.0047603
478000000 0.0011368 -0.0038214 0.9988632 0.0038214 0.9988632 0.0038214 0.0011368 -0.0038214
499000000 0.0011455 -0.0029301 0.9988545 0.0029301 0.9988545 0.0029301 0.0011455 -0.0029301
520000000 0.0011567 -0.0020805 0.9988433 0.0020805 0.9988433 0.0020805 0.0011567 -0.0020805
541000000 0.0011702 -0.0012679 0.9988298 0.0012679 0.9988298 0.0012679 0.0011702 -0.0012679
562000000 0.0011859 -0.0004880 0.9988141 0.0004880 0.9988141 0.0004880 0.0011859 -0.0004880
583000000 0.0012035 0.0002627 0.9987965 -0.0002627 0.9987965 -0.0002627 0.0012035 0.0002627
604000000 0.0012231 0.0009872 0.9987769 -0.0009872 0.9987769 -0.0009872 0.0012231 0.0009872
625000000 0.0012444 0.0016881 0.9987556 -0.0016881 0.9987556 -0.0016881 0.0012444 0.0016881
646000000 0.0012675 0.0023678 0.9987325 -0.0023678 0.9987325 -0.0023678 0.0012675 0.0023678
667000000 0.0012923 0.0030283 0.9987077 -0.0030283 0.9987077 -0.0030283 0.0012923 0.0030283
688000000 0.0013187 0.0036712 0.9986813 -0.0036712 0.9986813 -0.0036712 0.0013187 0.0036712
709000000 0.0013467 0.0042982 0.9986533 -0.0042982 0.9986533 -0.0042982 0.0013467 0.0042982
730000000 0.0013763 0.0049107 0.9986237 -0.0049107 0.9986237 -0.0049107 0.0013763 0.0049107
751000000 0.0014075 0.0055097 0.9985925 -0.0055097 0.9985925 -0.0055097 0.0014075 0.0055097
772000000 0.0014402 0.0060965 0.9985598 -0.0060965 0.9985598 -0.0060965 0.0014402 0.0060965
793000000 0.0014745 0.0066719 0.9985255 -0.0066719 0.9985255 -0.0066719 0.0014745 0.0066719
814000000 0.0015104 0.0072369 0.9984896 -0.0072369 0.9984896 -0.0072369 0.0015104 0.0072369
835000000 0.0015478 0.0077921 0.9984522 -0.0077921 0.9984522 -0.0077921 0.0015478 0.0077921
856000000 0.0015868 0.0083383 0.9984132 -0.0083383 0.9984132 -0.0083383 0.0015868 0.0083383
877000000 0.0016273 0.0088762 0.9983727 -0.0088762 0.9983727 -0.0088762 0.0016273 0.0088762
898000000 0.0016694 0.0094062 0.9983306 -0.0094062 0.9983306 -0.0094062 0.0016694 0.0094062
919000000 0.0017131 0.0099289 0.9982869 -0.0099289 0.9982869 -0.0099289 0.0017131 0.0099289
940000000 0.0017585 0.0104447 0.9982415 -0.0104447 0.9982415 -0.0104447 0.0017585 0.0104447
961000000 0.0018055 0.0109540 0.9981945 -0.0109540 0.9981945 -0.0109540 0.0018055 0.0109540
982000000 0.0018541 0.0114572 0.9981459 -0.0114572 0.9981459 -0.0114572 0.0018541 0.0114572
1003000000 0.0019044 0.0119547 0.9980956 -0.0119547 0.9980956 -0.0119547 0.0019044 0.0119547
1024000000 0.0019564 0.0124467 0.9980436 -0.0124467 0.9980436 -0.0124467 0.0019564 0.0124467
1045000000 0.0020102 0.0129335 0.9979898 -0.0129335 0.9979898 -0.0129335 0.0020102 0.0129335
1066000000 0.0020657 0.0134154 0.9979343 -0.0134154 0.9979343 -0.0134154 0.0020657 0.0134154
1087000000 0.0021229 0.0138926 0.9978771 -0.0138926 0.9978771 -0.0138926 0.0021229 0.0138926
1108000000 0.0021820 0.0143652 0.9978180 -0.0143652 0.9978180 -0.0143652 0.0021820 0.0143652
1129000000 0.0022429 0.0148335 0.9977571 -0.0148335 0.9977571 -0.0148335 0.0022429 0.0148335
1150000000 0.0023056 0.0152976 0.9976944 -0.0152976 0.9976944 -0.0152976 0.0023056 0.0152976
1171000000 0.0023702 0.0157576 0.9976298 -0.0157576 0.9976298 -0.0157576 0.0023702 0.0157576
1192000000 0.0024367 0.0162137 0.9975633 -0.0162137 0.9975633 -0.0162137 0.0024367 0.0162137
1213000000 0.0025052 0.0166660 0.9974948 -0.0166660 0.9974948 -0.0166660 0.0025052 0.0166660
1234000000 0.0025755 0.0171145 0.9974245 -0.0171145 0.9974245 -0.0171145 0.0025755 0.0171145
1255000000 0.0026479 0.0175593 0.9973521 -0.0175593 0.9973521 -0.0175593 0.0026479 0.0175593
1276000000 0.0027222 0.0180006 0.9972778 -0.0180006 0.9972778 -0.0180006 0.0027222 0.0180006
1297000000 0.0027984 0.0184382 0.9972016 -0.0184382 0.9972016 -0.0184382 0.0027984 0.0184382
1318000000 0.0028767 0.0188723 0.9971233 -0.0188723 0.9971233 -0.0188723 0.0028767 0.0188723
1339000000 0.0029570 0.0193029 0.9970430 -0.0193029 0.9970430 -0.0193029 0.0029570 0.0193029
1360000000 0.0030393 0.0197300 0.9969607 -0.0197300 0.9969607 -0.0197300 0.0030393 0.0197300
1381000000 0.0031236 0.0201536 0.9968764 -0.0201536 0.9968764 -0.0201536 0.0031236 0.0201536
1402000000 0.0032099 0.0205736 0.9967901 -0.0205736 0.9967901 -0.0205736 0.0032099 0.0205736
1423000000 0.0032982 0.0209901 0.9967018 -0.0209901 0.9967018 -0.0209901 0.0032982 0.0209901
1444000000 0.0033885 0.0214031 0.9966115 -0.0214031 0.9966115 -0.0214031 0.0033885 0.0214031
1465000000 0.0034807 0.0218124 0.9965193 -0.0218124 0.9965193 -0.0218124 0.0034807 0.0218124
1486000000 0.0035749 0.0222181 0.9964251 -0.0222181 0.9964251 -0.0222181 0.0035749 0.0222181
1507000000 0.0036709 0.0226201 0.9963291 -0.0226201 0.9963291 -0.0226201 0.0036709 0.0226201
1528000000 0.0037687 0.0230183 0.9962313 -0.0230183 0.9962313 -0.0230183 0.0037687 0.0230183
1549000000 0.0038683 0.0234127 0.9961317 -0.0234127 0.9961317 -0.0234127 0.0038683 0.0234127
1570000000 0.0039697 0.0238033 0.9960303 -0.0238033 0.9960303 -0.0238033 0.0039697 0.0238033
1591000000 0.0040726 0.0241898 0.9959274 -0.0241898 0.9959274 -0.0241898 0.0040726 0.0241898
1612000000 0.0041771 0.0245723 0.9958229 -0.0245723 0.9958229 -0.0245723 0.0041771 0.0245723
1633000000 0.0042830 0.0249507 0.9957170 -0.0249507 0.9957170 -0.0249507 0.0042830 0.0249507
1654000000 0.0043902 0.0253249 0.9956098 -0.0253249 0.9956098 -0.0253249 0.0043902 0.0253249
1675000000 0.0044987 0.0256948 0.9955013 -0.0256948 0.9955013 -0.0256948 0.0044987 0.0256948
1696000000 0.0046082 0.0260603 0.9953918 -0.0260603 0.9953918 -0.0260603 0.0046082 0.0260603
1717000000 0.0047186 0.0264215 0.9952814 -0.0264215 0.9952814 -0.0264215 0.0047186 0.0264215
1738000000 0.0048298 0.0267781 0.9951702 -0.0267781 0.9951702 -0.0267781 0.0048298 0.0267781
1759000000 0.0049415 0.0271302 0.9950585 -0.0271302 0.9950585 -0.0271302 0.0049415 0.0271302
1780000000 0.0050536 0.0274777 0.9949464 -0.0274777 0.9949464 -0.0274777 0.0050536 0.0274777
1801000000 0.0051660 0.0278206 0.9948340 -0.0278206 0.9948340 -0.0278206 0.0051660 0.0278206
1822000000 0.0052783 0.0281588 0.9947217 -0.0281588 0.9947217 -0.0281588 0.0052783 0.0281588
1843000000 0.0053903 0.0284923 0.9946097 -0.0284923 0.9946097 -0.0284923 0.0053903 0.0284923
1864000000 0.0055019 0.0288211 0.9944981 -0.0288211 0.9944981 -0.0288211 0.0055019 0.0288211
1885000000 0.0056128 0.0291453 0.9943872 -0.0291453 0.9943872 -0.0291453 0.0056128 0.0291453
1906000000 0.0057228 0.0294648 0.9942772 -0.0294648 0.9942772 -0.0294648 0.0057228 0.0294648
1927000000 0.0058316 0.0297796 0.9941684 -0.0297796 0.9941684 -0.0297796 0.0058316 0.0297796
1948000000 0.0059389 0.0300900 0.9940611 -0.0300900 0.9940611 -0.0300900 0.0059389 0.0300900
1969000000 0.0060445 0.0303959 0.9939555 -0.0303959 0.9939555 -0.0303959 0.0060445 0.0303959
1990000000 0.0061482 0.0306974 0.9938518 -0.0306974 0.9938518 -0.0306974 0.0061482 0.0306974
2011000000 0.0062496 0.0309947 0.9937504 -0.0309947 0.9937504 -0.0309947 0.0062496 0.0309947
2032000000 0.0063487 0.0312880 0.9936513 -0.0312880 0.9936513 -0.0312880 0.0063487 0.0312880
2053000000 0.0064450 0.0315774 0.9935550 -0.0315774 0.9935550 -0.0315774 0.0064450 0.0315774
2074000000 0.0065385 0.0318630 0.9934615 -0.0318630 0.9934615 -0.0318630 0.0065385 0.0318630
2095000000 0.0066289 0.0321452 0.9933711 -0.0321452 0.9933711 -0.0321452 0.0066289 0.0321452
2116000000 0.0067160 0.0324240 0.9932840 -0.0324240 0.9932840 -0.0324240 0.0067160 0.0324240
2137000000 0.0067996 0.0326999 0.9932004 -0.0326999 0.9932004 -0.0326999 0.0067996 0.0326999
2158000000 0.0068795 0.0329729 0.9931205 -0.0329729 0.9931205 -0.0329729 0.0068795 0.0329729
2179000000 0.0069557 0.0332435 0.9930443 -0.0332435 0.9930443 -0.0332435 0.0069557 0.0332435
2200000000 0.0070280 0.0335118 0.9929720 -0.0335118 0.9929720 -0.0335118 0.0070280 0.0335118
2221000000 0.0070963 0.0337783 0.9929037 -0.0337783 0.9929037 -0.0337783 0.0070963 0.0337783
2242000000 0.0071606 0.0340431 0.9928394 -0.0340431 0.9928394 -0.0340431 0.0071606 0.0340431
2263000000 0.0072207 0.0343065 0.9927793 -0.0343065 0.9927793 -0.0343065 0.0072207 0.0343065
2284000000 0.0072768 0.0345690 0.9927232 -0.0345690 0.9927232 -0.0345690 0.0072768 0.0345690
2305000000 0.0073287 0.0348307 0.9926713 -0.0348307 0.9926713 -0.0348307 0.0073287 0.0348307
2326000000 0.0073765 0.0350919 0.9926235 -0.0350919 0.9926235 -0.0350919 0.0073765 0.0350919
2347000000 0.0074203 0.0353530 0.9925797 -0.0353530 0.9925797 -0.0353530 0.0074203 0.0353530
2368000000 0.0074601 0.0356143 0.9925399 -0.0356143 0.9925399 -0.0356143 0.0074601 0.0356143
2389000000 0.0074960 0.0358759 0.9925040 -0.0358759 0.9925040 -0.0358759 0.0074960 0.0358759
2410000000 0.0075282 0.0361383 0.9924718 -0.0361383 0.9924718 -0.0361383 0.0075282 0.0361383
2431000000 0.0075567 0.0364015 0.9924433 -0.0364015 0.9924433 -0.0364015 0.0075567 0.0364015
2452000000 0.0075817 0.0366658 0.9924183 -0.0366658 0.9924183 -0.0366658 0.0075817 0.0366658
2473000000 0.0076035 0.0369315 0.9923965 -0.0369315 0.9923965 -0.0369315 0.0076035 0.0369315
2494000000 0.0076220 0.0371987 0.9923780 -0.0371987 0.9923780 -0.0371987 0.0076220 0.0371987
2515000000 0.0076376 0.0374676 0.9923624 -0.0374676 0.9923624 -0.0374676 0.0076376 0.0374676
2536000000 0.0076503 0.0377384 0.9923497 -0.0377384 0.9923497 -0.0377384 0.0076503 0.0377384
2557000000 0.0076605 0.0380111 0.9923395 -0.0380111 0.9923395 -0.0380111 0.0076605 0.0380111
2578000000 0.0076683 0.0382860 0.9923317 -0.0382860 0.9923317 -0.0382860 0.0076683 0.0382860
2599000000 0.0076738 0.0385631 0.9923262 -0.0385631 0.9923262 -0.0385631 0.0076738 0.0385631
2620000000 0.0076774 0.0388425 0.9923226 -0.0388425 0.9923226 -0.0388425 0.0076774 0.0388425
2641000000 0.0076792 0.0391243 0.9923208 -0.0391243 0.9923208 -0.0391243 0.0076792 0.0391243
2662000000 0.0076793 0.0394085 0.9923207 -0.0394085 0.9923207 -0.0394085 0.0076793 0.0394085
2683000000 0.0076780 0.0396952 0.9923220 -0.0396952 0.9923220 -0.0396952 0.0076780 0.0396952
2704000000 0.0076755 0.0399843 0.9923245 -0.0399843 0.9923245 -0.0399843 0.0076755 0.0399843
2725000000 0.0076720 0.0402759 0.9923280 -0.0402759 0.9923280 -0.0402759 0.0076720 0.0402759
2746000000 0.0076675 0.0405700 0.9923325 -0.0405700 0.9923325 -0.0405700 0.0076675 0.0405700
2767000000 0.0076624 0.0408666 0.9923376 -0.0408666 0.9923376 -0.0408666 0.0076624 0.0408666
2788000000 0.0076567 0.0411657 0.9923433 -0.0411657 0.9923433 -0.0411657 0.0076567 0.0411657
2809000000 0.0076507 0.0414672 0.9923493 -0.0414672 0.9923493 -0.0414672 0.0076507 0.0414672
2830000000 0.0076444 0.0417710 0.9923556 -0.0417710 0.9923556 -0.0417710 0.0076444 0.0417710
2851000000 0.0076380 0.0420772 0.9923620 -0.0420772 0.9923620 -0.0420772 0.0076380 0.0420772
2872000000 0.0076316 0.0423857 0.9923684 -0.0423857 0.9923684 -0.0423857 0.0076316 0.0423857
2893000000 0.0076253 0.0426963 0.9923747 -0.0426963 0.9923747 -0.0426963 0.0076253 0.0426963
2914000000 0.0076193 0.0430092 0.9923807 -0.0430092 0.9923807 -0.0430092 0.0076193 0.0430092
2935000000 0.0076137 0.0433241 0.9923863 -0.0433241 0.9923863 -0.0433241 0.0076137 0.0433241
2956000000 0.0076085 0.0436411 0.9923915 -0.0436411 0.9923915 -0.0436411 0.0076085 0.0436411
2977000000 0.0076039 0.0439601 0.9923961 -0.0439601 0.9923961 -0.0439601 0.0076039 0.0439601
2998000000 0.0075999 0.0442809 0.9924001 -0.0442809 0.9924001 -0.0442809 0.0075999 0.0442809
3019000000 0.0075965 0.0446035 0.9924035 -0.0446035 0.9924035 -0.0446035 0.0075965 0.0446035
3040000000 0.0075940 0.0449279 0.9924060 -0.0449279 0.9924060 -0.0449279 0.0075940 0.0449279
3061000000 0.0075922 0.0452540 0.9924078 -0.0452540 0.9924078 -0.0452540 0.0075922 0.0452540
3082000000 0.0075914 0.0455816 0.9924086 -0.0455816 0.9924086 -0.0455816 0.0075914 0.0455816
3103000000 0.0075915 0.0459108 0.9924085 -0.0459108 0.9924085 -0.0459108 0.0075915 0.0459108
3124000000 0.0075925 0.0462414 0.9924075 -0.0462414 0.9924075 -0.0462414 0.0075925 0.0462414
3145000000 0.0075945 0.0465735 0.9924055 -0.0465735 0.9924055 -0.0465735 0.0075945 0.0465735
3166000000 0.0075976 0.0469068 0.9924024 -0.0469068 0.9924024 -0.0469068 0.0075976 0.0469068
3187000000 0.0076018 0.0472414 0.9923982 -0.0472414 0.9923982 -0.0472414 0.0076018 0.0472414
3208000000 0.0076070 0.0475772 0.9923930 -0.0475772 0.9923930 -0.0475772 0.0076070 0.0475772
3229000000 0.0076134 0.0479141 0.9923866 -0.0479141 0.9923866 -0.0479141 0.0076134 0.0479141
3250000000 0.0076209 0.0482520 0.9923791 -0.0482520 0.9923791 -0.0482520 0.0076209 0.0482520
3271000000 0.0076295 0.0485910 0.9923705 -0.0485910 0.9923705 -0.0485910 0.0076295 0.0485910
3292000000 0.0076394 0.0489309 0.9923606 -0.0489309 0.9923606 -0.0489309 0.0076394 0.0489309
3313000000 0.0076503 0.0492717 0.9923497 -0.0492717 0.9923497 -0.0492717 0.0076503 0.0492717
3334000000 0.0076625 0.0496133 0.9923375 -0.0496133 0.9923375 -0.0496133 0.0076625 0.0496133
3355000000 0.0076758 0.0499557 0.9923242 -0.0499557 0.9923242 -0.0499557 0.0076758 0.0499557
3376000000 0.0076904 0.0502989 0.9923096 -0.0502989 0.9923096 -0.0502989 0.0076904 0.0502989
3397000000 0.0077061 0.0506427 0.9922939 -0.0506427 0.9922939 -0.0506427 0.0077061 0.0506427
3418000000 0.0077230 0.0509872 0.9922770 -0.0509872 0.9922770 -0.0509872 0.0077230 0.0509872
3439000000 0.0077410 0.0513322 0.9922590 -0.0513322 0.9922590 -0.0513322 0.0077410 0.0513322
3460000000 0.0077603 0.0516778 0.9922397 -0.0516778 0.9922397 -0.0516778 0.0077603 0.0516778
3481000000 0.0077807 0.0520240 0.9922193 -0.0520240 0.9922193 -0.0520240 0.0077807 0.0520240
3502000000 0.0078023 0.0523706 0.9921977 -0.0523706 0.9921977 -0.0523706 0.0078023 0.0523706
3523000000 0.0078251 0.0527177 0.9921749 -0.0527177 0.9921749 -0.0527177 0.0078251 0.0527177
3544000000 0.0078490 0.0530651 0.9921510 -0.0530651 0.9921510 -0.0530651 0.0078490 0.0530651
3565000000 0.0078740 0.0534130 0.9921260 -0.0534130 0.9921260 -0.0534130 0.0078740 0.0534130
3586000000 0.0079002 0.0537612 0.9920998 -0.0537612 0.9920998 -0.0537612 0.0079002 0.0537612
3607000000 0.0079275 0.0541097 0.9920725 -0.0541097 0.9920725 -0.0541097 0.0079275 0.0541097
3628000000 0.0079559 0.0544585 0.9920441 -0.0544585 0.9920441 -0.0544585 0.0079559 0.0544585
3649000000 0.0079855 0.0548075 0.9920145 -0.0548075 0.9920145 -0.0548075 0.0079855 0.0548075
3670000000 0.0080161 0.0551568 0.9919839 -0.0551568 0.9919839 -0.0551568 0.0080161 0.0551568
3691000000 0.0080478 0.0555063 0.9919522 -0.0555063 0.9919522 -0.0555063 0.0080478 0.0555063
3712000000 0.0080806 0.0558560 0.9919194 -0.0558560 0.9919194 -0.0558560 0.0080806 0.0558560
3733000000 0.0081144 0.0562058 0.9918856 -0.0562058 0.9918856 -0.0562058 0.0081144 0.0562058
3754000000 0.0081493 0.0565558 0.9918507 -0.0565558 0.9918507 -0.0565558 0.0081493 0.0565558
3775000000 0.0081853 0.0569060 0.9918147 -0.0569060 0.9918147 -0.0569060 0.0081853 0.0569060
3796000000 0.0082222 0.0572562 0.9917778 -0.0572562 0.9917778 -0.0572562 0.0082222 0.0572562
3817000000 0.0082602 0.0576065 0.9917398 -0.0576065 0.9917398 -0.0576065 0.0082602 0.0576065
3838000000 0.0082992 0.0579569 0.9917008 -0.0579569 0.9917008 -0.0579569 0.0082992 0.0579569
3859000000 0.0083392 0.0583073 0.9916608 -0.0583073 0.9916608 -0.0583073 0.0083392 0.0583073
3880000000 0.0083801 0.0586578 0.9916199 -0.0586578 0.9916199 -0.0586578 0.0083801 0.0586578
3901000000 0.0084221 0.0590082 0.9915779 -0.0590082 0.9915779 -0.0590082 0.0084221 0.0590082
3922000000 0.0084650 0.0593588 0.9915350 -0.0593588 0.9915350 -0.0593588 0.0084650 0.0593588
3943000000 0.0085088 0.0597093 0.9914912 -0.0597093 0.9914912 -0.0597093 0.0085088 0.0597093
3964000000 0.0085536 0.0600597 0.9914464 -0.0600597 0.9914464 -0.0600597 0.0085536 0.0600597
3985000000 0.0085993 0.0604102 0.9914007 -0.0604102 0.9914007 -0.0604102 0.0085993 0.0604102
4006000000 0.0086460 0.0607606 0.9913540 -0.0607606 0.9913540 -0.0607606 0.0086460 0.0607606
4027000000 0.0086935 0.0611110 0.9913065 -0.0611110 0.9913065 -0.0611110 0.0086935 0.0611110
4048000000 0.0087420 0.0614614 0.9912580 -0.0614614 0.9912580 -0.0614614 0.0087420 0.0614614
4069000000 0.0087913 0.0618116 0.9912087 -0.0618116 0.9912087 -0.0618116 0.0087913 0.0618116
4090000000 0.0088415 0.0621618 0.9911585 -0.0621618 0.9911585 -0.0621618 0.0088415 0.0621618
4111000000 0.0088926 0.0625119 0.9911074 -0.0625119 0.9911074 -0.0625119 0.0088926 0.0625119
4132000000 0.0089446 0.0628619 0.9910554 -0.0628619 0.9910554 -0.0628619 0.0089446 0.0628619
4153000000 0.0089974 0.0632118 0.9910026 -0.0632118 0.9910026 -0.0632118 0.0089974 0.0632118
4174000000 0.0090511 0.0635616 0.9909489 -0.0635616 0.9909489 -0.0635616 0.0090511 0.0635616
4195000000 0.0091055 0.0639113 0.9908945 -0.0639113 0.9908945 -0.0639113 0.0091055 0.0639113
4216000000 0.0091609 0.0642609 0.9908391 -0.0642609 0.9908391 -0.0642609 0.0091609 0.0642609
4237000000 0.0092170 0.0646104 0.9907830 -0.0646104 0.9907830 -0.0646104 0.0092170 0.0646104
4258000000 0.0092740 0.0649597 0.9907260 -0.0649597 0.9907260 -0.0649597 0.0092740 0.0649597
4279000000 0.0093317 0.0653089 0.9906683 -0.0653089 0.9906683 -0.0653089 0.0093317 0.0653089
4300000000 0.0093903 0.0656579 0.9906097 -0.0656579 0.9906097 -0.0656579 0.0093903 0.0656579
4321000000 0.0094496 0.0660068 0.9905504 -0.0660068 0.9905504 -0.0660068 0.0094496 0.0660068
4342000000 0.0095098 0.0663555 0.9904902 -0.0663555 0.9904902 -0.0663555 0.0095098 0.0663555
4363000000 0.0095707 0.0667041 0.9904293 -0.0667041 0.9904293 -0.0667041 0.0095707 0.0667041
4384000000 0.0096324 0.0670525 0.9903676 -0.0670525 0.9903676 -0.0670525 0.0096324 0.0670525
4405000000 0.0096948 0.0674008 0.9903052 -0.0674008 0.9903052 -0.0674008 0.0096948 0.0674008
4426000000 0.0097580 0.0677489 0.9902420 -0.0677489 0.9902420 -0.0677489 0.0097580 0.0677489
4447000000 0.0098219 0.0680968 0.9901781 -0.0680968 0.9901781 -0.0680968 0.0098219 0.0680968
4468000000 0.0098866 0.0684446 0.9901134 -0.0684446 0.9901134 -0.0684446 0.0098866 0.0684446
4489000000 0.0099521 0.0687921 0.9900479 -0.0687921 0.9900479 -0.0687921 0.0099521 0.0687921
4510000000 0.0100182 0.0691395 0.9899818 -0.0691395 0.9899818 -0.0691395 0.0100182 0.0691395
