!Murata Part Number: GRM0335C1H2R3BA01
!These Parameters are Measured in Series Mode Connection
!Data Generated on Mar 30, 2021
!       o--ll--o
!Port1            Port2
!       o------o
!Operation Temp=25[degC], DC Bias Voltage=0[V]
!Freq. Start=100[MHz] Stop=9[GHz] 401[Steps]
# Hz S RI R 50
!Freq.(Hz) S11(Real) S11(Imag) S21(Real) S21(Imag) S12(Real) S12(Imag) S22(Real) S22(Imag)
100000000 0.9794823 -0.1415706 0.0205177 0.1415706 0.0205177 0.1415706 0.9794823 -0.1415706
121000000 0.9702384 -0.1696963 0.0297616 0.1696963 0.0297616 0.1696963 0.9702384 -0.1696963
142000000 0.9594585 -0.1969523 0.0405415 0.1969523 0.0405415 0.1969523 0.9594585 -0.1969523
163000000 0.9472478 -0.2232246 0.0527522 0.2232246 0.0527522 0.2232246 0.9472478 -0.2232246
184000000 0.9337214 -0.2484141 0.0662786 0.2484141 0.0662786 0.2484141 0.9337214 -0.2484141
205000000 0.9190015 -0.2724378 0.0809985 0.2724378 0.0809985 0.2724378 0.9190015 -0.2724378
226000000 0.9032150 -0.2952291 0.0967850 0.2952291 0.0967850 0.2952291 0.9032150 -0.2952291
247000000 0.8864911 -0.3167374 0.1135089 0.3167374 0.1135089 0.3167374 0.8864911 -0.3167374
268000000 0.8689592 -0.3369277 0.1310408 0.3369277 0.1310408 0.3369277 0.8689592 -0.3369277
289000000 0.8507467 -0.3557797 0.1492533 0.3557797 0.1492533 0.3557797 0.8507467 -0.3557797
310000000 0.8319775 -0.3732870 0.1680225 0.3732870 0.1680225 0.3732870 0.8319775 -0.3732870
331000000 0.8127701 -0.3894556 0.1872299 0.3894556 0.1872299 0.3894556 0.8127701 -0.3894556
352000000 0.7932368 -0.4043025 0.2067632 0.4043025 0.2067632 0.4043025 0.7932368 -0.4043025
373000000 0.7734829 -0.4178544 0.2265171 0.4178544 0.2265171 0.4178544 0.7734829 -0.4178544
394000000 0.7536054 -0.4301465 0.2463946 0.4301465 0.2463946 0.4301465 0.7536054 -0.4301465
415000000 0.7336934 -0.4412203 0.2663066 0.4412203 0.2663066 0.4412203 0.7336934 -0.4412203
436000000 0.7138273 -0.4511232 0.2861727 0.4511232 0.2861727 0.4511232 0.7138273 -0.4511232
457000000 0.6940794 -0.4599065 0.3059206 0.4599065 0.3059206 0.4599065 0.6940794 -0.4599065
478000000 0.6745134 -0.4676246 0.3254866 0.4676246 0.3254866 0.4676246 0.6745134 -0.4676246
499000000 0.6551852 -0.4743339 0.3448148 0.4743339 0.3448148 0.4743339 0.6551852 -0.4743339
520000000 0.6361431 -0.4800918 0.3638569 0.4800918 0.3638569 0.4800918 0.6361431 -0.4800918
541000000 0.6174283 -0.4849561 0.3825717 0.4849561 0.3825717 0.4849561 0.6174283 -0.4849561
562000000 0.5990752 -0.4889842 0.4009248 0.4889842 0.4009248 0.4889842 0.5990752 -0.4889842
583000000 0.5811123 -0.4922325 0.4188877 0.4922325 0.4188877 0.4922325 0.5811123 -0.4922325
604000000 0.5635624 -0.4947558 0.4364376 0.4947558 0.4364376 0.4947558 0.5635624 -0.4947558
625000000 0.5464433 -0.4966075 0.4535567 0.4966075 0.4535567 0.4966075 0.5464433 -0.4966075
646000000 0.5297681 -0.4978388 0.4702319 0.4978388 0.4702319 0.4978388 0.5297681 -0.4978388
667000000 0.5135463 -0.4984985 0.4864537 0.4984985 0.4864537 0.4984985 0.5135463 -0.4984985
688000000 0.4977834 -0.4986332 0.5022166 0.4986332 0.5022166 0.4986332 0.4977834 -0.4986332
709000000 0.4824822 -0.4982870 0.5175178 0.4982870 0.5175178 0.4982870 0.4824822 -0.4982870
730000000 0.4676424 -0.4975015 0.5323576 0.4975015 0.5323576 0.4975015 0.4676424 -0.4975015
751000000 0.4532617 -0.4963157 0.5467383 0.4963157 0.5467383 0.4963157 0.4532617 -0.4963157
772000000 0.4393358 -0.4947663 0.5606642 0.4947663 0.5606642 0.4947663 0.4393358 -0.4947663
793000000 0.4258585 -0.4928875 0.5741415 0.4928875 0.5741415 0.4928875 0.4258585 -0.4928875
814000000 0.4128225 -0.4907110 0.5871775 0.4907110 0.5871775 0.4907110 0.4128225 -0.4907110
835000000 0.4002192 -0.4882666 0.5997808 0.4882666 0.5997808 0.4882666 0.4002192 -0.4882666
856000000 0.3880392 -0.4855816 0.6119608 0.4855816 0.6119608 0.4855816 0.3880392 -0.4855816
877000000 0.3762722 -0.4826814 0.6237278 0.4826814 0.6237278 0.4826814 0.3762722 -0.4826814
898000000 0.3649076 -0.4795895 0.6350924 0.4795895 0.6350924 0.4795895 0.3649076 -0.4795895
919000000 0.3539340 -0.4763275 0.6460660 0.4763275 0.6460660 0.4763275 0.3539340 -0.4763275
940000000 0.3433402 -0.4729152 0.6566598 0.4729152 0.6566598 0.4729152 0.3433402 -0.4729152
961000000 0.3331144 -0.4693710 0.6668856 0.4693710 0.6668856 0.4693710 0.3331144 -0.4693710
982000000 0.3232450 -0.4657115 0.6767550 0.4657115 0.6767550 0.4657115 0.3232450 -0.4657115
1003000000 0.3137203 -0.4619522 0.6862797 0.4619522 0.6862797 0.4619522 0.3137203 -0.4619522
1024000000 0.3045287 -0.4581072 0.6954713 0.4581072 0.6954713 0.4581072 0.3045287 -0.4581072
1045000000 0.2956587 -0.4541891 0.7043413 0.4541891 0.7043413 0.4541891 0.2956587 -0.4541891
1066000000 0.2870989 -0.4502099 0.7129011 0.4502099 0.7129011 0.4502099 0.2870989 -0.4502099
1087000000 0.2788383 -0.4461800 0.7211617 0.4461800 0.7211617 0.4461800 0.2788383 -0.4461800
1108000000 0.2708660 -0.4421093 0.7291340 0.4421093 0.7291340 0.4421093 0.2708660 -0.4421093
1129000000 0.2631713 -0.4380066 0.7368287 0.4380066 0.7368287 0.4380066 0.2631713 -0.4380066
1150000000 0.2557439 -0.4338800 0.7442561 0.4338800 0.7442561 0.4338800 0.2557439 -0.4338800
1171000000 0.2485738 -0.4297365 0.7514262 0.4297365 0.7514262 0.4297365 0.2485738 -0.4297365
1192000000 0.2416512 -0.4255830 0.7583488 0.4255830 0.7583488 0.4255830 0.2416512 -0.4255830
1213000000 0.2349668 -0.4214252 0.7650332 0.4214252 0.7650332 0.4214252 0.2349668 -0.4214252
1234000000 0.2285114 -0.4172685 0.7714886 0.4172685 0.7714886 0.4172685 0.2285114 -0.4172685
1255000000 0.2222762 -0.4131178 0.7777238 0.4131178 0.7777238 0.4131178 0.2222762 -0.4131178
1276000000 0.2162527 -0.4089775 0.7837473 0.4089775 0.7837473 0.4089775 0.2162527 -0.4089775
1297000000 0.2104327 -0.4048513 0.7895673 0.4048513 0.7895673 0.4048513 0.2104327 -0.4048513
1318000000 0.2048084 -0.4007428 0.7951916 0.4007428 0.7951916 0.4007428 0.2048084 -0.4007428
1339000000 0.1993722 -0.3966552 0.8006278 0.3966552 0.8006278 0.3966552 0.1993722 -0.3966552
1360000000 0.1941168 -0.3925910 0.8058832 0.3925910 0.8058832 0.3925910 0.1941168 -0.3925910
1381000000 0.1890353 -0.3885529 0.8109647 0.3885529 0.8109647 0.3885529 0.1890353 -0.3885529
1402000000 0.1841208 -0.3845430 0.8158792 0.3845430 0.8158792 0.3845430 0.1841208 -0.3845430
1423000000 0.1793670 -0.3805632 0.8206330 0.3805632 0.8206330 0.3805632 0.1793670 -0.3805632
1444000000 0.1747676 -0.3766151 0.8252324 0.3766151 0.8252324 0.3766151 0.1747676 -0.3766151
1465000000 0.1703168 -0.3727002 0.8296832 0.3727002 0.8296832 0.3727002 0.1703168 -0.3727002
1486000000 0.1660087 -0.3688199 0.8339913 0.3688199 0.8339913 0.3688199 0.1660087 -0.3688199
1507000000 0.1618381 -0.3649750 0.8381619 0.3649750 0.8381619 0.3649750 0.1618381 -0.3649750
1528000000 0.1577996 -0.3611667 0.8422004 0.3611667 0.8422004 0.3611667 0.1577996 -0.3611667
1549000000 0.1538882 -0.3573956 0.8461118 0.3573956 0.8461118 0.3573956 0.1538882 -0.3573956
1570000000 0.1500991 -0.3536623 0.8499009 0.3536623 0.8499009 0.3536623 0.1500991 -0.3536623
1591000000 0.1464277 -0.3499675 0.8535723 0.3499675 0.8535723 0.3499675 0.1464277 -0.3499675
1612000000 0.1428696 -0.3463114 0.8571304 0.3463114 0.8571304 0.3463114 0.1428696 -0.3463114
1633000000 0.1394206 -0.3426945 0.8605794 0.3426945 0.8605794 0.3426945 0.1394206 -0.3426945
1654000000 0.1360766 -0.3391169 0.8639234 0.3391169 0.8639234 0.3391169 0.1360766 -0.3391169
1675000000 0.1328337 -0.3355787 0.8671663 0.3355787 0.8671663 0.3355787 0.1328337 -0.3355787
1696000000 0.1296882 -0.3320800 0.8703118 0.3320800 0.8703118 0.3320800 0.1296882 -0.3320800
1717000000 0.1266366 -0.3286208 0.8733634 0.3286208 0.8733634 0.3286208 0.1266366 -0.3286208
1738000000 0.1236753 -0.3252011 0.8763247 0.3252011 0.8763247 0.3252011 0.1236753 -0.3252011
1759000000 0.1208012 -0.3218206 0.8791988 0.3218206 0.8791988 0.3218206 0.1208012 -0.3218206
1780000000 0.1180112 -0.3184794 0.8819888 0.3184794 0.8819888 0.3184794 0.1180112 -0.3184794
1801000000 0.1153021 -0.3151770 0.8846979 0.3151770 0.8846979 0.3151770 0.1153021 -0.3151770
1822000000 0.1126711 -0.3119134 0.8873289 0.3119134 0.8873289 0.3119134 0.1126711 -0.3119134
1843000000 0.1101155 -0.3086881 0.8898845 0.3086881 0.8898845 0.3086881 0.1101155 -0.3086881
1864000000 0.1076325 -0.3055010 0.8923675 0.3055010 0.8923675 0.3055010 0.1076325 -0.3055010
1885000000 0.1052198 -0.3023516 0.8947802 0.3023516 0.8947802 0.3023516 0.1052198 -0.3023516
1906000000 0.1028747 -0.2992396 0.8971253 0.2992396 0.8971253 0.2992396 0.1028747 -0.2992396
1927000000 0.1005949 -0.2961646 0.8994051 0.2961646 0.8994051 0.2961646 0.1005949 -0.2961646
1948000000 0.0983783 -0.2931262 0.9016217 0.2931262 0.9016217 0.2931262 0.0983783 -0.2931262
1969000000 0.0962227 -0.2901241 0.9037773 0.2901241 0.9037773 0.2901241 0.0962227 -0.2901241
1990000000 0.0941259 -0.2871577 0.9058741 0.2871577 0.9058741 0.2871577 0.0941259 -0.2871577
2011000000 0.0920861 -0.2842267 0.9079139 0.2842267 0.9079139 0.2842267 0.0920861 -0.2842267
2032000000 0.0901012 -0.2813306 0.9098988 0.2813306 0.9098988 0.2813306 0.0901012 -0.2813306
2053000000 0.0881695 -0.2784689 0.9118305 0.2784689 0.9118305 0.2784689 0.0881695 -0.2784689
2074000000 0.0862892 -0.2756411 0.9137108 0.2756411 0.9137108 0.2756411 0.0862892 -0.2756411
2095000000 0.0844586 -0.2728469 0.9155414 0.2728469 0.9155414 0.2728469 0.0844586 -0.2728469
2116000000 0.0826761 -0.2700858 0.9173239 0.2700858 0.9173239 0.2700858 0.0826761 -0.2700858
2137000000 0.0809401 -0.2673572 0.9190599 0.2673572 0.9190599 0.2673572 0.0809401 -0.2673572
2158000000 0.0792491 -0.2646607 0.9207509 0.2646607 0.9207509 0.2646607 0.0792491 -0.2646607
2179000000 0.0776017 -0.2619958 0.9223983 0.2619958 0.9223983 0.2619958 0.0776017 -0.2619958
2200000000 0.0759965 -0.2593621 0.9240035 0.2593621 0.9240035 0.2593621 0.0759965 -0.2593621
2221000000 0.0744322 -0.2567591 0.9255678 0.2567591 0.9255678 0.2567591 0.0744322 -0.2567591
2242000000 0.0729074 -0.2541863 0.9270926 0.2541863 0.9270926 0.2541863 0.0729074 -0.2541863
2263000000 0.0714209 -0.2516433 0.9285791 0.2516433 0.9285791 0.2516433 0.0714209 -0.2516433
2284000000 0.0699716 -0.2491296 0.9300284 0.2491296 0.9300284 0.2491296 0.0699716 -0.2491296
2305000000 0.0685582 -0.2466446 0.9314418 0.2466446 0.9314418 0.2466446 0.0685582 -0.2466446
2326000000 0.0671798 -0.2441881 0.9328202 0.2441881 0.9328202 0.2441881 0.0671798 -0.2441881
2347000000 0.0658351 -0.2417594 0.9341649 0.2417594 0.9341649 0.2417594 0.0658351 -0.2417594
2368000000 0.0645233 -0.2393583 0.9354767 0.2393583 0.9354767 0.2393583 0.0645233 -0.2393583
2389000000 0.0632433 -0.2369841 0.9367567 0.2369841 0.9367567 0.2369841 0.0632433 -0.2369841
2410000000 0.0619942 -0.2346365 0.9380058 0.2346365 0.9380058 0.2346365 0.0619942 -0.2346365
2431000000 0.0607750 -0.2323151 0.9392250 0.2323151 0.9392250 0.2323151 0.0607750 -0.2323151
2452000000 0.0595848 -0.2300195 0.9404152 0.2300195 0.9404152 0.2300195 0.0595848 -0.2300195
2473000000 0.0584229 -0.2277491 0.9415771 0.2277491 0.9415771 0.2277491 0.0584229 -0.2277491
2494000000 0.0572884 -0.2255036 0.9427116 0.2255036 0.9427116 0.2255036 0.0572884 -0.2255036
2515000000 0.0561805 -0.2232826 0.9438195 0.2232826 0.9438195 0.2232826 0.0561805 -0.2232826
2536000000 0.0550984 -0.2210856 0.9449016 0.2210856 0.9449016 0.2210856 0.0550984 -0.2210856
2557000000 0.0540414 -0.2189123 0.9459586 0.2189123 0.9459586 0.2189123 0.0540414 -0.2189123
2578000000 0.0530088 -0.2167623 0.9469912 0.2167623 0.9469912 0.2167623 0.0530088 -0.2167623
2599000000 0.0519999 -0.2146352 0.9480001 0.2146352 0.9480001 0.2146352 0.0519999 -0.2146352
2620000000 0.0510141 -0.2125306 0.9489859 0.2125306 0.9489859 0.2125306 0.0510141 -0.2125306
2641000000 0.0500506 -0.2104481 0.9499494 0.2104481 0.9499494 0.2104481 0.0500506 -0.2104481
2662000000 0.0491089 -0.2083874 0.9508911 0.2083874 0.9508911 0.2083874 0.0491089 -0.2083874
2683000000 0.0481884 -0.2063481 0.9518116 0.2063481 0.9518116 0.2063481 0.0481884 -0.2063481
2704000000 0.0472885 -0.2043298 0.9527115 0.2043298 0.9527115 0.2043298 0.0472885 -0.2043298
2725000000 0.0464086 -0.2023322 0.9535914 0.2023322 0.9535914 0.2023322 0.0464086 -0.2023322
2746000000 0.0455483 -0.2003550 0.9544517 0.2003550 0.9544517 0.2003550 0.0455483 -0.2003550
2767000000 0.0447069 -0.1983977 0.9552931 0.1983977 0.9552931 0.1983977 0.0447069 -0.1983977
2788000000 0.0438840 -0.1964601 0.9561160 0.1964601 0.9561160 0.1964601 0.0438840 -0.1964601
2809000000 0.0430790 -0.1945419 0.9569210 0.1945419 0.9569210 0.1945419 0.0430790 -0.1945419
2830000000 0.0422916 -0.1926427 0.9577084 0.1926427 0.9577084 0.1926427 0.0422916 -0.1926427
2851000000 0.0415213 -0.1907622 0.9584787 0.1907622 0.9584787 0.1907622 0.0415213 -0.1907622
2872000000 0.0407676 -0.1889001 0.9592324 0.1889001 0.9592324 0.1889001 0.0407676 -0.1889001
2893000000 0.0400300 -0.1870560 0.9599700 0.1870560 0.9599700 0.1870560 0.0400300 -0.1870560
2914000000 0.0393083 -0.1852298 0.9606917 0.1852298 0.9606917 0.1852298 0.0393083 -0.1852298
2935000000 0.0386019 -0.1834210 0.9613981 0.1834210 0.9613981 0.1834210 0.0386019 -0.1834210
2956000000 0.0379104 -0.1816295 0.9620896 0.1816295 0.9620896 0.1816295 0.0379104 -0.1816295
2977000000 0.0372336 -0.1798548 0.9627664 0.1798548 0.9627664 0.1798548 0.0372336 -0.1798548
2998000000 0.0365711 -0.1780968 0.9634289 0.1780968 0.9634289 0.1780968 0.0365711 -0.1780968
3019000000 0.0359224 -0.1763551 0.9640776 0.1763551 0.9640776 0.1763551 0.0359224 -0.1763551
3040000000 0.0352873 -0.1746296 0.9647127 0.1746296 0.9647127 0.1746296 0.0352873 -0.1746296
3061000000 0.0346654 -0.1729198 0.9653346 0.1729198 0.9653346 0.1729198 0.0346654 -0.1729198
3082000000 0.0340564 -0.1712256 0.9659436 0.1712256 0.9659436 0.1712256 0.0340564 -0.1712256
3103000000 0.0334600 -0.1695468 0.9665400 0.1695468 0.9665400 0.1695468 0.0334600 -0.1695468
3124000000 0.0328759 -0.1678830 0.9671241 0.1678830 0.9671241 0.1678830 0.0328759 -0.1678830
3145000000 0.0323037 -0.1662340 0.9676963 0.1662340 0.9676963 0.1662340 0.0323037 -0.1662340
3166000000 0.0317433 -0.1645995 0.9682567 0.1645995 0.9682567 0.1645995 0.0317433 -0.1645995
3187000000 0.0311943 -0.1629794 0.9688057 0.1629794 0.9688057 0.1629794 0.0311943 -0.1629794
3208000000 0.0306565 -0.1613734 0.9693435 0.1613734 0.9693435 0.1613734 0.0306565 -0.1613734
3229000000 0.0301295 -0.1597813 0.9698705 0.1597813 0.9698705 0.1597813 0.0301295 -0.1597813
3250000000 0.0296133 -0.1582028 0.9703867 0.1582028 0.9703867 0.1582028 0.0296133 -0.1582028
3271000000 0.0291074 -0.1566378 0.9708926 0.1566378 0.9708926 0.1566378 0.0291074 -0.1566378
3292000000 0.0286117 -0.1550859 0.9713883 0.1550859 0.9713883 0.1550859 0.0286117 -0.1550859
3313000000 0.0281259 -0.1535471 0.9718741 0.1535471 0.9718741 0.1535471 0.0281259 -0.1535471
3334000000 0.0276499 -0.1520210 0.9723501 0.1520210 0.9723501 0.1520210 0.0276499 -0.1520210
3355000000 0.0271833 -0.1505076 0.9728167 0.1505076 0.9728167 0.1505076 0.0271833 -0.1505076
3376000000 0.0267261 -0.1490065 0.9732739 0.1490065 0.9732739 0.1490065 0.0267261 -0.1490065
3397000000 0.0262779 -0.1475175 0.9737221 0.1475175 0.9737221 0.1475175 0.0262779 -0.1475175
3418000000 0.0258386 -0.1460406 0.9741614 0.1460406 0.9741614 0.1460406 0.0258386 -0.1460406
3439000000 0.0254080 -0.1445755 0.9745920 0.1445755 0.9745920 0.1445755 0.0254080 -0.1445755
3460000000 0.0249860 -0.1431220 0.9750140 0.1431220 0.9750140 0.1431220 0.0249860 -0.1431220
3481000000 0.0245722 -0.1416799 0.9754278 0.1416799 0.9754278 0.1416799 0.0245722 -0.1416799
3502000000 0.0241666 -0.1402490 0.9758334 0.1402490 0.9758334 0.1402490 0.0241666 -0.1402490
3523000000 0.0237689 -0.1388292 0.9762311 0.1388292 0.9762311 0.1388292 0.0237689 -0.1388292
3544000000 0.0233791 -0.1374203 0.9766209 0.1374203 0.9766209 0.1374203 0.0233791 -0.1374203
3565000000 0.0229969 -0.1360221 0.9770031 0.1360221 0.9770031 0.1360221 0.0229969 -0.1360221
3586000000 0.0226221 -0.1346345 0.9773779 0.1346345 0.9773779 0.1346345 0.0226221 -0.1346345
3607000000 0.0222547 -0.1332572 0.9777453 0.1332572 0.9777453 0.1332572 0.0222547 -0.1332572
3628000000 0.0218945 -0.1318902 0.9781055 0.1318902 0.9781055 0.1318902 0.0218945 -0.1318902
3649000000 0.0215413 -0.1305332 0.9784587 0.1305332 0.9784587 0.1305332 0.0215413 -0.1305332
3670000000 0.0211950 -0.1291862 0.9788050 0.1291862 0.9788050 0.1291862 0.0211950 -0.1291862
3691000000 0.0208554 -0.1278488 0.9791446 0.1278488 0.9791446 0.1278488 0.0208554 -0.1278488
3712000000 0.0205225 -0.1265211 0.9794775 0.1265211 0.9794775 0.1265211 0.0205225 -0.1265211
3733000000 0.0201961 -0.1252028 0.9798039 0.1252028 0.9798039 0.1252028 0.0201961 -0.1252028
3754000000 0.0198760 -0.1238939 0.9801240 0.1238939 0.9801240 0.1238939 0.0198760 -0.1238939
3775000000 0.0195621 -0.1225941 0.9804379 0.1225941 0.9804379 0.1225941 0.0195621 -0.1225941
3796000000 0.0192543 -0.1213032 0.9807457 0.1213032 0.9807457 0.1213032 0.0192543 -0.1213032
3817000000 0.0189526 -0.1200213 0.9810474 0.1200213 0.9810474 0.1200213 0.0189526 -0.1200213
3838000000 0.0186567 -0.1187481 0.9813433 0.1187481 0.9813433 0.1187481 0.0186567 -0.1187481
3859000000 0.0183666 -0.1174835 0.9816334 0.1174835 0.9816334 0.1174835 0.0183666 -0.1174835
3880000000 0.0180822 -0.1162274 0.9819178 0.1162274 0.9819178 0.1162274 0.0180822 -0.1162274
3901000000 0.0178033 -0.1149796 0.9821967 0.1149796 0.9821967 0.1149796 0.0178033 -0.1149796
3922000000 0.0175299 -0.1137400 0.9824701 0.1137400 0.9824701 0.1137400 0.0175299 -0.1137400
3943000000 0.0172618 -0.1125085 0.9827382 0.1125085 0.9827382 0.1125085 0.0172618 -0.1125085
3964000000 0.0169989 -0.1112850 0.9830011 0.1112850 0.9830011 0.1112850 0.0169989 -0.1112850
3985000000 0.0167413 -0.1100693 0.9832587 0.1100693 0.9832587 0.1100693 0.0167413 -0.1100693
4006000000 0.0164887 -0.1088613 0.9835113 0.1088613 0.9835113 0.1088613 0.0164887 -0.1088613
4027000000 0.0162411 -0.1076609 0.9837589 0.1076609 0.9837589 0.1076609 0.0162411 -0.1076609
4048000000 0.0159983 -0.1064680 0.9840017 0.1064680 0.9840017 0.1064680 0.0159983 -0.1064680
4069000000 0.0157604 -0.1052824 0.9842396 0.1052824 0.9842396 0.1052824 0.0157604 -0.1052824
4090000000 0.0155272 -0.1041041 0.9844728 0.1041041 0.9844728 0.1041041 0.0155272 -0.1041041
4111000000 0.0152986 -0.1029330 0.9847014 0.1029330 0.9847014 0.1029330 0.0152986 -0.1029330
4132000000 0.0150746 -0.1017689 0.9849254 0.1017689 0.9849254 0.1017689 0.0150746 -0.1017689
4153000000 0.0148550 -0.1006117 0.9851450 0.1006117 0.9851450 0.1006117 0.0148550 -0.1006117
4174000000 0.0146399 -0.0994613 0.9853601 0.0994613 0.9853601 0.0994613 0.0146399 -0.0994613
4195000000 0.0144291 -0.0983176 0.9855709 0.0983176 0.9855709 0.0983176 0.0144291 -0.0983176
4216000000 0.0142226 -0.0971805 0.9857774 0.0971805 0.9857774 0.0971805 0.0142226 -0.0971805
4237000000 0.0140203 -0.0960500 0.9859797 0.0960500 0.9859797 0.0960500 0.0140203 -0.0960500
4258000000 0.0138220 -0.0949258 0.9861780 0.0949258 0.9861780 0.0949258 0.0138220 -0.0949258
4279000000 0.0136279 -0.0938080 0.9863721 0.0938080 0.9863721 0.0938080 0.0136279 -0.0938080
4300000000 0.0134377 -0.0926964 0.9865623 0.0926964 0.9865623 0.0926964 0.0134377 -0.0926964
4321000000 0.0132515 -0.0915909 0.9867485 0.0915909 0.9867485 0.0915909 0.0132515 -0.0915909
4342000000 0.0130691 -0.0904914 0.9869309 0.0904914 0.9869309 0.0904914 0.0130691 -0.0904914
4363000000 0.0128905 -0.0893978 0.9871095 0.0893978 0.9871095 0.0893978 0.0128905 -0.0893978
4384000000 0.0127157 -0.0883101 0.9872843 0.0883101 0.9872843 0.0883101 0.0127157 -0.0883101
4405000000 0.0125446 -0.0872281 0.9874554 0.0872281 0.9874554 0.0872281 0.0125446 -0.0872281
4426000000 0.0123771 -0.0861518 0.9876229 0.0861518 0.9876229 0.0861518 0.0123771 -0.0861518
4447000000 0.0122132 -0.0850811 0.9877868 0.0850811 0.9877868 0.0850811 0.0122132 -0.0850811
4468000000 0.0120529 -0.0840158 0.9879471 0.0840158 0.9879471 0.0840158 0.0120529 -0.0840158
4489000000 0.0118960 -0.0829560 0.9881040 0.0829560 0.9881040 0.0829560 0.0118960 -0.0829560
4510000000 0.0117425 -0.0819014 0.9882575 0.0819014 0.9882575 0.0819014 0.0117425 -0.0819014
