!Murata Part Number: GRM0334C2AR70BA01
!These Parameters are Measured in Series Mode Connection
!Data Generated on Mar 30, 2021
!       o--ll--o
!Port1            Port2
!       o------o
!Operation Temp=25[degC], DC Bias Voltage=0[V]
!Freq. Start=100[MHz] Stop=20[GHz] 401[Steps]
# Hz S RI R 50
!Freq.(Hz) S11(Real) S11(Imag) S21(Real) S21(Imag) S12(Real) S12(Imag) S22(Real) S22(Imag)
100000000 0.9980529 -0.0438996 0.0019471 0.0438996 0.0019471 0.0438996 0.9980529 -0.0438996
149750000 0.9956433 -0.0655863 0.0043567 0.0655863 0.0043567 0.0655863 0.9956433 -0.0655863
199500000 0.9922917 -0.0870913 0.0077083 0.0870913 0.0077083 0.0870913 0.9922917 -0.0870913
249250000 0.9880156 -0.1083568 0.0119844 0.1083568 0.0119844 0.1083568 0.9880156 -0.1083568
299000000 0.9828375 -0.1293269 0.0171625 0.1293269 0.0171625 0.1293269 0.9828375 -0.1293269
348750000 0.9767837 -0.1499483 0.0232163 0.1499483 0.0232163 0.1499483 0.9767837 -0.1499483
398500000 0.9698849 -0.1701707 0.0301151 0.1701707 0.0301151 0.1701707 0.9698849 -0.1701707
448250000 0.9621753 -0.1899470 0.0378247 0.1899470 0.0378247 0.1899470 0.9621753 -0.1899470
498000000 0.9536923 -0.2092336 0.0463077 0.2092336 0.0463077 0.2092336 0.9536923 -0.2092336
547750000 0.9444761 -0.2279909 0.0555239 0.2279909 0.0555239 0.2279909 0.9444761 -0.2279909
597500000 0.9345693 -0.2461831 0.0654307 0.2461831 0.0654307 0.2461831 0.9345693 -0.2461831
647250000 0.9240162 -0.2637785 0.0759838 0.2637785 0.0759838 0.2637785 0.9240162 -0.2637785
697000000 0.9128629 -0.2807497 0.0871371 0.2807497 0.0871371 0.2807497 0.9128629 -0.2807497
746750000 0.9011562 -0.2970736 0.0988438 0.2970736 0.0988438 0.2970736 0.9011562 -0.2970736
796500000 0.8889434 -0.3127308 0.1110566 0.3127308 0.1110566 0.3127308 0.8889434 -0.3127308
846250000 0.8762722 -0.3277064 0.1237278 0.3277064 0.1237278 0.3277064 0.8762722 -0.3277064
896000000 0.8631900 -0.3419892 0.1368100 0.3419892 0.1368100 0.3419892 0.8631900 -0.3419892
945750000 0.8497435 -0.3555719 0.1502565 0.3555719 0.1502565 0.3555719 0.8497435 -0.3555719
995500000 0.8359786 -0.3684506 0.1640214 0.3684506 0.1640214 0.3684506 0.8359786 -0.3684506
1045250000 0.8219402 -0.3806250 0.1780598 0.3806250 0.1780598 0.3806250 0.8219402 -0.3806250
1095000000 0.8076714 -0.3920977 0.1923286 0.3920977 0.1923286 0.3920977 0.8076714 -0.3920977
1144750000 0.7932141 -0.4028742 0.2067859 0.4028742 0.2067859 0.4028742 0.7932141 -0.4028742
1194500000 0.7786081 -0.4129628 0.2213919 0.4129628 0.2213919 0.4129628 0.7786081 -0.4129628
1244250000 0.7638914 -0.4223739 0.2361086 0.4223739 0.2361086 0.4223739 0.7638914 -0.4223739
1294000000 0.7491000 -0.4311202 0.2509000 0.4311202 0.2509000 0.4311202 0.7491000 -0.4311202
1343750000 0.7342678 -0.4392161 0.2657322 0.4392161 0.2657322 0.4392161 0.7342678 -0.4392161
1393500000 0.7194264 -0.4466776 0.2805736 0.4466776 0.2805736 0.4466776 0.7194264 -0.4466776
1443250000 0.7046053 -0.4535221 0.2953947 0.4535221 0.2953947 0.4535221 0.7046053 -0.4535221
1493000000 0.6898318 -0.4597681 0.3101682 0.4597681 0.3101682 0.4597681 0.6898318 -0.4597681
1542750000 0.6751313 -0.4654348 0.3248687 0.4654348 0.3248687 0.4654348 0.6751313 -0.4654348
1592500000 0.6605267 -0.4705425 0.3394733 0.4705425 0.3394733 0.4705425 0.6605267 -0.4705425
1642250000 0.6460392 -0.4751118 0.3539608 0.4751118 0.3539608 0.4751118 0.6460392 -0.4751118
1692000000 0.6316877 -0.4791635 0.3683123 0.4791635 0.3683123 0.4791635 0.6316877 -0.4791635
1741750000 0.6174893 -0.4827188 0.3825107 0.4827188 0.3825107 0.4827188 0.6174893 -0.4827188
1791500000 0.6034594 -0.4857989 0.3965406 0.4857989 0.3965406 0.4857989 0.6034594 -0.4857989
1841250000 0.5896116 -0.4884250 0.4103884 0.4884250 0.4103884 0.4884250 0.5896116 -0.4884250
1891000000 0.5759578 -0.4906180 0.4240422 0.4906180 0.4240422 0.4906180 0.5759578 -0.4906180
1940750000 0.5625083 -0.4923986 0.4374917 0.4923986 0.4374917 0.4923986 0.5625083 -0.4923986
1990500000 0.5492721 -0.4937872 0.4507279 0.4937872 0.4507279 0.4937872 0.5492721 -0.4937872
2040250000 0.5362567 -0.4948036 0.4637433 0.4948036 0.4637433 0.4948036 0.5362567 -0.4948036
2090000000 0.5234684 -0.4954674 0.4765316 0.4954674 0.4765316 0.4954674 0.5234684 -0.4954674
2139750000 0.5109125 -0.4957974 0.4890875 0.4957974 0.4890875 0.4957974 0.5109125 -0.4957974
2189500000 0.4985929 -0.4958120 0.5014071 0.4958120 0.5014071 0.4958120 0.4985929 -0.4958120
2239250000 0.4865127 -0.4955290 0.5134873 0.4955290 0.5134873 0.4955290 0.4865127 -0.4955290
2289000000 0.4746742 -0.4949656 0.5253258 0.4949656 0.5253258 0.4949656 0.4746742 -0.4949656
2338750000 0.4630787 -0.4941381 0.5369213 0.4941381 0.5369213 0.4941381 0.4630787 -0.4941381
2388500000 0.4517268 -0.4930626 0.5482732 0.4930626 0.5482732 0.4930626 0.4517268 -0.4930626
2438250000 0.4406184 -0.4917543 0.5593816 0.4917543 0.5593816 0.4917543 0.4406184 -0.4917543
2488000000 0.4297529 -0.4902277 0.5702471 0.4902277 0.5702471 0.4902277 0.4297529 -0.4902277
2537750000 0.4191291 -0.4884968 0.5808709 0.4884968 0.5808709 0.4884968 0.4191291 -0.4884968
2587500000 0.4087453 -0.4865750 0.5912547 0.4865750 0.5912547 0.4865750 0.4087453 -0.4865750
2637250000 0.3985994 -0.4844748 0.6014006 0.4844748 0.6014006 0.4844748 0.3985994 -0.4844748
2687000000 0.3886888 -0.4822085 0.6113112 0.4822085 0.6113112 0.4822085 0.3886888 -0.4822085
2736750000 0.3790108 -0.4797875 0.6209892 0.4797875 0.6209892 0.4797875 0.3790108 -0.4797875
2786500000 0.3695622 -0.4772227 0.6304378 0.4772227 0.6304378 0.4772227 0.3695622 -0.4772227
2836250000 0.3603396 -0.4745245 0.6396604 0.4745245 0.6396604 0.4745245 0.3603396 -0.4745245
2886000000 0.3513396 -0.4717026 0.6486604 0.4717026 0.6486604 0.4717026 0.3513396 -0.4717026
2935750000 0.3425583 -0.4687665 0.6574417 0.4687665 0.6574417 0.4687665 0.3425583 -0.4687665
2985500000 0.3339919 -0.4657248 0.6660081 0.4657248 0.6660081 0.4657248 0.3339919 -0.4657248
3035250000 0.3256363 -0.4625858 0.6743637 0.4625858 0.6743637 0.4625858 0.3256363 -0.4625858
3085000000 0.3174874 -0.4593575 0.6825126 0.4593575 0.6825126 0.4593575 0.3174874 -0.4593575
3134750000 0.3095411 -0.4560472 0.6904589 0.4560472 0.6904589 0.4560472 0.3095411 -0.4560472
3184500000 0.3017931 -0.4526619 0.6982069 0.4526619 0.6982069 0.4526619 0.3017931 -0.4526619
3234250000 0.2942391 -0.4492081 0.7057609 0.4492081 0.7057609 0.4492081 0.2942391 -0.4492081
3284000000 0.2868748 -0.4456920 0.7131252 0.4456920 0.7131252 0.4456920 0.2868748 -0.4456920
3333750000 0.2796960 -0.4421196 0.7203040 0.4421196 0.7203040 0.4421196 0.2796960 -0.4421196
3383500000 0.2726984 -0.4384961 0.7273016 0.4384961 0.7273016 0.4384961 0.2726984 -0.4384961
3433250000 0.2658777 -0.4348268 0.7341223 0.4348268 0.7341223 0.4348268 0.2658777 -0.4348268
3483000000 0.2592297 -0.4311164 0.7407703 0.4311164 0.7407703 0.4311164 0.2592297 -0.4311164
3532750000 0.2527501 -0.4273696 0.7472499 0.4273696 0.7472499 0.4273696 0.2527501 -0.4273696
3582500000 0.2464349 -0.4235905 0.7535651 0.4235905 0.7535651 0.4235905 0.2464349 -0.4235905
3632250000 0.2402799 -0.4197832 0.7597201 0.4197832 0.7597201 0.4197832 0.2402799 -0.4197832
3682000000 0.2342812 -0.4159513 0.7657188 0.4159513 0.7657188 0.4159513 0.2342812 -0.4159513
3731750000 0.2284347 -0.4120983 0.7715653 0.4120983 0.7715653 0.4120983 0.2284347 -0.4120983
3781500000 0.2227366 -0.4082275 0.7772634 0.4082275 0.7772634 0.4082275 0.2227366 -0.4082275
3831250000 0.2171830 -0.4043419 0.7828170 0.4043419 0.7828170 0.4043419 0.2171830 -0.4043419
3881000000 0.2117702 -0.4004444 0.7882298 0.4004444 0.7882298 0.4004444 0.2117702 -0.4004444
3930750000 0.2064945 -0.3965377 0.7935055 0.3965377 0.7935055 0.3965377 0.2064945 -0.3965377
3980500000 0.2013522 -0.3926241 0.7986478 0.3926241 0.7986478 0.3926241 0.2013522 -0.3926241
4030250000 0.1963400 -0.3887060 0.8036600 0.3887060 0.8036600 0.3887060 0.1963400 -0.3887060
4080000000 0.1914543 -0.3847856 0.8085457 0.3847856 0.8085457 0.3847856 0.1914543 -0.3847856
4129750000 0.1866917 -0.3808648 0.8133083 0.3808648 0.8133083 0.3808648 0.1866917 -0.3808648
4179500000 0.1820491 -0.3769455 0.8179509 0.3769455 0.8179509 0.3769455 0.1820491 -0.3769455
4229250000 0.1775232 -0.3730295 0.8224768 0.3730295 0.8224768 0.3730295 0.1775232 -0.3730295
4279000000 0.1731108 -0.3691182 0.8268892 0.3691182 0.8268892 0.3691182 0.1731108 -0.3691182
4328750000 0.1688090 -0.3652133 0.8311910 0.3652133 0.8311910 0.3652133 0.1688090 -0.3652133
4378500000 0.1646148 -0.3613161 0.8353852 0.3613161 0.8353852 0.3613161 0.1646148 -0.3613161
4428250000 0.1605253 -0.3574278 0.8394747 0.3574278 0.8394747 0.3574278 0.1605253 -0.3574278
4478000000 0.1565377 -0.3535496 0.8434623 0.3535496 0.8434623 0.3535496 0.1565377 -0.3535496
4527750000 0.1526492 -0.3496826 0.8473508 0.3496826 0.8473508 0.3496826 0.1526492 -0.3496826
4577500000 0.1488573 -0.3458278 0.8511427 0.3458278 0.8511427 0.3458278 0.1488573 -0.3458278
4627250000 0.1451594 -0.3419861 0.8548406 0.3419861 0.8548406 0.3419861 0.1451594 -0.3419861
4677000000 0.1415528 -0.3381584 0.8584472 0.3381584 0.8584472 0.3381584 0.1415528 -0.3381584
4726750000 0.1380353 -0.3343454 0.8619647 0.3343454 0.8619647 0.3343454 0.1380353 -0.3343454
4776500000 0.1346043 -0.3305478 0.8653957 0.3305478 0.8653957 0.3305478 0.1346043 -0.3305478
4826250000 0.1312577 -0.3267663 0.8687423 0.3267663 0.8687423 0.3267663 0.1312577 -0.3267663
4876000000 0.1279932 -0.3230014 0.8720068 0.3230014 0.8720068 0.3230014 0.1279932 -0.3230014
4925750000 0.1248087 -0.3192536 0.8751913 0.3192536 0.8751913 0.3192536 0.1248087 -0.3192536
4975500000 0.1217019 -0.3155236 0.8782981 0.3155236 0.8782981 0.3155236 0.1217019 -0.3155236
5025250000 0.1186709 -0.3118115 0.8813291 0.3118115 0.8813291 0.3118115 0.1186709 -0.3118115
5075000000 0.1157137 -0.3081180 0.8842863 0.3081180 0.8842863 0.3081180 0.1157137 -0.3081180
5124750000 0.1128283 -0.3044433 0.8871717 0.3044433 0.8871717 0.3044433 0.1128283 -0.3044433
5174500000 0.1100129 -0.3007876 0.8899871 0.3007876 0.8899871 0.3007876 0.1100129 -0.3007876
5224250000 0.1072656 -0.2971513 0.8927344 0.2971513 0.8927344 0.2971513 0.1072656 -0.2971513
5274000000 0.1045848 -0.2935347 0.8954152 0.2935347 0.8954152 0.2935347 0.1045848 -0.2935347
5323750000 0.1019687 -0.2899378 0.8980313 0.2899378 0.8980313 0.2899378 0.1019687 -0.2899378
5373500000 0.0994155 -0.2863609 0.9005845 0.2863609 0.9005845 0.2863609 0.0994155 -0.2863609
5423250000 0.0969238 -0.2828042 0.9030762 0.2828042 0.9030762 0.2828042 0.0969238 -0.2828042
5473000000 0.0944920 -0.2792677 0.9055080 0.2792677 0.9055080 0.2792677 0.0944920 -0.2792677
5522750000 0.0921184 -0.2757515 0.9078816 0.2757515 0.9078816 0.2757515 0.0921184 -0.2757515
5572500000 0.0898018 -0.2722557 0.9101982 0.2722557 0.9101982 0.2722557 0.0898018 -0.2722557
5622250000 0.0875405 -0.2687804 0.9124595 0.2687804 0.9124595 0.2687804 0.0875405 -0.2687804
5672000000 0.0853333 -0.2653255 0.9146667 0.2653255 0.9146667 0.2653255 0.0853333 -0.2653255
5721750000 0.0831788 -0.2618912 0.9168212 0.2618912 0.9168212 0.2618912 0.0831788 -0.2618912
5771500000 0.0810757 -0.2584773 0.9189243 0.2584773 0.9189243 0.2584773 0.0810757 -0.2584773
5821250000 0.0790227 -0.2550839 0.9209773 0.2550839 0.9209773 0.2550839 0.0790227 -0.2550839
5871000000 0.0770186 -0.2517110 0.9229814 0.2517110 0.9229814 0.2517110 0.0770186 -0.2517110
5920750000 0.0750622 -0.2483584 0.9249378 0.2483584 0.9249378 0.2483584 0.0750622 -0.2483584
5970500000 0.0731523 -0.2450262 0.9268477 0.2450262 0.9268477 0.2450262 0.0731523 -0.2450262
6020250000 0.0712878 -0.2417142 0.9287122 0.2417142 0.9287122 0.2417142 0.0712878 -0.2417142
6070000000 0.0694677 -0.2384224 0.9305323 0.2384224 0.9305323 0.2384224 0.0694677 -0.2384224
6119750000 0.0676908 -0.2351507 0.9323092 0.2351507 0.9323092 0.2351507 0.0676908 -0.2351507
6169500000 0.0659561 -0.2318990 0.9340439 0.2318990 0.9340439 0.2318990 0.0659561 -0.2318990
6219250000 0.0642627 -0.2286671 0.9357373 0.2286671 0.9357373 0.2286671 0.0642627 -0.2286671
6269000000 0.0626095 -0.2254550 0.9373905 0.2254550 0.9373905 0.2254550 0.0626095 -0.2254550
6318750000 0.0609957 -0.2222626 0.9390043 0.2222626 0.9390043 0.2222626 0.0609957 -0.2222626
6368500000 0.0594202 -0.2190896 0.9405798 0.2190896 0.9405798 0.2190896 0.0594202 -0.2190896
6418250000 0.0578823 -0.2159361 0.9421177 0.2159361 0.9421177 0.2159361 0.0578823 -0.2159361
6468000000 0.0563810 -0.2128017 0.9436190 0.2128017 0.9436190 0.2128017 0.0563810 -0.2128017
6517750000 0.0549155 -0.2096864 0.9450845 0.2096864 0.9450845 0.2096864 0.0549155 -0.2096864
6567500000 0.0534851 -0.2065901 0.9465149 0.2065901 0.9465149 0.2065901 0.0534851 -0.2065901
6617250000 0.0520888 -0.2035125 0.9479112 0.2035125 0.9479112 0.2035125 0.0520888 -0.2035125
6667000000 0.0507260 -0.2004536 0.9492740 0.2004536 0.9492740 0.2004536 0.0507260 -0.2004536
6716750000 0.0493959 -0.1974131 0.9506041 0.1974131 0.9506041 0.1974131 0.0493959 -0.1974131
6766500000 0.0480977 -0.1943909 0.9519023 0.1943909 0.9519023 0.1943909 0.0480977 -0.1943909
6816250000 0.0468309 -0.1913869 0.9531691 0.1913869 0.9531691 0.1913869 0.0468309 -0.1913869
6866000000 0.0455946 -0.1884008 0.9544054 0.1884008 0.9544054 0.1884008 0.0455946 -0.1884008
6915750000 0.0443882 -0.1854324 0.9556118 0.1854324 0.9556118 0.1854324 0.0443882 -0.1854324
6965500000 0.0432111 -0.1824817 0.9567889 0.1824817 0.9567889 0.1824817 0.0432111 -0.1824817
7015250000 0.0420626 -0.1795485 0.9579374 0.1795485 0.9579374 0.1795485 0.0420626 -0.1795485
7065000000 0.0409422 -0.1766325 0.9590578 0.1766325 0.9590578 0.1766325 0.0409422 -0.1766325
7114750000 0.0398492 -0.1737336 0.9601508 0.1737336 0.9601508 0.1737336 0.0398492 -0.1737336
7164500000 0.0387831 -0.1708517 0.9612169 0.1708517 0.9612169 0.1708517 0.0387831 -0.1708517
7214250000 0.0377433 -0.1679865 0.9622567 0.1679865 0.9622567 0.1679865 0.0377433 -0.1679865
7264000000 0.0367292 -0.1651378 0.9632708 0.1651378 0.9632708 0.1651378 0.0367292 -0.1651378
7313750000 0.0357404 -0.1623056 0.9642596 0.1623056 0.9642596 0.1623056 0.0357404 -0.1623056
7363500000 0.0347763 -0.1594895 0.9652237 0.1594895 0.9652237 0.1594895 0.0347763 -0.1594895
7413250000 0.0338364 -0.1566895 0.9661636 0.1566895 0.9661636 0.1566895 0.0338364 -0.1566895
7463000000 0.0329202 -0.1539054 0.9670798 0.1539054 0.9670798 0.1539054 0.0329202 -0.1539054
7512750000 0.0320272 -0.1511369 0.9679728 0.1511369 0.9679728 0.1511369 0.0320272 -0.1511369
7562500000 0.0311571 -0.1483840 0.9688429 0.1483840 0.9688429 0.1483840 0.0311571 -0.1483840
7612250000 0.0303093 -0.1456463 0.9696907 0.1456463 0.9696907 0.1456463 0.0303093 -0.1456463
7662000000 0.0294833 -0.1429239 0.9705167 0.1429239 0.9705167 0.1429239 0.0294833 -0.1429239
7711750000 0.0286789 -0.1402164 0.9713211 0.1402164 0.9713211 0.1402164 0.0286789 -0.1402164
7761500000 0.0278955 -0.1375237 0.9721045 0.1375237 0.9721045 0.1375237 0.0278955 -0.1375237
7811250000 0.0271327 -0.1348457 0.9728673 0.1348457 0.9728673 0.1348457 0.0271327 -0.1348457
7861000000 0.0263903 -0.1321822 0.9736097 0.1321822 0.9736097 0.1321822 0.0263903 -0.1321822
7910750000 0.0256677 -0.1295329 0.9743323 0.1295329 0.9743323 0.1295329 0.0256677 -0.1295329
7960500000 0.0249646 -0.1268978 0.9750354 0.1268978 0.9750354 0.1268978 0.0249646 -0.1268978
8010250000 0.0242807 -0.1242766 0.9757193 0.1242766 0.9757193 0.1242766 0.0242807 -0.1242766
8060000000 0.0236155 -0.1216693 0.9763845 0.1216693 0.9763845 0.1216693 0.0236155 -0.1216693
8109750000 0.0229688 -0.1190756 0.9770312 0.1190756 0.9770312 0.1190756 0.0229688 -0.1190756
8159500000 0.0223403 -0.1164953 0.9776597 0.1164953 0.9776597 0.1164953 0.0223403 -0.1164953
8209250000 0.0217295 -0.1139283 0.9782705 0.1139283 0.9782705 0.1139283 0.0217295 -0.1139283
8259000000 0.0211362 -0.1113745 0.9788638 0.1113745 0.9788638 0.1113745 0.0211362 -0.1113745
8308750000 0.0205601 -0.1088337 0.9794399 0.1088337 0.9794399 0.1088337 0.0205601 -0.1088337
8358500000 0.0200009 -0.1063057 0.9799991 0.1063057 0.9799991 0.1063057 0.0200009 -0.1063057
8408250000 0.0194582 -0.1037904 0.9805418 0.1037904 0.9805418 0.1037904 0.0194582 -0.1037904
8458000000 0.0189319 -0.1012875 0.9810681 0.1012875 0.9810681 0.1012875 0.0189319 -0.1012875
8507750000 0.0184215 -0.0987971 0.9815785 0.0987971 0.9815785 0.0987971 0.0184215 -0.0987971
8557500000 0.0179269 -0.0963188 0.9820731 0.0963188 0.9820731 0.0963188 0.0179269 -0.0963188
8607250000 0.0174478 -0.0938526 0.9825522 0.0938526 0.9825522 0.0938526 0.0174478 -0.0938526
8657000000 0.0169840 -0.0913983 0.9830160 0.0913983 0.9830160 0.0913983 0.0169840 -0.0913983
8706750000 0.0165351 -0.0889558 0.9834649 0.0889558 0.9834649 0.0889558 0.0165351 -0.0889558
8756500000 0.0161009 -0.0865249 0.9838991 0.0865249 0.9838991 0.0865249 0.0161009 -0.0865249
8806250000 0.0156812 -0.0841054 0.9843188 0.0841054 0.9843188 0.0841054 0.0156812 -0.0841054
8856000000 0.0152758 -0.0816973 0.9847242 0.0816973 0.9847242 0.0816973 0.0152758 -0.0816973
8905750000 0.0148845 -0.0793003 0.9851155 0.0793003 0.9851155 0.0793003 0.0148845 -0.0793003
8955500000 0.0145070 -0.0769144 0.9854930 0.0769144 0.9854930 0.0769144 0.0145070 -0.0769144
9005250000 0.0141430 -0.0745393 0.9858570 0.0745393 0.9858570 0.0745393 0.0141430 -0.0745393
9055000000 0.0137925 -0.0721751 0.9862075 0.0721751 0.9862075 0.0721751 0.0137925 -0.0721751
9104750000 0.0134552 -0.0698214 0.9865448 0.0698214 0.9865448 0.0698214 0.0134552 -0.0698214
9154500000 0.0131309 -0.0674783 0.9868691 0.0674783 0.9868691 0.0674783 0.0131309 -0.0674783
9204250000 0.0128194 -0.0651455 0.9871806 0.0651455 0.9871806 0.0651455 0.0128194 -0.0651455
9254000000 0.0125205 -0.0628229 0.9874795 0.0628229 0.9874795 0.0628229 0.0125205 -0.0628229
9303750000 0.0122340 -0.0605104 0.9877660 0.0605104 0.9877660 0.0605104 0.0122340 -0.0605104
9353500000 0.0119599 -0.0582079 0.9880401 0.0582079 0.9880401 0.0582079 0.0119599 -0.0582079
9403250000 0.0116977 -0.0559152 0.9883023 0.0559152 0.9883023 0.0559152 0.0116977 -0.0559152
9453000000 0.0114476 -0.0536322 0.9885524 0.0536322 0.9885524 0.0536322 0.0114476 -0.0536322
9502750000 0.0112091 -0.0513589 0.9887909 0.0513589 0.9887909 0.0513589 0.0112091 -0.0513589
9552500000 0.0109823 -0.0490949 0.9890177 0.0490949 0.9890177 0.0490949 0.0109823 -0.0490949
9602250000 0.0107668 -0.0468403 0.9892332 0.0468403 0.9892332 0.0468403 0.0107668 -0.0468403
9652000000 0.0105627 -0.0445950 0.9894373 0.0445950 0.9894373 0.0445950 0.0105627 -0.0445950
9701750000 0.0103697 -0.0423587 0.9896303 0.0423587 0.9896303 0.0423587 0.0103697 -0.0423587
9751500000 0.0101877 -0.0401314 0.9898123 0.0401314 0.9898123 0.0401314 0.0101877 -0.0401314
9801250000 0.0100165 -0.0379130 0.9899835 0.0379130 0.9899835 0.0379130 0.0100165 -0.0379130
9851000000 0.0098560 -0.0357034 0.9901440 0.0357034 0.9901440 0.0357034 0.0098560 -0.0357034
9900750000 0.0097061 -0.0335023 0.9902939 0.0335023 0.9902939 0.0335023 0.0097061 -0.0335023
9950500000 0.0095666 -0.0313098 0.9904334 0.0313098 0.9904334 0.0313098 0.0095666 -0.0313098
10000250000 0.0094375 -0.0291257 0.9905625 0.0291257 0.9905625 0.0291257 0.0094375 -0.0291257
10050000000 0.0093185 -0.0269500 0.9906815 0.0269500 0.9906815 0.0269500 0.0093185 -0.0269500
10099750000 0.0092096 -0.0247824 0.9907904 0.0247824 0.9907904 0.0247824 0.0092096 -0.0247824
10149500000 0.0091107 -0.0226229 0.9908893 0.0226229 0.9908893 0.0226229 0.0091107 -0.0226229
10199250000 0.0090215 -0.0204713 0.9909785 0.0204713 0.9909785 0.0204713 0.0090215 -0.0204713
10249000000 0.0089421 -0.0183277 0.9910579 0.0183277 0.9910579 0.0183277 0.0089421 -0.0183277
10298750000 0.0088723 -0.0161918 0.9911277 0.0161918 0.9911277 0.0161918 0.0088723 -0.0161918
10348500000 0.0088121 -0.0140636 0.9911879 0.0140636 0.9911879 0.0140636 0.0088121 -0.0140636
10398250000 0.0087612 -0.0119430 0.9912388 0.0119430 0.9912388 0.0119430 0.0087612 -0.0119430
10448000000 0.0087196 -0.0098298 0.9912804 0.0098298 0.9912804 0.0098298 0.0087196 -0.0098298
10497750000 0.0086872 -0.0077240 0.9913128 0.0077240 0.9913128 0.0077240 0.0086872 -0.0077240
