!Murata Part Number: GRM0335C1H1R3WA01
!These Parameters are Measured in Series Mode Connection
!Data Generated on Mar 30, 2021
!       o--ll--o
!Port1            Port2
!       o------o
!Operation Temp=25[degC], DC Bias Voltage=0[V]
!Freq. Start=100[MHz] Stop=9[GHz] 401[Steps]
# Hz S RI R 50
!Freq.(Hz) S11(Real) S11(Imag) S21(Real) S21(Imag) S12(Real) S12(Imag) S22(Real) S22(Imag)
100000000 0.9933489 -0.0811462 0.0066511 0.0811462 0.0066511 0.0811462 0.9933489 -0.0811462
121000000 0.9902911 -0.0978891 0.0097089 0.0978891 0.0097089 0.0978891 0.9902911 -0.0978891
142000000 0.9866758 -0.1144651 0.0133242 0.1144651 0.0133242 0.1144651 0.9866758 -0.1144651
163000000 0.9825150 -0.1308472 0.0174850 0.1308472 0.0174850 0.1308472 0.9825150 -0.1308472
184000000 0.9778223 -0.1470100 0.0221777 0.1470100 0.0221777 0.1470100 0.9778223 -0.1470100
205000000 0.9726128 -0.1629289 0.0273872 0.1629289 0.0273872 0.1629289 0.9726128 -0.1629289
226000000 0.9669030 -0.1785808 0.0330970 0.1785808 0.0330970 0.1785808 0.9669030 -0.1785808
247000000 0.9607110 -0.1939438 0.0392890 0.1939438 0.0392890 0.1939438 0.9607110 -0.1939438
268000000 0.9540556 -0.2089976 0.0459444 0.2089976 0.0459444 0.2089976 0.9540556 -0.2089976
289000000 0.9469569 -0.2237233 0.0530431 0.2237233 0.0530431 0.2237233 0.9469569 -0.2237233
310000000 0.9394359 -0.2381037 0.0605641 0.2381037 0.0605641 0.2381037 0.9394359 -0.2381037
331000000 0.9315142 -0.2521231 0.0684858 0.2521231 0.0684858 0.2521231 0.9315142 -0.2521231
352000000 0.9232140 -0.2657675 0.0767860 0.2657675 0.0767860 0.2657675 0.9232140 -0.2657675
373000000 0.9145581 -0.2790245 0.0854419 0.2790245 0.0854419 0.2790245 0.9145581 -0.2790245
394000000 0.9055696 -0.2918834 0.0944304 0.2918834 0.0944304 0.2918834 0.9055696 -0.2918834
415000000 0.8962715 -0.3043351 0.1037285 0.3043351 0.1037285 0.3043351 0.8962715 -0.3043351
436000000 0.8866872 -0.3163719 0.1133128 0.3163719 0.1133128 0.3163719 0.8866872 -0.3163719
457000000 0.8768400 -0.3279880 0.1231600 0.3279880 0.1231600 0.3279880 0.8768400 -0.3279880
478000000 0.8667528 -0.3391788 0.1332472 0.3391788 0.1332472 0.3391788 0.8667528 -0.3391788
499000000 0.8564485 -0.3499413 0.1435515 0.3499413 0.1435515 0.3499413 0.8564485 -0.3499413
520000000 0.8459493 -0.3602738 0.1540507 0.3602738 0.1540507 0.3602738 0.8459493 -0.3602738
541000000 0.8352773 -0.3701760 0.1647227 0.3701760 0.1647227 0.3701760 0.8352773 -0.3701760
562000000 0.8244539 -0.3796487 0.1755461 0.3796487 0.1755461 0.3796487 0.8244539 -0.3796487
583000000 0.8134998 -0.3886941 0.1865002 0.3886941 0.1865002 0.3886941 0.8134998 -0.3886941
604000000 0.8024352 -0.3973152 0.1975648 0.3973152 0.1975648 0.3973152 0.8024352 -0.3973152
625000000 0.7912795 -0.4055162 0.2087205 0.4055162 0.2087205 0.4055162 0.7912795 -0.4055162
646000000 0.7800514 -0.4133022 0.2199486 0.4133022 0.2199486 0.4133022 0.7800514 -0.4133022
667000000 0.7687687 -0.4206790 0.2312313 0.4206790 0.2312313 0.4206790 0.7687687 -0.4206790
688000000 0.7574485 -0.4276533 0.2425515 0.4276533 0.2425515 0.4276533 0.7574485 -0.4276533
709000000 0.7461070 -0.4342324 0.2538930 0.4342324 0.2538930 0.4342324 0.7461070 -0.4342324
730000000 0.7347595 -0.4404242 0.2652405 0.4404242 0.2652405 0.4404242 0.7347595 -0.4404242
751000000 0.7234207 -0.4462373 0.2765793 0.4462373 0.2765793 0.4462373 0.7234207 -0.4462373
772000000 0.7121042 -0.4516804 0.2878958 0.4516804 0.2878958 0.4516804 0.7121042 -0.4516804
793000000 0.7008227 -0.4567628 0.2991773 0.4567628 0.2991773 0.4567628 0.7008227 -0.4567628
814000000 0.6895883 -0.4614943 0.3104117 0.4614943 0.3104117 0.4614943 0.6895883 -0.4614943
835000000 0.6784122 -0.4658845 0.3215878 0.4658845 0.3215878 0.4658845 0.6784122 -0.4658845
856000000 0.6673047 -0.4699437 0.3326953 0.4699437 0.3326953 0.4699437 0.6673047 -0.4699437
877000000 0.6562754 -0.4736819 0.3437246 0.4736819 0.3437246 0.4736819 0.6562754 -0.4736819
898000000 0.6453332 -0.4771096 0.3546668 0.4771096 0.3546668 0.4771096 0.6453332 -0.4771096
919000000 0.6344860 -0.4802370 0.3655140 0.4802370 0.3655140 0.4802370 0.6344860 -0.4802370
940000000 0.6237413 -0.4830746 0.3762587 0.4830746 0.3762587 0.4830746 0.6237413 -0.4830746
961000000 0.6131058 -0.4856327 0.3868942 0.4856327 0.3868942 0.4856327 0.6131058 -0.4856327
982000000 0.6025855 -0.4879215 0.3974145 0.4879215 0.3974145 0.4879215 0.6025855 -0.4879215
1003000000 0.5921859 -0.4899513 0.4078141 0.4899513 0.4078141 0.4899513 0.5921859 -0.4899513
1024000000 0.5819118 -0.4917321 0.4180882 0.4917321 0.4180882 0.4917321 0.5819118 -0.4917321
1045000000 0.5717674 -0.4932739 0.4282326 0.4932739 0.4282326 0.4932739 0.5717674 -0.4932739
1066000000 0.5617565 -0.4945864 0.4382435 0.4945864 0.4382435 0.4945864 0.5617565 -0.4945864
1087000000 0.5518824 -0.4956793 0.4481176 0.4956793 0.4481176 0.4956793 0.5518824 -0.4956793
1108000000 0.5421479 -0.4965618 0.4578521 0.4965618 0.4578521 0.4965618 0.5421479 -0.4965618
1129000000 0.5325552 -0.4972432 0.4674448 0.4972432 0.4674448 0.4972432 0.5325552 -0.4972432
1150000000 0.5231064 -0.4977324 0.4768936 0.4977324 0.4768936 0.4977324 0.5231064 -0.4977324
1171000000 0.5138028 -0.4980381 0.4861972 0.4980381 0.4861972 0.4980381 0.5138028 -0.4980381
1192000000 0.5046458 -0.4981688 0.4953542 0.4981688 0.4953542 0.4981688 0.5046458 -0.4981688
1213000000 0.4956362 -0.4981327 0.5043638 0.4981327 0.5043638 0.4981327 0.4956362 -0.4981327
1234000000 0.4867745 -0.4979379 0.5132255 0.4979379 0.5132255 0.4979379 0.4867745 -0.4979379
1255000000 0.4780610 -0.4975920 0.5219390 0.4975920 0.5219390 0.4975920 0.4780610 -0.4975920
1276000000 0.4694956 -0.4971025 0.5305044 0.4971025 0.5305044 0.4971025 0.4694956 -0.4971025
1297000000 0.4610781 -0.4964767 0.5389219 0.4964767 0.5389219 0.4964767 0.4610781 -0.4964767
1318000000 0.4528081 -0.4957214 0.5471919 0.4957214 0.5471919 0.4957214 0.4528081 -0.4957214
1339000000 0.4446848 -0.4948435 0.5553152 0.4948435 0.5553152 0.4948435 0.4446848 -0.4948435
1360000000 0.4367074 -0.4938494 0.5632926 0.4938494 0.5632926 0.4938494 0.4367074 -0.4938494
1381000000 0.4288749 -0.4927454 0.5711251 0.4927454 0.5711251 0.4927454 0.4288749 -0.4927454
1402000000 0.4211861 -0.4915374 0.5788139 0.4915374 0.5788139 0.4915374 0.4211861 -0.4915374
1423000000 0.4136397 -0.4902312 0.5863603 0.4902312 0.5863603 0.4902312 0.4136397 -0.4902312
1444000000 0.4062343 -0.4888323 0.5937657 0.4888323 0.5937657 0.4888323 0.4062343 -0.4888323
1465000000 0.3989683 -0.4873460 0.6010317 0.4873460 0.6010317 0.4873460 0.3989683 -0.4873460
1486000000 0.3918400 -0.4857775 0.6081600 0.4857775 0.6081600 0.4857775 0.3918400 -0.4857775
1507000000 0.3848478 -0.4841316 0.6151522 0.4841316 0.6151522 0.4841316 0.3848478 -0.4841316
1528000000 0.3779898 -0.4824129 0.6220102 0.4824129 0.6220102 0.4824129 0.3779898 -0.4824129
1549000000 0.3712642 -0.4806259 0.6287358 0.4806259 0.6287358 0.4806259 0.3712642 -0.4806259
1570000000 0.3646691 -0.4787749 0.6353309 0.4787749 0.6353309 0.4787749 0.3646691 -0.4787749
1591000000 0.3582026 -0.4768640 0.6417974 0.4768640 0.6417974 0.4768640 0.3582026 -0.4768640
1612000000 0.3518625 -0.4748971 0.6481375 0.4748971 0.6481375 0.4748971 0.3518625 -0.4748971
1633000000 0.3456468 -0.4728778 0.6543532 0.4728778 0.6543532 0.4728778 0.3456468 -0.4728778
1654000000 0.3395536 -0.4708097 0.6604464 0.4708097 0.6604464 0.4708097 0.3395536 -0.4708097
1675000000 0.3335808 -0.4686963 0.6664192 0.4686963 0.6664192 0.4686963 0.3335808 -0.4686963
1696000000 0.3277261 -0.4665407 0.6722739 0.4665407 0.6722739 0.4665407 0.3277261 -0.4665407
1717000000 0.3219877 -0.4643461 0.6780123 0.4643461 0.6780123 0.4643461 0.3219877 -0.4643461
1738000000 0.3163632 -0.4621152 0.6836368 0.4621152 0.6836368 0.4621152 0.3163632 -0.4621152
1759000000 0.3108507 -0.4598511 0.6891493 0.4598511 0.6891493 0.4598511 0.3108507 -0.4598511
1780000000 0.3054481 -0.4575562 0.6945519 0.4575562 0.6945519 0.4575562 0.3054481 -0.4575562
1801000000 0.3001532 -0.4552331 0.6998468 0.4552331 0.6998468 0.4552331 0.3001532 -0.4552331
1822000000 0.2949640 -0.4528843 0.7050360 0.4528843 0.7050360 0.4528843 0.2949640 -0.4528843
1843000000 0.2898784 -0.4505119 0.7101216 0.4505119 0.7101216 0.4505119 0.2898784 -0.4505119
1864000000 0.2848944 -0.4481182 0.7151056 0.4481182 0.7151056 0.4481182 0.2848944 -0.4481182
1885000000 0.2800099 -0.4457053 0.7199901 0.4457053 0.7199901 0.4457053 0.2800099 -0.4457053
1906000000 0.2752230 -0.4432750 0.7247770 0.4432750 0.7247770 0.4432750 0.2752230 -0.4432750
1927000000 0.2705316 -0.4408293 0.7294684 0.4408293 0.7294684 0.4408293 0.2705316 -0.4408293
1948000000 0.2659338 -0.4383698 0.7340662 0.4383698 0.7340662 0.4383698 0.2659338 -0.4383698
1969000000 0.2614277 -0.4358983 0.7385723 0.4358983 0.7385723 0.4358983 0.2614277 -0.4358983
1990000000 0.2570114 -0.4334164 0.7429886 0.4334164 0.7429886 0.4334164 0.2570114 -0.4334164
2011000000 0.2526829 -0.4309255 0.7473171 0.4309255 0.7473171 0.4309255 0.2526829 -0.4309255
2032000000 0.2484405 -0.4284270 0.7515595 0.4284270 0.7515595 0.4284270 0.2484405 -0.4284270
2053000000 0.2442823 -0.4259223 0.7557177 0.4259223 0.7557177 0.4259223 0.2442823 -0.4259223
2074000000 0.2402065 -0.4234127 0.7597935 0.4234127 0.7597935 0.4234127 0.2402065 -0.4234127
2095000000 0.2362114 -0.4208994 0.7637886 0.4208994 0.7637886 0.4208994 0.2362114 -0.4208994
2116000000 0.2322953 -0.4183835 0.7677047 0.4183835 0.7677047 0.4183835 0.2322953 -0.4183835
2137000000 0.2284564 -0.4158660 0.7715436 0.4158660 0.7715436 0.4158660 0.2284564 -0.4158660
2158000000 0.2246930 -0.4133480 0.7753070 0.4133480 0.7753070 0.4133480 0.2246930 -0.4133480
2179000000 0.2210037 -0.4108305 0.7789963 0.4108305 0.7789963 0.4108305 0.2210037 -0.4108305
2200000000 0.2173866 -0.4083142 0.7826134 0.4083142 0.7826134 0.4083142 0.2173866 -0.4083142
2221000000 0.2138404 -0.4058002 0.7861596 0.4058002 0.7861596 0.4058002 0.2138404 -0.4058002
2242000000 0.2103634 -0.4032892 0.7896366 0.4032892 0.7896366 0.4032892 0.2103634 -0.4032892
2263000000 0.2069541 -0.4007819 0.7930459 0.4007819 0.7930459 0.4007819 0.2069541 -0.4007819
2284000000 0.2036111 -0.3982790 0.7963889 0.3982790 0.7963889 0.3982790 0.2036111 -0.3982790
2305000000 0.2003329 -0.3957813 0.7996671 0.3957813 0.7996671 0.3957813 0.2003329 -0.3957813
2326000000 0.1971181 -0.3932892 0.8028819 0.3932892 0.8028819 0.3932892 0.1971181 -0.3932892
2347000000 0.1939653 -0.3908035 0.8060347 0.3908035 0.8060347 0.3908035 0.1939653 -0.3908035
2368000000 0.1908732 -0.3883247 0.8091268 0.3883247 0.8091268 0.3883247 0.1908732 -0.3883247
2389000000 0.1878404 -0.3858533 0.8121596 0.3858533 0.8121596 0.3858533 0.1878404 -0.3858533
2410000000 0.1848656 -0.3833897 0.8151344 0.3833897 0.8151344 0.3833897 0.1848656 -0.3833897
2431000000 0.1819477 -0.3809345 0.8180523 0.3809345 0.8180523 0.3809345 0.1819477 -0.3809345
2452000000 0.1790852 -0.3784880 0.8209148 0.3784880 0.8209148 0.3784880 0.1790852 -0.3784880
2473000000 0.1762771 -0.3760506 0.8237229 0.3760506 0.8237229 0.3760506 0.1762771 -0.3760506
2494000000 0.1735221 -0.3736228 0.8264779 0.3736228 0.8264779 0.3736228 0.1735221 -0.3736228
2515000000 0.1708191 -0.3712048 0.8291809 0.3712048 0.8291809 0.3712048 0.1708191 -0.3712048
2536000000 0.1681669 -0.3687969 0.8318331 0.3687969 0.8318331 0.3687969 0.1681669 -0.3687969
2557000000 0.1655645 -0.3663995 0.8344355 0.3663995 0.8344355 0.3663995 0.1655645 -0.3663995
2578000000 0.1630107 -0.3640128 0.8369893 0.3640128 0.8369893 0.3640128 0.1630107 -0.3640128
2599000000 0.1605046 -0.3616371 0.8394954 0.3616371 0.8394954 0.3616371 0.1605046 -0.3616371
2620000000 0.1580450 -0.3592727 0.8419550 0.3592727 0.8419550 0.3592727 0.1580450 -0.3592727
2641000000 0.1556310 -0.3569196 0.8443690 0.3569196 0.8443690 0.3569196 0.1556310 -0.3569196
2662000000 0.1532616 -0.3545782 0.8467384 0.3545782 0.8467384 0.3545782 0.1532616 -0.3545782
2683000000 0.1509358 -0.3522485 0.8490642 0.3522485 0.8490642 0.3522485 0.1509358 -0.3522485
2704000000 0.1486528 -0.3499308 0.8513472 0.3499308 0.8513472 0.3499308 0.1486528 -0.3499308
2725000000 0.1464115 -0.3476252 0.8535885 0.3476252 0.8535885 0.3476252 0.1464115 -0.3476252
2746000000 0.1442110 -0.3453319 0.8557890 0.3453319 0.8557890 0.3453319 0.1442110 -0.3453319
2767000000 0.1420506 -0.3430509 0.8579494 0.3430509 0.8579494 0.3430509 0.1420506 -0.3430509
2788000000 0.1399294 -0.3407824 0.8600706 0.3407824 0.8600706 0.3407824 0.1399294 -0.3407824
2809000000 0.1378465 -0.3385264 0.8621535 0.3385264 0.8621535 0.3385264 0.1378465 -0.3385264
2830000000 0.1358011 -0.3362831 0.8641989 0.3362831 0.8641989 0.3362831 0.1358011 -0.3362831
2851000000 0.1337924 -0.3340525 0.8662076 0.3340525 0.8662076 0.3340525 0.1337924 -0.3340525
2872000000 0.1318196 -0.3318346 0.8681804 0.3318346 0.8681804 0.3318346 0.1318196 -0.3318346
2893000000 0.1298821 -0.3296296 0.8701179 0.3296296 0.8701179 0.3296296 0.1298821 -0.3296296
2914000000 0.1279790 -0.3274375 0.8720210 0.3274375 0.8720210 0.3274375 0.1279790 -0.3274375
2935000000 0.1261096 -0.3252583 0.8738904 0.3252583 0.8738904 0.3252583 0.1261096 -0.3252583
2956000000 0.1242733 -0.3230920 0.8757267 0.3230920 0.8757267 0.3230920 0.1242733 -0.3230920
2977000000 0.1224693 -0.3209387 0.8775307 0.3209387 0.8775307 0.3209387 0.1224693 -0.3209387
2998000000 0.1206970 -0.3187983 0.8793030 0.3187983 0.8793030 0.3187983 0.1206970 -0.3187983
3019000000 0.1189556 -0.3166709 0.8810444 0.3166709 0.8810444 0.3166709 0.1189556 -0.3166709
3040000000 0.1172447 -0.3145565 0.8827553 0.3145565 0.8827553 0.3145565 0.1172447 -0.3145565
3061000000 0.1155635 -0.3124551 0.8844365 0.3124551 0.8844365 0.3124551 0.1155635 -0.3124551
3082000000 0.1139114 -0.3103666 0.8860886 0.3103666 0.8860886 0.3103666 0.1139114 -0.3103666
3103000000 0.1122878 -0.3082910 0.8877122 0.3082910 0.8877122 0.3082910 0.1122878 -0.3082910
3124000000 0.1106923 -0.3062283 0.8893077 0.3062283 0.8893077 0.3062283 0.1106923 -0.3062283
3145000000 0.1091241 -0.3041785 0.8908759 0.3041785 0.8908759 0.3041785 0.1091241 -0.3041785
3166000000 0.1075827 -0.3021416 0.8924173 0.3021416 0.8924173 0.3021416 0.1075827 -0.3021416
3187000000 0.1060676 -0.3001174 0.8939324 0.3001174 0.8939324 0.3001174 0.1060676 -0.3001174
3208000000 0.1045783 -0.2981060 0.8954217 0.2981060 0.8954217 0.2981060 0.1045783 -0.2981060
3229000000 0.1031143 -0.2961074 0.8968857 0.2961074 0.8968857 0.2961074 0.1031143 -0.2961074
3250000000 0.1016749 -0.2941214 0.8983251 0.2941214 0.8983251 0.2941214 0.1016749 -0.2941214
3271000000 0.1002598 -0.2921480 0.8997402 0.2921480 0.8997402 0.2921480 0.1002598 -0.2921480
3292000000 0.0988685 -0.2901872 0.9011315 0.2901872 0.9011315 0.2901872 0.0988685 -0.2901872
3313000000 0.0975005 -0.2882390 0.9024995 0.2882390 0.9024995 0.2882390 0.0975005 -0.2882390
3334000000 0.0961553 -0.2863031 0.9038447 0.2863031 0.9038447 0.2863031 0.0961553 -0.2863031
3355000000 0.0948325 -0.2843797 0.9051675 0.2843797 0.9051675 0.2843797 0.0948325 -0.2843797
3376000000 0.0935316 -0.2824685 0.9064684 0.2824685 0.9064684 0.2824685 0.0935316 -0.2824685
3397000000 0.0922522 -0.2805696 0.9077478 0.2805696 0.9077478 0.2805696 0.0922522 -0.2805696
3418000000 0.0909940 -0.2786830 0.9090060 0.2786830 0.9090060 0.2786830 0.0909940 -0.2786830
3439000000 0.0897564 -0.2768084 0.9102436 0.2768084 0.9102436 0.2768084 0.0897564 -0.2768084
3460000000 0.0885391 -0.2749458 0.9114609 0.2749458 0.9114609 0.2749458 0.0885391 -0.2749458
3481000000 0.0873416 -0.2730953 0.9126584 0.2730953 0.9126584 0.2730953 0.0873416 -0.2730953
3502000000 0.0861637 -0.2712566 0.9138363 0.2712566 0.9138363 0.2712566 0.0861637 -0.2712566
3523000000 0.0850050 -0.2694297 0.9149950 0.2694297 0.9149950 0.2694297 0.0850050 -0.2694297
3544000000 0.0838650 -0.2676146 0.9161350 0.2676146 0.9161350 0.2676146 0.0838650 -0.2676146
3565000000 0.0827434 -0.2658112 0.9172566 0.2658112 0.9172566 0.2658112 0.0827434 -0.2658112
3586000000 0.0816398 -0.2640193 0.9183602 0.2640193 0.9183602 0.2640193 0.0816398 -0.2640193
3607000000 0.0805540 -0.2622389 0.9194460 0.2622389 0.9194460 0.2622389 0.0805540 -0.2622389
3628000000 0.0794856 -0.2604700 0.9205144 0.2604700 0.9205144 0.2604700 0.0794856 -0.2604700
3649000000 0.0784342 -0.2587123 0.9215658 0.2587123 0.9215658 0.2587123 0.0784342 -0.2587123
3670000000 0.0773996 -0.2569660 0.9226004 0.2569660 0.9226004 0.2569660 0.0773996 -0.2569660
3691000000 0.0763814 -0.2552308 0.9236186 0.2552308 0.9236186 0.2552308 0.0763814 -0.2552308
3712000000 0.0753793 -0.2535067 0.9246207 0.2535067 0.9246207 0.2535067 0.0753793 -0.2535067
3733000000 0.0743931 -0.2517936 0.9256069 0.2517936 0.9256069 0.2517936 0.0743931 -0.2517936
3754000000 0.0734224 -0.2500914 0.9265776 0.2500914 0.9265776 0.2500914 0.0734224 -0.2500914
3775000000 0.0724669 -0.2484001 0.9275331 0.2484001 0.9275331 0.2484001 0.0724669 -0.2484001
3796000000 0.0715264 -0.2467195 0.9284736 0.2467195 0.9284736 0.2467195 0.0715264 -0.2467195
3817000000 0.0706006 -0.2450495 0.9293994 0.2450495 0.9293994 0.2450495 0.0706006 -0.2450495
3838000000 0.0696892 -0.2433902 0.9303108 0.2433902 0.9303108 0.2433902 0.0696892 -0.2433902
3859000000 0.0687920 -0.2417414 0.9312080 0.2417414 0.9312080 0.2417414 0.0687920 -0.2417414
3880000000 0.0679087 -0.2401029 0.9320913 0.2401029 0.9320913 0.2401029 0.0679087 -0.2401029
3901000000 0.0670391 -0.2384748 0.9329609 0.2384748 0.9329609 0.2384748 0.0670391 -0.2384748
3922000000 0.0661828 -0.2368569 0.9338172 0.2368569 0.9338172 0.2368569 0.0661828 -0.2368569
3943000000 0.0653398 -0.2352492 0.9346602 0.2352492 0.9346602 0.2352492 0.0653398 -0.2352492
3964000000 0.0645097 -0.2336516 0.9354903 0.2336516 0.9354903 0.2336516 0.0645097 -0.2336516
3985000000 0.0636923 -0.2320639 0.9363077 0.2320639 0.9363077 0.2320639 0.0636923 -0.2320639
4006000000 0.0628873 -0.2304862 0.9371127 0.2304862 0.9371127 0.2304862 0.0628873 -0.2304862
4027000000 0.0620947 -0.2289182 0.9379053 0.2289182 0.9379053 0.2289182 0.0620947 -0.2289182
4048000000 0.0613141 -0.2273601 0.9386859 0.2273601 0.9386859 0.2273601 0.0613141 -0.2273601
4069000000 0.0605453 -0.2258115 0.9394547 0.2258115 0.9394547 0.2258115 0.0605453 -0.2258115
4090000000 0.0597881 -0.2242725 0.9402119 0.2242725 0.9402119 0.2242725 0.0597881 -0.2242725
4111000000 0.0590424 -0.2227431 0.9409576 0.2227431 0.9409576 0.2227431 0.0590424 -0.2227431
4132000000 0.0583079 -0.2212230 0.9416921 0.2212230 0.9416921 0.2212230 0.0583079 -0.2212230
4153000000 0.0575845 -0.2197122 0.9424155 0.2197122 0.9424155 0.2197122 0.0575845 -0.2197122
4174000000 0.0568719 -0.2182107 0.9431281 0.2182107 0.9431281 0.2182107 0.0568719 -0.2182107
4195000000 0.0561700 -0.2167184 0.9438300 0.2167184 0.9438300 0.2167184 0.0561700 -0.2167184
4216000000 0.0554785 -0.2152351 0.9445215 0.2152351 0.9445215 0.2152351 0.0554785 -0.2152351
4237000000 0.0547973 -0.2137609 0.9452027 0.2137609 0.9452027 0.2137609 0.0547973 -0.2137609
4258000000 0.0541263 -0.2122955 0.9458737 0.2122955 0.9458737 0.2122955 0.0541263 -0.2122955
4279000000 0.0534652 -0.2108390 0.9465348 0.2108390 0.9465348 0.2108390 0.0534652 -0.2108390
4300000000 0.0528140 -0.2093913 0.9471860 0.2093913 0.9471860 0.2093913 0.0528140 -0.2093913
4321000000 0.0521723 -0.2079523 0.9478277 0.2079523 0.9478277 0.2079523 0.0521723 -0.2079523
4342000000 0.0515401 -0.2065218 0.9484599 0.2065218 0.9484599 0.2065218 0.0515401 -0.2065218
4363000000 0.0509172 -0.2050999 0.9490828 0.2050999 0.9490828 0.2050999 0.0509172 -0.2050999
4384000000 0.0503034 -0.2036865 0.9496966 0.2036865 0.9496966 0.2036865 0.0503034 -0.2036865
4405000000 0.0496987 -0.2022815 0.9503013 0.2022815 0.9503013 0.2022815 0.0496987 -0.2022815
4426000000 0.0491028 -0.2008847 0.9508972 0.2008847 0.9508972 0.2008847 0.0491028 -0.2008847
4447000000 0.0485156 -0.1994962 0.9514844 0.1994962 0.9514844 0.1994962 0.0485156 -0.1994962
4468000000 0.0479369 -0.1981158 0.9520631 0.1981158 0.9520631 0.1981158 0.0479369 -0.1981158
4489000000 0.0473667 -0.1967435 0.9526333 0.1967435 0.9526333 0.1967435 0.0473667 -0.1967435
4510000000 0.0468048 -0.1953793 0.9531952 0.1953793 0.9531952 0.1953793 0.0468048 -0.1953793
