!Murata Part Number: GRM0335C1H130GA01
!These Parameters are Measured in Series Mode Connection
!Data Generated on Mar 30, 2021
!       o--ll--o
!Port1            Port2
!       o------o
!Operation Temp=25[degC], DC Bias Voltage=0[V]
!Freq. Start=100[MHz] Stop=9[GHz] 401[Steps]
# Hz S RI R 50
!Freq.(Hz) S11(Real) S11(Imag) S21(Real) S21(Imag) S12(Real) S12(Imag) S22(Real) S22(Imag)
100000000 0.5990383 -0.4893287 0.4009617 0.4893287 0.4009617 0.4893287 0.5990383 -0.4893287
121000000 0.5048971 -0.4990495 0.4951029 0.4990495 0.4951029 0.4990495 0.5048971 -0.4990495
142000000 0.4252564 -0.4932924 0.5747436 0.4932924 0.5747436 0.4932924 0.4252564 -0.4932924
163000000 0.3594063 -0.4785732 0.6405937 0.4785732 0.6405937 0.4785732 0.3594063 -0.4785732
184000000 0.3054894 -0.4591963 0.6945106 0.4591963 0.6945106 0.4591963 0.3054894 -0.4591963
205000000 0.2614331 -0.4378310 0.7385669 0.4378310 0.7385669 0.4378310 0.2614331 -0.4378310
226000000 0.2253446 -0.4160572 0.7746554 0.4160572 0.7746554 0.4160572 0.2253446 -0.4160572
247000000 0.1956341 -0.3947670 0.8043659 0.3947670 0.8043659 0.3947670 0.1956341 -0.3947670
268000000 0.1710183 -0.3744331 0.8289817 0.3744331 0.8289817 0.3744331 0.1710183 -0.3744331
289000000 0.1504809 -0.3552777 0.8495191 0.3552777 0.8495191 0.3552777 0.1504809 -0.3552777
310000000 0.1332231 -0.3373767 0.8667769 0.3373767 0.8667769 0.3373767 0.1332231 -0.3373767
331000000 0.1186184 -0.3207232 0.8813816 0.3207232 0.8813816 0.3207232 0.1186184 -0.3207232
352000000 0.1061739 -0.3052653 0.8938261 0.3052653 0.8938261 0.3052653 0.1061739 -0.3052653
373000000 0.0955005 -0.2909289 0.9044995 0.2909289 0.9044995 0.2909289 0.0955005 -0.2909289
394000000 0.0862892 -0.2776307 0.9137108 0.2776307 0.9137108 0.2776307 0.0862892 -0.2776307
415000000 0.0782932 -0.2652860 0.9217068 0.2652860 0.9217068 0.2652860 0.0782932 -0.2652860
436000000 0.0713139 -0.2538127 0.9286861 0.2538127 0.9286861 0.2538127 0.0713139 -0.2538127
457000000 0.0651905 -0.2431337 0.9348095 0.2431337 0.9348095 0.2431337 0.0651905 -0.2431337
478000000 0.0597922 -0.2331781 0.9402078 0.2331781 0.9402078 0.2331781 0.0597922 -0.2331781
499000000 0.0550114 -0.2238807 0.9449886 0.2238807 0.9449886 0.2238807 0.0550114 -0.2238807
520000000 0.0507596 -0.2151828 0.9492404 0.2151828 0.9492404 0.2151828 0.0507596 -0.2151828
541000000 0.0469633 -0.2070312 0.9530367 0.2070312 0.9530367 0.2070312 0.0469633 -0.2070312
562000000 0.0435609 -0.1993781 0.9564391 0.1993781 0.9564391 0.1993781 0.0435609 -0.1993781
583000000 0.0405010 -0.1921805 0.9594990 0.1921805 0.9594990 0.1921805 0.0405010 -0.1921805
604000000 0.0377399 -0.1853996 0.9622601 0.1853996 0.9622601 0.1853996 0.0377399 -0.1853996
625000000 0.0352409 -0.1790007 0.9647591 0.1790007 0.9647591 0.1790007 0.0352409 -0.1790007
646000000 0.0329725 -0.1729526 0.9670275 0.1729526 0.9670275 0.1729526 0.0329725 -0.1729526
667000000 0.0309078 -0.1672270 0.9690922 0.1672270 0.9690922 0.1672270 0.0309078 -0.1672270
688000000 0.0290236 -0.1617986 0.9709764 0.1617986 0.9709764 0.1617986 0.0290236 -0.1617986
709000000 0.0273000 -0.1566444 0.9727000 0.1566444 0.9727000 0.1566444 0.0273000 -0.1566444
730000000 0.0257197 -0.1517437 0.9742803 0.1517437 0.9742803 0.1517437 0.0257197 -0.1517437
751000000 0.0242675 -0.1470776 0.9757325 0.1470776 0.9757325 0.1470776 0.0242675 -0.1470776
772000000 0.0229305 -0.1426292 0.9770695 0.1426292 0.9770695 0.1426292 0.0229305 -0.1426292
793000000 0.0216971 -0.1383828 0.9783029 0.1383828 0.9783029 0.1383828 0.0216971 -0.1383828
814000000 0.0205571 -0.1343245 0.9794429 0.1343245 0.9794429 0.1343245 0.0205571 -0.1343245
835000000 0.0195017 -0.1304413 0.9804983 0.1304413 0.9804983 0.1304413 0.0195017 -0.1304413
856000000 0.0185229 -0.1267215 0.9814771 0.1267215 0.9814771 0.1267215 0.0185229 -0.1267215
877000000 0.0176139 -0.1231543 0.9823861 0.1231543 0.9823861 0.1231543 0.0176139 -0.1231543
898000000 0.0167683 -0.1197299 0.9832317 0.1197299 0.9832317 0.1197299 0.0167683 -0.1197299
919000000 0.0159807 -0.1164392 0.9840193 0.1164392 0.9840193 0.1164392 0.0159807 -0.1164392
940000000 0.0152460 -0.1132740 0.9847540 0.1132740 0.9847540 0.1132740 0.0152460 -0.1132740
961000000 0.0145600 -0.1102265 0.9854400 0.1102265 0.9854400 0.1102265 0.0145600 -0.1102265
982000000 0.0139185 -0.1072898 0.9860815 0.1072898 0.9860815 0.1072898 0.0139185 -0.1072898
1003000000 0.0133181 -0.1044573 0.9866819 0.1044573 0.9866819 0.1044573 0.0133181 -0.1044573
1024000000 0.0127554 -0.1017229 0.9872446 0.1017229 0.9872446 0.1017229 0.0127554 -0.1017229
1045000000 0.0122276 -0.0990812 0.9877724 0.0990812 0.9877724 0.0990812 0.0122276 -0.0990812
1066000000 0.0117321 -0.0965269 0.9882679 0.0965269 0.9882679 0.0965269 0.0117321 -0.0965269
1087000000 0.0112664 -0.0940553 0.9887336 0.0940553 0.9887336 0.0940553 0.0112664 -0.0940553
1108000000 0.0108283 -0.0916619 0.9891717 0.0916619 0.9891717 0.0916619 0.0108283 -0.0916619
1129000000 0.0104160 -0.0893425 0.9895840 0.0893425 0.9895840 0.0893425 0.0104160 -0.0893425
1150000000 0.0100275 -0.0870934 0.9899725 0.0870934 0.9899725 0.0870934 0.0100275 -0.0870934
1171000000 0.0096612 -0.0849108 0.9903388 0.0849108 0.9903388 0.0849108 0.0096612 -0.0849108
1192000000 0.0093157 -0.0827914 0.9906843 0.0827914 0.9906843 0.0827914 0.0093157 -0.0827914
1213000000 0.0089895 -0.0807321 0.9910105 0.0807321 0.9910105 0.0807321 0.0089895 -0.0807321
1234000000 0.0086814 -0.0787300 0.9913186 0.0787300 0.9913186 0.0787300 0.0086814 -0.0787300
1255000000 0.0083901 -0.0767822 0.9916099 0.0767822 0.9916099 0.0767822 0.0083901 -0.0767822
1276000000 0.0081148 -0.0748862 0.9918852 0.0748862 0.9918852 0.0748862 0.0081148 -0.0748862
1297000000 0.0078542 -0.0730396 0.9921458 0.0730396 0.9921458 0.0730396 0.0078542 -0.0730396
1318000000 0.0076076 -0.0712401 0.9923924 0.0712401 0.9923924 0.0712401 0.0076076 -0.0712401
1339000000 0.0073740 -0.0694856 0.9926260 0.0694856 0.9926260 0.0694856 0.0073740 -0.0694856
1360000000 0.0071528 -0.0677740 0.9928472 0.0677740 0.9928472 0.0677740 0.0071528 -0.0677740
1381000000 0.0069432 -0.0661034 0.9930568 0.0661034 0.9930568 0.0661034 0.0069432 -0.0661034
1402000000 0.0067444 -0.0644721 0.9932556 0.0644721 0.9932556 0.0644721 0.0067444 -0.0644721
1423000000 0.0065560 -0.0628784 0.9934440 0.0628784 0.9934440 0.0628784 0.0065560 -0.0628784
1444000000 0.0063773 -0.0613206 0.9936227 0.0613206 0.9936227 0.0613206 0.0063773 -0.0613206
1465000000 0.0062077 -0.0597973 0.9937923 0.0597973 0.9937923 0.0597973 0.0062077 -0.0597973
1486000000 0.0060469 -0.0583070 0.9939531 0.0583070 0.9939531 0.0583070 0.0060469 -0.0583070
1507000000 0.0058942 -0.0568484 0.9941058 0.0568484 0.9941058 0.0568484 0.0058942 -0.0568484
1528000000 0.0057494 -0.0554202 0.9942506 0.0554202 0.9942506 0.0554202 0.0057494 -0.0554202
1549000000 0.0056119 -0.0540212 0.9943881 0.0540212 0.9943881 0.0540212 0.0056119 -0.0540212
1570000000 0.0054814 -0.0526502 0.9945186 0.0526502 0.9945186 0.0526502 0.0054814 -0.0526502
1591000000 0.0053576 -0.0513062 0.9946424 0.0513062 0.9946424 0.0513062 0.0053576 -0.0513062
1612000000 0.0052400 -0.0499882 0.9947600 0.0499882 0.9947600 0.0499882 0.0052400 -0.0499882
1633000000 0.0051285 -0.0486950 0.9948715 0.0486950 0.9948715 0.0486950 0.0051285 -0.0486950
1654000000 0.0050227 -0.0474259 0.9949773 0.0474259 0.9949773 0.0474259 0.0050227 -0.0474259
1675000000 0.0049223 -0.0461798 0.9950777 0.0461798 0.9950777 0.0461798 0.0049223 -0.0461798
1696000000 0.0048270 -0.0449560 0.9951730 0.0449560 0.9951730 0.0449560 0.0048270 -0.0449560
1717000000 0.0047368 -0.0437537 0.9952632 0.0437537 0.9952632 0.0437537 0.0047368 -0.0437537
1738000000 0.0046512 -0.0425720 0.9953488 0.0425720 0.9953488 0.0425720 0.0046512 -0.0425720
1759000000 0.0045701 -0.0414103 0.9954299 0.0414103 0.9954299 0.0414103 0.0045701 -0.0414103
1780000000 0.0044933 -0.0402678 0.9955067 0.0402678 0.9955067 0.0402678 0.0044933 -0.0402678
1801000000 0.0044206 -0.0391439 0.9955794 0.0391439 0.9955794 0.0391439 0.0044206 -0.0391439
1822000000 0.0043518 -0.0380379 0.9956482 0.0380379 0.9956482 0.0380379 0.0043518 -0.0380379
1843000000 0.0042868 -0.0369492 0.9957132 0.0369492 0.9957132 0.0369492 0.0042868 -0.0369492
1864000000 0.0042253 -0.0358772 0.9957747 0.0358772 0.9957747 0.0358772 0.0042253 -0.0358772
1885000000 0.0041673 -0.0348214 0.9958327 0.0348214 0.9958327 0.0348214 0.0041673 -0.0348214
1906000000 0.0041126 -0.0337813 0.9958874 0.0337813 0.9958874 0.0337813 0.0041126 -0.0337813
1927000000 0.0040611 -0.0327562 0.9959389 0.0327562 0.9959389 0.0327562 0.0040611 -0.0327562
1948000000 0.0040126 -0.0317458 0.9959874 0.0317458 0.9959874 0.0317458 0.0040126 -0.0317458
1969000000 0.0039671 -0.0307495 0.9960329 0.0307495 0.9960329 0.0307495 0.0039671 -0.0307495
1990000000 0.0039243 -0.0297669 0.9960757 0.0297669 0.9960757 0.0297669 0.0039243 -0.0297669
2011000000 0.0038842 -0.0287975 0.9961158 0.0287975 0.9961158 0.0287975 0.0038842 -0.0287975
2032000000 0.0038468 -0.0278410 0.9961532 0.0278410 0.9961532 0.0278410 0.0038468 -0.0278410
2053000000 0.0038118 -0.0268970 0.9961882 0.0268970 0.9961882 0.0268970 0.0038118 -0.0268970
2074000000 0.0037792 -0.0259649 0.9962208 0.0259649 0.9962208 0.0259649 0.0037792 -0.0259649
2095000000 0.0037489 -0.0250446 0.9962511 0.0250446 0.9962511 0.0250446 0.0037489 -0.0250446
2116000000 0.0037209 -0.0241356 0.9962791 0.0241356 0.9962791 0.0241356 0.0037209 -0.0241356
2137000000 0.0036950 -0.0232376 0.9963050 0.0232376 0.9963050 0.0232376 0.0036950 -0.0232376
2158000000 0.0036712 -0.0223502 0.9963288 0.0223502 0.9963288 0.0223502 0.0036712 -0.0223502
2179000000 0.0036494 -0.0214731 0.9963506 0.0214731 0.9963506 0.0214731 0.0036494 -0.0214731
2200000000 0.0036296 -0.0206061 0.9963704 0.0206061 0.9963704 0.0206061 0.0036296 -0.0206061
2221000000 0.0036116 -0.0197488 0.9963884 0.0197488 0.9963884 0.0197488 0.0036116 -0.0197488
2242000000 0.0035954 -0.0189009 0.9964046 0.0189009 0.9964046 0.0189009 0.0035954 -0.0189009
2263000000 0.0035810 -0.0180622 0.9964190 0.0180622 0.9964190 0.0180622 0.0035810 -0.0180622
2284000000 0.0035683 -0.0172324 0.9964317 0.0172324 0.9964317 0.0172324 0.0035683 -0.0172324
2305000000 0.0035572 -0.0164113 0.9964428 0.0164113 0.9964428 0.0164113 0.0035572 -0.0164113
2326000000 0.0035478 -0.0155986 0.9964522 0.0155986 0.9964522 0.0155986 0.0035478 -0.0155986
2347000000 0.0035399 -0.0147940 0.9964601 0.0147940 0.9964601 0.0147940 0.0035399 -0.0147940
2368000000 0.0035334 -0.0139973 0.9964666 0.0139973 0.9964666 0.0139973 0.0035334 -0.0139973
2389000000 0.0035285 -0.0132084 0.9964715 0.0132084 0.9964715 0.0132084 0.0035285 -0.0132084
2410000000 0.0035249 -0.0124269 0.9964751 0.0124269 0.9964751 0.0124269 0.0035249 -0.0124269
2431000000 0.0035227 -0.0116528 0.9964773 0.0116528 0.9964773 0.0116528 0.0035227 -0.0116528
2452000000 0.0035219 -0.0108857 0.9964781 0.0108857 0.9964781 0.0108857 0.0035219 -0.0108857
2473000000 0.0035224 -0.0101255 0.9964776 0.0101255 0.9964776 0.0101255 0.0035224 -0.0101255
2494000000 0.0035241 -0.0093720 0.9964759 0.0093720 0.9964759 0.0093720 0.0035241 -0.0093720
2515000000 0.0035271 -0.0086250 0.9964729 0.0086250 0.9964729 0.0086250 0.0035271 -0.0086250
2536000000 0.0035313 -0.0078843 0.9964687 0.0078843 0.9964687 0.0078843 0.0035313 -0.0078843
2557000000 0.0035366 -0.0071498 0.9964634 0.0071498 0.9964634 0.0071498 0.0035366 -0.0071498
2578000000 0.0035431 -0.0064214 0.9964569 0.0064214 0.9964569 0.0064214 0.0035431 -0.0064214
2599000000 0.0035508 -0.0056987 0.9964492 0.0056987 0.9964492 0.0056987 0.0035508 -0.0056987
2620000000 0.0035595 -0.0049818 0.9964405 0.0049818 0.9964405 0.0049818 0.0035595 -0.0049818
2641000000 0.0035693 -0.0042703 0.9964307 0.0042703 0.9964307 0.0042703 0.0035693 -0.0042703
2662000000 0.0035801 -0.0035643 0.9964199 0.0035643 0.9964199 0.0035643 0.0035801 -0.0035643
2683000000 0.0035920 -0.0028635 0.9964080 0.0028635 0.9964080 0.0028635 0.0035920 -0.0028635
2704000000 0.0036048 -0.0021678 0.9963952 0.0021678 0.9963952 0.0021678 0.0036048 -0.0021678
2725000000 0.0036186 -0.0014771 0.9963814 0.0014771 0.9963814 0.0014771 0.0036186 -0.0014771
2746000000 0.0036334 -0.0007912 0.9963666 0.0007912 0.9963666 0.0007912 0.0036334 -0.0007912
2767000000 0.0036492 -0.0001100 0.9963508 0.0001100 0.9963508 0.0001100 0.0036492 -0.0001100
2788000000 0.0036659 0.0005666 0.9963341 -0.0005666 0.9963341 -0.0005666 0.0036659 0.0005666
2809000000 0.0036834 0.0012387 0.9963166 -0.0012387 0.9963166 -0.0012387 0.0036834 0.0012387
2830000000 0.0037019 0.0019065 0.9962981 -0.0019065 0.9962981 -0.0019065 0.0037019 0.0019065
2851000000 0.0037212 0.0025701 0.9962788 -0.0025701 0.9962788 -0.0025701 0.0037212 0.0025701
2872000000 0.0037415 0.0032295 0.9962585 -0.0032295 0.9962585 -0.0032295 0.0037415 0.0032295
2893000000 0.0037625 0.0038849 0.9962375 -0.0038849 0.9962375 -0.0038849 0.0037625 0.0038849
2914000000 0.0037844 0.0045363 0.9962156 -0.0045363 0.9962156 -0.0045363 0.0037844 0.0045363
2935000000 0.0038071 0.0051840 0.9961929 -0.0051840 0.9961929 -0.0051840 0.0038071 0.0051840
2956000000 0.0038307 0.0058280 0.9961693 -0.0058280 0.9961693 -0.0058280 0.0038307 0.0058280
2977000000 0.0038550 0.0064683 0.9961450 -0.0064683 0.9961450 -0.0064683 0.0038550 0.0064683
2998000000 0.0038801 0.0071051 0.9961199 -0.0071051 0.9961199 -0.0071051 0.0038801 0.0071051
3019000000 0.0039060 0.0077385 0.9960940 -0.0077385 0.9960940 -0.0077385 0.0039060 0.0077385
3040000000 0.0039327 0.0083686 0.9960673 -0.0083686 0.9960673 -0.0083686 0.0039327 0.0083686
3061000000 0.0039601 0.0089954 0.9960399 -0.0089954 0.9960399 -0.0089954 0.0039601 0.0089954
3082000000 0.0039883 0.0096190 0.9960117 -0.0096190 0.9960117 -0.0096190 0.0039883 0.0096190
3103000000 0.0040173 0.0102395 0.9959827 -0.0102395 0.9959827 -0.0102395 0.0040173 0.0102395
3124000000 0.0040469 0.0108570 0.9959531 -0.0108570 0.9959531 -0.0108570 0.0040469 0.0108570
3145000000 0.0040773 0.0114716 0.9959227 -0.0114716 0.9959227 -0.0114716 0.0040773 0.0114716
3166000000 0.0041085 0.0120834 0.9958915 -0.0120834 0.9958915 -0.0120834 0.0041085 0.0120834
3187000000 0.0041403 0.0126924 0.9958597 -0.0126924 0.9958597 -0.0126924 0.0041403 0.0126924
3208000000 0.0041729 0.0132987 0.9958271 -0.0132987 0.9958271 -0.0132987 0.0041729 0.0132987
3229000000 0.0042061 0.0139023 0.9957939 -0.0139023 0.9957939 -0.0139023 0.0042061 0.0139023
3250000000 0.0042401 0.0145034 0.9957599 -0.0145034 0.9957599 -0.0145034 0.0042401 0.0145034
3271000000 0.0042747 0.0151020 0.9957253 -0.0151020 0.9957253 -0.0151020 0.0042747 0.0151020
3292000000 0.0043101 0.0156982 0.9956899 -0.0156982 0.9956899 -0.0156982 0.0043101 0.0156982
3313000000 0.0043461 0.0162920 0.9956539 -0.0162920 0.9956539 -0.0162920 0.0043461 0.0162920
3334000000 0.0043829 0.0168836 0.9956171 -0.0168836 0.9956171 -0.0168836 0.0043829 0.0168836
3355000000 0.0044203 0.0174729 0.9955797 -0.0174729 0.9955797 -0.0174729 0.0044203 0.0174729
3376000000 0.0044584 0.0180600 0.9955416 -0.0180600 0.9955416 -0.0180600 0.0044584 0.0180600
3397000000 0.0044971 0.0186450 0.9955029 -0.0186450 0.9955029 -0.0186450 0.0044971 0.0186450
3418000000 0.0045366 0.0192280 0.9954634 -0.0192280 0.9954634 -0.0192280 0.0045366 0.0192280
3439000000 0.0045767 0.0198090 0.9954233 -0.0198090 0.9954233 -0.0198090 0.0045767 0.0198090
3460000000 0.0046175 0.0203880 0.9953825 -0.0203880 0.9953825 -0.0203880 0.0046175 0.0203880
3481000000 0.0046589 0.0209652 0.9953411 -0.0209652 0.9953411 -0.0209652 0.0046589 0.0209652
3502000000 0.0047010 0.0215405 0.9952990 -0.0215405 0.9952990 -0.0215405 0.0047010 0.0215405
3523000000 0.0047438 0.0221141 0.9952562 -0.0221141 0.9952562 -0.0221141 0.0047438 0.0221141
3544000000 0.0047872 0.0226859 0.9952128 -0.0226859 0.9952128 -0.0226859 0.0047872 0.0226859
3565000000 0.0048313 0.0232561 0.9951687 -0.0232561 0.9951687 -0.0232561 0.0048313 0.0232561
3586000000 0.0048761 0.0238246 0.9951239 -0.0238246 0.9951239 -0.0238246 0.0048761 0.0238246
3607000000 0.0049215 0.0243916 0.9950785 -0.0243916 0.9950785 -0.0243916 0.0049215 0.0243916
3628000000 0.0049676 0.0249570 0.9950324 -0.0249570 0.9950324 -0.0249570 0.0049676 0.0249570
3649000000 0.0050144 0.0255210 0.9949856 -0.0255210 0.9949856 -0.0255210 0.0050144 0.0255210
3670000000 0.0050618 0.0260835 0.9949382 -0.0260835 0.9949382 -0.0260835 0.0050618 0.0260835
3691000000 0.0051099 0.0266447 0.9948901 -0.0266447 0.9948901 -0.0266447 0.0051099 0.0266447
3712000000 0.0051587 0.0272045 0.9948413 -0.0272045 0.9948413 -0.0272045 0.0051587 0.0272045
3733000000 0.0052081 0.0277630 0.9947919 -0.0277630 0.9947919 -0.0277630 0.0052081 0.0277630
3754000000 0.0052582 0.0283203 0.9947418 -0.0283203 0.9947418 -0.0283203 0.0052582 0.0283203
3775000000 0.0053090 0.0288763 0.9946910 -0.0288763 0.9946910 -0.0288763 0.0053090 0.0288763
3796000000 0.0053604 0.0294312 0.9946396 -0.0294312 0.9946396 -0.0294312 0.0053604 0.0294312
3817000000 0.0054125 0.0299849 0.9945875 -0.0299849 0.9945875 -0.0299849 0.0054125 0.0299849
3838000000 0.0054653 0.0305375 0.9945347 -0.0305375 0.9945347 -0.0305375 0.0054653 0.0305375
3859000000 0.0055188 0.0310891 0.9944812 -0.0310891 0.9944812 -0.0310891 0.0055188 0.0310891
3880000000 0.0055729 0.0316397 0.9944271 -0.0316397 0.9944271 -0.0316397 0.0055729 0.0316397
3901000000 0.0056278 0.0321893 0.9943722 -0.0321893 0.9943722 -0.0321893 0.0056278 0.0321893
3922000000 0.0056833 0.0327379 0.9943167 -0.0327379 0.9943167 -0.0327379 0.0056833 0.0327379
3943000000 0.0057395 0.0332857 0.9942605 -0.0332857 0.9942605 -0.0332857 0.0057395 0.0332857
3964000000 0.0057964 0.0338326 0.9942036 -0.0338326 0.9942036 -0.0338326 0.0057964 0.0338326
3985000000 0.0058540 0.0343786 0.9941460 -0.0343786 0.9941460 -0.0343786 0.0058540 0.0343786
4006000000 0.0059124 0.0349239 0.9940876 -0.0349239 0.9940876 -0.0349239 0.0059124 0.0349239
4027000000 0.0059714 0.0354684 0.9940286 -0.0354684 0.9940286 -0.0354684 0.0059714 0.0354684
4048000000 0.0060311 0.0360121 0.9939689 -0.0360121 0.9939689 -0.0360121 0.0060311 0.0360121
4069000000 0.0060915 0.0365552 0.9939085 -0.0365552 0.9939085 -0.0365552 0.0060915 0.0365552
4090000000 0.0061527 0.0370976 0.9938473 -0.0370976 0.9938473 -0.0370976 0.0061527 0.0370976
4111000000 0.0062146 0.0376394 0.9937854 -0.0376394 0.9937854 -0.0376394 0.0062146 0.0376394
4132000000 0.0062772 0.0381805 0.9937228 -0.0381805 0.9937228 -0.0381805 0.0062772 0.0381805
4153000000 0.0063405 0.0387211 0.9936595 -0.0387211 0.9936595 -0.0387211 0.0063405 0.0387211
4174000000 0.0064046 0.0392612 0.9935954 -0.0392612 0.9935954 -0.0392612 0.0064046 0.0392612
4195000000 0.0064694 0.0398008 0.9935306 -0.0398008 0.9935306 -0.0398008 0.0064694 0.0398008
4216000000 0.0065350 0.0403399 0.9934650 -0.0403399 0.9934650 -0.0403399 0.0065350 0.0403399
4237000000 0.0066013 0.0408785 0.9933987 -0.0408785 0.9933987 -0.0408785 0.0066013 0.0408785
4258000000 0.0066683 0.0414167 0.9933317 -0.0414167 0.9933317 -0.0414167 0.0066683 0.0414167
4279000000 0.0067362 0.0419545 0.9932638 -0.0419545 0.9932638 -0.0419545 0.0067362 0.0419545
4300000000 0.0068048 0.0424920 0.9931952 -0.0424920 0.9931952 -0.0424920 0.0068048 0.0424920
4321000000 0.0068741 0.0430291 0.9931259 -0.0430291 0.9931259 -0.0430291 0.0068741 0.0430291
4342000000 0.0069443 0.0435659 0.9930557 -0.0435659 0.9930557 -0.0435659 0.0069443 0.0435659
4363000000 0.0070152 0.0441025 0.9929848 -0.0441025 0.9929848 -0.0441025 0.0070152 0.0441025
4384000000 0.0070870 0.0446388 0.9929130 -0.0446388 0.9929130 -0.0446388 0.0070870 0.0446388
4405000000 0.0071595 0.0451748 0.9928405 -0.0451748 0.9928405 -0.0451748 0.0071595 0.0451748
4426000000 0.0072329 0.0457107 0.9927671 -0.0457107 0.9927671 -0.0457107 0.0072329 0.0457107
4447000000 0.0073070 0.0462464 0.9926930 -0.0462464 0.9926930 -0.0462464 0.0073070 0.0462464
4468000000 0.0073820 0.0467819 0.9926180 -0.0467819 0.9926180 -0.0467819 0.0073820 0.0467819
4489000000 0.0074578 0.0473173 0.9925422 -0.0473173 0.9925422 -0.0473173 0.0074578 0.0473173
4510000000 0.0075344 0.0478526 0.9924656 -0.0478526 0.9924656 -0.0478526 0.0075344 0.0478526
