!Murata Part Number: GRM0332C1H7R1BA01
!These Parameters are Measured in Series Mode Connection
!Data Generated on Mar 30, 2021
!       o--ll--o
!Port1            Port2
!       o------o
!Operation Temp=25[degC], DC Bias Voltage=0[V]
!Freq. Start=100[MHz] Stop=9[GHz] 401[Steps]
# Hz S RI R 50
!Freq.(Hz) S11(Real) S11(Imag) S21(Real) S21(Imag) S12(Real) S12(Imag) S22(Real) S22(Imag)
100000000 0.8336006 -0.3720029 0.1663994 0.3720029 0.1663994 0.3720029 0.8336006 -0.3720029
121000000 0.7737519 -0.4178735 0.2262481 0.4178735 0.2262481 0.4178735 0.7737519 -0.4178735
142000000 0.7127848 -0.4518423 0.2872152 0.4518423 0.2872152 0.4518423 0.7127848 -0.4518423
163000000 0.6530353 -0.4752909 0.3469647 0.4752909 0.3469647 0.4752909 0.6530353 -0.4752909
184000000 0.5961019 -0.4898706 0.4038981 0.4898706 0.4038981 0.4898706 0.5961019 -0.4898706
205000000 0.5429484 -0.4972511 0.4570516 0.4972511 0.4570516 0.4972511 0.5429484 -0.4972511
226000000 0.4940482 -0.4989691 0.5059518 0.4989691 0.5059518 0.4989691 0.4940482 -0.4989691
247000000 0.4495262 -0.4963551 0.5504738 0.4963551 0.5504738 0.4963551 0.4495262 -0.4963551
268000000 0.4092792 -0.4905141 0.5907208 0.4905141 0.5907208 0.4905141 0.4092792 -0.4905141
289000000 0.3730670 -0.4823362 0.6269330 0.4823362 0.6269330 0.4823362 0.3730670 -0.4823362
310000000 0.3405777 -0.4725223 0.6594223 0.4725223 0.6594223 0.4725223 0.3405777 -0.4725223
331000000 0.3114706 -0.4616149 0.6885294 0.4616149 0.6885294 0.4616149 0.3114706 -0.4616149
352000000 0.2854043 -0.4500276 0.7145957 0.4500276 0.7145957 0.4500276 0.2854043 -0.4500276
373000000 0.2620528 -0.4380714 0.7379472 0.4380714 0.7379472 0.4380714 0.2620528 -0.4380714
394000000 0.2411138 -0.4259778 0.7588862 0.4259778 0.7588862 0.4259778 0.2411138 -0.4259778
415000000 0.2223128 -0.4139160 0.7776872 0.4139160 0.7776872 0.4139160 0.2223128 -0.4139160
436000000 0.2054039 -0.4020083 0.7945961 0.4020083 0.7945961 0.4020083 0.2054039 -0.4020083
457000000 0.1901686 -0.3903406 0.8098314 0.3903406 0.8098314 0.3903406 0.1901686 -0.3903406
478000000 0.1764141 -0.3789720 0.8235859 0.3789720 0.8235859 0.3789720 0.1764141 -0.3789720
499000000 0.1639709 -0.3679411 0.8360291 0.3679411 0.8360291 0.3679411 0.1639709 -0.3679411
520000000 0.1526902 -0.3572712 0.8473098 0.3572712 0.8473098 0.3572712 0.1526902 -0.3572712
541000000 0.1424418 -0.3469743 0.8575582 0.3469743 0.8575582 0.3469743 0.1424418 -0.3469743
562000000 0.1331114 -0.3370543 0.8668886 0.3370543 0.8668886 0.3370543 0.1331114 -0.3370543
583000000 0.1245992 -0.3275089 0.8754008 0.3275089 0.8754008 0.3275089 0.1245992 -0.3275089
604000000 0.1168173 -0.3183318 0.8831827 0.3183318 0.8831827 0.3183318 0.1168173 -0.3183318
625000000 0.1096889 -0.3095135 0.8903111 0.3095135 0.8903111 0.3095135 0.1096889 -0.3095135
646000000 0.1031463 -0.3010424 0.8968537 0.3010424 0.8968537 0.3010424 0.1031463 -0.3010424
667000000 0.0971299 -0.2929060 0.9028701 0.2929060 0.9028701 0.2929060 0.0971299 -0.2929060
688000000 0.0915871 -0.2850907 0.9084129 0.2850907 0.9084129 0.2850907 0.0915871 -0.2850907
709000000 0.0864716 -0.2775827 0.9135284 0.2775827 0.9135284 0.2775827 0.0864716 -0.2775827
730000000 0.0817422 -0.2703682 0.9182578 0.2703682 0.9182578 0.2703682 0.0817422 -0.2703682
751000000 0.0773625 -0.2634334 0.9226375 0.2634334 0.9226375 0.2634334 0.0773625 -0.2634334
772000000 0.0733000 -0.2567650 0.9267000 0.2567650 0.9267000 0.2567650 0.0733000 -0.2567650
793000000 0.0695260 -0.2503500 0.9304740 0.2503500 0.9304740 0.2503500 0.0695260 -0.2503500
814000000 0.0660147 -0.2441758 0.9339853 0.2441758 0.9339853 0.2441758 0.0660147 -0.2441758
835000000 0.0627431 -0.2382306 0.9372569 0.2382306 0.9372569 0.2382306 0.0627431 -0.2382306
856000000 0.0596905 -0.2325029 0.9403095 0.2325029 0.9403095 0.2325029 0.0596905 -0.2325029
877000000 0.0568386 -0.2269818 0.9431614 0.2269818 0.9431614 0.2269818 0.0568386 -0.2269818
898000000 0.0541705 -0.2216570 0.9458295 0.2216570 0.9458295 0.2216570 0.0541705 -0.2216570
919000000 0.0516714 -0.2165187 0.9483286 0.2165187 0.9483286 0.2165187 0.0516714 -0.2165187
940000000 0.0493278 -0.2115577 0.9506722 0.2115577 0.9506722 0.2115577 0.0493278 -0.2115577
961000000 0.0471274 -0.2067652 0.9528726 0.2067652 0.9528726 0.2067652 0.0471274 -0.2067652
982000000 0.0450592 -0.2021329 0.9549408 0.2021329 0.9549408 0.2021329 0.0450592 -0.2021329
1003000000 0.0431131 -0.1976530 0.9568869 0.1976530 0.9568869 0.1976530 0.0431131 -0.1976530
1024000000 0.0412801 -0.1933182 0.9587199 0.1933182 0.9587199 0.1933182 0.0412801 -0.1933182
1045000000 0.0395518 -0.1891215 0.9604482 0.1891215 0.9604482 0.1891215 0.0395518 -0.1891215
1066000000 0.0379207 -0.1850564 0.9620793 0.1850564 0.9620793 0.1850564 0.0379207 -0.1850564
1087000000 0.0363799 -0.1811166 0.9636201 0.1811166 0.9636201 0.1811166 0.0363799 -0.1811166
1108000000 0.0349231 -0.1772963 0.9650769 0.1772963 0.9650769 0.1772963 0.0349231 -0.1772963
1129000000 0.0335445 -0.1735900 0.9664555 0.1735900 0.9664555 0.1735900 0.0335445 -0.1735900
1150000000 0.0322388 -0.1699925 0.9677612 0.1699925 0.9677612 0.1699925 0.0322388 -0.1699925
1171000000 0.0310012 -0.1664989 0.9689988 0.1664989 0.9689988 0.1664989 0.0310012 -0.1664989
1192000000 0.0298272 -0.1631045 0.9701728 0.1631045 0.9701728 0.1631045 0.0298272 -0.1631045
1213000000 0.0287128 -0.1598050 0.9712872 0.1598050 0.9712872 0.1598050 0.0287128 -0.1598050
1234000000 0.0276541 -0.1565961 0.9723459 0.1565961 0.9723459 0.1565961 0.0276541 -0.1565961
1255000000 0.0266476 -0.1534741 0.9733524 0.1534741 0.9733524 0.1534741 0.0266476 -0.1534741
1276000000 0.0256901 -0.1504351 0.9743099 0.1504351 0.9743099 0.1504351 0.0256901 -0.1504351
1297000000 0.0247787 -0.1474757 0.9752213 0.1474757 0.9752213 0.1474757 0.0247787 -0.1474757
1318000000 0.0239106 -0.1445925 0.9760894 0.1445925 0.9760894 0.1445925 0.0239106 -0.1445925
1339000000 0.0230832 -0.1417824 0.9769168 0.1417824 0.9769168 0.1417824 0.0230832 -0.1417824
1360000000 0.0222942 -0.1390423 0.9777058 0.1390423 0.9777058 0.1390423 0.0222942 -0.1390423
1381000000 0.0215413 -0.1363695 0.9784587 0.1363695 0.9784587 0.1363695 0.0215413 -0.1363695
1402000000 0.0208226 -0.1337613 0.9791774 0.1337613 0.9791774 0.1337613 0.0208226 -0.1337613
1423000000 0.0201361 -0.1312151 0.9798639 0.1312151 0.9798639 0.1312151 0.0201361 -0.1312151
1444000000 0.0194800 -0.1287284 0.9805200 0.1287284 0.9805200 0.1287284 0.0194800 -0.1287284
1465000000 0.0188526 -0.1262990 0.9811474 0.1262990 0.9811474 0.1262990 0.0188526 -0.1262990
1486000000 0.0182526 -0.1239247 0.9817474 0.1239247 0.9817474 0.1239247 0.0182526 -0.1239247
1507000000 0.0176783 -0.1216034 0.9823217 0.1216034 0.9823217 0.1216034 0.0176783 -0.1216034
1528000000 0.0171284 -0.1193331 0.9828716 0.1193331 0.9828716 0.1193331 0.0171284 -0.1193331
1549000000 0.0166018 -0.1171119 0.9833982 0.1171119 0.9833982 0.1171119 0.0166018 -0.1171119
1570000000 0.0160972 -0.1149380 0.9839028 0.1149380 0.9839028 0.1149380 0.0160972 -0.1149380
1591000000 0.0156134 -0.1128097 0.9843866 0.1128097 0.9843866 0.1128097 0.0156134 -0.1128097
1612000000 0.0151495 -0.1107254 0.9848505 0.1107254 0.9848505 0.1107254 0.0151495 -0.1107254
1633000000 0.0147046 -0.1086835 0.9852954 0.1086835 0.9852954 0.1086835 0.0147046 -0.1086835
1654000000 0.0142775 -0.1066824 0.9857225 0.1066824 0.9857225 0.1066824 0.0142775 -0.1066824
1675000000 0.0138676 -0.1047209 0.9861324 0.1047209 0.9861324 0.1047209 0.0138676 -0.1047209
1696000000 0.0134740 -0.1027975 0.9865260 0.1027975 0.9865260 0.1027975 0.0134740 -0.1027975
1717000000 0.0130960 -0.1009109 0.9869040 0.1009109 0.9869040 0.1009109 0.0130960 -0.1009109
1738000000 0.0127328 -0.0990599 0.9872672 0.0990599 0.9872672 0.0990599 0.0127328 -0.0990599
1759000000 0.0123837 -0.0972433 0.9876163 0.0972433 0.9876163 0.0972433 0.0123837 -0.0972433
1780000000 0.0120481 -0.0954600 0.9879519 0.0954600 0.9879519 0.0954600 0.0120481 -0.0954600
1801000000 0.0117255 -0.0937088 0.9882745 0.0937088 0.9882745 0.0937088 0.0117255 -0.0937088
1822000000 0.0114152 -0.0919887 0.9885848 0.0919887 0.9885848 0.0919887 0.0114152 -0.0919887
1843000000 0.0111166 -0.0902987 0.9888834 0.0902987 0.9888834 0.0902987 0.0111166 -0.0902987
1864000000 0.0108294 -0.0886379 0.9891706 0.0886379 0.9891706 0.0886379 0.0108294 -0.0886379
1885000000 0.0105530 -0.0870054 0.9894470 0.0870054 0.9894470 0.0870054 0.0105530 -0.0870054
1906000000 0.0102870 -0.0854002 0.9897130 0.0854002 0.9897130 0.0854002 0.0102870 -0.0854002
1927000000 0.0100309 -0.0838215 0.9899691 0.0838215 0.9899691 0.0838215 0.0100309 -0.0838215
1948000000 0.0097843 -0.0822685 0.9902157 0.0822685 0.9902157 0.0822685 0.0097843 -0.0822685
1969000000 0.0095468 -0.0807404 0.9904532 0.0807404 0.9904532 0.0807404 0.0095468 -0.0807404
1990000000 0.0093181 -0.0792365 0.9906819 0.0792365 0.9906819 0.0792365 0.0093181 -0.0792365
2011000000 0.0090978 -0.0777560 0.9909022 0.0777560 0.9909022 0.0777560 0.0090978 -0.0777560
2032000000 0.0088856 -0.0762983 0.9911144 0.0762983 0.9911144 0.0762983 0.0088856 -0.0762983
2053000000 0.0086812 -0.0748626 0.9913188 0.0748626 0.9913188 0.0748626 0.0086812 -0.0748626
2074000000 0.0084842 -0.0734484 0.9915158 0.0734484 0.9915158 0.0734484 0.0084842 -0.0734484
2095000000 0.0082944 -0.0720550 0.9917056 0.0720550 0.9917056 0.0720550 0.0082944 -0.0720550
2116000000 0.0081116 -0.0706819 0.9918884 0.0706819 0.9918884 0.0706819 0.0081116 -0.0706819
2137000000 0.0079353 -0.0693284 0.9920647 0.0693284 0.9920647 0.0693284 0.0079353 -0.0693284
2158000000 0.0077655 -0.0679940 0.9922345 0.0679940 0.9922345 0.0679940 0.0077655 -0.0679940
2179000000 0.0076019 -0.0666781 0.9923981 0.0666781 0.9923981 0.0666781 0.0076019 -0.0666781
2200000000 0.0074442 -0.0653803 0.9925558 0.0653803 0.9925558 0.0653803 0.0074442 -0.0653803
2221000000 0.0072923 -0.0641001 0.9927077 0.0641001 0.9927077 0.0641001 0.0072923 -0.0641001
2242000000 0.0071459 -0.0628369 0.9928541 0.0628369 0.9928541 0.0628369 0.0071459 -0.0628369
2263000000 0.0070048 -0.0615904 0.9929952 0.0615904 0.9929952 0.0615904 0.0070048 -0.0615904
2284000000 0.0068690 -0.0603601 0.9931310 0.0603601 0.9931310 0.0603601 0.0068690 -0.0603601
2305000000 0.0067380 -0.0591454 0.9932620 0.0591454 0.9932620 0.0591454 0.0067380 -0.0591454
2326000000 0.0066119 -0.0579462 0.9933881 0.0579462 0.9933881 0.0579462 0.0066119 -0.0579462
2347000000 0.0064905 -0.0567618 0.9935095 0.0567618 0.9935095 0.0567618 0.0064905 -0.0567618
2368000000 0.0063736 -0.0555920 0.9936264 0.0555920 0.9936264 0.0555920 0.0063736 -0.0555920
2389000000 0.0062610 -0.0544363 0.9937390 0.0544363 0.9937390 0.0544363 0.0062610 -0.0544363
2410000000 0.0061526 -0.0532945 0.9938474 0.0532945 0.9938474 0.0532945 0.0061526 -0.0532945
2431000000 0.0060483 -0.0521661 0.9939517 0.0521661 0.9939517 0.0521661 0.0060483 -0.0521661
2452000000 0.0059479 -0.0510508 0.9940521 0.0510508 0.9940521 0.0510508 0.0059479 -0.0510508
2473000000 0.0058513 -0.0499483 0.9941487 0.0499483 0.9941487 0.0499483 0.0058513 -0.0499483
2494000000 0.0057585 -0.0488582 0.9942415 0.0488582 0.9942415 0.0488582 0.0057585 -0.0488582
2515000000 0.0056693 -0.0477804 0.9943307 0.0477804 0.9943307 0.0477804 0.0056693 -0.0477804
2536000000 0.0055835 -0.0467143 0.9944165 0.0467143 0.9944165 0.0467143 0.0055835 -0.0467143
2557000000 0.0055011 -0.0456599 0.9944989 0.0456599 0.9944989 0.0456599 0.0055011 -0.0456599
2578000000 0.0054220 -0.0446167 0.9945780 0.0446167 0.9945780 0.0446167 0.0054220 -0.0446167
2599000000 0.0053461 -0.0435846 0.9946539 0.0435846 0.9946539 0.0435846 0.0053461 -0.0435846
2620000000 0.0052732 -0.0425632 0.9947268 0.0425632 0.9947268 0.0425632 0.0052732 -0.0425632
2641000000 0.0052034 -0.0415523 0.9947966 0.0415523 0.9947966 0.0415523 0.0052034 -0.0415523
2662000000 0.0051365 -0.0405517 0.9948635 0.0405517 0.9948635 0.0405517 0.0051365 -0.0405517
2683000000 0.0050724 -0.0395610 0.9949276 0.0395610 0.9949276 0.0395610 0.0050724 -0.0395610
2704000000 0.0050110 -0.0385802 0.9949890 0.0385802 0.9949890 0.0385802 0.0050110 -0.0385802
2725000000 0.0049524 -0.0376089 0.9950476 0.0376089 0.9950476 0.0376089 0.0049524 -0.0376089
2746000000 0.0048963 -0.0366470 0.9951037 0.0366470 0.9951037 0.0366470 0.0048963 -0.0366470
2767000000 0.0048428 -0.0356941 0.9951572 0.0356941 0.9951572 0.0356941 0.0048428 -0.0356941
2788000000 0.0047918 -0.0347502 0.9952082 0.0347502 0.9952082 0.0347502 0.0047918 -0.0347502
2809000000 0.0047431 -0.0338150 0.9952569 0.0338150 0.9952569 0.0338150 0.0047431 -0.0338150
2830000000 0.0046969 -0.0328883 0.9953031 0.0328883 0.9953031 0.0328883 0.0046969 -0.0328883
2851000000 0.0046529 -0.0319700 0.9953471 0.0319700 0.9953471 0.0319700 0.0046529 -0.0319700
2872000000 0.0046111 -0.0310598 0.9953889 0.0310598 0.9953889 0.0310598 0.0046111 -0.0310598
2893000000 0.0045715 -0.0301575 0.9954285 0.0301575 0.9954285 0.0301575 0.0045715 -0.0301575
2914000000 0.0045340 -0.0292631 0.9954660 0.0292631 0.9954660 0.0292631 0.0045340 -0.0292631
2935000000 0.0044986 -0.0283763 0.9955014 0.0283763 0.9955014 0.0283763 0.0044986 -0.0283763
2956000000 0.0044652 -0.0274969 0.9955348 0.0274969 0.9955348 0.0274969 0.0044652 -0.0274969
2977000000 0.0044338 -0.0266248 0.9955662 0.0266248 0.9955662 0.0266248 0.0044338 -0.0266248
2998000000 0.0044044 -0.0257599 0.9955956 0.0257599 0.9955956 0.0257599 0.0044044 -0.0257599
3019000000 0.0043768 -0.0249019 0.9956232 0.0249019 0.9956232 0.0249019 0.0043768 -0.0249019
3040000000 0.0043510 -0.0240508 0.9956490 0.0240508 0.9956490 0.0240508 0.0043510 -0.0240508
3061000000 0.0043271 -0.0232064 0.9956729 0.0232064 0.9956729 0.0232064 0.0043271 -0.0232064
3082000000 0.0043049 -0.0223685 0.9956951 0.0223685 0.9956951 0.0223685 0.0043049 -0.0223685
3103000000 0.0042844 -0.0215371 0.9957156 0.0215371 0.9957156 0.0215371 0.0042844 -0.0215371
3124000000 0.0042656 -0.0207119 0.9957344 0.0207119 0.9957344 0.0207119 0.0042656 -0.0207119
3145000000 0.0042485 -0.0198929 0.9957515 0.0198929 0.9957515 0.0198929 0.0042485 -0.0198929
3166000000 0.0042330 -0.0190799 0.9957670 0.0190799 0.9957670 0.0190799 0.0042330 -0.0190799
3187000000 0.0042191 -0.0182728 0.9957809 0.0182728 0.9957809 0.0182728 0.0042191 -0.0182728
3208000000 0.0042067 -0.0174715 0.9957933 0.0174715 0.9957933 0.0174715 0.0042067 -0.0174715
3229000000 0.0041959 -0.0166759 0.9958041 0.0166759 0.9958041 0.0166759 0.0041959 -0.0166759
3250000000 0.0041865 -0.0158858 0.9958135 0.0158858 0.9958135 0.0158858 0.0041865 -0.0158858
3271000000 0.0041787 -0.0151012 0.9958213 0.0151012 0.9958213 0.0151012 0.0041787 -0.0151012
3292000000 0.0041722 -0.0143219 0.9958278 0.0143219 0.9958278 0.0143219 0.0041722 -0.0143219
3313000000 0.0041672 -0.0135478 0.9958328 0.0135478 0.9958328 0.0135478 0.0041672 -0.0135478
3334000000 0.0041636 -0.0127789 0.9958364 0.0127789 0.9958364 0.0127789 0.0041636 -0.0127789
3355000000 0.0041613 -0.0120150 0.9958387 0.0120150 0.9958387 0.0120150 0.0041613 -0.0120150
3376000000 0.0041603 -0.0112560 0.9958397 0.0112560 0.9958397 0.0112560 0.0041603 -0.0112560
3397000000 0.0041607 -0.0105018 0.9958393 0.0105018 0.9958393 0.0105018 0.0041607 -0.0105018
3418000000 0.0041624 -0.0097523 0.9958376 0.0097523 0.9958376 0.0097523 0.0041624 -0.0097523
3439000000 0.0041653 -0.0090076 0.9958347 0.0090076 0.9958347 0.0090076 0.0041653 -0.0090076
3460000000 0.0041695 -0.0082673 0.9958305 0.0082673 0.9958305 0.0082673 0.0041695 -0.0082673
3481000000 0.0041750 -0.0075315 0.9958250 0.0075315 0.9958250 0.0075315 0.0041750 -0.0075315
3502000000 0.0041816 -0.0068001 0.9958184 0.0068001 0.9958184 0.0068001 0.0041816 -0.0068001
3523000000 0.0041895 -0.0060730 0.9958105 0.0060730 0.9958105 0.0060730 0.0041895 -0.0060730
3544000000 0.0041985 -0.0053501 0.9958015 0.0053501 0.9958015 0.0053501 0.0041985 -0.0053501
3565000000 0.0042087 -0.0046314 0.9957913 0.0046314 0.9957913 0.0046314 0.0042087 -0.0046314
3586000000 0.0042200 -0.0039167 0.9957800 0.0039167 0.9957800 0.0039167 0.0042200 -0.0039167
3607000000 0.0042324 -0.0032060 0.9957676 0.0032060 0.9957676 0.0032060 0.0042324 -0.0032060
3628000000 0.0042460 -0.0024992 0.9957540 0.0024992 0.9957540 0.0024992 0.0042460 -0.0024992
3649000000 0.0042607 -0.0017962 0.9957393 0.0017962 0.9957393 0.0017962 0.0042607 -0.0017962
3670000000 0.0042764 -0.0010970 0.9957236 0.0010970 0.9957236 0.0010970 0.0042764 -0.0010970
3691000000 0.0042932 -0.0004015 0.9957068 0.0004015 0.9957068 0.0004015 0.0042932 -0.0004015
3712000000 0.0043111 0.0002904 0.9956889 -0.0002904 0.9956889 -0.0002904 0.0043111 0.0002904
3733000000 0.0043300 0.0009788 0.9956700 -0.0009788 0.9956700 -0.0009788 0.0043300 0.0009788
3754000000 0.0043500 0.0016636 0.9956500 -0.0016636 0.9956500 -0.0016636 0.0043500 0.0016636
3775000000 0.0043709 0.0023450 0.9956291 -0.0023450 0.9956291 -0.0023450 0.0043709 0.0023450
3796000000 0.0043929 0.0030231 0.9956071 -0.0030231 0.9956071 -0.0030231 0.0043929 0.0030231
3817000000 0.0044159 0.0036978 0.9955841 -0.0036978 0.9955841 -0.0036978 0.0044159 0.0036978
3838000000 0.0044398 0.0043693 0.9955602 -0.0043693 0.9955602 -0.0043693 0.0044398 0.0043693
3859000000 0.0044648 0.0050376 0.9955352 -0.0050376 0.9955352 -0.0050376 0.0044648 0.0050376
3880000000 0.0044907 0.0057028 0.9955093 -0.0057028 0.9955093 -0.0057028 0.0044907 0.0057028
3901000000 0.0045175 0.0063649 0.9954825 -0.0063649 0.9954825 -0.0063649 0.0045175 0.0063649
3922000000 0.0045453 0.0070240 0.9954547 -0.0070240 0.9954547 -0.0070240 0.0045453 0.0070240
3943000000 0.0045741 0.0076801 0.9954259 -0.0076801 0.9954259 -0.0076801 0.0045741 0.0076801
3964000000 0.0046038 0.0083333 0.9953962 -0.0083333 0.9953962 -0.0083333 0.0046038 0.0083333
3985000000 0.0046343 0.0089836 0.9953657 -0.0089836 0.9953657 -0.0089836 0.0046343 0.0089836
4006000000 0.0046659 0.0096311 0.9953341 -0.0096311 0.9953341 -0.0096311 0.0046659 0.0096311
4027000000 0.0046983 0.0102759 0.9953017 -0.0102759 0.9953017 -0.0102759 0.0046983 0.0102759
4048000000 0.0047316 0.0109179 0.9952684 -0.0109179 0.9952684 -0.0109179 0.0047316 0.0109179
4069000000 0.0047658 0.0115573 0.9952342 -0.0115573 0.9952342 -0.0115573 0.0047658 0.0115573
4090000000 0.0048009 0.0121941 0.9951991 -0.0121941 0.9951991 -0.0121941 0.0048009 0.0121941
4111000000 0.0048368 0.0128282 0.9951632 -0.0128282 0.9951632 -0.0128282 0.0048368 0.0128282
4132000000 0.0048737 0.0134599 0.9951263 -0.0134599 0.9951263 -0.0134599 0.0048737 0.0134599
4153000000 0.0049114 0.0140891 0.9950886 -0.0140891 0.9950886 -0.0140891 0.0049114 0.0140891
4174000000 0.0049500 0.0147158 0.9950500 -0.0147158 0.9950500 -0.0147158 0.0049500 0.0147158
4195000000 0.0049894 0.0153401 0.9950106 -0.0153401 0.9950106 -0.0153401 0.0049894 0.0153401
4216000000 0.0050297 0.0159620 0.9949703 -0.0159620 0.9949703 -0.0159620 0.0050297 0.0159620
4237000000 0.0050708 0.0165817 0.9949292 -0.0165817 0.9949292 -0.0165817 0.0050708 0.0165817
4258000000 0.0051128 0.0171990 0.9948872 -0.0171990 0.9948872 -0.0171990 0.0051128 0.0171990
4279000000 0.0051556 0.0178141 0.9948444 -0.0178141 0.9948444 -0.0178141 0.0051556 0.0178141
4300000000 0.0051992 0.0184270 0.9948008 -0.0184270 0.9948008 -0.0184270 0.0051992 0.0184270
4321000000 0.0052437 0.0190378 0.9947563 -0.0190378 0.9947563 -0.0190378 0.0052437 0.0190378
4342000000 0.0052890 0.0196464 0.9947110 -0.0196464 0.9947110 -0.0196464 0.0052890 0.0196464
4363000000 0.0053351 0.0202529 0.9946649 -0.0202529 0.9946649 -0.0202529 0.0053351 0.0202529
4384000000 0.0053820 0.0208573 0.9946180 -0.0208573 0.9946180 -0.0208573 0.0053820 0.0208573
4405000000 0.0054298 0.0214598 0.9945702 -0.0214598 0.9945702 -0.0214598 0.0054298 0.0214598
4426000000 0.0054783 0.0220602 0.9945217 -0.0220602 0.9945217 -0.0220602 0.0054783 0.0220602
4447000000 0.0055277 0.0226587 0.9944723 -0.0226587 0.9944723 -0.0226587 0.0055277 0.0226587
4468000000 0.0055779 0.0232552 0.9944221 -0.0232552 0.9944221 -0.0232552 0.0055779 0.0232552
4489000000 0.0056289 0.0238498 0.9943711 -0.0238498 0.9943711 -0.0238498 0.0056289 0.0238498
4510000000 0.0056806 0.0244426 0.9943194 -0.0244426 0.9943194 -0.0244426 0.0056806 0.0244426
