!Murata Part Number: GRM0335C1H5R3CA01
!These Parameters are Measured in Series Mode Connection
!Data Generated on Mar 30, 2021
!       o--ll--o
!Port1            Port2
!       o------o
!Operation Temp=25[degC], DC Bias Voltage=0[V]
!Freq. Start=100[MHz] Stop=9[GHz] 401[Steps]
# Hz S RI R 50
!Freq.(Hz) S11(Real) S11(Imag) S21(Real) S21(Imag) S12(Real) S12(Imag) S22(Real) S22(Imag)
100000000 0.8999139 -0.2997730 0.1000861 0.2997730 0.1000861 0.2997730 0.8999139 -0.2997730
121000000 0.8599206 -0.3466556 0.1400794 0.3466556 0.1400794 0.3466556 0.8599206 -0.3466556
142000000 0.8166906 -0.3864340 0.1833094 0.3864340 0.1833094 0.3864340 0.8166906 -0.3864340
163000000 0.7716569 -0.4192064 0.2283431 0.4192064 0.2283431 0.4192064 0.7716569 -0.4192064
184000000 0.7260545 -0.4453502 0.2739455 0.4453502 0.2739455 0.4453502 0.7260545 -0.4453502
205000000 0.6808865 -0.4654290 0.3191135 0.4654290 0.3191135 0.4654290 0.6808865 -0.4654290
226000000 0.6369210 -0.4801100 0.3630790 0.4801100 0.3630790 0.4801100 0.6369210 -0.4801100
247000000 0.5947097 -0.4900973 0.4052903 0.4900973 0.4052903 0.4900973 0.5947097 -0.4900973
268000000 0.5546183 -0.4960831 0.4453817 0.4960831 0.4453817 0.4960831 0.5546183 -0.4960831
289000000 0.5168612 -0.4987165 0.4831388 0.4987165 0.4831388 0.4987165 0.5168612 -0.4987165
310000000 0.4815348 -0.4985851 0.5184652 0.4985851 0.5184652 0.4985851 0.4815348 -0.4985851
331000000 0.4486481 -0.4962070 0.5513519 0.4962070 0.5513519 0.4962070 0.4486481 -0.4962070
352000000 0.4181475 -0.4920300 0.5818525 0.4920300 0.5818525 0.4920300 0.4181475 -0.4920300
373000000 0.3899377 -0.4864351 0.6100623 0.4864351 0.6100623 0.4864351 0.3899377 -0.4864351
394000000 0.3638968 -0.4797419 0.6361032 0.4797419 0.6361032 0.4797419 0.3638968 -0.4797419
415000000 0.3398886 -0.4722163 0.6601114 0.4722163 0.6601114 0.4722163 0.3398886 -0.4722163
436000000 0.3177704 -0.4640770 0.6822296 0.4640770 0.6822296 0.4640770 0.3177704 -0.4640770
457000000 0.2973994 -0.4555026 0.7026006 0.4555026 0.7026006 0.4555026 0.2973994 -0.4555026
478000000 0.2786368 -0.4466380 0.7213632 0.4466380 0.7213632 0.4466380 0.2786368 -0.4466380
499000000 0.2613500 -0.4375999 0.7386500 0.4375999 0.7386500 0.4375999 0.2613500 -0.4375999
520000000 0.2454141 -0.4284816 0.7545859 0.4284816 0.7545859 0.4284816 0.2454141 -0.4284816
541000000 0.2307132 -0.4193569 0.7692868 0.4193569 0.7692868 0.4193569 0.2307132 -0.4193569
562000000 0.2171399 -0.4102842 0.7828601 0.4102842 0.7828601 0.4102842 0.2171399 -0.4102842
583000000 0.2045960 -0.4013086 0.7954040 0.4013086 0.7954040 0.4013086 0.2045960 -0.4013086
604000000 0.1929912 -0.3924648 0.8070088 0.3924648 0.8070088 0.3924648 0.1929912 -0.3924648
625000000 0.1822437 -0.3837791 0.8177563 0.3837791 0.8177563 0.3837791 0.1822437 -0.3837791
646000000 0.1722790 -0.3752709 0.8277210 0.3752709 0.8277210 0.3752709 0.1722790 -0.3752709
667000000 0.1630292 -0.3669538 0.8369708 0.3669538 0.8369708 0.3669538 0.1630292 -0.3669538
688000000 0.1544332 -0.3588373 0.8455668 0.3588373 0.8455668 0.3588373 0.1544332 -0.3588373
709000000 0.1464353 -0.3509272 0.8535647 0.3509272 0.8535647 0.3509272 0.1464353 -0.3509272
730000000 0.1389851 -0.3432263 0.8610149 0.3432263 0.8610149 0.3432263 0.1389851 -0.3432263
751000000 0.1320371 -0.3357355 0.8679629 0.3357355 0.8679629 0.3357355 0.1320371 -0.3357355
772000000 0.1255498 -0.3284538 0.8744502 0.3284538 0.8744502 0.3284538 0.1255498 -0.3284538
793000000 0.1194859 -0.3213787 0.8805141 0.3213787 0.8805141 0.3213787 0.1194859 -0.3213787
814000000 0.1138113 -0.3145069 0.8861887 0.3145069 0.8861887 0.3145069 0.1138113 -0.3145069
835000000 0.1084951 -0.3078340 0.8915049 0.3078340 0.8915049 0.3078340 0.1084951 -0.3078340
856000000 0.1035094 -0.3013555 0.8964906 0.3013555 0.8964906 0.3013555 0.1035094 -0.3013555
877000000 0.0988285 -0.2950660 0.9011715 0.2950660 0.9011715 0.2950660 0.0988285 -0.2950660
898000000 0.0944295 -0.2889600 0.9055705 0.2889600 0.9055705 0.2889600 0.0944295 -0.2889600
919000000 0.0902910 -0.2830320 0.9097090 0.2830320 0.9097090 0.2830320 0.0902910 -0.2830320
940000000 0.0863938 -0.2772761 0.9136062 0.2772761 0.9136062 0.2772761 0.0863938 -0.2772761
961000000 0.0827203 -0.2716867 0.9172797 0.2716867 0.9172797 0.2716867 0.0827203 -0.2716867
982000000 0.0792544 -0.2662578 0.9207456 0.2662578 0.9207456 0.2662578 0.0792544 -0.2662578
1003000000 0.0759815 -0.2609840 0.9240185 0.2609840 0.9240185 0.2609840 0.0759815 -0.2609840
1024000000 0.0728879 -0.2558595 0.9271121 0.2558595 0.9271121 0.2558595 0.0728879 -0.2558595
1045000000 0.0699614 -0.2508791 0.9300386 0.2508791 0.9300386 0.2508791 0.0699614 -0.2508791
1066000000 0.0671906 -0.2460373 0.9328094 0.2460373 0.9328094 0.2460373 0.0671906 -0.2460373
1087000000 0.0645651 -0.2413289 0.9354349 0.2413289 0.9354349 0.2413289 0.0645651 -0.2413289
1108000000 0.0620753 -0.2367492 0.9379247 0.2367492 0.9379247 0.2367492 0.0620753 -0.2367492
1129000000 0.0597123 -0.2322931 0.9402877 0.2322931 0.9402877 0.2322931 0.0597123 -0.2322931
1150000000 0.0574680 -0.2279561 0.9425320 0.2279561 0.9425320 0.2279561 0.0574680 -0.2279561
1171000000 0.0553350 -0.2237337 0.9446650 0.2237337 0.9446650 0.2237337 0.0553350 -0.2237337
1192000000 0.0533061 -0.2196215 0.9466939 0.2196215 0.9466939 0.2196215 0.0533061 -0.2196215
1213000000 0.0513751 -0.2156156 0.9486249 0.2156156 0.9486249 0.2156156 0.0513751 -0.2156156
1234000000 0.0495360 -0.2117118 0.9504640 0.2117118 0.9504640 0.2117118 0.0495360 -0.2117118
1255000000 0.0477832 -0.2079063 0.9522168 0.2079063 0.9522168 0.2079063 0.0477832 -0.2079063
1276000000 0.0461117 -0.2041956 0.9538883 0.2041956 0.9538883 0.2041956 0.0461117 -0.2041956
1297000000 0.0445167 -0.2005761 0.9554833 0.2005761 0.9554833 0.2005761 0.0445167 -0.2005761
1318000000 0.0429939 -0.1970445 0.9570061 0.1970445 0.9570061 0.1970445 0.0429939 -0.1970445
1339000000 0.0415390 -0.1935975 0.9584610 0.1935975 0.9584610 0.1935975 0.0415390 -0.1935975
1360000000 0.0401484 -0.1902321 0.9598516 0.1902321 0.9598516 0.1902321 0.0401484 -0.1902321
1381000000 0.0388184 -0.1869453 0.9611816 0.1869453 0.9611816 0.1869453 0.0388184 -0.1869453
1402000000 0.0375457 -0.1837343 0.9624543 0.1837343 0.9624543 0.1837343 0.0375457 -0.1837343
1423000000 0.0363273 -0.1805964 0.9636727 0.1805964 0.9636727 0.1805964 0.0363273 -0.1805964
1444000000 0.0351602 -0.1775291 0.9648398 0.1775291 0.9648398 0.1775291 0.0351602 -0.1775291
1465000000 0.0340417 -0.1745297 0.9659583 0.1745297 0.9659583 0.1745297 0.0340417 -0.1745297
1486000000 0.0329694 -0.1715960 0.9670306 0.1715960 0.9670306 0.1715960 0.0329694 -0.1715960
1507000000 0.0319408 -0.1687257 0.9680592 0.1687257 0.9680592 0.1687257 0.0319408 -0.1687257
1528000000 0.0309537 -0.1659166 0.9690463 0.1659166 0.9690463 0.1659166 0.0309537 -0.1659166
1549000000 0.0300061 -0.1631666 0.9699939 0.1631666 0.9699939 0.1631666 0.0300061 -0.1631666
1570000000 0.0290960 -0.1604737 0.9709040 0.1604737 0.9709040 0.1604737 0.0290960 -0.1604737
1591000000 0.0282216 -0.1578360 0.9717784 0.1578360 0.9717784 0.1578360 0.0282216 -0.1578360
1612000000 0.0273811 -0.1552517 0.9726189 0.1552517 0.9726189 0.1552517 0.0273811 -0.1552517
1633000000 0.0265729 -0.1527190 0.9734271 0.1527190 0.9734271 0.1527190 0.0265729 -0.1527190
1654000000 0.0257955 -0.1502361 0.9742045 0.1502361 0.9742045 0.1502361 0.0257955 -0.1502361
1675000000 0.0250474 -0.1478016 0.9749526 0.1478016 0.9749526 0.1478016 0.0250474 -0.1478016
1696000000 0.0243274 -0.1454138 0.9756726 0.1454138 0.9756726 0.1454138 0.0243274 -0.1454138
1717000000 0.0236340 -0.1430712 0.9763660 0.1430712 0.9763660 0.1430712 0.0236340 -0.1430712
1738000000 0.0229662 -0.1407724 0.9770338 0.1407724 0.9770338 0.1407724 0.0229662 -0.1407724
1759000000 0.0223228 -0.1385161 0.9776772 0.1385161 0.9776772 0.1385161 0.0223228 -0.1385161
1780000000 0.0217027 -0.1363009 0.9782973 0.1363009 0.9782973 0.1363009 0.0217027 -0.1363009
1801000000 0.0211048 -0.1341254 0.9788952 0.1341254 0.9788952 0.1341254 0.0211048 -0.1341254
1822000000 0.0205283 -0.1319886 0.9794717 0.1319886 0.9794717 0.1319886 0.0205283 -0.1319886
1843000000 0.0199722 -0.1298892 0.9800278 0.1298892 0.9800278 0.1298892 0.0199722 -0.1298892
1864000000 0.0194357 -0.1278262 0.9805643 0.1278262 0.9805643 0.1278262 0.0194357 -0.1278262
1885000000 0.0189179 -0.1257983 0.9810821 0.1257983 0.9810821 0.1257983 0.0189179 -0.1257983
1906000000 0.0184181 -0.1238046 0.9815819 0.1238046 0.9815819 0.1238046 0.0184181 -0.1238046
1927000000 0.0179355 -0.1218441 0.9820645 0.1218441 0.9820645 0.1218441 0.0179355 -0.1218441
1948000000 0.0174695 -0.1199158 0.9825305 0.1199158 0.9825305 0.1199158 0.0174695 -0.1199158
1969000000 0.0170193 -0.1180187 0.9829807 0.1180187 0.9829807 0.1180187 0.0170193 -0.1180187
1990000000 0.0165844 -0.1161520 0.9834156 0.1161520 0.9834156 0.1161520 0.0165844 -0.1161520
2011000000 0.0161641 -0.1143148 0.9838359 0.1143148 0.9838359 0.1143148 0.0161641 -0.1143148
2032000000 0.0157579 -0.1125062 0.9842421 0.1125062 0.9842421 0.1125062 0.0157579 -0.1125062
2053000000 0.0153652 -0.1107255 0.9846348 0.1107255 0.9846348 0.1107255 0.0153652 -0.1107255
2074000000 0.0149856 -0.1089719 0.9850144 0.1089719 0.9850144 0.1089719 0.0149856 -0.1089719
2095000000 0.0146185 -0.1072446 0.9853815 0.1072446 0.9853815 0.1072446 0.0146185 -0.1072446
2116000000 0.0142635 -0.1055430 0.9857365 0.1055430 0.9857365 0.1055430 0.0142635 -0.1055430
2137000000 0.0139201 -0.1038662 0.9860799 0.1038662 0.9860799 0.1038662 0.0139201 -0.1038662
2158000000 0.0135879 -0.1022137 0.9864121 0.1022137 0.9864121 0.1022137 0.0135879 -0.1022137
2179000000 0.0132665 -0.1005848 0.9867335 0.1005848 0.9867335 0.1005848 0.0132665 -0.1005848
2200000000 0.0129555 -0.0989788 0.9870445 0.0989788 0.9870445 0.0989788 0.0129555 -0.0989788
2221000000 0.0126546 -0.0973952 0.9873454 0.0973952 0.9873454 0.0973952 0.0126546 -0.0973952
2242000000 0.0123633 -0.0958334 0.9876367 0.0958334 0.9876367 0.0958334 0.0123633 -0.0958334
2263000000 0.0120814 -0.0942928 0.9879186 0.0942928 0.9879186 0.0942928 0.0120814 -0.0942928
2284000000 0.0118085 -0.0927728 0.9881915 0.0927728 0.9881915 0.0927728 0.0118085 -0.0927728
2305000000 0.0115444 -0.0912729 0.9884556 0.0912729 0.9884556 0.0912729 0.0115444 -0.0912729
2326000000 0.0112887 -0.0897927 0.9887113 0.0897927 0.9887113 0.0897927 0.0112887 -0.0897927
2347000000 0.0110411 -0.0883316 0.9889589 0.0883316 0.9889589 0.0883316 0.0110411 -0.0883316
2368000000 0.0108015 -0.0868891 0.9891985 0.0868891 0.9891985 0.0868891 0.0108015 -0.0868891
2389000000 0.0105694 -0.0854648 0.9894306 0.0854648 0.9894306 0.0854648 0.0105694 -0.0854648
2410000000 0.0103447 -0.0840582 0.9896553 0.0840582 0.9896553 0.0840582 0.0103447 -0.0840582
2431000000 0.0101272 -0.0826689 0.9898728 0.0826689 0.9898728 0.0826689 0.0101272 -0.0826689
2452000000 0.0099165 -0.0812965 0.9900835 0.0812965 0.9900835 0.0812965 0.0099165 -0.0812965
2473000000 0.0097126 -0.0799405 0.9902874 0.0799405 0.9902874 0.0799405 0.0097126 -0.0799405
2494000000 0.0095151 -0.0786006 0.9904849 0.0786006 0.9904849 0.0786006 0.0095151 -0.0786006
2515000000 0.0093240 -0.0772763 0.9906760 0.0772763 0.9906760 0.0772763 0.0093240 -0.0772763
2536000000 0.0091389 -0.0759674 0.9908611 0.0759674 0.9908611 0.0759674 0.0091389 -0.0759674
2557000000 0.0089597 -0.0746733 0.9910403 0.0746733 0.9910403 0.0746733 0.0089597 -0.0746733
2578000000 0.0087863 -0.0733939 0.9912137 0.0733939 0.9912137 0.0733939 0.0087863 -0.0733939
2599000000 0.0086184 -0.0721287 0.9913816 0.0721287 0.9913816 0.0721287 0.0086184 -0.0721287
2620000000 0.0084559 -0.0708775 0.9915441 0.0708775 0.9915441 0.0708775 0.0084559 -0.0708775
2641000000 0.0082986 -0.0696398 0.9917014 0.0696398 0.9917014 0.0696398 0.0082986 -0.0696398
2662000000 0.0081465 -0.0684154 0.9918535 0.0684154 0.9918535 0.0684154 0.0081465 -0.0684154
2683000000 0.0079992 -0.0672041 0.9920008 0.0672041 0.9920008 0.0672041 0.0079992 -0.0672041
2704000000 0.0078568 -0.0660053 0.9921432 0.0660053 0.9921432 0.0660053 0.0078568 -0.0660053
2725000000 0.0077190 -0.0648190 0.9922810 0.0648190 0.9922810 0.0648190 0.0077190 -0.0648190
2746000000 0.0075858 -0.0636449 0.9924142 0.0636449 0.9924142 0.0636449 0.0075858 -0.0636449
2767000000 0.0074569 -0.0624825 0.9925431 0.0624825 0.9925431 0.0624825 0.0074569 -0.0624825
2788000000 0.0073324 -0.0613318 0.9926676 0.0613318 0.9926676 0.0613318 0.0073324 -0.0613318
2809000000 0.0072120 -0.0601924 0.9927880 0.0601924 0.9927880 0.0601924 0.0072120 -0.0601924
2830000000 0.0070957 -0.0590641 0.9929043 0.0590641 0.9929043 0.0590641 0.0070957 -0.0590641
2851000000 0.0069834 -0.0579467 0.9930166 0.0579467 0.9930166 0.0579467 0.0069834 -0.0579467
2872000000 0.0068749 -0.0568398 0.9931251 0.0568398 0.9931251 0.0568398 0.0068749 -0.0568398
2893000000 0.0067701 -0.0557434 0.9932299 0.0557434 0.9932299 0.0557434 0.0067701 -0.0557434
2914000000 0.0066690 -0.0546571 0.9933310 0.0546571 0.9933310 0.0546571 0.0066690 -0.0546571
2935000000 0.0065715 -0.0535808 0.9934285 0.0535808 0.9934285 0.0535808 0.0065715 -0.0535808
2956000000 0.0064774 -0.0525142 0.9935226 0.0525142 0.9935226 0.0525142 0.0064774 -0.0525142
2977000000 0.0063867 -0.0514571 0.9936133 0.0514571 0.9936133 0.0514571 0.0063867 -0.0514571
2998000000 0.0062993 -0.0504094 0.9937007 0.0504094 0.9937007 0.0504094 0.0062993 -0.0504094
3019000000 0.0062151 -0.0493708 0.9937849 0.0493708 0.9937849 0.0493708 0.0062151 -0.0493708
3040000000 0.0061341 -0.0483411 0.9938659 0.0483411 0.9938659 0.0483411 0.0061341 -0.0483411
3061000000 0.0060561 -0.0473202 0.9939439 0.0473202 0.9939439 0.0473202 0.0060561 -0.0473202
3082000000 0.0059811 -0.0463079 0.9940189 0.0463079 0.9940189 0.0463079 0.0059811 -0.0463079
3103000000 0.0059090 -0.0453040 0.9940910 0.0453040 0.9940910 0.0453040 0.0059090 -0.0453040
3124000000 0.0058398 -0.0443083 0.9941602 0.0443083 0.9941602 0.0443083 0.0058398 -0.0443083
3145000000 0.0057734 -0.0433207 0.9942266 0.0433207 0.9942266 0.0433207 0.0057734 -0.0433207
3166000000 0.0057097 -0.0423410 0.9942903 0.0423410 0.9942903 0.0423410 0.0057097 -0.0423410
3187000000 0.0056486 -0.0413691 0.9943514 0.0413691 0.9943514 0.0413691 0.0056486 -0.0413691
3208000000 0.0055902 -0.0404047 0.9944098 0.0404047 0.9944098 0.0404047 0.0055902 -0.0404047
3229000000 0.0055342 -0.0394478 0.9944658 0.0394478 0.9944658 0.0394478 0.0055342 -0.0394478
3250000000 0.0054808 -0.0384981 0.9945192 0.0384981 0.9945192 0.0384981 0.0054808 -0.0384981
3271000000 0.0054298 -0.0375556 0.9945702 0.0375556 0.9945702 0.0375556 0.0054298 -0.0375556
3292000000 0.0053812 -0.0366201 0.9946188 0.0366201 0.9946188 0.0366201 0.0053812 -0.0366201
3313000000 0.0053350 -0.0356915 0.9946650 0.0356915 0.9946650 0.0356915 0.0053350 -0.0356915
3334000000 0.0052910 -0.0347696 0.9947090 0.0347696 0.9947090 0.0347696 0.0052910 -0.0347696
3355000000 0.0052492 -0.0338543 0.9947508 0.0338543 0.9947508 0.0338543 0.0052492 -0.0338543
3376000000 0.0052097 -0.0329455 0.9947903 0.0329455 0.9947903 0.0329455 0.0052097 -0.0329455
3397000000 0.0051722 -0.0320430 0.9948278 0.0320430 0.9948278 0.0320430 0.0051722 -0.0320430
3418000000 0.0051369 -0.0311468 0.9948631 0.0311468 0.9948631 0.0311468 0.0051369 -0.0311468
3439000000 0.0051037 -0.0302566 0.9948963 0.0302566 0.9948963 0.0302566 0.0051037 -0.0302566
3460000000 0.0050724 -0.0293725 0.9949276 0.0293725 0.9949276 0.0293725 0.0050724 -0.0293725
3481000000 0.0050432 -0.0284942 0.9949568 0.0284942 0.9949568 0.0284942 0.0050432 -0.0284942
3502000000 0.0050159 -0.0276216 0.9949841 0.0276216 0.9949841 0.0276216 0.0050159 -0.0276216
3523000000 0.0049905 -0.0267548 0.9950095 0.0267548 0.9950095 0.0267548 0.0049905 -0.0267548
3544000000 0.0049670 -0.0258934 0.9950330 0.0258934 0.9950330 0.0258934 0.0049670 -0.0258934
3565000000 0.0049453 -0.0250375 0.9950547 0.0250375 0.9950547 0.0250375 0.0049453 -0.0250375
3586000000 0.0049254 -0.0241870 0.9950746 0.0241870 0.9950746 0.0241870 0.0049254 -0.0241870
3607000000 0.0049073 -0.0233416 0.9950927 0.0233416 0.9950927 0.0233416 0.0049073 -0.0233416
3628000000 0.0048909 -0.0225014 0.9951091 0.0225014 0.9951091 0.0225014 0.0048909 -0.0225014
3649000000 0.0048763 -0.0216663 0.9951237 0.0216663 0.9951237 0.0216663 0.0048763 -0.0216663
3670000000 0.0048633 -0.0208360 0.9951367 0.0208360 0.9951367 0.0208360 0.0048633 -0.0208360
3691000000 0.0048520 -0.0200107 0.9951480 0.0200107 0.9951480 0.0200107 0.0048520 -0.0200107
3712000000 0.0048423 -0.0191901 0.9951577 0.0191901 0.9951577 0.0191901 0.0048423 -0.0191901
3733000000 0.0048342 -0.0183742 0.9951658 0.0183742 0.9951658 0.0183742 0.0048342 -0.0183742
3754000000 0.0048277 -0.0175628 0.9951723 0.0175628 0.9951723 0.0175628 0.0048277 -0.0175628
3775000000 0.0048228 -0.0167560 0.9951772 0.0167560 0.9951772 0.0167560 0.0048228 -0.0167560
3796000000 0.0048193 -0.0159535 0.9951807 0.0159535 0.9951807 0.0159535 0.0048193 -0.0159535
3817000000 0.0048174 -0.0151555 0.9951826 0.0151555 0.9951826 0.0151555 0.0048174 -0.0151555
3838000000 0.0048170 -0.0143616 0.9951830 0.0143616 0.9951830 0.0143616 0.0048170 -0.0143616
3859000000 0.0048180 -0.0135720 0.9951820 0.0135720 0.9951820 0.0135720 0.0048180 -0.0135720
3880000000 0.0048204 -0.0127864 0.9951796 0.0127864 0.9951796 0.0127864 0.0048204 -0.0127864
3901000000 0.0048243 -0.0120049 0.9951757 0.0120049 0.9951757 0.0120049 0.0048243 -0.0120049
3922000000 0.0048296 -0.0112273 0.9951704 0.0112273 0.9951704 0.0112273 0.0048296 -0.0112273
3943000000 0.0048362 -0.0104536 0.9951638 0.0104536 0.9951638 0.0104536 0.0048362 -0.0104536
3964000000 0.0048442 -0.0096837 0.9951558 0.0096837 0.9951558 0.0096837 0.0048442 -0.0096837
3985000000 0.0048536 -0.0089175 0.9951464 0.0089175 0.9951464 0.0089175 0.0048536 -0.0089175
4006000000 0.0048642 -0.0081550 0.9951358 0.0081550 0.9951358 0.0081550 0.0048642 -0.0081550
4027000000 0.0048762 -0.0073961 0.9951238 0.0073961 0.9951238 0.0073961 0.0048762 -0.0073961
4048000000 0.0048895 -0.0066407 0.9951105 0.0066407 0.9951105 0.0066407 0.0048895 -0.0066407
4069000000 0.0049041 -0.0058888 0.9950959 0.0058888 0.9950959 0.0058888 0.0049041 -0.0058888
4090000000 0.0049199 -0.0051403 0.9950801 0.0051403 0.9950801 0.0051403 0.0049199 -0.0051403
4111000000 0.0049369 -0.0043952 0.9950631 0.0043952 0.9950631 0.0043952 0.0049369 -0.0043952
4132000000 0.0049552 -0.0036533 0.9950448 0.0036533 0.9950448 0.0036533 0.0049552 -0.0036533
4153000000 0.0049747 -0.0029147 0.9950253 0.0029147 0.9950253 0.0029147 0.0049747 -0.0029147
4174000000 0.0049955 -0.0021792 0.9950045 0.0021792 0.9950045 0.0021792 0.0049955 -0.0021792
4195000000 0.0050174 -0.0014468 0.9949826 0.0014468 0.9949826 0.0014468 0.0050174 -0.0014468
4216000000 0.0050405 -0.0007175 0.9949595 0.0007175 0.9949595 0.0007175 0.0050405 -0.0007175
4237000000 0.0050647 0.0000089 0.9949353 -0.0000089 0.9949353 -0.0000089 0.0050647 0.0000089
4258000000 0.0050902 0.0007323 0.9949098 -0.0007323 0.9949098 -0.0007323 0.0050902 0.0007323
4279000000 0.0051167 0.0014528 0.9948833 -0.0014528 0.9948833 -0.0014528 0.0051167 0.0014528
4300000000 0.0051444 0.0021706 0.9948556 -0.0021706 0.9948556 -0.0021706 0.0051444 0.0021706
4321000000 0.0051733 0.0028855 0.9948267 -0.0028855 0.9948267 -0.0028855 0.0051733 0.0028855
4342000000 0.0052032 0.0035977 0.9947968 -0.0035977 0.9947968 -0.0035977 0.0052032 0.0035977
4363000000 0.0052343 0.0043073 0.9947657 -0.0043073 0.9947657 -0.0043073 0.0052343 0.0043073
4384000000 0.0052665 0.0050142 0.9947335 -0.0050142 0.9947335 -0.0050142 0.0052665 0.0050142
4405000000 0.0052997 0.0057185 0.9947003 -0.0057185 0.9947003 -0.0057185 0.0052997 0.0057185
4426000000 0.0053341 0.0064204 0.9946659 -0.0064204 0.9946659 -0.0064204 0.0053341 0.0064204
4447000000 0.0053695 0.0071197 0.9946305 -0.0071197 0.9946305 -0.0071197 0.0053695 0.0071197
4468000000 0.0054060 0.0078166 0.9945940 -0.0078166 0.9945940 -0.0078166 0.0054060 0.0078166
4489000000 0.0054435 0.0085111 0.9945565 -0.0085111 0.9945565 -0.0085111 0.0054435 0.0085111
4510000000 0.0054821 0.0092033 0.9945179 -0.0092033 0.9945179 -0.0092033 0.0054821 0.0092033
