!Murata Part Number: GRM0334C2A1R9WA01
!These Parameters are Measured in Series Mode Connection
!Data Generated on Mar 30, 2021
!       o--ll--o
!Port1            Port2
!       o------o
!Operation Temp=25[degC], DC Bias Voltage=0[V]
!Freq. Start=100[MHz] Stop=9[GHz] 401[Steps]
# Hz S RI R 50
!Freq.(Hz) S11(Real) S11(Imag) S21(Real) S21(Imag) S12(Real) S12(Imag) S22(Real) S22(Imag)
100000000 0.9859057 -0.1177126 0.0140943 0.1177126 0.0140943 0.1177126 0.9859057 -0.1177126
121000000 0.9794959 -0.1415145 0.0205041 0.1415145 0.0205041 0.1415145 0.9794959 -0.1415145
142000000 0.9719736 -0.1648108 0.0280264 0.1648108 0.0280264 0.1648108 0.9719736 -0.1648108
163000000 0.9633903 -0.1875287 0.0366097 0.1875287 0.0366097 0.1875287 0.9633903 -0.1875287
184000000 0.9538039 -0.2096014 0.0461961 0.2096014 0.0461961 0.2096014 0.9538039 -0.2096014
205000000 0.9432768 -0.2309695 0.0567232 0.2309695 0.0567232 0.2309695 0.9432768 -0.2309695
226000000 0.9318755 -0.2515806 0.0681245 0.2515806 0.0681245 0.2515806 0.9318755 -0.2515806
247000000 0.9196695 -0.2713898 0.0803305 0.2713898 0.0803305 0.2713898 0.9196695 -0.2713898
268000000 0.9067305 -0.2903597 0.0932695 0.2903597 0.0932695 0.2903597 0.9067305 -0.2903597
289000000 0.8931312 -0.3084607 0.1068688 0.3084607 0.1068688 0.3084607 0.8931312 -0.3084607
310000000 0.8789445 -0.3256703 0.1210555 0.3256703 0.1210555 0.3256703 0.8789445 -0.3256703
331000000 0.8642431 -0.3419730 0.1357569 0.3419730 0.1357569 0.3419730 0.8642431 -0.3419730
352000000 0.8490980 -0.3573601 0.1509020 0.3573601 0.1509020 0.3573601 0.8490980 -0.3573601
373000000 0.8335786 -0.3718291 0.1664214 0.3718291 0.1664214 0.3718291 0.8335786 -0.3718291
394000000 0.8177519 -0.3853833 0.1822481 0.3853833 0.1822481 0.3853833 0.8177519 -0.3853833
415000000 0.8016819 -0.3980311 0.1983181 0.3980311 0.1983181 0.3980311 0.8016819 -0.3980311
436000000 0.7854292 -0.4097858 0.2145708 0.4097858 0.2145708 0.4097858 0.7854292 -0.4097858
457000000 0.7690512 -0.4206647 0.2309488 0.4206647 0.2309488 0.4206647 0.7690512 -0.4206647
478000000 0.7526013 -0.4306886 0.2473987 0.4306886 0.2473987 0.4306886 0.7526013 -0.4306886
499000000 0.7361291 -0.4398815 0.2638709 0.4398815 0.2638709 0.4398815 0.7361291 -0.4398815
520000000 0.7196802 -0.4482696 0.2803198 0.4482696 0.2803198 0.4482696 0.7196802 -0.4482696
541000000 0.7032966 -0.4558816 0.2967034 0.4558816 0.2967034 0.4558816 0.7032966 -0.4558816
562000000 0.6870160 -0.4627475 0.3129840 0.4627475 0.3129840 0.4627475 0.6870160 -0.4627475
583000000 0.6708725 -0.4688983 0.3291275 0.4688983 0.3291275 0.4688983 0.6708725 -0.4688983
604000000 0.6548967 -0.4743661 0.3451033 0.4743661 0.3451033 0.4743661 0.6548967 -0.4743661
625000000 0.6391154 -0.4791833 0.3608846 0.4791833 0.3608846 0.4791833 0.6391154 -0.4791833
646000000 0.6235523 -0.4833823 0.3764477 0.4833823 0.3764477 0.4833823 0.6235523 -0.4833823
667000000 0.6082280 -0.4869957 0.3917720 0.4869957 0.3917720 0.4869957 0.6082280 -0.4869957
688000000 0.5931598 -0.4900555 0.4068402 0.4900555 0.4068402 0.4900555 0.5931598 -0.4900555
709000000 0.5783628 -0.4925932 0.4216372 0.4925932 0.4216372 0.4925932 0.5783628 -0.4925932
730000000 0.5638491 -0.4946395 0.4361509 0.4946395 0.4361509 0.4946395 0.5638491 -0.4946395
751000000 0.5496288 -0.4962246 0.4503712 0.4962246 0.4503712 0.4962246 0.5496288 -0.4962246
772000000 0.5357098 -0.4973773 0.4642902 0.4973773 0.4642902 0.4973773 0.5357098 -0.4973773
793000000 0.5220980 -0.4981258 0.4779020 0.4981258 0.4779020 0.4981258 0.5220980 -0.4981258
814000000 0.5087975 -0.4984969 0.4912025 0.4984969 0.4912025 0.4984969 0.5087975 -0.4984969
835000000 0.4958111 -0.4985164 0.5041889 0.4985164 0.5041889 0.4985164 0.4958111 -0.4985164
856000000 0.4831400 -0.4982090 0.5168600 0.4982090 0.5168600 0.4982090 0.4831400 -0.4982090
877000000 0.4707842 -0.4975982 0.5292158 0.4975982 0.5292158 0.4975982 0.4707842 -0.4975982
898000000 0.4587426 -0.4967063 0.5412574 0.4967063 0.5412574 0.4967063 0.4587426 -0.4967063
919000000 0.4470131 -0.4955544 0.5529869 0.4955544 0.5529869 0.4955544 0.4470131 -0.4955544
940000000 0.4355929 -0.4941626 0.5644071 0.4941626 0.5644071 0.4941626 0.4355929 -0.4941626
961000000 0.4244783 -0.4925497 0.5755217 0.4925497 0.5755217 0.4925497 0.4244783 -0.4925497
982000000 0.4136651 -0.4907337 0.5863349 0.4907337 0.5863349 0.4907337 0.4136651 -0.4907337
1003000000 0.4031486 -0.4887313 0.5968514 0.4887313 0.5968514 0.4887313 0.4031486 -0.4887313
1024000000 0.3929234 -0.4865582 0.6070766 0.4865582 0.6070766 0.4865582 0.3929234 -0.4865582
1045000000 0.3829841 -0.4842293 0.6170159 0.4842293 0.6170159 0.4842293 0.3829841 -0.4842293
1066000000 0.3733248 -0.4817585 0.6266752 0.4817585 0.6266752 0.4817585 0.3733248 -0.4817585
1087000000 0.3639393 -0.4791587 0.6360607 0.4791587 0.6360607 0.4791587 0.3639393 -0.4791587
1108000000 0.3548213 -0.4764420 0.6451787 0.4764420 0.6451787 0.4764420 0.3548213 -0.4764420
1129000000 0.3459645 -0.4736199 0.6540355 0.4736199 0.6540355 0.4736199 0.3459645 -0.4736199
1150000000 0.3373623 -0.4707028 0.6626377 0.4707028 0.6626377 0.4707028 0.3373623 -0.4707028
1171000000 0.3290081 -0.4677006 0.6709919 0.4677006 0.6709919 0.4677006 0.3290081 -0.4677006
1192000000 0.3208953 -0.4646226 0.6791047 0.4646226 0.6791047 0.4646226 0.3208953 -0.4646226
1213000000 0.3130174 -0.4614771 0.6869826 0.4614771 0.6869826 0.4614771 0.3130174 -0.4614771
1234000000 0.3053679 -0.4582722 0.6946321 0.4582722 0.6946321 0.4582722 0.3053679 -0.4582722
1255000000 0.2979401 -0.4550152 0.7020599 0.4550152 0.7020599 0.4550152 0.2979401 -0.4550152
1276000000 0.2907277 -0.4517130 0.7092723 0.4517130 0.7092723 0.4517130 0.2907277 -0.4517130
1297000000 0.2837245 -0.4483718 0.7162755 0.4483718 0.7162755 0.4483718 0.2837245 -0.4483718
1318000000 0.2769240 -0.4449975 0.7230760 0.4449975 0.7230760 0.4449975 0.2769240 -0.4449975
1339000000 0.2703203 -0.4415955 0.7296797 0.4415955 0.7296797 0.4415955 0.2703203 -0.4415955
1360000000 0.2639074 -0.4381709 0.7360926 0.4381709 0.7360926 0.4381709 0.2639074 -0.4381709
1381000000 0.2576793 -0.4347282 0.7423207 0.4347282 0.7423207 0.4347282 0.2576793 -0.4347282
1402000000 0.2516304 -0.4312718 0.7483696 0.4312718 0.7483696 0.4312718 0.2516304 -0.4312718
1423000000 0.2457551 -0.4278055 0.7542449 0.4278055 0.7542449 0.4278055 0.2457551 -0.4278055
1444000000 0.2400478 -0.4243329 0.7599522 0.4243329 0.7599522 0.4243329 0.2400478 -0.4243329
1465000000 0.2345035 -0.4208575 0.7654965 0.4208575 0.7654965 0.4208575 0.2345035 -0.4208575
1486000000 0.2291168 -0.4173822 0.7708832 0.4173822 0.7708832 0.4173822 0.2291168 -0.4173822
1507000000 0.2238827 -0.4139098 0.7761173 0.4139098 0.7761173 0.4139098 0.2238827 -0.4139098
1528000000 0.2187965 -0.4104430 0.7812035 0.4104430 0.7812035 0.4104430 0.2187965 -0.4104430
1549000000 0.2138533 -0.4069840 0.7861467 0.4069840 0.7861467 0.4069840 0.2138533 -0.4069840
1570000000 0.2090487 -0.4035351 0.7909513 0.4035351 0.7909513 0.4035351 0.2090487 -0.4035351
1591000000 0.2043781 -0.4000981 0.7956219 0.4000981 0.7956219 0.4000981 0.2043781 -0.4000981
1612000000 0.1998373 -0.3966749 0.8001627 0.3966749 0.8001627 0.3966749 0.1998373 -0.3966749
1633000000 0.1954221 -0.3932671 0.8045779 0.3932671 0.8045779 0.3932671 0.1954221 -0.3932671
1654000000 0.1911285 -0.3898761 0.8088715 0.3898761 0.8088715 0.3898761 0.1911285 -0.3898761
1675000000 0.1869527 -0.3865034 0.8130473 0.3865034 0.8130473 0.3865034 0.1869527 -0.3865034
1696000000 0.1828907 -0.3831500 0.8171093 0.3831500 0.8171093 0.3831500 0.1828907 -0.3831500
1717000000 0.1789391 -0.3798170 0.8210609 0.3798170 0.8210609 0.3798170 0.1789391 -0.3798170
1738000000 0.1750942 -0.3765055 0.8249058 0.3765055 0.8249058 0.3765055 0.1750942 -0.3765055
1759000000 0.1713528 -0.3732163 0.8286472 0.3732163 0.8286472 0.3732163 0.1713528 -0.3732163
1780000000 0.1677114 -0.3699502 0.8322886 0.3699502 0.8322886 0.3699502 0.1677114 -0.3699502
1801000000 0.1641669 -0.3667078 0.8358331 0.3667078 0.8358331 0.3667078 0.1641669 -0.3667078
1822000000 0.1607163 -0.3634898 0.8392837 0.3634898 0.8392837 0.3634898 0.1607163 -0.3634898
1843000000 0.1573566 -0.3602967 0.8426434 0.3602967 0.8426434 0.3602967 0.1573566 -0.3602967
1864000000 0.1540849 -0.3571289 0.8459151 0.3571289 0.8459151 0.3571289 0.1540849 -0.3571289
1885000000 0.1508985 -0.3539868 0.8491015 0.3539868 0.8491015 0.3539868 0.1508985 -0.3539868
1906000000 0.1477947 -0.3508707 0.8522053 0.3508707 0.8522053 0.3508707 0.1477947 -0.3508707
1927000000 0.1447710 -0.3477810 0.8552290 0.3477810 0.8552290 0.3477810 0.1447710 -0.3477810
1948000000 0.1418248 -0.3447179 0.8581752 0.3447179 0.8581752 0.3447179 0.1418248 -0.3447179
1969000000 0.1389538 -0.3416814 0.8610462 0.3416814 0.8610462 0.3416814 0.1389538 -0.3416814
1990000000 0.1361556 -0.3386719 0.8638444 0.3386719 0.8638444 0.3386719 0.1361556 -0.3386719
2011000000 0.1334280 -0.3356893 0.8665720 0.3356893 0.8665720 0.3356893 0.1334280 -0.3356893
2032000000 0.1307689 -0.3327337 0.8692311 0.3327337 0.8692311 0.3327337 0.1307689 -0.3327337
2053000000 0.1281761 -0.3298052 0.8718239 0.3298052 0.8718239 0.3298052 0.1281761 -0.3298052
2074000000 0.1256477 -0.3269037 0.8743523 0.3269037 0.8743523 0.3269037 0.1256477 -0.3269037
2095000000 0.1231817 -0.3240292 0.8768183 0.3240292 0.8768183 0.3240292 0.1231817 -0.3240292
2116000000 0.1207762 -0.3211817 0.8792238 0.3211817 0.8792238 0.3211817 0.1207762 -0.3211817
2137000000 0.1184295 -0.3183611 0.8815705 0.3183611 0.8815705 0.3183611 0.1184295 -0.3183611
2158000000 0.1161398 -0.3155672 0.8838602 0.3155672 0.8838602 0.3155672 0.1161398 -0.3155672
2179000000 0.1139053 -0.3128001 0.8860947 0.3128001 0.8860947 0.3128001 0.1139053 -0.3128001
2200000000 0.1117245 -0.3100594 0.8882755 0.3100594 0.8882755 0.3100594 0.1117245 -0.3100594
2221000000 0.1095958 -0.3073451 0.8904042 0.3073451 0.8904042 0.3073451 0.1095958 -0.3073451
2242000000 0.1075177 -0.3046569 0.8924823 0.3046569 0.8924823 0.3046569 0.1075177 -0.3046569
2263000000 0.1054887 -0.3019948 0.8945113 0.3019948 0.8945113 0.3019948 0.1054887 -0.3019948
2284000000 0.1035073 -0.2993585 0.8964927 0.2993585 0.8964927 0.2993585 0.1035073 -0.2993585
2305000000 0.1015722 -0.2967478 0.8984278 0.2967478 0.8984278 0.2967478 0.1015722 -0.2967478
2326000000 0.0996821 -0.2941625 0.9003179 0.2941625 0.9003179 0.2941625 0.0996821 -0.2941625
2347000000 0.0978357 -0.2916024 0.9021643 0.2916024 0.9021643 0.2916024 0.0978357 -0.2916024
2368000000 0.0960318 -0.2890672 0.9039682 0.2890672 0.9039682 0.2890672 0.0960318 -0.2890672
2389000000 0.0942691 -0.2865567 0.9057309 0.2865567 0.9057309 0.2865567 0.0942691 -0.2865567
2410000000 0.0925465 -0.2840707 0.9074535 0.2840707 0.9074535 0.2840707 0.0925465 -0.2840707
2431000000 0.0908628 -0.2816089 0.9091372 0.2816089 0.9091372 0.2816089 0.0908628 -0.2816089
2452000000 0.0892171 -0.2791711 0.9107829 0.2791711 0.9107829 0.2791711 0.0892171 -0.2791711
2473000000 0.0876082 -0.2767570 0.9123918 0.2767570 0.9123918 0.2767570 0.0876082 -0.2767570
2494000000 0.0860352 -0.2743663 0.9139648 0.2743663 0.9139648 0.2743663 0.0860352 -0.2743663
2515000000 0.0844970 -0.2719989 0.9155030 0.2719989 0.9155030 0.2719989 0.0844970 -0.2719989
2536000000 0.0829927 -0.2696543 0.9170073 0.2696543 0.9170073 0.2696543 0.0829927 -0.2696543
2557000000 0.0815214 -0.2673324 0.9184786 0.2673324 0.9184786 0.2673324 0.0815214 -0.2673324
2578000000 0.0800822 -0.2650330 0.9199178 0.2650330 0.9199178 0.2650330 0.0800822 -0.2650330
2599000000 0.0786742 -0.2627556 0.9213258 0.2627556 0.9213258 0.2627556 0.0786742 -0.2627556
2620000000 0.0772966 -0.2605001 0.9227034 0.2605001 0.9227034 0.2605001 0.0772966 -0.2605001
2641000000 0.0759486 -0.2582662 0.9240514 0.2582662 0.9240514 0.2582662 0.0759486 -0.2582662
2662000000 0.0746294 -0.2560536 0.9253706 0.2560536 0.9253706 0.2560536 0.0746294 -0.2560536
2683000000 0.0733383 -0.2538621 0.9266617 0.2538621 0.9266617 0.2538621 0.0733383 -0.2538621
2704000000 0.0720746 -0.2516914 0.9279254 0.2516914 0.9279254 0.2516914 0.0720746 -0.2516914
2725000000 0.0708374 -0.2495412 0.9291626 0.2495412 0.9291626 0.2495412 0.0708374 -0.2495412
2746000000 0.0696262 -0.2474113 0.9303738 0.2474113 0.9303738 0.2474113 0.0696262 -0.2474113
2767000000 0.0684402 -0.2453013 0.9315598 0.2453013 0.9315598 0.2453013 0.0684402 -0.2453013
2788000000 0.0672789 -0.2432112 0.9327211 0.2432112 0.9327211 0.2432112 0.0672789 -0.2432112
2809000000 0.0661415 -0.2411405 0.9338585 0.2411405 0.9338585 0.2411405 0.0661415 -0.2411405
2830000000 0.0650275 -0.2390890 0.9349725 0.2390890 0.9349725 0.2390890 0.0650275 -0.2390890
2851000000 0.0639364 -0.2370565 0.9360636 0.2370565 0.9360636 0.2370565 0.0639364 -0.2370565
2872000000 0.0628674 -0.2350427 0.9371326 0.2350427 0.9371326 0.2350427 0.0628674 -0.2350427
2893000000 0.0618202 -0.2330474 0.9381798 0.2330474 0.9381798 0.2330474 0.0618202 -0.2330474
2914000000 0.0607940 -0.2310704 0.9392060 0.2310704 0.9392060 0.2310704 0.0607940 -0.2310704
2935000000 0.0597885 -0.2291112 0.9402115 0.2291112 0.9402115 0.2291112 0.0597885 -0.2291112
2956000000 0.0588031 -0.2271699 0.9411969 0.2271699 0.9411969 0.2271699 0.0588031 -0.2271699
2977000000 0.0578373 -0.2252460 0.9421627 0.2252460 0.9421627 0.2252460 0.0578373 -0.2252460
2998000000 0.0568907 -0.2233393 0.9431093 0.2233393 0.9431093 0.2233393 0.0568907 -0.2233393
3019000000 0.0559628 -0.2214497 0.9440372 0.2214497 0.9440372 0.2214497 0.0559628 -0.2214497
3040000000 0.0550531 -0.2195768 0.9449469 0.2195768 0.9449469 0.2195768 0.0550531 -0.2195768
3061000000 0.0541612 -0.2177205 0.9458388 0.2177205 0.9458388 0.2177205 0.0541612 -0.2177205
3082000000 0.0532867 -0.2158806 0.9467133 0.2158806 0.9467133 0.2158806 0.0532867 -0.2158806
3103000000 0.0524291 -0.2140567 0.9475709 0.2140567 0.9475709 0.2140567 0.0524291 -0.2140567
3124000000 0.0515881 -0.2122487 0.9484119 0.2122487 0.9484119 0.2122487 0.0515881 -0.2122487
3145000000 0.0507633 -0.2104563 0.9492367 0.2104563 0.9492367 0.2104563 0.0507633 -0.2104563
3166000000 0.0499543 -0.2086794 0.9500457 0.2086794 0.9500457 0.2086794 0.0499543 -0.2086794
3187000000 0.0491608 -0.2069177 0.9508392 0.2069177 0.9508392 0.2069177 0.0491608 -0.2069177
3208000000 0.0483824 -0.2051710 0.9516176 0.2051710 0.9516176 0.2051710 0.0483824 -0.2051710
3229000000 0.0476186 -0.2034391 0.9523814 0.2034391 0.9523814 0.2034391 0.0476186 -0.2034391
3250000000 0.0468693 -0.2017218 0.9531307 0.2017218 0.9531307 0.2017218 0.0468693 -0.2017218
3271000000 0.0461341 -0.2000189 0.9538659 0.2000189 0.9538659 0.2000189 0.0461341 -0.2000189
3292000000 0.0454127 -0.1983302 0.9545873 0.1983302 0.9545873 0.1983302 0.0454127 -0.1983302
3313000000 0.0447047 -0.1966555 0.9552953 0.1966555 0.9552953 0.1966555 0.0447047 -0.1966555
3334000000 0.0440098 -0.1949946 0.9559902 0.1949946 0.9559902 0.1949946 0.0440098 -0.1949946
3355000000 0.0433279 -0.1933472 0.9566721 0.1933472 0.9566721 0.1933472 0.0433279 -0.1933472
3376000000 0.0426585 -0.1917133 0.9573415 0.1917133 0.9573415 0.1917133 0.0426585 -0.1917133
3397000000 0.0420014 -0.1900927 0.9579986 0.1900927 0.9579986 0.1900927 0.0420014 -0.1900927
3418000000 0.0413564 -0.1884850 0.9586436 0.1884850 0.9586436 0.1884850 0.0413564 -0.1884850
3439000000 0.0407231 -0.1868903 0.9592769 0.1868903 0.9592769 0.1868903 0.0407231 -0.1868903
3460000000 0.0401014 -0.1853082 0.9598986 0.1853082 0.9598986 0.1853082 0.0401014 -0.1853082
3481000000 0.0394909 -0.1837386 0.9605091 0.1837386 0.9605091 0.1837386 0.0394909 -0.1837386
3502000000 0.0388915 -0.1821814 0.9611085 0.1821814 0.9611085 0.1821814 0.0388915 -0.1821814
3523000000 0.0383028 -0.1806363 0.9616972 0.1806363 0.9616972 0.1806363 0.0383028 -0.1806363
3544000000 0.0377248 -0.1791032 0.9622752 0.1791032 0.9622752 0.1791032 0.0377248 -0.1791032
3565000000 0.0371571 -0.1775819 0.9628429 0.1775819 0.9628429 0.1775819 0.0371571 -0.1775819
3586000000 0.0365995 -0.1760723 0.9634005 0.1760723 0.9634005 0.1760723 0.0365995 -0.1760723
3607000000 0.0360519 -0.1745742 0.9639481 0.1745742 0.9639481 0.1745742 0.0360519 -0.1745742
3628000000 0.0355139 -0.1730874 0.9644861 0.1730874 0.9644861 0.1730874 0.0355139 -0.1730874
3649000000 0.0349855 -0.1716118 0.9650145 0.1716118 0.9650145 0.1716118 0.0349855 -0.1716118
3670000000 0.0344664 -0.1701472 0.9655336 0.1701472 0.9655336 0.1701472 0.0344664 -0.1701472
3691000000 0.0339565 -0.1686935 0.9660435 0.1686935 0.9660435 0.1686935 0.0339565 -0.1686935
3712000000 0.0334555 -0.1672505 0.9665445 0.1672505 0.9665445 0.1672505 0.0334555 -0.1672505
3733000000 0.0329632 -0.1658181 0.9670368 0.1658181 0.9670368 0.1658181 0.0329632 -0.1658181
3754000000 0.0324796 -0.1643960 0.9675204 0.1643960 0.9675204 0.1643960 0.0324796 -0.1643960
3775000000 0.0320044 -0.1629843 0.9679956 0.1629843 0.9679956 0.1629843 0.0320044 -0.1629843
3796000000 0.0315374 -0.1615827 0.9684626 0.1615827 0.9684626 0.1615827 0.0315374 -0.1615827
3817000000 0.0310785 -0.1601911 0.9689215 0.1601911 0.9689215 0.1601911 0.0310785 -0.1601911
3838000000 0.0306276 -0.1588094 0.9693724 0.1588094 0.9693724 0.1588094 0.0306276 -0.1588094
3859000000 0.0301844 -0.1574374 0.9698156 0.1574374 0.9698156 0.1574374 0.0301844 -0.1574374
3880000000 0.0297489 -0.1560749 0.9702511 0.1560749 0.9702511 0.1560749 0.0297489 -0.1560749
3901000000 0.0293209 -0.1547220 0.9706791 0.1547220 0.9706791 0.1547220 0.0293209 -0.1547220
3922000000 0.0289002 -0.1533783 0.9710998 0.1533783 0.9710998 0.1533783 0.0289002 -0.1533783
3943000000 0.0284866 -0.1520439 0.9715134 0.1520439 0.9715134 0.1520439 0.0284866 -0.1520439
3964000000 0.0280802 -0.1507185 0.9719198 0.1507185 0.9719198 0.1507185 0.0280802 -0.1507185
3985000000 0.0276807 -0.1494020 0.9723193 0.1494020 0.9723193 0.1494020 0.0276807 -0.1494020
4006000000 0.0272879 -0.1480944 0.9727121 0.1480944 0.9727121 0.1480944 0.0272879 -0.1480944
4027000000 0.0269019 -0.1467955 0.9730981 0.1467955 0.9730981 0.1467955 0.0269019 -0.1467955
4048000000 0.0265224 -0.1455051 0.9734776 0.1455051 0.9734776 0.1455051 0.0265224 -0.1455051
4069000000 0.0261493 -0.1442232 0.9738507 0.1442232 0.9738507 0.1442232 0.0261493 -0.1442232
4090000000 0.0257825 -0.1429496 0.9742175 0.1429496 0.9742175 0.1429496 0.0257825 -0.1429496
4111000000 0.0254219 -0.1416843 0.9745781 0.1416843 0.9745781 0.1416843 0.0254219 -0.1416843
4132000000 0.0250674 -0.1404271 0.9749326 0.1404271 0.9749326 0.1404271 0.0250674 -0.1404271
4153000000 0.0247189 -0.1391779 0.9752811 0.1391779 0.9752811 0.1391779 0.0247189 -0.1391779
4174000000 0.0243762 -0.1379366 0.9756238 0.1379366 0.9756238 0.1379366 0.0243762 -0.1379366
4195000000 0.0240393 -0.1367030 0.9759607 0.1367030 0.9759607 0.1367030 0.0240393 -0.1367030
4216000000 0.0237081 -0.1354772 0.9762919 0.1354772 0.9762919 0.1354772 0.0237081 -0.1354772
4237000000 0.0233824 -0.1342589 0.9766176 0.1342589 0.9766176 0.1342589 0.0233824 -0.1342589
4258000000 0.0230622 -0.1330481 0.9769378 0.1330481 0.9769378 0.1330481 0.0230622 -0.1330481
4279000000 0.0227473 -0.1318446 0.9772527 0.1318446 0.9772527 0.1318446 0.0227473 -0.1318446
4300000000 0.0224378 -0.1306484 0.9775622 0.1306484 0.9775622 0.1306484 0.0224378 -0.1306484
4321000000 0.0221334 -0.1294594 0.9778666 0.1294594 0.9778666 0.1294594 0.0221334 -0.1294594
4342000000 0.0218341 -0.1282774 0.9781659 0.1282774 0.9781659 0.1282774 0.0218341 -0.1282774
4363000000 0.0215398 -0.1271024 0.9784602 0.1271024 0.9784602 0.1271024 0.0215398 -0.1271024
4384000000 0.0212504 -0.1259342 0.9787496 0.1259342 0.9787496 0.1259342 0.0212504 -0.1259342
4405000000 0.0209659 -0.1247729 0.9790341 0.1247729 0.9790341 0.1247729 0.0209659 -0.1247729
4426000000 0.0206861 -0.1236182 0.9793139 0.1236182 0.9793139 0.1236182 0.0206861 -0.1236182
4447000000 0.0204110 -0.1224701 0.9795890 0.1224701 0.9795890 0.1224701 0.0204110 -0.1224701
4468000000 0.0201405 -0.1213285 0.9798595 0.1213285 0.9798595 0.1213285 0.0201405 -0.1213285
4489000000 0.0198746 -0.1201933 0.9801254 0.1201933 0.9801254 0.1201933 0.0198746 -0.1201933
4510000000 0.0196131 -0.1190644 0.9803869 0.1190644 0.9803869 0.1190644 0.0196131 -0.1190644
