!Murata Part Number: GRM0335C1E911GA01
!These Parameters are Measured in Series Mode Connection
!Data Generated on Mar 30, 2021
!       o--ll--o
!Port1            Port2
!       o------o
!Operation Temp=25[degC], DC Bias Voltage=0[V]
!Freq. Start=100[MHz] Stop=9[GHz] 401[Steps]
# Hz S RI R 50
!Freq.(Hz) S11(Real) S11(Imag) S21(Real) S21(Imag) S12(Real) S12(Imag) S22(Real) S22(Imag)
100000000 0.0006281 -0.0159473 0.9993719 0.0159473 0.9993719 0.0159473 0.0006281 -0.0159473
121000000 0.0005495 -0.0126000 0.9994505 0.0126000 0.9994505 0.0126000 0.0005495 -0.0126000
142000000 0.0005125 -0.0101506 0.9994875 0.0101506 0.9994875 0.0101506 0.0005125 -0.0101506
163000000 0.0004979 -0.0082527 0.9995021 0.0082527 0.9995021 0.0082527 0.0004979 -0.0082527
184000000 0.0004964 -0.0067179 0.9995036 0.0067179 0.9995036 0.0067179 0.0004964 -0.0067179
205000000 0.0005034 -0.0054349 0.9994966 0.0054349 0.9994966 0.0054349 0.0005034 -0.0054349
226000000 0.0005161 -0.0043335 0.9994839 0.0043335 0.9994839 0.0043335 0.0005161 -0.0043335
247000000 0.0005330 -0.0033674 0.9994670 0.0033674 0.9994670 0.0033674 0.0005330 -0.0033674
268000000 0.0005533 -0.0025047 0.9994467 0.0025047 0.9994467 0.0025047 0.0005533 -0.0025047
289000000 0.0005763 -0.0017226 0.9994237 0.0017226 0.9994237 0.0017226 0.0005763 -0.0017226
310000000 0.0006016 -0.0010047 0.9993984 0.0010047 0.9993984 0.0010047 0.0006016 -0.0010047
331000000 0.0006293 -0.0003384 0.9993707 0.0003384 0.9993707 0.0003384 0.0006293 -0.0003384
352000000 0.0006590 0.0002856 0.9993410 -0.0002856 0.9993410 -0.0002856 0.0006590 0.0002856
373000000 0.0006910 0.0008748 0.9993090 -0.0008748 0.9993090 -0.0008748 0.0006910 0.0008748
394000000 0.0007253 0.0014351 0.9992747 -0.0014351 0.9992747 -0.0014351 0.0007253 0.0014351
415000000 0.0007620 0.0019712 0.9992380 -0.0019712 0.9992380 -0.0019712 0.0007620 0.0019712
436000000 0.0008013 0.0024870 0.9991987 -0.0024870 0.9991987 -0.0024870 0.0008013 0.0024870
457000000 0.0008437 0.0029857 0.9991563 -0.0029857 0.9991563 -0.0029857 0.0008437 0.0029857
478000000 0.0008894 0.0034702 0.9991106 -0.0034702 0.9991106 -0.0034702 0.0008894 0.0034702
499000000 0.0009391 0.0039427 0.9990609 -0.0039427 0.9990609 -0.0039427 0.0009391 0.0039427
520000000 0.0009937 0.0044054 0.9990063 -0.0044054 0.9990063 -0.0044054 0.0009937 0.0044054
541000000 0.0010541 0.0048600 0.9989459 -0.0048600 0.9989459 -0.0048600 0.0010541 0.0048600
562000000 0.0011221 0.0053084 0.9988779 -0.0053084 0.9988779 -0.0053084 0.0011221 0.0053084
583000000 0.0012001 0.0057515 0.9987999 -0.0057515 0.9987999 -0.0057515 0.0012001 0.0057515
604000000 0.0012916 0.0061899 0.9987084 -0.0061899 0.9987084 -0.0061899 0.0012916 0.0061899
625000000 0.0014019 0.0066224 0.9985981 -0.0066224 0.9985981 -0.0066224 0.0014019 0.0066224
646000000 0.0015380 0.0070435 0.9984620 -0.0070435 0.9984620 -0.0070435 0.0015380 0.0070435
667000000 0.0017062 0.0074397 0.9982938 -0.0074397 0.9982938 -0.0074397 0.0017062 0.0074397
688000000 0.0019019 0.0077852 0.9980981 -0.0077852 0.9980981 -0.0077852 0.0019019 0.0077852
709000000 0.0020895 0.0080548 0.9979105 -0.0080548 0.9979105 -0.0080548 0.0020895 0.0080548
730000000 0.0022090 0.0082693 0.9977910 -0.0082693 0.9977910 -0.0082693 0.0022090 0.0082693
751000000 0.0022470 0.0085024 0.9977530 -0.0085024 0.9977530 -0.0085024 0.0022470 0.0085024
772000000 0.0022568 0.0087974 0.9977432 -0.0087974 0.9977432 -0.0087974 0.0022568 0.0087974
793000000 0.0022871 0.0091406 0.9977129 -0.0091406 0.9977129 -0.0091406 0.0022871 0.0091406
814000000 0.0023538 0.0095041 0.9976462 -0.0095041 0.9976462 -0.0095041 0.0023538 0.0095041
835000000 0.0024566 0.0098684 0.9975434 -0.0098684 0.9975434 -0.0098684 0.0024566 0.0098684
856000000 0.0025913 0.0102218 0.9974087 -0.0102218 0.9974087 -0.0102218 0.0025913 0.0102218
877000000 0.0027535 0.0105564 0.9972465 -0.0105564 0.9972465 -0.0105564 0.0027535 0.0105564
898000000 0.0029393 0.0108654 0.9970607 -0.0108654 0.9970607 -0.0108654 0.0029393 0.0108654
919000000 0.0031439 0.0111421 0.9968561 -0.0111421 0.9968561 -0.0111421 0.0031439 0.0111421
940000000 0.0033606 0.0113799 0.9966394 -0.0113799 0.9966394 -0.0113799 0.0033606 0.0113799
961000000 0.0035800 0.0115732 0.9964200 -0.0115732 0.9964200 -0.0115732 0.0035800 0.0115732
982000000 0.0037898 0.0117188 0.9962102 -0.0117188 0.9962102 -0.0117188 0.0037898 0.0117188
1003000000 0.0039758 0.0118181 0.9960242 -0.0118181 0.9960242 -0.0118181 0.0039758 0.0118181
1024000000 0.0041235 0.0118779 0.9958765 -0.0118779 0.9958765 -0.0118779 0.0041235 0.0118779
1045000000 0.0042216 0.0119111 0.9957784 -0.0119111 0.9957784 -0.0119111 0.0042216 0.0119111
1066000000 0.0042644 0.0119342 0.9957356 -0.0119342 0.9957356 -0.0119342 0.0042644 0.0119342
1087000000 0.0042535 0.0119647 0.9957465 -0.0119647 0.9957465 -0.0119647 0.0042535 0.0119647
1108000000 0.0041964 0.0120172 0.9958036 -0.0120172 0.9958036 -0.0120172 0.0041964 0.0120172
1129000000 0.0041049 0.0121013 0.9958951 -0.0121013 0.9958951 -0.0121013 0.0041049 0.0121013
1150000000 0.0039916 0.0122213 0.9960084 -0.0122213 0.9960084 -0.0122213 0.0039916 0.0122213
1171000000 0.0038680 0.0123767 0.9961320 -0.0123767 0.9961320 -0.0123767 0.0038680 0.0123767
1192000000 0.0037433 0.0125642 0.9962567 -0.0125642 0.9962567 -0.0125642 0.0037433 0.0125642
1213000000 0.0036238 0.0127789 0.9963762 -0.0127789 0.9963762 -0.0127789 0.0036238 0.0127789
1234000000 0.0035134 0.0130155 0.9964866 -0.0130155 0.9964866 -0.0130155 0.0035134 0.0130155
1255000000 0.0034142 0.0132691 0.9965858 -0.0132691 0.9965858 -0.0132691 0.0034142 0.0132691
1276000000 0.0033269 0.0135354 0.9966731 -0.0135354 0.9966731 -0.0135354 0.0033269 0.0135354
1297000000 0.0032515 0.0138109 0.9967485 -0.0138109 0.9967485 -0.0138109 0.0032515 0.0138109
1318000000 0.0031873 0.0140927 0.9968127 -0.0140927 0.9968127 -0.0140927 0.0031873 0.0140927
1339000000 0.0031335 0.0143787 0.9968665 -0.0143787 0.9968665 -0.0143787 0.0031335 0.0143787
1360000000 0.0030890 0.0146672 0.9969110 -0.0146672 0.9969110 -0.0146672 0.0030890 0.0146672
1381000000 0.0030529 0.0149569 0.9969471 -0.0149569 0.9969471 -0.0149569 0.0030529 0.0149569
1402000000 0.0030242 0.0152470 0.9969758 -0.0152470 0.9969758 -0.0152470 0.0030242 0.0152470
1423000000 0.0030021 0.0155369 0.9969979 -0.0155369 0.9969979 -0.0155369 0.0030021 0.0155369
1444000000 0.0029858 0.0158259 0.9970142 -0.0158259 0.9970142 -0.0158259 0.0029858 0.0158259
1465000000 0.0029745 0.0161137 0.9970255 -0.0161137 0.9970255 -0.0161137 0.0029745 0.0161137
1486000000 0.0029677 0.0164003 0.9970323 -0.0164003 0.9970323 -0.0164003 0.0029677 0.0164003
1507000000 0.0029648 0.0166853 0.9970352 -0.0166853 0.9970352 -0.0166853 0.0029648 0.0166853
1528000000 0.0029653 0.0169687 0.9970347 -0.0169687 0.9970347 -0.0169687 0.0029653 0.0169687
1549000000 0.0029688 0.0172504 0.9970312 -0.0172504 0.9970312 -0.0172504 0.0029688 0.0172504
1570000000 0.0029750 0.0175305 0.9970250 -0.0175305 0.9970250 -0.0175305 0.0029750 0.0175305
1591000000 0.0029836 0.0178089 0.9970164 -0.0178089 0.9970164 -0.0178089 0.0029836 0.0178089
1612000000 0.0029942 0.0180857 0.9970058 -0.0180857 0.9970058 -0.0180857 0.0029942 0.0180857
1633000000 0.0030066 0.0183609 0.9969934 -0.0183609 0.9969934 -0.0183609 0.0030066 0.0183609
1654000000 0.0030207 0.0186345 0.9969793 -0.0186345 0.9969793 -0.0186345 0.0030207 0.0186345
1675000000 0.0030362 0.0189066 0.9969638 -0.0189066 0.9969638 -0.0189066 0.0030362 0.0189066
1696000000 0.0030529 0.0191773 0.9969471 -0.0191773 0.9969471 -0.0191773 0.0030529 0.0191773
1717000000 0.0030708 0.0194465 0.9969292 -0.0194465 0.9969292 -0.0194465 0.0030708 0.0194465
1738000000 0.0030897 0.0197144 0.9969103 -0.0197144 0.9969103 -0.0197144 0.0030897 0.0197144
1759000000 0.0031095 0.0199810 0.9968905 -0.0199810 0.9968905 -0.0199810 0.0031095 0.0199810
1780000000 0.0031300 0.0202463 0.9968700 -0.0202463 0.9968700 -0.0202463 0.0031300 0.0202463
1801000000 0.0031513 0.0205105 0.9968487 -0.0205105 0.9968487 -0.0205105 0.0031513 0.0205105
1822000000 0.0031732 0.0207734 0.9968268 -0.0207734 0.9968268 -0.0207734 0.0031732 0.0207734
1843000000 0.0031957 0.0210353 0.9968043 -0.0210353 0.9968043 -0.0210353 0.0031957 0.0210353
1864000000 0.0032186 0.0212961 0.9967814 -0.0212961 0.9967814 -0.0212961 0.0032186 0.0212961
1885000000 0.0032420 0.0215559 0.9967580 -0.0215559 0.9967580 -0.0215559 0.0032420 0.0215559
1906000000 0.0032658 0.0218147 0.9967342 -0.0218147 0.9967342 -0.0218147 0.0032658 0.0218147
1927000000 0.0032899 0.0220726 0.9967101 -0.0220726 0.9967101 -0.0220726 0.0032899 0.0220726
1948000000 0.0033144 0.0223296 0.9966856 -0.0223296 0.9966856 -0.0223296 0.0033144 0.0223296
1969000000 0.0033391 0.0225858 0.9966609 -0.0225858 0.9966609 -0.0225858 0.0033391 0.0225858
1990000000 0.0033640 0.0228411 0.9966360 -0.0228411 0.9966360 -0.0228411 0.0033640 0.0228411
2011000000 0.0033892 0.0230956 0.9966108 -0.0230956 0.9966108 -0.0230956 0.0033892 0.0230956
2032000000 0.0034146 0.0233494 0.9965854 -0.0233494 0.9965854 -0.0233494 0.0034146 0.0233494
2053000000 0.0034401 0.0236024 0.9965599 -0.0236024 0.9965599 -0.0236024 0.0034401 0.0236024
2074000000 0.0034658 0.0238548 0.9965342 -0.0238548 0.9965342 -0.0238548 0.0034658 0.0238548
2095000000 0.0034916 0.0241065 0.9965084 -0.0241065 0.9965084 -0.0241065 0.0034916 0.0241065
2116000000 0.0035175 0.0243575 0.9964825 -0.0243575 0.9964825 -0.0243575 0.0035175 0.0243575
2137000000 0.0035435 0.0246079 0.9964565 -0.0246079 0.9964565 -0.0246079 0.0035435 0.0246079
2158000000 0.0035696 0.0248578 0.9964304 -0.0248578 0.9964304 -0.0248578 0.0035696 0.0248578
2179000000 0.0035957 0.0251070 0.9964043 -0.0251070 0.9964043 -0.0251070 0.0035957 0.0251070
2200000000 0.0036220 0.0253557 0.9963780 -0.0253557 0.9963780 -0.0253557 0.0036220 0.0253557
2221000000 0.0036482 0.0256039 0.9963518 -0.0256039 0.9963518 -0.0256039 0.0036482 0.0256039
2242000000 0.0036745 0.0258516 0.9963255 -0.0258516 0.9963255 -0.0258516 0.0036745 0.0258516
2263000000 0.0037009 0.0260988 0.9962991 -0.0260988 0.9962991 -0.0260988 0.0037009 0.0260988
2284000000 0.0037272 0.0263455 0.9962728 -0.0263455 0.9962728 -0.0263455 0.0037272 0.0263455
2305000000 0.0037536 0.0265918 0.9962464 -0.0265918 0.9962464 -0.0265918 0.0037536 0.0265918
2326000000 0.0037800 0.0268376 0.9962200 -0.0268376 0.9962200 -0.0268376 0.0037800 0.0268376
2347000000 0.0038064 0.0270831 0.9961936 -0.0270831 0.9961936 -0.0270831 0.0038064 0.0270831
2368000000 0.0038328 0.0273281 0.9961672 -0.0273281 0.9961672 -0.0273281 0.0038328 0.0273281
2389000000 0.0038592 0.0275727 0.9961408 -0.0275727 0.9961408 -0.0275727 0.0038592 0.0275727
2410000000 0.0038856 0.0278170 0.9961144 -0.0278170 0.9961144 -0.0278170 0.0038856 0.0278170
2431000000 0.0039120 0.0280608 0.9960880 -0.0280608 0.9960880 -0.0280608 0.0039120 0.0280608
2452000000 0.0039384 0.0283044 0.9960616 -0.0283044 0.9960616 -0.0283044 0.0039384 0.0283044
2473000000 0.0039647 0.0285476 0.9960353 -0.0285476 0.9960353 -0.0285476 0.0039647 0.0285476
2494000000 0.0039911 0.0287905 0.9960089 -0.0287905 0.9960089 -0.0287905 0.0039911 0.0287905
2515000000 0.0040174 0.0290330 0.9959826 -0.0290330 0.9959826 -0.0290330 0.0040174 0.0290330
2536000000 0.0040438 0.0292753 0.9959562 -0.0292753 0.9959562 -0.0292753 0.0040438 0.0292753
2557000000 0.0040701 0.0295173 0.9959299 -0.0295173 0.9959299 -0.0295173 0.0040701 0.0295173
2578000000 0.0040963 0.0297590 0.9959037 -0.0297590 0.9959037 -0.0297590 0.0040963 0.0297590
2599000000 0.0041226 0.0300004 0.9958774 -0.0300004 0.9958774 -0.0300004 0.0041226 0.0300004
2620000000 0.0041489 0.0302416 0.9958511 -0.0302416 0.9958511 -0.0302416 0.0041489 0.0302416
2641000000 0.0041751 0.0304825 0.9958249 -0.0304825 0.9958249 -0.0304825 0.0041751 0.0304825
2662000000 0.0042013 0.0307232 0.9957987 -0.0307232 0.9957987 -0.0307232 0.0042013 0.0307232
2683000000 0.0042275 0.0309636 0.9957725 -0.0309636 0.9957725 -0.0309636 0.0042275 0.0309636
2704000000 0.0042536 0.0312038 0.9957464 -0.0312038 0.9957464 -0.0312038 0.0042536 0.0312038
2725000000 0.0042798 0.0314438 0.9957202 -0.0314438 0.9957202 -0.0314438 0.0042798 0.0314438
2746000000 0.0043059 0.0316836 0.9956941 -0.0316836 0.9956941 -0.0316836 0.0043059 0.0316836
2767000000 0.0043320 0.0319231 0.9956680 -0.0319231 0.9956680 -0.0319231 0.0043320 0.0319231
2788000000 0.0043581 0.0321625 0.9956419 -0.0321625 0.9956419 -0.0321625 0.0043581 0.0321625
2809000000 0.0043841 0.0324017 0.9956159 -0.0324017 0.9956159 -0.0324017 0.0043841 0.0324017
2830000000 0.0044102 0.0326407 0.9955898 -0.0326407 0.9955898 -0.0326407 0.0044102 0.0326407
2851000000 0.0044362 0.0328795 0.9955638 -0.0328795 0.9955638 -0.0328795 0.0044362 0.0328795
2872000000 0.0044622 0.0331181 0.9955378 -0.0331181 0.9955378 -0.0331181 0.0044622 0.0331181
2893000000 0.0044882 0.0333566 0.9955118 -0.0333566 0.9955118 -0.0333566 0.0044882 0.0333566
2914000000 0.0045142 0.0335949 0.9954858 -0.0335949 0.9954858 -0.0335949 0.0045142 0.0335949
2935000000 0.0045402 0.0338330 0.9954598 -0.0338330 0.9954598 -0.0338330 0.0045402 0.0338330
2956000000 0.0045661 0.0340710 0.9954339 -0.0340710 0.9954339 -0.0340710 0.0045661 0.0340710
2977000000 0.0045921 0.0343088 0.9954079 -0.0343088 0.9954079 -0.0343088 0.0045921 0.0343088
2998000000 0.0046180 0.0345465 0.9953820 -0.0345465 0.9953820 -0.0345465 0.0046180 0.0345465
3019000000 0.0046439 0.0347841 0.9953561 -0.0347841 0.9953561 -0.0347841 0.0046439 0.0347841
3040000000 0.0046698 0.0350215 0.9953302 -0.0350215 0.9953302 -0.0350215 0.0046698 0.0350215
3061000000 0.0046957 0.0352588 0.9953043 -0.0352588 0.9953043 -0.0352588 0.0046957 0.0352588
3082000000 0.0047217 0.0354960 0.9952783 -0.0354960 0.9952783 -0.0354960 0.0047217 0.0354960
3103000000 0.0047476 0.0357330 0.9952524 -0.0357330 0.9952524 -0.0357330 0.0047476 0.0357330
3124000000 0.0047735 0.0359700 0.9952265 -0.0359700 0.9952265 -0.0359700 0.0047735 0.0359700
3145000000 0.0047994 0.0362068 0.9952006 -0.0362068 0.9952006 -0.0362068 0.0047994 0.0362068
3166000000 0.0048252 0.0364435 0.9951748 -0.0364435 0.9951748 -0.0364435 0.0048252 0.0364435
3187000000 0.0048511 0.0366801 0.9951489 -0.0366801 0.9951489 -0.0366801 0.0048511 0.0366801
3208000000 0.0048770 0.0369166 0.9951230 -0.0369166 0.9951230 -0.0369166 0.0048770 0.0369166
3229000000 0.0049030 0.0371530 0.9950970 -0.0371530 0.9950970 -0.0371530 0.0049030 0.0371530
3250000000 0.0049289 0.0373893 0.9950711 -0.0373893 0.9950711 -0.0373893 0.0049289 0.0373893
3271000000 0.0049548 0.0376254 0.9950452 -0.0376254 0.9950452 -0.0376254 0.0049548 0.0376254
3292000000 0.0049807 0.0378615 0.9950193 -0.0378615 0.9950193 -0.0378615 0.0049807 0.0378615
3313000000 0.0050066 0.0380976 0.9949934 -0.0380976 0.9949934 -0.0380976 0.0050066 0.0380976
3334000000 0.0050326 0.0383335 0.9949674 -0.0383335 0.9949674 -0.0383335 0.0050326 0.0383335
3355000000 0.0050585 0.0385693 0.9949415 -0.0385693 0.9949415 -0.0385693 0.0050585 0.0385693
3376000000 0.0050845 0.0388051 0.9949155 -0.0388051 0.9949155 -0.0388051 0.0050845 0.0388051
3397000000 0.0051105 0.0390407 0.9948895 -0.0390407 0.9948895 -0.0390407 0.0051105 0.0390407
3418000000 0.0051364 0.0392763 0.9948636 -0.0392763 0.9948636 -0.0392763 0.0051364 0.0392763
3439000000 0.0051625 0.0395119 0.9948375 -0.0395119 0.9948375 -0.0395119 0.0051625 0.0395119
3460000000 0.0051885 0.0397473 0.9948115 -0.0397473 0.9948115 -0.0397473 0.0051885 0.0397473
3481000000 0.0052145 0.0399827 0.9947855 -0.0399827 0.9947855 -0.0399827 0.0052145 0.0399827
3502000000 0.0052406 0.0402180 0.9947594 -0.0402180 0.9947594 -0.0402180 0.0052406 0.0402180
3523000000 0.0052667 0.0404532 0.9947333 -0.0404532 0.9947333 -0.0404532 0.0052667 0.0404532
3544000000 0.0052928 0.0406884 0.9947072 -0.0406884 0.9947072 -0.0406884 0.0052928 0.0406884
3565000000 0.0053189 0.0409235 0.9946811 -0.0409235 0.9946811 -0.0409235 0.0053189 0.0409235
3586000000 0.0053451 0.0411585 0.9946549 -0.0411585 0.9946549 -0.0411585 0.0053451 0.0411585
3607000000 0.0053712 0.0413935 0.9946288 -0.0413935 0.9946288 -0.0413935 0.0053712 0.0413935
3628000000 0.0053974 0.0416285 0.9946026 -0.0416285 0.9946026 -0.0416285 0.0053974 0.0416285
3649000000 0.0054237 0.0418633 0.9945763 -0.0418633 0.9945763 -0.0418633 0.0054237 0.0418633
3670000000 0.0054499 0.0420981 0.9945501 -0.0420981 0.9945501 -0.0420981 0.0054499 0.0420981
3691000000 0.0054762 0.0423329 0.9945238 -0.0423329 0.9945238 -0.0423329 0.0054762 0.0423329
3712000000 0.0055026 0.0425676 0.9944974 -0.0425676 0.9944974 -0.0425676 0.0055026 0.0425676
3733000000 0.0055289 0.0428022 0.9944711 -0.0428022 0.9944711 -0.0428022 0.0055289 0.0428022
3754000000 0.0055553 0.0430368 0.9944447 -0.0430368 0.9944447 -0.0430368 0.0055553 0.0430368
3775000000 0.0055817 0.0432714 0.9944183 -0.0432714 0.9944183 -0.0432714 0.0055817 0.0432714
3796000000 0.0056082 0.0435059 0.9943918 -0.0435059 0.9943918 -0.0435059 0.0056082 0.0435059
3817000000 0.0056347 0.0437404 0.9943653 -0.0437404 0.9943653 -0.0437404 0.0056347 0.0437404
3838000000 0.0056612 0.0439748 0.9943388 -0.0439748 0.9943388 -0.0439748 0.0056612 0.0439748
3859000000 0.0056878 0.0442091 0.9943122 -0.0442091 0.9943122 -0.0442091 0.0056878 0.0442091
3880000000 0.0057144 0.0444435 0.9942856 -0.0444435 0.9942856 -0.0444435 0.0057144 0.0444435
3901000000 0.0057411 0.0446777 0.9942589 -0.0446777 0.9942589 -0.0446777 0.0057411 0.0446777
3922000000 0.0057677 0.0449120 0.9942323 -0.0449120 0.9942323 -0.0449120 0.0057677 0.0449120
3943000000 0.0057945 0.0451462 0.9942055 -0.0451462 0.9942055 -0.0451462 0.0057945 0.0451462
3964000000 0.0058213 0.0453803 0.9941787 -0.0453803 0.9941787 -0.0453803 0.0058213 0.0453803
3985000000 0.0058481 0.0456145 0.9941519 -0.0456145 0.9941519 -0.0456145 0.0058481 0.0456145
4006000000 0.0058750 0.0458485 0.9941250 -0.0458485 0.9941250 -0.0458485 0.0058750 0.0458485
4027000000 0.0059019 0.0460826 0.9940981 -0.0460826 0.9940981 -0.0460826 0.0059019 0.0460826
4048000000 0.0059288 0.0463166 0.9940712 -0.0463166 0.9940712 -0.0463166 0.0059288 0.0463166
4069000000 0.0059558 0.0465506 0.9940442 -0.0465506 0.9940442 -0.0465506 0.0059558 0.0465506
4090000000 0.0059829 0.0467845 0.9940171 -0.0467845 0.9940171 -0.0467845 0.0059829 0.0467845
4111000000 0.0060100 0.0470184 0.9939900 -0.0470184 0.9939900 -0.0470184 0.0060100 0.0470184
4132000000 0.0060372 0.0472523 0.9939628 -0.0472523 0.9939628 -0.0472523 0.0060372 0.0472523
4153000000 0.0060644 0.0474861 0.9939356 -0.0474861 0.9939356 -0.0474861 0.0060644 0.0474861
4174000000 0.0060916 0.0477199 0.9939084 -0.0477199 0.9939084 -0.0477199 0.0060916 0.0477199
4195000000 0.0061190 0.0479537 0.9938810 -0.0479537 0.9938810 -0.0479537 0.0061190 0.0479537
4216000000 0.0061463 0.0481875 0.9938537 -0.0481875 0.9938537 -0.0481875 0.0061463 0.0481875
4237000000 0.0061737 0.0484212 0.9938263 -0.0484212 0.9938263 -0.0484212 0.0061737 0.0484212
4258000000 0.0062012 0.0486549 0.9937988 -0.0486549 0.9937988 -0.0486549 0.0062012 0.0486549
4279000000 0.0062288 0.0488885 0.9937712 -0.0488885 0.9937712 -0.0488885 0.0062288 0.0488885
4300000000 0.0062563 0.0491221 0.9937437 -0.0491221 0.9937437 -0.0491221 0.0062563 0.0491221
4321000000 0.0062840 0.0493557 0.9937160 -0.0493557 0.9937160 -0.0493557 0.0062840 0.0493557
4342000000 0.0063117 0.0495893 0.9936883 -0.0495893 0.9936883 -0.0495893 0.0063117 0.0495893
4363000000 0.0063395 0.0498228 0.9936605 -0.0498228 0.9936605 -0.0498228 0.0063395 0.0498228
4384000000 0.0063673 0.0500564 0.9936327 -0.0500564 0.9936327 -0.0500564 0.0063673 0.0500564
4405000000 0.0063952 0.0502899 0.9936048 -0.0502899 0.9936048 -0.0502899 0.0063952 0.0502899
4426000000 0.0064231 0.0505233 0.9935769 -0.0505233 0.9935769 -0.0505233 0.0064231 0.0505233
4447000000 0.0064511 0.0507568 0.9935489 -0.0507568 0.9935489 -0.0507568 0.0064511 0.0507568
4468000000 0.0064792 0.0509902 0.9935208 -0.0509902 0.9935208 -0.0509902 0.0064792 0.0509902
4489000000 0.0065073 0.0512236 0.9934927 -0.0512236 0.9934927 -0.0512236 0.0065073 0.0512236
4510000000 0.0065355 0.0514569 0.9934645 -0.0514569 0.9934645 -0.0514569 0.0065355 0.0514569
