!Murata Part Number: GRM0332C2A5R9CA01
!These Parameters are Measured in Series Mode Connection
!Data Generated on Mar 30, 2021
!       o--ll--o
!Port1            Port2
!       o------o
!Operation Temp=25[degC], DC Bias Voltage=0[V]
!Freq. Start=100[MHz] Stop=9[GHz] 401[Steps]
# Hz S RI R 50
!Freq.(Hz) S11(Real) S11(Imag) S21(Real) S21(Imag) S12(Real) S12(Imag) S22(Real) S22(Imag)
100000000 0.8788614 -0.3259170 0.1211386 0.3259170 0.1211386 0.3259170 0.8788614 -0.3259170
121000000 0.8320170 -0.3734015 0.1679830 0.3734015 0.1679830 0.3734015 0.8320170 -0.3734015
142000000 0.7823425 -0.4121250 0.2176575 0.4121250 0.2176575 0.4121250 0.7823425 -0.4121250
163000000 0.7316261 -0.4425060 0.2683739 0.4425060 0.2683739 0.4425060 0.7316261 -0.4425060
184000000 0.6813094 -0.4652823 0.3186906 0.4652823 0.3186906 0.4652823 0.6813094 -0.4652823
205000000 0.6324724 -0.4813657 0.3675276 0.4813657 0.3675276 0.4813657 0.6324724 -0.4813657
226000000 0.5858638 -0.4917262 0.4141362 0.4917262 0.4141362 0.4917262 0.5858638 -0.4917262
247000000 0.5419521 -0.4973104 0.4580479 0.4973104 0.4580479 0.4973104 0.5419521 -0.4973104
268000000 0.5009844 -0.4989916 0.4990156 0.4989916 0.4990156 0.4989916 0.5009844 -0.4989916
289000000 0.4630434 -0.4975434 0.5369566 0.4975434 0.5369566 0.4975434 0.4630434 -0.4975434
310000000 0.4280948 -0.4936316 0.5719052 0.4936316 0.5719052 0.4936316 0.4280948 -0.4936316
331000000 0.3960269 -0.4878165 0.6039731 0.4878165 0.6039731 0.4878165 0.3960269 -0.4878165
352000000 0.3666803 -0.4805612 0.6333197 0.4805612 0.6333197 0.4805612 0.3666803 -0.4805612
373000000 0.3398692 -0.4722435 0.6601308 0.4722435 0.6601308 0.4722435 0.3398692 -0.4722435
394000000 0.3153976 -0.4631682 0.6846024 0.4631682 0.6846024 0.4631682 0.3153976 -0.4631682
415000000 0.2930687 -0.4535783 0.7069313 0.4535783 0.7069313 0.4535783 0.2930687 -0.4535783
436000000 0.2726924 -0.4436662 0.7273076 0.4436662 0.7273076 0.4436662 0.2726924 -0.4436662
457000000 0.2540888 -0.4335828 0.7459112 0.4335828 0.7459112 0.4335828 0.2540888 -0.4335828
478000000 0.2370908 -0.4234452 0.7629092 0.4234452 0.7629092 0.4234452 0.2370908 -0.4234452
499000000 0.2215445 -0.4133437 0.7784555 0.4133437 0.7784555 0.4133437 0.2215445 -0.4133437
520000000 0.2073097 -0.4033469 0.7926903 0.4033469 0.7926903 0.4033469 0.2073097 -0.4033469
541000000 0.1942595 -0.3935060 0.8057405 0.3935060 0.8057405 0.3935060 0.1942595 -0.3935060
562000000 0.1822793 -0.3838587 0.8177207 0.3838587 0.8177207 0.3838587 0.1822793 -0.3838587
583000000 0.1712659 -0.3744319 0.8287341 0.3744319 0.8287341 0.3744319 0.1712659 -0.3744319
604000000 0.1611269 -0.3652442 0.8388731 0.3652442 0.8388731 0.3652442 0.1611269 -0.3652442
625000000 0.1517792 -0.3563073 0.8482208 0.3563073 0.8482208 0.3563073 0.1517792 -0.3563073
646000000 0.1431486 -0.3476278 0.8568514 0.3476278 0.8568514 0.3476278 0.1431486 -0.3476278
667000000 0.1351684 -0.3392086 0.8648316 0.3392086 0.8648316 0.3392086 0.1351684 -0.3392086
688000000 0.1277790 -0.3310491 0.8722210 0.3310491 0.8722210 0.3310491 0.1277790 -0.3310491
709000000 0.1209269 -0.3231469 0.8790731 0.3231469 0.8790731 0.3231469 0.1209269 -0.3231469
730000000 0.1145641 -0.3154973 0.8854359 0.3154973 0.8854359 0.3154973 0.1145641 -0.3154973
751000000 0.1086476 -0.3080948 0.8913524 0.3080948 0.8913524 0.3080948 0.1086476 -0.3080948
772000000 0.1031387 -0.3009328 0.8968613 0.3009328 0.8968613 0.3009328 0.1031387 -0.3009328
793000000 0.0980025 -0.2940040 0.9019975 0.2940040 0.9019975 0.2940040 0.0980025 -0.2940040
814000000 0.0932078 -0.2873008 0.9067922 0.2873008 0.9067922 0.2873008 0.0932078 -0.2873008
835000000 0.0887263 -0.2808154 0.9112737 0.2808154 0.9112737 0.2808154 0.0887263 -0.2808154
856000000 0.0845324 -0.2745398 0.9154676 0.2745398 0.9154676 0.2745398 0.0845324 -0.2745398
877000000 0.0806030 -0.2684661 0.9193970 0.2684661 0.9193970 0.2684661 0.0806030 -0.2684661
898000000 0.0769173 -0.2625864 0.9230827 0.2625864 0.9230827 0.2625864 0.0769173 -0.2625864
919000000 0.0734562 -0.2568930 0.9265438 0.2568930 0.9265438 0.2568930 0.0734562 -0.2568930
940000000 0.0702027 -0.2513783 0.9297973 0.2513783 0.9297973 0.2513783 0.0702027 -0.2513783
961000000 0.0671411 -0.2460351 0.9328589 0.2460351 0.9328589 0.2460351 0.0671411 -0.2460351
982000000 0.0642571 -0.2408563 0.9357429 0.2408563 0.9357429 0.2408563 0.0642571 -0.2408563
1003000000 0.0615377 -0.2358351 0.9384623 0.2358351 0.9384623 0.2358351 0.0615377 -0.2358351
1024000000 0.0589712 -0.2309648 0.9410288 0.2309648 0.9410288 0.2309648 0.0589712 -0.2309648
1045000000 0.0565467 -0.2262393 0.9434533 0.2262393 0.9434533 0.2262393 0.0565467 -0.2262393
1066000000 0.0542543 -0.2216525 0.9457457 0.2216525 0.9457457 0.2216525 0.0542543 -0.2216525
1087000000 0.0520849 -0.2171986 0.9479151 0.2171986 0.9479151 0.2171986 0.0520849 -0.2171986
1108000000 0.0500303 -0.2128720 0.9499697 0.2128720 0.9499697 0.2128720 0.0500303 -0.2128720
1129000000 0.0480827 -0.2086676 0.9519173 0.2086676 0.9519173 0.2086676 0.0480827 -0.2086676
1150000000 0.0462351 -0.2045803 0.9537649 0.2045803 0.9537649 0.2045803 0.0462351 -0.2045803
1171000000 0.0444812 -0.2006053 0.9555188 0.2006053 0.9555188 0.2006053 0.0444812 -0.2006053
1192000000 0.0428148 -0.1967380 0.9571852 0.1967380 0.9571852 0.1967380 0.0428148 -0.1967380
1213000000 0.0412305 -0.1929741 0.9587695 0.1929741 0.9587695 0.1929741 0.0412305 -0.1929741
1234000000 0.0397233 -0.1893094 0.9602767 0.1893094 0.9602767 0.1893094 0.0397233 -0.1893094
1255000000 0.0382883 -0.1857399 0.9617117 0.1857399 0.9617117 0.1857399 0.0382883 -0.1857399
1276000000 0.0369214 -0.1822619 0.9630786 0.1822619 0.9630786 0.1822619 0.0369214 -0.1822619
1297000000 0.0356183 -0.1788718 0.9643817 0.1788718 0.9643817 0.1788718 0.0356183 -0.1788718
1318000000 0.0343754 -0.1755661 0.9656246 0.1755661 0.9656246 0.1755661 0.0343754 -0.1755661
1339000000 0.0331893 -0.1723417 0.9668107 0.1723417 0.9668107 0.1723417 0.0331893 -0.1723417
1360000000 0.0320566 -0.1691953 0.9679434 0.1691953 0.9679434 0.1691953 0.0320566 -0.1691953
1381000000 0.0309744 -0.1661240 0.9690256 0.1661240 0.9690256 0.1661240 0.0309744 -0.1661240
1402000000 0.0299398 -0.1631249 0.9700602 0.1631249 0.9700602 0.1631249 0.0299398 -0.1631249
1423000000 0.0289503 -0.1601955 0.9710497 0.1601955 0.9710497 0.1601955 0.0289503 -0.1601955
1444000000 0.0280034 -0.1573331 0.9719966 0.1573331 0.9719966 0.1573331 0.0280034 -0.1573331
1465000000 0.0270969 -0.1545352 0.9729031 0.1545352 0.9729031 0.1545352 0.0270969 -0.1545352
1486000000 0.0262286 -0.1517995 0.9737714 0.1517995 0.9737714 0.1517995 0.0262286 -0.1517995
1507000000 0.0253966 -0.1491238 0.9746034 0.1491238 0.9746034 0.1491238 0.0253966 -0.1491238
1528000000 0.0245989 -0.1465059 0.9754011 0.1465059 0.9754011 0.1465059 0.0245989 -0.1465059
1549000000 0.0238338 -0.1439438 0.9761662 0.1439438 0.9761662 0.1439438 0.0238338 -0.1439438
1570000000 0.0230998 -0.1414355 0.9769002 0.1414355 0.9769002 0.1414355 0.0230998 -0.1414355
1591000000 0.0223952 -0.1389791 0.9776048 0.1389791 0.9776048 0.1389791 0.0223952 -0.1389791
1612000000 0.0217186 -0.1365730 0.9782814 0.1365730 0.9782814 0.1365730 0.0217186 -0.1365730
1633000000 0.0210687 -0.1342153 0.9789313 0.1342153 0.9789313 0.1342153 0.0210687 -0.1342153
1654000000 0.0204442 -0.1319044 0.9795558 0.1319044 0.9795558 0.1319044 0.0204442 -0.1319044
1675000000 0.0198439 -0.1296389 0.9801561 0.1296389 0.9801561 0.1296389 0.0198439 -0.1296389
1696000000 0.0192667 -0.1274170 0.9807333 0.1274170 0.9807333 0.1274170 0.0192667 -0.1274170
1717000000 0.0187114 -0.1252376 0.9812886 0.1252376 0.9812886 0.1252376 0.0187114 -0.1252376
1738000000 0.0181772 -0.1230990 0.9818228 0.1230990 0.9818228 0.1230990 0.0181772 -0.1230990
1759000000 0.0176631 -0.1210001 0.9823369 0.1210001 0.9823369 0.1210001 0.0176631 -0.1210001
1780000000 0.0171681 -0.1189396 0.9828319 0.1189396 0.9828319 0.1189396 0.0171681 -0.1189396
1801000000 0.0166914 -0.1169163 0.9833086 0.1169163 0.9833086 0.1169163 0.0166914 -0.1169163
1822000000 0.0162322 -0.1149289 0.9837678 0.1149289 0.9837678 0.1149289 0.0162322 -0.1149289
1843000000 0.0157898 -0.1129764 0.9842102 0.1129764 0.9842102 0.1129764 0.0157898 -0.1129764
1864000000 0.0153635 -0.1110577 0.9846365 0.1110577 0.9846365 0.1110577 0.0153635 -0.1110577
1885000000 0.0149526 -0.1091718 0.9850474 0.1091718 0.9850474 0.1091718 0.0149526 -0.1091718
1906000000 0.0145563 -0.1073177 0.9854437 0.1073177 0.9854437 0.1073177 0.0145563 -0.1073177
1927000000 0.0141742 -0.1054943 0.9858258 0.1054943 0.9858258 0.1054943 0.0141742 -0.1054943
1948000000 0.0138057 -0.1037009 0.9861943 0.1037009 0.9861943 0.1037009 0.0138057 -0.1037009
1969000000 0.0134502 -0.1019366 0.9865498 0.1019366 0.9865498 0.1019366 0.0134502 -0.1019366
1990000000 0.0131071 -0.1002004 0.9868929 0.1002004 0.9868929 0.1002004 0.0131071 -0.1002004
2011000000 0.0127761 -0.0984915 0.9872239 0.0984915 0.9872239 0.0984915 0.0127761 -0.0984915
2032000000 0.0124566 -0.0968093 0.9875434 0.0968093 0.9875434 0.0968093 0.0124566 -0.0968093
2053000000 0.0121481 -0.0951529 0.9878519 0.0951529 0.9878519 0.0951529 0.0121481 -0.0951529
2074000000 0.0118503 -0.0935215 0.9881497 0.0935215 0.9881497 0.0935215 0.0118503 -0.0935215
2095000000 0.0115627 -0.0919146 0.9884373 0.0919146 0.9884373 0.0919146 0.0115627 -0.0919146
2116000000 0.0112851 -0.0903313 0.9887149 0.0903313 0.9887149 0.0903313 0.0112851 -0.0903313
2137000000 0.0110169 -0.0887712 0.9889831 0.0887712 0.9889831 0.0887712 0.0110169 -0.0887712
2158000000 0.0107578 -0.0872334 0.9892422 0.0872334 0.9892422 0.0872334 0.0107578 -0.0872334
2179000000 0.0105076 -0.0857175 0.9894924 0.0857175 0.9894924 0.0857175 0.0105076 -0.0857175
2200000000 0.0102658 -0.0842228 0.9897342 0.0842228 0.9897342 0.0842228 0.0102658 -0.0842228
2221000000 0.0100323 -0.0827488 0.9899677 0.0827488 0.9899677 0.0827488 0.0100323 -0.0827488
2242000000 0.0098066 -0.0812948 0.9901934 0.0812948 0.9901934 0.0812948 0.0098066 -0.0812948
2263000000 0.0095886 -0.0798605 0.9904114 0.0798605 0.9904114 0.0798605 0.0095886 -0.0798605
2284000000 0.0093780 -0.0784453 0.9906220 0.0784453 0.9906220 0.0784453 0.0093780 -0.0784453
2305000000 0.0091744 -0.0770486 0.9908256 0.0770486 0.9908256 0.0770486 0.0091744 -0.0770486
2326000000 0.0089777 -0.0756701 0.9910223 0.0756701 0.9910223 0.0756701 0.0089777 -0.0756701
2347000000 0.0087877 -0.0743092 0.9912123 0.0743092 0.9912123 0.0743092 0.0087877 -0.0743092
2368000000 0.0086040 -0.0729655 0.9913960 0.0729655 0.9913960 0.0729655 0.0086040 -0.0729655
2389000000 0.0084266 -0.0716386 0.9915734 0.0716386 0.9915734 0.0716386 0.0084266 -0.0716386
2410000000 0.0082552 -0.0703280 0.9917448 0.0703280 0.9917448 0.0703280 0.0082552 -0.0703280
2431000000 0.0080895 -0.0690334 0.9919105 0.0690334 0.9919105 0.0690334 0.0080895 -0.0690334
2452000000 0.0079295 -0.0677543 0.9920705 0.0677543 0.9920705 0.0677543 0.0079295 -0.0677543
2473000000 0.0077749 -0.0664904 0.9922251 0.0664904 0.9922251 0.0664904 0.0077749 -0.0664904
2494000000 0.0076256 -0.0652414 0.9923744 0.0652414 0.9923744 0.0652414 0.0076256 -0.0652414
2515000000 0.0074814 -0.0640067 0.9925186 0.0640067 0.9925186 0.0640067 0.0074814 -0.0640067
2536000000 0.0073422 -0.0627862 0.9926578 0.0627862 0.9926578 0.0627862 0.0073422 -0.0627862
2557000000 0.0072077 -0.0615795 0.9927923 0.0615795 0.9927923 0.0615795 0.0072077 -0.0615795
2578000000 0.0070779 -0.0603861 0.9929221 0.0603861 0.9929221 0.0603861 0.0070779 -0.0603861
2599000000 0.0069526 -0.0592060 0.9930474 0.0592060 0.9930474 0.0592060 0.0069526 -0.0592060
2620000000 0.0068316 -0.0580386 0.9931684 0.0580386 0.9931684 0.0580386 0.0068316 -0.0580386
2641000000 0.0067150 -0.0568838 0.9932850 0.0568838 0.9932850 0.0568838 0.0067150 -0.0568838
2662000000 0.0066024 -0.0557413 0.9933976 0.0557413 0.9933976 0.0557413 0.0066024 -0.0557413
2683000000 0.0064938 -0.0546106 0.9935062 0.0546106 0.9935062 0.0546106 0.0064938 -0.0546106
2704000000 0.0063892 -0.0534917 0.9936108 0.0534917 0.9936108 0.0534917 0.0063892 -0.0534917
2725000000 0.0062883 -0.0523842 0.9937117 0.0523842 0.9937117 0.0523842 0.0062883 -0.0523842
2746000000 0.0061910 -0.0512879 0.9938090 0.0512879 0.9938090 0.0512879 0.0061910 -0.0512879
2767000000 0.0060974 -0.0502026 0.9939026 0.0502026 0.9939026 0.0502026 0.0060974 -0.0502026
2788000000 0.0060072 -0.0491279 0.9939928 0.0491279 0.9939928 0.0491279 0.0060072 -0.0491279
2809000000 0.0059204 -0.0480636 0.9940796 0.0480636 0.9940796 0.0480636 0.0059204 -0.0480636
2830000000 0.0058369 -0.0470096 0.9941631 0.0470096 0.9941631 0.0470096 0.0058369 -0.0470096
2851000000 0.0057566 -0.0459655 0.9942434 0.0459655 0.9942434 0.0459655 0.0057566 -0.0459655
2872000000 0.0056794 -0.0449313 0.9943206 0.0449313 0.9943206 0.0449313 0.0056794 -0.0449313
2893000000 0.0056052 -0.0439066 0.9943948 0.0439066 0.9943948 0.0439066 0.0056052 -0.0439066
2914000000 0.0055340 -0.0428913 0.9944660 0.0428913 0.9944660 0.0428913 0.0055340 -0.0428913
2935000000 0.0054657 -0.0418852 0.9945343 0.0418852 0.9945343 0.0418852 0.0054657 -0.0418852
2956000000 0.0054002 -0.0408880 0.9945998 0.0408880 0.9945998 0.0408880 0.0054002 -0.0408880
2977000000 0.0053374 -0.0398996 0.9946626 0.0398996 0.9946626 0.0398996 0.0053374 -0.0398996
2998000000 0.0052773 -0.0389198 0.9947227 0.0389198 0.9947227 0.0389198 0.0052773 -0.0389198
3019000000 0.0052198 -0.0379485 0.9947802 0.0379485 0.9947802 0.0379485 0.0052198 -0.0379485
3040000000 0.0051648 -0.0369854 0.9948352 0.0369854 0.9948352 0.0369854 0.0051648 -0.0369854
3061000000 0.0051123 -0.0360304 0.9948877 0.0360304 0.9948877 0.0360304 0.0051123 -0.0360304
3082000000 0.0050622 -0.0350833 0.9949378 0.0350833 0.9949378 0.0350833 0.0050622 -0.0350833
3103000000 0.0050145 -0.0341439 0.9949855 0.0341439 0.9949855 0.0341439 0.0050145 -0.0341439
3124000000 0.0049691 -0.0332122 0.9950309 0.0332122 0.9950309 0.0332122 0.0049691 -0.0332122
3145000000 0.0049259 -0.0322879 0.9950741 0.0322879 0.9950741 0.0322879 0.0049259 -0.0322879
3166000000 0.0048849 -0.0313708 0.9951151 0.0313708 0.9951151 0.0313708 0.0048849 -0.0313708
3187000000 0.0048461 -0.0304610 0.9951539 0.0304610 0.9951539 0.0304610 0.0048461 -0.0304610
3208000000 0.0048094 -0.0295581 0.9951906 0.0295581 0.9951906 0.0295581 0.0048094 -0.0295581
3229000000 0.0047748 -0.0286621 0.9952252 0.0286621 0.9952252 0.0286621 0.0047748 -0.0286621
3250000000 0.0047422 -0.0277729 0.9952578 0.0277729 0.9952578 0.0277729 0.0047422 -0.0277729
3271000000 0.0047115 -0.0268902 0.9952885 0.0268902 0.9952885 0.0268902 0.0047115 -0.0268902
3292000000 0.0046828 -0.0260140 0.9953172 0.0260140 0.9953172 0.0260140 0.0046828 -0.0260140
3313000000 0.0046559 -0.0251442 0.9953441 0.0251442 0.9953441 0.0251442 0.0046559 -0.0251442
3334000000 0.0046310 -0.0242806 0.9953690 0.0242806 0.9953690 0.0242806 0.0046310 -0.0242806
3355000000 0.0046078 -0.0234231 0.9953922 0.0234231 0.9953922 0.0234231 0.0046078 -0.0234231
3376000000 0.0045864 -0.0225715 0.9954136 0.0225715 0.9954136 0.0225715 0.0045864 -0.0225715
3397000000 0.0045667 -0.0217259 0.9954333 0.0217259 0.9954333 0.0217259 0.0045667 -0.0217259
3418000000 0.0045488 -0.0208860 0.9954512 0.0208860 0.9954512 0.0208860 0.0045488 -0.0208860
3439000000 0.0045325 -0.0200517 0.9954675 0.0200517 0.9954675 0.0200517 0.0045325 -0.0200517
3460000000 0.0045179 -0.0192230 0.9954821 0.0192230 0.9954821 0.0192230 0.0045179 -0.0192230
3481000000 0.0045048 -0.0183998 0.9954952 0.0183998 0.9954952 0.0183998 0.0045048 -0.0183998
3502000000 0.0044934 -0.0175818 0.9955066 0.0175818 0.9955066 0.0175818 0.0044934 -0.0175818
3523000000 0.0044835 -0.0167692 0.9955165 0.0167692 0.9955165 0.0167692 0.0044835 -0.0167692
3544000000 0.0044751 -0.0159616 0.9955249 0.0159616 0.9955249 0.0159616 0.0044751 -0.0159616
3565000000 0.0044683 -0.0151591 0.9955317 0.0151591 0.9955317 0.0151591 0.0044683 -0.0151591
3586000000 0.0044629 -0.0143615 0.9955371 0.0143615 0.9955371 0.0143615 0.0044629 -0.0143615
3607000000 0.0044589 -0.0135688 0.9955411 0.0135688 0.9955411 0.0135688 0.0044589 -0.0135688
3628000000 0.0044564 -0.0127809 0.9955436 0.0127809 0.9955436 0.0127809 0.0044564 -0.0127809
3649000000 0.0044553 -0.0119977 0.9955447 0.0119977 0.9955447 0.0119977 0.0044553 -0.0119977
3670000000 0.0044555 -0.0112190 0.9955445 0.0112190 0.9955445 0.0112190 0.0044555 -0.0112190
3691000000 0.0044571 -0.0104449 0.9955429 0.0104449 0.9955429 0.0104449 0.0044571 -0.0104449
3712000000 0.0044600 -0.0096751 0.9955400 0.0096751 0.9955400 0.0096751 0.0044600 -0.0096751
3733000000 0.0044643 -0.0089098 0.9955357 0.0089098 0.9955357 0.0089098 0.0044643 -0.0089098
3754000000 0.0044698 -0.0081487 0.9955302 0.0081487 0.9955302 0.0081487 0.0044698 -0.0081487
3775000000 0.0044766 -0.0073918 0.9955234 0.0073918 0.9955234 0.0073918 0.0044766 -0.0073918
3796000000 0.0044847 -0.0066390 0.9955153 0.0066390 0.9955153 0.0066390 0.0044847 -0.0066390
3817000000 0.0044940 -0.0058903 0.9955060 0.0058903 0.9955060 0.0058903 0.0044940 -0.0058903
3838000000 0.0045045 -0.0051455 0.9954955 0.0051455 0.9954955 0.0051455 0.0045045 -0.0051455
3859000000 0.0045162 -0.0044046 0.9954838 0.0044046 0.9954838 0.0044046 0.0045162 -0.0044046
3880000000 0.0045291 -0.0036676 0.9954709 0.0036676 0.9954709 0.0036676 0.0045291 -0.0036676
3901000000 0.0045431 -0.0029343 0.9954569 0.0029343 0.9954569 0.0029343 0.0045431 -0.0029343
3922000000 0.0045584 -0.0022047 0.9954416 0.0022047 0.9954416 0.0022047 0.0045584 -0.0022047
3943000000 0.0045747 -0.0014788 0.9954253 0.0014788 0.9954253 0.0014788 0.0045747 -0.0014788
3964000000 0.0045922 -0.0007564 0.9954078 0.0007564 0.9954078 0.0007564 0.0045922 -0.0007564
3985000000 0.0046108 -0.0000375 0.9953892 0.0000375 0.9953892 0.0000375 0.0046108 -0.0000375
4006000000 0.0046305 0.0006779 0.9953695 -0.0006779 0.9953695 -0.0006779 0.0046305 0.0006779
4027000000 0.0046513 0.0013900 0.9953487 -0.0013900 0.9953487 -0.0013900 0.0046513 0.0013900
4048000000 0.0046731 0.0020988 0.9953269 -0.0020988 0.9953269 -0.0020988 0.0046731 0.0020988
4069000000 0.0046960 0.0028043 0.9953040 -0.0028043 0.9953040 -0.0028043 0.0046960 0.0028043
4090000000 0.0047200 0.0035065 0.9952800 -0.0035065 0.9952800 -0.0035065 0.0047200 0.0035065
4111000000 0.0047450 0.0042057 0.9952550 -0.0042057 0.9952550 -0.0042057 0.0047450 0.0042057
4132000000 0.0047711 0.0049017 0.9952289 -0.0049017 0.9952289 -0.0049017 0.0047711 0.0049017
4153000000 0.0047981 0.0055948 0.9952019 -0.0055948 0.9952019 -0.0055948 0.0047981 0.0055948
4174000000 0.0048262 0.0062848 0.9951738 -0.0062848 0.9951738 -0.0062848 0.0048262 0.0062848
4195000000 0.0048553 0.0069719 0.9951447 -0.0069719 0.9951447 -0.0069719 0.0048553 0.0069719
4216000000 0.0048853 0.0076561 0.9951147 -0.0076561 0.9951147 -0.0076561 0.0048853 0.0076561
4237000000 0.0049164 0.0083375 0.9950836 -0.0083375 0.9950836 -0.0083375 0.0049164 0.0083375
4258000000 0.0049484 0.0090161 0.9950516 -0.0090161 0.9950516 -0.0090161 0.0049484 0.0090161
4279000000 0.0049814 0.0096920 0.9950186 -0.0096920 0.9950186 -0.0096920 0.0049814 0.0096920
4300000000 0.0050153 0.0103652 0.9949847 -0.0103652 0.9949847 -0.0103652 0.0050153 0.0103652
4321000000 0.0050502 0.0110357 0.9949498 -0.0110357 0.9949498 -0.0110357 0.0050502 0.0110357
4342000000 0.0050860 0.0117037 0.9949140 -0.0117037 0.9949140 -0.0117037 0.0050860 0.0117037
4363000000 0.0051228 0.0123692 0.9948772 -0.0123692 0.9948772 -0.0123692 0.0051228 0.0123692
4384000000 0.0051605 0.0130321 0.9948395 -0.0130321 0.9948395 -0.0130321 0.0051605 0.0130321
4405000000 0.0051992 0.0136926 0.9948008 -0.0136926 0.9948008 -0.0136926 0.0051992 0.0136926
4426000000 0.0052387 0.0143506 0.9947613 -0.0143506 0.9947613 -0.0143506 0.0052387 0.0143506
4447000000 0.0052792 0.0150063 0.9947208 -0.0150063 0.9947208 -0.0150063 0.0052792 0.0150063
4468000000 0.0053206 0.0156597 0.9946794 -0.0156597 0.9946794 -0.0156597 0.0053206 0.0156597
4489000000 0.0053629 0.0163108 0.9946371 -0.0163108 0.9946371 -0.0163108 0.0053629 0.0163108
4510000000 0.0054061 0.0169596 0.9945939 -0.0169596 0.9945939 -0.0169596 0.0054061 0.0169596
