!Murata Part Number: GRM0335C2A9R7BA01
!These Parameters are Measured in Series Mode Connection
!Data Generated on Mar 30, 2021
!       o--ll--o
!Port1            Port2
!       o------o
!Operation Temp=25[degC], DC Bias Voltage=0[V]
!Freq. Start=100[MHz] Stop=9[GHz] 401[Steps]
# Hz S RI R 50
!Freq.(Hz) S11(Real) S11(Imag) S21(Real) S21(Imag) S12(Real) S12(Imag) S22(Real) S22(Imag)
100000000 0.7285318 -0.4441828 0.2714682 0.4441828 0.2714682 0.4441828 0.7285318 -0.4441828
121000000 0.6468671 -0.4772965 0.3531329 0.4772965 0.3531329 0.4772965 0.6468671 -0.4772965
142000000 0.5706372 -0.4942249 0.4293628 0.4942249 0.4293628 0.4942249 0.5706372 -0.4942249
163000000 0.5019277 -0.4991222 0.4980723 0.4991222 0.4980723 0.4991222 0.5019277 -0.4991222
184000000 0.4413519 -0.4955602 0.5586481 0.4955602 0.5586481 0.4955602 0.4413519 -0.4955602
205000000 0.3886563 -0.4863419 0.6113437 0.4863419 0.6113437 0.4863419 0.3886563 -0.4863419
226000000 0.3431532 -0.4735436 0.6568468 0.4735436 0.6568468 0.4735436 0.3431532 -0.4735436
247000000 0.3039918 -0.4586444 0.6960082 0.4586444 0.6960082 0.4586444 0.3039918 -0.4586444
268000000 0.2703083 -0.4426674 0.7296917 0.4426674 0.7296917 0.4426674 0.2703083 -0.4426674
289000000 0.2413012 -0.4263031 0.7586988 0.4263031 0.7586988 0.4263031 0.2413012 -0.4263031
310000000 0.2162611 -0.4100061 0.7837389 0.4100061 0.7837389 0.4100061 0.2162611 -0.4100061
331000000 0.1945770 -0.3940668 0.8054230 0.3940668 0.8054230 0.3940668 0.1945770 -0.3940668
352000000 0.1757313 -0.3786626 0.8242687 0.3786626 0.8242687 0.3786626 0.1757313 -0.3786626
373000000 0.1592891 -0.3638947 0.8407109 0.3638947 0.8407109 0.3638947 0.1592891 -0.3638947
394000000 0.1448869 -0.3498129 0.8551131 0.3498129 0.8551131 0.3498129 0.1448869 -0.3498129
415000000 0.1322215 -0.3364331 0.8677785 0.3364331 0.8677785 0.3364331 0.1322215 -0.3364331
436000000 0.1210396 -0.3237492 0.8789604 0.3237492 0.8789604 0.3237492 0.1210396 -0.3237492
457000000 0.1111296 -0.3117413 0.8888704 0.3117413 0.8888704 0.3117413 0.1111296 -0.3117413
478000000 0.1023144 -0.3003812 0.8976856 0.3003812 0.8976856 0.3003812 0.1023144 -0.3003812
499000000 0.0944449 -0.2896363 0.9055551 0.2896363 0.9055551 0.2896363 0.0944449 -0.2896363
520000000 0.0873956 -0.2794715 0.9126044 0.2794715 0.9126044 0.2794715 0.0873956 -0.2794715
541000000 0.0810604 -0.2698517 0.9189396 0.2698517 0.9189396 0.2698517 0.0810604 -0.2698517
562000000 0.0753490 -0.2607421 0.9246510 0.2607421 0.9246510 0.2607421 0.0753490 -0.2607421
583000000 0.0701848 -0.2521091 0.9298152 0.2521091 0.9298152 0.2521091 0.0701848 -0.2521091
604000000 0.0655019 -0.2439209 0.9344981 0.2439209 0.9344981 0.2439209 0.0655019 -0.2439209
625000000 0.0612441 -0.2361476 0.9387559 0.2361476 0.9387559 0.2361476 0.0612441 -0.2361476
646000000 0.0573628 -0.2287609 0.9426372 0.2287609 0.9426372 0.2287609 0.0573628 -0.2287609
667000000 0.0538160 -0.2217348 0.9461840 0.2217348 0.9461840 0.2217348 0.0538160 -0.2217348
688000000 0.0505673 -0.2150449 0.9494327 0.2150449 0.9494327 0.2150449 0.0505673 -0.2150449
709000000 0.0475851 -0.2086687 0.9524149 0.2086687 0.9524149 0.2086687 0.0475851 -0.2086687
730000000 0.0448417 -0.2025853 0.9551583 0.2025853 0.9551583 0.2025853 0.0448417 -0.2025853
751000000 0.0423129 -0.1967755 0.9576871 0.1967755 0.9576871 0.1967755 0.0423129 -0.1967755
772000000 0.0399774 -0.1912214 0.9600226 0.1912214 0.9600226 0.1912214 0.0399774 -0.1912214
793000000 0.0378166 -0.1859067 0.9621834 0.1859067 0.9621834 0.1859067 0.0378166 -0.1859067
814000000 0.0358138 -0.1808161 0.9641862 0.1808161 0.9641862 0.1808161 0.0358138 -0.1808161
835000000 0.0339545 -0.1759357 0.9660455 0.1759357 0.9660455 0.1759357 0.0339545 -0.1759357
856000000 0.0322256 -0.1712524 0.9677744 0.1712524 0.9677744 0.1712524 0.0322256 -0.1712524
877000000 0.0306155 -0.1667543 0.9693845 0.1667543 0.9693845 0.1667543 0.0306155 -0.1667543
898000000 0.0291139 -0.1624304 0.9708861 0.1624304 0.9708861 0.1624304 0.0291139 -0.1624304
919000000 0.0277115 -0.1582702 0.9722885 0.1582702 0.9722885 0.1582702 0.0277115 -0.1582702
940000000 0.0264001 -0.1542643 0.9735999 0.1542643 0.9735999 0.1542643 0.0264001 -0.1542643
961000000 0.0251723 -0.1504039 0.9748277 0.1504039 0.9748277 0.1504039 0.0251723 -0.1504039
982000000 0.0240212 -0.1466807 0.9759788 0.1466807 0.9759788 0.1466807 0.0240212 -0.1466807
1003000000 0.0229410 -0.1430872 0.9770590 0.1430872 0.9770590 0.1430872 0.0229410 -0.1430872
1024000000 0.0219260 -0.1396162 0.9780740 0.1396162 0.9780740 0.1396162 0.0219260 -0.1396162
1045000000 0.0209714 -0.1362611 0.9790286 0.1362611 0.9790286 0.1362611 0.0209714 -0.1362611
1066000000 0.0200727 -0.1330158 0.9799273 0.1330158 0.9799273 0.1330158 0.0200727 -0.1330158
1087000000 0.0192258 -0.1298745 0.9807742 0.1298745 0.9807742 0.1298745 0.0192258 -0.1298745
1108000000 0.0184269 -0.1268319 0.9815731 0.1268319 0.9815731 0.1268319 0.0184269 -0.1268319
1129000000 0.0176728 -0.1238830 0.9823272 0.1238830 0.9823272 0.1238830 0.0176728 -0.1238830
1150000000 0.0169602 -0.1210231 0.9830398 0.1210231 0.9830398 0.1210231 0.0169602 -0.1210231
1171000000 0.0162864 -0.1182478 0.9837136 0.1182478 0.9837136 0.1182478 0.0162864 -0.1182478
1192000000 0.0156488 -0.1155530 0.9843512 0.1155530 0.9843512 0.1155530 0.0156488 -0.1155530
1213000000 0.0150450 -0.1129349 0.9849550 0.1129349 0.9849550 0.1129349 0.0150450 -0.1129349
1234000000 0.0144728 -0.1103897 0.9855272 0.1103897 0.9855272 0.1103897 0.0144728 -0.1103897
1255000000 0.0139302 -0.1079142 0.9860698 0.1079142 0.9860698 0.1079142 0.0139302 -0.1079142
1276000000 0.0134154 -0.1055052 0.9865846 0.1055052 0.9865846 0.1055052 0.0134154 -0.1055052
1297000000 0.0129266 -0.1031596 0.9870734 0.1031596 0.9870734 0.1031596 0.0129266 -0.1031596
1318000000 0.0124623 -0.1008746 0.9875377 0.1008746 0.9875377 0.1008746 0.0124623 -0.1008746
1339000000 0.0120210 -0.0986475 0.9879790 0.0986475 0.9879790 0.0986475 0.0120210 -0.0986475
1360000000 0.0116013 -0.0964759 0.9883987 0.0964759 0.9883987 0.0964759 0.0116013 -0.0964759
1381000000 0.0112021 -0.0943573 0.9887979 0.0943573 0.9887979 0.0943573 0.0112021 -0.0943573
1402000000 0.0108221 -0.0922896 0.9891779 0.0922896 0.9891779 0.0922896 0.0108221 -0.0922896
1423000000 0.0104603 -0.0902705 0.9895397 0.0902705 0.9895397 0.0902705 0.0104603 -0.0902705
1444000000 0.0101157 -0.0882981 0.9898843 0.0882981 0.9898843 0.0882981 0.0101157 -0.0882981
1465000000 0.0097873 -0.0863706 0.9902127 0.0863706 0.9902127 0.0863706 0.0097873 -0.0863706
1486000000 0.0094742 -0.0844860 0.9905258 0.0844860 0.9905258 0.0844860 0.0094742 -0.0844860
1507000000 0.0091757 -0.0826427 0.9908243 0.0826427 0.9908243 0.0826427 0.0091757 -0.0826427
1528000000 0.0088910 -0.0808391 0.9911090 0.0808391 0.9911090 0.0808391 0.0088910 -0.0808391
1549000000 0.0086195 -0.0790737 0.9913805 0.0790737 0.9913805 0.0790737 0.0086195 -0.0790737
1570000000 0.0083603 -0.0773449 0.9916397 0.0773449 0.9916397 0.0773449 0.0083603 -0.0773449
1591000000 0.0081130 -0.0756515 0.9918870 0.0756515 0.9918870 0.0756515 0.0081130 -0.0756515
1612000000 0.0078769 -0.0739920 0.9921231 0.0739920 0.9921231 0.0739920 0.0078769 -0.0739920
1633000000 0.0076514 -0.0723653 0.9923486 0.0723653 0.9923486 0.0723653 0.0076514 -0.0723653
1654000000 0.0074362 -0.0707702 0.9925638 0.0707702 0.9925638 0.0707702 0.0074362 -0.0707702
1675000000 0.0072307 -0.0692055 0.9927693 0.0692055 0.9927693 0.0692055 0.0072307 -0.0692055
1696000000 0.0070344 -0.0676701 0.9929656 0.0676701 0.9929656 0.0676701 0.0070344 -0.0676701
1717000000 0.0068469 -0.0661630 0.9931531 0.0661630 0.9931531 0.0661630 0.0068469 -0.0661630
1738000000 0.0066679 -0.0646833 0.9933321 0.0646833 0.9933321 0.0646833 0.0066679 -0.0646833
1759000000 0.0064969 -0.0632300 0.9935031 0.0632300 0.9935031 0.0632300 0.0064969 -0.0632300
1780000000 0.0063337 -0.0618021 0.9936663 0.0618021 0.9936663 0.0618021 0.0063337 -0.0618021
1801000000 0.0061778 -0.0603989 0.9938222 0.0603989 0.9938222 0.0603989 0.0061778 -0.0603989
1822000000 0.0060290 -0.0590196 0.9939710 0.0590196 0.9939710 0.0590196 0.0060290 -0.0590196
1843000000 0.0058869 -0.0576633 0.9941131 0.0576633 0.9941131 0.0576633 0.0058869 -0.0576633
1864000000 0.0057513 -0.0563292 0.9942487 0.0563292 0.9942487 0.0563292 0.0057513 -0.0563292
1885000000 0.0056219 -0.0550168 0.9943781 0.0550168 0.9943781 0.0550168 0.0056219 -0.0550168
1906000000 0.0054984 -0.0537252 0.9945016 0.0537252 0.9945016 0.0537252 0.0054984 -0.0537252
1927000000 0.0053807 -0.0524539 0.9946193 0.0524539 0.9946193 0.0524539 0.0053807 -0.0524539
1948000000 0.0052685 -0.0512022 0.9947315 0.0512022 0.9947315 0.0512022 0.0052685 -0.0512022
1969000000 0.0051616 -0.0499696 0.9948384 0.0499696 0.9948384 0.0499696 0.0051616 -0.0499696
1990000000 0.0050597 -0.0487553 0.9949403 0.0487553 0.9949403 0.0487553 0.0050597 -0.0487553
2011000000 0.0049628 -0.0475589 0.9950372 0.0475589 0.9950372 0.0475589 0.0049628 -0.0475589
2032000000 0.0048705 -0.0463799 0.9951295 0.0463799 0.9951295 0.0463799 0.0048705 -0.0463799
2053000000 0.0047828 -0.0452177 0.9952172 0.0452177 0.9952172 0.0452177 0.0047828 -0.0452177
2074000000 0.0046994 -0.0440718 0.9953006 0.0440718 0.9953006 0.0440718 0.0046994 -0.0440718
2095000000 0.0046202 -0.0429418 0.9953798 0.0429418 0.9953798 0.0429418 0.0046202 -0.0429418
2116000000 0.0045451 -0.0418272 0.9954549 0.0418272 0.9954549 0.0418272 0.0045451 -0.0418272
2137000000 0.0044739 -0.0407275 0.9955261 0.0407275 0.9955261 0.0407275 0.0044739 -0.0407275
2158000000 0.0044065 -0.0396425 0.9955935 0.0396425 0.9955935 0.0396425 0.0044065 -0.0396425
2179000000 0.0043428 -0.0385715 0.9956572 0.0385715 0.9956572 0.0385715 0.0043428 -0.0385715
2200000000 0.0042826 -0.0375144 0.9957174 0.0375144 0.9957174 0.0375144 0.0042826 -0.0375144
2221000000 0.0042257 -0.0364706 0.9957743 0.0364706 0.9957743 0.0364706 0.0042257 -0.0364706
2242000000 0.0041722 -0.0354398 0.9958278 0.0354398 0.9958278 0.0354398 0.0041722 -0.0354398
2263000000 0.0041219 -0.0344217 0.9958781 0.0344217 0.9958781 0.0344217 0.0041219 -0.0344217
2284000000 0.0040747 -0.0334159 0.9959253 0.0334159 0.9959253 0.0334159 0.0040747 -0.0334159
2305000000 0.0040304 -0.0324222 0.9959696 0.0324222 0.9959696 0.0324222 0.0040304 -0.0324222
2326000000 0.0039891 -0.0314401 0.9960109 0.0314401 0.9960109 0.0314401 0.0039891 -0.0314401
2347000000 0.0039506 -0.0304694 0.9960494 0.0304694 0.9960494 0.0304694 0.0039506 -0.0304694
2368000000 0.0039148 -0.0295099 0.9960852 0.0295099 0.9960852 0.0295099 0.0039148 -0.0295099
2389000000 0.0038816 -0.0285612 0.9961184 0.0285612 0.9961184 0.0285612 0.0038816 -0.0285612
2410000000 0.0038510 -0.0276230 0.9961490 0.0276230 0.9961490 0.0276230 0.0038510 -0.0276230
2431000000 0.0038229 -0.0266951 0.9961771 0.0266951 0.9961771 0.0266951 0.0038229 -0.0266951
2452000000 0.0037972 -0.0257773 0.9962028 0.0257773 0.9962028 0.0257773 0.0037972 -0.0257773
2473000000 0.0037739 -0.0248692 0.9962261 0.0248692 0.9962261 0.0248692 0.0037739 -0.0248692
2494000000 0.0037528 -0.0239707 0.9962472 0.0239707 0.9962472 0.0239707 0.0037528 -0.0239707
2515000000 0.0037340 -0.0230815 0.9962660 0.0230815 0.9962660 0.0230815 0.0037340 -0.0230815
2536000000 0.0037173 -0.0222014 0.9962827 0.0222014 0.9962827 0.0222014 0.0037173 -0.0222014
2557000000 0.0037027 -0.0213303 0.9962973 0.0213303 0.9962973 0.0213303 0.0037027 -0.0213303
2578000000 0.0036902 -0.0204678 0.9963098 0.0204678 0.9963098 0.0204678 0.0036902 -0.0204678
2599000000 0.0036796 -0.0196137 0.9963204 0.0196137 0.9963204 0.0196137 0.0036796 -0.0196137
2620000000 0.0036710 -0.0187680 0.9963290 0.0187680 0.9963290 0.0187680 0.0036710 -0.0187680
2641000000 0.0036642 -0.0179304 0.9963358 0.0179304 0.9963358 0.0179304 0.0036642 -0.0179304
2662000000 0.0036593 -0.0171006 0.9963407 0.0171006 0.9963407 0.0171006 0.0036593 -0.0171006
2683000000 0.0036562 -0.0162786 0.9963438 0.0162786 0.9963438 0.0162786 0.0036562 -0.0162786
2704000000 0.0036549 -0.0154642 0.9963451 0.0154642 0.9963451 0.0154642 0.0036549 -0.0154642
2725000000 0.0036552 -0.0146572 0.9963448 0.0146572 0.9963448 0.0146572 0.0036552 -0.0146572
2746000000 0.0036572 -0.0138574 0.9963428 0.0138574 0.9963428 0.0138574 0.0036572 -0.0138574
2767000000 0.0036609 -0.0130647 0.9963391 0.0130647 0.9963391 0.0130647 0.0036609 -0.0130647
2788000000 0.0036661 -0.0122789 0.9963339 0.0122789 0.9963339 0.0122789 0.0036661 -0.0122789
2809000000 0.0036729 -0.0114999 0.9963271 0.0114999 0.9963271 0.0114999 0.0036729 -0.0114999
2830000000 0.0036811 -0.0107275 0.9963189 0.0107275 0.9963189 0.0107275 0.0036811 -0.0107275
2851000000 0.0036909 -0.0099616 0.9963091 0.0099616 0.9963091 0.0099616 0.0036909 -0.0099616
2872000000 0.0037021 -0.0092021 0.9962979 0.0092021 0.9962979 0.0092021 0.0037021 -0.0092021
2893000000 0.0037147 -0.0084488 0.9962853 0.0084488 0.9962853 0.0084488 0.0037147 -0.0084488
2914000000 0.0037287 -0.0077016 0.9962713 0.0077016 0.9962713 0.0077016 0.0037287 -0.0077016
2935000000 0.0037441 -0.0069604 0.9962559 0.0069604 0.9962559 0.0069604 0.0037441 -0.0069604
2956000000 0.0037607 -0.0062251 0.9962393 0.0062251 0.9962393 0.0062251 0.0037607 -0.0062251
2977000000 0.0037787 -0.0054955 0.9962213 0.0054955 0.9962213 0.0054955 0.0037787 -0.0054955
2998000000 0.0037979 -0.0047715 0.9962021 0.0047715 0.9962021 0.0047715 0.0037979 -0.0047715
3019000000 0.0038184 -0.0040531 0.9961816 0.0040531 0.9961816 0.0040531 0.0038184 -0.0040531
3040000000 0.0038401 -0.0033400 0.9961599 0.0033400 0.9961599 0.0033400 0.0038401 -0.0033400
3061000000 0.0038629 -0.0026323 0.9961371 0.0026323 0.9961371 0.0026323 0.0038629 -0.0026323
3082000000 0.0038870 -0.0019298 0.9961130 0.0019298 0.9961130 0.0019298 0.0038870 -0.0019298
3103000000 0.0039122 -0.0012324 0.9960878 0.0012324 0.9960878 0.0012324 0.0039122 -0.0012324
3124000000 0.0039385 -0.0005399 0.9960615 0.0005399 0.9960615 0.0005399 0.0039385 -0.0005399
3145000000 0.0039659 0.0001476 0.9960341 -0.0001476 0.9960341 -0.0001476 0.0039659 0.0001476
3166000000 0.0039944 0.0008302 0.9960056 -0.0008302 0.9960056 -0.0008302 0.0039944 0.0008302
3187000000 0.0040239 0.0015082 0.9959761 -0.0015082 0.9959761 -0.0015082 0.0040239 0.0015082
3208000000 0.0040545 0.0021815 0.9959455 -0.0021815 0.9959455 -0.0021815 0.0040545 0.0021815
3229000000 0.0040861 0.0028502 0.9959139 -0.0028502 0.9959139 -0.0028502 0.0040861 0.0028502
3250000000 0.0041187 0.0035145 0.9958813 -0.0035145 0.9958813 -0.0035145 0.0041187 0.0035145
3271000000 0.0041523 0.0041743 0.9958477 -0.0041743 0.9958477 -0.0041743 0.0041523 0.0041743
3292000000 0.0041869 0.0048299 0.9958131 -0.0048299 0.9958131 -0.0048299 0.0041869 0.0048299
3313000000 0.0042224 0.0054812 0.9957776 -0.0054812 0.9957776 -0.0054812 0.0042224 0.0054812
3334000000 0.0042588 0.0061283 0.9957412 -0.0061283 0.9957412 -0.0061283 0.0042588 0.0061283
3355000000 0.0042962 0.0067713 0.9957038 -0.0067713 0.9957038 -0.0067713 0.0042962 0.0067713
3376000000 0.0043344 0.0074103 0.9956656 -0.0074103 0.9956656 -0.0074103 0.0043344 0.0074103
3397000000 0.0043736 0.0080453 0.9956264 -0.0080453 0.9956264 -0.0080453 0.0043736 0.0080453
3418000000 0.0044136 0.0086765 0.9955864 -0.0086765 0.9955864 -0.0086765 0.0044136 0.0086765
3439000000 0.0044545 0.0093038 0.9955455 -0.0093038 0.9955455 -0.0093038 0.0044545 0.0093038
3460000000 0.0044962 0.0099273 0.9955038 -0.0099273 0.9955038 -0.0099273 0.0044962 0.0099273
3481000000 0.0045387 0.0105472 0.9954613 -0.0105472 0.9954613 -0.0105472 0.0045387 0.0105472
3502000000 0.0045821 0.0111634 0.9954179 -0.0111634 0.9954179 -0.0111634 0.0045821 0.0111634
3523000000 0.0046262 0.0117760 0.9953738 -0.0117760 0.9953738 -0.0117760 0.0046262 0.0117760
3544000000 0.0046712 0.0123851 0.9953288 -0.0123851 0.9953288 -0.0123851 0.0046712 0.0123851
3565000000 0.0047169 0.0129908 0.9952831 -0.0129908 0.9952831 -0.0129908 0.0047169 0.0129908
3586000000 0.0047634 0.0135930 0.9952366 -0.0135930 0.9952366 -0.0135930 0.0047634 0.0135930
3607000000 0.0048107 0.0141919 0.9951893 -0.0141919 0.9951893 -0.0141919 0.0048107 0.0141919
3628000000 0.0048587 0.0147875 0.9951413 -0.0147875 0.9951413 -0.0147875 0.0048587 0.0147875
3649000000 0.0049074 0.0153798 0.9950926 -0.0153798 0.9950926 -0.0153798 0.0049074 0.0153798
3670000000 0.0049569 0.0159689 0.9950431 -0.0159689 0.9950431 -0.0159689 0.0049569 0.0159689
3691000000 0.0050070 0.0165549 0.9949930 -0.0165549 0.9949930 -0.0165549 0.0050070 0.0165549
3712000000 0.0050579 0.0171378 0.9949421 -0.0171378 0.9949421 -0.0171378 0.0050579 0.0171378
3733000000 0.0051095 0.0177176 0.9948905 -0.0177176 0.9948905 -0.0177176 0.0051095 0.0177176
3754000000 0.0051617 0.0182945 0.9948383 -0.0182945 0.9948383 -0.0182945 0.0051617 0.0182945
3775000000 0.0052146 0.0188683 0.9947854 -0.0188683 0.9947854 -0.0188683 0.0052146 0.0188683
3796000000 0.0052682 0.0194393 0.9947318 -0.0194393 0.9947318 -0.0194393 0.0052682 0.0194393
3817000000 0.0053224 0.0200073 0.9946776 -0.0200073 0.9946776 -0.0200073 0.0053224 0.0200073
3838000000 0.0053773 0.0205726 0.9946227 -0.0205726 0.9946227 -0.0205726 0.0053773 0.0205726
3859000000 0.0054328 0.0211350 0.9945672 -0.0211350 0.9945672 -0.0211350 0.0054328 0.0211350
3880000000 0.0054890 0.0216947 0.9945110 -0.0216947 0.9945110 -0.0216947 0.0054890 0.0216947
3901000000 0.0055457 0.0222517 0.9944543 -0.0222517 0.9944543 -0.0222517 0.0055457 0.0222517
3922000000 0.0056031 0.0228060 0.9943969 -0.0228060 0.9943969 -0.0228060 0.0056031 0.0228060
3943000000 0.0056611 0.0233576 0.9943389 -0.0233576 0.9943389 -0.0233576 0.0056611 0.0233576
3964000000 0.0057197 0.0239067 0.9942803 -0.0239067 0.9942803 -0.0239067 0.0057197 0.0239067
3985000000 0.0057788 0.0244532 0.9942212 -0.0244532 0.9942212 -0.0244532 0.0057788 0.0244532
4006000000 0.0058386 0.0249972 0.9941614 -0.0249972 0.9941614 -0.0249972 0.0058386 0.0249972
4027000000 0.0058989 0.0255387 0.9941011 -0.0255387 0.9941011 -0.0255387 0.0058989 0.0255387
4048000000 0.0059598 0.0260777 0.9940402 -0.0260777 0.9940402 -0.0260777 0.0059598 0.0260777
4069000000 0.0060212 0.0266143 0.9939788 -0.0266143 0.9939788 -0.0266143 0.0060212 0.0266143
4090000000 0.0060832 0.0271486 0.9939168 -0.0271486 0.9939168 -0.0271486 0.0060832 0.0271486
4111000000 0.0061458 0.0276804 0.9938542 -0.0276804 0.9938542 -0.0276804 0.0061458 0.0276804
4132000000 0.0062089 0.0282100 0.9937911 -0.0282100 0.9937911 -0.0282100 0.0062089 0.0282100
4153000000 0.0062725 0.0287372 0.9937275 -0.0287372 0.9937275 -0.0287372 0.0062725 0.0287372
4174000000 0.0063367 0.0292622 0.9936633 -0.0292622 0.9936633 -0.0292622 0.0063367 0.0292622
4195000000 0.0064013 0.0297849 0.9935987 -0.0297849 0.9935987 -0.0297849 0.0064013 0.0297849
4216000000 0.0064665 0.0303054 0.9935335 -0.0303054 0.9935335 -0.0303054 0.0064665 0.0303054
4237000000 0.0065322 0.0308238 0.9934678 -0.0308238 0.9934678 -0.0308238 0.0065322 0.0308238
4258000000 0.0065984 0.0313400 0.9934016 -0.0313400 0.9934016 -0.0313400 0.0065984 0.0313400
4279000000 0.0066651 0.0318541 0.9933349 -0.0318541 0.9933349 -0.0318541 0.0066651 0.0318541
4300000000 0.0067323 0.0323661 0.9932677 -0.0323661 0.9932677 -0.0323661 0.0067323 0.0323661
4321000000 0.0068000 0.0328760 0.9932000 -0.0328760 0.9932000 -0.0328760 0.0068000 0.0328760
4342000000 0.0068682 0.0333838 0.9931318 -0.0333838 0.9931318 -0.0333838 0.0068682 0.0333838
4363000000 0.0069368 0.0338897 0.9930632 -0.0338897 0.9930632 -0.0338897 0.0069368 0.0338897
4384000000 0.0070059 0.0343935 0.9929941 -0.0343935 0.9929941 -0.0343935 0.0070059 0.0343935
4405000000 0.0070755 0.0348954 0.9929245 -0.0348954 0.9929245 -0.0348954 0.0070755 0.0348954
4426000000 0.0071455 0.0353953 0.9928545 -0.0353953 0.9928545 -0.0353953 0.0071455 0.0353953
4447000000 0.0072160 0.0358933 0.9927840 -0.0358933 0.9927840 -0.0358933 0.0072160 0.0358933
4468000000 0.0072870 0.0363895 0.9927130 -0.0363895 0.9927130 -0.0363895 0.0072870 0.0363895
4489000000 0.0073584 0.0368837 0.9926416 -0.0368837 0.9926416 -0.0368837 0.0073584 0.0368837
4510000000 0.0074302 0.0373761 0.9925698 -0.0373761 0.9925698 -0.0373761 0.0074302 0.0373761
