!Murata Part Number: GRM0335C1E180FA01
!These Parameters are Measured in Series Mode Connection
!Data Generated on Mar 30, 2021
!       o--ll--o
!Port1            Port2
!       o------o
!Operation Temp=25[degC], DC Bias Voltage=0[V]
!Freq. Start=100[MHz] Stop=9[GHz] 401[Steps]
# Hz S RI R 50
!Freq.(Hz) S11(Real) S11(Imag) S21(Real) S21(Imag) S12(Real) S12(Imag) S22(Real) S22(Imag)
100000000 0.4380195 -0.4952441 0.5619805 0.4952441 0.5619805 0.4952441 0.4380195 -0.4952441
121000000 0.3472569 -0.4750082 0.6527431 0.4750082 0.6527431 0.4750082 0.3472569 -0.4750082
142000000 0.2784847 -0.4469717 0.7215153 0.4469717 0.7215153 0.4469717 0.2784847 -0.4469717
163000000 0.2263988 -0.4170260 0.7736012 0.4170260 0.7736012 0.4170260 0.2263988 -0.4170260
184000000 0.1866127 -0.3879322 0.8133873 0.3879322 0.8133873 0.3879322 0.1866127 -0.3879322
205000000 0.1558442 -0.3608440 0.8441558 0.3608440 0.8441558 0.3608440 0.1558442 -0.3608440
226000000 0.1317234 -0.3361293 0.8682766 0.3361293 0.8682766 0.3361293 0.1317234 -0.3361293
247000000 0.1125554 -0.3137892 0.8874446 0.3137892 0.8874446 0.3137892 0.1125554 -0.3137892
268000000 0.0971242 -0.2936667 0.9028758 0.2936667 0.9028758 0.2936667 0.0971242 -0.2936667
289000000 0.0845498 -0.2755475 0.9154502 0.2755475 0.9154502 0.2755475 0.0845498 -0.2755475
310000000 0.0741880 -0.2592083 0.9258120 0.2592083 0.9258120 0.2592083 0.0741880 -0.2592083
331000000 0.0655614 -0.2444378 0.9344386 0.2444378 0.9344386 0.2444378 0.0655614 -0.2444378
352000000 0.0583115 -0.2310451 0.9416885 0.2310451 0.9416885 0.2310451 0.0583115 -0.2310451
373000000 0.0521660 -0.2188622 0.9478340 0.2188622 0.9478340 0.2188622 0.0521660 -0.2188622
394000000 0.0469157 -0.2077426 0.9530843 0.2077426 0.9530843 0.2077426 0.0469157 -0.2077426
415000000 0.0423976 -0.1975596 0.9576024 0.1975596 0.9576024 0.1975596 0.0423976 -0.1975596
436000000 0.0384838 -0.1882037 0.9615162 0.1882037 0.9615162 0.1882037 0.0384838 -0.1882037
457000000 0.0350730 -0.1795806 0.9649270 0.1795806 0.9649270 0.1795806 0.0350730 -0.1795806
478000000 0.0320836 -0.1716088 0.9679164 0.1716088 0.9679164 0.1716088 0.0320836 -0.1716088
499000000 0.0294502 -0.1642177 0.9705498 0.1642177 0.9705498 0.1642177 0.0294502 -0.1642177
520000000 0.0271191 -0.1573460 0.9728809 0.1573460 0.9728809 0.1573460 0.0271191 -0.1573460
541000000 0.0250466 -0.1509403 0.9749534 0.1509403 0.9749534 0.1509403 0.0250466 -0.1509403
562000000 0.0231964 -0.1449543 0.9768036 0.1449543 0.9768036 0.1449543 0.0231964 -0.1449543
583000000 0.0215383 -0.1393471 0.9784617 0.1393471 0.9784617 0.1393471 0.0215383 -0.1393471
604000000 0.0200471 -0.1340828 0.9799529 0.1340828 0.9799529 0.1340828 0.0200471 -0.1340828
625000000 0.0187016 -0.1291300 0.9812984 0.1291300 0.9812984 0.1291300 0.0187016 -0.1291300
646000000 0.0174837 -0.1244608 0.9825163 0.1244608 0.9825163 0.1244608 0.0174837 -0.1244608
667000000 0.0163782 -0.1200503 0.9836218 0.1200503 0.9836218 0.1200503 0.0163782 -0.1200503
688000000 0.0153720 -0.1158766 0.9846280 0.1158766 0.9846280 0.1158766 0.0153720 -0.1158766
709000000 0.0144539 -0.1119201 0.9855461 0.1119201 0.9855461 0.1119201 0.0144539 -0.1119201
730000000 0.0136141 -0.1081631 0.9863859 0.1081631 0.9863859 0.1081631 0.0136141 -0.1081631
751000000 0.0128443 -0.1045900 0.9871557 0.1045900 0.9871557 0.1045900 0.0128443 -0.1045900
772000000 0.0121372 -0.1011865 0.9878628 0.1011865 0.9878628 0.1011865 0.0121372 -0.1011865
793000000 0.0114863 -0.0979400 0.9885137 0.0979400 0.9885137 0.0979400 0.0114863 -0.0979400
814000000 0.0108862 -0.0948389 0.9891138 0.0948389 0.9891138 0.0948389 0.0108862 -0.0948389
835000000 0.0103320 -0.0918726 0.9896680 0.0918726 0.9896680 0.0918726 0.0103320 -0.0918726
856000000 0.0098192 -0.0890319 0.9901808 0.0890319 0.9901808 0.0890319 0.0098192 -0.0890319
877000000 0.0093441 -0.0863079 0.9906559 0.0863079 0.9906559 0.0863079 0.0093441 -0.0863079
898000000 0.0089033 -0.0836930 0.9910967 0.0836930 0.9910967 0.0836930 0.0089033 -0.0836930
919000000 0.0084938 -0.0811798 0.9915062 0.0811798 0.9915062 0.0811798 0.0084938 -0.0811798
940000000 0.0081128 -0.0787619 0.9918872 0.0787619 0.9918872 0.0787619 0.0081128 -0.0787619
961000000 0.0077580 -0.0764331 0.9922420 0.0764331 0.9922420 0.0764331 0.0077580 -0.0764331
982000000 0.0074273 -0.0741881 0.9925727 0.0741881 0.9925727 0.0741881 0.0074273 -0.0741881
1003000000 0.0071186 -0.0720217 0.9928814 0.0720217 0.9928814 0.0720217 0.0071186 -0.0720217
1024000000 0.0068303 -0.0699292 0.9931697 0.0699292 0.9931697 0.0699292 0.0068303 -0.0699292
1045000000 0.0065608 -0.0679063 0.9934392 0.0679063 0.9934392 0.0679063 0.0065608 -0.0679063
1066000000 0.0063086 -0.0659489 0.9936914 0.0659489 0.9936914 0.0659489 0.0063086 -0.0659489
1087000000 0.0060725 -0.0640536 0.9939275 0.0640536 0.9939275 0.0640536 0.0060725 -0.0640536
1108000000 0.0058513 -0.0622166 0.9941487 0.0622166 0.9941487 0.0622166 0.0058513 -0.0622166
1129000000 0.0056439 -0.0604350 0.9943561 0.0604350 0.9943561 0.0604350 0.0056439 -0.0604350
1150000000 0.0054494 -0.0587058 0.9945506 0.0587058 0.9945506 0.0587058 0.0054494 -0.0587058
1171000000 0.0052669 -0.0570261 0.9947331 0.0570261 0.9947331 0.0570261 0.0052669 -0.0570261
1192000000 0.0050956 -0.0553935 0.9949044 0.0553935 0.9949044 0.0553935 0.0050956 -0.0553935
1213000000 0.0049347 -0.0538056 0.9950653 0.0538056 0.9950653 0.0538056 0.0049347 -0.0538056
1234000000 0.0047836 -0.0522600 0.9952164 0.0522600 0.9952164 0.0522600 0.0047836 -0.0522600
1255000000 0.0046417 -0.0507548 0.9953583 0.0507548 0.9953583 0.0507548 0.0046417 -0.0507548
1276000000 0.0045083 -0.0492880 0.9954917 0.0492880 0.9954917 0.0492880 0.0045083 -0.0492880
1297000000 0.0043829 -0.0478577 0.9956171 0.0478577 0.9956171 0.0478577 0.0043829 -0.0478577
1318000000 0.0042652 -0.0464623 0.9957348 0.0464623 0.9957348 0.0464623 0.0042652 -0.0464623
1339000000 0.0041545 -0.0451001 0.9958455 0.0451001 0.9958455 0.0451001 0.0041545 -0.0451001
1360000000 0.0040506 -0.0437696 0.9959494 0.0437696 0.9959494 0.0437696 0.0040506 -0.0437696
1381000000 0.0039530 -0.0424694 0.9960470 0.0424694 0.9960470 0.0424694 0.0039530 -0.0424694
1402000000 0.0038613 -0.0411981 0.9961387 0.0411981 0.9961387 0.0411981 0.0038613 -0.0411981
1423000000 0.0037753 -0.0399546 0.9962247 0.0399546 0.9962247 0.0399546 0.0037753 -0.0399546
1444000000 0.0036946 -0.0387375 0.9963054 0.0387375 0.9963054 0.0387375 0.0036946 -0.0387375
1465000000 0.0036189 -0.0375458 0.9963811 0.0375458 0.9963811 0.0375458 0.0036189 -0.0375458
1486000000 0.0035481 -0.0363784 0.9964519 0.0363784 0.9964519 0.0363784 0.0035481 -0.0363784
1507000000 0.0034817 -0.0352343 0.9965183 0.0352343 0.9965183 0.0352343 0.0034817 -0.0352343
1528000000 0.0034197 -0.0341125 0.9965803 0.0341125 0.9965803 0.0341125 0.0034197 -0.0341125
1549000000 0.0033618 -0.0330122 0.9966382 0.0330122 0.9966382 0.0330122 0.0033618 -0.0330122
1570000000 0.0033077 -0.0319325 0.9966923 0.0319325 0.9966923 0.0319325 0.0033077 -0.0319325
1591000000 0.0032574 -0.0308726 0.9967426 0.0308726 0.9967426 0.0308726 0.0032574 -0.0308726
1612000000 0.0032106 -0.0298317 0.9967894 0.0298317 0.9967894 0.0298317 0.0032106 -0.0298317
1633000000 0.0031671 -0.0288091 0.9968329 0.0288091 0.9968329 0.0288091 0.0031671 -0.0288091
1654000000 0.0031269 -0.0278041 0.9968731 0.0278041 0.9968731 0.0278041 0.0031269 -0.0278041
1675000000 0.0030897 -0.0268160 0.9969103 0.0268160 0.9969103 0.0268160 0.0030897 -0.0268160
1696000000 0.0030555 -0.0258443 0.9969445 0.0258443 0.9969445 0.0258443 0.0030555 -0.0258443
1717000000 0.0030241 -0.0248882 0.9969759 0.0248882 0.9969759 0.0248882 0.0030241 -0.0248882
1738000000 0.0029953 -0.0239473 0.9970047 0.0239473 0.9970047 0.0239473 0.0029953 -0.0239473
1759000000 0.0029691 -0.0230210 0.9970309 0.0230210 0.9970309 0.0230210 0.0029691 -0.0230210
1780000000 0.0029454 -0.0221088 0.9970546 0.0221088 0.9970546 0.0221088 0.0029454 -0.0221088
1801000000 0.0029241 -0.0212102 0.9970759 0.0212102 0.9970759 0.0212102 0.0029241 -0.0212102
1822000000 0.0029050 -0.0203247 0.9970950 0.0203247 0.9970950 0.0203247 0.0029050 -0.0203247
1843000000 0.0028881 -0.0194518 0.9971119 0.0194518 0.9971119 0.0194518 0.0028881 -0.0194518
1864000000 0.0028733 -0.0185912 0.9971267 0.0185912 0.9971267 0.0185912 0.0028733 -0.0185912
1885000000 0.0028605 -0.0177425 0.9971395 0.0177425 0.9971395 0.0177425 0.0028605 -0.0177425
1906000000 0.0028497 -0.0169051 0.9971503 0.0169051 0.9971503 0.0169051 0.0028497 -0.0169051
1927000000 0.0028407 -0.0160788 0.9971593 0.0160788 0.9971593 0.0160788 0.0028407 -0.0160788
1948000000 0.0028336 -0.0152633 0.9971664 0.0152633 0.9971664 0.0152633 0.0028336 -0.0152633
1969000000 0.0028282 -0.0144580 0.9971718 0.0144580 0.9971718 0.0144580 0.0028282 -0.0144580
1990000000 0.0028245 -0.0136628 0.9971755 0.0136628 0.9971755 0.0136628 0.0028245 -0.0136628
2011000000 0.0028224 -0.0128773 0.9971776 0.0128773 0.9971776 0.0128773 0.0028224 -0.0128773
2032000000 0.0028219 -0.0121011 0.9971781 0.0121011 0.9971781 0.0121011 0.0028219 -0.0121011
2053000000 0.0028229 -0.0113341 0.9971771 0.0113341 0.9971771 0.0113341 0.0028229 -0.0113341
2074000000 0.0028254 -0.0105759 0.9971746 0.0105759 0.9971746 0.0105759 0.0028254 -0.0105759
2095000000 0.0028293 -0.0098262 0.9971707 0.0098262 0.9971707 0.0098262 0.0028293 -0.0098262
2116000000 0.0028346 -0.0090848 0.9971654 0.0090848 0.9971654 0.0090848 0.0028346 -0.0090848
2137000000 0.0028413 -0.0083514 0.9971587 0.0083514 0.9971587 0.0083514 0.0028413 -0.0083514
2158000000 0.0028493 -0.0076258 0.9971507 0.0076258 0.9971507 0.0076258 0.0028493 -0.0076258
2179000000 0.0028585 -0.0069078 0.9971415 0.0069078 0.9971415 0.0069078 0.0028585 -0.0069078
2200000000 0.0028690 -0.0061971 0.9971310 0.0061971 0.9971310 0.0061971 0.0028690 -0.0061971
2221000000 0.0028807 -0.0054936 0.9971193 0.0054936 0.9971193 0.0054936 0.0028807 -0.0054936
2242000000 0.0028935 -0.0047969 0.9971065 0.0047969 0.9971065 0.0047969 0.0028935 -0.0047969
2263000000 0.0029075 -0.0041070 0.9970925 0.0041070 0.9970925 0.0041070 0.0029075 -0.0041070
2284000000 0.0029226 -0.0034235 0.9970774 0.0034235 0.9970774 0.0034235 0.0029226 -0.0034235
2305000000 0.0029388 -0.0027465 0.9970612 0.0027465 0.9970612 0.0027465 0.0029388 -0.0027465
2326000000 0.0029561 -0.0020755 0.9970439 0.0020755 0.9970439 0.0020755 0.0029561 -0.0020755
2347000000 0.0029744 -0.0014106 0.9970256 0.0014106 0.9970256 0.0014106 0.0029744 -0.0014106
2368000000 0.0029937 -0.0007514 0.9970063 0.0007514 0.9970063 0.0007514 0.0029937 -0.0007514
2389000000 0.0030140 -0.0000979 0.9969860 0.0000979 0.9969860 0.0000979 0.0030140 -0.0000979
2410000000 0.0030353 0.0005501 0.9969647 -0.0005501 0.9969647 -0.0005501 0.0030353 0.0005501
2431000000 0.0030575 0.0011928 0.9969425 -0.0011928 0.9969425 -0.0011928 0.0030575 0.0011928
2452000000 0.0030807 0.0018303 0.9969193 -0.0018303 0.9969193 -0.0018303 0.0030807 0.0018303
2473000000 0.0031048 0.0024627 0.9968952 -0.0024627 0.9968952 -0.0024627 0.0031048 0.0024627
2494000000 0.0031298 0.0030902 0.9968702 -0.0030902 0.9968702 -0.0030902 0.0031298 0.0030902
2515000000 0.0031556 0.0037129 0.9968444 -0.0037129 0.9968444 -0.0037129 0.0031556 0.0037129
2536000000 0.0031824 0.0043310 0.9968176 -0.0043310 0.9968176 -0.0043310 0.0031824 0.0043310
2557000000 0.0032099 0.0049445 0.9967901 -0.0049445 0.9967901 -0.0049445 0.0032099 0.0049445
2578000000 0.0032384 0.0055536 0.9967616 -0.0055536 0.9967616 -0.0055536 0.0032384 0.0055536
2599000000 0.0032676 0.0061585 0.9967324 -0.0061585 0.9967324 -0.0061585 0.0032676 0.0061585
2620000000 0.0032977 0.0067591 0.9967023 -0.0067591 0.9967023 -0.0067591 0.0032977 0.0067591
2641000000 0.0033286 0.0073557 0.9966714 -0.0073557 0.9966714 -0.0073557 0.0033286 0.0073557
2662000000 0.0033602 0.0079483 0.9966398 -0.0079483 0.9966398 -0.0079483 0.0033602 0.0079483
2683000000 0.0033927 0.0085371 0.9966073 -0.0085371 0.9966073 -0.0085371 0.0033927 0.0085371
2704000000 0.0034259 0.0091221 0.9965741 -0.0091221 0.9965741 -0.0091221 0.0034259 0.0091221
2725000000 0.0034599 0.0097034 0.9965401 -0.0097034 0.9965401 -0.0097034 0.0034599 0.0097034
2746000000 0.0034946 0.0102812 0.9965054 -0.0102812 0.9965054 -0.0102812 0.0034946 0.0102812
2767000000 0.0035301 0.0108555 0.9964699 -0.0108555 0.9964699 -0.0108555 0.0035301 0.0108555
2788000000 0.0035664 0.0114264 0.9964336 -0.0114264 0.9964336 -0.0114264 0.0035664 0.0114264
2809000000 0.0036033 0.0119940 0.9963967 -0.0119940 0.9963967 -0.0119940 0.0036033 0.0119940
2830000000 0.0036410 0.0125584 0.9963590 -0.0125584 0.9963590 -0.0125584 0.0036410 0.0125584
2851000000 0.0036794 0.0131197 0.9963206 -0.0131197 0.9963206 -0.0131197 0.0036794 0.0131197
2872000000 0.0037186 0.0136779 0.9962814 -0.0136779 0.9962814 -0.0136779 0.0037186 0.0136779
2893000000 0.0037584 0.0142331 0.9962416 -0.0142331 0.9962416 -0.0142331 0.0037584 0.0142331
2914000000 0.0037990 0.0147855 0.9962010 -0.0147855 0.9962010 -0.0147855 0.0037990 0.0147855
2935000000 0.0038402 0.0153350 0.9961598 -0.0153350 0.9961598 -0.0153350 0.0038402 0.0153350
2956000000 0.0038822 0.0158817 0.9961178 -0.0158817 0.9961178 -0.0158817 0.0038822 0.0158817
2977000000 0.0039248 0.0164258 0.9960752 -0.0164258 0.9960752 -0.0164258 0.0039248 0.0164258
2998000000 0.0039681 0.0169672 0.9960319 -0.0169672 0.9960319 -0.0169672 0.0039681 0.0169672
3019000000 0.0040122 0.0175061 0.9959878 -0.0175061 0.9959878 -0.0175061 0.0040122 0.0175061
3040000000 0.0040569 0.0180426 0.9959431 -0.0180426 0.9959431 -0.0180426 0.0040569 0.0180426
3061000000 0.0041023 0.0185766 0.9958977 -0.0185766 0.9958977 -0.0185766 0.0041023 0.0185766
3082000000 0.0041484 0.0191082 0.9958516 -0.0191082 0.9958516 -0.0191082 0.0041484 0.0191082
3103000000 0.0041951 0.0196375 0.9958049 -0.0196375 0.9958049 -0.0196375 0.0041951 0.0196375
3124000000 0.0042425 0.0201646 0.9957575 -0.0201646 0.9957575 -0.0201646 0.0042425 0.0201646
3145000000 0.0042907 0.0206895 0.9957093 -0.0206895 0.9957093 -0.0206895 0.0042907 0.0206895
3166000000 0.0043395 0.0212123 0.9956605 -0.0212123 0.9956605 -0.0212123 0.0043395 0.0212123
3187000000 0.0043889 0.0217329 0.9956111 -0.0217329 0.9956111 -0.0217329 0.0043889 0.0217329
3208000000 0.0044391 0.0222516 0.9955609 -0.0222516 0.9955609 -0.0222516 0.0044391 0.0222516
3229000000 0.0044899 0.0227683 0.9955101 -0.0227683 0.9955101 -0.0227683 0.0044899 0.0227683
3250000000 0.0045414 0.0232830 0.9954586 -0.0232830 0.9954586 -0.0232830 0.0045414 0.0232830
3271000000 0.0045936 0.0237959 0.9954064 -0.0237959 0.9954064 -0.0237959 0.0045936 0.0237959
3292000000 0.0046464 0.0243070 0.9953536 -0.0243070 0.9953536 -0.0243070 0.0046464 0.0243070
3313000000 0.0047000 0.0248163 0.9953000 -0.0248163 0.9953000 -0.0248163 0.0047000 0.0248163
3334000000 0.0047542 0.0253238 0.9952458 -0.0253238 0.9952458 -0.0253238 0.0047542 0.0253238
3355000000 0.0048091 0.0258297 0.9951909 -0.0258297 0.9951909 -0.0258297 0.0048091 0.0258297
3376000000 0.0048647 0.0263339 0.9951353 -0.0263339 0.9951353 -0.0263339 0.0048647 0.0263339
3397000000 0.0049210 0.0268365 0.9950790 -0.0268365 0.9950790 -0.0268365 0.0049210 0.0268365
3418000000 0.0049779 0.0273376 0.9950221 -0.0273376 0.9950221 -0.0273376 0.0049779 0.0273376
3439000000 0.0050356 0.0278371 0.9949644 -0.0278371 0.9949644 -0.0278371 0.0050356 0.0278371
3460000000 0.0050940 0.0283352 0.9949060 -0.0283352 0.9949060 -0.0283352 0.0050940 0.0283352
3481000000 0.0051530 0.0288318 0.9948470 -0.0288318 0.9948470 -0.0288318 0.0051530 0.0288318
3502000000 0.0052128 0.0293270 0.9947872 -0.0293270 0.9947872 -0.0293270 0.0052128 0.0293270
3523000000 0.0052733 0.0298208 0.9947267 -0.0298208 0.9947267 -0.0298208 0.0052733 0.0298208
3544000000 0.0053344 0.0303134 0.9946656 -0.0303134 0.9946656 -0.0303134 0.0053344 0.0303134
3565000000 0.0053963 0.0308046 0.9946037 -0.0308046 0.9946037 -0.0308046 0.0053963 0.0308046
3586000000 0.0054589 0.0312946 0.9945411 -0.0312946 0.9945411 -0.0312946 0.0054589 0.0312946
3607000000 0.0055222 0.0317833 0.9944778 -0.0317833 0.9944778 -0.0317833 0.0055222 0.0317833
3628000000 0.0055863 0.0322709 0.9944137 -0.0322709 0.9944137 -0.0322709 0.0055863 0.0322709
3649000000 0.0056511 0.0327573 0.9943489 -0.0327573 0.9943489 -0.0327573 0.0056511 0.0327573
3670000000 0.0057166 0.0332426 0.9942834 -0.0332426 0.9942834 -0.0332426 0.0057166 0.0332426
3691000000 0.0057828 0.0337268 0.9942172 -0.0337268 0.9942172 -0.0337268 0.0057828 0.0337268
3712000000 0.0058498 0.0342099 0.9941502 -0.0342099 0.9941502 -0.0342099 0.0058498 0.0342099
3733000000 0.0059176 0.0346921 0.9940824 -0.0346921 0.9940824 -0.0346921 0.0059176 0.0346921
3754000000 0.0059861 0.0351732 0.9940139 -0.0351732 0.9940139 -0.0351732 0.0059861 0.0351732
3775000000 0.0060553 0.0356533 0.9939447 -0.0356533 0.9939447 -0.0356533 0.0060553 0.0356533
3796000000 0.0061254 0.0361325 0.9938746 -0.0361325 0.9938746 -0.0361325 0.0061254 0.0361325
3817000000 0.0061962 0.0366108 0.9938038 -0.0366108 0.9938038 -0.0366108 0.0061962 0.0366108
3838000000 0.0062678 0.0370882 0.9937322 -0.0370882 0.9937322 -0.0370882 0.0062678 0.0370882
3859000000 0.0063402 0.0375648 0.9936598 -0.0375648 0.9936598 -0.0375648 0.0063402 0.0375648
3880000000 0.0064133 0.0380405 0.9935867 -0.0380405 0.9935867 -0.0380405 0.0064133 0.0380405
3901000000 0.0064873 0.0385154 0.9935127 -0.0385154 0.9935127 -0.0385154 0.0064873 0.0385154
3922000000 0.0065621 0.0389895 0.9934379 -0.0389895 0.9934379 -0.0389895 0.0065621 0.0389895
3943000000 0.0066377 0.0394629 0.9933623 -0.0394629 0.9933623 -0.0394629 0.0066377 0.0394629
3964000000 0.0067141 0.0399355 0.9932859 -0.0399355 0.9932859 -0.0399355 0.0067141 0.0399355
3985000000 0.0067913 0.0404075 0.9932087 -0.0404075 0.9932087 -0.0404075 0.0067913 0.0404075
4006000000 0.0068694 0.0408787 0.9931306 -0.0408787 0.9931306 -0.0408787 0.0068694 0.0408787
4027000000 0.0069483 0.0413493 0.9930517 -0.0413493 0.9930517 -0.0413493 0.0069483 0.0413493
4048000000 0.0070281 0.0418193 0.9929719 -0.0418193 0.9929719 -0.0418193 0.0070281 0.0418193
4069000000 0.0071087 0.0422887 0.9928913 -0.0422887 0.9928913 -0.0422887 0.0071087 0.0422887
4090000000 0.0071903 0.0427574 0.9928097 -0.0427574 0.9928097 -0.0427574 0.0071903 0.0427574
4111000000 0.0072726 0.0432256 0.9927274 -0.0432256 0.9927274 -0.0432256 0.0072726 0.0432256
4132000000 0.0073559 0.0436932 0.9926441 -0.0436932 0.9926441 -0.0436932 0.0073559 0.0436932
4153000000 0.0074401 0.0441603 0.9925599 -0.0441603 0.9925599 -0.0441603 0.0074401 0.0441603
4174000000 0.0075252 0.0446269 0.9924748 -0.0446269 0.9924748 -0.0446269 0.0075252 0.0446269
4195000000 0.0076112 0.0450930 0.9923888 -0.0450930 0.9923888 -0.0450930 0.0076112 0.0450930
4216000000 0.0076981 0.0455586 0.9923019 -0.0455586 0.9923019 -0.0455586 0.0076981 0.0455586
4237000000 0.0077860 0.0460238 0.9922140 -0.0460238 0.9922140 -0.0460238 0.0077860 0.0460238
4258000000 0.0078748 0.0464886 0.9921252 -0.0464886 0.9921252 -0.0464886 0.0078748 0.0464886
4279000000 0.0079646 0.0469529 0.9920354 -0.0469529 0.9920354 -0.0469529 0.0079646 0.0469529
4300000000 0.0080553 0.0474168 0.9919447 -0.0474168 0.9919447 -0.0474168 0.0080553 0.0474168
4321000000 0.0081470 0.0478804 0.9918530 -0.0478804 0.9918530 -0.0478804 0.0081470 0.0478804
4342000000 0.0082397 0.0483436 0.9917603 -0.0483436 0.9917603 -0.0483436 0.0082397 0.0483436
4363000000 0.0083334 0.0488064 0.9916666 -0.0488064 0.9916666 -0.0488064 0.0083334 0.0488064
4384000000 0.0084281 0.0492689 0.9915719 -0.0492689 0.9915719 -0.0492689 0.0084281 0.0492689
4405000000 0.0085239 0.0497311 0.9914761 -0.0497311 0.9914761 -0.0497311 0.0085239 0.0497311
4426000000 0.0086206 0.0501930 0.9913794 -0.0501930 0.9913794 -0.0501930 0.0086206 0.0501930
4447000000 0.0087184 0.0506546 0.9912816 -0.0506546 0.9912816 -0.0506546 0.0087184 0.0506546
4468000000 0.0088173 0.0511160 0.9911827 -0.0511160 0.9911827 -0.0511160 0.0088173 0.0511160
4489000000 0.0089172 0.0515771 0.9910828 -0.0515771 0.9910828 -0.0515771 0.0089172 0.0515771
4510000000 0.0090183 0.0520379 0.9909817 -0.0520379 0.9909817 -0.0520379 0.0090183 0.0520379
