!Murata Part Number: GRM0333C1H2R6CA01
!These Parameters are Measured in Series Mode Connection
!Data Generated on Mar 30, 2021
!       o--ll--o
!Port1            Port2
!       o------o
!Operation Temp=25[degC], DC Bias Voltage=0[V]
!Freq. Start=100[MHz] Stop=9[GHz] 401[Steps]
# Hz S RI R 50
!Freq.(Hz) S11(Real) S11(Imag) S21(Real) S21(Imag) S12(Real) S12(Imag) S22(Real) S22(Imag)
100000000 0.9739308 -0.1591324 0.0260692 0.1591324 0.0260692 0.1591324 0.9739308 -0.1591324
121000000 0.9622813 -0.1902627 0.0377187 0.1902627 0.0377187 0.1902627 0.9622813 -0.1902627
142000000 0.9487700 -0.2201701 0.0512300 0.2201701 0.0512300 0.2201701 0.9487700 -0.2201701
163000000 0.9335610 -0.2487075 0.0664390 0.2487075 0.0664390 0.2487075 0.9335610 -0.2487075
184000000 0.9168305 -0.2757539 0.0831695 0.2757539 0.0831695 0.2757539 0.9168305 -0.2757539
205000000 0.8987621 -0.3012150 0.1012379 0.3012150 0.1012379 0.3012150 0.8987621 -0.3012150
226000000 0.8795431 -0.3250225 0.1204569 0.3250225 0.1204569 0.3250225 0.8795431 -0.3250225
247000000 0.8593596 -0.3471335 0.1406404 0.3471335 0.1406404 0.3471335 0.8593596 -0.3471335
268000000 0.8383935 -0.3675283 0.1616065 0.3675283 0.1616065 0.3675283 0.8383935 -0.3675283
289000000 0.8168195 -0.3862090 0.1831805 0.3862090 0.1831805 0.3862090 0.8168195 -0.3862090
310000000 0.7948023 -0.4031961 0.2051977 0.4031961 0.2051977 0.4031961 0.7948023 -0.4031961
331000000 0.7724951 -0.4185266 0.2275049 0.4185266 0.2275049 0.4185266 0.7724951 -0.4185266
352000000 0.7500385 -0.4322512 0.2499615 0.4322512 0.2499615 0.4322512 0.7500385 -0.4322512
373000000 0.7275594 -0.4444313 0.2724406 0.4444313 0.2724406 0.4444313 0.7275594 -0.4444313
394000000 0.7051708 -0.4551369 0.2948292 0.4551369 0.2948292 0.4551369 0.7051708 -0.4551369
415000000 0.6829723 -0.4644442 0.3170277 0.4644442 0.3170277 0.4644442 0.6829723 -0.4644442
436000000 0.6610499 -0.4724335 0.3389501 0.4724335 0.3389501 0.4724335 0.6610499 -0.4724335
457000000 0.6394771 -0.4791875 0.3605229 0.4791875 0.3605229 0.4791875 0.6394771 -0.4791875
478000000 0.6183153 -0.4847896 0.3816847 0.4847896 0.3816847 0.4847896 0.6183153 -0.4847896
499000000 0.5976153 -0.4893228 0.4023847 0.4893228 0.4023847 0.4893228 0.5976153 -0.4893228
520000000 0.5774176 -0.4928684 0.4225824 0.4928684 0.4225824 0.4928684 0.5774176 -0.4928684
541000000 0.5577537 -0.4955055 0.4422463 0.4955055 0.4422463 0.4955055 0.5577537 -0.4955055
562000000 0.5386472 -0.4973102 0.4613528 0.4973102 0.4613528 0.4973102 0.5386472 -0.4973102
583000000 0.5201145 -0.4983548 0.4798855 0.4983548 0.4798855 0.4983548 0.5201145 -0.4983548
604000000 0.5021661 -0.4987083 0.4978339 0.4987083 0.4978339 0.4987083 0.5021661 -0.4987083
625000000 0.4848068 -0.4984353 0.5151932 0.4984353 0.5151932 0.4984353 0.4848068 -0.4984353
646000000 0.4680371 -0.4975964 0.5319629 0.4975964 0.5319629 0.4975964 0.4680371 -0.4975964
667000000 0.4518536 -0.4962484 0.5481464 0.4962484 0.5481464 0.4962484 0.4518536 -0.4962484
688000000 0.4362498 -0.4944436 0.5637502 0.4944436 0.5637502 0.4944436 0.4362498 -0.4944436
709000000 0.4212164 -0.4922308 0.5787836 0.4922308 0.5787836 0.4922308 0.4212164 -0.4922308
730000000 0.4067419 -0.4896546 0.5932581 0.4896546 0.5932581 0.4896546 0.4067419 -0.4896546
751000000 0.3928135 -0.4867563 0.6071865 0.4867563 0.6071865 0.4867563 0.3928135 -0.4867563
772000000 0.3794166 -0.4835737 0.6205834 0.4835737 0.6205834 0.4835737 0.3794166 -0.4835737
793000000 0.3665359 -0.4801413 0.6334641 0.4801413 0.6334641 0.4801413 0.3665359 -0.4801413
814000000 0.3541553 -0.4764906 0.6458447 0.4764906 0.6458447 0.4764906 0.3541553 -0.4764906
835000000 0.3422583 -0.4726503 0.6577417 0.4726503 0.6577417 0.4726503 0.3422583 -0.4726503
856000000 0.3308281 -0.4686464 0.6691719 0.4686464 0.6691719 0.4686464 0.3308281 -0.4686464
877000000 0.3198477 -0.4645025 0.6801523 0.4645025 0.6801523 0.4645025 0.3198477 -0.4645025
898000000 0.3093003 -0.4602400 0.6906997 0.4602400 0.6906997 0.4602400 0.3093003 -0.4602400
919000000 0.2991692 -0.4558783 0.7008308 0.4558783 0.7008308 0.4558783 0.2991692 -0.4558783
940000000 0.2894379 -0.4514348 0.7105621 0.4514348 0.7105621 0.4514348 0.2894379 -0.4514348
961000000 0.2800903 -0.4469252 0.7199097 0.4469252 0.7199097 0.4469252 0.2800903 -0.4469252
982000000 0.2711107 -0.4423636 0.7288893 0.4423636 0.7288893 0.4423636 0.2711107 -0.4423636
1003000000 0.2624837 -0.4377626 0.7375163 0.4377626 0.7375163 0.4377626 0.2624837 -0.4377626
1024000000 0.2541946 -0.4331337 0.7458054 0.4331337 0.7458054 0.4331337 0.2541946 -0.4331337
1045000000 0.2462289 -0.4284869 0.7537711 0.4284869 0.7537711 0.4284869 0.2462289 -0.4284869
1066000000 0.2385728 -0.4238313 0.7614272 0.4238313 0.7614272 0.4238313 0.2385728 -0.4238313
1087000000 0.2312129 -0.4191750 0.7687871 0.4191750 0.7687871 0.4191750 0.2312129 -0.4191750
1108000000 0.2241364 -0.4145252 0.7758636 0.4145252 0.7758636 0.4145252 0.2241364 -0.4145252
1129000000 0.2173310 -0.4098882 0.7826690 0.4098882 0.7826690 0.4098882 0.2173310 -0.4098882
1150000000 0.2107849 -0.4052697 0.7892151 0.4052697 0.7892151 0.4052697 0.2107849 -0.4052697
1171000000 0.2044866 -0.4006746 0.7955134 0.4006746 0.7955134 0.4006746 0.2044866 -0.4006746
1192000000 0.1984255 -0.3961072 0.8015745 0.3961072 0.8015745 0.3961072 0.1984255 -0.3961072
1213000000 0.1925911 -0.3915714 0.8074089 0.3915714 0.8074089 0.3915714 0.1925911 -0.3915714
1234000000 0.1869735 -0.3870705 0.8130265 0.3870705 0.8130265 0.3870705 0.1869735 -0.3870705
1255000000 0.1815634 -0.3826075 0.8184366 0.3826075 0.8184366 0.3826075 0.1815634 -0.3826075
1276000000 0.1763516 -0.3781846 0.8236484 0.3781846 0.8236484 0.3781846 0.1763516 -0.3781846
1297000000 0.1713295 -0.3738042 0.8286705 0.3738042 0.8286705 0.3738042 0.1713295 -0.3738042
1318000000 0.1664889 -0.3694680 0.8335111 0.3694680 0.8335111 0.3694680 0.1664889 -0.3694680
1339000000 0.1618221 -0.3651775 0.8381779 0.3651775 0.8381779 0.3651775 0.1618221 -0.3651775
1360000000 0.1573215 -0.3609340 0.8426785 0.3609340 0.8426785 0.3609340 0.1573215 -0.3609340
1381000000 0.1529801 -0.3567385 0.8470199 0.3567385 0.8470199 0.3567385 0.1529801 -0.3567385
1402000000 0.1487910 -0.3525918 0.8512090 0.3525918 0.8512090 0.3525918 0.1487910 -0.3525918
1423000000 0.1447478 -0.3484945 0.8552522 0.3484945 0.8552522 0.3484945 0.1447478 -0.3484945
1444000000 0.1408443 -0.3444472 0.8591557 0.3444472 0.8591557 0.3444472 0.1408443 -0.3444472
1465000000 0.1370747 -0.3404500 0.8629253 0.3404500 0.8629253 0.3404500 0.1370747 -0.3404500
1486000000 0.1334334 -0.3365033 0.8665666 0.3365033 0.8665666 0.3365033 0.1334334 -0.3365033
1507000000 0.1299151 -0.3326070 0.8700849 0.3326070 0.8700849 0.3326070 0.1299151 -0.3326070
1528000000 0.1265146 -0.3287612 0.8734854 0.3287612 0.8734854 0.3287612 0.1265146 -0.3287612
1549000000 0.1232272 -0.3249656 0.8767728 0.3249656 0.8767728 0.3249656 0.1232272 -0.3249656
1570000000 0.1200483 -0.3212201 0.8799517 0.3212201 0.8799517 0.3212201 0.1200483 -0.3212201
1591000000 0.1169734 -0.3175244 0.8830266 0.3175244 0.8830266 0.3175244 0.1169734 -0.3175244
1612000000 0.1139983 -0.3138781 0.8860017 0.3138781 0.8860017 0.3138781 0.1139983 -0.3138781
1633000000 0.1111191 -0.3102809 0.8888809 0.3102809 0.8888809 0.3102809 0.1111191 -0.3102809
1654000000 0.1083320 -0.3067322 0.8916680 0.3067322 0.8916680 0.3067322 0.1083320 -0.3067322
1675000000 0.1056334 -0.3032315 0.8943666 0.3032315 0.8943666 0.3032315 0.1056334 -0.3032315
1696000000 0.1030196 -0.2997784 0.8969804 0.2997784 0.8969804 0.2997784 0.1030196 -0.2997784
1717000000 0.1004876 -0.2963723 0.8995124 0.2963723 0.8995124 0.2963723 0.1004876 -0.2963723
1738000000 0.0980340 -0.2930125 0.9019660 0.2930125 0.9019660 0.2930125 0.0980340 -0.2930125
1759000000 0.0956559 -0.2896985 0.9043441 0.2896985 0.9043441 0.2896985 0.0956559 -0.2896985
1780000000 0.0933504 -0.2864296 0.9066496 0.2864296 0.9066496 0.2864296 0.0933504 -0.2864296
1801000000 0.0911148 -0.2832053 0.9088852 0.2832053 0.9088852 0.2832053 0.0911148 -0.2832053
1822000000 0.0889464 -0.2800247 0.9110536 0.2800247 0.9110536 0.2800247 0.0889464 -0.2800247
1843000000 0.0868427 -0.2768873 0.9131573 0.2768873 0.9131573 0.2768873 0.0868427 -0.2768873
1864000000 0.0848013 -0.2737924 0.9151987 0.2737924 0.9151987 0.2737924 0.0848013 -0.2737924
1885000000 0.0828200 -0.2707393 0.9171800 0.2707393 0.9171800 0.2707393 0.0828200 -0.2707393
1906000000 0.0808965 -0.2677274 0.9191035 0.2677274 0.9191035 0.2677274 0.0808965 -0.2677274
1927000000 0.0790287 -0.2647558 0.9209713 0.2647558 0.9209713 0.2647558 0.0790287 -0.2647558
1948000000 0.0772147 -0.2618241 0.9227853 0.2618241 0.9227853 0.2618241 0.0772147 -0.2618241
1969000000 0.0754524 -0.2589314 0.9245476 0.2589314 0.9245476 0.2589314 0.0754524 -0.2589314
1990000000 0.0737402 -0.2560771 0.9262598 0.2560771 0.9262598 0.2560771 0.0737402 -0.2560771
2011000000 0.0720761 -0.2532606 0.9279239 0.2532606 0.9279239 0.2532606 0.0720761 -0.2532606
2032000000 0.0704586 -0.2504811 0.9295414 0.2504811 0.9295414 0.2504811 0.0704586 -0.2504811
2053000000 0.0688860 -0.2477381 0.9311140 0.2477381 0.9311140 0.2477381 0.0688860 -0.2477381
2074000000 0.0673567 -0.2450308 0.9326433 0.2450308 0.9326433 0.2450308 0.0673567 -0.2450308
2095000000 0.0658693 -0.2423586 0.9341307 0.2423586 0.9341307 0.2423586 0.0658693 -0.2423586
2116000000 0.0644224 -0.2397209 0.9355776 0.2397209 0.9355776 0.2397209 0.0644224 -0.2397209
2137000000 0.0630146 -0.2371170 0.9369854 0.2371170 0.9369854 0.2371170 0.0630146 -0.2371170
2158000000 0.0616445 -0.2345463 0.9383555 0.2345463 0.9383555 0.2345463 0.0616445 -0.2345463
2179000000 0.0603110 -0.2320082 0.9396890 0.2320082 0.9396890 0.2320082 0.0603110 -0.2320082
2200000000 0.0590128 -0.2295021 0.9409872 0.2295021 0.9409872 0.2295021 0.0590128 -0.2295021
2221000000 0.0577488 -0.2270274 0.9422512 0.2270274 0.9422512 0.2270274 0.0577488 -0.2270274
2242000000 0.0565178 -0.2245836 0.9434822 0.2245836 0.9434822 0.2245836 0.0565178 -0.2245836
2263000000 0.0553189 -0.2221699 0.9446811 0.2221699 0.9446811 0.2221699 0.0553189 -0.2221699
2284000000 0.0541508 -0.2197859 0.9458492 0.2197859 0.9458492 0.2197859 0.0541508 -0.2197859
2305000000 0.0530128 -0.2174311 0.9469872 0.2174311 0.9469872 0.2174311 0.0530128 -0.2174311
2326000000 0.0519038 -0.2151048 0.9480962 0.2151048 0.9480962 0.2151048 0.0519038 -0.2151048
2347000000 0.0508230 -0.2128065 0.9491770 0.2128065 0.9491770 0.2128065 0.0508230 -0.2128065
2368000000 0.0497693 -0.2105358 0.9502307 0.2105358 0.9502307 0.2105358 0.0497693 -0.2105358
2389000000 0.0487421 -0.2082920 0.9512579 0.2082920 0.9512579 0.2082920 0.0487421 -0.2082920
2410000000 0.0477405 -0.2060747 0.9522595 0.2060747 0.9522595 0.2060747 0.0477405 -0.2060747
2431000000 0.0467637 -0.2038834 0.9532363 0.2038834 0.9532363 0.2038834 0.0467637 -0.2038834
2452000000 0.0458110 -0.2017176 0.9541890 0.2017176 0.9541890 0.2017176 0.0458110 -0.2017176
2473000000 0.0448816 -0.1995768 0.9551184 0.1995768 0.9551184 0.1995768 0.0448816 -0.1995768
2494000000 0.0439749 -0.1974606 0.9560251 0.1974606 0.9560251 0.1974606 0.0439749 -0.1974606
2515000000 0.0430902 -0.1953684 0.9569098 0.1953684 0.9569098 0.1953684 0.0430902 -0.1953684
2536000000 0.0422268 -0.1932999 0.9577732 0.1932999 0.9577732 0.1932999 0.0422268 -0.1932999
2557000000 0.0413841 -0.1912545 0.9586159 0.1912545 0.9586159 0.1912545 0.0413841 -0.1912545
2578000000 0.0405616 -0.1892320 0.9594384 0.1892320 0.9594384 0.1892320 0.0405616 -0.1892320
2599000000 0.0397585 -0.1872317 0.9602415 0.1872317 0.9602415 0.1872317 0.0397585 -0.1872317
2620000000 0.0389745 -0.1852534 0.9610255 0.1852534 0.9610255 0.1852534 0.0389745 -0.1852534
2641000000 0.0382089 -0.1832966 0.9617911 0.1832966 0.9617911 0.1832966 0.0382089 -0.1832966
2662000000 0.0374612 -0.1813609 0.9625388 0.1813609 0.9625388 0.1813609 0.0374612 -0.1813609
2683000000 0.0367310 -0.1794460 0.9632690 0.1794460 0.9632690 0.1794460 0.0367310 -0.1794460
2704000000 0.0360177 -0.1775514 0.9639823 0.1775514 0.9639823 0.1775514 0.0360177 -0.1775514
2725000000 0.0353208 -0.1756767 0.9646792 0.1756767 0.9646792 0.1756767 0.0353208 -0.1756767
2746000000 0.0346400 -0.1738217 0.9653600 0.1738217 0.9653600 0.1738217 0.0346400 -0.1738217
2767000000 0.0339748 -0.1719859 0.9660252 0.1719859 0.9660252 0.1719859 0.0339748 -0.1719859
2788000000 0.0333248 -0.1701690 0.9666752 0.1701690 0.9666752 0.1701690 0.0333248 -0.1701690
2809000000 0.0326895 -0.1683707 0.9673105 0.1683707 0.9673105 0.1683707 0.0326895 -0.1683707
2830000000 0.0320687 -0.1665905 0.9679313 0.1665905 0.9679313 0.1665905 0.0320687 -0.1665905
2851000000 0.0314618 -0.1648283 0.9685382 0.1648283 0.9685382 0.1648283 0.0314618 -0.1648283
2872000000 0.0308685 -0.1630836 0.9691315 0.1630836 0.9691315 0.1630836 0.0308685 -0.1630836
2893000000 0.0302885 -0.1613561 0.9697115 0.1613561 0.9697115 0.1613561 0.0302885 -0.1613561
2914000000 0.0297214 -0.1596456 0.9702786 0.1596456 0.9702786 0.1596456 0.0297214 -0.1596456
2935000000 0.0291670 -0.1579517 0.9708330 0.1579517 0.9708330 0.1579517 0.0291670 -0.1579517
2956000000 0.0286248 -0.1562741 0.9713752 0.1562741 0.9713752 0.1562741 0.0286248 -0.1562741
2977000000 0.0280946 -0.1546126 0.9719054 0.1546126 0.9719054 0.1546126 0.0280946 -0.1546126
2998000000 0.0275761 -0.1529668 0.9724239 0.1529668 0.9724239 0.1529668 0.0275761 -0.1529668
3019000000 0.0270689 -0.1513365 0.9729311 0.1513365 0.9729311 0.1513365 0.0270689 -0.1513365
3040000000 0.0265729 -0.1497214 0.9734271 0.1497214 0.9734271 0.1497214 0.0265729 -0.1497214
3061000000 0.0260877 -0.1481212 0.9739123 0.1481212 0.9739123 0.1481212 0.0260877 -0.1481212
3082000000 0.0256130 -0.1465357 0.9743870 0.1465357 0.9743870 0.1465357 0.0256130 -0.1465357
3103000000 0.0251487 -0.1449646 0.9748513 0.1449646 0.9748513 0.1449646 0.0251487 -0.1449646
3124000000 0.0246944 -0.1434077 0.9753056 0.1434077 0.9753056 0.1434077 0.0246944 -0.1434077
3145000000 0.0242500 -0.1418647 0.9757500 0.1418647 0.9757500 0.1418647 0.0242500 -0.1418647
3166000000 0.0238151 -0.1403353 0.9761849 0.1403353 0.9761849 0.1403353 0.0238151 -0.1403353
3187000000 0.0233896 -0.1388194 0.9766104 0.1388194 0.9766104 0.1388194 0.0233896 -0.1388194
3208000000 0.0229732 -0.1373167 0.9770268 0.1373167 0.9770268 0.1373167 0.0229732 -0.1373167
3229000000 0.0225658 -0.1358270 0.9774342 0.1358270 0.9774342 0.1358270 0.0225658 -0.1358270
3250000000 0.0221671 -0.1343500 0.9778329 0.1343500 0.9778329 0.1343500 0.0221671 -0.1343500
3271000000 0.0217770 -0.1328855 0.9782230 0.1328855 0.9782230 0.1328855 0.0217770 -0.1328855
3292000000 0.0213952 -0.1314334 0.9786048 0.1314334 0.9786048 0.1314334 0.0213952 -0.1314334
3313000000 0.0210215 -0.1299934 0.9789785 0.1299934 0.9789785 0.1299934 0.0210215 -0.1299934
3334000000 0.0206558 -0.1285653 0.9793442 0.1285653 0.9793442 0.1285653 0.0206558 -0.1285653
3355000000 0.0202979 -0.1271488 0.9797021 0.1271488 0.9797021 0.1271488 0.0202979 -0.1271488
3376000000 0.0199476 -0.1257439 0.9800524 0.1257439 0.9800524 0.1257439 0.0199476 -0.1257439
3397000000 0.0196048 -0.1243503 0.9803952 0.1243503 0.9803952 0.1243503 0.0196048 -0.1243503
3418000000 0.0192693 -0.1229678 0.9807307 0.1229678 0.9807307 0.1229678 0.0192693 -0.1229678
3439000000 0.0189409 -0.1215963 0.9810591 0.1215963 0.9810591 0.1215963 0.0189409 -0.1215963
3460000000 0.0186195 -0.1202355 0.9813805 0.1202355 0.9813805 0.1202355 0.0186195 -0.1202355
3481000000 0.0183049 -0.1188852 0.9816951 0.1188852 0.9816951 0.1188852 0.0183049 -0.1188852
3502000000 0.0179971 -0.1175454 0.9820029 0.1175454 0.9820029 0.1175454 0.0179971 -0.1175454
3523000000 0.0176958 -0.1162157 0.9823042 0.1162157 0.9823042 0.1162157 0.0176958 -0.1162157
3544000000 0.0174009 -0.1148962 0.9825991 0.1148962 0.9825991 0.1148962 0.0174009 -0.1148962
3565000000 0.0171123 -0.1135865 0.9828877 0.1135865 0.9828877 0.1135865 0.0171123 -0.1135865
3586000000 0.0168299 -0.1122865 0.9831701 0.1122865 0.9831701 0.1122865 0.0168299 -0.1122865
3607000000 0.0165535 -0.1109961 0.9834465 0.1109961 0.9834465 0.1109961 0.0165535 -0.1109961
3628000000 0.0162830 -0.1097151 0.9837170 0.1097151 0.9837170 0.1097151 0.0162830 -0.1097151
3649000000 0.0160183 -0.1084433 0.9839817 0.1084433 0.9839817 0.1084433 0.0160183 -0.1084433
3670000000 0.0157593 -0.1071806 0.9842407 0.1071806 0.9842407 0.1071806 0.0157593 -0.1071806
3691000000 0.0155059 -0.1059269 0.9844941 0.1059269 0.9844941 0.1059269 0.0155059 -0.1059269
3712000000 0.0152579 -0.1046820 0.9847421 0.1046820 0.9847421 0.1046820 0.0152579 -0.1046820
3733000000 0.0150154 -0.1034458 0.9849846 0.1034458 0.9849846 0.1034458 0.0150154 -0.1034458
3754000000 0.0147780 -0.1022181 0.9852220 0.1022181 0.9852220 0.1022181 0.0147780 -0.1022181
3775000000 0.0145459 -0.1009987 0.9854541 0.1009987 0.9854541 0.1009987 0.0145459 -0.1009987
3796000000 0.0143187 -0.0997876 0.9856813 0.0997876 0.9856813 0.0997876 0.0143187 -0.0997876
3817000000 0.0140966 -0.0985847 0.9859034 0.0985847 0.9859034 0.0985847 0.0140966 -0.0985847
3838000000 0.0138793 -0.0973897 0.9861207 0.0973897 0.9861207 0.0973897 0.0138793 -0.0973897
3859000000 0.0136669 -0.0962025 0.9863331 0.0962025 0.9863331 0.0962025 0.0136669 -0.0962025
3880000000 0.0134591 -0.0950231 0.9865409 0.0950231 0.9865409 0.0950231 0.0134591 -0.0950231
3901000000 0.0132560 -0.0938513 0.9867440 0.0938513 0.9867440 0.0938513 0.0132560 -0.0938513
3922000000 0.0130574 -0.0926870 0.9869426 0.0926870 0.9869426 0.0926870 0.0130574 -0.0926870
3943000000 0.0128632 -0.0915300 0.9871368 0.0915300 0.9871368 0.0915300 0.0128632 -0.0915300
3964000000 0.0126734 -0.0903803 0.9873266 0.0903803 0.9873266 0.0903803 0.0126734 -0.0903803
3985000000 0.0124879 -0.0892378 0.9875121 0.0892378 0.9875121 0.0892378 0.0124879 -0.0892378
4006000000 0.0123067 -0.0881022 0.9876933 0.0881022 0.9876933 0.0881022 0.0123067 -0.0881022
4027000000 0.0121296 -0.0869735 0.9878704 0.0869735 0.9878704 0.0869735 0.0121296 -0.0869735
4048000000 0.0119566 -0.0858517 0.9880434 0.0858517 0.9880434 0.0858517 0.0119566 -0.0858517
4069000000 0.0117876 -0.0847365 0.9882124 0.0847365 0.9882124 0.0847365 0.0117876 -0.0847365
4090000000 0.0116226 -0.0836279 0.9883774 0.0836279 0.9883774 0.0836279 0.0116226 -0.0836279
4111000000 0.0114614 -0.0825258 0.9885386 0.0825258 0.9885386 0.0825258 0.0114614 -0.0825258
4132000000 0.0113041 -0.0814300 0.9886959 0.0814300 0.9886959 0.0814300 0.0113041 -0.0814300
4153000000 0.0111506 -0.0803405 0.9888494 0.0803405 0.9888494 0.0803405 0.0111506 -0.0803405
4174000000 0.0110007 -0.0792572 0.9889993 0.0792572 0.9889993 0.0792572 0.0110007 -0.0792572
4195000000 0.0108545 -0.0781800 0.9891455 0.0781800 0.9891455 0.0781800 0.0108545 -0.0781800
4216000000 0.0107119 -0.0771087 0.9892881 0.0771087 0.9892881 0.0771087 0.0107119 -0.0771087
4237000000 0.0105728 -0.0760434 0.9894272 0.0760434 0.9894272 0.0760434 0.0105728 -0.0760434
4258000000 0.0104372 -0.0749838 0.9895628 0.0749838 0.9895628 0.0749838 0.0104372 -0.0749838
4279000000 0.0103050 -0.0739299 0.9896950 0.0739299 0.9896950 0.0739299 0.0103050 -0.0739299
4300000000 0.0101762 -0.0728816 0.9898238 0.0728816 0.9898238 0.0728816 0.0101762 -0.0728816
4321000000 0.0100508 -0.0718389 0.9899492 0.0718389 0.9899492 0.0718389 0.0100508 -0.0718389
4342000000 0.0099286 -0.0708015 0.9900714 0.0708015 0.9900714 0.0708015 0.0099286 -0.0708015
4363000000 0.0098096 -0.0697695 0.9901904 0.0697695 0.9901904 0.0697695 0.0098096 -0.0697695
4384000000 0.0096938 -0.0687428 0.9903062 0.0687428 0.9903062 0.0687428 0.0096938 -0.0687428
4405000000 0.0095812 -0.0677213 0.9904188 0.0677213 0.9904188 0.0677213 0.0095812 -0.0677213
4426000000 0.0094716 -0.0667048 0.9905284 0.0667048 0.9905284 0.0667048 0.0094716 -0.0667048
4447000000 0.0093651 -0.0656934 0.9906349 0.0656934 0.9906349 0.0656934 0.0093651 -0.0656934
4468000000 0.0092616 -0.0646869 0.9907384 0.0646869 0.9907384 0.0646869 0.0092616 -0.0646869
4489000000 0.0091611 -0.0636852 0.9908389 0.0636852 0.9908389 0.0636852 0.0091611 -0.0636852
4510000000 0.0090635 -0.0626883 0.9909365 0.0626883 0.9909365 0.0626883 0.0090635 -0.0626883
