!Murata Part Number: GRM0335C2A2R8BA01
!These Parameters are Measured in Series Mode Connection
!Data Generated on Mar 30, 2021
!       o--ll--o
!Port1            Port2
!       o------o
!Operation Temp=25[degC], DC Bias Voltage=0[V]
!Freq. Start=100[MHz] Stop=9[GHz] 401[Steps]
# Hz S RI R 50
!Freq.(Hz) S11(Real) S11(Imag) S21(Real) S21(Imag) S12(Real) S12(Imag) S22(Real) S22(Imag)
100000000 0.9698906 -0.1706638 0.0301094 0.1706638 0.0301094 0.1706638 0.9698906 -0.1706638
121000000 0.9565156 -0.2036730 0.0434844 0.2036730 0.0434844 0.2036730 0.9565156 -0.2036730
142000000 0.9410647 -0.2351844 0.0589353 0.2351844 0.0589353 0.2351844 0.9410647 -0.2351844
163000000 0.9237508 -0.2650299 0.0762492 0.2650299 0.0762492 0.2650299 0.9237508 -0.2650299
184000000 0.9048000 -0.2930770 0.0952000 0.2930770 0.0952000 0.2930770 0.9048000 -0.2930770
205000000 0.8844453 -0.3192288 0.1155547 0.3192288 0.1155547 0.3192288 0.8844453 -0.3192288
226000000 0.8629199 -0.3434229 0.1370801 0.3434229 0.1370801 0.3434229 0.8629199 -0.3434229
247000000 0.8404527 -0.3656291 0.1595473 0.3656291 0.1595473 0.3656291 0.8404527 -0.3656291
268000000 0.8172631 -0.3858464 0.1827369 0.3858464 0.1827369 0.3858464 0.8172631 -0.3858464
289000000 0.7935576 -0.4040995 0.2064424 0.4040995 0.2064424 0.4040995 0.7935576 -0.4040995
310000000 0.7695273 -0.4204353 0.2304727 0.4204353 0.2304727 0.4204353 0.7695273 -0.4204353
331000000 0.7453460 -0.4349185 0.2546540 0.4349185 0.2546540 0.4349185 0.7453460 -0.4349185
352000000 0.7211690 -0.4476279 0.2788310 0.4476279 0.2788310 0.4476279 0.7211690 -0.4476279
373000000 0.6971333 -0.4586535 0.3028667 0.4586535 0.3028667 0.4586535 0.6971333 -0.4586535
394000000 0.6733573 -0.4680923 0.3266427 0.4680923 0.3266427 0.4680923 0.6733573 -0.4680923
415000000 0.6499421 -0.4760462 0.3500579 0.4760462 0.3500579 0.4760462 0.6499421 -0.4760462
436000000 0.6269719 -0.4826192 0.3730281 0.4826192 0.3730281 0.4826192 0.6269719 -0.4826192
457000000 0.6045156 -0.4879152 0.3954844 0.4879152 0.3954844 0.4879152 0.6045156 -0.4879152
478000000 0.5826282 -0.4920370 0.4173718 0.4920370 0.4173718 0.4920370 0.5826282 -0.4920370
499000000 0.5613521 -0.4950841 0.4386479 0.4950841 0.4386479 0.4950841 0.5613521 -0.4950841
520000000 0.5407187 -0.4971522 0.4592813 0.4971522 0.4592813 0.4971522 0.5407187 -0.4971522
541000000 0.5207494 -0.4983326 0.4792506 0.4983326 0.4792506 0.4983326 0.5207494 -0.4983326
562000000 0.5014576 -0.4987114 0.4985424 0.4987114 0.4985424 0.4987114 0.5014576 -0.4987114
583000000 0.4828491 -0.4983692 0.5171509 0.4983692 0.5171509 0.4983692 0.4828491 -0.4983692
604000000 0.4649240 -0.4973813 0.5350760 0.4973813 0.5350760 0.4973813 0.4649240 -0.4973813
625000000 0.4476772 -0.4958174 0.5523228 0.4958174 0.5523228 0.4958174 0.4476772 -0.4958174
646000000 0.4310995 -0.4937418 0.5689005 0.4937418 0.5689005 0.4937418 0.4310995 -0.4937418
667000000 0.4151784 -0.4912137 0.5848216 0.4912137 0.5848216 0.4912137 0.4151784 -0.4912137
688000000 0.3998987 -0.4882869 0.6001013 0.4882869 0.6001013 0.4882869 0.3998987 -0.4882869
709000000 0.3852432 -0.4850108 0.6147568 0.4850108 0.6147568 0.4850108 0.3852432 -0.4850108
730000000 0.3711932 -0.4814303 0.6288068 0.4814303 0.6288068 0.4814303 0.3711932 -0.4814303
751000000 0.3577288 -0.4775859 0.6422712 0.4775859 0.6422712 0.4775859 0.3577288 -0.4775859
772000000 0.3448295 -0.4735145 0.6551705 0.4735145 0.6551705 0.4735145 0.3448295 -0.4735145
793000000 0.3324743 -0.4692491 0.6675257 0.4692491 0.6675257 0.4692491 0.3324743 -0.4692491
814000000 0.3206421 -0.4648196 0.6793579 0.4648196 0.6793579 0.4648196 0.3206421 -0.4648196
835000000 0.3093119 -0.4602528 0.6906881 0.4602528 0.6906881 0.4602528 0.3093119 -0.4602528
856000000 0.2984627 -0.4555728 0.7015373 0.4555728 0.7015373 0.4555728 0.2984627 -0.4555728
877000000 0.2880741 -0.4508010 0.7119259 0.4508010 0.7119259 0.4508010 0.2880741 -0.4508010
898000000 0.2781259 -0.4459567 0.7218741 0.4459567 0.7218741 0.4459567 0.2781259 -0.4459567
919000000 0.2685988 -0.4410569 0.7314012 0.4410569 0.7314012 0.4410569 0.2685988 -0.4410569
940000000 0.2594736 -0.4361170 0.7405264 0.4361170 0.7405264 0.4361170 0.2594736 -0.4361170
961000000 0.2507322 -0.4311503 0.7492678 0.4311503 0.7492678 0.4311503 0.2507322 -0.4311503
982000000 0.2423569 -0.4261690 0.7576431 0.4261690 0.7576431 0.4261690 0.2423569 -0.4261690
1003000000 0.2343308 -0.4211835 0.7656692 0.4211835 0.7656692 0.4211835 0.2343308 -0.4211835
1024000000 0.2266376 -0.4162032 0.7733624 0.4162032 0.7733624 0.4162032 0.2266376 -0.4162032
1045000000 0.2192617 -0.4112363 0.7807383 0.4112363 0.7807383 0.4112363 0.2192617 -0.4112363
1066000000 0.2121883 -0.4062899 0.7878117 0.4062899 0.7878117 0.4062899 0.2121883 -0.4062899
1087000000 0.2054032 -0.4013705 0.7945968 0.4013705 0.7945968 0.4013705 0.2054032 -0.4013705
1108000000 0.1988927 -0.3964833 0.8011073 0.3964833 0.8011073 0.3964833 0.1988927 -0.3964833
1129000000 0.1926441 -0.3916332 0.8073559 0.3916332 0.8073559 0.3916332 0.1926441 -0.3916332
1150000000 0.1866449 -0.3868241 0.8133551 0.3868241 0.8133551 0.3868241 0.1866449 -0.3868241
1171000000 0.1808835 -0.3820597 0.8191165 0.3820597 0.8191165 0.3820597 0.1808835 -0.3820597
1192000000 0.1753487 -0.3773429 0.8246513 0.3773429 0.8246513 0.3773429 0.1753487 -0.3773429
1213000000 0.1700301 -0.3726762 0.8299699 0.3726762 0.8299699 0.3726762 0.1700301 -0.3726762
1234000000 0.1649174 -0.3680617 0.8350826 0.3680617 0.8350826 0.3680617 0.1649174 -0.3680617
1255000000 0.1600013 -0.3635011 0.8399987 0.3635011 0.8399987 0.3635011 0.1600013 -0.3635011
1276000000 0.1552726 -0.3589958 0.8447274 0.3589958 0.8447274 0.3589958 0.1552726 -0.3589958
1297000000 0.1507228 -0.3545468 0.8492772 0.3545468 0.8492772 0.3545468 0.1507228 -0.3545468
1318000000 0.1463435 -0.3501551 0.8536565 0.3501551 0.8536565 0.3501551 0.1463435 -0.3501551
1339000000 0.1421272 -0.3458213 0.8578728 0.3458213 0.8578728 0.3458213 0.1421272 -0.3458213
1360000000 0.1380665 -0.3415458 0.8619335 0.3415458 0.8619335 0.3415458 0.1380665 -0.3415458
1381000000 0.1341543 -0.3373287 0.8658457 0.3373287 0.8658457 0.3373287 0.1341543 -0.3373287
1402000000 0.1303840 -0.3331701 0.8696160 0.3331701 0.8696160 0.3331701 0.1303840 -0.3331701
1423000000 0.1267493 -0.3290701 0.8732507 0.3290701 0.8732507 0.3290701 0.1267493 -0.3290701
1444000000 0.1232443 -0.3250284 0.8767557 0.3250284 0.8767557 0.3250284 0.1232443 -0.3250284
1465000000 0.1198633 -0.3210446 0.8801367 0.3210446 0.8801367 0.3210446 0.1198633 -0.3210446
1486000000 0.1166008 -0.3171185 0.8833992 0.3171185 0.8833992 0.3171185 0.1166008 -0.3171185
1507000000 0.1134518 -0.3132495 0.8865482 0.3132495 0.8865482 0.3132495 0.1134518 -0.3132495
1528000000 0.1104114 -0.3094371 0.8895886 0.3094371 0.8895886 0.3094371 0.1104114 -0.3094371
1549000000 0.1074750 -0.3056807 0.8925250 0.3056807 0.8925250 0.3056807 0.1074750 -0.3056807
1570000000 0.1046381 -0.3019796 0.8953619 0.3019796 0.8953619 0.3019796 0.1046381 -0.3019796
1591000000 0.1018966 -0.2983331 0.8981034 0.2983331 0.8981034 0.2983331 0.1018966 -0.2983331
1612000000 0.0992464 -0.2947406 0.9007536 0.2947406 0.9007536 0.2947406 0.0992464 -0.2947406
1633000000 0.0966840 -0.2912012 0.9033160 0.2912012 0.9033160 0.2912012 0.0966840 -0.2912012
1654000000 0.0942055 -0.2877142 0.9057945 0.2877142 0.9057945 0.2877142 0.0942055 -0.2877142
1675000000 0.0918077 -0.2842787 0.9081923 0.2842787 0.9081923 0.2842787 0.0918077 -0.2842787
1696000000 0.0894872 -0.2808940 0.9105128 0.2808940 0.9105128 0.2808940 0.0894872 -0.2808940
1717000000 0.0872409 -0.2775591 0.9127591 0.2775591 0.9127591 0.2775591 0.0872409 -0.2775591
1738000000 0.0850660 -0.2742733 0.9149340 0.2742733 0.9149340 0.2742733 0.0850660 -0.2742733
1759000000 0.0829595 -0.2710356 0.9170405 0.2710356 0.9170405 0.2710356 0.0829595 -0.2710356
1780000000 0.0809187 -0.2678454 0.9190813 0.2678454 0.9190813 0.2678454 0.0809187 -0.2678454
1801000000 0.0789412 -0.2647016 0.9210588 0.2647016 0.9210588 0.2647016 0.0789412 -0.2647016
1822000000 0.0770245 -0.2616034 0.9229755 0.2616034 0.9229755 0.2616034 0.0770245 -0.2616034
1843000000 0.0751663 -0.2585501 0.9248337 0.2585501 0.9248337 0.2585501 0.0751663 -0.2585501
1864000000 0.0733642 -0.2555407 0.9266358 0.2555407 0.9266358 0.2555407 0.0733642 -0.2555407
1885000000 0.0716163 -0.2525745 0.9283837 0.2525745 0.9283837 0.2525745 0.0716163 -0.2525745
1906000000 0.0699205 -0.2496505 0.9300795 0.2496505 0.9300795 0.2496505 0.0699205 -0.2496505
1927000000 0.0682748 -0.2467680 0.9317252 0.2467680 0.9317252 0.2467680 0.0682748 -0.2467680
1948000000 0.0666774 -0.2439262 0.9333226 0.2439262 0.9333226 0.2439262 0.0666774 -0.2439262
1969000000 0.0651266 -0.2411243 0.9348734 0.2411243 0.9348734 0.2411243 0.0651266 -0.2411243
1990000000 0.0636206 -0.2383615 0.9363794 0.2383615 0.9363794 0.2383615 0.0636206 -0.2383615
2011000000 0.0621579 -0.2356369 0.9378421 0.2356369 0.9378421 0.2356369 0.0621579 -0.2356369
2032000000 0.0607368 -0.2329500 0.9392632 0.2329500 0.9392632 0.2329500 0.0607368 -0.2329500
2053000000 0.0593560 -0.2302998 0.9406440 0.2302998 0.9406440 0.2302998 0.0593560 -0.2302998
2074000000 0.0580139 -0.2276857 0.9419861 0.2276857 0.9419861 0.2276857 0.0580139 -0.2276857
2095000000 0.0567094 -0.2251070 0.9432906 0.2251070 0.9432906 0.2251070 0.0567094 -0.2251070
2116000000 0.0554409 -0.2225628 0.9445591 0.2225628 0.9445591 0.2225628 0.0554409 -0.2225628
2137000000 0.0542074 -0.2200527 0.9457926 0.2200527 0.9457926 0.2200527 0.0542074 -0.2200527
2158000000 0.0530076 -0.2175757 0.9469924 0.2175757 0.9469924 0.2175757 0.0530076 -0.2175757
2179000000 0.0518404 -0.2151314 0.9481596 0.2151314 0.9481596 0.2151314 0.0518404 -0.2151314
2200000000 0.0507047 -0.2127190 0.9492953 0.2127190 0.9492953 0.2127190 0.0507047 -0.2127190
2221000000 0.0495994 -0.2103379 0.9504006 0.2103379 0.9504006 0.2103379 0.0495994 -0.2103379
2242000000 0.0485235 -0.2079874 0.9514765 0.2079874 0.9514765 0.2079874 0.0485235 -0.2079874
2263000000 0.0474761 -0.2056669 0.9525239 0.2056669 0.9525239 0.2056669 0.0474761 -0.2056669
2284000000 0.0464563 -0.2033759 0.9535437 0.2033759 0.9535437 0.2033759 0.0464563 -0.2033759
2305000000 0.0454631 -0.2011137 0.9545369 0.2011137 0.9545369 0.2011137 0.0454631 -0.2011137
2326000000 0.0444957 -0.1988798 0.9555043 0.1988798 0.9555043 0.1988798 0.0444957 -0.1988798
2347000000 0.0435533 -0.1966735 0.9564467 0.1966735 0.9564467 0.1966735 0.0435533 -0.1966735
2368000000 0.0426351 -0.1944944 0.9573649 0.1944944 0.9573649 0.1944944 0.0426351 -0.1944944
2389000000 0.0417404 -0.1923419 0.9582596 0.1923419 0.9582596 0.1923419 0.0417404 -0.1923419
2410000000 0.0408683 -0.1902154 0.9591317 0.1902154 0.9591317 0.1902154 0.0408683 -0.1902154
2431000000 0.0400182 -0.1881145 0.9599818 0.1881145 0.9599818 0.1881145 0.0400182 -0.1881145
2452000000 0.0391895 -0.1860386 0.9608105 0.1860386 0.9608105 0.1860386 0.0391895 -0.1860386
2473000000 0.0383815 -0.1839872 0.9616185 0.1839872 0.9616185 0.1839872 0.0383815 -0.1839872
2494000000 0.0375935 -0.1819599 0.9624065 0.1819599 0.9624065 0.1819599 0.0375935 -0.1819599
2515000000 0.0368250 -0.1799561 0.9631750 0.1799561 0.9631750 0.1799561 0.0368250 -0.1799561
2536000000 0.0360753 -0.1779755 0.9639247 0.1779755 0.9639247 0.1779755 0.0360753 -0.1779755
2557000000 0.0353440 -0.1760175 0.9646560 0.1760175 0.9646560 0.1760175 0.0353440 -0.1760175
2578000000 0.0346305 -0.1740817 0.9653695 0.1740817 0.9653695 0.1740817 0.0346305 -0.1740817
2599000000 0.0339343 -0.1721677 0.9660657 0.1721677 0.9660657 0.1721677 0.0339343 -0.1721677
2620000000 0.0332548 -0.1702751 0.9667452 0.1702751 0.9667452 0.1702751 0.0332548 -0.1702751
2641000000 0.0325916 -0.1684034 0.9674084 0.1684034 0.9674084 0.1684034 0.0325916 -0.1684034
2662000000 0.0319443 -0.1665522 0.9680557 0.1665522 0.9680557 0.1665522 0.0319443 -0.1665522
2683000000 0.0313124 -0.1647212 0.9686876 0.1647212 0.9686876 0.1647212 0.0313124 -0.1647212
2704000000 0.0306954 -0.1629099 0.9693046 0.1629099 0.9693046 0.1629099 0.0306954 -0.1629099
2725000000 0.0300930 -0.1611180 0.9699070 0.1611180 0.9699070 0.1611180 0.0300930 -0.1611180
2746000000 0.0295047 -0.1593450 0.9704953 0.1593450 0.9704953 0.1593450 0.0295047 -0.1593450
2767000000 0.0289301 -0.1575908 0.9710699 0.1575908 0.9710699 0.1575908 0.0289301 -0.1575908
2788000000 0.0283690 -0.1558548 0.9716310 0.1558548 0.9716310 0.1558548 0.0283690 -0.1558548
2809000000 0.0278209 -0.1541367 0.9721791 0.1541367 0.9721791 0.1541367 0.0278209 -0.1541367
2830000000 0.0272854 -0.1524362 0.9727146 0.1524362 0.9727146 0.1524362 0.0272854 -0.1524362
2851000000 0.0267623 -0.1507530 0.9732377 0.1507530 0.9732377 0.1507530 0.0267623 -0.1507530
2872000000 0.0262512 -0.1490868 0.9737488 0.1490868 0.9737488 0.1490868 0.0262512 -0.1490868
2893000000 0.0257518 -0.1474372 0.9742482 0.1474372 0.9742482 0.1474372 0.0257518 -0.1474372
2914000000 0.0252638 -0.1458038 0.9747362 0.1458038 0.9747362 0.1458038 0.0252638 -0.1458038
2935000000 0.0247869 -0.1441865 0.9752131 0.1441865 0.9752131 0.1441865 0.0247869 -0.1441865
2956000000 0.0243208 -0.1425850 0.9756792 0.1425850 0.9756792 0.1425850 0.0243208 -0.1425850
2977000000 0.0238653 -0.1409988 0.9761347 0.1409988 0.9761347 0.1409988 0.0238653 -0.1409988
2998000000 0.0234200 -0.1394278 0.9765800 0.1394278 0.9765800 0.1394278 0.0234200 -0.1394278
3019000000 0.0229848 -0.1378717 0.9770152 0.1378717 0.9770152 0.1378717 0.0229848 -0.1378717
3040000000 0.0225593 -0.1363301 0.9774407 0.1363301 0.9774407 0.1363301 0.0225593 -0.1363301
3061000000 0.0221434 -0.1348029 0.9778566 0.1348029 0.9778566 0.1348029 0.0221434 -0.1348029
3082000000 0.0217368 -0.1332898 0.9782632 0.1332898 0.9782632 0.1332898 0.0217368 -0.1332898
3103000000 0.0213393 -0.1317905 0.9786607 0.1317905 0.9786607 0.1317905 0.0213393 -0.1317905
3124000000 0.0209506 -0.1303047 0.9790494 0.1303047 0.9790494 0.1303047 0.0209506 -0.1303047
3145000000 0.0205706 -0.1288323 0.9794294 0.1288323 0.9794294 0.1288323 0.0205706 -0.1288323
3166000000 0.0201990 -0.1273730 0.9798010 0.1273730 0.9798010 0.1273730 0.0201990 -0.1273730
3187000000 0.0198356 -0.1259265 0.9801644 0.1259265 0.9801644 0.1259265 0.0198356 -0.1259265
3208000000 0.0194803 -0.1244926 0.9805197 0.1244926 0.9805197 0.1244926 0.0194803 -0.1244926
3229000000 0.0191329 -0.1230711 0.9808671 0.1230711 0.9808671 0.1230711 0.0191329 -0.1230711
3250000000 0.0187931 -0.1216618 0.9812069 0.1216618 0.9812069 0.1216618 0.0187931 -0.1216618
3271000000 0.0184609 -0.1202645 0.9815391 0.1202645 0.9815391 0.1202645 0.0184609 -0.1202645
3292000000 0.0181360 -0.1188790 0.9818640 0.1188790 0.9818640 0.1188790 0.0181360 -0.1188790
3313000000 0.0178183 -0.1175050 0.9821817 0.1175050 0.9821817 0.1175050 0.0178183 -0.1175050
3334000000 0.0175076 -0.1161423 0.9824924 0.1161423 0.9824924 0.1161423 0.0175076 -0.1161423
3355000000 0.0172037 -0.1147908 0.9827963 0.1147908 0.9827963 0.1147908 0.0172037 -0.1147908
3376000000 0.0169066 -0.1134502 0.9830934 0.1134502 0.9830934 0.1134502 0.0169066 -0.1134502
3397000000 0.0166160 -0.1121205 0.9833840 0.1121205 0.9833840 0.1121205 0.0166160 -0.1121205
3418000000 0.0163319 -0.1108013 0.9836681 0.1108013 0.9836681 0.1108013 0.0163319 -0.1108013
3439000000 0.0160540 -0.1094925 0.9839460 0.1094925 0.9839460 0.1094925 0.0160540 -0.1094925
3460000000 0.0157823 -0.1081939 0.9842177 0.1081939 0.9842177 0.1081939 0.0157823 -0.1081939
3481000000 0.0155166 -0.1069054 0.9844834 0.1069054 0.9844834 0.1069054 0.0155166 -0.1069054
3502000000 0.0152568 -0.1056267 0.9847432 0.1056267 0.9847432 0.1056267 0.0152568 -0.1056267
3523000000 0.0150028 -0.1043578 0.9849972 0.1043578 0.9849972 0.1043578 0.0150028 -0.1043578
3544000000 0.0147544 -0.1030984 0.9852456 0.1030984 0.9852456 0.1030984 0.0147544 -0.1030984
3565000000 0.0145116 -0.1018484 0.9854884 0.1018484 0.9854884 0.1018484 0.0145116 -0.1018484
3586000000 0.0142742 -0.1006076 0.9857258 0.1006076 0.9857258 0.1006076 0.0142742 -0.1006076
3607000000 0.0140422 -0.0993759 0.9859578 0.0993759 0.9859578 0.0993759 0.0140422 -0.0993759
3628000000 0.0138153 -0.0981531 0.9861847 0.0981531 0.9861847 0.0981531 0.0138153 -0.0981531
3649000000 0.0135936 -0.0969391 0.9864064 0.0969391 0.9864064 0.0969391 0.0135936 -0.0969391
3670000000 0.0133769 -0.0957336 0.9866231 0.0957336 0.9866231 0.0957336 0.0133769 -0.0957336
3691000000 0.0131651 -0.0945367 0.9868349 0.0945367 0.9868349 0.0945367 0.0131651 -0.0945367
3712000000 0.0129581 -0.0933481 0.9870419 0.0933481 0.9870419 0.0933481 0.0129581 -0.0933481
3733000000 0.0127558 -0.0921677 0.9872442 0.0921677 0.9872442 0.0921677 0.0127558 -0.0921677
3754000000 0.0125582 -0.0909954 0.9874418 0.0909954 0.9874418 0.0909954 0.0125582 -0.0909954
3775000000 0.0123652 -0.0898309 0.9876348 0.0898309 0.9876348 0.0898309 0.0123652 -0.0898309
3796000000 0.0121766 -0.0886743 0.9878234 0.0886743 0.9878234 0.0886743 0.0121766 -0.0886743
3817000000 0.0119924 -0.0875254 0.9880076 0.0875254 0.9880076 0.0875254 0.0119924 -0.0875254
3838000000 0.0118125 -0.0863840 0.9881875 0.0863840 0.9881875 0.0863840 0.0118125 -0.0863840
3859000000 0.0116368 -0.0852500 0.9883632 0.0852500 0.9883632 0.0852500 0.0116368 -0.0852500
3880000000 0.0114653 -0.0841233 0.9885347 0.0841233 0.9885347 0.0841233 0.0114653 -0.0841233
3901000000 0.0112979 -0.0830038 0.9887021 0.0830038 0.9887021 0.0830038 0.0112979 -0.0830038
3922000000 0.0111345 -0.0818913 0.9888655 0.0818913 0.9888655 0.0818913 0.0111345 -0.0818913
3943000000 0.0109750 -0.0807858 0.9890250 0.0807858 0.9890250 0.0807858 0.0109750 -0.0807858
3964000000 0.0108195 -0.0796872 0.9891805 0.0796872 0.9891805 0.0796872 0.0108195 -0.0796872
3985000000 0.0106677 -0.0785952 0.9893323 0.0785952 0.9893323 0.0785952 0.0106677 -0.0785952
4006000000 0.0105196 -0.0775098 0.9894804 0.0775098 0.9894804 0.0775098 0.0105196 -0.0775098
4027000000 0.0103753 -0.0764310 0.9896247 0.0764310 0.9896247 0.0764310 0.0103753 -0.0764310
4048000000 0.0102345 -0.0753586 0.9897655 0.0753586 0.9897655 0.0753586 0.0102345 -0.0753586
4069000000 0.0100974 -0.0742924 0.9899026 0.0742924 0.9899026 0.0742924 0.0100974 -0.0742924
4090000000 0.0099637 -0.0732324 0.9900363 0.0732324 0.9900363 0.0732324 0.0099637 -0.0732324
4111000000 0.0098335 -0.0721786 0.9901665 0.0721786 0.9901665 0.0721786 0.0098335 -0.0721786
4132000000 0.0097066 -0.0711307 0.9902934 0.0711307 0.9902934 0.0711307 0.0097066 -0.0711307
4153000000 0.0095832 -0.0700887 0.9904168 0.0700887 0.9904168 0.0700887 0.0095832 -0.0700887
4174000000 0.0094630 -0.0690525 0.9905370 0.0690525 0.9905370 0.0690525 0.0094630 -0.0690525
4195000000 0.0093460 -0.0680220 0.9906540 0.0680220 0.9906540 0.0680220 0.0093460 -0.0680220
4216000000 0.0092322 -0.0669972 0.9907678 0.0669972 0.9907678 0.0669972 0.0092322 -0.0669972
4237000000 0.0091216 -0.0659778 0.9908784 0.0659778 0.9908784 0.0659778 0.0091216 -0.0659778
4258000000 0.0090141 -0.0649639 0.9909859 0.0649639 0.9909859 0.0649639 0.0090141 -0.0649639
4279000000 0.0089096 -0.0639554 0.9910904 0.0639554 0.9910904 0.0639554 0.0089096 -0.0639554
4300000000 0.0088081 -0.0629520 0.9911919 0.0629520 0.9911919 0.0629520 0.0088081 -0.0629520
4321000000 0.0087096 -0.0619539 0.9912904 0.0619539 0.9912904 0.0619539 0.0087096 -0.0619539
4342000000 0.0086140 -0.0609609 0.9913860 0.0609609 0.9913860 0.0609609 0.0086140 -0.0609609
4363000000 0.0085212 -0.0599728 0.9914788 0.0599728 0.9914788 0.0599728 0.0085212 -0.0599728
4384000000 0.0084314 -0.0589897 0.9915686 0.0589897 0.9915686 0.0589897 0.0084314 -0.0589897
4405000000 0.0083443 -0.0580114 0.9916557 0.0580114 0.9916557 0.0580114 0.0083443 -0.0580114
4426000000 0.0082600 -0.0570379 0.9917400 0.0570379 0.9917400 0.0570379 0.0082600 -0.0570379
4447000000 0.0081784 -0.0560691 0.9918216 0.0560691 0.9918216 0.0560691 0.0081784 -0.0560691
4468000000 0.0080995 -0.0551049 0.9919005 0.0551049 0.9919005 0.0551049 0.0080995 -0.0551049
4489000000 0.0080232 -0.0541452 0.9919768 0.0541452 0.9919768 0.0541452 0.0080232 -0.0541452
4510000000 0.0079496 -0.0531900 0.9920504 0.0531900 0.9920504 0.0531900 0.0079496 -0.0531900
