!Murata Part Number: GRM0335C2A5R2WA01
!These Parameters are Measured in Series Mode Connection
!Data Generated on Mar 30, 2021
!       o--ll--o
!Port1            Port2
!       o------o
!Operation Temp=25[degC], DC Bias Voltage=0[V]
!Freq. Start=100[MHz] Stop=9[GHz] 401[Steps]
# Hz S RI R 50
!Freq.(Hz) S11(Real) S11(Imag) S21(Real) S21(Imag) S12(Real) S12(Imag) S22(Real) S22(Imag)
100000000 0.9032967 -0.2952101 0.0967033 0.2952101 0.0967033 0.2952101 0.9032967 -0.2952101
121000000 0.8644562 -0.3418879 0.1355438 0.3418879 0.1355438 0.3418879 0.8644562 -0.3418879
142000000 0.8223438 -0.3817350 0.1776562 0.3817350 0.1776562 0.3817350 0.8223438 -0.3817350
163000000 0.7783316 -0.4148085 0.2216684 0.4148085 0.2216684 0.4148085 0.7783316 -0.4148085
184000000 0.7336145 -0.4414347 0.2663855 0.4414347 0.2663855 0.4414347 0.7336145 -0.4414347
205000000 0.6891746 -0.4621251 0.3108254 0.4621251 0.3108254 0.4621251 0.6891746 -0.4621251
226000000 0.6457749 -0.4774982 0.3542251 0.4774982 0.3542251 0.4774982 0.6457749 -0.4774982
247000000 0.6039735 -0.4882170 0.3960265 0.4882170 0.3960265 0.4882170 0.6039735 -0.4882170
268000000 0.5641500 -0.4949410 0.4358500 0.4949410 0.4358500 0.4949410 0.5641500 -0.4949410
289000000 0.5265362 -0.4982946 0.4734638 0.4982946 0.4734638 0.4982946 0.5265362 -0.4982946
310000000 0.4912480 -0.4988484 0.5087520 0.4988484 0.5087520 0.4988484 0.4912480 -0.4988484
331000000 0.4583130 -0.4971095 0.5416870 0.4971095 0.5416870 0.4971095 0.4583130 -0.4971095
352000000 0.4276951 -0.4935198 0.5723049 0.4935198 0.5723049 0.4935198 0.4276951 -0.4935198
373000000 0.3993143 -0.4884575 0.6006857 0.4884575 0.6006857 0.4884575 0.3993143 -0.4884575
394000000 0.3730622 -0.4822427 0.6269378 0.4822427 0.6269378 0.4822427 0.3730622 -0.4822427
415000000 0.3488134 -0.4751429 0.6511866 0.4751429 0.6511866 0.4751429 0.3488134 -0.4751429
436000000 0.3264347 -0.4673798 0.6735653 0.4673798 0.6735653 0.4673798 0.3264347 -0.4673798
457000000 0.3057907 -0.4591358 0.6942093 0.4591358 0.6942093 0.4591358 0.3057907 -0.4591358
478000000 0.2867483 -0.4505596 0.7132517 0.4505596 0.7132517 0.4505596 0.2867483 -0.4505596
499000000 0.2691795 -0.4417719 0.7308205 0.4417719 0.7308205 0.4417719 0.2691795 -0.4417719
520000000 0.2529631 -0.4328697 0.7470369 0.4328697 0.7470369 0.4328697 0.2529631 -0.4328697
541000000 0.2379858 -0.4239308 0.7620142 0.4239308 0.7620142 0.4239308 0.2379858 -0.4239308
562000000 0.2241423 -0.4150167 0.7758577 0.4150167 0.7758577 0.4150167 0.2241423 -0.4150167
583000000 0.2113355 -0.4061758 0.7886645 0.4061758 0.7886645 0.4061758 0.2113355 -0.4061758
604000000 0.1994765 -0.3974457 0.8005235 0.3974457 0.8005235 0.3974457 0.1994765 -0.3974457
625000000 0.1884838 -0.3888550 0.8115162 0.3888550 0.8115162 0.3888550 0.1884838 -0.3888550
646000000 0.1782833 -0.3804255 0.8217167 0.3804255 0.8217167 0.3804255 0.1782833 -0.3804255
667000000 0.1688076 -0.3721730 0.8311924 0.3721730 0.8311924 0.3721730 0.1688076 -0.3721730
688000000 0.1599951 -0.3641086 0.8400049 0.3641086 0.8400049 0.3641086 0.1599951 -0.3641086
709000000 0.1517902 -0.3562397 0.8482098 0.3562397 0.8482098 0.3562397 0.1517902 -0.3562397
730000000 0.1441424 -0.3485707 0.8558576 0.3485707 0.8558576 0.3485707 0.1441424 -0.3485707
751000000 0.1370057 -0.3411036 0.8629943 0.3411036 0.8629943 0.3411036 0.1370057 -0.3411036
772000000 0.1303385 -0.3338383 0.8696615 0.3338383 0.8696615 0.3338383 0.1303385 -0.3338383
793000000 0.1241030 -0.3267736 0.8758970 0.3267736 0.8758970 0.3267736 0.1241030 -0.3267736
814000000 0.1182647 -0.3199068 0.8817353 0.3199068 0.8817353 0.3199068 0.1182647 -0.3199068
835000000 0.1127926 -0.3132344 0.8872074 0.3132344 0.8872074 0.3132344 0.1127926 -0.3132344
856000000 0.1076581 -0.3067523 0.8923419 0.3067523 0.8923419 0.3067523 0.1076581 -0.3067523
877000000 0.1028354 -0.3004559 0.8971646 0.3004559 0.8971646 0.3004559 0.1028354 -0.3004559
898000000 0.0983010 -0.2943402 0.9016990 0.2943402 0.9016990 0.2943402 0.0983010 -0.2943402
919000000 0.0940334 -0.2883999 0.9059666 0.2883999 0.9059666 0.2883999 0.0940334 -0.2883999
940000000 0.0900130 -0.2826298 0.9099870 0.2826298 0.9099870 0.2826298 0.0900130 -0.2826298
961000000 0.0862218 -0.2770242 0.9137782 0.2770242 0.9137782 0.2770242 0.0862218 -0.2770242
982000000 0.0826435 -0.2715779 0.9173565 0.2715779 0.9173565 0.2715779 0.0826435 -0.2715779
1003000000 0.0792630 -0.2662853 0.9207370 0.2662853 0.9207370 0.2662853 0.0792630 -0.2662853
1024000000 0.0760666 -0.2611411 0.9239334 0.2611411 0.9239334 0.2611411 0.0760666 -0.2611411
1045000000 0.0730418 -0.2561401 0.9269582 0.2561401 0.9269582 0.2561401 0.0730418 -0.2561401
1066000000 0.0701768 -0.2512771 0.9298232 0.2512771 0.9298232 0.2512771 0.0701768 -0.2512771
1087000000 0.0674610 -0.2465471 0.9325390 0.2465471 0.9325390 0.2465471 0.0674610 -0.2465471
1108000000 0.0648846 -0.2419453 0.9351154 0.2419453 0.9351154 0.2419453 0.0648846 -0.2419453
1129000000 0.0624386 -0.2374669 0.9375614 0.2374669 0.9375614 0.2374669 0.0624386 -0.2374669
1150000000 0.0601147 -0.2331074 0.9398853 0.2331074 0.9398853 0.2331074 0.0601147 -0.2331074
1171000000 0.0579051 -0.2288625 0.9420949 0.2288625 0.9420949 0.2288625 0.0579051 -0.2288625
1192000000 0.0558027 -0.2247277 0.9441973 0.2247277 0.9441973 0.2247277 0.0558027 -0.2247277
1213000000 0.0538010 -0.2206992 0.9461990 0.2206992 0.9461990 0.2206992 0.0538010 -0.2206992
1234000000 0.0518938 -0.2167730 0.9481062 0.2167730 0.9481062 0.2167730 0.0518938 -0.2167730
1255000000 0.0500755 -0.2129453 0.9499245 0.2129453 0.9499245 0.2129453 0.0500755 -0.2129453
1276000000 0.0483409 -0.2092124 0.9516591 0.2092124 0.9516591 0.2092124 0.0483409 -0.2092124
1297000000 0.0466851 -0.2055710 0.9533149 0.2055710 0.9533149 0.2055710 0.0466851 -0.2055710
1318000000 0.0451035 -0.2020177 0.9548965 0.2020177 0.9548965 0.2020177 0.0451035 -0.2020177
1339000000 0.0435921 -0.1985492 0.9564079 0.1985492 0.9564079 0.1985492 0.0435921 -0.1985492
1360000000 0.0421467 -0.1951626 0.9578533 0.1951626 0.9578533 0.1951626 0.0421467 -0.1951626
1381000000 0.0407638 -0.1918549 0.9592362 0.1918549 0.9592362 0.1918549 0.0407638 -0.1918549
1402000000 0.0394400 -0.1886233 0.9605600 0.1886233 0.9605600 0.1886233 0.0394400 -0.1886233
1423000000 0.0381721 -0.1854650 0.9618279 0.1854650 0.9618279 0.1854650 0.0381721 -0.1854650
1444000000 0.0369572 -0.1823776 0.9630428 0.1823776 0.9630428 0.1823776 0.0369572 -0.1823776
1465000000 0.0357923 -0.1793585 0.9642077 0.1793585 0.9642077 0.1793585 0.0357923 -0.1793585
1486000000 0.0346751 -0.1764053 0.9653249 0.1764053 0.9653249 0.1764053 0.0346751 -0.1764053
1507000000 0.0336029 -0.1735158 0.9663971 0.1735158 0.9663971 0.1735158 0.0336029 -0.1735158
1528000000 0.0325736 -0.1706878 0.9674264 0.1706878 0.9674264 0.1706878 0.0325736 -0.1706878
1549000000 0.0315849 -0.1679192 0.9684151 0.1679192 0.9684151 0.1679192 0.0315849 -0.1679192
1570000000 0.0306350 -0.1652080 0.9693650 0.1652080 0.9693650 0.1652080 0.0306350 -0.1652080
1591000000 0.0297218 -0.1625523 0.9702782 0.1625523 0.9702782 0.1625523 0.0297218 -0.1625523
1612000000 0.0288436 -0.1599502 0.9711564 0.1599502 0.9711564 0.1599502 0.0288436 -0.1599502
1633000000 0.0279988 -0.1574000 0.9720012 0.1574000 0.9720012 0.1574000 0.0279988 -0.1574000
1654000000 0.0271858 -0.1548999 0.9728142 0.1548999 0.9728142 0.1548999 0.0271858 -0.1548999
1675000000 0.0264031 -0.1524483 0.9735969 0.1524483 0.9735969 0.1524483 0.0264031 -0.1524483
1696000000 0.0256493 -0.1500438 0.9743507 0.1500438 0.9743507 0.1500438 0.0256493 -0.1500438
1717000000 0.0249230 -0.1476846 0.9750770 0.1476846 0.9750770 0.1476846 0.0249230 -0.1476846
1738000000 0.0242231 -0.1453695 0.9757769 0.1453695 0.9757769 0.1453695 0.0242231 -0.1453695
1759000000 0.0235484 -0.1430971 0.9764516 0.1430971 0.9764516 0.1430971 0.0235484 -0.1430971
1780000000 0.0228978 -0.1408659 0.9771022 0.1408659 0.9771022 0.1408659 0.0228978 -0.1408659
1801000000 0.0222702 -0.1386748 0.9777298 0.1386748 0.9777298 0.1386748 0.0222702 -0.1386748
1822000000 0.0216646 -0.1365224 0.9783354 0.1365224 0.9783354 0.1365224 0.0216646 -0.1365224
1843000000 0.0210801 -0.1344076 0.9789199 0.1344076 0.9789199 0.1344076 0.0210801 -0.1344076
1864000000 0.0205158 -0.1323293 0.9794842 0.1323293 0.9794842 0.1323293 0.0205158 -0.1323293
1885000000 0.0199709 -0.1302864 0.9800291 0.1302864 0.9800291 0.1302864 0.0199709 -0.1302864
1906000000 0.0194446 -0.1282778 0.9805554 0.1282778 0.9805554 0.1282778 0.0194446 -0.1282778
1927000000 0.0189361 -0.1263024 0.9810639 0.1263024 0.9810639 0.1263024 0.0189361 -0.1263024
1948000000 0.0184447 -0.1243594 0.9815553 0.1243594 0.9815553 0.1243594 0.0184447 -0.1243594
1969000000 0.0179697 -0.1224478 0.9820303 0.1224478 0.9820303 0.1224478 0.0179697 -0.1224478
1990000000 0.0175105 -0.1205666 0.9824895 0.1205666 0.9824895 0.1205666 0.0175105 -0.1205666
2011000000 0.0170664 -0.1187150 0.9829336 0.1187150 0.9829336 0.1187150 0.0170664 -0.1187150
2032000000 0.0166369 -0.1168922 0.9833631 0.1168922 0.9833631 0.1168922 0.0166369 -0.1168922
2053000000 0.0162215 -0.1150972 0.9837785 0.1150972 0.9837785 0.1150972 0.0162215 -0.1150972
2074000000 0.0158195 -0.1133294 0.9841805 0.1133294 0.9841805 0.1133294 0.0158195 -0.1133294
2095000000 0.0154305 -0.1115880 0.9845695 0.1115880 0.9845695 0.1115880 0.0154305 -0.1115880
2116000000 0.0150540 -0.1098723 0.9849460 0.1098723 0.9849460 0.1098723 0.0150540 -0.1098723
2137000000 0.0146896 -0.1081815 0.9853104 0.1081815 0.9853104 0.1081815 0.0146896 -0.1081815
2158000000 0.0143367 -0.1065150 0.9856633 0.1065150 0.9856633 0.1065150 0.0143367 -0.1065150
2179000000 0.0139951 -0.1048721 0.9860049 0.1048721 0.9860049 0.1048721 0.0139951 -0.1048721
2200000000 0.0136642 -0.1032521 0.9863358 0.1032521 0.9863358 0.1032521 0.0136642 -0.1032521
2221000000 0.0133438 -0.1016545 0.9866562 0.1016545 0.9866562 0.1016545 0.0133438 -0.1016545
2242000000 0.0130335 -0.1000787 0.9869665 0.1000787 0.9869665 0.1000787 0.0130335 -0.1000787
2263000000 0.0127328 -0.0985240 0.9872672 0.0985240 0.9872672 0.0985240 0.0127328 -0.0985240
2284000000 0.0124415 -0.0969900 0.9875585 0.0969900 0.9875585 0.0969900 0.0124415 -0.0969900
2305000000 0.0121593 -0.0954761 0.9878407 0.0954761 0.9878407 0.0954761 0.0121593 -0.0954761
2326000000 0.0118859 -0.0939817 0.9881141 0.0939817 0.9881141 0.0939817 0.0118859 -0.0939817
2347000000 0.0116209 -0.0925064 0.9883791 0.0925064 0.9883791 0.0925064 0.0116209 -0.0925064
2368000000 0.0113642 -0.0910497 0.9886358 0.0910497 0.9886358 0.0910497 0.0113642 -0.0910497
2389000000 0.0111154 -0.0896111 0.9888846 0.0896111 0.9888846 0.0896111 0.0111154 -0.0896111
2410000000 0.0108742 -0.0881902 0.9891258 0.0881902 0.9891258 0.0881902 0.0108742 -0.0881902
2431000000 0.0106405 -0.0867865 0.9893595 0.0867865 0.9893595 0.0867865 0.0106405 -0.0867865
2452000000 0.0104140 -0.0853995 0.9895860 0.0853995 0.9895860 0.0853995 0.0104140 -0.0853995
2473000000 0.0101945 -0.0840289 0.9898055 0.0840289 0.9898055 0.0840289 0.0101945 -0.0840289
2494000000 0.0099817 -0.0826743 0.9900183 0.0826743 0.9900183 0.0826743 0.0099817 -0.0826743
2515000000 0.0097755 -0.0813352 0.9902245 0.0813352 0.9902245 0.0813352 0.0097755 -0.0813352
2536000000 0.0095757 -0.0800114 0.9904243 0.0800114 0.9904243 0.0800114 0.0095757 -0.0800114
2557000000 0.0093821 -0.0787023 0.9906179 0.0787023 0.9906179 0.0787023 0.0093821 -0.0787023
2578000000 0.0091944 -0.0774077 0.9908056 0.0774077 0.9908056 0.0774077 0.0091944 -0.0774077
2599000000 0.0090126 -0.0761272 0.9909874 0.0761272 0.9909874 0.0761272 0.0090126 -0.0761272
2620000000 0.0088364 -0.0748606 0.9911636 0.0748606 0.9911636 0.0748606 0.0088364 -0.0748606
2641000000 0.0086657 -0.0736073 0.9913343 0.0736073 0.9913343 0.0736073 0.0086657 -0.0736073
2662000000 0.0085003 -0.0723672 0.9914997 0.0723672 0.9914997 0.0723672 0.0085003 -0.0723672
2683000000 0.0083402 -0.0711399 0.9916598 0.0711399 0.9916598 0.0711399 0.0083402 -0.0711399
2704000000 0.0081850 -0.0699252 0.9918150 0.0699252 0.9918150 0.0699252 0.0081850 -0.0699252
2725000000 0.0080348 -0.0687227 0.9919652 0.0687227 0.9919652 0.0687227 0.0080348 -0.0687227
2746000000 0.0078894 -0.0675321 0.9921106 0.0675321 0.9921106 0.0675321 0.0078894 -0.0675321
2767000000 0.0077486 -0.0663533 0.9922514 0.0663533 0.9922514 0.0663533 0.0077486 -0.0663533
2788000000 0.0076123 -0.0651858 0.9923877 0.0651858 0.9923877 0.0651858 0.0076123 -0.0651858
2809000000 0.0074805 -0.0640295 0.9925195 0.0640295 0.9925195 0.0640295 0.0074805 -0.0640295
2830000000 0.0073529 -0.0628840 0.9926471 0.0628840 0.9926471 0.0628840 0.0073529 -0.0628840
2851000000 0.0072295 -0.0617493 0.9927705 0.0617493 0.9927705 0.0617493 0.0072295 -0.0617493
2872000000 0.0071102 -0.0606249 0.9928898 0.0606249 0.9928898 0.0606249 0.0071102 -0.0606249
2893000000 0.0069948 -0.0595107 0.9930052 0.0595107 0.9930052 0.0595107 0.0069948 -0.0595107
2914000000 0.0068834 -0.0584065 0.9931166 0.0584065 0.9931166 0.0584065 0.0068834 -0.0584065
2935000000 0.0067757 -0.0573120 0.9932243 0.0573120 0.9932243 0.0573120 0.0067757 -0.0573120
2956000000 0.0066717 -0.0562270 0.9933283 0.0562270 0.9933283 0.0562270 0.0066717 -0.0562270
2977000000 0.0065713 -0.0551513 0.9934287 0.0551513 0.9934287 0.0551513 0.0065713 -0.0551513
2998000000 0.0064744 -0.0540847 0.9935256 0.0540847 0.9935256 0.0540847 0.0064744 -0.0540847
3019000000 0.0063810 -0.0530270 0.9936190 0.0530270 0.9936190 0.0530270 0.0063810 -0.0530270
3040000000 0.0062909 -0.0519780 0.9937091 0.0519780 0.9937091 0.0519780 0.0062909 -0.0519780
3061000000 0.0062041 -0.0509375 0.9937959 0.0509375 0.9937959 0.0509375 0.0062041 -0.0509375
3082000000 0.0061205 -0.0499053 0.9938795 0.0499053 0.9938795 0.0499053 0.0061205 -0.0499053
3103000000 0.0060400 -0.0488813 0.9939600 0.0488813 0.9939600 0.0488813 0.0060400 -0.0488813
3124000000 0.0059626 -0.0478652 0.9940374 0.0478652 0.9940374 0.0478652 0.0059626 -0.0478652
3145000000 0.0058882 -0.0468570 0.9941118 0.0468570 0.9941118 0.0468570 0.0058882 -0.0468570
3166000000 0.0058167 -0.0458563 0.9941833 0.0458563 0.9941833 0.0458563 0.0058167 -0.0458563
3187000000 0.0057481 -0.0448632 0.9942519 0.0448632 0.9942519 0.0448632 0.0057481 -0.0448632
3208000000 0.0056824 -0.0438773 0.9943176 0.0438773 0.9943176 0.0438773 0.0056824 -0.0438773
3229000000 0.0056193 -0.0428986 0.9943807 0.0428986 0.9943807 0.0428986 0.0056193 -0.0428986
3250000000 0.0055590 -0.0419269 0.9944410 0.0419269 0.9944410 0.0419269 0.0055590 -0.0419269
3271000000 0.0055013 -0.0409620 0.9944987 0.0409620 0.9944987 0.0409620 0.0055013 -0.0409620
3292000000 0.0054462 -0.0400039 0.9945538 0.0400039 0.9945538 0.0400039 0.0054462 -0.0400039
3313000000 0.0053936 -0.0390523 0.9946064 0.0390523 0.9946064 0.0390523 0.0053936 -0.0390523
3334000000 0.0053436 -0.0381071 0.9946564 0.0381071 0.9946564 0.0381071 0.0053436 -0.0381071
3355000000 0.0052959 -0.0371682 0.9947041 0.0371682 0.9947041 0.0371682 0.0052959 -0.0371682
3376000000 0.0052507 -0.0362355 0.9947493 0.0362355 0.9947493 0.0362355 0.0052507 -0.0362355
3397000000 0.0052078 -0.0353087 0.9947922 0.0353087 0.9947922 0.0353087 0.0052078 -0.0353087
3418000000 0.0051673 -0.0343879 0.9948327 0.0343879 0.9948327 0.0343879 0.0051673 -0.0343879
3439000000 0.0051290 -0.0334729 0.9948710 0.0334729 0.9948710 0.0334729 0.0051290 -0.0334729
3460000000 0.0050929 -0.0325635 0.9949071 0.0325635 0.9949071 0.0325635 0.0050929 -0.0325635
3481000000 0.0050590 -0.0316596 0.9949410 0.0316596 0.9949410 0.0316596 0.0050590 -0.0316596
3502000000 0.0050273 -0.0307611 0.9949727 0.0307611 0.9949727 0.0307611 0.0050273 -0.0307611
3523000000 0.0049976 -0.0298679 0.9950024 0.0298679 0.9950024 0.0298679 0.0049976 -0.0298679
3544000000 0.0049701 -0.0289799 0.9950299 0.0289799 0.9950299 0.0289799 0.0049701 -0.0289799
3565000000 0.0049446 -0.0280970 0.9950554 0.0280970 0.9950554 0.0280970 0.0049446 -0.0280970
3586000000 0.0049211 -0.0272191 0.9950789 0.0272191 0.9950789 0.0272191 0.0049211 -0.0272191
3607000000 0.0048996 -0.0263460 0.9951004 0.0263460 0.9951004 0.0263460 0.0048996 -0.0263460
3628000000 0.0048801 -0.0254777 0.9951199 0.0254777 0.9951199 0.0254777 0.0048801 -0.0254777
3649000000 0.0048624 -0.0246140 0.9951376 0.0246140 0.9951376 0.0246140 0.0048624 -0.0246140
3670000000 0.0048467 -0.0237549 0.9951533 0.0237549 0.9951533 0.0237549 0.0048467 -0.0237549
3691000000 0.0048328 -0.0229003 0.9951672 0.0229003 0.9951672 0.0229003 0.0048328 -0.0229003
3712000000 0.0048207 -0.0220500 0.9951793 0.0220500 0.9951793 0.0220500 0.0048207 -0.0220500
3733000000 0.0048105 -0.0212040 0.9951895 0.0212040 0.9951895 0.0212040 0.0048105 -0.0212040
3754000000 0.0048020 -0.0203622 0.9951980 0.0203622 0.9951980 0.0203622 0.0048020 -0.0203622
3775000000 0.0047953 -0.0195245 0.9952047 0.0195245 0.9952047 0.0195245 0.0047953 -0.0195245
3796000000 0.0047903 -0.0186907 0.9952097 0.0186907 0.9952097 0.0186907 0.0047903 -0.0186907
3817000000 0.0047871 -0.0178609 0.9952129 0.0178609 0.9952129 0.0178609 0.0047871 -0.0178609
3838000000 0.0047855 -0.0170350 0.9952145 0.0170350 0.9952145 0.0170350 0.0047855 -0.0170350
3859000000 0.0047856 -0.0162127 0.9952144 0.0162127 0.9952144 0.0162127 0.0047856 -0.0162127
3880000000 0.0047873 -0.0153942 0.9952127 0.0153942 0.9952127 0.0153942 0.0047873 -0.0153942
3901000000 0.0047907 -0.0145792 0.9952093 0.0145792 0.9952093 0.0145792 0.0047907 -0.0145792
3922000000 0.0047956 -0.0137677 0.9952044 0.0137677 0.9952044 0.0137677 0.0047956 -0.0137677
3943000000 0.0048021 -0.0129596 0.9951979 0.0129596 0.9951979 0.0129596 0.0048021 -0.0129596
3964000000 0.0048102 -0.0121549 0.9951898 0.0121549 0.9951898 0.0121549 0.0048102 -0.0121549
3985000000 0.0048199 -0.0113535 0.9951801 0.0113535 0.9951801 0.0113535 0.0048199 -0.0113535
4006000000 0.0048311 -0.0105553 0.9951689 0.0105553 0.9951689 0.0105553 0.0048311 -0.0105553
4027000000 0.0048438 -0.0097602 0.9951562 0.0097602 0.9951562 0.0097602 0.0048438 -0.0097602
4048000000 0.0048580 -0.0089681 0.9951420 0.0089681 0.9951420 0.0089681 0.0048580 -0.0089681
4069000000 0.0048736 -0.0081791 0.9951264 0.0081791 0.9951264 0.0081791 0.0048736 -0.0081791
4090000000 0.0048908 -0.0073929 0.9951092 0.0073929 0.9951092 0.0073929 0.0048908 -0.0073929
4111000000 0.0049094 -0.0066096 0.9950906 0.0066096 0.9950906 0.0066096 0.0049094 -0.0066096
4132000000 0.0049294 -0.0058291 0.9950706 0.0058291 0.9950706 0.0058291 0.0049294 -0.0058291
4153000000 0.0049508 -0.0050513 0.9950492 0.0050513 0.9950492 0.0050513 0.0049508 -0.0050513
4174000000 0.0049737 -0.0042761 0.9950263 0.0042761 0.9950263 0.0042761 0.0049737 -0.0042761
4195000000 0.0049980 -0.0035035 0.9950020 0.0035035 0.9950020 0.0035035 0.0049980 -0.0035035
4216000000 0.0050236 -0.0027335 0.9949764 0.0027335 0.9949764 0.0027335 0.0050236 -0.0027335
4237000000 0.0050506 -0.0019659 0.9949494 0.0019659 0.9949494 0.0019659 0.0050506 -0.0019659
4258000000 0.0050790 -0.0012007 0.9949210 0.0012007 0.9949210 0.0012007 0.0050790 -0.0012007
4279000000 0.0051087 -0.0004378 0.9948913 0.0004378 0.9948913 0.0004378 0.0051087 -0.0004378
4300000000 0.0051398 0.0003228 0.9948602 -0.0003228 0.9948602 -0.0003228 0.0051398 0.0003228
4321000000 0.0051722 0.0010812 0.9948278 -0.0010812 0.9948278 -0.0010812 0.0051722 0.0010812
4342000000 0.0052059 0.0018374 0.9947941 -0.0018374 0.9947941 -0.0018374 0.0052059 0.0018374
4363000000 0.0052410 0.0025916 0.9947590 -0.0025916 0.9947590 -0.0025916 0.0052410 0.0025916
4384000000 0.0052773 0.0033437 0.9947227 -0.0033437 0.9947227 -0.0033437 0.0052773 0.0033437
4405000000 0.0053149 0.0040938 0.9946851 -0.0040938 0.9946851 -0.0040938 0.0053149 0.0040938
4426000000 0.0053538 0.0048420 0.9946462 -0.0048420 0.9946462 -0.0048420 0.0053538 0.0048420
4447000000 0.0053940 0.0055883 0.9946060 -0.0055883 0.9946060 -0.0055883 0.0053940 0.0055883
4468000000 0.0054355 0.0063327 0.9945645 -0.0063327 0.9945645 -0.0063327 0.0054355 0.0063327
4489000000 0.0054782 0.0070755 0.9945218 -0.0070755 0.9945218 -0.0070755 0.0054782 0.0070755
4510000000 0.0055222 0.0078165 0.9944778 -0.0078165 0.9944778 -0.0078165 0.0055222 0.0078165
