!Murata Part Number: GRM0335C1H1R8BA01
!These Parameters are Measured in Series Mode Connection
!Data Generated on Mar 30, 2021
!       o--ll--o
!Port1            Port2
!       o------o
!Operation Temp=25[degC], DC Bias Voltage=0[V]
!Freq. Start=100[MHz] Stop=9[GHz] 401[Steps]
# Hz S RI R 50
!Freq.(Hz) S11(Real) S11(Imag) S21(Real) S21(Imag) S12(Real) S12(Imag) S22(Real) S22(Imag)
100000000 0.9873321 -0.1116781 0.0126679 0.1116781 0.0126679 0.1116781 0.9873321 -0.1116781
121000000 0.9815590 -0.1343479 0.0184410 0.1343479 0.0184410 0.1343479 0.9815590 -0.1343479
142000000 0.9747743 -0.1565850 0.0252257 0.1565850 0.0252257 0.1565850 0.9747743 -0.1565850
163000000 0.9670200 -0.1783259 0.0329800 0.1783259 0.0329800 0.1783259 0.9670200 -0.1783259
184000000 0.9583432 -0.1995117 0.0416568 0.1995117 0.0416568 0.1995117 0.9583432 -0.1995117
205000000 0.9487955 -0.2200892 0.0512045 0.2200892 0.0512045 0.2200892 0.9487955 -0.2200892
226000000 0.9384318 -0.2400108 0.0615682 0.2400108 0.0615682 0.2400108 0.9384318 -0.2400108
247000000 0.9273098 -0.2592348 0.0726902 0.2592348 0.0726902 0.2592348 0.9273098 -0.2592348
268000000 0.9154894 -0.2777257 0.0845106 0.2777257 0.0845106 0.2777257 0.9154894 -0.2777257
289000000 0.9030320 -0.2954542 0.0969680 0.2954542 0.0969680 0.2954542 0.9030320 -0.2954542
310000000 0.8899994 -0.3123965 0.1100006 0.3123965 0.1100006 0.3123965 0.8899994 -0.3123965
331000000 0.8764537 -0.3285353 0.1235463 0.3285353 0.1235463 0.3285353 0.8764537 -0.3285353
352000000 0.8624563 -0.3438584 0.1375437 0.3438584 0.1375437 0.3438584 0.8624563 -0.3438584
373000000 0.8480675 -0.3583592 0.1519325 0.3583592 0.1519325 0.3583592 0.8480675 -0.3583592
394000000 0.8333462 -0.3720360 0.1666538 0.3720360 0.1666538 0.3720360 0.8333462 -0.3720360
415000000 0.8183491 -0.3848917 0.1816509 0.3848917 0.1816509 0.3848917 0.8183491 -0.3848917
436000000 0.8031307 -0.3969333 0.1968693 0.3969333 0.1968693 0.3969333 0.8031307 -0.3969333
457000000 0.7877428 -0.4081719 0.2122572 0.4081719 0.2122572 0.4081719 0.7877428 -0.4081719
478000000 0.7722345 -0.4186216 0.2277655 0.4186216 0.2277655 0.4186216 0.7722345 -0.4186216
499000000 0.7566518 -0.4282997 0.2433482 0.4282997 0.2433482 0.4282997 0.7566518 -0.4282997
520000000 0.7410376 -0.4372259 0.2589624 0.4372259 0.2589624 0.4372259 0.7410376 -0.4372259
541000000 0.7254319 -0.4454221 0.2745681 0.4454221 0.2745681 0.4454221 0.7254319 -0.4454221
562000000 0.7098711 -0.4529120 0.2901289 0.4529120 0.2901289 0.4529120 0.7098711 -0.4529120
583000000 0.6943888 -0.4597205 0.3056112 0.4597205 0.3056112 0.4597205 0.6943888 -0.4597205
604000000 0.6790155 -0.4658738 0.3209845 0.4658738 0.3209845 0.4658738 0.6790155 -0.4658738
625000000 0.6637785 -0.4713987 0.3362215 0.4713987 0.3362215 0.4713987 0.6637785 -0.4713987
646000000 0.6487024 -0.4763226 0.3512976 0.4763226 0.3512976 0.4763226 0.6487024 -0.4763226
667000000 0.6338089 -0.4806730 0.3661911 0.4806730 0.3661911 0.4806730 0.6338089 -0.4806730
688000000 0.6191174 -0.4844777 0.3808826 0.4844777 0.3808826 0.4844777 0.6191174 -0.4844777
709000000 0.6046444 -0.4877641 0.3953556 0.4877641 0.3953556 0.4877641 0.6046444 -0.4877641
730000000 0.5904043 -0.4905593 0.4095957 0.4905593 0.4095957 0.4905593 0.5904043 -0.4905593
751000000 0.5764093 -0.4928901 0.4235907 0.4928901 0.4235907 0.4928901 0.5764093 -0.4928901
772000000 0.5626697 -0.4947825 0.4373303 0.4947825 0.4373303 0.4947825 0.5626697 -0.4947825
793000000 0.5491938 -0.4962620 0.4508062 0.4962620 0.4508062 0.4962620 0.5491938 -0.4962620
814000000 0.5359882 -0.4973532 0.4640118 0.4973532 0.4640118 0.4973532 0.5359882 -0.4973532
835000000 0.5230581 -0.4980799 0.4769419 0.4980799 0.4769419 0.4980799 0.5230581 -0.4980799
856000000 0.5104072 -0.4984652 0.4895928 0.4984652 0.4895928 0.4984652 0.5104072 -0.4984652
877000000 0.4980378 -0.4985310 0.5019622 0.4985310 0.5019622 0.4985310 0.4980378 -0.4985310
898000000 0.4859514 -0.4982985 0.5140486 0.4982985 0.5140486 0.4982985 0.4859514 -0.4982985
919000000 0.4741480 -0.4977880 0.5258520 0.4977880 0.5258520 0.4977880 0.4741480 -0.4977880
940000000 0.4626272 -0.4970186 0.5373728 0.4970186 0.5373728 0.4970186 0.4626272 -0.4970186
961000000 0.4513873 -0.4960087 0.5486127 0.4960087 0.5486127 0.4960087 0.4513873 -0.4960087
982000000 0.4404263 -0.4947758 0.5595737 0.4947758 0.5595737 0.4947758 0.4404263 -0.4947758
1003000000 0.4297413 -0.4933363 0.5702587 0.4933363 0.5702587 0.4933363 0.4297413 -0.4933363
1024000000 0.4193290 -0.4917058 0.5806710 0.4917058 0.5806710 0.4917058 0.4193290 -0.4917058
1045000000 0.4091855 -0.4898992 0.5908145 0.4898992 0.5908145 0.4898992 0.4091855 -0.4898992
1066000000 0.3993068 -0.4879303 0.6006932 0.4879303 0.6006932 0.4879303 0.3993068 -0.4879303
1087000000 0.3896882 -0.4858123 0.6103118 0.4858123 0.6103118 0.4858123 0.3896882 -0.4858123
1108000000 0.3803249 -0.4835575 0.6196751 0.4835575 0.6196751 0.4835575 0.3803249 -0.4835575
1129000000 0.3712119 -0.4811776 0.6287881 0.4811776 0.6287881 0.4811776 0.3712119 -0.4811776
1150000000 0.3623439 -0.4786835 0.6376561 0.4786835 0.6376561 0.4786835 0.3623439 -0.4786835
1171000000 0.3537157 -0.4760854 0.6462843 0.4760854 0.6462843 0.4760854 0.3537157 -0.4760854
1192000000 0.3453216 -0.4733929 0.6546784 0.4733929 0.6546784 0.4733929 0.3453216 -0.4733929
1213000000 0.3371563 -0.4706150 0.6628437 0.4706150 0.6628437 0.4706150 0.3371563 -0.4706150
1234000000 0.3292140 -0.4677601 0.6707860 0.4677601 0.6707860 0.4677601 0.3292140 -0.4677601
1255000000 0.3214893 -0.4648360 0.6785107 0.4648360 0.6785107 0.4648360 0.3214893 -0.4648360
1276000000 0.3139764 -0.4618501 0.6860236 0.4618501 0.6860236 0.4618501 0.3139764 -0.4618501
1297000000 0.3066699 -0.4588092 0.6933301 0.4588092 0.6933301 0.4588092 0.3066699 -0.4588092
1318000000 0.2995642 -0.4557197 0.7004358 0.4557197 0.7004358 0.4557197 0.2995642 -0.4557197
1339000000 0.2926539 -0.4525876 0.7073461 0.4525876 0.7073461 0.4525876 0.2926539 -0.4525876
1360000000 0.2859334 -0.4494183 0.7140666 0.4494183 0.7140666 0.4494183 0.2859334 -0.4494183
1381000000 0.2793976 -0.4462169 0.7206024 0.4462169 0.7206024 0.4462169 0.2793976 -0.4462169
1402000000 0.2730410 -0.4429884 0.7269590 0.4429884 0.7269590 0.4429884 0.2730410 -0.4429884
1423000000 0.2668587 -0.4397371 0.7331413 0.4397371 0.7331413 0.4397371 0.2668587 -0.4397371
1444000000 0.2608456 -0.4364670 0.7391544 0.4364670 0.7391544 0.4364670 0.2608456 -0.4364670
1465000000 0.2549967 -0.4331822 0.7450033 0.4331822 0.7450033 0.4331822 0.2549967 -0.4331822
1486000000 0.2493072 -0.4298860 0.7506928 0.4298860 0.7506928 0.4298860 0.2493072 -0.4298860
1507000000 0.2437723 -0.4265817 0.7562277 0.4265817 0.7562277 0.4265817 0.2437723 -0.4265817
1528000000 0.2383875 -0.4232724 0.7616125 0.4232724 0.7616125 0.4232724 0.2383875 -0.4232724
1549000000 0.2331483 -0.4199608 0.7668517 0.4199608 0.7668517 0.4199608 0.2331483 -0.4199608
1570000000 0.2280503 -0.4166495 0.7719497 0.4166495 0.7719497 0.4166495 0.2280503 -0.4166495
1591000000 0.2230893 -0.4133410 0.7769107 0.4133410 0.7769107 0.4133410 0.2230893 -0.4133410
1612000000 0.2182612 -0.4100373 0.7817388 0.4100373 0.7817388 0.4100373 0.2182612 -0.4100373
1633000000 0.2135618 -0.4067406 0.7864382 0.4067406 0.7864382 0.4067406 0.2135618 -0.4067406
1654000000 0.2089874 -0.4034525 0.7910126 0.4034525 0.7910126 0.4034525 0.2089874 -0.4034525
1675000000 0.2045341 -0.4001749 0.7954659 0.4001749 0.7954659 0.4001749 0.2045341 -0.4001749
1696000000 0.2001982 -0.3969092 0.7998018 0.3969092 0.7998018 0.3969092 0.2001982 -0.3969092
1717000000 0.1959762 -0.3936570 0.8040238 0.3936570 0.8040238 0.3936570 0.1959762 -0.3936570
1738000000 0.1918647 -0.3904194 0.8081353 0.3904194 0.8081353 0.3904194 0.1918647 -0.3904194
1759000000 0.1878602 -0.3871976 0.8121398 0.3871976 0.8121398 0.3871976 0.1878602 -0.3871976
1780000000 0.1839596 -0.3839928 0.8160404 0.3839928 0.8160404 0.3839928 0.1839596 -0.3839928
1801000000 0.1801597 -0.3808059 0.8198403 0.3808059 0.8198403 0.3808059 0.1801597 -0.3808059
1822000000 0.1764574 -0.3776377 0.8235426 0.3776377 0.8235426 0.3776377 0.1764574 -0.3776377
1843000000 0.1728498 -0.3744891 0.8271502 0.3744891 0.8271502 0.3744891 0.1728498 -0.3744891
1864000000 0.1693340 -0.3713607 0.8306660 0.3713607 0.8306660 0.3713607 0.1693340 -0.3713607
1885000000 0.1659073 -0.3682532 0.8340927 0.3682532 0.8340927 0.3682532 0.1659073 -0.3682532
1906000000 0.1625670 -0.3651671 0.8374330 0.3651671 0.8374330 0.3651671 0.1625670 -0.3651671
1927000000 0.1593105 -0.3621030 0.8406895 0.3621030 0.8406895 0.3621030 0.1593105 -0.3621030
1948000000 0.1561353 -0.3590613 0.8438647 0.3590613 0.8438647 0.3590613 0.1561353 -0.3590613
1969000000 0.1530390 -0.3560423 0.8469610 0.3560423 0.8469610 0.3560423 0.1530390 -0.3560423
1990000000 0.1500193 -0.3530464 0.8499807 0.3530464 0.8499807 0.3530464 0.1500193 -0.3530464
2011000000 0.1470738 -0.3500738 0.8529262 0.3500738 0.8529262 0.3500738 0.1470738 -0.3500738
2032000000 0.1442004 -0.3471249 0.8557996 0.3471249 0.8557996 0.3471249 0.1442004 -0.3471249
2053000000 0.1413970 -0.3441998 0.8586030 0.3441998 0.8586030 0.3441998 0.1413970 -0.3441998
2074000000 0.1386615 -0.3412986 0.8613385 0.3412986 0.8613385 0.3412986 0.1386615 -0.3412986
2095000000 0.1359920 -0.3384216 0.8640080 0.3384216 0.8640080 0.3384216 0.1359920 -0.3384216
2116000000 0.1333864 -0.3355687 0.8666136 0.3355687 0.8666136 0.3355687 0.1333864 -0.3355687
2137000000 0.1308430 -0.3327400 0.8691570 0.3327400 0.8691570 0.3327400 0.1308430 -0.3327400
2158000000 0.1283600 -0.3299356 0.8716400 0.3299356 0.8716400 0.3299356 0.1283600 -0.3299356
2179000000 0.1259356 -0.3271555 0.8740644 0.3271555 0.8740644 0.3271555 0.1259356 -0.3271555
2200000000 0.1235681 -0.3243996 0.8764319 0.3243996 0.8764319 0.3243996 0.1235681 -0.3243996
2221000000 0.1212560 -0.3216680 0.8787440 0.3216680 0.8787440 0.3216680 0.1212560 -0.3216680
2242000000 0.1189976 -0.3189605 0.8810024 0.3189605 0.8810024 0.3189605 0.1189976 -0.3189605
2263000000 0.1167915 -0.3162771 0.8832085 0.3162771 0.8832085 0.3162771 0.1167915 -0.3162771
2284000000 0.1146361 -0.3136177 0.8853639 0.3136177 0.8853639 0.3136177 0.1146361 -0.3136177
2305000000 0.1125300 -0.3109822 0.8874700 0.3109822 0.8874700 0.3109822 0.1125300 -0.3109822
2326000000 0.1104719 -0.3083705 0.8895281 0.3083705 0.8895281 0.3083705 0.1104719 -0.3083705
2347000000 0.1084604 -0.3057824 0.8915396 0.3057824 0.8915396 0.3057824 0.1084604 -0.3057824
2368000000 0.1064943 -0.3032178 0.8935057 0.3032178 0.8935057 0.3032178 0.1064943 -0.3032178
2389000000 0.1045722 -0.3006766 0.8954278 0.3006766 0.8954278 0.3006766 0.1045722 -0.3006766
2410000000 0.1026930 -0.2981585 0.8973070 0.2981585 0.8973070 0.2981585 0.1026930 -0.2981585
2431000000 0.1008556 -0.2956634 0.8991444 0.2956634 0.8991444 0.2956634 0.1008556 -0.2956634
2452000000 0.0990587 -0.2931911 0.9009413 0.2931911 0.9009413 0.2931911 0.0990587 -0.2931911
2473000000 0.0973013 -0.2907415 0.9026987 0.2907415 0.9026987 0.2907415 0.0973013 -0.2907415
2494000000 0.0955823 -0.2883143 0.9044177 0.2883143 0.9044177 0.2883143 0.0955823 -0.2883143
2515000000 0.0939007 -0.2859093 0.9060993 0.2859093 0.9060993 0.2859093 0.0939007 -0.2859093
2536000000 0.0922555 -0.2835264 0.9077445 0.2835264 0.9077445 0.2835264 0.0922555 -0.2835264
2557000000 0.0906457 -0.2811652 0.9093543 0.2811652 0.9093543 0.2811652 0.0906457 -0.2811652
2578000000 0.0890704 -0.2788257 0.9109296 0.2788257 0.9109296 0.2788257 0.0890704 -0.2788257
2599000000 0.0875287 -0.2765076 0.9124713 0.2765076 0.9124713 0.2765076 0.0875287 -0.2765076
2620000000 0.0860197 -0.2742106 0.9139803 0.2742106 0.9139803 0.2742106 0.0860197 -0.2742106
2641000000 0.0845425 -0.2719346 0.9154575 0.2719346 0.9154575 0.2719346 0.0845425 -0.2719346
2662000000 0.0830964 -0.2696793 0.9169036 0.2696793 0.9169036 0.2696793 0.0830964 -0.2696793
2683000000 0.0816805 -0.2674445 0.9183195 0.2674445 0.9183195 0.2674445 0.0816805 -0.2674445
2704000000 0.0802941 -0.2652300 0.9197059 0.2652300 0.9197059 0.2652300 0.0802941 -0.2652300
2725000000 0.0789364 -0.2630356 0.9210636 0.2630356 0.9210636 0.2630356 0.0789364 -0.2630356
2746000000 0.0776067 -0.2608609 0.9223933 0.2608609 0.9223933 0.2608609 0.0776067 -0.2608609
2767000000 0.0763042 -0.2587059 0.9236958 0.2587059 0.9236958 0.2587059 0.0763042 -0.2587059
2788000000 0.0750284 -0.2565702 0.9249716 0.2565702 0.9249716 0.2565702 0.0750284 -0.2565702
2809000000 0.0737784 -0.2544537 0.9262216 0.2544537 0.9262216 0.2544537 0.0737784 -0.2544537
2830000000 0.0725538 -0.2523561 0.9274462 0.2523561 0.9274462 0.2523561 0.0725538 -0.2523561
2851000000 0.0713538 -0.2502771 0.9286462 0.2502771 0.9286462 0.2502771 0.0713538 -0.2502771
2872000000 0.0701778 -0.2482166 0.9298222 0.2482166 0.9298222 0.2482166 0.0701778 -0.2482166
2893000000 0.0690253 -0.2461744 0.9309747 0.2461744 0.9309747 0.2461744 0.0690253 -0.2461744
2914000000 0.0678957 -0.2441501 0.9321043 0.2441501 0.9321043 0.2441501 0.0678957 -0.2441501
2935000000 0.0667884 -0.2421437 0.9332116 0.2421437 0.9332116 0.2421437 0.0667884 -0.2421437
2956000000 0.0657030 -0.2401548 0.9342970 0.2401548 0.9342970 0.2401548 0.0657030 -0.2401548
2977000000 0.0646387 -0.2381832 0.9353613 0.2381832 0.9353613 0.2381832 0.0646387 -0.2381832
2998000000 0.0635953 -0.2362288 0.9364047 0.2362288 0.9364047 0.2362288 0.0635953 -0.2362288
3019000000 0.0625721 -0.2342913 0.9374279 0.2342913 0.9374279 0.2342913 0.0625721 -0.2342913
3040000000 0.0615687 -0.2323705 0.9384313 0.2323705 0.9384313 0.2323705 0.0615687 -0.2323705
3061000000 0.0605847 -0.2304661 0.9394153 0.2304661 0.9394153 0.2304661 0.0605847 -0.2304661
3082000000 0.0596195 -0.2285781 0.9403805 0.2285781 0.9403805 0.2285781 0.0596195 -0.2285781
3103000000 0.0586727 -0.2267061 0.9413273 0.2267061 0.9413273 0.2267061 0.0586727 -0.2267061
3124000000 0.0577440 -0.2248499 0.9422560 0.2248499 0.9422560 0.2248499 0.0577440 -0.2248499
3145000000 0.0568328 -0.2230094 0.9431672 0.2230094 0.9431672 0.2230094 0.0568328 -0.2230094
3166000000 0.0559389 -0.2211843 0.9440611 0.2211843 0.9440611 0.2211843 0.0559389 -0.2211843
3187000000 0.0550617 -0.2193745 0.9449383 0.2193745 0.9449383 0.2193745 0.0550617 -0.2193745
3208000000 0.0542009 -0.2175797 0.9457991 0.2175797 0.9457991 0.2175797 0.0542009 -0.2175797
3229000000 0.0533562 -0.2157998 0.9466438 0.2157998 0.9466438 0.2157998 0.0533562 -0.2157998
3250000000 0.0525272 -0.2140345 0.9474728 0.2140345 0.9474728 0.2140345 0.0525272 -0.2140345
3271000000 0.0517135 -0.2122837 0.9482865 0.2122837 0.9482865 0.2122837 0.0517135 -0.2122837
3292000000 0.0509148 -0.2105471 0.9490852 0.2105471 0.9490852 0.2105471 0.0509148 -0.2105471
3313000000 0.0501307 -0.2088246 0.9498693 0.2088246 0.9498693 0.2088246 0.0501307 -0.2088246
3334000000 0.0493610 -0.2071160 0.9506390 0.2071160 0.9506390 0.2071160 0.0493610 -0.2071160
3355000000 0.0486053 -0.2054212 0.9513947 0.2054212 0.9513947 0.2054212 0.0486053 -0.2054212
3376000000 0.0478633 -0.2037398 0.9521367 0.2037398 0.9521367 0.2037398 0.0478633 -0.2037398
3397000000 0.0471348 -0.2020718 0.9528652 0.2020718 0.9528652 0.2020718 0.0471348 -0.2020718
3418000000 0.0464193 -0.2004169 0.9535807 0.2004169 0.9535807 0.2004169 0.0464193 -0.2004169
3439000000 0.0457168 -0.1987751 0.9542832 0.1987751 0.9542832 0.1987751 0.0457168 -0.1987751
3460000000 0.0450268 -0.1971460 0.9549732 0.1971460 0.9549732 0.1971460 0.0450268 -0.1971460
3481000000 0.0443491 -0.1955296 0.9556509 0.1955296 0.9556509 0.1955296 0.0443491 -0.1955296
3502000000 0.0436834 -0.1939257 0.9563166 0.1939257 0.9563166 0.1939257 0.0436834 -0.1939257
3523000000 0.0430296 -0.1923341 0.9569704 0.1923341 0.9569704 0.1923341 0.0430296 -0.1923341
3544000000 0.0423872 -0.1907547 0.9576128 0.1907547 0.9576128 0.1907547 0.0423872 -0.1907547
3565000000 0.0417562 -0.1891872 0.9582438 0.1891872 0.9582438 0.1891872 0.0417562 -0.1891872
3586000000 0.0411363 -0.1876316 0.9588637 0.1876316 0.9588637 0.1876316 0.0411363 -0.1876316
3607000000 0.0405272 -0.1860876 0.9594728 0.1860876 0.9594728 0.1860876 0.0405272 -0.1860876
3628000000 0.0399287 -0.1845552 0.9600713 0.1845552 0.9600713 0.1845552 0.0399287 -0.1845552
3649000000 0.0393406 -0.1830341 0.9606594 0.1830341 0.9606594 0.1830341 0.0393406 -0.1830341
3670000000 0.0387628 -0.1815242 0.9612372 0.1815242 0.9612372 0.1815242 0.0387628 -0.1815242
3691000000 0.0381949 -0.1800254 0.9618051 0.1800254 0.9618051 0.1800254 0.0381949 -0.1800254
3712000000 0.0376367 -0.1785374 0.9623633 0.1785374 0.9623633 0.1785374 0.0376367 -0.1785374
3733000000 0.0370882 -0.1770603 0.9629118 0.1770603 0.9629118 0.1770603 0.0370882 -0.1770603
3754000000 0.0365491 -0.1755937 0.9634509 0.1755937 0.9634509 0.1755937 0.0365491 -0.1755937
3775000000 0.0360192 -0.1741377 0.9639808 0.1741377 0.9639808 0.1741377 0.0360192 -0.1741377
3796000000 0.0354983 -0.1726919 0.9645017 0.1726919 0.9645017 0.1726919 0.0354983 -0.1726919
3817000000 0.0349863 -0.1712564 0.9650137 0.1712564 0.9650137 0.1712564 0.0349863 -0.1712564
3838000000 0.0344830 -0.1698309 0.9655170 0.1698309 0.9655170 0.1698309 0.0344830 -0.1698309
3859000000 0.0339881 -0.1684154 0.9660119 0.1684154 0.9660119 0.1684154 0.0339881 -0.1684154
3880000000 0.0335017 -0.1670096 0.9664983 0.1670096 0.9664983 0.1670096 0.0335017 -0.1670096
3901000000 0.0330234 -0.1656135 0.9669766 0.1656135 0.9669766 0.1656135 0.0330234 -0.1656135
3922000000 0.0325531 -0.1642269 0.9674469 0.1642269 0.9674469 0.1642269 0.0325531 -0.1642269
3943000000 0.0320908 -0.1628498 0.9679092 0.1628498 0.9679092 0.1628498 0.0320908 -0.1628498
3964000000 0.0316361 -0.1614819 0.9683639 0.1614819 0.9683639 0.1614819 0.0316361 -0.1614819
3985000000 0.0311891 -0.1601232 0.9688109 0.1601232 0.9688109 0.1601232 0.0311891 -0.1601232
4006000000 0.0307495 -0.1587735 0.9692505 0.1587735 0.9692505 0.1587735 0.0307495 -0.1587735
4027000000 0.0303172 -0.1574327 0.9696828 0.1574327 0.9696828 0.1574327 0.0303172 -0.1574327
4048000000 0.0298921 -0.1561007 0.9701079 0.1561007 0.9701079 0.1561007 0.0298921 -0.1561007
4069000000 0.0294740 -0.1547774 0.9705260 0.1547774 0.9705260 0.1547774 0.0294740 -0.1547774
4090000000 0.0290628 -0.1534627 0.9709372 0.1534627 0.9709372 0.1534627 0.0290628 -0.1534627
4111000000 0.0286585 -0.1521563 0.9713415 0.1521563 0.9713415 0.1521563 0.0286585 -0.1521563
4132000000 0.0282607 -0.1508584 0.9717393 0.1508584 0.9717393 0.1508584 0.0282607 -0.1508584
4153000000 0.0278696 -0.1495686 0.9721304 0.1495686 0.9721304 0.1495686 0.0278696 -0.1495686
4174000000 0.0274848 -0.1482869 0.9725152 0.1482869 0.9725152 0.1482869 0.0274848 -0.1482869
4195000000 0.0271064 -0.1470133 0.9728936 0.1470133 0.9728936 0.1470133 0.0271064 -0.1470133
4216000000 0.0267342 -0.1457475 0.9732658 0.1457475 0.9732658 0.1457475 0.0267342 -0.1457475
4237000000 0.0263680 -0.1444895 0.9736320 0.1444895 0.9736320 0.1444895 0.0263680 -0.1444895
4258000000 0.0260079 -0.1432392 0.9739921 0.1432392 0.9739921 0.1432392 0.0260079 -0.1432392
4279000000 0.0256536 -0.1419965 0.9743464 0.1419965 0.9743464 0.1419965 0.0256536 -0.1419965
4300000000 0.0253051 -0.1407613 0.9746949 0.1407613 0.9746949 0.1407613 0.0253051 -0.1407613
4321000000 0.0249623 -0.1395334 0.9750377 0.1395334 0.9750377 0.1395334 0.0249623 -0.1395334
4342000000 0.0246251 -0.1383128 0.9753749 0.1383128 0.9753749 0.1383128 0.0246251 -0.1383128
4363000000 0.0242934 -0.1370994 0.9757066 0.1370994 0.9757066 0.1370994 0.0242934 -0.1370994
4384000000 0.0239670 -0.1358931 0.9760330 0.1358931 0.9760330 0.1358931 0.0239670 -0.1358931
4405000000 0.0236460 -0.1346937 0.9763540 0.1346937 0.9763540 0.1346937 0.0236460 -0.1346937
4426000000 0.0233302 -0.1335013 0.9766698 0.1335013 0.9766698 0.1335013 0.0233302 -0.1335013
4447000000 0.0230195 -0.1323156 0.9769805 0.1323156 0.9769805 0.1323156 0.0230195 -0.1323156
4468000000 0.0227139 -0.1311367 0.9772861 0.1311367 0.9772861 0.1311367 0.0227139 -0.1311367
4489000000 0.0224132 -0.1299643 0.9775868 0.1299643 0.9775868 0.1299643 0.0224132 -0.1299643
4510000000 0.0221174 -0.1287985 0.9778826 0.1287985 0.9778826 0.1287985 0.0221174 -0.1287985
