!Murata Part Number: GRM0332C2A8R3WA01
!These Parameters are Measured in Series Mode Connection
!Data Generated on Mar 30, 2021
!       o--ll--o
!Port1            Port2
!       o------o
!Operation Temp=25[degC], DC Bias Voltage=0[V]
!Freq. Start=100[MHz] Stop=9[GHz] 401[Steps]
# Hz S RI R 50
!Freq.(Hz) S11(Real) S11(Imag) S21(Real) S21(Imag) S12(Real) S12(Imag) S22(Real) S22(Imag)
100000000 0.7856752 -0.4098814 0.2143248 0.4098814 0.2143248 0.4098814 0.7856752 -0.4098814
121000000 0.7144803 -0.4510903 0.2855197 0.4510903 0.2855197 0.4510903 0.7144803 -0.4510903
142000000 0.6448548 -0.4778861 0.3551452 0.4778861 0.3551452 0.4778861 0.6448548 -0.4778861
163000000 0.5792931 -0.4929012 0.4207069 0.4929012 0.4207069 0.4929012 0.5792931 -0.4929012
184000000 0.5191443 -0.4987613 0.4808557 0.4987613 0.4808557 0.4987613 0.5191443 -0.4987613
205000000 0.4649259 -0.4977951 0.5350741 0.4977951 0.5350741 0.4977951 0.4649259 -0.4977951
226000000 0.4166170 -0.4919235 0.5833830 0.4919235 0.5833830 0.4919235 0.4166170 -0.4919235
247000000 0.3738843 -0.4826565 0.6261157 0.4826565 0.6261157 0.4826565 0.3738843 -0.4826565
268000000 0.3362397 -0.4711423 0.6637603 0.4711423 0.6637603 0.4711423 0.3362397 -0.4711423
289000000 0.3031395 -0.4582317 0.6968605 0.4582317 0.6968605 0.4582317 0.3031395 -0.4582317
310000000 0.2740433 -0.4445435 0.7259567 0.4445435 0.7259567 0.4445435 0.2740433 -0.4445435
331000000 0.2484453 -0.4305189 0.7515547 0.4305189 0.7515547 0.4305189 0.2484453 -0.4305189
352000000 0.2258882 -0.4164676 0.7741118 0.4164676 0.7741118 0.4164676 0.2258882 -0.4164676
373000000 0.2059680 -0.4026022 0.7940320 0.4026022 0.7940320 0.4026022 0.2059680 -0.4026022
394000000 0.1883324 -0.3890647 0.8116676 0.3890647 0.8116676 0.3890647 0.1883324 -0.3890647
415000000 0.1726767 -0.3759461 0.8273233 0.3759461 0.8273233 0.3759461 0.1726767 -0.3759461
436000000 0.1587390 -0.3633014 0.8412610 0.3633014 0.8412610 0.3633014 0.1587390 -0.3633014
457000000 0.1462948 -0.3511595 0.8537052 0.3511595 0.8537052 0.3511595 0.1462948 -0.3511595
478000000 0.1351517 -0.3395315 0.8648483 0.3395315 0.8648483 0.3395315 0.1351517 -0.3395315
499000000 0.1251450 -0.3284159 0.8748550 0.3284159 0.8748550 0.3284159 0.1251450 -0.3284159
520000000 0.1161333 -0.3178027 0.8838667 0.3178027 0.8838667 0.3178027 0.1161333 -0.3178027
541000000 0.1079953 -0.3076766 0.8920047 0.3076766 0.8920047 0.3076766 0.1079953 -0.3076766
562000000 0.1006268 -0.2980187 0.8993732 0.2980187 0.8993732 0.2980187 0.1006268 -0.2980187
583000000 0.0939376 -0.2888079 0.9060624 0.2888079 0.9060624 0.2888079 0.0939376 -0.2888079
604000000 0.0878500 -0.2800223 0.9121500 0.2800223 0.9121500 0.2800223 0.0878500 -0.2800223
625000000 0.0822967 -0.2716399 0.9177033 0.2716399 0.9177033 0.2716399 0.0822967 -0.2716399
646000000 0.0772190 -0.2636386 0.9227810 0.2636386 0.9227810 0.2636386 0.0772190 -0.2636386
667000000 0.0725659 -0.2559973 0.9274341 0.2559973 0.9274341 0.2559973 0.0725659 -0.2559973
688000000 0.0682929 -0.2486954 0.9317071 0.2486954 0.9317071 0.2486954 0.0682929 -0.2486954
709000000 0.0643609 -0.2417133 0.9356391 0.2417133 0.9356391 0.2417133 0.0643609 -0.2417133
730000000 0.0607356 -0.2350324 0.9392644 0.2350324 0.9392644 0.2350324 0.0607356 -0.2350324
751000000 0.0573869 -0.2286352 0.9426131 0.2286352 0.9426131 0.2286352 0.0573869 -0.2286352
772000000 0.0542881 -0.2225052 0.9457119 0.2225052 0.9457119 0.2225052 0.0542881 -0.2225052
793000000 0.0514156 -0.2166268 0.9485844 0.2166268 0.9485844 0.2166268 0.0514156 -0.2166268
814000000 0.0487486 -0.2109856 0.9512514 0.2109856 0.9512514 0.2109856 0.0487486 -0.2109856
835000000 0.0462684 -0.2055679 0.9537316 0.2055679 0.9537316 0.2055679 0.0462684 -0.2055679
856000000 0.0439584 -0.2003610 0.9560416 0.2003610 0.9560416 0.2003610 0.0439584 -0.2003610
877000000 0.0418039 -0.1953529 0.9581961 0.1953529 0.9581961 0.1953529 0.0418039 -0.1953529
898000000 0.0397916 -0.1905327 0.9602084 0.1905327 0.9602084 0.1905327 0.0397916 -0.1905327
919000000 0.0379097 -0.1858899 0.9620903 0.1858899 0.9620903 0.1858899 0.0379097 -0.1858899
940000000 0.0361473 -0.1814148 0.9638527 0.1814148 0.9638527 0.1814148 0.0361473 -0.1814148
961000000 0.0344949 -0.1770983 0.9655051 0.1770983 0.9655051 0.1770983 0.0344949 -0.1770983
982000000 0.0329438 -0.1729320 0.9670562 0.1729320 0.9670562 0.1729320 0.0329438 -0.1729320
1003000000 0.0314862 -0.1689079 0.9685138 0.1689079 0.9685138 0.1689079 0.0314862 -0.1689079
1024000000 0.0301150 -0.1650187 0.9698850 0.1650187 0.9698850 0.1650187 0.0301150 -0.1650187
1045000000 0.0288236 -0.1612574 0.9711764 0.1612574 0.9711764 0.1612574 0.0288236 -0.1612574
1066000000 0.0276062 -0.1576175 0.9723938 0.1576175 0.9723938 0.1576175 0.0276062 -0.1576175
1087000000 0.0264575 -0.1540929 0.9735425 0.1540929 0.9735425 0.1540929 0.0264575 -0.1540929
1108000000 0.0253727 -0.1506779 0.9746273 0.1506779 0.9746273 0.1506779 0.0253727 -0.1506779
1129000000 0.0243471 -0.1473672 0.9756529 0.1473672 0.9756529 0.1473672 0.0243471 -0.1473672
1150000000 0.0233769 -0.1441557 0.9766231 0.1441557 0.9766231 0.1441557 0.0233769 -0.1441557
1171000000 0.0224583 -0.1410387 0.9775417 0.1410387 0.9775417 0.1410387 0.0224583 -0.1410387
1192000000 0.0215877 -0.1380119 0.9784123 0.1380119 0.9784123 0.1380119 0.0215877 -0.1380119
1213000000 0.0207622 -0.1350709 0.9792378 0.1350709 0.9792378 0.1350709 0.0207622 -0.1350709
1234000000 0.0199788 -0.1322119 0.9800212 0.1322119 0.9800212 0.1322119 0.0199788 -0.1322119
1255000000 0.0192348 -0.1294312 0.9807652 0.1294312 0.9807652 0.1294312 0.0192348 -0.1294312
1276000000 0.0185279 -0.1267252 0.9814721 0.1267252 0.9814721 0.1267252 0.0185279 -0.1267252
1297000000 0.0178557 -0.1240908 0.9821443 0.1240908 0.9821443 0.1240908 0.0178557 -0.1240908
1318000000 0.0172161 -0.1215247 0.9827839 0.1215247 0.9827839 0.1215247 0.0172161 -0.1215247
1339000000 0.0166072 -0.1190241 0.9833928 0.1190241 0.9833928 0.1190241 0.0166072 -0.1190241
1360000000 0.0160272 -0.1165862 0.9839728 0.1165862 0.9839728 0.1165862 0.0160272 -0.1165862
1381000000 0.0154745 -0.1142083 0.9845255 0.1142083 0.9845255 0.1142083 0.0154745 -0.1142083
1402000000 0.0149475 -0.1118881 0.9850525 0.1118881 0.9850525 0.1118881 0.0149475 -0.1118881
1423000000 0.0144447 -0.1096230 0.9855553 0.1096230 0.9855553 0.1096230 0.0144447 -0.1096230
1444000000 0.0139648 -0.1074110 0.9860352 0.1074110 0.9860352 0.1074110 0.0139648 -0.1074110
1465000000 0.0135066 -0.1052499 0.9864934 0.1052499 0.9864934 0.1052499 0.0135066 -0.1052499
1486000000 0.0130689 -0.1031376 0.9869311 0.1031376 0.9869311 0.1031376 0.0130689 -0.1031376
1507000000 0.0126507 -0.1010724 0.9873493 0.1010724 0.9873493 0.1010724 0.0126507 -0.1010724
1528000000 0.0122508 -0.0990524 0.9877492 0.0990524 0.9877492 0.0990524 0.0122508 -0.0990524
1549000000 0.0118685 -0.0970758 0.9881315 0.0970758 0.9881315 0.0970758 0.0118685 -0.0970758
1570000000 0.0115027 -0.0951411 0.9884973 0.0951411 0.9884973 0.0951411 0.0115027 -0.0951411
1591000000 0.0111526 -0.0932467 0.9888474 0.0932467 0.9888474 0.0932467 0.0111526 -0.0932467
1612000000 0.0108176 -0.0913911 0.9891824 0.0913911 0.9891824 0.0913911 0.0108176 -0.0913911
1633000000 0.0104968 -0.0895730 0.9895032 0.0895730 0.9895032 0.0895730 0.0104968 -0.0895730
1654000000 0.0101895 -0.0877909 0.9898105 0.0877909 0.9898105 0.0877909 0.0101895 -0.0877909
1675000000 0.0098952 -0.0860436 0.9901048 0.0860436 0.9901048 0.0860436 0.0098952 -0.0860436
1696000000 0.0096131 -0.0843299 0.9903869 0.0843299 0.9903869 0.0843299 0.0096131 -0.0843299
1717000000 0.0093429 -0.0826486 0.9906571 0.0826486 0.9906571 0.0826486 0.0093429 -0.0826486
1738000000 0.0090838 -0.0809986 0.9909162 0.0809986 0.9909162 0.0809986 0.0090838 -0.0809986
1759000000 0.0088354 -0.0793789 0.9911646 0.0793789 0.9911646 0.0793789 0.0088354 -0.0793789
1780000000 0.0085973 -0.0777884 0.9914027 0.0777884 0.9914027 0.0777884 0.0085973 -0.0777884
1801000000 0.0083689 -0.0762262 0.9916311 0.0762262 0.9916311 0.0762262 0.0083689 -0.0762262
1822000000 0.0081499 -0.0746914 0.9918501 0.0746914 0.9918501 0.0746914 0.0081499 -0.0746914
1843000000 0.0079399 -0.0731830 0.9920601 0.0731830 0.9920601 0.0731830 0.0079399 -0.0731830
1864000000 0.0077384 -0.0717002 0.9922616 0.0717002 0.9922616 0.0717002 0.0077384 -0.0717002
1885000000 0.0075452 -0.0702421 0.9924548 0.0702421 0.9924548 0.0702421 0.0075452 -0.0702421
1906000000 0.0073598 -0.0688081 0.9926402 0.0688081 0.9926402 0.0688081 0.0073598 -0.0688081
1927000000 0.0071820 -0.0673974 0.9928180 0.0673974 0.9928180 0.0673974 0.0071820 -0.0673974
1948000000 0.0070115 -0.0660092 0.9929885 0.0660092 0.9929885 0.0660092 0.0070115 -0.0660092
1969000000 0.0068479 -0.0646429 0.9931521 0.0646429 0.9931521 0.0646429 0.0068479 -0.0646429
1990000000 0.0066910 -0.0632978 0.9933090 0.0632978 0.9933090 0.0632978 0.0066910 -0.0632978
2011000000 0.0065405 -0.0619732 0.9934595 0.0619732 0.9934595 0.0619732 0.0065405 -0.0619732
2032000000 0.0063962 -0.0606686 0.9936038 0.0606686 0.9936038 0.0606686 0.0063962 -0.0606686
2053000000 0.0062579 -0.0593834 0.9937421 0.0593834 0.9937421 0.0593834 0.0062579 -0.0593834
2074000000 0.0061253 -0.0581170 0.9938747 0.0581170 0.9938747 0.0581170 0.0061253 -0.0581170
2095000000 0.0059982 -0.0568689 0.9940018 0.0568689 0.9940018 0.0568689 0.0059982 -0.0568689
2116000000 0.0058764 -0.0556385 0.9941236 0.0556385 0.9941236 0.0556385 0.0058764 -0.0556385
2137000000 0.0057597 -0.0544254 0.9942403 0.0544254 0.9942403 0.0544254 0.0057597 -0.0544254
2158000000 0.0056480 -0.0532290 0.9943520 0.0532290 0.9943520 0.0532290 0.0056480 -0.0532290
2179000000 0.0055410 -0.0520489 0.9944590 0.0520489 0.9944590 0.0520489 0.0055410 -0.0520489
2200000000 0.0054387 -0.0508847 0.9945613 0.0508847 0.9945613 0.0508847 0.0054387 -0.0508847
2221000000 0.0053407 -0.0497360 0.9946593 0.0497360 0.9946593 0.0497360 0.0053407 -0.0497360
2242000000 0.0052471 -0.0486022 0.9947529 0.0486022 0.9947529 0.0486022 0.0052471 -0.0486022
2263000000 0.0051576 -0.0474831 0.9948424 0.0474831 0.9948424 0.0474831 0.0051576 -0.0474831
2284000000 0.0050721 -0.0463781 0.9949279 0.0463781 0.9949279 0.0463781 0.0050721 -0.0463781
2305000000 0.0049905 -0.0452870 0.9950095 0.0452870 0.9950095 0.0452870 0.0049905 -0.0452870
2326000000 0.0049126 -0.0442095 0.9950874 0.0442095 0.9950874 0.0442095 0.0049126 -0.0442095
2347000000 0.0048383 -0.0431450 0.9951617 0.0431450 0.9951617 0.0431450 0.0048383 -0.0431450
2368000000 0.0047675 -0.0420934 0.9952325 0.0420934 0.9952325 0.0420934 0.0047675 -0.0420934
2389000000 0.0047002 -0.0410543 0.9952998 0.0410543 0.9952998 0.0410543 0.0047002 -0.0410543
2410000000 0.0046361 -0.0400273 0.9953639 0.0400273 0.9953639 0.0400273 0.0046361 -0.0400273
2431000000 0.0045752 -0.0390122 0.9954248 0.0390122 0.9954248 0.0390122 0.0045752 -0.0390122
2452000000 0.0045174 -0.0380087 0.9954826 0.0380087 0.9954826 0.0380087 0.0045174 -0.0380087
2473000000 0.0044626 -0.0370164 0.9955374 0.0370164 0.9955374 0.0370164 0.0044626 -0.0370164
2494000000 0.0044107 -0.0360352 0.9955893 0.0360352 0.9955893 0.0360352 0.0044107 -0.0360352
2515000000 0.0043616 -0.0350648 0.9956384 0.0350648 0.9956384 0.0350648 0.0043616 -0.0350648
2536000000 0.0043152 -0.0341048 0.9956848 0.0341048 0.9956848 0.0341048 0.0043152 -0.0341048
2557000000 0.0042716 -0.0331551 0.9957284 0.0331551 0.9957284 0.0331551 0.0042716 -0.0331551
2578000000 0.0042305 -0.0322154 0.9957695 0.0322154 0.9957695 0.0322154 0.0042305 -0.0322154
2599000000 0.0041919 -0.0312855 0.9958081 0.0312855 0.9958081 0.0312855 0.0041919 -0.0312855
2620000000 0.0041557 -0.0303652 0.9958443 0.0303652 0.9958443 0.0303652 0.0041557 -0.0303652
2641000000 0.0041219 -0.0294541 0.9958781 0.0294541 0.9958781 0.0294541 0.0041219 -0.0294541
2662000000 0.0040905 -0.0285522 0.9959095 0.0285522 0.9959095 0.0285522 0.0040905 -0.0285522
2683000000 0.0040612 -0.0276593 0.9959388 0.0276593 0.9959388 0.0276593 0.0040612 -0.0276593
2704000000 0.0040342 -0.0267750 0.9959658 0.0267750 0.9959658 0.0267750 0.0040342 -0.0267750
2725000000 0.0040093 -0.0258992 0.9959907 0.0258992 0.9959907 0.0258992 0.0040093 -0.0258992
2746000000 0.0039864 -0.0250318 0.9960136 0.0250318 0.9960136 0.0250318 0.0039864 -0.0250318
2767000000 0.0039656 -0.0241726 0.9960344 0.0241726 0.9960344 0.0241726 0.0039656 -0.0241726
2788000000 0.0039467 -0.0233213 0.9960533 0.0233213 0.9960533 0.0233213 0.0039467 -0.0233213
2809000000 0.0039297 -0.0224779 0.9960703 0.0224779 0.9960703 0.0224779 0.0039297 -0.0224779
2830000000 0.0039146 -0.0216420 0.9960854 0.0216420 0.9960854 0.0216420 0.0039146 -0.0216420
2851000000 0.0039014 -0.0208137 0.9960986 0.0208137 0.9960986 0.0208137 0.0039014 -0.0208137
2872000000 0.0038899 -0.0199927 0.9961101 0.0199927 0.9961101 0.0199927 0.0038899 -0.0199927
2893000000 0.0038801 -0.0191788 0.9961199 0.0191788 0.9961199 0.0191788 0.0038801 -0.0191788
2914000000 0.0038720 -0.0183720 0.9961280 0.0183720 0.9961280 0.0183720 0.0038720 -0.0183720
2935000000 0.0038656 -0.0175720 0.9961344 0.0175720 0.9961344 0.0175720 0.0038656 -0.0175720
2956000000 0.0038607 -0.0167788 0.9961393 0.0167788 0.9961393 0.0167788 0.0038607 -0.0167788
2977000000 0.0038575 -0.0159921 0.9961425 0.0159921 0.9961425 0.0159921 0.0038575 -0.0159921
2998000000 0.0038558 -0.0152120 0.9961442 0.0152120 0.9961442 0.0152120 0.0038558 -0.0152120
3019000000 0.0038555 -0.0144382 0.9961445 0.0144382 0.9961445 0.0144382 0.0038555 -0.0144382
3040000000 0.0038568 -0.0136706 0.9961432 0.0136706 0.9961432 0.0136706 0.0038568 -0.0136706
3061000000 0.0038595 -0.0129090 0.9961405 0.0129090 0.9961405 0.0129090 0.0038595 -0.0129090
3082000000 0.0038636 -0.0121535 0.9961364 0.0121535 0.9961364 0.0121535 0.0038636 -0.0121535
3103000000 0.0038690 -0.0114038 0.9961310 0.0114038 0.9961310 0.0114038 0.0038690 -0.0114038
3124000000 0.0038758 -0.0106598 0.9961242 0.0106598 0.9961242 0.0106598 0.0038758 -0.0106598
3145000000 0.0038839 -0.0099215 0.9961161 0.0099215 0.9961161 0.0099215 0.0038839 -0.0099215
3166000000 0.0038933 -0.0091887 0.9961067 0.0091887 0.9961067 0.0091887 0.0038933 -0.0091887
3187000000 0.0039039 -0.0084613 0.9960961 0.0084613 0.9960961 0.0084613 0.0039039 -0.0084613
3208000000 0.0039158 -0.0077393 0.9960842 0.0077393 0.9960842 0.0077393 0.0039158 -0.0077393
3229000000 0.0039289 -0.0070224 0.9960711 0.0070224 0.9960711 0.0070224 0.0039289 -0.0070224
3250000000 0.0039432 -0.0063107 0.9960568 0.0063107 0.9960568 0.0063107 0.0039432 -0.0063107
3271000000 0.0039586 -0.0056040 0.9960414 0.0056040 0.9960414 0.0056040 0.0039586 -0.0056040
3292000000 0.0039751 -0.0049022 0.9960249 0.0049022 0.9960249 0.0049022 0.0039751 -0.0049022
3313000000 0.0039928 -0.0042053 0.9960072 0.0042053 0.9960072 0.0042053 0.0039928 -0.0042053
3334000000 0.0040115 -0.0035132 0.9959885 0.0035132 0.9959885 0.0035132 0.0040115 -0.0035132
3355000000 0.0040313 -0.0028257 0.9959687 0.0028257 0.9959687 0.0028257 0.0040313 -0.0028257
3376000000 0.0040522 -0.0021428 0.9959478 0.0021428 0.9959478 0.0021428 0.0040522 -0.0021428
3397000000 0.0040741 -0.0014644 0.9959259 0.0014644 0.9959259 0.0014644 0.0040741 -0.0014644
3418000000 0.0040970 -0.0007905 0.9959030 0.0007905 0.9959030 0.0007905 0.0040970 -0.0007905
3439000000 0.0041209 -0.0001209 0.9958791 0.0001209 0.9958791 0.0001209 0.0041209 -0.0001209
3460000000 0.0041458 0.0005444 0.9958542 -0.0005444 0.9958542 -0.0005444 0.0041458 0.0005444
3481000000 0.0041716 0.0012055 0.9958284 -0.0012055 0.9958284 -0.0012055 0.0041716 0.0012055
3502000000 0.0041983 0.0018625 0.9958017 -0.0018625 0.9958017 -0.0018625 0.0041983 0.0018625
3523000000 0.0042260 0.0025154 0.9957740 -0.0025154 0.9957740 -0.0025154 0.0042260 0.0025154
3544000000 0.0042546 0.0031644 0.9957454 -0.0031644 0.9957454 -0.0031644 0.0042546 0.0031644
3565000000 0.0042840 0.0038094 0.9957160 -0.0038094 0.9957160 -0.0038094 0.0042840 0.0038094
3586000000 0.0043144 0.0044505 0.9956856 -0.0044505 0.9956856 -0.0044505 0.0043144 0.0044505
3607000000 0.0043456 0.0050879 0.9956544 -0.0050879 0.9956544 -0.0050879 0.0043456 0.0050879
3628000000 0.0043776 0.0057215 0.9956224 -0.0057215 0.9956224 -0.0057215 0.0043776 0.0057215
3649000000 0.0044105 0.0063514 0.9955895 -0.0063514 0.9955895 -0.0063514 0.0044105 0.0063514
3670000000 0.0044442 0.0069778 0.9955558 -0.0069778 0.9955558 -0.0069778 0.0044442 0.0069778
3691000000 0.0044786 0.0076006 0.9955214 -0.0076006 0.9955214 -0.0076006 0.0044786 0.0076006
3712000000 0.0045139 0.0082199 0.9954861 -0.0082199 0.9954861 -0.0082199 0.0045139 0.0082199
3733000000 0.0045500 0.0088357 0.9954500 -0.0088357 0.9954500 -0.0088357 0.0045500 0.0088357
3754000000 0.0045868 0.0094482 0.9954132 -0.0094482 0.9954132 -0.0094482 0.0045868 0.0094482
3775000000 0.0046243 0.0100574 0.9953757 -0.0100574 0.9953757 -0.0100574 0.0046243 0.0100574
3796000000 0.0046626 0.0106632 0.9953374 -0.0106632 0.9953374 -0.0106632 0.0046626 0.0106632
3817000000 0.0047017 0.0112659 0.9952983 -0.0112659 0.9952983 -0.0112659 0.0047017 0.0112659
3838000000 0.0047414 0.0118654 0.9952586 -0.0118654 0.9952586 -0.0118654 0.0047414 0.0118654
3859000000 0.0047819 0.0124617 0.9952181 -0.0124617 0.9952181 -0.0124617 0.0047819 0.0124617
3880000000 0.0048231 0.0130550 0.9951769 -0.0130550 0.9951769 -0.0130550 0.0048231 0.0130550
3901000000 0.0048649 0.0136453 0.9951351 -0.0136453 0.9951351 -0.0136453 0.0048649 0.0136453
3922000000 0.0049074 0.0142325 0.9950926 -0.0142325 0.9950926 -0.0142325 0.0049074 0.0142325
3943000000 0.0049506 0.0148169 0.9950494 -0.0148169 0.9950494 -0.0148169 0.0049506 0.0148169
3964000000 0.0049945 0.0153983 0.9950055 -0.0153983 0.9950055 -0.0153983 0.0049945 0.0153983
3985000000 0.0050390 0.0159769 0.9949610 -0.0159769 0.9949610 -0.0159769 0.0050390 0.0159769
4006000000 0.0050841 0.0165527 0.9949159 -0.0165527 0.9949159 -0.0165527 0.0050841 0.0165527
4027000000 0.0051299 0.0171257 0.9948701 -0.0171257 0.9948701 -0.0171257 0.0051299 0.0171257
4048000000 0.0051763 0.0176960 0.9948237 -0.0176960 0.9948237 -0.0176960 0.0051763 0.0176960
4069000000 0.0052233 0.0182636 0.9947767 -0.0182636 0.9947767 -0.0182636 0.0052233 0.0182636
4090000000 0.0052710 0.0188286 0.9947290 -0.0188286 0.9947290 -0.0188286 0.0052710 0.0188286
4111000000 0.0053192 0.0193910 0.9946808 -0.0193910 0.9946808 -0.0193910 0.0053192 0.0193910
4132000000 0.0053680 0.0199508 0.9946320 -0.0199508 0.9946320 -0.0199508 0.0053680 0.0199508
4153000000 0.0054174 0.0205081 0.9945826 -0.0205081 0.9945826 -0.0205081 0.0054174 0.0205081
4174000000 0.0054674 0.0210629 0.9945326 -0.0210629 0.9945326 -0.0210629 0.0054674 0.0210629
4195000000 0.0055179 0.0216153 0.9944821 -0.0216153 0.9944821 -0.0216153 0.0055179 0.0216153
4216000000 0.0055690 0.0221652 0.9944310 -0.0221652 0.9944310 -0.0221652 0.0055690 0.0221652
4237000000 0.0056207 0.0227128 0.9943793 -0.0227128 0.9943793 -0.0227128 0.0056207 0.0227128
4258000000 0.0056729 0.0232580 0.9943271 -0.0232580 0.9943271 -0.0232580 0.0056729 0.0232580
4279000000 0.0057257 0.0238008 0.9942743 -0.0238008 0.9942743 -0.0238008 0.0057257 0.0238008
4300000000 0.0057790 0.0243414 0.9942210 -0.0243414 0.9942210 -0.0243414 0.0057790 0.0243414
4321000000 0.0058329 0.0248798 0.9941671 -0.0248798 0.9941671 -0.0248798 0.0058329 0.0248798
4342000000 0.0058872 0.0254159 0.9941128 -0.0254159 0.9941128 -0.0254159 0.0058872 0.0254159
4363000000 0.0059421 0.0259498 0.9940579 -0.0259498 0.9940579 -0.0259498 0.0059421 0.0259498
4384000000 0.0059975 0.0264816 0.9940025 -0.0264816 0.9940025 -0.0264816 0.0059975 0.0264816
4405000000 0.0060534 0.0270113 0.9939466 -0.0270113 0.9939466 -0.0270113 0.0060534 0.0270113
4426000000 0.0061099 0.0275388 0.9938901 -0.0275388 0.9938901 -0.0275388 0.0061099 0.0275388
4447000000 0.0061668 0.0280643 0.9938332 -0.0280643 0.9938332 -0.0280643 0.0061668 0.0280643
4468000000 0.0062242 0.0285877 0.9937758 -0.0285877 0.9937758 -0.0285877 0.0062242 0.0285877
4489000000 0.0062821 0.0291092 0.9937179 -0.0291092 0.9937179 -0.0291092 0.0062821 0.0291092
4510000000 0.0063405 0.0296286 0.9936595 -0.0296286 0.9936595 -0.0296286 0.0063405 0.0296286
