!Murata Part Number: GRM0334C1H1R7BA01
!These Parameters are Measured in Series Mode Connection
!Data Generated on Mar 30, 2021
!       o--ll--o
!Port1            Port2
!       o------o
!Operation Temp=25[degC], DC Bias Voltage=0[V]
!Freq. Start=100[MHz] Stop=9[GHz] 401[Steps]
# Hz S RI R 50
!Freq.(Hz) S11(Real) S11(Imag) S21(Real) S21(Imag) S12(Real) S12(Imag) S22(Real) S22(Imag)
100000000 0.9886852 -0.1056178 0.0113148 0.1056178 0.0113148 0.1056178 0.9886852 -0.1056178
121000000 0.9835186 -0.1271365 0.0164814 0.1271365 0.0164814 0.1271365 0.9835186 -0.1271365
142000000 0.9774384 -0.1482886 0.0225616 0.1482886 0.0225616 0.1482886 0.9774384 -0.1482886
163000000 0.9704785 -0.1690191 0.0295215 0.1690191 0.0295215 0.1690191 0.9704785 -0.1690191
184000000 0.9626769 -0.1892767 0.0373231 0.1892767 0.0373231 0.1892767 0.9626769 -0.1892767
205000000 0.9540753 -0.2090145 0.0459247 0.2090145 0.0459247 0.2090145 0.9540753 -0.2090145
226000000 0.9447186 -0.2281898 0.0552814 0.2281898 0.0552814 0.2281898 0.9447186 -0.2281898
247000000 0.9346540 -0.2467647 0.0653460 0.2467647 0.0653460 0.2467647 0.9346540 -0.2467647
268000000 0.9239309 -0.2647060 0.0760691 0.2647060 0.0760691 0.2647060 0.9239309 -0.2647060
289000000 0.9126003 -0.2819854 0.0873997 0.2819854 0.0873997 0.2819854 0.9126003 -0.2819854
310000000 0.9007139 -0.2985794 0.0992861 0.2985794 0.0992861 0.2985794 0.9007139 -0.2985794
331000000 0.8883238 -0.3144691 0.1116762 0.3144691 0.1116762 0.3144691 0.8883238 -0.3144691
352000000 0.8754823 -0.3296405 0.1245177 0.3296405 0.1245177 0.3296405 0.8754823 -0.3296405
373000000 0.8622410 -0.3440839 0.1377590 0.3440839 0.1377590 0.3440839 0.8622410 -0.3440839
394000000 0.8486507 -0.3577937 0.1513493 0.3577937 0.1513493 0.3577937 0.8486507 -0.3577937
415000000 0.8347609 -0.3707684 0.1652391 0.3707684 0.1652391 0.3707684 0.8347609 -0.3707684
436000000 0.8206195 -0.3830101 0.1793805 0.3830101 0.1793805 0.3830101 0.8206195 -0.3830101
457000000 0.8062728 -0.3945244 0.1937272 0.3945244 0.1937272 0.3945244 0.8062728 -0.3945244
478000000 0.7917648 -0.4053198 0.2082352 0.4053198 0.2082352 0.4053198 0.7917648 -0.4053198
499000000 0.7771375 -0.4154077 0.2228625 0.4154077 0.2228625 0.4154077 0.7771375 -0.4154077
520000000 0.7624303 -0.4248019 0.2375697 0.4248019 0.2375697 0.4248019 0.7624303 -0.4248019
541000000 0.7476804 -0.4335182 0.2523196 0.4335182 0.2523196 0.4335182 0.7476804 -0.4335182
562000000 0.7329223 -0.4415743 0.2670777 0.4415743 0.2670777 0.4415743 0.7329223 -0.4415743
583000000 0.7181884 -0.4489895 0.2818116 0.4489895 0.2818116 0.4489895 0.7181884 -0.4489895
604000000 0.7035080 -0.4557842 0.2964920 0.4557842 0.2964920 0.4557842 0.7035080 -0.4557842
625000000 0.6889084 -0.4619800 0.3110916 0.4619800 0.3110916 0.4619800 0.6889084 -0.4619800
646000000 0.6744142 -0.4675989 0.3255858 0.4675989 0.3255858 0.4675989 0.6744142 -0.4675989
667000000 0.6600479 -0.4726639 0.3399521 0.4726639 0.3399521 0.4726639 0.6600479 -0.4726639
688000000 0.6458295 -0.4771980 0.3541705 0.4771980 0.3541705 0.4771980 0.6458295 -0.4771980
709000000 0.6317769 -0.4812245 0.3682231 0.4812245 0.3682231 0.4812245 0.6317769 -0.4812245
730000000 0.6179061 -0.4847666 0.3820939 0.4847666 0.3820939 0.4847666 0.6179061 -0.4847666
751000000 0.6042308 -0.4878475 0.3957692 0.4878475 0.3957692 0.4878475 0.6042308 -0.4878475
772000000 0.5907632 -0.4904899 0.4092368 0.4904899 0.4092368 0.4904899 0.5907632 -0.4904899
793000000 0.5775137 -0.4927165 0.4224863 0.4927165 0.4224863 0.4927165 0.5775137 -0.4927165
814000000 0.5644909 -0.4945491 0.4355091 0.4945491 0.4355091 0.4945491 0.5644909 -0.4945491
835000000 0.5517021 -0.4960094 0.4482979 0.4960094 0.4482979 0.4960094 0.5517021 -0.4960094
856000000 0.5391533 -0.4971182 0.4608467 0.4971182 0.4608467 0.4971182 0.5391533 -0.4971182
877000000 0.5268490 -0.4978957 0.4731510 0.4978957 0.4731510 0.4978957 0.5268490 -0.4978957
898000000 0.5147928 -0.4983615 0.4852072 0.4983615 0.4852072 0.4983615 0.5147928 -0.4983615
919000000 0.5029871 -0.4985345 0.4970129 0.4985345 0.4970129 0.4985345 0.5029871 -0.4985345
940000000 0.4914333 -0.4984328 0.5085667 0.4984328 0.5085667 0.4984328 0.4914333 -0.4984328
961000000 0.4801321 -0.4980739 0.5198679 0.4980739 0.5198679 0.4980739 0.4801321 -0.4980739
982000000 0.4690833 -0.4974743 0.5309167 0.4974743 0.5309167 0.4974743 0.4690833 -0.4974743
1003000000 0.4582862 -0.4966499 0.5417138 0.4966499 0.5417138 0.4966499 0.4582862 -0.4966499
1024000000 0.4477392 -0.4956160 0.5522608 0.4956160 0.5522608 0.4956160 0.4477392 -0.4956160
1045000000 0.4374404 -0.4943870 0.5625596 0.4943870 0.5625596 0.4943870 0.4374404 -0.4943870
1066000000 0.4273872 -0.4929766 0.5726128 0.4929766 0.5726128 0.4929766 0.4273872 -0.4929766
1087000000 0.4175769 -0.4913978 0.5824231 0.4913978 0.5824231 0.4913978 0.4175769 -0.4913978
1108000000 0.4080062 -0.4896629 0.5919938 0.4896629 0.5919938 0.4896629 0.4080062 -0.4896629
1129000000 0.3986714 -0.4877837 0.6013286 0.4877837 0.6013286 0.4877837 0.3986714 -0.4877837
1150000000 0.3895689 -0.4857713 0.6104311 0.4857713 0.6104311 0.4857713 0.3895689 -0.4857713
1171000000 0.3806945 -0.4836360 0.6193055 0.4836360 0.6193055 0.4836360 0.3806945 -0.4836360
1192000000 0.3720440 -0.4813876 0.6279560 0.4813876 0.6279560 0.4813876 0.3720440 -0.4813876
1213000000 0.3636130 -0.4790356 0.6363870 0.4790356 0.6363870 0.4790356 0.3636130 -0.4790356
1234000000 0.3553971 -0.4765886 0.6446029 0.4765886 0.6446029 0.4765886 0.3553971 -0.4765886
1255000000 0.3473917 -0.4740549 0.6526083 0.4740549 0.6526083 0.4740549 0.3473917 -0.4740549
1276000000 0.3395921 -0.4714421 0.6604079 0.4714421 0.6604079 0.4714421 0.3395921 -0.4714421
1297000000 0.3319936 -0.4687575 0.6680064 0.4687575 0.6680064 0.4687575 0.3319936 -0.4687575
1318000000 0.3245915 -0.4660080 0.6754085 0.4660080 0.6754085 0.4660080 0.3245915 -0.4660080
1339000000 0.3173811 -0.4632000 0.6826189 0.4632000 0.6826189 0.4632000 0.3173811 -0.4632000
1360000000 0.3103578 -0.4603393 0.6896422 0.4603393 0.6896422 0.4603393 0.3103578 -0.4603393
1381000000 0.3035167 -0.4574317 0.6964833 0.4574317 0.6964833 0.4574317 0.3035167 -0.4574317
1402000000 0.2968534 -0.4544824 0.7031466 0.4544824 0.7031466 0.4544824 0.2968534 -0.4544824
1423000000 0.2903631 -0.4514963 0.7096369 0.4514963 0.7096369 0.4514963 0.2903631 -0.4514963
1444000000 0.2840414 -0.4484779 0.7159586 0.4484779 0.7159586 0.4484779 0.2840414 -0.4484779
1465000000 0.2778837 -0.4454315 0.7221163 0.4454315 0.7221163 0.4454315 0.2778837 -0.4454315
1486000000 0.2718857 -0.4423612 0.7281143 0.4423612 0.7281143 0.4423612 0.2718857 -0.4423612
1507000000 0.2660430 -0.4392706 0.7339570 0.4392706 0.7339570 0.4392706 0.2660430 -0.4392706
1528000000 0.2603515 -0.4361632 0.7396485 0.4361632 0.7396485 0.4361632 0.2603515 -0.4361632
1549000000 0.2548068 -0.4330423 0.7451932 0.4330423 0.7451932 0.4330423 0.2548068 -0.4330423
1570000000 0.2494050 -0.4299108 0.7505950 0.4299108 0.7505950 0.4299108 0.2494050 -0.4299108
1591000000 0.2441421 -0.4267715 0.7558579 0.4267715 0.7558579 0.4267715 0.2441421 -0.4267715
1612000000 0.2390141 -0.4236271 0.7609859 0.4236271 0.7609859 0.4236271 0.2390141 -0.4236271
1633000000 0.2340172 -0.4204798 0.7659828 0.4204798 0.7659828 0.4204798 0.2340172 -0.4204798
1654000000 0.2291479 -0.4173321 0.7708521 0.4173321 0.7708521 0.4173321 0.2291479 -0.4173321
1675000000 0.2244023 -0.4141858 0.7755977 0.4141858 0.7755977 0.4141858 0.2244023 -0.4141858
1696000000 0.2197770 -0.4110430 0.7802230 0.4110430 0.7802230 0.4110430 0.2197770 -0.4110430
1717000000 0.2152687 -0.4079054 0.7847313 0.4079054 0.7847313 0.4079054 0.2152687 -0.4079054
1738000000 0.2108738 -0.4047746 0.7891262 0.4047746 0.7891262 0.4047746 0.2108738 -0.4047746
1759000000 0.2065892 -0.4016521 0.7934108 0.4016521 0.7934108 0.4016521 0.2065892 -0.4016521
1780000000 0.2024118 -0.3985393 0.7975882 0.3985393 0.7975882 0.3985393 0.2024118 -0.3985393
1801000000 0.1983383 -0.3954375 0.8016617 0.3954375 0.8016617 0.3954375 0.1983383 -0.3954375
1822000000 0.1943660 -0.3923479 0.8056340 0.3923479 0.8056340 0.3923479 0.1943660 -0.3923479
1843000000 0.1904918 -0.3892715 0.8095082 0.3892715 0.8095082 0.3892715 0.1904918 -0.3892715
1864000000 0.1867130 -0.3862092 0.8132870 0.3862092 0.8132870 0.3862092 0.1867130 -0.3862092
1885000000 0.1830268 -0.3831621 0.8169732 0.3831621 0.8169732 0.3831621 0.1830268 -0.3831621
1906000000 0.1794306 -0.3801309 0.8205694 0.3801309 0.8205694 0.3801309 0.1794306 -0.3801309
1927000000 0.1759217 -0.3771164 0.8240783 0.3771164 0.8240783 0.3771164 0.1759217 -0.3771164
1948000000 0.1724978 -0.3741192 0.8275022 0.3741192 0.8275022 0.3741192 0.1724978 -0.3741192
1969000000 0.1691564 -0.3711399 0.8308436 0.3711399 0.8308436 0.3711399 0.1691564 -0.3711399
1990000000 0.1658951 -0.3681791 0.8341049 0.3681791 0.8341049 0.3681791 0.1658951 -0.3681791
2011000000 0.1627117 -0.3652372 0.8372883 0.3652372 0.8372883 0.3652372 0.1627117 -0.3652372
2032000000 0.1596040 -0.3623148 0.8403960 0.3623148 0.8403960 0.3623148 0.1596040 -0.3623148
2053000000 0.1565698 -0.3594121 0.8434302 0.3594121 0.8434302 0.3594121 0.1565698 -0.3594121
2074000000 0.1536071 -0.3565296 0.8463929 0.3565296 0.8463929 0.3565296 0.1536071 -0.3565296
2095000000 0.1507138 -0.3536675 0.8492862 0.3536675 0.8492862 0.3536675 0.1507138 -0.3536675
2116000000 0.1478880 -0.3508261 0.8521120 0.3508261 0.8521120 0.3508261 0.1478880 -0.3508261
2137000000 0.1451278 -0.3480057 0.8548722 0.3480057 0.8548722 0.3480057 0.1451278 -0.3480057
2158000000 0.1424315 -0.3452063 0.8575685 0.3452063 0.8575685 0.3452063 0.1424315 -0.3452063
2179000000 0.1397971 -0.3424282 0.8602029 0.3424282 0.8602029 0.3424282 0.1397971 -0.3424282
2200000000 0.1372231 -0.3396715 0.8627769 0.3396715 0.8627769 0.3396715 0.1372231 -0.3396715
2221000000 0.1347077 -0.3369362 0.8652923 0.3369362 0.8652923 0.3369362 0.1347077 -0.3369362
2242000000 0.1322494 -0.3342226 0.8677506 0.3342226 0.8677506 0.3342226 0.1322494 -0.3342226
2263000000 0.1298465 -0.3315305 0.8701535 0.3315305 0.8701535 0.3315305 0.1298465 -0.3315305
2284000000 0.1274976 -0.3288601 0.8725024 0.3288601 0.8725024 0.3288601 0.1274976 -0.3288601
2305000000 0.1252012 -0.3262114 0.8747988 0.3262114 0.8747988 0.3262114 0.1252012 -0.3262114
2326000000 0.1229558 -0.3235842 0.8770442 0.3235842 0.8770442 0.3235842 0.1229558 -0.3235842
2347000000 0.1207601 -0.3209787 0.8792399 0.3209787 0.8792399 0.3209787 0.1207601 -0.3209787
2368000000 0.1186129 -0.3183947 0.8813871 0.3183947 0.8813871 0.3183947 0.1186129 -0.3183947
2389000000 0.1165126 -0.3158323 0.8834874 0.3158323 0.8834874 0.3158323 0.1165126 -0.3158323
2410000000 0.1144582 -0.3132913 0.8855418 0.3132913 0.8855418 0.3132913 0.1144582 -0.3132913
2431000000 0.1124484 -0.3107716 0.8875516 0.3107716 0.8875516 0.3107716 0.1124484 -0.3107716
2452000000 0.1104820 -0.3082732 0.8895180 0.3082732 0.8895180 0.3082732 0.1104820 -0.3082732
2473000000 0.1085579 -0.3057959 0.8914421 0.3057959 0.8914421 0.3057959 0.1085579 -0.3057959
2494000000 0.1066749 -0.3033397 0.8933251 0.3033397 0.8933251 0.3033397 0.1066749 -0.3033397
2515000000 0.1048321 -0.3009043 0.8951679 0.3009043 0.8951679 0.3009043 0.1048321 -0.3009043
2536000000 0.1030283 -0.2984897 0.8969717 0.2984897 0.8969717 0.2984897 0.1030283 -0.2984897
2557000000 0.1012625 -0.2960958 0.8987375 0.2960958 0.8987375 0.2960958 0.1012625 -0.2960958
2578000000 0.0995339 -0.2937223 0.9004661 0.2937223 0.9004661 0.2937223 0.0995339 -0.2937223
2599000000 0.0978413 -0.2913691 0.9021587 0.2913691 0.9021587 0.2913691 0.0978413 -0.2913691
2620000000 0.0961839 -0.2890361 0.9038161 0.2890361 0.9038161 0.2890361 0.0961839 -0.2890361
2641000000 0.0945608 -0.2867231 0.9054392 0.2867231 0.9054392 0.2867231 0.0945608 -0.2867231
2662000000 0.0929712 -0.2844300 0.9070288 0.2844300 0.9070288 0.2844300 0.0929712 -0.2844300
2683000000 0.0914141 -0.2821565 0.9085859 0.2821565 0.9085859 0.2821565 0.0914141 -0.2821565
2704000000 0.0898888 -0.2799024 0.9101112 0.2799024 0.9101112 0.2799024 0.0898888 -0.2799024
2725000000 0.0883945 -0.2776677 0.9116055 0.2776677 0.9116055 0.2776677 0.0883945 -0.2776677
2746000000 0.0869305 -0.2754521 0.9130695 0.2754521 0.9130695 0.2754521 0.0869305 -0.2754521
2767000000 0.0854958 -0.2732554 0.9145042 0.2732554 0.9145042 0.2732554 0.0854958 -0.2732554
2788000000 0.0840900 -0.2710775 0.9159100 0.2710775 0.9159100 0.2710775 0.0840900 -0.2710775
2809000000 0.0827121 -0.2689181 0.9172879 0.2689181 0.9172879 0.2689181 0.0827121 -0.2689181
2830000000 0.0813616 -0.2667771 0.9186384 0.2667771 0.9186384 0.2667771 0.0813616 -0.2667771
2851000000 0.0800378 -0.2646543 0.9199622 0.2646543 0.9199622 0.2646543 0.0800378 -0.2646543
2872000000 0.0787401 -0.2625494 0.9212599 0.2625494 0.9212599 0.2625494 0.0787401 -0.2625494
2893000000 0.0774677 -0.2604624 0.9225323 0.2604624 0.9225323 0.2604624 0.0774677 -0.2604624
2914000000 0.0762202 -0.2583930 0.9237798 0.2583930 0.9237798 0.2583930 0.0762202 -0.2583930
2935000000 0.0749969 -0.2563410 0.9250031 0.2563410 0.9250031 0.2563410 0.0749969 -0.2563410
2956000000 0.0737973 -0.2543062 0.9262027 0.2543062 0.9262027 0.2543062 0.0737973 -0.2543062
2977000000 0.0726207 -0.2522884 0.9273793 0.2522884 0.9273793 0.2522884 0.0726207 -0.2522884
2998000000 0.0714667 -0.2502875 0.9285333 0.2502875 0.9285333 0.2502875 0.0714667 -0.2502875
3019000000 0.0703347 -0.2483032 0.9296653 0.2483032 0.9296653 0.2483032 0.0703347 -0.2483032
3040000000 0.0692242 -0.2463353 0.9307758 0.2463353 0.9307758 0.2463353 0.0692242 -0.2463353
3061000000 0.0681348 -0.2443838 0.9318652 0.2443838 0.9318652 0.2443838 0.0681348 -0.2443838
3082000000 0.0670658 -0.2424483 0.9329342 0.2424483 0.9329342 0.2424483 0.0670658 -0.2424483
3103000000 0.0660170 -0.2405286 0.9339830 0.2405286 0.9339830 0.2405286 0.0660170 -0.2405286
3124000000 0.0649877 -0.2386247 0.9350123 0.2386247 0.9350123 0.2386247 0.0649877 -0.2386247
3145000000 0.0639776 -0.2367363 0.9360224 0.2367363 0.9360224 0.2367363 0.0639776 -0.2367363
3166000000 0.0629862 -0.2348632 0.9370138 0.2348632 0.9370138 0.2348632 0.0629862 -0.2348632
3187000000 0.0620131 -0.2330053 0.9379869 0.2330053 0.9379869 0.2330053 0.0620131 -0.2330053
3208000000 0.0610579 -0.2311623 0.9389421 0.2311623 0.9389421 0.2311623 0.0610579 -0.2311623
3229000000 0.0601202 -0.2293341 0.9398798 0.2293341 0.9398798 0.2293341 0.0601202 -0.2293341
3250000000 0.0591996 -0.2275204 0.9408004 0.2275204 0.9408004 0.2275204 0.0591996 -0.2275204
3271000000 0.0582957 -0.2257212 0.9417043 0.2257212 0.9417043 0.2257212 0.0582957 -0.2257212
3292000000 0.0574082 -0.2239363 0.9425918 0.2239363 0.9425918 0.2239363 0.0574082 -0.2239363
3313000000 0.0565367 -0.2221654 0.9434633 0.2221654 0.9434633 0.2221654 0.0565367 -0.2221654
3334000000 0.0556809 -0.2204084 0.9443191 0.2204084 0.9443191 0.2204084 0.0556809 -0.2204084
3355000000 0.0548404 -0.2186651 0.9451596 0.2186651 0.9451596 0.2186651 0.0548404 -0.2186651
3376000000 0.0540148 -0.2169354 0.9459852 0.2169354 0.9459852 0.2169354 0.0540148 -0.2169354
3397000000 0.0532040 -0.2152190 0.9467960 0.2152190 0.9467960 0.2152190 0.0532040 -0.2152190
3418000000 0.0524075 -0.2135159 0.9475925 0.2135159 0.9475925 0.2135159 0.0524075 -0.2135159
3439000000 0.0516250 -0.2118258 0.9483750 0.2118258 0.9483750 0.2118258 0.0516250 -0.2118258
3460000000 0.0508563 -0.2101485 0.9491437 0.2101485 0.9491437 0.2101485 0.0508563 -0.2101485
3481000000 0.0501011 -0.2084840 0.9498989 0.2084840 0.9498989 0.2084840 0.0501011 -0.2084840
3502000000 0.0493591 -0.2068321 0.9506409 0.2068321 0.9506409 0.2068321 0.0493591 -0.2068321
3523000000 0.0486300 -0.2051926 0.9513700 0.2051926 0.9513700 0.2051926 0.0486300 -0.2051926
3544000000 0.0479135 -0.2035653 0.9520865 0.2035653 0.9520865 0.2035653 0.0479135 -0.2035653
3565000000 0.0472094 -0.2019501 0.9527906 0.2019501 0.9527906 0.2019501 0.0472094 -0.2019501
3586000000 0.0465174 -0.2003468 0.9534826 0.2003468 0.9534826 0.2003468 0.0465174 -0.2003468
3607000000 0.0458373 -0.1987553 0.9541627 0.1987553 0.9541627 0.1987553 0.0458373 -0.1987553
3628000000 0.0451689 -0.1971755 0.9548311 0.1971755 0.9548311 0.1971755 0.0451689 -0.1971755
3649000000 0.0445118 -0.1956071 0.9554882 0.1956071 0.9554882 0.1956071 0.0445118 -0.1956071
3670000000 0.0438660 -0.1940501 0.9561340 0.1940501 0.9561340 0.1940501 0.0438660 -0.1940501
3691000000 0.0432310 -0.1925043 0.9567690 0.1925043 0.9567690 0.1925043 0.0432310 -0.1925043
3712000000 0.0426069 -0.1909695 0.9573931 0.1909695 0.9573931 0.1909695 0.0426069 -0.1909695
3733000000 0.0419932 -0.1894457 0.9580068 0.1894457 0.9580068 0.1894457 0.0419932 -0.1894457
3754000000 0.0413899 -0.1879326 0.9586101 0.1879326 0.9586101 0.1879326 0.0413899 -0.1879326
3775000000 0.0407967 -0.1864301 0.9592033 0.1864301 0.9592033 0.1864301 0.0407967 -0.1864301
3796000000 0.0402133 -0.1849381 0.9597867 0.1849381 0.9597867 0.1849381 0.0402133 -0.1849381
3817000000 0.0396398 -0.1834566 0.9603602 0.1834566 0.9603602 0.1834566 0.0396398 -0.1834566
3838000000 0.0390757 -0.1819852 0.9609243 0.1819852 0.9609243 0.1819852 0.0390757 -0.1819852
3859000000 0.0385210 -0.1805239 0.9614790 0.1805239 0.9614790 0.1805239 0.0385210 -0.1805239
3880000000 0.0379755 -0.1790726 0.9620245 0.1790726 0.9620245 0.1790726 0.0379755 -0.1790726
3901000000 0.0374389 -0.1776311 0.9625611 0.1776311 0.9625611 0.1776311 0.0374389 -0.1776311
3922000000 0.0369112 -0.1761994 0.9630888 0.1761994 0.9630888 0.1761994 0.0369112 -0.1761994
3943000000 0.0363922 -0.1747772 0.9636078 0.1747772 0.9636078 0.1747772 0.0363922 -0.1747772
3964000000 0.0358817 -0.1733645 0.9641183 0.1733645 0.9641183 0.1733645 0.0358817 -0.1733645
3985000000 0.0353795 -0.1719612 0.9646205 0.1719612 0.9646205 0.1719612 0.0353795 -0.1719612
4006000000 0.0348854 -0.1705670 0.9651146 0.1705670 0.9651146 0.1705670 0.0348854 -0.1705670
4027000000 0.0343995 -0.1691820 0.9656005 0.1691820 0.9656005 0.1691820 0.0343995 -0.1691820
4048000000 0.0339214 -0.1678059 0.9660786 0.1678059 0.9660786 0.1678059 0.0339214 -0.1678059
4069000000 0.0334510 -0.1664388 0.9665490 0.1664388 0.9665490 0.1664388 0.0334510 -0.1664388
4090000000 0.0329883 -0.1650803 0.9670117 0.1650803 0.9670117 0.1650803 0.0329883 -0.1650803
4111000000 0.0325330 -0.1637305 0.9674670 0.1637305 0.9674670 0.1637305 0.0325330 -0.1637305
4132000000 0.0320850 -0.1623893 0.9679150 0.1623893 0.9679150 0.1623893 0.0320850 -0.1623893
4153000000 0.0316443 -0.1610564 0.9683557 0.1610564 0.9683557 0.1610564 0.0316443 -0.1610564
4174000000 0.0312106 -0.1597319 0.9687894 0.1597319 0.9687894 0.1597319 0.0312106 -0.1597319
4195000000 0.0307839 -0.1584156 0.9692161 0.1584156 0.9692161 0.1584156 0.0307839 -0.1584156
4216000000 0.0303640 -0.1571073 0.9696360 0.1571073 0.9696360 0.1571073 0.0303640 -0.1571073
4237000000 0.0299508 -0.1558071 0.9700492 0.1558071 0.9700492 0.1558071 0.0299508 -0.1558071
4258000000 0.0295442 -0.1545147 0.9704558 0.1545147 0.9704558 0.1545147 0.0295442 -0.1545147
4279000000 0.0291440 -0.1532301 0.9708560 0.1532301 0.9708560 0.1532301 0.0291440 -0.1532301
4300000000 0.0287502 -0.1519532 0.9712498 0.1519532 0.9712498 0.1519532 0.0287502 -0.1519532
4321000000 0.0283627 -0.1506839 0.9716373 0.1506839 0.9716373 0.1506839 0.0283627 -0.1506839
4342000000 0.0279813 -0.1494220 0.9720187 0.1494220 0.9720187 0.1494220 0.0279813 -0.1494220
4363000000 0.0276060 -0.1481676 0.9723940 0.1481676 0.9723940 0.1481676 0.0276060 -0.1481676
4384000000 0.0272366 -0.1469204 0.9727634 0.1469204 0.9727634 0.1469204 0.0272366 -0.1469204
4405000000 0.0268731 -0.1456804 0.9731269 0.1456804 0.9731269 0.1456804 0.0268731 -0.1456804
4426000000 0.0265152 -0.1444475 0.9734848 0.1444475 0.9734848 0.1444475 0.0265152 -0.1444475
4447000000 0.0261631 -0.1432216 0.9738369 0.1432216 0.9738369 0.1432216 0.0261631 -0.1432216
4468000000 0.0258165 -0.1420027 0.9741835 0.1420027 0.9741835 0.1420027 0.0258165 -0.1420027
4489000000 0.0254754 -0.1407905 0.9745246 0.1407905 0.9745246 0.1407905 0.0254754 -0.1407905
4510000000 0.0251396 -0.1395851 0.9748604 0.1395851 0.9748604 0.1395851 0.0251396 -0.1395851
