! This data is being provided by Wuerth Elektronik eiSos GmbH & Co. KG to the industry for analysis.
!
! Document information:
! Version:rev19a Date: 16/12/2019
!
! Component information:
! Match Code: WE-CNSW P/N: 744235900 Size: 1812
!------------------------------------------------------------------------------------------------------------------
! Disclaimer:  While Würth Elektronik eiSos has made every reasonable effort to ensure the accuracy
! of the information provided, Würth Elektronik eiSos does not guarantee the exemption of error on the
! data collection measurements, nor does Würth Elektronik eiSos guarantee that the information is current.
! Würth Elektronik eiSos reserves the right to make any adjustments at any time without notice.
! Würth Elektronik eiSos expressly disclaims all implied warranties regarding this measurement data collection.
!
! Note 1 – This data measurement is representative according to the product implementation into the fixture.
! Component behavior is sensitive to implementation into the fixture, which includes board
! materials, trace geometry information, connector pin out, layer connection, use of de-embedding
! techniques, etc.
!
! Note 2 - The fixture was designed specifically to match the 50 Ohm line impedance, as well as the connector impedance,
! in order to accomplish a reliable measurement without reflections in the trace. Any other implementation of the fixture will change the obtained
! measurement performance. The used fixture behavior was de-embedded to accomplish reliable measurement results.
!
!------------------------------------------------------------------------------------------------------------------
!
! The test setup consisted of the following:
!   - Agilent VNA E5071C or E5071B
!   - Calibrations are SOLT (short open load thru)
!   - De-embedding of the SMA's or line cards were included
!   - Equipment Settings -
!            - Sampling - 501 points
!            - IF BW – 70 kHz
!            - Averaging – Not used
!
!
!
!             Port 1----->|1|        |2| -----> Port 3
!                            |   DUT  |
!             Port 2----->|3|        |4| -----> Port 4
!
!
!*VNA Port --> |Port in Datasheet|
! |Port in Datasheet| --> VNA Port
!
!
! For further information regarding this testing, please contact
! Wuerth Elektronik eiSos
! Contact: EDA team in QDC
! Email: libraries@we-online.com or libraries@we-online.de
!
!
# Hz S dB R 50
300000	-4.168668e+001	6.757663e+001	-6.943137e-002	-4.713380e-002	-5.149414e+001	8.875298e+001	-5.384419e+001	-9.484163e+001
	-2.893224e-002	-4.058378e-001	-4.646220e+001	5.941868e+001	-4.893410e+001	-1.063323e+002	-4.872027e+001	9.091767e+001
	-5.030143e+001	8.737228e+001	-4.976531e+001	-1.023881e+002	-4.048866e+001	1.245189e+002	-2.364275e-003	-1.508320e-001
	-5.102868e+001	-9.029713e+001	-5.185755e+001	8.589002e+001	1.409736e-002	-1.837209e-001	-4.740448e+001	9.336477e+001
307335	-4.327068e+001	6.534943e+001	-3.783185e-002	-9.408922e-002	-4.776183e+001	9.389142e+001	-5.296507e+001	-8.895419e+001
	-5.410693e-002	-9.157242e-002	-4.499659e+001	6.037879e+001	-5.404977e+001	-9.635743e+001	-5.277325e+001	7.340804e+001
	-4.923364e+001	7.737989e+001	-4.934389e+001	-7.060443e+001	-4.120566e+001	1.113747e+002	-2.966327e-002	-2.628085e-001
	-5.261584e+001	-8.164991e+001	-5.145407e+001	9.164909e+001	8.451038e-003	-2.064329e-001	-4.956388e+001	1.092065e+002
314670	-4.319198e+001	6.992440e+001	-4.474950e-002	-8.135382e-002	-4.733597e+001	8.558815e+001	-5.401062e+001	-7.344332e+001
	-4.709145e-002	-1.898286e-001	-4.672659e+001	3.218340e+001	-6.068950e+001	-9.337598e+001	-4.986888e+001	7.838905e+001
	-4.856653e+001	8.101650e+001	-4.933689e+001	-1.021498e+002	-4.417916e+001	1.219463e+002	-2.547530e-002	3.992663e-002
	-4.995605e+001	-7.934465e+001	-4.888592e+001	8.858711e+001	-1.339629e-003	-1.890371e-001	-4.919806e+001	9.452887e+001
322004	-4.765457e+001	3.845710e+001	-7.446362e-002	-2.043050e-001	-5.087108e+001	7.917657e+001	-4.939161e+001	-9.573768e+001
	-7.231824e-002	-1.636356e-001	-4.713132e+001	4.437528e+001	-4.866020e+001	-9.912340e+001	-4.736988e+001	7.519293e+001
	-5.432013e+001	8.234014e+001	-5.331880e+001	-1.009549e+002	-4.325419e+001	1.134848e+002	9.283945e-003	-2.997605e-001
	-4.960904e+001	-7.660571e+001	-5.102240e+001	7.208322e+001	-1.787070e-002	-2.055200e-001	-4.630633e+001	1.298537e+002
329339	-4.519955e+001	2.261546e+001	-4.860992e-002	-4.668124e-002	-5.015398e+001	8.481553e+001	-4.856219e+001	-7.166655e+001
	-5.586921e-002	-1.128886e-001	-4.747294e+001	1.510809e+001	-4.864698e+001	-8.930224e+001	-4.798967e+001	1.099976e+002
	-5.001476e+001	9.159211e+001	-4.744288e+001	-9.458006e+001	-5.000455e+001	1.283012e+002	-5.920675e-003	-1.243909e-002
	-5.078907e+001	-9.276099e+001	-5.120285e+001	8.722132e+001	-2.106250e-002	-1.442366e-002	-4.717957e+001	1.607386e+002
336674	-4.201313e+001	6.180710e+001	-5.182193e-002	-1.459045e-001	-4.741403e+001	1.111470e+002	-5.114006e+001	-9.173267e+001
	-5.215050e-002	-1.727181e-001	-4.288653e+001	5.734751e+001	-4.855275e+001	-8.085408e+001	-4.613171e+001	8.859868e+001
	-5.256771e+001	5.629168e+001	-4.883949e+001	-9.211640e+001	-4.827937e+001	1.107084e+002	-2.366910e-002	-1.411330e-001
	-4.701133e+001	-8.823483e+001	-4.850468e+001	8.757985e+001	-1.954199e-002	-1.270675e-001	-4.763168e+001	1.269388e+002
344009	-4.167868e+001	6.470585e+001	-4.882133e-002	-1.690810e-001	-5.069259e+001	1.013900e+002	-5.193257e+001	-1.038393e+002
	-4.003106e-002	-3.914812e-001	-4.492269e+001	6.073274e+001	-4.732404e+001	-9.198490e+001	-4.863977e+001	8.850264e+001
	-4.765385e+001	9.120182e+001	-4.876032e+001	-9.473686e+001	-4.112058e+001	1.121240e+002	-2.765031e-002	-7.254045e-002
	-5.137126e+001	-9.884284e+001	-4.989759e+001	9.362618e+001	-2.630715e-002	-3.214812e-001	-4.552091e+001	1.105649e+002
351344	-4.402988e+001	6.397172e+001	-2.040766e-002	-2.918557e-001	-5.049269e+001	9.502357e+001	-4.884372e+001	-9.726759e+001
	-2.704150e-002	-3.160519e-001	-4.323418e+001	6.280821e+001	-4.775313e+001	-8.749770e+001	-4.863887e+001	8.710418e+001
	-4.863710e+001	8.795700e+001	-4.765417e+001	-9.112167e+001	-4.285756e+001	1.335291e+002	1.174781e-002	-1.907736e-001
	-4.650649e+001	-9.772204e+001	-4.800301e+001	8.681567e+001	-6.576702e-003	-2.353446e-001	-4.486180e+001	1.369201e+002
358679	-4.272445e+001	5.150368e+001	-3.642829e-002	-1.422061e-001	-4.836486e+001	8.250068e+001	-4.768928e+001	-1.004468e+002
	-4.046564e-002	-2.146854e-001	-5.098451e+001	8.975955e+001	-4.870834e+001	-8.990780e+001	-4.857391e+001	9.068275e+001
	-4.921273e+001	8.473210e+001	-4.683900e+001	-9.175607e+001	-4.405761e+001	1.120214e+002	-9.398518e-003	-2.071292e-001
	-4.922965e+001	-8.401473e+001	-4.970863e+001	9.418114e+001	-2.871953e-003	-2.929902e-001	-4.509755e+001	1.479618e+002
366013	-5.082809e+001	5.408923e+001	-4.539239e-003	-2.312178e-001	-4.997157e+001	7.021297e+001	-5.025019e+001	-8.871075e+001
	-3.147903e-002	-1.979289e-001	-4.488952e+001	7.557190e+001	-4.738596e+001	-9.360611e+001	-5.089179e+001	1.116669e+002
	-4.722201e+001	1.017780e+002	-5.081201e+001	-9.331286e+001	-4.105820e+001	1.235984e+002	-1.556257e-002	-1.970499e-001
	-4.792222e+001	-8.733156e+001	-4.877645e+001	8.929835e+001	-5.850799e-004	-3.286725e-001	-4.661867e+001	1.356967e+002
373348	-4.436756e+001	4.662337e+001	-4.882719e-002	-1.557866e-001	-4.704898e+001	9.587732e+001	-4.995429e+001	-8.583624e+001
	-2.489905e-002	-1.778775e-001	-4.381814e+001	5.264512e+001	-4.708690e+001	-9.083818e+001	-4.841644e+001	8.802671e+001
	-5.153020e+001	9.858447e+001	-4.961072e+001	-7.625321e+001	-4.235700e+001	1.054329e+002	-1.860893e-003	-1.793153e-001
	-4.687206e+001	-9.116641e+001	-4.811859e+001	8.818497e+001	-1.659365e-002	-1.457362e-001	-4.836523e+001	1.476507e+002
380683	-4.299390e+001	5.700574e+001	-4.279442e-002	-1.548942e-001	-4.985568e+001	8.273955e+001	-4.657978e+001	-8.628608e+001
	-3.181934e-002	-1.996002e-001	-4.486628e+001	3.819138e+001	-4.777070e+001	-9.523925e+001	-4.815691e+001	9.711878e+001
	-4.918129e+001	1.050370e+002	-5.152231e+001	-8.018780e+001	-4.242329e+001	1.202952e+002	-2.367575e-002	-2.012268e-001
	-4.699358e+001	-8.857050e+001	-4.983966e+001	1.001303e+002	1.165234e-002	-1.756741e-001	-4.627919e+001	1.002930e+002
388018	-4.286989e+001	6.798024e+001	-2.797481e-002	-7.510821e-002	-5.030037e+001	8.640806e+001	-4.903011e+001	-8.999357e+001
	-3.690677e-002	-2.969429e-001	-4.507451e+001	7.397294e+001	-4.890215e+001	-8.887617e+001	-4.685480e+001	8.077915e+001
	-4.630658e+001	7.336810e+001	-4.685854e+001	-8.854388e+001	-4.276708e+001	1.078732e+002	-6.608107e-003	-1.562228e-001
	-4.816240e+001	-1.060498e+002	-4.726601e+001	7.507459e+001	1.684696e-002	-1.961562e-001	-4.422017e+001	1.298109e+002
395353	-4.737299e+001	3.995307e+001	-3.766905e-002	-3.421922e-001	-5.013793e+001	8.817084e+001	-4.811157e+001	-1.038282e+002
	-3.808224e-002	-1.736834e-001	-4.370256e+001	6.842576e+001	-4.855917e+001	-9.785779e+001	-4.837445e+001	7.364316e+001
	-4.933670e+001	1.018359e+002	-4.778791e+001	-9.006042e+001	-4.186332e+001	1.121311e+002	-5.175662e-003	-5.638702e-002
	-5.205078e+001	-9.372082e+001	-4.932823e+001	7.789813e+001	4.927437e-003	-3.273969e-001	-4.356195e+001	1.362045e+002
402688	-4.367455e+001	7.620356e+001	-3.017185e-002	-1.713078e-001	-4.688300e+001	7.836512e+001	-5.133416e+001	-8.765613e+001
	-2.538373e-002	-1.665649e-001	-4.325260e+001	5.602659e+001	-4.811576e+001	-8.933194e+001	-4.809722e+001	8.082788e+001
	-4.732578e+001	8.353515e+001	-4.673365e+001	-8.846236e+001	-4.568925e+001	1.136765e+002	1.011224e-002	-1.048952e-001
	-4.740438e+001	-8.552183e+001	-4.889739e+001	1.029836e+002	3.585210e-003	-2.690699e-001	-4.491426e+001	1.231153e+002
410022	-4.288453e+001	6.484719e+001	-5.182981e-002	-2.069017e-001	-4.858747e+001	7.307596e+001	-4.860943e+001	-9.959079e+001
	-4.482716e-002	-3.067170e-001	-4.529265e+001	3.089139e+001	-4.717529e+001	-9.027496e+001	-4.714300e+001	8.683766e+001
	-4.753406e+001	1.052892e+002	-4.903692e+001	-8.945803e+001	-4.283832e+001	9.749619e+001	9.935731e-003	-1.524797e-001
	-4.887737e+001	-9.767167e+001	-4.746486e+001	8.424101e+001	3.080171e-003	-2.307780e-001	-4.447788e+001	1.181855e+002
418652	-4.319303e+001	6.105129e+001	-5.118474e-002	-2.016537e-001	-4.678956e+001	9.770748e+001	-4.849655e+001	-8.602132e+001
	-4.652262e-002	-1.980502e-001	-4.419774e+001	3.577973e+001	-4.939652e+001	-8.316392e+001	-4.797321e+001	1.047792e+002
	-4.546926e+001	7.370238e+001	-4.621314e+001	-9.622545e+001	-4.259501e+001	9.921300e+001	8.432725e-003	-8.696744e-002
	-4.721344e+001	-8.676025e+001	-4.503779e+001	9.246811e+001	4.202033e-003	-3.453951e-001	-4.531983e+001	1.117000e+002
428777	-4.316162e+001	7.530005e+001	-3.758845e-002	-2.211279e-001	-4.680554e+001	9.480720e+001	-4.539617e+001	-8.286838e+001
	-3.064106e-002	-2.808533e-001	-4.983129e+001	5.624208e+001	-4.611144e+001	-7.940759e+001	-4.831431e+001	7.645287e+001
	-4.613818e+001	9.442747e+001	-4.691848e+001	-9.731469e+001	-4.390892e+001	1.033730e+002	-1.101350e-002	-3.307568e-001
	-4.878123e+001	-8.916467e+001	-4.814332e+001	9.051262e+001	1.012727e-002	-2.068438e-001	-4.543420e+001	8.048619e+001
438901	-4.208455e+001	4.841088e+001	-2.707887e-002	-8.117587e-002	-4.792650e+001	8.306887e+001	-4.924521e+001	-8.525830e+001
	-3.156840e-002	-2.393491e-001	-4.241938e+001	4.478830e+001	-4.635155e+001	-9.188548e+001	-4.862808e+001	1.040414e+002
	-4.797571e+001	9.887173e+001	-4.836468e+001	-8.607184e+001	-4.204741e+001	1.304741e+002	-5.835366e-004	-2.213692e-001
	-4.671198e+001	-9.043525e+001	-4.680450e+001	8.604195e+001	-1.220546e-002	-3.188321e-001	-4.591655e+001	1.246702e+002
449026	-4.274165e+001	5.120647e+001	-4.392589e-002	-3.592410e-001	-4.603179e+001	8.557025e+001	-4.463477e+001	-1.015713e+002
	-3.740142e-002	-1.009342e-001	-4.512310e+001	3.510033e+001	-4.683233e+001	-9.833094e+001	-4.634303e+001	1.028045e+002
	-4.530336e+001	9.387569e+001	-4.721414e+001	-9.789350e+001	-4.162645e+001	1.094613e+002	4.568597e-003	-2.322280e-001
	-4.671432e+001	-9.865147e+001	-4.930375e+001	9.765897e+001	-1.226355e-002	-2.099357e-001	-4.255177e+001	1.071542e+002
459150	-4.439659e+001	7.527648e+001	-1.547225e-002	-2.813609e-001	-4.561160e+001	8.190687e+001	-4.559260e+001	-8.765639e+001
	-2.307870e-002	-3.032404e-001	-4.309002e+001	8.200407e+001	-4.813289e+001	-8.973982e+001	-4.924644e+001	9.552527e+001
	-4.738115e+001	9.283077e+001	-4.854469e+001	-8.970406e+001	-4.286798e+001	1.020166e+002	-2.262898e-002	-2.051765e-001
	-4.487651e+001	-9.143013e+001	-4.739344e+001	8.876205e+001	8.995157e-003	-2.462254e-001	-5.129501e+001	1.334905e+002
469275	-4.259509e+001	4.010006e+001	-3.311290e-002	-1.842902e-001	-4.740315e+001	8.069438e+001	-4.739548e+001	-9.386689e+001
	-2.443250e-002	-1.028519e-001	-4.814009e+001	4.136859e+001	-4.858255e+001	-9.974414e+001	-4.584243e+001	8.437482e+001
	-4.971176e+001	1.028058e+002	-4.561306e+001	-8.241245e+001	-4.668209e+001	9.057743e+001	-1.765135e-002	-2.767192e-001
	-4.672207e+001	-8.625290e+001	-4.592445e+001	8.118837e+001	1.785751e-002	-2.865814e-001	-5.161683e+001	1.115062e+002
479399	-4.371365e+001	4.583922e+001	-4.228592e-002	-2.830527e-001	-4.827827e+001	9.602949e+001	-4.561134e+001	-9.122582e+001
	-3.962093e-002	-3.049694e-001	-4.684403e+001	3.469771e+001	-4.750462e+001	-8.404064e+001	-4.899822e+001	9.470156e+001
	-5.023671e+001	9.365905e+001	-4.571397e+001	-8.407808e+001	-4.063899e+001	1.063991e+002	1.295632e-002	-1.869461e-001
	-4.717868e+001	-9.210168e+001	-4.547210e+001	9.633064e+001	6.673644e-003	-2.457613e-001	-4.742720e+001	1.261056e+002
489523	-4.396107e+001	4.230212e+001	-1.296107e-002	-1.919941e-001	-4.699254e+001	8.188206e+001	-4.975407e+001	-1.174437e+002
	-3.051017e-002	-2.249274e-001	-4.793432e+001	5.851663e+001	-4.682447e+001	-9.825894e+001	-4.615220e+001	9.869318e+001
	-4.597347e+001	8.987571e+001	-4.728259e+001	-8.236861e+001	-4.306804e+001	8.855033e+001	-7.182035e-003	-2.612769e-001
	-4.619790e+001	-9.364779e+001	-4.523505e+001	1.030126e+002	3.934361e-004	-2.979647e-001	-4.625835e+001	8.266824e+001
499648	-4.224706e+001	5.121256e+001	-4.596567e-002	-3.186290e-001	-4.527894e+001	8.431167e+001	-4.703926e+001	-9.345556e+001
	-2.848447e-002	-2.718920e-001	-3.975816e+001	4.670258e+001	-4.731272e+001	-9.465357e+001	-4.590668e+001	9.108827e+001
	-4.673845e+001	8.653440e+001	-4.561082e+001	-8.076837e+001	-4.711423e+001	9.900978e+001	-4.712934e-003	-1.328393e-001
	-4.681113e+001	-9.306030e+001	-4.582394e+001	8.284463e+001	3.892986e-003	-1.154755e-001	-4.773281e+001	1.094787e+002
509772	-4.370723e+001	4.617835e+001	-4.545389e-002	-7.262209e-002	-4.616881e+001	8.712343e+001	-4.739814e+001	-9.384715e+001
	-3.721070e-002	-2.204068e-001	-4.426654e+001	4.082644e+001	-4.785949e+001	-8.241960e+001	-4.722640e+001	8.163272e+001
	-4.690086e+001	7.279287e+001	-4.528978e+001	-8.856473e+001	-4.364559e+001	7.057829e+001	-9.622821e-003	-3.080203e-001
	-4.693990e+001	-9.102721e+001	-4.576009e+001	9.548141e+001	-1.875521e-002	-1.913417e-001	-5.111911e+001	1.061444e+002
519897	-4.247895e+001	3.888399e+001	-1.412592e-002	-2.209322e-001	-4.441813e+001	8.757580e+001	-4.678036e+001	-9.060226e+001
	-2.135298e-002	-2.074047e-001	-4.610395e+001	4.963747e+001	-4.811774e+001	-9.201357e+001	-4.729664e+001	9.237800e+001
	-4.715731e+001	8.054980e+001	-4.401306e+001	-9.345242e+001	-4.404567e+001	9.409760e+001	-8.731095e-003	-2.885692e-001
	-4.544651e+001	-9.862538e+001	-4.607971e+001	9.261311e+001	1.103620e-002	-3.445046e-001	-4.553180e+001	9.871297e+001
530021	-4.246930e+001	6.794940e+001	-3.556858e-002	-2.347191e-001	-4.531825e+001	9.768773e+001	-4.783102e+001	-8.919074e+001
	-3.566041e-002	-4.176035e-001	-4.407326e+001	4.536825e+001	-4.686997e+001	-1.016006e+002	-4.509383e+001	9.766095e+001
	-4.450411e+001	8.932858e+001	-4.643871e+001	-8.211053e+001	-4.351928e+001	8.400379e+001	-1.211719e-002	-1.664728e-001
	-4.620752e+001	-9.835566e+001	-4.276356e+001	8.813975e+001	-1.686979e-002	-2.951322e-001	-4.476593e+001	1.007642e+002
540146	-4.395745e+001	6.172702e+001	-4.327604e-002	-2.973067e-001	-4.649282e+001	8.449229e+001	-4.634516e+001	-8.806471e+001
	-2.791855e-002	-2.257278e-001	-4.305858e+001	4.030578e+001	-4.554468e+001	-8.820498e+001	-4.436589e+001	8.176910e+001
	-4.568087e+001	8.868920e+001	-4.645572e+001	-7.986534e+001	-4.442428e+001	1.115494e+002	-1.520648e-003	-2.440529e-001
	-4.646173e+001	-9.498371e+001	-4.515788e+001	8.482094e+001	2.366168e-003	-1.469483e-001	-4.644502e+001	8.671554e+001
550270	-4.134828e+001	4.179499e+001	-2.437444e-002	-4.257584e-001	-4.613775e+001	8.712006e+001	-4.619649e+001	-9.416747e+001
	-3.274758e-002	-3.164432e-001	-4.307819e+001	5.228596e+001	-4.540005e+001	-9.258050e+001	-4.790043e+001	8.057984e+001
	-4.642501e+001	9.591173e+001	-4.530382e+001	-9.278552e+001	-4.398429e+001	8.207726e+001	1.318081e-002	-1.750776e-001
	-4.562851e+001	-9.836063e+001	-4.572900e+001	9.051257e+001	3.310676e-003	-3.025495e-001	-4.412061e+001	1.083062e+002
560395	-4.129213e+001	3.968508e+001	-4.360714e-002	-3.472070e-001	-4.441726e+001	1.025517e+002	-4.650567e+001	-1.076257e+002
	-3.134388e-002	-4.312109e-001	-4.202432e+001	5.828375e+001	-4.740478e+001	-1.094634e+002	-4.393872e+001	9.316255e+001
	-4.428301e+001	8.433143e+001	-4.483588e+001	-9.023630e+001	-4.097281e+001	1.081372e+002	6.581238e-003	-1.922115e-001
	-4.718964e+001	-9.172547e+001	-4.450750e+001	8.716341e+001	1.430987e-003	-2.919913e-001	-4.268527e+001	1.082649e+002
572189	-4.288216e+001	4.305747e+001	-1.174499e-002	-2.213233e-001	-4.597163e+001	8.567043e+001	-4.489001e+001	-8.924290e+001
	-3.403099e-002	-2.640018e-001	-4.017878e+001	5.526999e+001	-4.760260e+001	-8.581086e+001	-4.481604e+001	8.473819e+001
	-4.659420e+001	9.543258e+001	-4.410237e+001	-9.815256e+001	-4.419571e+001	1.103894e+002	-7.121646e-003	-2.929574e-001
	-4.645784e+001	-9.047861e+001	-4.536606e+001	9.029205e+001	4.217147e-004	-2.160598e-001	-4.353094e+001	8.799814e+001
586179	-4.127756e+001	5.188598e+001	-2.167634e-002	-3.047661e-001	-4.529974e+001	8.991743e+001	-4.426654e+001	-8.684278e+001
	-5.163762e-002	-3.181061e-001	-4.100903e+001	5.234880e+001	-4.451043e+001	-9.234233e+001	-4.366805e+001	7.494383e+001
	-4.504014e+001	9.217284e+001	-4.405564e+001	-9.245746e+001	-4.334845e+001	1.042052e+002	-2.134926e-002	-4.029879e-001
	-4.411730e+001	-8.544992e+001	-4.507699e+001	8.990977e+001	-6.572956e-003	-2.841850e-001	-4.394324e+001	9.643619e+001
600169	-4.334817e+001	6.943256e+001	-1.813855e-002	-1.789820e-001	-4.510628e+001	8.858460e+001	-4.379271e+001	-8.750850e+001
	-2.219537e-002	-3.340294e-001	-4.333289e+001	5.830207e+001	-4.343534e+001	-9.304981e+001	-4.415164e+001	9.264064e+001
	-4.379920e+001	9.071899e+001	-4.494067e+001	-8.129907e+001	-4.535063e+001	9.042583e+001	-3.932904e-003	-3.193390e-001
	-4.500469e+001	-9.140018e+001	-4.333698e+001	9.192230e+001	-1.485855e-002	-2.456037e-001	-4.780572e+001	9.723090e+001
614158	-4.091947e+001	3.392682e+001	-4.675930e-002	-2.667132e-001	-4.448480e+001	8.016726e+001	-4.479300e+001	-8.825879e+001
	-4.594585e-002	-2.754041e-001	-4.397596e+001	4.276082e+001	-4.484051e+001	-9.481768e+001	-4.529514e+001	8.385792e+001
	-4.445253e+001	9.467930e+001	-4.406589e+001	-8.712875e+001	-4.189481e+001	9.686879e+001	8.757943e-003	-3.032225e-001
	-4.603225e+001	-8.887744e+001	-4.459047e+001	8.802564e+001	2.061807e-002	-3.789590e-001	-4.390244e+001	9.105982e+001
628148	-4.626556e+001	4.831140e+001	-4.756086e-002	-3.402871e-001	-4.398298e+001	7.628869e+001	-4.628813e+001	-9.739964e+001
	-4.051804e-002	-3.042788e-001	-4.286377e+001	5.175477e+001	-4.377840e+001	-8.150490e+001	-4.396296e+001	7.922617e+001
	-4.395404e+001	9.357835e+001	-4.428143e+001	-9.303925e+001	-5.010245e+001	1.048692e+002	1.977615e-002	-3.084495e-001
	-4.457023e+001	-9.044140e+001	-4.395284e+001	8.218231e+001	-5.923129e-003	-2.896582e-001	-4.118573e+001	1.193897e+002
642138	-4.228729e+001	3.722087e+001	-3.351258e-002	-2.192698e-001	-4.341784e+001	8.129514e+001	-4.366055e+001	-8.618060e+001
