! This data is being provided by Wuerth Elektronik eiSos GmbH & Co. KG to the industry for analysis.
!
! Document information:
! Version:rev19a Date: 16/12/2019
!
! Component information:
! Match Code: WE-CNSW P/N: 744235110 Size: 1812
!------------------------------------------------------------------------------------------------------------------
! Disclaimer:  While Würth Elektronik eiSos has made every reasonable effort to ensure the accuracy
! of the information provided, Würth Elektronik eiSos does not guarantee the exemption of error on the
! data collection measurements, nor does Würth Elektronik eiSos guarantee that the information is current.
! Würth Elektronik eiSos reserves the right to make any adjustments at any time without notice.
! Würth Elektronik eiSos expressly disclaims all implied warranties regarding this measurement data collection.
!
! Note 1 – This data measurement is representative according to the product implementation into the fixture.
! Component behavior is sensitive to implementation into the fixture, which includes board
! materials, trace geometry information, connector pin out, layer connection, use of de-embedding
! techniques, etc.
!
! Note 2 - The fixture was designed specifically to match the 50 Ohm line impedance, as well as the connector impedance,
! in order to accomplish a reliable measurement without reflections in the trace. Any other implementation of the fixture will change the obtained
! measurement performance. The used fixture behavior was de-embedded to accomplish reliable measurement results.
!
!------------------------------------------------------------------------------------------------------------------
!
! The test setup consisted of the following:
!   - Agilent VNA E5071C or E5071B
!   - Calibrations are SOLT (short open load thru)
!   - De-embedding of the SMA's or line cards were included
!   - Equipment Settings -
!            - Sampling - 501 points
!            - IF BW – 70 kHz
!            - Averaging – Not used
!
!
!
!             Port 1----->|1|        |2| -----> Port 3
!                            |   DUT  |
!             Port 2----->|3|        |4| -----> Port 4
!
!
!*VNA Port --> |Port in Datasheet|
! |Port in Datasheet| --> VNA Port
!
!
! For further information regarding this testing, please contact
! Wuerth Elektronik eiSos
! Contact: EDA team in QDC
! Email: libraries@we-online.com or libraries@we-online.de
!
!
# Hz S dB R 50
300000	-1.361127e+001	6.352650e+001	-6.779347e-001	-1.130060e+001	-1.377290e+001	6.537228e+001	-1.389688e+001	-1.146979e+002
	-6.866725e-001	-1.159378e+001	-1.376502e+001	6.421439e+001	-1.391054e+001	-1.149137e+002	-1.386137e+001	6.553427e+001
	-1.383794e+001	6.484691e+001	-1.383705e+001	-1.147526e+002	-1.358804e+001	6.577312e+001	-6.585975e-001	-1.147214e+001
	-1.390299e+001	-1.153683e+002	-1.380783e+001	6.592150e+001	-6.359951e-001	-1.155308e+001	-1.382393e+001	6.424879e+001
307335	-1.349815e+001	6.340127e+001	-6.838840e-001	-1.159068e+001	-1.354368e+001	6.466005e+001	-1.374649e+001	-1.153982e+002
	-7.127411e-001	-1.149702e+001	-1.354593e+001	6.318443e+001	-1.368228e+001	-1.156354e+002	-1.371746e+001	6.491407e+001
	-1.367831e+001	6.470037e+001	-1.370641e+001	-1.155757e+002	-1.334780e+001	6.500175e+001	-6.860943e-001	-1.175246e+001
	-1.377564e+001	-1.150706e+002	-1.373397e+001	6.489140e+001	-6.550646e-001	-1.182837e+001	-1.357946e+001	6.398201e+001
314670	-1.335598e+001	6.289094e+001	-7.129265e-001	-1.179905e+001	-1.346394e+001	6.425296e+001	-1.353280e+001	-1.153815e+002
	-7.370490e-001	-1.186240e+001	-1.348767e+001	6.282495e+001	-1.356949e+001	-1.156998e+002	-1.352486e+001	6.472069e+001
	-1.348779e+001	6.479555e+001	-1.356031e+001	-1.152732e+002	-1.334824e+001	6.383889e+001	-7.084748e-001	-1.185831e+001
	-1.354726e+001	-1.157993e+002	-1.355741e+001	6.448204e+001	-7.037166e-001	-1.188960e+001	-1.345609e+001	6.360474e+001
322004	-1.331845e+001	6.220945e+001	-7.795427e-001	-1.211200e+001	-1.331823e+001	6.388825e+001	-1.333699e+001	-1.161366e+002
	-7.657215e-001	-1.201550e+001	-1.331838e+001	6.253810e+001	-1.335540e+001	-1.160466e+002	-1.325117e+001	6.403663e+001
	-1.338951e+001	6.405658e+001	-1.344762e+001	-1.161809e+002	-1.311375e+001	6.341495e+001	-7.148463e-001	-1.251742e+001
	-1.348033e+001	-1.160352e+002	-1.335709e+001	6.413984e+001	-7.226218e-001	-1.222951e+001	-1.320131e+001	6.328845e+001
329339	-1.313820e+001	6.159506e+001	-7.637090e-001	-1.215006e+001	-1.318196e+001	6.381687e+001	-1.317068e+001	-1.163988e+002
	-7.771218e-001	-1.232002e+001	-1.318179e+001	6.160701e+001	-1.320689e+001	-1.161445e+002	-1.311828e+001	6.392508e+001
	-1.324204e+001	6.356967e+001	-1.322954e+001	-1.163889e+002	-1.310465e+001	6.259654e+001	-7.343211e-001	-1.248073e+001
	-1.322371e+001	-1.169048e+002	-1.318064e+001	6.372655e+001	-7.575949e-001	-1.237523e+001	-1.313639e+001	6.321028e+001
336674	-1.286027e+001	6.139429e+001	-8.047808e-001	-1.238937e+001	-1.300346e+001	6.320509e+001	-1.300788e+001	-1.171551e+002
	-8.022875e-001	-1.246332e+001	-1.294653e+001	6.144848e+001	-1.307644e+001	-1.171940e+002	-1.299266e+001	6.326535e+001
	-1.307252e+001	6.237372e+001	-1.309669e+001	-1.167667e+002	-1.289340e+001	6.238815e+001	-7.754224e-001	-1.270309e+001
	-1.308397e+001	-1.176824e+002	-1.304957e+001	6.317898e+001	-7.633915e-001	-1.262283e+001	-1.294384e+001	6.259469e+001
344009	-1.266816e+001	6.068343e+001	-8.287506e-001	-1.265744e+001	-1.289585e+001	6.228663e+001	-1.292433e+001	-1.175932e+002
	-8.319130e-001	-1.294823e+001	-1.275394e+001	6.084142e+001	-1.289374e+001	-1.174134e+002	-1.293336e+001	6.258183e+001
	-1.291432e+001	6.180242e+001	-1.291442e+001	-1.177882e+002	-1.267916e+001	6.198424e+001	-8.258446e-001	-1.273740e+001
	-1.298706e+001	-1.179834e+002	-1.287419e+001	6.229814e+001	-8.262847e-001	-1.292105e+001	-1.278580e+001	6.169927e+001
351344	-1.263866e+001	6.060527e+001	-8.373755e-001	-1.303042e+001	-1.264901e+001	6.173513e+001	-1.267064e+001	-1.181866e+002
	-8.282248e-001	-1.299625e+001	-1.261826e+001	6.044218e+001	-1.272538e+001	-1.181576e+002	-1.266354e+001	6.200400e+001
	-1.275356e+001	6.175522e+001	-1.281444e+001	-1.180800e+002	-1.254783e+001	6.169652e+001	-8.337932e-001	-1.306660e+001
	-1.278323e+001	-1.182986e+002	-1.273334e+001	6.172133e+001	-8.348816e-001	-1.313962e+001	-1.265921e+001	6.195168e+001
358679	-1.247361e+001	5.948846e+001	-8.787426e-001	-1.316040e+001	-1.262896e+001	6.133664e+001	-1.259078e+001	-1.185940e+002
	-8.820287e-001	-1.305979e+001	-1.252056e+001	6.043015e+001	-1.262822e+001	-1.189767e+002	-1.256540e+001	6.122125e+001
	-1.264354e+001	6.155790e+001	-1.253040e+001	-1.186112e+002	-1.242407e+001	6.092809e+001	-8.512475e-001	-1.329905e+001
	-1.268865e+001	-1.186084e+002	-1.254353e+001	6.160079e+001	-8.426072e-001	-1.343212e+001	-1.250482e+001	6.098757e+001
366013	-1.247368e+001	5.993585e+001	-8.764402e-001	-1.337337e+001	-1.241716e+001	6.076288e+001	-1.244963e+001	-1.192906e+002
	-8.963035e-001	-1.336746e+001	-1.235237e+001	6.018159e+001	-1.244462e+001	-1.192485e+002	-1.244172e+001	6.084340e+001
	-1.242663e+001	6.155233e+001	-1.250534e+001	-1.191200e+002	-1.227135e+001	6.084070e+001	-8.816320e-001	-1.334584e+001
	-1.251070e+001	-1.187341e+002	-1.242313e+001	6.092689e+001	-8.890495e-001	-1.356889e+001	-1.234147e+001	6.054800e+001
373348	-1.225371e+001	5.893678e+001	-9.372117e-001	-1.335333e+001	-1.228093e+001	6.028514e+001	-1.233207e+001	-1.194526e+002
	-9.244774e-001	-1.347274e+001	-1.223292e+001	5.879353e+001	-1.234914e+001	-1.195241e+002	-1.230781e+001	6.113981e+001
	-1.242497e+001	6.086101e+001	-1.240502e+001	-1.197599e+002	-1.209414e+001	5.998126e+001	-9.168684e-001	-1.364989e+001
	-1.243362e+001	-1.194857e+002	-1.230804e+001	6.049864e+001	-9.066898e-001	-1.356584e+001	-1.229565e+001	6.014409e+001
380683	-1.205646e+001	5.830802e+001	-9.442160e-001	-1.351260e+001	-1.218002e+001	5.981361e+001	-1.229383e+001	-1.202437e+002
	-9.540702e-001	-1.368896e+001	-1.213283e+001	5.865823e+001	-1.218924e+001	-1.200588e+002	-1.222253e+001	6.015853e+001
	-1.221570e+001	5.977547e+001	-1.221953e+001	-1.196564e+002	-1.203104e+001	5.985912e+001	-9.482721e-001	-1.368999e+001
	-1.227307e+001	-1.205179e+002	-1.223351e+001	6.073479e+001	-9.145067e-001	-1.380811e+001	-1.208855e+001	5.896564e+001
388018	-1.192515e+001	5.824603e+001	-9.631345e-001	-1.372217e+001	-1.200484e+001	5.930314e+001	-1.208494e+001	-1.202090e+002
	-9.790116e-001	-1.386311e+001	-1.196111e+001	5.871126e+001	-1.206672e+001	-1.208266e+002	-1.202579e+001	5.988763e+001
	-1.210555e+001	5.933044e+001	-1.208750e+001	-1.204184e+002	-1.186758e+001	5.899729e+001	-9.695853e-001	-1.403117e+001
	-1.213887e+001	-1.206832e+002	-1.202945e+001	6.004737e+001	-9.503561e-001	-1.395684e+001	-1.194213e+001	5.922643e+001
395353	-1.190611e+001	5.778790e+001	-1.017767e+000	-1.413775e+001	-1.195296e+001	5.864796e+001	-1.195584e+001	-1.211456e+002
	-1.000660e+000	-1.402441e+001	-1.178140e+001	5.788929e+001	-1.201002e+001	-1.213022e+002	-1.194540e+001	5.886642e+001
	-1.195863e+001	5.958469e+001	-1.198355e+001	-1.211243e+002	-1.174772e+001	5.852162e+001	-9.956473e-001	-1.414548e+001
	-1.197192e+001	-1.208160e+002	-1.193540e+001	5.914014e+001	-9.924994e-001	-1.421265e+001	-1.183053e+001	5.890115e+001
402688	-1.173102e+001	5.761484e+001	-1.033679e+000	-1.417009e+001	-1.176598e+001	5.885036e+001	-1.181655e+001	-1.215360e+002
	-1.035212e+000	-1.411625e+001	-1.174514e+001	5.738133e+001	-1.181863e+001	-1.214204e+002	-1.181369e+001	5.865009e+001
	-1.182603e+001	5.888972e+001	-1.190503e+001	-1.216260e+002	-1.169349e+001	5.828228e+001	-1.006776e+000	-1.433887e+001
	-1.190679e+001	-1.214726e+002	-1.188266e+001	5.873566e+001	-1.007146e+000	-1.442645e+001	-1.167711e+001	5.797210e+001
410022	-1.158706e+001	5.689313e+001	-1.061838e+000	-1.433735e+001	-1.172642e+001	5.821831e+001	-1.179752e+001	-1.214834e+002
	-1.084859e+000	-1.448954e+001	-1.168314e+001	5.697472e+001	-1.179311e+001	-1.219137e+002	-1.168537e+001	5.831739e+001
	-1.175039e+001	5.806468e+001	-1.176373e+001	-1.215373e+002	-1.157136e+001	5.755393e+001	-1.045624e+000	-1.450015e+001
	-1.177969e+001	-1.221686e+002	-1.174216e+001	5.867302e+001	-1.049626e+000	-1.447415e+001	-1.162463e+001	5.792729e+001
418652	-1.151091e+001	5.623794e+001	-1.095617e+000	-1.455029e+001	-1.158571e+001	5.792181e+001	-1.158887e+001	-1.225304e+002
	-1.098976e+000	-1.453784e+001	-1.153126e+001	5.614305e+001	-1.163789e+001	-1.223481e+002	-1.155909e+001	5.785143e+001
	-1.161063e+001	5.791864e+001	-1.166117e+001	-1.224082e+002	-1.141670e+001	5.690318e+001	-1.084908e+000	-1.462942e+001
	-1.164111e+001	-1.224318e+002	-1.165234e+001	5.821004e+001	-1.079514e+000	-1.480169e+001	-1.149100e+001	5.713031e+001
428777	-1.134984e+001	5.625827e+001	-1.141064e+000	-1.481686e+001	-1.140686e+001	5.719154e+001	-1.150221e+001	-1.231295e+002
	-1.133758e+000	-1.485790e+001	-1.142219e+001	5.621936e+001	-1.144101e+001	-1.231084e+002	-1.147150e+001	5.700298e+001
	-1.147788e+001	5.723901e+001	-1.148501e+001	-1.224973e+002	-1.127604e+001	5.651882e+001	-1.128938e+000	-1.495989e+001
	-1.152709e+001	-1.232317e+002	-1.142637e+001	5.735777e+001	-1.113403e+000	-1.487742e+001	-1.136275e+001	5.602202e+001
438901	-1.122129e+001	5.496880e+001	-1.149368e+000	-1.499027e+001	-1.122685e+001	5.639529e+001	-1.137733e+001	-1.236805e+002
	-1.170721e+000	-1.504725e+001	-1.124193e+001	5.499783e+001	-1.131168e+001	-1.238015e+002	-1.130484e+001	5.661306e+001
	-1.132695e+001	5.686713e+001	-1.140879e+001	-1.234168e+002	-1.117814e+001	5.623432e+001	-1.162262e+000	-1.510359e+001
	-1.140440e+001	-1.234468e+002	-1.134385e+001	5.675482e+001	-1.181958e+000	-1.524449e+001	-1.124852e+001	5.598648e+001
449026	-1.110685e+001	5.448678e+001	-1.225178e+000	-1.529247e+001	-1.119427e+001	5.568758e+001	-1.120310e+001	-1.246146e+002
	-1.203665e+000	-1.515392e+001	-1.114708e+001	5.430004e+001	-1.120178e+001	-1.243190e+002	-1.116308e+001	5.608564e+001
	-1.123300e+001	5.614078e+001	-1.120157e+001	-1.240607e+002	-1.103531e+001	5.549162e+001	-1.221129e+000	-1.533368e+001
	-1.124840e+001	-1.240497e+002	-1.119835e+001	5.624777e+001	-1.217439e+000	-1.533041e+001	-1.104944e+001	5.517976e+001
459150	-1.096129e+001	5.440194e+001	-1.269284e+000	-1.545938e+001	-1.100917e+001	5.551921e+001	-1.105971e+001	-1.249146e+002
	-1.264656e+000	-1.553399e+001	-1.092847e+001	5.436493e+001	-1.111497e+001	-1.248423e+002	-1.100759e+001	5.544900e+001
	-1.104209e+001	5.548622e+001	-1.103828e+001	-1.247204e+002	-1.088131e+001	5.480077e+001	-1.246236e+000	-1.564063e+001
	-1.112267e+001	-1.245446e+002	-1.100417e+001	5.547211e+001	-1.238569e+000	-1.554651e+001	-1.098428e+001	5.480550e+001
469275	-1.086446e+001	5.325260e+001	-1.267517e+000	-1.569592e+001	-1.086810e+001	5.459794e+001	-1.090506e+001	-1.254543e+002
	-1.286155e+000	-1.562751e+001	-1.090530e+001	5.363274e+001	-1.086842e+001	-1.254189e+002	-1.089938e+001	5.495934e+001
	-1.099574e+001	5.490629e+001	-1.097305e+001	-1.250365e+002	-1.079845e+001	5.366999e+001	-1.282409e+000	-1.587163e+001
	-1.097845e+001	-1.254971e+002	-1.090487e+001	5.531991e+001	-1.267303e+000	-1.586353e+001	-1.085947e+001	5.387285e+001
479399	-1.072567e+001	5.270842e+001	-1.335095e+000	-1.590122e+001	-1.073405e+001	5.380730e+001	-1.077140e+001	-1.256990e+002
	-1.337026e+000	-1.582968e+001	-1.077620e+001	5.297585e+001	-1.080318e+001	-1.264091e+002	-1.078517e+001	5.446585e+001
	-1.081364e+001	5.422271e+001	-1.081610e+001	-1.259119e+002	-1.060711e+001	5.362970e+001	-1.322580e+000	-1.590123e+001
	-1.085197e+001	-1.256742e+002	-1.076926e+001	5.435202e+001	-1.322630e+000	-1.595386e+001	-1.074188e+001	5.359802e+001
489523	-1.061028e+001	5.213986e+001	-1.359420e+000	-1.597012e+001	-1.064830e+001	5.324913e+001	-1.075591e+001	-1.266409e+002
	-1.363890e+000	-1.601952e+001	-1.063610e+001	5.274128e+001	-1.066234e+001	-1.266174e+002	-1.067357e+001	5.375640e+001
	-1.068572e+001	5.400570e+001	-1.064728e+001	-1.261995e+002	-1.050392e+001	5.266331e+001	-1.370112e+000	-1.622625e+001
	-1.070900e+001	-1.261461e+002	-1.062578e+001	5.409515e+001	-1.364738e+000	-1.607201e+001	-1.059232e+001	5.252071e+001
499648	-1.046265e+001	5.158200e+001	-1.427888e+000	-1.612075e+001	-1.056686e+001	5.307158e+001	-1.057010e+001	-1.270562e+002
	-1.419911e+000	-1.621620e+001	-1.045325e+001	5.137262e+001	-1.057562e+001	-1.271793e+002	-1.056154e+001	5.319392e+001
	-1.053137e+001	5.336741e+001	-1.066785e+001	-1.274462e+002	-1.046458e+001	5.232727e+001	-1.416982e+000	-1.629025e+001
	-1.061605e+001	-1.271152e+002	-1.060526e+001	5.322613e+001	-1.389954e+000	-1.626322e+001	-1.048512e+001	5.236484e+001
509772	-1.038742e+001	5.108480e+001	-1.464740e+000	-1.624999e+001	-1.049593e+001	5.268977e+001	-1.042607e+001	-1.276550e+002
	-1.460820e+000	-1.633833e+001	-1.038835e+001	5.118656e+001	-1.054964e+001	-1.276735e+002	-1.043440e+001	5.282655e+001
	-1.042886e+001	5.286715e+001	-1.050335e+001	-1.274224e+002	-1.032672e+001	5.139115e+001	-1.451170e+000	-1.658888e+001
	-1.046581e+001	-1.274244e+002	-1.046868e+001	5.305697e+001	-1.450059e+000	-1.645176e+001	-1.039736e+001	5.170986e+001
519897	-1.026769e+001	5.062287e+001	-1.481586e+000	-1.656726e+001	-1.034519e+001	5.208713e+001	-1.038589e+001	-1.282078e+002
	-1.489549e+000	-1.652402e+001	-1.028253e+001	5.084634e+001	-1.036753e+001	-1.280688e+002	-1.034198e+001	5.220824e+001
	-1.039926e+001	5.247420e+001	-1.036842e+001	-1.278658e+002	-1.020921e+001	5.127287e+001	-1.497225e+000	-1.668238e+001
	-1.040515e+001	-1.278650e+002	-1.030195e+001	5.202152e+001	-1.477907e+000	-1.676456e+001	-1.024871e+001	5.127907e+001
530021	-1.011755e+001	5.020224e+001	-1.548871e+000	-1.667353e+001	-1.027466e+001	5.153696e+001	-1.029019e+001	-1.286866e+002
	-1.541344e+000	-1.683717e+001	-1.016956e+001	5.028729e+001	-1.033752e+001	-1.286238e+002	-1.025933e+001	5.148160e+001
	-1.023294e+001	5.141547e+001	-1.027521e+001	-1.288204e+002	-1.008020e+001	5.069918e+001	-1.551189e+000	-1.679675e+001
	-1.028876e+001	-1.287097e+002	-1.024348e+001	5.184767e+001	-1.543801e+000	-1.683999e+001	-1.013446e+001	5.064892e+001
540146	-1.006283e+001	4.986862e+001	-1.583460e+000	-1.676063e+001	-1.014115e+001	5.096758e+001	-1.019809e+001	-1.290277e+002
	-1.586854e+000	-1.686278e+001	-1.009782e+001	4.966122e+001	-1.015730e+001	-1.292612e+002	-1.013643e+001	5.120355e+001
	-1.015941e+001	5.120082e+001	-1.018999e+001	-1.288889e+002	-1.002326e+001	5.032142e+001	-1.572236e+000	-1.699492e+001
	-1.015624e+001	-1.289526e+002	-1.014676e+001	5.125346e+001	-1.562848e+000	-1.689156e+001	-1.004794e+001	5.000512e+001
550270	-9.914972e+000	4.892214e+001	-1.621321e+000	-1.709897e+001	-1.001867e+001	5.063323e+001	-1.003595e+001	-1.295981e+002
	-1.635135e+000	-1.682130e+001	-9.981808e+000	4.910773e+001	-1.006611e+001	-1.296500e+002	-9.999611e+000	5.062434e+001
	-1.009459e+001	5.051086e+001	-1.007579e+001	-1.297382e+002	-9.918998e+000	4.963921e+001	-1.611073e+000	-1.716074e+001
	-1.013396e+001	-1.296829e+002	-1.003556e+001	5.071130e+001	-1.597881e+000	-1.709221e+001	-9.922711e+000	4.976446e+001
560395	-9.860138e+000	4.843828e+001	-1.677302e+000	-1.715147e+001	-9.896355e+000	4.944875e+001	-9.976547e+000	-1.304196e+002
	-1.646434e+000	-1.720398e+001	-9.878457e+000	4.873131e+001	-9.972723e+000	-1.303037e+002	-9.944821e+000	5.007167e+001
	-9.999770e+000	5.011132e+001	-9.989728e+000	-1.303311e+002	-9.796390e+000	4.944634e+001	-1.668660e+000	-1.722969e+001
	-1.004244e+001	-1.299641e+002	-9.956853e+000	5.017093e+001	-1.653271e+000	-1.729994e+001	-9.833828e+000	4.920089e+001
572189	-9.766081e+000	4.798513e+001	-1.687133e+000	-1.720451e+001	-9.817496e+000	4.935007e+001	-9.903589e+000	-1.307117e+002
	-1.690314e+000	-1.728222e+001	-9.735844e+000	4.803683e+001	-9.871596e+000	-1.307492e+002	-9.799744e+000	4.931084e+001
	-9.814298e+000	4.943639e+001	-9.914891e+000	-1.309523e+002	-9.721088e+000	4.887000e+001	-1.718290e+000	-1.741894e+001
	-9.916186e+000	-1.307268e+002	-9.847176e+000	4.938412e+001	-1.693516e+000	-1.737845e+001	-9.711856e+000	4.852396e+001
586179	-9.649143e+000	4.741057e+001	-1.770118e+000	-1.740042e+001	-9.673527e+000	4.857494e+001	-9.780901e+000	-1.314644e+002
	-1.780242e+000	-1.741849e+001	-9.657957e+000	4.743771e+001	-9.745024e+000	-1.316231e+002	-9.717663e+000	4.879252e+001
	-9.768435e+000	4.890809e+001	-9.774703e+000	-1.316111e+002	-9.575014e+000	4.804737e+001	-1.779364e+000	-1.770081e+001
	-9.822166e+000	-1.313297e+002	-9.751318e+000	4.870060e+001	-1.768973e+000	-1.768642e+001	-9.603009e+000	4.795014e+001
600169	-9.527940e+000	4.692249e+001	-1.817465e+000	-1.762756e+001	-9.573943e+000	4.811028e+001	-9.656937e+000	-1.322118e+002
	-1.805994e+000	-1.768846e+001	-9.567687e+000	4.681888e+001	-9.668105e+000	-1.321989e+002	-9.621919e+000	4.812028e+001
	-9.580893e+000	4.815824e+001	-9.662080e+000	-1.323210e+002	-9.503975e+000	4.708615e+001	-1.811068e+000	-1.781745e+001
	-9.649676e+000	-1.322952e+002	-9.605521e+000	4.809150e+001	-1.827694e+000	-1.776122e+001	-9.523655e+000	4.723078e+001
614158	-9.428702e+000	4.588583e+001	-1.877079e+000	-1.785661e+001	-9.485102e+000	4.732820e+001	-9.543355e+000	-1.328855e+002
	-1.873007e+000	-1.767578e+001	-9.434916e+000	4.625778e+001	-9.533491e+000	-1.329302e+002	-9.501174e+000	4.762353e+001
	-9.534201e+000	4.759591e+001	-9.592935e+000	-1.323443e+002	-9.377325e+000	4.662977e+001	-1.875406e+000	-1.800812e+001
	-9.556194e+000	-1.327025e+002	-9.482445e+000	4.771745e+001	-1.858356e+000	-1.801023e+001	-9.382880e+000	4.660380e+001
628148	-9.342607e+000	4.559464e+001	-1.941800e+000	-1.800393e+001	-9.375704e+000	4.700864e+001	-9.406084e+000	-1.338966e+002
	-1.938660e+000	-1.804656e+001	-9.343851e+000	4.572714e+001	-9.460325e+000	-1.333543e+002	-9.331089e+000	4.652071e+001
	-9.396625e+000	4.705552e+001	-9.484774e+000	-1.333676e+002	-9.330351e+000	4.609909e+001	-1.944145e+000	-1.818035e+001
	-9.397535e+000	-1.330968e+002	-9.365295e+000	4.707461e+001	-1.924563e+000	-1.810634e+001	-9.305056e+000	4.626306e+001
642138	-9.247915e+000	4.467905e+001	-1.992194e+000	-1.807495e+001	-9.273275e+000	4.620623e+001	-9.361762e+000	-1.339342e+002
