!  American Technical Ceramics  Date:    3/13/98
!  One Norden Lane
!  Huntington Station,  NY.   11746-2102
!  Tel:  (516) 547-5700               Fax:  (516) 547-5748
!  Part Number  100A100F
!  Description: Porcelain, High Q, Low ESR
!  Application: Bypass, Coupling, Timing, Feedback
!               Tuning, Impedance Match, Blocking
# GHZ S DB R 50
! Freq   |S11|   S11 Ph  |S21|   S21 Ph  |S12|   S12 Ph  |S22|   S22 Ph
    0.05   -0.37  -16.93  -10.51   72.95  -10.51   72.95   -0.37  -16.93
    0.11   -1.69  -34.50   -4.87   55.05   -4.87   55.05   -1.69  -34.50
    0.17   -3.29  -47.52   -2.70   42.73   -2.70   42.73   -3.29  -47.52
    0.24   -4.98  -56.03   -1.63   34.17   -1.63   34.17   -4.98  -56.03
    0.30   -6.49  -62.25   -1.09   28.23   -1.09   28.23   -6.49  -62.25
    0.36   -7.85  -66.71   -0.74   23.86   -0.74   23.86   -7.85  -66.71
    0.42   -9.04  -70.33   -0.55   20.59   -0.55   20.59   -9.04  -70.33
    0.48  -10.14  -72.69   -0.41   18.10   -0.41   18.10  -10.14  -72.69
    0.54  -11.40  -74.86   -0.34   15.64   -0.34   15.64  -11.40  -74.86
    0.61  -12.31  -76.89   -0.26   13.95   -0.26   13.95  -12.31  -76.89
    0.67  -13.18  -78.25   -0.23   12.73   -0.23   12.73  -13.18  -78.25
    0.73  -13.97  -79.27   -0.18   11.59   -0.18   11.59  -13.97  -79.27
    0.79  -14.71  -80.32   -0.15   10.57   -0.15   10.57  -14.71  -80.32
    0.85  -15.42  -81.41   -0.13    9.71   -0.13    9.71  -15.42  -81.41
    0.91  -16.10  -82.14   -0.11    9.05   -0.11    9.05  -16.10  -82.14
    0.98  -16.70  -83.22   -0.09    8.30   -0.09    8.30  -16.70  -83.22
    1.04  -17.36  -83.67   -0.09    7.71   -0.09    7.71  -17.36  -83.67
    1.10  -17.99  -84.44   -0.07    7.27   -0.07    7.27  -17.99  -84.44
    1.16  -18.52  -84.98   -0.06    6.58   -0.06    6.58  -18.52  -84.98
    1.22  -19.11  -85.08   -0.05    6.22   -0.05    6.22  -19.11  -85.08
    1.29  -19.70  -85.72   -0.06    5.75   -0.06    5.75  -19.70  -85.72
    1.35  -20.24  -85.92   -0.04    5.49   -0.04    5.49  -20.24  -85.92
    1.41  -20.80  -86.19   -0.04    5.14   -0.04    5.14  -20.80  -86.19
    1.47  -21.33  -86.84   -0.03    4.91   -0.03    4.91  -21.33  -86.84
    1.53  -21.90  -86.80   -0.03    4.55   -0.03    4.55  -21.90  -86.80
    1.59  -22.51  -87.60   -0.01    4.20   -0.01    4.20  -22.51  -87.60
    1.66  -22.98  -87.45   -0.04    4.06   -0.04    4.06  -22.98  -87.45
    1.72  -23.60  -87.29   -0.04    3.52   -0.04    3.52  -23.60  -87.29
    1.78  -24.22  -87.54   -0.02    3.36   -0.02    3.36  -24.22  -87.54
    1.84  -24.78  -87.99   -0.01    3.15   -0.01    3.15  -24.78  -87.99
    1.90  -25.33  -87.14   -0.02    2.98   -0.02    2.98  -25.33  -87.14
    1.96  -25.98  -87.19   -0.02    2.80   -0.02    2.80  -25.98  -87.19
    2.03  -26.68  -86.91   -0.02    2.61   -0.02    2.61  -26.68  -86.91
    2.09  -27.42  -87.07   -0.02    2.35   -0.02    2.35  -27.42  -87.07
    2.15  -27.92  -86.73   -0.03    2.24   -0.03    2.24  -27.92  -86.73
    2.21  -28.73  -85.82   -0.02    1.90   -0.02    1.90  -28.73  -85.82
    2.27  -29.62  -86.13   -0.02    2.00   -0.02    2.00  -29.62  -86.13
    2.33  -30.36  -85.61   -0.03    1.71   -0.03    1.71  -30.36  -85.61
    2.40  -31.27  -84.04   -0.02    1.49   -0.02    1.49  -31.27  -84.04
    2.46  -32.16  -83.66   -0.03    1.41   -0.03    1.41  -32.16  -83.66
    2.52  -33.11  -82.82   -0.03    1.16   -0.03    1.16  -33.11  -82.82
    2.58  -34.24  -80.78   -0.03    1.21   -0.03    1.21  -34.24  -80.78
    2.64  -35.49  -77.57   -0.03    0.93   -0.03    0.93  -35.49  -77.57
    2.71  -36.65  -75.01   -0.04    0.94   -0.04    0.94  -36.65  -75.01
    2.77  -38.09  -71.21    0.00    0.63    0.00    0.63  -38.09  -71.21
    2.83  -39.38  -64.11   -0.02    0.59   -0.02    0.59  -39.38  -64.11
    2.89  -41.38  -58.37   -0.03    0.54   -0.03    0.54  -41.38  -58.37
    2.95  -42.74  -47.15   -0.03    0.29   -0.03    0.29  -42.74  -47.15
    3.01  -44.04  -31.31   -0.03    0.17   -0.03    0.17  -44.04  -31.31
    3.08  -45.34   -9.79   -0.02   -0.09   -0.02   -0.09  -45.34   -9.79
    3.14  -44.57    5.57   -0.03    0.00   -0.03    0.00  -44.57    5.57
    3.20  -43.47   24.06   -0.03   -0.24   -0.03   -0.24  -43.47   24.06
    3.26  -41.31   32.89   -0.02   -0.27   -0.02   -0.27  -41.31   32.89
    3.32  -40.77   40.48   -0.03   -0.45   -0.03   -0.45  -40.77   40.48
    3.38  -39.44   44.59   -0.04   -0.59   -0.04   -0.59  -39.44   44.59
    3.45  -38.23   47.42   -0.04   -0.75   -0.04   -0.75  -38.23   47.42
    3.51  -37.66   49.57   -0.05   -0.63   -0.05   -0.63  -37.66   49.57
    3.57  -36.97   52.25   -0.03   -0.95   -0.03   -0.95  -36.97   52.25
    3.63  -35.95   54.31   -0.04   -0.82   -0.04   -0.82  -35.95   54.31
    3.69  -35.91   53.87   -0.03   -1.23   -0.03   -1.23  -35.91   53.87
    3.76  -35.40   54.74   -0.04   -1.11   -0.04   -1.11  -35.40   54.74
    3.82  -34.74   56.84   -0.04   -1.34   -0.04   -1.34  -34.74   56.84
    3.88  -34.66   56.27   -0.04   -1.33   -0.04   -1.33  -34.66   56.27
    3.94  -34.33   56.61   -0.04   -1.45   -0.04   -1.45  -34.33   56.61
    4.00  -33.41   61.52   -0.04   -1.66   -0.04   -1.66  -33.41   61.52
    4.06  -33.09   62.31   -0.06   -1.56   -0.06   -1.56  -33.09   62.31
    4.13  -32.76   61.91   -0.06   -1.66   -0.06   -1.66  -32.76   61.91
    4.19  -32.62   63.28   -0.05   -1.84   -0.05   -1.84  -32.62   63.28
    4.25  -32.25   64.68   -0.07   -1.70   -0.07   -1.70  -32.25   64.68
    4.31  -32.06   65.17   -0.06   -1.96   -0.06   -1.96  -32.06   65.17
    4.37  -31.47   67.10   -0.05   -2.01   -0.05   -2.01  -31.47   67.10
    4.43  -31.52   65.95   -0.08   -2.12   -0.08   -2.12  -31.52   65.95
    4.50  -31.13   66.62   -0.08   -2.21   -0.08   -2.21  -31.13   66.62
    4.56  -30.92   68.21   -0.06   -2.34   -0.06   -2.34  -30.92   68.21
    4.62  -30.80   66.93   -0.08   -2.44   -0.08   -2.44  -30.80   66.93
    4.68  -30.60   67.71   -0.07   -2.48   -0.07   -2.48  -30.60   67.71
    4.74  -30.33   68.29   -0.08   -2.54   -0.08   -2.54  -30.33   68.29
    4.80  -30.26   68.22   -0.10   -2.60   -0.10   -2.60  -30.26   68.22
    4.87  -29.94   69.06   -0.07   -2.71   -0.07   -2.71  -29.94   69.06
    4.93  -29.81   70.06   -0.09   -2.88   -0.09   -2.88  -29.81   70.06
    4.99  -29.52   69.20   -0.09   -2.95   -0.09   -2.95  -29.52   69.20
    5.05  -29.19   70.87   -0.08   -3.08   -0.08   -3.08  -29.19   70.87
    5.11  -28.97   70.57   -0.08   -3.17   -0.08   -3.17  -28.97   70.57
    5.18  -28.82   69.65   -0.10   -3.18   -0.10   -3.18  -28.82   69.65
    5.24  -28.50   70.10   -0.10   -3.19   -0.10   -3.19  -28.50   70.10
    5.30  -28.25   71.05   -0.09   -3.42   -0.09   -3.42  -28.25   71.05
    5.36  -28.09   70.39   -0.11   -3.48   -0.11   -3.48  -28.09   70.39
    5.42  -27.92   70.32   -0.09   -3.62   -0.09   -3.62  -27.92   70.32
    5.48  -27.43   70.62   -0.11   -3.64   -0.11   -3.64  -27.43   70.62
    5.55  -27.32   69.84   -0.10   -3.80   -0.10   -3.80  -27.32   69.84
    5.61  -27.14   70.15   -0.11   -4.03   -0.11   -4.03  -27.14   70.15
    5.67  -26.81   70.42   -0.12   -3.96   -0.12   -3.96  -26.81   70.42
    5.73  -26.44   70.83   -0.13   -4.06   -0.13   -4.06  -26.44   70.83
    5.79  -26.23   70.98   -0.11   -4.19   -0.11   -4.19  -26.23   70.98
    5.85  -25.99   70.40   -0.11   -4.13   -0.11   -4.13  -25.99   70.40
    5.92  -25.68   70.17   -0.12   -4.35   -0.12   -4.35  -25.68   70.17
    5.98  -25.28   70.84   -0.14   -4.29   -0.14   -4.29  -25.28   70.84
    6.04  -25.04   69.49   -0.13   -4.52   -0.13   -4.52  -25.04   69.49
    6.10  -24.74   70.03   -0.13   -4.71   -0.13   -4.71  -24.74   70.03
    6.16  -24.38   69.29   -0.14   -4.78   -0.14   -4.78  -24.38   69.29
    6.23  -24.01   69.21   -0.13   -4.94   -0.13   -4.94  -24.01   69.21
    6.29  -23.69   69.03   -0.13   -5.05   -0.13   -5.05  -23.69   69.03
    6.35  -23.43   68.21   -0.17   -4.99   -0.17   -4.99  -23.43   68.21
    6.41  -23.04   67.37   -0.17   -5.27   -0.17   -5.27  -23.04   67.37
    6.47  -22.57   68.30   -0.15   -5.41   -0.15   -5.41  -22.57   68.30
    6.53  -22.36   67.19   -0.16   -5.48   -0.16   -5.48  -22.36   67.19
    6.60  -21.92   65.67   -0.17   -5.66   -0.17   -5.66  -21.92   65.67
    6.66  -21.50   65.75   -0.19   -5.86   -0.19   -5.86  -21.50   65.75
    6.72  -21.16   64.98   -0.19   -5.92   -0.19   -5.92  -21.16   64.98
    6.78  -20.84   63.83   -0.19   -6.05   -0.19   -6.05  -20.84   63.83
    6.84  -20.60   62.97   -0.21   -6.21   -0.21   -6.21  -20.60   62.97
    6.90  -20.11   62.32   -0.21   -6.28   -0.21   -6.28  -20.11   62.32
    6.97  -19.80   62.00   -0.23   -6.52   -0.23   -6.52  -19.80   62.00
    7.03  -19.61   61.01   -0.24   -6.59   -0.24   -6.59  -19.61   61.01
    7.09  -19.19   60.65   -0.26   -6.77   -0.26   -6.77  -19.19   60.65
    7.15  -18.84   59.98   -0.28   -6.94   -0.28   -6.94  -18.84   59.98
    7.21  -18.45   59.01   -0.26   -7.16   -0.26   -7.16  -18.45   59.01
    7.27  -18.19   58.66   -0.29   -7.36   -0.29   -7.36  -18.19   58.66
    7.34  -17.90   57.74   -0.32   -7.49   -0.32   -7.49  -17.90   57.74
    7.40  -17.39   56.79   -0.33   -7.56   -0.33   -7.56  -17.39   56.79
    7.46  -17.21   57.43   -0.35   -7.81   -0.35   -7.81  -17.21   57.43
    7.52  -16.94   55.59   -0.37   -8.06   -0.37   -8.06  -16.94   55.59
    7.58  -16.42   55.14   -0.38   -8.18   -0.38   -8.18  -16.42   55.14
    7.65  -16.24   55.65   -0.41   -8.44   -0.41   -8.44  -16.24   55.65
    7.71  -15.86   54.89   -0.43   -8.72   -0.43   -8.72  -15.86   54.89
    7.77  -15.42   53.76   -0.41   -8.85   -0.41   -8.85  -15.42   53.76
    7.83  -15.18   53.81   -0.47   -9.29   -0.47   -9.29  -15.18   53.81
    7.89  -14.57   53.97   -0.51   -9.46   -0.51   -9.46  -14.57   53.97
    7.95  -14.22   52.97   -0.54   -9.98   -0.54   -9.98  -14.22   52.97
    8.02  -13.79   51.33   -0.60  -10.71   -0.60  -10.71  -13.79   51.33
    8.08  -13.03   51.70   -0.70  -11.14   -0.70  -11.14  -13.03   51.70
    8.14  -12.43   49.14   -0.78  -12.16   -0.78  -12.16  -12.43   49.14
    8.20  -11.75   47.08   -0.93  -13.18   -0.93  -13.18  -11.75   47.08
    8.26  -10.92   42.92   -1.17  -14.34   -1.17  -14.34  -10.92   42.92
    8.32   -9.91   37.88   -1.60  -15.37   -1.60  -15.37   -9.91   37.88
    8.39   -8.98   28.37   -2.30  -15.99   -2.30  -15.99   -8.98   28.37
    8.45   -8.50   15.33   -3.29  -12.58   -3.29  -12.58   -8.50   15.33
    8.51   -8.79   -3.80   -3.79   -3.17   -3.79   -3.17   -8.79   -3.80
    8.57  -10.67  -19.78   -2.94    5.46   -2.94    5.46  -10.67  -19.78
    8.63  -13.60  -28.58   -1.89    6.86   -1.89    6.86  -13.60  -28.58
    8.70  -16.89  -28.78   -1.24    5.59   -1.24    5.59  -16.89  -28.78
    8.76  -19.68  -21.77   -0.88    3.69   -0.88    3.69  -19.68  -21.77
    8.82  -21.56   -6.33   -0.69    2.33   -0.69    2.33  -21.56   -6.33
    8.88  -22.30    8.84   -0.59    1.12   -0.59    1.12  -22.30    8.84
    8.94  -22.02   21.75   -0.51    0.39   -0.51    0.39  -22.02   21.75
    9.00  -21.38   31.10   -0.47   -0.45   -0.47   -0.45  -21.38   31.10
    9.07  -20.88   37.87   -0.44   -1.09   -0.44   -1.09  -20.88   37.87
    9.13  -20.30   41.73   -0.43   -1.50   -0.43   -1.50  -20.30   41.73
    9.19  -19.73   44.74   -0.40   -1.69   -0.40   -1.69  -19.73   44.74
    9.25  -19.22   46.86   -0.37   -2.29   -0.37   -2.29  -19.22   46.86
    9.31  -18.80   49.27   -0.41   -2.47   -0.41   -2.47  -18.80   49.27
    9.37  -18.50   50.07   -0.40   -2.83   -0.40   -2.83  -18.50   50.07
    9.44  -18.31   52.05   -0.37   -2.97   -0.37   -2.97  -18.31   52.05
    9.50  -17.91   52.37   -0.38   -3.27   -0.38   -3.27  -17.91   52.37
    9.56  -17.63   53.80   -0.38   -3.46   -0.38   -3.46  -17.63   53.80
    9.62  -17.52   54.53   -0.38   -3.37   -0.38   -3.37  -17.52   54.53
    9.68  -17.24   54.32   -0.36   -3.79   -0.36   -3.79  -17.24   54.32
    9.74  -17.11   55.28   -0.36   -3.97   -0.36   -3.97  -17.11   55.28
    9.81  -16.91   57.00   -0.32   -3.93   -0.32   -3.93  -16.91   57.00
    9.87  -16.82   56.23   -0.39   -4.20   -0.39   -4.20  -16.82   56.23
    9.93  -16.69   57.63   -0.33   -4.14   -0.33   -4.14  -16.69   57.63
    9.99  -16.47   57.43   -0.35   -4.32   -0.35   -4.32  -16.47   57.43
   10.05  -16.38   58.68   -0.34   -4.24   -0.34   -4.24  -16.38   58.68
   10.12  -16.37   58.13   -0.36   -4.49   -0.36   -4.49  -16.37   58.13
   10.18  -16.23   58.76   -0.36   -4.69   -0.36   -4.69  -16.23   58.76
   10.24  -16.09   59.30   -0.35   -4.48   -0.35   -4.48  -16.09   59.30
   10.30  -16.03   60.25   -0.32   -4.73   -0.32   -4.73  -16.03   60.25
   10.36  -15.96   59.99   -0.35   -4.82   -0.35   -4.82  -15.96   59.99
   10.42  -15.89   60.58   -0.34   -4.89   -0.34   -4.89  -15.89   60.58
   10.49  -15.69   60.70   -0.33   -4.97   -0.33   -4.97  -15.69   60.70
   10.55  -15.68   61.44   -0.32   -4.96   -0.32   -4.96  -15.68   61.44
   10.61  -15.62   60.90   -0.31   -5.14   -0.31   -5.14  -15.62   60.90
   10.67  -15.51   61.74   -0.31   -5.16   -0.31   -5.16  -15.51   61.74
   10.73  -15.51   61.59   -0.34   -5.11   -0.34   -5.11  -15.51   61.59
   10.79  -15.38   62.00   -0.32   -5.50   -0.32   -5.50  -15.38   62.00
   10.86  -15.29   61.69   -0.32   -5.62   -0.32   -5.62  -15.29   61.69
   10.92  -15.33   62.23   -0.32   -5.60   -0.32   -5.60  -15.33   62.23
   10.98  -15.20   62.28   -0.31   -5.70   -0.31   -5.70  -15.20   62.28
   11.04  -15.06   62.41   -0.31   -5.79   -0.31   -5.79  -15.06   62.41
   11.10  -15.17   62.09   -0.31   -5.82   -0.31   -5.82  -15.17   62.09
   11.17  -15.11   62.31   -0.31   -5.94   -0.31   -5.94  -15.11   62.31
   11.23  -14.93   62.55   -0.36   -5.99   -0.36   -5.99  -14.93   62.55
   11.29  -15.00   62.75   -0.30   -6.10   -0.30   -6.10  -15.00   62.75
   11.35  -14.97   62.02   -0.32   -6.09   -0.32   -6.09  -14.97   62.02
   11.41  -14.84   62.45   -0.29   -6.43   -0.29   -6.43  -14.84   62.45
   11.47  -14.87   62.53   -0.32   -6.29   -0.32   -6.29  -14.87   62.53
   11.54  -14.83   61.87   -0.31   -6.57   -0.31   -6.57  -14.83   61.87
   11.60  -14.79   62.09   -0.30   -6.62   -0.30   -6.62  -14.79   62.09
   11.66  -14.76   62.27   -0.33   -6.57   -0.33   -6.57  -14.76   62.27
   11.72  -14.67   61.76   -0.31   -6.62   -0.31   -6.62  -14.67   61.76
   11.78  -14.67   61.84   -0.31   -6.94   -0.31   -6.94  -14.67   61.84
   11.84  -14.66   61.73   -0.32   -7.11   -0.32   -7.11  -14.66   61.73
   11.91  -14.63   61.28   -0.32   -6.80   -0.32   -6.80  -14.63   61.28
   11.97  -14.48   61.54   -0.33   -7.23   -0.33   -7.23  -14.48   61.54
   12.03  -14.56   60.82   -0.35   -7.26   -0.35   -7.26  -14.56   60.82
   12.09  -14.50   60.17   -0.31   -7.44   -0.31   -7.44  -14.50   60.17
   12.15  -14.41   59.72   -0.32   -7.54   -0.32   -7.54  -14.41   59.72
   12.21  -14.32   59.62   -0.36   -7.58   -0.36   -7.58  -14.32   59.62
   12.28  -14.39   59.06   -0.31   -7.73   -0.31   -7.73  -14.39   59.06
   12.34  -14.24   58.25   -0.33   -7.85   -0.33   -7.85  -14.24   58.25
   12.40  -14.17   58.12   -0.32   -7.84   -0.32   -7.84  -14.17   58.12
