!  American Technical Ceramics  Date:    3/13/98
!  One Norden Lane
!  Huntington Station,  NY.   11746-2102
!  Tel:  (516) 547-5700               Fax:  (516) 547-5748
!  Part Number  100b821f
!  Description: Porcelain, High Q, Low ESR
!  Application: Bypass, Coupling, Timing, Feedback
!               Tuning, Impedance Match, Blocking
# GHZ S DB R 50
! Freq   |S11|   S11 Ph  |S21|   S21 Ph  |S12|   S12 Ph  |S22|   S22 Ph
    0.05  -26.81  -90.89   -0.02    2.18   -0.02    2.18  -26.81  -90.89
    0.07  -30.03  -92.98   -0.02    1.32   -0.02    1.32  -30.03  -92.98
    0.09  -31.81  -90.67    0.01    1.00    0.01    1.00  -31.81  -90.67
    0.11  -32.09  -91.26   -0.01    0.85   -0.01    0.85  -32.09  -91.26
    0.13  -32.85  -91.51   -0.01    0.53   -0.01    0.53  -32.85  -91.51
    0.15  -33.80  -92.29    0.01    0.66    0.01    0.66  -33.80  -92.29
    0.17  -33.97  -91.51   -0.01    0.30   -0.01    0.30  -33.97  -91.51
    0.19  -33.86  -89.53    0.01    0.27    0.01    0.27  -33.86  -89.53
    0.21  -33.68  -92.26    0.00    0.07    0.00    0.07  -33.68  -92.26
    0.23  -33.91  -91.59    0.00    0.08    0.00    0.08  -33.91  -91.59
    0.25  -33.36  -89.75    0.01    0.01    0.01    0.01  -33.36  -89.75
    0.27  -33.13  -92.86   -0.01   -0.03   -0.01   -0.03  -33.13  -92.86
    0.29  -33.35  -91.44   -0.01   -0.21   -0.01   -0.21  -33.35  -91.44
    0.31  -32.92  -92.71   -0.02   -0.19   -0.02   -0.19  -32.92  -92.71
    0.33  -32.82  -91.87    0.00   -0.36    0.00   -0.36  -32.82  -91.87
    0.35  -32.50  -92.69   -0.01   -0.47   -0.01   -0.47  -32.50  -92.69
    0.37  -32.25  -91.46   -0.01   -0.54   -0.01   -0.54  -32.25  -91.46
    0.39  -31.91  -91.78   -0.01   -0.59   -0.01   -0.59  -31.91  -91.78
    0.41  -31.63  -92.21    0.00   -0.64    0.00   -0.64  -31.63  -92.21
    0.43  -31.43  -92.84   -0.01   -0.65   -0.01   -0.65  -31.43  -92.84
    0.45  -31.20  -93.40   -0.01   -0.65   -0.01   -0.65  -31.20  -93.40
    0.46  -30.92  -92.80   -0.01   -0.65   -0.01   -0.65  -30.92  -92.80
    0.48  -30.73  -93.84   -0.02   -0.84   -0.02   -0.84  -30.73  -93.84
    0.50  -30.10  -95.00   -0.03   -0.87   -0.03   -0.87  -30.10  -95.00
    0.52  -30.09  -95.22   -0.03   -1.04   -0.03   -1.04  -30.09  -95.22
    0.54  -29.82  -93.94   -0.01   -1.04   -0.01   -1.04  -29.82  -93.94
    0.56  -29.57  -94.43   -0.02   -1.04   -0.02   -1.04  -29.57  -94.43
    0.58  -29.48  -95.05   -0.01   -1.23   -0.01   -1.23  -29.48  -95.05
    0.60  -29.43  -94.95   -0.04   -1.35   -0.04   -1.35  -29.43  -94.95
    0.62  -29.46  -94.15   -0.03   -1.53   -0.03   -1.53  -29.46  -94.15
    0.64  -29.84  -92.49   -0.04   -1.54   -0.04   -1.54  -29.84  -92.49
    0.66  -30.75  -86.90   -0.05   -1.98   -0.05   -1.98  -30.75  -86.90
    0.68  -29.56  -53.28   -0.20   -2.34   -0.20   -2.34  -29.56  -53.28
    0.70  -24.08  -76.89   -0.20   -0.51   -0.20   -0.51  -24.08  -76.89
    0.72  -24.99  -90.39   -0.08   -0.76   -0.08   -0.76  -24.99  -90.39
    0.74  -25.38  -93.50   -0.05   -0.85   -0.05   -0.85  -25.38  -93.50
    0.76  -25.56  -94.77   -0.03   -1.07   -0.03   -1.07  -25.56  -94.77
    0.78  -25.62  -95.32   -0.02   -1.16   -0.02   -1.16  -25.62  -95.32
    0.80  -25.56  -95.88   -0.03   -1.35   -0.03   -1.35  -25.56  -95.88
    0.82  -25.46  -96.19   -0.03   -1.45   -0.03   -1.45  -25.46  -96.19
    0.84  -25.37  -96.15   -0.04   -1.42   -0.04   -1.42  -25.37  -96.15
    0.86  -25.30  -96.53   -0.04   -1.50   -0.04   -1.50  -25.30  -96.53
    0.88  -25.13  -97.12   -0.03   -1.52   -0.03   -1.52  -25.13  -97.12
    0.90  -24.95  -97.13   -0.04   -1.69   -0.04   -1.69  -24.95  -97.13
    0.92  -24.79  -97.12   -0.03   -1.61   -0.03   -1.61  -24.79  -97.12
    0.94  -24.68  -97.66   -0.03   -1.77   -0.03   -1.77  -24.68  -97.66
    0.96  -24.53  -97.93   -0.03   -1.68   -0.03   -1.68  -24.53  -97.93
    0.98  -24.41  -97.79   -0.04   -1.81   -0.04   -1.81  -24.41  -97.79
    1.00  -24.29  -98.02   -0.03   -1.93   -0.03   -1.93  -24.29  -98.02
    1.02  -24.20  -98.41   -0.03   -2.03   -0.03   -2.03  -24.20  -98.41
    1.04  -24.07  -98.10   -0.05   -1.96   -0.05   -1.96  -24.07  -98.10
    1.06  -23.90  -98.55   -0.05   -2.08   -0.05   -2.08  -23.90  -98.55
    1.08  -23.80  -98.45   -0.03   -2.01   -0.03   -2.01  -23.80  -98.45
    1.10  -23.68  -98.70   -0.02   -2.22   -0.02   -2.22  -23.68  -98.70
    1.12  -23.62  -98.60   -0.05   -2.30   -0.05   -2.30  -23.62  -98.60
    1.14  -23.49  -98.59   -0.04   -2.33   -0.04   -2.33  -23.49  -98.59
    1.16  -23.43  -98.87   -0.05   -2.30   -0.05   -2.30  -23.43  -98.87
    1.18  -23.43  -98.60   -0.05   -2.47   -0.05   -2.47  -23.43  -98.60
    1.20  -23.47  -98.65   -0.08   -2.59   -0.08   -2.59  -23.47  -98.65
    1.22  -23.46  -96.29   -0.09   -2.68   -0.09   -2.68  -23.46  -96.29
    1.24  -23.40  -92.65   -0.12   -2.82   -0.12   -2.82  -23.40  -92.65
    1.25  -22.51  -88.59   -0.19   -2.57   -0.19   -2.57  -22.51  -88.59
    1.27  -21.54  -92.15   -0.16   -2.11   -0.16   -2.11  -21.54  -92.15
    1.29  -21.32  -95.76   -0.11   -2.11   -0.11   -2.11  -21.32  -95.76
    1.31  -21.29  -97.94   -0.08   -2.13   -0.08   -2.13  -21.29  -97.94
    1.33  -21.30  -99.01   -0.08   -2.26   -0.08   -2.26  -21.30  -99.01
    1.35  -21.30  -99.56   -0.07   -2.34   -0.07   -2.34  -21.30  -99.56
    1.37  -21.19  -99.99   -0.07   -2.40   -0.07   -2.40  -21.19  -99.99
    1.39  -21.13 -100.24   -0.07   -2.53   -0.07   -2.53  -21.13 -100.24
    1.41  -21.07 -100.53   -0.07   -2.65   -0.07   -2.65  -21.07 -100.53
    1.43  -21.00 -100.78   -0.07   -2.56   -0.07   -2.56  -21.00 -100.78
    1.45  -20.90 -101.39   -0.07   -2.64   -0.07   -2.64  -20.90 -101.39
    1.47  -20.81 -101.34   -0.06   -2.68   -0.06   -2.68  -20.81 -101.34
    1.49  -20.72 -101.50   -0.06   -2.71   -0.06   -2.71  -20.72 -101.50
    1.51  -20.66 -101.55   -0.06   -2.82   -0.06   -2.82  -20.66 -101.55
    1.53  -20.57 -101.81   -0.09   -2.97   -0.09   -2.97  -20.57 -101.81
    1.55  -20.44 -101.92   -0.08   -2.98   -0.08   -2.98  -20.44 -101.92
    1.57  -20.36 -101.97   -0.08   -2.92   -0.08   -2.92  -20.36 -101.97
    1.59  -20.31 -102.07   -0.08   -2.92   -0.08   -2.92  -20.31 -102.07
    1.61  -20.23 -102.34   -0.07   -3.19   -0.07   -3.19  -20.23 -102.34
    1.63  -20.11 -102.53   -0.08   -3.07   -0.08   -3.07  -20.11 -102.53
    1.65  -20.07 -102.41   -0.09   -3.18   -0.09   -3.18  -20.07 -102.41
    1.67  -19.97 -102.73   -0.08   -3.22   -0.08   -3.22  -19.97 -102.73
    1.69  -19.89 -102.55   -0.08   -3.28   -0.08   -3.28  -19.89 -102.55
    1.71  -19.83 -102.62   -0.09   -3.31   -0.09   -3.31  -19.83 -102.62
    1.73  -19.75 -102.29   -0.08   -3.50   -0.08   -3.50  -19.75 -102.29
    1.75  -19.75 -102.20   -0.10   -3.47   -0.10   -3.47  -19.75 -102.20
    1.77  -19.67 -101.73   -0.12   -3.50   -0.12   -3.50  -19.67 -101.73
    1.79  -19.57 -101.15   -0.14   -3.68   -0.14   -3.68  -19.57 -101.15
    1.81  -19.35 -100.08   -0.13   -3.70   -0.13   -3.70  -19.35 -100.08
    1.83  -19.10  -99.65   -0.16   -3.43   -0.16   -3.43  -19.10  -99.65
    1.85  -18.84 -100.29   -0.16   -3.37   -0.16   -3.37  -18.84 -100.29
    1.87  -18.62 -101.28   -0.15   -3.33   -0.15   -3.33  -18.62 -101.28
    1.89  -18.47 -102.05   -0.13   -3.33   -0.13   -3.33  -18.47 -102.05
    1.91  -18.41 -102.80   -0.12   -3.34   -0.12   -3.34  -18.41 -102.80
    1.93  -18.39 -103.27   -0.12   -3.46   -0.12   -3.46  -18.39 -103.27
    1.95  -18.34 -103.71   -0.13   -3.57   -0.13   -3.57  -18.34 -103.71
    1.97  -18.23 -103.82   -0.11   -3.62   -0.11   -3.62  -18.23 -103.82
    1.99  -18.17 -104.02   -0.12   -3.56   -0.12   -3.56  -18.17 -104.02
    2.01  -18.12 -104.35   -0.10   -3.75   -0.10   -3.75  -18.12 -104.35
    2.03  -18.08 -104.65   -0.11   -3.67   -0.11   -3.67  -18.08 -104.65
    2.04  -18.00 -104.91   -0.12   -3.71   -0.12   -3.71  -18.00 -104.91
    2.06  -17.93 -104.88   -0.10   -3.84   -0.10   -3.84  -17.93 -104.88
    2.08  -17.85 -104.89   -0.12   -3.80   -0.12   -3.80  -17.85 -104.89
    2.10  -17.79 -105.28   -0.11   -3.81   -0.11   -3.81  -17.79 -105.28
    2.12  -17.72 -105.22   -0.12   -4.02   -0.12   -4.02  -17.72 -105.22
    2.14  -17.66 -105.16   -0.11   -4.05   -0.11   -4.05  -17.66 -105.16
    2.16  -17.60 -105.33   -0.13   -4.08   -0.13   -4.08  -17.60 -105.33
    2.18  -17.52 -105.64   -0.14   -4.13   -0.14   -4.13  -17.52 -105.64
    2.20  -17.47 -105.74   -0.13   -4.15   -0.13   -4.15  -17.47 -105.74
    2.22  -17.42 -105.77   -0.13   -4.24   -0.13   -4.24  -17.42 -105.77
    2.24  -17.34 -105.78   -0.13   -4.29   -0.13   -4.29  -17.34 -105.78
    2.26  -17.31 -105.75   -0.13   -4.20   -0.13   -4.20  -17.31 -105.75
    2.28  -17.22 -105.68   -0.13   -4.50   -0.13   -4.50  -17.22 -105.68
    2.30  -17.14 -105.76   -0.15   -4.30   -0.15   -4.30  -17.14 -105.76
    2.32  -17.11 -105.80   -0.16   -4.53   -0.16   -4.53  -17.11 -105.80
    2.34  -17.07 -105.34   -0.16   -4.46   -0.16   -4.46  -17.07 -105.34
    2.36  -16.96 -105.24   -0.17   -4.63   -0.17   -4.63  -16.96 -105.24
    2.38  -16.83 -105.07   -0.17   -4.47   -0.17   -4.47  -16.83 -105.07
    2.40  -16.70 -105.19   -0.19   -4.32   -0.19   -4.32  -16.70 -105.19
    2.42  -16.59 -105.40   -0.19   -4.37   -0.19   -4.37  -16.59 -105.40
    2.44  -16.51 -105.74   -0.18   -4.50   -0.18   -4.50  -16.51 -105.74
    2.46  -16.39 -105.77   -0.17   -4.35   -0.17   -4.35  -16.39 -105.77
    2.48  -16.29 -106.26   -0.17   -4.49   -0.17   -4.49  -16.29 -106.26
    2.50  -16.24 -106.60   -0.18   -4.58   -0.18   -4.58  -16.24 -106.60
    2.52  -16.20 -107.07   -0.18   -4.47   -0.18   -4.47  -16.20 -107.07
    2.54  -16.15 -107.04   -0.18   -4.56   -0.18   -4.56  -16.15 -107.04
    2.56  -16.07 -107.31   -0.18   -4.56   -0.18   -4.56  -16.07 -107.31
    2.58  -16.05 -107.37   -0.15   -4.66   -0.15   -4.66  -16.05 -107.37
    2.60  -15.99 -107.93   -0.17   -4.84   -0.17   -4.84  -15.99 -107.93
    2.62  -15.98 -108.08   -0.19   -4.83   -0.19   -4.83  -15.98 -108.08
    2.64  -15.85 -107.91   -0.16   -4.70   -0.16   -4.70  -15.85 -107.91
    2.66  -15.82 -107.95   -0.17   -4.89   -0.17   -4.89  -15.82 -107.95
    2.68  -15.76 -108.20   -0.16   -5.06   -0.16   -5.06  -15.76 -108.20
    2.70  -15.71 -108.24   -0.18   -4.81   -0.18   -4.81  -15.71 -108.24
    2.72  -15.67 -108.40   -0.20   -4.96   -0.20   -4.96  -15.67 -108.40
    2.74  -15.65 -108.55   -0.18   -5.01   -0.18   -5.01  -15.65 -108.55
    2.76  -15.59 -108.52   -0.19   -5.11   -0.19   -5.11  -15.59 -108.52
    2.78  -15.55 -108.74   -0.19   -5.17   -0.19   -5.17  -15.55 -108.74
    2.80  -15.46 -108.63   -0.19   -5.23   -0.19   -5.23  -15.46 -108.63
    2.82  -15.44 -108.62   -0.21   -5.11   -0.21   -5.11  -15.44 -108.62
    2.83  -15.38 -108.59   -0.20   -5.23   -0.20   -5.23  -15.38 -108.59
    2.85  -15.34 -108.65   -0.23   -5.21   -0.23   -5.21  -15.34 -108.65
    2.87  -15.25 -108.49   -0.21   -5.36   -0.21   -5.36  -15.25 -108.49
    2.89  -15.17 -108.70   -0.23   -5.32   -0.23   -5.32  -15.17 -108.70
    2.91  -15.14 -108.71   -0.22   -5.40   -0.22   -5.40  -15.14 -108.71
    2.93  -15.12 -108.74   -0.24   -5.32   -0.24   -5.32  -15.12 -108.74
    2.95  -15.00 -108.56   -0.23   -5.41   -0.23   -5.41  -15.00 -108.56
    2.97  -14.93 -108.59   -0.24   -5.43   -0.24   -5.43  -14.93 -108.59
    2.99  -14.86 -108.81   -0.23   -5.50   -0.23   -5.50  -14.86 -108.81
    3.01  -14.80 -108.86   -0.24   -5.38   -0.24   -5.38  -14.80 -108.86
    3.03  -14.75 -109.10   -0.26   -5.43   -0.26   -5.43  -14.75 -109.10
    3.05  -14.67 -109.12   -0.23   -5.39   -0.23   -5.39  -14.67 -109.12
    3.07  -14.63 -109.46   -0.24   -5.41   -0.24   -5.41  -14.63 -109.46
    3.09  -14.61 -109.87   -0.24   -5.70   -0.24   -5.70  -14.61 -109.87
    3.11  -14.58 -109.94   -0.26   -5.68   -0.26   -5.68  -14.58 -109.94
    3.13  -14.50 -109.65   -0.24   -5.62   -0.24   -5.62  -14.50 -109.65
    3.15  -14.44 -109.80   -0.25   -5.65   -0.25   -5.65  -14.44 -109.80
    3.17  -14.42 -109.89   -0.24   -5.71   -0.24   -5.71  -14.42 -109.89
    3.19  -14.42 -110.06   -0.26   -5.69   -0.26   -5.69  -14.42 -110.06
    3.21  -14.33 -109.86   -0.26   -5.67   -0.26   -5.67  -14.33 -109.86
    3.23  -14.26 -110.25   -0.25   -5.83   -0.25   -5.83  -14.26 -110.25
    3.25  -14.24 -110.33   -0.25   -5.92   -0.25   -5.92  -14.24 -110.33
    3.27  -14.20 -110.28   -0.26   -5.85   -0.26   -5.85  -14.20 -110.28
    3.29  -14.16 -110.40   -0.26   -5.91   -0.26   -5.91  -14.16 -110.40
    3.31  -14.12 -110.41   -0.27   -6.02   -0.27   -6.02  -14.12 -110.41
    3.33  -14.08 -110.49   -0.26   -6.07   -0.26   -6.07  -14.08 -110.49
    3.35  -14.05 -110.37   -0.28   -6.04   -0.28   -6.04  -14.05 -110.37
    3.37  -13.97 -110.52   -0.29   -6.10   -0.29   -6.10  -13.97 -110.52
    3.39  -13.92 -110.32   -0.28   -6.15   -0.28   -6.15  -13.92 -110.32
    3.41  -13.88 -110.51   -0.28   -6.17   -0.28   -6.17  -13.88 -110.51
    3.43  -13.85 -110.66   -0.29   -6.12   -0.29   -6.12  -13.85 -110.66
    3.45  -13.82 -110.63   -0.30   -6.15   -0.30   -6.15  -13.82 -110.63
    3.47  -13.74 -110.64   -0.31   -6.26   -0.31   -6.26  -13.74 -110.64
    3.49  -13.72 -110.75   -0.31   -6.29   -0.31   -6.29  -13.72 -110.75
    3.51  -13.68 -110.75   -0.31   -6.28   -0.31   -6.28  -13.68 -110.75
    3.53  -13.58 -110.68   -0.32   -6.24   -0.32   -6.24  -13.58 -110.68
    3.55  -13.53 -110.70   -0.32   -6.32   -0.32   -6.32  -13.53 -110.70
    3.57  -13.47 -110.78   -0.32   -6.38   -0.32   -6.38  -13.47 -110.78
    3.59  -13.43 -110.94   -0.33   -6.26   -0.33   -6.26  -13.43 -110.94
    3.61  -13.37 -111.10   -0.32   -6.48   -0.32   -6.48  -13.37 -111.10
    3.62  -13.31 -111.36   -0.32   -6.44   -0.32   -6.44  -13.31 -111.36
    3.64  -13.29 -111.34   -0.33   -6.44   -0.33   -6.44  -13.29 -111.34
    3.66  -13.26 -111.51   -0.32   -6.49   -0.32   -6.49  -13.26 -111.51
    3.68  -13.24 -111.58   -0.33   -6.62   -0.33   -6.62  -13.24 -111.58
    3.70  -13.17 -111.52   -0.34   -6.56   -0.34   -6.56  -13.17 -111.52
    3.72  -13.11 -111.40   -0.35   -6.60   -0.35   -6.60  -13.11 -111.40
    3.74  -13.10 -111.70   -0.34   -6.83   -0.34   -6.83  -13.10 -111.70
    3.76  -13.04 -111.94   -0.34   -6.67   -0.34   -6.67  -13.04 -111.94
    3.78  -13.04 -112.11   -0.34   -6.82   -0.34   -6.82  -13.04 -112.11
    3.80  -13.01 -111.92   -0.35   -6.67   -0.35   -6.67  -13.01 -111.92
    3.82  -12.94 -111.81   -0.36   -6.72   -0.36   -6.72  -12.94 -111.81
    3.84  -12.91 -111.91   -0.35   -6.83   -0.35   -6.83  -12.91 -111.91
    3.86  -12.86 -112.03   -0.37   -6.91   -0.37   -6.91  -12.86 -112.03
    3.88  -12.80 -112.03   -0.37   -6.91   -0.37   -6.91  -12.80 -112.03
    3.90  -12.77 -111.95   -0.37   -6.95   -0.37   -6.95  -12.77 -111.95
    3.92  -12.73 -112.01   -0.38   -6.96   -0.38   -6.96  -12.73 -112.01
    3.94  -12.69 -112.08   -0.37   -7.03   -0.37   -7.03  -12.69 -112.08
    3.96  -12.63 -112.10   -0.38   -7.03   -0.38   -7.03  -12.63 -112.10
    3.98  -12.58 -112.17   -0.39   -7.20   -0.39   -7.20  -12.58 -112.17
    4.00  -12.76 -113.81   -0.35   -7.23   -0.35   -7.23  -12.76 -113.81
