!  American Technical Ceramics  Date:    3/13/98
!  One Norden Lane
!  Huntington Station,  NY.   11746-2102
!  Tel:  (516) 547-5700               Fax:  (516) 547-5748
!  Part Number  100b220f
!  Description: Porcelain, High Q, Low ESR
!  Application: Bypass, Coupling, Timing, Feedback
!               Tuning, Impedance Match, Blocking
# GHZ S DB R 50
! Freq   |S11|   S11 Ph  |S21|   S21 Ph  |S12|   S12 Ph  |S22|   S22 Ph
    0.05   -1.59  -34.75   -4.95   55.61   -4.95   55.61   -1.59  -34.75
    0.11   -5.18  -57.25   -1.57   32.74   -1.57   32.74   -5.18  -57.25
    0.17   -8.03  -68.34   -0.75   22.23   -0.75   22.23   -8.03  -68.34
    0.24  -10.30  -74.11   -0.42   16.67   -0.42   16.67  -10.30  -74.11
    0.30  -12.02  -78.00   -0.27   13.02   -0.27   13.02  -12.02  -78.00
    0.36  -13.42  -80.57   -0.18   10.76   -0.18   10.76  -13.42  -80.57
    0.42  -14.49  -82.71   -0.14    8.81   -0.14    8.81  -14.49  -82.71
    0.48  -15.39  -84.20   -0.10    7.57   -0.10    7.57  -15.39  -84.20
    0.54  -16.30  -85.58   -0.12    6.12   -0.12    6.12  -16.30  -85.58
    0.61  -16.92  -87.00   -0.09    5.28   -0.09    5.28  -16.92  -87.00
    0.67  -17.36  -87.89   -0.09    4.71   -0.09    4.71  -17.36  -87.89
    0.73  -17.74  -88.80   -0.07    4.03   -0.07    4.03  -17.74  -88.80
    0.79  -18.07  -89.59   -0.09    3.54   -0.09    3.54  -18.07  -89.59
    0.85  -18.31  -90.81   -0.08    3.07   -0.08    3.07  -18.31  -90.81
    0.91  -18.51  -91.48   -0.06    2.61   -0.06    2.61  -18.51  -91.48
    0.98  -18.60  -92.63   -0.08    2.19   -0.08    2.19  -18.60  -92.63
    1.04  -18.73  -93.24   -0.06    1.80   -0.06    1.80  -18.73  -93.24
    1.10  -18.84  -93.99   -0.08    1.54   -0.08    1.54  -18.84  -93.99
    1.16  -18.80  -94.91   -0.06    1.07   -0.06    1.07  -18.80  -94.91
    1.22  -18.81  -95.24   -0.07    0.86   -0.07    0.86  -18.81  -95.24
    1.29  -18.85  -95.90   -0.08    0.53   -0.08    0.53  -18.85  -95.90
    1.35  -18.79  -96.81   -0.06    0.26   -0.06    0.26  -18.79  -96.81
    1.41  -18.71  -97.36   -0.07    0.10   -0.07    0.10  -18.71  -97.36
    1.47  -18.65  -97.97   -0.08   -0.20   -0.08   -0.20  -18.65  -97.97
    1.53  -18.59  -98.66   -0.09   -0.44   -0.09   -0.44  -18.59  -98.66
    1.59  -18.53  -99.53   -0.07   -0.63   -0.07   -0.63  -18.53  -99.53
    1.66  -18.40  -99.83   -0.08   -0.91   -0.08   -0.91  -18.40  -99.83
    1.72  -18.32 -100.38   -0.09   -1.16   -0.09   -1.16  -18.32 -100.38
    1.78  -18.21 -100.92   -0.10   -1.28   -0.10   -1.28  -18.21 -100.92
    1.84  -18.12 -101.69   -0.09   -1.55   -0.09   -1.55  -18.12 -101.69
    1.90  -17.91 -101.66   -0.08   -1.73   -0.08   -1.73  -17.91 -101.66
    1.96  -17.82 -102.00   -0.09   -1.96   -0.09   -1.96  -17.82 -102.00
    2.03  -17.78 -103.06   -0.11   -2.05   -0.11   -2.05  -17.78 -103.06
    2.09  -17.66 -103.41   -0.10   -2.25   -0.10   -2.25  -17.66 -103.41
    2.15  -17.43 -103.54   -0.11   -2.40   -0.11   -2.40  -17.43 -103.54
    2.21  -17.36 -104.30   -0.12   -2.70   -0.12   -2.70  -17.36 -104.30
    2.27  -17.25 -104.88   -0.13   -2.74   -0.13   -2.74  -17.25 -104.88
    2.33  -17.14 -105.36   -0.12   -2.85   -0.12   -2.85  -17.14 -105.36
    2.40  -16.95 -105.48   -0.12   -3.14   -0.12   -3.14  -16.95 -105.48
    2.46  -16.87 -106.00   -0.11   -3.31   -0.11   -3.31  -16.87 -106.00
    2.52  -16.76 -106.73   -0.14   -3.38   -0.14   -3.38  -16.76 -106.73
    2.58  -16.61 -106.69   -0.12   -3.57   -0.12   -3.57  -16.61 -106.69
    2.64  -16.49 -106.61   -0.14   -3.76   -0.14   -3.76  -16.49 -106.61
    2.71  -16.37 -107.20   -0.14   -4.00   -0.14   -4.00  -16.37 -107.20
    2.77  -16.32 -108.09   -0.14   -4.10   -0.14   -4.10  -16.32 -108.09
    2.83  -16.17 -107.74   -0.13   -4.19   -0.13   -4.19  -16.17 -107.74
    2.89  -15.97 -107.99   -0.15   -4.25   -0.15   -4.25  -15.97 -107.99
    2.95  -15.99 -108.98   -0.16   -4.62   -0.16   -4.62  -15.99 -108.98
    3.01  -15.87 -109.17   -0.19   -4.72   -0.19   -4.72  -15.87 -109.17
    3.08  -15.73 -109.48   -0.16   -4.87   -0.16   -4.87  -15.73 -109.48
    3.14  -15.66 -109.36   -0.17   -4.95   -0.17   -4.95  -15.66 -109.36
    3.20  -15.63 -109.67   -0.22   -5.27   -0.22   -5.27  -15.63 -109.67
    3.26  -15.50 -110.34   -0.18   -5.34   -0.18   -5.34  -15.50 -110.34
    3.32  -15.45 -110.23   -0.19   -5.60   -0.19   -5.60  -15.45 -110.23
    3.38  -15.22 -110.09   -0.21   -5.82   -0.21   -5.82  -15.22 -110.09
    3.45  -15.24 -111.15   -0.21   -5.92   -0.21   -5.92  -15.24 -111.15
    3.51  -15.17 -111.28   -0.21   -6.03   -0.21   -6.03  -15.17 -111.28
    3.57  -15.01 -110.73   -0.20   -6.24   -0.20   -6.24  -15.01 -110.73
    3.63  -14.93 -111.50   -0.23   -6.34   -0.23   -6.34  -14.93 -111.50
    3.69  -14.99 -112.01   -0.25   -6.75   -0.25   -6.75  -14.99 -112.01
    3.76  -14.82 -112.06   -0.24   -6.80   -0.24   -6.80  -14.82 -112.06
    3.82  -14.79 -112.09   -0.22   -7.22   -0.22   -7.22  -14.79 -112.09
    3.88  -14.68 -112.08   -0.26   -7.35   -0.26   -7.35  -14.68 -112.08
    3.94  -14.69 -112.75   -0.28   -7.46   -0.28   -7.46  -14.69 -112.75
    4.00  -14.91 -114.87   -0.23   -7.82   -0.23   -7.82  -14.91 -114.87
    4.06  -14.94 -114.90   -0.25   -8.09   -0.25   -8.09  -14.94 -114.90
    4.13  -15.02 -115.31   -0.24   -8.51   -0.24   -8.51  -15.02 -115.31
    4.19  -15.27 -115.80   -0.26   -8.82   -0.26   -8.82  -15.27 -115.80
    4.25  -15.32 -115.74   -0.24   -9.01   -0.24   -9.01  -15.32 -115.74
    4.31  -15.68 -116.24   -0.25   -9.74   -0.25   -9.74  -15.68 -116.24
    4.37  -16.24 -116.31   -0.28  -10.44   -0.28  -10.44  -16.24 -116.31
    4.43  -17.11 -116.12   -0.30  -11.37   -0.30  -11.37  -17.11 -116.12
    4.50  -18.65 -112.43   -0.35  -12.90   -0.35  -12.90  -18.65 -112.43
    4.56  -21.65  -92.92   -0.52  -15.67   -0.52  -15.67  -21.65  -92.92
    4.62  -17.52  -36.61   -1.34  -19.84   -1.34  -19.84  -17.52  -36.61
    4.68   -9.36  -56.33   -3.48  -11.77   -3.48  -11.77   -9.36  -56.33
    4.74   -8.50  -88.45   -1.95    0.73   -1.95    0.73   -8.50  -88.45
    4.80   -9.56 -101.47   -1.10   -1.18   -1.10   -1.18   -9.56 -101.47
    4.87  -10.34 -106.97   -0.77   -2.75   -0.77   -2.75  -10.34 -106.97
    4.93  -10.90 -109.52   -0.65   -3.72   -0.65   -3.72  -10.90 -109.52
    4.99  -11.23 -111.66   -0.53   -4.73   -0.53   -4.73  -11.23 -111.66
    5.05  -11.59 -112.00   -0.54   -5.32   -0.54   -5.32  -11.59 -112.00
    5.11  -11.79 -113.55   -0.47   -5.75   -0.47   -5.75  -11.79 -113.55
    5.18  -12.04 -114.03   -0.49   -6.09   -0.49   -6.09  -12.04 -114.03
    5.24  -12.18 -114.15   -0.45   -6.31   -0.45   -6.31  -12.18 -114.15
    5.30  -12.27 -114.29   -0.45   -6.76   -0.45   -6.76  -12.27 -114.29
    5.36  -12.43 -115.59   -0.45   -7.04   -0.45   -7.04  -12.43 -115.59
    5.42  -12.66 -114.99   -0.44   -7.19   -0.44   -7.19  -12.66 -114.99
    5.48  -12.57 -115.10   -0.40   -7.38   -0.40   -7.38  -12.57 -115.10
    5.55  -12.81 -115.38   -0.44   -7.60   -0.44   -7.60  -12.81 -115.38
    5.61  -12.91 -115.67   -0.43   -7.79   -0.43   -7.79  -12.91 -115.67
    5.67  -13.00 -115.41   -0.44   -7.79   -0.44   -7.79  -13.00 -115.41
    5.73  -13.00 -115.86   -0.42   -7.98   -0.42   -7.98  -13.00 -115.86
    5.79  -13.18 -116.02   -0.43   -8.19   -0.43   -8.19  -13.18 -116.02
    5.85  -13.24 -116.44   -0.39   -8.27   -0.39   -8.27  -13.24 -116.44
    5.92  -13.45 -116.76   -0.42   -8.45   -0.42   -8.45  -13.45 -116.76
    5.98  -13.45 -116.58   -0.39   -8.63   -0.39   -8.63  -13.45 -116.58
    6.04  -13.67 -116.28   -0.42   -8.88   -0.42   -8.88  -13.67 -116.28
    6.10  -13.76 -116.73   -0.40   -9.05   -0.40   -9.05  -13.76 -116.73
    6.16  -13.92 -116.59   -0.42   -9.22   -0.42   -9.22  -13.92 -116.59
    6.23  -13.93 -116.23   -0.41   -9.32   -0.41   -9.32  -13.93 -116.23
    6.29  -14.07 -116.73   -0.41   -9.41   -0.41   -9.41  -14.07 -116.73
    6.35  -14.22 -117.17   -0.41   -9.50   -0.41   -9.50  -14.22 -117.17
    6.41  -14.39 -117.48   -0.43   -9.59   -0.43   -9.59  -14.39 -117.48
    6.47  -14.39 -117.06   -0.38  -10.05   -0.38  -10.05  -14.39 -117.06
    6.53  -14.74 -117.47   -0.42  -10.06   -0.42  -10.06  -14.74 -117.47
    6.60  -14.88 -117.58   -0.41  -10.28   -0.41  -10.28  -14.88 -117.58
    6.66  -15.02 -116.61   -0.42  -10.50   -0.42  -10.50  -15.02 -116.61
    6.72  -15.12 -116.44   -0.43  -10.73   -0.43  -10.73  -15.12 -116.44
    6.78  -15.36 -116.30   -0.47  -10.77   -0.47  -10.77  -15.36 -116.30
    6.84  -15.53 -115.32   -0.46  -10.93   -0.46  -10.93  -15.53 -115.32
    6.90  -15.52 -115.20   -0.47  -11.05   -0.47  -11.05  -15.52 -115.20
    6.97  -15.56 -114.39   -0.47  -11.38   -0.47  -11.38  -15.56 -114.39
    7.03  -15.83 -114.33   -0.51  -11.19   -0.51  -11.19  -15.83 -114.33
    7.09  -15.82 -114.21   -0.51  -11.49   -0.51  -11.49  -15.82 -114.21
    7.15  -15.93 -113.41   -0.52  -11.57   -0.52  -11.57  -15.93 -113.41
    7.21  -16.05 -112.90   -0.54  -11.67   -0.54  -11.67  -16.05 -112.90
    7.27  -16.21 -112.12   -0.57  -11.96   -0.57  -11.96  -16.21 -112.12
    7.34  -16.16 -111.66   -0.57  -11.96   -0.57  -11.96  -16.16 -111.66
    7.40  -16.09 -111.44   -0.58  -12.04   -0.58  -12.04  -16.09 -111.44
    7.46  -16.19 -110.41   -0.58  -12.10   -0.58  -12.10  -16.19 -110.41
    7.52  -16.30 -110.93   -0.61  -11.99   -0.61  -11.99  -16.30 -110.93
    7.58  -16.17 -110.60   -0.62  -12.09   -0.62  -12.09  -16.17 -110.60
    7.65  -16.23 -110.60   -0.58  -12.09   -0.58  -12.09  -16.23 -110.60
    7.71  -16.20 -111.51   -0.60  -12.45   -0.60  -12.45  -16.20 -111.51
    7.77  -16.40 -112.62   -0.59  -12.19   -0.59  -12.19  -16.40 -112.62
    7.83  -16.62 -112.76   -0.56  -12.58   -0.56  -12.58  -16.62 -112.76
    7.89  -16.65 -112.43   -0.56  -12.70   -0.56  -12.70  -16.65 -112.43
    7.95  -16.98 -112.27   -0.57  -12.91   -0.57  -12.91  -16.98 -112.27
    8.02  -17.25 -113.25   -0.58  -13.11   -0.58  -13.11  -17.25 -113.25
    8.08  -17.37 -111.59   -0.57  -13.72   -0.57  -13.72  -17.37 -111.59
    8.14  -17.68 -111.19   -0.57  -14.01   -0.57  -14.01  -17.68 -111.19
    8.20  -18.03 -110.34   -0.60  -14.38   -0.60  -14.38  -18.03 -110.34
    8.26  -18.38 -109.21   -0.62  -14.86   -0.62  -14.86  -18.38 -109.21
    8.32  -18.82 -106.18   -0.62  -15.44   -0.62  -15.44  -18.82 -106.18
    8.39  -19.30 -102.18   -0.68  -16.34   -0.68  -16.34  -19.30 -102.18
    8.45  -19.91  -94.17   -0.72  -17.38   -0.72  -17.38  -19.91  -94.17
    8.51  -19.58  -81.00   -0.91  -18.64   -0.91  -18.64  -19.58  -81.00
    8.57  -17.65  -66.36   -1.25  -19.99   -1.25  -19.99  -17.65  -66.36
    8.63  -14.30  -64.44   -1.90  -19.77   -1.90  -19.77  -14.30  -64.44
    8.70  -11.76  -77.30   -2.49  -14.73   -2.49  -14.73  -11.76  -77.30
    8.76  -11.05  -94.60   -2.15   -9.25   -2.15   -9.25  -11.05  -94.60
    8.82  -11.43 -105.72   -1.58   -7.83   -1.58   -7.83  -11.43 -105.72
    8.88  -12.10 -112.89   -1.23   -8.33   -1.23   -8.33  -12.10 -112.89
    8.94  -12.78 -117.29   -1.03   -8.81   -1.03   -8.81  -12.78 -117.29
    9.00  -13.25 -120.49   -0.91   -9.51   -0.91   -9.51  -13.25 -120.49
    9.07  -13.63 -122.09   -0.84  -10.42   -0.84  -10.42  -13.63 -122.09
    9.13  -13.99 -123.80   -0.82  -10.85   -0.82  -10.85  -13.99 -123.80
    9.19  -14.35 -125.94   -0.78  -11.15   -0.78  -11.15  -14.35 -125.94
    9.25  -14.55 -127.51   -0.73  -11.86   -0.73  -11.86  -14.55 -127.51
    9.31  -14.82 -128.16   -0.71  -11.95   -0.71  -11.95  -14.82 -128.16
    9.37  -15.02 -130.15   -0.71  -12.27   -0.71  -12.27  -15.02 -130.15
    9.44  -15.37 -131.51   -0.71  -12.65   -0.71  -12.65  -15.37 -131.51
    9.50  -15.50 -133.01   -0.70  -12.90   -0.70  -12.90  -15.50 -133.01
    9.56  -15.67 -133.49   -0.70  -13.38   -0.70  -13.38  -15.67 -133.49
    9.62  -15.97 -135.13   -0.69  -13.44   -0.69  -13.44  -15.97 -135.13
    9.68  -16.13 -137.15   -0.69  -13.55   -0.69  -13.55  -16.13 -137.15
    9.74  -16.32 -138.40   -0.69  -14.10   -0.69  -14.10  -16.32 -138.40
    9.81  -16.53 -138.98   -0.67  -14.29   -0.67  -14.29  -16.53 -138.98
    9.87  -16.80 -141.19   -0.69  -14.47   -0.69  -14.47  -16.80 -141.19
    9.93  -17.16 -142.42   -0.68  -14.85   -0.68  -14.85  -17.16 -142.42
    9.99  -17.25 -144.16   -0.69  -15.06   -0.69  -15.06  -17.25 -144.16
   10.05  -17.60 -145.50   -0.69  -15.19   -0.69  -15.19  -17.60 -145.50
   10.12  -17.90 -147.74   -0.71  -15.55   -0.71  -15.55  -17.90 -147.74
   10.18  -18.13 -148.79   -0.71  -15.84   -0.71  -15.84  -18.13 -148.79
   10.24  -18.34 -151.00   -0.71  -16.14   -0.71  -16.14  -18.34 -151.00
   10.30  -18.69 -152.96   -0.72  -16.42   -0.72  -16.42  -18.69 -152.96
   10.36  -19.01 -155.39   -0.73  -16.65   -0.73  -16.65  -19.01 -155.39
   10.42  -19.43 -158.05   -0.76  -17.05   -0.76  -17.05  -19.43 -158.05
   10.49  -19.72 -160.60   -0.79  -17.22   -0.79  -17.22  -19.72 -160.60
   10.55  -20.19 -163.02   -0.79  -17.49   -0.79  -17.49  -20.19 -163.02
   10.61  -20.58 -167.07   -0.83  -17.72   -0.83  -17.72  -20.58 -167.07
   10.67  -21.01 -171.16   -0.89  -17.67   -0.89  -17.67  -21.01 -171.16
   10.73  -21.65 -176.36   -0.89  -17.99   -0.89  -17.99  -21.65 -176.36
   10.79  -22.23  179.24   -0.95  -18.16   -0.95  -18.16  -22.23  179.24
   10.86  -22.98  172.90   -0.97  -18.10   -0.97  -18.10  -22.98  172.90
   10.92  -23.80  166.52   -1.03  -18.19   -1.03  -18.19  -23.80  166.52
   10.98  -24.44  159.84   -0.99  -18.31   -0.99  -18.31  -24.44  159.84
   11.04  -25.07  150.73   -1.01  -18.27   -1.01  -18.27  -25.07  150.73
   11.10  -25.74  139.99   -1.03  -18.39   -1.03  -18.39  -25.74  139.99
   11.17  -26.28  129.34   -1.04  -18.47   -1.04  -18.47  -26.28  129.34
   11.23  -26.47  117.10   -1.08  -18.62   -1.08  -18.62  -26.47  117.10
   11.29  -26.41  105.77   -1.02  -18.88   -1.02  -18.88  -26.41  105.77
   11.35  -25.96   93.76   -1.04  -19.00   -1.04  -19.00  -25.96   93.76
   11.41  -25.07   81.73   -1.05  -19.19   -1.05  -19.19  -25.07   81.73
   11.47  -24.31   71.26   -1.10  -19.28   -1.10  -19.28  -24.31   71.26
   11.54  -23.77   62.14   -1.08  -19.41   -1.08  -19.41  -23.77   62.14
   11.60  -23.23   55.41   -1.08  -19.45   -1.08  -19.45  -23.23   55.41
   11.66  -22.48   50.84   -1.08  -19.60   -1.08  -19.60  -22.48   50.84
   11.72  -21.74   46.39   -1.08  -19.97   -1.08  -19.97  -21.74   46.39
   11.78  -21.03   42.76   -1.10  -20.30   -1.10  -20.30  -21.03   42.76
   11.84  -20.27   39.31   -1.11  -20.61   -1.11  -20.61  -20.27   39.31
   11.91  -19.63   36.19   -1.13  -20.71   -1.13  -20.71  -19.63   36.19
   11.97  -18.88   33.41   -1.15  -21.21   -1.15  -21.21  -18.88   33.41
   12.03  -18.37   30.78   -1.23  -21.45   -1.23  -21.45  -18.37   30.78
   12.09  -17.65   27.42   -1.19  -22.18   -1.19  -22.18  -17.65   27.42
   12.15  -16.98   24.30   -1.28  -22.61   -1.28  -22.61  -16.98   24.30
   12.21  -16.28   21.15   -1.38  -22.97   -1.38  -22.97  -16.28   21.15
   12.28  -15.80   16.94   -1.46  -23.82   -1.46  -23.82  -15.80   16.94
   12.34  -15.14   12.34   -1.60  -24.29   -1.60  -24.29  -15.14   12.34
   12.40  -14.65    6.34   -1.82  -24.83   -1.82  -24.83  -14.65    6.34
