!  American Technical Ceramics  Date:    3/13/98
!  One Norden Lane
!  Huntington Station,  NY.   11746-2102
!  Tel:  (516) 547-5700               Fax:  (516) 547-5748
!  Part Number  180r4r7c
!  Description: Porcelain, High Q, Low ESR
!  Application: Bypass, Coupling, Timing, Feedback
!               Tuning, Impedance Match, Blocking
# GHZ S DB R 50
! Freq   |S11|   S11 Ph  |S21|   S21 Ph  |S12|   S12 Ph  |S22|   S22 Ph
    0.05    0.05   -8.85  -16.74   81.65  -16.74   81.65    0.05   -8.85
    0.14   -0.63  -23.51   -8.40   66.91   -8.40   66.91   -0.63  -23.51
    0.23   -1.58  -35.78   -5.07   55.20   -5.07   55.20   -1.58  -35.78
    0.32   -2.65  -45.73   -3.30   45.78   -3.30   45.78   -2.65  -45.73
    0.41   -3.75  -52.95   -2.32   38.67   -2.32   38.67   -3.75  -52.95
    0.50   -4.75  -58.83   -1.71   33.12   -1.71   33.12   -4.75  -58.83
    0.59   -5.88  -64.00   -1.32   28.27   -1.32   28.27   -5.88  -64.00
    0.68   -6.71  -67.76   -1.06   24.90   -1.06   24.90   -6.71  -67.76
    0.77   -7.45  -70.77   -0.87   22.13   -0.87   22.13   -7.45  -70.77
    0.86   -8.09  -73.36   -0.76   19.98   -0.76   19.98   -8.09  -73.36
    0.95   -8.63  -75.55   -0.66   18.05   -0.66   18.05   -8.63  -75.55
    1.04   -9.12  -77.61   -0.61   16.43   -0.61   16.43   -9.12  -77.61
    1.13   -9.52  -79.32   -0.53   15.03   -0.53   15.03   -9.52  -79.32
    1.22   -9.91  -80.52   -0.51   13.94   -0.51   13.94   -9.91  -80.52
    1.31  -10.25  -81.60   -0.45   12.88   -0.45   12.88  -10.25  -81.60
    1.40  -10.53  -83.08   -0.41   12.01   -0.41   12.01  -10.53  -83.08
    1.49  -10.79  -84.51   -0.38   11.15   -0.38   11.15  -10.79  -84.51
    1.58  -11.01  -85.69   -0.35   10.41   -0.35   10.41  -11.01  -85.69
    1.67  -11.23  -86.50   -0.36    9.84   -0.36    9.84  -11.23  -86.50
    1.76  -11.40  -87.22   -0.35    9.14   -0.35    9.14  -11.40  -87.22
    1.85  -11.54  -88.33   -0.33    8.52   -0.33    8.52  -11.54  -88.33
    1.93  -11.72  -88.84   -0.33    8.18   -0.33    8.18  -11.72  -88.84
    2.02  -11.79  -89.62   -0.32    7.35   -0.32    7.35  -11.79  -89.62
    2.11  -11.86  -90.21   -0.33    7.00   -0.33    7.00  -11.86  -90.21
    2.20  -11.97  -90.75   -0.33    6.78   -0.33    6.78  -11.97  -90.75
    2.29  -12.05  -91.58   -0.31    6.16   -0.31    6.16  -12.05  -91.58
    2.38  -12.08  -92.01   -0.32    5.75   -0.32    5.75  -12.08  -92.01
    2.47  -12.16  -92.72   -0.29    5.46   -0.29    5.46  -12.16  -92.72
    2.56  -12.21  -92.60   -0.31    5.30   -0.31    5.30  -12.21  -92.60
    2.65  -12.23  -93.29   -0.30    4.91   -0.30    4.91  -12.23  -93.29
    2.74  -12.22  -94.21   -0.30    4.53   -0.30    4.53  -12.22  -94.21
    2.83  -12.29  -94.77   -0.30    4.29   -0.30    4.29  -12.29  -94.77
    2.92  -12.27  -95.82   -0.29    4.14   -0.29    4.14  -12.27  -95.82
    3.01  -12.24  -96.14   -0.31    3.62   -0.31    3.62  -12.24  -96.14
    3.10  -12.28  -97.11   -0.34    3.37   -0.34    3.37  -12.28  -97.11
    3.19  -12.23  -96.96   -0.37    2.98   -0.37    2.98  -12.23  -96.96
    3.28  -12.11  -98.11   -0.33    2.83   -0.33    2.83  -12.11  -98.11
    3.37  -12.07  -97.58   -0.40    2.62   -0.40    2.62  -12.07  -97.58
    3.46  -11.99  -98.69   -0.35    2.23   -0.35    2.23  -11.99  -98.69
    3.55  -11.89  -98.57   -0.38    2.12   -0.38    2.12  -11.89  -98.57
    3.64  -11.74  -99.68   -0.35    1.98   -0.35    1.98  -11.74  -99.68
    3.73  -11.74  -99.35   -0.40    1.60   -0.40    1.60  -11.74  -99.35
    3.82  -11.66 -100.60   -0.38    1.52   -0.38    1.52  -11.66 -100.60
    3.91  -11.54 -100.72   -0.44    1.49   -0.44    1.49  -11.54 -100.72
    4.00  -11.54 -102.98   -0.39    1.13   -0.39    1.13  -11.54 -102.98
    4.09  -11.48 -103.33   -0.42    1.03   -0.42    1.03  -11.48 -103.33
    4.18  -11.40 -104.78   -0.43    0.66   -0.43    0.66  -11.40 -104.78
    4.27  -11.19 -105.37   -0.43    0.81   -0.43    0.81  -11.19 -105.37
    4.36  -11.22 -105.76   -0.47    0.40   -0.47    0.40  -11.22 -105.76
    4.45  -11.07 -106.23   -0.47    0.35   -0.47    0.35  -11.07 -106.23
    4.54  -11.01 -106.66   -0.47    0.04   -0.47    0.04  -11.01 -106.66
    4.63  -10.83 -107.00   -0.47   -0.10   -0.47   -0.10  -10.83 -107.00
    4.72  -10.75 -106.36   -0.50   -0.05   -0.50   -0.05  -10.75 -106.36
    4.81  -10.65 -107.45   -0.52   -0.10   -0.52   -0.10  -10.65 -107.45
    4.90  -10.57 -107.55   -0.50   -0.57   -0.50   -0.57  -10.57 -107.55
    4.99  -10.48 -108.82   -0.49   -0.42   -0.49   -0.42  -10.48 -108.82
    5.08  -10.43 -107.97   -0.52   -0.21   -0.52   -0.21  -10.43 -107.97
    5.17  -10.45 -109.56   -0.53   -0.74   -0.53   -0.74  -10.45 -109.56
    5.26  -10.40 -109.82   -0.54   -0.54   -0.54   -0.54  -10.40 -109.82
    5.35  -10.27 -110.31   -0.53   -0.58   -0.53   -0.58  -10.27 -110.31
    5.44  -10.40 -109.76   -0.60   -0.61   -0.60   -0.61  -10.40 -109.76
    5.52  -10.25 -111.11   -0.59   -0.98   -0.59   -0.98  -10.25 -111.11
    5.61  -10.14 -110.67   -0.58   -0.96   -0.58   -0.96  -10.14 -110.67
    5.70  -10.01 -110.33   -0.59   -0.84   -0.59   -0.84  -10.01 -110.33
    5.79  -10.09 -110.83   -0.64   -0.93   -0.64   -0.93  -10.09 -110.83
    5.88   -9.92 -111.36   -0.59   -0.97   -0.59   -0.97   -9.92 -111.36
    5.97   -9.94 -111.32   -0.59   -0.85   -0.59   -0.85   -9.94 -111.32
    6.06  -10.00 -111.26   -0.59   -1.04   -0.59   -1.04  -10.00 -111.26
    6.15  -10.03 -112.35   -0.61   -1.01   -0.61   -1.01  -10.03 -112.35
    6.24  -10.01 -112.64   -0.60   -1.19   -0.60   -1.19  -10.01 -112.64
    6.33  -10.06 -112.84   -0.63   -0.96   -0.63   -0.96  -10.06 -112.84
    6.42  -10.17 -113.55   -0.65   -0.97   -0.65   -0.97  -10.17 -113.55
    6.51  -10.12 -113.94   -0.64   -1.25   -0.64   -1.25  -10.12 -113.94
    6.60  -10.20 -114.16   -0.65   -1.47   -0.65   -1.47  -10.20 -114.16
    6.69  -10.23 -113.72   -0.62   -1.33   -0.62   -1.33  -10.23 -113.72
    6.78  -10.25 -113.99   -0.68   -1.38   -0.68   -1.38  -10.25 -113.99
    6.87  -10.28 -113.48   -0.65   -1.51   -0.65   -1.51  -10.28 -113.48
    6.96  -10.28 -113.74   -0.66   -1.58   -0.66   -1.58  -10.28 -113.74
    7.05  -10.38 -113.24   -0.68   -1.23   -0.68   -1.23  -10.38 -113.24
    7.14  -10.36 -113.81   -0.69   -1.24   -0.69   -1.24  -10.36 -113.81
    7.23  -10.47 -114.07   -0.69   -1.38   -0.69   -1.38  -10.47 -114.07
    7.32  -10.50 -113.78   -0.71   -1.30   -0.71   -1.30  -10.50 -113.78
    7.41  -10.63 -114.51   -0.73   -1.40   -0.73   -1.40  -10.63 -114.51
    7.50  -10.56 -113.59   -0.73   -1.53   -0.73   -1.53  -10.56 -113.59
    7.59  -10.64 -114.11   -0.78   -1.71   -0.78   -1.71  -10.64 -114.11
    7.68  -10.77 -113.44   -0.72   -1.42   -0.72   -1.42  -10.77 -113.44
    7.77  -10.73 -114.03   -0.79   -1.34   -0.79   -1.34  -10.73 -114.03
    7.86  -10.80 -113.44   -0.76   -1.39   -0.76   -1.39  -10.80 -113.44
    7.95  -10.80 -113.86   -0.79   -1.37   -0.79   -1.37  -10.80 -113.86
    8.04  -10.84 -113.94   -0.71   -1.11   -0.71   -1.11  -10.84 -113.94
    8.13  -10.83 -114.53   -0.79   -1.40   -0.79   -1.40  -10.83 -114.53
    8.22  -10.86 -114.34   -0.74   -1.51   -0.74   -1.51  -10.86 -114.34
    8.31  -10.93 -114.46   -0.74   -1.53   -0.74   -1.53  -10.93 -114.46
    8.40  -10.95 -115.51   -0.75   -1.55   -0.75   -1.55  -10.95 -115.51
    8.49  -10.98 -115.06   -0.74   -1.83   -0.74   -1.83  -10.98 -115.06
    8.58  -11.10 -116.12   -0.75   -1.59   -0.75   -1.59  -11.10 -116.12
    8.67  -11.21 -117.02   -0.72   -1.98   -0.72   -1.98  -11.21 -117.02
    8.76  -11.23 -117.86   -0.75   -1.95   -0.75   -1.95  -11.23 -117.86
    8.85  -11.36 -117.97   -0.76   -2.20   -0.76   -2.20  -11.36 -117.97
    8.94  -11.42 -118.85   -0.74   -2.42   -0.74   -2.42  -11.42 -118.85
    9.03  -11.44 -119.68   -0.75   -2.49   -0.75   -2.49  -11.44 -119.68
    9.11  -11.46 -120.27   -0.78   -2.71   -0.78   -2.71  -11.46 -120.27
    9.20  -11.53 -121.18   -0.80   -2.99   -0.80   -2.99  -11.53 -121.18
    9.29  -11.55 -122.12   -0.76   -3.22   -0.76   -3.22  -11.55 -122.12
    9.38  -11.50 -123.21   -0.79   -3.01   -0.79   -3.01  -11.50 -123.21
    9.47  -11.59 -123.76   -0.82   -3.36   -0.82   -3.36  -11.59 -123.76
    9.56  -11.65 -125.34   -0.81   -3.86   -0.81   -3.86  -11.65 -125.34
    9.65  -11.74 -126.65   -0.81   -4.11   -0.81   -4.11  -11.74 -126.65
    9.74  -11.87 -128.60   -0.82   -4.09   -0.82   -4.09  -11.87 -128.60
    9.83  -11.92 -129.51   -0.82   -4.57   -0.82   -4.57  -11.92 -129.51
    9.92  -12.25 -132.11   -0.79   -5.39   -0.79   -5.39  -12.25 -132.11
   10.01  -12.35 -134.28   -0.79   -5.75   -0.79   -5.75  -12.35 -134.28
   10.10  -12.76 -135.97   -0.79   -6.45   -0.79   -6.45  -12.76 -135.97
   10.19  -13.25 -136.93   -0.84   -7.54   -0.84   -7.54  -13.25 -136.93
   10.28  -14.24 -138.58   -0.85   -9.23   -0.85   -9.23  -14.24 -138.58
   10.37  -15.78 -138.04   -0.91  -11.43   -0.91  -11.43  -15.78 -138.04
   10.46  -19.42 -123.18   -1.12  -15.38   -1.12  -15.38  -19.42 -123.18
   10.55  -17.13  -60.60   -2.07  -22.09   -2.07  -22.09  -17.13  -60.60
   10.64   -8.25  -69.58   -5.29  -19.66   -5.29  -19.66   -8.25  -69.58
   10.73   -5.96 -101.79   -4.72    6.63   -4.72    6.63   -5.96 -101.79
   10.82   -6.48 -117.17   -2.92    8.88   -2.92    8.88   -6.48 -117.17
   10.91   -7.15 -127.07   -2.19    6.22   -2.19    6.22   -7.15 -127.07
   11.00   -7.62 -130.77   -1.85    4.82   -1.85    4.82   -7.62 -130.77
   11.09   -7.84 -135.20   -1.67    3.69   -1.67    3.69   -7.84 -135.20
   11.18   -8.18 -136.34   -1.63    2.90   -1.63    2.90   -8.18 -136.34
   11.27   -8.34 -139.38   -1.56    1.90   -1.56    1.90   -8.34 -139.38
   11.36   -8.51 -141.00   -1.48    1.41   -1.48    1.41   -8.51 -141.00
   11.45   -8.64 -141.75   -1.48    1.12   -1.48    1.12   -8.64 -141.75
   11.54   -8.87 -142.66   -1.48    0.81   -1.48    0.81   -8.87 -142.66
   11.63   -8.85 -143.36   -1.50    0.73   -1.50    0.73   -8.85 -143.36
   11.72   -8.97 -144.94   -1.45    0.10   -1.45    0.10   -8.97 -144.94
   11.81   -9.10 -144.40   -1.50    0.60   -1.50    0.60   -9.10 -144.40
   11.90   -9.28 -146.59   -1.52   -0.16   -1.52   -0.16   -9.28 -146.59
   11.99   -9.29 -147.08   -1.49    0.34   -1.49    0.34   -9.29 -147.08
   12.08   -9.47 -148.15   -1.51    0.17   -1.51    0.17   -9.47 -148.15
   12.17   -9.68 -148.33   -1.51    0.32   -1.51    0.32   -9.68 -148.33
   12.26   -9.74 -149.36   -1.51    0.21   -1.51    0.21   -9.74 -149.36
   12.35   -9.88 -150.36   -1.49    0.05   -1.49    0.05   -9.88 -150.36
   12.44  -10.04 -150.30   -1.45    0.24   -1.45    0.24  -10.04 -150.30
   12.53  -10.26 -151.76   -1.50    0.22   -1.50    0.22  -10.26 -151.76
   12.62  -10.44 -151.13   -1.48    0.36   -1.48    0.36  -10.44 -151.13
   12.70  -10.51 -152.57   -1.46    0.11   -1.46    0.11  -10.51 -152.57
   12.79  -10.76 -151.99   -1.40    0.67   -1.40    0.67  -10.76 -151.99
   12.88  -10.91 -153.20   -1.47    0.37   -1.47    0.37  -10.91 -153.20
   12.97  -11.17 -153.44   -1.43    0.56   -1.43    0.56  -11.17 -153.44
   13.06  -11.23 -154.28   -1.40    0.40   -1.40    0.40  -11.23 -154.28
   13.15  -11.62 -155.03   -1.40    0.54   -1.40    0.54  -11.62 -155.03
   13.24  -11.66 -156.42   -1.39    0.36   -1.39    0.36  -11.66 -156.42
   13.33  -12.06 -157.41   -1.39    0.23   -1.39    0.23  -12.06 -157.41
   13.42  -12.33 -158.16   -1.34    0.38   -1.34    0.38  -12.33 -158.16
   13.51  -12.56 -159.78   -1.35    0.24   -1.35    0.24  -12.56 -159.78
   13.60  -12.89 -161.15   -1.32    0.01   -1.32    0.01  -12.89 -161.15
   13.69  -13.24 -161.87   -1.33   -0.31   -1.33   -0.31  -13.24 -161.87
   13.78  -13.79 -163.85   -1.29   -0.30   -1.29   -0.30  -13.79 -163.85
   13.87  -13.95 -164.43   -1.32   -0.31   -1.32   -0.31  -13.95 -164.43
   13.96  -14.35 -165.76   -1.31   -0.26   -1.31   -0.26  -14.35 -165.76
   14.05  -14.79 -166.68   -1.35   -0.97   -1.35   -0.97  -14.79 -166.68
   14.14  -15.13 -169.70   -1.29   -1.10   -1.29   -1.10  -15.13 -169.70
   14.23  -15.43 -170.80   -1.32   -1.23   -1.32   -1.23  -15.43 -170.80
   14.32  -15.86 -172.68   -1.34   -1.65   -1.34   -1.65  -15.86 -172.68
   14.41  -16.37 -175.66   -1.35   -1.60   -1.35   -1.60  -16.37 -175.66
   14.50  -16.70 -179.41   -1.36   -2.26   -1.36   -2.26  -16.70 -179.41
   14.59  -17.00  177.48   -1.41   -2.24   -1.41   -2.24  -17.00  177.48
   14.68  -17.55  173.98   -1.40   -2.50   -1.40   -2.50  -17.55  173.98
   14.77  -17.90  170.46   -1.38   -2.35   -1.38   -2.35  -17.90  170.46
   14.86  -18.15  164.95   -1.44   -2.87   -1.44   -2.87  -18.15  164.95
   14.95  -18.30  161.38   -1.49   -2.79   -1.49   -2.79  -18.30  161.38
   15.04  -18.61  155.26   -1.55   -2.66   -1.55   -2.66  -18.61  155.26
   15.13  -19.03  151.08   -1.56   -2.73   -1.56   -2.73  -19.03  151.08
   15.22  -19.12  144.00   -1.57   -2.91   -1.57   -2.91  -19.12  144.00
   15.31  -19.23  140.78   -1.58   -2.56   -1.58   -2.56  -19.23  140.78
   15.40  -19.52  134.10   -1.59   -2.95   -1.59   -2.95  -19.52  134.10
   15.49  -19.73  131.31   -1.61   -3.14   -1.61   -3.14  -19.73  131.31
   15.58  -19.67  127.37   -1.59   -3.12   -1.59   -3.12  -19.67  127.37
   15.67  -19.69  125.70   -1.64   -3.34   -1.64   -3.34  -19.69  125.70
   15.76  -19.64  121.06   -1.62   -3.46   -1.62   -3.46  -19.64  121.06
   15.85  -19.58  118.92   -1.68   -3.71   -1.68   -3.71  -19.58  118.92
   15.94  -19.34  116.09   -1.68   -4.05   -1.68   -4.05  -19.34  116.09
   16.03  -19.43  115.92   -1.69   -4.08   -1.69   -4.08  -19.43  115.92
   16.12  -19.19  114.32   -1.72   -4.36   -1.72   -4.36  -19.19  114.32
   16.21  -18.82  112.18   -1.73   -4.41   -1.73   -4.41  -18.82  112.18
   16.29  -18.43  110.71   -1.73   -4.28   -1.73   -4.28  -18.43  110.71
   16.38  -18.32  110.41   -1.73   -4.63   -1.73   -4.63  -18.32  110.41
   16.47  -18.02  108.21   -1.75   -5.25   -1.75   -5.25  -18.02  108.21
   16.56  -17.88  107.92   -1.75   -5.52   -1.75   -5.52  -17.88  107.92
   16.65  -17.50  106.47   -1.82   -5.74   -1.82   -5.74  -17.50  106.47
   16.74  -17.45  106.96   -1.88   -6.12   -1.88   -6.12  -17.45  106.96
   16.83  -16.91  103.66   -1.94   -6.51   -1.94   -6.51  -16.91  103.66
   16.92  -16.60  103.59   -1.98   -6.68   -1.98   -6.68  -16.60  103.59
   17.01  -16.05  100.43   -2.03   -7.17   -2.03   -7.17  -16.05  100.43
   17.10  -15.97   98.48   -2.12   -7.11   -2.12   -7.11  -15.97   98.48
   17.19  -15.41   94.20   -2.21   -7.53   -2.21   -7.53  -15.41   94.20
   17.28  -15.41   91.70   -2.26   -7.15   -2.26   -7.15  -15.41   91.70
   17.37  -15.19   88.32   -2.29   -7.22   -2.29   -7.22  -15.19   88.32
   17.46  -15.10   84.16   -2.32   -7.09   -2.32   -7.09  -15.10   84.16
   17.55  -14.89   79.86   -2.33   -7.35   -2.33   -7.35  -14.89   79.86
   17.64  -14.86   75.27   -2.39   -7.46   -2.39   -7.46  -14.86   75.27
   17.73  -14.97   71.69   -2.37   -7.70   -2.37   -7.70  -14.97   71.69
   17.82  -14.75   67.57   -2.37   -8.39   -2.37   -8.39  -14.75   67.57
   17.91  -14.73   63.81   -2.38   -9.19   -2.38   -9.19  -14.73   63.81
   18.00  -14.58   58.28   -2.41   -9.67   -2.41   -9.67  -14.58   58.28
