!  American Technical Ceramics  Date:    3/13/98
!  One Norden Lane
!  Huntington Station,  NY.   11746-2102
!  Tel:  (516) 547-5700               Fax:  (516) 547-5748
!  Part Number  180r5r6d
!  Description: Porcelain, High Q, Low ESR
!  Application: Bypass, Coupling, Timing, Feedback
!               Tuning, Impedance Match, Blocking
# GHZ S DB R 50
! Freq   |S11|   S11 Ph  |S21|   S21 Ph  |S12|   S12 Ph  |S22|   S22 Ph
    0.05    0.04   -9.61  -15.79   81.63  -15.79   81.63    0.04   -9.61
    0.14   -0.77  -25.66   -7.61   64.65   -7.61   64.65   -0.77  -25.66
    0.23   -1.88  -38.71   -4.46   52.32   -4.46   52.32   -1.88  -38.71
    0.32   -3.08  -48.43   -2.85   42.71   -2.85   42.71   -3.08  -48.43
    0.41   -4.32  -55.88   -1.96   35.81   -1.96   35.81   -4.32  -55.88
    0.50   -5.39  -61.49   -1.44   30.44   -1.44   30.44   -5.39  -61.49
    0.59   -6.56  -66.37   -1.10   25.65   -1.10   25.65   -6.56  -66.37
    0.68   -7.43  -69.82   -0.89   22.75   -0.89   22.75   -7.43  -69.82
    0.77   -8.18  -72.67   -0.74   20.21   -0.74   20.21   -8.18  -72.67
    0.86   -8.82  -75.17   -0.64   18.02   -0.64   18.02   -8.82  -75.17
    0.95   -9.41  -77.11   -0.56   16.31   -0.56   16.31   -9.41  -77.11
    1.04   -9.89  -78.98   -0.50   14.79   -0.50   14.79   -9.89  -78.98
    1.13  -10.30  -80.61   -0.43   13.46   -0.43   13.46  -10.30  -80.61
    1.22  -10.70  -81.67   -0.43   12.43   -0.43   12.43  -10.70  -81.67
    1.31  -11.02  -83.06   -0.38   11.50   -0.38   11.50  -11.02  -83.06
    1.40  -11.31  -84.30   -0.35   10.57   -0.35   10.57  -11.31  -84.30
    1.49  -11.54  -85.60   -0.32    9.96   -0.32    9.96  -11.54  -85.60
    1.58  -11.77  -86.66   -0.30    9.18   -0.30    9.18  -11.77  -86.66
    1.67  -12.00  -87.53   -0.31    8.61   -0.31    8.61  -12.00  -87.53
    1.76  -12.15  -88.12   -0.28    7.92   -0.28    7.92  -12.15  -88.12
    1.85  -12.31  -89.36   -0.28    7.45   -0.28    7.45  -12.31  -89.36
    1.93  -12.48  -89.55   -0.29    7.07   -0.29    7.07  -12.48  -89.55
    2.02  -12.57  -90.59   -0.28    6.34   -0.28    6.34  -12.57  -90.59
    2.11  -12.66  -90.99   -0.28    6.12   -0.28    6.12  -12.66  -90.99
    2.20  -12.75  -91.90   -0.28    5.73   -0.28    5.73  -12.75  -91.90
    2.29  -12.78  -92.49   -0.28    5.20   -0.28    5.20  -12.78  -92.49
    2.38  -12.81  -92.98   -0.28    5.01   -0.28    5.01  -12.81  -92.98
    2.47  -12.87  -93.68   -0.26    4.57   -0.26    4.57  -12.87  -93.68
    2.56  -12.92  -93.68   -0.24    4.16   -0.24    4.16  -12.92  -93.68
    2.65  -12.95  -94.29   -0.28    4.01   -0.28    4.01  -12.95  -94.29
    2.74  -12.92  -95.15   -0.26    3.72   -0.26    3.72  -12.92  -95.15
    2.83  -12.97  -95.86   -0.27    3.51   -0.27    3.51  -12.97  -95.86
    2.92  -12.96  -97.08   -0.26    3.26   -0.26    3.26  -12.96  -97.08
    3.01  -12.95  -97.26   -0.29    2.99   -0.29    2.99  -12.95  -97.26
    3.10  -12.96  -98.19   -0.29    2.69   -0.29    2.69  -12.96  -98.19
    3.19  -12.91  -98.28   -0.34    2.20   -0.34    2.20  -12.91  -98.28
    3.28  -12.78  -99.34   -0.27    2.02   -0.27    2.02  -12.78  -99.34
    3.37  -12.74  -98.86   -0.35    1.88   -0.35    1.88  -12.74  -98.86
    3.46  -12.65  -99.95   -0.32    1.55   -0.32    1.55  -12.65  -99.95
    3.55  -12.53 -100.00   -0.34    1.42   -0.34    1.42  -12.53 -100.00
    3.64  -12.39 -101.02   -0.32    1.21   -0.32    1.21  -12.39 -101.02
    3.73  -12.36 -100.67   -0.36    0.94   -0.36    0.94  -12.36 -100.67
    3.82  -12.31 -102.06   -0.35    0.82   -0.35    0.82  -12.31 -102.06
    3.91  -12.17 -102.35   -0.39    0.65   -0.39    0.65  -12.17 -102.35
    4.00  -12.15 -104.57   -0.34    0.34   -0.34    0.34  -12.15 -104.57
    4.09  -12.09 -105.07   -0.38    0.31   -0.38    0.31  -12.09 -105.07
    4.18  -12.03 -106.47   -0.40    0.03   -0.40    0.03  -12.03 -106.47
    4.27  -11.80 -107.17   -0.40    0.01   -0.40    0.01  -11.80 -107.17
    4.36  -11.81 -107.55   -0.42   -0.41   -0.42   -0.41  -11.81 -107.55
    4.45  -11.68 -108.11   -0.43   -0.37   -0.43   -0.37  -11.68 -108.11
    4.54  -11.57 -108.63   -0.44   -0.73   -0.44   -0.73  -11.57 -108.63
    4.63  -11.41 -109.08   -0.43   -0.73   -0.43   -0.73  -11.41 -109.08
    4.72  -11.35 -108.46   -0.45   -0.76   -0.45   -0.76  -11.35 -108.46
    4.81  -11.23 -109.50   -0.48   -0.89   -0.48   -0.89  -11.23 -109.50
    4.90  -11.14 -109.69   -0.45   -1.15   -0.45   -1.15  -11.14 -109.69
    4.99  -11.03 -111.05   -0.42   -1.18   -0.42   -1.18  -11.03 -111.05
    5.08  -11.01 -110.33   -0.49   -0.85   -0.49   -0.85  -11.01 -110.33
    5.17  -11.03 -111.91   -0.47   -1.60   -0.47   -1.60  -11.03 -111.91
    5.26  -10.97 -112.06   -0.48   -1.36   -0.48   -1.36  -10.97 -112.06
    5.35  -10.82 -112.84   -0.49   -1.41   -0.49   -1.41  -10.82 -112.84
    5.44  -10.93 -112.34   -0.56   -1.41   -0.56   -1.41  -10.93 -112.34
    5.52  -10.81 -113.71   -0.52   -1.86   -0.52   -1.86  -10.81 -113.71
    5.61  -10.73 -113.46   -0.54   -1.76   -0.54   -1.76  -10.73 -113.46
    5.70  -10.64 -113.44   -0.55   -1.93   -0.55   -1.93  -10.64 -113.44
    5.79  -10.71 -113.68   -0.59   -1.96   -0.59   -1.96  -10.71 -113.68
    5.88  -10.61 -114.14   -0.55   -2.05   -0.55   -2.05  -10.61 -114.14
    5.97  -10.50 -112.33   -0.63   -1.90   -0.63   -1.90  -10.50 -112.33
    6.06  -10.49 -113.58   -0.56   -1.70   -0.56   -1.70  -10.49 -113.58
    6.15  -10.54 -115.19   -0.58   -1.85   -0.58   -1.85  -10.54 -115.19
    6.24  -10.52 -115.65   -0.55   -1.82   -0.55   -1.82  -10.52 -115.65
    6.33  -10.60 -115.76   -0.56   -1.88   -0.56   -1.88  -10.60 -115.76
    6.42  -10.71 -116.58   -0.58   -1.80   -0.58   -1.80  -10.71 -116.58
    6.51  -10.69 -117.24   -0.57   -2.12   -0.57   -2.12  -10.69 -117.24
    6.60  -10.77 -117.55   -0.59   -2.27   -0.59   -2.27  -10.77 -117.55
    6.69  -10.84 -117.29   -0.57   -2.25   -0.57   -2.25  -10.84 -117.29
    6.78  -10.83 -117.69   -0.63   -2.33   -0.63   -2.33  -10.83 -117.69
    6.87  -10.90 -117.23   -0.60   -2.50   -0.60   -2.50  -10.90 -117.23
    6.96  -10.92 -117.38   -0.63   -2.44   -0.63   -2.44  -10.92 -117.38
    7.05  -11.02 -117.18   -0.62   -2.33   -0.62   -2.33  -11.02 -117.18
    7.14  -11.01 -117.79   -0.63   -2.36   -0.63   -2.36  -11.01 -117.79
    7.23  -11.15 -118.02   -0.63   -2.46   -0.63   -2.46  -11.15 -118.02
    7.32  -11.23 -117.95   -0.64   -2.42   -0.64   -2.42  -11.23 -117.95
    7.41  -11.37 -118.45   -0.68   -2.49   -0.68   -2.49  -11.37 -118.45
    7.50  -11.36 -117.86   -0.67   -2.64   -0.67   -2.64  -11.36 -117.86
    7.59  -11.40 -117.85   -0.71   -2.83   -0.71   -2.83  -11.40 -117.85
    7.68  -11.50 -117.68   -0.66   -2.57   -0.66   -2.57  -11.50 -117.68
    7.77  -11.47 -118.60   -0.75   -2.30   -0.75   -2.30  -11.47 -118.60
    7.86  -11.59 -118.15   -0.70   -2.57   -0.70   -2.57  -11.59 -118.15
    7.95  -11.68 -118.71   -0.70   -2.65   -0.70   -2.65  -11.68 -118.71
    8.04  -11.76 -118.94   -0.65   -2.49   -0.65   -2.49  -11.76 -118.94
    8.13  -11.72 -119.50   -0.71   -2.74   -0.71   -2.74  -11.72 -119.50
    8.22  -11.82 -119.44   -0.67   -2.90   -0.67   -2.90  -11.82 -119.44
    8.31  -11.87 -119.70   -0.68   -2.84   -0.68   -2.84  -11.87 -119.70
    8.40  -11.91 -120.72   -0.69   -2.95   -0.69   -2.95  -11.91 -120.72
    8.49  -11.98 -120.38   -0.67   -3.17   -0.67   -3.17  -11.98 -120.38
    8.58  -12.19 -121.60   -0.68   -3.34   -0.68   -3.34  -12.19 -121.60
    8.67  -12.30 -122.57   -0.67   -3.41   -0.67   -3.41  -12.30 -122.57
    8.76  -12.33 -123.84   -0.70   -3.52   -0.70   -3.52  -12.33 -123.84
    8.85  -12.50 -124.07   -0.67   -3.91   -0.67   -3.91  -12.50 -124.07
    8.94  -12.64 -125.27   -0.70   -3.99   -0.70   -3.99  -12.64 -125.27
    9.03  -12.77 -126.27   -0.67   -4.26   -0.67   -4.26  -12.77 -126.27
    9.11  -12.90 -126.92   -0.69   -4.73   -0.69   -4.73  -12.90 -126.92
    9.20  -13.06 -128.09   -0.69   -5.26   -0.69   -5.26  -13.06 -128.09
    9.29  -13.25 -129.18   -0.70   -5.65   -0.70   -5.65  -13.25 -129.18
    9.38  -13.38 -130.30   -0.69   -5.85   -0.69   -5.85  -13.38 -130.30
    9.47  -13.75 -131.31   -0.72   -6.61   -0.72   -6.61  -13.75 -131.31
    9.56  -14.27 -132.78   -0.71   -7.46   -0.71   -7.46  -14.27 -132.78
    9.65  -15.02 -133.85   -0.72   -8.66   -0.72   -8.66  -15.02 -133.85
    9.74  -16.29 -134.72   -0.75  -10.17   -0.75  -10.17  -16.29 -134.72
    9.83  -18.71 -129.25   -0.84  -12.96   -0.84  -12.96  -18.71 -129.25
    9.92  -22.46  -90.14   -1.12  -17.58   -1.12  -17.58  -22.46  -90.14
   10.01  -13.67  -47.29   -2.49  -24.17   -2.49  -24.17  -13.67  -47.29
   10.10   -6.94  -75.02   -5.88  -12.16   -5.88  -12.16   -6.94  -75.02
   10.19   -6.12 -104.88   -3.98    8.55   -3.98    8.55   -6.12 -104.88
   10.28   -6.96 -120.46   -2.43    7.05   -2.43    7.05   -6.96 -120.46
   10.37   -7.48 -128.22   -1.84    5.11   -1.84    5.11   -7.48 -128.22
   10.46   -8.00 -132.07   -1.59    3.58   -1.59    3.58   -8.00 -132.07
   10.55   -8.38 -135.50   -1.47    2.31   -1.47    2.31   -8.38 -135.50
   10.64   -8.60 -138.36   -1.38    1.28   -1.38    1.28   -8.60 -138.36
   10.73   -8.73 -141.54   -1.28    0.63   -1.28    0.63   -8.73 -141.54
   10.82   -8.86 -141.53   -1.32    0.70   -1.32    0.70   -8.86 -141.53
   10.91   -9.07 -144.67   -1.28   -0.19   -1.28   -0.19   -9.07 -144.67
   11.00   -9.10 -145.40   -1.24   -0.15   -1.24   -0.15   -9.10 -145.40
   11.09   -9.14 -147.95   -1.23   -0.70   -1.23   -0.70   -9.14 -147.95
   11.18   -9.27 -147.94   -1.25   -0.81   -1.25   -0.81   -9.27 -147.94
   11.27   -9.30 -150.04   -1.28   -1.35   -1.28   -1.35   -9.30 -150.04
   11.36   -9.40 -150.78   -1.24   -1.57   -1.24   -1.57   -9.40 -150.78
   11.45   -9.42 -151.60   -1.25   -1.62   -1.25   -1.62   -9.42 -151.60
   11.54   -9.57 -152.20   -1.27   -1.73   -1.27   -1.73   -9.57 -152.20
   11.63   -9.51 -152.54   -1.29   -1.68   -1.29   -1.68   -9.51 -152.54
   11.72   -9.56 -153.93   -1.25   -2.23   -1.25   -2.23   -9.56 -153.93
   11.81   -9.63 -153.22   -1.29   -1.77   -1.29   -1.77   -9.63 -153.22
   11.90   -9.78 -155.17   -1.36   -2.17   -1.36   -2.17   -9.78 -155.17
   11.99   -9.73 -155.72   -1.34   -1.95   -1.34   -1.95   -9.73 -155.72
   12.08   -9.87 -156.97   -1.35   -2.10   -1.35   -2.10   -9.87 -156.97
   12.17  -10.04 -157.47   -1.37   -1.91   -1.37   -1.91  -10.04 -157.47
   12.26  -10.10 -158.48   -1.38   -1.95   -1.38   -1.95  -10.10 -158.48
   12.35  -10.23 -159.58   -1.36   -1.91   -1.36   -1.91  -10.23 -159.58
   12.44  -10.40 -159.82   -1.32   -1.87   -1.32   -1.87  -10.40 -159.82
   12.53  -10.60 -161.36   -1.38   -1.86   -1.38   -1.86  -10.60 -161.36
   12.62  -10.76 -160.99   -1.33   -1.82   -1.33   -1.82  -10.76 -160.99
   12.70  -10.81 -162.39   -1.34   -1.97   -1.34   -1.97  -10.81 -162.39
   12.79  -11.04 -162.20   -1.29   -1.47   -1.29   -1.47  -11.04 -162.20
   12.88  -11.21 -163.61   -1.36   -1.68   -1.36   -1.68  -11.21 -163.61
   12.97  -11.45 -164.12   -1.30   -1.62   -1.30   -1.62  -11.45 -164.12
   13.06  -11.53 -165.15   -1.26   -1.73   -1.26   -1.73  -11.53 -165.15
   13.15  -11.82 -166.27   -1.25   -1.67   -1.25   -1.67  -11.82 -166.27
   13.24  -11.84 -167.73   -1.28   -1.77   -1.28   -1.77  -11.84 -167.73
   13.33  -12.21 -169.55   -1.27   -2.07   -1.27   -2.07  -12.21 -169.55
   13.42  -12.51 -170.56   -1.23   -1.99   -1.23   -1.99  -12.51 -170.56
   13.51  -12.66 -172.81   -1.23   -2.04   -1.23   -2.04  -12.66 -172.81
   13.60  -13.00 -174.94   -1.15   -2.30   -1.15   -2.30  -13.00 -174.94
   13.69  -13.31 -176.09   -1.22   -2.46   -1.22   -2.46  -13.31 -176.09
   13.78  -13.79 -178.62   -1.16   -2.75   -1.16   -2.75  -13.79 -178.62
   13.87  -13.87 -179.43   -1.21   -2.58   -1.21   -2.58  -13.87 -179.43
   13.96  -14.23  178.47   -1.23   -2.54   -1.23   -2.54  -14.23  178.47
   14.05  -14.61  176.52   -1.23   -3.19   -1.23   -3.19  -14.61  176.52
   14.14  -14.89  173.30   -1.21   -3.44   -1.21   -3.44  -14.89  173.30
   14.23  -15.09  171.54   -1.24   -3.52   -1.24   -3.52  -15.09  171.54
   14.32  -15.39  169.45   -1.23   -3.82   -1.23   -3.82  -15.39  169.45
   14.41  -15.72  166.18   -1.25   -4.13   -1.25   -4.13  -15.72  166.18
   14.50  -15.89  162.29   -1.25   -4.60   -1.25   -4.60  -15.89  162.29
   14.59  -15.94  159.00   -1.28   -4.67   -1.28   -4.67  -15.94  159.00
   14.68  -16.17  155.04   -1.29   -5.12   -1.29   -5.12  -16.17  155.04
   14.77  -16.33  151.29   -1.32   -5.06   -1.32   -5.06  -16.33  151.29
   14.86  -16.36  146.35   -1.37   -5.30   -1.37   -5.30  -16.36  146.35
   14.95  -16.32  142.72   -1.44   -5.25   -1.44   -5.25  -16.32  142.72
   15.04  -16.38  138.32   -1.50   -5.31   -1.50   -5.31  -16.38  138.32
   15.13  -16.56  134.81   -1.52   -5.23   -1.52   -5.23  -16.56  134.81
   15.22  -16.50  129.43   -1.51   -5.73   -1.51   -5.73  -16.50  129.43
   15.31  -16.43  127.36   -1.51   -5.30   -1.51   -5.30  -16.43  127.36
   15.40  -16.51  122.47   -1.55   -5.63   -1.55   -5.63  -16.51  122.47
   15.49  -16.54  119.68   -1.57   -6.04   -1.57   -6.04  -16.54  119.68
   15.58  -16.41  116.73   -1.55   -5.96   -1.55   -5.96  -16.41  116.73
   15.67  -16.39  115.69   -1.59   -6.24   -1.59   -6.24  -16.39  115.69
   15.76  -16.25  112.52   -1.56   -6.45   -1.56   -6.45  -16.25  112.52
   15.85  -16.22  110.62   -1.64   -6.73   -1.64   -6.73  -16.22  110.62
   15.94  -15.98  108.63   -1.61   -6.99   -1.61   -6.99  -15.98  108.63
   16.03  -16.13  107.90   -1.65   -7.27   -1.65   -7.27  -16.13  107.90
   16.12  -15.92  106.87   -1.70   -7.56   -1.70   -7.56  -15.92  106.87
   16.21  -15.64  104.79   -1.68   -7.72   -1.68   -7.72  -15.64  104.79
   16.29  -15.31  104.34   -1.68   -7.72   -1.68   -7.72  -15.31  104.34
   16.38  -15.28  103.39   -1.73   -8.22   -1.73   -8.22  -15.28  103.39
   16.47  -15.07  100.73   -1.75   -8.82   -1.75   -8.82  -15.07  100.73
   16.56  -14.97  100.07   -1.74   -9.17   -1.74   -9.17  -14.97  100.07
   16.65  -14.76   98.34   -1.79   -9.50   -1.79   -9.50  -14.76   98.34
   16.74  -14.77   98.63   -1.86  -10.00   -1.86  -10.00  -14.77   98.63
   16.83  -14.44   95.28   -1.93  -11.04   -1.93  -11.04  -14.44   95.28
   16.92  -14.25   94.45   -1.99  -11.31   -1.99  -11.31  -14.25   94.45
   17.01  -13.84   91.04   -2.03  -12.22   -2.03  -12.22  -13.84   91.04
   17.10  -13.80   88.46   -2.13  -12.70   -2.13  -12.70  -13.80   88.46
   17.19  -13.40   83.50   -2.31  -13.78   -2.31  -13.78  -13.40   83.50
   17.28  -13.48   78.86   -2.39  -14.15   -2.39  -14.15  -13.48   78.86
   17.37  -13.37   72.84   -2.54  -15.06   -2.54  -15.06  -13.37   72.84
   17.46  -13.36   64.68   -2.72  -16.35   -2.72  -16.35  -13.36   64.68
   17.55  -13.35   53.49   -3.04  -18.32   -3.04  -18.32  -13.35   53.49
   17.64  -13.64   36.67   -3.58  -20.74   -3.58  -20.74  -13.64   36.67
   17.73  -14.52   11.56   -4.63  -22.52   -4.63  -22.52  -14.52   11.56
   17.82  -16.12  -31.59   -6.55  -17.58   -6.55  -17.58  -16.12  -31.59
   17.91  -18.22  -96.34   -6.97    1.26   -6.97    1.26  -18.22  -96.34
   18.00  -17.73 -160.95   -5.08   10.07   -5.08   10.07  -17.73 -160.95
