!  American Technical Ceramics  Date:     3/6/98
!  One Norden Lane
!  Huntington Station,  NY.   11746-2102
!  Tel:  (516) 547-5700               Fax:  (516) 547-5748
!  Part Number  500S0R1
!  Description: Broadband Microwave capacitor
!  Application:
!
# GHZ S DB R 50
! Freq   |S11|   S11 Ph  |S21|   S21 Ph  |S12|   S12 Ph  |S22|   S22 Ph
    0.05    0.00   -0.51  -46.21   85.36  -46.21   85.36    0.00   -0.51
    0.18   -0.01   -1.20  -35.83   89.47  -35.83   89.47   -0.01   -1.20
    0.31    0.01   -1.86  -31.06   88.21  -31.06   88.21    0.01   -1.86
    0.45   -0.03   -2.66  -28.06   88.06  -28.06   88.06   -0.03   -2.66
    0.58   -0.03   -3.77  -25.69   86.30  -25.69   86.30   -0.03   -3.77
    0.71   -0.08   -4.73  -23.94   84.93  -23.94   84.93   -0.08   -4.73
    0.84   -0.08   -6.19  -22.49   84.37  -22.49   84.37   -0.08   -6.19
    0.98    0.05   -5.69  -21.16   83.55  -21.16   83.55    0.05   -5.69
    1.11   -0.13   -6.88  -20.18   83.41  -20.18   83.41   -0.13   -6.88
    1.24   -0.26   -6.96  -19.28   82.97  -19.28   82.97   -0.26   -6.96
    1.37   -0.07   -7.95  -18.35   81.93  -18.35   81.93   -0.07   -7.95
    1.50   -0.18   -9.16  -17.61   81.30  -17.61   81.30   -0.18   -9.16
    1.64   -0.06   -8.73  -16.82   80.67  -16.82   80.67   -0.06   -8.73
    1.77   -0.09  -10.09  -16.14   80.09  -16.14   80.09   -0.09  -10.09
    1.90   -0.16  -10.68  -15.59   79.21  -15.59   79.21   -0.16  -10.68
    2.03   -0.14  -11.83  -15.04   78.38  -15.04   78.38   -0.14  -11.83
    2.17   -0.18  -12.48  -14.47   77.60  -14.47   77.60   -0.18  -12.48
    2.30   -0.18  -13.02  -14.00   76.71  -14.00   76.71   -0.18  -13.02
    2.43   -0.27  -14.37  -13.57   76.23  -13.57   76.23   -0.27  -14.37
    2.56   -0.26  -14.23  -13.03   75.22  -13.03   75.22   -0.26  -14.23
    2.70   -0.29  -15.61  -12.63   74.66  -12.63   74.66   -0.29  -15.61
    2.83   -0.34  -16.38  -12.24   73.68  -12.24   73.68   -0.34  -16.38
    2.96   -0.31  -16.90  -11.82   72.54  -11.82   72.54   -0.31  -16.90
    3.09   -0.45  -18.12  -11.43   71.81  -11.43   71.81   -0.45  -18.12
    3.22   -0.44  -18.52  -11.07   70.49  -11.07   70.49   -0.44  -18.52
    3.36   -0.51  -19.85  -10.72   69.88  -10.72   69.88   -0.51  -19.85
    3.49   -0.55  -20.00  -10.41   68.88  -10.41   68.88   -0.55  -20.00
    3.62   -0.59  -20.87  -10.09   67.69  -10.09   67.69   -0.59  -20.87
    3.75   -0.74  -21.96   -9.74   66.62   -9.74   66.62   -0.74  -21.96
    3.89   -0.67  -22.58   -9.39   65.17   -9.39   65.17   -0.67  -22.58
    4.02   -0.63  -23.71   -9.14   66.18   -9.14   66.18   -0.63  -23.71
    4.15   -0.63  -23.90   -8.83   65.19   -8.83   65.19   -0.63  -23.90
    4.28   -0.66  -24.90   -8.60   64.33   -8.60   64.33   -0.66  -24.90
    4.41   -0.83  -25.95   -8.40   62.92   -8.40   62.92   -0.83  -25.95
    4.55   -0.82  -26.75   -8.16   61.86   -8.16   61.86   -0.82  -26.75
    4.68   -0.90  -27.88   -7.94   60.93   -7.94   60.93   -0.90  -27.88
    4.81   -0.92  -27.75   -7.79   60.30   -7.79   60.30   -0.92  -27.75
    4.94   -1.04  -27.87   -7.64   59.91   -7.64   59.91   -1.04  -27.87
    5.08   -1.18  -28.34   -7.51   58.76   -7.51   58.76   -1.18  -28.34
    5.21   -1.11  -29.53   -7.32   57.95   -7.32   57.95   -1.11  -29.53
    5.34   -1.16  -29.73   -7.13   57.90   -7.13   57.90   -1.16  -29.73
    5.47   -1.11  -29.79   -6.96   56.93   -6.96   56.93   -1.11  -29.79
    5.60   -1.22  -31.37   -6.88   56.35   -6.88   56.35   -1.22  -31.37
    5.74   -1.24  -31.06   -6.72   56.29   -6.72   56.29   -1.24  -31.06
    5.87   -1.32  -32.20   -6.62   55.23   -6.62   55.23   -1.32  -32.20
    6.00   -1.37  -34.51   -6.49   54.09   -6.49   54.09   -1.37  -34.51
    6.13   -1.22  -33.61   -6.33   54.25   -6.33   54.25   -1.22  -33.61
    6.27   -1.37  -33.94   -6.22   54.30   -6.22   54.30   -1.37  -33.94
    6.40   -1.44  -35.86   -6.13   52.94   -6.13   52.94   -1.44  -35.86
    6.53   -1.58  -36.17   -6.06   52.96   -6.06   52.96   -1.58  -36.17
    6.66   -1.59  -37.01   -5.89   52.37   -5.89   52.37   -1.59  -37.01
    6.79   -1.44  -38.72   -5.76   51.02   -5.76   51.02   -1.44  -38.72
    6.93   -1.67  -38.22   -5.74   51.45   -5.74   51.45   -1.67  -38.22
    7.06   -1.70  -37.37   -5.62   51.46   -5.62   51.46   -1.70  -37.37
    7.19   -1.74  -40.31   -5.55   50.11   -5.55   50.11   -1.74  -40.31
    7.32   -1.88  -40.16   -5.52   50.04   -5.52   50.04   -1.88  -40.16
    7.46   -1.95  -39.78   -5.37   49.91   -5.37   49.91   -1.95  -39.78
    7.59   -1.80  -41.48   -5.24   48.64   -5.24   48.64   -1.80  -41.48
    7.72   -1.85  -40.19   -5.17   48.87   -5.17   48.87   -1.85  -40.19
    7.85   -2.16  -40.34   -5.12   49.40   -5.12   49.40   -2.16  -40.34
    7.99   -1.96  -41.89   -5.02   48.07   -5.02   48.07   -1.96  -41.89
    8.12   -2.01  -42.43   -4.89   47.72   -4.89   47.72   -2.01  -42.43
    8.25   -2.21  -42.34   -4.80   47.79   -4.80   47.79   -2.21  -42.34
    8.38   -2.13  -42.44   -4.69   46.84   -4.69   46.84   -2.13  -42.44
    8.51   -2.28  -43.15   -4.58   46.60   -4.58   46.60   -2.28  -43.15
    8.65   -2.37  -42.73   -4.48   46.74   -4.48   46.74   -2.37  -42.73
    8.78   -2.45  -43.52   -4.39   46.06   -4.39   46.06   -2.45  -43.52
    8.91   -2.53  -43.69   -4.26   45.21   -4.26   45.21   -2.53  -43.69
    9.04   -2.60  -43.84   -4.13   44.51   -4.13   44.51   -2.60  -43.84
    9.18   -2.72  -44.79   -4.04   44.03   -4.04   44.03   -2.72  -44.79
    9.31   -2.73  -44.51   -3.88   43.35   -3.88   43.35   -2.73  -44.51
    9.44   -2.94  -45.06   -3.84   42.98   -3.84   42.98   -2.94  -45.06
    9.57   -2.95  -45.37   -3.76   42.22   -3.76   42.22   -2.95  -45.37
    9.70   -3.05  -45.93   -3.64   41.83   -3.64   41.83   -3.05  -45.93
    9.84   -3.19  -46.82   -3.53   41.07   -3.53   41.07   -3.19  -46.82
    9.97   -3.19  -46.93   -3.44   40.21   -3.44   40.21   -3.19  -46.93
   10.10   -3.35  -47.96   -3.32   40.31   -3.32   40.31   -3.35  -47.96
   10.23   -3.42  -48.08   -3.20   39.64   -3.20   39.64   -3.42  -48.08
   10.37   -3.55  -49.02   -3.14   38.85   -3.14   38.85   -3.55  -49.02
   10.50   -3.57  -49.69   -3.04   38.53   -3.04   38.53   -3.57  -49.69
   10.63   -3.67  -50.31   -2.89   37.63   -2.89   37.63   -3.67  -50.31
   10.76   -3.87  -51.82   -2.79   36.83   -2.79   36.83   -3.87  -51.82
   10.89   -3.82  -51.70   -2.74   36.57   -2.74   36.57   -3.82  -51.70
   11.03   -4.03  -52.50   -2.70   35.84   -2.70   35.84   -4.03  -52.50
   11.16   -4.19  -53.77   -2.61   34.73   -2.61   34.73   -4.19  -53.77
   11.29   -4.16  -53.89   -2.55   34.44   -2.55   34.44   -4.16  -53.89
   11.42   -4.36  -54.40   -2.55   33.97   -2.55   33.97   -4.36  -54.40
   11.56   -4.37  -55.60   -2.45   33.15   -2.45   33.15   -4.37  -55.60
   11.69   -4.43  -55.56   -2.42   33.06   -2.42   33.06   -4.43  -55.56
   11.82   -4.53  -55.17   -2.45   32.69   -2.45   32.69   -4.53  -55.17
   11.95   -4.59  -56.26   -2.36   31.93   -2.36   31.93   -4.59  -56.26
   12.08   -4.51  -56.65   -2.28   31.78   -2.28   31.78   -4.51  -56.65
   12.22   -4.51  -56.36   -2.28   31.62   -2.28   31.62   -4.51  -56.36
   12.35   -4.52  -58.34   -2.20   30.93   -2.20   30.93   -4.52  -58.34
   12.48   -4.34  -58.20   -2.13   30.53   -2.13   30.53   -4.34  -58.20
   12.61   -4.69  -59.06   -2.21   30.09   -2.21   30.09   -4.69  -59.06
   12.75   -4.58  -60.86   -2.15   29.43   -2.15   29.43   -4.58  -60.86
   12.88   -4.50  -60.71   -2.08   29.10   -2.08   29.10   -4.50  -60.71
   13.01   -4.91  -61.28   -2.19   29.28   -2.19   29.28   -4.91  -61.28
   13.14   -4.84  -62.42   -2.15   28.69   -2.15   28.69   -4.84  -62.42
   13.28   -4.78  -62.46   -2.06   28.80   -2.06   28.80   -4.78  -62.46
   13.41   -5.00  -62.41   -2.11   29.04   -2.11   29.04   -5.00  -62.41
   13.54   -5.08  -62.71   -2.06   28.97   -2.06   28.97   -5.08  -62.71
   13.67   -5.01  -62.77   -1.98   28.77   -1.98   28.77   -5.01  -62.77
   13.80   -5.14  -62.69   -1.93   28.74   -1.93   28.74   -5.14  -62.69
   13.94   -5.20  -63.57   -1.85   28.47   -1.85   28.47   -5.20  -63.57
   14.07   -5.08  -63.47   -1.77   27.94   -1.77   27.94   -5.08  -63.47
   14.20   -5.27  -63.69   -1.72   27.75   -1.72   27.75   -5.27  -63.69
   14.33   -5.42  -64.78   -1.73   27.24   -1.73   27.24   -5.42  -64.78
   14.47   -5.53  -64.69   -1.67   26.89   -1.67   26.89   -5.53  -64.69
   14.60   -5.72  -65.60   -1.66   26.58   -1.66   26.58   -5.72  -65.60
   14.73   -5.84  -65.29   -1.61   26.26   -1.61   26.26   -5.84  -65.29
   14.86   -6.08  -65.64   -1.52   26.14   -1.52   26.14   -6.08  -65.64
   14.99   -6.28  -65.80   -1.49   25.68   -1.49   25.68   -6.28  -65.80
   15.13   -6.44  -65.72   -1.43   25.02   -1.43   25.02   -6.44  -65.72
   15.26   -6.69  -66.39   -1.38   24.93   -1.38   24.93   -6.69  -66.39
   15.39   -6.82  -66.00   -1.33   24.25   -1.33   24.25   -6.82  -66.00
   15.52   -7.12  -66.23   -1.28   23.48   -1.28   23.48   -7.12  -66.23
   15.66   -7.31  -66.44   -1.22   23.20   -1.22   23.20   -7.31  -66.44
   15.79   -7.49  -66.96   -1.16   22.66   -1.16   22.66   -7.49  -66.96
   15.92   -7.72  -66.77   -1.14   21.93   -1.14   21.93   -7.72  -66.77
   16.05   -7.96  -67.09   -1.10   21.47   -1.10   21.47   -7.96  -67.09
   16.18   -8.18  -68.05   -1.06   21.13   -1.06   21.13   -8.18  -68.05
   16.32   -8.36  -68.48   -1.00   20.47   -1.00   20.47   -8.36  -68.48
   16.45   -8.60  -69.43   -0.96   19.97   -0.96   19.97   -8.60  -69.43
   16.58   -8.81  -69.75   -0.92   19.40   -0.92   19.40   -8.81  -69.75
   16.71   -9.08  -70.83   -0.85   18.57   -0.85   18.57   -9.08  -70.83
   16.85   -9.30  -71.36   -0.84   18.15   -0.84   18.15   -9.30  -71.36
   16.98   -9.52  -70.52   -0.91   17.50   -0.91   17.50   -9.52  -70.52
   17.11   -9.62  -71.97   -0.85   16.97   -0.85   16.97   -9.62  -71.97
   17.24   -9.54  -72.43   -0.82   16.75   -0.82   16.75   -9.54  -72.43
   17.37   -9.77  -72.18   -0.87   16.14   -0.87   16.14   -9.77  -72.18
   17.51   -9.87  -72.89   -0.87   15.81   -0.87   15.81   -9.87  -72.89
   17.64   -9.63  -73.49   -0.80   15.63   -0.80   15.63   -9.63  -73.49
   17.77   -9.91  -73.89   -0.86   15.02   -0.86   15.02   -9.91  -73.89
   17.90   -9.87  -73.34   -0.87   15.08   -0.87   15.08   -9.87  -73.34
   18.04   -9.68  -75.33   -0.79   14.57   -0.79   14.57   -9.68  -75.33
   18.17   -9.64  -75.12   -0.80   14.48   -0.80   14.48   -9.64  -75.12
   18.30   -9.76  -75.95   -0.82   14.06   -0.82   14.06   -9.76  -75.95
   18.43   -9.67  -76.29   -0.78   13.83   -0.78   13.83   -9.67  -76.29
   18.57   -9.66  -77.60   -0.77   13.39   -0.77   13.39   -9.66  -77.60
   18.70   -9.84  -78.53   -0.80   13.35   -0.80   13.35   -9.84  -78.53
   18.83   -9.82  -78.99   -0.79   13.19   -0.79   13.19   -9.82  -78.99
   18.96   -9.79  -79.55   -0.77   12.86   -0.77   12.86   -9.79  -79.55
   19.09   -9.96  -80.26   -0.77   12.84   -0.77   12.84   -9.96  -80.26
   19.23  -10.03  -80.48   -0.75   12.81   -0.75   12.81  -10.03  -80.48
   19.36  -10.12  -81.84   -0.73   12.59   -0.73   12.59  -10.12  -81.84
   19.49  -10.16  -82.57   -0.73   12.24   -0.73   12.24  -10.16  -82.57
   19.62  -10.35  -82.30   -0.70   12.23   -0.70   12.23  -10.35  -82.30
   19.76  -10.62  -83.24   -0.69   12.10   -0.69   12.10  -10.62  -83.24
   19.89  -10.69  -84.85   -0.68   11.56   -0.68   11.56  -10.69  -84.85
   20.02  -10.96  -85.15   -0.65   11.44   -0.65   11.44  -10.96  -85.15
   20.15  -11.14  -85.30   -0.63   11.27   -0.63   11.27  -11.14  -85.30
   20.28  -11.40  -85.98   -0.63   10.79   -0.63   10.79  -11.40  -85.98
   20.42  -11.69  -86.86   -0.65   10.54   -0.65   10.54  -11.69  -86.86
   20.55  -12.00  -87.42   -0.61   10.28   -0.61   10.28  -12.00  -87.42
   20.68  -12.27  -87.58   -0.59    9.80   -0.59    9.80  -12.27  -87.58
   20.81  -12.57  -88.33   -0.61    9.52   -0.61    9.52  -12.57  -88.33
   20.95  -13.09  -89.09   -0.57    9.23   -0.57    9.23  -13.09  -89.09
   21.08  -13.44  -89.43   -0.54    8.54   -0.54    8.54  -13.44  -89.43
   21.21  -13.94  -90.50   -0.55    8.23   -0.55    8.23  -13.94  -90.50
   21.34  -14.41  -91.22   -0.56    7.82   -0.56    7.82  -14.41  -91.22
   21.47  -15.08  -90.83   -0.53    7.18   -0.53    7.18  -15.08  -90.83
   21.61  -15.65  -92.93   -0.54    6.86   -0.54    6.86  -15.65  -92.93
   21.74  -16.21  -94.67   -0.53    6.57   -0.53    6.57  -16.21  -94.67
   21.87  -17.13  -95.31   -0.50    6.06   -0.50    6.06  -17.13  -95.31
   22.00  -17.90  -97.43   -0.50    5.65   -0.50    5.65  -17.90  -97.43
   22.14  -18.52  -98.52   -0.51    5.32   -0.51    5.32  -18.52  -98.52
   22.27  -19.42 -100.53   -0.52    4.80   -0.52    4.80  -19.42 -100.53
   22.40  -20.28 -103.55   -0.50    4.43   -0.50    4.43  -20.28 -103.55
   22.53  -20.94 -105.86   -0.51    4.13   -0.51    4.13  -20.94 -105.86
   22.66  -21.78 -108.17   -0.53    3.82   -0.53    3.82  -21.78 -108.17
   22.80  -22.42 -111.17   -0.54    3.54   -0.54    3.54  -22.42 -111.17
   22.93  -23.08 -113.65   -0.55    3.24   -0.55    3.24  -23.08 -113.65
   23.06  -23.32 -114.30   -0.56    3.07   -0.56    3.07  -23.32 -114.30
   23.19  -23.78 -115.69   -0.55    2.78   -0.55    2.78  -23.78 -115.69
   23.33  -23.91 -117.41   -0.55    2.55   -0.55    2.55  -23.91 -117.41
   23.46  -23.95 -115.89   -0.55    2.20   -0.55    2.20  -23.95 -115.89
   23.59  -23.77 -115.92   -0.56    2.00   -0.56    2.00  -23.77 -115.92
   23.72  -23.64 -116.75   -0.58    1.76   -0.58    1.76  -23.64 -116.75
   23.86  -24.06 -118.16   -0.59    1.48   -0.59    1.48  -24.06 -118.16
   23.99  -24.22 -117.88   -0.60    1.35   -0.60    1.35  -24.22 -117.88
   24.12  -24.64 -116.30   -0.60    1.15   -0.60    1.15  -24.64 -116.30
   24.25  -25.15 -115.85   -0.62    1.01   -0.62    1.01  -25.15 -115.85
   24.38  -26.02 -116.89   -0.61    0.85   -0.61    0.85  -26.02 -116.89
   24.52  -26.58 -115.62   -0.60    0.68   -0.60    0.68  -26.58 -115.62
   24.65  -27.74 -118.19   -0.60    0.57   -0.60    0.57  -27.74 -118.19
   24.78  -29.60 -120.19   -0.59    0.40   -0.59    0.40  -29.60 -120.19
   24.91  -31.29 -131.70   -0.58    0.26   -0.58    0.26  -31.29 -131.70
   25.05  -34.27 -147.93   -0.56    0.13   -0.56    0.13  -34.27 -147.93
   25.18  -35.79  171.78   -0.55   -0.03   -0.55   -0.03  -35.79  171.78
   25.31  -32.47  149.52   -0.55   -0.14   -0.55   -0.14  -32.47  149.52
   25.44  -30.45  131.93   -0.52   -0.35   -0.52   -0.35  -30.45  131.93
   25.57  -27.71  124.30   -0.48   -0.53   -0.48   -0.53  -27.71  124.30
   25.71  -25.22  118.93   -0.47   -0.90   -0.47   -0.90  -25.22  118.93
   25.84  -23.41  119.69   -0.46   -1.30   -0.46   -1.30  -23.41  119.69
   25.97  -21.46  121.61   -0.46   -1.67   -0.46   -1.67  -21.46  121.61
   26.10  -20.32  123.02   -0.46   -2.09   -0.46   -2.09  -20.32  123.02
   26.24  -19.13  125.12   -0.48   -2.55   -0.48   -2.55  -19.13  125.12
   26.37  -18.25  126.32   -0.49   -2.79   -0.49   -2.79  -18.25  126.32
   26.50  -17.44  129.15   -0.51   -3.16   -0.51   -3.16  -17.44  129.15
