!  American Technical Ceramics  Date:    8/11/98
!  One Norden Lane
!  Huntington Station,  NY.   11746-2102
!  Tel:  (516) 547-5700               Fax:  (516) 547-5748
!  Part Number  500s0r6
!  Description: Broadband Microwave capacitor
!  Application:
!
# GHZ S DB R 50
! Freq   |S11|   S11 Ph  |S21|   S21 Ph  |S12|   S12 Ph  |S22|   S22 Ph
    0.05    0.07   -1.22  -33.89   88.79  -33.89   88.79    0.07   -1.22
    0.18    0.00   -4.10  -23.05   85.97  -23.05   85.97    0.00   -4.10
    0.31   -0.02   -6.92  -18.30   83.07  -18.30   83.07   -0.02   -6.92
    0.45   -0.11   -9.83  -15.34   80.63  -15.34   80.63   -0.11   -9.83
    0.58   -0.22  -13.13  -13.08   76.72  -13.08   76.72   -0.22  -13.13
    0.71   -0.37  -16.04  -11.44   73.36  -11.44   73.36   -0.37  -16.04
    0.84   -0.51  -19.42  -10.10   70.92  -10.10   70.92   -0.51  -19.42
    0.98   -0.51  -20.97   -8.91   68.08   -8.91   68.08   -0.51  -20.97
    1.11   -0.81  -23.85   -8.04   66.17   -8.04   66.17   -0.81  -23.85
    1.24   -1.07  -25.64   -7.26   64.14   -7.26   64.14   -1.07  -25.64
    1.37   -1.09  -28.39   -6.51   61.33   -6.51   61.33   -1.09  -28.39
    1.50   -1.36  -30.95   -5.93   59.38   -5.93   59.38   -1.36  -30.95
    1.64   -1.43  -32.37   -5.32   56.89   -5.32   56.89   -1.43  -32.37
    1.77   -1.68  -35.07   -4.84   54.97   -4.84   54.97   -1.68  -35.07
    1.90   -1.91  -36.76   -4.44   52.97   -4.44   52.97   -1.91  -36.76
    2.03   -2.10  -39.19   -4.09   50.83   -4.09   50.83   -2.10  -39.19
    2.17   -2.38  -40.93   -3.74   48.95   -3.74   48.95   -2.38  -40.93
    2.30   -2.58  -42.46   -3.43   47.09   -3.43   47.09   -2.58  -42.46
    2.43   -2.87  -44.84   -3.17   45.58   -3.17   45.58   -2.87  -44.84
    2.56   -3.14  -45.70   -2.88   43.63   -2.88   43.63   -3.14  -45.70
    2.70   -3.39  -48.01   -2.66   42.08   -2.66   42.08   -3.39  -48.01
    2.83   -3.67  -49.36   -2.48   40.60   -2.48   40.60   -3.67  -49.36
    2.96   -3.90  -50.58   -2.29   38.69   -2.29   38.69   -3.90  -50.58
    3.09   -4.30  -52.37   -2.13   37.34   -2.13   37.34   -4.30  -52.37
    3.22   -4.55  -53.20   -1.99   35.69   -1.99   35.69   -4.55  -53.20
    3.36   -4.84  -55.15   -1.87   34.43   -1.87   34.43   -4.84  -55.15
    3.49   -5.11  -55.59   -1.75   33.24   -1.75   33.24   -5.11  -55.59
    3.62   -5.39  -56.82   -1.65   31.81   -1.65   31.81   -5.39  -56.82
    3.75   -5.76  -58.15   -1.54   30.58   -1.54   30.58   -5.76  -58.15
    3.89   -5.94  -59.10   -1.43   29.15   -1.43   29.15   -5.94  -59.10
    4.02   -6.15  -61.86   -1.24   28.43   -1.24   28.43   -6.15  -61.86
    4.15   -6.38  -62.39   -1.15   27.29   -1.15   27.29   -6.38  -62.39
    4.28   -6.62  -63.68   -1.10   26.23   -1.10   26.23   -6.62  -63.68
    4.41   -7.00  -64.40   -1.07   25.23   -1.07   25.23   -7.00  -64.40
    4.55   -7.20  -65.30   -1.02   24.14   -1.02   24.14   -7.20  -65.30
    4.68   -7.49  -66.55   -0.98   23.25   -0.98   23.25   -7.49  -66.55
    4.81   -7.63  -66.35   -0.95   22.66   -0.95   22.66   -7.63  -66.35
    4.94   -7.86  -66.77   -0.90   22.16   -0.90   22.16   -7.86  -66.77
    5.08   -8.13  -67.14   -0.89   21.45   -0.89   21.45   -8.13  -67.14
    5.21   -8.26  -68.41   -0.84   20.57   -0.84   20.57   -8.26  -68.41
    5.34   -8.45  -69.06   -0.78   20.13   -0.78   20.13   -8.45  -69.06
    5.47   -8.59  -69.02   -0.74   19.40   -0.74   19.40   -8.59  -69.02
    5.60   -8.85  -70.44   -0.73   18.79   -0.73   18.79   -8.85  -70.44
    5.74   -9.00  -70.18   -0.69   18.44   -0.69   18.44   -9.00  -70.18
    5.87   -9.23  -71.08   -0.68   17.77   -0.68   17.77   -9.23  -71.08
    6.00   -9.50  -72.66   -0.68   17.04   -0.68   17.04   -9.50  -72.66
    6.13   -9.47  -72.27   -0.62   16.67   -0.62   16.67   -9.47  -72.27
    6.27   -9.78  -72.88   -0.59   16.34   -0.59   16.34   -9.78  -72.88
    6.40  -10.03  -73.78   -0.61   15.73   -0.61   15.73  -10.03  -73.78
    6.53  -10.30  -74.22   -0.59   15.44   -0.59   15.44  -10.30  -74.22
    6.66  -10.56  -74.75   -0.57   14.93   -0.57   14.93  -10.56  -74.75
    6.79  -10.66  -75.38   -0.56   14.18   -0.56   14.18  -10.66  -75.38
    6.93  -11.01  -75.17   -0.55   14.13   -0.55   14.13  -11.01  -75.17
    7.06  -11.21  -74.14   -0.52   13.85   -0.52   13.85  -11.21  -74.14
    7.19  -11.49  -75.89   -0.54   13.21   -0.54   13.21  -11.49  -75.89
    7.32  -11.78  -75.47   -0.54   13.04   -0.54   13.04  -11.78  -75.47
    7.46  -12.15  -74.86   -0.51   12.69   -0.51   12.69  -12.15  -74.86
    7.59  -12.28  -75.13   -0.53   12.16   -0.53   12.16  -12.28  -75.13
    7.72  -12.50  -73.80   -0.49   12.04   -0.49   12.04  -12.50  -73.80
    7.85  -12.99  -74.14   -0.46   11.96   -0.46   11.96  -12.99  -74.14
    7.99  -13.12  -74.45   -0.48   11.46   -0.48   11.46  -13.12  -74.45
    8.12  -13.45  -74.52   -0.46   11.11   -0.46   11.11  -13.45  -74.52
    8.25  -13.94  -74.32   -0.43   10.96   -0.43   10.96  -13.94  -74.32
    8.38  -14.21  -73.62   -0.41   10.46   -0.41   10.46  -14.21  -73.62
    8.51  -14.71  -74.00   -0.40   10.12   -0.40   10.12  -14.71  -74.00
    8.65  -15.18  -73.63   -0.37    9.92   -0.37    9.92  -15.18  -73.63
    8.78  -15.65  -73.49   -0.36    9.46   -0.36    9.46  -15.65  -73.49
    8.91  -16.17  -72.27   -0.36    9.05   -0.36    9.05  -16.17  -72.27
    9.04  -16.57  -71.62   -0.35    8.71   -0.35    8.71  -16.57  -71.62
    9.18  -17.05  -71.73   -0.35    8.42   -0.35    8.42  -17.05  -71.73
    9.31  -17.44  -70.84   -0.34    8.15   -0.34    8.15  -17.44  -70.84
    9.44  -17.97  -70.97   -0.33    7.93   -0.33    7.93  -17.97  -70.97
    9.57  -18.33  -71.02   -0.32    7.63   -0.32    7.63  -18.33  -71.02
    9.70  -18.76  -71.72   -0.31    7.42   -0.31    7.42  -18.76  -71.72
    9.84  -19.26  -72.56   -0.29    7.09   -0.29    7.09  -19.26  -72.56
    9.97  -19.63  -72.74   -0.28    6.76   -0.28    6.76  -19.63  -72.74
   10.10  -20.13  -74.84   -0.26    6.60   -0.26    6.60  -20.13  -74.84
   10.23  -20.51  -75.94   -0.24    6.34   -0.24    6.34  -20.51  -75.94
   10.37  -20.92  -78.27   -0.24    6.09   -0.24    6.09  -20.92  -78.27
   10.50  -21.33  -80.44   -0.22    5.86   -0.22    5.86  -21.33  -80.44
   10.63  -21.82  -82.23   -0.20    5.54   -0.20    5.54  -21.82  -82.23
   10.76  -22.33  -85.00   -0.18    5.27   -0.18    5.27  -22.33  -85.00
   10.89  -22.70  -86.52   -0.17    4.99   -0.17    4.99  -22.70  -86.52
   11.03  -23.18  -87.50   -0.17    4.73   -0.17    4.73  -23.18  -87.50
   11.16  -23.49  -89.40   -0.16    4.47   -0.16    4.47  -23.49  -89.40
   11.29  -23.73  -91.07   -0.15    4.20   -0.15    4.20  -23.73  -91.07
   11.42  -24.18  -92.11   -0.15    4.02   -0.15    4.02  -24.18  -92.11
   11.56  -24.35  -93.52   -0.14    3.73   -0.14    3.73  -24.35  -93.52
   11.69  -24.56  -94.68   -0.13    3.56   -0.13    3.56  -24.56  -94.68
   11.82  -24.93  -94.42   -0.13    3.36   -0.13    3.36  -24.93  -94.42
   11.95  -25.24  -94.89   -0.12    3.09   -0.12    3.09  -25.24  -94.89
   12.08  -25.32  -95.28   -0.12    2.83   -0.12    2.83  -25.32  -95.28
   12.22  -25.62  -94.40   -0.11    2.66   -0.11    2.66  -25.62  -94.40
   12.35  -25.99  -94.74   -0.11    2.40   -0.11    2.40  -25.99  -94.74
   12.48  -26.16  -92.71   -0.10    2.16   -0.10    2.16  -26.16  -92.71
   12.61  -26.57  -91.34   -0.10    1.98   -0.10    1.98  -26.57  -91.34
   12.75  -26.85  -92.65   -0.10    1.73   -0.10    1.73  -26.85  -92.65
   12.88  -27.49  -91.45   -0.11    1.47   -0.11    1.47  -27.49  -91.45
   13.01  -28.49  -89.50   -0.11    1.38   -0.11    1.38  -28.49  -89.50
   13.14  -29.23  -89.67   -0.10    1.18   -0.10    1.18  -29.23  -89.67
   13.28  -30.51  -88.98   -0.10    0.98   -0.10    0.98  -30.51  -88.98
   13.41  -32.31  -85.82   -0.10    0.81   -0.10    0.81  -32.31  -85.82
   13.54  -34.44  -82.83   -0.09    0.60   -0.09    0.60  -34.44  -82.83
   13.67  -37.85  -76.82   -0.09    0.33   -0.09    0.33  -37.85  -76.82
   13.80  -44.65  -55.68   -0.09    0.13   -0.09    0.13  -44.65  -55.68
   13.94  -45.60   22.79   -0.09   -0.06   -0.09   -0.06  -45.60   22.79
   14.07  -38.99   60.90   -0.09   -0.25   -0.09   -0.25  -38.99   60.90
   14.20  -34.46   75.24   -0.09   -0.51   -0.09   -0.51  -34.46   75.24
   14.33  -31.25   78.29   -0.10   -0.75   -0.10   -0.75  -31.25   78.29
   14.47  -28.69   80.85   -0.10   -0.93   -0.10   -0.93  -28.69   80.85
   14.60  -26.82   82.41   -0.11   -1.16   -0.11   -1.16  -26.82   82.41
   14.73  -25.20   83.60   -0.11   -1.45   -0.11   -1.45  -25.20   83.60
   14.86  -23.87   83.34   -0.13   -1.64   -0.13   -1.64  -23.87   83.34
   14.99  -22.80   83.11   -0.14   -1.88   -0.14   -1.88  -22.80   83.11
   15.13  -22.00   85.02   -0.15   -1.97   -0.15   -1.97  -22.00   85.02
   15.26  -21.21   85.08   -0.16   -2.16   -0.16   -2.16  -21.21   85.08
   15.39  -20.35   86.38   -0.16   -2.34   -0.16   -2.34  -20.35   86.38
   15.52  -19.91   87.53   -0.17   -2.39   -0.17   -2.39  -19.91   87.53
   15.66  -19.36   88.17   -0.18   -2.48   -0.18   -2.48  -19.36   88.17
   15.79  -18.85   88.29   -0.19   -2.62   -0.19   -2.62  -18.85   88.29
   15.92  -18.41   89.10   -0.18   -2.75   -0.18   -2.75  -18.41   89.10
   16.05  -18.23   89.63   -0.19   -2.81   -0.19   -2.81  -18.23   89.63
   16.18  -17.89   89.25   -0.20   -2.99   -0.20   -2.99  -17.89   89.25
   16.32  -17.65   90.20   -0.20   -2.98   -0.20   -2.98  -17.65   90.20
   16.45  -17.51   90.23   -0.19   -3.09   -0.19   -3.09  -17.51   90.23
   16.58  -17.36   91.15   -0.19   -3.18   -0.19   -3.18  -17.36   91.15
   16.71  -17.35   91.64   -0.19   -3.24   -0.19   -3.24  -17.35   91.64
   16.85  -17.18   90.99   -0.20   -3.44   -0.20   -3.44  -17.18   90.99
   16.98  -17.09   91.84   -0.17   -3.52   -0.17   -3.52  -17.09   91.84
   17.11  -17.18   90.93   -0.20   -3.60   -0.20   -3.60  -17.18   90.93
   17.24  -17.12   91.03   -0.22   -3.74   -0.22   -3.74  -17.12   91.03
   17.37  -17.32   91.73   -0.19   -3.84   -0.19   -3.84  -17.32   91.73
   17.51  -17.49   91.83   -0.19   -3.95   -0.19   -3.95  -17.49   91.83
   17.64  -17.36   92.23   -0.22   -4.09   -0.22   -4.09  -17.36   92.23
   17.77  -17.70   91.81   -0.18   -4.16   -0.18   -4.16  -17.70   91.81
   17.90  -17.71   91.58   -0.17   -4.57   -0.17   -4.57  -17.71   91.58
   18.04  -17.89   90.19   -0.20   -4.59   -0.20   -4.59  -17.89   90.19
   18.17  -17.93   90.78   -0.19   -4.92   -0.19   -4.92  -17.93   90.78
   18.30  -18.03   89.69   -0.17   -5.07   -0.17   -5.07  -18.03   89.69
   18.43  -18.05   88.58   -0.20   -5.32   -0.20   -5.32  -18.05   88.58
   18.57  -17.92   87.21   -0.21   -5.46   -0.21   -5.46  -17.92   87.21
   18.70  -17.89   85.75   -0.20   -5.73   -0.20   -5.73  -17.89   85.75
   18.83  -17.86   83.75   -0.21   -5.94   -0.21   -5.94  -17.86   83.75
   18.96  -17.57   83.29   -0.22   -6.10   -0.22   -6.10  -17.57   83.29
   19.09  -17.37   81.73   -0.22   -6.37   -0.22   -6.37  -17.37   81.73
   19.23  -17.09   80.11   -0.24   -6.68   -0.24   -6.68  -17.09   80.11
   19.36  -16.76   78.64   -0.24   -6.91   -0.24   -6.91  -16.76   78.64
   19.49  -16.38   77.90   -0.24   -7.08   -0.24   -7.08  -16.38   77.90
   19.62  -16.05   77.71   -0.26   -7.43   -0.26   -7.43  -16.05   77.71
   19.76  -15.78   76.15   -0.27   -7.68   -0.27   -7.68  -15.78   76.15
   19.89  -15.29   75.48   -0.27   -7.86   -0.27   -7.86  -15.29   75.48
   20.02  -14.97   75.74   -0.30   -8.18   -0.30   -8.18  -14.97   75.74
   20.15  -14.59   76.13   -0.33   -8.54   -0.33   -8.54  -14.59   76.13
   20.28  -14.14   76.25   -0.35   -8.72   -0.35   -8.72  -14.14   76.25
   20.42  -13.81   76.50   -0.37   -8.97   -0.37   -8.97  -13.81   76.50
   20.55  -13.53   76.87   -0.42   -9.21   -0.42   -9.21  -13.53   76.87
   20.68  -13.22   78.24   -0.44   -9.31   -0.44   -9.31  -13.22   78.24
   20.81  -12.79   78.86   -0.44   -9.50   -0.44   -9.50  -12.79   78.86
   20.95  -12.65   79.52   -0.49   -9.62   -0.49   -9.62  -12.65   79.52
   21.08  -12.40   81.31   -0.53   -9.55   -0.53   -9.55  -12.40   81.31
   21.21  -12.16   81.59   -0.54   -9.82   -0.54   -9.82  -12.16   81.59
   21.34  -11.99   81.77   -0.55   -9.89   -0.55   -9.89  -11.99   81.77
   21.47  -11.94   84.75   -0.58   -9.50   -0.58   -9.50  -11.94   84.75
   21.61  -11.78   84.50   -0.60   -9.62   -0.60   -9.62  -11.78   84.50
   21.74  -11.54   84.59   -0.60   -9.80   -0.60   -9.80  -11.54   84.59
   21.87  -11.57   86.12   -0.61   -9.46   -0.61   -9.46  -11.57   86.12
   22.00  -11.47   86.01   -0.63   -9.64   -0.63   -9.64  -11.47   86.01
   22.14  -11.31   86.17   -0.63   -9.71   -0.63   -9.71  -11.31   86.17
   22.27  -11.25   86.94   -0.63   -9.56   -0.63   -9.56  -11.25   86.94
   22.40  -11.39   87.25   -0.67   -9.28   -0.67   -9.28  -11.39   87.25
   22.53  -11.26   87.53   -0.69   -9.44   -0.69   -9.44  -11.26   87.53
   22.66  -11.14   88.48   -0.71   -9.30   -0.71   -9.30  -11.14   88.48
   22.80  -11.25   88.39   -0.71   -9.03   -0.71   -9.03  -11.25   88.39
   22.93  -11.22   88.01   -0.69   -9.09   -0.69   -9.09  -11.22   88.01
   23.06  -11.08   89.16   -0.69   -9.11   -0.69   -9.11  -11.08   89.16
   23.19  -11.19   88.92   -0.70   -9.12   -0.70   -9.12  -11.19   88.92
   23.33  -11.18   88.96   -0.70   -9.20   -0.70   -9.20  -11.18   88.96
   23.46  -11.17   88.80   -0.69   -9.42   -0.69   -9.42  -11.17   88.80
   23.59  -11.18   88.27   -0.71   -9.71   -0.71   -9.71  -11.18   88.27
   23.72  -11.15   88.42   -0.74   -9.89   -0.74   -9.89  -11.15   88.42
   23.86  -11.14   87.63   -0.76   -9.94   -0.76   -9.94  -11.14   87.63
   23.99  -10.96   86.64   -0.79  -10.41   -0.79  -10.41  -10.96   86.64
   24.12  -10.77   85.26   -0.84  -10.67   -0.84  -10.67  -10.77   85.26
   24.25  -10.63   83.16   -0.84  -10.87   -0.84  -10.87  -10.63   83.16
   24.38  -10.45   81.45   -0.87  -11.19   -0.87  -11.19  -10.45   81.45
   24.52  -10.19   79.70   -0.95  -11.75   -0.95  -11.75  -10.19   79.70
   24.65   -9.94   77.77   -0.94  -12.05   -0.94  -12.05   -9.94   77.77
   24.78   -9.77   75.40   -0.96  -12.40   -0.96  -12.40   -9.77   75.40
   24.91   -9.42   73.73   -1.02  -12.81   -1.02  -12.81   -9.42   73.73
   25.05   -9.07   71.78   -1.11  -13.21   -1.11  -13.21   -9.07   71.78
   25.18   -8.74   70.41   -1.10  -13.77   -1.10  -13.77   -8.74   70.41
   25.31   -8.36   69.37   -1.18  -14.21   -1.18  -14.21   -8.36   69.37
   25.44   -8.06   67.32   -1.24  -14.36   -1.24  -14.36   -8.06   67.32
   25.57   -7.82   66.64   -1.22  -14.78   -1.22  -14.78   -7.82   66.64
   25.71   -7.57   66.03   -1.29  -15.14   -1.29  -15.14   -7.57   66.03
   25.84   -7.36   67.14   -1.34  -15.23   -1.34  -15.23   -7.36   67.14
   25.97   -7.18   68.05   -1.36  -16.02   -1.36  -16.02   -7.18   68.05
   26.10   -6.82   69.80   -1.40  -16.40   -1.40  -16.40   -6.82   69.80
   26.24   -6.59   72.79   -1.48  -16.10   -1.48  -16.10   -6.59   72.79
   26.37   -6.56   74.50   -1.55  -16.05   -1.55  -16.05   -6.56   74.50
   26.50   -6.59   75.51   -1.61  -15.97   -1.61  -15.97   -6.59   75.51
