!  American Technical Ceramics  Date:    3/13/98
!  One Norden Lane
!  Huntington Station,  NY.   11746-2102
!  Tel:  (516) 547-5700               Fax:  (516) 547-5748
!  Part Number  700A561J
!  Description: Porcelain, High Q, Low ESR
!  Application: Bypass, Coupling, Timing, Feedback
!               Tuning, Impedance Match, Blocking
# GHZ S DB R 50
! Freq   |S11|   S11 Ph  |S21|   S21 Ph  |S12|   S12 Ph  |S22|   S22 Ph
    0.05  -24.26  -88.65   -0.03    3.30   -0.03    3.30  -24.26  -88.65
    0.07  -27.14  -90.62   -0.03    2.16   -0.03    2.16  -27.14  -90.62
    0.09  -29.80  -91.33    0.00    1.71    0.00    1.71  -29.80  -91.33
    0.11  -31.25  -94.52   -0.01    1.47   -0.01    1.47  -31.25  -94.52
    0.13  -32.81  -95.96    0.00    0.95    0.00    0.95  -32.81  -95.96
    0.15  -34.66  -94.90    0.02    1.00    0.02    1.00  -34.66  -94.90
    0.17  -35.34  -97.42    0.00    0.80    0.00    0.80  -35.34  -97.42
    0.19  -37.13  -94.98    0.00    0.84    0.00    0.84  -37.13  -94.98
    0.21  -38.21 -100.28    0.02    0.72    0.02    0.72  -38.21 -100.28
    0.23  -39.15 -100.86    0.00    0.53    0.00    0.53  -39.15 -100.86
    0.25  -39.83 -100.62    0.00    0.50    0.00    0.50  -39.83 -100.62
    0.27  -40.67 -101.64   -0.01    0.42   -0.01    0.42  -40.67 -101.64
    0.29  -41.79 -106.64   -0.01    0.40   -0.01    0.40  -41.79 -106.64
    0.31  -42.37 -108.04    0.00    0.33    0.00    0.33  -42.37 -108.04
    0.33  -43.85 -109.19    0.00    0.00    0.00    0.00  -43.85 -109.19
    0.35  -44.70 -107.74    0.00    0.17    0.00    0.17  -44.70 -107.74
    0.37  -46.16 -113.08    0.00    0.03    0.00    0.03  -46.16 -113.08
    0.39  -46.63 -111.20    0.01   -0.03    0.01   -0.03  -46.63 -111.20
    0.41  -48.25 -114.82   -0.01    0.12   -0.01    0.12  -48.25 -114.82
    0.43  -48.21 -115.76    0.00    0.05    0.00    0.05  -48.21 -115.76
    0.45  -48.53 -129.58   -0.01   -0.02   -0.01   -0.02  -48.53 -129.58
    0.46  -51.26 -127.74    0.01   -0.03    0.01   -0.03  -51.26 -127.74
    0.48  -51.96 -137.23    0.00   -0.04    0.00   -0.04  -51.96 -137.23
    0.50  -52.29 -140.78   -0.01   -0.40   -0.01   -0.40  -52.29 -140.78
    0.52  -52.16 -142.12   -0.01   -0.23   -0.01   -0.23  -52.16 -142.12
    0.54  -52.54 -149.62    0.01   -0.33    0.01   -0.33  -52.54 -149.62
    0.56  -54.30  176.84    0.00   -0.34    0.00   -0.34  -54.30  176.84
    0.58  -56.86 -177.24    0.00   -0.29    0.00   -0.29  -56.86 -177.24
    0.60  -52.56  179.83   -0.01   -0.36   -0.01   -0.36  -52.56  179.83
    0.62  -54.21  158.30    0.00   -0.40    0.00   -0.40  -54.21  158.30
    0.64  -54.08  142.23    0.00   -0.30    0.00   -0.30  -54.08  142.23
    0.66  -54.06  136.86    0.00   -0.39    0.00   -0.39  -54.06  136.86
    0.68  -53.42  134.46    0.01   -0.46    0.01   -0.46  -53.42  134.46
    0.70  -52.98  125.73    0.01   -0.65    0.01   -0.65  -52.98  125.73
    0.72  -51.08  120.91    0.00   -0.63    0.00   -0.63  -51.08  120.91
    0.74  -50.25  120.49    0.00   -0.49    0.00   -0.49  -50.25  120.49
    0.76  -48.93  113.90    0.01   -0.50    0.01   -0.50  -48.93  113.90
    0.78  -47.90  112.27    0.00   -0.61    0.00   -0.61  -47.90  112.27
    0.80  -47.71  108.66    0.00   -0.67    0.00   -0.67  -47.71  108.66
    0.82  -46.48  108.48   -0.01   -0.65   -0.01   -0.65  -46.48  108.48
    0.84  -45.69  104.13    0.01   -0.69    0.01   -0.69  -45.69  104.13
    0.86  -44.89   95.68    0.00   -0.77    0.00   -0.77  -44.89   95.68
    0.88  -45.22   97.63    0.00   -0.77    0.00   -0.77  -45.22   97.63
    0.90  -44.26  102.75   -0.01   -0.67   -0.01   -0.67  -44.26  102.75
    0.92  -42.98   95.47   -0.01   -0.79   -0.01   -0.79  -42.98   95.47
    0.94  -42.82   92.30   -0.01   -0.85   -0.01   -0.85  -42.82   92.30
    0.96  -42.22   94.20   -0.02   -0.85   -0.02   -0.85  -42.22   94.20
    0.98  -41.08   91.85   -0.01   -0.91   -0.01   -0.91  -41.08   91.85
    1.00  -39.92   89.10   -0.02   -0.97   -0.02   -0.97  -39.92   89.10
    1.02  -38.95   85.85    0.00   -1.15    0.00   -1.15  -38.95   85.85
    1.04  -37.90   80.85   -0.02   -1.13   -0.02   -1.13  -37.90   80.85
    1.06  -36.62   77.31   -0.04   -1.24   -0.04   -1.24  -36.62   77.31
    1.08  -34.93   71.09   -0.05   -1.46   -0.05   -1.46  -34.93   71.09
    1.10  -32.84   58.96   -0.09   -1.70   -0.09   -1.70  -32.84   58.96
    1.12  -30.81   34.16   -0.21   -1.52   -0.21   -1.52  -30.81   34.16
    1.14  -31.30   -2.69   -0.25   -0.47   -0.25   -0.47  -31.30   -2.69
    1.16  -35.26  -31.39   -0.14    0.08   -0.14    0.08  -35.26  -31.39
    1.18  -39.87  -45.86   -0.06   -0.12   -0.06   -0.12  -39.87  -45.86
    1.20  -44.78  -50.45   -0.06   -0.20   -0.06   -0.20  -44.78  -50.45
    1.22  -50.61  -45.54   -0.03   -0.37   -0.03   -0.37  -50.61  -45.54
    1.24  -54.79   -3.62   -0.04   -0.51   -0.04   -0.51  -54.79   -3.62
    1.25  -54.94   28.19   -0.04   -0.66   -0.04   -0.66  -54.94   28.19
    1.27  -54.82   52.17   -0.01   -0.75   -0.01   -0.75  -54.82   52.17
    1.29  -50.79   79.30   -0.02   -0.71   -0.02   -0.71  -50.79   79.30
    1.31  -47.67   80.51   -0.02   -0.70   -0.02   -0.70  -47.67   80.51
    1.33  -48.05   74.25   -0.02   -0.71   -0.02   -0.71  -48.05   74.25
    1.35  -46.96   80.36   -0.01   -0.76   -0.01   -0.76  -46.96   80.36
    1.37  -46.17   86.36   -0.01   -0.88   -0.01   -0.88  -46.17   86.36
    1.39  -44.78   80.49   -0.01   -0.98   -0.01   -0.98  -44.78   80.49
    1.41  -44.02   80.01   -0.02   -0.87   -0.02   -0.87  -44.02   80.01
    1.43  -43.95   77.91   -0.01   -0.92   -0.01   -0.92  -43.95   77.91
    1.45  -43.59   83.54    0.00   -0.94    0.00   -0.94  -43.59   83.54
    1.47  -42.47   87.00   -0.01   -0.95   -0.01   -0.95  -42.47   87.00
    1.49  -41.65   86.56   -0.01   -0.93   -0.01   -0.93  -41.65   86.56
    1.51  -41.04   80.94    0.00   -1.07    0.00   -1.07  -41.04   80.94
    1.53  -41.31   80.02   -0.01   -1.19   -0.01   -1.19  -41.31   80.02
    1.55  -41.43   81.32   -0.01   -1.10   -0.01   -1.10  -41.43   81.32
    1.57  -40.99   85.34   -0.01   -1.16   -0.01   -1.16  -40.99   85.34
    1.59  -39.84   84.20    0.00   -1.23    0.00   -1.23  -39.84   84.20
    1.61  -38.97   79.76   -0.01   -1.37   -0.01   -1.37  -38.97   79.76
    1.63  -39.50   77.90   -0.02   -1.26   -0.02   -1.26  -39.50   77.90
    1.65  -39.86   80.16   -0.02   -1.40   -0.02   -1.40  -39.86   80.16
    1.67  -38.63   86.14   -0.03   -1.28   -0.03   -1.28  -38.63   86.14
    1.69  -37.77   80.66   -0.01   -1.25   -0.01   -1.25  -37.77   80.66
    1.71  -38.00   76.17   -0.03   -1.30   -0.03   -1.30  -38.00   76.17
    1.73  -38.47   77.64   -0.03   -1.39   -0.03   -1.39  -38.47   77.64
    1.75  -37.92   80.95   -0.01   -1.41   -0.01   -1.41  -37.92   80.95
    1.77  -37.11   81.39   -0.02   -1.37   -0.02   -1.37  -37.11   81.39
    1.79  -36.65   79.10   -0.02   -1.49   -0.02   -1.49  -36.65   79.10
    1.81  -36.55   75.76   -0.02   -1.35   -0.02   -1.35  -36.55   75.76
    1.83  -36.54   76.45   -0.02   -1.46   -0.02   -1.46  -36.54   76.45
    1.85  -36.47   78.32   -0.02   -1.45   -0.02   -1.45  -36.47   78.32
    1.87  -35.72   79.25   -0.03   -1.55   -0.03   -1.55  -35.72   79.25
    1.89  -35.14   76.94   -0.03   -1.56   -0.03   -1.56  -35.14   76.94
    1.91  -34.83   74.15   -0.02   -1.74   -0.02   -1.74  -34.83   74.15
    1.93  -34.56   71.76   -0.03   -1.75   -0.03   -1.75  -34.56   71.76
    1.95  -34.35   70.78   -0.03   -1.74   -0.03   -1.74  -34.35   70.78
    1.97  -33.84   70.12   -0.04   -1.96   -0.04   -1.96  -33.84   70.12
    1.99  -33.10   67.09   -0.07   -1.84   -0.07   -1.84  -33.10   67.09
    2.01  -32.49   61.52   -0.06   -1.95   -0.06   -1.95  -32.49   61.52
    2.03  -32.43   54.38   -0.09   -1.80   -0.09   -1.80  -32.43   54.38
    2.04  -32.89   47.16   -0.11   -1.74   -0.11   -1.74  -32.89   47.16
    2.06  -33.87   41.62   -0.11   -1.75   -0.11   -1.75  -33.87   41.62
    2.08  -34.71   38.38   -0.13   -1.51   -0.13   -1.51  -34.71   38.38
    2.10  -35.84   36.54   -0.09   -1.39   -0.09   -1.39  -35.84   36.54
    2.12  -37.08   37.77   -0.10   -1.29   -0.10   -1.29  -37.08   37.77
    2.14  -38.21   47.48   -0.07   -1.42   -0.07   -1.42  -38.21   47.48
    2.16  -37.79   56.78   -0.08   -1.36   -0.08   -1.36  -37.79   56.78
    2.18  -37.39   58.82   -0.05   -1.44   -0.05   -1.44  -37.39   58.82
    2.20  -37.35   59.88   -0.04   -1.44   -0.04   -1.44  -37.35   59.88
    2.22  -37.31   62.91   -0.06   -1.47   -0.06   -1.47  -37.31   62.91
    2.24  -37.39   66.89   -0.04   -1.49   -0.04   -1.49  -37.39   66.89
    2.26  -36.46   69.15   -0.05   -1.41   -0.05   -1.41  -36.46   69.15
    2.28  -36.05   68.96   -0.04   -1.56   -0.04   -1.56  -36.05   68.96
    2.30  -35.90   67.12   -0.03   -1.54   -0.03   -1.54  -35.90   67.12
    2.32  -35.93   68.49   -0.05   -1.70   -0.05   -1.70  -35.93   68.49
    2.34  -35.60   70.45   -0.03   -1.58   -0.03   -1.58  -35.60   70.45
    2.36  -35.22   71.41   -0.02   -1.62   -0.02   -1.62  -35.22   71.41
    2.38  -34.80   71.96   -0.02   -1.71   -0.02   -1.71  -34.80   71.96
    2.40  -34.70   70.24   -0.04   -1.58   -0.04   -1.58  -34.70   70.24
    2.42  -34.76   69.37   -0.01   -1.72   -0.01   -1.72  -34.76   69.37
    2.44  -34.81   72.39   -0.04   -1.85   -0.04   -1.85  -34.81   72.39
    2.46  -34.17   72.47   -0.02   -1.78   -0.02   -1.78  -34.17   72.47
    2.48  -34.10   70.90   -0.03   -1.90   -0.03   -1.90  -34.10   70.90
    2.50  -34.17   69.18   -0.04   -1.98   -0.04   -1.98  -34.17   69.18
    2.52  -34.09   70.66   -0.04   -1.77   -0.04   -1.77  -34.09   70.66
    2.54  -33.85   71.83   -0.04   -1.86   -0.04   -1.86  -33.85   71.83
    2.56  -33.32   72.83   -0.05   -1.85   -0.05   -1.85  -33.32   72.83
    2.58  -33.14   71.10   -0.03   -2.04   -0.03   -2.04  -33.14   71.10
    2.60  -33.21   70.08   -0.04   -2.15   -0.04   -2.15  -33.21   70.08
    2.62  -33.27   71.01   -0.05   -2.11   -0.05   -2.11  -33.27   71.01
    2.64  -33.12   72.14   -0.05   -1.86   -0.05   -1.86  -33.12   72.14
    2.66  -32.78   71.39   -0.04   -2.05   -0.04   -2.05  -32.78   71.39
    2.68  -32.44   70.37   -0.04   -2.11   -0.04   -2.11  -32.44   70.37
    2.70  -32.51   68.72   -0.05   -2.03   -0.05   -2.03  -32.51   68.72
    2.72  -32.50   70.17   -0.05   -2.34   -0.05   -2.34  -32.50   70.17
    2.74  -32.21   70.39   -0.06   -2.12   -0.06   -2.12  -32.21   70.39
    2.76  -32.06   69.93   -0.05   -2.21   -0.05   -2.21  -32.06   69.93
    2.78  -31.78   69.56   -0.05   -2.30   -0.05   -2.30  -31.78   69.56
    2.80  -31.60   68.88   -0.05   -2.24   -0.05   -2.24  -31.60   68.88
    2.82  -31.53   66.82   -0.06   -2.16   -0.06   -2.16  -31.53   66.82
    2.83  -31.47   66.37   -0.07   -2.28   -0.07   -2.28  -31.47   66.37
    2.85  -31.37   65.87   -0.06   -2.40   -0.06   -2.40  -31.37   65.87
    2.87  -31.23   65.19   -0.06   -2.39   -0.06   -2.39  -31.23   65.19
    2.89  -31.02   63.65   -0.07   -2.30   -0.07   -2.30  -31.02   63.65
    2.91  -30.96   61.36   -0.08   -2.45   -0.08   -2.45  -30.96   61.36
    2.93  -31.08   60.18   -0.08   -2.45   -0.08   -2.45  -31.08   60.18
    2.95  -31.25   59.30   -0.09   -2.43   -0.09   -2.43  -31.25   59.30
    2.97  -31.26   56.91   -0.10   -2.25   -0.10   -2.25  -31.26   56.91
    2.99  -31.57   56.12   -0.09   -2.23   -0.09   -2.23  -31.57   56.12
    3.01  -31.86   54.82   -0.08   -2.18   -0.08   -2.18  -31.86   54.82
    3.03  -32.11   55.48   -0.10   -2.24   -0.10   -2.24  -32.11   55.48
    3.05  -32.23   56.97   -0.08   -2.18   -0.08   -2.18  -32.23   56.97
    3.07  -32.34   58.38   -0.08   -2.21   -0.08   -2.21  -32.34   58.38
    3.09  -32.42   58.72   -0.07   -2.24   -0.07   -2.24  -32.42   58.72
    3.11  -32.56   59.98   -0.08   -2.28   -0.08   -2.28  -32.56   59.98
    3.13  -32.50   60.44   -0.06   -2.06   -0.06   -2.06  -32.50   60.44
    3.15  -32.33   62.15   -0.06   -2.16   -0.06   -2.16  -32.33   62.15
    3.17  -32.32   62.52   -0.05   -2.20   -0.05   -2.20  -32.32   62.52
    3.19  -32.26   62.76   -0.06   -2.22   -0.06   -2.22  -32.26   62.76
    3.21  -32.24   62.08   -0.04   -2.13   -0.04   -2.13  -32.24   62.08
    3.23  -32.22   63.71   -0.05   -2.35   -0.05   -2.35  -32.22   63.71
    3.25  -32.05   63.65   -0.04   -2.34   -0.04   -2.34  -32.05   63.65
    3.27  -31.86   63.16   -0.05   -2.16   -0.05   -2.16  -31.86   63.16
    3.29  -31.94   62.89   -0.04   -2.32   -0.04   -2.32  -31.94   62.89
    3.31  -31.87   64.00   -0.05   -2.41   -0.05   -2.41  -31.87   64.00
    3.33  -31.98   64.08   -0.04   -2.47   -0.04   -2.47  -31.98   64.08
    3.35  -31.70   64.87   -0.06   -2.45   -0.06   -2.45  -31.70   64.87
    3.37  -31.70   63.91   -0.04   -2.58   -0.04   -2.58  -31.70   63.91
    3.39  -31.61   62.68   -0.05   -2.53   -0.05   -2.53  -31.61   62.68
    3.41  -31.62   63.75   -0.06   -2.50   -0.06   -2.50  -31.62   63.75
    3.43  -31.54   64.44   -0.06   -2.57   -0.06   -2.57  -31.54   64.44
    3.45  -31.42   64.35   -0.06   -2.52   -0.06   -2.52  -31.42   64.35
    3.47  -31.27   63.23   -0.06   -2.58   -0.06   -2.58  -31.27   63.23
    3.49  -31.39   63.22   -0.07   -2.52   -0.07   -2.52  -31.39   63.22
    3.51  -31.44   63.67   -0.05   -2.59   -0.05   -2.59  -31.44   63.67
    3.53  -31.49   63.54   -0.05   -2.67   -0.05   -2.67  -31.49   63.54
    3.55  -31.28   64.11   -0.04   -2.60   -0.04   -2.60  -31.28   64.11
    3.57  -31.23   63.16   -0.07   -2.51   -0.07   -2.51  -31.23   63.16
    3.59  -31.33   62.44   -0.06   -2.51   -0.06   -2.51  -31.33   62.44
    3.61  -31.26   61.92   -0.05   -2.83   -0.05   -2.83  -31.26   61.92
    3.62  -31.24   62.37   -0.06   -2.65   -0.06   -2.65  -31.24   62.37
    3.64  -31.12   63.12   -0.06   -2.73   -0.06   -2.73  -31.12   63.12
    3.66  -31.07   62.33   -0.06   -2.77   -0.06   -2.77  -31.07   62.33
    3.68  -31.11   61.59   -0.05   -2.85   -0.05   -2.85  -31.11   61.59
    3.70  -31.09   61.31   -0.06   -2.74   -0.06   -2.74  -31.09   61.31
    3.72  -31.13   59.74   -0.08   -2.77   -0.08   -2.77  -31.13   59.74
    3.74  -30.92   59.90   -0.07   -3.05   -0.07   -3.05  -30.92   59.90
    3.76  -31.05   58.72   -0.08   -2.86   -0.08   -2.86  -31.05   58.72
    3.78  -30.96   58.92   -0.06   -3.00   -0.06   -3.00  -30.96   58.92
    3.80  -30.99   58.26   -0.08   -2.94   -0.08   -2.94  -30.99   58.26
    3.82  -31.08   57.58   -0.08   -2.96   -0.08   -2.96  -31.08   57.58
    3.84  -31.04   56.87   -0.08   -2.85   -0.08   -2.85  -31.04   56.87
    3.86  -31.30   54.95   -0.08   -2.99   -0.08   -2.99  -31.30   54.95
    3.88  -31.45   54.50   -0.10   -2.99   -0.10   -2.99  -31.45   54.50
    3.90  -31.49   53.38   -0.09   -2.80   -0.09   -2.80  -31.49   53.38
    3.92  -31.63   53.53   -0.09   -2.85   -0.09   -2.85  -31.63   53.53
    3.94  -31.53   51.34   -0.09   -2.95   -0.09   -2.95  -31.53   51.34
    3.96  -31.82   50.67   -0.10   -2.81   -0.10   -2.81  -31.82   50.67
    3.98  -32.14   51.11   -0.10   -2.93   -0.10   -2.93  -32.14   51.11
    4.00  -31.67   55.07   -0.08   -3.01   -0.08   -3.01  -31.67   55.07
