!  American Technical Ceramics  Date:    3/13/98
!  One Norden Lane
!  Huntington Station,  NY.   11746-2102
!  Tel:  (516) 547-5700               Fax:  (516) 547-5748
!  Part Number  700A1R0D
!  Description: Porcelain, High Q, Low ESR
!  Application: Bypass, Coupling, Timing, Feedback
!               Tuning, Impedance Match, Blocking
# GHZ S DB R 50
! Freq   |S11|   S11 Ph  |S21|   S21 Ph  |S12|   S12 Ph  |S22|   S22 Ph
    0.05   -0.03   -0.86  -29.32   86.45  -29.32   86.45   -0.03   -0.86
    0.15    0.01   -5.71  -20.51   84.56  -20.51   84.56    0.01   -5.71
    0.25   -0.12   -9.20  -16.10   80.86  -16.10   80.86   -0.12   -9.20
    0.35   -0.19  -12.98  -13.23   77.28  -13.23   77.28   -0.19  -12.98
    0.45   -0.31  -16.59  -11.19   73.91  -11.19   73.91   -0.31  -16.59
    0.55   -0.57  -20.61   -9.45   69.66   -9.45   69.66   -0.57  -20.61
    0.65   -0.77  -24.12   -8.17   66.39   -8.17   66.39   -0.77  -24.12
    0.75   -0.99  -27.19   -7.13   63.39   -7.13   63.39   -0.99  -27.19
    0.85   -1.27  -30.58   -6.27   60.39   -6.27   60.39   -1.27  -30.58
    0.95   -1.49  -33.29   -5.57   57.55   -5.57   57.55   -1.49  -33.29
    1.05   -1.73  -36.12   -4.99   54.85   -4.99   54.85   -1.73  -36.12
    1.15   -1.97  -38.75   -4.43   52.49   -4.43   52.49   -1.97  -38.75
    1.25   -2.31  -41.00   -3.94   50.15   -3.94   50.15   -2.31  -41.00
    1.35   -2.62  -43.51   -3.56   48.05   -3.56   48.05   -2.62  -43.51
    1.45   -2.87  -45.60   -3.27   45.96   -3.27   45.96   -2.87  -45.60
    1.55   -3.14  -47.80   -2.97   43.72   -2.97   43.72   -3.14  -47.80
    1.65   -3.43  -49.92   -2.69   41.73   -2.69   41.73   -3.43  -49.92
    1.75   -3.72  -51.59   -2.42   40.34   -2.42   40.34   -3.72  -51.59
    1.85   -4.08  -53.57   -2.22   38.81   -2.22   38.81   -4.08  -53.57
    1.95   -4.38  -54.91   -2.07   36.96   -2.07   36.96   -4.38  -54.91
    2.05   -4.67  -56.52   -1.92   35.43   -1.92   35.43   -4.67  -56.52
    2.14   -4.93  -57.92   -1.76   33.96   -1.76   33.96   -4.93  -57.92
    2.24   -5.27  -59.44   -1.56   32.89   -1.56   32.89   -5.27  -59.44
    2.34   -5.60  -61.03   -1.45   31.49   -1.45   31.49   -5.60  -61.03
    2.44   -5.92  -62.45   -1.36   30.38   -1.36   30.38   -5.92  -62.45
    2.54   -6.22  -63.42   -1.30   29.14   -1.30   29.14   -6.22  -63.42
    2.64   -6.48  -63.47   -1.16   27.87   -1.16   27.87   -6.48  -63.47
    2.74   -6.83  -64.72   -1.05   26.96   -1.05   26.96   -6.83  -64.72
    2.84   -7.21  -66.18   -1.00   25.69   -1.00   25.69   -7.21  -66.18
    2.94   -7.51  -67.68   -0.92   24.83   -0.92   24.83   -7.51  -67.68
    3.04   -7.74  -67.87   -0.90   23.84   -0.90   23.84   -7.74  -67.87
    3.14   -8.06  -68.64   -0.81   22.83   -0.81   22.83   -8.06  -68.64
    3.24   -8.30  -69.25   -0.77   22.11   -0.77   22.11   -8.30  -69.25
    3.34   -8.80  -70.85   -0.71   20.95   -0.71   20.95   -8.80  -70.85
    3.44   -8.98  -71.86   -0.68   20.40   -0.68   20.40   -8.98  -71.86
    3.54   -9.27  -71.87   -0.68   19.40   -0.68   19.40   -9.27  -71.87
    3.64   -9.45  -72.73   -0.60   18.64   -0.60   18.64   -9.45  -72.73
    3.74   -9.87  -72.77   -0.61   17.97   -0.61   17.97   -9.87  -72.77
    3.84  -10.23  -74.34   -0.57   17.09   -0.57   17.09  -10.23  -74.34
    3.94  -10.49  -74.66   -0.53   16.39   -0.53   16.39  -10.49  -74.66
    4.04  -10.69  -75.54   -0.50   16.01   -0.50   16.01  -10.69  -75.54
    4.14  -10.82  -75.99   -0.46   15.52   -0.46   15.52  -10.82  -75.99
    4.24  -11.15  -76.08   -0.46   14.92   -0.46   14.92  -11.15  -76.08
    4.34  -11.49  -77.54   -0.43   14.22   -0.43   14.22  -11.49  -77.54
    4.44  -11.72  -78.06   -0.43   13.94   -0.43   13.94  -11.72  -78.06
    4.54  -11.95  -77.98   -0.45   13.20   -0.45   13.20  -11.95  -77.98
    4.64  -12.12  -78.18   -0.37   12.71   -0.37   12.71  -12.12  -78.18
    4.74  -12.35  -77.53   -0.38   12.68   -0.38   12.68  -12.35  -77.53
    4.84  -12.76  -78.76   -0.39   12.04   -0.39   12.04  -12.76  -78.76
    4.94  -12.93  -79.06   -0.38   11.47   -0.38   11.47  -12.93  -79.06
    5.04  -13.25  -79.04   -0.34   10.97   -0.34   10.97  -13.25  -79.04
    5.14  -13.31  -79.37   -0.32   10.49   -0.32   10.49  -13.31  -79.37
    5.24  -13.65  -79.26   -0.32   10.44   -0.32   10.44  -13.65  -79.26
    5.34  -13.84  -79.63   -0.32   10.09   -0.32   10.09  -13.84  -79.63
    5.44  -14.23  -79.57   -0.35    9.46   -0.35    9.46  -14.23  -79.57
    5.54  -14.30  -80.26   -0.34    8.99   -0.34    8.99  -14.30  -80.26
    5.64  -14.50  -79.80   -0.32    8.79   -0.32    8.79  -14.50  -79.80
    5.74  -14.67  -80.93   -0.30    8.48   -0.30    8.48  -14.67  -80.93
    5.84  -15.07  -80.58   -0.30    8.21   -0.30    8.21  -15.07  -80.58
    5.94  -15.36  -81.56   -0.31    7.76   -0.31    7.76  -15.36  -81.56
    6.04  -15.62  -81.41   -0.30    7.35   -0.30    7.35  -15.62  -81.41
    6.13  -15.81  -81.78   -0.29    7.17   -0.29    7.17  -15.81  -81.78
    6.23  -16.16  -81.39   -0.29    6.77   -0.29    6.77  -16.16  -81.39
    6.33  -16.51  -81.53   -0.27    6.64   -0.27    6.64  -16.51  -81.53
    6.43  -16.98  -81.96   -0.29    6.48   -0.29    6.48  -16.98  -81.96
    6.53  -17.22  -82.22   -0.28    5.77   -0.28    5.77  -17.22  -82.22
    6.63  -17.68  -80.79   -0.29    5.51   -0.29    5.51  -17.68  -80.79
    6.73  -18.05  -80.02   -0.27    5.21   -0.27    5.21  -18.05  -80.02
    6.83  -18.68  -78.76   -0.29    5.17   -0.29    5.17  -18.68  -78.76
    6.93  -19.01  -77.81   -0.31    4.89   -0.31    4.89  -19.01  -77.81
    7.03  -19.46  -76.32   -0.30    4.47   -0.30    4.47  -19.46  -76.32
    7.13  -19.67  -75.12   -0.31    4.36   -0.31    4.36  -19.67  -75.12
    7.23  -20.31  -72.94   -0.28    3.85   -0.28    3.85  -20.31  -72.94
    7.33  -20.71  -69.83   -0.30    3.70   -0.30    3.70  -20.71  -69.83
    7.43  -21.32  -67.78   -0.32    3.43   -0.32    3.43  -21.32  -67.78
    7.53  -21.52  -62.59   -0.34    3.23   -0.34    3.23  -21.52  -62.59
    7.63  -22.09  -59.84   -0.36    3.10   -0.36    3.10  -22.09  -59.84
    7.73  -22.13  -56.14   -0.34    2.82   -0.34    2.82  -22.13  -56.14
    7.83  -22.96  -53.90   -0.35    2.84   -0.35    2.84  -22.96  -53.90
    7.93  -23.32  -49.75   -0.32    2.47   -0.32    2.47  -23.32  -49.75
    8.03  -23.95  -45.06   -0.34    2.29   -0.34    2.29  -23.95  -45.06
    8.13  -23.91  -38.94   -0.32    2.05   -0.32    2.05  -23.91  -38.94
    8.23  -24.27  -31.85   -0.34    1.90   -0.34    1.90  -24.27  -31.85
    8.33  -24.43  -26.80   -0.32    1.58   -0.32    1.58  -24.43  -26.80
    8.43  -24.95  -22.29   -0.32    1.51   -0.32    1.51  -24.95  -22.29
    8.53  -24.83  -14.63   -0.33    1.28   -0.33    1.28  -24.83  -14.63
    8.63  -24.83   -6.77   -0.35    0.91   -0.35    0.91  -24.83   -6.77
    8.73  -24.43   -0.19   -0.29    0.69   -0.29    0.69  -24.43   -0.19
    8.83  -24.23    5.70   -0.30    0.68   -0.30    0.68  -24.23    5.70
    8.93  -23.72   10.03   -0.30    0.22   -0.30    0.22  -23.72   10.03
    9.03  -23.20   14.93   -0.33    0.03   -0.33    0.03  -23.20   14.93
    9.13  -22.72   18.32   -0.32   -0.18   -0.32   -0.18  -22.72   18.32
    9.23  -22.31   22.05   -0.34   -0.28   -0.34   -0.28  -22.31   22.05
    9.33  -21.93   24.19   -0.34   -0.49   -0.34   -0.49  -21.93   24.19
    9.43  -21.88   26.07   -0.34   -0.60   -0.34   -0.60  -21.88   26.07
    9.53  -21.62   27.59   -0.33   -0.62   -0.33   -0.62  -21.62   27.59
    9.63  -21.33   31.21   -0.34   -0.94   -0.34   -0.94  -21.33   31.21
    9.73  -21.00   32.50   -0.35   -1.02   -0.35   -1.02  -21.00   32.50
    9.83  -20.82   34.94   -0.30   -1.24   -0.30   -1.24  -20.82   34.94
    9.93  -20.69   36.43   -0.31   -1.21   -0.31   -1.21  -20.69   36.43
   10.03  -20.45   37.87   -0.31   -1.55   -0.31   -1.55  -20.45   37.87
   10.12  -20.26   39.61   -0.29   -1.56   -0.29   -1.56  -20.26   39.61
   10.22  -19.95   40.82   -0.32   -2.00   -0.32   -2.00  -19.95   40.82
   10.32  -19.88   42.45   -0.30   -2.00   -0.30   -2.00  -19.88   42.45
   10.42  -19.68   43.33   -0.26   -2.16   -0.26   -2.16  -19.68   43.33
   10.52  -19.58   44.19   -0.31   -2.47   -0.31   -2.47  -19.58   44.19
   10.62  -19.28   46.31   -0.28   -2.50   -0.28   -2.50  -19.28   46.31
   10.72  -19.17   46.36   -0.31   -2.75   -0.31   -2.75  -19.17   46.36
   10.82  -18.78   48.02   -0.26   -3.11   -0.26   -3.11  -18.78   48.02
   10.92  -18.86   47.85   -0.26   -3.19   -0.26   -3.19  -18.86   47.85
   11.02  -18.49   49.16   -0.24   -3.58   -0.24   -3.58  -18.49   49.16
   11.12  -18.48   49.05   -0.24   -3.72   -0.24   -3.72  -18.48   49.05
   11.22  -18.05   50.16   -0.26   -3.72   -0.26   -3.72  -18.05   50.16
   11.32  -18.09   49.68   -0.28   -4.05   -0.28   -4.05  -18.09   49.68
   11.42  -17.88   50.41   -0.27   -4.45   -0.27   -4.45  -17.88   50.41
   11.52  -17.72   49.23   -0.27   -4.59   -0.27   -4.59  -17.72   49.23
   11.62  -17.58   51.05   -0.26   -4.79   -0.26   -4.79  -17.58   51.05
   11.72  -17.44   49.82   -0.30   -4.83   -0.30   -4.83  -17.44   49.82
   11.82  -17.30   50.95   -0.29   -5.55   -0.29   -5.55  -17.30   50.95
   11.92  -17.28   49.21   -0.26   -5.56   -0.26   -5.56  -17.28   49.21
   12.02  -16.98   49.54   -0.29   -5.75   -0.29   -5.75  -16.98   49.54
   12.12  -16.81   48.71   -0.27   -6.05   -0.27   -6.05  -16.81   48.71
   12.22  -16.56   48.85   -0.31   -6.06   -0.31   -6.06  -16.56   48.85
   12.32  -16.40   47.54   -0.31   -6.53   -0.31   -6.53  -16.40   47.54
   12.42  -16.34   47.28   -0.29   -6.83   -0.29   -6.83  -16.34   47.28
   12.52  -16.09   45.12   -0.32   -7.02   -0.32   -7.02  -16.09   45.12
   12.62  -15.75   46.22   -0.32   -7.24   -0.32   -7.24  -15.75   46.22
   12.72  -15.44   44.87   -0.31   -7.43   -0.31   -7.43  -15.44   44.87
   12.82  -15.21   45.36   -0.36   -7.90   -0.36   -7.90  -15.21   45.36
   12.92  -15.03   43.06   -0.32   -8.19   -0.32   -8.19  -15.03   43.06
   13.02  -14.78   43.61   -0.36   -8.50   -0.36   -8.50  -14.78   43.61
   13.12  -14.44   42.44   -0.36   -8.70   -0.36   -8.70  -14.44   42.44
   13.22  -14.15   43.87   -0.40   -9.03   -0.40   -9.03  -14.15   43.87
   13.32  -13.80   41.88   -0.42   -9.47   -0.42   -9.47  -13.80   41.88
   13.42  -13.65   42.55   -0.45   -9.81   -0.45   -9.81  -13.65   42.55
   13.52  -13.26   40.17   -0.43  -10.01   -0.43  -10.01  -13.26   40.17
   13.62  -13.00   43.51   -0.46  -10.28   -0.46  -10.28  -13.00   43.51
   13.72  -12.54   41.62   -0.53  -10.75   -0.53  -10.75  -12.54   41.62
   13.82  -12.31   42.90   -0.56  -10.84   -0.56  -10.84  -12.31   42.90
   13.92  -12.06   41.48   -0.58  -11.44   -0.58  -11.44  -12.06   41.48
   14.02  -11.84   40.83   -0.56  -11.65   -0.56  -11.65  -11.84   40.83
   14.11  -11.35   40.03   -0.63  -12.05   -0.63  -12.05  -11.35   40.03
   14.21  -11.07   41.71   -0.62  -11.82   -0.62  -11.82  -11.07   41.71
   14.31  -10.77   42.84   -0.66  -12.15   -0.66  -12.15  -10.77   42.84
   14.41  -10.59   41.29   -0.68  -12.66   -0.68  -12.66  -10.59   41.29
   14.51  -10.40   41.50   -0.66  -12.54   -0.66  -12.54  -10.40   41.50
   14.61  -10.23   41.21   -0.80  -13.26   -0.80  -13.26  -10.23   41.21
   14.71   -9.88   41.32   -0.78  -13.42   -0.78  -13.42   -9.88   41.32
   14.81   -9.57   42.12   -0.81  -13.40   -0.81  -13.40   -9.57   42.12
   14.91   -9.47   42.59   -0.82  -13.44   -0.82  -13.44   -9.47   42.59
   15.01   -9.44   41.93   -0.91  -13.73   -0.91  -13.73   -9.44   41.93
   15.11   -9.29   42.40   -0.95  -13.85   -0.95  -13.85   -9.29   42.40
   15.21   -9.09   42.59   -0.98  -14.04   -0.98  -14.04   -9.09   42.59
   15.31   -8.79   43.68   -0.95  -13.77   -0.95  -13.77   -8.79   43.68
   15.41   -8.75   43.56   -1.04  -14.16   -1.04  -14.16   -8.75   43.56
   15.51   -8.56   43.26   -1.03  -14.15   -1.03  -14.15   -8.56   43.26
   15.61   -8.53   42.85   -1.06  -14.07   -1.06  -14.07   -8.53   42.85
   15.71   -8.36   43.56   -1.05  -14.03   -1.05  -14.03   -8.36   43.56
   15.81   -8.28   43.45   -1.08  -14.42   -1.08  -14.42   -8.28   43.45
   15.91   -8.12   43.88   -1.07  -14.36   -1.07  -14.36   -8.12   43.88
   16.01   -8.29   42.64   -1.14  -14.14   -1.14  -14.14   -8.29   42.64
   16.11   -8.10   42.87   -1.09  -14.42   -1.09  -14.42   -8.10   42.87
   16.21   -8.18   42.64   -1.16  -14.37   -1.16  -14.37   -8.18   42.64
   16.31   -7.93   42.84   -1.09  -14.73   -1.09  -14.73   -7.93   42.84
   16.41   -7.95   43.04   -1.10  -14.51   -1.10  -14.51   -7.95   43.04
   16.51   -7.93   42.37   -1.06  -14.82   -1.06  -14.82   -7.93   42.37
   16.61   -7.92   42.12   -1.13  -15.01   -1.13  -15.01   -7.92   42.12
   16.71   -8.02   42.59   -1.14  -14.71   -1.14  -14.71   -8.02   42.59
   16.81   -7.81   41.76   -1.17  -15.18   -1.17  -15.18   -7.81   41.76
   16.91   -7.90   41.80   -1.12  -15.56   -1.12  -15.56   -7.90   41.80
   17.01   -7.78   41.86   -1.16  -15.84   -1.16  -15.84   -7.78   41.86
   17.11   -7.92   41.69   -1.12  -15.66   -1.12  -15.66   -7.92   41.69
   17.21   -7.87   42.37   -1.28  -15.85   -1.28  -15.85   -7.87   42.37
   17.31   -7.95   41.48   -1.20  -15.91   -1.20  -15.91   -7.95   41.48
   17.41   -7.85   42.33   -1.19  -16.43   -1.19  -16.43   -7.85   42.33
   17.51   -7.92   41.19   -1.20  -16.45   -1.20  -16.45   -7.92   41.19
   17.61   -7.86   42.23   -1.25  -16.83   -1.25  -16.83   -7.86   42.23
   17.71   -7.96   41.44   -1.20  -16.35   -1.20  -16.35   -7.96   41.44
   17.81   -7.75   41.10   -1.21  -17.38   -1.21  -17.38   -7.75   41.10
   17.91   -7.83   40.53   -1.23  -17.72   -1.23  -17.72   -7.83   40.53
   18.01   -7.77   39.69   -1.20  -17.82   -1.20  -17.82   -7.77   39.69
   18.10   -7.86   39.26   -1.20  -18.74   -1.20  -18.74   -7.86   39.26
   18.20   -7.79   38.42   -1.26  -18.31   -1.26  -18.31   -7.79   38.42
   18.30   -7.67   38.09   -1.26  -19.29   -1.26  -19.29   -7.67   38.09
   18.40   -7.68   36.86   -1.27  -20.07   -1.27  -20.07   -7.68   36.86
   18.50   -7.67   36.12   -1.30  -20.29   -1.30  -20.29   -7.67   36.12
   18.60   -7.64   35.05   -1.36  -20.84   -1.36  -20.84   -7.64   35.05
   18.70   -7.53   34.55   -1.38  -21.28   -1.38  -21.28   -7.53   34.55
   18.80   -7.30   33.99   -1.48  -21.49   -1.48  -21.49   -7.30   33.99
   18.90   -7.32   32.98   -1.50  -22.12   -1.50  -22.12   -7.32   32.98
   19.00   -7.06   30.88   -1.53  -22.71   -1.53  -22.71   -7.06   30.88
   19.10   -6.99   30.43   -1.58  -23.42   -1.58  -23.42   -6.99   30.43
   19.20   -6.87   29.44   -1.66  -23.60   -1.66  -23.60   -6.87   29.44
   19.30   -6.71   28.89   -1.73  -24.28   -1.73  -24.28   -6.71   28.89
   19.40   -6.66   27.92   -1.81  -25.09   -1.81  -25.09   -6.66   27.92
   19.50   -6.47   25.92   -1.80  -25.60   -1.80  -25.60   -6.47   25.92
   19.60   -6.49   26.72   -1.91  -25.92   -1.91  -25.92   -6.49   26.72
   19.70   -6.22   24.69   -1.94  -26.82   -1.94  -26.82   -6.22   24.69
   19.80   -6.11   26.37   -2.09  -26.97   -2.09  -26.97   -6.11   26.37
   19.90   -5.95   24.86   -2.14  -27.70   -2.14  -27.70   -5.95   24.86
   20.00   -5.90   24.99   -2.27  -28.19   -2.27  -28.19   -5.90   24.99
