!  American Technical Ceramics  Date:    3/13/98
!  One Norden Lane
!  Huntington Station,  NY.   11746-2102
!  Tel:  (516) 547-5700               Fax:  (516) 547-5748
!  Part Number  700A1R5C
!  Description: Porcelain, High Q, Low ESR
!  Application: Bypass, Coupling, Timing, Feedback
!               Tuning, Impedance Match, Blocking
# GHZ S DB R 50
! Freq   |S11|   S11 Ph  |S21|   S21 Ph  |S12|   S12 Ph  |S22|   S22 Ph
    0.05    0.00   -1.39  -28.05   86.37  -28.05   86.37    0.00   -1.39
    0.15   -0.03   -7.47  -18.15   82.64  -18.15   82.64   -0.03   -7.47
    0.25   -0.19  -12.06  -13.80   78.09  -13.80   78.09   -0.19  -12.06
    0.35   -0.32  -16.82  -10.99   73.66  -10.99   73.66   -0.32  -16.82
    0.45   -0.54  -21.36   -9.03   69.32   -9.03   69.32   -0.54  -21.36
    0.55   -0.93  -26.27   -7.41   64.36   -7.41   64.36   -0.93  -26.27
    0.65   -1.25  -30.35   -6.23   60.55   -6.23   60.55   -1.25  -30.35
    0.75   -1.59  -33.97   -5.30   56.93   -5.30   56.93   -1.59  -33.97
    0.85   -1.98  -37.84   -4.55   53.52   -4.55   53.52   -1.98  -37.84
    0.95   -2.33  -40.90   -3.96   50.49   -3.96   50.49   -2.33  -40.90
    1.05   -2.69  -44.05   -3.47   47.53   -3.47   47.53   -2.69  -44.05
    1.15   -3.05  -46.92   -3.00   44.95   -3.00   44.95   -3.05  -46.92
    1.25   -3.49  -49.20   -2.61   42.55   -2.61   42.55   -3.49  -49.20
    1.35   -3.91  -51.83   -2.33   40.42   -2.33   40.42   -3.91  -51.83
    1.45   -4.29  -54.09   -2.11   38.28   -2.11   38.28   -4.29  -54.09
    1.55   -4.66  -56.22   -1.89   36.16   -1.89   36.16   -4.66  -56.22
    1.65   -5.06  -58.25   -1.67   34.22   -1.67   34.22   -5.06  -58.25
    1.75   -5.45  -60.10   -1.47   32.83   -1.47   32.83   -5.45  -60.10
    1.85   -5.90  -61.91   -1.33   31.35   -1.33   31.35   -5.90  -61.91
    1.95   -6.30  -63.19   -1.23   29.74   -1.23   29.74   -6.30  -63.19
    2.05   -6.69  -64.83   -1.13   28.22   -1.13   28.22   -6.69  -64.83
    2.14   -7.04  -66.01   -1.02   26.82   -1.02   26.82   -7.04  -66.01
    2.24   -7.46  -67.53   -0.87   25.83   -0.87   25.83   -7.46  -67.53
    2.34   -7.90  -68.91   -0.80   24.61   -0.80   24.61   -7.90  -68.91
    2.44   -8.31  -70.40   -0.75   23.60   -0.75   23.60   -8.31  -70.40
    2.54   -8.70  -71.33   -0.70   22.55   -0.70   22.55   -8.70  -71.33
    2.64   -9.07  -71.30   -0.62   21.43   -0.62   21.43   -9.07  -71.30
    2.74   -9.51  -72.41   -0.55   20.63   -0.55   20.63   -9.51  -72.41
    2.84   -9.99  -73.77   -0.51   19.53   -0.51   19.53   -9.99  -73.77
    2.94  -10.40  -74.93   -0.47   18.85   -0.47   18.85  -10.40  -74.93
    3.04  -10.77  -75.27   -0.47   17.93   -0.47   17.93  -10.77  -75.27
    3.14  -11.21  -76.04   -0.41   16.99   -0.41   16.99  -11.21  -76.04
    3.24  -11.59  -76.52   -0.39   16.60   -0.39   16.60  -11.59  -76.52
    3.34  -12.16  -77.90   -0.36   15.37   -0.36   15.37  -12.16  -77.90
    3.44  -12.50  -78.90   -0.33   15.02   -0.33   15.02  -12.50  -78.90
    3.54  -12.86  -78.67   -0.33   14.24   -0.33   14.24  -12.86  -78.67
    3.64  -13.17  -79.29   -0.30   13.67   -0.30   13.67  -13.17  -79.29
    3.74  -13.68  -79.47   -0.30   13.01   -0.30   13.01  -13.68  -79.47
    3.84  -14.18  -80.98   -0.26   12.34   -0.26   12.34  -14.18  -80.98
    3.94  -14.57  -81.09   -0.26   11.80   -0.26   11.80  -14.57  -81.09
    4.04  -14.92  -81.89   -0.24   11.51   -0.24   11.51  -14.92  -81.89
    4.14  -15.21  -82.41   -0.23   10.96   -0.23   10.96  -15.21  -82.41
    4.24  -15.64  -82.46   -0.22   10.42   -0.22   10.42  -15.64  -82.46
    4.34  -16.14  -83.92   -0.21    9.98   -0.21    9.98  -16.14  -83.92
    4.44  -16.53  -84.38   -0.22    9.53   -0.22    9.53  -16.53  -84.38
    4.54  -16.94  -84.54   -0.22    9.05   -0.22    9.05  -16.94  -84.54
    4.64  -17.29  -84.31   -0.17    8.67   -0.17    8.67  -17.29  -84.31
    4.74  -17.73  -84.25   -0.19    8.36   -0.19    8.36  -17.73  -84.25
    4.84  -18.22  -84.85   -0.20    7.90   -0.20    7.90  -18.22  -84.85
    4.94  -18.59  -85.00   -0.19    7.70   -0.19    7.70  -18.59  -85.00
    5.04  -19.10  -85.20   -0.19    7.05   -0.19    7.05  -19.10  -85.20
    5.14  -19.38  -85.28   -0.17    6.62   -0.17    6.62  -19.38  -85.28
    5.24  -19.95  -85.04   -0.15    6.56   -0.15    6.56  -19.95  -85.04
    5.34  -20.44  -85.66   -0.16    6.30   -0.16    6.30  -20.44  -85.66
    5.44  -21.04  -85.42   -0.18    5.73   -0.18    5.73  -21.04  -85.42
    5.54  -21.39  -85.89   -0.17    5.40   -0.17    5.40  -21.39  -85.89
    5.64  -22.01  -85.42   -0.18    5.15   -0.18    5.15  -22.01  -85.42
    5.74  -22.58  -86.45   -0.17    4.79   -0.17    4.79  -22.58  -86.45
    5.84  -23.44  -85.74   -0.16    4.59   -0.16    4.59  -23.44  -85.74
    5.94  -24.24  -85.93   -0.16    4.21   -0.16    4.21  -24.24  -85.93
    6.04  -25.06  -84.52   -0.17    3.87   -0.17    3.87  -25.06  -84.52
    6.13  -25.84  -83.84   -0.16    3.61   -0.16    3.61  -25.84  -83.84
    6.23  -26.96  -81.53   -0.19    3.40   -0.19    3.40  -26.96  -81.53
    6.33  -28.11  -80.17   -0.18    3.33   -0.18    3.33  -28.11  -80.17
    6.43  -29.68  -77.55   -0.16    3.00   -0.16    3.00  -29.68  -77.55
    6.53  -31.42  -72.50   -0.17    2.41   -0.17    2.41  -31.42  -72.50
    6.63  -33.72  -58.74   -0.18    2.19   -0.18    2.19  -33.72  -58.74
    6.73  -35.23  -40.65   -0.19    1.90   -0.19    1.90  -35.23  -40.65
    6.83  -35.36  -13.69   -0.21    1.71   -0.21    1.71  -35.36  -13.69
    6.93  -33.89    3.84   -0.22    1.30   -0.22    1.30  -33.89    3.84
    7.03  -32.38   17.53   -0.23    1.21   -0.23    1.21  -32.38   17.53
    7.13  -30.50   27.70   -0.25    1.06   -0.25    1.06  -30.50   27.70
    7.23  -28.60   35.01   -0.23    0.39   -0.23    0.39  -28.60   35.01
    7.33  -27.15   36.57   -0.27    0.31   -0.27    0.31  -27.15   36.57
    7.43  -26.11   39.41   -0.29    0.10   -0.29    0.10  -26.11   39.41
    7.53  -24.84   41.11   -0.31   -0.04   -0.31   -0.04  -24.84   41.11
    7.63  -24.07   43.47   -0.32   -0.13   -0.32   -0.13  -24.07   43.47
    7.73  -23.12   45.39   -0.33   -0.26   -0.33   -0.26  -23.12   45.39
    7.83  -22.57   46.78   -0.34   -0.69   -0.34   -0.69  -22.57   46.78
    7.93  -21.65   47.35   -0.34   -0.74   -0.34   -0.74  -21.65   47.35
    8.03  -21.14   49.00   -0.34   -1.02   -0.34   -1.02  -21.14   49.00
    8.13  -20.21   49.73   -0.34   -1.06   -0.34   -1.06  -20.21   49.73
    8.23  -19.72   51.99   -0.37   -1.30   -0.37   -1.30  -19.72   51.99
    8.33  -19.24   53.02   -0.36   -1.49   -0.36   -1.49  -19.24   53.02
    8.43  -18.81   53.78   -0.35   -1.72   -0.35   -1.72  -18.81   53.78
    8.53  -18.15   54.41   -0.38   -1.74   -0.38   -1.74  -18.15   54.41
    8.63  -17.68   55.43   -0.40   -2.11   -0.40   -2.11  -17.68   55.43
    8.73  -17.11   56.05   -0.36   -2.18   -0.36   -2.18  -17.11   56.05
    8.83  -16.82   56.64   -0.40   -2.23   -0.40   -2.23  -16.82   56.64
    8.93  -16.47   55.67   -0.40   -2.61   -0.40   -2.61  -16.47   55.67
    9.03  -16.08   55.90   -0.44   -2.82   -0.44   -2.82  -16.08   55.90
    9.13  -15.76   56.90   -0.40   -2.63   -0.40   -2.63  -15.76   56.90
    9.23  -15.41   57.43   -0.42   -3.07   -0.42   -3.07  -15.41   57.43
    9.33  -15.17   57.38   -0.43   -3.25   -0.43   -3.25  -15.17   57.38
    9.43  -15.16   57.08   -0.47   -3.18   -0.47   -3.18  -15.16   57.08
    9.53  -14.90   56.98   -0.46   -3.35   -0.46   -3.35  -14.90   56.98
    9.63  -14.67   58.16   -0.45   -3.58   -0.45   -3.58  -14.67   58.16
    9.73  -14.39   58.21   -0.46   -3.60   -0.46   -3.60  -14.39   58.21
    9.83  -14.19   58.91   -0.43   -3.88   -0.43   -3.88  -14.19   58.91
    9.93  -14.16   58.81   -0.44   -3.67   -0.44   -3.67  -14.16   58.81
   10.03  -13.95   58.64   -0.42   -4.07   -0.42   -4.07  -13.95   58.64
   10.12  -13.84   59.27   -0.43   -3.84   -0.43   -3.84  -13.84   59.27
   10.22  -13.59   59.26   -0.45   -4.37   -0.45   -4.37  -13.59   59.26
   10.32  -13.48   59.85   -0.39   -4.34   -0.39   -4.34  -13.48   59.85
   10.42  -13.44   59.66   -0.41   -4.36   -0.41   -4.36  -13.44   59.66
   10.52  -13.34   59.38   -0.46   -4.82   -0.46   -4.82  -13.34   59.38
   10.62  -13.10   60.19   -0.44   -4.82   -0.44   -4.82  -13.10   60.19
   10.72  -12.98   59.82   -0.47   -4.94   -0.47   -4.94  -12.98   59.82
   10.82  -12.73   60.36   -0.43   -5.62   -0.43   -5.62  -12.73   60.36
   10.92  -12.83   59.64   -0.44   -5.41   -0.44   -5.41  -12.83   59.64
   11.02  -12.63   60.17   -0.44   -5.85   -0.44   -5.85  -12.63   60.17
   11.12  -12.61   59.73   -0.43   -5.66   -0.43   -5.66  -12.61   59.73
   11.22  -12.32   60.13   -0.48   -5.85   -0.48   -5.85  -12.32   60.13
   11.32  -12.31   59.80   -0.46   -6.24   -0.46   -6.24  -12.31   59.80
   11.42  -12.27   59.57   -0.44   -6.53   -0.44   -6.53  -12.27   59.57
   11.52  -12.14   58.54   -0.46   -6.57   -0.46   -6.57  -12.14   58.54
   11.62  -12.05   59.56   -0.45   -6.77   -0.45   -6.77  -12.05   59.56
   11.72  -11.94   58.80   -0.50   -6.64   -0.50   -6.64  -11.94   58.80
   11.82  -11.83   58.75   -0.51   -7.72   -0.51   -7.72  -11.83   58.75
   11.92  -11.84   57.48   -0.45   -7.52   -0.45   -7.52  -11.84   57.48
   12.02  -11.66   57.43   -0.52   -7.62   -0.52   -7.62  -11.66   57.43
   12.12  -11.58   56.58   -0.49   -7.91   -0.49   -7.91  -11.58   56.58
   12.22  -11.39   56.55   -0.54   -7.95   -0.54   -7.95  -11.39   56.55
   12.32  -11.28   55.16   -0.54   -8.41   -0.54   -8.41  -11.28   55.16
   12.42  -11.32   54.02   -0.53   -8.95   -0.53   -8.95  -11.32   54.02
   12.52  -11.09   52.28   -0.54   -8.78   -0.54   -8.78  -11.09   52.28
   12.62  -10.92   52.86   -0.55   -9.30   -0.55   -9.30  -10.92   52.86
   12.72  -10.70   51.61   -0.57   -9.18   -0.57   -9.18  -10.70   51.61
   12.82  -10.60   51.57   -0.64   -9.83   -0.64   -9.83  -10.60   51.57
   12.92  -10.48   49.02   -0.58  -10.42   -0.58  -10.42  -10.48   49.02
   13.02  -10.35   48.92   -0.62  -10.67   -0.62  -10.67  -10.35   48.92
   13.12  -10.05   47.68   -0.64  -10.70   -0.64  -10.70  -10.05   47.68
   13.22   -9.92   48.59   -0.71  -11.08   -0.71  -11.08   -9.92   48.59
   13.32   -9.67   46.56   -0.73  -11.56   -0.73  -11.56   -9.67   46.56
   13.42   -9.65   46.16   -0.77  -12.08   -0.77  -12.08   -9.65   46.16
   13.52   -9.28   44.13   -0.73  -12.10   -0.73  -12.10   -9.28   44.13
   13.62   -9.18   46.20   -0.80  -12.26   -0.80  -12.26   -9.18   46.20
   13.72   -8.84   44.14   -0.87  -12.88   -0.87  -12.88   -8.84   44.14
   13.82   -8.69   45.43   -0.97  -12.54   -0.97  -12.54   -8.69   45.43
   13.92   -8.61   43.28   -0.97  -13.44   -0.97  -13.44   -8.61   43.28
   14.02   -8.42   42.52   -0.98  -13.65   -0.98  -13.65   -8.42   42.52
   14.11   -8.11   41.55   -0.99  -14.02   -0.99  -14.02   -8.11   41.55
   14.21   -7.87   43.27   -1.07  -13.74   -1.07  -13.74   -7.87   43.27
   14.31   -7.64   43.73   -1.12  -13.98   -1.12  -13.98   -7.64   43.73
   14.41   -7.61   41.95   -1.17  -14.42   -1.17  -14.42   -7.61   41.95
   14.51   -7.51   41.41   -1.16  -14.59   -1.16  -14.59   -7.51   41.41
   14.61   -7.34   41.15   -1.25  -15.03   -1.25  -15.03   -7.34   41.15
   14.71   -7.03   41.28   -1.27  -15.24   -1.27  -15.24   -7.03   41.28
   14.81   -6.81   41.81   -1.31  -15.14   -1.31  -15.14   -6.81   41.81
   14.91   -6.73   42.34   -1.32  -14.90   -1.32  -14.90   -6.73   42.34
   15.01   -6.78   41.28   -1.43  -15.42   -1.43  -15.42   -6.78   41.28
   15.11   -6.75   41.83   -1.49  -15.37   -1.49  -15.37   -6.75   41.83
   15.21   -6.56   41.14   -1.53  -15.68   -1.53  -15.68   -6.56   41.14
   15.31   -6.25   42.56   -1.46  -15.28   -1.46  -15.28   -6.25   42.56
   15.41   -6.30   42.16   -1.56  -15.39   -1.56  -15.39   -6.30   42.16
   15.51   -6.21   42.09   -1.58  -15.21   -1.58  -15.21   -6.21   42.09
   15.61   -6.25   41.48   -1.61  -15.21   -1.61  -15.21   -6.25   41.48
   15.71   -6.06   41.91   -1.62  -15.15   -1.62  -15.15   -6.06   41.91
   15.81   -5.97   41.85   -1.66  -15.48   -1.66  -15.48   -5.97   41.85
   15.91   -5.80   41.92   -1.62  -15.02   -1.62  -15.02   -5.80   41.92
   16.01   -6.02   40.93   -1.71  -15.04   -1.71  -15.04   -6.02   40.93
   16.11   -5.89   41.10   -1.64  -15.09   -1.64  -15.09   -5.89   41.10
   16.21   -5.93   41.00   -1.73  -15.05   -1.73  -15.05   -5.93   41.00
   16.31   -5.75   40.79   -1.65  -15.25   -1.65  -15.25   -5.75   40.79
   16.41   -5.76   40.79   -1.65  -15.07   -1.65  -15.07   -5.76   40.79
   16.51   -5.75   40.04   -1.66  -15.35   -1.66  -15.35   -5.75   40.04
   16.61   -5.76   39.91   -1.69  -15.28   -1.69  -15.28   -5.76   39.91
   16.71   -5.81   40.45   -1.69  -14.91   -1.69  -14.91   -5.81   40.45
   16.81   -5.67   39.06   -1.71  -15.61   -1.71  -15.61   -5.67   39.06
   16.91   -5.72   39.44   -1.67  -15.78   -1.67  -15.78   -5.72   39.44
   17.01   -5.63   39.04   -1.74  -16.28   -1.74  -16.28   -5.63   39.04
   17.11   -5.78   39.17   -1.69  -15.83   -1.69  -15.83   -5.78   39.17
   17.21   -5.73   39.45   -1.87  -15.88   -1.87  -15.88   -5.73   39.45
   17.31   -5.83   39.06   -1.79  -15.96   -1.79  -15.96   -5.83   39.06
   17.41   -5.68   39.20   -1.75  -16.27   -1.75  -16.27   -5.68   39.20
   17.51   -5.73   38.27   -1.75  -16.38   -1.75  -16.38   -5.73   38.27
   17.61   -5.71   38.86   -1.86  -16.76   -1.86  -16.76   -5.71   38.86
   17.71   -5.83   38.04   -1.78  -16.08   -1.78  -16.08   -5.83   38.04
   17.81   -5.61   37.81   -1.79  -17.11   -1.79  -17.11   -5.61   37.81
   17.91   -5.77   37.37   -1.81  -17.47   -1.81  -17.47   -5.77   37.37
   18.01   -5.63   36.23   -1.78  -17.57   -1.78  -17.57   -5.63   36.23
   18.10   -5.72   35.61   -1.78  -18.59   -1.78  -18.59   -5.72   35.61
   18.20   -5.63   35.18   -1.85  -17.82   -1.85  -17.82   -5.63   35.18
   18.30   -5.58   34.35   -1.87  -19.03   -1.87  -19.03   -5.58   34.35
   18.40   -5.60   33.08   -1.90  -19.56   -1.90  -19.56   -5.60   33.08
   18.50   -5.58   32.22   -1.93  -19.91   -1.93  -19.91   -5.58   32.22
   18.60   -5.59   30.88   -1.96  -20.41   -1.96  -20.41   -5.59   30.88
   18.70   -5.52   30.33   -2.03  -20.73   -2.03  -20.73   -5.52   30.33
   18.80   -5.32   29.85   -2.11  -20.88   -2.11  -20.88   -5.32   29.85
   18.90   -5.36   28.50   -2.16  -21.81   -2.16  -21.81   -5.36   28.50
   19.00   -5.19   26.46   -2.18  -22.10   -2.18  -22.10   -5.19   26.46
   19.10   -5.16   25.90   -2.26  -22.73   -2.26  -22.73   -5.16   25.90
   19.20   -5.09   24.85   -2.33  -22.93   -2.33  -22.93   -5.09   24.85
   19.30   -4.90   24.15   -2.41  -23.36   -2.41  -23.36   -4.90   24.15
   19.40   -4.91   23.24   -2.51  -24.12   -2.51  -24.12   -4.91   23.24
   19.50   -4.75   21.19   -2.50  -24.60   -2.50  -24.60   -4.75   21.19
   19.60   -4.77   21.77   -2.64  -24.88   -2.64  -24.88   -4.77   21.77
   19.70   -4.56   19.38   -2.67  -25.81   -2.67  -25.81   -4.56   19.38
   19.80   -4.44   21.23   -2.83  -25.79   -2.83  -25.79   -4.44   21.23
   19.90   -4.39   19.63   -2.91  -26.58   -2.91  -26.58   -4.39   19.63
   20.00   -4.34   19.56   -3.02  -26.74   -3.02  -26.74   -4.34   19.56
