!  American Technical Ceramics  Date:    3/13/98
!  One Norden Lane
!  Huntington Station,  NY.   11746-2102
!  Tel:  (516) 547-5700               Fax:  (516) 547-5748
!  Part Number  700A6R8J
!  Description: Porcelain, High Q, Low ESR
!  Application: Bypass, Coupling, Timing, Feedback
!               Tuning, Impedance Match, Blocking
# GHZ S DB R 50
! Freq   |S11|   S11 Ph  |S21|   S21 Ph  |S12|   S12 Ph  |S22|   S22 Ph
    0.05   -0.08  -12.18  -13.58   76.58  -13.58   76.58   -0.08  -12.18
    0.14   -1.35  -31.67   -5.68   58.43   -5.68   58.43   -1.35  -31.67
    0.23   -3.04  -45.71   -2.94   44.72   -2.94   44.72   -3.04  -45.71
    0.32   -4.67  -55.33   -1.75   35.23   -1.75   35.23   -4.67  -55.33
    0.41   -6.28  -62.02   -1.14   28.86   -1.14   28.86   -6.28  -62.02
    0.50   -7.70  -66.74   -0.78   24.09   -0.78   24.09   -7.70  -66.74
    0.59   -9.21  -70.68   -0.56   20.10   -0.56   20.10   -9.21  -70.68
    0.68  -10.35  -73.51   -0.43   17.69   -0.43   17.69  -10.35  -73.51
    0.77  -11.45  -75.76   -0.33   15.36   -0.33   15.36  -11.45  -75.76
    0.86  -12.41  -77.76   -0.26   13.77   -0.26   13.77  -12.41  -77.76
    0.95  -13.36  -79.13   -0.22   12.42   -0.22   12.42  -13.36  -79.13
    1.04  -14.19  -80.60   -0.19   11.09   -0.19   11.09  -14.19  -80.60
    1.13  -15.00  -81.87   -0.15   10.11   -0.15   10.11  -15.00  -81.87
    1.22  -15.75  -82.65   -0.13    9.34   -0.13    9.34  -15.75  -82.65
    1.31  -16.52  -83.49   -0.11    8.47   -0.11    8.47  -16.52  -83.49
    1.40  -17.24  -84.27   -0.10    7.81   -0.10    7.81  -17.24  -84.27
    1.49  -17.98  -85.38   -0.07    7.13   -0.07    7.13  -17.98  -85.38
    1.58  -18.63  -86.29   -0.05    6.56   -0.05    6.56  -18.63  -86.29
    1.67  -19.40  -87.00   -0.07    6.08   -0.07    6.08  -19.40  -87.00
    1.76  -20.10  -86.98   -0.07    5.65   -0.07    5.65  -20.10  -86.98
    1.85  -20.80  -87.40   -0.06    5.29   -0.06    5.29  -20.80  -87.40
    1.93  -21.58  -87.10   -0.06    4.85   -0.06    4.85  -21.58  -87.10
    2.02  -22.25  -87.40   -0.02    4.16   -0.02    4.16  -22.25  -87.40
    2.11  -23.08  -87.09   -0.05    3.92   -0.05    3.92  -23.08  -87.09
    2.20  -23.90  -87.44   -0.06    3.82   -0.06    3.82  -23.90  -87.44
    2.29  -24.65  -87.60   -0.05    3.33   -0.05    3.33  -24.65  -87.60
    2.38  -25.53  -87.47   -0.05    3.05   -0.05    3.05  -25.53  -87.47
    2.47  -26.48  -87.70   -0.03    2.68   -0.03    2.68  -26.48  -87.70
    2.56  -27.53  -86.40   -0.07    2.67   -0.07    2.67  -27.53  -86.40
    2.65  -28.43  -86.62   -0.04    2.26   -0.04    2.26  -28.43  -86.62
    2.74  -29.44  -85.71   -0.04    1.95   -0.04    1.95  -29.44  -85.71
    2.83  -30.52  -83.95   -0.03    1.79   -0.03    1.79  -30.52  -83.95
    2.92  -31.96  -83.25   -0.04    1.61   -0.04    1.61  -31.96  -83.25
    3.01  -33.14  -81.71   -0.03    1.18   -0.03    1.18  -33.14  -81.71
    3.10  -34.99  -77.12   -0.05    1.10   -0.05    1.10  -34.99  -77.12
    3.19  -36.11  -72.53   -0.06    0.93   -0.06    0.93  -36.11  -72.53
    3.28  -38.24  -67.83   -0.03    0.64   -0.03    0.64  -38.24  -67.83
    3.37  -39.65  -58.81   -0.05    0.47   -0.05    0.47  -39.65  -58.81
    3.46  -41.52  -44.59   -0.06    0.38   -0.06    0.38  -41.52  -44.59
    3.55  -42.74  -28.51   -0.05    0.01   -0.05    0.01  -42.74  -28.51
    3.64  -43.25  -10.41   -0.06    0.04   -0.06    0.04  -43.25  -10.41
    3.73  -42.27    0.54   -0.08   -0.27   -0.08   -0.27  -42.27    0.54
    3.82  -42.01   13.68   -0.06   -0.24   -0.06   -0.24  -42.01   13.68
    3.91  -41.44   20.58   -0.08   -0.32   -0.08   -0.32  -41.44   20.58
    4.00  -39.67   39.92   -0.06   -0.72   -0.06   -0.72  -39.67   39.92
    4.09  -38.86   43.73   -0.07   -0.84   -0.07   -0.84  -38.86   43.73
    4.18  -38.01   51.44   -0.07   -0.98   -0.07   -0.98  -38.01   51.44
    4.27  -37.46   52.85   -0.08   -1.10   -0.08   -1.10  -37.46   52.85
    4.36  -36.32   57.68   -0.08   -1.35   -0.08   -1.35  -36.32   57.68
    4.45  -35.50   61.01   -0.07   -1.48   -0.07   -1.48  -35.50   61.01
    4.54  -35.01   62.84   -0.07   -1.53   -0.07   -1.53  -35.01   62.84
    4.63  -34.47   62.70   -0.09   -1.65   -0.09   -1.65  -34.47   62.70
    4.72  -33.73   64.27   -0.09   -2.09   -0.09   -2.09  -33.73   64.27
    4.81  -33.36   66.56   -0.08   -2.02   -0.08   -2.02  -33.36   66.56
    4.90  -32.97   68.04   -0.08   -2.10   -0.08   -2.10  -32.97   68.04
    4.99  -32.33   67.22   -0.10   -2.17   -0.10   -2.17  -32.33   67.22
    5.08  -31.78   68.38   -0.09   -2.48   -0.09   -2.48  -31.78   68.38
    5.17  -31.42   68.83   -0.08   -2.54   -0.08   -2.54  -31.42   68.83
    5.26  -31.06   68.47   -0.09   -2.62   -0.09   -2.62  -31.06   68.47
    5.35  -30.36   69.82   -0.11   -2.78   -0.11   -2.78  -30.36   69.82
    5.44  -30.18   70.67   -0.11   -2.94   -0.11   -2.94  -30.18   70.67
    5.52  -29.74   70.14   -0.13   -3.03   -0.13   -3.03  -29.74   70.14
    5.61  -29.23   69.64   -0.11   -3.23   -0.11   -3.23  -29.23   69.64
    5.70  -28.57   71.82   -0.12   -3.17   -0.12   -3.17  -28.57   71.82
    5.79  -28.09   71.97   -0.14   -3.42   -0.14   -3.42  -28.09   71.97
    5.88  -27.47   71.33   -0.13   -3.46   -0.13   -3.46  -27.47   71.33
    5.97  -26.93   70.68   -0.13   -3.71   -0.13   -3.71  -26.93   70.68
    6.06  -26.53   70.03   -0.14   -4.01   -0.14   -4.01  -26.53   70.03
    6.15  -26.06   68.93   -0.15   -4.03   -0.15   -4.03  -26.06   68.93
    6.24  -25.50   68.85   -0.14   -4.22   -0.14   -4.22  -25.50   68.85
    6.33  -25.12   68.68   -0.17   -4.27   -0.17   -4.27  -25.12   68.68
    6.42  -24.63   67.46   -0.15   -4.34   -0.15   -4.34  -24.63   67.46
    6.51  -24.03   67.19   -0.15   -4.58   -0.15   -4.58  -24.03   67.19
    6.60  -23.43   66.15   -0.17   -4.79   -0.17   -4.79  -23.43   66.15
    6.69  -22.90   65.53   -0.17   -4.97   -0.17   -4.97  -22.90   65.53
    6.78  -22.34   63.62   -0.20   -5.04   -0.20   -5.04  -22.34   63.62
    6.87  -21.88   63.56   -0.20   -5.15   -0.20   -5.15  -21.88   63.56
    6.96  -21.42   62.25   -0.22   -5.36   -0.22   -5.36  -21.42   62.25
    7.05  -21.00   62.58   -0.26   -5.53   -0.26   -5.53  -21.00   62.58
    7.14  -20.39   60.42   -0.23   -5.30   -0.23   -5.30  -20.39   60.42
    7.23  -19.94   59.20   -0.25   -5.74   -0.25   -5.74  -19.94   59.20
    7.32  -19.62   57.80   -0.27   -5.80   -0.27   -5.80  -19.62   57.80
    7.41  -19.21   55.71   -0.27   -6.02   -0.27   -6.02  -19.21   55.71
    7.50  -18.93   55.85   -0.31   -6.06   -0.31   -6.06  -18.93   55.85
    7.59  -18.54   55.02   -0.33   -6.16   -0.33   -6.16  -18.54   55.02
    7.68  -18.48   55.59   -0.33   -6.24   -0.33   -6.24  -18.48   55.59
    7.77  -17.95   54.61   -0.32   -6.14   -0.32   -6.14  -17.95   54.61
    7.86  -17.92   56.01   -0.39   -6.21   -0.39   -6.21  -17.92   56.01
    7.95  -17.48   54.90   -0.35   -6.42   -0.35   -6.42  -17.48   54.90
    8.04  -17.31   55.58   -0.36   -6.65   -0.36   -6.65  -17.31   55.58
    8.13  -16.75   55.15   -0.36   -6.55   -0.36   -6.55  -16.75   55.15
    8.22  -16.56   56.16   -0.39   -6.59   -0.39   -6.59  -16.56   56.16
    8.31  -16.32   56.01   -0.42   -6.76   -0.42   -6.76  -16.32   56.01
    8.40  -16.02   55.75   -0.42   -6.75   -0.42   -6.75  -16.02   55.75
    8.49  -15.73   57.04   -0.38   -6.87   -0.38   -6.87  -15.73   57.04
    8.58  -15.55   56.31   -0.40   -6.89   -0.40   -6.89  -15.55   56.31
    8.67  -15.43   57.01   -0.41   -7.16   -0.41   -7.16  -15.43   57.01
    8.76  -15.05   55.82   -0.40   -7.15   -0.40   -7.15  -15.05   55.82
    8.85  -14.88   57.18   -0.43   -7.24   -0.43   -7.24  -14.88   57.18
    8.94  -14.66   56.21   -0.42   -7.37   -0.42   -7.37  -14.66   56.21
    9.03  -14.45   56.21   -0.43   -7.51   -0.43   -7.51  -14.45   56.21
    9.11  -14.26   56.10   -0.44   -7.49   -0.44   -7.49  -14.26   56.10
    9.20  -14.07   56.39   -0.49   -7.76   -0.49   -7.76  -14.07   56.39
    9.29  -14.04   56.38   -0.49   -7.86   -0.49   -7.86  -14.04   56.38
    9.38  -13.75   56.39   -0.48   -7.77   -0.48   -7.77  -13.75   56.39
    9.47  -13.66   57.37   -0.48   -7.94   -0.48   -7.94  -13.66   57.37
    9.56  -13.44   57.01   -0.48   -8.04   -0.48   -8.04  -13.44   57.01
    9.65  -13.35   57.08   -0.46   -8.07   -0.46   -8.07  -13.35   57.08
    9.74  -13.33   56.78   -0.51   -8.07   -0.51   -8.07  -13.33   56.78
    9.83  -13.08   57.24   -0.42   -8.36   -0.42   -8.36  -13.08   57.24
    9.92  -13.11   57.20   -0.47   -8.45   -0.47   -8.45  -13.11   57.20
   10.01  -12.89   56.40   -0.50   -8.67   -0.50   -8.67  -12.89   56.40
   10.10  -12.80   56.38   -0.52   -8.73   -0.52   -8.73  -12.80   56.38
   10.19  -12.62   56.64   -0.48   -9.12   -0.48   -9.12  -12.62   56.64
   10.28  -12.54   57.00   -0.48   -9.00   -0.48   -9.00  -12.54   57.00
   10.37  -12.35   56.58   -0.51   -9.35   -0.51   -9.35  -12.35   56.58
   10.46  -12.13   56.96   -0.52   -9.72   -0.52   -9.72  -12.13   56.96
   10.55  -11.98   56.74   -0.49   -9.96   -0.49   -9.96  -11.98   56.74
   10.64  -11.71   56.58   -0.54  -10.15   -0.54  -10.15  -11.71   56.58
   10.73  -11.66   55.55   -0.61  -10.59   -0.61  -10.59  -11.66   55.55
   10.82  -11.29   55.06   -0.60  -11.27   -0.60  -11.27  -11.29   55.06
   10.91  -11.15   53.64   -0.64  -11.40   -0.64  -11.40  -11.15   53.64
   11.00  -10.81   52.83   -0.68  -12.26   -0.68  -12.26  -10.81   52.83
   11.09  -10.52   50.80   -0.77  -12.79   -0.77  -12.79  -10.52   50.80
   11.18  -10.17   49.09   -0.84  -13.95   -0.84  -13.95  -10.17   49.09
   11.27   -9.75   46.68   -1.04  -14.52   -1.04  -14.52   -9.75   46.68
   11.36   -9.23   42.43   -1.25  -15.83   -1.25  -15.83   -9.23   42.43
   11.45   -8.66   37.89   -1.64  -17.24   -1.64  -17.24   -8.66   37.89
   11.54   -7.99   29.53   -2.23  -18.19   -2.23  -18.19   -7.99   29.53
   11.63   -7.51   18.03   -3.22  -17.30   -3.22  -17.30   -7.51   18.03
   11.72   -7.65    0.23   -4.30   -9.61   -4.30   -9.61   -7.65    0.23
   11.81   -9.40  -17.82   -4.05    2.97   -4.05    2.97   -9.40  -17.82
   11.90  -12.60  -34.39   -2.57    8.08   -2.57    8.08  -12.60  -34.39
   11.99  -17.00  -38.04   -1.56    7.21   -1.56    7.21  -17.00  -38.04
   12.08  -21.87  -29.06   -1.04    4.76   -1.04    4.76  -21.87  -29.06
   12.17  -25.01    2.20   -0.79    2.72   -0.79    2.72  -25.01    2.20
   12.26  -24.30   30.19   -0.61    1.06   -0.61    1.06  -24.30   30.19
   12.35  -22.36   44.48   -0.50   -0.30   -0.50   -0.30  -22.36   44.48
   12.44  -20.83   51.59   -0.47   -1.71   -0.47   -1.71  -20.83   51.59
   12.53  -19.56   52.97   -0.42   -2.30   -0.42   -2.30  -19.56   52.97
   12.62  -18.58   55.26   -0.40   -3.27   -0.40   -3.27  -18.58   55.26
   12.70  -17.73   55.66   -0.39   -3.66   -0.39   -3.66  -17.73   55.66
   12.79  -17.10   55.33   -0.39   -4.49   -0.39   -4.49  -17.10   55.33
   12.88  -16.51   54.99   -0.36   -4.88   -0.36   -4.88  -16.51   54.99
   12.97  -15.99   54.22   -0.39   -5.41   -0.39   -5.41  -15.99   54.22
   13.06  -15.58   54.81   -0.40   -5.71   -0.40   -5.71  -15.58   54.81
   13.15  -15.16   52.57   -0.37   -6.38   -0.37   -6.38  -15.16   52.57
   13.24  -14.72   53.52   -0.39   -6.49   -0.39   -6.49  -14.72   53.52
   13.33  -14.39   51.81   -0.42   -6.89   -0.42   -6.89  -14.39   51.81
   13.42  -14.20   52.63   -0.46   -7.48   -0.46   -7.48  -14.20   52.63
   13.51  -13.69   50.20   -0.42   -7.77   -0.42   -7.77  -13.69   50.20
   13.60  -13.46   51.44   -0.45   -8.17   -0.45   -8.17  -13.46   51.44
   13.69  -13.10   50.77   -0.49   -8.21   -0.49   -8.21  -13.10   50.77
   13.78  -12.93   50.05   -0.49   -9.12   -0.49   -9.12  -12.93   50.05
   13.87  -12.34   49.72   -0.49   -8.94   -0.49   -8.94  -12.34   49.72
   13.96  -12.02   50.85   -0.56   -8.72   -0.56   -8.72  -12.02   50.85
   14.05  -11.88   50.03   -0.60   -9.43   -0.60   -9.43  -11.88   50.03
   14.14  -11.62   48.92   -0.58  -10.08   -0.58  -10.08  -11.62   48.92
   14.23  -11.19   49.42   -0.57   -9.63   -0.57   -9.63  -11.19   49.42
   14.32  -10.91   49.73   -0.65  -10.06   -0.65  -10.06  -10.91   49.73
   14.41  -10.85   48.82   -0.68  -10.29   -0.68  -10.29  -10.85   48.82
   14.50  -10.63   48.33   -0.69  -10.88   -0.69  -10.88  -10.63   48.33
   14.59  -10.34   47.53   -0.68  -10.98   -0.68  -10.98  -10.34   47.53
   14.68  -10.15   47.97   -0.72  -11.08   -0.72  -11.08  -10.15   47.97
   14.77  -10.03   47.96   -0.74  -11.25   -0.74  -11.25  -10.03   47.96
   14.86   -9.85   47.55   -0.81  -11.72   -0.81  -11.72   -9.85   47.55
   14.95   -9.59   47.74   -0.79  -11.68   -0.79  -11.68   -9.59   47.74
   15.04   -9.55   48.97   -0.86  -11.35   -0.86  -11.35   -9.55   48.97
   15.13   -9.44   48.91   -0.92  -11.32   -0.92  -11.32   -9.44   48.91
   15.22   -9.19   48.42   -0.96  -11.78   -0.96  -11.78   -9.19   48.42
   15.31   -8.94   50.27   -0.91  -11.23   -0.91  -11.23   -8.94   50.27
   15.40   -8.92   49.32   -0.98  -11.67   -0.98  -11.67   -8.92   49.32
   15.49   -8.82   49.10   -1.00  -11.69   -1.00  -11.69   -8.82   49.10
   15.58   -8.57   47.97   -0.98  -11.86   -0.98  -11.86   -8.57   47.97
   15.67   -8.60   49.52   -0.95  -11.48   -0.95  -11.48   -8.60   49.52
   15.76   -8.41   48.38   -0.97  -11.80   -0.97  -11.80   -8.41   48.38
   15.85   -8.45   48.27   -1.07  -11.83   -1.07  -11.83   -8.45   48.27
   15.94   -8.23   47.91   -0.99  -11.87   -0.99  -11.87   -8.23   47.91
   16.03   -8.44   48.06   -1.05  -11.71   -1.05  -11.71   -8.44   48.06
   16.12   -8.33   47.86   -1.08  -11.56   -1.08  -11.56   -8.33   47.86
   16.21   -8.27   47.52   -1.06  -11.57   -1.06  -11.57   -8.27   47.52
   16.29   -8.12   47.73   -1.06  -11.67   -1.06  -11.67   -8.12   47.73
   16.38   -8.18   48.40   -1.05  -11.47   -1.05  -11.47   -8.18   48.40
   16.47   -8.16   47.60   -1.08  -11.65   -1.08  -11.65   -8.16   47.60
   16.56   -8.14   47.63   -1.03  -11.77   -1.03  -11.77   -8.14   47.63
   16.65   -8.10   46.99   -1.09  -11.81   -1.09  -11.81   -8.10   46.99
   16.74   -8.09   47.69   -1.01  -11.95   -1.01  -11.95   -8.09   47.69
   16.83   -8.09   46.43   -1.13  -12.09   -1.13  -12.09   -8.09   46.43
   16.92   -8.08   46.57   -1.13  -12.21   -1.13  -12.21   -8.08   46.57
   17.01   -7.97   45.71   -1.19  -12.40   -1.19  -12.40   -7.97   45.71
   17.10   -8.14   44.97   -1.19  -12.00   -1.19  -12.00   -8.14   44.97
   17.19   -8.13   44.71   -1.23  -12.05   -1.23  -12.05   -8.13   44.71
   17.28   -8.44   44.85   -1.18  -11.40   -1.18  -11.40   -8.44   44.85
   17.37   -8.41   45.58   -1.12  -11.76   -1.12  -11.76   -8.41   45.58
   17.46   -8.48   45.51   -1.15  -11.62   -1.15  -11.62   -8.48   45.51
   17.55   -8.36   45.69   -1.10  -11.94   -1.10  -11.94   -8.36   45.69
   17.64   -8.35   45.31   -1.18  -11.88   -1.18  -11.88   -8.35   45.31
   17.73   -8.33   45.38   -1.09  -12.17   -1.09  -12.17   -8.33   45.38
   17.82   -8.34   44.73   -1.09  -12.41   -1.09  -12.41   -8.34   44.73
   17.91   -8.41   44.65   -1.05  -13.25   -1.05  -13.25   -8.41   44.65
   18.00   -8.42   43.26   -1.07  -13.21   -1.07  -13.21   -8.42   43.26
