!  American Technical Ceramics  Date:    3/13/98
!  One Norden Lane
!  Huntington Station,  NY.   11746-2102
!  Tel:  (516) 547-5700               Fax:  (516) 547-5748
!  Part Number  700B271G
!  Description: Porcelain, High Q, Low ESR
!  Application: Bypass, Coupling, Timing, Feedback
!               Tuning, Impedance Match, Blocking
# GHZ S DB R 50
! Freq   |S11|   S11 Ph  |S21|   S21 Ph  |S12|   S12 Ph  |S22|   S22 Ph
    0.05  -18.49  -85.41   -0.08    7.19   -0.08    7.19  -18.49  -85.41
    0.07  -20.92  -86.40   -0.05    4.73   -0.05    4.73  -20.92  -86.40
    0.09  -23.11  -86.50   -0.02    3.59   -0.02    3.59  -23.11  -86.50
    0.11  -24.25  -85.72   -0.02    2.92   -0.02    2.92  -24.25  -85.72
    0.13  -25.66  -87.36   -0.01    2.35   -0.01    2.35  -25.66  -87.36
    0.15  -26.76  -88.96   -0.01    2.03   -0.01    2.03  -26.76  -88.96
    0.17  -27.20  -89.16    0.00    1.63    0.00    1.63  -27.20  -89.16
    0.19  -28.04  -88.75    0.01    1.50    0.01    1.50  -28.04  -88.75
    0.21  -28.45  -89.65    0.01    1.29    0.01    1.29  -28.45  -89.65
    0.23  -28.93  -89.30    0.02    1.09    0.02    1.09  -28.93  -89.30
    0.25  -29.10  -89.57    0.01    0.84    0.01    0.84  -29.10  -89.57
    0.27  -29.40  -90.59    0.01    0.87    0.01    0.87  -29.40  -90.59
    0.29  -29.68  -90.24    0.01    0.63    0.01    0.63  -29.68  -90.24
    0.31  -29.73  -90.17    0.00    0.44    0.00    0.44  -29.73  -90.17
    0.33  -29.71  -91.02    0.00    0.27    0.00    0.27  -29.71  -91.02
    0.35  -29.89  -90.40    0.01    0.29    0.01    0.29  -29.89  -90.40
    0.37  -29.89  -90.81    0.00    0.02    0.00    0.02  -29.89  -90.81
    0.39  -29.91  -90.51   -0.01   -0.01   -0.01   -0.01  -29.91  -90.51
    0.41  -30.02  -91.13    0.00   -0.16    0.00   -0.16  -30.02  -91.13
    0.43  -29.88  -91.11    0.01   -0.14    0.01   -0.14  -29.88  -91.11
    0.45  -29.85  -92.29    0.00   -0.22    0.00   -0.22  -29.85  -92.29
    0.46  -29.74  -91.75    0.00   -0.16    0.00   -0.16  -29.74  -91.75
    0.48  -29.63  -92.16    0.00   -0.42    0.00   -0.42  -29.63  -92.16
    0.50  -29.35  -93.43   -0.03   -0.47   -0.03   -0.47  -29.35  -93.43
    0.52  -29.32  -93.62   -0.02   -0.64   -0.02   -0.64  -29.32  -93.62
    0.54  -29.16  -93.20    0.00   -0.62    0.00   -0.62  -29.16  -93.20
    0.56  -29.06  -94.02   -0.02   -0.57   -0.02   -0.57  -29.06  -94.02
    0.58  -28.90  -93.62    0.00   -0.82    0.00   -0.82  -28.90  -93.62
    0.60  -28.82  -94.77    0.00   -0.86    0.00   -0.86  -28.82  -94.77
    0.62  -28.60  -94.13   -0.03   -0.97   -0.03   -0.97  -28.60  -94.13
    0.64  -28.51  -94.05   -0.01   -0.89   -0.01   -0.89  -28.51  -94.05
    0.66  -28.30  -94.54   -0.01   -1.04   -0.01   -1.04  -28.30  -94.54
    0.68  -28.16  -94.88   -0.01   -1.09   -0.01   -1.09  -28.16  -94.88
    0.70  -28.11  -94.34   -0.02   -1.17   -0.02   -1.17  -28.11  -94.34
    0.72  -27.98  -94.75   -0.01   -1.18   -0.01   -1.18  -27.98  -94.75
    0.74  -27.74  -95.27   -0.01   -1.18   -0.01   -1.18  -27.74  -95.27
    0.76  -27.61  -95.59   -0.02   -1.27   -0.02   -1.27  -27.61  -95.59
    0.78  -27.48  -95.71   -0.02   -1.37   -0.02   -1.37  -27.48  -95.71
    0.80  -27.38  -95.85   -0.02   -1.41   -0.02   -1.41  -27.38  -95.85
    0.82  -27.20  -96.12   -0.02   -1.45   -0.02   -1.45  -27.20  -96.12
    0.84  -27.10  -96.19   -0.02   -1.50   -0.02   -1.50  -27.10  -96.19
    0.86  -27.02  -96.20   -0.02   -1.65   -0.02   -1.65  -27.02  -96.20
    0.88  -26.85  -96.48   -0.02   -1.69   -0.02   -1.69  -26.85  -96.48
    0.90  -26.72  -96.67   -0.03   -1.67   -0.03   -1.67  -26.72  -96.67
    0.92  -26.55  -96.85    0.00   -1.67    0.00   -1.67  -26.55  -96.85
    0.94  -26.45  -97.32   -0.01   -1.87   -0.01   -1.87  -26.45  -97.32
    0.96  -26.32  -97.84   -0.02   -1.83   -0.02   -1.83  -26.32  -97.84
    0.98  -26.22  -97.70   -0.03   -1.92   -0.03   -1.92  -26.22  -97.70
    1.00  -26.13  -97.84   -0.02   -2.13   -0.02   -2.13  -26.13  -97.84
    1.02  -26.08  -98.20   -0.02   -2.15   -0.02   -2.15  -26.08  -98.20
    1.04  -25.99  -97.95   -0.03   -2.09   -0.03   -2.09  -25.99  -97.95
    1.06  -25.87  -98.33   -0.02   -2.21   -0.02   -2.21  -25.87  -98.33
    1.08  -25.78  -98.51   -0.03   -2.22   -0.03   -2.22  -25.78  -98.51
    1.10  -25.74  -98.81   -0.02   -2.37   -0.02   -2.37  -25.74  -98.81
    1.12  -25.68  -98.80   -0.02   -2.51   -0.02   -2.51  -25.68  -98.80
    1.14  -25.62  -98.84   -0.03   -2.45   -0.03   -2.45  -25.62  -98.84
    1.16  -25.60  -99.21   -0.04   -2.54   -0.04   -2.54  -25.60  -99.21
    1.18  -25.62  -99.25   -0.02   -2.69   -0.02   -2.69  -25.62  -99.25
    1.20  -25.72  -99.86   -0.05   -2.78   -0.05   -2.78  -25.72  -99.86
    1.22  -25.83  -98.57   -0.06   -2.85   -0.06   -2.85  -25.83  -98.57
    1.24  -26.16  -97.92   -0.07   -3.12   -0.07   -3.12  -26.16  -97.92
    1.25  -26.54  -95.55   -0.09   -3.42   -0.09   -3.42  -26.54  -95.55
    1.27  -27.18  -90.40   -0.10   -3.65   -0.10   -3.65  -27.18  -90.40
    1.29  -27.41  -77.57   -0.20   -3.85   -0.20   -3.85  -27.41  -77.57
    1.31  -25.07  -62.25   -0.35   -3.58   -0.35   -3.58  -25.07  -62.25
    1.33  -21.89  -68.61   -0.41   -2.23   -0.41   -2.23  -21.89  -68.61
    1.35  -21.04  -81.37   -0.27   -1.48   -0.27   -1.48  -21.04  -81.37
    1.37  -21.12  -88.72   -0.18   -1.57   -0.18   -1.57  -21.12  -88.72
    1.39  -21.31  -92.69   -0.12   -1.92   -0.12   -1.92  -21.31  -92.69
    1.41  -21.49  -94.84   -0.10   -2.04   -0.10   -2.04  -21.49  -94.84
    1.43  -21.60  -96.28   -0.08   -1.98   -0.08   -1.98  -21.60  -96.28
    1.45  -21.62  -97.68   -0.07   -2.28   -0.07   -2.28  -21.62  -97.68
    1.47  -21.65  -98.40   -0.07   -2.30   -0.07   -2.30  -21.65  -98.40
    1.49  -21.68  -98.97   -0.06   -2.42   -0.06   -2.42  -21.68  -98.97
    1.51  -21.67  -99.24   -0.05   -2.62   -0.05   -2.62  -21.67  -99.24
    1.53  -21.60  -99.58   -0.06   -2.73   -0.06   -2.73  -21.60  -99.58
    1.55  -21.51 -100.09   -0.05   -2.77   -0.05   -2.77  -21.51 -100.09
    1.57  -21.46 -100.49   -0.06   -2.81   -0.06   -2.81  -21.46 -100.49
    1.59  -21.49 -100.76   -0.05   -2.77   -0.05   -2.77  -21.49 -100.76
    1.61  -21.44 -100.96   -0.05   -2.96   -0.05   -2.96  -21.44 -100.96
    1.63  -21.32 -100.91   -0.07   -2.92   -0.07   -2.92  -21.32 -100.91
    1.65  -21.23 -101.41   -0.07   -3.04   -0.07   -3.04  -21.23 -101.41
    1.67  -21.21 -101.89   -0.06   -3.15   -0.06   -3.15  -21.21 -101.89
    1.69  -21.17 -101.80   -0.06   -3.15   -0.06   -3.15  -21.17 -101.80
    1.71  -21.08 -101.80   -0.07   -3.15   -0.07   -3.15  -21.08 -101.80
    1.73  -20.94 -102.06   -0.04   -3.26   -0.04   -3.26  -20.94 -102.06
    1.75  -20.93 -102.39   -0.06   -3.46   -0.06   -3.46  -20.93 -102.39
    1.77  -20.87 -102.40   -0.07   -3.36   -0.07   -3.36  -20.87 -102.40
    1.79  -20.77 -102.77   -0.06   -3.60   -0.06   -3.60  -20.77 -102.77
    1.81  -20.64 -102.69   -0.05   -3.52   -0.05   -3.52  -20.64 -102.69
    1.83  -20.61 -102.97   -0.06   -3.48   -0.06   -3.48  -20.61 -102.97
    1.85  -20.54 -103.31   -0.06   -3.43   -0.06   -3.43  -20.54 -103.31
    1.87  -20.47 -103.36   -0.07   -3.54   -0.07   -3.54  -20.47 -103.36
    1.89  -20.38 -103.35   -0.06   -3.69   -0.06   -3.69  -20.38 -103.35
    1.91  -20.31 -103.51   -0.06   -3.71   -0.06   -3.71  -20.31 -103.51
    1.93  -20.27 -103.56   -0.09   -3.78   -0.09   -3.78  -20.27 -103.56
    1.95  -20.21 -103.95   -0.08   -3.82   -0.08   -3.82  -20.21 -103.95
    1.97  -20.09 -104.06   -0.06   -3.97   -0.06   -3.97  -20.09 -104.06
    1.99  -20.07 -104.07   -0.08   -3.90   -0.08   -3.90  -20.07 -104.07
    2.01  -20.03 -104.29   -0.06   -4.10   -0.06   -4.10  -20.03 -104.29
    2.03  -19.96 -104.20   -0.08   -3.98   -0.08   -3.98  -19.96 -104.20
    2.04  -19.85 -104.54   -0.07   -4.01   -0.07   -4.01  -19.85 -104.54
    2.06  -19.75 -104.92   -0.06   -4.21   -0.06   -4.21  -19.75 -104.92
    2.08  -19.75 -104.84   -0.08   -4.13   -0.08   -4.13  -19.75 -104.84
    2.10  -19.66 -104.93   -0.07   -4.38   -0.07   -4.38  -19.66 -104.93
    2.12  -19.57 -104.96   -0.09   -4.47   -0.09   -4.47  -19.57 -104.96
    2.14  -19.51 -105.06   -0.08   -4.41   -0.08   -4.41  -19.51 -105.06
    2.16  -19.50 -105.33   -0.10   -4.45   -0.10   -4.45  -19.50 -105.33
    2.18  -19.45 -105.51   -0.10   -4.57   -0.10   -4.57  -19.45 -105.51
    2.20  -19.39 -105.41   -0.10   -4.54   -0.10   -4.54  -19.39 -105.41
    2.22  -19.32 -105.71   -0.10   -4.66   -0.10   -4.66  -19.32 -105.71
    2.24  -19.27 -105.85   -0.08   -4.72   -0.08   -4.72  -19.27 -105.85
    2.26  -19.30 -105.93   -0.09   -4.61   -0.09   -4.61  -19.30 -105.93
    2.28  -19.22 -105.92   -0.09   -4.93   -0.09   -4.93  -19.22 -105.92
    2.30  -19.18 -105.82   -0.10   -4.84   -0.10   -4.84  -19.18 -105.82
    2.32  -19.19 -105.99   -0.12   -5.07   -0.12   -5.07  -19.19 -105.99
    2.34  -19.27 -105.84   -0.11   -5.04   -0.11   -5.04  -19.27 -105.84
    2.36  -19.28 -105.63   -0.11   -5.26   -0.11   -5.26  -19.28 -105.63
    2.38  -19.31 -105.11   -0.13   -5.34   -0.13   -5.34  -19.31 -105.11
    2.40  -19.33 -104.46   -0.14   -5.32   -0.14   -5.32  -19.33 -104.46
    2.42  -19.37 -103.13   -0.17   -5.53   -0.17   -5.53  -19.37 -103.13
    2.44  -19.38 -101.37   -0.20   -5.75   -0.20   -5.75  -19.38 -101.37
    2.46  -19.17  -98.28   -0.26   -5.34   -0.26   -5.34  -19.17  -98.28
    2.48  -18.69  -96.34   -0.30   -5.32   -0.30   -5.32  -18.69  -96.34
    2.50  -18.11  -96.43   -0.30   -4.95   -0.30   -4.95  -18.11  -96.43
    2.52  -17.68  -98.21   -0.27   -4.60   -0.27   -4.60  -17.68  -98.21
    2.54  -17.46 -100.06   -0.25   -4.43   -0.25   -4.43  -17.46 -100.06
    2.56  -17.34 -101.59   -0.23   -4.55   -0.23   -4.55  -17.34 -101.59
    2.58  -17.33 -102.62   -0.19   -4.57   -0.19   -4.57  -17.33 -102.62
    2.60  -17.24 -103.75   -0.18   -4.76   -0.18   -4.76  -17.24 -103.75
    2.62  -17.26 -104.62   -0.18   -4.74   -0.18   -4.74  -17.26 -104.62
    2.64  -17.18 -104.95   -0.16   -4.84   -0.16   -4.84  -17.18 -104.95
    2.66  -17.17 -105.31   -0.16   -4.91   -0.16   -4.91  -17.17 -105.31
    2.68  -17.16 -105.68   -0.15   -5.03   -0.15   -5.03  -17.16 -105.68
    2.70  -17.12 -106.04   -0.15   -4.92   -0.15   -4.92  -17.12 -106.04
    2.72  -17.09 -106.41   -0.16   -5.11   -0.16   -5.11  -17.09 -106.41
    2.74  -17.07 -106.64   -0.15   -5.24   -0.15   -5.24  -17.07 -106.64
    2.76  -17.02 -106.91   -0.15   -5.29   -0.15   -5.29  -17.02 -106.91
    2.78  -16.99 -107.17   -0.16   -5.32   -0.16   -5.32  -16.99 -107.17
    2.80  -16.93 -107.27   -0.15   -5.37   -0.15   -5.37  -16.93 -107.27
    2.82  -16.91 -107.25   -0.15   -5.36   -0.15   -5.36  -16.91 -107.25
    2.83  -16.87 -107.49   -0.15   -5.50   -0.15   -5.50  -16.87 -107.49
    2.85  -16.82 -107.71   -0.16   -5.55   -0.16   -5.55  -16.82 -107.71
    2.87  -16.76 -107.57   -0.15   -5.54   -0.15   -5.54  -16.76 -107.57
    2.89  -16.72 -107.99   -0.16   -5.53   -0.16   -5.53  -16.72 -107.99
    2.91  -16.69 -108.14   -0.14   -5.65   -0.14   -5.65  -16.69 -108.14
    2.93  -16.69 -108.42   -0.16   -5.75   -0.16   -5.75  -16.69 -108.42
    2.95  -16.64 -108.45   -0.17   -5.92   -0.17   -5.92  -16.64 -108.45
    2.97  -16.59 -108.46   -0.17   -5.83   -0.17   -5.83  -16.59 -108.46
    2.99  -16.56 -108.51   -0.15   -5.99   -0.15   -5.99  -16.56 -108.51
    3.01  -16.53 -108.43   -0.17   -5.83   -0.17   -5.83  -16.53 -108.43
    3.03  -16.49 -108.65   -0.18   -6.06   -0.18   -6.06  -16.49 -108.65
    3.05  -16.43 -108.71   -0.17   -6.09   -0.17   -6.09  -16.43 -108.71
    3.07  -16.42 -108.84   -0.16   -6.06   -0.16   -6.06  -16.42 -108.84
    3.09  -16.39 -109.21   -0.17   -6.27   -0.17   -6.27  -16.39 -109.21
    3.11  -16.35 -109.27   -0.18   -6.31   -0.18   -6.31  -16.35 -109.27
    3.13  -16.30 -108.85   -0.17   -6.28   -0.17   -6.28  -16.30 -108.85
    3.15  -16.25 -108.96   -0.19   -6.31   -0.19   -6.31  -16.25 -108.96
    3.17  -16.22 -109.01   -0.17   -6.32   -0.17   -6.32  -16.22 -109.01
    3.19  -16.22 -109.25   -0.20   -6.38   -0.20   -6.38  -16.22 -109.25
    3.21  -16.16 -109.00   -0.19   -6.42   -0.19   -6.42  -16.16 -109.00
    3.23  -16.12 -109.35   -0.20   -6.54   -0.20   -6.54  -16.12 -109.35
    3.25  -16.11 -109.51   -0.19   -6.68   -0.19   -6.68  -16.11 -109.51
    3.27  -16.09 -109.46   -0.19   -6.57   -0.19   -6.57  -16.09 -109.46
    3.29  -16.04 -109.46   -0.19   -6.77   -0.19   -6.77  -16.04 -109.46
    3.31  -16.02 -109.53   -0.21   -6.75   -0.21   -6.75  -16.02 -109.53
    3.33  -16.00 -109.70   -0.19   -6.96   -0.19   -6.96  -16.00 -109.70
    3.35  -15.99 -109.56   -0.22   -6.96   -0.22   -6.96  -15.99 -109.56
    3.37  -15.95 -109.71   -0.22   -7.07   -0.22   -7.07  -15.95 -109.71
    3.39  -15.91 -109.38   -0.22   -7.08   -0.22   -7.08  -15.91 -109.38
    3.41  -15.92 -109.57   -0.22   -7.06   -0.22   -7.06  -15.92 -109.57
    3.43  -15.92 -109.66   -0.22   -7.18   -0.22   -7.18  -15.92 -109.66
    3.45  -15.93 -109.64   -0.23   -7.29   -0.23   -7.29  -15.93 -109.64
    3.47  -15.89 -109.41   -0.25   -7.38   -0.25   -7.38  -15.89 -109.41
    3.49  -15.92 -109.47   -0.24   -7.42   -0.24   -7.42  -15.92 -109.47
    3.51  -15.92 -109.39   -0.25   -7.59   -0.25   -7.59  -15.92 -109.39
    3.53  -15.90 -109.25   -0.27   -7.65   -0.27   -7.65  -15.90 -109.25
    3.55  -15.92 -108.98   -0.27   -7.81   -0.27   -7.81  -15.92 -108.98
    3.57  -15.93 -108.56   -0.28   -7.87   -0.28   -7.87  -15.93 -108.56
    3.59  -15.96 -108.22   -0.30   -7.87   -0.30   -7.87  -15.96 -108.22
    3.61  -15.98 -107.69   -0.31   -8.14   -0.31   -8.14  -15.98 -107.69
    3.62  -15.99 -107.04   -0.32   -8.17   -0.32   -8.17  -15.99 -107.04
    3.64  -16.03 -105.99   -0.37   -8.26   -0.37   -8.26  -16.03 -105.99
    3.66  -16.03 -104.90   -0.40   -8.44   -0.40   -8.44  -16.03 -104.90
    3.68  -15.94 -103.16   -0.43   -8.36   -0.43   -8.36  -15.94 -103.16
    3.70  -15.74 -101.54   -0.48   -8.21   -0.48   -8.21  -15.74 -101.54
    3.72  -15.46 -100.01   -0.54   -8.09   -0.54   -8.09  -15.46 -100.01
    3.74  -15.14  -99.24   -0.56   -7.82   -0.56   -7.82  -15.14  -99.24
    3.76  -14.79  -99.52   -0.55   -7.57   -0.55   -7.57  -14.79  -99.52
    3.78  -14.52 -100.27   -0.56   -7.26   -0.56   -7.26  -14.52 -100.27
    3.80  -14.28 -101.22   -0.53   -6.91   -0.53   -6.91  -14.28 -101.22
    3.82  -14.08 -102.31   -0.50   -6.84   -0.50   -6.84  -14.08 -102.31
    3.84  -14.00 -103.45   -0.47   -6.79   -0.47   -6.79  -14.00 -103.45
    3.86  -13.91 -104.47   -0.46   -6.73   -0.46   -6.73  -13.91 -104.47
    3.88  -13.85 -105.37   -0.43   -6.98   -0.43   -6.98  -13.85 -105.37
    3.90  -13.81 -105.97   -0.40   -6.99   -0.40   -6.99  -13.81 -105.97
    3.92  -13.80 -106.68   -0.39   -7.00   -0.39   -7.00  -13.80 -106.68
    3.94  -13.79 -107.01   -0.39   -7.08   -0.39   -7.08  -13.79 -107.01
    3.96  -13.76 -107.31   -0.38   -7.10   -0.38   -7.10  -13.76 -107.31
    3.98  -13.77 -107.74   -0.37   -7.33   -0.37   -7.33  -13.77 -107.74
    4.00  -13.99 -109.64   -0.33   -7.50   -0.33   -7.50  -13.99 -109.64
