!  American Technical Ceramics  Date:    3/13/98
!  One Norden Lane
!  Huntington Station,  NY.   11746-2102
!  Tel:  (516) 547-5700               Fax:  (516) 547-5748
!  Part Number  700B5R6B
!  Description: Porcelain, High Q, Low ESR
!  Application: Bypass, Coupling, Timing, Feedback
!               Tuning, Impedance Match, Blocking
# GHZ S DB R 50
! Freq   |S11|   S11 Ph  |S21|   S21 Ph  |S12|   S12 Ph  |S22|   S22 Ph
    0.05    0.04  -10.14  -15.51   78.88  -15.51   78.88    0.04  -10.14
    0.14   -0.83  -26.67   -7.26   63.44   -7.26   63.44   -0.83  -26.67
    0.23   -2.04  -39.94   -4.18   50.68   -4.18   50.68   -2.04  -39.94
    0.32   -3.32  -49.70   -2.62   40.96   -2.62   40.96   -3.32  -49.70
    0.41   -4.63  -57.20   -1.80   33.94   -1.80   33.94   -4.63  -57.20
    0.50   -5.75  -62.64   -1.30   28.39   -1.30   28.39   -5.75  -62.64
    0.59   -7.00  -67.29   -1.00   23.78   -1.00   23.78   -7.00  -67.29
    0.68   -7.89  -70.84   -0.79   20.71   -0.79   20.71   -7.89  -70.84
    0.77   -8.71  -73.71   -0.65   18.08   -0.65   18.08   -8.71  -73.71
    0.86   -9.41  -76.18   -0.57   15.77   -0.57   15.77   -9.41  -76.18
    0.95   -9.99  -78.17   -0.48   14.05   -0.48   14.05   -9.99  -78.17
    1.04  -10.52  -80.27   -0.45   12.35   -0.45   12.35  -10.52  -80.27
    1.13  -10.97  -82.03   -0.38   10.98   -0.38   10.98  -10.97  -82.03
    1.22  -11.37  -83.30   -0.36    9.84   -0.36    9.84  -11.37  -83.30
    1.31  -11.74  -84.66   -0.33    8.81   -0.33    8.81  -11.74  -84.66
    1.40  -12.06  -86.13   -0.31    7.88   -0.31    7.88  -12.06  -86.13
    1.49  -12.34  -87.57   -0.28    6.94   -0.28    6.94  -12.34  -87.57
    1.58  -12.57  -88.77   -0.26    6.17   -0.26    6.17  -12.57  -88.77
    1.67  -12.78  -89.98   -0.29    5.59   -0.29    5.59  -12.78  -89.98
    1.76  -12.96  -90.91   -0.26    4.67   -0.26    4.67  -12.96  -90.91
    1.85  -13.10  -92.40   -0.23    4.08   -0.23    4.08  -13.10  -92.40
    1.93  -13.29  -92.89   -0.25    3.61   -0.25    3.61  -13.29  -92.89
    2.02  -13.35  -93.88   -0.26    2.82   -0.26    2.82  -13.35  -93.88
    2.11  -13.43  -94.58   -0.25    2.36   -0.25    2.36  -13.43  -94.58
    2.20  -13.47  -95.56   -0.25    1.82   -0.25    1.82  -13.47  -95.56
    2.29  -13.51  -96.39   -0.25    1.18   -0.25    1.18  -13.51  -96.39
    2.38  -13.53  -97.02   -0.25    0.91   -0.25    0.91  -13.53  -97.02
    2.47  -13.57  -97.84   -0.23    0.28   -0.23    0.28  -13.57  -97.84
    2.56  -13.60  -98.04   -0.23   -0.23   -0.23   -0.23  -13.60  -98.04
    2.65  -13.61  -98.58   -0.25   -0.42   -0.25   -0.42  -13.61  -98.58
    2.74  -13.57  -99.55   -0.25   -0.80   -0.25   -0.80  -13.57  -99.55
    2.83  -13.63 -100.27   -0.25   -1.35   -0.25   -1.35  -13.63 -100.27
    2.92  -13.59 -101.56   -0.24   -1.51   -0.24   -1.51  -13.59 -101.56
    3.01  -13.58 -101.72   -0.27   -2.17   -0.27   -2.17  -13.58 -101.72
    3.10  -13.60 -102.63   -0.27   -2.29   -0.27   -2.29  -13.60 -102.63
    3.19  -13.57 -102.58   -0.33   -2.93   -0.33   -2.93  -13.57 -102.58
    3.28  -13.45 -103.51   -0.26   -3.44   -0.26   -3.44  -13.45 -103.51
    3.37  -13.41 -103.01   -0.33   -3.60   -0.33   -3.60  -13.41 -103.01
    3.46  -13.36 -103.99   -0.30   -3.96   -0.30   -3.96  -13.36 -103.99
    3.55  -13.27 -103.84   -0.31   -4.42   -0.31   -4.42  -13.27 -103.84
    3.64  -13.16 -104.61   -0.29   -4.54   -0.29   -4.54  -13.16 -104.61
    3.73  -13.16 -104.27   -0.33   -5.01   -0.33   -5.01  -13.16 -104.27
    3.82  -13.15 -105.14   -0.32   -5.18   -0.32   -5.18  -13.15 -105.14
    3.91  -13.06 -105.30   -0.36   -5.48   -0.36   -5.48  -13.06 -105.30
    4.00  -13.14 -107.37   -0.32   -5.99   -0.32   -5.99  -13.14 -107.37
    4.09  -13.13 -107.61   -0.34   -6.12   -0.34   -6.12  -13.13 -107.61
    4.18  -13.14 -108.74   -0.35   -6.53   -0.35   -6.53  -13.14 -108.74
    4.27  -13.00 -109.27   -0.33   -6.61   -0.33   -6.61  -13.00 -109.27
    4.36  -13.12 -109.48   -0.37   -7.04   -0.37   -7.04  -13.12 -109.48
    4.45  -13.07 -109.77   -0.37   -7.23   -0.37   -7.23  -13.07 -109.77
    4.54  -13.11 -110.08   -0.36   -7.81   -0.36   -7.81  -13.11 -110.08
    4.63  -13.08 -110.35   -0.35   -7.96   -0.35   -7.96  -13.08 -110.35
    4.72  -13.16 -109.35   -0.39   -8.21   -0.39   -8.21  -13.16 -109.35
    4.81  -13.18 -110.11   -0.37   -8.50   -0.37   -8.50  -13.18 -110.11
    4.90  -13.20 -109.89   -0.35   -8.90   -0.35   -8.90  -13.20 -109.89
    4.99  -13.27 -111.08   -0.35   -8.93   -0.35   -8.93  -13.27 -111.08
    5.08  -13.36 -110.14   -0.37   -9.11   -0.37   -9.11  -13.36 -110.14
    5.17  -13.53 -111.46   -0.35   -9.47   -0.35   -9.47  -13.53 -111.46
    5.26  -13.66 -111.35   -0.35   -9.76   -0.35   -9.76  -13.66 -111.35
    5.35  -13.67 -111.69   -0.36   -9.98   -0.36   -9.98  -13.67 -111.69
    5.44  -13.95 -110.83   -0.40  -10.23   -0.40  -10.23  -13.95 -110.83
    5.52  -14.01 -111.86   -0.39  -10.68   -0.39  -10.68  -14.01 -111.86
    5.61  -14.08 -111.23   -0.39  -10.82   -0.39  -10.82  -14.08 -111.23
    5.70  -14.15 -110.90   -0.37  -11.02   -0.37  -11.02  -14.15 -110.90
    5.79  -14.40 -111.17   -0.41  -11.51   -0.41  -11.51  -14.40 -111.17
    5.88  -14.45 -111.33   -0.37  -11.63   -0.37  -11.63  -14.45 -111.33
    5.97  -14.68 -110.90   -0.35  -11.85   -0.35  -11.85  -14.68 -110.90
    6.06  -14.97 -110.42   -0.36  -12.18   -0.36  -12.18  -14.97 -110.42
    6.15  -15.21 -111.27   -0.37  -12.55   -0.37  -12.55  -15.21 -111.27
    6.24  -15.37 -111.01   -0.37  -12.80   -0.37  -12.80  -15.37 -111.01
    6.33  -15.63 -111.16   -0.39  -12.95   -0.39  -12.95  -15.63 -111.16
    6.42  -16.00 -111.37   -0.38  -13.44   -0.38  -13.44  -16.00 -111.37
    6.51  -16.26 -111.57   -0.37  -13.86   -0.37  -13.86  -16.26 -111.57
    6.60  -16.62 -110.85   -0.39  -14.43   -0.39  -14.43  -16.62 -110.85
    6.69  -16.93 -109.25   -0.38  -14.69   -0.38  -14.69  -16.93 -109.25
    6.78  -17.20 -108.52   -0.45  -15.00   -0.45  -15.00  -17.20 -108.52
    6.87  -17.45 -106.30   -0.42  -15.30   -0.42  -15.30  -17.45 -106.30
    6.96  -17.63 -105.35   -0.43  -15.79   -0.43  -15.79  -17.63 -105.35
    7.05  -17.97 -104.16   -0.46  -15.80   -0.46  -15.80  -17.97 -104.16
    7.14  -18.18 -103.53   -0.48  -16.24   -0.48  -16.24  -18.18 -103.53
    7.23  -18.49 -102.36   -0.49  -16.74   -0.49  -16.74  -18.49 -102.36
    7.32  -18.67 -100.21   -0.52  -17.02   -0.52  -17.02  -18.67 -100.21
    7.41  -18.86  -99.51   -0.55  -17.26   -0.55  -17.26  -18.86  -99.51
    7.50  -18.91  -97.90   -0.54  -17.59   -0.54  -17.59  -18.91  -97.90
    7.59  -19.16  -97.14   -0.55  -18.08   -0.55  -18.08  -19.16  -97.14
    7.68  -19.59  -96.43   -0.54  -18.29   -0.54  -18.29  -19.59  -96.43
    7.77  -19.93  -96.34   -0.54  -18.56   -0.54  -18.56  -19.93  -96.34
    7.86  -20.62  -94.15   -0.54  -19.30   -0.54  -19.30  -20.62  -94.15
    7.95  -21.29  -91.81   -0.52  -19.98   -0.52  -19.98  -21.29  -91.81
    8.04  -22.42  -88.63   -0.48  -20.76   -0.48  -20.76  -22.42  -88.63
    8.13  -23.25  -80.87   -0.52  -21.75   -0.52  -21.75  -23.25  -80.87
    8.22  -24.31  -68.19   -0.51  -22.90   -0.51  -22.90  -24.31  -68.19
    8.31  -24.64  -51.04   -0.55  -24.44   -0.55  -24.44  -24.64  -51.04
    8.40  -23.74  -29.78   -0.57  -25.98   -0.57  -25.98  -23.74  -29.78
    8.49  -21.03   -9.11   -0.61  -28.41   -0.61  -28.41  -21.03   -9.11
    8.58  -17.36    0.61   -0.77  -31.50   -0.77  -31.50  -17.36    0.61
    8.67  -13.46    2.70   -1.10  -36.36   -1.10  -36.36  -13.46    2.70
    8.76   -9.31   -5.85   -1.99  -43.85   -1.99  -43.85   -9.31   -5.85
    8.85   -5.59  -24.15   -4.67  -51.27   -4.67  -51.27   -5.59  -24.15
    8.94   -3.78  -54.20   -9.71  -24.81   -9.71  -24.81   -3.78  -54.20
    9.03   -4.46  -80.22   -5.78    6.55   -5.78    6.55   -4.46  -80.22
    9.11   -5.98  -95.96   -3.18    3.49   -3.18    3.49   -5.98  -95.96
    9.20   -7.41 -104.76   -2.18   -1.19   -2.18   -1.19   -7.41 -104.76
    9.29   -8.60 -110.46   -1.65   -4.57   -1.65   -4.57   -8.60 -110.46
    9.38   -9.45 -114.35   -1.38   -6.78   -1.38   -6.78   -9.45 -114.35
    9.47  -10.28 -117.32   -1.23   -8.89   -1.23   -8.89  -10.28 -117.32
    9.56  -11.00 -120.15   -1.12  -10.55   -1.12  -10.55  -11.00 -120.15
    9.65  -11.61 -122.63   -1.05  -11.78   -1.05  -11.78  -11.61 -122.63
    9.74  -12.16 -125.50   -1.00  -12.62   -1.00  -12.62  -12.16 -125.50
    9.83  -12.59 -126.99   -0.94  -13.64   -0.94  -13.64  -12.59 -126.99
    9.92  -13.21 -129.86   -0.88  -14.78   -0.88  -14.78  -13.21 -129.86
   10.01  -13.54 -132.46   -0.87  -15.12   -0.87  -15.12  -13.54 -132.46
   10.10  -14.02 -134.44   -0.86  -15.83   -0.86  -15.83  -14.02 -134.44
   10.19  -14.38 -135.78   -0.86  -16.49   -0.86  -16.49  -14.38 -135.78
   10.28  -14.87 -138.39   -0.87  -17.43   -0.87  -17.43  -14.87 -138.39
   10.37  -15.19 -141.09   -0.85  -17.97   -0.85  -17.97  -15.19 -141.09
   10.46  -15.73 -142.49   -0.89  -18.49   -0.89  -18.49  -15.73 -142.49
   10.55  -16.23 -145.93   -0.90  -19.30   -0.90  -19.30  -16.23 -145.93
   10.64  -16.78 -149.15   -0.95  -19.71   -0.95  -19.71  -16.78 -149.15
   10.73  -17.35 -153.51   -0.97  -20.08   -0.97  -20.08  -17.35 -153.51
   10.82  -18.10 -156.08   -1.02  -20.13   -1.02  -20.13  -18.10 -156.08
   10.91  -18.99 -161.10   -1.06  -20.54   -1.06  -20.54  -18.99 -161.10
   11.00  -20.03 -165.75   -1.03  -20.76   -1.03  -20.76  -20.03 -165.75
   11.09  -20.88 -171.71   -1.03  -20.92   -1.03  -20.92  -20.88 -171.71
   11.18  -22.19 -177.06   -1.04  -21.06   -1.04  -21.06  -22.19 -177.06
   11.27  -23.46  175.12   -1.08  -21.36   -1.08  -21.36  -23.46  175.12
   11.36  -25.34  165.49   -1.03  -21.81   -1.03  -21.81  -25.34  165.49
   11.45  -26.81  154.48   -1.07  -22.16   -1.07  -22.16  -26.81  154.48
   11.54  -28.75  140.32   -1.06  -22.22   -1.06  -22.22  -28.75  140.32
   11.63  -29.30  126.52   -1.07  -22.54   -1.07  -22.54  -29.30  126.52
   11.72  -29.48  108.10   -1.04  -23.00   -1.04  -23.00  -29.48  108.10
   11.81  -28.55   91.23   -1.05  -23.29   -1.05  -23.29  -28.55   91.23
   11.90  -27.39   76.08   -1.04  -23.64   -1.04  -23.64  -27.39   76.08
   11.99  -25.88   67.10   -1.04  -23.79   -1.04  -23.79  -25.88   67.10
   12.08  -24.68   59.81   -1.04  -24.34   -1.04  -24.34  -24.68   59.81
   12.17  -23.64   54.45   -1.07  -24.62   -1.07  -24.62  -23.64   54.45
   12.26  -22.58   50.24   -1.06  -25.08   -1.06  -25.08  -22.58   50.24
   12.35  -21.54   46.98   -1.06  -25.46   -1.06  -25.46  -21.54   46.98
   12.44  -20.57   45.22   -1.09  -26.18   -1.09  -26.18  -20.57   45.22
   12.53  -19.66   41.71   -1.10  -26.41   -1.10  -26.41  -19.66   41.71
   12.62  -18.87   40.06   -1.12  -26.95   -1.12  -26.95  -18.87   40.06
   12.70  -18.19   38.09   -1.12  -27.12   -1.12  -27.12  -18.19   38.09
   12.79  -17.58   36.08   -1.16  -27.87   -1.16  -27.87  -17.58   36.08
   12.88  -16.88   34.41   -1.17  -28.16   -1.17  -28.16  -16.88   34.41
   12.97  -16.36   32.28   -1.18  -28.39   -1.18  -28.39  -16.36   32.28
   13.06  -16.04   31.80   -1.23  -29.00   -1.23  -29.00  -16.04   31.80
   13.15  -15.67   29.19   -1.21  -29.66   -1.21  -29.66  -15.67   29.19
   13.24  -15.19   29.53   -1.26  -29.81   -1.26  -29.81  -15.19   29.53
   13.33  -14.82   27.63   -1.30  -30.35   -1.30  -30.35  -14.82   27.63
   13.42  -14.69   27.93   -1.36  -31.09   -1.36  -31.09  -14.69   27.93
   13.51  -14.25   25.80   -1.34  -31.77   -1.34  -31.77  -14.25   25.80
   13.60  -13.97   27.21   -1.44  -32.00   -1.44  -32.00  -13.97   27.21
   13.69  -13.57   26.07   -1.49  -32.39   -1.49  -32.39  -13.57   26.07
   13.78  -13.45   24.51   -1.54  -33.34   -1.54  -33.34  -13.45   24.51
   13.87  -12.96   23.98   -1.53  -33.67   -1.53  -33.67  -12.96   23.98
   13.96  -12.73   25.05   -1.59  -33.59   -1.59  -33.59  -12.73   25.05
   14.05  -12.54   24.58   -1.66  -34.53   -1.66  -34.53  -12.54   24.58
   14.14  -12.37   23.77   -1.67  -35.62   -1.67  -35.62  -12.37   23.77
   14.23  -11.98   23.78   -1.73  -35.64   -1.73  -35.64  -11.98   23.78
   14.32  -11.71   24.52   -1.79  -36.25   -1.79  -36.25  -11.71   24.52
   14.41  -11.63   23.96   -1.88  -37.21   -1.88  -37.21  -11.63   23.96
   14.50  -11.39   23.48   -1.95  -37.82   -1.95  -37.82  -11.39   23.48
   14.59  -11.02   22.58   -2.01  -38.67   -2.01  -38.67  -11.02   22.58
   14.68  -10.79   22.80   -2.02  -39.10   -2.02  -39.10  -10.79   22.80
   14.77  -10.55   23.02   -2.21  -39.72   -2.21  -39.72  -10.55   23.02
   14.86  -10.19   22.24   -2.35  -40.60   -2.35  -40.60  -10.19   22.24
   14.95   -9.73   21.38   -2.36  -41.40   -2.36  -41.40   -9.73   21.38
   15.04   -9.41   21.76   -2.53  -41.50   -2.53  -41.50   -9.41   21.76
   15.13   -9.00   20.20   -2.65  -41.99   -2.65  -41.99   -9.00   20.20
   15.22   -8.65   17.71   -2.79  -43.60   -2.79  -43.60   -8.65   17.71
   15.31   -8.12   16.89   -2.87  -43.90   -2.87  -43.90   -8.12   16.89
   15.40   -7.86   13.67   -3.12  -45.60   -3.12  -45.60   -7.86   13.67
   15.49   -7.37    9.88   -3.35  -47.62   -3.35  -47.62   -7.37    9.88
   15.58   -6.85    4.77   -3.80  -49.68   -3.80  -49.68   -6.85    4.77
   15.67   -6.43   -1.56   -4.60  -51.87   -4.60  -51.87   -6.43   -1.56
   15.76   -6.38  -12.43   -5.83  -49.13   -5.83  -49.13   -6.38  -12.43
   15.85   -7.25  -21.00   -6.21  -43.00   -6.21  -43.00   -7.25  -21.00
   15.94   -7.50  -31.71   -7.29  -42.98   -7.29  -42.98   -7.50  -31.71
   16.03   -9.75  -51.46   -8.42  -22.47   -8.42  -22.47   -9.75  -51.46
   16.12  -15.67  -61.08   -5.75  -10.43   -5.75  -10.43  -15.67  -61.08
   16.21  -22.16  -12.74   -3.95  -13.99   -3.95  -13.99  -22.16  -12.74
   16.29  -17.53   26.96   -3.21  -19.10   -3.21  -19.10  -17.53   26.96
   16.38  -14.45   31.72   -2.89  -23.03   -2.89  -23.03  -14.45   31.72
   16.47  -12.52   30.39   -2.78  -26.34   -2.78  -26.34  -12.52   30.39
   16.56  -11.38   29.29   -2.70  -28.41   -2.70  -28.41  -11.38   29.29
   16.65  -10.47   27.27   -2.76  -30.22   -2.76  -30.22  -10.47   27.27
   16.74   -9.81   26.55   -2.78  -31.86   -2.78  -31.86   -9.81   26.55
   16.83   -9.18   24.35   -2.91  -32.83   -2.91  -32.83   -9.18   24.35
   16.92   -8.66   23.41   -2.95  -33.98   -2.95  -33.98   -8.66   23.41
   17.01   -8.12   21.54   -3.11  -34.92   -3.11  -34.92   -8.12   21.54
   17.10   -7.79   20.45   -3.09  -35.11   -3.09  -35.11   -7.79   20.45
   17.19   -7.30   19.40   -3.27  -35.77   -3.27  -35.77   -7.30   19.40
   17.28   -7.05   17.78   -3.31  -35.74   -3.31  -35.74   -7.05   17.78
   17.37   -6.65   16.54   -3.34  -36.27   -3.34  -36.27   -6.65   16.54
   17.46   -6.39   15.36   -3.39  -36.26   -3.39  -36.26   -6.39   15.36
   17.55   -6.08   14.12   -3.44  -36.99   -3.44  -36.99   -6.08   14.12
   17.64   -5.76   12.57   -3.53  -36.84   -3.53  -36.84   -5.76   12.57
   17.73   -5.68   11.00   -3.45  -37.63   -3.45  -37.63   -5.68   11.00
   17.82   -5.45   10.39   -3.60  -38.06   -3.60  -38.06   -5.45   10.39
   17.91   -5.49    9.94   -3.64  -39.42   -3.64  -39.42   -5.49    9.94
   18.00   -5.22    7.99   -3.70  -39.56   -3.70  -39.56   -5.22    7.99
