!  American Technical Ceramics  Date:    3/13/98
!  One Norden Lane
!  Huntington Station,  NY.   11746-2102
!  Tel:  (516) 547-5700               Fax:  (516) 547-5748
!  Part Number  700B100G
!  Description: Porcelain, High Q, Low ESR
!  Application: Bypass, Coupling, Timing, Feedback
!               Tuning, Impedance Match, Blocking
# GHZ S DB R 50
! Freq   |S11|   S11 Ph  |S21|   S21 Ph  |S12|   S12 Ph  |S22|   S22 Ph
    0.05   -0.34  -17.65  -10.36   72.52  -10.36   72.52   -0.34  -17.65
    0.11   -1.73  -35.64   -4.80   54.19   -4.80   54.19   -1.73  -35.64
    0.17   -3.31  -48.78   -2.70   41.85   -2.70   41.85   -3.31  -48.78
    0.24   -4.97  -57.47   -1.65   33.24   -1.65   33.24   -4.97  -57.47
    0.30   -6.40  -63.78   -1.13   27.19   -1.13   27.19   -6.40  -63.78
    0.36   -7.68  -68.34   -0.79   22.81   -0.79   22.81   -7.68  -68.34
    0.42   -8.77  -72.03   -0.60   19.54   -0.60   19.54   -8.77  -72.03
    0.48   -9.68  -74.71   -0.48   16.81   -0.48   16.81   -9.68  -74.71
    0.54  -10.82  -77.04   -0.41   14.30   -0.41   14.30  -10.82  -77.04
    0.61  -11.57  -79.30   -0.34   12.66   -0.34   12.66  -11.57  -79.30
    0.67  -12.22  -80.91   -0.31   11.37   -0.31   11.37  -12.22  -80.91
    0.73  -12.79  -82.09   -0.27   10.18   -0.27   10.18  -12.79  -82.09
    0.79  -13.30  -83.55   -0.25    9.08   -0.25    9.08  -13.30  -83.55
    0.85  -13.77  -85.05   -0.22    8.13   -0.22    8.13  -13.77  -85.05
    0.91  -14.17  -85.93   -0.19    7.32   -0.19    7.32  -14.17  -85.93
    0.98  -14.47  -87.35   -0.17    6.54   -0.17    6.54  -14.47  -87.35
    1.04  -14.85  -88.14   -0.18    5.93   -0.18    5.93  -14.85  -88.14
    1.10  -15.15  -89.31   -0.16    5.32   -0.16    5.32  -15.15  -89.31
    1.16  -15.35  -90.33   -0.16    4.53   -0.16    4.53  -15.35  -90.33
    1.22  -15.57  -90.69   -0.14    4.20   -0.14    4.20  -15.57  -90.69
    1.29  -15.79  -91.84   -0.14    3.57   -0.14    3.57  -15.79  -91.84
    1.35  -15.93  -92.82   -0.12    3.20   -0.12    3.20  -15.93  -92.82
    1.41  -16.06  -93.41   -0.13    2.85   -0.13    2.85  -16.06  -93.41
    1.47  -16.19  -94.28   -0.14    2.38   -0.14    2.38  -16.19  -94.28
    1.53  -16.32  -95.09   -0.13    1.96   -0.13    1.96  -16.32  -95.09
    1.59  -16.41  -95.99   -0.12    1.65   -0.12    1.65  -16.41  -95.99
    1.66  -16.46  -96.58   -0.12    1.21   -0.12    1.21  -16.46  -96.58
    1.72  -16.52  -97.12   -0.13    0.80   -0.13    0.80  -16.52  -97.12
    1.78  -16.60  -98.02   -0.13    0.42   -0.13    0.42  -16.60  -98.02
    1.84  -16.62  -98.87   -0.12    0.21   -0.12    0.21  -16.62  -98.87
    1.90  -16.58  -98.96   -0.11   -0.17   -0.11   -0.17  -16.58  -98.96
    1.96  -16.64  -99.60   -0.12   -0.42   -0.12   -0.42  -16.64  -99.60
    2.03  -16.69 -100.56   -0.15   -0.73   -0.15   -0.73  -16.69 -100.56
    2.09  -16.71 -101.16   -0.14   -0.93   -0.14   -0.93  -16.71 -101.16
    2.15  -16.58 -101.42   -0.14   -1.22   -0.14   -1.22  -16.58 -101.42
    2.21  -16.64 -102.22   -0.15   -1.54   -0.15   -1.54  -16.64 -102.22
    2.27  -16.64 -103.07   -0.15   -1.69   -0.15   -1.69  -16.64 -103.07
    2.33  -16.60 -103.54   -0.14   -1.94   -0.14   -1.94  -16.60 -103.54
    2.40  -16.54 -103.81   -0.13   -2.29   -0.13   -2.29  -16.54 -103.81
    2.46  -16.55 -104.41   -0.15   -2.45   -0.15   -2.45  -16.55 -104.41
    2.52  -16.53 -105.21   -0.16   -2.65   -0.16   -2.65  -16.53 -105.21
    2.58  -16.49 -105.38   -0.15   -2.90   -0.15   -2.90  -16.49 -105.38
    2.64  -16.42 -105.36   -0.16   -3.20   -0.16   -3.20  -16.42 -105.36
    2.71  -16.38 -105.95   -0.16   -3.42   -0.16   -3.42  -16.38 -105.95
    2.77  -16.39 -106.96   -0.14   -3.65   -0.14   -3.65  -16.39 -106.96
    2.83  -16.31 -106.72   -0.15   -3.82   -0.15   -3.82  -16.31 -106.72
    2.89  -16.21 -107.17   -0.17   -4.04   -0.17   -4.04  -16.21 -107.17
    2.95  -16.28 -108.09   -0.17   -4.34   -0.17   -4.34  -16.28 -108.09
    3.01  -16.23 -108.42   -0.18   -4.54   -0.18   -4.54  -16.23 -108.42
    3.08  -16.12 -108.66   -0.15   -4.78   -0.15   -4.78  -16.12 -108.66
    3.14  -16.08 -108.41   -0.18   -4.92   -0.18   -4.92  -16.08 -108.41
    3.20  -16.10 -108.93   -0.21   -5.24   -0.21   -5.24  -16.10 -108.93
    3.26  -16.02 -109.84   -0.17   -5.47   -0.17   -5.47  -16.02 -109.84
    3.32  -16.02 -109.74   -0.17   -5.74   -0.17   -5.74  -16.02 -109.74
    3.38  -15.84 -109.49   -0.22   -5.90   -0.22   -5.90  -15.84 -109.49
    3.45  -15.89 -110.72   -0.20   -6.18   -0.20   -6.18  -15.89 -110.72
    3.51  -15.83 -110.62   -0.21   -6.22   -0.21   -6.22  -15.83 -110.62
    3.57  -15.67 -110.11   -0.20   -6.48   -0.20   -6.48  -15.67 -110.11
    3.63  -15.60 -110.99   -0.21   -6.58   -0.21   -6.58  -15.60 -110.99
    3.69  -15.68 -111.54   -0.23   -7.02   -0.23   -7.02  -15.68 -111.54
    3.76  -15.51 -111.59   -0.23   -6.99   -0.23   -6.99  -15.51 -111.59
    3.82  -15.49 -111.60   -0.22   -7.48   -0.22   -7.48  -15.49 -111.60
    3.88  -15.36 -111.59   -0.22   -7.54   -0.22   -7.54  -15.36 -111.59
    3.94  -15.36 -112.27   -0.24   -7.79   -0.24   -7.79  -15.36 -112.27
    4.00  -15.57 -114.27   -0.22   -7.99   -0.22   -7.99  -15.57 -114.27
    4.06  -15.50 -114.05   -0.25   -8.25   -0.25   -8.25  -15.50 -114.05
    4.13  -15.47 -114.47   -0.23   -8.41   -0.23   -8.41  -15.47 -114.47
    4.19  -15.58 -115.15   -0.25   -8.53   -0.25   -8.53  -15.58 -115.15
    4.25  -15.44 -115.12   -0.24   -8.66   -0.24   -8.66  -15.44 -115.12
    4.31  -15.47 -115.59   -0.22   -9.00   -0.22   -9.00  -15.47 -115.59
    4.37  -15.55 -116.02   -0.23   -9.18   -0.23   -9.18  -15.55 -116.02
    4.43  -15.60 -116.52   -0.26   -9.43   -0.26   -9.43  -15.60 -116.52
    4.50  -15.60 -116.76   -0.25   -9.53   -0.25   -9.53  -15.60 -116.76
    4.56  -15.60 -116.80   -0.25   -9.90   -0.25   -9.90  -15.60 -116.80
    4.62  -15.74 -117.74   -0.25  -10.04   -0.25  -10.04  -15.74 -117.74
    4.68  -15.88 -117.58   -0.27  -10.20   -0.27  -10.20  -15.88 -117.58
    4.74  -15.88 -117.19   -0.24  -10.44   -0.24  -10.44  -15.88 -117.19
    4.80  -15.94 -117.65   -0.29  -10.59   -0.29  -10.59  -15.94 -117.65
    4.87  -16.09 -117.91   -0.26  -10.84   -0.26  -10.84  -16.09 -117.91
    4.93  -16.22 -118.12   -0.26  -11.05   -0.26  -11.05  -16.22 -118.12
    4.99  -16.27 -118.40   -0.25  -11.42   -0.25  -11.42  -16.27 -118.40
    5.05  -16.48 -117.94   -0.28  -11.58   -0.28  -11.58  -16.48 -117.94
    5.11  -16.60 -118.71   -0.25  -11.86   -0.25  -11.86  -16.60 -118.71
    5.18  -16.82 -118.72   -0.28  -12.03   -0.28  -12.03  -16.82 -118.72
    5.24  -17.06 -118.51   -0.26  -12.17   -0.26  -12.17  -17.06 -118.51
    5.30  -17.23 -118.30   -0.26  -12.62   -0.26  -12.62  -17.23 -118.30
    5.36  -17.56 -119.22   -0.28  -12.84   -0.28  -12.84  -17.56 -119.22
    5.42  -17.92 -118.06   -0.27  -13.11   -0.27  -13.11  -17.92 -118.06
    5.48  -18.04 -117.58   -0.25  -13.39   -0.25  -13.39  -18.04 -117.58
    5.55  -18.47 -117.53   -0.27  -13.86   -0.27  -13.86  -18.47 -117.53
    5.61  -18.88 -117.13   -0.28  -14.22   -0.28  -14.22  -18.88 -117.13
    5.67  -19.29 -115.95   -0.29  -14.39   -0.29  -14.39  -19.29 -115.95
    5.73  -19.67 -116.02   -0.29  -14.75   -0.29  -14.75  -19.67 -116.02
    5.79  -20.37 -115.09   -0.28  -15.22   -0.28  -15.22  -20.37 -115.09
    5.85  -21.10 -113.80   -0.29  -15.74   -0.29  -15.74  -21.10 -113.80
    5.92  -22.04 -111.65   -0.30  -16.41   -0.30  -16.41  -22.04 -111.65
    5.98  -23.09 -107.06   -0.32  -16.98   -0.32  -16.98  -23.09 -107.06
    6.04  -24.50  -98.67   -0.34  -17.72   -0.34  -17.72  -24.50  -98.67
    6.10  -25.94  -86.33   -0.38  -18.74   -0.38  -18.74  -25.94  -86.33
    6.16  -26.54  -62.79   -0.44  -19.89   -0.44  -19.89  -26.54  -62.79
    6.23  -24.74  -35.77   -0.56  -21.27   -0.56  -21.27  -24.74  -35.77
    6.29  -21.18  -19.90   -0.75  -23.16   -0.75  -23.16  -21.18  -19.90
    6.35  -17.08  -16.55   -1.16  -25.13   -1.16  -25.13  -17.08  -16.55
    6.41  -13.29  -24.42   -1.96  -26.81   -1.96  -26.81  -13.29  -24.42
    6.47  -10.33  -40.96   -3.16  -23.52   -3.16  -23.52  -10.33  -40.96
    6.53   -9.45  -63.25   -3.52  -12.80   -3.52  -12.80   -9.45  -63.25
    6.60   -9.90  -81.37   -2.59   -6.71   -2.59   -6.71   -9.90  -81.37
    6.66  -10.93  -92.02   -1.79   -6.24   -1.79   -6.24  -10.93  -92.02
    6.72  -11.97  -98.86   -1.34   -7.34   -1.34   -7.34  -11.97  -98.86
    6.78  -13.06 -103.07   -1.10   -8.35   -1.10   -8.35  -13.06 -103.07
    6.84  -13.95 -105.04   -0.93   -9.44   -0.93   -9.44  -13.95 -105.04
    6.90  -14.51 -106.56   -0.83  -10.42   -0.83  -10.42  -14.51 -106.56
    6.97  -15.11 -106.64   -0.78  -11.10   -0.78  -11.10  -15.11 -106.64
    7.03  -15.82 -107.33   -0.77  -11.48   -0.77  -11.48  -15.82 -107.33
    7.09  -16.17 -107.81   -0.71  -12.20   -0.71  -12.20  -16.17 -107.81
    7.15  -16.64 -106.91   -0.70  -12.66   -0.70  -12.66  -16.64 -106.91
    7.21  -17.08 -106.35   -0.69  -13.16   -0.69  -13.16  -17.08 -106.35
    7.27  -17.54 -105.67   -0.70  -13.65   -0.70  -13.65  -17.54 -105.67
    7.34  -17.76 -104.42   -0.69  -13.98   -0.69  -13.98  -17.76 -104.42
    7.40  -17.89 -103.82   -0.70  -14.11   -0.70  -14.11  -17.89 -103.82
    7.46  -18.12 -102.21   -0.70  -14.54   -0.70  -14.54  -18.12 -102.21
    7.52  -18.34 -102.45   -0.73  -14.72   -0.73  -14.72  -18.34 -102.45
    7.58  -18.36 -101.45   -0.73  -14.83   -0.73  -14.83  -18.36 -101.45
    7.65  -18.56 -101.21   -0.70  -14.88   -0.70  -14.88  -18.56 -101.21
    7.71  -18.58 -101.87   -0.71  -15.24   -0.71  -15.24  -18.58 -101.87
    7.77  -18.89 -102.85   -0.69  -15.32   -0.69  -15.32  -18.89 -102.85
    7.83  -19.21 -102.79   -0.67  -15.65   -0.67  -15.65  -19.21 -102.79
    7.89  -19.32 -102.51   -0.67  -15.79   -0.67  -15.79  -19.32 -102.51
    7.95  -19.78 -101.68   -0.67  -16.01   -0.67  -16.01  -19.78 -101.68
    8.02  -20.17 -102.32   -0.68  -16.38   -0.68  -16.38  -20.17 -102.32
    8.08  -20.26  -99.64   -0.69  -16.77   -0.69  -16.77  -20.26  -99.64
    8.14  -20.50  -98.20   -0.70  -17.04   -0.70  -17.04  -20.50  -98.20
    8.20  -20.70  -96.65   -0.72  -17.35   -0.72  -17.35  -20.70  -96.65
    8.26  -20.65  -94.89   -0.75  -17.66   -0.75  -17.66  -20.65  -94.89
    8.32  -20.40  -92.55   -0.81  -17.59   -0.81  -17.59  -20.40  -92.55
    8.39  -19.94  -93.01   -0.86  -17.58   -0.86  -17.58  -19.94  -93.01
    8.45  -19.69  -94.96   -0.84  -17.32   -0.84  -17.32  -19.69  -94.96
    8.51  -19.47  -99.04   -0.85  -17.25   -0.85  -17.25  -19.47  -99.04
    8.57  -19.59 -101.85   -0.76  -17.31   -0.76  -17.31  -19.59 -101.85
    8.63  -19.80 -105.69   -0.71  -17.29   -0.71  -17.29  -19.80 -105.69
    8.70  -20.28 -108.84   -0.67  -17.54   -0.67  -17.54  -20.28 -108.84
    8.76  -20.64 -111.71   -0.64  -17.99   -0.64  -17.99  -20.64 -111.71
    8.82  -21.09 -113.11   -0.61  -18.18   -0.61  -18.18  -21.09 -113.11
    8.88  -21.62 -115.57   -0.58  -18.50   -0.58  -18.50  -21.62 -115.57
    8.94  -22.20 -116.11   -0.56  -19.10   -0.56  -19.10  -22.20 -116.11
    9.00  -22.68 -118.16   -0.58  -19.35   -0.58  -19.35  -22.68 -118.16
    9.07  -23.16 -119.54   -0.57  -20.02   -0.57  -20.02  -23.16 -119.54
    9.13  -23.67 -120.70   -0.57  -20.13   -0.57  -20.13  -23.67 -120.70
    9.19  -24.46 -123.36   -0.57  -20.23   -0.57  -20.23  -24.46 -123.36
    9.25  -25.12 -125.78   -0.54  -21.03   -0.54  -21.03  -25.12 -125.78
    9.31  -25.88 -125.82   -0.56  -21.27   -0.56  -21.27  -25.88 -125.82
    9.37  -26.59 -127.85   -0.57  -21.49   -0.57  -21.49  -26.59 -127.85
    9.44  -27.38 -130.78   -0.59  -21.88   -0.59  -21.88  -27.38 -130.78
    9.50  -28.10 -133.29   -0.58  -22.17   -0.58  -22.17  -28.10 -133.29
    9.56  -29.03 -135.96   -0.59  -22.56   -0.59  -22.56  -29.03 -135.96
    9.62  -30.09 -140.17   -0.59  -22.97   -0.59  -22.97  -30.09 -140.17
    9.68  -31.43 -148.36   -0.61  -23.26   -0.61  -23.26  -31.43 -148.36
    9.74  -32.60 -157.15   -0.61  -23.73   -0.61  -23.73  -32.60 -157.15
    9.81  -34.52 -166.83   -0.61  -24.10   -0.61  -24.10  -34.52 -166.83
    9.87  -36.55  177.46   -0.65  -24.34   -0.65  -24.34  -36.55  177.46
    9.93  -37.52  154.40   -0.62  -24.68   -0.62  -24.68  -37.52  154.40
    9.99  -36.87  136.28   -0.65  -25.03   -0.65  -25.03  -36.87  136.28
   10.05  -35.29  112.30   -0.66  -25.43   -0.66  -25.43  -35.29  112.30
   10.12  -33.91   97.31   -0.68  -25.89   -0.68  -25.89  -33.91   97.31
   10.18  -31.99   85.45   -0.68  -26.37   -0.68  -26.37  -31.99   85.45
   10.24  -30.61   79.61   -0.70  -26.75   -0.70  -26.75  -30.61   79.61
   10.30  -28.94   77.15   -0.75  -27.21   -0.75  -27.21  -28.94   77.15
   10.36  -27.70   71.21   -0.79  -27.77   -0.79  -27.77  -27.70   71.21
   10.42  -26.30   68.56   -0.81  -28.21   -0.81  -28.21  -26.30   68.56
   10.49  -25.07   65.87   -0.82  -28.64   -0.82  -28.64  -25.07   65.87
   10.55  -24.11   64.49   -0.85  -29.04   -0.85  -29.04  -24.11   64.49
   10.61  -23.02   61.85   -0.91  -29.39   -0.91  -29.39  -23.02   61.85
   10.67  -21.88   61.36   -0.98  -29.77   -0.98  -29.77  -21.88   61.36
   10.73  -20.96   58.43   -1.00  -30.10   -1.00  -30.10  -20.96   58.43
   10.79  -19.93   56.55   -1.09  -30.55   -1.09  -30.55  -19.93   56.55
   10.86  -19.11   52.83   -1.12  -30.69   -1.12  -30.69  -19.11   52.83
   10.92  -18.48   51.22   -1.17  -30.85   -1.17  -30.85  -18.48   51.22
   10.98  -17.70   49.60   -1.21  -31.14   -1.21  -31.14  -17.70   49.60
   11.04  -16.92   47.47   -1.24  -31.54   -1.24  -31.54  -16.92   47.47
   11.10  -16.37   45.11   -1.27  -31.64   -1.27  -31.64  -16.37   45.11
   11.17  -15.72   43.36   -1.29  -32.09   -1.29  -32.09  -15.72   43.36
   11.23  -15.01   41.25   -1.39  -32.31   -1.39  -32.31  -15.01   41.25
   11.29  -14.56   39.07   -1.35  -32.64   -1.35  -32.64  -14.56   39.07
   11.35  -14.04   36.27   -1.40  -32.97   -1.40  -32.97  -14.04   36.27
   11.41  -13.50   34.28   -1.41  -33.41   -1.41  -33.41  -13.50   34.28
   11.47  -13.06   32.03   -1.49  -33.64   -1.49  -33.64  -13.06   32.03
   11.54  -12.70   29.71   -1.53  -34.30   -1.53  -34.30  -12.70   29.71
   11.60  -12.37   28.09   -1.55  -34.55   -1.55  -34.55  -12.37   28.09
   11.66  -11.93   26.52   -1.61  -34.98   -1.61  -34.98  -11.93   26.52
   11.72  -11.48   24.46   -1.66  -35.28   -1.66  -35.28  -11.48   24.46
   11.78  -11.18   22.69   -1.70  -36.33   -1.70  -36.33  -11.18   22.69
   11.84  -10.74   20.66   -1.80  -36.88   -1.80  -36.88  -10.74   20.66
   11.91  -10.39   18.27   -1.84  -37.42   -1.84  -37.42  -10.39   18.27
   11.97   -9.96   16.68   -1.97  -38.26   -1.97  -38.26   -9.96   16.68
   12.03   -9.69   14.12   -2.14  -39.10   -2.14  -39.10   -9.69   14.12
   12.09   -9.24   10.92   -2.21  -40.26   -2.21  -40.26   -9.24   10.92
   12.15   -8.80    7.89   -2.42  -41.40   -2.42  -41.40   -8.80    7.89
   12.21   -8.31    4.82   -2.70  -42.17   -2.70  -42.17   -8.31    4.82
   12.28   -8.10   -0.25   -3.06  -43.60   -3.06  -43.60   -8.10   -0.25
   12.34   -7.64   -6.16   -3.58  -44.35   -3.58  -44.35   -7.64   -6.16
   12.40   -7.47  -13.17   -4.33  -44.10   -4.33  -44.10   -7.47  -13.17
