!  American Technical Ceramics  Date:    3/13/98
!  One Norden Lane
!  Huntington Station,  NY.   11746-2102
!  Tel:  (516) 547-5700               Fax:  (516) 547-5748
!  Part Number  700B181F
!  Description: Porcelain, High Q, Low ESR
!  Application: Bypass, Coupling, Timing, Feedback
!               Tuning, Impedance Match, Blocking
# GHZ S DB R 50
! Freq   |S11|   S11 Ph  |S21|   S21 Ph  |S12|   S12 Ph  |S22|   S22 Ph
    0.05  -14.78  -80.25   -0.15   10.16   -0.15   10.16  -14.78  -80.25
    0.07  -17.71  -82.87   -0.10    7.22   -0.10    7.22  -17.71  -82.87
    0.09  -19.87  -84.72   -0.05    5.49   -0.05    5.49  -19.87  -84.72
    0.11  -21.24  -86.26   -0.03    4.47   -0.03    4.47  -21.24  -86.26
    0.13  -22.64  -87.03   -0.01    3.51   -0.01    3.51  -22.64  -87.03
    0.15  -23.84  -87.52   -0.01    3.18   -0.01    3.18  -23.84  -87.52
    0.17  -24.58  -88.17    0.00    2.52    0.00    2.52  -24.58  -88.17
    0.19  -25.54  -87.34   -0.01    2.42   -0.01    2.42  -25.54  -87.34
    0.21  -26.10  -88.98   -0.02    2.03   -0.02    2.03  -26.10  -88.98
    0.23  -26.59  -88.78    0.00    1.63    0.00    1.63  -26.59  -88.78
    0.25  -27.18  -88.87   -0.01    1.65   -0.01    1.65  -27.18  -88.87
    0.27  -27.57  -88.67   -0.01    1.37   -0.01    1.37  -27.57  -88.67
    0.29  -27.99  -90.06    0.00    1.20    0.00    1.20  -27.99  -90.06
    0.31  -28.23  -89.87    0.00    1.00    0.00    1.00  -28.23  -89.87
    0.33  -28.48  -89.66    0.00    0.74    0.00    0.74  -28.48  -89.66
    0.35  -28.64  -89.48    0.01    0.68    0.01    0.68  -28.64  -89.48
    0.37  -28.83  -90.14    0.00    0.48    0.00    0.48  -28.83  -90.14
    0.39  -28.97  -90.31    0.00    0.32    0.00    0.32  -28.97  -90.31
    0.41  -29.18  -90.28    0.00    0.34    0.00    0.34  -29.18  -90.28
    0.43  -29.16  -90.87   -0.01    0.18   -0.01    0.18  -29.16  -90.87
    0.45  -29.27  -91.16    0.00    0.15    0.00    0.15  -29.27  -91.16
    0.46  -29.30  -91.16    0.01    0.01    0.01    0.01  -29.30  -91.16
    0.48  -29.36  -91.03   -0.01   -0.05   -0.01   -0.05  -29.36  -91.03
    0.50  -29.25  -92.32   -0.03   -0.31   -0.03   -0.31  -29.25  -92.32
    0.52  -29.29  -92.72   -0.01   -0.39   -0.01   -0.39  -29.29  -92.72
    0.54  -29.19  -92.66   -0.01   -0.40   -0.01   -0.40  -29.19  -92.66
    0.56  -29.19  -93.05   -0.01   -0.42   -0.01   -0.42  -29.19  -93.05
    0.58  -29.15  -93.72   -0.01   -0.61   -0.01   -0.61  -29.15  -93.72
    0.60  -29.04  -93.91   -0.02   -0.68   -0.02   -0.68  -29.04  -93.91
    0.62  -28.98  -93.60   -0.02   -0.82   -0.02   -0.82  -28.98  -93.60
    0.64  -28.96  -93.42   -0.01   -0.74   -0.01   -0.74  -28.96  -93.42
    0.66  -28.86  -94.20    0.01   -1.05    0.01   -1.05  -28.86  -94.20
    0.68  -28.75  -94.47   -0.02   -0.96   -0.02   -0.96  -28.75  -94.47
    0.70  -28.73  -93.96   -0.01   -1.04   -0.01   -1.04  -28.73  -93.96
    0.72  -28.65  -94.77   -0.02   -1.19   -0.02   -1.19  -28.65  -94.77
    0.74  -28.48  -95.38   -0.02   -1.08   -0.02   -1.08  -28.48  -95.38
    0.76  -28.44  -95.21   -0.01   -1.21   -0.01   -1.21  -28.44  -95.21
    0.78  -28.39  -95.46   -0.02   -1.29   -0.02   -1.29  -28.39  -95.46
    0.80  -28.28  -95.46   -0.02   -1.40   -0.02   -1.40  -28.28  -95.46
    0.82  -28.17  -96.22    0.00   -1.54    0.00   -1.54  -28.17  -96.22
    0.84  -28.08  -96.01   -0.02   -1.42   -0.02   -1.42  -28.08  -96.01
    0.86  -28.03  -96.16   -0.02   -1.64   -0.02   -1.64  -28.03  -96.16
    0.88  -27.87  -96.49   -0.01   -1.61   -0.01   -1.61  -27.87  -96.49
    0.90  -27.75  -96.59   -0.02   -1.67   -0.02   -1.67  -27.75  -96.59
    0.92  -27.65  -96.75   -0.01   -1.67   -0.01   -1.67  -27.65  -96.75
    0.94  -27.62  -97.22   -0.02   -1.78   -0.02   -1.78  -27.62  -97.22
    0.96  -27.46  -97.72   -0.01   -1.83   -0.01   -1.83  -27.46  -97.72
    0.98  -27.42  -97.80   -0.03   -1.87   -0.03   -1.87  -27.42  -97.80
    1.00  -27.34  -97.88   -0.02   -2.12   -0.02   -2.12  -27.34  -97.88
    1.02  -27.25  -98.18   -0.01   -2.18   -0.01   -2.18  -27.25  -98.18
    1.04  -27.17  -97.96   -0.02   -2.15   -0.02   -2.15  -27.17  -97.96
    1.06  -27.06  -98.12   -0.02   -2.16   -0.02   -2.16  -27.06  -98.12
    1.08  -26.97  -98.43   -0.03   -2.14   -0.03   -2.14  -26.97  -98.43
    1.10  -26.88  -98.75   -0.01   -2.30   -0.01   -2.30  -26.88  -98.75
    1.12  -26.80  -98.82   -0.01   -2.45   -0.01   -2.45  -26.80  -98.82
    1.14  -26.67  -99.18   -0.03   -2.34   -0.03   -2.34  -26.67  -99.18
    1.16  -26.57  -99.54   -0.02   -2.44   -0.02   -2.44  -26.57  -99.54
    1.18  -26.50  -99.75   -0.02   -2.54   -0.02   -2.54  -26.50  -99.75
    1.20  -26.46 -100.61   -0.03   -2.51   -0.03   -2.51  -26.46 -100.61
    1.22  -26.38  -99.73   -0.03   -2.63   -0.03   -2.63  -26.38  -99.73
    1.24  -26.34  -99.97   -0.02   -2.82   -0.02   -2.82  -26.34  -99.97
    1.25  -26.29 -100.37   -0.03   -2.84   -0.03   -2.84  -26.29 -100.37
    1.27  -26.28 -100.12   -0.02   -2.95   -0.02   -2.95  -26.28 -100.12
    1.29  -26.16 -100.52   -0.04   -2.95   -0.04   -2.95  -26.16 -100.52
    1.31  -26.11 -100.96   -0.03   -2.93   -0.03   -2.93  -26.11 -100.96
    1.33  -26.06 -101.22   -0.03   -3.13   -0.03   -3.13  -26.06 -101.22
    1.35  -26.04 -101.52   -0.02   -3.18   -0.02   -3.18  -26.04 -101.52
    1.37  -25.99 -101.57   -0.03   -3.25   -0.03   -3.25  -25.99 -101.57
    1.39  -26.01 -101.38   -0.03   -3.51   -0.03   -3.51  -26.01 -101.38
    1.41  -26.03 -101.46   -0.03   -3.49   -0.03   -3.49  -26.03 -101.46
    1.43  -26.06 -101.76   -0.03   -3.53   -0.03   -3.53  -26.06 -101.76
    1.45  -26.13 -102.63   -0.03   -3.65   -0.03   -3.65  -26.13 -102.63
    1.47  -26.28 -102.61   -0.04   -3.72   -0.04   -3.72  -26.28 -102.61
    1.49  -26.50 -102.67   -0.03   -3.83   -0.03   -3.83  -26.50 -102.67
    1.51  -26.76 -102.30   -0.03   -4.18   -0.03   -4.18  -26.76 -102.30
    1.53  -27.12 -101.94   -0.04   -4.46   -0.04   -4.46  -27.12 -101.94
    1.55  -27.68 -101.25   -0.05   -4.55   -0.05   -4.55  -27.68 -101.25
    1.57  -28.70  -98.83   -0.06   -4.91   -0.06   -4.91  -28.70  -98.83
    1.59  -30.81  -91.43   -0.10   -5.48   -0.10   -5.48  -30.81  -91.43
    1.61  -33.48  -60.08   -0.17   -6.36   -0.17   -6.36  -33.48  -60.08
    1.63  -27.44   -9.34   -0.43   -7.29   -0.43   -7.29  -27.44   -9.34
    1.65  -18.58  -25.23   -1.10   -6.13   -1.10   -6.13  -18.58  -25.23
    1.67  -16.67  -65.51   -0.87   -0.08   -0.87   -0.08  -16.67  -65.51
    1.69  -18.02  -84.81   -0.36   -0.34   -0.36   -0.34  -18.02  -84.81
    1.71  -19.10  -92.15   -0.21   -1.17   -0.21   -1.17  -19.10  -92.15
    1.73  -19.73  -95.72   -0.13   -1.92   -0.13   -1.92  -19.73  -95.72
    1.75  -20.23  -98.02   -0.10   -2.31   -0.10   -2.31  -20.23  -98.02
    1.77  -20.56  -99.45   -0.09   -2.45   -0.09   -2.45  -20.56  -99.45
    1.79  -20.75 -100.38   -0.09   -2.80   -0.09   -2.80  -20.75 -100.38
    1.81  -20.84 -100.73   -0.07   -2.99   -0.07   -2.99  -20.84 -100.73
    1.83  -20.95 -101.50   -0.07   -2.98   -0.07   -2.98  -20.95 -101.50
    1.85  -21.06 -102.22   -0.06   -3.10   -0.06   -3.10  -21.06 -102.22
    1.87  -21.09 -102.47   -0.07   -3.25   -0.07   -3.25  -21.09 -102.47
    1.89  -21.11 -102.61   -0.06   -3.32   -0.06   -3.32  -21.11 -102.61
    1.91  -21.10 -102.98   -0.06   -3.48   -0.06   -3.48  -21.10 -102.98
    1.93  -21.11 -103.13   -0.06   -3.60   -0.06   -3.60  -21.11 -103.13
    1.95  -21.11 -103.62   -0.07   -3.71   -0.07   -3.71  -21.11 -103.62
    1.97  -21.07 -103.89   -0.05   -3.82   -0.05   -3.82  -21.07 -103.89
    1.99  -21.07 -103.83   -0.06   -3.82   -0.06   -3.82  -21.07 -103.83
    2.01  -21.09 -104.03   -0.05   -3.97   -0.05   -3.97  -21.09 -104.03
    2.03  -21.02 -104.21   -0.06   -3.94   -0.06   -3.94  -21.02 -104.21
    2.04  -20.95 -104.51   -0.07   -4.05   -0.07   -4.05  -20.95 -104.51
    2.06  -20.91 -104.83   -0.06   -4.16   -0.06   -4.16  -20.91 -104.83
    2.08  -20.91 -104.73   -0.08   -4.15   -0.08   -4.15  -20.91 -104.73
    2.10  -20.86 -105.11   -0.06   -4.29   -0.06   -4.29  -20.86 -105.11
    2.12  -20.76 -104.91   -0.07   -4.42   -0.07   -4.42  -20.76 -104.91
    2.14  -20.73 -105.15   -0.06   -4.35   -0.06   -4.35  -20.73 -105.15
    2.16  -20.73 -105.40   -0.07   -4.43   -0.07   -4.43  -20.73 -105.40
    2.18  -20.65 -105.64   -0.07   -4.51   -0.07   -4.51  -20.65 -105.64
    2.20  -20.60 -105.62   -0.08   -4.52   -0.08   -4.52  -20.60 -105.62
    2.22  -20.54 -105.78   -0.07   -4.55   -0.07   -4.55  -20.54 -105.78
    2.24  -20.46 -106.00   -0.06   -4.78   -0.06   -4.78  -20.46 -106.00
    2.26  -20.49 -106.29   -0.07   -4.61   -0.07   -4.61  -20.49 -106.29
    2.28  -20.38 -106.24   -0.07   -4.82   -0.07   -4.82  -20.38 -106.24
    2.30  -20.28 -106.34   -0.07   -4.81   -0.07   -4.81  -20.28 -106.34
    2.32  -20.25 -106.66   -0.08   -4.96   -0.08   -4.96  -20.25 -106.66
    2.34  -20.28 -106.75   -0.09   -4.89   -0.09   -4.89  -20.28 -106.75
    2.36  -20.25 -106.87   -0.07   -5.06   -0.07   -5.06  -20.25 -106.87
    2.38  -20.18 -106.98   -0.07   -4.96   -0.07   -4.96  -20.18 -106.98
    2.40  -20.11 -107.13   -0.09   -4.90   -0.09   -4.90  -20.11 -107.13
    2.42  -20.05 -106.95   -0.08   -5.13   -0.08   -5.13  -20.05 -106.95
    2.44  -19.99 -107.48   -0.08   -5.26   -0.08   -5.26  -19.99 -107.48
    2.46  -19.96 -107.28   -0.07   -5.22   -0.07   -5.22  -19.96 -107.28
    2.48  -19.91 -107.32   -0.09   -5.51   -0.09   -5.51  -19.91 -107.32
    2.50  -19.84 -107.42   -0.08   -5.47   -0.08   -5.47  -19.84 -107.42
    2.52  -19.81 -107.87   -0.09   -5.34   -0.09   -5.34  -19.81 -107.87
    2.54  -19.77 -107.85   -0.09   -5.37   -0.09   -5.37  -19.77 -107.85
    2.56  -19.73 -108.05   -0.10   -5.41   -0.10   -5.41  -19.73 -108.05
    2.58  -19.73 -107.98   -0.10   -5.56   -0.10   -5.56  -19.73 -107.98
    2.60  -19.66 -108.14   -0.08   -5.83   -0.08   -5.83  -19.66 -108.14
    2.62  -19.64 -108.61   -0.11   -5.86   -0.11   -5.86  -19.64 -108.61
    2.64  -19.56 -108.32   -0.10   -5.72   -0.10   -5.72  -19.56 -108.32
    2.66  -19.54 -108.45   -0.09   -5.85   -0.09   -5.85  -19.54 -108.45
    2.68  -19.51 -108.41   -0.10   -5.97   -0.10   -5.97  -19.51 -108.41
    2.70  -19.49 -108.38   -0.10   -6.03   -0.10   -6.03  -19.49 -108.38
    2.72  -19.44 -108.80   -0.11   -6.10   -0.11   -6.10  -19.44 -108.80
    2.74  -19.48 -108.82   -0.10   -6.15   -0.10   -6.15  -19.48 -108.82
    2.76  -19.44 -108.86   -0.11   -6.25   -0.11   -6.25  -19.44 -108.86
    2.78  -19.43 -109.05   -0.10   -6.37   -0.10   -6.37  -19.43 -109.05
    2.80  -19.37 -108.91   -0.10   -6.43   -0.10   -6.43  -19.37 -108.91
    2.82  -19.39 -108.69   -0.12   -6.30   -0.12   -6.30  -19.39 -108.69
    2.83  -19.41 -108.67   -0.10   -6.53   -0.10   -6.53  -19.41 -108.67
    2.85  -19.43 -108.77   -0.12   -6.59   -0.12   -6.59  -19.43 -108.77
    2.87  -19.42 -108.87   -0.11   -6.75   -0.11   -6.75  -19.42 -108.87
    2.89  -19.45 -108.78   -0.12   -6.76   -0.12   -6.76  -19.45 -108.78
    2.91  -19.54 -108.65   -0.11   -7.00   -0.11   -7.00  -19.54 -108.65
    2.93  -19.68 -108.45   -0.15   -7.22   -0.15   -7.22  -19.68 -108.45
    2.95  -19.77 -107.64   -0.16   -7.25   -0.16   -7.25  -19.77 -107.64
    2.97  -19.96 -106.49   -0.17   -7.51   -0.17   -7.51  -19.96 -106.49
    2.99  -20.20 -104.42   -0.19   -7.83   -0.19   -7.83  -20.20 -104.42
    3.01  -20.39 -100.69   -0.26   -8.00   -0.26   -8.00  -20.39 -100.69
    3.03  -20.34  -94.87   -0.34   -8.24   -0.34   -8.24  -20.34  -94.87
    3.05  -19.53  -87.38   -0.47   -7.92   -0.47   -7.92  -19.53  -87.38
    3.07  -18.05  -85.95   -0.58   -7.30   -0.58   -7.30  -18.05  -85.95
    3.09  -16.90  -90.71   -0.55   -6.07   -0.55   -6.07  -16.90  -90.71
    3.11  -16.51  -96.50   -0.45   -5.49   -0.45   -5.49  -16.51  -96.50
    3.13  -16.46 -100.17   -0.33   -5.31   -0.33   -5.31  -16.46 -100.17
    3.15  -16.54 -102.86   -0.28   -5.49   -0.28   -5.49  -16.54 -102.86
    3.17  -16.65 -104.64   -0.24   -5.51   -0.24   -5.51  -16.65 -104.64
    3.19  -16.77 -105.91   -0.24   -5.86   -0.24   -5.86  -16.77 -105.91
    3.21  -16.81 -106.30   -0.21   -5.91   -0.21   -5.91  -16.81 -106.30
    3.23  -16.83 -107.26   -0.19   -6.13   -0.19   -6.13  -16.83 -107.26
    3.25  -16.89 -107.76   -0.17   -6.34   -0.17   -6.34  -16.89 -107.76
    3.27  -16.90 -108.07   -0.18   -6.33   -0.18   -6.33  -16.90 -108.07
    3.29  -16.91 -108.37   -0.17   -6.46   -0.17   -6.46  -16.91 -108.37
    3.31  -16.91 -108.57   -0.17   -6.50   -0.17   -6.50  -16.91 -108.57
    3.33  -16.92 -108.92   -0.17   -6.65   -0.17   -6.65  -16.92 -108.92
    3.35  -16.93 -108.89   -0.18   -6.69   -0.18   -6.69  -16.93 -108.89
    3.37  -16.88 -109.20   -0.18   -6.79   -0.18   -6.79  -16.88 -109.20
    3.39  -16.86 -108.93   -0.18   -6.86   -0.18   -6.86  -16.86 -108.93
    3.41  -16.85 -109.29   -0.18   -6.82   -0.18   -6.82  -16.85 -109.29
    3.43  -16.86 -109.65   -0.17   -7.03   -0.17   -7.03  -16.86 -109.65
    3.45  -16.87 -109.65   -0.18   -7.09   -0.18   -7.09  -16.87 -109.65
    3.47  -16.80 -109.55   -0.19   -7.10   -0.19   -7.10  -16.80 -109.55
    3.49  -16.81 -109.82   -0.17   -7.25   -0.17   -7.25  -16.81 -109.82
    3.51  -16.76 -109.84   -0.18   -7.18   -0.18   -7.18  -16.76 -109.84
    3.53  -16.70 -110.05   -0.17   -7.38   -0.17   -7.38  -16.70 -110.05
    3.55  -16.68 -109.95   -0.18   -7.33   -0.18   -7.33  -16.68 -109.95
    3.57  -16.66 -109.98   -0.19   -7.38   -0.19   -7.38  -16.66 -109.98
    3.59  -16.62 -110.09   -0.18   -7.35   -0.18   -7.35  -16.62 -110.09
    3.61  -16.60 -110.24   -0.18   -7.70   -0.18   -7.70  -16.60 -110.24
    3.62  -16.56 -110.41   -0.17   -7.56   -0.17   -7.56  -16.56 -110.41
    3.64  -16.55 -110.29   -0.18   -7.50   -0.18   -7.50  -16.55 -110.29
    3.66  -16.54 -110.43   -0.18   -7.71   -0.18   -7.71  -16.54 -110.43
    3.68  -16.51 -110.50   -0.18   -7.89   -0.18   -7.89  -16.51 -110.50
    3.70  -16.43 -110.36   -0.20   -7.76   -0.20   -7.76  -16.43 -110.36
    3.72  -16.38 -110.43   -0.20   -7.97   -0.20   -7.97  -16.38 -110.43
    3.74  -16.38 -110.52   -0.19   -8.06   -0.19   -8.06  -16.38 -110.52
    3.76  -16.33 -110.66   -0.19   -8.02   -0.19   -8.02  -16.33 -110.66
    3.78  -16.34 -110.81   -0.20   -8.15   -0.20   -8.15  -16.34 -110.81
    3.80  -16.33 -110.70   -0.20   -8.06   -0.20   -8.06  -16.33 -110.70
    3.82  -16.24 -110.50   -0.21   -8.23   -0.21   -8.23  -16.24 -110.50
    3.84  -16.25 -110.62   -0.20   -8.14   -0.20   -8.14  -16.25 -110.62
    3.86  -16.19 -110.69   -0.21   -8.37   -0.21   -8.37  -16.19 -110.69
    3.88  -16.12 -110.72   -0.22   -8.31   -0.22   -8.31  -16.12 -110.72
    3.90  -16.09 -110.50   -0.21   -8.40   -0.21   -8.40  -16.09 -110.50
    3.92  -16.07 -110.79   -0.21   -8.39   -0.21   -8.39  -16.07 -110.79
    3.94  -16.05 -110.75   -0.22   -8.54   -0.22   -8.54  -16.05 -110.75
    3.96  -15.99 -110.66   -0.22   -8.46   -0.22   -8.46  -15.99 -110.66
    3.98  -15.93 -110.74   -0.22   -8.74   -0.22   -8.74  -15.93 -110.74
    4.00  -16.24 -112.67   -0.19   -8.77   -0.19   -8.77  -16.24 -112.67
