!Murata Part Number: GRM43D7U2J153JW31
!These Parameters are Measured in Series Mode Connection
!Data Generated on Mar 30, 2021
!       o--ll--o
!Port1            Port2
!       o------o
!Operation Temp=25[degC], DC Bias Voltage=0[V]
!Freq. Start=1000[kHz] Stop=3[GHz] 401[Steps]
# Hz S RI R 50
!Freq.(Hz) S11(Real) S11(Imag) S21(Real) S21(Imag) S12(Real) S12(Imag) S22(Real) S22(Imag)
1000000 0.0119432 -0.1084007 0.9880568 0.1084007 0.9880568 0.1084007 0.0119432 -0.1084007
1020218 0.0114813 -0.1062998 0.9885187 0.1062998 0.9885187 0.1062998 0.0114813 -0.1062998
1040844 0.0110372 -0.1042376 0.9889628 0.1042376 0.9889628 0.1042376 0.0110372 -0.1042376
1061887 0.0106101 -0.1022135 0.9893899 0.1022135 0.9893899 0.1022135 0.0106101 -0.1022135
1083356 0.0101994 -0.1002269 0.9898006 0.1002269 0.9898006 0.1002269 0.0101994 -0.1002269
1105259 0.0098045 -0.0982773 0.9901955 0.0982773 0.9901955 0.0982773 0.0098045 -0.0982773
1127605 0.0094248 -0.0963639 0.9905752 0.0963639 0.9905752 0.0963639 0.0094248 -0.0963639
1150402 0.0090598 -0.0944864 0.9909402 0.0944864 0.9909402 0.0944864 0.0090598 -0.0944864
1173660 0.0087088 -0.0926439 0.9912912 0.0926439 0.9912912 0.0926439 0.0087088 -0.0926439
1197389 0.0083713 -0.0908360 0.9916287 0.0908360 0.9916287 0.0908360 0.0083713 -0.0908360
1221597 0.0080469 -0.0890621 0.9919531 0.0890621 0.9919531 0.0890621 0.0080469 -0.0890621
1246295 0.0077350 -0.0873216 0.9922650 0.0873216 0.9922650 0.0873216 0.0077350 -0.0873216
1271492 0.0074352 -0.0856140 0.9925648 0.0856140 0.9925648 0.0856140 0.0074352 -0.0856140
1297199 0.0071469 -0.0839387 0.9928531 0.0839387 0.9928531 0.0839387 0.0071469 -0.0839387
1323425 0.0068698 -0.0822950 0.9931302 0.0822950 0.9931302 0.0822950 0.0068698 -0.0822950
1350181 0.0066035 -0.0806826 0.9933965 0.0806826 0.9933965 0.0806826 0.0066035 -0.0806826
1377479 0.0063474 -0.0791008 0.9936526 0.0791008 0.9936526 0.0791008 0.0063474 -0.0791008
1405328 0.0061013 -0.0775491 0.9938987 0.0775491 0.9938987 0.0775491 0.0061013 -0.0775491
1433740 0.0058648 -0.0760269 0.9941352 0.0760269 0.9941352 0.0760269 0.0058648 -0.0760269
1462727 0.0056374 -0.0745338 0.9943626 0.0745338 0.9943626 0.0745338 0.0056374 -0.0745338
1492300 0.0054188 -0.0730692 0.9945812 0.0730692 0.9945812 0.0730692 0.0054188 -0.0730692
1522470 0.0052087 -0.0716327 0.9947913 0.0716327 0.9947913 0.0716327 0.0052087 -0.0716327
1553251 0.0050068 -0.0702237 0.9949932 0.0702237 0.9949932 0.0702237 0.0050068 -0.0702237
1584654 0.0048127 -0.0688417 0.9951873 0.0688417 0.9951873 0.0688417 0.0048127 -0.0688417
1616692 0.0046262 -0.0674862 0.9953738 0.0674862 0.9953738 0.0674862 0.0046262 -0.0674862
1649378 0.0044469 -0.0661568 0.9955531 0.0661568 0.9955531 0.0661568 0.0044469 -0.0661568
1682724 0.0042746 -0.0648529 0.9957254 0.0648529 0.9957254 0.0648529 0.0042746 -0.0648529
1716745 0.0041090 -0.0635741 0.9958910 0.0635741 0.9958910 0.0635741 0.0041090 -0.0635741
1751453 0.0039499 -0.0623200 0.9960501 0.0623200 0.9960501 0.0623200 0.0039499 -0.0623200
1786863 0.0037970 -0.0610901 0.9962030 0.0610901 0.9962030 0.0610901 0.0037970 -0.0610901
1822989 0.0036500 -0.0598839 0.9963500 0.0598839 0.9963500 0.0598839 0.0036500 -0.0598839
1859846 0.0035087 -0.0587011 0.9964913 0.0587011 0.9964913 0.0587011 0.0035087 -0.0587011
1897447 0.0033730 -0.0575410 0.9966270 0.0575410 0.9966270 0.0575410 0.0033730 -0.0575410
1935809 0.0032425 -0.0564035 0.9967575 0.0564035 0.9967575 0.0564035 0.0032425 -0.0564035
1974946 0.0031171 -0.0552879 0.9968829 0.0552879 0.9968829 0.0552879 0.0031171 -0.0552879
2014875 0.0029967 -0.0541940 0.9970033 0.0541940 0.9970033 0.0541940 0.0029967 -0.0541940
2055611 0.0028809 -0.0531212 0.9971191 0.0531212 0.9971191 0.0531212 0.0028809 -0.0531212
2097170 0.0027696 -0.0520693 0.9972304 0.0520693 0.9972304 0.0520693 0.0027696 -0.0520693
2139570 0.0026627 -0.0510377 0.9973373 0.0510377 0.9973373 0.0510377 0.0026627 -0.0510377
2182827 0.0025600 -0.0500262 0.9974400 0.0500262 0.9974400 0.0500262 0.0025600 -0.0500262
2226959 0.0024613 -0.0490343 0.9975387 0.0490343 0.9975387 0.0490343 0.0024613 -0.0490343
2271982 0.0023664 -0.0480617 0.9976336 0.0480617 0.9976336 0.0480617 0.0023664 -0.0480617
2317916 0.0022752 -0.0471080 0.9977248 0.0471080 0.9977248 0.0471080 0.0022752 -0.0471080
2364779 0.0021877 -0.0461728 0.9978123 0.0461728 0.9978123 0.0461728 0.0021877 -0.0461728
2412589 0.0021035 -0.0452558 0.9978965 0.0452558 0.9978965 0.0452558 0.0021035 -0.0452558
2461366 0.0020226 -0.0443566 0.9979774 0.0443566 0.9979774 0.0443566 0.0020226 -0.0443566
2511129 0.0019449 -0.0434749 0.9980551 0.0434749 0.9980551 0.0434749 0.0019449 -0.0434749
2561897 0.0018702 -0.0426104 0.9981298 0.0426104 0.9981298 0.0426104 0.0018702 -0.0426104
2613693 0.0017985 -0.0417626 0.9982015 0.0417626 0.9982015 0.0417626 0.0017985 -0.0417626
2666535 0.0017295 -0.0409314 0.9982705 0.0409314 0.9982705 0.0409314 0.0017295 -0.0409314
2720446 0.0016633 -0.0401164 0.9983367 0.0401164 0.9983367 0.0401164 0.0016633 -0.0401164
2775447 0.0015997 -0.0393172 0.9984003 0.0393172 0.9984003 0.0393172 0.0015997 -0.0393172
2831560 0.0015385 -0.0385336 0.9984615 0.0385336 0.9984615 0.0385336 0.0015385 -0.0385336
2888807 0.0014798 -0.0377652 0.9985202 0.0377652 0.9985202 0.0377652 0.0014798 -0.0377652
2947212 0.0014233 -0.0370118 0.9985767 0.0370118 0.9985767 0.0370118 0.0014233 -0.0370118
3006797 0.0013691 -0.0362730 0.9986309 0.0362730 0.9986309 0.0362730 0.0013691 -0.0362730
3067588 0.0013169 -0.0355487 0.9986831 0.0355487 0.9986831 0.0355487 0.0013169 -0.0355487
3129607 0.0012669 -0.0348384 0.9987331 0.0348384 0.9987331 0.0348384 0.0012669 -0.0348384
3192880 0.0012188 -0.0341419 0.9987812 0.0341419 0.9987812 0.0341419 0.0012188 -0.0341419
3257432 0.0011726 -0.0334590 0.9988274 0.0334590 0.9988274 0.0334590 0.0011726 -0.0334590
3323290 0.0011281 -0.0327894 0.9988719 0.0327894 0.9988719 0.0327894 0.0011281 -0.0327894
3390478 0.0010855 -0.0321328 0.9989145 0.0321328 0.9989145 0.0321328 0.0010855 -0.0321328
3459026 0.0010445 -0.0314890 0.9989555 0.0314890 0.9989555 0.0314890 0.0010445 -0.0314890
3528959 0.0010051 -0.0308577 0.9989949 0.0308577 0.9989949 0.0308577 0.0010051 -0.0308577
3600306 0.0009673 -0.0302386 0.9990327 0.0302386 0.9990327 0.0302386 0.0009673 -0.0302386
3673095 0.0009310 -0.0296316 0.9990690 0.0296316 0.9990690 0.0296316 0.0009310 -0.0296316
3747356 0.0008960 -0.0290364 0.9991040 0.0290364 0.9991040 0.0290364 0.0008960 -0.0290364
3823119 0.0008625 -0.0284527 0.9991375 0.0284527 0.9991375 0.0284527 0.0008625 -0.0284527
3900413 0.0008303 -0.0278803 0.9991697 0.0278803 0.9991697 0.0278803 0.0008303 -0.0278803
3979270 0.0007993 -0.0273191 0.9992007 0.0273191 0.9992007 0.0273191 0.0007993 -0.0273191
4059721 0.0007696 -0.0267687 0.9992304 0.0267687 0.9992304 0.0267687 0.0007696 -0.0267687
4141799 0.0007411 -0.0262290 0.9992589 0.0262290 0.9992589 0.0262290 0.0007411 -0.0262290
4225536 0.0007136 -0.0256997 0.9992864 0.0256997 0.9992864 0.0256997 0.0007136 -0.0256997
4310966 0.0006873 -0.0251807 0.9993127 0.0251807 0.9993127 0.0251807 0.0006873 -0.0251807
4398124 0.0006620 -0.0246717 0.9993380 0.0246717 0.9993380 0.0246717 0.0006620 -0.0246717
4487043 0.0006376 -0.0241725 0.9993624 0.0241725 0.9993624 0.0241725 0.0006376 -0.0241725
4577760 0.0006143 -0.0236830 0.9993857 0.0236830 0.9993857 0.0236830 0.0006143 -0.0236830
4670311 0.0005919 -0.0232029 0.9994081 0.0232029 0.9994081 0.0232029 0.0005919 -0.0232029
4764734 0.0005703 -0.0227321 0.9994297 0.0227321 0.9994297 0.0227321 0.0005703 -0.0227321
4861065 0.0005496 -0.0222704 0.9994504 0.0222704 0.9994504 0.0222704 0.0005496 -0.0222704
4959344 0.0005298 -0.0218175 0.9994702 0.0218175 0.9994702 0.0218175 0.0005298 -0.0218175
5059610 0.0005107 -0.0213734 0.9994893 0.0213734 0.9994893 0.0213734 0.0005107 -0.0213734
5161903 0.0004924 -0.0209378 0.9995076 0.0209378 0.9995076 0.0209378 0.0004924 -0.0209378
5266264 0.0004748 -0.0205105 0.9995252 0.0205105 0.9995252 0.0205105 0.0004748 -0.0205105
5372736 0.0004579 -0.0200915 0.9995421 0.0200915 0.9995421 0.0200915 0.0004579 -0.0200915
5481359 0.0004417 -0.0196804 0.9995583 0.0196804 0.9995583 0.0196804 0.0004417 -0.0196804
5592179 0.0004261 -0.0192773 0.9995739 0.0192773 0.9995739 0.0192773 0.0004261 -0.0192773
5705239 0.0004111 -0.0188818 0.9995889 0.0188818 0.9995889 0.0188818 0.0004111 -0.0188818
5820586 0.0003968 -0.0184938 0.9996032 0.0184938 0.9996032 0.0184938 0.0003968 -0.0184938
5938264 0.0003830 -0.0181133 0.9996170 0.0181133 0.9996170 0.0181133 0.0003830 -0.0181133
6058321 0.0003698 -0.0177400 0.9996302 0.0177400 0.9996302 0.0177400 0.0003698 -0.0177400
6180806 0.0003571 -0.0173738 0.9996429 0.0173738 0.9996429 0.0173738 0.0003571 -0.0173738
6305767 0.0003449 -0.0170145 0.9996551 0.0170145 0.9996551 0.0170145 0.0003449 -0.0170145
6433254 0.0003332 -0.0166621 0.9996668 0.0166621 0.9996668 0.0166621 0.0003332 -0.0166621
6563319 0.0003220 -0.0163163 0.9996780 0.0163163 0.9996780 0.0163163 0.0003220 -0.0163163
6696013 0.0003112 -0.0159770 0.9996888 0.0159770 0.9996888 0.0159770 0.0003112 -0.0159770
6831390 0.0003009 -0.0156441 0.9996991 0.0156441 0.9996991 0.0156441 0.0003009 -0.0156441
6969505 0.0002910 -0.0153175 0.9997090 0.0153175 0.9997090 0.0153175 0.0002910 -0.0153175
7110411 0.0002814 -0.0149970 0.9997186 0.0149970 0.9997186 0.0149970 0.0002814 -0.0149970
7254166 0.0002723 -0.0146825 0.9997277 0.0146825 0.9997277 0.0146825 0.0002723 -0.0146825
7400828 0.0002636 -0.0143739 0.9997364 0.0143739 0.9997364 0.0143739 0.0002636 -0.0143739
7550455 0.0002552 -0.0140710 0.9997448 0.0140710 0.9997448 0.0140710 0.0002552 -0.0140710
7703107 0.0002472 -0.0137738 0.9997528 0.0137738 0.9997528 0.0137738 0.0002472 -0.0137738
7858845 0.0002394 -0.0134820 0.9997606 0.0134820 0.9997606 0.0134820 0.0002394 -0.0134820
8017732 0.0002321 -0.0131957 0.9997679 0.0131957 0.9997679 0.0131957 0.0002321 -0.0131957
8179831 0.0002250 -0.0129147 0.9997750 0.0129147 0.9997750 0.0129147 0.0002250 -0.0129147
8345207 0.0002182 -0.0126388 0.9997818 0.0126388 0.9997818 0.0126388 0.0002182 -0.0126388
8513927 0.0002117 -0.0123680 0.9997883 0.0123680 0.9997883 0.0123680 0.0002117 -0.0123680
8686058 0.0002055 -0.0121021 0.9997945 0.0121021 0.9997945 0.0121021 0.0002055 -0.0121021
8861669 0.0001995 -0.0118411 0.9998005 0.0118411 0.9998005 0.0118411 0.0001995 -0.0118411
9040831 0.0001938 -0.0115848 0.9998062 0.0115848 0.9998062 0.0115848 0.0001938 -0.0115848
9223615 0.0001884 -0.0113332 0.9998116 0.0113332 0.9998116 0.0113332 0.0001884 -0.0113332
9410094 0.0001831 -0.0110861 0.9998169 0.0110861 0.9998169 0.0110861 0.0001831 -0.0110861
9600343 0.0001781 -0.0108434 0.9998219 0.0108434 0.9998219 0.0108434 0.0001781 -0.0108434
9794439 0.0001734 -0.0106051 0.9998266 0.0106051 0.9998266 0.0106051 0.0001734 -0.0106051
9992459 0.0001688 -0.0103711 0.9998312 0.0103711 0.9998312 0.0103711 0.0001688 -0.0103711
10194482 0.0001644 -0.0101412 0.9998356 0.0101412 0.9998356 0.0101412 0.0001644 -0.0101412
10400590 0.0001603 -0.0099153 0.9998397 0.0099153 0.9998397 0.0099153 0.0001603 -0.0099153
10610865 0.0001563 -0.0096935 0.9998437 0.0096935 0.9998437 0.0096935 0.0001563 -0.0096935
10825391 0.0001525 -0.0094755 0.9998475 0.0094755 0.9998475 0.0094755 0.0001525 -0.0094755
11044254 0.0001489 -0.0092613 0.9998511 0.0092613 0.9998511 0.0092613 0.0001489 -0.0092613
11267542 0.0001454 -0.0090508 0.9998546 0.0090508 0.9998546 0.0090508 0.0001454 -0.0090508
11495344 0.0001421 -0.0088440 0.9998579 0.0088440 0.9998579 0.0088440 0.0001421 -0.0088440
11727752 0.0001390 -0.0086407 0.9998610 0.0086407 0.9998610 0.0086407 0.0001390 -0.0086407
11964859 0.0001360 -0.0084409 0.9998640 0.0084409 0.9998640 0.0084409 0.0001360 -0.0084409
12206760 0.0001331 -0.0082444 0.9998669 0.0082444 0.9998669 0.0082444 0.0001331 -0.0082444
12453551 0.0001304 -0.0080513 0.9998696 0.0080513 0.9998696 0.0080513 0.0001304 -0.0080513
12705331 0.0001279 -0.0078613 0.9998721 0.0078613 0.9998721 0.0078613 0.0001279 -0.0078613
12962202 0.0001255 -0.0076746 0.9998745 0.0076746 0.9998745 0.0076746 0.0001255 -0.0076746
13224267 0.0001232 -0.0074909 0.9998768 0.0074909 0.9998768 0.0074909 0.0001232 -0.0074909
13491630 0.0001210 -0.0073102 0.9998790 0.0073102 0.9998790 0.0073102 0.0001210 -0.0073102
13764398 0.0001189 -0.0071324 0.9998811 0.0071324 0.9998811 0.0071324 0.0001189 -0.0071324
14042680 0.0001170 -0.0069575 0.9998830 0.0069575 0.9998830 0.0069575 0.0001170 -0.0069575
14326589 0.0001151 -0.0067854 0.9998849 0.0067854 0.9998849 0.0067854 0.0001151 -0.0067854
14616238 0.0001134 -0.0066160 0.9998866 0.0066160 0.9998866 0.0066160 0.0001134 -0.0066160
14911743 0.0001118 -0.0064492 0.9998882 0.0064492 0.9998882 0.0064492 0.0001118 -0.0064492
15213223 0.0001103 -0.0062851 0.9998897 0.0062851 0.9998897 0.0062851 0.0001103 -0.0062851
15520797 0.0001088 -0.0061234 0.9998912 0.0061234 0.9998912 0.0061234 0.0001088 -0.0061234
15834590 0.0001075 -0.0059642 0.9998925 0.0059642 0.9998925 0.0059642 0.0001075 -0.0059642
16154727 0.0001063 -0.0058074 0.9998937 0.0058074 0.9998937 0.0058074 0.0001063 -0.0058074
16481337 0.0001051 -0.0056529 0.9998949 0.0056529 0.9998949 0.0056529 0.0001051 -0.0056529
16814550 0.0001041 -0.0055006 0.9998959 0.0055006 0.9998959 0.0055006 0.0001041 -0.0055006
17154499 0.0001031 -0.0053506 0.9998969 0.0053506 0.9998969 0.0053506 0.0001031 -0.0053506
17501322 0.0001022 -0.0052027 0.9998978 0.0052027 0.9998978 0.0052027 0.0001022 -0.0052027
17855156 0.0001014 -0.0050569 0.9998986 0.0050569 0.9998986 0.0050569 0.0001014 -0.0050569
18216144 0.0001007 -0.0049130 0.9998993 0.0049130 0.9998993 0.0049130 0.0001007 -0.0049130
18584431 0.0001001 -0.0047712 0.9998999 0.0047712 0.9998999 0.0047712 0.0001001 -0.0047712
18960163 0.0000995 -0.0046312 0.9999005 0.0046312 0.9999005 0.0046312 0.0000995 -0.0046312
19343491 0.0000990 -0.0044931 0.9999010 0.0044931 0.9999010 0.0044931 0.0000990 -0.0044931
19734570 0.0000986 -0.0043568 0.9999014 0.0043568 0.9999014 0.0043568 0.0000986 -0.0043568
20133555 0.0000983 -0.0042222 0.9999017 0.0042222 0.9999017 0.0042222 0.0000983 -0.0042222
20540607 0.0000980 -0.0040892 0.9999020 0.0040892 0.9999020 0.0040892 0.0000980 -0.0040892
20955888 0.0000978 -0.0039579 0.9999022 0.0039579 0.9999022 0.0039579 0.0000978 -0.0039579
21379566 0.0000977 -0.0038282 0.9999023 0.0038282 0.9999023 0.0038282 0.0000977 -0.0038282
21811809 0.0000976 -0.0036999 0.9999024 0.0036999 0.9999024 0.0036999 0.0000976 -0.0036999
22252791 0.0000976 -0.0035731 0.9999024 0.0035731 0.9999024 0.0035731 0.0000976 -0.0035731
22702688 0.0000977 -0.0034478 0.9999023 0.0034478 0.9999023 0.0034478 0.0000977 -0.0034478
23161682 0.0000979 -0.0033237 0.9999021 0.0033237 0.9999021 0.0033237 0.0000979 -0.0033237
23629955 0.0000981 -0.0032010 0.9999019 0.0032010 0.9999019 0.0032010 0.0000981 -0.0032010
24107696 0.0000984 -0.0030795 0.9999016 0.0030795 0.9999016 0.0030795 0.0000984 -0.0030795
24595095 0.0000988 -0.0029592 0.9999012 0.0029592 0.9999012 0.0029592 0.0000988 -0.0029592
25092348 0.0000992 -0.0028400 0.9999008 0.0028400 0.9999008 0.0028400 0.0000992 -0.0028400
25599655 0.0000997 -0.0027219 0.9999003 0.0027219 0.9999003 0.0027219 0.0000997 -0.0027219
26117218 0.0001003 -0.0026048 0.9998997 0.0026048 0.9998997 0.0026048 0.0001003 -0.0026048
26645245 0.0001010 -0.0024888 0.9998990 0.0024888 0.9998990 0.0024888 0.0001010 -0.0024888
27183947 0.0001017 -0.0023737 0.9998983 0.0023737 0.9998983 0.0023737 0.0001017 -0.0023737
27733541 0.0001025 -0.0022594 0.9998975 0.0022594 0.9998975 0.0022594 0.0001025 -0.0022594
28294246 0.0001034 -0.0021460 0.9998966 0.0021460 0.9998966 0.0021460 0.0001034 -0.0021460
28866287 0.0001044 -0.0020333 0.9998956 0.0020333 0.9998956 0.0020333 0.0001044 -0.0020333
29449894 0.0001055 -0.0019214 0.9998945 0.0019214 0.9998945 0.0019214 0.0001055 -0.0019214
30045299 0.0001066 -0.0018102 0.9998934 0.0018102 0.9998934 0.0018102 0.0001066 -0.0018102
30652742 0.0001078 -0.0016996 0.9998922 0.0016996 0.9998922 0.0016996 0.0001078 -0.0016996
31272467 0.0001092 -0.0015895 0.9998908 0.0015895 0.9998908 0.0015895 0.0001092 -0.0015895
31904720 0.0001106 -0.0014800 0.9998894 0.0014800 0.9998894 0.0014800 0.0001106 -0.0014800
32549757 0.0001121 -0.0013710 0.9998879 0.0013710 0.9998879 0.0013710 0.0001121 -0.0013710
33207834 0.0001137 -0.0012623 0.9998863 0.0012623 0.9998863 0.0012623 0.0001137 -0.0012623
33879216 0.0001155 -0.0011540 0.9998845 0.0011540 0.9998845 0.0011540 0.0001155 -0.0011540
34564172 0.0001173 -0.0010460 0.9998827 0.0010460 0.9998827 0.0010460 0.0001173 -0.0010460
35262976 0.0001193 -0.0009383 0.9998807 0.0009383 0.9998807 0.0009383 0.0001193 -0.0009383
35975908 0.0001213 -0.0008307 0.9998787 0.0008307 0.9998787 0.0008307 0.0001213 -0.0008307
36703254 0.0001235 -0.0007233 0.9998765 0.0007233 0.9998765 0.0007233 0.0001235 -0.0007233
37445305 0.0001259 -0.0006159 0.9998741 0.0006159 0.9998741 0.0006159 0.0001259 -0.0006159
38202358 0.0001284 -0.0005085 0.9998716 0.0005085 0.9998716 0.0005085 0.0001284 -0.0005085
38974717 0.0001310 -0.0004011 0.9998690 0.0004011 0.9998690 0.0004011 0.0001310 -0.0004011
39762692 0.0001338 -0.0002935 0.9998662 0.0002935 0.9998662 0.0002935 0.0001338 -0.0002935
40566597 0.0001368 -0.0001858 0.9998632 0.0001858 0.9998632 0.0001858 0.0001368 -0.0001858
41386756 0.0001399 -0.0000778 0.9998601 0.0000778 0.9998601 0.0000778 0.0001399 -0.0000778
42223496 0.0001432 0.0000306 0.9998568 -0.0000306 0.9998568 -0.0000306 0.0001432 0.0000306
43077153 0.0001468 0.0001393 0.9998532 -0.0001393 0.9998532 -0.0001393 0.0001468 0.0001393
43948069 0.0001505 0.0002486 0.9998495 -0.0002486 0.9998495 -0.0002486 0.0001505 0.0002486
44836592 0.0001545 0.0003584 0.9998455 -0.0003584 0.9998455 -0.0003584 0.0001545 0.0003584
45743080 0.0001587 0.0004690 0.9998413 -0.0004690 0.9998413 -0.0004690 0.0001587 0.0004690
46667894 0.0001632 0.0005802 0.9998368 -0.0005802 0.9998368 -0.0005802 0.0001632 0.0005802
47611406 0.0001680 0.0006924 0.9998320 -0.0006924 0.9998320 -0.0006924 0.0001680 0.0006924
48573993 0.0001732 0.0008055 0.9998268 -0.0008055 0.9998268 -0.0008055 0.0001732 0.0008055
49556042 0.0001787 0.0009197 0.9998213 -0.0009197 0.9998213 -0.0009197 0.0001787 0.0009197
50557945 0.0001845 0.0010351 0.9998155 -0.0010351 0.9998155 -0.0010351 0.0001845 0.0010351
51580105 0.0001908 0.0011519 0.9998092 -0.0011519 0.9998092 -0.0011519 0.0001908 0.0011519
52622929 0.0001976 0.0012702 0.9998024 -0.0012702 0.9998024 -0.0012702 0.0001976 0.0012702
53686838 0.0002048 0.0013901 0.9997952 -0.0013901 0.9997952 -0.0013901 0.0002048 0.0013901
54772256 0.0002127 0.0015120 0.9997873 -0.0015120 0.9997873 -0.0015120 0.0002127 0.0015120
55879618 0.0002212 0.0016358 0.9997788 -0.0016358 0.9997788 -0.0016358 0.0002212 0.0016358
57009369 0.0002304 0.0017620 0.9997696 -0.0017620 0.9997696 -0.0017620 0.0002304 0.0017620
58161960 0.0002405 0.0018907 0.9997595 -0.0018907 0.9997595 -0.0018907 0.0002405 0.0018907
59337855 0.0002515 0.0020222 0.9997485 -0.0020222 0.9997485 -0.0020222 0.0002515 0.0020222
60537522 0.0002636 0.0021569 0.9997364 -0.0021569 0.9997364 -0.0021569 0.0002636 0.0021569
61761445 0.0002769 0.0022951 0.9997231 -0.0022951 0.9997231 -0.0022951 0.0002769 0.0022951
63010112 0.0002918 0.0024373 0.9997082 -0.0024373 0.9997082 -0.0024373 0.0002918 0.0024373
64284024 0.0003084 0.0025840 0.9996916 -0.0025840 0.9996916 -0.0025840 0.0003084 0.0025840
65583691 0.0003271 0.0027358 0.9996729 -0.0027358 0.9996729 -0.0027358 0.0003271 0.0027358
66909635 0.0003483 0.0028934 0.9996517 -0.0028934 0.9996517 -0.0028934 0.0003483 0.0028934
68262386 0.0003727 0.0030577 0.9996273 -0.0030577 0.9996273 -0.0030577 0.0003727 0.0030577
69642486 0.0004008 0.0032298 0.9995992 -0.0032298 0.9995992 -0.0032298 0.0004008 0.0032298
71050488 0.0004338 0.0034110 0.9995662 -0.0034110 0.9995662 -0.0034110 0.0004338 0.0034110
72486957 0.0004730 0.0036027 0.9995270 -0.0036027 0.9995270 -0.0036027 0.0004730 0.0036027
73952468 0.0005201 0.0038071 0.9994799 -0.0038071 0.9994799 -0.0038071 0.0005201 0.0038071
