!Murata Part Number: GRM43Q7U3A272JW31
!These Parameters are Measured in Series Mode Connection
!Data Generated on Mar 30, 2021
!       o--ll--o
!Port1            Port2
!       o------o
!Operation Temp=25[degC], DC Bias Voltage=0[V]
!Freq. Start=1000[kHz] Stop=3[GHz] 401[Steps]
# Hz S RI R 50
!Freq.(Hz) S11(Real) S11(Imag) S21(Real) S21(Imag) S12(Real) S12(Imag) S22(Real) S22(Imag)
1000000 0.2670632 -0.4423902 0.7329368 0.4423902 0.7329368 0.4423902 0.2670632 -0.4423902
1020218 0.2593004 -0.4382145 0.7406996 0.4382145 0.7406996 0.4382145 0.2593004 -0.4382145
1040844 0.2516857 -0.4339446 0.7483143 0.4339446 0.7483143 0.4339446 0.2516857 -0.4339446
1061887 0.2442208 -0.4295866 0.7557792 0.4295866 0.7557792 0.4295866 0.2442208 -0.4295866
1083356 0.2369072 -0.4251465 0.7630928 0.4251465 0.7630928 0.4251465 0.2369072 -0.4251465
1105259 0.2297461 -0.4206303 0.7702539 0.4206303 0.7702539 0.4206303 0.2297461 -0.4206303
1127605 0.2227382 -0.4160440 0.7772618 0.4160440 0.7772618 0.4160440 0.2227382 -0.4160440
1150402 0.2158842 -0.4113935 0.7841158 0.4113935 0.7841158 0.4113935 0.2158842 -0.4113935
1173660 0.2091843 -0.4066845 0.7908157 0.4066845 0.7908157 0.4066845 0.2091843 -0.4066845
1197389 0.2026385 -0.4019228 0.7973615 0.4019228 0.7973615 0.4019228 0.2026385 -0.4019228
1221597 0.1962468 -0.3971140 0.8037532 0.3971140 0.8037532 0.3971140 0.1962468 -0.3971140
1246295 0.1900086 -0.3922634 0.8099914 0.3922634 0.8099914 0.3922634 0.1900086 -0.3922634
1271492 0.1839232 -0.3873764 0.8160768 0.3873764 0.8160768 0.3873764 0.1839232 -0.3873764
1297199 0.1779900 -0.3824582 0.8220100 0.3824582 0.8220100 0.3824582 0.1779900 -0.3824582
1323425 0.1722077 -0.3775138 0.8277923 0.3775138 0.8277923 0.3775138 0.1722077 -0.3775138
1350181 0.1665752 -0.3725481 0.8334248 0.3725481 0.8334248 0.3725481 0.1665752 -0.3725481
1377479 0.1610910 -0.3675659 0.8389090 0.3675659 0.8389090 0.3675659 0.1610910 -0.3675659
1405328 0.1557537 -0.3625716 0.8442463 0.3625716 0.8442463 0.3625716 0.1557537 -0.3625716
1433740 0.1505614 -0.3575698 0.8494386 0.3575698 0.8494386 0.3575698 0.1505614 -0.3575698
1462727 0.1455123 -0.3525645 0.8544877 0.3525645 0.8544877 0.3525645 0.1455123 -0.3525645
1492300 0.1406046 -0.3475600 0.8593954 0.3475600 0.8593954 0.3475600 0.1406046 -0.3475600
1522470 0.1358360 -0.3425600 0.8641640 0.3425600 0.8641640 0.3425600 0.1358360 -0.3425600
1553251 0.1312044 -0.3375684 0.8687956 0.3375684 0.8687956 0.3375684 0.1312044 -0.3375684
1584654 0.1267076 -0.3325886 0.8732924 0.3325886 0.8732924 0.3325886 0.1267076 -0.3325886
1616692 0.1223432 -0.3276240 0.8776568 0.3276240 0.8776568 0.3276240 0.1223432 -0.3276240
1649378 0.1181087 -0.3226779 0.8818913 0.3226779 0.8818913 0.3226779 0.1181087 -0.3226779
1682724 0.1140017 -0.3177532 0.8859983 0.3177532 0.8859983 0.3177532 0.1140017 -0.3177532
1716745 0.1100198 -0.3128530 0.8899802 0.3128530 0.8899802 0.3128530 0.1100198 -0.3128530
1751453 0.1061602 -0.3079799 0.8938398 0.3079799 0.8938398 0.3079799 0.1061602 -0.3079799
1786863 0.1024204 -0.3031364 0.8975796 0.3031364 0.8975796 0.3031364 0.1024204 -0.3031364
1822989 0.0987978 -0.2983250 0.9012022 0.2983250 0.9012022 0.2983250 0.0987978 -0.2983250
1859846 0.0952897 -0.2935479 0.9047103 0.2935479 0.9047103 0.2935479 0.0952897 -0.2935479
1897447 0.0918934 -0.2888073 0.9081066 0.2888073 0.9081066 0.2888073 0.0918934 -0.2888073
1935809 0.0886063 -0.2841051 0.9113937 0.2841051 0.9113937 0.2841051 0.0886063 -0.2841051
1974946 0.0854257 -0.2794431 0.9145743 0.2794431 0.9145743 0.2794431 0.0854257 -0.2794431
2014875 0.0823489 -0.2748231 0.9176511 0.2748231 0.9176511 0.2748231 0.0823489 -0.2748231
2055611 0.0793733 -0.2702466 0.9206267 0.2702466 0.9206267 0.2702466 0.0793733 -0.2702466
2097170 0.0764962 -0.2657149 0.9235038 0.2657149 0.9235038 0.2657149 0.0764962 -0.2657149
2139570 0.0737151 -0.2612296 0.9262849 0.2612296 0.9262849 0.2612296 0.0737151 -0.2612296
2182827 0.0710272 -0.2567916 0.9289728 0.2567916 0.9289728 0.2567916 0.0710272 -0.2567916
2226959 0.0684301 -0.2524022 0.9315699 0.2524022 0.9315699 0.2524022 0.0684301 -0.2524022
2271982 0.0659212 -0.2480623 0.9340788 0.2480623 0.9340788 0.2480623 0.0659212 -0.2480623
2317916 0.0634980 -0.2437728 0.9365020 0.2437728 0.9365020 0.2437728 0.0634980 -0.2437728
2364779 0.0611581 -0.2395345 0.9388419 0.2395345 0.9388419 0.2395345 0.0611581 -0.2395345
2412589 0.0588989 -0.2353480 0.9411011 0.2353480 0.9411011 0.2353480 0.0588989 -0.2353480
2461366 0.0567181 -0.2312139 0.9432819 0.2312139 0.9432819 0.2312139 0.0567181 -0.2312139
2511129 0.0546133 -0.2271327 0.9453867 0.2271327 0.9453867 0.2271327 0.0546133 -0.2271327
2561897 0.0525823 -0.2231050 0.9474177 0.2231050 0.9474177 0.2231050 0.0525823 -0.2231050
2613693 0.0506227 -0.2191309 0.9493773 0.2191309 0.9493773 0.2191309 0.0506227 -0.2191309
2666535 0.0487324 -0.2152109 0.9512676 0.2152109 0.9512676 0.2152109 0.0487324 -0.2152109
2720446 0.0469092 -0.2113451 0.9530908 0.2113451 0.9530908 0.2113451 0.0469092 -0.2113451
2775447 0.0451509 -0.2075336 0.9548491 0.2075336 0.9548491 0.2075336 0.0451509 -0.2075336
2831560 0.0434555 -0.2037766 0.9565445 0.2037766 0.9565445 0.2037766 0.0434555 -0.2037766
2888807 0.0418209 -0.2000740 0.9581791 0.2000740 0.9581791 0.2000740 0.0418209 -0.2000740
2947212 0.0402452 -0.1964258 0.9597548 0.1964258 0.9597548 0.1964258 0.0402452 -0.1964258
3006797 0.0387265 -0.1928320 0.9612735 0.1928320 0.9612735 0.1928320 0.0387265 -0.1928320
3067588 0.0372629 -0.1892924 0.9627371 0.1892924 0.9627371 0.1892924 0.0372629 -0.1892924
3129607 0.0358524 -0.1858068 0.9641476 0.1858068 0.9641476 0.1858068 0.0358524 -0.1858068
3192880 0.0344935 -0.1823751 0.9655065 0.1823751 0.9655065 0.1823751 0.0344935 -0.1823751
3257432 0.0331842 -0.1789969 0.9668158 0.1789969 0.9668158 0.1789969 0.0331842 -0.1789969
3323290 0.0319230 -0.1756721 0.9680770 0.1756721 0.9680770 0.1756721 0.0319230 -0.1756721
3390478 0.0307082 -0.1724001 0.9692918 0.1724001 0.9692918 0.1724001 0.0307082 -0.1724001
3459026 0.0295382 -0.1691808 0.9704618 0.1691808 0.9704618 0.1691808 0.0295382 -0.1691808
3528959 0.0284114 -0.1660136 0.9715886 0.1660136 0.9715886 0.1660136 0.0284114 -0.1660136
3600306 0.0273264 -0.1628983 0.9726736 0.1628983 0.9726736 0.1628983 0.0273264 -0.1628983
3673095 0.0262817 -0.1598343 0.9737183 0.1598343 0.9737183 0.1598343 0.0262817 -0.1598343
3747356 0.0252759 -0.1568213 0.9747241 0.1568213 0.9747241 0.1568213 0.0252759 -0.1568213
3823119 0.0243076 -0.1538586 0.9756924 0.1538586 0.9756924 0.1538586 0.0243076 -0.1538586
3900413 0.0233755 -0.1509459 0.9766245 0.1509459 0.9766245 0.1509459 0.0233755 -0.1509459
3979270 0.0224783 -0.1480826 0.9775217 0.1480826 0.9775217 0.1480826 0.0224783 -0.1480826
4059721 0.0216147 -0.1452681 0.9783853 0.1452681 0.9783853 0.1452681 0.0216147 -0.1452681
4141799 0.0207836 -0.1425020 0.9792164 0.1425020 0.9792164 0.1425020 0.0207836 -0.1425020
4225536 0.0199838 -0.1397837 0.9800162 0.1397837 0.9800162 0.1397837 0.0199838 -0.1397837
4310966 0.0192142 -0.1371126 0.9807858 0.1371126 0.9807858 0.1371126 0.0192142 -0.1371126
4398124 0.0184737 -0.1344881 0.9815263 0.1344881 0.9815263 0.1344881 0.0184737 -0.1344881
4487043 0.0177611 -0.1319096 0.9822389 0.1319096 0.9822389 0.1319096 0.0177611 -0.1319096
4577760 0.0170756 -0.1293766 0.9829244 0.1293766 0.9829244 0.1293766 0.0170756 -0.1293766
4670311 0.0164160 -0.1268885 0.9835840 0.1268885 0.9835840 0.1268885 0.0164160 -0.1268885
4764734 0.0157816 -0.1244446 0.9842184 0.1244446 0.9842184 0.1244446 0.0157816 -0.1244446
4861065 0.0151712 -0.1220443 0.9848288 0.1220443 0.9848288 0.1220443 0.0151712 -0.1220443
4959344 0.0145842 -0.1196871 0.9854158 0.1196871 0.9854158 0.1196871 0.0145842 -0.1196871
5059610 0.0140195 -0.1173723 0.9859805 0.1173723 0.9859805 0.1173723 0.0140195 -0.1173723
5161903 0.0134763 -0.1150994 0.9865237 0.1150994 0.9865237 0.1150994 0.0134763 -0.1150994
5266264 0.0129540 -0.1128676 0.9870460 0.1128676 0.9870460 0.1128676 0.0129540 -0.1128676
5372736 0.0124516 -0.1106764 0.9875484 0.1106764 0.9875484 0.1106764 0.0124516 -0.1106764
5481359 0.0119685 -0.1085251 0.9880315 0.1085251 0.9880315 0.1085251 0.0119685 -0.1085251
5592179 0.0115039 -0.1064133 0.9884961 0.1064133 0.9884961 0.1064133 0.0115039 -0.1064133
5705239 0.0110571 -0.1043401 0.9889429 0.1043401 0.9889429 0.1043401 0.0110571 -0.1043401
5820586 0.0106275 -0.1023051 0.9893725 0.1023051 0.9893725 0.1023051 0.0106275 -0.1023051
5938264 0.0102144 -0.1003077 0.9897856 0.1003077 0.9897856 0.1003077 0.0102144 -0.1003077
6058321 0.0098173 -0.0983471 0.9901827 0.0983471 0.9901827 0.0983471 0.0098173 -0.0983471
6180806 0.0094354 -0.0964229 0.9905646 0.0964229 0.9905646 0.0964229 0.0094354 -0.0964229
6305767 0.0090683 -0.0945344 0.9909317 0.0945344 0.9909317 0.0945344 0.0090683 -0.0945344
6433254 0.0087153 -0.0926811 0.9912847 0.0926811 0.9912847 0.0926811 0.0087153 -0.0926811
6563319 0.0083760 -0.0908623 0.9916240 0.0908623 0.9916240 0.0908623 0.0083760 -0.0908623
6696013 0.0080498 -0.0890775 0.9919502 0.0890775 0.9919502 0.0890775 0.0080498 -0.0890775
6831390 0.0077362 -0.0873261 0.9922638 0.0873261 0.9922638 0.0873261 0.0077362 -0.0873261
6969505 0.0074347 -0.0856075 0.9925653 0.0856075 0.9925653 0.0856075 0.0074347 -0.0856075
7110411 0.0071450 -0.0839212 0.9928550 0.0839212 0.9928550 0.0839212 0.0071450 -0.0839212
7254166 0.0068665 -0.0822666 0.9931335 0.0822666 0.9931335 0.0822666 0.0068665 -0.0822666
7400828 0.0065987 -0.0806432 0.9934013 0.0806432 0.9934013 0.0806432 0.0065987 -0.0806432
7550455 0.0063414 -0.0790504 0.9936586 0.0790504 0.9936586 0.0790504 0.0063414 -0.0790504
7703107 0.0060941 -0.0774876 0.9939059 0.0774876 0.9939059 0.0774876 0.0060941 -0.0774876
7858845 0.0058564 -0.0759544 0.9941436 0.0759544 0.9941436 0.0759544 0.0058564 -0.0759544
8017732 0.0056279 -0.0744502 0.9943721 0.0744502 0.9943721 0.0744502 0.0056279 -0.0744502
8179831 0.0054083 -0.0729745 0.9945917 0.0729745 0.9945917 0.0729745 0.0054083 -0.0729745
8345207 0.0051973 -0.0715268 0.9948027 0.0715268 0.9948027 0.0715268 0.0051973 -0.0715268
8513927 0.0049946 -0.0701065 0.9950054 0.0701065 0.9950054 0.0701065 0.0049946 -0.0701065
8686058 0.0047997 -0.0687133 0.9952003 0.0687133 0.9952003 0.0687133 0.0047997 -0.0687133
8861669 0.0046124 -0.0673465 0.9953876 0.0673465 0.9953876 0.0673465 0.0046124 -0.0673465
9040831 0.0044325 -0.0660057 0.9955675 0.0660057 0.9955675 0.0660057 0.0044325 -0.0660057
9223615 0.0042596 -0.0646904 0.9957404 0.0646904 0.9957404 0.0646904 0.0042596 -0.0646904
9410094 0.0040934 -0.0634001 0.9959066 0.0634001 0.9959066 0.0634001 0.0040934 -0.0634001
9600343 0.0039338 -0.0621345 0.9960662 0.0621345 0.9960662 0.0621345 0.0039338 -0.0621345
9794439 0.0037804 -0.0608929 0.9962196 0.0608929 0.9962196 0.0608929 0.0037804 -0.0608929
9992459 0.0036330 -0.0596750 0.9963670 0.0596750 0.9963670 0.0596750 0.0036330 -0.0596750
10194482 0.0034914 -0.0584804 0.9965086 0.0584804 0.9965086 0.0584804 0.0034914 -0.0584804
10400590 0.0033554 -0.0573085 0.9966446 0.0573085 0.9966446 0.0573085 0.0033554 -0.0573085
10610865 0.0032247 -0.0561590 0.9967753 0.0561590 0.9967753 0.0561590 0.0032247 -0.0561590
10825391 0.0030992 -0.0550315 0.9969008 0.0550315 0.9969008 0.0550315 0.0030992 -0.0550315
11044254 0.0029785 -0.0539254 0.9970215 0.0539254 0.9970215 0.0539254 0.0029785 -0.0539254
11267542 0.0028627 -0.0528404 0.9971373 0.0528404 0.9971373 0.0528404 0.0028627 -0.0528404
11495344 0.0027514 -0.0517762 0.9972486 0.0517762 0.9972486 0.0517762 0.0027514 -0.0517762
11727752 0.0026445 -0.0507323 0.9973555 0.0507323 0.9973555 0.0507323 0.0026445 -0.0507323
11964859 0.0025418 -0.0497082 0.9974582 0.0497082 0.9974582 0.0497082 0.0025418 -0.0497082
12206760 0.0024432 -0.0487037 0.9975568 0.0487037 0.9975568 0.0487037 0.0024432 -0.0487037
12453551 0.0023484 -0.0477184 0.9976516 0.0477184 0.9976516 0.0477184 0.0023484 -0.0477184
12705331 0.0022575 -0.0467518 0.9977425 0.0467518 0.9977425 0.0467518 0.0022575 -0.0467518
12962202 0.0021701 -0.0458036 0.9978299 0.0458036 0.9978299 0.0458036 0.0021701 -0.0458036
13224267 0.0020862 -0.0448735 0.9979138 0.0448735 0.9979138 0.0448735 0.0020862 -0.0448735
13491630 0.0020056 -0.0439611 0.9979944 0.0439611 0.9979944 0.0439611 0.0020056 -0.0439611
13764398 0.0019282 -0.0430660 0.9980718 0.0430660 0.9980718 0.0430660 0.0019282 -0.0430660
14042680 0.0018539 -0.0421880 0.9981461 0.0421880 0.9981461 0.0421880 0.0018539 -0.0421880
14326589 0.0017826 -0.0413266 0.9982174 0.0413266 0.9982174 0.0413266 0.0017826 -0.0413266
14616238 0.0017141 -0.0404816 0.9982859 0.0404816 0.9982859 0.0404816 0.0017141 -0.0404816
14911743 0.0016483 -0.0396526 0.9983517 0.0396526 0.9983517 0.0396526 0.0016483 -0.0396526
15213223 0.0015852 -0.0388393 0.9984148 0.0388393 0.9984148 0.0388393 0.0015852 -0.0388393
15520797 0.0015246 -0.0380414 0.9984754 0.0380414 0.9984754 0.0380414 0.0015246 -0.0380414
15834590 0.0014664 -0.0372586 0.9985336 0.0372586 0.9985336 0.0372586 0.0014664 -0.0372586
16154727 0.0014106 -0.0364906 0.9985894 0.0364906 0.9985894 0.0364906 0.0014106 -0.0364906
16481337 0.0013570 -0.0357370 0.9986430 0.0357370 0.9986430 0.0357370 0.0013570 -0.0357370
16814550 0.0013055 -0.0349976 0.9986945 0.0349976 0.9986945 0.0349976 0.0013055 -0.0349976
17154499 0.0012562 -0.0342722 0.9987438 0.0342722 0.9987438 0.0342722 0.0012562 -0.0342722
17501322 0.0012088 -0.0335604 0.9987912 0.0335604 0.9987912 0.0335604 0.0012088 -0.0335604
17855156 0.0011633 -0.0328619 0.9988367 0.0328619 0.9988367 0.0328619 0.0011633 -0.0328619
18216144 0.0011197 -0.0321765 0.9988803 0.0321765 0.9988803 0.0321765 0.0011197 -0.0321765
18584431 0.0010778 -0.0315039 0.9989222 0.0315039 0.9989222 0.0315039 0.0010778 -0.0315039
18960163 0.0010377 -0.0308438 0.9989623 0.0308438 0.9989623 0.0308438 0.0010377 -0.0308438
19343491 0.0009992 -0.0301961 0.9990008 0.0301961 0.9990008 0.0301961 0.0009992 -0.0301961
19734570 0.0009622 -0.0295604 0.9990378 0.0295604 0.9990378 0.0295604 0.0009622 -0.0295604
20133555 0.0009268 -0.0289364 0.9990732 0.0289364 0.9990732 0.0289364 0.0009268 -0.0289364
20540607 0.0008928 -0.0283240 0.9991072 0.0283240 0.9991072 0.0283240 0.0008928 -0.0283240
20955888 0.0008602 -0.0277230 0.9991398 0.0277230 0.9991398 0.0277230 0.0008602 -0.0277230
21379566 0.0008289 -0.0271329 0.9991711 0.0271329 0.9991711 0.0271329 0.0008289 -0.0271329
21811809 0.0007990 -0.0265537 0.9992010 0.0265537 0.9992010 0.0265537 0.0007990 -0.0265537
22252791 0.0007702 -0.0259852 0.9992298 0.0259852 0.9992298 0.0259852 0.0007702 -0.0259852
22702688 0.0007427 -0.0254270 0.9992573 0.0254270 0.9992573 0.0254270 0.0007427 -0.0254270
23161682 0.0007163 -0.0248789 0.9992837 0.0248789 0.9992837 0.0248789 0.0007163 -0.0248789
23629955 0.0006910 -0.0243408 0.9993090 0.0243408 0.9993090 0.0243408 0.0006910 -0.0243408
24107696 0.0006667 -0.0238125 0.9993333 0.0238125 0.9993333 0.0238125 0.0006667 -0.0238125
24595095 0.0006435 -0.0232936 0.9993565 0.0232936 0.9993565 0.0232936 0.0006435 -0.0232936
25092348 0.0006212 -0.0227841 0.9993788 0.0227841 0.9993788 0.0227841 0.0006212 -0.0227841
25599655 0.0005999 -0.0222837 0.9994001 0.0222837 0.9994001 0.0222837 0.0005999 -0.0222837
26117218 0.0005795 -0.0217922 0.9994205 0.0217922 0.9994205 0.0217922 0.0005795 -0.0217922
26645245 0.0005599 -0.0213095 0.9994401 0.0213095 0.9994401 0.0213095 0.0005599 -0.0213095
27183947 0.0005412 -0.0208352 0.9994588 0.0208352 0.9994588 0.0208352 0.0005412 -0.0208352
27733541 0.0005233 -0.0203694 0.9994767 0.0203694 0.9994767 0.0203694 0.0005233 -0.0203694
28294246 0.0005061 -0.0199116 0.9994939 0.0199116 0.9994939 0.0199116 0.0005061 -0.0199116
28866287 0.0004897 -0.0194619 0.9995103 0.0194619 0.9995103 0.0194619 0.0004897 -0.0194619
29449894 0.0004740 -0.0190199 0.9995260 0.0190199 0.9995260 0.0190199 0.0004740 -0.0190199
30045299 0.0004590 -0.0185856 0.9995410 0.0185856 0.9995410 0.0185856 0.0004590 -0.0185856
30652742 0.0004446 -0.0181587 0.9995554 0.0181587 0.9995554 0.0181587 0.0004446 -0.0181587
31272467 0.0004309 -0.0177391 0.9995691 0.0177391 0.9995691 0.0177391 0.0004309 -0.0177391
31904720 0.0004178 -0.0173265 0.9995822 0.0173265 0.9995822 0.0173265 0.0004178 -0.0173265
32549757 0.0004052 -0.0169210 0.9995948 0.0169210 0.9995948 0.0169210 0.0004052 -0.0169210
33207834 0.0003933 -0.0165222 0.9996067 0.0165222 0.9996067 0.0165222 0.0003933 -0.0165222
33879216 0.0003818 -0.0161300 0.9996182 0.0161300 0.9996182 0.0161300 0.0003818 -0.0161300
34564172 0.0003710 -0.0157443 0.9996290 0.0157443 0.9996290 0.0157443 0.0003710 -0.0157443
35262976 0.0003606 -0.0153648 0.9996394 0.0153648 0.9996394 0.0153648 0.0003606 -0.0153648
35975908 0.0003506 -0.0149916 0.9996494 0.0149916 0.9996494 0.0149916 0.0003506 -0.0149916
36703254 0.0003412 -0.0146243 0.9996588 0.0146243 0.9996588 0.0146243 0.0003412 -0.0146243
37445305 0.0003322 -0.0142629 0.9996678 0.0142629 0.9996678 0.0142629 0.0003322 -0.0142629
38202358 0.0003237 -0.0139072 0.9996763 0.0139072 0.9996763 0.0139072 0.0003237 -0.0139072
38974717 0.0003155 -0.0135570 0.9996845 0.0135570 0.9996845 0.0135570 0.0003155 -0.0135570
39762692 0.0003078 -0.0132123 0.9996922 0.0132123 0.9996922 0.0132123 0.0003078 -0.0132123
40566597 0.0003005 -0.0128729 0.9996995 0.0128729 0.9996995 0.0128729 0.0003005 -0.0128729
41386756 0.0002936 -0.0125386 0.9997064 0.0125386 0.9997064 0.0125386 0.0002936 -0.0125386
42223496 0.0002870 -0.0122093 0.9997130 0.0122093 0.9997130 0.0122093 0.0002870 -0.0122093
43077153 0.0002808 -0.0118849 0.9997192 0.0118849 0.9997192 0.0118849 0.0002808 -0.0118849
43948069 0.0002749 -0.0115652 0.9997251 0.0115652 0.9997251 0.0115652 0.0002749 -0.0115652
44836592 0.0002694 -0.0112502 0.9997306 0.0112502 0.9997306 0.0112502 0.0002694 -0.0112502
45743080 0.0002641 -0.0109396 0.9997359 0.0109396 0.9997359 0.0109396 0.0002641 -0.0109396
46667894 0.0002593 -0.0106334 0.9997407 0.0106334 0.9997407 0.0106334 0.0002593 -0.0106334
47611406 0.0002547 -0.0103314 0.9997453 0.0103314 0.9997453 0.0103314 0.0002547 -0.0103314
48573993 0.0002504 -0.0100335 0.9997496 0.0100335 0.9997496 0.0100335 0.0002504 -0.0100335
49556042 0.0002464 -0.0097396 0.9997536 0.0097396 0.9997536 0.0097396 0.0002464 -0.0097396
50557945 0.0002427 -0.0094495 0.9997573 0.0094495 0.9997573 0.0094495 0.0002427 -0.0094495
51580105 0.0002393 -0.0091632 0.9997607 0.0091632 0.9997607 0.0091632 0.0002393 -0.0091632
52622929 0.0002361 -0.0088806 0.9997639 0.0088806 0.9997639 0.0088806 0.0002361 -0.0088806
53686838 0.0002332 -0.0086014 0.9997668 0.0086014 0.9997668 0.0086014 0.0002332 -0.0086014
54772256 0.0002306 -0.0083256 0.9997694 0.0083256 0.9997694 0.0083256 0.0002306 -0.0083256
55879618 0.0002282 -0.0080531 0.9997718 0.0080531 0.9997718 0.0080531 0.0002282 -0.0080531
57009369 0.0002261 -0.0077837 0.9997739 0.0077837 0.9997739 0.0077837 0.0002261 -0.0077837
58161960 0.0002243 -0.0075174 0.9997757 0.0075174 0.9997757 0.0075174 0.0002243 -0.0075174
59337855 0.0002227 -0.0072540 0.9997773 0.0072540 0.9997773 0.0072540 0.0002227 -0.0072540
60537522 0.0002213 -0.0069935 0.9997787 0.0069935 0.9997787 0.0069935 0.0002213 -0.0069935
61761445 0.0002202 -0.0067356 0.9997798 0.0067356 0.9997798 0.0067356 0.0002202 -0.0067356
63010112 0.0002194 -0.0064804 0.9997806 0.0064804 0.9997806 0.0064804 0.0002194 -0.0064804
64284024 0.0002187 -0.0062276 0.9997813 0.0062276 0.9997813 0.0062276 0.0002187 -0.0062276
65583691 0.0002183 -0.0059772 0.9997817 0.0059772 0.9997817 0.0059772 0.0002183 -0.0059772
66909635 0.0002182 -0.0057291 0.9997818 0.0057291 0.9997818 0.0057291 0.0002182 -0.0057291
68262386 0.0002183 -0.0054831 0.9997817 0.0054831 0.9997817 0.0054831 0.0002183 -0.0054831
69642486 0.0002186 -0.0052392 0.9997814 0.0052392 0.9997814 0.0052392 0.0002186 -0.0052392
71050488 0.0002192 -0.0049973 0.9997808 0.0049973 0.9997808 0.0049973 0.0002192 -0.0049973
72486957 0.0002201 -0.0047571 0.9997799 0.0047571 0.9997799 0.0047571 0.0002201 -0.0047571
73952468 0.0002211 -0.0045187 0.9997789 0.0045187 0.9997789 0.0045187 0.0002211 -0.0045187
