!Murata Part Number: GRM31C5C2J562JWA3
!These Parameters are Measured in Series Mode Connection
!Data Generated on Mar 30, 2021
!       o--ll--o
!Port1            Port2
!       o------o
!Operation Temp=25[degC], DC Bias Voltage=0[V]
!Freq. Start=100[kHz] Stop=1000[MHz] 401[Steps]
# Hz S RI R 50
!Freq.(Hz) S11(Real) S11(Imag) S21(Real) S21(Imag) S12(Real) S12(Imag) S22(Real) S22(Imag)
100000 0.8934582 -0.3062939 0.1065418 0.3062939 0.1065418 0.3062939 0.8934582 -0.3062939
102329 0.8890584 -0.3118602 0.1109416 0.3118602 0.1109416 0.3118602 0.8890584 -0.3118602
104713 0.8844982 -0.3174633 0.1155018 0.3174633 0.1155018 0.3174633 0.8844982 -0.3174633
107152 0.8797738 -0.3230989 0.1202262 0.3230989 0.1202262 0.3230989 0.8797738 -0.3230989
109648 0.8748811 -0.3287627 0.1251189 0.3287627 0.1251189 0.3287627 0.8748811 -0.3287627
112202 0.8698166 -0.3344500 0.1301834 0.3344500 0.1301834 0.3344500 0.8698166 -0.3344500
114815 0.8645765 -0.3401559 0.1354235 0.3401559 0.1354235 0.3401559 0.8645765 -0.3401559
117490 0.8591573 -0.3458751 0.1408427 0.3458751 0.1408427 0.3458751 0.8591573 -0.3458751
120226 0.8535556 -0.3516022 0.1464444 0.3516022 0.1464444 0.3516022 0.8535556 -0.3516022
123027 0.8477683 -0.3573312 0.1522317 0.3573312 0.1522317 0.3573312 0.8477683 -0.3573312
125893 0.8417923 -0.3630561 0.1582077 0.3630561 0.1582077 0.3630561 0.8417923 -0.3630561
128825 0.8356248 -0.3687703 0.1643752 0.3687703 0.1643752 0.3687703 0.8356248 -0.3687703
131826 0.8292633 -0.3744673 0.1707367 0.3744673 0.1707367 0.3744673 0.8292633 -0.3744673
134896 0.8227055 -0.3801398 0.1772945 0.3801398 0.1772945 0.3801398 0.8227055 -0.3801398
138038 0.8159492 -0.3857808 0.1840508 0.3857808 0.1840508 0.3857808 0.8159492 -0.3857808
141254 0.8089930 -0.3913825 0.1910070 0.3913825 0.1910070 0.3913825 0.8089930 -0.3913825
144544 0.8018353 -0.3969372 0.1981647 0.3969372 0.1981647 0.3969372 0.8018353 -0.3969372
147911 0.7944751 -0.4024368 0.2055249 0.4024368 0.2055249 0.4024368 0.7944751 -0.4024368
151356 0.7869119 -0.4078730 0.2130881 0.4078730 0.2130881 0.4078730 0.7869119 -0.4078730
154882 0.7791455 -0.4132373 0.2208545 0.4132373 0.2208545 0.4132373 0.7791455 -0.4132373
158489 0.7711759 -0.4185210 0.2288241 0.4185210 0.2288241 0.4185210 0.7711759 -0.4185210
162181 0.7630040 -0.4237152 0.2369960 0.4237152 0.2369960 0.4237152 0.7630040 -0.4237152
165959 0.7546308 -0.4288110 0.2453692 0.4288110 0.2453692 0.4288110 0.7546308 -0.4288110
169824 0.7460581 -0.4337991 0.2539419 0.4337991 0.2539419 0.4337991 0.7460581 -0.4337991
173780 0.7372878 -0.4386704 0.2627122 0.4386704 0.2627122 0.4386704 0.7372878 -0.4386704
177828 0.7283229 -0.4434157 0.2716771 0.4434157 0.2716771 0.4434157 0.7283229 -0.4434157
181970 0.7191664 -0.4480256 0.2808336 0.4480256 0.2808336 0.4480256 0.7191664 -0.4480256
186209 0.7098221 -0.4524909 0.2901779 0.4524909 0.2901779 0.4524909 0.7098221 -0.4524909
190546 0.7002944 -0.4568024 0.2997056 0.4568024 0.2997056 0.4568024 0.7002944 -0.4568024
194984 0.6905883 -0.4609509 0.3094117 0.4609509 0.3094117 0.4609509 0.6905883 -0.4609509
199526 0.6807091 -0.4649276 0.3192909 0.4649276 0.3192909 0.4649276 0.6807091 -0.4649276
204174 0.6706631 -0.4687236 0.3293369 0.4687236 0.3293369 0.4687236 0.6706631 -0.4687236
208930 0.6604567 -0.4723304 0.3395433 0.4723304 0.3395433 0.4723304 0.6604567 -0.4723304
213796 0.6500972 -0.4757396 0.3499028 0.4757396 0.3499028 0.4757396 0.6500972 -0.4757396
218776 0.6395923 -0.4789433 0.3604077 0.4789433 0.3604077 0.4789433 0.6395923 -0.4789433
223872 0.6289503 -0.4819339 0.3710497 0.4819339 0.3710497 0.4819339 0.6289503 -0.4819339
229087 0.6181800 -0.4847040 0.3818200 0.4847040 0.3818200 0.4847040 0.6181800 -0.4847040
234423 0.6072906 -0.4872469 0.3927094 0.4872469 0.3927094 0.4872469 0.6072906 -0.4872469
239883 0.5962919 -0.4895563 0.4037081 0.4895563 0.4037081 0.4895563 0.5962919 -0.4895563
245471 0.5851940 -0.4916263 0.4148060 0.4916263 0.4148060 0.4916263 0.5851940 -0.4916263
251189 0.5740075 -0.4934516 0.4259925 0.4934516 0.4259925 0.4934516 0.5740075 -0.4934516
257040 0.5627433 -0.4950275 0.4372567 0.4950275 0.4372567 0.4950275 0.5627433 -0.4950275
263027 0.5514126 -0.4963499 0.4485874 0.4963499 0.4485874 0.4963499 0.5514126 -0.4963499
269153 0.5400270 -0.4974154 0.4599730 0.4974154 0.4599730 0.4974154 0.5400270 -0.4974154
275423 0.5285982 -0.4982211 0.4714018 0.4982211 0.4714018 0.4982211 0.5285982 -0.4982211
281838 0.5171382 -0.4987649 0.4828618 0.4987649 0.4828618 0.4987649 0.5171382 -0.4987649
288403 0.5056589 -0.4990453 0.4943411 0.4990453 0.4943411 0.4990453 0.5056589 -0.4990453
295121 0.4941725 -0.4990616 0.5058275 0.4990616 0.5058275 0.4990616 0.4941725 -0.4990616
301995 0.4826912 -0.4988137 0.5173088 0.4988137 0.5173088 0.4988137 0.4826912 -0.4988137
309030 0.4712271 -0.4983022 0.5287729 0.4983022 0.5287729 0.4983022 0.4712271 -0.4983022
316228 0.4597923 -0.4975285 0.5402077 0.4975285 0.5402077 0.4975285 0.4597923 -0.4975285
323594 0.4483988 -0.4964946 0.5516012 0.4964946 0.5516012 0.4964946 0.4483988 -0.4964946
331131 0.4370583 -0.4952032 0.5629417 0.4952032 0.5629417 0.4952032 0.4370583 -0.4952032
338844 0.4257824 -0.4936576 0.5742176 0.4936576 0.5742176 0.4936576 0.4257824 -0.4936576
346737 0.4145824 -0.4918618 0.5854176 0.4918618 0.5854176 0.4918618 0.4145824 -0.4918618
354813 0.4034692 -0.4898204 0.5965308 0.4898204 0.5965308 0.4898204 0.4034692 -0.4898204
363078 0.3924535 -0.4875386 0.6075465 0.4875386 0.6075465 0.4875386 0.3924535 -0.4875386
371535 0.3815456 -0.4850221 0.6184544 0.4850221 0.6184544 0.4850221 0.3815456 -0.4850221
380189 0.3707552 -0.4822771 0.6292448 0.4822771 0.6292448 0.4822771 0.3707552 -0.4822771
389045 0.3600917 -0.4793105 0.6399083 0.4793105 0.6399083 0.4793105 0.3600917 -0.4793105
398107 0.3495639 -0.4761293 0.6504361 0.4761293 0.6504361 0.4761293 0.3495639 -0.4761293
407380 0.3391804 -0.4727412 0.6608196 0.4727412 0.6608196 0.4727412 0.3391804 -0.4727412
416869 0.3289487 -0.4691540 0.6710513 0.4691540 0.6710513 0.4691540 0.3289487 -0.4691540
426580 0.3188764 -0.4653760 0.6811236 0.4653760 0.6811236 0.4653760 0.3188764 -0.4653760
436516 0.3089700 -0.4614157 0.6910300 0.4614157 0.6910300 0.4614157 0.3089700 -0.4614157
446684 0.2992358 -0.4572818 0.7007642 0.4572818 0.7007642 0.4572818 0.2992358 -0.4572818
457088 0.2896793 -0.4529834 0.7103207 0.4529834 0.7103207 0.4529834 0.2896793 -0.4529834
467735 0.2803057 -0.4485294 0.7196943 0.4485294 0.7196943 0.4485294 0.2803057 -0.4485294
478630 0.2711192 -0.4439291 0.7288808 0.4439291 0.7288808 0.4439291 0.2711192 -0.4439291
489779 0.2621240 -0.4391917 0.7378760 0.4391917 0.7378760 0.4391917 0.2621240 -0.4391917
501187 0.2533231 -0.4343265 0.7466769 0.4343265 0.7466769 0.4343265 0.2533231 -0.4343265
512861 0.2447195 -0.4293427 0.7552805 0.4293427 0.7552805 0.4293427 0.2447195 -0.4293427
524807 0.2363155 -0.4242496 0.7636845 0.4242496 0.7636845 0.4242496 0.2363155 -0.4242496
537032 0.2281126 -0.4190563 0.7718874 0.4190563 0.7718874 0.4190563 0.2281126 -0.4190563
549541 0.2201123 -0.4137719 0.7798877 0.4137719 0.7798877 0.4137719 0.2201123 -0.4137719
562341 0.2123152 -0.4084051 0.7876848 0.4084051 0.7876848 0.4084051 0.2123152 -0.4084051
575440 0.2047216 -0.4029649 0.7952784 0.4029649 0.7952784 0.4029649 0.2047216 -0.4029649
588844 0.1973315 -0.3974596 0.8026685 0.3974596 0.8026685 0.3974596 0.1973315 -0.3974596
602560 0.1901443 -0.3918977 0.8098557 0.3918977 0.8098557 0.3918977 0.1901443 -0.3918977
616595 0.1831589 -0.3862873 0.8168411 0.3862873 0.8168411 0.3862873 0.1831589 -0.3862873
630957 0.1763743 -0.3806361 0.8236257 0.3806361 0.8236257 0.3806361 0.1763743 -0.3806361
645654 0.1697886 -0.3749520 0.8302114 0.3749520 0.8302114 0.3749520 0.1697886 -0.3749520
660693 0.1634000 -0.3692421 0.8366000 0.3692421 0.8366000 0.3692421 0.1634000 -0.3692421
676083 0.1572061 -0.3635136 0.8427939 0.3635136 0.8427939 0.3635136 0.1572061 -0.3635136
691831 0.1512046 -0.3577732 0.8487954 0.3577732 0.8487954 0.3577732 0.1512046 -0.3577732
707946 0.1453926 -0.3520274 0.8546074 0.3520274 0.8546074 0.3520274 0.1453926 -0.3520274
724436 0.1397673 -0.3462825 0.8602327 0.3462825 0.8602327 0.3462825 0.1397673 -0.3462825
741310 0.1343253 -0.3405442 0.8656747 0.3405442 0.8656747 0.3405442 0.1343253 -0.3405442
758578 0.1290634 -0.3348184 0.8709366 0.3348184 0.8709366 0.3348184 0.1290634 -0.3348184
776247 0.1239781 -0.3291101 0.8760219 0.3291101 0.8760219 0.3291101 0.1239781 -0.3291101
794328 0.1190658 -0.3234245 0.8809342 0.3234245 0.8809342 0.3234245 0.1190658 -0.3234245
812831 0.1143227 -0.3177662 0.8856773 0.3177662 0.8856773 0.3177662 0.1143227 -0.3177662
831764 0.1097450 -0.3121397 0.8902550 0.3121397 0.8902550 0.3121397 0.1097450 -0.3121397
851138 0.1053289 -0.3065491 0.8946711 0.3065491 0.8946711 0.3065491 0.1053289 -0.3065491
870964 0.1010703 -0.3009983 0.8989297 0.3009983 0.8989297 0.3009983 0.1010703 -0.3009983
891251 0.0969652 -0.2954909 0.9030348 0.2954909 0.9030348 0.2954909 0.0969652 -0.2954909
912011 0.0930096 -0.2900302 0.9069904 0.2900302 0.9069904 0.2900302 0.0930096 -0.2900302
933254 0.0891995 -0.2846194 0.9108005 0.2846194 0.9108005 0.2846194 0.0891995 -0.2846194
954993 0.0855308 -0.2792612 0.9144692 0.2792612 0.9144692 0.2792612 0.0855308 -0.2792612
977237 0.0819994 -0.2739582 0.9180006 0.2739582 0.9180006 0.2739582 0.0819994 -0.2739582
1000000 0.0786014 -0.2687129 0.9213986 0.2687129 0.9213986 0.2687129 0.0786014 -0.2687129
1023293 0.0753326 -0.2635274 0.9246674 0.2635274 0.9246674 0.2635274 0.0753326 -0.2635274
1047129 0.0721891 -0.2584036 0.9278109 0.2584036 0.9278109 0.2584036 0.0721891 -0.2584036
1071519 0.0691671 -0.2533432 0.9308329 0.2533432 0.9308329 0.2533432 0.0691671 -0.2533432
1096478 0.0662626 -0.2483478 0.9337374 0.2483478 0.9337374 0.2483478 0.0662626 -0.2483478
1122018 0.0634718 -0.2434189 0.9365282 0.2434189 0.9365282 0.2434189 0.0634718 -0.2434189
1148154 0.0607909 -0.2385575 0.9392091 0.2385575 0.9392091 0.2385575 0.0607909 -0.2385575
1174898 0.0582163 -0.2337647 0.9417837 0.2337647 0.9417837 0.2337647 0.0582163 -0.2337647
1202264 0.0557443 -0.2290414 0.9442557 0.2290414 0.9442557 0.2290414 0.0557443 -0.2290414
1230269 0.0533713 -0.2243883 0.9466287 0.2243883 0.9466287 0.2243883 0.0533713 -0.2243883
1258925 0.0510940 -0.2198059 0.9489060 0.2198059 0.9489060 0.2198059 0.0510940 -0.2198059
1288250 0.0489089 -0.2152949 0.9510911 0.2152949 0.9510911 0.2152949 0.0489089 -0.2152949
1318257 0.0468127 -0.2108554 0.9531873 0.2108554 0.9531873 0.2108554 0.0468127 -0.2108554
1348963 0.0448021 -0.2064877 0.9551979 0.2064877 0.9551979 0.2064877 0.0448021 -0.2064877
1380384 0.0428741 -0.2021920 0.9571259 0.2021920 0.9571259 0.2021920 0.0428741 -0.2021920
1412538 0.0410255 -0.1979682 0.9589745 0.1979682 0.9589745 0.1979682 0.0410255 -0.1979682
1445440 0.0392535 -0.1938163 0.9607465 0.1938163 0.9607465 0.1938163 0.0392535 -0.1938163
1479108 0.0375550 -0.1897361 0.9624450 0.1897361 0.9624450 0.1897361 0.0375550 -0.1897361
1513561 0.0359274 -0.1857273 0.9640726 0.1857273 0.9640726 0.1857273 0.0359274 -0.1857273
1548817 0.0343678 -0.1817896 0.9656322 0.1817896 0.9656322 0.1817896 0.0343678 -0.1817896
1584893 0.0328737 -0.1779228 0.9671263 0.1779228 0.9671263 0.1779228 0.0328737 -0.1779228
1621810 0.0314425 -0.1741262 0.9685575 0.1741262 0.9685575 0.1741262 0.0314425 -0.1741262
1659587 0.0300718 -0.1703993 0.9699282 0.1703993 0.9699282 0.1703993 0.0300718 -0.1703993
1698244 0.0287591 -0.1667418 0.9712409 0.1667418 0.9712409 0.1667418 0.0287591 -0.1667418
1737801 0.0275021 -0.1631528 0.9724979 0.1631528 0.9724979 0.1631528 0.0275021 -0.1631528
1778279 0.0262987 -0.1596318 0.9737013 0.1596318 0.9737013 0.1596318 0.0262987 -0.1596318
1819701 0.0251466 -0.1561780 0.9748534 0.1561780 0.9748534 0.1561780 0.0251466 -0.1561780
1862087 0.0240439 -0.1527908 0.9759561 0.1527908 0.9759561 0.1527908 0.0240439 -0.1527908
1905461 0.0229884 -0.1494694 0.9770116 0.1494694 0.9770116 0.1494694 0.0229884 -0.1494694
1949845 0.0219783 -0.1462129 0.9780217 0.1462129 0.9780217 0.1462129 0.0219783 -0.1462129
1995262 0.0210117 -0.1430206 0.9789883 0.1430206 0.9789883 0.1430206 0.0210117 -0.1430206
2041738 0.0200868 -0.1398917 0.9799132 0.1398917 0.9799132 0.1398917 0.0200868 -0.1398917
2089296 0.0192019 -0.1368252 0.9807981 0.1368252 0.9807981 0.1368252 0.0192019 -0.1368252
2137962 0.0183553 -0.1338203 0.9816447 0.1338203 0.9816447 0.1338203 0.0183553 -0.1338203
2187762 0.0175455 -0.1308761 0.9824545 0.1308761 0.9824545 0.1308761 0.0175455 -0.1308761
2238721 0.0167708 -0.1279917 0.9832292 0.1279917 0.9832292 0.1279917 0.0167708 -0.1279917
2290868 0.0160299 -0.1251662 0.9839701 0.1251662 0.9839701 0.1251662 0.0160299 -0.1251662
2344229 0.0153213 -0.1223987 0.9846787 0.1223987 0.9846787 0.1223987 0.0153213 -0.1223987
2398833 0.0146436 -0.1196883 0.9853564 0.1196883 0.9853564 0.1196883 0.0146436 -0.1196883
2454709 0.0139956 -0.1170339 0.9860044 0.1170339 0.9860044 0.1170339 0.0139956 -0.1170339
2511886 0.0133759 -0.1144348 0.9866241 0.1144348 0.9866241 0.1144348 0.0133759 -0.1144348
2570396 0.0127834 -0.1118899 0.9872166 0.1118899 0.9872166 0.1118899 0.0127834 -0.1118899
2630268 0.0122169 -0.1093983 0.9877831 0.1093983 0.9877831 0.1093983 0.0122169 -0.1093983
2691535 0.0116753 -0.1069591 0.9883247 0.1069591 0.9883247 0.1069591 0.0116753 -0.1069591
2754229 0.0111575 -0.1045714 0.9888425 0.1045714 0.9888425 0.1045714 0.0111575 -0.1045714
2818383 0.0106625 -0.1022343 0.9893375 0.1022343 0.9893375 0.1022343 0.0106625 -0.1022343
2884032 0.0101893 -0.0999468 0.9898107 0.0999468 0.9898107 0.0999468 0.0101893 -0.0999468
2951209 0.0097370 -0.0977079 0.9902630 0.0977079 0.9902630 0.0977079 0.0097370 -0.0977079
3019952 0.0093047 -0.0955169 0.9906953 0.0955169 0.9906953 0.0955169 0.0093047 -0.0955169
3090295 0.0088915 -0.0933728 0.9911085 0.0933728 0.9911085 0.0933728 0.0088915 -0.0933728
3162278 0.0084966 -0.0912747 0.9915034 0.0912747 0.9915034 0.0912747 0.0084966 -0.0912747
3235937 0.0081192 -0.0892218 0.9918808 0.0892218 0.9918808 0.0892218 0.0081192 -0.0892218
3311311 0.0077585 -0.0872131 0.9922415 0.0872131 0.9922415 0.0872131 0.0077585 -0.0872131
3388442 0.0074138 -0.0852478 0.9925862 0.0852478 0.9925862 0.0852478 0.0074138 -0.0852478
3467369 0.0070844 -0.0833250 0.9929156 0.0833250 0.9929156 0.0833250 0.0070844 -0.0833250
3548134 0.0067697 -0.0814439 0.9932303 0.0814439 0.9932303 0.0814439 0.0067697 -0.0814439
3630781 0.0064689 -0.0796037 0.9935311 0.0796037 0.9935311 0.0796037 0.0064689 -0.0796037
3715352 0.0061815 -0.0778035 0.9938185 0.0778035 0.9938185 0.0778035 0.0061815 -0.0778035
3801894 0.0059069 -0.0760426 0.9940931 0.0760426 0.9940931 0.0760426 0.0059069 -0.0760426
3890451 0.0056446 -0.0743200 0.9943554 0.0743200 0.9943554 0.0743200 0.0056446 -0.0743200
3981072 0.0053939 -0.0726352 0.9946061 0.0726352 0.9946061 0.0726352 0.0053939 -0.0726352
4073803 0.0051544 -0.0709871 0.9948456 0.0709871 0.9948456 0.0709871 0.0051544 -0.0709871
4168694 0.0049256 -0.0693752 0.9950744 0.0693752 0.9950744 0.0693752 0.0049256 -0.0693752
4265795 0.0047071 -0.0677986 0.9952929 0.0677986 0.9952929 0.0677986 0.0047071 -0.0677986
4365158 0.0044983 -0.0662567 0.9955017 0.0662567 0.9955017 0.0662567 0.0044983 -0.0662567
4466836 0.0042988 -0.0647486 0.9957012 0.0647486 0.9957012 0.0647486 0.0042988 -0.0647486
4570882 0.0041082 -0.0632736 0.9958918 0.0632736 0.9958918 0.0632736 0.0041082 -0.0632736
4677351 0.0039262 -0.0618311 0.9960738 0.0618311 0.9960738 0.0618311 0.0039262 -0.0618311
4786301 0.0037524 -0.0604204 0.9962476 0.0604204 0.9962476 0.0604204 0.0037524 -0.0604204
4897788 0.0035863 -0.0590408 0.9964137 0.0590408 0.9964137 0.0590408 0.0035863 -0.0590408
5011872 0.0034277 -0.0576916 0.9965723 0.0576916 0.9965723 0.0576916 0.0034277 -0.0576916
5128614 0.0032762 -0.0563721 0.9967238 0.0563721 0.9967238 0.0563721 0.0032762 -0.0563721
5248075 0.0031315 -0.0550818 0.9968685 0.0550818 0.9968685 0.0550818 0.0031315 -0.0550818
5370318 0.0029933 -0.0538199 0.9970067 0.0538199 0.9970067 0.0538199 0.0029933 -0.0538199
5495409 0.0028613 -0.0525859 0.9971387 0.0525859 0.9971387 0.0525859 0.0028613 -0.0525859
5623413 0.0027353 -0.0513792 0.9972647 0.0513792 0.9972647 0.0513792 0.0027353 -0.0513792
5754399 0.0026149 -0.0501991 0.9973851 0.0501991 0.9973851 0.0501991 0.0026149 -0.0501991
5888437 0.0025000 -0.0490451 0.9975000 0.0490451 0.9975000 0.0490451 0.0025000 -0.0490451
6025596 0.0023902 -0.0479166 0.9976098 0.0479166 0.9976098 0.0479166 0.0023902 -0.0479166
6165950 0.0022854 -0.0468130 0.9977146 0.0468130 0.9977146 0.0468130 0.0022854 -0.0468130
6309573 0.0021854 -0.0457338 0.9978146 0.0457338 0.9978146 0.0457338 0.0021854 -0.0457338
6456542 0.0020899 -0.0446785 0.9979101 0.0446785 0.9979101 0.0446785 0.0020899 -0.0446785
6606934 0.0019986 -0.0436464 0.9980014 0.0436464 0.9980014 0.0436464 0.0019986 -0.0436464
6760830 0.0019116 -0.0426372 0.9980884 0.0426372 0.9980884 0.0426372 0.0019116 -0.0426372
6918310 0.0018285 -0.0416502 0.9981715 0.0416502 0.9981715 0.0416502 0.0018285 -0.0416502
7079458 0.0017491 -0.0406850 0.9982509 0.0406850 0.9982509 0.0406850 0.0017491 -0.0406850
7244360 0.0016734 -0.0397411 0.9983266 0.0397411 0.9983266 0.0397411 0.0016734 -0.0397411
7413102 0.0016011 -0.0388179 0.9983989 0.0388179 0.9983989 0.0388179 0.0016011 -0.0388179
7585776 0.0015321 -0.0379152 0.9984679 0.0379152 0.9984679 0.0379152 0.0015321 -0.0379152
7762471 0.0014663 -0.0370323 0.9985337 0.0370323 0.9985337 0.0370323 0.0014663 -0.0370323
7943282 0.0014035 -0.0361688 0.9985965 0.0361688 0.9985965 0.0361688 0.0014035 -0.0361688
8128305 0.0013435 -0.0353243 0.9986565 0.0353243 0.9986565 0.0353243 0.0013435 -0.0353243
8317638 0.0012864 -0.0344984 0.9987136 0.0344984 0.9987136 0.0344984 0.0012864 -0.0344984
8511380 0.0012318 -0.0336906 0.9987682 0.0336906 0.9987682 0.0336906 0.0012318 -0.0336906
8709636 0.0011798 -0.0329005 0.9988202 0.0329005 0.9988202 0.0329005 0.0011798 -0.0329005
8912509 0.0011302 -0.0321277 0.9988698 0.0321277 0.9988698 0.0321277 0.0011302 -0.0321277
9120108 0.0010828 -0.0313718 0.9989172 0.0313718 0.9989172 0.0313718 0.0010828 -0.0313718
9332543 0.0010377 -0.0306324 0.9989623 0.0306324 0.9989623 0.0306324 0.0010377 -0.0306324
9549926 0.0009947 -0.0299092 0.9990053 0.0299092 0.9990053 0.0299092 0.0009947 -0.0299092
9772372 0.0009537 -0.0292017 0.9990463 0.0292017 0.9990463 0.0292017 0.0009537 -0.0292017
10000000 0.0009146 -0.0285097 0.9990854 0.0285097 0.9990854 0.0285097 0.0009146 -0.0285097
10232930 0.0008774 -0.0278326 0.9991226 0.0278326 0.9991226 0.0278326 0.0008774 -0.0278326
10471285 0.0008419 -0.0271703 0.9991581 0.0271703 0.9991581 0.0271703 0.0008419 -0.0271703
10715193 0.0008081 -0.0265223 0.9991919 0.0265223 0.9991919 0.0265223 0.0008081 -0.0265223
10964782 0.0007759 -0.0258883 0.9992241 0.0258883 0.9992241 0.0258883 0.0007759 -0.0258883
11220185 0.0007453 -0.0252680 0.9992547 0.0252680 0.9992547 0.0252680 0.0007453 -0.0252680
11481536 0.0007161 -0.0246611 0.9992839 0.0246611 0.9992839 0.0246611 0.0007161 -0.0246611
11748976 0.0006884 -0.0240672 0.9993116 0.0240672 0.9993116 0.0240672 0.0006884 -0.0240672
12022644 0.0006620 -0.0234861 0.9993380 0.0234861 0.9993380 0.0234861 0.0006620 -0.0234861
12302688 0.0006369 -0.0229174 0.9993631 0.0229174 0.9993631 0.0229174 0.0006369 -0.0229174
12589254 0.0006130 -0.0223608 0.9993870 0.0223608 0.9993870 0.0223608 0.0006130 -0.0223608
12882496 0.0005904 -0.0218161 0.9994096 0.0218161 0.9994096 0.0218161 0.0005904 -0.0218161
13182567 0.0005688 -0.0212829 0.9994312 0.0212829 0.9994312 0.0212829 0.0005688 -0.0212829
13489629 0.0005484 -0.0207611 0.9994516 0.0207611 0.9994516 0.0207611 0.0005484 -0.0207611
13803843 0.0005289 -0.0202502 0.9994711 0.0202502 0.9994711 0.0202502 0.0005289 -0.0202502
14125375 0.0005105 -0.0197501 0.9994895 0.0197501 0.9994895 0.0197501 0.0005105 -0.0197501
14454398 0.0004931 -0.0192606 0.9995069 0.0192606 0.9995069 0.0192606 0.0004931 -0.0192606
14791084 0.0004765 -0.0187812 0.9995235 0.0187812 0.9995235 0.0187812 0.0004765 -0.0187812
