!Murata Part Number: GRM32NR61A226ME19
!These Parameters are Measured in Series Mode Connection
!Data Generated on Mar 30, 2021
!       o--ll--o
!Port1            Port2
!       o------o
!Operation Temp=25[degC], DC Bias Voltage=0[V]
!Freq. Start=100[Hz] Stop=6[GHz] 401[Steps]
# Hz S RI R 50
!Freq.(Hz) S11(Real) S11(Imag) S21(Real) S21(Imag) S12(Real) S12(Imag) S22(Real) S22(Imag)
100 0.4950168 -0.4882247 0.5049832 0.4882247 0.5049832 0.4882247 0.4950168 -0.4882247
105 0.4734765 -0.4875097 0.5265235 0.4875097 0.5265235 0.4875097 0.4734765 -0.4875097
109 0.4520425 -0.4858666 0.5479575 0.4858666 0.5479575 0.4858666 0.4520425 -0.4858666
114 0.4307955 -0.4833120 0.5692045 0.4833120 0.5692045 0.4833120 0.4307955 -0.4833120
120 0.4098130 -0.4798711 0.5901870 0.4798711 0.5901870 0.4798711 0.4098130 -0.4798711
125 0.3891685 -0.4755772 0.6108315 0.4755772 0.6108315 0.4755772 0.3891685 -0.4755772
131 0.3689302 -0.4704706 0.6310698 0.4704706 0.6310698 0.4704706 0.3689302 -0.4704706
137 0.3491602 -0.4645978 0.6508398 0.4645978 0.6508398 0.4645978 0.3491602 -0.4645978
143 0.3299143 -0.4580108 0.6700857 0.4580108 0.6700857 0.4580108 0.3299143 -0.4580108
150 0.3112408 -0.4507655 0.6887592 0.4507655 0.6887592 0.4507655 0.3112408 -0.4507655
156 0.2931809 -0.4429211 0.7068191 0.4429211 0.7068191 0.4429211 0.2931809 -0.4429211
164 0.2757681 -0.4345384 0.7242319 0.4345384 0.7242319 0.4345384 0.2757681 -0.4345384
171 0.2590288 -0.4256796 0.7409712 0.4256796 0.7409712 0.4256796 0.2590288 -0.4256796
179 0.2429823 -0.4164064 0.7570177 0.4164064 0.7570177 0.4164064 0.2429823 -0.4164064
187 0.2276409 -0.4067801 0.7723591 0.4067801 0.7723591 0.4067801 0.2276409 -0.4067801
196 0.2130109 -0.3968600 0.7869891 0.3968600 0.7869891 0.3968600 0.2130109 -0.3968600
205 0.1990929 -0.3867033 0.8009071 0.3867033 0.8009071 0.3867033 0.1990929 -0.3867033
214 0.1858820 -0.3763646 0.8141180 0.3763646 0.8141180 0.3763646 0.1858820 -0.3763646
224 0.1733693 -0.3658950 0.8266307 0.3658950 0.8266307 0.3658950 0.1733693 -0.3658950
234 0.1615416 -0.3553425 0.8384584 0.3553425 0.8384584 0.3553425 0.1615416 -0.3553425
245 0.1503827 -0.3447513 0.8496173 0.3447513 0.8496173 0.3447513 0.1503827 -0.3447513
256 0.1398734 -0.3341621 0.8601266 0.3341621 0.8601266 0.3341621 0.1398734 -0.3341621
268 0.1299926 -0.3236117 0.8700074 0.3236117 0.8700074 0.3236117 0.1299926 -0.3236117
280 0.1207173 -0.3131333 0.8792827 0.3131333 0.8792827 0.3131333 0.1207173 -0.3131333
293 0.1120234 -0.3027568 0.8879766 0.3027568 0.8879766 0.3027568 0.1120234 -0.3027568
306 0.1038858 -0.2925083 0.8961142 0.2925083 0.8961142 0.2925083 0.1038858 -0.2925083
320 0.0962791 -0.2824111 0.9037209 0.2824111 0.9037209 0.2824111 0.0962791 -0.2824111
335 0.0891775 -0.2724851 0.9108225 0.2724851 0.9108225 0.2724851 0.0891775 -0.2724851
350 0.0825554 -0.2627476 0.9174446 0.2627476 0.9174446 0.2627476 0.0825554 -0.2627476
366 0.0763873 -0.2532131 0.9236127 0.2532131 0.9236127 0.2532131 0.0763873 -0.2532131
383 0.0706483 -0.2438938 0.9293517 0.2438938 0.9293517 0.2438938 0.0706483 -0.2438938
401 0.0653138 -0.2347998 0.9346862 0.2347998 0.9346862 0.2347998 0.0653138 -0.2347998
419 0.0603602 -0.2259388 0.9396398 0.2259388 0.9396398 0.2259388 0.0603602 -0.2259388
438 0.0557643 -0.2173170 0.9442357 0.2173170 0.9442357 0.2173170 0.0557643 -0.2173170
458 0.0515042 -0.2089388 0.9484958 0.2089388 0.9484958 0.2089388 0.0515042 -0.2089388
479 0.0475583 -0.2008072 0.9524417 0.2008072 0.9524417 0.2008072 0.0475583 -0.2008072
501 0.0439065 -0.1929237 0.9560935 0.1929237 0.9560935 0.1929237 0.0439065 -0.1929237
524 0.0405291 -0.1852887 0.9594709 0.1852887 0.9594709 0.1852887 0.0405291 -0.1852887
548 0.0374077 -0.1779017 0.9625923 0.1779017 0.9625923 0.1779017 0.0374077 -0.1779017
573 0.0345247 -0.1707609 0.9654753 0.1707609 0.9654753 0.1707609 0.0345247 -0.1707609
600 0.0318634 -0.1638639 0.9681366 0.1638639 0.9681366 0.1638639 0.0318634 -0.1638639
627 0.0294082 -0.1572077 0.9705918 0.1572077 0.9705918 0.1572077 0.0294082 -0.1572077
656 0.0271441 -0.1507885 0.9728559 0.1507885 0.9728559 0.1507885 0.0271441 -0.1507885
686 0.0250572 -0.1446021 0.9749428 0.1446021 0.9749428 0.1446021 0.0250572 -0.1446021
717 0.0231344 -0.1386438 0.9768656 0.1386438 0.9768656 0.1386438 0.0231344 -0.1386438
750 0.0213633 -0.1329084 0.9786367 0.1329084 0.9786367 0.1329084 0.0213633 -0.1329084
784 0.0197326 -0.1273907 0.9802674 0.1273907 0.9802674 0.1273907 0.0197326 -0.1273907
820 0.0182313 -0.1220850 0.9817687 0.1220850 0.9817687 0.1220850 0.0182313 -0.1220850
858 0.0168494 -0.1169855 0.9831506 0.1169855 0.9831506 0.1169855 0.0168494 -0.1169855
897 0.0155777 -0.1120863 0.9844223 0.1120863 0.9844223 0.1120863 0.0155777 -0.1120863
938 0.0144074 -0.1073813 0.9855926 0.1073813 0.9855926 0.1073813 0.0144074 -0.1073813
981 0.0133303 -0.1028646 0.9866697 0.1028646 0.9866697 0.1028646 0.0133303 -0.1028646
1026 0.0123391 -0.0985299 0.9876609 0.0985299 0.9876609 0.0985299 0.0123391 -0.0985299
1073 0.0114267 -0.0943712 0.9885733 0.0943712 0.9885733 0.0943712 0.0114267 -0.0943712
1122 0.0105867 -0.0903824 0.9894133 0.0903824 0.9894133 0.0903824 0.0105867 -0.0903824
1174 0.0098132 -0.0865575 0.9901868 0.0865575 0.9901868 0.0865575 0.0098132 -0.0865575
1227 0.0091006 -0.0828906 0.9908994 0.0828906 0.9908994 0.0828906 0.0091006 -0.0828906
1283 0.0084439 -0.0793758 0.9915561 0.0793758 0.9915561 0.0793758 0.0084439 -0.0793758
1342 0.0078385 -0.0760073 0.9921615 0.0760073 0.9921615 0.0760073 0.0078385 -0.0760073
1404 0.0072800 -0.0727797 0.9927200 0.0727797 0.9927200 0.0727797 0.0072800 -0.0727797
1468 0.0067646 -0.0696873 0.9932354 0.0696873 0.9932354 0.0696873 0.0067646 -0.0696873
1535 0.0062885 -0.0667249 0.9937115 0.0667249 0.9937115 0.0667249 0.0062885 -0.0667249
1606 0.0058485 -0.0638872 0.9941515 0.0638872 0.9941515 0.0638872 0.0058485 -0.0638872
1679 0.0054417 -0.0611691 0.9945583 0.0611691 0.9945583 0.0611691 0.0054417 -0.0611691
1756 0.0050651 -0.0585658 0.9949349 0.0585658 0.9949349 0.0585658 0.0050651 -0.0585658
1836 0.0047164 -0.0560725 0.9952836 0.0560725 0.9952836 0.0560725 0.0047164 -0.0560725
1920 0.0043933 -0.0536846 0.9956067 0.0536846 0.9956067 0.0536846 0.0043933 -0.0536846
2008 0.0040936 -0.0513977 0.9959064 0.0513977 0.9959064 0.0513977 0.0040936 -0.0513977
2100 0.0038154 -0.0492075 0.9961846 0.0492075 0.9961846 0.0492075 0.0038154 -0.0492075
2196 0.0035572 -0.0471100 0.9964428 0.0471100 0.9964428 0.0471100 0.0035572 -0.0471100
2297 0.0033172 -0.0451012 0.9966828 0.0451012 0.9966828 0.0451012 0.0033172 -0.0451012
2402 0.0030942 -0.0431773 0.9969058 0.0431773 0.9969058 0.0431773 0.0030942 -0.0431773
2512 0.0028868 -0.0413347 0.9971132 0.0413347 0.9971132 0.0413347 0.0028868 -0.0413347
2627 0.0026939 -0.0395700 0.9973061 0.0395700 0.9973061 0.0395700 0.0026939 -0.0395700
2748 0.0025143 -0.0378798 0.9974857 0.0378798 0.9974857 0.0378798 0.0025143 -0.0378798
2873 0.0023473 -0.0362610 0.9976527 0.0362610 0.9976527 0.0362610 0.0023473 -0.0362610
3005 0.0021918 -0.0347105 0.9978082 0.0347105 0.9978082 0.0347105 0.0021918 -0.0347105
3143 0.0020471 -0.0332256 0.9979529 0.0332256 0.9979529 0.0332256 0.0020471 -0.0332256
3287 0.0019124 -0.0318033 0.9980876 0.0318033 0.9980876 0.0318033 0.0019124 -0.0318033
3437 0.0017871 -0.0304411 0.9982129 0.0304411 0.9982129 0.0304411 0.0017871 -0.0304411
3594 0.0016706 -0.0291365 0.9983294 0.0291365 0.9983294 0.0291365 0.0016706 -0.0291365
3759 0.0015622 -0.0278870 0.9984378 0.0278870 0.9984378 0.0278870 0.0015622 -0.0278870
3931 0.0014614 -0.0266905 0.9985386 0.0266905 0.9985386 0.0266905 0.0014614 -0.0266905
4111 0.0013678 -0.0255446 0.9986322 0.0255446 0.9986322 0.0255446 0.0013678 -0.0255446
4299 0.0012808 -0.0244473 0.9987192 0.0244473 0.9987192 0.0244473 0.0012808 -0.0244473
4496 0.0012000 -0.0233965 0.9988000 0.0233965 0.9988000 0.0233965 0.0012000 -0.0233965
4702 0.0011249 -0.0223904 0.9988751 0.0223904 0.9988751 0.0223904 0.0011249 -0.0223904
4918 0.0010553 -0.0214272 0.9989447 0.0214272 0.9989447 0.0214272 0.0010553 -0.0214272
5143 0.0009907 -0.0205049 0.9990093 0.0205049 0.9990093 0.0205049 0.0009907 -0.0205049
5378 0.0009307 -0.0196221 0.9990693 0.0196221 0.9990693 0.0196221 0.0009307 -0.0196221
5625 0.0008751 -0.0187769 0.9991249 0.0187769 0.9991249 0.0187769 0.0008751 -0.0187769
5882 0.0008235 -0.0179680 0.9991765 0.0179680 0.9991765 0.0179680 0.0008235 -0.0179680
6151 0.0007757 -0.0171937 0.9992243 0.0171937 0.9992243 0.0171937 0.0007757 -0.0171937
6433 0.0007313 -0.0164527 0.9992687 0.0164527 0.9992687 0.0164527 0.0007313 -0.0164527
6728 0.0006901 -0.0157435 0.9993099 0.0157435 0.9993099 0.0157435 0.0006901 -0.0157435
7036 0.0006519 -0.0150649 0.9993481 0.0150649 0.9993481 0.0150649 0.0006519 -0.0150649
7358 0.0006164 -0.0144155 0.9993836 0.0144155 0.9993836 0.0144155 0.0006164 -0.0144155
7695 0.0005834 -0.0137941 0.9994166 0.0137941 0.9994166 0.0137941 0.0005834 -0.0137941
8047 0.0005527 -0.0131996 0.9994473 0.0131996 0.9994473 0.0131996 0.0005527 -0.0131996
8416 0.0005241 -0.0126307 0.9994759 0.0126307 0.9994759 0.0126307 0.0005241 -0.0126307
8801 0.0004974 -0.0120865 0.9995026 0.0120865 0.9995026 0.0120865 0.0004974 -0.0120865
9204 0.0004726 -0.0115659 0.9995274 0.0115659 0.9995274 0.0115659 0.0004726 -0.0115659
9626 0.0004493 -0.0110679 0.9995507 0.0110679 0.9995507 0.0110679 0.0004493 -0.0110679
10066 0.0004276 -0.0105914 0.9995724 0.0105914 0.9995724 0.0105914 0.0004276 -0.0105914
10527 0.0004072 -0.0101356 0.9995928 0.0101356 0.9995928 0.0101356 0.0004072 -0.0101356
11009 0.0003880 -0.0096995 0.9996120 0.0096995 0.9996120 0.0096995 0.0003880 -0.0096995
11514 0.0003700 -0.0092824 0.9996300 0.0092824 0.9996300 0.0092824 0.0003700 -0.0092824
12041 0.0003530 -0.0088834 0.9996470 0.0088834 0.9996470 0.0088834 0.0003530 -0.0088834
12592 0.0003370 -0.0085016 0.9996630 0.0085016 0.9996630 0.0085016 0.0003370 -0.0085016
13169 0.0003218 -0.0081364 0.9996782 0.0081364 0.9996782 0.0081364 0.0003218 -0.0081364
13772 0.0003075 -0.0077870 0.9996925 0.0077870 0.9996925 0.0077870 0.0003075 -0.0077870
14402 0.0002938 -0.0074527 0.9997062 0.0074527 0.9997062 0.0074527 0.0002938 -0.0074527
15062 0.0002808 -0.0071329 0.9997192 0.0071329 0.9997192 0.0071329 0.0002808 -0.0071329
15752 0.0002685 -0.0068268 0.9997315 0.0068268 0.9997315 0.0068268 0.0002685 -0.0068268
16473 0.0002567 -0.0065340 0.9997433 0.0065340 0.9997433 0.0065340 0.0002567 -0.0065340
17227 0.0002455 -0.0062538 0.9997545 0.0062538 0.9997545 0.0062538 0.0002455 -0.0062538
18016 0.0002348 -0.0059856 0.9997652 0.0059856 0.9997652 0.0059856 0.0002348 -0.0059856
18841 0.0002246 -0.0057289 0.9997754 0.0057289 0.9997754 0.0057289 0.0002246 -0.0057289
19704 0.0002148 -0.0054833 0.9997852 0.0054833 0.9997852 0.0054833 0.0002148 -0.0054833
20606 0.0002055 -0.0052481 0.9997945 0.0052481 0.9997945 0.0052481 0.0002055 -0.0052481
21550 0.0001966 -0.0050231 0.9998034 0.0050231 0.9998034 0.0050231 0.0001966 -0.0050231
22537 0.0001881 -0.0048076 0.9998119 0.0048076 0.9998119 0.0048076 0.0001881 -0.0048076
23569 0.0001800 -0.0046014 0.9998200 0.0046014 0.9998200 0.0046014 0.0001800 -0.0046014
24648 0.0001722 -0.0044040 0.9998278 0.0044040 0.9998278 0.0044040 0.0001722 -0.0044040
25777 0.0001649 -0.0042150 0.9998351 0.0042150 0.9998351 0.0042150 0.0001649 -0.0042150
26957 0.0001578 -0.0040341 0.9998422 0.0040341 0.9998422 0.0040341 0.0001578 -0.0040341
28191 0.0001512 -0.0038609 0.9998488 0.0038609 0.9998488 0.0038609 0.0001512 -0.0038609
29482 0.0001448 -0.0036951 0.9998552 0.0036951 0.9998552 0.0036951 0.0001448 -0.0036951
30832 0.0001388 -0.0035364 0.9998612 0.0035364 0.9998612 0.0035364 0.0001388 -0.0035364
32244 0.0001331 -0.0033844 0.9998669 0.0033844 0.9998669 0.0033844 0.0001331 -0.0033844
33721 0.0001277 -0.0032390 0.9998723 0.0032390 0.9998723 0.0032390 0.0001277 -0.0032390
35265 0.0001226 -0.0030997 0.9998774 0.0030997 0.9998774 0.0030997 0.0001226 -0.0030997
36880 0.0001177 -0.0029665 0.9998823 0.0029665 0.9998823 0.0029665 0.0001177 -0.0029665
38569 0.0001131 -0.0028389 0.9998869 0.0028389 0.9998869 0.0028389 0.0001131 -0.0028389
40335 0.0001087 -0.0027168 0.9998913 0.0027168 0.9998913 0.0027168 0.0001087 -0.0027168
42182 0.0001046 -0.0025999 0.9998954 0.0025999 0.9998954 0.0025999 0.0001046 -0.0025999
44113 0.0001007 -0.0024880 0.9998993 0.0024880 0.9998993 0.0024880 0.0001007 -0.0024880
46134 0.0000970 -0.0023810 0.9999030 0.0023810 0.9999030 0.0023810 0.0000970 -0.0023810
48246 0.0000935 -0.0022785 0.9999065 0.0022785 0.9999065 0.0022785 0.0000935 -0.0022785
50455 0.0000902 -0.0021805 0.9999098 0.0021805 0.9999098 0.0021805 0.0000902 -0.0021805
52766 0.0000870 -0.0020867 0.9999130 0.0020867 0.9999130 0.0020867 0.0000870 -0.0020867
55182 0.0000840 -0.0019969 0.9999160 0.0019969 0.9999160 0.0019969 0.0000840 -0.0019969
57709 0.0000812 -0.0019109 0.9999188 0.0019109 0.9999188 0.0019109 0.0000812 -0.0019109
60352 0.0000784 -0.0018287 0.9999216 0.0018287 0.9999216 0.0018287 0.0000784 -0.0018287
63115 0.0000758 -0.0017500 0.9999242 0.0017500 0.9999242 0.0017500 0.0000758 -0.0017500
66005 0.0000733 -0.0016747 0.9999267 0.0016747 0.9999267 0.0016747 0.0000733 -0.0016747
69028 0.0000710 -0.0016027 0.9999290 0.0016027 0.9999290 0.0016027 0.0000710 -0.0016027
72189 0.0000687 -0.0015337 0.9999313 0.0015337 0.9999313 0.0015337 0.0000687 -0.0015337
75495 0.0000664 -0.0014677 0.9999336 0.0014677 0.9999336 0.0014677 0.0000664 -0.0014677
78952 0.0000643 -0.0014046 0.9999357 0.0014046 0.9999357 0.0014046 0.0000643 -0.0014046
82567 0.0000623 -0.0013441 0.9999377 0.0013441 0.9999377 0.0013441 0.0000623 -0.0013441
86348 0.0000603 -0.0012862 0.9999397 0.0012862 0.9999397 0.0012862 0.0000603 -0.0012862
90302 0.0000584 -0.0012308 0.9999416 0.0012308 0.9999416 0.0012308 0.0000584 -0.0012308
94437 0.0000565 -0.0011778 0.9999435 0.0011778 0.9999435 0.0011778 0.0000565 -0.0011778
98762 0.0000547 -0.0011270 0.9999453 0.0011270 0.9999453 0.0011270 0.0000547 -0.0011270
103284 0.0000530 -0.0010784 0.9999470 0.0010784 0.9999470 0.0010784 0.0000530 -0.0010784
108014 0.0000513 -0.0010318 0.9999487 0.0010318 0.9999487 0.0010318 0.0000513 -0.0010318
112960 0.0000497 -0.0009872 0.9999503 0.0009872 0.9999503 0.0009872 0.0000497 -0.0009872
118133 0.0000481 -0.0009445 0.9999519 0.0009445 0.9999519 0.0009445 0.0000481 -0.0009445
123542 0.0000466 -0.0009035 0.9999534 0.0009035 0.9999534 0.0009035 0.0000466 -0.0009035
129199 0.0000451 -0.0008643 0.9999549 0.0008643 0.9999549 0.0008643 0.0000451 -0.0008643
135116 0.0000437 -0.0008267 0.9999563 0.0008267 0.9999563 0.0008267 0.0000437 -0.0008267
141303 0.0000423 -0.0007907 0.9999577 0.0007907 0.9999577 0.0007907 0.0000423 -0.0007907
147774 0.0000410 -0.0007562 0.9999590 0.0007562 0.9999590 0.0007562 0.0000410 -0.0007562
154540 0.0000398 -0.0007231 0.9999602 0.0007231 0.9999602 0.0007231 0.0000398 -0.0007231
161617 0.0000386 -0.0006914 0.9999614 0.0006914 0.9999614 0.0006914 0.0000386 -0.0006914
169018 0.0000375 -0.0006609 0.9999625 0.0006609 0.9999625 0.0006609 0.0000375 -0.0006609
176758 0.0000364 -0.0006318 0.9999636 0.0006318 0.9999636 0.0006318 0.0000364 -0.0006318
184852 0.0000353 -0.0006038 0.9999647 0.0006038 0.9999647 0.0006038 0.0000353 -0.0006038
193316 0.0000344 -0.0005770 0.9999656 0.0005770 0.9999656 0.0005770 0.0000344 -0.0005770
202169 0.0000334 -0.0005513 0.9999666 0.0005513 0.9999666 0.0005513 0.0000334 -0.0005513
211427 0.0000326 -0.0005266 0.9999674 0.0005266 0.9999674 0.0005266 0.0000326 -0.0005266
221108 0.0000317 -0.0005029 0.9999683 0.0005029 0.9999683 0.0005029 0.0000317 -0.0005029
231233 0.0000310 -0.0004802 0.9999690 0.0004802 0.9999690 0.0004802 0.0000310 -0.0004802
241822 0.0000302 -0.0004584 0.9999698 0.0004584 0.9999698 0.0004584 0.0000302 -0.0004584
252896 0.0000296 -0.0004375 0.9999704 0.0004375 0.9999704 0.0004375 0.0000296 -0.0004375
264476 0.0000289 -0.0004174 0.9999711 0.0004174 0.9999711 0.0004174 0.0000289 -0.0004174
276587 0.0000283 -0.0003982 0.9999717 0.0003982 0.9999717 0.0003982 0.0000283 -0.0003982
289253 0.0000278 -0.0003797 0.9999722 0.0003797 0.9999722 0.0003797 0.0000278 -0.0003797
302498 0.0000273 -0.0003619 0.9999727 0.0003619 0.9999727 0.0003619 0.0000273 -0.0003619
316350 0.0000268 -0.0003448 0.9999732 0.0003448 0.9999732 0.0003448 0.0000268 -0.0003448
330837 0.0000264 -0.0003284 0.9999736 0.0003284 0.9999736 0.0003284 0.0000264 -0.0003284
345986 0.0000260 -0.0003126 0.9999740 0.0003126 0.9999740 0.0003126 0.0000260 -0.0003126
361830 0.0000256 -0.0002975 0.9999744 0.0002975 0.9999744 0.0002975 0.0000256 -0.0002975
378399 0.0000253 -0.0002829 0.9999747 0.0002829 0.9999747 0.0002829 0.0000253 -0.0002829
395726 0.0000250 -0.0002689 0.9999750 0.0002689 0.9999750 0.0002689 0.0000250 -0.0002689
413847 0.0000247 -0.0002554 0.9999753 0.0002554 0.9999753 0.0002554 0.0000247 -0.0002554
432798 0.0000245 -0.0002423 0.9999755 0.0002423 0.9999755 0.0002423 0.0000245 -0.0002423
452617 0.0000243 -0.0002298 0.9999757 0.0002298 0.9999757 0.0002298 0.0000243 -0.0002298
473344 0.0000241 -0.0002177 0.9999759 0.0002177 0.9999759 0.0002177 0.0000241 -0.0002177
495019 0.0000239 -0.0002061 0.9999761 0.0002061 0.9999761 0.0002061 0.0000239 -0.0002061
517687 0.0000238 -0.0001948 0.9999762 0.0001948 0.9999762 0.0001948 0.0000238 -0.0001948
541393 0.0000237 -0.0001840 0.9999763 0.0001840 0.9999763 0.0001840 0.0000237 -0.0001840
566185 0.0000236 -0.0001735 0.9999764 0.0001735 0.9999764 0.0001735 0.0000236 -0.0001735
592111 0.0000235 -0.0001633 0.9999765 0.0001633 0.9999765 0.0001633 0.0000235 -0.0001633
619225 0.0000235 -0.0001534 0.9999765 0.0001534 0.9999765 0.0001534 0.0000235 -0.0001534
647581 0.0000235 -0.0001439 0.9999765 0.0001439 0.9999765 0.0001439 0.0000235 -0.0001439
677235 0.0000235 -0.0001346 0.9999765 0.0001346 0.9999765 0.0001346 0.0000235 -0.0001346
708247 0.0000235 -0.0001256 0.9999765 0.0001256 0.9999765 0.0001256 0.0000235 -0.0001256
740679 0.0000235 -0.0001169 0.9999765 0.0001169 0.9999765 0.0001169 0.0000235 -0.0001169
774597 0.0000236 -0.0001083 0.9999764 0.0001083 0.9999764 0.0001083 0.0000236 -0.0001083
810067 0.0000237 -0.0001000 0.9999763 0.0001000 0.9999763 0.0001000 0.0000237 -0.0001000
847162 0.0000238 -0.0000919 0.9999762 0.0000919 0.9999762 0.0000919 0.0000238 -0.0000919
885955 0.0000239 -0.0000839 0.9999761 0.0000839 0.9999761 0.0000839 0.0000239 -0.0000839
926525 0.0000241 -0.0000761 0.9999759 0.0000761 0.9999759 0.0000761 0.0000241 -0.0000761
968953 0.0000243 -0.0000685 0.9999757 0.0000685 0.9999757 0.0000685 0.0000243 -0.0000685
1013323 0.0000246 -0.0000609 0.9999754 0.0000609 0.9999754 0.0000609 0.0000246 -0.0000609
1059725 0.0000248 -0.0000535 0.9999752 0.0000535 0.9999752 0.0000535 0.0000248 -0.0000535
1108252 0.0000252 -0.0000461 0.9999748 0.0000461 0.9999748 0.0000461 0.0000252 -0.0000461
1159002 0.0000255 -0.0000388 0.9999745 0.0000388 0.9999745 0.0000388 0.0000255 -0.0000388
1212075 0.0000260 -0.0000316 0.9999740 0.0000316 0.9999740 0.0000316 0.0000260 -0.0000316
1267578 0.0000264 -0.0000244 0.9999736 0.0000244 0.9999736 0.0000244 0.0000264 -0.0000244
1325623 0.0000270 -0.0000172 0.9999730 0.0000172 0.9999730 0.0000172 0.0000270 -0.0000172
1386327 0.0000276 -0.0000100 0.9999724 0.0000100 0.9999724 0.0000100 0.0000276 -0.0000100
1449809 0.0000283 -0.0000027 0.9999717 0.0000027 0.9999717 0.0000027 0.0000283 -0.0000027
1516199 0.0000291 0.0000046 0.9999709 -0.0000046 0.9999709 -0.0000046 0.0000291 0.0000046
1585629 0.0000301 0.0000120 0.9999699 -0.0000120 0.9999699 -0.0000120 0.0000301 0.0000120
1658239 0.0000312 0.0000195 0.9999688 -0.0000195 0.9999688 -0.0000195 0.0000312 0.0000195
1734173 0.0000325 0.0000273 0.9999675 -0.0000273 0.9999675 -0.0000273 0.0000325 0.0000273
1813585 0.0000341 0.0000352 0.9999659 -0.0000352 0.9999659 -0.0000352 0.0000341 0.0000352
1896632 0.0000360 0.0000434 0.9999640 -0.0000434 0.9999640 -0.0000434 0.0000360 0.0000434
1983483 0.0000383 0.0000520 0.9999617 -0.0000520 0.9999617 -0.0000520 0.0000383 0.0000520
2074311 0.0000413 0.0000609 0.9999587 -0.0000609 0.9999587 -0.0000609 0.0000413 0.0000609
