!Murata Part Number: GRM32ER71A476KE15
!These Parameters are Measured in Series Mode Connection
!Data Generated on Mar 30, 2021
!       o--ll--o
!Port1            Port2
!       o------o
!Operation Temp=25[degC], DC Bias Voltage=0[V]
!Freq. Start=100[Hz] Stop=6[GHz] 401[Steps]
# Hz S RI R 50
!Freq.(Hz) S11(Real) S11(Imag) S21(Real) S21(Imag) S12(Real) S12(Imag) S22(Real) S22(Imag)
100 0.2090897 -0.3968339 0.7909103 0.3968339 0.7909103 0.3968339 0.2090897 -0.3968339
105 0.1951074 -0.3865206 0.8048926 0.3865206 0.8048926 0.3865206 0.1951074 -0.3865206
109 0.1818523 -0.3760120 0.8181477 0.3760120 0.8181477 0.3760120 0.1818523 -0.3760120
114 0.1693173 -0.3653630 0.8306827 0.3653630 0.8306827 0.3653630 0.1693173 -0.3653630
120 0.1574904 -0.3546251 0.8425096 0.3546251 0.8425096 0.3546251 0.1574904 -0.3546251
125 0.1463556 -0.3438464 0.8536444 0.3438464 0.8536444 0.3438464 0.1463556 -0.3438464
131 0.1358936 -0.3330712 0.8641064 0.3330712 0.8641064 0.3330712 0.1358936 -0.3330712
137 0.1260825 -0.3223397 0.8739175 0.3223397 0.8739175 0.3223397 0.1260825 -0.3223397
143 0.1168979 -0.3116883 0.8831021 0.3116883 0.8831021 0.3116883 0.1168979 -0.3116883
150 0.1083140 -0.3011496 0.8916860 0.3011496 0.8916860 0.3011496 0.1083140 -0.3011496
156 0.1003036 -0.2907522 0.8996964 0.2907522 0.8996964 0.2907522 0.1003036 -0.2907522
164 0.0928387 -0.2805211 0.9071613 0.2805211 0.9071613 0.2805211 0.0928387 -0.2805211
171 0.0858912 -0.2704777 0.9141088 0.2704777 0.9141088 0.2704777 0.0858912 -0.2704777
179 0.0794327 -0.2606405 0.9205673 0.2606405 0.9205673 0.2606405 0.0794327 -0.2606405
187 0.0734352 -0.2510244 0.9265648 0.2510244 0.9265648 0.2510244 0.0734352 -0.2510244
196 0.0678710 -0.2416418 0.9321290 0.2416418 0.9321290 0.2416418 0.0678710 -0.2416418
205 0.0627133 -0.2325025 0.9372867 0.2325025 0.9372867 0.2325025 0.0627133 -0.2325025
214 0.0579360 -0.2236139 0.9420640 0.2236139 0.9420640 0.2236139 0.0579360 -0.2236139
224 0.0535139 -0.2149811 0.9464861 0.2149811 0.9464861 0.2149811 0.0535139 -0.2149811
234 0.0494230 -0.2066076 0.9505770 0.2066076 0.9505770 0.2066076 0.0494230 -0.2066076
245 0.0456404 -0.1984951 0.9543596 0.1984951 0.9543596 0.1984951 0.0456404 -0.1984951
256 0.0421442 -0.1906437 0.9578558 0.1906437 0.9578558 0.1906437 0.0421442 -0.1906437
268 0.0389139 -0.1830523 0.9610861 0.1830523 0.9610861 0.1830523 0.0389139 -0.1830523
280 0.0359301 -0.1757187 0.9640699 0.1757187 0.9640699 0.1757187 0.0359301 -0.1757187
293 0.0331745 -0.1686398 0.9668255 0.1686398 0.9668255 0.1686398 0.0331745 -0.1686398
306 0.0306301 -0.1618115 0.9693699 0.1618115 0.9693699 0.1618115 0.0306301 -0.1618115
320 0.0282810 -0.1552293 0.9717190 0.1552293 0.9717190 0.1552293 0.0282810 -0.1552293
335 0.0261123 -0.1488879 0.9738877 0.1488879 0.9738877 0.1488879 0.0261123 -0.1488879
350 0.0241102 -0.1427817 0.9758898 0.1427817 0.9758898 0.1427817 0.0241102 -0.1427817
366 0.0222620 -0.1369047 0.9777380 0.1369047 0.9777380 0.1369047 0.0222620 -0.1369047
383 0.0205558 -0.1312506 0.9794442 0.1312506 0.9794442 0.1312506 0.0205558 -0.1312506
401 0.0189807 -0.1258132 0.9810193 0.1258132 0.9810193 0.1258132 0.0189807 -0.1258132
419 0.0175265 -0.1205858 0.9824735 0.1205858 0.9824735 0.1205858 0.0175265 -0.1205858
438 0.0161840 -0.1155620 0.9838160 0.1155620 0.9838160 0.1155620 0.0161840 -0.1155620
458 0.0149446 -0.1107351 0.9850554 0.1107351 0.9850554 0.1107351 0.0149446 -0.1107351
479 0.0138004 -0.1060985 0.9861996 0.1060985 0.9861996 0.1060985 0.0138004 -0.1060985
501 0.0127441 -0.1016459 0.9872559 0.1016459 0.9872559 0.1016459 0.0127441 -0.1016459
524 0.0117689 -0.0973709 0.9882311 0.0973709 0.9882311 0.0973709 0.0117689 -0.0973709
548 0.0108688 -0.0932672 0.9891312 0.0932672 0.9891312 0.0932672 0.0108688 -0.0932672
573 0.0100380 -0.0893287 0.9899620 0.0893287 0.9899620 0.0893287 0.0100380 -0.0893287
600 0.0092713 -0.0855494 0.9907287 0.0855494 0.9907287 0.0855494 0.0092713 -0.0855494
627 0.0085639 -0.0819236 0.9914361 0.0819236 0.9914361 0.0819236 0.0085639 -0.0819236
656 0.0079113 -0.0784455 0.9920887 0.0784455 0.9920887 0.0784455 0.0079113 -0.0784455
686 0.0073093 -0.0751097 0.9926907 0.0751097 0.9926907 0.0751097 0.0073093 -0.0751097
717 0.0067542 -0.0719108 0.9932458 0.0719108 0.9932458 0.0719108 0.0067542 -0.0719108
750 0.0062424 -0.0688437 0.9937576 0.0688437 0.9937576 0.0688437 0.0062424 -0.0688437
784 0.0057707 -0.0659034 0.9942293 0.0659034 0.9942293 0.0659034 0.0057707 -0.0659034
820 0.0053359 -0.0630851 0.9946641 0.0630851 0.9946641 0.0630851 0.0053359 -0.0630851
858 0.0049354 -0.0603840 0.9950646 0.0603840 0.9950646 0.0603840 0.0049354 -0.0603840
897 0.0045665 -0.0577957 0.9954335 0.0577957 0.9954335 0.0577957 0.0045665 -0.0577957
938 0.0042268 -0.0553158 0.9957732 0.0553158 0.9957732 0.0553158 0.0042268 -0.0553158
981 0.0039141 -0.0529400 0.9960859 0.0529400 0.9960859 0.0529400 0.0039141 -0.0529400
1026 0.0036262 -0.0506643 0.9963738 0.0506643 0.9963738 0.0506643 0.0036262 -0.0506643
1073 0.0033612 -0.0484846 0.9966388 0.0484846 0.9966388 0.0484846 0.0033612 -0.0484846
1122 0.0031173 -0.0463973 0.9968827 0.0463973 0.9968827 0.0463973 0.0031173 -0.0463973
1174 0.0028929 -0.0443986 0.9971071 0.0443986 0.9971071 0.0443986 0.0028929 -0.0443986
1227 0.0026864 -0.0424849 0.9973136 0.0424849 0.9973136 0.0424849 0.0026864 -0.0424849
1283 0.0024964 -0.0406528 0.9975036 0.0406528 0.9975036 0.0406528 0.0024964 -0.0406528
1342 0.0023216 -0.0388991 0.9976784 0.0388991 0.9976784 0.0388991 0.0023216 -0.0388991
1404 0.0021606 -0.0372204 0.9978394 0.0372204 0.9978394 0.0372204 0.0021606 -0.0372204
1468 0.0020125 -0.0356138 0.9979875 0.0356138 0.9979875 0.0356138 0.0020125 -0.0356138
1535 0.0018760 -0.0340763 0.9981240 0.0340763 0.9981240 0.0340763 0.0018760 -0.0340763
1606 0.0017503 -0.0326050 0.9982497 0.0326050 0.9982497 0.0326050 0.0017503 -0.0326050
1679 0.0016345 -0.0311971 0.9983655 0.0311971 0.9983655 0.0311971 0.0016345 -0.0311971
1756 0.0015277 -0.0298500 0.9984723 0.0298500 0.9984723 0.0298500 0.0015277 -0.0298500
1836 0.0014291 -0.0285612 0.9985709 0.0285612 0.9985709 0.0285612 0.0014291 -0.0285612
1920 0.0013381 -0.0273282 0.9986619 0.0273282 0.9986619 0.0273282 0.0013381 -0.0273282
2008 0.0012539 -0.0261485 0.9987461 0.0261485 0.9987461 0.0261485 0.0012539 -0.0261485
2100 0.0011761 -0.0250200 0.9988239 0.0250200 0.9988239 0.0250200 0.0011761 -0.0250200
2196 0.0011040 -0.0239405 0.9988960 0.0239405 0.9988960 0.0239405 0.0011040 -0.0239405
2297 0.0010371 -0.0229078 0.9989629 0.0229078 0.9989629 0.0229078 0.0010371 -0.0229078
2402 0.0009750 -0.0219199 0.9990250 0.0219199 0.9990250 0.0219199 0.0009750 -0.0219199
2512 0.0009173 -0.0209749 0.9990827 0.0209749 0.9990827 0.0209749 0.0009173 -0.0209749
2627 0.0008636 -0.0200710 0.9991364 0.0200710 0.9991364 0.0200710 0.0008636 -0.0200710
2748 0.0008135 -0.0192062 0.9991865 0.0192062 0.9991865 0.0192062 0.0008135 -0.0192062
2873 0.0007667 -0.0183790 0.9992333 0.0183790 0.9992333 0.0183790 0.0007667 -0.0183790
3005 0.0007229 -0.0175876 0.9992771 0.0175876 0.9992771 0.0175876 0.0007229 -0.0175876
3143 0.0006820 -0.0168305 0.9993180 0.0168305 0.9993180 0.0168305 0.0006820 -0.0168305
3287 0.0006435 -0.0161062 0.9993565 0.0161062 0.9993565 0.0161062 0.0006435 -0.0161062
3437 0.0006074 -0.0154132 0.9993926 0.0154132 0.9993926 0.0154132 0.0006074 -0.0154132
3594 0.0005735 -0.0147501 0.9994265 0.0147501 0.9994265 0.0147501 0.0005735 -0.0147501
3759 0.0005416 -0.0141157 0.9994584 0.0141157 0.9994584 0.0141157 0.0005416 -0.0141157
3931 0.0005115 -0.0135086 0.9994885 0.0135086 0.9994885 0.0135086 0.0005115 -0.0135086
4111 0.0004831 -0.0129276 0.9995169 0.0129276 0.9995169 0.0129276 0.0004831 -0.0129276
4299 0.0004563 -0.0123716 0.9995437 0.0123716 0.9995437 0.0123716 0.0004563 -0.0123716
4496 0.0004310 -0.0118395 0.9995690 0.0118395 0.9995690 0.0118395 0.0004310 -0.0118395
4702 0.0004072 -0.0113302 0.9995928 0.0113302 0.9995928 0.0113302 0.0004072 -0.0113302
4918 0.0003846 -0.0108427 0.9996154 0.0108427 0.9996154 0.0108427 0.0003846 -0.0108427
5143 0.0003633 -0.0103761 0.9996367 0.0103761 0.9996367 0.0103761 0.0003633 -0.0103761
5378 0.0003433 -0.0099295 0.9996567 0.0099295 0.9996567 0.0099295 0.0003433 -0.0099295
5625 0.0003243 -0.0095020 0.9996757 0.0095020 0.9996757 0.0095020 0.0003243 -0.0095020
5882 0.0003065 -0.0090927 0.9996935 0.0090927 0.9996935 0.0090927 0.0003065 -0.0090927
6151 0.0002896 -0.0087010 0.9997104 0.0087010 0.9997104 0.0087010 0.0002896 -0.0087010
6433 0.0002738 -0.0083259 0.9997262 0.0083259 0.9997262 0.0083259 0.0002738 -0.0083259
6728 0.0002589 -0.0079669 0.9997411 0.0079669 0.9997411 0.0079669 0.0002589 -0.0079669
7036 0.0002448 -0.0076232 0.9997552 0.0076232 0.9997552 0.0076232 0.0002448 -0.0076232
7358 0.0002317 -0.0072942 0.9997683 0.0072942 0.9997683 0.0072942 0.0002317 -0.0072942
7695 0.0002193 -0.0069793 0.9997807 0.0069793 0.9997807 0.0069793 0.0002193 -0.0069793
8047 0.0002078 -0.0066779 0.9997922 0.0066779 0.9997922 0.0066779 0.0002078 -0.0066779
8416 0.0001969 -0.0063894 0.9998031 0.0063894 0.9998031 0.0063894 0.0001969 -0.0063894
8801 0.0001868 -0.0061132 0.9998132 0.0061132 0.9998132 0.0061132 0.0001868 -0.0061132
9204 0.0001773 -0.0058489 0.9998227 0.0058489 0.9998227 0.0058489 0.0001773 -0.0058489
9626 0.0001684 -0.0055959 0.9998316 0.0055959 0.9998316 0.0055959 0.0001684 -0.0055959
10066 0.0001602 -0.0053538 0.9998398 0.0053538 0.9998398 0.0053538 0.0001602 -0.0053538
10527 0.0001524 -0.0051221 0.9998476 0.0051221 0.9998476 0.0051221 0.0001524 -0.0051221
11009 0.0001452 -0.0049004 0.9998548 0.0049004 0.9998548 0.0049004 0.0001452 -0.0049004
11514 0.0001385 -0.0046883 0.9998615 0.0046883 0.9998615 0.0046883 0.0001385 -0.0046883
12041 0.0001322 -0.0044853 0.9998678 0.0044853 0.9998678 0.0044853 0.0001322 -0.0044853
12592 0.0001264 -0.0042911 0.9998736 0.0042911 0.9998736 0.0042911 0.0001264 -0.0042911
13169 0.0001209 -0.0041053 0.9998791 0.0041053 0.9998791 0.0041053 0.0001209 -0.0041053
13772 0.0001158 -0.0039275 0.9998842 0.0039275 0.9998842 0.0039275 0.0001158 -0.0039275
14402 0.0001111 -0.0037575 0.9998889 0.0037575 0.9998889 0.0037575 0.0001111 -0.0037575
15062 0.0001066 -0.0035948 0.9998934 0.0035948 0.9998934 0.0035948 0.0001066 -0.0035948
15752 0.0001024 -0.0034392 0.9998976 0.0034392 0.9998976 0.0034392 0.0001024 -0.0034392
16473 0.0000985 -0.0032904 0.9999015 0.0032904 0.9999015 0.0032904 0.0000985 -0.0032904
17227 0.0000949 -0.0031480 0.9999051 0.0031480 0.9999051 0.0031480 0.0000949 -0.0031480
18016 0.0000914 -0.0030118 0.9999086 0.0030118 0.9999086 0.0030118 0.0000914 -0.0030118
18841 0.0000881 -0.0028815 0.9999119 0.0028815 0.9999119 0.0028815 0.0000881 -0.0028815
19704 0.0000850 -0.0027570 0.9999150 0.0027570 0.9999150 0.0027570 0.0000850 -0.0027570
20606 0.0000821 -0.0026378 0.9999179 0.0026378 0.9999179 0.0026378 0.0000821 -0.0026378
21550 0.0000793 -0.0025239 0.9999207 0.0025239 0.9999207 0.0025239 0.0000793 -0.0025239
22537 0.0000767 -0.0024149 0.9999233 0.0024149 0.9999233 0.0024149 0.0000767 -0.0024149
23569 0.0000742 -0.0023106 0.9999258 0.0023106 0.9999258 0.0023106 0.0000742 -0.0023106
24648 0.0000717 -0.0022109 0.9999283 0.0022109 0.9999283 0.0022109 0.0000717 -0.0022109
25777 0.0000694 -0.0021155 0.9999306 0.0021155 0.9999306 0.0021155 0.0000694 -0.0021155
26957 0.0000672 -0.0020243 0.9999328 0.0020243 0.9999328 0.0020243 0.0000672 -0.0020243
28191 0.0000650 -0.0019370 0.9999350 0.0019370 0.9999350 0.0019370 0.0000650 -0.0019370
29482 0.0000629 -0.0018535 0.9999371 0.0018535 0.9999371 0.0018535 0.0000629 -0.0018535
30832 0.0000609 -0.0017736 0.9999391 0.0017736 0.9999391 0.0017736 0.0000609 -0.0017736
32244 0.0000589 -0.0016972 0.9999411 0.0016972 0.9999411 0.0016972 0.0000589 -0.0016972
33721 0.0000570 -0.0016241 0.9999430 0.0016241 0.9999430 0.0016241 0.0000570 -0.0016241
35265 0.0000551 -0.0015541 0.9999449 0.0015541 0.9999449 0.0015541 0.0000551 -0.0015541
36880 0.0000533 -0.0014872 0.9999467 0.0014872 0.9999467 0.0014872 0.0000533 -0.0014872
38569 0.0000515 -0.0014231 0.9999485 0.0014231 0.9999485 0.0014231 0.0000515 -0.0014231
40335 0.0000498 -0.0013617 0.9999502 0.0013617 0.9999502 0.0013617 0.0000498 -0.0013617
42182 0.0000481 -0.0013030 0.9999519 0.0013030 0.9999519 0.0013030 0.0000481 -0.0013030
44113 0.0000465 -0.0012468 0.9999535 0.0012468 0.9999535 0.0012468 0.0000465 -0.0012468
46134 0.0000449 -0.0011930 0.9999551 0.0011930 0.9999551 0.0011930 0.0000449 -0.0011930
48246 0.0000433 -0.0011415 0.9999567 0.0011415 0.9999567 0.0011415 0.0000433 -0.0011415
50455 0.0000418 -0.0010921 0.9999582 0.0010921 0.9999582 0.0010921 0.0000418 -0.0010921
52766 0.0000404 -0.0010449 0.9999596 0.0010449 0.9999596 0.0010449 0.0000404 -0.0010449
55182 0.0000390 -0.0009996 0.9999610 0.0009996 0.9999610 0.0009996 0.0000390 -0.0009996
57709 0.0000377 -0.0009563 0.9999623 0.0009563 0.9999623 0.0009563 0.0000377 -0.0009563
60352 0.0000364 -0.0009148 0.9999636 0.0009148 0.9999636 0.0009148 0.0000364 -0.0009148
63115 0.0000351 -0.0008750 0.9999649 0.0008750 0.9999649 0.0008750 0.0000351 -0.0008750
66005 0.0000339 -0.0008369 0.9999661 0.0008369 0.9999661 0.0008369 0.0000339 -0.0008369
69028 0.0000328 -0.0008004 0.9999672 0.0008004 0.9999672 0.0008004 0.0000328 -0.0008004
72189 0.0000317 -0.0007654 0.9999683 0.0007654 0.9999683 0.0007654 0.0000317 -0.0007654
75495 0.0000307 -0.0007319 0.9999693 0.0007319 0.9999693 0.0007319 0.0000307 -0.0007319
78952 0.0000298 -0.0006998 0.9999702 0.0006998 0.9999702 0.0006998 0.0000298 -0.0006998
82567 0.0000288 -0.0006691 0.9999712 0.0006691 0.9999712 0.0006691 0.0000288 -0.0006691
86348 0.0000280 -0.0006396 0.9999720 0.0006396 0.9999720 0.0006396 0.0000280 -0.0006396
90302 0.0000272 -0.0006114 0.9999728 0.0006114 0.9999728 0.0006114 0.0000272 -0.0006114
94437 0.0000264 -0.0005843 0.9999736 0.0005843 0.9999736 0.0005843 0.0000264 -0.0005843
98762 0.0000257 -0.0005584 0.9999743 0.0005584 0.9999743 0.0005584 0.0000257 -0.0005584
103284 0.0000250 -0.0005335 0.9999750 0.0005335 0.9999750 0.0005335 0.0000250 -0.0005335
108014 0.0000244 -0.0005097 0.9999756 0.0005097 0.9999756 0.0005097 0.0000244 -0.0005097
112960 0.0000238 -0.0004869 0.9999762 0.0004869 0.9999762 0.0004869 0.0000238 -0.0004869
118133 0.0000232 -0.0004650 0.9999768 0.0004650 0.9999768 0.0004650 0.0000232 -0.0004650
123542 0.0000227 -0.0004440 0.9999773 0.0004440 0.9999773 0.0004440 0.0000227 -0.0004440
129199 0.0000222 -0.0004239 0.9999778 0.0004239 0.9999778 0.0004239 0.0000222 -0.0004239
135116 0.0000218 -0.0004046 0.9999782 0.0004046 0.9999782 0.0004046 0.0000218 -0.0004046
141303 0.0000214 -0.0003861 0.9999786 0.0003861 0.9999786 0.0003861 0.0000214 -0.0003861
147774 0.0000210 -0.0003684 0.9999790 0.0003684 0.9999790 0.0003684 0.0000210 -0.0003684
154540 0.0000206 -0.0003513 0.9999794 0.0003513 0.9999794 0.0003513 0.0000206 -0.0003513
161617 0.0000203 -0.0003350 0.9999797 0.0003350 0.9999797 0.0003350 0.0000203 -0.0003350
169018 0.0000200 -0.0003193 0.9999800 0.0003193 0.9999800 0.0003193 0.0000200 -0.0003193
176758 0.0000198 -0.0003043 0.9999802 0.0003043 0.9999802 0.0003043 0.0000198 -0.0003043
184852 0.0000195 -0.0002898 0.9999805 0.0002898 0.9999805 0.0002898 0.0000195 -0.0002898
193316 0.0000193 -0.0002760 0.9999807 0.0002760 0.9999807 0.0002760 0.0000193 -0.0002760
202169 0.0000191 -0.0002626 0.9999809 0.0002626 0.9999809 0.0002626 0.0000191 -0.0002626
211427 0.0000189 -0.0002498 0.9999811 0.0002498 0.9999811 0.0002498 0.0000189 -0.0002498
221108 0.0000187 -0.0002375 0.9999813 0.0002375 0.9999813 0.0002375 0.0000187 -0.0002375
231233 0.0000186 -0.0002256 0.9999814 0.0002256 0.9999814 0.0002256 0.0000186 -0.0002256
241822 0.0000184 -0.0002142 0.9999816 0.0002142 0.9999816 0.0002142 0.0000184 -0.0002142
252896 0.0000183 -0.0002032 0.9999817 0.0002032 0.9999817 0.0002032 0.0000183 -0.0002032
264476 0.0000182 -0.0001926 0.9999818 0.0001926 0.9999818 0.0001926 0.0000182 -0.0001926
276587 0.0000181 -0.0001824 0.9999819 0.0001824 0.9999819 0.0001824 0.0000181 -0.0001824
289253 0.0000180 -0.0001726 0.9999820 0.0001726 0.9999820 0.0001726 0.0000180 -0.0001726
302498 0.0000180 -0.0001631 0.9999820 0.0001631 0.9999820 0.0001631 0.0000180 -0.0001631
316350 0.0000179 -0.0001539 0.9999821 0.0001539 0.9999821 0.0001539 0.0000179 -0.0001539
330837 0.0000179 -0.0001450 0.9999821 0.0001450 0.9999821 0.0001450 0.0000179 -0.0001450
345986 0.0000179 -0.0001364 0.9999821 0.0001364 0.9999821 0.0001364 0.0000179 -0.0001364
361830 0.0000179 -0.0001280 0.9999821 0.0001280 0.9999821 0.0001280 0.0000179 -0.0001280
378399 0.0000179 -0.0001199 0.9999821 0.0001199 0.9999821 0.0001199 0.0000179 -0.0001199
395726 0.0000180 -0.0001121 0.9999820 0.0001121 0.9999820 0.0001121 0.0000180 -0.0001121
413847 0.0000180 -0.0001045 0.9999820 0.0001045 0.9999820 0.0001045 0.0000180 -0.0001045
432798 0.0000181 -0.0000970 0.9999819 0.0000970 0.9999819 0.0000970 0.0000181 -0.0000970
452617 0.0000182 -0.0000898 0.9999818 0.0000898 0.9999818 0.0000898 0.0000182 -0.0000898
473344 0.0000184 -0.0000827 0.9999816 0.0000827 0.9999816 0.0000827 0.0000184 -0.0000827
495019 0.0000185 -0.0000758 0.9999815 0.0000758 0.9999815 0.0000758 0.0000185 -0.0000758
517687 0.0000187 -0.0000690 0.9999813 0.0000690 0.9999813 0.0000690 0.0000187 -0.0000690
541393 0.0000189 -0.0000624 0.9999811 0.0000624 0.9999811 0.0000624 0.0000189 -0.0000624
566185 0.0000192 -0.0000558 0.9999808 0.0000558 0.9999808 0.0000558 0.0000192 -0.0000558
592111 0.0000194 -0.0000494 0.9999806 0.0000494 0.9999806 0.0000494 0.0000194 -0.0000494
619225 0.0000197 -0.0000431 0.9999803 0.0000431 0.9999803 0.0000431 0.0000197 -0.0000431
647581 0.0000201 -0.0000368 0.9999799 0.0000368 0.9999799 0.0000368 0.0000201 -0.0000368
677235 0.0000205 -0.0000306 0.9999795 0.0000306 0.9999795 0.0000306 0.0000205 -0.0000306
708247 0.0000210 -0.0000244 0.9999790 0.0000244 0.9999790 0.0000244 0.0000210 -0.0000244
740679 0.0000215 -0.0000182 0.9999785 0.0000182 0.9999785 0.0000182 0.0000215 -0.0000182
774597 0.0000221 -0.0000121 0.9999779 0.0000121 0.9999779 0.0000121 0.0000221 -0.0000121
810067 0.0000228 -0.0000059 0.9999772 0.0000059 0.9999772 0.0000059 0.0000228 -0.0000059
847162 0.0000235 0.0000003 0.9999765 -0.0000003 0.9999765 -0.0000003 0.0000235 0.0000003
885955 0.0000244 0.0000065 0.9999756 -0.0000065 0.9999756 -0.0000065 0.0000244 0.0000065
926525 0.0000254 0.0000129 0.9999746 -0.0000129 0.9999746 -0.0000129 0.0000254 0.0000129
968953 0.0000266 0.0000193 0.9999734 -0.0000193 0.9999734 -0.0000193 0.0000266 0.0000193
1013323 0.0000280 0.0000259 0.9999720 -0.0000259 0.9999720 -0.0000259 0.0000280 0.0000259
1059725 0.0000296 0.0000327 0.9999704 -0.0000327 0.9999704 -0.0000327 0.0000296 0.0000327
1108252 0.0000316 0.0000397 0.9999684 -0.0000397 0.9999684 -0.0000397 0.0000316 0.0000397
1159002 0.0000341 0.0000469 0.9999659 -0.0000469 0.9999659 -0.0000469 0.0000341 0.0000469
1212075 0.0000373 0.0000545 0.9999627 -0.0000545 0.9999627 -0.0000545 0.0000373 0.0000545
1267578 0.0000415 0.0000622 0.9999585 -0.0000622 0.9999585 -0.0000622 0.0000415 0.0000622
1325623 0.0000472 0.0000700 0.9999528 -0.0000700 0.9999528 -0.0000700 0.0000472 0.0000700
1386327 0.0000551 0.0000772 0.9999449 -0.0000772 0.9999449 -0.0000772 0.0000551 0.0000772
1449809 0.0000657 0.0000823 0.9999343 -0.0000823 0.9999343 -0.0000823 0.0000657 0.0000823
1516199 0.0000780 0.0000822 0.9999220 -0.0000822 0.9999220 -0.0000822 0.0000780 0.0000822
1585629 0.0000871 0.0000754 0.9999129 -0.0000754 0.9999129 -0.0000754 0.0000871 0.0000754
1658239 0.0000874 0.0000664 0.9999126 -0.0000664 0.9999126 -0.0000664 0.0000874 0.0000664
1734173 0.0000813 0.0000631 0.9999187 -0.0000631 0.9999187 -0.0000631 0.0000813 0.0000631
1813585 0.0000753 0.0000665 0.9999247 -0.0000665 0.9999247 -0.0000665 0.0000753 0.0000665
1896632 0.0000726 0.0000736 0.9999274 -0.0000736 0.9999274 -0.0000736 0.0000726 0.0000736
1983483 0.0000737 0.0000815 0.9999263 -0.0000815 0.9999263 -0.0000815 0.0000737 0.0000815
2074311 0.0000782 0.0000885 0.9999218 -0.0000885 0.9999218 -0.0000885 0.0000782 0.0000885
