!Murata Part Number: GRM32ER71J106MA12
!These Parameters are Measured in Series Mode Connection
!Data Generated on Mar 30, 2021
!       o--ll--o
!Port1            Port2
!       o------o
!Operation Temp=25[degC], DC Bias Voltage=0[V]
!Freq. Start=100[Hz] Stop=6[GHz] 401[Steps]
# Hz S RI R 50
!Freq.(Hz) S11(Real) S11(Imag) S21(Real) S21(Imag) S12(Real) S12(Imag) S22(Real) S22(Imag)
100 0.7332477 -0.4405655 0.2667523 0.4405655 0.2667523 0.4405655 0.7332477 -0.4405655
105 0.7154778 -0.4494835 0.2845222 0.4494835 0.2845222 0.4494835 0.7154778 -0.4494835
109 0.6970124 -0.4578399 0.3029876 0.4578399 0.3029876 0.4578399 0.6970124 -0.4578399
114 0.6778875 -0.4655686 0.3221125 0.4655686 0.3221125 0.4655686 0.6778875 -0.4655686
120 0.6581469 -0.4726060 0.3418531 0.4726060 0.3418531 0.4726060 0.6581469 -0.4726060
125 0.6378427 -0.4788917 0.3621573 0.4788917 0.3621573 0.4788917 0.6378427 -0.4788917
131 0.6170342 -0.4843701 0.3829658 0.4843701 0.3829658 0.4843701 0.6170342 -0.4843701
137 0.5957881 -0.4889910 0.4042119 0.4889910 0.4042119 0.4889910 0.5957881 -0.4889910
143 0.5741771 -0.4927113 0.4258229 0.4927113 0.4258229 0.4927113 0.5741771 -0.4927113
150 0.5522797 -0.4954956 0.4477203 0.4954956 0.4477203 0.4954956 0.5522797 -0.4954956
156 0.5301784 -0.4973169 0.4698216 0.4973169 0.4698216 0.4973169 0.5301784 -0.4973169
164 0.5079592 -0.4981575 0.4920408 0.4981575 0.4920408 0.4981575 0.5079592 -0.4981575
171 0.4857096 -0.4980092 0.5142904 0.4980092 0.5142904 0.4980092 0.4857096 -0.4980092
179 0.4635177 -0.4968737 0.5364823 0.4968737 0.5364823 0.4968737 0.4635177 -0.4968737
187 0.4414706 -0.4947624 0.5585294 0.4947624 0.5585294 0.4947624 0.4414706 -0.4947624
196 0.4196532 -0.4916960 0.5803468 0.4916960 0.5803468 0.4916960 0.4196532 -0.4916960
205 0.3981467 -0.4877042 0.6018533 0.4877042 0.6018533 0.4877042 0.3981467 -0.4877042
214 0.3770276 -0.4828252 0.6229724 0.4828252 0.6229724 0.4828252 0.3770276 -0.4828252
224 0.3563666 -0.4771043 0.6436334 0.4771043 0.6436334 0.4771043 0.3563666 -0.4771043
234 0.3362279 -0.4705933 0.6637721 0.4705933 0.6637721 0.4705933 0.3362279 -0.4705933
245 0.3166684 -0.4633492 0.6833316 0.4633492 0.6833316 0.4633492 0.3166684 -0.4633492
256 0.2977375 -0.4554334 0.7022625 0.4554334 0.7022625 0.4554334 0.2977375 -0.4554334
268 0.2794765 -0.4469102 0.7205235 0.4469102 0.7205235 0.4469102 0.2794765 -0.4469102
280 0.2619187 -0.4378456 0.7380813 0.4378456 0.7380813 0.4378456 0.2619187 -0.4378456
293 0.2450898 -0.4283067 0.7549102 0.4283067 0.7549102 0.4283067 0.2450898 -0.4283067
306 0.2290077 -0.4183601 0.7709923 0.4183601 0.7709923 0.4183601 0.2290077 -0.4183601
320 0.2136833 -0.4080716 0.7863167 0.4080716 0.7863167 0.4080716 0.2136833 -0.4080716
335 0.1991205 -0.3975049 0.8008795 0.3975049 0.8008795 0.3975049 0.1991205 -0.3975049
350 0.1853176 -0.3867212 0.8146824 0.3867212 0.8146824 0.3867212 0.1853176 -0.3867212
366 0.1722669 -0.3757787 0.8277331 0.3757787 0.8277331 0.3757787 0.1722669 -0.3757787
383 0.1599562 -0.3647319 0.8400438 0.3647319 0.8400438 0.3647319 0.1599562 -0.3647319
401 0.1483692 -0.3536317 0.8516308 0.3536317 0.8516308 0.3536317 0.1483692 -0.3536317
419 0.1374857 -0.3425248 0.8625143 0.3425248 0.8625143 0.3425248 0.1374857 -0.3425248
438 0.1272829 -0.3314539 0.8727171 0.3314539 0.8727171 0.3314539 0.1272829 -0.3314539
458 0.1177359 -0.3204574 0.8822641 0.3204574 0.8822641 0.3204574 0.1177359 -0.3204574
479 0.1088176 -0.3095699 0.8911824 0.3095699 0.8911824 0.3095699 0.1088176 -0.3095699
501 0.1004999 -0.2988217 0.8995001 0.2988217 0.8995001 0.2988217 0.1004999 -0.2988217
524 0.0927541 -0.2882393 0.9072459 0.2882393 0.9072459 0.2882393 0.0927541 -0.2882393
548 0.0855506 -0.2778459 0.9144494 0.2778459 0.9144494 0.2778459 0.0855506 -0.2778459
573 0.0788603 -0.2676608 0.9211397 0.2676608 0.9211397 0.2676608 0.0788603 -0.2676608
600 0.0726539 -0.2577004 0.9273461 0.2577004 0.9273461 0.2577004 0.0726539 -0.2577004
627 0.0669029 -0.2479781 0.9330971 0.2479781 0.9330971 0.2479781 0.0669029 -0.2479781
656 0.0615793 -0.2385046 0.9384207 0.2385046 0.9384207 0.2385046 0.0615793 -0.2385046
686 0.0566559 -0.2292882 0.9433441 0.2292882 0.9433441 0.2292882 0.0566559 -0.2292882
717 0.0521066 -0.2203348 0.9478934 0.2203348 0.9478934 0.2203348 0.0521066 -0.2203348
750 0.0479064 -0.2116486 0.9520936 0.2116486 0.9520936 0.2116486 0.0479064 -0.2116486
784 0.0440313 -0.2032318 0.9559687 0.2032318 0.9559687 0.2032318 0.0440313 -0.2032318
820 0.0404585 -0.1950852 0.9595415 0.1950852 0.9595415 0.1950852 0.0404585 -0.1950852
858 0.0371665 -0.1872082 0.9628335 0.1872082 0.9628335 0.1872082 0.0371665 -0.1872082
897 0.0341348 -0.1795990 0.9658652 0.1795990 0.9658652 0.1795990 0.0341348 -0.1795990
938 0.0313443 -0.1722547 0.9686557 0.1722547 0.9686557 0.1722547 0.0313443 -0.1722547
981 0.0287769 -0.1651717 0.9712231 0.1651717 0.9712231 0.1651717 0.0287769 -0.1651717
1026 0.0264159 -0.1583457 0.9735841 0.1583457 0.9735841 0.1583457 0.0264159 -0.1583457
1073 0.0242453 -0.1517715 0.9757547 0.1517715 0.9757547 0.1517715 0.0242453 -0.1517715
1122 0.0222505 -0.1454437 0.9777495 0.1454437 0.9777495 0.1454437 0.0222505 -0.1454437
1174 0.0204177 -0.1393565 0.9795823 0.1393565 0.9795823 0.1393565 0.0204177 -0.1393565
1227 0.0187344 -0.1335034 0.9812656 0.1335034 0.9812656 0.1335034 0.0187344 -0.1335034
1283 0.0171885 -0.1278782 0.9828115 0.1278782 0.9828115 0.1278782 0.0171885 -0.1278782
1342 0.0157692 -0.1224742 0.9842308 0.1224742 0.9842308 0.1224742 0.0157692 -0.1224742
1404 0.0144664 -0.1172846 0.9855336 0.1172846 0.9855336 0.1172846 0.0144664 -0.1172846
1468 0.0132706 -0.1123027 0.9867294 0.1123027 0.9867294 0.1123027 0.0132706 -0.1123027
1535 0.0121732 -0.1075217 0.9878268 0.1075217 0.9878268 0.1075217 0.0121732 -0.1075217
1606 0.0111662 -0.1029347 0.9888338 0.1029347 0.9888338 0.1029347 0.0111662 -0.1029347
1679 0.0102424 -0.0985350 0.9897576 0.0985350 0.9897576 0.0985350 0.0102424 -0.0985350
1756 0.0093948 -0.0943161 0.9906052 0.0943161 0.9906052 0.0943161 0.0093948 -0.0943161
1836 0.0086173 -0.0902713 0.9913827 0.0902713 0.9913827 0.0902713 0.0086173 -0.0902713
1920 0.0079041 -0.0863943 0.9920959 0.0863943 0.9920959 0.0863943 0.0079041 -0.0863943
2008 0.0072500 -0.0826787 0.9927500 0.0826787 0.9927500 0.0826787 0.0072500 -0.0826787
2100 0.0066500 -0.0791184 0.9933500 0.0791184 0.9933500 0.0791184 0.0066500 -0.0791184
2196 0.0060998 -0.0757075 0.9939002 0.0757075 0.9939002 0.0757075 0.0060998 -0.0757075
2297 0.0055953 -0.0724401 0.9944047 0.0724401 0.9944047 0.0724401 0.0055953 -0.0724401
2402 0.0051326 -0.0693106 0.9948674 0.0693106 0.9948674 0.0693106 0.0051326 -0.0693106
2512 0.0047084 -0.0663136 0.9952916 0.0663136 0.9952916 0.0663136 0.0047084 -0.0663136
2627 0.0043194 -0.0634437 0.9956806 0.0634437 0.9956806 0.0634437 0.0043194 -0.0634437
2748 0.0039628 -0.0606959 0.9960372 0.0606959 0.9960372 0.0606959 0.0039628 -0.0606959
2873 0.0036359 -0.0580651 0.9963641 0.0580651 0.9963641 0.0580651 0.0036359 -0.0580651
3005 0.0033363 -0.0555467 0.9966637 0.0555467 0.9966637 0.0555467 0.0033363 -0.0555467
3143 0.0030616 -0.0531360 0.9969384 0.0531360 0.9969384 0.0531360 0.0030616 -0.0531360
3287 0.0028098 -0.0508286 0.9971902 0.0508286 0.9971902 0.0508286 0.0028098 -0.0508286
3437 0.0025790 -0.0486202 0.9974210 0.0486202 0.9974210 0.0486202 0.0025790 -0.0486202
3594 0.0023675 -0.0465067 0.9976325 0.0465067 0.9976325 0.0465067 0.0023675 -0.0465067
3759 0.0021737 -0.0444842 0.9978263 0.0444842 0.9978263 0.0444842 0.0021737 -0.0444842
3931 0.0019960 -0.0425488 0.9980040 0.0425488 0.9980040 0.0425488 0.0019960 -0.0425488
4111 0.0018333 -0.0406970 0.9981667 0.0406970 0.9981667 0.0406970 0.0018333 -0.0406970
4299 0.0016841 -0.0389251 0.9983159 0.0389251 0.9983159 0.0389251 0.0016841 -0.0389251
4496 0.0015474 -0.0372298 0.9984526 0.0372298 0.9984526 0.0372298 0.0015474 -0.0372298
4702 0.0014221 -0.0356079 0.9985779 0.0356079 0.9985779 0.0356079 0.0014221 -0.0356079
4918 0.0013073 -0.0340563 0.9986927 0.0340563 0.9986927 0.0340563 0.0013073 -0.0340563
5143 0.0012021 -0.0325719 0.9987979 0.0325719 0.9987979 0.0325719 0.0012021 -0.0325719
5378 0.0011057 -0.0311519 0.9988943 0.0311519 0.9988943 0.0311519 0.0011057 -0.0311519
5625 0.0010173 -0.0297936 0.9989827 0.0297936 0.9989827 0.0297936 0.0010173 -0.0297936
5882 0.0009363 -0.0284943 0.9990637 0.0284943 0.9990637 0.0284943 0.0009363 -0.0284943
6151 0.0008621 -0.0272514 0.9991379 0.0272514 0.9991379 0.0272514 0.0008621 -0.0272514
6433 0.0007940 -0.0260626 0.9992060 0.0260626 0.9992060 0.0260626 0.0007940 -0.0260626
6728 0.0007316 -0.0249255 0.9992684 0.0249255 0.9992684 0.0249255 0.0007316 -0.0249255
7036 0.0006743 -0.0238379 0.9993257 0.0238379 0.9993257 0.0238379 0.0006743 -0.0238379
7358 0.0006218 -0.0227977 0.9993782 0.0227977 0.9993782 0.0227977 0.0006218 -0.0227977
7695 0.0005736 -0.0218028 0.9994264 0.0218028 0.9994264 0.0218028 0.0005736 -0.0218028
8047 0.0005294 -0.0208512 0.9994706 0.0208512 0.9994706 0.0208512 0.0005294 -0.0208512
8416 0.0004888 -0.0199411 0.9995112 0.0199411 0.9995112 0.0199411 0.0004888 -0.0199411
8801 0.0004516 -0.0190706 0.9995484 0.0190706 0.9995484 0.0190706 0.0004516 -0.0190706
9204 0.0004174 -0.0182381 0.9995826 0.0182381 0.9995826 0.0182381 0.0004174 -0.0182381
9626 0.0003860 -0.0174419 0.9996140 0.0174419 0.9996140 0.0174419 0.0003860 -0.0174419
10066 0.0003571 -0.0166804 0.9996429 0.0166804 0.9996429 0.0166804 0.0003571 -0.0166804
10527 0.0003306 -0.0159522 0.9996694 0.0159522 0.9996694 0.0159522 0.0003306 -0.0159522
11009 0.0003063 -0.0152557 0.9996937 0.0152557 0.9996937 0.0152557 0.0003063 -0.0152557
11514 0.0002839 -0.0145895 0.9997161 0.0145895 0.9997161 0.0145895 0.0002839 -0.0145895
12041 0.0002633 -0.0139525 0.9997367 0.0139525 0.9997367 0.0139525 0.0002633 -0.0139525
12592 0.0002444 -0.0133432 0.9997556 0.0133432 0.9997556 0.0133432 0.0002444 -0.0133432
13169 0.0002270 -0.0127605 0.9997730 0.0127605 0.9997730 0.0127605 0.0002270 -0.0127605
13772 0.0002110 -0.0122032 0.9997890 0.0122032 0.9997890 0.0122032 0.0002110 -0.0122032
14402 0.0001962 -0.0116703 0.9998038 0.0116703 0.9998038 0.0116703 0.0001962 -0.0116703
15062 0.0001827 -0.0111606 0.9998173 0.0111606 0.9998173 0.0111606 0.0001827 -0.0111606
15752 0.0001702 -0.0106732 0.9998298 0.0106732 0.9998298 0.0106732 0.0001702 -0.0106732
16473 0.0001587 -0.0102070 0.9998413 0.0102070 0.9998413 0.0102070 0.0001587 -0.0102070
17227 0.0001482 -0.0097612 0.9998518 0.0097612 0.9998518 0.0097612 0.0001482 -0.0097612
18016 0.0001384 -0.0093348 0.9998616 0.0093348 0.9998616 0.0093348 0.0001384 -0.0093348
18841 0.0001295 -0.0089271 0.9998705 0.0089271 0.9998705 0.0089271 0.0001295 -0.0089271
19704 0.0001212 -0.0085371 0.9998788 0.0085371 0.9998788 0.0085371 0.0001212 -0.0085371
20606 0.0001136 -0.0081642 0.9998864 0.0081642 0.9998864 0.0081642 0.0001136 -0.0081642
21550 0.0001066 -0.0078076 0.9998934 0.0078076 0.9998934 0.0078076 0.0001066 -0.0078076
22537 0.0001001 -0.0074666 0.9998999 0.0074666 0.9998999 0.0074666 0.0001001 -0.0074666
23569 0.0000941 -0.0071404 0.9999059 0.0071404 0.9999059 0.0071404 0.0000941 -0.0071404
24648 0.0000886 -0.0068285 0.9999114 0.0068285 0.9999114 0.0068285 0.0000886 -0.0068285
25777 0.0000835 -0.0065302 0.9999165 0.0065302 0.9999165 0.0065302 0.0000835 -0.0065302
26957 0.0000787 -0.0062450 0.9999213 0.0062450 0.9999213 0.0062450 0.0000787 -0.0062450
28191 0.0000744 -0.0059722 0.9999256 0.0059722 0.9999256 0.0059722 0.0000744 -0.0059722
29482 0.0000703 -0.0057113 0.9999297 0.0057113 0.9999297 0.0057113 0.0000703 -0.0057113
30832 0.0000665 -0.0054618 0.9999335 0.0054618 0.9999335 0.0054618 0.0000665 -0.0054618
32244 0.0000630 -0.0052232 0.9999370 0.0052232 0.9999370 0.0052232 0.0000630 -0.0052232
33721 0.0000598 -0.0049951 0.9999402 0.0049951 0.9999402 0.0049951 0.0000598 -0.0049951
35265 0.0000568 -0.0047768 0.9999432 0.0047768 0.9999432 0.0047768 0.0000568 -0.0047768
36880 0.0000540 -0.0045682 0.9999460 0.0045682 0.9999460 0.0045682 0.0000540 -0.0045682
38569 0.0000513 -0.0043686 0.9999487 0.0043686 0.9999487 0.0043686 0.0000513 -0.0043686
40335 0.0000489 -0.0041777 0.9999511 0.0041777 0.9999511 0.0041777 0.0000489 -0.0041777
42182 0.0000466 -0.0039951 0.9999534 0.0039951 0.9999534 0.0039951 0.0000466 -0.0039951
44113 0.0000444 -0.0038205 0.9999556 0.0038205 0.9999556 0.0038205 0.0000444 -0.0038205
46134 0.0000424 -0.0036536 0.9999576 0.0036536 0.9999576 0.0036536 0.0000424 -0.0036536
48246 0.0000405 -0.0034939 0.9999595 0.0034939 0.9999595 0.0034939 0.0000405 -0.0034939
50455 0.0000388 -0.0033411 0.9999612 0.0033411 0.9999612 0.0033411 0.0000388 -0.0033411
52766 0.0000371 -0.0031950 0.9999629 0.0031950 0.9999629 0.0031950 0.0000371 -0.0031950
55182 0.0000356 -0.0030552 0.9999644 0.0030552 0.9999644 0.0030552 0.0000356 -0.0030552
57709 0.0000341 -0.0029216 0.9999659 0.0029216 0.9999659 0.0029216 0.0000341 -0.0029216
60352 0.0000327 -0.0027937 0.9999673 0.0027937 0.9999673 0.0027937 0.0000327 -0.0027937
63115 0.0000315 -0.0026714 0.9999685 0.0026714 0.9999685 0.0026714 0.0000315 -0.0026714
66005 0.0000303 -0.0025544 0.9999697 0.0025544 0.9999697 0.0025544 0.0000303 -0.0025544
69028 0.0000291 -0.0024425 0.9999709 0.0024425 0.9999709 0.0024425 0.0000291 -0.0024425
72189 0.0000281 -0.0023355 0.9999719 0.0023355 0.9999719 0.0023355 0.0000281 -0.0023355
75495 0.0000271 -0.0022331 0.9999729 0.0022331 0.9999729 0.0022331 0.0000271 -0.0022331
78952 0.0000261 -0.0021351 0.9999739 0.0021351 0.9999739 0.0021351 0.0000261 -0.0021351
82567 0.0000253 -0.0020414 0.9999747 0.0020414 0.9999747 0.0020414 0.0000253 -0.0020414
86348 0.0000245 -0.0019517 0.9999755 0.0019517 0.9999755 0.0019517 0.0000245 -0.0019517
90302 0.0000237 -0.0018659 0.9999763 0.0018659 0.9999763 0.0018659 0.0000237 -0.0018659
94437 0.0000230 -0.0017839 0.9999770 0.0017839 0.9999770 0.0017839 0.0000230 -0.0017839
98762 0.0000223 -0.0017054 0.9999777 0.0017054 0.9999777 0.0017054 0.0000223 -0.0017054
103284 0.0000217 -0.0016303 0.9999783 0.0016303 0.9999783 0.0016303 0.0000217 -0.0016303
108014 0.0000211 -0.0015584 0.9999789 0.0015584 0.9999789 0.0015584 0.0000211 -0.0015584
112960 0.0000206 -0.0014896 0.9999794 0.0014896 0.9999794 0.0014896 0.0000206 -0.0014896
118133 0.0000201 -0.0014238 0.9999799 0.0014238 0.9999799 0.0014238 0.0000201 -0.0014238
123542 0.0000197 -0.0013609 0.9999803 0.0013609 0.9999803 0.0013609 0.0000197 -0.0013609
129199 0.0000192 -0.0013006 0.9999808 0.0013006 0.9999808 0.0013006 0.0000192 -0.0013006
135116 0.0000189 -0.0012430 0.9999811 0.0012430 0.9999811 0.0012430 0.0000189 -0.0012430
141303 0.0000185 -0.0011878 0.9999815 0.0011878 0.9999815 0.0011878 0.0000185 -0.0011878
147774 0.0000182 -0.0011350 0.9999818 0.0011350 0.9999818 0.0011350 0.0000182 -0.0011350
154540 0.0000179 -0.0010845 0.9999821 0.0010845 0.9999821 0.0010845 0.0000179 -0.0010845
161617 0.0000176 -0.0010361 0.9999824 0.0010361 0.9999824 0.0010361 0.0000176 -0.0010361
169018 0.0000173 -0.0009898 0.9999827 0.0009898 0.9999827 0.0009898 0.0000173 -0.0009898
176758 0.0000171 -0.0009455 0.9999829 0.0009455 0.9999829 0.0009455 0.0000171 -0.0009455
184852 0.0000169 -0.0009030 0.9999831 0.0009030 0.9999831 0.0009030 0.0000169 -0.0009030
193316 0.0000167 -0.0008624 0.9999833 0.0008624 0.9999833 0.0008624 0.0000167 -0.0008624
202169 0.0000165 -0.0008235 0.9999835 0.0008235 0.9999835 0.0008235 0.0000165 -0.0008235
211427 0.0000164 -0.0007862 0.9999836 0.0007862 0.9999836 0.0007862 0.0000164 -0.0007862
221108 0.0000162 -0.0007505 0.9999838 0.0007505 0.9999838 0.0007505 0.0000162 -0.0007505
231233 0.0000161 -0.0007163 0.9999839 0.0007163 0.9999839 0.0007163 0.0000161 -0.0007163
241822 0.0000160 -0.0006836 0.9999840 0.0006836 0.9999840 0.0006836 0.0000160 -0.0006836
252896 0.0000159 -0.0006522 0.9999841 0.0006522 0.9999841 0.0006522 0.0000159 -0.0006522
264476 0.0000158 -0.0006221 0.9999842 0.0006221 0.9999842 0.0006221 0.0000158 -0.0006221
276587 0.0000157 -0.0005933 0.9999843 0.0005933 0.9999843 0.0005933 0.0000157 -0.0005933
289253 0.0000157 -0.0005656 0.9999843 0.0005656 0.9999843 0.0005656 0.0000157 -0.0005656
302498 0.0000156 -0.0005391 0.9999844 0.0005391 0.9999844 0.0005391 0.0000156 -0.0005391
316350 0.0000156 -0.0005137 0.9999844 0.0005137 0.9999844 0.0005137 0.0000156 -0.0005137
330837 0.0000156 -0.0004893 0.9999844 0.0004893 0.9999844 0.0004893 0.0000156 -0.0004893
345986 0.0000156 -0.0004658 0.9999844 0.0004658 0.9999844 0.0004658 0.0000156 -0.0004658
361830 0.0000156 -0.0004433 0.9999844 0.0004433 0.9999844 0.0004433 0.0000156 -0.0004433
378399 0.0000156 -0.0004217 0.9999844 0.0004217 0.9999844 0.0004217 0.0000156 -0.0004217
395726 0.0000156 -0.0004009 0.9999844 0.0004009 0.9999844 0.0004009 0.0000156 -0.0004009
413847 0.0000157 -0.0003810 0.9999843 0.0003810 0.9999843 0.0003810 0.0000157 -0.0003810
432798 0.0000157 -0.0003618 0.9999843 0.0003618 0.9999843 0.0003618 0.0000157 -0.0003618
452617 0.0000158 -0.0003433 0.9999842 0.0003433 0.9999842 0.0003433 0.0000158 -0.0003433
473344 0.0000158 -0.0003255 0.9999842 0.0003255 0.9999842 0.0003255 0.0000158 -0.0003255
495019 0.0000159 -0.0003083 0.9999841 0.0003083 0.9999841 0.0003083 0.0000159 -0.0003083
517687 0.0000160 -0.0002918 0.9999840 0.0002918 0.9999840 0.0002918 0.0000160 -0.0002918
541393 0.0000161 -0.0002759 0.9999839 0.0002759 0.9999839 0.0002759 0.0000161 -0.0002759
566185 0.0000163 -0.0002605 0.9999837 0.0002605 0.9999837 0.0002605 0.0000163 -0.0002605
592111 0.0000164 -0.0002456 0.9999836 0.0002456 0.9999836 0.0002456 0.0000164 -0.0002456
619225 0.0000166 -0.0002312 0.9999834 0.0002312 0.9999834 0.0002312 0.0000166 -0.0002312
647581 0.0000168 -0.0002173 0.9999832 0.0002173 0.9999832 0.0002173 0.0000168 -0.0002173
677235 0.0000170 -0.0002038 0.9999830 0.0002038 0.9999830 0.0002038 0.0000170 -0.0002038
708247 0.0000172 -0.0001907 0.9999828 0.0001907 0.9999828 0.0001907 0.0000172 -0.0001907
740679 0.0000175 -0.0001780 0.9999825 0.0001780 0.9999825 0.0001780 0.0000175 -0.0001780
774597 0.0000178 -0.0001656 0.9999822 0.0001656 0.9999822 0.0001656 0.0000178 -0.0001656
810067 0.0000181 -0.0001535 0.9999819 0.0001535 0.9999819 0.0001535 0.0000181 -0.0001535
847162 0.0000185 -0.0001418 0.9999815 0.0001418 0.9999815 0.0001418 0.0000185 -0.0001418
885955 0.0000189 -0.0001303 0.9999811 0.0001303 0.9999811 0.0001303 0.0000189 -0.0001303
926525 0.0000193 -0.0001190 0.9999807 0.0001190 0.9999807 0.0001190 0.0000193 -0.0001190
968953 0.0000198 -0.0001080 0.9999802 0.0001080 0.9999802 0.0001080 0.0000198 -0.0001080
1013323 0.0000203 -0.0000972 0.9999797 0.0000972 0.9999797 0.0000972 0.0000203 -0.0000972
1059725 0.0000209 -0.0000865 0.9999791 0.0000865 0.9999791 0.0000865 0.0000209 -0.0000865
1108252 0.0000216 -0.0000760 0.9999784 0.0000760 0.9999784 0.0000760 0.0000216 -0.0000760
1159002 0.0000223 -0.0000656 0.9999777 0.0000656 0.9999777 0.0000656 0.0000223 -0.0000656
1212075 0.0000231 -0.0000553 0.9999769 0.0000553 0.9999769 0.0000553 0.0000231 -0.0000553
1267578 0.0000240 -0.0000450 0.9999760 0.0000450 0.9999760 0.0000450 0.0000240 -0.0000450
1325623 0.0000250 -0.0000348 0.9999750 0.0000348 0.9999750 0.0000348 0.0000250 -0.0000348
1386327 0.0000261 -0.0000245 0.9999739 0.0000245 0.9999739 0.0000245 0.0000261 -0.0000245
1449809 0.0000274 -0.0000142 0.9999726 0.0000142 0.9999726 0.0000142 0.0000274 -0.0000142
1516199 0.0000289 -0.0000038 0.9999711 0.0000038 0.9999711 0.0000038 0.0000289 -0.0000038
1585629 0.0000305 0.0000068 0.9999695 -0.0000068 0.9999695 -0.0000068 0.0000305 0.0000068
1658239 0.0000324 0.0000176 0.9999676 -0.0000176 0.9999676 -0.0000176 0.0000324 0.0000176
1734173 0.0000346 0.0000287 0.9999654 -0.0000287 0.9999654 -0.0000287 0.0000346 0.0000287
1813585 0.0000372 0.0000403 0.9999628 -0.0000403 0.9999628 -0.0000403 0.0000372 0.0000403
1896632 0.0000404 0.0000523 0.9999596 -0.0000523 0.9999596 -0.0000523 0.0000404 0.0000523
1983483 0.0000443 0.0000650 0.9999557 -0.0000650 0.9999557 -0.0000650 0.0000443 0.0000650
2074311 0.0000494 0.0000785 0.9999506 -0.0000785 0.9999506 -0.0000785 0.0000494 0.0000785
