!Murata Part Number: GRM32ER61A106KA01
!These Parameters are Measured in Series Mode Connection
!Data Generated on Mar 30, 2021
!       o--ll--o
!Port1            Port2
!       o------o
!Operation Temp=25[degC], DC Bias Voltage=0[V]
!Freq. Start=100[Hz] Stop=6[GHz] 401[Steps]
# Hz S RI R 50
!Freq.(Hz) S11(Real) S11(Imag) S21(Real) S21(Imag) S12(Real) S12(Imag) S22(Real) S22(Imag)
100 0.7295996 -0.4418416 0.2704004 0.4418416 0.2704004 0.4418416 0.7295996 -0.4418416
105 0.7117156 -0.4506377 0.2882844 0.4506377 0.2882844 0.4506377 0.7117156 -0.4506377
109 0.6931434 -0.4588598 0.3068566 0.4588598 0.3068566 0.4588598 0.6931434 -0.4588598
114 0.6739206 -0.4664423 0.3260794 0.4664423 0.3260794 0.4664423 0.6739206 -0.4664423
120 0.6540929 -0.4733220 0.3459071 0.4733220 0.3459071 0.4733220 0.6540929 -0.4733220
125 0.6337136 -0.4794395 0.3662864 0.4794395 0.3662864 0.4794395 0.6337136 -0.4794395
131 0.6128438 -0.4847401 0.3871562 0.4847401 0.3871562 0.4847401 0.6128438 -0.4847401
137 0.5915514 -0.4891752 0.4084486 0.4891752 0.4084486 0.4891752 0.5915514 -0.4891752
143 0.5699105 -0.4927031 0.4300895 0.4927031 0.4300895 0.4927031 0.5699105 -0.4927031
150 0.5480006 -0.4952901 0.4519994 0.4952901 0.4519994 0.4952901 0.5480006 -0.4952901
156 0.5259050 -0.4969113 0.4740950 0.4969113 0.4740950 0.4969113 0.5259050 -0.4969113
164 0.5037100 -0.4975510 0.4962900 0.4975510 0.4962900 0.4975510 0.5037100 -0.4975510
171 0.4815036 -0.4972034 0.5184964 0.4972034 0.5184964 0.4972034 0.4815036 -0.4972034
179 0.4593736 -0.4958722 0.5406264 0.4958722 0.5406264 0.4958722 0.4593736 -0.4958722
187 0.4374068 -0.4935710 0.5625932 0.4935710 0.5625932 0.4935710 0.4374068 -0.4935710
196 0.4156870 -0.4903229 0.5843130 0.4903229 0.5843130 0.4903229 0.4156870 -0.4903229
205 0.3942945 -0.4861594 0.6057055 0.4861594 0.6057055 0.4861594 0.3942945 -0.4861594
214 0.3733044 -0.4811206 0.6266956 0.4811206 0.6266956 0.4811206 0.3733044 -0.4811206
224 0.3527858 -0.4752533 0.6472142 0.4752533 0.6472142 0.4752533 0.3527858 -0.4752533
234 0.3328010 -0.4686108 0.6671990 0.4686108 0.6671990 0.4686108 0.3328010 -0.4686108
245 0.3134049 -0.4612510 0.6865951 0.4612510 0.6865951 0.4612510 0.3134049 -0.4612510
256 0.2946447 -0.4532360 0.7053553 0.4532360 0.7053553 0.4532360 0.2946447 -0.4532360
268 0.2765597 -0.4446304 0.7234403 0.4446304 0.7234403 0.4446304 0.2765597 -0.4446304
280 0.2591810 -0.4355005 0.7408190 0.4355005 0.7408190 0.4355005 0.2591810 -0.4355005
293 0.2425323 -0.4259129 0.7574677 0.4259129 0.7574677 0.4259129 0.2425323 -0.4259129
306 0.2266295 -0.4159339 0.7733705 0.4159339 0.7733705 0.4159339 0.2266295 -0.4159339
320 0.2114817 -0.4056284 0.7885183 0.4056284 0.7885183 0.4056284 0.2114817 -0.4056284
335 0.1970913 -0.3950591 0.8029087 0.3950591 0.8029087 0.3950591 0.1970913 -0.3950591
350 0.1834550 -0.3842861 0.8165450 0.3842861 0.8165450 0.3842861 0.1834550 -0.3842861
366 0.1705642 -0.3733664 0.8294358 0.3733664 0.8294358 0.3733664 0.1705642 -0.3733664
383 0.1584057 -0.3623530 0.8415943 0.3623530 0.8415943 0.3623530 0.1584057 -0.3623530
401 0.1469623 -0.3512956 0.8530377 0.3512956 0.8530377 0.3512956 0.1469623 -0.3512956
419 0.1362135 -0.3402393 0.8637865 0.3402393 0.8637865 0.3402393 0.1362135 -0.3402393
438 0.1261363 -0.3292256 0.8738637 0.3292256 0.8738637 0.3292256 0.1261363 -0.3292256
458 0.1167055 -0.3182916 0.8832945 0.3182916 0.8832945 0.3182916 0.1167055 -0.3182916
479 0.1078942 -0.3074705 0.8921058 0.3074705 0.8921058 0.3074705 0.1078942 -0.3074705
501 0.0996746 -0.2967916 0.9003254 0.2967916 0.9003254 0.2967916 0.0996746 -0.2967916
524 0.0920180 -0.2862805 0.9079820 0.2862805 0.9079820 0.2862805 0.0920180 -0.2862805
548 0.0848957 -0.2759591 0.9151043 0.2759591 0.9151043 0.2759591 0.0848957 -0.2759591
573 0.0782786 -0.2658464 0.9217214 0.2658464 0.9217214 0.2658464 0.0782786 -0.2658464
600 0.0721383 -0.2559578 0.9278617 0.2559578 0.9278617 0.2559578 0.0721383 -0.2559578
627 0.0664467 -0.2463063 0.9335533 0.2463063 0.9335533 0.2463063 0.0664467 -0.2463063
656 0.0611763 -0.2369021 0.9388237 0.2369021 0.9388237 0.2369021 0.0611763 -0.2369021
686 0.0563006 -0.2277531 0.9436994 0.2277531 0.9436994 0.2277531 0.0563006 -0.2277531
717 0.0517940 -0.2188651 0.9482060 0.2188651 0.9482060 0.2188651 0.0517940 -0.2188651
750 0.0476321 -0.2102419 0.9523679 0.2102419 0.9523679 0.2102419 0.0476321 -0.2102419
784 0.0437912 -0.2018858 0.9562088 0.2018858 0.9562088 0.2018858 0.0437912 -0.2018858
820 0.0402492 -0.1937973 0.9597508 0.1937973 0.9597508 0.1937973 0.0402492 -0.1937973
858 0.0369849 -0.1859760 0.9630151 0.1859760 0.9630151 0.1859760 0.0369849 -0.1859760
897 0.0339783 -0.1784199 0.9660217 0.1784199 0.9660217 0.1784199 0.0339783 -0.1784199
938 0.0312105 -0.1711265 0.9687895 0.1711265 0.9687895 0.1711265 0.0312105 -0.1711265
981 0.0286638 -0.1640921 0.9713362 0.1640921 0.9713362 0.1640921 0.0286638 -0.1640921
1026 0.0263216 -0.1573123 0.9736784 0.1573123 0.9736784 0.1573123 0.0263216 -0.1573123
1073 0.0241684 -0.1507824 0.9758316 0.1507824 0.9758316 0.1507824 0.0241684 -0.1507824
1122 0.0221897 -0.1444970 0.9778103 0.1444970 0.9778103 0.1444970 0.0221897 -0.1444970
1174 0.0203719 -0.1384502 0.9796281 0.1384502 0.9796281 0.1384502 0.0203719 -0.1384502
1227 0.0187024 -0.1326360 0.9812976 0.1326360 0.9812976 0.1326360 0.0187024 -0.1326360
1283 0.0171695 -0.1270481 0.9828305 0.1270481 0.9828305 0.1270481 0.0171695 -0.1270481
1342 0.0157624 -0.1216799 0.9842376 0.1216799 0.9842376 0.1216799 0.0157624 -0.1216799
1404 0.0144709 -0.1165249 0.9855291 0.1165249 0.9855291 0.1165249 0.0144709 -0.1165249
1468 0.0132858 -0.1115763 0.9867142 0.1115763 0.9867142 0.1115763 0.0132858 -0.1115763
1535 0.0121984 -0.1068274 0.9878016 0.1068274 0.9878016 0.1068274 0.0121984 -0.1068274
1606 0.0112008 -0.1022717 0.9887992 0.1022717 0.9887992 0.1022717 0.0112008 -0.1022717
1679 0.0102856 -0.0979023 0.9897144 0.0979023 0.9897144 0.0979023 0.0102856 -0.0979023
1756 0.0094460 -0.0937127 0.9905540 0.0937127 0.9905540 0.0937127 0.0094460 -0.0937127
1836 0.0086759 -0.0896963 0.9913241 0.0896963 0.9913241 0.0896963 0.0086759 -0.0896963
1920 0.0079694 -0.0858470 0.9920306 0.0858470 0.9920306 0.0858470 0.0079694 -0.0858470
2008 0.0073213 -0.0821582 0.9926787 0.0821582 0.9926787 0.0821582 0.0073213 -0.0821582
2100 0.0067267 -0.0786241 0.9932733 0.0786241 0.9932733 0.0786241 0.0067267 -0.0786241
2196 0.0061812 -0.0752385 0.9938188 0.0752385 0.9938188 0.0752385 0.0061812 -0.0752385
2297 0.0056806 -0.0719956 0.9943194 0.0719956 0.9943194 0.0719956 0.0056806 -0.0719956
2402 0.0052212 -0.0688899 0.9947788 0.0688899 0.9947788 0.0688899 0.0052212 -0.0688899
2512 0.0047997 -0.0659158 0.9952003 0.0659158 0.9952003 0.0659158 0.0047997 -0.0659158
2627 0.0044127 -0.0630681 0.9955873 0.0630681 0.9955873 0.0630681 0.0044127 -0.0630681
2748 0.0040575 -0.0603416 0.9959425 0.0603416 0.9959425 0.0603416 0.0040575 -0.0603416
2873 0.0037314 -0.0577313 0.9962686 0.0577313 0.9962686 0.0577313 0.0037314 -0.0577313
3005 0.0034319 -0.0552326 0.9965681 0.0552326 0.9965681 0.0552326 0.0034319 -0.0552326
3143 0.0031569 -0.0528406 0.9968431 0.0528406 0.9968431 0.0528406 0.0031569 -0.0528406
3287 0.0029043 -0.0505511 0.9970957 0.0505511 0.9970957 0.0505511 0.0029043 -0.0505511
3437 0.0026724 -0.0483598 0.9973276 0.0483598 0.9973276 0.0483598 0.0026724 -0.0483598
3594 0.0024593 -0.0462625 0.9975407 0.0462625 0.9975407 0.0462625 0.0024593 -0.0462625
3759 0.0022635 -0.0442553 0.9977365 0.0442553 0.9977365 0.0442553 0.0022635 -0.0442553
3931 0.0020837 -0.0423344 0.9979163 0.0423344 0.9979163 0.0423344 0.0020837 -0.0423344
4111 0.0019184 -0.0404961 0.9980816 0.0404961 0.9980816 0.0404961 0.0019184 -0.0404961
4299 0.0017667 -0.0387370 0.9982333 0.0387370 0.9982333 0.0387370 0.0017667 -0.0387370
4496 0.0016272 -0.0370538 0.9983728 0.0370538 0.9983728 0.0370538 0.0016272 -0.0370538
4702 0.0014991 -0.0354431 0.9985009 0.0354431 0.9985009 0.0354431 0.0014991 -0.0354431
4918 0.0013813 -0.0339020 0.9986187 0.0339020 0.9986187 0.0339020 0.0013813 -0.0339020
5143 0.0012732 -0.0324274 0.9987268 0.0324274 0.9987268 0.0324274 0.0012732 -0.0324274
5378 0.0011738 -0.0310165 0.9988262 0.0310165 0.9988262 0.0310165 0.0011738 -0.0310165
5625 0.0010826 -0.0296667 0.9989174 0.0296667 0.9989174 0.0296667 0.0010826 -0.0296667
5882 0.0009987 -0.0283753 0.9990013 0.0283753 0.9990013 0.0283753 0.0009987 -0.0283753
6151 0.0009217 -0.0271398 0.9990783 0.0271398 0.9990783 0.0271398 0.0009217 -0.0271398
6433 0.0008510 -0.0259578 0.9991490 0.0259578 0.9991490 0.0259578 0.0008510 -0.0259578
6728 0.0007860 -0.0248271 0.9992140 0.0248271 0.9992140 0.0248271 0.0007860 -0.0248271
7036 0.0007263 -0.0237455 0.9992737 0.0237455 0.9992737 0.0237455 0.0007263 -0.0237455
7358 0.0006715 -0.0227108 0.9993285 0.0227108 0.9993285 0.0227108 0.0006715 -0.0227108
7695 0.0006212 -0.0217211 0.9993788 0.0217211 0.9993788 0.0217211 0.0006212 -0.0217211
8047 0.0005749 -0.0207743 0.9994251 0.0207743 0.9994251 0.0207743 0.0005749 -0.0207743
8416 0.0005324 -0.0198688 0.9994676 0.0198688 0.9994676 0.0198688 0.0005324 -0.0198688
8801 0.0004933 -0.0190026 0.9995067 0.0190026 0.9995067 0.0190026 0.0004933 -0.0190026
9204 0.0004574 -0.0181741 0.9995426 0.0181741 0.9995426 0.0181741 0.0004574 -0.0181741
9626 0.0004244 -0.0173817 0.9995756 0.0173817 0.9995756 0.0173817 0.0004244 -0.0173817
10066 0.0003940 -0.0166238 0.9996060 0.0166238 0.9996060 0.0166238 0.0003940 -0.0166238
10527 0.0003661 -0.0158988 0.9996339 0.0158988 0.9996339 0.0158988 0.0003661 -0.0158988
11009 0.0003404 -0.0152055 0.9996596 0.0152055 0.9996596 0.0152055 0.0003404 -0.0152055
11514 0.0003168 -0.0145424 0.9996832 0.0145424 0.9996832 0.0145424 0.0003168 -0.0145424
12041 0.0002950 -0.0139082 0.9997050 0.0139082 0.9997050 0.0139082 0.0002950 -0.0139082
12592 0.0002749 -0.0133017 0.9997251 0.0133017 0.9997251 0.0133017 0.0002749 -0.0133017
13169 0.0002564 -0.0127216 0.9997436 0.0127216 0.9997436 0.0127216 0.0002564 -0.0127216
13772 0.0002394 -0.0121668 0.9997606 0.0121668 0.9997606 0.0121668 0.0002394 -0.0121668
14402 0.0002236 -0.0116362 0.9997764 0.0116362 0.9997764 0.0116362 0.0002236 -0.0116362
15062 0.0002091 -0.0111287 0.9997909 0.0111287 0.9997909 0.0111287 0.0002091 -0.0111287
15752 0.0001957 -0.0106433 0.9998043 0.0106433 0.9998043 0.0106433 0.0001957 -0.0106433
16473 0.0001832 -0.0101792 0.9998168 0.0101792 0.9998168 0.0101792 0.0001832 -0.0101792
17227 0.0001718 -0.0097352 0.9998282 0.0097352 0.9998282 0.0097352 0.0001718 -0.0097352
18016 0.0001611 -0.0093106 0.9998389 0.0093106 0.9998389 0.0093106 0.0001611 -0.0093106
18841 0.0001513 -0.0089045 0.9998487 0.0089045 0.9998487 0.0089045 0.0001513 -0.0089045
19704 0.0001422 -0.0085162 0.9998578 0.0085162 0.9998578 0.0085162 0.0001422 -0.0085162
20606 0.0001338 -0.0081447 0.9998662 0.0081447 0.9998662 0.0081447 0.0001338 -0.0081447
21550 0.0001259 -0.0077894 0.9998741 0.0077894 0.9998741 0.0077894 0.0001259 -0.0077894
22537 0.0001187 -0.0074497 0.9998813 0.0074497 0.9998813 0.0074497 0.0001187 -0.0074497
23569 0.0001119 -0.0071247 0.9998881 0.0071247 0.9998881 0.0071247 0.0001119 -0.0071247
24648 0.0001057 -0.0068139 0.9998943 0.0068139 0.9998943 0.0068139 0.0001057 -0.0068139
25777 0.0000999 -0.0065166 0.9999001 0.0065166 0.9999001 0.0065166 0.0000999 -0.0065166
26957 0.0000945 -0.0062323 0.9999055 0.0062323 0.9999055 0.0062323 0.0000945 -0.0062323
28191 0.0000895 -0.0059603 0.9999105 0.0059603 0.9999105 0.0059603 0.0000895 -0.0059603
29482 0.0000849 -0.0057002 0.9999151 0.0057002 0.9999151 0.0057002 0.0000849 -0.0057002
30832 0.0000805 -0.0054515 0.9999195 0.0054515 0.9999195 0.0054515 0.0000805 -0.0054515
32244 0.0000765 -0.0052135 0.9999235 0.0052135 0.9999235 0.0052135 0.0000765 -0.0052135
33721 0.0000728 -0.0049860 0.9999272 0.0049860 0.9999272 0.0049860 0.0000728 -0.0049860
35265 0.0000693 -0.0047683 0.9999307 0.0047683 0.9999307 0.0047683 0.0000693 -0.0047683
36880 0.0000661 -0.0045602 0.9999339 0.0045602 0.9999339 0.0045602 0.0000661 -0.0045602
38569 0.0000631 -0.0043611 0.9999369 0.0043611 0.9999369 0.0043611 0.0000631 -0.0043611
40335 0.0000603 -0.0041707 0.9999397 0.0041707 0.9999397 0.0041707 0.0000603 -0.0041707
42182 0.0000577 -0.0039885 0.9999423 0.0039885 0.9999423 0.0039885 0.0000577 -0.0039885
44113 0.0000552 -0.0038143 0.9999448 0.0038143 0.9999448 0.0038143 0.0000552 -0.0038143
46134 0.0000530 -0.0036477 0.9999470 0.0036477 0.9999470 0.0036477 0.0000530 -0.0036477
48246 0.0000508 -0.0034884 0.9999492 0.0034884 0.9999492 0.0034884 0.0000508 -0.0034884
50455 0.0000489 -0.0033360 0.9999511 0.0033360 0.9999511 0.0033360 0.0000489 -0.0033360
52766 0.0000470 -0.0031902 0.9999530 0.0031902 0.9999530 0.0031902 0.0000470 -0.0031902
55182 0.0000452 -0.0030508 0.9999548 0.0030508 0.9999548 0.0030508 0.0000452 -0.0030508
57709 0.0000436 -0.0029174 0.9999564 0.0029174 0.9999564 0.0029174 0.0000436 -0.0029174
60352 0.0000421 -0.0027899 0.9999579 0.0027899 0.9999579 0.0027899 0.0000421 -0.0027899
63115 0.0000406 -0.0026679 0.9999594 0.0026679 0.9999594 0.0026679 0.0000406 -0.0026679
66005 0.0000393 -0.0025512 0.9999607 0.0025512 0.9999607 0.0025512 0.0000393 -0.0025512
69028 0.0000380 -0.0024395 0.9999620 0.0024395 0.9999620 0.0024395 0.0000380 -0.0024395
72189 0.0000368 -0.0023327 0.9999632 0.0023327 0.9999632 0.0023327 0.0000368 -0.0023327
75495 0.0000356 -0.0022306 0.9999644 0.0022306 0.9999644 0.0022306 0.0000356 -0.0022306
78952 0.0000345 -0.0021329 0.9999655 0.0021329 0.9999655 0.0021329 0.0000345 -0.0021329
82567 0.0000335 -0.0020394 0.9999665 0.0020394 0.9999665 0.0020394 0.0000335 -0.0020394
86348 0.0000326 -0.0019499 0.9999674 0.0019499 0.9999674 0.0019499 0.0000326 -0.0019499
90302 0.0000316 -0.0018644 0.9999684 0.0018644 0.9999684 0.0018644 0.0000316 -0.0018644
94437 0.0000308 -0.0017825 0.9999692 0.0017825 0.9999692 0.0017825 0.0000308 -0.0017825
98762 0.0000300 -0.0017042 0.9999700 0.0017042 0.9999700 0.0017042 0.0000300 -0.0017042
103284 0.0000292 -0.0016292 0.9999708 0.0016292 0.9999708 0.0016292 0.0000292 -0.0016292
108014 0.0000285 -0.0015575 0.9999715 0.0015575 0.9999715 0.0015575 0.0000285 -0.0015575
112960 0.0000278 -0.0014889 0.9999722 0.0014889 0.9999722 0.0014889 0.0000278 -0.0014889
118133 0.0000272 -0.0014232 0.9999728 0.0014232 0.9999728 0.0014232 0.0000272 -0.0014232
123542 0.0000266 -0.0013604 0.9999734 0.0013604 0.9999734 0.0013604 0.0000266 -0.0013604
129199 0.0000260 -0.0013002 0.9999740 0.0013002 0.9999740 0.0013002 0.0000260 -0.0013002
135116 0.0000255 -0.0012427 0.9999745 0.0012427 0.9999745 0.0012427 0.0000255 -0.0012427
141303 0.0000250 -0.0011876 0.9999750 0.0011876 0.9999750 0.0011876 0.0000250 -0.0011876
147774 0.0000245 -0.0011349 0.9999755 0.0011349 0.9999755 0.0011349 0.0000245 -0.0011349
154540 0.0000241 -0.0010844 0.9999759 0.0010844 0.9999759 0.0010844 0.0000241 -0.0010844
161617 0.0000237 -0.0010360 0.9999763 0.0010360 0.9999763 0.0010360 0.0000237 -0.0010360
169018 0.0000233 -0.0009898 0.9999767 0.0009898 0.9999767 0.0009898 0.0000233 -0.0009898
176758 0.0000229 -0.0009455 0.9999771 0.0009455 0.9999771 0.0009455 0.0000229 -0.0009455
184852 0.0000226 -0.0009031 0.9999774 0.0009031 0.9999774 0.0009031 0.0000226 -0.0009031
193316 0.0000223 -0.0008624 0.9999777 0.0008624 0.9999777 0.0008624 0.0000223 -0.0008624
202169 0.0000220 -0.0008235 0.9999780 0.0008235 0.9999780 0.0008235 0.0000220 -0.0008235
211427 0.0000218 -0.0007863 0.9999782 0.0007863 0.9999782 0.0007863 0.0000218 -0.0007863
221108 0.0000216 -0.0007506 0.9999784 0.0007506 0.9999784 0.0007506 0.0000216 -0.0007506
231233 0.0000214 -0.0007164 0.9999786 0.0007164 0.9999786 0.0007164 0.0000214 -0.0007164
241822 0.0000212 -0.0006836 0.9999788 0.0006836 0.9999788 0.0006836 0.0000212 -0.0006836
252896 0.0000210 -0.0006522 0.9999790 0.0006522 0.9999790 0.0006522 0.0000210 -0.0006522
264476 0.0000208 -0.0006221 0.9999792 0.0006221 0.9999792 0.0006221 0.0000208 -0.0006221
276587 0.0000207 -0.0005932 0.9999793 0.0005932 0.9999793 0.0005932 0.0000207 -0.0005932
289253 0.0000206 -0.0005655 0.9999794 0.0005655 0.9999794 0.0005655 0.0000206 -0.0005655
302498 0.0000205 -0.0005390 0.9999795 0.0005390 0.9999795 0.0005390 0.0000205 -0.0005390
316350 0.0000204 -0.0005135 0.9999796 0.0005135 0.9999796 0.0005135 0.0000204 -0.0005135
330837 0.0000203 -0.0004890 0.9999797 0.0004890 0.9999797 0.0004890 0.0000203 -0.0004890
345986 0.0000203 -0.0004655 0.9999797 0.0004655 0.9999797 0.0004655 0.0000203 -0.0004655
361830 0.0000202 -0.0004430 0.9999798 0.0004430 0.9999798 0.0004430 0.0000202 -0.0004430
378399 0.0000202 -0.0004213 0.9999798 0.0004213 0.9999798 0.0004213 0.0000202 -0.0004213
395726 0.0000202 -0.0004005 0.9999798 0.0004005 0.9999798 0.0004005 0.0000202 -0.0004005
413847 0.0000202 -0.0003805 0.9999798 0.0003805 0.9999798 0.0003805 0.0000202 -0.0003805
432798 0.0000202 -0.0003612 0.9999798 0.0003612 0.9999798 0.0003612 0.0000202 -0.0003612
452617 0.0000202 -0.0003427 0.9999798 0.0003427 0.9999798 0.0003427 0.0000202 -0.0003427
473344 0.0000203 -0.0003249 0.9999797 0.0003249 0.9999797 0.0003249 0.0000203 -0.0003249
495019 0.0000203 -0.0003077 0.9999797 0.0003077 0.9999797 0.0003077 0.0000203 -0.0003077
517687 0.0000204 -0.0002911 0.9999796 0.0002911 0.9999796 0.0002911 0.0000204 -0.0002911
541393 0.0000205 -0.0002751 0.9999795 0.0002751 0.9999795 0.0002751 0.0000205 -0.0002751
566185 0.0000206 -0.0002596 0.9999794 0.0002596 0.9999794 0.0002596 0.0000206 -0.0002596
592111 0.0000207 -0.0002447 0.9999793 0.0002447 0.9999793 0.0002447 0.0000207 -0.0002447
619225 0.0000209 -0.0002302 0.9999791 0.0002302 0.9999791 0.0002302 0.0000209 -0.0002302
647581 0.0000210 -0.0002163 0.9999790 0.0002163 0.9999790 0.0002163 0.0000210 -0.0002163
677235 0.0000212 -0.0002027 0.9999788 0.0002027 0.9999788 0.0002027 0.0000212 -0.0002027
708247 0.0000214 -0.0001896 0.9999786 0.0001896 0.9999786 0.0001896 0.0000214 -0.0001896
740679 0.0000217 -0.0001768 0.9999783 0.0001768 0.9999783 0.0001768 0.0000217 -0.0001768
774597 0.0000219 -0.0001644 0.9999781 0.0001644 0.9999781 0.0001644 0.0000219 -0.0001644
810067 0.0000222 -0.0001523 0.9999778 0.0001523 0.9999778 0.0001523 0.0000222 -0.0001523
847162 0.0000225 -0.0001405 0.9999775 0.0001405 0.9999775 0.0001405 0.0000225 -0.0001405
885955 0.0000229 -0.0001290 0.9999771 0.0001290 0.9999771 0.0001290 0.0000229 -0.0001290
926525 0.0000233 -0.0001178 0.9999767 0.0001178 0.9999767 0.0001178 0.0000233 -0.0001178
968953 0.0000237 -0.0001068 0.9999763 0.0001068 0.9999763 0.0001068 0.0000237 -0.0001068
1013323 0.0000242 -0.0000959 0.9999758 0.0000959 0.9999758 0.0000959 0.0000242 -0.0000959
1059725 0.0000247 -0.0000853 0.9999753 0.0000853 0.9999753 0.0000853 0.0000247 -0.0000853
1108252 0.0000253 -0.0000749 0.9999747 0.0000749 0.9999747 0.0000749 0.0000253 -0.0000749
1159002 0.0000259 -0.0000646 0.9999741 0.0000646 0.9999741 0.0000646 0.0000259 -0.0000646
1212075 0.0000266 -0.0000544 0.9999734 0.0000544 0.9999734 0.0000544 0.0000266 -0.0000544
1267578 0.0000274 -0.0000442 0.9999726 0.0000442 0.9999726 0.0000442 0.0000274 -0.0000442
1325623 0.0000282 -0.0000342 0.9999718 0.0000342 0.9999718 0.0000342 0.0000282 -0.0000342
1386327 0.0000292 -0.0000242 0.9999708 0.0000242 0.9999708 0.0000242 0.0000292 -0.0000242
1449809 0.0000302 -0.0000142 0.9999698 0.0000142 0.9999698 0.0000142 0.0000302 -0.0000142
1516199 0.0000314 -0.0000042 0.9999686 0.0000042 0.9999686 0.0000042 0.0000314 -0.0000042
1585629 0.0000326 0.0000058 0.9999674 -0.0000058 0.9999674 -0.0000058 0.0000326 0.0000058
1658239 0.0000341 0.0000159 0.9999659 -0.0000159 0.9999659 -0.0000159 0.0000341 0.0000159
1734173 0.0000357 0.0000262 0.9999643 -0.0000262 0.9999643 -0.0000262 0.0000357 0.0000262
1813585 0.0000375 0.0000366 0.9999625 -0.0000366 0.9999625 -0.0000366 0.0000375 0.0000366
1896632 0.0000396 0.0000472 0.9999604 -0.0000472 0.9999604 -0.0000472 0.0000396 0.0000472
1983483 0.0000420 0.0000582 0.9999580 -0.0000582 0.9999580 -0.0000582 0.0000420 0.0000582
2074311 0.0000449 0.0000695 0.9999551 -0.0000695 0.9999551 -0.0000695 0.0000449 0.0000695
