!Murata Part Number: GRM32ER72A225KA35
!These Parameters are Measured in Series Mode Connection
!Data Generated on Mar 30, 2021
!       o--ll--o
!Port1            Port2
!       o------o
!Operation Temp=25[degC], DC Bias Voltage=0[V]
!Freq. Start=100[Hz] Stop=6[GHz] 401[Steps]
# Hz S RI R 50
!Freq.(Hz) S11(Real) S11(Imag) S21(Real) S21(Imag) S12(Real) S12(Imag) S22(Real) S22(Imag)
100 0.9815752 -0.1310012 0.0184248 0.1310012 0.0184248 0.1310012 0.9815752 -0.1310012
105 0.9799498 -0.1367516 0.0200502 0.1367516 0.0200502 0.1367516 0.9799498 -0.1367516
109 0.9781795 -0.1427330 0.0218205 0.1427330 0.0218205 0.1427330 0.9781795 -0.1427330
114 0.9762519 -0.1489518 0.0237481 0.1489518 0.0237481 0.1489518 0.9762519 -0.1489518
120 0.9741538 -0.1554136 0.0258462 0.1554136 0.0258462 0.1554136 0.9741538 -0.1554136
125 0.9718709 -0.1621241 0.0281291 0.1621241 0.0281291 0.1621241 0.9718709 -0.1621241
131 0.9693880 -0.1690883 0.0306120 0.1690883 0.0306120 0.1690883 0.9693880 -0.1690883
137 0.9666888 -0.1763107 0.0333112 0.1763107 0.0333112 0.1763107 0.9666888 -0.1763107
143 0.9637560 -0.1837951 0.0362440 0.1837951 0.0362440 0.1837951 0.9637560 -0.1837951
150 0.9605709 -0.1915446 0.0394291 0.1915446 0.0394291 0.1915446 0.9605709 -0.1915446
156 0.9571140 -0.1995612 0.0428860 0.1995612 0.0428860 0.1995612 0.9571140 -0.1995612
164 0.9533643 -0.2078460 0.0466357 0.2078460 0.0466357 0.2078460 0.9533643 -0.2078460
171 0.9492999 -0.2163988 0.0507001 0.2163988 0.0507001 0.2163988 0.9492999 -0.2163988
179 0.9448976 -0.2252178 0.0551024 0.2252178 0.0551024 0.2252178 0.9448976 -0.2252178
187 0.9401331 -0.2342998 0.0598669 0.2342998 0.0598669 0.2342998 0.9401331 -0.2342998
196 0.9349810 -0.2436396 0.0650190 0.2436396 0.0650190 0.2436396 0.9349810 -0.2436396
205 0.9294149 -0.2532300 0.0705851 0.2532300 0.0705851 0.2532300 0.9294149 -0.2532300
214 0.9234077 -0.2630615 0.0765923 0.2630615 0.0765923 0.2630615 0.9234077 -0.2630615
224 0.9169312 -0.2731221 0.0830688 0.2731221 0.0830688 0.2731221 0.9169312 -0.2731221
234 0.9099567 -0.2833969 0.0900433 0.2833969 0.0900433 0.2833969 0.9099567 -0.2833969
245 0.9024555 -0.2938681 0.0975445 0.2938681 0.0975445 0.2938681 0.9024555 -0.2938681
256 0.8943982 -0.3045147 0.1056018 0.3045147 0.1056018 0.3045147 0.8943982 -0.3045147
268 0.8857560 -0.3153119 0.1142440 0.3153119 0.1142440 0.3153119 0.8857560 -0.3153119
280 0.8765006 -0.3262316 0.1234994 0.3262316 0.1234994 0.3262316 0.8765006 -0.3262316
293 0.8666046 -0.3372415 0.1333954 0.3372415 0.1333954 0.3372415 0.8666046 -0.3372415
306 0.8560420 -0.3483053 0.1439580 0.3483053 0.1439580 0.3483053 0.8560420 -0.3483053
320 0.8447889 -0.3593828 0.1552111 0.3593828 0.1552111 0.3593828 0.8447889 -0.3593828
335 0.8328239 -0.3704293 0.1671761 0.3704293 0.1671761 0.3704293 0.8328239 -0.3704293
350 0.8201285 -0.3813964 0.1798715 0.3813964 0.1798715 0.3813964 0.8201285 -0.3813964
366 0.8066884 -0.3922314 0.1933116 0.3922314 0.1933116 0.3922314 0.8066884 -0.3922314
383 0.7924936 -0.4028780 0.2075064 0.4028780 0.2075064 0.4028780 0.7924936 -0.4028780
401 0.7775390 -0.4132767 0.2224610 0.4132767 0.2224610 0.4132767 0.7775390 -0.4132767
419 0.7618257 -0.4233648 0.2381743 0.4233648 0.2381743 0.4233648 0.7618257 -0.4233648
438 0.7453608 -0.4330777 0.2546392 0.4330777 0.2546392 0.4330777 0.7453608 -0.4330777
458 0.7281588 -0.4423487 0.2718412 0.4423487 0.2718412 0.4423487 0.7281588 -0.4423487
479 0.7102412 -0.4511111 0.2897588 0.4511111 0.2897588 0.4511111 0.7102412 -0.4511111
501 0.6916376 -0.4592977 0.3083624 0.4592977 0.3083624 0.4592977 0.6916376 -0.4592977
524 0.6723855 -0.4668433 0.3276145 0.4668433 0.3276145 0.4668433 0.6723855 -0.4668433
548 0.6525303 -0.4736848 0.3474697 0.4736848 0.3474697 0.4736848 0.6525303 -0.4736848
573 0.6321254 -0.4797626 0.3678746 0.4797626 0.3678746 0.4797626 0.6321254 -0.4797626
600 0.6112318 -0.4850223 0.3887682 0.4850223 0.3887682 0.4850223 0.6112318 -0.4850223
627 0.5899173 -0.4894149 0.4100827 0.4894149 0.4100827 0.4894149 0.5899173 -0.4894149
656 0.5682561 -0.4928988 0.4317439 0.4928988 0.4317439 0.4928988 0.5682561 -0.4928988
686 0.5463276 -0.4954403 0.4536724 0.4954403 0.4536724 0.4954403 0.5463276 -0.4954403
717 0.5242154 -0.4970141 0.4757846 0.4970141 0.4757846 0.4970141 0.5242154 -0.4970141
750 0.5020060 -0.4976045 0.4979940 0.4976045 0.4979940 0.4976045 0.5020060 -0.4976045
784 0.4797874 -0.4972056 0.5202126 0.4972056 0.5202126 0.4972056 0.4797874 -0.4972056
820 0.4576480 -0.4958210 0.5423520 0.4958210 0.5423520 0.4958210 0.4576480 -0.4958210
858 0.4356747 -0.4934645 0.5643253 0.4934645 0.5643253 0.4934645 0.4356747 -0.4934645
897 0.4139519 -0.4901589 0.5860481 0.4901589 0.5860481 0.4901589 0.4139519 -0.4901589
938 0.3925604 -0.4859363 0.6074396 0.4859363 0.6074396 0.4859363 0.3925604 -0.4859363
981 0.3715755 -0.4808367 0.6284245 0.4808367 0.6284245 0.4808367 0.3715755 -0.4808367
1026 0.3510668 -0.4749076 0.6489332 0.4749076 0.6489332 0.4749076 0.3510668 -0.4749076
1073 0.3310969 -0.4682024 0.6689031 0.4682024 0.6689031 0.4682024 0.3310969 -0.4682024
1122 0.3117212 -0.4607798 0.6882788 0.4607798 0.6882788 0.4607798 0.3117212 -0.4607798
1174 0.2929868 -0.4527025 0.7070132 0.4527025 0.7070132 0.4527025 0.2929868 -0.4527025
1227 0.2749333 -0.4440357 0.7250667 0.4440357 0.7250667 0.4440357 0.2749333 -0.4440357
1283 0.2575919 -0.4348464 0.7424081 0.4348464 0.7424081 0.4348464 0.2575919 -0.4348464
1342 0.2409859 -0.4252020 0.7590141 0.4252020 0.7590141 0.4252020 0.2409859 -0.4252020
1404 0.2251311 -0.4151694 0.7748689 0.4151694 0.7748689 0.4151694 0.2251311 -0.4151694
1468 0.2100362 -0.4048141 0.7899638 0.4048141 0.7899638 0.4048141 0.2100362 -0.4048141
1535 0.1957032 -0.3941997 0.8042968 0.3941997 0.8042968 0.3941997 0.1957032 -0.3941997
1606 0.1821281 -0.3833866 0.8178719 0.3833866 0.8178719 0.3833866 0.1821281 -0.3833866
1679 0.1693018 -0.3724321 0.8306982 0.3724321 0.8306982 0.3724321 0.1693018 -0.3724321
1756 0.1572103 -0.3613900 0.8427897 0.3613900 0.8427897 0.3613900 0.1572103 -0.3613900
1836 0.1458357 -0.3503098 0.8541643 0.3503098 0.8541643 0.3503098 0.1458357 -0.3503098
1920 0.1351568 -0.3392369 0.8648432 0.3392369 0.8648432 0.3392369 0.1351568 -0.3392369
2008 0.1251497 -0.3282127 0.8748503 0.3282127 0.8748503 0.3282127 0.1251497 -0.3282127
2100 0.1157884 -0.3172742 0.8842116 0.3172742 0.8842116 0.3172742 0.1157884 -0.3172742
2196 0.1070454 -0.3064543 0.8929546 0.3064543 0.8929546 0.3064543 0.1070454 -0.3064543
2297 0.0988923 -0.2957821 0.9011077 0.2957821 0.9011077 0.2957821 0.0988923 -0.2957821
2402 0.0912998 -0.2852828 0.9087002 0.2852828 0.9087002 0.2852828 0.0912998 -0.2852828
2512 0.0842385 -0.2749777 0.9157615 0.2749777 0.9157615 0.2749777 0.0842385 -0.2749777
2627 0.0776793 -0.2648853 0.9223207 0.2648853 0.9223207 0.2648853 0.0776793 -0.2648853
2748 0.0715931 -0.2550206 0.9284069 0.2550206 0.9284069 0.2550206 0.0715931 -0.2550206
2873 0.0659517 -0.2453959 0.9340483 0.2453959 0.9340483 0.2453959 0.0659517 -0.2453959
3005 0.0607275 -0.2360208 0.9392725 0.2360208 0.9392725 0.2360208 0.0607275 -0.2360208
3143 0.0558940 -0.2269027 0.9441060 0.2269027 0.9441060 0.2269027 0.0558940 -0.2269027
3287 0.0514256 -0.2180468 0.9485744 0.2180468 0.9485744 0.2180468 0.0514256 -0.2180468
3437 0.0472977 -0.2094565 0.9527023 0.2094565 0.9527023 0.2094565 0.0472977 -0.2094565
3594 0.0434872 -0.2011335 0.9565128 0.2011335 0.9565128 0.2011335 0.0434872 -0.2011335
3759 0.0399719 -0.1930781 0.9600281 0.1930781 0.9600281 0.1930781 0.0399719 -0.1930781
3931 0.0367308 -0.1852893 0.9632692 0.1852893 0.9632692 0.1852893 0.0367308 -0.1852893
4111 0.0337443 -0.1777651 0.9662557 0.1777651 0.9662557 0.1777651 0.0337443 -0.1777651
4299 0.0309938 -0.1705024 0.9690062 0.1705024 0.9690062 0.1705024 0.0309938 -0.1705024
4496 0.0284618 -0.1634974 0.9715382 0.1634974 0.9715382 0.1634974 0.0284618 -0.1634974
4702 0.0261321 -0.1567457 0.9738679 0.1567457 0.9738679 0.1567457 0.0261321 -0.1567457
4918 0.0239894 -0.1502423 0.9760106 0.1502423 0.9760106 0.1502423 0.0239894 -0.1502423
5143 0.0220195 -0.1439818 0.9779805 0.1439818 0.9779805 0.1439818 0.0220195 -0.1439818
5378 0.0202090 -0.1379583 0.9797910 0.1379583 0.9797910 0.1379583 0.0202090 -0.1379583
5625 0.0185457 -0.1321657 0.9814543 0.1321657 0.9814543 0.1321657 0.0185457 -0.1321657
5882 0.0170180 -0.1265979 0.9829820 0.1265979 0.9829820 0.1265979 0.0170180 -0.1265979
6151 0.0156154 -0.1212482 0.9843846 0.1212482 0.9843846 0.1212482 0.0156154 -0.1212482
6433 0.0143279 -0.1161102 0.9856721 0.1161102 0.9856721 0.1161102 0.0143279 -0.1161102
6728 0.0131464 -0.1111772 0.9868536 0.1111772 0.9868536 0.1111772 0.0131464 -0.1111772
7036 0.0120624 -0.1064427 0.9879376 0.1064427 0.9879376 0.1064427 0.0120624 -0.1064427
7358 0.0110680 -0.1019000 0.9889320 0.1019000 0.9889320 0.1019000 0.0110680 -0.1019000
7695 0.0101561 -0.0975426 0.9898439 0.0975426 0.9898439 0.0975426 0.0101561 -0.0975426
8047 0.0093200 -0.0933641 0.9906800 0.0933641 0.9906800 0.0933641 0.0093200 -0.0933641
8416 0.0085534 -0.0893579 0.9914466 0.0893579 0.9914466 0.0893579 0.0085534 -0.0893579
8801 0.0078507 -0.0855180 0.9921493 0.0855180 0.9921493 0.0855180 0.0078507 -0.0855180
9204 0.0072066 -0.0818380 0.9927934 0.0818380 0.9927934 0.0818380 0.0072066 -0.0818380
9626 0.0066163 -0.0783121 0.9933837 0.0783121 0.9933837 0.0783121 0.0066163 -0.0783121
10066 0.0060754 -0.0749343 0.9939246 0.0749343 0.9939246 0.0749343 0.0060754 -0.0749343
10527 0.0055797 -0.0716989 0.9944203 0.0716989 0.9944203 0.0716989 0.0055797 -0.0716989
11009 0.0051255 -0.0686005 0.9948745 0.0686005 0.9948745 0.0686005 0.0051255 -0.0686005
11514 0.0047093 -0.0656334 0.9952907 0.0656334 0.9952907 0.0656334 0.0047093 -0.0656334
12041 0.0043279 -0.0627926 0.9956721 0.0627926 0.9956721 0.0627926 0.0043279 -0.0627926
12592 0.0039784 -0.0600730 0.9960216 0.0600730 0.9960216 0.0600730 0.0039784 -0.0600730
13169 0.0036581 -0.0574697 0.9963419 0.0574697 0.9963419 0.0574697 0.0036581 -0.0574697
13772 0.0033645 -0.0549778 0.9966355 0.0549778 0.9966355 0.0549778 0.0033645 -0.0549778
14402 0.0030955 -0.0525929 0.9969045 0.0525929 0.9969045 0.0525929 0.0030955 -0.0525929
15062 0.0028488 -0.0503105 0.9971512 0.0503105 0.9971512 0.0503105 0.0028488 -0.0503105
15752 0.0026226 -0.0481264 0.9973774 0.0481264 0.9973774 0.0481264 0.0026226 -0.0481264
16473 0.0024152 -0.0460365 0.9975848 0.0460365 0.9975848 0.0460365 0.0024152 -0.0460365
17227 0.0022249 -0.0440367 0.9977751 0.0440367 0.9977751 0.0440367 0.0022249 -0.0440367
18016 0.0020504 -0.0421233 0.9979496 0.0421233 0.9979496 0.0421233 0.0020504 -0.0421233
18841 0.0018901 -0.0402927 0.9981099 0.0402927 0.9981099 0.0402927 0.0018901 -0.0402927
19704 0.0017431 -0.0385413 0.9982569 0.0385413 0.9982569 0.0385413 0.0017431 -0.0385413
20606 0.0016080 -0.0368658 0.9983920 0.0368658 0.9983920 0.0368658 0.0016080 -0.0368658
21550 0.0014839 -0.0352628 0.9985161 0.0352628 0.9985161 0.0352628 0.0014839 -0.0352628
22537 0.0013699 -0.0337294 0.9986301 0.0337294 0.9986301 0.0337294 0.0013699 -0.0337294
23569 0.0012650 -0.0322624 0.9987350 0.0322624 0.9987350 0.0322624 0.0012650 -0.0322624
24648 0.0011686 -0.0308591 0.9988314 0.0308591 0.9988314 0.0308591 0.0011686 -0.0308591
25777 0.0010799 -0.0295166 0.9989201 0.0295166 0.9989201 0.0295166 0.0010799 -0.0295166
26957 0.0009983 -0.0282324 0.9990017 0.0282324 0.9990017 0.0282324 0.0009983 -0.0282324
28191 0.0009232 -0.0270039 0.9990768 0.0270039 0.9990768 0.0270039 0.0009232 -0.0270039
29482 0.0008540 -0.0258287 0.9991460 0.0258287 0.9991460 0.0258287 0.0008540 -0.0258287
30832 0.0007903 -0.0247046 0.9992097 0.0247046 0.9992097 0.0247046 0.0007903 -0.0247046
32244 0.0007316 -0.0236292 0.9992684 0.0236292 0.9992684 0.0236292 0.0007316 -0.0236292
33721 0.0006774 -0.0226005 0.9993226 0.0226005 0.9993226 0.0226005 0.0006774 -0.0226005
35265 0.0006275 -0.0216164 0.9993725 0.0216164 0.9993725 0.0216164 0.0006275 -0.0216164
36880 0.0005816 -0.0206750 0.9994184 0.0206750 0.9994184 0.0206750 0.0005816 -0.0206750
38569 0.0005392 -0.0197745 0.9994608 0.0197745 0.9994608 0.0197745 0.0005392 -0.0197745
40335 0.0005001 -0.0189131 0.9994999 0.0189131 0.9994999 0.0189131 0.0005001 -0.0189131
42182 0.0004640 -0.0180890 0.9995360 0.0180890 0.9995360 0.0180890 0.0004640 -0.0180890
44113 0.0004308 -0.0173007 0.9995692 0.0173007 0.9995692 0.0173007 0.0004308 -0.0173007
46134 0.0004001 -0.0165466 0.9995999 0.0165466 0.9995999 0.0165466 0.0004001 -0.0165466
48246 0.0003719 -0.0158253 0.9996281 0.0158253 0.9996281 0.0158253 0.0003719 -0.0158253
50455 0.0003458 -0.0151352 0.9996542 0.0151352 0.9996542 0.0151352 0.0003458 -0.0151352
52766 0.0003218 -0.0144752 0.9996782 0.0144752 0.9996782 0.0144752 0.0003218 -0.0144752
55182 0.0002997 -0.0138438 0.9997003 0.0138438 0.9997003 0.0138438 0.0002997 -0.0138438
57709 0.0002793 -0.0132398 0.9997207 0.0132398 0.9997207 0.0132398 0.0002793 -0.0132398
60352 0.0002606 -0.0126621 0.9997394 0.0126621 0.9997394 0.0126621 0.0002606 -0.0126621
63115 0.0002433 -0.0121095 0.9997567 0.0121095 0.9997567 0.0121095 0.0002433 -0.0121095
66005 0.0002273 -0.0115809 0.9997727 0.0115809 0.9997727 0.0115809 0.0002273 -0.0115809
69028 0.0002127 -0.0110753 0.9997873 0.0110753 0.9997873 0.0110753 0.0002127 -0.0110753
72189 0.0001992 -0.0105917 0.9998008 0.0105917 0.9998008 0.0105917 0.0001992 -0.0105917
75495 0.0001867 -0.0101292 0.9998133 0.0101292 0.9998133 0.0101292 0.0001867 -0.0101292
78952 0.0001753 -0.0096867 0.9998247 0.0096867 0.9998247 0.0096867 0.0001753 -0.0096867
82567 0.0001648 -0.0092636 0.9998352 0.0092636 0.9998352 0.0092636 0.0001648 -0.0092636
86348 0.0001551 -0.0088589 0.9998449 0.0088589 0.9998449 0.0088589 0.0001551 -0.0088589
90302 0.0001461 -0.0084718 0.9998539 0.0084718 0.9998539 0.0084718 0.0001461 -0.0084718
94437 0.0001379 -0.0081015 0.9998621 0.0081015 0.9998621 0.0081015 0.0001379 -0.0081015
98762 0.0001304 -0.0077474 0.9998696 0.0077474 0.9998696 0.0077474 0.0001304 -0.0077474
103284 0.0001234 -0.0074088 0.9998766 0.0074088 0.9998766 0.0074088 0.0001234 -0.0074088
108014 0.0001170 -0.0070849 0.9998830 0.0070849 0.9998830 0.0070849 0.0001170 -0.0070849
112960 0.0001110 -0.0067751 0.9998890 0.0067751 0.9998890 0.0067751 0.0001110 -0.0067751
118133 0.0001056 -0.0064789 0.9998944 0.0064789 0.9998944 0.0064789 0.0001056 -0.0064789
123542 0.0001005 -0.0061955 0.9998995 0.0061955 0.9998995 0.0061955 0.0001005 -0.0061955
129199 0.0000958 -0.0059245 0.9999042 0.0059245 0.9999042 0.0059245 0.0000958 -0.0059245
135116 0.0000915 -0.0056654 0.9999085 0.0056654 0.9999085 0.0056654 0.0000915 -0.0056654
141303 0.0000875 -0.0054175 0.9999125 0.0054175 0.9999125 0.0054175 0.0000875 -0.0054175
147774 0.0000838 -0.0051805 0.9999162 0.0051805 0.9999162 0.0051805 0.0000838 -0.0051805
154540 0.0000804 -0.0049538 0.9999196 0.0049538 0.9999196 0.0049538 0.0000804 -0.0049538
161617 0.0000772 -0.0047369 0.9999228 0.0047369 0.9999228 0.0047369 0.0000772 -0.0047369
169018 0.0000742 -0.0045295 0.9999258 0.0045295 0.9999258 0.0045295 0.0000742 -0.0045295
176758 0.0000714 -0.0043312 0.9999286 0.0043312 0.9999286 0.0043312 0.0000714 -0.0043312
184852 0.0000688 -0.0041414 0.9999312 0.0041414 0.9999312 0.0041414 0.0000688 -0.0041414
193316 0.0000663 -0.0039600 0.9999337 0.0039600 0.9999337 0.0039600 0.0000663 -0.0039600
202169 0.0000640 -0.0037864 0.9999360 0.0037864 0.9999360 0.0037864 0.0000640 -0.0037864
211427 0.0000619 -0.0036203 0.9999381 0.0036203 0.9999381 0.0036203 0.0000619 -0.0036203
221108 0.0000598 -0.0034615 0.9999402 0.0034615 0.9999402 0.0034615 0.0000598 -0.0034615
231233 0.0000579 -0.0033095 0.9999421 0.0033095 0.9999421 0.0033095 0.0000579 -0.0033095
241822 0.0000561 -0.0031642 0.9999439 0.0031642 0.9999439 0.0031642 0.0000561 -0.0031642
252896 0.0000544 -0.0030251 0.9999456 0.0030251 0.9999456 0.0030251 0.0000544 -0.0030251
264476 0.0000527 -0.0028920 0.9999473 0.0028920 0.9999473 0.0028920 0.0000527 -0.0028920
276587 0.0000512 -0.0027647 0.9999488 0.0027647 0.9999488 0.0027647 0.0000512 -0.0027647
289253 0.0000497 -0.0026428 0.9999503 0.0026428 0.9999503 0.0026428 0.0000497 -0.0026428
302498 0.0000483 -0.0025262 0.9999517 0.0025262 0.9999517 0.0025262 0.0000483 -0.0025262
316350 0.0000469 -0.0024147 0.9999531 0.0024147 0.9999531 0.0024147 0.0000469 -0.0024147
330837 0.0000457 -0.0023078 0.9999543 0.0023078 0.9999543 0.0023078 0.0000457 -0.0023078
345986 0.0000445 -0.0022056 0.9999555 0.0022056 0.9999555 0.0022056 0.0000445 -0.0022056
361830 0.0000433 -0.0021077 0.9999567 0.0021077 0.9999567 0.0021077 0.0000433 -0.0021077
378399 0.0000422 -0.0020140 0.9999578 0.0020140 0.9999578 0.0020140 0.0000422 -0.0020140
395726 0.0000412 -0.0019243 0.9999588 0.0019243 0.9999588 0.0019243 0.0000412 -0.0019243
413847 0.0000402 -0.0018384 0.9999598 0.0018384 0.9999598 0.0018384 0.0000402 -0.0018384
432798 0.0000392 -0.0017561 0.9999608 0.0017561 0.9999608 0.0017561 0.0000392 -0.0017561
452617 0.0000383 -0.0016773 0.9999617 0.0016773 0.9999617 0.0016773 0.0000383 -0.0016773
473344 0.0000375 -0.0016018 0.9999625 0.0016018 0.9999625 0.0016018 0.0000375 -0.0016018
495019 0.0000367 -0.0015295 0.9999633 0.0015295 0.9999633 0.0015295 0.0000367 -0.0015295
517687 0.0000360 -0.0014602 0.9999640 0.0014602 0.9999640 0.0014602 0.0000360 -0.0014602
541393 0.0000353 -0.0013938 0.9999647 0.0013938 0.9999647 0.0013938 0.0000353 -0.0013938
566185 0.0000346 -0.0013301 0.9999654 0.0013301 0.9999654 0.0013301 0.0000346 -0.0013301
592111 0.0000340 -0.0012691 0.9999660 0.0012691 0.9999660 0.0012691 0.0000340 -0.0012691
619225 0.0000334 -0.0012106 0.9999666 0.0012106 0.9999666 0.0012106 0.0000334 -0.0012106
647581 0.0000329 -0.0011545 0.9999671 0.0011545 0.9999671 0.0011545 0.0000329 -0.0011545
677235 0.0000324 -0.0011006 0.9999676 0.0011006 0.9999676 0.0011006 0.0000324 -0.0011006
708247 0.0000320 -0.0010490 0.9999680 0.0010490 0.9999680 0.0010490 0.0000320 -0.0010490
740679 0.0000316 -0.0009994 0.9999684 0.0009994 0.9999684 0.0009994 0.0000316 -0.0009994
774597 0.0000313 -0.0009518 0.9999687 0.0009518 0.9999687 0.0009518 0.0000313 -0.0009518
810067 0.0000309 -0.0009061 0.9999691 0.0009061 0.9999691 0.0009061 0.0000309 -0.0009061
847162 0.0000306 -0.0008622 0.9999694 0.0008622 0.9999694 0.0008622 0.0000306 -0.0008622
885955 0.0000304 -0.0008200 0.9999696 0.0008200 0.9999696 0.0008200 0.0000304 -0.0008200
926525 0.0000302 -0.0007795 0.9999698 0.0007795 0.9999698 0.0007795 0.0000302 -0.0007795
968953 0.0000300 -0.0007404 0.9999700 0.0007404 0.9999700 0.0007404 0.0000300 -0.0007404
1013323 0.0000299 -0.0007029 0.9999701 0.0007029 0.9999701 0.0007029 0.0000299 -0.0007029
1059725 0.0000298 -0.0006667 0.9999702 0.0006667 0.9999702 0.0006667 0.0000298 -0.0006667
1108252 0.0000297 -0.0006319 0.9999703 0.0006319 0.9999703 0.0006319 0.0000297 -0.0006319
1159002 0.0000297 -0.0005983 0.9999703 0.0005983 0.9999703 0.0005983 0.0000297 -0.0005983
1212075 0.0000297 -0.0005659 0.9999703 0.0005659 0.9999703 0.0005659 0.0000297 -0.0005659
1267578 0.0000297 -0.0005347 0.9999703 0.0005347 0.9999703 0.0005347 0.0000297 -0.0005347
1325623 0.0000298 -0.0005045 0.9999702 0.0005045 0.9999702 0.0005045 0.0000298 -0.0005045
1386327 0.0000299 -0.0004753 0.9999701 0.0004753 0.9999701 0.0004753 0.0000299 -0.0004753
1449809 0.0000301 -0.0004470 0.9999699 0.0004470 0.9999699 0.0004470 0.0000301 -0.0004470
1516199 0.0000303 -0.0004196 0.9999697 0.0004196 0.9999697 0.0004196 0.0000303 -0.0004196
1585629 0.0000305 -0.0003931 0.9999695 0.0003931 0.9999695 0.0003931 0.0000305 -0.0003931
1658239 0.0000308 -0.0003673 0.9999692 0.0003673 0.9999692 0.0003673 0.0000308 -0.0003673
1734173 0.0000311 -0.0003422 0.9999689 0.0003422 0.9999689 0.0003422 0.0000311 -0.0003422
1813585 0.0000315 -0.0003178 0.9999685 0.0003178 0.9999685 0.0003178 0.0000315 -0.0003178
1896632 0.0000319 -0.0002941 0.9999681 0.0002941 0.9999681 0.0002941 0.0000319 -0.0002941
1983483 0.0000324 -0.0002709 0.9999676 0.0002709 0.9999676 0.0002709 0.0000324 -0.0002709
2074311 0.0000330 -0.0002482 0.9999670 0.0002482 0.9999670 0.0002482 0.0000330 -0.0002482
