!Murata Part Number: GRM32DR72J473KW01
!These Parameters are Measured in Series Mode Connection
!Data Generated on Mar 30, 2021
!       o--ll--o
!Port1            Port2
!       o------o
!Operation Temp=25[degC], DC Bias Voltage=0[V]
!Freq. Start=100[kHz] Stop=6[GHz] 401[Steps]
# Hz S RI R 50
!Freq.(Hz) S11(Real) S11(Imag) S21(Real) S21(Imag) S12(Real) S12(Imag) S22(Real) S22(Imag)
100000 0.1116237 -0.3100026 0.8883763 0.3100026 0.8883763 0.3100026 0.1116237 -0.3100026
102789 0.1064119 -0.3034479 0.8935881 0.3034479 0.8935881 0.3034479 0.1064119 -0.3034479
105655 0.1014169 -0.2969493 0.8985831 0.2969493 0.8985831 0.2969493 0.1014169 -0.2969493
108602 0.0966323 -0.2905125 0.9033677 0.2905125 0.9033677 0.2905125 0.0966323 -0.2905125
111630 0.0920515 -0.2841426 0.9079485 0.2841426 0.9079485 0.2841426 0.0920515 -0.2841426
114743 0.0876680 -0.2778443 0.9123320 0.2778443 0.9123320 0.2778443 0.0876680 -0.2778443
117943 0.0834753 -0.2716220 0.9165247 0.2716220 0.9165247 0.2716220 0.0834753 -0.2716220
121232 0.0794668 -0.2654793 0.9205332 0.2654793 0.9205332 0.2654793 0.0794668 -0.2654793
124613 0.0756362 -0.2594198 0.9243638 0.2594198 0.9243638 0.2594198 0.0756362 -0.2594198
128088 0.0719770 -0.2534465 0.9280230 0.2534465 0.9280230 0.2534465 0.0719770 -0.2534465
131660 0.0684830 -0.2475621 0.9315170 0.2475621 0.9315170 0.2475621 0.0684830 -0.2475621
135332 0.0651480 -0.2417688 0.9348520 0.2417688 0.9348520 0.2417688 0.0651480 -0.2417688
139106 0.0619660 -0.2360686 0.9380340 0.2360686 0.9380340 0.2360686 0.0619660 -0.2360686
142985 0.0589309 -0.2304633 0.9410691 0.2304633 0.9410691 0.2304633 0.0589309 -0.2304633
146972 0.0560369 -0.2249542 0.9439631 0.2249542 0.9439631 0.2249542 0.0560369 -0.2249542
151071 0.0532784 -0.2195425 0.9467216 0.2195425 0.9467216 0.2195425 0.0532784 -0.2195425
155284 0.0506499 -0.2142290 0.9493501 0.2142290 0.9493501 0.2142290 0.0506499 -0.2142290
159614 0.0481459 -0.2090143 0.9518541 0.2090143 0.9518541 0.2090143 0.0481459 -0.2090143
164065 0.0457612 -0.2038989 0.9542388 0.2038989 0.9542388 0.2038989 0.0457612 -0.2038989
168641 0.0434907 -0.1988830 0.9565093 0.1988830 0.9565093 0.1988830 0.0434907 -0.1988830
173344 0.0413296 -0.1939666 0.9586704 0.1939666 0.9586704 0.1939666 0.0413296 -0.1939666
178178 0.0392730 -0.1891496 0.9607270 0.1891496 0.9607270 0.1891496 0.0392730 -0.1891496
183146 0.0373163 -0.1844316 0.9626837 0.1844316 0.9626837 0.1844316 0.0373163 -0.1844316
188254 0.0354551 -0.1798122 0.9645449 0.1798122 0.9645449 0.1798122 0.0354551 -0.1798122
193504 0.0336851 -0.1752908 0.9663149 0.1752908 0.9663149 0.1752908 0.0336851 -0.1752908
198900 0.0320021 -0.1708666 0.9679979 0.1708666 0.9679979 0.1708666 0.0320021 -0.1708666
204447 0.0304021 -0.1665390 0.9695979 0.1665390 0.9695979 0.1665390 0.0304021 -0.1665390
210148 0.0288814 -0.1623069 0.9711186 0.1623069 0.9711186 0.1623069 0.0288814 -0.1623069
216008 0.0274362 -0.1581693 0.9725638 0.1581693 0.9725638 0.1581693 0.0274362 -0.1581693
222032 0.0260630 -0.1541251 0.9739370 0.1541251 0.9739370 0.1541251 0.0260630 -0.1541251
228224 0.0247584 -0.1501732 0.9752416 0.1501732 0.9752416 0.1501732 0.0247584 -0.1501732
234589 0.0235191 -0.1463124 0.9764809 0.1463124 0.9764809 0.1463124 0.0235191 -0.1463124
241130 0.0223420 -0.1425413 0.9776580 0.1425413 0.9776580 0.1425413 0.0223420 -0.1425413
247855 0.0212241 -0.1388586 0.9787759 0.1388586 0.9787759 0.1388586 0.0212241 -0.1388586
254767 0.0201626 -0.1352629 0.9798374 0.1352629 0.9798374 0.1352629 0.0201626 -0.1352629
261871 0.0191546 -0.1317529 0.9808454 0.1317529 0.9808454 0.1317529 0.0191546 -0.1317529
269174 0.0181976 -0.1283270 0.9818024 0.1283270 0.9818024 0.1283270 0.0181976 -0.1283270
276681 0.0172890 -0.1249838 0.9827110 0.1249838 0.9827110 0.1249838 0.0172890 -0.1249838
284397 0.0164265 -0.1217219 0.9835735 0.1217219 0.9835735 0.1217219 0.0164265 -0.1217219
292328 0.0156078 -0.1185397 0.9843922 0.1185397 0.9843922 0.1185397 0.0156078 -0.1185397
300480 0.0148307 -0.1154356 0.9851693 0.1154356 0.9851693 0.1154356 0.0148307 -0.1154356
308859 0.0140931 -0.1124083 0.9859069 0.1124083 0.9859069 0.1124083 0.0140931 -0.1124083
317472 0.0133931 -0.1094560 0.9866069 0.1094560 0.9866069 0.1094560 0.0133931 -0.1094560
326326 0.0127287 -0.1065774 0.9872713 0.1065774 0.9872713 0.1065774 0.0127287 -0.1065774
335426 0.0120981 -0.1037709 0.9879019 0.1037709 0.9879019 0.1037709 0.0120981 -0.1037709
344780 0.0114997 -0.1010350 0.9885003 0.1010350 0.9885003 0.1010350 0.0114997 -0.1010350
354395 0.0109318 -0.0983681 0.9890682 0.0983681 0.9890682 0.0983681 0.0109318 -0.0983681
364278 0.0103928 -0.0957687 0.9896072 0.0957687 0.9896072 0.0957687 0.0103928 -0.0957687
374436 0.0098813 -0.0932354 0.9901187 0.0932354 0.9901187 0.0932354 0.0098813 -0.0932354
384878 0.0093959 -0.0907667 0.9906041 0.0907667 0.9906041 0.0907667 0.0093959 -0.0907667
395611 0.0089353 -0.0883612 0.9910647 0.0883612 0.9910647 0.0883612 0.0089353 -0.0883612
406644 0.0084981 -0.0860173 0.9915019 0.0860173 0.9915019 0.0860173 0.0084981 -0.0860173
417984 0.0080832 -0.0837336 0.9919168 0.0837336 0.9919168 0.0837336 0.0080832 -0.0837336
429640 0.0076894 -0.0815088 0.9923106 0.0815088 0.9923106 0.0815088 0.0076894 -0.0815088
441622 0.0073157 -0.0793415 0.9926843 0.0793415 0.9926843 0.0793415 0.0073157 -0.0793415
453937 0.0069611 -0.0772302 0.9930389 0.0772302 0.9930389 0.0772302 0.0069611 -0.0772302
466596 0.0066244 -0.0751737 0.9933756 0.0751737 0.9933756 0.0751737 0.0066244 -0.0751737
479608 0.0063050 -0.0731707 0.9936950 0.0731707 0.9936950 0.0731707 0.0063050 -0.0731707
492983 0.0060017 -0.0712197 0.9939983 0.0712197 0.9939983 0.0712197 0.0060017 -0.0712197
506731 0.0057139 -0.0693197 0.9942861 0.0693197 0.9942861 0.0693197 0.0057139 -0.0693197
520862 0.0054407 -0.0674692 0.9945593 0.0674692 0.9945593 0.0674692 0.0054407 -0.0674692
535387 0.0051813 -0.0656671 0.9948187 0.0656671 0.9948187 0.0656671 0.0051813 -0.0656671
550318 0.0049352 -0.0639123 0.9950648 0.0639123 0.9950648 0.0639123 0.0049352 -0.0639123
565664 0.0047015 -0.0622034 0.9952985 0.0622034 0.9952985 0.0622034 0.0047015 -0.0622034
581439 0.0044797 -0.0605394 0.9955203 0.0605394 0.9955203 0.0605394 0.0044797 -0.0605394
597654 0.0042692 -0.0589191 0.9957308 0.0589191 0.9957308 0.0589191 0.0042692 -0.0589191
614320 0.0040693 -0.0573415 0.9959307 0.0573415 0.9959307 0.0573415 0.0040693 -0.0573415
631452 0.0038795 -0.0558054 0.9961205 0.0558054 0.9961205 0.0558054 0.0038795 -0.0558054
649061 0.0036994 -0.0543098 0.9963006 0.0543098 0.9963006 0.0543098 0.0036994 -0.0543098
667162 0.0035284 -0.0528537 0.9964716 0.0528537 0.9964716 0.0528537 0.0035284 -0.0528537
685767 0.0033661 -0.0514360 0.9966339 0.0514360 0.9966339 0.0514360 0.0033661 -0.0514360
704891 0.0032120 -0.0500559 0.9967880 0.0500559 0.9967880 0.0500559 0.0032120 -0.0500559
724548 0.0030657 -0.0487122 0.9969343 0.0487122 0.9969343 0.0487122 0.0030657 -0.0487122
744754 0.0029268 -0.0474042 0.9970732 0.0474042 0.9970732 0.0474042 0.0029268 -0.0474042
765523 0.0027950 -0.0461308 0.9972050 0.0461308 0.9972050 0.0461308 0.0027950 -0.0461308
786871 0.0026698 -0.0448912 0.9973302 0.0448912 0.9973302 0.0448912 0.0026698 -0.0448912
808814 0.0025509 -0.0436845 0.9974491 0.0436845 0.9974491 0.0436845 0.0025509 -0.0436845
831370 0.0024381 -0.0425098 0.9975619 0.0425098 0.9975619 0.0425098 0.0024381 -0.0425098
854554 0.0023310 -0.0413664 0.9976690 0.0413664 0.9976690 0.0413664 0.0023310 -0.0413664
878385 0.0022293 -0.0402533 0.9977707 0.0402533 0.9977707 0.0402533 0.0022293 -0.0402533
902880 0.0021328 -0.0391700 0.9978672 0.0391700 0.9978672 0.0391700 0.0021328 -0.0391700
928059 0.0020411 -0.0381154 0.9979589 0.0381154 0.9979589 0.0381154 0.0020411 -0.0381154
953940 0.0019541 -0.0370890 0.9980459 0.0370890 0.9980459 0.0370890 0.0019541 -0.0370890
980542 0.0018715 -0.0360899 0.9981285 0.0360899 0.9981285 0.0360899 0.0018715 -0.0360899
1007887 0.0017930 -0.0351175 0.9982070 0.0351175 0.9982070 0.0351175 0.0017930 -0.0351175
1035994 0.0017185 -0.0341710 0.9982815 0.0341710 0.9982815 0.0341710 0.0017185 -0.0341710
1064885 0.0016478 -0.0332498 0.9983522 0.0332498 0.9983522 0.0332498 0.0016478 -0.0332498
1094581 0.0015806 -0.0323532 0.9984194 0.0323532 0.9984194 0.0323532 0.0015806 -0.0323532
1125106 0.0015168 -0.0314806 0.9984832 0.0314806 0.9984832 0.0314806 0.0015168 -0.0314806
1156481 0.0014562 -0.0306313 0.9985438 0.0306313 0.9985438 0.0306313 0.0014562 -0.0306313
1188732 0.0013987 -0.0298047 0.9986013 0.0298047 0.9986013 0.0298047 0.0013987 -0.0298047
1221882 0.0013440 -0.0290003 0.9986560 0.0290003 0.9986560 0.0290003 0.0013440 -0.0290003
1255957 0.0012920 -0.0282174 0.9987080 0.0282174 0.9987080 0.0282174 0.0012920 -0.0282174
1290982 0.0012427 -0.0274554 0.9987573 0.0274554 0.9987573 0.0274554 0.0012427 -0.0274554
1326984 0.0011958 -0.0267139 0.9988042 0.0267139 0.9988042 0.0267139 0.0011958 -0.0267139
1363989 0.0011512 -0.0259922 0.9988488 0.0259922 0.9988488 0.0259922 0.0011512 -0.0259922
1402027 0.0011088 -0.0252898 0.9988912 0.0252898 0.9988912 0.0252898 0.0011088 -0.0252898
1441125 0.0010685 -0.0246063 0.9989315 0.0246063 0.9989315 0.0246063 0.0010685 -0.0246063
1481314 0.0010301 -0.0239411 0.9989699 0.0239411 0.9989699 0.0239411 0.0010301 -0.0239411
1522623 0.0009937 -0.0232937 0.9990063 0.0232937 0.9990063 0.0232937 0.0009937 -0.0232937
1565085 0.0009590 -0.0226637 0.9990410 0.0226637 0.9990410 0.0226637 0.0009590 -0.0226637
1608730 0.0009260 -0.0220505 0.9990740 0.0220505 0.9990740 0.0220505 0.0009260 -0.0220505
1653593 0.0008945 -0.0214538 0.9991055 0.0214538 0.9991055 0.0214538 0.0008945 -0.0214538
1699707 0.0008646 -0.0208731 0.9991354 0.0208731 0.9991354 0.0208731 0.0008646 -0.0208731
1747106 0.0008360 -0.0203079 0.9991640 0.0203079 0.9991640 0.0203079 0.0008360 -0.0203079
1795828 0.0008088 -0.0197579 0.9991912 0.0197579 0.9991912 0.0197579 0.0008088 -0.0197579
1845908 0.0007829 -0.0192226 0.9992171 0.0192226 0.9992171 0.0192226 0.0007829 -0.0192226
1897385 0.0007582 -0.0187016 0.9992418 0.0187016 0.9992418 0.0187016 0.0007582 -0.0187016
1950297 0.0007346 -0.0181946 0.9992654 0.0181946 0.9992654 0.0181946 0.0007346 -0.0181946
2004685 0.0007121 -0.0177011 0.9992879 0.0177011 0.9992879 0.0177011 0.0007121 -0.0177011
2060590 0.0006906 -0.0172208 0.9993094 0.0172208 0.9993094 0.0172208 0.0006906 -0.0172208
2118054 0.0006700 -0.0167533 0.9993300 0.0167533 0.9993300 0.0167533 0.0006700 -0.0167533
2177120 0.0006504 -0.0162983 0.9993496 0.0162983 0.9993496 0.0162983 0.0006504 -0.0162983
2237833 0.0006316 -0.0158555 0.9993684 0.0158555 0.9993684 0.0158555 0.0006316 -0.0158555
2300240 0.0006136 -0.0154244 0.9993864 0.0154244 0.9993864 0.0154244 0.0006136 -0.0154244
2364387 0.0005964 -0.0150049 0.9994036 0.0150049 0.9994036 0.0150049 0.0005964 -0.0150049
2430322 0.0005800 -0.0145964 0.9994200 0.0145964 0.9994200 0.0145964 0.0005800 -0.0145964
2498097 0.0005642 -0.0141989 0.9994358 0.0141989 0.9994358 0.0141989 0.0005642 -0.0141989
2567761 0.0005491 -0.0138119 0.9994509 0.0138119 0.9994509 0.0138119 0.0005491 -0.0138119
2639368 0.0005345 -0.0134351 0.9994655 0.0134351 0.9994655 0.0134351 0.0005345 -0.0134351
2712972 0.0005206 -0.0130683 0.9994794 0.0130683 0.9994794 0.0130683 0.0005206 -0.0130683
2788629 0.0005073 -0.0127113 0.9994927 0.0127113 0.9994927 0.0127113 0.0005073 -0.0127113
2866396 0.0004944 -0.0123636 0.9995056 0.0123636 0.9995056 0.0123636 0.0004944 -0.0123636
2946331 0.0004821 -0.0120252 0.9995179 0.0120252 0.9995179 0.0120252 0.0004821 -0.0120252
3028495 0.0004702 -0.0116956 0.9995298 0.0116956 0.9995298 0.0116956 0.0004702 -0.0116956
3112951 0.0004588 -0.0113747 0.9995412 0.0113747 0.9995412 0.0113747 0.0004588 -0.0113747
3199762 0.0004479 -0.0110622 0.9995521 0.0110622 0.9995521 0.0110622 0.0004479 -0.0110622
3288994 0.0004373 -0.0107579 0.9995627 0.0107579 0.9995627 0.0107579 0.0004373 -0.0107579
3380714 0.0004272 -0.0104616 0.9995728 0.0104616 0.9995728 0.0104616 0.0004272 -0.0104616
3474992 0.0004174 -0.0101730 0.9995826 0.0101730 0.9995826 0.0101730 0.0004174 -0.0101730
3571899 0.0004080 -0.0098919 0.9995920 0.0098919 0.9995920 0.0098919 0.0004080 -0.0098919
3671508 0.0003990 -0.0096181 0.9996010 0.0096181 0.9996010 0.0096181 0.0003990 -0.0096181
3773896 0.0003903 -0.0093514 0.9996097 0.0093514 0.9996097 0.0093514 0.0003903 -0.0093514
3879139 0.0003819 -0.0090916 0.9996181 0.0090916 0.9996181 0.0090916 0.0003819 -0.0090916
3987316 0.0003738 -0.0088385 0.9996262 0.0088385 0.9996262 0.0088385 0.0003738 -0.0088385
4098510 0.0003660 -0.0085920 0.9996340 0.0085920 0.9996340 0.0085920 0.0003660 -0.0085920
4212806 0.0003585 -0.0083518 0.9996415 0.0083518 0.9996415 0.0083518 0.0003585 -0.0083518
4330288 0.0003512 -0.0081177 0.9996488 0.0081177 0.9996488 0.0081177 0.0003512 -0.0081177
4451047 0.0003443 -0.0078896 0.9996557 0.0078896 0.9996557 0.0078896 0.0003443 -0.0078896
4575173 0.0003376 -0.0076673 0.9996624 0.0076673 0.9996624 0.0076673 0.0003376 -0.0076673
4702761 0.0003311 -0.0074507 0.9996689 0.0074507 0.9996689 0.0074507 0.0003311 -0.0074507
4833907 0.0003249 -0.0072395 0.9996751 0.0072395 0.9996751 0.0072395 0.0003249 -0.0072395
4968711 0.0003189 -0.0070337 0.9996811 0.0070337 0.9996811 0.0070337 0.0003189 -0.0070337
5107273 0.0003131 -0.0068331 0.9996869 0.0068331 0.9996869 0.0068331 0.0003131 -0.0068331
5249700 0.0003076 -0.0066375 0.9996924 0.0066375 0.9996924 0.0066375 0.0003076 -0.0066375
5396098 0.0003022 -0.0064467 0.9996978 0.0064467 0.9996978 0.0064467 0.0003022 -0.0064467
5546579 0.0002971 -0.0062608 0.9997029 0.0062608 0.9997029 0.0062608 0.0002971 -0.0062608
5701257 0.0002921 -0.0060794 0.9997079 0.0060794 0.9997079 0.0060794 0.0002921 -0.0060794
5860248 0.0002873 -0.0059025 0.9997127 0.0059025 0.9997127 0.0059025 0.0002873 -0.0059025
6023672 0.0002827 -0.0057299 0.9997173 0.0057299 0.9997173 0.0057299 0.0002827 -0.0057299
6191655 0.0002783 -0.0055616 0.9997217 0.0055616 0.9997217 0.0055616 0.0002783 -0.0055616
6364321 0.0002741 -0.0053974 0.9997259 0.0053974 0.9997259 0.0053974 0.0002741 -0.0053974
6541803 0.0002700 -0.0052371 0.9997300 0.0052371 0.9997300 0.0052371 0.0002700 -0.0052371
6724235 0.0002661 -0.0050807 0.9997339 0.0050807 0.9997339 0.0050807 0.0002661 -0.0050807
6911753 0.0002623 -0.0049280 0.9997377 0.0049280 0.9997377 0.0049280 0.0002623 -0.0049280
7104501 0.0002587 -0.0047789 0.9997413 0.0047789 0.9997413 0.0047789 0.0002587 -0.0047789
7302625 0.0002553 -0.0046334 0.9997447 0.0046334 0.9997447 0.0046334 0.0002553 -0.0046334
7506273 0.0002519 -0.0044912 0.9997481 0.0044912 0.9997481 0.0044912 0.0002519 -0.0044912
7715601 0.0002488 -0.0043524 0.9997512 0.0043524 0.9997512 0.0043524 0.0002488 -0.0043524
7930766 0.0002457 -0.0042168 0.9997543 0.0042168 0.9997543 0.0042168 0.0002457 -0.0042168
8151931 0.0002428 -0.0040842 0.9997572 0.0040842 0.9997572 0.0040842 0.0002428 -0.0040842
8379264 0.0002400 -0.0039547 0.9997600 0.0039547 0.9997600 0.0039547 0.0002400 -0.0039547
8612937 0.0002373 -0.0038280 0.9997627 0.0038280 0.9997627 0.0038280 0.0002373 -0.0038280
8853126 0.0002347 -0.0037042 0.9997653 0.0037042 0.9997653 0.0037042 0.0002347 -0.0037042
9100013 0.0002322 -0.0035831 0.9997678 0.0035831 0.9997678 0.0035831 0.0002322 -0.0035831
9353785 0.0002299 -0.0034646 0.9997701 0.0034646 0.9997701 0.0034646 0.0002299 -0.0034646
9614634 0.0002277 -0.0033486 0.9997723 0.0033486 0.9997723 0.0033486 0.0002277 -0.0033486
9882758 0.0002255 -0.0032351 0.9997745 0.0032351 0.9997745 0.0032351 0.0002255 -0.0032351
10158358 0.0002235 -0.0031240 0.9997765 0.0031240 0.9997765 0.0031240 0.0002235 -0.0031240
10441645 0.0002216 -0.0030151 0.9997784 0.0030151 0.9997784 0.0030151 0.0002216 -0.0030151
10732831 0.0002198 -0.0029084 0.9997802 0.0029084 0.9997802 0.0029084 0.0002198 -0.0029084
11032137 0.0002181 -0.0028039 0.9997819 0.0028039 0.9997819 0.0028039 0.0002181 -0.0028039
11339791 0.0002165 -0.0027013 0.9997835 0.0027013 0.9997835 0.0027013 0.0002165 -0.0027013
11656024 0.0002150 -0.0026008 0.9997850 0.0026008 0.9997850 0.0026008 0.0002150 -0.0026008
11981075 0.0002136 -0.0025021 0.9997864 0.0025021 0.9997864 0.0025021 0.0002136 -0.0025021
12315192 0.0002123 -0.0024052 0.9997877 0.0024052 0.9997877 0.0024052 0.0002123 -0.0024052
12658625 0.0002111 -0.0023100 0.9997889 0.0023100 0.9997889 0.0023100 0.0002111 -0.0023100
13011637 0.0002101 -0.0022165 0.9997899 0.0022165 0.9997899 0.0022165 0.0002101 -0.0022165
13374492 0.0002091 -0.0021246 0.9997909 0.0021246 0.9997909 0.0021246 0.0002091 -0.0021246
13747467 0.0002083 -0.0020341 0.9997917 0.0020341 0.9997917 0.0020341 0.0002083 -0.0020341
14130843 0.0002075 -0.0019452 0.9997925 0.0019452 0.9997925 0.0019452 0.0002075 -0.0019452
14524910 0.0002069 -0.0018576 0.9997931 0.0018576 0.9997931 0.0018576 0.0002069 -0.0018576
14929966 0.0002064 -0.0017713 0.9997936 0.0017713 0.9997936 0.0017713 0.0002064 -0.0017713
15346318 0.0002061 -0.0016862 0.9997939 0.0016862 0.9997939 0.0016862 0.0002061 -0.0016862
15774281 0.0002059 -0.0016023 0.9997941 0.0016023 0.9997941 0.0016023 0.0002059 -0.0016023
16214179 0.0002058 -0.0015195 0.9997942 0.0015195 0.9997942 0.0015195 0.0002058 -0.0015195
16666344 0.0002058 -0.0014377 0.9997942 0.0014377 0.9997942 0.0014377 0.0002058 -0.0014377
17131118 0.0002061 -0.0013569 0.9997939 0.0013569 0.9997939 0.0013569 0.0002061 -0.0013569
17608854 0.0002064 -0.0012770 0.9997936 0.0012770 0.9997936 0.0012770 0.0002064 -0.0012770
18099912 0.0002070 -0.0011979 0.9997930 0.0011979 0.9997930 0.0011979 0.0002070 -0.0011979
18604665 0.0002077 -0.0011196 0.9997923 0.0011196 0.9997923 0.0011196 0.0002077 -0.0011196
19123493 0.0002086 -0.0010420 0.9997914 0.0010420 0.9997914 0.0010420 0.0002086 -0.0010420
19656790 0.0002097 -0.0009651 0.9997903 0.0009651 0.9997903 0.0009651 0.0002097 -0.0009651
20204959 0.0002111 -0.0008887 0.9997889 0.0008887 0.9997889 0.0008887 0.0002111 -0.0008887
20768415 0.0002126 -0.0008128 0.9997874 0.0008128 0.9997874 0.0008128 0.0002126 -0.0008128
21347584 0.0002144 -0.0007374 0.9997856 0.0007374 0.9997856 0.0007374 0.0002144 -0.0007374
21942904 0.0002164 -0.0006623 0.9997836 0.0006623 0.9997836 0.0006623 0.0002164 -0.0006623
22554827 0.0002187 -0.0005876 0.9997813 0.0005876 0.9997813 0.0005876 0.0002187 -0.0005876
23183813 0.0002213 -0.0005130 0.9997787 0.0005130 0.9997787 0.0005130 0.0002213 -0.0005130
23830340 0.0002242 -0.0004386 0.9997758 0.0004386 0.9997758 0.0004386 0.0002242 -0.0004386
24494897 0.0002275 -0.0003643 0.9997725 0.0003643 0.9997725 0.0003643 0.0002275 -0.0003643
25177987 0.0002311 -0.0002900 0.9997689 0.0002900 0.9997689 0.0002900 0.0002311 -0.0002900
25880126 0.0002351 -0.0002156 0.9997649 0.0002156 0.9997649 0.0002156 0.0002351 -0.0002156
26601845 0.0002395 -0.0001411 0.9997605 0.0001411 0.9997605 0.0001411 0.0002395 -0.0001411
27343691 0.0002443 -0.0000663 0.9997557 0.0000663 0.9997557 0.0000663 0.0002443 -0.0000663
28106225 0.0002497 0.0000089 0.9997503 -0.0000089 0.9997503 -0.0000089 0.0002497 0.0000089
28890023 0.0002556 0.0000846 0.9997444 -0.0000846 0.9997444 -0.0000846 0.0002556 0.0000846
29695680 0.0002621 0.0001608 0.9997379 -0.0001608 0.9997379 -0.0001608 0.0002621 0.0001608
30523804 0.0002693 0.0002376 0.9997307 -0.0002376 0.9997307 -0.0002376 0.0002693 0.0002376
31375021 0.0002773 0.0003154 0.9997227 -0.0003154 0.9997227 -0.0003154 0.0002773 0.0003154
32249977 0.0002861 0.0003940 0.9997139 -0.0003940 0.9997139 -0.0003940 0.0002861 0.0003940
33149332 0.0002959 0.0004738 0.9997041 -0.0004738 0.9997041 -0.0004738 0.0002959 0.0004738
34073768 0.0003068 0.0005549 0.9996932 -0.0005549 0.9996932 -0.0005549 0.0003068 0.0005549
35023984 0.0003190 0.0006375 0.9996810 -0.0006375 0.9996810 -0.0006375 0.0003190 0.0006375
36000698 0.0003327 0.0007218 0.9996673 -0.0007218 0.9996673 -0.0007218 0.0003327 0.0007218
37004650 0.0003481 0.0008081 0.9996519 -0.0008081 0.9996519 -0.0008081 0.0003481 0.0008081
38036599 0.0003657 0.0008967 0.9996343 -0.0008967 0.9996343 -0.0008967 0.0003657 0.0008967
39097326 0.0003858 0.0009879 0.9996142 -0.0009879 0.9996142 -0.0009879 0.0003858 0.0009879
