!Murata Part Number: GRM32AR61C106KAB7
!These Parameters are Measured in Series Mode Connection
!Data Generated on Mar 30, 2021
!       o--ll--o
!Port1            Port2
!       o------o
!Operation Temp=25[degC], DC Bias Voltage=0[V]
!Freq. Start=100[Hz] Stop=6[GHz] 401[Steps]
# Hz S RI R 50
!Freq.(Hz) S11(Real) S11(Imag) S21(Real) S21(Imag) S12(Real) S12(Imag) S22(Real) S22(Imag)
100 0.8237901 -0.3696202 0.1762099 0.3696202 0.1762099 0.3696202 0.8237901 -0.3696202
105 0.8109877 -0.3800991 0.1890123 0.3800991 0.1890123 0.3800991 0.8109877 -0.3800991
109 0.7974749 -0.3904186 0.2025251 0.3904186 0.2025251 0.3904186 0.7974749 -0.3904186
114 0.7832464 -0.4005245 0.2167536 0.4005245 0.2167536 0.4005245 0.7832464 -0.4005245
120 0.7683019 -0.4103599 0.2316981 0.4103599 0.2316981 0.4103599 0.7683019 -0.4103599
125 0.7526470 -0.4198661 0.2473530 0.4198661 0.2473530 0.4198661 0.7526470 -0.4198661
131 0.7362930 -0.4289828 0.2637070 0.4289828 0.2637070 0.4289828 0.7362930 -0.4289828
137 0.7192582 -0.4376493 0.2807418 0.4376493 0.2807418 0.4376493 0.7192582 -0.4376493
143 0.7015671 -0.4458047 0.2984329 0.4458047 0.2984329 0.4458047 0.7015671 -0.4458047
150 0.6832516 -0.4533893 0.3167484 0.4533893 0.3167484 0.4533893 0.6832516 -0.4533893
156 0.6643503 -0.4603454 0.3356497 0.4603454 0.3356497 0.4603454 0.6643503 -0.4603454
164 0.6449086 -0.4666181 0.3550914 0.4666181 0.3550914 0.4666181 0.6449086 -0.4666181
171 0.6249785 -0.4721561 0.3750215 0.4721561 0.3750215 0.4721561 0.6249785 -0.4721561
179 0.6046184 -0.4769132 0.3953816 0.4769132 0.3953816 0.4769132 0.6046184 -0.4769132
187 0.5838920 -0.4808487 0.4161080 0.4808487 0.4161080 0.4808487 0.5838920 -0.4808487
196 0.5628680 -0.4839281 0.4371320 0.4839281 0.4371320 0.4839281 0.5628680 -0.4839281
205 0.5416191 -0.4861244 0.4583809 0.4861244 0.4583809 0.4861244 0.5416191 -0.4861244
214 0.5202212 -0.4874179 0.4797788 0.4874179 0.4797788 0.4874179 0.5202212 -0.4874179
224 0.4987522 -0.4877970 0.5012478 0.4877970 0.5012478 0.4877970 0.4987522 -0.4877970
234 0.4772909 -0.4872586 0.5227091 0.4872586 0.5227091 0.4872586 0.4772909 -0.4872586
245 0.4559162 -0.4858078 0.5440838 0.4858078 0.5440838 0.4858078 0.4559162 -0.4858078
256 0.4347055 -0.4834579 0.5652945 0.4834579 0.5652945 0.4834579 0.4347055 -0.4834579
268 0.4137341 -0.4802303 0.5862659 0.4802303 0.5862659 0.4802303 0.4137341 -0.4802303
280 0.3930736 -0.4761537 0.6069264 0.4761537 0.6069264 0.4761537 0.3930736 -0.4761537
293 0.3727918 -0.4712640 0.6272082 0.4712640 0.6272082 0.4712640 0.3727918 -0.4712640
306 0.3529510 -0.4656032 0.6470490 0.4656032 0.6470490 0.4656032 0.3529510 -0.4656032
320 0.3336080 -0.4592186 0.6663920 0.4592186 0.6663920 0.4592186 0.3336080 -0.4592186
335 0.3148134 -0.4521621 0.6851866 0.4521621 0.6851866 0.4521621 0.3148134 -0.4521621
350 0.2966109 -0.4444893 0.7033891 0.4444893 0.7033891 0.4444893 0.2966109 -0.4444893
366 0.2790376 -0.4362581 0.7209624 0.4362581 0.7209624 0.4362581 0.2790376 -0.4362581
383 0.2621235 -0.4275284 0.7378765 0.4275284 0.7378765 0.4275284 0.2621235 -0.4275284
401 0.2458918 -0.4183607 0.7541082 0.4183607 0.7541082 0.4183607 0.2458918 -0.4183607
419 0.2303590 -0.4088156 0.7696410 0.4088156 0.7696410 0.4088156 0.2303590 -0.4088156
438 0.2155353 -0.3989525 0.7844647 0.3989525 0.7844647 0.3989525 0.2155353 -0.3989525
458 0.2014249 -0.3888296 0.7985751 0.3888296 0.7985751 0.3888296 0.2014249 -0.3888296
479 0.1880265 -0.3785027 0.8119735 0.3785027 0.8119735 0.3785027 0.1880265 -0.3785027
501 0.1753338 -0.3680251 0.8246662 0.3680251 0.8246662 0.3680251 0.1753338 -0.3680251
524 0.1633363 -0.3574470 0.8366637 0.3574470 0.8366637 0.3574470 0.1633363 -0.3574470
548 0.1520194 -0.3468152 0.8479806 0.3468152 0.8479806 0.3468152 0.1520194 -0.3468152
573 0.1413654 -0.3361730 0.8586346 0.3361730 0.8586346 0.3361730 0.1413654 -0.3361730
600 0.1313537 -0.3255600 0.8686463 0.3255600 0.8686463 0.3255600 0.1313537 -0.3255600
627 0.1219618 -0.3150120 0.8780382 0.3150120 0.8780382 0.3150120 0.1219618 -0.3150120
656 0.1131652 -0.3045611 0.8868348 0.3045611 0.8868348 0.3045611 0.1131652 -0.3045611
686 0.1049386 -0.2942360 0.8950614 0.2942360 0.8950614 0.2942360 0.1049386 -0.2942360
717 0.0972554 -0.2840617 0.9027446 0.2840617 0.9027446 0.2840617 0.0972554 -0.2840617
750 0.0900890 -0.2740599 0.9099110 0.2740599 0.9099110 0.2740599 0.0900890 -0.2740599
784 0.0834124 -0.2642491 0.9165876 0.2642491 0.9165876 0.2642491 0.0834124 -0.2642491
820 0.0771990 -0.2546450 0.9228010 0.2546450 0.9228010 0.2546450 0.0771990 -0.2546450
858 0.0714223 -0.2452605 0.9285777 0.2452605 0.9285777 0.2452605 0.0714223 -0.2452605
897 0.0660567 -0.2361060 0.9339433 0.2361060 0.9339433 0.2361060 0.0660567 -0.2361060
938 0.0610771 -0.2271898 0.9389229 0.2271898 0.9389229 0.2271898 0.0610771 -0.2271898
981 0.0564594 -0.2185180 0.9435406 0.2185180 0.9435406 0.2185180 0.0564594 -0.2185180
1026 0.0521803 -0.2100948 0.9478197 0.2100948 0.9478197 0.2100948 0.0521803 -0.2100948
1073 0.0482176 -0.2019231 0.9517824 0.2019231 0.9517824 0.2019231 0.0482176 -0.2019231
1122 0.0445502 -0.1940039 0.9554498 0.1940039 0.9554498 0.1940039 0.0445502 -0.1940039
1174 0.0411579 -0.1863374 0.9588421 0.1863374 0.9588421 0.1863374 0.0411579 -0.1863374
1227 0.0380216 -0.1789223 0.9619784 0.1789223 0.9619784 0.1789223 0.0380216 -0.1789223
1283 0.0351233 -0.1717567 0.9648767 0.1717567 0.9648767 0.1717567 0.0351233 -0.1717567
1342 0.0324461 -0.1648376 0.9675539 0.1648376 0.9675539 0.1648376 0.0324461 -0.1648376
1404 0.0299740 -0.1581614 0.9700260 0.1581614 0.9700260 0.1581614 0.0299740 -0.1581614
1468 0.0276920 -0.1517240 0.9723080 0.1517240 0.9723080 0.1517240 0.0276920 -0.1517240
1535 0.0255862 -0.1455207 0.9744138 0.1455207 0.9744138 0.1455207 0.0255862 -0.1455207
1606 0.0236433 -0.1395463 0.9763567 0.1395463 0.9763567 0.1395463 0.0236433 -0.1395463
1679 0.0218511 -0.1337955 0.9781489 0.1337955 0.9781489 0.1337955 0.0218511 -0.1337955
1756 0.0201981 -0.1282626 0.9798019 0.1282626 0.9798019 0.1282626 0.0201981 -0.1282626
1836 0.0186738 -0.1229417 0.9813262 0.1229417 0.9813262 0.1229417 0.0186738 -0.1229417
1920 0.0172682 -0.1178268 0.9827318 0.1178268 0.9827318 0.1178268 0.0172682 -0.1178268
2008 0.0159722 -0.1129117 0.9840278 0.1129117 0.9840278 0.1129117 0.0159722 -0.1129117
2100 0.0147771 -0.1081903 0.9852229 0.1081903 0.9852229 0.1081903 0.0147771 -0.1081903
2196 0.0136752 -0.1036562 0.9863248 0.1036562 0.9863248 0.1036562 0.0136752 -0.1036562
2297 0.0126590 -0.0993034 0.9873410 0.0993034 0.9873410 0.0993034 0.0126590 -0.0993034
2402 0.0117219 -0.0951257 0.9882781 0.0951257 0.9882781 0.0951257 0.0117219 -0.0951257
2512 0.0108575 -0.0911169 0.9891425 0.0911169 0.9891425 0.0911169 0.0108575 -0.0911169
2627 0.0100602 -0.0872710 0.9899398 0.0872710 0.9899398 0.0872710 0.0100602 -0.0872710
2748 0.0093246 -0.0835822 0.9906754 0.0835822 0.9906754 0.0835822 0.0093246 -0.0835822
2873 0.0086459 -0.0800446 0.9913541 0.0800446 0.9913541 0.0800446 0.0086459 -0.0800446
3005 0.0080195 -0.0766526 0.9919805 0.0766526 0.9919805 0.0766526 0.0080195 -0.0766526
3143 0.0074413 -0.0734007 0.9925587 0.0734007 0.9925587 0.0734007 0.0074413 -0.0734007
3287 0.0069075 -0.0702835 0.9930925 0.0702835 0.9930925 0.0702835 0.0069075 -0.0702835
3437 0.0064147 -0.0672958 0.9935853 0.0672958 0.9935853 0.0672958 0.0064147 -0.0672958
3594 0.0059595 -0.0644326 0.9940405 0.0644326 0.9940405 0.0644326 0.0059595 -0.0644326
3759 0.0055391 -0.0616889 0.9944609 0.0616889 0.9944609 0.0616889 0.0055391 -0.0616889
3931 0.0051507 -0.0590600 0.9948493 0.0590600 0.9948493 0.0590600 0.0051507 -0.0590600
4111 0.0047918 -0.0565413 0.9952082 0.0565413 0.9952082 0.0565413 0.0047918 -0.0565413
4299 0.0044601 -0.0541285 0.9955399 0.0541285 0.9955399 0.0541285 0.0044601 -0.0541285
4496 0.0041535 -0.0518173 0.9958465 0.0518173 0.9958465 0.0518173 0.0041535 -0.0518173
4702 0.0038700 -0.0496036 0.9961300 0.0496036 0.9961300 0.0496036 0.0038700 -0.0496036
4918 0.0036078 -0.0474834 0.9963922 0.0474834 0.9963922 0.0474834 0.0036078 -0.0474834
5143 0.0033653 -0.0454530 0.9966347 0.0454530 0.9966347 0.0454530 0.0033653 -0.0454530
5378 0.0031408 -0.0435086 0.9968592 0.0435086 0.9968592 0.0435086 0.0031408 -0.0435086
5625 0.0029330 -0.0416468 0.9970670 0.0416468 0.9970670 0.0416468 0.0029330 -0.0416468
5882 0.0027406 -0.0398641 0.9972594 0.0398641 0.9972594 0.0398641 0.0027406 -0.0398641
6151 0.0025624 -0.0381573 0.9974376 0.0381573 0.9974376 0.0381573 0.0025624 -0.0381573
6433 0.0023972 -0.0365232 0.9976028 0.0365232 0.9976028 0.0365232 0.0023972 -0.0365232
6728 0.0022439 -0.0349587 0.9977561 0.0349587 0.9977561 0.0349587 0.0022439 -0.0349587
7036 0.0021018 -0.0334611 0.9978982 0.0334611 0.9978982 0.0334611 0.0021018 -0.0334611
7358 0.0019698 -0.0320274 0.9980302 0.0320274 0.9980302 0.0320274 0.0019698 -0.0320274
7695 0.0018472 -0.0306550 0.9981528 0.0306550 0.9981528 0.0306550 0.0018472 -0.0306550
8047 0.0017332 -0.0293413 0.9982668 0.0293413 0.9982668 0.0293413 0.0017332 -0.0293413
8416 0.0016272 -0.0280837 0.9983728 0.0280837 0.9983728 0.0280837 0.0016272 -0.0280837
8801 0.0015285 -0.0268800 0.9984715 0.0268800 0.9984715 0.0268800 0.0015285 -0.0268800
9204 0.0014366 -0.0257278 0.9985634 0.0257278 0.9985634 0.0257278 0.0014366 -0.0257278
9626 0.0013509 -0.0246248 0.9986491 0.0246248 0.9986491 0.0246248 0.0013509 -0.0246248
10066 0.0012711 -0.0235691 0.9987289 0.0235691 0.9987289 0.0235691 0.0012711 -0.0235691
10527 0.0011965 -0.0225586 0.9988035 0.0225586 0.9988035 0.0225586 0.0011965 -0.0225586
11009 0.0011269 -0.0215912 0.9988731 0.0215912 0.9988731 0.0215912 0.0011269 -0.0215912
11514 0.0010619 -0.0206653 0.9989381 0.0206653 0.9989381 0.0206653 0.0010619 -0.0206653
12041 0.0010012 -0.0197790 0.9989988 0.0197790 0.9989988 0.0197790 0.0010012 -0.0197790
12592 0.0009444 -0.0189306 0.9990556 0.0189306 0.9990556 0.0189306 0.0009444 -0.0189306
13169 0.0008913 -0.0181184 0.9991087 0.0181184 0.9991087 0.0181184 0.0008913 -0.0181184
13772 0.0008417 -0.0173410 0.9991583 0.0173410 0.9991583 0.0173410 0.0008417 -0.0173410
14402 0.0007953 -0.0165969 0.9992047 0.0165969 0.9992047 0.0165969 0.0007953 -0.0165969
15062 0.0007518 -0.0158846 0.9992482 0.0158846 0.9992482 0.0158846 0.0007518 -0.0158846
15752 0.0007111 -0.0152027 0.9992889 0.0152027 0.9992889 0.0152027 0.0007111 -0.0152027
16473 0.0006731 -0.0145501 0.9993269 0.0145501 0.9993269 0.0145501 0.0006731 -0.0145501
17227 0.0006374 -0.0139254 0.9993626 0.0139254 0.9993626 0.0139254 0.0006374 -0.0139254
18016 0.0006040 -0.0133275 0.9993960 0.0133275 0.9993960 0.0133275 0.0006040 -0.0133275
18841 0.0005728 -0.0127552 0.9994272 0.0127552 0.9994272 0.0127552 0.0005728 -0.0127552
19704 0.0005435 -0.0122074 0.9994565 0.0122074 0.9994565 0.0122074 0.0005435 -0.0122074
20606 0.0005161 -0.0116832 0.9994839 0.0116832 0.9994839 0.0116832 0.0005161 -0.0116832
21550 0.0004903 -0.0111814 0.9995097 0.0111814 0.9995097 0.0111814 0.0004903 -0.0111814
22537 0.0004662 -0.0107013 0.9995338 0.0107013 0.9995338 0.0107013 0.0004662 -0.0107013
23569 0.0004435 -0.0102417 0.9995565 0.0102417 0.9995565 0.0102417 0.0004435 -0.0102417
24648 0.0004223 -0.0098020 0.9995777 0.0098020 0.9995777 0.0098020 0.0004223 -0.0098020
25777 0.0004022 -0.0093812 0.9995978 0.0093812 0.9995978 0.0093812 0.0004022 -0.0093812
26957 0.0003834 -0.0089784 0.9996166 0.0089784 0.9996166 0.0089784 0.0003834 -0.0089784
28191 0.0003657 -0.0085931 0.9996343 0.0085931 0.9996343 0.0085931 0.0003657 -0.0085931
29482 0.0003489 -0.0082243 0.9996511 0.0082243 0.9996511 0.0082243 0.0003489 -0.0082243
30832 0.0003331 -0.0078714 0.9996669 0.0078714 0.9996669 0.0078714 0.0003331 -0.0078714
32244 0.0003182 -0.0075338 0.9996818 0.0075338 0.9996818 0.0075338 0.0003182 -0.0075338
33721 0.0003040 -0.0072106 0.9996960 0.0072106 0.9996960 0.0072106 0.0003040 -0.0072106
35265 0.0002906 -0.0069014 0.9997094 0.0069014 0.9997094 0.0069014 0.0002906 -0.0069014
36880 0.0002779 -0.0066055 0.9997221 0.0066055 0.9997221 0.0066055 0.0002779 -0.0066055
38569 0.0002658 -0.0063223 0.9997342 0.0063223 0.9997342 0.0063223 0.0002658 -0.0063223
40335 0.0002543 -0.0060513 0.9997457 0.0060513 0.9997457 0.0060513 0.0002543 -0.0060513
42182 0.0002433 -0.0057919 0.9997567 0.0057919 0.9997567 0.0057919 0.0002433 -0.0057919
44113 0.0002329 -0.0055436 0.9997671 0.0055436 0.9997671 0.0055436 0.0002329 -0.0055436
46134 0.0002230 -0.0053060 0.9997770 0.0053060 0.9997770 0.0053060 0.0002230 -0.0053060
48246 0.0002135 -0.0050786 0.9997865 0.0050786 0.9997865 0.0050786 0.0002135 -0.0050786
50455 0.0002044 -0.0048609 0.9997956 0.0048609 0.9997956 0.0048609 0.0002044 -0.0048609
52766 0.0001958 -0.0046525 0.9998042 0.0046525 0.9998042 0.0046525 0.0001958 -0.0046525
55182 0.0001876 -0.0044530 0.9998124 0.0044530 0.9998124 0.0044530 0.0001876 -0.0044530
57709 0.0001797 -0.0042620 0.9998203 0.0042620 0.9998203 0.0042620 0.0001797 -0.0042620
60352 0.0001723 -0.0040791 0.9998277 0.0040791 0.9998277 0.0040791 0.0001723 -0.0040791
63115 0.0001651 -0.0039041 0.9998349 0.0039041 0.9998349 0.0039041 0.0001651 -0.0039041
66005 0.0001584 -0.0037365 0.9998416 0.0037365 0.9998416 0.0037365 0.0001584 -0.0037365
69028 0.0001519 -0.0035760 0.9998481 0.0035760 0.9998481 0.0035760 0.0001519 -0.0035760
72189 0.0001458 -0.0034224 0.9998542 0.0034224 0.9998542 0.0034224 0.0001458 -0.0034224
75495 0.0001400 -0.0032753 0.9998600 0.0032753 0.9998600 0.0032753 0.0001400 -0.0032753
78952 0.0001345 -0.0031344 0.9998655 0.0031344 0.9998655 0.0031344 0.0001345 -0.0031344
82567 0.0001293 -0.0029996 0.9998707 0.0029996 0.9998707 0.0029996 0.0001293 -0.0029996
86348 0.0001243 -0.0028705 0.9998757 0.0028705 0.9998757 0.0028705 0.0001243 -0.0028705
90302 0.0001196 -0.0027469 0.9998804 0.0027469 0.9998804 0.0027469 0.0001196 -0.0027469
94437 0.0001152 -0.0026286 0.9998848 0.0026286 0.9998848 0.0026286 0.0001152 -0.0026286
98762 0.0001110 -0.0025154 0.9998890 0.0025154 0.9998890 0.0025154 0.0001110 -0.0025154
103284 0.0001071 -0.0024069 0.9998929 0.0024069 0.9998929 0.0024069 0.0001071 -0.0024069
108014 0.0001033 -0.0023031 0.9998967 0.0023031 0.9998967 0.0023031 0.0001033 -0.0023031
112960 0.0000998 -0.0022038 0.9999002 0.0022038 0.9999002 0.0022038 0.0000998 -0.0022038
118133 0.0000965 -0.0021087 0.9999035 0.0021087 0.9999035 0.0021087 0.0000965 -0.0021087
123542 0.0000933 -0.0020177 0.9999067 0.0020177 0.9999067 0.0020177 0.0000933 -0.0020177
129199 0.0000903 -0.0019305 0.9999097 0.0019305 0.9999097 0.0019305 0.0000903 -0.0019305
135116 0.0000875 -0.0018472 0.9999125 0.0018472 0.9999125 0.0018472 0.0000875 -0.0018472
141303 0.0000848 -0.0017673 0.9999152 0.0017673 0.9999152 0.0017673 0.0000848 -0.0017673
147774 0.0000823 -0.0016910 0.9999177 0.0016910 0.9999177 0.0016910 0.0000823 -0.0016910
154540 0.0000799 -0.0016179 0.9999201 0.0016179 0.9999201 0.0016179 0.0000799 -0.0016179
161617 0.0000776 -0.0015479 0.9999224 0.0015479 0.9999224 0.0015479 0.0000776 -0.0015479
169018 0.0000754 -0.0014809 0.9999246 0.0014809 0.9999246 0.0014809 0.0000754 -0.0014809
176758 0.0000733 -0.0014168 0.9999267 0.0014168 0.9999267 0.0014168 0.0000733 -0.0014168
184852 0.0000713 -0.0013555 0.9999287 0.0013555 0.9999287 0.0013555 0.0000713 -0.0013555
193316 0.0000694 -0.0012968 0.9999306 0.0012968 0.9999306 0.0012968 0.0000694 -0.0012968
202169 0.0000675 -0.0012405 0.9999325 0.0012405 0.9999325 0.0012405 0.0000675 -0.0012405
211427 0.0000657 -0.0011867 0.9999343 0.0011867 0.9999343 0.0011867 0.0000657 -0.0011867
221108 0.0000640 -0.0011352 0.9999360 0.0011352 0.9999360 0.0011352 0.0000640 -0.0011352
231233 0.0000623 -0.0010859 0.9999377 0.0010859 0.9999377 0.0010859 0.0000623 -0.0010859
241822 0.0000607 -0.0010386 0.9999393 0.0010386 0.9999393 0.0010386 0.0000607 -0.0010386
252896 0.0000592 -0.0009934 0.9999408 0.0009934 0.9999408 0.0009934 0.0000592 -0.0009934
264476 0.0000576 -0.0009500 0.9999424 0.0009500 0.9999424 0.0009500 0.0000576 -0.0009500
276587 0.0000562 -0.0009085 0.9999438 0.0009085 0.9999438 0.0009085 0.0000562 -0.0009085
289253 0.0000547 -0.0008687 0.9999453 0.0008687 0.9999453 0.0008687 0.0000547 -0.0008687
302498 0.0000533 -0.0008305 0.9999467 0.0008305 0.9999467 0.0008305 0.0000533 -0.0008305
316350 0.0000520 -0.0007940 0.9999480 0.0007940 0.9999480 0.0007940 0.0000520 -0.0007940
330837 0.0000507 -0.0007589 0.9999493 0.0007589 0.9999493 0.0007589 0.0000507 -0.0007589
345986 0.0000494 -0.0007253 0.9999506 0.0007253 0.9999506 0.0007253 0.0000494 -0.0007253
361830 0.0000482 -0.0006930 0.9999518 0.0006930 0.9999518 0.0006930 0.0000482 -0.0006930
378399 0.0000470 -0.0006621 0.9999530 0.0006621 0.9999530 0.0006621 0.0000470 -0.0006621
395726 0.0000458 -0.0006324 0.9999542 0.0006324 0.9999542 0.0006324 0.0000458 -0.0006324
413847 0.0000447 -0.0006038 0.9999553 0.0006038 0.9999553 0.0006038 0.0000447 -0.0006038
432798 0.0000437 -0.0005765 0.9999563 0.0005765 0.9999563 0.0005765 0.0000437 -0.0005765
452617 0.0000426 -0.0005502 0.9999574 0.0005502 0.9999574 0.0005502 0.0000426 -0.0005502
473344 0.0000417 -0.0005249 0.9999583 0.0005249 0.9999583 0.0005249 0.0000417 -0.0005249
495019 0.0000407 -0.0005006 0.9999593 0.0005006 0.9999593 0.0005006 0.0000407 -0.0005006
517687 0.0000399 -0.0004773 0.9999601 0.0004773 0.9999601 0.0004773 0.0000399 -0.0004773
541393 0.0000390 -0.0004548 0.9999610 0.0004548 0.9999610 0.0004548 0.0000390 -0.0004548
566185 0.0000382 -0.0004332 0.9999618 0.0004332 0.9999618 0.0004332 0.0000382 -0.0004332
592111 0.0000375 -0.0004125 0.9999625 0.0004125 0.9999625 0.0004125 0.0000375 -0.0004125
619225 0.0000368 -0.0003925 0.9999632 0.0003925 0.9999632 0.0003925 0.0000368 -0.0003925
647581 0.0000361 -0.0003732 0.9999639 0.0003732 0.9999639 0.0003732 0.0000361 -0.0003732
677235 0.0000355 -0.0003547 0.9999645 0.0003547 0.9999645 0.0003547 0.0000355 -0.0003547
708247 0.0000350 -0.0003368 0.9999650 0.0003368 0.9999650 0.0003368 0.0000350 -0.0003368
740679 0.0000345 -0.0003195 0.9999655 0.0003195 0.9999655 0.0003195 0.0000345 -0.0003195
774597 0.0000340 -0.0003029 0.9999660 0.0003029 0.9999660 0.0003029 0.0000340 -0.0003029
810067 0.0000336 -0.0002869 0.9999664 0.0002869 0.9999664 0.0002869 0.0000336 -0.0002869
847162 0.0000332 -0.0002713 0.9999668 0.0002713 0.9999668 0.0002713 0.0000332 -0.0002713
885955 0.0000328 -0.0002563 0.9999672 0.0002563 0.9999672 0.0002563 0.0000328 -0.0002563
926525 0.0000325 -0.0002418 0.9999675 0.0002418 0.9999675 0.0002418 0.0000325 -0.0002418
968953 0.0000322 -0.0002278 0.9999678 0.0002278 0.9999678 0.0002278 0.0000322 -0.0002278
1013323 0.0000320 -0.0002142 0.9999680 0.0002142 0.9999680 0.0002142 0.0000320 -0.0002142
1059725 0.0000318 -0.0002010 0.9999682 0.0002010 0.9999682 0.0002010 0.0000318 -0.0002010
1108252 0.0000317 -0.0001882 0.9999683 0.0001882 0.9999683 0.0001882 0.0000317 -0.0001882
1159002 0.0000316 -0.0001757 0.9999684 0.0001757 0.9999684 0.0001757 0.0000316 -0.0001757
1212075 0.0000315 -0.0001636 0.9999685 0.0001636 0.9999685 0.0001636 0.0000315 -0.0001636
1267578 0.0000315 -0.0001518 0.9999685 0.0001518 0.9999685 0.0001518 0.0000315 -0.0001518
1325623 0.0000315 -0.0001403 0.9999685 0.0001403 0.9999685 0.0001403 0.0000315 -0.0001403
1386327 0.0000315 -0.0001290 0.9999685 0.0001290 0.9999685 0.0001290 0.0000315 -0.0001290
1449809 0.0000316 -0.0001180 0.9999684 0.0001180 0.9999684 0.0001180 0.0000316 -0.0001180
1516199 0.0000318 -0.0001072 0.9999682 0.0001072 0.9999682 0.0001072 0.0000318 -0.0001072
1585629 0.0000319 -0.0000966 0.9999681 0.0000966 0.9999681 0.0000966 0.0000319 -0.0000966
1658239 0.0000322 -0.0000862 0.9999678 0.0000862 0.9999678 0.0000862 0.0000322 -0.0000862
1734173 0.0000325 -0.0000759 0.9999675 0.0000759 0.9999675 0.0000759 0.0000325 -0.0000759
1813585 0.0000328 -0.0000657 0.9999672 0.0000657 0.9999672 0.0000657 0.0000328 -0.0000657
1896632 0.0000332 -0.0000557 0.9999668 0.0000557 0.9999668 0.0000557 0.0000332 -0.0000557
1983483 0.0000337 -0.0000457 0.9999663 0.0000457 0.9999663 0.0000457 0.0000337 -0.0000457
2074311 0.0000343 -0.0000358 0.9999657 0.0000358 0.9999657 0.0000358 0.0000343 -0.0000358
