!Murata Part Number: GRM32DR72E224KW01
!These Parameters are Measured in Series Mode Connection
!Data Generated on Mar 30, 2021
!       o--ll--o
!Port1            Port2
!       o------o
!Operation Temp=25[degC], DC Bias Voltage=0[V]
!Freq. Start=100[kHz] Stop=6[GHz] 401[Steps]
# Hz S RI R 50
!Freq.(Hz) S11(Real) S11(Imag) S21(Real) S21(Imag) S12(Real) S12(Imag) S22(Real) S22(Imag)
100000 0.0065234 -0.0758181 0.9934766 0.0758181 0.9934766 0.0758181 0.0065234 -0.0758181
102789 0.0062011 -0.0737999 0.9937989 0.0737999 0.9937989 0.0737999 0.0062011 -0.0737999
105655 0.0058950 -0.0718341 0.9941050 0.0718341 0.9941050 0.0718341 0.0058950 -0.0718341
108602 0.0056044 -0.0699193 0.9943956 0.0699193 0.9943956 0.0699193 0.0056044 -0.0699193
111630 0.0053284 -0.0680545 0.9946716 0.0680545 0.9946716 0.0680545 0.0053284 -0.0680545
114743 0.0050664 -0.0662383 0.9949336 0.0662383 0.9949336 0.0662383 0.0050664 -0.0662383
117943 0.0048177 -0.0644696 0.9951823 0.0644696 0.9951823 0.0644696 0.0048177 -0.0644696
121232 0.0045814 -0.0627471 0.9954186 0.0627471 0.9954186 0.0627471 0.0045814 -0.0627471
124613 0.0043572 -0.0610697 0.9956428 0.0610697 0.9956428 0.0610697 0.0043572 -0.0610697
128088 0.0041443 -0.0594363 0.9958557 0.0594363 0.9958557 0.0594363 0.0041443 -0.0594363
131660 0.0039421 -0.0578458 0.9960579 0.0578458 0.9960579 0.0578458 0.0039421 -0.0578458
135332 0.0037503 -0.0562971 0.9962497 0.0562971 0.9962497 0.0562971 0.0037503 -0.0562971
139106 0.0035681 -0.0547892 0.9964319 0.0547892 0.9964319 0.0547892 0.0035681 -0.0547892
142985 0.0033952 -0.0533210 0.9966048 0.0533210 0.9966048 0.0533210 0.0033952 -0.0533210
146972 0.0032310 -0.0518915 0.9967690 0.0518915 0.9967690 0.0518915 0.0032310 -0.0518915
151071 0.0030752 -0.0504998 0.9969248 0.0504998 0.9969248 0.0504998 0.0030752 -0.0504998
155284 0.0029273 -0.0491448 0.9970727 0.0491448 0.9970727 0.0491448 0.0029273 -0.0491448
159614 0.0027870 -0.0478257 0.9972130 0.0478257 0.9972130 0.0478257 0.0027870 -0.0478257
164065 0.0026538 -0.0465416 0.9973462 0.0465416 0.9973462 0.0465416 0.0026538 -0.0465416
168641 0.0025274 -0.0452915 0.9974726 0.0452915 0.9974726 0.0452915 0.0025274 -0.0452915
173344 0.0024074 -0.0440745 0.9975926 0.0440745 0.9975926 0.0440745 0.0024074 -0.0440745
178178 0.0022935 -0.0428899 0.9977065 0.0428899 0.9977065 0.0428899 0.0022935 -0.0428899
183146 0.0021854 -0.0417367 0.9978146 0.0417367 0.9978146 0.0417367 0.0021854 -0.0417367
188254 0.0020829 -0.0406142 0.9979171 0.0406142 0.9979171 0.0406142 0.0020829 -0.0406142
193504 0.0019856 -0.0395217 0.9980144 0.0395217 0.9980144 0.0395217 0.0019856 -0.0395217
198900 0.0018933 -0.0384582 0.9981067 0.0384582 0.9981067 0.0384582 0.0018933 -0.0384582
204447 0.0018056 -0.0374231 0.9981944 0.0374231 0.9981944 0.0374231 0.0018056 -0.0374231
210148 0.0017225 -0.0364156 0.9982775 0.0364156 0.9982775 0.0364156 0.0017225 -0.0364156
216008 0.0016436 -0.0354350 0.9983564 0.0354350 0.9983564 0.0354350 0.0016436 -0.0354350
222032 0.0015687 -0.0344806 0.9984313 0.0344806 0.9984313 0.0344806 0.0015687 -0.0344806
228224 0.0014977 -0.0335517 0.9985023 0.0335517 0.9985023 0.0335517 0.0014977 -0.0335517
234589 0.0014302 -0.0326477 0.9985698 0.0326477 0.9985698 0.0326477 0.0014302 -0.0326477
241130 0.0013662 -0.0317679 0.9986338 0.0317679 0.9986338 0.0317679 0.0013662 -0.0317679
247855 0.0013055 -0.0309116 0.9986945 0.0309116 0.9986945 0.0309116 0.0013055 -0.0309116
254767 0.0012478 -0.0300783 0.9987522 0.0300783 0.9987522 0.0300783 0.0012478 -0.0300783
261871 0.0011931 -0.0292674 0.9988069 0.0292674 0.9988069 0.0292674 0.0011931 -0.0292674
269174 0.0011412 -0.0284782 0.9988588 0.0284782 0.9988588 0.0284782 0.0011412 -0.0284782
276681 0.0010918 -0.0277102 0.9989082 0.0277102 0.9989082 0.0277102 0.0010918 -0.0277102
284397 0.0010450 -0.0269628 0.9989550 0.0269628 0.9989550 0.0269628 0.0010450 -0.0269628
292328 0.0010006 -0.0262354 0.9989994 0.0262354 0.9989994 0.0262354 0.0010006 -0.0262354
300480 0.0009583 -0.0255276 0.9990417 0.0255276 0.9990417 0.0255276 0.0009583 -0.0255276
308859 0.0009182 -0.0248389 0.9990818 0.0248389 0.9990818 0.0248389 0.0009182 -0.0248389
317472 0.0008801 -0.0241686 0.9991199 0.0241686 0.9991199 0.0241686 0.0008801 -0.0241686
326326 0.0008439 -0.0235164 0.9991561 0.0235164 0.9991561 0.0235164 0.0008439 -0.0235164
335426 0.0008095 -0.0228817 0.9991905 0.0228817 0.9991905 0.0228817 0.0008095 -0.0228817
344780 0.0007768 -0.0222641 0.9992232 0.0222641 0.9992232 0.0222641 0.0007768 -0.0222641
354395 0.0007458 -0.0216631 0.9992542 0.0216631 0.9992542 0.0216631 0.0007458 -0.0216631
364278 0.0007162 -0.0210783 0.9992838 0.0210783 0.9992838 0.0210783 0.0007162 -0.0210783
374436 0.0006881 -0.0205092 0.9993119 0.0205092 0.9993119 0.0205092 0.0006881 -0.0205092
384878 0.0006614 -0.0199555 0.9993386 0.0199555 0.9993386 0.0199555 0.0006614 -0.0199555
395611 0.0006359 -0.0194166 0.9993641 0.0194166 0.9993641 0.0194166 0.0006359 -0.0194166
406644 0.0006117 -0.0188923 0.9993883 0.0188923 0.9993883 0.0188923 0.0006117 -0.0188923
417984 0.0005887 -0.0183820 0.9994113 0.0183820 0.9994113 0.0183820 0.0005887 -0.0183820
429640 0.0005668 -0.0178855 0.9994332 0.0178855 0.9994332 0.0178855 0.0005668 -0.0178855
441622 0.0005459 -0.0174023 0.9994541 0.0174023 0.9994541 0.0174023 0.0005459 -0.0174023
453937 0.0005260 -0.0169322 0.9994740 0.0169322 0.9994740 0.0169322 0.0005260 -0.0169322
466596 0.0005070 -0.0164746 0.9994930 0.0164746 0.9994930 0.0164746 0.0005070 -0.0164746
479608 0.0004889 -0.0160294 0.9995111 0.0160294 0.9995111 0.0160294 0.0004889 -0.0160294
492983 0.0004717 -0.0155962 0.9995283 0.0155962 0.9995283 0.0155962 0.0004717 -0.0155962
506731 0.0004553 -0.0151746 0.9995447 0.0151746 0.9995447 0.0151746 0.0004553 -0.0151746
520862 0.0004396 -0.0147643 0.9995604 0.0147643 0.9995604 0.0147643 0.0004396 -0.0147643
535387 0.0004247 -0.0143651 0.9995753 0.0143651 0.9995753 0.0143651 0.0004247 -0.0143651
550318 0.0004104 -0.0139766 0.9995896 0.0139766 0.9995896 0.0139766 0.0004104 -0.0139766
565664 0.0003968 -0.0135985 0.9996032 0.0135985 0.9996032 0.0135985 0.0003968 -0.0135985
581439 0.0003838 -0.0132306 0.9996162 0.0132306 0.9996162 0.0132306 0.0003838 -0.0132306
597654 0.0003714 -0.0128725 0.9996286 0.0128725 0.9996286 0.0128725 0.0003714 -0.0128725
614320 0.0003595 -0.0125240 0.9996405 0.0125240 0.9996405 0.0125240 0.0003595 -0.0125240
631452 0.0003482 -0.0121849 0.9996518 0.0121849 0.9996518 0.0121849 0.0003482 -0.0121849
649061 0.0003374 -0.0118549 0.9996626 0.0118549 0.9996626 0.0118549 0.0003374 -0.0118549
667162 0.0003270 -0.0115337 0.9996730 0.0115337 0.9996730 0.0115337 0.0003270 -0.0115337
685767 0.0003171 -0.0112211 0.9996829 0.0112211 0.9996829 0.0112211 0.0003171 -0.0112211
704891 0.0003077 -0.0109169 0.9996923 0.0109169 0.9996923 0.0109169 0.0003077 -0.0109169
724548 0.0002987 -0.0106208 0.9997013 0.0106208 0.9997013 0.0106208 0.0002987 -0.0106208
744754 0.0002900 -0.0103327 0.9997100 0.0103327 0.9997100 0.0103327 0.0002900 -0.0103327
765523 0.0002818 -0.0100522 0.9997182 0.0100522 0.9997182 0.0100522 0.0002818 -0.0100522
786871 0.0002739 -0.0097793 0.9997261 0.0097793 0.9997261 0.0097793 0.0002739 -0.0097793
808814 0.0002663 -0.0095136 0.9997337 0.0095136 0.9997337 0.0095136 0.0002663 -0.0095136
831370 0.0002591 -0.0092551 0.9997409 0.0092551 0.9997409 0.0092551 0.0002591 -0.0092551
854554 0.0002522 -0.0090034 0.9997478 0.0090034 0.9997478 0.0090034 0.0002522 -0.0090034
878385 0.0002456 -0.0087584 0.9997544 0.0087584 0.9997544 0.0087584 0.0002456 -0.0087584
902880 0.0002393 -0.0085200 0.9997607 0.0085200 0.9997607 0.0085200 0.0002393 -0.0085200
928059 0.0002332 -0.0082880 0.9997668 0.0082880 0.9997668 0.0082880 0.0002332 -0.0082880
953940 0.0002275 -0.0080621 0.9997725 0.0080621 0.9997725 0.0080621 0.0002275 -0.0080621
980542 0.0002219 -0.0078422 0.9997781 0.0078422 0.9997781 0.0078422 0.0002219 -0.0078422
1007887 0.0002166 -0.0076282 0.9997834 0.0076282 0.9997834 0.0076282 0.0002166 -0.0076282
1035994 0.0002116 -0.0074199 0.9997884 0.0074199 0.9997884 0.0074199 0.0002116 -0.0074199
1064885 0.0002067 -0.0072171 0.9997933 0.0072171 0.9997933 0.0072171 0.0002067 -0.0072171
1094581 0.0002021 -0.0070197 0.9997979 0.0070197 0.9997979 0.0070197 0.0002021 -0.0070197
1125106 0.0001976 -0.0068275 0.9998024 0.0068275 0.9998024 0.0068275 0.0001976 -0.0068275
1156481 0.0001934 -0.0066404 0.9998066 0.0066404 0.9998066 0.0066404 0.0001934 -0.0066404
1188732 0.0001893 -0.0064583 0.9998107 0.0064583 0.9998107 0.0064583 0.0001893 -0.0064583
1221882 0.0001854 -0.0062810 0.9998146 0.0062810 0.9998146 0.0062810 0.0001854 -0.0062810
1255957 0.0001817 -0.0061084 0.9998183 0.0061084 0.9998183 0.0061084 0.0001817 -0.0061084
1290982 0.0001781 -0.0059404 0.9998219 0.0059404 0.9998219 0.0059404 0.0001781 -0.0059404
1326984 0.0001747 -0.0057768 0.9998253 0.0057768 0.9998253 0.0057768 0.0001747 -0.0057768
1363989 0.0001714 -0.0056175 0.9998286 0.0056175 0.9998286 0.0056175 0.0001714 -0.0056175
1402027 0.0001682 -0.0054624 0.9998318 0.0054624 0.9998318 0.0054624 0.0001682 -0.0054624
1441125 0.0001652 -0.0053114 0.9998348 0.0053114 0.9998348 0.0053114 0.0001652 -0.0053114
1481314 0.0001623 -0.0051644 0.9998377 0.0051644 0.9998377 0.0051644 0.0001623 -0.0051644
1522623 0.0001595 -0.0050212 0.9998405 0.0050212 0.9998405 0.0050212 0.0001595 -0.0050212
1565085 0.0001568 -0.0048818 0.9998432 0.0048818 0.9998432 0.0048818 0.0001568 -0.0048818
1608730 0.0001543 -0.0047460 0.9998457 0.0047460 0.9998457 0.0047460 0.0001543 -0.0047460
1653593 0.0001518 -0.0046138 0.9998482 0.0046138 0.9998482 0.0046138 0.0001518 -0.0046138
1699707 0.0001494 -0.0044850 0.9998506 0.0044850 0.9998506 0.0044850 0.0001494 -0.0044850
1747106 0.0001471 -0.0043596 0.9998529 0.0043596 0.9998529 0.0043596 0.0001471 -0.0043596
1795828 0.0001449 -0.0042374 0.9998551 0.0042374 0.9998551 0.0042374 0.0001449 -0.0042374
1845908 0.0001428 -0.0041184 0.9998572 0.0041184 0.9998572 0.0041184 0.0001428 -0.0041184
1897385 0.0001407 -0.0040025 0.9998593 0.0040025 0.9998593 0.0040025 0.0001407 -0.0040025
1950297 0.0001388 -0.0038895 0.9998612 0.0038895 0.9998612 0.0038895 0.0001388 -0.0038895
2004685 0.0001368 -0.0037795 0.9998632 0.0037795 0.9998632 0.0037795 0.0001368 -0.0037795
2060590 0.0001350 -0.0036722 0.9998650 0.0036722 0.9998650 0.0036722 0.0001350 -0.0036722
2118054 0.0001332 -0.0035677 0.9998668 0.0035677 0.9998668 0.0035677 0.0001332 -0.0035677
2177120 0.0001315 -0.0034659 0.9998685 0.0034659 0.9998685 0.0034659 0.0001315 -0.0034659
2237833 0.0001298 -0.0033667 0.9998702 0.0033667 0.9998702 0.0033667 0.0001298 -0.0033667
2300240 0.0001282 -0.0032699 0.9998718 0.0032699 0.9998718 0.0032699 0.0001282 -0.0032699
2364387 0.0001266 -0.0031756 0.9998734 0.0031756 0.9998734 0.0031756 0.0001266 -0.0031756
2430322 0.0001251 -0.0030837 0.9998749 0.0030837 0.9998749 0.0030837 0.0001251 -0.0030837
2498097 0.0001236 -0.0029941 0.9998764 0.0029941 0.9998764 0.0029941 0.0001236 -0.0029941
2567761 0.0001222 -0.0029066 0.9998778 0.0029066 0.9998778 0.0029066 0.0001222 -0.0029066
2639368 0.0001208 -0.0028214 0.9998792 0.0028214 0.9998792 0.0028214 0.0001208 -0.0028214
2712972 0.0001195 -0.0027382 0.9998805 0.0027382 0.9998805 0.0027382 0.0001195 -0.0027382
2788629 0.0001182 -0.0026571 0.9998818 0.0026571 0.9998818 0.0026571 0.0001182 -0.0026571
2866396 0.0001169 -0.0025779 0.9998831 0.0025779 0.9998831 0.0025779 0.0001169 -0.0025779
2946331 0.0001157 -0.0025006 0.9998843 0.0025006 0.9998843 0.0025006 0.0001157 -0.0025006
3028495 0.0001145 -0.0024252 0.9998855 0.0024252 0.9998855 0.0024252 0.0001145 -0.0024252
3112951 0.0001133 -0.0023516 0.9998867 0.0023516 0.9998867 0.0023516 0.0001133 -0.0023516
3199762 0.0001122 -0.0022797 0.9998878 0.0022797 0.9998878 0.0022797 0.0001122 -0.0022797
3288994 0.0001111 -0.0022095 0.9998889 0.0022095 0.9998889 0.0022095 0.0001111 -0.0022095
3380714 0.0001101 -0.0021409 0.9998899 0.0021409 0.9998899 0.0021409 0.0001101 -0.0021409
3474992 0.0001091 -0.0020739 0.9998909 0.0020739 0.9998909 0.0020739 0.0001091 -0.0020739
3571899 0.0001081 -0.0020085 0.9998919 0.0020085 0.9998919 0.0020085 0.0001081 -0.0020085
3671508 0.0001071 -0.0019445 0.9998929 0.0019445 0.9998929 0.0019445 0.0001071 -0.0019445
3773896 0.0001062 -0.0018819 0.9998938 0.0018819 0.9998938 0.0018819 0.0001062 -0.0018819
3879139 0.0001054 -0.0018207 0.9998946 0.0018207 0.9998946 0.0018207 0.0001054 -0.0018207
3987316 0.0001045 -0.0017609 0.9998955 0.0017609 0.9998955 0.0017609 0.0001045 -0.0017609
4098510 0.0001038 -0.0017023 0.9998962 0.0017023 0.9998962 0.0017023 0.0001038 -0.0017023
4212806 0.0001030 -0.0016450 0.9998970 0.0016450 0.9998970 0.0016450 0.0001030 -0.0016450
4330288 0.0001023 -0.0015889 0.9998977 0.0015889 0.9998977 0.0015889 0.0001023 -0.0015889
4451047 0.0001016 -0.0015339 0.9998984 0.0015339 0.9998984 0.0015339 0.0001016 -0.0015339
4575173 0.0001010 -0.0014801 0.9998990 0.0014801 0.9998990 0.0014801 0.0001010 -0.0014801
4702761 0.0001005 -0.0014273 0.9998995 0.0014273 0.9998995 0.0014273 0.0001005 -0.0014273
4833907 0.0000999 -0.0013756 0.9999001 0.0013756 0.9999001 0.0013756 0.0000999 -0.0013756
4968711 0.0000994 -0.0013249 0.9999006 0.0013249 0.9999006 0.0013249 0.0000994 -0.0013249
5107273 0.0000990 -0.0012752 0.9999010 0.0012752 0.9999010 0.0012752 0.0000990 -0.0012752
5249700 0.0000986 -0.0012263 0.9999014 0.0012263 0.9999014 0.0012263 0.0000986 -0.0012263
5396098 0.0000983 -0.0011784 0.9999017 0.0011784 0.9999017 0.0011784 0.0000983 -0.0011784
5546579 0.0000980 -0.0011313 0.9999020 0.0011313 0.9999020 0.0011313 0.0000980 -0.0011313
5701257 0.0000978 -0.0010851 0.9999022 0.0010851 0.9999022 0.0010851 0.0000978 -0.0010851
5860248 0.0000976 -0.0010396 0.9999024 0.0010396 0.9999024 0.0010396 0.0000976 -0.0010396
6023672 0.0000975 -0.0009949 0.9999025 0.0009949 0.9999025 0.0009949 0.0000975 -0.0009949
6191655 0.0000975 -0.0009509 0.9999025 0.0009509 0.9999025 0.0009509 0.0000975 -0.0009509
6364321 0.0000975 -0.0009076 0.9999025 0.0009076 0.9999025 0.0009076 0.0000975 -0.0009076
6541803 0.0000976 -0.0008649 0.9999024 0.0008649 0.9999024 0.0008649 0.0000976 -0.0008649
6724235 0.0000978 -0.0008229 0.9999022 0.0008229 0.9999022 0.0008229 0.0000978 -0.0008229
6911753 0.0000980 -0.0007815 0.9999020 0.0007815 0.9999020 0.0007815 0.0000980 -0.0007815
7104501 0.0000983 -0.0007406 0.9999017 0.0007406 0.9999017 0.0007406 0.0000983 -0.0007406
7302625 0.0000987 -0.0007003 0.9999013 0.0007003 0.9999013 0.0007003 0.0000987 -0.0007003
7506273 0.0000991 -0.0006604 0.9999009 0.0006604 0.9999009 0.0006604 0.0000991 -0.0006604
7715601 0.0000997 -0.0006211 0.9999003 0.0006211 0.9999003 0.0006211 0.0000997 -0.0006211
7930766 0.0001003 -0.0005821 0.9998997 0.0005821 0.9998997 0.0005821 0.0001003 -0.0005821
8151931 0.0001010 -0.0005436 0.9998990 0.0005436 0.9998990 0.0005436 0.0001010 -0.0005436
8379264 0.0001018 -0.0005055 0.9998982 0.0005055 0.9998982 0.0005055 0.0001018 -0.0005055
8612937 0.0001027 -0.0004677 0.9998973 0.0004677 0.9998973 0.0004677 0.0001027 -0.0004677
8853126 0.0001037 -0.0004302 0.9998963 0.0004302 0.9998963 0.0004302 0.0001037 -0.0004302
9100013 0.0001048 -0.0003931 0.9998952 0.0003931 0.9998952 0.0003931 0.0001048 -0.0003931
9353785 0.0001060 -0.0003562 0.9998940 0.0003562 0.9998940 0.0003562 0.0001060 -0.0003562
9614634 0.0001073 -0.0003195 0.9998927 0.0003195 0.9998927 0.0003195 0.0001073 -0.0003195
9882758 0.0001087 -0.0002831 0.9998913 0.0002831 0.9998913 0.0002831 0.0001087 -0.0002831
10158358 0.0001103 -0.0002468 0.9998897 0.0002468 0.9998897 0.0002468 0.0001103 -0.0002468
10441645 0.0001120 -0.0002107 0.9998880 0.0002107 0.9998880 0.0002107 0.0001120 -0.0002107
10732831 0.0001138 -0.0001747 0.9998862 0.0001747 0.9998862 0.0001747 0.0001138 -0.0001747
11032137 0.0001158 -0.0001387 0.9998842 0.0001387 0.9998842 0.0001387 0.0001158 -0.0001387
11339791 0.0001180 -0.0001029 0.9998820 0.0001029 0.9998820 0.0001029 0.0001180 -0.0001029
11656024 0.0001203 -0.0000670 0.9998797 0.0000670 0.9998797 0.0000670 0.0001203 -0.0000670
11981075 0.0001228 -0.0000311 0.9998772 0.0000311 0.9998772 0.0000311 0.0001228 -0.0000311
12315192 0.0001255 0.0000048 0.9998745 -0.0000048 0.9998745 -0.0000048 0.0001255 0.0000048
12658625 0.0001284 0.0000408 0.9998716 -0.0000408 0.9998716 -0.0000408 0.0001284 0.0000408
13011637 0.0001315 0.0000769 0.9998685 -0.0000769 0.9998685 -0.0000769 0.0001315 0.0000769
13374492 0.0001349 0.0001132 0.9998651 -0.0001132 0.9998651 -0.0001132 0.0001349 0.0001132
13747467 0.0001385 0.0001497 0.9998615 -0.0001497 0.9998615 -0.0001497 0.0001385 0.0001497
14130843 0.0001425 0.0001864 0.9998575 -0.0001864 0.9998575 -0.0001864 0.0001425 0.0001864
14524910 0.0001467 0.0002234 0.9998533 -0.0002234 0.9998533 -0.0002234 0.0001467 0.0002234
14929966 0.0001513 0.0002608 0.9998487 -0.0002608 0.9998487 -0.0002608 0.0001513 0.0002608
15346318 0.0001563 0.0002986 0.9998437 -0.0002986 0.9998437 -0.0002986 0.0001563 0.0002986
15774281 0.0001617 0.0003368 0.9998383 -0.0003368 0.9998383 -0.0003368 0.0001617 0.0003368
16214179 0.0001676 0.0003756 0.9998324 -0.0003756 0.9998324 -0.0003756 0.0001676 0.0003756
16666344 0.0001742 0.0004150 0.9998258 -0.0004150 0.9998258 -0.0004150 0.0001742 0.0004150
17131118 0.0001813 0.0004551 0.9998187 -0.0004551 0.9998187 -0.0004551 0.0001813 0.0004551
17608854 0.0001893 0.0004959 0.9998107 -0.0004959 0.9998107 -0.0004959 0.0001893 0.0004959
18099912 0.0001982 0.0005376 0.9998018 -0.0005376 0.9998018 -0.0005376 0.0001982 0.0005376
18604665 0.0002082 0.0005804 0.9997918 -0.0005804 0.9997918 -0.0005804 0.0002082 0.0005804
19123493 0.0002196 0.0006242 0.9997804 -0.0006242 0.9997804 -0.0006242 0.0002196 0.0006242
19656790 0.0002327 0.0006693 0.9997673 -0.0006693 0.9997673 -0.0006693 0.0002327 0.0006693
20204959 0.0002480 0.0007157 0.9997520 -0.0007157 0.9997520 -0.0007157 0.0002480 0.0007157
20768415 0.0002661 0.0007636 0.9997339 -0.0007636 0.9997339 -0.0007636 0.0002661 0.0007636
21347584 0.0002879 0.0008128 0.9997121 -0.0008128 0.9997121 -0.0008128 0.0002879 0.0008128
21942904 0.0003146 0.0008632 0.9996854 -0.0008632 0.9996854 -0.0008632 0.0003146 0.0008632
22554827 0.0003477 0.0009141 0.9996523 -0.0009141 0.9996523 -0.0009141 0.0003477 0.0009141
23183813 0.0003894 0.0009639 0.9996106 -0.0009639 0.9996106 -0.0009639 0.0003894 0.0009639
23830340 0.0004421 0.0010093 0.9995579 -0.0010093 0.9995579 -0.0010093 0.0004421 0.0010093
24494897 0.0005073 0.0010446 0.9994927 -0.0010446 0.9994927 -0.0010446 0.0005073 0.0010446
25177987 0.0005831 0.0010601 0.9994169 -0.0010601 0.9994169 -0.0010601 0.0005831 0.0010601
25880126 0.0006594 0.0010452 0.9993406 -0.0010452 0.9993406 -0.0010452 0.0006594 0.0010452
26601845 0.0007147 0.0009974 0.9992853 -0.0009974 0.9992853 -0.0009974 0.0007147 0.0009974
27343691 0.0007278 0.0009342 0.9992722 -0.0009342 0.9992722 -0.0009342 0.0007278 0.0009342
28106225 0.0006977 0.0008859 0.9993023 -0.0008859 0.9993023 -0.0008859 0.0006977 0.0008859
28890023 0.0006453 0.0008716 0.9993547 -0.0008716 0.9993547 -0.0008716 0.0006453 0.0008716
29695680 0.0005927 0.0008900 0.9994073 -0.0008900 0.9994073 -0.0008900 0.0005927 0.0008900
30523804 0.0005515 0.0009305 0.9994485 -0.0009305 0.9994485 -0.0009305 0.0005515 0.0009305
31375021 0.0005243 0.0009834 0.9994757 -0.0009834 0.9994757 -0.0009834 0.0005243 0.0009834
32249977 0.0005101 0.0010422 0.9994899 -0.0010422 0.9994899 -0.0010422 0.0005101 0.0010422
33149332 0.0005072 0.0011035 0.9994928 -0.0011035 0.9994928 -0.0011035 0.0005072 0.0011035
34073768 0.0005142 0.0011652 0.9994858 -0.0011652 0.9994858 -0.0011652 0.0005142 0.0011652
35023984 0.0005303 0.0012259 0.9994697 -0.0012259 0.9994697 -0.0012259 0.0005303 0.0012259
36000698 0.0005553 0.0012840 0.9994447 -0.0012840 0.9994447 -0.0012840 0.0005553 0.0012840
37004650 0.0005892 0.0013377 0.9994108 -0.0013377 0.9994108 -0.0013377 0.0005892 0.0013377
38036599 0.0006319 0.0013838 0.9993681 -0.0013838 0.9993681 -0.0013838 0.0006319 0.0013838
39097326 0.0006816 0.0014182 0.9993184 -0.0014182 0.9993184 -0.0014182 0.0006816 0.0014182
