!Murata Part Number: GRM32DR72J333KW01
!These Parameters are Measured in Series Mode Connection
!Data Generated on Mar 30, 2021
!       o--ll--o
!Port1            Port2
!       o------o
!Operation Temp=25[degC], DC Bias Voltage=0[V]
!Freq. Start=100[kHz] Stop=6[GHz] 401[Steps]
# Hz S RI R 50
!Freq.(Hz) S11(Real) S11(Imag) S21(Real) S21(Imag) S12(Real) S12(Imag) S22(Real) S22(Imag)
100000 0.2106498 -0.4030544 0.7893502 0.4030544 0.7893502 0.4030544 0.2106498 -0.4030544
102789 0.2018068 -0.3966319 0.7981932 0.3966319 0.7981932 0.3966319 0.2018068 -0.3966319
105655 0.1932449 -0.3901255 0.8067551 0.3901255 0.8067551 0.3901255 0.1932449 -0.3901255
108602 0.1849629 -0.3835486 0.8150371 0.3835486 0.8150371 0.3835486 0.1849629 -0.3835486
111630 0.1769590 -0.3769141 0.8230410 0.3769141 0.8230410 0.3769141 0.1769590 -0.3769141
114743 0.1692305 -0.3702343 0.8307695 0.3702343 0.8307695 0.3702343 0.1692305 -0.3702343
117943 0.1617743 -0.3635212 0.8382257 0.3635212 0.8382257 0.3635212 0.1617743 -0.3635212
121232 0.1545868 -0.3567860 0.8454132 0.3567860 0.8454132 0.3567860 0.1545868 -0.3567860
124613 0.1476638 -0.3500397 0.8523362 0.3500397 0.8523362 0.3500397 0.1476638 -0.3500397
128088 0.1410006 -0.3432925 0.8589994 0.3432925 0.8589994 0.3432925 0.1410006 -0.3432925
131660 0.1345922 -0.3365542 0.8654078 0.3365542 0.8654078 0.3365542 0.1345922 -0.3365542
135332 0.1284333 -0.3298339 0.8715667 0.3298339 0.8715667 0.3298339 0.1284333 -0.3298339
139106 0.1225181 -0.3231402 0.8774819 0.3231402 0.8774819 0.3231402 0.1225181 -0.3231402
142985 0.1168408 -0.3164811 0.8831592 0.3164811 0.8831592 0.3164811 0.1168408 -0.3164811
146972 0.1113952 -0.3098642 0.8886048 0.3098642 0.8886048 0.3098642 0.1113952 -0.3098642
151071 0.1061750 -0.3032964 0.8938250 0.3032964 0.8938250 0.3032964 0.1061750 -0.3032964
155284 0.1011738 -0.2967841 0.8988262 0.2967841 0.8988262 0.2967841 0.1011738 -0.2967841
159614 0.0963850 -0.2903332 0.9036150 0.2903332 0.9036150 0.2903332 0.0963850 -0.2903332
164065 0.0918021 -0.2839491 0.9081979 0.2839491 0.9081979 0.2839491 0.0918021 -0.2839491
168641 0.0874185 -0.2776367 0.9125815 0.2776367 0.9125815 0.2776367 0.0874185 -0.2776367
173344 0.0832274 -0.2714005 0.9167726 0.2714005 0.9167726 0.2714005 0.0832274 -0.2714005
178178 0.0792224 -0.2652444 0.9207776 0.2652444 0.9207776 0.2652444 0.0792224 -0.2652444
183146 0.0753968 -0.2591720 0.9246032 0.2591720 0.9246032 0.2591720 0.0753968 -0.2591720
188254 0.0717442 -0.2531866 0.9282558 0.2531866 0.9282558 0.2531866 0.0717442 -0.2531866
193504 0.0682581 -0.2472908 0.9317419 0.2472908 0.9317419 0.2472908 0.0682581 -0.2472908
198900 0.0649321 -0.2414870 0.9350679 0.2414870 0.9350679 0.2414870 0.0649321 -0.2414870
204447 0.0617602 -0.2357775 0.9382398 0.2357775 0.9382398 0.2357775 0.0617602 -0.2357775
210148 0.0587361 -0.2301638 0.9412639 0.2301638 0.9412639 0.2301638 0.0587361 -0.2301638
216008 0.0558539 -0.2246474 0.9441461 0.2246474 0.9441461 0.2246474 0.0558539 -0.2246474
222032 0.0531078 -0.2192294 0.9468922 0.2192294 0.9468922 0.2192294 0.0531078 -0.2192294
228224 0.0504922 -0.2139109 0.9495078 0.2139109 0.9495078 0.2139109 0.0504922 -0.2139109
234589 0.0480014 -0.2086922 0.9519986 0.2086922 0.9519986 0.2086922 0.0480014 -0.2086922
241130 0.0456303 -0.2035740 0.9543697 0.2035740 0.9543697 0.2035740 0.0456303 -0.2035740
247855 0.0433734 -0.1985563 0.9566266 0.1985563 0.9566266 0.1985563 0.0433734 -0.1985563
254767 0.0412259 -0.1936392 0.9587741 0.1936392 0.9587741 0.1936392 0.0412259 -0.1936392
261871 0.0391829 -0.1888224 0.9608171 0.1888224 0.9608171 0.1888224 0.0391829 -0.1888224
269174 0.0372397 -0.1841057 0.9627603 0.1841057 0.9627603 0.1841057 0.0372397 -0.1841057
276681 0.0353916 -0.1794884 0.9646084 0.1794884 0.9646084 0.1794884 0.0353916 -0.1794884
284397 0.0336345 -0.1749700 0.9663655 0.1749700 0.9663655 0.1749700 0.0336345 -0.1749700
292328 0.0319640 -0.1705497 0.9680360 0.1705497 0.9680360 0.1705497 0.0319640 -0.1705497
300480 0.0303761 -0.1662265 0.9696239 0.1662265 0.9696239 0.1662265 0.0303761 -0.1662265
308859 0.0288670 -0.1619996 0.9711330 0.1619996 0.9711330 0.1619996 0.0288670 -0.1619996
317472 0.0274328 -0.1578678 0.9725672 0.1578678 0.9725672 0.1578678 0.0274328 -0.1578678
326326 0.0260701 -0.1538299 0.9739299 0.1538299 0.9739299 0.1538299 0.0260701 -0.1538299
335426 0.0247754 -0.1498848 0.9752246 0.1498848 0.9752246 0.1498848 0.0247754 -0.1498848
344780 0.0235455 -0.1460311 0.9764545 0.1460311 0.9764545 0.1460311 0.0235455 -0.1460311
354395 0.0223771 -0.1422675 0.9776229 0.1422675 0.9776229 0.1422675 0.0223771 -0.1422675
364278 0.0212673 -0.1385926 0.9787327 0.1385926 0.9787327 0.1385926 0.0212673 -0.1385926
374436 0.0202133 -0.1350050 0.9797867 0.1350050 0.9797867 0.1350050 0.0202133 -0.1350050
384878 0.0192122 -0.1315031 0.9807878 0.1315031 0.9807878 0.1315031 0.0192122 -0.1315031
395611 0.0182615 -0.1280855 0.9817385 0.1280855 0.9817385 0.1280855 0.0182615 -0.1280855
406644 0.0173587 -0.1247507 0.9826413 0.1247507 0.9826413 0.1247507 0.0173587 -0.1247507
417984 0.0165013 -0.1214971 0.9834987 0.1214971 0.9834987 0.1214971 0.0165013 -0.1214971
429640 0.0156872 -0.1183233 0.9843128 0.1183233 0.9843128 0.1183233 0.0156872 -0.1183233
441622 0.0149142 -0.1152275 0.9850858 0.1152275 0.9850858 0.1152275 0.0149142 -0.1152275
453937 0.0141802 -0.1122083 0.9858198 0.1122083 0.9858198 0.1122083 0.0141802 -0.1122083
466596 0.0134833 -0.1092641 0.9865167 0.1092641 0.9865167 0.1092641 0.0134833 -0.1092641
479608 0.0128215 -0.1063933 0.9871785 0.1063933 0.9871785 0.1063933 0.0128215 -0.1063933
492983 0.0121932 -0.1035945 0.9878068 0.1035945 0.9878068 0.1035945 0.0121932 -0.1035945
506731 0.0115967 -0.1008660 0.9884033 0.1008660 0.9884033 0.1008660 0.0115967 -0.1008660
520862 0.0110303 -0.0982064 0.9889697 0.0982064 0.9889697 0.0982064 0.0110303 -0.0982064
535387 0.0104925 -0.0956141 0.9895075 0.0956141 0.9895075 0.0956141 0.0104925 -0.0956141
550318 0.0099819 -0.0930876 0.9900181 0.0930876 0.9900181 0.0930876 0.0099819 -0.0930876
565664 0.0094971 -0.0906254 0.9905029 0.0906254 0.9905029 0.0906254 0.0094971 -0.0906254
581439 0.0090368 -0.0882261 0.9909632 0.0882261 0.9909632 0.0882261 0.0090368 -0.0882261
597654 0.0085998 -0.0858882 0.9914002 0.0858882 0.9914002 0.0858882 0.0085998 -0.0858882
614320 0.0081849 -0.0836103 0.9918151 0.0836103 0.9918151 0.0836103 0.0081849 -0.0836103
631452 0.0077909 -0.0813911 0.9922091 0.0813911 0.9922091 0.0813911 0.0077909 -0.0813911
649061 0.0074169 -0.0792290 0.9925831 0.0792290 0.9925831 0.0792290 0.0074169 -0.0792290
667162 0.0070618 -0.0771228 0.9929382 0.0771228 0.9929382 0.0771228 0.0070618 -0.0771228
685767 0.0067246 -0.0750710 0.9932754 0.0750710 0.9932754 0.0750710 0.0067246 -0.0750710
704891 0.0064044 -0.0730725 0.9935956 0.0730725 0.9935956 0.0730725 0.0064044 -0.0730725
724548 0.0061004 -0.0711260 0.9938996 0.0711260 0.9938996 0.0711260 0.0061004 -0.0711260
744754 0.0058118 -0.0692300 0.9941882 0.0692300 0.9941882 0.0692300 0.0058118 -0.0692300
765523 0.0055377 -0.0673835 0.9944623 0.0673835 0.9944623 0.0673835 0.0055377 -0.0673835
786871 0.0052775 -0.0655852 0.9947225 0.0655852 0.9947225 0.0655852 0.0052775 -0.0655852
808814 0.0050304 -0.0638339 0.9949696 0.0638339 0.9949696 0.0638339 0.0050304 -0.0638339
831370 0.0047957 -0.0621285 0.9952043 0.0621285 0.9952043 0.0621285 0.0047957 -0.0621285
854554 0.0045729 -0.0604677 0.9954271 0.0604677 0.9954271 0.0604677 0.0045729 -0.0604677
878385 0.0043614 -0.0588506 0.9956386 0.0588506 0.9956386 0.0588506 0.0043614 -0.0588506
902880 0.0041604 -0.0572759 0.9958396 0.0572759 0.9958396 0.0572759 0.0041604 -0.0572759
928059 0.0039696 -0.0557427 0.9960304 0.0557427 0.9960304 0.0557427 0.0039696 -0.0557427
953940 0.0037884 -0.0542498 0.9962116 0.0542498 0.9962116 0.0542498 0.0037884 -0.0542498
980542 0.0036163 -0.0527963 0.9963837 0.0527963 0.9963837 0.0527963 0.0036163 -0.0527963
1007887 0.0034528 -0.0513812 0.9965472 0.0513812 0.9965472 0.0513812 0.0034528 -0.0513812
1035994 0.0032976 -0.0500034 0.9967024 0.0500034 0.9967024 0.0500034 0.0032976 -0.0500034
1064885 0.0031501 -0.0486620 0.9968499 0.0486620 0.9968499 0.0486620 0.0031501 -0.0486620
1094581 0.0030100 -0.0473562 0.9969900 0.0473562 0.9969900 0.0473562 0.0030100 -0.0473562
1125106 0.0028769 -0.0460849 0.9971231 0.0460849 0.9971231 0.0460849 0.0028769 -0.0460849
1156481 0.0027504 -0.0448472 0.9972496 0.0448472 0.9972496 0.0448472 0.0027504 -0.0448472
1188732 0.0026302 -0.0436424 0.9973698 0.0436424 0.9973698 0.0436424 0.0026302 -0.0436424
1221882 0.0025161 -0.0424695 0.9974839 0.0424695 0.9974839 0.0424695 0.0025161 -0.0424695
1255957 0.0024075 -0.0413278 0.9975925 0.0413278 0.9975925 0.0413278 0.0024075 -0.0413278
1290982 0.0023044 -0.0402163 0.9976956 0.0402163 0.9976956 0.0402163 0.0023044 -0.0402163
1326984 0.0022064 -0.0391344 0.9977936 0.0391344 0.9977936 0.0391344 0.0022064 -0.0391344
1363989 0.0021132 -0.0380812 0.9978868 0.0380812 0.9978868 0.0380812 0.0021132 -0.0380812
1402027 0.0020246 -0.0370560 0.9979754 0.0370560 0.9979754 0.0370560 0.0020246 -0.0370560
1441125 0.0019404 -0.0360581 0.9980596 0.0360581 0.9980596 0.0360581 0.0019404 -0.0360581
1481314 0.0018603 -0.0350867 0.9981397 0.0350867 0.9981397 0.0350867 0.0018603 -0.0350867
1522623 0.0017841 -0.0341411 0.9982159 0.0341411 0.9982159 0.0341411 0.0017841 -0.0341411
1565085 0.0017116 -0.0332207 0.9982884 0.0332207 0.9982884 0.0332207 0.0017116 -0.0332207
1608730 0.0016427 -0.0323247 0.9983573 0.0323247 0.9983573 0.0323247 0.0016427 -0.0323247
1653593 0.0015771 -0.0314526 0.9984229 0.0314526 0.9984229 0.0314526 0.0015771 -0.0314526
1699707 0.0015147 -0.0306037 0.9984853 0.0306037 0.9984853 0.0306037 0.0015147 -0.0306037
1747106 0.0014554 -0.0297773 0.9985446 0.0297773 0.9985446 0.0297773 0.0014554 -0.0297773
1795828 0.0013989 -0.0289730 0.9986011 0.0289730 0.9986011 0.0289730 0.0013989 -0.0289730
1845908 0.0013451 -0.0281900 0.9986549 0.0281900 0.9986549 0.0281900 0.0013451 -0.0281900
1897385 0.0012939 -0.0274278 0.9987061 0.0274278 0.9987061 0.0274278 0.0012939 -0.0274278
1950297 0.0012452 -0.0266859 0.9987548 0.0266859 0.9987548 0.0266859 0.0012452 -0.0266859
2004685 0.0011988 -0.0259637 0.9988012 0.0259637 0.9988012 0.0259637 0.0011988 -0.0259637
2060590 0.0011546 -0.0252607 0.9988454 0.0252607 0.9988454 0.0252607 0.0011546 -0.0252607
2118054 0.0011125 -0.0245764 0.9988875 0.0245764 0.9988875 0.0245764 0.0011125 -0.0245764
2177120 0.0010725 -0.0239103 0.9989275 0.0239103 0.9989275 0.0239103 0.0010725 -0.0239103
2237833 0.0010343 -0.0232618 0.9989657 0.0232618 0.9989657 0.0232618 0.0010343 -0.0232618
2300240 0.0009980 -0.0226305 0.9990020 0.0226305 0.9990020 0.0226305 0.0009980 -0.0226305
2364387 0.0009634 -0.0220160 0.9990366 0.0220160 0.9990366 0.0220160 0.0009634 -0.0220160
2430322 0.0009304 -0.0214178 0.9990696 0.0214178 0.9990696 0.0214178 0.0009304 -0.0214178
2498097 0.0008990 -0.0208355 0.9991010 0.0208355 0.9991010 0.0208355 0.0008990 -0.0208355
2567761 0.0008690 -0.0202686 0.9991310 0.0202686 0.9991310 0.0202686 0.0008690 -0.0202686
2639368 0.0008405 -0.0197167 0.9991595 0.0197167 0.9991595 0.0197167 0.0008405 -0.0197167
2712972 0.0008134 -0.0191794 0.9991866 0.0191794 0.9991866 0.0191794 0.0008134 -0.0191794
2788629 0.0007875 -0.0186563 0.9992125 0.0186563 0.9992125 0.0186563 0.0007875 -0.0186563
2866396 0.0007628 -0.0181470 0.9992372 0.0181470 0.9992372 0.0181470 0.0007628 -0.0181470
2946331 0.0007393 -0.0176512 0.9992607 0.0176512 0.9992607 0.0176512 0.0007393 -0.0176512
3028495 0.0007169 -0.0171685 0.9992831 0.0171685 0.9992831 0.0171685 0.0007169 -0.0171685
3112951 0.0006955 -0.0166986 0.9993045 0.0166986 0.9993045 0.0166986 0.0006955 -0.0166986
3199762 0.0006752 -0.0162410 0.9993248 0.0162410 0.9993248 0.0162410 0.0006752 -0.0162410
3288994 0.0006558 -0.0157955 0.9993442 0.0157955 0.9993442 0.0157955 0.0006558 -0.0157955
3380714 0.0006373 -0.0153617 0.9993627 0.0153617 0.9993627 0.0153617 0.0006373 -0.0153617
3474992 0.0006197 -0.0149394 0.9993803 0.0149394 0.9993803 0.0149394 0.0006197 -0.0149394
3571899 0.0006029 -0.0145281 0.9993971 0.0145281 0.9993971 0.0145281 0.0006029 -0.0145281
3671508 0.0005869 -0.0141276 0.9994131 0.0141276 0.9994131 0.0141276 0.0005869 -0.0141276
3773896 0.0005716 -0.0137377 0.9994284 0.0137377 0.9994284 0.0137377 0.0005716 -0.0137377
3879139 0.0005570 -0.0133579 0.9994430 0.0133579 0.9994430 0.0133579 0.0005570 -0.0133579
3987316 0.0005431 -0.0129881 0.9994569 0.0129881 0.9994569 0.0129881 0.0005431 -0.0129881
4098510 0.0005299 -0.0126280 0.9994701 0.0126280 0.9994701 0.0126280 0.0005299 -0.0126280
4212806 0.0005172 -0.0122772 0.9994828 0.0122772 0.9994828 0.0122772 0.0005172 -0.0122772
4330288 0.0005051 -0.0119356 0.9994949 0.0119356 0.9994949 0.0119356 0.0005051 -0.0119356
4451047 0.0004936 -0.0116029 0.9995064 0.0116029 0.9995064 0.0116029 0.0004936 -0.0116029
4575173 0.0004826 -0.0112788 0.9995174 0.0112788 0.9995174 0.0112788 0.0004826 -0.0112788
4702761 0.0004721 -0.0109632 0.9995279 0.0109632 0.9995279 0.0109632 0.0004721 -0.0109632
4833907 0.0004620 -0.0106556 0.9995380 0.0106556 0.9995380 0.0106556 0.0004620 -0.0106556
4968711 0.0004524 -0.0103561 0.9995476 0.0103561 0.9995476 0.0103561 0.0004524 -0.0103561
5107273 0.0004433 -0.0100642 0.9995567 0.0100642 0.9995567 0.0100642 0.0004433 -0.0100642
5249700 0.0004345 -0.0097798 0.9995655 0.0097798 0.9995655 0.0097798 0.0004345 -0.0097798
5396098 0.0004261 -0.0095027 0.9995739 0.0095027 0.9995739 0.0095027 0.0004261 -0.0095027
5546579 0.0004181 -0.0092327 0.9995819 0.0092327 0.9995819 0.0092327 0.0004181 -0.0092327
5701257 0.0004104 -0.0089696 0.9995896 0.0089696 0.9995896 0.0089696 0.0004104 -0.0089696
5860248 0.0004031 -0.0087131 0.9995969 0.0087131 0.9995969 0.0087131 0.0004031 -0.0087131
6023672 0.0003960 -0.0084632 0.9996040 0.0084632 0.9996040 0.0084632 0.0003960 -0.0084632
6191655 0.0003893 -0.0082195 0.9996107 0.0082195 0.9996107 0.0082195 0.0003893 -0.0082195
6364321 0.0003828 -0.0079820 0.9996172 0.0079820 0.9996172 0.0079820 0.0003828 -0.0079820
6541803 0.0003766 -0.0077504 0.9996234 0.0077504 0.9996234 0.0077504 0.0003766 -0.0077504
6724235 0.0003707 -0.0075245 0.9996293 0.0075245 0.9996293 0.0075245 0.0003707 -0.0075245
6911753 0.0003650 -0.0073043 0.9996350 0.0073043 0.9996350 0.0073043 0.0003650 -0.0073043
7104501 0.0003595 -0.0070895 0.9996405 0.0070895 0.9996405 0.0070895 0.0003595 -0.0070895
7302625 0.0003542 -0.0068799 0.9996458 0.0068799 0.9996458 0.0068799 0.0003542 -0.0068799
7506273 0.0003492 -0.0066755 0.9996508 0.0066755 0.9996508 0.0066755 0.0003492 -0.0066755
7715601 0.0003443 -0.0064760 0.9996557 0.0064760 0.9996557 0.0064760 0.0003443 -0.0064760
7930766 0.0003397 -0.0062813 0.9996603 0.0062813 0.9996603 0.0062813 0.0003397 -0.0062813
8151931 0.0003352 -0.0060913 0.9996648 0.0060913 0.9996648 0.0060913 0.0003352 -0.0060913
8379264 0.0003309 -0.0059058 0.9996691 0.0059058 0.9996691 0.0059058 0.0003309 -0.0059058
8612937 0.0003267 -0.0057247 0.9996733 0.0057247 0.9996733 0.0057247 0.0003267 -0.0057247
8853126 0.0003228 -0.0055478 0.9996772 0.0055478 0.9996772 0.0055478 0.0003228 -0.0055478
9100013 0.0003189 -0.0053750 0.9996811 0.0053750 0.9996811 0.0053750 0.0003189 -0.0053750
9353785 0.0003153 -0.0052062 0.9996847 0.0052062 0.9996847 0.0052062 0.0003153 -0.0052062
9614634 0.0003118 -0.0050413 0.9996882 0.0050413 0.9996882 0.0050413 0.0003118 -0.0050413
9882758 0.0003084 -0.0048801 0.9996916 0.0048801 0.9996916 0.0048801 0.0003084 -0.0048801
10158358 0.0003051 -0.0047224 0.9996949 0.0047224 0.9996949 0.0047224 0.0003051 -0.0047224
10441645 0.0003020 -0.0045683 0.9996980 0.0045683 0.9996980 0.0045683 0.0003020 -0.0045683
10732831 0.0002991 -0.0044175 0.9997009 0.0044175 0.9997009 0.0044175 0.0002991 -0.0044175
11032137 0.0002962 -0.0042700 0.9997038 0.0042700 0.9997038 0.0042700 0.0002962 -0.0042700
11339791 0.0002935 -0.0041257 0.9997065 0.0041257 0.9997065 0.0041257 0.0002935 -0.0041257
11656024 0.0002909 -0.0039843 0.9997091 0.0039843 0.9997091 0.0039843 0.0002909 -0.0039843
11981075 0.0002884 -0.0038459 0.9997116 0.0038459 0.9997116 0.0038459 0.0002884 -0.0038459
12315192 0.0002860 -0.0037104 0.9997140 0.0037104 0.9997140 0.0037104 0.0002860 -0.0037104
12658625 0.0002838 -0.0035775 0.9997162 0.0035775 0.9997162 0.0035775 0.0002838 -0.0035775
13011637 0.0002817 -0.0034473 0.9997183 0.0034473 0.9997183 0.0034473 0.0002817 -0.0034473
13374492 0.0002796 -0.0033196 0.9997204 0.0033196 0.9997204 0.0033196 0.0002796 -0.0033196
13747467 0.0002777 -0.0031944 0.9997223 0.0031944 0.9997223 0.0031944 0.0002777 -0.0031944
14130843 0.0002760 -0.0030714 0.9997240 0.0030714 0.9997240 0.0030714 0.0002760 -0.0030714
14524910 0.0002743 -0.0029508 0.9997257 0.0029508 0.9997257 0.0029508 0.0002743 -0.0029508
14929966 0.0002727 -0.0028322 0.9997273 0.0028322 0.9997273 0.0028322 0.0002727 -0.0028322
15346318 0.0002713 -0.0027158 0.9997287 0.0027158 0.9997287 0.0027158 0.0002713 -0.0027158
15774281 0.0002700 -0.0026013 0.9997300 0.0026013 0.9997300 0.0026013 0.0002700 -0.0026013
16214179 0.0002688 -0.0024887 0.9997312 0.0024887 0.9997312 0.0024887 0.0002688 -0.0024887
16666344 0.0002677 -0.0023780 0.9997323 0.0023780 0.9997323 0.0023780 0.0002677 -0.0023780
17131118 0.0002667 -0.0022689 0.9997333 0.0022689 0.9997333 0.0022689 0.0002667 -0.0022689
17608854 0.0002658 -0.0021615 0.9997342 0.0021615 0.9997342 0.0021615 0.0002658 -0.0021615
18099912 0.0002651 -0.0020557 0.9997349 0.0020557 0.9997349 0.0020557 0.0002651 -0.0020557
18604665 0.0002644 -0.0019513 0.9997356 0.0019513 0.9997356 0.0019513 0.0002644 -0.0019513
19123493 0.0002639 -0.0018484 0.9997361 0.0018484 0.9997361 0.0018484 0.0002639 -0.0018484
19656790 0.0002636 -0.0017467 0.9997364 0.0017467 0.9997364 0.0017467 0.0002636 -0.0017467
20204959 0.0002633 -0.0016464 0.9997367 0.0016464 0.9997367 0.0016464 0.0002633 -0.0016464
20768415 0.0002632 -0.0015471 0.9997368 0.0015471 0.9997368 0.0015471 0.0002632 -0.0015471
21347584 0.0002632 -0.0014490 0.9997368 0.0014490 0.9997368 0.0014490 0.0002632 -0.0014490
21942904 0.0002634 -0.0013519 0.9997366 0.0013519 0.9997366 0.0013519 0.0002634 -0.0013519
22554827 0.0002636 -0.0012557 0.9997364 0.0012557 0.9997364 0.0012557 0.0002636 -0.0012557
23183813 0.0002641 -0.0011604 0.9997359 0.0011604 0.9997359 0.0011604 0.0002641 -0.0011604
23830340 0.0002647 -0.0010658 0.9997353 0.0010658 0.9997353 0.0010658 0.0002647 -0.0010658
24494897 0.0002654 -0.0009720 0.9997346 0.0009720 0.9997346 0.0009720 0.0002654 -0.0009720
25177987 0.0002663 -0.0008788 0.9997337 0.0008788 0.9997337 0.0008788 0.0002663 -0.0008788
25880126 0.0002674 -0.0007862 0.9997326 0.0007862 0.9997326 0.0007862 0.0002674 -0.0007862
26601845 0.0002687 -0.0006940 0.9997313 0.0006940 0.9997313 0.0006940 0.0002687 -0.0006940
27343691 0.0002702 -0.0006022 0.9997298 0.0006022 0.9997298 0.0006022 0.0002702 -0.0006022
28106225 0.0002718 -0.0005108 0.9997282 0.0005108 0.9997282 0.0005108 0.0002718 -0.0005108
28890023 0.0002737 -0.0004195 0.9997263 0.0004195 0.9997263 0.0004195 0.0002737 -0.0004195
29695680 0.0002758 -0.0003285 0.9997242 0.0003285 0.9997242 0.0003285 0.0002758 -0.0003285
30523804 0.0002782 -0.0002375 0.9997218 0.0002375 0.9997218 0.0002375 0.0002782 -0.0002375
31375021 0.0002808 -0.0001465 0.9997192 0.0001465 0.9997192 0.0001465 0.0002808 -0.0001465
32249977 0.0002837 -0.0000554 0.9997163 0.0000554 0.9997163 0.0000554 0.0002837 -0.0000554
33149332 0.0002870 0.0000358 0.9997130 -0.0000358 0.9997130 -0.0000358 0.0002870 0.0000358
34073768 0.0002905 0.0001274 0.9997095 -0.0001274 0.9997095 -0.0001274 0.0002905 0.0001274
35023984 0.0002945 0.0002193 0.9997055 -0.0002193 0.9997055 -0.0002193 0.0002945 0.0002193
36000698 0.0002988 0.0003116 0.9997012 -0.0003116 0.9997012 -0.0003116 0.0002988 0.0003116
37004650 0.0003036 0.0004046 0.9996964 -0.0004046 0.9996964 -0.0004046 0.0003036 0.0004046
38036599 0.0003089 0.0004982 0.9996911 -0.0004982 0.9996911 -0.0004982 0.0003089 0.0004982
39097326 0.0003148 0.0005926 0.9996852 -0.0005926 0.9996852 -0.0005926 0.0003148 0.0005926
