!Murata Part Number: GRM31B5C2J272JWA1
!These Parameters are Measured in Series Mode Connection
!Data Generated on Mar 30, 2021
!       o--ll--o
!Port1            Port2
!       o------o
!Operation Temp=25[degC], DC Bias Voltage=0[V]
!Freq. Start=1000[kHz] Stop=1000[MHz] 401[Steps]
# Hz S RI R 50
!Freq.(Hz) S11(Real) S11(Imag) S21(Real) S21(Imag) S12(Real) S12(Imag) S22(Real) S22(Imag)
1000000 0.2652320 -0.4409633 0.7347680 0.4409633 0.7347680 0.4409633 0.2652320 -0.4409633
1017419 0.2585600 -0.4373554 0.7414400 0.4373554 0.7414400 0.4373554 0.2585600 -0.4373554
1035142 0.2519982 -0.4336777 0.7480018 0.4336777 0.7480018 0.4336777 0.2519982 -0.4336777
1053174 0.2455477 -0.4299342 0.7544523 0.4299342 0.7544523 0.4299342 0.2455477 -0.4299342
1071519 0.2392094 -0.4261286 0.7607906 0.4261286 0.7607906 0.4261286 0.2392094 -0.4261286
1090184 0.2329841 -0.4222649 0.7670159 0.4222649 0.7670159 0.4222649 0.2329841 -0.4222649
1109175 0.2268724 -0.4183469 0.7731276 0.4183469 0.7731276 0.4183469 0.2268724 -0.4183469
1128496 0.2208748 -0.4143784 0.7791252 0.4143784 0.7791252 0.4143784 0.2208748 -0.4143784
1148154 0.2149916 -0.4103632 0.7850084 0.4103632 0.7850084 0.4103632 0.2149916 -0.4103632
1168154 0.2092230 -0.4063050 0.7907770 0.4063050 0.7907770 0.4063050 0.2092230 -0.4063050
1188502 0.2035689 -0.4022073 0.7964311 0.4022073 0.7964311 0.4022073 0.2035689 -0.4022073
1209205 0.1980293 -0.3980739 0.8019707 0.3980739 0.8019707 0.3980739 0.1980293 -0.3980739
1230269 0.1926040 -0.3939081 0.8073960 0.3939081 0.8073960 0.3939081 0.1926040 -0.3939081
1251699 0.1872926 -0.3897135 0.8127074 0.3897135 0.8127074 0.3897135 0.1872926 -0.3897135
1273503 0.1820945 -0.3854935 0.8179055 0.3854935 0.8179055 0.3854935 0.1820945 -0.3854935
1295687 0.1770093 -0.3812512 0.8229907 0.3812512 0.8229907 0.3812512 0.1770093 -0.3812512
1318257 0.1720361 -0.3769900 0.8279639 0.3769900 0.8279639 0.3769900 0.1720361 -0.3769900
1341220 0.1671743 -0.3727129 0.8328257 0.3727129 0.8328257 0.3727129 0.1671743 -0.3727129
1364583 0.1624229 -0.3684231 0.8375771 0.3684231 0.8375771 0.3684231 0.1624229 -0.3684231
1388353 0.1577810 -0.3641233 0.8422190 0.3641233 0.8422190 0.3641233 0.1577810 -0.3641233
1412538 0.1532474 -0.3598166 0.8467526 0.3598166 0.8467526 0.3598166 0.1532474 -0.3598166
1437143 0.1488210 -0.3555057 0.8511790 0.3555057 0.8511790 0.3555057 0.1488210 -0.3555057
1462177 0.1445007 -0.3511931 0.8554993 0.3511931 0.8554993 0.3511931 0.1445007 -0.3511931
1487647 0.1402851 -0.3468816 0.8597149 0.3468816 0.8597149 0.3468816 0.1402851 -0.3468816
1513561 0.1361729 -0.3425736 0.8638271 0.3425736 0.8638271 0.3425736 0.1361729 -0.3425736
1539927 0.1321627 -0.3382715 0.8678373 0.3382715 0.8678373 0.3382715 0.1321627 -0.3382715
1566751 0.1282531 -0.3339776 0.8717469 0.3339776 0.8717469 0.3339776 0.1282531 -0.3339776
1594043 0.1244425 -0.3296941 0.8755575 0.3296941 0.8755575 0.3296941 0.1244425 -0.3296941
1621810 0.1207295 -0.3254230 0.8792705 0.3254230 0.8792705 0.3254230 0.1207295 -0.3254230
1650061 0.1171125 -0.3211665 0.8828875 0.3211665 0.8828875 0.3211665 0.1171125 -0.3211665
1678804 0.1135898 -0.3169264 0.8864102 0.3169264 0.8864102 0.3169264 0.1135898 -0.3169264
1708048 0.1101598 -0.3127046 0.8898402 0.3127046 0.8898402 0.3127046 0.1101598 -0.3127046
1737801 0.1068210 -0.3085029 0.8931790 0.3085029 0.8931790 0.3085029 0.1068210 -0.3085029
1768072 0.1035716 -0.3043227 0.8964284 0.3043227 0.8964284 0.3043227 0.1035716 -0.3043227
1798871 0.1004099 -0.3001659 0.8995901 0.3001659 0.8995901 0.3001659 0.1004099 -0.3001659
1830206 0.0973343 -0.2960338 0.9026657 0.2960338 0.9026657 0.2960338 0.0973343 -0.2960338
1862087 0.0943431 -0.2919278 0.9056569 0.2919278 0.9056569 0.2919278 0.0943431 -0.2919278
1894524 0.0914344 -0.2878493 0.9085656 0.2878493 0.9085656 0.2878493 0.0914344 -0.2878493
1927525 0.0886067 -0.2837995 0.9113933 0.2837995 0.9113933 0.2837995 0.0886067 -0.2837995
1961101 0.0858582 -0.2797795 0.9141418 0.2797795 0.9141418 0.2797795 0.0858582 -0.2797795
1995262 0.0831872 -0.2757906 0.9168128 0.2757906 0.9168128 0.2757906 0.0831872 -0.2757906
2030019 0.0805919 -0.2718336 0.9194081 0.2718336 0.9194081 0.2718336 0.0805919 -0.2718336
2065380 0.0780708 -0.2679096 0.9219292 0.2679096 0.9219292 0.2679096 0.0780708 -0.2679096
2101358 0.0756221 -0.2640193 0.9243779 0.2640193 0.9243779 0.2640193 0.0756221 -0.2640193
2137962 0.0732440 -0.2601638 0.9267560 0.2601638 0.9267560 0.2601638 0.0732440 -0.2601638
2175204 0.0709351 -0.2563436 0.9290649 0.2563436 0.9290649 0.2563436 0.0709351 -0.2563436
2213095 0.0686936 -0.2525595 0.9313064 0.2525595 0.9313064 0.2525595 0.0686936 -0.2525595
2251645 0.0665178 -0.2488121 0.9334822 0.2488121 0.9334822 0.2488121 0.0665178 -0.2488121
2290868 0.0644063 -0.2451020 0.9355937 0.2451020 0.9355937 0.2451020 0.0644063 -0.2451020
2330773 0.0623573 -0.2414297 0.9376427 0.2414297 0.9376427 0.2414297 0.0623573 -0.2414297
2371374 0.0603693 -0.2377956 0.9396307 0.2377956 0.9396307 0.2377956 0.0603693 -0.2377956
2412682 0.0584408 -0.2342003 0.9415592 0.2342003 0.9415592 0.2342003 0.0584408 -0.2342003
2454709 0.0565702 -0.2306440 0.9434298 0.2306440 0.9434298 0.2306440 0.0565702 -0.2306440
2497468 0.0547560 -0.2271271 0.9452440 0.2271271 0.9452440 0.2271271 0.0547560 -0.2271271
2540973 0.0529968 -0.2236498 0.9470032 0.2236498 0.9470032 0.2236498 0.0529968 -0.2236498
2585235 0.0512911 -0.2202124 0.9487089 0.2202124 0.9487089 0.2202124 0.0512911 -0.2202124
2630268 0.0496374 -0.2168150 0.9503626 0.2168150 0.9503626 0.2168150 0.0496374 -0.2168150
2676086 0.0480343 -0.2134579 0.9519657 0.2134579 0.9519657 0.2134579 0.0480343 -0.2134579
2722701 0.0464806 -0.2101411 0.9535194 0.2101411 0.9535194 0.2101411 0.0464806 -0.2101411
2770129 0.0449747 -0.2068647 0.9550253 0.2068647 0.9550253 0.2068647 0.0449747 -0.2068647
2818383 0.0435155 -0.2036288 0.9564845 0.2036288 0.9564845 0.2036288 0.0435155 -0.2036288
2867477 0.0421015 -0.2004334 0.9578985 0.2004334 0.9578985 0.2004334 0.0421015 -0.2004334
2917427 0.0407316 -0.1972784 0.9592684 0.1972784 0.9592684 0.1972784 0.0407316 -0.1972784
2968247 0.0394044 -0.1941639 0.9605956 0.1941639 0.9605956 0.1941639 0.0394044 -0.1941639
3019952 0.0381189 -0.1910896 0.9618811 0.1910896 0.9618811 0.1910896 0.0381189 -0.1910896
3072557 0.0368736 -0.1880557 0.9631264 0.1880557 0.9631264 0.1880557 0.0368736 -0.1880557
3126079 0.0356676 -0.1850618 0.9643324 0.1850618 0.9643324 0.1850618 0.0356676 -0.1850618
3180534 0.0344997 -0.1821079 0.9655003 0.1821079 0.9655003 0.1821079 0.0344997 -0.1821079
3235937 0.0333687 -0.1791939 0.9666313 0.1791939 0.9666313 0.1791939 0.0333687 -0.1791939
3292305 0.0322736 -0.1763195 0.9677264 0.1763195 0.9677264 0.1763195 0.0322736 -0.1763195
3349654 0.0312133 -0.1734845 0.9687867 0.1734845 0.9687867 0.1734845 0.0312133 -0.1734845
3408003 0.0301868 -0.1706887 0.9698132 0.1706887 0.9698132 0.1706887 0.0301868 -0.1706887
3467369 0.0291931 -0.1679318 0.9708069 0.1679318 0.9708069 0.1679318 0.0291931 -0.1679318
3527768 0.0282311 -0.1652137 0.9717689 0.1652137 0.9717689 0.1652137 0.0282311 -0.1652137
3589219 0.0273001 -0.1625340 0.9726999 0.1625340 0.9726999 0.1625340 0.0273001 -0.1625340
3651741 0.0263989 -0.1598925 0.9736011 0.1598925 0.9736011 0.1598925 0.0263989 -0.1598925
3715352 0.0255268 -0.1572888 0.9744732 0.1572888 0.9744732 0.1572888 0.0255268 -0.1572888
3780071 0.0246827 -0.1547227 0.9753173 0.1547227 0.9753173 0.1547227 0.0246827 -0.1547227
3845918 0.0238660 -0.1521938 0.9761340 0.1521938 0.9761340 0.1521938 0.0238660 -0.1521938
3912911 0.0230757 -0.1497019 0.9769243 0.1497019 0.9769243 0.1497019 0.0230757 -0.1497019
3981072 0.0223110 -0.1472465 0.9776890 0.1472465 0.9776890 0.1472465 0.0223110 -0.1472465
4050419 0.0215711 -0.1448274 0.9784289 0.1448274 0.9784289 0.1448274 0.0215711 -0.1448274
4120975 0.0208553 -0.1424442 0.9791447 0.1424442 0.9791447 0.1424442 0.0208553 -0.1424442
4192760 0.0201627 -0.1400965 0.9798373 0.1400965 0.9798373 0.1400965 0.0201627 -0.1400965
4265795 0.0194928 -0.1377839 0.9805072 0.1377839 0.9805072 0.1377839 0.0194928 -0.1377839
4340103 0.0188448 -0.1355062 0.9811552 0.1355062 0.9811552 0.1355062 0.0188448 -0.1355062
4415704 0.0182179 -0.1332629 0.9817821 0.1332629 0.9817821 0.1332629 0.0182179 -0.1332629
4492623 0.0176116 -0.1310536 0.9823884 0.1310536 0.9823884 0.1310536 0.0176116 -0.1310536
4570882 0.0170251 -0.1288780 0.9829749 0.1288780 0.9829749 0.1288780 0.0170251 -0.1288780
4650504 0.0164579 -0.1267357 0.9835421 0.1267357 0.9835421 0.1267357 0.0164579 -0.1267357
4731513 0.0159094 -0.1246263 0.9840906 0.1246263 0.9840906 0.1246263 0.0159094 -0.1246263
4813933 0.0153788 -0.1225494 0.9846212 0.1225494 0.9846212 0.1225494 0.0153788 -0.1225494
4897788 0.0148658 -0.1205046 0.9851342 0.1205046 0.9851342 0.1205046 0.0148658 -0.1205046
4983105 0.0143697 -0.1184915 0.9856303 0.1184915 0.9856303 0.1184915 0.0143697 -0.1184915
5069907 0.0138899 -0.1165098 0.9861101 0.1165098 0.9861101 0.1165098 0.0138899 -0.1165098
5158222 0.0134261 -0.1145590 0.9865739 0.1145590 0.9865739 0.1145590 0.0134261 -0.1145590
5248075 0.0129775 -0.1126387 0.9870225 0.1126387 0.9870225 0.1126387 0.0129775 -0.1126387
5339493 0.0125438 -0.1107486 0.9874562 0.1107486 0.9874562 0.1107486 0.0125438 -0.1107486
5432503 0.0121245 -0.1088882 0.9878755 0.1088882 0.9878755 0.1088882 0.0121245 -0.1088882
5527134 0.0117190 -0.1070572 0.9882810 0.1070572 0.9882810 0.1070572 0.0117190 -0.1070572
5623413 0.0113271 -0.1052552 0.9886729 0.1052552 0.9886729 0.1052552 0.0113271 -0.1052552
5721370 0.0109481 -0.1034817 0.9890519 0.1034817 0.9890519 0.1034817 0.0109481 -0.1034817
5821032 0.0105818 -0.1017364 0.9894182 0.1017364 0.9894182 0.1017364 0.0105818 -0.1017364
5922431 0.0102276 -0.1000189 0.9897724 0.1000189 0.9897724 0.1000189 0.0102276 -0.1000189
6025596 0.0098853 -0.0983289 0.9901147 0.0983289 0.9901147 0.0983289 0.0098853 -0.0983289
6130558 0.0095543 -0.0966658 0.9904457 0.0966658 0.9904457 0.0966658 0.0095543 -0.0966658
6237348 0.0092344 -0.0950294 0.9907656 0.0950294 0.9907656 0.0950294 0.0092344 -0.0950294
6345999 0.0089252 -0.0934193 0.9910748 0.0934193 0.9910748 0.0934193 0.0089252 -0.0934193
6456542 0.0086263 -0.0918350 0.9913737 0.0918350 0.9913737 0.0918350 0.0086263 -0.0918350
6569011 0.0083374 -0.0902763 0.9916626 0.0902763 0.9916626 0.0902763 0.0083374 -0.0902763
6683439 0.0080581 -0.0887427 0.9919419 0.0887427 0.9919419 0.0887427 0.0080581 -0.0887427
6799860 0.0077882 -0.0872339 0.9922118 0.0872339 0.9922118 0.0872339 0.0077882 -0.0872339
6918310 0.0075274 -0.0857495 0.9924726 0.0857495 0.9924726 0.0857495 0.0075274 -0.0857495
7038822 0.0072752 -0.0842892 0.9927248 0.0842892 0.9927248 0.0842892 0.0072752 -0.0842892
7161434 0.0070316 -0.0828525 0.9929684 0.0828525 0.9929684 0.0828525 0.0070316 -0.0828525
7286182 0.0067961 -0.0814392 0.9932039 0.0814392 0.9932039 0.0814392 0.0067961 -0.0814392
7413102 0.0065685 -0.0800488 0.9934315 0.0800488 0.9934315 0.0800488 0.0065685 -0.0800488
7542234 0.0063485 -0.0786811 0.9936515 0.0786811 0.9936515 0.0786811 0.0063485 -0.0786811
7673615 0.0061360 -0.0773357 0.9938640 0.0773357 0.9938640 0.0773357 0.0061360 -0.0773357
7807284 0.0059306 -0.0760122 0.9940694 0.0760122 0.9940694 0.0760122 0.0059306 -0.0760122
7943282 0.0057321 -0.0747103 0.9942679 0.0747103 0.9942679 0.0747103 0.0057321 -0.0747103
8081649 0.0055403 -0.0734297 0.9944597 0.0734297 0.9944597 0.0734297 0.0055403 -0.0734297
8222426 0.0053550 -0.0721700 0.9946450 0.0721700 0.9946450 0.0721700 0.0053550 -0.0721700
8365656 0.0051759 -0.0709309 0.9948241 0.0709309 0.9948241 0.0709309 0.0051759 -0.0709309
8511380 0.0050028 -0.0697121 0.9949972 0.0697121 0.9949972 0.0697121 0.0050028 -0.0697121
8659643 0.0048356 -0.0685133 0.9951644 0.0685133 0.9951644 0.0685133 0.0048356 -0.0685133
8810489 0.0046740 -0.0673341 0.9953260 0.0673341 0.9953260 0.0673341 0.0046740 -0.0673341
8963962 0.0045179 -0.0661743 0.9954821 0.0661743 0.9954821 0.0661743 0.0045179 -0.0661743
9120108 0.0043671 -0.0650335 0.9956329 0.0650335 0.9956329 0.0650335 0.0043671 -0.0650335
9278975 0.0042214 -0.0639115 0.9957786 0.0639115 0.9957786 0.0639115 0.0042214 -0.0639115
9440609 0.0040806 -0.0628078 0.9959194 0.0628078 0.9959194 0.0628078 0.0040806 -0.0628078
9605058 0.0039446 -0.0617223 0.9960554 0.0617223 0.9960554 0.0617223 0.0039446 -0.0617223
9772372 0.0038132 -0.0606547 0.9961868 0.0606547 0.9961868 0.0606547 0.0038132 -0.0606547
9942601 0.0036862 -0.0596045 0.9963138 0.0596045 0.9963138 0.0596045 0.0036862 -0.0596045
10115795 0.0035636 -0.0585717 0.9964364 0.0585717 0.9964364 0.0585717 0.0035636 -0.0585717
10292005 0.0034451 -0.0575558 0.9965549 0.0575558 0.9965549 0.0575558 0.0034451 -0.0575558
10471285 0.0033307 -0.0565566 0.9966693 0.0565566 0.9966693 0.0565566 0.0033307 -0.0565566
10653689 0.0032201 -0.0555739 0.9967799 0.0555739 0.9967799 0.0555739 0.0032201 -0.0555739
10839269 0.0031133 -0.0546073 0.9968867 0.0546073 0.9968867 0.0546073 0.0031133 -0.0546073
11028082 0.0030102 -0.0536566 0.9969898 0.0536566 0.9969898 0.0536566 0.0030102 -0.0536566
11220185 0.0029105 -0.0527215 0.9970895 0.0527215 0.9970895 0.0527215 0.0029105 -0.0527215
11415633 0.0028143 -0.0518019 0.9971857 0.0518019 0.9971857 0.0518019 0.0028143 -0.0518019
11614486 0.0027213 -0.0508973 0.9972787 0.0508973 0.9972787 0.0508973 0.0027213 -0.0508973
11816803 0.0026316 -0.0500076 0.9973684 0.0500076 0.9973684 0.0500076 0.0026316 -0.0500076
12022644 0.0025449 -0.0491325 0.9974551 0.0491325 0.9974551 0.0491325 0.0025449 -0.0491325
12232071 0.0024611 -0.0482717 0.9975389 0.0482717 0.9975389 0.0482717 0.0024611 -0.0482717
12445146 0.0023803 -0.0474251 0.9976197 0.0474251 0.9976197 0.0474251 0.0023803 -0.0474251
12661933 0.0023022 -0.0465924 0.9976978 0.0465924 0.9976978 0.0465924 0.0023022 -0.0465924
12882496 0.0022268 -0.0457734 0.9977732 0.0457734 0.9977732 0.0457734 0.0022268 -0.0457734
13106900 0.0021540 -0.0449677 0.9978460 0.0449677 0.9978460 0.0449677 0.0021540 -0.0449677
13335214 0.0020837 -0.0441753 0.9979163 0.0441753 0.9979163 0.0441753 0.0020837 -0.0441753
13567505 0.0020158 -0.0433959 0.9979842 0.0433959 0.9979842 0.0433959 0.0020158 -0.0433959
13803843 0.0019502 -0.0426292 0.9980498 0.0426292 0.9980498 0.0426292 0.0019502 -0.0426292
14044297 0.0018870 -0.0418750 0.9981130 0.0418750 0.9981130 0.0418750 0.0018870 -0.0418750
14288940 0.0018259 -0.0411331 0.9981741 0.0411331 0.9981741 0.0411331 0.0018259 -0.0411331
14537844 0.0017669 -0.0404034 0.9982331 0.0404034 0.9982331 0.0404034 0.0017669 -0.0404034
14791084 0.0017100 -0.0396856 0.9982900 0.0396856 0.9982900 0.0396856 0.0017100 -0.0396856
15048735 0.0016550 -0.0389794 0.9983450 0.0389794 0.9983450 0.0389794 0.0016550 -0.0389794
15310875 0.0016020 -0.0382848 0.9983980 0.0382848 0.9983980 0.0382848 0.0016020 -0.0382848
15577580 0.0015508 -0.0376014 0.9984492 0.0376014 0.9984492 0.0376014 0.0015508 -0.0376014
15848932 0.0015014 -0.0369292 0.9984986 0.0369292 0.9984986 0.0369292 0.0015014 -0.0369292
16125010 0.0014538 -0.0362678 0.9985462 0.0362678 0.9985462 0.0362678 0.0014538 -0.0362678
16405898 0.0014078 -0.0356172 0.9985922 0.0356172 0.9985922 0.0356172 0.0014078 -0.0356172
16691678 0.0013634 -0.0349771 0.9986366 0.0349771 0.9986366 0.0349771 0.0013634 -0.0349771
16982437 0.0013206 -0.0343474 0.9986794 0.0343474 0.9986794 0.0343474 0.0013206 -0.0343474
17278260 0.0012793 -0.0337278 0.9987207 0.0337278 0.9987207 0.0337278 0.0012793 -0.0337278
17579236 0.0012394 -0.0331182 0.9987606 0.0331182 0.9987606 0.0331182 0.0012394 -0.0331182
17885455 0.0012010 -0.0325184 0.9987990 0.0325184 0.9987990 0.0325184 0.0012010 -0.0325184
18197009 0.0011639 -0.0319282 0.9988361 0.0319282 0.9988361 0.0319282 0.0011639 -0.0319282
18513989 0.0011282 -0.0313475 0.9988718 0.0313475 0.9988718 0.0313475 0.0011282 -0.0313475
18836491 0.0010937 -0.0307761 0.9989063 0.0307761 0.9989063 0.0307761 0.0010937 -0.0307761
19164611 0.0010605 -0.0302139 0.9989395 0.0302139 0.9989395 0.0302139 0.0010605 -0.0302139
19498446 0.0010284 -0.0296606 0.9989716 0.0296606 0.9989716 0.0296606 0.0010284 -0.0296606
19838097 0.0009975 -0.0291161 0.9990025 0.0291161 0.9990025 0.0291161 0.0009975 -0.0291161
20183664 0.0009678 -0.0285802 0.9990322 0.0285802 0.9990322 0.0285802 0.0009678 -0.0285802
20535250 0.0009391 -0.0280529 0.9990609 0.0280529 0.9990609 0.0280529 0.0009391 -0.0280529
20892961 0.0009114 -0.0275339 0.9990886 0.0275339 0.9990886 0.0275339 0.0009114 -0.0275339
21256903 0.0008848 -0.0270231 0.9991152 0.0270231 0.9991152 0.0270231 0.0008848 -0.0270231
21627185 0.0008591 -0.0265203 0.9991409 0.0265203 0.9991409 0.0265203 0.0008591 -0.0265203
22003917 0.0008344 -0.0260254 0.9991656 0.0260254 0.9991656 0.0260254 0.0008344 -0.0260254
22387211 0.0008106 -0.0255383 0.9991894 0.0255383 0.9991894 0.0255383 0.0008106 -0.0255383
22777182 0.0007876 -0.0250588 0.9992124 0.0250588 0.9992124 0.0250588 0.0007876 -0.0250588
23173946 0.0007655 -0.0245868 0.9992345 0.0245868 0.9992345 0.0245868 0.0007655 -0.0245868
23577622 0.0007443 -0.0241220 0.9992557 0.0241220 0.9992557 0.0241220 0.0007443 -0.0241220
23988329 0.0007238 -0.0236645 0.9992762 0.0236645 0.9992762 0.0236645 0.0007238 -0.0236645
24406191 0.0007041 -0.0232141 0.9992959 0.0232141 0.9992959 0.0232141 0.0007041 -0.0232141
24831331 0.0006852 -0.0227705 0.9993148 0.0227705 0.9993148 0.0227705 0.0006852 -0.0227705
25263877 0.0006670 -0.0223338 0.9993330 0.0223338 0.9993330 0.0223338 0.0006670 -0.0223338
25703958 0.0006494 -0.0219037 0.9993506 0.0219037 0.9993506 0.0219037 0.0006494 -0.0219037
26151704 0.0006326 -0.0214802 0.9993674 0.0214802 0.9993674 0.0214802 0.0006326 -0.0214802
26607251 0.0006164 -0.0210631 0.9993836 0.0210631 0.9993836 0.0210631 0.0006164 -0.0210631
27070732 0.0006008 -0.0206523 0.9993992 0.0206523 0.9993992 0.0206523 0.0006008 -0.0206523
27542287 0.0005858 -0.0202477 0.9994142 0.0202477 0.9994142 0.0202477 0.0005858 -0.0202477
28022056 0.0005715 -0.0198491 0.9994285 0.0198491 0.9994285 0.0198491 0.0005715 -0.0198491
28510183 0.0005576 -0.0194565 0.9994424 0.0194565 0.9994424 0.0194565 0.0005576 -0.0194565
29006812 0.0005444 -0.0190697 0.9994556 0.0190697 0.9994556 0.0190697 0.0005444 -0.0190697
29512092 0.0005317 -0.0186886 0.9994683 0.0186886 0.9994683 0.0186886 0.0005317 -0.0186886
30026174 0.0005194 -0.0183131 0.9994806 0.0183131 0.9994806 0.0183131 0.0005194 -0.0183131
30549211 0.0005077 -0.0179431 0.9994923 0.0179431 0.9994923 0.0179431 0.0005077 -0.0179431
31081359 0.0004965 -0.0175784 0.9995035 0.0175784 0.9995035 0.0175784 0.0004965 -0.0175784
31622777 0.0004857 -0.0172191 0.9995143 0.0172191 0.9995143 0.0172191 0.0004857 -0.0172191
32173625 0.0004754 -0.0168649 0.9995246 0.0168649 0.9995246 0.0168649 0.0004754 -0.0168649
32734069 0.0004655 -0.0165157 0.9995345 0.0165157 0.9995345 0.0165157 0.0004655 -0.0165157
33304276 0.0004560 -0.0161715 0.9995440 0.0161715 0.9995440 0.0161715 0.0004560 -0.0161715
33884416 0.0004469 -0.0158322 0.9995531 0.0158322 0.9995531 0.0158322 0.0004469 -0.0158322
34474661 0.0004383 -0.0154976 0.9995617 0.0154976 0.9995617 0.0154976 0.0004383 -0.0154976
35075187 0.0004300 -0.0151677 0.9995700 0.0151677 0.9995700 0.0151677 0.0004300 -0.0151677
35686175 0.0004220 -0.0148423 0.9995780 0.0148423 0.9995780 0.0148423 0.0004220 -0.0148423
36307805 0.0004144 -0.0145214 0.9995856 0.0145214 0.9995856 0.0145214 0.0004144 -0.0145214
36940264 0.0004072 -0.0142048 0.9995928 0.0142048 0.9995928 0.0142048 0.0004072 -0.0142048
37583740 0.0004003 -0.0138925 0.9995997 0.0138925 0.9995997 0.0138925 0.0004003 -0.0138925
38238425 0.0003937 -0.0135844 0.9996063 0.0135844 0.9996063 0.0135844 0.0003937 -0.0135844
38904514 0.0003875 -0.0132803 0.9996125 0.0132803 0.9996125 0.0132803 0.0003875 -0.0132803
39582206 0.0003815 -0.0129803 0.9996185 0.0129803 0.9996185 0.0129803 0.0003815 -0.0129803
40271703 0.0003758 -0.0126841 0.9996242 0.0126841 0.9996242 0.0126841 0.0003758 -0.0126841
40973211 0.0003704 -0.0123917 0.9996296 0.0123917 0.9996296 0.0123917 0.0003704 -0.0123917
