!Murata Part Number: GRM31A7U3D220JW31
!These Parameters are Measured in Series Mode Connection
!Data Generated on Mar 30, 2021
!       o--ll--o
!Port1            Port2
!       o------o
!Operation Temp=25[degC], DC Bias Voltage=0[V]
!Freq. Start=100[MHz] Stop=3[GHz] 401[Steps]
# Hz S RI R 50
!Freq.(Hz) S11(Real) S11(Imag) S21(Real) S21(Imag) S12(Real) S12(Imag) S22(Real) S22(Imag)
100000000 0.3406766 -0.4725273 0.6593234 0.4725273 0.6593234 0.4725273 0.3406766 -0.4725273
107250000 0.3096232 -0.4608244 0.6903768 0.4608244 0.6903768 0.4608244 0.3096232 -0.4608244
114500000 0.2820257 -0.4483670 0.7179743 0.4483670 0.7179743 0.4483670 0.2820257 -0.4483670
121750000 0.2574877 -0.4355262 0.7425123 0.4355262 0.7425123 0.4355262 0.2574877 -0.4355262
129000000 0.2356447 -0.4225711 0.7643553 0.4225711 0.7643553 0.4225711 0.2356447 -0.4225711
136250000 0.2161690 -0.4096944 0.7838310 0.4096944 0.7838310 0.4096944 0.2161690 -0.4096944
143500000 0.1987699 -0.3970310 0.8012301 0.3970310 0.8012301 0.3970310 0.1987699 -0.3970310
150750000 0.1831922 -0.3846728 0.8168078 0.3846728 0.8168078 0.3846728 0.1831922 -0.3846728
158000000 0.1692127 -0.3726802 0.8307873 0.3726802 0.8307873 0.3726802 0.1692127 -0.3726802
165250000 0.1566374 -0.3610900 0.8433626 0.3610900 0.8433626 0.3610900 0.1566374 -0.3610900
172500000 0.1452977 -0.3499224 0.8547023 0.3499224 0.8547023 0.3499224 0.1452977 -0.3499224
179750000 0.1350474 -0.3391853 0.8649526 0.3391853 0.8649526 0.3391853 0.1350474 -0.3391853
187000000 0.1257593 -0.3288777 0.8742407 0.3288777 0.8742407 0.3288777 0.1257593 -0.3288777
194250000 0.1173233 -0.3189927 0.8826767 0.3189927 0.8826767 0.3189927 0.1173233 -0.3189927
201500000 0.1096434 -0.3095192 0.8903566 0.3095192 0.8903566 0.3095192 0.1096434 -0.3095192
208750000 0.1026360 -0.3004433 0.8973640 0.3004433 0.8973640 0.3004433 0.1026360 -0.3004433
216000000 0.0962283 -0.2917494 0.9037717 0.2917494 0.9037717 0.2917494 0.0962283 -0.2917494
223250000 0.0903564 -0.2834210 0.9096436 0.2834210 0.9096436 0.2834210 0.0903564 -0.2834210
230500000 0.0849645 -0.2754412 0.9150355 0.2754412 0.9150355 0.2754412 0.0849645 -0.2754412
237750000 0.0800036 -0.2677929 0.9199964 0.2677929 0.9199964 0.2677929 0.0800036 -0.2677929
245000000 0.0754305 -0.2604596 0.9245695 0.2604596 0.9245695 0.2604596 0.0754305 -0.2604596
252250000 0.0712071 -0.2534250 0.9287929 0.2534250 0.9287929 0.2534250 0.0712071 -0.2534250
259500000 0.0672999 -0.2466735 0.9327001 0.2466735 0.9327001 0.2466735 0.0672999 -0.2466735
266750000 0.0636789 -0.2401900 0.9363211 0.2401900 0.9363211 0.2401900 0.0636789 -0.2401900
274000000 0.0603176 -0.2339602 0.9396824 0.2339602 0.9396824 0.2339602 0.0603176 -0.2339602
281250000 0.0571927 -0.2279707 0.9428073 0.2279707 0.9428073 0.2279707 0.0571927 -0.2279707
288500000 0.0542829 -0.2222085 0.9457171 0.2222085 0.9457171 0.2222085 0.0542829 -0.2222085
295750000 0.0515696 -0.2166615 0.9484304 0.2166615 0.9484304 0.2166615 0.0515696 -0.2166615
303000000 0.0490360 -0.2113183 0.9509640 0.2113183 0.9509640 0.2113183 0.0490360 -0.2113183
310250000 0.0466669 -0.2061682 0.9533331 0.2061682 0.9533331 0.2061682 0.0466669 -0.2061682
317500000 0.0444488 -0.2012009 0.9555512 0.2012009 0.9555512 0.2012009 0.0444488 -0.2012009
324750000 0.0423695 -0.1964069 0.9576305 0.1964069 0.9576305 0.1964069 0.0423695 -0.1964069
332000000 0.0404179 -0.1917773 0.9595821 0.1917773 0.9595821 0.1917773 0.0404179 -0.1917773
339250000 0.0385842 -0.1873037 0.9614158 0.1873037 0.9614158 0.1873037 0.0385842 -0.1873037
346500000 0.0368592 -0.1829781 0.9631408 0.1829781 0.9631408 0.1829781 0.0368592 -0.1829781
353750000 0.0352347 -0.1787931 0.9647653 0.1787931 0.9647653 0.1787931 0.0352347 -0.1787931
361000000 0.0337035 -0.1747418 0.9662965 0.1747418 0.9662965 0.1747418 0.0337035 -0.1747418
368250000 0.0322585 -0.1708174 0.9677415 0.1708174 0.9677415 0.1708174 0.0322585 -0.1708174
375500000 0.0308938 -0.1670140 0.9691062 0.1670140 0.9691062 0.1670140 0.0308938 -0.1670140
382750000 0.0296037 -0.1633255 0.9703963 0.1633255 0.9703963 0.1633255 0.0296037 -0.1633255
390000000 0.0283829 -0.1597467 0.9716171 0.1597467 0.9716171 0.1597467 0.0283829 -0.1597467
397250000 0.0272268 -0.1562723 0.9727732 0.1562723 0.9727732 0.1562723 0.0272268 -0.1562723
404500000 0.0261311 -0.1528974 0.9738689 0.1528974 0.9738689 0.1528974 0.0261311 -0.1528974
411750000 0.0250918 -0.1496176 0.9749082 0.1496176 0.9749082 0.1496176 0.0250918 -0.1496176
419000000 0.0241052 -0.1464284 0.9758948 0.1464284 0.9758948 0.1464284 0.0241052 -0.1464284
426250000 0.0231680 -0.1433259 0.9768320 0.1433259 0.9768320 0.1433259 0.0231680 -0.1433259
433500000 0.0222770 -0.1403062 0.9777230 0.1403062 0.9777230 0.1403062 0.0222770 -0.1403062
440750000 0.0214295 -0.1373656 0.9785705 0.1373656 0.9785705 0.1373656 0.0214295 -0.1373656
448000000 0.0206227 -0.1345007 0.9793773 0.1345007 0.9793773 0.1345007 0.0206227 -0.1345007
455250000 0.0198542 -0.1317083 0.9801458 0.1317083 0.9801458 0.1317083 0.0198542 -0.1317083
462500000 0.0191218 -0.1289853 0.9808782 0.1289853 0.9808782 0.1289853 0.0191218 -0.1289853
469750000 0.0184234 -0.1263289 0.9815766 0.1263289 0.9815766 0.1263289 0.0184234 -0.1263289
477000000 0.0177570 -0.1237362 0.9822430 0.1237362 0.9822430 0.1237362 0.0177570 -0.1237362
484250000 0.0171208 -0.1212046 0.9828792 0.1212046 0.9828792 0.1212046 0.0171208 -0.1212046
491500000 0.0165131 -0.1187318 0.9834869 0.1187318 0.9834869 0.1187318 0.0165131 -0.1187318
498750000 0.0159323 -0.1163153 0.9840677 0.1163153 0.9840677 0.1163153 0.0159323 -0.1163153
506000000 0.0153770 -0.1139529 0.9846230 0.1139529 0.9846230 0.1139529 0.0153770 -0.1139529
513250000 0.0148459 -0.1116425 0.9851541 0.1116425 0.9851541 0.1116425 0.0148459 -0.1116425
520500000 0.0143377 -0.1093821 0.9856623 0.1093821 0.9856623 0.1093821 0.0143377 -0.1093821
527750000 0.0138511 -0.1071698 0.9861489 0.1071698 0.9861489 0.1071698 0.0138511 -0.1071698
535000000 0.0133850 -0.1050038 0.9866150 0.1050038 0.9866150 0.1050038 0.0133850 -0.1050038
542250000 0.0129385 -0.1028823 0.9870615 0.1028823 0.9870615 0.1028823 0.0129385 -0.1028823
549500000 0.0125106 -0.1008036 0.9874894 0.1008036 0.9874894 0.1008036 0.0125106 -0.1008036
556750000 0.0121002 -0.0987664 0.9878998 0.0987664 0.9878998 0.0987664 0.0121002 -0.0987664
564000000 0.0117067 -0.0967689 0.9882933 0.0967689 0.9882933 0.0967689 0.0117067 -0.0967689
571250000 0.0113291 -0.0948098 0.9886709 0.0948098 0.9886709 0.0948098 0.0113291 -0.0948098
578500000 0.0109668 -0.0928878 0.9890332 0.0928878 0.9890332 0.0928878 0.0109668 -0.0928878
585750000 0.0106189 -0.0910015 0.9893811 0.0910015 0.9893811 0.0910015 0.0106189 -0.0910015
593000000 0.0102850 -0.0891497 0.9897150 0.0891497 0.9897150 0.0891497 0.0102850 -0.0891497
600250000 0.0099642 -0.0873312 0.9900358 0.0873312 0.9900358 0.0873312 0.0099642 -0.0873312
607500000 0.0096560 -0.0855449 0.9903440 0.0855449 0.9903440 0.0855449 0.0096560 -0.0855449
614750000 0.0093599 -0.0837896 0.9906401 0.0837896 0.9906401 0.0837896 0.0093599 -0.0837896
622000000 0.0090753 -0.0820645 0.9909247 0.0820645 0.9909247 0.0820645 0.0090753 -0.0820645
629250000 0.0088018 -0.0803683 0.9911982 0.0803683 0.9911982 0.0803683 0.0088018 -0.0803683
636500000 0.0085388 -0.0787003 0.9914612 0.0787003 0.9914612 0.0787003 0.0085388 -0.0787003
643750000 0.0082860 -0.0770594 0.9917140 0.0770594 0.9917140 0.0770594 0.0082860 -0.0770594
651000000 0.0080429 -0.0754449 0.9919571 0.0754449 0.9919571 0.0754449 0.0080429 -0.0754449
658250000 0.0078090 -0.0738559 0.9921910 0.0738559 0.9921910 0.0738559 0.0078090 -0.0738559
665500000 0.0075841 -0.0722915 0.9924159 0.0722915 0.9924159 0.0722915 0.0075841 -0.0722915
672750000 0.0073677 -0.0707510 0.9926323 0.0707510 0.9926323 0.0707510 0.0073677 -0.0707510
680000000 0.0071596 -0.0692337 0.9928404 0.0692337 0.9928404 0.0692337 0.0071596 -0.0692337
687250000 0.0069594 -0.0677388 0.9930406 0.0677388 0.9930406 0.0677388 0.0069594 -0.0677388
694500000 0.0067668 -0.0662657 0.9932332 0.0662657 0.9932332 0.0662657 0.0067668 -0.0662657
701750000 0.0065815 -0.0648137 0.9934185 0.0648137 0.9934185 0.0648137 0.0065815 -0.0648137
709000000 0.0064032 -0.0633821 0.9935968 0.0633821 0.9935968 0.0633821 0.0064032 -0.0633821
716250000 0.0062317 -0.0619704 0.9937683 0.0619704 0.9937683 0.0619704 0.0062317 -0.0619704
723500000 0.0060668 -0.0605780 0.9939332 0.0605780 0.9939332 0.0605780 0.0060668 -0.0605780
730750000 0.0059081 -0.0592043 0.9940919 0.0592043 0.9940919 0.0592043 0.0059081 -0.0592043
738000000 0.0057555 -0.0578488 0.9942445 0.0578488 0.9942445 0.0578488 0.0057555 -0.0578488
745250000 0.0056087 -0.0565110 0.9943913 0.0565110 0.9943913 0.0565110 0.0056087 -0.0565110
752500000 0.0054676 -0.0551902 0.9945324 0.0551902 0.9945324 0.0551902 0.0054676 -0.0551902
759750000 0.0053320 -0.0538862 0.9946680 0.0538862 0.9946680 0.0538862 0.0053320 -0.0538862
767000000 0.0052016 -0.0525983 0.9947984 0.0525983 0.9947984 0.0525983 0.0052016 -0.0525983
774250000 0.0050764 -0.0513262 0.9949236 0.0513262 0.9949236 0.0513262 0.0050764 -0.0513262
781500000 0.0049560 -0.0500693 0.9950440 0.0500693 0.9950440 0.0500693 0.0049560 -0.0500693
788750000 0.0048404 -0.0488274 0.9951596 0.0488274 0.9951596 0.0488274 0.0048404 -0.0488274
796000000 0.0047294 -0.0475999 0.9952706 0.0475999 0.9952706 0.0475999 0.0047294 -0.0475999
803250000 0.0046229 -0.0463865 0.9953771 0.0463865 0.9953771 0.0463865 0.0046229 -0.0463865
810500000 0.0045207 -0.0451868 0.9954793 0.0451868 0.9954793 0.0451868 0.0045207 -0.0451868
817750000 0.0044227 -0.0440005 0.9955773 0.0440005 0.9955773 0.0440005 0.0044227 -0.0440005
825000000 0.0043288 -0.0428271 0.9956712 0.0428271 0.9956712 0.0428271 0.0043288 -0.0428271
832250000 0.0042387 -0.0416664 0.9957613 0.0416664 0.9957613 0.0416664 0.0042387 -0.0416664
839500000 0.0041526 -0.0405180 0.9958474 0.0405180 0.9958474 0.0405180 0.0041526 -0.0405180
846750000 0.0040701 -0.0393816 0.9959299 0.0393816 0.9959299 0.0393816 0.0040701 -0.0393816
854000000 0.0039912 -0.0382569 0.9960088 0.0382569 0.9960088 0.0382569 0.0039912 -0.0382569
861250000 0.0039158 -0.0371436 0.9960842 0.0371436 0.9960842 0.0371436 0.0039158 -0.0371436
868500000 0.0038438 -0.0360413 0.9961562 0.0360413 0.9961562 0.0360413 0.0038438 -0.0360413
875750000 0.0037751 -0.0349499 0.9962249 0.0349499 0.9962249 0.0349499 0.0037751 -0.0349499
883000000 0.0037097 -0.0338690 0.9962903 0.0338690 0.9962903 0.0338690 0.0037097 -0.0338690
890250000 0.0036473 -0.0327984 0.9963527 0.0327984 0.9963527 0.0327984 0.0036473 -0.0327984
897500000 0.0035880 -0.0317378 0.9964120 0.0317378 0.9964120 0.0317378 0.0035880 -0.0317378
904750000 0.0035317 -0.0306870 0.9964683 0.0306870 0.9964683 0.0306870 0.0035317 -0.0306870
912000000 0.0034782 -0.0296457 0.9965218 0.0296457 0.9965218 0.0296457 0.0034782 -0.0296457
919250000 0.0034276 -0.0286137 0.9965724 0.0286137 0.9965724 0.0286137 0.0034276 -0.0286137
926500000 0.0033797 -0.0275907 0.9966203 0.0275907 0.9966203 0.0275907 0.0033797 -0.0275907
933750000 0.0033344 -0.0265767 0.9966656 0.0265767 0.9966656 0.0265767 0.0033344 -0.0265767
941000000 0.0032918 -0.0255712 0.9967082 0.0255712 0.9967082 0.0255712 0.0032918 -0.0255712
948250000 0.0032517 -0.0245742 0.9967483 0.0245742 0.9967483 0.0245742 0.0032517 -0.0245742
955500000 0.0032141 -0.0235854 0.9967859 0.0235854 0.9967859 0.0235854 0.0032141 -0.0235854
962750000 0.0031790 -0.0226047 0.9968210 0.0226047 0.9968210 0.0226047 0.0031790 -0.0226047
970000000 0.0031462 -0.0216318 0.9968538 0.0216318 0.9968538 0.0216318 0.0031462 -0.0216318
977250000 0.0031157 -0.0206665 0.9968843 0.0206665 0.9968843 0.0206665 0.0031157 -0.0206665
984500000 0.0030875 -0.0197088 0.9969125 0.0197088 0.9969125 0.0197088 0.0030875 -0.0197088
991750000 0.0030615 -0.0187583 0.9969385 0.0187583 0.9969385 0.0187583 0.0030615 -0.0187583
999000000 0.0030376 -0.0178150 0.9969624 0.0178150 0.9969624 0.0178150 0.0030376 -0.0178150
1006250000 0.0030159 -0.0168787 0.9969841 0.0168787 0.9969841 0.0168787 0.0030159 -0.0168787
1013500000 0.0029963 -0.0159491 0.9970037 0.0159491 0.9970037 0.0159491 0.0029963 -0.0159491
1020750000 0.0029787 -0.0150262 0.9970213 0.0150262 0.9970213 0.0150262 0.0029787 -0.0150262
1028000000 0.0029631 -0.0141099 0.9970369 0.0141099 0.9970369 0.0141099 0.0029631 -0.0141099
1035250000 0.0029494 -0.0131999 0.9970506 0.0131999 0.9970506 0.0131999 0.0029494 -0.0131999
1042500000 0.0029377 -0.0122961 0.9970623 0.0122961 0.9970623 0.0122961 0.0029377 -0.0122961
1049750000 0.0029278 -0.0113983 0.9970722 0.0113983 0.9970722 0.0113983 0.0029278 -0.0113983
1057000000 0.0029198 -0.0105065 0.9970802 0.0105065 0.9970802 0.0105065 0.0029198 -0.0105065
1064250000 0.0029136 -0.0096205 0.9970864 0.0096205 0.9970864 0.0096205 0.0029136 -0.0096205
1071500000 0.0029091 -0.0087402 0.9970909 0.0087402 0.9970909 0.0087402 0.0029091 -0.0087402
1078750000 0.0029064 -0.0078654 0.9970936 0.0078654 0.9970936 0.0078654 0.0029064 -0.0078654
1086000000 0.0029055 -0.0069961 0.9970945 0.0069961 0.9970945 0.0069961 0.0029055 -0.0069961
1093250000 0.0029062 -0.0061320 0.9970938 0.0061320 0.9970938 0.0061320 0.0029062 -0.0061320
1100500000 0.0029085 -0.0052731 0.9970915 0.0052731 0.9970915 0.0052731 0.0029085 -0.0052731
1107750000 0.0029125 -0.0044193 0.9970875 0.0044193 0.9970875 0.0044193 0.0029125 -0.0044193
1115000000 0.0029181 -0.0035705 0.9970819 0.0035705 0.9970819 0.0035705 0.0029181 -0.0035705
1122250000 0.0029253 -0.0027265 0.9970747 0.0027265 0.9970747 0.0027265 0.0029253 -0.0027265
1129500000 0.0029340 -0.0018873 0.9970660 0.0018873 0.9970660 0.0018873 0.0029340 -0.0018873
1136750000 0.0029443 -0.0010527 0.9970557 0.0010527 0.9970557 0.0010527 0.0029443 -0.0010527
1144000000 0.0029560 -0.0002226 0.9970440 0.0002226 0.9970440 0.0002226 0.0029560 -0.0002226
1151250000 0.0029693 0.0006030 0.9970307 -0.0006030 0.9970307 -0.0006030 0.0029693 0.0006030
1158500000 0.0029840 0.0014243 0.9970160 -0.0014243 0.9970160 -0.0014243 0.0029840 0.0014243
1165750000 0.0030001 0.0022413 0.9969999 -0.0022413 0.9969999 -0.0022413 0.0030001 0.0022413
1173000000 0.0030177 0.0030542 0.9969823 -0.0030542 0.9969823 -0.0030542 0.0030177 0.0030542
1180250000 0.0030367 0.0038630 0.9969633 -0.0038630 0.9969633 -0.0038630 0.0030367 0.0038630
1187500000 0.0030570 0.0046678 0.9969430 -0.0046678 0.9969430 -0.0046678 0.0030570 0.0046678
1194750000 0.0030788 0.0054687 0.9969212 -0.0054687 0.9969212 -0.0054687 0.0030788 0.0054687
1202000000 0.0031019 0.0062659 0.9968981 -0.0062659 0.9968981 -0.0062659 0.0031019 0.0062659
1209250000 0.0031263 0.0070592 0.9968737 -0.0070592 0.9968737 -0.0070592 0.0031263 0.0070592
1216500000 0.0031520 0.0078490 0.9968480 -0.0078490 0.9968480 -0.0078490 0.0031520 0.0078490
1223750000 0.0031791 0.0086352 0.9968209 -0.0086352 0.9968209 -0.0086352 0.0031791 0.0086352
1231000000 0.0032074 0.0094178 0.9967926 -0.0094178 0.9967926 -0.0094178 0.0032074 0.0094178
1238250000 0.0032370 0.0101971 0.9967630 -0.0101971 0.9967630 -0.0101971 0.0032370 0.0101971
1245500000 0.0032679 0.0109730 0.9967321 -0.0109730 0.9967321 -0.0109730 0.0032679 0.0109730
1252750000 0.0033000 0.0117457 0.9967000 -0.0117457 0.9967000 -0.0117457 0.0033000 0.0117457
1260000000 0.0033333 0.0125151 0.9966667 -0.0125151 0.9966667 -0.0125151 0.0033333 0.0125151
1267250000 0.0033679 0.0132814 0.9966321 -0.0132814 0.9966321 -0.0132814 0.0033679 0.0132814
1274500000 0.0034037 0.0140447 0.9965963 -0.0140447 0.9965963 -0.0140447 0.0034037 0.0140447
1281750000 0.0034407 0.0148049 0.9965593 -0.0148049 0.9965593 -0.0148049 0.0034407 0.0148049
1289000000 0.0034789 0.0155622 0.9965211 -0.0155622 0.9965211 -0.0155622 0.0034789 0.0155622
1296250000 0.0035182 0.0163167 0.9964818 -0.0163167 0.9964818 -0.0163167 0.0035182 0.0163167
1303500000 0.0035587 0.0170683 0.9964413 -0.0170683 0.9964413 -0.0170683 0.0035587 0.0170683
1310750000 0.0036004 0.0178172 0.9963996 -0.0178172 0.9963996 -0.0178172 0.0036004 0.0178172
1318000000 0.0036432 0.0185634 0.9963568 -0.0185634 0.9963568 -0.0185634 0.0036432 0.0185634
1325250000 0.0036872 0.0193070 0.9963128 -0.0193070 0.9963128 -0.0193070 0.0036872 0.0193070
1332500000 0.0037323 0.0200480 0.9962677 -0.0200480 0.9962677 -0.0200480 0.0037323 0.0200480
1339750000 0.0037786 0.0207865 0.9962214 -0.0207865 0.9962214 -0.0207865 0.0037786 0.0207865
1347000000 0.0038259 0.0215225 0.9961741 -0.0215225 0.9961741 -0.0215225 0.0038259 0.0215225
1354250000 0.0038744 0.0222562 0.9961256 -0.0222562 0.9961256 -0.0222562 0.0038744 0.0222562
1361500000 0.0039239 0.0229874 0.9960761 -0.0229874 0.9960761 -0.0229874 0.0039239 0.0229874
1368750000 0.0039746 0.0237164 0.9960254 -0.0237164 0.9960254 -0.0237164 0.0039746 0.0237164
1376000000 0.0040263 0.0244432 0.9959737 -0.0244432 0.9959737 -0.0244432 0.0040263 0.0244432
1383250000 0.0040792 0.0251677 0.9959208 -0.0251677 0.9959208 -0.0251677 0.0040792 0.0251677
1390500000 0.0041331 0.0258901 0.9958669 -0.0258901 0.9958669 -0.0258901 0.0041331 0.0258901
1397750000 0.0041881 0.0266104 0.9958119 -0.0266104 0.9958119 -0.0266104 0.0041881 0.0266104
1405000000 0.0042441 0.0273286 0.9957559 -0.0273286 0.9957559 -0.0273286 0.0042441 0.0273286
1412250000 0.0043012 0.0280448 0.9956988 -0.0280448 0.9956988 -0.0280448 0.0043012 0.0280448
1419500000 0.0043594 0.0287591 0.9956406 -0.0287591 0.9956406 -0.0287591 0.0043594 0.0287591
1426750000 0.0044186 0.0294715 0.9955814 -0.0294715 0.9955814 -0.0294715 0.0044186 0.0294715
1434000000 0.0044788 0.0301820 0.9955212 -0.0301820 0.9955212 -0.0301820 0.0044788 0.0301820
1441250000 0.0045401 0.0308906 0.9954599 -0.0308906 0.9954599 -0.0308906 0.0045401 0.0308906
1448500000 0.0046024 0.0315975 0.9953976 -0.0315975 0.9953976 -0.0315975 0.0046024 0.0315975
1455750000 0.0046658 0.0323027 0.9953342 -0.0323027 0.9953342 -0.0323027 0.0046658 0.0323027
1463000000 0.0047302 0.0330061 0.9952698 -0.0330061 0.9952698 -0.0330061 0.0047302 0.0330061
1470250000 0.0047956 0.0337079 0.9952044 -0.0337079 0.9952044 -0.0337079 0.0047956 0.0337079
1477500000 0.0048621 0.0344080 0.9951379 -0.0344080 0.9951379 -0.0344080 0.0048621 0.0344080
1484750000 0.0049296 0.0351066 0.9950704 -0.0351066 0.9950704 -0.0351066 0.0049296 0.0351066
1492000000 0.0049981 0.0358036 0.9950019 -0.0358036 0.9950019 -0.0358036 0.0049981 0.0358036
1499250000 0.0050676 0.0364992 0.9949324 -0.0364992 0.9949324 -0.0364992 0.0050676 0.0364992
1506500000 0.0051381 0.0371933 0.9948619 -0.0371933 0.9948619 -0.0371933 0.0051381 0.0371933
1513750000 0.0052096 0.0378859 0.9947904 -0.0378859 0.9947904 -0.0378859 0.0052096 0.0378859
1521000000 0.0052822 0.0385771 0.9947178 -0.0385771 0.9947178 -0.0385771 0.0052822 0.0385771
1528250000 0.0053557 0.0392670 0.9946443 -0.0392670 0.9946443 -0.0392670 0.0053557 0.0392670
1535500000 0.0054303 0.0399556 0.9945697 -0.0399556 0.9945697 -0.0399556 0.0054303 0.0399556
1542750000 0.0055058 0.0406429 0.9944942 -0.0406429 0.9944942 -0.0406429 0.0055058 0.0406429
1550000000 0.0055824 0.0413289 0.9944176 -0.0413289 0.9944176 -0.0413289 0.0055824 0.0413289
1557250000 0.0056600 0.0420137 0.9943400 -0.0420137 0.9943400 -0.0420137 0.0056600 0.0420137
1564500000 0.0057386 0.0426973 0.9942614 -0.0426973 0.9942614 -0.0426973 0.0057386 0.0426973
1571750000 0.0058181 0.0433798 0.9941819 -0.0433798 0.9941819 -0.0433798 0.0058181 0.0433798
1579000000 0.0058987 0.0440611 0.9941013 -0.0440611 0.9941013 -0.0440611 0.0058987 0.0440611
1586250000 0.0059803 0.0447414 0.9940197 -0.0447414 0.9940197 -0.0447414 0.0059803 0.0447414
1593500000 0.0060629 0.0454206 0.9939371 -0.0454206 0.9939371 -0.0454206 0.0060629 0.0454206
1600750000 0.0061465 0.0460988 0.9938535 -0.0460988 0.9938535 -0.0460988 0.0061465 0.0460988
1608000000 0.0062310 0.0467759 0.9937690 -0.0467759 0.9937690 -0.0467759 0.0062310 0.0467759
1615250000 0.0063166 0.0474521 0.9936834 -0.0474521 0.9936834 -0.0474521 0.0063166 0.0474521
1622500000 0.0064032 0.0481274 0.9935968 -0.0481274 0.9935968 -0.0481274 0.0064032 0.0481274
1629750000 0.0064908 0.0488017 0.9935092 -0.0488017 0.9935092 -0.0488017 0.0064908 0.0488017
