!Murata Part Number: GRM31M5C1H473JA01
!These Parameters are Measured in Series Mode Connection
!Data Generated on Mar 30, 2021
!       o--ll--o
!Port1            Port2
!       o------o
!Operation Temp=25[degC], DC Bias Voltage=0[V]
!Freq. Start=1000[kHz] Stop=6[GHz] 401[Steps]
# Hz S RI R 50
!Freq.(Hz) S11(Real) S11(Imag) S21(Real) S21(Imag) S12(Real) S12(Imag) S22(Real) S22(Imag)
1000000 0.0011615 -0.0333591 0.9988385 0.0333591 0.9988385 0.0333591 0.0011615 -0.0333591
1021987 0.0011140 -0.0326405 0.9988860 0.0326405 0.9988860 0.0326405 0.0011140 -0.0326405
1044457 0.0010685 -0.0319372 0.9989315 0.0319372 0.9989315 0.0319372 0.0010685 -0.0319372
1067422 0.0010250 -0.0312489 0.9989750 0.0312489 0.9989750 0.0312489 0.0010250 -0.0312489
1090891 0.0009833 -0.0305753 0.9990167 0.0305753 0.9990167 0.0305753 0.0009833 -0.0305753
1114877 0.0009434 -0.0299160 0.9990566 0.0299160 0.9990566 0.0299160 0.0009434 -0.0299160
1139390 0.0009051 -0.0292707 0.9990949 0.0292707 0.9990949 0.0292707 0.0009051 -0.0292707
1164441 0.0008686 -0.0286392 0.9991314 0.0286392 0.9991314 0.0286392 0.0008686 -0.0286392
1190044 0.0008335 -0.0280212 0.9991665 0.0280212 0.9991665 0.0280212 0.0008335 -0.0280212
1216210 0.0008000 -0.0274164 0.9992000 0.0274164 0.9992000 0.0274164 0.0008000 -0.0274164
1242950 0.0007679 -0.0268244 0.9992321 0.0268244 0.9992321 0.0268244 0.0007679 -0.0268244
1270279 0.0007371 -0.0262450 0.9992629 0.0262450 0.9992629 0.0262450 0.0007371 -0.0262450
1298209 0.0007077 -0.0256780 0.9992923 0.0256780 0.9992923 0.0256780 0.0007077 -0.0256780
1326753 0.0006795 -0.0251231 0.9993205 0.0251231 0.9993205 0.0251231 0.0006795 -0.0251231
1355924 0.0006526 -0.0245800 0.9993474 0.0245800 0.9993474 0.0245800 0.0006526 -0.0245800
1385737 0.0006268 -0.0240485 0.9993732 0.0240485 0.9993732 0.0240485 0.0006268 -0.0240485
1416205 0.0006020 -0.0235283 0.9993980 0.0235283 0.9993980 0.0235283 0.0006020 -0.0235283
1447343 0.0005784 -0.0230192 0.9994216 0.0230192 0.9994216 0.0230192 0.0005784 -0.0230192
1479166 0.0005557 -0.0225209 0.9994443 0.0225209 0.9994443 0.0225209 0.0005557 -0.0225209
1511688 0.0005341 -0.0220332 0.9994659 0.0220332 0.9994659 0.0220332 0.0005341 -0.0220332
1544926 0.0005133 -0.0215559 0.9994867 0.0215559 0.9994867 0.0215559 0.0005133 -0.0215559
1578894 0.0004934 -0.0210888 0.9995066 0.0210888 0.9995066 0.0210888 0.0004934 -0.0210888
1613609 0.0004744 -0.0206316 0.9995256 0.0206316 0.9995256 0.0206316 0.0004744 -0.0206316
1649087 0.0004562 -0.0201842 0.9995438 0.0201842 0.9995438 0.0201842 0.0004562 -0.0201842
1685346 0.0004388 -0.0197462 0.9995612 0.0197462 0.9995612 0.0197462 0.0004388 -0.0197462
1722402 0.0004221 -0.0193176 0.9995779 0.0193176 0.9995779 0.0193176 0.0004221 -0.0193176
1760272 0.0004062 -0.0188981 0.9995938 0.0188981 0.9995938 0.0188981 0.0004062 -0.0188981
1798975 0.0003909 -0.0184875 0.9996091 0.0184875 0.9996091 0.0184875 0.0003909 -0.0184875
1838529 0.0003763 -0.0180856 0.9996237 0.0180856 0.9996237 0.0180856 0.0003763 -0.0180856
1878953 0.0003623 -0.0176923 0.9996377 0.0176923 0.9996377 0.0176923 0.0003623 -0.0176923
1920266 0.0003490 -0.0173073 0.9996510 0.0173073 0.9996510 0.0173073 0.0003490 -0.0173073
1962487 0.0003362 -0.0169305 0.9996638 0.0169305 0.9996638 0.0169305 0.0003362 -0.0169305
2005636 0.0003239 -0.0165616 0.9996761 0.0165616 0.9996761 0.0165616 0.0003239 -0.0165616
2049734 0.0003122 -0.0162006 0.9996878 0.0162006 0.9996878 0.0162006 0.0003122 -0.0162006
2094801 0.0003010 -0.0158473 0.9996990 0.0158473 0.9996990 0.0158473 0.0003010 -0.0158473
2140860 0.0002903 -0.0155014 0.9997097 0.0155014 0.9997097 0.0155014 0.0002903 -0.0155014
2187931 0.0002800 -0.0151628 0.9997200 0.0151628 0.9997200 0.0151628 0.0002800 -0.0151628
2236037 0.0002702 -0.0148314 0.9997298 0.0148314 0.9997298 0.0148314 0.0002702 -0.0148314
2285201 0.0002608 -0.0145071 0.9997392 0.0145071 0.9997392 0.0145071 0.0002608 -0.0145071
2335446 0.0002518 -0.0141895 0.9997482 0.0141895 0.9997482 0.0141895 0.0002518 -0.0141895
2386795 0.0002432 -0.0138787 0.9997568 0.0138787 0.9997568 0.0138787 0.0002432 -0.0138787
2439274 0.0002350 -0.0135744 0.9997650 0.0135744 0.9997650 0.0135744 0.0002350 -0.0135744
2492906 0.0002272 -0.0132766 0.9997728 0.0132766 0.9997728 0.0132766 0.0002272 -0.0132766
2547717 0.0002197 -0.0129850 0.9997803 0.0129850 0.9997803 0.0129850 0.0002197 -0.0129850
2603734 0.0002125 -0.0126996 0.9997875 0.0126996 0.9997875 0.0126996 0.0002125 -0.0126996
2660982 0.0002057 -0.0124201 0.9997943 0.0124201 0.9997943 0.0124201 0.0002057 -0.0124201
2719490 0.0001991 -0.0121466 0.9998009 0.0121466 0.9998009 0.0121466 0.0001991 -0.0121466
2779283 0.0001929 -0.0118788 0.9998071 0.0118788 0.9998071 0.0118788 0.0001929 -0.0118788
2840391 0.0001869 -0.0116166 0.9998131 0.0116166 0.9998131 0.0116166 0.0001869 -0.0116166
2902843 0.0001812 -0.0113599 0.9998188 0.0113599 0.9998188 0.0113599 0.0001812 -0.0113599
2966668 0.0001757 -0.0111085 0.9998243 0.0111085 0.9998243 0.0111085 0.0001757 -0.0111085
3031896 0.0001705 -0.0108624 0.9998295 0.0108624 0.9998295 0.0108624 0.0001705 -0.0108624
3098558 0.0001655 -0.0106215 0.9998345 0.0106215 0.9998345 0.0106215 0.0001655 -0.0106215
3166686 0.0001608 -0.0103856 0.9998392 0.0103856 0.9998392 0.0103856 0.0001608 -0.0103856
3236312 0.0001562 -0.0101546 0.9998438 0.0101546 0.9998438 0.0101546 0.0001562 -0.0101546
3307469 0.0001519 -0.0099284 0.9998481 0.0099284 0.9998481 0.0099284 0.0001519 -0.0099284
3380190 0.0001478 -0.0097069 0.9998522 0.0097069 0.9998522 0.0097069 0.0001478 -0.0097069
3454511 0.0001438 -0.0094900 0.9998562 0.0094900 0.9998562 0.0094900 0.0001438 -0.0094900
3530465 0.0001401 -0.0092776 0.9998599 0.0092776 0.9998599 0.0092776 0.0001401 -0.0092776
3608090 0.0001365 -0.0090696 0.9998635 0.0090696 0.9998635 0.0090696 0.0001365 -0.0090696
3687421 0.0001331 -0.0088659 0.9998669 0.0088659 0.9998669 0.0088659 0.0001331 -0.0088659
3768496 0.0001299 -0.0086664 0.9998701 0.0086664 0.9998701 0.0086664 0.0001299 -0.0086664
3851354 0.0001268 -0.0084709 0.9998732 0.0084709 0.9998732 0.0084709 0.0001268 -0.0084709
3936034 0.0001238 -0.0082795 0.9998762 0.0082795 0.9998762 0.0082795 0.0001238 -0.0082795
4022575 0.0001210 -0.0080921 0.9998790 0.0080921 0.9998790 0.0080921 0.0001210 -0.0080921
4111020 0.0001183 -0.0079084 0.9998817 0.0079084 0.9998817 0.0079084 0.0001183 -0.0079084
4201409 0.0001158 -0.0077285 0.9998842 0.0077285 0.9998842 0.0077285 0.0001158 -0.0077285
4293785 0.0001134 -0.0075523 0.9998866 0.0075523 0.9998866 0.0075523 0.0001134 -0.0075523
4388193 0.0001111 -0.0073796 0.9998889 0.0073796 0.9998889 0.0073796 0.0001111 -0.0073796
4484676 0.0001089 -0.0072104 0.9998911 0.0072104 0.9998911 0.0072104 0.0001089 -0.0072104
4583281 0.0001068 -0.0070447 0.9998932 0.0070447 0.9998932 0.0070447 0.0001068 -0.0070447
4684054 0.0001049 -0.0068823 0.9998951 0.0068823 0.9998951 0.0068823 0.0001049 -0.0068823
4787042 0.0001030 -0.0067231 0.9998970 0.0067231 0.9998970 0.0067231 0.0001030 -0.0067231
4892295 0.0001012 -0.0065672 0.9998988 0.0065672 0.9998988 0.0065672 0.0001012 -0.0065672
4999862 0.0000996 -0.0064143 0.9999004 0.0064143 0.9999004 0.0064143 0.0000996 -0.0064143
5109794 0.0000980 -0.0062645 0.9999020 0.0062645 0.9999020 0.0062645 0.0000980 -0.0062645
5222143 0.0000965 -0.0061177 0.9999035 0.0061177 0.9999035 0.0061177 0.0000965 -0.0061177
5336962 0.0000951 -0.0059738 0.9999049 0.0059738 0.9999049 0.0059738 0.0000951 -0.0059738
5454306 0.0000937 -0.0058326 0.9999063 0.0058326 0.9999063 0.0058326 0.0000937 -0.0058326
5574230 0.0000925 -0.0056943 0.9999075 0.0056943 0.9999075 0.0056943 0.0000925 -0.0056943
5696791 0.0000913 -0.0055587 0.9999087 0.0055587 0.9999087 0.0055587 0.0000913 -0.0055587
5822046 0.0000902 -0.0054257 0.9999098 0.0054257 0.9999098 0.0054257 0.0000902 -0.0054257
5950055 0.0000891 -0.0052952 0.9999109 0.0052952 0.9999109 0.0052952 0.0000891 -0.0052952
6080879 0.0000881 -0.0051673 0.9999119 0.0051673 0.9999119 0.0051673 0.0000881 -0.0051673
6214580 0.0000872 -0.0050419 0.9999128 0.0050419 0.9999128 0.0050419 0.0000872 -0.0050419
6351220 0.0000864 -0.0049188 0.9999136 0.0049188 0.9999136 0.0049188 0.0000864 -0.0049188
6490864 0.0000856 -0.0047980 0.9999144 0.0047980 0.9999144 0.0047980 0.0000856 -0.0047980
6633579 0.0000848 -0.0046796 0.9999152 0.0046796 0.9999152 0.0046796 0.0000848 -0.0046796
6779431 0.0000841 -0.0045633 0.9999159 0.0045633 0.9999159 0.0045633 0.0000841 -0.0045633
6928491 0.0000835 -0.0044492 0.9999165 0.0044492 0.9999165 0.0044492 0.0000835 -0.0044492
7080828 0.0000829 -0.0043372 0.9999171 0.0043372 0.9999171 0.0043372 0.0000829 -0.0043372
7236514 0.0000824 -0.0042273 0.9999176 0.0042273 0.9999176 0.0042273 0.0000824 -0.0042273
7395623 0.0000819 -0.0041194 0.9999181 0.0041194 0.9999181 0.0041194 0.0000819 -0.0041194
7558231 0.0000815 -0.0040134 0.9999185 0.0040134 0.9999185 0.0040134 0.0000815 -0.0040134
7724414 0.0000811 -0.0039094 0.9999189 0.0039094 0.9999189 0.0039094 0.0000811 -0.0039094
7894251 0.0000807 -0.0038071 0.9999193 0.0038071 0.9999193 0.0038071 0.0000807 -0.0038071
8067822 0.0000804 -0.0037067 0.9999196 0.0037067 0.9999196 0.0037067 0.0000804 -0.0037067
8245209 0.0000802 -0.0036081 0.9999198 0.0036081 0.9999198 0.0036081 0.0000802 -0.0036081
8426497 0.0000799 -0.0035111 0.9999201 0.0035111 0.9999201 0.0035111 0.0000799 -0.0035111
8611770 0.0000798 -0.0034158 0.9999202 0.0034158 0.9999202 0.0034158 0.0000798 -0.0034158
8801117 0.0000796 -0.0033221 0.9999204 0.0033221 0.9999204 0.0033221 0.0000796 -0.0033221
8994628 0.0000795 -0.0032300 0.9999205 0.0032300 0.9999205 0.0032300 0.0000795 -0.0032300
9192393 0.0000794 -0.0031394 0.9999206 0.0031394 0.9999206 0.0031394 0.0000794 -0.0031394
9394506 0.0000794 -0.0030503 0.9999206 0.0030503 0.9999206 0.0030503 0.0000794 -0.0030503
9601063 0.0000794 -0.0029627 0.9999206 0.0029627 0.9999206 0.0029627 0.0000794 -0.0029627
9812162 0.0000795 -0.0028764 0.9999205 0.0028764 0.9999205 0.0028764 0.0000795 -0.0028764
10027902 0.0000796 -0.0027915 0.9999204 0.0027915 0.9999204 0.0027915 0.0000796 -0.0027915
10248386 0.0000797 -0.0027079 0.9999203 0.0027079 0.9999203 0.0027079 0.0000797 -0.0027079
10473717 0.0000799 -0.0026256 0.9999201 0.0026256 0.9999201 0.0026256 0.0000799 -0.0026256
10704003 0.0000801 -0.0025445 0.9999199 0.0025445 0.9999199 0.0025445 0.0000801 -0.0025445
10939352 0.0000803 -0.0024646 0.9999197 0.0024646 0.9999197 0.0024646 0.0000803 -0.0024646
11179876 0.0000806 -0.0023859 0.9999194 0.0023859 0.9999194 0.0023859 0.0000806 -0.0023859
11425688 0.0000810 -0.0023083 0.9999190 0.0023083 0.9999190 0.0023083 0.0000810 -0.0023083
11676904 0.0000813 -0.0022317 0.9999187 0.0022317 0.9999187 0.0022317 0.0000813 -0.0022317
11933645 0.0000817 -0.0021562 0.9999183 0.0021562 0.9999183 0.0021562 0.0000817 -0.0021562
12196030 0.0000822 -0.0020817 0.9999178 0.0020817 0.9999178 0.0020817 0.0000822 -0.0020817
12464184 0.0000827 -0.0020082 0.9999173 0.0020082 0.9999173 0.0020082 0.0000827 -0.0020082
12738235 0.0000832 -0.0019356 0.9999168 0.0019356 0.9999168 0.0019356 0.0000832 -0.0019356
13018310 0.0000838 -0.0018639 0.9999162 0.0018639 0.9999162 0.0018639 0.0000838 -0.0018639
13304544 0.0000844 -0.0017931 0.9999156 0.0017931 0.9999156 0.0017931 0.0000844 -0.0017931
13597071 0.0000851 -0.0017231 0.9999149 0.0017231 0.9999149 0.0017231 0.0000851 -0.0017231
13896030 0.0000858 -0.0016538 0.9999142 0.0016538 0.9999142 0.0016538 0.0000858 -0.0016538
14201563 0.0000866 -0.0015854 0.9999134 0.0015854 0.9999134 0.0015854 0.0000866 -0.0015854
14513813 0.0000874 -0.0015176 0.9999126 0.0015176 0.9999126 0.0015176 0.0000874 -0.0015176
14832928 0.0000883 -0.0014505 0.9999117 0.0014505 0.9999117 0.0014505 0.0000883 -0.0014505
15159060 0.0000893 -0.0013841 0.9999107 0.0013841 0.9999107 0.0013841 0.0000893 -0.0013841
15492362 0.0000903 -0.0013183 0.9999097 0.0013183 0.9999097 0.0013183 0.0000903 -0.0013183
15832993 0.0000913 -0.0012531 0.9999087 0.0012531 0.9999087 0.0012531 0.0000913 -0.0012531
16181113 0.0000925 -0.0011884 0.9999075 0.0011884 0.9999075 0.0011884 0.0000925 -0.0011884
16536888 0.0000937 -0.0011242 0.9999063 0.0011242 0.9999063 0.0011242 0.0000937 -0.0011242
16900485 0.0000949 -0.0010605 0.9999051 0.0010605 0.9999051 0.0010605 0.0000949 -0.0010605
17272076 0.0000963 -0.0009973 0.9999037 0.0009973 0.9999037 0.0009973 0.0000963 -0.0009973
17651837 0.0000977 -0.0009344 0.9999023 0.0009344 0.9999023 0.0009344 0.0000977 -0.0009344
18039948 0.0000992 -0.0008719 0.9999008 0.0008719 0.9999008 0.0008719 0.0000992 -0.0008719
18436593 0.0001008 -0.0008098 0.9998992 0.0008098 0.9998992 0.0008098 0.0001008 -0.0008098
18841959 0.0001025 -0.0007479 0.9998975 0.0007479 0.9998975 0.0007479 0.0001025 -0.0007479
19256237 0.0001043 -0.0006863 0.9998957 0.0006863 0.9998957 0.0006863 0.0001043 -0.0006863
19679624 0.0001062 -0.0006250 0.9998938 0.0006250 0.9998938 0.0006250 0.0001062 -0.0006250
20112321 0.0001082 -0.0005638 0.9998918 0.0005638 0.9998918 0.0005638 0.0001082 -0.0005638
20554530 0.0001103 -0.0005028 0.9998897 0.0005028 0.9998897 0.0005028 0.0001103 -0.0005028
21006463 0.0001125 -0.0004418 0.9998875 0.0004418 0.9998875 0.0004418 0.0001125 -0.0004418
21468333 0.0001149 -0.0003810 0.9998851 0.0003810 0.9998851 0.0003810 0.0001149 -0.0003810
21940357 0.0001174 -0.0003201 0.9998826 0.0003201 0.9998826 0.0003201 0.0001174 -0.0003201
22422760 0.0001201 -0.0002593 0.9998799 0.0002593 0.9998799 0.0002593 0.0001201 -0.0002593
22915770 0.0001229 -0.0001984 0.9998771 0.0001984 0.9998771 0.0001984 0.0001229 -0.0001984
23419619 0.0001259 -0.0001373 0.9998741 0.0001373 0.9998741 0.0001373 0.0001259 -0.0001373
23934547 0.0001291 -0.0000761 0.9998709 0.0000761 0.9998709 0.0000761 0.0001291 -0.0000761
24460796 0.0001325 -0.0000147 0.9998675 0.0000147 0.9998675 0.0000147 0.0001325 -0.0000147
24998616 0.0001361 0.0000470 0.9998639 -0.0000470 0.9998639 -0.0000470 0.0001361 0.0000470
25548261 0.0001400 0.0001090 0.9998600 -0.0001090 0.9998600 -0.0001090 0.0001400 0.0001090
26109991 0.0001441 0.0001713 0.9998559 -0.0001713 0.9998559 -0.0001713 0.0001441 0.0001713
26684072 0.0001485 0.0002342 0.9998515 -0.0002342 0.9998515 -0.0002342 0.0001485 0.0002342
27270775 0.0001533 0.0002975 0.9998467 -0.0002975 0.9998467 -0.0002975 0.0001533 0.0002975
27870378 0.0001584 0.0003615 0.9998416 -0.0003615 0.9998416 -0.0003615 0.0001584 0.0003615
28483164 0.0001639 0.0004261 0.9998361 -0.0004261 0.9998361 -0.0004261 0.0001639 0.0004261
29109424 0.0001698 0.0004915 0.9998302 -0.0004915 0.9998302 -0.0004915 0.0001698 0.0004915
29749453 0.0001762 0.0005578 0.9998238 -0.0005578 0.9998238 -0.0005578 0.0001762 0.0005578
30403555 0.0001832 0.0006250 0.9998168 -0.0006250 0.9998168 -0.0006250 0.0001832 0.0006250
31072038 0.0001908 0.0006934 0.9998092 -0.0006934 0.9998092 -0.0006934 0.0001908 0.0006934
31755220 0.0001991 0.0007630 0.9998009 -0.0007630 0.9998009 -0.0007630 0.0001991 0.0007630
32453422 0.0002082 0.0008339 0.9997918 -0.0008339 0.9997918 -0.0008339 0.0002082 0.0008339
33166976 0.0002183 0.0009064 0.9997817 -0.0009064 0.9997817 -0.0009064 0.0002183 0.0009064
33896219 0.0002295 0.0009807 0.9997705 -0.0009807 0.9997705 -0.0009807 0.0002295 0.0009807
34641496 0.0002421 0.0010569 0.9997579 -0.0010569 0.9997579 -0.0010569 0.0002421 0.0010569
35403159 0.0002562 0.0011353 0.9997438 -0.0011353 0.9997438 -0.0011353 0.0002562 0.0011353
36181569 0.0002722 0.0012162 0.9997278 -0.0012162 0.9997278 -0.0012162 0.0002722 0.0012162
36977093 0.0002906 0.0013000 0.9997094 -0.0013000 0.9997094 -0.0013000 0.0002906 0.0013000
37790109 0.0003118 0.0013870 0.9996882 -0.0013870 0.9996882 -0.0013870 0.0003118 0.0013870
38621001 0.0003365 0.0014776 0.9996635 -0.0014776 0.9996635 -0.0014776 0.0003365 0.0014776
39470161 0.0003658 0.0015724 0.9996342 -0.0015724 0.9996342 -0.0015724 0.0003658 0.0015724
40337993 0.0004008 0.0016717 0.9995992 -0.0016717 0.9995992 -0.0016717 0.0004008 0.0016717
41224905 0.0004434 0.0017762 0.9995566 -0.0017762 0.9995566 -0.0017762 0.0004434 0.0017762
42131317 0.0004961 0.0018863 0.9995039 -0.0018863 0.9995039 -0.0018863 0.0004961 0.0018863
43057659 0.0005622 0.0020020 0.9994378 -0.0020020 0.9994378 -0.0020020 0.0005622 0.0020020
44004369 0.0006467 0.0021227 0.9993533 -0.0021227 0.9993533 -0.0021227 0.0006467 0.0021227
44971893 0.0007564 0.0022460 0.9992436 -0.0022460 0.9992436 -0.0022460 0.0007564 0.0022460
45960691 0.0009006 0.0023662 0.9990994 -0.0023662 0.9990994 -0.0023662 0.0009006 0.0023662
46971230 0.0010905 0.0024704 0.9989095 -0.0024704 0.9989095 -0.0024704 0.0010905 0.0024704
48003987 0.0013351 0.0025332 0.9986649 -0.0025332 0.9986649 -0.0025332 0.0013351 0.0025332
49059451 0.0016293 0.0025114 0.9983707 -0.0025114 0.9983707 -0.0025114 0.0016293 0.0025114
50138122 0.0019285 0.0023527 0.9980715 -0.0023527 0.9980715 -0.0023527 0.0019285 0.0023527
51240510 0.0021318 0.0020426 0.9978682 -0.0020426 0.9978682 -0.0020426 0.0021318 0.0020426
52367136 0.0021371 0.0016665 0.9978629 -0.0016665 0.9978629 -0.0016665 0.0021371 0.0016665
53518533 0.0019495 0.0013706 0.9980505 -0.0013706 0.9980505 -0.0013706 0.0019495 0.0013706
54695245 0.0016756 0.0012326 0.9983244 -0.0012326 0.9983244 -0.0012326 0.0016756 0.0012326
55897831 0.0014134 0.0012325 0.9985866 -0.0012325 0.9985866 -0.0012325 0.0014134 0.0012325
57126857 0.0012045 0.0013178 0.9987955 -0.0013178 0.9987955 -0.0013178 0.0012045 0.0013178
58382906 0.0010526 0.0014465 0.9989474 -0.0014465 0.9989474 -0.0014465 0.0010526 0.0014465
59666572 0.0009491 0.0015946 0.9990509 -0.0015946 0.9990509 -0.0015946 0.0009491 0.0015946
60978462 0.0008838 0.0017502 0.9991162 -0.0017502 0.9991162 -0.0017502 0.0008838 0.0017502
62319196 0.0008492 0.0019083 0.9991508 -0.0019083 0.9991508 -0.0019083 0.0008492 0.0019083
63689409 0.0008406 0.0020668 0.9991594 -0.0020668 0.9991594 -0.0020668 0.0008406 0.0020668
65089750 0.0008563 0.0022252 0.9991437 -0.0022252 0.9991437 -0.0022252 0.0008563 0.0022252
66520879 0.0008971 0.0023828 0.9991029 -0.0023828 0.9991029 -0.0023828 0.0008971 0.0023828
67983474 0.0009663 0.0025378 0.9990337 -0.0025378 0.9990337 -0.0025378 0.0009663 0.0025378
69478228 0.0010701 0.0026852 0.9989299 -0.0026852 0.9989299 -0.0026852 0.0010701 0.0026852
71005847 0.0012161 0.0028138 0.9987839 -0.0028138 0.9987839 -0.0028138 0.0012161 0.0028138
72567054 0.0014096 0.0029012 0.9985904 -0.0029012 0.9985904 -0.0029012 0.0014096 0.0029012
74162587 0.0016418 0.0029110 0.9983582 -0.0029110 0.9983582 -0.0029110 0.0016418 0.0029110
75793201 0.0018684 0.0028032 0.9981316 -0.0028032 0.9981316 -0.0028032 0.0018684 0.0028032
77459667 0.0020025 0.0025786 0.9979975 -0.0025786 0.9979975 -0.0025786 0.0020025 0.0025786
79162774 0.0019725 0.0023209 0.9980275 -0.0023209 0.9980275 -0.0023209 0.0019725 0.0023209
80903327 0.0018025 0.0021438 0.9981975 -0.0021438 0.9981975 -0.0021438 0.0018025 0.0021438
82682150 0.0015825 0.0020926 0.9984175 -0.0020926 0.9984175 -0.0020926 0.0015825 0.0020926
84500083 0.0013827 0.0021420 0.9986173 -0.0021420 0.9986173 -0.0021420 0.0013827 0.0021420
86357988 0.0012283 0.0022497 0.9987717 -0.0022497 0.9987717 -0.0022497 0.0012283 0.0022497
88256743 0.0011190 0.0023852 0.9988810 -0.0023852 0.9988810 -0.0023852 0.0011190 0.0023852
90197245 0.0010470 0.0025310 0.9989530 -0.0025310 0.9989530 -0.0025310 0.0010470 0.0025310
92180413 0.0010040 0.0026784 0.9989960 -0.0026784 0.9989960 -0.0026784 0.0010040 0.0026784
94207185 0.0009839 0.0028233 0.9990161 -0.0028233 0.9990161 -0.0028233 0.0009839 0.0028233
96278520 0.0009823 0.0029631 0.9990177 -0.0029631 0.9990177 -0.0029631 0.0009823 0.0029631
98395398 0.0009964 0.0030960 0.9990036 -0.0030960 0.9990036 -0.0030960 0.0009964 0.0030960
100558819 0.0010235 0.0032197 0.9989765 -0.0032197 0.9989765 -0.0032197 0.0010235 0.0032197
102769807 0.0010610 0.0033316 0.9989390 -0.0033316 0.9989390 -0.0033316 0.0010610 0.0033316
105029408 0.0011043 0.0034288 0.9988957 -0.0034288 0.9988957 -0.0034288 0.0011043 0.0034288
107338692 0.0011471 0.0035098 0.9988529 -0.0035098 0.9988529 -0.0035098 0.0011471 0.0035098
