!Murata Part Number: GRM3192C2A303JA01
!These Parameters are Measured in Series Mode Connection
!Data Generated on Mar 30, 2021
!       o--ll--o
!Port1            Port2
!       o------o
!Operation Temp=25[degC], DC Bias Voltage=0[V]
!Freq. Start=1000[kHz] Stop=6[GHz] 401[Steps]
# Hz S RI R 50
!Freq.(Hz) S11(Real) S11(Imag) S21(Real) S21(Imag) S12(Real) S12(Imag) S22(Real) S22(Imag)
1000000 0.0028232 -0.0525945 0.9971768 0.0525945 0.9971768 0.0525945 0.0028232 -0.0525945
1021987 0.0027054 -0.0514666 0.9972946 0.0514666 0.9972946 0.0514666 0.0027054 -0.0514666
1044457 0.0025926 -0.0503626 0.9974074 0.0503626 0.9974074 0.0503626 0.0025926 -0.0503626
1067422 0.0024845 -0.0492820 0.9975155 0.0492820 0.9975155 0.0492820 0.0024845 -0.0492820
1090891 0.0023811 -0.0482242 0.9976189 0.0482242 0.9976189 0.0482242 0.0023811 -0.0482242
1114877 0.0022820 -0.0471887 0.9977180 0.0471887 0.9977180 0.0471887 0.0022820 -0.0471887
1139390 0.0021872 -0.0461753 0.9978128 0.0461753 0.9978128 0.0461753 0.0021872 -0.0461753
1164441 0.0020964 -0.0451833 0.9979036 0.0451833 0.9979036 0.0451833 0.0020964 -0.0451833
1190044 0.0020094 -0.0442123 0.9979906 0.0442123 0.9979906 0.0442123 0.0020094 -0.0442123
1216210 0.0019262 -0.0432619 0.9980738 0.0432619 0.9980738 0.0432619 0.0019262 -0.0432619
1242950 0.0018465 -0.0423317 0.9981535 0.0423317 0.9981535 0.0423317 0.0018465 -0.0423317
1270279 0.0017701 -0.0414212 0.9982299 0.0414212 0.9982299 0.0414212 0.0017701 -0.0414212
1298209 0.0016971 -0.0405301 0.9983029 0.0405301 0.9983029 0.0405301 0.0016971 -0.0405301
1326753 0.0016272 -0.0396579 0.9983728 0.0396579 0.9983728 0.0396579 0.0016272 -0.0396579
1355924 0.0015602 -0.0388042 0.9984398 0.0388042 0.9984398 0.0388042 0.0015602 -0.0388042
1385737 0.0014961 -0.0379686 0.9985039 0.0379686 0.9985039 0.0379686 0.0014961 -0.0379686
1416205 0.0014347 -0.0371509 0.9985653 0.0371509 0.9985653 0.0371509 0.0014347 -0.0371509
1447343 0.0013760 -0.0363505 0.9986240 0.0363505 0.9986240 0.0363505 0.0013760 -0.0363505
1479166 0.0013197 -0.0355671 0.9986803 0.0355671 0.9986803 0.0355671 0.0013197 -0.0355671
1511688 0.0012659 -0.0348004 0.9987341 0.0348004 0.9987341 0.0348004 0.0012659 -0.0348004
1544926 0.0012144 -0.0340500 0.9987856 0.0340500 0.9987856 0.0340500 0.0012144 -0.0340500
1578894 0.0011651 -0.0333156 0.9988349 0.0333156 0.9988349 0.0333156 0.0011651 -0.0333156
1613609 0.0011178 -0.0325968 0.9988822 0.0325968 0.9988822 0.0325968 0.0011178 -0.0325968
1649087 0.0010726 -0.0318933 0.9989274 0.0318933 0.9989274 0.0318933 0.0010726 -0.0318933
1685346 0.0010294 -0.0312048 0.9989706 0.0312048 0.9989706 0.0312048 0.0010294 -0.0312048
1722402 0.0009880 -0.0305309 0.9990120 0.0305309 0.9990120 0.0305309 0.0009880 -0.0305309
1760272 0.0009483 -0.0298714 0.9990517 0.0298714 0.9990517 0.0298714 0.0009483 -0.0298714
1798975 0.0009104 -0.0292259 0.9990896 0.0292259 0.9990896 0.0292259 0.0009104 -0.0292259
1838529 0.0008741 -0.0285941 0.9991259 0.0285941 0.9991259 0.0285941 0.0008741 -0.0285941
1878953 0.0008394 -0.0279759 0.9991606 0.0279759 0.9991606 0.0279759 0.0008394 -0.0279759
1920266 0.0008061 -0.0273707 0.9991939 0.0273707 0.9991939 0.0273707 0.0008061 -0.0273707
1962487 0.0007743 -0.0267785 0.9992257 0.0267785 0.9992257 0.0267785 0.0007743 -0.0267785
2005636 0.0007438 -0.0261988 0.9992562 0.0261988 0.9992562 0.0261988 0.0007438 -0.0261988
2049734 0.0007147 -0.0256315 0.9992853 0.0256315 0.9992853 0.0256315 0.0007147 -0.0256315
2094801 0.0006868 -0.0250763 0.9993132 0.0250763 0.9993132 0.0250763 0.0006868 -0.0250763
2140860 0.0006601 -0.0245328 0.9993399 0.0245328 0.9993399 0.0245328 0.0006601 -0.0245328
2187931 0.0006345 -0.0240010 0.9993655 0.0240010 0.9993655 0.0240010 0.0006345 -0.0240010
2236037 0.0006101 -0.0234804 0.9993899 0.0234804 0.9993899 0.0234804 0.0006101 -0.0234804
2285201 0.0005867 -0.0229709 0.9994133 0.0229709 0.9994133 0.0229709 0.0005867 -0.0229709
2335446 0.0005643 -0.0224723 0.9994357 0.0224723 0.9994357 0.0224723 0.0005643 -0.0224723
2386795 0.0005429 -0.0219842 0.9994571 0.0219842 0.9994571 0.0219842 0.0005429 -0.0219842
2439274 0.0005224 -0.0215066 0.9994776 0.0215066 0.9994776 0.0215066 0.0005224 -0.0215066
2492906 0.0005028 -0.0210390 0.9994972 0.0210390 0.9994972 0.0210390 0.0005028 -0.0210390
2547717 0.0004840 -0.0205814 0.9995160 0.0205814 0.9995160 0.0205814 0.0004840 -0.0205814
2603734 0.0004661 -0.0201335 0.9995339 0.0201335 0.9995339 0.0201335 0.0004661 -0.0201335
2660982 0.0004489 -0.0196951 0.9995511 0.0196951 0.9995511 0.0196951 0.0004489 -0.0196951
2719490 0.0004324 -0.0192660 0.9995676 0.0192660 0.9995676 0.0192660 0.0004324 -0.0192660
2779283 0.0004167 -0.0188460 0.9995833 0.0188460 0.9995833 0.0188460 0.0004167 -0.0188460
2840391 0.0004017 -0.0184350 0.9995983 0.0184350 0.9995983 0.0184350 0.0004017 -0.0184350
2902843 0.0003873 -0.0180326 0.9996127 0.0180326 0.9996127 0.0180326 0.0003873 -0.0180326
2966668 0.0003735 -0.0176387 0.9996265 0.0176387 0.9996265 0.0176387 0.0003735 -0.0176387
3031896 0.0003604 -0.0172532 0.9996396 0.0172532 0.9996396 0.0172532 0.0003604 -0.0172532
3098558 0.0003478 -0.0168758 0.9996522 0.0168758 0.9996522 0.0168758 0.0003478 -0.0168758
3166686 0.0003357 -0.0165064 0.9996643 0.0165064 0.9996643 0.0165064 0.0003357 -0.0165064
3236312 0.0003242 -0.0161447 0.9996758 0.0161447 0.9996758 0.0161447 0.0003242 -0.0161447
3307469 0.0003132 -0.0157908 0.9996868 0.0157908 0.9996868 0.0157908 0.0003132 -0.0157908
3380190 0.0003026 -0.0154442 0.9996974 0.0154442 0.9996974 0.0154442 0.0003026 -0.0154442
3454511 0.0002926 -0.0151050 0.9997074 0.0151050 0.9997074 0.0151050 0.0002926 -0.0151050
3530465 0.0002829 -0.0147730 0.9997171 0.0147730 0.9997171 0.0147730 0.0002829 -0.0147730
3608090 0.0002737 -0.0144479 0.9997263 0.0144479 0.9997263 0.0144479 0.0002737 -0.0144479
3687421 0.0002649 -0.0141296 0.9997351 0.0141296 0.9997351 0.0141296 0.0002649 -0.0141296
3768496 0.0002565 -0.0138180 0.9997435 0.0138180 0.9997435 0.0138180 0.0002565 -0.0138180
3851354 0.0002484 -0.0135130 0.9997516 0.0135130 0.9997516 0.0135130 0.0002484 -0.0135130
3936034 0.0002407 -0.0132143 0.9997593 0.0132143 0.9997593 0.0132143 0.0002407 -0.0132143
4022575 0.0002334 -0.0129219 0.9997666 0.0129219 0.9997666 0.0129219 0.0002334 -0.0129219
4111020 0.0002263 -0.0126356 0.9997737 0.0126356 0.9997737 0.0126356 0.0002263 -0.0126356
4201409 0.0002196 -0.0123553 0.9997804 0.0123553 0.9997804 0.0123553 0.0002196 -0.0123553
4293785 0.0002132 -0.0120809 0.9997868 0.0120809 0.9997868 0.0120809 0.0002132 -0.0120809
4388193 0.0002071 -0.0118121 0.9997929 0.0118121 0.9997929 0.0118121 0.0002071 -0.0118121
4484676 0.0002012 -0.0115489 0.9997988 0.0115489 0.9997988 0.0115489 0.0002012 -0.0115489
4583281 0.0001956 -0.0112912 0.9998044 0.0112912 0.9998044 0.0112912 0.0001956 -0.0112912
4684054 0.0001902 -0.0110389 0.9998098 0.0110389 0.9998098 0.0110389 0.0001902 -0.0110389
4787042 0.0001851 -0.0107917 0.9998149 0.0107917 0.9998149 0.0107917 0.0001851 -0.0107917
4892295 0.0001803 -0.0105497 0.9998197 0.0105497 0.9998197 0.0105497 0.0001803 -0.0105497
4999862 0.0001756 -0.0103127 0.9998244 0.0103127 0.9998244 0.0103127 0.0001756 -0.0103127
5109794 0.0001712 -0.0100805 0.9998288 0.0100805 0.9998288 0.0100805 0.0001712 -0.0100805
5222143 0.0001669 -0.0098531 0.9998331 0.0098531 0.9998331 0.0098531 0.0001669 -0.0098531
5336962 0.0001629 -0.0096304 0.9998371 0.0096304 0.9998371 0.0096304 0.0001629 -0.0096304
5454306 0.0001591 -0.0094122 0.9998409 0.0094122 0.9998409 0.0094122 0.0001591 -0.0094122
5574230 0.0001554 -0.0091985 0.9998446 0.0091985 0.9998446 0.0091985 0.0001554 -0.0091985
5696791 0.0001519 -0.0089892 0.9998481 0.0089892 0.9998481 0.0089892 0.0001519 -0.0089892
5822046 0.0001486 -0.0087841 0.9998514 0.0087841 0.9998514 0.0087841 0.0001486 -0.0087841
5950055 0.0001454 -0.0085831 0.9998546 0.0085831 0.9998546 0.0085831 0.0001454 -0.0085831
6080879 0.0001424 -0.0083862 0.9998576 0.0083862 0.9998576 0.0083862 0.0001424 -0.0083862
6214580 0.0001395 -0.0081933 0.9998605 0.0081933 0.9998605 0.0081933 0.0001395 -0.0081933
6351220 0.0001368 -0.0080043 0.9998632 0.0080043 0.9998632 0.0080043 0.0001368 -0.0080043
6490864 0.0001342 -0.0078191 0.9998658 0.0078191 0.9998658 0.0078191 0.0001342 -0.0078191
6633579 0.0001317 -0.0076375 0.9998683 0.0076375 0.9998683 0.0076375 0.0001317 -0.0076375
6779431 0.0001294 -0.0074596 0.9998706 0.0074596 0.9998706 0.0074596 0.0001294 -0.0074596
6928491 0.0001272 -0.0072853 0.9998728 0.0072853 0.9998728 0.0072853 0.0001272 -0.0072853
7080828 0.0001251 -0.0071143 0.9998749 0.0071143 0.9998749 0.0071143 0.0001251 -0.0071143
7236514 0.0001231 -0.0069468 0.9998769 0.0069468 0.9998769 0.0069468 0.0001231 -0.0069468
7395623 0.0001212 -0.0067825 0.9998788 0.0067825 0.9998788 0.0067825 0.0001212 -0.0067825
7558231 0.0001195 -0.0066214 0.9998805 0.0066214 0.9998805 0.0066214 0.0001195 -0.0066214
7724414 0.0001178 -0.0064635 0.9998822 0.0064635 0.9998822 0.0064635 0.0001178 -0.0064635
7894251 0.0001162 -0.0063087 0.9998838 0.0063087 0.9998838 0.0063087 0.0001162 -0.0063087
8067822 0.0001147 -0.0061568 0.9998853 0.0061568 0.9998853 0.0061568 0.0001147 -0.0061568
8245209 0.0001133 -0.0060079 0.9998867 0.0060079 0.9998867 0.0060079 0.0001133 -0.0060079
8426497 0.0001120 -0.0058618 0.9998880 0.0058618 0.9998880 0.0058618 0.0001120 -0.0058618
8611770 0.0001108 -0.0057185 0.9998892 0.0057185 0.9998892 0.0057185 0.0001108 -0.0057185
8801117 0.0001097 -0.0055779 0.9998903 0.0055779 0.9998903 0.0055779 0.0001097 -0.0055779
8994628 0.0001086 -0.0054399 0.9998914 0.0054399 0.9998914 0.0054399 0.0001086 -0.0054399
9192393 0.0001076 -0.0053045 0.9998924 0.0053045 0.9998924 0.0053045 0.0001076 -0.0053045
9394506 0.0001067 -0.0051717 0.9998933 0.0051717 0.9998933 0.0051717 0.0001067 -0.0051717
9601063 0.0001059 -0.0050413 0.9998941 0.0050413 0.9998941 0.0050413 0.0001059 -0.0050413
9812162 0.0001051 -0.0049133 0.9998949 0.0049133 0.9998949 0.0049133 0.0001051 -0.0049133
10027902 0.0001044 -0.0047876 0.9998956 0.0047876 0.9998956 0.0047876 0.0001044 -0.0047876
10248386 0.0001038 -0.0046642 0.9998962 0.0046642 0.9998962 0.0046642 0.0001038 -0.0046642
10473717 0.0001032 -0.0045430 0.9998968 0.0045430 0.9998968 0.0045430 0.0001032 -0.0045430
10704003 0.0001027 -0.0044239 0.9998973 0.0044239 0.9998973 0.0044239 0.0001027 -0.0044239
10939352 0.0001023 -0.0043070 0.9998977 0.0043070 0.9998977 0.0043070 0.0001023 -0.0043070
11179876 0.0001019 -0.0041921 0.9998981 0.0041921 0.9998981 0.0041921 0.0001019 -0.0041921
11425688 0.0001015 -0.0040792 0.9998985 0.0040792 0.9998985 0.0040792 0.0001015 -0.0040792
11676904 0.0001013 -0.0039682 0.9998987 0.0039682 0.9998987 0.0039682 0.0001013 -0.0039682
11933645 0.0001010 -0.0038591 0.9998990 0.0038591 0.9998990 0.0038591 0.0001010 -0.0038591
12196030 0.0001009 -0.0037518 0.9998991 0.0037518 0.9998991 0.0037518 0.0001009 -0.0037518
12464184 0.0001008 -0.0036464 0.9998992 0.0036464 0.9998992 0.0036464 0.0001008 -0.0036464
12738235 0.0001007 -0.0035426 0.9998993 0.0035426 0.9998993 0.0035426 0.0001007 -0.0035426
13018310 0.0001007 -0.0034406 0.9998993 0.0034406 0.9998993 0.0034406 0.0001007 -0.0034406
13304544 0.0001007 -0.0033401 0.9998993 0.0033401 0.9998993 0.0033401 0.0001007 -0.0033401
13597071 0.0001008 -0.0032413 0.9998992 0.0032413 0.9998992 0.0032413 0.0001008 -0.0032413
13896030 0.0001010 -0.0031440 0.9998990 0.0031440 0.9998990 0.0031440 0.0001010 -0.0031440
14201563 0.0001011 -0.0030482 0.9998989 0.0030482 0.9998989 0.0030482 0.0001011 -0.0030482
14513813 0.0001014 -0.0029538 0.9998986 0.0029538 0.9998986 0.0029538 0.0001014 -0.0029538
14832928 0.0001017 -0.0028608 0.9998983 0.0028608 0.9998983 0.0028608 0.0001017 -0.0028608
15159060 0.0001020 -0.0027692 0.9998980 0.0027692 0.9998980 0.0027692 0.0001020 -0.0027692
15492362 0.0001024 -0.0026789 0.9998976 0.0026789 0.9998976 0.0026789 0.0001024 -0.0026789
15832993 0.0001028 -0.0025899 0.9998972 0.0025899 0.9998972 0.0025899 0.0001028 -0.0025899
16181113 0.0001033 -0.0025021 0.9998967 0.0025021 0.9998967 0.0025021 0.0001033 -0.0025021
16536888 0.0001038 -0.0024154 0.9998962 0.0024154 0.9998962 0.0024154 0.0001038 -0.0024154
16900485 0.0001044 -0.0023300 0.9998956 0.0023300 0.9998956 0.0023300 0.0001044 -0.0023300
17272076 0.0001050 -0.0022456 0.9998950 0.0022456 0.9998950 0.0022456 0.0001050 -0.0022456
17651837 0.0001057 -0.0021622 0.9998943 0.0021622 0.9998943 0.0021622 0.0001057 -0.0021622
18039948 0.0001064 -0.0020799 0.9998936 0.0020799 0.9998936 0.0020799 0.0001064 -0.0020799
18436593 0.0001072 -0.0019986 0.9998928 0.0019986 0.9998928 0.0019986 0.0001072 -0.0019986
18841959 0.0001080 -0.0019182 0.9998920 0.0019182 0.9998920 0.0019182 0.0001080 -0.0019182
19256237 0.0001089 -0.0018387 0.9998911 0.0018387 0.9998911 0.0018387 0.0001089 -0.0018387
19679624 0.0001098 -0.0017601 0.9998902 0.0017601 0.9998902 0.0017601 0.0001098 -0.0017601
20112321 0.0001108 -0.0016822 0.9998892 0.0016822 0.9998892 0.0016822 0.0001108 -0.0016822
20554530 0.0001119 -0.0016052 0.9998881 0.0016052 0.9998881 0.0016052 0.0001119 -0.0016052
21006463 0.0001130 -0.0015289 0.9998870 0.0015289 0.9998870 0.0015289 0.0001130 -0.0015289
21468333 0.0001142 -0.0014533 0.9998858 0.0014533 0.9998858 0.0014533 0.0001142 -0.0014533
21940357 0.0001154 -0.0013784 0.9998846 0.0013784 0.9998846 0.0013784 0.0001154 -0.0013784
22422760 0.0001167 -0.0013041 0.9998833 0.0013041 0.9998833 0.0013041 0.0001167 -0.0013041
22915770 0.0001181 -0.0012303 0.9998819 0.0012303 0.9998819 0.0012303 0.0001181 -0.0012303
23419619 0.0001195 -0.0011572 0.9998805 0.0011572 0.9998805 0.0011572 0.0001195 -0.0011572
23934547 0.0001211 -0.0010845 0.9998789 0.0010845 0.9998789 0.0010845 0.0001211 -0.0010845
24460796 0.0001227 -0.0010123 0.9998773 0.0010123 0.9998773 0.0010123 0.0001227 -0.0010123
24998616 0.0001243 -0.0009406 0.9998757 0.0009406 0.9998757 0.0009406 0.0001243 -0.0009406
25548261 0.0001261 -0.0008692 0.9998739 0.0008692 0.9998739 0.0008692 0.0001261 -0.0008692
26109991 0.0001280 -0.0007983 0.9998720 0.0007983 0.9998720 0.0007983 0.0001280 -0.0007983
26684072 0.0001299 -0.0007276 0.9998701 0.0007276 0.9998701 0.0007276 0.0001299 -0.0007276
27270775 0.0001319 -0.0006572 0.9998681 0.0006572 0.9998681 0.0006572 0.0001319 -0.0006572
27870378 0.0001341 -0.0005871 0.9998659 0.0005871 0.9998659 0.0005871 0.0001341 -0.0005871
28483164 0.0001363 -0.0005171 0.9998637 0.0005171 0.9998637 0.0005171 0.0001363 -0.0005171
29109424 0.0001387 -0.0004473 0.9998613 0.0004473 0.9998613 0.0004473 0.0001387 -0.0004473
29749453 0.0001412 -0.0003777 0.9998588 0.0003777 0.9998588 0.0003777 0.0001412 -0.0003777
30403555 0.0001438 -0.0003081 0.9998562 0.0003081 0.9998562 0.0003081 0.0001438 -0.0003081
31072038 0.0001465 -0.0002385 0.9998535 0.0002385 0.9998535 0.0002385 0.0001465 -0.0002385
31755220 0.0001494 -0.0001690 0.9998506 0.0001690 0.9998506 0.0001690 0.0001494 -0.0001690
32453422 0.0001525 -0.0000993 0.9998475 0.0000993 0.9998475 0.0000993 0.0001525 -0.0000993
33166976 0.0001557 -0.0000296 0.9998443 0.0000296 0.9998443 0.0000296 0.0001557 -0.0000296
33896219 0.0001590 0.0000403 0.9998410 -0.0000403 0.9998410 -0.0000403 0.0001590 0.0000403
34641496 0.0001626 0.0001104 0.9998374 -0.0001104 0.9998374 -0.0001104 0.0001626 0.0001104
35403159 0.0001663 0.0001807 0.9998337 -0.0001807 0.9998337 -0.0001807 0.0001663 0.0001807
36181569 0.0001703 0.0002513 0.9998297 -0.0002513 0.9998297 -0.0002513 0.0001703 0.0002513
36977093 0.0001744 0.0003224 0.9998256 -0.0003224 0.9998256 -0.0003224 0.0001744 0.0003224
37790109 0.0001789 0.0003938 0.9998211 -0.0003938 0.9998211 -0.0003938 0.0001789 0.0003938
38621001 0.0001836 0.0004658 0.9998164 -0.0004658 0.9998164 -0.0004658 0.0001836 0.0004658
39470161 0.0001885 0.0005383 0.9998115 -0.0005383 0.9998115 -0.0005383 0.0001885 0.0005383
40337993 0.0001938 0.0006114 0.9998062 -0.0006114 0.9998062 -0.0006114 0.0001938 0.0006114
41224905 0.0001994 0.0006853 0.9998006 -0.0006853 0.9998006 -0.0006853 0.0001994 0.0006853
42131317 0.0002054 0.0007600 0.9997946 -0.0007600 0.9997946 -0.0007600 0.0002054 0.0007600
43057659 0.0002119 0.0008356 0.9997881 -0.0008356 0.9997881 -0.0008356 0.0002119 0.0008356
44004369 0.0002187 0.0009123 0.9997813 -0.0009123 0.9997813 -0.0009123 0.0002187 0.0009123
44971893 0.0002262 0.0009901 0.9997738 -0.0009901 0.9997738 -0.0009901 0.0002262 0.0009901
45960691 0.0002342 0.0010691 0.9997658 -0.0010691 0.9997658 -0.0010691 0.0002342 0.0010691
46971230 0.0002429 0.0011496 0.9997571 -0.0011496 0.9997571 -0.0011496 0.0002429 0.0011496
48003987 0.0002523 0.0012317 0.9997477 -0.0012317 0.9997477 -0.0012317 0.0002523 0.0012317
49059451 0.0002627 0.0013156 0.9997373 -0.0013156 0.9997373 -0.0013156 0.0002627 0.0013156
50138122 0.0002741 0.0014015 0.9997259 -0.0014015 0.9997259 -0.0014015 0.0002741 0.0014015
51240510 0.0002869 0.0014898 0.9997131 -0.0014898 0.9997131 -0.0014898 0.0002869 0.0014898
52367136 0.0003011 0.0015807 0.9996989 -0.0015807 0.9996989 -0.0015807 0.0003011 0.0015807
53518533 0.0003173 0.0016747 0.9996827 -0.0016747 0.9996827 -0.0016747 0.0003173 0.0016747
54695245 0.0003358 0.0017721 0.9996642 -0.0017721 0.9996642 -0.0017721 0.0003358 0.0017721
55897831 0.0003574 0.0018737 0.9996426 -0.0018737 0.9996426 -0.0018737 0.0003574 0.0018737
57126857 0.0003828 0.0019800 0.9996172 -0.0019800 0.9996172 -0.0019800 0.0003828 0.0019800
58382906 0.0004135 0.0020918 0.9995865 -0.0020918 0.9995865 -0.0020918 0.0004135 0.0020918
59666572 0.0004514 0.0022102 0.9995486 -0.0022102 0.9995486 -0.0022102 0.0004514 0.0022102
60978462 0.0004992 0.0023361 0.9995008 -0.0023361 0.9995008 -0.0023361 0.0004992 0.0023361
62319196 0.0005614 0.0024705 0.9994386 -0.0024705 0.9994386 -0.0024705 0.0005614 0.0024705
63689409 0.0006450 0.0026135 0.9993550 -0.0026135 0.9993550 -0.0026135 0.0006450 0.0026135
65089750 0.0007609 0.0027631 0.9992391 -0.0027631 0.9992391 -0.0027631 0.0007609 0.0027631
66520879 0.0009261 0.0029104 0.9990739 -0.0029104 0.9990739 -0.0029104 0.0009261 0.0029104
67983474 0.0011627 0.0030300 0.9988373 -0.0030300 0.9988373 -0.0030300 0.0011627 0.0030300
69478228 0.0014834 0.0030604 0.9985166 -0.0030604 0.9985166 -0.0030604 0.0014834 0.0030604
71005847 0.0018330 0.0029005 0.9981670 -0.0029005 0.9981670 -0.0029005 0.0018330 0.0029005
72567054 0.0020216 0.0025195 0.9979784 -0.0025195 0.9979784 -0.0025195 0.0020216 0.0025195
74162587 0.0018938 0.0021276 0.9981062 -0.0021276 0.9981062 -0.0021276 0.0018938 0.0021276
75793201 0.0015839 0.0019539 0.9984161 -0.0019539 0.9984161 -0.0019539 0.0015839 0.0019539
77459667 0.0012930 0.0019853 0.9987070 -0.0019853 0.9987070 -0.0019853 0.0012930 0.0019853
79162774 0.0010875 0.0021193 0.9989125 -0.0021193 0.9989125 -0.0021193 0.0010875 0.0021193
80903327 0.0009583 0.0022900 0.9990417 -0.0022900 0.9990417 -0.0022900 0.0009583 0.0022900
82682150 0.0008832 0.0024696 0.9991168 -0.0024696 0.9991168 -0.0024696 0.0008832 0.0024696
84500083 0.0008458 0.0026489 0.9991542 -0.0026489 0.9991542 -0.0026489 0.0008458 0.0026489
86357988 0.0008356 0.0028258 0.9991644 -0.0028258 0.9991644 -0.0028258 0.0008356 0.0028258
88256743 0.0008470 0.0030008 0.9991530 -0.0030008 0.9991530 -0.0030008 0.0008470 0.0030008
90197245 0.0008776 0.0031752 0.9991224 -0.0031752 0.9991224 -0.0031752 0.0008776 0.0031752
92180413 0.0009273 0.0033503 0.9990727 -0.0033503 0.9990727 -0.0033503 0.0009273 0.0033503
94207185 0.0009984 0.0035268 0.9990016 -0.0035268 0.9990016 -0.0035268 0.0009984 0.0035268
96278520 0.0010952 0.0037043 0.9989048 -0.0037043 0.9989048 -0.0037043 0.0010952 0.0037043
98395398 0.0012247 0.0038801 0.9987753 -0.0038801 0.9987753 -0.0038801 0.0012247 0.0038801
100558819 0.0013963 0.0040473 0.9986037 -0.0040473 0.9986037 -0.0040473 0.0013963 0.0040473
102769807 0.0016212 0.0041907 0.9983788 -0.0041907 0.9983788 -0.0041907 0.0016212 0.0041907
105029408 0.0019076 0.0042814 0.9980924 -0.0042814 0.9980924 -0.0042814 0.0019076 0.0042814
107338692 0.0022467 0.0042726 0.9977533 -0.0042726 0.9977533 -0.0042726 0.0022467 0.0042726
