!Murata Part Number: GRM31C5C2J822JWA3
!These Parameters are Measured in Series Mode Connection
!Data Generated on Mar 30, 2021
!       o--ll--o
!Port1            Port2
!       o------o
!Operation Temp=25[degC], DC Bias Voltage=0[V]
!Freq. Start=100[kHz] Stop=1000[MHz] 401[Steps]
# Hz S RI R 50
!Freq.(Hz) S11(Real) S11(Imag) S21(Real) S21(Imag) S12(Real) S12(Imag) S22(Real) S22(Imag)
100000 0.7944393 -0.4026669 0.2055607 0.4026669 0.2055607 0.4026669 0.7944393 -0.4026669
102329 0.7868701 -0.4080981 0.2131299 0.4080981 0.2131299 0.4080981 0.7868701 -0.4080981
104713 0.7790978 -0.4134573 0.2209022 0.4134573 0.2209022 0.4134573 0.7790978 -0.4134573
107152 0.7711228 -0.4187358 0.2288772 0.4187358 0.2288772 0.4187358 0.7711228 -0.4187358
109648 0.7629456 -0.4239247 0.2370544 0.4239247 0.2370544 0.4239247 0.7629456 -0.4239247
112202 0.7545675 -0.4290150 0.2454325 0.4290150 0.2454325 0.4290150 0.7545675 -0.4290150
114815 0.7459900 -0.4339977 0.2540100 0.4339977 0.2540100 0.4339977 0.7459900 -0.4339977
117490 0.7372153 -0.4388635 0.2627847 0.4388635 0.2627847 0.4388635 0.7372153 -0.4388635
120226 0.7282461 -0.4436032 0.2717539 0.4436032 0.2717539 0.4436032 0.7282461 -0.4436032
123027 0.7190857 -0.4482075 0.2809143 0.4482075 0.2809143 0.4482075 0.7190857 -0.4482075
125893 0.7097377 -0.4526671 0.2902623 0.4526671 0.2902623 0.4526671 0.7097377 -0.4526671
128825 0.7002066 -0.4569730 0.2997934 0.4569730 0.2997934 0.4569730 0.7002066 -0.4569730
131826 0.6904973 -0.4611159 0.3095027 0.4611159 0.3095027 0.4611159 0.6904973 -0.4611159
134896 0.6806152 -0.4650869 0.3193848 0.4650869 0.3193848 0.4650869 0.6806152 -0.4650869
138038 0.6705664 -0.4688773 0.3294336 0.4688773 0.3294336 0.4688773 0.6705664 -0.4688773
141254 0.6603576 -0.4724785 0.3396424 0.4724785 0.3396424 0.4724785 0.6603576 -0.4724785
144544 0.6499958 -0.4758822 0.3500042 0.4758822 0.3500042 0.4758822 0.6499958 -0.4758822
147911 0.6394889 -0.4790804 0.3605111 0.4790804 0.3605111 0.4790804 0.6394889 -0.4790804
151356 0.6288451 -0.4820654 0.3711549 0.4820654 0.3711549 0.4820654 0.6288451 -0.4820654
154882 0.6180732 -0.4848302 0.3819268 0.4848302 0.3819268 0.4848302 0.6180732 -0.4848302
158489 0.6071824 -0.4873677 0.3928176 0.4873677 0.3928176 0.4873677 0.6071824 -0.4873677
162181 0.5961824 -0.4896718 0.4038176 0.4896718 0.4038176 0.4896718 0.5961824 -0.4896718
165959 0.5850835 -0.4917366 0.4149165 0.4917366 0.4149165 0.4917366 0.5850835 -0.4917366
169824 0.5738962 -0.4935568 0.4261038 0.4935568 0.4261038 0.4935568 0.5738962 -0.4935568
173780 0.5626314 -0.4951276 0.4373686 0.4951276 0.4373686 0.4951276 0.5626314 -0.4951276
177828 0.5513003 -0.4964451 0.4486997 0.4964451 0.4486997 0.4964451 0.5513003 -0.4964451
181970 0.5399144 -0.4975058 0.4600856 0.4975058 0.4600856 0.4975058 0.5399144 -0.4975058
186209 0.5284854 -0.4983067 0.4715146 0.4983067 0.4715146 0.4983067 0.5284854 -0.4983067
190546 0.5170253 -0.4988459 0.4829747 0.4988459 0.4829747 0.4988459 0.5170253 -0.4988459
194984 0.5055462 -0.4991218 0.4944538 0.4991218 0.4944538 0.4991218 0.5055462 -0.4991218
199526 0.4940601 -0.4991337 0.5059399 0.4991337 0.5059399 0.4991337 0.4940601 -0.4991337
204174 0.4825792 -0.4988815 0.5174208 0.4988815 0.5174208 0.4988815 0.4825792 -0.4988815
208930 0.4711157 -0.4983659 0.5288843 0.4983659 0.5288843 0.4983659 0.4711157 -0.4983659
213796 0.4596816 -0.4975882 0.5403184 0.4975882 0.5403184 0.4975882 0.4596816 -0.4975882
218776 0.4482888 -0.4965503 0.5517112 0.4965503 0.5517112 0.4965503 0.4482888 -0.4965503
223872 0.4369492 -0.4952551 0.5630508 0.4952551 0.5630508 0.4952551 0.4369492 -0.4952551
229087 0.4256743 -0.4937058 0.5743257 0.4937058 0.5743257 0.4937058 0.4256743 -0.4937058
234423 0.4144754 -0.4919065 0.5855246 0.4919065 0.5855246 0.4919065 0.4144754 -0.4919065
239883 0.4033634 -0.4898617 0.5966366 0.4898617 0.5966366 0.4898617 0.4033634 -0.4898617
245471 0.3923490 -0.4875766 0.6076510 0.4875766 0.6076510 0.4875766 0.3923490 -0.4875766
251189 0.3814424 -0.4850570 0.6185576 0.4850570 0.6185576 0.4850570 0.3814424 -0.4850570
257040 0.3706533 -0.4823090 0.6293467 0.4823090 0.6293467 0.4823090 0.3706533 -0.4823090
263027 0.3599913 -0.4793395 0.6400087 0.4793395 0.6400087 0.4793395 0.3599913 -0.4793395
269153 0.3494650 -0.4761555 0.6505350 0.4761555 0.6505350 0.4761555 0.3494650 -0.4761555
275423 0.3390830 -0.4727647 0.6609170 0.4727647 0.6609170 0.4727647 0.3390830 -0.4727647
281838 0.3288529 -0.4691750 0.6711471 0.4691750 0.6711471 0.4691750 0.3288529 -0.4691750
288403 0.3187822 -0.4653946 0.6812178 0.4653946 0.6812178 0.4653946 0.3187822 -0.4653946
295121 0.3088775 -0.4614321 0.6911225 0.4614321 0.6911225 0.4614321 0.3088775 -0.4614321
301995 0.2991450 -0.4572961 0.7008550 0.4572961 0.7008550 0.4572961 0.2991450 -0.4572961
309030 0.2895902 -0.4529956 0.7104098 0.4529956 0.7104098 0.4529956 0.2895902 -0.4529956
316228 0.2802183 -0.4485398 0.7197817 0.4485398 0.7197817 0.4485398 0.2802183 -0.4485398
323594 0.2710336 -0.4439376 0.7289664 0.4439376 0.7289664 0.4439376 0.2710336 -0.4439376
331131 0.2620401 -0.4391986 0.7379599 0.4391986 0.7379599 0.4391986 0.2620401 -0.4391986
338844 0.2532410 -0.4343318 0.7467590 0.4343318 0.7467590 0.4343318 0.2532410 -0.4343318
346737 0.2446392 -0.4293465 0.7553608 0.4293465 0.7553608 0.4293465 0.2446392 -0.4293465
354813 0.2362369 -0.4242521 0.7637631 0.4242521 0.7637631 0.4242521 0.2362369 -0.4242521
363078 0.2280358 -0.4190575 0.7719642 0.4190575 0.7719642 0.4190575 0.2280358 -0.4190575
371535 0.2200372 -0.4137719 0.7799628 0.4137719 0.7799628 0.4137719 0.2200372 -0.4137719
380189 0.2122418 -0.4084041 0.7877582 0.4084041 0.7877582 0.4084041 0.2122418 -0.4084041
389045 0.2046500 -0.4029628 0.7953500 0.4029628 0.7953500 0.4029628 0.2046500 -0.4029628
398107 0.1972616 -0.3974567 0.8027384 0.3974567 0.8027384 0.3974567 0.1972616 -0.3974567
407380 0.1900760 -0.3918940 0.8099240 0.3918940 0.8099240 0.3918940 0.1900760 -0.3918940
416869 0.1830924 -0.3862828 0.8169076 0.3862828 0.8169076 0.3862828 0.1830924 -0.3862828
426580 0.1763094 -0.3806311 0.8236906 0.3806311 0.8236906 0.3806311 0.1763094 -0.3806311
436516 0.1697254 -0.3749463 0.8302746 0.3749463 0.8302746 0.3749463 0.1697254 -0.3749463
446684 0.1633384 -0.3692359 0.8366616 0.3692359 0.8366616 0.3692359 0.1633384 -0.3692359
457088 0.1571461 -0.3635070 0.8428539 0.3635070 0.8428539 0.3635070 0.1571461 -0.3635070
467735 0.1511462 -0.3577663 0.8488538 0.3577663 0.8488538 0.3577663 0.1511462 -0.3577663
478630 0.1453358 -0.3520202 0.8546642 0.3520202 0.8546642 0.3520202 0.1453358 -0.3520202
489779 0.1397119 -0.3462751 0.8602881 0.3462751 0.8602881 0.3462751 0.1397119 -0.3462751
501187 0.1342714 -0.3405367 0.8657286 0.3405367 0.8657286 0.3405367 0.1342714 -0.3405367
512861 0.1290110 -0.3348107 0.8709890 0.3348107 0.8709890 0.3348107 0.1290110 -0.3348107
524807 0.1239272 -0.3291024 0.8760728 0.3291024 0.8760728 0.3291024 0.1239272 -0.3291024
537032 0.1190163 -0.3234168 0.8809837 0.3234168 0.8809837 0.3234168 0.1190163 -0.3234168
549541 0.1142746 -0.3177586 0.8857254 0.3177586 0.8857254 0.3177586 0.1142746 -0.3177586
562341 0.1096983 -0.3121322 0.8903017 0.3121322 0.8903017 0.3121322 0.1096983 -0.3121322
575440 0.1052835 -0.3065418 0.8947165 0.3065418 0.8947165 0.3065418 0.1052835 -0.3065418
588844 0.1010262 -0.3009913 0.8989738 0.3009913 0.8989738 0.3009913 0.1010262 -0.3009913
602560 0.0969224 -0.2954842 0.9030776 0.2954842 0.9030776 0.2954842 0.0969224 -0.2954842
616595 0.0929681 -0.2900238 0.9070319 0.2900238 0.9070319 0.2900238 0.0929681 -0.2900238
630957 0.0891592 -0.2846134 0.9108408 0.2846134 0.9108408 0.2846134 0.0891592 -0.2846134
645654 0.0854917 -0.2792556 0.9145083 0.2792556 0.9145083 0.2792556 0.0854917 -0.2792556
660693 0.0819615 -0.2739531 0.9180385 0.2739531 0.9180385 0.2739531 0.0819615 -0.2739531
676083 0.0785646 -0.2687083 0.9214354 0.2687083 0.9214354 0.2687083 0.0785646 -0.2687083
691831 0.0752969 -0.2635232 0.9247031 0.2635232 0.9247031 0.2635232 0.0752969 -0.2635232
707946 0.0721546 -0.2584000 0.9278454 0.2584000 0.9278454 0.2584000 0.0721546 -0.2584000
724436 0.0691336 -0.2533402 0.9308664 0.2533402 0.9308664 0.2533402 0.0691336 -0.2533402
741310 0.0662301 -0.2483455 0.9337699 0.2483455 0.9337699 0.2483455 0.0662301 -0.2483455
758578 0.0634403 -0.2434173 0.9365597 0.2434173 0.9365597 0.2434173 0.0634403 -0.2434173
776247 0.0607605 -0.2385566 0.9392395 0.2385566 0.9392395 0.2385566 0.0607605 -0.2385566
794328 0.0581868 -0.2337645 0.9418132 0.2337645 0.9418132 0.2337645 0.0581868 -0.2337645
812831 0.0557158 -0.2290420 0.9442842 0.2290420 0.9442842 0.2290420 0.0557158 -0.2290420
831764 0.0533438 -0.2243897 0.9466562 0.2243897 0.9466562 0.2243897 0.0533438 -0.2243897
851138 0.0510673 -0.2198082 0.9489327 0.2198082 0.9489327 0.2198082 0.0510673 -0.2198082
870964 0.0488831 -0.2152981 0.9511169 0.2152981 0.9511169 0.2152981 0.0488831 -0.2152981
891251 0.0467877 -0.2108595 0.9532123 0.2108595 0.9532123 0.2108595 0.0467877 -0.2108595
912011 0.0447780 -0.2064928 0.9552220 0.2064928 0.9552220 0.2064928 0.0447780 -0.2064928
933254 0.0428508 -0.2021980 0.9571492 0.2021980 0.9571492 0.2021980 0.0428508 -0.2021980
954993 0.0410031 -0.1979752 0.9589969 0.1979752 0.9589969 0.1979752 0.0410031 -0.1979752
977237 0.0392318 -0.1938244 0.9607682 0.1938244 0.9607682 0.1938244 0.0392318 -0.1938244
1000000 0.0375341 -0.1897452 0.9624659 0.1897452 0.9624659 0.1897452 0.0375341 -0.1897452
1023293 0.0359072 -0.1857375 0.9640928 0.1857375 0.9640928 0.1857375 0.0359072 -0.1857375
1047129 0.0343483 -0.1818010 0.9656517 0.1818010 0.9656517 0.1818010 0.0343483 -0.1818010
1071519 0.0328549 -0.1779353 0.9671451 0.1779353 0.9671451 0.1779353 0.0328549 -0.1779353
1096478 0.0314244 -0.1741398 0.9685756 0.1741398 0.9685756 0.1741398 0.0314244 -0.1741398
1122018 0.0300543 -0.1704142 0.9699457 0.1704142 0.9699457 0.1704142 0.0300543 -0.1704142
1148154 0.0287422 -0.1667579 0.9712578 0.1667579 0.9712578 0.1667579 0.0287422 -0.1667579
1174898 0.0274859 -0.1631702 0.9725141 0.1631702 0.9725141 0.1631702 0.0274859 -0.1631702
1202264 0.0262831 -0.1596505 0.9737169 0.1596505 0.9737169 0.1596505 0.0262831 -0.1596505
1230269 0.0251316 -0.1561981 0.9748684 0.1561981 0.9748684 0.1561981 0.0251316 -0.1561981
1258925 0.0240294 -0.1528122 0.9759706 0.1528122 0.9759706 0.1528122 0.0240294 -0.1528122
1288250 0.0229744 -0.1494922 0.9770256 0.1494922 0.9770256 0.1494922 0.0229744 -0.1494922
1318257 0.0219649 -0.1462371 0.9780351 0.1462371 0.9780351 0.1462371 0.0219649 -0.1462371
1348963 0.0209988 -0.1430463 0.9790012 0.1430463 0.9790012 0.1430463 0.0209988 -0.1430463
1380384 0.0200744 -0.1399188 0.9799256 0.1399188 0.9799256 0.1399188 0.0200744 -0.1399188
1412538 0.0191899 -0.1368538 0.9808101 0.1368538 0.9808101 0.1368538 0.0191899 -0.1368538
1445440 0.0183438 -0.1338504 0.9816562 0.1338504 0.9816562 0.1338504 0.0183438 -0.1338504
1479108 0.0175344 -0.1309078 0.9824656 0.1309078 0.9824656 0.1309078 0.0175344 -0.1309078
1513561 0.0167602 -0.1280250 0.9832398 0.1280250 0.9832398 0.1280250 0.0167602 -0.1280250
1548817 0.0160197 -0.1252011 0.9839803 0.1252011 0.9839803 0.1252011 0.0160197 -0.1252011
1584893 0.0153115 -0.1224353 0.9846885 0.1224353 0.9846885 0.1224353 0.0153115 -0.1224353
1621810 0.0146342 -0.1197265 0.9853658 0.1197265 0.9853658 0.1197265 0.0146342 -0.1197265
1659587 0.0139865 -0.1170739 0.9860135 0.1170739 0.9860135 0.1170739 0.0139865 -0.1170739
1698244 0.0133672 -0.1144765 0.9866328 0.1144765 0.9866328 0.1144765 0.0133672 -0.1144765
1737801 0.0127750 -0.1119334 0.9872250 0.1119334 0.9872250 0.1119334 0.0127750 -0.1119334
1778279 0.0122088 -0.1094436 0.9877912 0.1094436 0.9877912 0.1094436 0.0122088 -0.1094436
1819701 0.0116675 -0.1070063 0.9883325 0.1070063 0.9883325 0.1070063 0.0116675 -0.1070063
1862087 0.0111500 -0.1046205 0.9888500 0.1046205 0.9888500 0.1046205 0.0111500 -0.1046205
1905461 0.0106553 -0.1022852 0.9893447 0.1022852 0.9893447 0.1022852 0.0106553 -0.1022852
1949845 0.0101824 -0.0999996 0.9898176 0.0999996 0.9898176 0.0999996 0.0101824 -0.0999996
1995262 0.0097304 -0.0977628 0.9902696 0.0977628 0.9902696 0.0977628 0.0097304 -0.0977628
2041738 0.0092983 -0.0955738 0.9907017 0.0955738 0.9907017 0.0955738 0.0092983 -0.0955738
2089296 0.0088853 -0.0934317 0.9911147 0.0934317 0.9911147 0.0934317 0.0088853 -0.0934317
2137962 0.0084906 -0.0913357 0.9915094 0.0913357 0.9915094 0.0913357 0.0084906 -0.0913357
2187762 0.0081134 -0.0892849 0.9918866 0.0892849 0.9918866 0.0892849 0.0081134 -0.0892849
2238721 0.0077529 -0.0872784 0.9922471 0.0872784 0.9922471 0.0872784 0.0077529 -0.0872784
2290868 0.0074084 -0.0853153 0.9925916 0.0853153 0.9925916 0.0853153 0.0074084 -0.0853153
2344229 0.0070792 -0.0833947 0.9929208 0.0833947 0.9929208 0.0833947 0.0070792 -0.0833947
2398833 0.0067646 -0.0815160 0.9932354 0.0815160 0.9932354 0.0815160 0.0067646 -0.0815160
2454709 0.0064639 -0.0796781 0.9935361 0.0796781 0.9935361 0.0796781 0.0064639 -0.0796781
2511886 0.0061767 -0.0778803 0.9938233 0.0778803 0.9938233 0.0778803 0.0061767 -0.0778803
2570396 0.0059022 -0.0761217 0.9940978 0.0761217 0.9940978 0.0761217 0.0059022 -0.0761217
2630268 0.0056400 -0.0744017 0.9943600 0.0744017 0.9943600 0.0744017 0.0056400 -0.0744017
2691535 0.0053894 -0.0727193 0.9946106 0.0727193 0.9946106 0.0727193 0.0053894 -0.0727193
2754229 0.0051500 -0.0710738 0.9948500 0.0710738 0.9948500 0.0710738 0.0051500 -0.0710738
2818383 0.0049213 -0.0694645 0.9950787 0.0694645 0.9950787 0.0694645 0.0049213 -0.0694645
2884032 0.0047028 -0.0678906 0.9952972 0.0678906 0.9952972 0.0678906 0.0047028 -0.0678906
2951209 0.0044940 -0.0663513 0.9955060 0.0663513 0.9955060 0.0663513 0.0044940 -0.0663513
3019952 0.0042946 -0.0648459 0.9957054 0.0648459 0.9957054 0.0648459 0.0042946 -0.0648459
3090295 0.0041041 -0.0633738 0.9958959 0.0633738 0.9958959 0.0633738 0.0041041 -0.0633738
3162278 0.0039221 -0.0619342 0.9960779 0.0619342 0.9960779 0.0619342 0.0039221 -0.0619342
3235937 0.0037482 -0.0605264 0.9962518 0.0605264 0.9962518 0.0605264 0.0037482 -0.0605264
3311311 0.0035822 -0.0591497 0.9964178 0.0591497 0.9964178 0.0591497 0.0035822 -0.0591497
3388442 0.0034235 -0.0578035 0.9965765 0.0578035 0.9965765 0.0578035 0.0034235 -0.0578035
3467369 0.0032720 -0.0564872 0.9967280 0.0564872 0.9967280 0.0564872 0.0032720 -0.0564872
3548134 0.0031273 -0.0552000 0.9968727 0.0552000 0.9968727 0.0552000 0.0031273 -0.0552000
3630781 0.0029891 -0.0539413 0.9970109 0.0539413 0.9970109 0.0539413 0.0029891 -0.0539413
3715352 0.0028570 -0.0527106 0.9971430 0.0527106 0.9971430 0.0527106 0.0028570 -0.0527106
3801894 0.0027309 -0.0515072 0.9972691 0.0515072 0.9972691 0.0515072 0.0027309 -0.0515072
3890451 0.0026105 -0.0503306 0.9973895 0.0503306 0.9973895 0.0503306 0.0026105 -0.0503306
3981072 0.0024955 -0.0491800 0.9975045 0.0491800 0.9975045 0.0491800 0.0024955 -0.0491800
4073803 0.0023856 -0.0480551 0.9976144 0.0480551 0.9976144 0.0480551 0.0023856 -0.0480551
4168694 0.0022807 -0.0469551 0.9977193 0.0469551 0.9977193 0.0469551 0.0022807 -0.0469551
4265795 0.0021805 -0.0458796 0.9978195 0.0458796 0.9978195 0.0458796 0.0021805 -0.0458796
4365158 0.0020849 -0.0448280 0.9979151 0.0448280 0.9979151 0.0448280 0.0020849 -0.0448280
4466836 0.0019935 -0.0437998 0.9980065 0.0437998 0.9980065 0.0437998 0.0019935 -0.0437998
4570882 0.0019063 -0.0427945 0.9980937 0.0427945 0.9980937 0.0427945 0.0019063 -0.0427945
4677351 0.0018230 -0.0418115 0.9981770 0.0418115 0.9981770 0.0418115 0.0018230 -0.0418115
4786301 0.0017435 -0.0408503 0.9982565 0.0408503 0.9982565 0.0408503 0.0017435 -0.0408503
4897788 0.0016676 -0.0399106 0.9983324 0.0399106 0.9983324 0.0399106 0.0016676 -0.0399106
5011872 0.0015951 -0.0389917 0.9984049 0.0389917 0.9984049 0.0389917 0.0015951 -0.0389917
5128614 0.0015259 -0.0380933 0.9984741 0.0380933 0.9984741 0.0380933 0.0015259 -0.0380933
5248075 0.0014598 -0.0372148 0.9985402 0.0372148 0.9985402 0.0372148 0.0014598 -0.0372148
5370318 0.0013968 -0.0363558 0.9986032 0.0363558 0.9986032 0.0363558 0.0013968 -0.0363558
5495409 0.0013366 -0.0355159 0.9986634 0.0355159 0.9986634 0.0355159 0.0013366 -0.0355159
5623413 0.0012791 -0.0346947 0.9987209 0.0346947 0.9987209 0.0346947 0.0012791 -0.0346947
5754399 0.0012243 -0.0338917 0.9987757 0.0338917 0.9987757 0.0338917 0.0012243 -0.0338917
5888437 0.0011719 -0.0331065 0.9988281 0.0331065 0.9988281 0.0331065 0.0011719 -0.0331065
6025596 0.0011220 -0.0323387 0.9988780 0.0323387 0.9988780 0.0323387 0.0011220 -0.0323387
6165950 0.0010743 -0.0315879 0.9989257 0.0315879 0.9989257 0.0315879 0.0010743 -0.0315879
6309573 0.0010288 -0.0308537 0.9989712 0.0308537 0.9989712 0.0308537 0.0010288 -0.0308537
6456542 0.0009855 -0.0301358 0.9990145 0.0301358 0.9990145 0.0301358 0.0009855 -0.0301358
6606934 0.0009441 -0.0294338 0.9990559 0.0294338 0.9990559 0.0294338 0.0009441 -0.0294338
6760830 0.0009046 -0.0287472 0.9990954 0.0287472 0.9990954 0.0287472 0.0009046 -0.0287472
6918310 0.0008669 -0.0280759 0.9991331 0.0280759 0.9991331 0.0280759 0.0008669 -0.0280759
7079458 0.0008310 -0.0274193 0.9991690 0.0274193 0.9991690 0.0274193 0.0008310 -0.0274193
7244360 0.0007968 -0.0267772 0.9992032 0.0267772 0.9992032 0.0267772 0.0007968 -0.0267772
7413102 0.0007641 -0.0261492 0.9992359 0.0261492 0.9992359 0.0261492 0.0007641 -0.0261492
7585776 0.0007330 -0.0255350 0.9992670 0.0255350 0.9992670 0.0255350 0.0007330 -0.0255350
7762471 0.0007033 -0.0249343 0.9992967 0.0249343 0.9992967 0.0249343 0.0007033 -0.0249343
7943282 0.0006751 -0.0243468 0.9993249 0.0243468 0.9993249 0.0243468 0.0006751 -0.0243468
8128305 0.0006481 -0.0237722 0.9993519 0.0237722 0.9993519 0.0237722 0.0006481 -0.0237722
8317638 0.0006225 -0.0232101 0.9993775 0.0232101 0.9993775 0.0232101 0.0006225 -0.0232101
8511380 0.0005980 -0.0226603 0.9994020 0.0226603 0.9994020 0.0226603 0.0005980 -0.0226603
8709636 0.0005747 -0.0221225 0.9994253 0.0221225 0.9994253 0.0221225 0.0005747 -0.0221225
8912509 0.0005525 -0.0215964 0.9994475 0.0215964 0.9994475 0.0215964 0.0005525 -0.0215964
9120108 0.0005314 -0.0210817 0.9994686 0.0210817 0.9994686 0.0210817 0.0005314 -0.0210817
9332543 0.0005114 -0.0205782 0.9994886 0.0205782 0.9994886 0.0205782 0.0005114 -0.0205782
9549926 0.0004922 -0.0200856 0.9995078 0.0200856 0.9995078 0.0200856 0.0004922 -0.0200856
9772372 0.0004741 -0.0196037 0.9995259 0.0196037 0.9995259 0.0196037 0.0004741 -0.0196037
10000000 0.0004568 -0.0191321 0.9995432 0.0191321 0.9995432 0.0191321 0.0004568 -0.0191321
10232930 0.0004404 -0.0186707 0.9995596 0.0186707 0.9995596 0.0186707 0.0004404 -0.0186707
10471285 0.0004247 -0.0182192 0.9995753 0.0182192 0.9995753 0.0182192 0.0004247 -0.0182192
10715193 0.0004099 -0.0177774 0.9995901 0.0177774 0.9995901 0.0177774 0.0004099 -0.0177774
10964782 0.0003958 -0.0173450 0.9996042 0.0173450 0.9996042 0.0173450 0.0003958 -0.0173450
11220185 0.0003824 -0.0169218 0.9996176 0.0169218 0.9996176 0.0169218 0.0003824 -0.0169218
11481536 0.0003698 -0.0165077 0.9996302 0.0165077 0.9996302 0.0165077 0.0003698 -0.0165077
11748976 0.0003577 -0.0161022 0.9996423 0.0161022 0.9996423 0.0161022 0.0003577 -0.0161022
12022644 0.0003463 -0.0157054 0.9996537 0.0157054 0.9996537 0.0157054 0.0003463 -0.0157054
12302688 0.0003355 -0.0153169 0.9996645 0.0153169 0.9996645 0.0153169 0.0003355 -0.0153169
12589254 0.0003253 -0.0149366 0.9996747 0.0149366 0.9996747 0.0149366 0.0003253 -0.0149366
12882496 0.0003156 -0.0145642 0.9996844 0.0145642 0.9996844 0.0145642 0.0003156 -0.0145642
13182567 0.0003064 -0.0141996 0.9996936 0.0141996 0.9996936 0.0141996 0.0003064 -0.0141996
13489629 0.0002978 -0.0138425 0.9997022 0.0138425 0.9997022 0.0138425 0.0002978 -0.0138425
13803843 0.0002896 -0.0134928 0.9997104 0.0134928 0.9997104 0.0134928 0.0002896 -0.0134928
14125375 0.0002818 -0.0131503 0.9997182 0.0131503 0.9997182 0.0131503 0.0002818 -0.0131503
14454398 0.0002746 -0.0128148 0.9997254 0.0128148 0.9997254 0.0128148 0.0002746 -0.0128148
14791084 0.0002677 -0.0124862 0.9997323 0.0124862 0.9997323 0.0124862 0.0002677 -0.0124862
