!Murata Part Number: GRM31C1X2A683JA01
!These Parameters are Measured in Series Mode Connection
!Data Generated on Mar 30, 2021
!       o--ll--o
!Port1            Port2
!       o------o
!Operation Temp=25[degC], DC Bias Voltage=0[V]
!Freq. Start=1000[kHz] Stop=6[GHz] 401[Steps]
# Hz S RI R 50
!Freq.(Hz) S11(Real) S11(Imag) S21(Real) S21(Imag) S12(Real) S12(Imag) S22(Real) S22(Imag)
1000000 0.0006731 -0.0244189 0.9993269 0.0244189 0.9993269 0.0244189 0.0006731 -0.0244189
1021987 0.0006476 -0.0238911 0.9993524 0.0238911 0.9993524 0.0238911 0.0006476 -0.0238911
1044457 0.0006232 -0.0233745 0.9993768 0.0233745 0.9993768 0.0233745 0.0006232 -0.0233745
1067422 0.0005998 -0.0228689 0.9994002 0.0228689 0.9994002 0.0228689 0.0005998 -0.0228689
1090891 0.0005774 -0.0223741 0.9994226 0.0223741 0.9994226 0.0223741 0.0005774 -0.0223741
1114877 0.0005560 -0.0218899 0.9994440 0.0218899 0.9994440 0.0218899 0.0005560 -0.0218899
1139390 0.0005355 -0.0214160 0.9994645 0.0214160 0.9994645 0.0214160 0.0005355 -0.0214160
1164441 0.0005158 -0.0209521 0.9994842 0.0209521 0.9994842 0.0209521 0.0005158 -0.0209521
1190044 0.0004970 -0.0204981 0.9995030 0.0204981 0.9995030 0.0204981 0.0004970 -0.0204981
1216210 0.0004790 -0.0200538 0.9995210 0.0200538 0.9995210 0.0200538 0.0004790 -0.0200538
1242950 0.0004618 -0.0196190 0.9995382 0.0196190 0.9995382 0.0196190 0.0004618 -0.0196190
1270279 0.0004453 -0.0191934 0.9995547 0.0191934 0.9995547 0.0191934 0.0004453 -0.0191934
1298209 0.0004295 -0.0187768 0.9995705 0.0187768 0.9995705 0.0187768 0.0004295 -0.0187768
1326753 0.0004144 -0.0183692 0.9995856 0.0183692 0.9995856 0.0183692 0.0004144 -0.0183692
1355924 0.0003999 -0.0179701 0.9996001 0.0179701 0.9996001 0.0179701 0.0003999 -0.0179701
1385737 0.0003860 -0.0175796 0.9996140 0.0175796 0.9996140 0.0175796 0.0003860 -0.0175796
1416205 0.0003728 -0.0171973 0.9996272 0.0171973 0.9996272 0.0171973 0.0003728 -0.0171973
1447343 0.0003601 -0.0168232 0.9996399 0.0168232 0.9996399 0.0168232 0.0003601 -0.0168232
1479166 0.0003479 -0.0164570 0.9996521 0.0164570 0.9996521 0.0164570 0.0003479 -0.0164570
1511688 0.0003363 -0.0160986 0.9996637 0.0160986 0.9996637 0.0160986 0.0003363 -0.0160986
1544926 0.0003252 -0.0157477 0.9996748 0.0157477 0.9996748 0.0157477 0.0003252 -0.0157477
1578894 0.0003145 -0.0154043 0.9996855 0.0154043 0.9996855 0.0154043 0.0003145 -0.0154043
1613609 0.0003043 -0.0150682 0.9996957 0.0150682 0.9996957 0.0150682 0.0003043 -0.0150682
1649087 0.0002946 -0.0147392 0.9997054 0.0147392 0.9997054 0.0147392 0.0002946 -0.0147392
1685346 0.0002852 -0.0144172 0.9997148 0.0144172 0.9997148 0.0144172 0.0002852 -0.0144172
1722402 0.0002763 -0.0141019 0.9997237 0.0141019 0.9997237 0.0141019 0.0002763 -0.0141019
1760272 0.0002677 -0.0137934 0.9997323 0.0137934 0.9997323 0.0137934 0.0002677 -0.0137934
1798975 0.0002595 -0.0134913 0.9997405 0.0134913 0.9997405 0.0134913 0.0002595 -0.0134913
1838529 0.0002517 -0.0131956 0.9997483 0.0131956 0.9997483 0.0131956 0.0002517 -0.0131956
1878953 0.0002442 -0.0129062 0.9997558 0.0129062 0.9997558 0.0129062 0.0002442 -0.0129062
1920266 0.0002371 -0.0126228 0.9997629 0.0126228 0.9997629 0.0126228 0.0002371 -0.0126228
1962487 0.0002302 -0.0123454 0.9997698 0.0123454 0.9997698 0.0123454 0.0002302 -0.0123454
2005636 0.0002237 -0.0120738 0.9997763 0.0120738 0.9997763 0.0120738 0.0002237 -0.0120738
2049734 0.0002174 -0.0118080 0.9997826 0.0118080 0.9997826 0.0118080 0.0002174 -0.0118080
2094801 0.0002114 -0.0115477 0.9997886 0.0115477 0.9997886 0.0115477 0.0002114 -0.0115477
2140860 0.0002056 -0.0112929 0.9997944 0.0112929 0.9997944 0.0112929 0.0002056 -0.0112929
2187931 0.0002002 -0.0110434 0.9997998 0.0110434 0.9997998 0.0110434 0.0002002 -0.0110434
2236037 0.0001949 -0.0107991 0.9998051 0.0107991 0.9998051 0.0107991 0.0001949 -0.0107991
2285201 0.0001899 -0.0105600 0.9998101 0.0105600 0.9998101 0.0105600 0.0001899 -0.0105600
2335446 0.0001851 -0.0103258 0.9998149 0.0103258 0.9998149 0.0103258 0.0001851 -0.0103258
2386795 0.0001806 -0.0100965 0.9998194 0.0100965 0.9998194 0.0100965 0.0001806 -0.0100965
2439274 0.0001762 -0.0098720 0.9998238 0.0098720 0.9998238 0.0098720 0.0001762 -0.0098720
2492906 0.0001720 -0.0096522 0.9998280 0.0096522 0.9998280 0.0096522 0.0001720 -0.0096522
2547717 0.0001680 -0.0094369 0.9998320 0.0094369 0.9998320 0.0094369 0.0001680 -0.0094369
2603734 0.0001642 -0.0092261 0.9998358 0.0092261 0.9998358 0.0092261 0.0001642 -0.0092261
2660982 0.0001606 -0.0090196 0.9998394 0.0090196 0.9998394 0.0090196 0.0001606 -0.0090196
2719490 0.0001571 -0.0088174 0.9998429 0.0088174 0.9998429 0.0088174 0.0001571 -0.0088174
2779283 0.0001538 -0.0086194 0.9998462 0.0086194 0.9998462 0.0086194 0.0001538 -0.0086194
2840391 0.0001506 -0.0084255 0.9998494 0.0084255 0.9998494 0.0084255 0.0001506 -0.0084255
2902843 0.0001476 -0.0082355 0.9998524 0.0082355 0.9998524 0.0082355 0.0001476 -0.0082355
2966668 0.0001448 -0.0080494 0.9998552 0.0080494 0.9998552 0.0080494 0.0001448 -0.0080494
3031896 0.0001420 -0.0078672 0.9998580 0.0078672 0.9998580 0.0078672 0.0001420 -0.0078672
3098558 0.0001394 -0.0076886 0.9998606 0.0076886 0.9998606 0.0076886 0.0001394 -0.0076886
3166686 0.0001369 -0.0075137 0.9998631 0.0075137 0.9998631 0.0075137 0.0001369 -0.0075137
3236312 0.0001346 -0.0073424 0.9998654 0.0073424 0.9998654 0.0073424 0.0001346 -0.0073424
3307469 0.0001323 -0.0071745 0.9998677 0.0071745 0.9998677 0.0071745 0.0001323 -0.0071745
3380190 0.0001302 -0.0070101 0.9998698 0.0070101 0.9998698 0.0070101 0.0001302 -0.0070101
3454511 0.0001282 -0.0068489 0.9998718 0.0068489 0.9998718 0.0068489 0.0001282 -0.0068489
3530465 0.0001263 -0.0066910 0.9998737 0.0066910 0.9998737 0.0066910 0.0001263 -0.0066910
3608090 0.0001245 -0.0065363 0.9998755 0.0065363 0.9998755 0.0065363 0.0001245 -0.0065363
3687421 0.0001227 -0.0063846 0.9998773 0.0063846 0.9998773 0.0063846 0.0001227 -0.0063846
3768496 0.0001211 -0.0062360 0.9998789 0.0062360 0.9998789 0.0062360 0.0001211 -0.0062360
3851354 0.0001196 -0.0060903 0.9998804 0.0060903 0.9998804 0.0060903 0.0001196 -0.0060903
3936034 0.0001181 -0.0059475 0.9998819 0.0059475 0.9998819 0.0059475 0.0001181 -0.0059475
4022575 0.0001168 -0.0058075 0.9998832 0.0058075 0.9998832 0.0058075 0.0001168 -0.0058075
4111020 0.0001155 -0.0056703 0.9998845 0.0056703 0.9998845 0.0056703 0.0001155 -0.0056703
4201409 0.0001143 -0.0055358 0.9998857 0.0055358 0.9998857 0.0055358 0.0001143 -0.0055358
4293785 0.0001131 -0.0054039 0.9998869 0.0054039 0.9998869 0.0054039 0.0001131 -0.0054039
4388193 0.0001121 -0.0052745 0.9998879 0.0052745 0.9998879 0.0052745 0.0001121 -0.0052745
4484676 0.0001111 -0.0051477 0.9998889 0.0051477 0.9998889 0.0051477 0.0001111 -0.0051477
4583281 0.0001102 -0.0050233 0.9998898 0.0050233 0.9998898 0.0050233 0.0001102 -0.0050233
4684054 0.0001093 -0.0049012 0.9998907 0.0049012 0.9998907 0.0049012 0.0001093 -0.0049012
4787042 0.0001085 -0.0047815 0.9998915 0.0047815 0.9998915 0.0047815 0.0001085 -0.0047815
4892295 0.0001078 -0.0046641 0.9998922 0.0046641 0.9998922 0.0046641 0.0001078 -0.0046641
4999862 0.0001071 -0.0045489 0.9998929 0.0045489 0.9998929 0.0045489 0.0001071 -0.0045489
5109794 0.0001065 -0.0044358 0.9998935 0.0044358 0.9998935 0.0044358 0.0001065 -0.0044358
5222143 0.0001060 -0.0043249 0.9998940 0.0043249 0.9998940 0.0043249 0.0001060 -0.0043249
5336962 0.0001055 -0.0042160 0.9998945 0.0042160 0.9998945 0.0042160 0.0001055 -0.0042160
5454306 0.0001050 -0.0041091 0.9998950 0.0041091 0.9998950 0.0041091 0.0001050 -0.0041091
5574230 0.0001046 -0.0040041 0.9998954 0.0040041 0.9998954 0.0040041 0.0001046 -0.0040041
5696791 0.0001043 -0.0039011 0.9998957 0.0039011 0.9998957 0.0039011 0.0001043 -0.0039011
5822046 0.0001040 -0.0037999 0.9998960 0.0037999 0.9998960 0.0037999 0.0001040 -0.0037999
5950055 0.0001038 -0.0037005 0.9998962 0.0037005 0.9998962 0.0037005 0.0001038 -0.0037005
6080879 0.0001036 -0.0036029 0.9998964 0.0036029 0.9998964 0.0036029 0.0001036 -0.0036029
6214580 0.0001035 -0.0035070 0.9998965 0.0035070 0.9998965 0.0035070 0.0001035 -0.0035070
6351220 0.0001034 -0.0034127 0.9998966 0.0034127 0.9998966 0.0034127 0.0001034 -0.0034127
6490864 0.0001033 -0.0033201 0.9998967 0.0033201 0.9998967 0.0033201 0.0001033 -0.0033201
6633579 0.0001033 -0.0032291 0.9998967 0.0032291 0.9998967 0.0032291 0.0001033 -0.0032291
6779431 0.0001034 -0.0031396 0.9998966 0.0031396 0.9998966 0.0031396 0.0001034 -0.0031396
6928491 0.0001035 -0.0030516 0.9998965 0.0030516 0.9998965 0.0030516 0.0001035 -0.0030516
7080828 0.0001036 -0.0029651 0.9998964 0.0029651 0.9998964 0.0029651 0.0001036 -0.0029651
7236514 0.0001038 -0.0028799 0.9998962 0.0028799 0.9998962 0.0028799 0.0001038 -0.0028799
7395623 0.0001040 -0.0027962 0.9998960 0.0027962 0.9998960 0.0027962 0.0001040 -0.0027962
7558231 0.0001043 -0.0027138 0.9998957 0.0027138 0.9998957 0.0027138 0.0001043 -0.0027138
7724414 0.0001046 -0.0026327 0.9998954 0.0026327 0.9998954 0.0026327 0.0001046 -0.0026327
7894251 0.0001049 -0.0025528 0.9998951 0.0025528 0.9998951 0.0025528 0.0001049 -0.0025528
8067822 0.0001053 -0.0024742 0.9998947 0.0024742 0.9998947 0.0024742 0.0001053 -0.0024742
8245209 0.0001057 -0.0023967 0.9998943 0.0023967 0.9998943 0.0023967 0.0001057 -0.0023967
8426497 0.0001062 -0.0023204 0.9998938 0.0023204 0.9998938 0.0023204 0.0001062 -0.0023204
8611770 0.0001066 -0.0022452 0.9998934 0.0022452 0.9998934 0.0022452 0.0001066 -0.0022452
8801117 0.0001072 -0.0021711 0.9998928 0.0021711 0.9998928 0.0021711 0.0001072 -0.0021711
8994628 0.0001077 -0.0020980 0.9998923 0.0020980 0.9998923 0.0020980 0.0001077 -0.0020980
9192393 0.0001083 -0.0020259 0.9998917 0.0020259 0.9998917 0.0020259 0.0001083 -0.0020259
9394506 0.0001090 -0.0019548 0.9998910 0.0019548 0.9998910 0.0019548 0.0001090 -0.0019548
9601063 0.0001097 -0.0018847 0.9998903 0.0018847 0.9998903 0.0018847 0.0001097 -0.0018847
9812162 0.0001104 -0.0018154 0.9998896 0.0018154 0.9998896 0.0018154 0.0001104 -0.0018154
10027902 0.0001111 -0.0017470 0.9998889 0.0017470 0.9998889 0.0017470 0.0001111 -0.0017470
10248386 0.0001119 -0.0016794 0.9998881 0.0016794 0.9998881 0.0016794 0.0001119 -0.0016794
10473717 0.0001128 -0.0016127 0.9998872 0.0016127 0.9998872 0.0016127 0.0001128 -0.0016127
10704003 0.0001136 -0.0015467 0.9998864 0.0015467 0.9998864 0.0015467 0.0001136 -0.0015467
10939352 0.0001145 -0.0014815 0.9998855 0.0014815 0.9998855 0.0014815 0.0001145 -0.0014815
11179876 0.0001155 -0.0014169 0.9998845 0.0014169 0.9998845 0.0014169 0.0001155 -0.0014169
11425688 0.0001165 -0.0013531 0.9998835 0.0013531 0.9998835 0.0013531 0.0001165 -0.0013531
11676904 0.0001175 -0.0012899 0.9998825 0.0012899 0.9998825 0.0012899 0.0001175 -0.0012899
11933645 0.0001185 -0.0012273 0.9998815 0.0012273 0.9998815 0.0012273 0.0001185 -0.0012273
12196030 0.0001196 -0.0011652 0.9998804 0.0011652 0.9998804 0.0011652 0.0001196 -0.0011652
12464184 0.0001208 -0.0011038 0.9998792 0.0011038 0.9998792 0.0011038 0.0001208 -0.0011038
12738235 0.0001220 -0.0010428 0.9998780 0.0010428 0.9998780 0.0010428 0.0001220 -0.0010428
13018310 0.0001232 -0.0009823 0.9998768 0.0009823 0.9998768 0.0009823 0.0001232 -0.0009823
13304544 0.0001245 -0.0009223 0.9998755 0.0009223 0.9998755 0.0009223 0.0001245 -0.0009223
13597071 0.0001258 -0.0008627 0.9998742 0.0008627 0.9998742 0.0008627 0.0001258 -0.0008627
13896030 0.0001272 -0.0008036 0.9998728 0.0008036 0.9998728 0.0008036 0.0001272 -0.0008036
14201563 0.0001286 -0.0007447 0.9998714 0.0007447 0.9998714 0.0007447 0.0001286 -0.0007447
14513813 0.0001301 -0.0006862 0.9998699 0.0006862 0.9998699 0.0006862 0.0001301 -0.0006862
14832928 0.0001316 -0.0006280 0.9998684 0.0006280 0.9998684 0.0006280 0.0001316 -0.0006280
15159060 0.0001332 -0.0005701 0.9998668 0.0005701 0.9998668 0.0005701 0.0001332 -0.0005701
15492362 0.0001348 -0.0005124 0.9998652 0.0005124 0.9998652 0.0005124 0.0001348 -0.0005124
15832993 0.0001365 -0.0004549 0.9998635 0.0004549 0.9998635 0.0004549 0.0001365 -0.0004549
16181113 0.0001383 -0.0003976 0.9998617 0.0003976 0.9998617 0.0003976 0.0001383 -0.0003976
16536888 0.0001402 -0.0003404 0.9998598 0.0003404 0.9998598 0.0003404 0.0001402 -0.0003404
16900485 0.0001421 -0.0002834 0.9998579 0.0002834 0.9998579 0.0002834 0.0001421 -0.0002834
17272076 0.0001441 -0.0002264 0.9998559 0.0002264 0.9998559 0.0002264 0.0001441 -0.0002264
17651837 0.0001462 -0.0001694 0.9998538 0.0001694 0.9998538 0.0001694 0.0001462 -0.0001694
18039948 0.0001484 -0.0001124 0.9998516 0.0001124 0.9998516 0.0001124 0.0001484 -0.0001124
18436593 0.0001506 -0.0000554 0.9998494 0.0000554 0.9998494 0.0000554 0.0001506 -0.0000554
18841959 0.0001530 0.0000017 0.9998470 -0.0000017 0.9998470 -0.0000017 0.0001530 0.0000017
19256237 0.0001555 0.0000589 0.9998445 -0.0000589 0.9998445 -0.0000589 0.0001555 0.0000589
19679624 0.0001581 0.0001162 0.9998419 -0.0001162 0.9998419 -0.0001162 0.0001581 0.0001162
20112321 0.0001609 0.0001738 0.9998391 -0.0001738 0.9998391 -0.0001738 0.0001609 0.0001738
20554530 0.0001638 0.0002316 0.9998362 -0.0002316 0.9998362 -0.0002316 0.0001638 0.0002316
21006463 0.0001668 0.0002897 0.9998332 -0.0002897 0.9998332 -0.0002897 0.0001668 0.0002897
21468333 0.0001700 0.0003481 0.9998300 -0.0003481 0.9998300 -0.0003481 0.0001700 0.0003481
21940357 0.0001734 0.0004069 0.9998266 -0.0004069 0.9998266 -0.0004069 0.0001734 0.0004069
22422760 0.0001771 0.0004661 0.9998229 -0.0004661 0.9998229 -0.0004661 0.0001771 0.0004661
22915770 0.0001809 0.0005259 0.9998191 -0.0005259 0.9998191 -0.0005259 0.0001809 0.0005259
23419619 0.0001850 0.0005862 0.9998150 -0.0005862 0.9998150 -0.0005862 0.0001850 0.0005862
23934547 0.0001893 0.0006471 0.9998107 -0.0006471 0.9998107 -0.0006471 0.0001893 0.0006471
24460796 0.0001940 0.0007087 0.9998060 -0.0007087 0.9998060 -0.0007087 0.0001940 0.0007087
24998616 0.0001991 0.0007711 0.9998009 -0.0007711 0.9998009 -0.0007711 0.0001991 0.0007711
25548261 0.0002045 0.0008343 0.9997955 -0.0008343 0.9997955 -0.0008343 0.0002045 0.0008343
26109991 0.0002104 0.0008985 0.9997896 -0.0008985 0.9997896 -0.0008985 0.0002104 0.0008985
26684072 0.0002168 0.0009638 0.9997832 -0.0009638 0.9997832 -0.0009638 0.0002168 0.0009638
27270775 0.0002239 0.0010303 0.9997761 -0.0010303 0.9997761 -0.0010303 0.0002239 0.0010303
27870378 0.0002316 0.0010981 0.9997684 -0.0010981 0.9997684 -0.0010981 0.0002316 0.0010981
28483164 0.0002403 0.0011674 0.9997597 -0.0011674 0.9997597 -0.0011674 0.0002403 0.0011674
29109424 0.0002499 0.0012384 0.9997501 -0.0012384 0.9997501 -0.0012384 0.0002499 0.0012384
29749453 0.0002608 0.0013113 0.9997392 -0.0013113 0.9997392 -0.0013113 0.0002608 0.0013113
30403555 0.0002732 0.0013863 0.9997268 -0.0013863 0.9997268 -0.0013863 0.0002732 0.0013863
31072038 0.0002875 0.0014637 0.9997125 -0.0014637 0.9997125 -0.0014637 0.0002875 0.0014637
31755220 0.0003042 0.0015438 0.9996958 -0.0015438 0.9996958 -0.0015438 0.0003042 0.0015438
32453422 0.0003241 0.0016272 0.9996759 -0.0016272 0.9996759 -0.0016272 0.0003241 0.0016272
33166976 0.0003481 0.0017140 0.9996519 -0.0017140 0.9996519 -0.0017140 0.0003481 0.0017140
33896219 0.0003778 0.0018048 0.9996222 -0.0018048 0.9996222 -0.0018048 0.0003778 0.0018048
34641496 0.0004152 0.0018998 0.9995848 -0.0018998 0.9995848 -0.0018998 0.0004152 0.0018998
35403159 0.0004635 0.0019990 0.9995365 -0.0019990 0.9995365 -0.0019990 0.0004635 0.0019990
36181569 0.0005276 0.0021010 0.9994724 -0.0021010 0.9994724 -0.0021010 0.0005276 0.0021010
36977093 0.0006142 0.0022022 0.9993858 -0.0022022 0.9993858 -0.0022022 0.0006142 0.0022022
37790109 0.0007318 0.0022930 0.9992682 -0.0022930 0.9992682 -0.0022930 0.0007318 0.0022930
38621001 0.0008872 0.0023526 0.9991128 -0.0023526 0.9991128 -0.0023526 0.0008872 0.0023526
39470161 0.0010704 0.0023443 0.9989296 -0.0023443 0.9989296 -0.0023443 0.0010704 0.0023443
40337993 0.0012292 0.0022342 0.9987708 -0.0022342 0.9987708 -0.0022342 0.0012292 0.0022342
41224905 0.0012769 0.0020512 0.9987231 -0.0020512 0.9987231 -0.0020512 0.0012769 0.0020512
42131317 0.0011885 0.0019014 0.9988115 -0.0019014 0.9988115 -0.0019014 0.0011885 0.0019014
43057659 0.0010375 0.0018557 0.9989625 -0.0018557 0.9989625 -0.0018557 0.0010375 0.0018557
44004369 0.0008987 0.0018997 0.9991013 -0.0018997 0.9991013 -0.0018997 0.0008987 0.0018997
44971893 0.0007985 0.0019929 0.9992015 -0.0019929 0.9992015 -0.0019929 0.0007985 0.0019929
45960691 0.0007355 0.0021070 0.9992645 -0.0021070 0.9992645 -0.0021070 0.0007355 0.0021070
46971230 0.0007015 0.0022281 0.9992985 -0.0022281 0.9992985 -0.0022281 0.0007015 0.0022281
48003987 0.0006896 0.0023502 0.9993104 -0.0023502 0.9993104 -0.0023502 0.0006896 0.0023502
49059451 0.0006948 0.0024709 0.9993052 -0.0024709 0.9993052 -0.0024709 0.0006948 0.0024709
50138122 0.0007145 0.0025893 0.9992855 -0.0025893 0.9992855 -0.0025893 0.0007145 0.0025893
51240510 0.0007472 0.0027047 0.9992528 -0.0027047 0.9992528 -0.0027047 0.0007472 0.0027047
52367136 0.0007924 0.0028163 0.9992076 -0.0028163 0.9992076 -0.0028163 0.0007924 0.0028163
53518533 0.0008504 0.0029226 0.9991496 -0.0029226 0.9991496 -0.0029226 0.0008504 0.0029226
54695245 0.0009214 0.0030212 0.9990786 -0.0030212 0.9990786 -0.0030212 0.0009214 0.0030212
55897831 0.0010057 0.0031087 0.9989943 -0.0031087 0.9989943 -0.0031087 0.0010057 0.0031087
57126857 0.0011021 0.0031802 0.9988979 -0.0031802 0.9988979 -0.0031802 0.0011021 0.0031802
58382906 0.0012075 0.0032298 0.9987925 -0.0032298 0.9987925 -0.0032298 0.0012075 0.0032298
59666572 0.0013152 0.0032515 0.9986848 -0.0032515 0.9986848 -0.0032515 0.0013152 0.0032515
60978462 0.0014145 0.0032417 0.9985855 -0.0032417 0.9985855 -0.0032417 0.0014145 0.0032417
62319196 0.0014914 0.0032023 0.9985086 -0.0032023 0.9985086 -0.0032023 0.0014914 0.0032023
63689409 0.0015328 0.0031431 0.9984672 -0.0031431 0.9984672 -0.0031431 0.0015328 0.0031431
65089750 0.0015318 0.0030803 0.9984682 -0.0030803 0.9984682 -0.0030803 0.0015318 0.0030803
66520879 0.0014912 0.0030320 0.9985088 -0.0030320 0.9985088 -0.0030320 0.0014912 0.0030320
67983474 0.0014219 0.0030111 0.9985781 -0.0030111 0.9985781 -0.0030111 0.0014219 0.0030111
69478228 0.0013381 0.0030227 0.9986619 -0.0030227 0.9986619 -0.0030227 0.0013381 0.0030227
71005847 0.0012521 0.0030651 0.9987479 -0.0030651 0.9987479 -0.0030651 0.0012521 0.0030651
72567054 0.0011722 0.0031328 0.9988278 -0.0031328 0.9988278 -0.0031328 0.0011722 0.0031328
74162587 0.0011027 0.0032195 0.9988973 -0.0032195 0.9988973 -0.0032195 0.0011027 0.0032195
75793201 0.0010452 0.0033194 0.9989548 -0.0033194 0.9989548 -0.0033194 0.0010452 0.0033194
77459667 0.0009993 0.0034281 0.9990007 -0.0034281 0.9990007 -0.0034281 0.0009993 0.0034281
79162774 0.0009641 0.0035423 0.9990359 -0.0035423 0.9990359 -0.0035423 0.0009641 0.0035423
80903327 0.0009383 0.0036599 0.9990617 -0.0036599 0.9990617 -0.0036599 0.0009383 0.0036599
82682150 0.0009205 0.0037794 0.9990795 -0.0037794 0.9990795 -0.0037794 0.0009205 0.0037794
84500083 0.0009094 0.0038997 0.9990906 -0.0038997 0.9990906 -0.0038997 0.0009094 0.0038997
86357988 0.0009041 0.0040203 0.9990959 -0.0040203 0.9990959 -0.0040203 0.0009041 0.0040203
88256743 0.0009036 0.0041409 0.9990964 -0.0041409 0.9990964 -0.0041409 0.0009036 0.0041409
90197245 0.0009071 0.0042610 0.9990929 -0.0042610 0.9990929 -0.0042610 0.0009071 0.0042610
92180413 0.0009140 0.0043807 0.9990860 -0.0043807 0.9990860 -0.0043807 0.0009140 0.0043807
94207185 0.0009236 0.0044999 0.9990764 -0.0044999 0.9990764 -0.0044999 0.0009236 0.0044999
96278520 0.0009354 0.0046184 0.9990646 -0.0046184 0.9990646 -0.0046184 0.0009354 0.0046184
98395398 0.0009490 0.0047365 0.9990510 -0.0047365 0.9990510 -0.0047365 0.0009490 0.0047365
100558819 0.0009639 0.0048541 0.9990361 -0.0048541 0.9990361 -0.0048541 0.0009639 0.0048541
102769807 0.0009797 0.0049713 0.9990203 -0.0049713 0.9990203 -0.0049713 0.0009797 0.0049713
105029408 0.0009961 0.0050882 0.9990039 -0.0050882 0.9990039 -0.0050882 0.0009961 0.0050882
107338692 0.0010127 0.0052049 0.9989873 -0.0052049 0.9989873 -0.0052049 0.0010127 0.0052049
