!Murata Part Number: GRM31A5C2J121JW01
!These Parameters are Measured in Series Mode Connection
!Data Generated on Mar 30, 2021
!       o--ll--o
!Port1            Port2
!       o------o
!Operation Temp=25[degC], DC Bias Voltage=0[V]
!Freq. Start=100[MHz] Stop=3[GHz] 401[Steps]
# Hz S RI R 50
!Freq.(Hz) S11(Real) S11(Imag) S21(Real) S21(Imag) S12(Real) S12(Imag) S22(Real) S22(Imag)
100000000 0.0172089 -0.1246643 0.9827911 0.1246643 0.9827911 0.1246643 0.0172089 -0.1246643
107250000 0.0149932 -0.1157265 0.9850068 0.1157265 0.9850068 0.1157265 0.0149932 -0.1157265
114500000 0.0131790 -0.1078227 0.9868210 0.1078227 0.9868210 0.1078227 0.0131790 -0.1078227
121750000 0.0116755 -0.1007779 0.9883245 0.1007779 0.9883245 0.1007779 0.0116755 -0.1007779
129000000 0.0104163 -0.0944542 0.9895837 0.0944542 0.9895837 0.0944542 0.0104163 -0.0944542
136250000 0.0093517 -0.0887414 0.9906483 0.0887414 0.9906483 0.0887414 0.0093517 -0.0887414
143500000 0.0084440 -0.0835502 0.9915560 0.0835502 0.9915560 0.0835502 0.0084440 -0.0835502
150750000 0.0076643 -0.0788079 0.9923357 0.0788079 0.9923357 0.0788079 0.0076643 -0.0788079
158000000 0.0069899 -0.0744548 0.9930101 0.0744548 0.9930101 0.0744548 0.0069899 -0.0744548
165250000 0.0064031 -0.0704408 0.9935969 0.0704408 0.9935969 0.0704408 0.0064031 -0.0704408
172500000 0.0058897 -0.0667245 0.9941103 0.0667245 0.9941103 0.0667245 0.0058897 -0.0667245
179750000 0.0054382 -0.0632705 0.9945618 0.0632705 0.9945618 0.0632705 0.0054382 -0.0632705
187000000 0.0050395 -0.0600491 0.9949605 0.0600491 0.9949605 0.0600491 0.0050395 -0.0600491
194250000 0.0046858 -0.0570347 0.9953142 0.0570347 0.9953142 0.0570347 0.0046858 -0.0570347
201500000 0.0043709 -0.0542053 0.9956291 0.0542053 0.9956291 0.0542053 0.0043709 -0.0542053
208750000 0.0040896 -0.0515420 0.9959104 0.0515420 0.9959104 0.0515420 0.0040896 -0.0515420
216000000 0.0038376 -0.0490284 0.9961624 0.0490284 0.9961624 0.0490284 0.0038376 -0.0490284
223250000 0.0036112 -0.0466500 0.9963888 0.0466500 0.9963888 0.0466500 0.0036112 -0.0466500
230500000 0.0034073 -0.0443944 0.9965927 0.0443944 0.9965927 0.0443944 0.0034073 -0.0443944
237750000 0.0032233 -0.0422503 0.9967767 0.0422503 0.9967767 0.0422503 0.0032233 -0.0422503
245000000 0.0030568 -0.0402080 0.9969432 0.0402080 0.9969432 0.0402080 0.0030568 -0.0402080
252250000 0.0029061 -0.0382588 0.9970939 0.0382588 0.9970939 0.0382588 0.0029061 -0.0382588
259500000 0.0027693 -0.0363950 0.9972307 0.0363950 0.9972307 0.0363950 0.0027693 -0.0363950
266750000 0.0026451 -0.0346097 0.9973549 0.0346097 0.9973549 0.0346097 0.0026451 -0.0346097
274000000 0.0025321 -0.0328968 0.9974679 0.0328968 0.9974679 0.0328968 0.0025321 -0.0328968
281250000 0.0024294 -0.0312505 0.9975706 0.0312505 0.9975706 0.0312505 0.0024294 -0.0312505
288500000 0.0023358 -0.0296661 0.9976642 0.0296661 0.9976642 0.0296661 0.0023358 -0.0296661
295750000 0.0022507 -0.0281389 0.9977493 0.0281389 0.9977493 0.0281389 0.0022507 -0.0281389
303000000 0.0021731 -0.0266649 0.9978269 0.0266649 0.9978269 0.0266649 0.0021731 -0.0266649
310250000 0.0021025 -0.0252404 0.9978975 0.0252404 0.9978975 0.0252404 0.0021025 -0.0252404
317500000 0.0020383 -0.0238619 0.9979617 0.0238619 0.9979617 0.0238619 0.0020383 -0.0238619
324750000 0.0019799 -0.0225265 0.9980201 0.0225265 0.9980201 0.0225265 0.0019799 -0.0225265
332000000 0.0019270 -0.0212313 0.9980730 0.0212313 0.9980730 0.0212313 0.0019270 -0.0212313
339250000 0.0018789 -0.0199737 0.9981211 0.0199737 0.9981211 0.0199737 0.0018789 -0.0199737
346500000 0.0018355 -0.0187514 0.9981645 0.0187514 0.9981645 0.0187514 0.0018355 -0.0187514
353750000 0.0017963 -0.0175623 0.9982037 0.0175623 0.9982037 0.0175623 0.0017963 -0.0175623
361000000 0.0017611 -0.0164042 0.9982389 0.0164042 0.9982389 0.0164042 0.0017611 -0.0164042
368250000 0.0017295 -0.0152755 0.9982705 0.0152755 0.9982705 0.0152755 0.0017295 -0.0152755
375500000 0.0017014 -0.0141743 0.9982986 0.0141743 0.9982986 0.0141743 0.0017014 -0.0141743
382750000 0.0016764 -0.0130992 0.9983236 0.0130992 0.9983236 0.0130992 0.0016764 -0.0130992
390000000 0.0016545 -0.0120487 0.9983455 0.0120487 0.9983455 0.0120487 0.0016545 -0.0120487
397250000 0.0016354 -0.0110214 0.9983646 0.0110214 0.9983646 0.0110214 0.0016354 -0.0110214
404500000 0.0016189 -0.0100161 0.9983811 0.0100161 0.9983811 0.0100161 0.0016189 -0.0100161
411750000 0.0016049 -0.0090316 0.9983951 0.0090316 0.9983951 0.0090316 0.0016049 -0.0090316
419000000 0.0015933 -0.0080668 0.9984067 0.0080668 0.9984067 0.0080668 0.0015933 -0.0080668
426250000 0.0015839 -0.0071207 0.9984161 0.0071207 0.9984161 0.0071207 0.0015839 -0.0071207
433500000 0.0015766 -0.0061924 0.9984234 0.0061924 0.9984234 0.0061924 0.0015766 -0.0061924
440750000 0.0015713 -0.0052810 0.9984287 0.0052810 0.9984287 0.0052810 0.0015713 -0.0052810
448000000 0.0015679 -0.0043857 0.9984321 0.0043857 0.9984321 0.0043857 0.0015679 -0.0043857
455250000 0.0015663 -0.0035057 0.9984337 0.0035057 0.9984337 0.0035057 0.0015663 -0.0035057
462500000 0.0015664 -0.0026402 0.9984336 0.0026402 0.9984336 0.0026402 0.0015664 -0.0026402
469750000 0.0015682 -0.0017887 0.9984318 0.0017887 0.9984318 0.0017887 0.0015682 -0.0017887
477000000 0.0015715 -0.0009504 0.9984285 0.0009504 0.9984285 0.0009504 0.0015715 -0.0009504
484250000 0.0015764 -0.0001247 0.9984236 0.0001247 0.9984236 0.0001247 0.0015764 -0.0001247
491500000 0.0015827 0.0006889 0.9984173 -0.0006889 0.9984173 -0.0006889 0.0015827 0.0006889
498750000 0.0015904 0.0014909 0.9984096 -0.0014909 0.9984096 -0.0014909 0.0015904 0.0014909
506000000 0.0015994 0.0022819 0.9984006 -0.0022819 0.9984006 -0.0022819 0.0015994 0.0022819
513250000 0.0016097 0.0030623 0.9983903 -0.0030623 0.9983903 -0.0030623 0.0016097 0.0030623
520500000 0.0016212 0.0038325 0.9983788 -0.0038325 0.9983788 -0.0038325 0.0016212 0.0038325
527750000 0.0016339 0.0045931 0.9983661 -0.0045931 0.9983661 -0.0045931 0.0016339 0.0045931
535000000 0.0016478 0.0053444 0.9983522 -0.0053444 0.9983522 -0.0053444 0.0016478 0.0053444
542250000 0.0016628 0.0060868 0.9983372 -0.0060868 0.9983372 -0.0060868 0.0016628 0.0060868
549500000 0.0016789 0.0068206 0.9983211 -0.0068206 0.9983211 -0.0068206 0.0016789 0.0068206
556750000 0.0016960 0.0075462 0.9983040 -0.0075462 0.9983040 -0.0075462 0.0016960 0.0075462
564000000 0.0017142 0.0082638 0.9982858 -0.0082638 0.9982858 -0.0082638 0.0017142 0.0082638
571250000 0.0017334 0.0089740 0.9982666 -0.0089740 0.9982666 -0.0089740 0.0017334 0.0089740
578500000 0.0017535 0.0096768 0.9982465 -0.0096768 0.9982465 -0.0096768 0.0017535 0.0096768
585750000 0.0017746 0.0103726 0.9982254 -0.0103726 0.9982254 -0.0103726 0.0017746 0.0103726
593000000 0.0017966 0.0110616 0.9982034 -0.0110616 0.9982034 -0.0110616 0.0017966 0.0110616
600250000 0.0018195 0.0117442 0.9981805 -0.0117442 0.9981805 -0.0117442 0.0018195 0.0117442
607500000 0.0018433 0.0124205 0.9981567 -0.0124205 0.9981567 -0.0124205 0.0018433 0.0124205
614750000 0.0018679 0.0130908 0.9981321 -0.0130908 0.9981321 -0.0130908 0.0018679 0.0130908
622000000 0.0018934 0.0137552 0.9981066 -0.0137552 0.9981066 -0.0137552 0.0018934 0.0137552
629250000 0.0019197 0.0144141 0.9980803 -0.0144141 0.9980803 -0.0144141 0.0019197 0.0144141
636500000 0.0019469 0.0150676 0.9980531 -0.0150676 0.9980531 -0.0150676 0.0019469 0.0150676
643750000 0.0019748 0.0157158 0.9980252 -0.0157158 0.9980252 -0.0157158 0.0019748 0.0157158
651000000 0.0020035 0.0163591 0.9979965 -0.0163591 0.9979965 -0.0163591 0.0020035 0.0163591
658250000 0.0020330 0.0169974 0.9979670 -0.0169974 0.9979670 -0.0169974 0.0020330 0.0169974
665500000 0.0020633 0.0176311 0.9979367 -0.0176311 0.9979367 -0.0176311 0.0020633 0.0176311
672750000 0.0020943 0.0182603 0.9979057 -0.0182603 0.9979057 -0.0182603 0.0020943 0.0182603
680000000 0.0021260 0.0188851 0.9978740 -0.0188851 0.9978740 -0.0188851 0.0021260 0.0188851
687250000 0.0021585 0.0195056 0.9978415 -0.0195056 0.9978415 -0.0195056 0.0021585 0.0195056
694500000 0.0021917 0.0201221 0.9978083 -0.0201221 0.9978083 -0.0201221 0.0021917 0.0201221
701750000 0.0022256 0.0207346 0.9977744 -0.0207346 0.9977744 -0.0207346 0.0022256 0.0207346
709000000 0.0022602 0.0213433 0.9977398 -0.0213433 0.9977398 -0.0213433 0.0022602 0.0213433
716250000 0.0022955 0.0219483 0.9977045 -0.0219483 0.9977045 -0.0219483 0.0022955 0.0219483
723500000 0.0023315 0.0225497 0.9976685 -0.0225497 0.9976685 -0.0225497 0.0023315 0.0225497
730750000 0.0023681 0.0231477 0.9976319 -0.0231477 0.9976319 -0.0231477 0.0023681 0.0231477
738000000 0.0024055 0.0237423 0.9975945 -0.0237423 0.9975945 -0.0237423 0.0024055 0.0237423
745250000 0.0024435 0.0243336 0.9975565 -0.0243336 0.9975565 -0.0243336 0.0024435 0.0243336
752500000 0.0024822 0.0249218 0.9975178 -0.0249218 0.9975178 -0.0249218 0.0024822 0.0249218
759750000 0.0025215 0.0255070 0.9974785 -0.0255070 0.9974785 -0.0255070 0.0025215 0.0255070
767000000 0.0025615 0.0260892 0.9974385 -0.0260892 0.9974385 -0.0260892 0.0025615 0.0260892
774250000 0.0026021 0.0266685 0.9973979 -0.0266685 0.9973979 -0.0266685 0.0026021 0.0266685
781500000 0.0026434 0.0272451 0.9973566 -0.0272451 0.9973566 -0.0272451 0.0026434 0.0272451
788750000 0.0026853 0.0278190 0.9973147 -0.0278190 0.9973147 -0.0278190 0.0026853 0.0278190
796000000 0.0027279 0.0283903 0.9972721 -0.0283903 0.9972721 -0.0283903 0.0027279 0.0283903
803250000 0.0027711 0.0289590 0.9972289 -0.0289590 0.9972289 -0.0289590 0.0027711 0.0289590
810500000 0.0028149 0.0295253 0.9971851 -0.0295253 0.9971851 -0.0295253 0.0028149 0.0295253
817750000 0.0028594 0.0300892 0.9971406 -0.0300892 0.9971406 -0.0300892 0.0028594 0.0300892
825000000 0.0029045 0.0306509 0.9970955 -0.0306509 0.9970955 -0.0306509 0.0029045 0.0306509
832250000 0.0029502 0.0312102 0.9970498 -0.0312102 0.9970498 -0.0312102 0.0029502 0.0312102
839500000 0.0029965 0.0317675 0.9970035 -0.0317675 0.9970035 -0.0317675 0.0029965 0.0317675
846750000 0.0030435 0.0323226 0.9969565 -0.0323226 0.9969565 -0.0323226 0.0030435 0.0323226
854000000 0.0030911 0.0328756 0.9969089 -0.0328756 0.9969089 -0.0328756 0.0030911 0.0328756
861250000 0.0031393 0.0334267 0.9968607 -0.0334267 0.9968607 -0.0334267 0.0031393 0.0334267
868500000 0.0031881 0.0339759 0.9968119 -0.0339759 0.9968119 -0.0339759 0.0031881 0.0339759
875750000 0.0032375 0.0345232 0.9967625 -0.0345232 0.9967625 -0.0345232 0.0032375 0.0345232
883000000 0.0032876 0.0350686 0.9967124 -0.0350686 0.9967124 -0.0350686 0.0032876 0.0350686
890250000 0.0033382 0.0356124 0.9966618 -0.0356124 0.9966618 -0.0356124 0.0033382 0.0356124
897500000 0.0033895 0.0361544 0.9966105 -0.0361544 0.9966105 -0.0361544 0.0033895 0.0361544
904750000 0.0034414 0.0366947 0.9965586 -0.0366947 0.9965586 -0.0366947 0.0034414 0.0366947
912000000 0.0034939 0.0372335 0.9965061 -0.0372335 0.9965061 -0.0372335 0.0034939 0.0372335
919250000 0.0035471 0.0377706 0.9964529 -0.0377706 0.9964529 -0.0377706 0.0035471 0.0377706
926500000 0.0036008 0.0383063 0.9963992 -0.0383063 0.9963992 -0.0383063 0.0036008 0.0383063
933750000 0.0036552 0.0388405 0.9963448 -0.0388405 0.9963448 -0.0388405 0.0036552 0.0388405
941000000 0.0037101 0.0393732 0.9962899 -0.0393732 0.9962899 -0.0393732 0.0037101 0.0393732
948250000 0.0037657 0.0399046 0.9962343 -0.0399046 0.9962343 -0.0399046 0.0037657 0.0399046
955500000 0.0038219 0.0404346 0.9961781 -0.0404346 0.9961781 -0.0404346 0.0038219 0.0404346
962750000 0.0038787 0.0409633 0.9961213 -0.0409633 0.9961213 -0.0409633 0.0038787 0.0409633
970000000 0.0039362 0.0414908 0.9960638 -0.0414908 0.9960638 -0.0414908 0.0039362 0.0414908
977250000 0.0039942 0.0420170 0.9960058 -0.0420170 0.9960058 -0.0420170 0.0039942 0.0420170
984500000 0.0040529 0.0425420 0.9959471 -0.0425420 0.9959471 -0.0425420 0.0040529 0.0425420
991750000 0.0041122 0.0430658 0.9958878 -0.0430658 0.9958878 -0.0430658 0.0041122 0.0430658
999000000 0.0041722 0.0435886 0.9958278 -0.0435886 0.9958278 -0.0435886 0.0041722 0.0435886
1006250000 0.0042327 0.0441102 0.9957673 -0.0441102 0.9957673 -0.0441102 0.0042327 0.0441102
1013500000 0.0042939 0.0446308 0.9957061 -0.0446308 0.9957061 -0.0446308 0.0042939 0.0446308
1020750000 0.0043557 0.0451503 0.9956443 -0.0451503 0.9956443 -0.0451503 0.0043557 0.0451503
1028000000 0.0044182 0.0456689 0.9955818 -0.0456689 0.9955818 -0.0456689 0.0044182 0.0456689
1035250000 0.0044813 0.0461864 0.9955187 -0.0461864 0.9955187 -0.0461864 0.0044813 0.0461864
1042500000 0.0045450 0.0467031 0.9954550 -0.0467031 0.9954550 -0.0467031 0.0045450 0.0467031
1049750000 0.0046093 0.0472188 0.9953907 -0.0472188 0.9953907 -0.0472188 0.0046093 0.0472188
1057000000 0.0046743 0.0477336 0.9953257 -0.0477336 0.9953257 -0.0477336 0.0046743 0.0477336
1064250000 0.0047400 0.0482476 0.9952600 -0.0482476 0.9952600 -0.0482476 0.0047400 0.0482476
1071500000 0.0048063 0.0487608 0.9951937 -0.0487608 0.9951937 -0.0487608 0.0048063 0.0487608
1078750000 0.0048732 0.0492732 0.9951268 -0.0492732 0.9951268 -0.0492732 0.0048732 0.0492732
1086000000 0.0049408 0.0497848 0.9950592 -0.0497848 0.9950592 -0.0497848 0.0049408 0.0497848
1093250000 0.0050091 0.0502956 0.9949909 -0.0502956 0.9949909 -0.0502956 0.0050091 0.0502956
1100500000 0.0050780 0.0508057 0.9949220 -0.0508057 0.9949220 -0.0508057 0.0050780 0.0508057
1107750000 0.0051476 0.0513151 0.9948524 -0.0513151 0.9948524 -0.0513151 0.0051476 0.0513151
1115000000 0.0052178 0.0518238 0.9947822 -0.0518238 0.9947822 -0.0518238 0.0052178 0.0518238
1122250000 0.0052888 0.0523319 0.9947112 -0.0523319 0.9947112 -0.0523319 0.0052888 0.0523319
1129500000 0.0053604 0.0528393 0.9946396 -0.0528393 0.9946396 -0.0528393 0.0053604 0.0528393
1136750000 0.0054326 0.0533461 0.9945674 -0.0533461 0.9945674 -0.0533461 0.0054326 0.0533461
1144000000 0.0055056 0.0538523 0.9944944 -0.0538523 0.9944944 -0.0538523 0.0055056 0.0538523
1151250000 0.0055793 0.0543580 0.9944207 -0.0543580 0.9944207 -0.0543580 0.0055793 0.0543580
1158500000 0.0056536 0.0548631 0.9943464 -0.0548631 0.9943464 -0.0548631 0.0056536 0.0548631
1165750000 0.0057286 0.0553676 0.9942714 -0.0553676 0.9942714 -0.0553676 0.0057286 0.0553676
1173000000 0.0058044 0.0558717 0.9941956 -0.0558717 0.9941956 -0.0558717 0.0058044 0.0558717
1180250000 0.0058808 0.0563752 0.9941192 -0.0563752 0.9941192 -0.0563752 0.0058808 0.0563752
1187500000 0.0059580 0.0568783 0.9940420 -0.0568783 0.9940420 -0.0568783 0.0059580 0.0568783
1194750000 0.0060359 0.0573809 0.9939641 -0.0573809 0.9939641 -0.0573809 0.0060359 0.0573809
1202000000 0.0061145 0.0578831 0.9938855 -0.0578831 0.9938855 -0.0578831 0.0061145 0.0578831
1209250000 0.0061938 0.0583848 0.9938062 -0.0583848 0.9938062 -0.0583848 0.0061938 0.0583848
1216500000 0.0062739 0.0588862 0.9937261 -0.0588862 0.9937261 -0.0588862 0.0062739 0.0588862
1223750000 0.0063547 0.0593871 0.9936453 -0.0593871 0.9936453 -0.0593871 0.0063547 0.0593871
1231000000 0.0064363 0.0598877 0.9935637 -0.0598877 0.9935637 -0.0598877 0.0064363 0.0598877
1238250000 0.0065186 0.0603879 0.9934814 -0.0603879 0.9934814 -0.0603879 0.0065186 0.0603879
1245500000 0.0066017 0.0608878 0.9933983 -0.0608878 0.9933983 -0.0608878 0.0066017 0.0608878
1252750000 0.0066855 0.0613873 0.9933145 -0.0613873 0.9933145 -0.0613873 0.0066855 0.0613873
1260000000 0.0067701 0.0618865 0.9932299 -0.0618865 0.9932299 -0.0618865 0.0067701 0.0618865
1267250000 0.0068555 0.0623855 0.9931445 -0.0623855 0.9931445 -0.0623855 0.0068555 0.0623855
1274500000 0.0069417 0.0628841 0.9930583 -0.0628841 0.9930583 -0.0628841 0.0069417 0.0628841
1281750000 0.0070287 0.0633825 0.9929713 -0.0633825 0.9929713 -0.0633825 0.0070287 0.0633825
1289000000 0.0071165 0.0638806 0.9928835 -0.0638806 0.9928835 -0.0638806 0.0071165 0.0638806
1296250000 0.0072051 0.0643784 0.9927949 -0.0643784 0.9927949 -0.0643784 0.0072051 0.0643784
1303500000 0.0072946 0.0648761 0.9927054 -0.0648761 0.9927054 -0.0648761 0.0072946 0.0648761
1310750000 0.0073848 0.0653735 0.9926152 -0.0653735 0.9926152 -0.0653735 0.0073848 0.0653735
1318000000 0.0074759 0.0658707 0.9925241 -0.0658707 0.9925241 -0.0658707 0.0074759 0.0658707
1325250000 0.0075679 0.0663677 0.9924321 -0.0663677 0.9924321 -0.0663677 0.0075679 0.0663677
1332500000 0.0076607 0.0668645 0.9923393 -0.0668645 0.9923393 -0.0668645 0.0076607 0.0668645
1339750000 0.0077544 0.0673611 0.9922456 -0.0673611 0.9922456 -0.0673611 0.0077544 0.0673611
1347000000 0.0078490 0.0678576 0.9921510 -0.0678576 0.9921510 -0.0678576 0.0078490 0.0678576
1354250000 0.0079444 0.0683539 0.9920556 -0.0683539 0.9920556 -0.0683539 0.0079444 0.0683539
1361500000 0.0080408 0.0688500 0.9919592 -0.0688500 0.9919592 -0.0688500 0.0080408 0.0688500
1368750000 0.0081380 0.0693461 0.9918620 -0.0693461 0.9918620 -0.0693461 0.0081380 0.0693461
1376000000 0.0082362 0.0698420 0.9917638 -0.0698420 0.9917638 -0.0698420 0.0082362 0.0698420
1383250000 0.0083353 0.0703378 0.9916647 -0.0703378 0.9916647 -0.0703378 0.0083353 0.0703378
1390500000 0.0084354 0.0708334 0.9915646 -0.0708334 0.9915646 -0.0708334 0.0084354 0.0708334
1397750000 0.0085364 0.0713290 0.9914636 -0.0713290 0.9914636 -0.0713290 0.0085364 0.0713290
1405000000 0.0086384 0.0718245 0.9913616 -0.0718245 0.9913616 -0.0718245 0.0086384 0.0718245
1412250000 0.0087414 0.0723199 0.9912586 -0.0723199 0.9912586 -0.0723199 0.0087414 0.0723199
1419500000 0.0088454 0.0728152 0.9911546 -0.0728152 0.9911546 -0.0728152 0.0088454 0.0728152
1426750000 0.0089503 0.0733104 0.9910497 -0.0733104 0.9910497 -0.0733104 0.0089503 0.0733104
1434000000 0.0090564 0.0738056 0.9909436 -0.0738056 0.9909436 -0.0738056 0.0090564 0.0738056
1441250000 0.0091634 0.0743007 0.9908366 -0.0743007 0.9908366 -0.0743007 0.0091634 0.0743007
1448500000 0.0092715 0.0747957 0.9907285 -0.0747957 0.9907285 -0.0747957 0.0092715 0.0747957
1455750000 0.0093807 0.0752907 0.9906193 -0.0752907 0.9906193 -0.0752907 0.0093807 0.0752907
1463000000 0.0094910 0.0757856 0.9905090 -0.0757856 0.9905090 -0.0757856 0.0094910 0.0757856
1470250000 0.0096024 0.0762805 0.9903976 -0.0762805 0.9903976 -0.0762805 0.0096024 0.0762805
1477500000 0.0097149 0.0767754 0.9902851 -0.0767754 0.9902851 -0.0767754 0.0097149 0.0767754
1484750000 0.0098285 0.0772702 0.9901715 -0.0772702 0.9901715 -0.0772702 0.0098285 0.0772702
1492000000 0.0099433 0.0777649 0.9900567 -0.0777649 0.9900567 -0.0777649 0.0099433 0.0777649
1499250000 0.0100593 0.0782596 0.9899407 -0.0782596 0.9899407 -0.0782596 0.0100593 0.0782596
1506500000 0.0101764 0.0787543 0.9898236 -0.0787543 0.9898236 -0.0787543 0.0101764 0.0787543
1513750000 0.0102948 0.0792489 0.9897052 -0.0792489 0.9897052 -0.0792489 0.0102948 0.0792489
1521000000 0.0104144 0.0797434 0.9895856 -0.0797434 0.9895856 -0.0797434 0.0104144 0.0797434
1528250000 0.0105353 0.0802380 0.9894647 -0.0802380 0.9894647 -0.0802380 0.0105353 0.0802380
1535500000 0.0106574 0.0807324 0.9893426 -0.0807324 0.9893426 -0.0807324 0.0106574 0.0807324
1542750000 0.0107808 0.0812268 0.9892192 -0.0812268 0.9892192 -0.0812268 0.0107808 0.0812268
1550000000 0.0109056 0.0817211 0.9890944 -0.0817211 0.9890944 -0.0817211 0.0109056 0.0817211
1557250000 0.0110317 0.0822154 0.9889683 -0.0822154 0.9889683 -0.0822154 0.0110317 0.0822154
1564500000 0.0111591 0.0827096 0.9888409 -0.0827096 0.9888409 -0.0827096 0.0111591 0.0827096
1571750000 0.0112880 0.0832036 0.9887120 -0.0832036 0.9887120 -0.0832036 0.0112880 0.0832036
1579000000 0.0114182 0.0836976 0.9885818 -0.0836976 0.9885818 -0.0836976 0.0114182 0.0836976
1586250000 0.0115499 0.0841915 0.9884501 -0.0841915 0.9884501 -0.0841915 0.0115499 0.0841915
1593500000 0.0116831 0.0846852 0.9883169 -0.0846852 0.9883169 -0.0846852 0.0116831 0.0846852
1600750000 0.0118177 0.0851788 0.9881823 -0.0851788 0.9881823 -0.0851788 0.0118177 0.0851788
1608000000 0.0119538 0.0856722 0.9880462 -0.0856722 0.9880462 -0.0856722 0.0119538 0.0856722
1615250000 0.0120915 0.0861654 0.9879085 -0.0861654 0.9879085 -0.0861654 0.0120915 0.0861654
1622500000 0.0122307 0.0866585 0.9877693 -0.0866585 0.9877693 -0.0866585 0.0122307 0.0866585
1629750000 0.0123716 0.0871513 0.9876284 -0.0871513 0.9876284 -0.0871513 0.0123716 0.0871513
