!Murata Part Number: GRM31A7U3A150JW31
!These Parameters are Measured in Series Mode Connection
!Data Generated on Mar 30, 2021
!       o--ll--o
!Port1            Port2
!       o------o
!Operation Temp=25[degC], DC Bias Voltage=0[V]
!Freq. Start=100[MHz] Stop=3[GHz] 401[Steps]
# Hz S RI R 50
!Freq.(Hz) S11(Real) S11(Imag) S21(Real) S21(Imag) S12(Real) S12(Imag) S22(Real) S22(Imag)
100000000 0.5274083 -0.4982539 0.4725917 0.4982539 0.4725917 0.4982539 0.5274083 -0.4982539
107250000 0.4921905 -0.4988718 0.5078095 0.4988718 0.5078095 0.4988718 0.4921905 -0.4988718
114500000 0.4593067 -0.4972010 0.5406933 0.4972010 0.5406933 0.4972010 0.4593067 -0.4972010
121750000 0.4287230 -0.4936800 0.5712770 0.4936800 0.5712770 0.4936800 0.4287230 -0.4936800
129000000 0.4003617 -0.4886847 0.5996383 0.4886847 0.5996383 0.4886847 0.4003617 -0.4886847
136250000 0.3741168 -0.4825335 0.6258832 0.4825335 0.6258832 0.4825335 0.3741168 -0.4825335
143500000 0.3498649 -0.4754927 0.6501351 0.4754927 0.6501351 0.4754927 0.3498649 -0.4754927
150750000 0.3274747 -0.4677836 0.6725253 0.4677836 0.6725253 0.4677836 0.3274747 -0.4677836
158000000 0.3068125 -0.4595881 0.6931875 0.4595881 0.6931875 0.4595881 0.3068125 -0.4595881
165250000 0.2877466 -0.4510551 0.7122534 0.4510551 0.7122534 0.4510551 0.2877466 -0.4510551
172500000 0.2701502 -0.4423051 0.7298498 0.4423051 0.7298498 0.4423051 0.2701502 -0.4423051
179750000 0.2539032 -0.4334357 0.7460968 0.4334357 0.7460968 0.4334357 0.2539032 -0.4334357
187000000 0.2388931 -0.4245247 0.7611069 0.4245247 0.7611069 0.4245247 0.2388931 -0.4245247
194250000 0.2250151 -0.4156340 0.7749849 0.4156340 0.7749849 0.4156340 0.2250151 -0.4156340
201500000 0.2121730 -0.4068125 0.7878270 0.4068125 0.7878270 0.4068125 0.2121730 -0.4068125
208750000 0.2002781 -0.3980979 0.7997219 0.3980979 0.7997219 0.3980979 0.2002781 -0.3980979
216000000 0.1892494 -0.3895194 0.8107506 0.3895194 0.8107506 0.3895194 0.1892494 -0.3895194
223250000 0.1790130 -0.3810990 0.8209870 0.3810990 0.8209870 0.3810990 0.1790130 -0.3810990
230500000 0.1695017 -0.3728528 0.8304983 0.3728528 0.8304983 0.3728528 0.1695017 -0.3728528
237750000 0.1606541 -0.3647923 0.8393459 0.3647923 0.8393459 0.3647923 0.1606541 -0.3647923
245000000 0.1524148 -0.3569250 0.8475852 0.3569250 0.8475852 0.3569250 0.1524148 -0.3569250
252250000 0.1447333 -0.3492557 0.8552667 0.3492557 0.8552667 0.3492557 0.1447333 -0.3492557
259500000 0.1375637 -0.3417864 0.8624363 0.3417864 0.8624363 0.3417864 0.1375637 -0.3417864
266750000 0.1308644 -0.3345176 0.8691356 0.3345176 0.8691356 0.3345176 0.1308644 -0.3345176
274000000 0.1245976 -0.3274478 0.8754024 0.3274478 0.8754024 0.3274478 0.1245976 -0.3274478
281250000 0.1187290 -0.3205748 0.8812710 0.3205748 0.8812710 0.3205748 0.1187290 -0.3205748
288500000 0.1132273 -0.3138951 0.8867727 0.3138951 0.8867727 0.3138951 0.1132273 -0.3138951
295750000 0.1080642 -0.3074048 0.8919358 0.3074048 0.8919358 0.3074048 0.1080642 -0.3074048
303000000 0.1032138 -0.3010994 0.8967862 0.3010994 0.8967862 0.3010994 0.1032138 -0.3010994
310250000 0.0986524 -0.2949740 0.9013476 0.2949740 0.9013476 0.2949740 0.0986524 -0.2949740
317500000 0.0943586 -0.2890234 0.9056414 0.2890234 0.9056414 0.2890234 0.0943586 -0.2890234
324750000 0.0903128 -0.2832423 0.9096872 0.2832423 0.9096872 0.2832423 0.0903128 -0.2832423
332000000 0.0864970 -0.2776255 0.9135030 0.2776255 0.9135030 0.2776255 0.0864970 -0.2776255
339250000 0.0828947 -0.2721674 0.9171053 0.2721674 0.9171053 0.2721674 0.0828947 -0.2721674
346500000 0.0794910 -0.2668628 0.9205090 0.2668628 0.9205090 0.2668628 0.0794910 -0.2668628
353750000 0.0762720 -0.2617063 0.9237280 0.2617063 0.9237280 0.2617063 0.0762720 -0.2617063
361000000 0.0732252 -0.2566928 0.9267748 0.2566928 0.9267748 0.2566928 0.0732252 -0.2566928
368250000 0.0703388 -0.2518171 0.9296612 0.2518171 0.9296612 0.2518171 0.0703388 -0.2518171
375500000 0.0676022 -0.2470742 0.9323978 0.2470742 0.9323978 0.2470742 0.0676022 -0.2470742
382750000 0.0650056 -0.2424595 0.9349944 0.2424595 0.9349944 0.2424595 0.0650056 -0.2424595
390000000 0.0625398 -0.2379681 0.9374602 0.2379681 0.9374602 0.2379681 0.0625398 -0.2379681
397250000 0.0601966 -0.2335955 0.9398034 0.2335955 0.9398034 0.2335955 0.0601966 -0.2335955
404500000 0.0579682 -0.2293374 0.9420318 0.2293374 0.9420318 0.2293374 0.0579682 -0.2293374
411750000 0.0558475 -0.2251896 0.9441525 0.2251896 0.9441525 0.2251896 0.0558475 -0.2251896
419000000 0.0538278 -0.2211481 0.9461722 0.2211481 0.9461722 0.2211481 0.0538278 -0.2211481
426250000 0.0519030 -0.2172088 0.9480970 0.2172088 0.9480970 0.2172088 0.0519030 -0.2172088
433500000 0.0500675 -0.2133680 0.9499325 0.2133680 0.9499325 0.2133680 0.0500675 -0.2133680
440750000 0.0483160 -0.2096223 0.9516840 0.2096223 0.9516840 0.2096223 0.0483160 -0.2096223
448000000 0.0466436 -0.2059680 0.9533564 0.2059680 0.9533564 0.2059680 0.0466436 -0.2059680
455250000 0.0450458 -0.2024019 0.9549542 0.2024019 0.9549542 0.2024019 0.0450458 -0.2024019
462500000 0.0435183 -0.1989208 0.9564817 0.1989208 0.9564817 0.1989208 0.0435183 -0.1989208
469750000 0.0420573 -0.1955216 0.9579427 0.1955216 0.9579427 0.1955216 0.0420573 -0.1955216
477000000 0.0406589 -0.1922014 0.9593411 0.1922014 0.9593411 0.1922014 0.0406589 -0.1922014
484250000 0.0393199 -0.1889575 0.9606801 0.1889575 0.9606801 0.1889575 0.0393199 -0.1889575
491500000 0.0380370 -0.1857870 0.9619630 0.1857870 0.9619630 0.1857870 0.0380370 -0.1857870
498750000 0.0368073 -0.1826875 0.9631927 0.1826875 0.9631927 0.1826875 0.0368073 -0.1826875
506000000 0.0356279 -0.1796564 0.9643721 0.1796564 0.9643721 0.1796564 0.0356279 -0.1796564
513250000 0.0344962 -0.1766915 0.9655038 0.1766915 0.9655038 0.1766915 0.0344962 -0.1766915
520500000 0.0334098 -0.1737903 0.9665902 0.1737903 0.9665902 0.1737903 0.0334098 -0.1737903
527750000 0.0323664 -0.1709508 0.9676336 0.1709508 0.9676336 0.1709508 0.0323664 -0.1709508
535000000 0.0313638 -0.1681709 0.9686362 0.1681709 0.9686362 0.1681709 0.0313638 -0.1681709
542250000 0.0304000 -0.1654485 0.9696000 0.1654485 0.9696000 0.1654485 0.0304000 -0.1654485
549500000 0.0294732 -0.1627817 0.9705268 0.1627817 0.9705268 0.1627817 0.0294732 -0.1627817
556750000 0.0285814 -0.1601687 0.9714186 0.1601687 0.9714186 0.1601687 0.0285814 -0.1601687
564000000 0.0277232 -0.1576078 0.9722768 0.1576078 0.9722768 0.1576078 0.0277232 -0.1576078
571250000 0.0268968 -0.1550971 0.9731032 0.1550971 0.9731032 0.1550971 0.0268968 -0.1550971
578500000 0.0261008 -0.1526352 0.9738992 0.1526352 0.9738992 0.1526352 0.0261008 -0.1526352
585750000 0.0253338 -0.1502204 0.9746662 0.1502204 0.9746662 0.1502204 0.0253338 -0.1502204
593000000 0.0245944 -0.1478512 0.9754056 0.1478512 0.9754056 0.1478512 0.0245944 -0.1478512
600250000 0.0238815 -0.1455263 0.9761185 0.1455263 0.9761185 0.1455263 0.0238815 -0.1455263
607500000 0.0231938 -0.1432441 0.9768062 0.1432441 0.9768062 0.1432441 0.0231938 -0.1432441
614750000 0.0225302 -0.1410034 0.9774698 0.1410034 0.9774698 0.1410034 0.0225302 -0.1410034
622000000 0.0218897 -0.1388028 0.9781103 0.1388028 0.9781103 0.1388028 0.0218897 -0.1388028
629250000 0.0212712 -0.1366413 0.9787288 0.1366413 0.9787288 0.1366413 0.0212712 -0.1366413
636500000 0.0206739 -0.1345175 0.9793261 0.1345175 0.9793261 0.1345175 0.0206739 -0.1345175
643750000 0.0200968 -0.1324303 0.9799032 0.1324303 0.9799032 0.1324303 0.0200968 -0.1324303
651000000 0.0195392 -0.1303787 0.9804608 0.1303787 0.9804608 0.1303787 0.0195392 -0.1303787
658250000 0.0190001 -0.1283616 0.9809999 0.1283616 0.9809999 0.1283616 0.0190001 -0.1283616
665500000 0.0184788 -0.1263779 0.9815212 0.1263779 0.9815212 0.1263779 0.0184788 -0.1263779
672750000 0.0179747 -0.1244267 0.9820253 0.1244267 0.9820253 0.1244267 0.0179747 -0.1244267
680000000 0.0174869 -0.1225071 0.9825131 0.1225071 0.9825131 0.1225071 0.0174869 -0.1225071
687250000 0.0170150 -0.1206181 0.9829850 0.1206181 0.9829850 0.1206181 0.0170150 -0.1206181
694500000 0.0165582 -0.1187589 0.9834418 0.1187589 0.9834418 0.1187589 0.0165582 -0.1187589
701750000 0.0161160 -0.1169286 0.9838840 0.1169286 0.9838840 0.1169286 0.0161160 -0.1169286
709000000 0.0156877 -0.1151264 0.9843123 0.1151264 0.9843123 0.1151264 0.0156877 -0.1151264
716250000 0.0152730 -0.1133516 0.9847270 0.1133516 0.9847270 0.1133516 0.0152730 -0.1133516
723500000 0.0148712 -0.1116033 0.9851288 0.1116033 0.9851288 0.1116033 0.0148712 -0.1116033
730750000 0.0144819 -0.1098808 0.9855181 0.1098808 0.9855181 0.1098808 0.0144819 -0.1098808
738000000 0.0141046 -0.1081835 0.9858954 0.1081835 0.9858954 0.1081835 0.0141046 -0.1081835
745250000 0.0137389 -0.1065106 0.9862611 0.1065106 0.9862611 0.1065106 0.0137389 -0.1065106
752500000 0.0133843 -0.1048615 0.9866157 0.1048615 0.9866157 0.1048615 0.0133843 -0.1048615
759750000 0.0130406 -0.1032355 0.9869594 0.1032355 0.9869594 0.1032355 0.0130406 -0.1032355
767000000 0.0127072 -0.1016321 0.9872928 0.1016321 0.9872928 0.1016321 0.0127072 -0.1016321
774250000 0.0123838 -0.1000507 0.9876162 0.1000507 0.9876162 0.1000507 0.0123838 -0.1000507
781500000 0.0120701 -0.0984906 0.9879299 0.0984906 0.9879299 0.0984906 0.0120701 -0.0984906
788750000 0.0117657 -0.0969513 0.9882343 0.0969513 0.9882343 0.0969513 0.0117657 -0.0969513
796000000 0.0114703 -0.0954323 0.9885297 0.0954323 0.9885297 0.0954323 0.0114703 -0.0954323
803250000 0.0111837 -0.0939331 0.9888163 0.0939331 0.9888163 0.0939331 0.0111837 -0.0939331
810500000 0.0109055 -0.0924531 0.9890945 0.0924531 0.9890945 0.0924531 0.0109055 -0.0924531
817750000 0.0106354 -0.0909919 0.9893646 0.0909919 0.9893646 0.0909919 0.0106354 -0.0909919
825000000 0.0103732 -0.0895490 0.9896268 0.0895490 0.9896268 0.0895490 0.0103732 -0.0895490
832250000 0.0101186 -0.0881240 0.9898814 0.0881240 0.9898814 0.0881240 0.0101186 -0.0881240
839500000 0.0098714 -0.0867163 0.9901286 0.0867163 0.9901286 0.0867163 0.0098714 -0.0867163
846750000 0.0096313 -0.0853256 0.9903687 0.0853256 0.9903687 0.0853256 0.0096313 -0.0853256
854000000 0.0093982 -0.0839515 0.9906018 0.0839515 0.9906018 0.0839515 0.0093982 -0.0839515
861250000 0.0091718 -0.0825936 0.9908282 0.0825936 0.9908282 0.0825936 0.0091718 -0.0825936
868500000 0.0089518 -0.0812514 0.9910482 0.0812514 0.9910482 0.0812514 0.0089518 -0.0812514
875750000 0.0087381 -0.0799246 0.9912619 0.0799246 0.9912619 0.0799246 0.0087381 -0.0799246
883000000 0.0085306 -0.0786128 0.9914694 0.0786128 0.9914694 0.0786128 0.0085306 -0.0786128
890250000 0.0083290 -0.0773157 0.9916710 0.0773157 0.9916710 0.0773157 0.0083290 -0.0773157
897500000 0.0081331 -0.0760329 0.9918669 0.0760329 0.9918669 0.0760329 0.0081331 -0.0760329
904750000 0.0079427 -0.0747641 0.9920573 0.0747641 0.9920573 0.0747641 0.0079427 -0.0747641
912000000 0.0077578 -0.0735089 0.9922422 0.0735089 0.9922422 0.0735089 0.0077578 -0.0735089
919250000 0.0075782 -0.0722671 0.9924218 0.0722671 0.9924218 0.0722671 0.0075782 -0.0722671
926500000 0.0074037 -0.0710383 0.9925963 0.0710383 0.9925963 0.0710383 0.0074037 -0.0710383
933750000 0.0072341 -0.0698223 0.9927659 0.0698223 0.9927659 0.0698223 0.0072341 -0.0698223
941000000 0.0070693 -0.0686187 0.9929307 0.0686187 0.9929307 0.0686187 0.0070693 -0.0686187
948250000 0.0069093 -0.0674273 0.9930907 0.0674273 0.9930907 0.0674273 0.0069093 -0.0674273
955500000 0.0067537 -0.0662478 0.9932463 0.0662478 0.9932463 0.0662478 0.0067537 -0.0662478
962750000 0.0066027 -0.0650799 0.9933973 0.0650799 0.9933973 0.0650799 0.0066027 -0.0650799
970000000 0.0064559 -0.0639233 0.9935441 0.0639233 0.9935441 0.0639233 0.0064559 -0.0639233
977250000 0.0063134 -0.0627779 0.9936866 0.0627779 0.9936866 0.0627779 0.0063134 -0.0627779
984500000 0.0061749 -0.0616434 0.9938251 0.0616434 0.9938251 0.0616434 0.0061749 -0.0616434
991750000 0.0060404 -0.0605195 0.9939596 0.0605195 0.9939596 0.0605195 0.0060404 -0.0605195
999000000 0.0059098 -0.0594060 0.9940902 0.0594060 0.9940902 0.0594060 0.0059098 -0.0594060
1006250000 0.0057830 -0.0583026 0.9942170 0.0583026 0.9942170 0.0583026 0.0057830 -0.0583026
1013500000 0.0056598 -0.0572093 0.9943402 0.0572093 0.9943402 0.0572093 0.0056598 -0.0572093
1020750000 0.0055403 -0.0561256 0.9944597 0.0561256 0.9944597 0.0561256 0.0055403 -0.0561256
1028000000 0.0054243 -0.0550516 0.9945757 0.0550516 0.9945757 0.0550516 0.0054243 -0.0550516
1035250000 0.0053116 -0.0539868 0.9946884 0.0539868 0.9946884 0.0539868 0.0053116 -0.0539868
1042500000 0.0052023 -0.0529312 0.9947977 0.0529312 0.9947977 0.0529312 0.0052023 -0.0529312
1049750000 0.0050963 -0.0518845 0.9949037 0.0518845 0.9949037 0.0518845 0.0050963 -0.0518845
1057000000 0.0049934 -0.0508466 0.9950066 0.0508466 0.9950066 0.0508466 0.0049934 -0.0508466
1064250000 0.0048937 -0.0498172 0.9951063 0.0498172 0.9951063 0.0498172 0.0048937 -0.0498172
1071500000 0.0047969 -0.0487963 0.9952031 0.0487963 0.9952031 0.0487963 0.0047969 -0.0487963
1078750000 0.0047032 -0.0477835 0.9952968 0.0477835 0.9952968 0.0477835 0.0047032 -0.0477835
1086000000 0.0046123 -0.0467789 0.9953877 0.0467789 0.9953877 0.0467789 0.0046123 -0.0467789
1093250000 0.0045242 -0.0457821 0.9954758 0.0457821 0.9954758 0.0457821 0.0045242 -0.0457821
1100500000 0.0044389 -0.0447930 0.9955611 0.0447930 0.9955611 0.0447930 0.0044389 -0.0447930
1107750000 0.0043563 -0.0438115 0.9956437 0.0438115 0.9956437 0.0438115 0.0043563 -0.0438115
1115000000 0.0042764 -0.0428374 0.9957236 0.0428374 0.9957236 0.0428374 0.0042764 -0.0428374
1122250000 0.0041990 -0.0418706 0.9958010 0.0418706 0.9958010 0.0418706 0.0041990 -0.0418706
1129500000 0.0041242 -0.0409109 0.9958758 0.0409109 0.9958758 0.0409109 0.0041242 -0.0409109
1136750000 0.0040518 -0.0399581 0.9959482 0.0399581 0.9959482 0.0399581 0.0040518 -0.0399581
1144000000 0.0039819 -0.0390122 0.9960181 0.0390122 0.9960181 0.0390122 0.0039819 -0.0390122
1151250000 0.0039143 -0.0380730 0.9960857 0.0380730 0.9960857 0.0380730 0.0039143 -0.0380730
1158500000 0.0038491 -0.0371404 0.9961509 0.0371404 0.9961509 0.0371404 0.0038491 -0.0371404
1165750000 0.0037862 -0.0362142 0.9962138 0.0362142 0.9962138 0.0362142 0.0037862 -0.0362142
1173000000 0.0037254 -0.0352943 0.9962746 0.0352943 0.9962746 0.0352943 0.0037254 -0.0352943
1180250000 0.0036669 -0.0343806 0.9963331 0.0343806 0.9963331 0.0343806 0.0036669 -0.0343806
1187500000 0.0036105 -0.0334730 0.9963895 0.0334730 0.9963895 0.0334730 0.0036105 -0.0334730
1194750000 0.0035563 -0.0325713 0.9964437 0.0325713 0.9964437 0.0325713 0.0035563 -0.0325713
1202000000 0.0035041 -0.0316755 0.9964959 0.0316755 0.9964959 0.0316755 0.0035041 -0.0316755
1209250000 0.0034539 -0.0307853 0.9965461 0.0307853 0.9965461 0.0307853 0.0034539 -0.0307853
1216500000 0.0034058 -0.0299008 0.9965942 0.0299008 0.9965942 0.0299008 0.0034058 -0.0299008
1223750000 0.0033595 -0.0290218 0.9966405 0.0290218 0.9966405 0.0290218 0.0033595 -0.0290218
1231000000 0.0033152 -0.0281481 0.9966848 0.0281481 0.9966848 0.0281481 0.0033152 -0.0281481
1238250000 0.0032728 -0.0272798 0.9967272 0.0272798 0.9967272 0.0272798 0.0032728 -0.0272798
1245500000 0.0032323 -0.0264166 0.9967677 0.0264166 0.9967677 0.0264166 0.0032323 -0.0264166
1252750000 0.0031935 -0.0255585 0.9968065 0.0255585 0.9968065 0.0255585 0.0031935 -0.0255585
1260000000 0.0031566 -0.0247054 0.9968434 0.0247054 0.9968434 0.0247054 0.0031566 -0.0247054
1267250000 0.0031214 -0.0238572 0.9968786 0.0238572 0.9968786 0.0238572 0.0031214 -0.0238572
1274500000 0.0030880 -0.0230138 0.9969120 0.0230138 0.9969120 0.0230138 0.0030880 -0.0230138
1281750000 0.0030562 -0.0221752 0.9969438 0.0221752 0.9969438 0.0221752 0.0030562 -0.0221752
1289000000 0.0030262 -0.0213411 0.9969738 0.0213411 0.9969738 0.0213411 0.0030262 -0.0213411
1296250000 0.0029978 -0.0205116 0.9970022 0.0205116 0.9970022 0.0205116 0.0029978 -0.0205116
1303500000 0.0029710 -0.0196865 0.9970290 0.0196865 0.9970290 0.0196865 0.0029710 -0.0196865
1310750000 0.0029458 -0.0188658 0.9970542 0.0188658 0.9970542 0.0188658 0.0029458 -0.0188658
1318000000 0.0029222 -0.0180493 0.9970778 0.0180493 0.9970778 0.0180493 0.0029222 -0.0180493
1325250000 0.0029001 -0.0172371 0.9970999 0.0172371 0.9970999 0.0172371 0.0029001 -0.0172371
1332500000 0.0028796 -0.0164290 0.9971204 0.0164290 0.9971204 0.0164290 0.0028796 -0.0164290
1339750000 0.0028606 -0.0156249 0.9971394 0.0156249 0.9971394 0.0156249 0.0028606 -0.0156249
1347000000 0.0028431 -0.0148248 0.9971569 0.0148248 0.9971569 0.0148248 0.0028431 -0.0148248
1354250000 0.0028270 -0.0140286 0.9971730 0.0140286 0.9971730 0.0140286 0.0028270 -0.0140286
1361500000 0.0028124 -0.0132363 0.9971876 0.0132363 0.9971876 0.0132363 0.0028124 -0.0132363
1368750000 0.0027992 -0.0124476 0.9972008 0.0124476 0.9972008 0.0124476 0.0027992 -0.0124476
1376000000 0.0027875 -0.0116627 0.9972125 0.0116627 0.9972125 0.0116627 0.0027875 -0.0116627
1383250000 0.0027771 -0.0108813 0.9972229 0.0108813 0.9972229 0.0108813 0.0027771 -0.0108813
1390500000 0.0027681 -0.0101035 0.9972319 0.0101035 0.9972319 0.0101035 0.0027681 -0.0101035
1397750000 0.0027604 -0.0093292 0.9972396 0.0093292 0.9972396 0.0093292 0.0027604 -0.0093292
1405000000 0.0027541 -0.0085583 0.9972459 0.0085583 0.9972459 0.0085583 0.0027541 -0.0085583
1412250000 0.0027492 -0.0077907 0.9972508 0.0077907 0.9972508 0.0077907 0.0027492 -0.0077907
1419500000 0.0027455 -0.0070265 0.9972545 0.0070265 0.9972545 0.0070265 0.0027455 -0.0070265
1426750000 0.0027431 -0.0062654 0.9972569 0.0062654 0.9972569 0.0062654 0.0027431 -0.0062654
1434000000 0.0027420 -0.0055075 0.9972580 0.0055075 0.9972580 0.0055075 0.0027420 -0.0055075
1441250000 0.0027422 -0.0047528 0.9972578 0.0047528 0.9972578 0.0047528 0.0027422 -0.0047528
1448500000 0.0027436 -0.0040010 0.9972564 0.0040010 0.9972564 0.0040010 0.0027436 -0.0040010
1455750000 0.0027463 -0.0032523 0.9972537 0.0032523 0.9972537 0.0032523 0.0027463 -0.0032523
1463000000 0.0027502 -0.0025064 0.9972498 0.0025064 0.9972498 0.0025064 0.0027502 -0.0025064
1470250000 0.0027553 -0.0017635 0.9972447 0.0017635 0.9972447 0.0017635 0.0027553 -0.0017635
1477500000 0.0027616 -0.0010234 0.9972384 0.0010234 0.9972384 0.0010234 0.0027616 -0.0010234
1484750000 0.0027691 -0.0002860 0.9972309 0.0002860 0.9972309 0.0002860 0.0027691 -0.0002860
1492000000 0.0027778 0.0004486 0.9972222 -0.0004486 0.9972222 -0.0004486 0.0027778 0.0004486
1499250000 0.0027877 0.0011806 0.9972123 -0.0011806 0.9972123 -0.0011806 0.0027877 0.0011806
1506500000 0.0027987 0.0019099 0.9972013 -0.0019099 0.9972013 -0.0019099 0.0027987 0.0019099
1513750000 0.0028109 0.0026367 0.9971891 -0.0026367 0.9971891 -0.0026367 0.0028109 0.0026367
1521000000 0.0028242 0.0033610 0.9971758 -0.0033610 0.9971758 -0.0033610 0.0028242 0.0033610
1528250000 0.0028387 0.0040828 0.9971613 -0.0040828 0.9971613 -0.0040828 0.0028387 0.0040828
1535500000 0.0028543 0.0048021 0.9971457 -0.0048021 0.9971457 -0.0048021 0.0028543 0.0048021
1542750000 0.0028710 0.0055191 0.9971290 -0.0055191 0.9971290 -0.0055191 0.0028710 0.0055191
1550000000 0.0028888 0.0062338 0.9971112 -0.0062338 0.9971112 -0.0062338 0.0028888 0.0062338
1557250000 0.0029077 0.0069462 0.9970923 -0.0069462 0.9970923 -0.0069462 0.0029077 0.0069462
1564500000 0.0029277 0.0076563 0.9970723 -0.0076563 0.9970723 -0.0076563 0.0029277 0.0076563
1571750000 0.0029488 0.0083643 0.9970512 -0.0083643 0.9970512 -0.0083643 0.0029488 0.0083643
1579000000 0.0029710 0.0090701 0.9970290 -0.0090701 0.9970290 -0.0090701 0.0029710 0.0090701
1586250000 0.0029942 0.0097738 0.9970058 -0.0097738 0.9970058 -0.0097738 0.0029942 0.0097738
1593500000 0.0030185 0.0104754 0.9969815 -0.0104754 0.9969815 -0.0104754 0.0030185 0.0104754
1600750000 0.0030439 0.0111750 0.9969561 -0.0111750 0.9969561 -0.0111750 0.0030439 0.0111750
1608000000 0.0030704 0.0118726 0.9969296 -0.0118726 0.9969296 -0.0118726 0.0030704 0.0118726
1615250000 0.0030978 0.0125682 0.9969022 -0.0125682 0.9969022 -0.0125682 0.0030978 0.0125682
1622500000 0.0031264 0.0132619 0.9968736 -0.0132619 0.9968736 -0.0132619 0.0031264 0.0132619
1629750000 0.0031560 0.0139538 0.9968440 -0.0139538 0.9968440 -0.0139538 0.0031560 0.0139538
