!Murata Part Number: GRM3195C1H333JA01
!These Parameters are Measured in Series Mode Connection
!Data Generated on Mar 30, 2021
!       o--ll--o
!Port1            Port2
!       o------o
!Operation Temp=25[degC], DC Bias Voltage=0[V]
!Freq. Start=1000[kHz] Stop=6[GHz] 401[Steps]
# Hz S RI R 50
!Freq.(Hz) S11(Real) S11(Imag) S21(Real) S21(Imag) S12(Real) S12(Imag) S22(Real) S22(Imag)
1000000 0.0023370 -0.0476994 0.9976630 0.0476994 0.9976630 0.0476994 0.0023370 -0.0476994
1021987 0.0022400 -0.0466757 0.9977600 0.0466757 0.9977600 0.0466757 0.0022400 -0.0466757
1044457 0.0021471 -0.0456737 0.9978529 0.0456737 0.9978529 0.0456737 0.0021471 -0.0456737
1067422 0.0020581 -0.0446930 0.9979419 0.0446930 0.9979419 0.0446930 0.0020581 -0.0446930
1090891 0.0019729 -0.0437330 0.9980271 0.0437330 0.9980271 0.0437330 0.0019729 -0.0437330
1114877 0.0018913 -0.0427935 0.9981087 0.0427935 0.9981087 0.0427935 0.0018913 -0.0427935
1139390 0.0018131 -0.0418738 0.9981869 0.0418738 0.9981869 0.0418738 0.0018131 -0.0418738
1164441 0.0017383 -0.0409737 0.9982617 0.0409737 0.9982617 0.0409737 0.0017383 -0.0409737
1190044 0.0016666 -0.0400927 0.9983334 0.0400927 0.9983334 0.0400927 0.0016666 -0.0400927
1216210 0.0015980 -0.0392305 0.9984020 0.0392305 0.9984020 0.0392305 0.0015980 -0.0392305
1242950 0.0015323 -0.0383865 0.9984677 0.0383865 0.9984677 0.0383865 0.0015323 -0.0383865
1270279 0.0014694 -0.0375605 0.9985306 0.0375605 0.9985306 0.0375605 0.0014694 -0.0375605
1298209 0.0014092 -0.0367521 0.9985908 0.0367521 0.9985908 0.0367521 0.0014092 -0.0367521
1326753 0.0013515 -0.0359609 0.9986485 0.0359609 0.9986485 0.0359609 0.0013515 -0.0359609
1355924 0.0012963 -0.0351865 0.9987037 0.0351865 0.9987037 0.0351865 0.0012963 -0.0351865
1385737 0.0012434 -0.0344286 0.9987566 0.0344286 0.9987566 0.0344286 0.0012434 -0.0344286
1416205 0.0011927 -0.0336868 0.9988073 0.0336868 0.9988073 0.0336868 0.0011927 -0.0336868
1447343 0.0011442 -0.0329608 0.9988558 0.0329608 0.9988558 0.0329608 0.0011442 -0.0329608
1479166 0.0010978 -0.0322502 0.9989022 0.0322502 0.9989022 0.0322502 0.0010978 -0.0322502
1511688 0.0010534 -0.0315548 0.9989466 0.0315548 0.9989466 0.0315548 0.0010534 -0.0315548
1544926 0.0010108 -0.0308742 0.9989892 0.0308742 0.9989892 0.0308742 0.0010108 -0.0308742
1578894 0.0009700 -0.0302081 0.9990300 0.0302081 0.9990300 0.0302081 0.0009700 -0.0302081
1613609 0.0009310 -0.0295561 0.9990690 0.0295561 0.9990690 0.0295561 0.0009310 -0.0295561
1649087 0.0008936 -0.0289181 0.9991064 0.0289181 0.9991064 0.0289181 0.0008936 -0.0289181
1685346 0.0008579 -0.0282936 0.9991421 0.0282936 0.9991421 0.0282936 0.0008579 -0.0282936
1722402 0.0008236 -0.0276824 0.9991764 0.0276824 0.9991764 0.0276824 0.0008236 -0.0276824
1760272 0.0007908 -0.0270843 0.9992092 0.0270843 0.9992092 0.0270843 0.0007908 -0.0270843
1798975 0.0007594 -0.0264989 0.9992406 0.0264989 0.9992406 0.0264989 0.0007594 -0.0264989
1838529 0.0007293 -0.0259259 0.9992707 0.0259259 0.9992707 0.0259259 0.0007293 -0.0259259
1878953 0.0007006 -0.0253651 0.9992994 0.0253651 0.9992994 0.0253651 0.0007006 -0.0253651
1920266 0.0006730 -0.0248163 0.9993270 0.0248163 0.9993270 0.0248163 0.0006730 -0.0248163
1962487 0.0006466 -0.0242792 0.9993534 0.0242792 0.9993534 0.0242792 0.0006466 -0.0242792
2005636 0.0006213 -0.0237535 0.9993787 0.0237535 0.9993787 0.0237535 0.0006213 -0.0237535
2049734 0.0005972 -0.0232389 0.9994028 0.0232389 0.9994028 0.0232389 0.0005972 -0.0232389
2094801 0.0005740 -0.0227353 0.9994260 0.0227353 0.9994260 0.0227353 0.0005740 -0.0227353
2140860 0.0005518 -0.0222425 0.9994482 0.0222425 0.9994482 0.0222425 0.0005518 -0.0222425
2187931 0.0005306 -0.0217601 0.9994694 0.0217601 0.9994694 0.0217601 0.0005306 -0.0217601
2236037 0.0005103 -0.0212879 0.9994897 0.0212879 0.9994897 0.0212879 0.0005103 -0.0212879
2285201 0.0004908 -0.0208258 0.9995092 0.0208258 0.9995092 0.0208258 0.0004908 -0.0208258
2335446 0.0004722 -0.0203735 0.9995278 0.0203735 0.9995278 0.0203735 0.0004722 -0.0203735
2386795 0.0004543 -0.0199308 0.9995457 0.0199308 0.9995457 0.0199308 0.0004543 -0.0199308
2439274 0.0004373 -0.0194976 0.9995627 0.0194976 0.9995627 0.0194976 0.0004373 -0.0194976
2492906 0.0004209 -0.0190735 0.9995791 0.0190735 0.9995791 0.0190735 0.0004209 -0.0190735
2547717 0.0004053 -0.0186584 0.9995947 0.0186584 0.9995947 0.0186584 0.0004053 -0.0186584
2603734 0.0003903 -0.0182521 0.9996097 0.0182521 0.9996097 0.0182521 0.0003903 -0.0182521
2660982 0.0003760 -0.0178544 0.9996240 0.0178544 0.9996240 0.0178544 0.0003760 -0.0178544
2719490 0.0003622 -0.0174651 0.9996378 0.0174651 0.9996378 0.0174651 0.0003622 -0.0174651
2779283 0.0003491 -0.0170841 0.9996509 0.0170841 0.9996509 0.0170841 0.0003491 -0.0170841
2840391 0.0003365 -0.0167111 0.9996635 0.0167111 0.9996635 0.0167111 0.0003365 -0.0167111
2902843 0.0003245 -0.0163460 0.9996755 0.0163460 0.9996755 0.0163460 0.0003245 -0.0163460
2966668 0.0003129 -0.0159887 0.9996871 0.0159887 0.9996871 0.0159887 0.0003129 -0.0159887
3031896 0.0003019 -0.0156389 0.9996981 0.0156389 0.9996981 0.0156389 0.0003019 -0.0156389
3098558 0.0002913 -0.0152964 0.9997087 0.0152964 0.9997087 0.0152964 0.0002913 -0.0152964
3166686 0.0002812 -0.0149612 0.9997188 0.0149612 0.9997188 0.0149612 0.0002812 -0.0149612
3236312 0.0002716 -0.0146331 0.9997284 0.0146331 0.9997284 0.0146331 0.0002716 -0.0146331
3307469 0.0002623 -0.0143118 0.9997377 0.0143118 0.9997377 0.0143118 0.0002623 -0.0143118
3380190 0.0002534 -0.0139973 0.9997466 0.0139973 0.9997466 0.0139973 0.0002534 -0.0139973
3454511 0.0002450 -0.0136895 0.9997550 0.0136895 0.9997550 0.0136895 0.0002450 -0.0136895
3530465 0.0002368 -0.0133881 0.9997632 0.0133881 0.9997632 0.0133881 0.0002368 -0.0133881
3608090 0.0002291 -0.0130930 0.9997709 0.0130930 0.9997709 0.0130930 0.0002291 -0.0130930
3687421 0.0002217 -0.0128041 0.9997783 0.0128041 0.9997783 0.0128041 0.0002217 -0.0128041
3768496 0.0002145 -0.0125213 0.9997855 0.0125213 0.9997855 0.0125213 0.0002145 -0.0125213
3851354 0.0002077 -0.0122443 0.9997923 0.0122443 0.9997923 0.0122443 0.0002077 -0.0122443
3936034 0.0002012 -0.0119732 0.9997988 0.0119732 0.9997988 0.0119732 0.0002012 -0.0119732
4022575 0.0001950 -0.0117077 0.9998050 0.0117077 0.9998050 0.0117077 0.0001950 -0.0117077
4111020 0.0001891 -0.0114477 0.9998109 0.0114477 0.9998109 0.0114477 0.0001891 -0.0114477
4201409 0.0001834 -0.0111932 0.9998166 0.0111932 0.9998166 0.0111932 0.0001834 -0.0111932
4293785 0.0001779 -0.0109439 0.9998221 0.0109439 0.9998221 0.0109439 0.0001779 -0.0109439
4388193 0.0001727 -0.0106998 0.9998273 0.0106998 0.9998273 0.0106998 0.0001727 -0.0106998
4484676 0.0001677 -0.0104608 0.9998323 0.0104608 0.9998323 0.0104608 0.0001677 -0.0104608
4583281 0.0001630 -0.0102267 0.9998370 0.0102267 0.9998370 0.0102267 0.0001630 -0.0102267
4684054 0.0001584 -0.0099975 0.9998416 0.0099975 0.9998416 0.0099975 0.0001584 -0.0099975
4787042 0.0001541 -0.0097729 0.9998459 0.0097729 0.9998459 0.0097729 0.0001541 -0.0097729
4892295 0.0001499 -0.0095530 0.9998501 0.0095530 0.9998501 0.0095530 0.0001499 -0.0095530
4999862 0.0001460 -0.0093376 0.9998540 0.0093376 0.9998540 0.0093376 0.0001460 -0.0093376
5109794 0.0001422 -0.0091266 0.9998578 0.0091266 0.9998578 0.0091266 0.0001422 -0.0091266
5222143 0.0001385 -0.0089200 0.9998615 0.0089200 0.9998615 0.0089200 0.0001385 -0.0089200
5336962 0.0001351 -0.0087175 0.9998649 0.0087175 0.9998649 0.0087175 0.0001351 -0.0087175
5454306 0.0001318 -0.0085192 0.9998682 0.0085192 0.9998682 0.0085192 0.0001318 -0.0085192
5574230 0.0001286 -0.0083249 0.9998714 0.0083249 0.9998714 0.0083249 0.0001286 -0.0083249
5696791 0.0001256 -0.0081345 0.9998744 0.0081345 0.9998744 0.0081345 0.0001256 -0.0081345
5822046 0.0001228 -0.0079480 0.9998772 0.0079480 0.9998772 0.0079480 0.0001228 -0.0079480
5950055 0.0001200 -0.0077652 0.9998800 0.0077652 0.9998800 0.0077652 0.0001200 -0.0077652
6080879 0.0001174 -0.0075861 0.9998826 0.0075861 0.9998826 0.0075861 0.0001174 -0.0075861
6214580 0.0001150 -0.0074106 0.9998850 0.0074106 0.9998850 0.0074106 0.0001150 -0.0074106
6351220 0.0001126 -0.0072386 0.9998874 0.0072386 0.9998874 0.0072386 0.0001126 -0.0072386
6490864 0.0001104 -0.0070700 0.9998896 0.0070700 0.9998896 0.0070700 0.0001104 -0.0070700
6633579 0.0001082 -0.0069048 0.9998918 0.0069048 0.9998918 0.0069048 0.0001082 -0.0069048
6779431 0.0001062 -0.0067428 0.9998938 0.0067428 0.9998938 0.0067428 0.0001062 -0.0067428
6928491 0.0001043 -0.0065840 0.9998957 0.0065840 0.9998957 0.0065840 0.0001043 -0.0065840
7080828 0.0001025 -0.0064284 0.9998975 0.0064284 0.9998975 0.0064284 0.0001025 -0.0064284
7236514 0.0001007 -0.0062757 0.9998993 0.0062757 0.9998993 0.0062757 0.0001007 -0.0062757
7395623 0.0000991 -0.0061260 0.9999009 0.0061260 0.9999009 0.0061260 0.0000991 -0.0061260
7558231 0.0000975 -0.0059793 0.9999025 0.0059793 0.9999025 0.0059793 0.0000975 -0.0059793
7724414 0.0000961 -0.0058353 0.9999039 0.0058353 0.9999039 0.0058353 0.0000961 -0.0058353
7894251 0.0000947 -0.0056941 0.9999053 0.0056941 0.9999053 0.0056941 0.0000947 -0.0056941
8067822 0.0000934 -0.0055557 0.9999066 0.0055557 0.9999066 0.0055557 0.0000934 -0.0055557
8245209 0.0000922 -0.0054198 0.9999078 0.0054198 0.9999078 0.0054198 0.0000922 -0.0054198
8426497 0.0000910 -0.0052865 0.9999090 0.0052865 0.9999090 0.0052865 0.0000910 -0.0052865
8611770 0.0000900 -0.0051557 0.9999100 0.0051557 0.9999100 0.0051557 0.0000900 -0.0051557
8801117 0.0000890 -0.0050273 0.9999110 0.0050273 0.9999110 0.0050273 0.0000890 -0.0050273
8994628 0.0000881 -0.0049013 0.9999119 0.0049013 0.9999119 0.0049013 0.0000881 -0.0049013
9192393 0.0000872 -0.0047776 0.9999128 0.0047776 0.9999128 0.0047776 0.0000872 -0.0047776
9394506 0.0000864 -0.0046562 0.9999136 0.0046562 0.9999136 0.0046562 0.0000864 -0.0046562
9601063 0.0000857 -0.0045370 0.9999143 0.0045370 0.9999143 0.0045370 0.0000857 -0.0045370
9812162 0.0000850 -0.0044200 0.9999150 0.0044200 0.9999150 0.0044200 0.0000850 -0.0044200
10027902 0.0000844 -0.0043050 0.9999156 0.0043050 0.9999156 0.0043050 0.0000844 -0.0043050
10248386 0.0000839 -0.0041920 0.9999161 0.0041920 0.9999161 0.0041920 0.0000839 -0.0041920
10473717 0.0000834 -0.0040811 0.9999166 0.0040811 0.9999166 0.0040811 0.0000834 -0.0040811
10704003 0.0000830 -0.0039720 0.9999170 0.0039720 0.9999170 0.0039720 0.0000830 -0.0039720
10939352 0.0000826 -0.0038649 0.9999174 0.0038649 0.9999174 0.0038649 0.0000826 -0.0038649
11179876 0.0000823 -0.0037595 0.9999177 0.0037595 0.9999177 0.0037595 0.0000823 -0.0037595
11425688 0.0000821 -0.0036560 0.9999179 0.0036560 0.9999179 0.0036560 0.0000821 -0.0036560
11676904 0.0000819 -0.0035542 0.9999181 0.0035542 0.9999181 0.0035542 0.0000819 -0.0035542
11933645 0.0000818 -0.0034540 0.9999182 0.0034540 0.9999182 0.0034540 0.0000818 -0.0034540
12196030 0.0000817 -0.0033555 0.9999183 0.0033555 0.9999183 0.0033555 0.0000817 -0.0033555
12464184 0.0000817 -0.0032586 0.9999183 0.0032586 0.9999183 0.0032586 0.0000817 -0.0032586
12738235 0.0000817 -0.0031632 0.9999183 0.0031632 0.9999183 0.0031632 0.0000817 -0.0031632
13018310 0.0000818 -0.0030693 0.9999182 0.0030693 0.9999182 0.0030693 0.0000818 -0.0030693
13304544 0.0000819 -0.0029769 0.9999181 0.0029769 0.9999181 0.0029769 0.0000819 -0.0029769
13597071 0.0000821 -0.0028858 0.9999179 0.0028858 0.9999179 0.0028858 0.0000821 -0.0028858
13896030 0.0000824 -0.0027961 0.9999176 0.0027961 0.9999176 0.0027961 0.0000824 -0.0027961
14201563 0.0000827 -0.0027078 0.9999173 0.0027078 0.9999173 0.0027078 0.0000827 -0.0027078
14513813 0.0000831 -0.0026207 0.9999169 0.0026207 0.9999169 0.0026207 0.0000831 -0.0026207
14832928 0.0000835 -0.0025348 0.9999165 0.0025348 0.9999165 0.0025348 0.0000835 -0.0025348
15159060 0.0000840 -0.0024502 0.9999160 0.0024502 0.9999160 0.0024502 0.0000840 -0.0024502
15492362 0.0000846 -0.0023667 0.9999154 0.0023667 0.9999154 0.0023667 0.0000846 -0.0023667
15832993 0.0000852 -0.0022843 0.9999148 0.0022843 0.9999148 0.0022843 0.0000852 -0.0022843
16181113 0.0000859 -0.0022030 0.9999141 0.0022030 0.9999141 0.0022030 0.0000859 -0.0022030
16536888 0.0000866 -0.0021227 0.9999134 0.0021227 0.9999134 0.0021227 0.0000866 -0.0021227
16900485 0.0000874 -0.0020435 0.9999126 0.0020435 0.9999126 0.0020435 0.0000874 -0.0020435
17272076 0.0000883 -0.0019651 0.9999117 0.0019651 0.9999117 0.0019651 0.0000883 -0.0019651
17651837 0.0000892 -0.0018878 0.9999108 0.0018878 0.9999108 0.0018878 0.0000892 -0.0018878
18039948 0.0000902 -0.0018113 0.9999098 0.0018113 0.9999098 0.0018113 0.0000902 -0.0018113
18436593 0.0000913 -0.0017356 0.9999087 0.0017356 0.9999087 0.0017356 0.0000913 -0.0017356
18841959 0.0000925 -0.0016607 0.9999075 0.0016607 0.9999075 0.0016607 0.0000925 -0.0016607
19256237 0.0000937 -0.0015867 0.9999063 0.0015867 0.9999063 0.0015867 0.0000937 -0.0015867
19679624 0.0000950 -0.0015133 0.9999050 0.0015133 0.9999050 0.0015133 0.0000950 -0.0015133
20112321 0.0000964 -0.0014407 0.9999036 0.0014407 0.9999036 0.0014407 0.0000964 -0.0014407
20554530 0.0000979 -0.0013687 0.9999021 0.0013687 0.9999021 0.0013687 0.0000979 -0.0013687
21006463 0.0000994 -0.0012974 0.9999006 0.0012974 0.9999006 0.0012974 0.0000994 -0.0012974
21468333 0.0001011 -0.0012267 0.9998989 0.0012267 0.9998989 0.0012267 0.0001011 -0.0012267
21940357 0.0001028 -0.0011565 0.9998972 0.0011565 0.9998972 0.0011565 0.0001028 -0.0011565
22422760 0.0001046 -0.0010869 0.9998954 0.0010869 0.9998954 0.0010869 0.0001046 -0.0010869
22915770 0.0001066 -0.0010177 0.9998934 0.0010177 0.9998934 0.0010177 0.0001066 -0.0010177
23419619 0.0001086 -0.0009490 0.9998914 0.0009490 0.9998914 0.0009490 0.0001086 -0.0009490
23934547 0.0001107 -0.0008807 0.9998893 0.0008807 0.9998893 0.0008807 0.0001107 -0.0008807
24460796 0.0001130 -0.0008128 0.9998870 0.0008128 0.9998870 0.0008128 0.0001130 -0.0008128
24998616 0.0001153 -0.0007453 0.9998847 0.0007453 0.9998847 0.0007453 0.0001153 -0.0007453
25548261 0.0001178 -0.0006781 0.9998822 0.0006781 0.9998822 0.0006781 0.0001178 -0.0006781
26109991 0.0001204 -0.0006111 0.9998796 0.0006111 0.9998796 0.0006111 0.0001204 -0.0006111
26684072 0.0001232 -0.0005444 0.9998768 0.0005444 0.9998768 0.0005444 0.0001232 -0.0005444
27270775 0.0001260 -0.0004779 0.9998740 0.0004779 0.9998740 0.0004779 0.0001260 -0.0004779
27870378 0.0001290 -0.0004116 0.9998710 0.0004116 0.9998710 0.0004116 0.0001290 -0.0004116
28483164 0.0001322 -0.0003453 0.9998678 0.0003453 0.9998678 0.0003453 0.0001322 -0.0003453
29109424 0.0001355 -0.0002792 0.9998645 0.0002792 0.9998645 0.0002792 0.0001355 -0.0002792
29749453 0.0001390 -0.0002132 0.9998610 0.0002132 0.9998610 0.0002132 0.0001390 -0.0002132
30403555 0.0001426 -0.0001471 0.9998574 0.0001471 0.9998574 0.0001471 0.0001426 -0.0001471
31072038 0.0001465 -0.0000810 0.9998535 0.0000810 0.9998535 0.0000810 0.0001465 -0.0000810
31755220 0.0001505 -0.0000149 0.9998495 0.0000149 0.9998495 0.0000149 0.0001505 -0.0000149
32453422 0.0001547 0.0000514 0.9998453 -0.0000514 0.9998453 -0.0000514 0.0001547 0.0000514
33166976 0.0001591 0.0001178 0.9998409 -0.0001178 0.9998409 -0.0001178 0.0001591 0.0001178
33896219 0.0001638 0.0001845 0.9998362 -0.0001845 0.9998362 -0.0001845 0.0001638 0.0001845
34641496 0.0001687 0.0002514 0.9998313 -0.0002514 0.9998313 -0.0002514 0.0001687 0.0002514
35403159 0.0001738 0.0003187 0.9998262 -0.0003187 0.9998262 -0.0003187 0.0001738 0.0003187
36181569 0.0001792 0.0003863 0.9998208 -0.0003863 0.9998208 -0.0003863 0.0001792 0.0003863
36977093 0.0001849 0.0004544 0.9998151 -0.0004544 0.9998151 -0.0004544 0.0001849 0.0004544
37790109 0.0001909 0.0005230 0.9998091 -0.0005230 0.9998091 -0.0005230 0.0001909 0.0005230
38621001 0.0001973 0.0005921 0.9998027 -0.0005921 0.9998027 -0.0005921 0.0001973 0.0005921
39470161 0.0002040 0.0006620 0.9997960 -0.0006620 0.9997960 -0.0006620 0.0002040 0.0006620
40337993 0.0002111 0.0007326 0.9997889 -0.0007326 0.9997889 -0.0007326 0.0002111 0.0007326
41224905 0.0002187 0.0008040 0.9997813 -0.0008040 0.9997813 -0.0008040 0.0002187 0.0008040
42131317 0.0002267 0.0008764 0.9997733 -0.0008764 0.9997733 -0.0008764 0.0002267 0.0008764
43057659 0.0002354 0.0009500 0.9997646 -0.0009500 0.9997646 -0.0009500 0.0002354 0.0009500
44004369 0.0002446 0.0010247 0.9997554 -0.0010247 0.9997554 -0.0010247 0.0002446 0.0010247
44971893 0.0002546 0.0011009 0.9997454 -0.0011009 0.9997454 -0.0011009 0.0002546 0.0011009
45960691 0.0002654 0.0011786 0.9997346 -0.0011786 0.9997346 -0.0011786 0.0002654 0.0011786
46971230 0.0002771 0.0012582 0.9997229 -0.0012582 0.9997229 -0.0012582 0.0002771 0.0012582
48003987 0.0002901 0.0013398 0.9997099 -0.0013398 0.9997099 -0.0013398 0.0002901 0.0013398
49059451 0.0003044 0.0014239 0.9996956 -0.0014239 0.9996956 -0.0014239 0.0003044 0.0014239
50138122 0.0003204 0.0015108 0.9996796 -0.0015108 0.9996796 -0.0015108 0.0003204 0.0015108
51240510 0.0003386 0.0016009 0.9996614 -0.0016009 0.9996614 -0.0016009 0.0003386 0.0016009
52367136 0.0003596 0.0016949 0.9996404 -0.0016949 0.9996404 -0.0016949 0.0003596 0.0016949
53518533 0.0003841 0.0017935 0.9996159 -0.0017935 0.9996159 -0.0017935 0.0003841 0.0017935
54695245 0.0004135 0.0018975 0.9995865 -0.0018975 0.9995865 -0.0018975 0.0004135 0.0018975
55897831 0.0004496 0.0020080 0.9995504 -0.0020080 0.9995504 -0.0020080 0.0004496 0.0020080
57126857 0.0004952 0.0021263 0.9995048 -0.0021263 0.9995048 -0.0021263 0.0004952 0.0021263
58382906 0.0005546 0.0022535 0.9994454 -0.0022535 0.9994454 -0.0022535 0.0005546 0.0022535
59666572 0.0006351 0.0023906 0.9993649 -0.0023906 0.9993649 -0.0023906 0.0006351 0.0023906
60978462 0.0007484 0.0025362 0.9992516 -0.0025362 0.9992516 -0.0025362 0.0007484 0.0025362
62319196 0.0009133 0.0026828 0.9990867 -0.0026828 0.9990867 -0.0026828 0.0009133 0.0026828
63689409 0.0011572 0.0028045 0.9988428 -0.0028045 0.9988428 -0.0028045 0.0011572 0.0028045
65089750 0.0015008 0.0028323 0.9984992 -0.0028323 0.9984992 -0.0028323 0.0015008 0.0028323
66520879 0.0018858 0.0026405 0.9981142 -0.0026405 0.9981142 -0.0026405 0.0018858 0.0026405
67983474 0.0020759 0.0021880 0.9979241 -0.0021880 0.9979241 -0.0021880 0.0020759 0.0021880
69478228 0.0018917 0.0017496 0.9981083 -0.0017496 0.9981083 -0.0017496 0.0018917 0.0017496
71005847 0.0015321 0.0015826 0.9984679 -0.0015826 0.9984679 -0.0015826 0.0015321 0.0015826
72567054 0.0012242 0.0016309 0.9987758 -0.0016309 0.9987758 -0.0016309 0.0012242 0.0016309
74162587 0.0010173 0.0017704 0.9989827 -0.0017704 0.9989827 -0.0017704 0.0010173 0.0017704
75793201 0.0008888 0.0019356 0.9991112 -0.0019356 0.9991112 -0.0019356 0.0008888 0.0019356
77459667 0.0008121 0.0021030 0.9991879 -0.0021030 0.9991879 -0.0021030 0.0008121 0.0021030
79162774 0.0007692 0.0022659 0.9992308 -0.0022659 0.9992308 -0.0022659 0.0007692 0.0022659
80903327 0.0007491 0.0024240 0.9992509 -0.0024240 0.9992509 -0.0024240 0.0007491 0.0024240
82682150 0.0007459 0.0025787 0.9992541 -0.0025787 0.9992541 -0.0025787 0.0007459 0.0025787
84500083 0.0007563 0.0027319 0.9992437 -0.0027319 0.9992437 -0.0027319 0.0007563 0.0027319
86357988 0.0007794 0.0028859 0.9992206 -0.0028859 0.9992206 -0.0028859 0.0007794 0.0028859
88256743 0.0008157 0.0030426 0.9991843 -0.0030426 0.9991843 -0.0030426 0.0008157 0.0030426
90197245 0.0008675 0.0032039 0.9991325 -0.0032039 0.9991325 -0.0032039 0.0008675 0.0032039
92180413 0.0009395 0.0033714 0.9990605 -0.0033714 0.9990605 -0.0033714 0.0009395 0.0033714
94207185 0.0010394 0.0035453 0.9989606 -0.0035453 0.9989606 -0.0035453 0.0010394 0.0035453
96278520 0.0011799 0.0037230 0.9988201 -0.0037230 0.9988201 -0.0037230 0.0011799 0.0037230
98395398 0.0013799 0.0038938 0.9986201 -0.0038938 0.9986201 -0.0038938 0.0013799 0.0038938
100558819 0.0016639 0.0040278 0.9983361 -0.0040278 0.9983361 -0.0040278 0.0016639 0.0040278
102769807 0.0020453 0.0040562 0.9979547 -0.0040562 0.9979547 -0.0040562 0.0020453 0.0040562
105029408 0.0024664 0.0038664 0.9975336 -0.0038664 0.9975336 -0.0038664 0.0024664 0.0038664
107338692 0.0027237 0.0034098 0.9972763 -0.0034098 0.9972763 -0.0034098 0.0027237 0.0034098
