!Murata Part Number: GRM31A7U2J470JW31
!These Parameters are Measured in Series Mode Connection
!Data Generated on Mar 30, 2021
!       o--ll--o
!Port1            Port2
!       o------o
!Operation Temp=25[degC], DC Bias Voltage=0[V]
!Freq. Start=100[MHz] Stop=3[GHz] 401[Steps]
# Hz S RI R 50
!Freq.(Hz) S11(Real) S11(Imag) S21(Real) S21(Imag) S12(Real) S12(Imag) S22(Real) S22(Imag)
100000000 0.1012928 -0.2993306 0.8987072 0.2993306 0.8987072 0.2993306 0.1012928 -0.2993306
107250000 0.0890534 -0.2822560 0.9109466 0.2822560 0.9109466 0.2822560 0.0890534 -0.2822560
114500000 0.0788156 -0.2667054 0.9211844 0.2667054 0.9211844 0.2667054 0.0788156 -0.2667054
121750000 0.0701774 -0.2525183 0.9298226 0.2525183 0.9298226 0.2525183 0.0701774 -0.2525183
129000000 0.0628300 -0.2395459 0.9371700 0.2395459 0.9371700 0.2395459 0.0628300 -0.2395459
136250000 0.0565341 -0.2276539 0.9434659 0.2276539 0.9434659 0.2276539 0.0565341 -0.2276539
143500000 0.0511020 -0.2167226 0.9488980 0.2167226 0.9488980 0.2167226 0.0511020 -0.2167226
150750000 0.0463857 -0.2066468 0.9536143 0.2066468 0.9536143 0.2066468 0.0463857 -0.2066468
158000000 0.0422667 -0.1973340 0.9577333 0.1973340 0.9577333 0.1973340 0.0422667 -0.1973340
165250000 0.0386499 -0.1887034 0.9613501 0.1887034 0.9613501 0.1887034 0.0386499 -0.1887034
172500000 0.0354581 -0.1806840 0.9645419 0.1806840 0.9645419 0.1806840 0.0354581 -0.1806840
179750000 0.0326283 -0.1732138 0.9673717 0.1732138 0.9673717 0.1732138 0.0326283 -0.1732138
187000000 0.0301085 -0.1662383 0.9698915 0.1662383 0.9698915 0.1662383 0.0301085 -0.1662383
194250000 0.0278557 -0.1597095 0.9721443 0.1597095 0.9721443 0.1597095 0.0278557 -0.1597095
201500000 0.0258340 -0.1535853 0.9741660 0.1535853 0.9741660 0.1535853 0.0258340 -0.1535853
208750000 0.0240134 -0.1478285 0.9759866 0.1478285 0.9759866 0.1478285 0.0240134 -0.1478285
216000000 0.0223683 -0.1424058 0.9776317 0.1424058 0.9776317 0.1424058 0.0223683 -0.1424058
223250000 0.0208774 -0.1372882 0.9791226 0.1372882 0.9791226 0.1372882 0.0208774 -0.1372882
230500000 0.0195223 -0.1324494 0.9804777 0.1324494 0.9804777 0.1324494 0.0195223 -0.1324494
237750000 0.0182872 -0.1278662 0.9817128 0.1278662 0.9817128 0.1278662 0.0182872 -0.1278662
245000000 0.0171587 -0.1235178 0.9828413 0.1235178 0.9828413 0.1235178 0.0171587 -0.1235178
252250000 0.0161251 -0.1193854 0.9838749 0.1193854 0.9838749 0.1193854 0.0161251 -0.1193854
259500000 0.0151763 -0.1154523 0.9848237 0.1154523 0.9848237 0.1154523 0.0151763 -0.1154523
266750000 0.0143035 -0.1117034 0.9856965 0.1117034 0.9856965 0.1117034 0.0143035 -0.1117034
274000000 0.0134989 -0.1081248 0.9865011 0.1081248 0.9865011 0.1081248 0.0134989 -0.1081248
281250000 0.0127559 -0.1047044 0.9872441 0.1047044 0.9872441 0.1047044 0.0127559 -0.1047044
288500000 0.0120685 -0.1014307 0.9879315 0.1014307 0.9879315 0.1014307 0.0120685 -0.1014307
295750000 0.0114314 -0.0982937 0.9885686 0.0982937 0.9885686 0.0982937 0.0114314 -0.0982937
303000000 0.0108401 -0.0952840 0.9891599 0.0952840 0.9891599 0.0952840 0.0108401 -0.0952840
310250000 0.0102905 -0.0923932 0.9897095 0.0923932 0.9897095 0.0923932 0.0102905 -0.0923932
317500000 0.0097788 -0.0896134 0.9902212 0.0896134 0.9902212 0.0896134 0.0097788 -0.0896134
324750000 0.0093019 -0.0869376 0.9906981 0.0869376 0.9906981 0.0869376 0.0093019 -0.0869376
332000000 0.0088567 -0.0843592 0.9911433 0.0843592 0.9911433 0.0843592 0.0088567 -0.0843592
339250000 0.0084408 -0.0818723 0.9915592 0.0818723 0.9915592 0.0818723 0.0084408 -0.0818723
346500000 0.0080517 -0.0794713 0.9919483 0.0794713 0.9919483 0.0794713 0.0080517 -0.0794713
353750000 0.0076873 -0.0771511 0.9923127 0.0771511 0.9923127 0.0771511 0.0076873 -0.0771511
361000000 0.0073457 -0.0749070 0.9926543 0.0749070 0.9926543 0.0749070 0.0073457 -0.0749070
368250000 0.0070253 -0.0727347 0.9929747 0.0727347 0.9929747 0.0727347 0.0070253 -0.0727347
375500000 0.0067244 -0.0706302 0.9932756 0.0706302 0.9932756 0.0706302 0.0067244 -0.0706302
382750000 0.0064415 -0.0685896 0.9935585 0.0685896 0.9935585 0.0685896 0.0064415 -0.0685896
390000000 0.0061755 -0.0666096 0.9938245 0.0666096 0.9938245 0.0666096 0.0061755 -0.0666096
397250000 0.0059252 -0.0646870 0.9940748 0.0646870 0.9940748 0.0646870 0.0059252 -0.0646870
404500000 0.0056894 -0.0628186 0.9943106 0.0628186 0.9943106 0.0628186 0.0056894 -0.0628186
411750000 0.0054672 -0.0610017 0.9945328 0.0610017 0.9945328 0.0610017 0.0054672 -0.0610017
419000000 0.0052578 -0.0592338 0.9947422 0.0592338 0.9947422 0.0592338 0.0052578 -0.0592338
426250000 0.0050602 -0.0575123 0.9949398 0.0575123 0.9949398 0.0575123 0.0050602 -0.0575123
433500000 0.0048737 -0.0558349 0.9951263 0.0558349 0.9951263 0.0558349 0.0048737 -0.0558349
440750000 0.0046976 -0.0541996 0.9953024 0.0541996 0.9953024 0.0541996 0.0046976 -0.0541996
448000000 0.0045313 -0.0526044 0.9954687 0.0526044 0.9954687 0.0526044 0.0045313 -0.0526044
455250000 0.0043743 -0.0510473 0.9956257 0.0510473 0.9956257 0.0510473 0.0043743 -0.0510473
462500000 0.0042259 -0.0495265 0.9957741 0.0495265 0.9957741 0.0495265 0.0042259 -0.0495265
469750000 0.0040856 -0.0480405 0.9959144 0.0480405 0.9959144 0.0480405 0.0040856 -0.0480405
477000000 0.0039530 -0.0465877 0.9960470 0.0465877 0.9960470 0.0465877 0.0039530 -0.0465877
484250000 0.0038277 -0.0451665 0.9961723 0.0451665 0.9961723 0.0451665 0.0038277 -0.0451665
491500000 0.0037093 -0.0437757 0.9962907 0.0437757 0.9962907 0.0437757 0.0037093 -0.0437757
498750000 0.0035973 -0.0424138 0.9964027 0.0424138 0.9964027 0.0424138 0.0035973 -0.0424138
506000000 0.0034915 -0.0410797 0.9965085 0.0410797 0.9965085 0.0410797 0.0034915 -0.0410797
513250000 0.0033915 -0.0397722 0.9966085 0.0397722 0.9966085 0.0397722 0.0033915 -0.0397722
520500000 0.0032970 -0.0384902 0.9967030 0.0384902 0.9967030 0.0384902 0.0032970 -0.0384902
527750000 0.0032078 -0.0372326 0.9967922 0.0372326 0.9967922 0.0372326 0.0032078 -0.0372326
535000000 0.0031236 -0.0359985 0.9968764 0.0359985 0.9968764 0.0359985 0.0031236 -0.0359985
542250000 0.0030441 -0.0347869 0.9969559 0.0347869 0.9969559 0.0347869 0.0030441 -0.0347869
549500000 0.0029692 -0.0335969 0.9970308 0.0335969 0.9970308 0.0335969 0.0029692 -0.0335969
556750000 0.0028985 -0.0324277 0.9971015 0.0324277 0.9971015 0.0324277 0.0028985 -0.0324277
564000000 0.0028320 -0.0312785 0.9971680 0.0312785 0.9971680 0.0312785 0.0028320 -0.0312785
571250000 0.0027694 -0.0301485 0.9972306 0.0301485 0.9972306 0.0301485 0.0027694 -0.0301485
578500000 0.0027105 -0.0290370 0.9972895 0.0290370 0.9972895 0.0290370 0.0027105 -0.0290370
585750000 0.0026553 -0.0279433 0.9973447 0.0279433 0.9973447 0.0279433 0.0026553 -0.0279433
593000000 0.0026034 -0.0268668 0.9973966 0.0268668 0.9973966 0.0268668 0.0026034 -0.0268668
600250000 0.0025549 -0.0258068 0.9974451 0.0258068 0.9974451 0.0258068 0.0025549 -0.0258068
607500000 0.0025095 -0.0247627 0.9974905 0.0247627 0.9974905 0.0247627 0.0025095 -0.0247627
614750000 0.0024672 -0.0237339 0.9975328 0.0237339 0.9975328 0.0237339 0.0024672 -0.0237339
622000000 0.0024277 -0.0227200 0.9975723 0.0227200 0.9975723 0.0227200 0.0024277 -0.0227200
629250000 0.0023911 -0.0217204 0.9976089 0.0217204 0.9976089 0.0217204 0.0023911 -0.0217204
636500000 0.0023571 -0.0207346 0.9976429 0.0207346 0.9976429 0.0207346 0.0023571 -0.0207346
643750000 0.0023257 -0.0197621 0.9976743 0.0197621 0.9976743 0.0197621 0.0023257 -0.0197621
651000000 0.0022969 -0.0188025 0.9977031 0.0188025 0.9977031 0.0188025 0.0022969 -0.0188025
658250000 0.0022704 -0.0178553 0.9977296 0.0178553 0.9977296 0.0178553 0.0022704 -0.0178553
665500000 0.0022462 -0.0169201 0.9977538 0.0169201 0.9977538 0.0169201 0.0022462 -0.0169201
672750000 0.0022243 -0.0159966 0.9977757 0.0159966 0.9977757 0.0159966 0.0022243 -0.0159966
680000000 0.0022046 -0.0150843 0.9977954 0.0150843 0.9977954 0.0150843 0.0022046 -0.0150843
687250000 0.0021869 -0.0141830 0.9978131 0.0141830 0.9978131 0.0141830 0.0021869 -0.0141830
694500000 0.0021713 -0.0132921 0.9978287 0.0132921 0.9978287 0.0132921 0.0021713 -0.0132921
701750000 0.0021576 -0.0124114 0.9978424 0.0124114 0.9978424 0.0124114 0.0021576 -0.0124114
709000000 0.0021458 -0.0115407 0.9978542 0.0115407 0.9978542 0.0115407 0.0021458 -0.0115407
716250000 0.0021359 -0.0106794 0.9978641 0.0106794 0.9978641 0.0106794 0.0021359 -0.0106794
723500000 0.0021277 -0.0098275 0.9978723 0.0098275 0.9978723 0.0098275 0.0021277 -0.0098275
730750000 0.0021213 -0.0089845 0.9978787 0.0089845 0.9978787 0.0089845 0.0021213 -0.0089845
738000000 0.0021166 -0.0081503 0.9978834 0.0081503 0.9978834 0.0081503 0.0021166 -0.0081503
745250000 0.0021135 -0.0073244 0.9978865 0.0073244 0.9978865 0.0073244 0.0021135 -0.0073244
752500000 0.0021120 -0.0065068 0.9978880 0.0065068 0.9978880 0.0065068 0.0021120 -0.0065068
759750000 0.0021120 -0.0056971 0.9978880 0.0056971 0.9978880 0.0056971 0.0021120 -0.0056971
767000000 0.0021136 -0.0048951 0.9978864 0.0048951 0.9978864 0.0048951 0.0021136 -0.0048951
774250000 0.0021166 -0.0041006 0.9978834 0.0041006 0.9978834 0.0041006 0.0021166 -0.0041006
781500000 0.0021211 -0.0033134 0.9978789 0.0033134 0.9978789 0.0033134 0.0021211 -0.0033134
788750000 0.0021270 -0.0025331 0.9978730 0.0025331 0.9978730 0.0025331 0.0021270 -0.0025331
796000000 0.0021342 -0.0017598 0.9978658 0.0017598 0.9978658 0.0017598 0.0021342 -0.0017598
803250000 0.0021428 -0.0009930 0.9978572 0.0009930 0.9978572 0.0009930 0.0021428 -0.0009930
810500000 0.0021527 -0.0002328 0.9978473 0.0002328 0.9978473 0.0002328 0.0021527 -0.0002328
817750000 0.0021638 0.0005212 0.9978362 -0.0005212 0.9978362 -0.0005212 0.0021638 0.0005212
825000000 0.0021762 0.0012691 0.9978238 -0.0012691 0.9978238 -0.0012691 0.0021762 0.0012691
832250000 0.0021899 0.0020111 0.9978101 -0.0020111 0.9978101 -0.0020111 0.0021899 0.0020111
839500000 0.0022047 0.0027474 0.9977953 -0.0027474 0.9977953 -0.0027474 0.0022047 0.0027474
846750000 0.0022207 0.0034780 0.9977793 -0.0034780 0.9977793 -0.0034780 0.0022207 0.0034780
854000000 0.0022379 0.0042032 0.9977621 -0.0042032 0.9977621 -0.0042032 0.0022379 0.0042032
861250000 0.0022562 0.0049231 0.9977438 -0.0049231 0.9977438 -0.0049231 0.0022562 0.0049231
868500000 0.0022757 0.0056379 0.9977243 -0.0056379 0.9977243 -0.0056379 0.0022757 0.0056379
875750000 0.0022962 0.0063476 0.9977038 -0.0063476 0.9977038 -0.0063476 0.0022962 0.0063476
883000000 0.0023178 0.0070525 0.9976822 -0.0070525 0.9976822 -0.0070525 0.0023178 0.0070525
890250000 0.0023405 0.0077527 0.9976595 -0.0077527 0.9976595 -0.0077527 0.0023405 0.0077527
897500000 0.0023642 0.0084482 0.9976358 -0.0084482 0.9976358 -0.0084482 0.0023642 0.0084482
904750000 0.0023889 0.0091393 0.9976111 -0.0091393 0.9976111 -0.0091393 0.0023889 0.0091393
912000000 0.0024147 0.0098260 0.9975853 -0.0098260 0.9975853 -0.0098260 0.0024147 0.0098260
919250000 0.0024415 0.0105084 0.9975585 -0.0105084 0.9975585 -0.0105084 0.0024415 0.0105084
926500000 0.0024692 0.0111867 0.9975308 -0.0111867 0.9975308 -0.0111867 0.0024692 0.0111867
933750000 0.0024979 0.0118610 0.9975021 -0.0118610 0.9975021 -0.0118610 0.0024979 0.0118610
941000000 0.0025276 0.0125314 0.9974724 -0.0125314 0.9974724 -0.0125314 0.0025276 0.0125314
948250000 0.0025582 0.0131979 0.9974418 -0.0131979 0.9974418 -0.0131979 0.0025582 0.0131979
955500000 0.0025898 0.0138608 0.9974102 -0.0138608 0.9974102 -0.0138608 0.0025898 0.0138608
962750000 0.0026223 0.0145200 0.9973777 -0.0145200 0.9973777 -0.0145200 0.0026223 0.0145200
970000000 0.0026557 0.0151757 0.9973443 -0.0151757 0.9973443 -0.0151757 0.0026557 0.0151757
977250000 0.0026900 0.0158280 0.9973100 -0.0158280 0.9973100 -0.0158280 0.0026900 0.0158280
984500000 0.0027252 0.0164769 0.9972748 -0.0164769 0.9972748 -0.0164769 0.0027252 0.0164769
991750000 0.0027614 0.0171226 0.9972386 -0.0171226 0.9972386 -0.0171226 0.0027614 0.0171226
999000000 0.0027984 0.0177651 0.9972016 -0.0177651 0.9972016 -0.0177651 0.0027984 0.0177651
1006250000 0.0028362 0.0184045 0.9971638 -0.0184045 0.9971638 -0.0184045 0.0028362 0.0184045
1013500000 0.0028750 0.0190409 0.9971250 -0.0190409 0.9971250 -0.0190409 0.0028750 0.0190409
1020750000 0.0029146 0.0196744 0.9970854 -0.0196744 0.9970854 -0.0196744 0.0029146 0.0196744
1028000000 0.0029550 0.0203050 0.9970450 -0.0203050 0.9970450 -0.0203050 0.0029550 0.0203050
1035250000 0.0029964 0.0209329 0.9970036 -0.0209329 0.9970036 -0.0209329 0.0029964 0.0209329
1042500000 0.0030385 0.0215580 0.9969615 -0.0215580 0.9969615 -0.0215580 0.0030385 0.0215580
1049750000 0.0030815 0.0221806 0.9969185 -0.0221806 0.9969185 -0.0221806 0.0030815 0.0221806
1057000000 0.0031253 0.0228005 0.9968747 -0.0228005 0.9968747 -0.0228005 0.0031253 0.0228005
1064250000 0.0031700 0.0234180 0.9968300 -0.0234180 0.9968300 -0.0234180 0.0031700 0.0234180
1071500000 0.0032155 0.0240330 0.9967845 -0.0240330 0.9967845 -0.0240330 0.0032155 0.0240330
1078750000 0.0032618 0.0246457 0.9967382 -0.0246457 0.9967382 -0.0246457 0.0032618 0.0246457
1086000000 0.0033089 0.0252560 0.9966911 -0.0252560 0.9966911 -0.0252560 0.0033089 0.0252560
1093250000 0.0033569 0.0258641 0.9966431 -0.0258641 0.9966431 -0.0258641 0.0033569 0.0258641
1100500000 0.0034056 0.0264701 0.9965944 -0.0264701 0.9965944 -0.0264701 0.0034056 0.0264701
1107750000 0.0034552 0.0270739 0.9965448 -0.0270739 0.9965448 -0.0270739 0.0034552 0.0270739
1115000000 0.0035056 0.0276756 0.9964944 -0.0276756 0.9964944 -0.0276756 0.0035056 0.0276756
1122250000 0.0035568 0.0282753 0.9964432 -0.0282753 0.9964432 -0.0282753 0.0035568 0.0282753
1129500000 0.0036088 0.0288730 0.9963912 -0.0288730 0.9963912 -0.0288730 0.0036088 0.0288730
1136750000 0.0036616 0.0294689 0.9963384 -0.0294689 0.9963384 -0.0294689 0.0036616 0.0294689
1144000000 0.0037152 0.0300629 0.9962848 -0.0300629 0.9962848 -0.0300629 0.0037152 0.0300629
1151250000 0.0037696 0.0306550 0.9962304 -0.0306550 0.9962304 -0.0306550 0.0037696 0.0306550
1158500000 0.0038248 0.0312455 0.9961752 -0.0312455 0.9961752 -0.0312455 0.0038248 0.0312455
1165750000 0.0038808 0.0318342 0.9961192 -0.0318342 0.9961192 -0.0318342 0.0038808 0.0318342
1173000000 0.0039376 0.0324212 0.9960624 -0.0324212 0.9960624 -0.0324212 0.0039376 0.0324212
1180250000 0.0039952 0.0330067 0.9960048 -0.0330067 0.9960048 -0.0330067 0.0039952 0.0330067
1187500000 0.0040536 0.0335905 0.9959464 -0.0335905 0.9959464 -0.0335905 0.0040536 0.0335905
1194750000 0.0041128 0.0341729 0.9958872 -0.0341729 0.9958872 -0.0341729 0.0041128 0.0341729
1202000000 0.0041728 0.0347537 0.9958272 -0.0347537 0.9958272 -0.0347537 0.0041728 0.0347537
1209250000 0.0042336 0.0353332 0.9957664 -0.0353332 0.9957664 -0.0353332 0.0042336 0.0353332
1216500000 0.0042952 0.0359112 0.9957048 -0.0359112 0.9957048 -0.0359112 0.0042952 0.0359112
1223750000 0.0043576 0.0364879 0.9956424 -0.0364879 0.9956424 -0.0364879 0.0043576 0.0364879
1231000000 0.0044208 0.0370632 0.9955792 -0.0370632 0.9955792 -0.0370632 0.0044208 0.0370632
1238250000 0.0044848 0.0376373 0.9955152 -0.0376373 0.9955152 -0.0376373 0.0044848 0.0376373
1245500000 0.0045496 0.0382102 0.9954504 -0.0382102 0.9954504 -0.0382102 0.0045496 0.0382102
1252750000 0.0046153 0.0387818 0.9953847 -0.0387818 0.9953847 -0.0387818 0.0046153 0.0387818
1260000000 0.0046817 0.0393523 0.9953183 -0.0393523 0.9953183 -0.0393523 0.0046817 0.0393523
1267250000 0.0047490 0.0399217 0.9952510 -0.0399217 0.9952510 -0.0399217 0.0047490 0.0399217
1274500000 0.0048171 0.0404900 0.9951829 -0.0404900 0.9951829 -0.0404900 0.0048171 0.0404900
1281750000 0.0048860 0.0410572 0.9951140 -0.0410572 0.9951140 -0.0410572 0.0048860 0.0410572
1289000000 0.0049558 0.0416235 0.9950442 -0.0416235 0.9950442 -0.0416235 0.0049558 0.0416235
1296250000 0.0050263 0.0421887 0.9949737 -0.0421887 0.9949737 -0.0421887 0.0050263 0.0421887
1303500000 0.0050977 0.0427530 0.9949023 -0.0427530 0.9949023 -0.0427530 0.0050977 0.0427530
1310750000 0.0051700 0.0433164 0.9948300 -0.0433164 0.9948300 -0.0433164 0.0051700 0.0433164
1318000000 0.0052431 0.0438789 0.9947569 -0.0438789 0.9947569 -0.0438789 0.0052431 0.0438789
1325250000 0.0053170 0.0444405 0.9946830 -0.0444405 0.9946830 -0.0444405 0.0053170 0.0444405
1332500000 0.0053918 0.0450013 0.9946082 -0.0450013 0.9946082 -0.0450013 0.0053918 0.0450013
1339750000 0.0054674 0.0455614 0.9945326 -0.0455614 0.9945326 -0.0455614 0.0054674 0.0455614
1347000000 0.0055439 0.0461207 0.9944561 -0.0461207 0.9944561 -0.0461207 0.0055439 0.0461207
1354250000 0.0056212 0.0466792 0.9943788 -0.0466792 0.9943788 -0.0466792 0.0056212 0.0466792
1361500000 0.0056995 0.0472371 0.9943005 -0.0472371 0.9943005 -0.0472371 0.0056995 0.0472371
1368750000 0.0057786 0.0477943 0.9942214 -0.0477943 0.9942214 -0.0477943 0.0057786 0.0477943
1376000000 0.0058585 0.0483508 0.9941415 -0.0483508 0.9941415 -0.0483508 0.0058585 0.0483508
1383250000 0.0059394 0.0489068 0.9940606 -0.0489068 0.9940606 -0.0489068 0.0059394 0.0489068
1390500000 0.0060212 0.0494622 0.9939788 -0.0494622 0.9939788 -0.0494622 0.0060212 0.0494622
1397750000 0.0061038 0.0500170 0.9938962 -0.0500170 0.9938962 -0.0500170 0.0061038 0.0500170
1405000000 0.0061874 0.0505713 0.9938126 -0.0505713 0.9938126 -0.0505713 0.0061874 0.0505713
1412250000 0.0062719 0.0511251 0.9937281 -0.0511251 0.9937281 -0.0511251 0.0062719 0.0511251
1419500000 0.0063573 0.0516784 0.9936427 -0.0516784 0.9936427 -0.0516784 0.0063573 0.0516784
1426750000 0.0064436 0.0522313 0.9935564 -0.0522313 0.9935564 -0.0522313 0.0064436 0.0522313
1434000000 0.0065309 0.0527837 0.9934691 -0.0527837 0.9934691 -0.0527837 0.0065309 0.0527837
1441250000 0.0066191 0.0533358 0.9933809 -0.0533358 0.9933809 -0.0533358 0.0066191 0.0533358
1448500000 0.0067082 0.0538875 0.9932918 -0.0538875 0.9932918 -0.0538875 0.0067082 0.0538875
1455750000 0.0067984 0.0544388 0.9932016 -0.0544388 0.9932016 -0.0544388 0.0067984 0.0544388
1463000000 0.0068895 0.0549899 0.9931105 -0.0549899 0.9931105 -0.0549899 0.0068895 0.0549899
1470250000 0.0069815 0.0555406 0.9930185 -0.0555406 0.9930185 -0.0555406 0.0069815 0.0555406
1477500000 0.0070746 0.0560911 0.9929254 -0.0560911 0.9929254 -0.0560911 0.0070746 0.0560911
1484750000 0.0071687 0.0566413 0.9928313 -0.0566413 0.9928313 -0.0566413 0.0071687 0.0566413
1492000000 0.0072637 0.0571914 0.9927363 -0.0571914 0.9927363 -0.0571914 0.0072637 0.0571914
1499250000 0.0073598 0.0577412 0.9926402 -0.0577412 0.9926402 -0.0577412 0.0073598 0.0577412
1506500000 0.0074569 0.0582908 0.9925431 -0.0582908 0.9925431 -0.0582908 0.0074569 0.0582908
1513750000 0.0075551 0.0588403 0.9924449 -0.0588403 0.9924449 -0.0588403 0.0075551 0.0588403
1521000000 0.0076543 0.0593897 0.9923457 -0.0593897 0.9923457 -0.0593897 0.0076543 0.0593897
1528250000 0.0077545 0.0599389 0.9922455 -0.0599389 0.9922455 -0.0599389 0.0077545 0.0599389
1535500000 0.0078559 0.0604881 0.9921441 -0.0604881 0.9921441 -0.0604881 0.0078559 0.0604881
1542750000 0.0079583 0.0610373 0.9920417 -0.0610373 0.9920417 -0.0610373 0.0079583 0.0610373
1550000000 0.0080618 0.0615864 0.9919382 -0.0615864 0.9919382 -0.0615864 0.0080618 0.0615864
1557250000 0.0081665 0.0621354 0.9918335 -0.0621354 0.9918335 -0.0621354 0.0081665 0.0621354
1564500000 0.0082723 0.0626845 0.9917277 -0.0626845 0.9917277 -0.0626845 0.0082723 0.0626845
1571750000 0.0083792 0.0632336 0.9916208 -0.0632336 0.9916208 -0.0632336 0.0083792 0.0632336
1579000000 0.0084872 0.0637828 0.9915128 -0.0637828 0.9915128 -0.0637828 0.0084872 0.0637828
1586250000 0.0085965 0.0643320 0.9914035 -0.0643320 0.9914035 -0.0643320 0.0085965 0.0643320
1593500000 0.0087069 0.0648814 0.9912931 -0.0648814 0.9912931 -0.0648814 0.0087069 0.0648814
1600750000 0.0088185 0.0654308 0.9911815 -0.0654308 0.9911815 -0.0654308 0.0088185 0.0654308
1608000000 0.0089314 0.0659804 0.9910686 -0.0659804 0.9910686 -0.0659804 0.0089314 0.0659804
1615250000 0.0090455 0.0665302 0.9909545 -0.0665302 0.9909545 -0.0665302 0.0090455 0.0665302
1622500000 0.0091608 0.0670801 0.9908392 -0.0670801 0.9908392 -0.0670801 0.0091608 0.0670801
1629750000 0.0092774 0.0676302 0.9907226 -0.0676302 0.9907226 -0.0676302 0.0092774 0.0676302
