!Murata Part Number: GRM31A7U3A390JW31
!These Parameters are Measured in Series Mode Connection
!Data Generated on Mar 30, 2021
!       o--ll--o
!Port1            Port2
!       o------o
!Operation Temp=25[degC], DC Bias Voltage=0[V]
!Freq. Start=100[MHz] Stop=3[GHz] 401[Steps]
# Hz S RI R 50
!Freq.(Hz) S11(Real) S11(Imag) S21(Real) S21(Imag) S12(Real) S12(Imag) S22(Real) S22(Imag)
100000000 0.1407235 -0.3456300 0.8592765 0.3456300 0.8592765 0.3456300 0.1407235 -0.3456300
107250000 0.1243869 -0.3277588 0.8756131 0.3277588 0.8756131 0.3277588 0.1243869 -0.3277588
114500000 0.1105876 -0.3111984 0.8894124 0.3111984 0.8894124 0.3111984 0.1105876 -0.3111984
121750000 0.0988475 -0.2958751 0.9011525 0.2958751 0.9011525 0.2958751 0.0988475 -0.2958751
129000000 0.0887911 -0.2816990 0.9112089 0.2816990 0.9112089 0.2816990 0.0887911 -0.2816990
136250000 0.0801214 -0.2685760 0.9198786 0.2685760 0.9198786 0.2685760 0.0801214 -0.2685760
143500000 0.0726021 -0.2564137 0.9273979 0.2564137 0.9273979 0.2564137 0.0726021 -0.2564137
150750000 0.0660437 -0.2451248 0.9339563 0.2451248 0.9339563 0.2451248 0.0660437 -0.2451248
158000000 0.0602929 -0.2346287 0.9397071 0.2346287 0.9397071 0.2346287 0.0602929 -0.2346287
165250000 0.0552254 -0.2248517 0.9447746 0.2248517 0.9447746 0.2248517 0.0552254 -0.2248517
172500000 0.0507394 -0.2157272 0.9492606 0.2157272 0.9492606 0.2157272 0.0507394 -0.2157272
179750000 0.0467508 -0.2071954 0.9532492 0.2071954 0.9532492 0.2071954 0.0467508 -0.2071954
187000000 0.0431902 -0.1992025 0.9568098 0.1992025 0.9568098 0.1992025 0.0431902 -0.1992025
194250000 0.0399995 -0.1917003 0.9600005 0.1917003 0.9600005 0.1917003 0.0399995 -0.1917003
201500000 0.0371301 -0.1846457 0.9628699 0.1846457 0.9628699 0.1846457 0.0371301 -0.1846457
208750000 0.0345411 -0.1780000 0.9654589 0.1780000 0.9654589 0.1780000 0.0345411 -0.1780000
216000000 0.0321976 -0.1717287 0.9678024 0.1717287 0.9678024 0.1717287 0.0321976 -0.1717287
223250000 0.0300701 -0.1658007 0.9699299 0.1658007 0.9699299 0.1658007 0.0300701 -0.1658007
230500000 0.0281334 -0.1601881 0.9718666 0.1601881 0.9718666 0.1601881 0.0281334 -0.1601881
237750000 0.0263656 -0.1548656 0.9736344 0.1548656 0.9736344 0.1548656 0.0263656 -0.1548656
245000000 0.0247481 -0.1498107 0.9752519 0.1498107 0.9752519 0.1498107 0.0247481 -0.1498107
252250000 0.0232646 -0.1450029 0.9767354 0.1450029 0.9767354 0.1450029 0.0232646 -0.1450029
259500000 0.0219010 -0.1404238 0.9780990 0.1404238 0.9780990 0.1404238 0.0219010 -0.1404238
266750000 0.0206450 -0.1360565 0.9793550 0.1360565 0.9793550 0.1360565 0.0206450 -0.1360565
274000000 0.0194857 -0.1318858 0.9805143 0.1318858 0.9805143 0.1318858 0.0194857 -0.1318858
281250000 0.0184138 -0.1278978 0.9815862 0.1278978 0.9815862 0.1278978 0.0184138 -0.1278978
288500000 0.0174209 -0.1240801 0.9825791 0.1240801 0.9825791 0.1240801 0.0174209 -0.1240801
295750000 0.0164997 -0.1204210 0.9835003 0.1204210 0.9835003 0.1204210 0.0164997 -0.1204210
303000000 0.0156435 -0.1169100 0.9843565 0.1169100 0.9843565 0.1169100 0.0156435 -0.1169100
310250000 0.0148466 -0.1135376 0.9851534 0.1135376 0.9851534 0.1135376 0.0148466 -0.1135376
317500000 0.0141038 -0.1102948 0.9858962 0.1102948 0.9858962 0.1102948 0.0141038 -0.1102948
324750000 0.0134105 -0.1071736 0.9865895 0.1071736 0.9865895 0.1071736 0.0134105 -0.1071736
332000000 0.0127626 -0.1041664 0.9872374 0.1041664 0.9872374 0.1041664 0.0127626 -0.1041664
339250000 0.0121563 -0.1012665 0.9878437 0.1012665 0.9878437 0.1012665 0.0121563 -0.1012665
346500000 0.0115883 -0.0984674 0.9884117 0.0984674 0.9884117 0.0984674 0.0115883 -0.0984674
353750000 0.0110557 -0.0957634 0.9889443 0.0957634 0.9889443 0.0957634 0.0110557 -0.0957634
361000000 0.0105556 -0.0931489 0.9894444 0.0931489 0.9894444 0.0931489 0.0105556 -0.0931489
368250000 0.0100856 -0.0906189 0.9899144 0.0906189 0.9899144 0.0906189 0.0100856 -0.0906189
375500000 0.0096435 -0.0881688 0.9903565 0.0881688 0.9903565 0.0881688 0.0096435 -0.0881688
382750000 0.0092273 -0.0857943 0.9907727 0.0857943 0.9907727 0.0857943 0.0092273 -0.0857943
390000000 0.0088351 -0.0834913 0.9911649 0.0834913 0.9911649 0.0834913 0.0088351 -0.0834913
397250000 0.0084653 -0.0812560 0.9915347 0.0812560 0.9915347 0.0812560 0.0084653 -0.0812560
404500000 0.0081163 -0.0790850 0.9918837 0.0790850 0.9918837 0.0790850 0.0081163 -0.0790850
411750000 0.0077866 -0.0769749 0.9922134 0.0769749 0.9922134 0.0769749 0.0077866 -0.0769749
419000000 0.0074751 -0.0749228 0.9925249 0.0749228 0.9925249 0.0749228 0.0074751 -0.0749228
426250000 0.0071806 -0.0729258 0.9928194 0.0729258 0.9928194 0.0729258 0.0071806 -0.0729258
433500000 0.0069018 -0.0709812 0.9930982 0.0709812 0.9930982 0.0709812 0.0069018 -0.0709812
440750000 0.0066380 -0.0690865 0.9933620 0.0690865 0.9933620 0.0690865 0.0066380 -0.0690865
448000000 0.0063881 -0.0672393 0.9936119 0.0672393 0.9936119 0.0672393 0.0063881 -0.0672393
455250000 0.0061513 -0.0654375 0.9938487 0.0654375 0.9938487 0.0654375 0.0061513 -0.0654375
462500000 0.0059269 -0.0636789 0.9940731 0.0636789 0.9940731 0.0636789 0.0059269 -0.0636789
469750000 0.0057140 -0.0619617 0.9942860 0.0619617 0.9942860 0.0619617 0.0057140 -0.0619617
477000000 0.0055121 -0.0602839 0.9944879 0.0602839 0.9944879 0.0602839 0.0055121 -0.0602839
484250000 0.0053204 -0.0586439 0.9946796 0.0586439 0.9946796 0.0586439 0.0053204 -0.0586439
491500000 0.0051386 -0.0570400 0.9948614 0.0570400 0.9948614 0.0570400 0.0051386 -0.0570400
498750000 0.0049659 -0.0554706 0.9950341 0.0554706 0.9950341 0.0554706 0.0049659 -0.0554706
506000000 0.0048019 -0.0539344 0.9951981 0.0539344 0.9951981 0.0539344 0.0048019 -0.0539344
513250000 0.0046462 -0.0524299 0.9953538 0.0524299 0.9953538 0.0524299 0.0046462 -0.0524299
520500000 0.0044983 -0.0509558 0.9955017 0.0509558 0.9955017 0.0509558 0.0044983 -0.0509558
527750000 0.0043578 -0.0495109 0.9956422 0.0495109 0.9956422 0.0495109 0.0043578 -0.0495109
535000000 0.0042244 -0.0480940 0.9957756 0.0480940 0.9957756 0.0480940 0.0042244 -0.0480940
542250000 0.0040976 -0.0467041 0.9959024 0.0467041 0.9959024 0.0467041 0.0040976 -0.0467041
549500000 0.0039772 -0.0453400 0.9960228 0.0453400 0.9960228 0.0453400 0.0039772 -0.0453400
556750000 0.0038629 -0.0440007 0.9961371 0.0440007 0.9961371 0.0440007 0.0038629 -0.0440007
564000000 0.0037544 -0.0426854 0.9962456 0.0426854 0.9962456 0.0426854 0.0037544 -0.0426854
571250000 0.0036513 -0.0413931 0.9963487 0.0413931 0.9963487 0.0413931 0.0036513 -0.0413931
578500000 0.0035535 -0.0401229 0.9964465 0.0401229 0.9964465 0.0401229 0.0035535 -0.0401229
585750000 0.0034608 -0.0388740 0.9965392 0.0388740 0.9965392 0.0388740 0.0034608 -0.0388740
593000000 0.0033728 -0.0376457 0.9966272 0.0376457 0.9966272 0.0376457 0.0033728 -0.0376457
600250000 0.0032894 -0.0364372 0.9967106 0.0364372 0.9967106 0.0364372 0.0032894 -0.0364372
607500000 0.0032104 -0.0352478 0.9967896 0.0352478 0.9967896 0.0352478 0.0032104 -0.0352478
614750000 0.0031357 -0.0340769 0.9968643 0.0340769 0.9968643 0.0340769 0.0031357 -0.0340769
622000000 0.0030649 -0.0329237 0.9969351 0.0329237 0.9969351 0.0329237 0.0030649 -0.0329237
629250000 0.0029980 -0.0317876 0.9970020 0.0317876 0.9970020 0.0317876 0.0029980 -0.0317876
636500000 0.0029348 -0.0306682 0.9970652 0.0306682 0.9970652 0.0306682 0.0029348 -0.0306682
643750000 0.0028752 -0.0295647 0.9971248 0.0295647 0.9971248 0.0295647 0.0028752 -0.0295647
651000000 0.0028191 -0.0284768 0.9971809 0.0284768 0.9971809 0.0284768 0.0028191 -0.0284768
658250000 0.0027662 -0.0274037 0.9972338 0.0274037 0.9972338 0.0274037 0.0027662 -0.0274037
665500000 0.0027165 -0.0263452 0.9972835 0.0263452 0.9972835 0.0263452 0.0027165 -0.0263452
672750000 0.0026698 -0.0253006 0.9973302 0.0253006 0.9973302 0.0253006 0.0026698 -0.0253006
680000000 0.0026261 -0.0242696 0.9973739 0.0242696 0.9973739 0.0242696 0.0026261 -0.0242696
687250000 0.0025853 -0.0232517 0.9974147 0.0232517 0.9974147 0.0232517 0.0025853 -0.0232517
694500000 0.0025472 -0.0222464 0.9974528 0.0222464 0.9974528 0.0222464 0.0025472 -0.0222464
701750000 0.0025117 -0.0212535 0.9974883 0.0212535 0.9974883 0.0212535 0.0025117 -0.0212535
709000000 0.0024788 -0.0202724 0.9975212 0.0202724 0.9975212 0.0202724 0.0024788 -0.0202724
716250000 0.0024484 -0.0193029 0.9975516 0.0193029 0.9975516 0.0193029 0.0024484 -0.0193029
723500000 0.0024204 -0.0183446 0.9975796 0.0183446 0.9975796 0.0183446 0.0024204 -0.0183446
730750000 0.0023946 -0.0173971 0.9976054 0.0173971 0.9976054 0.0173971 0.0023946 -0.0173971
738000000 0.0023712 -0.0164601 0.9976288 0.0164601 0.9976288 0.0164601 0.0023712 -0.0164601
745250000 0.0023499 -0.0155333 0.9976501 0.0155333 0.9976501 0.0155333 0.0023499 -0.0155333
752500000 0.0023307 -0.0146164 0.9976693 0.0146164 0.9976693 0.0146164 0.0023307 -0.0146164
759750000 0.0023136 -0.0137091 0.9976864 0.0137091 0.9976864 0.0137091 0.0023136 -0.0137091
767000000 0.0022985 -0.0128111 0.9977015 0.0128111 0.9977015 0.0128111 0.0022985 -0.0128111
774250000 0.0022853 -0.0119221 0.9977147 0.0119221 0.9977147 0.0119221 0.0022853 -0.0119221
781500000 0.0022740 -0.0110420 0.9977260 0.0110420 0.9977260 0.0110420 0.0022740 -0.0110420
788750000 0.0022645 -0.0101703 0.9977355 0.0101703 0.9977355 0.0101703 0.0022645 -0.0101703
796000000 0.0022568 -0.0093070 0.9977432 0.0093070 0.9977432 0.0093070 0.0022568 -0.0093070
803250000 0.0022508 -0.0084517 0.9977492 0.0084517 0.9977492 0.0084517 0.0022508 -0.0084517
810500000 0.0022465 -0.0076042 0.9977535 0.0076042 0.9977535 0.0076042 0.0022465 -0.0076042
817750000 0.0022439 -0.0067644 0.9977561 0.0067644 0.9977561 0.0067644 0.0022439 -0.0067644
825000000 0.0022429 -0.0059319 0.9977571 0.0059319 0.9977571 0.0059319 0.0022429 -0.0059319
832250000 0.0022434 -0.0051067 0.9977566 0.0051067 0.9977566 0.0051067 0.0022434 -0.0051067
839500000 0.0022455 -0.0042884 0.9977545 0.0042884 0.9977545 0.0042884 0.0022455 -0.0042884
846750000 0.0022491 -0.0034769 0.9977509 0.0034769 0.9977509 0.0034769 0.0022491 -0.0034769
854000000 0.0022541 -0.0026721 0.9977459 0.0026721 0.9977459 0.0026721 0.0022541 -0.0026721
861250000 0.0022606 -0.0018737 0.9977394 0.0018737 0.9977394 0.0018737 0.0022606 -0.0018737
868500000 0.0022684 -0.0010815 0.9977316 0.0010815 0.9977316 0.0010815 0.0022684 -0.0010815
875750000 0.0022777 -0.0002955 0.9977223 0.0002955 0.9977223 0.0002955 0.0022777 -0.0002955
883000000 0.0022882 0.0004846 0.9977118 -0.0004846 0.9977118 -0.0004846 0.0022882 0.0004846
890250000 0.0023001 0.0012589 0.9976999 -0.0012589 0.9976999 -0.0012589 0.0023001 0.0012589
897500000 0.0023133 0.0020276 0.9976867 -0.0020276 0.9976867 -0.0020276 0.0023133 0.0020276
904750000 0.0023278 0.0027908 0.9976722 -0.0027908 0.9976722 -0.0027908 0.0023278 0.0027908
912000000 0.0023435 0.0035486 0.9976565 -0.0035486 0.9976565 -0.0035486 0.0023435 0.0035486
919250000 0.0023604 0.0043013 0.9976396 -0.0043013 0.9976396 -0.0043013 0.0023604 0.0043013
926500000 0.0023785 0.0050489 0.9976215 -0.0050489 0.9976215 -0.0050489 0.0023785 0.0050489
933750000 0.0023978 0.0057915 0.9976022 -0.0057915 0.9976022 -0.0057915 0.0023978 0.0057915
941000000 0.0024182 0.0065293 0.9975818 -0.0065293 0.9975818 -0.0065293 0.0024182 0.0065293
948250000 0.0024398 0.0072625 0.9975602 -0.0072625 0.9975602 -0.0072625 0.0024398 0.0072625
955500000 0.0024626 0.0079911 0.9975374 -0.0079911 0.9975374 -0.0079911 0.0024626 0.0079911
962750000 0.0024864 0.0087152 0.9975136 -0.0087152 0.9975136 -0.0087152 0.0024864 0.0087152
970000000 0.0025113 0.0094350 0.9974887 -0.0094350 0.9974887 -0.0094350 0.0025113 0.0094350
977250000 0.0025373 0.0101505 0.9974627 -0.0101505 0.9974627 -0.0101505 0.0025373 0.0101505
984500000 0.0025643 0.0108619 0.9974357 -0.0108619 0.9974357 -0.0108619 0.0025643 0.0108619
991750000 0.0025924 0.0115693 0.9974076 -0.0115693 0.9974076 -0.0115693 0.0025924 0.0115693
999000000 0.0026216 0.0122728 0.9973784 -0.0122728 0.9973784 -0.0122728 0.0026216 0.0122728
1006250000 0.0026517 0.0129724 0.9973483 -0.0129724 0.9973483 -0.0129724 0.0026517 0.0129724
1013500000 0.0026828 0.0136684 0.9973172 -0.0136684 0.9973172 -0.0136684 0.0026828 0.0136684
1020750000 0.0027150 0.0143607 0.9972850 -0.0143607 0.9972850 -0.0143607 0.0027150 0.0143607
1028000000 0.0027481 0.0150494 0.9972519 -0.0150494 0.9972519 -0.0150494 0.0027481 0.0150494
1035250000 0.0027822 0.0157347 0.9972178 -0.0157347 0.9972178 -0.0157347 0.0027822 0.0157347
1042500000 0.0028173 0.0164166 0.9971827 -0.0164166 0.9971827 -0.0164166 0.0028173 0.0164166
1049750000 0.0028533 0.0170952 0.9971467 -0.0170952 0.9971467 -0.0170952 0.0028533 0.0170952
1057000000 0.0028902 0.0177706 0.9971098 -0.0177706 0.9971098 -0.0177706 0.0028902 0.0177706
1064250000 0.0029281 0.0184428 0.9970719 -0.0184428 0.9970719 -0.0184428 0.0029281 0.0184428
1071500000 0.0029669 0.0191120 0.9970331 -0.0191120 0.9970331 -0.0191120 0.0029669 0.0191120
1078750000 0.0030067 0.0197783 0.9969933 -0.0197783 0.9969933 -0.0197783 0.0030067 0.0197783
1086000000 0.0030473 0.0204416 0.9969527 -0.0204416 0.9969527 -0.0204416 0.0030473 0.0204416
1093250000 0.0030888 0.0211021 0.9969112 -0.0211021 0.9969112 -0.0211021 0.0030888 0.0211021
1100500000 0.0031313 0.0217598 0.9968687 -0.0217598 0.9968687 -0.0217598 0.0031313 0.0217598
1107750000 0.0031746 0.0224148 0.9968254 -0.0224148 0.9968254 -0.0224148 0.0031746 0.0224148
1115000000 0.0032188 0.0230672 0.9967812 -0.0230672 0.9967812 -0.0230672 0.0032188 0.0230672
1122250000 0.0032639 0.0237171 0.9967361 -0.0237171 0.9967361 -0.0237171 0.0032639 0.0237171
1129500000 0.0033098 0.0243644 0.9966902 -0.0243644 0.9966902 -0.0243644 0.0033098 0.0243644
1136750000 0.0033567 0.0250093 0.9966433 -0.0250093 0.9966433 -0.0250093 0.0033567 0.0250093
1144000000 0.0034043 0.0256518 0.9965957 -0.0256518 0.9965957 -0.0256518 0.0034043 0.0256518
1151250000 0.0034529 0.0262919 0.9965471 -0.0262919 0.9965471 -0.0262919 0.0034529 0.0262919
1158500000 0.0035022 0.0269298 0.9964978 -0.0269298 0.9964978 -0.0269298 0.0035022 0.0269298
1165750000 0.0035525 0.0275655 0.9964475 -0.0275655 0.9964475 -0.0275655 0.0035525 0.0275655
1173000000 0.0036035 0.0281991 0.9963965 -0.0281991 0.9963965 -0.0281991 0.0036035 0.0281991
1180250000 0.0036555 0.0288305 0.9963445 -0.0288305 0.9963445 -0.0288305 0.0036555 0.0288305
1187500000 0.0037082 0.0294599 0.9962918 -0.0294599 0.9962918 -0.0294599 0.0037082 0.0294599
1194750000 0.0037618 0.0300873 0.9962382 -0.0300873 0.9962382 -0.0300873 0.0037618 0.0300873
1202000000 0.0038162 0.0307128 0.9961838 -0.0307128 0.9961838 -0.0307128 0.0038162 0.0307128
1209250000 0.0038715 0.0313363 0.9961285 -0.0313363 0.9961285 -0.0313363 0.0038715 0.0313363
1216500000 0.0039275 0.0319580 0.9960725 -0.0319580 0.9960725 -0.0319580 0.0039275 0.0319580
1223750000 0.0039844 0.0325779 0.9960156 -0.0325779 0.9960156 -0.0325779 0.0039844 0.0325779
1231000000 0.0040421 0.0331961 0.9959579 -0.0331961 0.9959579 -0.0331961 0.0040421 0.0331961
1238250000 0.0041007 0.0338125 0.9958993 -0.0338125 0.9958993 -0.0338125 0.0041007 0.0338125
1245500000 0.0041600 0.0344273 0.9958400 -0.0344273 0.9958400 -0.0344273 0.0041600 0.0344273
1252750000 0.0042202 0.0350405 0.9957798 -0.0350405 0.9957798 -0.0350405 0.0042202 0.0350405
1260000000 0.0042812 0.0356520 0.9957188 -0.0356520 0.9957188 -0.0356520 0.0042812 0.0356520
1267250000 0.0043430 0.0362621 0.9956570 -0.0362621 0.9956570 -0.0362621 0.0043430 0.0362621
1274500000 0.0044056 0.0368706 0.9955944 -0.0368706 0.9955944 -0.0368706 0.0044056 0.0368706
1281750000 0.0044690 0.0374777 0.9955310 -0.0374777 0.9955310 -0.0374777 0.0044690 0.0374777
1289000000 0.0045333 0.0380833 0.9954667 -0.0380833 0.9954667 -0.0380833 0.0045333 0.0380833
1296250000 0.0045983 0.0386876 0.9954017 -0.0386876 0.9954017 -0.0386876 0.0045983 0.0386876
1303500000 0.0046642 0.0392906 0.9953358 -0.0392906 0.9953358 -0.0392906 0.0046642 0.0392906
1310750000 0.0047309 0.0398922 0.9952691 -0.0398922 0.9952691 -0.0398922 0.0047309 0.0398922
1318000000 0.0047984 0.0404926 0.9952016 -0.0404926 0.9952016 -0.0404926 0.0047984 0.0404926
1325250000 0.0048667 0.0410917 0.9951333 -0.0410917 0.9951333 -0.0410917 0.0048667 0.0410917
1332500000 0.0049358 0.0416897 0.9950642 -0.0416897 0.9950642 -0.0416897 0.0049358 0.0416897
1339750000 0.0050057 0.0422864 0.9949943 -0.0422864 0.9949943 -0.0422864 0.0050057 0.0422864
1347000000 0.0050765 0.0428821 0.9949235 -0.0428821 0.9949235 -0.0428821 0.0050765 0.0428821
1354250000 0.0051481 0.0434766 0.9948519 -0.0434766 0.9948519 -0.0434766 0.0051481 0.0434766
1361500000 0.0052205 0.0440701 0.9947795 -0.0440701 0.9947795 -0.0440701 0.0052205 0.0440701
1368750000 0.0052937 0.0446626 0.9947063 -0.0446626 0.9947063 -0.0446626 0.0052937 0.0446626
1376000000 0.0053677 0.0452541 0.9946323 -0.0452541 0.9946323 -0.0452541 0.0053677 0.0452541
1383250000 0.0054426 0.0458446 0.9945574 -0.0458446 0.9945574 -0.0458446 0.0054426 0.0458446
1390500000 0.0055183 0.0464341 0.9944817 -0.0464341 0.9944817 -0.0464341 0.0055183 0.0464341
1397750000 0.0055948 0.0470228 0.9944052 -0.0470228 0.9944052 -0.0470228 0.0055948 0.0470228
1405000000 0.0056721 0.0476105 0.9943279 -0.0476105 0.9943279 -0.0476105 0.0056721 0.0476105
1412250000 0.0057503 0.0481975 0.9942497 -0.0481975 0.9942497 -0.0481975 0.0057503 0.0481975
1419500000 0.0058293 0.0487836 0.9941707 -0.0487836 0.9941707 -0.0487836 0.0058293 0.0487836
1426750000 0.0059092 0.0493689 0.9940908 -0.0493689 0.9940908 -0.0493689 0.0059092 0.0493689
1434000000 0.0059899 0.0499535 0.9940101 -0.0499535 0.9940101 -0.0499535 0.0059899 0.0499535
1441250000 0.0060714 0.0505373 0.9939286 -0.0505373 0.9939286 -0.0505373 0.0060714 0.0505373
1448500000 0.0061538 0.0511204 0.9938462 -0.0511204 0.9938462 -0.0511204 0.0061538 0.0511204
1455750000 0.0062371 0.0517028 0.9937629 -0.0517028 0.9937629 -0.0517028 0.0062371 0.0517028
1463000000 0.0063211 0.0522846 0.9936789 -0.0522846 0.9936789 -0.0522846 0.0063211 0.0522846
1470250000 0.0064061 0.0528657 0.9935939 -0.0528657 0.9935939 -0.0528657 0.0064061 0.0528657
1477500000 0.0064919 0.0534463 0.9935081 -0.0534463 0.9935081 -0.0534463 0.0064919 0.0534463
1484750000 0.0065786 0.0540262 0.9934214 -0.0540262 0.9934214 -0.0540262 0.0065786 0.0540262
1492000000 0.0066661 0.0546056 0.9933339 -0.0546056 0.9933339 -0.0546056 0.0066661 0.0546056
1499250000 0.0067545 0.0551845 0.9932455 -0.0551845 0.9932455 -0.0551845 0.0067545 0.0551845
1506500000 0.0068438 0.0557628 0.9931562 -0.0557628 0.9931562 -0.0557628 0.0068438 0.0557628
1513750000 0.0069340 0.0563407 0.9930660 -0.0563407 0.9930660 -0.0563407 0.0069340 0.0563407
1521000000 0.0070250 0.0569181 0.9929750 -0.0569181 0.9929750 -0.0569181 0.0070250 0.0569181
1528250000 0.0071170 0.0574951 0.9928830 -0.0574951 0.9928830 -0.0574951 0.0071170 0.0574951
1535500000 0.0072098 0.0580717 0.9927902 -0.0580717 0.9927902 -0.0580717 0.0072098 0.0580717
1542750000 0.0073036 0.0586478 0.9926964 -0.0586478 0.9926964 -0.0586478 0.0073036 0.0586478
1550000000 0.0073982 0.0592236 0.9926018 -0.0592236 0.9926018 -0.0592236 0.0073982 0.0592236
1557250000 0.0074938 0.0597991 0.9925062 -0.0597991 0.9925062 -0.0597991 0.0074938 0.0597991
1564500000 0.0075903 0.0603742 0.9924097 -0.0603742 0.9924097 -0.0603742 0.0075903 0.0603742
1571750000 0.0076877 0.0609490 0.9923123 -0.0609490 0.9923123 -0.0609490 0.0076877 0.0609490
1579000000 0.0077860 0.0615236 0.9922140 -0.0615236 0.9922140 -0.0615236 0.0077860 0.0615236
1586250000 0.0078852 0.0620978 0.9921148 -0.0620978 0.9921148 -0.0620978 0.0078852 0.0620978
1593500000 0.0079854 0.0626719 0.9920146 -0.0626719 0.9920146 -0.0626719 0.0079854 0.0626719
1600750000 0.0080866 0.0632457 0.9919134 -0.0632457 0.9919134 -0.0632457 0.0080866 0.0632457
1608000000 0.0081887 0.0638193 0.9918113 -0.0638193 0.9918113 -0.0638193 0.0081887 0.0638193
1615250000 0.0082917 0.0643927 0.9917083 -0.0643927 0.9917083 -0.0643927 0.0082917 0.0643927
1622500000 0.0083958 0.0649660 0.9916042 -0.0649660 0.9916042 -0.0649660 0.0083958 0.0649660
1629750000 0.0085007 0.0655391 0.9914993 -0.0655391 0.9914993 -0.0655391 0.0085007 0.0655391
