!Murata Part Number: GRM31A5C3A390JW01
!These Parameters are Measured in Series Mode Connection
!Data Generated on Mar 30, 2021
!       o--ll--o
!Port1            Port2
!       o------o
!Operation Temp=25[degC], DC Bias Voltage=0[V]
!Freq. Start=100[MHz] Stop=3[GHz] 401[Steps]
# Hz S RI R 50
!Freq.(Hz) S11(Real) S11(Imag) S21(Real) S21(Imag) S12(Real) S12(Imag) S22(Real) S22(Imag)
100000000 0.1407116 -0.3459147 0.8592884 0.3459147 0.8592884 0.3459147 0.1407116 -0.3459147
107250000 0.1243702 -0.3280591 0.8756298 0.3280591 0.8756298 0.3280591 0.1243702 -0.3280591
114500000 0.1105665 -0.3115143 0.8894335 0.3115143 0.8894335 0.3115143 0.1105665 -0.3115143
121750000 0.0988225 -0.2962063 0.9011775 0.2962063 0.9011775 0.2962063 0.0988225 -0.2962063
129000000 0.0887626 -0.2820456 0.9112374 0.2820456 0.9112374 0.2820456 0.0887626 -0.2820456
136250000 0.0800898 -0.2689379 0.9199102 0.2689379 0.9199102 0.2689379 0.0800898 -0.2689379
143500000 0.0725676 -0.2567910 0.9274324 0.2567910 0.9274324 0.2567910 0.0725676 -0.2567910
150750000 0.0660064 -0.2455175 0.9339936 0.2455175 0.9339936 0.2455175 0.0660064 -0.2455175
158000000 0.0602531 -0.2350368 0.9397469 0.2350368 0.9397469 0.2350368 0.0602531 -0.2350368
165250000 0.0551832 -0.2252754 0.9448168 0.2252754 0.9448168 0.2252754 0.0551832 -0.2252754
172500000 0.0506949 -0.2161665 0.9493051 0.2161665 0.9493051 0.2161665 0.0506949 -0.2161665
179750000 0.0467042 -0.2076504 0.9532958 0.2076504 0.9532958 0.2076504 0.0467042 -0.2076504
187000000 0.0431416 -0.1996732 0.9568584 0.1996732 0.9568584 0.1996732 0.0431416 -0.1996732
194250000 0.0399489 -0.1921869 0.9600511 0.1921869 0.9600511 0.1921869 0.0399489 -0.1921869
201500000 0.0370776 -0.1851482 0.9629224 0.1851482 0.9629224 0.1851482 0.0370776 -0.1851482
208750000 0.0344867 -0.1785185 0.9655133 0.1785185 0.9655133 0.1785185 0.0344867 -0.1785185
216000000 0.0321414 -0.1722633 0.9678586 0.1722633 0.9678586 0.1722633 0.0321414 -0.1722633
223250000 0.0300121 -0.1663514 0.9699879 0.1663514 0.9699879 0.1663514 0.0300121 -0.1663514
230500000 0.0280736 -0.1607549 0.9719264 0.1607549 0.9719264 0.1607549 0.0280736 -0.1607549
237750000 0.0263040 -0.1554487 0.9736960 0.1554487 0.9736960 0.1554487 0.0263040 -0.1554487
245000000 0.0246848 -0.1504101 0.9753152 0.1504101 0.9753152 0.1504101 0.0246848 -0.1504101
252250000 0.0231995 -0.1456187 0.9768005 0.1456187 0.9768005 0.1456187 0.0231995 -0.1456187
259500000 0.0218341 -0.1410560 0.9781659 0.1410560 0.9781659 0.1410560 0.0218341 -0.1410560
266750000 0.0205763 -0.1367052 0.9794237 0.1367052 0.9794237 0.1367052 0.0205763 -0.1367052
274000000 0.0194153 -0.1325511 0.9805847 0.1325511 0.9805847 0.1325511 0.0194153 -0.1325511
281250000 0.0183416 -0.1285797 0.9816584 0.1285797 0.9816584 0.1285797 0.0183416 -0.1285797
288500000 0.0173469 -0.1247787 0.9826531 0.1247787 0.9826531 0.1247787 0.0173469 -0.1247787
295750000 0.0164238 -0.1211363 0.9835762 0.1211363 0.9835762 0.1211363 0.0164238 -0.1211363
303000000 0.0155658 -0.1176421 0.9844342 0.1176421 0.9844342 0.1176421 0.0155658 -0.1176421
310250000 0.0147670 -0.1142865 0.9852330 0.1142865 0.9852330 0.1142865 0.0147670 -0.1142865
317500000 0.0140224 -0.1110606 0.9859776 0.1110606 0.9859776 0.1110606 0.0140224 -0.1110606
324750000 0.0133272 -0.1079564 0.9866728 0.1079564 0.9866728 0.1079564 0.0133272 -0.1079564
332000000 0.0126773 -0.1049662 0.9873227 0.1049662 0.9873227 0.1049662 0.0126773 -0.1049662
339250000 0.0120691 -0.1020834 0.9879309 0.1020834 0.9879309 0.1020834 0.0120691 -0.1020834
346500000 0.0114991 -0.0993014 0.9885009 0.0993014 0.9885009 0.0993014 0.0114991 -0.0993014
353750000 0.0109644 -0.0966145 0.9890356 0.0966145 0.9890356 0.0966145 0.0109644 -0.0966145
361000000 0.0104623 -0.0940172 0.9895377 0.0940172 0.9895377 0.0940172 0.0104623 -0.0940172
368250000 0.0099902 -0.0915046 0.9900098 0.0915046 0.9900098 0.0915046 0.0099902 -0.0915046
375500000 0.0095461 -0.0890718 0.9904539 0.0890718 0.9904539 0.0890718 0.0095461 -0.0890718
382750000 0.0091277 -0.0867146 0.9908723 0.0867146 0.9908723 0.0867146 0.0091277 -0.0867146
390000000 0.0087333 -0.0844291 0.9912667 0.0844291 0.9912667 0.0844291 0.0087333 -0.0844291
397250000 0.0083613 -0.0822113 0.9916387 0.0822113 0.9916387 0.0822113 0.0083613 -0.0822113
404500000 0.0080100 -0.0800578 0.9919900 0.0800578 0.9919900 0.0800578 0.0080100 -0.0800578
411750000 0.0076781 -0.0779653 0.9923219 0.0779653 0.9923219 0.0779653 0.0076781 -0.0779653
419000000 0.0073643 -0.0759309 0.9926357 0.0759309 0.9926357 0.0759309 0.0073643 -0.0759309
426250000 0.0070673 -0.0739516 0.9929327 0.0739516 0.9929327 0.0739516 0.0070673 -0.0739516
433500000 0.0067862 -0.0720247 0.9932138 0.0720247 0.9932138 0.0720247 0.0067862 -0.0720247
440750000 0.0065199 -0.0701478 0.9934801 0.0701478 0.9934801 0.0701478 0.0065199 -0.0701478
448000000 0.0062676 -0.0683185 0.9937324 0.0683185 0.9937324 0.0683185 0.0062676 -0.0683185
455250000 0.0060283 -0.0665346 0.9939717 0.0665346 0.9939717 0.0665346 0.0060283 -0.0665346
462500000 0.0058012 -0.0647941 0.9941988 0.0647941 0.9941988 0.0647941 0.0058012 -0.0647941
469750000 0.0055858 -0.0630949 0.9944142 0.0630949 0.9944142 0.0630949 0.0055858 -0.0630949
477000000 0.0053812 -0.0614352 0.9946188 0.0614352 0.9946188 0.0614352 0.0053812 -0.0614352
484250000 0.0051869 -0.0598134 0.9948131 0.0598134 0.9948131 0.0598134 0.0051869 -0.0598134
491500000 0.0050023 -0.0582277 0.9949977 0.0582277 0.9949977 0.0582277 0.0050023 -0.0582277
498750000 0.0048269 -0.0566766 0.9951731 0.0566766 0.9951731 0.0566766 0.0048269 -0.0566766
506000000 0.0046601 -0.0551587 0.9953399 0.0551587 0.9953399 0.0551587 0.0046601 -0.0551587
513250000 0.0045015 -0.0536726 0.9954985 0.0536726 0.9954985 0.0536726 0.0045015 -0.0536726
520500000 0.0043507 -0.0522170 0.9956493 0.0522170 0.9956493 0.0522170 0.0043507 -0.0522170
527750000 0.0042073 -0.0507906 0.9957927 0.0507906 0.9957927 0.0507906 0.0042073 -0.0507906
535000000 0.0040708 -0.0493923 0.9959292 0.0493923 0.9959292 0.0493923 0.0040708 -0.0493923
542250000 0.0039411 -0.0480210 0.9960589 0.0480210 0.9960589 0.0480210 0.0039411 -0.0480210
549500000 0.0038176 -0.0466756 0.9961824 0.0466756 0.9961824 0.0466756 0.0038176 -0.0466756
556750000 0.0037002 -0.0453551 0.9962998 0.0453551 0.9962998 0.0453551 0.0037002 -0.0453551
564000000 0.0035884 -0.0440586 0.9964116 0.0440586 0.9964116 0.0440586 0.0035884 -0.0440586
571250000 0.0034822 -0.0427852 0.9965178 0.0427852 0.9965178 0.0427852 0.0034822 -0.0427852
578500000 0.0033811 -0.0415340 0.9966189 0.0415340 0.9966189 0.0415340 0.0033811 -0.0415340
585750000 0.0032850 -0.0403042 0.9967150 0.0403042 0.9967150 0.0403042 0.0032850 -0.0403042
593000000 0.0031937 -0.0390950 0.9968063 0.0390950 0.9968063 0.0390950 0.0031937 -0.0390950
600250000 0.0031069 -0.0379057 0.9968931 0.0379057 0.9968931 0.0379057 0.0031069 -0.0379057
607500000 0.0030245 -0.0367355 0.9969755 0.0367355 0.9969755 0.0367355 0.0030245 -0.0367355
614750000 0.0029462 -0.0355838 0.9970538 0.0355838 0.9970538 0.0355838 0.0029462 -0.0355838
622000000 0.0028719 -0.0344500 0.9971281 0.0344500 0.9971281 0.0344500 0.0028719 -0.0344500
629250000 0.0028014 -0.0333334 0.9971986 0.0333334 0.9971986 0.0333334 0.0028014 -0.0333334
636500000 0.0027345 -0.0322335 0.9972655 0.0322335 0.9972655 0.0322335 0.0027345 -0.0322335
643750000 0.0026712 -0.0311496 0.9973288 0.0311496 0.9973288 0.0311496 0.0026712 -0.0311496
651000000 0.0026113 -0.0300813 0.9973887 0.0300813 0.9973887 0.0300813 0.0026113 -0.0300813
658250000 0.0025546 -0.0290280 0.9974454 0.0290280 0.9974454 0.0290280 0.0025546 -0.0290280
665500000 0.0025010 -0.0279892 0.9974990 0.0279892 0.9974990 0.0279892 0.0025010 -0.0279892
672750000 0.0024504 -0.0269646 0.9975496 0.0269646 0.9975496 0.0269646 0.0024504 -0.0269646
680000000 0.0024027 -0.0259535 0.9975973 0.0259535 0.9975973 0.0259535 0.0024027 -0.0259535
687250000 0.0023579 -0.0249556 0.9976421 0.0249556 0.9976421 0.0249556 0.0023579 -0.0249556
694500000 0.0023157 -0.0239704 0.9976843 0.0239704 0.9976843 0.0239704 0.0023157 -0.0239704
701750000 0.0022761 -0.0229977 0.9977239 0.0229977 0.9977239 0.0229977 0.0022761 -0.0229977
709000000 0.0022390 -0.0220369 0.9977610 0.0220369 0.9977610 0.0220369 0.0022390 -0.0220369
716250000 0.0022043 -0.0210877 0.9977957 0.0210877 0.9977957 0.0210877 0.0022043 -0.0210877
723500000 0.0021719 -0.0201497 0.9978281 0.0201497 0.9978281 0.0201497 0.0021719 -0.0201497
730750000 0.0021419 -0.0192227 0.9978581 0.0192227 0.9978581 0.0192227 0.0021419 -0.0192227
738000000 0.0021140 -0.0183063 0.9978860 0.0183063 0.9978860 0.0183063 0.0021140 -0.0183063
745250000 0.0020882 -0.0174001 0.9979118 0.0174001 0.9979118 0.0174001 0.0020882 -0.0174001
752500000 0.0020645 -0.0165040 0.9979355 0.0165040 0.9979355 0.0165040 0.0020645 -0.0165040
759750000 0.0020428 -0.0156175 0.9979572 0.0156175 0.9979572 0.0156175 0.0020428 -0.0156175
767000000 0.0020230 -0.0147404 0.9979770 0.0147404 0.9979770 0.0147404 0.0020230 -0.0147404
774250000 0.0020051 -0.0138724 0.9979949 0.0138724 0.9979949 0.0138724 0.0020051 -0.0138724
781500000 0.0019890 -0.0130133 0.9980110 0.0130133 0.9980110 0.0130133 0.0019890 -0.0130133
788750000 0.0019747 -0.0121628 0.9980253 0.0121628 0.9980253 0.0121628 0.0019747 -0.0121628
796000000 0.0019621 -0.0113207 0.9980379 0.0113207 0.9980379 0.0113207 0.0019621 -0.0113207
803250000 0.0019511 -0.0104867 0.9980489 0.0104867 0.9980489 0.0104867 0.0019511 -0.0104867
810500000 0.0019418 -0.0096606 0.9980582 0.0096606 0.9980582 0.0096606 0.0019418 -0.0096606
817750000 0.0019341 -0.0088422 0.9980659 0.0088422 0.9980659 0.0088422 0.0019341 -0.0088422
825000000 0.0019279 -0.0080314 0.9980721 0.0080314 0.9980721 0.0080314 0.0019279 -0.0080314
832250000 0.0019233 -0.0072277 0.9980767 0.0072277 0.9980767 0.0072277 0.0019233 -0.0072277
839500000 0.0019201 -0.0064312 0.9980799 0.0064312 0.9980799 0.0064312 0.0019201 -0.0064312
846750000 0.0019183 -0.0056416 0.9980817 0.0056416 0.9980817 0.0056416 0.0019183 -0.0056416
854000000 0.0019179 -0.0048587 0.9980821 0.0048587 0.9980821 0.0048587 0.0019179 -0.0048587
861250000 0.0019189 -0.0040823 0.9980811 0.0040823 0.9980811 0.0040823 0.0019189 -0.0040823
868500000 0.0019212 -0.0033123 0.9980788 0.0033123 0.9980788 0.0033123 0.0019212 -0.0033123
875750000 0.0019249 -0.0025484 0.9980751 0.0025484 0.9980751 0.0025484 0.0019249 -0.0025484
883000000 0.0019298 -0.0017906 0.9980702 0.0017906 0.9980702 0.0017906 0.0019298 -0.0017906
890250000 0.0019359 -0.0010387 0.9980641 0.0010387 0.9980641 0.0010387 0.0019359 -0.0010387
897500000 0.0019433 -0.0002925 0.9980567 0.0002925 0.9980567 0.0002925 0.0019433 -0.0002925
904750000 0.0019519 0.0004481 0.9980481 -0.0004481 0.9980481 -0.0004481 0.0019519 0.0004481
912000000 0.0019616 0.0011833 0.9980384 -0.0011833 0.9980384 -0.0011833 0.0019616 0.0011833
919250000 0.0019725 0.0019132 0.9980275 -0.0019132 0.9980275 -0.0019132 0.0019725 0.0019132
926500000 0.0019845 0.0026379 0.9980155 -0.0026379 0.9980155 -0.0026379 0.0019845 0.0026379
933750000 0.0019976 0.0033576 0.9980024 -0.0033576 0.9980024 -0.0033576 0.0019976 0.0033576
941000000 0.0020118 0.0040724 0.9979882 -0.0040724 0.9979882 -0.0040724 0.0020118 0.0040724
948250000 0.0020271 0.0047824 0.9979729 -0.0047824 0.9979729 -0.0047824 0.0020271 0.0047824
955500000 0.0020435 0.0054877 0.9979565 -0.0054877 0.9979565 -0.0054877 0.0020435 0.0054877
962750000 0.0020608 0.0061885 0.9979392 -0.0061885 0.9979392 -0.0061885 0.0020608 0.0061885
970000000 0.0020792 0.0068848 0.9979208 -0.0068848 0.9979208 -0.0068848 0.0020792 0.0068848
977250000 0.0020986 0.0075768 0.9979014 -0.0075768 0.9979014 -0.0075768 0.0020986 0.0075768
984500000 0.0021189 0.0082646 0.9978811 -0.0082646 0.9978811 -0.0082646 0.0021189 0.0082646
991750000 0.0021402 0.0089482 0.9978598 -0.0089482 0.9978598 -0.0089482 0.0021402 0.0089482
999000000 0.0021625 0.0096278 0.9978375 -0.0096278 0.9978375 -0.0096278 0.0021625 0.0096278
1006250000 0.0021857 0.0103035 0.9978143 -0.0103035 0.9978143 -0.0103035 0.0021857 0.0103035
1013500000 0.0022099 0.0109754 0.9977901 -0.0109754 0.9977901 -0.0109754 0.0022099 0.0109754
1020750000 0.0022349 0.0116435 0.9977651 -0.0116435 0.9977651 -0.0116435 0.0022349 0.0116435
1028000000 0.0022609 0.0123080 0.9977391 -0.0123080 0.9977391 -0.0123080 0.0022609 0.0123080
1035250000 0.0022877 0.0129689 0.9977123 -0.0129689 0.9977123 -0.0129689 0.0022877 0.0129689
1042500000 0.0023155 0.0136263 0.9976845 -0.0136263 0.9976845 -0.0136263 0.0023155 0.0136263
1049750000 0.0023441 0.0142803 0.9976559 -0.0142803 0.9976559 -0.0142803 0.0023441 0.0142803
1057000000 0.0023735 0.0149310 0.9976265 -0.0149310 0.9976265 -0.0149310 0.0023735 0.0149310
1064250000 0.0024038 0.0155785 0.9975962 -0.0155785 0.9975962 -0.0155785 0.0024038 0.0155785
1071500000 0.0024350 0.0162228 0.9975650 -0.0162228 0.9975650 -0.0162228 0.0024350 0.0162228
1078750000 0.0024669 0.0168640 0.9975331 -0.0168640 0.9975331 -0.0168640 0.0024669 0.0168640
1086000000 0.0024997 0.0175022 0.9975003 -0.0175022 0.9975003 -0.0175022 0.0024997 0.0175022
1093250000 0.0025333 0.0181375 0.9974667 -0.0181375 0.9974667 -0.0181375 0.0025333 0.0181375
1100500000 0.0025677 0.0187699 0.9974323 -0.0187699 0.9974323 -0.0187699 0.0025677 0.0187699
1107750000 0.0026030 0.0193995 0.9973970 -0.0193995 0.9973970 -0.0193995 0.0026030 0.0193995
1115000000 0.0026390 0.0200263 0.9973610 -0.0200263 0.9973610 -0.0200263 0.0026390 0.0200263
1122250000 0.0026758 0.0206504 0.9973242 -0.0206504 0.9973242 -0.0206504 0.0026758 0.0206504
1129500000 0.0027133 0.0212720 0.9972867 -0.0212720 0.9972867 -0.0212720 0.0027133 0.0212720
1136750000 0.0027517 0.0218910 0.9972483 -0.0218910 0.9972483 -0.0218910 0.0027517 0.0218910
1144000000 0.0027908 0.0225075 0.9972092 -0.0225075 0.9972092 -0.0225075 0.0027908 0.0225075
1151250000 0.0028306 0.0231215 0.9971694 -0.0231215 0.9971694 -0.0231215 0.0028306 0.0231215
1158500000 0.0028713 0.0237332 0.9971287 -0.0237332 0.9971287 -0.0237332 0.0028713 0.0237332
1165750000 0.0029126 0.0243426 0.9970874 -0.0243426 0.9970874 -0.0243426 0.0029126 0.0243426
1173000000 0.0029547 0.0249497 0.9970453 -0.0249497 0.9970453 -0.0249497 0.0029547 0.0249497
1180250000 0.0029976 0.0255546 0.9970024 -0.0255546 0.9970024 -0.0255546 0.0029976 0.0255546
1187500000 0.0030412 0.0261573 0.9969588 -0.0261573 0.9969588 -0.0261573 0.0030412 0.0261573
1194750000 0.0030855 0.0267579 0.9969145 -0.0267579 0.9969145 -0.0267579 0.0030855 0.0267579
1202000000 0.0031306 0.0273564 0.9968694 -0.0273564 0.9968694 -0.0273564 0.0031306 0.0273564
1209250000 0.0031764 0.0279530 0.9968236 -0.0279530 0.9968236 -0.0279530 0.0031764 0.0279530
1216500000 0.0032229 0.0285476 0.9967771 -0.0285476 0.9967771 -0.0285476 0.0032229 0.0285476
1223750000 0.0032701 0.0291402 0.9967299 -0.0291402 0.9967299 -0.0291402 0.0032701 0.0291402
1231000000 0.0033181 0.0297310 0.9966819 -0.0297310 0.9966819 -0.0297310 0.0033181 0.0297310
1238250000 0.0033667 0.0303199 0.9966333 -0.0303199 0.9966333 -0.0303199 0.0033667 0.0303199
1245500000 0.0034161 0.0309071 0.9965839 -0.0309071 0.9965839 -0.0309071 0.0034161 0.0309071
1252750000 0.0034662 0.0314926 0.9965338 -0.0314926 0.9965338 -0.0314926 0.0034662 0.0314926
1260000000 0.0035170 0.0320763 0.9964830 -0.0320763 0.9964830 -0.0320763 0.0035170 0.0320763
1267250000 0.0035685 0.0326584 0.9964315 -0.0326584 0.9964315 -0.0326584 0.0035685 0.0326584
1274500000 0.0036207 0.0332389 0.9963793 -0.0332389 0.9963793 -0.0332389 0.0036207 0.0332389
1281750000 0.0036736 0.0338178 0.9963264 -0.0338178 0.9963264 -0.0338178 0.0036736 0.0338178
1289000000 0.0037272 0.0343951 0.9962728 -0.0343951 0.9962728 -0.0343951 0.0037272 0.0343951
1296250000 0.0037815 0.0349710 0.9962185 -0.0349710 0.9962185 -0.0349710 0.0037815 0.0349710
1303500000 0.0038365 0.0355454 0.9961635 -0.0355454 0.9961635 -0.0355454 0.0038365 0.0355454
1310750000 0.0038922 0.0361184 0.9961078 -0.0361184 0.9961078 -0.0361184 0.0038922 0.0361184
1318000000 0.0039486 0.0366900 0.9960514 -0.0366900 0.9960514 -0.0366900 0.0039486 0.0366900
1325250000 0.0040057 0.0372603 0.9959943 -0.0372603 0.9959943 -0.0372603 0.0040057 0.0372603
1332500000 0.0040634 0.0378292 0.9959366 -0.0378292 0.9959366 -0.0378292 0.0040634 0.0378292
1339750000 0.0041219 0.0383969 0.9958781 -0.0383969 0.9958781 -0.0383969 0.0041219 0.0383969
1347000000 0.0041811 0.0389633 0.9958189 -0.0389633 0.9958189 -0.0389633 0.0041811 0.0389633
1354250000 0.0042410 0.0395285 0.9957590 -0.0395285 0.9957590 -0.0395285 0.0042410 0.0395285
1361500000 0.0043015 0.0400925 0.9956985 -0.0400925 0.9956985 -0.0400925 0.0043015 0.0400925
1368750000 0.0043628 0.0406554 0.9956372 -0.0406554 0.9956372 -0.0406554 0.0043628 0.0406554
1376000000 0.0044247 0.0412171 0.9955753 -0.0412171 0.9955753 -0.0412171 0.0044247 0.0412171
1383250000 0.0044874 0.0417778 0.9955126 -0.0417778 0.9955126 -0.0417778 0.0044874 0.0417778
1390500000 0.0045507 0.0423375 0.9954493 -0.0423375 0.9954493 -0.0423375 0.0045507 0.0423375
1397750000 0.0046148 0.0428961 0.9953852 -0.0428961 0.9953852 -0.0428961 0.0046148 0.0428961
1405000000 0.0046795 0.0434537 0.9953205 -0.0434537 0.9953205 -0.0434537 0.0046795 0.0434537
1412250000 0.0047450 0.0440103 0.9952550 -0.0440103 0.9952550 -0.0440103 0.0047450 0.0440103
1419500000 0.0048111 0.0445660 0.9951889 -0.0445660 0.9951889 -0.0445660 0.0048111 0.0445660
1426750000 0.0048780 0.0451209 0.9951220 -0.0451209 0.9951220 -0.0451209 0.0048780 0.0451209
1434000000 0.0049455 0.0456748 0.9950545 -0.0456748 0.9950545 -0.0456748 0.0049455 0.0456748
1441250000 0.0050138 0.0462279 0.9949862 -0.0462279 0.9949862 -0.0462279 0.0050138 0.0462279
1448500000 0.0050828 0.0467801 0.9949172 -0.0467801 0.9949172 -0.0467801 0.0050828 0.0467801
1455750000 0.0051525 0.0473316 0.9948475 -0.0473316 0.9948475 -0.0473316 0.0051525 0.0473316
1463000000 0.0052228 0.0478823 0.9947772 -0.0478823 0.9947772 -0.0478823 0.0052228 0.0478823
1470250000 0.0052940 0.0484323 0.9947060 -0.0484323 0.9947060 -0.0484323 0.0052940 0.0484323
1477500000 0.0053658 0.0489815 0.9946342 -0.0489815 0.9946342 -0.0489815 0.0053658 0.0489815
1484750000 0.0054383 0.0495301 0.9945617 -0.0495301 0.9945617 -0.0495301 0.0054383 0.0495301
1492000000 0.0055116 0.0500779 0.9944884 -0.0500779 0.9944884 -0.0500779 0.0055116 0.0500779
1499250000 0.0055856 0.0506252 0.9944144 -0.0506252 0.9944144 -0.0506252 0.0055856 0.0506252
1506500000 0.0056603 0.0511718 0.9943397 -0.0511718 0.9943397 -0.0511718 0.0056603 0.0511718
1513750000 0.0057357 0.0517179 0.9942643 -0.0517179 0.9942643 -0.0517179 0.0057357 0.0517179
1521000000 0.0058119 0.0522633 0.9941881 -0.0522633 0.9941881 -0.0522633 0.0058119 0.0522633
1528250000 0.0058888 0.0528083 0.9941112 -0.0528083 0.9941112 -0.0528083 0.0058888 0.0528083
1535500000 0.0059665 0.0533527 0.9940335 -0.0533527 0.9940335 -0.0533527 0.0059665 0.0533527
1542750000 0.0060449 0.0538966 0.9939551 -0.0538966 0.9939551 -0.0538966 0.0060449 0.0538966
1550000000 0.0061240 0.0544401 0.9938760 -0.0544401 0.9938760 -0.0544401 0.0061240 0.0544401
1557250000 0.0062039 0.0549831 0.9937961 -0.0549831 0.9937961 -0.0549831 0.0062039 0.0549831
1564500000 0.0062845 0.0555256 0.9937155 -0.0555256 0.9937155 -0.0555256 0.0062845 0.0555256
1571750000 0.0063660 0.0560678 0.9936340 -0.0560678 0.9936340 -0.0560678 0.0063660 0.0560678
1579000000 0.0064481 0.0566096 0.9935519 -0.0566096 0.9935519 -0.0566096 0.0064481 0.0566096
1586250000 0.0065311 0.0571511 0.9934689 -0.0571511 0.9934689 -0.0571511 0.0065311 0.0571511
1593500000 0.0066148 0.0576922 0.9933852 -0.0576922 0.9933852 -0.0576922 0.0066148 0.0576922
1600750000 0.0066993 0.0582329 0.9933007 -0.0582329 0.9933007 -0.0582329 0.0066993 0.0582329
1608000000 0.0067845 0.0587734 0.9932155 -0.0587734 0.9932155 -0.0587734 0.0067845 0.0587734
1615250000 0.0068706 0.0593137 0.9931294 -0.0593137 0.9931294 -0.0593137 0.0068706 0.0593137
1622500000 0.0069574 0.0598536 0.9930426 -0.0598536 0.9930426 -0.0598536 0.0069574 0.0598536
1629750000 0.0070450 0.0603934 0.9929550 -0.0603934 0.9929550 -0.0603934 0.0070450 0.0603934
