!Murata Part Number: GRM31A7U2J121JW31
!These Parameters are Measured in Series Mode Connection
!Data Generated on Mar 30, 2021
!       o--ll--o
!Port1            Port2
!       o------o
!Operation Temp=25[degC], DC Bias Voltage=0[V]
!Freq. Start=100[MHz] Stop=3[GHz] 401[Steps]
# Hz S RI R 50
!Freq.(Hz) S11(Real) S11(Imag) S21(Real) S21(Imag) S12(Real) S12(Imag) S22(Real) S22(Imag)
100000000 0.0171524 -0.1250643 0.9828476 0.1250643 0.9828476 0.1250643 0.0171524 -0.1250643
107250000 0.0149358 -0.1161525 0.9850642 0.1161525 0.9850642 0.1161525 0.0149358 -0.1161525
114500000 0.0131206 -0.1082747 0.9868794 0.1082747 0.9868794 0.1082747 0.0131206 -0.1082747
121750000 0.0116163 -0.1012562 0.9883837 0.1012562 0.9883837 0.1012562 0.0116163 -0.1012562
129000000 0.0103563 -0.0949588 0.9896437 0.0949588 0.9896437 0.0949588 0.0103563 -0.0949588
136250000 0.0092909 -0.0892723 0.9907091 0.0892723 0.9907091 0.0892723 0.0092909 -0.0892723
143500000 0.0083824 -0.0841075 0.9916176 0.0841075 0.9916176 0.0841075 0.0083824 -0.0841075
150750000 0.0076020 -0.0793917 0.9923980 0.0793917 0.9923980 0.0793917 0.0076020 -0.0793917
158000000 0.0069269 -0.0750650 0.9930731 0.0750650 0.9930731 0.0750650 0.0069269 -0.0750650
165250000 0.0063393 -0.0710776 0.9936607 0.0710776 0.9936607 0.0710776 0.0063393 -0.0710776
172500000 0.0058252 -0.0673877 0.9941748 0.0673877 0.9941748 0.0673877 0.0058252 -0.0673877
179750000 0.0053729 -0.0639603 0.9946271 0.0639603 0.9946271 0.0639603 0.0053729 -0.0639603
187000000 0.0049734 -0.0607653 0.9950266 0.0607653 0.9950266 0.0607653 0.0049734 -0.0607653
194250000 0.0046189 -0.0577774 0.9953811 0.0577774 0.9953811 0.0577774 0.0046189 -0.0577774
201500000 0.0043032 -0.0549745 0.9956968 0.0549745 0.9956968 0.0549745 0.0043032 -0.0549745
208750000 0.0040212 -0.0523376 0.9959788 0.0523376 0.9959788 0.0523376 0.0040212 -0.0523376
216000000 0.0037684 -0.0498504 0.9962316 0.0498504 0.9962316 0.0498504 0.0037684 -0.0498504
223250000 0.0035411 -0.0474985 0.9964589 0.0474985 0.9964589 0.0474985 0.0035411 -0.0474985
230500000 0.0033364 -0.0452691 0.9966636 0.0452691 0.9966636 0.0452691 0.0033364 -0.0452691
237750000 0.0031515 -0.0431514 0.9968485 0.0431514 0.9968485 0.0431514 0.0031515 -0.0431514
245000000 0.0029842 -0.0411353 0.9970158 0.0411353 0.9970158 0.0411353 0.0029842 -0.0411353
252250000 0.0028325 -0.0392124 0.9971675 0.0392124 0.9971675 0.0392124 0.0028325 -0.0392124
259500000 0.0026949 -0.0373748 0.9973051 0.0373748 0.9973051 0.0373748 0.0026949 -0.0373748
266750000 0.0025697 -0.0356156 0.9974303 0.0356156 0.9974303 0.0356156 0.0025697 -0.0356156
274000000 0.0024558 -0.0339287 0.9975442 0.0339287 0.9975442 0.0339287 0.0024558 -0.0339287
281250000 0.0023521 -0.0323086 0.9976479 0.0323086 0.9976479 0.0323086 0.0023521 -0.0323086
288500000 0.0022576 -0.0307501 0.9977424 0.0307501 0.9977424 0.0307501 0.0022576 -0.0307501
295750000 0.0021715 -0.0292488 0.9978285 0.0292488 0.9978285 0.0292488 0.0021715 -0.0292488
303000000 0.0020929 -0.0278007 0.9979071 0.0278007 0.9979071 0.0278007 0.0020929 -0.0278007
310250000 0.0020213 -0.0264019 0.9979787 0.0264019 0.9979787 0.0264019 0.0020213 -0.0264019
317500000 0.0019561 -0.0250491 0.9980439 0.0250491 0.9980439 0.0250491 0.0019561 -0.0250491
324750000 0.0018967 -0.0237394 0.9981033 0.0237394 0.9981033 0.0237394 0.0018967 -0.0237394
332000000 0.0018427 -0.0224697 0.9981573 0.0224697 0.9981573 0.0224697 0.0018427 -0.0224697
339250000 0.0017936 -0.0212376 0.9982064 0.0212376 0.9982064 0.0212376 0.0017936 -0.0212376
346500000 0.0017491 -0.0200407 0.9982509 0.0200407 0.9982509 0.0200407 0.0017491 -0.0200407
353750000 0.0017088 -0.0188769 0.9982912 0.0188769 0.9982912 0.0188769 0.0017088 -0.0188769
361000000 0.0016725 -0.0177441 0.9983275 0.0177441 0.9983275 0.0177441 0.0016725 -0.0177441
368250000 0.0016399 -0.0166405 0.9983601 0.0166405 0.9983601 0.0166405 0.0016399 -0.0166405
375500000 0.0016106 -0.0155645 0.9983894 0.0155645 0.9983894 0.0155645 0.0016106 -0.0155645
382750000 0.0015846 -0.0145143 0.9984154 0.0145143 0.9984154 0.0145143 0.0015846 -0.0145143
390000000 0.0015615 -0.0134887 0.9984385 0.0134887 0.9984385 0.0134887 0.0015615 -0.0134887
397250000 0.0015413 -0.0124862 0.9984587 0.0124862 0.9984587 0.0124862 0.0015413 -0.0124862
404500000 0.0015237 -0.0115056 0.9984763 0.0115056 0.9984763 0.0115056 0.0015237 -0.0115056
411750000 0.0015086 -0.0105456 0.9984914 0.0105456 0.9984914 0.0105456 0.0015086 -0.0105456
419000000 0.0014958 -0.0096054 0.9985042 0.0096054 0.9985042 0.0096054 0.0014958 -0.0096054
426250000 0.0014853 -0.0086837 0.9985147 0.0086837 0.9985147 0.0086837 0.0014853 -0.0086837
433500000 0.0014768 -0.0077797 0.9985232 0.0077797 0.9985232 0.0077797 0.0014768 -0.0077797
440750000 0.0014704 -0.0068925 0.9985296 0.0068925 0.9985296 0.0068925 0.0014704 -0.0068925
448000000 0.0014659 -0.0060212 0.9985341 0.0060212 0.9985341 0.0060212 0.0014659 -0.0060212
455250000 0.0014631 -0.0051652 0.9985369 0.0051652 0.9985369 0.0051652 0.0014631 -0.0051652
462500000 0.0014621 -0.0043235 0.9985379 0.0043235 0.9985379 0.0043235 0.0014621 -0.0043235
469750000 0.0014627 -0.0034957 0.9985373 0.0034957 0.9985373 0.0034957 0.0014627 -0.0034957
477000000 0.0014650 -0.0026810 0.9985350 0.0026810 0.9985350 0.0026810 0.0014650 -0.0026810
484250000 0.0014687 -0.0018788 0.9985313 0.0018788 0.9985313 0.0018788 0.0014687 -0.0018788
491500000 0.0014739 -0.0010886 0.9985261 0.0010886 0.9985261 0.0010886 0.0014739 -0.0010886
498750000 0.0014804 -0.0003098 0.9985196 0.0003098 0.9985196 0.0003098 0.0014804 -0.0003098
506000000 0.0014883 0.0004581 0.9985117 -0.0004581 0.9985117 -0.0004581 0.0014883 0.0004581
513250000 0.0014976 0.0012156 0.9985024 -0.0012156 0.9985024 -0.0012156 0.0014976 0.0012156
520500000 0.0015080 0.0019630 0.9984920 -0.0019630 0.9984920 -0.0019630 0.0015080 0.0019630
527750000 0.0015197 0.0027009 0.9984803 -0.0027009 0.9984803 -0.0027009 0.0015197 0.0027009
535000000 0.0015325 0.0034297 0.9984675 -0.0034297 0.9984675 -0.0034297 0.0015325 0.0034297
542250000 0.0015465 0.0041496 0.9984535 -0.0041496 0.9984535 -0.0041496 0.0015465 0.0041496
549500000 0.0015616 0.0048612 0.9984384 -0.0048612 0.9984384 -0.0048612 0.0015616 0.0048612
556750000 0.0015778 0.0055647 0.9984222 -0.0055647 0.9984222 -0.0055647 0.0015778 0.0055647
564000000 0.0015950 0.0062604 0.9984050 -0.0062604 0.9984050 -0.0062604 0.0015950 0.0062604
571250000 0.0016132 0.0069487 0.9983868 -0.0069487 0.9983868 -0.0069487 0.0016132 0.0069487
578500000 0.0016324 0.0076299 0.9983676 -0.0076299 0.9983676 -0.0076299 0.0016324 0.0076299
585750000 0.0016526 0.0083043 0.9983474 -0.0083043 0.9983474 -0.0083043 0.0016526 0.0083043
593000000 0.0016737 0.0089720 0.9983263 -0.0089720 0.9983263 -0.0089720 0.0016737 0.0089720
600250000 0.0016958 0.0096334 0.9983042 -0.0096334 0.9983042 -0.0096334 0.0016958 0.0096334
607500000 0.0017188 0.0102887 0.9982812 -0.0102887 0.9982812 -0.0102887 0.0017188 0.0102887
614750000 0.0017427 0.0109382 0.9982573 -0.0109382 0.9982573 -0.0109382 0.0017427 0.0109382
622000000 0.0017675 0.0115820 0.9982325 -0.0115820 0.9982325 -0.0115820 0.0017675 0.0115820
629250000 0.0017931 0.0122205 0.9982069 -0.0122205 0.9982069 -0.0122205 0.0017931 0.0122205
636500000 0.0018196 0.0128537 0.9981804 -0.0128537 0.9981804 -0.0128537 0.0018196 0.0128537
643750000 0.0018469 0.0134818 0.9981531 -0.0134818 0.9981531 -0.0134818 0.0018469 0.0134818
651000000 0.0018751 0.0141051 0.9981249 -0.0141051 0.9981249 -0.0141051 0.0018751 0.0141051
658250000 0.0019040 0.0147238 0.9980960 -0.0147238 0.9980960 -0.0147238 0.0019040 0.0147238
665500000 0.0019338 0.0153380 0.9980662 -0.0153380 0.9980662 -0.0153380 0.0019338 0.0153380
672750000 0.0019644 0.0159478 0.9980356 -0.0159478 0.9980356 -0.0159478 0.0019644 0.0159478
680000000 0.0019958 0.0165535 0.9980042 -0.0165535 0.9980042 -0.0165535 0.0019958 0.0165535
687250000 0.0020280 0.0171551 0.9979720 -0.0171551 0.9979720 -0.0171551 0.0020280 0.0171551
694500000 0.0020609 0.0177529 0.9979391 -0.0177529 0.9979391 -0.0177529 0.0020609 0.0177529
701750000 0.0020947 0.0183469 0.9979053 -0.0183469 0.9979053 -0.0183469 0.0020947 0.0183469
709000000 0.0021292 0.0189373 0.9978708 -0.0189373 0.9978708 -0.0189373 0.0021292 0.0189373
716250000 0.0021644 0.0195242 0.9978356 -0.0195242 0.9978356 -0.0195242 0.0021644 0.0195242
723500000 0.0022005 0.0201078 0.9977995 -0.0201078 0.9977995 -0.0201078 0.0022005 0.0201078
730750000 0.0022372 0.0206881 0.9977628 -0.0206881 0.9977628 -0.0206881 0.0022372 0.0206881
738000000 0.0022748 0.0212653 0.9977252 -0.0212653 0.9977252 -0.0212653 0.0022748 0.0212653
745250000 0.0023131 0.0218395 0.9976869 -0.0218395 0.9976869 -0.0218395 0.0023131 0.0218395
752500000 0.0023521 0.0224108 0.9976479 -0.0224108 0.9976479 -0.0224108 0.0023521 0.0224108
759750000 0.0023919 0.0229793 0.9976081 -0.0229793 0.9976081 -0.0229793 0.0023919 0.0229793
767000000 0.0024324 0.0235450 0.9975676 -0.0235450 0.9975676 -0.0235450 0.0024324 0.0235450
774250000 0.0024737 0.0241082 0.9975263 -0.0241082 0.9975263 -0.0241082 0.0024737 0.0241082
781500000 0.0025157 0.0246688 0.9974843 -0.0246688 0.9974843 -0.0246688 0.0025157 0.0246688
788750000 0.0025585 0.0252270 0.9974415 -0.0252270 0.9974415 -0.0252270 0.0025585 0.0252270
796000000 0.0026020 0.0257829 0.9973980 -0.0257829 0.9973980 -0.0257829 0.0026020 0.0257829
803250000 0.0026463 0.0263364 0.9973537 -0.0263364 0.9973537 -0.0263364 0.0026463 0.0263364
810500000 0.0026913 0.0268878 0.9973087 -0.0268878 0.9973087 -0.0268878 0.0026913 0.0268878
817750000 0.0027371 0.0274371 0.9972629 -0.0274371 0.9972629 -0.0274371 0.0027371 0.0274371
825000000 0.0027837 0.0279844 0.9972163 -0.0279844 0.9972163 -0.0279844 0.0027837 0.0279844
832250000 0.0028310 0.0285297 0.9971690 -0.0285297 0.9971690 -0.0285297 0.0028310 0.0285297
839500000 0.0028790 0.0290732 0.9971210 -0.0290732 0.9971210 -0.0290732 0.0028790 0.0290732
846750000 0.0029279 0.0296148 0.9970721 -0.0296148 0.9970721 -0.0296148 0.0029279 0.0296148
854000000 0.0029775 0.0301547 0.9970225 -0.0301547 0.9970225 -0.0301547 0.0029775 0.0301547
861250000 0.0030278 0.0306929 0.9969722 -0.0306929 0.9969722 -0.0306929 0.0030278 0.0306929
868500000 0.0030790 0.0312295 0.9969210 -0.0312295 0.9969210 -0.0312295 0.0030790 0.0312295
875750000 0.0031309 0.0317645 0.9968691 -0.0317645 0.9968691 -0.0317645 0.0031309 0.0317645
883000000 0.0031837 0.0322980 0.9968163 -0.0322980 0.9968163 -0.0322980 0.0031837 0.0322980
890250000 0.0032372 0.0328301 0.9967628 -0.0328301 0.9967628 -0.0328301 0.0032372 0.0328301
897500000 0.0032916 0.0333608 0.9967084 -0.0333608 0.9967084 -0.0333608 0.0032916 0.0333608
904750000 0.0033467 0.0338902 0.9966533 -0.0338902 0.9966533 -0.0338902 0.0033467 0.0338902
912000000 0.0034027 0.0344183 0.9965973 -0.0344183 0.9965973 -0.0344183 0.0034027 0.0344183
919250000 0.0034595 0.0349452 0.9965405 -0.0349452 0.9965405 -0.0349452 0.0034595 0.0349452
926500000 0.0035171 0.0354709 0.9964829 -0.0354709 0.9964829 -0.0354709 0.0035171 0.0354709
933750000 0.0035756 0.0359955 0.9964244 -0.0359955 0.9964244 -0.0359955 0.0035756 0.0359955
941000000 0.0036350 0.0365190 0.9963650 -0.0365190 0.9963650 -0.0365190 0.0036350 0.0365190
948250000 0.0036952 0.0370415 0.9963048 -0.0370415 0.9963048 -0.0370415 0.0036952 0.0370415
955500000 0.0037562 0.0375630 0.9962438 -0.0375630 0.9962438 -0.0375630 0.0037562 0.0375630
962750000 0.0038182 0.0380836 0.9961818 -0.0380836 0.9961818 -0.0380836 0.0038182 0.0380836
970000000 0.0038811 0.0386034 0.9961189 -0.0386034 0.9961189 -0.0386034 0.0038811 0.0386034
977250000 0.0039449 0.0391222 0.9960551 -0.0391222 0.9960551 -0.0391222 0.0039449 0.0391222
984500000 0.0040096 0.0396403 0.9959904 -0.0396403 0.9959904 -0.0396403 0.0040096 0.0396403
991750000 0.0040752 0.0401576 0.9959248 -0.0401576 0.9959248 -0.0401576 0.0040752 0.0401576
999000000 0.0041418 0.0406742 0.9958582 -0.0406742 0.9958582 -0.0406742 0.0041418 0.0406742
1006250000 0.0042094 0.0411901 0.9957906 -0.0411901 0.9957906 -0.0411901 0.0042094 0.0411901
1013500000 0.0042779 0.0417054 0.9957221 -0.0417054 0.9957221 -0.0417054 0.0042779 0.0417054
1020750000 0.0043475 0.0422201 0.9956525 -0.0422201 0.9956525 -0.0422201 0.0043475 0.0422201
1028000000 0.0044181 0.0427342 0.9955819 -0.0427342 0.9955819 -0.0427342 0.0044181 0.0427342
1035250000 0.0044897 0.0432478 0.9955103 -0.0432478 0.9955103 -0.0432478 0.0044897 0.0432478
1042500000 0.0045623 0.0437609 0.9954377 -0.0437609 0.9954377 -0.0437609 0.0045623 0.0437609
1049750000 0.0046360 0.0442736 0.9953640 -0.0442736 0.9953640 -0.0442736 0.0046360 0.0442736
1057000000 0.0047109 0.0447858 0.9952891 -0.0447858 0.9952891 -0.0447858 0.0047109 0.0447858
1064250000 0.0047868 0.0452976 0.9952132 -0.0452976 0.9952132 -0.0452976 0.0047868 0.0452976
1071500000 0.0048639 0.0458091 0.9951361 -0.0458091 0.9951361 -0.0458091 0.0048639 0.0458091
1078750000 0.0049421 0.0463203 0.9950579 -0.0463203 0.9950579 -0.0463203 0.0049421 0.0463203
1086000000 0.0050215 0.0468312 0.9949785 -0.0468312 0.9949785 -0.0468312 0.0050215 0.0468312
1093250000 0.0051022 0.0473418 0.9948978 -0.0473418 0.9948978 -0.0473418 0.0051022 0.0473418
1100500000 0.0051840 0.0478522 0.9948160 -0.0478522 0.9948160 -0.0478522 0.0051840 0.0478522
1107750000 0.0052672 0.0483624 0.9947328 -0.0483624 0.9947328 -0.0483624 0.0052672 0.0483624
1115000000 0.0053516 0.0488724 0.9946484 -0.0488724 0.9946484 -0.0488724 0.0053516 0.0488724
1122250000 0.0054374 0.0493823 0.9945626 -0.0493823 0.9945626 -0.0493823 0.0054374 0.0493823
1129500000 0.0055245 0.0498921 0.9944755 -0.0498921 0.9944755 -0.0498921 0.0055245 0.0498921
1136750000 0.0056131 0.0504018 0.9943869 -0.0504018 0.9943869 -0.0504018 0.0056131 0.0504018
1144000000 0.0057030 0.0509114 0.9942970 -0.0509114 0.9942970 -0.0509114 0.0057030 0.0509114
1151250000 0.0057944 0.0514210 0.9942056 -0.0514210 0.9942056 -0.0514210 0.0057944 0.0514210
1158500000 0.0058874 0.0519306 0.9941126 -0.0519306 0.9941126 -0.0519306 0.0058874 0.0519306
1165750000 0.0059819 0.0524402 0.9940181 -0.0524402 0.9940181 -0.0524402 0.0059819 0.0524402
1173000000 0.0060779 0.0529498 0.9939221 -0.0529498 0.9939221 -0.0529498 0.0060779 0.0529498
1180250000 0.0061757 0.0534595 0.9938243 -0.0534595 0.9938243 -0.0534595 0.0061757 0.0534595
1187500000 0.0062751 0.0539693 0.9937249 -0.0539693 0.9937249 -0.0539693 0.0062751 0.0539693
1194750000 0.0063762 0.0544792 0.9936238 -0.0544792 0.9936238 -0.0544792 0.0063762 0.0544792
1202000000 0.0064791 0.0549891 0.9935209 -0.0549891 0.9935209 -0.0549891 0.0064791 0.0549891
1209250000 0.0065839 0.0554992 0.9934161 -0.0554992 0.9934161 -0.0554992 0.0065839 0.0554992
1216500000 0.0066906 0.0560095 0.9933094 -0.0560095 0.9933094 -0.0560095 0.0066906 0.0560095
1223750000 0.0067993 0.0565198 0.9932007 -0.0565198 0.9932007 -0.0565198 0.0067993 0.0565198
1231000000 0.0069099 0.0570304 0.9930901 -0.0570304 0.9930901 -0.0570304 0.0069099 0.0570304
1238250000 0.0070227 0.0575411 0.9929773 -0.0575411 0.9929773 -0.0575411 0.0070227 0.0575411
1245500000 0.0071376 0.0580520 0.9928624 -0.0580520 0.9928624 -0.0580520 0.0071376 0.0580520
1252750000 0.0072548 0.0585630 0.9927452 -0.0585630 0.9927452 -0.0585630 0.0072548 0.0585630
1260000000 0.0073743 0.0590743 0.9926257 -0.0590743 0.9926257 -0.0590743 0.0073743 0.0590743
1267250000 0.0074962 0.0595856 0.9925038 -0.0595856 0.9925038 -0.0595856 0.0074962 0.0595856
1274500000 0.0076206 0.0600972 0.9923794 -0.0600972 0.9923794 -0.0600972 0.0076206 0.0600972
1281750000 0.0077476 0.0606089 0.9922524 -0.0606089 0.9922524 -0.0606089 0.0077476 0.0606089
1289000000 0.0078772 0.0611207 0.9921228 -0.0611207 0.9921228 -0.0611207 0.0078772 0.0611207
1296250000 0.0080096 0.0616327 0.9919904 -0.0616327 0.9919904 -0.0616327 0.0080096 0.0616327
1303500000 0.0081449 0.0621447 0.9918551 -0.0621447 0.9918551 -0.0621447 0.0081449 0.0621447
1310750000 0.0082831 0.0626568 0.9917169 -0.0626568 0.9917169 -0.0626568 0.0082831 0.0626568
1318000000 0.0084244 0.0631689 0.9915756 -0.0631689 0.9915756 -0.0631689 0.0084244 0.0631689
1325250000 0.0085690 0.0636809 0.9914310 -0.0636809 0.9914310 -0.0636809 0.0085690 0.0636809
1332500000 0.0087169 0.0641929 0.9912831 -0.0641929 0.9912831 -0.0641929 0.0087169 0.0641929
1339750000 0.0088682 0.0647047 0.9911318 -0.0647047 0.9911318 -0.0647047 0.0088682 0.0647047
1347000000 0.0090231 0.0652163 0.9909769 -0.0652163 0.9909769 -0.0652163 0.0090231 0.0652163
1354250000 0.0091818 0.0657275 0.9908182 -0.0657275 0.9908182 -0.0657275 0.0091818 0.0657275
1361500000 0.0093443 0.0662383 0.9906557 -0.0662383 0.9906557 -0.0662383 0.0093443 0.0662383
1368750000 0.0095108 0.0667486 0.9904892 -0.0667486 0.9904892 -0.0667486 0.0095108 0.0667486
1376000000 0.0096815 0.0672582 0.9903185 -0.0672582 0.9903185 -0.0672582 0.0096815 0.0672582
1383250000 0.0098565 0.0677670 0.9901435 -0.0677670 0.9901435 -0.0677670 0.0098565 0.0677670
1390500000 0.0100360 0.0682749 0.9899640 -0.0682749 0.9899640 -0.0682749 0.0100360 0.0682749
1397750000 0.0102202 0.0687816 0.9897798 -0.0687816 0.9897798 -0.0687816 0.0102202 0.0687816
1405000000 0.0104091 0.0692869 0.9895909 -0.0692869 0.9895909 -0.0692869 0.0104091 0.0692869
1412250000 0.0106029 0.0697907 0.9893971 -0.0697907 0.9893971 -0.0697907 0.0106029 0.0697907
1419500000 0.0108019 0.0702926 0.9891981 -0.0702926 0.9891981 -0.0702926 0.0108019 0.0702926
1426750000 0.0110061 0.0707924 0.9889939 -0.0707924 0.9889939 -0.0707924 0.0110061 0.0707924
1434000000 0.0112157 0.0712898 0.9887843 -0.0712898 0.9887843 -0.0712898 0.0112157 0.0712898
1441250000 0.0114309 0.0717845 0.9885691 -0.0717845 0.9885691 -0.0717845 0.0114309 0.0717845
1448500000 0.0116517 0.0722760 0.9883483 -0.0722760 0.9883483 -0.0722760 0.0116517 0.0722760
1455750000 0.0118782 0.0727639 0.9881218 -0.0727639 0.9881218 -0.0727639 0.0118782 0.0727639
1463000000 0.0121106 0.0732478 0.9878894 -0.0732478 0.9878894 -0.0732478 0.0121106 0.0732478
1470250000 0.0123489 0.0737273 0.9876511 -0.0737273 0.9876511 -0.0737273 0.0123489 0.0737273
1477500000 0.0125930 0.0742017 0.9874070 -0.0742017 0.9874070 -0.0742017 0.0125930 0.0742017
1484750000 0.0128431 0.0746706 0.9871569 -0.0746706 0.9871569 -0.0746706 0.0128431 0.0746706
1492000000 0.0130990 0.0751332 0.9869010 -0.0751332 0.9869010 -0.0751332 0.0130990 0.0751332
1499250000 0.0133606 0.0755890 0.9866394 -0.0755890 0.9866394 -0.0755890 0.0133606 0.0755890
1506500000 0.0136277 0.0760373 0.9863723 -0.0760373 0.9863723 -0.0760373 0.0136277 0.0760373
1513750000 0.0139000 0.0764773 0.9861000 -0.0764773 0.9861000 -0.0764773 0.0139000 0.0764773
1521000000 0.0141772 0.0769083 0.9858228 -0.0769083 0.9858228 -0.0769083 0.0141772 0.0769083
1528250000 0.0144588 0.0773296 0.9855412 -0.0773296 0.9855412 -0.0773296 0.0144588 0.0773296
1535500000 0.0147444 0.0777403 0.9852556 -0.0777403 0.9852556 -0.0777403 0.0147444 0.0777403
1542750000 0.0150331 0.0781398 0.9849669 -0.0781398 0.9849669 -0.0781398 0.0150331 0.0781398
1550000000 0.0153242 0.0785273 0.9846758 -0.0785273 0.9846758 -0.0785273 0.0153242 0.0785273
1557250000 0.0156168 0.0789020 0.9843832 -0.0789020 0.9843832 -0.0789020 0.0156168 0.0789020
1564500000 0.0159097 0.0792633 0.9840903 -0.0792633 0.9840903 -0.0792633 0.0159097 0.0792633
1571750000 0.0162019 0.0796108 0.9837981 -0.0796108 0.9837981 -0.0796108 0.0162019 0.0796108
1579000000 0.0164918 0.0799439 0.9835082 -0.0799439 0.9835082 -0.0799439 0.0164918 0.0799439
1586250000 0.0167782 0.0802624 0.9832218 -0.0802624 0.9832218 -0.0802624 0.0167782 0.0802624
1593500000 0.0170592 0.0805660 0.9829408 -0.0805660 0.9829408 -0.0805660 0.0170592 0.0805660
1600750000 0.0173334 0.0808550 0.9826666 -0.0808550 0.9826666 -0.0808550 0.0173334 0.0808550
1608000000 0.0175989 0.0811297 0.9824011 -0.0811297 0.9824011 -0.0811297 0.0175989 0.0811297
1615250000 0.0178540 0.0813904 0.9821460 -0.0813904 0.9821460 -0.0813904 0.0178540 0.0813904
1622500000 0.0180969 0.0816382 0.9819031 -0.0816382 0.9819031 -0.0816382 0.0180969 0.0816382
1629750000 0.0183258 0.0818741 0.9816742 -0.0818741 0.9816742 -0.0818741 0.0183258 0.0818741
