!Murata Part Number: GRM31A7U2J122JW31
!These Parameters are Measured in Series Mode Connection
!Data Generated on Mar 30, 2021
!       o--ll--o
!Port1            Port2
!       o------o
!Operation Temp=25[degC], DC Bias Voltage=0[V]
!Freq. Start=1000[kHz] Stop=3[GHz] 401[Steps]
# Hz S RI R 50
!Freq.(Hz) S11(Real) S11(Imag) S21(Real) S21(Imag) S12(Real) S12(Imag) S22(Real) S22(Imag)
1000000 0.6267671 -0.4835932 0.3732329 0.4835932 0.3732329 0.4835932 0.6267671 -0.4835932
1020218 0.6173562 -0.4859610 0.3826438 0.4859610 0.3826438 0.4859610 0.6173562 -0.4859610
1040844 0.6078565 -0.4881555 0.3921435 0.4881555 0.3921435 0.4881555 0.6078565 -0.4881555
1061887 0.5982744 -0.4901727 0.4017256 0.4901727 0.4017256 0.4901727 0.5982744 -0.4901727
1083356 0.5886167 -0.4920086 0.4113833 0.4920086 0.4113833 0.4920086 0.5886167 -0.4920086
1105259 0.5788902 -0.4936597 0.4211098 0.4936597 0.4211098 0.4936597 0.5788902 -0.4936597
1127605 0.5691021 -0.4951229 0.4308979 0.4951229 0.4308979 0.4951229 0.5691021 -0.4951229
1150402 0.5592597 -0.4963953 0.4407403 0.4963953 0.4407403 0.4963953 0.5592597 -0.4963953
1173660 0.5493705 -0.4974744 0.4506295 0.4974744 0.4506295 0.4974744 0.5493705 -0.4974744
1197389 0.5394422 -0.4983580 0.4605578 0.4983580 0.4605578 0.4983580 0.5394422 -0.4983580
1221597 0.5294825 -0.4990445 0.4705175 0.4990445 0.4705175 0.4990445 0.5294825 -0.4990445
1246295 0.5194993 -0.4995323 0.4805007 0.4995323 0.4805007 0.4995323 0.5194993 -0.4995323
1271492 0.5095005 -0.4998207 0.4904995 0.4998207 0.4904995 0.4998207 0.5095005 -0.4998207
1297199 0.4994942 -0.4999089 0.5005058 0.4999089 0.5005058 0.4999089 0.4994942 -0.4999089
1323425 0.4894882 -0.4997968 0.5105118 0.4997968 0.5105118 0.4997968 0.4894882 -0.4997968
1350181 0.4794907 -0.4994846 0.5205093 0.4994846 0.5205093 0.4994846 0.4794907 -0.4994846
1377479 0.4695096 -0.4989730 0.5304904 0.4989730 0.5304904 0.4989730 0.4695096 -0.4989730
1405328 0.4595528 -0.4982629 0.5404472 0.4982629 0.5404472 0.4982629 0.4595528 -0.4982629
1433740 0.4496283 -0.4973558 0.5503717 0.4973558 0.5503717 0.4973558 0.4496283 -0.4973558
1462727 0.4397437 -0.4962534 0.5602563 0.4962534 0.5602563 0.4962534 0.4397437 -0.4962534
1492300 0.4299067 -0.4949580 0.5700933 0.4949580 0.5700933 0.4949580 0.4299067 -0.4949580
1522470 0.4201248 -0.4934721 0.5798752 0.4934721 0.5798752 0.4934721 0.4201248 -0.4934721
1553251 0.4104052 -0.4917985 0.5895948 0.4917985 0.5895948 0.4917985 0.4104052 -0.4917985
1584654 0.4007551 -0.4899405 0.5992449 0.4899405 0.5992449 0.4899405 0.4007551 -0.4899405
1616692 0.3911814 -0.4879016 0.6088186 0.4879016 0.6088186 0.4879016 0.3911814 -0.4879016
1649378 0.3816908 -0.4856858 0.6183092 0.4856858 0.6183092 0.4856858 0.3816908 -0.4856858
1682724 0.3722896 -0.4832971 0.6277104 0.4832971 0.6277104 0.4832971 0.3722896 -0.4832971
1716745 0.3629841 -0.4807400 0.6370159 0.4807400 0.6370159 0.4807400 0.3629841 -0.4807400
1751453 0.3537801 -0.4780192 0.6462199 0.4780192 0.6462199 0.4780192 0.3537801 -0.4780192
1786863 0.3446833 -0.4751397 0.6553167 0.4751397 0.6553167 0.4751397 0.3446833 -0.4751397
1822989 0.3356988 -0.4721064 0.6643012 0.4721064 0.6643012 0.4721064 0.3356988 -0.4721064
1859846 0.3268318 -0.4689249 0.6731682 0.4689249 0.6731682 0.4689249 0.3268318 -0.4689249
1897447 0.3180869 -0.4656005 0.6819131 0.4656005 0.6819131 0.4656005 0.3180869 -0.4656005
1935809 0.3094685 -0.4621388 0.6905315 0.4621388 0.6905315 0.4621388 0.3094685 -0.4621388
1974946 0.3009805 -0.4585458 0.6990195 0.4585458 0.6990195 0.4585458 0.3009805 -0.4585458
2014875 0.2926267 -0.4548272 0.7073733 0.4548272 0.7073733 0.4548272 0.2926267 -0.4548272
2055611 0.2844105 -0.4509891 0.7155895 0.4509891 0.7155895 0.4509891 0.2844105 -0.4509891
2097170 0.2763348 -0.4470374 0.7236652 0.4470374 0.7236652 0.4470374 0.2763348 -0.4470374
2139570 0.2684026 -0.4429782 0.7315974 0.4429782 0.7315974 0.4429782 0.2684026 -0.4429782
2182827 0.2606160 -0.4388177 0.7393840 0.4388177 0.7393840 0.4388177 0.2606160 -0.4388177
2226959 0.2529773 -0.4345619 0.7470227 0.4345619 0.7470227 0.4345619 0.2529773 -0.4345619
2271982 0.2454881 -0.4302169 0.7545119 0.4302169 0.7545119 0.4302169 0.2454881 -0.4302169
2317916 0.2381501 -0.4257889 0.7618499 0.4257889 0.7618499 0.4257889 0.2381501 -0.4257889
2364779 0.2309642 -0.4212837 0.7690358 0.4212837 0.7690358 0.4212837 0.2309642 -0.4212837
2412589 0.2239315 -0.4167075 0.7760685 0.4167075 0.7760685 0.4167075 0.2239315 -0.4167075
2461366 0.2170526 -0.4120661 0.7829474 0.4120661 0.7829474 0.4120661 0.2170526 -0.4120661
2511129 0.2103277 -0.4073652 0.7896723 0.4073652 0.7896723 0.4073652 0.2103277 -0.4073652
2561897 0.2037571 -0.4026107 0.7962429 0.4026107 0.7962429 0.4026107 0.2037571 -0.4026107
2613693 0.1973404 -0.3978080 0.8026596 0.3978080 0.8026596 0.3978080 0.1973404 -0.3978080
2666535 0.1910774 -0.3929627 0.8089226 0.3929627 0.8089226 0.3929627 0.1910774 -0.3929627
2720446 0.1849673 -0.3880801 0.8150327 0.3880801 0.8150327 0.3880801 0.1849673 -0.3880801
2775447 0.1790095 -0.3831654 0.8209905 0.3831654 0.8209905 0.3831654 0.1790095 -0.3831654
2831560 0.1732028 -0.3782237 0.8267972 0.3782237 0.8267972 0.3782237 0.1732028 -0.3782237
2888807 0.1675461 -0.3732599 0.8324539 0.3732599 0.8324539 0.3732599 0.1675461 -0.3732599
2947212 0.1620380 -0.3682787 0.8379620 0.3682787 0.8379620 0.3682787 0.1620380 -0.3682787
3006797 0.1566770 -0.3632848 0.8433230 0.3632848 0.8433230 0.3632848 0.1566770 -0.3632848
3067588 0.1514613 -0.3582824 0.8485387 0.3582824 0.8485387 0.3582824 0.1514613 -0.3582824
3129607 0.1463891 -0.3532760 0.8536109 0.3532760 0.8536109 0.3532760 0.1463891 -0.3532760
3192880 0.1414585 -0.3482696 0.8585415 0.3482696 0.8585415 0.3482696 0.1414585 -0.3482696
3257432 0.1366675 -0.3432671 0.8633325 0.3432671 0.8633325 0.3432671 0.1366675 -0.3432671
3323290 0.1320139 -0.3382723 0.8679861 0.3382723 0.8679861 0.3382723 0.1320139 -0.3382723
3390478 0.1274953 -0.3332887 0.8725047 0.3332887 0.8725047 0.3332887 0.1274953 -0.3332887
3459026 0.1231095 -0.3283197 0.8768905 0.3283197 0.8768905 0.3283197 0.1231095 -0.3283197
3528959 0.1188542 -0.3233687 0.8811458 0.3233687 0.8811458 0.3233687 0.1188542 -0.3233687
3600306 0.1147267 -0.3184386 0.8852733 0.3184386 0.8852733 0.3184386 0.1147267 -0.3184386
3673095 0.1107246 -0.3135324 0.8892754 0.3135324 0.8892754 0.3135324 0.1107246 -0.3135324
3747356 0.1068453 -0.3086528 0.8931547 0.3086528 0.8931547 0.3086528 0.1068453 -0.3086528
3823119 0.1030862 -0.3038024 0.8969138 0.3038024 0.8969138 0.3038024 0.1030862 -0.3038024
3900413 0.0994447 -0.2989837 0.9005553 0.2989837 0.9005553 0.2989837 0.0994447 -0.2989837
3979270 0.0959182 -0.2941988 0.9040818 0.2941988 0.9040818 0.2941988 0.0959182 -0.2941988
4059721 0.0925039 -0.2894501 0.9074961 0.2894501 0.9074961 0.2894501 0.0925039 -0.2894501
4141799 0.0891993 -0.2847394 0.9108007 0.2847394 0.9108007 0.2847394 0.0891993 -0.2847394
4225536 0.0860015 -0.2800686 0.9139985 0.2800686 0.9139985 0.2800686 0.0860015 -0.2800686
4310966 0.0829081 -0.2754394 0.9170919 0.2754394 0.9170919 0.2754394 0.0829081 -0.2754394
4398124 0.0799162 -0.2708534 0.9200838 0.2708534 0.9200838 0.2708534 0.0799162 -0.2708534
4487043 0.0770233 -0.2663120 0.9229767 0.2663120 0.9229767 0.2663120 0.0770233 -0.2663120
4577760 0.0742267 -0.2618166 0.9257733 0.2618166 0.9257733 0.2618166 0.0742267 -0.2618166
4670311 0.0715239 -0.2573684 0.9284761 0.2573684 0.9284761 0.2573684 0.0715239 -0.2573684
4764734 0.0689123 -0.2529685 0.9310877 0.2529685 0.9310877 0.2529685 0.0689123 -0.2529685
4861065 0.0663892 -0.2486180 0.9336108 0.2486180 0.9336108 0.2486180 0.0663892 -0.2486180
4959344 0.0639523 -0.2443175 0.9360477 0.2443175 0.9360477 0.2443175 0.0639523 -0.2443175
5059610 0.0615989 -0.2400681 0.9384011 0.2400681 0.9384011 0.2400681 0.0615989 -0.2400681
5161903 0.0593268 -0.2358704 0.9406732 0.2358704 0.9406732 0.2358704 0.0593268 -0.2358704
5266264 0.0571334 -0.2317249 0.9428666 0.2317249 0.9428666 0.2317249 0.0571334 -0.2317249
5372736 0.0550164 -0.2276322 0.9449836 0.2276322 0.9449836 0.2276322 0.0550164 -0.2276322
5481359 0.0529736 -0.2235928 0.9470264 0.2235928 0.9470264 0.2235928 0.0529736 -0.2235928
5592179 0.0510026 -0.2196070 0.9489974 0.2196070 0.9489974 0.2196070 0.0510026 -0.2196070
5705239 0.0491012 -0.2156751 0.9508988 0.2156751 0.9508988 0.2156751 0.0491012 -0.2156751
5820586 0.0472672 -0.2117972 0.9527328 0.2117972 0.9527328 0.2117972 0.0472672 -0.2117972
5938264 0.0454985 -0.2079737 0.9545015 0.2079737 0.9545015 0.2079737 0.0454985 -0.2079737
6058321 0.0437930 -0.2042045 0.9562070 0.2042045 0.9562070 0.2042045 0.0437930 -0.2042045
6180806 0.0421488 -0.2004897 0.9578512 0.2004897 0.9578512 0.2004897 0.0421488 -0.2004897
6305767 0.0405637 -0.1968292 0.9594363 0.1968292 0.9594363 0.1968292 0.0405637 -0.1968292
6433254 0.0390359 -0.1932230 0.9609641 0.1932230 0.9609641 0.1932230 0.0390359 -0.1932230
6563319 0.0375634 -0.1896710 0.9624366 0.1896710 0.9624366 0.1896710 0.0375634 -0.1896710
6696013 0.0361445 -0.1861730 0.9638555 0.1861730 0.9638555 0.1861730 0.0361445 -0.1861730
6831390 0.0347773 -0.1827288 0.9652227 0.1827288 0.9652227 0.1827288 0.0347773 -0.1827288
6969505 0.0334601 -0.1793381 0.9665399 0.1793381 0.9665399 0.1793381 0.0334601 -0.1793381
7110411 0.0321912 -0.1760006 0.9678088 0.1760006 0.9678088 0.1760006 0.0321912 -0.1760006
7254166 0.0309690 -0.1727161 0.9690310 0.1727161 0.9690310 0.1727161 0.0309690 -0.1727161
7400828 0.0297919 -0.1694841 0.9702081 0.1694841 0.9702081 0.1694841 0.0297919 -0.1694841
7550455 0.0286582 -0.1663043 0.9713418 0.1663043 0.9713418 0.1663043 0.0286582 -0.1663043
7703107 0.0275666 -0.1631763 0.9724334 0.1631763 0.9724334 0.1631763 0.0275666 -0.1631763
7858845 0.0265155 -0.1600996 0.9734845 0.1600996 0.9734845 0.1600996 0.0265155 -0.1600996
8017732 0.0255035 -0.1570739 0.9744965 0.1570739 0.9744965 0.1570739 0.0255035 -0.1570739
8179831 0.0245292 -0.1540985 0.9754708 0.1540985 0.9754708 0.1540985 0.0245292 -0.1540985
8345207 0.0235914 -0.1511730 0.9764086 0.1511730 0.9764086 0.1511730 0.0235914 -0.1511730
8513927 0.0226887 -0.1482970 0.9773113 0.1482970 0.9773113 0.1482970 0.0226887 -0.1482970
8686058 0.0218198 -0.1454698 0.9781802 0.1454698 0.9781802 0.1454698 0.0218198 -0.1454698
8861669 0.0209836 -0.1426909 0.9790164 0.1426909 0.9790164 0.1426909 0.0209836 -0.1426909
9040831 0.0201789 -0.1399597 0.9798211 0.1399597 0.9798211 0.1399597 0.0201789 -0.1399597
9223615 0.0194045 -0.1372758 0.9805955 0.1372758 0.9805955 0.1372758 0.0194045 -0.1372758
9410094 0.0186594 -0.1346385 0.9813406 0.1346385 0.9813406 0.1346385 0.0186594 -0.1346385
9600343 0.0179425 -0.1320472 0.9820575 0.1320472 0.9820575 0.1320472 0.0179425 -0.1320472
9794439 0.0172527 -0.1295014 0.9827473 0.1295014 0.9827473 0.1295014 0.0172527 -0.1295014
9992459 0.0165891 -0.1270004 0.9834109 0.1270004 0.9834109 0.1270004 0.0165891 -0.1270004
10194482 0.0159507 -0.1245436 0.9840493 0.1245436 0.9840493 0.1245436 0.0159507 -0.1245436
10400590 0.0153366 -0.1221305 0.9846634 0.1221305 0.9846634 0.1221305 0.0153366 -0.1221305
10610865 0.0147459 -0.1197604 0.9852541 0.1197604 0.9852541 0.1197604 0.0147459 -0.1197604
10825391 0.0141778 -0.1174326 0.9858222 0.1174326 0.9858222 0.1174326 0.0141778 -0.1174326
11044254 0.0136313 -0.1151467 0.9863687 0.1151467 0.9863687 0.1151467 0.0136313 -0.1151467
11267542 0.0131058 -0.1129019 0.9868942 0.1129019 0.9868942 0.1129019 0.0131058 -0.1129019
11495344 0.0126003 -0.1106977 0.9873997 0.1106977 0.9873997 0.1106977 0.0126003 -0.1106977
11727752 0.0121143 -0.1085334 0.9878857 0.1085334 0.9878857 0.1085334 0.0121143 -0.1085334
11964859 0.0116469 -0.1064084 0.9883531 0.1064084 0.9883531 0.1064084 0.0116469 -0.1064084
12206760 0.0111974 -0.1043221 0.9888026 0.1043221 0.9888026 0.1043221 0.0111974 -0.1043221
12453551 0.0107652 -0.1022739 0.9892348 0.1022739 0.9892348 0.1022739 0.0107652 -0.1022739
12705331 0.0103497 -0.1002632 0.9896503 0.1002632 0.9896503 0.1002632 0.0103497 -0.1002632
12962202 0.0099502 -0.0982894 0.9900498 0.0982894 0.9900498 0.0982894 0.0099502 -0.0982894
13224267 0.0095661 -0.0963519 0.9904339 0.0963519 0.9904339 0.0963519 0.0095661 -0.0963519
13491630 0.0091968 -0.0944500 0.9908032 0.0944500 0.9908032 0.0944500 0.0091968 -0.0944500
13764398 0.0088418 -0.0925832 0.9911582 0.0925832 0.9911582 0.0925832 0.0088418 -0.0925832
14042680 0.0085005 -0.0907509 0.9914995 0.0907509 0.9914995 0.0907509 0.0085005 -0.0907509
14326589 0.0081724 -0.0889526 0.9918276 0.0889526 0.9918276 0.0889526 0.0081724 -0.0889526
14616238 0.0078570 -0.0871875 0.9921430 0.0871875 0.9921430 0.0871875 0.0078570 -0.0871875
14911743 0.0075539 -0.0854552 0.9924461 0.0854552 0.9924461 0.0854552 0.0075539 -0.0854552
15213223 0.0072625 -0.0837551 0.9927375 0.0837551 0.9927375 0.0837551 0.0072625 -0.0837551
15520797 0.0069825 -0.0820866 0.9930175 0.0820866 0.9930175 0.0820866 0.0069825 -0.0820866
15834590 0.0067133 -0.0804492 0.9932867 0.0804492 0.9932867 0.0804492 0.0067133 -0.0804492
16154727 0.0064546 -0.0788423 0.9935454 0.0788423 0.9935454 0.0788423 0.0064546 -0.0788423
16481337 0.0062060 -0.0772654 0.9937940 0.0772654 0.9937940 0.0772654 0.0062060 -0.0772654
16814550 0.0059671 -0.0757179 0.9940329 0.0757179 0.9940329 0.0757179 0.0059671 -0.0757179
17154499 0.0057375 -0.0741993 0.9942625 0.0741993 0.9942625 0.0741993 0.0057375 -0.0741993
17501322 0.0055169 -0.0727091 0.9944831 0.0727091 0.9944831 0.0727091 0.0055169 -0.0727091
17855156 0.0053049 -0.0712468 0.9946951 0.0712468 0.9946951 0.0712468 0.0053049 -0.0712468
18216144 0.0051012 -0.0698118 0.9948988 0.0698118 0.9948988 0.0698118 0.0051012 -0.0698118
18584431 0.0049055 -0.0684037 0.9950945 0.0684037 0.9950945 0.0684037 0.0049055 -0.0684037
18960163 0.0047174 -0.0670219 0.9952826 0.0670219 0.9952826 0.0670219 0.0047174 -0.0670219
19343491 0.0045368 -0.0656659 0.9954632 0.0656659 0.9954632 0.0656659 0.0045368 -0.0656659
19734570 0.0043632 -0.0643354 0.9956368 0.0643354 0.9956368 0.0643354 0.0043632 -0.0643354
20133555 0.0041965 -0.0630297 0.9958035 0.0630297 0.9958035 0.0630297 0.0041965 -0.0630297
20540607 0.0040363 -0.0617485 0.9959637 0.0617485 0.9959637 0.0617485 0.0040363 -0.0617485
20955888 0.0038825 -0.0604912 0.9961175 0.0604912 0.9961175 0.0604912 0.0038825 -0.0604912
21379566 0.0037347 -0.0592574 0.9962653 0.0592574 0.9962653 0.0592574 0.0037347 -0.0592574
21811809 0.0035928 -0.0580467 0.9964072 0.0580467 0.9964072 0.0580467 0.0035928 -0.0580467
22252791 0.0034565 -0.0568586 0.9965435 0.0568586 0.9965435 0.0568586 0.0034565 -0.0568586
22702688 0.0033256 -0.0556926 0.9966744 0.0556926 0.9966744 0.0556926 0.0033256 -0.0556926
23161682 0.0031999 -0.0545485 0.9968001 0.0545485 0.9968001 0.0545485 0.0031999 -0.0545485
23629955 0.0030792 -0.0534256 0.9969208 0.0534256 0.9969208 0.0534256 0.0030792 -0.0534256
24107696 0.0029634 -0.0523236 0.9970366 0.0523236 0.9970366 0.0523236 0.0029634 -0.0523236
24595095 0.0028521 -0.0512422 0.9971479 0.0512422 0.9971479 0.0512422 0.0028521 -0.0512422
25092348 0.0027453 -0.0501808 0.9972547 0.0501808 0.9972547 0.0501808 0.0027453 -0.0501808
25599655 0.0026428 -0.0491391 0.9973572 0.0491391 0.9973572 0.0491391 0.0026428 -0.0491391
26117218 0.0025444 -0.0481168 0.9974556 0.0481168 0.9974556 0.0481168 0.0025444 -0.0481168
26645245 0.0024500 -0.0471133 0.9975500 0.0471133 0.9975500 0.0471133 0.0024500 -0.0471133
27183947 0.0023594 -0.0461285 0.9976406 0.0461285 0.9976406 0.0461285 0.0023594 -0.0461285
27733541 0.0022724 -0.0451617 0.9977276 0.0451617 0.9977276 0.0451617 0.0022724 -0.0451617
28294246 0.0021890 -0.0442128 0.9978110 0.0442128 0.9978110 0.0442128 0.0021890 -0.0442128
28866287 0.0021090 -0.0432814 0.9978910 0.0432814 0.9978910 0.0432814 0.0021090 -0.0432814
29449894 0.0020322 -0.0423670 0.9979678 0.0423670 0.9979678 0.0423670 0.0020322 -0.0423670
30045299 0.0019587 -0.0414694 0.9980413 0.0414694 0.9980413 0.0414694 0.0019587 -0.0414694
30652742 0.0018881 -0.0405882 0.9981119 0.0405882 0.9981119 0.0405882 0.0018881 -0.0405882
31272467 0.0018204 -0.0397230 0.9981796 0.0397230 0.9981796 0.0397230 0.0018204 -0.0397230
31904720 0.0017556 -0.0388736 0.9982444 0.0388736 0.9982444 0.0388736 0.0017556 -0.0388736
32549757 0.0016934 -0.0380396 0.9983066 0.0380396 0.9983066 0.0380396 0.0016934 -0.0380396
33207834 0.0016339 -0.0372208 0.9983661 0.0372208 0.9983661 0.0372208 0.0016339 -0.0372208
33879216 0.0015768 -0.0364166 0.9984232 0.0364166 0.9984232 0.0364166 0.0015768 -0.0364166
34564172 0.0015222 -0.0356270 0.9984778 0.0356270 0.9984778 0.0356270 0.0015222 -0.0356270
35262976 0.0014699 -0.0348516 0.9985301 0.0348516 0.9985301 0.0348516 0.0014699 -0.0348516
35975908 0.0014198 -0.0340900 0.9985802 0.0340900 0.9985802 0.0340900 0.0014198 -0.0340900
36703254 0.0013719 -0.0333420 0.9986281 0.0333420 0.9986281 0.0333420 0.0013719 -0.0333420
37445305 0.0013260 -0.0326073 0.9986740 0.0326073 0.9986740 0.0326073 0.0013260 -0.0326073
38202358 0.0012822 -0.0318856 0.9987178 0.0318856 0.9987178 0.0318856 0.0012822 -0.0318856
38974717 0.0012402 -0.0311766 0.9987598 0.0311766 0.9987598 0.0311766 0.0012402 -0.0311766
39762692 0.0012001 -0.0304801 0.9987999 0.0304801 0.9987999 0.0304801 0.0012001 -0.0304801
40566597 0.0011618 -0.0297958 0.9988382 0.0297958 0.9988382 0.0297958 0.0011618 -0.0297958
41386756 0.0011253 -0.0291235 0.9988747 0.0291235 0.9988747 0.0291235 0.0011253 -0.0291235
42223496 0.0010903 -0.0284627 0.9989097 0.0284627 0.9989097 0.0284627 0.0010903 -0.0284627
43077153 0.0010570 -0.0278135 0.9989430 0.0278135 0.9989430 0.0278135 0.0010570 -0.0278135
43948069 0.0010252 -0.0271753 0.9989748 0.0271753 0.9989748 0.0271753 0.0010252 -0.0271753
44836592 0.0009949 -0.0265481 0.9990051 0.0265481 0.9990051 0.0265481 0.0009949 -0.0265481
45743080 0.0009660 -0.0259316 0.9990340 0.0259316 0.9990340 0.0259316 0.0009660 -0.0259316
46667894 0.0009385 -0.0253255 0.9990615 0.0253255 0.9990615 0.0253255 0.0009385 -0.0253255
47611406 0.0009124 -0.0247296 0.9990876 0.0247296 0.9990876 0.0247296 0.0009124 -0.0247296
48573993 0.0008875 -0.0241436 0.9991125 0.0241436 0.9991125 0.0241436 0.0008875 -0.0241436
49556042 0.0008638 -0.0235674 0.9991362 0.0235674 0.9991362 0.0235674 0.0008638 -0.0235674
50557945 0.0008413 -0.0230008 0.9991587 0.0230008 0.9991587 0.0230008 0.0008413 -0.0230008
51580105 0.0008199 -0.0224434 0.9991801 0.0224434 0.9991801 0.0224434 0.0008199 -0.0224434
52622929 0.0007997 -0.0218951 0.9992003 0.0218951 0.9992003 0.0218951 0.0007997 -0.0218951
53686838 0.0007805 -0.0213557 0.9992195 0.0213557 0.9992195 0.0213557 0.0007805 -0.0213557
54772256 0.0007623 -0.0208250 0.9992377 0.0208250 0.9992377 0.0208250 0.0007623 -0.0208250
55879618 0.0007451 -0.0203027 0.9992549 0.0203027 0.9992549 0.0203027 0.0007451 -0.0203027
57009369 0.0007289 -0.0197886 0.9992711 0.0197886 0.9992711 0.0197886 0.0007289 -0.0197886
58161960 0.0007136 -0.0192827 0.9992864 0.0192827 0.9992864 0.0192827 0.0007136 -0.0192827
59337855 0.0006991 -0.0187845 0.9993009 0.0187845 0.9993009 0.0187845 0.0006991 -0.0187845
60537522 0.0006855 -0.0182941 0.9993145 0.0182941 0.9993145 0.0182941 0.0006855 -0.0182941
61761445 0.0006726 -0.0178111 0.9993274 0.0178111 0.9993274 0.0178111 0.0006726 -0.0178111
63010112 0.0006606 -0.0173354 0.9993394 0.0173354 0.9993394 0.0173354 0.0006606 -0.0173354
64284024 0.0006493 -0.0168668 0.9993507 0.0168668 0.9993507 0.0168668 0.0006493 -0.0168668
65583691 0.0006387 -0.0164051 0.9993613 0.0164051 0.9993613 0.0164051 0.0006387 -0.0164051
66909635 0.0006288 -0.0159501 0.9993712 0.0159501 0.9993712 0.0159501 0.0006288 -0.0159501
68262386 0.0006195 -0.0155017 0.9993805 0.0155017 0.9993805 0.0155017 0.0006195 -0.0155017
69642486 0.0006109 -0.0150597 0.9993891 0.0150597 0.9993891 0.0150597 0.0006109 -0.0150597
71050488 0.0006029 -0.0146238 0.9993971 0.0146238 0.9993971 0.0146238 0.0006029 -0.0146238
72486957 0.0005954 -0.0141940 0.9994046 0.0141940 0.9994046 0.0141940 0.0005954 -0.0141940
73952468 0.0005885 -0.0137701 0.9994115 0.0137701 0.9994115 0.0137701 0.0005885 -0.0137701
