!Murata Part Number: GRM31A5C2J152JWA1
!These Parameters are Measured in Series Mode Connection
!Data Generated on Mar 30, 2021
!       o--ll--o
!Port1            Port2
!       o------o
!Operation Temp=25[degC], DC Bias Voltage=0[V]
!Freq. Start=1000[kHz] Stop=1000[MHz] 401[Steps]
# Hz S RI R 50
!Freq.(Hz) S11(Real) S11(Imag) S21(Real) S21(Imag) S12(Real) S12(Imag) S22(Real) S22(Imag)
1000000 0.5743566 -0.4936227 0.4256434 0.4936227 0.4256434 0.4936227 0.5743566 -0.4936227
1017419 0.5659071 -0.4948318 0.4340929 0.4948318 0.4340929 0.4948318 0.5659071 -0.4948318
1035142 0.5574186 -0.4958985 0.4425814 0.4958985 0.4425814 0.4958985 0.5574186 -0.4958985
1053174 0.5488960 -0.4968213 0.4511040 0.4968213 0.4511040 0.4968213 0.5488960 -0.4968213
1071519 0.5403440 -0.4975988 0.4596560 0.4975988 0.4596560 0.4975988 0.5403440 -0.4975988
1090184 0.5317678 -0.4982300 0.4682322 0.4982300 0.4682322 0.4982300 0.5317678 -0.4982300
1109175 0.5231723 -0.4987138 0.4768277 0.4987138 0.4768277 0.4987138 0.5231723 -0.4987138
1128496 0.5145626 -0.4990496 0.4854374 0.4990496 0.4854374 0.4990496 0.5145626 -0.4990496
1148154 0.5059438 -0.4992367 0.4940562 0.4992367 0.4940562 0.4992367 0.5059438 -0.4992367
1168154 0.4973211 -0.4992751 0.5026789 0.4992751 0.5026789 0.4992751 0.4973211 -0.4992751
1188502 0.4886995 -0.4991645 0.5113005 0.4991645 0.5113005 0.4991645 0.4886995 -0.4991645
1209205 0.4800844 -0.4989052 0.5199156 0.4989052 0.5199156 0.4989052 0.4800844 -0.4989052
1230269 0.4714806 -0.4984975 0.5285194 0.4984975 0.5285194 0.4984975 0.4714806 -0.4984975
1251699 0.4628934 -0.4979421 0.5371066 0.4979421 0.5371066 0.4979421 0.4628934 -0.4979421
1273503 0.4543279 -0.4972397 0.5456721 0.4972397 0.5456721 0.4972397 0.4543279 -0.4972397
1295687 0.4457889 -0.4963915 0.5542111 0.4963915 0.5542111 0.4963915 0.4457889 -0.4963915
1318257 0.4372815 -0.4953985 0.5627185 0.4953985 0.5627185 0.4953985 0.4372815 -0.4953985
1341220 0.4288106 -0.4942624 0.5711894 0.4942624 0.5711894 0.4942624 0.4288106 -0.4942624
1364583 0.4203808 -0.4929847 0.5796192 0.4929847 0.5796192 0.4929847 0.4203808 -0.4929847
1388353 0.4119970 -0.4915674 0.5880030 0.4915674 0.5880030 0.4915674 0.4119970 -0.4915674
1412538 0.4036636 -0.4900124 0.5963364 0.4900124 0.5963364 0.4900124 0.4036636 -0.4900124
1437143 0.3953852 -0.4883219 0.6046148 0.4883219 0.6046148 0.4883219 0.3953852 -0.4883219
1462177 0.3871661 -0.4864984 0.6128339 0.4864984 0.6128339 0.4864984 0.3871661 -0.4864984
1487647 0.3790105 -0.4845444 0.6209895 0.4845444 0.6209895 0.4845444 0.3790105 -0.4845444
1513561 0.3709225 -0.4824627 0.6290775 0.4824627 0.6290775 0.4824627 0.3709225 -0.4824627
1539927 0.3629060 -0.4802561 0.6370940 0.4802561 0.6370940 0.4802561 0.3629060 -0.4802561
1566751 0.3549648 -0.4779276 0.6450352 0.4779276 0.6450352 0.4779276 0.3549648 -0.4779276
1594043 0.3471025 -0.4754804 0.6528975 0.4754804 0.6528975 0.4754804 0.3471025 -0.4754804
1621810 0.3393225 -0.4729177 0.6606775 0.4729177 0.6606775 0.4729177 0.3393225 -0.4729177
1650061 0.3316282 -0.4702429 0.6683718 0.4702429 0.6683718 0.4702429 0.3316282 -0.4702429
1678804 0.3240226 -0.4674594 0.6759774 0.4674594 0.6759774 0.4674594 0.3240226 -0.4674594
1708048 0.3165086 -0.4645708 0.6834914 0.4645708 0.6834914 0.4645708 0.3165086 -0.4645708
1737801 0.3090891 -0.4615809 0.6909109 0.4615809 0.6909109 0.4615809 0.3090891 -0.4615809
1768072 0.3017665 -0.4584931 0.6982335 0.4584931 0.6982335 0.4584931 0.3017665 -0.4584931
1798871 0.2945433 -0.4553114 0.7054567 0.4553114 0.7054567 0.4553114 0.2945433 -0.4553114
1830206 0.2874217 -0.4520396 0.7125783 0.4520396 0.7125783 0.4520396 0.2874217 -0.4520396
1862087 0.2804037 -0.4486814 0.7195963 0.4486814 0.7195963 0.4486814 0.2804037 -0.4486814
1894524 0.2734912 -0.4452409 0.7265088 0.4452409 0.7265088 0.4452409 0.2734912 -0.4452409
1927525 0.2666858 -0.4417218 0.7333142 0.4417218 0.7333142 0.4417218 0.2666858 -0.4417218
1961101 0.2599891 -0.4381281 0.7400109 0.4381281 0.7400109 0.4381281 0.2599891 -0.4381281
1995262 0.2534023 -0.4344638 0.7465977 0.4344638 0.7465977 0.4344638 0.2534023 -0.4344638
2030019 0.2469266 -0.4307327 0.7530734 0.4307327 0.7530734 0.4307327 0.2469266 -0.4307327
2065380 0.2405629 -0.4269387 0.7594371 0.4269387 0.7594371 0.4269387 0.2405629 -0.4269387
2101358 0.2343121 -0.4230858 0.7656879 0.4230858 0.7656879 0.4230858 0.2343121 -0.4230858
2137962 0.2281749 -0.4191777 0.7718251 0.4191777 0.7718251 0.4191777 0.2281749 -0.4191777
2175204 0.2221517 -0.4152183 0.7778483 0.4152183 0.7778483 0.4152183 0.2221517 -0.4152183
2213095 0.2162428 -0.4112112 0.7837572 0.4112112 0.7837572 0.4112112 0.2162428 -0.4112112
2251645 0.2104486 -0.4071604 0.7895514 0.4071604 0.7895514 0.4071604 0.2104486 -0.4071604
2290868 0.2047689 -0.4030693 0.7952311 0.4030693 0.7952311 0.4030693 0.2047689 -0.4030693
2330773 0.1992038 -0.3989417 0.8007962 0.3989417 0.8007962 0.3989417 0.1992038 -0.3989417
2371374 0.1937530 -0.3947809 0.8062470 0.3947809 0.8062470 0.3947809 0.1937530 -0.3947809
2412682 0.1884163 -0.3905906 0.8115837 0.3905906 0.8115837 0.3905906 0.1884163 -0.3905906
2454709 0.1831930 -0.3863740 0.8168070 0.3863740 0.8168070 0.3863740 0.1831930 -0.3863740
2497468 0.1780828 -0.3821346 0.8219172 0.3821346 0.8219172 0.3821346 0.1780828 -0.3821346
2540973 0.1730848 -0.3778754 0.8269152 0.3778754 0.8269152 0.3778754 0.1730848 -0.3778754
2585235 0.1681984 -0.3735997 0.8318016 0.3735997 0.8318016 0.3735997 0.1681984 -0.3735997
2630268 0.1634225 -0.3693106 0.8365775 0.3693106 0.8365775 0.3693106 0.1634225 -0.3693106
2676086 0.1587564 -0.3650109 0.8412436 0.3650109 0.8412436 0.3650109 0.1587564 -0.3650109
2722701 0.1541989 -0.3607036 0.8458011 0.3607036 0.8458011 0.3607036 0.1541989 -0.3607036
2770129 0.1497489 -0.3563915 0.8502511 0.3563915 0.8502511 0.3563915 0.1497489 -0.3563915
2818383 0.1454053 -0.3520772 0.8545947 0.3520772 0.8545947 0.3520772 0.1454053 -0.3520772
2867477 0.1411666 -0.3477633 0.8588334 0.3477633 0.8588334 0.3477633 0.1411666 -0.3477633
2917427 0.1370317 -0.3434524 0.8629683 0.3434524 0.8629683 0.3434524 0.1370317 -0.3434524
2968247 0.1329991 -0.3391469 0.8670009 0.3391469 0.8670009 0.3391469 0.1329991 -0.3391469
3019952 0.1290674 -0.3348490 0.8709326 0.3348490 0.8709326 0.3348490 0.1290674 -0.3348490
3072557 0.1252352 -0.3305610 0.8747648 0.3305610 0.8747648 0.3305610 0.1252352 -0.3305610
3126079 0.1215008 -0.3262851 0.8784992 0.3262851 0.8784992 0.3262851 0.1215008 -0.3262851
3180534 0.1178627 -0.3220233 0.8821373 0.3220233 0.8821373 0.3220233 0.1178627 -0.3220233
3235937 0.1143194 -0.3177774 0.8856806 0.3177774 0.8856806 0.3177774 0.1143194 -0.3177774
3292305 0.1108692 -0.3135494 0.8891308 0.3135494 0.8891308 0.3135494 0.1108692 -0.3135494
3349654 0.1075105 -0.3093410 0.8924895 0.3093410 0.8924895 0.3093410 0.1075105 -0.3093410
3408003 0.1042415 -0.3051540 0.8957585 0.3051540 0.8957585 0.3051540 0.1042415 -0.3051540
3467369 0.1010607 -0.3009898 0.8989393 0.3009898 0.8989393 0.3009898 0.1010607 -0.3009898
3527768 0.0979663 -0.2968500 0.9020337 0.2968500 0.9020337 0.2968500 0.0979663 -0.2968500
3589219 0.0949567 -0.2927361 0.9050433 0.2927361 0.9050433 0.2927361 0.0949567 -0.2927361
3651741 0.0920301 -0.2886493 0.9079699 0.2886493 0.9079699 0.2886493 0.0920301 -0.2886493
3715352 0.0891847 -0.2845909 0.9108153 0.2845909 0.9108153 0.2845909 0.0891847 -0.2845909
3780071 0.0864190 -0.2805621 0.9135810 0.2805621 0.9135810 0.2805621 0.0864190 -0.2805621
3845918 0.0837311 -0.2765641 0.9162689 0.2765641 0.9162689 0.2765641 0.0837311 -0.2765641
3912911 0.0811194 -0.2725978 0.9188806 0.2725978 0.9188806 0.2725978 0.0811194 -0.2725978
3981072 0.0785822 -0.2686642 0.9214178 0.2686642 0.9214178 0.2686642 0.0785822 -0.2686642
4050419 0.0761177 -0.2647642 0.9238823 0.2647642 0.9238823 0.2647642 0.0761177 -0.2647642
4120975 0.0737244 -0.2608986 0.9262756 0.2608986 0.9262756 0.2608986 0.0737244 -0.2608986
4192760 0.0714005 -0.2570683 0.9285995 0.2570683 0.9285995 0.2570683 0.0714005 -0.2570683
4265795 0.0691444 -0.2532738 0.9308556 0.2532738 0.9308556 0.2532738 0.0691444 -0.2532738
4340103 0.0669544 -0.2495159 0.9330456 0.2495159 0.9330456 0.2495159 0.0669544 -0.2495159
4415704 0.0648289 -0.2457952 0.9351711 0.2457952 0.9351711 0.2457952 0.0648289 -0.2457952
4492623 0.0627664 -0.2421121 0.9372336 0.2421121 0.9372336 0.2421121 0.0627664 -0.2421121
4570882 0.0607652 -0.2384671 0.9392348 0.2384671 0.9392348 0.2384671 0.0607652 -0.2384671
4650504 0.0588239 -0.2348607 0.9411761 0.2348607 0.9411761 0.2348607 0.0588239 -0.2348607
4731513 0.0569408 -0.2312933 0.9430592 0.2312933 0.9430592 0.2312933 0.0569408 -0.2312933
4813933 0.0551144 -0.2277651 0.9448856 0.2277651 0.9448856 0.2277651 0.0551144 -0.2277651
4897788 0.0533433 -0.2242765 0.9466567 0.2242765 0.9466567 0.2242765 0.0533433 -0.2242765
4983105 0.0516261 -0.2208277 0.9483739 0.2208277 0.9483739 0.2208277 0.0516261 -0.2208277
5069907 0.0499612 -0.2174188 0.9500388 0.2174188 0.9500388 0.2174188 0.0499612 -0.2174188
5158222 0.0483472 -0.2140501 0.9516528 0.2140501 0.9516528 0.2140501 0.0483472 -0.2140501
5248075 0.0467829 -0.2107217 0.9532171 0.2107217 0.9532171 0.2107217 0.0467829 -0.2107217
5339493 0.0452667 -0.2074337 0.9547333 0.2074337 0.9547333 0.2074337 0.0452667 -0.2074337
5432503 0.0437975 -0.2041860 0.9562025 0.2041860 0.9562025 0.2041860 0.0437975 -0.2041860
5527134 0.0423738 -0.2009788 0.9576262 0.2009788 0.9576262 0.2009788 0.0423738 -0.2009788
5623413 0.0409944 -0.1978121 0.9590056 0.1978121 0.9590056 0.1978121 0.0409944 -0.1978121
5721370 0.0396581 -0.1946857 0.9603419 0.1946857 0.9603419 0.1946857 0.0396581 -0.1946857
5821032 0.0383636 -0.1915996 0.9616364 0.1915996 0.9616364 0.1915996 0.0383636 -0.1915996
5922431 0.0371097 -0.1885537 0.9628903 0.1885537 0.9628903 0.1885537 0.0371097 -0.1885537
6025596 0.0358953 -0.1855480 0.9641047 0.1855480 0.9641047 0.1855480 0.0358953 -0.1855480
6130558 0.0347193 -0.1825822 0.9652807 0.1825822 0.9652807 0.1825822 0.0347193 -0.1825822
6237348 0.0335804 -0.1796562 0.9664196 0.1796562 0.9664196 0.1796562 0.0335804 -0.1796562
6345999 0.0324776 -0.1767699 0.9675224 0.1767699 0.9675224 0.1767699 0.0324776 -0.1767699
6456542 0.0314099 -0.1739230 0.9685901 0.1739230 0.9685901 0.1739230 0.0314099 -0.1739230
6569011 0.0303763 -0.1711152 0.9696237 0.1711152 0.9696237 0.1711152 0.0303763 -0.1711152
6683439 0.0293756 -0.1683465 0.9706244 0.1683465 0.9706244 0.1683465 0.0293756 -0.1683465
6799860 0.0284069 -0.1656164 0.9715931 0.1656164 0.9715931 0.1656164 0.0284069 -0.1656164
6918310 0.0274693 -0.1629248 0.9725307 0.1629248 0.9725307 0.1629248 0.0274693 -0.1629248
7038822 0.0265618 -0.1602714 0.9734382 0.1602714 0.9734382 0.1602714 0.0265618 -0.1602714
7161434 0.0256835 -0.1576558 0.9743165 0.1576558 0.9743165 0.1576558 0.0256835 -0.1576558
7286182 0.0248336 -0.1550778 0.9751664 0.1550778 0.9751664 0.1550778 0.0248336 -0.1550778
7413102 0.0240111 -0.1525371 0.9759889 0.1525371 0.9759889 0.1525371 0.0240111 -0.1525371
7542234 0.0232152 -0.1500333 0.9767848 0.1500333 0.9767848 0.1500333 0.0232152 -0.1500333
7673615 0.0224451 -0.1475660 0.9775549 0.1475660 0.9775549 0.1475660 0.0224451 -0.1475660
7807284 0.0217001 -0.1451351 0.9782999 0.1451351 0.9782999 0.1451351 0.0217001 -0.1451351
7943282 0.0209792 -0.1427400 0.9790208 0.1427400 0.9790208 0.1427400 0.0209792 -0.1427400
8081649 0.0202819 -0.1403805 0.9797181 0.1403805 0.9797181 0.1403805 0.0202819 -0.1403805
8222426 0.0196072 -0.1380562 0.9803928 0.1380562 0.9803928 0.1380562 0.0196072 -0.1380562
8365656 0.0189547 -0.1357667 0.9810453 0.1357667 0.9810453 0.1357667 0.0189547 -0.1357667
8511380 0.0183234 -0.1335116 0.9816766 0.1335116 0.9816766 0.1335116 0.0183234 -0.1335116
8659643 0.0177129 -0.1312906 0.9822871 0.1312906 0.9822871 0.1312906 0.0177129 -0.1312906
8810489 0.0171223 -0.1291033 0.9828777 0.1291033 0.9828777 0.1291033 0.0171223 -0.1291033
8963962 0.0165512 -0.1269492 0.9834488 0.1269492 0.9834488 0.1269492 0.0165512 -0.1269492
9120108 0.0159988 -0.1248281 0.9840012 0.1248281 0.9840012 0.1248281 0.0159988 -0.1248281
9278975 0.0154647 -0.1227395 0.9845353 0.1227395 0.9845353 0.1227395 0.0154647 -0.1227395
9440609 0.0149481 -0.1206830 0.9850519 0.1206830 0.9850519 0.1206830 0.0149481 -0.1206830
9605058 0.0144486 -0.1186583 0.9855514 0.1186583 0.9855514 0.1186583 0.0144486 -0.1186583
9772372 0.0139655 -0.1166649 0.9860345 0.1166649 0.9860345 0.1166649 0.0139655 -0.1166649
9942601 0.0134985 -0.1147024 0.9865015 0.1147024 0.9865015 0.1147024 0.0134985 -0.1147024
10115795 0.0130469 -0.1127705 0.9869531 0.1127705 0.9869531 0.1127705 0.0130469 -0.1127705
10292005 0.0126103 -0.1108687 0.9873897 0.1108687 0.9873897 0.1108687 0.0126103 -0.1108687
10471285 0.0121881 -0.1089967 0.9878119 0.1089967 0.9878119 0.1089967 0.0121881 -0.1089967
10653689 0.0117800 -0.1071541 0.9882200 0.1071541 0.9882200 0.1071541 0.0117800 -0.1071541
10839269 0.0113855 -0.1053404 0.9886145 0.1053404 0.9886145 0.1053404 0.0113855 -0.1053404
11028082 0.0110040 -0.1035553 0.9889960 0.1035553 0.9889960 0.1035553 0.0110040 -0.1035553
11220185 0.0106353 -0.1017984 0.9893647 0.1017984 0.9893647 0.1017984 0.0106353 -0.1017984
11415633 0.0102789 -0.1000692 0.9897211 0.1000692 0.9897211 0.1000692 0.0102789 -0.1000692
11614486 0.0099343 -0.0983675 0.9900657 0.0983675 0.9900657 0.0983675 0.0099343 -0.0983675
11816803 0.0096013 -0.0966928 0.9903987 0.0966928 0.9903987 0.0966928 0.0096013 -0.0966928
12022644 0.0092793 -0.0950447 0.9907207 0.0950447 0.9907207 0.0950447 0.0092793 -0.0950447
12232071 0.0089682 -0.0934229 0.9910318 0.0934229 0.9910318 0.0934229 0.0089682 -0.0934229
12445146 0.0086675 -0.0918270 0.9913325 0.0918270 0.9913325 0.0918270 0.0086675 -0.0918270
12661933 0.0083768 -0.0902565 0.9916232 0.0902565 0.9916232 0.0902565 0.0083768 -0.0902565
12882496 0.0080959 -0.0887112 0.9919041 0.0887112 0.9919041 0.0887112 0.0080959 -0.0887112
13106900 0.0078244 -0.0871907 0.9921756 0.0871907 0.9921756 0.0871907 0.0078244 -0.0871907
13335214 0.0075620 -0.0856945 0.9924380 0.0856945 0.9924380 0.0856945 0.0075620 -0.0856945
13567505 0.0073085 -0.0842223 0.9926915 0.0842223 0.9926915 0.0842223 0.0073085 -0.0842223
13803843 0.0070635 -0.0827738 0.9929365 0.0827738 0.9929365 0.0827738 0.0070635 -0.0827738
14044297 0.0068267 -0.0813486 0.9931733 0.0813486 0.9931733 0.0813486 0.0068267 -0.0813486
14288940 0.0065979 -0.0799464 0.9934021 0.0799464 0.9934021 0.0799464 0.0065979 -0.0799464
14537844 0.0063768 -0.0785667 0.9936232 0.0785667 0.9936232 0.0785667 0.0063768 -0.0785667
14791084 0.0061632 -0.0772093 0.9938368 0.0772093 0.9938368 0.0772093 0.0061632 -0.0772093
15048735 0.0059568 -0.0758738 0.9940432 0.0758738 0.9940432 0.0758738 0.0059568 -0.0758738
15310875 0.0057574 -0.0745598 0.9942426 0.0745598 0.9942426 0.0745598 0.0057574 -0.0745598
15577580 0.0055648 -0.0732671 0.9944352 0.0732671 0.9944352 0.0732671 0.0055648 -0.0732671
15848932 0.0053786 -0.0719953 0.9946214 0.0719953 0.9946214 0.0719953 0.0053786 -0.0719953
16125010 0.0051988 -0.0707440 0.9948012 0.0707440 0.9948012 0.0707440 0.0051988 -0.0707440
16405898 0.0050251 -0.0695130 0.9949749 0.0695130 0.9949749 0.0695130 0.0050251 -0.0695130
16691678 0.0048573 -0.0683019 0.9951427 0.0683019 0.9951427 0.0683019 0.0048573 -0.0683019
16982437 0.0046952 -0.0671103 0.9953048 0.0671103 0.9953048 0.0671103 0.0046952 -0.0671103
17278260 0.0045386 -0.0659381 0.9954614 0.0659381 0.9954614 0.0659381 0.0045386 -0.0659381
17579236 0.0043873 -0.0647848 0.9956127 0.0647848 0.9956127 0.0647848 0.0043873 -0.0647848
17885455 0.0042412 -0.0636502 0.9957588 0.0636502 0.9957588 0.0636502 0.0042412 -0.0636502
18197009 0.0041001 -0.0625339 0.9958999 0.0625339 0.9958999 0.0625339 0.0041001 -0.0625339
18513989 0.0039639 -0.0614357 0.9960361 0.0614357 0.9960361 0.0614357 0.0039639 -0.0614357
18836491 0.0038323 -0.0603552 0.9961677 0.0603552 0.9961677 0.0603552 0.0038323 -0.0603552
19164611 0.0037052 -0.0592922 0.9962948 0.0592922 0.9962948 0.0592922 0.0037052 -0.0592922
19498446 0.0035824 -0.0582465 0.9964176 0.0582465 0.9964176 0.0582465 0.0035824 -0.0582465
19838097 0.0034639 -0.0572176 0.9965361 0.0572176 0.9965361 0.0572176 0.0034639 -0.0572176
20183664 0.0033495 -0.0562053 0.9966505 0.0562053 0.9966505 0.0562053 0.0033495 -0.0562053
20535250 0.0032390 -0.0552093 0.9967610 0.0552093 0.9967610 0.0552093 0.0032390 -0.0552093
20892961 0.0031323 -0.0542295 0.9968677 0.0542295 0.9968677 0.0542295 0.0031323 -0.0542295
21256903 0.0030293 -0.0532654 0.9969707 0.0532654 0.9969707 0.0532654 0.0030293 -0.0532654
21627185 0.0029299 -0.0523168 0.9970701 0.0523168 0.9970701 0.0523168 0.0029299 -0.0523168
22003917 0.0028339 -0.0513835 0.9971661 0.0513835 0.9971661 0.0513835 0.0028339 -0.0513835
22387211 0.0027412 -0.0504653 0.9972588 0.0504653 0.9972588 0.0504653 0.0027412 -0.0504653
22777182 0.0026518 -0.0495618 0.9973482 0.0495618 0.9973482 0.0495618 0.0026518 -0.0495618
23173946 0.0025655 -0.0486728 0.9974345 0.0486728 0.9974345 0.0486728 0.0025655 -0.0486728
23577622 0.0024822 -0.0477980 0.9975178 0.0477980 0.9975178 0.0477980 0.0024822 -0.0477980
23988329 0.0024019 -0.0469373 0.9975981 0.0469373 0.9975981 0.0469373 0.0024019 -0.0469373
24406191 0.0023243 -0.0460903 0.9976757 0.0460903 0.9976757 0.0460903 0.0023243 -0.0460903
24831331 0.0022495 -0.0452569 0.9977505 0.0452569 0.9977505 0.0452569 0.0022495 -0.0452569
25263877 0.0021773 -0.0444367 0.9978227 0.0444367 0.9978227 0.0444367 0.0021773 -0.0444367
25703958 0.0021077 -0.0436297 0.9978923 0.0436297 0.9978923 0.0436297 0.0021077 -0.0436297
26151704 0.0020405 -0.0428354 0.9979595 0.0428354 0.9979595 0.0428354 0.0020405 -0.0428354
26607251 0.0019757 -0.0420538 0.9980243 0.0420538 0.9980243 0.0420538 0.0019757 -0.0420538
27070732 0.0019133 -0.0412846 0.9980867 0.0412846 0.9980867 0.0412846 0.0019133 -0.0412846
27542287 0.0018530 -0.0405276 0.9981470 0.0405276 0.9981470 0.0405276 0.0018530 -0.0405276
28022056 0.0017949 -0.0397825 0.9982051 0.0397825 0.9982051 0.0397825 0.0017949 -0.0397825
28510183 0.0017389 -0.0390492 0.9982611 0.0390492 0.9982611 0.0390492 0.0017389 -0.0390492
29006812 0.0016849 -0.0383274 0.9983151 0.0383274 0.9983151 0.0383274 0.0016849 -0.0383274
29512092 0.0016329 -0.0376169 0.9983671 0.0376169 0.9983671 0.0376169 0.0016329 -0.0376169
30026174 0.0015828 -0.0369176 0.9984172 0.0369176 0.9984172 0.0369176 0.0015828 -0.0369176
30549211 0.0015344 -0.0362293 0.9984656 0.0362293 0.9984656 0.0362293 0.0015344 -0.0362293
31081359 0.0014879 -0.0355516 0.9985121 0.0355516 0.9985121 0.0355516 0.0014879 -0.0355516
31622777 0.0014430 -0.0348845 0.9985570 0.0348845 0.9985570 0.0348845 0.0014430 -0.0348845
32173625 0.0013999 -0.0342278 0.9986001 0.0342278 0.9986001 0.0342278 0.0013999 -0.0342278
32734069 0.0013583 -0.0335812 0.9986417 0.0335812 0.9986417 0.0335812 0.0013583 -0.0335812
33304276 0.0013182 -0.0329446 0.9986818 0.0329446 0.9986818 0.0329446 0.0013182 -0.0329446
33884416 0.0012797 -0.0323178 0.9987203 0.0323178 0.9987203 0.0323178 0.0012797 -0.0323178
34474661 0.0012425 -0.0317007 0.9987575 0.0317007 0.9987575 0.0317007 0.0012425 -0.0317007
35075187 0.0012068 -0.0310929 0.9987932 0.0310929 0.9987932 0.0310929 0.0012068 -0.0310929
35686175 0.0011725 -0.0304944 0.9988275 0.0304944 0.9988275 0.0304944 0.0011725 -0.0304944
36307805 0.0011394 -0.0299051 0.9988606 0.0299051 0.9988606 0.0299051 0.0011394 -0.0299051
36940264 0.0011076 -0.0293246 0.9988924 0.0293246 0.9988924 0.0293246 0.0011076 -0.0293246
37583740 0.0010770 -0.0287529 0.9989230 0.0287529 0.9989230 0.0287529 0.0010770 -0.0287529
38238425 0.0010476 -0.0281898 0.9989524 0.0281898 0.9989524 0.0281898 0.0010476 -0.0281898
38904514 0.0010194 -0.0276351 0.9989806 0.0276351 0.9989806 0.0276351 0.0010194 -0.0276351
39582206 0.0009922 -0.0270886 0.9990078 0.0270886 0.9990078 0.0270886 0.0009922 -0.0270886
40271703 0.0009661 -0.0265503 0.9990339 0.0265503 0.9990339 0.0265503 0.0009661 -0.0265503
40973211 0.0009411 -0.0260199 0.9990589 0.0260199 0.9990589 0.0260199 0.0009411 -0.0260199
