!Murata Part Number: GRM31A7U3A271JW31
!These Parameters are Measured in Series Mode Connection
!Data Generated on Mar 30, 2021
!       o--ll--o
!Port1            Port2
!       o------o
!Operation Temp=25[degC], DC Bias Voltage=0[V]
!Freq. Start=100[MHz] Stop=3[GHz] 401[Steps]
# Hz S RI R 50
!Freq.(Hz) S11(Real) S11(Imag) S21(Real) S21(Imag) S12(Real) S12(Imag) S22(Real) S22(Imag)
100000000 0.0037303 -0.0538466 0.9962697 0.0538466 0.9962697 0.0538466 0.0037303 -0.0538466
107250000 0.0032865 -0.0495508 0.9967135 0.0495508 0.9967135 0.0495508 0.0032865 -0.0495508
114500000 0.0029257 -0.0457500 0.9970743 0.0457500 0.9970743 0.0457500 0.0029257 -0.0457500
121750000 0.0026289 -0.0423567 0.9973711 0.0423567 0.9973711 0.0423567 0.0026289 -0.0423567
129000000 0.0023823 -0.0393027 0.9976177 0.0393027 0.9976177 0.0393027 0.0023823 -0.0393027
136250000 0.0021757 -0.0365342 0.9978243 0.0365342 0.9978243 0.0365342 0.0021757 -0.0365342
143500000 0.0020012 -0.0340083 0.9979988 0.0340083 0.9979988 0.0340083 0.0020012 -0.0340083
150750000 0.0018529 -0.0316901 0.9981471 0.0316901 0.9981471 0.0316901 0.0018529 -0.0316901
158000000 0.0017264 -0.0295512 0.9982736 0.0295512 0.9982736 0.0295512 0.0017264 -0.0295512
165250000 0.0016178 -0.0275681 0.9983822 0.0275681 0.9983822 0.0275681 0.0016178 -0.0275681
172500000 0.0015245 -0.0257212 0.9984755 0.0257212 0.9984755 0.0257212 0.0015245 -0.0257212
179750000 0.0014439 -0.0239941 0.9985561 0.0239941 0.9985561 0.0239941 0.0014439 -0.0239941
187000000 0.0013744 -0.0223728 0.9986256 0.0223728 0.9986256 0.0223728 0.0013744 -0.0223728
194250000 0.0013142 -0.0208455 0.9986858 0.0208455 0.9986858 0.0208455 0.0013142 -0.0208455
201500000 0.0012623 -0.0194020 0.9987377 0.0194020 0.9987377 0.0194020 0.0012623 -0.0194020
208750000 0.0012175 -0.0180336 0.9987825 0.0180336 0.9987825 0.0180336 0.0012175 -0.0180336
216000000 0.0011791 -0.0167328 0.9988209 0.0167328 0.9988209 0.0167328 0.0011791 -0.0167328
223250000 0.0011461 -0.0154928 0.9988539 0.0154928 0.9988539 0.0154928 0.0011461 -0.0154928
230500000 0.0011181 -0.0143080 0.9988819 0.0143080 0.9988819 0.0143080 0.0011181 -0.0143080
237750000 0.0010945 -0.0131732 0.9989055 0.0131732 0.9989055 0.0131732 0.0010945 -0.0131732
245000000 0.0010749 -0.0120840 0.9989251 0.0120840 0.9989251 0.0120840 0.0010749 -0.0120840
252250000 0.0010588 -0.0110365 0.9989412 0.0110365 0.9989412 0.0110365 0.0010588 -0.0110365
259500000 0.0010460 -0.0100270 0.9989540 0.0100270 0.9989540 0.0100270 0.0010460 -0.0100270
266750000 0.0010362 -0.0090524 0.9989638 0.0090524 0.9989638 0.0090524 0.0010362 -0.0090524
274000000 0.0010291 -0.0081100 0.9989709 0.0081100 0.9989709 0.0081100 0.0010291 -0.0081100
281250000 0.0010245 -0.0071972 0.9989755 0.0071972 0.9989755 0.0071972 0.0010245 -0.0071972
288500000 0.0010223 -0.0063117 0.9989777 0.0063117 0.9989777 0.0063117 0.0010223 -0.0063117
295750000 0.0010222 -0.0054514 0.9989778 0.0054514 0.9989778 0.0054514 0.0010222 -0.0054514
303000000 0.0010241 -0.0046146 0.9989759 0.0046146 0.9989759 0.0046146 0.0010241 -0.0046146
310250000 0.0010280 -0.0037994 0.9989720 0.0037994 0.9989720 0.0037994 0.0010280 -0.0037994
317500000 0.0010337 -0.0030045 0.9989663 0.0030045 0.9989663 0.0030045 0.0010337 -0.0030045
324750000 0.0010410 -0.0022283 0.9989590 0.0022283 0.9989590 0.0022283 0.0010410 -0.0022283
332000000 0.0010500 -0.0014696 0.9989500 0.0014696 0.9989500 0.0014696 0.0010500 -0.0014696
339250000 0.0010606 -0.0007272 0.9989394 0.0007272 0.9989394 0.0007272 0.0010606 -0.0007272
346500000 0.0010726 0.0000000 0.9989274 0.0000000 0.9989274 0.0000000 0.0010726 0.0000000
353750000 0.0010861 0.0007129 0.9989139 -0.0007129 0.9989139 -0.0007129 0.0010861 0.0007129
361000000 0.0011009 0.0014125 0.9988991 -0.0014125 0.9988991 -0.0014125 0.0011009 0.0014125
368250000 0.0011172 0.0020996 0.9988828 -0.0020996 0.9988828 -0.0020996 0.0011172 0.0020996
375500000 0.0011347 0.0027750 0.9988653 -0.0027750 0.9988653 -0.0027750 0.0011347 0.0027750
382750000 0.0011535 0.0034394 0.9988465 -0.0034394 0.9988465 -0.0034394 0.0011535 0.0034394
390000000 0.0011736 0.0040936 0.9988264 -0.0040936 0.9988264 -0.0040936 0.0011736 0.0040936
397250000 0.0011949 0.0047381 0.9988051 -0.0047381 0.9988051 -0.0047381 0.0011949 0.0047381
404500000 0.0012175 0.0053735 0.9987825 -0.0053735 0.9987825 -0.0053735 0.0012175 0.0053735
411750000 0.0012412 0.0060004 0.9987588 -0.0060004 0.9987588 -0.0060004 0.0012412 0.0060004
419000000 0.0012662 0.0066192 0.9987338 -0.0066192 0.9987338 -0.0066192 0.0012662 0.0066192
426250000 0.0012924 0.0072305 0.9987076 -0.0072305 0.9987076 -0.0072305 0.0012924 0.0072305
433500000 0.0013198 0.0078347 0.9986802 -0.0078347 0.9986802 -0.0078347 0.0013198 0.0078347
440750000 0.0013485 0.0084323 0.9986515 -0.0084323 0.9986515 -0.0084323 0.0013485 0.0084323
448000000 0.0013783 0.0090236 0.9986217 -0.0090236 0.9986217 -0.0090236 0.0013783 0.0090236
455250000 0.0014094 0.0096090 0.9985906 -0.0096090 0.9985906 -0.0096090 0.0014094 0.0096090
462500000 0.0014417 0.0101888 0.9985583 -0.0101888 0.9985583 -0.0101888 0.0014417 0.0101888
469750000 0.0014753 0.0107635 0.9985247 -0.0107635 0.9985247 -0.0107635 0.0014753 0.0107635
477000000 0.0015102 0.0113333 0.9984898 -0.0113333 0.9984898 -0.0113333 0.0015102 0.0113333
484250000 0.0015464 0.0118986 0.9984536 -0.0118986 0.9984536 -0.0118986 0.0015464 0.0118986
491500000 0.0015839 0.0124596 0.9984161 -0.0124596 0.9984161 -0.0124596 0.0015839 0.0124596
498750000 0.0016228 0.0130165 0.9983772 -0.0130165 0.9983772 -0.0130165 0.0016228 0.0130165
506000000 0.0016631 0.0135698 0.9983369 -0.0135698 0.9983369 -0.0135698 0.0016631 0.0135698
513250000 0.0017048 0.0141196 0.9982952 -0.0141196 0.9982952 -0.0141196 0.0017048 0.0141196
520500000 0.0017481 0.0146662 0.9982519 -0.0146662 0.9982519 -0.0146662 0.0017481 0.0146662
527750000 0.0017928 0.0152098 0.9982072 -0.0152098 0.9982072 -0.0152098 0.0017928 0.0152098
535000000 0.0018392 0.0157506 0.9981608 -0.0157506 0.9981608 -0.0157506 0.0018392 0.0157506
542250000 0.0018873 0.0162889 0.9981127 -0.0162889 0.9981127 -0.0162889 0.0018873 0.0162889
549500000 0.0019370 0.0168249 0.9980630 -0.0168249 0.9980630 -0.0168249 0.0019370 0.0168249
556750000 0.0019886 0.0173588 0.9980114 -0.0173588 0.9980114 -0.0173588 0.0019886 0.0173588
564000000 0.0020420 0.0178908 0.9979580 -0.0178908 0.9979580 -0.0178908 0.0020420 0.0178908
571250000 0.0020974 0.0184211 0.9979026 -0.0184211 0.9979026 -0.0184211 0.0020974 0.0184211
578500000 0.0021548 0.0189499 0.9978452 -0.0189499 0.9978452 -0.0189499 0.0021548 0.0189499
585750000 0.0022144 0.0194773 0.9977856 -0.0194773 0.9977856 -0.0194773 0.0022144 0.0194773
593000000 0.0022762 0.0200036 0.9977238 -0.0200036 0.9977238 -0.0200036 0.0022762 0.0200036
600250000 0.0023405 0.0205290 0.9976595 -0.0205290 0.9976595 -0.0205290 0.0023405 0.0205290
607500000 0.0024073 0.0210536 0.9975927 -0.0210536 0.9975927 -0.0210536 0.0024073 0.0210536
614750000 0.0024768 0.0215776 0.9975232 -0.0215776 0.9975232 -0.0215776 0.0024768 0.0215776
622000000 0.0025491 0.0221012 0.9974509 -0.0221012 0.9974509 -0.0221012 0.0025491 0.0221012
629250000 0.0026245 0.0226246 0.9973755 -0.0226246 0.9973755 -0.0226246 0.0026245 0.0226246
636500000 0.0027031 0.0231479 0.9972969 -0.0231479 0.9972969 -0.0231479 0.0027031 0.0231479
643750000 0.0027852 0.0236713 0.9972148 -0.0236713 0.9972148 -0.0236713 0.0027852 0.0236713
651000000 0.0028710 0.0241949 0.9971290 -0.0241949 0.9971290 -0.0241949 0.0028710 0.0241949
658250000 0.0029607 0.0247190 0.9970393 -0.0247190 0.9970393 -0.0247190 0.0029607 0.0247190
665500000 0.0030548 0.0252436 0.9969452 -0.0252436 0.9969452 -0.0252436 0.0030548 0.0252436
672750000 0.0031534 0.0257689 0.9968466 -0.0257689 0.9968466 -0.0257689 0.0031534 0.0257689
680000000 0.0032570 0.0262951 0.9967430 -0.0262951 0.9967430 -0.0262951 0.0032570 0.0262951
687250000 0.0033659 0.0268222 0.9966341 -0.0268222 0.9966341 -0.0268222 0.0033659 0.0268222
694500000 0.0034807 0.0273505 0.9965193 -0.0273505 0.9965193 -0.0273505 0.0034807 0.0273505
701750000 0.0036018 0.0278799 0.9963982 -0.0278799 0.9963982 -0.0278799 0.0036018 0.0278799
709000000 0.0037298 0.0284105 0.9962702 -0.0284105 0.9962702 -0.0284105 0.0037298 0.0284105
716250000 0.0038652 0.0289424 0.9961348 -0.0289424 0.9961348 -0.0289424 0.0038652 0.0289424
723500000 0.0040089 0.0294756 0.9959911 -0.0294756 0.9959911 -0.0294756 0.0040089 0.0294756
730750000 0.0041614 0.0300100 0.9958386 -0.0300100 0.9958386 -0.0300100 0.0041614 0.0300100
738000000 0.0043238 0.0305456 0.9956762 -0.0305456 0.9956762 -0.0305456 0.0043238 0.0305456
745250000 0.0044969 0.0310821 0.9955031 -0.0310821 0.9955031 -0.0310821 0.0044969 0.0310821
752500000 0.0046818 0.0316192 0.9953182 -0.0316192 0.9953182 -0.0316192 0.0046818 0.0316192
759750000 0.0048795 0.0321566 0.9951205 -0.0321566 0.9951205 -0.0321566 0.0048795 0.0321566
767000000 0.0050915 0.0326936 0.9949085 -0.0326936 0.9949085 -0.0326936 0.0050915 0.0326936
774250000 0.0053190 0.0332296 0.9946810 -0.0332296 0.9946810 -0.0332296 0.0053190 0.0332296
781500000 0.0055636 0.0337636 0.9944364 -0.0337636 0.9944364 -0.0337636 0.0055636 0.0337636
788750000 0.0058268 0.0342943 0.9941732 -0.0342943 0.9941732 -0.0342943 0.0058268 0.0342943
796000000 0.0061104 0.0348200 0.9938896 -0.0348200 0.9938896 -0.0348200 0.0061104 0.0348200
803250000 0.0064160 0.0353389 0.9935840 -0.0353389 0.9935840 -0.0353389 0.0064160 0.0353389
810500000 0.0067455 0.0358481 0.9932545 -0.0358481 0.9932545 -0.0358481 0.0067455 0.0358481
817750000 0.0071005 0.0363447 0.9928995 -0.0363447 0.9928995 -0.0363447 0.0071005 0.0363447
825000000 0.0074825 0.0368247 0.9925175 -0.0368247 0.9925175 -0.0368247 0.0074825 0.0368247
832250000 0.0078926 0.0372834 0.9921074 -0.0372834 0.9921074 -0.0372834 0.0078926 0.0372834
839500000 0.0083313 0.0377153 0.9916687 -0.0377153 0.9916687 -0.0377153 0.0083313 0.0377153
846750000 0.0087982 0.0381139 0.9912018 -0.0381139 0.9912018 -0.0381139 0.0087982 0.0381139
854000000 0.0092916 0.0384718 0.9907084 -0.0384718 0.9907084 -0.0384718 0.0092916 0.0384718
861250000 0.0098080 0.0387811 0.9901920 -0.0387811 0.9901920 -0.0387811 0.0098080 0.0387811
868500000 0.0103419 0.0390333 0.9896581 -0.0390333 0.9896581 -0.0390333 0.0103419 0.0390333
875750000 0.0108851 0.0392202 0.9891149 -0.0392202 0.9891149 -0.0392202 0.0108851 0.0392202
883000000 0.0114262 0.0393349 0.9885738 -0.0393349 0.9885738 -0.0393349 0.0114262 0.0393349
890250000 0.0119512 0.0393725 0.9880488 -0.0393725 0.9880488 -0.0393725 0.0119512 0.0393725
897500000 0.0124432 0.0393314 0.9875568 -0.0393314 0.9875568 -0.0393314 0.0124432 0.0393314
904750000 0.0128839 0.0392148 0.9871161 -0.0392148 0.9871161 -0.0392148 0.0128839 0.0392148
912000000 0.0132550 0.0390314 0.9867450 -0.0390314 0.9867450 -0.0390314 0.0132550 0.0390314
919250000 0.0135399 0.0387954 0.9864601 -0.0387954 0.9864601 -0.0387954 0.0135399 0.0387954
926500000 0.0137265 0.0385263 0.9862735 -0.0385263 0.9862735 -0.0385263 0.0137265 0.0385263
933750000 0.0138084 0.0382467 0.9861916 -0.0382467 0.9861916 -0.0382467 0.0138084 0.0382467
941000000 0.0137864 0.0379805 0.9862136 -0.0379805 0.9862136 -0.0379805 0.0137864 0.0379805
948250000 0.0136677 0.0377498 0.9863323 -0.0377498 0.9863323 -0.0377498 0.0136677 0.0377498
955500000 0.0134655 0.0375731 0.9865345 -0.0375731 0.9865345 -0.0375731 0.0134655 0.0375731
962750000 0.0131964 0.0374638 0.9868036 -0.0374638 0.9868036 -0.0374638 0.0131964 0.0374638
970000000 0.0128788 0.0374296 0.9871212 -0.0374296 0.9871212 -0.0374296 0.0128788 0.0374296
977250000 0.0125307 0.0374727 0.9874693 -0.0374727 0.9874693 -0.0374727 0.0125307 0.0374727
984500000 0.0121682 0.0375913 0.9878318 -0.0375913 0.9878318 -0.0375913 0.0121682 0.0375913
991750000 0.0118050 0.0377802 0.9881950 -0.0377802 0.9881950 -0.0377802 0.0118050 0.0377802
999000000 0.0114517 0.0380324 0.9885483 -0.0380324 0.9885483 -0.0380324 0.0114517 0.0380324
1006250000 0.0111160 0.0383400 0.9888840 -0.0383400 0.9888840 -0.0383400 0.0111160 0.0383400
1013500000 0.0108034 0.0386948 0.9891966 -0.0386948 0.9891966 -0.0386948 0.0108034 0.0386948
1020750000 0.0105172 0.0390893 0.9894828 -0.0390893 0.9894828 -0.0390893 0.0105172 0.0390893
1028000000 0.0102589 0.0395163 0.9897411 -0.0395163 0.9897411 -0.0395163 0.0102589 0.0395163
1035250000 0.0100290 0.0399697 0.9899710 -0.0399697 0.9899710 -0.0399697 0.0100290 0.0399697
1042500000 0.0098272 0.0404442 0.9901728 -0.0404442 0.9901728 -0.0404442 0.0098272 0.0404442
1049750000 0.0096526 0.0409352 0.9903474 -0.0409352 0.9903474 -0.0409352 0.0096526 0.0409352
1057000000 0.0095038 0.0414390 0.9904962 -0.0414390 0.9904962 -0.0414390 0.0095038 0.0414390
1064250000 0.0093794 0.0419525 0.9906206 -0.0419525 0.9906206 -0.0419525 0.0093794 0.0419525
1071500000 0.0092780 0.0424732 0.9907220 -0.0424732 0.9907220 -0.0424732 0.0092780 0.0424732
1078750000 0.0091979 0.0429992 0.9908021 -0.0429992 0.9908021 -0.0429992 0.0091979 0.0429992
1086000000 0.0091377 0.0435287 0.9908623 -0.0435287 0.9908623 -0.0435287 0.0091377 0.0435287
1093250000 0.0090961 0.0440605 0.9909039 -0.0440605 0.9909039 -0.0440605 0.0090961 0.0440605
1100500000 0.0090716 0.0445935 0.9909284 -0.0445935 0.9909284 -0.0445935 0.0090716 0.0445935
1107750000 0.0090632 0.0451270 0.9909368 -0.0451270 0.9909368 -0.0451270 0.0090632 0.0451270
1115000000 0.0090697 0.0456603 0.9909303 -0.0456603 0.9909303 -0.0456603 0.0090697 0.0456603
1122250000 0.0090902 0.0461929 0.9909098 -0.0461929 0.9909098 -0.0461929 0.0090902 0.0461929
1129500000 0.0091239 0.0467245 0.9908761 -0.0467245 0.9908761 -0.0467245 0.0091239 0.0467245
1136750000 0.0091700 0.0472548 0.9908300 -0.0472548 0.9908300 -0.0472548 0.0091700 0.0472548
1144000000 0.0092277 0.0477835 0.9907723 -0.0477835 0.9907723 -0.0477835 0.0092277 0.0477835
1151250000 0.0092967 0.0483104 0.9907033 -0.0483104 0.9907033 -0.0483104 0.0092967 0.0483104
1158500000 0.0093762 0.0488355 0.9906238 -0.0488355 0.9906238 -0.0488355 0.0093762 0.0488355
1165750000 0.0094660 0.0493587 0.9905340 -0.0493587 0.9905340 -0.0493587 0.0094660 0.0493587
1173000000 0.0095655 0.0498798 0.9904345 -0.0498798 0.9904345 -0.0498798 0.0095655 0.0498798
1180250000 0.0096746 0.0503987 0.9903254 -0.0503987 0.9903254 -0.0503987 0.0096746 0.0503987
1187500000 0.0097928 0.0509155 0.9902072 -0.0509155 0.9902072 -0.0509155 0.0097928 0.0509155
1194750000 0.0099201 0.0514301 0.9900799 -0.0514301 0.9900799 -0.0514301 0.0099201 0.0514301
1202000000 0.0100563 0.0519424 0.9899437 -0.0519424 0.9899437 -0.0519424 0.0100563 0.0519424
1209250000 0.0102011 0.0524524 0.9897989 -0.0524524 0.9897989 -0.0524524 0.0102011 0.0524524
1216500000 0.0103545 0.0529599 0.9896455 -0.0529599 0.9896455 -0.0529599 0.0103545 0.0529599
1223750000 0.0105164 0.0534650 0.9894836 -0.0534650 0.9894836 -0.0534650 0.0105164 0.0534650
1231000000 0.0106868 0.0539674 0.9893132 -0.0539674 0.9893132 -0.0539674 0.0106868 0.0539674
1238250000 0.0108657 0.0544672 0.9891343 -0.0544672 0.9891343 -0.0544672 0.0108657 0.0544672
1245500000 0.0110531 0.0549642 0.9889469 -0.0549642 0.9889469 -0.0549642 0.0110531 0.0549642
1252750000 0.0112489 0.0554582 0.9887511 -0.0554582 0.9887511 -0.0554582 0.0112489 0.0554582
1260000000 0.0114533 0.0559490 0.9885467 -0.0559490 0.9885467 -0.0559490 0.0114533 0.0559490
1267250000 0.0116662 0.0564366 0.9883338 -0.0564366 0.9883338 -0.0564366 0.0116662 0.0564366
1274500000 0.0118879 0.0569206 0.9881121 -0.0569206 0.9881121 -0.0569206 0.0118879 0.0569206
1281750000 0.0121183 0.0574009 0.9878817 -0.0574009 0.9878817 -0.0574009 0.0121183 0.0574009
1289000000 0.0123575 0.0578771 0.9876425 -0.0578771 0.9876425 -0.0578771 0.0123575 0.0578771
1296250000 0.0126057 0.0583490 0.9873943 -0.0583490 0.9873943 -0.0583490 0.0126057 0.0583490
1303500000 0.0128629 0.0588163 0.9871371 -0.0588163 0.9871371 -0.0588163 0.0128629 0.0588163
1310750000 0.0131292 0.0592786 0.9868708 -0.0592786 0.9868708 -0.0592786 0.0131292 0.0592786
1318000000 0.0134048 0.0597354 0.9865952 -0.0597354 0.9865952 -0.0597354 0.0134048 0.0597354
1325250000 0.0136897 0.0601864 0.9863103 -0.0601864 0.9863103 -0.0601864 0.0136897 0.0601864
1332500000 0.0139839 0.0606310 0.9860161 -0.0606310 0.9860161 -0.0606310 0.0139839 0.0606310
1339750000 0.0142877 0.0610689 0.9857123 -0.0610689 0.9857123 -0.0610689 0.0142877 0.0610689
1347000000 0.0146009 0.0614993 0.9853991 -0.0614993 0.9853991 -0.0614993 0.0146009 0.0614993
1354250000 0.0149236 0.0619217 0.9850764 -0.0619217 0.9850764 -0.0619217 0.0149236 0.0619217
1361500000 0.0152558 0.0623355 0.9847442 -0.0623355 0.9847442 -0.0623355 0.0152558 0.0623355
1368750000 0.0155974 0.0627400 0.9844026 -0.0627400 0.9844026 -0.0627400 0.0155974 0.0627400
1376000000 0.0159484 0.0631345 0.9840516 -0.0631345 0.9840516 -0.0631345 0.0159484 0.0631345
1383250000 0.0163085 0.0635181 0.9836915 -0.0635181 0.9836915 -0.0635181 0.0163085 0.0635181
1390500000 0.0166776 0.0638901 0.9833224 -0.0638901 0.9833224 -0.0638901 0.0166776 0.0638901
1397750000 0.0170554 0.0642497 0.9829446 -0.0642497 0.9829446 -0.0642497 0.0170554 0.0642497
1405000000 0.0174415 0.0645959 0.9825585 -0.0645959 0.9825585 -0.0645959 0.0174415 0.0645959
1412250000 0.0178355 0.0649278 0.9821645 -0.0649278 0.9821645 -0.0649278 0.0178355 0.0649278
1419500000 0.0182369 0.0652446 0.9817631 -0.0652446 0.9817631 -0.0652446 0.0182369 0.0652446
1426750000 0.0186450 0.0655452 0.9813550 -0.0655452 0.9813550 -0.0655452 0.0186450 0.0655452
1434000000 0.0190592 0.0658287 0.9809408 -0.0658287 0.9809408 -0.0658287 0.0190592 0.0658287
1441250000 0.0194785 0.0660942 0.9805215 -0.0660942 0.9805215 -0.0660942 0.0194785 0.0660942
1448500000 0.0199019 0.0663407 0.9800981 -0.0663407 0.9800981 -0.0663407 0.0199019 0.0663407
1455750000 0.0203284 0.0665674 0.9796716 -0.0665674 0.9796716 -0.0665674 0.0203284 0.0665674
1463000000 0.0207567 0.0667734 0.9792433 -0.0667734 0.9792433 -0.0667734 0.0207567 0.0667734
1470250000 0.0211854 0.0669579 0.9788146 -0.0669579 0.9788146 -0.0669579 0.0211854 0.0669579
1477500000 0.0216130 0.0671202 0.9783870 -0.0671202 0.9783870 -0.0671202 0.0216130 0.0671202
1484750000 0.0220378 0.0672599 0.9779622 -0.0672599 0.9779622 -0.0672599 0.0220378 0.0672599
1492000000 0.0224580 0.0673763 0.9775420 -0.0673763 0.9775420 -0.0673763 0.0224580 0.0673763
1499250000 0.0228718 0.0674694 0.9771282 -0.0674694 0.9771282 -0.0674694 0.0228718 0.0674694
1506500000 0.0232771 0.0675389 0.9767229 -0.0675389 0.9767229 -0.0675389 0.0232771 0.0675389
1513750000 0.0236719 0.0675851 0.9763281 -0.0675851 0.9763281 -0.0675851 0.0236719 0.0675851
1521000000 0.0240538 0.0676081 0.9759462 -0.0676081 0.9759462 -0.0676081 0.0240538 0.0676081
1528250000 0.0244209 0.0676087 0.9755791 -0.0676087 0.9755791 -0.0676087 0.0244209 0.0676087
1535500000 0.0247709 0.0675876 0.9752291 -0.0675876 0.9752291 -0.0675876 0.0247709 0.0675876
1542750000 0.0251015 0.0675459 0.9748985 -0.0675459 0.9748985 -0.0675459 0.0251015 0.0675459
1550000000 0.0254109 0.0674850 0.9745891 -0.0674850 0.9745891 -0.0674850 0.0254109 0.0674850
1557250000 0.0256968 0.0674065 0.9743032 -0.0674065 0.9743032 -0.0674065 0.0256968 0.0674065
1564500000 0.0259576 0.0673123 0.9740424 -0.0673123 0.9740424 -0.0673123 0.0259576 0.0673123
1571750000 0.0261916 0.0672045 0.9738084 -0.0672045 0.9738084 -0.0672045 0.0261916 0.0672045
1579000000 0.0263973 0.0670855 0.9736027 -0.0670855 0.9736027 -0.0670855 0.0263973 0.0670855
1586250000 0.0265737 0.0669576 0.9734263 -0.0669576 0.9734263 -0.0669576 0.0265737 0.0669576
1593500000 0.0267198 0.0668237 0.9732802 -0.0668237 0.9732802 -0.0668237 0.0267198 0.0668237
1600750000 0.0268351 0.0666864 0.9731649 -0.0666864 0.9731649 -0.0666864 0.0268351 0.0666864
1608000000 0.0269194 0.0665485 0.9730806 -0.0665485 0.9730806 -0.0665485 0.0269194 0.0665485
1615250000 0.0269728 0.0664129 0.9730272 -0.0664129 0.9730272 -0.0664129 0.0269728 0.0664129
1622500000 0.0269956 0.0662824 0.9730044 -0.0662824 0.9730044 -0.0662824 0.0269956 0.0662824
1629750000 0.0269886 0.0661596 0.9730114 -0.0661596 0.9730114 -0.0661596 0.0269886 0.0661596
