!Murata Part Number: GRM31C5C1E224GE02
!These Parameters are Measured in Series Mode Connection
!Data Generated on Mar 30, 2021
!       o--ll--o
!Port1            Port2
!       o------o
!Operation Temp=25[degC], DC Bias Voltage=0[V]
!Freq. Start=1000[kHz] Stop=6[GHz] 401[Steps]
# Hz S RI R 50
!Freq.(Hz) S11(Real) S11(Imag) S21(Real) S21(Imag) S12(Real) S12(Imag) S22(Real) S22(Imag)
1000000 0.0000819 -0.0070230 0.9999181 0.0070230 0.9999181 0.0070230 0.0000819 -0.0070230
1021987 0.0000800 -0.0068689 0.9999200 0.0068689 0.9999200 0.0068689 0.0000800 -0.0068689
1044457 0.0000782 -0.0067180 0.9999218 0.0067180 0.9999218 0.0067180 0.0000782 -0.0067180
1067422 0.0000764 -0.0065703 0.9999236 0.0065703 0.9999236 0.0065703 0.0000764 -0.0065703
1090891 0.0000748 -0.0064257 0.9999252 0.0064257 0.9999252 0.0064257 0.0000748 -0.0064257
1114877 0.0000732 -0.0062842 0.9999268 0.0062842 0.9999268 0.0062842 0.0000732 -0.0062842
1139390 0.0000717 -0.0061457 0.9999283 0.0061457 0.9999283 0.0061457 0.0000717 -0.0061457
1164441 0.0000703 -0.0060100 0.9999297 0.0060100 0.9999297 0.0060100 0.0000703 -0.0060100
1190044 0.0000690 -0.0058772 0.9999310 0.0058772 0.9999310 0.0058772 0.0000690 -0.0058772
1216210 0.0000677 -0.0057473 0.9999323 0.0057473 0.9999323 0.0057473 0.0000677 -0.0057473
1242950 0.0000665 -0.0056200 0.9999335 0.0056200 0.9999335 0.0056200 0.0000665 -0.0056200
1270279 0.0000654 -0.0054954 0.9999346 0.0054954 0.9999346 0.0054954 0.0000654 -0.0054954
1298209 0.0000643 -0.0053734 0.9999357 0.0053734 0.9999357 0.0053734 0.0000643 -0.0053734
1326753 0.0000633 -0.0052540 0.9999367 0.0052540 0.9999367 0.0052540 0.0000633 -0.0052540
1355924 0.0000624 -0.0051370 0.9999376 0.0051370 0.9999376 0.0051370 0.0000624 -0.0051370
1385737 0.0000615 -0.0050225 0.9999385 0.0050225 0.9999385 0.0050225 0.0000615 -0.0050225
1416205 0.0000606 -0.0049104 0.9999394 0.0049104 0.9999394 0.0049104 0.0000606 -0.0049104
1447343 0.0000598 -0.0048006 0.9999402 0.0048006 0.9999402 0.0048006 0.0000598 -0.0048006
1479166 0.0000591 -0.0046931 0.9999409 0.0046931 0.9999409 0.0046931 0.0000591 -0.0046931
1511688 0.0000584 -0.0045879 0.9999416 0.0045879 0.9999416 0.0045879 0.0000584 -0.0045879
1544926 0.0000577 -0.0044848 0.9999423 0.0044848 0.9999423 0.0044848 0.0000577 -0.0044848
1578894 0.0000571 -0.0043838 0.9999429 0.0043838 0.9999429 0.0043838 0.0000571 -0.0043838
1613609 0.0000565 -0.0042849 0.9999435 0.0042849 0.9999435 0.0042849 0.0000565 -0.0042849
1649087 0.0000560 -0.0041881 0.9999440 0.0041881 0.9999440 0.0041881 0.0000560 -0.0041881
1685346 0.0000554 -0.0040932 0.9999446 0.0040932 0.9999446 0.0040932 0.0000554 -0.0040932
1722402 0.0000550 -0.0040003 0.9999450 0.0040003 0.9999450 0.0040003 0.0000550 -0.0040003
1760272 0.0000545 -0.0039093 0.9999455 0.0039093 0.9999455 0.0039093 0.0000545 -0.0039093
1798975 0.0000541 -0.0038202 0.9999459 0.0038202 0.9999459 0.0038202 0.0000541 -0.0038202
1838529 0.0000537 -0.0037329 0.9999463 0.0037329 0.9999463 0.0037329 0.0000537 -0.0037329
1878953 0.0000534 -0.0036473 0.9999466 0.0036473 0.9999466 0.0036473 0.0000534 -0.0036473
1920266 0.0000531 -0.0035635 0.9999469 0.0035635 0.9999469 0.0035635 0.0000531 -0.0035635
1962487 0.0000528 -0.0034814 0.9999472 0.0034814 0.9999472 0.0034814 0.0000528 -0.0034814
2005636 0.0000525 -0.0034009 0.9999475 0.0034009 0.9999475 0.0034009 0.0000525 -0.0034009
2049734 0.0000523 -0.0033221 0.9999477 0.0033221 0.9999477 0.0033221 0.0000523 -0.0033221
2094801 0.0000520 -0.0032448 0.9999480 0.0032448 0.9999480 0.0032448 0.0000520 -0.0032448
2140860 0.0000518 -0.0031691 0.9999482 0.0031691 0.9999482 0.0031691 0.0000518 -0.0031691
2187931 0.0000517 -0.0030949 0.9999483 0.0030949 0.9999483 0.0030949 0.0000517 -0.0030949
2236037 0.0000515 -0.0030221 0.9999485 0.0030221 0.9999485 0.0030221 0.0000515 -0.0030221
2285201 0.0000514 -0.0029508 0.9999486 0.0029508 0.9999486 0.0029508 0.0000514 -0.0029508
2335446 0.0000512 -0.0028809 0.9999488 0.0028809 0.9999488 0.0028809 0.0000512 -0.0028809
2386795 0.0000511 -0.0028124 0.9999489 0.0028124 0.9999489 0.0028124 0.0000511 -0.0028124
2439274 0.0000510 -0.0027452 0.9999490 0.0027452 0.9999490 0.0027452 0.0000510 -0.0027452
2492906 0.0000510 -0.0026793 0.9999490 0.0026793 0.9999490 0.0026793 0.0000510 -0.0026793
2547717 0.0000509 -0.0026147 0.9999491 0.0026147 0.9999491 0.0026147 0.0000509 -0.0026147
2603734 0.0000509 -0.0025513 0.9999491 0.0025513 0.9999491 0.0025513 0.0000509 -0.0025513
2660982 0.0000508 -0.0024891 0.9999492 0.0024891 0.9999492 0.0024891 0.0000508 -0.0024891
2719490 0.0000508 -0.0024281 0.9999492 0.0024281 0.9999492 0.0024281 0.0000508 -0.0024281
2779283 0.0000508 -0.0023683 0.9999492 0.0023683 0.9999492 0.0023683 0.0000508 -0.0023683
2840391 0.0000508 -0.0023096 0.9999492 0.0023096 0.9999492 0.0023096 0.0000508 -0.0023096
2902843 0.0000509 -0.0022520 0.9999491 0.0022520 0.9999491 0.0022520 0.0000509 -0.0022520
2966668 0.0000509 -0.0021955 0.9999491 0.0021955 0.9999491 0.0021955 0.0000509 -0.0021955
3031896 0.0000510 -0.0021400 0.9999490 0.0021400 0.9999490 0.0021400 0.0000510 -0.0021400
3098558 0.0000510 -0.0020855 0.9999490 0.0020855 0.9999490 0.0020855 0.0000510 -0.0020855
3166686 0.0000511 -0.0020321 0.9999489 0.0020321 0.9999489 0.0020321 0.0000511 -0.0020321
3236312 0.0000512 -0.0019795 0.9999488 0.0019795 0.9999488 0.0019795 0.0000512 -0.0019795
3307469 0.0000513 -0.0019280 0.9999487 0.0019280 0.9999487 0.0019280 0.0000513 -0.0019280
3380190 0.0000514 -0.0018773 0.9999486 0.0018773 0.9999486 0.0018773 0.0000514 -0.0018773
3454511 0.0000516 -0.0018275 0.9999484 0.0018275 0.9999484 0.0018275 0.0000516 -0.0018275
3530465 0.0000517 -0.0017786 0.9999483 0.0017786 0.9999483 0.0017786 0.0000517 -0.0017786
3608090 0.0000519 -0.0017306 0.9999481 0.0017306 0.9999481 0.0017306 0.0000519 -0.0017306
3687421 0.0000520 -0.0016833 0.9999480 0.0016833 0.9999480 0.0016833 0.0000520 -0.0016833
3768496 0.0000522 -0.0016369 0.9999478 0.0016369 0.9999478 0.0016369 0.0000522 -0.0016369
3851354 0.0000524 -0.0015912 0.9999476 0.0015912 0.9999476 0.0015912 0.0000524 -0.0015912
3936034 0.0000526 -0.0015463 0.9999474 0.0015463 0.9999474 0.0015463 0.0000526 -0.0015463
4022575 0.0000528 -0.0015021 0.9999472 0.0015021 0.9999472 0.0015021 0.0000528 -0.0015021
4111020 0.0000531 -0.0014586 0.9999469 0.0014586 0.9999469 0.0014586 0.0000531 -0.0014586
4201409 0.0000533 -0.0014159 0.9999467 0.0014159 0.9999467 0.0014159 0.0000533 -0.0014159
4293785 0.0000536 -0.0013737 0.9999464 0.0013737 0.9999464 0.0013737 0.0000536 -0.0013737
4388193 0.0000538 -0.0013323 0.9999462 0.0013323 0.9999462 0.0013323 0.0000538 -0.0013323
4484676 0.0000541 -0.0012914 0.9999459 0.0012914 0.9999459 0.0012914 0.0000541 -0.0012914
4583281 0.0000544 -0.0012512 0.9999456 0.0012512 0.9999456 0.0012512 0.0000544 -0.0012512
4684054 0.0000548 -0.0012116 0.9999452 0.0012116 0.9999452 0.0012116 0.0000548 -0.0012116
4787042 0.0000551 -0.0011725 0.9999449 0.0011725 0.9999449 0.0011725 0.0000551 -0.0011725
4892295 0.0000555 -0.0011340 0.9999445 0.0011340 0.9999445 0.0011340 0.0000555 -0.0011340
4999862 0.0000558 -0.0010960 0.9999442 0.0010960 0.9999442 0.0010960 0.0000558 -0.0010960
5109794 0.0000562 -0.0010586 0.9999438 0.0010586 0.9999438 0.0010586 0.0000562 -0.0010586
5222143 0.0000567 -0.0010216 0.9999433 0.0010216 0.9999433 0.0010216 0.0000567 -0.0010216
5336962 0.0000571 -0.0009851 0.9999429 0.0009851 0.9999429 0.0009851 0.0000571 -0.0009851
5454306 0.0000575 -0.0009491 0.9999425 0.0009491 0.9999425 0.0009491 0.0000575 -0.0009491
5574230 0.0000580 -0.0009135 0.9999420 0.0009135 0.9999420 0.0009135 0.0000580 -0.0009135
5696791 0.0000585 -0.0008783 0.9999415 0.0008783 0.9999415 0.0008783 0.0000585 -0.0008783
5822046 0.0000590 -0.0008435 0.9999410 0.0008435 0.9999410 0.0008435 0.0000590 -0.0008435
5950055 0.0000596 -0.0008092 0.9999404 0.0008092 0.9999404 0.0008092 0.0000596 -0.0008092
6080879 0.0000602 -0.0007752 0.9999398 0.0007752 0.9999398 0.0007752 0.0000602 -0.0007752
6214580 0.0000608 -0.0007415 0.9999392 0.0007415 0.9999392 0.0007415 0.0000608 -0.0007415
6351220 0.0000614 -0.0007082 0.9999386 0.0007082 0.9999386 0.0007082 0.0000614 -0.0007082
6490864 0.0000621 -0.0006752 0.9999379 0.0006752 0.9999379 0.0006752 0.0000621 -0.0006752
6633579 0.0000628 -0.0006425 0.9999372 0.0006425 0.9999372 0.0006425 0.0000628 -0.0006425
6779431 0.0000635 -0.0006102 0.9999365 0.0006102 0.9999365 0.0006102 0.0000635 -0.0006102
6928491 0.0000642 -0.0005780 0.9999358 0.0005780 0.9999358 0.0005780 0.0000642 -0.0005780
7080828 0.0000650 -0.0005462 0.9999350 0.0005462 0.9999350 0.0005462 0.0000650 -0.0005462
7236514 0.0000659 -0.0005145 0.9999341 0.0005145 0.9999341 0.0005145 0.0000659 -0.0005145
7395623 0.0000667 -0.0004831 0.9999333 0.0004831 0.9999333 0.0004831 0.0000667 -0.0004831
7558231 0.0000676 -0.0004519 0.9999324 0.0004519 0.9999324 0.0004519 0.0000676 -0.0004519
7724414 0.0000686 -0.0004209 0.9999314 0.0004209 0.9999314 0.0004209 0.0000686 -0.0004209
7894251 0.0000696 -0.0003901 0.9999304 0.0003901 0.9999304 0.0003901 0.0000696 -0.0003901
8067822 0.0000706 -0.0003594 0.9999294 0.0003594 0.9999294 0.0003594 0.0000706 -0.0003594
8245209 0.0000717 -0.0003288 0.9999283 0.0003288 0.9999283 0.0003288 0.0000717 -0.0003288
8426497 0.0000729 -0.0002983 0.9999271 0.0002983 0.9999271 0.0002983 0.0000729 -0.0002983
8611770 0.0000741 -0.0002680 0.9999259 0.0002680 0.9999259 0.0002680 0.0000741 -0.0002680
8801117 0.0000754 -0.0002377 0.9999246 0.0002377 0.9999246 0.0002377 0.0000754 -0.0002377
8994628 0.0000767 -0.0002075 0.9999233 0.0002075 0.9999233 0.0002075 0.0000767 -0.0002075
9192393 0.0000781 -0.0001773 0.9999219 0.0001773 0.9999219 0.0001773 0.0000781 -0.0001773
9394506 0.0000796 -0.0001472 0.9999204 0.0001472 0.9999204 0.0001472 0.0000796 -0.0001472
9601063 0.0000811 -0.0001170 0.9999189 0.0001170 0.9999189 0.0001170 0.0000811 -0.0001170
9812162 0.0000827 -0.0000868 0.9999173 0.0000868 0.9999173 0.0000868 0.0000827 -0.0000868
10027902 0.0000844 -0.0000566 0.9999156 0.0000566 0.9999156 0.0000566 0.0000844 -0.0000566
10248386 0.0000862 -0.0000263 0.9999138 0.0000263 0.9999138 0.0000263 0.0000862 -0.0000263
10473717 0.0000881 0.0000041 0.9999119 -0.0000041 0.9999119 -0.0000041 0.0000881 0.0000041
10704003 0.0000901 0.0000347 0.9999099 -0.0000347 0.9999099 -0.0000347 0.0000901 0.0000347
10939352 0.0000922 0.0000653 0.9999078 -0.0000653 0.9999078 -0.0000653 0.0000922 0.0000653
11179876 0.0000945 0.0000962 0.9999055 -0.0000962 0.9999055 -0.0000962 0.0000945 0.0000962
11425688 0.0000968 0.0001273 0.9999032 -0.0001273 0.9999032 -0.0001273 0.0000968 0.0001273
11676904 0.0000993 0.0001586 0.9999007 -0.0001586 0.9999007 -0.0001586 0.0000993 0.0001586
11933645 0.0001020 0.0001903 0.9998980 -0.0001903 0.9998980 -0.0001903 0.0001020 0.0001903
12196030 0.0001049 0.0002222 0.9998951 -0.0002222 0.9998951 -0.0002222 0.0001049 0.0002222
12464184 0.0001079 0.0002546 0.9998921 -0.0002546 0.9998921 -0.0002546 0.0001079 0.0002546
12738235 0.0001112 0.0002874 0.9998888 -0.0002874 0.9998888 -0.0002874 0.0001112 0.0002874
13018310 0.0001147 0.0003207 0.9998853 -0.0003207 0.9998853 -0.0003207 0.0001147 0.0003207
13304544 0.0001185 0.0003546 0.9998815 -0.0003546 0.9998815 -0.0003546 0.0001185 0.0003546
13597071 0.0001226 0.0003892 0.9998774 -0.0003892 0.9998774 -0.0003892 0.0001226 0.0003892
13896030 0.0001271 0.0004245 0.9998729 -0.0004245 0.9998729 -0.0004245 0.0001271 0.0004245
14201563 0.0001321 0.0004607 0.9998679 -0.0004607 0.9998679 -0.0004607 0.0001321 0.0004607
14513813 0.0001376 0.0004979 0.9998624 -0.0004979 0.9998624 -0.0004979 0.0001376 0.0004979
14832928 0.0001437 0.0005363 0.9998563 -0.0005363 0.9998563 -0.0005363 0.0001437 0.0005363
15159060 0.0001507 0.0005760 0.9998493 -0.0005760 0.9998493 -0.0005760 0.0001507 0.0005760
15492362 0.0001586 0.0006173 0.9998414 -0.0006173 0.9998414 -0.0006173 0.0001586 0.0006173
15832993 0.0001679 0.0006605 0.9998321 -0.0006605 0.9998321 -0.0006605 0.0001679 0.0006605
16181113 0.0001788 0.0007060 0.9998212 -0.0007060 0.9998212 -0.0007060 0.0001788 0.0007060
16536888 0.0001921 0.0007542 0.9998079 -0.0007542 0.9998079 -0.0007542 0.0001921 0.0007542
16900485 0.0002085 0.0008057 0.9997915 -0.0008057 0.9997915 -0.0008057 0.0002085 0.0008057
17272076 0.0002295 0.0008611 0.9997705 -0.0008611 0.9997705 -0.0008611 0.0002295 0.0008611
17651837 0.0002571 0.0009211 0.9997429 -0.0009211 0.9997429 -0.0009211 0.0002571 0.0009211
18039948 0.0002949 0.0009863 0.9997051 -0.0009863 0.9997051 -0.0009863 0.0002949 0.0009863
18436593 0.0003488 0.0010564 0.9996512 -0.0010564 0.9996512 -0.0010564 0.0003488 0.0010564
18841959 0.0004284 0.0011281 0.9995716 -0.0011281 0.9995716 -0.0011281 0.0004284 0.0011281
19256237 0.0005481 0.0011887 0.9994519 -0.0011887 0.9994519 -0.0011887 0.0005481 0.0011887
19679624 0.0007204 0.0012032 0.9992796 -0.0012032 0.9992796 -0.0012032 0.0007204 0.0012032
20112321 0.0009162 0.0011040 0.9990838 -0.0011040 0.9990838 -0.0011040 0.0009162 0.0011040
20554530 0.0010083 0.0008693 0.9989917 -0.0008693 0.9989917 -0.0008693 0.0010083 0.0008693
21006463 0.0009056 0.0006506 0.9990944 -0.0006506 0.9990944 -0.0006506 0.0009056 0.0006506
21468333 0.0007228 0.0005768 0.9992772 -0.0005768 0.9992772 -0.0005768 0.0007228 0.0005768
21940357 0.0005742 0.0006085 0.9994258 -0.0006085 0.9994258 -0.0006085 0.0005742 0.0006085
22422760 0.0004783 0.0006817 0.9995217 -0.0006817 0.9995217 -0.0006817 0.0004783 0.0006817
22915770 0.0004216 0.0007658 0.9995784 -0.0007658 0.9995784 -0.0007658 0.0004216 0.0007658
23419619 0.0003908 0.0008508 0.9996092 -0.0008508 0.9996092 -0.0008508 0.0003908 0.0008508
23934547 0.0003777 0.0009343 0.9996223 -0.0009343 0.9996223 -0.0009343 0.0003777 0.0009343
24460796 0.0003779 0.0010168 0.9996221 -0.0010168 0.9996221 -0.0010168 0.0003779 0.0010168
24998616 0.0003899 0.0010995 0.9996101 -0.0010995 0.9996101 -0.0010995 0.0003899 0.0010995
25548261 0.0004143 0.0011836 0.9995857 -0.0011836 0.9995857 -0.0011836 0.0004143 0.0011836
26109991 0.0004543 0.0012698 0.9995457 -0.0012698 0.9995457 -0.0012698 0.0004543 0.0012698
26684072 0.0005157 0.0013572 0.9994843 -0.0013572 0.9994843 -0.0013572 0.0005157 0.0013572
27270775 0.0006087 0.0014406 0.9993913 -0.0014406 0.9993913 -0.0014406 0.0006087 0.0014406
27870378 0.0007467 0.0015035 0.9992533 -0.0015035 0.9992533 -0.0015035 0.0007467 0.0015035
28483164 0.0009353 0.0015053 0.9990647 -0.0015053 0.9990647 -0.0015053 0.0009353 0.0015053
29109424 0.0011313 0.0013831 0.9988687 -0.0013831 0.9988687 -0.0013831 0.0011313 0.0013831
29749453 0.0012087 0.0011365 0.9987913 -0.0011365 0.9987913 -0.0011365 0.0012087 0.0011365
30403555 0.0010980 0.0009144 0.9989020 -0.0009144 0.9989020 -0.0009144 0.0010980 0.0009144
31072038 0.0009072 0.0008315 0.9990928 -0.0008315 0.9990928 -0.0008315 0.0009072 0.0008315
31755220 0.0007440 0.0008560 0.9992560 -0.0008560 0.9992560 -0.0008560 0.0007440 0.0008560
32453422 0.0006326 0.0009274 0.9993674 -0.0009274 0.9993674 -0.0009274 0.0006326 0.0009274
33166976 0.0005627 0.0010126 0.9994373 -0.0010126 0.9994373 -0.0010126 0.0005627 0.0010126
33896219 0.0005212 0.0010989 0.9994788 -0.0010989 0.9994788 -0.0010989 0.0005212 0.0010989
34641496 0.0004992 0.0011823 0.9995008 -0.0011823 0.9995008 -0.0011823 0.0004992 0.0011823
35403159 0.0004914 0.0012617 0.9995086 -0.0012617 0.9995086 -0.0012617 0.0004914 0.0012617
36181569 0.0004954 0.0013369 0.9995046 -0.0013369 0.9995046 -0.0013369 0.0004954 0.0013369
36977093 0.0005099 0.0014071 0.9994901 -0.0014071 0.9994901 -0.0014071 0.0005099 0.0014071
37790109 0.0005346 0.0014699 0.9994654 -0.0014699 0.9994654 -0.0014699 0.0005346 0.0014699
38621001 0.0005680 0.0015210 0.9994320 -0.0015210 0.9994320 -0.0015210 0.0005680 0.0015210
39470161 0.0006039 0.0015550 0.9993961 -0.0015550 0.9993961 -0.0015550 0.0006039 0.0015550
40337993 0.0006306 0.0015713 0.9993694 -0.0015713 0.9993694 -0.0015713 0.0006306 0.0015713
41224905 0.0006367 0.0015807 0.9993633 -0.0015807 0.9993633 -0.0015807 0.0006367 0.0015807
42131317 0.0006242 0.0016002 0.9993758 -0.0016002 0.9993758 -0.0016002 0.0006242 0.0016002
43057659 0.0006059 0.0016374 0.9993941 -0.0016374 0.9993941 -0.0016374 0.0006059 0.0016374
44004369 0.0005930 0.0016895 0.9994070 -0.0016895 0.9994070 -0.0016895 0.0005930 0.0016895
44971893 0.0005904 0.0017503 0.9994096 -0.0017503 0.9994096 -0.0017503 0.0005904 0.0017503
45960691 0.0005995 0.0018148 0.9994005 -0.0018148 0.9994005 -0.0018148 0.0005995 0.0018148
46971230 0.0006208 0.0018788 0.9993792 -0.0018788 0.9993792 -0.0018788 0.0006208 0.0018788
48003987 0.0006551 0.0019379 0.9993449 -0.0019379 0.9993449 -0.0019379 0.0006551 0.0019379
49059451 0.0007020 0.0019857 0.9992980 -0.0019857 0.9992980 -0.0019857 0.0007020 0.0019857
50138122 0.0007571 0.0020130 0.9992429 -0.0020130 0.9992429 -0.0020130 0.0007571 0.0020130
51240510 0.0008074 0.0020121 0.9991926 -0.0020121 0.9991926 -0.0020121 0.0008074 0.0020121
52367136 0.0008320 0.0019875 0.9991680 -0.0019875 0.9991680 -0.0019875 0.0008320 0.0019875
53518533 0.0008188 0.0019614 0.9991812 -0.0019614 0.9991812 -0.0019614 0.0008188 0.0019614
54695245 0.0007776 0.0019574 0.9992224 -0.0019574 0.9992224 -0.0019574 0.0007776 0.0019574
55897831 0.0007287 0.0019816 0.9992713 -0.0019816 0.9992713 -0.0019816 0.0007287 0.0019816
57126857 0.0006856 0.0020272 0.9993144 -0.0020272 0.9993144 -0.0020272 0.0006856 0.0020272
58382906 0.0006527 0.0020850 0.9993473 -0.0020850 0.9993473 -0.0020850 0.0006527 0.0020850
59666572 0.0006293 0.0021486 0.9993707 -0.0021486 0.9993707 -0.0021486 0.0006293 0.0021486
60978462 0.0006135 0.0022147 0.9993865 -0.0022147 0.9993865 -0.0022147 0.0006135 0.0022147
62319196 0.0006033 0.0022816 0.9993967 -0.0022816 0.9993967 -0.0022816 0.0006033 0.0022816
63689409 0.0005973 0.0023485 0.9994027 -0.0023485 0.9994027 -0.0023485 0.0005973 0.0023485
65089750 0.0005942 0.0024152 0.9994058 -0.0024152 0.9994058 -0.0024152 0.0005942 0.0024152
66520879 0.0005933 0.0024817 0.9994067 -0.0024817 0.9994067 -0.0024817 0.0005933 0.0024817
67983474 0.0005941 0.0025481 0.9994059 -0.0025481 0.9994059 -0.0025481 0.0005941 0.0025481
69478228 0.0005961 0.0026144 0.9994039 -0.0026144 0.9994039 -0.0026144 0.0005961 0.0026144
71005847 0.0005990 0.0026810 0.9994010 -0.0026810 0.9994010 -0.0026810 0.0005990 0.0026810
72567054 0.0006025 0.0027477 0.9993975 -0.0027477 0.9993975 -0.0027477 0.0006025 0.0027477
74162587 0.0006067 0.0028149 0.9993933 -0.0028149 0.9993933 -0.0028149 0.0006067 0.0028149
75793201 0.0006112 0.0028826 0.9993888 -0.0028826 0.9993888 -0.0028826 0.0006112 0.0028826
77459667 0.0006160 0.0029509 0.9993840 -0.0029509 0.9993840 -0.0029509 0.0006160 0.0029509
79162774 0.0006210 0.0030199 0.9993790 -0.0030199 0.9993790 -0.0030199 0.0006210 0.0030199
80903327 0.0006262 0.0030897 0.9993738 -0.0030897 0.9993738 -0.0030897 0.0006262 0.0030897
82682150 0.0006315 0.0031605 0.9993685 -0.0031605 0.9993685 -0.0031605 0.0006315 0.0031605
84500083 0.0006370 0.0032321 0.9993630 -0.0032321 0.9993630 -0.0032321 0.0006370 0.0032321
86357988 0.0006424 0.0033048 0.9993576 -0.0033048 0.9993576 -0.0033048 0.0006424 0.0033048
88256743 0.0006480 0.0033787 0.9993520 -0.0033787 0.9993520 -0.0033787 0.0006480 0.0033787
90197245 0.0006535 0.0034537 0.9993465 -0.0034537 0.9993465 -0.0034537 0.0006535 0.0034537
92180413 0.0006590 0.0035299 0.9993410 -0.0035299 0.9993410 -0.0035299 0.0006590 0.0035299
94207185 0.0006645 0.0036074 0.9993355 -0.0036074 0.9993355 -0.0036074 0.0006645 0.0036074
96278520 0.0006700 0.0036863 0.9993300 -0.0036863 0.9993300 -0.0036863 0.0006700 0.0036863
98395398 0.0006755 0.0037667 0.9993245 -0.0037667 0.9993245 -0.0037667 0.0006755 0.0037667
100558819 0.0006809 0.0038485 0.9993191 -0.0038485 0.9993191 -0.0038485 0.0006809 0.0038485
102769807 0.0006863 0.0039318 0.9993137 -0.0039318 0.9993137 -0.0039318 0.0006863 0.0039318
105029408 0.0006916 0.0040168 0.9993084 -0.0040168 0.9993084 -0.0040168 0.0006916 0.0040168
107338692 0.0006969 0.0041034 0.9993031 -0.0041034 0.9993031 -0.0041034 0.0006969 0.0041034
