!Murata Part Number: GRM31A7U2J560JW31
!These Parameters are Measured in Series Mode Connection
!Data Generated on Mar 30, 2021
!       o--ll--o
!Port1            Port2
!       o------o
!Operation Temp=25[degC], DC Bias Voltage=0[V]
!Freq. Start=100[MHz] Stop=3[GHz] 401[Steps]
# Hz S RI R 50
!Freq.(Hz) S11(Real) S11(Imag) S21(Real) S21(Imag) S12(Real) S12(Imag) S22(Real) S22(Imag)
100000000 0.0735968 -0.2584428 0.9264032 0.2584428 0.9264032 0.2584428 0.0735968 -0.2584428
107250000 0.0644696 -0.2427162 0.9355304 0.2427162 0.9355304 0.2427162 0.0644696 -0.2427162
114500000 0.0568873 -0.2285534 0.9431127 0.2285534 0.9431127 0.2285534 0.0568873 -0.2285534
121750000 0.0505263 -0.2157508 0.9494737 0.2157508 0.9494737 0.2157508 0.0505263 -0.2157508
129000000 0.0451421 -0.2041327 0.9548579 0.2041327 0.9548579 0.2041327 0.0451421 -0.2041327
136250000 0.0405475 -0.1935490 0.9594525 0.1935490 0.9594525 0.1935490 0.0405475 -0.1935490
143500000 0.0365976 -0.1838719 0.9634024 0.1838719 0.9634024 0.1838719 0.0365976 -0.1838719
150750000 0.0331787 -0.1749917 0.9668213 0.1749917 0.9668213 0.1749917 0.0331787 -0.1749917
158000000 0.0302010 -0.1668150 0.9697990 0.1668150 0.9697990 0.1668150 0.0302010 -0.1668150
165250000 0.0275926 -0.1592615 0.9724074 0.1592615 0.9724074 0.1592615 0.0275926 -0.1592615
172500000 0.0252956 -0.1522622 0.9747044 0.1522622 0.9747044 0.1522622 0.0252956 -0.1522622
179750000 0.0232630 -0.1457574 0.9767370 0.1457574 0.9767370 0.1457574 0.0232630 -0.1457574
187000000 0.0214561 -0.1396955 0.9785439 0.1396955 0.9785439 0.1396955 0.0214561 -0.1396955
194250000 0.0198433 -0.1340316 0.9801567 0.1340316 0.9801567 0.1340316 0.0198433 -0.1340316
201500000 0.0183979 -0.1287263 0.9816021 0.1287263 0.9816021 0.1287263 0.0183979 -0.1287263
208750000 0.0170981 -0.1237453 0.9829019 0.1237453 0.9829019 0.1237453 0.0170981 -0.1237453
216000000 0.0159250 -0.1190584 0.9840750 0.1190584 0.9840750 0.1190584 0.0159250 -0.1190584
223250000 0.0148631 -0.1146390 0.9851369 0.1146390 0.9851369 0.1146390 0.0148631 -0.1146390
230500000 0.0138989 -0.1104633 0.9861011 0.1104633 0.9861011 0.1104633 0.0138989 -0.1104633
237750000 0.0130211 -0.1065106 0.9869789 0.1065106 0.9869789 0.1065106 0.0130211 -0.1065106
245000000 0.0122198 -0.1027620 0.9877802 0.1027620 0.9877802 0.1027620 0.0122198 -0.1027620
252250000 0.0114866 -0.0992010 0.9885134 0.0992010 0.9885134 0.0992010 0.0114866 -0.0992010
259500000 0.0108142 -0.0958127 0.9891858 0.0958127 0.9891858 0.0958127 0.0108142 -0.0958127
266750000 0.0101962 -0.0925835 0.9898038 0.0925835 0.9898038 0.0925835 0.0101962 -0.0925835
274000000 0.0096270 -0.0895014 0.9903730 0.0895014 0.9903730 0.0895014 0.0096270 -0.0895014
281250000 0.0091019 -0.0865556 0.9908981 0.0865556 0.9908981 0.0865556 0.0091019 -0.0865556
288500000 0.0086165 -0.0837361 0.9913835 0.0837361 0.9913835 0.0837361 0.0086165 -0.0837361
295750000 0.0081671 -0.0810341 0.9918329 0.0810341 0.9918329 0.0810341 0.0081671 -0.0810341
303000000 0.0077504 -0.0784414 0.9922496 0.0784414 0.9922496 0.0784414 0.0077504 -0.0784414
310250000 0.0073634 -0.0759505 0.9926366 0.0759505 0.9926366 0.0759505 0.0073634 -0.0759505
317500000 0.0070035 -0.0735548 0.9929965 0.0735548 0.9929965 0.0735548 0.0070035 -0.0735548
324750000 0.0066684 -0.0712480 0.9933316 0.0712480 0.9933316 0.0712480 0.0066684 -0.0712480
332000000 0.0063560 -0.0690245 0.9936440 0.0690245 0.9936440 0.0690245 0.0063560 -0.0690245
339250000 0.0060643 -0.0668791 0.9939357 0.0668791 0.9939357 0.0668791 0.0060643 -0.0668791
346500000 0.0057919 -0.0648071 0.9942081 0.0648071 0.9942081 0.0648071 0.0057919 -0.0648071
353750000 0.0055370 -0.0628039 0.9944630 0.0628039 0.9944630 0.0628039 0.0055370 -0.0628039
361000000 0.0052984 -0.0608656 0.9947016 0.0608656 0.9947016 0.0608656 0.0052984 -0.0608656
368250000 0.0050749 -0.0589884 0.9949251 0.0589884 0.9949251 0.0589884 0.0050749 -0.0589884
375500000 0.0048653 -0.0571688 0.9951347 0.0571688 0.9951347 0.0571688 0.0048653 -0.0571688
382750000 0.0046686 -0.0554037 0.9953314 0.0554037 0.9953314 0.0554037 0.0046686 -0.0554037
390000000 0.0044838 -0.0536900 0.9955162 0.0536900 0.9955162 0.0536900 0.0044838 -0.0536900
397250000 0.0043103 -0.0520250 0.9956897 0.0520250 0.9956897 0.0520250 0.0043103 -0.0520250
404500000 0.0041471 -0.0504061 0.9958529 0.0504061 0.9958529 0.0504061 0.0041471 -0.0504061
411750000 0.0039937 -0.0488309 0.9960063 0.0488309 0.9960063 0.0488309 0.0039937 -0.0488309
419000000 0.0038493 -0.0472972 0.9961507 0.0472972 0.9961507 0.0472972 0.0038493 -0.0472972
426250000 0.0037134 -0.0458028 0.9962866 0.0458028 0.9962866 0.0458028 0.0037134 -0.0458028
433500000 0.0035854 -0.0443458 0.9964146 0.0443458 0.9964146 0.0443458 0.0035854 -0.0443458
440750000 0.0034649 -0.0429244 0.9965351 0.0429244 0.9965351 0.0429244 0.0034649 -0.0429244
448000000 0.0033514 -0.0415370 0.9966486 0.0415370 0.9966486 0.0415370 0.0033514 -0.0415370
455250000 0.0032445 -0.0401817 0.9967555 0.0401817 0.9967555 0.0401817 0.0032445 -0.0401817
462500000 0.0031438 -0.0388573 0.9968562 0.0388573 0.9968562 0.0388573 0.0031438 -0.0388573
469750000 0.0030489 -0.0375622 0.9969511 0.0375622 0.9969511 0.0375622 0.0030489 -0.0375622
477000000 0.0029595 -0.0362951 0.9970405 0.0362951 0.9970405 0.0362951 0.0029595 -0.0362951
484250000 0.0028753 -0.0350548 0.9971247 0.0350548 0.9971247 0.0350548 0.0028753 -0.0350548
491500000 0.0027961 -0.0338400 0.9972039 0.0338400 0.9972039 0.0338400 0.0027961 -0.0338400
498750000 0.0027215 -0.0326497 0.9972785 0.0326497 0.9972785 0.0326497 0.0027215 -0.0326497
506000000 0.0026513 -0.0314829 0.9973487 0.0314829 0.9973487 0.0314829 0.0026513 -0.0314829
513250000 0.0025854 -0.0303384 0.9974146 0.0303384 0.9974146 0.0303384 0.0025854 -0.0303384
520500000 0.0025234 -0.0292155 0.9974766 0.0292155 0.9974766 0.0292155 0.0025234 -0.0292155
527750000 0.0024652 -0.0281131 0.9975348 0.0281131 0.9975348 0.0281131 0.0024652 -0.0281131
535000000 0.0024106 -0.0270305 0.9975894 0.0270305 0.9975894 0.0270305 0.0024106 -0.0270305
542250000 0.0023595 -0.0259668 0.9976405 0.0259668 0.9976405 0.0259668 0.0023595 -0.0259668
549500000 0.0023116 -0.0249214 0.9976884 0.0249214 0.9976884 0.0249214 0.0023116 -0.0249214
556750000 0.0022668 -0.0238934 0.9977332 0.0238934 0.9977332 0.0238934 0.0022668 -0.0238934
564000000 0.0022251 -0.0228822 0.9977749 0.0228822 0.9977749 0.0228822 0.0022251 -0.0228822
571250000 0.0021861 -0.0218872 0.9978139 0.0218872 0.9978139 0.0218872 0.0021861 -0.0218872
578500000 0.0021500 -0.0209077 0.9978500 0.0209077 0.9978500 0.0209077 0.0021500 -0.0209077
585750000 0.0021164 -0.0199432 0.9978836 0.0199432 0.9978836 0.0199432 0.0021164 -0.0199432
593000000 0.0020853 -0.0189931 0.9979147 0.0189931 0.9979147 0.0189931 0.0020853 -0.0189931
600250000 0.0020567 -0.0180568 0.9979433 0.0180568 0.9979433 0.0180568 0.0020567 -0.0180568
607500000 0.0020304 -0.0171339 0.9979696 0.0171339 0.9979696 0.0171339 0.0020304 -0.0171339
614750000 0.0020063 -0.0162239 0.9979937 0.0162239 0.9979937 0.0162239 0.0020063 -0.0162239
622000000 0.0019843 -0.0153263 0.9980157 0.0153263 0.9980157 0.0153263 0.0019843 -0.0153263
629250000 0.0019644 -0.0144406 0.9980356 0.0144406 0.9980356 0.0144406 0.0019644 -0.0144406
636500000 0.0019465 -0.0135666 0.9980535 0.0135666 0.9980535 0.0135666 0.0019465 -0.0135666
643750000 0.0019305 -0.0127036 0.9980695 0.0127036 0.9980695 0.0127036 0.0019305 -0.0127036
651000000 0.0019164 -0.0118515 0.9980836 0.0118515 0.9980836 0.0118515 0.0019164 -0.0118515
658250000 0.0019040 -0.0110097 0.9980960 0.0110097 0.9980960 0.0110097 0.0019040 -0.0110097
665500000 0.0018934 -0.0101780 0.9981066 0.0101780 0.9981066 0.0101780 0.0018934 -0.0101780
672750000 0.0018845 -0.0093560 0.9981155 0.0093560 0.9981155 0.0093560 0.0018845 -0.0093560
680000000 0.0018771 -0.0085434 0.9981229 0.0085434 0.9981229 0.0085434 0.0018771 -0.0085434
687250000 0.0018714 -0.0077399 0.9981286 0.0077399 0.9981286 0.0077399 0.0018714 -0.0077399
694500000 0.0018672 -0.0069452 0.9981328 0.0069452 0.9981328 0.0069452 0.0018672 -0.0069452
701750000 0.0018644 -0.0061590 0.9981356 0.0061590 0.9981356 0.0061590 0.0018644 -0.0061590
709000000 0.0018631 -0.0053809 0.9981369 0.0053809 0.9981369 0.0053809 0.0018631 -0.0053809
716250000 0.0018632 -0.0046109 0.9981368 0.0046109 0.9981368 0.0046109 0.0018632 -0.0046109
723500000 0.0018647 -0.0038485 0.9981353 0.0038485 0.9981353 0.0038485 0.0018647 -0.0038485
730750000 0.0018675 -0.0030937 0.9981325 0.0030937 0.9981325 0.0030937 0.0018675 -0.0030937
738000000 0.0018715 -0.0023460 0.9981285 0.0023460 0.9981285 0.0023460 0.0018715 -0.0023460
745250000 0.0018769 -0.0016053 0.9981231 0.0016053 0.9981231 0.0016053 0.0018769 -0.0016053
752500000 0.0018835 -0.0008715 0.9981165 0.0008715 0.9981165 0.0008715 0.0018835 -0.0008715
759750000 0.0018912 -0.0001442 0.9981088 0.0001442 0.9981088 0.0001442 0.0018912 -0.0001442
767000000 0.0019002 0.0005767 0.9980998 -0.0005767 0.9980998 -0.0005767 0.0019002 0.0005767
774250000 0.0019103 0.0012914 0.9980897 -0.0012914 0.9980897 -0.0012914 0.0019103 0.0012914
781500000 0.0019215 0.0020001 0.9980785 -0.0020001 0.9980785 -0.0020001 0.0019215 0.0020001
788750000 0.0019339 0.0027030 0.9980661 -0.0027030 0.9980661 -0.0027030 0.0019339 0.0027030
796000000 0.0019473 0.0034003 0.9980527 -0.0034003 0.9980527 -0.0034003 0.0019473 0.0034003
803250000 0.0019618 0.0040921 0.9980382 -0.0040921 0.9980382 -0.0040921 0.0019618 0.0040921
810500000 0.0019773 0.0047785 0.9980227 -0.0047785 0.9980227 -0.0047785 0.0019773 0.0047785
817750000 0.0019938 0.0054598 0.9980062 -0.0054598 0.9980062 -0.0054598 0.0019938 0.0054598
825000000 0.0020114 0.0061361 0.9979886 -0.0061361 0.9979886 -0.0061361 0.0020114 0.0061361
832250000 0.0020299 0.0068076 0.9979701 -0.0068076 0.9979701 -0.0068076 0.0020299 0.0068076
839500000 0.0020495 0.0074743 0.9979505 -0.0074743 0.9979505 -0.0074743 0.0020495 0.0074743
846750000 0.0020699 0.0081365 0.9979301 -0.0081365 0.9979301 -0.0081365 0.0020699 0.0081365
854000000 0.0020914 0.0087942 0.9979086 -0.0087942 0.9979086 -0.0087942 0.0020914 0.0087942
861250000 0.0021137 0.0094475 0.9978863 -0.0094475 0.9978863 -0.0094475 0.0021137 0.0094475
868500000 0.0021370 0.0100967 0.9978630 -0.0100967 0.9978630 -0.0100967 0.0021370 0.0100967
875750000 0.0021612 0.0107418 0.9978388 -0.0107418 0.9978388 -0.0107418 0.0021612 0.0107418
883000000 0.0021863 0.0113830 0.9978137 -0.0113830 0.9978137 -0.0113830 0.0021863 0.0113830
890250000 0.0022123 0.0120203 0.9977877 -0.0120203 0.9977877 -0.0120203 0.0022123 0.0120203
897500000 0.0022392 0.0126539 0.9977608 -0.0126539 0.9977608 -0.0126539 0.0022392 0.0126539
904750000 0.0022669 0.0132838 0.9977331 -0.0132838 0.9977331 -0.0132838 0.0022669 0.0132838
912000000 0.0022955 0.0139102 0.9977045 -0.0139102 0.9977045 -0.0139102 0.0022955 0.0139102
919250000 0.0023249 0.0145332 0.9976751 -0.0145332 0.9976751 -0.0145332 0.0023249 0.0145332
926500000 0.0023552 0.0151529 0.9976448 -0.0151529 0.9976448 -0.0151529 0.0023552 0.0151529
933750000 0.0023864 0.0157693 0.9976136 -0.0157693 0.9976136 -0.0157693 0.0023864 0.0157693
941000000 0.0024184 0.0163826 0.9975816 -0.0163826 0.9975816 -0.0163826 0.0024184 0.0163826
948250000 0.0024512 0.0169929 0.9975488 -0.0169929 0.9975488 -0.0169929 0.0024512 0.0169929
955500000 0.0024848 0.0176002 0.9975152 -0.0176002 0.9975152 -0.0176002 0.0024848 0.0176002
962750000 0.0025193 0.0182046 0.9974807 -0.0182046 0.9974807 -0.0182046 0.0025193 0.0182046
970000000 0.0025546 0.0188062 0.9974454 -0.0188062 0.9974454 -0.0188062 0.0025546 0.0188062
977250000 0.0025907 0.0194051 0.9974093 -0.0194051 0.9974093 -0.0194051 0.0025907 0.0194051
984500000 0.0026276 0.0200013 0.9973724 -0.0200013 0.9973724 -0.0200013 0.0026276 0.0200013
991750000 0.0026653 0.0205950 0.9973347 -0.0205950 0.9973347 -0.0205950 0.0026653 0.0205950
999000000 0.0027038 0.0211862 0.9972962 -0.0211862 0.9972962 -0.0211862 0.0027038 0.0211862
1006250000 0.0027431 0.0217750 0.9972569 -0.0217750 0.9972569 -0.0217750 0.0027431 0.0217750
1013500000 0.0027832 0.0223615 0.9972168 -0.0223615 0.9972168 -0.0223615 0.0027832 0.0223615
1020750000 0.0028242 0.0229457 0.9971758 -0.0229457 0.9971758 -0.0229457 0.0028242 0.0229457
1028000000 0.0028659 0.0235276 0.9971341 -0.0235276 0.9971341 -0.0235276 0.0028659 0.0235276
1035250000 0.0029084 0.0241075 0.9970916 -0.0241075 0.9970916 -0.0241075 0.0029084 0.0241075
1042500000 0.0029517 0.0246852 0.9970483 -0.0246852 0.9970483 -0.0246852 0.0029517 0.0246852
1049750000 0.0029958 0.0252609 0.9970042 -0.0252609 0.9970042 -0.0252609 0.0029958 0.0252609
1057000000 0.0030408 0.0258347 0.9969592 -0.0258347 0.9969592 -0.0258347 0.0030408 0.0258347
1064250000 0.0030865 0.0264066 0.9969135 -0.0264066 0.9969135 -0.0264066 0.0030865 0.0264066
1071500000 0.0031330 0.0269767 0.9968670 -0.0269767 0.9968670 -0.0269767 0.0031330 0.0269767
1078750000 0.0031804 0.0275449 0.9968196 -0.0275449 0.9968196 -0.0275449 0.0031804 0.0275449
1086000000 0.0032285 0.0281115 0.9967715 -0.0281115 0.9967715 -0.0281115 0.0032285 0.0281115
1093250000 0.0032775 0.0286763 0.9967225 -0.0286763 0.9967225 -0.0286763 0.0032775 0.0286763
1100500000 0.0033273 0.0292396 0.9966727 -0.0292396 0.9966727 -0.0292396 0.0033273 0.0292396
1107750000 0.0033778 0.0298013 0.9966222 -0.0298013 0.9966222 -0.0298013 0.0033778 0.0298013
1115000000 0.0034293 0.0303615 0.9965707 -0.0303615 0.9965707 -0.0303615 0.0034293 0.0303615
1122250000 0.0034815 0.0309202 0.9965185 -0.0309202 0.9965185 -0.0309202 0.0034815 0.0309202
1129500000 0.0035346 0.0314775 0.9964654 -0.0314775 0.9964654 -0.0314775 0.0035346 0.0314775
1136750000 0.0035885 0.0320335 0.9964115 -0.0320335 0.9964115 -0.0320335 0.0035885 0.0320335
1144000000 0.0036432 0.0325881 0.9963568 -0.0325881 0.9963568 -0.0325881 0.0036432 0.0325881
1151250000 0.0036988 0.0331415 0.9963012 -0.0331415 0.9963012 -0.0331415 0.0036988 0.0331415
1158500000 0.0037552 0.0336936 0.9962448 -0.0336936 0.9962448 -0.0336936 0.0037552 0.0336936
1165750000 0.0038125 0.0342446 0.9961875 -0.0342446 0.9961875 -0.0342446 0.0038125 0.0342446
1173000000 0.0038707 0.0347944 0.9961293 -0.0347944 0.9961293 -0.0347944 0.0038707 0.0347944
1180250000 0.0039297 0.0353432 0.9960703 -0.0353432 0.9960703 -0.0353432 0.0039297 0.0353432
1187500000 0.0039896 0.0358909 0.9960104 -0.0358909 0.9960104 -0.0358909 0.0039896 0.0358909
1194750000 0.0040504 0.0364375 0.9959496 -0.0364375 0.9959496 -0.0364375 0.0040504 0.0364375
1202000000 0.0041121 0.0369833 0.9958879 -0.0369833 0.9958879 -0.0369833 0.0041121 0.0369833
1209250000 0.0041747 0.0375281 0.9958253 -0.0375281 0.9958253 -0.0375281 0.0041747 0.0375281
1216500000 0.0042382 0.0380720 0.9957618 -0.0380720 0.9957618 -0.0380720 0.0042382 0.0380720
1223750000 0.0043027 0.0386151 0.9956973 -0.0386151 0.9956973 -0.0386151 0.0043027 0.0386151
1231000000 0.0043680 0.0391573 0.9956320 -0.0391573 0.9956320 -0.0391573 0.0043680 0.0391573
1238250000 0.0044344 0.0396988 0.9955656 -0.0396988 0.9955656 -0.0396988 0.0044344 0.0396988
1245500000 0.0045016 0.0402396 0.9954984 -0.0402396 0.9954984 -0.0402396 0.0045016 0.0402396
1252750000 0.0045699 0.0407797 0.9954301 -0.0407797 0.9954301 -0.0407797 0.0045699 0.0407797
1260000000 0.0046391 0.0413191 0.9953609 -0.0413191 0.9953609 -0.0413191 0.0046391 0.0413191
1267250000 0.0047093 0.0418579 0.9952907 -0.0418579 0.9952907 -0.0418579 0.0047093 0.0418579
1274500000 0.0047805 0.0423962 0.9952195 -0.0423962 0.9952195 -0.0423962 0.0047805 0.0423962
1281750000 0.0048527 0.0429338 0.9951473 -0.0429338 0.9951473 -0.0429338 0.0048527 0.0429338
1289000000 0.0049260 0.0434710 0.9950740 -0.0434710 0.9950740 -0.0434710 0.0049260 0.0434710
1296250000 0.0050003 0.0440077 0.9949997 -0.0440077 0.9949997 -0.0440077 0.0050003 0.0440077
1303500000 0.0050757 0.0445440 0.9949243 -0.0445440 0.9949243 -0.0445440 0.0050757 0.0445440
1310750000 0.0051521 0.0450798 0.9948479 -0.0450798 0.9948479 -0.0450798 0.0051521 0.0450798
1318000000 0.0052297 0.0456153 0.9947703 -0.0456153 0.9947703 -0.0456153 0.0052297 0.0456153
1325250000 0.0053083 0.0461504 0.9946917 -0.0461504 0.9946917 -0.0461504 0.0053083 0.0461504
1332500000 0.0053881 0.0466852 0.9946119 -0.0466852 0.9946119 -0.0466852 0.0053881 0.0466852
1339750000 0.0054691 0.0472197 0.9945309 -0.0472197 0.9945309 -0.0472197 0.0054691 0.0472197
1347000000 0.0055512 0.0477540 0.9944488 -0.0477540 0.9944488 -0.0477540 0.0055512 0.0477540
1354250000 0.0056345 0.0482881 0.9943655 -0.0482881 0.9943655 -0.0482881 0.0056345 0.0482881
1361500000 0.0057190 0.0488220 0.9942810 -0.0488220 0.9942810 -0.0488220 0.0057190 0.0488220
1368750000 0.0058048 0.0493557 0.9941952 -0.0493557 0.9941952 -0.0493557 0.0058048 0.0493557
1376000000 0.0058918 0.0498893 0.9941082 -0.0498893 0.9941082 -0.0498893 0.0058918 0.0498893
1383250000 0.0059801 0.0504229 0.9940199 -0.0504229 0.9940199 -0.0504229 0.0059801 0.0504229
1390500000 0.0060697 0.0509563 0.9939303 -0.0509563 0.9939303 -0.0509563 0.0060697 0.0509563
1397750000 0.0061606 0.0514898 0.9938394 -0.0514898 0.9938394 -0.0514898 0.0061606 0.0514898
1405000000 0.0062529 0.0520232 0.9937471 -0.0520232 0.9937471 -0.0520232 0.0062529 0.0520232
1412250000 0.0063466 0.0525567 0.9936534 -0.0525567 0.9936534 -0.0525567 0.0063466 0.0525567
1419500000 0.0064417 0.0530902 0.9935583 -0.0530902 0.9935583 -0.0530902 0.0064417 0.0530902
1426750000 0.0065383 0.0536238 0.9934617 -0.0536238 0.9934617 -0.0536238 0.0065383 0.0536238
1434000000 0.0066363 0.0541575 0.9933637 -0.0541575 0.9933637 -0.0541575 0.0066363 0.0541575
1441250000 0.0067359 0.0546913 0.9932641 -0.0546913 0.9932641 -0.0546913 0.0067359 0.0546913
1448500000 0.0068370 0.0552254 0.9931630 -0.0552254 0.9931630 -0.0552254 0.0068370 0.0552254
1455750000 0.0069396 0.0557596 0.9930604 -0.0557596 0.9930604 -0.0557596 0.0069396 0.0557596
1463000000 0.0070439 0.0562940 0.9929561 -0.0562940 0.9929561 -0.0562940 0.0070439 0.0562940
1470250000 0.0071499 0.0568287 0.9928501 -0.0568287 0.9928501 -0.0568287 0.0071499 0.0568287
1477500000 0.0072575 0.0573637 0.9927425 -0.0573637 0.9927425 -0.0573637 0.0072575 0.0573637
1484750000 0.0073669 0.0578990 0.9926331 -0.0578990 0.9926331 -0.0578990 0.0073669 0.0578990
1492000000 0.0074781 0.0584346 0.9925219 -0.0584346 0.9925219 -0.0584346 0.0074781 0.0584346
1499250000 0.0075911 0.0589705 0.9924089 -0.0589705 0.9924089 -0.0589705 0.0075911 0.0589705
1506500000 0.0077060 0.0595068 0.9922940 -0.0595068 0.9922940 -0.0595068 0.0077060 0.0595068
1513750000 0.0078228 0.0600436 0.9921772 -0.0600436 0.9921772 -0.0600436 0.0078228 0.0600436
1521000000 0.0079416 0.0605807 0.9920584 -0.0605807 0.9920584 -0.0605807 0.0079416 0.0605807
1528250000 0.0080624 0.0611183 0.9919376 -0.0611183 0.9919376 -0.0611183 0.0080624 0.0611183
1535500000 0.0081853 0.0616563 0.9918147 -0.0616563 0.9918147 -0.0616563 0.0081853 0.0616563
1542750000 0.0083104 0.0621949 0.9916896 -0.0621949 0.9916896 -0.0621949 0.0083104 0.0621949
1550000000 0.0084377 0.0627339 0.9915623 -0.0627339 0.9915623 -0.0627339 0.0084377 0.0627339
1557250000 0.0085672 0.0632735 0.9914328 -0.0632735 0.9914328 -0.0632735 0.0085672 0.0632735
1564500000 0.0086991 0.0638136 0.9913009 -0.0638136 0.9913009 -0.0638136 0.0086991 0.0638136
1571750000 0.0088334 0.0643542 0.9911666 -0.0643542 0.9911666 -0.0643542 0.0088334 0.0643542
1579000000 0.0089701 0.0648955 0.9910299 -0.0648955 0.9910299 -0.0648955 0.0089701 0.0648955
1586250000 0.0091095 0.0654373 0.9908905 -0.0654373 0.9908905 -0.0654373 0.0091095 0.0654373
1593500000 0.0092514 0.0659797 0.9907486 -0.0659797 0.9907486 -0.0659797 0.0092514 0.0659797
1600750000 0.0093961 0.0665227 0.9906039 -0.0665227 0.9906039 -0.0665227 0.0093961 0.0665227
1608000000 0.0095436 0.0670664 0.9904564 -0.0670664 0.9904564 -0.0670664 0.0095436 0.0670664
1615250000 0.0096940 0.0676106 0.9903060 -0.0676106 0.9903060 -0.0676106 0.0096940 0.0676106
1622500000 0.0098474 0.0681555 0.9901526 -0.0681555 0.9901526 -0.0681555 0.0098474 0.0681555
1629750000 0.0100038 0.0687010 0.9899962 -0.0687010 0.9899962 -0.0687010 0.0100038 0.0687010
