!Murata Part Number: GRM31A7U3A181JW31
!These Parameters are Measured in Series Mode Connection
!Data Generated on Mar 30, 2021
!       o--ll--o
!Port1            Port2
!       o------o
!Operation Temp=25[degC], DC Bias Voltage=0[V]
!Freq. Start=100[MHz] Stop=3[GHz] 401[Steps]
# Hz S RI R 50
!Freq.(Hz) S11(Real) S11(Imag) S21(Real) S21(Imag) S12(Real) S12(Imag) S22(Real) S22(Imag)
100000000 0.0078701 -0.0826569 0.9921299 0.0826569 0.9921299 0.0826569 0.0078701 -0.0826569
107250000 0.0068707 -0.0764478 0.9931293 0.0764478 0.9931293 0.0764478 0.0068707 -0.0764478
114500000 0.0060550 -0.0709646 0.9939450 0.0709646 0.9939450 0.0709646 0.0060550 -0.0709646
121750000 0.0053812 -0.0660807 0.9946188 0.0660807 0.9946188 0.0660807 0.0053812 -0.0660807
129000000 0.0048186 -0.0616970 0.9951814 0.0616970 0.9951814 0.0616970 0.0048186 -0.0616970
136250000 0.0043444 -0.0577351 0.9956556 0.0577351 0.9956556 0.0577351 0.0043444 -0.0577351
143500000 0.0039415 -0.0541321 0.9960585 0.0541321 0.9960585 0.0541321 0.0039415 -0.0541321
150750000 0.0035966 -0.0508371 0.9964034 0.0508371 0.9964034 0.0508371 0.0035966 -0.0508371
158000000 0.0032994 -0.0478081 0.9967006 0.0478081 0.9967006 0.0478081 0.0032994 -0.0478081
165250000 0.0030419 -0.0450106 0.9969581 0.0450106 0.9969581 0.0450106 0.0030419 -0.0450106
172500000 0.0028177 -0.0424156 0.9971823 0.0424156 0.9971823 0.0424156 0.0028177 -0.0424156
179750000 0.0026215 -0.0399990 0.9973785 0.0399990 0.9973785 0.0399990 0.0026215 -0.0399990
187000000 0.0024493 -0.0377400 0.9975507 0.0377400 0.9975507 0.0377400 0.0024493 -0.0377400
194250000 0.0022975 -0.0356212 0.9977025 0.0356212 0.9977025 0.0356212 0.0022975 -0.0356212
201500000 0.0021634 -0.0336276 0.9978366 0.0336276 0.9978366 0.0336276 0.0021634 -0.0336276
208750000 0.0020446 -0.0317462 0.9979554 0.0317462 0.9979554 0.0317462 0.0020446 -0.0317462
216000000 0.0019392 -0.0299657 0.9980608 0.0299657 0.9980608 0.0299657 0.0019392 -0.0299657
223250000 0.0018455 -0.0282764 0.9981545 0.0282764 0.9981545 0.0282764 0.0018455 -0.0282764
230500000 0.0017621 -0.0266696 0.9982379 0.0266696 0.9982379 0.0266696 0.0017621 -0.0266696
237750000 0.0016879 -0.0251379 0.9983121 0.0251379 0.9983121 0.0251379 0.0016879 -0.0251379
245000000 0.0016218 -0.0236745 0.9983782 0.0236745 0.9983782 0.0236745 0.0016218 -0.0236745
252250000 0.0015630 -0.0222737 0.9984370 0.0222737 0.9984370 0.0222737 0.0015630 -0.0222737
259500000 0.0015107 -0.0209300 0.9984893 0.0209300 0.9984893 0.0209300 0.0015107 -0.0209300
266750000 0.0014643 -0.0196390 0.9985357 0.0196390 0.9985357 0.0196390 0.0014643 -0.0196390
274000000 0.0014233 -0.0183963 0.9985767 0.0183963 0.9985767 0.0183963 0.0014233 -0.0183963
281250000 0.0013870 -0.0171983 0.9986130 0.0171983 0.9986130 0.0171983 0.0013870 -0.0171983
288500000 0.0013552 -0.0160415 0.9986448 0.0160415 0.9986448 0.0160415 0.0013552 -0.0160415
295750000 0.0013274 -0.0149228 0.9986726 0.0149228 0.9986726 0.0149228 0.0013274 -0.0149228
303000000 0.0013033 -0.0138397 0.9986967 0.0138397 0.9986967 0.0138397 0.0013033 -0.0138397
310250000 0.0012826 -0.0127894 0.9987174 0.0127894 0.9987174 0.0127894 0.0012826 -0.0127894
317500000 0.0012650 -0.0117698 0.9987350 0.0117698 0.9987350 0.0117698 0.0012650 -0.0117698
324750000 0.0012504 -0.0107788 0.9987496 0.0107788 0.9987496 0.0107788 0.0012504 -0.0107788
332000000 0.0012384 -0.0098144 0.9987616 0.0098144 0.9987616 0.0098144 0.0012384 -0.0098144
339250000 0.0012290 -0.0088750 0.9987710 0.0088750 0.9987710 0.0088750 0.0012290 -0.0088750
346500000 0.0012220 -0.0079589 0.9987780 0.0079589 0.9987780 0.0079589 0.0012220 -0.0079589
353750000 0.0012172 -0.0070647 0.9987828 0.0070647 0.9987828 0.0070647 0.0012172 -0.0070647
361000000 0.0012144 -0.0061910 0.9987856 0.0061910 0.9987856 0.0061910 0.0012144 -0.0061910
368250000 0.0012137 -0.0053366 0.9987863 0.0053366 0.9987863 0.0053366 0.0012137 -0.0053366
375500000 0.0012148 -0.0045004 0.9987852 0.0045004 0.9987852 0.0045004 0.0012148 -0.0045004
382750000 0.0012177 -0.0036812 0.9987823 0.0036812 0.9987823 0.0036812 0.0012177 -0.0036812
390000000 0.0012223 -0.0028781 0.9987777 0.0028781 0.9987777 0.0028781 0.0012223 -0.0028781
397250000 0.0012285 -0.0020902 0.9987715 0.0020902 0.9987715 0.0020902 0.0012285 -0.0020902
404500000 0.0012363 -0.0013166 0.9987637 0.0013166 0.9987637 0.0013166 0.0012363 -0.0013166
411750000 0.0012455 -0.0005566 0.9987545 0.0005566 0.9987545 0.0005566 0.0012455 -0.0005566
419000000 0.0012562 0.0001906 0.9987438 -0.0001906 0.9987438 -0.0001906 0.0012562 0.0001906
426250000 0.0012682 0.0009258 0.9987318 -0.0009258 0.9987318 -0.0009258 0.0012682 0.0009258
433500000 0.0012816 0.0016494 0.9987184 -0.0016494 0.9987184 -0.0016494 0.0012816 0.0016494
440750000 0.0012963 0.0023622 0.9987037 -0.0023622 0.9987037 -0.0023622 0.0012963 0.0023622
448000000 0.0013123 0.0030648 0.9986877 -0.0030648 0.9986877 -0.0030648 0.0013123 0.0030648
455250000 0.0013295 0.0037575 0.9986705 -0.0037575 0.9986705 -0.0037575 0.0013295 0.0037575
462500000 0.0013478 0.0044409 0.9986522 -0.0044409 0.9986522 -0.0044409 0.0013478 0.0044409
469750000 0.0013674 0.0051156 0.9986326 -0.0051156 0.9986326 -0.0051156 0.0013674 0.0051156
477000000 0.0013881 0.0057819 0.9986119 -0.0057819 0.9986119 -0.0057819 0.0013881 0.0057819
484250000 0.0014100 0.0064403 0.9985900 -0.0064403 0.9985900 -0.0064403 0.0014100 0.0064403
491500000 0.0014329 0.0070910 0.9985671 -0.0070910 0.9985671 -0.0070910 0.0014329 0.0070910
498750000 0.0014570 0.0077347 0.9985430 -0.0077347 0.9985430 -0.0077347 0.0014570 0.0077347
506000000 0.0014822 0.0083714 0.9985178 -0.0083714 0.9985178 -0.0083714 0.0014822 0.0083714
513250000 0.0015084 0.0090017 0.9984916 -0.0090017 0.9984916 -0.0090017 0.0015084 0.0090017
520500000 0.0015358 0.0096258 0.9984642 -0.0096258 0.9984642 -0.0096258 0.0015358 0.0096258
527750000 0.0015642 0.0102441 0.9984358 -0.0102441 0.9984358 -0.0102441 0.0015642 0.0102441
535000000 0.0015937 0.0108567 0.9984063 -0.0108567 0.9984063 -0.0108567 0.0015937 0.0108567
542250000 0.0016243 0.0114640 0.9983757 -0.0114640 0.9983757 -0.0114640 0.0016243 0.0114640
549500000 0.0016559 0.0120662 0.9983441 -0.0120662 0.9983441 -0.0120662 0.0016559 0.0120662
556750000 0.0016887 0.0126636 0.9983113 -0.0126636 0.9983113 -0.0126636 0.0016887 0.0126636
564000000 0.0017225 0.0132564 0.9982775 -0.0132564 0.9982775 -0.0132564 0.0017225 0.0132564
571250000 0.0017574 0.0138449 0.9982426 -0.0138449 0.9982426 -0.0138449 0.0017574 0.0138449
578500000 0.0017934 0.0144292 0.9982066 -0.0144292 0.9982066 -0.0144292 0.0017934 0.0144292
585750000 0.0018306 0.0150095 0.9981694 -0.0150095 0.9981694 -0.0150095 0.0018306 0.0150095
593000000 0.0018688 0.0155861 0.9981312 -0.0155861 0.9981312 -0.0155861 0.0018688 0.0155861
600250000 0.0019082 0.0161592 0.9980918 -0.0161592 0.9980918 -0.0161592 0.0019082 0.0161592
607500000 0.0019488 0.0167289 0.9980512 -0.0167289 0.9980512 -0.0167289 0.0019488 0.0167289
614750000 0.0019906 0.0172954 0.9980094 -0.0172954 0.9980094 -0.0172954 0.0019906 0.0172954
622000000 0.0020335 0.0178588 0.9979665 -0.0178588 0.9979665 -0.0178588 0.0020335 0.0178588
629250000 0.0020777 0.0184194 0.9979223 -0.0184194 0.9979223 -0.0184194 0.0020777 0.0184194
636500000 0.0021231 0.0189773 0.9978769 -0.0189773 0.9978769 -0.0189773 0.0021231 0.0189773
643750000 0.0021699 0.0195326 0.9978301 -0.0195326 0.9978301 -0.0195326 0.0021699 0.0195326
651000000 0.0022179 0.0200856 0.9977821 -0.0200856 0.9977821 -0.0200856 0.0022179 0.0200856
658250000 0.0022673 0.0206362 0.9977327 -0.0206362 0.9977327 -0.0206362 0.0022673 0.0206362
665500000 0.0023181 0.0211847 0.9976819 -0.0211847 0.9976819 -0.0211847 0.0023181 0.0211847
672750000 0.0023702 0.0217313 0.9976298 -0.0217313 0.9976298 -0.0217313 0.0023702 0.0217313
680000000 0.0024239 0.0222760 0.9975761 -0.0222760 0.9975761 -0.0222760 0.0024239 0.0222760
687250000 0.0024791 0.0228189 0.9975209 -0.0228189 0.9975209 -0.0228189 0.0024791 0.0228189
694500000 0.0025358 0.0233602 0.9974642 -0.0233602 0.9974642 -0.0233602 0.0025358 0.0233602
701750000 0.0025942 0.0239001 0.9974058 -0.0239001 0.9974058 -0.0239001 0.0025942 0.0239001
709000000 0.0026542 0.0244386 0.9973458 -0.0244386 0.9973458 -0.0244386 0.0026542 0.0244386
716250000 0.0027160 0.0249758 0.9972840 -0.0249758 0.9972840 -0.0249758 0.0027160 0.0249758
723500000 0.0027796 0.0255118 0.9972204 -0.0255118 0.9972204 -0.0255118 0.0027796 0.0255118
730750000 0.0028450 0.0260469 0.9971550 -0.0260469 0.9971550 -0.0260469 0.0028450 0.0260469
738000000 0.0029125 0.0265810 0.9970875 -0.0265810 0.9970875 -0.0265810 0.0029125 0.0265810
745250000 0.0029819 0.0271143 0.9970181 -0.0271143 0.9970181 -0.0271143 0.0029819 0.0271143
752500000 0.0030535 0.0276468 0.9969465 -0.0276468 0.9969465 -0.0276468 0.0030535 0.0276468
759750000 0.0031273 0.0281788 0.9968727 -0.0281788 0.9968727 -0.0281788 0.0031273 0.0281788
767000000 0.0032035 0.0287102 0.9967965 -0.0287102 0.9967965 -0.0287102 0.0032035 0.0287102
774250000 0.0032821 0.0292412 0.9967179 -0.0292412 0.9967179 -0.0292412 0.0032821 0.0292412
781500000 0.0033633 0.0297719 0.9966367 -0.0297719 0.9966367 -0.0297719 0.0033633 0.0297719
788750000 0.0034472 0.0303023 0.9965528 -0.0303023 0.9965528 -0.0303023 0.0034472 0.0303023
796000000 0.0035339 0.0308325 0.9964661 -0.0308325 0.9964661 -0.0308325 0.0035339 0.0308325
803250000 0.0036236 0.0313627 0.9963764 -0.0313627 0.9963764 -0.0313627 0.0036236 0.0313627
810500000 0.0037165 0.0318928 0.9962835 -0.0318928 0.9962835 -0.0318928 0.0037165 0.0318928
817750000 0.0038127 0.0324230 0.9961873 -0.0324230 0.9961873 -0.0324230 0.0038127 0.0324230
825000000 0.0039125 0.0329534 0.9960875 -0.0329534 0.9960875 -0.0329534 0.0039125 0.0329534
832250000 0.0040160 0.0334839 0.9959840 -0.0334839 0.9959840 -0.0334839 0.0040160 0.0334839
839500000 0.0041235 0.0340147 0.9958765 -0.0340147 0.9958765 -0.0340147 0.0041235 0.0340147
846750000 0.0042352 0.0345457 0.9957648 -0.0345457 0.9957648 -0.0345457 0.0042352 0.0345457
854000000 0.0043514 0.0350770 0.9956486 -0.0350770 0.9956486 -0.0350770 0.0043514 0.0350770
861250000 0.0044723 0.0356087 0.9955277 -0.0356087 0.9955277 -0.0356087 0.0044723 0.0356087
868500000 0.0045983 0.0361406 0.9954017 -0.0361406 0.9954017 -0.0361406 0.0045983 0.0361406
875750000 0.0047298 0.0366729 0.9952702 -0.0366729 0.9952702 -0.0366729 0.0047298 0.0366729
883000000 0.0048669 0.0372055 0.9951331 -0.0372055 0.9951331 -0.0372055 0.0048669 0.0372055
890250000 0.0050103 0.0377382 0.9949897 -0.0377382 0.9949897 -0.0377382 0.0050103 0.0377382
897500000 0.0051602 0.0382711 0.9948398 -0.0382711 0.9948398 -0.0382711 0.0051602 0.0382711
904750000 0.0053172 0.0388039 0.9946828 -0.0388039 0.9946828 -0.0388039 0.0053172 0.0388039
912000000 0.0054817 0.0393366 0.9945183 -0.0393366 0.9945183 -0.0393366 0.0054817 0.0393366
919250000 0.0056542 0.0398689 0.9943458 -0.0398689 0.9943458 -0.0398689 0.0056542 0.0398689
926500000 0.0058353 0.0404005 0.9941647 -0.0404005 0.9941647 -0.0404005 0.0058353 0.0404005
933750000 0.0060255 0.0409311 0.9939745 -0.0409311 0.9939745 -0.0409311 0.0060255 0.0409311
941000000 0.0062256 0.0414603 0.9937744 -0.0414603 0.9937744 -0.0414603 0.0062256 0.0414603
948250000 0.0064362 0.0419875 0.9935638 -0.0419875 0.9935638 -0.0419875 0.0064362 0.0419875
955500000 0.0066579 0.0425123 0.9933421 -0.0425123 0.9933421 -0.0425123 0.0066579 0.0425123
962750000 0.0068915 0.0430338 0.9931085 -0.0430338 0.9931085 -0.0430338 0.0068915 0.0430338
970000000 0.0071376 0.0435512 0.9928624 -0.0435512 0.9928624 -0.0435512 0.0071376 0.0435512
977250000 0.0073971 0.0440634 0.9926029 -0.0440634 0.9926029 -0.0440634 0.0073971 0.0440634
984500000 0.0076706 0.0445694 0.9923294 -0.0445694 0.9923294 -0.0445694 0.0076706 0.0445694
991750000 0.0079589 0.0450675 0.9920411 -0.0450675 0.9920411 -0.0450675 0.0079589 0.0450675
999000000 0.0082624 0.0455564 0.9917376 -0.0455564 0.9917376 -0.0455564 0.0082624 0.0455564
1006250000 0.0085817 0.0460340 0.9914183 -0.0460340 0.9914183 -0.0460340 0.0085817 0.0460340
1013500000 0.0089171 0.0464982 0.9910829 -0.0464982 0.9910829 -0.0464982 0.0089171 0.0464982
1020750000 0.0092688 0.0469467 0.9907312 -0.0469467 0.9907312 -0.0469467 0.0092688 0.0469467
1028000000 0.0096365 0.0473766 0.9903635 -0.0473766 0.9903635 -0.0473766 0.0096365 0.0473766
1035250000 0.0100197 0.0477852 0.9899803 -0.0477852 0.9899803 -0.0477852 0.0100197 0.0477852
1042500000 0.0104174 0.0481691 0.9895826 -0.0481691 0.9895826 -0.0481691 0.0104174 0.0481691
1049750000 0.0108280 0.0485249 0.9891720 -0.0485249 0.9891720 -0.0485249 0.0108280 0.0485249
1057000000 0.0112490 0.0488492 0.9887510 -0.0488492 0.9887510 -0.0488492 0.0112490 0.0488492
1064250000 0.0116775 0.0491386 0.9883225 -0.0491386 0.9883225 -0.0491386 0.0116775 0.0491386
1071500000 0.0121094 0.0493898 0.9878906 -0.0493898 0.9878906 -0.0493898 0.0121094 0.0493898
1078750000 0.0125399 0.0495999 0.9874601 -0.0495999 0.9874601 -0.0495999 0.0125399 0.0495999
1086000000 0.0129630 0.0497668 0.9870370 -0.0497668 0.9870370 -0.0497668 0.0129630 0.0497668
1093250000 0.0133720 0.0498894 0.9866280 -0.0498894 0.9866280 -0.0498894 0.0133720 0.0498894
1100500000 0.0137597 0.0499678 0.9862403 -0.0499678 0.9862403 -0.0499678 0.0137597 0.0499678
1107750000 0.0141181 0.0500036 0.9858819 -0.0500036 0.9858819 -0.0500036 0.0141181 0.0500036
1115000000 0.0144396 0.0500001 0.9855604 -0.0500001 0.9855604 -0.0500001 0.0144396 0.0500001
1122250000 0.0147169 0.0499626 0.9852831 -0.0499626 0.9852831 -0.0499626 0.0147169 0.0499626
1129500000 0.0149434 0.0498978 0.9850566 -0.0498978 0.9850566 -0.0498978 0.0149434 0.0498978
1136750000 0.0151144 0.0498142 0.9848856 -0.0498142 0.9848856 -0.0498142 0.0151144 0.0498142
1144000000 0.0152266 0.0497211 0.9847734 -0.0497211 0.9847734 -0.0497211 0.0152266 0.0497211
1151250000 0.0152792 0.0496286 0.9847208 -0.0496286 0.9847208 -0.0496286 0.0152792 0.0496286
1158500000 0.0152734 0.0495467 0.9847266 -0.0495467 0.9847266 -0.0495467 0.0152734 0.0495467
1165750000 0.0152125 0.0494846 0.9847875 -0.0494846 0.9847875 -0.0494846 0.0152125 0.0494846
1173000000 0.0151016 0.0494506 0.9848984 -0.0494506 0.9848984 -0.0494506 0.0151016 0.0494506
1180250000 0.0149472 0.0494513 0.9850528 -0.0494513 0.9850528 -0.0494513 0.0149472 0.0494513
1187500000 0.0147568 0.0494916 0.9852432 -0.0494916 0.9852432 -0.0494916 0.0147568 0.0494916
1194750000 0.0145381 0.0495749 0.9854619 -0.0495749 0.9854619 -0.0495749 0.0145381 0.0495749
1202000000 0.0142988 0.0497024 0.9857012 -0.0497024 0.9857012 -0.0497024 0.0142988 0.0497024
1209250000 0.0140462 0.0498742 0.9859538 -0.0498742 0.9859538 -0.0498742 0.0140462 0.0498742
1216500000 0.0137870 0.0500891 0.9862130 -0.0500891 0.9862130 -0.0500891 0.0137870 0.0500891
1223750000 0.0135269 0.0503448 0.9864731 -0.0503448 0.9864731 -0.0503448 0.0135269 0.0503448
1231000000 0.0132707 0.0506386 0.9867293 -0.0506386 0.9867293 -0.0506386 0.0132707 0.0506386
1238250000 0.0130224 0.0509672 0.9869776 -0.0509672 0.9869776 -0.0509672 0.0130224 0.0509672
1245500000 0.0127850 0.0513272 0.9872150 -0.0513272 0.9872150 -0.0513272 0.0127850 0.0513272
1252750000 0.0125607 0.0517152 0.9874393 -0.0517152 0.9874393 -0.0517152 0.0125607 0.0517152
1260000000 0.0123513 0.0521279 0.9876487 -0.0521279 0.9876487 -0.0521279 0.0123513 0.0521279
1267250000 0.0121577 0.0525620 0.9878423 -0.0525620 0.9878423 -0.0525620 0.0121577 0.0525620
1274500000 0.0119806 0.0530148 0.9880194 -0.0530148 0.9880194 -0.0530148 0.0119806 0.0530148
1281750000 0.0118201 0.0534835 0.9881799 -0.0534835 0.9881799 -0.0534835 0.0118201 0.0534835
1289000000 0.0116762 0.0539657 0.9883238 -0.0539657 0.9883238 -0.0539657 0.0116762 0.0539657
1296250000 0.0115486 0.0544595 0.9884514 -0.0544595 0.9884514 -0.0544595 0.0115486 0.0544595
1303500000 0.0114369 0.0549628 0.9885631 -0.0549628 0.9885631 -0.0549628 0.0114369 0.0549628
1310750000 0.0113406 0.0554742 0.9886594 -0.0554742 0.9886594 -0.0554742 0.0113406 0.0554742
1318000000 0.0112591 0.0559922 0.9887409 -0.0559922 0.9887409 -0.0559922 0.0112591 0.0559922
1325250000 0.0111917 0.0565156 0.9888083 -0.0565156 0.9888083 -0.0565156 0.0111917 0.0565156
1332500000 0.0111378 0.0570435 0.9888622 -0.0570435 0.9888622 -0.0570435 0.0111378 0.0570435
1339750000 0.0110967 0.0575748 0.9889033 -0.0575748 0.9889033 -0.0575748 0.0110967 0.0575748
1347000000 0.0110678 0.0581090 0.9889322 -0.0581090 0.9889322 -0.0581090 0.0110678 0.0581090
1354250000 0.0110506 0.0586454 0.9889494 -0.0586454 0.9889494 -0.0586454 0.0110506 0.0586454
1361500000 0.0110443 0.0591834 0.9889557 -0.0591834 0.9889557 -0.0591834 0.0110443 0.0591834
1368750000 0.0110485 0.0597226 0.9889515 -0.0597226 0.9889515 -0.0597226 0.0110485 0.0597226
1376000000 0.0110627 0.0602627 0.9889373 -0.0602627 0.9889373 -0.0602627 0.0110627 0.0602627
1383250000 0.0110863 0.0608034 0.9889137 -0.0608034 0.9889137 -0.0608034 0.0110863 0.0608034
1390500000 0.0111190 0.0613443 0.9888810 -0.0613443 0.9888810 -0.0613443 0.0111190 0.0613443
1397750000 0.0111604 0.0618853 0.9888396 -0.0618853 0.9888396 -0.0618853 0.0111604 0.0618853
1405000000 0.0112100 0.0624263 0.9887900 -0.0624263 0.9887900 -0.0624263 0.0112100 0.0624263
1412250000 0.0112675 0.0629670 0.9887325 -0.0629670 0.9887325 -0.0629670 0.0112675 0.0629670
1419500000 0.0113327 0.0635075 0.9886673 -0.0635075 0.9886673 -0.0635075 0.0113327 0.0635075
1426750000 0.0114052 0.0640475 0.9885948 -0.0640475 0.9885948 -0.0640475 0.0114052 0.0640475
1434000000 0.0114849 0.0645870 0.9885151 -0.0645870 0.9885151 -0.0645870 0.0114849 0.0645870
1441250000 0.0115714 0.0651261 0.9884286 -0.0651261 0.9884286 -0.0651261 0.0115714 0.0651261
1448500000 0.0116646 0.0656645 0.9883354 -0.0656645 0.9883354 -0.0656645 0.0116646 0.0656645
1455750000 0.0117644 0.0662023 0.9882356 -0.0662023 0.9882356 -0.0662023 0.0117644 0.0662023
1463000000 0.0118705 0.0667395 0.9881295 -0.0667395 0.9881295 -0.0667395 0.0118705 0.0667395
1470250000 0.0119829 0.0672761 0.9880171 -0.0672761 0.9880171 -0.0672761 0.0119829 0.0672761
1477500000 0.0121014 0.0678119 0.9878986 -0.0678119 0.9878986 -0.0678119 0.0121014 0.0678119
1484750000 0.0122259 0.0683471 0.9877741 -0.0683471 0.9877741 -0.0683471 0.0122259 0.0683471
1492000000 0.0123565 0.0688815 0.9876435 -0.0688815 0.9876435 -0.0688815 0.0123565 0.0688815
1499250000 0.0124929 0.0694152 0.9875071 -0.0694152 0.9875071 -0.0694152 0.0124929 0.0694152
1506500000 0.0126353 0.0699482 0.9873647 -0.0699482 0.9873647 -0.0699482 0.0126353 0.0699482
1513750000 0.0127835 0.0704804 0.9872165 -0.0704804 0.9872165 -0.0704804 0.0127835 0.0704804
1521000000 0.0129375 0.0710118 0.9870625 -0.0710118 0.9870625 -0.0710118 0.0129375 0.0710118
1528250000 0.0130974 0.0715424 0.9869026 -0.0715424 0.9869026 -0.0715424 0.0130974 0.0715424
1535500000 0.0132631 0.0720721 0.9867369 -0.0720721 0.9867369 -0.0720721 0.0132631 0.0720721
1542750000 0.0134347 0.0726009 0.9865653 -0.0726009 0.9865653 -0.0726009 0.0134347 0.0726009
1550000000 0.0136122 0.0731289 0.9863878 -0.0731289 0.9863878 -0.0731289 0.0136122 0.0731289
1557250000 0.0137956 0.0736558 0.9862044 -0.0736558 0.9862044 -0.0736558 0.0137956 0.0736558
1564500000 0.0139851 0.0741816 0.9860149 -0.0741816 0.9860149 -0.0741816 0.0139851 0.0741816
1571750000 0.0141806 0.0747064 0.9858194 -0.0747064 0.9858194 -0.0747064 0.0141806 0.0747064
1579000000 0.0143823 0.0752299 0.9856177 -0.0752299 0.9856177 -0.0752299 0.0143823 0.0752299
1586250000 0.0145902 0.0757522 0.9854098 -0.0757522 0.9854098 -0.0757522 0.0145902 0.0757522
1593500000 0.0148044 0.0762731 0.9851956 -0.0762731 0.9851956 -0.0762731 0.0148044 0.0762731
1600750000 0.0150250 0.0767925 0.9849750 -0.0767925 0.9849750 -0.0767925 0.0150250 0.0767925
1608000000 0.0152522 0.0773103 0.9847478 -0.0773103 0.9847478 -0.0773103 0.0152522 0.0773103
1615250000 0.0154859 0.0778263 0.9845141 -0.0778263 0.9845141 -0.0778263 0.0154859 0.0778263
1622500000 0.0157264 0.0783404 0.9842736 -0.0783404 0.9842736 -0.0783404 0.0157264 0.0783404
1629750000 0.0159737 0.0788525 0.9840263 -0.0788525 0.9840263 -0.0788525 0.0159737 0.0788525
