!Murata Part Number: GRM31M5C2A433JA01
!These Parameters are Measured in Series Mode Connection
!Data Generated on Mar 30, 2021
!       o--ll--o
!Port1            Port2
!       o------o
!Operation Temp=25[degC], DC Bias Voltage=0[V]
!Freq. Start=1000[kHz] Stop=6[GHz] 401[Steps]
# Hz S RI R 50
!Freq.(Hz) S11(Real) S11(Imag) S21(Real) S21(Imag) S12(Real) S12(Imag) S22(Real) S22(Imag)
1000000 0.0013615 -0.0363230 0.9986385 0.0363230 0.9986385 0.0363230 0.0013615 -0.0363230
1021987 0.0013053 -0.0355410 0.9986947 0.0355410 0.9986947 0.0355410 0.0013053 -0.0355410
1044457 0.0012516 -0.0347756 0.9987484 0.0347756 0.9987484 0.0347756 0.0012516 -0.0347756
1067422 0.0012001 -0.0340265 0.9987999 0.0340265 0.9987999 0.0340265 0.0012001 -0.0340265
1090891 0.0011509 -0.0332934 0.9988491 0.0332934 0.9988491 0.0332934 0.0011509 -0.0332934
1114877 0.0011037 -0.0325759 0.9988963 0.0325759 0.9988963 0.0325759 0.0011037 -0.0325759
1139390 0.0010586 -0.0318736 0.9989414 0.0318736 0.9989414 0.0318736 0.0010586 -0.0318736
1164441 0.0010154 -0.0311864 0.9989846 0.0311864 0.9989846 0.0311864 0.0010154 -0.0311864
1190044 0.0009741 -0.0305137 0.9990259 0.0305137 0.9990259 0.0305137 0.0009741 -0.0305137
1216210 0.0009345 -0.0298554 0.9990655 0.0298554 0.9990655 0.0298554 0.0009345 -0.0298554
1242950 0.0008966 -0.0292112 0.9991034 0.0292112 0.9991034 0.0292112 0.0008966 -0.0292112
1270279 0.0008603 -0.0285807 0.9991397 0.0285807 0.9991397 0.0285807 0.0008603 -0.0285807
1298209 0.0008256 -0.0279636 0.9991744 0.0279636 0.9991744 0.0279636 0.0008256 -0.0279636
1326753 0.0007924 -0.0273597 0.9992076 0.0273597 0.9992076 0.0273597 0.0007924 -0.0273597
1355924 0.0007606 -0.0267686 0.9992394 0.0267686 0.9992394 0.0267686 0.0007606 -0.0267686
1385737 0.0007302 -0.0261901 0.9992698 0.0261901 0.9992698 0.0261901 0.0007302 -0.0261901
1416205 0.0007011 -0.0256240 0.9992989 0.0256240 0.9992989 0.0256240 0.0007011 -0.0256240
1447343 0.0006732 -0.0250700 0.9993268 0.0250700 0.9993268 0.0250700 0.0006732 -0.0250700
1479166 0.0006465 -0.0245277 0.9993535 0.0245277 0.9993535 0.0245277 0.0006465 -0.0245277
1511688 0.0006210 -0.0239970 0.9993790 0.0239970 0.9993790 0.0239970 0.0006210 -0.0239970
1544926 0.0005966 -0.0234776 0.9994034 0.0234776 0.9994034 0.0234776 0.0005966 -0.0234776
1578894 0.0005732 -0.0229693 0.9994268 0.0229693 0.9994268 0.0229693 0.0005732 -0.0229693
1613609 0.0005509 -0.0224718 0.9994491 0.0224718 0.9994491 0.0224718 0.0005509 -0.0224718
1649087 0.0005295 -0.0219850 0.9994705 0.0219850 0.9994705 0.0219850 0.0005295 -0.0219850
1685346 0.0005090 -0.0215084 0.9994910 0.0215084 0.9994910 0.0215084 0.0005090 -0.0215084
1722402 0.0004894 -0.0210421 0.9995106 0.0210421 0.9995106 0.0210421 0.0004894 -0.0210421
1760272 0.0004707 -0.0205856 0.9995293 0.0205856 0.9995293 0.0205856 0.0004707 -0.0205856
1798975 0.0004527 -0.0201389 0.9995473 0.0201389 0.9995473 0.0201389 0.0004527 -0.0201389
1838529 0.0004356 -0.0197017 0.9995644 0.0197017 0.9995644 0.0197017 0.0004356 -0.0197017
1878953 0.0004192 -0.0192738 0.9995808 0.0192738 0.9995808 0.0192738 0.0004192 -0.0192738
1920266 0.0004035 -0.0188550 0.9995965 0.0188550 0.9995965 0.0188550 0.0004035 -0.0188550
1962487 0.0003884 -0.0184450 0.9996116 0.0184450 0.9996116 0.0184450 0.0003884 -0.0184450
2005636 0.0003741 -0.0180438 0.9996259 0.0180438 0.9996259 0.0180438 0.0003741 -0.0180438
2049734 0.0003603 -0.0176512 0.9996397 0.0176512 0.9996397 0.0176512 0.0003603 -0.0176512
2094801 0.0003472 -0.0172668 0.9996528 0.0172668 0.9996528 0.0172668 0.0003472 -0.0172668
2140860 0.0003346 -0.0168906 0.9996654 0.0168906 0.9996654 0.0168906 0.0003346 -0.0168906
2187931 0.0003225 -0.0165224 0.9996775 0.0165224 0.9996775 0.0165224 0.0003225 -0.0165224
2236037 0.0003110 -0.0161621 0.9996890 0.0161621 0.9996890 0.0161621 0.0003110 -0.0161621
2285201 0.0003000 -0.0158093 0.9997000 0.0158093 0.9997000 0.0158093 0.0003000 -0.0158093
2335446 0.0002895 -0.0154640 0.9997105 0.0154640 0.9997105 0.0154640 0.0002895 -0.0154640
2386795 0.0002794 -0.0151261 0.9997206 0.0151261 0.9997206 0.0151261 0.0002794 -0.0151261
2439274 0.0002698 -0.0147953 0.9997302 0.0147953 0.9997302 0.0147953 0.0002698 -0.0147953
2492906 0.0002606 -0.0144714 0.9997394 0.0144714 0.9997394 0.0144714 0.0002606 -0.0144714
2547717 0.0002518 -0.0141545 0.9997482 0.0141545 0.9997482 0.0141545 0.0002518 -0.0141545
2603734 0.0002433 -0.0138442 0.9997567 0.0138442 0.9997567 0.0138442 0.0002433 -0.0138442
2660982 0.0002353 -0.0135404 0.9997647 0.0135404 0.9997647 0.0135404 0.0002353 -0.0135404
2719490 0.0002276 -0.0132431 0.9997724 0.0132431 0.9997724 0.0132431 0.0002276 -0.0132431
2779283 0.0002202 -0.0129520 0.9997798 0.0129520 0.9997798 0.0129520 0.0002202 -0.0129520
2840391 0.0002132 -0.0126671 0.9997868 0.0126671 0.9997868 0.0126671 0.0002132 -0.0126671
2902843 0.0002064 -0.0123881 0.9997936 0.0123881 0.9997936 0.0123881 0.0002064 -0.0123881
2966668 0.0002000 -0.0121151 0.9998000 0.0121151 0.9998000 0.0121151 0.0002000 -0.0121151
3031896 0.0001939 -0.0118477 0.9998061 0.0118477 0.9998061 0.0118477 0.0001939 -0.0118477
3098558 0.0001880 -0.0115860 0.9998120 0.0115860 0.9998120 0.0115860 0.0001880 -0.0115860
3166686 0.0001824 -0.0113297 0.9998176 0.0113297 0.9998176 0.0113297 0.0001824 -0.0113297
3236312 0.0001770 -0.0110788 0.9998230 0.0110788 0.9998230 0.0110788 0.0001770 -0.0110788
3307469 0.0001719 -0.0108331 0.9998281 0.0108331 0.9998281 0.0108331 0.0001719 -0.0108331
3380190 0.0001670 -0.0105926 0.9998330 0.0105926 0.9998330 0.0105926 0.0001670 -0.0105926
3454511 0.0001623 -0.0103570 0.9998377 0.0103570 0.9998377 0.0103570 0.0001623 -0.0103570
3530465 0.0001578 -0.0101264 0.9998422 0.0101264 0.9998422 0.0101264 0.0001578 -0.0101264
3608090 0.0001535 -0.0099006 0.9998465 0.0099006 0.9998465 0.0099006 0.0001535 -0.0099006
3687421 0.0001495 -0.0096794 0.9998505 0.0096794 0.9998505 0.0096794 0.0001495 -0.0096794
3768496 0.0001456 -0.0094629 0.9998544 0.0094629 0.9998544 0.0094629 0.0001456 -0.0094629
3851354 0.0001419 -0.0092508 0.9998581 0.0092508 0.9998581 0.0092508 0.0001419 -0.0092508
3936034 0.0001383 -0.0090431 0.9998617 0.0090431 0.9998617 0.0090431 0.0001383 -0.0090431
4022575 0.0001349 -0.0088396 0.9998651 0.0088396 0.9998651 0.0088396 0.0001349 -0.0088396
4111020 0.0001317 -0.0086404 0.9998683 0.0086404 0.9998683 0.0086404 0.0001317 -0.0086404
4201409 0.0001286 -0.0084452 0.9998714 0.0084452 0.9998714 0.0084452 0.0001286 -0.0084452
4293785 0.0001257 -0.0082541 0.9998743 0.0082541 0.9998743 0.0082541 0.0001257 -0.0082541
4388193 0.0001229 -0.0080668 0.9998771 0.0080668 0.9998771 0.0080668 0.0001229 -0.0080668
4484676 0.0001203 -0.0078834 0.9998797 0.0078834 0.9998797 0.0078834 0.0001203 -0.0078834
4583281 0.0001177 -0.0077037 0.9998823 0.0077037 0.9998823 0.0077037 0.0001177 -0.0077037
4684054 0.0001153 -0.0075276 0.9998847 0.0075276 0.9998847 0.0075276 0.0001153 -0.0075276
4787042 0.0001131 -0.0073551 0.9998869 0.0073551 0.9998869 0.0073551 0.0001131 -0.0073551
4892295 0.0001109 -0.0071861 0.9998891 0.0071861 0.9998891 0.0071861 0.0001109 -0.0071861
4999862 0.0001088 -0.0070205 0.9998912 0.0070205 0.9998912 0.0070205 0.0001088 -0.0070205
5109794 0.0001068 -0.0068582 0.9998932 0.0068582 0.9998932 0.0068582 0.0001068 -0.0068582
5222143 0.0001050 -0.0066992 0.9998950 0.0066992 0.9998950 0.0066992 0.0001050 -0.0066992
5336962 0.0001032 -0.0065433 0.9998968 0.0065433 0.9998968 0.0065433 0.0001032 -0.0065433
5454306 0.0001016 -0.0063906 0.9998984 0.0063906 0.9998984 0.0063906 0.0001016 -0.0063906
5574230 0.0001000 -0.0062408 0.9999000 0.0062408 0.9999000 0.0062408 0.0001000 -0.0062408
5696791 0.0000985 -0.0060940 0.9999015 0.0060940 0.9999015 0.0060940 0.0000985 -0.0060940
5822046 0.0000971 -0.0059501 0.9999029 0.0059501 0.9999029 0.0059501 0.0000971 -0.0059501
5950055 0.0000958 -0.0058091 0.9999042 0.0058091 0.9999042 0.0058091 0.0000958 -0.0058091
6080879 0.0000945 -0.0056707 0.9999055 0.0056707 0.9999055 0.0056707 0.0000945 -0.0056707
6214580 0.0000933 -0.0055351 0.9999067 0.0055351 0.9999067 0.0055351 0.0000933 -0.0055351
6351220 0.0000922 -0.0054021 0.9999078 0.0054021 0.9999078 0.0054021 0.0000922 -0.0054021
6490864 0.0000912 -0.0052716 0.9999088 0.0052716 0.9999088 0.0052716 0.0000912 -0.0052716
6633579 0.0000902 -0.0051436 0.9999098 0.0051436 0.9999098 0.0051436 0.0000902 -0.0051436
6779431 0.0000894 -0.0050181 0.9999106 0.0050181 0.9999106 0.0050181 0.0000894 -0.0050181
6928491 0.0000885 -0.0048950 0.9999115 0.0048950 0.9999115 0.0048950 0.0000885 -0.0048950
7080828 0.0000878 -0.0047741 0.9999122 0.0047741 0.9999122 0.0047741 0.0000878 -0.0047741
7236514 0.0000871 -0.0046556 0.9999129 0.0046556 0.9999129 0.0046556 0.0000871 -0.0046556
7395623 0.0000864 -0.0045392 0.9999136 0.0045392 0.9999136 0.0045392 0.0000864 -0.0045392
7558231 0.0000858 -0.0044250 0.9999142 0.0044250 0.9999142 0.0044250 0.0000858 -0.0044250
7724414 0.0000853 -0.0043129 0.9999147 0.0043129 0.9999147 0.0043129 0.0000853 -0.0043129
7894251 0.0000848 -0.0042028 0.9999152 0.0042028 0.9999152 0.0042028 0.0000848 -0.0042028
8067822 0.0000844 -0.0040948 0.9999156 0.0040948 0.9999156 0.0040948 0.0000844 -0.0040948
8245209 0.0000840 -0.0039886 0.9999160 0.0039886 0.9999160 0.0039886 0.0000840 -0.0039886
8426497 0.0000837 -0.0038844 0.9999163 0.0038844 0.9999163 0.0038844 0.0000837 -0.0038844
8611770 0.0000834 -0.0037820 0.9999166 0.0037820 0.9999166 0.0037820 0.0000834 -0.0037820
8801117 0.0000832 -0.0036814 0.9999168 0.0036814 0.9999168 0.0036814 0.0000832 -0.0036814
8994628 0.0000831 -0.0035825 0.9999169 0.0035825 0.9999169 0.0035825 0.0000831 -0.0035825
9192393 0.0000829 -0.0034854 0.9999171 0.0034854 0.9999171 0.0034854 0.0000829 -0.0034854
9394506 0.0000829 -0.0033898 0.9999171 0.0033898 0.9999171 0.0033898 0.0000829 -0.0033898
9601063 0.0000828 -0.0032959 0.9999172 0.0032959 0.9999172 0.0032959 0.0000828 -0.0032959
9812162 0.0000828 -0.0032036 0.9999172 0.0032036 0.9999172 0.0032036 0.0000828 -0.0032036
10027902 0.0000829 -0.0031128 0.9999171 0.0031128 0.9999171 0.0031128 0.0000829 -0.0031128
10248386 0.0000830 -0.0030234 0.9999170 0.0030234 0.9999170 0.0030234 0.0000830 -0.0030234
10473717 0.0000832 -0.0029355 0.9999168 0.0029355 0.9999168 0.0029355 0.0000832 -0.0029355
10704003 0.0000834 -0.0028490 0.9999166 0.0028490 0.9999166 0.0028490 0.0000834 -0.0028490
10939352 0.0000836 -0.0027638 0.9999164 0.0027638 0.9999164 0.0027638 0.0000836 -0.0027638
11179876 0.0000839 -0.0026800 0.9999161 0.0026800 0.9999161 0.0026800 0.0000839 -0.0026800
11425688 0.0000842 -0.0025974 0.9999158 0.0025974 0.9999158 0.0025974 0.0000842 -0.0025974
11676904 0.0000846 -0.0025160 0.9999154 0.0025160 0.9999154 0.0025160 0.0000846 -0.0025160
11933645 0.0000850 -0.0024358 0.9999150 0.0024358 0.9999150 0.0024358 0.0000850 -0.0024358
12196030 0.0000855 -0.0023568 0.9999145 0.0023568 0.9999145 0.0023568 0.0000855 -0.0023568
12464184 0.0000860 -0.0022789 0.9999140 0.0022789 0.9999140 0.0022789 0.0000860 -0.0022789
12738235 0.0000866 -0.0022021 0.9999134 0.0022021 0.9999134 0.0022021 0.0000866 -0.0022021
13018310 0.0000872 -0.0021263 0.9999128 0.0021263 0.9999128 0.0021263 0.0000872 -0.0021263
13304544 0.0000878 -0.0020515 0.9999122 0.0020515 0.9999122 0.0020515 0.0000878 -0.0020515
13597071 0.0000885 -0.0019777 0.9999115 0.0019777 0.9999115 0.0019777 0.0000885 -0.0019777
13896030 0.0000893 -0.0019048 0.9999107 0.0019048 0.9999107 0.0019048 0.0000893 -0.0019048
14201563 0.0000901 -0.0018328 0.9999099 0.0018328 0.9999099 0.0018328 0.0000901 -0.0018328
14513813 0.0000909 -0.0017617 0.9999091 0.0017617 0.9999091 0.0017617 0.0000909 -0.0017617
14832928 0.0000918 -0.0016913 0.9999082 0.0016913 0.9999082 0.0016913 0.0000918 -0.0016913
15159060 0.0000928 -0.0016218 0.9999072 0.0016218 0.9999072 0.0016218 0.0000928 -0.0016218
15492362 0.0000938 -0.0015531 0.9999062 0.0015531 0.9999062 0.0015531 0.0000938 -0.0015531
15832993 0.0000948 -0.0014850 0.9999052 0.0014850 0.9999052 0.0014850 0.0000948 -0.0014850
16181113 0.0000960 -0.0014176 0.9999040 0.0014176 0.9999040 0.0014176 0.0000960 -0.0014176
16536888 0.0000971 -0.0013509 0.9999029 0.0013509 0.9999029 0.0013509 0.0000971 -0.0013509
16900485 0.0000984 -0.0012848 0.9999016 0.0012848 0.9999016 0.0012848 0.0000984 -0.0012848
17272076 0.0000997 -0.0012193 0.9999003 0.0012193 0.9999003 0.0012193 0.0000997 -0.0012193
17651837 0.0001011 -0.0011544 0.9998989 0.0011544 0.9998989 0.0011544 0.0001011 -0.0011544
18039948 0.0001025 -0.0010900 0.9998975 0.0010900 0.9998975 0.0010900 0.0001025 -0.0010900
18436593 0.0001040 -0.0010260 0.9998960 0.0010260 0.9998960 0.0010260 0.0001040 -0.0010260
18841959 0.0001056 -0.0009625 0.9998944 0.0009625 0.9998944 0.0009625 0.0001056 -0.0009625
19256237 0.0001073 -0.0008994 0.9998927 0.0008994 0.9998927 0.0008994 0.0001073 -0.0008994
19679624 0.0001090 -0.0008367 0.9998910 0.0008367 0.9998910 0.0008367 0.0001090 -0.0008367
20112321 0.0001108 -0.0007744 0.9998892 0.0007744 0.9998892 0.0007744 0.0001108 -0.0007744
20554530 0.0001127 -0.0007123 0.9998873 0.0007123 0.9998873 0.0007123 0.0001127 -0.0007123
21006463 0.0001147 -0.0006506 0.9998853 0.0006506 0.9998853 0.0006506 0.0001147 -0.0006506
21468333 0.0001168 -0.0005890 0.9998832 0.0005890 0.9998832 0.0005890 0.0001168 -0.0005890
21940357 0.0001190 -0.0005277 0.9998810 0.0005277 0.9998810 0.0005277 0.0001190 -0.0005277
22422760 0.0001214 -0.0004666 0.9998786 0.0004666 0.9998786 0.0004666 0.0001214 -0.0004666
22915770 0.0001238 -0.0004056 0.9998762 0.0004056 0.9998762 0.0004056 0.0001238 -0.0004056
23419619 0.0001263 -0.0003447 0.9998737 0.0003447 0.9998737 0.0003447 0.0001263 -0.0003447
23934547 0.0001290 -0.0002838 0.9998710 0.0002838 0.9998710 0.0002838 0.0001290 -0.0002838
24460796 0.0001318 -0.0002230 0.9998682 0.0002230 0.9998682 0.0002230 0.0001318 -0.0002230
24998616 0.0001347 -0.0001621 0.9998653 0.0001621 0.9998653 0.0001621 0.0001347 -0.0001621
25548261 0.0001378 -0.0001012 0.9998622 0.0001012 0.9998622 0.0001012 0.0001378 -0.0001012
26109991 0.0001410 -0.0000401 0.9998590 0.0000401 0.9998590 0.0000401 0.0001410 -0.0000401
26684072 0.0001444 0.0000211 0.9998556 -0.0000211 0.9998556 -0.0000211 0.0001444 0.0000211
27270775 0.0001480 0.0000825 0.9998520 -0.0000825 0.9998520 -0.0000825 0.0001480 0.0000825
27870378 0.0001518 0.0001442 0.9998482 -0.0001442 0.9998482 -0.0001442 0.0001518 0.0001442
28483164 0.0001557 0.0002062 0.9998443 -0.0002062 0.9998443 -0.0002062 0.0001557 0.0002062
29109424 0.0001599 0.0002686 0.9998401 -0.0002686 0.9998401 -0.0002686 0.0001599 0.0002686
29749453 0.0001644 0.0003314 0.9998356 -0.0003314 0.9998356 -0.0003314 0.0001644 0.0003314
30403555 0.0001691 0.0003947 0.9998309 -0.0003947 0.9998309 -0.0003947 0.0001691 0.0003947
31072038 0.0001740 0.0004585 0.9998260 -0.0004585 0.9998260 -0.0004585 0.0001740 0.0004585
31755220 0.0001793 0.0005231 0.9998207 -0.0005231 0.9998207 -0.0005231 0.0001793 0.0005231
32453422 0.0001850 0.0005884 0.9998150 -0.0005884 0.9998150 -0.0005884 0.0001850 0.0005884
33166976 0.0001910 0.0006545 0.9998090 -0.0006545 0.9998090 -0.0006545 0.0001910 0.0006545
33896219 0.0001974 0.0007216 0.9998026 -0.0007216 0.9998026 -0.0007216 0.0001974 0.0007216
34641496 0.0002043 0.0007898 0.9997957 -0.0007898 0.9997957 -0.0007898 0.0002043 0.0007898
35403159 0.0002117 0.0008592 0.9997883 -0.0008592 0.9997883 -0.0008592 0.0002117 0.0008592
36181569 0.0002198 0.0009300 0.9997802 -0.0009300 0.9997802 -0.0009300 0.0002198 0.0009300
36977093 0.0002286 0.0010024 0.9997714 -0.0010024 0.9997714 -0.0010024 0.0002286 0.0010024
37790109 0.0002382 0.0010765 0.9997618 -0.0010765 0.9997618 -0.0010765 0.0002382 0.0010765
38621001 0.0002488 0.0011528 0.9997512 -0.0011528 0.9997512 -0.0011528 0.0002488 0.0011528
39470161 0.0002606 0.0012315 0.9997394 -0.0012315 0.9997394 -0.0012315 0.0002606 0.0012315
40337993 0.0002738 0.0013129 0.9997262 -0.0013129 0.9997262 -0.0013129 0.0002738 0.0013129
41224905 0.0002889 0.0013976 0.9997111 -0.0013976 0.9997111 -0.0013976 0.0002889 0.0013976
42131317 0.0003063 0.0014862 0.9996937 -0.0014862 0.9996937 -0.0014862 0.0003063 0.0014862
43057659 0.0003267 0.0015794 0.9996733 -0.0015794 0.9996733 -0.0015794 0.0003267 0.0015794
44004369 0.0003512 0.0016782 0.9996488 -0.0016782 0.9996488 -0.0016782 0.0003512 0.0016782
44971893 0.0003813 0.0017837 0.9996187 -0.0017837 0.9996187 -0.0017837 0.0003813 0.0017837
45960691 0.0004193 0.0018975 0.9995807 -0.0018975 0.9995807 -0.0018975 0.0004193 0.0018975
46971230 0.0004690 0.0020215 0.9995310 -0.0020215 0.9995310 -0.0020215 0.0004690 0.0020215
48003987 0.0005365 0.0021577 0.9994635 -0.0021577 0.9994635 -0.0021577 0.0005365 0.0021577
49059451 0.0006325 0.0023074 0.9993675 -0.0023074 0.9993675 -0.0023074 0.0006325 0.0023074
50138122 0.0007757 0.0024688 0.9992243 -0.0024688 0.9992243 -0.0024688 0.0007757 0.0024688
51240510 0.0009978 0.0026270 0.9990022 -0.0026270 0.9990022 -0.0026270 0.0009978 0.0026270
52367136 0.0013431 0.0027271 0.9986569 -0.0027271 0.9986569 -0.0027271 0.0013431 0.0027271
53518533 0.0018127 0.0026214 0.9981873 -0.0026214 0.9981873 -0.0026214 0.0018127 0.0026214
54695245 0.0021704 0.0021386 0.9978296 -0.0021386 0.9978296 -0.0021386 0.0021704 0.0021386
55897831 0.0020366 0.0015347 0.9979634 -0.0015347 0.9979634 -0.0015347 0.0020366 0.0015347
57126857 0.0015958 0.0012757 0.9984042 -0.0012757 0.9984042 -0.0012757 0.0015958 0.0012757
58382906 0.0012183 0.0013212 0.9987817 -0.0013212 0.9987817 -0.0013212 0.0012183 0.0013212
59666572 0.0009800 0.0014813 0.9990200 -0.0014813 0.9990200 -0.0014813 0.0009800 0.0014813
60978462 0.0008423 0.0016660 0.9991577 -0.0016660 0.9991577 -0.0016660 0.0008423 0.0016660
62319196 0.0007664 0.0018480 0.9992336 -0.0018480 0.9992336 -0.0018480 0.0007664 0.0018480
63689409 0.0007294 0.0020221 0.9992706 -0.0020221 0.9992706 -0.0020221 0.0007294 0.0020221
65089750 0.0007187 0.0021894 0.9992813 -0.0021894 0.9992813 -0.0021894 0.0007187 0.0021894
66520879 0.0007280 0.0023527 0.9992720 -0.0023527 0.9992720 -0.0023527 0.0007280 0.0023527
67983474 0.0007548 0.0025146 0.9992452 -0.0025146 0.9992452 -0.0025146 0.0007548 0.0025146
69478228 0.0007993 0.0026778 0.9992007 -0.0026778 0.9992007 -0.0026778 0.0007993 0.0026778
71005847 0.0008644 0.0028440 0.9991356 -0.0028440 0.9991356 -0.0028440 0.0008644 0.0028440
72567054 0.0009556 0.0030144 0.9990444 -0.0030144 0.9990444 -0.0030144 0.0009556 0.0030144
74162587 0.0010824 0.0031875 0.9989176 -0.0031875 0.9989176 -0.0031875 0.0010824 0.0031875
75793201 0.0012591 0.0033566 0.9987409 -0.0033566 0.9987409 -0.0033566 0.0012591 0.0033566
77459667 0.0015051 0.0035035 0.9984949 -0.0035035 0.9984949 -0.0035035 0.0015051 0.0035035
79162774 0.0018385 0.0035855 0.9981615 -0.0035855 0.9981615 -0.0035855 0.0018385 0.0035855
80903327 0.0022485 0.0035226 0.9977515 -0.0035226 0.9977515 -0.0035226 0.0022485 0.0035226
82682150 0.0026345 0.0032233 0.9973655 -0.0032233 0.9973655 -0.0032233 0.0026345 0.0032233
84500083 0.0027925 0.0027142 0.9972075 -0.0027142 0.9972075 -0.0027142 0.0027925 0.0027142
86357988 0.0026133 0.0022282 0.9973867 -0.0022282 0.9973867 -0.0022282 0.0026133 0.0022282
88256743 0.0022410 0.0019722 0.9977590 -0.0019722 0.9977590 -0.0019722 0.0022410 0.0019722
90197245 0.0018708 0.0019414 0.9981292 -0.0019414 0.9981292 -0.0019414 0.0018708 0.0019414
92180413 0.0015840 0.0020394 0.9984160 -0.0020394 0.9984160 -0.0020394 0.0015840 0.0020394
94207185 0.0013828 0.0021917 0.9986172 -0.0021917 0.9986172 -0.0021917 0.0013828 0.0021917
96278520 0.0012473 0.0023602 0.9987527 -0.0023602 0.9987527 -0.0023602 0.0012473 0.0023602
98395398 0.0011583 0.0025288 0.9988417 -0.0025288 0.9988417 -0.0025288 0.0011583 0.0025288
100558819 0.0011015 0.0026913 0.9988985 -0.0026913 0.9988985 -0.0026913 0.0011015 0.0026913
102769807 0.0010675 0.0028463 0.9989325 -0.0028463 0.9989325 -0.0028463 0.0010675 0.0028463
105029408 0.0010499 0.0029937 0.9989501 -0.0029937 0.9989501 -0.0029937 0.0010499 0.0029937
107338692 0.0010446 0.0031342 0.9989554 -0.0031342 0.9989554 -0.0031342 0.0010446 0.0031342
