!Murata Part Number: GRM3195C1H104JA05
!These Parameters are Measured in Series Mode Connection
!Data Generated on Mar 30, 2021
!       o--ll--o
!Port1            Port2
!       o------o
!Operation Temp=25[degC], DC Bias Voltage=0[V]
!Freq. Start=1000[kHz] Stop=6[GHz] 401[Steps]
# Hz S RI R 50
!Freq.(Hz) S11(Real) S11(Imag) S21(Real) S21(Imag) S12(Real) S12(Imag) S22(Real) S22(Imag)
1000000 0.0002828 -0.0156173 0.9997172 0.0156173 0.9997172 0.0156173 0.0002828 -0.0156173
1021987 0.0002724 -0.0152792 0.9997276 0.0152792 0.9997276 0.0152792 0.0002724 -0.0152792
1044457 0.0002624 -0.0149484 0.9997376 0.0149484 0.9997376 0.0149484 0.0002624 -0.0149484
1067422 0.0002529 -0.0146246 0.9997471 0.0146246 0.9997471 0.0146246 0.0002529 -0.0146246
1090891 0.0002438 -0.0143078 0.9997562 0.0143078 0.9997562 0.0143078 0.0002438 -0.0143078
1114877 0.0002350 -0.0139976 0.9997650 0.0139976 0.9997650 0.0139976 0.0002350 -0.0139976
1139390 0.0002267 -0.0136941 0.9997733 0.0136941 0.9997733 0.0136941 0.0002267 -0.0136941
1164441 0.0002187 -0.0133971 0.9997813 0.0133971 0.9997813 0.0133971 0.0002187 -0.0133971
1190044 0.0002111 -0.0131064 0.9997889 0.0131064 0.9997889 0.0131064 0.0002111 -0.0131064
1216210 0.0002038 -0.0128219 0.9997962 0.0128219 0.9997962 0.0128219 0.0002038 -0.0128219
1242950 0.0001968 -0.0125435 0.9998032 0.0125435 0.9998032 0.0125435 0.0001968 -0.0125435
1270279 0.0001901 -0.0122709 0.9998099 0.0122709 0.9998099 0.0122709 0.0001901 -0.0122709
1298209 0.0001837 -0.0120042 0.9998163 0.0120042 0.9998163 0.0120042 0.0001837 -0.0120042
1326753 0.0001776 -0.0117432 0.9998224 0.0117432 0.9998224 0.0117432 0.0001776 -0.0117432
1355924 0.0001717 -0.0114877 0.9998283 0.0114877 0.9998283 0.0114877 0.0001717 -0.0114877
1385737 0.0001661 -0.0112376 0.9998339 0.0112376 0.9998339 0.0112376 0.0001661 -0.0112376
1416205 0.0001608 -0.0109928 0.9998392 0.0109928 0.9998392 0.0109928 0.0001608 -0.0109928
1447343 0.0001557 -0.0107533 0.9998443 0.0107533 0.9998443 0.0107533 0.0001557 -0.0107533
1479166 0.0001508 -0.0105188 0.9998492 0.0105188 0.9998492 0.0105188 0.0001508 -0.0105188
1511688 0.0001461 -0.0102893 0.9998539 0.0102893 0.9998539 0.0102893 0.0001461 -0.0102893
1544926 0.0001417 -0.0100646 0.9998583 0.0100646 0.9998583 0.0100646 0.0001417 -0.0100646
1578894 0.0001374 -0.0098448 0.9998626 0.0098448 0.9998626 0.0098448 0.0001374 -0.0098448
1613609 0.0001333 -0.0096295 0.9998667 0.0096295 0.9998667 0.0096295 0.0001333 -0.0096295
1649087 0.0001294 -0.0094189 0.9998706 0.0094189 0.9998706 0.0094189 0.0001294 -0.0094189
1685346 0.0001257 -0.0092127 0.9998743 0.0092127 0.9998743 0.0092127 0.0001257 -0.0092127
1722402 0.0001221 -0.0090108 0.9998779 0.0090108 0.9998779 0.0090108 0.0001221 -0.0090108
1760272 0.0001188 -0.0088132 0.9998812 0.0088132 0.9998812 0.0088132 0.0001188 -0.0088132
1798975 0.0001155 -0.0086198 0.9998845 0.0086198 0.9998845 0.0086198 0.0001155 -0.0086198
1838529 0.0001124 -0.0084304 0.9998876 0.0084304 0.9998876 0.0084304 0.0001124 -0.0084304
1878953 0.0001095 -0.0082451 0.9998905 0.0082451 0.9998905 0.0082451 0.0001095 -0.0082451
1920266 0.0001067 -0.0080636 0.9998933 0.0080636 0.9998933 0.0080636 0.0001067 -0.0080636
1962487 0.0001040 -0.0078860 0.9998960 0.0078860 0.9998960 0.0078860 0.0001040 -0.0078860
2005636 0.0001015 -0.0077121 0.9998985 0.0077121 0.9998985 0.0077121 0.0001015 -0.0077121
2049734 0.0000990 -0.0075418 0.9999010 0.0075418 0.9999010 0.0075418 0.0000990 -0.0075418
2094801 0.0000967 -0.0073751 0.9999033 0.0073751 0.9999033 0.0073751 0.0000967 -0.0073751
2140860 0.0000945 -0.0072120 0.9999055 0.0072120 0.9999055 0.0072120 0.0000945 -0.0072120
2187931 0.0000924 -0.0070522 0.9999076 0.0070522 0.9999076 0.0070522 0.0000924 -0.0070522
2236037 0.0000904 -0.0068957 0.9999096 0.0068957 0.9999096 0.0068957 0.0000904 -0.0068957
2285201 0.0000885 -0.0067426 0.9999115 0.0067426 0.9999115 0.0067426 0.0000885 -0.0067426
2335446 0.0000867 -0.0065926 0.9999133 0.0065926 0.9999133 0.0065926 0.0000867 -0.0065926
2386795 0.0000850 -0.0064457 0.9999150 0.0064457 0.9999150 0.0064457 0.0000850 -0.0064457
2439274 0.0000834 -0.0063019 0.9999166 0.0063019 0.9999166 0.0063019 0.0000834 -0.0063019
2492906 0.0000819 -0.0061611 0.9999181 0.0061611 0.9999181 0.0061611 0.0000819 -0.0061611
2547717 0.0000804 -0.0060232 0.9999196 0.0060232 0.9999196 0.0060232 0.0000804 -0.0060232
2603734 0.0000790 -0.0058882 0.9999210 0.0058882 0.9999210 0.0058882 0.0000790 -0.0058882
2660982 0.0000777 -0.0057560 0.9999223 0.0057560 0.9999223 0.0057560 0.0000777 -0.0057560
2719490 0.0000765 -0.0056264 0.9999235 0.0056264 0.9999235 0.0056264 0.0000765 -0.0056264
2779283 0.0000753 -0.0054996 0.9999247 0.0054996 0.9999247 0.0054996 0.0000753 -0.0054996
2840391 0.0000742 -0.0053754 0.9999258 0.0053754 0.9999258 0.0053754 0.0000742 -0.0053754
2902843 0.0000732 -0.0052537 0.9999268 0.0052537 0.9999268 0.0052537 0.0000732 -0.0052537
2966668 0.0000722 -0.0051345 0.9999278 0.0051345 0.9999278 0.0051345 0.0000722 -0.0051345
3031896 0.0000713 -0.0050177 0.9999287 0.0050177 0.9999287 0.0050177 0.0000713 -0.0050177
3098558 0.0000705 -0.0049033 0.9999295 0.0049033 0.9999295 0.0049033 0.0000705 -0.0049033
3166686 0.0000696 -0.0047913 0.9999304 0.0047913 0.9999304 0.0047913 0.0000696 -0.0047913
3236312 0.0000689 -0.0046815 0.9999311 0.0046815 0.9999311 0.0046815 0.0000689 -0.0046815
3307469 0.0000682 -0.0045740 0.9999318 0.0045740 0.9999318 0.0045740 0.0000682 -0.0045740
3380190 0.0000675 -0.0044686 0.9999325 0.0044686 0.9999325 0.0044686 0.0000675 -0.0044686
3454511 0.0000669 -0.0043653 0.9999331 0.0043653 0.9999331 0.0043653 0.0000669 -0.0043653
3530465 0.0000664 -0.0042641 0.9999336 0.0042641 0.9999336 0.0042641 0.0000664 -0.0042641
3608090 0.0000659 -0.0041650 0.9999341 0.0041650 0.9999341 0.0041650 0.0000659 -0.0041650
3687421 0.0000654 -0.0040678 0.9999346 0.0040678 0.9999346 0.0040678 0.0000654 -0.0040678
3768496 0.0000649 -0.0039726 0.9999351 0.0039726 0.9999351 0.0039726 0.0000649 -0.0039726
3851354 0.0000645 -0.0038792 0.9999355 0.0038792 0.9999355 0.0038792 0.0000645 -0.0038792
3936034 0.0000642 -0.0037877 0.9999358 0.0037877 0.9999358 0.0037877 0.0000642 -0.0037877
4022575 0.0000639 -0.0036980 0.9999361 0.0036980 0.9999361 0.0036980 0.0000639 -0.0036980
4111020 0.0000636 -0.0036101 0.9999364 0.0036101 0.9999364 0.0036101 0.0000636 -0.0036101
4201409 0.0000633 -0.0035238 0.9999367 0.0035238 0.9999367 0.0035238 0.0000633 -0.0035238
4293785 0.0000631 -0.0034393 0.9999369 0.0034393 0.9999369 0.0034393 0.0000631 -0.0034393
4388193 0.0000629 -0.0033564 0.9999371 0.0033564 0.9999371 0.0033564 0.0000629 -0.0033564
4484676 0.0000627 -0.0032751 0.9999373 0.0032751 0.9999373 0.0032751 0.0000627 -0.0032751
4583281 0.0000626 -0.0031953 0.9999374 0.0031953 0.9999374 0.0031953 0.0000626 -0.0031953
4684054 0.0000625 -0.0031171 0.9999375 0.0031171 0.9999375 0.0031171 0.0000625 -0.0031171
4787042 0.0000624 -0.0030403 0.9999376 0.0030403 0.9999376 0.0030403 0.0000624 -0.0030403
4892295 0.0000623 -0.0029650 0.9999377 0.0029650 0.9999377 0.0029650 0.0000623 -0.0029650
4999862 0.0000623 -0.0028911 0.9999377 0.0028911 0.9999377 0.0028911 0.0000623 -0.0028911
5109794 0.0000622 -0.0028186 0.9999378 0.0028186 0.9999378 0.0028186 0.0000622 -0.0028186
5222143 0.0000623 -0.0027474 0.9999377 0.0027474 0.9999377 0.0027474 0.0000623 -0.0027474
5336962 0.0000623 -0.0026776 0.9999377 0.0026776 0.9999377 0.0026776 0.0000623 -0.0026776
5454306 0.0000623 -0.0026090 0.9999377 0.0026090 0.9999377 0.0026090 0.0000623 -0.0026090
5574230 0.0000624 -0.0025416 0.9999376 0.0025416 0.9999376 0.0025416 0.0000624 -0.0025416
5696791 0.0000625 -0.0024755 0.9999375 0.0024755 0.9999375 0.0024755 0.0000625 -0.0024755
5822046 0.0000626 -0.0024106 0.9999374 0.0024106 0.9999374 0.0024106 0.0000626 -0.0024106
5950055 0.0000627 -0.0023468 0.9999373 0.0023468 0.9999373 0.0023468 0.0000627 -0.0023468
6080879 0.0000629 -0.0022841 0.9999371 0.0022841 0.9999371 0.0022841 0.0000629 -0.0022841
6214580 0.0000631 -0.0022225 0.9999369 0.0022225 0.9999369 0.0022225 0.0000631 -0.0022225
6351220 0.0000632 -0.0021619 0.9999368 0.0021619 0.9999368 0.0021619 0.0000632 -0.0021619
6490864 0.0000634 -0.0021024 0.9999366 0.0021024 0.9999366 0.0021024 0.0000634 -0.0021024
6633579 0.0000637 -0.0020439 0.9999363 0.0020439 0.9999363 0.0020439 0.0000637 -0.0020439
6779431 0.0000639 -0.0019863 0.9999361 0.0019863 0.9999361 0.0019863 0.0000639 -0.0019863
6928491 0.0000642 -0.0019297 0.9999358 0.0019297 0.9999358 0.0019297 0.0000642 -0.0019297
7080828 0.0000644 -0.0018741 0.9999356 0.0018741 0.9999356 0.0018741 0.0000644 -0.0018741
7236514 0.0000647 -0.0018193 0.9999353 0.0018193 0.9999353 0.0018193 0.0000647 -0.0018193
7395623 0.0000650 -0.0017653 0.9999350 0.0017653 0.9999350 0.0017653 0.0000650 -0.0017653
7558231 0.0000654 -0.0017122 0.9999346 0.0017122 0.9999346 0.0017122 0.0000654 -0.0017122
7724414 0.0000657 -0.0016600 0.9999343 0.0016600 0.9999343 0.0016600 0.0000657 -0.0016600
7894251 0.0000661 -0.0016085 0.9999339 0.0016085 0.9999339 0.0016085 0.0000661 -0.0016085
8067822 0.0000664 -0.0015577 0.9999336 0.0015577 0.9999336 0.0015577 0.0000664 -0.0015577
8245209 0.0000668 -0.0015077 0.9999332 0.0015077 0.9999332 0.0015077 0.0000668 -0.0015077
8426497 0.0000673 -0.0014584 0.9999327 0.0014584 0.9999327 0.0014584 0.0000673 -0.0014584
8611770 0.0000677 -0.0014098 0.9999323 0.0014098 0.9999323 0.0014098 0.0000677 -0.0014098
8801117 0.0000682 -0.0013619 0.9999318 0.0013619 0.9999318 0.0013619 0.0000682 -0.0013619
8994628 0.0000686 -0.0013146 0.9999314 0.0013146 0.9999314 0.0013146 0.0000686 -0.0013146
9192393 0.0000691 -0.0012679 0.9999309 0.0012679 0.9999309 0.0012679 0.0000691 -0.0012679
9394506 0.0000697 -0.0012218 0.9999303 0.0012218 0.9999303 0.0012218 0.0000697 -0.0012218
9601063 0.0000702 -0.0011763 0.9999298 0.0011763 0.9999298 0.0011763 0.0000702 -0.0011763
9812162 0.0000708 -0.0011313 0.9999292 0.0011313 0.9999292 0.0011313 0.0000708 -0.0011313
10027902 0.0000714 -0.0010869 0.9999286 0.0010869 0.9999286 0.0010869 0.0000714 -0.0010869
10248386 0.0000720 -0.0010429 0.9999280 0.0010429 0.9999280 0.0010429 0.0000720 -0.0010429
10473717 0.0000726 -0.0009994 0.9999274 0.0009994 0.9999274 0.0009994 0.0000726 -0.0009994
10704003 0.0000733 -0.0009564 0.9999267 0.0009564 0.9999267 0.0009564 0.0000733 -0.0009564
10939352 0.0000740 -0.0009138 0.9999260 0.0009138 0.9999260 0.0009138 0.0000740 -0.0009138
11179876 0.0000748 -0.0008717 0.9999252 0.0008717 0.9999252 0.0008717 0.0000748 -0.0008717
11425688 0.0000755 -0.0008299 0.9999245 0.0008299 0.9999245 0.0008299 0.0000755 -0.0008299
11676904 0.0000764 -0.0007885 0.9999236 0.0007885 0.9999236 0.0007885 0.0000764 -0.0007885
11933645 0.0000772 -0.0007474 0.9999228 0.0007474 0.9999228 0.0007474 0.0000772 -0.0007474
12196030 0.0000781 -0.0007067 0.9999219 0.0007067 0.9999219 0.0007067 0.0000781 -0.0007067
12464184 0.0000790 -0.0006662 0.9999210 0.0006662 0.9999210 0.0006662 0.0000790 -0.0006662
12738235 0.0000800 -0.0006261 0.9999200 0.0006261 0.9999200 0.0006261 0.0000800 -0.0006261
13018310 0.0000810 -0.0005862 0.9999190 0.0005862 0.9999190 0.0005862 0.0000810 -0.0005862
13304544 0.0000820 -0.0005465 0.9999180 0.0005465 0.9999180 0.0005465 0.0000820 -0.0005465
13597071 0.0000831 -0.0005070 0.9999169 0.0005070 0.9999169 0.0005070 0.0000831 -0.0005070
13896030 0.0000843 -0.0004677 0.9999157 0.0004677 0.9999157 0.0004677 0.0000843 -0.0004677
14201563 0.0000855 -0.0004286 0.9999145 0.0004286 0.9999145 0.0004286 0.0000855 -0.0004286
14513813 0.0000868 -0.0003897 0.9999132 0.0003897 0.9999132 0.0003897 0.0000868 -0.0003897
14832928 0.0000881 -0.0003508 0.9999119 0.0003508 0.9999119 0.0003508 0.0000881 -0.0003508
15159060 0.0000896 -0.0003121 0.9999104 0.0003121 0.9999104 0.0003121 0.0000896 -0.0003121
15492362 0.0000910 -0.0002734 0.9999090 0.0002734 0.9999090 0.0002734 0.0000910 -0.0002734
15832993 0.0000926 -0.0002347 0.9999074 0.0002347 0.9999074 0.0002347 0.0000926 -0.0002347
16181113 0.0000942 -0.0001960 0.9999058 0.0001960 0.9999058 0.0001960 0.0000942 -0.0001960
16536888 0.0000960 -0.0001574 0.9999040 0.0001574 0.9999040 0.0001574 0.0000960 -0.0001574
16900485 0.0000978 -0.0001187 0.9999022 0.0001187 0.9999022 0.0001187 0.0000978 -0.0001187
17272076 0.0000997 -0.0000799 0.9999003 0.0000799 0.9999003 0.0000799 0.0000997 -0.0000799
17651837 0.0001018 -0.0000410 0.9998982 0.0000410 0.9998982 0.0000410 0.0001018 -0.0000410
18039948 0.0001040 -0.0000020 0.9998960 0.0000020 0.9998960 0.0000020 0.0001040 -0.0000020
18436593 0.0001063 0.0000373 0.9998937 -0.0000373 0.9998937 -0.0000373 0.0001063 0.0000373
18841959 0.0001087 0.0000767 0.9998913 -0.0000767 0.9998913 -0.0000767 0.0001087 0.0000767
19256237 0.0001113 0.0001164 0.9998887 -0.0001164 0.9998887 -0.0001164 0.0001113 0.0001164
19679624 0.0001141 0.0001564 0.9998859 -0.0001564 0.9998859 -0.0001564 0.0001141 0.0001564
20112321 0.0001170 0.0001968 0.9998830 -0.0001968 0.9998830 -0.0001968 0.0001170 0.0001968
20554530 0.0001202 0.0002375 0.9998798 -0.0002375 0.9998798 -0.0002375 0.0001202 0.0002375
21006463 0.0001236 0.0002787 0.9998764 -0.0002787 0.9998764 -0.0002787 0.0001236 0.0002787
21468333 0.0001272 0.0003205 0.9998728 -0.0003205 0.9998728 -0.0003205 0.0001272 0.0003205
21940357 0.0001312 0.0003629 0.9998688 -0.0003629 0.9998688 -0.0003629 0.0001312 0.0003629
22422760 0.0001355 0.0004059 0.9998645 -0.0004059 0.9998645 -0.0004059 0.0001355 0.0004059
22915770 0.0001402 0.0004497 0.9998598 -0.0004497 0.9998598 -0.0004497 0.0001402 0.0004497
23419619 0.0001453 0.0004944 0.9998547 -0.0004944 0.9998547 -0.0004944 0.0001453 0.0004944
23934547 0.0001509 0.0005401 0.9998491 -0.0005401 0.9998491 -0.0005401 0.0001509 0.0005401
24460796 0.0001572 0.0005870 0.9998428 -0.0005870 0.9998428 -0.0005870 0.0001572 0.0005870
24998616 0.0001642 0.0006352 0.9998358 -0.0006352 0.9998358 -0.0006352 0.0001642 0.0006352
25548261 0.0001721 0.0006849 0.9998279 -0.0006849 0.9998279 -0.0006849 0.0001721 0.0006849
26109991 0.0001810 0.0007363 0.9998190 -0.0007363 0.9998190 -0.0007363 0.0001810 0.0007363
26684072 0.0001914 0.0007898 0.9998086 -0.0007898 0.9998086 -0.0007898 0.0001914 0.0007898
27270775 0.0002035 0.0008457 0.9997965 -0.0008457 0.9997965 -0.0008457 0.0002035 0.0008457
27870378 0.0002179 0.0009045 0.9997821 -0.0009045 0.9997821 -0.0009045 0.0002179 0.0009045
28483164 0.0002354 0.0009665 0.9997646 -0.0009665 0.9997646 -0.0009665 0.0002354 0.0009665
29109424 0.0002570 0.0010326 0.9997430 -0.0010326 0.9997430 -0.0010326 0.0002570 0.0010326
29749453 0.0002844 0.0011033 0.9997156 -0.0011033 0.9997156 -0.0011033 0.0002844 0.0011033
30403555 0.0003204 0.0011793 0.9996796 -0.0011793 0.9996796 -0.0011793 0.0003204 0.0011793
31072038 0.0003689 0.0012611 0.9996311 -0.0012611 0.9996311 -0.0012611 0.0003689 0.0012611
31755220 0.0004366 0.0013478 0.9995634 -0.0013478 0.9995634 -0.0013478 0.0004366 0.0013478
32453422 0.0005341 0.0014351 0.9994659 -0.0014351 0.9994659 -0.0014351 0.0005341 0.0014351
33166976 0.0006762 0.0015091 0.9993238 -0.0015091 0.9993238 -0.0015091 0.0006762 0.0015091
33896219 0.0008749 0.0015335 0.9991251 -0.0015335 0.9991251 -0.0015335 0.0008749 0.0015335
34641496 0.0011047 0.0014411 0.9988953 -0.0014411 0.9988953 -0.0014411 0.0011047 0.0014411
35403159 0.0012471 0.0011951 0.9987529 -0.0011951 0.9987529 -0.0011951 0.0012471 0.0011951
36181569 0.0011802 0.0009216 0.9988198 -0.0009216 0.9988198 -0.0009216 0.0011802 0.0009216
36977093 0.0009804 0.0007877 0.9990196 -0.0007877 0.9990196 -0.0007877 0.0009804 0.0007877
37790109 0.0007890 0.0007935 0.9992110 -0.0007935 0.9992110 -0.0007935 0.0007890 0.0007935
38621001 0.0006547 0.0008684 0.9993453 -0.0008684 0.9993453 -0.0008684 0.0006547 0.0008684
39470161 0.0005711 0.0009670 0.9994289 -0.0009670 0.9994289 -0.0009670 0.0005711 0.0009670
40337993 0.0005231 0.0010707 0.9994769 -0.0010707 0.9994769 -0.0010707 0.0005231 0.0010707
41224905 0.0004996 0.0011733 0.9995004 -0.0011733 0.9995004 -0.0011733 0.0004996 0.0011733
42131317 0.0004936 0.0012736 0.9995064 -0.0012736 0.9995064 -0.0012736 0.0004936 0.0012736
43057659 0.0005015 0.0013719 0.9994985 -0.0013719 0.9994985 -0.0013719 0.0005015 0.0013719
44004369 0.0005215 0.0014688 0.9994785 -0.0014688 0.9994785 -0.0014688 0.0005215 0.0014688
44971893 0.0005536 0.0015651 0.9994464 -0.0015651 0.9994464 -0.0015651 0.0005536 0.0015651
45960691 0.0005988 0.0016608 0.9994012 -0.0016608 0.9994012 -0.0016608 0.0005988 0.0016608
46971230 0.0006593 0.0017554 0.9993407 -0.0017554 0.9993407 -0.0017554 0.0006593 0.0017554
48003987 0.0007385 0.0018470 0.9992615 -0.0018470 0.9992615 -0.0018470 0.0007385 0.0018470
49059451 0.0008405 0.0019315 0.9991595 -0.0019315 0.9991595 -0.0019315 0.0008405 0.0019315
50138122 0.0009701 0.0020011 0.9990299 -0.0020011 0.9990299 -0.0020011 0.0009701 0.0020011
51240510 0.0011297 0.0020421 0.9988703 -0.0020421 0.9988703 -0.0020421 0.0011297 0.0020421
52367136 0.0013151 0.0020344 0.9986849 -0.0020344 0.9986849 -0.0020344 0.0013151 0.0020344
53518533 0.0015065 0.0019547 0.9984935 -0.0019547 0.9984935 -0.0019547 0.0015065 0.0019547
54695245 0.0016628 0.0017907 0.9983372 -0.0017907 0.9983372 -0.0017907 0.0016628 0.0017907
55897831 0.0017323 0.0015638 0.9982677 -0.0015638 0.9982677 -0.0015638 0.0017323 0.0015638
57126857 0.0016876 0.0013328 0.9983124 -0.0013328 0.9983124 -0.0013328 0.0016876 0.0013328
58382906 0.0015505 0.0011591 0.9984495 -0.0011591 0.9984495 -0.0011591 0.0015505 0.0011591
59666572 0.0013717 0.0010692 0.9986283 -0.0010692 0.9986283 -0.0010692 0.0013717 0.0010692
60978462 0.0011949 0.0010539 0.9988051 -0.0010539 0.9988051 -0.0010539 0.0011949 0.0010539
62319196 0.0010423 0.0010899 0.9989577 -0.0010899 0.9989577 -0.0010899 0.0010423 0.0010899
63689409 0.0009193 0.0011562 0.9990807 -0.0011562 0.9990807 -0.0011562 0.0009193 0.0011562
65089750 0.0008237 0.0012380 0.9991763 -0.0012380 0.9991763 -0.0012380 0.0008237 0.0012380
66520879 0.0007505 0.0013267 0.9992495 -0.0013267 0.9992495 -0.0013267 0.0007505 0.0013267
67983474 0.0006949 0.0014175 0.9993051 -0.0014175 0.9993051 -0.0014175 0.0006949 0.0014175
69478228 0.0006531 0.0015080 0.9993469 -0.0015080 0.9993469 -0.0015080 0.0006531 0.0015080
71005847 0.0006217 0.0015969 0.9993783 -0.0015969 0.9993783 -0.0015969 0.0006217 0.0015969
72567054 0.0005985 0.0016839 0.9994015 -0.0016839 0.9994015 -0.0016839 0.0005985 0.0016839
74162587 0.0005815 0.0017688 0.9994185 -0.0017688 0.9994185 -0.0017688 0.0005815 0.0017688
75793201 0.0005696 0.0018517 0.9994304 -0.0018517 0.9994304 -0.0018517 0.0005696 0.0018517
77459667 0.0005616 0.0019329 0.9994384 -0.0019329 0.9994384 -0.0019329 0.0005616 0.0019329
79162774 0.0005568 0.0020126 0.9994432 -0.0020126 0.9994432 -0.0020126 0.0005568 0.0020126
80903327 0.0005546 0.0020910 0.9994454 -0.0020910 0.9994454 -0.0020910 0.0005546 0.0020910
82682150 0.0005545 0.0021683 0.9994455 -0.0021683 0.9994455 -0.0021683 0.0005545 0.0021683
84500083 0.0005562 0.0022447 0.9994438 -0.0022447 0.9994438 -0.0022447 0.0005562 0.0022447
86357988 0.0005594 0.0023205 0.9994406 -0.0023205 0.9994406 -0.0023205 0.0005594 0.0023205
88256743 0.0005638 0.0023957 0.9994362 -0.0023957 0.9994362 -0.0023957 0.0005638 0.0023957
90197245 0.0005693 0.0024706 0.9994307 -0.0024706 0.9994307 -0.0024706 0.0005693 0.0024706
92180413 0.0005757 0.0025452 0.9994243 -0.0025452 0.9994243 -0.0025452 0.0005757 0.0025452
94207185 0.0005829 0.0026198 0.9994171 -0.0026198 0.9994171 -0.0026198 0.0005829 0.0026198
96278520 0.0005908 0.0026944 0.9994092 -0.0026944 0.9994092 -0.0026944 0.0005908 0.0026944
98395398 0.0005993 0.0027691 0.9994007 -0.0027691 0.9994007 -0.0027691 0.0005993 0.0027691
100558819 0.0006083 0.0028440 0.9993917 -0.0028440 0.9993917 -0.0028440 0.0006083 0.0028440
102769807 0.0006177 0.0029192 0.9993823 -0.0029192 0.9993823 -0.0029192 0.0006177 0.0029192
105029408 0.0006276 0.0029948 0.9993724 -0.0029948 0.9993724 -0.0029948 0.0006276 0.0029948
107338692 0.0006378 0.0030709 0.9993622 -0.0030709 0.9993622 -0.0030709 0.0006378 0.0030709
