!Murata Part Number: GRM31B7U3A561JW31
!These Parameters are Measured in Series Mode Connection
!Data Generated on Mar 30, 2021
!       o--ll--o
!Port1            Port2
!       o------o
!Operation Temp=25[degC], DC Bias Voltage=0[V]
!Freq. Start=100[MHz] Stop=3[GHz] 401[Steps]
# Hz S RI R 50
!Freq.(Hz) S11(Real) S11(Imag) S21(Real) S21(Imag) S12(Real) S12(Imag) S22(Real) S22(Imag)
100000000 0.0009584 -0.0232248 0.9990416 0.0232248 0.9990416 0.0232248 0.0009584 -0.0232248
107250000 0.0008643 -0.0209315 0.9991357 0.0209315 0.9991357 0.0209315 0.0008643 -0.0209315
114500000 0.0007904 -0.0188799 0.9992096 0.0188799 0.9992096 0.0188799 0.0007904 -0.0188799
121750000 0.0007323 -0.0170266 0.9992677 0.0170266 0.9992677 0.0170266 0.0007323 -0.0170266
129000000 0.0006866 -0.0153383 0.9993134 0.0153383 0.9993134 0.0153383 0.0006866 -0.0153383
136250000 0.0006510 -0.0137883 0.9993490 0.0137883 0.9993490 0.0137883 0.0006510 -0.0137883
143500000 0.0006236 -0.0123557 0.9993764 0.0123557 0.9993764 0.0123557 0.0006236 -0.0123557
150750000 0.0006031 -0.0110234 0.9993969 0.0110234 0.9993969 0.0110234 0.0006031 -0.0110234
158000000 0.0005885 -0.0097773 0.9994115 0.0097773 0.9994115 0.0097773 0.0005885 -0.0097773
165250000 0.0005789 -0.0086060 0.9994211 0.0086060 0.9994211 0.0086060 0.0005789 -0.0086060
172500000 0.0005736 -0.0074998 0.9994264 0.0074998 0.9994264 0.0074998 0.0005736 -0.0074998
179750000 0.0005721 -0.0064507 0.9994279 0.0064507 0.9994279 0.0064507 0.0005721 -0.0064507
187000000 0.0005740 -0.0054519 0.9994260 0.0054519 0.9994260 0.0054519 0.0005740 -0.0054519
194250000 0.0005790 -0.0044974 0.9994210 0.0044974 0.9994210 0.0044974 0.0005790 -0.0044974
201500000 0.0005867 -0.0035822 0.9994133 0.0035822 0.9994133 0.0035822 0.0005867 -0.0035822
208750000 0.0005971 -0.0027020 0.9994029 0.0027020 0.9994029 0.0027020 0.0005971 -0.0027020
216000000 0.0006098 -0.0018531 0.9993902 0.0018531 0.9993902 0.0018531 0.0006098 -0.0018531
223250000 0.0006248 -0.0010321 0.9993752 0.0010321 0.9993752 0.0010321 0.0006248 -0.0010321
230500000 0.0006420 -0.0002360 0.9993580 0.0002360 0.9993580 0.0002360 0.0006420 -0.0002360
237750000 0.0006612 0.0005377 0.9993388 -0.0005377 0.9993388 -0.0005377 0.0006612 0.0005377
245000000 0.0006825 0.0012913 0.9993175 -0.0012913 0.9993175 -0.0012913 0.0006825 0.0012913
252250000 0.0007057 0.0020270 0.9992943 -0.0020270 0.9992943 -0.0020270 0.0007057 0.0020270
259500000 0.0007309 0.0027466 0.9992691 -0.0027466 0.9992691 -0.0027466 0.0007309 0.0027466
266750000 0.0007581 0.0034518 0.9992419 -0.0034518 0.9992419 -0.0034518 0.0007581 0.0034518
274000000 0.0007873 0.0041443 0.9992127 -0.0041443 0.9992127 -0.0041443 0.0007873 0.0041443
281250000 0.0008185 0.0048255 0.9991815 -0.0048255 0.9991815 -0.0048255 0.0008185 0.0048255
288500000 0.0008518 0.0054967 0.9991482 -0.0054967 0.9991482 -0.0054967 0.0008518 0.0054967
295750000 0.0008873 0.0061594 0.9991127 -0.0061594 0.9991127 -0.0061594 0.0008873 0.0061594
303000000 0.0009251 0.0068147 0.9990749 -0.0068147 0.9990749 -0.0068147 0.0009251 0.0068147
310250000 0.0009653 0.0074638 0.9990347 -0.0074638 0.9990347 -0.0074638 0.0009653 0.0074638
317500000 0.0010081 0.0081078 0.9989919 -0.0081078 0.9989919 -0.0081078 0.0010081 0.0081078
324750000 0.0010536 0.0087481 0.9989464 -0.0087481 0.9989464 -0.0087481 0.0010536 0.0087481
332000000 0.0011023 0.0093857 0.9988977 -0.0093857 0.9988977 -0.0093857 0.0011023 0.0093857
339250000 0.0011542 0.0100219 0.9988458 -0.0100219 0.9988458 -0.0100219 0.0011542 0.0100219
346500000 0.0012099 0.0106579 0.9987901 -0.0106579 0.9987901 -0.0106579 0.0012099 0.0106579
353750000 0.0012697 0.0112950 0.9987303 -0.0112950 0.9987303 -0.0112950 0.0012697 0.0112950
361000000 0.0013342 0.0119347 0.9986658 -0.0119347 0.9986658 -0.0119347 0.0013342 0.0119347
368250000 0.0014041 0.0125784 0.9985959 -0.0125784 0.9985959 -0.0125784 0.0014041 0.0125784
375500000 0.0014802 0.0132280 0.9985198 -0.0132280 0.9985198 -0.0132280 0.0014802 0.0132280
382750000 0.0015636 0.0138853 0.9984364 -0.0138853 0.9984364 -0.0138853 0.0015636 0.0138853
390000000 0.0016556 0.0145525 0.9983444 -0.0145525 0.9983444 -0.0145525 0.0016556 0.0145525
397250000 0.0017579 0.0152321 0.9982421 -0.0152321 0.9982421 -0.0152321 0.0017579 0.0152321
404500000 0.0018726 0.0159271 0.9981274 -0.0159271 0.9981274 -0.0159271 0.0018726 0.0159271
411750000 0.0020027 0.0166408 0.9979973 -0.0166408 0.9979973 -0.0166408 0.0020027 0.0166408
419000000 0.0021520 0.0173775 0.9978480 -0.0173775 0.9978480 -0.0173775 0.0021520 0.0173775
426250000 0.0023257 0.0181419 0.9976743 -0.0181419 0.9976743 -0.0181419 0.0023257 0.0181419
433500000 0.0025307 0.0189401 0.9974693 -0.0189401 0.9974693 -0.0189401 0.0025307 0.0189401
440750000 0.0027769 0.0197791 0.9972231 -0.0197791 0.9972231 -0.0197791 0.0027769 0.0197791
448000000 0.0030784 0.0206674 0.9969216 -0.0206674 0.9969216 -0.0206674 0.0030784 0.0206674
455250000 0.0034557 0.0216148 0.9965443 -0.0216148 0.9965443 -0.0216148 0.0034557 0.0216148
462500000 0.0039393 0.0226319 0.9960607 -0.0226319 0.9960607 -0.0226319 0.0039393 0.0226319
469750000 0.0045755 0.0237282 0.9954245 -0.0237282 0.9954245 -0.0237282 0.0045755 0.0237282
477000000 0.0054367 0.0249060 0.9945633 -0.0249060 0.9945633 -0.0249060 0.0054367 0.0249060
484250000 0.0066355 0.0261461 0.9933645 -0.0261461 0.9933645 -0.0261461 0.0066355 0.0261461
491500000 0.0083440 0.0273685 0.9916560 -0.0273685 0.9916560 -0.0273685 0.0083440 0.0273685
498750000 0.0107963 0.0283416 0.9892037 -0.0283416 0.9892037 -0.0283416 0.0107963 0.0283416
506000000 0.0141833 0.0285032 0.9858167 -0.0285032 0.9858167 -0.0285032 0.0141833 0.0285032
513250000 0.0181883 0.0268235 0.9818117 -0.0268235 0.9818117 -0.0268235 0.0181883 0.0268235
520500000 0.0211553 0.0225071 0.9788447 -0.0225071 0.9788447 -0.0225071 0.0211553 0.0225071
527750000 0.0208429 0.0169769 0.9791571 -0.0169769 0.9791571 -0.0169769 0.0208429 0.0169769
535000000 0.0175991 0.0131855 0.9824009 -0.0131855 0.9824009 -0.0131855 0.0175991 0.0131855
542250000 0.0137816 0.0119789 0.9862184 -0.0119789 0.9862184 -0.0119789 0.0137816 0.0119789
549500000 0.0107281 0.0123743 0.9892719 -0.0123743 0.9892719 -0.0123743 0.0107281 0.0123743
556750000 0.0085863 0.0134301 0.9914137 -0.0134301 0.9914137 -0.0134301 0.0085863 0.0134301
564000000 0.0071371 0.0146708 0.9928629 -0.0146708 0.9928629 -0.0146708 0.0071371 0.0146708
571250000 0.0061576 0.0159075 0.9938424 -0.0159075 0.9938424 -0.0159075 0.0061576 0.0159075
578500000 0.0054903 0.0170778 0.9945097 -0.0170778 0.9945097 -0.0170778 0.0054903 0.0170778
585750000 0.0050327 0.0181685 0.9949673 -0.0181685 0.9949673 -0.0181685 0.0050327 0.0181685
593000000 0.0047196 0.0191844 0.9952804 -0.0191844 0.9952804 -0.0191844 0.0047196 0.0191844
600250000 0.0045088 0.0201354 0.9954912 -0.0201354 0.9954912 -0.0201354 0.0045088 0.0201354
607500000 0.0043730 0.0210322 0.9956270 -0.0210322 0.9956270 -0.0210322 0.0043730 0.0210322
614750000 0.0042938 0.0218844 0.9957062 -0.0218844 0.9957062 -0.0218844 0.0042938 0.0218844
622000000 0.0042587 0.0227005 0.9957413 -0.0227005 0.9957413 -0.0227005 0.0042587 0.0227005
629250000 0.0042593 0.0234874 0.9957407 -0.0234874 0.9957407 -0.0234874 0.0042593 0.0234874
636500000 0.0042898 0.0242512 0.9957102 -0.0242512 0.9957102 -0.0242512 0.0042898 0.0242512
643750000 0.0043464 0.0249968 0.9956536 -0.0249968 0.9956536 -0.0249968 0.0043464 0.0249968
651000000 0.0044266 0.0257286 0.9955734 -0.0257286 0.9955734 -0.0257286 0.0044266 0.0257286
658250000 0.0045290 0.0264501 0.9954710 -0.0264501 0.9954710 -0.0264501 0.0045290 0.0264501
665500000 0.0046529 0.0271646 0.9953471 -0.0271646 0.9953471 -0.0271646 0.0046529 0.0271646
672750000 0.0047985 0.0278749 0.9952015 -0.0278749 0.9952015 -0.0278749 0.0047985 0.0278749
680000000 0.0049666 0.0285834 0.9950334 -0.0285834 0.9950334 -0.0285834 0.0049666 0.0285834
687250000 0.0051586 0.0292924 0.9948414 -0.0292924 0.9948414 -0.0292924 0.0051586 0.0292924
694500000 0.0053764 0.0300038 0.9946236 -0.0300038 0.9946236 -0.0300038 0.0053764 0.0300038
701750000 0.0056229 0.0307193 0.9943771 -0.0307193 0.9943771 -0.0307193 0.0056229 0.0307193
709000000 0.0059015 0.0314402 0.9940985 -0.0314402 0.9940985 -0.0314402 0.0059015 0.0314402
716250000 0.0062166 0.0321675 0.9937834 -0.0321675 0.9937834 -0.0321675 0.0062166 0.0321675
723500000 0.0065735 0.0329018 0.9934265 -0.0329018 0.9934265 -0.0329018 0.0065735 0.0329018
730750000 0.0069788 0.0336429 0.9930212 -0.0336429 0.9930212 -0.0336429 0.0069788 0.0336429
738000000 0.0074403 0.0343897 0.9925597 -0.0343897 0.9925597 -0.0343897 0.0074403 0.0343897
745250000 0.0079676 0.0351395 0.9920324 -0.0351395 0.9920324 -0.0351395 0.0079676 0.0351395
752500000 0.0085719 0.0358878 0.9914281 -0.0358878 0.9914281 -0.0358878 0.0085719 0.0358878
759750000 0.0092664 0.0366271 0.9907336 -0.0366271 0.9907336 -0.0366271 0.0092664 0.0366271
767000000 0.0100661 0.0373458 0.9899339 -0.0373458 0.9899339 -0.0373458 0.0100661 0.0373458
774250000 0.0109877 0.0380264 0.9890123 -0.0380264 0.9890123 -0.0380264 0.0109877 0.0380264
781500000 0.0120478 0.0386434 0.9879522 -0.0386434 0.9879522 -0.0386434 0.0120478 0.0386434
788750000 0.0132615 0.0391607 0.9867385 -0.0391607 0.9867385 -0.0391607 0.0132615 0.0391607
796000000 0.0146372 0.0395288 0.9853628 -0.0395288 0.9853628 -0.0395288 0.0146372 0.0395288
803250000 0.0161703 0.0396836 0.9838297 -0.0396836 0.9838297 -0.0396836 0.0161703 0.0396836
810500000 0.0178323 0.0395475 0.9821677 -0.0395475 0.9821677 -0.0395475 0.0178323 0.0395475
817750000 0.0195582 0.0390378 0.9804418 -0.0390378 0.9804418 -0.0390378 0.0195582 0.0390378
825000000 0.0212359 0.0380852 0.9787641 -0.0380852 0.9787641 -0.0380852 0.0212359 0.0380852
832250000 0.0227060 0.0366638 0.9772940 -0.0366638 0.9772940 -0.0366638 0.0227060 0.0366638
839500000 0.0237843 0.0348242 0.9762157 -0.0348242 0.9762157 -0.0348242 0.0237843 0.0348242
846750000 0.0243092 0.0327103 0.9756908 -0.0327103 0.9756908 -0.0327103 0.0243092 0.0327103
854000000 0.0241988 0.0305398 0.9758012 -0.0305398 0.9758012 -0.0305398 0.0241988 0.0305398
861250000 0.0234844 0.0285463 0.9765156 -0.0285463 0.9765156 -0.0285463 0.0234844 0.0285463
868500000 0.0222973 0.0269129 0.9777027 -0.0269129 0.9777027 -0.0269129 0.0222973 0.0269129
875750000 0.0208184 0.0257327 0.9791816 -0.0257327 0.9791816 -0.0257327 0.0208184 0.0257327
883000000 0.0192228 0.0250113 0.9807772 -0.0250113 0.9807772 -0.0250113 0.0192228 0.0250113
890250000 0.0176454 0.0246952 0.9823546 -0.0246952 0.9823546 -0.0246952 0.0176454 0.0246952
897500000 0.0161718 0.0247050 0.9838282 -0.0247050 0.9838282 -0.0247050 0.0161718 0.0247050
904750000 0.0148457 0.0249590 0.9851543 -0.0249590 0.9851543 -0.0249590 0.0148457 0.0249590
912000000 0.0136814 0.0253865 0.9863186 -0.0253865 0.9863186 -0.0253865 0.0136814 0.0253865
919250000 0.0126753 0.0259311 0.9873247 -0.0259311 0.9873247 -0.0259311 0.0126753 0.0259311
926500000 0.0118148 0.0265507 0.9881852 -0.0265507 0.9881852 -0.0265507 0.0118148 0.0265507
933750000 0.0110835 0.0272152 0.9889165 -0.0272152 0.9889165 -0.0272152 0.0110835 0.0272152
941000000 0.0104646 0.0279035 0.9895354 -0.0279035 0.9895354 -0.0279035 0.0104646 0.0279035
948250000 0.0099423 0.0286011 0.9900577 -0.0286011 0.9900577 -0.0286011 0.0099423 0.0286011
955500000 0.0095024 0.0292986 0.9904976 -0.0292986 0.9904976 -0.0292986 0.0095024 0.0292986
962750000 0.0091327 0.0299898 0.9908673 -0.0299898 0.9908673 -0.0299898 0.0091327 0.0299898
970000000 0.0088229 0.0306710 0.9911771 -0.0306710 0.9911771 -0.0306710 0.0088229 0.0306710
977250000 0.0085642 0.0313399 0.9914358 -0.0313399 0.9914358 -0.0313399 0.0085642 0.0313399
984500000 0.0083493 0.0319955 0.9916507 -0.0319955 0.9916507 -0.0319955 0.0083493 0.0319955
991750000 0.0081720 0.0326373 0.9918280 -0.0326373 0.9918280 -0.0326373 0.0081720 0.0326373
999000000 0.0080275 0.0332654 0.9919725 -0.0332654 0.9919725 -0.0332654 0.0080275 0.0332654
1006250000 0.0079114 0.0338802 0.9920886 -0.0338802 0.9920886 -0.0338802 0.0079114 0.0338802
1013500000 0.0078203 0.0344823 0.9921797 -0.0344823 0.9921797 -0.0344823 0.0078203 0.0344823
1020750000 0.0077513 0.0350723 0.9922487 -0.0350723 0.9922487 -0.0350723 0.0077513 0.0350723
1028000000 0.0077020 0.0356509 0.9922980 -0.0356509 0.9922980 -0.0356509 0.0077020 0.0356509
1035250000 0.0076704 0.0362189 0.9923296 -0.0362189 0.9923296 -0.0362189 0.0076704 0.0362189
1042500000 0.0076549 0.0367770 0.9923451 -0.0367770 0.9923451 -0.0367770 0.0076549 0.0367770
1049750000 0.0076543 0.0373258 0.9923457 -0.0373258 0.9923457 -0.0373258 0.0076543 0.0373258
1057000000 0.0076674 0.0378659 0.9923326 -0.0378659 0.9923326 -0.0378659 0.0076674 0.0378659
1064250000 0.0076935 0.0383979 0.9923065 -0.0383979 0.9923065 -0.0383979 0.0076935 0.0383979
1071500000 0.0077319 0.0389224 0.9922681 -0.0389224 0.9922681 -0.0389224 0.0077319 0.0389224
1078750000 0.0077822 0.0394396 0.9922178 -0.0394396 0.9922178 -0.0394396 0.0077822 0.0394396
1086000000 0.0078442 0.0399499 0.9921558 -0.0399499 0.9921558 -0.0399499 0.0078442 0.0399499
1093250000 0.0079178 0.0404535 0.9920822 -0.0404535 0.9920822 -0.0404535 0.0079178 0.0404535
1100500000 0.0080029 0.0409505 0.9919971 -0.0409505 0.9919971 -0.0409505 0.0080029 0.0409505
1107750000 0.0080998 0.0414409 0.9919002 -0.0414409 0.9919002 -0.0414409 0.0080998 0.0414409
1115000000 0.0082087 0.0419243 0.9917913 -0.0419243 0.9917913 -0.0419243 0.0082087 0.0419243
1122250000 0.0083299 0.0424004 0.9916701 -0.0424004 0.9916701 -0.0424004 0.0083299 0.0424004
1129500000 0.0084639 0.0428684 0.9915361 -0.0428684 0.9915361 -0.0428684 0.0084639 0.0428684
1136750000 0.0086110 0.0433274 0.9913890 -0.0433274 0.9913890 -0.0433274 0.0086110 0.0433274
1144000000 0.0087718 0.0437760 0.9912282 -0.0437760 0.9912282 -0.0437760 0.0087718 0.0437760
1151250000 0.0089463 0.0442126 0.9910537 -0.0442126 0.9910537 -0.0442126 0.0089463 0.0442126
1158500000 0.0091348 0.0446349 0.9908652 -0.0446349 0.9908652 -0.0446349 0.0091348 0.0446349
1165750000 0.0093366 0.0450404 0.9906634 -0.0450404 0.9906634 -0.0450404 0.0093366 0.0450404
1173000000 0.0095510 0.0454260 0.9904490 -0.0454260 0.9904490 -0.0454260 0.0095510 0.0454260
1180250000 0.0097758 0.0457885 0.9902242 -0.0457885 0.9902242 -0.0457885 0.0097758 0.0457885
1187500000 0.0100083 0.0461243 0.9899917 -0.0461243 0.9899917 -0.0461243 0.0100083 0.0461243
1194750000 0.0102441 0.0464304 0.9897559 -0.0464304 0.9897559 -0.0464304 0.0102441 0.0464304
1202000000 0.0104775 0.0467043 0.9895225 -0.0467043 0.9895225 -0.0467043 0.0104775 0.0467043
1209250000 0.0107014 0.0469450 0.9892986 -0.0469450 0.9892986 -0.0469450 0.0107014 0.0469450
1216500000 0.0109078 0.0471536 0.9890922 -0.0471536 0.9890922 -0.0471536 0.0109078 0.0471536
1223750000 0.0110886 0.0473339 0.9889114 -0.0473339 0.9889114 -0.0473339 0.0110886 0.0473339
1231000000 0.0112366 0.0474924 0.9887634 -0.0474924 0.9887634 -0.0474924 0.0112366 0.0474924
1238250000 0.0113468 0.0476379 0.9886532 -0.0476379 0.9886532 -0.0476379 0.0113468 0.0476379
1245500000 0.0114172 0.0477810 0.9885828 -0.0477810 0.9885828 -0.0477810 0.0114172 0.0477810
1252750000 0.0114491 0.0479321 0.9885509 -0.0479321 0.9885509 -0.0479321 0.0114491 0.0479321
1260000000 0.0114474 0.0481005 0.9885526 -0.0481005 0.9885526 -0.0481005 0.0114474 0.0481005
1267250000 0.0114190 0.0482933 0.9885810 -0.0482933 0.9885810 -0.0482933 0.0114190 0.0482933
1274500000 0.0113722 0.0485146 0.9886278 -0.0485146 0.9886278 -0.0485146 0.0113722 0.0485146
1281750000 0.0113154 0.0487659 0.9886846 -0.0487659 0.9886846 -0.0487659 0.0113154 0.0487659
1289000000 0.0112560 0.0490462 0.9887440 -0.0490462 0.9887440 -0.0490462 0.0112560 0.0490462
1296250000 0.0112002 0.0493531 0.9887998 -0.0493531 0.9887998 -0.0493531 0.0112002 0.0493531
1303500000 0.0111527 0.0496832 0.9888473 -0.0496832 0.9888473 -0.0496832 0.0111527 0.0496832
1310750000 0.0111168 0.0500326 0.9888832 -0.0500326 0.9888832 -0.0500326 0.0111168 0.0500326
1318000000 0.0110945 0.0503976 0.9889055 -0.0503976 0.9889055 -0.0503976 0.0110945 0.0503976
1325250000 0.0110869 0.0507747 0.9889131 -0.0507747 0.9889131 -0.0507747 0.0110869 0.0507747
1332500000 0.0110946 0.0511608 0.9889054 -0.0511608 0.9889054 -0.0511608 0.0110946 0.0511608
1339750000 0.0111176 0.0515533 0.9888824 -0.0515533 0.9888824 -0.0515533 0.0111176 0.0515533
1347000000 0.0111554 0.0519497 0.9888446 -0.0519497 0.9888446 -0.0519497 0.0111554 0.0519497
1354250000 0.0112076 0.0523483 0.9887924 -0.0523483 0.9887924 -0.0523483 0.0112076 0.0523483
1361500000 0.0112737 0.0527473 0.9887263 -0.0527473 0.9887263 -0.0527473 0.0112737 0.0527473
1368750000 0.0113530 0.0531456 0.9886470 -0.0531456 0.9886470 -0.0531456 0.0113530 0.0531456
1376000000 0.0114451 0.0535418 0.9885549 -0.0535418 0.9885549 -0.0535418 0.0114451 0.0535418
1383250000 0.0115492 0.0539350 0.9884508 -0.0539350 0.9884508 -0.0539350 0.0115492 0.0539350
1390500000 0.0116651 0.0543242 0.9883349 -0.0543242 0.9883349 -0.0543242 0.0116651 0.0543242
1397750000 0.0117920 0.0547086 0.9882080 -0.0547086 0.9882080 -0.0547086 0.0117920 0.0547086
1405000000 0.0119297 0.0550874 0.9880703 -0.0550874 0.9880703 -0.0550874 0.0119297 0.0550874
1412250000 0.0120776 0.0554596 0.9879224 -0.0554596 0.9879224 -0.0554596 0.0120776 0.0554596
1419500000 0.0122354 0.0558246 0.9877646 -0.0558246 0.9877646 -0.0558246 0.0122354 0.0558246
1426750000 0.0124026 0.0561814 0.9875974 -0.0561814 0.9875974 -0.0561814 0.0124026 0.0561814
1434000000 0.0125788 0.0565291 0.9874212 -0.0565291 0.9874212 -0.0565291 0.0125788 0.0565291
1441250000 0.0127633 0.0568668 0.9872367 -0.0568668 0.9872367 -0.0568668 0.0127633 0.0568668
1448500000 0.0129555 0.0571936 0.9870445 -0.0571936 0.9870445 -0.0571936 0.0129555 0.0571936
1455750000 0.0131548 0.0575083 0.9868452 -0.0575083 0.9868452 -0.0575083 0.0131548 0.0575083
1463000000 0.0133602 0.0578101 0.9866398 -0.0578101 0.9866398 -0.0578101 0.0133602 0.0578101
1470250000 0.0135706 0.0580979 0.9864294 -0.0580979 0.9864294 -0.0580979 0.0135706 0.0580979
1477500000 0.0137850 0.0583707 0.9862150 -0.0583707 0.9862150 -0.0583707 0.0137850 0.0583707
1484750000 0.0140018 0.0586276 0.9859982 -0.0586276 0.9859982 -0.0586276 0.0140018 0.0586276
1492000000 0.0142194 0.0588678 0.9857806 -0.0588678 0.9857806 -0.0588678 0.0142194 0.0588678
1499250000 0.0144360 0.0590906 0.9855640 -0.0590906 0.9855640 -0.0590906 0.0144360 0.0590906
1506500000 0.0146495 0.0592956 0.9853505 -0.0592956 0.9853505 -0.0592956 0.0146495 0.0592956
1513750000 0.0148577 0.0594826 0.9851423 -0.0594826 0.9851423 -0.0594826 0.0148577 0.0594826
1521000000 0.0150582 0.0596517 0.9849418 -0.0596517 0.9849418 -0.0596517 0.0150582 0.0596517
1528250000 0.0152486 0.0598036 0.9847514 -0.0598036 0.9847514 -0.0598036 0.0152486 0.0598036
1535500000 0.0154263 0.0599392 0.9845737 -0.0599392 0.9845737 -0.0599392 0.0154263 0.0599392
1542750000 0.0155889 0.0600599 0.9844111 -0.0600599 0.9844111 -0.0600599 0.0155889 0.0600599
1550000000 0.0157344 0.0601675 0.9842656 -0.0601675 0.9842656 -0.0601675 0.0157344 0.0601675
1557250000 0.0158607 0.0602644 0.9841393 -0.0602644 0.9841393 -0.0602644 0.0158607 0.0602644
1564500000 0.0159663 0.0603531 0.9840337 -0.0603531 0.9840337 -0.0603531 0.0159663 0.0603531
1571750000 0.0160501 0.0604366 0.9839499 -0.0604366 0.9839499 -0.0604366 0.0160501 0.0604366
1579000000 0.0161116 0.0605180 0.9838884 -0.0605180 0.9838884 -0.0605180 0.0161116 0.0605180
1586250000 0.0161507 0.0606003 0.9838493 -0.0606003 0.9838493 -0.0606003 0.0161507 0.0606003
1593500000 0.0161681 0.0606868 0.9838319 -0.0606868 0.9838319 -0.0606868 0.0161681 0.0606868
1600750000 0.0161647 0.0607801 0.9838353 -0.0607801 0.9838353 -0.0607801 0.0161647 0.0607801
1608000000 0.0161420 0.0608831 0.9838580 -0.0608831 0.9838580 -0.0608831 0.0161420 0.0608831
1615250000 0.0161021 0.0609978 0.9838979 -0.0609978 0.9838979 -0.0609978 0.0161021 0.0609978
1622500000 0.0160471 0.0611261 0.9839529 -0.0611261 0.9839529 -0.0611261 0.0160471 0.0611261
1629750000 0.0159792 0.0612693 0.9840208 -0.0612693 0.9840208 -0.0612693 0.0159792 0.0612693
