!Murata Part Number: GRM31A5C3A180JW01
!These Parameters are Measured in Series Mode Connection
!Data Generated on Mar 30, 2021
!       o--ll--o
!Port1            Port2
!       o------o
!Operation Temp=25[degC], DC Bias Voltage=0[V]
!Freq. Start=100[MHz] Stop=3[GHz] 401[Steps]
# Hz S RI R 50
!Freq.(Hz) S11(Real) S11(Imag) S21(Real) S21(Imag) S12(Real) S12(Imag) S22(Real) S22(Imag)
100000000 0.4360737 -0.4949016 0.5639263 0.4949016 0.5639263 0.4949016 0.4360737 -0.4949016
107250000 0.4016771 -0.4891690 0.5983229 0.4891690 0.5983229 0.4891690 0.4016771 -0.4891690
114500000 0.3703330 -0.4817519 0.6296670 0.4817519 0.6296670 0.4817519 0.3703330 -0.4817519
121750000 0.3418281 -0.4731066 0.6581719 0.4731066 0.6581719 0.4731066 0.3418281 -0.4731066
129000000 0.3159342 -0.4635970 0.6840658 0.4635970 0.6840658 0.4635970 0.3159342 -0.4635970
136250000 0.2924215 -0.4535107 0.7075785 0.4535107 0.7075785 0.4535107 0.2924215 -0.4535107
143500000 0.2710678 -0.4430721 0.7289322 0.4430721 0.7289322 0.4430721 0.2710678 -0.4430721
150750000 0.2516641 -0.4324552 0.7483359 0.4324552 0.7483359 0.4324552 0.2516641 -0.4324552
158000000 0.2340167 -0.4217932 0.7659833 0.4217932 0.7659833 0.4217932 0.2340167 -0.4217932
165250000 0.2179485 -0.4111870 0.7820515 0.4111870 0.7820515 0.4111870 0.2179485 -0.4111870
172500000 0.2032993 -0.4007120 0.7967007 0.4007120 0.7967007 0.4007120 0.2032993 -0.4007120
179750000 0.1899246 -0.3904234 0.8100754 0.3904234 0.8100754 0.3904234 0.1899246 -0.3904234
187000000 0.1776951 -0.3803609 0.8223049 0.3803609 0.8223049 0.3803609 0.1776951 -0.3803609
194250000 0.1664951 -0.3705521 0.8335049 0.3705521 0.8335049 0.3705521 0.1664951 -0.3705521
201500000 0.1562215 -0.3610148 0.8437785 0.3610148 0.8437785 0.3610148 0.1562215 -0.3610148
208750000 0.1467823 -0.3517599 0.8532177 0.3517599 0.8532177 0.3517599 0.1467823 -0.3517599
216000000 0.1380956 -0.3427926 0.8619044 0.3427926 0.8619044 0.3427926 0.1380956 -0.3427926
223250000 0.1300885 -0.3341137 0.8699115 0.3341137 0.8699115 0.3341137 0.1300885 -0.3341137
230500000 0.1226962 -0.3257210 0.8773038 0.3257210 0.8773038 0.3257210 0.1226962 -0.3257210
237750000 0.1158606 -0.3176099 0.8841394 0.3176099 0.8841394 0.3176099 0.1158606 -0.3176099
245000000 0.1095300 -0.3097742 0.8904700 0.3097742 0.8904700 0.3097742 0.1095300 -0.3097742
252250000 0.1036584 -0.3022062 0.8963416 0.3022062 0.8963416 0.3022062 0.1036584 -0.3022062
259500000 0.0982044 -0.2948977 0.9017956 0.2948977 0.9017956 0.2948977 0.0982044 -0.2948977
266750000 0.0931310 -0.2878398 0.9068690 0.2878398 0.9068690 0.2878398 0.0931310 -0.2878398
274000000 0.0884051 -0.2810233 0.9115949 0.2810233 0.9115949 0.2810233 0.0884051 -0.2810233
281250000 0.0839970 -0.2744389 0.9160030 0.2744389 0.9160030 0.2744389 0.0839970 -0.2744389
288500000 0.0798797 -0.2680774 0.9201203 0.2680774 0.9201203 0.2680774 0.0798797 -0.2680774
295750000 0.0760293 -0.2619296 0.9239707 0.2619296 0.9239707 0.2619296 0.0760293 -0.2619296
303000000 0.0724239 -0.2559864 0.9275761 0.2559864 0.9275761 0.2559864 0.0724239 -0.2559864
310250000 0.0690440 -0.2502393 0.9309560 0.2502393 0.9309560 0.2502393 0.0690440 -0.2502393
317500000 0.0658716 -0.2446796 0.9341284 0.2446796 0.9341284 0.2446796 0.0658716 -0.2446796
324750000 0.0628907 -0.2392993 0.9371093 0.2392993 0.9371093 0.2392993 0.0628907 -0.2392993
332000000 0.0600867 -0.2340904 0.9399133 0.2340904 0.9399133 0.2340904 0.0600867 -0.2340904
339250000 0.0574464 -0.2290455 0.9425536 0.2290455 0.9425536 0.2290455 0.0574464 -0.2290455
346500000 0.0549575 -0.2241574 0.9450425 0.2241574 0.9450425 0.2241574 0.0549575 -0.2241574
353750000 0.0526090 -0.2194191 0.9473910 0.2194191 0.9473910 0.2194191 0.0526090 -0.2194191
361000000 0.0503911 -0.2148241 0.9496089 0.2148241 0.9496089 0.2148241 0.0503911 -0.2148241
368250000 0.0482943 -0.2103661 0.9517057 0.2103661 0.9517057 0.2103661 0.0482943 -0.2103661
375500000 0.0463104 -0.2060393 0.9536896 0.2060393 0.9536896 0.2060393 0.0463104 -0.2060393
382750000 0.0444315 -0.2018378 0.9555685 0.2018378 0.9555685 0.2018378 0.0444315 -0.2018378
390000000 0.0426507 -0.1977564 0.9573493 0.1977564 0.9573493 0.1977564 0.0426507 -0.1977564
397250000 0.0409615 -0.1937899 0.9590385 0.1937899 0.9590385 0.1937899 0.0409615 -0.1937899
404500000 0.0393578 -0.1899333 0.9606422 0.1899333 0.9606422 0.1899333 0.0393578 -0.1899333
411750000 0.0378342 -0.1861822 0.9621658 0.1861822 0.9621658 0.1861822 0.0378342 -0.1861822
419000000 0.0363856 -0.1825320 0.9636144 0.1825320 0.9636144 0.1825320 0.0363856 -0.1825320
426250000 0.0350074 -0.1789786 0.9649926 0.1789786 0.9649926 0.1789786 0.0350074 -0.1789786
433500000 0.0336951 -0.1755181 0.9663049 0.1755181 0.9663049 0.1755181 0.0336951 -0.1755181
440750000 0.0324448 -0.1721466 0.9675552 0.1721466 0.9675552 0.1721466 0.0324448 -0.1721466
448000000 0.0312528 -0.1688605 0.9687472 0.1688605 0.9687472 0.1688605 0.0312528 -0.1688605
455250000 0.0301156 -0.1656564 0.9698844 0.1656564 0.9698844 0.1656564 0.0301156 -0.1656564
462500000 0.0290301 -0.1625310 0.9709699 0.1625310 0.9709699 0.1625310 0.0290301 -0.1625310
469750000 0.0279933 -0.1594814 0.9720067 0.1594814 0.9720067 0.1594814 0.0279933 -0.1594814
477000000 0.0270025 -0.1565045 0.9729975 0.1565045 0.9729975 0.1565045 0.0270025 -0.1565045
484250000 0.0260550 -0.1535974 0.9739450 0.1535974 0.9739450 0.1535974 0.0260550 -0.1535974
491500000 0.0251486 -0.1507577 0.9748514 0.1507577 0.9748514 0.1507577 0.0251486 -0.1507577
498750000 0.0242809 -0.1479826 0.9757191 0.1479826 0.9757191 0.1479826 0.0242809 -0.1479826
506000000 0.0234499 -0.1452698 0.9765501 0.1452698 0.9765501 0.1452698 0.0234499 -0.1452698
513250000 0.0226537 -0.1426170 0.9773463 0.1426170 0.9773463 0.1426170 0.0226537 -0.1426170
520500000 0.0218904 -0.1400219 0.9781096 0.1400219 0.9781096 0.1400219 0.0218904 -0.1400219
527750000 0.0211583 -0.1374825 0.9788417 0.1374825 0.9788417 0.1374825 0.0211583 -0.1374825
535000000 0.0204559 -0.1349968 0.9795441 0.1349968 0.9795441 0.1349968 0.0204559 -0.1349968
542250000 0.0197817 -0.1325627 0.9802183 0.1325627 0.9802183 0.1325627 0.0197817 -0.1325627
549500000 0.0191342 -0.1301786 0.9808658 0.1301786 0.9808658 0.1301786 0.0191342 -0.1301786
556750000 0.0185122 -0.1278427 0.9814878 0.1278427 0.9814878 0.1278427 0.0185122 -0.1278427
564000000 0.0179144 -0.1255532 0.9820856 0.1255532 0.9820856 0.1255532 0.0179144 -0.1255532
571250000 0.0173397 -0.1233087 0.9826603 0.1233087 0.9826603 0.1233087 0.0173397 -0.1233087
578500000 0.0167870 -0.1211075 0.9832130 0.1211075 0.9832130 0.1211075 0.0167870 -0.1211075
585750000 0.0162552 -0.1189481 0.9837448 0.1189481 0.9837448 0.1189481 0.0162552 -0.1189481
593000000 0.0157434 -0.1168293 0.9842566 0.1168293 0.9842566 0.1168293 0.0157434 -0.1168293
600250000 0.0152507 -0.1147497 0.9847493 0.1147497 0.9847493 0.1147497 0.0152507 -0.1147497
607500000 0.0147762 -0.1127079 0.9852238 0.1127079 0.9852238 0.1127079 0.0147762 -0.1127079
614750000 0.0143192 -0.1107028 0.9856808 0.1107028 0.9856808 0.1107028 0.0143192 -0.1107028
622000000 0.0138787 -0.1087332 0.9861213 0.1087332 0.9861213 0.1087332 0.0138787 -0.1087332
629250000 0.0134542 -0.1067978 0.9865458 0.1067978 0.9865458 0.1067978 0.0134542 -0.1067978
636500000 0.0130449 -0.1048958 0.9869551 0.1048958 0.9869551 0.1048958 0.0130449 -0.1048958
643750000 0.0126503 -0.1030259 0.9873497 0.1030259 0.9873497 0.1030259 0.0126503 -0.1030259
651000000 0.0122696 -0.1011872 0.9877304 0.1011872 0.9877304 0.1011872 0.0122696 -0.1011872
658250000 0.0119023 -0.0993788 0.9880977 0.0993788 0.9880977 0.0993788 0.0119023 -0.0993788
665500000 0.0115478 -0.0975998 0.9884522 0.0975998 0.9884522 0.0975998 0.0115478 -0.0975998
672750000 0.0112057 -0.0958491 0.9887943 0.0958491 0.9887943 0.0958491 0.0112057 -0.0958491
680000000 0.0108755 -0.0941261 0.9891245 0.0941261 0.9891245 0.0941261 0.0108755 -0.0941261
687250000 0.0105566 -0.0924298 0.9894434 0.0924298 0.9894434 0.0924298 0.0105566 -0.0924298
694500000 0.0102486 -0.0907594 0.9897514 0.0907594 0.9897514 0.0907594 0.0102486 -0.0907594
701750000 0.0099511 -0.0891143 0.9900489 0.0891143 0.9900489 0.0891143 0.0099511 -0.0891143
709000000 0.0096637 -0.0874937 0.9903363 0.0874937 0.9903363 0.0874937 0.0096637 -0.0874937
716250000 0.0093860 -0.0858969 0.9906140 0.0858969 0.9906140 0.0858969 0.0093860 -0.0858969
723500000 0.0091177 -0.0843232 0.9908823 0.0843232 0.9908823 0.0843232 0.0091177 -0.0843232
730750000 0.0088584 -0.0827719 0.9911416 0.0827719 0.9911416 0.0827719 0.0088584 -0.0827719
738000000 0.0086077 -0.0812425 0.9913923 0.0812425 0.9913923 0.0812425 0.0086077 -0.0812425
745250000 0.0083654 -0.0797342 0.9916346 0.0797342 0.9916346 0.0797342 0.0083654 -0.0797342
752500000 0.0081312 -0.0782466 0.9918688 0.0782466 0.9918688 0.0782466 0.0081312 -0.0782466
759750000 0.0079047 -0.0767791 0.9920953 0.0767791 0.9920953 0.0767791 0.0079047 -0.0767791
767000000 0.0076857 -0.0753311 0.9923143 0.0753311 0.9923143 0.0753311 0.0076857 -0.0753311
774250000 0.0074740 -0.0739021 0.9925260 0.0739021 0.9925260 0.0739021 0.0074740 -0.0739021
781500000 0.0072692 -0.0724915 0.9927308 0.0724915 0.9927308 0.0724915 0.0072692 -0.0724915
788750000 0.0070712 -0.0710990 0.9929288 0.0710990 0.9929288 0.0710990 0.0070712 -0.0710990
796000000 0.0068798 -0.0697240 0.9931202 0.0697240 0.9931202 0.0697240 0.0068798 -0.0697240
803250000 0.0066946 -0.0683660 0.9933054 0.0683660 0.9933054 0.0683660 0.0066946 -0.0683660
810500000 0.0065155 -0.0670247 0.9934845 0.0670247 0.9934845 0.0670247 0.0065155 -0.0670247
817750000 0.0063424 -0.0656996 0.9936576 0.0656996 0.9936576 0.0656996 0.0063424 -0.0656996
825000000 0.0061749 -0.0643902 0.9938251 0.0643902 0.9938251 0.0643902 0.0061749 -0.0643902
832250000 0.0060130 -0.0630963 0.9939870 0.0630963 0.9939870 0.0630963 0.0060130 -0.0630963
839500000 0.0058564 -0.0618173 0.9941436 0.0618173 0.9941436 0.0618173 0.0058564 -0.0618173
846750000 0.0057051 -0.0605529 0.9942949 0.0605529 0.9942949 0.0605529 0.0057051 -0.0605529
854000000 0.0055587 -0.0593028 0.9944413 0.0593028 0.9944413 0.0593028 0.0055587 -0.0593028
861250000 0.0054172 -0.0580666 0.9945828 0.0580666 0.9945828 0.0580666 0.0054172 -0.0580666
868500000 0.0052805 -0.0568440 0.9947195 0.0568440 0.9947195 0.0568440 0.0052805 -0.0568440
875750000 0.0051483 -0.0556345 0.9948517 0.0556345 0.9948517 0.0556345 0.0051483 -0.0556345
883000000 0.0050206 -0.0544380 0.9949794 0.0544380 0.9949794 0.0544380 0.0050206 -0.0544380
890250000 0.0048972 -0.0532541 0.9951028 0.0532541 0.9951028 0.0532541 0.0048972 -0.0532541
897500000 0.0047780 -0.0520825 0.9952220 0.0520825 0.9952220 0.0520825 0.0047780 -0.0520825
904750000 0.0046629 -0.0509229 0.9953371 0.0509229 0.9953371 0.0509229 0.0046629 -0.0509229
912000000 0.0045517 -0.0497751 0.9954483 0.0497751 0.9954483 0.0497751 0.0045517 -0.0497751
919250000 0.0044444 -0.0486387 0.9955556 0.0486387 0.9955556 0.0486387 0.0044444 -0.0486387
926500000 0.0043408 -0.0475134 0.9956592 0.0475134 0.9956592 0.0475134 0.0043408 -0.0475134
933750000 0.0042409 -0.0463991 0.9957591 0.0463991 0.9957591 0.0463991 0.0042409 -0.0463991
941000000 0.0041445 -0.0452955 0.9958555 0.0452955 0.9958555 0.0452955 0.0041445 -0.0452955
948250000 0.0040515 -0.0442023 0.9959485 0.0442023 0.9959485 0.0442023 0.0040515 -0.0442023
955500000 0.0039620 -0.0431193 0.9960380 0.0431193 0.9960380 0.0431193 0.0039620 -0.0431193
962750000 0.0038756 -0.0420463 0.9961244 0.0420463 0.9961244 0.0420463 0.0038756 -0.0420463
970000000 0.0037925 -0.0409830 0.9962075 0.0409830 0.9962075 0.0409830 0.0037925 -0.0409830
977250000 0.0037125 -0.0399292 0.9962875 0.0399292 0.9962875 0.0399292 0.0037125 -0.0399292
984500000 0.0036355 -0.0388848 0.9963645 0.0388848 0.9963645 0.0388848 0.0036355 -0.0388848
991750000 0.0035614 -0.0378494 0.9964386 0.0378494 0.9964386 0.0378494 0.0035614 -0.0378494
999000000 0.0034902 -0.0368230 0.9965098 0.0368230 0.9965098 0.0368230 0.0034902 -0.0368230
1006250000 0.0034219 -0.0358053 0.9965781 0.0358053 0.9965781 0.0358053 0.0034219 -0.0358053
1013500000 0.0033562 -0.0347961 0.9966438 0.0347961 0.9966438 0.0347961 0.0033562 -0.0347961
1020750000 0.0032933 -0.0337952 0.9967067 0.0337952 0.9967067 0.0337952 0.0032933 -0.0337952
1028000000 0.0032329 -0.0328025 0.9967671 0.0328025 0.9967671 0.0328025 0.0032329 -0.0328025
1035250000 0.0031751 -0.0318178 0.9968249 0.0318178 0.9968249 0.0318178 0.0031751 -0.0318178
1042500000 0.0031198 -0.0308409 0.9968802 0.0308409 0.9968802 0.0308409 0.0031198 -0.0308409
1049750000 0.0030669 -0.0298717 0.9969331 0.0298717 0.9969331 0.0298717 0.0030669 -0.0298717
1057000000 0.0030164 -0.0289100 0.9969836 0.0289100 0.9969836 0.0289100 0.0030164 -0.0289100
1064250000 0.0029683 -0.0279556 0.9970317 0.0279556 0.9970317 0.0279556 0.0029683 -0.0279556
1071500000 0.0029224 -0.0270084 0.9970776 0.0270084 0.9970776 0.0270084 0.0029224 -0.0270084
1078750000 0.0028787 -0.0260682 0.9971213 0.0260682 0.9971213 0.0260682 0.0028787 -0.0260682
1086000000 0.0028372 -0.0251349 0.9971628 0.0251349 0.9971628 0.0251349 0.0028372 -0.0251349
1093250000 0.0027979 -0.0242084 0.9972021 0.0242084 0.9972021 0.0242084 0.0027979 -0.0242084
1100500000 0.0027606 -0.0232884 0.9972394 0.0232884 0.9972394 0.0232884 0.0027606 -0.0232884
1107750000 0.0027254 -0.0223750 0.9972746 0.0223750 0.9972746 0.0223750 0.0027254 -0.0223750
1115000000 0.0026922 -0.0214679 0.9973078 0.0214679 0.9973078 0.0214679 0.0026922 -0.0214679
1122250000 0.0026609 -0.0205670 0.9973391 0.0205670 0.9973391 0.0205670 0.0026609 -0.0205670
1129500000 0.0026316 -0.0196722 0.9973684 0.0196722 0.9973684 0.0196722 0.0026316 -0.0196722
1136750000 0.0026042 -0.0187834 0.9973958 0.0187834 0.9973958 0.0187834 0.0026042 -0.0187834
1144000000 0.0025786 -0.0179004 0.9974214 0.0179004 0.9974214 0.0179004 0.0025786 -0.0179004
1151250000 0.0025548 -0.0170232 0.9974452 0.0170232 0.9974452 0.0170232 0.0025548 -0.0170232
1158500000 0.0025328 -0.0161516 0.9974672 0.0161516 0.9974672 0.0161516 0.0025328 -0.0161516
1165750000 0.0025126 -0.0152855 0.9974874 0.0152855 0.9974874 0.0152855 0.0025126 -0.0152855
1173000000 0.0024941 -0.0144249 0.9975059 0.0144249 0.9975059 0.0144249 0.0024941 -0.0144249
1180250000 0.0024772 -0.0135695 0.9975228 0.0135695 0.9975228 0.0135695 0.0024772 -0.0135695
1187500000 0.0024621 -0.0127193 0.9975379 0.0127193 0.9975379 0.0127193 0.0024621 -0.0127193
1194750000 0.0024485 -0.0118742 0.9975515 0.0118742 0.9975515 0.0118742 0.0024485 -0.0118742
1202000000 0.0024366 -0.0110341 0.9975634 0.0110341 0.9975634 0.0110341 0.0024366 -0.0110341
1209250000 0.0024262 -0.0101989 0.9975738 0.0101989 0.9975738 0.0101989 0.0024262 -0.0101989
1216500000 0.0024174 -0.0093686 0.9975826 0.0093686 0.9975826 0.0093686 0.0024174 -0.0093686
1223750000 0.0024101 -0.0085429 0.9975899 0.0085429 0.9975899 0.0085429 0.0024101 -0.0085429
1231000000 0.0024043 -0.0077219 0.9975957 0.0077219 0.9975957 0.0077219 0.0024043 -0.0077219
1238250000 0.0024000 -0.0069054 0.9976000 0.0069054 0.9976000 0.0069054 0.0024000 -0.0069054
1245500000 0.0023971 -0.0060934 0.9976029 0.0060934 0.9976029 0.0060934 0.0023971 -0.0060934
1252750000 0.0023956 -0.0052857 0.9976044 0.0052857 0.9976044 0.0052857 0.0023956 -0.0052857
1260000000 0.0023956 -0.0044824 0.9976044 0.0044824 0.9976044 0.0044824 0.0023956 -0.0044824
1267250000 0.0023969 -0.0036832 0.9976031 0.0036832 0.9976031 0.0036832 0.0023969 -0.0036832
1274500000 0.0023996 -0.0028882 0.9976004 0.0028882 0.9976004 0.0028882 0.0023996 -0.0028882
1281750000 0.0024037 -0.0020972 0.9975963 0.0020972 0.9975963 0.0020972 0.0024037 -0.0020972
1289000000 0.0024090 -0.0013102 0.9975910 0.0013102 0.9975910 0.0013102 0.0024090 -0.0013102
1296250000 0.0024157 -0.0005271 0.9975843 0.0005271 0.9975843 0.0005271 0.0024157 -0.0005271
1303500000 0.0024237 0.0002522 0.9975763 -0.0002522 0.9975763 -0.0002522 0.0024237 0.0002522
1310750000 0.0024329 0.0010277 0.9975671 -0.0010277 0.9975671 -0.0010277 0.0024329 0.0010277
1318000000 0.0024434 0.0017995 0.9975566 -0.0017995 0.9975566 -0.0017995 0.0024434 0.0017995
1325250000 0.0024551 0.0025677 0.9975449 -0.0025677 0.9975449 -0.0025677 0.0024551 0.0025677
1332500000 0.0024681 0.0033324 0.9975319 -0.0033324 0.9975319 -0.0033324 0.0024681 0.0033324
1339750000 0.0024823 0.0040935 0.9975177 -0.0040935 0.9975177 -0.0040935 0.0024823 0.0040935
1347000000 0.0024976 0.0048513 0.9975024 -0.0048513 0.9975024 -0.0048513 0.0024976 0.0048513
1354250000 0.0025141 0.0056056 0.9974859 -0.0056056 0.9974859 -0.0056056 0.0025141 0.0056056
1361500000 0.0025318 0.0063567 0.9974682 -0.0063567 0.9974682 -0.0063567 0.0025318 0.0063567
1368750000 0.0025507 0.0071045 0.9974493 -0.0071045 0.9974493 -0.0071045 0.0025507 0.0071045
1376000000 0.0025707 0.0078491 0.9974293 -0.0078491 0.9974293 -0.0078491 0.0025707 0.0078491
1383250000 0.0025918 0.0085906 0.9974082 -0.0085906 0.9974082 -0.0085906 0.0025918 0.0085906
1390500000 0.0026140 0.0093290 0.9973860 -0.0093290 0.9973860 -0.0093290 0.0026140 0.0093290
1397750000 0.0026373 0.0100644 0.9973627 -0.0100644 0.9973627 -0.0100644 0.0026373 0.0100644
1405000000 0.0026617 0.0107969 0.9973383 -0.0107969 0.9973383 -0.0107969 0.0026617 0.0107969
1412250000 0.0026872 0.0115264 0.9973128 -0.0115264 0.9973128 -0.0115264 0.0026872 0.0115264
1419500000 0.0027137 0.0122531 0.9972863 -0.0122531 0.9972863 -0.0122531 0.0027137 0.0122531
1426750000 0.0027413 0.0129770 0.9972587 -0.0129770 0.9972587 -0.0129770 0.0027413 0.0129770
1434000000 0.0027700 0.0136981 0.9972300 -0.0136981 0.9972300 -0.0136981 0.0027700 0.0136981
1441250000 0.0027996 0.0144166 0.9972004 -0.0144166 0.9972004 -0.0144166 0.0027996 0.0144166
1448500000 0.0028303 0.0151323 0.9971697 -0.0151323 0.9971697 -0.0151323 0.0028303 0.0151323
1455750000 0.0028621 0.0158455 0.9971379 -0.0158455 0.9971379 -0.0158455 0.0028621 0.0158455
1463000000 0.0028948 0.0165561 0.9971052 -0.0165561 0.9971052 -0.0165561 0.0028948 0.0165561
1470250000 0.0029285 0.0172642 0.9970715 -0.0172642 0.9970715 -0.0172642 0.0029285 0.0172642
1477500000 0.0029632 0.0179698 0.9970368 -0.0179698 0.9970368 -0.0179698 0.0029632 0.0179698
1484750000 0.0029989 0.0186730 0.9970011 -0.0186730 0.9970011 -0.0186730 0.0029989 0.0186730
1492000000 0.0030356 0.0193738 0.9969644 -0.0193738 0.9969644 -0.0193738 0.0030356 0.0193738
1499250000 0.0030732 0.0200723 0.9969268 -0.0200723 0.9969268 -0.0200723 0.0030732 0.0200723
1506500000 0.0031118 0.0207685 0.9968882 -0.0207685 0.9968882 -0.0207685 0.0031118 0.0207685
1513750000 0.0031513 0.0214624 0.9968487 -0.0214624 0.9968487 -0.0214624 0.0031513 0.0214624
1521000000 0.0031918 0.0221541 0.9968082 -0.0221541 0.9968082 -0.0221541 0.0031918 0.0221541
1528250000 0.0032332 0.0228437 0.9967668 -0.0228437 0.9967668 -0.0228437 0.0032332 0.0228437
1535500000 0.0032756 0.0235311 0.9967244 -0.0235311 0.9967244 -0.0235311 0.0032756 0.0235311
1542750000 0.0033188 0.0242164 0.9966812 -0.0242164 0.9966812 -0.0242164 0.0033188 0.0242164
1550000000 0.0033630 0.0248996 0.9966370 -0.0248996 0.9966370 -0.0248996 0.0033630 0.0248996
1557250000 0.0034081 0.0255809 0.9965919 -0.0255809 0.9965919 -0.0255809 0.0034081 0.0255809
1564500000 0.0034541 0.0262601 0.9965459 -0.0262601 0.9965459 -0.0262601 0.0034541 0.0262601
1571750000 0.0035010 0.0269374 0.9964990 -0.0269374 0.9964990 -0.0269374 0.0035010 0.0269374
1579000000 0.0035488 0.0276128 0.9964512 -0.0276128 0.9964512 -0.0276128 0.0035488 0.0276128
1586250000 0.0035975 0.0282863 0.9964025 -0.0282863 0.9964025 -0.0282863 0.0035975 0.0282863
1593500000 0.0036471 0.0289580 0.9963529 -0.0289580 0.9963529 -0.0289580 0.0036471 0.0289580
1600750000 0.0036976 0.0296278 0.9963024 -0.0296278 0.9963024 -0.0296278 0.0036976 0.0296278
1608000000 0.0037489 0.0302959 0.9962511 -0.0302959 0.9962511 -0.0302959 0.0037489 0.0302959
1615250000 0.0038011 0.0309623 0.9961989 -0.0309623 0.9961989 -0.0309623 0.0038011 0.0309623
1622500000 0.0038542 0.0316269 0.9961458 -0.0316269 0.9961458 -0.0316269 0.0038542 0.0316269
1629750000 0.0039081 0.0322898 0.9960919 -0.0322898 0.9960919 -0.0322898 0.0039081 0.0322898
