!Murata Part Number: GRM31A7U3A151JW31
!These Parameters are Measured in Series Mode Connection
!Data Generated on Mar 30, 2021
!       o--ll--o
!Port1            Port2
!       o------o
!Operation Temp=25[degC], DC Bias Voltage=0[V]
!Freq. Start=100[MHz] Stop=3[GHz] 401[Steps]
# Hz S RI R 50
!Freq.(Hz) S11(Real) S11(Imag) S21(Real) S21(Imag) S12(Real) S12(Imag) S22(Real) S22(Imag)
100000000 0.0111127 -0.0997904 0.9888873 0.0997904 0.9888873 0.0997904 0.0111127 -0.0997904
107250000 0.0096794 -0.0924740 0.9903206 0.0924740 0.9903206 0.0924740 0.0096794 -0.0924740
114500000 0.0085080 -0.0860132 0.9914920 0.0860132 0.9914920 0.0860132 0.0085080 -0.0860132
121750000 0.0075389 -0.0802602 0.9924611 0.0802602 0.9924611 0.0802602 0.0075389 -0.0802602
129000000 0.0067285 -0.0750992 0.9932715 0.0750992 0.9932715 0.0750992 0.0067285 -0.0750992
136250000 0.0060444 -0.0704383 0.9939556 0.0704383 0.9939556 0.0704383 0.0060444 -0.0704383
143500000 0.0054620 -0.0662034 0.9945380 0.0662034 0.9945380 0.0662034 0.0054620 -0.0662034
150750000 0.0049625 -0.0623345 0.9950375 0.0623345 0.9950375 0.0623345 0.0049625 -0.0623345
158000000 0.0045313 -0.0587820 0.9954687 0.0587820 0.9954687 0.0587820 0.0045313 -0.0587820
165250000 0.0041566 -0.0555051 0.9958434 0.0555051 0.9958434 0.0555051 0.0041566 -0.0555051
172500000 0.0038295 -0.0524695 0.9961705 0.0524695 0.9961705 0.0524695 0.0038295 -0.0524695
179750000 0.0035424 -0.0496465 0.9964576 0.0496465 0.9964576 0.0496465 0.0035424 -0.0496465
187000000 0.0032894 -0.0470117 0.9967106 0.0470117 0.9967106 0.0470117 0.0032894 -0.0470117
194250000 0.0030656 -0.0445443 0.9969344 0.0445443 0.9969344 0.0445443 0.0030656 -0.0445443
201500000 0.0028669 -0.0422263 0.9971331 0.0422263 0.9971331 0.0422263 0.0028669 -0.0422263
208750000 0.0026900 -0.0400424 0.9973100 0.0400424 0.9973100 0.0400424 0.0026900 -0.0400424
216000000 0.0025320 -0.0379791 0.9974680 0.0379791 0.9974680 0.0379791 0.0025320 -0.0379791
223250000 0.0023907 -0.0360249 0.9976093 0.0360249 0.9976093 0.0360249 0.0023907 -0.0360249
230500000 0.0022639 -0.0341695 0.9977361 0.0341695 0.9977361 0.0341695 0.0022639 -0.0341695
237750000 0.0021500 -0.0324039 0.9978500 0.0324039 0.9978500 0.0324039 0.0021500 -0.0324039
245000000 0.0020476 -0.0307201 0.9979524 0.0307201 0.9979524 0.0307201 0.0020476 -0.0307201
252250000 0.0019555 -0.0291113 0.9980445 0.0291113 0.9980445 0.0291113 0.0019555 -0.0291113
259500000 0.0018724 -0.0275710 0.9981276 0.0275710 0.9981276 0.0275710 0.0018724 -0.0275710
266750000 0.0017975 -0.0260938 0.9982025 0.0260938 0.9982025 0.0260938 0.0017975 -0.0260938
274000000 0.0017301 -0.0246746 0.9982699 0.0246746 0.9982699 0.0246746 0.0017301 -0.0246746
281250000 0.0016693 -0.0233090 0.9983307 0.0233090 0.9983307 0.0233090 0.0016693 -0.0233090
288500000 0.0016146 -0.0219929 0.9983854 0.0219929 0.9983854 0.0219929 0.0016146 -0.0219929
295750000 0.0015654 -0.0207227 0.9984346 0.0207227 0.9984346 0.0207227 0.0015654 -0.0207227
303000000 0.0015212 -0.0194950 0.9984788 0.0194950 0.9984788 0.0194950 0.0015212 -0.0194950
310250000 0.0014817 -0.0183070 0.9985183 0.0183070 0.9985183 0.0183070 0.0014817 -0.0183070
317500000 0.0014464 -0.0171558 0.9985536 0.0171558 0.9985536 0.0171558 0.0014464 -0.0171558
324750000 0.0014150 -0.0160391 0.9985850 0.0160391 0.9985850 0.0160391 0.0014150 -0.0160391
332000000 0.0013873 -0.0149544 0.9986127 0.0149544 0.9986127 0.0149544 0.0013873 -0.0149544
339250000 0.0013628 -0.0138998 0.9986372 0.0138998 0.9986372 0.0138998 0.0013628 -0.0138998
346500000 0.0013415 -0.0128734 0.9986585 0.0128734 0.9986585 0.0128734 0.0013415 -0.0128734
353750000 0.0013231 -0.0118734 0.9986769 0.0118734 0.9986769 0.0118734 0.0013231 -0.0118734
361000000 0.0013073 -0.0108982 0.9986927 0.0108982 0.9986927 0.0108982 0.0013073 -0.0108982
368250000 0.0012941 -0.0099463 0.9987059 0.0099463 0.9987059 0.0099463 0.0012941 -0.0099463
375500000 0.0012833 -0.0090164 0.9987167 0.0090164 0.9987167 0.0090164 0.0012833 -0.0090164
382750000 0.0012746 -0.0081072 0.9987254 0.0081072 0.9987254 0.0081072 0.0012746 -0.0081072
390000000 0.0012681 -0.0072174 0.9987319 0.0072174 0.9987319 0.0072174 0.0012681 -0.0072174
397250000 0.0012636 -0.0063462 0.9987364 0.0063462 0.9987364 0.0063462 0.0012636 -0.0063462
404500000 0.0012609 -0.0054923 0.9987391 0.0054923 0.9987391 0.0054923 0.0012609 -0.0054923
411750000 0.0012600 -0.0046549 0.9987400 0.0046549 0.9987400 0.0046549 0.0012600 -0.0046549
419000000 0.0012608 -0.0038331 0.9987392 0.0038331 0.9987392 0.0038331 0.0012608 -0.0038331
426250000 0.0012632 -0.0030262 0.9987368 0.0030262 0.9987368 0.0030262 0.0012632 -0.0030262
433500000 0.0012671 -0.0022332 0.9987329 0.0022332 0.9987329 0.0022332 0.0012671 -0.0022332
440750000 0.0012725 -0.0014536 0.9987275 0.0014536 0.9987275 0.0014536 0.0012725 -0.0014536
448000000 0.0012793 -0.0006866 0.9987207 0.0006866 0.9987207 0.0006866 0.0012793 -0.0006866
455250000 0.0012875 0.0000684 0.9987125 -0.0000684 0.9987125 -0.0000684 0.0012875 0.0000684
462500000 0.0012969 0.0008120 0.9987031 -0.0008120 0.9987031 -0.0008120 0.0012969 0.0008120
469750000 0.0013077 0.0015446 0.9986923 -0.0015446 0.9986923 -0.0015446 0.0013077 0.0015446
477000000 0.0013196 0.0022669 0.9986804 -0.0022669 0.9986804 -0.0022669 0.0013196 0.0022669
484250000 0.0013327 0.0029794 0.9986673 -0.0029794 0.9986673 -0.0029794 0.0013327 0.0029794
491500000 0.0013469 0.0036824 0.9986531 -0.0036824 0.9986531 -0.0036824 0.0013469 0.0036824
498750000 0.0013623 0.0043764 0.9986377 -0.0043764 0.9986377 -0.0043764 0.0013623 0.0043764
506000000 0.0013787 0.0050619 0.9986213 -0.0050619 0.9986213 -0.0050619 0.0013787 0.0050619
513250000 0.0013961 0.0057392 0.9986039 -0.0057392 0.9986039 -0.0057392 0.0013961 0.0057392
520500000 0.0014146 0.0064087 0.9985854 -0.0064087 0.9985854 -0.0064087 0.0014146 0.0064087
527750000 0.0014341 0.0070707 0.9985659 -0.0070707 0.9985659 -0.0070707 0.0014341 0.0070707
535000000 0.0014545 0.0077255 0.9985455 -0.0077255 0.9985455 -0.0077255 0.0014545 0.0077255
542250000 0.0014759 0.0083736 0.9985241 -0.0083736 0.9985241 -0.0083736 0.0014759 0.0083736
549500000 0.0014983 0.0090151 0.9985017 -0.0090151 0.9985017 -0.0090151 0.0014983 0.0090151
556750000 0.0015215 0.0096503 0.9984785 -0.0096503 0.9984785 -0.0096503 0.0015215 0.0096503
564000000 0.0015457 0.0102796 0.9984543 -0.0102796 0.9984543 -0.0102796 0.0015457 0.0102796
571250000 0.0015708 0.0109031 0.9984292 -0.0109031 0.9984292 -0.0109031 0.0015708 0.0109031
578500000 0.0015967 0.0115211 0.9984033 -0.0115211 0.9984033 -0.0115211 0.0015967 0.0115211
585750000 0.0016235 0.0121339 0.9983765 -0.0121339 0.9983765 -0.0121339 0.0016235 0.0121339
593000000 0.0016512 0.0127417 0.9983488 -0.0127417 0.9983488 -0.0127417 0.0016512 0.0127417
600250000 0.0016797 0.0133446 0.9983203 -0.0133446 0.9983203 -0.0133446 0.0016797 0.0133446
607500000 0.0017091 0.0139429 0.9982909 -0.0139429 0.9982909 -0.0139429 0.0017091 0.0139429
614750000 0.0017393 0.0145368 0.9982607 -0.0145368 0.9982607 -0.0145368 0.0017393 0.0145368
622000000 0.0017704 0.0151264 0.9982296 -0.0151264 0.9982296 -0.0151264 0.0017704 0.0151264
629250000 0.0018023 0.0157120 0.9981977 -0.0157120 0.9981977 -0.0157120 0.0018023 0.0157120
636500000 0.0018350 0.0162936 0.9981650 -0.0162936 0.9981650 -0.0162936 0.0018350 0.0162936
643750000 0.0018686 0.0168715 0.9981314 -0.0168715 0.9981314 -0.0168715 0.0018686 0.0168715
651000000 0.0019030 0.0174459 0.9980970 -0.0174459 0.9980970 -0.0174459 0.0019030 0.0174459
658250000 0.0019382 0.0180167 0.9980618 -0.0180167 0.9980618 -0.0180167 0.0019382 0.0180167
665500000 0.0019743 0.0185843 0.9980257 -0.0185843 0.9980257 -0.0185843 0.0019743 0.0185843
672750000 0.0020111 0.0191488 0.9979889 -0.0191488 0.9979889 -0.0191488 0.0020111 0.0191488
680000000 0.0020488 0.0197102 0.9979512 -0.0197102 0.9979512 -0.0197102 0.0020488 0.0197102
687250000 0.0020874 0.0202688 0.9979126 -0.0202688 0.9979126 -0.0202688 0.0020874 0.0202688
694500000 0.0021268 0.0208245 0.9978732 -0.0208245 0.9978732 -0.0208245 0.0021268 0.0208245
701750000 0.0021670 0.0213777 0.9978330 -0.0213777 0.9978330 -0.0213777 0.0021670 0.0213777
709000000 0.0022081 0.0219283 0.9977919 -0.0219283 0.9977919 -0.0219283 0.0022081 0.0219283
716250000 0.0022500 0.0224765 0.9977500 -0.0224765 0.9977500 -0.0224765 0.0022500 0.0224765
723500000 0.0022928 0.0230224 0.9977072 -0.0230224 0.9977072 -0.0230224 0.0022928 0.0230224
730750000 0.0023365 0.0235660 0.9976635 -0.0235660 0.9976635 -0.0235660 0.0023365 0.0235660
738000000 0.0023811 0.0241076 0.9976189 -0.0241076 0.9976189 -0.0241076 0.0023811 0.0241076
745250000 0.0024265 0.0246472 0.9975735 -0.0246472 0.9975735 -0.0246472 0.0024265 0.0246472
752500000 0.0024729 0.0251849 0.9975271 -0.0251849 0.9975271 -0.0251849 0.0024729 0.0251849
759750000 0.0025202 0.0257207 0.9974798 -0.0257207 0.9974798 -0.0257207 0.0025202 0.0257207
767000000 0.0025684 0.0262549 0.9974316 -0.0262549 0.9974316 -0.0262549 0.0025684 0.0262549
774250000 0.0026175 0.0267874 0.9973825 -0.0267874 0.9973825 -0.0267874 0.0026175 0.0267874
781500000 0.0026676 0.0273184 0.9973324 -0.0273184 0.9973324 -0.0273184 0.0026676 0.0273184
788750000 0.0027187 0.0278480 0.9972813 -0.0278480 0.9972813 -0.0278480 0.0027187 0.0278480
796000000 0.0027708 0.0283761 0.9972292 -0.0283761 0.9972292 -0.0283761 0.0027708 0.0283761
803250000 0.0028239 0.0289030 0.9971761 -0.0289030 0.9971761 -0.0289030 0.0028239 0.0289030
810500000 0.0028780 0.0294287 0.9971220 -0.0294287 0.9971220 -0.0294287 0.0028780 0.0294287
817750000 0.0029332 0.0299533 0.9970668 -0.0299533 0.9970668 -0.0299533 0.0029332 0.0299533
825000000 0.0029894 0.0304768 0.9970106 -0.0304768 0.9970106 -0.0304768 0.0029894 0.0304768
832250000 0.0030468 0.0309993 0.9969532 -0.0309993 0.9969532 -0.0309993 0.0030468 0.0309993
839500000 0.0031053 0.0315209 0.9968947 -0.0315209 0.9968947 -0.0315209 0.0031053 0.0315209
846750000 0.0031649 0.0320417 0.9968351 -0.0320417 0.9968351 -0.0320417 0.0031649 0.0320417
854000000 0.0032258 0.0325618 0.9967742 -0.0325618 0.9967742 -0.0325618 0.0032258 0.0325618
861250000 0.0032878 0.0330812 0.9967122 -0.0330812 0.9967122 -0.0330812 0.0032878 0.0330812
868500000 0.0033511 0.0336000 0.9966489 -0.0336000 0.9966489 -0.0336000 0.0033511 0.0336000
875750000 0.0034157 0.0341182 0.9965843 -0.0341182 0.9965843 -0.0341182 0.0034157 0.0341182
883000000 0.0034817 0.0346360 0.9965183 -0.0346360 0.9965183 -0.0346360 0.0034817 0.0346360
890250000 0.0035490 0.0351534 0.9964510 -0.0351534 0.9964510 -0.0351534 0.0035490 0.0351534
897500000 0.0036177 0.0356705 0.9963823 -0.0356705 0.9963823 -0.0356705 0.0036177 0.0356705
904750000 0.0036879 0.0361873 0.9963121 -0.0361873 0.9963121 -0.0361873 0.0036879 0.0361873
912000000 0.0037596 0.0367040 0.9962404 -0.0367040 0.9962404 -0.0367040 0.0037596 0.0367040
919250000 0.0038329 0.0372205 0.9961671 -0.0372205 0.9961671 -0.0372205 0.0038329 0.0372205
926500000 0.0039079 0.0377370 0.9960921 -0.0377370 0.9960921 -0.0377370 0.0039079 0.0377370
933750000 0.0039845 0.0382535 0.9960155 -0.0382535 0.9960155 -0.0382535 0.0039845 0.0382535
941000000 0.0040630 0.0387702 0.9959370 -0.0387702 0.9959370 -0.0387702 0.0040630 0.0387702
948250000 0.0041432 0.0392870 0.9958568 -0.0392870 0.9958568 -0.0392870 0.0041432 0.0392870
955500000 0.0042254 0.0398040 0.9957746 -0.0398040 0.9957746 -0.0398040 0.0042254 0.0398040
962750000 0.0043096 0.0403213 0.9956904 -0.0403213 0.9956904 -0.0403213 0.0043096 0.0403213
970000000 0.0043959 0.0408390 0.9956041 -0.0408390 0.9956041 -0.0408390 0.0043959 0.0408390
977250000 0.0044844 0.0413572 0.9955156 -0.0413572 0.9955156 -0.0413572 0.0044844 0.0413572
984500000 0.0045752 0.0418758 0.9954248 -0.0418758 0.9954248 -0.0418758 0.0045752 0.0418758
991750000 0.0046685 0.0423950 0.9953315 -0.0423950 0.9953315 -0.0423950 0.0046685 0.0423950
999000000 0.0047643 0.0429149 0.9952357 -0.0429149 0.9952357 -0.0429149 0.0047643 0.0429149
1006250000 0.0048628 0.0434355 0.9951372 -0.0434355 0.9951372 -0.0434355 0.0048628 0.0434355
1013500000 0.0049641 0.0439568 0.9950359 -0.0439568 0.9950359 -0.0439568 0.0049641 0.0439568
1020750000 0.0050685 0.0444790 0.9949315 -0.0444790 0.9949315 -0.0444790 0.0050685 0.0444790
1028000000 0.0051760 0.0450021 0.9948240 -0.0450021 0.9948240 -0.0450021 0.0051760 0.0450021
1035250000 0.0052869 0.0455261 0.9947131 -0.0455261 0.9947131 -0.0455261 0.0052869 0.0455261
1042500000 0.0054013 0.0460511 0.9945987 -0.0460511 0.9945987 -0.0460511 0.0054013 0.0460511
1049750000 0.0055195 0.0465772 0.9944805 -0.0465772 0.9944805 -0.0465772 0.0055195 0.0465772
1057000000 0.0056418 0.0471043 0.9943582 -0.0471043 0.9943582 -0.0471043 0.0056418 0.0471043
1064250000 0.0057683 0.0476326 0.9942317 -0.0476326 0.9942317 -0.0476326 0.0057683 0.0476326
1071500000 0.0058994 0.0481620 0.9941006 -0.0481620 0.9941006 -0.0481620 0.0058994 0.0481620
1078750000 0.0060354 0.0486926 0.9939646 -0.0486926 0.9939646 -0.0486926 0.0060354 0.0486926
1086000000 0.0061767 0.0492243 0.9938233 -0.0492243 0.9938233 -0.0492243 0.0061767 0.0492243
1093250000 0.0063235 0.0497572 0.9936765 -0.0497572 0.9936765 -0.0497572 0.0063235 0.0497572
1100500000 0.0064764 0.0502912 0.9935236 -0.0502912 0.9935236 -0.0502912 0.0064764 0.0502912
1107750000 0.0066357 0.0508262 0.9933643 -0.0508262 0.9933643 -0.0508262 0.0066357 0.0508262
1115000000 0.0068019 0.0513621 0.9931981 -0.0513621 0.9931981 -0.0513621 0.0068019 0.0513621
1122250000 0.0069756 0.0518989 0.9930244 -0.0518989 0.9930244 -0.0518989 0.0069756 0.0518989
1129500000 0.0071573 0.0524363 0.9928427 -0.0524363 0.9928427 -0.0524363 0.0071573 0.0524363
1136750000 0.0073476 0.0529741 0.9926524 -0.0529741 0.9926524 -0.0529741 0.0073476 0.0529741
1144000000 0.0075472 0.0535121 0.9924528 -0.0535121 0.9924528 -0.0535121 0.0075472 0.0535121
1151250000 0.0077569 0.0540497 0.9922431 -0.0540497 0.9922431 -0.0540497 0.0077569 0.0540497
1158500000 0.0079773 0.0545867 0.9920227 -0.0545867 0.9920227 -0.0545867 0.0079773 0.0545867
1165750000 0.0082093 0.0551224 0.9917907 -0.0551224 0.9917907 -0.0551224 0.0082093 0.0551224
1173000000 0.0084538 0.0556560 0.9915462 -0.0556560 0.9915462 -0.0556560 0.0084538 0.0556560
1180250000 0.0087117 0.0561869 0.9912883 -0.0561869 0.9912883 -0.0561869 0.0087117 0.0561869
1187500000 0.0089840 0.0567138 0.9910160 -0.0567138 0.9910160 -0.0567138 0.0089840 0.0567138
1194750000 0.0092716 0.0572357 0.9907284 -0.0572357 0.9907284 -0.0572357 0.0092716 0.0572357
1202000000 0.0095754 0.0577508 0.9904246 -0.0577508 0.9904246 -0.0577508 0.0095754 0.0577508
1209250000 0.0098965 0.0582576 0.9901035 -0.0582576 0.9901035 -0.0582576 0.0098965 0.0582576
1216500000 0.0102356 0.0587539 0.9897644 -0.0587539 0.9897644 -0.0587539 0.0102356 0.0587539
1223750000 0.0105935 0.0592371 0.9894065 -0.0592371 0.9894065 -0.0592371 0.0105935 0.0592371
1231000000 0.0109706 0.0597045 0.9890294 -0.0597045 0.9890294 -0.0597045 0.0109706 0.0597045
1238250000 0.0113670 0.0601527 0.9886330 -0.0601527 0.9886330 -0.0601527 0.0113670 0.0601527
1245500000 0.0117826 0.0605781 0.9882174 -0.0605781 0.9882174 -0.0605781 0.0117826 0.0605781
1252750000 0.0122164 0.0609764 0.9877836 -0.0609764 0.9877836 -0.0609764 0.0122164 0.0609764
1260000000 0.0126669 0.0613432 0.9873331 -0.0613432 0.9873331 -0.0613432 0.0126669 0.0613432
1267250000 0.0131313 0.0616737 0.9868687 -0.0616737 0.9868687 -0.0616737 0.0131313 0.0616737
1274500000 0.0136059 0.0619630 0.9863941 -0.0619630 0.9863941 -0.0619630 0.0136059 0.0619630
1281750000 0.0140858 0.0622065 0.9859142 -0.0622065 0.9859142 -0.0622065 0.0140858 0.0622065
1289000000 0.0145642 0.0624001 0.9854358 -0.0624001 0.9854358 -0.0624001 0.0145642 0.0624001
1296250000 0.0150334 0.0625405 0.9849666 -0.0625405 0.9849666 -0.0625405 0.0150334 0.0625405
1303500000 0.0154838 0.0626261 0.9845162 -0.0626261 0.9845162 -0.0626261 0.0154838 0.0626261
1310750000 0.0159051 0.0626572 0.9840949 -0.0626572 0.9840949 -0.0626572 0.0159051 0.0626572
1318000000 0.0162861 0.0626367 0.9837139 -0.0626367 0.9837139 -0.0626367 0.0162861 0.0626367
1325250000 0.0166161 0.0625700 0.9833839 -0.0625700 0.9833839 -0.0625700 0.0166161 0.0625700
1332500000 0.0168850 0.0624656 0.9831150 -0.0624656 0.9831150 -0.0624656 0.0168850 0.0624656
1339750000 0.0170850 0.0623348 0.9829150 -0.0623348 0.9829150 -0.0623348 0.0170850 0.0623348
1347000000 0.0172109 0.0621905 0.9827891 -0.0621905 0.9827891 -0.0621905 0.0172109 0.0621905
1354250000 0.0172607 0.0620471 0.9827393 -0.0620471 0.9827393 -0.0620471 0.0172607 0.0620471
1361500000 0.0172363 0.0619189 0.9827637 -0.0619189 0.9827637 -0.0619189 0.0172363 0.0619189
1368750000 0.0171428 0.0618193 0.9828572 -0.0618193 0.9828572 -0.0618193 0.0171428 0.0618193
1376000000 0.0169882 0.0617595 0.9830118 -0.0617595 0.9830118 -0.0617595 0.0169882 0.0617595
1383250000 0.0167826 0.0617483 0.9832174 -0.0617483 0.9832174 -0.0617483 0.0167826 0.0617483
1390500000 0.0165373 0.0617913 0.9834627 -0.0617913 0.9834627 -0.0617913 0.0165373 0.0617913
1397750000 0.0162635 0.0618915 0.9837365 -0.0618915 0.9837365 -0.0618915 0.0162635 0.0618915
1405000000 0.0159721 0.0620492 0.9840279 -0.0620492 0.9840279 -0.0620492 0.0159721 0.0620492
1412250000 0.0156729 0.0622625 0.9843271 -0.0622625 0.9843271 -0.0622625 0.0156729 0.0622625
1419500000 0.0153741 0.0625281 0.9846259 -0.0625281 0.9846259 -0.0625281 0.0153741 0.0625281
1426750000 0.0150827 0.0628415 0.9849173 -0.0628415 0.9849173 -0.0628415 0.0150827 0.0628415
1434000000 0.0148037 0.0631976 0.9851963 -0.0631976 0.9851963 -0.0631976 0.0148037 0.0631976
1441250000 0.0145411 0.0635915 0.9854589 -0.0635915 0.9854589 -0.0635915 0.0145411 0.0635915
1448500000 0.0142974 0.0640179 0.9857026 -0.0640179 0.9857026 -0.0640179 0.0142974 0.0640179
1455750000 0.0140742 0.0644721 0.9859258 -0.0644721 0.9859258 -0.0644721 0.0140742 0.0644721
1463000000 0.0138724 0.0649497 0.9861276 -0.0649497 0.9861276 -0.0649497 0.0138724 0.0649497
1470250000 0.0136922 0.0654468 0.9863078 -0.0654468 0.9863078 -0.0654468 0.0136922 0.0654468
1477500000 0.0135332 0.0659599 0.9864668 -0.0659599 0.9864668 -0.0659599 0.0135332 0.0659599
1484750000 0.0133949 0.0664860 0.9866051 -0.0664860 0.9866051 -0.0664860 0.0133949 0.0664860
1492000000 0.0132764 0.0670226 0.9867236 -0.0670226 0.9867236 -0.0670226 0.0132764 0.0670226
1499250000 0.0131768 0.0675675 0.9868232 -0.0675675 0.9868232 -0.0675675 0.0131768 0.0675675
1506500000 0.0130951 0.0681188 0.9869049 -0.0681188 0.9869049 -0.0681188 0.0130951 0.0681188
1513750000 0.0130302 0.0686751 0.9869698 -0.0686751 0.9869698 -0.0686751 0.0130302 0.0686751
1521000000 0.0129810 0.0692350 0.9870190 -0.0692350 0.9870190 -0.0692350 0.0129810 0.0692350
1528250000 0.0129465 0.0697975 0.9870535 -0.0697975 0.9870535 -0.0697975 0.0129465 0.0697975
1535500000 0.0129258 0.0703618 0.9870742 -0.0703618 0.9870742 -0.0703618 0.0129258 0.0703618
1542750000 0.0129179 0.0709271 0.9870821 -0.0709271 0.9870821 -0.0709271 0.0129179 0.0709271
1550000000 0.0129220 0.0714930 0.9870780 -0.0714930 0.9870780 -0.0714930 0.0129220 0.0714930
1557250000 0.0129373 0.0720589 0.9870627 -0.0720589 0.9870627 -0.0720589 0.0129373 0.0720589
1564500000 0.0129630 0.0726246 0.9870370 -0.0726246 0.9870370 -0.0726246 0.0129630 0.0726246
1571750000 0.0129985 0.0731896 0.9870015 -0.0731896 0.9870015 -0.0731896 0.0129985 0.0731896
1579000000 0.0130431 0.0737539 0.9869569 -0.0737539 0.9869569 -0.0737539 0.0130431 0.0737539
1586250000 0.0130963 0.0743173 0.9869037 -0.0743173 0.9869037 -0.0743173 0.0130963 0.0743173
1593500000 0.0131576 0.0748795 0.9868424 -0.0748795 0.9868424 -0.0748795 0.0131576 0.0748795
1600750000 0.0132265 0.0754406 0.9867735 -0.0754406 0.9867735 -0.0754406 0.0132265 0.0754406
1608000000 0.0133025 0.0760005 0.9866975 -0.0760005 0.9866975 -0.0760005 0.0133025 0.0760005
1615250000 0.0133854 0.0765592 0.9866146 -0.0765592 0.9866146 -0.0765592 0.0133854 0.0765592
1622500000 0.0134747 0.0771166 0.9865253 -0.0771166 0.9865253 -0.0771166 0.0134747 0.0771166
1629750000 0.0135701 0.0776727 0.9864299 -0.0776727 0.9864299 -0.0776727 0.0135701 0.0776727
