!Murata Part Number: GRM31A7U2J152JW31
!These Parameters are Measured in Series Mode Connection
!Data Generated on Mar 30, 2021
!       o--ll--o
!Port1            Port2
!       o------o
!Operation Temp=25[degC], DC Bias Voltage=0[V]
!Freq. Start=1000[kHz] Stop=3[GHz] 401[Steps]
# Hz S RI R 50
!Freq.(Hz) S11(Real) S11(Imag) S21(Real) S21(Imag) S12(Real) S12(Imag) S22(Real) S22(Imag)
1000000 0.5373472 -0.4985353 0.4626528 0.4985353 0.4626528 0.4985353 0.5373472 -0.4985353
1020218 0.5273818 -0.4991804 0.4726182 0.4991804 0.4726182 0.4991804 0.5273818 -0.4991804
1040844 0.5173946 -0.4996267 0.4826054 0.4996267 0.4826054 0.4996267 0.5173946 -0.4996267
1061887 0.5073935 -0.4998732 0.4926065 0.4998732 0.4926065 0.4998732 0.5073935 -0.4998732
1083356 0.4973864 -0.4999196 0.5026136 0.4999196 0.5026136 0.4999196 0.4973864 -0.4999196
1105259 0.4873815 -0.4997657 0.5126185 0.4997657 0.5126185 0.4997657 0.4873815 -0.4997657
1127605 0.4773867 -0.4994118 0.5226133 0.4994118 0.5226133 0.4994118 0.4773867 -0.4994118
1150402 0.4674100 -0.4988586 0.5325900 0.4988586 0.5325900 0.4988586 0.4674100 -0.4988586
1173660 0.4574593 -0.4981073 0.5425407 0.4981073 0.5425407 0.4981073 0.4574593 -0.4981073
1197389 0.4475424 -0.4971593 0.5524576 0.4971593 0.5524576 0.4971593 0.4475424 -0.4971593
1221597 0.4376671 -0.4960164 0.5623329 0.4960164 0.5623329 0.4960164 0.4376671 -0.4960164
1246295 0.4278410 -0.4946810 0.5721590 0.4946810 0.5721590 0.4946810 0.4278410 -0.4946810
1271492 0.4180715 -0.4931557 0.5819285 0.4931557 0.5819285 0.4931557 0.4180715 -0.4931557
1297199 0.4083659 -0.4914434 0.5916341 0.4914434 0.5916341 0.4914434 0.4083659 -0.4914434
1323425 0.3987312 -0.4895474 0.6012688 0.4895474 0.6012688 0.4895474 0.3987312 -0.4895474
1350181 0.3891744 -0.4874713 0.6108256 0.4874713 0.6108256 0.4874713 0.3891744 -0.4874713
1377479 0.3797019 -0.4852191 0.6202981 0.4852191 0.6202981 0.4852191 0.3797019 -0.4852191
1405328 0.3703203 -0.4827950 0.6296797 0.4827950 0.6296797 0.4827950 0.3703203 -0.4827950
1433740 0.3610356 -0.4802034 0.6389644 0.4802034 0.6389644 0.4802034 0.3610356 -0.4802034
1462727 0.3518536 -0.4774492 0.6481464 0.4774492 0.6481464 0.4774492 0.3518536 -0.4774492
1492300 0.3427799 -0.4745372 0.6572201 0.4745372 0.6572201 0.4745372 0.3427799 -0.4745372
1522470 0.3338197 -0.4714727 0.6661803 0.4714727 0.6661803 0.4714727 0.3338197 -0.4714727
1553251 0.3249779 -0.4682610 0.6750221 0.4682610 0.6750221 0.4682610 0.3249779 -0.4682610
1584654 0.3162591 -0.4649077 0.6837409 0.4649077 0.6837409 0.4649077 0.3162591 -0.4649077
1616692 0.3076677 -0.4614183 0.6923323 0.4614183 0.6923323 0.4614183 0.3076677 -0.4614183
1649378 0.2992076 -0.4577988 0.7007924 0.4577988 0.7007924 0.4577988 0.2992076 -0.4577988
1682724 0.2908824 -0.4540550 0.7091176 0.4540550 0.7091176 0.4540550 0.2908824 -0.4540550
1716745 0.2826954 -0.4501929 0.7173046 0.4501929 0.7173046 0.4501929 0.2826954 -0.4501929
1751453 0.2746496 -0.4462185 0.7253504 0.4462185 0.7253504 0.4462185 0.2746496 -0.4462185
1786863 0.2667477 -0.4421379 0.7332523 0.4421379 0.7332523 0.4421379 0.2667477 -0.4421379
1822989 0.2589920 -0.4379573 0.7410080 0.4379573 0.7410080 0.4379573 0.2589920 -0.4379573
1859846 0.2513845 -0.4336826 0.7486155 0.4336826 0.7486155 0.4336826 0.2513845 -0.4336826
1897447 0.2439270 -0.4293202 0.7560730 0.4293202 0.7560730 0.4293202 0.2439270 -0.4293202
1935809 0.2366208 -0.4248758 0.7633792 0.4248758 0.7633792 0.4248758 0.2366208 -0.4248758
1974946 0.2294670 -0.4203557 0.7705330 0.4203557 0.7705330 0.4203557 0.2294670 -0.4203557
2014875 0.2224666 -0.4157658 0.7775334 0.4157658 0.7775334 0.4157658 0.2224666 -0.4157658
2055611 0.2156199 -0.4111119 0.7843801 0.4111119 0.7843801 0.4111119 0.2156199 -0.4111119
2097170 0.2089274 -0.4063997 0.7910726 0.4063997 0.7910726 0.4063997 0.2089274 -0.4063997
2139570 0.2023891 -0.4016351 0.7976109 0.4016351 0.7976109 0.4016351 0.2023891 -0.4016351
2182827 0.1960047 -0.3968236 0.8039953 0.3968236 0.8039953 0.3968236 0.1960047 -0.3968236
2226959 0.1897739 -0.3919705 0.8102261 0.3919705 0.8102261 0.3919705 0.1897739 -0.3919705
2271982 0.1836959 -0.3870813 0.8163041 0.3870813 0.8163041 0.3870813 0.1836959 -0.3870813
2317916 0.1777698 -0.3821610 0.8222302 0.3821610 0.8222302 0.3821610 0.1777698 -0.3821610
2364779 0.1719948 -0.3772148 0.8280052 0.3772148 0.8280052 0.3772148 0.1719948 -0.3772148
2412589 0.1663694 -0.3722476 0.8336306 0.3722476 0.8336306 0.3722476 0.1663694 -0.3722476
2461366 0.1608923 -0.3672639 0.8391077 0.3672639 0.8391077 0.3672639 0.1608923 -0.3672639
2511129 0.1555619 -0.3622684 0.8444381 0.3622684 0.8444381 0.3622684 0.1555619 -0.3622684
2561897 0.1503765 -0.3572655 0.8496235 0.3572655 0.8496235 0.3572655 0.1503765 -0.3572655
2613693 0.1453342 -0.3522593 0.8546658 0.3522593 0.8546658 0.3522593 0.1453342 -0.3522593
2666535 0.1404331 -0.3472540 0.8595669 0.3472540 0.8595669 0.3472540 0.1404331 -0.3472540
2720446 0.1356711 -0.3422535 0.8643289 0.3422535 0.8643289 0.3422535 0.1356711 -0.3422535
2775447 0.1310460 -0.3372614 0.8689540 0.3372614 0.8689540 0.3372614 0.1310460 -0.3372614
2831560 0.1265555 -0.3322812 0.8734445 0.3322812 0.8734445 0.3322812 0.1265555 -0.3322812
2888807 0.1221973 -0.3273165 0.8778027 0.3273165 0.8778027 0.3273165 0.1221973 -0.3273165
2947212 0.1179690 -0.3223703 0.8820310 0.3223703 0.8820310 0.3223703 0.1179690 -0.3223703
3006797 0.1138681 -0.3174457 0.8861319 0.3174457 0.8861319 0.3174457 0.1138681 -0.3174457
3067588 0.1098920 -0.3125456 0.8901080 0.3125456 0.8901080 0.3125456 0.1098920 -0.3125456
3129607 0.1060381 -0.3076727 0.8939619 0.3076727 0.8939619 0.3076727 0.1060381 -0.3076727
3192880 0.1023040 -0.3028295 0.8976960 0.3028295 0.8976960 0.3028295 0.1023040 -0.3028295
3257432 0.0986869 -0.2980185 0.9013131 0.2980185 0.9013131 0.2980185 0.0986869 -0.2980185
3323290 0.0951841 -0.2932419 0.9048159 0.2932419 0.9048159 0.2932419 0.0951841 -0.2932419
3390478 0.0917931 -0.2885018 0.9082069 0.2885018 0.9082069 0.2885018 0.0917931 -0.2885018
3459026 0.0885111 -0.2838002 0.9114889 0.2838002 0.9114889 0.2838002 0.0885111 -0.2838002
3528959 0.0853355 -0.2791388 0.9146645 0.2791388 0.9146645 0.2791388 0.0853355 -0.2791388
3600306 0.0822636 -0.2745194 0.9177364 0.2745194 0.9177364 0.2745194 0.0822636 -0.2745194
3673095 0.0792927 -0.2699436 0.9207073 0.2699436 0.9207073 0.2699436 0.0792927 -0.2699436
3747356 0.0764203 -0.2654127 0.9235797 0.2654127 0.9235797 0.2654127 0.0764203 -0.2654127
3823119 0.0736436 -0.2609281 0.9263564 0.2609281 0.9263564 0.2609281 0.0736436 -0.2609281
3900413 0.0709602 -0.2564909 0.9290398 0.2564909 0.9290398 0.2564909 0.0709602 -0.2564909
3979270 0.0683673 -0.2521022 0.9316327 0.2521022 0.9316327 0.2521022 0.0683673 -0.2521022
4059721 0.0658625 -0.2477631 0.9341375 0.2477631 0.9341375 0.2477631 0.0658625 -0.2477631
4141799 0.0634434 -0.2434744 0.9365566 0.2434744 0.9365566 0.2434744 0.0634434 -0.2434744
4225536 0.0611073 -0.2392368 0.9388927 0.2392368 0.9388927 0.2392368 0.0611073 -0.2392368
4310966 0.0588519 -0.2350510 0.9411481 0.2350510 0.9411481 0.2350510 0.0588519 -0.2350510
4398124 0.0566747 -0.2309177 0.9433253 0.2309177 0.9433253 0.2309177 0.0566747 -0.2309177
4487043 0.0545735 -0.2268373 0.9454265 0.2268373 0.9454265 0.2268373 0.0545735 -0.2268373
4577760 0.0525460 -0.2228102 0.9474540 0.2228102 0.9474540 0.2228102 0.0525460 -0.2228102
4670311 0.0505898 -0.2188369 0.9494102 0.2188369 0.9494102 0.2188369 0.0505898 -0.2188369
4764734 0.0487027 -0.2149175 0.9512973 0.2149175 0.9512973 0.2149175 0.0487027 -0.2149175
4861065 0.0468826 -0.2110522 0.9531174 0.2110522 0.9531174 0.2110522 0.0468826 -0.2110522
4959344 0.0451274 -0.2072413 0.9548726 0.2072413 0.9548726 0.2072413 0.0451274 -0.2072413
5059610 0.0434349 -0.2034848 0.9565651 0.2034848 0.9565651 0.2034848 0.0434349 -0.2034848
5161903 0.0418032 -0.1997827 0.9581968 0.1997827 0.9581968 0.1997827 0.0418032 -0.1997827
5266264 0.0402303 -0.1961349 0.9597697 0.1961349 0.9597697 0.1961349 0.0402303 -0.1961349
5372736 0.0387143 -0.1925415 0.9612857 0.1925415 0.9612857 0.1925415 0.0387143 -0.1925415
5481359 0.0372532 -0.1890022 0.9627468 0.1890022 0.9627468 0.1890022 0.0372532 -0.1890022
5592179 0.0358453 -0.1855169 0.9641547 0.1855169 0.9641547 0.1855169 0.0358453 -0.1855169
5705239 0.0344888 -0.1820853 0.9655112 0.1820853 0.9655112 0.1820853 0.0344888 -0.1820853
5820586 0.0331819 -0.1787073 0.9668181 0.1787073 0.9668181 0.1787073 0.0331819 -0.1787073
5938264 0.0319230 -0.1753824 0.9680770 0.1753824 0.9680770 0.1753824 0.0319230 -0.1753824
6058321 0.0307104 -0.1721105 0.9692896 0.1721105 0.9692896 0.1721105 0.0307104 -0.1721105
6180806 0.0295425 -0.1688911 0.9704575 0.1688911 0.9704575 0.1688911 0.0295425 -0.1688911
6305767 0.0284178 -0.1657238 0.9715822 0.1657238 0.9715822 0.1657238 0.0284178 -0.1657238
6433254 0.0273348 -0.1626082 0.9726652 0.1626082 0.9726652 0.1626082 0.0273348 -0.1626082
6563319 0.0262920 -0.1595439 0.9737080 0.1595439 0.9737080 0.1595439 0.0262920 -0.1595439
6696013 0.0252881 -0.1565304 0.9747119 0.1565304 0.9747119 0.1565304 0.0252881 -0.1565304
6831390 0.0243216 -0.1535673 0.9756784 0.1535673 0.9756784 0.1535673 0.0243216 -0.1535673
6969505 0.0233912 -0.1506540 0.9766088 0.1506540 0.9766088 0.1506540 0.0233912 -0.1506540
7110411 0.0224957 -0.1477900 0.9775043 0.1477900 0.9775043 0.1477900 0.0224957 -0.1477900
7254166 0.0216338 -0.1449748 0.9783662 0.1449748 0.9783662 0.1449748 0.0216338 -0.1449748
7400828 0.0208043 -0.1422079 0.9791957 0.1422079 0.9791957 0.1422079 0.0208043 -0.1422079
7550455 0.0200061 -0.1394886 0.9799939 0.1394886 0.9799939 0.1394886 0.0200061 -0.1394886
7703107 0.0192379 -0.1368165 0.9807621 0.1368165 0.9807621 0.1368165 0.0192379 -0.1368165
7858845 0.0184988 -0.1341908 0.9815012 0.1341908 0.9815012 0.1341908 0.0184988 -0.1341908
8017732 0.0177877 -0.1316112 0.9822123 0.1316112 0.9822123 0.1316112 0.0177877 -0.1316112
8179831 0.0171035 -0.1290769 0.9828965 0.1290769 0.9828965 0.1290769 0.0171035 -0.1290769
8345207 0.0164453 -0.1265873 0.9835547 0.1265873 0.9835547 0.1265873 0.0164453 -0.1265873
8513927 0.0158121 -0.1241419 0.9841879 0.1241419 0.9841879 0.1241419 0.0158121 -0.1241419
8686058 0.0152030 -0.1217401 0.9847970 0.1217401 0.9847970 0.1217401 0.0152030 -0.1217401
8861669 0.0146171 -0.1193811 0.9853829 0.1193811 0.9853829 0.1193811 0.0146171 -0.1193811
9040831 0.0140535 -0.1170645 0.9859465 0.1170645 0.9859465 0.1170645 0.0140535 -0.1170645
9223615 0.0135115 -0.1147896 0.9864885 0.1147896 0.9864885 0.1147896 0.0135115 -0.1147896
9410094 0.0129903 -0.1125558 0.9870097 0.1125558 0.9870097 0.1125558 0.0129903 -0.1125558
9600343 0.0124890 -0.1103624 0.9875110 0.1103624 0.9875110 0.1103624 0.0124890 -0.1103624
9794439 0.0120069 -0.1082089 0.9879931 0.1082089 0.9879931 0.1082089 0.0120069 -0.1082089
9992459 0.0115433 -0.1060946 0.9884567 0.1060946 0.9884567 0.1060946 0.0115433 -0.1060946
10194482 0.0110975 -0.1040190 0.9889025 0.1040190 0.9889025 0.1040190 0.0110975 -0.1040190
10400590 0.0106689 -0.1019814 0.9893311 0.1019814 0.9893311 0.1019814 0.0106689 -0.1019814
10610865 0.0102568 -0.0999812 0.9897432 0.0999812 0.9897432 0.0999812 0.0102568 -0.0999812
10825391 0.0098605 -0.0980178 0.9901395 0.0980178 0.9901395 0.0980178 0.0098605 -0.0980178
11044254 0.0094796 -0.0960906 0.9905204 0.0960906 0.9905204 0.0960906 0.0094796 -0.0960906
11267542 0.0091133 -0.0941990 0.9908867 0.0941990 0.9908867 0.0941990 0.0091133 -0.0941990
11495344 0.0087612 -0.0923425 0.9912388 0.0923425 0.9912388 0.0923425 0.0087612 -0.0923425
11727752 0.0084228 -0.0905203 0.9915772 0.0905203 0.9915772 0.0905203 0.0084228 -0.0905203
11964859 0.0080974 -0.0887320 0.9919026 0.0887320 0.9919026 0.0887320 0.0080974 -0.0887320
12206760 0.0077846 -0.0869770 0.9922154 0.0869770 0.9922154 0.0869770 0.0077846 -0.0869770
12453551 0.0074840 -0.0852547 0.9925160 0.0852547 0.9925160 0.0852547 0.0074840 -0.0852547
12705331 0.0071950 -0.0835646 0.9928050 0.0835646 0.9928050 0.0835646 0.0071950 -0.0835646
12962202 0.0069172 -0.0819060 0.9930828 0.0819060 0.9930828 0.0819060 0.0069172 -0.0819060
13224267 0.0066503 -0.0802784 0.9933497 0.0802784 0.9933497 0.0802784 0.0066503 -0.0802784
13491630 0.0063937 -0.0786813 0.9936063 0.0786813 0.9936063 0.0786813 0.0063937 -0.0786813
13764398 0.0061472 -0.0771141 0.9938528 0.0771141 0.9938528 0.0771141 0.0061472 -0.0771141
14042680 0.0059102 -0.0755764 0.9940898 0.0755764 0.9940898 0.0755764 0.0059102 -0.0755764
14326589 0.0056825 -0.0740675 0.9943175 0.0740675 0.9943175 0.0740675 0.0056825 -0.0740675
14616238 0.0054637 -0.0725869 0.9945363 0.0725869 0.9945363 0.0725869 0.0054637 -0.0725869
14911743 0.0052534 -0.0711342 0.9947466 0.0711342 0.9947466 0.0711342 0.0052534 -0.0711342
15213223 0.0050514 -0.0697088 0.9949486 0.0697088 0.9949486 0.0697088 0.0050514 -0.0697088
15520797 0.0048572 -0.0683103 0.9951428 0.0683103 0.9951428 0.0683103 0.0048572 -0.0683103
15834590 0.0046707 -0.0669380 0.9953293 0.0669380 0.9953293 0.0669380 0.0046707 -0.0669380
16154727 0.0044915 -0.0655916 0.9955085 0.0655916 0.9955085 0.0655916 0.0044915 -0.0655916
16481337 0.0043193 -0.0642706 0.9956807 0.0642706 0.9956807 0.0642706 0.0043193 -0.0642706
16814550 0.0041539 -0.0629745 0.9958461 0.0629745 0.9958461 0.0629745 0.0041539 -0.0629745
17154499 0.0039950 -0.0617027 0.9960050 0.0617027 0.9960050 0.0617027 0.0039950 -0.0617027
17501322 0.0038424 -0.0604549 0.9961576 0.0604549 0.9961576 0.0604549 0.0038424 -0.0604549
17855156 0.0036957 -0.0592307 0.9963043 0.0592307 0.9963043 0.0592307 0.0036957 -0.0592307
18216144 0.0035549 -0.0580295 0.9964451 0.0580295 0.9964451 0.0580295 0.0035549 -0.0580295
18584431 0.0034196 -0.0568509 0.9965804 0.0568509 0.9965804 0.0568509 0.0034196 -0.0568509
18960163 0.0032897 -0.0556945 0.9967103 0.0556945 0.9967103 0.0556945 0.0032897 -0.0556945
19343491 0.0031650 -0.0545598 0.9968350 0.0545598 0.9968350 0.0545598 0.0031650 -0.0545598
19734570 0.0030451 -0.0534465 0.9969549 0.0534465 0.9969549 0.0534465 0.0030451 -0.0534465
20133555 0.0029301 -0.0523541 0.9970699 0.0523541 0.9970699 0.0523541 0.0029301 -0.0523541
20540607 0.0028196 -0.0512823 0.9971804 0.0512823 0.9971804 0.0512823 0.0028196 -0.0512823
20955888 0.0027135 -0.0502305 0.9972865 0.0502305 0.9972865 0.0502305 0.0027135 -0.0502305
21379566 0.0026117 -0.0491985 0.9973883 0.0491985 0.9973883 0.0491985 0.0026117 -0.0491985
21811809 0.0025139 -0.0481858 0.9974861 0.0481858 0.9974861 0.0481858 0.0025139 -0.0481858
22252791 0.0024200 -0.0471921 0.9975800 0.0471921 0.9975800 0.0471921 0.0024200 -0.0471921
22702688 0.0023300 -0.0462170 0.9976700 0.0462170 0.9976700 0.0462170 0.0023300 -0.0462170
23161682 0.0022435 -0.0452601 0.9977565 0.0452601 0.9977565 0.0452601 0.0022435 -0.0452601
23629955 0.0021605 -0.0443210 0.9978395 0.0443210 0.9978395 0.0443210 0.0021605 -0.0443210
24107696 0.0020808 -0.0433995 0.9979192 0.0433995 0.9979192 0.0433995 0.0020808 -0.0433995
24595095 0.0020044 -0.0424951 0.9979956 0.0424951 0.9979956 0.0424951 0.0020044 -0.0424951
25092348 0.0019311 -0.0416075 0.9980689 0.0416075 0.9980689 0.0416075 0.0019311 -0.0416075
25599655 0.0018608 -0.0407363 0.9981392 0.0407363 0.9981392 0.0407363 0.0018608 -0.0407363
26117218 0.0017933 -0.0398813 0.9982067 0.0398813 0.9982067 0.0398813 0.0017933 -0.0398813
26645245 0.0017286 -0.0390421 0.9982714 0.0390421 0.9982714 0.0390421 0.0017286 -0.0390421
27183947 0.0016665 -0.0382184 0.9983335 0.0382184 0.9983335 0.0382184 0.0016665 -0.0382184
27733541 0.0016070 -0.0374098 0.9983930 0.0374098 0.9983930 0.0374098 0.0016070 -0.0374098
28294246 0.0015499 -0.0366162 0.9984501 0.0366162 0.9984501 0.0366162 0.0015499 -0.0366162
28866287 0.0014952 -0.0358370 0.9985048 0.0358370 0.9985048 0.0358370 0.0014952 -0.0358370
29449894 0.0014427 -0.0350721 0.9985573 0.0350721 0.9985573 0.0350721 0.0014427 -0.0350721
30045299 0.0013924 -0.0343212 0.9986076 0.0343212 0.9986076 0.0343212 0.0013924 -0.0343212
30652742 0.0013443 -0.0335840 0.9986557 0.0335840 0.9986557 0.0335840 0.0013443 -0.0335840
31272467 0.0012981 -0.0328601 0.9987019 0.0328601 0.9987019 0.0328601 0.0012981 -0.0328601
31904720 0.0012539 -0.0321493 0.9987461 0.0321493 0.9987461 0.0321493 0.0012539 -0.0321493
32549757 0.0012115 -0.0314514 0.9987885 0.0314514 0.9987885 0.0314514 0.0012115 -0.0314514
33207834 0.0011710 -0.0307660 0.9988290 0.0307660 0.9988290 0.0307660 0.0011710 -0.0307660
33879216 0.0011321 -0.0300928 0.9988679 0.0300928 0.9988679 0.0300928 0.0011321 -0.0300928
34564172 0.0010949 -0.0294318 0.9989051 0.0294318 0.9989051 0.0294318 0.0010949 -0.0294318
35262976 0.0010594 -0.0287825 0.9989406 0.0287825 0.9989406 0.0287825 0.0010594 -0.0287825
35975908 0.0010253 -0.0281447 0.9989747 0.0281447 0.9989747 0.0281447 0.0010253 -0.0281447
36703254 0.0009928 -0.0275181 0.9990072 0.0275181 0.9990072 0.0275181 0.0009928 -0.0275181
37445305 0.0009616 -0.0269026 0.9990384 0.0269026 0.9990384 0.0269026 0.0009616 -0.0269026
38202358 0.0009318 -0.0262979 0.9990682 0.0262979 0.9990682 0.0262979 0.0009318 -0.0262979
38974717 0.0009033 -0.0257037 0.9990967 0.0257037 0.9990967 0.0257037 0.0009033 -0.0257037
39762692 0.0008761 -0.0251198 0.9991239 0.0251198 0.9991239 0.0251198 0.0008761 -0.0251198
40566597 0.0008501 -0.0245460 0.9991499 0.0245460 0.9991499 0.0245460 0.0008501 -0.0245460
41386756 0.0008253 -0.0239821 0.9991747 0.0239821 0.9991747 0.0239821 0.0008253 -0.0239821
42223496 0.0008016 -0.0234278 0.9991984 0.0234278 0.9991984 0.0234278 0.0008016 -0.0234278
43077153 0.0007790 -0.0228829 0.9992210 0.0228829 0.9992210 0.0228829 0.0007790 -0.0228829
43948069 0.0007574 -0.0223472 0.9992426 0.0223472 0.9992426 0.0223472 0.0007574 -0.0223472
44836592 0.0007368 -0.0218205 0.9992632 0.0218205 0.9992632 0.0218205 0.0007368 -0.0218205
45743080 0.0007172 -0.0213026 0.9992828 0.0213026 0.9992828 0.0213026 0.0007172 -0.0213026
46667894 0.0006984 -0.0207933 0.9993016 0.0207933 0.9993016 0.0207933 0.0006984 -0.0207933
47611406 0.0006806 -0.0202923 0.9993194 0.0202923 0.9993194 0.0202923 0.0006806 -0.0202923
48573993 0.0006637 -0.0197995 0.9993363 0.0197995 0.9993363 0.0197995 0.0006637 -0.0197995
49556042 0.0006475 -0.0193147 0.9993525 0.0193147 0.9993525 0.0193147 0.0006475 -0.0193147
50557945 0.0006322 -0.0188376 0.9993678 0.0188376 0.9993678 0.0188376 0.0006322 -0.0188376
51580105 0.0006176 -0.0183682 0.9993824 0.0183682 0.9993824 0.0183682 0.0006176 -0.0183682
52622929 0.0006037 -0.0179062 0.9993963 0.0179062 0.9993963 0.0179062 0.0006037 -0.0179062
53686838 0.0005906 -0.0174514 0.9994094 0.0174514 0.9994094 0.0174514 0.0005906 -0.0174514
54772256 0.0005781 -0.0170036 0.9994219 0.0170036 0.9994219 0.0170036 0.0005781 -0.0170036
55879618 0.0005663 -0.0165627 0.9994337 0.0165627 0.9994337 0.0165627 0.0005663 -0.0165627
57009369 0.0005551 -0.0161285 0.9994449 0.0161285 0.9994449 0.0161285 0.0005551 -0.0161285
58161960 0.0005445 -0.0157008 0.9994555 0.0157008 0.9994555 0.0157008 0.0005445 -0.0157008
59337855 0.0005345 -0.0152795 0.9994655 0.0152795 0.9994655 0.0152795 0.0005345 -0.0152795
60537522 0.0005251 -0.0148643 0.9994749 0.0148643 0.9994749 0.0148643 0.0005251 -0.0148643
61761445 0.0005162 -0.0144551 0.9994838 0.0144551 0.9994838 0.0144551 0.0005162 -0.0144551
63010112 0.0005078 -0.0140518 0.9994922 0.0140518 0.9994922 0.0140518 0.0005078 -0.0140518
64284024 0.0004999 -0.0136541 0.9995001 0.0136541 0.9995001 0.0136541 0.0004999 -0.0136541
65583691 0.0004926 -0.0132619 0.9995074 0.0132619 0.9995074 0.0132619 0.0004926 -0.0132619
66909635 0.0004857 -0.0128751 0.9995143 0.0128751 0.9995143 0.0128751 0.0004857 -0.0128751
68262386 0.0004792 -0.0124935 0.9995208 0.0124935 0.9995208 0.0124935 0.0004792 -0.0124935
69642486 0.0004732 -0.0121170 0.9995268 0.0121170 0.9995268 0.0121170 0.0004732 -0.0121170
71050488 0.0004677 -0.0117453 0.9995323 0.0117453 0.9995323 0.0117453 0.0004677 -0.0117453
72486957 0.0004625 -0.0113783 0.9995375 0.0113783 0.9995375 0.0113783 0.0004625 -0.0113783
73952468 0.0004578 -0.0110160 0.9995422 0.0110160 0.9995422 0.0110160 0.0004578 -0.0110160
