!Murata Part Number: GRM3195C2A822JA01
!These Parameters are Measured in Series Mode Connection
!Data Generated on Mar 30, 2021
!       o--ll--o
!Port1            Port2
!       o------o
!Operation Temp=25[degC], DC Bias Voltage=0[V]
!Freq. Start=1000[kHz] Stop=6[GHz] 401[Steps]
# Hz S RI R 50
!Freq.(Hz) S11(Real) S11(Imag) S21(Real) S21(Imag) S12(Real) S12(Imag) S22(Real) S22(Imag)
1000000 0.0370499 -0.1887042 0.9629501 0.1887042 0.9629501 0.1887042 0.0370499 -0.1887042
1021987 0.0355308 -0.1849331 0.9644692 0.1849331 0.9644692 0.1849331 0.0355308 -0.1849331
1044457 0.0340718 -0.1812256 0.9659282 0.1812256 0.9659282 0.1812256 0.0340718 -0.1812256
1067422 0.0326709 -0.1775811 0.9673291 0.1775811 0.9673291 0.1775811 0.0326709 -0.1775811
1090891 0.0313257 -0.1739995 0.9686743 0.1739995 0.9686743 0.1739995 0.0313257 -0.1739995
1114877 0.0300343 -0.1704802 0.9699657 0.1704802 0.9699657 0.1704802 0.0300343 -0.1704802
1139390 0.0287947 -0.1670228 0.9712053 0.1670228 0.9712053 0.1670228 0.0287947 -0.1670228
1164441 0.0276048 -0.1636267 0.9723952 0.1636267 0.9723952 0.1636267 0.0276048 -0.1636267
1190044 0.0264629 -0.1602914 0.9735371 0.1602914 0.9735371 0.1602914 0.0264629 -0.1602914
1216210 0.0253671 -0.1570163 0.9746329 0.1570163 0.9746329 0.1570163 0.0253671 -0.1570163
1242950 0.0243156 -0.1538009 0.9756844 0.1538009 0.9756844 0.1538009 0.0243156 -0.1538009
1270279 0.0233067 -0.1506443 0.9766933 0.1506443 0.9766933 0.1506443 0.0233067 -0.1506443
1298209 0.0223389 -0.1475461 0.9776611 0.1475461 0.9776611 0.1475461 0.0223389 -0.1475461
1326753 0.0214104 -0.1445055 0.9785896 0.1445055 0.9785896 0.1445055 0.0214104 -0.1445055
1355924 0.0205198 -0.1415218 0.9794802 0.1415218 0.9794802 0.1415218 0.0205198 -0.1415218
1385737 0.0196657 -0.1385943 0.9803343 0.1385943 0.9803343 0.1385943 0.0196657 -0.1385943
1416205 0.0188465 -0.1357223 0.9811535 0.1357223 0.9811535 0.1357223 0.0188465 -0.1357223
1447343 0.0180608 -0.1329050 0.9819392 0.1329050 0.9819392 0.1329050 0.0180608 -0.1329050
1479166 0.0173075 -0.1301417 0.9826925 0.1301417 0.9826925 0.1301417 0.0173075 -0.1301417
1511688 0.0165852 -0.1274315 0.9834148 0.1274315 0.9834148 0.1274315 0.0165852 -0.1274315
1544926 0.0158926 -0.1247738 0.9841074 0.1247738 0.9841074 0.1247738 0.0158926 -0.1247738
1578894 0.0152286 -0.1221678 0.9847714 0.1221678 0.9847714 0.1221678 0.0152286 -0.1221678
1613609 0.0145920 -0.1196126 0.9854080 0.1196126 0.9854080 0.1196126 0.0145920 -0.1196126
1649087 0.0139818 -0.1171075 0.9860182 0.1171075 0.9860182 0.1171075 0.0139818 -0.1171075
1685346 0.0133968 -0.1146517 0.9866032 0.1146517 0.9866032 0.1146517 0.0133968 -0.1146517
1722402 0.0128361 -0.1122444 0.9871639 0.1122444 0.9871639 0.1122444 0.0128361 -0.1122444
1760272 0.0122987 -0.1098849 0.9877013 0.1098849 0.9877013 0.1098849 0.0122987 -0.1098849
1798975 0.0117837 -0.1075723 0.9882163 0.1075723 0.9882163 0.1075723 0.0117837 -0.1075723
1838529 0.0112900 -0.1053058 0.9887100 0.1053058 0.9887100 0.1053058 0.0112900 -0.1053058
1878953 0.0108170 -0.1030848 0.9891830 0.1030848 0.9891830 0.1030848 0.0108170 -0.1030848
1920266 0.0103637 -0.1009083 0.9896363 0.1009083 0.9896363 0.1009083 0.0103637 -0.1009083
1962487 0.0099292 -0.0987757 0.9900708 0.0987757 0.9900708 0.0987757 0.0099292 -0.0987757
2005636 0.0095130 -0.0966862 0.9904870 0.0966862 0.9904870 0.0966862 0.0095130 -0.0966862
2049734 0.0091141 -0.0946389 0.9908859 0.0946389 0.9908859 0.0946389 0.0091141 -0.0946389
2094801 0.0087320 -0.0926332 0.9912680 0.0926332 0.9912680 0.0926332 0.0087320 -0.0926332
2140860 0.0083659 -0.0906684 0.9916341 0.0906684 0.9916341 0.0906684 0.0083659 -0.0906684
2187931 0.0080151 -0.0887435 0.9919849 0.0887435 0.9919849 0.0887435 0.0080151 -0.0887435
2236037 0.0076790 -0.0868581 0.9923210 0.0868581 0.9923210 0.0868581 0.0076790 -0.0868581
2285201 0.0073570 -0.0850112 0.9926430 0.0850112 0.9926430 0.0850112 0.0073570 -0.0850112
2335446 0.0070486 -0.0832022 0.9929514 0.0832022 0.9929514 0.0832022 0.0070486 -0.0832022
2386795 0.0067532 -0.0814303 0.9932468 0.0814303 0.9932468 0.0814303 0.0067532 -0.0814303
2439274 0.0064702 -0.0796950 0.9935298 0.0796950 0.9935298 0.0796950 0.0064702 -0.0796950
2492906 0.0061991 -0.0779954 0.9938009 0.0779954 0.9938009 0.0779954 0.0061991 -0.0779954
2547717 0.0059394 -0.0763309 0.9940606 0.0763309 0.9940606 0.0763309 0.0059394 -0.0763309
2603734 0.0056907 -0.0747009 0.9943093 0.0747009 0.9943093 0.0747009 0.0056907 -0.0747009
2660982 0.0054525 -0.0731046 0.9945475 0.0731046 0.9945475 0.0731046 0.0054525 -0.0731046
2719490 0.0052243 -0.0715414 0.9947757 0.0715414 0.9947757 0.0715414 0.0052243 -0.0715414
2779283 0.0050058 -0.0700106 0.9949942 0.0700106 0.9949942 0.0700106 0.0050058 -0.0700106
2840391 0.0047965 -0.0685117 0.9952035 0.0685117 0.9952035 0.0685117 0.0047965 -0.0685117
2902843 0.0045961 -0.0670440 0.9954039 0.0670440 0.9954039 0.0670440 0.0045961 -0.0670440
2966668 0.0044041 -0.0656069 0.9955959 0.0656069 0.9955959 0.0656069 0.0044041 -0.0656069
3031896 0.0042203 -0.0641997 0.9957797 0.0641997 0.9957797 0.0641997 0.0042203 -0.0641997
3098558 0.0040443 -0.0628219 0.9959557 0.0628219 0.9959557 0.0628219 0.0040443 -0.0628219
3166686 0.0038757 -0.0614729 0.9961243 0.0614729 0.9961243 0.0614729 0.0038757 -0.0614729
3236312 0.0037143 -0.0601521 0.9962857 0.0601521 0.9962857 0.0601521 0.0037143 -0.0601521
3307469 0.0035598 -0.0588589 0.9964402 0.0588589 0.9964402 0.0588589 0.0035598 -0.0588589
3380190 0.0034118 -0.0575928 0.9965882 0.0575928 0.9965882 0.0575928 0.0034118 -0.0575928
3454511 0.0032701 -0.0563533 0.9967299 0.0563533 0.9967299 0.0563533 0.0032701 -0.0563533
3530465 0.0031345 -0.0551397 0.9968655 0.0551397 0.9968655 0.0551397 0.0031345 -0.0551397
3608090 0.0030046 -0.0539516 0.9969954 0.0539516 0.9969954 0.0539516 0.0030046 -0.0539516
3687421 0.0028802 -0.0527884 0.9971198 0.0527884 0.9971198 0.0527884 0.0028802 -0.0527884
3768496 0.0027612 -0.0516497 0.9972388 0.0516497 0.9972388 0.0516497 0.0027612 -0.0516497
3851354 0.0026472 -0.0505349 0.9973528 0.0505349 0.9973528 0.0505349 0.0026472 -0.0505349
3936034 0.0025381 -0.0494435 0.9974619 0.0494435 0.9974619 0.0494435 0.0025381 -0.0494435
4022575 0.0024336 -0.0483750 0.9975664 0.0483750 0.9975664 0.0483750 0.0024336 -0.0483750
4111020 0.0023336 -0.0473291 0.9976664 0.0473291 0.9976664 0.0473291 0.0023336 -0.0473291
4201409 0.0022379 -0.0463051 0.9977621 0.0463051 0.9977621 0.0463051 0.0022379 -0.0463051
4293785 0.0021463 -0.0453027 0.9978537 0.0453027 0.9978537 0.0453027 0.0021463 -0.0453027
4388193 0.0020586 -0.0443213 0.9979414 0.0443213 0.9979414 0.0443213 0.0020586 -0.0443213
4484676 0.0019746 -0.0433607 0.9980254 0.0433607 0.9980254 0.0433607 0.0019746 -0.0433607
4583281 0.0018943 -0.0424202 0.9981057 0.0424202 0.9981057 0.0424202 0.0018943 -0.0424202
4684054 0.0018173 -0.0414996 0.9981827 0.0414996 0.9981827 0.0414996 0.0018173 -0.0414996
4787042 0.0017437 -0.0405983 0.9982563 0.0405983 0.9982563 0.0405983 0.0017437 -0.0405983
4892295 0.0016733 -0.0397160 0.9983267 0.0397160 0.9983267 0.0397160 0.0016733 -0.0397160
4999862 0.0016059 -0.0388522 0.9983941 0.0388522 0.9983941 0.0388522 0.0016059 -0.0388522
5109794 0.0015414 -0.0380067 0.9984586 0.0380067 0.9984586 0.0380067 0.0015414 -0.0380067
5222143 0.0014796 -0.0371789 0.9985204 0.0371789 0.9985204 0.0371789 0.0014796 -0.0371789
5336962 0.0014205 -0.0363686 0.9985795 0.0363686 0.9985795 0.0363686 0.0014205 -0.0363686
5454306 0.0013640 -0.0355753 0.9986360 0.0355753 0.9986360 0.0355753 0.0013640 -0.0355753
5574230 0.0013099 -0.0347986 0.9986901 0.0347986 0.9986901 0.0347986 0.0013099 -0.0347986
5696791 0.0012581 -0.0340383 0.9987419 0.0340383 0.9987419 0.0340383 0.0012581 -0.0340383
5822046 0.0012086 -0.0332940 0.9987914 0.0332940 0.9987914 0.0332940 0.0012086 -0.0332940
5950055 0.0011612 -0.0325653 0.9988388 0.0325653 0.9988388 0.0325653 0.0011612 -0.0325653
6080879 0.0011159 -0.0318519 0.9988841 0.0318519 0.9988841 0.0318519 0.0011159 -0.0318519
6214580 0.0010725 -0.0311535 0.9989275 0.0311535 0.9989275 0.0311535 0.0010725 -0.0311535
6351220 0.0010310 -0.0304697 0.9989690 0.0304697 0.9989690 0.0304697 0.0010310 -0.0304697
6490864 0.0009914 -0.0298002 0.9990086 0.0298002 0.9990086 0.0298002 0.0009914 -0.0298002
6633579 0.0009534 -0.0291448 0.9990466 0.0291448 0.9990466 0.0291448 0.0009534 -0.0291448
6779431 0.0009171 -0.0285031 0.9990829 0.0285031 0.9990829 0.0285031 0.0009171 -0.0285031
6928491 0.0008824 -0.0278748 0.9991176 0.0278748 0.9991176 0.0278748 0.0008824 -0.0278748
7080828 0.0008491 -0.0272596 0.9991509 0.0272596 0.9991509 0.0272596 0.0008491 -0.0272596
7236514 0.0008174 -0.0266573 0.9991826 0.0266573 0.9991826 0.0266573 0.0008174 -0.0266573
7395623 0.0007870 -0.0260675 0.9992130 0.0260675 0.9992130 0.0260675 0.0007870 -0.0260675
7558231 0.0007580 -0.0254901 0.9992420 0.0254901 0.9992420 0.0254901 0.0007580 -0.0254901
7724414 0.0007302 -0.0249246 0.9992698 0.0249246 0.9992698 0.0249246 0.0007302 -0.0249246
7894251 0.0007036 -0.0243709 0.9992964 0.0243709 0.9992964 0.0243709 0.0007036 -0.0243709
8067822 0.0006782 -0.0238287 0.9993218 0.0238287 0.9993218 0.0238287 0.0006782 -0.0238287
8245209 0.0006540 -0.0232977 0.9993460 0.0232977 0.9993460 0.0232977 0.0006540 -0.0232977
8426497 0.0006308 -0.0227777 0.9993692 0.0227777 0.9993692 0.0227777 0.0006308 -0.0227777
8611770 0.0006086 -0.0222685 0.9993914 0.0222685 0.9993914 0.0222685 0.0006086 -0.0222685
8801117 0.0005874 -0.0217698 0.9994126 0.0217698 0.9994126 0.0217698 0.0005874 -0.0217698
8994628 0.0005672 -0.0212814 0.9994328 0.0212814 0.9994328 0.0212814 0.0005672 -0.0212814
9192393 0.0005479 -0.0208030 0.9994521 0.0208030 0.9994521 0.0208030 0.0005479 -0.0208030
9394506 0.0005294 -0.0203345 0.9994706 0.0203345 0.9994706 0.0203345 0.0005294 -0.0203345
9601063 0.0005117 -0.0198756 0.9994883 0.0198756 0.9994883 0.0198756 0.0005117 -0.0198756
9812162 0.0004949 -0.0194261 0.9995051 0.0194261 0.9995051 0.0194261 0.0004949 -0.0194261
10027902 0.0004788 -0.0189857 0.9995212 0.0189857 0.9995212 0.0189857 0.0004788 -0.0189857
10248386 0.0004634 -0.0185543 0.9995366 0.0185543 0.9995366 0.0185543 0.0004634 -0.0185543
10473717 0.0004488 -0.0181317 0.9995512 0.0181317 0.9995512 0.0181317 0.0004488 -0.0181317
10704003 0.0004348 -0.0177177 0.9995652 0.0177177 0.9995652 0.0177177 0.0004348 -0.0177177
10939352 0.0004214 -0.0173121 0.9995786 0.0173121 0.9995786 0.0173121 0.0004214 -0.0173121
11179876 0.0004087 -0.0169147 0.9995913 0.0169147 0.9995913 0.0169147 0.0004087 -0.0169147
11425688 0.0003965 -0.0165252 0.9996035 0.0165252 0.9996035 0.0165252 0.0003965 -0.0165252
11676904 0.0003850 -0.0161436 0.9996150 0.0161436 0.9996150 0.0161436 0.0003850 -0.0161436
11933645 0.0003739 -0.0157696 0.9996261 0.0157696 0.9996261 0.0157696 0.0003739 -0.0157696
12196030 0.0003634 -0.0154031 0.9996366 0.0154031 0.9996366 0.0154031 0.0003634 -0.0154031
12464184 0.0003534 -0.0150439 0.9996466 0.0150439 0.9996466 0.0150439 0.0003534 -0.0150439
12738235 0.0003439 -0.0146919 0.9996561 0.0146919 0.9996561 0.0146919 0.0003439 -0.0146919
13018310 0.0003348 -0.0143467 0.9996652 0.0143467 0.9996652 0.0143467 0.0003348 -0.0143467
13304544 0.0003261 -0.0140084 0.9996739 0.0140084 0.9996739 0.0140084 0.0003261 -0.0140084
13597071 0.0003179 -0.0136767 0.9996821 0.0136767 0.9996821 0.0136767 0.0003179 -0.0136767
13896030 0.0003101 -0.0133515 0.9996899 0.0133515 0.9996899 0.0133515 0.0003101 -0.0133515
14201563 0.0003027 -0.0130327 0.9996973 0.0130327 0.9996973 0.0130327 0.0003027 -0.0130327
14513813 0.0002957 -0.0127200 0.9997043 0.0127200 0.9997043 0.0127200 0.0002957 -0.0127200
14832928 0.0002890 -0.0124134 0.9997110 0.0124134 0.9997110 0.0124134 0.0002890 -0.0124134
15159060 0.0002826 -0.0121126 0.9997174 0.0121126 0.9997174 0.0121126 0.0002826 -0.0121126
15492362 0.0002766 -0.0118176 0.9997234 0.0118176 0.9997234 0.0118176 0.0002766 -0.0118176
15832993 0.0002710 -0.0115282 0.9997290 0.0115282 0.9997290 0.0115282 0.0002710 -0.0115282
16181113 0.0002656 -0.0112443 0.9997344 0.0112443 0.9997344 0.0112443 0.0002656 -0.0112443
16536888 0.0002605 -0.0109657 0.9997395 0.0109657 0.9997395 0.0109657 0.0002605 -0.0109657
16900485 0.0002557 -0.0106923 0.9997443 0.0106923 0.9997443 0.0106923 0.0002557 -0.0106923
17272076 0.0002512 -0.0104240 0.9997488 0.0104240 0.9997488 0.0104240 0.0002512 -0.0104240
17651837 0.0002469 -0.0101607 0.9997531 0.0101607 0.9997531 0.0101607 0.0002469 -0.0101607
18039948 0.0002429 -0.0099022 0.9997571 0.0099022 0.9997571 0.0099022 0.0002429 -0.0099022
18436593 0.0002392 -0.0096484 0.9997608 0.0096484 0.9997608 0.0096484 0.0002392 -0.0096484
18841959 0.0002356 -0.0093992 0.9997644 0.0093992 0.9997644 0.0093992 0.0002356 -0.0093992
19256237 0.0002323 -0.0091544 0.9997677 0.0091544 0.9997677 0.0091544 0.0002323 -0.0091544
19679624 0.0002293 -0.0089141 0.9997707 0.0089141 0.9997707 0.0089141 0.0002293 -0.0089141
20112321 0.0002264 -0.0086779 0.9997736 0.0086779 0.9997736 0.0086779 0.0002264 -0.0086779
20554530 0.0002237 -0.0084459 0.9997763 0.0084459 0.9997763 0.0084459 0.0002237 -0.0084459
21006463 0.0002213 -0.0082179 0.9997787 0.0082179 0.9997787 0.0082179 0.0002213 -0.0082179
21468333 0.0002190 -0.0079939 0.9997810 0.0079939 0.9997810 0.0079939 0.0002190 -0.0079939
21940357 0.0002169 -0.0077736 0.9997831 0.0077736 0.9997831 0.0077736 0.0002169 -0.0077736
22422760 0.0002150 -0.0075570 0.9997850 0.0075570 0.9997850 0.0075570 0.0002150 -0.0075570
22915770 0.0002132 -0.0073441 0.9997868 0.0073441 0.9997868 0.0073441 0.0002132 -0.0073441
23419619 0.0002116 -0.0071346 0.9997884 0.0071346 0.9997884 0.0071346 0.0002116 -0.0071346
23934547 0.0002102 -0.0069286 0.9997898 0.0069286 0.9997898 0.0069286 0.0002102 -0.0069286
24460796 0.0002090 -0.0067258 0.9997910 0.0067258 0.9997910 0.0067258 0.0002090 -0.0067258
24998616 0.0002078 -0.0065263 0.9997922 0.0065263 0.9997922 0.0065263 0.0002078 -0.0065263
25548261 0.0002069 -0.0063299 0.9997931 0.0063299 0.9997931 0.0063299 0.0002069 -0.0063299
26109991 0.0002060 -0.0061364 0.9997940 0.0061364 0.9997940 0.0061364 0.0002060 -0.0061364
26684072 0.0002054 -0.0059460 0.9997946 0.0059460 0.9997946 0.0059460 0.0002054 -0.0059460
27270775 0.0002048 -0.0057583 0.9997952 0.0057583 0.9997952 0.0057583 0.0002048 -0.0057583
27870378 0.0002044 -0.0055734 0.9997956 0.0055734 0.9997956 0.0055734 0.0002044 -0.0055734
28483164 0.0002041 -0.0053912 0.9997959 0.0053912 0.9997959 0.0053912 0.0002041 -0.0053912
29109424 0.0002039 -0.0052115 0.9997961 0.0052115 0.9997961 0.0052115 0.0002039 -0.0052115
29749453 0.0002039 -0.0050343 0.9997961 0.0050343 0.9997961 0.0050343 0.0002039 -0.0050343
30403555 0.0002040 -0.0048596 0.9997960 0.0048596 0.9997960 0.0048596 0.0002040 -0.0048596
31072038 0.0002042 -0.0046871 0.9997958 0.0046871 0.9997958 0.0046871 0.0002042 -0.0046871
31755220 0.0002045 -0.0045169 0.9997955 0.0045169 0.9997955 0.0045169 0.0002045 -0.0045169
32453422 0.0002049 -0.0043488 0.9997951 0.0043488 0.9997951 0.0043488 0.0002049 -0.0043488
33166976 0.0002055 -0.0041828 0.9997945 0.0041828 0.9997945 0.0041828 0.0002055 -0.0041828
33896219 0.0002061 -0.0040188 0.9997939 0.0040188 0.9997939 0.0040188 0.0002061 -0.0040188
34641496 0.0002069 -0.0038567 0.9997931 0.0038567 0.9997931 0.0038567 0.0002069 -0.0038567
35403159 0.0002078 -0.0036964 0.9997922 0.0036964 0.9997922 0.0036964 0.0002078 -0.0036964
36181569 0.0002088 -0.0035378 0.9997912 0.0035378 0.9997912 0.0035378 0.0002088 -0.0035378
36977093 0.0002099 -0.0033810 0.9997901 0.0033810 0.9997901 0.0033810 0.0002099 -0.0033810
37790109 0.0002112 -0.0032257 0.9997888 0.0032257 0.9997888 0.0032257 0.0002112 -0.0032257
38621001 0.0002125 -0.0030720 0.9997875 0.0030720 0.9997875 0.0030720 0.0002125 -0.0030720
39470161 0.0002140 -0.0029197 0.9997860 0.0029197 0.9997860 0.0029197 0.0002140 -0.0029197
40337993 0.0002156 -0.0027688 0.9997844 0.0027688 0.9997844 0.0027688 0.0002156 -0.0027688
41224905 0.0002173 -0.0026191 0.9997827 0.0026191 0.9997827 0.0026191 0.0002173 -0.0026191
42131317 0.0002191 -0.0024707 0.9997809 0.0024707 0.9997809 0.0024707 0.0002191 -0.0024707
43057659 0.0002210 -0.0023235 0.9997790 0.0023235 0.9997790 0.0023235 0.0002210 -0.0023235
44004369 0.0002231 -0.0021773 0.9997769 0.0021773 0.9997769 0.0021773 0.0002231 -0.0021773
44971893 0.0002253 -0.0020321 0.9997747 0.0020321 0.9997747 0.0020321 0.0002253 -0.0020321
45960691 0.0002277 -0.0018878 0.9997723 0.0018878 0.9997723 0.0018878 0.0002277 -0.0018878
46971230 0.0002302 -0.0017443 0.9997698 0.0017443 0.9997698 0.0017443 0.0002302 -0.0017443
48003987 0.0002328 -0.0016017 0.9997672 0.0016017 0.9997672 0.0016017 0.0002328 -0.0016017
49059451 0.0002356 -0.0014597 0.9997644 0.0014597 0.9997644 0.0014597 0.0002356 -0.0014597
50138122 0.0002386 -0.0013183 0.9997614 0.0013183 0.9997614 0.0013183 0.0002386 -0.0013183
51240510 0.0002417 -0.0011775 0.9997583 0.0011775 0.9997583 0.0011775 0.0002417 -0.0011775
52367136 0.0002449 -0.0010372 0.9997551 0.0010372 0.9997551 0.0010372 0.0002449 -0.0010372
53518533 0.0002484 -0.0008972 0.9997516 0.0008972 0.9997516 0.0008972 0.0002484 -0.0008972
54695245 0.0002520 -0.0007576 0.9997480 0.0007576 0.9997480 0.0007576 0.0002520 -0.0007576
55897831 0.0002559 -0.0006182 0.9997441 0.0006182 0.9997441 0.0006182 0.0002559 -0.0006182
57126857 0.0002599 -0.0004789 0.9997401 0.0004789 0.9997401 0.0004789 0.0002599 -0.0004789
58382906 0.0002641 -0.0003397 0.9997359 0.0003397 0.9997359 0.0003397 0.0002641 -0.0003397
59666572 0.0002686 -0.0002006 0.9997314 0.0002006 0.9997314 0.0002006 0.0002686 -0.0002006
60978462 0.0002734 -0.0000613 0.9997266 0.0000613 0.9997266 0.0000613 0.0002734 -0.0000613
62319196 0.0002783 0.0000782 0.9997217 -0.0000782 0.9997217 -0.0000782 0.0002783 0.0000782
63689409 0.0002836 0.0002180 0.9997164 -0.0002180 0.9997164 -0.0002180 0.0002836 0.0002180
65089750 0.0002891 0.0003581 0.9997109 -0.0003581 0.9997109 -0.0003581 0.0002891 0.0003581
66520879 0.0002950 0.0004987 0.9997050 -0.0004987 0.9997050 -0.0004987 0.0002950 0.0004987
67983474 0.0003012 0.0006398 0.9996988 -0.0006398 0.9996988 -0.0006398 0.0003012 0.0006398
69478228 0.0003077 0.0007817 0.9996923 -0.0007817 0.9996923 -0.0007817 0.0003077 0.0007817
71005847 0.0003147 0.0009243 0.9996853 -0.0009243 0.9996853 -0.0009243 0.0003147 0.0009243
72567054 0.0003221 0.0010678 0.9996779 -0.0010678 0.9996779 -0.0010678 0.0003221 0.0010678
74162587 0.0003299 0.0012124 0.9996701 -0.0012124 0.9996701 -0.0012124 0.0003299 0.0012124
75793201 0.0003383 0.0013581 0.9996617 -0.0013581 0.9996617 -0.0013581 0.0003383 0.0013581
77459667 0.0003472 0.0015052 0.9996528 -0.0015052 0.9996528 -0.0015052 0.0003472 0.0015052
79162774 0.0003567 0.0016537 0.9996433 -0.0016537 0.9996433 -0.0016537 0.0003567 0.0016537
80903327 0.0003669 0.0018039 0.9996331 -0.0018039 0.9996331 -0.0018039 0.0003669 0.0018039
82682150 0.0003780 0.0019559 0.9996220 -0.0019559 0.9996220 -0.0019559 0.0003780 0.0019559
84500083 0.0003899 0.0021100 0.9996101 -0.0021100 0.9996101 -0.0021100 0.0003899 0.0021100
86357988 0.0004029 0.0022664 0.9995971 -0.0022664 0.9995971 -0.0022664 0.0004029 0.0022664
88256743 0.0004170 0.0024255 0.9995830 -0.0024255 0.9995830 -0.0024255 0.0004170 0.0024255
90197245 0.0004326 0.0025874 0.9995674 -0.0025874 0.9995674 -0.0025874 0.0004326 0.0025874
92180413 0.0004498 0.0027527 0.9995502 -0.0027527 0.9995502 -0.0027527 0.0004498 0.0027527
94207185 0.0004691 0.0029217 0.9995309 -0.0029217 0.9995309 -0.0029217 0.0004691 0.0029217
96278520 0.0004909 0.0030950 0.9995091 -0.0030950 0.9995091 -0.0030950 0.0004909 0.0030950
98395398 0.0005157 0.0032732 0.9994843 -0.0032732 0.9994843 -0.0032732 0.0005157 0.0032732
100558819 0.0005446 0.0034570 0.9994554 -0.0034570 0.9994554 -0.0034570 0.0005446 0.0034570
102769807 0.0005786 0.0036475 0.9994214 -0.0036475 0.9994214 -0.0036475 0.0005786 0.0036475
105029408 0.0006196 0.0038455 0.9993804 -0.0038455 0.9993804 -0.0038455 0.0006196 0.0038455
107338692 0.0006701 0.0040525 0.9993299 -0.0040525 0.9993299 -0.0040525 0.0006701 0.0040525
