!Murata Part Number: GRM31A5C3A120JW01
!These Parameters are Measured in Series Mode Connection
!Data Generated on Mar 30, 2021
!       o--ll--o
!Port1            Port2
!       o------o
!Operation Temp=25[degC], DC Bias Voltage=0[V]
!Freq. Start=100[MHz] Stop=3[GHz] 401[Steps]
# Hz S RI R 50
!Freq.(Hz) S11(Real) S11(Imag) S21(Real) S21(Imag) S12(Real) S12(Imag) S22(Real) S22(Imag)
100000000 0.6355648 -0.4805190 0.3644352 0.4805190 0.3644352 0.4805190 0.6355648 -0.4805190
107250000 0.6023303 -0.4886089 0.3976697 0.4886089 0.3976697 0.4886089 0.6023303 -0.4886089
114500000 0.5703534 -0.4941627 0.4296466 0.4941627 0.4296466 0.4941627 0.5703534 -0.4941627
121750000 0.5397576 -0.4974983 0.4602424 0.4974983 0.4602424 0.4974983 0.5397576 -0.4974983
129000000 0.5106172 -0.4989131 0.4893828 0.4989131 0.4893828 0.4989131 0.5106172 -0.4989131
136250000 0.4829667 -0.4986798 0.5170333 0.4986798 0.5170333 0.4986798 0.4829667 -0.4986798
143500000 0.4568095 -0.4970451 0.5431905 0.4970451 0.5431905 0.4970451 0.4568095 -0.4970451
150750000 0.4321250 -0.4942294 0.5678750 0.4942294 0.5678750 0.4942294 0.4321250 -0.4942294
158000000 0.4088748 -0.4904276 0.5911252 0.4904276 0.5911252 0.4904276 0.4088748 -0.4904276
165250000 0.3870082 -0.4858104 0.6129918 0.4858104 0.6129918 0.4858104 0.3870082 -0.4858104
172500000 0.3664655 -0.4805268 0.6335345 0.4805268 0.6335345 0.4805268 0.3664655 -0.4805268
179750000 0.3471821 -0.4747053 0.6528179 0.4747053 0.6528179 0.4747053 0.3471821 -0.4747053
187000000 0.3290903 -0.4684566 0.6709097 0.4684566 0.6709097 0.4684566 0.3290903 -0.4684566
194250000 0.3121218 -0.4618755 0.6878782 0.4618755 0.6878782 0.4618755 0.3121218 -0.4618755
201500000 0.2962088 -0.4550427 0.7037912 0.4550427 0.7037912 0.4550427 0.2962088 -0.4550427
208750000 0.2812851 -0.4480267 0.7187149 0.4480267 0.7187149 0.4480267 0.2812851 -0.4480267
216000000 0.2672868 -0.4408854 0.7327132 0.4408854 0.7327132 0.4408854 0.2672868 -0.4408854
223250000 0.2541527 -0.4336674 0.7458473 0.4336674 0.7458473 0.4336674 0.2541527 -0.4336674
230500000 0.2418250 -0.4264134 0.7581750 0.4264134 0.7581750 0.4264134 0.2418250 -0.4264134
237750000 0.2302490 -0.4191575 0.7697510 0.4191575 0.7697510 0.4191575 0.2302490 -0.4191575
245000000 0.2193732 -0.4119277 0.7806268 0.4119277 0.7806268 0.4119277 0.2193732 -0.4119277
252250000 0.2091496 -0.4047473 0.7908504 0.4047473 0.7908504 0.4047473 0.2091496 -0.4047473
259500000 0.1995331 -0.3976350 0.8004669 0.3976350 0.8004669 0.3976350 0.1995331 -0.3976350
266750000 0.1904821 -0.3906064 0.8095179 0.3906064 0.8095179 0.3906064 0.1904821 -0.3906064
274000000 0.1819575 -0.3836736 0.8180425 0.3836736 0.8180425 0.3836736 0.1819575 -0.3836736
281250000 0.1739234 -0.3768463 0.8260766 0.3768463 0.8260766 0.3768463 0.1739234 -0.3768463
288500000 0.1663462 -0.3701321 0.8336538 0.3701321 0.8336538 0.3701321 0.1663462 -0.3701321
295750000 0.1591949 -0.3635366 0.8408051 0.3635366 0.8408051 0.3635366 0.1591949 -0.3635366
303000000 0.1524407 -0.3570638 0.8475593 0.3570638 0.8475593 0.3570638 0.1524407 -0.3570638
310250000 0.1460572 -0.3507168 0.8539428 0.3507168 0.8539428 0.3507168 0.1460572 -0.3507168
317500000 0.1400195 -0.3444971 0.8599805 0.3444971 0.8599805 0.3444971 0.1400195 -0.3444971
324750000 0.1343049 -0.3384055 0.8656951 0.3384055 0.8656951 0.3384055 0.1343049 -0.3384055
332000000 0.1288923 -0.3324423 0.8711077 0.3324423 0.8711077 0.3324423 0.1288923 -0.3324423
339250000 0.1237622 -0.3266067 0.8762378 0.3266067 0.8762378 0.3266067 0.1237622 -0.3266067
346500000 0.1188963 -0.3208979 0.8811037 0.3208979 0.8811037 0.3208979 0.1188963 -0.3208979
353750000 0.1142780 -0.3153142 0.8857220 0.3153142 0.8857220 0.3153142 0.1142780 -0.3153142
361000000 0.1098917 -0.3098539 0.8901083 0.3098539 0.8901083 0.3098539 0.1098917 -0.3098539
368250000 0.1057229 -0.3045149 0.8942771 0.3045149 0.8942771 0.3045149 0.1057229 -0.3045149
375500000 0.1017583 -0.2992950 0.8982417 0.2992950 0.8982417 0.2992950 0.1017583 -0.2992950
382750000 0.0979854 -0.2941917 0.9020146 0.2941917 0.9020146 0.2941917 0.0979854 -0.2941917
390000000 0.0943927 -0.2892024 0.9056073 0.2892024 0.9056073 0.2892024 0.0943927 -0.2892024
397250000 0.0909694 -0.2843245 0.9090306 0.2843245 0.9090306 0.2843245 0.0909694 -0.2843245
404500000 0.0877055 -0.2795553 0.9122945 0.2795553 0.9122945 0.2795553 0.0877055 -0.2795553
411750000 0.0845918 -0.2748920 0.9154082 0.2748920 0.9154082 0.2748920 0.0845918 -0.2748920
419000000 0.0816196 -0.2703319 0.9183804 0.2703319 0.9183804 0.2703319 0.0816196 -0.2703319
426250000 0.0787809 -0.2658723 0.9212191 0.2658723 0.9212191 0.2658723 0.0787809 -0.2658723
433500000 0.0760681 -0.2615104 0.9239319 0.2615104 0.9239319 0.2615104 0.0760681 -0.2615104
440750000 0.0734741 -0.2572435 0.9265259 0.2572435 0.9265259 0.2572435 0.0734741 -0.2572435
448000000 0.0709926 -0.2530690 0.9290074 0.2530690 0.9290074 0.2530690 0.0709926 -0.2530690
455250000 0.0686172 -0.2489841 0.9313828 0.2489841 0.9313828 0.2489841 0.0686172 -0.2489841
462500000 0.0663424 -0.2449864 0.9336576 0.2449864 0.9336576 0.2449864 0.0663424 -0.2449864
469750000 0.0641628 -0.2410733 0.9358372 0.2410733 0.9358372 0.2410733 0.0641628 -0.2410733
477000000 0.0620732 -0.2372424 0.9379268 0.2372424 0.9379268 0.2372424 0.0620732 -0.2372424
484250000 0.0600692 -0.2334912 0.9399308 0.2334912 0.9399308 0.2334912 0.0600692 -0.2334912
491500000 0.0581462 -0.2298175 0.9418538 0.2298175 0.9418538 0.2298175 0.0581462 -0.2298175
498750000 0.0563001 -0.2262188 0.9436999 0.2262188 0.9436999 0.2262188 0.0563001 -0.2262188
506000000 0.0545270 -0.2226931 0.9454730 0.2226931 0.9454730 0.2226931 0.0545270 -0.2226931
513250000 0.0528233 -0.2192382 0.9471767 0.2192382 0.9471767 0.2192382 0.0528233 -0.2192382
520500000 0.0511857 -0.2158519 0.9488143 0.2158519 0.9488143 0.2158519 0.0511857 -0.2158519
527750000 0.0496108 -0.2125323 0.9503892 0.2125323 0.9503892 0.2125323 0.0496108 -0.2125323
535000000 0.0480956 -0.2092774 0.9519044 0.2092774 0.9519044 0.2092774 0.0480956 -0.2092774
542250000 0.0466374 -0.2060853 0.9533626 0.2060853 0.9533626 0.2060853 0.0466374 -0.2060853
549500000 0.0452333 -0.2029541 0.9547667 0.2029541 0.9547667 0.2029541 0.0452333 -0.2029541
556750000 0.0438809 -0.1998821 0.9561191 0.1998821 0.9561191 0.1998821 0.0438809 -0.1998821
564000000 0.0425778 -0.1968676 0.9574222 0.1968676 0.9574222 0.1968676 0.0425778 -0.1968676
571250000 0.0413218 -0.1939089 0.9586782 0.1939089 0.9586782 0.1939089 0.0413218 -0.1939089
578500000 0.0401106 -0.1910043 0.9598894 0.1910043 0.9598894 0.1910043 0.0401106 -0.1910043
585750000 0.0389423 -0.1881524 0.9610577 0.1881524 0.9610577 0.1881524 0.0389423 -0.1881524
593000000 0.0378151 -0.1853515 0.9621849 0.1853515 0.9621849 0.1853515 0.0378151 -0.1853515
600250000 0.0367270 -0.1826004 0.9632730 0.1826004 0.9632730 0.1826004 0.0367270 -0.1826004
607500000 0.0356765 -0.1798974 0.9643235 0.1798974 0.9643235 0.1798974 0.0356765 -0.1798974
614750000 0.0346618 -0.1772413 0.9653382 0.1772413 0.9653382 0.1772413 0.0346618 -0.1772413
622000000 0.0336815 -0.1746308 0.9663185 0.1746308 0.9663185 0.1746308 0.0336815 -0.1746308
629250000 0.0327341 -0.1720646 0.9672659 0.1720646 0.9672659 0.1720646 0.0327341 -0.1720646
636500000 0.0318183 -0.1695414 0.9681817 0.1695414 0.9681817 0.1695414 0.0318183 -0.1695414
643750000 0.0309327 -0.1670601 0.9690673 0.1670601 0.9690673 0.1670601 0.0309327 -0.1670601
651000000 0.0300761 -0.1646195 0.9699239 0.1646195 0.9699239 0.1646195 0.0300761 -0.1646195
658250000 0.0292474 -0.1622185 0.9707526 0.1622185 0.9707526 0.1622185 0.0292474 -0.1622185
665500000 0.0284454 -0.1598560 0.9715546 0.1598560 0.9715546 0.1598560 0.0284454 -0.1598560
672750000 0.0276691 -0.1575310 0.9723309 0.1575310 0.9723309 0.1575310 0.0276691 -0.1575310
680000000 0.0269174 -0.1552424 0.9730826 0.1552424 0.9730826 0.1552424 0.0269174 -0.1552424
687250000 0.0261894 -0.1529894 0.9738106 0.1529894 0.9738106 0.1529894 0.0261894 -0.1529894
694500000 0.0254842 -0.1507709 0.9745158 0.1507709 0.9745158 0.1507709 0.0254842 -0.1507709
701750000 0.0248009 -0.1485861 0.9751991 0.1485861 0.9751991 0.1485861 0.0248009 -0.1485861
709000000 0.0241388 -0.1464340 0.9758612 0.1464340 0.9758612 0.1464340 0.0241388 -0.1464340
716250000 0.0234969 -0.1443139 0.9765031 0.1443139 0.9765031 0.1443139 0.0234969 -0.1443139
723500000 0.0228746 -0.1422248 0.9771254 0.1422248 0.9771254 0.1422248 0.0228746 -0.1422248
730750000 0.0222711 -0.1401660 0.9777289 0.1401660 0.9777289 0.1401660 0.0222711 -0.1401660
738000000 0.0216858 -0.1381368 0.9783142 0.1381368 0.9783142 0.1381368 0.0216858 -0.1381368
745250000 0.0211179 -0.1361363 0.9788821 0.1361363 0.9788821 0.1361363 0.0211179 -0.1361363
752500000 0.0205670 -0.1341638 0.9794330 0.1341638 0.9794330 0.1341638 0.0205670 -0.1341638
759750000 0.0200323 -0.1322186 0.9799677 0.1322186 0.9799677 0.1322186 0.0200323 -0.1322186
767000000 0.0195133 -0.1303001 0.9804867 0.1303001 0.9804867 0.1303001 0.0195133 -0.1303001
774250000 0.0190095 -0.1284076 0.9809905 0.1284076 0.9809905 0.1284076 0.0190095 -0.1284076
781500000 0.0185203 -0.1265405 0.9814797 0.1265405 0.9814797 0.1265405 0.0185203 -0.1265405
788750000 0.0180453 -0.1246981 0.9819547 0.1246981 0.9819547 0.1246981 0.0180453 -0.1246981
796000000 0.0175839 -0.1228798 0.9824161 0.1228798 0.9824161 0.1228798 0.0175839 -0.1228798
803250000 0.0171358 -0.1210850 0.9828642 0.1210850 0.9828642 0.1210850 0.0171358 -0.1210850
810500000 0.0167004 -0.1193132 0.9832996 0.1193132 0.9832996 0.1193132 0.0167004 -0.1193132
817750000 0.0162773 -0.1175639 0.9837227 0.1175639 0.9837227 0.1175639 0.0162773 -0.1175639
825000000 0.0158663 -0.1158365 0.9841337 0.1158365 0.9841337 0.1158365 0.0158663 -0.1158365
832250000 0.0154667 -0.1141304 0.9845333 0.1141304 0.9845333 0.1141304 0.0154667 -0.1141304
839500000 0.0150784 -0.1124452 0.9849216 0.1124452 0.9849216 0.1124452 0.0150784 -0.1124452
846750000 0.0147009 -0.1107805 0.9852991 0.1107805 0.9852991 0.1107805 0.0147009 -0.1107805
854000000 0.0143340 -0.1091356 0.9856660 0.1091356 0.9856660 0.1091356 0.0143340 -0.1091356
861250000 0.0139771 -0.1075102 0.9860229 0.1075102 0.9860229 0.1075102 0.0139771 -0.1075102
868500000 0.0136302 -0.1059039 0.9863698 0.1059039 0.9863698 0.1059039 0.0136302 -0.1059039
875750000 0.0132928 -0.1043161 0.9867072 0.1043161 0.9867072 0.1043161 0.0132928 -0.1043161
883000000 0.0129647 -0.1027465 0.9870353 0.1027465 0.9870353 0.1027465 0.0129647 -0.1027465
890250000 0.0126456 -0.1011947 0.9873544 0.1011947 0.9873544 0.1011947 0.0126456 -0.1011947
897500000 0.0123352 -0.0996602 0.9876648 0.0996602 0.9876648 0.0996602 0.0123352 -0.0996602
904750000 0.0120332 -0.0981427 0.9879668 0.0981427 0.9879668 0.0981427 0.0120332 -0.0981427
912000000 0.0117395 -0.0966419 0.9882605 0.0966419 0.9882605 0.0966419 0.0117395 -0.0966419
919250000 0.0114538 -0.0951572 0.9885462 0.0951572 0.9885462 0.0951572 0.0114538 -0.0951572
926500000 0.0111758 -0.0936885 0.9888242 0.0936885 0.9888242 0.0936885 0.0111758 -0.0936885
933750000 0.0109053 -0.0922353 0.9890947 0.0922353 0.9890947 0.0922353 0.0109053 -0.0922353
941000000 0.0106422 -0.0907973 0.9893578 0.0907973 0.9893578 0.0907973 0.0106422 -0.0907973
948250000 0.0103862 -0.0893742 0.9896138 0.0893742 0.9896138 0.0893742 0.0103862 -0.0893742
955500000 0.0101370 -0.0879657 0.9898630 0.0879657 0.9898630 0.0879657 0.0101370 -0.0879657
962750000 0.0098947 -0.0865714 0.9901053 0.0865714 0.9901053 0.0865714 0.0098947 -0.0865714
970000000 0.0096588 -0.0851911 0.9903412 0.0851911 0.9903412 0.0851911 0.0096588 -0.0851911
977250000 0.0094293 -0.0838244 0.9905707 0.0838244 0.9905707 0.0838244 0.0094293 -0.0838244
984500000 0.0092061 -0.0824712 0.9907939 0.0824712 0.9907939 0.0824712 0.0092061 -0.0824712
991750000 0.0089888 -0.0811310 0.9910112 0.0811310 0.9910112 0.0811310 0.0089888 -0.0811310
999000000 0.0087774 -0.0798037 0.9912226 0.0798037 0.9912226 0.0798037 0.0087774 -0.0798037
1006250000 0.0085718 -0.0784889 0.9914282 0.0784889 0.9914282 0.0784889 0.0085718 -0.0784889
1013500000 0.0083717 -0.0771865 0.9916283 0.0771865 0.9916283 0.0771865 0.0083717 -0.0771865
1020750000 0.0081770 -0.0758962 0.9918230 0.0758962 0.9918230 0.0758962 0.0081770 -0.0758962
1028000000 0.0079877 -0.0746176 0.9920123 0.0746176 0.9920123 0.0746176 0.0079877 -0.0746176
1035250000 0.0078035 -0.0733507 0.9921965 0.0733507 0.9921965 0.0733507 0.0078035 -0.0733507
1042500000 0.0076243 -0.0720951 0.9923757 0.0720951 0.9923757 0.0720951 0.0076243 -0.0720951
1049750000 0.0074500 -0.0708507 0.9925500 0.0708507 0.9925500 0.0708507 0.0074500 -0.0708507
1057000000 0.0072805 -0.0696171 0.9927195 0.0696171 0.9927195 0.0696171 0.0072805 -0.0696171
1064250000 0.0071157 -0.0683943 0.9928843 0.0683943 0.9928843 0.0683943 0.0071157 -0.0683943
1071500000 0.0069554 -0.0671819 0.9930446 0.0671819 0.9930446 0.0671819 0.0069554 -0.0671819
1078750000 0.0067996 -0.0659799 0.9932004 0.0659799 0.9932004 0.0659799 0.0067996 -0.0659799
1086000000 0.0066481 -0.0647879 0.9933519 0.0647879 0.9933519 0.0647879 0.0066481 -0.0647879
1093250000 0.0065009 -0.0636058 0.9934991 0.0636058 0.9934991 0.0636058 0.0065009 -0.0636058
1100500000 0.0063578 -0.0624335 0.9936422 0.0624335 0.9936422 0.0624335 0.0063578 -0.0624335
1107750000 0.0062187 -0.0612706 0.9937813 0.0612706 0.9937813 0.0612706 0.0062187 -0.0612706
1115000000 0.0060836 -0.0601171 0.9939164 0.0601171 0.9939164 0.0601171 0.0060836 -0.0601171
1122250000 0.0059524 -0.0589728 0.9940476 0.0589728 0.9940476 0.0589728 0.0059524 -0.0589728
1129500000 0.0058250 -0.0578374 0.9941750 0.0578374 0.9941750 0.0578374 0.0058250 -0.0578374
1136750000 0.0057012 -0.0567109 0.9942988 0.0567109 0.9942988 0.0567109 0.0057012 -0.0567109
1144000000 0.0055811 -0.0555930 0.9944189 0.0555930 0.9944189 0.0555930 0.0055811 -0.0555930
1151250000 0.0054644 -0.0544836 0.9945356 0.0544836 0.9945356 0.0544836 0.0054644 -0.0544836
1158500000 0.0053513 -0.0533826 0.9946487 0.0533826 0.9946487 0.0533826 0.0053513 -0.0533826
1165750000 0.0052415 -0.0522898 0.9947585 0.0522898 0.9947585 0.0522898 0.0052415 -0.0522898
1173000000 0.0051351 -0.0512050 0.9948649 0.0512050 0.9948649 0.0512050 0.0051351 -0.0512050
1180250000 0.0050319 -0.0501281 0.9949681 0.0501281 0.9949681 0.0501281 0.0050319 -0.0501281
1187500000 0.0049318 -0.0490590 0.9950682 0.0490590 0.9950682 0.0490590 0.0049318 -0.0490590
1194750000 0.0048349 -0.0479974 0.9951651 0.0479974 0.9951651 0.0479974 0.0048349 -0.0479974
1202000000 0.0047410 -0.0469434 0.9952590 0.0469434 0.9952590 0.0469434 0.0047410 -0.0469434
1209250000 0.0046501 -0.0458967 0.9953499 0.0458967 0.9953499 0.0458967 0.0046501 -0.0458967
1216500000 0.0045622 -0.0448572 0.9954378 0.0448572 0.9954378 0.0448572 0.0045622 -0.0448572
1223750000 0.0044771 -0.0438248 0.9955229 0.0438248 0.9955229 0.0438248 0.0044771 -0.0438248
1231000000 0.0043948 -0.0427993 0.9956052 0.0427993 0.9956052 0.0427993 0.0043948 -0.0427993
1238250000 0.0043152 -0.0417807 0.9956848 0.0417807 0.9956848 0.0417807 0.0043152 -0.0417807
1245500000 0.0042384 -0.0407688 0.9957616 0.0407688 0.9957616 0.0407688 0.0042384 -0.0407688
1252750000 0.0041642 -0.0397635 0.9958358 0.0397635 0.9958358 0.0397635 0.0041642 -0.0397635
1260000000 0.0040927 -0.0387647 0.9959073 0.0387647 0.9959073 0.0387647 0.0040927 -0.0387647
1267250000 0.0040237 -0.0377723 0.9959763 0.0377723 0.9959763 0.0377723 0.0040237 -0.0377723
1274500000 0.0039571 -0.0367861 0.9960429 0.0367861 0.9960429 0.0367861 0.0039571 -0.0367861
1281750000 0.0038931 -0.0358061 0.9961069 0.0358061 0.9961069 0.0358061 0.0038931 -0.0358061
1289000000 0.0038315 -0.0348322 0.9961685 0.0348322 0.9961685 0.0348322 0.0038315 -0.0348322
1296250000 0.0037722 -0.0338642 0.9962278 0.0338642 0.9962278 0.0338642 0.0037722 -0.0338642
1303500000 0.0037153 -0.0329020 0.9962847 0.0329020 0.9962847 0.0329020 0.0037153 -0.0329020
1310750000 0.0036606 -0.0319456 0.9963394 0.0319456 0.9963394 0.0319456 0.0036606 -0.0319456
1318000000 0.0036082 -0.0309949 0.9963918 0.0309949 0.9963918 0.0309949 0.0036082 -0.0309949
1325250000 0.0035581 -0.0300497 0.9964419 0.0300497 0.9964419 0.0300497 0.0035581 -0.0300497
1332500000 0.0035101 -0.0291100 0.9964899 0.0291100 0.9964899 0.0291100 0.0035101 -0.0291100
1339750000 0.0034642 -0.0281757 0.9965358 0.0281757 0.9965358 0.0281757 0.0034642 -0.0281757
1347000000 0.0034204 -0.0272466 0.9965796 0.0272466 0.9965796 0.0272466 0.0034204 -0.0272466
1354250000 0.0033787 -0.0263228 0.9966213 0.0263228 0.9966213 0.0263228 0.0033787 -0.0263228
1361500000 0.0033391 -0.0254040 0.9966609 0.0254040 0.9966609 0.0254040 0.0033391 -0.0254040
1368750000 0.0033014 -0.0244903 0.9966986 0.0244903 0.9966986 0.0244903 0.0033014 -0.0244903
1376000000 0.0032657 -0.0235816 0.9967343 0.0235816 0.9967343 0.0235816 0.0032657 -0.0235816
1383250000 0.0032319 -0.0226777 0.9967681 0.0226777 0.9967681 0.0226777 0.0032319 -0.0226777
1390500000 0.0032001 -0.0217786 0.9967999 0.0217786 0.9967999 0.0217786 0.0032001 -0.0217786
1397750000 0.0031701 -0.0208842 0.9968299 0.0208842 0.9968299 0.0208842 0.0031701 -0.0208842
1405000000 0.0031420 -0.0199944 0.9968580 0.0199944 0.9968580 0.0199944 0.0031420 -0.0199944
1412250000 0.0031157 -0.0191093 0.9968843 0.0191093 0.9968843 0.0191093 0.0031157 -0.0191093
1419500000 0.0030912 -0.0182285 0.9969088 0.0182285 0.9969088 0.0182285 0.0030912 -0.0182285
1426750000 0.0030685 -0.0173522 0.9969315 0.0173522 0.9969315 0.0173522 0.0030685 -0.0173522
1434000000 0.0030475 -0.0164803 0.9969525 0.0164803 0.9969525 0.0164803 0.0030475 -0.0164803
1441250000 0.0030282 -0.0156126 0.9969718 0.0156126 0.9969718 0.0156126 0.0030282 -0.0156126
1448500000 0.0030106 -0.0147492 0.9969894 0.0147492 0.9969894 0.0147492 0.0030106 -0.0147492
1455750000 0.0029947 -0.0138898 0.9970053 0.0138898 0.9970053 0.0138898 0.0029947 -0.0138898
1463000000 0.0029804 -0.0130346 0.9970196 0.0130346 0.9970196 0.0130346 0.0029804 -0.0130346
1470250000 0.0029678 -0.0121833 0.9970322 0.0121833 0.9970322 0.0121833 0.0029678 -0.0121833
1477500000 0.0029567 -0.0113360 0.9970433 0.0113360 0.9970433 0.0113360 0.0029567 -0.0113360
1484750000 0.0029473 -0.0104926 0.9970527 0.0104926 0.9970527 0.0104926 0.0029473 -0.0104926
1492000000 0.0029394 -0.0096531 0.9970606 0.0096531 0.9970606 0.0096531 0.0029394 -0.0096531
1499250000 0.0029330 -0.0088173 0.9970670 0.0088173 0.9970670 0.0088173 0.0029330 -0.0088173
1506500000 0.0029282 -0.0079851 0.9970718 0.0079851 0.9970718 0.0079851 0.0029282 -0.0079851
1513750000 0.0029249 -0.0071567 0.9970751 0.0071567 0.9970751 0.0071567 0.0029249 -0.0071567
1521000000 0.0029230 -0.0063318 0.9970770 0.0063318 0.9970770 0.0063318 0.0029230 -0.0063318
1528250000 0.0029226 -0.0055105 0.9970774 0.0055105 0.9970774 0.0055105 0.0029226 -0.0055105
1535500000 0.0029237 -0.0046926 0.9970763 0.0046926 0.9970763 0.0046926 0.0029237 -0.0046926
1542750000 0.0029262 -0.0038782 0.9970738 0.0038782 0.9970738 0.0038782 0.0029262 -0.0038782
1550000000 0.0029301 -0.0030672 0.9970699 0.0030672 0.9970699 0.0030672 0.0029301 -0.0030672
1557250000 0.0029354 -0.0022595 0.9970646 0.0022595 0.9970646 0.0022595 0.0029354 -0.0022595
1564500000 0.0029420 -0.0014550 0.9970580 0.0014550 0.9970580 0.0014550 0.0029420 -0.0014550
1571750000 0.0029501 -0.0006538 0.9970499 0.0006538 0.9970499 0.0006538 0.0029501 -0.0006538
1579000000 0.0029595 0.0001442 0.9970405 -0.0001442 0.9970405 -0.0001442 0.0029595 0.0001442
1586250000 0.0029702 0.0009391 0.9970298 -0.0009391 0.9970298 -0.0009391 0.0029702 0.0009391
1593500000 0.0029822 0.0017310 0.9970178 -0.0017310 0.9970178 -0.0017310 0.0029822 0.0017310
1600750000 0.0029956 0.0025198 0.9970044 -0.0025198 0.9970044 -0.0025198 0.0029956 0.0025198
1608000000 0.0030102 0.0033056 0.9969898 -0.0033056 0.9969898 -0.0033056 0.0030102 0.0033056
1615250000 0.0030262 0.0040885 0.9969738 -0.0040885 0.9969738 -0.0040885 0.0030262 0.0040885
1622500000 0.0030433 0.0048685 0.9969567 -0.0048685 0.9969567 -0.0048685 0.0030433 0.0048685
1629750000 0.0030618 0.0056456 0.9969382 -0.0056456 0.9969382 -0.0056456 0.0030618 0.0056456
