!Murata Part Number: GRM3195C1H393JA01
!These Parameters are Measured in Series Mode Connection
!Data Generated on Mar 30, 2021
!       o--ll--o
!Port1            Port2
!       o------o
!Operation Temp=25[degC], DC Bias Voltage=0[V]
!Freq. Start=1000[kHz] Stop=6[GHz] 401[Steps]
# Hz S RI R 50
!Freq.(Hz) S11(Real) S11(Imag) S21(Real) S21(Imag) S12(Real) S12(Imag) S22(Real) S22(Imag)
1000000 0.0017019 -0.0406410 0.9982981 0.0406410 0.9982981 0.0406410 0.0017019 -0.0406410
1021987 0.0016315 -0.0397670 0.9983685 0.0397670 0.9983685 0.0397670 0.0016315 -0.0397670
1044457 0.0015641 -0.0389114 0.9984359 0.0389114 0.9984359 0.0389114 0.0015641 -0.0389114
1067422 0.0014996 -0.0380741 0.9985004 0.0380741 0.9985004 0.0380741 0.0014996 -0.0380741
1090891 0.0014378 -0.0372546 0.9985622 0.0372546 0.9985622 0.0372546 0.0014378 -0.0372546
1114877 0.0013787 -0.0364525 0.9986213 0.0364525 0.9986213 0.0364525 0.0013787 -0.0364525
1139390 0.0013220 -0.0356675 0.9986780 0.0356675 0.9986780 0.0356675 0.0013220 -0.0356675
1164441 0.0012678 -0.0348992 0.9987322 0.0348992 0.9987322 0.0348992 0.0012678 -0.0348992
1190044 0.0012159 -0.0341472 0.9987841 0.0341472 0.9987841 0.0341472 0.0012159 -0.0341472
1216210 0.0011663 -0.0334113 0.9988337 0.0334113 0.9988337 0.0334113 0.0011663 -0.0334113
1242950 0.0011187 -0.0326910 0.9988813 0.0326910 0.9988813 0.0326910 0.0011187 -0.0326910
1270279 0.0010732 -0.0319860 0.9989268 0.0319860 0.9989268 0.0319860 0.0010732 -0.0319860
1298209 0.0010296 -0.0312961 0.9989704 0.0312961 0.9989704 0.0312961 0.0010296 -0.0312961
1326753 0.0009879 -0.0306208 0.9990121 0.0306208 0.9990121 0.0306208 0.0009879 -0.0306208
1355924 0.0009480 -0.0299600 0.9990520 0.0299600 0.9990520 0.0299600 0.0009480 -0.0299600
1385737 0.0009098 -0.0293132 0.9990902 0.0293132 0.9990902 0.0293132 0.0009098 -0.0293132
1416205 0.0008732 -0.0286802 0.9991268 0.0286802 0.9991268 0.0286802 0.0008732 -0.0286802
1447343 0.0008382 -0.0280606 0.9991618 0.0280606 0.9991618 0.0280606 0.0008382 -0.0280606
1479166 0.0008046 -0.0274543 0.9991954 0.0274543 0.9991954 0.0274543 0.0008046 -0.0274543
1511688 0.0007726 -0.0268609 0.9992274 0.0268609 0.9992274 0.0268609 0.0007726 -0.0268609
1544926 0.0007419 -0.0262801 0.9992581 0.0262801 0.9992581 0.0262801 0.0007419 -0.0262801
1578894 0.0007125 -0.0257117 0.9992875 0.0257117 0.9992875 0.0257117 0.0007125 -0.0257117
1613609 0.0006844 -0.0251554 0.9993156 0.0251554 0.9993156 0.0251554 0.0006844 -0.0251554
1649087 0.0006575 -0.0246109 0.9993425 0.0246109 0.9993425 0.0246109 0.0006575 -0.0246109
1685346 0.0006317 -0.0240781 0.9993683 0.0240781 0.9993683 0.0240781 0.0006317 -0.0240781
1722402 0.0006071 -0.0235565 0.9993929 0.0235565 0.9993929 0.0235565 0.0006071 -0.0235565
1760272 0.0005835 -0.0230461 0.9994165 0.0230461 0.9994165 0.0230461 0.0005835 -0.0230461
1798975 0.0005609 -0.0225466 0.9994391 0.0225466 0.9994391 0.0225466 0.0005609 -0.0225466
1838529 0.0005393 -0.0220576 0.9994607 0.0220576 0.9994607 0.0220576 0.0005393 -0.0220576
1878953 0.0005187 -0.0215791 0.9994813 0.0215791 0.9994813 0.0215791 0.0005187 -0.0215791
1920266 0.0004989 -0.0211108 0.9995011 0.0211108 0.9995011 0.0211108 0.0004989 -0.0211108
1962487 0.0004800 -0.0206524 0.9995200 0.0206524 0.9995200 0.0206524 0.0004800 -0.0206524
2005636 0.0004619 -0.0202037 0.9995381 0.0202037 0.9995381 0.0202037 0.0004619 -0.0202037
2049734 0.0004446 -0.0197646 0.9995554 0.0197646 0.9995554 0.0197646 0.0004446 -0.0197646
2094801 0.0004280 -0.0193349 0.9995720 0.0193349 0.9995720 0.0193349 0.0004280 -0.0193349
2140860 0.0004122 -0.0189142 0.9995878 0.0189142 0.9995878 0.0189142 0.0004122 -0.0189142
2187931 0.0003970 -0.0185025 0.9996030 0.0185025 0.9996030 0.0185025 0.0003970 -0.0185025
2236037 0.0003826 -0.0180995 0.9996174 0.0180995 0.9996174 0.0180995 0.0003826 -0.0180995
2285201 0.0003687 -0.0177051 0.9996313 0.0177051 0.9996313 0.0177051 0.0003687 -0.0177051
2335446 0.0003554 -0.0173190 0.9996446 0.0173190 0.9996446 0.0173190 0.0003554 -0.0173190
2386795 0.0003428 -0.0169411 0.9996572 0.0169411 0.9996572 0.0169411 0.0003428 -0.0169411
2439274 0.0003306 -0.0165713 0.9996694 0.0165713 0.9996694 0.0165713 0.0003306 -0.0165713
2492906 0.0003190 -0.0162092 0.9996810 0.0162092 0.9996810 0.0162092 0.0003190 -0.0162092
2547717 0.0003080 -0.0158548 0.9996920 0.0158548 0.9996920 0.0158548 0.0003080 -0.0158548
2603734 0.0002974 -0.0155079 0.9997026 0.0155079 0.9997026 0.0155079 0.0002974 -0.0155079
2660982 0.0002872 -0.0151684 0.9997128 0.0151684 0.9997128 0.0151684 0.0002872 -0.0151684
2719490 0.0002775 -0.0148360 0.9997225 0.0148360 0.9997225 0.0148360 0.0002775 -0.0148360
2779283 0.0002683 -0.0145106 0.9997317 0.0145106 0.9997317 0.0145106 0.0002683 -0.0145106
2840391 0.0002594 -0.0141921 0.9997406 0.0141921 0.9997406 0.0141921 0.0002594 -0.0141921
2902843 0.0002510 -0.0138803 0.9997490 0.0138803 0.9997490 0.0138803 0.0002510 -0.0138803
2966668 0.0002429 -0.0135751 0.9997571 0.0135751 0.9997571 0.0135751 0.0002429 -0.0135751
3031896 0.0002351 -0.0132763 0.9997649 0.0132763 0.9997649 0.0132763 0.0002351 -0.0132763
3098558 0.0002278 -0.0129837 0.9997722 0.0129837 0.9997722 0.0129837 0.0002278 -0.0129837
3166686 0.0002207 -0.0126973 0.9997793 0.0126973 0.9997793 0.0126973 0.0002207 -0.0126973
3236312 0.0002140 -0.0124170 0.9997860 0.0124170 0.9997860 0.0124170 0.0002140 -0.0124170
3307469 0.0002075 -0.0121425 0.9997925 0.0121425 0.9997925 0.0121425 0.0002075 -0.0121425
3380190 0.0002014 -0.0118737 0.9997986 0.0118737 0.9997986 0.0118737 0.0002014 -0.0118737
3454511 0.0001955 -0.0116106 0.9998045 0.0116106 0.9998045 0.0116106 0.0001955 -0.0116106
3530465 0.0001899 -0.0113529 0.9998101 0.0113529 0.9998101 0.0113529 0.0001899 -0.0113529
3608090 0.0001845 -0.0111007 0.9998155 0.0111007 0.9998155 0.0111007 0.0001845 -0.0111007
3687421 0.0001794 -0.0108536 0.9998206 0.0108536 0.9998206 0.0108536 0.0001794 -0.0108536
3768496 0.0001746 -0.0106118 0.9998254 0.0106118 0.9998254 0.0106118 0.0001746 -0.0106118
3851354 0.0001699 -0.0103749 0.9998301 0.0103749 0.9998301 0.0103749 0.0001699 -0.0103749
3936034 0.0001655 -0.0101430 0.9998345 0.0101430 0.9998345 0.0101430 0.0001655 -0.0101430
4022575 0.0001612 -0.0099159 0.9998388 0.0099159 0.9998388 0.0099159 0.0001612 -0.0099159
4111020 0.0001572 -0.0096934 0.9998428 0.0096934 0.9998428 0.0096934 0.0001572 -0.0096934
4201409 0.0001533 -0.0094756 0.9998467 0.0094756 0.9998467 0.0094756 0.0001533 -0.0094756
4293785 0.0001497 -0.0092622 0.9998503 0.0092622 0.9998503 0.0092622 0.0001497 -0.0092622
4388193 0.0001462 -0.0090532 0.9998538 0.0090532 0.9998538 0.0090532 0.0001462 -0.0090532
4484676 0.0001429 -0.0088486 0.9998571 0.0088486 0.9998571 0.0088486 0.0001429 -0.0088486
4583281 0.0001397 -0.0086481 0.9998603 0.0086481 0.9998603 0.0086481 0.0001397 -0.0086481
4684054 0.0001367 -0.0084517 0.9998633 0.0084517 0.9998633 0.0084517 0.0001367 -0.0084517
4787042 0.0001338 -0.0082593 0.9998662 0.0082593 0.9998662 0.0082593 0.0001338 -0.0082593
4892295 0.0001311 -0.0080708 0.9998689 0.0080708 0.9998689 0.0080708 0.0001311 -0.0080708
4999862 0.0001285 -0.0078861 0.9998715 0.0078861 0.9998715 0.0078861 0.0001285 -0.0078861
5109794 0.0001260 -0.0077052 0.9998740 0.0077052 0.9998740 0.0077052 0.0001260 -0.0077052
5222143 0.0001237 -0.0075280 0.9998763 0.0075280 0.9998763 0.0075280 0.0001237 -0.0075280
5336962 0.0001215 -0.0073543 0.9998785 0.0073543 0.9998785 0.0073543 0.0001215 -0.0073543
5454306 0.0001194 -0.0071841 0.9998806 0.0071841 0.9998806 0.0071841 0.0001194 -0.0071841
5574230 0.0001174 -0.0070172 0.9998826 0.0070172 0.9998826 0.0070172 0.0001174 -0.0070172
5696791 0.0001155 -0.0068538 0.9998845 0.0068538 0.9998845 0.0068538 0.0001155 -0.0068538
5822046 0.0001137 -0.0066935 0.9998863 0.0066935 0.9998863 0.0066935 0.0001137 -0.0066935
5950055 0.0001120 -0.0065365 0.9998880 0.0065365 0.9998880 0.0065365 0.0001120 -0.0065365
6080879 0.0001105 -0.0063825 0.9998895 0.0063825 0.9998895 0.0063825 0.0001105 -0.0063825
6214580 0.0001090 -0.0062316 0.9998910 0.0062316 0.9998910 0.0062316 0.0001090 -0.0062316
6351220 0.0001076 -0.0060836 0.9998924 0.0060836 0.9998924 0.0060836 0.0001076 -0.0060836
6490864 0.0001062 -0.0059385 0.9998938 0.0059385 0.9998938 0.0059385 0.0001062 -0.0059385
6633579 0.0001050 -0.0057963 0.9998950 0.0057963 0.9998950 0.0057963 0.0001050 -0.0057963
6779431 0.0001038 -0.0056568 0.9998962 0.0056568 0.9998962 0.0056568 0.0001038 -0.0056568
6928491 0.0001028 -0.0055199 0.9998972 0.0055199 0.9998972 0.0055199 0.0001028 -0.0055199
7080828 0.0001018 -0.0053857 0.9998982 0.0053857 0.9998982 0.0053857 0.0001018 -0.0053857
7236514 0.0001008 -0.0052541 0.9998992 0.0052541 0.9998992 0.0052541 0.0001008 -0.0052541
7395623 0.0001000 -0.0051249 0.9999000 0.0051249 0.9999000 0.0051249 0.0001000 -0.0051249
7558231 0.0000992 -0.0049982 0.9999008 0.0049982 0.9999008 0.0049982 0.0000992 -0.0049982
7724414 0.0000984 -0.0048738 0.9999016 0.0048738 0.9999016 0.0048738 0.0000984 -0.0048738
7894251 0.0000977 -0.0047518 0.9999023 0.0047518 0.9999023 0.0047518 0.0000977 -0.0047518
8067822 0.0000971 -0.0046320 0.9999029 0.0046320 0.9999029 0.0046320 0.0000971 -0.0046320
8245209 0.0000966 -0.0045144 0.9999034 0.0045144 0.9999034 0.0045144 0.0000966 -0.0045144
8426497 0.0000961 -0.0043989 0.9999039 0.0043989 0.9999039 0.0043989 0.0000961 -0.0043989
8611770 0.0000956 -0.0042856 0.9999044 0.0042856 0.9999044 0.0042856 0.0000956 -0.0042856
8801117 0.0000952 -0.0041743 0.9999048 0.0041743 0.9999048 0.0041743 0.0000952 -0.0041743
8994628 0.0000949 -0.0040649 0.9999051 0.0040649 0.9999051 0.0040649 0.0000949 -0.0040649
9192393 0.0000946 -0.0039575 0.9999054 0.0039575 0.9999054 0.0039575 0.0000946 -0.0039575
9394506 0.0000944 -0.0038520 0.9999056 0.0038520 0.9999056 0.0038520 0.0000944 -0.0038520
9601063 0.0000942 -0.0037483 0.9999058 0.0037483 0.9999058 0.0037483 0.0000942 -0.0037483
9812162 0.0000940 -0.0036464 0.9999060 0.0036464 0.9999060 0.0036464 0.0000940 -0.0036464
10027902 0.0000940 -0.0035462 0.9999060 0.0035462 0.9999060 0.0035462 0.0000940 -0.0035462
10248386 0.0000939 -0.0034477 0.9999061 0.0034477 0.9999061 0.0034477 0.0000939 -0.0034477
10473717 0.0000939 -0.0033509 0.9999061 0.0033509 0.9999061 0.0033509 0.0000939 -0.0033509
10704003 0.0000939 -0.0032556 0.9999061 0.0032556 0.9999061 0.0032556 0.0000939 -0.0032556
10939352 0.0000940 -0.0031619 0.9999060 0.0031619 0.9999060 0.0031619 0.0000940 -0.0031619
11179876 0.0000941 -0.0030697 0.9999059 0.0030697 0.9999059 0.0030697 0.0000941 -0.0030697
11425688 0.0000943 -0.0029789 0.9999057 0.0029789 0.9999057 0.0029789 0.0000943 -0.0029789
11676904 0.0000945 -0.0028896 0.9999055 0.0028896 0.9999055 0.0028896 0.0000945 -0.0028896
11933645 0.0000948 -0.0028016 0.9999052 0.0028016 0.9999052 0.0028016 0.0000948 -0.0028016
12196030 0.0000951 -0.0027150 0.9999049 0.0027150 0.9999049 0.0027150 0.0000951 -0.0027150
12464184 0.0000954 -0.0026296 0.9999046 0.0026296 0.9999046 0.0026296 0.0000954 -0.0026296
12738235 0.0000958 -0.0025455 0.9999042 0.0025455 0.9999042 0.0025455 0.0000958 -0.0025455
13018310 0.0000962 -0.0024626 0.9999038 0.0024626 0.9999038 0.0024626 0.0000962 -0.0024626
13304544 0.0000966 -0.0023808 0.9999034 0.0023808 0.9999034 0.0023808 0.0000966 -0.0023808
13597071 0.0000971 -0.0023002 0.9999029 0.0023002 0.9999029 0.0023002 0.0000971 -0.0023002
13896030 0.0000977 -0.0022207 0.9999023 0.0022207 0.9999023 0.0022207 0.0000977 -0.0022207
14201563 0.0000982 -0.0021422 0.9999018 0.0021422 0.9999018 0.0021422 0.0000982 -0.0021422
14513813 0.0000989 -0.0020648 0.9999011 0.0020648 0.9999011 0.0020648 0.0000989 -0.0020648
14832928 0.0000995 -0.0019883 0.9999005 0.0019883 0.9999005 0.0019883 0.0000995 -0.0019883
15159060 0.0001002 -0.0019127 0.9998998 0.0019127 0.9998998 0.0019127 0.0001002 -0.0019127
15492362 0.0001010 -0.0018380 0.9998990 0.0018380 0.9998990 0.0018380 0.0001010 -0.0018380
15832993 0.0001018 -0.0017642 0.9998982 0.0017642 0.9998982 0.0017642 0.0001018 -0.0017642
16181113 0.0001026 -0.0016912 0.9998974 0.0016912 0.9998974 0.0016912 0.0001026 -0.0016912
16536888 0.0001035 -0.0016190 0.9998965 0.0016190 0.9998965 0.0016190 0.0001035 -0.0016190
16900485 0.0001045 -0.0015476 0.9998955 0.0015476 0.9998955 0.0015476 0.0001045 -0.0015476
17272076 0.0001055 -0.0014768 0.9998945 0.0014768 0.9998945 0.0014768 0.0001055 -0.0014768
17651837 0.0001065 -0.0014068 0.9998935 0.0014068 0.9998935 0.0014068 0.0001065 -0.0014068
18039948 0.0001076 -0.0013373 0.9998924 0.0013373 0.9998924 0.0013373 0.0001076 -0.0013373
18436593 0.0001088 -0.0012685 0.9998912 0.0012685 0.9998912 0.0012685 0.0001088 -0.0012685
18841959 0.0001100 -0.0012003 0.9998900 0.0012003 0.9998900 0.0012003 0.0001100 -0.0012003
19256237 0.0001113 -0.0011326 0.9998887 0.0011326 0.9998887 0.0011326 0.0001113 -0.0011326
19679624 0.0001126 -0.0010654 0.9998874 0.0010654 0.9998874 0.0010654 0.0001126 -0.0010654
20112321 0.0001141 -0.0009986 0.9998859 0.0009986 0.9998859 0.0009986 0.0001141 -0.0009986
20554530 0.0001155 -0.0009323 0.9998845 0.0009323 0.9998845 0.0009323 0.0001155 -0.0009323
21006463 0.0001171 -0.0008664 0.9998829 0.0008664 0.9998829 0.0008664 0.0001171 -0.0008664
21468333 0.0001187 -0.0008008 0.9998813 0.0008008 0.9998813 0.0008008 0.0001187 -0.0008008
21940357 0.0001205 -0.0007356 0.9998795 0.0007356 0.9998795 0.0007356 0.0001205 -0.0007356
22422760 0.0001223 -0.0006706 0.9998777 0.0006706 0.9998777 0.0006706 0.0001223 -0.0006706
22915770 0.0001242 -0.0006059 0.9998758 0.0006059 0.9998758 0.0006059 0.0001242 -0.0006059
23419619 0.0001261 -0.0005414 0.9998739 0.0005414 0.9998739 0.0005414 0.0001261 -0.0005414
23934547 0.0001282 -0.0004771 0.9998718 0.0004771 0.9998718 0.0004771 0.0001282 -0.0004771
24460796 0.0001304 -0.0004129 0.9998696 0.0004129 0.9998696 0.0004129 0.0001304 -0.0004129
24998616 0.0001327 -0.0003487 0.9998673 0.0003487 0.9998673 0.0003487 0.0001327 -0.0003487
25548261 0.0001352 -0.0002847 0.9998648 0.0002847 0.9998648 0.0002847 0.0001352 -0.0002847
26109991 0.0001377 -0.0002206 0.9998623 0.0002206 0.9998623 0.0002206 0.0001377 -0.0002206
26684072 0.0001404 -0.0001565 0.9998596 0.0001565 0.9998596 0.0001565 0.0001404 -0.0001565
27270775 0.0001432 -0.0000923 0.9998568 0.0000923 0.9998568 0.0000923 0.0001432 -0.0000923
27870378 0.0001462 -0.0000280 0.9998538 0.0000280 0.9998538 0.0000280 0.0001462 -0.0000280
28483164 0.0001494 0.0000365 0.9998506 -0.0000365 0.9998506 -0.0000365 0.0001494 0.0000365
29109424 0.0001527 0.0001013 0.9998473 -0.0001013 0.9998473 -0.0001013 0.0001527 0.0001013
29749453 0.0001562 0.0001663 0.9998438 -0.0001663 0.9998438 -0.0001663 0.0001562 0.0001663
30403555 0.0001600 0.0002317 0.9998400 -0.0002317 0.9998400 -0.0002317 0.0001600 0.0002317
31072038 0.0001640 0.0002974 0.9998360 -0.0002974 0.9998360 -0.0002974 0.0001640 0.0002974
31755220 0.0001682 0.0003637 0.9998318 -0.0003637 0.9998318 -0.0003637 0.0001682 0.0003637
32453422 0.0001727 0.0004305 0.9998273 -0.0004305 0.9998273 -0.0004305 0.0001727 0.0004305
33166976 0.0001775 0.0004979 0.9998225 -0.0004979 0.9998225 -0.0004979 0.0001775 0.0004979
33896219 0.0001826 0.0005660 0.9998174 -0.0005660 0.9998174 -0.0005660 0.0001826 0.0005660
34641496 0.0001881 0.0006349 0.9998119 -0.0006349 0.9998119 -0.0006349 0.0001881 0.0006349
35403159 0.0001940 0.0007047 0.9998060 -0.0007047 0.9998060 -0.0007047 0.0001940 0.0007047
36181569 0.0002004 0.0007755 0.9997996 -0.0007755 0.9997996 -0.0007755 0.0002004 0.0007755
36977093 0.0002073 0.0008474 0.9997927 -0.0008474 0.9997927 -0.0008474 0.0002073 0.0008474
37790109 0.0002149 0.0009206 0.9997851 -0.0009206 0.9997851 -0.0009206 0.0002149 0.0009206
38621001 0.0002232 0.0009953 0.9997768 -0.0009953 0.9997768 -0.0009953 0.0002232 0.0009953
39470161 0.0002323 0.0010716 0.9997677 -0.0010716 0.9997677 -0.0010716 0.0002323 0.0010716
40337993 0.0002423 0.0011498 0.9997577 -0.0011498 0.9997577 -0.0011498 0.0002423 0.0011498
41224905 0.0002536 0.0012301 0.9997464 -0.0012301 0.9997464 -0.0012301 0.0002536 0.0012301
42131317 0.0002663 0.0013128 0.9997337 -0.0013128 0.9997337 -0.0013128 0.0002663 0.0013128
43057659 0.0002807 0.0013982 0.9997193 -0.0013982 0.9997193 -0.0013982 0.0002807 0.0013982
44004369 0.0002974 0.0014869 0.9997026 -0.0014869 0.9997026 -0.0014869 0.0002974 0.0014869
44971893 0.0003168 0.0015793 0.9996832 -0.0015793 0.9996832 -0.0015793 0.0003168 0.0015793
45960691 0.0003399 0.0016760 0.9996601 -0.0016760 0.9996601 -0.0016760 0.0003399 0.0016760
46971230 0.0003677 0.0017778 0.9996323 -0.0017778 0.9996323 -0.0017778 0.0003677 0.0017778
48003987 0.0004019 0.0018855 0.9995981 -0.0018855 0.9995981 -0.0018855 0.0004019 0.0018855
49059451 0.0004450 0.0020001 0.9995550 -0.0020001 0.9995550 -0.0020001 0.0004450 0.0020001
50138122 0.0005007 0.0021224 0.9994993 -0.0021224 0.9994993 -0.0021224 0.0005007 0.0021224
51240510 0.0005748 0.0022528 0.9994252 -0.0022528 0.9994252 -0.0022528 0.0005748 0.0022528
52367136 0.0006760 0.0023901 0.9993240 -0.0023901 0.9993240 -0.0023901 0.0006760 0.0023901
53518533 0.0008180 0.0025291 0.9991820 -0.0025291 0.9991820 -0.0025291 0.0008180 0.0025291
54695245 0.0010198 0.0026535 0.9989802 -0.0026535 0.9989802 -0.0026535 0.0010198 0.0026535
55897831 0.0013002 0.0027227 0.9986998 -0.0027227 0.9986998 -0.0027227 0.0013002 0.0027227
57126857 0.0016469 0.0026568 0.9983531 -0.0026568 0.9983531 -0.0026568 0.0016469 0.0026568
58382906 0.0019474 0.0023714 0.9980526 -0.0023714 0.9980526 -0.0023714 0.0019474 0.0023714
59666572 0.0020002 0.0019347 0.9979998 -0.0019347 0.9979998 -0.0019347 0.0020002 0.0019347
60978462 0.0017689 0.0015980 0.9982311 -0.0015980 0.9982311 -0.0015980 0.0017689 0.0015980
62319196 0.0014427 0.0014904 0.9985573 -0.0014904 0.9985573 -0.0014904 0.0014427 0.0014904
63689409 0.0011680 0.0015478 0.9988320 -0.0015478 0.9988320 -0.0015478 0.0011680 0.0015478
65089750 0.0009757 0.0016811 0.9990243 -0.0016811 0.9990243 -0.0016811 0.0009757 0.0016811
66520879 0.0008507 0.0018407 0.9991493 -0.0018407 0.9991493 -0.0018407 0.0008507 0.0018407
67983474 0.0007733 0.0020061 0.9992267 -0.0020061 0.9992267 -0.0020061 0.0007733 0.0020061
69478228 0.0007290 0.0021704 0.9992710 -0.0021704 0.9992710 -0.0021704 0.0007290 0.0021704
71005847 0.0007089 0.0023324 0.9992911 -0.0023324 0.9992911 -0.0023324 0.0007089 0.0023324
72567054 0.0007079 0.0024927 0.9992921 -0.0024927 0.9992921 -0.0024927 0.0007079 0.0024927
74162587 0.0007237 0.0026528 0.9992763 -0.0026528 0.9992763 -0.0026528 0.0007237 0.0026528
75793201 0.0007563 0.0028144 0.9992437 -0.0028144 0.9992437 -0.0028144 0.0007563 0.0028144
77459667 0.0008076 0.0029788 0.9991924 -0.0029788 0.9991924 -0.0029788 0.0008076 0.0029788
79162774 0.0008819 0.0031464 0.9991181 -0.0031464 0.9991181 -0.0031464 0.0008819 0.0031464
80903327 0.0009863 0.0033163 0.9990137 -0.0033163 0.9990137 -0.0033163 0.0009863 0.0033163
82682150 0.0011320 0.0034836 0.9988680 -0.0034836 0.9988680 -0.0034836 0.0011320 0.0034836
84500083 0.0013337 0.0036349 0.9986663 -0.0036349 0.9986663 -0.0036349 0.0013337 0.0036349
86357988 0.0016068 0.0037404 0.9983932 -0.0037404 0.9983932 -0.0037404 0.0016068 0.0037404
88256743 0.0019508 0.0037430 0.9980492 -0.0037430 0.9980492 -0.0037430 0.0019508 0.0037430
90197245 0.0023097 0.0035655 0.9976903 -0.0035655 0.9976903 -0.0035655 0.0023097 0.0035655
92180413 0.0025384 0.0031837 0.9974616 -0.0031837 0.9974616 -0.0031837 0.0025384 0.0031837
94207185 0.0024939 0.0027316 0.9975061 -0.0027316 0.9975061 -0.0027316 0.0024939 0.0027316
96278520 0.0022132 0.0024171 0.9977868 -0.0024171 0.9977868 -0.0024171 0.0022132 0.0024171
98395398 0.0018622 0.0023133 0.9981378 -0.0023133 0.9981378 -0.0023133 0.0018622 0.0023133
100558819 0.0015560 0.0023631 0.9984440 -0.0023631 0.9984440 -0.0023631 0.0015560 0.0023631
102769807 0.0013247 0.0024919 0.9986753 -0.0024919 0.9986753 -0.0024919 0.0013247 0.0024919
105029408 0.0011594 0.0026524 0.9988406 -0.0026524 0.9988406 -0.0026524 0.0011594 0.0026524
107338692 0.0010433 0.0028217 0.9989567 -0.0028217 0.9989567 -0.0028217 0.0010433 0.0028217
