!Murata Part Number: GRM31M5C2A563JA01
!These Parameters are Measured in Series Mode Connection
!Data Generated on Mar 30, 2021
!       o--ll--o
!Port1            Port2
!       o------o
!Operation Temp=25[degC], DC Bias Voltage=0[V]
!Freq. Start=1000[kHz] Stop=6[GHz] 401[Steps]
# Hz S RI R 50
!Freq.(Hz) S11(Real) S11(Imag) S21(Real) S21(Imag) S12(Real) S12(Imag) S22(Real) S22(Imag)
1000000 0.0008274 -0.0281191 0.9991726 0.0281191 0.9991726 0.0281191 0.0008274 -0.0281191
1021987 0.0007937 -0.0275127 0.9992063 0.0275127 0.9992063 0.0275127 0.0007937 -0.0275127
1044457 0.0007615 -0.0269192 0.9992385 0.0269192 0.9992385 0.0269192 0.0007615 -0.0269192
1067422 0.0007307 -0.0263384 0.9992693 0.0263384 0.9992693 0.0263384 0.0007307 -0.0263384
1090891 0.0007012 -0.0257699 0.9992988 0.0257699 0.9992988 0.0257699 0.0007012 -0.0257699
1114877 0.0006729 -0.0252136 0.9993271 0.0252136 0.9993271 0.0252136 0.0006729 -0.0252136
1139390 0.0006459 -0.0246692 0.9993541 0.0246692 0.9993541 0.0246692 0.0006459 -0.0246692
1164441 0.0006200 -0.0241364 0.9993800 0.0241364 0.9993800 0.0241364 0.0006200 -0.0241364
1190044 0.0005952 -0.0236149 0.9994048 0.0236149 0.9994048 0.0236149 0.0005952 -0.0236149
1216210 0.0005715 -0.0231046 0.9994285 0.0231046 0.9994285 0.0231046 0.0005715 -0.0231046
1242950 0.0005488 -0.0226052 0.9994512 0.0226052 0.9994512 0.0226052 0.0005488 -0.0226052
1270279 0.0005270 -0.0221164 0.9994730 0.0221164 0.9994730 0.0221164 0.0005270 -0.0221164
1298209 0.0005062 -0.0216380 0.9994938 0.0216380 0.9994938 0.0216380 0.0005062 -0.0216380
1326753 0.0004863 -0.0211699 0.9995137 0.0211699 0.9995137 0.0211699 0.0004863 -0.0211699
1355924 0.0004673 -0.0207117 0.9995327 0.0207117 0.9995327 0.0207117 0.0004673 -0.0207117
1385737 0.0004491 -0.0202633 0.9995509 0.0202633 0.9995509 0.0202633 0.0004491 -0.0202633
1416205 0.0004316 -0.0198244 0.9995684 0.0198244 0.9995684 0.0198244 0.0004316 -0.0198244
1447343 0.0004149 -0.0193949 0.9995851 0.0193949 0.9995851 0.0193949 0.0004149 -0.0193949
1479166 0.0003989 -0.0189746 0.9996011 0.0189746 0.9996011 0.0189746 0.0003989 -0.0189746
1511688 0.0003837 -0.0185632 0.9996163 0.0185632 0.9996163 0.0185632 0.0003837 -0.0185632
1544926 0.0003690 -0.0181606 0.9996310 0.0181606 0.9996310 0.0181606 0.0003690 -0.0181606
1578894 0.0003550 -0.0177665 0.9996450 0.0177665 0.9996450 0.0177665 0.0003550 -0.0177665
1613609 0.0003417 -0.0173808 0.9996583 0.0173808 0.9996583 0.0173808 0.0003417 -0.0173808
1649087 0.0003289 -0.0170034 0.9996711 0.0170034 0.9996711 0.0170034 0.0003289 -0.0170034
1685346 0.0003166 -0.0166339 0.9996834 0.0166339 0.9996834 0.0166339 0.0003166 -0.0166339
1722402 0.0003049 -0.0162723 0.9996951 0.0162723 0.9996951 0.0162723 0.0003049 -0.0162723
1760272 0.0002937 -0.0159185 0.9997063 0.0159185 0.9997063 0.0159185 0.0002937 -0.0159185
1798975 0.0002830 -0.0155721 0.9997170 0.0155721 0.9997170 0.0155721 0.0002830 -0.0155721
1838529 0.0002727 -0.0152331 0.9997273 0.0152331 0.9997273 0.0152331 0.0002727 -0.0152331
1878953 0.0002629 -0.0149012 0.9997371 0.0149012 0.9997371 0.0149012 0.0002629 -0.0149012
1920266 0.0002535 -0.0145765 0.9997465 0.0145765 0.9997465 0.0145765 0.0002535 -0.0145765
1962487 0.0002446 -0.0142586 0.9997554 0.0142586 0.9997554 0.0142586 0.0002446 -0.0142586
2005636 0.0002360 -0.0139474 0.9997640 0.0139474 0.9997640 0.0139474 0.0002360 -0.0139474
2049734 0.0002278 -0.0136429 0.9997722 0.0136429 0.9997722 0.0136429 0.0002278 -0.0136429
2094801 0.0002200 -0.0133448 0.9997800 0.0133448 0.9997800 0.0133448 0.0002200 -0.0133448
2140860 0.0002125 -0.0130530 0.9997875 0.0130530 0.9997875 0.0130530 0.0002125 -0.0130530
2187931 0.0002054 -0.0127674 0.9997946 0.0127674 0.9997946 0.0127674 0.0002054 -0.0127674
2236037 0.0001986 -0.0124878 0.9998014 0.0124878 0.9998014 0.0124878 0.0001986 -0.0124878
2285201 0.0001920 -0.0122141 0.9998080 0.0122141 0.9998080 0.0122141 0.0001920 -0.0122141
2335446 0.0001858 -0.0119462 0.9998142 0.0119462 0.9998142 0.0119462 0.0001858 -0.0119462
2386795 0.0001799 -0.0116840 0.9998201 0.0116840 0.9998201 0.0116840 0.0001799 -0.0116840
2439274 0.0001742 -0.0114273 0.9998258 0.0114273 0.9998258 0.0114273 0.0001742 -0.0114273
2492906 0.0001687 -0.0111760 0.9998313 0.0111760 0.9998313 0.0111760 0.0001687 -0.0111760
2547717 0.0001636 -0.0109300 0.9998364 0.0109300 0.9998364 0.0109300 0.0001636 -0.0109300
2603734 0.0001586 -0.0106891 0.9998414 0.0106891 0.9998414 0.0106891 0.0001586 -0.0106891
2660982 0.0001539 -0.0104534 0.9998461 0.0104534 0.9998461 0.0104534 0.0001539 -0.0104534
2719490 0.0001494 -0.0102225 0.9998506 0.0102225 0.9998506 0.0102225 0.0001494 -0.0102225
2779283 0.0001451 -0.0099965 0.9998549 0.0099965 0.9998549 0.0099965 0.0001451 -0.0099965
2840391 0.0001410 -0.0097753 0.9998590 0.0097753 0.9998590 0.0097753 0.0001410 -0.0097753
2902843 0.0001371 -0.0095587 0.9998629 0.0095587 0.9998629 0.0095587 0.0001371 -0.0095587
2966668 0.0001334 -0.0093466 0.9998666 0.0093466 0.9998666 0.0093466 0.0001334 -0.0093466
3031896 0.0001298 -0.0091389 0.9998702 0.0091389 0.9998702 0.0091389 0.0001298 -0.0091389
3098558 0.0001265 -0.0089356 0.9998735 0.0089356 0.9998735 0.0089356 0.0001265 -0.0089356
3166686 0.0001232 -0.0087365 0.9998768 0.0087365 0.9998768 0.0087365 0.0001232 -0.0087365
3236312 0.0001202 -0.0085415 0.9998798 0.0085415 0.9998798 0.0085415 0.0001202 -0.0085415
3307469 0.0001172 -0.0083506 0.9998828 0.0083506 0.9998828 0.0083506 0.0001172 -0.0083506
3380190 0.0001145 -0.0081637 0.9998855 0.0081637 0.9998855 0.0081637 0.0001145 -0.0081637
3454511 0.0001118 -0.0079806 0.9998882 0.0079806 0.9998882 0.0079806 0.0001118 -0.0079806
3530465 0.0001093 -0.0078013 0.9998907 0.0078013 0.9998907 0.0078013 0.0001093 -0.0078013
3608090 0.0001069 -0.0076257 0.9998931 0.0076257 0.9998931 0.0076257 0.0001069 -0.0076257
3687421 0.0001046 -0.0074537 0.9998954 0.0074537 0.9998954 0.0074537 0.0001046 -0.0074537
3768496 0.0001024 -0.0072852 0.9998976 0.0072852 0.9998976 0.0072852 0.0001024 -0.0072852
3851354 0.0001004 -0.0071202 0.9998996 0.0071202 0.9998996 0.0071202 0.0001004 -0.0071202
3936034 0.0000984 -0.0069586 0.9999016 0.0069586 0.9999016 0.0069586 0.0000984 -0.0069586
4022575 0.0000966 -0.0068003 0.9999034 0.0068003 0.9999034 0.0068003 0.0000966 -0.0068003
4111020 0.0000948 -0.0066452 0.9999052 0.0066452 0.9999052 0.0066452 0.0000948 -0.0066452
4201409 0.0000932 -0.0064933 0.9999068 0.0064933 0.9999068 0.0064933 0.0000932 -0.0064933
4293785 0.0000916 -0.0063444 0.9999084 0.0063444 0.9999084 0.0063444 0.0000916 -0.0063444
4388193 0.0000901 -0.0061986 0.9999099 0.0061986 0.9999099 0.0061986 0.0000901 -0.0061986
4484676 0.0000887 -0.0060556 0.9999113 0.0060556 0.9999113 0.0060556 0.0000887 -0.0060556
4583281 0.0000873 -0.0059156 0.9999127 0.0059156 0.9999127 0.0059156 0.0000873 -0.0059156
4684054 0.0000860 -0.0057784 0.9999140 0.0057784 0.9999140 0.0057784 0.0000860 -0.0057784
4787042 0.0000849 -0.0056439 0.9999151 0.0056439 0.9999151 0.0056439 0.0000849 -0.0056439
4892295 0.0000837 -0.0055121 0.9999163 0.0055121 0.9999163 0.0055121 0.0000837 -0.0055121
4999862 0.0000827 -0.0053829 0.9999173 0.0053829 0.9999173 0.0053829 0.0000827 -0.0053829
5109794 0.0000817 -0.0052562 0.9999183 0.0052562 0.9999183 0.0052562 0.0000817 -0.0052562
5222143 0.0000807 -0.0051321 0.9999193 0.0051321 0.9999193 0.0051321 0.0000807 -0.0051321
5336962 0.0000798 -0.0050104 0.9999202 0.0050104 0.9999202 0.0050104 0.0000798 -0.0050104
5454306 0.0000790 -0.0048910 0.9999210 0.0048910 0.9999210 0.0048910 0.0000790 -0.0048910
5574230 0.0000782 -0.0047740 0.9999218 0.0047740 0.9999218 0.0047740 0.0000782 -0.0047740
5696791 0.0000775 -0.0046593 0.9999225 0.0046593 0.9999225 0.0046593 0.0000775 -0.0046593
5822046 0.0000768 -0.0045467 0.9999232 0.0045467 0.9999232 0.0045467 0.0000768 -0.0045467
5950055 0.0000762 -0.0044364 0.9999238 0.0044364 0.9999238 0.0044364 0.0000762 -0.0044364
6080879 0.0000756 -0.0043281 0.9999244 0.0043281 0.9999244 0.0043281 0.0000756 -0.0043281
6214580 0.0000751 -0.0042218 0.9999249 0.0042218 0.9999249 0.0042218 0.0000751 -0.0042218
6351220 0.0000746 -0.0041176 0.9999254 0.0041176 0.9999254 0.0041176 0.0000746 -0.0041176
6490864 0.0000741 -0.0040154 0.9999259 0.0040154 0.9999259 0.0040154 0.0000741 -0.0040154
6633579 0.0000737 -0.0039150 0.9999263 0.0039150 0.9999263 0.0039150 0.0000737 -0.0039150
6779431 0.0000734 -0.0038165 0.9999266 0.0038165 0.9999266 0.0038165 0.0000734 -0.0038165
6928491 0.0000730 -0.0037198 0.9999270 0.0037198 0.9999270 0.0037198 0.0000730 -0.0037198
7080828 0.0000727 -0.0036248 0.9999273 0.0036248 0.9999273 0.0036248 0.0000727 -0.0036248
7236514 0.0000725 -0.0035316 0.9999275 0.0035316 0.9999275 0.0035316 0.0000725 -0.0035316
7395623 0.0000722 -0.0034400 0.9999278 0.0034400 0.9999278 0.0034400 0.0000722 -0.0034400
7558231 0.0000721 -0.0033501 0.9999279 0.0033501 0.9999279 0.0033501 0.0000721 -0.0033501
7724414 0.0000719 -0.0032618 0.9999281 0.0032618 0.9999281 0.0032618 0.0000719 -0.0032618
7894251 0.0000718 -0.0031750 0.9999282 0.0031750 0.9999282 0.0031750 0.0000718 -0.0031750
8067822 0.0000717 -0.0030897 0.9999283 0.0030897 0.9999283 0.0030897 0.0000717 -0.0030897
8245209 0.0000716 -0.0030059 0.9999284 0.0030059 0.9999284 0.0030059 0.0000716 -0.0030059
8426497 0.0000716 -0.0029235 0.9999284 0.0029235 0.9999284 0.0029235 0.0000716 -0.0029235
8611770 0.0000716 -0.0028425 0.9999284 0.0028425 0.9999284 0.0028425 0.0000716 -0.0028425
8801117 0.0000717 -0.0027628 0.9999283 0.0027628 0.9999283 0.0027628 0.0000717 -0.0027628
8994628 0.0000718 -0.0026844 0.9999282 0.0026844 0.9999282 0.0026844 0.0000718 -0.0026844
9192393 0.0000719 -0.0026073 0.9999281 0.0026073 0.9999281 0.0026073 0.0000719 -0.0026073
9394506 0.0000720 -0.0025314 0.9999280 0.0025314 0.9999280 0.0025314 0.0000720 -0.0025314
9601063 0.0000722 -0.0024567 0.9999278 0.0024567 0.9999278 0.0024567 0.0000722 -0.0024567
9812162 0.0000724 -0.0023832 0.9999276 0.0023832 0.9999276 0.0023832 0.0000724 -0.0023832
10027902 0.0000726 -0.0023108 0.9999274 0.0023108 0.9999274 0.0023108 0.0000726 -0.0023108
10248386 0.0000729 -0.0022395 0.9999271 0.0022395 0.9999271 0.0022395 0.0000729 -0.0022395
10473717 0.0000732 -0.0021692 0.9999268 0.0021692 0.9999268 0.0021692 0.0000732 -0.0021692
10704003 0.0000736 -0.0021000 0.9999264 0.0021000 0.9999264 0.0021000 0.0000736 -0.0021000
10939352 0.0000740 -0.0020317 0.9999260 0.0020317 0.9999260 0.0020317 0.0000740 -0.0020317
11179876 0.0000744 -0.0019644 0.9999256 0.0019644 0.9999256 0.0019644 0.0000744 -0.0019644
11425688 0.0000748 -0.0018980 0.9999252 0.0018980 0.9999252 0.0018980 0.0000748 -0.0018980
11676904 0.0000753 -0.0018326 0.9999247 0.0018326 0.9999247 0.0018326 0.0000753 -0.0018326
11933645 0.0000758 -0.0017679 0.9999242 0.0017679 0.9999242 0.0017679 0.0000758 -0.0017679
12196030 0.0000764 -0.0017041 0.9999236 0.0017041 0.9999236 0.0017041 0.0000764 -0.0017041
12464184 0.0000770 -0.0016411 0.9999230 0.0016411 0.9999230 0.0016411 0.0000770 -0.0016411
12738235 0.0000777 -0.0015788 0.9999223 0.0015788 0.9999223 0.0015788 0.0000777 -0.0015788
13018310 0.0000784 -0.0015173 0.9999216 0.0015173 0.9999216 0.0015173 0.0000784 -0.0015173
13304544 0.0000791 -0.0014564 0.9999209 0.0014564 0.9999209 0.0014564 0.0000791 -0.0014564
13597071 0.0000799 -0.0013963 0.9999201 0.0013963 0.9999201 0.0013963 0.0000799 -0.0013963
13896030 0.0000807 -0.0013367 0.9999193 0.0013367 0.9999193 0.0013367 0.0000807 -0.0013367
14201563 0.0000816 -0.0012778 0.9999184 0.0012778 0.9999184 0.0012778 0.0000816 -0.0012778
14513813 0.0000826 -0.0012195 0.9999174 0.0012195 0.9999174 0.0012195 0.0000826 -0.0012195
14832928 0.0000835 -0.0011617 0.9999165 0.0011617 0.9999165 0.0011617 0.0000835 -0.0011617
15159060 0.0000846 -0.0011044 0.9999154 0.0011044 0.9999154 0.0011044 0.0000846 -0.0011044
15492362 0.0000857 -0.0010476 0.9999143 0.0010476 0.9999143 0.0010476 0.0000857 -0.0010476
15832993 0.0000869 -0.0009913 0.9999131 0.0009913 0.9999131 0.0009913 0.0000869 -0.0009913
16181113 0.0000881 -0.0009354 0.9999119 0.0009354 0.9999119 0.0009354 0.0000881 -0.0009354
16536888 0.0000894 -0.0008800 0.9999106 0.0008800 0.9999106 0.0008800 0.0000894 -0.0008800
16900485 0.0000908 -0.0008248 0.9999092 0.0008248 0.9999092 0.0008248 0.0000908 -0.0008248
17272076 0.0000922 -0.0007701 0.9999078 0.0007701 0.9999078 0.0007701 0.0000922 -0.0007701
17651837 0.0000937 -0.0007156 0.9999063 0.0007156 0.9999063 0.0007156 0.0000937 -0.0007156
18039948 0.0000953 -0.0006614 0.9999047 0.0006614 0.9999047 0.0006614 0.0000953 -0.0006614
18436593 0.0000970 -0.0006075 0.9999030 0.0006075 0.9999030 0.0006075 0.0000970 -0.0006075
18841959 0.0000987 -0.0005537 0.9999013 0.0005537 0.9999013 0.0005537 0.0000987 -0.0005537
19256237 0.0001006 -0.0005002 0.9998994 0.0005002 0.9998994 0.0005002 0.0001006 -0.0005002
19679624 0.0001025 -0.0004468 0.9998975 0.0004468 0.9998975 0.0004468 0.0001025 -0.0004468
20112321 0.0001046 -0.0003936 0.9998954 0.0003936 0.9998954 0.0003936 0.0001046 -0.0003936
20554530 0.0001068 -0.0003404 0.9998932 0.0003404 0.9998932 0.0003404 0.0001068 -0.0003404
21006463 0.0001090 -0.0002873 0.9998910 0.0002873 0.9998910 0.0002873 0.0001090 -0.0002873
21468333 0.0001114 -0.0002341 0.9998886 0.0002341 0.9998886 0.0002341 0.0001114 -0.0002341
21940357 0.0001140 -0.0001810 0.9998860 0.0001810 0.9998860 0.0001810 0.0001140 -0.0001810
22422760 0.0001166 -0.0001278 0.9998834 0.0001278 0.9998834 0.0001278 0.0001166 -0.0001278
22915770 0.0001194 -0.0000745 0.9998806 0.0000745 0.9998806 0.0000745 0.0001194 -0.0000745
23419619 0.0001224 -0.0000211 0.9998776 0.0000211 0.9998776 0.0000211 0.0001224 -0.0000211
23934547 0.0001255 0.0000326 0.9998745 -0.0000326 0.9998745 -0.0000326 0.0001255 0.0000326
24460796 0.0001288 0.0000864 0.9998712 -0.0000864 0.9998712 -0.0000864 0.0001288 0.0000864
24998616 0.0001323 0.0001406 0.9998677 -0.0001406 0.9998677 -0.0001406 0.0001323 0.0001406
25548261 0.0001360 0.0001951 0.9998640 -0.0001951 0.9998640 -0.0001951 0.0001360 0.0001951
26109991 0.0001399 0.0002500 0.9998601 -0.0002500 0.9998601 -0.0002500 0.0001399 0.0002500
26684072 0.0001441 0.0003054 0.9998559 -0.0003054 0.9998559 -0.0003054 0.0001441 0.0003054
27270775 0.0001485 0.0003613 0.9998515 -0.0003613 0.9998515 -0.0003613 0.0001485 0.0003613
27870378 0.0001532 0.0004178 0.9998468 -0.0004178 0.9998468 -0.0004178 0.0001532 0.0004178
28483164 0.0001582 0.0004750 0.9998418 -0.0004750 0.9998418 -0.0004750 0.0001582 0.0004750
29109424 0.0001636 0.0005330 0.9998364 -0.0005330 0.9998364 -0.0005330 0.0001636 0.0005330
29749453 0.0001694 0.0005919 0.9998306 -0.0005919 0.9998306 -0.0005919 0.0001694 0.0005919
30403555 0.0001756 0.0006518 0.9998244 -0.0006518 0.9998244 -0.0006518 0.0001756 0.0006518
31072038 0.0001823 0.0007129 0.9998177 -0.0007129 0.9998177 -0.0007129 0.0001823 0.0007129
31755220 0.0001896 0.0007753 0.9998104 -0.0007753 0.9998104 -0.0007753 0.0001896 0.0007753
32453422 0.0001975 0.0008393 0.9998025 -0.0008393 0.9998025 -0.0008393 0.0001975 0.0008393
33166976 0.0002063 0.0009051 0.9997937 -0.0009051 0.9997937 -0.0009051 0.0002063 0.0009051
33896219 0.0002160 0.0009730 0.9997840 -0.0009730 0.9997840 -0.0009730 0.0002160 0.0009730
34641496 0.0002269 0.0010432 0.9997731 -0.0010432 0.9997731 -0.0010432 0.0002269 0.0010432
35403159 0.0002393 0.0011164 0.9997607 -0.0011164 0.9997607 -0.0011164 0.0002393 0.0011164
36181569 0.0002535 0.0011931 0.9997465 -0.0011931 0.9997465 -0.0011931 0.0002535 0.0011931
36977093 0.0002701 0.0012740 0.9997299 -0.0012740 0.9997299 -0.0012740 0.0002701 0.0012740
37790109 0.0002901 0.0013601 0.9997099 -0.0013601 0.9997099 -0.0013601 0.0002901 0.0013601
38621001 0.0003148 0.0014527 0.9996852 -0.0014527 0.9996852 -0.0014527 0.0003148 0.0014527
39470161 0.0003463 0.0015536 0.9996537 -0.0015536 0.9996537 -0.0015536 0.0003463 0.0015536
40337993 0.0003883 0.0016652 0.9996117 -0.0016652 0.9996117 -0.0016652 0.0003883 0.0016652
41224905 0.0004475 0.0017904 0.9995525 -0.0017904 0.9995525 -0.0017904 0.0004475 0.0017904
42131317 0.0005361 0.0019322 0.9994639 -0.0019322 0.9994639 -0.0019322 0.0005361 0.0019322
43057659 0.0006785 0.0020898 0.9993215 -0.0020898 0.9993215 -0.0020898 0.0006785 0.0020898
44004369 0.0009222 0.0022425 0.9990778 -0.0022425 0.9990778 -0.0022425 0.0009222 0.0022425
44971893 0.0013323 0.0022883 0.9986677 -0.0022883 0.9986677 -0.0022883 0.0013323 0.0022883
45960691 0.0018101 0.0019577 0.9981899 -0.0019577 0.9981899 -0.0019577 0.0018101 0.0019577
46971230 0.0018039 0.0012977 0.9981961 -0.0012977 0.9981961 -0.0012977 0.0018039 0.0012977
48003987 0.0013499 0.0010051 0.9986501 -0.0010051 0.9986501 -0.0010051 0.0013499 0.0010051
49059451 0.0009859 0.0010746 0.9990141 -0.0010746 0.9990141 -0.0010746 0.0009859 0.0010746
50138122 0.0007874 0.0012436 0.9992126 -0.0012436 0.9992126 -0.0012436 0.0007874 0.0012436
51240510 0.0006885 0.0014188 0.9993115 -0.0014188 0.9993115 -0.0014188 0.0006885 0.0014188
52367136 0.0006443 0.0015822 0.9993557 -0.0015822 0.9993557 -0.0015822 0.0006443 0.0015822
53518533 0.0006323 0.0017341 0.9993677 -0.0017341 0.9993677 -0.0017341 0.0006323 0.0017341
54695245 0.0006421 0.0018776 0.9993579 -0.0018776 0.9993579 -0.0018776 0.0006421 0.0018776
55897831 0.0006689 0.0020162 0.9993311 -0.0020162 0.9993311 -0.0020162 0.0006689 0.0020162
57126857 0.0007116 0.0021521 0.9992884 -0.0021521 0.9992884 -0.0021521 0.0007116 0.0021521
58382906 0.0007711 0.0022870 0.9992289 -0.0022870 0.9992289 -0.0022870 0.0007711 0.0022870
59666572 0.0008506 0.0024213 0.9991494 -0.0024213 0.9991494 -0.0024213 0.0008506 0.0024213
60978462 0.0009549 0.0025536 0.9990451 -0.0025536 0.9990451 -0.0025536 0.0009549 0.0025536
62319196 0.0010910 0.0026793 0.9989090 -0.0026793 0.9989090 -0.0026793 0.0010910 0.0026793
63689409 0.0012673 0.0027884 0.9987327 -0.0027884 0.9987327 -0.0027884 0.0012673 0.0027884
65089750 0.0014911 0.0028615 0.9985089 -0.0028615 0.9985089 -0.0028615 0.0014911 0.0028615
66520879 0.0017599 0.0028661 0.9982401 -0.0028661 0.9982401 -0.0028661 0.0017599 0.0028661
67983474 0.0020455 0.0027604 0.9979545 -0.0027604 0.9979545 -0.0027604 0.0020455 0.0027604
69478228 0.0022778 0.0025197 0.9977222 -0.0025197 0.9977222 -0.0025197 0.0022778 0.0025197
71005847 0.0023659 0.0021838 0.9976341 -0.0021838 0.9976341 -0.0021838 0.0023659 0.0021838
72567054 0.0022723 0.0018617 0.9977277 -0.0018617 0.9977277 -0.0018617 0.0022723 0.0018617
74162587 0.0020537 0.0016515 0.9979463 -0.0016515 0.9979463 -0.0016515 0.0020537 0.0016515
75793201 0.0018019 0.0015744 0.9981981 -0.0015744 0.9981981 -0.0015744 0.0018019 0.0015744
77459667 0.0015773 0.0015975 0.9984227 -0.0015975 0.9984227 -0.0015975 0.0015773 0.0015975
79162774 0.0014002 0.0016795 0.9985998 -0.0016795 0.9985998 -0.0016795 0.0014002 0.0016795
80903327 0.0012694 0.0017903 0.9987306 -0.0017903 0.9987306 -0.0017903 0.0012694 0.0017903
82682150 0.0011767 0.0019127 0.9988233 -0.0019127 0.9988233 -0.0019127 0.0011767 0.0019127
84500083 0.0011135 0.0020375 0.9988865 -0.0020375 0.9988865 -0.0020375 0.0011135 0.0020375
86357988 0.0010727 0.0021601 0.9989273 -0.0021601 0.9989273 -0.0021601 0.0010727 0.0021601
88256743 0.0010489 0.0022786 0.9989511 -0.0022786 0.9989511 -0.0022786 0.0010489 0.0022786
90197245 0.0010380 0.0023923 0.9989620 -0.0023923 0.9989620 -0.0023923 0.0010380 0.0023923
92180413 0.0010373 0.0025007 0.9989627 -0.0025007 0.9989627 -0.0025007 0.0010373 0.0025007
94207185 0.0010445 0.0026040 0.9989555 -0.0026040 0.9989555 -0.0026040 0.0010445 0.0026040
96278520 0.0010580 0.0027022 0.9989420 -0.0027022 0.9989420 -0.0027022 0.0010580 0.0027022
98395398 0.0010763 0.0027954 0.9989237 -0.0027954 0.9989237 -0.0027954 0.0010763 0.0027954
100558819 0.0010984 0.0028837 0.9989016 -0.0028837 0.9989016 -0.0028837 0.0010984 0.0028837
102769807 0.0011230 0.0029671 0.9988770 -0.0029671 0.9988770 -0.0029671 0.0011230 0.0029671
105029408 0.0011493 0.0030457 0.9988507 -0.0030457 0.9988507 -0.0030457 0.0011493 0.0030457
107338692 0.0011763 0.0031198 0.9988237 -0.0031198 0.9988237 -0.0031198 0.0011763 0.0031198
