!Murata Part Number: GRM31A7U3A330JW31
!These Parameters are Measured in Series Mode Connection
!Data Generated on Mar 30, 2021
!       o--ll--o
!Port1            Port2
!       o------o
!Operation Temp=25[degC], DC Bias Voltage=0[V]
!Freq. Start=100[MHz] Stop=3[GHz] 401[Steps]
# Hz S RI R 50
!Freq.(Hz) S11(Real) S11(Imag) S21(Real) S21(Imag) S12(Real) S12(Imag) S22(Real) S22(Imag)
100000000 0.1863559 -0.3875659 0.8136441 0.3875659 0.8136441 0.3875659 0.1863559 -0.3875659
107250000 0.1657710 -0.3699113 0.8342290 0.3699113 0.8342290 0.3699113 0.1657710 -0.3699113
114500000 0.1481837 -0.3531817 0.8518163 0.3531817 0.8518163 0.3531817 0.1481837 -0.3531817
121750000 0.1330747 -0.3374177 0.8669253 0.3374177 0.8669253 0.3374177 0.1330747 -0.3374177
129000000 0.1200241 -0.3226137 0.8799759 0.3226137 0.8799759 0.3226137 0.1200241 -0.3226137
136250000 0.1086917 -0.3087368 0.8913083 0.3087368 0.8913083 0.3087368 0.1086917 -0.3087368
143500000 0.0988011 -0.2957395 0.9011989 0.2957395 0.9011989 0.2957395 0.0988011 -0.2957395
150750000 0.0901269 -0.2835671 0.9098731 0.2835671 0.9098731 0.2835671 0.0901269 -0.2835671
158000000 0.0824842 -0.2721624 0.9175158 0.2721624 0.9175158 0.2721624 0.0824842 -0.2721624
165250000 0.0757208 -0.2614689 0.9242792 0.2614689 0.9242792 0.2614689 0.0757208 -0.2614689
172500000 0.0697105 -0.2514322 0.9302895 0.2514322 0.9302895 0.2514322 0.0697105 -0.2514322
179750000 0.0643486 -0.2420009 0.9356514 0.2420009 0.9356514 0.2420009 0.0643486 -0.2420009
187000000 0.0595473 -0.2331272 0.9404527 0.2331272 0.9404527 0.2331272 0.0595473 -0.2331272
194250000 0.0552330 -0.2247671 0.9447670 0.2247671 0.9447670 0.2247671 0.0552330 -0.2247671
201500000 0.0513433 -0.2168800 0.9486567 0.2168800 0.9486567 0.2168800 0.0513433 -0.2168800
208750000 0.0478255 -0.2094287 0.9521745 0.2094287 0.9521745 0.2094287 0.0478255 -0.2094287
216000000 0.0446347 -0.2023795 0.9553653 0.2023795 0.9553653 0.2023795 0.0446347 -0.2023795
223250000 0.0417323 -0.1957015 0.9582677 0.1957015 0.9582677 0.1957015 0.0417323 -0.1957015
230500000 0.0390853 -0.1893666 0.9609147 0.1893666 0.9609147 0.1893666 0.0390853 -0.1893666
237750000 0.0366650 -0.1833491 0.9633350 0.1833491 0.9633350 0.1833491 0.0366650 -0.1833491
245000000 0.0344470 -0.1776258 0.9655530 0.1776258 0.9655530 0.1776258 0.0344470 -0.1776258
252250000 0.0324096 -0.1721754 0.9675904 0.1721754 0.9675904 0.1721754 0.0324096 -0.1721754
259500000 0.0305341 -0.1669784 0.9694659 0.1669784 0.9694659 0.1669784 0.0305341 -0.1669784
266750000 0.0288042 -0.1620173 0.9711958 0.1620173 0.9711958 0.1620173 0.0288042 -0.1620173
274000000 0.0272054 -0.1572757 0.9727946 0.1572757 0.9727946 0.1572757 0.0272054 -0.1572757
281250000 0.0257252 -0.1527388 0.9742748 0.1527388 0.9742748 0.1527388 0.0257252 -0.1527388
288500000 0.0243523 -0.1483932 0.9756477 0.1483932 0.9756477 0.1483932 0.0243523 -0.1483932
295750000 0.0230769 -0.1442263 0.9769231 0.1442263 0.9769231 0.1442263 0.0230769 -0.1442263
303000000 0.0218901 -0.1402266 0.9781099 0.1402266 0.9781099 0.1402266 0.0218901 -0.1402266
310250000 0.0207841 -0.1363838 0.9792159 0.1363838 0.9792159 0.1363838 0.0207841 -0.1363838
317500000 0.0197519 -0.1326880 0.9802481 0.1326880 0.9802481 0.1326880 0.0197519 -0.1326880
324750000 0.0187873 -0.1291304 0.9812127 0.1291304 0.9812127 0.1291304 0.0187873 -0.1291304
332000000 0.0178847 -0.1257027 0.9821153 0.1257027 0.9821153 0.1257027 0.0178847 -0.1257027
339250000 0.0170391 -0.1223973 0.9829609 0.1223973 0.9829609 0.1223973 0.0170391 -0.1223973
346500000 0.0162458 -0.1192071 0.9837542 0.1192071 0.9837542 0.1192071 0.0162458 -0.1192071
353750000 0.0155009 -0.1161256 0.9844991 0.1161256 0.9844991 0.1161256 0.0155009 -0.1161256
361000000 0.0148006 -0.1131467 0.9851994 0.1131467 0.9851994 0.1131467 0.0148006 -0.1131467
368250000 0.0141415 -0.1102648 0.9858585 0.1102648 0.9858585 0.1102648 0.0141415 -0.1102648
375500000 0.0135206 -0.1074747 0.9864794 0.1074747 0.9864794 0.1074747 0.0135206 -0.1074747
382750000 0.0129352 -0.1047715 0.9870648 0.1047715 0.9870648 0.1047715 0.0129352 -0.1047715
390000000 0.0123827 -0.1021506 0.9876173 0.1021506 0.9876173 0.1021506 0.0123827 -0.1021506
397250000 0.0118609 -0.0996079 0.9881391 0.0996079 0.9881391 0.0996079 0.0118609 -0.0996079
404500000 0.0113676 -0.0971393 0.9886324 0.0971393 0.9886324 0.0971393 0.0113676 -0.0971393
411750000 0.0109008 -0.0947411 0.9890992 0.0947411 0.9890992 0.0947411 0.0109008 -0.0947411
419000000 0.0104590 -0.0924099 0.9895410 0.0924099 0.9895410 0.0924099 0.0104590 -0.0924099
426250000 0.0100403 -0.0901424 0.9899597 0.0901424 0.9899597 0.0901424 0.0100403 -0.0901424
433500000 0.0096434 -0.0879357 0.9903566 0.0879357 0.9903566 0.0879357 0.0096434 -0.0879357
440750000 0.0092669 -0.0857867 0.9907331 0.0857867 0.9907331 0.0857867 0.0092669 -0.0857867
448000000 0.0089095 -0.0836930 0.9910905 0.0836930 0.9910905 0.0836930 0.0089095 -0.0836930
455250000 0.0085700 -0.0816518 0.9914300 0.0816518 0.9914300 0.0816518 0.0085700 -0.0816518
462500000 0.0082474 -0.0796610 0.9917526 0.0796610 0.9917526 0.0796610 0.0082474 -0.0796610
469750000 0.0079407 -0.0777181 0.9920593 0.0777181 0.9920593 0.0777181 0.0079407 -0.0777181
477000000 0.0076490 -0.0758212 0.9923510 0.0758212 0.9923510 0.0758212 0.0076490 -0.0758212
484250000 0.0073713 -0.0739682 0.9926287 0.0739682 0.9926287 0.0739682 0.0073713 -0.0739682
491500000 0.0071070 -0.0721573 0.9928930 0.0721573 0.9928930 0.0721573 0.0071070 -0.0721573
498750000 0.0068552 -0.0703867 0.9931448 0.0703867 0.9931448 0.0703867 0.0068552 -0.0703867
506000000 0.0066154 -0.0686546 0.9933846 0.0686546 0.9933846 0.0686546 0.0066154 -0.0686546
513250000 0.0063868 -0.0669596 0.9936132 0.0669596 0.9936132 0.0669596 0.0063868 -0.0669596
520500000 0.0061688 -0.0653001 0.9938312 0.0653001 0.9938312 0.0653001 0.0061688 -0.0653001
527750000 0.0059609 -0.0636747 0.9940391 0.0636747 0.9940391 0.0636747 0.0059609 -0.0636747
535000000 0.0057627 -0.0620821 0.9942373 0.0620821 0.9942373 0.0620821 0.0057627 -0.0620821
542250000 0.0055735 -0.0605209 0.9944265 0.0605209 0.9944265 0.0605209 0.0055735 -0.0605209
549500000 0.0053930 -0.0589900 0.9946070 0.0589900 0.9946070 0.0589900 0.0053930 -0.0589900
556750000 0.0052207 -0.0574881 0.9947793 0.0574881 0.9947793 0.0574881 0.0052207 -0.0574881
564000000 0.0050563 -0.0560143 0.9949437 0.0560143 0.9949437 0.0560143 0.0050563 -0.0560143
571250000 0.0048993 -0.0545674 0.9951007 0.0545674 0.9951007 0.0545674 0.0048993 -0.0545674
578500000 0.0047494 -0.0531465 0.9952506 0.0531465 0.9952506 0.0531465 0.0047494 -0.0531465
585750000 0.0046063 -0.0517506 0.9953937 0.0517506 0.9953937 0.0517506 0.0046063 -0.0517506
593000000 0.0044697 -0.0503788 0.9955303 0.0503788 0.9955303 0.0503788 0.0044697 -0.0503788
600250000 0.0043392 -0.0490303 0.9956608 0.0490303 0.9956608 0.0490303 0.0043392 -0.0490303
607500000 0.0042147 -0.0477042 0.9957853 0.0477042 0.9957853 0.0477042 0.0042147 -0.0477042
614750000 0.0040958 -0.0463997 0.9959042 0.0463997 0.9959042 0.0463997 0.0040958 -0.0463997
622000000 0.0039823 -0.0451161 0.9960177 0.0451161 0.9960177 0.0451161 0.0039823 -0.0451161
629250000 0.0038740 -0.0438527 0.9961260 0.0438527 0.9961260 0.0438527 0.0038740 -0.0438527
636500000 0.0037707 -0.0426089 0.9962293 0.0426089 0.9962293 0.0426089 0.0037707 -0.0426089
643750000 0.0036721 -0.0413838 0.9963279 0.0413838 0.9963279 0.0413838 0.0036721 -0.0413838
651000000 0.0035781 -0.0401770 0.9964219 0.0401770 0.9964219 0.0401770 0.0035781 -0.0401770
658250000 0.0034885 -0.0389878 0.9965115 0.0389878 0.9965115 0.0389878 0.0034885 -0.0389878
665500000 0.0034031 -0.0378156 0.9965969 0.0378156 0.9965969 0.0378156 0.0034031 -0.0378156
672750000 0.0033218 -0.0366600 0.9966782 0.0366600 0.9966782 0.0366600 0.0033218 -0.0366600
680000000 0.0032444 -0.0355203 0.9967556 0.0355203 0.9967556 0.0355203 0.0032444 -0.0355203
687250000 0.0031707 -0.0343961 0.9968293 0.0343961 0.9968293 0.0343961 0.0031707 -0.0343961
694500000 0.0031006 -0.0332869 0.9968994 0.0332869 0.9968994 0.0332869 0.0031006 -0.0332869
701750000 0.0030340 -0.0321921 0.9969660 0.0321921 0.9969660 0.0321921 0.0030340 -0.0321921
709000000 0.0029708 -0.0311115 0.9970292 0.0311115 0.9970292 0.0311115 0.0029708 -0.0311115
716250000 0.0029108 -0.0300445 0.9970892 0.0300445 0.9970892 0.0300445 0.0029108 -0.0300445
723500000 0.0028539 -0.0289907 0.9971461 0.0289907 0.9971461 0.0289907 0.0028539 -0.0289907
730750000 0.0028001 -0.0279497 0.9971999 0.0279497 0.9971999 0.0279497 0.0028001 -0.0279497
738000000 0.0027492 -0.0269212 0.9972508 0.0269212 0.9972508 0.0269212 0.0027492 -0.0269212
745250000 0.0027011 -0.0259048 0.9972989 0.0259048 0.9972989 0.0259048 0.0027011 -0.0259048
752500000 0.0026557 -0.0249001 0.9973443 0.0249001 0.9973443 0.0249001 0.0026557 -0.0249001
759750000 0.0026130 -0.0239068 0.9973870 0.0239068 0.9973870 0.0239068 0.0026130 -0.0239068
767000000 0.0025728 -0.0229245 0.9974272 0.0229245 0.9974272 0.0229245 0.0025728 -0.0229245
774250000 0.0025351 -0.0219530 0.9974649 0.0219530 0.9974649 0.0219530 0.0025351 -0.0219530
781500000 0.0024998 -0.0209919 0.9975002 0.0209919 0.9975002 0.0209919 0.0024998 -0.0209919
788750000 0.0024668 -0.0200410 0.9975332 0.0200410 0.9975332 0.0200410 0.0024668 -0.0200410
796000000 0.0024361 -0.0190999 0.9975639 0.0190999 0.9975639 0.0190999 0.0024361 -0.0190999
803250000 0.0024076 -0.0181684 0.9975924 0.0181684 0.9975924 0.0181684 0.0024076 -0.0181684
810500000 0.0023812 -0.0172463 0.9976188 0.0172463 0.9976188 0.0172463 0.0023812 -0.0172463
817750000 0.0023569 -0.0163332 0.9976431 0.0163332 0.9976431 0.0163332 0.0023569 -0.0163332
825000000 0.0023345 -0.0154289 0.9976655 0.0154289 0.9976655 0.0154289 0.0023345 -0.0154289
832250000 0.0023142 -0.0145332 0.9976858 0.0145332 0.9976858 0.0145332 0.0023142 -0.0145332
839500000 0.0022958 -0.0136459 0.9977042 0.0136459 0.9977042 0.0136459 0.0022958 -0.0136459
846750000 0.0022792 -0.0127667 0.9977208 0.0127667 0.9977208 0.0127667 0.0022792 -0.0127667
854000000 0.0022644 -0.0118954 0.9977356 0.0118954 0.9977356 0.0118954 0.0022644 -0.0118954
861250000 0.0022514 -0.0110318 0.9977486 0.0110318 0.9977486 0.0110318 0.0022514 -0.0110318
868500000 0.0022401 -0.0101758 0.9977599 0.0101758 0.9977599 0.0101758 0.0022401 -0.0101758
875750000 0.0022305 -0.0093270 0.9977695 0.0093270 0.9977695 0.0093270 0.0022305 -0.0093270
883000000 0.0022225 -0.0084854 0.9977775 0.0084854 0.9977775 0.0084854 0.0022225 -0.0084854
890250000 0.0022161 -0.0076507 0.9977839 0.0076507 0.9977839 0.0076507 0.0022161 -0.0076507
897500000 0.0022112 -0.0068228 0.9977888 0.0068228 0.9977888 0.0068228 0.0022112 -0.0068228
904750000 0.0022079 -0.0060015 0.9977921 0.0060015 0.9977921 0.0060015 0.0022079 -0.0060015
912000000 0.0022061 -0.0051866 0.9977939 0.0051866 0.9977939 0.0051866 0.0022061 -0.0051866
919250000 0.0022057 -0.0043779 0.9977943 0.0043779 0.9977943 0.0043779 0.0022057 -0.0043779
926500000 0.0022068 -0.0035754 0.9977932 0.0035754 0.9977932 0.0035754 0.0022068 -0.0035754
933750000 0.0022093 -0.0027789 0.9977907 0.0027789 0.9977907 0.0027789 0.0022093 -0.0027789
941000000 0.0022131 -0.0019881 0.9977869 0.0019881 0.9977869 0.0019881 0.0022131 -0.0019881
948250000 0.0022183 -0.0012031 0.9977817 0.0012031 0.9977817 0.0012031 0.0022183 -0.0012031
955500000 0.0022247 -0.0004235 0.9977753 0.0004235 0.9977753 0.0004235 0.0022247 -0.0004235
962750000 0.0022325 0.0003506 0.9977675 -0.0003506 0.9977675 -0.0003506 0.0022325 0.0003506
970000000 0.0022415 0.0011195 0.9977585 -0.0011195 0.9977585 -0.0011195 0.0022415 0.0011195
977250000 0.0022518 0.0018832 0.9977482 -0.0018832 0.9977482 -0.0018832 0.0022518 0.0018832
984500000 0.0022633 0.0026420 0.9977367 -0.0026420 0.9977367 -0.0026420 0.0022633 0.0026420
991750000 0.0022760 0.0033958 0.9977240 -0.0033958 0.9977240 -0.0033958 0.0022760 0.0033958
999000000 0.0022898 0.0041448 0.9977102 -0.0041448 0.9977102 -0.0041448 0.0022898 0.0041448
1006250000 0.0023048 0.0048892 0.9976952 -0.0048892 0.9976952 -0.0048892 0.0023048 0.0048892
1013500000 0.0023210 0.0056290 0.9976790 -0.0056290 0.9976790 -0.0056290 0.0023210 0.0056290
1020750000 0.0023382 0.0063644 0.9976618 -0.0063644 0.9976618 -0.0063644 0.0023382 0.0063644
1028000000 0.0023566 0.0070954 0.9976434 -0.0070954 0.9976434 -0.0070954 0.0023566 0.0070954
1035250000 0.0023760 0.0078222 0.9976240 -0.0078222 0.9976240 -0.0078222 0.0023760 0.0078222
1042500000 0.0023965 0.0085448 0.9976035 -0.0085448 0.9976035 -0.0085448 0.0023965 0.0085448
1049750000 0.0024181 0.0092634 0.9975819 -0.0092634 0.9975819 -0.0092634 0.0024181 0.0092634
1057000000 0.0024407 0.0099780 0.9975593 -0.0099780 0.9975593 -0.0099780 0.0024407 0.0099780
1064250000 0.0024643 0.0106888 0.9975357 -0.0106888 0.9975357 -0.0106888 0.0024643 0.0106888
1071500000 0.0024889 0.0113958 0.9975111 -0.0113958 0.9975111 -0.0113958 0.0024889 0.0113958
1078750000 0.0025145 0.0120990 0.9974855 -0.0120990 0.9974855 -0.0120990 0.0025145 0.0120990
1086000000 0.0025411 0.0127987 0.9974589 -0.0127987 0.9974589 -0.0127987 0.0025411 0.0127987
1093250000 0.0025687 0.0134949 0.9974313 -0.0134949 0.9974313 -0.0134949 0.0025687 0.0134949
1100500000 0.0025972 0.0141876 0.9974028 -0.0141876 0.9974028 -0.0141876 0.0025972 0.0141876
1107750000 0.0026267 0.0148770 0.9973733 -0.0148770 0.9973733 -0.0148770 0.0026267 0.0148770
1115000000 0.0026570 0.0155630 0.9973430 -0.0155630 0.9973430 -0.0155630 0.0026570 0.0155630
1122250000 0.0026884 0.0162459 0.9973116 -0.0162459 0.9973116 -0.0162459 0.0026884 0.0162459
1129500000 0.0027206 0.0169256 0.9972794 -0.0169256 0.9972794 -0.0169256 0.0027206 0.0169256
1136750000 0.0027537 0.0176023 0.9972463 -0.0176023 0.9972463 -0.0176023 0.0027537 0.0176023
1144000000 0.0027878 0.0182759 0.9972122 -0.0182759 0.9972122 -0.0182759 0.0027878 0.0182759
1151250000 0.0028227 0.0189466 0.9971773 -0.0189466 0.9971773 -0.0189466 0.0028227 0.0189466
1158500000 0.0028584 0.0196144 0.9971416 -0.0196144 0.9971416 -0.0196144 0.0028584 0.0196144
1165750000 0.0028951 0.0202795 0.9971049 -0.0202795 0.9971049 -0.0202795 0.0028951 0.0202795
1173000000 0.0029326 0.0209418 0.9970674 -0.0209418 0.9970674 -0.0209418 0.0029326 0.0209418
1180250000 0.0029710 0.0216014 0.9970290 -0.0216014 0.9970290 -0.0216014 0.0029710 0.0216014
1187500000 0.0030102 0.0222584 0.9969898 -0.0222584 0.9969898 -0.0222584 0.0030102 0.0222584
1194750000 0.0030502 0.0229128 0.9969498 -0.0229128 0.9969498 -0.0229128 0.0030502 0.0229128
1202000000 0.0030911 0.0235648 0.9969089 -0.0235648 0.9969089 -0.0235648 0.0030911 0.0235648
1209250000 0.0031328 0.0242142 0.9968672 -0.0242142 0.9968672 -0.0242142 0.0031328 0.0242142
1216500000 0.0031754 0.0248613 0.9968246 -0.0248613 0.9968246 -0.0248613 0.0031754 0.0248613
1223750000 0.0032187 0.0255061 0.9967813 -0.0255061 0.9967813 -0.0255061 0.0032187 0.0255061
1231000000 0.0032628 0.0261486 0.9967372 -0.0261486 0.9967372 -0.0261486 0.0032628 0.0261486
1238250000 0.0033078 0.0267888 0.9966922 -0.0267888 0.9966922 -0.0267888 0.0033078 0.0267888
1245500000 0.0033535 0.0274269 0.9966465 -0.0274269 0.9966465 -0.0274269 0.0033535 0.0274269
1252750000 0.0034001 0.0280628 0.9965999 -0.0280628 0.9965999 -0.0280628 0.0034001 0.0280628
1260000000 0.0034474 0.0286966 0.9965526 -0.0286966 0.9965526 -0.0286966 0.0034474 0.0286966
1267250000 0.0034955 0.0293284 0.9965045 -0.0293284 0.9965045 -0.0293284 0.0034955 0.0293284
1274500000 0.0035444 0.0299582 0.9964556 -0.0299582 0.9964556 -0.0299582 0.0035444 0.0299582
1281750000 0.0035941 0.0305860 0.9964059 -0.0305860 0.9964059 -0.0305860 0.0035941 0.0305860
1289000000 0.0036445 0.0312120 0.9963555 -0.0312120 0.9963555 -0.0312120 0.0036445 0.0312120
1296250000 0.0036957 0.0318361 0.9963043 -0.0318361 0.9963043 -0.0318361 0.0036957 0.0318361
1303500000 0.0037476 0.0324583 0.9962524 -0.0324583 0.9962524 -0.0324583 0.0037476 0.0324583
1310750000 0.0038004 0.0330788 0.9961996 -0.0330788 0.9961996 -0.0330788 0.0038004 0.0330788
1318000000 0.0038539 0.0336976 0.9961461 -0.0336976 0.9961461 -0.0336976 0.0038539 0.0336976
1325250000 0.0039081 0.0343147 0.9960919 -0.0343147 0.9960919 -0.0343147 0.0039081 0.0343147
1332500000 0.0039631 0.0349301 0.9960369 -0.0349301 0.9960369 -0.0349301 0.0039631 0.0349301
1339750000 0.0040188 0.0355439 0.9959812 -0.0355439 0.9959812 -0.0355439 0.0040188 0.0355439
1347000000 0.0040753 0.0361561 0.9959247 -0.0361561 0.9959247 -0.0361561 0.0040753 0.0361561
1354250000 0.0041325 0.0367667 0.9958675 -0.0367667 0.9958675 -0.0367667 0.0041325 0.0367667
1361500000 0.0041905 0.0373759 0.9958095 -0.0373759 0.9958095 -0.0373759 0.0041905 0.0373759
1368750000 0.0042492 0.0379836 0.9957508 -0.0379836 0.9957508 -0.0379836 0.0042492 0.0379836
1376000000 0.0043087 0.0385899 0.9956913 -0.0385899 0.9956913 -0.0385899 0.0043087 0.0385899
1383250000 0.0043689 0.0391947 0.9956311 -0.0391947 0.9956311 -0.0391947 0.0043689 0.0391947
1390500000 0.0044298 0.0397982 0.9955702 -0.0397982 0.9955702 -0.0397982 0.0044298 0.0397982
1397750000 0.0044915 0.0404004 0.9955085 -0.0404004 0.9955085 -0.0404004 0.0044915 0.0404004
1405000000 0.0045539 0.0410012 0.9954461 -0.0410012 0.9954461 -0.0410012 0.0045539 0.0410012
1412250000 0.0046170 0.0416008 0.9953830 -0.0416008 0.9953830 -0.0416008 0.0046170 0.0416008
1419500000 0.0046809 0.0421992 0.9953191 -0.0421992 0.9953191 -0.0421992 0.0046809 0.0421992
1426750000 0.0047455 0.0427963 0.9952545 -0.0427963 0.9952545 -0.0427963 0.0047455 0.0427963
1434000000 0.0048108 0.0433923 0.9951892 -0.0433923 0.9951892 -0.0433923 0.0048108 0.0433923
1441250000 0.0048769 0.0439871 0.9951231 -0.0439871 0.9951231 -0.0439871 0.0048769 0.0439871
1448500000 0.0049437 0.0445808 0.9950563 -0.0445808 0.9950563 -0.0445808 0.0049437 0.0445808
1455750000 0.0050112 0.0451734 0.9949888 -0.0451734 0.9949888 -0.0451734 0.0050112 0.0451734
1463000000 0.0050795 0.0457650 0.9949205 -0.0457650 0.9949205 -0.0457650 0.0050795 0.0457650
1470250000 0.0051484 0.0463555 0.9948516 -0.0463555 0.9948516 -0.0463555 0.0051484 0.0463555
1477500000 0.0052182 0.0469451 0.9947818 -0.0469451 0.9947818 -0.0469451 0.0052182 0.0469451
1484750000 0.0052886 0.0475336 0.9947114 -0.0475336 0.9947114 -0.0475336 0.0052886 0.0475336
1492000000 0.0053598 0.0481212 0.9946402 -0.0481212 0.9946402 -0.0481212 0.0053598 0.0481212
1499250000 0.0054317 0.0487079 0.9945683 -0.0487079 0.9945683 -0.0487079 0.0054317 0.0487079
1506500000 0.0055043 0.0492936 0.9944957 -0.0492936 0.9944957 -0.0492936 0.0055043 0.0492936
1513750000 0.0055777 0.0498786 0.9944223 -0.0498786 0.9944223 -0.0498786 0.0055777 0.0498786
1521000000 0.0056517 0.0504626 0.9943483 -0.0504626 0.9943483 -0.0504626 0.0056517 0.0504626
1528250000 0.0057266 0.0510458 0.9942734 -0.0510458 0.9942734 -0.0510458 0.0057266 0.0510458
1535500000 0.0058021 0.0516283 0.9941979 -0.0516283 0.9941979 -0.0516283 0.0058021 0.0516283
1542750000 0.0058784 0.0522099 0.9941216 -0.0522099 0.9941216 -0.0522099 0.0058784 0.0522099
1550000000 0.0059555 0.0527908 0.9940445 -0.0527908 0.9940445 -0.0527908 0.0059555 0.0527908
1557250000 0.0060332 0.0533710 0.9939668 -0.0533710 0.9939668 -0.0533710 0.0060332 0.0533710
1564500000 0.0061117 0.0539505 0.9938883 -0.0539505 0.9938883 -0.0539505 0.0061117 0.0539505
1571750000 0.0061910 0.0545293 0.9938090 -0.0545293 0.9938090 -0.0545293 0.0061910 0.0545293
1579000000 0.0062709 0.0551074 0.9937291 -0.0551074 0.9937291 -0.0551074 0.0062709 0.0551074
1586250000 0.0063517 0.0556849 0.9936483 -0.0556849 0.9936483 -0.0556849 0.0063517 0.0556849
1593500000 0.0064331 0.0562617 0.9935669 -0.0562617 0.9935669 -0.0562617 0.0064331 0.0562617
1600750000 0.0065153 0.0568380 0.9934847 -0.0568380 0.9934847 -0.0568380 0.0065153 0.0568380
1608000000 0.0065983 0.0574137 0.9934017 -0.0574137 0.9934017 -0.0574137 0.0065983 0.0574137
1615250000 0.0066820 0.0579888 0.9933180 -0.0579888 0.9933180 -0.0579888 0.0066820 0.0579888
1622500000 0.0067665 0.0585635 0.9932335 -0.0585635 0.9932335 -0.0585635 0.0067665 0.0585635
1629750000 0.0068517 0.0591375 0.9931483 -0.0591375 0.9931483 -0.0591375 0.0068517 0.0591375
