!Murata Part Number: GRM31C2C1H823JA01
!These Parameters are Measured in Series Mode Connection
!Data Generated on Mar 30, 2021
!       o--ll--o
!Port1            Port2
!       o------o
!Operation Temp=25[degC], DC Bias Voltage=0[V]
!Freq. Start=1000[kHz] Stop=6[GHz] 401[Steps]
# Hz S RI R 50
!Freq.(Hz) S11(Real) S11(Imag) S21(Real) S21(Imag) S12(Real) S12(Imag) S22(Real) S22(Imag)
1000000 0.0004123 -0.0194183 0.9995877 0.0194183 0.9995877 0.0194183 0.0004123 -0.0194183
1021987 0.0003963 -0.0189981 0.9996037 0.0189981 0.9996037 0.0189981 0.0003963 -0.0189981
1044457 0.0003809 -0.0185869 0.9996191 0.0185869 0.9996191 0.0185869 0.0003809 -0.0185869
1067422 0.0003663 -0.0181844 0.9996337 0.0181844 0.9996337 0.0181844 0.0003663 -0.0181844
1090891 0.0003522 -0.0177905 0.9996478 0.0177905 0.9996478 0.0177905 0.0003522 -0.0177905
1114877 0.0003388 -0.0174050 0.9996612 0.0174050 0.9996612 0.0174050 0.0003388 -0.0174050
1139390 0.0003260 -0.0170277 0.9996740 0.0170277 0.9996740 0.0170277 0.0003260 -0.0170277
1164441 0.0003137 -0.0166585 0.9996863 0.0166585 0.9996863 0.0166585 0.0003137 -0.0166585
1190044 0.0003020 -0.0162971 0.9996980 0.0162971 0.9996980 0.0162971 0.0003020 -0.0162971
1216210 0.0002908 -0.0159434 0.9997092 0.0159434 0.9997092 0.0159434 0.0002908 -0.0159434
1242950 0.0002800 -0.0155973 0.9997200 0.0155973 0.9997200 0.0155973 0.0002800 -0.0155973
1270279 0.0002698 -0.0152585 0.9997302 0.0152585 0.9997302 0.0152585 0.0002698 -0.0152585
1298209 0.0002599 -0.0149270 0.9997401 0.0149270 0.9997401 0.0149270 0.0002599 -0.0149270
1326753 0.0002506 -0.0146025 0.9997494 0.0146025 0.9997494 0.0146025 0.0002506 -0.0146025
1355924 0.0002416 -0.0142849 0.9997584 0.0142849 0.9997584 0.0142849 0.0002416 -0.0142849
1385737 0.0002330 -0.0139740 0.9997670 0.0139740 0.9997670 0.0139740 0.0002330 -0.0139740
1416205 0.0002248 -0.0136698 0.9997752 0.0136698 0.9997752 0.0136698 0.0002248 -0.0136698
1447343 0.0002170 -0.0133720 0.9997830 0.0133720 0.9997830 0.0133720 0.0002170 -0.0133720
1479166 0.0002095 -0.0130806 0.9997905 0.0130806 0.9997905 0.0130806 0.0002095 -0.0130806
1511688 0.0002024 -0.0127953 0.9997976 0.0127953 0.9997976 0.0127953 0.0002024 -0.0127953
1544926 0.0001955 -0.0125161 0.9998045 0.0125161 0.9998045 0.0125161 0.0001955 -0.0125161
1578894 0.0001890 -0.0122428 0.9998110 0.0122428 0.9998110 0.0122428 0.0001890 -0.0122428
1613609 0.0001828 -0.0119753 0.9998172 0.0119753 0.9998172 0.0119753 0.0001828 -0.0119753
1649087 0.0001768 -0.0117135 0.9998232 0.0117135 0.9998232 0.0117135 0.0001768 -0.0117135
1685346 0.0001712 -0.0114572 0.9998288 0.0114572 0.9998288 0.0114572 0.0001712 -0.0114572
1722402 0.0001658 -0.0112063 0.9998342 0.0112063 0.9998342 0.0112063 0.0001658 -0.0112063
1760272 0.0001606 -0.0109608 0.9998394 0.0109608 0.9998394 0.0109608 0.0001606 -0.0109608
1798975 0.0001557 -0.0107204 0.9998443 0.0107204 0.9998443 0.0107204 0.0001557 -0.0107204
1838529 0.0001510 -0.0104851 0.9998490 0.0104851 0.9998490 0.0104851 0.0001510 -0.0104851
1878953 0.0001465 -0.0102548 0.9998535 0.0102548 0.9998535 0.0102548 0.0001465 -0.0102548
1920266 0.0001422 -0.0100293 0.9998578 0.0100293 0.9998578 0.0100293 0.0001422 -0.0100293
1962487 0.0001381 -0.0098086 0.9998619 0.0098086 0.9998619 0.0098086 0.0001381 -0.0098086
2005636 0.0001342 -0.0095925 0.9998658 0.0095925 0.9998658 0.0095925 0.0001342 -0.0095925
2049734 0.0001305 -0.0093810 0.9998695 0.0093810 0.9998695 0.0093810 0.0001305 -0.0093810
2094801 0.0001270 -0.0091739 0.9998730 0.0091739 0.9998730 0.0091739 0.0001270 -0.0091739
2140860 0.0001236 -0.0089712 0.9998764 0.0089712 0.9998764 0.0089712 0.0001236 -0.0089712
2187931 0.0001204 -0.0087727 0.9998796 0.0087727 0.9998796 0.0087727 0.0001204 -0.0087727
2236037 0.0001174 -0.0085784 0.9998826 0.0085784 0.9998826 0.0085784 0.0001174 -0.0085784
2285201 0.0001145 -0.0083882 0.9998855 0.0083882 0.9998855 0.0083882 0.0001145 -0.0083882
2335446 0.0001118 -0.0082019 0.9998882 0.0082019 0.9998882 0.0082019 0.0001118 -0.0082019
2386795 0.0001091 -0.0080195 0.9998909 0.0080195 0.9998909 0.0080195 0.0001091 -0.0080195
2439274 0.0001066 -0.0078410 0.9998934 0.0078410 0.9998934 0.0078410 0.0001066 -0.0078410
2492906 0.0001043 -0.0076661 0.9998957 0.0076661 0.9998957 0.0076661 0.0001043 -0.0076661
2547717 0.0001020 -0.0074949 0.9998980 0.0074949 0.9998980 0.0074949 0.0001020 -0.0074949
2603734 0.0000999 -0.0073272 0.9999001 0.0073272 0.9999001 0.0073272 0.0000999 -0.0073272
2660982 0.0000979 -0.0071631 0.9999021 0.0071631 0.9999021 0.0071631 0.0000979 -0.0071631
2719490 0.0000959 -0.0070023 0.9999041 0.0070023 0.9999041 0.0070023 0.0000959 -0.0070023
2779283 0.0000941 -0.0068448 0.9999059 0.0068448 0.9999059 0.0068448 0.0000941 -0.0068448
2840391 0.0000924 -0.0066906 0.9999076 0.0066906 0.9999076 0.0066906 0.0000924 -0.0066906
2902843 0.0000908 -0.0065396 0.9999092 0.0065396 0.9999092 0.0065396 0.0000908 -0.0065396
2966668 0.0000892 -0.0063917 0.9999108 0.0063917 0.9999108 0.0063917 0.0000892 -0.0063917
3031896 0.0000877 -0.0062468 0.9999123 0.0062468 0.9999123 0.0062468 0.0000877 -0.0062468
3098558 0.0000863 -0.0061048 0.9999137 0.0061048 0.9999137 0.0061048 0.0000863 -0.0061048
3166686 0.0000850 -0.0059658 0.9999150 0.0059658 0.9999150 0.0059658 0.0000850 -0.0059658
3236312 0.0000838 -0.0058296 0.9999162 0.0058296 0.9999162 0.0058296 0.0000838 -0.0058296
3307469 0.0000826 -0.0056962 0.9999174 0.0056962 0.9999174 0.0056962 0.0000826 -0.0056962
3380190 0.0000815 -0.0055655 0.9999185 0.0055655 0.9999185 0.0055655 0.0000815 -0.0055655
3454511 0.0000805 -0.0054374 0.9999195 0.0054374 0.9999195 0.0054374 0.0000805 -0.0054374
3530465 0.0000795 -0.0053119 0.9999205 0.0053119 0.9999205 0.0053119 0.0000795 -0.0053119
3608090 0.0000785 -0.0051890 0.9999215 0.0051890 0.9999215 0.0051890 0.0000785 -0.0051890
3687421 0.0000777 -0.0050685 0.9999223 0.0050685 0.9999223 0.0050685 0.0000777 -0.0050685
3768496 0.0000769 -0.0049504 0.9999231 0.0049504 0.9999231 0.0049504 0.0000769 -0.0049504
3851354 0.0000761 -0.0048347 0.9999239 0.0048347 0.9999239 0.0048347 0.0000761 -0.0048347
3936034 0.0000754 -0.0047212 0.9999246 0.0047212 0.9999246 0.0047212 0.0000754 -0.0047212
4022575 0.0000747 -0.0046100 0.9999253 0.0046100 0.9999253 0.0046100 0.0000747 -0.0046100
4111020 0.0000741 -0.0045010 0.9999259 0.0045010 0.9999259 0.0045010 0.0000741 -0.0045010
4201409 0.0000735 -0.0043941 0.9999265 0.0043941 0.9999265 0.0043941 0.0000735 -0.0043941
4293785 0.0000729 -0.0042893 0.9999271 0.0042893 0.9999271 0.0042893 0.0000729 -0.0042893
4388193 0.0000724 -0.0041866 0.9999276 0.0041866 0.9999276 0.0041866 0.0000724 -0.0041866
4484676 0.0000719 -0.0040858 0.9999281 0.0040858 0.9999281 0.0040858 0.0000719 -0.0040858
4583281 0.0000715 -0.0039870 0.9999285 0.0039870 0.9999285 0.0039870 0.0000715 -0.0039870
4684054 0.0000711 -0.0038901 0.9999289 0.0038901 0.9999289 0.0038901 0.0000711 -0.0038901
4787042 0.0000707 -0.0037950 0.9999293 0.0037950 0.9999293 0.0037950 0.0000707 -0.0037950
4892295 0.0000704 -0.0037017 0.9999296 0.0037017 0.9999296 0.0037017 0.0000704 -0.0037017
4999862 0.0000701 -0.0036102 0.9999299 0.0036102 0.9999299 0.0036102 0.0000701 -0.0036102
5109794 0.0000698 -0.0035203 0.9999302 0.0035203 0.9999302 0.0035203 0.0000698 -0.0035203
5222143 0.0000696 -0.0034322 0.9999304 0.0034322 0.9999304 0.0034322 0.0000696 -0.0034322
5336962 0.0000694 -0.0033457 0.9999306 0.0033457 0.9999306 0.0033457 0.0000694 -0.0033457
5454306 0.0000692 -0.0032607 0.9999308 0.0032607 0.9999308 0.0032607 0.0000692 -0.0032607
5574230 0.0000690 -0.0031773 0.9999310 0.0031773 0.9999310 0.0031773 0.0000690 -0.0031773
5696791 0.0000689 -0.0030955 0.9999311 0.0030955 0.9999311 0.0030955 0.0000689 -0.0030955
5822046 0.0000688 -0.0030150 0.9999312 0.0030150 0.9999312 0.0030150 0.0000688 -0.0030150
5950055 0.0000687 -0.0029360 0.9999313 0.0029360 0.9999313 0.0029360 0.0000687 -0.0029360
6080879 0.0000687 -0.0028584 0.9999313 0.0028584 0.9999313 0.0028584 0.0000687 -0.0028584
6214580 0.0000686 -0.0027822 0.9999314 0.0027822 0.9999314 0.0027822 0.0000686 -0.0027822
6351220 0.0000686 -0.0027072 0.9999314 0.0027072 0.9999314 0.0027072 0.0000686 -0.0027072
6490864 0.0000686 -0.0026336 0.9999314 0.0026336 0.9999314 0.0026336 0.0000686 -0.0026336
6633579 0.0000687 -0.0025612 0.9999313 0.0025612 0.9999313 0.0025612 0.0000687 -0.0025612
6779431 0.0000687 -0.0024899 0.9999313 0.0024899 0.9999313 0.0024899 0.0000687 -0.0024899
6928491 0.0000688 -0.0024199 0.9999312 0.0024199 0.9999312 0.0024199 0.0000688 -0.0024199
7080828 0.0000689 -0.0023510 0.9999311 0.0023510 0.9999311 0.0023510 0.0000689 -0.0023510
7236514 0.0000691 -0.0022832 0.9999309 0.0022832 0.9999309 0.0022832 0.0000691 -0.0022832
7395623 0.0000692 -0.0022165 0.9999308 0.0022165 0.9999308 0.0022165 0.0000692 -0.0022165
7558231 0.0000694 -0.0021508 0.9999306 0.0021508 0.9999306 0.0021508 0.0000694 -0.0021508
7724414 0.0000696 -0.0020861 0.9999304 0.0020861 0.9999304 0.0020861 0.0000696 -0.0020861
7894251 0.0000698 -0.0020224 0.9999302 0.0020224 0.9999302 0.0020224 0.0000698 -0.0020224
8067822 0.0000701 -0.0019597 0.9999299 0.0019597 0.9999299 0.0019597 0.0000701 -0.0019597
8245209 0.0000704 -0.0018978 0.9999296 0.0018978 0.9999296 0.0018978 0.0000704 -0.0018978
8426497 0.0000707 -0.0018369 0.9999293 0.0018369 0.9999293 0.0018369 0.0000707 -0.0018369
8611770 0.0000710 -0.0017768 0.9999290 0.0017768 0.9999290 0.0017768 0.0000710 -0.0017768
8801117 0.0000714 -0.0017175 0.9999286 0.0017175 0.9999286 0.0017175 0.0000714 -0.0017175
8994628 0.0000717 -0.0016590 0.9999283 0.0016590 0.9999283 0.0016590 0.0000717 -0.0016590
9192393 0.0000722 -0.0016013 0.9999278 0.0016013 0.9999278 0.0016013 0.0000722 -0.0016013
9394506 0.0000726 -0.0015443 0.9999274 0.0015443 0.9999274 0.0015443 0.0000726 -0.0015443
9601063 0.0000731 -0.0014881 0.9999269 0.0014881 0.9999269 0.0014881 0.0000731 -0.0014881
9812162 0.0000736 -0.0014325 0.9999264 0.0014325 0.9999264 0.0014325 0.0000736 -0.0014325
10027902 0.0000741 -0.0013775 0.9999259 0.0013775 0.9999259 0.0013775 0.0000741 -0.0013775
10248386 0.0000747 -0.0013232 0.9999253 0.0013232 0.9999253 0.0013232 0.0000747 -0.0013232
10473717 0.0000753 -0.0012694 0.9999247 0.0012694 0.9999247 0.0012694 0.0000753 -0.0012694
10704003 0.0000760 -0.0012163 0.9999240 0.0012163 0.9999240 0.0012163 0.0000760 -0.0012163
10939352 0.0000767 -0.0011636 0.9999233 0.0011636 0.9999233 0.0011636 0.0000767 -0.0011636
11179876 0.0000774 -0.0011115 0.9999226 0.0011115 0.9999226 0.0011115 0.0000774 -0.0011115
11425688 0.0000782 -0.0010598 0.9999218 0.0010598 0.9999218 0.0010598 0.0000782 -0.0010598
11676904 0.0000790 -0.0010086 0.9999210 0.0010086 0.9999210 0.0010086 0.0000790 -0.0010086
11933645 0.0000798 -0.0009578 0.9999202 0.0009578 0.9999202 0.0009578 0.0000798 -0.0009578
12196030 0.0000807 -0.0009075 0.9999193 0.0009075 0.9999193 0.0009075 0.0000807 -0.0009075
12464184 0.0000817 -0.0008574 0.9999183 0.0008574 0.9999183 0.0008574 0.0000817 -0.0008574
12738235 0.0000827 -0.0008077 0.9999173 0.0008077 0.9999173 0.0008077 0.0000827 -0.0008077
13018310 0.0000838 -0.0007583 0.9999162 0.0007583 0.9999162 0.0007583 0.0000838 -0.0007583
13304544 0.0000849 -0.0007092 0.9999151 0.0007092 0.9999151 0.0007092 0.0000849 -0.0007092
13597071 0.0000861 -0.0006603 0.9999139 0.0006603 0.9999139 0.0006603 0.0000861 -0.0006603
13896030 0.0000874 -0.0006117 0.9999126 0.0006117 0.9999126 0.0006117 0.0000874 -0.0006117
14201563 0.0000887 -0.0005632 0.9999113 0.0005632 0.9999113 0.0005632 0.0000887 -0.0005632
14513813 0.0000901 -0.0005149 0.9999099 0.0005149 0.9999099 0.0005149 0.0000901 -0.0005149
14832928 0.0000916 -0.0004666 0.9999084 0.0004666 0.9999084 0.0004666 0.0000916 -0.0004666
15159060 0.0000931 -0.0004185 0.9999069 0.0004185 0.9999069 0.0004185 0.0000931 -0.0004185
15492362 0.0000948 -0.0003704 0.9999052 0.0003704 0.9999052 0.0003704 0.0000948 -0.0003704
15832993 0.0000965 -0.0003223 0.9999035 0.0003223 0.9999035 0.0003223 0.0000965 -0.0003223
16181113 0.0000984 -0.0002741 0.9999016 0.0002741 0.9999016 0.0002741 0.0000984 -0.0002741
16536888 0.0001004 -0.0002259 0.9998996 0.0002259 0.9998996 0.0002259 0.0001004 -0.0002259
16900485 0.0001025 -0.0001775 0.9998975 0.0001775 0.9998975 0.0001775 0.0001025 -0.0001775
17272076 0.0001047 -0.0001290 0.9998953 0.0001290 0.9998953 0.0001290 0.0001047 -0.0001290
17651837 0.0001071 -0.0000802 0.9998929 0.0000802 0.9998929 0.0000802 0.0001071 -0.0000802
18039948 0.0001096 -0.0000311 0.9998904 0.0000311 0.9998904 0.0000311 0.0001096 -0.0000311
18436593 0.0001123 0.0000182 0.9998877 -0.0000182 0.9998877 -0.0000182 0.0001123 0.0000182
18841959 0.0001152 0.0000680 0.9998848 -0.0000680 0.9998848 -0.0000680 0.0001152 0.0000680
19256237 0.0001182 0.0001183 0.9998818 -0.0001183 0.9998818 -0.0001183 0.0001182 0.0001183
19679624 0.0001215 0.0001691 0.9998785 -0.0001691 0.9998785 -0.0001691 0.0001215 0.0001691
20112321 0.0001251 0.0002206 0.9998749 -0.0002206 0.9998749 -0.0002206 0.0001251 0.0002206
20554530 0.0001290 0.0002728 0.9998710 -0.0002728 0.9998710 -0.0002728 0.0001290 0.0002728
21006463 0.0001331 0.0003259 0.9998669 -0.0003259 0.9998669 -0.0003259 0.0001331 0.0003259
21468333 0.0001377 0.0003799 0.9998623 -0.0003799 0.9998623 -0.0003799 0.0001377 0.0003799
21940357 0.0001427 0.0004351 0.9998573 -0.0004351 0.9998573 -0.0004351 0.0001427 0.0004351
22422760 0.0001481 0.0004915 0.9998519 -0.0004915 0.9998519 -0.0004915 0.0001481 0.0004915
22915770 0.0001542 0.0005494 0.9998458 -0.0005494 0.9998458 -0.0005494 0.0001542 0.0005494
23419619 0.0001609 0.0006090 0.9998391 -0.0006090 0.9998391 -0.0006090 0.0001609 0.0006090
23934547 0.0001685 0.0006707 0.9998315 -0.0006707 0.9998315 -0.0006707 0.0001685 0.0006707
24460796 0.0001770 0.0007346 0.9998230 -0.0007346 0.9998230 -0.0007346 0.0001770 0.0007346
24998616 0.0001869 0.0008013 0.9998131 -0.0008013 0.9998131 -0.0008013 0.0001869 0.0008013
25548261 0.0001982 0.0008712 0.9998018 -0.0008712 0.9998018 -0.0008712 0.0001982 0.0008712
26109991 0.0002116 0.0009450 0.9997884 -0.0009450 0.9997884 -0.0009450 0.0002116 0.0009450
26684072 0.0002277 0.0010235 0.9997723 -0.0010235 0.9997723 -0.0010235 0.0002277 0.0010235
27270775 0.0002472 0.0011077 0.9997528 -0.0011077 0.9997528 -0.0011077 0.0002472 0.0011077
27870378 0.0002717 0.0011990 0.9997283 -0.0011990 0.9997283 -0.0011990 0.0002717 0.0011990
28483164 0.0003032 0.0012992 0.9996968 -0.0012992 0.9996968 -0.0012992 0.0003032 0.0012992
29109424 0.0003451 0.0014106 0.9996549 -0.0014106 0.9996549 -0.0014106 0.0003451 0.0014106
29749453 0.0004030 0.0015361 0.9995970 -0.0015361 0.9995970 -0.0015361 0.0004030 0.0015361
30403555 0.0004867 0.0016792 0.9995133 -0.0016792 0.9995133 -0.0016792 0.0004867 0.0016792
31072038 0.0006143 0.0018421 0.9993857 -0.0018421 0.9993857 -0.0018421 0.0006143 0.0018421
31755220 0.0008197 0.0020195 0.9991803 -0.0020195 0.9991803 -0.0020195 0.0008197 0.0020195
32453422 0.0011628 0.0021746 0.9988372 -0.0021746 0.9988372 -0.0021746 0.0011628 0.0021746
33166976 0.0017084 0.0021650 0.9982916 -0.0021650 0.9982916 -0.0021650 0.0017084 0.0021650
33896219 0.0023003 0.0016812 0.9976997 -0.0016812 0.9976997 -0.0016812 0.0023003 0.0016812
34641496 0.0023090 0.0008046 0.9976910 -0.0008046 0.9976910 -0.0008046 0.0023090 0.0008046
35403159 0.0017375 0.0003291 0.9982625 -0.0003291 0.9982625 -0.0003291 0.0017375 0.0003291
36181569 0.0012159 0.0003321 0.9987841 -0.0003321 0.9987841 -0.0003321 0.0012159 0.0003321
36977093 0.0008989 0.0005037 0.9991011 -0.0005037 0.9991011 -0.0005037 0.0008989 0.0005037
37790109 0.0007217 0.0007022 0.9992783 -0.0007022 0.9992783 -0.0007022 0.0007217 0.0007022
38621001 0.0006251 0.0008917 0.9993749 -0.0008917 0.9993749 -0.0008917 0.0006251 0.0008917
39470161 0.0005764 0.0010679 0.9994236 -0.0010679 0.9994236 -0.0010679 0.0005764 0.0010679
40337993 0.0005594 0.0012339 0.9994406 -0.0012339 0.9994406 -0.0012339 0.0005594 0.0012339
41224905 0.0005667 0.0013943 0.9994333 -0.0013943 0.9994333 -0.0013943 0.0005667 0.0013943
42131317 0.0005965 0.0015532 0.9994035 -0.0015532 0.9994035 -0.0015532 0.0005965 0.0015532
43057659 0.0006513 0.0017139 0.9993487 -0.0017139 0.9993487 -0.0017139 0.0006513 0.0017139
44004369 0.0007383 0.0018781 0.9992617 -0.0018781 0.9992617 -0.0018781 0.0007383 0.0018781
44971893 0.0008709 0.0020436 0.9991291 -0.0020436 0.9991291 -0.0020436 0.0008709 0.0020436
45960691 0.0010708 0.0021980 0.9989292 -0.0021980 0.9989292 -0.0021980 0.0010708 0.0021980
46971230 0.0013655 0.0023041 0.9986345 -0.0023041 0.9986345 -0.0023041 0.0013655 0.0023041
48003987 0.0017619 0.0022738 0.9982381 -0.0022738 0.9982381 -0.0022738 0.0017619 0.0022738
49059451 0.0021587 0.0019801 0.9978413 -0.0019801 0.9978413 -0.0019801 0.0021587 0.0019801
50138122 0.0022929 0.0014415 0.9977071 -0.0014415 0.9977071 -0.0014415 0.0022929 0.0014415
51240510 0.0020434 0.0009727 0.9979566 -0.0009727 0.9979566 -0.0009727 0.0020434 0.0009727
52367136 0.0016409 0.0007930 0.9983591 -0.0007930 0.9983591 -0.0007930 0.0016409 0.0007930
53518533 0.0012989 0.0008308 0.9987011 -0.0008308 0.9987011 -0.0008308 0.0012989 0.0008308
54695245 0.0010633 0.0009641 0.9989367 -0.0009641 0.9989367 -0.0009641 0.0010633 0.0009641
55897831 0.0009131 0.0011265 0.9990869 -0.0011265 0.9990869 -0.0011265 0.0009131 0.0011265
57126857 0.0008220 0.0012923 0.9991780 -0.0012923 0.9991780 -0.0012923 0.0008220 0.0012923
58382906 0.0007719 0.0014536 0.9992281 -0.0014536 0.9992281 -0.0014536 0.0007719 0.0014536
59666572 0.0007524 0.0016090 0.9992476 -0.0016090 0.9992476 -0.0016090 0.0007524 0.0016090
60978462 0.0007588 0.0017587 0.9992412 -0.0017587 0.9992412 -0.0017587 0.0007588 0.0017587
62319196 0.0007910 0.0019026 0.9992090 -0.0019026 0.9992090 -0.0019026 0.0007910 0.0019026
63689409 0.0008521 0.0020373 0.9991479 -0.0020373 0.9991479 -0.0020373 0.0008521 0.0020373
65089750 0.0009472 0.0021530 0.9990528 -0.0021530 0.9990528 -0.0021530 0.0009472 0.0021530
66520879 0.0010764 0.0022273 0.9989236 -0.0022273 0.9989236 -0.0022273 0.0010764 0.0022273
67983474 0.0012157 0.0022289 0.9987843 -0.0022289 0.9987843 -0.0022289 0.0012157 0.0022289
69478228 0.0013020 0.0021525 0.9986980 -0.0021525 0.9986980 -0.0021525 0.0013020 0.0021525
71005847 0.0012845 0.0020649 0.9987155 -0.0020649 0.9987155 -0.0020649 0.0012845 0.0020649
72567054 0.0011988 0.0020460 0.9988012 -0.0020460 0.9988012 -0.0020460 0.0011988 0.0020460
74162587 0.0011160 0.0021053 0.9988840 -0.0021053 0.9988840 -0.0021053 0.0011160 0.0021053
75793201 0.0010731 0.0022103 0.9989269 -0.0022103 0.9989269 -0.0022103 0.0010731 0.0022103
77459667 0.0010777 0.0023306 0.9989223 -0.0023306 0.9989223 -0.0023306 0.0010777 0.0023306
79162774 0.0011290 0.0024442 0.9988710 -0.0024442 0.9988710 -0.0024442 0.0011290 0.0024442
80903327 0.0012231 0.0025292 0.9987769 -0.0025292 0.9987769 -0.0025292 0.0012231 0.0025292
82682150 0.0013458 0.0025582 0.9986542 -0.0025582 0.9986542 -0.0025582 0.0013458 0.0025582
84500083 0.0014576 0.0025084 0.9985424 -0.0025084 0.9985424 -0.0025084 0.0014576 0.0025084
86357988 0.0014978 0.0023958 0.9985022 -0.0023958 0.9985022 -0.0023958 0.0014978 0.0023958
88256743 0.0014371 0.0022880 0.9985629 -0.0022880 0.9985629 -0.0022880 0.0014371 0.0022880
90197245 0.0013127 0.0022462 0.9986873 -0.0022462 0.9986873 -0.0022462 0.0013127 0.0022462
92180413 0.0011811 0.0022766 0.9988189 -0.0022766 0.9988189 -0.0022766 0.0011811 0.0022766
94207185 0.0010725 0.0023545 0.9989275 -0.0023545 0.9989275 -0.0023545 0.0010725 0.0023545
96278520 0.0009925 0.0024561 0.9990075 -0.0024561 0.9990075 -0.0024561 0.0009925 0.0024561
98395398 0.0009368 0.0025668 0.9990632 -0.0025668 0.9990632 -0.0025668 0.0009368 0.0025668
100558819 0.0008993 0.0026796 0.9991007 -0.0026796 0.9991007 -0.0026796 0.0008993 0.0026796
102769807 0.0008750 0.0027915 0.9991250 -0.0027915 0.9991250 -0.0027915 0.0008750 0.0027915
105029408 0.0008603 0.0029012 0.9991397 -0.0029012 0.9991397 -0.0029012 0.0008603 0.0029012
107338692 0.0008525 0.0030086 0.9991475 -0.0030086 0.9991475 -0.0030086 0.0008525 0.0030086
