!Murata Part Number: GRM31A7U3A270JW31
!These Parameters are Measured in Series Mode Connection
!Data Generated on Mar 30, 2021
!       o--ll--o
!Port1            Port2
!       o------o
!Operation Temp=25[degC], DC Bias Voltage=0[V]
!Freq. Start=100[MHz] Stop=3[GHz] 401[Steps]
# Hz S RI R 50
!Freq.(Hz) S11(Real) S11(Imag) S21(Real) S21(Imag) S12(Real) S12(Imag) S22(Real) S22(Imag)
100000000 0.2552110 -0.4343877 0.7447890 0.4343877 0.7447890 0.4343877 0.2552110 -0.4343877
107250000 0.2292052 -0.4186112 0.7707948 0.4186112 0.7707948 0.4186112 0.2292052 -0.4186112
114500000 0.2065964 -0.4030342 0.7934036 0.4030342 0.7934036 0.4030342 0.2065964 -0.4030342
121750000 0.1868794 -0.3878661 0.8131206 0.3878661 0.8131206 0.3878661 0.1868794 -0.3878661
129000000 0.1696249 -0.3732343 0.8303751 0.3732343 0.8303751 0.3732343 0.1696249 -0.3732343
136250000 0.1544709 -0.3592100 0.8455291 0.3592100 0.8455291 0.3592100 0.1544709 -0.3592100
143500000 0.1411125 -0.3458264 0.8588875 0.3458264 0.8588875 0.3458264 0.1411125 -0.3458264
150750000 0.1292939 -0.3330914 0.8707061 0.3330914 0.8707061 0.3330914 0.1292939 -0.3330914
158000000 0.1187998 -0.3209959 0.8812002 0.3209959 0.8812002 0.3209959 0.1187998 -0.3209959
165250000 0.1094489 -0.3095206 0.8905511 0.3095206 0.8905511 0.3095206 0.1094489 -0.3095206
172500000 0.1010883 -0.2986395 0.8989117 0.2986395 0.8989117 0.2986395 0.1010883 -0.2986395
179750000 0.0935886 -0.2883233 0.9064114 0.2883233 0.9064114 0.2883233 0.0935886 -0.2883233
187000000 0.0868399 -0.2785409 0.9131601 0.2785409 0.9131601 0.2785409 0.0868399 -0.2785409
194250000 0.0807486 -0.2692609 0.9192514 0.2692609 0.9192514 0.2692609 0.0807486 -0.2692609
201500000 0.0752348 -0.2604526 0.9247652 0.2604526 0.9247652 0.2604526 0.0752348 -0.2604526
208750000 0.0702298 -0.2520862 0.9297702 0.2520862 0.9297702 0.2520862 0.0702298 -0.2520862
216000000 0.0656748 -0.2441332 0.9343252 0.2441332 0.9343252 0.2441332 0.0656748 -0.2441332
223250000 0.0615188 -0.2365669 0.9384812 0.2365669 0.9384812 0.2365669 0.0615188 -0.2365669
230500000 0.0577178 -0.2293620 0.9422822 0.2293620 0.9422822 0.2293620 0.0577178 -0.2293620
237750000 0.0542335 -0.2224950 0.9457665 0.2224950 0.9457665 0.2224950 0.0542335 -0.2224950
245000000 0.0510325 -0.2159438 0.9489675 0.2159438 0.9489675 0.2159438 0.0510325 -0.2159438
252250000 0.0480856 -0.2096881 0.9519144 0.2096881 0.9519144 0.2096881 0.0480856 -0.2096881
259500000 0.0453673 -0.2037089 0.9546327 0.2037089 0.9546327 0.2037089 0.0453673 -0.2037089
266750000 0.0428550 -0.1979887 0.9571450 0.1979887 0.9571450 0.1979887 0.0428550 -0.1979887
274000000 0.0405289 -0.1925111 0.9594711 0.1925111 0.9594711 0.1925111 0.0405289 -0.1925111
281250000 0.0383715 -0.1872611 0.9616285 0.1872611 0.9616285 0.1872611 0.0383715 -0.1872611
288500000 0.0363673 -0.1822246 0.9636327 0.1822246 0.9636327 0.1822246 0.0363673 -0.1822246
295750000 0.0345023 -0.1773887 0.9654977 0.1773887 0.9654977 0.1773887 0.0345023 -0.1773887
303000000 0.0327643 -0.1727414 0.9672357 0.1727414 0.9672357 0.1727414 0.0327643 -0.1727414
310250000 0.0311424 -0.1682716 0.9688576 0.1682716 0.9688576 0.1682716 0.0311424 -0.1682716
317500000 0.0296265 -0.1639689 0.9703735 0.1639689 0.9703735 0.1639689 0.0296265 -0.1639689
324750000 0.0282080 -0.1598237 0.9717920 0.1598237 0.9717920 0.1598237 0.0282080 -0.1598237
332000000 0.0268789 -0.1558271 0.9731211 0.1558271 0.9731211 0.1558271 0.0268789 -0.1558271
339250000 0.0256320 -0.1519708 0.9743680 0.1519708 0.9743680 0.1519708 0.0256320 -0.1519708
346500000 0.0244609 -0.1482471 0.9755391 0.1482471 0.9755391 0.1482471 0.0244609 -0.1482471
353750000 0.0233598 -0.1446488 0.9766402 0.1446488 0.9766402 0.1446488 0.0233598 -0.1446488
361000000 0.0223233 -0.1411692 0.9776767 0.1411692 0.9776767 0.1411692 0.0223233 -0.1411692
368250000 0.0213466 -0.1378020 0.9786534 0.1378020 0.9786534 0.1378020 0.0213466 -0.1378020
375500000 0.0204255 -0.1345415 0.9795745 0.1345415 0.9795745 0.1345415 0.0204255 -0.1345415
382750000 0.0195558 -0.1313821 0.9804442 0.1313821 0.9804442 0.1313821 0.0195558 -0.1313821
390000000 0.0187341 -0.1283187 0.9812659 0.1283187 0.9812659 0.1283187 0.0187341 -0.1283187
397250000 0.0179570 -0.1253467 0.9820430 0.1253467 0.9820430 0.1253467 0.0179570 -0.1253467
404500000 0.0172214 -0.1224614 0.9827786 0.1224614 0.9827786 0.1224614 0.0172214 -0.1224614
411750000 0.0165245 -0.1196587 0.9834755 0.1196587 0.9834755 0.1196587 0.0165245 -0.1196587
419000000 0.0158640 -0.1169347 0.9841360 0.1169347 0.9841360 0.1169347 0.0158640 -0.1169347
426250000 0.0152373 -0.1142857 0.9847627 0.1142857 0.9847627 0.1142857 0.0152373 -0.1142857
433500000 0.0146423 -0.1117081 0.9853577 0.1117081 0.9853577 0.1117081 0.0146423 -0.1117081
440750000 0.0140771 -0.1091988 0.9859229 0.1091988 0.9859229 0.1091988 0.0140771 -0.1091988
448000000 0.0135398 -0.1067545 0.9864602 0.1067545 0.9864602 0.1067545 0.0135398 -0.1067545
455250000 0.0130287 -0.1043725 0.9869713 0.1043725 0.9869713 0.1043725 0.0130287 -0.1043725
462500000 0.0125422 -0.1020500 0.9874578 0.1020500 0.9874578 0.1020500 0.0125422 -0.1020500
469750000 0.0120790 -0.0997845 0.9879210 0.0997845 0.9879210 0.0997845 0.0120790 -0.0997845
477000000 0.0116377 -0.0975733 0.9883623 0.0975733 0.9883623 0.0975733 0.0116377 -0.0975733
484250000 0.0112170 -0.0954144 0.9887830 0.0954144 0.9887830 0.0954144 0.0112170 -0.0954144
491500000 0.0108157 -0.0933054 0.9891843 0.0933054 0.9891843 0.0933054 0.0108157 -0.0933054
498750000 0.0104328 -0.0912443 0.9895672 0.0912443 0.9895672 0.0912443 0.0104328 -0.0912443
506000000 0.0100674 -0.0892293 0.9899326 0.0892293 0.9899326 0.0892293 0.0100674 -0.0892293
513250000 0.0097183 -0.0872583 0.9902817 0.0872583 0.9902817 0.0872583 0.0097183 -0.0872583
520500000 0.0093849 -0.0853297 0.9906151 0.0853297 0.9906151 0.0853297 0.0093849 -0.0853297
527750000 0.0090662 -0.0834418 0.9909338 0.0834418 0.9909338 0.0834418 0.0090662 -0.0834418
535000000 0.0087616 -0.0815930 0.9912384 0.0815930 0.9912384 0.0815930 0.0087616 -0.0815930
542250000 0.0084703 -0.0797818 0.9915297 0.0797818 0.9915297 0.0797818 0.0084703 -0.0797818
549500000 0.0081915 -0.0780068 0.9918085 0.0780068 0.9918085 0.0780068 0.0081915 -0.0780068
556750000 0.0079249 -0.0762667 0.9920751 0.0762667 0.9920751 0.0762667 0.0079249 -0.0762667
564000000 0.0076696 -0.0745600 0.9923304 0.0745600 0.9923304 0.0745600 0.0076696 -0.0745600
571250000 0.0074253 -0.0728857 0.9925747 0.0728857 0.9925747 0.0728857 0.0074253 -0.0728857
578500000 0.0071913 -0.0712425 0.9928087 0.0712425 0.9928087 0.0712425 0.0071913 -0.0712425
585750000 0.0069672 -0.0696294 0.9930328 0.0696294 0.9930328 0.0696294 0.0069672 -0.0696294
593000000 0.0067525 -0.0680451 0.9932475 0.0680451 0.9932475 0.0680451 0.0067525 -0.0680451
600250000 0.0065469 -0.0664888 0.9934531 0.0664888 0.9934531 0.0664888 0.0065469 -0.0664888
607500000 0.0063499 -0.0649595 0.9936501 0.0649595 0.9936501 0.0649595 0.0063499 -0.0649595
614750000 0.0061611 -0.0634562 0.9938389 0.0634562 0.9938389 0.0634562 0.0061611 -0.0634562
622000000 0.0059801 -0.0619781 0.9940199 0.0619781 0.9940199 0.0619781 0.0059801 -0.0619781
629250000 0.0058067 -0.0605242 0.9941933 0.0605242 0.9941933 0.0605242 0.0058067 -0.0605242
636500000 0.0056406 -0.0590939 0.9943594 0.0590939 0.9943594 0.0590939 0.0056406 -0.0590939
643750000 0.0054813 -0.0576862 0.9945187 0.0576862 0.9945187 0.0576862 0.0054813 -0.0576862
651000000 0.0053287 -0.0563005 0.9946713 0.0563005 0.9946713 0.0563005 0.0053287 -0.0563005
658250000 0.0051824 -0.0549361 0.9948176 0.0549361 0.9948176 0.0549361 0.0051824 -0.0549361
665500000 0.0050423 -0.0535922 0.9949577 0.0535922 0.9949577 0.0535922 0.0050423 -0.0535922
672750000 0.0049080 -0.0522683 0.9950920 0.0522683 0.9950920 0.0522683 0.0049080 -0.0522683
680000000 0.0047794 -0.0509636 0.9952206 0.0509636 0.9952206 0.0509636 0.0047794 -0.0509636
687250000 0.0046562 -0.0496777 0.9953438 0.0496777 0.9953438 0.0496777 0.0046562 -0.0496777
694500000 0.0045382 -0.0484099 0.9954618 0.0484099 0.9954618 0.0484099 0.0045382 -0.0484099
701750000 0.0044252 -0.0471596 0.9955748 0.0471596 0.9955748 0.0471596 0.0044252 -0.0471596
709000000 0.0043171 -0.0459263 0.9956829 0.0459263 0.9956829 0.0459263 0.0043171 -0.0459263
716250000 0.0042136 -0.0447096 0.9957864 0.0447096 0.9957864 0.0447096 0.0042136 -0.0447096
723500000 0.0041147 -0.0435088 0.9958853 0.0435088 0.9958853 0.0435088 0.0041147 -0.0435088
730750000 0.0040200 -0.0423236 0.9959800 0.0423236 0.9959800 0.0423236 0.0040200 -0.0423236
738000000 0.0039296 -0.0411535 0.9960704 0.0411535 0.9960704 0.0411535 0.0039296 -0.0411535
745250000 0.0038432 -0.0399981 0.9961568 0.0399981 0.9961568 0.0399981 0.0038432 -0.0399981
752500000 0.0037607 -0.0388568 0.9962393 0.0388568 0.9962393 0.0388568 0.0037607 -0.0388568
759750000 0.0036820 -0.0377294 0.9963180 0.0377294 0.9963180 0.0377294 0.0036820 -0.0377294
767000000 0.0036070 -0.0366154 0.9963930 0.0366154 0.9963930 0.0366154 0.0036070 -0.0366154
774250000 0.0035354 -0.0355145 0.9964646 0.0355145 0.9964646 0.0355145 0.0035354 -0.0355145
781500000 0.0034673 -0.0344262 0.9965327 0.0344262 0.9965327 0.0344262 0.0034673 -0.0344262
788750000 0.0034026 -0.0333503 0.9965974 0.0333503 0.9965974 0.0333503 0.0034026 -0.0333503
796000000 0.0033410 -0.0322864 0.9966590 0.0322864 0.9966590 0.0322864 0.0033410 -0.0322864
803250000 0.0032825 -0.0312341 0.9967175 0.0312341 0.9967175 0.0312341 0.0032825 -0.0312341
810500000 0.0032271 -0.0301932 0.9967729 0.0301932 0.9967729 0.0301932 0.0032271 -0.0301932
817750000 0.0031746 -0.0291633 0.9968254 0.0291633 0.9968254 0.0291633 0.0031746 -0.0291633
825000000 0.0031249 -0.0281442 0.9968751 0.0281442 0.9968751 0.0281442 0.0031249 -0.0281442
832250000 0.0030780 -0.0271355 0.9969220 0.0271355 0.9969220 0.0271355 0.0030780 -0.0271355
839500000 0.0030338 -0.0261370 0.9969662 0.0261370 0.9969662 0.0261370 0.0030338 -0.0261370
846750000 0.0029922 -0.0251485 0.9970078 0.0251485 0.9970078 0.0251485 0.0029922 -0.0251485
854000000 0.0029531 -0.0241696 0.9970469 0.0241696 0.9970469 0.0241696 0.0029531 -0.0241696
861250000 0.0029165 -0.0232001 0.9970835 0.0232001 0.9970835 0.0232001 0.0029165 -0.0232001
868500000 0.0028823 -0.0222398 0.9971177 0.0222398 0.9971177 0.0222398 0.0028823 -0.0222398
875750000 0.0028504 -0.0212884 0.9971496 0.0212884 0.9971496 0.0212884 0.0028504 -0.0212884
883000000 0.0028208 -0.0203457 0.9971792 0.0203457 0.9971792 0.0203457 0.0028208 -0.0203457
890250000 0.0027934 -0.0194116 0.9972066 0.0194116 0.9972066 0.0194116 0.0027934 -0.0194116
897500000 0.0027682 -0.0184857 0.9972318 0.0184857 0.9972318 0.0184857 0.0027682 -0.0184857
904750000 0.0027452 -0.0175678 0.9972548 0.0175678 0.9972548 0.0175678 0.0027452 -0.0175678
912000000 0.0027241 -0.0166579 0.9972759 0.0166579 0.9972759 0.0166579 0.0027241 -0.0166579
919250000 0.0027051 -0.0157557 0.9972949 0.0157557 0.9972949 0.0157557 0.0027051 -0.0157557
926500000 0.0026881 -0.0148609 0.9973119 0.0148609 0.9973119 0.0148609 0.0026881 -0.0148609
933750000 0.0026729 -0.0139734 0.9973271 0.0139734 0.9973271 0.0139734 0.0026729 -0.0139734
941000000 0.0026597 -0.0130931 0.9973403 0.0130931 0.9973403 0.0130931 0.0026597 -0.0130931
948250000 0.0026483 -0.0122198 0.9973517 0.0122198 0.9973517 0.0122198 0.0026483 -0.0122198
955500000 0.0026386 -0.0113532 0.9973614 0.0113532 0.9973614 0.0113532 0.0026386 -0.0113532
962750000 0.0026308 -0.0104933 0.9973692 0.0104933 0.9973692 0.0104933 0.0026308 -0.0104933
970000000 0.0026246 -0.0096399 0.9973754 0.0096399 0.9973754 0.0096399 0.0026246 -0.0096399
977250000 0.0026201 -0.0087928 0.9973799 0.0087928 0.9973799 0.0087928 0.0026201 -0.0087928
984500000 0.0026173 -0.0079519 0.9973827 0.0079519 0.9973827 0.0079519 0.0026173 -0.0079519
991750000 0.0026161 -0.0071170 0.9973839 0.0071170 0.9973839 0.0071170 0.0026161 -0.0071170
999000000 0.0026165 -0.0062881 0.9973835 0.0062881 0.9973835 0.0062881 0.0026165 -0.0062881
1006250000 0.0026184 -0.0054649 0.9973816 0.0054649 0.9973816 0.0054649 0.0026184 -0.0054649
1013500000 0.0026219 -0.0046473 0.9973781 0.0046473 0.9973781 0.0046473 0.0026219 -0.0046473
1020750000 0.0026269 -0.0038352 0.9973731 0.0038352 0.9973731 0.0038352 0.0026269 -0.0038352
1028000000 0.0026333 -0.0030285 0.9973667 0.0030285 0.9973667 0.0030285 0.0026333 -0.0030285
1035250000 0.0026412 -0.0022271 0.9973588 0.0022271 0.9973588 0.0022271 0.0026412 -0.0022271
1042500000 0.0026504 -0.0014308 0.9973496 0.0014308 0.9973496 0.0014308 0.0026504 -0.0014308
1049750000 0.0026611 -0.0006396 0.9973389 0.0006396 0.9973389 0.0006396 0.0026611 -0.0006396
1057000000 0.0026732 0.0001468 0.9973268 -0.0001468 0.9973268 -0.0001468 0.0026732 0.0001468
1064250000 0.0026866 0.0009283 0.9973134 -0.0009283 0.9973134 -0.0009283 0.0026866 0.0009283
1071500000 0.0027013 0.0017052 0.9972987 -0.0017052 0.9972987 -0.0017052 0.0027013 0.0017052
1078750000 0.0027173 0.0024775 0.9972827 -0.0024775 0.9972827 -0.0024775 0.0027173 0.0024775
1086000000 0.0027346 0.0032452 0.9972654 -0.0032452 0.9972654 -0.0032452 0.0027346 0.0032452
1093250000 0.0027532 0.0040086 0.9972468 -0.0040086 0.9972468 -0.0040086 0.0027532 0.0040086
1100500000 0.0027730 0.0047676 0.9972270 -0.0047676 0.9972270 -0.0047676 0.0027730 0.0047676
1107750000 0.0027941 0.0055225 0.9972059 -0.0055225 0.9972059 -0.0055225 0.0027941 0.0055225
1115000000 0.0028163 0.0062732 0.9971837 -0.0062732 0.9971837 -0.0062732 0.0028163 0.0062732
1122250000 0.0028398 0.0070200 0.9971602 -0.0070200 0.9971602 -0.0070200 0.0028398 0.0070200
1129500000 0.0028644 0.0077627 0.9971356 -0.0077627 0.9971356 -0.0077627 0.0028644 0.0077627
1136750000 0.0028902 0.0085016 0.9971098 -0.0085016 0.9971098 -0.0085016 0.0028902 0.0085016
1144000000 0.0029172 0.0092368 0.9970828 -0.0092368 0.9970828 -0.0092368 0.0029172 0.0092368
1151250000 0.0029452 0.0099682 0.9970548 -0.0099682 0.9970548 -0.0099682 0.0029452 0.0099682
1158500000 0.0029744 0.0106961 0.9970256 -0.0106961 0.9970256 -0.0106961 0.0029744 0.0106961
1165750000 0.0030047 0.0114204 0.9969953 -0.0114204 0.9969953 -0.0114204 0.0030047 0.0114204
1173000000 0.0030361 0.0121412 0.9969639 -0.0121412 0.9969639 -0.0121412 0.0030361 0.0121412
1180250000 0.0030685 0.0128586 0.9969315 -0.0128586 0.9969315 -0.0128586 0.0030685 0.0128586
1187500000 0.0031020 0.0135727 0.9968980 -0.0135727 0.9968980 -0.0135727 0.0031020 0.0135727
1194750000 0.0031366 0.0142836 0.9968634 -0.0142836 0.9968634 -0.0142836 0.0031366 0.0142836
1202000000 0.0031722 0.0149913 0.9968278 -0.0149913 0.9968278 -0.0149913 0.0031722 0.0149913
1209250000 0.0032089 0.0156959 0.9967911 -0.0156959 0.9967911 -0.0156959 0.0032089 0.0156959
1216500000 0.0032465 0.0163974 0.9967535 -0.0163974 0.9967535 -0.0163974 0.0032465 0.0163974
1223750000 0.0032852 0.0170959 0.9967148 -0.0170959 0.9967148 -0.0170959 0.0032852 0.0170959
1231000000 0.0033249 0.0177915 0.9966751 -0.0177915 0.9966751 -0.0177915 0.0033249 0.0177915
1238250000 0.0033655 0.0184842 0.9966345 -0.0184842 0.9966345 -0.0184842 0.0033655 0.0184842
1245500000 0.0034071 0.0191742 0.9965929 -0.0191742 0.9965929 -0.0191742 0.0034071 0.0191742
1252750000 0.0034497 0.0198614 0.9965503 -0.0198614 0.9965503 -0.0198614 0.0034497 0.0198614
1260000000 0.0034933 0.0205459 0.9965067 -0.0205459 0.9965067 -0.0205459 0.0034933 0.0205459
1267250000 0.0035378 0.0212277 0.9964622 -0.0212277 0.9964622 -0.0212277 0.0035378 0.0212277
1274500000 0.0035833 0.0219070 0.9964167 -0.0219070 0.9964167 -0.0219070 0.0035833 0.0219070
1281750000 0.0036297 0.0225837 0.9963703 -0.0225837 0.9963703 -0.0225837 0.0036297 0.0225837
1289000000 0.0036770 0.0232580 0.9963230 -0.0232580 0.9963230 -0.0232580 0.0036770 0.0232580
1296250000 0.0037252 0.0239299 0.9962748 -0.0239299 0.9962748 -0.0239299 0.0037252 0.0239299
1303500000 0.0037744 0.0245993 0.9962256 -0.0245993 0.9962256 -0.0245993 0.0037744 0.0245993
1310750000 0.0038245 0.0252665 0.9961755 -0.0252665 0.9961755 -0.0252665 0.0038245 0.0252665
1318000000 0.0038754 0.0259314 0.9961246 -0.0259314 0.9961246 -0.0259314 0.0038754 0.0259314
1325250000 0.0039273 0.0265940 0.9960727 -0.0265940 0.9960727 -0.0265940 0.0039273 0.0265940
1332500000 0.0039800 0.0272545 0.9960200 -0.0272545 0.9960200 -0.0272545 0.0039800 0.0272545
1339750000 0.0040336 0.0279128 0.9959664 -0.0279128 0.9959664 -0.0279128 0.0040336 0.0279128
1347000000 0.0040881 0.0285690 0.9959119 -0.0285690 0.9959119 -0.0285690 0.0040881 0.0285690
1354250000 0.0041435 0.0292232 0.9958565 -0.0292232 0.9958565 -0.0292232 0.0041435 0.0292232
1361500000 0.0041997 0.0298754 0.9958003 -0.0298754 0.9958003 -0.0298754 0.0041997 0.0298754
1368750000 0.0042568 0.0305256 0.9957432 -0.0305256 0.9957432 -0.0305256 0.0042568 0.0305256
1376000000 0.0043147 0.0311739 0.9956853 -0.0311739 0.9956853 -0.0311739 0.0043147 0.0311739
1383250000 0.0043735 0.0318202 0.9956265 -0.0318202 0.9956265 -0.0318202 0.0043735 0.0318202
1390500000 0.0044331 0.0324648 0.9955669 -0.0324648 0.9955669 -0.0324648 0.0044331 0.0324648
1397750000 0.0044936 0.0331075 0.9955064 -0.0331075 0.9955064 -0.0331075 0.0044936 0.0331075
1405000000 0.0045549 0.0337485 0.9954451 -0.0337485 0.9954451 -0.0337485 0.0045549 0.0337485
1412250000 0.0046170 0.0343877 0.9953830 -0.0343877 0.9953830 -0.0343877 0.0046170 0.0343877
1419500000 0.0046799 0.0350253 0.9953201 -0.0350253 0.9953201 -0.0350253 0.0046799 0.0350253
1426750000 0.0047437 0.0356612 0.9952563 -0.0356612 0.9952563 -0.0356612 0.0047437 0.0356612
1434000000 0.0048082 0.0362954 0.9951918 -0.0362954 0.9951918 -0.0362954 0.0048082 0.0362954
1441250000 0.0048736 0.0369281 0.9951264 -0.0369281 0.9951264 -0.0369281 0.0048736 0.0369281
1448500000 0.0049398 0.0375592 0.9950602 -0.0375592 0.9950602 -0.0375592 0.0049398 0.0375592
1455750000 0.0050068 0.0381888 0.9949932 -0.0381888 0.9949932 -0.0381888 0.0050068 0.0381888
1463000000 0.0050746 0.0388169 0.9949254 -0.0388169 0.9949254 -0.0388169 0.0050746 0.0388169
1470250000 0.0051431 0.0394436 0.9948569 -0.0394436 0.9948569 -0.0394436 0.0051431 0.0394436
1477500000 0.0052125 0.0400688 0.9947875 -0.0400688 0.9947875 -0.0400688 0.0052125 0.0400688
1484750000 0.0052826 0.0406927 0.9947174 -0.0406927 0.9947174 -0.0406927 0.0052826 0.0406927
1492000000 0.0053536 0.0413151 0.9946464 -0.0413151 0.9946464 -0.0413151 0.0053536 0.0413151
1499250000 0.0054253 0.0419363 0.9945747 -0.0419363 0.9945747 -0.0419363 0.0054253 0.0419363
1506500000 0.0054978 0.0425561 0.9945022 -0.0425561 0.9945022 -0.0425561 0.0054978 0.0425561
1513750000 0.0055710 0.0431747 0.9944290 -0.0431747 0.9944290 -0.0431747 0.0055710 0.0431747
1521000000 0.0056451 0.0437921 0.9943549 -0.0437921 0.9943549 -0.0437921 0.0056451 0.0437921
1528250000 0.0057199 0.0444082 0.9942801 -0.0444082 0.9942801 -0.0444082 0.0057199 0.0444082
1535500000 0.0057955 0.0450232 0.9942045 -0.0450232 0.9942045 -0.0450232 0.0057955 0.0450232
1542750000 0.0058718 0.0456369 0.9941282 -0.0456369 0.9941282 -0.0456369 0.0058718 0.0456369
1550000000 0.0059489 0.0462496 0.9940511 -0.0462496 0.9940511 -0.0462496 0.0059489 0.0462496
1557250000 0.0060268 0.0468612 0.9939732 -0.0468612 0.9939732 -0.0468612 0.0060268 0.0468612
1564500000 0.0061054 0.0474717 0.9938946 -0.0474717 0.9938946 -0.0474717 0.0061054 0.0474717
1571750000 0.0061847 0.0480811 0.9938153 -0.0480811 0.9938153 -0.0480811 0.0061847 0.0480811
1579000000 0.0062648 0.0486895 0.9937352 -0.0486895 0.9937352 -0.0486895 0.0062648 0.0486895
1586250000 0.0063457 0.0492970 0.9936543 -0.0492970 0.9936543 -0.0492970 0.0063457 0.0492970
1593500000 0.0064273 0.0499034 0.9935727 -0.0499034 0.9935727 -0.0499034 0.0064273 0.0499034
1600750000 0.0065097 0.0505090 0.9934903 -0.0505090 0.9934903 -0.0505090 0.0065097 0.0505090
1608000000 0.0065928 0.0511135 0.9934072 -0.0511135 0.9934072 -0.0511135 0.0065928 0.0511135
1615250000 0.0066766 0.0517173 0.9933234 -0.0517173 0.9933234 -0.0517173 0.0066766 0.0517173
1622500000 0.0067612 0.0523201 0.9932388 -0.0523201 0.9932388 -0.0523201 0.0067612 0.0523201
1629750000 0.0068465 0.0529221 0.9931535 -0.0529221 0.9931535 -0.0529221 0.0068465 0.0529221
