!Murata Part Number: GRM3192C2A222JA01
!These Parameters are Measured in Series Mode Connection
!Data Generated on Mar 30, 2021
!       o--ll--o
!Port1            Port2
!       o------o
!Operation Temp=25[degC], DC Bias Voltage=0[V]
!Freq. Start=1000[kHz] Stop=6[GHz] 401[Steps]
# Hz S RI R 50
!Freq.(Hz) S11(Real) S11(Imag) S21(Real) S21(Imag) S12(Real) S12(Imag) S22(Real) S22(Imag)
1000000 0.3416243 -0.4741528 0.6583757 0.4741528 0.6583757 0.4741528 0.3416243 -0.4741528
1021987 0.3319107 -0.4707953 0.6680893 0.4707953 0.6680893 0.4707953 0.3319107 -0.4707953
1044457 0.3223381 -0.4672656 0.6776619 0.4672656 0.6776619 0.4672656 0.3223381 -0.4672656
1067422 0.3129123 -0.4635706 0.6870877 0.4635706 0.6870877 0.4635706 0.3129123 -0.4635706
1090891 0.3036387 -0.4597177 0.6963613 0.4597177 0.6963613 0.4597177 0.3036387 -0.4597177
1114877 0.2945222 -0.4557144 0.7054778 0.4557144 0.7054778 0.4557144 0.2945222 -0.4557144
1139390 0.2855672 -0.4515684 0.7144328 0.4515684 0.7144328 0.4515684 0.2855672 -0.4515684
1164441 0.2767778 -0.4472874 0.7232222 0.4472874 0.7232222 0.4472874 0.2767778 -0.4472874
1190044 0.2681573 -0.4428791 0.7318427 0.4428791 0.7318427 0.4428791 0.2681573 -0.4428791
1216210 0.2597091 -0.4383514 0.7402909 0.4383514 0.7402909 0.4383514 0.2597091 -0.4383514
1242950 0.2514356 -0.4337121 0.7485644 0.4337121 0.7485644 0.4337121 0.2514356 -0.4337121
1270279 0.2433391 -0.4289690 0.7566609 0.4289690 0.7566609 0.4289690 0.2433391 -0.4289690
1298209 0.2354214 -0.4241300 0.7645786 0.4241300 0.7645786 0.4241300 0.2354214 -0.4241300
1326753 0.2276839 -0.4192027 0.7723161 0.4192027 0.7723161 0.4192027 0.2276839 -0.4192027
1355924 0.2201276 -0.4141947 0.7798724 0.4141947 0.7798724 0.4141947 0.2201276 -0.4141947
1385737 0.2127530 -0.4091135 0.7872470 0.4091135 0.7872470 0.4091135 0.2127530 -0.4091135
1416205 0.2055604 -0.4039666 0.7944396 0.4039666 0.7944396 0.4039666 0.2055604 -0.4039666
1447343 0.1985498 -0.3987610 0.8014502 0.3987610 0.8014502 0.3987610 0.1985498 -0.3987610
1479166 0.1917206 -0.3935040 0.8082794 0.3935040 0.8082794 0.3935040 0.1917206 -0.3935040
1511688 0.1850721 -0.3882023 0.8149279 0.3882023 0.8149279 0.3882023 0.1850721 -0.3882023
1544926 0.1786034 -0.3828627 0.8213966 0.3828627 0.8213966 0.3828627 0.1786034 -0.3828627
1578894 0.1723130 -0.3774917 0.8276870 0.3774917 0.8276870 0.3774917 0.1723130 -0.3774917
1613609 0.1661994 -0.3720954 0.8338006 0.3720954 0.8338006 0.3720954 0.1661994 -0.3720954
1649087 0.1602608 -0.3666800 0.8397392 0.3666800 0.8397392 0.3666800 0.1602608 -0.3666800
1685346 0.1544952 -0.3612513 0.8455048 0.3612513 0.8455048 0.3612513 0.1544952 -0.3612513
1722402 0.1489003 -0.3558149 0.8510997 0.3558149 0.8510997 0.3558149 0.1489003 -0.3558149
1760272 0.1434738 -0.3503762 0.8565262 0.3503762 0.8565262 0.3503762 0.1434738 -0.3503762
1798975 0.1382130 -0.3449402 0.8617870 0.3449402 0.8617870 0.3449402 0.1382130 -0.3449402
1838529 0.1331152 -0.3395120 0.8668848 0.3395120 0.8668848 0.3395120 0.1331152 -0.3395120
1878953 0.1281775 -0.3340960 0.8718225 0.3340960 0.8718225 0.3340960 0.1281775 -0.3340960
1920266 0.1233970 -0.3286968 0.8766030 0.3286968 0.8766030 0.3286968 0.1233970 -0.3286968
1962487 0.1187707 -0.3233185 0.8812293 0.3233185 0.8812293 0.3233185 0.1187707 -0.3233185
2005636 0.1142952 -0.3179651 0.8857048 0.3179651 0.8857048 0.3179651 0.1142952 -0.3179651
2049734 0.1099675 -0.3126403 0.8900325 0.3126403 0.8900325 0.3126403 0.1099675 -0.3126403
2094801 0.1057841 -0.3073476 0.8942159 0.3073476 0.8942159 0.3073476 0.1057841 -0.3073476
2140860 0.1017418 -0.3020902 0.8982582 0.3020902 0.8982582 0.3020902 0.1017418 -0.3020902
2187931 0.0978372 -0.2968713 0.9021628 0.2968713 0.9021628 0.2968713 0.0978372 -0.2968713
2236037 0.0940668 -0.2916936 0.9059332 0.2916936 0.9059332 0.2916936 0.0940668 -0.2916936
2285201 0.0904273 -0.2865598 0.9095727 0.2865598 0.9095727 0.2865598 0.0904273 -0.2865598
2335446 0.0869151 -0.2814723 0.9130849 0.2814723 0.9130849 0.2814723 0.0869151 -0.2814723
2386795 0.0835270 -0.2764335 0.9164730 0.2764335 0.9164730 0.2764335 0.0835270 -0.2764335
2439274 0.0802594 -0.2714454 0.9197406 0.2714454 0.9197406 0.2714454 0.0802594 -0.2714454
2492906 0.0771091 -0.2665098 0.9228909 0.2665098 0.9228909 0.2665098 0.0771091 -0.2665098
2547717 0.0740725 -0.2616285 0.9259275 0.2616285 0.9259275 0.2616285 0.0740725 -0.2616285
2603734 0.0711464 -0.2568031 0.9288536 0.2568031 0.9288536 0.2568031 0.0711464 -0.2568031
2660982 0.0683275 -0.2520350 0.9316725 0.2520350 0.9316725 0.2520350 0.0683275 -0.2520350
2719490 0.0656124 -0.2473253 0.9343876 0.2473253 0.9343876 0.2473253 0.0656124 -0.2473253
2779283 0.0629981 -0.2426753 0.9370019 0.2426753 0.9370019 0.2426753 0.0629981 -0.2426753
2840391 0.0604813 -0.2380858 0.9395187 0.2380858 0.9395187 0.2380858 0.0604813 -0.2380858
2902843 0.0580590 -0.2335578 0.9419410 0.2335578 0.9419410 0.2335578 0.0580590 -0.2335578
2966668 0.0557280 -0.2290919 0.9442720 0.2290919 0.9442720 0.2290919 0.0557280 -0.2290919
3031896 0.0534854 -0.2246888 0.9465146 0.2246888 0.9465146 0.2246888 0.0534854 -0.2246888
3098558 0.0513283 -0.2203489 0.9486717 0.2203489 0.9486717 0.2203489 0.0513283 -0.2203489
3166686 0.0492538 -0.2160726 0.9507462 0.2160726 0.9507462 0.2160726 0.0492538 -0.2160726
3236312 0.0472590 -0.2118603 0.9527410 0.2118603 0.9527410 0.2118603 0.0472590 -0.2118603
3307469 0.0453413 -0.2077121 0.9546587 0.2077121 0.9546587 0.2077121 0.0453413 -0.2077121
3380190 0.0434980 -0.2036281 0.9565020 0.2036281 0.9565020 0.2036281 0.0434980 -0.2036281
3454511 0.0417265 -0.1996085 0.9582735 0.1996085 0.9582735 0.1996085 0.0417265 -0.1996085
3530465 0.0400242 -0.1956530 0.9599758 0.1956530 0.9599758 0.1956530 0.0400242 -0.1956530
3608090 0.0383887 -0.1917616 0.9616113 0.1917616 0.9616113 0.1917616 0.0383887 -0.1917616
3687421 0.0368176 -0.1879342 0.9631824 0.1879342 0.9631824 0.1879342 0.0368176 -0.1879342
3768496 0.0353086 -0.1841704 0.9646914 0.1841704 0.9646914 0.1841704 0.0353086 -0.1841704
3851354 0.0338594 -0.1804701 0.9661406 0.1804701 0.9661406 0.1804701 0.0338594 -0.1804701
3936034 0.0324677 -0.1768328 0.9675323 0.1768328 0.9675323 0.1768328 0.0324677 -0.1768328
4022575 0.0311316 -0.1732581 0.9688684 0.1732581 0.9688684 0.1732581 0.0311316 -0.1732581
4111020 0.0298489 -0.1697456 0.9701511 0.1697456 0.9701511 0.1697456 0.0298489 -0.1697456
4201409 0.0286176 -0.1662948 0.9713824 0.1662948 0.9713824 0.1662948 0.0286176 -0.1662948
4293785 0.0274358 -0.1629052 0.9725642 0.1629052 0.9725642 0.1629052 0.0274358 -0.1629052
4388193 0.0263016 -0.1595762 0.9736984 0.1595762 0.9736984 0.1595762 0.0263016 -0.1595762
4484676 0.0252132 -0.1563072 0.9747868 0.1563072 0.9747868 0.1563072 0.0252132 -0.1563072
4583281 0.0241689 -0.1530977 0.9758311 0.1530977 0.9758311 0.1530977 0.0241689 -0.1530977
4684054 0.0231669 -0.1499469 0.9768331 0.1499469 0.9768331 0.1499469 0.0231669 -0.1499469
4787042 0.0222057 -0.1468542 0.9777943 0.1468542 0.9777943 0.1468542 0.0222057 -0.1468542
4892295 0.0212836 -0.1438189 0.9787164 0.1438189 0.9787164 0.1438189 0.0212836 -0.1438189
4999862 0.0203991 -0.1408404 0.9796009 0.1408404 0.9796009 0.1408404 0.0203991 -0.1408404
5109794 0.0195508 -0.1379178 0.9804492 0.1379178 0.9804492 0.1379178 0.0195508 -0.1379178
5222143 0.0187373 -0.1350505 0.9812627 0.1350505 0.9812627 0.1350505 0.0187373 -0.1350505
5336962 0.0179571 -0.1322376 0.9820429 0.1322376 0.9820429 0.1322376 0.0179571 -0.1322376
5454306 0.0172090 -0.1294785 0.9827910 0.1294785 0.9827910 0.1294785 0.0172090 -0.1294785
5574230 0.0164917 -0.1267724 0.9835083 0.1267724 0.9835083 0.1267724 0.0164917 -0.1267724
5696791 0.0158040 -0.1241185 0.9841960 0.1241185 0.9841960 0.1241185 0.0158040 -0.1241185
5822046 0.0151446 -0.1215160 0.9848554 0.1215160 0.9848554 0.1215160 0.0151446 -0.1215160
5950055 0.0145125 -0.1189641 0.9854875 0.1189641 0.9854875 0.1189641 0.0145125 -0.1189641
6080879 0.0139066 -0.1164621 0.9860934 0.1164621 0.9860934 0.1164621 0.0139066 -0.1164621
6214580 0.0133258 -0.1140091 0.9866742 0.1140091 0.9866742 0.1140091 0.0133258 -0.1140091
6351220 0.0127691 -0.1116045 0.9872309 0.1116045 0.9872309 0.1116045 0.0127691 -0.1116045
6490864 0.0122355 -0.1092472 0.9877645 0.1092472 0.9877645 0.1092472 0.0122355 -0.1092472
6633579 0.0117241 -0.1069367 0.9882759 0.1069367 0.9882759 0.1069367 0.0117241 -0.1069367
6779431 0.0112340 -0.1046721 0.9887660 0.1046721 0.9887660 0.1046721 0.0112340 -0.1046721
6928491 0.0107643 -0.1024527 0.9892357 0.1024527 0.9892357 0.1024527 0.0107643 -0.1024527
7080828 0.0103143 -0.1002776 0.9896857 0.1002776 0.9896857 0.1002776 0.0103143 -0.1002776
7236514 0.0098830 -0.0981460 0.9901170 0.0981460 0.9901170 0.0981460 0.0098830 -0.0981460
7395623 0.0094698 -0.0960573 0.9905302 0.0960573 0.9905302 0.0960573 0.0094698 -0.0960573
7558231 0.0090738 -0.0940106 0.9909262 0.0940106 0.9909262 0.0940106 0.0090738 -0.0940106
7724414 0.0086945 -0.0920052 0.9913055 0.0920052 0.9913055 0.0920052 0.0086945 -0.0920052
7894251 0.0083310 -0.0900403 0.9916690 0.0900403 0.9916690 0.0900403 0.0083310 -0.0900403
8067822 0.0079829 -0.0881152 0.9920171 0.0881152 0.9920171 0.0881152 0.0079829 -0.0881152
8245209 0.0076493 -0.0862292 0.9923507 0.0862292 0.9923507 0.0862292 0.0076493 -0.0862292
8426497 0.0073298 -0.0843815 0.9926702 0.0843815 0.9926702 0.0843815 0.0073298 -0.0843815
8611770 0.0070237 -0.0825715 0.9929763 0.0825715 0.9929763 0.0825715 0.0070237 -0.0825715
8801117 0.0067305 -0.0807983 0.9932695 0.0807983 0.9932695 0.0807983 0.0067305 -0.0807983
8994628 0.0064496 -0.0790613 0.9935504 0.0790613 0.9935504 0.0790613 0.0064496 -0.0790613
9192393 0.0061807 -0.0773598 0.9938193 0.0773598 0.9938193 0.0773598 0.0061807 -0.0773598
9394506 0.0059230 -0.0756932 0.9940770 0.0756932 0.9940770 0.0756932 0.0059230 -0.0756932
9601063 0.0056763 -0.0740607 0.9943237 0.0740607 0.9943237 0.0740607 0.0056763 -0.0740607
9812162 0.0054400 -0.0724616 0.9945600 0.0724616 0.9945600 0.0724616 0.0054400 -0.0724616
10027902 0.0052137 -0.0708954 0.9947863 0.0708954 0.9947863 0.0708954 0.0052137 -0.0708954
10248386 0.0049969 -0.0693613 0.9950031 0.0693613 0.9950031 0.0693613 0.0049969 -0.0693613
10473717 0.0047894 -0.0678588 0.9952106 0.0678588 0.9952106 0.0678588 0.0047894 -0.0678588
10704003 0.0045907 -0.0663871 0.9954093 0.0663871 0.9954093 0.0663871 0.0045907 -0.0663871
10939352 0.0044004 -0.0649458 0.9955996 0.0649458 0.9955996 0.0649458 0.0044004 -0.0649458
11179876 0.0042182 -0.0635341 0.9957818 0.0635341 0.9957818 0.0635341 0.0042182 -0.0635341
11425688 0.0040438 -0.0621515 0.9959562 0.0621515 0.9959562 0.0621515 0.0040438 -0.0621515
11676904 0.0038767 -0.0607974 0.9961233 0.0607974 0.9961233 0.0607974 0.0038767 -0.0607974
11933645 0.0037169 -0.0594711 0.9962831 0.0594711 0.9962831 0.0594711 0.0037169 -0.0594711
12196030 0.0035638 -0.0581722 0.9964362 0.0581722 0.9964362 0.0581722 0.0035638 -0.0581722
12464184 0.0034173 -0.0569001 0.9965827 0.0569001 0.9965827 0.0569001 0.0034173 -0.0569001
12738235 0.0032770 -0.0556542 0.9967230 0.0556542 0.9967230 0.0556542 0.0032770 -0.0556542
13018310 0.0031428 -0.0544339 0.9968572 0.0544339 0.9968572 0.0544339 0.0031428 -0.0544339
13304544 0.0030143 -0.0532388 0.9969857 0.0532388 0.9969857 0.0532388 0.0030143 -0.0532388
13597071 0.0028913 -0.0520683 0.9971087 0.0520683 0.9971087 0.0520683 0.0028913 -0.0520683
13896030 0.0027736 -0.0509219 0.9972264 0.0509219 0.9972264 0.0509219 0.0027736 -0.0509219
14201563 0.0026610 -0.0497991 0.9973390 0.0497991 0.9973390 0.0497991 0.0026610 -0.0497991
14513813 0.0025532 -0.0486994 0.9974468 0.0486994 0.9974468 0.0486994 0.0025532 -0.0486994
14832928 0.0024501 -0.0476223 0.9975499 0.0476223 0.9975499 0.0476223 0.0024501 -0.0476223
15159060 0.0023514 -0.0465674 0.9976486 0.0465674 0.9976486 0.0465674 0.0023514 -0.0465674
15492362 0.0022571 -0.0455341 0.9977429 0.0455341 0.9977429 0.0455341 0.0022571 -0.0455341
15832993 0.0021668 -0.0445219 0.9978332 0.0445219 0.9978332 0.0445219 0.0021668 -0.0445219
16181113 0.0020804 -0.0435306 0.9979196 0.0435306 0.9979196 0.0435306 0.0020804 -0.0435306
16536888 0.0019978 -0.0425595 0.9980022 0.0425595 0.9980022 0.0425595 0.0019978 -0.0425595
16900485 0.0019188 -0.0416083 0.9980812 0.0416083 0.9980812 0.0416083 0.0019188 -0.0416083
17272076 0.0018433 -0.0406766 0.9981567 0.0406766 0.9981567 0.0406766 0.0018433 -0.0406766
17651837 0.0017711 -0.0397638 0.9982289 0.0397638 0.9982289 0.0397638 0.0017711 -0.0397638
18039948 0.0017020 -0.0388697 0.9982980 0.0388697 0.9982980 0.0388697 0.0017020 -0.0388697
18436593 0.0016360 -0.0379937 0.9983640 0.0379937 0.9983640 0.0379937 0.0016360 -0.0379937
18841959 0.0015729 -0.0371356 0.9984271 0.0371356 0.9984271 0.0371356 0.0015729 -0.0371356
19256237 0.0015126 -0.0362948 0.9984874 0.0362948 0.9984874 0.0362948 0.0015126 -0.0362948
19679624 0.0014550 -0.0354711 0.9985450 0.0354711 0.9985450 0.0354711 0.0014550 -0.0354711
20112321 0.0013999 -0.0346640 0.9986001 0.0346640 0.9986001 0.0346640 0.0013999 -0.0346640
20554530 0.0013473 -0.0338732 0.9986527 0.0338732 0.9986527 0.0338732 0.0013473 -0.0338732
21006463 0.0012971 -0.0330984 0.9987029 0.0330984 0.9987029 0.0330984 0.0012971 -0.0330984
21468333 0.0012491 -0.0323391 0.9987509 0.0323391 0.9987509 0.0323391 0.0012491 -0.0323391
21940357 0.0012033 -0.0315950 0.9987967 0.0315950 0.9987967 0.0315950 0.0012033 -0.0315950
22422760 0.0011596 -0.0308658 0.9988404 0.0308658 0.9988404 0.0308658 0.0011596 -0.0308658
22915770 0.0011179 -0.0301512 0.9988821 0.0301512 0.9988821 0.0301512 0.0011179 -0.0301512
23419619 0.0010780 -0.0294508 0.9989220 0.0294508 0.9989220 0.0294508 0.0010780 -0.0294508
23934547 0.0010400 -0.0287642 0.9989600 0.0287642 0.9989600 0.0287642 0.0010400 -0.0287642
24460796 0.0010038 -0.0280913 0.9989962 0.0280913 0.9989962 0.0280913 0.0010038 -0.0280913
24998616 0.0009692 -0.0274316 0.9990308 0.0274316 0.9990308 0.0274316 0.0009692 -0.0274316
25548261 0.0009363 -0.0267849 0.9990637 0.0267849 0.9990637 0.0267849 0.0009363 -0.0267849
26109991 0.0009049 -0.0261509 0.9990951 0.0261509 0.9990951 0.0261509 0.0009049 -0.0261509
26684072 0.0008749 -0.0255292 0.9991251 0.0255292 0.9991251 0.0255292 0.0008749 -0.0255292
27270775 0.0008464 -0.0249196 0.9991536 0.0249196 0.9991536 0.0249196 0.0008464 -0.0249196
27870378 0.0008193 -0.0243218 0.9991807 0.0243218 0.9991807 0.0243218 0.0008193 -0.0243218
28483164 0.0007934 -0.0237356 0.9992066 0.0237356 0.9992066 0.0237356 0.0007934 -0.0237356
29109424 0.0007688 -0.0231606 0.9992312 0.0231606 0.9992312 0.0231606 0.0007688 -0.0231606
29749453 0.0007454 -0.0225966 0.9992546 0.0225966 0.9992546 0.0225966 0.0007454 -0.0225966
30403555 0.0007231 -0.0220433 0.9992769 0.0220433 0.9992769 0.0220433 0.0007231 -0.0220433
31072038 0.0007019 -0.0215005 0.9992981 0.0215005 0.9992981 0.0215005 0.0007019 -0.0215005
31755220 0.0006818 -0.0209679 0.9993182 0.0209679 0.9993182 0.0209679 0.0006818 -0.0209679
32453422 0.0006627 -0.0204453 0.9993373 0.0204453 0.9993373 0.0204453 0.0006627 -0.0204453
33166976 0.0006445 -0.0199325 0.9993555 0.0199325 0.9993555 0.0199325 0.0006445 -0.0199325
33896219 0.0006273 -0.0194291 0.9993727 0.0194291 0.9993727 0.0194291 0.0006273 -0.0194291
34641496 0.0006110 -0.0189349 0.9993890 0.0189349 0.9993890 0.0189349 0.0006110 -0.0189349
35403159 0.0005955 -0.0184498 0.9994045 0.0184498 0.9994045 0.0184498 0.0005955 -0.0184498
36181569 0.0005808 -0.0179734 0.9994192 0.0179734 0.9994192 0.0179734 0.0005808 -0.0179734
36977093 0.0005669 -0.0175057 0.9994331 0.0175057 0.9994331 0.0175057 0.0005669 -0.0175057
37790109 0.0005537 -0.0170463 0.9994463 0.0170463 0.9994463 0.0170463 0.0005537 -0.0170463
38621001 0.0005412 -0.0165950 0.9994588 0.0165950 0.9994588 0.0165950 0.0005412 -0.0165950
39470161 0.0005295 -0.0161517 0.9994705 0.0161517 0.9994705 0.0161517 0.0005295 -0.0161517
40337993 0.0005184 -0.0157160 0.9994816 0.0157160 0.9994816 0.0157160 0.0005184 -0.0157160
41224905 0.0005079 -0.0152879 0.9994921 0.0152879 0.9994921 0.0152879 0.0005079 -0.0152879
42131317 0.0004980 -0.0148671 0.9995020 0.0148671 0.9995020 0.0148671 0.0004980 -0.0148671
43057659 0.0004887 -0.0144533 0.9995113 0.0144533 0.9995113 0.0144533 0.0004887 -0.0144533
44004369 0.0004799 -0.0140465 0.9995201 0.0140465 0.9995201 0.0140465 0.0004799 -0.0140465
44971893 0.0004717 -0.0136465 0.9995283 0.0136465 0.9995283 0.0136465 0.0004717 -0.0136465
45960691 0.0004639 -0.0132529 0.9995361 0.0132529 0.9995361 0.0132529 0.0004639 -0.0132529
46971230 0.0004567 -0.0128657 0.9995433 0.0128657 0.9995433 0.0128657 0.0004567 -0.0128657
48003987 0.0004499 -0.0124846 0.9995501 0.0124846 0.9995501 0.0124846 0.0004499 -0.0124846
49059451 0.0004436 -0.0121096 0.9995564 0.0121096 0.9995564 0.0121096 0.0004436 -0.0121096
50138122 0.0004377 -0.0117403 0.9995623 0.0117403 0.9995623 0.0117403 0.0004377 -0.0117403
51240510 0.0004322 -0.0113767 0.9995678 0.0113767 0.9995678 0.0113767 0.0004322 -0.0113767
52367136 0.0004272 -0.0110185 0.9995728 0.0110185 0.9995728 0.0110185 0.0004272 -0.0110185
53518533 0.0004225 -0.0106655 0.9995775 0.0106655 0.9995775 0.0106655 0.0004225 -0.0106655
54695245 0.0004182 -0.0103177 0.9995818 0.0103177 0.9995818 0.0103177 0.0004182 -0.0103177
55897831 0.0004142 -0.0099749 0.9995858 0.0099749 0.9995858 0.0099749 0.0004142 -0.0099749
57126857 0.0004106 -0.0096368 0.9995894 0.0096368 0.9995894 0.0096368 0.0004106 -0.0096368
58382906 0.0004073 -0.0093033 0.9995927 0.0093033 0.9995927 0.0093033 0.0004073 -0.0093033
59666572 0.0004043 -0.0089743 0.9995957 0.0089743 0.9995957 0.0089743 0.0004043 -0.0089743
60978462 0.0004017 -0.0086496 0.9995983 0.0086496 0.9995983 0.0086496 0.0004017 -0.0086496
62319196 0.0003994 -0.0083290 0.9996006 0.0083290 0.9996006 0.0083290 0.0003994 -0.0083290
63689409 0.0003973 -0.0080124 0.9996027 0.0080124 0.9996027 0.0080124 0.0003973 -0.0080124
65089750 0.0003956 -0.0076997 0.9996044 0.0076997 0.9996044 0.0076997 0.0003956 -0.0076997
66520879 0.0003941 -0.0073907 0.9996059 0.0073907 0.9996059 0.0073907 0.0003941 -0.0073907
67983474 0.0003929 -0.0070851 0.9996071 0.0070851 0.9996071 0.0070851 0.0003929 -0.0070851
69478228 0.0003920 -0.0067830 0.9996080 0.0067830 0.9996080 0.0067830 0.0003920 -0.0067830
71005847 0.0003914 -0.0064841 0.9996086 0.0064841 0.9996086 0.0064841 0.0003914 -0.0064841
72567054 0.0003910 -0.0061884 0.9996090 0.0061884 0.9996090 0.0061884 0.0003910 -0.0061884
74162587 0.0003908 -0.0058956 0.9996092 0.0058956 0.9996092 0.0058956 0.0003908 -0.0058956
75793201 0.0003910 -0.0056056 0.9996090 0.0056056 0.9996090 0.0056056 0.0003910 -0.0056056
77459667 0.0003914 -0.0053182 0.9996086 0.0053182 0.9996086 0.0053182 0.0003914 -0.0053182
79162774 0.0003920 -0.0050334 0.9996080 0.0050334 0.9996080 0.0050334 0.0003920 -0.0050334
80903327 0.0003929 -0.0047511 0.9996071 0.0047511 0.9996071 0.0047511 0.0003929 -0.0047511
82682150 0.0003940 -0.0044709 0.9996060 0.0044709 0.9996060 0.0044709 0.0003940 -0.0044709
84500083 0.0003954 -0.0041929 0.9996046 0.0041929 0.9996046 0.0041929 0.0003954 -0.0041929
86357988 0.0003971 -0.0039169 0.9996029 0.0039169 0.9996029 0.0039169 0.0003971 -0.0039169
88256743 0.0003990 -0.0036428 0.9996010 0.0036428 0.9996010 0.0036428 0.0003990 -0.0036428
90197245 0.0004012 -0.0033703 0.9995988 0.0033703 0.9995988 0.0033703 0.0004012 -0.0033703
92180413 0.0004036 -0.0030995 0.9995964 0.0030995 0.9995964 0.0030995 0.0004036 -0.0030995
94207185 0.0004063 -0.0028301 0.9995937 0.0028301 0.9995937 0.0028301 0.0004063 -0.0028301
96278520 0.0004093 -0.0025620 0.9995907 0.0025620 0.9995907 0.0025620 0.0004093 -0.0025620
98395398 0.0004125 -0.0022952 0.9995875 0.0022952 0.9995875 0.0022952 0.0004125 -0.0022952
100558819 0.0004161 -0.0020294 0.9995839 0.0020294 0.9995839 0.0020294 0.0004161 -0.0020294
102769807 0.0004199 -0.0017645 0.9995801 0.0017645 0.9995801 0.0017645 0.0004199 -0.0017645
105029408 0.0004240 -0.0015004 0.9995760 0.0015004 0.9995760 0.0015004 0.0004240 -0.0015004
107338692 0.0004284 -0.0012370 0.9995716 0.0012370 0.9995716 0.0012370 0.0004284 -0.0012370
