!Murata Part Number: GRM31A5C2J220JW01
!These Parameters are Measured in Series Mode Connection
!Data Generated on Mar 30, 2021
!       o--ll--o
!Port1            Port2
!       o------o
!Operation Temp=25[degC], DC Bias Voltage=0[V]
!Freq. Start=100[MHz] Stop=3[GHz] 401[Steps]
# Hz S RI R 50
!Freq.(Hz) S11(Real) S11(Imag) S21(Real) S21(Imag) S12(Real) S12(Imag) S22(Real) S22(Imag)
100000000 0.3408419 -0.4729174 0.6591581 0.4729174 0.6591581 0.4729174 0.3408419 -0.4729174
107250000 0.3097884 -0.4612520 0.6902116 0.4612520 0.6902116 0.4612520 0.3097884 -0.4612520
114500000 0.2821902 -0.4488314 0.7178098 0.4488314 0.7178098 0.4488314 0.2821902 -0.4488314
121750000 0.2576509 -0.4360266 0.7423491 0.4360266 0.7423491 0.4360266 0.2576509 -0.4360266
129000000 0.2358063 -0.4231071 0.7641937 0.4231071 0.7641937 0.4231071 0.2358063 -0.4231071
136250000 0.2163286 -0.4102655 0.7836714 0.4102655 0.7836714 0.4102655 0.2163286 -0.4102655
143500000 0.1989274 -0.3976367 0.8010726 0.3976367 0.8010726 0.3976367 0.1989274 -0.3976367
150750000 0.1833474 -0.3853128 0.8166526 0.3853128 0.8166526 0.3853128 0.1833474 -0.3853128
158000000 0.1693656 -0.3733540 0.8306344 0.3733540 0.8306344 0.3733540 0.1693656 -0.3733540
165250000 0.1567878 -0.3617975 0.8432122 0.3617975 0.8432122 0.3617975 0.1567878 -0.3617975
172500000 0.1454457 -0.3506634 0.8545543 0.3506634 0.8545543 0.3506634 0.1454457 -0.3506634
179750000 0.1351928 -0.3399595 0.8648072 0.3399595 0.8648072 0.3399595 0.1351928 -0.3399595
187000000 0.1259021 -0.3296850 0.8740979 0.3296850 0.8740979 0.3296850 0.1259021 -0.3296850
194250000 0.1174635 -0.3198330 0.8825365 0.3198330 0.8825365 0.3198330 0.1174635 -0.3198330
201500000 0.1097810 -0.3103924 0.8902190 0.3103924 0.8902190 0.3103924 0.1097810 -0.3103924
208750000 0.1027709 -0.3013492 0.8972291 0.3013492 0.8972291 0.3013492 0.1027709 -0.3013492
216000000 0.0963605 -0.2926881 0.9036395 0.2926881 0.9036395 0.2926881 0.0963605 -0.2926881
223250000 0.0904859 -0.2843924 0.9095141 0.2843924 0.9095141 0.2843924 0.0904859 -0.2843924
230500000 0.0850913 -0.2764452 0.9149087 0.2764452 0.9149087 0.2764452 0.0850913 -0.2764452
237750000 0.0801276 -0.2688295 0.9198724 0.2688295 0.9198724 0.2688295 0.0801276 -0.2688295
245000000 0.0755517 -0.2615288 0.9244483 0.2615288 0.9244483 0.2615288 0.0755517 -0.2615288
252250000 0.0713255 -0.2545268 0.9286745 0.2545268 0.9286745 0.2545268 0.0713255 -0.2545268
259500000 0.0674154 -0.2478078 0.9325846 0.2478078 0.9325846 0.2478078 0.0674154 -0.2478078
266750000 0.0637915 -0.2413568 0.9362085 0.2413568 0.9362085 0.2413568 0.0637915 -0.2413568
274000000 0.0604273 -0.2351597 0.9395727 0.2351597 0.9395727 0.2351597 0.0604273 -0.2351597
281250000 0.0572994 -0.2292027 0.9427006 0.2292027 0.9427006 0.2292027 0.0572994 -0.2292027
288500000 0.0543866 -0.2234731 0.9456134 0.2234731 0.9456134 0.2234731 0.0543866 -0.2234731
295750000 0.0516702 -0.2179588 0.9483298 0.2179588 0.9483298 0.2179588 0.0516702 -0.2179588
303000000 0.0491335 -0.2126483 0.9508665 0.2126483 0.9508665 0.2126483 0.0491335 -0.2126483
310250000 0.0467612 -0.2075309 0.9532388 0.2075309 0.9532388 0.2075309 0.0467612 -0.2075309
317500000 0.0445399 -0.2025964 0.9554601 0.2025964 0.9554601 0.2025964 0.0445399 -0.2025964
324750000 0.0424574 -0.1978352 0.9575426 0.1978352 0.9575426 0.1978352 0.0424574 -0.1978352
332000000 0.0405025 -0.1932384 0.9594975 0.1932384 0.9594975 0.1932384 0.0405025 -0.1932384
339250000 0.0386654 -0.1887977 0.9613346 0.1887977 0.9613346 0.1887977 0.0386654 -0.1887977
346500000 0.0369370 -0.1845051 0.9630630 0.1845051 0.9630630 0.1845051 0.0369370 -0.1845051
353750000 0.0353091 -0.1803531 0.9646909 0.1803531 0.9646909 0.1803531 0.0353091 -0.1803531
361000000 0.0337743 -0.1763347 0.9662257 0.1763347 0.9662257 0.1763347 0.0337743 -0.1763347
368250000 0.0323258 -0.1724435 0.9676742 0.1724435 0.9676742 0.1724435 0.0323258 -0.1724435
375500000 0.0309574 -0.1686732 0.9690426 0.1686732 0.9690426 0.1686732 0.0309574 -0.1686732
382750000 0.0296636 -0.1650180 0.9703364 0.1650180 0.9703364 0.1650180 0.0296636 -0.1650180
390000000 0.0284390 -0.1614725 0.9715610 0.1614725 0.9715610 0.1614725 0.0284390 -0.1614725
397250000 0.0272791 -0.1580314 0.9727209 0.1580314 0.9727209 0.1580314 0.0272791 -0.1580314
404500000 0.0261795 -0.1546900 0.9738205 0.1546900 0.9738205 0.1546900 0.0261795 -0.1546900
411750000 0.0251362 -0.1514436 0.9748638 0.1514436 0.9748638 0.1514436 0.0251362 -0.1514436
419000000 0.0241456 -0.1482880 0.9758544 0.1482880 0.9758544 0.1482880 0.0241456 -0.1482880
426250000 0.0232043 -0.1452191 0.9767957 0.1452191 0.9767957 0.1452191 0.0232043 -0.1452191
433500000 0.0223092 -0.1422331 0.9776908 0.1422331 0.9776908 0.1422331 0.0223092 -0.1422331
440750000 0.0214574 -0.1393262 0.9785426 0.1393262 0.9785426 0.1393262 0.0214574 -0.1393262
448000000 0.0206464 -0.1364952 0.9793536 0.1364952 0.9793536 0.1364952 0.0206464 -0.1364952
455250000 0.0198736 -0.1337368 0.9801264 0.1337368 0.9801264 0.1337368 0.0198736 -0.1337368
462500000 0.0191367 -0.1310478 0.9808633 0.1310478 0.9808633 0.1310478 0.0191367 -0.1310478
469750000 0.0184338 -0.1284254 0.9815662 0.1284254 0.9815662 0.1284254 0.0184338 -0.1284254
477000000 0.0177628 -0.1258669 0.9822372 0.1258669 0.9822372 0.1258669 0.0177628 -0.1258669
484250000 0.0171220 -0.1233696 0.9828780 0.1233696 0.9828780 0.1233696 0.0171220 -0.1233696
491500000 0.0165095 -0.1209311 0.9834905 0.1209311 0.9834905 0.1209311 0.0165095 -0.1209311
498750000 0.0159240 -0.1185491 0.9840760 0.1185491 0.9840760 0.1185491 0.0159240 -0.1185491
506000000 0.0153639 -0.1162212 0.9846361 0.1162212 0.9846361 0.1162212 0.0153639 -0.1162212
513250000 0.0148278 -0.1139455 0.9851722 0.1139455 0.9851722 0.1139455 0.0148278 -0.1139455
520500000 0.0143146 -0.1117198 0.9856854 0.1117198 0.9856854 0.1117198 0.0143146 -0.1117198
527750000 0.0138229 -0.1095423 0.9861771 0.1095423 0.9861771 0.1095423 0.0138229 -0.1095423
535000000 0.0133517 -0.1074111 0.9866483 0.1074111 0.9866483 0.1074111 0.0133517 -0.1074111
542250000 0.0129000 -0.1053246 0.9871000 0.1053246 0.9871000 0.1053246 0.0129000 -0.1053246
549500000 0.0124667 -0.1032811 0.9875333 0.1032811 0.9875333 0.1032811 0.0124667 -0.1032811
556750000 0.0120510 -0.1012790 0.9879490 0.1012790 0.9879490 0.1012790 0.0120510 -0.1012790
564000000 0.0116520 -0.0993168 0.9883480 0.0993168 0.9883480 0.0993168 0.0116520 -0.0993168
571250000 0.0112689 -0.0973932 0.9887311 0.0973932 0.9887311 0.0973932 0.0112689 -0.0973932
578500000 0.0109009 -0.0955066 0.9890991 0.0955066 0.9890991 0.0955066 0.0109009 -0.0955066
585750000 0.0105474 -0.0936560 0.9894526 0.0936560 0.9894526 0.0936560 0.0105474 -0.0936560
593000000 0.0102076 -0.0918399 0.9897924 0.0918399 0.9897924 0.0918399 0.0102076 -0.0918399
600250000 0.0098809 -0.0900572 0.9901191 0.0900572 0.9901191 0.0900572 0.0098809 -0.0900572
607500000 0.0095668 -0.0883068 0.9904332 0.0883068 0.9904332 0.0883068 0.0095668 -0.0883068
614750000 0.0092647 -0.0865876 0.9907353 0.0865876 0.9907353 0.0865876 0.0092647 -0.0865876
622000000 0.0089740 -0.0848986 0.9910260 0.0848986 0.9910260 0.0848986 0.0089740 -0.0848986
629250000 0.0086943 -0.0832387 0.9913057 0.0832387 0.9913057 0.0832387 0.0086943 -0.0832387
636500000 0.0084250 -0.0816070 0.9915750 0.0816070 0.9915750 0.0816070 0.0084250 -0.0816070
643750000 0.0081658 -0.0800027 0.9918342 0.0800027 0.9918342 0.0800027 0.0081658 -0.0800027
651000000 0.0079162 -0.0784248 0.9920838 0.0784248 0.9920838 0.0784248 0.0079162 -0.0784248
658250000 0.0076758 -0.0768725 0.9923242 0.0768725 0.9923242 0.0768725 0.0076758 -0.0768725
665500000 0.0074443 -0.0753449 0.9925557 0.0753449 0.9925557 0.0753449 0.0074443 -0.0753449
672750000 0.0072212 -0.0738414 0.9927788 0.0738414 0.9927788 0.0738414 0.0072212 -0.0738414
680000000 0.0070063 -0.0723612 0.9929937 0.0723612 0.9929937 0.0723612 0.0070063 -0.0723612
687250000 0.0067992 -0.0709036 0.9932008 0.0709036 0.9932008 0.0709036 0.0067992 -0.0709036
694500000 0.0065996 -0.0694678 0.9934004 0.0694678 0.9934004 0.0694678 0.0065996 -0.0694678
701750000 0.0064072 -0.0680533 0.9935928 0.0680533 0.9935928 0.0680533 0.0064072 -0.0680533
709000000 0.0062218 -0.0666593 0.9937782 0.0666593 0.9937782 0.0666593 0.0062218 -0.0666593
716250000 0.0060431 -0.0652854 0.9939569 0.0652854 0.9939569 0.0652854 0.0060431 -0.0652854
723500000 0.0058707 -0.0639308 0.9941293 0.0639308 0.9941293 0.0639308 0.0058707 -0.0639308
730750000 0.0057046 -0.0625952 0.9942954 0.0625952 0.9942954 0.0625952 0.0057046 -0.0625952
738000000 0.0055445 -0.0612778 0.9944555 0.0612778 0.9944555 0.0612778 0.0055445 -0.0612778
745250000 0.0053901 -0.0599782 0.9946099 0.0599782 0.9946099 0.0599782 0.0053901 -0.0599782
752500000 0.0052413 -0.0586959 0.9947587 0.0586959 0.9947587 0.0586959 0.0052413 -0.0586959
759750000 0.0050979 -0.0574304 0.9949021 0.0574304 0.9949021 0.0574304 0.0050979 -0.0574304
767000000 0.0049596 -0.0561812 0.9950404 0.0561812 0.9950404 0.0561812 0.0049596 -0.0561812
774250000 0.0048263 -0.0549479 0.9951737 0.0549479 0.9951737 0.0549479 0.0048263 -0.0549479
781500000 0.0046979 -0.0537300 0.9953021 0.0537300 0.9953021 0.0537300 0.0046979 -0.0537300
788750000 0.0045741 -0.0525272 0.9954259 0.0525272 0.9954259 0.0525272 0.0045741 -0.0525272
796000000 0.0044548 -0.0513390 0.9955452 0.0513390 0.9955452 0.0513390 0.0044548 -0.0513390
803250000 0.0043399 -0.0501650 0.9956601 0.0501650 0.9956601 0.0501650 0.0043399 -0.0501650
810500000 0.0042292 -0.0490049 0.9957708 0.0490049 0.9957708 0.0490049 0.0042292 -0.0490049
817750000 0.0041226 -0.0478583 0.9958774 0.0478583 0.9958774 0.0478583 0.0041226 -0.0478583
825000000 0.0040199 -0.0467248 0.9959801 0.0467248 0.9959801 0.0467248 0.0040199 -0.0467248
832250000 0.0039211 -0.0456041 0.9960789 0.0456041 0.9960789 0.0456041 0.0039211 -0.0456041
839500000 0.0038260 -0.0444959 0.9961740 0.0444959 0.9961740 0.0444959 0.0038260 -0.0444959
846750000 0.0037345 -0.0433999 0.9962655 0.0433999 0.9962655 0.0433999 0.0037345 -0.0433999
854000000 0.0036465 -0.0423156 0.9963535 0.0423156 0.9963535 0.0423156 0.0036465 -0.0423156
861250000 0.0035619 -0.0412429 0.9964381 0.0412429 0.9964381 0.0412429 0.0035619 -0.0412429
868500000 0.0034806 -0.0401815 0.9965194 0.0401815 0.9965194 0.0401815 0.0034806 -0.0401815
875750000 0.0034024 -0.0391311 0.9965976 0.0391311 0.9965976 0.0391311 0.0034024 -0.0391311
883000000 0.0033274 -0.0380913 0.9966726 0.0380913 0.9966726 0.0380913 0.0033274 -0.0380913
890250000 0.0032554 -0.0370620 0.9967446 0.0370620 0.9967446 0.0370620 0.0032554 -0.0370620
897500000 0.0031864 -0.0360429 0.9968136 0.0360429 0.9968136 0.0360429 0.0031864 -0.0360429
904750000 0.0031202 -0.0350337 0.9968798 0.0350337 0.9968798 0.0350337 0.0031202 -0.0350337
912000000 0.0030567 -0.0340342 0.9969433 0.0340342 0.9969433 0.0340342 0.0030567 -0.0340342
919250000 0.0029960 -0.0330442 0.9970040 0.0330442 0.9970040 0.0330442 0.0029960 -0.0330442
926500000 0.0029379 -0.0320634 0.9970621 0.0320634 0.9970621 0.0320634 0.0029379 -0.0320634
933750000 0.0028823 -0.0310917 0.9971177 0.0310917 0.9971177 0.0310917 0.0028823 -0.0310917
941000000 0.0028292 -0.0301288 0.9971708 0.0301288 0.9971708 0.0301288 0.0028292 -0.0301288
948250000 0.0027786 -0.0291744 0.9972214 0.0291744 0.9972214 0.0291744 0.0027786 -0.0291744
955500000 0.0027303 -0.0282285 0.9972697 0.0282285 0.9972697 0.0282285 0.0027303 -0.0282285
962750000 0.0026844 -0.0272908 0.9973156 0.0272908 0.9973156 0.0272908 0.0026844 -0.0272908
970000000 0.0026407 -0.0263612 0.9973593 0.0263612 0.9973593 0.0263612 0.0026407 -0.0263612
977250000 0.0025991 -0.0254393 0.9974009 0.0254393 0.9974009 0.0254393 0.0025991 -0.0254393
984500000 0.0025598 -0.0245252 0.9974402 0.0245252 0.9974402 0.0245252 0.0025598 -0.0245252
991750000 0.0025225 -0.0236185 0.9974775 0.0236185 0.9974775 0.0236185 0.0025225 -0.0236185
999000000 0.0024873 -0.0227192 0.9975127 0.0227192 0.9975127 0.0227192 0.0024873 -0.0227192
1006250000 0.0024540 -0.0218270 0.9975460 0.0218270 0.9975460 0.0218270 0.0024540 -0.0218270
1013500000 0.0024228 -0.0209418 0.9975772 0.0209418 0.9975772 0.0209418 0.0024228 -0.0209418
1020750000 0.0023934 -0.0200635 0.9976066 0.0200635 0.9976066 0.0200635 0.0023934 -0.0200635
1028000000 0.0023659 -0.0191918 0.9976341 0.0191918 0.9976341 0.0191918 0.0023659 -0.0191918
1035250000 0.0023402 -0.0183268 0.9976598 0.0183268 0.9976598 0.0183268 0.0023402 -0.0183268
1042500000 0.0023163 -0.0174681 0.9976837 0.0174681 0.9976837 0.0174681 0.0023163 -0.0174681
1049750000 0.0022942 -0.0166157 0.9977058 0.0166157 0.9977058 0.0166157 0.0022942 -0.0166157
1057000000 0.0022738 -0.0157694 0.9977262 0.0157694 0.9977262 0.0157694 0.0022738 -0.0157694
1064250000 0.0022550 -0.0149292 0.9977450 0.0149292 0.9977450 0.0149292 0.0022550 -0.0149292
1071500000 0.0022379 -0.0140948 0.9977621 0.0140948 0.9977621 0.0140948 0.0022379 -0.0140948
1078750000 0.0022224 -0.0132662 0.9977776 0.0132662 0.9977776 0.0132662 0.0022224 -0.0132662
1086000000 0.0022085 -0.0124432 0.9977915 0.0124432 0.9977915 0.0124432 0.0022085 -0.0124432
1093250000 0.0021961 -0.0116257 0.9978039 0.0116257 0.9978039 0.0116257 0.0021961 -0.0116257
1100500000 0.0021853 -0.0108136 0.9978147 0.0108136 0.9978147 0.0108136 0.0021853 -0.0108136
1107750000 0.0021759 -0.0100068 0.9978241 0.0100068 0.9978241 0.0100068 0.0021759 -0.0100068
1115000000 0.0021680 -0.0092051 0.9978320 0.0092051 0.9978320 0.0092051 0.0021680 -0.0092051
1122250000 0.0021616 -0.0084086 0.9978384 0.0084086 0.9978384 0.0084086 0.0021616 -0.0084086
1129500000 0.0021565 -0.0076170 0.9978435 0.0076170 0.9978435 0.0076170 0.0021565 -0.0076170
1136750000 0.0021529 -0.0068302 0.9978471 0.0068302 0.9978471 0.0068302 0.0021529 -0.0068302
1144000000 0.0021506 -0.0060482 0.9978494 0.0060482 0.9978494 0.0060482 0.0021506 -0.0060482
1151250000 0.0021497 -0.0052709 0.9978503 0.0052709 0.9978503 0.0052709 0.0021497 -0.0052709
1158500000 0.0021500 -0.0044981 0.9978500 0.0044981 0.9978500 0.0044981 0.0021500 -0.0044981
1165750000 0.0021517 -0.0037298 0.9978483 0.0037298 0.9978483 0.0037298 0.0021517 -0.0037298
1173000000 0.0021546 -0.0029659 0.9978454 0.0029659 0.9978454 0.0029659 0.0021546 -0.0029659
1180250000 0.0021588 -0.0022063 0.9978412 0.0022063 0.9978412 0.0022063 0.0021588 -0.0022063
1187500000 0.0021642 -0.0014509 0.9978358 0.0014509 0.9978358 0.0014509 0.0021642 -0.0014509
1194750000 0.0021709 -0.0006997 0.9978291 0.0006997 0.9978291 0.0006997 0.0021709 -0.0006997
1202000000 0.0021787 0.0000475 0.9978213 -0.0000475 0.9978213 -0.0000475 0.0021787 0.0000475
1209250000 0.0021878 0.0007908 0.9978122 -0.0007908 0.9978122 -0.0007908 0.0021878 0.0007908
1216500000 0.0021979 0.0015302 0.9978021 -0.0015302 0.9978021 -0.0015302 0.0021979 0.0015302
1223750000 0.0022093 0.0022658 0.9977907 -0.0022658 0.9977907 -0.0022658 0.0022093 0.0022658
1231000000 0.0022217 0.0029976 0.9977783 -0.0029976 0.9977783 -0.0029976 0.0022217 0.0029976
1238250000 0.0022353 0.0037258 0.9977647 -0.0037258 0.9977647 -0.0037258 0.0022353 0.0037258
1245500000 0.0022500 0.0044504 0.9977500 -0.0044504 0.9977500 -0.0044504 0.0022500 0.0044504
1252750000 0.0022658 0.0051715 0.9977342 -0.0051715 0.9977342 -0.0051715 0.0022658 0.0051715
1260000000 0.0022826 0.0058891 0.9977174 -0.0058891 0.9977174 -0.0058891 0.0022826 0.0058891
1267250000 0.0023005 0.0066034 0.9976995 -0.0066034 0.9976995 -0.0066034 0.0023005 0.0066034
1274500000 0.0023195 0.0073143 0.9976805 -0.0073143 0.9976805 -0.0073143 0.0023195 0.0073143
1281750000 0.0023394 0.0080220 0.9976606 -0.0080220 0.9976606 -0.0080220 0.0023394 0.0080220
1289000000 0.0023604 0.0087265 0.9976396 -0.0087265 0.9976396 -0.0087265 0.0023604 0.0087265
1296250000 0.0023825 0.0094279 0.9976175 -0.0094279 0.9976175 -0.0094279 0.0023825 0.0094279
1303500000 0.0024055 0.0101262 0.9975945 -0.0101262 0.9975945 -0.0101262 0.0024055 0.0101262
1310750000 0.0024295 0.0108215 0.9975705 -0.0108215 0.9975705 -0.0108215 0.0024295 0.0108215
1318000000 0.0024544 0.0115139 0.9975456 -0.0115139 0.9975456 -0.0115139 0.0024544 0.0115139
1325250000 0.0024804 0.0122034 0.9975196 -0.0122034 0.9975196 -0.0122034 0.0024804 0.0122034
1332500000 0.0025073 0.0128900 0.9974927 -0.0128900 0.9974927 -0.0128900 0.0025073 0.0128900
1339750000 0.0025351 0.0135739 0.9974649 -0.0135739 0.9974649 -0.0135739 0.0025351 0.0135739
1347000000 0.0025639 0.0142550 0.9974361 -0.0142550 0.9974361 -0.0142550 0.0025639 0.0142550
1354250000 0.0025936 0.0149335 0.9974064 -0.0149335 0.9974064 -0.0149335 0.0025936 0.0149335
1361500000 0.0026242 0.0156093 0.9973758 -0.0156093 0.9973758 -0.0156093 0.0026242 0.0156093
1368750000 0.0026557 0.0162826 0.9973443 -0.0162826 0.9973443 -0.0162826 0.0026557 0.0162826
1376000000 0.0026882 0.0169534 0.9973118 -0.0169534 0.9973118 -0.0169534 0.0026882 0.0169534
1383250000 0.0027215 0.0176217 0.9972785 -0.0176217 0.9972785 -0.0176217 0.0027215 0.0176217
1390500000 0.0027557 0.0182875 0.9972443 -0.0182875 0.9972443 -0.0182875 0.0027557 0.0182875
1397750000 0.0027908 0.0189510 0.9972092 -0.0189510 0.9972092 -0.0189510 0.0027908 0.0189510
1405000000 0.0028268 0.0196122 0.9971732 -0.0196122 0.9971732 -0.0196122 0.0028268 0.0196122
1412250000 0.0028636 0.0202711 0.9971364 -0.0202711 0.9971364 -0.0202711 0.0028636 0.0202711
1419500000 0.0029013 0.0209277 0.9970987 -0.0209277 0.9970987 -0.0209277 0.0029013 0.0209277
1426750000 0.0029399 0.0215821 0.9970601 -0.0215821 0.9970601 -0.0215821 0.0029399 0.0215821
1434000000 0.0029793 0.0222344 0.9970207 -0.0222344 0.9970207 -0.0222344 0.0029793 0.0222344
1441250000 0.0030195 0.0228845 0.9969805 -0.0228845 0.9969805 -0.0228845 0.0030195 0.0228845
1448500000 0.0030606 0.0235326 0.9969394 -0.0235326 0.9969394 -0.0235326 0.0030606 0.0235326
1455750000 0.0031025 0.0241787 0.9968975 -0.0241787 0.9968975 -0.0241787 0.0031025 0.0241787
1463000000 0.0031452 0.0248227 0.9968548 -0.0248227 0.9968548 -0.0248227 0.0031452 0.0248227
1470250000 0.0031888 0.0254648 0.9968112 -0.0254648 0.9968112 -0.0254648 0.0031888 0.0254648
1477500000 0.0032331 0.0261050 0.9967669 -0.0261050 0.9967669 -0.0261050 0.0032331 0.0261050
1484750000 0.0032783 0.0267433 0.9967217 -0.0267433 0.9967217 -0.0267433 0.0032783 0.0267433
1492000000 0.0033243 0.0273798 0.9966757 -0.0273798 0.9966757 -0.0273798 0.0033243 0.0273798
1499250000 0.0033711 0.0280145 0.9966289 -0.0280145 0.9966289 -0.0280145 0.0033711 0.0280145
1506500000 0.0034187 0.0286474 0.9965813 -0.0286474 0.9965813 -0.0286474 0.0034187 0.0286474
1513750000 0.0034671 0.0292785 0.9965329 -0.0292785 0.9965329 -0.0292785 0.0034671 0.0292785
1521000000 0.0035162 0.0299080 0.9964838 -0.0299080 0.9964838 -0.0299080 0.0035162 0.0299080
1528250000 0.0035662 0.0305358 0.9964338 -0.0305358 0.9964338 -0.0305358 0.0035662 0.0305358
1535500000 0.0036169 0.0311619 0.9963831 -0.0311619 0.9963831 -0.0311619 0.0036169 0.0311619
1542750000 0.0036685 0.0317865 0.9963315 -0.0317865 0.9963315 -0.0317865 0.0036685 0.0317865
1550000000 0.0037208 0.0324095 0.9962792 -0.0324095 0.9962792 -0.0324095 0.0037208 0.0324095
1557250000 0.0037738 0.0330309 0.9962262 -0.0330309 0.9962262 -0.0330309 0.0037738 0.0330309
1564500000 0.0038277 0.0336509 0.9961723 -0.0336509 0.9961723 -0.0336509 0.0038277 0.0336509
1571750000 0.0038823 0.0342694 0.9961177 -0.0342694 0.9961177 -0.0342694 0.0038823 0.0342694
1579000000 0.0039377 0.0348864 0.9960623 -0.0348864 0.9960623 -0.0348864 0.0039377 0.0348864
1586250000 0.0039938 0.0355020 0.9960062 -0.0355020 0.9960062 -0.0355020 0.0039938 0.0355020
1593500000 0.0040507 0.0361163 0.9959493 -0.0361163 0.9959493 -0.0361163 0.0040507 0.0361163
1600750000 0.0041084 0.0367291 0.9958916 -0.0367291 0.9958916 -0.0367291 0.0041084 0.0367291
1608000000 0.0041668 0.0373407 0.9958332 -0.0373407 0.9958332 -0.0373407 0.0041668 0.0373407
1615250000 0.0042260 0.0379510 0.9957740 -0.0379510 0.9957740 -0.0379510 0.0042260 0.0379510
1622500000 0.0042859 0.0385599 0.9957141 -0.0385599 0.9957141 -0.0385599 0.0042859 0.0385599
1629750000 0.0043466 0.0391677 0.9956534 -0.0391677 0.9956534 -0.0391677 0.0043466 0.0391677
