!Murata Part Number: GRM31C5C2E153JWA3
!These Parameters are Measured in Series Mode Connection
!Data Generated on Mar 30, 2021
!       o--ll--o
!Port1            Port2
!       o------o
!Operation Temp=25[degC], DC Bias Voltage=0[V]
!Freq. Start=1000[kHz] Stop=1000[MHz] 401[Steps]
# Hz S RI R 50
!Freq.(Hz) S11(Real) S11(Imag) S21(Real) S21(Imag) S12(Real) S12(Imag) S22(Real) S22(Imag)
1000000 0.0117098 -0.1071286 0.9882902 0.1071286 0.9882902 0.1071286 0.0117098 -0.1071286
1017419 0.0113188 -0.1053339 0.9886812 0.1053339 0.9886812 0.1053339 0.0113188 -0.1053339
1035142 0.0109407 -0.1035678 0.9890593 0.1035678 0.9890593 0.1035678 0.0109407 -0.1035678
1053174 0.0105752 -0.1018299 0.9894248 0.1018299 0.9894248 0.1018299 0.0105752 -0.1018299
1071519 0.0102218 -0.1001199 0.9897782 0.1001199 0.9897782 0.1001199 0.0102218 -0.1001199
1090184 0.0098802 -0.0984373 0.9901198 0.0984373 0.9901198 0.0984373 0.0098802 -0.0984373
1109175 0.0095500 -0.0967817 0.9904500 0.0967817 0.9904500 0.0967817 0.0095500 -0.0967817
1128496 0.0092308 -0.0951529 0.9907692 0.0951529 0.9907692 0.0951529 0.0092308 -0.0951529
1148154 0.0089222 -0.0935504 0.9910778 0.0935504 0.9910778 0.0935504 0.0089222 -0.0935504
1168154 0.0086240 -0.0919738 0.9913760 0.0919738 0.9913760 0.0919738 0.0086240 -0.0919738
1188502 0.0083356 -0.0904227 0.9916644 0.0904227 0.9916644 0.0904227 0.0083356 -0.0904227
1209205 0.0080570 -0.0888969 0.9919430 0.0888969 0.9919430 0.0888969 0.0080570 -0.0888969
1230269 0.0077876 -0.0873959 0.9922124 0.0873959 0.9922124 0.0873959 0.0077876 -0.0873959
1251699 0.0075272 -0.0859193 0.9924728 0.0859193 0.9924728 0.0859193 0.0075272 -0.0859193
1273503 0.0072756 -0.0844669 0.9927244 0.0844669 0.9927244 0.0844669 0.0072756 -0.0844669
1295687 0.0070323 -0.0830381 0.9929677 0.0830381 0.9929677 0.0830381 0.0070323 -0.0830381
1318257 0.0067972 -0.0816328 0.9932028 0.0816328 0.9932028 0.0816328 0.0067972 -0.0816328
1341220 0.0065700 -0.0802505 0.9934300 0.0802505 0.9934300 0.0802505 0.0065700 -0.0802505
1364583 0.0063504 -0.0788909 0.9936496 0.0788909 0.9936496 0.0788909 0.0063504 -0.0788909
1388353 0.0061382 -0.0775537 0.9938618 0.0775537 0.9938618 0.0775537 0.0061382 -0.0775537
1412538 0.0059331 -0.0762384 0.9940669 0.0762384 0.9940669 0.0762384 0.0059331 -0.0762384
1437143 0.0057349 -0.0749449 0.9942651 0.0749449 0.9942651 0.0749449 0.0057349 -0.0749449
1462177 0.0055433 -0.0736726 0.9944567 0.0736726 0.9944567 0.0736726 0.0055433 -0.0736726
1487647 0.0053582 -0.0724214 0.9946418 0.0724214 0.9946418 0.0724214 0.0053582 -0.0724214
1513561 0.0051793 -0.0711909 0.9948207 0.0711909 0.9948207 0.0711909 0.0051793 -0.0711909
1539927 0.0050064 -0.0699807 0.9949936 0.0699807 0.9949936 0.0699807 0.0050064 -0.0699807
1566751 0.0048393 -0.0687906 0.9951607 0.0687906 0.9951607 0.0687906 0.0048393 -0.0687906
1594043 0.0046778 -0.0676202 0.9953222 0.0676202 0.9953222 0.0676202 0.0046778 -0.0676202
1621810 0.0045218 -0.0664692 0.9954782 0.0664692 0.9954782 0.0664692 0.0045218 -0.0664692
1650061 0.0043711 -0.0653374 0.9956289 0.0653374 0.9956289 0.0653374 0.0043711 -0.0653374
1678804 0.0042254 -0.0642243 0.9957746 0.0642243 0.9957746 0.0642243 0.0042254 -0.0642243
1708048 0.0040846 -0.0631298 0.9959154 0.0631298 0.9959154 0.0631298 0.0040846 -0.0631298
1737801 0.0039486 -0.0620535 0.9960514 0.0620535 0.9960514 0.0620535 0.0039486 -0.0620535
1768072 0.0038171 -0.0609951 0.9961829 0.0609951 0.9961829 0.0609951 0.0038171 -0.0609951
1798871 0.0036901 -0.0599544 0.9963099 0.0599544 0.9963099 0.0599544 0.0036901 -0.0599544
1830206 0.0035674 -0.0589311 0.9964326 0.0589311 0.9964326 0.0589311 0.0035674 -0.0589311
1862087 0.0034488 -0.0579248 0.9965512 0.0579248 0.9965512 0.0579248 0.0034488 -0.0579248
1894524 0.0033342 -0.0569353 0.9966658 0.0569353 0.9966658 0.0569353 0.0033342 -0.0569353
1927525 0.0032235 -0.0559624 0.9967765 0.0559624 0.9967765 0.0559624 0.0032235 -0.0559624
1961101 0.0031165 -0.0550057 0.9968835 0.0550057 0.9968835 0.0550057 0.0031165 -0.0550057
1995262 0.0030131 -0.0540650 0.9969869 0.0540650 0.9969869 0.0540650 0.0030131 -0.0540650
2030019 0.0029133 -0.0531401 0.9970867 0.0531401 0.9970867 0.0531401 0.0029133 -0.0531401
2065380 0.0028168 -0.0522307 0.9971832 0.0522307 0.9971832 0.0522307 0.0028168 -0.0522307
2101358 0.0027235 -0.0513365 0.9972765 0.0513365 0.9972765 0.0513365 0.0027235 -0.0513365
2137962 0.0026335 -0.0504573 0.9973665 0.0504573 0.9973665 0.0504573 0.0026335 -0.0504573
2175204 0.0025464 -0.0495928 0.9974536 0.0495928 0.9974536 0.0495928 0.0025464 -0.0495928
2213095 0.0024623 -0.0487428 0.9975377 0.0487428 0.9975377 0.0487428 0.0024623 -0.0487428
2251645 0.0023811 -0.0479071 0.9976189 0.0479071 0.9976189 0.0479071 0.0023811 -0.0479071
2290868 0.0023026 -0.0470854 0.9976974 0.0470854 0.9976974 0.0470854 0.0023026 -0.0470854
2330773 0.0022268 -0.0462775 0.9977732 0.0462775 0.9977732 0.0462775 0.0022268 -0.0462775
2371374 0.0021535 -0.0454832 0.9978465 0.0454832 0.9978465 0.0454832 0.0021535 -0.0454832
2412682 0.0020828 -0.0447022 0.9979172 0.0447022 0.9979172 0.0447022 0.0020828 -0.0447022
2454709 0.0020144 -0.0439343 0.9979856 0.0439343 0.9979856 0.0439343 0.0020144 -0.0439343
2497468 0.0019483 -0.0431793 0.9980517 0.0431793 0.9980517 0.0431793 0.0019483 -0.0431793
2540973 0.0018845 -0.0424370 0.9981155 0.0424370 0.9981155 0.0424370 0.0018845 -0.0424370
2585235 0.0018229 -0.0417072 0.9981771 0.0417072 0.9981771 0.0417072 0.0018229 -0.0417072
2630268 0.0017633 -0.0409896 0.9982367 0.0409896 0.9982367 0.0409896 0.0017633 -0.0409896
2676086 0.0017058 -0.0402841 0.9982942 0.0402841 0.9982942 0.0402841 0.0017058 -0.0402841
2722701 0.0016502 -0.0395905 0.9983498 0.0395905 0.9983498 0.0395905 0.0016502 -0.0395905
2770129 0.0015965 -0.0389085 0.9984035 0.0389085 0.9984035 0.0389085 0.0015965 -0.0389085
2818383 0.0015446 -0.0382380 0.9984554 0.0382380 0.9984554 0.0382380 0.0015446 -0.0382380
2867477 0.0014945 -0.0375787 0.9985055 0.0375787 0.9985055 0.0375787 0.0014945 -0.0375787
2917427 0.0014461 -0.0369306 0.9985539 0.0369306 0.9985539 0.0369306 0.0014461 -0.0369306
2968247 0.0013993 -0.0362933 0.9986007 0.0362933 0.9986007 0.0362933 0.0013993 -0.0362933
3019952 0.0013542 -0.0356667 0.9986458 0.0356667 0.9986458 0.0356667 0.0013542 -0.0356667
3072557 0.0013106 -0.0350507 0.9986894 0.0350507 0.9986894 0.0350507 0.0013106 -0.0350507
3126079 0.0012684 -0.0344450 0.9987316 0.0344450 0.9987316 0.0344450 0.0012684 -0.0344450
3180534 0.0012277 -0.0338495 0.9987723 0.0338495 0.9987723 0.0338495 0.0012277 -0.0338495
3235937 0.0011884 -0.0332640 0.9988116 0.0332640 0.9988116 0.0332640 0.0011884 -0.0332640
3292305 0.0011504 -0.0326883 0.9988496 0.0326883 0.9988496 0.0326883 0.0011504 -0.0326883
3349654 0.0011137 -0.0321223 0.9988863 0.0321223 0.9988863 0.0321223 0.0011137 -0.0321223
3408003 0.0010783 -0.0315658 0.9989217 0.0315658 0.9989217 0.0315658 0.0010783 -0.0315658
3467369 0.0010441 -0.0310186 0.9989559 0.0310186 0.9989559 0.0310186 0.0010441 -0.0310186
3527768 0.0010111 -0.0304807 0.9989889 0.0304807 0.9989889 0.0304807 0.0010111 -0.0304807
3589219 0.0009791 -0.0299517 0.9990209 0.0299517 0.9990209 0.0299517 0.0009791 -0.0299517
3651741 0.0009483 -0.0294316 0.9990517 0.0294316 0.9990517 0.0294316 0.0009483 -0.0294316
3715352 0.0009185 -0.0289203 0.9990815 0.0289203 0.9990815 0.0289203 0.0009185 -0.0289203
3780071 0.0008898 -0.0284175 0.9991102 0.0284175 0.9991102 0.0284175 0.0008898 -0.0284175
3845918 0.0008620 -0.0279231 0.9991380 0.0279231 0.9991380 0.0279231 0.0008620 -0.0279231
3912911 0.0008352 -0.0274370 0.9991648 0.0274370 0.9991648 0.0274370 0.0008352 -0.0274370
3981072 0.0008093 -0.0269591 0.9991907 0.0269591 0.9991907 0.0269591 0.0008093 -0.0269591
4050419 0.0007843 -0.0264891 0.9992157 0.0264891 0.9992157 0.0264891 0.0007843 -0.0264891
4120975 0.0007602 -0.0260270 0.9992398 0.0260270 0.9992398 0.0260270 0.0007602 -0.0260270
4192760 0.0007369 -0.0255726 0.9992631 0.0255726 0.9992631 0.0255726 0.0007369 -0.0255726
4265795 0.0007143 -0.0251258 0.9992857 0.0251258 0.9992857 0.0251258 0.0007143 -0.0251258
4340103 0.0006926 -0.0246865 0.9993074 0.0246865 0.9993074 0.0246865 0.0006926 -0.0246865
4415704 0.0006716 -0.0242545 0.9993284 0.0242545 0.9993284 0.0242545 0.0006716 -0.0242545
4492623 0.0006514 -0.0238297 0.9993486 0.0238297 0.9993486 0.0238297 0.0006514 -0.0238297
4570882 0.0006318 -0.0234120 0.9993682 0.0234120 0.9993682 0.0234120 0.0006318 -0.0234120
4650504 0.0006129 -0.0230013 0.9993871 0.0230013 0.9993871 0.0230013 0.0006129 -0.0230013
4731513 0.0005947 -0.0225974 0.9994053 0.0225974 0.9994053 0.0225974 0.0005947 -0.0225974
4813933 0.0005771 -0.0222002 0.9994229 0.0222002 0.9994229 0.0222002 0.0005771 -0.0222002
4897788 0.0005601 -0.0218096 0.9994399 0.0218096 0.9994399 0.0218096 0.0005601 -0.0218096
4983105 0.0005437 -0.0214254 0.9994563 0.0214254 0.9994563 0.0214254 0.0005437 -0.0214254
5069907 0.0005279 -0.0210477 0.9994721 0.0210477 0.9994721 0.0210477 0.0005279 -0.0210477
5158222 0.0005126 -0.0206762 0.9994874 0.0206762 0.9994874 0.0206762 0.0005126 -0.0206762
5248075 0.0004978 -0.0203109 0.9995022 0.0203109 0.9995022 0.0203109 0.0004978 -0.0203109
5339493 0.0004836 -0.0199516 0.9995164 0.0199516 0.9995164 0.0199516 0.0004836 -0.0199516
5432503 0.0004699 -0.0195982 0.9995301 0.0195982 0.9995301 0.0195982 0.0004699 -0.0195982
5527134 0.0004566 -0.0192507 0.9995434 0.0192507 0.9995434 0.0192507 0.0004566 -0.0192507
5623413 0.0004438 -0.0189089 0.9995562 0.0189089 0.9995562 0.0189089 0.0004438 -0.0189089
5721370 0.0004315 -0.0185728 0.9995685 0.0185728 0.9995685 0.0185728 0.0004315 -0.0185728
5821032 0.0004196 -0.0182421 0.9995804 0.0182421 0.9995804 0.0182421 0.0004196 -0.0182421
5922431 0.0004081 -0.0179170 0.9995919 0.0179170 0.9995919 0.0179170 0.0004081 -0.0179170
6025596 0.0003970 -0.0175971 0.9996030 0.0175971 0.9996030 0.0175971 0.0003970 -0.0175971
6130558 0.0003863 -0.0172825 0.9996137 0.0172825 0.9996137 0.0172825 0.0003863 -0.0172825
6237348 0.0003760 -0.0169730 0.9996240 0.0169730 0.9996240 0.0169730 0.0003760 -0.0169730
6345999 0.0003660 -0.0166686 0.9996340 0.0166686 0.9996340 0.0166686 0.0003660 -0.0166686
6456542 0.0003564 -0.0163692 0.9996436 0.0163692 0.9996436 0.0163692 0.0003564 -0.0163692
6569011 0.0003472 -0.0160746 0.9996528 0.0160746 0.9996528 0.0160746 0.0003472 -0.0160746
6683439 0.0003382 -0.0157848 0.9996618 0.0157848 0.9996618 0.0157848 0.0003382 -0.0157848
6799860 0.0003296 -0.0154997 0.9996704 0.0154997 0.9996704 0.0154997 0.0003296 -0.0154997
6918310 0.0003213 -0.0152193 0.9996787 0.0152193 0.9996787 0.0152193 0.0003213 -0.0152193
7038822 0.0003133 -0.0149434 0.9996867 0.0149434 0.9996867 0.0149434 0.0003133 -0.0149434
7161434 0.0003056 -0.0146719 0.9996944 0.0146719 0.9996944 0.0146719 0.0003056 -0.0146719
7286182 0.0002982 -0.0144049 0.9997018 0.0144049 0.9997018 0.0144049 0.0002982 -0.0144049
7413102 0.0002910 -0.0141421 0.9997090 0.0141421 0.9997090 0.0141421 0.0002910 -0.0141421
7542234 0.0002841 -0.0138835 0.9997159 0.0138835 0.9997159 0.0138835 0.0002841 -0.0138835
7673615 0.0002774 -0.0136291 0.9997226 0.0136291 0.9997226 0.0136291 0.0002774 -0.0136291
7807284 0.0002710 -0.0133787 0.9997290 0.0133787 0.9997290 0.0133787 0.0002710 -0.0133787
7943282 0.0002649 -0.0131324 0.9997351 0.0131324 0.9997351 0.0131324 0.0002649 -0.0131324
8081649 0.0002589 -0.0128899 0.9997411 0.0128899 0.9997411 0.0128899 0.0002589 -0.0128899
8222426 0.0002532 -0.0126513 0.9997468 0.0126513 0.9997468 0.0126513 0.0002532 -0.0126513
8365656 0.0002477 -0.0124165 0.9997523 0.0124165 0.9997523 0.0124165 0.0002477 -0.0124165
8511380 0.0002423 -0.0121854 0.9997577 0.0121854 0.9997577 0.0121854 0.0002423 -0.0121854
8659643 0.0002372 -0.0119579 0.9997628 0.0119579 0.9997628 0.0119579 0.0002372 -0.0119579
8810489 0.0002323 -0.0117340 0.9997677 0.0117340 0.9997677 0.0117340 0.0002323 -0.0117340
8963962 0.0002276 -0.0115136 0.9997724 0.0115136 0.9997724 0.0115136 0.0002276 -0.0115136
9120108 0.0002230 -0.0112966 0.9997770 0.0112966 0.9997770 0.0112966 0.0002230 -0.0112966
9278975 0.0002186 -0.0110830 0.9997814 0.0110830 0.9997814 0.0110830 0.0002186 -0.0110830
9440609 0.0002144 -0.0108727 0.9997856 0.0108727 0.9997856 0.0108727 0.0002144 -0.0108727
9605058 0.0002103 -0.0106657 0.9997897 0.0106657 0.9997897 0.0106657 0.0002103 -0.0106657
9772372 0.0002065 -0.0104618 0.9997935 0.0104618 0.9997935 0.0104618 0.0002065 -0.0104618
9942601 0.0002027 -0.0102611 0.9997973 0.0102611 0.9997973 0.0102611 0.0002027 -0.0102611
10115795 0.0001991 -0.0100634 0.9998009 0.0100634 0.9998009 0.0100634 0.0001991 -0.0100634
10292005 0.0001957 -0.0098687 0.9998043 0.0098687 0.9998043 0.0098687 0.0001957 -0.0098687
10471285 0.0001923 -0.0096770 0.9998077 0.0096770 0.9998077 0.0096770 0.0001923 -0.0096770
10653689 0.0001892 -0.0094882 0.9998108 0.0094882 0.9998108 0.0094882 0.0001892 -0.0094882
10839269 0.0001861 -0.0093022 0.9998139 0.0093022 0.9998139 0.0093022 0.0001861 -0.0093022
11028082 0.0001832 -0.0091190 0.9998168 0.0091190 0.9998168 0.0091190 0.0001832 -0.0091190
11220185 0.0001804 -0.0089384 0.9998196 0.0089384 0.9998196 0.0089384 0.0001804 -0.0089384
11415633 0.0001777 -0.0087606 0.9998223 0.0087606 0.9998223 0.0087606 0.0001777 -0.0087606
11614486 0.0001751 -0.0085854 0.9998249 0.0085854 0.9998249 0.0085854 0.0001751 -0.0085854
11816803 0.0001727 -0.0084127 0.9998273 0.0084127 0.9998273 0.0084127 0.0001727 -0.0084127
12022644 0.0001703 -0.0082426 0.9998297 0.0082426 0.9998297 0.0082426 0.0001703 -0.0082426
12232071 0.0001681 -0.0080749 0.9998319 0.0080749 0.9998319 0.0080749 0.0001681 -0.0080749
12445146 0.0001659 -0.0079096 0.9998341 0.0079096 0.9998341 0.0079096 0.0001659 -0.0079096
12661933 0.0001639 -0.0077467 0.9998361 0.0077467 0.9998361 0.0077467 0.0001639 -0.0077467
12882496 0.0001620 -0.0075861 0.9998380 0.0075861 0.9998380 0.0075861 0.0001620 -0.0075861
13106900 0.0001601 -0.0074278 0.9998399 0.0074278 0.9998399 0.0074278 0.0001601 -0.0074278
13335214 0.0001583 -0.0072717 0.9998417 0.0072717 0.9998417 0.0072717 0.0001583 -0.0072717
13567505 0.0001567 -0.0071177 0.9998433 0.0071177 0.9998433 0.0071177 0.0001567 -0.0071177
13803843 0.0001551 -0.0069659 0.9998449 0.0069659 0.9998449 0.0069659 0.0001551 -0.0069659
14044297 0.0001536 -0.0068162 0.9998464 0.0068162 0.9998464 0.0068162 0.0001536 -0.0068162
14288940 0.0001522 -0.0066684 0.9998478 0.0066684 0.9998478 0.0066684 0.0001522 -0.0066684
14537844 0.0001509 -0.0065227 0.9998491 0.0065227 0.9998491 0.0065227 0.0001509 -0.0065227
14791084 0.0001496 -0.0063789 0.9998504 0.0063789 0.9998504 0.0063789 0.0001496 -0.0063789
15048735 0.0001484 -0.0062370 0.9998516 0.0062370 0.9998516 0.0062370 0.0001484 -0.0062370
15310875 0.0001473 -0.0060970 0.9998527 0.0060970 0.9998527 0.0060970 0.0001473 -0.0060970
15577580 0.0001463 -0.0059588 0.9998537 0.0059588 0.9998537 0.0059588 0.0001463 -0.0059588
15848932 0.0001454 -0.0058224 0.9998546 0.0058224 0.9998546 0.0058224 0.0001454 -0.0058224
16125010 0.0001445 -0.0056877 0.9998555 0.0056877 0.9998555 0.0056877 0.0001445 -0.0056877
16405898 0.0001437 -0.0055547 0.9998563 0.0055547 0.9998563 0.0055547 0.0001437 -0.0055547
16691678 0.0001430 -0.0054234 0.9998570 0.0054234 0.9998570 0.0054234 0.0001430 -0.0054234
16982437 0.0001423 -0.0052936 0.9998577 0.0052936 0.9998577 0.0052936 0.0001423 -0.0052936
17278260 0.0001417 -0.0051655 0.9998583 0.0051655 0.9998583 0.0051655 0.0001417 -0.0051655
17579236 0.0001412 -0.0050389 0.9998588 0.0050389 0.9998588 0.0050389 0.0001412 -0.0050389
17885455 0.0001407 -0.0049137 0.9998593 0.0049137 0.9998593 0.0049137 0.0001407 -0.0049137
18197009 0.0001403 -0.0047901 0.9998597 0.0047901 0.9998597 0.0047901 0.0001403 -0.0047901
18513989 0.0001400 -0.0046678 0.9998600 0.0046678 0.9998600 0.0046678 0.0001400 -0.0046678
18836491 0.0001397 -0.0045470 0.9998603 0.0045470 0.9998603 0.0045470 0.0001397 -0.0045470
19164611 0.0001395 -0.0044275 0.9998605 0.0044275 0.9998605 0.0044275 0.0001395 -0.0044275
19498446 0.0001394 -0.0043093 0.9998606 0.0043093 0.9998606 0.0043093 0.0001394 -0.0043093
19838097 0.0001393 -0.0041924 0.9998607 0.0041924 0.9998607 0.0041924 0.0001393 -0.0041924
20183664 0.0001393 -0.0040767 0.9998607 0.0040767 0.9998607 0.0040767 0.0001393 -0.0040767
20535250 0.0001394 -0.0039623 0.9998606 0.0039623 0.9998606 0.0039623 0.0001394 -0.0039623
20892961 0.0001395 -0.0038490 0.9998605 0.0038490 0.9998605 0.0038490 0.0001395 -0.0038490
21256903 0.0001397 -0.0037368 0.9998603 0.0037368 0.9998603 0.0037368 0.0001397 -0.0037368
21627185 0.0001399 -0.0036258 0.9998601 0.0036258 0.9998601 0.0036258 0.0001399 -0.0036258
22003917 0.0001403 -0.0035158 0.9998597 0.0035158 0.9998597 0.0035158 0.0001403 -0.0035158
22387211 0.0001406 -0.0034069 0.9998594 0.0034069 0.9998594 0.0034069 0.0001406 -0.0034069
22777182 0.0001411 -0.0032989 0.9998589 0.0032989 0.9998589 0.0032989 0.0001411 -0.0032989
23173946 0.0001416 -0.0031919 0.9998584 0.0031919 0.9998584 0.0031919 0.0001416 -0.0031919
23577622 0.0001422 -0.0030859 0.9998578 0.0030859 0.9998578 0.0030859 0.0001422 -0.0030859
23988329 0.0001428 -0.0029808 0.9998572 0.0029808 0.9998572 0.0029808 0.0001428 -0.0029808
24406191 0.0001436 -0.0028765 0.9998564 0.0028765 0.9998564 0.0028765 0.0001436 -0.0028765
24831331 0.0001444 -0.0027731 0.9998556 0.0027731 0.9998556 0.0027731 0.0001444 -0.0027731
25263877 0.0001452 -0.0026705 0.9998548 0.0026705 0.9998548 0.0026705 0.0001452 -0.0026705
25703958 0.0001461 -0.0025686 0.9998539 0.0025686 0.9998539 0.0025686 0.0001461 -0.0025686
26151704 0.0001472 -0.0024675 0.9998528 0.0024675 0.9998528 0.0024675 0.0001472 -0.0024675
26607251 0.0001482 -0.0023671 0.9998518 0.0023671 0.9998518 0.0023671 0.0001482 -0.0023671
27070732 0.0001494 -0.0022674 0.9998506 0.0022674 0.9998506 0.0022674 0.0001494 -0.0022674
27542287 0.0001506 -0.0021683 0.9998494 0.0021683 0.9998494 0.0021683 0.0001506 -0.0021683
28022056 0.0001519 -0.0020699 0.9998481 0.0020699 0.9998481 0.0020699 0.0001519 -0.0020699
28510183 0.0001533 -0.0019720 0.9998467 0.0019720 0.9998467 0.0019720 0.0001533 -0.0019720
29006812 0.0001548 -0.0018747 0.9998452 0.0018747 0.9998452 0.0018747 0.0001548 -0.0018747
29512092 0.0001564 -0.0017778 0.9998436 0.0017778 0.9998436 0.0017778 0.0001564 -0.0017778
30026174 0.0001580 -0.0016815 0.9998420 0.0016815 0.9998420 0.0016815 0.0001580 -0.0016815
30549211 0.0001598 -0.0015857 0.9998402 0.0015857 0.9998402 0.0015857 0.0001598 -0.0015857
31081359 0.0001616 -0.0014902 0.9998384 0.0014902 0.9998384 0.0014902 0.0001616 -0.0014902
31622777 0.0001636 -0.0013952 0.9998364 0.0013952 0.9998364 0.0013952 0.0001636 -0.0013952
32173625 0.0001656 -0.0013005 0.9998344 0.0013005 0.9998344 0.0013005 0.0001656 -0.0013005
32734069 0.0001677 -0.0012061 0.9998323 0.0012061 0.9998323 0.0012061 0.0001677 -0.0012061
33304276 0.0001700 -0.0011121 0.9998300 0.0011121 0.9998300 0.0011121 0.0001700 -0.0011121
33884416 0.0001723 -0.0010183 0.9998277 0.0010183 0.9998277 0.0010183 0.0001723 -0.0010183
34474661 0.0001748 -0.0009247 0.9998252 0.0009247 0.9998252 0.0009247 0.0001748 -0.0009247
35075187 0.0001773 -0.0008313 0.9998227 0.0008313 0.9998227 0.0008313 0.0001773 -0.0008313
35686175 0.0001800 -0.0007381 0.9998200 0.0007381 0.9998200 0.0007381 0.0001800 -0.0007381
36307805 0.0001829 -0.0006450 0.9998171 0.0006450 0.9998171 0.0006450 0.0001829 -0.0006450
36940264 0.0001858 -0.0005520 0.9998142 0.0005520 0.9998142 0.0005520 0.0001858 -0.0005520
37583740 0.0001889 -0.0004591 0.9998111 0.0004591 0.9998111 0.0004591 0.0001889 -0.0004591
38238425 0.0001921 -0.0003662 0.9998079 0.0003662 0.9998079 0.0003662 0.0001921 -0.0003662
38904514 0.0001955 -0.0002733 0.9998045 0.0002733 0.9998045 0.0002733 0.0001955 -0.0002733
39582206 0.0001991 -0.0001803 0.9998009 0.0001803 0.9998009 0.0001803 0.0001991 -0.0001803
40271703 0.0002027 -0.0000872 0.9997973 0.0000872 0.9997973 0.0000872 0.0002027 -0.0000872
40973211 0.0002066 0.0000060 0.9997934 -0.0000060 0.9997934 -0.0000060 0.0002066 0.0000060
