!Murata Part Number: GRM31A7U2J471JW31
!These Parameters are Measured in Series Mode Connection
!Data Generated on Mar 30, 2021
!       o--ll--o
!Port1            Port2
!       o------o
!Operation Temp=25[degC], DC Bias Voltage=0[V]
!Freq. Start=100[MHz] Stop=3[GHz] 401[Steps]
# Hz S RI R 50
!Freq.(Hz) S11(Real) S11(Imag) S21(Real) S21(Imag) S12(Real) S12(Imag) S22(Real) S22(Imag)
100000000 0.0017148 -0.0284496 0.9982852 0.0284496 0.9982852 0.0284496 0.0017148 -0.0284496
107250000 0.0015740 -0.0257837 0.9984260 0.0257837 0.9984260 0.0257837 0.0015740 -0.0257837
114500000 0.0014612 -0.0234056 0.9985388 0.0234056 0.9985388 0.0234056 0.0014612 -0.0234056
121750000 0.0013701 -0.0212640 0.9986299 0.0212640 0.9986299 0.0212640 0.0013701 -0.0212640
129000000 0.0012960 -0.0193192 0.9987040 0.0193192 0.9987040 0.0193192 0.0012960 -0.0193192
136250000 0.0012356 -0.0175397 0.9987644 0.0175397 0.9987644 0.0175397 0.0012356 -0.0175397
143500000 0.0011863 -0.0159007 0.9988137 0.0159007 0.9988137 0.0159007 0.0011863 -0.0159007
150750000 0.0011462 -0.0143819 0.9988538 0.0143819 0.9988538 0.0143819 0.0011462 -0.0143819
158000000 0.0011136 -0.0129667 0.9988864 0.0129667 0.9988864 0.0129667 0.0011136 -0.0129667
165250000 0.0010874 -0.0116415 0.9989126 0.0116415 0.9989126 0.0116415 0.0010874 -0.0116415
172500000 0.0010667 -0.0103950 0.9989333 0.0103950 0.9989333 0.0103950 0.0010667 -0.0103950
179750000 0.0010506 -0.0092176 0.9989494 0.0092176 0.9989494 0.0092176 0.0010506 -0.0092176
187000000 0.0010386 -0.0081014 0.9989614 0.0081014 0.9989614 0.0081014 0.0010386 -0.0081014
194250000 0.0010302 -0.0070394 0.9989698 0.0070394 0.9989698 0.0070394 0.0010302 -0.0070394
201500000 0.0010248 -0.0060259 0.9989752 0.0060259 0.9989752 0.0060259 0.0010248 -0.0060259
208750000 0.0010223 -0.0050557 0.9989777 0.0050557 0.9989777 0.0050557 0.0010223 -0.0050557
216000000 0.0010223 -0.0041245 0.9989777 0.0041245 0.9989777 0.0041245 0.0010223 -0.0041245
223250000 0.0010246 -0.0032285 0.9989754 0.0032285 0.9989754 0.0032285 0.0010246 -0.0032285
230500000 0.0010289 -0.0023643 0.9989711 0.0023643 0.9989711 0.0023643 0.0010289 -0.0023643
237750000 0.0010351 -0.0015291 0.9989649 0.0015291 0.9989649 0.0015291 0.0010351 -0.0015291
245000000 0.0010430 -0.0007202 0.9989570 0.0007202 0.9989570 0.0007202 0.0010430 -0.0007202
252250000 0.0010525 0.0000646 0.9989475 -0.0000646 0.9989475 -0.0000646 0.0010525 0.0000646
259500000 0.0010636 0.0008274 0.9989364 -0.0008274 0.9989364 -0.0008274 0.0010636 0.0008274
266750000 0.0010760 0.0015700 0.9989240 -0.0015700 0.9989240 -0.0015700 0.0010760 0.0015700
274000000 0.0010898 0.0022940 0.9989102 -0.0022940 0.9989102 -0.0022940 0.0010898 0.0022940
281250000 0.0011049 0.0030008 0.9988951 -0.0030008 0.9988951 -0.0030008 0.0011049 0.0030008
288500000 0.0011211 0.0036917 0.9988789 -0.0036917 0.9988789 -0.0036917 0.0011211 0.0036917
295750000 0.0011385 0.0043680 0.9988615 -0.0043680 0.9988615 -0.0043680 0.0011385 0.0043680
303000000 0.0011570 0.0050307 0.9988430 -0.0050307 0.9988430 -0.0050307 0.0011570 0.0050307
310250000 0.0011765 0.0056807 0.9988235 -0.0056807 0.9988235 -0.0056807 0.0011765 0.0056807
317500000 0.0011970 0.0063190 0.9988030 -0.0063190 0.9988030 -0.0063190 0.0011970 0.0063190
324750000 0.0012186 0.0069463 0.9987814 -0.0069463 0.9987814 -0.0069463 0.0012186 0.0069463
332000000 0.0012411 0.0075634 0.9987589 -0.0075634 0.9987589 -0.0075634 0.0012411 0.0075634
339250000 0.0012645 0.0081710 0.9987355 -0.0081710 0.9987355 -0.0081710 0.0012645 0.0081710
346500000 0.0012889 0.0087696 0.9987111 -0.0087696 0.9987111 -0.0087696 0.0012889 0.0087696
353750000 0.0013141 0.0093599 0.9986859 -0.0093599 0.9986859 -0.0093599 0.0013141 0.0093599
361000000 0.0013403 0.0099423 0.9986597 -0.0099423 0.9986597 -0.0099423 0.0013403 0.0099423
368250000 0.0013673 0.0105174 0.9986327 -0.0105174 0.9986327 -0.0105174 0.0013673 0.0105174
375500000 0.0013951 0.0110855 0.9986049 -0.0110855 0.9986049 -0.0110855 0.0013951 0.0110855
382750000 0.0014238 0.0116472 0.9985762 -0.0116472 0.9985762 -0.0116472 0.0014238 0.0116472
390000000 0.0014534 0.0122027 0.9985466 -0.0122027 0.9985466 -0.0122027 0.0014534 0.0122027
397250000 0.0014838 0.0127524 0.9985162 -0.0127524 0.9985162 -0.0127524 0.0014838 0.0127524
404500000 0.0015150 0.0132967 0.9984850 -0.0132967 0.9984850 -0.0132967 0.0015150 0.0132967
411750000 0.0015470 0.0138359 0.9984530 -0.0138359 0.9984530 -0.0138359 0.0015470 0.0138359
419000000 0.0015799 0.0143702 0.9984201 -0.0143702 0.9984201 -0.0143702 0.0015799 0.0143702
426250000 0.0016136 0.0149000 0.9983864 -0.0149000 0.9983864 -0.0149000 0.0016136 0.0149000
433500000 0.0016481 0.0154254 0.9983519 -0.0154254 0.9983519 -0.0154254 0.0016481 0.0154254
440750000 0.0016835 0.0159467 0.9983165 -0.0159467 0.9983165 -0.0159467 0.0016835 0.0159467
448000000 0.0017197 0.0164642 0.9982803 -0.0164642 0.9982803 -0.0164642 0.0017197 0.0164642
455250000 0.0017567 0.0169780 0.9982433 -0.0169780 0.9982433 -0.0169780 0.0017567 0.0169780
462500000 0.0017946 0.0174884 0.9982054 -0.0174884 0.9982054 -0.0174884 0.0017946 0.0174884
469750000 0.0018333 0.0179955 0.9981667 -0.0179955 0.9981667 -0.0179955 0.0018333 0.0179955
477000000 0.0018729 0.0184995 0.9981271 -0.0184995 0.9981271 -0.0184995 0.0018729 0.0184995
484250000 0.0019133 0.0190005 0.9980867 -0.0190005 0.9980867 -0.0190005 0.0019133 0.0190005
491500000 0.0019547 0.0194988 0.9980453 -0.0194988 0.9980453 -0.0194988 0.0019547 0.0194988
498750000 0.0019969 0.0199945 0.9980031 -0.0199945 0.9980031 -0.0199945 0.0019969 0.0199945
506000000 0.0020401 0.0204877 0.9979599 -0.0204877 0.9979599 -0.0204877 0.0020401 0.0204877
513250000 0.0020842 0.0209785 0.9979158 -0.0209785 0.9979158 -0.0209785 0.0020842 0.0209785
520500000 0.0021292 0.0214672 0.9978708 -0.0214672 0.9978708 -0.0214672 0.0021292 0.0214672
527750000 0.0021752 0.0219537 0.9978248 -0.0219537 0.9978248 -0.0219537 0.0021752 0.0219537
535000000 0.0022222 0.0224383 0.9977778 -0.0224383 0.9977778 -0.0224383 0.0022222 0.0224383
542250000 0.0022702 0.0229211 0.9977298 -0.0229211 0.9977298 -0.0229211 0.0022702 0.0229211
549500000 0.0023193 0.0234020 0.9976807 -0.0234020 0.9976807 -0.0234020 0.0023193 0.0234020
556750000 0.0023694 0.0238814 0.9976306 -0.0238814 0.9976306 -0.0238814 0.0023694 0.0238814
564000000 0.0024207 0.0243592 0.9975793 -0.0243592 0.9975793 -0.0243592 0.0024207 0.0243592
571250000 0.0024731 0.0248355 0.9975269 -0.0248355 0.9975269 -0.0248355 0.0024731 0.0248355
578500000 0.0025268 0.0253105 0.9974732 -0.0253105 0.9974732 -0.0253105 0.0025268 0.0253105
585750000 0.0025817 0.0257843 0.9974183 -0.0257843 0.9974183 -0.0257843 0.0025817 0.0257843
593000000 0.0026379 0.0262569 0.9973621 -0.0262569 0.9973621 -0.0262569 0.0026379 0.0262569
600250000 0.0026955 0.0267283 0.9973045 -0.0267283 0.9973045 -0.0267283 0.0026955 0.0267283
607500000 0.0027545 0.0271988 0.9972455 -0.0271988 0.9972455 -0.0271988 0.0027545 0.0271988
614750000 0.0028150 0.0276683 0.9971850 -0.0276683 0.9971850 -0.0276683 0.0028150 0.0276683
622000000 0.0028771 0.0281370 0.9971229 -0.0281370 0.9971229 -0.0281370 0.0028771 0.0281370
629250000 0.0029409 0.0286049 0.9970591 -0.0286049 0.9970591 -0.0286049 0.0029409 0.0286049
636500000 0.0030065 0.0290720 0.9969935 -0.0290720 0.9969935 -0.0290720 0.0030065 0.0290720
643750000 0.0030739 0.0295385 0.9969261 -0.0295385 0.9969261 -0.0295385 0.0030739 0.0295385
651000000 0.0031434 0.0300043 0.9968566 -0.0300043 0.9968566 -0.0300043 0.0031434 0.0300043
658250000 0.0032151 0.0304695 0.9967849 -0.0304695 0.9967849 -0.0304695 0.0032151 0.0304695
665500000 0.0032891 0.0309341 0.9967109 -0.0309341 0.9967109 -0.0309341 0.0032891 0.0309341
672750000 0.0033655 0.0313982 0.9966345 -0.0313982 0.9966345 -0.0313982 0.0033655 0.0313982
680000000 0.0034446 0.0318617 0.9965554 -0.0318617 0.9965554 -0.0318617 0.0034446 0.0318617
687250000 0.0035266 0.0323247 0.9964734 -0.0323247 0.9964734 -0.0323247 0.0035266 0.0323247
694500000 0.0036118 0.0327871 0.9963882 -0.0327871 0.9963882 -0.0327871 0.0036118 0.0327871
701750000 0.0037003 0.0332488 0.9962997 -0.0332488 0.9962997 -0.0332488 0.0037003 0.0332488
709000000 0.0037924 0.0337096 0.9962076 -0.0337096 0.9962076 -0.0337096 0.0037924 0.0337096
716250000 0.0038885 0.0341696 0.9961115 -0.0341696 0.9961115 -0.0341696 0.0038885 0.0341696
723500000 0.0039890 0.0346284 0.9960110 -0.0346284 0.9960110 -0.0346284 0.0039890 0.0346284
730750000 0.0040940 0.0350858 0.9959060 -0.0350858 0.9959060 -0.0350858 0.0040940 0.0350858
738000000 0.0042041 0.0355414 0.9957959 -0.0355414 0.9957959 -0.0355414 0.0042041 0.0355414
745250000 0.0043196 0.0359948 0.9956804 -0.0359948 0.9956804 -0.0359948 0.0043196 0.0359948
752500000 0.0044409 0.0364455 0.9955591 -0.0364455 0.9955591 -0.0364455 0.0044409 0.0364455
759750000 0.0045684 0.0368926 0.9954316 -0.0368926 0.9954316 -0.0368926 0.0045684 0.0368926
767000000 0.0047023 0.0373354 0.9952977 -0.0373354 0.9952977 -0.0373354 0.0047023 0.0373354
774250000 0.0048428 0.0377728 0.9951572 -0.0377728 0.9951572 -0.0377728 0.0048428 0.0377728
781500000 0.0049901 0.0382035 0.9950099 -0.0382035 0.9950099 -0.0382035 0.0049901 0.0382035
788750000 0.0051441 0.0386262 0.9948559 -0.0386262 0.9948559 -0.0386262 0.0051441 0.0386262
796000000 0.0053042 0.0390392 0.9946958 -0.0390392 0.9946958 -0.0390392 0.0053042 0.0390392
803250000 0.0054696 0.0394407 0.9945304 -0.0394407 0.9945304 -0.0394407 0.0054696 0.0394407
810500000 0.0056392 0.0398290 0.9943608 -0.0398290 0.9943608 -0.0398290 0.0056392 0.0398290
817750000 0.0058108 0.0402023 0.9941892 -0.0402023 0.9941892 -0.0402023 0.0058108 0.0402023
825000000 0.0059820 0.0405592 0.9940180 -0.0405592 0.9940180 -0.0405592 0.0059820 0.0405592
832250000 0.0061497 0.0408986 0.9938503 -0.0408986 0.9938503 -0.0408986 0.0061497 0.0408986
839500000 0.0063100 0.0412204 0.9936900 -0.0412204 0.9936900 -0.0412204 0.0063100 0.0412204
846750000 0.0064590 0.0415255 0.9935410 -0.0415255 0.9935410 -0.0415255 0.0064590 0.0415255
854000000 0.0065926 0.0418160 0.9934074 -0.0418160 0.9934074 -0.0418160 0.0065926 0.0418160
861250000 0.0067075 0.0420951 0.9932925 -0.0420951 0.9932925 -0.0420951 0.0067075 0.0420951
868500000 0.0068010 0.0423672 0.9931990 -0.0423672 0.9931990 -0.0423672 0.0068010 0.0423672
875750000 0.0068720 0.0426372 0.9931280 -0.0426372 0.9931280 -0.0426372 0.0068720 0.0426372
883000000 0.0069207 0.0429105 0.9930793 -0.0429105 0.9930793 -0.0429105 0.0069207 0.0429105
890250000 0.0069491 0.0431917 0.9930509 -0.0431917 0.9930509 -0.0431917 0.0069491 0.0431917
897500000 0.0069599 0.0434848 0.9930401 -0.0434848 0.9930401 -0.0434848 0.0069599 0.0434848
904750000 0.0069569 0.0437926 0.9930431 -0.0437926 0.9930431 -0.0437926 0.0069569 0.0437926
912000000 0.0069442 0.0441167 0.9930558 -0.0441167 0.9930558 -0.0441167 0.0069442 0.0441167
919250000 0.0069255 0.0444575 0.9930745 -0.0444575 0.9930745 -0.0444575 0.0069255 0.0444575
926500000 0.0069044 0.0448145 0.9930956 -0.0448145 0.9930956 -0.0448145 0.0069044 0.0448145
933750000 0.0068838 0.0451866 0.9931162 -0.0451866 0.9931162 -0.0451866 0.0068838 0.0451866
941000000 0.0068660 0.0455722 0.9931340 -0.0455722 0.9931340 -0.0455722 0.0068660 0.0455722
948250000 0.0068527 0.0459697 0.9931473 -0.0459697 0.9931473 -0.0459697 0.0068527 0.0459697
955500000 0.0068450 0.0463772 0.9931550 -0.0463772 0.9931550 -0.0463772 0.0068450 0.0463772
962750000 0.0068435 0.0467931 0.9931565 -0.0467931 0.9931565 -0.0467931 0.0068435 0.0467931
970000000 0.0068488 0.0472159 0.9931512 -0.0472159 0.9931512 -0.0472159 0.0068488 0.0472159
977250000 0.0068607 0.0476441 0.9931393 -0.0476441 0.9931393 -0.0476441 0.0068607 0.0476441
984500000 0.0068794 0.0480768 0.9931206 -0.0480768 0.9931206 -0.0480768 0.0068794 0.0480768
991750000 0.0069045 0.0485129 0.9930955 -0.0485129 0.9930955 -0.0485129 0.0069045 0.0485129
999000000 0.0069358 0.0489516 0.9930642 -0.0489516 0.9930642 -0.0489516 0.0069358 0.0489516
1006250000 0.0069730 0.0493922 0.9930270 -0.0493922 0.9930270 -0.0493922 0.0069730 0.0493922
1013500000 0.0070157 0.0498342 0.9929843 -0.0498342 0.9929843 -0.0498342 0.0070157 0.0498342
1020750000 0.0070636 0.0502771 0.9929364 -0.0502771 0.9929364 -0.0502771 0.0070636 0.0502771
1028000000 0.0071164 0.0507207 0.9928836 -0.0507207 0.9928836 -0.0507207 0.0071164 0.0507207
1035250000 0.0071738 0.0511645 0.9928262 -0.0511645 0.9928262 -0.0511645 0.0071738 0.0511645
1042500000 0.0072355 0.0516085 0.9927645 -0.0516085 0.9927645 -0.0516085 0.0072355 0.0516085
1049750000 0.0073013 0.0520523 0.9926987 -0.0520523 0.9926987 -0.0520523 0.0073013 0.0520523
1057000000 0.0073709 0.0524960 0.9926291 -0.0524960 0.9926291 -0.0524960 0.0073709 0.0524960
1064250000 0.0074441 0.0529393 0.9925559 -0.0529393 0.9925559 -0.0529393 0.0074441 0.0529393
1071500000 0.0075207 0.0533822 0.9924793 -0.0533822 0.9924793 -0.0533822 0.0075207 0.0533822
1078750000 0.0076005 0.0538246 0.9923995 -0.0538246 0.9923995 -0.0538246 0.0076005 0.0538246
1086000000 0.0076834 0.0542665 0.9923166 -0.0542665 0.9923166 -0.0542665 0.0076834 0.0542665
1093250000 0.0077694 0.0547078 0.9922306 -0.0547078 0.9922306 -0.0547078 0.0077694 0.0547078
1100500000 0.0078581 0.0551486 0.9921419 -0.0551486 0.9921419 -0.0551486 0.0078581 0.0551486
1107750000 0.0079497 0.0555887 0.9920503 -0.0555887 0.9920503 -0.0555887 0.0079497 0.0555887
1115000000 0.0080439 0.0560282 0.9919561 -0.0560282 0.9919561 -0.0560282 0.0080439 0.0560282
1122250000 0.0081407 0.0564670 0.9918593 -0.0564670 0.9918593 -0.0564670 0.0081407 0.0564670
1129500000 0.0082400 0.0569051 0.9917600 -0.0569051 0.9917600 -0.0569051 0.0082400 0.0569051
1136750000 0.0083419 0.0573426 0.9916581 -0.0573426 0.9916581 -0.0573426 0.0083419 0.0573426
1144000000 0.0084461 0.0577794 0.9915539 -0.0577794 0.9915539 -0.0577794 0.0084461 0.0577794
1151250000 0.0085528 0.0582155 0.9914472 -0.0582155 0.9914472 -0.0582155 0.0085528 0.0582155
1158500000 0.0086619 0.0586509 0.9913381 -0.0586509 0.9913381 -0.0586509 0.0086619 0.0586509
1165750000 0.0087733 0.0590855 0.9912267 -0.0590855 0.9912267 -0.0590855 0.0087733 0.0590855
1173000000 0.0088870 0.0595193 0.9911130 -0.0595193 0.9911130 -0.0595193 0.0088870 0.0595193
1180250000 0.0090030 0.0599524 0.9909970 -0.0599524 0.9909970 -0.0599524 0.0090030 0.0599524
1187500000 0.0091214 0.0603847 0.9908786 -0.0603847 0.9908786 -0.0603847 0.0091214 0.0603847
1194750000 0.0092421 0.0608161 0.9907579 -0.0608161 0.9907579 -0.0608161 0.0092421 0.0608161
1202000000 0.0093651 0.0612467 0.9906349 -0.0612467 0.9906349 -0.0612467 0.0093651 0.0612467
1209250000 0.0094903 0.0616764 0.9905097 -0.0616764 0.9905097 -0.0616764 0.0094903 0.0616764
1216500000 0.0096179 0.0621051 0.9903821 -0.0621051 0.9903821 -0.0621051 0.0096179 0.0621051
1223750000 0.0097478 0.0625328 0.9902522 -0.0625328 0.9902522 -0.0625328 0.0097478 0.0625328
1231000000 0.0098800 0.0629594 0.9901200 -0.0629594 0.9901200 -0.0629594 0.0098800 0.0629594
1238250000 0.0100146 0.0633850 0.9899854 -0.0633850 0.9899854 -0.0633850 0.0100146 0.0633850
1245500000 0.0101515 0.0638094 0.9898485 -0.0638094 0.9898485 -0.0638094 0.0101515 0.0638094
1252750000 0.0102907 0.0642326 0.9897093 -0.0642326 0.9897093 -0.0642326 0.0102907 0.0642326
1260000000 0.0104323 0.0646545 0.9895677 -0.0646545 0.9895677 -0.0646545 0.0104323 0.0646545
1267250000 0.0105762 0.0650750 0.9894238 -0.0650750 0.9894238 -0.0650750 0.0105762 0.0650750
1274500000 0.0107225 0.0654941 0.9892775 -0.0654941 0.9892775 -0.0654941 0.0107225 0.0654941
1281750000 0.0108711 0.0659116 0.9891289 -0.0659116 0.9891289 -0.0659116 0.0108711 0.0659116
1289000000 0.0110221 0.0663275 0.9889779 -0.0663275 0.9889779 -0.0663275 0.0110221 0.0663275
1296250000 0.0111754 0.0667416 0.9888246 -0.0667416 0.9888246 -0.0667416 0.0111754 0.0667416
1303500000 0.0113310 0.0671539 0.9886690 -0.0671539 0.9886690 -0.0671539 0.0113310 0.0671539
1310750000 0.0114890 0.0675643 0.9885110 -0.0675643 0.9885110 -0.0675643 0.0114890 0.0675643
1318000000 0.0116492 0.0679726 0.9883508 -0.0679726 0.9883508 -0.0679726 0.0116492 0.0679726
1325250000 0.0118117 0.0683787 0.9881883 -0.0683787 0.9881883 -0.0683787 0.0118117 0.0683787
1332500000 0.0119765 0.0687824 0.9880235 -0.0687824 0.9880235 -0.0687824 0.0119765 0.0687824
1339750000 0.0121434 0.0691837 0.9878566 -0.0691837 0.9878566 -0.0691837 0.0121434 0.0691837
1347000000 0.0123124 0.0695825 0.9876876 -0.0695825 0.9876876 -0.0695825 0.0123124 0.0695825
1354250000 0.0124835 0.0699785 0.9875165 -0.0699785 0.9875165 -0.0699785 0.0124835 0.0699785
1361500000 0.0126566 0.0703716 0.9873434 -0.0703716 0.9873434 -0.0703716 0.0126566 0.0703716
1368750000 0.0128315 0.0707617 0.9871685 -0.0707617 0.9871685 -0.0707617 0.0128315 0.0707617
1376000000 0.0130083 0.0711486 0.9869917 -0.0711486 0.9869917 -0.0711486 0.0130083 0.0711486
1383250000 0.0131867 0.0715322 0.9868133 -0.0715322 0.9868133 -0.0715322 0.0131867 0.0715322
1390500000 0.0133667 0.0719123 0.9866333 -0.0719123 0.9866333 -0.0719123 0.0133667 0.0719123
1397750000 0.0135480 0.0722887 0.9864520 -0.0722887 0.9864520 -0.0722887 0.0135480 0.0722887
1405000000 0.0137306 0.0726614 0.9862694 -0.0726614 0.9862694 -0.0726614 0.0137306 0.0726614
1412250000 0.0139142 0.0730302 0.9860858 -0.0730302 0.9860858 -0.0730302 0.0139142 0.0730302
1419500000 0.0140987 0.0733949 0.9859013 -0.0733949 0.9859013 -0.0733949 0.0140987 0.0733949
1426750000 0.0142838 0.0737554 0.9857162 -0.0737554 0.9857162 -0.0737554 0.0142838 0.0737554
1434000000 0.0144693 0.0741115 0.9855307 -0.0741115 0.9855307 -0.0741115 0.0144693 0.0741115
1441250000 0.0146549 0.0744633 0.9853451 -0.0744633 0.9853451 -0.0744633 0.0146549 0.0744633
1448500000 0.0148404 0.0748106 0.9851596 -0.0748106 0.9851596 -0.0748106 0.0148404 0.0748106
1455750000 0.0150255 0.0751533 0.9849745 -0.0751533 0.9849745 -0.0751533 0.0150255 0.0751533
1463000000 0.0152099 0.0754913 0.9847901 -0.0754913 0.9847901 -0.0754913 0.0152099 0.0754913
1470250000 0.0153933 0.0758246 0.9846067 -0.0758246 0.9846067 -0.0758246 0.0153933 0.0758246
1477500000 0.0155753 0.0761533 0.9844247 -0.0761533 0.9844247 -0.0761533 0.0155753 0.0761533
1484750000 0.0157555 0.0764773 0.9842445 -0.0764773 0.9842445 -0.0764773 0.0157555 0.0764773
1492000000 0.0159338 0.0767966 0.9840662 -0.0767966 0.9840662 -0.0767966 0.0159338 0.0767966
1499250000 0.0161095 0.0771114 0.9838905 -0.0771114 0.9838905 -0.0771114 0.0161095 0.0771114
1506500000 0.0162826 0.0774218 0.9837174 -0.0774218 0.9837174 -0.0774218 0.0162826 0.0774218
1513750000 0.0164524 0.0777278 0.9835476 -0.0777278 0.9835476 -0.0777278 0.0164524 0.0777278
1521000000 0.0166188 0.0780297 0.9833812 -0.0780297 0.9833812 -0.0780297 0.0166188 0.0780297
1528250000 0.0167813 0.0783277 0.9832187 -0.0783277 0.9832187 -0.0783277 0.0167813 0.0783277
1535500000 0.0169396 0.0786220 0.9830604 -0.0786220 0.9830604 -0.0786220 0.0169396 0.0786220
1542750000 0.0170934 0.0789129 0.9829066 -0.0789129 0.9829066 -0.0789129 0.0170934 0.0789129
1550000000 0.0172424 0.0792007 0.9827576 -0.0792007 0.9827576 -0.0792007 0.0172424 0.0792007
1557250000 0.0173862 0.0794857 0.9826138 -0.0794857 0.9826138 -0.0794857 0.0173862 0.0794857
1564500000 0.0175247 0.0797684 0.9824753 -0.0797684 0.9824753 -0.0797684 0.0175247 0.0797684
1571750000 0.0176577 0.0800491 0.9823423 -0.0800491 0.9823423 -0.0800491 0.0176577 0.0800491
1579000000 0.0177849 0.0803282 0.9822151 -0.0803282 0.9822151 -0.0803282 0.0177849 0.0803282
1586250000 0.0179062 0.0806062 0.9820938 -0.0806062 0.9820938 -0.0806062 0.0179062 0.0806062
1593500000 0.0180215 0.0808836 0.9819785 -0.0808836 0.9819785 -0.0808836 0.0180215 0.0808836
1600750000 0.0181307 0.0811607 0.9818693 -0.0811607 0.9818693 -0.0811607 0.0181307 0.0811607
1608000000 0.0182338 0.0814381 0.9817662 -0.0814381 0.9817662 -0.0814381 0.0182338 0.0814381
1615250000 0.0183308 0.0817163 0.9816692 -0.0817163 0.9816692 -0.0817163 0.0183308 0.0817163
1622500000 0.0184219 0.0819956 0.9815781 -0.0819956 0.9815781 -0.0819956 0.0184219 0.0819956
1629750000 0.0185070 0.0822766 0.9814930 -0.0822766 0.9814930 -0.0822766 0.0185070 0.0822766
