!Murata Part Number: GRM31A7U3A180JW31
!These Parameters are Measured in Series Mode Connection
!Data Generated on Mar 30, 2021
!       o--ll--o
!Port1            Port2
!       o------o
!Operation Temp=25[degC], DC Bias Voltage=0[V]
!Freq. Start=100[MHz] Stop=3[GHz] 401[Steps]
# Hz S RI R 50
!Freq.(Hz) S11(Real) S11(Imag) S21(Real) S21(Imag) S12(Real) S12(Imag) S22(Real) S22(Imag)
100000000 0.4359776 -0.4945899 0.5640224 0.4945899 0.5640224 0.4945899 0.4359776 -0.4945899
107250000 0.4015882 -0.4888300 0.5984118 0.4888300 0.5984118 0.4888300 0.4015882 -0.4888300
114500000 0.3702520 -0.4813871 0.6297480 0.4813871 0.6297480 0.4813871 0.3702520 -0.4813871
121750000 0.3417554 -0.4727172 0.6582446 0.4727172 0.6582446 0.4727172 0.3417554 -0.4727172
129000000 0.3158699 -0.4631844 0.6841301 0.4631844 0.6841301 0.4631844 0.3158699 -0.4631844
136250000 0.2923657 -0.4530759 0.7076343 0.4530759 0.7076343 0.4530759 0.2923657 -0.4530759
143500000 0.2710203 -0.4426161 0.7289797 0.4426161 0.7289797 0.4426161 0.2710203 -0.4426161
150750000 0.2516247 -0.4319789 0.7483753 0.4319789 0.7483753 0.4319789 0.2516247 -0.4319789
158000000 0.2339851 -0.4212973 0.7660149 0.4212973 0.7660149 0.4212973 0.2339851 -0.4212973
165250000 0.2179244 -0.4106721 0.7820756 0.4106721 0.7820756 0.4106721 0.2179244 -0.4106721
172500000 0.2032823 -0.4001785 0.7967177 0.4001785 0.7967177 0.4001785 0.2032823 -0.4001785
179750000 0.1899145 -0.3898718 0.8100855 0.3898718 0.8100855 0.3898718 0.1899145 -0.3898718
187000000 0.1776915 -0.3797917 0.8223085 0.3797917 0.8223085 0.3797917 0.1776915 -0.3797917
194250000 0.1664976 -0.3699654 0.8335024 0.3699654 0.8335024 0.3699654 0.1664976 -0.3699654
201500000 0.1562298 -0.3604110 0.8437702 0.3604110 0.8437702 0.3604110 0.1562298 -0.3604110
208750000 0.1467961 -0.3511391 0.8532039 0.3511391 0.8532039 0.3511391 0.1467961 -0.3511391
216000000 0.1381146 -0.3421549 0.8618854 0.3421549 0.8618854 0.3421549 0.1381146 -0.3421549
223250000 0.1301125 -0.3334593 0.8698875 0.3334593 0.8698875 0.3334593 0.1301125 -0.3334593
230500000 0.1227249 -0.3250500 0.8772751 0.3250500 0.8772751 0.3250500 0.1227249 -0.3250500
237750000 0.1158937 -0.3169224 0.8841063 0.3169224 0.8841063 0.3169224 0.1158937 -0.3169224
245000000 0.1095674 -0.3090702 0.8904326 0.3090702 0.8904326 0.3090702 0.1095674 -0.3090702
252250000 0.1036998 -0.3014858 0.8963002 0.3014858 0.8963002 0.3014858 0.1036998 -0.3014858
259500000 0.0982496 -0.2941608 0.9017504 0.2941608 0.9017504 0.2941608 0.0982496 -0.2941608
266750000 0.0931799 -0.2870865 0.9068201 0.2870865 0.9068201 0.2870865 0.0931799 -0.2870865
274000000 0.0884575 -0.2802535 0.9115425 0.2802535 0.9115425 0.2802535 0.0884575 -0.2802535
281250000 0.0840527 -0.2736527 0.9159473 0.2736527 0.9159473 0.2736527 0.0840527 -0.2736527
288500000 0.0799386 -0.2672747 0.9200614 0.2672747 0.9200614 0.2672747 0.0799386 -0.2672747
295750000 0.0760913 -0.2611103 0.9239087 0.2611103 0.9239087 0.2611103 0.0760913 -0.2611103
303000000 0.0724888 -0.2551506 0.9275112 0.2551506 0.9275112 0.2551506 0.0724888 -0.2551506
310250000 0.0691117 -0.2493868 0.9308883 0.2493868 0.9308883 0.2493868 0.0691117 -0.2493868
317500000 0.0659421 -0.2438105 0.9340579 0.2438105 0.9340579 0.2438105 0.0659421 -0.2438105
324750000 0.0629638 -0.2384135 0.9370362 0.2384135 0.9370362 0.2384135 0.0629638 -0.2384135
332000000 0.0601624 -0.2331878 0.9398376 0.2331878 0.9398376 0.2331878 0.0601624 -0.2331878
339250000 0.0575245 -0.2281261 0.9424755 0.2281261 0.9424755 0.2281261 0.0575245 -0.2281261
346500000 0.0550380 -0.2232211 0.9449620 0.2232211 0.9449620 0.2232211 0.0550380 -0.2232211
353750000 0.0526919 -0.2184659 0.9473081 0.2184659 0.9473081 0.2184659 0.0526919 -0.2184659
361000000 0.0504762 -0.2138539 0.9495238 0.2138539 0.9495238 0.2138539 0.0504762 -0.2138539
368250000 0.0483816 -0.2093789 0.9516184 0.2093789 0.9516184 0.2093789 0.0483816 -0.2093789
375500000 0.0463998 -0.2050349 0.9536002 0.2050349 0.9536002 0.2050349 0.0463998 -0.2050349
382750000 0.0445231 -0.2008163 0.9554769 0.2008163 0.9554769 0.2008163 0.0445231 -0.2008163
390000000 0.0427444 -0.1967176 0.9572556 0.1967176 0.9572556 0.1967176 0.0427444 -0.1967176
397250000 0.0410572 -0.1927337 0.9589428 0.1927337 0.9589428 0.1927337 0.0410572 -0.1927337
404500000 0.0394556 -0.1888598 0.9605444 0.1888598 0.9605444 0.1888598 0.0394556 -0.1888598
411750000 0.0379339 -0.1850913 0.9620661 0.1850913 0.9620661 0.1850913 0.0379339 -0.1850913
419000000 0.0364873 -0.1814236 0.9635127 0.1814236 0.9635127 0.1814236 0.0364873 -0.1814236
426250000 0.0351109 -0.1778526 0.9648891 0.1778526 0.9648891 0.1778526 0.0351109 -0.1778526
433500000 0.0338005 -0.1743744 0.9661995 0.1743744 0.9661995 0.1743744 0.0338005 -0.1743744
440750000 0.0325521 -0.1709851 0.9674479 0.1709851 0.9674479 0.1709851 0.0325521 -0.1709851
448000000 0.0313620 -0.1676812 0.9686380 0.1676812 0.9686380 0.1676812 0.0313620 -0.1676812
455250000 0.0302267 -0.1644593 0.9697733 0.1644593 0.9697733 0.1644593 0.0302267 -0.1644593
462500000 0.0291430 -0.1613160 0.9708570 0.1613160 0.9708570 0.1613160 0.0291430 -0.1613160
469750000 0.0281080 -0.1582484 0.9718920 0.1582484 0.9718920 0.1582484 0.0281080 -0.1582484
477000000 0.0271190 -0.1552534 0.9728810 0.1552534 0.9728810 0.1552534 0.0271190 -0.1552534
484250000 0.0261734 -0.1523282 0.9738266 0.1523282 0.9738266 0.1523282 0.0261734 -0.1523282
491500000 0.0252687 -0.1494702 0.9747313 0.1494702 0.9747313 0.1494702 0.0252687 -0.1494702
498750000 0.0244028 -0.1466769 0.9755972 0.1466769 0.9755972 0.1466769 0.0244028 -0.1466769
506000000 0.0235736 -0.1439457 0.9764264 0.1439457 0.9764264 0.1439457 0.0235736 -0.1439457
513250000 0.0227792 -0.1412744 0.9772208 0.1412744 0.9772208 0.1412744 0.0227792 -0.1412744
520500000 0.0220177 -0.1386609 0.9779823 0.1386609 0.9779823 0.1386609 0.0220177 -0.1386609
527750000 0.0212875 -0.1361029 0.9787125 0.1361029 0.9787125 0.1361029 0.0212875 -0.1361029
535000000 0.0205869 -0.1335985 0.9794131 0.1335985 0.9794131 0.1335985 0.0205869 -0.1335985
542250000 0.0199145 -0.1311457 0.9800855 0.1311457 0.9800855 0.1311457 0.0199145 -0.1311457
549500000 0.0192688 -0.1287428 0.9807312 0.1287428 0.9807312 0.1287428 0.0192688 -0.1287428
556750000 0.0186487 -0.1263880 0.9813513 0.1263880 0.9813513 0.1263880 0.0186487 -0.1263880
564000000 0.0180527 -0.1240796 0.9819473 0.1240796 0.9819473 0.1240796 0.0180527 -0.1240796
571250000 0.0174799 -0.1218160 0.9825201 0.1218160 0.9825201 0.1218160 0.0174799 -0.1218160
578500000 0.0169290 -0.1195957 0.9830710 0.1195957 0.9830710 0.1195957 0.0169290 -0.1195957
585750000 0.0163991 -0.1174172 0.9836009 0.1174172 0.9836009 0.1174172 0.0163991 -0.1174172
593000000 0.0158892 -0.1152791 0.9841108 0.1152791 0.9841108 0.1152791 0.0158892 -0.1152791
600250000 0.0153984 -0.1131802 0.9846016 0.1131802 0.9846016 0.1131802 0.0153984 -0.1131802
607500000 0.0149258 -0.1111190 0.9850742 0.1111190 0.9850742 0.1111190 0.0149258 -0.1111190
614750000 0.0144707 -0.1090944 0.9855293 0.1090944 0.9855293 0.1090944 0.0144707 -0.1090944
622000000 0.0140322 -0.1071052 0.9859678 0.1071052 0.9859678 0.1071052 0.0140322 -0.1071052
629250000 0.0136097 -0.1051502 0.9863903 0.1051502 0.9863903 0.1051502 0.0136097 -0.1051502
636500000 0.0132024 -0.1032284 0.9867976 0.1032284 0.9867976 0.1032284 0.0132024 -0.1032284
643750000 0.0128097 -0.1013387 0.9871903 0.1013387 0.9871903 0.1013387 0.0128097 -0.1013387
651000000 0.0124311 -0.0994802 0.9875689 0.0994802 0.9875689 0.0994802 0.0124311 -0.0994802
658250000 0.0120658 -0.0976518 0.9879342 0.0976518 0.9879342 0.0976518 0.0120658 -0.0976518
665500000 0.0117135 -0.0958526 0.9882865 0.0958526 0.9882865 0.0958526 0.0117135 -0.0958526
672750000 0.0113734 -0.0940819 0.9886266 0.0940819 0.9886266 0.0940819 0.0113734 -0.0940819
680000000 0.0110453 -0.0923386 0.9889547 0.0923386 0.9889547 0.0923386 0.0110453 -0.0923386
687250000 0.0107285 -0.0906220 0.9892715 0.0906220 0.9892715 0.0906220 0.0107285 -0.0906220
694500000 0.0104227 -0.0889313 0.9895773 0.0889313 0.9895773 0.0889313 0.0104227 -0.0889313
701750000 0.0101274 -0.0872657 0.9898726 0.0872657 0.9898726 0.0872657 0.0101274 -0.0872657
709000000 0.0098423 -0.0856245 0.9901577 0.0856245 0.9901577 0.0856245 0.0098423 -0.0856245
716250000 0.0095668 -0.0840070 0.9904332 0.0840070 0.9904332 0.0840070 0.0095668 -0.0840070
723500000 0.0093008 -0.0824126 0.9906992 0.0824126 0.9906992 0.0824126 0.0093008 -0.0824126
730750000 0.0090437 -0.0808405 0.9909563 0.0808405 0.9909563 0.0808405 0.0090437 -0.0808405
738000000 0.0087954 -0.0792901 0.9912046 0.0792901 0.9912046 0.0792901 0.0087954 -0.0792901
745250000 0.0085555 -0.0777609 0.9914445 0.0777609 0.9914445 0.0777609 0.0085555 -0.0777609
752500000 0.0083236 -0.0762522 0.9916764 0.0762522 0.9916764 0.0762522 0.0083236 -0.0762522
759750000 0.0080996 -0.0747635 0.9919004 0.0747635 0.9919004 0.0747635 0.0080996 -0.0747635
767000000 0.0078831 -0.0732942 0.9921169 0.0732942 0.9921169 0.0732942 0.0078831 -0.0732942
774250000 0.0076738 -0.0718438 0.9923262 0.0718438 0.9923262 0.0718438 0.0076738 -0.0718438
781500000 0.0074716 -0.0704118 0.9925284 0.0704118 0.9925284 0.0704118 0.0074716 -0.0704118
788750000 0.0072762 -0.0689978 0.9927238 0.0689978 0.9927238 0.0689978 0.0072762 -0.0689978
796000000 0.0070873 -0.0676011 0.9929127 0.0676011 0.9929127 0.0676011 0.0070873 -0.0676011
803250000 0.0069047 -0.0662214 0.9930953 0.0662214 0.9930953 0.0662214 0.0069047 -0.0662214
810500000 0.0067283 -0.0648583 0.9932717 0.0648583 0.9932717 0.0648583 0.0067283 -0.0648583
817750000 0.0065579 -0.0635112 0.9934421 0.0635112 0.9934421 0.0635112 0.0065579 -0.0635112
825000000 0.0063932 -0.0621798 0.9936068 0.0621798 0.9936068 0.0621798 0.0063932 -0.0621798
832250000 0.0062340 -0.0608638 0.9937660 0.0608638 0.9937660 0.0608638 0.0062340 -0.0608638
839500000 0.0060803 -0.0595626 0.9939197 0.0595626 0.9939197 0.0595626 0.0060803 -0.0595626
846750000 0.0059317 -0.0582759 0.9940683 0.0582759 0.9940683 0.0582759 0.0059317 -0.0582759
854000000 0.0057883 -0.0570034 0.9942117 0.0570034 0.9942117 0.0570034 0.0057883 -0.0570034
861250000 0.0056497 -0.0557446 0.9943503 0.0557446 0.9943503 0.0557446 0.0056497 -0.0557446
868500000 0.0055159 -0.0544994 0.9944841 0.0544994 0.9944841 0.0544994 0.0055159 -0.0544994
875750000 0.0053868 -0.0532672 0.9946132 0.0532672 0.9946132 0.0532672 0.0053868 -0.0532672
883000000 0.0052621 -0.0520479 0.9947379 0.0520479 0.9947379 0.0520479 0.0052621 -0.0520479
890250000 0.0051418 -0.0508411 0.9948582 0.0508411 0.9948582 0.0508411 0.0051418 -0.0508411
897500000 0.0050258 -0.0496465 0.9949742 0.0496465 0.9949742 0.0496465 0.0050258 -0.0496465
904750000 0.0049138 -0.0484637 0.9950862 0.0484637 0.9950862 0.0484637 0.0049138 -0.0484637
912000000 0.0048059 -0.0472926 0.9951941 0.0472926 0.9951941 0.0472926 0.0048059 -0.0472926
919250000 0.0047019 -0.0461329 0.9952981 0.0461329 0.9952981 0.0461329 0.0047019 -0.0461329
926500000 0.0046016 -0.0449842 0.9953984 0.0449842 0.9953984 0.0449842 0.0046016 -0.0449842
933750000 0.0045051 -0.0438463 0.9954949 0.0438463 0.9954949 0.0438463 0.0045051 -0.0438463
941000000 0.0044121 -0.0427190 0.9955879 0.0427190 0.9955879 0.0427190 0.0044121 -0.0427190
948250000 0.0043226 -0.0416020 0.9956774 0.0416020 0.9956774 0.0416020 0.0043226 -0.0416020
955500000 0.0042366 -0.0404952 0.9957634 0.0404952 0.9957634 0.0404952 0.0042366 -0.0404952
962750000 0.0041539 -0.0393981 0.9958461 0.0393981 0.9958461 0.0393981 0.0041539 -0.0393981
970000000 0.0040743 -0.0383107 0.9959257 0.0383107 0.9959257 0.0383107 0.0040743 -0.0383107
977250000 0.0039980 -0.0372327 0.9960020 0.0372327 0.9960020 0.0372327 0.0039980 -0.0372327
984500000 0.0039247 -0.0361639 0.9960753 0.0361639 0.9960753 0.0361639 0.0039247 -0.0361639
991750000 0.0038545 -0.0351041 0.9961455 0.0351041 0.9961455 0.0351041 0.0038545 -0.0351041
999000000 0.0037871 -0.0340531 0.9962129 0.0340531 0.9962129 0.0340531 0.0037871 -0.0340531
1006250000 0.0037227 -0.0330107 0.9962773 0.0330107 0.9962773 0.0330107 0.0037227 -0.0330107
1013500000 0.0036610 -0.0319767 0.9963390 0.0319767 0.9963390 0.0319767 0.0036610 -0.0319767
1020750000 0.0036020 -0.0309510 0.9963980 0.0309510 0.9963980 0.0309510 0.0036020 -0.0309510
1028000000 0.0035458 -0.0299333 0.9964542 0.0299333 0.9964542 0.0299333 0.0035458 -0.0299333
1035250000 0.0034921 -0.0289234 0.9965079 0.0289234 0.9965079 0.0289234 0.0034921 -0.0289234
1042500000 0.0034410 -0.0279213 0.9965590 0.0279213 0.9965590 0.0279213 0.0034410 -0.0279213
1049750000 0.0033923 -0.0269266 0.9966077 0.0269266 0.9966077 0.0269266 0.0033923 -0.0269266
1057000000 0.0033462 -0.0259394 0.9966538 0.0259394 0.9966538 0.0259394 0.0033462 -0.0259394
1064250000 0.0033024 -0.0249594 0.9966976 0.0249594 0.9966976 0.0249594 0.0033024 -0.0249594
1071500000 0.0032609 -0.0239864 0.9967391 0.0239864 0.9967391 0.0239864 0.0032609 -0.0239864
1078750000 0.0032218 -0.0230203 0.9967782 0.0230203 0.9967782 0.0230203 0.0032218 -0.0230203
1086000000 0.0031848 -0.0220611 0.9968152 0.0220611 0.9968152 0.0220611 0.0031848 -0.0220611
1093250000 0.0031501 -0.0211084 0.9968499 0.0211084 0.9968499 0.0211084 0.0031501 -0.0211084
1100500000 0.0031176 -0.0201622 0.9968824 0.0201622 0.9968824 0.0201622 0.0031176 -0.0201622
1107750000 0.0030871 -0.0192224 0.9969129 0.0192224 0.9969129 0.0192224 0.0030871 -0.0192224
1115000000 0.0030588 -0.0182888 0.9969412 0.0182888 0.9969412 0.0182888 0.0030588 -0.0182888
1122250000 0.0030324 -0.0173613 0.9969676 0.0173613 0.9969676 0.0173613 0.0030324 -0.0173613
1129500000 0.0030081 -0.0164397 0.9969919 0.0164397 0.9969919 0.0164397 0.0030081 -0.0164397
1136750000 0.0029857 -0.0155240 0.9970143 0.0155240 0.9970143 0.0155240 0.0029857 -0.0155240
1144000000 0.0029653 -0.0146140 0.9970347 0.0146140 0.9970347 0.0146140 0.0029653 -0.0146140
1151250000 0.0029467 -0.0137097 0.9970533 0.0137097 0.9970533 0.0137097 0.0029467 -0.0137097
1158500000 0.0029300 -0.0128108 0.9970700 0.0128108 0.9970700 0.0128108 0.0029300 -0.0128108
1165750000 0.0029151 -0.0119173 0.9970849 0.0119173 0.9970849 0.0119173 0.0029151 -0.0119173
1173000000 0.0029020 -0.0110291 0.9970980 0.0110291 0.9970980 0.0110291 0.0029020 -0.0110291
1180250000 0.0028907 -0.0101460 0.9971093 0.0101460 0.9971093 0.0101460 0.0028907 -0.0101460
1187500000 0.0028811 -0.0092680 0.9971189 0.0092680 0.9971189 0.0092680 0.0028811 -0.0092680
1194750000 0.0028733 -0.0083950 0.9971267 0.0083950 0.9971267 0.0083950 0.0028733 -0.0083950
1202000000 0.0028671 -0.0075268 0.9971329 0.0075268 0.9971329 0.0075268 0.0028671 -0.0075268
1209250000 0.0028625 -0.0066634 0.9971375 0.0066634 0.9971375 0.0066634 0.0028625 -0.0066634
1216500000 0.0028596 -0.0058047 0.9971404 0.0058047 0.9971404 0.0058047 0.0028596 -0.0058047
1223750000 0.0028584 -0.0049506 0.9971416 0.0049506 0.9971416 0.0049506 0.0028584 -0.0049506
1231000000 0.0028586 -0.0041009 0.9971414 0.0041009 0.9971414 0.0041009 0.0028586 -0.0041009
1238250000 0.0028605 -0.0032557 0.9971395 0.0032557 0.9971395 0.0032557 0.0028605 -0.0032557
1245500000 0.0028639 -0.0024147 0.9971361 0.0024147 0.9971361 0.0024147 0.0028639 -0.0024147
1252750000 0.0028688 -0.0015780 0.9971312 0.0015780 0.9971312 0.0015780 0.0028688 -0.0015780
1260000000 0.0028752 -0.0007455 0.9971248 0.0007455 0.9971248 0.0007455 0.0028752 -0.0007455
1267250000 0.0028831 0.0000830 0.9971169 -0.0000830 0.9971169 -0.0000830 0.0028831 0.0000830
1274500000 0.0028924 0.0009075 0.9971076 -0.0009075 0.9971076 -0.0009075 0.0028924 0.0009075
1281750000 0.0029032 0.0017281 0.9970968 -0.0017281 0.9970968 -0.0017281 0.0029032 0.0017281
1289000000 0.0029154 0.0025449 0.9970846 -0.0025449 0.9970846 -0.0025449 0.0029154 0.0025449
1296250000 0.0029290 0.0033579 0.9970710 -0.0033579 0.9970710 -0.0033579 0.0029290 0.0033579
1303500000 0.0029440 0.0041672 0.9970560 -0.0041672 0.9970560 -0.0041672 0.0029440 0.0041672
1310750000 0.0029604 0.0049729 0.9970396 -0.0049729 0.9970396 -0.0049729 0.0029604 0.0049729
1318000000 0.0029781 0.0057750 0.9970219 -0.0057750 0.9970219 -0.0057750 0.0029781 0.0057750
1325250000 0.0029972 0.0065737 0.9970028 -0.0065737 0.9970028 -0.0065737 0.0029972 0.0065737
1332500000 0.0030175 0.0073689 0.9969825 -0.0073689 0.9969825 -0.0073689 0.0030175 0.0073689
1339750000 0.0030392 0.0081609 0.9969608 -0.0081609 0.9969608 -0.0081609 0.0030392 0.0081609
1347000000 0.0030622 0.0089495 0.9969378 -0.0089495 0.9969378 -0.0089495 0.0030622 0.0089495
1354250000 0.0030865 0.0097349 0.9969135 -0.0097349 0.9969135 -0.0097349 0.0030865 0.0097349
1361500000 0.0031121 0.0105172 0.9968879 -0.0105172 0.9968879 -0.0105172 0.0031121 0.0105172
1368750000 0.0031389 0.0112963 0.9968611 -0.0112963 0.9968611 -0.0112963 0.0031389 0.0112963
1376000000 0.0031670 0.0120724 0.9968330 -0.0120724 0.9968330 -0.0120724 0.0031670 0.0120724
1383250000 0.0031963 0.0128456 0.9968037 -0.0128456 0.9968037 -0.0128456 0.0031963 0.0128456
1390500000 0.0032268 0.0136158 0.9967732 -0.0136158 0.9967732 -0.0136158 0.0032268 0.0136158
1397750000 0.0032585 0.0143831 0.9967415 -0.0143831 0.9967415 -0.0143831 0.0032585 0.0143831
1405000000 0.0032915 0.0151477 0.9967085 -0.0151477 0.9967085 -0.0151477 0.0032915 0.0151477
1412250000 0.0033256 0.0159094 0.9966744 -0.0159094 0.9966744 -0.0159094 0.0033256 0.0159094
1419500000 0.0033610 0.0166685 0.9966390 -0.0166685 0.9966390 -0.0166685 0.0033610 0.0166685
1426750000 0.0033975 0.0174249 0.9966025 -0.0174249 0.9966025 -0.0174249 0.0033975 0.0174249
1434000000 0.0034351 0.0181787 0.9965649 -0.0181787 0.9965649 -0.0181787 0.0034351 0.0181787
1441250000 0.0034740 0.0189300 0.9965260 -0.0189300 0.9965260 -0.0189300 0.0034740 0.0189300
1448500000 0.0035140 0.0196787 0.9964860 -0.0196787 0.9964860 -0.0196787 0.0035140 0.0196787
1455750000 0.0035551 0.0204250 0.9964449 -0.0204250 0.9964449 -0.0204250 0.0035551 0.0204250
1463000000 0.0035974 0.0211689 0.9964026 -0.0211689 0.9964026 -0.0211689 0.0035974 0.0211689
1470250000 0.0036407 0.0219104 0.9963593 -0.0219104 0.9963593 -0.0219104 0.0036407 0.0219104
1477500000 0.0036853 0.0226496 0.9963147 -0.0226496 0.9963147 -0.0226496 0.0036853 0.0226496
1484750000 0.0037309 0.0233865 0.9962691 -0.0233865 0.9962691 -0.0233865 0.0037309 0.0233865
1492000000 0.0037776 0.0241212 0.9962224 -0.0241212 0.9962224 -0.0241212 0.0037776 0.0241212
1499250000 0.0038255 0.0248537 0.9961745 -0.0248537 0.9961745 -0.0248537 0.0038255 0.0248537
1506500000 0.0038744 0.0255841 0.9961256 -0.0255841 0.9961256 -0.0255841 0.0038744 0.0255841
1513750000 0.0039244 0.0263123 0.9960756 -0.0263123 0.9960756 -0.0263123 0.0039244 0.0263123
1521000000 0.0039755 0.0270385 0.9960245 -0.0270385 0.9960245 -0.0270385 0.0039755 0.0270385
1528250000 0.0040277 0.0277626 0.9959723 -0.0277626 0.9959723 -0.0277626 0.0040277 0.0277626
1535500000 0.0040810 0.0284848 0.9959190 -0.0284848 0.9959190 -0.0284848 0.0040810 0.0284848
1542750000 0.0041353 0.0292050 0.9958647 -0.0292050 0.9958647 -0.0292050 0.0041353 0.0292050
1550000000 0.0041907 0.0299233 0.9958093 -0.0299233 0.9958093 -0.0299233 0.0041907 0.0299233
1557250000 0.0042471 0.0306397 0.9957529 -0.0306397 0.9957529 -0.0306397 0.0042471 0.0306397
1564500000 0.0043046 0.0313543 0.9956954 -0.0313543 0.9956954 -0.0313543 0.0043046 0.0313543
1571750000 0.0043632 0.0320671 0.9956368 -0.0320671 0.9956368 -0.0320671 0.0043632 0.0320671
1579000000 0.0044228 0.0327781 0.9955772 -0.0327781 0.9955772 -0.0327781 0.0044228 0.0327781
1586250000 0.0044835 0.0334874 0.9955165 -0.0334874 0.9955165 -0.0334874 0.0044835 0.0334874
1593500000 0.0045451 0.0341949 0.9954549 -0.0341949 0.9954549 -0.0341949 0.0045451 0.0341949
1600750000 0.0046079 0.0349008 0.9953921 -0.0349008 0.9953921 -0.0349008 0.0046079 0.0349008
1608000000 0.0046716 0.0356051 0.9953284 -0.0356051 0.9953284 -0.0356051 0.0046716 0.0356051
1615250000 0.0047364 0.0363078 0.9952636 -0.0363078 0.9952636 -0.0363078 0.0047364 0.0363078
1622500000 0.0048023 0.0370089 0.9951977 -0.0370089 0.9951977 -0.0370089 0.0048023 0.0370089
1629750000 0.0048691 0.0377084 0.9951309 -0.0377084 0.9951309 -0.0377084 0.0048691 0.0377084
