!Murata Part Number: GRM31A7U3D330JW31
!These Parameters are Measured in Series Mode Connection
!Data Generated on Mar 30, 2021
!       o--ll--o
!Port1            Port2
!       o------o
!Operation Temp=25[degC], DC Bias Voltage=0[V]
!Freq. Start=100[MHz] Stop=3[GHz] 401[Steps]
# Hz S RI R 50
!Freq.(Hz) S11(Real) S11(Imag) S21(Real) S21(Imag) S12(Real) S12(Imag) S22(Real) S22(Imag)
100000000 0.1861334 -0.3874618 0.8138666 0.3874618 0.8138666 0.3874618 0.1861334 -0.3874618
107250000 0.1655359 -0.3697804 0.8344641 0.3697804 0.8344641 0.3697804 0.1655359 -0.3697804
114500000 0.1479376 -0.3530238 0.8520624 0.3530238 0.8520624 0.3530238 0.1479376 -0.3530238
121750000 0.1328191 -0.3372326 0.8671809 0.3372326 0.8671809 0.3372326 0.1328191 -0.3372326
129000000 0.1197602 -0.3224014 0.8802398 0.3224014 0.8802398 0.3224014 0.1197602 -0.3224014
136250000 0.1084206 -0.3084975 0.8915794 0.3084975 0.8915794 0.3084975 0.1084206 -0.3084975
143500000 0.0985238 -0.2954734 0.9014762 0.2954734 0.9014762 0.2954734 0.0985238 -0.2954734
150750000 0.0898441 -0.2832742 0.9101559 0.2832742 0.9101559 0.2832742 0.0898441 -0.2832742
158000000 0.0821966 -0.2718431 0.9178034 0.2718431 0.9178034 0.2718431 0.0821966 -0.2718431
165250000 0.0754291 -0.2611233 0.9245709 0.2611233 0.9245709 0.2611233 0.0754291 -0.2611233
172500000 0.0694152 -0.2510606 0.9305848 0.2510606 0.9305848 0.2510606 0.0694152 -0.2510606
179750000 0.0640502 -0.2416035 0.9359498 0.2416035 0.9359498 0.2416035 0.0640502 -0.2416035
187000000 0.0592462 -0.2327042 0.9407538 0.2327042 0.9407538 0.2327042 0.0592462 -0.2327042
194250000 0.0549296 -0.2243187 0.9450704 0.2243187 0.9450704 0.2243187 0.0549296 -0.2243187
201500000 0.0510379 -0.2164064 0.9489621 0.2164064 0.9489621 0.2164064 0.0510379 -0.2164064
208750000 0.0475185 -0.2089301 0.9524815 0.2089301 0.9524815 0.2089301 0.0475185 -0.2089301
216000000 0.0443262 -0.2018561 0.9556738 0.2018561 0.9556738 0.2018561 0.0443262 -0.2018561
223250000 0.0414226 -0.1951535 0.9585774 0.1951535 0.9585774 0.1951535 0.0414226 -0.1951535
230500000 0.0387746 -0.1887941 0.9612254 0.1887941 0.9612254 0.1887941 0.0387746 -0.1887941
237750000 0.0363536 -0.1827523 0.9636464 0.1827523 0.9636464 0.1827523 0.0363536 -0.1827523
245000000 0.0341350 -0.1770048 0.9658650 0.1770048 0.9658650 0.1770048 0.0341350 -0.1770048
252250000 0.0320971 -0.1715304 0.9679029 0.1715304 0.9679029 0.1715304 0.0320971 -0.1715304
259500000 0.0302214 -0.1663095 0.9697786 0.1663095 0.9697786 0.1663095 0.0302214 -0.1663095
266750000 0.0284914 -0.1613246 0.9715086 0.1613246 0.9715086 0.1613246 0.0284914 -0.1613246
274000000 0.0268926 -0.1565594 0.9731074 0.1565594 0.9731074 0.1565594 0.0268926 -0.1565594
281250000 0.0254126 -0.1519990 0.9745874 0.1519990 0.9745874 0.1519990 0.0254126 -0.1519990
288500000 0.0240399 -0.1476299 0.9759601 0.1476299 0.9759601 0.1476299 0.0240399 -0.1476299
295750000 0.0227648 -0.1434397 0.9772352 0.1434397 0.9772352 0.1434397 0.0227648 -0.1434397
303000000 0.0215784 -0.1394169 0.9784216 0.1394169 0.9784216 0.1394169 0.0215784 -0.1394169
310250000 0.0204730 -0.1355509 0.9795270 0.1355509 0.9795270 0.1355509 0.0204730 -0.1355509
317500000 0.0194415 -0.1318321 0.9805585 0.1318321 0.9805585 0.1318321 0.0194415 -0.1318321
324750000 0.0184776 -0.1282516 0.9815224 0.1282516 0.9815224 0.1282516 0.0184776 -0.1282516
332000000 0.0175758 -0.1248010 0.9824242 0.1248010 0.9824242 0.1248010 0.0175758 -0.1248010
339250000 0.0167310 -0.1214729 0.9832690 0.1214729 0.9832690 0.1214729 0.0167310 -0.1214729
346500000 0.0159387 -0.1182600 0.9840613 0.1182600 0.9840613 0.1182600 0.0159387 -0.1182600
353750000 0.0151947 -0.1151559 0.9848053 0.1151559 0.9848053 0.1151559 0.0151947 -0.1151559
361000000 0.0144955 -0.1121545 0.9855045 0.1121545 0.9855045 0.1121545 0.0144955 -0.1121545
368250000 0.0138375 -0.1092502 0.9861625 0.1092502 0.9861625 0.1092502 0.0138375 -0.1092502
375500000 0.0132179 -0.1064377 0.9867821 0.1064377 0.9867821 0.1064377 0.0132179 -0.1064377
382750000 0.0126337 -0.1037122 0.9873663 0.1037122 0.9873663 0.1037122 0.0126337 -0.1037122
390000000 0.0120826 -0.1010690 0.9879174 0.1010690 0.9879174 0.1010690 0.0120826 -0.1010690
397250000 0.0115621 -0.0985041 0.9884379 0.0985041 0.9884379 0.0985041 0.0115621 -0.0985041
404500000 0.0110702 -0.0960133 0.9889298 0.0960133 0.9889298 0.0960133 0.0110702 -0.0960133
411750000 0.0106050 -0.0935931 0.9893950 0.0935931 0.9893950 0.0935931 0.0106050 -0.0935931
419000000 0.0101646 -0.0912399 0.9898354 0.0912399 0.9898354 0.0912399 0.0101646 -0.0912399
426250000 0.0097476 -0.0889505 0.9902524 0.0889505 0.9902524 0.0889505 0.0097476 -0.0889505
433500000 0.0093523 -0.0867218 0.9906477 0.0867218 0.9906477 0.0867218 0.0093523 -0.0867218
440750000 0.0089775 -0.0845511 0.9910225 0.0845511 0.9910225 0.0845511 0.0089775 -0.0845511
448000000 0.0086218 -0.0824355 0.9913782 0.0824355 0.9913782 0.0824355 0.0086218 -0.0824355
455250000 0.0082841 -0.0803727 0.9917159 0.0803727 0.9917159 0.0803727 0.0082841 -0.0803727
462500000 0.0079633 -0.0783602 0.9920367 0.0783602 0.9920367 0.0783602 0.0079633 -0.0783602
469750000 0.0076584 -0.0763957 0.9923416 0.0763957 0.9923416 0.0763957 0.0076584 -0.0763957
477000000 0.0073686 -0.0744772 0.9926314 0.0744772 0.9926314 0.0744772 0.0073686 -0.0744772
484250000 0.0070929 -0.0726027 0.9929071 0.0726027 0.9929071 0.0726027 0.0070929 -0.0726027
491500000 0.0068305 -0.0707703 0.9931695 0.0707703 0.9931695 0.0707703 0.0068305 -0.0707703
498750000 0.0065808 -0.0689783 0.9934192 0.0689783 0.9934192 0.0689783 0.0065808 -0.0689783
506000000 0.0063430 -0.0672249 0.9936570 0.0672249 0.9936570 0.0672249 0.0063430 -0.0672249
513250000 0.0061165 -0.0655086 0.9938835 0.0655086 0.9938835 0.0655086 0.0061165 -0.0655086
520500000 0.0059007 -0.0638278 0.9940993 0.0638278 0.9940993 0.0638278 0.0059007 -0.0638278
527750000 0.0056951 -0.0621813 0.9943049 0.0621813 0.9943049 0.0621813 0.0056951 -0.0621813
535000000 0.0054990 -0.0605674 0.9945010 0.0605674 0.9945010 0.0605674 0.0054990 -0.0605674
542250000 0.0053121 -0.0589852 0.9946879 0.0589852 0.9946879 0.0589852 0.0053121 -0.0589852
549500000 0.0051339 -0.0574332 0.9948661 0.0574332 0.9948661 0.0574332 0.0051339 -0.0574332
556750000 0.0049640 -0.0559103 0.9950360 0.0559103 0.9950360 0.0559103 0.0049640 -0.0559103
564000000 0.0048019 -0.0544156 0.9951981 0.0544156 0.9951981 0.0544156 0.0048019 -0.0544156
571250000 0.0046474 -0.0529478 0.9953526 0.0529478 0.9953526 0.0529478 0.0046474 -0.0529478
578500000 0.0044999 -0.0515060 0.9955001 0.0515060 0.9955001 0.0515060 0.0044999 -0.0515060
585750000 0.0043593 -0.0500893 0.9956407 0.0500893 0.9956407 0.0500893 0.0043593 -0.0500893
593000000 0.0042252 -0.0486967 0.9957748 0.0486967 0.9957748 0.0486967 0.0042252 -0.0486967
600250000 0.0040973 -0.0473274 0.9959027 0.0473274 0.9959027 0.0473274 0.0040973 -0.0473274
607500000 0.0039754 -0.0459807 0.9960246 0.0459807 0.9960246 0.0459807 0.0039754 -0.0459807
614750000 0.0038592 -0.0446556 0.9961408 0.0446556 0.9961408 0.0446556 0.0038592 -0.0446556
622000000 0.0037484 -0.0433514 0.9962516 0.0433514 0.9962516 0.0433514 0.0037484 -0.0433514
629250000 0.0036428 -0.0420675 0.9963572 0.0420675 0.9963572 0.0420675 0.0036428 -0.0420675
636500000 0.0035422 -0.0408031 0.9964578 0.0408031 0.9964578 0.0408031 0.0035422 -0.0408031
643750000 0.0034464 -0.0395577 0.9965536 0.0395577 0.9965536 0.0395577 0.0034464 -0.0395577
651000000 0.0033553 -0.0383305 0.9966447 0.0383305 0.9966447 0.0383305 0.0033553 -0.0383305
658250000 0.0032685 -0.0371209 0.9967315 0.0371209 0.9967315 0.0371209 0.0032685 -0.0371209
665500000 0.0031860 -0.0359285 0.9968140 0.0359285 0.9968140 0.0359285 0.0031860 -0.0359285
672750000 0.0031076 -0.0347526 0.9968924 0.0347526 0.9968924 0.0347526 0.0031076 -0.0347526
680000000 0.0030331 -0.0335927 0.9969669 0.0335927 0.9969669 0.0335927 0.0030331 -0.0335927
687250000 0.0029624 -0.0324484 0.9970376 0.0324484 0.9970376 0.0324484 0.0029624 -0.0324484
694500000 0.0028954 -0.0313191 0.9971046 0.0313191 0.9971046 0.0313191 0.0028954 -0.0313191
701750000 0.0028318 -0.0302043 0.9971682 0.0302043 0.9971682 0.0302043 0.0028318 -0.0302043
709000000 0.0027717 -0.0291037 0.9972283 0.0291037 0.9972283 0.0291037 0.0027717 -0.0291037
716250000 0.0027148 -0.0280167 0.9972852 0.0280167 0.9972852 0.0280167 0.0027148 -0.0280167
723500000 0.0026611 -0.0269430 0.9973389 0.0269430 0.9973389 0.0269430 0.0026611 -0.0269430
730750000 0.0026104 -0.0258822 0.9973896 0.0258822 0.9973896 0.0258822 0.0026104 -0.0258822
738000000 0.0025627 -0.0248340 0.9974373 0.0248340 0.9974373 0.0248340 0.0025627 -0.0248340
745250000 0.0025179 -0.0237978 0.9974821 0.0237978 0.9974821 0.0237978 0.0025179 -0.0237978
752500000 0.0024758 -0.0227734 0.9975242 0.0227734 0.9975242 0.0227734 0.0024758 -0.0227734
759750000 0.0024364 -0.0217605 0.9975636 0.0217605 0.9975636 0.0217605 0.0024364 -0.0217605
767000000 0.0023995 -0.0207586 0.9976005 0.0207586 0.9976005 0.0207586 0.0023995 -0.0207586
774250000 0.0023652 -0.0197676 0.9976348 0.0197676 0.9976348 0.0197676 0.0023652 -0.0197676
781500000 0.0023333 -0.0187871 0.9976667 0.0187871 0.9976667 0.0187871 0.0023333 -0.0187871
788750000 0.0023038 -0.0178167 0.9976962 0.0178167 0.9976962 0.0178167 0.0023038 -0.0178167
796000000 0.0022766 -0.0168563 0.9977234 0.0168563 0.9977234 0.0168563 0.0022766 -0.0168563
803250000 0.0022516 -0.0159055 0.9977484 0.0159055 0.9977484 0.0159055 0.0022516 -0.0159055
810500000 0.0022287 -0.0149641 0.9977713 0.0149641 0.9977713 0.0149641 0.0022287 -0.0149641
817750000 0.0022080 -0.0140318 0.9977920 0.0140318 0.9977920 0.0140318 0.0022080 -0.0140318
825000000 0.0021893 -0.0131083 0.9978107 0.0131083 0.9978107 0.0131083 0.0021893 -0.0131083
832250000 0.0021726 -0.0121936 0.9978274 0.0121936 0.9978274 0.0121936 0.0021726 -0.0121936
839500000 0.0021578 -0.0112872 0.9978422 0.0112872 0.9978422 0.0112872 0.0021578 -0.0112872
846750000 0.0021449 -0.0103890 0.9978551 0.0103890 0.9978551 0.0103890 0.0021449 -0.0103890
854000000 0.0021339 -0.0094988 0.9978661 0.0094988 0.9978661 0.0094988 0.0021339 -0.0094988
861250000 0.0021246 -0.0086164 0.9978754 0.0086164 0.9978754 0.0086164 0.0021246 -0.0086164
868500000 0.0021171 -0.0077415 0.9978829 0.0077415 0.9978829 0.0077415 0.0021171 -0.0077415
875750000 0.0021113 -0.0068740 0.9978887 0.0068740 0.9978887 0.0068740 0.0021113 -0.0068740
883000000 0.0021072 -0.0060137 0.9978928 0.0060137 0.9978928 0.0060137 0.0021072 -0.0060137
890250000 0.0021047 -0.0051604 0.9978953 0.0051604 0.9978953 0.0051604 0.0021047 -0.0051604
897500000 0.0021038 -0.0043139 0.9978962 0.0043139 0.9978962 0.0043139 0.0021038 -0.0043139
904750000 0.0021044 -0.0034741 0.9978956 0.0034741 0.9978956 0.0034741 0.0021044 -0.0034741
912000000 0.0021066 -0.0026407 0.9978934 0.0026407 0.9978934 0.0026407 0.0021066 -0.0026407
919250000 0.0021103 -0.0018137 0.9978897 0.0018137 0.9978897 0.0018137 0.0021103 -0.0018137
926500000 0.0021154 -0.0009929 0.9978846 0.0009929 0.9978846 0.0009929 0.0021154 -0.0009929
933750000 0.0021219 -0.0001780 0.9978781 0.0001780 0.9978781 0.0001780 0.0021219 -0.0001780
941000000 0.0021298 0.0006309 0.9978702 -0.0006309 0.9978702 -0.0006309 0.0021298 0.0006309
948250000 0.0021391 0.0014341 0.9978609 -0.0014341 0.9978609 -0.0014341 0.0021391 0.0014341
955500000 0.0021498 0.0022317 0.9978502 -0.0022317 0.9978502 -0.0022317 0.0021498 0.0022317
962750000 0.0021617 0.0030239 0.9978383 -0.0030239 0.9978383 -0.0030239 0.0021617 0.0030239
970000000 0.0021750 0.0038107 0.9978250 -0.0038107 0.9978250 -0.0038107 0.0021750 0.0038107
977250000 0.0021895 0.0045924 0.9978105 -0.0045924 0.9978105 -0.0045924 0.0021895 0.0045924
984500000 0.0022053 0.0053689 0.9977947 -0.0053689 0.9977947 -0.0053689 0.0022053 0.0053689
991750000 0.0022223 0.0061405 0.9977777 -0.0061405 0.9977777 -0.0061405 0.0022223 0.0061405
999000000 0.0022405 0.0069072 0.9977595 -0.0069072 0.9977595 -0.0069072 0.0022405 0.0069072
1006250000 0.0022599 0.0076692 0.9977401 -0.0076692 0.9977401 -0.0076692 0.0022599 0.0076692
1013500000 0.0022804 0.0084266 0.9977196 -0.0084266 0.9977196 -0.0084266 0.0022804 0.0084266
1020750000 0.0023021 0.0091795 0.9976979 -0.0091795 0.9976979 -0.0091795 0.0023021 0.0091795
1028000000 0.0023249 0.0099279 0.9976751 -0.0099279 0.9976751 -0.0099279 0.0023249 0.0099279
1035250000 0.0023489 0.0106720 0.9976511 -0.0106720 0.9976511 -0.0106720 0.0023489 0.0106720
1042500000 0.0023739 0.0114120 0.9976261 -0.0114120 0.9976261 -0.0114120 0.0023739 0.0114120
1049750000 0.0024000 0.0121478 0.9976000 -0.0121478 0.9976000 -0.0121478 0.0024000 0.0121478
1057000000 0.0024272 0.0128795 0.9975728 -0.0128795 0.9975728 -0.0128795 0.0024272 0.0128795
1064250000 0.0024554 0.0136074 0.9975446 -0.0136074 0.9975446 -0.0136074 0.0024554 0.0136074
1071500000 0.0024847 0.0143314 0.9975153 -0.0143314 0.9975153 -0.0143314 0.0024847 0.0143314
1078750000 0.0025150 0.0150516 0.9974850 -0.0150516 0.9974850 -0.0150516 0.0025150 0.0150516
1086000000 0.0025463 0.0157682 0.9974537 -0.0157682 0.9974537 -0.0157682 0.0025463 0.0157682
1093250000 0.0025786 0.0164811 0.9974214 -0.0164811 0.9974214 -0.0164811 0.0025786 0.0164811
1100500000 0.0026118 0.0171906 0.9973882 -0.0171906 0.9973882 -0.0171906 0.0026118 0.0171906
1107750000 0.0026461 0.0178966 0.9973539 -0.0178966 0.9973539 -0.0178966 0.0026461 0.0178966
1115000000 0.0026813 0.0185992 0.9973187 -0.0185992 0.9973187 -0.0185992 0.0026813 0.0185992
1122250000 0.0027175 0.0192986 0.9972825 -0.0192986 0.9972825 -0.0192986 0.0027175 0.0192986
1129500000 0.0027546 0.0199947 0.9972454 -0.0199947 0.9972454 -0.0199947 0.0027546 0.0199947
1136750000 0.0027926 0.0206877 0.9972074 -0.0206877 0.9972074 -0.0206877 0.0027926 0.0206877
1144000000 0.0028316 0.0213776 0.9971684 -0.0213776 0.9971684 -0.0213776 0.0028316 0.0213776
1151250000 0.0028715 0.0220645 0.9971285 -0.0220645 0.9971285 -0.0220645 0.0028715 0.0220645
1158500000 0.0029122 0.0227485 0.9970878 -0.0227485 0.9970878 -0.0227485 0.0029122 0.0227485
1165750000 0.0029539 0.0234295 0.9970461 -0.0234295 0.9970461 -0.0234295 0.0029539 0.0234295
1173000000 0.0029965 0.0241078 0.9970035 -0.0241078 0.9970035 -0.0241078 0.0029965 0.0241078
1180250000 0.0030399 0.0247833 0.9969601 -0.0247833 0.9969601 -0.0247833 0.0030399 0.0247833
1187500000 0.0030843 0.0254561 0.9969157 -0.0254561 0.9969157 -0.0254561 0.0030843 0.0254561
1194750000 0.0031294 0.0261262 0.9968706 -0.0261262 0.9968706 -0.0261262 0.0031294 0.0261262
1202000000 0.0031755 0.0267938 0.9968245 -0.0267938 0.9968245 -0.0267938 0.0031755 0.0267938
1209250000 0.0032224 0.0274589 0.9967776 -0.0274589 0.9967776 -0.0274589 0.0032224 0.0274589
1216500000 0.0032701 0.0281214 0.9967299 -0.0281214 0.9967299 -0.0281214 0.0032701 0.0281214
1223750000 0.0033187 0.0287816 0.9966813 -0.0287816 0.9966813 -0.0287816 0.0033187 0.0287816
1231000000 0.0033682 0.0294394 0.9966318 -0.0294394 0.9966318 -0.0294394 0.0033682 0.0294394
1238250000 0.0034184 0.0300948 0.9965816 -0.0300948 0.9965816 -0.0300948 0.0034184 0.0300948
1245500000 0.0034695 0.0307480 0.9965305 -0.0307480 0.9965305 -0.0307480 0.0034695 0.0307480
1252750000 0.0035214 0.0313990 0.9964786 -0.0313990 0.9964786 -0.0313990 0.0035214 0.0313990
1260000000 0.0035741 0.0320478 0.9964259 -0.0320478 0.9964259 -0.0320478 0.0035741 0.0320478
1267250000 0.0036277 0.0326945 0.9963723 -0.0326945 0.9963723 -0.0326945 0.0036277 0.0326945
1274500000 0.0036820 0.0333390 0.9963180 -0.0333390 0.9963180 -0.0333390 0.0036820 0.0333390
1281750000 0.0037371 0.0339816 0.9962629 -0.0339816 0.9962629 -0.0339816 0.0037371 0.0339816
1289000000 0.0037931 0.0346222 0.9962069 -0.0346222 0.9962069 -0.0346222 0.0037931 0.0346222
1296250000 0.0038498 0.0352608 0.9961502 -0.0352608 0.9961502 -0.0352608 0.0038498 0.0352608
1303500000 0.0039074 0.0358975 0.9960926 -0.0358975 0.9960926 -0.0358975 0.0039074 0.0358975
1310750000 0.0039657 0.0365323 0.9960343 -0.0365323 0.9960343 -0.0365323 0.0039657 0.0365323
1318000000 0.0040248 0.0371654 0.9959752 -0.0371654 0.9959752 -0.0371654 0.0040248 0.0371654
1325250000 0.0040847 0.0377966 0.9959153 -0.0377966 0.9959153 -0.0377966 0.0040847 0.0377966
1332500000 0.0041453 0.0384261 0.9958547 -0.0384261 0.9958547 -0.0384261 0.0041453 0.0384261
1339750000 0.0042068 0.0390538 0.9957932 -0.0390538 0.9957932 -0.0390538 0.0042068 0.0390538
1347000000 0.0042690 0.0396799 0.9957310 -0.0396799 0.9957310 -0.0396799 0.0042690 0.0396799
1354250000 0.0043320 0.0403044 0.9956680 -0.0403044 0.9956680 -0.0403044 0.0043320 0.0403044
1361500000 0.0043958 0.0409273 0.9956042 -0.0409273 0.9956042 -0.0409273 0.0043958 0.0409273
1368750000 0.0044603 0.0415485 0.9955397 -0.0415485 0.9955397 -0.0415485 0.0044603 0.0415485
1376000000 0.0045257 0.0421683 0.9954743 -0.0421683 0.9954743 -0.0421683 0.0045257 0.0421683
1383250000 0.0045917 0.0427866 0.9954083 -0.0427866 0.9954083 -0.0427866 0.0045917 0.0427866
1390500000 0.0046586 0.0434034 0.9953414 -0.0434034 0.9953414 -0.0434034 0.0046586 0.0434034
1397750000 0.0047262 0.0440187 0.9952738 -0.0440187 0.9952738 -0.0440187 0.0047262 0.0440187
1405000000 0.0047946 0.0446327 0.9952054 -0.0446327 0.9952054 -0.0446327 0.0047946 0.0446327
1412250000 0.0048637 0.0452453 0.9951363 -0.0452453 0.9951363 -0.0452453 0.0048637 0.0452453
1419500000 0.0049336 0.0458566 0.9950664 -0.0458566 0.9950664 -0.0458566 0.0049336 0.0458566
1426750000 0.0050042 0.0464665 0.9949958 -0.0464665 0.9949958 -0.0464665 0.0050042 0.0464665
1434000000 0.0050756 0.0470752 0.9949244 -0.0470752 0.9949244 -0.0470752 0.0050756 0.0470752
1441250000 0.0051478 0.0476826 0.9948522 -0.0476826 0.9948522 -0.0476826 0.0051478 0.0476826
1448500000 0.0052208 0.0482888 0.9947792 -0.0482888 0.9947792 -0.0482888 0.0052208 0.0482888
1455750000 0.0052944 0.0488938 0.9947056 -0.0488938 0.9947056 -0.0488938 0.0052944 0.0488938
1463000000 0.0053689 0.0494977 0.9946311 -0.0494977 0.9946311 -0.0494977 0.0053689 0.0494977
1470250000 0.0054441 0.0501004 0.9945559 -0.0501004 0.9945559 -0.0501004 0.0054441 0.0501004
1477500000 0.0055201 0.0507020 0.9944799 -0.0507020 0.9944799 -0.0507020 0.0055201 0.0507020
1484750000 0.0055968 0.0513025 0.9944032 -0.0513025 0.9944032 -0.0513025 0.0055968 0.0513025
1492000000 0.0056743 0.0519020 0.9943257 -0.0519020 0.9943257 -0.0519020 0.0056743 0.0519020
1499250000 0.0057525 0.0525004 0.9942475 -0.0525004 0.9942475 -0.0525004 0.0057525 0.0525004
1506500000 0.0058315 0.0530978 0.9941685 -0.0530978 0.9941685 -0.0530978 0.0058315 0.0530978
1513750000 0.0059113 0.0536942 0.9940887 -0.0536942 0.9940887 -0.0536942 0.0059113 0.0536942
1521000000 0.0059918 0.0542897 0.9940082 -0.0542897 0.9940082 -0.0542897 0.0059918 0.0542897
1528250000 0.0060731 0.0548842 0.9939269 -0.0548842 0.9939269 -0.0548842 0.0060731 0.0548842
1535500000 0.0061552 0.0554778 0.9938448 -0.0554778 0.9938448 -0.0554778 0.0061552 0.0554778
1542750000 0.0062380 0.0560706 0.9937620 -0.0560706 0.9937620 -0.0560706 0.0062380 0.0560706
1550000000 0.0063216 0.0566624 0.9936784 -0.0566624 0.9936784 -0.0566624 0.0063216 0.0566624
1557250000 0.0064059 0.0572534 0.9935941 -0.0572534 0.9935941 -0.0572534 0.0064059 0.0572534
1564500000 0.0064910 0.0578436 0.9935090 -0.0578436 0.9935090 -0.0578436 0.0064910 0.0578436
1571750000 0.0065769 0.0584330 0.9934231 -0.0584330 0.9934231 -0.0584330 0.0065769 0.0584330
1579000000 0.0066636 0.0590216 0.9933364 -0.0590216 0.9933364 -0.0590216 0.0066636 0.0590216
1586250000 0.0067510 0.0596095 0.9932490 -0.0596095 0.9932490 -0.0596095 0.0067510 0.0596095
1593500000 0.0068392 0.0601966 0.9931608 -0.0601966 0.9931608 -0.0601966 0.0068392 0.0601966
1600750000 0.0069282 0.0607830 0.9930718 -0.0607830 0.9930718 -0.0607830 0.0069282 0.0607830
1608000000 0.0070179 0.0613687 0.9929821 -0.0613687 0.9929821 -0.0613687 0.0070179 0.0613687
1615250000 0.0071085 0.0619537 0.9928915 -0.0619537 0.9928915 -0.0619537 0.0071085 0.0619537
1622500000 0.0071998 0.0625381 0.9928002 -0.0625381 0.9928002 -0.0625381 0.0071998 0.0625381
1629750000 0.0072919 0.0631218 0.9927081 -0.0631218 0.9927081 -0.0631218 0.0072919 0.0631218
