!Murata Part Number: GRM31A5C3A391JWA1
!These Parameters are Measured in Series Mode Connection
!Data Generated on Mar 30, 2021
!       o--ll--o
!Port1            Port2
!       o------o
!Operation Temp=25[degC], DC Bias Voltage=0[V]
!Freq. Start=100[MHz] Stop=3[GHz] 401[Steps]
# Hz S RI R 50
!Freq.(Hz) S11(Real) S11(Imag) S21(Real) S21(Imag) S12(Real) S12(Imag) S22(Real) S22(Imag)
100000000 0.0016796 -0.0354589 0.9983204 0.0354589 0.9983204 0.0354589 0.0016796 -0.0354589
107250000 0.0014851 -0.0323484 0.9985149 0.0323484 0.9985149 0.0323484 0.0014851 -0.0323484
114500000 0.0013293 -0.0295842 0.9986707 0.0295842 0.9986707 0.0295842 0.0013293 -0.0295842
121750000 0.0012031 -0.0271045 0.9987969 0.0271045 0.9987969 0.0271045 0.0012031 -0.0271045
129000000 0.0011001 -0.0248614 0.9988999 0.0248614 0.9988999 0.0248614 0.0011001 -0.0248614
136250000 0.0010157 -0.0228170 0.9989843 0.0228170 0.9989843 0.0228170 0.0010157 -0.0228170
143500000 0.0009462 -0.0209412 0.9990538 0.0209412 0.9990538 0.0209412 0.0009462 -0.0209412
150750000 0.0008888 -0.0192096 0.9991112 0.0192096 0.9991112 0.0192096 0.0008888 -0.0192096
158000000 0.0008416 -0.0176023 0.9991584 0.0176023 0.9991584 0.0176023 0.0008416 -0.0176023
165250000 0.0008028 -0.0161028 0.9991972 0.0161028 0.9991972 0.0161028 0.0008028 -0.0161028
172500000 0.0007711 -0.0146974 0.9992289 0.0146974 0.9992289 0.0146974 0.0007711 -0.0146974
179750000 0.0007456 -0.0133747 0.9992544 0.0133747 0.9992544 0.0133747 0.0007456 -0.0133747
187000000 0.0007254 -0.0121249 0.9992746 0.0121249 0.9992746 0.0121249 0.0007254 -0.0121249
194250000 0.0007098 -0.0109397 0.9992902 0.0109397 0.9992902 0.0109397 0.0007098 -0.0109397
201500000 0.0006983 -0.0098121 0.9993017 0.0098121 0.9993017 0.0098121 0.0006983 -0.0098121
208750000 0.0006903 -0.0087360 0.9993097 0.0087360 0.9993097 0.0087360 0.0006903 -0.0087360
216000000 0.0006856 -0.0077060 0.9993144 0.0077060 0.9993144 0.0077060 0.0006856 -0.0077060
223250000 0.0006839 -0.0067175 0.9993161 0.0067175 0.9993161 0.0067175 0.0006839 -0.0067175
230500000 0.0006848 -0.0057666 0.9993152 0.0057666 0.9993152 0.0057666 0.0006848 -0.0057666
237750000 0.0006881 -0.0048496 0.9993119 0.0048496 0.9993119 0.0048496 0.0006881 -0.0048496
245000000 0.0006937 -0.0039634 0.9993063 0.0039634 0.9993063 0.0039634 0.0006937 -0.0039634
252250000 0.0007014 -0.0031052 0.9992986 0.0031052 0.9992986 0.0031052 0.0007014 -0.0031052
259500000 0.0007111 -0.0022725 0.9992889 0.0022725 0.9992889 0.0022725 0.0007111 -0.0022725
266750000 0.0007227 -0.0014631 0.9992773 0.0014631 0.9992773 0.0014631 0.0007227 -0.0014631
274000000 0.0007361 -0.0006751 0.9992639 0.0006751 0.9992639 0.0006751 0.0007361 -0.0006751
281250000 0.0007512 0.0000935 0.9992488 -0.0000935 0.9992488 -0.0000935 0.0007512 0.0000935
288500000 0.0007680 0.0008442 0.9992320 -0.0008442 0.9992320 -0.0008442 0.0007680 0.0008442
295750000 0.0007864 0.0015785 0.9992136 -0.0015785 0.9992136 -0.0015785 0.0007864 0.0015785
303000000 0.0008064 0.0022978 0.9991936 -0.0022978 0.9991936 -0.0022978 0.0008064 0.0022978
310250000 0.0008280 0.0030033 0.9991720 -0.0030033 0.9991720 -0.0030033 0.0008280 0.0030033
317500000 0.0008512 0.0036961 0.9991488 -0.0036961 0.9991488 -0.0036961 0.0008512 0.0036961
324750000 0.0008759 0.0043773 0.9991241 -0.0043773 0.9991241 -0.0043773 0.0008759 0.0043773
332000000 0.0009022 0.0050479 0.9990978 -0.0050479 0.9990978 -0.0050479 0.0009022 0.0050479
339250000 0.0009301 0.0057088 0.9990699 -0.0057088 0.9990699 -0.0057088 0.0009301 0.0057088
346500000 0.0009596 0.0063607 0.9990404 -0.0063607 0.9990404 -0.0063607 0.0009596 0.0063607
353750000 0.0009907 0.0070045 0.9990093 -0.0070045 0.9990093 -0.0070045 0.0009907 0.0070045
361000000 0.0010235 0.0076410 0.9989765 -0.0076410 0.9989765 -0.0076410 0.0010235 0.0076410
368250000 0.0010581 0.0082709 0.9989419 -0.0082709 0.9989419 -0.0082709 0.0010581 0.0082709
375500000 0.0010945 0.0088948 0.9989055 -0.0088948 0.9989055 -0.0088948 0.0010945 0.0088948
382750000 0.0011328 0.0095134 0.9988672 -0.0095134 0.9988672 -0.0095134 0.0011328 0.0095134
390000000 0.0011731 0.0101273 0.9988269 -0.0101273 0.9988269 -0.0101273 0.0011731 0.0101273
397250000 0.0012154 0.0107371 0.9987846 -0.0107371 0.9987846 -0.0107371 0.0012154 0.0107371
404500000 0.0012600 0.0113435 0.9987400 -0.0113435 0.9987400 -0.0113435 0.0012600 0.0113435
411750000 0.0013069 0.0119470 0.9986931 -0.0119470 0.9986931 -0.0119470 0.0013069 0.0119470
419000000 0.0013564 0.0125482 0.9986436 -0.0125482 0.9986436 -0.0125482 0.0013564 0.0125482
426250000 0.0014085 0.0131478 0.9985915 -0.0131478 0.9985915 -0.0131478 0.0014085 0.0131478
433500000 0.0014636 0.0137462 0.9985364 -0.0137462 0.9985364 -0.0137462 0.0014636 0.0137462
440750000 0.0015219 0.0143442 0.9984781 -0.0143442 0.9984781 -0.0143442 0.0015219 0.0143442
448000000 0.0015836 0.0149423 0.9984164 -0.0149423 0.9984164 -0.0149423 0.0015836 0.0149423
455250000 0.0016492 0.0155413 0.9983508 -0.0155413 0.9983508 -0.0155413 0.0016492 0.0155413
462500000 0.0017189 0.0161417 0.9982811 -0.0161417 0.9982811 -0.0161417 0.0017189 0.0161417
469750000 0.0017934 0.0167444 0.9982066 -0.0167444 0.9982066 -0.0167444 0.0017934 0.0167444
477000000 0.0018731 0.0173500 0.9981269 -0.0173500 0.9981269 -0.0173500 0.0018731 0.0173500
484250000 0.0019586 0.0179595 0.9980414 -0.0179595 0.9980414 -0.0179595 0.0019586 0.0179595
491500000 0.0020509 0.0185736 0.9979491 -0.0185736 0.9979491 -0.0185736 0.0020509 0.0185736
498750000 0.0021507 0.0191934 0.9978493 -0.0191934 0.9978493 -0.0191934 0.0021507 0.0191934
506000000 0.0022591 0.0198199 0.9977409 -0.0198199 0.9977409 -0.0198199 0.0022591 0.0198199
513250000 0.0023776 0.0204542 0.9976224 -0.0204542 0.9976224 -0.0204542 0.0023776 0.0204542
520500000 0.0025078 0.0210976 0.9974922 -0.0210976 0.9974922 -0.0210976 0.0025078 0.0210976
527750000 0.0026516 0.0217514 0.9973484 -0.0217514 0.9973484 -0.0217514 0.0026516 0.0217514
535000000 0.0028115 0.0224170 0.9971885 -0.0224170 0.9971885 -0.0224170 0.0028115 0.0224170
542250000 0.0029905 0.0230961 0.9970095 -0.0230961 0.9970095 -0.0230961 0.0029905 0.0230961
549500000 0.0031926 0.0237902 0.9968074 -0.0237902 0.9968074 -0.0237902 0.0031926 0.0237902
556750000 0.0034225 0.0245011 0.9965775 -0.0245011 0.9965775 -0.0245011 0.0034225 0.0245011
564000000 0.0036863 0.0252303 0.9963137 -0.0252303 0.9963137 -0.0252303 0.0036863 0.0252303
571250000 0.0039919 0.0259791 0.9960081 -0.0259791 0.9960081 -0.0259791 0.0039919 0.0259791
578500000 0.0043495 0.0267483 0.9956505 -0.0267483 0.9956505 -0.0267483 0.0043495 0.0267483
585750000 0.0047719 0.0275373 0.9952281 -0.0275373 0.9952281 -0.0275373 0.0047719 0.0275373
593000000 0.0052762 0.0283432 0.9947238 -0.0283432 0.9947238 -0.0283432 0.0052762 0.0283432
600250000 0.0058839 0.0291593 0.9941161 -0.0291593 0.9941161 -0.0291593 0.0058839 0.0291593
607500000 0.0066223 0.0299716 0.9933777 -0.0299716 0.9933777 -0.0299716 0.0066223 0.0299716
614750000 0.0075245 0.0307541 0.9924755 -0.0307541 0.9924755 -0.0307541 0.0075245 0.0307541
622000000 0.0086274 0.0314615 0.9913726 -0.0314615 0.9913726 -0.0314615 0.0086274 0.0314615
629250000 0.0099643 0.0320180 0.9900357 -0.0320180 0.9900357 -0.0320180 0.0099643 0.0320180
636500000 0.0115467 0.0323063 0.9884533 -0.0323063 0.9884533 -0.0323063 0.0115467 0.0323063
643750000 0.0133279 0.0321652 0.9866721 -0.0321652 0.9866721 -0.0321652 0.0133279 0.0321652
651000000 0.0151499 0.0314194 0.9848501 -0.0314194 0.9848501 -0.0314194 0.0151499 0.0314194
658250000 0.0167082 0.0299712 0.9832918 -0.0299712 0.9832918 -0.0299712 0.0167082 0.0299712
665500000 0.0176121 0.0279381 0.9823879 -0.0279381 0.9823879 -0.0279381 0.0176121 0.0279381
672750000 0.0175866 0.0257084 0.9824134 -0.0257084 0.9824134 -0.0257084 0.0175866 0.0257084
680000000 0.0166696 0.0237781 0.9833304 -0.0237781 0.9833304 -0.0237781 0.0166696 0.0237781
687250000 0.0151824 0.0224815 0.9848176 -0.0224815 0.9848176 -0.0224815 0.0151824 0.0224815
694500000 0.0135088 0.0218787 0.9864912 -0.0218787 0.9864912 -0.0218787 0.0135088 0.0218787
701750000 0.0119213 0.0218448 0.9880787 -0.0218448 0.9880787 -0.0218448 0.0119213 0.0218448
709000000 0.0105489 0.0222032 0.9894511 -0.0222032 0.9894511 -0.0222032 0.0105489 0.0222032
716250000 0.0094223 0.0228021 0.9905777 -0.0228021 0.9905777 -0.0228021 0.0094223 0.0228021
723500000 0.0085237 0.0235343 0.9914763 -0.0235343 0.9914763 -0.0235343 0.0085237 0.0235343
730750000 0.0078185 0.0243321 0.9921815 -0.0243321 0.9921815 -0.0243321 0.0078185 0.0243321
738000000 0.0072710 0.0251549 0.9927290 -0.0251549 0.9927290 -0.0251549 0.0072710 0.0251549
745250000 0.0068497 0.0259801 0.9931503 -0.0259801 0.9931503 -0.0259801 0.0068497 0.0259801
752500000 0.0065293 0.0267954 0.9934707 -0.0267954 0.9934707 -0.0267954 0.0065293 0.0267954
759750000 0.0062896 0.0275950 0.9937104 -0.0275950 0.9937104 -0.0275950 0.0062896 0.0275950
767000000 0.0061151 0.0283766 0.9938849 -0.0283766 0.9938849 -0.0283766 0.0061151 0.0283766
774250000 0.0059940 0.0291401 0.9940060 -0.0291401 0.9940060 -0.0291401 0.0059940 0.0291401
781500000 0.0059171 0.0298861 0.9940829 -0.0298861 0.9940829 -0.0298861 0.0059171 0.0298861
788750000 0.0058775 0.0306162 0.9941225 -0.0306162 0.9941225 -0.0306162 0.0058775 0.0306162
796000000 0.0058698 0.0313318 0.9941302 -0.0313318 0.9941302 -0.0313318 0.0058698 0.0313318
803250000 0.0058900 0.0320347 0.9941100 -0.0320347 0.9941100 -0.0320347 0.0058900 0.0320347
810500000 0.0059351 0.0327265 0.9940649 -0.0327265 0.9940649 -0.0327265 0.0059351 0.0327265
817750000 0.0060027 0.0334085 0.9939973 -0.0334085 0.9939973 -0.0334085 0.0060027 0.0334085
825000000 0.0060912 0.0340824 0.9939088 -0.0340824 0.9939088 -0.0340824 0.0060912 0.0340824
832250000 0.0061996 0.0347492 0.9938004 -0.0347492 0.9938004 -0.0347492 0.0061996 0.0347492
839500000 0.0063271 0.0354101 0.9936729 -0.0354101 0.9936729 -0.0354101 0.0063271 0.0354101
846750000 0.0064733 0.0360662 0.9935267 -0.0360662 0.9935267 -0.0360662 0.0064733 0.0360662
854000000 0.0066383 0.0367182 0.9933617 -0.0367182 0.9933617 -0.0367182 0.0066383 0.0367182
861250000 0.0068223 0.0373668 0.9931777 -0.0373668 0.9931777 -0.0373668 0.0068223 0.0373668
868500000 0.0070259 0.0380127 0.9929741 -0.0380127 0.9929741 -0.0380127 0.0070259 0.0380127
875750000 0.0072499 0.0386563 0.9927501 -0.0386563 0.9927501 -0.0386563 0.0072499 0.0386563
883000000 0.0074954 0.0392978 0.9925046 -0.0392978 0.9925046 -0.0392978 0.0074954 0.0392978
890250000 0.0077636 0.0399372 0.9922364 -0.0399372 0.9922364 -0.0399372 0.0077636 0.0399372
897500000 0.0080562 0.0405744 0.9919438 -0.0405744 0.9919438 -0.0405744 0.0080562 0.0405744
904750000 0.0083750 0.0412091 0.9916250 -0.0412091 0.9916250 -0.0412091 0.0083750 0.0412091
912000000 0.0087220 0.0418404 0.9912780 -0.0418404 0.9912780 -0.0418404 0.0087220 0.0418404
919250000 0.0090995 0.0424672 0.9909005 -0.0424672 0.9909005 -0.0424672 0.0090995 0.0424672
926500000 0.0095103 0.0430882 0.9904897 -0.0430882 0.9904897 -0.0430882 0.0095103 0.0430882
933750000 0.0099571 0.0437011 0.9900429 -0.0437011 0.9900429 -0.0437011 0.0099571 0.0437011
941000000 0.0104431 0.0443033 0.9895569 -0.0443033 0.9895569 -0.0443033 0.0104431 0.0443033
948250000 0.0109714 0.0448913 0.9890286 -0.0448913 0.9890286 -0.0448913 0.0109714 0.0448913
955500000 0.0115454 0.0454607 0.9884546 -0.0454607 0.9884546 -0.0454607 0.0115454 0.0454607
962750000 0.0121684 0.0460058 0.9878316 -0.0460058 0.9878316 -0.0460058 0.0121684 0.0460058
970000000 0.0128434 0.0465200 0.9871566 -0.0465200 0.9871566 -0.0465200 0.0128434 0.0465200
977250000 0.0135730 0.0469946 0.9864270 -0.0469946 0.9864270 -0.0469946 0.0135730 0.0469946
984500000 0.0143588 0.0474198 0.9856412 -0.0474198 0.9856412 -0.0474198 0.0143588 0.0474198
991750000 0.0152009 0.0477837 0.9847991 -0.0477837 0.9847991 -0.0477837 0.0152009 0.0477837
999000000 0.0160977 0.0480726 0.9839023 -0.0480726 0.9839023 -0.0480726 0.0160977 0.0480726
1006250000 0.0170442 0.0482712 0.9829558 -0.0482712 0.9829558 -0.0482712 0.0170442 0.0482712
1013500000 0.0180320 0.0483630 0.9819680 -0.0483630 0.9819680 -0.0483630 0.0180320 0.0483630
1020750000 0.0190478 0.0483311 0.9809522 -0.0483311 0.9809522 -0.0483311 0.0190478 0.0483311
1028000000 0.0200728 0.0481597 0.9799272 -0.0481597 0.9799272 -0.0481597 0.0200728 0.0481597
1035250000 0.0210822 0.0478357 0.9789178 -0.0478357 0.9789178 -0.0478357 0.0210822 0.0478357
1042500000 0.0220451 0.0473514 0.9779549 -0.0473514 0.9779549 -0.0473514 0.0220451 0.0473514
1049750000 0.0229260 0.0467064 0.9770740 -0.0467064 0.9770740 -0.0467064 0.0229260 0.0467064
1057000000 0.0236872 0.0459108 0.9763128 -0.0459108 0.9763128 -0.0459108 0.0236872 0.0459108
1064250000 0.0242917 0.0449857 0.9757083 -0.0449857 0.9757083 -0.0449857 0.0242917 0.0449857
1071500000 0.0247084 0.0439640 0.9752916 -0.0439640 0.9752916 -0.0439640 0.0247084 0.0439640
1078750000 0.0249154 0.0428878 0.9750846 -0.0428878 0.9750846 -0.0428878 0.0249154 0.0428878
1086000000 0.0249039 0.0418049 0.9750961 -0.0418049 0.9750961 -0.0418049 0.0249039 0.0418049
1093250000 0.0246797 0.0407635 0.9753203 -0.0407635 0.9753203 -0.0407635 0.0246797 0.0407635
1100500000 0.0242616 0.0398075 0.9757384 -0.0398075 0.9757384 -0.0398075 0.0242616 0.0398075
1107750000 0.0236791 0.0389720 0.9763209 -0.0389720 0.9763209 -0.0389720 0.0236791 0.0389720
1115000000 0.0229682 0.0382808 0.9770318 -0.0382808 0.9770318 -0.0382808 0.0229682 0.0382808
1122250000 0.0221667 0.0377464 0.9778333 -0.0377464 0.9778333 -0.0377464 0.0221667 0.0377464
1129500000 0.0213110 0.0373705 0.9786890 -0.0373705 0.9786890 -0.0373705 0.0213110 0.0373705
1136750000 0.0204328 0.0371469 0.9795672 -0.0371469 0.9795672 -0.0371469 0.0204328 0.0371469
1144000000 0.0195585 0.0370633 0.9804415 -0.0370633 0.9804415 -0.0370633 0.0195585 0.0370633
1151250000 0.0187081 0.0371044 0.9812919 -0.0371044 0.9812919 -0.0371044 0.0187081 0.0371044
1158500000 0.0178960 0.0372532 0.9821040 -0.0372532 0.9821040 -0.0372532 0.0178960 0.0372532
1165750000 0.0171317 0.0374931 0.9828683 -0.0374931 0.9828683 -0.0374931 0.0171317 0.0374931
1173000000 0.0164207 0.0378084 0.9835793 -0.0378084 0.9835793 -0.0378084 0.0164207 0.0378084
1180250000 0.0157653 0.0381849 0.9842347 -0.0381849 0.9842347 -0.0381849 0.0157653 0.0381849
1187500000 0.0151657 0.0386102 0.9848343 -0.0386102 0.9848343 -0.0386102 0.0151657 0.0386102
1194750000 0.0146204 0.0390739 0.9853796 -0.0390739 0.9853796 -0.0390739 0.0146204 0.0390739
1202000000 0.0141269 0.0395669 0.9858731 -0.0395669 0.9858731 -0.0395669 0.0141269 0.0395669
1209250000 0.0136823 0.0400820 0.9863177 -0.0400820 0.9863177 -0.0400820 0.0136823 0.0400820
1216500000 0.0132832 0.0406132 0.9867168 -0.0406132 0.9867168 -0.0406132 0.0132832 0.0406132
1223750000 0.0129261 0.0411556 0.9870739 -0.0411556 0.9870739 -0.0411556 0.0129261 0.0411556
1231000000 0.0126077 0.0417054 0.9873923 -0.0417054 0.9873923 -0.0417054 0.0126077 0.0417054
1238250000 0.0123246 0.0422594 0.9876754 -0.0422594 0.9876754 -0.0422594 0.0123246 0.0422594
1245500000 0.0120738 0.0428151 0.9879262 -0.0428151 0.9879262 -0.0428151 0.0120738 0.0428151
1252750000 0.0118525 0.0433708 0.9881475 -0.0433708 0.9881475 -0.0433708 0.0118525 0.0433708
1260000000 0.0116579 0.0439248 0.9883421 -0.0439248 0.9883421 -0.0439248 0.0116579 0.0439248
1267250000 0.0114876 0.0444761 0.9885124 -0.0444761 0.9885124 -0.0444761 0.0114876 0.0444761
1274500000 0.0113396 0.0450238 0.9886604 -0.0450238 0.9886604 -0.0450238 0.0113396 0.0450238
1281750000 0.0112118 0.0455672 0.9887882 -0.0455672 0.9887882 -0.0455672 0.0112118 0.0455672
1289000000 0.0111023 0.0461059 0.9888977 -0.0461059 0.9888977 -0.0461059 0.0111023 0.0461059
1296250000 0.0110097 0.0466396 0.9889903 -0.0466396 0.9889903 -0.0466396 0.0110097 0.0466396
1303500000 0.0109323 0.0471680 0.9890677 -0.0471680 0.9890677 -0.0471680 0.0109323 0.0471680
1310750000 0.0108690 0.0476911 0.9891310 -0.0476911 0.9891310 -0.0476911 0.0108690 0.0476911
1318000000 0.0108185 0.0482088 0.9891815 -0.0482088 0.9891815 -0.0482088 0.0108185 0.0482088
1325250000 0.0107798 0.0487210 0.9892202 -0.0487210 0.9892202 -0.0487210 0.0107798 0.0487210
1332500000 0.0107519 0.0492279 0.9892481 -0.0492279 0.9892481 -0.0492279 0.0107519 0.0492279
1339750000 0.0107340 0.0497295 0.9892660 -0.0497295 0.9892660 -0.0497295 0.0107340 0.0497295
1347000000 0.0107252 0.0502258 0.9892748 -0.0502258 0.9892748 -0.0502258 0.0107252 0.0502258
1354250000 0.0107249 0.0507171 0.9892751 -0.0507171 0.9892751 -0.0507171 0.0107249 0.0507171
1361500000 0.0107325 0.0512033 0.9892675 -0.0512033 0.9892675 -0.0512033 0.0107325 0.0512033
1368750000 0.0107473 0.0516847 0.9892527 -0.0516847 0.9892527 -0.0516847 0.0107473 0.0516847
1376000000 0.0107689 0.0521614 0.9892311 -0.0521614 0.9892311 -0.0521614 0.0107689 0.0521614
1383250000 0.0107967 0.0526334 0.9892033 -0.0526334 0.9892033 -0.0526334 0.0107967 0.0526334
1390500000 0.0108304 0.0531010 0.9891696 -0.0531010 0.9891696 -0.0531010 0.0108304 0.0531010
1397750000 0.0108695 0.0535643 0.9891305 -0.0535643 0.9891305 -0.0535643 0.0108695 0.0535643
1405000000 0.0109138 0.0540234 0.9890862 -0.0540234 0.9890862 -0.0540234 0.0109138 0.0540234
1412250000 0.0109628 0.0544784 0.9890372 -0.0544784 0.9890372 -0.0544784 0.0109628 0.0544784
1419500000 0.0110162 0.0549295 0.9889838 -0.0549295 0.9889838 -0.0549295 0.0110162 0.0549295
1426750000 0.0110739 0.0553768 0.9889261 -0.0553768 0.9889261 -0.0553768 0.0110739 0.0553768
1434000000 0.0111355 0.0558203 0.9888645 -0.0558203 0.9888645 -0.0558203 0.0111355 0.0558203
1441250000 0.0112009 0.0562603 0.9887991 -0.0562603 0.9887991 -0.0562603 0.0112009 0.0562603
1448500000 0.0112697 0.0566968 0.9887303 -0.0566968 0.9887303 -0.0566968 0.0112697 0.0566968
1455750000 0.0113419 0.0571299 0.9886581 -0.0571299 0.9886581 -0.0571299 0.0113419 0.0571299
1463000000 0.0114172 0.0575597 0.9885828 -0.0575597 0.9885828 -0.0575597 0.0114172 0.0575597
1470250000 0.0114955 0.0579863 0.9885045 -0.0579863 0.9885045 -0.0579863 0.0114955 0.0579863
1477500000 0.0115766 0.0584098 0.9884234 -0.0584098 0.9884234 -0.0584098 0.0115766 0.0584098
1484750000 0.0116603 0.0588303 0.9883397 -0.0588303 0.9883397 -0.0588303 0.0116603 0.0588303
1492000000 0.0117466 0.0592479 0.9882534 -0.0592479 0.9882534 -0.0592479 0.0117466 0.0592479
1499250000 0.0118353 0.0596626 0.9881647 -0.0596626 0.9881647 -0.0596626 0.0118353 0.0596626
1506500000 0.0119263 0.0600745 0.9880737 -0.0600745 0.9880737 -0.0600745 0.0119263 0.0600745
1513750000 0.0120195 0.0604837 0.9879805 -0.0604837 0.9879805 -0.0604837 0.0120195 0.0604837
1521000000 0.0121147 0.0608902 0.9878853 -0.0608902 0.9878853 -0.0608902 0.0121147 0.0608902
1528250000 0.0122120 0.0612942 0.9877880 -0.0612942 0.9877880 -0.0612942 0.0122120 0.0612942
1535500000 0.0123111 0.0616956 0.9876889 -0.0616956 0.9876889 -0.0616956 0.0123111 0.0616956
1542750000 0.0124121 0.0620945 0.9875879 -0.0620945 0.9875879 -0.0620945 0.0124121 0.0620945
1550000000 0.0125148 0.0624910 0.9874852 -0.0624910 0.9874852 -0.0624910 0.0125148 0.0624910
1557250000 0.0126191 0.0628852 0.9873809 -0.0628852 0.9873809 -0.0628852 0.0126191 0.0628852
1564500000 0.0127250 0.0632770 0.9872750 -0.0632770 0.9872750 -0.0632770 0.0127250 0.0632770
1571750000 0.0128324 0.0636666 0.9871676 -0.0636666 0.9871676 -0.0636666 0.0128324 0.0636666
1579000000 0.0129413 0.0640539 0.9870587 -0.0640539 0.9870587 -0.0640539 0.0129413 0.0640539
1586250000 0.0130515 0.0644390 0.9869485 -0.0644390 0.9869485 -0.0644390 0.0130515 0.0644390
1593500000 0.0131631 0.0648219 0.9868369 -0.0648219 0.9868369 -0.0648219 0.0131631 0.0648219
1600750000 0.0132759 0.0652028 0.9867241 -0.0652028 0.9867241 -0.0652028 0.0132759 0.0652028
1608000000 0.0133899 0.0655816 0.9866101 -0.0655816 0.9866101 -0.0655816 0.0133899 0.0655816
1615250000 0.0135050 0.0659583 0.9864950 -0.0659583 0.9864950 -0.0659583 0.0135050 0.0659583
1622500000 0.0136212 0.0663330 0.9863788 -0.0663330 0.9863788 -0.0663330 0.0136212 0.0663330
1629750000 0.0137385 0.0667057 0.9862615 -0.0667057 0.9862615 -0.0667057 0.0137385 0.0667057
