!Murata Part Number: GRM3197U1H563JA01
!These Parameters are Measured in Series Mode Connection
!Data Generated on Mar 30, 2021
!       o--ll--o
!Port1            Port2
!       o------o
!Operation Temp=25[degC], DC Bias Voltage=0[V]
!Freq. Start=1000[kHz] Stop=6[GHz] 401[Steps]
# Hz S RI R 50
!Freq.(Hz) S11(Real) S11(Imag) S21(Real) S21(Imag) S12(Real) S12(Imag) S22(Real) S22(Imag)
1000000 0.0009131 -0.0290014 0.9990869 0.0290014 0.9990869 0.0290014 0.0009131 -0.0290014
1021987 0.0008772 -0.0283762 0.9991228 0.0283762 0.9991228 0.0283762 0.0008772 -0.0283762
1044457 0.0008428 -0.0277644 0.9991572 0.0277644 0.9991572 0.0277644 0.0008428 -0.0277644
1067422 0.0008098 -0.0271655 0.9991902 0.0271655 0.9991902 0.0271655 0.0008098 -0.0271655
1090891 0.0007783 -0.0265795 0.9992217 0.0265795 0.9992217 0.0265795 0.0007783 -0.0265795
1114877 0.0007481 -0.0260060 0.9992519 0.0260060 0.9992519 0.0260060 0.0007481 -0.0260060
1139390 0.0007192 -0.0254447 0.9992808 0.0254447 0.9992808 0.0254447 0.0007192 -0.0254447
1164441 0.0006915 -0.0248953 0.9993085 0.0248953 0.9993085 0.0248953 0.0006915 -0.0248953
1190044 0.0006650 -0.0243577 0.9993350 0.0243577 0.9993350 0.0243577 0.0006650 -0.0243577
1216210 0.0006396 -0.0238316 0.9993604 0.0238316 0.9993604 0.0238316 0.0006396 -0.0238316
1242950 0.0006153 -0.0233167 0.9993847 0.0233167 0.9993847 0.0233167 0.0006153 -0.0233167
1270279 0.0005921 -0.0228127 0.9994079 0.0228127 0.9994079 0.0228127 0.0005921 -0.0228127
1298209 0.0005698 -0.0223195 0.9994302 0.0223195 0.9994302 0.0223195 0.0005698 -0.0223195
1326753 0.0005485 -0.0218368 0.9994515 0.0218368 0.9994515 0.0218368 0.0005485 -0.0218368
1355924 0.0005280 -0.0213644 0.9994720 0.0213644 0.9994720 0.0213644 0.0005280 -0.0213644
1385737 0.0005085 -0.0209021 0.9994915 0.0209021 0.9994915 0.0209021 0.0005085 -0.0209021
1416205 0.0004898 -0.0204496 0.9995102 0.0204496 0.9995102 0.0204496 0.0004898 -0.0204496
1447343 0.0004719 -0.0200068 0.9995281 0.0200068 0.9995281 0.0200068 0.0004719 -0.0200068
1479166 0.0004547 -0.0195734 0.9995453 0.0195734 0.9995453 0.0195734 0.0004547 -0.0195734
1511688 0.0004383 -0.0191493 0.9995617 0.0191493 0.9995617 0.0191493 0.0004383 -0.0191493
1544926 0.0004225 -0.0187341 0.9995775 0.0187341 0.9995775 0.0187341 0.0004225 -0.0187341
1578894 0.0004075 -0.0183278 0.9995925 0.0183278 0.9995925 0.0183278 0.0004075 -0.0183278
1613609 0.0003931 -0.0179302 0.9996069 0.0179302 0.9996069 0.0179302 0.0003931 -0.0179302
1649087 0.0003793 -0.0175410 0.9996207 0.0175410 0.9996207 0.0175410 0.0003793 -0.0175410
1685346 0.0003661 -0.0171601 0.9996339 0.0171601 0.9996339 0.0171601 0.0003661 -0.0171601
1722402 0.0003534 -0.0167872 0.9996466 0.0167872 0.9996466 0.0167872 0.0003534 -0.0167872
1760272 0.0003413 -0.0164223 0.9996587 0.0164223 0.9996587 0.0164223 0.0003413 -0.0164223
1798975 0.0003297 -0.0160652 0.9996703 0.0160652 0.9996703 0.0160652 0.0003297 -0.0160652
1838529 0.0003186 -0.0157156 0.9996814 0.0157156 0.9996814 0.0157156 0.0003186 -0.0157156
1878953 0.0003080 -0.0153735 0.9996920 0.0153735 0.9996920 0.0153735 0.0003080 -0.0153735
1920266 0.0002978 -0.0150386 0.9997022 0.0150386 0.9997022 0.0150386 0.0002978 -0.0150386
1962487 0.0002881 -0.0147108 0.9997119 0.0147108 0.9997119 0.0147108 0.0002881 -0.0147108
2005636 0.0002788 -0.0143900 0.9997212 0.0143900 0.9997212 0.0143900 0.0002788 -0.0143900
2049734 0.0002698 -0.0140759 0.9997302 0.0140759 0.9997302 0.0140759 0.0002698 -0.0140759
2094801 0.0002613 -0.0137685 0.9997387 0.0137685 0.9997387 0.0137685 0.0002613 -0.0137685
2140860 0.0002531 -0.0134676 0.9997469 0.0134676 0.9997469 0.0134676 0.0002531 -0.0134676
2187931 0.0002453 -0.0131731 0.9997547 0.0131731 0.9997547 0.0131731 0.0002453 -0.0131731
2236037 0.0002378 -0.0128848 0.9997622 0.0128848 0.9997622 0.0128848 0.0002378 -0.0128848
2285201 0.0002306 -0.0126026 0.9997694 0.0126026 0.9997694 0.0126026 0.0002306 -0.0126026
2335446 0.0002238 -0.0123263 0.9997762 0.0123263 0.9997762 0.0123263 0.0002238 -0.0123263
2386795 0.0002172 -0.0120559 0.9997828 0.0120559 0.9997828 0.0120559 0.0002172 -0.0120559
2439274 0.0002109 -0.0117911 0.9997891 0.0117911 0.9997891 0.0117911 0.0002109 -0.0117911
2492906 0.0002049 -0.0115319 0.9997951 0.0115319 0.9997951 0.0115319 0.0002049 -0.0115319
2547717 0.0001991 -0.0112782 0.9998009 0.0112782 0.9998009 0.0112782 0.0001991 -0.0112782
2603734 0.0001936 -0.0110298 0.9998064 0.0110298 0.9998064 0.0110298 0.0001936 -0.0110298
2660982 0.0001884 -0.0107866 0.9998116 0.0107866 0.9998116 0.0107866 0.0001884 -0.0107866
2719490 0.0001833 -0.0105485 0.9998167 0.0105485 0.9998167 0.0105485 0.0001833 -0.0105485
2779283 0.0001785 -0.0103154 0.9998215 0.0103154 0.9998215 0.0103154 0.0001785 -0.0103154
2840391 0.0001739 -0.0100872 0.9998261 0.0100872 0.9998261 0.0100872 0.0001739 -0.0100872
2902843 0.0001695 -0.0098637 0.9998305 0.0098637 0.9998305 0.0098637 0.0001695 -0.0098637
2966668 0.0001652 -0.0096449 0.9998348 0.0096449 0.9998348 0.0096449 0.0001652 -0.0096449
3031896 0.0001612 -0.0094307 0.9998388 0.0094307 0.9998388 0.0094307 0.0001612 -0.0094307
3098558 0.0001573 -0.0092209 0.9998427 0.0092209 0.9998427 0.0092209 0.0001573 -0.0092209
3166686 0.0001536 -0.0090155 0.9998464 0.0090155 0.9998464 0.0090155 0.0001536 -0.0090155
3236312 0.0001501 -0.0088143 0.9998499 0.0088143 0.9998499 0.0088143 0.0001501 -0.0088143
3307469 0.0001467 -0.0086173 0.9998533 0.0086173 0.9998533 0.0086173 0.0001467 -0.0086173
3380190 0.0001435 -0.0084244 0.9998565 0.0084244 0.9998565 0.0084244 0.0001435 -0.0084244
3454511 0.0001404 -0.0082354 0.9998596 0.0082354 0.9998596 0.0082354 0.0001404 -0.0082354
3530465 0.0001374 -0.0080504 0.9998626 0.0080504 0.9998626 0.0080504 0.0001374 -0.0080504
3608090 0.0001346 -0.0078691 0.9998654 0.0078691 0.9998654 0.0078691 0.0001346 -0.0078691
3687421 0.0001319 -0.0076916 0.9998681 0.0076916 0.9998681 0.0076916 0.0001319 -0.0076916
3768496 0.0001294 -0.0075177 0.9998706 0.0075177 0.9998706 0.0075177 0.0001294 -0.0075177
3851354 0.0001269 -0.0073474 0.9998731 0.0073474 0.9998731 0.0073474 0.0001269 -0.0073474
3936034 0.0001246 -0.0071805 0.9998754 0.0071805 0.9998754 0.0071805 0.0001246 -0.0071805
4022575 0.0001223 -0.0070171 0.9998777 0.0070171 0.9998777 0.0070171 0.0001223 -0.0070171
4111020 0.0001202 -0.0068569 0.9998798 0.0068569 0.9998798 0.0068569 0.0001202 -0.0068569
4201409 0.0001181 -0.0067000 0.9998819 0.0067000 0.9998819 0.0067000 0.0001181 -0.0067000
4293785 0.0001162 -0.0065463 0.9998838 0.0065463 0.9998838 0.0065463 0.0001162 -0.0065463
4388193 0.0001143 -0.0063956 0.9998857 0.0063956 0.9998857 0.0063956 0.0001143 -0.0063956
4484676 0.0001126 -0.0062480 0.9998874 0.0062480 0.9998874 0.0062480 0.0001126 -0.0062480
4583281 0.0001109 -0.0061034 0.9998891 0.0061034 0.9998891 0.0061034 0.0001109 -0.0061034
4684054 0.0001093 -0.0059616 0.9998907 0.0059616 0.9998907 0.0059616 0.0001093 -0.0059616
4787042 0.0001078 -0.0058226 0.9998922 0.0058226 0.9998922 0.0058226 0.0001078 -0.0058226
4892295 0.0001063 -0.0056864 0.9998937 0.0056864 0.9998937 0.0056864 0.0001063 -0.0056864
4999862 0.0001050 -0.0055529 0.9998950 0.0055529 0.9998950 0.0055529 0.0001050 -0.0055529
5109794 0.0001037 -0.0054220 0.9998963 0.0054220 0.9998963 0.0054220 0.0001037 -0.0054220
5222143 0.0001024 -0.0052937 0.9998976 0.0052937 0.9998976 0.0052937 0.0001024 -0.0052937
5336962 0.0001012 -0.0051679 0.9998988 0.0051679 0.9998988 0.0051679 0.0001012 -0.0051679
5454306 0.0001001 -0.0050445 0.9998999 0.0050445 0.9998999 0.0050445 0.0001001 -0.0050445
5574230 0.0000991 -0.0049235 0.9999009 0.0049235 0.9999009 0.0049235 0.0000991 -0.0049235
5696791 0.0000981 -0.0048048 0.9999019 0.0048048 0.9999019 0.0048048 0.0000981 -0.0048048
5822046 0.0000972 -0.0046884 0.9999028 0.0046884 0.9999028 0.0046884 0.0000972 -0.0046884
5950055 0.0000963 -0.0045742 0.9999037 0.0045742 0.9999037 0.0045742 0.0000963 -0.0045742
6080879 0.0000955 -0.0044622 0.9999045 0.0044622 0.9999045 0.0044622 0.0000955 -0.0044622
6214580 0.0000947 -0.0043523 0.9999053 0.0043523 0.9999053 0.0043523 0.0000947 -0.0043523
6351220 0.0000940 -0.0042445 0.9999060 0.0042445 0.9999060 0.0042445 0.0000940 -0.0042445
6490864 0.0000933 -0.0041386 0.9999067 0.0041386 0.9999067 0.0041386 0.0000933 -0.0041386
6633579 0.0000927 -0.0040348 0.9999073 0.0040348 0.9999073 0.0040348 0.0000927 -0.0040348
6779431 0.0000921 -0.0039328 0.9999079 0.0039328 0.9999079 0.0039328 0.0000921 -0.0039328
6928491 0.0000916 -0.0038327 0.9999084 0.0038327 0.9999084 0.0038327 0.0000916 -0.0038327
7080828 0.0000911 -0.0037344 0.9999089 0.0037344 0.9999089 0.0037344 0.0000911 -0.0037344
7236514 0.0000906 -0.0036378 0.9999094 0.0036378 0.9999094 0.0036378 0.0000906 -0.0036378
7395623 0.0000902 -0.0035430 0.9999098 0.0035430 0.9999098 0.0035430 0.0000902 -0.0035430
7558231 0.0000899 -0.0034498 0.9999101 0.0034498 0.9999101 0.0034498 0.0000899 -0.0034498
7724414 0.0000895 -0.0033583 0.9999105 0.0033583 0.9999105 0.0033583 0.0000895 -0.0033583
7894251 0.0000893 -0.0032684 0.9999107 0.0032684 0.9999107 0.0032684 0.0000893 -0.0032684
8067822 0.0000890 -0.0031800 0.9999110 0.0031800 0.9999110 0.0031800 0.0000890 -0.0031800
8245209 0.0000888 -0.0030931 0.9999112 0.0030931 0.9999112 0.0030931 0.0000888 -0.0030931
8426497 0.0000887 -0.0030077 0.9999113 0.0030077 0.9999113 0.0030077 0.0000887 -0.0030077
8611770 0.0000885 -0.0029237 0.9999115 0.0029237 0.9999115 0.0029237 0.0000885 -0.0029237
8801117 0.0000885 -0.0028411 0.9999115 0.0028411 0.9999115 0.0028411 0.0000885 -0.0028411
8994628 0.0000884 -0.0027598 0.9999116 0.0027598 0.9999116 0.0027598 0.0000884 -0.0027598
9192393 0.0000884 -0.0026799 0.9999116 0.0026799 0.9999116 0.0026799 0.0000884 -0.0026799
9394506 0.0000884 -0.0026012 0.9999116 0.0026012 0.9999116 0.0026012 0.0000884 -0.0026012
9601063 0.0000885 -0.0025237 0.9999115 0.0025237 0.9999115 0.0025237 0.0000885 -0.0025237
9812162 0.0000886 -0.0024474 0.9999114 0.0024474 0.9999114 0.0024474 0.0000886 -0.0024474
10027902 0.0000888 -0.0023723 0.9999112 0.0023723 0.9999112 0.0023723 0.0000888 -0.0023723
10248386 0.0000890 -0.0022983 0.9999110 0.0022983 0.9999110 0.0022983 0.0000890 -0.0022983
10473717 0.0000892 -0.0022254 0.9999108 0.0022254 0.9999108 0.0022254 0.0000892 -0.0022254
10704003 0.0000895 -0.0021535 0.9999105 0.0021535 0.9999105 0.0021535 0.0000895 -0.0021535
10939352 0.0000898 -0.0020826 0.9999102 0.0020826 0.9999102 0.0020826 0.0000898 -0.0020826
11179876 0.0000901 -0.0020127 0.9999099 0.0020127 0.9999099 0.0020127 0.0000901 -0.0020127
11425688 0.0000905 -0.0019438 0.9999095 0.0019438 0.9999095 0.0019438 0.0000905 -0.0019438
11676904 0.0000909 -0.0018758 0.9999091 0.0018758 0.9999091 0.0018758 0.0000909 -0.0018758
11933645 0.0000914 -0.0018087 0.9999086 0.0018087 0.9999086 0.0018087 0.0000914 -0.0018087
12196030 0.0000919 -0.0017424 0.9999081 0.0017424 0.9999081 0.0017424 0.0000919 -0.0017424
12464184 0.0000925 -0.0016769 0.9999075 0.0016769 0.9999075 0.0016769 0.0000925 -0.0016769
12738235 0.0000931 -0.0016123 0.9999069 0.0016123 0.9999069 0.0016123 0.0000931 -0.0016123
13018310 0.0000938 -0.0015484 0.9999062 0.0015484 0.9999062 0.0015484 0.0000938 -0.0015484
13304544 0.0000945 -0.0014852 0.9999055 0.0014852 0.9999055 0.0014852 0.0000945 -0.0014852
13597071 0.0000953 -0.0014227 0.9999047 0.0014227 0.9999047 0.0014227 0.0000953 -0.0014227
13896030 0.0000961 -0.0013608 0.9999039 0.0013608 0.9999039 0.0013608 0.0000961 -0.0013608
14201563 0.0000970 -0.0012997 0.9999030 0.0012997 0.9999030 0.0012997 0.0000970 -0.0012997
14513813 0.0000979 -0.0012391 0.9999021 0.0012391 0.9999021 0.0012391 0.0000979 -0.0012391
14832928 0.0000989 -0.0011791 0.9999011 0.0011791 0.9999011 0.0011791 0.0000989 -0.0011791
15159060 0.0000999 -0.0011196 0.9999001 0.0011196 0.9999001 0.0011196 0.0000999 -0.0011196
15492362 0.0001010 -0.0010607 0.9998990 0.0010607 0.9998990 0.0010607 0.0001010 -0.0010607
15832993 0.0001022 -0.0010022 0.9998978 0.0010022 0.9998978 0.0010022 0.0001022 -0.0010022
16181113 0.0001034 -0.0009442 0.9998966 0.0009442 0.9998966 0.0009442 0.0001034 -0.0009442
16536888 0.0001047 -0.0008867 0.9998953 0.0008867 0.9998953 0.0008867 0.0001047 -0.0008867
16900485 0.0001061 -0.0008295 0.9998939 0.0008295 0.9998939 0.0008295 0.0001061 -0.0008295
17272076 0.0001076 -0.0007727 0.9998924 0.0007727 0.9998924 0.0007727 0.0001076 -0.0007727
17651837 0.0001091 -0.0007163 0.9998909 0.0007163 0.9998909 0.0007163 0.0001091 -0.0007163
18039948 0.0001107 -0.0006602 0.9998893 0.0006602 0.9998893 0.0006602 0.0001107 -0.0006602
18436593 0.0001124 -0.0006044 0.9998876 0.0006044 0.9998876 0.0006044 0.0001124 -0.0006044
18841959 0.0001142 -0.0005488 0.9998858 0.0005488 0.9998858 0.0005488 0.0001142 -0.0005488
19256237 0.0001160 -0.0004935 0.9998840 0.0004935 0.9998840 0.0004935 0.0001160 -0.0004935
19679624 0.0001180 -0.0004384 0.9998820 0.0004384 0.9998820 0.0004384 0.0001180 -0.0004384
20112321 0.0001201 -0.0003834 0.9998799 0.0003834 0.9998799 0.0003834 0.0001201 -0.0003834
20554530 0.0001223 -0.0003286 0.9998777 0.0003286 0.9998777 0.0003286 0.0001223 -0.0003286
21006463 0.0001246 -0.0002739 0.9998754 0.0002739 0.9998754 0.0002739 0.0001246 -0.0002739
21468333 0.0001270 -0.0002193 0.9998730 0.0002193 0.9998730 0.0002193 0.0001270 -0.0002193
21940357 0.0001295 -0.0001648 0.9998705 0.0001648 0.9998705 0.0001648 0.0001295 -0.0001648
22422760 0.0001321 -0.0001103 0.9998679 0.0001103 0.9998679 0.0001103 0.0001321 -0.0001103
22915770 0.0001349 -0.0000558 0.9998651 0.0000558 0.9998651 0.0000558 0.0001349 -0.0000558
23419619 0.0001379 -0.0000012 0.9998621 0.0000012 0.9998621 0.0000012 0.0001379 -0.0000012
23934547 0.0001409 0.0000534 0.9998591 -0.0000534 0.9998591 -0.0000534 0.0001409 0.0000534
24460796 0.0001442 0.0001082 0.9998558 -0.0001082 0.9998558 -0.0001082 0.0001442 0.0001082
24998616 0.0001476 0.0001630 0.9998524 -0.0001630 0.9998524 -0.0001630 0.0001476 0.0001630
25548261 0.0001512 0.0002181 0.9998488 -0.0002181 0.9998488 -0.0002181 0.0001512 0.0002181
26109991 0.0001550 0.0002733 0.9998450 -0.0002733 0.9998450 -0.0002733 0.0001550 0.0002733
26684072 0.0001590 0.0003288 0.9998410 -0.0003288 0.9998410 -0.0003288 0.0001590 0.0003288
27270775 0.0001632 0.0003846 0.9998368 -0.0003846 0.9998368 -0.0003846 0.0001632 0.0003846
27870378 0.0001676 0.0004407 0.9998324 -0.0004407 0.9998324 -0.0004407 0.0001676 0.0004407
28483164 0.0001723 0.0004972 0.9998277 -0.0004972 0.9998277 -0.0004972 0.0001723 0.0004972
29109424 0.0001773 0.0005541 0.9998227 -0.0005541 0.9998227 -0.0005541 0.0001773 0.0005541
29749453 0.0001825 0.0006115 0.9998175 -0.0006115 0.9998175 -0.0006115 0.0001825 0.0006115
30403555 0.0001881 0.0006694 0.9998119 -0.0006694 0.9998119 -0.0006694 0.0001881 0.0006694
31072038 0.0001940 0.0007280 0.9998060 -0.0007280 0.9998060 -0.0007280 0.0001940 0.0007280
31755220 0.0002003 0.0007871 0.9997997 -0.0007871 0.9997997 -0.0007871 0.0002003 0.0007871
32453422 0.0002070 0.0008471 0.9997930 -0.0008471 0.9997930 -0.0008471 0.0002070 0.0008471
33166976 0.0002142 0.0009078 0.9997858 -0.0009078 0.9997858 -0.0009078 0.0002142 0.0009078
33896219 0.0002220 0.0009694 0.9997780 -0.0009694 0.9997780 -0.0009694 0.0002220 0.0009694
34641496 0.0002303 0.0010320 0.9997697 -0.0010320 0.9997697 -0.0010320 0.0002303 0.0010320
35403159 0.0002394 0.0010957 0.9997606 -0.0010957 0.9997606 -0.0010957 0.0002394 0.0010957
36181569 0.0002492 0.0011607 0.9997508 -0.0011607 0.9997508 -0.0011607 0.0002492 0.0011607
36977093 0.0002600 0.0012270 0.9997400 -0.0012270 0.9997400 -0.0012270 0.0002600 0.0012270
37790109 0.0002718 0.0012949 0.9997282 -0.0012949 0.9997282 -0.0012949 0.0002718 0.0012949
38621001 0.0002850 0.0013645 0.9997150 -0.0013645 0.9997150 -0.0013645 0.0002850 0.0013645
39470161 0.0002999 0.0014362 0.9997001 -0.0014362 0.9997001 -0.0014362 0.0002999 0.0014362
40337993 0.0003167 0.0015100 0.9996833 -0.0015100 0.9996833 -0.0015100 0.0003167 0.0015100
41224905 0.0003362 0.0015864 0.9996638 -0.0015864 0.9996638 -0.0015864 0.0003362 0.0015864
42131317 0.0003589 0.0016657 0.9996411 -0.0016657 0.9996411 -0.0016657 0.0003589 0.0016657
43057659 0.0003860 0.0017482 0.9996140 -0.0017482 0.9996140 -0.0017482 0.0003860 0.0017482
44004369 0.0004189 0.0018341 0.9995811 -0.0018341 0.9995811 -0.0018341 0.0004189 0.0018341
44971893 0.0004600 0.0019237 0.9995400 -0.0019237 0.9995400 -0.0019237 0.0004600 0.0019237
45960691 0.0005123 0.0020164 0.9994877 -0.0020164 0.9994877 -0.0020164 0.0005123 0.0020164
46971230 0.0005807 0.0021106 0.9994193 -0.0021106 0.9994193 -0.0021106 0.0005807 0.0021106
48003987 0.0006715 0.0022014 0.9993285 -0.0022014 0.9993285 -0.0022014 0.0006715 0.0022014
49059451 0.0007921 0.0022780 0.9992079 -0.0022780 0.9992079 -0.0022780 0.0007921 0.0022780
50138122 0.0009454 0.0023184 0.9990546 -0.0023184 0.9990546 -0.0023184 0.0009454 0.0023184
51240510 0.0011149 0.0022892 0.9988851 -0.0022892 0.9988851 -0.0022892 0.0011149 0.0022892
52367136 0.0012454 0.0021695 0.9987546 -0.0021695 0.9987546 -0.0021695 0.0012454 0.0021695
53518533 0.0012664 0.0020013 0.9987336 -0.0020013 0.9987336 -0.0020013 0.0012664 0.0020013
54695245 0.0011743 0.0018777 0.9988257 -0.0018777 0.9988257 -0.0018777 0.0011743 0.0018777
55897831 0.0010378 0.0018470 0.9989622 -0.0018470 0.9989622 -0.0018470 0.0010378 0.0018470
57126857 0.0009157 0.0018913 0.9990843 -0.0018913 0.9990843 -0.0018913 0.0009157 0.0018913
58382906 0.0008273 0.0019765 0.9991727 -0.0019765 0.9991727 -0.0019765 0.0008273 0.0019765
59666572 0.0007709 0.0020796 0.9992291 -0.0020796 0.9992291 -0.0020796 0.0007709 0.0020796
60978462 0.0007395 0.0021889 0.9992605 -0.0021889 0.9992605 -0.0021889 0.0007395 0.0021889
62319196 0.0007271 0.0022992 0.9992729 -0.0022992 0.9992729 -0.0022992 0.0007271 0.0022992
63689409 0.0007293 0.0024085 0.9992707 -0.0024085 0.9992707 -0.0024085 0.0007293 0.0024085
65089750 0.0007435 0.0025160 0.9992565 -0.0025160 0.9992565 -0.0025160 0.0007435 0.0025160
66520879 0.0007683 0.0026215 0.9992317 -0.0026215 0.9992317 -0.0026215 0.0007683 0.0026215
67983474 0.0008030 0.0027244 0.9991970 -0.0027244 0.9991970 -0.0027244 0.0008030 0.0027244
69478228 0.0008477 0.0028242 0.9991523 -0.0028242 0.9991523 -0.0028242 0.0008477 0.0028242
71005847 0.0009027 0.0029196 0.9990973 -0.0029196 0.9990973 -0.0029196 0.0009027 0.0029196
72567054 0.0009686 0.0030085 0.9990314 -0.0030085 0.9990314 -0.0030085 0.0009686 0.0030085
74162587 0.0010454 0.0030879 0.9989546 -0.0030879 0.9989546 -0.0030879 0.0010454 0.0030879
75793201 0.0011324 0.0031536 0.9988676 -0.0031536 0.9988676 -0.0031536 0.0011324 0.0031536
77459667 0.0012269 0.0032007 0.9987731 -0.0032007 0.9987731 -0.0032007 0.0012269 0.0032007
79162774 0.0013233 0.0032240 0.9986767 -0.0032240 0.9986767 -0.0032240 0.0013233 0.0032240
80903327 0.0014124 0.0032203 0.9985876 -0.0032203 0.9985876 -0.0032203 0.0014124 0.0032203
82682150 0.0014825 0.0031911 0.9985175 -0.0031911 0.9985175 -0.0031911 0.0014825 0.0031911
84500083 0.0015222 0.0031444 0.9984778 -0.0031444 0.9984778 -0.0031444 0.0015222 0.0031444
86357988 0.0015252 0.0030940 0.9984748 -0.0030940 0.9984748 -0.0030940 0.0015252 0.0030940
88256743 0.0014937 0.0030555 0.9985063 -0.0030555 0.9985063 -0.0030555 0.0014937 0.0030555
90197245 0.0014366 0.0030403 0.9985634 -0.0030403 0.9985634 -0.0030403 0.0014366 0.0030403
92180413 0.0013660 0.0030530 0.9986340 -0.0030530 0.9986340 -0.0030530 0.0013660 0.0030530
94207185 0.0012928 0.0030924 0.9987072 -0.0030924 0.9987072 -0.0030924 0.0012928 0.0030924
96278520 0.0012240 0.0031539 0.9987760 -0.0031539 0.9987760 -0.0031539 0.0012240 0.0031539
98395398 0.0011636 0.0032322 0.9988364 -0.0032322 0.9988364 -0.0032322 0.0011636 0.0032322
100558819 0.0011128 0.0033225 0.9988872 -0.0033225 0.9988872 -0.0033225 0.0011128 0.0033225
102769807 0.0010717 0.0034208 0.9989283 -0.0034208 0.9989283 -0.0034208 0.0010717 0.0034208
105029408 0.0010392 0.0035244 0.9989608 -0.0035244 0.9989608 -0.0035244 0.0010392 0.0035244
107338692 0.0010143 0.0036314 0.9989857 -0.0036314 0.9989857 -0.0036314 0.0010143 0.0036314
