!Murata Part Number: GRM3195C2A683GA01
!These Parameters are Measured in Series Mode Connection
!Data Generated on Mar 30, 2021
!       o--ll--o
!Port1            Port2
!       o------o
!Operation Temp=25[degC], DC Bias Voltage=0[V]
!Freq. Start=1000[kHz] Stop=6[GHz] 401[Steps]
# Hz S RI R 50
!Freq.(Hz) S11(Real) S11(Imag) S21(Real) S21(Imag) S12(Real) S12(Imag) S22(Real) S22(Imag)
1000000 0.0006040 -0.0235179 0.9993960 0.0235179 0.9993960 0.0235179 0.0006040 -0.0235179
1021987 0.0005805 -0.0230101 0.9994195 0.0230101 0.9994195 0.0230101 0.0005805 -0.0230101
1044457 0.0005579 -0.0225132 0.9994421 0.0225132 0.9994421 0.0225132 0.0005579 -0.0225132
1067422 0.0005364 -0.0220268 0.9994636 0.0220268 0.9994636 0.0220268 0.0005364 -0.0220268
1090891 0.0005157 -0.0215509 0.9994843 0.0215509 0.9994843 0.0215509 0.0005157 -0.0215509
1114877 0.0004960 -0.0210851 0.9995040 0.0210851 0.9995040 0.0210851 0.0004960 -0.0210851
1139390 0.0004770 -0.0206292 0.9995230 0.0206292 0.9995230 0.0206292 0.0004770 -0.0206292
1164441 0.0004589 -0.0201831 0.9995411 0.0201831 0.9995411 0.0201831 0.0004589 -0.0201831
1190044 0.0004416 -0.0197464 0.9995584 0.0197464 0.9995584 0.0197464 0.0004416 -0.0197464
1216210 0.0004250 -0.0193191 0.9995750 0.0193191 0.9995750 0.0193191 0.0004250 -0.0193191
1242950 0.0004091 -0.0189009 0.9995909 0.0189009 0.9995909 0.0189009 0.0004091 -0.0189009
1270279 0.0003939 -0.0184917 0.9996061 0.0184917 0.9996061 0.0184917 0.0003939 -0.0184917
1298209 0.0003794 -0.0180911 0.9996206 0.0180911 0.9996206 0.0180911 0.0003794 -0.0180911
1326753 0.0003655 -0.0176991 0.9996345 0.0176991 0.9996345 0.0176991 0.0003655 -0.0176991
1355924 0.0003522 -0.0173154 0.9996478 0.0173154 0.9996478 0.0173154 0.0003522 -0.0173154
1385737 0.0003394 -0.0169400 0.9996606 0.0169400 0.9996606 0.0169400 0.0003394 -0.0169400
1416205 0.0003272 -0.0165725 0.9996728 0.0165725 0.9996728 0.0165725 0.0003272 -0.0165725
1447343 0.0003156 -0.0162128 0.9996844 0.0162128 0.9996844 0.0162128 0.0003156 -0.0162128
1479166 0.0003044 -0.0158608 0.9996956 0.0158608 0.9996956 0.0158608 0.0003044 -0.0158608
1511688 0.0002937 -0.0155163 0.9997063 0.0155163 0.9997063 0.0155163 0.0002937 -0.0155163
1544926 0.0002835 -0.0151791 0.9997165 0.0151791 0.9997165 0.0151791 0.0002835 -0.0151791
1578894 0.0002737 -0.0148491 0.9997263 0.0148491 0.9997263 0.0148491 0.0002737 -0.0148491
1613609 0.0002644 -0.0145261 0.9997356 0.0145261 0.9997356 0.0145261 0.0002644 -0.0145261
1649087 0.0002554 -0.0142099 0.9997446 0.0142099 0.9997446 0.0142099 0.0002554 -0.0142099
1685346 0.0002469 -0.0139005 0.9997531 0.0139005 0.9997531 0.0139005 0.0002469 -0.0139005
1722402 0.0002387 -0.0135976 0.9997613 0.0135976 0.9997613 0.0135976 0.0002387 -0.0135976
1760272 0.0002309 -0.0133012 0.9997691 0.0133012 0.9997691 0.0133012 0.0002309 -0.0133012
1798975 0.0002234 -0.0130110 0.9997766 0.0130110 0.9997766 0.0130110 0.0002234 -0.0130110
1838529 0.0002162 -0.0127270 0.9997838 0.0127270 0.9997838 0.0127270 0.0002162 -0.0127270
1878953 0.0002094 -0.0124490 0.9997906 0.0124490 0.9997906 0.0124490 0.0002094 -0.0124490
1920266 0.0002029 -0.0121769 0.9997971 0.0121769 0.9997971 0.0121769 0.0002029 -0.0121769
1962487 0.0001966 -0.0119106 0.9998034 0.0119106 0.9998034 0.0119106 0.0001966 -0.0119106
2005636 0.0001907 -0.0116499 0.9998093 0.0116499 0.9998093 0.0116499 0.0001907 -0.0116499
2049734 0.0001850 -0.0113947 0.9998150 0.0113947 0.9998150 0.0113947 0.0001850 -0.0113947
2094801 0.0001795 -0.0111448 0.9998205 0.0111448 0.9998205 0.0111448 0.0001795 -0.0111448
2140860 0.0001743 -0.0109003 0.9998257 0.0109003 0.9998257 0.0109003 0.0001743 -0.0109003
2187931 0.0001694 -0.0106609 0.9998306 0.0106609 0.9998306 0.0106609 0.0001694 -0.0106609
2236037 0.0001646 -0.0104266 0.9998354 0.0104266 0.9998354 0.0104266 0.0001646 -0.0104266
2285201 0.0001601 -0.0101971 0.9998399 0.0101971 0.9998399 0.0101971 0.0001601 -0.0101971
2335446 0.0001558 -0.0099726 0.9998442 0.0099726 0.9998442 0.0099726 0.0001558 -0.0099726
2386795 0.0001517 -0.0097527 0.9998483 0.0097527 0.9998483 0.0097527 0.0001517 -0.0097527
2439274 0.0001478 -0.0095374 0.9998522 0.0095374 0.9998522 0.0095374 0.0001478 -0.0095374
2492906 0.0001440 -0.0093267 0.9998560 0.0093267 0.9998560 0.0093267 0.0001440 -0.0093267
2547717 0.0001405 -0.0091204 0.9998595 0.0091204 0.9998595 0.0091204 0.0001405 -0.0091204
2603734 0.0001371 -0.0089184 0.9998629 0.0089184 0.9998629 0.0089184 0.0001371 -0.0089184
2660982 0.0001338 -0.0087206 0.9998662 0.0087206 0.9998662 0.0087206 0.0001338 -0.0087206
2719490 0.0001308 -0.0085269 0.9998692 0.0085269 0.9998692 0.0085269 0.0001308 -0.0085269
2779283 0.0001278 -0.0083373 0.9998722 0.0083373 0.9998722 0.0083373 0.0001278 -0.0083373
2840391 0.0001251 -0.0081517 0.9998749 0.0081517 0.9998749 0.0081517 0.0001251 -0.0081517
2902843 0.0001224 -0.0079699 0.9998776 0.0079699 0.9998776 0.0079699 0.0001224 -0.0079699
2966668 0.0001199 -0.0077918 0.9998801 0.0077918 0.9998801 0.0077918 0.0001199 -0.0077918
3031896 0.0001175 -0.0076175 0.9998825 0.0076175 0.9998825 0.0076175 0.0001175 -0.0076175
3098558 0.0001153 -0.0074468 0.9998847 0.0074468 0.9998847 0.0074468 0.0001153 -0.0074468
3166686 0.0001131 -0.0072796 0.9998869 0.0072796 0.9998869 0.0072796 0.0001131 -0.0072796
3236312 0.0001111 -0.0071159 0.9998889 0.0071159 0.9998889 0.0071159 0.0001111 -0.0071159
3307469 0.0001092 -0.0069555 0.9998908 0.0069555 0.9998908 0.0069555 0.0001092 -0.0069555
3380190 0.0001073 -0.0067984 0.9998927 0.0067984 0.9998927 0.0067984 0.0001073 -0.0067984
3454511 0.0001056 -0.0066446 0.9998944 0.0066446 0.9998944 0.0066446 0.0001056 -0.0066446
3530465 0.0001040 -0.0064939 0.9998960 0.0064939 0.9998960 0.0064939 0.0001040 -0.0064939
3608090 0.0001025 -0.0063463 0.9998975 0.0063463 0.9998975 0.0063463 0.0001025 -0.0063463
3687421 0.0001010 -0.0062017 0.9998990 0.0062017 0.9998990 0.0062017 0.0001010 -0.0062017
3768496 0.0000997 -0.0060601 0.9999003 0.0060601 0.9999003 0.0060601 0.0000997 -0.0060601
3851354 0.0000984 -0.0059213 0.9999016 0.0059213 0.9999016 0.0059213 0.0000984 -0.0059213
3936034 0.0000972 -0.0057854 0.9999028 0.0057854 0.9999028 0.0057854 0.0000972 -0.0057854
4022575 0.0000961 -0.0056522 0.9999039 0.0056522 0.9999039 0.0056522 0.0000961 -0.0056522
4111020 0.0000951 -0.0055217 0.9999049 0.0055217 0.9999049 0.0055217 0.0000951 -0.0055217
4201409 0.0000941 -0.0053938 0.9999059 0.0053938 0.9999059 0.0053938 0.0000941 -0.0053938
4293785 0.0000932 -0.0052685 0.9999068 0.0052685 0.9999068 0.0052685 0.0000932 -0.0052685
4388193 0.0000923 -0.0051456 0.9999077 0.0051456 0.9999077 0.0051456 0.0000923 -0.0051456
4484676 0.0000915 -0.0050253 0.9999085 0.0050253 0.9999085 0.0050253 0.0000915 -0.0050253
4583281 0.0000908 -0.0049073 0.9999092 0.0049073 0.9999092 0.0049073 0.0000908 -0.0049073
4684054 0.0000902 -0.0047917 0.9999098 0.0047917 0.9999098 0.0047917 0.0000902 -0.0047917
4787042 0.0000895 -0.0046783 0.9999105 0.0046783 0.9999105 0.0046783 0.0000895 -0.0046783
4892295 0.0000890 -0.0045672 0.9999110 0.0045672 0.9999110 0.0045672 0.0000890 -0.0045672
4999862 0.0000885 -0.0044582 0.9999115 0.0044582 0.9999115 0.0044582 0.0000885 -0.0044582
5109794 0.0000880 -0.0043514 0.9999120 0.0043514 0.9999120 0.0043514 0.0000880 -0.0043514
5222143 0.0000876 -0.0042467 0.9999124 0.0042467 0.9999124 0.0042467 0.0000876 -0.0042467
5336962 0.0000872 -0.0041440 0.9999128 0.0041440 0.9999128 0.0041440 0.0000872 -0.0041440
5454306 0.0000869 -0.0040432 0.9999131 0.0040432 0.9999131 0.0040432 0.0000869 -0.0040432
5574230 0.0000866 -0.0039444 0.9999134 0.0039444 0.9999134 0.0039444 0.0000866 -0.0039444
5696791 0.0000864 -0.0038475 0.9999136 0.0038475 0.9999136 0.0038475 0.0000864 -0.0038475
5822046 0.0000862 -0.0037524 0.9999138 0.0037524 0.9999138 0.0037524 0.0000862 -0.0037524
5950055 0.0000860 -0.0036591 0.9999140 0.0036591 0.9999140 0.0036591 0.0000860 -0.0036591
6080879 0.0000859 -0.0035675 0.9999141 0.0035675 0.9999141 0.0035675 0.0000859 -0.0035675
6214580 0.0000857 -0.0034777 0.9999143 0.0034777 0.9999143 0.0034777 0.0000857 -0.0034777
6351220 0.0000857 -0.0033895 0.9999143 0.0033895 0.9999143 0.0033895 0.0000857 -0.0033895
6490864 0.0000856 -0.0033029 0.9999144 0.0033029 0.9999144 0.0033029 0.0000856 -0.0033029
6633579 0.0000856 -0.0032179 0.9999144 0.0032179 0.9999144 0.0032179 0.0000856 -0.0032179
6779431 0.0000856 -0.0031344 0.9999144 0.0031344 0.9999144 0.0031344 0.0000856 -0.0031344
6928491 0.0000857 -0.0030525 0.9999143 0.0030525 0.9999143 0.0030525 0.0000857 -0.0030525
7080828 0.0000857 -0.0029720 0.9999143 0.0029720 0.9999143 0.0029720 0.0000857 -0.0029720
7236514 0.0000858 -0.0028929 0.9999142 0.0028929 0.9999142 0.0028929 0.0000858 -0.0028929
7395623 0.0000859 -0.0028152 0.9999141 0.0028152 0.9999141 0.0028152 0.0000859 -0.0028152
7558231 0.0000860 -0.0027389 0.9999140 0.0027389 0.9999140 0.0027389 0.0000860 -0.0027389
7724414 0.0000862 -0.0026638 0.9999138 0.0026638 0.9999138 0.0026638 0.0000862 -0.0026638
7894251 0.0000864 -0.0025901 0.9999136 0.0025901 0.9999136 0.0025901 0.0000864 -0.0025901
8067822 0.0000866 -0.0025176 0.9999134 0.0025176 0.9999134 0.0025176 0.0000866 -0.0025176
8245209 0.0000868 -0.0024462 0.9999132 0.0024462 0.9999132 0.0024462 0.0000868 -0.0024462
8426497 0.0000870 -0.0023761 0.9999130 0.0023761 0.9999130 0.0023761 0.0000870 -0.0023761
8611770 0.0000872 -0.0023071 0.9999128 0.0023071 0.9999128 0.0023071 0.0000872 -0.0023071
8801117 0.0000875 -0.0022391 0.9999125 0.0022391 0.9999125 0.0022391 0.0000875 -0.0022391
8994628 0.0000878 -0.0021723 0.9999122 0.0021723 0.9999122 0.0021723 0.0000878 -0.0021723
9192393 0.0000881 -0.0021065 0.9999119 0.0021065 0.9999119 0.0021065 0.0000881 -0.0021065
9394506 0.0000884 -0.0020417 0.9999116 0.0020417 0.9999116 0.0020417 0.0000884 -0.0020417
9601063 0.0000887 -0.0019779 0.9999113 0.0019779 0.9999113 0.0019779 0.0000887 -0.0019779
9812162 0.0000891 -0.0019150 0.9999109 0.0019150 0.9999109 0.0019150 0.0000891 -0.0019150
10027902 0.0000895 -0.0018530 0.9999105 0.0018530 0.9999105 0.0018530 0.0000895 -0.0018530
10248386 0.0000898 -0.0017919 0.9999102 0.0017919 0.9999102 0.0017919 0.0000898 -0.0017919
10473717 0.0000902 -0.0017316 0.9999098 0.0017316 0.9999098 0.0017316 0.0000902 -0.0017316
10704003 0.0000907 -0.0016722 0.9999093 0.0016722 0.9999093 0.0016722 0.0000907 -0.0016722
10939352 0.0000911 -0.0016136 0.9999089 0.0016136 0.9999089 0.0016136 0.0000911 -0.0016136
11179876 0.0000915 -0.0015557 0.9999085 0.0015557 0.9999085 0.0015557 0.0000915 -0.0015557
11425688 0.0000920 -0.0014986 0.9999080 0.0014986 0.9999080 0.0014986 0.0000920 -0.0014986
11676904 0.0000925 -0.0014422 0.9999075 0.0014422 0.9999075 0.0014422 0.0000925 -0.0014422
11933645 0.0000930 -0.0013864 0.9999070 0.0013864 0.9999070 0.0013864 0.0000930 -0.0013864
12196030 0.0000935 -0.0013313 0.9999065 0.0013313 0.9999065 0.0013313 0.0000935 -0.0013313
12464184 0.0000941 -0.0012769 0.9999059 0.0012769 0.9999059 0.0012769 0.0000941 -0.0012769
12738235 0.0000946 -0.0012230 0.9999054 0.0012230 0.9999054 0.0012230 0.0000946 -0.0012230
13018310 0.0000952 -0.0011697 0.9999048 0.0011697 0.9999048 0.0011697 0.0000952 -0.0011697
13304544 0.0000958 -0.0011169 0.9999042 0.0011169 0.9999042 0.0011169 0.0000958 -0.0011169
13597071 0.0000965 -0.0010647 0.9999035 0.0010647 0.9999035 0.0010647 0.0000965 -0.0010647
13896030 0.0000971 -0.0010129 0.9999029 0.0010129 0.9999029 0.0010129 0.0000971 -0.0010129
14201563 0.0000978 -0.0009617 0.9999022 0.0009617 0.9999022 0.0009617 0.0000978 -0.0009617
14513813 0.0000985 -0.0009108 0.9999015 0.0009108 0.9999015 0.0009108 0.0000985 -0.0009108
14832928 0.0000993 -0.0008604 0.9999007 0.0008604 0.9999007 0.0008604 0.0000993 -0.0008604
15159060 0.0001001 -0.0008103 0.9998999 0.0008103 0.9998999 0.0008103 0.0001001 -0.0008103
15492362 0.0001009 -0.0007606 0.9998991 0.0007606 0.9998991 0.0007606 0.0001009 -0.0007606
15832993 0.0001017 -0.0007113 0.9998983 0.0007113 0.9998983 0.0007113 0.0001017 -0.0007113
16181113 0.0001026 -0.0006622 0.9998974 0.0006622 0.9998974 0.0006622 0.0001026 -0.0006622
16536888 0.0001035 -0.0006134 0.9998965 0.0006134 0.9998965 0.0006134 0.0001035 -0.0006134
16900485 0.0001044 -0.0005649 0.9998956 0.0005649 0.9998956 0.0005649 0.0001044 -0.0005649
17272076 0.0001054 -0.0005166 0.9998946 0.0005166 0.9998946 0.0005166 0.0001054 -0.0005166
17651837 0.0001065 -0.0004685 0.9998935 0.0004685 0.9998935 0.0004685 0.0001065 -0.0004685
18039948 0.0001076 -0.0004206 0.9998924 0.0004206 0.9998924 0.0004206 0.0001076 -0.0004206
18436593 0.0001087 -0.0003728 0.9998913 0.0003728 0.9998913 0.0003728 0.0001087 -0.0003728
18841959 0.0001099 -0.0003251 0.9998901 0.0003251 0.9998901 0.0003251 0.0001099 -0.0003251
19256237 0.0001112 -0.0002776 0.9998888 0.0002776 0.9998888 0.0002776 0.0001112 -0.0002776
19679624 0.0001125 -0.0002301 0.9998875 0.0002301 0.9998875 0.0002301 0.0001125 -0.0002301
20112321 0.0001139 -0.0001826 0.9998861 0.0001826 0.9998861 0.0001826 0.0001139 -0.0001826
20554530 0.0001153 -0.0001351 0.9998847 0.0001351 0.9998847 0.0001351 0.0001153 -0.0001351
21006463 0.0001169 -0.0000876 0.9998831 0.0000876 0.9998831 0.0000876 0.0001169 -0.0000876
21468333 0.0001185 -0.0000400 0.9998815 0.0000400 0.9998815 0.0000400 0.0001185 -0.0000400
21940357 0.0001202 0.0000076 0.9998798 -0.0000076 0.9998798 -0.0000076 0.0001202 0.0000076
22422760 0.0001220 0.0000554 0.9998780 -0.0000554 0.9998780 -0.0000554 0.0001220 0.0000554
22915770 0.0001239 0.0001033 0.9998761 -0.0001033 0.9998761 -0.0001033 0.0001239 0.0001033
23419619 0.0001260 0.0001515 0.9998740 -0.0001515 0.9998740 -0.0001515 0.0001260 0.0001515
23934547 0.0001281 0.0001998 0.9998719 -0.0001998 0.9998719 -0.0001998 0.0001281 0.0001998
24460796 0.0001304 0.0002485 0.9998696 -0.0002485 0.9998696 -0.0002485 0.0001304 0.0002485
24998616 0.0001329 0.0002974 0.9998671 -0.0002974 0.9998671 -0.0002974 0.0001329 0.0002974
25548261 0.0001355 0.0003467 0.9998645 -0.0003467 0.9998645 -0.0003467 0.0001355 0.0003467
26109991 0.0001383 0.0003964 0.9998617 -0.0003964 0.9998617 -0.0003964 0.0001383 0.0003964
26684072 0.0001413 0.0004465 0.9998587 -0.0004465 0.9998587 -0.0004465 0.0001413 0.0004465
27270775 0.0001445 0.0004972 0.9998555 -0.0004972 0.9998555 -0.0004972 0.0001445 0.0004972
27870378 0.0001479 0.0005484 0.9998521 -0.0005484 0.9998521 -0.0005484 0.0001479 0.0005484
28483164 0.0001517 0.0006003 0.9998483 -0.0006003 0.9998483 -0.0006003 0.0001517 0.0006003
29109424 0.0001557 0.0006528 0.9998443 -0.0006528 0.9998443 -0.0006528 0.0001557 0.0006528
29749453 0.0001601 0.0007061 0.9998399 -0.0007061 0.9998399 -0.0007061 0.0001601 0.0007061
30403555 0.0001649 0.0007602 0.9998351 -0.0007602 0.9998351 -0.0007602 0.0001649 0.0007602
31072038 0.0001702 0.0008153 0.9998298 -0.0008153 0.9998298 -0.0008153 0.0001702 0.0008153
31755220 0.0001760 0.0008714 0.9998240 -0.0008714 0.9998240 -0.0008714 0.0001760 0.0008714
32453422 0.0001825 0.0009287 0.9998175 -0.0009287 0.9998175 -0.0009287 0.0001825 0.0009287
33166976 0.0001896 0.0009872 0.9998104 -0.0009872 0.9998104 -0.0009872 0.0001896 0.0009872
33896219 0.0001977 0.0010472 0.9998023 -0.0010472 0.9998023 -0.0010472 0.0001977 0.0010472
34641496 0.0002068 0.0011088 0.9997932 -0.0011088 0.9997932 -0.0011088 0.0002068 0.0011088
35403159 0.0002172 0.0011721 0.9997828 -0.0011721 0.9997828 -0.0011721 0.0002172 0.0011721
36181569 0.0002292 0.0012375 0.9997708 -0.0012375 0.9997708 -0.0012375 0.0002292 0.0012375
36977093 0.0002432 0.0013051 0.9997568 -0.0013051 0.9997568 -0.0013051 0.0002432 0.0013051
37790109 0.0002596 0.0013752 0.9997404 -0.0013752 0.9997404 -0.0013752 0.0002596 0.0013752
38621001 0.0002794 0.0014481 0.9997206 -0.0014481 0.9997206 -0.0014481 0.0002794 0.0014481
39470161 0.0003033 0.0015241 0.9996967 -0.0015241 0.9996967 -0.0015241 0.0003033 0.0015241
40337993 0.0003329 0.0016033 0.9996671 -0.0016033 0.9996671 -0.0016033 0.0003329 0.0016033
41224905 0.0003701 0.0016858 0.9996299 -0.0016858 0.9996299 -0.0016858 0.0003701 0.0016858
42131317 0.0004178 0.0017710 0.9995822 -0.0017710 0.9995822 -0.0017710 0.0004178 0.0017710
43057659 0.0004799 0.0018573 0.9995201 -0.0018573 0.9995201 -0.0018573 0.0004799 0.0018573
44004369 0.0005615 0.0019407 0.9994385 -0.0019407 0.9994385 -0.0019407 0.0005615 0.0019407
44971893 0.0006685 0.0020126 0.9993315 -0.0020126 0.9993315 -0.0020126 0.0006685 0.0020126
45960691 0.0008038 0.0020565 0.9991962 -0.0020565 0.9991962 -0.0020565 0.0008038 0.0020565
46971230 0.0009581 0.0020472 0.9990419 -0.0020472 0.9990419 -0.0020472 0.0009581 0.0020472
48003987 0.0010962 0.0019619 0.9989038 -0.0019619 0.9989038 -0.0019619 0.0010962 0.0019619
49059451 0.0011597 0.0018136 0.9988403 -0.0018136 0.9988403 -0.0018136 0.0011597 0.0018136
50138122 0.0011164 0.0016676 0.9988836 -0.0016676 0.9988836 -0.0016676 0.0011164 0.0016676
51240510 0.0009997 0.0015887 0.9990003 -0.0015887 0.9990003 -0.0015887 0.0009997 0.0015887
52367136 0.0008681 0.0015893 0.9991319 -0.0015893 0.9991319 -0.0015893 0.0008681 0.0015893
53518533 0.0007571 0.0016466 0.9992429 -0.0016466 0.9992429 -0.0016466 0.0007571 0.0016466
54695245 0.0006761 0.0017350 0.9993239 -0.0017350 0.9993239 -0.0017350 0.0006761 0.0017350
55897831 0.0006224 0.0018384 0.9993776 -0.0018384 0.9993776 -0.0018384 0.0006224 0.0018384
57126857 0.0005909 0.0019484 0.9994091 -0.0019484 0.9994091 -0.0019484 0.0005909 0.0019484
58382906 0.0005771 0.0020612 0.9994229 -0.0020612 0.9994229 -0.0020612 0.0005771 0.0020612
59666572 0.0005781 0.0021752 0.9994219 -0.0021752 0.9994219 -0.0021752 0.0005781 0.0021752
60978462 0.0005922 0.0022899 0.9994078 -0.0022899 0.9994078 -0.0022899 0.0005922 0.0022899
62319196 0.0006191 0.0024052 0.9993809 -0.0024052 0.9993809 -0.0024052 0.0006191 0.0024052
63689409 0.0006596 0.0025207 0.9993404 -0.0025207 0.9993404 -0.0025207 0.0006596 0.0025207
65089750 0.0007154 0.0026357 0.9992846 -0.0026357 0.9992846 -0.0026357 0.0007154 0.0026357
66520879 0.0007893 0.0027481 0.9992107 -0.0027481 0.9992107 -0.0027481 0.0007893 0.0027481
67983474 0.0008849 0.0028541 0.9991151 -0.0028541 0.9991151 -0.0028541 0.0008849 0.0028541
69478228 0.0010059 0.0029465 0.9989941 -0.0029465 0.9989941 -0.0029465 0.0010059 0.0029465
71005847 0.0011542 0.0030132 0.9988458 -0.0030132 0.9988458 -0.0030132 0.0011542 0.0030132
72567054 0.0013256 0.0030366 0.9986744 -0.0030366 0.9986744 -0.0030366 0.0013256 0.0030366
74162587 0.0015029 0.0029967 0.9984971 -0.0029967 0.9984971 -0.0029967 0.0015029 0.0029967
75793201 0.0016508 0.0028830 0.9983492 -0.0028830 0.9983492 -0.0028830 0.0016508 0.0028830
77459667 0.0017247 0.0027124 0.9982753 -0.0027124 0.9982753 -0.0027124 0.0017247 0.0027124
79162774 0.0016989 0.0025338 0.9983011 -0.0025338 0.9983011 -0.0025338 0.0016989 0.0025338
80903327 0.0015881 0.0024017 0.9984119 -0.0024017 0.9984119 -0.0024017 0.0015881 0.0024017
82682150 0.0014351 0.0023433 0.9985649 -0.0023433 0.9985649 -0.0023433 0.0014351 0.0023433
84500083 0.0012795 0.0023540 0.9987205 -0.0023540 0.9987205 -0.0023540 0.0012795 0.0023540
86357988 0.0011438 0.0024147 0.9988562 -0.0024147 0.9988562 -0.0024147 0.0011438 0.0024147
88256743 0.0010349 0.0025060 0.9989651 -0.0025060 0.9989651 -0.0025060 0.0010349 0.0025060
90197245 0.0009520 0.0026142 0.9990480 -0.0026142 0.9990480 -0.0026142 0.0009520 0.0026142
92180413 0.0008911 0.0027304 0.9991089 -0.0027304 0.9991089 -0.0027304 0.0008911 0.0027304
94207185 0.0008481 0.0028497 0.9991519 -0.0028497 0.9991519 -0.0028497 0.0008481 0.0028497
96278520 0.0008193 0.0029693 0.9991807 -0.0029693 0.9991807 -0.0029693 0.0008193 0.0029693
98395398 0.0008018 0.0030879 0.9991982 -0.0030879 0.9991982 -0.0030879 0.0008018 0.0030879
100558819 0.0007932 0.0032047 0.9992068 -0.0032047 0.9992068 -0.0032047 0.0007932 0.0032047
102769807 0.0007919 0.0033194 0.9992081 -0.0033194 0.9992081 -0.0033194 0.0007919 0.0033194
105029408 0.0007966 0.0034319 0.9992034 -0.0034319 0.9992034 -0.0034319 0.0007966 0.0034319
107338692 0.0008061 0.0035421 0.9991939 -0.0035421 0.9991939 -0.0035421 0.0008061 0.0035421
