!Murata Part Number: GRM3192C1H103JA01
!These Parameters are Measured in Series Mode Connection
!Data Generated on Mar 30, 2021
!       o--ll--o
!Port1            Port2
!       o------o
!Operation Temp=25[degC], DC Bias Voltage=0[V]
!Freq. Start=1000[kHz] Stop=6[GHz] 401[Steps]
# Hz S RI R 50
!Freq.(Hz) S11(Real) S11(Imag) S21(Real) S21(Imag) S12(Real) S12(Imag) S22(Real) S22(Imag)
1000000 0.0248319 -0.1553709 0.9751681 0.1553709 0.9751681 0.1553709 0.0248319 -0.1553709
1021987 0.0238025 -0.1521864 0.9761975 0.1521864 0.9761975 0.1521864 0.0238025 -0.1521864
1044457 0.0228149 -0.1490604 0.9771851 0.1490604 0.9771851 0.1490604 0.0228149 -0.1490604
1067422 0.0218674 -0.1459925 0.9781326 0.1459925 0.9781326 0.1459925 0.0218674 -0.1459925
1090891 0.0209586 -0.1429818 0.9790414 0.1429818 0.9790414 0.1429818 0.0209586 -0.1429818
1114877 0.0200869 -0.1400277 0.9799131 0.1400277 0.9799131 0.1400277 0.0200869 -0.1400277
1139390 0.0192508 -0.1371293 0.9807492 0.1371293 0.9807492 0.1371293 0.0192508 -0.1371293
1164441 0.0184489 -0.1342861 0.9815511 0.1342861 0.9815511 0.1342861 0.0184489 -0.1342861
1190044 0.0176800 -0.1314973 0.9823200 0.1314973 0.9823200 0.1314973 0.0176800 -0.1314973
1216210 0.0169426 -0.1287620 0.9830574 0.1287620 0.9830574 0.1287620 0.0169426 -0.1287620
1242950 0.0162357 -0.1260795 0.9837643 0.1260795 0.9837643 0.1260795 0.0162357 -0.1260795
1270279 0.0155578 -0.1234490 0.9844422 0.1234490 0.9844422 0.1234490 0.0155578 -0.1234490
1298209 0.0149079 -0.1208698 0.9850921 0.1208698 0.9850921 0.1208698 0.0149079 -0.1208698
1326753 0.0142849 -0.1183411 0.9857151 0.1183411 0.9857151 0.1183411 0.0142849 -0.1183411
1355924 0.0136877 -0.1158621 0.9863123 0.1158621 0.9863123 0.1158621 0.0136877 -0.1158621
1385737 0.0131152 -0.1134320 0.9868848 0.1134320 0.9868848 0.1134320 0.0131152 -0.1134320
1416205 0.0125665 -0.1110500 0.9874335 0.1110500 0.9874335 0.1110500 0.0125665 -0.1110500
1447343 0.0120406 -0.1087154 0.9879594 0.1087154 0.9879594 0.1087154 0.0120406 -0.1087154
1479166 0.0115365 -0.1064273 0.9884635 0.1064273 0.9884635 0.1064273 0.0115365 -0.1064273
1511688 0.0110534 -0.1041849 0.9889466 0.1041849 0.9889466 0.1041849 0.0110534 -0.1041849
1544926 0.0105904 -0.1019876 0.9894096 0.1019876 0.9894096 0.1019876 0.0105904 -0.1019876
1578894 0.0101467 -0.0998344 0.9898533 0.0998344 0.9898533 0.0998344 0.0101467 -0.0998344
1613609 0.0097215 -0.0977248 0.9902785 0.0977248 0.9902785 0.0977248 0.0097215 -0.0977248
1649087 0.0093141 -0.0956578 0.9906859 0.0956578 0.9906859 0.0956578 0.0093141 -0.0956578
1685346 0.0089238 -0.0936327 0.9910762 0.0936327 0.9910762 0.0936327 0.0089238 -0.0936327
1722402 0.0085497 -0.0916488 0.9914503 0.0916488 0.9914503 0.0916488 0.0085497 -0.0916488
1760272 0.0081913 -0.0897053 0.9918087 0.0897053 0.9918087 0.0897053 0.0081913 -0.0897053
1798975 0.0078480 -0.0878016 0.9921520 0.0878016 0.9921520 0.0878016 0.0078480 -0.0878016
1838529 0.0075190 -0.0859367 0.9924810 0.0859367 0.9924810 0.0859367 0.0075190 -0.0859367
1878953 0.0072038 -0.0841102 0.9927962 0.0841102 0.9927962 0.0841102 0.0072038 -0.0841102
1920266 0.0069019 -0.0823211 0.9930981 0.0823211 0.9930981 0.0823211 0.0069019 -0.0823211
1962487 0.0066127 -0.0805689 0.9933873 0.0805689 0.9933873 0.0805689 0.0066127 -0.0805689
2005636 0.0063356 -0.0788528 0.9936644 0.0788528 0.9936644 0.0788528 0.0063356 -0.0788528
2049734 0.0060701 -0.0771721 0.9939299 0.0771721 0.9939299 0.0771721 0.0060701 -0.0771721
2094801 0.0058159 -0.0755262 0.9941841 0.0755262 0.9941841 0.0755262 0.0058159 -0.0755262
2140860 0.0055723 -0.0739144 0.9944277 0.0739144 0.9944277 0.0739144 0.0055723 -0.0739144
2187931 0.0053390 -0.0723360 0.9946610 0.0723360 0.9946610 0.0723360 0.0053390 -0.0723360
2236037 0.0051156 -0.0707904 0.9948844 0.0707904 0.9948844 0.0707904 0.0051156 -0.0707904
2285201 0.0049015 -0.0692769 0.9950985 0.0692769 0.9950985 0.0692769 0.0049015 -0.0692769
2335446 0.0046965 -0.0677949 0.9953035 0.0677949 0.9953035 0.0677949 0.0046965 -0.0677949
2386795 0.0045002 -0.0663438 0.9954998 0.0663438 0.9954998 0.0663438 0.0045002 -0.0663438
2439274 0.0043121 -0.0649230 0.9956879 0.0649230 0.9956879 0.0649230 0.0043121 -0.0649230
2492906 0.0041320 -0.0635318 0.9958680 0.0635318 0.9958680 0.0635318 0.0041320 -0.0635318
2547717 0.0039595 -0.0621697 0.9960405 0.0621697 0.9960405 0.0621697 0.0039595 -0.0621697
2603734 0.0037943 -0.0608362 0.9962057 0.0608362 0.9962057 0.0608362 0.0037943 -0.0608362
2660982 0.0036361 -0.0595305 0.9963639 0.0595305 0.9963639 0.0595305 0.0036361 -0.0595305
2719490 0.0034845 -0.0582522 0.9965155 0.0582522 0.9965155 0.0582522 0.0034845 -0.0582522
2779283 0.0033394 -0.0570007 0.9966606 0.0570007 0.9966606 0.0570007 0.0033394 -0.0570007
2840391 0.0032005 -0.0557754 0.9967995 0.0557754 0.9967995 0.0557754 0.0032005 -0.0557754
2902843 0.0030674 -0.0545759 0.9969326 0.0545759 0.9969326 0.0545759 0.0030674 -0.0545759
2966668 0.0029400 -0.0534016 0.9970600 0.0534016 0.9970600 0.0534016 0.0029400 -0.0534016
3031896 0.0028180 -0.0522519 0.9971820 0.0522519 0.9971820 0.0522519 0.0028180 -0.0522519
3098558 0.0027011 -0.0511264 0.9972989 0.0511264 0.9972989 0.0511264 0.0027011 -0.0511264
3166686 0.0025892 -0.0500246 0.9974108 0.0500246 0.9974108 0.0500246 0.0025892 -0.0500246
3236312 0.0024821 -0.0489460 0.9975179 0.0489460 0.9975179 0.0489460 0.0024821 -0.0489460
3307469 0.0023795 -0.0478901 0.9976205 0.0478901 0.9976205 0.0478901 0.0023795 -0.0478901
3380190 0.0022813 -0.0468564 0.9977187 0.0468564 0.9977187 0.0468564 0.0022813 -0.0468564
3454511 0.0021872 -0.0458445 0.9978128 0.0458445 0.9978128 0.0458445 0.0021872 -0.0458445
3530465 0.0020972 -0.0448539 0.9979028 0.0448539 0.9979028 0.0448539 0.0020972 -0.0448539
3608090 0.0020110 -0.0438842 0.9979890 0.0438842 0.9979890 0.0438842 0.0020110 -0.0438842
3687421 0.0019285 -0.0429349 0.9980715 0.0429349 0.9980715 0.0429349 0.0019285 -0.0429349
3768496 0.0018494 -0.0420057 0.9981506 0.0420057 0.9981506 0.0420057 0.0018494 -0.0420057
3851354 0.0017738 -0.0410960 0.9982262 0.0410960 0.9982262 0.0410960 0.0017738 -0.0410960
3936034 0.0017014 -0.0402055 0.9982986 0.0402055 0.9982986 0.0402055 0.0017014 -0.0402055
4022575 0.0016320 -0.0393338 0.9983680 0.0393338 0.9983680 0.0393338 0.0016320 -0.0393338
4111020 0.0015657 -0.0384804 0.9984343 0.0384804 0.9984343 0.0384804 0.0015657 -0.0384804
4201409 0.0015021 -0.0376450 0.9984979 0.0376450 0.9984979 0.0376450 0.0015021 -0.0376450
4293785 0.0014413 -0.0368273 0.9985587 0.0368273 0.9985587 0.0368273 0.0014413 -0.0368273
4388193 0.0013831 -0.0360268 0.9986169 0.0360268 0.9986169 0.0360268 0.0013831 -0.0360268
4484676 0.0013274 -0.0352431 0.9986726 0.0352431 0.9986726 0.0352431 0.0013274 -0.0352431
4583281 0.0012741 -0.0344759 0.9987259 0.0344759 0.9987259 0.0344759 0.0012741 -0.0344759
4684054 0.0012230 -0.0337249 0.9987770 0.0337249 0.9987770 0.0337249 0.0012230 -0.0337249
4787042 0.0011742 -0.0329897 0.9988258 0.0329897 0.9988258 0.0329897 0.0011742 -0.0329897
4892295 0.0011274 -0.0322700 0.9988726 0.0322700 0.9988726 0.0322700 0.0011274 -0.0322700
4999862 0.0010827 -0.0315654 0.9989173 0.0315654 0.9989173 0.0315654 0.0010827 -0.0315654
5109794 0.0010399 -0.0308757 0.9989601 0.0308757 0.9989601 0.0308757 0.0010399 -0.0308757
5222143 0.0009989 -0.0302004 0.9990011 0.0302004 0.9990011 0.0302004 0.0009989 -0.0302004
5336962 0.0009598 -0.0295393 0.9990402 0.0295393 0.9990402 0.0295393 0.0009598 -0.0295393
5454306 0.0009223 -0.0288921 0.9990777 0.0288921 0.9990777 0.0288921 0.0009223 -0.0288921
5574230 0.0008864 -0.0282585 0.9991136 0.0282585 0.9991136 0.0282585 0.0008864 -0.0282585
5696791 0.0008521 -0.0276382 0.9991479 0.0276382 0.9991479 0.0276382 0.0008521 -0.0276382
5822046 0.0008193 -0.0270308 0.9991807 0.0270308 0.9991807 0.0270308 0.0008193 -0.0270308
5950055 0.0007879 -0.0264362 0.9992121 0.0264362 0.9992121 0.0264362 0.0007879 -0.0264362
6080879 0.0007579 -0.0258540 0.9992421 0.0258540 0.9992421 0.0258540 0.0007579 -0.0258540
6214580 0.0007292 -0.0252840 0.9992708 0.0252840 0.9992708 0.0252840 0.0007292 -0.0252840
6351220 0.0007018 -0.0247260 0.9992982 0.0247260 0.9992982 0.0247260 0.0007018 -0.0247260
6490864 0.0006756 -0.0241795 0.9993244 0.0241795 0.9993244 0.0241795 0.0006756 -0.0241795
6633579 0.0006505 -0.0236445 0.9993495 0.0236445 0.9993495 0.0236445 0.0006505 -0.0236445
6779431 0.0006265 -0.0231206 0.9993735 0.0231206 0.9993735 0.0231206 0.0006265 -0.0231206
6928491 0.0006036 -0.0226076 0.9993964 0.0226076 0.9993964 0.0226076 0.0006036 -0.0226076
7080828 0.0005818 -0.0221052 0.9994182 0.0221052 0.9994182 0.0221052 0.0005818 -0.0221052
7236514 0.0005609 -0.0216133 0.9994391 0.0216133 0.9994391 0.0216133 0.0005609 -0.0216133
7395623 0.0005409 -0.0211316 0.9994591 0.0211316 0.9994591 0.0211316 0.0005409 -0.0211316
7558231 0.0005219 -0.0206599 0.9994781 0.0206599 0.9994781 0.0206599 0.0005219 -0.0206599
7724414 0.0005037 -0.0201979 0.9994963 0.0201979 0.9994963 0.0201979 0.0005037 -0.0201979
7894251 0.0004863 -0.0197455 0.9995137 0.0197455 0.9995137 0.0197455 0.0004863 -0.0197455
8067822 0.0004697 -0.0193024 0.9995303 0.0193024 0.9995303 0.0193024 0.0004697 -0.0193024
8245209 0.0004539 -0.0188684 0.9995461 0.0188684 0.9995461 0.0188684 0.0004539 -0.0188684
8426497 0.0004389 -0.0184433 0.9995611 0.0184433 0.9995611 0.0184433 0.0004389 -0.0184433
8611770 0.0004245 -0.0180270 0.9995755 0.0180270 0.9995755 0.0180270 0.0004245 -0.0180270
8801117 0.0004108 -0.0176192 0.9995892 0.0176192 0.9995892 0.0176192 0.0004108 -0.0176192
8994628 0.0003977 -0.0172197 0.9996023 0.0172197 0.9996023 0.0172197 0.0003977 -0.0172197
9192393 0.0003853 -0.0168284 0.9996147 0.0168284 0.9996147 0.0168284 0.0003853 -0.0168284
9394506 0.0003735 -0.0164450 0.9996265 0.0164450 0.9996265 0.0164450 0.0003735 -0.0164450
9601063 0.0003622 -0.0160694 0.9996378 0.0160694 0.9996378 0.0160694 0.0003622 -0.0160694
9812162 0.0003515 -0.0157015 0.9996485 0.0157015 0.9996485 0.0157015 0.0003515 -0.0157015
10027902 0.0003413 -0.0153410 0.9996587 0.0153410 0.9996587 0.0153410 0.0003413 -0.0153410
10248386 0.0003316 -0.0149877 0.9996684 0.0149877 0.9996684 0.0149877 0.0003316 -0.0149877
10473717 0.0003224 -0.0146416 0.9996776 0.0146416 0.9996776 0.0146416 0.0003224 -0.0146416
10704003 0.0003137 -0.0143024 0.9996863 0.0143024 0.9996863 0.0143024 0.0003137 -0.0143024
10939352 0.0003054 -0.0139700 0.9996946 0.0139700 0.9996946 0.0139700 0.0003054 -0.0139700
11179876 0.0002975 -0.0136442 0.9997025 0.0136442 0.9997025 0.0136442 0.0002975 -0.0136442
11425688 0.0002901 -0.0133249 0.9997099 0.0133249 0.9997099 0.0133249 0.0002901 -0.0133249
11676904 0.0002830 -0.0130120 0.9997170 0.0130120 0.9997170 0.0130120 0.0002830 -0.0130120
11933645 0.0002764 -0.0127052 0.9997236 0.0127052 0.9997236 0.0127052 0.0002764 -0.0127052
12196030 0.0002701 -0.0124045 0.9997299 0.0124045 0.9997299 0.0124045 0.0002701 -0.0124045
12464184 0.0002641 -0.0121096 0.9997359 0.0121096 0.9997359 0.0121096 0.0002641 -0.0121096
12738235 0.0002585 -0.0118206 0.9997415 0.0118206 0.9997415 0.0118206 0.0002585 -0.0118206
13018310 0.0002532 -0.0115371 0.9997468 0.0115371 0.9997468 0.0115371 0.0002532 -0.0115371
13304544 0.0002483 -0.0112592 0.9997517 0.0112592 0.9997517 0.0112592 0.0002483 -0.0112592
13597071 0.0002436 -0.0109866 0.9997564 0.0109866 0.9997564 0.0109866 0.0002436 -0.0109866
13896030 0.0002392 -0.0107193 0.9997608 0.0107193 0.9997608 0.0107193 0.0002392 -0.0107193
14201563 0.0002351 -0.0104570 0.9997649 0.0104570 0.9997649 0.0104570 0.0002351 -0.0104570
14513813 0.0002313 -0.0101998 0.9997687 0.0101998 0.9997687 0.0101998 0.0002313 -0.0101998
14832928 0.0002277 -0.0099474 0.9997723 0.0099474 0.9997723 0.0099474 0.0002277 -0.0099474
15159060 0.0002244 -0.0096998 0.9997756 0.0096998 0.9997756 0.0096998 0.0002244 -0.0096998
15492362 0.0002213 -0.0094568 0.9997787 0.0094568 0.9997787 0.0094568 0.0002213 -0.0094568
15832993 0.0002184 -0.0092183 0.9997816 0.0092183 0.9997816 0.0092183 0.0002184 -0.0092183
16181113 0.0002157 -0.0089843 0.9997843 0.0089843 0.9997843 0.0089843 0.0002157 -0.0089843
16536888 0.0002133 -0.0087545 0.9997867 0.0087545 0.9997867 0.0087545 0.0002133 -0.0087545
16900485 0.0002110 -0.0085289 0.9997890 0.0085289 0.9997890 0.0085289 0.0002110 -0.0085289
17272076 0.0002090 -0.0083074 0.9997910 0.0083074 0.9997910 0.0083074 0.0002090 -0.0083074
17651837 0.0002071 -0.0080899 0.9997929 0.0080899 0.9997929 0.0080899 0.0002071 -0.0080899
18039948 0.0002054 -0.0078763 0.9997946 0.0078763 0.9997946 0.0078763 0.0002054 -0.0078763
18436593 0.0002039 -0.0076664 0.9997961 0.0076664 0.9997961 0.0076664 0.0002039 -0.0076664
18841959 0.0002025 -0.0074602 0.9997975 0.0074602 0.9997975 0.0074602 0.0002025 -0.0074602
19256237 0.0002013 -0.0072576 0.9997987 0.0072576 0.9997987 0.0072576 0.0002013 -0.0072576
19679624 0.0002002 -0.0070585 0.9997998 0.0070585 0.9997998 0.0070585 0.0002002 -0.0070585
20112321 0.0001993 -0.0068627 0.9998007 0.0068627 0.9998007 0.0068627 0.0001993 -0.0068627
20554530 0.0001986 -0.0066703 0.9998014 0.0066703 0.9998014 0.0066703 0.0001986 -0.0066703
21006463 0.0001979 -0.0064810 0.9998021 0.0064810 0.9998021 0.0064810 0.0001979 -0.0064810
21468333 0.0001974 -0.0062949 0.9998026 0.0062949 0.9998026 0.0062949 0.0001974 -0.0062949
21940357 0.0001970 -0.0061118 0.9998030 0.0061118 0.9998030 0.0061118 0.0001970 -0.0061118
22422760 0.0001968 -0.0059316 0.9998032 0.0059316 0.9998032 0.0059316 0.0001968 -0.0059316
22915770 0.0001966 -0.0057542 0.9998034 0.0057542 0.9998034 0.0057542 0.0001966 -0.0057542
23419619 0.0001966 -0.0055797 0.9998034 0.0055797 0.9998034 0.0055797 0.0001966 -0.0055797
23934547 0.0001967 -0.0054078 0.9998033 0.0054078 0.9998033 0.0054078 0.0001967 -0.0054078
24460796 0.0001969 -0.0052385 0.9998031 0.0052385 0.9998031 0.0052385 0.0001969 -0.0052385
24998616 0.0001972 -0.0050717 0.9998028 0.0050717 0.9998028 0.0050717 0.0001972 -0.0050717
25548261 0.0001976 -0.0049073 0.9998024 0.0049073 0.9998024 0.0049073 0.0001976 -0.0049073
26109991 0.0001981 -0.0047453 0.9998019 0.0047453 0.9998019 0.0047453 0.0001981 -0.0047453
26684072 0.0001987 -0.0045855 0.9998013 0.0045855 0.9998013 0.0045855 0.0001987 -0.0045855
27270775 0.0001994 -0.0044280 0.9998006 0.0044280 0.9998006 0.0044280 0.0001994 -0.0044280
27870378 0.0002002 -0.0042725 0.9997998 0.0042725 0.9997998 0.0042725 0.0002002 -0.0042725
28483164 0.0002010 -0.0041191 0.9997990 0.0041191 0.9997990 0.0041191 0.0002010 -0.0041191
29109424 0.0002020 -0.0039677 0.9997980 0.0039677 0.9997980 0.0039677 0.0002020 -0.0039677
29749453 0.0002031 -0.0038181 0.9997969 0.0038181 0.9997969 0.0038181 0.0002031 -0.0038181
30403555 0.0002042 -0.0036704 0.9997958 0.0036704 0.9997958 0.0036704 0.0002042 -0.0036704
31072038 0.0002055 -0.0035244 0.9997945 0.0035244 0.9997945 0.0035244 0.0002055 -0.0035244
31755220 0.0002068 -0.0033801 0.9997932 0.0033801 0.9997932 0.0033801 0.0002068 -0.0033801
32453422 0.0002082 -0.0032374 0.9997918 0.0032374 0.9997918 0.0032374 0.0002082 -0.0032374
33166976 0.0002098 -0.0030961 0.9997902 0.0030961 0.9997902 0.0030961 0.0002098 -0.0030961
33896219 0.0002114 -0.0029564 0.9997886 0.0029564 0.9997886 0.0029564 0.0002114 -0.0029564
34641496 0.0002131 -0.0028180 0.9997869 0.0028180 0.9997869 0.0028180 0.0002131 -0.0028180
35403159 0.0002149 -0.0026809 0.9997851 0.0026809 0.9997851 0.0026809 0.0002149 -0.0026809
36181569 0.0002169 -0.0025451 0.9997831 0.0025451 0.9997831 0.0025451 0.0002169 -0.0025451
36977093 0.0002189 -0.0024104 0.9997811 0.0024104 0.9997811 0.0024104 0.0002189 -0.0024104
37790109 0.0002210 -0.0022768 0.9997790 0.0022768 0.9997790 0.0022768 0.0002210 -0.0022768
38621001 0.0002233 -0.0021443 0.9997767 0.0021443 0.9997767 0.0021443 0.0002233 -0.0021443
39470161 0.0002256 -0.0020127 0.9997744 0.0020127 0.9997744 0.0020127 0.0002256 -0.0020127
40337993 0.0002281 -0.0018819 0.9997719 0.0018819 0.9997719 0.0018819 0.0002281 -0.0018819
41224905 0.0002307 -0.0017520 0.9997693 0.0017520 0.9997693 0.0017520 0.0002307 -0.0017520
42131317 0.0002335 -0.0016229 0.9997665 0.0016229 0.9997665 0.0016229 0.0002335 -0.0016229
43057659 0.0002364 -0.0014944 0.9997636 0.0014944 0.9997636 0.0014944 0.0002364 -0.0014944
44004369 0.0002394 -0.0013665 0.9997606 0.0013665 0.9997606 0.0013665 0.0002394 -0.0013665
44971893 0.0002426 -0.0012391 0.9997574 0.0012391 0.9997574 0.0012391 0.0002426 -0.0012391
45960691 0.0002460 -0.0011122 0.9997540 0.0011122 0.9997540 0.0011122 0.0002460 -0.0011122
46971230 0.0002495 -0.0009856 0.9997505 0.0009856 0.9997505 0.0009856 0.0002495 -0.0009856
48003987 0.0002532 -0.0008594 0.9997468 0.0008594 0.9997468 0.0008594 0.0002532 -0.0008594
49059451 0.0002571 -0.0007333 0.9997429 0.0007333 0.9997429 0.0007333 0.0002571 -0.0007333
50138122 0.0002613 -0.0006075 0.9997387 0.0006075 0.9997387 0.0006075 0.0002613 -0.0006075
51240510 0.0002656 -0.0004816 0.9997344 0.0004816 0.9997344 0.0004816 0.0002656 -0.0004816
52367136 0.0002702 -0.0003558 0.9997298 0.0003558 0.9997298 0.0003558 0.0002702 -0.0003558
53518533 0.0002751 -0.0002298 0.9997249 0.0002298 0.9997249 0.0002298 0.0002751 -0.0002298
54695245 0.0002802 -0.0001037 0.9997198 0.0001037 0.9997198 0.0001037 0.0002802 -0.0001037
55897831 0.0002857 0.0000228 0.9997143 -0.0000228 0.9997143 -0.0000228 0.0002857 0.0000228
57126857 0.0002914 0.0001496 0.9997086 -0.0001496 0.9997086 -0.0001496 0.0002914 0.0001496
58382906 0.0002976 0.0002769 0.9997024 -0.0002769 0.9997024 -0.0002769 0.0002976 0.0002769
59666572 0.0003041 0.0004048 0.9996959 -0.0004048 0.9996959 -0.0004048 0.0003041 0.0004048
60978462 0.0003110 0.0005335 0.9996890 -0.0005335 0.9996890 -0.0005335 0.0003110 0.0005335
62319196 0.0003185 0.0006629 0.9996815 -0.0006629 0.9996815 -0.0006629 0.0003185 0.0006629
63689409 0.0003264 0.0007933 0.9996736 -0.0007933 0.9996736 -0.0007933 0.0003264 0.0007933
65089750 0.0003349 0.0009248 0.9996651 -0.0009248 0.9996651 -0.0009248 0.0003349 0.0009248
66520879 0.0003441 0.0010575 0.9996559 -0.0010575 0.9996559 -0.0010575 0.0003441 0.0010575
67983474 0.0003540 0.0011916 0.9996460 -0.0011916 0.9996460 -0.0011916 0.0003540 0.0011916
69478228 0.0003647 0.0013273 0.9996353 -0.0013273 0.9996353 -0.0013273 0.0003647 0.0013273
71005847 0.0003763 0.0014647 0.9996237 -0.0014647 0.9996237 -0.0014647 0.0003763 0.0014647
72567054 0.0003890 0.0016042 0.9996110 -0.0016042 0.9996110 -0.0016042 0.0003890 0.0016042
74162587 0.0004029 0.0017458 0.9995971 -0.0017458 0.9995971 -0.0017458 0.0004029 0.0017458
75793201 0.0004183 0.0018900 0.9995817 -0.0018900 0.9995817 -0.0018900 0.0004183 0.0018900
77459667 0.0004353 0.0020369 0.9995647 -0.0020369 0.9995647 -0.0020369 0.0004353 0.0020369
79162774 0.0004544 0.0021870 0.9995456 -0.0021870 0.9995456 -0.0021870 0.0004544 0.0021870
80903327 0.0004759 0.0023407 0.9995241 -0.0023407 0.9995241 -0.0023407 0.0004759 0.0023407
82682150 0.0005003 0.0024984 0.9994997 -0.0024984 0.9994997 -0.0024984 0.0005003 0.0024984
84500083 0.0005284 0.0026606 0.9994716 -0.0026606 0.9994716 -0.0026606 0.0005284 0.0026606
86357988 0.0005611 0.0028279 0.9994389 -0.0028279 0.9994389 -0.0028279 0.0005611 0.0028279
88256743 0.0005997 0.0030011 0.9994003 -0.0030011 0.9994003 -0.0030011 0.0005997 0.0030011
90197245 0.0006460 0.0031807 0.9993540 -0.0031807 0.9993540 -0.0031807 0.0006460 0.0031807
92180413 0.0007024 0.0033676 0.9992976 -0.0033676 0.9992976 -0.0033676 0.0007024 0.0033676
94207185 0.0007725 0.0035622 0.9992275 -0.0035622 0.9992275 -0.0035622 0.0007725 0.0035622
96278520 0.0008614 0.0037645 0.9991386 -0.0037645 0.9991386 -0.0037645 0.0008614 0.0037645
98395398 0.0009765 0.0039728 0.9990235 -0.0039728 0.9990235 -0.0039728 0.0009765 0.0039728
100558819 0.0011284 0.0041826 0.9988716 -0.0041826 0.9988716 -0.0041826 0.0011284 0.0041826
102769807 0.0013308 0.0043817 0.9986692 -0.0043817 0.9986692 -0.0043817 0.0013308 0.0043817
105029408 0.0015980 0.0045441 0.9984020 -0.0045441 0.9984020 -0.0045441 0.0015980 0.0045441
107338692 0.0019314 0.0046202 0.9980686 -0.0046202 0.9980686 -0.0046202 0.0019314 0.0046202
