!Murata Part Number: GRM31A7U2J100JW31
!These Parameters are Measured in Series Mode Connection
!Data Generated on Mar 30, 2021
!       o--ll--o
!Port1            Port2
!       o------o
!Operation Temp=25[degC], DC Bias Voltage=0[V]
!Freq. Start=100[MHz] Stop=3[GHz] 401[Steps]
# Hz S RI R 50
!Freq.(Hz) S11(Real) S11(Imag) S21(Real) S21(Imag) S12(Real) S12(Imag) S22(Real) S22(Imag)
100000000 0.7154363 -0.4504338 0.2845637 0.4504338 0.2845637 0.4504338 0.7154363 -0.4504338
107250000 0.6859374 -0.4633125 0.3140626 0.4633125 0.3140626 0.4633125 0.6859374 -0.4633125
114500000 0.6569112 -0.4738553 0.3430888 0.4738553 0.3430888 0.4738553 0.6569112 -0.4738553
121750000 0.6285279 -0.4822561 0.3714721 0.4822561 0.3714721 0.4822561 0.6285279 -0.4822561
129000000 0.6009212 -0.4887101 0.3990788 0.4887101 0.3990788 0.4887101 0.6009212 -0.4887101
136250000 0.5741924 -0.4934091 0.4258076 0.4934091 0.4258076 0.4934091 0.5741924 -0.4934091
143500000 0.5484145 -0.4965378 0.4515855 0.4965378 0.4515855 0.4965378 0.5484145 -0.4965378
150750000 0.5236360 -0.4982713 0.4763640 0.4982713 0.4763640 0.4982713 0.5236360 -0.4982713
158000000 0.4998851 -0.4987730 0.5001149 0.4987730 0.5001149 0.4987730 0.4998851 -0.4987730
165250000 0.4771729 -0.4981943 0.5228271 0.4981943 0.5228271 0.4981943 0.4771729 -0.4981943
172500000 0.4554969 -0.4966737 0.5445031 0.4966737 0.5445031 0.4966737 0.4554969 -0.4966737
179750000 0.4348439 -0.4943370 0.5651561 0.4943370 0.5651561 0.4943370 0.4348439 -0.4943370
187000000 0.4151920 -0.4912979 0.5848080 0.4912979 0.5848080 0.4912979 0.4151920 -0.4912979
194250000 0.3965131 -0.4876580 0.6034869 0.4876580 0.6034869 0.4876580 0.3965131 -0.4876580
201500000 0.3787742 -0.4835084 0.6212258 0.4835084 0.6212258 0.4835084 0.3787742 -0.4835084
208750000 0.3619394 -0.4789298 0.6380606 0.4789298 0.6380606 0.4789298 0.3619394 -0.4789298
216000000 0.3459706 -0.4739935 0.6540294 0.4739935 0.6540294 0.4739935 0.3459706 -0.4739935
223250000 0.3308285 -0.4687626 0.6691715 0.4687626 0.6691715 0.4687626 0.3308285 -0.4687626
230500000 0.3164735 -0.4632923 0.6835265 0.4632923 0.6835265 0.4632923 0.3164735 -0.4632923
237750000 0.3028662 -0.4576311 0.6971338 0.4576311 0.6971338 0.4576311 0.3028662 -0.4576311
245000000 0.2899679 -0.4518211 0.7100321 0.4518211 0.7100321 0.4518211 0.2899679 -0.4518211
252250000 0.2777407 -0.4458992 0.7222593 0.4458992 0.7222593 0.4458992 0.2777407 -0.4458992
259500000 0.2661480 -0.4398973 0.7338520 0.4398973 0.7338520 0.4398973 0.2661480 -0.4398973
266750000 0.2551549 -0.4338430 0.7448451 0.4338430 0.7448451 0.4338430 0.2551549 -0.4338430
274000000 0.2447275 -0.4277600 0.7552725 0.4277600 0.7552725 0.4277600 0.2447275 -0.4277600
281250000 0.2348337 -0.4216690 0.7651663 0.4216690 0.7651663 0.4216690 0.2348337 -0.4216690
288500000 0.2254432 -0.4155872 0.7745568 0.4155872 0.7745568 0.4155872 0.2254432 -0.4155872
295750000 0.2165269 -0.4095298 0.7834731 0.4095298 0.7834731 0.4095298 0.2165269 -0.4095298
303000000 0.2080576 -0.4035094 0.7919424 0.4035094 0.7919424 0.4035094 0.2080576 -0.4035094
310250000 0.2000094 -0.3975367 0.7999906 0.3975367 0.7999906 0.3975367 0.2000094 -0.3975367
317500000 0.1923580 -0.3916206 0.8076420 0.3916206 0.8076420 0.3916206 0.1923580 -0.3916206
324750000 0.1850806 -0.3857687 0.8149194 0.3857687 0.8149194 0.3857687 0.1850806 -0.3857687
332000000 0.1781556 -0.3799870 0.8218444 0.3799870 0.8218444 0.3799870 0.1781556 -0.3799870
339250000 0.1715628 -0.3742807 0.8284372 0.3742807 0.8284372 0.3742807 0.1715628 -0.3742807
346500000 0.1652833 -0.3686537 0.8347167 0.3686537 0.8347167 0.3686537 0.1652833 -0.3686537
353750000 0.1592992 -0.3631091 0.8407008 0.3631091 0.8407008 0.3631091 0.1592992 -0.3631091
361000000 0.1535938 -0.3576495 0.8464062 0.3576495 0.8464062 0.3576495 0.1535938 -0.3576495
368250000 0.1481515 -0.3522767 0.8518485 0.3522767 0.8518485 0.3522767 0.1481515 -0.3522767
375500000 0.1429575 -0.3469917 0.8570425 0.3469917 0.8570425 0.3469917 0.1429575 -0.3469917
382750000 0.1379981 -0.3417955 0.8620019 0.3417955 0.8620019 0.3417955 0.1379981 -0.3417955
390000000 0.1332604 -0.3366883 0.8667396 0.3366883 0.8667396 0.3366883 0.1332604 -0.3366883
397250000 0.1287322 -0.3316701 0.8712678 0.3316701 0.8712678 0.3316701 0.1287322 -0.3316701
404500000 0.1244021 -0.3267407 0.8755979 0.3267407 0.8755979 0.3267407 0.1244021 -0.3267407
411750000 0.1202595 -0.3218995 0.8797405 0.3218995 0.8797405 0.3218995 0.1202595 -0.3218995
419000000 0.1162944 -0.3171457 0.8837056 0.3171457 0.8837056 0.3171457 0.1162944 -0.3171457
426250000 0.1124974 -0.3124784 0.8875026 0.3124784 0.8875026 0.3124784 0.1124974 -0.3124784
433500000 0.1088596 -0.3078964 0.8911404 0.3078964 0.8911404 0.3078964 0.1088596 -0.3078964
440750000 0.1053728 -0.3033987 0.8946272 0.3033987 0.8946272 0.3033987 0.1053728 -0.3033987
448000000 0.1020292 -0.2989838 0.8979708 0.2989838 0.8979708 0.2989838 0.1020292 -0.2989838
455250000 0.0988215 -0.2946503 0.9011785 0.2946503 0.9011785 0.2946503 0.0988215 -0.2946503
462500000 0.0957427 -0.2903969 0.9042573 0.2903969 0.9042573 0.2903969 0.0957427 -0.2903969
469750000 0.0927864 -0.2862220 0.9072136 0.2862220 0.9072136 0.2862220 0.0927864 -0.2862220
477000000 0.0899466 -0.2821240 0.9100534 0.2821240 0.9100534 0.2821240 0.0899466 -0.2821240
484250000 0.0872174 -0.2781014 0.9127826 0.2781014 0.9127826 0.2781014 0.0872174 -0.2781014
491500000 0.0845936 -0.2741526 0.9154064 0.2741526 0.9154064 0.2741526 0.0845936 -0.2741526
498750000 0.0820699 -0.2702760 0.9179301 0.2702760 0.9179301 0.2702760 0.0820699 -0.2702760
506000000 0.0796416 -0.2664700 0.9203584 0.2664700 0.9203584 0.2664700 0.0796416 -0.2664700
513250000 0.0773041 -0.2627330 0.9226959 0.2627330 0.9226959 0.2627330 0.0773041 -0.2627330
520500000 0.0750533 -0.2590635 0.9249467 0.2590635 0.9249467 0.2590635 0.0750533 -0.2590635
527750000 0.0728850 -0.2554598 0.9271150 0.2554598 0.9271150 0.2554598 0.0728850 -0.2554598
535000000 0.0707955 -0.2519205 0.9292045 0.2519205 0.9292045 0.2519205 0.0707955 -0.2519205
542250000 0.0687811 -0.2484439 0.9312189 0.2484439 0.9312189 0.2484439 0.0687811 -0.2484439
549500000 0.0668385 -0.2450286 0.9331615 0.2450286 0.9331615 0.2450286 0.0668385 -0.2450286
556750000 0.0649644 -0.2416732 0.9350356 0.2416732 0.9350356 0.2416732 0.0649644 -0.2416732
564000000 0.0631558 -0.2383761 0.9368442 0.2383761 0.9368442 0.2383761 0.0631558 -0.2383761
571250000 0.0614098 -0.2351359 0.9385902 0.2351359 0.9385902 0.2351359 0.0614098 -0.2351359
578500000 0.0597236 -0.2319513 0.9402764 0.2319513 0.9402764 0.2319513 0.0597236 -0.2319513
585750000 0.0580948 -0.2288209 0.9419052 0.2288209 0.9419052 0.2288209 0.0580948 -0.2288209
593000000 0.0565208 -0.2257433 0.9434792 0.2257433 0.9434792 0.2257433 0.0565208 -0.2257433
600250000 0.0549994 -0.2227172 0.9450006 0.2227172 0.9450006 0.2227172 0.0549994 -0.2227172
607500000 0.0535282 -0.2197414 0.9464718 0.2197414 0.9464718 0.2197414 0.0535282 -0.2197414
614750000 0.0521053 -0.2168146 0.9478947 0.2168146 0.9478947 0.2168146 0.0521053 -0.2168146
622000000 0.0507286 -0.2139356 0.9492714 0.2139356 0.9492714 0.2139356 0.0507286 -0.2139356
629250000 0.0493963 -0.2111033 0.9506037 0.2111033 0.9506037 0.2111033 0.0493963 -0.2111033
636500000 0.0481064 -0.2083164 0.9518936 0.2083164 0.9518936 0.2083164 0.0481064 -0.2083164
643750000 0.0468575 -0.2055739 0.9531425 0.2055739 0.9531425 0.2055739 0.0468575 -0.2055739
651000000 0.0456477 -0.2028747 0.9543523 0.2028747 0.9543523 0.2028747 0.0456477 -0.2028747
658250000 0.0444757 -0.2002176 0.9555243 0.2002176 0.9555243 0.2002176 0.0444757 -0.2002176
665500000 0.0433398 -0.1976017 0.9566602 0.1976017 0.9566602 0.1976017 0.0433398 -0.1976017
672750000 0.0422387 -0.1950260 0.9577613 0.1950260 0.9577613 0.1950260 0.0422387 -0.1950260
680000000 0.0411711 -0.1924894 0.9588289 0.1924894 0.9588289 0.1924894 0.0411711 -0.1924894
687250000 0.0401357 -0.1899911 0.9598643 0.1899911 0.9598643 0.1899911 0.0401357 -0.1899911
694500000 0.0391313 -0.1875300 0.9608687 0.1875300 0.9608687 0.1875300 0.0391313 -0.1875300
701750000 0.0381567 -0.1851054 0.9618433 0.1851054 0.9618433 0.1851054 0.0381567 -0.1851054
709000000 0.0372108 -0.1827163 0.9627892 0.1827163 0.9627892 0.1827163 0.0372108 -0.1827163
716250000 0.0362926 -0.1803618 0.9637074 0.1803618 0.9637074 0.1803618 0.0362926 -0.1803618
723500000 0.0354011 -0.1780412 0.9645989 0.1780412 0.9645989 0.1780412 0.0354011 -0.1780412
730750000 0.0345353 -0.1757536 0.9654647 0.1757536 0.9654647 0.1757536 0.0345353 -0.1757536
738000000 0.0336942 -0.1734983 0.9663058 0.1734983 0.9663058 0.1734983 0.0336942 -0.1734983
745250000 0.0328771 -0.1712745 0.9671229 0.1712745 0.9671229 0.1712745 0.0328771 -0.1712745
752500000 0.0320830 -0.1690813 0.9679170 0.1690813 0.9679170 0.1690813 0.0320830 -0.1690813
759750000 0.0313112 -0.1669183 0.9686888 0.1669183 0.9686888 0.1669183 0.0313112 -0.1669183
767000000 0.0305609 -0.1647845 0.9694391 0.1647845 0.9694391 0.1647845 0.0305609 -0.1647845
774250000 0.0298313 -0.1626794 0.9701687 0.1626794 0.9701687 0.1626794 0.0298313 -0.1626794
781500000 0.0291219 -0.1606023 0.9708781 0.1606023 0.9708781 0.1606023 0.0291219 -0.1606023
788750000 0.0284317 -0.1585525 0.9715683 0.1585525 0.9715683 0.1585525 0.0284317 -0.1585525
796000000 0.0277604 -0.1565294 0.9722396 0.1565294 0.9722396 0.1565294 0.0277604 -0.1565294
803250000 0.0271071 -0.1545324 0.9728929 0.1545324 0.9728929 0.1545324 0.0271071 -0.1545324
810500000 0.0264713 -0.1525609 0.9735287 0.1525609 0.9735287 0.1525609 0.0264713 -0.1525609
817750000 0.0258525 -0.1506144 0.9741475 0.1506144 0.9741475 0.1506144 0.0258525 -0.1506144
825000000 0.0252501 -0.1486922 0.9747499 0.1486922 0.9747499 0.1486922 0.0252501 -0.1486922
832250000 0.0246636 -0.1467939 0.9753364 0.1467939 0.9753364 0.1467939 0.0246636 -0.1467939
839500000 0.0240925 -0.1449188 0.9759075 0.1449188 0.9759075 0.1449188 0.0240925 -0.1449188
846750000 0.0235362 -0.1430666 0.9764638 0.1430666 0.9764638 0.1430666 0.0235362 -0.1430666
854000000 0.0229943 -0.1412366 0.9770057 0.1412366 0.9770057 0.1412366 0.0229943 -0.1412366
861250000 0.0224665 -0.1394284 0.9775335 0.1394284 0.9775335 0.1394284 0.0224665 -0.1394284
868500000 0.0219522 -0.1376415 0.9780478 0.1376415 0.9780478 0.1376415 0.0219522 -0.1376415
875750000 0.0214510 -0.1358755 0.9785490 0.1358755 0.9785490 0.1358755 0.0214510 -0.1358755
883000000 0.0209625 -0.1341298 0.9790375 0.1341298 0.9790375 0.1341298 0.0209625 -0.1341298
890250000 0.0204865 -0.1324041 0.9795135 0.1324041 0.9795135 0.1324041 0.0204865 -0.1324041
897500000 0.0200223 -0.1306980 0.9799777 0.1306980 0.9799777 0.1306980 0.0200223 -0.1306980
904750000 0.0195699 -0.1290109 0.9804301 0.1290109 0.9804301 0.1290109 0.0195699 -0.1290109
912000000 0.0191287 -0.1273426 0.9808713 0.1273426 0.9808713 0.1273426 0.0191287 -0.1273426
919250000 0.0186985 -0.1256926 0.9813015 0.1256926 0.9813015 0.1256926 0.0186985 -0.1256926
926500000 0.0182789 -0.1240605 0.9817211 0.1240605 0.9817211 0.1240605 0.0182789 -0.1240605
933750000 0.0178697 -0.1224459 0.9821303 0.1224459 0.9821303 0.1224459 0.0178697 -0.1224459
941000000 0.0174706 -0.1208486 0.9825294 0.1208486 0.9825294 0.1208486 0.0174706 -0.1208486
948250000 0.0170812 -0.1192681 0.9829188 0.1192681 0.9829188 0.1192681 0.0170812 -0.1192681
955500000 0.0167013 -0.1177040 0.9832987 0.1177040 0.9832987 0.1177040 0.0167013 -0.1177040
962750000 0.0163306 -0.1161561 0.9836694 0.1161561 0.9836694 0.1161561 0.0163306 -0.1161561
970000000 0.0159689 -0.1146241 0.9840311 0.1146241 0.9840311 0.1146241 0.0159689 -0.1146241
977250000 0.0156160 -0.1131075 0.9843840 0.1131075 0.9843840 0.1131075 0.0156160 -0.1131075
984500000 0.0152716 -0.1116061 0.9847284 0.1116061 0.9847284 0.1116061 0.0152716 -0.1116061
991750000 0.0149354 -0.1101195 0.9850646 0.1101195 0.9850646 0.1101195 0.0149354 -0.1101195
999000000 0.0146073 -0.1086476 0.9853927 0.1086476 0.9853927 0.1086476 0.0146073 -0.1086476
1006250000 0.0142870 -0.1071899 0.9857130 0.1071899 0.9857130 0.1071899 0.0142870 -0.1071899
1013500000 0.0139744 -0.1057462 0.9860256 0.1057462 0.9860256 0.1057462 0.0139744 -0.1057462
1020750000 0.0136692 -0.1043163 0.9863308 0.1043163 0.9863308 0.1043163 0.0136692 -0.1043163
1028000000 0.0133712 -0.1028998 0.9866288 0.1028998 0.9866288 0.1028998 0.0133712 -0.1028998
1035250000 0.0130803 -0.1014965 0.9869197 0.1014965 0.9869197 0.1014965 0.0130803 -0.1014965
1042500000 0.0127963 -0.1001061 0.9872037 0.1001061 0.9872037 0.1001061 0.0127963 -0.1001061
1049750000 0.0125190 -0.0987284 0.9874810 0.0987284 0.9874810 0.0987284 0.0125190 -0.0987284
1057000000 0.0122482 -0.0973632 0.9877518 0.0973632 0.9877518 0.0973632 0.0122482 -0.0973632
1064250000 0.0119838 -0.0960101 0.9880162 0.0960101 0.9880162 0.0960101 0.0119838 -0.0960101
1071500000 0.0117256 -0.0946690 0.9882744 0.0946690 0.9882744 0.0946690 0.0117256 -0.0946690
1078750000 0.0114735 -0.0933397 0.9885265 0.0933397 0.9885265 0.0933397 0.0114735 -0.0933397
1086000000 0.0112274 -0.0920218 0.9887726 0.0920218 0.9887726 0.0920218 0.0112274 -0.0920218
1093250000 0.0109870 -0.0907152 0.9890130 0.0907152 0.9890130 0.0907152 0.0109870 -0.0907152
1100500000 0.0107522 -0.0894198 0.9892478 0.0894198 0.9892478 0.0894198 0.0107522 -0.0894198
1107750000 0.0105230 -0.0881351 0.9894770 0.0881351 0.9894770 0.0881351 0.0105230 -0.0881351
1115000000 0.0102991 -0.0868612 0.9897009 0.0868612 0.9897009 0.0868612 0.0102991 -0.0868612
1122250000 0.0100805 -0.0855977 0.9899195 0.0855977 0.9899195 0.0855977 0.0100805 -0.0855977
1129500000 0.0098671 -0.0843445 0.9901329 0.0843445 0.9901329 0.0843445 0.0098671 -0.0843445
1136750000 0.0096586 -0.0831014 0.9903414 0.0831014 0.9903414 0.0831014 0.0096586 -0.0831014
1144000000 0.0094551 -0.0818681 0.9905449 0.0818681 0.9905449 0.0818681 0.0094551 -0.0818681
1151250000 0.0092564 -0.0806446 0.9907436 0.0806446 0.9907436 0.0806446 0.0092564 -0.0806446
1158500000 0.0090623 -0.0794306 0.9909377 0.0794306 0.9909377 0.0794306 0.0090623 -0.0794306
1165750000 0.0088728 -0.0782260 0.9911272 0.0782260 0.9911272 0.0782260 0.0088728 -0.0782260
1173000000 0.0086878 -0.0770306 0.9913122 0.0770306 0.9913122 0.0770306 0.0086878 -0.0770306
1180250000 0.0085072 -0.0758442 0.9914928 0.0758442 0.9914928 0.0758442 0.0085072 -0.0758442
1187500000 0.0083309 -0.0746666 0.9916691 0.0746666 0.9916691 0.0746666 0.0083309 -0.0746666
1194750000 0.0081588 -0.0734978 0.9918412 0.0734978 0.9918412 0.0734978 0.0081588 -0.0734978
1202000000 0.0079908 -0.0723375 0.9920092 0.0723375 0.9920092 0.0723375 0.0079908 -0.0723375
1209250000 0.0078269 -0.0711856 0.9921731 0.0711856 0.9921731 0.0711856 0.0078269 -0.0711856
1216500000 0.0076668 -0.0700420 0.9923332 0.0700420 0.9923332 0.0700420 0.0076668 -0.0700420
1223750000 0.0075107 -0.0689064 0.9924893 0.0689064 0.9924893 0.0689064 0.0075107 -0.0689064
1231000000 0.0073583 -0.0677788 0.9926417 0.0677788 0.9926417 0.0677788 0.0073583 -0.0677788
1238250000 0.0072096 -0.0666591 0.9927904 0.0666591 0.9927904 0.0666591 0.0072096 -0.0666591
1245500000 0.0070645 -0.0655470 0.9929355 0.0655470 0.9929355 0.0655470 0.0070645 -0.0655470
1252750000 0.0069230 -0.0644424 0.9930770 0.0644424 0.9930770 0.0644424 0.0069230 -0.0644424
1260000000 0.0067850 -0.0633453 0.9932150 0.0633453 0.9932150 0.0633453 0.0067850 -0.0633453
1267250000 0.0066504 -0.0622554 0.9933496 0.0622554 0.9933496 0.0622554 0.0066504 -0.0622554
1274500000 0.0065192 -0.0611727 0.9934808 0.0611727 0.9934808 0.0611727 0.0065192 -0.0611727
1281750000 0.0063912 -0.0600971 0.9936088 0.0600971 0.9936088 0.0600971 0.0063912 -0.0600971
1289000000 0.0062665 -0.0590283 0.9937335 0.0590283 0.9937335 0.0590283 0.0062665 -0.0590283
1296250000 0.0061450 -0.0579664 0.9938550 0.0579664 0.9938550 0.0579664 0.0061450 -0.0579664
1303500000 0.0060265 -0.0569111 0.9939735 0.0569111 0.9939735 0.0569111 0.0060265 -0.0569111
1310750000 0.0059111 -0.0558624 0.9940889 0.0558624 0.9940889 0.0558624 0.0059111 -0.0558624
1318000000 0.0057987 -0.0548201 0.9942013 0.0548201 0.9942013 0.0548201 0.0057987 -0.0548201
1325250000 0.0056892 -0.0537842 0.9943108 0.0537842 0.9943108 0.0537842 0.0056892 -0.0537842
1332500000 0.0055826 -0.0527545 0.9944174 0.0527545 0.9944174 0.0527545 0.0055826 -0.0527545
1339750000 0.0054788 -0.0517309 0.9945212 0.0517309 0.9945212 0.0517309 0.0054788 -0.0517309
1347000000 0.0053778 -0.0507134 0.9946222 0.0507134 0.9946222 0.0507134 0.0053778 -0.0507134
1354250000 0.0052795 -0.0497018 0.9947205 0.0497018 0.9947205 0.0497018 0.0052795 -0.0497018
1361500000 0.0051840 -0.0486960 0.9948160 0.0486960 0.9948160 0.0486960 0.0051840 -0.0486960
1368750000 0.0050910 -0.0476959 0.9949090 0.0476959 0.9949090 0.0476959 0.0050910 -0.0476959
1376000000 0.0050007 -0.0467015 0.9949993 0.0467015 0.9949993 0.0467015 0.0050007 -0.0467015
1383250000 0.0049129 -0.0457125 0.9950871 0.0457125 0.9950871 0.0457125 0.0049129 -0.0457125
1390500000 0.0048276 -0.0447291 0.9951724 0.0447291 0.9951724 0.0447291 0.0048276 -0.0447291
1397750000 0.0047448 -0.0437510 0.9952552 0.0437510 0.9952552 0.0437510 0.0047448 -0.0437510
1405000000 0.0046644 -0.0427781 0.9953356 0.0427781 0.9953356 0.0427781 0.0046644 -0.0427781
1412250000 0.0045864 -0.0418104 0.9954136 0.0418104 0.9954136 0.0418104 0.0045864 -0.0418104
1419500000 0.0045107 -0.0408478 0.9954893 0.0408478 0.9954893 0.0408478 0.0045107 -0.0408478
1426750000 0.0044374 -0.0398902 0.9955626 0.0398902 0.9955626 0.0398902 0.0044374 -0.0398902
1434000000 0.0043663 -0.0389375 0.9956337 0.0389375 0.9956337 0.0389375 0.0043663 -0.0389375
1441250000 0.0042974 -0.0379897 0.9957026 0.0379897 0.9957026 0.0379897 0.0042974 -0.0379897
1448500000 0.0042308 -0.0370466 0.9957692 0.0370466 0.9957692 0.0370466 0.0042308 -0.0370466
1455750000 0.0041664 -0.0361082 0.9958336 0.0361082 0.9958336 0.0361082 0.0041664 -0.0361082
1463000000 0.0041040 -0.0351744 0.9958960 0.0351744 0.9958960 0.0351744 0.0041040 -0.0351744
1470250000 0.0040438 -0.0342451 0.9959562 0.0342451 0.9959562 0.0342451 0.0040438 -0.0342451
1477500000 0.0039857 -0.0333203 0.9960143 0.0333203 0.9960143 0.0333203 0.0039857 -0.0333203
1484750000 0.0039296 -0.0323999 0.9960704 0.0323999 0.9960704 0.0323999 0.0039296 -0.0323999
1492000000 0.0038755 -0.0314838 0.9961245 0.0314838 0.9961245 0.0314838 0.0038755 -0.0314838
1499250000 0.0038234 -0.0305719 0.9961766 0.0305719 0.9961766 0.0305719 0.0038234 -0.0305719
1506500000 0.0037733 -0.0296642 0.9962267 0.0296642 0.9962267 0.0296642 0.0037733 -0.0296642
1513750000 0.0037251 -0.0287606 0.9962749 0.0287606 0.9962749 0.0287606 0.0037251 -0.0287606
1521000000 0.0036788 -0.0278610 0.9963212 0.0278610 0.9963212 0.0278610 0.0036788 -0.0278610
1528250000 0.0036344 -0.0269654 0.9963656 0.0269654 0.9963656 0.0269654 0.0036344 -0.0269654
1535500000 0.0035918 -0.0260736 0.9964082 0.0260736 0.9964082 0.0260736 0.0035918 -0.0260736
1542750000 0.0035511 -0.0251858 0.9964489 0.0251858 0.9964489 0.0251858 0.0035511 -0.0251858
1550000000 0.0035122 -0.0243017 0.9964878 0.0243017 0.9964878 0.0243017 0.0035122 -0.0243017
1557250000 0.0034751 -0.0234213 0.9965249 0.0234213 0.9965249 0.0234213 0.0034751 -0.0234213
1564500000 0.0034397 -0.0225445 0.9965603 0.0225445 0.9965603 0.0225445 0.0034397 -0.0225445
1571750000 0.0034061 -0.0216714 0.9965939 0.0216714 0.9965939 0.0216714 0.0034061 -0.0216714
1579000000 0.0033741 -0.0208018 0.9966259 0.0208018 0.9966259 0.0208018 0.0033741 -0.0208018
1586250000 0.0033439 -0.0199356 0.9966561 0.0199356 0.9966561 0.0199356 0.0033439 -0.0199356
1593500000 0.0033154 -0.0190729 0.9966846 0.0190729 0.9966846 0.0190729 0.0033154 -0.0190729
1600750000 0.0032885 -0.0182136 0.9967115 0.0182136 0.9967115 0.0182136 0.0032885 -0.0182136
1608000000 0.0032632 -0.0173575 0.9967368 0.0173575 0.9967368 0.0173575 0.0032632 -0.0173575
1615250000 0.0032396 -0.0165047 0.9967604 0.0165047 0.9967604 0.0165047 0.0032396 -0.0165047
1622500000 0.0032176 -0.0156552 0.9967824 0.0156552 0.9967824 0.0156552 0.0032176 -0.0156552
1629750000 0.0031971 -0.0148087 0.9968029 0.0148087 0.9968029 0.0148087 0.0031971 -0.0148087
