!Murata Part Number: GRM31A5C3A271JWA1
!These Parameters are Measured in Series Mode Connection
!Data Generated on Mar 30, 2021
!       o--ll--o
!Port1            Port2
!       o------o
!Operation Temp=25[degC], DC Bias Voltage=0[V]
!Freq. Start=100[MHz] Stop=3[GHz] 401[Steps]
# Hz S RI R 50
!Freq.(Hz) S11(Real) S11(Imag) S21(Real) S21(Imag) S12(Real) S12(Imag) S22(Real) S22(Imag)
100000000 0.0033705 -0.0535070 0.9966295 0.0535070 0.9966295 0.0535070 0.0033705 -0.0535070
107250000 0.0029475 -0.0492031 0.9970525 0.0492031 0.9970525 0.0492031 0.0029475 -0.0492031
114500000 0.0026056 -0.0453959 0.9973944 0.0453959 0.9973944 0.0453959 0.0026056 -0.0453959
121750000 0.0023258 -0.0419974 0.9976742 0.0419974 0.9976742 0.0419974 0.0023258 -0.0419974
129000000 0.0020945 -0.0389391 0.9979055 0.0389391 0.9979055 0.0389391 0.0020945 -0.0389391
136250000 0.0019016 -0.0361671 0.9980984 0.0361671 0.9980984 0.0361671 0.0019016 -0.0361671
143500000 0.0017395 -0.0336382 0.9982605 0.0336382 0.9982605 0.0336382 0.0017395 -0.0336382
150750000 0.0016024 -0.0313174 0.9983976 0.0313174 0.9983976 0.0313174 0.0016024 -0.0313174
158000000 0.0014857 -0.0291761 0.9985143 0.0291761 0.9985143 0.0291761 0.0014857 -0.0291761
165250000 0.0013861 -0.0271907 0.9986139 0.0271907 0.9986139 0.0271907 0.0013861 -0.0271907
172500000 0.0013007 -0.0253415 0.9986993 0.0253415 0.9986993 0.0253415 0.0013007 -0.0253415
179750000 0.0012273 -0.0236122 0.9987727 0.0236122 0.9987727 0.0236122 0.0012273 -0.0236122
187000000 0.0011641 -0.0219886 0.9988359 0.0219886 0.9988359 0.0219886 0.0011641 -0.0219886
194250000 0.0011097 -0.0204590 0.9988903 0.0204590 0.9988903 0.0204590 0.0011097 -0.0204590
201500000 0.0010628 -0.0190131 0.9989372 0.0190131 0.9989372 0.0190131 0.0010628 -0.0190131
208750000 0.0010226 -0.0176423 0.9989774 0.0176423 0.9989774 0.0176423 0.0010226 -0.0176423
216000000 0.0009880 -0.0163388 0.9990120 0.0163388 0.9990120 0.0163388 0.0009880 -0.0163388
223250000 0.0009586 -0.0150962 0.9990414 0.0150962 0.9990414 0.0150962 0.0009586 -0.0150962
230500000 0.0009336 -0.0139085 0.9990664 0.0139085 0.9990664 0.0139085 0.0009336 -0.0139085
237750000 0.0009127 -0.0127708 0.9990873 0.0127708 0.9990873 0.0127708 0.0009127 -0.0127708
245000000 0.0008954 -0.0116786 0.9991046 0.0116786 0.9991046 0.0116786 0.0008954 -0.0116786
252250000 0.0008813 -0.0106278 0.9991187 0.0106278 0.9991187 0.0106278 0.0008813 -0.0106278
259500000 0.0008701 -0.0096151 0.9991299 0.0096151 0.9991299 0.0096151 0.0008701 -0.0096151
266750000 0.0008617 -0.0086371 0.9991383 0.0086371 0.9991383 0.0086371 0.0008617 -0.0086371
274000000 0.0008557 -0.0076911 0.9991443 0.0076911 0.9991443 0.0076911 0.0008557 -0.0076911
281250000 0.0008519 -0.0067747 0.9991481 0.0067747 0.9991481 0.0067747 0.0008519 -0.0067747
288500000 0.0008503 -0.0058854 0.9991497 0.0058854 0.9991497 0.0058854 0.0008503 -0.0058854
295750000 0.0008505 -0.0050213 0.9991495 0.0050213 0.9991495 0.0050213 0.0008505 -0.0050213
303000000 0.0008526 -0.0041805 0.9991474 0.0041805 0.9991474 0.0041805 0.0008526 -0.0041805
310250000 0.0008564 -0.0033613 0.9991436 0.0033613 0.9991436 0.0033613 0.0008564 -0.0033613
317500000 0.0008618 -0.0025622 0.9991382 0.0025622 0.9991382 0.0025622 0.0008618 -0.0025622
324750000 0.0008687 -0.0017817 0.9991313 0.0017817 0.9991313 0.0017817 0.0008687 -0.0017817
332000000 0.0008771 -0.0010186 0.9991229 0.0010186 0.9991229 0.0010186 0.0008771 -0.0010186
339250000 0.0008868 -0.0002718 0.9991132 0.0002718 0.9991132 0.0002718 0.0008868 -0.0002718
346500000 0.0008979 0.0004599 0.9991021 -0.0004599 0.9991021 -0.0004599 0.0008979 0.0004599
353750000 0.0009102 0.0011775 0.9990898 -0.0011775 0.9990898 -0.0011775 0.0009102 0.0011775
361000000 0.0009238 0.0018818 0.9990762 -0.0018818 0.9990762 -0.0018818 0.0009238 0.0018818
368250000 0.0009385 0.0025738 0.9990615 -0.0025738 0.9990615 -0.0025738 0.0009385 0.0025738
375500000 0.0009544 0.0032541 0.9990456 -0.0032541 0.9990456 -0.0032541 0.0009544 0.0032541
382750000 0.0009715 0.0039235 0.9990285 -0.0039235 0.9990285 -0.0039235 0.0009715 0.0039235
390000000 0.0009896 0.0045828 0.9990104 -0.0045828 0.9990104 -0.0045828 0.0009896 0.0045828
397250000 0.0010089 0.0052325 0.9989911 -0.0052325 0.9989911 -0.0052325 0.0010089 0.0052325
404500000 0.0010292 0.0058731 0.9989708 -0.0058731 0.9989708 -0.0058731 0.0010292 0.0058731
411750000 0.0010506 0.0065054 0.9989494 -0.0065054 0.9989494 -0.0065054 0.0010506 0.0065054
419000000 0.0010730 0.0071297 0.9989270 -0.0071297 0.9989270 -0.0071297 0.0010730 0.0071297
426250000 0.0010965 0.0077466 0.9989035 -0.0077466 0.9989035 -0.0077466 0.0010965 0.0077466
433500000 0.0011211 0.0083565 0.9988789 -0.0083565 0.9988789 -0.0083565 0.0011211 0.0083565
440750000 0.0011468 0.0089599 0.9988532 -0.0089599 0.9988532 -0.0089599 0.0011468 0.0089599
448000000 0.0011735 0.0095571 0.9988265 -0.0095571 0.9988265 -0.0095571 0.0011735 0.0095571
455250000 0.0012012 0.0101485 0.9987988 -0.0101485 0.9987988 -0.0101485 0.0012012 0.0101485
462500000 0.0012301 0.0107346 0.9987699 -0.0107346 0.9987699 -0.0107346 0.0012301 0.0107346
469750000 0.0012601 0.0113155 0.9987399 -0.0113155 0.9987399 -0.0113155 0.0012601 0.0113155
477000000 0.0012912 0.0118918 0.9987088 -0.0118918 0.9987088 -0.0118918 0.0012912 0.0118918
484250000 0.0013235 0.0124637 0.9986765 -0.0124637 0.9986765 -0.0124637 0.0013235 0.0124637
491500000 0.0013569 0.0130314 0.9986431 -0.0130314 0.9986431 -0.0130314 0.0013569 0.0130314
498750000 0.0013915 0.0135953 0.9986085 -0.0135953 0.9986085 -0.0135953 0.0013915 0.0135953
506000000 0.0014274 0.0141558 0.9985726 -0.0141558 0.9985726 -0.0141558 0.0014274 0.0141558
513250000 0.0014645 0.0147129 0.9985355 -0.0147129 0.9985355 -0.0147129 0.0014645 0.0147129
520500000 0.0015030 0.0152670 0.9984970 -0.0152670 0.9984970 -0.0152670 0.0015030 0.0152670
527750000 0.0015428 0.0158185 0.9984572 -0.0158185 0.9984572 -0.0158185 0.0015428 0.0158185
535000000 0.0015841 0.0163674 0.9984159 -0.0163674 0.9984159 -0.0163674 0.0015841 0.0163674
542250000 0.0016268 0.0169141 0.9983732 -0.0169141 0.9983732 -0.0169141 0.0016268 0.0169141
549500000 0.0016710 0.0174587 0.9983290 -0.0174587 0.9983290 -0.0174587 0.0016710 0.0174587
556750000 0.0017169 0.0180016 0.9982831 -0.0180016 0.9982831 -0.0180016 0.0017169 0.0180016
564000000 0.0017644 0.0185430 0.9982356 -0.0185430 0.9982356 -0.0185430 0.0017644 0.0185430
571250000 0.0018137 0.0190831 0.9981863 -0.0190831 0.9981863 -0.0190831 0.0018137 0.0190831
578500000 0.0018649 0.0196222 0.9981351 -0.0196222 0.9981351 -0.0196222 0.0018649 0.0196222
585750000 0.0019181 0.0201604 0.9980819 -0.0201604 0.9980819 -0.0201604 0.0019181 0.0201604
593000000 0.0019733 0.0206980 0.9980267 -0.0206980 0.9980267 -0.0206980 0.0019733 0.0206980
600250000 0.0020308 0.0212353 0.9979692 -0.0212353 0.9979692 -0.0212353 0.0020308 0.0212353
607500000 0.0020907 0.0217724 0.9979093 -0.0217724 0.9979093 -0.0217724 0.0020907 0.0217724
614750000 0.0021531 0.0223097 0.9978469 -0.0223097 0.9978469 -0.0223097 0.0021531 0.0223097
622000000 0.0022183 0.0228474 0.9977817 -0.0228474 0.9977817 -0.0228474 0.0022183 0.0228474
629250000 0.0022864 0.0233858 0.9977136 -0.0233858 0.9977136 -0.0233858 0.0022864 0.0233858
636500000 0.0023577 0.0239251 0.9976423 -0.0239251 0.9976423 -0.0239251 0.0023577 0.0239251
643750000 0.0024324 0.0244655 0.9975676 -0.0244655 0.9975676 -0.0244655 0.0024324 0.0244655
651000000 0.0025108 0.0250074 0.9974892 -0.0250074 0.9974892 -0.0250074 0.0025108 0.0250074
658250000 0.0025933 0.0255511 0.9974067 -0.0255511 0.9974067 -0.0255511 0.0025933 0.0255511
665500000 0.0026802 0.0260969 0.9973198 -0.0260969 0.9973198 -0.0260969 0.0026802 0.0260969
672750000 0.0027720 0.0266450 0.9972280 -0.0266450 0.9972280 -0.0266450 0.0027720 0.0266450
680000000 0.0028691 0.0271958 0.9971309 -0.0271958 0.9971309 -0.0271958 0.0028691 0.0271958
687250000 0.0029721 0.0277497 0.9970279 -0.0277497 0.9970279 -0.0277497 0.0029721 0.0277497
694500000 0.0030817 0.0283069 0.9969183 -0.0283069 0.9969183 -0.0283069 0.0030817 0.0283069
701750000 0.0031985 0.0288679 0.9968015 -0.0288679 0.9968015 -0.0288679 0.0031985 0.0288679
709000000 0.0033235 0.0294329 0.9966765 -0.0294329 0.9966765 -0.0294329 0.0033235 0.0294329
716250000 0.0034576 0.0300023 0.9965424 -0.0300023 0.9965424 -0.0300023 0.0034576 0.0300023
723500000 0.0036018 0.0305765 0.9963982 -0.0305765 0.9963982 -0.0305765 0.0036018 0.0305765
730750000 0.0037576 0.0311557 0.9962424 -0.0311557 0.9962424 -0.0311557 0.0037576 0.0311557
738000000 0.0039265 0.0317402 0.9960735 -0.0317402 0.9960735 -0.0317402 0.0039265 0.0317402
745250000 0.0041102 0.0323302 0.9958898 -0.0323302 0.9958898 -0.0323302 0.0041102 0.0323302
752500000 0.0043107 0.0329259 0.9956893 -0.0329259 0.9956893 -0.0329259 0.0043107 0.0329259
759750000 0.0045307 0.0335270 0.9954693 -0.0335270 0.9954693 -0.0335270 0.0045307 0.0335270
767000000 0.0047727 0.0341334 0.9952273 -0.0341334 0.9952273 -0.0341334 0.0047727 0.0341334
774250000 0.0050403 0.0347445 0.9949597 -0.0347445 0.9949597 -0.0347445 0.0050403 0.0347445
781500000 0.0053373 0.0353590 0.9946627 -0.0353590 0.9946627 -0.0353590 0.0053373 0.0353590
788750000 0.0056681 0.0359754 0.9943319 -0.0359754 0.9943319 -0.0359754 0.0056681 0.0359754
796000000 0.0060380 0.0365909 0.9939620 -0.0365909 0.9939620 -0.0365909 0.0060380 0.0365909
803250000 0.0064528 0.0372016 0.9935472 -0.0372016 0.9935472 -0.0372016 0.0064528 0.0372016
810500000 0.0069190 0.0378019 0.9930810 -0.0378019 0.9930810 -0.0378019 0.0069190 0.0378019
817750000 0.0074436 0.0383838 0.9925564 -0.0383838 0.9925564 -0.0383838 0.0074436 0.0383838
825000000 0.0080336 0.0389362 0.9919664 -0.0389362 0.9919664 -0.0389362 0.0080336 0.0389362
832250000 0.0086950 0.0394442 0.9913050 -0.0394442 0.9913050 -0.0394442 0.0086950 0.0394442
839500000 0.0094320 0.0398879 0.9905680 -0.0398879 0.9905680 -0.0398879 0.0094320 0.0398879
846750000 0.0102441 0.0402421 0.9897559 -0.0402421 0.9897559 -0.0402421 0.0102441 0.0402421
854000000 0.0111235 0.0404764 0.9888765 -0.0404764 0.9888765 -0.0404764 0.0111235 0.0404764
861250000 0.0120509 0.0405567 0.9879491 -0.0405567 0.9879491 -0.0405567 0.0120509 0.0405567
868500000 0.0129913 0.0404499 0.9870087 -0.0404499 0.9870087 -0.0404499 0.0129913 0.0404499
875750000 0.0138915 0.0401314 0.9861085 -0.0401314 0.9861085 -0.0401314 0.0138915 0.0401314
883000000 0.0146820 0.0395959 0.9853180 -0.0395959 0.9853180 -0.0395959 0.0146820 0.0395959
890250000 0.0152860 0.0388682 0.9847140 -0.0388682 0.9847140 -0.0388682 0.0152860 0.0388682
897500000 0.0156358 0.0380076 0.9843642 -0.0380076 0.9843642 -0.0380076 0.0156358 0.0380076
904750000 0.0156922 0.0371023 0.9843078 -0.0371023 0.9843078 -0.0371023 0.0156922 0.0371023
912000000 0.0154569 0.0362509 0.9845431 -0.0362509 0.9845431 -0.0362509 0.0154569 0.0362509
919250000 0.0149724 0.0355398 0.9850276 -0.0355398 0.9850276 -0.0355398 0.0149724 0.0355398
926500000 0.0143082 0.0350257 0.9856918 -0.0350257 0.9856918 -0.0350257 0.0143082 0.0350257
933750000 0.0135413 0.0347305 0.9864587 -0.0347305 0.9864587 -0.0347305 0.0135413 0.0347305
941000000 0.0127405 0.0346467 0.9872595 -0.0346467 0.9872595 -0.0346467 0.0127405 0.0346467
948250000 0.0119577 0.0347484 0.9880423 -0.0347484 0.9880423 -0.0347484 0.0119577 0.0347484
955500000 0.0112266 0.0350018 0.9887734 -0.0350018 0.9887734 -0.0350018 0.0112266 0.0350018
962750000 0.0105654 0.0353729 0.9894346 -0.0353729 0.9894346 -0.0353729 0.0105654 0.0353729
970000000 0.0099813 0.0358314 0.9900187 -0.0358314 0.9900187 -0.0358314 0.0099813 0.0358314
977250000 0.0094740 0.0363523 0.9905260 -0.0363523 0.9905260 -0.0363523 0.0094740 0.0363523
984500000 0.0090393 0.0369161 0.9909607 -0.0369161 0.9909607 -0.0369161 0.0090393 0.0369161
991750000 0.0086708 0.0375082 0.9913292 -0.0375082 0.9913292 -0.0375082 0.0086708 0.0375082
999000000 0.0083616 0.0381178 0.9916384 -0.0381178 0.9916384 -0.0381178 0.0083616 0.0381178
1006250000 0.0081046 0.0387371 0.9918954 -0.0387371 0.9918954 -0.0387371 0.0081046 0.0387371
1013500000 0.0078936 0.0393607 0.9921064 -0.0393607 0.9921064 -0.0393607 0.0078936 0.0393607
1020750000 0.0077226 0.0399847 0.9922774 -0.0399847 0.9922774 -0.0399847 0.0077226 0.0399847
1028000000 0.0075867 0.0406066 0.9924133 -0.0406066 0.9924133 -0.0406066 0.0075867 0.0406066
1035250000 0.0074815 0.0412247 0.9925185 -0.0412247 0.9925185 -0.0412247 0.0074815 0.0412247
1042500000 0.0074032 0.0418380 0.9925968 -0.0418380 0.9925968 -0.0418380 0.0074032 0.0418380
1049750000 0.0073487 0.0424459 0.9926513 -0.0424459 0.9926513 -0.0424459 0.0073487 0.0424459
1057000000 0.0073153 0.0430481 0.9926847 -0.0430481 0.9926847 -0.0430481 0.0073153 0.0430481
1064250000 0.0073007 0.0436445 0.9926993 -0.0436445 0.9926993 -0.0436445 0.0073007 0.0436445
1071500000 0.0073029 0.0442352 0.9926971 -0.0442352 0.9926971 -0.0442352 0.0073029 0.0442352
1078750000 0.0073203 0.0448204 0.9926797 -0.0448204 0.9926797 -0.0448204 0.0073203 0.0448204
1086000000 0.0073517 0.0454003 0.9926483 -0.0454003 0.9926483 -0.0454003 0.0073517 0.0454003
1093250000 0.0073957 0.0459752 0.9926043 -0.0459752 0.9926043 -0.0459752 0.0073957 0.0459752
1100500000 0.0074516 0.0465453 0.9925484 -0.0465453 0.9925484 -0.0465453 0.0074516 0.0465453
1107750000 0.0075184 0.0471110 0.9924816 -0.0471110 0.9924816 -0.0471110 0.0075184 0.0471110
1115000000 0.0075956 0.0476725 0.9924044 -0.0476725 0.9924044 -0.0476725 0.0075956 0.0476725
1122250000 0.0076825 0.0482301 0.9923175 -0.0482301 0.9923175 -0.0482301 0.0076825 0.0482301
1129500000 0.0077788 0.0487840 0.9922212 -0.0487840 0.9922212 -0.0487840 0.0077788 0.0487840
1136750000 0.0078840 0.0493345 0.9921160 -0.0493345 0.9921160 -0.0493345 0.0078840 0.0493345
1144000000 0.0079980 0.0498818 0.9920020 -0.0498818 0.9920020 -0.0498818 0.0079980 0.0498818
1151250000 0.0081205 0.0504260 0.9918795 -0.0504260 0.9918795 -0.0504260 0.0081205 0.0504260
1158500000 0.0082513 0.0509674 0.9917487 -0.0509674 0.9917487 -0.0509674 0.0082513 0.0509674
1165750000 0.0083904 0.0515061 0.9916096 -0.0515061 0.9916096 -0.0515061 0.0083904 0.0515061
1173000000 0.0085377 0.0520422 0.9914623 -0.0520422 0.9914623 -0.0520422 0.0085377 0.0520422
1180250000 0.0086933 0.0525757 0.9913067 -0.0525757 0.9913067 -0.0525757 0.0086933 0.0525757
1187500000 0.0088571 0.0531069 0.9911429 -0.0531069 0.9911429 -0.0531069 0.0088571 0.0531069
1194750000 0.0090293 0.0536356 0.9909707 -0.0536356 0.9909707 -0.0536356 0.0090293 0.0536356
1202000000 0.0092099 0.0541619 0.9907901 -0.0541619 0.9907901 -0.0541619 0.0092099 0.0541619
1209250000 0.0093992 0.0546858 0.9906008 -0.0546858 0.9906008 -0.0546858 0.0093992 0.0546858
1216500000 0.0095972 0.0552072 0.9904028 -0.0552072 0.9904028 -0.0552072 0.0095972 0.0552072
1223750000 0.0098042 0.0557260 0.9901958 -0.0557260 0.9901958 -0.0557260 0.0098042 0.0557260
1231000000 0.0100204 0.0562421 0.9899796 -0.0562421 0.9899796 -0.0562421 0.0100204 0.0562421
1238250000 0.0102461 0.0567553 0.9897539 -0.0567553 0.9897539 -0.0567553 0.0102461 0.0567553
1245500000 0.0104814 0.0572654 0.9895186 -0.0572654 0.9895186 -0.0572654 0.0104814 0.0572654
1252750000 0.0107268 0.0577722 0.9892732 -0.0577722 0.9892732 -0.0577722 0.0107268 0.0577722
1260000000 0.0109825 0.0582753 0.9890175 -0.0582753 0.9890175 -0.0582753 0.0109825 0.0582753
1267250000 0.0112488 0.0587745 0.9887512 -0.0587745 0.9887512 -0.0587745 0.0112488 0.0587745
1274500000 0.0115261 0.0592692 0.9884739 -0.0592692 0.9884739 -0.0592692 0.0115261 0.0592692
1281750000 0.0118147 0.0597591 0.9881853 -0.0597591 0.9881853 -0.0597591 0.0118147 0.0597591
1289000000 0.0121149 0.0602436 0.9878851 -0.0602436 0.9878851 -0.0602436 0.0121149 0.0602436
1296250000 0.0124271 0.0607220 0.9875729 -0.0607220 0.9875729 -0.0607220 0.0124271 0.0607220
1303500000 0.0127516 0.0611937 0.9872484 -0.0611937 0.9872484 -0.0611937 0.0127516 0.0611937
1310750000 0.0130887 0.0616580 0.9869113 -0.0616580 0.9869113 -0.0616580 0.0130887 0.0616580
1318000000 0.0134387 0.0621140 0.9865613 -0.0621140 0.9865613 -0.0621140 0.0134387 0.0621140
1325250000 0.0138019 0.0625607 0.9861981 -0.0625607 0.9861981 -0.0625607 0.0138019 0.0625607
1332500000 0.0141784 0.0629972 0.9858216 -0.0629972 0.9858216 -0.0629972 0.0141784 0.0629972
1339750000 0.0145684 0.0634222 0.9854316 -0.0634222 0.9854316 -0.0634222 0.0145684 0.0634222
1347000000 0.0149721 0.0638346 0.9850279 -0.0638346 0.9850279 -0.0638346 0.0149721 0.0638346
1354250000 0.0153893 0.0642330 0.9846107 -0.0642330 0.9846107 -0.0642330 0.0153893 0.0642330
1361500000 0.0158200 0.0646160 0.9841800 -0.0646160 0.9841800 -0.0646160 0.0158200 0.0646160
1368750000 0.0162639 0.0649820 0.9837361 -0.0649820 0.9837361 -0.0649820 0.0162639 0.0649820
1376000000 0.0167206 0.0653294 0.9832794 -0.0653294 0.9832794 -0.0653294 0.0167206 0.0653294
1383250000 0.0171896 0.0656564 0.9828104 -0.0656564 0.9828104 -0.0656564 0.0171896 0.0656564
1390500000 0.0176702 0.0659613 0.9823298 -0.0659613 0.9823298 -0.0659613 0.0176702 0.0659613
1397750000 0.0181612 0.0662421 0.9818388 -0.0662421 0.9818388 -0.0662421 0.0181612 0.0662421
1405000000 0.0186614 0.0664970 0.9813386 -0.0664970 0.9813386 -0.0664970 0.0186614 0.0664970
1412250000 0.0191693 0.0667241 0.9808307 -0.0667241 0.9808307 -0.0667241 0.0191693 0.0667241
1419500000 0.0196831 0.0669215 0.9803169 -0.0669215 0.9803169 -0.0669215 0.0196831 0.0669215
1426750000 0.0202006 0.0670873 0.9797994 -0.0670873 0.9797994 -0.0670873 0.0202006 0.0670873
1434000000 0.0207193 0.0672200 0.9792807 -0.0672200 0.9792807 -0.0672200 0.0207193 0.0672200
1441250000 0.0212363 0.0673180 0.9787637 -0.0673180 0.9787637 -0.0673180 0.0212363 0.0673180
1448500000 0.0217485 0.0673801 0.9782515 -0.0673801 0.9782515 -0.0673801 0.0217485 0.0673801
1455750000 0.0222523 0.0674054 0.9777477 -0.0674054 0.9777477 -0.0674054 0.0222523 0.0674054
1463000000 0.0227439 0.0673934 0.9772561 -0.0673934 0.9772561 -0.0673934 0.0227439 0.0673934
1470250000 0.0232193 0.0673441 0.9767807 -0.0673441 0.9767807 -0.0673441 0.0232193 0.0673441
1477500000 0.0236742 0.0672579 0.9763258 -0.0672579 0.9763258 -0.0672579 0.0236742 0.0672579
1484750000 0.0241042 0.0671360 0.9758958 -0.0671360 0.9758958 -0.0671360 0.0241042 0.0671360
1492000000 0.0245050 0.0669800 0.9754950 -0.0669800 0.9754950 -0.0669800 0.0245050 0.0669800
1499250000 0.0248724 0.0667924 0.9751276 -0.0667924 0.9751276 -0.0667924 0.0248724 0.0667924
1506500000 0.0252023 0.0665763 0.9747977 -0.0665763 0.9747977 -0.0665763 0.0252023 0.0665763
1513750000 0.0254910 0.0663352 0.9745090 -0.0663352 0.9745090 -0.0663352 0.0254910 0.0663352
1521000000 0.0257354 0.0660735 0.9742646 -0.0660735 0.9742646 -0.0660735 0.0257354 0.0660735
1528250000 0.0259328 0.0657960 0.9740672 -0.0657960 0.9740672 -0.0657960 0.0259328 0.0657960
1535500000 0.0260813 0.0655080 0.9739187 -0.0655080 0.9739187 -0.0655080 0.0260813 0.0655080
1542750000 0.0261799 0.0652148 0.9738201 -0.0652148 0.9738201 -0.0652148 0.0261799 0.0652148
1550000000 0.0262281 0.0649222 0.9737719 -0.0649222 0.9737719 -0.0649222 0.0262281 0.0649222
1557250000 0.0262265 0.0646357 0.9737735 -0.0646357 0.9737735 -0.0646357 0.0262265 0.0646357
1564500000 0.0261763 0.0643608 0.9738237 -0.0643608 0.9738237 -0.0643608 0.0261763 0.0643608
1571750000 0.0260796 0.0641026 0.9739204 -0.0641026 0.9739204 -0.0641026 0.0260796 0.0641026
1579000000 0.0259391 0.0638658 0.9740609 -0.0638658 0.9740609 -0.0638658 0.0259391 0.0638658
1586250000 0.0257581 0.0636548 0.9742419 -0.0636548 0.9742419 -0.0636548 0.0257581 0.0636548
1593500000 0.0255404 0.0634729 0.9744596 -0.0634729 0.9744596 -0.0634729 0.0255404 0.0634729
1600750000 0.0252901 0.0633232 0.9747099 -0.0633232 0.9747099 -0.0633232 0.0252901 0.0633232
1608000000 0.0250115 0.0632080 0.9749885 -0.0632080 0.9749885 -0.0632080 0.0250115 0.0632080
1615250000 0.0247090 0.0631288 0.9752910 -0.0631288 0.9752910 -0.0631288 0.0247090 0.0631288
1622500000 0.0243870 0.0630865 0.9756130 -0.0630865 0.9756130 -0.0630865 0.0243870 0.0630865
1629750000 0.0240496 0.0630816 0.9759504 -0.0630816 0.9759504 -0.0630816 0.0240496 0.0630816
