!Murata Part Number: GRM31B7U2E682JW31
!These Parameters are Measured in Series Mode Connection
!Data Generated on Mar 30, 2021
!       o--ll--o
!Port1            Port2
!       o------o
!Operation Temp=25[degC], DC Bias Voltage=0[V]
!Freq. Start=1000[kHz] Stop=3[GHz] 401[Steps]
# Hz S RI R 50
!Freq.(Hz) S11(Real) S11(Imag) S21(Real) S21(Imag) S12(Real) S12(Imag) S22(Real) S22(Imag)
1000000 0.0519408 -0.2216422 0.9480592 0.2216422 0.9480592 0.2216422 0.0519408 -0.2216422
1020218 0.0500079 -0.2176905 0.9499921 0.2176905 0.9499921 0.2176905 0.0500079 -0.2176905
1040844 0.0481434 -0.2137929 0.9518566 0.2137929 0.9518566 0.2137929 0.0481434 -0.2137929
1061887 0.0463451 -0.2099496 0.9536549 0.2099496 0.9536549 0.2099496 0.0463451 -0.2099496
1083356 0.0446111 -0.2061607 0.9553889 0.2061607 0.9553889 0.2061607 0.0446111 -0.2061607
1105259 0.0429391 -0.2024263 0.9570609 0.2024263 0.9570609 0.2024263 0.0429391 -0.2024263
1127605 0.0413272 -0.1987464 0.9586728 0.1987464 0.9586728 0.1987464 0.0413272 -0.1987464
1150402 0.0397734 -0.1951209 0.9602266 0.1951209 0.9602266 0.1951209 0.0397734 -0.1951209
1173660 0.0382759 -0.1915497 0.9617241 0.1915497 0.9617241 0.1915497 0.0382759 -0.1915497
1197389 0.0368327 -0.1880328 0.9631673 0.1880328 0.9631673 0.1880328 0.0368327 -0.1880328
1221597 0.0354420 -0.1845698 0.9645580 0.1845698 0.9645580 0.1845698 0.0354420 -0.1845698
1246295 0.0341022 -0.1811605 0.9658978 0.1811605 0.9658978 0.1811605 0.0341022 -0.1811605
1271492 0.0328114 -0.1778048 0.9671886 0.1778048 0.9671886 0.1778048 0.0328114 -0.1778048
1297199 0.0315680 -0.1745023 0.9684320 0.1745023 0.9684320 0.1745023 0.0315680 -0.1745023
1323425 0.0303704 -0.1712526 0.9696296 0.1712526 0.9696296 0.1712526 0.0303704 -0.1712526
1350181 0.0292170 -0.1680553 0.9707830 0.1680553 0.9707830 0.1680553 0.0292170 -0.1680553
1377479 0.0281062 -0.1649102 0.9718938 0.1649102 0.9718938 0.1649102 0.0281062 -0.1649102
1405328 0.0270367 -0.1618168 0.9729633 0.1618168 0.9729633 0.1618168 0.0270367 -0.1618168
1433740 0.0260069 -0.1587745 0.9739931 0.1587745 0.9739931 0.1587745 0.0260069 -0.1587745
1462727 0.0250155 -0.1557831 0.9749845 0.1557831 0.9749845 0.1557831 0.0250155 -0.1557831
1492300 0.0240611 -0.1528419 0.9759389 0.1528419 0.9759389 0.1528419 0.0240611 -0.1528419
1522470 0.0231423 -0.1499504 0.9768577 0.1499504 0.9768577 0.1499504 0.0231423 -0.1499504
1553251 0.0222580 -0.1471082 0.9777420 0.1471082 0.9777420 0.1471082 0.0222580 -0.1471082
1584654 0.0214069 -0.1443147 0.9785931 0.1443147 0.9785931 0.1443147 0.0214069 -0.1443147
1616692 0.0205878 -0.1415694 0.9794122 0.1415694 0.9794122 0.1415694 0.0205878 -0.1415694
1649378 0.0197995 -0.1388717 0.9802005 0.1388717 0.9802005 0.1388717 0.0197995 -0.1388717
1682724 0.0190410 -0.1362210 0.9809590 0.1362210 0.9809590 0.1362210 0.0190410 -0.1362210
1716745 0.0183111 -0.1336168 0.9816889 0.1336168 0.9816889 0.1336168 0.0183111 -0.1336168
1751453 0.0176089 -0.1310584 0.9823911 0.1310584 0.9823911 0.1310584 0.0176089 -0.1310584
1786863 0.0169333 -0.1285453 0.9830667 0.1285453 0.9830667 0.1285453 0.0169333 -0.1285453
1822989 0.0162833 -0.1260769 0.9837167 0.1260769 0.9837167 0.1260769 0.0162833 -0.1260769
1859846 0.0156580 -0.1236526 0.9843420 0.1236526 0.9843420 0.1236526 0.0156580 -0.1236526
1897447 0.0150565 -0.1212717 0.9849435 0.1212717 0.9849435 0.1212717 0.0150565 -0.1212717
1935809 0.0144779 -0.1189336 0.9855221 0.1189336 0.9855221 0.1189336 0.0144779 -0.1189336
1974946 0.0139214 -0.1166378 0.9860786 0.1166378 0.9860786 0.1166378 0.0139214 -0.1166378
2014875 0.0133861 -0.1143837 0.9866139 0.1143837 0.9866139 0.1143837 0.0133861 -0.1143837
2055611 0.0128713 -0.1121705 0.9871287 0.1121705 0.9871287 0.1121705 0.0128713 -0.1121705
2097170 0.0123762 -0.1099977 0.9876238 0.1099977 0.9876238 0.1099977 0.0123762 -0.1099977
2139570 0.0119000 -0.1078648 0.9881000 0.1078648 0.9881000 0.1078648 0.0119000 -0.1078648
2182827 0.0114422 -0.1057710 0.9885578 0.1057710 0.9885578 0.1057710 0.0114422 -0.1057710
2226959 0.0110018 -0.1037158 0.9889982 0.1037158 0.9889982 0.1037158 0.0110018 -0.1037158
2271982 0.0105784 -0.1016985 0.9894216 0.1016985 0.9894216 0.1016985 0.0105784 -0.1016985
2317916 0.0101713 -0.0997186 0.9898287 0.0997186 0.9898287 0.0997186 0.0101713 -0.0997186
2364779 0.0097798 -0.0977755 0.9902202 0.0977755 0.9902202 0.0977755 0.0097798 -0.0977755
2412589 0.0094034 -0.0958685 0.9905966 0.0958685 0.9905966 0.0958685 0.0094034 -0.0958685
2461366 0.0090416 -0.0939971 0.9909584 0.0939971 0.9909584 0.0939971 0.0090416 -0.0939971
2511129 0.0086936 -0.0921606 0.9913064 0.0921606 0.9913064 0.0921606 0.0086936 -0.0921606
2561897 0.0083591 -0.0903586 0.9916409 0.0903586 0.9916409 0.0903586 0.0083591 -0.0903586
2613693 0.0080376 -0.0885904 0.9919624 0.0885904 0.9919624 0.0885904 0.0080376 -0.0885904
2666535 0.0077284 -0.0868555 0.9922716 0.0868555 0.9922716 0.0868555 0.0077284 -0.0868555
2720446 0.0074312 -0.0851532 0.9925688 0.0851532 0.9925688 0.0851532 0.0074312 -0.0851532
2775447 0.0071455 -0.0834831 0.9928545 0.0834831 0.9928545 0.0834831 0.0071455 -0.0834831
2831560 0.0068709 -0.0818445 0.9931291 0.0818445 0.9931291 0.0818445 0.0068709 -0.0818445
2888807 0.0066069 -0.0802370 0.9933931 0.0802370 0.9933931 0.0802370 0.0066069 -0.0802370
2947212 0.0063531 -0.0786599 0.9936469 0.0786599 0.9936469 0.0786599 0.0063531 -0.0786599
3006797 0.0061092 -0.0771128 0.9938908 0.0771128 0.9938908 0.0771128 0.0061092 -0.0771128
3067588 0.0058748 -0.0755951 0.9941252 0.0755951 0.9941252 0.0755951 0.0058748 -0.0755951
3129607 0.0056494 -0.0741063 0.9943506 0.0741063 0.9943506 0.0741063 0.0056494 -0.0741063
3192880 0.0054328 -0.0726459 0.9945672 0.0726459 0.9945672 0.0726459 0.0054328 -0.0726459
3257432 0.0052247 -0.0712133 0.9947753 0.0712133 0.9947753 0.0712133 0.0052247 -0.0712133
3323290 0.0050246 -0.0698081 0.9949754 0.0698081 0.9949754 0.0698081 0.0050246 -0.0698081
3390478 0.0048323 -0.0684298 0.9951677 0.0684298 0.9951677 0.0684298 0.0048323 -0.0684298
3459026 0.0046475 -0.0670778 0.9953525 0.0670778 0.9953525 0.0670778 0.0046475 -0.0670778
3528959 0.0044699 -0.0657518 0.9955301 0.0657518 0.9955301 0.0657518 0.0044699 -0.0657518
3600306 0.0042992 -0.0644512 0.9957008 0.0644512 0.9957008 0.0644512 0.0042992 -0.0644512
3673095 0.0041351 -0.0631755 0.9958649 0.0631755 0.9958649 0.0631755 0.0041351 -0.0631755
3747356 0.0039775 -0.0619243 0.9960225 0.0619243 0.9960225 0.0619243 0.0039775 -0.0619243
3823119 0.0038260 -0.0606972 0.9961740 0.0606972 0.9961740 0.0606972 0.0038260 -0.0606972
3900413 0.0036804 -0.0594936 0.9963196 0.0594936 0.9963196 0.0594936 0.0036804 -0.0594936
3979270 0.0035405 -0.0583133 0.9964595 0.0583133 0.9964595 0.0583133 0.0035405 -0.0583133
4059721 0.0034061 -0.0571556 0.9965939 0.0571556 0.9965939 0.0571556 0.0034061 -0.0571556
4141799 0.0032769 -0.0560202 0.9967231 0.0560202 0.9967231 0.0560202 0.0032769 -0.0560202
4225536 0.0031528 -0.0549068 0.9968472 0.0549068 0.9968472 0.0549068 0.0031528 -0.0549068
4310966 0.0030335 -0.0538147 0.9969665 0.0538147 0.9969665 0.0538147 0.0030335 -0.0538147
4398124 0.0029189 -0.0527438 0.9970811 0.0527438 0.9970811 0.0527438 0.0029189 -0.0527438
4487043 0.0028088 -0.0516934 0.9971912 0.0516934 0.9971912 0.0516934 0.0028088 -0.0516934
4577760 0.0027030 -0.0506634 0.9972970 0.0506634 0.9972970 0.0506634 0.0027030 -0.0506634
4670311 0.0026014 -0.0496532 0.9973986 0.0496532 0.9973986 0.0496532 0.0026014 -0.0496532
4764734 0.0025037 -0.0486625 0.9974963 0.0486625 0.9974963 0.0486625 0.0025037 -0.0486625
4861065 0.0024099 -0.0476910 0.9975901 0.0476910 0.9975901 0.0476910 0.0024099 -0.0476910
4959344 0.0023197 -0.0467382 0.9976803 0.0467382 0.9976803 0.0467382 0.0023197 -0.0467382
5059610 0.0022331 -0.0458038 0.9977669 0.0458038 0.9977669 0.0458038 0.0022331 -0.0458038
5161903 0.0021499 -0.0448874 0.9978501 0.0448874 0.9978501 0.0448874 0.0021499 -0.0448874
5266264 0.0020699 -0.0439888 0.9979301 0.0439888 0.9979301 0.0439888 0.0020699 -0.0439888
5372736 0.0019932 -0.0431075 0.9980068 0.0431075 0.9980068 0.0431075 0.0019932 -0.0431075
5481359 0.0019194 -0.0422432 0.9980806 0.0422432 0.9980806 0.0422432 0.0019194 -0.0422432
5592179 0.0018485 -0.0413955 0.9981515 0.0413955 0.9981515 0.0413955 0.0018485 -0.0413955
5705239 0.0017805 -0.0405643 0.9982195 0.0405643 0.9982195 0.0405643 0.0017805 -0.0405643
5820586 0.0017151 -0.0397491 0.9982849 0.0397491 0.9982849 0.0397491 0.0017151 -0.0397491
5938264 0.0016523 -0.0389496 0.9983477 0.0389496 0.9983477 0.0389496 0.0016523 -0.0389496
6058321 0.0015919 -0.0381655 0.9984081 0.0381655 0.9984081 0.0381655 0.0015919 -0.0381655
6180806 0.0015340 -0.0373965 0.9984660 0.0373965 0.9984660 0.0373965 0.0015340 -0.0373965
6305767 0.0014784 -0.0366424 0.9985216 0.0366424 0.9985216 0.0366424 0.0014784 -0.0366424
6433254 0.0014249 -0.0359027 0.9985751 0.0359027 0.9985751 0.0359027 0.0014249 -0.0359027
6563319 0.0013736 -0.0351774 0.9986264 0.0351774 0.9986264 0.0351774 0.0013736 -0.0351774
6696013 0.0013243 -0.0344659 0.9986757 0.0344659 0.9986757 0.0344659 0.0013243 -0.0344659
6831390 0.0012770 -0.0337682 0.9987230 0.0337682 0.9987230 0.0337682 0.0012770 -0.0337682
6969505 0.0012316 -0.0330838 0.9987684 0.0330838 0.9987684 0.0330838 0.0012316 -0.0330838
7110411 0.0011880 -0.0324126 0.9988120 0.0324126 0.9988120 0.0324126 0.0011880 -0.0324126
7254166 0.0011461 -0.0317543 0.9988539 0.0317543 0.9988539 0.0317543 0.0011461 -0.0317543
7400828 0.0011059 -0.0311086 0.9988941 0.0311086 0.9988941 0.0311086 0.0011059 -0.0311086
7550455 0.0010673 -0.0304753 0.9989327 0.0304753 0.9989327 0.0304753 0.0010673 -0.0304753
7703107 0.0010302 -0.0298541 0.9989698 0.0298541 0.9989698 0.0298541 0.0010302 -0.0298541
7858845 0.0009946 -0.0292448 0.9990054 0.0292448 0.9990054 0.0292448 0.0009946 -0.0292448
8017732 0.0009605 -0.0286472 0.9990395 0.0286472 0.9990395 0.0286472 0.0009605 -0.0286472
8179831 0.0009277 -0.0280609 0.9990723 0.0280609 0.9990723 0.0280609 0.0009277 -0.0280609
8345207 0.0008963 -0.0274859 0.9991037 0.0274859 0.9991037 0.0274859 0.0008963 -0.0274859
8513927 0.0008661 -0.0269218 0.9991339 0.0269218 0.9991339 0.0269218 0.0008661 -0.0269218
8686058 0.0008372 -0.0263684 0.9991628 0.0263684 0.9991628 0.0263684 0.0008372 -0.0263684
8861669 0.0008094 -0.0258255 0.9991906 0.0258255 0.9991906 0.0258255 0.0008094 -0.0258255
9040831 0.0007828 -0.0252930 0.9992172 0.0252930 0.9992172 0.0252930 0.0007828 -0.0252930
9223615 0.0007572 -0.0247705 0.9992428 0.0247705 0.9992428 0.0247705 0.0007572 -0.0247705
9410094 0.0007327 -0.0242580 0.9992673 0.0242580 0.9992673 0.0242580 0.0007327 -0.0242580
9600343 0.0007092 -0.0237551 0.9992908 0.0237551 0.9992908 0.0237551 0.0007092 -0.0237551
9794439 0.0006867 -0.0232617 0.9993133 0.0232617 0.9993133 0.0232617 0.0006867 -0.0232617
9992459 0.0006651 -0.0227776 0.9993349 0.0227776 0.9993349 0.0227776 0.0006651 -0.0227776
10194482 0.0006444 -0.0223026 0.9993556 0.0223026 0.9993556 0.0223026 0.0006444 -0.0223026
10400590 0.0006246 -0.0218365 0.9993754 0.0218365 0.9993754 0.0218365 0.0006246 -0.0218365
10610865 0.0006056 -0.0213792 0.9993944 0.0213792 0.9993944 0.0213792 0.0006056 -0.0213792
10825391 0.0005874 -0.0209304 0.9994126 0.0209304 0.9994126 0.0209304 0.0005874 -0.0209304
11044254 0.0005699 -0.0204900 0.9994301 0.0204900 0.9994301 0.0204900 0.0005699 -0.0204900
11267542 0.0005532 -0.0200578 0.9994468 0.0200578 0.9994468 0.0200578 0.0005532 -0.0200578
11495344 0.0005372 -0.0196336 0.9994628 0.0196336 0.9994628 0.0196336 0.0005372 -0.0196336
11727752 0.0005219 -0.0192173 0.9994781 0.0192173 0.9994781 0.0192173 0.0005219 -0.0192173
11964859 0.0005073 -0.0188087 0.9994927 0.0188087 0.9994927 0.0188087 0.0005073 -0.0188087
12206760 0.0004932 -0.0184076 0.9995068 0.0184076 0.9995068 0.0184076 0.0004932 -0.0184076
12453551 0.0004798 -0.0180139 0.9995202 0.0180139 0.9995202 0.0180139 0.0004798 -0.0180139
12705331 0.0004670 -0.0176274 0.9995330 0.0176274 0.9995330 0.0176274 0.0004670 -0.0176274
12962202 0.0004547 -0.0172481 0.9995453 0.0172481 0.9995453 0.0172481 0.0004547 -0.0172481
13224267 0.0004430 -0.0168756 0.9995570 0.0168756 0.9995570 0.0168756 0.0004430 -0.0168756
13491630 0.0004318 -0.0165099 0.9995682 0.0165099 0.9995682 0.0165099 0.0004318 -0.0165099
13764398 0.0004211 -0.0161508 0.9995789 0.0161508 0.9995789 0.0161508 0.0004211 -0.0161508
14042680 0.0004109 -0.0157982 0.9995891 0.0157982 0.9995891 0.0157982 0.0004109 -0.0157982
14326589 0.0004012 -0.0154520 0.9995988 0.0154520 0.9995988 0.0154520 0.0004012 -0.0154520
14616238 0.0003919 -0.0151119 0.9996081 0.0151119 0.9996081 0.0151119 0.0003919 -0.0151119
14911743 0.0003830 -0.0147780 0.9996170 0.0147780 0.9996170 0.0147780 0.0003830 -0.0147780
15213223 0.0003746 -0.0144500 0.9996254 0.0144500 0.9996254 0.0144500 0.0003746 -0.0144500
15520797 0.0003665 -0.0141278 0.9996335 0.0141278 0.9996335 0.0141278 0.0003665 -0.0141278
15834590 0.0003589 -0.0138113 0.9996411 0.0138113 0.9996411 0.0138113 0.0003589 -0.0138113
16154727 0.0003516 -0.0135003 0.9996484 0.0135003 0.9996484 0.0135003 0.0003516 -0.0135003
16481337 0.0003446 -0.0131948 0.9996554 0.0131948 0.9996554 0.0131948 0.0003446 -0.0131948
16814550 0.0003380 -0.0128946 0.9996620 0.0128946 0.9996620 0.0128946 0.0003380 -0.0128946
17154499 0.0003318 -0.0125995 0.9996682 0.0125995 0.9996682 0.0125995 0.0003318 -0.0125995
17501322 0.0003258 -0.0123096 0.9996742 0.0123096 0.9996742 0.0123096 0.0003258 -0.0123096
17855156 0.0003202 -0.0120246 0.9996798 0.0120246 0.9996798 0.0120246 0.0003202 -0.0120246
18216144 0.0003149 -0.0117445 0.9996851 0.0117445 0.9996851 0.0117445 0.0003149 -0.0117445
18584431 0.0003098 -0.0114691 0.9996902 0.0114691 0.9996902 0.0114691 0.0003098 -0.0114691
18960163 0.0003050 -0.0111983 0.9996950 0.0111983 0.9996950 0.0111983 0.0003050 -0.0111983
19343491 0.0003005 -0.0109321 0.9996995 0.0109321 0.9996995 0.0109321 0.0003005 -0.0109321
19734570 0.0002962 -0.0106702 0.9997038 0.0106702 0.9997038 0.0106702 0.0002962 -0.0106702
20133555 0.0002922 -0.0104127 0.9997078 0.0104127 0.9997078 0.0104127 0.0002922 -0.0104127
20540607 0.0002884 -0.0101594 0.9997116 0.0101594 0.9997116 0.0101594 0.0002884 -0.0101594
20955888 0.0002848 -0.0099101 0.9997152 0.0099101 0.9997152 0.0099101 0.0002848 -0.0099101
21379566 0.0002815 -0.0096649 0.9997185 0.0096649 0.9997185 0.0096649 0.0002815 -0.0096649
21811809 0.0002784 -0.0094236 0.9997216 0.0094236 0.9997216 0.0094236 0.0002784 -0.0094236
22252791 0.0002754 -0.0091861 0.9997246 0.0091861 0.9997246 0.0091861 0.0002754 -0.0091861
22702688 0.0002727 -0.0089523 0.9997273 0.0089523 0.9997273 0.0089523 0.0002727 -0.0089523
23161682 0.0002702 -0.0087221 0.9997298 0.0087221 0.9997298 0.0087221 0.0002702 -0.0087221
23629955 0.0002678 -0.0084954 0.9997322 0.0084954 0.9997322 0.0084954 0.0002678 -0.0084954
24107696 0.0002657 -0.0082722 0.9997343 0.0082722 0.9997343 0.0082722 0.0002657 -0.0082722
24595095 0.0002637 -0.0080523 0.9997363 0.0080523 0.9997363 0.0080523 0.0002637 -0.0080523
25092348 0.0002618 -0.0078357 0.9997382 0.0078357 0.9997382 0.0078357 0.0002618 -0.0078357
25599655 0.0002601 -0.0076222 0.9997399 0.0076222 0.9997399 0.0076222 0.0002601 -0.0076222
26117218 0.0002586 -0.0074119 0.9997414 0.0074119 0.9997414 0.0074119 0.0002586 -0.0074119
26645245 0.0002573 -0.0072045 0.9997427 0.0072045 0.9997427 0.0072045 0.0002573 -0.0072045
27183947 0.0002561 -0.0070000 0.9997439 0.0070000 0.9997439 0.0070000 0.0002561 -0.0070000
27733541 0.0002550 -0.0067984 0.9997450 0.0067984 0.9997450 0.0067984 0.0002550 -0.0067984
28294246 0.0002541 -0.0065995 0.9997459 0.0065995 0.9997459 0.0065995 0.0002541 -0.0065995
28866287 0.0002533 -0.0064033 0.9997467 0.0064033 0.9997467 0.0064033 0.0002533 -0.0064033
29449894 0.0002526 -0.0062096 0.9997474 0.0062096 0.9997474 0.0062096 0.0002526 -0.0062096
30045299 0.0002521 -0.0060185 0.9997479 0.0060185 0.9997479 0.0060185 0.0002521 -0.0060185
30652742 0.0002517 -0.0058298 0.9997483 0.0058298 0.9997483 0.0058298 0.0002517 -0.0058298
31272467 0.0002514 -0.0056434 0.9997486 0.0056434 0.9997486 0.0056434 0.0002514 -0.0056434
31904720 0.0002513 -0.0054594 0.9997487 0.0054594 0.9997487 0.0054594 0.0002513 -0.0054594
32549757 0.0002513 -0.0052775 0.9997487 0.0052775 0.9997487 0.0052775 0.0002513 -0.0052775
33207834 0.0002514 -0.0050978 0.9997486 0.0050978 0.9997486 0.0050978 0.0002514 -0.0050978
33879216 0.0002516 -0.0049201 0.9997484 0.0049201 0.9997484 0.0049201 0.0002516 -0.0049201
34564172 0.0002519 -0.0047444 0.9997481 0.0047444 0.9997481 0.0047444 0.0002519 -0.0047444
35262976 0.0002524 -0.0045706 0.9997476 0.0045706 0.9997476 0.0045706 0.0002524 -0.0045706
35975908 0.0002530 -0.0043986 0.9997470 0.0043986 0.9997470 0.0043986 0.0002530 -0.0043986
36703254 0.0002537 -0.0042284 0.9997463 0.0042284 0.9997463 0.0042284 0.0002537 -0.0042284
37445305 0.0002545 -0.0040599 0.9997455 0.0040599 0.9997455 0.0040599 0.0002545 -0.0040599
38202358 0.0002554 -0.0038930 0.9997446 0.0038930 0.9997446 0.0038930 0.0002554 -0.0038930
38974717 0.0002565 -0.0037277 0.9997435 0.0037277 0.9997435 0.0037277 0.0002565 -0.0037277
39762692 0.0002577 -0.0035639 0.9997423 0.0035639 0.9997423 0.0035639 0.0002577 -0.0035639
40566597 0.0002590 -0.0034015 0.9997410 0.0034015 0.9997410 0.0034015 0.0002590 -0.0034015
41386756 0.0002604 -0.0032404 0.9997396 0.0032404 0.9997396 0.0032404 0.0002604 -0.0032404
42223496 0.0002619 -0.0030806 0.9997381 0.0030806 0.9997381 0.0030806 0.0002619 -0.0030806
43077153 0.0002636 -0.0029221 0.9997364 0.0029221 0.9997364 0.0029221 0.0002636 -0.0029221
43948069 0.0002654 -0.0027647 0.9997346 0.0027647 0.9997346 0.0027647 0.0002654 -0.0027647
44836592 0.0002673 -0.0026083 0.9997327 0.0026083 0.9997327 0.0026083 0.0002673 -0.0026083
45743080 0.0002694 -0.0024530 0.9997306 0.0024530 0.9997306 0.0024530 0.0002694 -0.0024530
46667894 0.0002716 -0.0022987 0.9997284 0.0022987 0.9997284 0.0022987 0.0002716 -0.0022987
47611406 0.0002740 -0.0021452 0.9997260 0.0021452 0.9997260 0.0021452 0.0002740 -0.0021452
48573993 0.0002765 -0.0019925 0.9997235 0.0019925 0.9997235 0.0019925 0.0002765 -0.0019925
49556042 0.0002791 -0.0018406 0.9997209 0.0018406 0.9997209 0.0018406 0.0002791 -0.0018406
50557945 0.0002819 -0.0016894 0.9997181 0.0016894 0.9997181 0.0016894 0.0002819 -0.0016894
51580105 0.0002849 -0.0015388 0.9997151 0.0015388 0.9997151 0.0015388 0.0002849 -0.0015388
52622929 0.0002880 -0.0013888 0.9997120 0.0013888 0.9997120 0.0013888 0.0002880 -0.0013888
53686838 0.0002913 -0.0012392 0.9997087 0.0012392 0.9997087 0.0012392 0.0002913 -0.0012392
54772256 0.0002948 -0.0010901 0.9997052 0.0010901 0.9997052 0.0010901 0.0002948 -0.0010901
55879618 0.0002984 -0.0009413 0.9997016 0.0009413 0.9997016 0.0009413 0.0002984 -0.0009413
57009369 0.0003023 -0.0007928 0.9996977 0.0007928 0.9996977 0.0007928 0.0003023 -0.0007928
58161960 0.0003063 -0.0006445 0.9996937 0.0006445 0.9996937 0.0006445 0.0003063 -0.0006445
59337855 0.0003106 -0.0004964 0.9996894 0.0004964 0.9996894 0.0004964 0.0003106 -0.0004964
60537522 0.0003150 -0.0003483 0.9996850 0.0003483 0.9996850 0.0003483 0.0003150 -0.0003483
61761445 0.0003197 -0.0002003 0.9996803 0.0002003 0.9996803 0.0002003 0.0003197 -0.0002003
63010112 0.0003247 -0.0000522 0.9996753 0.0000522 0.9996753 0.0000522 0.0003247 -0.0000522
64284024 0.0003299 0.0000961 0.9996701 -0.0000961 0.9996701 -0.0000961 0.0003299 0.0000961
65583691 0.0003354 0.0002446 0.9996646 -0.0002446 0.9996646 -0.0002446 0.0003354 0.0002446
66909635 0.0003411 0.0003933 0.9996589 -0.0003933 0.9996589 -0.0003933 0.0003411 0.0003933
68262386 0.0003471 0.0005425 0.9996529 -0.0005425 0.9996529 -0.0005425 0.0003471 0.0005425
69642486 0.0003535 0.0006920 0.9996465 -0.0006920 0.9996465 -0.0006920 0.0003535 0.0006920
71050488 0.0003601 0.0008422 0.9996399 -0.0008422 0.9996399 -0.0008422 0.0003601 0.0008422
72486957 0.0003672 0.0009929 0.9996328 -0.0009929 0.9996328 -0.0009929 0.0003672 0.0009929
73952468 0.0003746 0.0011444 0.9996254 -0.0011444 0.9996254 -0.0011444 0.0003746 0.0011444
