!Murata Part Number: GRM31A7U2J680JW31
!These Parameters are Measured in Series Mode Connection
!Data Generated on Mar 30, 2021
!       o--ll--o
!Port1            Port2
!       o------o
!Operation Temp=25[degC], DC Bias Voltage=0[V]
!Freq. Start=100[MHz] Stop=3[GHz] 401[Steps]
# Hz S RI R 50
!Freq.(Hz) S11(Real) S11(Imag) S21(Real) S21(Imag) S12(Real) S12(Imag) S22(Real) S22(Imag)
100000000 0.0509689 -0.2172846 0.9490311 0.2172846 0.9490311 0.2172846 0.0509689 -0.2172846
107250000 0.0444921 -0.2033343 0.9555079 0.2033343 0.9555079 0.2033343 0.0444921 -0.2033343
114500000 0.0391414 -0.1908761 0.9608586 0.1908761 0.9608586 0.1908761 0.0391414 -0.1908761
121750000 0.0346735 -0.1796903 0.9653265 0.1796903 0.9653265 0.1796903 0.0346735 -0.1796903
129000000 0.0309066 -0.1695952 0.9690934 0.1695952 0.9690934 0.1695952 0.0309066 -0.1695952
136250000 0.0277031 -0.1604405 0.9722969 0.1604405 0.9722969 0.1604405 0.0277031 -0.1604405
143500000 0.0249571 -0.1521007 0.9750429 0.1521007 0.9750429 0.1521007 0.0249571 -0.1521007
150750000 0.0225865 -0.1444710 0.9774135 0.1444710 0.9774135 0.1444710 0.0225865 -0.1444710
158000000 0.0205265 -0.1374634 0.9794735 0.1374634 0.9794735 0.1374634 0.0205265 -0.1374634
165250000 0.0187258 -0.1310031 0.9812742 0.1310031 0.9812742 0.1310031 0.0187258 -0.1310031
172500000 0.0171430 -0.1250267 0.9828570 0.1250267 0.9828570 0.1250267 0.0171430 -0.1250267
179750000 0.0157449 -0.1194801 0.9842551 0.1194801 0.9842551 0.1194801 0.0157449 -0.1194801
187000000 0.0145041 -0.1143165 0.9854959 0.1143165 0.9854959 0.1143165 0.0145041 -0.1143165
194250000 0.0133982 -0.1094959 0.9866018 0.1094959 0.9866018 0.1094959 0.0133982 -0.1094959
201500000 0.0124087 -0.1049834 0.9875913 0.1049834 0.9875913 0.1049834 0.0124087 -0.1049834
208750000 0.0115200 -0.1007485 0.9884800 0.1007485 0.9884800 0.1007485 0.0115200 -0.1007485
216000000 0.0107191 -0.0967647 0.9892809 0.0967647 0.9892809 0.0967647 0.0107191 -0.0967647
223250000 0.0099951 -0.0930087 0.9900049 0.0930087 0.9900049 0.0930087 0.0099951 -0.0930087
230500000 0.0093387 -0.0894599 0.9906613 0.0894599 0.9906613 0.0894599 0.0093387 -0.0894599
237750000 0.0087420 -0.0861001 0.9912580 0.0861001 0.9912580 0.0861001 0.0087420 -0.0861001
245000000 0.0081980 -0.0829132 0.9918020 0.0829132 0.9918020 0.0829132 0.0081980 -0.0829132
252250000 0.0077011 -0.0798848 0.9922989 0.0798848 0.9922989 0.0798848 0.0077011 -0.0798848
259500000 0.0072460 -0.0770021 0.9927540 0.0770021 0.9927540 0.0770021 0.0072460 -0.0770021
266750000 0.0068284 -0.0742534 0.9931716 0.0742534 0.9931716 0.0742534 0.0068284 -0.0742534
274000000 0.0064445 -0.0716286 0.9935555 0.0716286 0.9935555 0.0716286 0.0064445 -0.0716286
281250000 0.0060910 -0.0691183 0.9939090 0.0691183 0.9939090 0.0691183 0.0060910 -0.0691183
288500000 0.0057648 -0.0667141 0.9942352 0.0667141 0.9942352 0.0667141 0.0057648 -0.0667141
295750000 0.0054634 -0.0644084 0.9945366 0.0644084 0.9945366 0.0644084 0.0054634 -0.0644084
303000000 0.0051845 -0.0621942 0.9948155 0.0621942 0.9948155 0.0621942 0.0051845 -0.0621942
310250000 0.0049261 -0.0600654 0.9950739 0.0600654 0.9950739 0.0600654 0.0049261 -0.0600654
317500000 0.0046864 -0.0580160 0.9953136 0.0580160 0.9953136 0.0580160 0.0046864 -0.0580160
324750000 0.0044638 -0.0560411 0.9955362 0.0560411 0.9955362 0.0560411 0.0044638 -0.0560411
332000000 0.0042568 -0.0541356 0.9957432 0.0541356 0.9957432 0.0541356 0.0042568 -0.0541356
339250000 0.0040641 -0.0522953 0.9959359 0.0522953 0.9959359 0.0522953 0.0040641 -0.0522953
346500000 0.0038847 -0.0505162 0.9961153 0.0505162 0.9961153 0.0505162 0.0038847 -0.0505162
353750000 0.0037175 -0.0487944 0.9962825 0.0487944 0.9962825 0.0487944 0.0037175 -0.0487944
361000000 0.0035615 -0.0471267 0.9964385 0.0471267 0.9964385 0.0471267 0.0035615 -0.0471267
368250000 0.0034159 -0.0455099 0.9965841 0.0455099 0.9965841 0.0455099 0.0034159 -0.0455099
375500000 0.0032800 -0.0439409 0.9967200 0.0439409 0.9967200 0.0439409 0.0032800 -0.0439409
382750000 0.0031530 -0.0424173 0.9968470 0.0424173 0.9968470 0.0424173 0.0031530 -0.0424173
390000000 0.0030343 -0.0409363 0.9969657 0.0409363 0.9969657 0.0409363 0.0030343 -0.0409363
397250000 0.0029234 -0.0394958 0.9970766 0.0394958 0.9970766 0.0394958 0.0029234 -0.0394958
404500000 0.0028198 -0.0380935 0.9971802 0.0380935 0.9971802 0.0380935 0.0028198 -0.0380935
411750000 0.0027228 -0.0367275 0.9972772 0.0367275 0.9972772 0.0367275 0.0027228 -0.0367275
419000000 0.0026323 -0.0353958 0.9973677 0.0353958 0.9973677 0.0353958 0.0026323 -0.0353958
426250000 0.0025476 -0.0340968 0.9974524 0.0340968 0.9974524 0.0340968 0.0025476 -0.0340968
433500000 0.0024685 -0.0328288 0.9975315 0.0328288 0.9975315 0.0328288 0.0024685 -0.0328288
440750000 0.0023946 -0.0315902 0.9976054 0.0315902 0.9976054 0.0315902 0.0023946 -0.0315902
448000000 0.0023257 -0.0303797 0.9976743 0.0303797 0.9976743 0.0303797 0.0023257 -0.0303797
455250000 0.0022613 -0.0291958 0.9977387 0.0291958 0.9977387 0.0291958 0.0022613 -0.0291958
462500000 0.0022014 -0.0280374 0.9977986 0.0280374 0.9977986 0.0280374 0.0022014 -0.0280374
469750000 0.0021455 -0.0269032 0.9978545 0.0269032 0.9978545 0.0269032 0.0021455 -0.0269032
477000000 0.0020936 -0.0257921 0.9979064 0.0257921 0.9979064 0.0257921 0.0020936 -0.0257921
484250000 0.0020454 -0.0247031 0.9979546 0.0247031 0.9979546 0.0247031 0.0020454 -0.0247031
491500000 0.0020007 -0.0236353 0.9979993 0.0236353 0.9979993 0.0236353 0.0020007 -0.0236353
498750000 0.0019593 -0.0225876 0.9980407 0.0225876 0.9980407 0.0225876 0.0019593 -0.0225876
506000000 0.0019211 -0.0215592 0.9980789 0.0215592 0.9980789 0.0215592 0.0019211 -0.0215592
513250000 0.0018859 -0.0205492 0.9981141 0.0205492 0.9981141 0.0205492 0.0018859 -0.0205492
520500000 0.0018535 -0.0195570 0.9981465 0.0195570 0.9981465 0.0195570 0.0018535 -0.0195570
527750000 0.0018239 -0.0185816 0.9981761 0.0185816 0.9981761 0.0185816 0.0018239 -0.0185816
535000000 0.0017970 -0.0176226 0.9982030 0.0176226 0.9982030 0.0176226 0.0017970 -0.0176226
542250000 0.0017725 -0.0166791 0.9982275 0.0166791 0.9982275 0.0166791 0.0017725 -0.0166791
549500000 0.0017504 -0.0157505 0.9982496 0.0157505 0.9982496 0.0157505 0.0017504 -0.0157505
556750000 0.0017306 -0.0148363 0.9982694 0.0148363 0.9982694 0.0148363 0.0017306 -0.0148363
564000000 0.0017130 -0.0139358 0.9982870 0.0139358 0.9982870 0.0139358 0.0017130 -0.0139358
571250000 0.0016975 -0.0130486 0.9983025 0.0130486 0.9983025 0.0130486 0.0016975 -0.0130486
578500000 0.0016840 -0.0121742 0.9983160 0.0121742 0.9983160 0.0121742 0.0016840 -0.0121742
585750000 0.0016725 -0.0113119 0.9983275 0.0113119 0.9983275 0.0113119 0.0016725 -0.0113119
593000000 0.0016628 -0.0104615 0.9983372 0.0104615 0.9983372 0.0104615 0.0016628 -0.0104615
600250000 0.0016550 -0.0096223 0.9983450 0.0096223 0.9983450 0.0096223 0.0016550 -0.0096223
607500000 0.0016489 -0.0087941 0.9983511 0.0087941 0.9983511 0.0087941 0.0016489 -0.0087941
614750000 0.0016445 -0.0079764 0.9983555 0.0079764 0.9983555 0.0079764 0.0016445 -0.0079764
622000000 0.0016418 -0.0071688 0.9983582 0.0071688 0.9983582 0.0071688 0.0016418 -0.0071688
629250000 0.0016406 -0.0063709 0.9983594 0.0063709 0.9983594 0.0063709 0.0016406 -0.0063709
636500000 0.0016410 -0.0055824 0.9983590 0.0055824 0.9983590 0.0055824 0.0016410 -0.0055824
643750000 0.0016428 -0.0048030 0.9983572 0.0048030 0.9983572 0.0048030 0.0016428 -0.0048030
651000000 0.0016461 -0.0040324 0.9983539 0.0040324 0.9983539 0.0040324 0.0016461 -0.0040324
658250000 0.0016508 -0.0032701 0.9983492 0.0032701 0.9983492 0.0032701 0.0016508 -0.0032701
665500000 0.0016568 -0.0025161 0.9983432 0.0025161 0.9983432 0.0025161 0.0016568 -0.0025161
672750000 0.0016642 -0.0017698 0.9983358 0.0017698 0.9983358 0.0017698 0.0016642 -0.0017698
680000000 0.0016729 -0.0010312 0.9983271 0.0010312 0.9983271 0.0010312 0.0016729 -0.0010312
687250000 0.0016829 -0.0002999 0.9983171 0.0002999 0.9983171 0.0002999 0.0016829 -0.0002999
694500000 0.0016940 0.0004244 0.9983060 -0.0004244 0.9983060 -0.0004244 0.0016940 0.0004244
701750000 0.0017064 0.0011418 0.9982936 -0.0011418 0.9982936 -0.0011418 0.0017064 0.0011418
709000000 0.0017200 0.0018526 0.9982800 -0.0018526 0.9982800 -0.0018526 0.0017200 0.0018526
716250000 0.0017347 0.0025570 0.9982653 -0.0025570 0.9982653 -0.0025570 0.0017347 0.0025570
723500000 0.0017506 0.0032552 0.9982494 -0.0032552 0.9982494 -0.0032552 0.0017506 0.0032552
730750000 0.0017676 0.0039475 0.9982324 -0.0039475 0.9982324 -0.0039475 0.0017676 0.0039475
738000000 0.0017856 0.0046340 0.9982144 -0.0046340 0.9982144 -0.0046340 0.0017856 0.0046340
745250000 0.0018047 0.0053149 0.9981953 -0.0053149 0.9981953 -0.0053149 0.0018047 0.0053149
752500000 0.0018249 0.0059904 0.9981751 -0.0059904 0.9981751 -0.0059904 0.0018249 0.0059904
759750000 0.0018461 0.0066607 0.9981539 -0.0066607 0.9981539 -0.0066607 0.0018461 0.0066607
767000000 0.0018684 0.0073260 0.9981316 -0.0073260 0.9981316 -0.0073260 0.0018684 0.0073260
774250000 0.0018916 0.0079864 0.9981084 -0.0079864 0.9981084 -0.0079864 0.0018916 0.0079864
781500000 0.0019159 0.0086420 0.9980841 -0.0086420 0.9980841 -0.0086420 0.0019159 0.0086420
788750000 0.0019411 0.0092931 0.9980589 -0.0092931 0.9980589 -0.0092931 0.0019411 0.0092931
796000000 0.0019673 0.0099397 0.9980327 -0.0099397 0.9980327 -0.0099397 0.0019673 0.0099397
803250000 0.0019945 0.0105821 0.9980055 -0.0105821 0.9980055 -0.0105821 0.0019945 0.0105821
810500000 0.0020226 0.0112203 0.9979774 -0.0112203 0.9979774 -0.0112203 0.0020226 0.0112203
817750000 0.0020516 0.0118545 0.9979484 -0.0118545 0.9979484 -0.0118545 0.0020516 0.0118545
825000000 0.0020816 0.0124849 0.9979184 -0.0124849 0.9979184 -0.0124849 0.0020816 0.0124849
832250000 0.0021125 0.0131115 0.9978875 -0.0131115 0.9978875 -0.0131115 0.0021125 0.0131115
839500000 0.0021443 0.0137344 0.9978557 -0.0137344 0.9978557 -0.0137344 0.0021443 0.0137344
846750000 0.0021771 0.0143539 0.9978229 -0.0143539 0.9978229 -0.0143539 0.0021771 0.0143539
854000000 0.0022107 0.0149699 0.9977893 -0.0149699 0.9977893 -0.0149699 0.0022107 0.0149699
861250000 0.0022453 0.0155827 0.9977547 -0.0155827 0.9977547 -0.0155827 0.0022453 0.0155827
868500000 0.0022807 0.0161923 0.9977193 -0.0161923 0.9977193 -0.0161923 0.0022807 0.0161923
875750000 0.0023170 0.0167988 0.9976830 -0.0167988 0.9976830 -0.0167988 0.0023170 0.0167988
883000000 0.0023543 0.0174023 0.9976457 -0.0174023 0.9976457 -0.0174023 0.0023543 0.0174023
890250000 0.0023924 0.0180030 0.9976076 -0.0180030 0.9976076 -0.0180030 0.0023924 0.0180030
897500000 0.0024314 0.0186009 0.9975686 -0.0186009 0.9975686 -0.0186009 0.0024314 0.0186009
904750000 0.0024714 0.0191962 0.9975286 -0.0191962 0.9975286 -0.0191962 0.0024714 0.0191962
912000000 0.0025122 0.0197888 0.9974878 -0.0197888 0.9974878 -0.0197888 0.0025122 0.0197888
919250000 0.0025539 0.0203790 0.9974461 -0.0203790 0.9974461 -0.0203790 0.0025539 0.0203790
926500000 0.0025964 0.0209668 0.9974036 -0.0209668 0.9974036 -0.0209668 0.0025964 0.0209668
933750000 0.0026399 0.0215522 0.9973601 -0.0215522 0.9973601 -0.0215522 0.0026399 0.0215522
941000000 0.0026843 0.0221354 0.9973157 -0.0221354 0.9973157 -0.0221354 0.0026843 0.0221354
948250000 0.0027296 0.0227164 0.9972704 -0.0227164 0.9972704 -0.0227164 0.0027296 0.0227164
955500000 0.0027758 0.0232954 0.9972242 -0.0232954 0.9972242 -0.0232954 0.0027758 0.0232954
962750000 0.0028228 0.0238724 0.9971772 -0.0238724 0.9971772 -0.0238724 0.0028228 0.0238724
970000000 0.0028708 0.0244474 0.9971292 -0.0244474 0.9971292 -0.0244474 0.0028708 0.0244474
977250000 0.0029197 0.0250206 0.9970803 -0.0250206 0.9970803 -0.0250206 0.0029197 0.0250206
984500000 0.0029696 0.0255921 0.9970304 -0.0255921 0.9970304 -0.0255921 0.0029696 0.0255921
991750000 0.0030203 0.0261618 0.9969797 -0.0261618 0.9969797 -0.0261618 0.0030203 0.0261618
999000000 0.0030720 0.0267299 0.9969280 -0.0267299 0.9969280 -0.0267299 0.0030720 0.0267299
1006250000 0.0031247 0.0272964 0.9968753 -0.0272964 0.9968753 -0.0272964 0.0031247 0.0272964
1013500000 0.0031783 0.0278615 0.9968217 -0.0278615 0.9968217 -0.0278615 0.0031783 0.0278615
1020750000 0.0032328 0.0284251 0.9967672 -0.0284251 0.9967672 -0.0284251 0.0032328 0.0284251
1028000000 0.0032884 0.0289874 0.9967116 -0.0289874 0.9967116 -0.0289874 0.0032884 0.0289874
1035250000 0.0033449 0.0295483 0.9966551 -0.0295483 0.9966551 -0.0295483 0.0033449 0.0295483
1042500000 0.0034024 0.0301081 0.9965976 -0.0301081 0.9965976 -0.0301081 0.0034024 0.0301081
1049750000 0.0034609 0.0306666 0.9965391 -0.0306666 0.9965391 -0.0306666 0.0034609 0.0306666
1057000000 0.0035204 0.0312241 0.9964796 -0.0312241 0.9964796 -0.0312241 0.0035204 0.0312241
1064250000 0.0035810 0.0317805 0.9964190 -0.0317805 0.9964190 -0.0317805 0.0035810 0.0317805
1071500000 0.0036426 0.0323359 0.9963574 -0.0323359 0.9963574 -0.0323359 0.0036426 0.0323359
1078750000 0.0037052 0.0328904 0.9962948 -0.0328904 0.9962948 -0.0328904 0.0037052 0.0328904
1086000000 0.0037690 0.0334441 0.9962310 -0.0334441 0.9962310 -0.0334441 0.0037690 0.0334441
1093250000 0.0038338 0.0339969 0.9961662 -0.0339969 0.9961662 -0.0339969 0.0038338 0.0339969
1100500000 0.0038997 0.0345490 0.9961003 -0.0345490 0.9961003 -0.0345490 0.0038997 0.0345490
1107750000 0.0039668 0.0351004 0.9960332 -0.0351004 0.9960332 -0.0351004 0.0039668 0.0351004
1115000000 0.0040350 0.0356512 0.9959650 -0.0356512 0.9959650 -0.0356512 0.0040350 0.0356512
1122250000 0.0041044 0.0362014 0.9958956 -0.0362014 0.9958956 -0.0362014 0.0041044 0.0362014
1129500000 0.0041749 0.0367511 0.9958251 -0.0367511 0.9958251 -0.0367511 0.0041749 0.0367511
1136750000 0.0042467 0.0373003 0.9957533 -0.0373003 0.9957533 -0.0373003 0.0042467 0.0373003
1144000000 0.0043198 0.0378491 0.9956802 -0.0378491 0.9956802 -0.0378491 0.0043198 0.0378491
1151250000 0.0043940 0.0383976 0.9956060 -0.0383976 0.9956060 -0.0383976 0.0043940 0.0383976
1158500000 0.0044696 0.0389458 0.9955304 -0.0389458 0.9955304 -0.0389458 0.0044696 0.0389458
1165750000 0.0045465 0.0394937 0.9954535 -0.0394937 0.9954535 -0.0394937 0.0045465 0.0394937
1173000000 0.0046248 0.0400415 0.9953752 -0.0400415 0.9953752 -0.0400415 0.0046248 0.0400415
1180250000 0.0047044 0.0405891 0.9952956 -0.0405891 0.9952956 -0.0405891 0.0047044 0.0405891
1187500000 0.0047854 0.0411367 0.9952146 -0.0411367 0.9952146 -0.0411367 0.0047854 0.0411367
1194750000 0.0048679 0.0416842 0.9951321 -0.0416842 0.9951321 -0.0416842 0.0048679 0.0416842
1202000000 0.0049519 0.0422318 0.9950481 -0.0422318 0.9950481 -0.0422318 0.0049519 0.0422318
1209250000 0.0050374 0.0427795 0.9949626 -0.0427795 0.9949626 -0.0427795 0.0050374 0.0427795
1216500000 0.0051245 0.0433274 0.9948755 -0.0433274 0.9948755 -0.0433274 0.0051245 0.0433274
1223750000 0.0052132 0.0438754 0.9947868 -0.0438754 0.9947868 -0.0438754 0.0052132 0.0438754
1231000000 0.0053035 0.0444238 0.9946965 -0.0444238 0.9946965 -0.0444238 0.0053035 0.0444238
1238250000 0.0053955 0.0449724 0.9946045 -0.0449724 0.9946045 -0.0449724 0.0053955 0.0449724
1245500000 0.0054893 0.0455215 0.9945107 -0.0455215 0.9945107 -0.0455215 0.0054893 0.0455215
1252750000 0.0055849 0.0460710 0.9944151 -0.0460710 0.9944151 -0.0460710 0.0055849 0.0460710
1260000000 0.0056823 0.0466210 0.9943177 -0.0466210 0.9943177 -0.0466210 0.0056823 0.0466210
1267250000 0.0057817 0.0471715 0.9942183 -0.0471715 0.9942183 -0.0471715 0.0057817 0.0471715
1274500000 0.0058830 0.0477227 0.9941170 -0.0477227 0.9941170 -0.0477227 0.0058830 0.0477227
1281750000 0.0059864 0.0482746 0.9940136 -0.0482746 0.9940136 -0.0482746 0.0059864 0.0482746
1289000000 0.0060919 0.0488272 0.9939081 -0.0488272 0.9939081 -0.0488272 0.0060919 0.0488272
1296250000 0.0061996 0.0493806 0.9938004 -0.0493806 0.9938004 -0.0493806 0.0061996 0.0493806
1303500000 0.0063096 0.0499348 0.9936904 -0.0499348 0.9936904 -0.0499348 0.0063096 0.0499348
1310750000 0.0064220 0.0504900 0.9935780 -0.0504900 0.9935780 -0.0504900 0.0064220 0.0504900
1318000000 0.0065367 0.0510462 0.9934633 -0.0510462 0.9934633 -0.0510462 0.0065367 0.0510462
1325250000 0.0066540 0.0516034 0.9933460 -0.0516034 0.9933460 -0.0516034 0.0066540 0.0516034
1332500000 0.0067740 0.0521617 0.9932260 -0.0521617 0.9932260 -0.0521617 0.0067740 0.0521617
1339750000 0.0068967 0.0527213 0.9931033 -0.0527213 0.9931033 -0.0527213 0.0068967 0.0527213
1347000000 0.0070222 0.0532820 0.9929778 -0.0532820 0.9929778 -0.0532820 0.0070222 0.0532820
1354250000 0.0071507 0.0538441 0.9928493 -0.0538441 0.9928493 -0.0538441 0.0071507 0.0538441
1361500000 0.0072823 0.0544075 0.9927177 -0.0544075 0.9927177 -0.0544075 0.0072823 0.0544075
1368750000 0.0074171 0.0549724 0.9925829 -0.0549724 0.9925829 -0.0549724 0.0074171 0.0549724
1376000000 0.0075553 0.0555388 0.9924447 -0.0555388 0.9924447 -0.0555388 0.0075553 0.0555388
1383250000 0.0076970 0.0561067 0.9923030 -0.0561067 0.9923030 -0.0561067 0.0076970 0.0561067
1390500000 0.0078424 0.0566763 0.9921576 -0.0566763 0.9921576 -0.0566763 0.0078424 0.0566763
1397750000 0.0079917 0.0572475 0.9920083 -0.0572475 0.9920083 -0.0572475 0.0079917 0.0572475
1405000000 0.0081450 0.0578205 0.9918550 -0.0578205 0.9918550 -0.0578205 0.0081450 0.0578205
1412250000 0.0083025 0.0583954 0.9916975 -0.0583954 0.9916975 -0.0583954 0.0083025 0.0583954
1419500000 0.0084645 0.0589721 0.9915355 -0.0589721 0.9915355 -0.0589721 0.0084645 0.0589721
1426750000 0.0086312 0.0595507 0.9913688 -0.0595507 0.9913688 -0.0595507 0.0086312 0.0595507
1434000000 0.0088027 0.0601313 0.9911973 -0.0601313 0.9911973 -0.0601313 0.0088027 0.0601313
1441250000 0.0089795 0.0607139 0.9910205 -0.0607139 0.9910205 -0.0607139 0.0089795 0.0607139
1448500000 0.0091617 0.0612986 0.9908383 -0.0612986 0.9908383 -0.0612986 0.0091617 0.0612986
1455750000 0.0093496 0.0618855 0.9906504 -0.0618855 0.9906504 -0.0618855 0.0093496 0.0618855
1463000000 0.0095436 0.0624745 0.9904564 -0.0624745 0.9904564 -0.0624745 0.0095436 0.0624745
1470250000 0.0097440 0.0630656 0.9902560 -0.0630656 0.9902560 -0.0630656 0.0097440 0.0630656
1477500000 0.0099511 0.0636590 0.9900489 -0.0636590 0.9900489 -0.0636590 0.0099511 0.0636590
1484750000 0.0101654 0.0642546 0.9898346 -0.0642546 0.9898346 -0.0642546 0.0101654 0.0642546
1492000000 0.0103873 0.0648523 0.9896127 -0.0648523 0.9896127 -0.0648523 0.0103873 0.0648523
1499250000 0.0106172 0.0654523 0.9893828 -0.0654523 0.9893828 -0.0654523 0.0106172 0.0654523
1506500000 0.0108556 0.0660543 0.9891444 -0.0660543 0.9891444 -0.0660543 0.0108556 0.0660543
1513750000 0.0111030 0.0666584 0.9888970 -0.0666584 0.9888970 -0.0666584 0.0111030 0.0666584
1521000000 0.0113599 0.0672645 0.9886401 -0.0672645 0.9886401 -0.0672645 0.0113599 0.0672645
1528250000 0.0116271 0.0678725 0.9883729 -0.0678725 0.9883729 -0.0678725 0.0116271 0.0678725
1535500000 0.0119050 0.0684821 0.9880950 -0.0684821 0.9880950 -0.0684821 0.0119050 0.0684821
1542750000 0.0121945 0.0690933 0.9878055 -0.0690933 0.9878055 -0.0690933 0.0121945 0.0690933
1550000000 0.0124962 0.0697058 0.9875038 -0.0697058 0.9875038 -0.0697058 0.0124962 0.0697058
1557250000 0.0128109 0.0703192 0.9871891 -0.0703192 0.9871891 -0.0703192 0.0128109 0.0703192
1564500000 0.0131394 0.0709333 0.9868606 -0.0709333 0.9868606 -0.0709333 0.0131394 0.0709333
1571750000 0.0134827 0.0715475 0.9865173 -0.0715475 0.9865173 -0.0715475 0.0134827 0.0715475
1579000000 0.0138418 0.0721614 0.9861582 -0.0721614 0.9861582 -0.0721614 0.0138418 0.0721614
1586250000 0.0142175 0.0727743 0.9857825 -0.0727743 0.9857825 -0.0727743 0.0142175 0.0727743
1593500000 0.0146111 0.0733856 0.9853889 -0.0733856 0.9853889 -0.0733856 0.0146111 0.0733856
1600750000 0.0150235 0.0739943 0.9849765 -0.0739943 0.9849765 -0.0739943 0.0150235 0.0739943
1608000000 0.0154561 0.0745994 0.9845439 -0.0745994 0.9845439 -0.0745994 0.0154561 0.0745994
1615250000 0.0159099 0.0751998 0.9840901 -0.0751998 0.9840901 -0.0751998 0.0159099 0.0751998
1622500000 0.0163864 0.0757939 0.9836136 -0.0757939 0.9836136 -0.0757939 0.0163864 0.0757939
1629750000 0.0168867 0.0763802 0.9831133 -0.0763802 0.9831133 -0.0763802 0.0168867 0.0763802
