!  American Technical Ceramics  Date:    3/13/98
!  One Norden Lane
!  Huntington Station,  NY.   11746-2102
!  Tel:  (516) 547-5700               Fax:  (516) 547-5748
!  Part Number  100A6R8B
!  Description: Porcelain, High Q, Low ESR
!  Application: Bypass, Coupling, Timing, Feedback
!               Tuning, Impedance Match, Blocking
# GHZ S DB R 50
! Freq   |S11|   S11 Ph  |S21|   S21 Ph  |S12|   S12 Ph  |S22|   S22 Ph
    0.05   -0.09  -11.91  -13.58   78.13  -13.58   78.13   -0.09  -11.91
    0.14   -1.28  -30.98   -5.82   59.08   -5.82   59.08   -1.28  -30.98
    0.23   -2.93  -44.90   -3.03   45.57   -3.03   45.57   -2.93  -44.90
    0.32   -4.55  -54.58   -1.80   35.90   -1.80   35.90   -4.55  -54.58
    0.41   -6.11  -61.24   -1.17   29.45   -1.17   29.45   -6.11  -61.24
    0.50   -7.51  -66.13   -0.82   24.66   -0.82   24.66   -7.51  -66.13
    0.59   -9.00  -70.11   -0.59   20.61   -0.59   20.61   -9.00  -70.11
    0.68  -10.14  -72.88   -0.46   18.12   -0.46   18.12  -10.14  -72.88
    0.77  -11.20  -75.00   -0.33   15.84   -0.33   15.84  -11.20  -75.00
    0.86  -12.15  -76.78   -0.28   14.14   -0.28   14.14  -12.15  -76.78
    0.95  -13.07  -78.42   -0.22   12.72   -0.22   12.72  -13.07  -78.42
    1.04  -13.90  -79.92   -0.19   11.40   -0.19   11.40  -13.90  -79.92
    1.13  -14.68  -81.10   -0.16   10.38   -0.16   10.38  -14.68  -81.10
    1.22  -15.43  -81.70   -0.15    9.61   -0.15    9.61  -15.43  -81.70
    1.31  -16.15  -82.54   -0.11    8.81   -0.11    8.81  -16.15  -82.54
    1.40  -16.86  -83.29   -0.09    8.05   -0.09    8.05  -16.86  -83.29
    1.49  -17.57  -84.35   -0.07    7.40   -0.07    7.40  -17.57  -84.35
    1.58  -18.20  -85.11   -0.06    6.80   -0.06    6.80  -18.20  -85.11
    1.67  -18.90  -85.65   -0.08    6.23   -0.08    6.23  -18.90  -85.65
    1.76  -19.59  -85.90   -0.05    5.76   -0.05    5.76  -19.59  -85.90
    1.85  -20.25  -86.39   -0.04    5.35   -0.04    5.35  -20.25  -86.39
    1.93  -20.95  -86.33   -0.05    5.04   -0.05    5.04  -20.95  -86.33
    2.02  -21.58  -86.40   -0.03    4.36   -0.03    4.36  -21.58  -86.40
    2.11  -22.32  -86.30   -0.05    4.16   -0.05    4.16  -22.32  -86.30
    2.20  -23.05  -86.55   -0.06    3.93   -0.06    3.93  -23.05  -86.55
    2.29  -23.72  -86.64   -0.03    3.45   -0.03    3.45  -23.72  -86.64
    2.38  -24.45  -86.26   -0.05    3.17   -0.05    3.17  -24.45  -86.26
    2.47  -25.33  -86.28   -0.03    2.86   -0.03    2.86  -25.33  -86.28
    2.56  -26.08  -85.31   -0.03    2.51   -0.03    2.51  -26.08  -85.31
    2.65  -26.95  -85.26   -0.04    2.45   -0.04    2.45  -26.95  -85.26
    2.74  -27.83  -84.84   -0.02    2.07   -0.02    2.07  -27.83  -84.84
    2.83  -28.71  -83.85   -0.02    1.89   -0.02    1.89  -28.71  -83.85
    2.92  -29.82  -84.01   -0.03    1.64   -0.03    1.64  -29.82  -84.01
    3.01  -30.76  -82.52   -0.03    1.36   -0.03    1.36  -30.76  -82.52
    3.10  -32.02  -80.30   -0.04    1.08   -0.04    1.08  -32.02  -80.30
    3.19  -32.89  -77.79   -0.06    0.85   -0.06    0.85  -32.89  -77.79
    3.28  -34.23  -75.05   -0.01    0.57   -0.01    0.57  -34.23  -75.05
    3.37  -35.27  -71.16   -0.05    0.54   -0.05    0.54  -35.27  -71.16
    3.46  -36.62  -66.62   -0.06    0.39   -0.06    0.39  -36.62  -66.62
    3.55  -37.41  -60.53   -0.04    0.19   -0.04    0.19  -37.41  -60.53
    3.64  -38.92  -52.49   -0.04    0.03   -0.04    0.03  -38.92  -52.49
    3.73  -39.64  -47.28   -0.04   -0.38   -0.04   -0.38  -39.64  -47.28
    3.82  -40.42  -37.14   -0.04   -0.31   -0.04   -0.31  -40.42  -37.14
    3.91  -40.85  -30.33   -0.06   -0.57   -0.06   -0.57  -40.85  -30.33
    4.00  -42.60   -9.20   -0.05   -0.80   -0.05   -0.80  -42.60   -9.20
    4.09  -42.91    0.36   -0.06   -0.83   -0.06   -0.83  -42.91    0.36
    4.18  -42.45   12.26   -0.06   -0.98   -0.06   -0.98  -42.45   12.26
    4.27  -42.50   18.11   -0.08   -1.04   -0.08   -1.04  -42.50   18.11
    4.36  -41.81   34.69   -0.09   -1.36   -0.09   -1.36  -41.81   34.69
    4.45  -41.05   39.83   -0.06   -1.44   -0.06   -1.44  -41.05   39.83
    4.54  -40.00   46.03   -0.05   -1.58   -0.05   -1.58  -40.00   46.03
    4.63  -39.32   50.08   -0.08   -1.73   -0.08   -1.73  -39.32   50.08
    4.72  -38.14   56.11   -0.07   -1.94   -0.07   -1.94  -38.14   56.11
    4.81  -37.86   54.79   -0.08   -2.05   -0.08   -2.05  -37.86   54.79
    4.90  -37.08   59.22   -0.07   -2.12   -0.07   -2.12  -37.08   59.22
    4.99  -36.38   62.34   -0.10   -2.29   -0.10   -2.29  -36.38   62.34
    5.08  -35.34   63.86   -0.08   -2.53   -0.08   -2.53  -35.34   63.86
    5.17  -34.77   65.23   -0.10   -2.48   -0.10   -2.48  -34.77   65.23
    5.26  -34.33   66.23   -0.09   -2.69   -0.09   -2.69  -34.33   66.23
    5.35  -33.75   66.45   -0.09   -2.95   -0.09   -2.95  -33.75   66.45
    5.44  -33.33   67.61   -0.10   -3.05   -0.10   -3.05  -33.33   67.61
    5.52  -32.54   68.41   -0.09   -3.07   -0.09   -3.07  -32.54   68.41
    5.61  -31.94   68.45   -0.09   -3.24   -0.09   -3.24  -31.94   68.45
    5.70  -31.26   70.98   -0.11   -3.40   -0.11   -3.40  -31.26   70.98
    5.79  -30.57   71.01   -0.13   -3.56   -0.13   -3.56  -30.57   71.01
    5.88  -29.83   71.42   -0.12   -3.52   -0.12   -3.52  -29.83   71.42
    5.97  -29.10   70.78   -0.13   -3.81   -0.13   -3.81  -29.10   70.78
    6.06  -28.44   69.12   -0.13   -4.04   -0.13   -4.04  -28.44   69.12
    6.15  -27.93   69.78   -0.14   -4.13   -0.14   -4.13  -27.93   69.78
    6.24  -27.31   69.66   -0.13   -4.35   -0.13   -4.35  -27.31   69.66
    6.33  -26.81   68.91   -0.14   -4.42   -0.14   -4.42  -26.81   68.91
    6.42  -26.19   67.25   -0.15   -4.62   -0.15   -4.62  -26.19   67.25
    6.51  -25.48   67.30   -0.14   -4.78   -0.14   -4.78  -25.48   67.30
    6.60  -24.77   66.22   -0.16   -4.94   -0.16   -4.94  -24.77   66.22
    6.69  -24.12   65.99   -0.16   -5.10   -0.16   -5.10  -24.12   65.99
    6.78  -23.49   64.15   -0.19   -5.16   -0.19   -5.16  -23.49   64.15
    6.87  -22.93   63.90   -0.18   -5.39   -0.18   -5.39  -22.93   63.90
    6.96  -22.40   61.83   -0.20   -5.59   -0.20   -5.59  -22.40   61.83
    7.05  -21.95   62.21   -0.23   -5.73   -0.23   -5.73  -21.95   62.21
    7.14  -21.34   60.80   -0.23   -5.68   -0.23   -5.68  -21.34   60.80
    7.23  -20.88   59.64   -0.23   -6.03   -0.23   -6.03  -20.88   59.64
    7.32  -20.47   58.31   -0.27   -6.14   -0.27   -6.14  -20.47   58.31
    7.41  -20.01   56.58   -0.27   -6.28   -0.27   -6.28  -20.01   56.58
    7.50  -19.68   56.62   -0.29   -6.30   -0.29   -6.30  -19.68   56.62
    7.59  -19.20   55.54   -0.31   -6.57   -0.31   -6.57  -19.20   55.54
    7.68  -19.12   56.40   -0.34   -6.44   -0.34   -6.44  -19.12   56.40
    7.77  -18.60   55.13   -0.30   -6.44   -0.30   -6.44  -18.60   55.13
    7.86  -18.47   56.42   -0.37   -6.60   -0.37   -6.60  -18.47   56.42
    7.95  -18.01   55.40   -0.35   -6.77   -0.35   -6.77  -18.01   55.40
    8.04  -17.81   56.51   -0.34   -7.05   -0.34   -7.05  -17.81   56.51
    8.13  -17.24   55.86   -0.35   -7.05   -0.35   -7.05  -17.24   55.86
    8.22  -17.02   56.92   -0.37   -7.08   -0.37   -7.08  -17.02   56.92
    8.31  -16.73   56.98   -0.40   -7.21   -0.40   -7.21  -16.73   56.98
    8.40  -16.38   56.57   -0.37   -7.36   -0.37   -7.36  -16.38   56.57
    8.49  -16.01   57.99   -0.38   -7.57   -0.38   -7.57  -16.01   57.99
    8.58  -15.74   57.68   -0.39   -7.38   -0.39   -7.38  -15.74   57.68
    8.67  -15.56   58.04   -0.42   -7.86   -0.42   -7.86  -15.56   58.04
    8.76  -15.19   56.65   -0.38   -8.01   -0.38   -8.01  -15.19   56.65
    8.85  -14.98   57.96   -0.41   -8.03   -0.41   -8.03  -14.98   57.96
    8.94  -14.70   57.14   -0.44   -8.28   -0.44   -8.28  -14.70   57.14
    9.03  -14.42   57.24   -0.44   -8.56   -0.44   -8.56  -14.42   57.24
    9.11  -14.18   57.25   -0.43   -8.58   -0.43   -8.58  -14.18   57.25
    9.20  -13.87   57.44   -0.45   -9.02   -0.45   -9.02  -13.87   57.44
    9.29  -13.74   57.40   -0.49   -9.21   -0.49   -9.21  -13.74   57.40
    9.38  -13.38   56.89   -0.54   -9.42   -0.54   -9.42  -13.38   56.89
    9.47  -13.13   57.85   -0.52   -9.66   -0.52   -9.66  -13.13   57.85
    9.56  -12.79   57.40   -0.55  -10.04   -0.55  -10.04  -12.79   57.40
    9.65  -12.58   57.15   -0.57  -10.33   -0.57  -10.33  -12.58   57.15
    9.74  -12.32   56.39   -0.62  -10.65   -0.62  -10.65  -12.32   56.39
    9.83  -11.83   56.18   -0.59  -11.51   -0.59  -11.51  -11.83   56.18
    9.92  -11.59   55.28   -0.68  -11.92   -0.68  -11.92  -11.59   55.28
   10.01  -11.04   53.24   -0.79  -12.95   -0.79  -12.95  -11.04   53.24
   10.10  -10.54   51.46   -0.92  -13.85   -0.92  -13.85  -10.54   51.46
   10.19   -9.82   48.76   -1.07  -15.35   -1.07  -15.35   -9.82   48.76
   10.28   -9.09   44.49   -1.41  -16.69   -1.41  -16.69   -9.09   44.49
   10.37   -8.13   36.59   -2.04  -18.10   -2.04  -18.10   -8.13   36.59
   10.46   -7.27   24.21   -3.18  -17.87   -3.18  -17.87   -7.27   24.21
   10.55   -7.30    4.58   -4.49   -8.34   -4.49   -8.34   -7.30    4.58
   10.64   -9.15  -16.79   -3.77    6.50   -3.77    6.50   -9.15  -16.79
   10.73  -12.83  -32.00   -2.15    9.49   -2.15    9.49  -12.83  -32.00
   10.82  -17.23  -32.63   -1.28    7.12   -1.28    7.12  -17.23  -32.63
   10.91  -21.55  -22.27   -0.81    4.59   -0.81    4.59  -21.55  -22.27
   11.00  -24.09    5.13   -0.59    2.68   -0.59    2.68  -24.09    5.13
   11.09  -24.25   28.83   -0.46    1.04   -0.46    1.04  -24.25   28.83
   11.18  -22.87   44.10   -0.40   -0.19   -0.40   -0.19  -22.87   44.10
   11.27  -21.75   51.73   -0.36   -1.02   -0.36   -1.02  -21.75   51.73
   11.36  -20.59   55.23   -0.33   -1.85   -0.33   -1.85  -20.59   55.23
   11.45  -19.86   59.04   -0.33   -2.57   -0.33   -2.57  -19.86   59.04
   11.54  -19.24   60.01   -0.31   -2.92   -0.31   -2.92  -19.24   60.01
   11.63  -18.77   61.77   -0.31   -3.55   -0.31   -3.55  -18.77   61.77
   11.72  -18.37   61.58   -0.28   -3.99   -0.28   -3.99  -18.37   61.58
   11.81  -18.01   62.84   -0.28   -4.29   -0.28   -4.29  -18.01   62.84
   11.90  -17.71   61.81   -0.26   -4.58   -0.26   -4.58  -17.71   61.81
   11.99  -17.34   62.76   -0.28   -4.83   -0.28   -4.83  -17.34   62.76
   12.08  -17.20   62.16   -0.29   -5.39   -0.29   -5.39  -17.20   62.16
   12.17  -17.03   61.35   -0.31   -5.71   -0.31   -5.71  -17.03   61.35
   12.26  -16.78   60.56   -0.30   -5.88   -0.30   -5.88  -16.78   60.56
   12.35  -16.56   59.89   -0.28   -6.05   -0.28   -6.05  -16.56   59.89
   12.44  -16.43   60.01   -0.30   -6.65   -0.30   -6.65  -16.43   60.01
   12.53  -16.16   58.28   -0.30   -6.66   -0.30   -6.66  -16.16   58.28
   12.62  -15.98   58.48   -0.31   -7.03   -0.31   -7.03  -15.98   58.48
   12.70  -15.69   57.79   -0.31   -7.04   -0.31   -7.04  -15.69   57.79
   12.79  -15.50   56.84   -0.32   -7.70   -0.32   -7.70  -15.50   56.84
   12.88  -15.20   56.21   -0.31   -7.65   -0.31   -7.65  -15.20   56.21
   12.97  -14.98   55.28   -0.34   -7.97   -0.34   -7.97  -14.98   55.28
   13.06  -14.78   55.75   -0.36   -8.11   -0.36   -8.11  -14.78   55.75
   13.15  -14.61   53.17   -0.35   -8.36   -0.35   -8.36  -14.61   53.17
   13.24  -14.25   53.91   -0.35   -8.42   -0.35   -8.42  -14.25   53.91
   13.33  -14.03   52.52   -0.39   -8.90   -0.39   -8.90  -14.03   52.52
   13.42  -13.96   53.28   -0.43   -9.27   -0.43   -9.27  -13.96   53.28
   13.51  -13.55   51.11   -0.39   -9.44   -0.39   -9.44  -13.55   51.11
   13.60  -13.34   52.19   -0.42   -9.71   -0.42   -9.71  -13.34   52.19
   13.69  -13.01   51.57   -0.47   -9.74   -0.47   -9.74  -13.01   51.57
   13.78  -12.95   50.78   -0.50  -10.51   -0.50  -10.51  -12.95   50.78
   13.87  -12.44   50.41   -0.51  -10.24   -0.51  -10.24  -12.44   50.41
   13.96  -12.12   51.29   -0.51   -9.99   -0.51   -9.99  -12.12   51.29
   14.05  -11.96   51.15   -0.55  -10.56   -0.55  -10.56  -11.96   51.15
   14.14  -11.78   49.98   -0.54  -11.10   -0.54  -11.10  -11.78   49.98
   14.23  -11.37   50.02   -0.54  -10.94   -0.54  -10.94  -11.37   50.02
   14.32  -11.14   50.52   -0.62  -11.05   -0.62  -11.05  -11.14   50.52
   14.41  -11.07   49.70   -0.64  -11.53   -0.64  -11.53  -11.07   49.70
   14.50  -10.86   49.24   -0.68  -12.01   -0.68  -12.01  -10.86   49.24
   14.59  -10.57   48.52   -0.67  -12.05   -0.67  -12.05  -10.57   48.52
   14.68  -10.41   48.92   -0.67  -12.07   -0.67  -12.07  -10.41   48.92
   14.77  -10.30   48.88   -0.72  -12.24   -0.72  -12.24  -10.30   48.88
   14.86  -10.12   48.60   -0.76  -12.38   -0.76  -12.38  -10.12   48.60
   14.95   -9.87   48.78   -0.75  -12.48   -0.75  -12.48   -9.87   48.78
   15.04   -9.85   50.42   -0.84  -12.27   -0.84  -12.27   -9.85   50.42
   15.13   -9.72   50.10   -0.88  -12.15   -0.88  -12.15   -9.72   50.10
   15.22   -9.51   49.43   -0.88  -12.72   -0.88  -12.72   -9.51   49.43
   15.31   -9.33   51.32   -0.87  -11.94   -0.87  -11.94   -9.33   51.32
   15.40   -9.23   50.57   -0.97  -12.35   -0.97  -12.35   -9.23   50.57
   15.49   -9.16   50.43   -0.95  -12.38   -0.95  -12.38   -9.16   50.43
   15.58   -8.94   49.36   -0.96  -12.60   -0.96  -12.60   -8.94   49.36
   15.67   -8.97   50.61   -0.92  -12.30   -0.92  -12.30   -8.97   50.61
   15.76   -8.76   50.01   -0.94  -12.47   -0.94  -12.47   -8.76   50.01
   15.85   -8.83   49.63   -1.03  -12.84   -1.03  -12.84   -8.83   49.63
   15.94   -8.57   49.36   -0.97  -12.54   -0.97  -12.54   -8.57   49.36
   16.03   -8.76   49.83   -1.00  -12.34   -1.00  -12.34   -8.76   49.83
   16.12   -8.65   49.27   -1.01  -12.39   -1.01  -12.39   -8.65   49.27
   16.21   -8.63   48.73   -1.05  -12.49   -1.05  -12.49   -8.63   48.73
   16.29   -8.46   49.24   -1.02  -12.45   -1.02  -12.45   -8.46   49.24
   16.38   -8.54   49.75   -0.99  -12.18   -0.99  -12.18   -8.54   49.75
   16.47   -8.44   49.08   -1.03  -12.60   -1.03  -12.60   -8.44   49.08
   16.56   -8.45   49.29   -0.96  -12.40   -0.96  -12.40   -8.45   49.29
   16.65   -8.42   48.57   -1.05  -12.56   -1.05  -12.56   -8.42   48.57
   16.74   -8.45   49.28   -0.95  -12.55   -0.95  -12.55   -8.45   49.28
   16.83   -8.45   48.04   -1.03  -12.71   -1.03  -12.71   -8.45   48.04
   16.92   -8.51   48.30   -1.03  -12.92   -1.03  -12.92   -8.51   48.30
   17.01   -8.41   47.83   -1.04  -13.40   -1.04  -13.40   -8.41   47.83
   17.10   -8.54   48.03   -1.01  -13.19   -1.01  -13.19   -8.54   48.03
   17.19   -8.41   47.95   -1.10  -13.71   -1.10  -13.71   -8.41   47.95
   17.28   -8.59   47.97   -1.10  -13.26   -1.10  -13.26   -8.59   47.97
   17.37   -8.53   48.39   -1.08  -13.48   -1.08  -13.48   -8.53   48.39
   17.46   -8.55   48.12   -1.12  -13.43   -1.12  -13.43   -8.55   48.12
   17.55   -8.44   48.01   -1.09  -13.84   -1.09  -13.84   -8.44   48.01
   17.64   -8.41   47.26   -1.17  -13.91   -1.17  -13.91   -8.41   47.26
   17.73   -8.40   47.26   -1.10  -14.14   -1.10  -14.14   -8.40   47.26
   17.82   -8.35   46.42   -1.14  -14.38   -1.14  -14.38   -8.35   46.42
   17.91   -8.37   46.16   -1.11  -15.28   -1.11  -15.28   -8.37   46.16
   18.00   -8.34   44.89   -1.15  -15.23   -1.15  -15.23   -8.34   44.89
