!  American Technical Ceramics  Date:    3/13/98
!  One Norden Lane
!  Huntington Station,  NY.   11746-2102
!  Tel:  (516) 547-5700               Fax:  (516) 547-5748
!  Part Number  100A1R2B
!  Description: Porcelain, High Q, Low ESR
!  Application: Bypass, Coupling, Timing, Feedback
!               Tuning, Impedance Match, Blocking
# GHZ S DB R 50
! Freq   |S11|   S11 Ph  |S21|   S21 Ph  |S12|   S12 Ph  |S22|   S22 Ph
    0.05    0.00   -1.45  -28.93   87.45  -28.93   87.45    0.00   -1.45
    0.15   -0.01   -6.65  -19.24   83.81  -19.24   83.81   -0.01   -6.65
    0.25   -0.15  -10.88  -14.85   79.40  -14.85   79.40   -0.15  -10.88
    0.35   -0.26  -15.04  -12.02   75.57  -12.02   75.57   -0.26  -15.04
    0.45   -0.42  -19.19  -10.02   71.53  -10.02   71.53   -0.42  -19.19
    0.55   -0.75  -23.70   -8.33   67.01   -8.33   67.01   -0.75  -23.70
    0.65   -1.02  -27.60   -7.12   63.58   -7.12   63.58   -1.02  -27.60
    0.75   -1.28  -30.98   -6.12   60.16   -6.12   60.16   -1.28  -30.98
    0.85   -1.62  -34.70   -5.32   56.75   -5.32   56.75   -1.62  -34.70
    0.95   -1.90  -37.67   -4.67   53.88   -4.67   53.88   -1.90  -37.67
    1.05   -2.22  -40.64   -4.14   51.19   -4.14   51.19   -2.22  -40.64
    1.15   -2.51  -43.50   -3.63   48.47   -3.63   48.47   -2.51  -43.50
    1.25   -2.90  -45.73   -3.20   46.24   -3.20   46.24   -2.90  -45.73
    1.35   -3.26  -48.39   -2.87   44.01   -2.87   44.01   -3.26  -48.39
    1.45   -3.58  -50.63   -2.61   41.86   -2.61   41.86   -3.58  -50.63
    1.55   -3.91  -52.88   -2.36   39.67   -2.36   39.67   -3.91  -52.88
    1.65   -4.26  -54.90   -2.11   37.90   -2.11   37.90   -4.26  -54.90
    1.75   -4.60  -56.77   -1.87   36.40   -1.87   36.40   -4.60  -56.77
    1.85   -5.00  -58.72   -1.70   34.85   -1.70   34.85   -5.00  -58.72
    1.95   -5.38  -60.13   -1.58   33.16   -1.58   33.16   -5.38  -60.13
    2.05   -5.71  -61.73   -1.47   31.67   -1.47   31.67   -5.71  -61.73
    2.14   -6.00  -63.01   -1.31   30.16   -1.31   30.16   -6.00  -63.01
    2.24   -6.39  -64.65   -1.15   29.14   -1.15   29.14   -6.39  -64.65
    2.34   -6.77  -66.16   -1.07   27.79   -1.07   27.79   -6.77  -66.16
    2.44   -7.16  -67.64   -0.99   26.84   -0.99   26.84   -7.16  -67.64
    2.54   -7.48  -68.50   -0.94   25.57   -0.94   25.57   -7.48  -68.50
    2.64   -7.79  -68.82   -0.83   24.44   -0.83   24.44   -7.79  -68.82
    2.74   -8.19  -70.05   -0.76   23.63   -0.76   23.63   -8.19  -70.05
    2.84   -8.61  -71.38   -0.71   22.36   -0.71   22.36   -8.61  -71.38
    2.94   -8.96  -72.99   -0.64   21.61   -0.64   21.61   -8.96  -72.99
    3.04   -9.24  -73.01   -0.63   20.70   -0.63   20.70   -9.24  -73.01
    3.14   -9.61  -73.96   -0.56   19.67   -0.56   19.67   -9.61  -73.96
    3.24   -9.94  -74.69   -0.54   18.99   -0.54   18.99   -9.94  -74.69
    3.34  -10.47  -76.16   -0.49   17.92   -0.49   17.92  -10.47  -76.16
    3.44  -10.74  -77.18   -0.46   17.46   -0.46   17.46  -10.74  -77.18
    3.54  -11.07  -77.21   -0.46   16.65   -0.46   16.65  -11.07  -77.21
    3.64  -11.30  -78.07   -0.41   15.93   -0.41   15.93  -11.30  -78.07
    3.74  -11.77  -78.07   -0.41   15.34   -0.41   15.34  -11.77  -78.07
    3.84  -12.16  -79.80   -0.37   14.65   -0.37   14.65  -12.16  -79.80
    3.94  -12.54  -80.05   -0.38   14.02   -0.38   14.02  -12.54  -80.05
    4.04  -12.79  -81.16   -0.33   13.53   -0.33   13.53  -12.79  -81.16
    4.14  -13.05  -81.57   -0.31   13.02   -0.31   13.02  -13.05  -81.57
    4.24  -13.41  -81.89   -0.31   12.53   -0.31   12.53  -13.41  -81.89
    4.34  -13.83  -83.47   -0.28   11.93   -0.28   11.93  -13.83  -83.47
    4.44  -14.15  -83.74   -0.30   11.55   -0.30   11.55  -14.15  -83.74
    4.54  -14.45  -83.93   -0.31   10.89   -0.31   10.89  -14.45  -83.93
    4.64  -14.68  -84.00   -0.25   10.63   -0.25   10.63  -14.68  -84.00
    4.74  -14.97  -83.88   -0.27   10.32   -0.27   10.32  -14.97  -83.88
    4.84  -15.39  -84.86   -0.27    9.83   -0.27    9.83  -15.39  -84.86
    4.94  -15.65  -85.07   -0.27    9.49   -0.27    9.49  -15.65  -85.07
    5.04  -16.07  -85.62   -0.27    8.99   -0.27    8.99  -16.07  -85.62
    5.14  -16.22  -85.89   -0.23    8.42   -0.23    8.42  -16.22  -85.89
    5.24  -16.68  -85.81   -0.22    8.39   -0.22    8.39  -16.68  -85.81
    5.34  -16.96  -86.35   -0.22    8.06   -0.22    8.06  -16.96  -86.35
    5.44  -17.44  -86.14   -0.23    7.59   -0.23    7.59  -17.44  -86.14
    5.54  -17.65  -86.90   -0.24    7.12   -0.24    7.12  -17.65  -86.90
    5.64  -18.01  -86.59   -0.22    6.91   -0.22    6.91  -18.01  -86.59
    5.74  -18.31  -87.65   -0.21    6.59   -0.21    6.59  -18.31  -87.65
    5.84  -18.86  -87.12   -0.20    6.38   -0.20    6.38  -18.86  -87.12
    5.94  -19.31  -88.31   -0.21    5.96   -0.21    5.96  -19.31  -88.31
    6.04  -19.80  -88.26   -0.20    5.66   -0.20    5.66  -19.80  -88.26
    6.13  -20.17  -88.50   -0.21    5.31   -0.21    5.31  -20.17  -88.50
    6.23  -20.82  -88.01   -0.21    5.00   -0.21    5.00  -20.82  -88.01
    6.33  -21.45  -88.02   -0.19    4.80   -0.19    4.80  -21.45  -88.02
    6.43  -22.29  -87.68   -0.21    4.55   -0.21    4.55  -22.29  -87.68
    6.53  -22.95  -87.46   -0.20    4.00   -0.20    4.00  -22.95  -87.46
    6.63  -23.85  -85.19   -0.21    3.83   -0.21    3.83  -23.85  -85.19
    6.73  -24.74  -82.58   -0.21    3.50   -0.21    3.50  -24.74  -82.58
    6.83  -25.95  -78.64   -0.23    3.18   -0.23    3.18  -25.95  -78.64
    6.93  -26.69  -74.36   -0.24    2.98   -0.24    2.98  -26.69  -74.36
    7.03  -27.85  -68.80   -0.24    2.78   -0.24    2.78  -27.85  -68.80
    7.13  -28.70  -62.08   -0.26    2.55   -0.26    2.55  -28.70  -62.08
    7.23  -30.10  -49.85   -0.23    2.08   -0.23    2.08  -30.10  -49.85
    7.33  -30.43  -37.43   -0.27    1.92   -0.27    1.92  -30.43  -37.43
    7.43  -30.66  -22.44   -0.28    1.69   -0.28    1.69  -30.66  -22.44
    7.53  -29.67  -10.49   -0.31    1.46   -0.31    1.46  -29.67  -10.49
    7.63  -29.29   -1.48   -0.31    1.30   -0.31    1.30  -29.29   -1.48
    7.73  -28.32    5.82   -0.33    1.09   -0.33    1.09  -28.32    5.82
    7.83  -28.03   14.47   -0.34    0.95   -0.34    0.95  -28.03   14.47
    7.93  -27.08   20.71   -0.32    0.77   -0.32    0.77  -27.08   20.71
    8.03  -26.34   29.16   -0.32    0.60   -0.32    0.60  -26.34   29.16
    8.13  -24.98   33.47   -0.31    0.38   -0.31    0.38  -24.98   33.47
    8.23  -24.17   38.62   -0.34    0.27   -0.34    0.27  -24.17   38.62
    8.33  -23.41   40.89   -0.32   -0.08   -0.32   -0.08  -23.41   40.89
    8.43  -22.86   43.89   -0.32   -0.05   -0.32   -0.05  -22.86   43.89
    8.53  -21.92   45.55   -0.34   -0.39   -0.34   -0.39  -21.92   45.55
    8.63  -21.30   48.51   -0.37   -0.72   -0.37   -0.72  -21.30   48.51
    8.73  -20.52   50.16   -0.31   -0.83   -0.31   -0.83  -20.52   50.16
    8.83  -20.08   51.21   -0.33   -1.02   -0.33   -1.02  -20.08   51.21
    8.93  -19.58   51.16   -0.35   -1.32   -0.35   -1.32  -19.58   51.16
    9.03  -19.03   51.85   -0.36   -1.82   -0.36   -1.82  -19.03   51.85
    9.13  -18.56   53.05   -0.35   -1.64   -0.35   -1.64  -18.56   53.05
    9.23  -18.12   54.19   -0.37   -1.89   -0.37   -1.89  -18.12   54.19
    9.33  -17.82   54.62   -0.36   -2.05   -0.36   -2.05  -17.82   54.62
    9.43  -17.68   54.46   -0.38   -2.09   -0.38   -2.09  -17.68   54.46
    9.53  -17.44   54.68   -0.37   -2.24   -0.37   -2.24  -17.44   54.68
    9.63  -17.17   56.05   -0.39   -2.50   -0.39   -2.50  -17.17   56.05
    9.73  -16.81   56.07   -0.38   -2.55   -0.38   -2.55  -16.81   56.07
    9.83  -16.54   57.28   -0.35   -2.73   -0.35   -2.73  -16.54   57.28
    9.93  -16.49   57.23   -0.38   -2.66   -0.38   -2.66  -16.49   57.23
   10.03  -16.27   57.48   -0.34   -2.99   -0.34   -2.99  -16.27   57.48
   10.12  -16.04   58.28   -0.35   -3.10   -0.35   -3.10  -16.04   58.28
   10.22  -15.79   58.46   -0.38   -3.49   -0.38   -3.49  -15.79   58.46
   10.32  -15.62   59.18   -0.33   -3.46   -0.33   -3.46  -15.62   59.18
   10.42  -15.55   59.00   -0.34   -3.64   -0.34   -3.64  -15.55   59.00
   10.52  -15.44   59.06   -0.38   -3.97   -0.38   -3.97  -15.44   59.06
   10.62  -15.16   59.64   -0.37   -4.08   -0.37   -4.08  -15.16   59.64
   10.72  -15.00   59.24   -0.39   -4.17   -0.39   -4.17  -15.00   59.24
   10.82  -14.71   60.04   -0.34   -4.72   -0.34   -4.72  -14.71   60.04
   10.92  -14.79   59.34   -0.34   -4.69   -0.34   -4.69  -14.79   59.34
   11.02  -14.51   59.68   -0.37   -5.02   -0.37   -5.02  -14.51   59.68
   11.12  -14.45   59.37   -0.34   -5.25   -0.34   -5.25  -14.45   59.37
   11.22  -14.10   59.94   -0.37   -5.30   -0.37   -5.30  -14.10   59.94
   11.32  -14.09   59.18   -0.40   -5.60   -0.40   -5.60  -14.09   59.18
   11.42  -13.96   59.27   -0.38   -5.94   -0.38   -5.94  -13.96   59.27
   11.52  -13.84   57.97   -0.38   -6.11   -0.38   -6.11  -13.84   57.97
   11.62  -13.68   58.90   -0.39   -6.37   -0.39   -6.37  -13.68   58.90
   11.72  -13.56   58.02   -0.42   -6.17   -0.42   -6.17  -13.56   58.02
   11.82  -13.44   58.14   -0.40   -6.98   -0.40   -6.98  -13.44   58.14
   11.92  -13.40   56.47   -0.38   -7.15   -0.38   -7.15  -13.40   56.47
   12.02  -13.14   56.44   -0.42   -7.22   -0.42   -7.22  -13.14   56.44
   12.12  -13.02   55.73   -0.41   -7.48   -0.41   -7.48  -13.02   55.73
   12.22  -12.78   55.47   -0.44   -7.70   -0.44   -7.70  -12.78   55.47
   12.32  -12.67   54.32   -0.45   -7.94   -0.45   -7.94  -12.67   54.32
   12.42  -12.64   53.03   -0.44   -8.70   -0.44   -8.70  -12.64   53.03
   12.52  -12.41   51.24   -0.45   -8.48   -0.45   -8.48  -12.41   51.24
   12.62  -12.16   51.85   -0.48   -9.06   -0.48   -9.06  -12.16   51.85
   12.72  -11.88   50.56   -0.46   -9.05   -0.46   -9.05  -11.88   50.56
   12.82  -11.74   50.57   -0.55   -9.65   -0.55   -9.65  -11.74   50.57
   12.92  -11.58   47.90   -0.51  -10.12   -0.51  -10.12  -11.58   47.90
   13.02  -11.38   48.06   -0.54  -10.43   -0.54  -10.43  -11.38   48.06
   13.12  -11.10   46.58   -0.55  -10.65   -0.55  -10.65  -11.10   46.58
   13.22  -10.87   47.52   -0.61  -10.89   -0.61  -10.89  -10.87   47.52
   13.32  -10.63   45.33   -0.65  -11.44   -0.65  -11.44  -10.63   45.33
   13.42  -10.57   45.21   -0.70  -11.90   -0.70  -11.90  -10.57   45.21
   13.52  -10.16   42.94   -0.64  -12.10   -0.64  -12.10  -10.16   42.94
   13.62  -10.04   45.47   -0.70  -12.15   -0.70  -12.15  -10.04   45.47
   13.72   -9.67   43.41   -0.75  -12.88   -0.75  -12.88   -9.67   43.41
   13.82   -9.47   44.44   -0.81  -12.55   -0.81  -12.55   -9.47   44.44
   13.92   -9.33   42.57   -0.88  -13.37   -0.88  -13.37   -9.33   42.57
   14.02   -9.14   41.61   -0.86  -13.75   -0.86  -13.75   -9.14   41.61
   14.11   -8.77   40.56   -0.88  -13.92   -0.88  -13.92   -8.77   40.56
   14.21   -8.53   42.36   -0.95  -13.85   -0.95  -13.85   -8.53   42.36
   14.31   -8.33   42.91   -1.01  -14.11   -1.01  -14.11   -8.33   42.91
   14.41   -8.23   41.11   -1.05  -14.64   -1.05  -14.64   -8.23   41.11
   14.51   -8.11   40.82   -1.03  -14.88   -1.03  -14.88   -8.11   40.82
   14.61   -7.98   40.41   -1.16  -15.38   -1.16  -15.38   -7.98   40.41
   14.71   -7.65   40.31   -1.16  -15.51   -1.16  -15.51   -7.65   40.31
   14.81   -7.35   41.05   -1.19  -15.53   -1.19  -15.53   -7.35   41.05
   14.91   -7.27   41.28   -1.21  -15.70   -1.21  -15.70   -7.27   41.28
   15.01   -7.34   40.75   -1.27  -15.66   -1.27  -15.66   -7.34   40.75
   15.11   -7.21   40.74   -1.35  -16.11   -1.35  -16.11   -7.21   40.74
   15.21   -7.07   40.06   -1.36  -16.45   -1.36  -16.45   -7.07   40.06
   15.31   -6.76   41.46   -1.35  -16.03   -1.35  -16.03   -6.76   41.46
   15.41   -6.77   41.22   -1.45  -16.06   -1.45  -16.06   -6.77   41.22
   15.51   -6.68   41.15   -1.42  -16.08   -1.42  -16.08   -6.68   41.15
   15.61   -6.67   40.10   -1.49  -16.21   -1.49  -16.21   -6.67   40.10
   15.71   -6.48   40.37   -1.51  -16.11   -1.51  -16.11   -6.48   40.37
   15.81   -6.40   40.19   -1.50  -16.38   -1.50  -16.38   -6.40   40.19
   15.91   -6.31   40.46   -1.51  -16.53   -1.51  -16.53   -6.31   40.46
   16.01   -6.44   39.36   -1.59  -16.30   -1.59  -16.30   -6.44   39.36
   16.11   -6.30   38.96   -1.53  -16.46   -1.53  -16.46   -6.30   38.96
   16.21   -6.39   38.73   -1.61  -16.44   -1.61  -16.44   -6.39   38.73
   16.31   -6.12   38.84   -1.54  -17.02   -1.54  -17.02   -6.12   38.84
   16.41   -6.16   38.83   -1.58  -16.70   -1.58  -16.70   -6.16   38.83
   16.51   -6.15   38.01   -1.56  -16.93   -1.56  -16.93   -6.15   38.01
   16.61   -6.12   37.70   -1.59  -17.14   -1.59  -17.14   -6.12   37.70
   16.71   -6.24   37.97   -1.59  -16.77   -1.59  -16.77   -6.24   37.97
   16.81   -6.03   36.84   -1.66  -17.52   -1.66  -17.52   -6.03   36.84
   16.91   -6.08   36.90   -1.58  -17.77   -1.58  -17.77   -6.08   36.90
   17.01   -6.01   36.45   -1.69  -18.20   -1.69  -18.20   -6.01   36.45
   17.11   -6.13   36.02   -1.61  -18.16   -1.61  -18.16   -6.13   36.02
   17.21   -6.06   36.47   -1.77  -18.22   -1.77  -18.22   -6.06   36.47
   17.31   -6.15   35.98   -1.72  -18.41   -1.72  -18.41   -6.15   35.98
   17.41   -6.03   36.15   -1.72  -19.08   -1.72  -19.08   -6.03   36.15
   17.51   -6.06   35.04   -1.70  -19.23   -1.70  -19.23   -6.06   35.04
   17.61   -6.09   35.98   -1.83  -19.79   -1.83  -19.79   -6.09   35.98
   17.71   -6.12   34.91   -1.80  -19.08   -1.80  -19.08   -6.12   34.91
   17.81   -5.88   34.49   -1.82  -20.15   -1.82  -20.15   -5.88   34.49
   17.91   -5.97   34.17   -1.87  -20.82   -1.87  -20.82   -5.97   34.17
   18.01   -5.88   33.15   -1.82  -20.73   -1.82  -20.73   -5.88   33.15
   18.10   -5.92   32.43   -1.85  -21.68   -1.85  -21.68   -5.92   32.43
   18.20   -5.80   31.76   -1.93  -21.03   -1.93  -21.03   -5.80   31.76
   18.30   -5.73   31.07   -1.96  -22.06   -1.96  -22.06   -5.73   31.07
   18.40   -5.74   29.40   -2.01  -22.82   -2.01  -22.82   -5.74   29.40
   18.50   -5.68   28.69   -2.03  -23.39   -2.03  -23.39   -5.68   28.69
   18.60   -5.68   27.58   -2.12  -23.91   -2.12  -23.91   -5.68   27.58
   18.70   -5.58   27.08   -2.21  -24.41   -2.21  -24.41   -5.58   27.08
   18.80   -5.39   26.29   -2.29  -24.74   -2.29  -24.74   -5.39   26.29
   18.90   -5.38   25.24   -2.32  -25.43   -2.32  -25.43   -5.38   25.24
   19.00   -5.17   23.25   -2.38  -25.79   -2.38  -25.79   -5.17   23.25
   19.10   -5.15   22.70   -2.50  -26.43   -2.50  -26.43   -5.15   22.70
   19.20   -5.03   21.61   -2.56  -26.84   -2.56  -26.84   -5.03   21.61
   19.30   -4.84   20.82   -2.66  -27.25   -2.66  -27.25   -4.84   20.82
   19.40   -4.83   19.84   -2.74  -28.21   -2.74  -28.21   -4.83   19.84
   19.50   -4.65   17.77   -2.79  -28.67   -2.79  -28.67   -4.65   17.77
   19.60   -4.67   18.71   -2.92  -28.90   -2.92  -28.90   -4.67   18.71
   19.70   -4.47   16.19   -2.99  -29.79   -2.99  -29.79   -4.47   16.19
   19.80   -4.34   17.83   -3.13  -30.07   -3.13  -30.07   -4.34   17.83
   19.90   -4.27   15.99   -3.22  -30.86   -3.22  -30.86   -4.27   15.99
   20.00   -4.26   16.04   -3.37  -31.08   -3.37  -31.08   -4.26   16.04
