!  American Technical Ceramics  Date:    3/13/98
!  One Norden Lane
!  Huntington Station,  NY.   11746-2102
!  Tel:  (516) 547-5700               Fax:  (516) 547-5748
!  Part Number  100b681f
!  Description: Porcelain, High Q, Low ESR
!  Application: Bypass, Coupling, Timing, Feedback
!               Tuning, Impedance Match, Blocking
# GHZ S DB R 50
! Freq   |S11|   S11 Ph  |S21|   S21 Ph  |S12|   S12 Ph  |S22|   S22 Ph
    0.05  -26.04  -90.12   -0.01    2.71   -0.01    2.71  -26.04  -90.12
    0.07  -28.48  -91.54    0.00    1.79    0.00    1.79  -28.48  -91.54
    0.09  -30.63  -90.84    0.02    1.22    0.02    1.22  -30.63  -90.84
    0.11  -31.19  -90.78    0.00    1.08    0.00    1.08  -31.19  -90.78
    0.13  -32.31  -90.67   -0.05    0.57   -0.05    0.57  -32.31  -90.67
    0.15  -33.16  -91.11   -0.03    0.68   -0.03    0.68  -33.16  -91.11
    0.17  -32.87  -92.33   -0.02    0.42   -0.02    0.42  -32.87  -92.33
    0.19  -33.21  -91.83    0.01    0.42    0.01    0.42  -33.21  -91.83
    0.21  -33.53  -92.64    0.00    0.24    0.00    0.24  -33.53  -92.64
    0.23  -33.46  -91.35    0.00    0.16    0.00    0.16  -33.46  -91.35
    0.25  -33.15  -91.33    0.00    0.10    0.00    0.10  -33.15  -91.33
    0.27  -33.04  -92.52   -0.02    0.04   -0.02    0.04  -33.04  -92.52
    0.29  -33.11  -92.74   -0.01   -0.03   -0.01   -0.03  -33.11  -92.74
    0.31  -32.97  -93.09    0.01   -0.13    0.01   -0.13  -32.97  -93.09
    0.33  -32.87  -92.64    0.00   -0.30    0.00   -0.30  -32.87  -92.64
    0.35  -32.60  -92.63   -0.01   -0.35   -0.01   -0.35  -32.60  -92.63
    0.37  -32.39  -92.59    0.00   -0.43    0.00   -0.43  -32.39  -92.59
    0.39  -32.05  -93.20    0.00   -0.60    0.00   -0.60  -32.05  -93.20
    0.41  -31.86  -92.96   -0.02   -0.53   -0.02   -0.53  -31.86  -92.96
    0.43  -31.65  -93.25   -0.01   -0.60   -0.01   -0.60  -31.65  -93.25
    0.45  -31.42  -94.28   -0.02   -0.63   -0.02   -0.63  -31.42  -94.28
    0.46  -31.23  -93.42   -0.01   -0.60   -0.01   -0.60  -31.23  -93.42
    0.48  -31.02  -94.01   -0.01   -0.79   -0.01   -0.79  -31.02  -94.01
    0.50  -30.45  -95.59    0.00   -0.85    0.00   -0.85  -30.45  -95.59
    0.52  -30.33  -96.25   -0.01   -0.96   -0.01   -0.96  -30.33  -96.25
    0.54  -30.06  -95.00   -0.01   -1.06   -0.01   -1.06  -30.06  -95.00
    0.56  -29.83  -95.30   -0.02   -0.95   -0.02   -0.95  -29.83  -95.30
    0.58  -29.72  -95.96   -0.02   -1.08   -0.02   -1.08  -29.72  -95.96
    0.60  -29.56  -96.42   -0.03   -1.25   -0.03   -1.25  -29.56  -96.42
    0.62  -29.39  -95.52   -0.02   -1.43   -0.02   -1.43  -29.39  -95.52
    0.64  -29.29  -95.53   -0.01   -1.25   -0.01   -1.25  -29.29  -95.53
    0.66  -29.23  -95.92   -0.01   -1.46   -0.01   -1.46  -29.23  -95.92
    0.68  -29.22  -96.55   -0.01   -1.50   -0.01   -1.50  -29.22  -96.55
    0.70  -29.41  -95.32   -0.01   -1.72   -0.01   -1.72  -29.41  -95.32
    0.72  -29.81  -94.35   -0.03   -1.85   -0.03   -1.85  -29.81  -94.35
    0.74  -30.95  -88.41   -0.06   -2.10   -0.06   -2.10  -30.95  -88.41
    0.76  -30.54  -52.30   -0.20   -2.61   -0.20   -2.61  -30.54  -52.30
    0.78  -23.38  -69.43   -0.31   -0.53   -0.31   -0.53  -23.38  -69.43
    0.80  -24.29  -89.31   -0.09   -0.55   -0.09   -0.55  -24.29  -89.31
    0.82  -24.94  -93.57   -0.05   -1.03   -0.05   -1.03  -24.94  -93.57
    0.84  -25.18  -95.21   -0.04   -1.07   -0.04   -1.07  -25.18  -95.21
    0.86  -25.33  -96.17   -0.04   -1.30   -0.04   -1.30  -25.33  -96.17
    0.88  -25.29  -96.62   -0.02   -1.40   -0.02   -1.40  -25.29  -96.62
    0.90  -25.20  -96.92   -0.03   -1.45   -0.03   -1.45  -25.20  -96.92
    0.92  -25.06  -97.21   -0.03   -1.52   -0.03   -1.52  -25.06  -97.21
    0.94  -25.08  -97.78   -0.04   -1.64   -0.04   -1.64  -25.08  -97.78
    0.96  -24.94  -98.37   -0.03   -1.70   -0.03   -1.70  -24.94  -98.37
    0.98  -24.82  -98.41   -0.03   -1.81   -0.03   -1.81  -24.82  -98.41
    1.00  -24.73  -98.66   -0.03   -1.83   -0.03   -1.83  -24.73  -98.66
    1.02  -24.65  -98.87   -0.03   -1.87   -0.03   -1.87  -24.65  -98.87
    1.04  -24.52  -98.97   -0.03   -1.89   -0.03   -1.89  -24.52  -98.97
    1.06  -24.38  -99.03   -0.04   -2.02   -0.04   -2.02  -24.38  -99.03
    1.08  -24.23  -99.35   -0.03   -1.92   -0.03   -1.92  -24.23  -99.35
    1.10  -24.15  -99.39   -0.03   -2.09   -0.03   -2.09  -24.15  -99.39
    1.12  -24.03  -99.58   -0.03   -2.25   -0.03   -2.25  -24.03  -99.58
    1.14  -23.87  -99.72   -0.04   -2.16   -0.04   -2.16  -23.87  -99.72
    1.16  -23.76 -100.07   -0.03   -2.22   -0.03   -2.22  -23.76 -100.07
    1.18  -23.67 -100.26   -0.03   -2.34   -0.03   -2.34  -23.67 -100.26
    1.20  -23.61 -101.05   -0.05   -2.31   -0.05   -2.31  -23.61 -101.05
    1.22  -23.47 -100.10   -0.05   -2.37   -0.05   -2.37  -23.47 -100.10
    1.24  -23.36 -100.21   -0.04   -2.54   -0.04   -2.54  -23.36 -100.21
    1.25  -23.36 -100.60   -0.06   -2.58   -0.06   -2.58  -23.36 -100.60
    1.27  -23.30 -100.60   -0.04   -2.63   -0.04   -2.63  -23.30 -100.60
    1.29  -23.22 -100.28   -0.05   -2.61   -0.05   -2.61  -23.22 -100.28
    1.31  -23.14 -100.49   -0.05   -2.68   -0.05   -2.68  -23.14 -100.49
    1.33  -23.21 -100.40   -0.06   -2.96   -0.06   -2.96  -23.21 -100.40
    1.35  -23.37  -99.09   -0.08   -3.07   -0.08   -3.07  -23.37  -99.09
    1.37  -23.46  -95.95   -0.10   -3.22   -0.10   -3.22  -23.46  -95.95
    1.39  -23.01  -89.28   -0.19   -3.30   -0.19   -3.30  -23.01  -89.28
    1.41  -21.52  -88.53   -0.22   -2.54   -0.22   -2.54  -21.52  -88.53
    1.43  -20.92  -94.43   -0.14   -2.26   -0.14   -2.26  -20.92  -94.43
    1.45  -20.93  -98.17   -0.10   -2.26   -0.10   -2.26  -20.93  -98.17
    1.47  -20.95  -99.71   -0.08   -2.47   -0.08   -2.47  -20.95  -99.71
    1.49  -20.94 -100.77   -0.07   -2.48   -0.07   -2.48  -20.94 -100.77
    1.51  -20.94 -101.21   -0.06   -2.69   -0.06   -2.69  -20.94 -101.21
    1.53  -20.89 -101.70   -0.07   -2.81   -0.07   -2.81  -20.89 -101.70
    1.55  -20.81 -102.12   -0.06   -2.80   -0.06   -2.80  -20.81 -102.12
    1.57  -20.74 -102.24   -0.06   -2.82   -0.06   -2.82  -20.74 -102.24
    1.59  -20.71 -102.33   -0.07   -2.79   -0.07   -2.79  -20.71 -102.33
    1.61  -20.64 -102.81   -0.05   -3.04   -0.05   -3.04  -20.64 -102.81
    1.63  -20.57 -103.10   -0.08   -2.92   -0.08   -2.92  -20.57 -103.10
    1.65  -20.49 -103.22   -0.07   -3.10   -0.07   -3.10  -20.49 -103.22
    1.67  -20.40 -103.43   -0.06   -3.13   -0.06   -3.13  -20.40 -103.43
    1.69  -20.30 -103.50   -0.06   -3.18   -0.06   -3.18  -20.30 -103.50
    1.71  -20.23 -103.59   -0.07   -3.11   -0.07   -3.11  -20.23 -103.59
    1.73  -20.12 -103.74   -0.06   -3.33   -0.06   -3.33  -20.12 -103.74
    1.75  -20.08 -103.86   -0.07   -3.37   -0.07   -3.37  -20.08 -103.86
    1.77  -20.01 -103.97   -0.07   -3.44   -0.07   -3.44  -20.01 -103.97
    1.79  -19.92 -104.24   -0.09   -3.52   -0.09   -3.52  -19.92 -104.24
    1.81  -19.79 -104.29   -0.06   -3.46   -0.06   -3.46  -19.79 -104.29
    1.83  -19.77 -104.48   -0.07   -3.45   -0.07   -3.45  -19.77 -104.48
    1.85  -19.74 -104.76   -0.08   -3.65   -0.08   -3.65  -19.74 -104.76
    1.87  -19.64 -104.83   -0.09   -3.71   -0.09   -3.71  -19.64 -104.83
    1.89  -19.56 -104.75   -0.08   -3.66   -0.08   -3.66  -19.56 -104.75
    1.91  -19.51 -104.90   -0.08   -3.70   -0.08   -3.70  -19.51 -104.90
    1.93  -19.47 -104.89   -0.10   -3.81   -0.10   -3.81  -19.47 -104.89
    1.95  -19.45 -104.85   -0.10   -3.88   -0.10   -3.88  -19.45 -104.85
    1.97  -19.39 -104.49   -0.10   -4.10   -0.10   -4.10  -19.39 -104.49
    1.99  -19.35 -103.93   -0.12   -4.05   -0.12   -4.05  -19.35 -103.93
    2.01  -19.34 -103.08   -0.12   -4.06   -0.12   -4.06  -19.34 -103.08
    2.03  -19.22 -102.06   -0.15   -4.11   -0.15   -4.11  -19.22 -102.06
    2.04  -18.92 -100.89   -0.19   -3.96   -0.19   -3.96  -18.92 -100.89
    2.06  -18.51 -101.05   -0.17   -3.85   -0.17   -3.85  -18.51 -101.05
    2.08  -18.26 -102.20   -0.17   -3.64   -0.17   -3.64  -18.26 -102.20
    2.10  -18.15 -103.69   -0.14   -3.74   -0.14   -3.74  -18.15 -103.69
    2.12  -18.06 -104.39   -0.13   -3.82   -0.13   -3.82  -18.06 -104.39
    2.14  -18.00 -104.69   -0.11   -3.87   -0.11   -3.87  -18.00 -104.69
    2.16  -17.97 -105.13   -0.11   -3.92   -0.11   -3.92  -17.97 -105.13
    2.18  -17.91 -105.85   -0.12   -3.97   -0.12   -3.97  -17.91 -105.85
    2.20  -17.87 -106.14   -0.12   -4.01   -0.12   -4.01  -17.87 -106.14
    2.22  -17.82 -106.42   -0.11   -4.09   -0.11   -4.09  -17.82 -106.42
    2.24  -17.74 -106.50   -0.12   -4.13   -0.12   -4.13  -17.74 -106.50
    2.26  -17.70 -106.67   -0.11   -4.19   -0.11   -4.19  -17.70 -106.67
    2.28  -17.62 -106.81   -0.11   -4.28   -0.11   -4.28  -17.62 -106.81
    2.30  -17.54 -107.03   -0.11   -4.32   -0.11   -4.32  -17.54 -107.03
    2.32  -17.52 -107.36   -0.13   -4.34   -0.13   -4.34  -17.52 -107.36
    2.34  -17.51 -107.41   -0.11   -4.30   -0.11   -4.30  -17.51 -107.41
    2.36  -17.43 -107.43   -0.12   -4.46   -0.12   -4.46  -17.43 -107.43
    2.38  -17.35 -107.55   -0.13   -4.44   -0.13   -4.44  -17.35 -107.55
    2.40  -17.28 -107.77   -0.13   -4.46   -0.13   -4.46  -17.28 -107.77
    2.42  -17.24 -107.88   -0.12   -4.51   -0.12   -4.51  -17.24 -107.88
    2.44  -17.22 -108.01   -0.13   -4.62   -0.13   -4.62  -17.22 -108.01
    2.46  -17.13 -107.79   -0.13   -4.61   -0.13   -4.61  -17.13 -107.79
    2.48  -17.06 -108.01   -0.13   -4.76   -0.13   -4.76  -17.06 -108.01
    2.50  -17.02 -108.11   -0.14   -4.84   -0.14   -4.84  -17.02 -108.11
    2.52  -17.01 -108.35   -0.15   -4.68   -0.15   -4.68  -17.01 -108.35
    2.54  -16.96 -108.14   -0.15   -4.71   -0.15   -4.71  -16.96 -108.14
    2.56  -16.90 -108.20   -0.15   -4.80   -0.15   -4.80  -16.90 -108.20
    2.58  -16.88 -108.10   -0.15   -4.92   -0.15   -4.92  -16.88 -108.10
    2.60  -16.83 -108.25   -0.15   -5.21   -0.15   -5.21  -16.83 -108.25
    2.62  -16.83 -108.07   -0.19   -5.11   -0.19   -5.11  -16.83 -108.07
    2.64  -16.69 -107.32   -0.19   -5.08   -0.19   -5.08  -16.69 -107.32
    2.66  -16.60 -106.96   -0.20   -5.08   -0.20   -5.08  -16.60 -106.96
    2.68  -16.47 -106.90   -0.20   -5.21   -0.20   -5.21  -16.47 -106.90
    2.70  -16.30 -106.89   -0.21   -4.97   -0.21   -4.97  -16.30 -106.89
    2.72  -16.17 -107.29   -0.21   -5.00   -0.21   -5.00  -16.17 -107.29
    2.74  -16.09 -107.67   -0.20   -4.97   -0.20   -4.97  -16.09 -107.67
    2.76  -16.00 -108.03   -0.20   -5.00   -0.20   -5.00  -16.00 -108.03
    2.78  -15.92 -108.52   -0.19   -5.10   -0.19   -5.10  -15.92 -108.52
    2.80  -15.84 -108.86   -0.19   -5.09   -0.19   -5.09  -15.84 -108.86
    2.82  -15.81 -108.97   -0.19   -4.96   -0.19   -4.96  -15.81 -108.97
    2.83  -15.78 -109.24   -0.18   -5.15   -0.18   -5.15  -15.78 -109.24
    2.85  -15.73 -109.44   -0.19   -5.16   -0.19   -5.16  -15.73 -109.44
    2.87  -15.65 -109.61   -0.18   -5.20   -0.18   -5.20  -15.65 -109.61
    2.89  -15.58 -109.94   -0.19   -5.31   -0.19   -5.31  -15.58 -109.94
    2.91  -15.57 -110.08   -0.17   -5.38   -0.17   -5.38  -15.57 -110.08
    2.93  -15.57 -110.38   -0.20   -5.38   -0.20   -5.38  -15.57 -110.38
    2.95  -15.52 -110.20   -0.20   -5.35   -0.20   -5.35  -15.52 -110.20
    2.97  -15.45 -110.26   -0.19   -5.56   -0.19   -5.56  -15.45 -110.26
    2.99  -15.41 -110.43   -0.19   -5.55   -0.19   -5.55  -15.41 -110.43
    3.01  -15.39 -110.44   -0.20   -5.43   -0.20   -5.43  -15.39 -110.44
    3.03  -15.35 -110.64   -0.22   -5.51   -0.22   -5.51  -15.35 -110.64
    3.05  -15.27 -110.61   -0.20   -5.64   -0.20   -5.64  -15.27 -110.61
    3.07  -15.22 -110.88   -0.19   -5.75   -0.19   -5.75  -15.22 -110.88
    3.09  -15.21 -111.14   -0.20   -5.88   -0.20   -5.88  -15.21 -111.14
    3.11  -15.18 -111.12   -0.21   -5.85   -0.21   -5.85  -15.18 -111.12
    3.13  -15.13 -110.66   -0.20   -5.77   -0.20   -5.77  -15.13 -110.66
    3.15  -15.08 -110.76   -0.22   -5.88   -0.22   -5.88  -15.08 -110.76
    3.17  -15.05 -110.86   -0.21   -5.94   -0.21   -5.94  -15.05 -110.86
    3.19  -15.04 -110.96   -0.23   -5.92   -0.23   -5.92  -15.04 -110.96
    3.21  -14.97 -110.61   -0.22   -5.99   -0.22   -5.99  -14.97 -110.61
    3.23  -14.91 -110.74   -0.24   -6.04   -0.24   -6.04  -14.91 -110.74
    3.25  -14.87 -110.73   -0.22   -6.22   -0.22   -6.22  -14.87 -110.73
    3.27  -14.82 -110.50   -0.24   -6.00   -0.24   -6.00  -14.82 -110.50
    3.29  -14.76 -110.58   -0.26   -6.11   -0.26   -6.11  -14.76 -110.58
    3.31  -14.68 -110.42   -0.26   -6.11   -0.26   -6.11  -14.68 -110.42
    3.33  -14.62 -110.44   -0.27   -6.24   -0.27   -6.24  -14.62 -110.44
    3.35  -14.55 -110.35   -0.28   -6.13   -0.28   -6.13  -14.55 -110.35
    3.37  -14.44 -110.74   -0.28   -6.21   -0.28   -6.21  -14.44 -110.74
    3.39  -14.37 -110.58   -0.27   -6.14   -0.27   -6.14  -14.37 -110.58
    3.41  -14.33 -110.90   -0.27   -6.10   -0.27   -6.10  -14.33 -110.90
    3.43  -14.29 -111.24   -0.27   -6.16   -0.27   -6.16  -14.29 -111.24
    3.45  -14.24 -111.40   -0.28   -6.16   -0.28   -6.16  -14.24 -111.40
    3.47  -14.17 -111.39   -0.27   -6.31   -0.27   -6.31  -14.17 -111.39
    3.49  -14.15 -111.78   -0.27   -6.35   -0.27   -6.35  -14.15 -111.78
    3.51  -14.13 -111.82   -0.27   -6.31   -0.27   -6.31  -14.13 -111.82
    3.53  -14.05 -111.91   -0.28   -6.41   -0.28   -6.41  -14.05 -111.91
    3.55  -14.00 -111.86   -0.27   -6.36   -0.27   -6.36  -14.00 -111.86
    3.57  -13.98 -111.87   -0.30   -6.37   -0.30   -6.37  -13.98 -111.87
    3.59  -13.93 -112.12   -0.29   -6.46   -0.29   -6.46  -13.93 -112.12
    3.61  -13.88 -112.30   -0.27   -6.63   -0.27   -6.63  -13.88 -112.30
    3.62  -13.82 -112.51   -0.27   -6.62   -0.27   -6.62  -13.82 -112.51
    3.64  -13.80 -112.46   -0.28   -6.59   -0.28   -6.59  -13.80 -112.46
    3.66  -13.79 -112.54   -0.28   -6.64   -0.28   -6.64  -13.79 -112.54
    3.68  -13.77 -112.66   -0.28   -6.76   -0.28   -6.76  -13.77 -112.66
    3.70  -13.70 -112.49   -0.29   -6.63   -0.29   -6.63  -13.70 -112.49
    3.72  -13.64 -112.37   -0.31   -6.80   -0.31   -6.80  -13.64 -112.37
    3.74  -13.64 -112.60   -0.30   -6.81   -0.30   -6.81  -13.64 -112.60
    3.76  -13.57 -112.81   -0.29   -6.90   -0.29   -6.90  -13.57 -112.81
    3.78  -13.59 -113.04   -0.31   -7.09   -0.31   -7.09  -13.59 -113.04
    3.80  -13.55 -112.77   -0.32   -7.01   -0.32   -7.01  -13.55 -112.77
    3.82  -13.47 -112.58   -0.32   -7.02   -0.32   -7.02  -13.47 -112.58
    3.84  -13.46 -112.69   -0.33   -7.02   -0.33   -7.02  -13.46 -112.69
    3.86  -13.40 -112.65   -0.34   -7.09   -0.34   -7.09  -13.40 -112.65
    3.88  -13.33 -112.61   -0.35   -7.17   -0.35   -7.17  -13.33 -112.61
    3.90  -13.31 -112.40   -0.37   -7.19   -0.37   -7.19  -13.31 -112.40
    3.92  -13.25 -112.53   -0.35   -7.11   -0.35   -7.11  -13.25 -112.53
    3.94  -13.18 -112.56   -0.36   -7.31   -0.36   -7.31  -13.18 -112.56
    3.96  -13.13 -112.46   -0.37   -7.22   -0.37   -7.22  -13.13 -112.46
    3.98  -13.07 -112.57   -0.37   -7.33   -0.37   -7.33  -13.07 -112.57
    4.00  -13.22 -114.35   -0.33   -7.32   -0.33   -7.32  -13.22 -114.35
