!  American Technical Ceramics  Date:    3/13/98
!  One Norden Lane
!  Huntington Station,  NY.   11746-2102
!  Tel:  (516) 547-5700               Fax:  (516) 547-5748
!  Part Number  100b470f
!  Description: Porcelain, High Q, Low ESR
!  Application: Bypass, Coupling, Timing, Feedback
!               Tuning, Impedance Match, Blocking
# GHZ S DB R 50
! Freq   |S11|   S11 Ph  |S21|   S21 Ph  |S12|   S12 Ph  |S22|   S22 Ph
    0.05   -4.94  -55.59   -1.63   34.27   -1.63   34.27   -4.94  -55.59
    0.09   -8.87  -69.64   -0.58   20.87   -0.58   20.87   -8.87  -69.64
    0.13  -11.63  -75.46   -0.38   14.54   -0.38   14.54  -11.63  -75.46
    0.17  -13.77  -79.36   -0.17   11.15   -0.17   11.15  -13.77  -79.36
    0.21  -15.42  -81.74   -0.12    8.97   -0.12    8.97  -15.42  -81.74
    0.25  -16.71  -83.42   -0.07    7.40   -0.07    7.40  -16.71  -83.42
    0.29  -17.76  -84.91   -0.08    6.27   -0.08    6.27  -17.76  -84.91
    0.33  -18.63  -85.69   -0.06    5.32   -0.06    5.32  -18.63  -85.69
    0.37  -19.36  -86.65   -0.04    4.47   -0.04    4.47  -19.36  -86.65
    0.41  -19.95  -87.43   -0.03    4.08   -0.03    4.08  -19.95  -87.43
    0.45  -20.48  -88.04   -0.03    3.50   -0.03    3.50  -20.48  -88.04
    0.49  -20.87  -89.12   -0.02    3.08   -0.02    3.08  -20.87  -89.12
    0.53  -21.34  -89.62   -0.04    2.59   -0.04    2.59  -21.34  -89.62
    0.57  -21.56  -90.23   -0.03    2.29   -0.03    2.29  -21.56  -90.23
    0.61  -21.82  -90.39   -0.03    1.93   -0.03    1.93  -21.82  -90.39
    0.65  -21.91  -91.16   -0.02    1.60   -0.02    1.60  -21.91  -91.16
    0.69  -22.04  -91.63   -0.03    1.52   -0.03    1.52  -22.04  -91.63
    0.73  -22.15  -91.90   -0.03    1.19   -0.03    1.19  -22.15  -91.90
    0.77  -22.20  -92.50   -0.02    1.02   -0.02    1.02  -22.20  -92.50
    0.81  -22.21  -92.80   -0.02    0.82   -0.02    0.82  -22.21  -92.80
    0.85  -22.24  -93.27   -0.02    0.69   -0.02    0.69  -22.24  -93.27
    0.88  -22.25  -93.73   -0.02    0.48   -0.02    0.48  -22.25  -93.73
    0.92  -22.20  -94.26   -0.03    0.28   -0.03    0.28  -22.20  -94.26
    0.96  -22.17  -94.75   -0.04    0.08   -0.04    0.08  -22.17  -94.75
    1.00  -22.09  -95.13   -0.03   -0.12   -0.03   -0.12  -22.09  -95.13
    1.04  -22.05  -95.66   -0.05   -0.14   -0.05   -0.14  -22.05  -95.66
    1.08  -21.95  -96.12   -0.03   -0.34   -0.03   -0.34  -21.95  -96.12
    1.12  -21.86  -96.31   -0.01   -0.51   -0.01   -0.51  -21.86  -96.31
    1.16  -21.75  -96.81   -0.02   -0.53   -0.02   -0.53  -21.75  -96.81
    1.20  -21.68  -97.10   -0.04   -0.78   -0.04   -0.78  -21.68  -97.10
    1.24  -21.61  -97.38   -0.03   -0.92   -0.03   -0.92  -21.61  -97.38
    1.28  -21.50  -97.70   -0.05   -1.04   -0.05   -1.04  -21.50  -97.70
    1.32  -21.34  -98.22   -0.04   -1.04   -0.04   -1.04  -21.34  -98.22
    1.36  -21.27  -98.46   -0.04   -1.21   -0.04   -1.21  -21.27  -98.46
    1.40  -21.13  -98.61   -0.04   -1.26   -0.04   -1.26  -21.13  -98.61
    1.44  -21.05  -99.34   -0.06   -1.40   -0.06   -1.40  -21.05  -99.34
    1.48  -20.89  -99.27   -0.04   -1.45   -0.04   -1.45  -20.89  -99.27
    1.52  -20.82 -100.15   -0.05   -1.60   -0.05   -1.60  -20.82 -100.15
    1.56  -20.65  -99.96   -0.05   -1.81   -0.05   -1.81  -20.65  -99.96
    1.60  -20.57 -100.67   -0.05   -1.83   -0.05   -1.83  -20.57 -100.67
    1.64  -20.43 -100.75   -0.06   -2.01   -0.06   -2.01  -20.43 -100.75
    1.68  -20.33 -101.42   -0.07   -2.12   -0.07   -2.12  -20.33 -101.42
    1.72  -20.20 -101.41   -0.06   -2.14   -0.06   -2.14  -20.20 -101.41
    1.76  -20.10 -101.73   -0.06   -2.05   -0.06   -2.05  -20.10 -101.73
    1.80  -19.92 -102.04   -0.07   -2.54   -0.07   -2.54  -19.92 -102.04
    1.84  -19.84 -102.56   -0.07   -2.50   -0.07   -2.50  -19.84 -102.56
    1.88  -19.68 -102.36   -0.05   -2.64   -0.05   -2.64  -19.68 -102.36
    1.92  -19.61 -102.74   -0.07   -2.55   -0.07   -2.55  -19.61 -102.74
    1.96  -19.47 -102.91   -0.07   -2.90   -0.07   -2.90  -19.47 -102.91
    2.00  -19.37 -103.21   -0.06   -2.89   -0.06   -2.89  -19.37 -103.21
    2.04  -19.27 -103.72   -0.09   -2.84   -0.09   -2.84  -19.27 -103.72
    2.08  -19.14 -103.87   -0.07   -3.01   -0.07   -3.01  -19.14 -103.87
    2.12  -19.04 -104.05   -0.09   -3.26   -0.09   -3.26  -19.04 -104.05
    2.16  -18.91 -104.05   -0.07   -3.40   -0.07   -3.40  -18.91 -104.05
    2.20  -18.84 -104.90   -0.09   -3.41   -0.09   -3.41  -18.84 -104.90
    2.24  -18.75 -105.06   -0.07   -3.60   -0.07   -3.60  -18.75 -105.06
    2.28  -18.69 -105.30   -0.10   -3.67   -0.10   -3.67  -18.69 -105.30
    2.32  -18.54 -105.48   -0.09   -3.72   -0.09   -3.72  -18.54 -105.48
    2.36  -18.53 -105.90   -0.10   -3.99   -0.10   -3.99  -18.53 -105.90
    2.40  -18.40 -105.90   -0.08   -4.07   -0.08   -4.07  -18.40 -105.90
    2.44  -18.41 -106.38   -0.10   -4.09   -0.10   -4.09  -18.41 -106.38
    2.47  -18.30 -106.40   -0.10   -4.32   -0.10   -4.32  -18.30 -106.40
    2.51  -18.28 -106.94   -0.11   -4.27   -0.11   -4.27  -18.28 -106.94
    2.55  -18.26 -106.98   -0.10   -4.59   -0.10   -4.59  -18.26 -106.98
    2.59  -18.30 -107.55   -0.11   -4.68   -0.11   -4.68  -18.30 -107.55
    2.63  -18.25 -107.53   -0.10   -5.08   -0.10   -5.08  -18.25 -107.53
    2.67  -18.34 -107.98   -0.10   -5.13   -0.10   -5.13  -18.34 -107.98
    2.71  -18.41 -108.20   -0.11   -5.57   -0.11   -5.57  -18.41 -108.20
    2.75  -18.64 -108.26   -0.11   -5.76   -0.11   -5.76  -18.64 -108.26
    2.79  -18.93 -108.28   -0.13   -6.18   -0.13   -6.18  -18.93 -108.28
    2.83  -19.53 -108.17   -0.14   -6.77   -0.14   -6.77  -19.53 -108.17
    2.87  -20.55 -106.02   -0.18   -7.58   -0.18   -7.58  -20.55 -106.02
    2.91  -22.74  -97.39   -0.26   -8.87   -0.26   -8.87  -22.74  -97.39
    2.95  -23.69  -47.26   -0.63  -11.64   -0.63  -11.64  -23.69  -47.26
    2.99  -13.30  -40.34   -2.05  -10.04   -2.05  -10.04  -13.30  -40.34
    3.03  -11.15  -79.31   -1.41    1.55   -1.41    1.55  -11.15  -79.31
    3.07  -12.31  -94.70   -0.62    0.12   -0.62    0.12  -12.31  -94.70
    3.11  -13.15 -100.56   -0.43   -1.16   -0.43   -1.16  -13.15 -100.56
    3.15  -13.59 -102.80   -0.31   -2.07   -0.31   -2.07  -13.59 -102.80
    3.19  -13.94 -104.37   -0.32   -2.64   -0.32   -2.64  -13.94 -104.37
    3.23  -14.01 -105.30   -0.26   -3.19   -0.26   -3.19  -14.01 -105.30
    3.27  -14.21 -106.55   -0.27   -3.44   -0.27   -3.44  -14.21 -106.55
    3.31  -14.25 -106.69   -0.26   -3.79   -0.26   -3.79  -14.25 -106.69
    3.35  -14.31 -107.13   -0.25   -3.95   -0.25   -3.95  -14.31 -107.13
    3.39  -14.20 -107.32   -0.24   -4.17   -0.24   -4.17  -14.20 -107.32
    3.43  -14.31 -108.10   -0.25   -4.28   -0.25   -4.28  -14.31 -108.10
    3.47  -14.27 -107.79   -0.24   -4.47   -0.24   -4.47  -14.27 -107.79
    3.51  -14.29 -108.36   -0.25   -4.66   -0.25   -4.66  -14.29 -108.36
    3.55  -14.19 -108.20   -0.27   -4.78   -0.27   -4.78  -14.19 -108.20
    3.59  -14.14 -108.70   -0.25   -4.82   -0.25   -4.82  -14.14 -108.70
    3.63  -14.11 -109.07   -0.26   -4.89   -0.26   -4.89  -14.11 -109.07
    3.67  -14.12 -109.24   -0.27   -4.98   -0.27   -4.98  -14.12 -109.24
    3.71  -14.07 -108.87   -0.29   -5.16   -0.29   -5.16  -14.07 -108.87
    3.75  -13.96 -109.21   -0.27   -5.21   -0.27   -5.21  -13.96 -109.21
    3.79  -13.94 -109.75   -0.26   -5.40   -0.26   -5.40  -13.94 -109.75
    3.83  -13.88 -109.42   -0.27   -5.47   -0.27   -5.47  -13.88 -109.42
    3.87  -13.83 -109.81   -0.32   -5.56   -0.32   -5.56  -13.83 -109.81
    3.91  -13.71 -109.71   -0.29   -5.79   -0.29   -5.79  -13.71 -109.71
    3.95  -13.66 -110.03   -0.30   -5.83   -0.30   -5.83  -13.66 -110.03
    3.99  -13.57 -110.00   -0.29   -5.91   -0.29   -5.91  -13.57 -110.00
    4.03  -13.85 -111.94   -0.28   -6.01   -0.28   -6.01  -13.85 -111.94
    4.06  -13.76 -111.60   -0.28   -6.07   -0.28   -6.07  -13.76 -111.60
    4.10  -13.72 -112.17   -0.29   -6.22   -0.29   -6.22  -13.72 -112.17
    4.14  -13.65 -112.18   -0.28   -6.27   -0.28   -6.27  -13.65 -112.18
    4.18  -13.70 -112.43   -0.31   -6.27   -0.31   -6.27  -13.70 -112.43
    4.22  -13.58 -112.16   -0.29   -6.26   -0.29   -6.26  -13.58 -112.16
    4.26  -13.60 -113.07   -0.30   -6.49   -0.30   -6.49  -13.60 -113.07
    4.30  -13.54 -113.11   -0.29   -6.58   -0.29   -6.58  -13.54 -113.11
    4.34  -13.57 -113.43   -0.32   -6.42   -0.32   -6.42  -13.57 -113.43
    4.38  -13.52 -113.28   -0.29   -6.81   -0.29   -6.81  -13.52 -113.28
    4.42  -13.54 -113.52   -0.29   -6.78   -0.29   -6.78  -13.54 -113.52
    4.46  -13.46 -113.83   -0.29   -6.91   -0.29   -6.91  -13.46 -113.83
    4.50  -13.53 -114.03   -0.30   -7.04   -0.30   -7.04  -13.53 -114.03
    4.54  -13.49 -113.97   -0.32   -6.96   -0.32   -6.96  -13.49 -113.97
    4.58  -13.50 -114.03   -0.31   -7.16   -0.31   -7.16  -13.50 -114.03
    4.62  -13.52 -114.28   -0.33   -7.18   -0.33   -7.18  -13.52 -114.28
    4.66  -13.51 -114.22   -0.31   -7.44   -0.31   -7.44  -13.51 -114.22
    4.70  -13.57 -114.08   -0.34   -7.51   -0.34   -7.51  -13.57 -114.08
    4.74  -13.53 -114.20   -0.32   -7.62   -0.32   -7.62  -13.53 -114.20
    4.78  -13.57 -114.38   -0.35   -7.76   -0.35   -7.76  -13.57 -114.38
    4.82  -13.59 -114.10   -0.33   -7.69   -0.33   -7.69  -13.59 -114.10
    4.86  -13.62 -114.40   -0.35   -7.71   -0.35   -7.71  -13.62 -114.40
    4.90  -13.59 -114.23   -0.34   -8.00   -0.34   -8.00  -13.59 -114.23
    4.94  -13.65 -114.29   -0.33   -7.90   -0.33   -7.90  -13.65 -114.29
    4.98  -13.64 -114.71   -0.34   -8.21   -0.34   -8.21  -13.64 -114.71
    5.02  -13.78 -114.84   -0.35   -8.34   -0.35   -8.34  -13.78 -114.84
    5.06  -13.79 -114.21   -0.35   -8.25   -0.35   -8.25  -13.79 -114.21
    5.10  -13.85 -114.61   -0.34   -8.45   -0.34   -8.45  -13.85 -114.61
    5.14  -13.95 -114.63   -0.36   -8.97   -0.36   -8.97  -13.95 -114.63
    5.18  -14.10 -114.43   -0.38   -8.85   -0.38   -8.85  -14.10 -114.43
    5.22  -14.20 -113.97   -0.38   -9.24   -0.38   -9.24  -14.20 -113.97
    5.26  -14.50 -114.05   -0.37   -9.50   -0.37   -9.50  -14.50 -114.05
    5.30  -14.66 -112.79   -0.39  -10.02   -0.39  -10.02  -14.66 -112.79
    5.34  -15.04 -111.94   -0.43  -10.34   -0.43  -10.34  -15.04 -111.94
    5.38  -15.55 -109.08   -0.48  -11.08   -0.48  -11.08  -15.55 -109.08
    5.42  -16.05 -102.07   -0.64  -11.79   -0.64  -11.79  -16.05 -102.07
    5.46  -15.60  -90.61   -0.94  -12.18   -0.94  -12.18  -15.60  -90.61
    5.50  -13.52  -84.81   -1.33  -10.73   -1.33  -10.73  -13.52  -84.81
    5.54  -11.86  -91.50   -1.37   -7.33   -1.37   -7.33  -11.86  -91.50
    5.58  -11.45  -98.36   -1.06   -5.52   -1.06   -5.52  -11.45  -98.36
    5.62  -11.64 -104.67   -0.84   -5.42   -0.84   -5.42  -11.64 -104.67
    5.65  -11.81 -107.13   -0.68   -5.87   -0.68   -5.87  -11.81 -107.13
    5.69  -12.03 -109.11   -0.64   -6.03   -0.64   -6.03  -12.03 -109.11
    5.73  -12.17 -110.64   -0.56   -6.46   -0.56   -6.46  -12.17 -110.64
    5.77  -12.43 -111.48   -0.55   -6.81   -0.55   -6.81  -12.43 -111.48
    5.81  -12.47 -111.55   -0.49   -6.80   -0.49   -6.80  -12.47 -111.55
    5.85  -12.64 -112.47   -0.47   -7.02   -0.47   -7.02  -12.64 -112.47
    5.89  -12.75 -112.87   -0.47   -7.29   -0.47   -7.29  -12.75 -112.87
    5.93  -12.92 -113.15   -0.45   -7.48   -0.45   -7.48  -12.92 -113.15
    5.97  -12.93 -113.03   -0.46   -7.59   -0.46   -7.59  -12.93 -113.03
    6.01  -13.15 -113.50   -0.45   -7.75   -0.45   -7.75  -13.15 -113.50
    6.05  -13.13 -113.09   -0.45   -7.84   -0.45   -7.84  -13.13 -113.09
    6.09  -13.22 -113.64   -0.46   -8.05   -0.46   -8.05  -13.22 -113.64
    6.13  -13.32 -113.63   -0.45   -8.18   -0.45   -8.18  -13.32 -113.63
    6.17  -13.45 -113.64   -0.45   -8.32   -0.45   -8.32  -13.45 -113.64
    6.21  -13.45 -113.28   -0.46   -8.27   -0.46   -8.27  -13.45 -113.28
    6.25  -13.52 -113.67   -0.45   -8.53   -0.45   -8.53  -13.52 -113.67
    6.29  -13.59 -113.48   -0.45   -8.55   -0.45   -8.55  -13.59 -113.48
    6.33  -13.63 -113.67   -0.43   -8.59   -0.43   -8.59  -13.63 -113.67
    6.37  -13.72 -113.95   -0.44   -8.70   -0.44   -8.70  -13.72 -113.95
    6.41  -13.83 -114.03   -0.47   -8.69   -0.47   -8.69  -13.83 -114.03
    6.45  -13.89 -113.70   -0.45   -8.85   -0.45   -8.85  -13.89 -113.70
    6.49  -13.89 -114.22   -0.43   -9.02   -0.43   -9.02  -13.89 -114.22
    6.53  -14.10 -114.01   -0.46   -9.11   -0.46   -9.11  -14.10 -114.01
    6.57  -14.07 -114.00   -0.45   -9.22   -0.45   -9.22  -14.07 -114.00
    6.61  -14.21 -114.13   -0.48   -9.31   -0.48   -9.31  -14.21 -114.13
    6.65  -14.29 -113.39   -0.47   -9.37   -0.47   -9.37  -14.29 -113.39
    6.69  -14.39 -113.30   -0.49   -9.48   -0.49   -9.48  -14.39 -113.30
    6.73  -14.38 -113.16   -0.48   -9.64   -0.48   -9.64  -14.38 -113.16
    6.77  -14.53 -113.06   -0.51   -9.50   -0.51   -9.50  -14.53 -113.06
    6.81  -14.53 -112.36   -0.51   -9.78   -0.51   -9.78  -14.53 -112.36
    6.85  -14.60 -111.89   -0.53   -9.74   -0.53   -9.74  -14.60 -111.89
    6.89  -14.54 -111.81   -0.54   -9.91   -0.54   -9.91  -14.54 -111.81
    6.93  -14.69 -111.92   -0.55   -9.85   -0.55   -9.85  -14.69 -111.92
    6.97  -14.60 -111.35   -0.55  -10.04   -0.55  -10.04  -14.60 -111.35
    7.01  -14.69 -111.55   -0.56   -9.90   -0.56   -9.90  -14.69 -111.55
    7.05  -14.69 -110.82   -0.57   -9.86   -0.57   -9.86  -14.69 -110.82
    7.09  -14.72 -111.39   -0.55  -10.11   -0.55  -10.11  -14.72 -111.39
    7.13  -14.76 -111.09   -0.56  -10.23   -0.56  -10.23  -14.76 -111.09
    7.17  -14.79 -110.97   -0.58  -10.10   -0.58  -10.10  -14.79 -110.97
    7.21  -14.87 -110.53   -0.60  -10.32   -0.60  -10.32  -14.87 -110.53
    7.24  -14.89 -110.38   -0.59  -10.50   -0.59  -10.50  -14.89 -110.38
    7.28  -14.92 -109.74   -0.61  -10.50   -0.61  -10.50  -14.92 -109.74
    7.32  -14.91 -109.69   -0.62  -10.47   -0.62  -10.47  -14.91 -109.69
    7.36  -14.87 -109.59   -0.63  -10.43   -0.63  -10.43  -14.87 -109.59
    7.40  -14.89 -109.69   -0.62  -10.52   -0.62  -10.52  -14.89 -109.69
    7.44  -14.98 -108.90   -0.66  -10.51   -0.66  -10.51  -14.98 -108.90
    7.48  -14.81 -109.04   -0.64  -10.63   -0.64  -10.63  -14.81 -109.04
    7.52  -14.96 -109.10   -0.68  -10.36   -0.68  -10.36  -14.96 -109.10
    7.56  -14.82 -108.79   -0.67  -10.67   -0.67  -10.67  -14.82 -108.79
    7.60  -14.92 -109.35   -0.67  -10.62   -0.67  -10.62  -14.92 -109.35
    7.64  -14.96 -108.85   -0.68  -10.68   -0.68  -10.68  -14.96 -108.85
    7.68  -15.01 -108.94   -0.67  -10.81   -0.67  -10.81  -15.01 -108.94
    7.72  -15.05 -108.62   -0.68  -11.04   -0.68  -11.04  -15.05 -108.62
    7.76  -15.20 -108.32   -0.72  -11.23   -0.72  -11.23  -15.20 -108.32
    7.80  -15.29 -107.14   -0.73  -11.54   -0.73  -11.54  -15.29 -107.14
    7.84  -15.39 -105.11   -0.77  -11.74   -0.77  -11.74  -15.39 -105.11
    7.88  -15.26 -102.37   -0.84  -12.06   -0.84  -12.06  -15.26 -102.37
    7.92  -15.04  -99.66   -0.98  -12.11   -0.98  -12.11  -15.04  -99.66
    7.96  -14.38  -97.07   -1.10  -11.77   -1.10  -11.77  -14.38  -97.07
    8.00  -13.63  -98.43   -1.19  -10.76   -1.19  -10.76  -13.63  -98.43
