!  American Technical Ceramics  Date:    3/13/98
!  One Norden Lane
!  Huntington Station,  NY.   11746-2102
!  Tel:  (516) 547-5700               Fax:  (516) 547-5748
!  Part Number  100b100f
!  Description: Porcelain, High Q, Low ESR
!  Application: Bypass, Coupling, Timing, Feedback
!               Tuning, Impedance Match, Blocking
# GHZ S DB R 50
! Freq   |S11|   S11 Ph  |S21|   S21 Ph  |S12|   S12 Ph  |S22|   S22 Ph
    0.05   -0.32  -17.45  -10.63   72.06  -10.63   72.06   -0.32  -17.45
    0.11   -1.67  -35.27   -4.94   54.84   -4.94   54.84   -1.67  -35.27
    0.17   -3.23  -48.30   -2.78   42.21   -2.78   42.21   -3.23  -48.30
    0.24   -4.86  -56.95   -1.69   33.86   -1.69   33.86   -4.86  -56.95
    0.30   -6.28  -63.32   -1.18   27.71   -1.18   27.71   -6.28  -63.32
    0.36   -7.53  -67.95   -0.83   23.30   -0.83   23.30   -7.53  -67.95
    0.42   -8.61  -71.59   -0.64   20.05   -0.64   20.05   -8.61  -71.59
    0.48   -9.54  -74.31   -0.51   17.30   -0.51   17.30   -9.54  -74.31
    0.54  -10.62  -76.61   -0.44   14.77   -0.44   14.77  -10.62  -76.61
    0.61  -11.35  -78.86   -0.36   13.12   -0.36   13.12  -11.35  -78.86
    0.67  -11.99  -80.44   -0.33   11.72   -0.33   11.72  -11.99  -80.44
    0.73  -12.54  -81.70   -0.28   10.46   -0.28   10.46  -12.54  -81.70
    0.79  -13.02  -83.04   -0.26    9.40   -0.26    9.40  -13.02  -83.04
    0.85  -13.47  -84.58   -0.23    8.52   -0.23    8.52  -13.47  -84.58
    0.91  -13.86  -85.44   -0.21    7.84   -0.21    7.84  -13.86  -85.44
    0.98  -14.16  -86.85   -0.20    7.07   -0.20    7.07  -14.16  -86.85
    1.04  -14.50  -87.87   -0.20    6.33   -0.20    6.33  -14.50  -87.87
    1.10  -14.77  -88.85   -0.18    5.69   -0.18    5.69  -14.77  -88.85
    1.16  -14.95  -89.85   -0.17    5.09   -0.17    5.09  -14.95  -89.85
    1.22  -15.16  -90.26   -0.17    4.81   -0.17    4.81  -15.16  -90.26
    1.29  -15.35  -91.38   -0.17    4.16   -0.17    4.16  -15.35  -91.38
    1.35  -15.47  -92.26   -0.13    3.79   -0.13    3.79  -15.47  -92.26
    1.41  -15.59  -92.95   -0.14    3.37   -0.14    3.37  -15.59  -92.95
    1.47  -15.67  -93.79   -0.15    2.99   -0.15    2.99  -15.67  -93.79
    1.53  -15.79  -94.60   -0.16    2.63   -0.16    2.63  -15.79  -94.60
    1.59  -15.86  -95.61   -0.14    2.38   -0.14    2.38  -15.86  -95.61
    1.66  -15.86  -96.18   -0.14    1.95   -0.14    1.95  -15.86  -96.18
    1.72  -15.94  -96.71   -0.17    1.43   -0.17    1.43  -15.94  -96.71
    1.78  -15.99  -97.66   -0.16    1.21   -0.16    1.21  -15.99  -97.66
    1.84  -16.01  -98.34   -0.16    0.95   -0.16    0.95  -16.01  -98.34
    1.90  -15.95  -98.46   -0.14    0.61   -0.14    0.61  -15.95  -98.46
    1.96  -15.96  -98.95   -0.15    0.33   -0.15    0.33  -15.96  -98.95
    2.03  -16.01 -100.23   -0.16    0.16   -0.16    0.16  -16.01 -100.23
    2.09  -16.00 -100.72   -0.15   -0.12   -0.15   -0.12  -16.00 -100.72
    2.15  -15.88 -100.98   -0.16   -0.43   -0.16   -0.43  -15.88 -100.98
    2.21  -15.89 -101.82   -0.16   -0.75   -0.16   -0.75  -15.89 -101.82
    2.27  -15.88 -102.64   -0.17   -0.80   -0.17   -0.80  -15.88 -102.64
    2.33  -15.82 -103.10   -0.17   -1.07   -0.17   -1.07  -15.82 -103.10
    2.40  -15.74 -103.49   -0.15   -1.27   -0.15   -1.27  -15.74 -103.49
    2.46  -15.74 -104.03   -0.16   -1.56   -0.16   -1.56  -15.74 -104.03
    2.52  -15.70 -104.93   -0.17   -1.68   -0.17   -1.68  -15.70 -104.93
    2.58  -15.66 -105.04   -0.15   -1.99   -0.15   -1.99  -15.66 -105.04
    2.64  -15.56 -104.97   -0.19   -2.08   -0.19   -2.08  -15.56 -104.97
    2.71  -15.52 -105.60   -0.20   -2.38   -0.20   -2.38  -15.52 -105.60
    2.77  -15.52 -106.71   -0.17   -2.60   -0.17   -2.60  -15.52 -106.71
    2.83  -15.43 -106.56   -0.18   -2.72   -0.18   -2.72  -15.43 -106.56
    2.89  -15.29 -106.95   -0.19   -2.91   -0.19   -2.91  -15.29 -106.95
    2.95  -15.33 -107.86   -0.19   -3.32   -0.19   -3.32  -15.33 -107.86
    3.01  -15.29 -108.09   -0.23   -3.27   -0.23   -3.27  -15.29 -108.09
    3.08  -15.16 -108.42   -0.19   -3.59   -0.19   -3.59  -15.16 -108.42
    3.14  -15.09 -108.43   -0.21   -3.71   -0.21   -3.71  -15.09 -108.43
    3.20  -15.11 -108.87   -0.25   -4.06   -0.25   -4.06  -15.11 -108.87
    3.26  -15.02 -109.82   -0.21   -4.17   -0.21   -4.17  -15.02 -109.82
    3.32  -14.99 -109.66   -0.21   -4.36   -0.21   -4.36  -14.99 -109.66
    3.38  -14.79 -109.60   -0.25   -4.58   -0.25   -4.58  -14.79 -109.60
    3.45  -14.83 -110.86   -0.24   -4.75   -0.24   -4.75  -14.83 -110.86
    3.51  -14.77 -110.90   -0.24   -4.84   -0.24   -4.84  -14.77 -110.90
    3.57  -14.65 -110.43   -0.24   -5.14   -0.24   -5.14  -14.65 -110.43
    3.63  -14.54 -111.32   -0.24   -5.24   -0.24   -5.24  -14.54 -111.32
    3.69  -14.62 -111.64   -0.28   -5.52   -0.28   -5.52  -14.62 -111.64
    3.76  -14.45 -111.78   -0.27   -5.61   -0.27   -5.61  -14.45 -111.78
    3.82  -14.40 -112.00   -0.25   -6.08   -0.25   -6.08  -14.40 -112.00
    3.88  -14.29 -111.74   -0.30   -6.12   -0.30   -6.12  -14.29 -111.74
    3.94  -14.26 -112.47   -0.30   -6.19   -0.30   -6.19  -14.26 -112.47
    4.00  -14.38 -114.45   -0.26   -6.48   -0.26   -6.48  -14.38 -114.45
    4.06  -14.30 -114.26   -0.28   -6.58   -0.28   -6.58  -14.30 -114.26
    4.13  -14.23 -114.75   -0.27   -6.74   -0.27   -6.74  -14.23 -114.75
    4.19  -14.32 -115.74   -0.29   -7.01   -0.29   -7.01  -14.32 -115.74
    4.25  -14.19 -115.63   -0.28   -6.74   -0.28   -6.74  -14.19 -115.63
    4.31  -14.20 -116.18   -0.27   -7.37   -0.27   -7.37  -14.20 -116.18
    4.37  -14.23 -116.68   -0.28   -7.55   -0.28   -7.55  -14.23 -116.68
    4.43  -14.30 -117.24   -0.33   -7.34   -0.33   -7.34  -14.30 -117.24
    4.50  -14.29 -117.56   -0.30   -7.71   -0.30   -7.71  -14.29 -117.56
    4.56  -14.28 -117.33   -0.30   -8.02   -0.30   -8.02  -14.28 -117.33
    4.62  -14.37 -118.18   -0.32   -8.09   -0.32   -8.09  -14.37 -118.18
    4.68  -14.48 -118.35   -0.32   -8.33   -0.32   -8.33  -14.48 -118.35
    4.74  -14.41 -118.22   -0.29   -8.50   -0.29   -8.50  -14.41 -118.22
    4.80  -14.48 -118.62   -0.33   -8.85   -0.33   -8.85  -14.48 -118.62
    4.87  -14.55 -118.95   -0.29   -8.85   -0.29   -8.85  -14.55 -118.95
    4.93  -14.67 -119.26   -0.33   -9.12   -0.33   -9.12  -14.67 -119.26
    4.99  -14.69 -119.71   -0.29   -9.37   -0.29   -9.37  -14.69 -119.71
    5.05  -14.86 -119.32   -0.33   -9.47   -0.33   -9.47  -14.86 -119.32
    5.11  -14.94 -120.22   -0.31   -9.81   -0.31   -9.81  -14.94 -120.22
    5.18  -15.14 -120.54   -0.33   -9.85   -0.33   -9.85  -15.14 -120.54
    5.24  -15.28 -120.42   -0.32  -10.15   -0.32  -10.15  -15.28 -120.42
    5.30  -15.43 -120.58   -0.32  -10.53   -0.32  -10.53  -15.43 -120.58
    5.36  -15.69 -121.51   -0.32  -10.79   -0.32  -10.79  -15.69 -121.51
    5.42  -16.02 -120.96   -0.33  -10.94   -0.33  -10.94  -16.02 -120.96
    5.48  -16.08 -120.71   -0.31  -11.32   -0.31  -11.32  -16.08 -120.71
    5.55  -16.51 -120.82   -0.33  -11.72   -0.33  -11.72  -16.51 -120.82
    5.61  -16.84 -120.96   -0.34  -11.95   -0.34  -11.95  -16.84 -120.96
    5.67  -17.28 -120.73   -0.34  -12.33   -0.34  -12.33  -17.28 -120.73
    5.73  -17.66 -120.74   -0.35  -12.81   -0.35  -12.81  -17.66 -120.74
    5.79  -18.36 -120.62   -0.34  -13.48   -0.34  -13.48  -18.36 -120.62
    5.85  -19.20 -119.84   -0.32  -14.03   -0.32  -14.03  -19.20 -119.84
    5.92  -20.41 -118.06   -0.37  -14.93   -0.37  -14.93  -20.41 -118.06
    5.98  -22.06 -112.89   -0.40  -15.84   -0.40  -15.84  -22.06 -112.89
    6.04  -24.48  -99.00   -0.47  -17.33   -0.47  -17.33  -24.48  -99.00
    6.10  -26.08  -64.35   -0.61  -19.30   -0.61  -19.30  -26.08  -64.35
    6.16  -21.62  -26.22   -0.90  -21.79   -0.90  -21.79  -21.62  -26.22
    6.23  -15.39  -19.91   -1.61  -24.88   -1.61  -24.88  -15.39  -19.91
    6.29  -10.59  -35.15   -3.16  -24.30   -3.16  -24.30  -10.59  -35.15
    6.35   -8.25  -61.02   -4.17  -10.71   -4.17  -10.71   -8.25  -61.02
    6.41   -8.34  -83.10   -2.93   -1.29   -2.93   -1.29   -8.34  -83.10
    6.47   -9.11  -95.68   -1.83   -1.38   -1.83   -1.38   -9.11  -95.68
    6.53  -10.24 -103.85   -1.34   -2.62   -1.34   -2.62  -10.24 -103.85
    6.60  -11.05 -108.59   -1.07   -4.06   -1.07   -4.06  -11.05 -108.59
    6.66  -11.71 -111.03   -0.89   -5.23   -0.89   -5.23  -11.71 -111.03
    6.72  -12.26 -113.16   -0.79   -6.38   -0.79   -6.38  -12.26 -113.16
    6.78  -12.92 -114.68   -0.77   -7.07   -0.77   -7.07  -12.92 -114.68
    6.84  -13.39 -115.13   -0.71   -7.61   -0.71   -7.61  -13.39 -115.13
    6.90  -13.63 -116.08   -0.69   -8.09   -0.69   -8.09  -13.63 -116.08
    6.97  -13.90 -115.87   -0.67   -8.79   -0.67   -8.79  -13.90 -115.87
    7.03  -14.33 -116.74   -0.71   -8.74   -0.71   -8.74  -14.33 -116.74
    7.09  -14.48 -117.41   -0.65   -9.27   -0.65   -9.27  -14.48 -117.41
    7.15  -14.75 -117.07   -0.65   -9.60   -0.65   -9.60  -14.75 -117.07
    7.21  -15.00 -117.10   -0.65  -10.01   -0.65  -10.01  -15.00 -117.10
    7.27  -15.27 -116.95   -0.67  -10.27   -0.67  -10.27  -15.27 -116.95
    7.34  -15.37 -116.69   -0.67  -10.52   -0.67  -10.52  -15.37 -116.69
    7.40  -15.36 -116.77   -0.68  -10.55   -0.68  -10.55  -15.36 -116.77
    7.46  -15.55 -116.00   -0.69  -10.84   -0.69  -10.84  -15.55 -116.00
    7.52  -15.72 -116.84   -0.71  -10.84   -0.71  -10.84  -15.72 -116.84
    7.58  -15.65 -116.30   -0.72  -10.84   -0.72  -10.84  -15.65 -116.30
    7.65  -15.73 -116.42   -0.69  -10.76   -0.69  -10.76  -15.73 -116.42
    7.71  -15.67 -117.45   -0.71  -11.33   -0.71  -11.33  -15.67 -117.45
    7.77  -15.77 -118.64   -0.68  -11.04   -0.68  -11.04  -15.77 -118.64
    7.83  -15.90 -119.35   -0.66  -11.14   -0.66  -11.14  -15.90 -119.35
    7.89  -15.81 -119.94   -0.65  -11.36   -0.65  -11.36  -15.81 -119.94
    7.95  -16.08 -120.95   -0.64  -11.49   -0.64  -11.49  -16.08 -120.95
    8.02  -16.27 -122.97   -0.64  -11.61   -0.64  -11.61  -16.27 -122.97
    8.08  -16.29 -122.45   -0.62  -11.98   -0.62  -11.98  -16.29 -122.45
    8.14  -16.46 -123.25   -0.61  -12.12   -0.61  -12.12  -16.46 -123.25
    8.20  -16.63 -123.77   -0.61  -12.52   -0.61  -12.52  -16.63 -123.77
    8.26  -16.69 -124.60   -0.59  -12.57   -0.59  -12.57  -16.69 -124.60
    8.32  -16.72 -124.81   -0.61  -12.63   -0.61  -12.63  -16.72 -124.81
    8.39  -16.70 -126.06   -0.62  -12.83   -0.62  -12.83  -16.70 -126.06
    8.45  -16.96 -126.91   -0.61  -13.11   -0.61  -13.11  -16.96 -126.91
    8.51  -16.99 -128.41   -0.62  -13.39   -0.62  -13.39  -16.99 -128.41
    8.57  -17.14 -128.86   -0.60  -13.56   -0.60  -13.56  -17.14 -128.86
    8.63  -17.24 -129.76   -0.58  -13.80   -0.58  -13.80  -17.24 -129.76
    8.70  -17.40 -130.96   -0.61  -13.98   -0.61  -13.98  -17.40 -130.96
    8.76  -17.50 -132.59   -0.59  -14.21   -0.59  -14.21  -17.50 -132.59
    8.82  -17.63 -132.67   -0.60  -14.49   -0.60  -14.49  -17.63 -132.67
    8.88  -17.72 -133.94   -0.59  -14.54   -0.59  -14.54  -17.72 -133.94
    8.94  -17.94 -134.99   -0.57  -14.74   -0.57  -14.74  -17.94 -134.99
    9.00  -18.03 -136.63   -0.59  -15.09   -0.59  -15.09  -18.03 -136.63
    9.07  -18.13 -137.09   -0.58  -15.41   -0.58  -15.41  -18.13 -137.09
    9.13  -18.28 -138.23   -0.62  -15.63   -0.62  -15.63  -18.28 -138.23
    9.19  -18.50 -140.47   -0.62  -15.60   -0.62  -15.60  -18.50 -140.47
    9.25  -18.62 -141.93   -0.61  -16.21   -0.61  -16.21  -18.62 -141.93
    9.31  -18.83 -142.58   -0.64  -16.39   -0.64  -16.39  -18.83 -142.58
    9.37  -18.95 -144.40   -0.62  -16.67   -0.62  -16.67  -18.95 -144.40
    9.44  -19.25 -146.27   -0.64  -16.85   -0.64  -16.85  -19.25 -146.27
    9.50  -19.38 -148.25   -0.62  -17.16   -0.62  -17.16  -19.38 -148.25
    9.56  -19.57 -149.38   -0.65  -17.56   -0.65  -17.56  -19.57 -149.38
    9.62  -19.92 -150.99   -0.64  -17.85   -0.64  -17.85  -19.92 -150.99
    9.68  -20.10 -153.90   -0.67  -18.01   -0.67  -18.01  -20.10 -153.90
    9.74  -20.35 -156.31   -0.67  -18.41   -0.67  -18.41  -20.35 -156.31
    9.81  -20.66 -157.95   -0.65  -18.76   -0.65  -18.76  -20.66 -157.95
    9.87  -21.10 -161.22   -0.69  -18.97   -0.69  -18.97  -21.10 -161.22
    9.93  -21.61 -163.62   -0.69  -19.29   -0.69  -19.29  -21.61 -163.62
    9.99  -21.97 -166.72   -0.70  -19.63   -0.70  -19.63  -21.97 -166.72
   10.05  -22.60 -169.87   -0.72  -19.99   -0.72  -19.99  -22.60 -169.87
   10.12  -23.30 -174.13   -0.75  -20.67   -0.75  -20.67  -23.30 -174.13
   10.18  -24.01 -177.65   -0.78  -21.07   -0.78  -21.07  -24.01 -177.65
   10.24  -24.86  177.84   -0.79  -21.45   -0.79  -21.45  -24.86  177.84
   10.30  -25.91  171.81   -0.84  -22.08   -0.84  -22.08  -25.91  171.81
   10.36  -27.46  164.73   -0.90  -22.98   -0.90  -22.98  -27.46  164.73
   10.42  -29.32  156.13   -0.95  -23.51   -0.95  -23.51  -29.32  156.13
   10.49  -31.64  142.14   -1.03  -24.27   -1.03  -24.27  -31.64  142.14
   10.55  -35.35  115.65   -1.15  -25.04   -1.15  -25.04  -35.35  115.65
   10.61  -36.64   56.80   -1.33  -25.75   -1.33  -25.75  -36.64   56.80
   10.67  -32.47    9.19   -1.58  -26.37   -1.58  -26.37  -32.47    9.19
   10.73  -27.51  -20.68   -1.87  -26.83   -1.87  -26.83  -27.51  -20.68
   10.79  -24.07  -42.62   -2.30  -26.29   -2.30  -26.29  -24.07  -42.62
   10.86  -21.68  -65.08   -2.68  -24.09   -2.68  -24.09  -21.68  -65.08
   10.92  -20.39  -86.79   -2.88  -20.63   -2.88  -20.63  -20.39  -86.79
   10.98  -19.82 -107.72   -2.73  -17.56   -2.73  -17.56  -19.82 -107.72
   11.04  -19.96 -127.08   -2.40  -15.60   -2.40  -15.60  -19.96 -127.08
   11.10  -20.58 -144.87   -2.10  -14.89   -2.10  -14.89  -20.58 -144.87
   11.17  -21.39 -159.29   -1.87  -14.96   -1.87  -14.96  -21.39 -159.29
   11.23  -21.97 -174.28   -1.72  -15.37   -1.72  -15.37  -21.97 -174.28
   11.29  -22.77  171.99   -1.55  -15.88   -1.55  -15.88  -22.77  171.99
   11.35  -23.42  157.95   -1.47  -16.21   -1.47  -16.21  -23.42  157.95
   11.41  -23.86  143.28   -1.42  -16.76   -1.42  -16.76  -23.86  143.28
   11.47  -24.07  130.54   -1.39  -17.07   -1.39  -17.07  -24.07  130.54
   11.54  -24.37  119.51   -1.33  -17.62   -1.33  -17.62  -24.37  119.51
   11.60  -24.18  110.00   -1.30  -17.76   -1.30  -17.76  -24.18  110.00
   11.66  -23.72  101.47   -1.28  -18.05   -1.28  -18.05  -23.72  101.47
   11.72  -23.41   93.88   -1.24  -18.33   -1.24  -18.33  -23.41   93.88
   11.78  -22.83   87.42   -1.22  -18.99   -1.22  -18.99  -22.83   87.42
   11.84  -22.23   81.82   -1.24  -19.25   -1.24  -19.25  -22.23   81.82
   11.91  -21.65   77.26   -1.24  -19.27   -1.24  -19.27  -21.65   77.26
   11.97  -20.97   72.83   -1.23  -19.82   -1.23  -19.82  -20.97   72.83
   12.03  -20.51   68.82   -1.26  -19.99   -1.26  -19.99  -20.51   68.82
   12.09  -19.98   64.42   -1.20  -20.34   -1.20  -20.34  -19.98   64.42
   12.15  -19.39   61.23   -1.23  -20.65   -1.23  -20.65  -19.39   61.23
   12.21  -18.94   58.34   -1.25  -20.93   -1.25  -20.93  -18.94   58.34
   12.28  -18.60   55.93   -1.22  -21.23   -1.22  -21.23  -18.60   55.93
   12.34  -18.02   53.59   -1.22  -21.60   -1.22  -21.60  -18.02   53.59
   12.40  -17.59   51.56   -1.22  -21.85   -1.22  -21.85  -17.59   51.56
