!  American Technical Ceramics  Date:    3/13/98
!  One Norden Lane
!  Huntington Station,  NY.   11746-2102
!  Tel:  (516) 547-5700               Fax:  (516) 547-5748
!  Part Number  100b560j
!  Description: Porcelain, High Q, Low ESR
!  Application: Bypass, Coupling, Timing, Feedback
!               Tuning, Impedance Match, Blocking
# GHZ S DB R 50
! Freq   |S11|   S11 Ph  |S21|   S21 Ph  |S12|   S12 Ph  |S22|   S22 Ph
    0.05   -6.16  -60.44   -1.19   29.27   -1.19   29.27   -6.16  -60.44
    0.09  -10.40  -73.07   -0.41   17.29   -0.41   17.29  -10.40  -73.07
    0.13  -13.30  -77.98   -0.28   12.02   -0.28   12.02  -13.30  -77.98
    0.17  -15.46  -81.20   -0.11    9.10   -0.11    9.10  -15.46  -81.20
    0.21  -17.13  -83.21   -0.08    7.21   -0.08    7.21  -17.13  -83.21
    0.25  -18.41  -84.54   -0.05    6.08   -0.05    6.08  -18.41  -84.54
    0.29  -19.49  -85.81   -0.05    5.15   -0.05    5.15  -19.49  -85.81
    0.33  -20.31  -86.56   -0.03    4.32   -0.03    4.32  -20.31  -86.56
    0.37  -21.10  -87.21   -0.02    3.53   -0.02    3.53  -21.10  -87.21
    0.41  -21.70  -87.95   -0.02    3.17   -0.02    3.17  -21.70  -87.95
    0.45  -22.22  -88.72   -0.01    2.76   -0.01    2.76  -22.22  -88.72
    0.49  -22.61  -89.25   -0.01    2.43   -0.01    2.43  -22.61  -89.25
    0.53  -23.07  -89.80   -0.02    1.87   -0.02    1.87  -23.07  -89.80
    0.57  -23.28  -90.62   -0.02    1.74   -0.02    1.74  -23.28  -90.62
    0.61  -23.55  -90.83   -0.01    1.42   -0.01    1.42  -23.55  -90.83
    0.65  -23.64  -91.28   -0.01    1.17   -0.01    1.17  -23.64  -91.28
    0.69  -23.77  -91.88   -0.01    0.99   -0.01    0.99  -23.77  -91.88
    0.73  -23.85  -92.35   -0.01    0.69   -0.01    0.69  -23.85  -92.35
    0.77  -23.92  -92.84   -0.01    0.57   -0.01    0.57  -23.92  -92.84
    0.81  -23.93  -93.32   -0.01    0.43   -0.01    0.43  -23.93  -93.32
    0.85  -23.97  -93.66   -0.01    0.25   -0.01    0.25  -23.97  -93.66
    0.88  -23.97  -94.42   -0.02    0.11   -0.02    0.11  -23.97  -94.42
    0.92  -23.94  -94.89   -0.02   -0.06   -0.02   -0.06  -23.94  -94.89
    0.96  -23.90  -95.38   -0.02   -0.32   -0.02   -0.32  -23.90  -95.38
    1.00  -23.80  -95.95   -0.03   -0.29   -0.03   -0.29  -23.80  -95.95
    1.04  -23.77  -96.37   -0.04   -0.38   -0.04   -0.38  -23.77  -96.37
    1.08  -23.68  -96.91   -0.03   -0.55   -0.03   -0.55  -23.68  -96.91
    1.12  -23.57  -97.18   -0.02   -0.74   -0.02   -0.74  -23.57  -97.18
    1.16  -23.48  -97.80   -0.01   -0.78   -0.01   -0.78  -23.48  -97.80
    1.20  -23.43  -97.81   -0.04   -1.01   -0.04   -1.01  -23.43  -97.81
    1.24  -23.31  -98.35   -0.01   -1.04   -0.01   -1.04  -23.31  -98.35
    1.28  -23.22  -98.56   -0.03   -1.24   -0.03   -1.24  -23.22  -98.56
    1.32  -23.05  -99.16   -0.03   -1.20   -0.03   -1.20  -23.05  -99.16
    1.36  -23.01  -99.81   -0.03   -1.41   -0.03   -1.41  -23.01  -99.81
    1.40  -22.84  -99.86   -0.03   -1.36   -0.03   -1.36  -22.84  -99.86
    1.44  -22.79 -100.60   -0.04   -1.63   -0.04   -1.63  -22.79 -100.60
    1.48  -22.61 -100.53   -0.03   -1.69   -0.03   -1.69  -22.61 -100.53
    1.52  -22.53 -101.51   -0.03   -1.81   -0.03   -1.81  -22.53 -101.51
    1.56  -22.35 -101.62   -0.04   -1.99   -0.04   -1.99  -22.35 -101.62
    1.60  -22.28 -102.14   -0.05   -2.09   -0.05   -2.09  -22.28 -102.14
    1.64  -22.15 -102.26   -0.03   -2.13   -0.03   -2.13  -22.15 -102.26
    1.68  -22.03 -103.23   -0.05   -2.39   -0.05   -2.39  -22.03 -103.23
    1.72  -21.88 -103.13   -0.05   -2.24   -0.05   -2.24  -21.88 -103.13
    1.76  -21.81 -103.44   -0.03   -2.34   -0.03   -2.34  -21.81 -103.44
    1.80  -21.62 -103.87   -0.05   -2.61   -0.05   -2.61  -21.62 -103.87
    1.84  -21.58 -104.41   -0.06   -2.73   -0.06   -2.73  -21.58 -104.41
    1.88  -21.42 -104.13   -0.04   -2.75   -0.04   -2.75  -21.42 -104.13
    1.92  -21.32 -104.77   -0.04   -2.76   -0.04   -2.76  -21.32 -104.77
    1.96  -21.24 -104.78   -0.06   -3.01   -0.06   -3.01  -21.24 -104.78
    2.00  -21.17 -105.29   -0.05   -3.06   -0.05   -3.06  -21.17 -105.29
    2.04  -21.04 -105.94   -0.07   -3.15   -0.07   -3.15  -21.04 -105.94
    2.08  -20.93 -106.11   -0.05   -3.22   -0.05   -3.22  -20.93 -106.11
    2.12  -20.85 -106.57   -0.06   -3.37   -0.06   -3.37  -20.85 -106.57
    2.16  -20.71 -106.55   -0.06   -3.51   -0.06   -3.51  -20.71 -106.55
    2.20  -20.69 -107.36   -0.06   -3.58   -0.06   -3.58  -20.69 -107.36
    2.24  -20.62 -107.47   -0.05   -3.87   -0.05   -3.87  -20.62 -107.47
    2.28  -20.60 -107.88   -0.06   -3.97   -0.06   -3.97  -20.60 -107.88
    2.32  -20.50 -108.25   -0.07   -3.94   -0.07   -3.94  -20.50 -108.25
    2.36  -20.54 -108.88   -0.06   -4.19   -0.06   -4.19  -20.54 -108.88
    2.40  -20.46 -108.91   -0.06   -4.34   -0.06   -4.34  -20.46 -108.91
    2.44  -20.57 -109.57   -0.09   -4.35   -0.09   -4.35  -20.57 -109.57
    2.47  -20.55 -109.50   -0.08   -4.74   -0.08   -4.74  -20.55 -109.50
    2.51  -20.70 -110.33   -0.09   -4.83   -0.09   -4.83  -20.70 -110.33
    2.55  -20.90 -110.35   -0.08   -5.12   -0.08   -5.12  -20.90 -110.35
    2.59  -21.29 -111.37   -0.09   -5.43   -0.09   -5.43  -21.29 -111.37
    2.63  -21.78 -110.76   -0.11   -6.00   -0.11   -6.00  -21.78 -110.76
    2.67  -22.79 -109.96   -0.14   -6.51   -0.14   -6.51  -22.79 -109.96
    2.71  -24.80 -104.73   -0.22   -7.70   -0.22   -7.70  -24.80 -104.73
    2.75  -27.78  -69.07   -0.41   -9.09   -0.41   -9.09  -27.78  -69.07
    2.79  -19.66  -29.36   -1.12   -9.79   -1.12   -9.79  -19.66  -29.36
    2.83  -13.81  -59.27   -1.54   -2.36   -1.54   -2.36  -13.81  -59.27
    2.87  -13.78  -84.55   -0.79    0.13   -0.79    0.13  -13.78  -84.55
    2.91  -14.57  -95.15   -0.43   -0.69   -0.43   -0.69  -14.57  -95.15
    2.95  -15.17  -99.91   -0.31   -1.76   -0.31   -1.76  -15.17  -99.91
    2.99  -15.48 -102.59   -0.23   -2.41   -0.23   -2.41  -15.48 -102.59
    3.03  -15.70 -104.32   -0.22   -2.67   -0.22   -2.67  -15.70 -104.32
    3.07  -15.87 -105.25   -0.20   -3.10   -0.20   -3.10  -15.87 -105.25
    3.11  -16.00 -106.64   -0.20   -3.35   -0.20   -3.35  -16.00 -106.64
    3.15  -16.03 -106.89   -0.18   -3.52   -0.18   -3.52  -16.03 -106.89
    3.19  -16.12 -107.57   -0.20   -3.74   -0.20   -3.74  -16.12 -107.57
    3.23  -16.02 -107.97   -0.18   -3.96   -0.18   -3.96  -16.02 -107.97
    3.27  -16.10 -108.73   -0.19   -4.13   -0.19   -4.13  -16.10 -108.73
    3.31  -16.04 -108.77   -0.20   -4.32   -0.20   -4.32  -16.04 -108.77
    3.35  -16.06 -109.15   -0.20   -4.36   -0.20   -4.36  -16.06 -109.15
    3.39  -15.90 -109.33   -0.18   -4.54   -0.18   -4.54  -15.90 -109.33
    3.43  -15.97 -109.92   -0.18   -4.70   -0.18   -4.70  -15.97 -109.92
    3.47  -15.91 -109.52   -0.18   -4.86   -0.18   -4.86  -15.91 -109.52
    3.51  -15.93 -110.12   -0.20   -4.89   -0.20   -4.89  -15.93 -110.12
    3.55  -15.77 -110.11   -0.19   -5.09   -0.19   -5.09  -15.77 -110.11
    3.59  -15.72 -110.56   -0.18   -5.07   -0.18   -5.07  -15.72 -110.56
    3.63  -15.67 -110.71   -0.20   -5.03   -0.20   -5.03  -15.67 -110.71
    3.67  -15.68 -110.97   -0.21   -5.20   -0.21   -5.20  -15.68 -110.97
    3.71  -15.62 -110.81   -0.21   -5.39   -0.21   -5.39  -15.62 -110.81
    3.75  -15.50 -111.08   -0.20   -5.52   -0.20   -5.52  -15.50 -111.08
    3.79  -15.47 -111.55   -0.20   -5.55   -0.20   -5.55  -15.47 -111.55
    3.83  -15.42 -111.21   -0.21   -5.62   -0.21   -5.62  -15.42 -111.21
    3.87  -15.34 -111.56   -0.25   -5.71   -0.25   -5.71  -15.34 -111.56
    3.91  -15.22 -111.52   -0.23   -5.91   -0.23   -5.91  -15.22 -111.52
    3.95  -15.16 -111.99   -0.23   -5.93   -0.23   -5.93  -15.16 -111.99
    3.99  -15.07 -111.80   -0.23   -6.14   -0.23   -6.14  -15.07 -111.80
    4.03  -15.40 -113.99   -0.23   -6.18   -0.23   -6.18  -15.40 -113.99
    4.06  -15.32 -113.73   -0.22   -6.25   -0.22   -6.25  -15.32 -113.73
    4.10  -15.29 -114.35   -0.23   -6.35   -0.23   -6.35  -15.29 -114.35
    4.14  -15.23 -114.41   -0.22   -6.40   -0.22   -6.40  -15.23 -114.41
    4.18  -15.30 -114.61   -0.25   -6.38   -0.25   -6.38  -15.30 -114.61
    4.22  -15.18 -114.40   -0.24   -6.49   -0.24   -6.49  -15.18 -114.40
    4.26  -15.19 -115.39   -0.23   -6.80   -0.23   -6.80  -15.19 -115.39
    4.30  -15.17 -115.58   -0.23   -6.79   -0.23   -6.79  -15.17 -115.58
    4.34  -15.19 -115.95   -0.25   -6.69   -0.25   -6.69  -15.19 -115.95
    4.38  -15.17 -115.91   -0.23   -6.97   -0.23   -6.97  -15.17 -115.91
    4.42  -15.21 -116.12   -0.22   -7.04   -0.22   -7.04  -15.21 -116.12
    4.46  -15.17 -116.50   -0.23   -7.18   -0.23   -7.18  -15.17 -116.50
    4.50  -15.24 -116.53   -0.24   -7.33   -0.24   -7.33  -15.24 -116.53
    4.54  -15.23 -116.67   -0.24   -7.43   -0.24   -7.43  -15.23 -116.67
    4.58  -15.27 -116.73   -0.26   -7.37   -0.26   -7.37  -15.27 -116.73
    4.62  -15.32 -117.07   -0.27   -7.52   -0.27   -7.52  -15.32 -117.07
    4.66  -15.33 -117.11   -0.25   -7.77   -0.25   -7.77  -15.33 -117.11
    4.70  -15.47 -117.05   -0.28   -7.85   -0.28   -7.85  -15.47 -117.05
    4.74  -15.48 -117.19   -0.26   -8.06   -0.26   -8.06  -15.48 -117.19
    4.78  -15.62 -117.27   -0.30   -8.15   -0.30   -8.15  -15.62 -117.27
    4.82  -15.69 -117.12   -0.26   -8.33   -0.26   -8.33  -15.69 -117.12
    4.86  -15.92 -117.47   -0.30   -8.36   -0.30   -8.36  -15.92 -117.47
    4.90  -16.03 -116.78   -0.29   -8.90   -0.29   -8.90  -16.03 -116.78
    4.94  -16.33 -116.33   -0.33   -9.11   -0.33   -9.11  -16.33 -116.33
    4.98  -16.64 -115.19   -0.38   -9.33   -0.38   -9.33  -16.64 -115.19
    5.02  -17.11 -112.38   -0.42   -9.79   -0.42   -9.79  -17.11 -112.38
    5.06  -17.35 -106.53   -0.55  -10.07   -0.55  -10.07  -17.35 -106.53
    5.10  -17.03  -98.82   -0.72   -9.99   -0.72   -9.99  -17.03  -98.82
    5.14  -15.74  -93.78   -0.90   -9.12   -0.90   -9.12  -15.74  -93.78
    5.18  -14.47  -96.08   -0.91   -7.28   -0.91   -7.28  -14.47  -96.08
    5.22  -13.83 -100.75   -0.77   -6.39   -0.77   -6.39  -13.83 -100.75
    5.26  -13.79 -105.34   -0.62   -6.21   -0.62   -6.21  -13.79 -105.34
    5.30  -13.76 -107.69   -0.54   -6.46   -0.54   -6.46  -13.76 -107.69
    5.34  -13.89 -110.18   -0.48   -6.43   -0.48   -6.43  -13.89 -110.18
    5.38  -14.05 -111.67   -0.44   -6.76   -0.44   -6.76  -14.05 -111.67
    5.42  -14.23 -112.09   -0.44   -6.77   -0.44   -6.77  -14.23 -112.09
    5.46  -14.25 -112.66   -0.40   -7.04   -0.40   -7.04  -14.25 -112.66
    5.50  -14.35 -113.73   -0.39   -7.26   -0.39   -7.26  -14.35 -113.73
    5.54  -14.51 -114.03   -0.39   -7.37   -0.39   -7.37  -14.51 -114.03
    5.58  -14.55 -113.14   -0.35   -7.50   -0.35   -7.50  -14.55 -113.14
    5.62  -14.67 -114.59   -0.36   -7.47   -0.36   -7.47  -14.67 -114.59
    5.65  -14.72 -114.40   -0.35   -7.58   -0.35   -7.58  -14.72 -114.40
    5.69  -14.77 -114.99   -0.36   -7.88   -0.36   -7.88  -14.77 -114.99
    5.73  -14.84 -115.37   -0.36   -7.92   -0.36   -7.92  -14.84 -115.37
    5.77  -15.01 -115.70   -0.35   -7.95   -0.35   -7.95  -15.01 -115.70
    5.81  -14.98 -115.31   -0.31   -8.00   -0.31   -8.00  -14.98 -115.31
    5.85  -15.13 -116.04   -0.33   -8.15   -0.33   -8.15  -15.13 -116.04
    5.89  -15.18 -116.20   -0.33   -8.14   -0.33   -8.14  -15.18 -116.20
    5.93  -15.34 -116.63   -0.33   -8.45   -0.33   -8.45  -15.34 -116.63
    5.97  -15.36 -116.38   -0.34   -8.47   -0.34   -8.47  -15.36 -116.38
    6.01  -15.57 -116.74   -0.33   -8.55   -0.33   -8.55  -15.57 -116.74
    6.05  -15.53 -116.28   -0.34   -8.63   -0.34   -8.63  -15.53 -116.28
    6.09  -15.65 -116.78   -0.34   -8.71   -0.34   -8.71  -15.65 -116.78
    6.13  -15.75 -116.81   -0.33   -9.02   -0.33   -9.02  -15.75 -116.81
    6.17  -15.92 -116.71   -0.33   -8.99   -0.33   -8.99  -15.92 -116.71
    6.21  -15.94 -116.39   -0.34   -8.94   -0.34   -8.94  -15.94 -116.39
    6.25  -16.03 -116.79   -0.34   -9.20   -0.34   -9.20  -16.03 -116.79
    6.29  -16.13 -116.63   -0.33   -9.27   -0.33   -9.27  -16.13 -116.63
    6.33  -16.20 -116.89   -0.33   -9.29   -0.33   -9.29  -16.20 -116.89
    6.37  -16.32 -117.24   -0.34   -9.43   -0.34   -9.43  -16.32 -117.24
    6.41  -16.48 -117.51   -0.34   -9.41   -0.34   -9.41  -16.48 -117.51
    6.45  -16.61 -117.08   -0.35   -9.61   -0.35   -9.61  -16.61 -117.08
    6.49  -16.66 -117.61   -0.33   -9.68   -0.33   -9.68  -16.66 -117.61
    6.53  -16.93 -117.30   -0.35   -9.85   -0.35   -9.85  -16.93 -117.30
    6.57  -16.96 -117.27   -0.33   -9.97   -0.33   -9.97  -16.96 -117.27
    6.61  -17.13 -117.24   -0.37  -10.03   -0.37  -10.03  -17.13 -117.24
    6.65  -17.30 -116.41   -0.36  -10.15   -0.36  -10.15  -17.30 -116.41
    6.69  -17.46 -116.22   -0.38  -10.24   -0.38  -10.24  -17.46 -116.22
    6.73  -17.52 -116.16   -0.37  -10.51   -0.37  -10.51  -17.52 -116.16
    6.77  -17.76 -115.74   -0.41  -10.48   -0.41  -10.48  -17.76 -115.74
    6.81  -17.83 -114.55   -0.39  -10.64   -0.39  -10.64  -17.83 -114.55
    6.85  -17.99 -113.94   -0.42  -10.70   -0.42  -10.70  -17.99 -113.94
    6.89  -18.01 -113.60   -0.42  -10.97   -0.42  -10.97  -18.01 -113.60
    6.93  -18.28 -113.38   -0.45  -10.98   -0.45  -10.98  -18.28 -113.38
    6.97  -18.27 -112.22   -0.46  -11.12   -0.46  -11.12  -18.27 -112.22
    7.01  -18.45 -111.79   -0.47  -11.13   -0.47  -11.13  -18.45 -111.79
    7.05  -18.56 -110.13   -0.48  -11.31   -0.48  -11.31  -18.56 -110.13
    7.09  -18.74 -109.94   -0.51  -11.43   -0.51  -11.43  -18.74 -109.94
    7.13  -18.94 -108.36   -0.53  -11.68   -0.53  -11.68  -18.94 -108.36
    7.17  -19.03 -106.43   -0.56  -11.73   -0.56  -11.73  -19.03 -106.43
    7.21  -19.16 -103.32   -0.62  -11.86   -0.62  -11.86  -19.16 -103.32
    7.24  -19.07 -100.25   -0.66  -12.05   -0.66  -12.05  -19.07 -100.25
    7.28  -18.80  -96.67   -0.76  -11.93   -0.76  -11.93  -18.80  -96.67
    7.32  -18.21  -94.38   -0.81  -11.74   -0.81  -11.74  -18.21  -94.38
    7.36  -17.53  -94.17   -0.87  -11.21   -0.87  -11.21  -17.53  -94.17
    7.40  -16.99  -95.94   -0.87  -10.63   -0.87  -10.63  -16.99  -95.94
    7.44  -16.70  -97.52   -0.86  -10.21   -0.86  -10.21  -16.70  -97.52
    7.48  -16.39 -100.30   -0.82   -9.95   -0.82   -9.95  -16.39 -100.30
    7.52  -16.46 -102.62   -0.78   -9.66   -0.78   -9.66  -16.46 -102.62
    7.56  -16.33 -103.82   -0.74   -9.74   -0.74   -9.74  -16.33 -103.82
    7.60  -16.40 -105.90   -0.71   -9.62   -0.71   -9.62  -16.40 -105.90
    7.64  -16.42 -106.43   -0.68   -9.53   -0.68   -9.53  -16.42 -106.43
    7.68  -16.46 -108.03   -0.66   -9.80   -0.66   -9.80  -16.46 -108.03
    7.72  -16.45 -109.04   -0.62   -9.79   -0.62   -9.79  -16.45 -109.04
    7.76  -16.58 -110.19   -0.66   -9.71   -0.66   -9.71  -16.58 -110.19
    7.80  -16.62 -110.91   -0.62   -9.75   -0.62   -9.75  -16.62 -110.91
    7.84  -16.73 -111.67   -0.60  -10.00   -0.60  -10.00  -16.73 -111.67
    7.88  -16.72 -112.36   -0.58  -10.09   -0.58  -10.09  -16.72 -112.36
    7.92  -16.89 -113.44   -0.58  -10.14   -0.58  -10.14  -16.89 -113.44
    7.96  -16.92 -113.42   -0.57  -10.25   -0.57  -10.25  -16.92 -113.42
    8.00  -17.00 -114.69   -0.56  -10.36   -0.56  -10.36  -17.00 -114.69
