!  American Technical Ceramics  Date:    3/13/98
!  One Norden Lane
!  Huntington Station,  NY.   11746-2102
!  Tel:  (516) 547-5700               Fax:  (516) 547-5748
!  Part Number  180r2r2c
!  Description: Porcelain, High Q, Low ESR
!  Application: Bypass, Coupling, Timing, Feedback
!               Tuning, Impedance Match, Blocking
# GHZ S DB R 50
! Freq   |S11|   S11 Ph  |S21|   S21 Ph  |S12|   S12 Ph  |S22|   S22 Ph
    0.05   -0.02   -3.66  -23.00   84.49  -23.00   84.49   -0.02   -3.66
    0.15   -0.16  -13.92  -13.20   76.65  -13.20   76.65   -0.16  -13.92
    0.25   -0.55  -22.00   -9.13   68.55   -9.13   68.55   -0.55  -22.00
    0.35   -1.01  -29.69   -6.70   61.28   -6.70   61.28   -1.01  -29.69
    0.45   -1.53  -36.65   -5.08   54.69   -5.08   54.69   -1.53  -36.65
    0.55   -2.31  -43.12   -3.96   48.45   -3.96   48.45   -2.31  -43.12
    0.65   -2.93  -48.33   -3.16   43.51   -3.16   43.51   -2.93  -48.33
    0.75   -3.51  -52.71   -2.60   39.46   -2.60   39.46   -3.51  -52.71
    0.85   -4.13  -56.76   -2.18   35.86   -2.18   35.86   -4.13  -56.76
    0.95   -4.64  -59.95   -1.88   32.77   -1.88   32.77   -4.64  -59.95
    1.05   -5.12  -63.00   -1.64   30.10   -1.64   30.10   -5.12  -63.00
    1.15   -5.57  -65.69   -1.41   27.77   -1.41   27.77   -5.57  -65.69
    1.25   -6.06  -67.77   -1.24   25.81   -1.24   25.81   -6.06  -67.77
    1.35   -6.47  -69.89   -1.13   24.03   -1.13   24.03   -6.47  -69.89
    1.45   -6.81  -71.89   -1.06   22.37   -1.06   22.37   -6.81  -71.89
    1.55   -7.13  -73.53   -0.98   20.84   -0.98   20.84   -7.13  -73.53
    1.65   -7.46  -75.16   -0.88   19.40   -0.88   19.40   -7.46  -75.16
    1.75   -7.72  -76.60   -0.80   18.56   -0.80   18.56   -7.72  -76.60
    1.85   -8.08  -78.20   -0.76   17.49   -0.76   17.49   -8.08  -78.20
    1.95   -8.32  -79.16   -0.75   16.33   -0.75   16.33   -8.32  -79.16
    2.05   -8.52  -80.39   -0.70   15.33   -0.70   15.33   -8.52  -80.39
    2.14   -8.71  -81.18   -0.65   14.40   -0.65   14.40   -8.71  -81.18
    2.24   -8.94  -82.54   -0.59   13.81   -0.59   13.81   -8.94  -82.54
    2.34   -9.15  -83.83   -0.60   12.97   -0.60   12.97   -9.15  -83.83
    2.44   -9.34  -84.82   -0.57   12.45   -0.57   12.45   -9.34  -84.82
    2.54   -9.47  -85.48   -0.57   11.76   -0.57   11.76   -9.47  -85.48
    2.64   -9.57  -85.42   -0.52   10.88   -0.52   10.88   -9.57  -85.42
    2.74   -9.73  -86.36   -0.51   10.50   -0.51   10.50   -9.73  -86.36
    2.84   -9.95  -87.48   -0.53    9.78   -0.53    9.78   -9.95  -87.48
    2.94  -10.03  -88.78   -0.50    9.36   -0.50    9.36  -10.03  -88.78
    3.04  -10.02  -88.86   -0.51    8.60   -0.51    8.60  -10.02  -88.86
    3.14  -10.17  -89.52   -0.49    8.23   -0.49    8.23  -10.17  -89.52
    3.24  -10.16  -90.20   -0.49    7.73   -0.49    7.73  -10.16  -90.20
    3.34  -10.42  -91.47   -0.48    6.94   -0.48    6.94  -10.42  -91.47
    3.44  -10.37  -92.60   -0.48    6.80   -0.48    6.80  -10.37  -92.60
    3.54  -10.35  -92.27   -0.51    6.21   -0.51    6.21  -10.35  -92.27
    3.64  -10.27  -93.18   -0.47    5.88   -0.47    5.88  -10.27  -93.18
    3.74  -10.37  -93.28   -0.51    5.52   -0.51    5.52  -10.37  -93.28
    3.84  -10.45  -94.94   -0.51    5.13   -0.51    5.13  -10.45  -94.94
    3.94  -10.39  -95.43   -0.52    4.63   -0.52    4.63  -10.39  -95.43
    4.04  -10.42  -96.89   -0.51    4.51   -0.51    4.51  -10.42  -96.89
    4.14  -10.29  -97.68   -0.48    4.07   -0.48    4.07  -10.29  -97.68
    4.24  -10.31  -97.63   -0.50    3.79   -0.50    3.79  -10.31  -97.63
    4.34  -10.39  -99.51   -0.51    3.60   -0.51    3.60  -10.39  -99.51
    4.44  -10.34 -100.01   -0.53    3.23   -0.53    3.23  -10.34 -100.01
    4.54  -10.29 -100.33   -0.57    2.84   -0.57    2.84  -10.29 -100.33
    4.64  -10.20 -100.94   -0.50    2.59   -0.50    2.59  -10.20 -100.94
    4.74  -10.18 -100.27   -0.51    2.78   -0.51    2.78  -10.18 -100.27
    4.84  -10.25 -101.53   -0.56    2.26   -0.56    2.26  -10.25 -101.53
    4.94  -10.14 -102.03   -0.58    2.07   -0.58    2.07  -10.14 -102.03
    5.04  -10.25 -102.37   -0.59    1.67   -0.59    1.67  -10.25 -102.37
    5.14  -10.02 -103.08   -0.55    1.36   -0.55    1.36  -10.02 -103.08
    5.24  -10.11 -102.87   -0.56    1.69   -0.56    1.69  -10.11 -102.87
    5.34  -10.00 -103.68   -0.56    1.55   -0.56    1.55  -10.00 -103.68
    5.44  -10.17 -103.48   -0.62    1.22   -0.62    1.22  -10.17 -103.48
    5.54   -9.98 -104.82   -0.60    0.63   -0.60    0.63   -9.98 -104.82
    5.64   -9.98 -104.28   -0.61    0.70   -0.61    0.70   -9.98 -104.28
    5.74   -9.88 -105.46   -0.57    0.62   -0.57    0.62   -9.88 -105.46
    5.84   -9.98 -104.95   -0.58    0.78   -0.58    0.78   -9.98 -104.95
    5.94  -10.02 -106.53   -0.62    0.38   -0.62    0.38  -10.02 -106.53
    6.04  -10.06 -106.38   -0.63    0.23   -0.63    0.23  -10.06 -106.38
    6.13   -9.93 -106.79   -0.62    0.10   -0.62    0.10   -9.93 -106.79
    6.23   -9.99 -106.81   -0.64    0.00   -0.64    0.00   -9.99 -106.81
    6.33  -10.03 -107.37   -0.62    0.20   -0.62    0.20  -10.03 -107.37
    6.43  -10.21 -108.02   -0.65    0.16   -0.65    0.16  -10.21 -108.02
    6.53  -10.14 -108.87   -0.64   -0.36   -0.64   -0.36  -10.14 -108.87
    6.63  -10.23 -108.53   -0.65   -0.32   -0.65   -0.32  -10.23 -108.53
    6.73  -10.22 -108.81   -0.63   -0.64   -0.63   -0.64  -10.22 -108.81
    6.83  -10.48 -108.85   -0.66   -0.40   -0.66   -0.40  -10.48 -108.85
    6.93  -10.49 -109.75   -0.68   -0.55   -0.68   -0.55  -10.49 -109.75
    7.03  -10.59 -109.46   -0.69   -0.58   -0.69   -0.58  -10.59 -109.46
    7.13  -10.48 -109.27   -0.69   -0.78   -0.69   -0.78  -10.48 -109.27
    7.23  -10.62 -109.47   -0.66   -1.00   -0.66   -1.00  -10.62 -109.47
    7.33  -10.73 -109.30   -0.69   -0.92   -0.69   -0.92  -10.73 -109.30
    7.43  -10.91 -109.65   -0.72   -0.85   -0.72   -0.85  -10.91 -109.65
    7.53  -10.83 -108.82   -0.74   -1.13   -0.74   -1.13  -10.83 -108.82
    7.63  -10.90 -108.93   -0.78   -0.82   -0.78   -0.82  -10.90 -108.93
    7.73  -10.73 -108.73   -0.73   -1.44   -0.73   -1.44  -10.73 -108.73
    7.83  -11.00 -109.21   -0.72   -0.87   -0.72   -0.87  -11.00 -109.21
    7.93  -11.00 -110.22   -0.75   -1.21   -0.75   -1.21  -11.00 -110.22
    8.03  -11.18 -110.13   -0.72   -1.12   -0.72   -1.12  -11.18 -110.13
    8.13  -11.05 -110.05   -0.76   -1.29   -0.76   -1.29  -11.05 -110.05
    8.23  -11.16 -109.80   -0.73   -1.59   -0.73   -1.59  -11.16 -109.80
    8.33  -11.22 -110.21   -0.71   -1.33   -0.71   -1.33  -11.22 -110.21
    8.43  -11.33 -111.71   -0.69   -1.56   -0.69   -1.56  -11.33 -111.71
    8.53  -11.35 -111.84   -0.74   -1.63   -0.74   -1.63  -11.35 -111.84
    8.63  -11.42 -111.99   -0.73   -1.82   -0.73   -1.82  -11.42 -111.99
    8.73  -11.42 -112.50   -0.73   -2.16   -0.73   -2.16  -11.42 -112.50
    8.83  -11.55 -113.36   -0.71   -2.38   -0.71   -2.38  -11.55 -113.36
    8.93  -11.70 -114.64   -0.71   -2.52   -0.71   -2.52  -11.70 -114.64
    9.03  -11.71 -115.39   -0.74   -2.78   -0.74   -2.78  -11.71 -115.39
    9.13  -11.78 -115.13   -0.77   -2.92   -0.77   -2.92  -11.78 -115.13
    9.23  -11.67 -115.32   -0.79   -2.82   -0.79   -2.82  -11.67 -115.32
    9.33  -11.62 -116.31   -0.76   -3.18   -0.76   -3.18  -11.62 -116.31
    9.43  -11.78 -118.70   -0.78   -3.11   -0.78   -3.11  -11.78 -118.70
    9.53  -11.69 -120.15   -0.79   -3.20   -0.79   -3.20  -11.69 -120.15
    9.63  -11.71 -120.95   -0.76   -3.55   -0.76   -3.55  -11.71 -120.95
    9.73  -11.56 -122.31   -0.80   -3.53   -0.80   -3.53  -11.56 -122.31
    9.83  -11.56 -123.82   -0.82   -3.77   -0.82   -3.77  -11.56 -123.82
    9.93  -11.71 -126.22   -0.80   -4.01   -0.80   -4.01  -11.71 -126.22
   10.03  -11.61 -128.18   -0.78   -4.15   -0.78   -4.15  -11.61 -128.18
   10.12  -11.59 -129.44   -0.79   -4.35   -0.79   -4.35  -11.59 -129.44
   10.22  -11.40 -130.79   -0.81   -4.36   -0.81   -4.36  -11.40 -130.79
   10.32  -11.41 -131.85   -0.85   -4.68   -0.85   -4.68  -11.41 -131.85
   10.42  -11.53 -133.93   -0.88   -4.75   -0.88   -4.75  -11.53 -133.93
   10.52  -11.44 -136.21   -0.89   -5.26   -0.89   -5.26  -11.44 -136.21
   10.62  -11.41 -136.67   -0.89   -5.36   -0.89   -5.36  -11.41 -136.67
   10.72  -11.32 -138.98   -0.89   -5.35   -0.89   -5.35  -11.32 -138.98
   10.82  -11.31 -138.59   -0.93   -5.22   -0.93   -5.22  -11.31 -138.59
   10.92  -11.45 -141.16   -0.97   -5.72   -0.97   -5.72  -11.45 -141.16
   11.02  -11.38 -141.90   -0.95   -6.00   -0.95   -6.00  -11.38 -141.90
   11.12  -11.41 -143.75   -0.95   -6.39   -0.95   -6.39  -11.41 -143.75
   11.22  -11.24 -144.14   -0.94   -6.19   -0.94   -6.19  -11.24 -144.14
   11.32  -11.37 -144.88   -1.02   -6.33   -1.02   -6.33  -11.37 -144.88
   11.42  -11.50 -146.34   -1.03   -6.51   -1.03   -6.51  -11.50 -146.34
   11.52  -11.47 -147.14   -1.04   -6.68   -1.04   -6.68  -11.47 -147.14
   11.62  -11.51 -147.17   -1.06   -6.80   -1.06   -6.80  -11.51 -147.17
   11.72  -11.55 -148.67   -1.08   -6.96   -1.08   -6.96  -11.55 -148.67
   11.82  -11.55 -148.60   -1.07   -6.93   -1.07   -6.93  -11.55 -148.60
   11.92  -11.89 -150.35   -1.13   -7.22   -1.13   -7.22  -11.89 -150.35
   12.02  -11.85 -151.57   -1.13   -7.12   -1.13   -7.12  -11.85 -151.57
   12.12  -12.06 -152.50   -1.14   -7.31   -1.14   -7.31  -12.06 -152.50
   12.22  -12.13 -153.00   -1.14   -7.41   -1.14   -7.41  -12.13 -153.00
   12.32  -12.31 -154.21   -1.12   -7.47   -1.12   -7.47  -12.31 -154.21
   12.42  -12.70 -154.82   -1.16   -7.36   -1.16   -7.36  -12.70 -154.82
   12.52  -12.91 -156.92   -1.18   -7.66   -1.18   -7.66  -12.91 -156.92
   12.62  -13.23 -156.68   -1.15   -7.65   -1.15   -7.65  -13.23 -156.68
   12.72  -13.50 -158.52   -1.16   -8.09   -1.16   -8.09  -13.50 -158.52
   12.82  -13.78 -158.66   -1.10   -8.22   -1.10   -8.22  -13.78 -158.66
   12.92  -14.28 -161.03   -1.13   -8.25   -1.13   -8.25  -14.28 -161.03
   13.02  -14.72 -162.37   -1.11   -8.47   -1.11   -8.47  -14.72 -162.37
   13.12  -15.05 -164.21   -1.12   -8.94   -1.12   -8.94  -15.05 -164.21
   13.22  -15.57 -165.47   -1.08   -9.41   -1.08   -9.41  -15.57 -165.47
   13.32  -16.16 -168.33   -1.11   -9.94   -1.11   -9.94  -16.16 -168.33
   13.42  -16.95 -171.57   -1.10  -10.14   -1.10  -10.14  -16.95 -171.57
   13.52  -17.69 -175.86   -1.10  -10.63   -1.10  -10.63  -17.69 -175.86
   13.62  -18.39  179.83   -1.09  -11.30   -1.09  -11.30  -18.39  179.83
   13.72  -19.56  174.16   -1.12  -12.26   -1.12  -12.26  -19.56  174.16
   13.82  -20.81  167.55   -1.14  -12.86   -1.14  -12.86  -20.81  167.55
   13.92  -22.18  157.15   -1.15  -13.65   -1.15  -13.65  -22.18  157.15
   14.02  -23.42  141.67   -1.17  -14.60   -1.17  -14.60  -23.42  141.67
   14.11  -24.36  118.06   -1.21  -15.80   -1.21  -15.80  -24.36  118.06
   14.21  -23.86   95.60   -1.28  -17.30   -1.28  -17.30  -23.86   95.60
   14.31  -22.17   74.14   -1.39  -18.96   -1.39  -18.96  -22.17   74.14
   14.41  -19.93   53.41   -1.48  -21.07   -1.48  -21.07  -19.93   53.41
   14.51  -17.43   39.70   -1.56  -23.80   -1.56  -23.80  -17.43   39.70
   14.61  -14.79   26.02   -1.91  -27.62   -1.91  -27.62  -14.79   26.02
   14.71  -11.91   12.22   -2.43  -32.98   -2.43  -32.98  -11.91   12.22
   14.81   -9.06   -3.63   -3.56  -40.28   -3.56  -40.28   -9.06   -3.63
   14.91   -6.55  -26.94   -6.33  -48.59   -6.33  -48.59   -6.55  -26.94
   15.01   -5.31  -57.72  -13.36  -29.04  -13.36  -29.04   -5.31  -57.72
   15.11   -5.72  -89.00   -9.18   27.26   -9.18   27.26   -5.72  -89.00
   15.21   -7.47 -113.73   -4.99   24.21   -4.99   24.21   -7.47 -113.73
   15.31   -9.22 -130.10   -3.32   16.75   -3.32   16.75   -9.22 -130.10
   15.41  -11.24 -144.56   -2.62   11.44   -2.62   11.44  -11.24 -144.56
   15.51  -12.74 -154.58   -2.28    7.68   -2.28    7.68  -12.74 -154.58
   15.61  -13.94 -165.51   -2.09    4.90   -2.09    4.90  -13.94 -165.51
   15.71  -14.86 -173.37   -1.95    2.98   -1.95    2.98  -14.86 -173.37
   15.81  -15.60  178.07   -1.95    1.04   -1.95    1.04  -15.60  178.07
   15.91  -16.30  171.75   -1.94   -0.17   -1.94   -0.17  -16.30  171.75
   16.01  -16.78  163.21   -1.88   -1.35   -1.88   -1.35  -16.78  163.21
   16.11  -16.94  157.32   -1.85   -2.42   -1.85   -2.42  -16.94  157.32
   16.21  -17.06  151.49   -1.82   -3.06   -1.82   -3.06  -17.06  151.49
   16.31  -17.01  146.53   -1.83   -3.73   -1.83   -3.73  -17.01  146.53
   16.41  -16.99  142.10   -1.84   -4.49   -1.84   -4.49  -16.99  142.10
   16.51  -16.96  137.82   -1.79   -5.57   -1.79   -5.57  -16.96  137.82
   16.61  -16.88  134.78   -1.89   -6.09   -1.89   -6.09  -16.88  134.78
   16.71  -16.63  132.01   -1.92   -7.13   -1.92   -7.13  -16.63  132.01
   16.81  -16.04  128.29   -1.96   -7.55   -1.96   -7.55  -16.04  128.29
   16.91  -15.87  125.46   -2.01   -8.10   -2.01   -8.10  -15.87  125.46
   17.01  -15.38  121.46   -2.09   -8.35   -2.09   -8.35  -15.38  121.46
   17.11  -15.36  118.95   -2.15   -8.53   -2.15   -8.53  -15.36  118.95
   17.21  -14.91  113.67   -2.26   -9.11   -2.26   -9.11  -14.91  113.67
   17.31  -14.98  110.53   -2.30   -9.04   -2.30   -9.04  -14.98  110.53
   17.41  -14.70  107.09   -2.29   -8.98   -2.29   -8.98  -14.70  107.09
   17.51  -14.89  101.84   -2.28   -8.99   -2.28   -8.99  -14.89  101.84
   17.61  -14.69   98.51   -2.31   -9.37   -2.31   -9.37  -14.69   98.51
   17.71  -15.14   95.38   -2.31   -9.42   -2.31   -9.42  -15.14   95.38
   17.81  -14.88   92.16   -2.28  -10.05   -2.28  -10.05  -14.88   92.16
   17.91  -15.01   88.77   -2.29  -10.46   -2.29  -10.46  -15.01   88.77
   18.01  -15.00   85.55   -2.28  -11.02   -2.28  -11.02  -15.00   85.55
   18.10  -14.98   82.30   -2.28  -11.73   -2.28  -11.73  -14.98   82.30
   18.20  -14.76   79.21   -2.37  -11.96   -2.37  -11.96  -14.76   79.21
   18.30  -14.52   75.74   -2.41  -12.73   -2.41  -12.73  -14.52   75.74
   18.40  -14.21   71.67   -2.50  -13.40   -2.50  -13.40  -14.21   71.67
   18.50  -13.78   66.94   -2.58  -13.54   -2.58  -13.54  -13.78   66.94
   18.60  -13.50   62.13   -2.67  -13.92   -2.67  -13.92  -13.50   62.13
   18.70  -13.06   57.65   -2.71  -14.05   -2.71  -14.05  -13.06   57.65
   18.80  -12.55   53.07   -2.81  -14.37   -2.81  -14.37  -12.55   53.07
   18.90  -12.18   48.75   -2.81  -14.84   -2.81  -14.84  -12.18   48.75
   19.00  -11.69   43.11   -2.85  -14.84   -2.85  -14.84  -11.69   43.11
   19.10  -11.31   39.76   -2.90  -15.39   -2.90  -15.39  -11.31   39.76
   19.20  -10.89   36.01   -2.98  -15.71   -2.98  -15.71  -10.89   36.01
   19.30  -10.36   32.57   -3.04  -16.17   -3.04  -16.17  -10.36   32.57
   19.40  -10.02   29.13   -3.08  -16.75   -3.08  -16.75  -10.02   29.13
   19.50   -9.56   25.47   -3.14  -17.48   -3.14  -17.48   -9.56   25.47
   19.60   -9.19   23.99   -3.23  -17.80   -3.23  -17.80   -9.19   23.99
   19.70   -8.64   19.98   -3.30  -18.15   -3.30  -18.15   -8.64   19.98
   19.80   -8.27   19.59   -3.47  -18.54   -3.47  -18.54   -8.27   19.59
   19.90   -7.90   16.16   -3.52  -19.22   -3.52  -19.22   -7.90   16.16
   20.00   -7.59   14.51   -3.63  -19.46   -3.63  -19.46   -7.59   14.51
