!  American Technical Ceramics  Date:     3/6/98
!  One Norden Lane
!  Huntington Station,  NY.   11746-2102
!  Tel:  (516) 547-5700               Fax:  (516) 547-5748
!  Part Number  500S1R8
!  Description: Broadband Microwave capacitor
!  Application:
!
# GHZ S DB R 50
! Freq   |S11|   S11 Ph  |S21|   S21 Ph  |S12|   S12 Ph  |S22|   S22 Ph
    0.05    0.01   -2.90  -25.50   87.96  -25.50   87.96    0.01   -2.90
    0.18   -0.11  -11.14  -14.25   79.16  -14.25   79.16   -0.11  -11.14
    0.31   -0.39  -18.90   -9.76   71.24   -9.76   71.24   -0.39  -18.90
    0.45   -0.83  -26.07   -7.15   64.54   -7.15   64.54   -0.83  -26.07
    0.58   -1.44  -32.89   -5.39   57.23   -5.39   57.23   -1.44  -32.89
    0.71   -2.10  -38.42   -4.25   51.27   -4.25   51.27   -2.10  -38.42
    0.84   -2.73  -43.92   -3.40   46.74   -3.40   46.74   -2.73  -43.92
    0.98   -3.23  -47.09   -2.70   42.29   -2.70   42.29   -3.23  -47.09
    1.11   -3.95  -51.16   -2.25   39.19   -2.25   39.19   -3.95  -51.16
    1.24   -4.61  -53.74   -1.87   36.43   -1.87   36.43   -4.61  -53.74
    1.37   -5.08  -56.85   -1.56   33.20   -1.56   33.20   -5.08  -56.85
    1.50   -5.73  -59.62   -1.34   31.03   -1.34   31.03   -5.73  -59.62
    1.64   -6.19  -60.97   -1.11   28.63   -1.11   28.63   -6.19  -60.97
    1.77   -6.79  -63.58   -0.97   26.69   -0.97   26.69   -6.79  -63.58
    1.90   -7.32  -64.84   -0.85   25.09   -0.85   25.09   -7.32  -64.84
    2.03   -7.78  -66.74   -0.76   23.43   -0.76   23.43   -7.78  -66.74
    2.17   -8.34  -67.99   -0.67   22.04   -0.67   22.04   -8.34  -67.99
    2.30   -8.77  -68.96   -0.58   20.74   -0.58   20.74   -8.77  -68.96
    2.43   -9.27  -70.78   -0.53   19.66   -0.53   19.66   -9.27  -70.78
    2.56   -9.79  -71.00   -0.45   18.44   -0.45   18.44   -9.79  -71.00
    2.70  -10.22  -72.66   -0.40   17.41   -0.40   17.41  -10.22  -72.66
    2.83  -10.67  -73.32   -0.37   16.54   -0.37   16.54  -10.67  -73.32
    2.96  -11.08  -73.74   -0.34   15.48   -0.34   15.48  -11.08  -73.74
    3.09  -11.64  -74.79   -0.32   14.71   -0.32   14.71  -11.64  -74.79
    3.22  -11.99  -74.71   -0.30   13.82   -0.30   13.82  -11.99  -74.71
    3.36  -12.40  -76.09   -0.28   13.14   -0.28   13.14  -12.40  -76.09
    3.49  -12.76  -75.75   -0.26   12.52   -0.26   12.52  -12.76  -75.75
    3.62  -13.10  -76.16   -0.26   11.81   -0.26   11.81  -13.10  -76.16
    3.75  -13.56  -76.86   -0.25   11.15   -0.25   11.15  -13.56  -76.86
    3.89  -13.77  -76.78   -0.25   10.47   -0.25   10.47  -13.77  -76.78
    4.02  -14.04  -78.81   -0.18   10.17   -0.18   10.17  -14.04  -78.81
    4.15  -14.30  -78.54   -0.16    9.65   -0.16    9.65  -14.30  -78.54
    4.28  -14.54  -79.18   -0.16    9.20   -0.16    9.20  -14.54  -79.18
    4.41  -14.90  -79.31   -0.17    8.76   -0.17    8.76  -14.90  -79.31
    4.55  -15.11  -79.50   -0.16    8.32   -0.16    8.32  -15.11  -79.50
    4.68  -15.35  -80.11   -0.17    7.95   -0.17    7.95  -15.35  -80.11
    4.81  -15.47  -79.73   -0.16    7.65   -0.16    7.65  -15.47  -79.73
    4.94  -15.69  -79.85   -0.15    7.40   -0.15    7.40  -15.69  -79.85
    5.08  -15.93  -79.54   -0.16    7.11   -0.16    7.11  -15.93  -79.54
    5.21  -16.01  -80.26   -0.15    6.72   -0.15    6.72  -16.01  -80.26
    5.34  -16.22  -80.76   -0.13    6.49   -0.13    6.49  -16.22  -80.76
    5.47  -16.33  -79.98   -0.14    6.18   -0.14    6.18  -16.33  -79.98
    5.60  -16.51  -81.04   -0.14    5.94   -0.14    5.94  -16.51  -81.04
    5.74  -16.68  -80.84   -0.13    5.80   -0.13    5.80  -16.68  -80.84
    5.87  -16.91  -81.23   -0.14    5.49   -0.14    5.49  -16.91  -81.23
    6.00  -17.17  -82.41   -0.15    5.21   -0.15    5.21  -17.17  -82.41
    6.13  -17.21  -81.77   -0.13    4.99   -0.13    4.99  -17.21  -81.77
    6.27  -17.54  -82.12   -0.13    4.84   -0.13    4.84  -17.54  -82.12
    6.40  -17.84  -82.85   -0.15    4.62   -0.15    4.62  -17.84  -82.85
    6.53  -18.21  -82.94   -0.15    4.48   -0.15    4.48  -18.21  -82.94
    6.66  -18.54  -82.62   -0.15    4.25   -0.15    4.25  -18.54  -82.62
    6.79  -18.73  -83.03   -0.16    3.99   -0.16    3.99  -18.73  -83.03
    6.93  -19.21  -82.27   -0.16    3.96   -0.16    3.96  -19.21  -82.27
    7.06  -19.55  -80.12   -0.16    3.81   -0.16    3.81  -19.55  -80.12
    7.19  -19.92  -81.33   -0.17    3.57   -0.17    3.57  -19.92  -81.33
    7.32  -20.43  -79.85   -0.19    3.50   -0.19    3.50  -20.43  -79.85
    7.46  -20.89  -77.15   -0.19    3.37   -0.19    3.37  -20.89  -77.15
    7.59  -21.02  -76.32   -0.21    3.27   -0.21    3.27  -21.02  -76.32
    7.72  -21.41  -74.51   -0.20    3.26   -0.20    3.26  -21.41  -74.51
    7.85  -22.05  -73.67   -0.19    3.25   -0.19    3.25  -22.05  -73.67
    7.99  -22.28  -72.60   -0.20    3.13   -0.20    3.13  -22.28  -72.60
    8.12  -22.87  -71.37   -0.19    3.00   -0.19    3.00  -22.87  -71.37
    8.25  -23.49  -69.86   -0.19    2.97   -0.19    2.97  -23.49  -69.86
    8.38  -24.04  -67.60   -0.19    2.80   -0.19    2.80  -24.04  -67.60
    8.51  -24.80  -66.00   -0.19    2.71   -0.19    2.71  -24.80  -66.00
    8.65  -25.42  -63.73   -0.18    2.63   -0.18    2.63  -25.42  -63.73
    8.78  -26.12  -61.74   -0.18    2.50   -0.18    2.50  -26.12  -61.74
    8.91  -26.92  -58.21   -0.18    2.39   -0.18    2.39  -26.92  -58.21
    9.04  -27.40  -53.70   -0.18    2.24   -0.18    2.24  -27.40  -53.70
    9.18  -27.87  -51.71   -0.19    2.20   -0.19    2.20  -27.87  -51.71
    9.31  -28.33  -48.25   -0.20    2.16   -0.20    2.16  -28.33  -48.25
    9.44  -28.77  -47.14   -0.19    2.18   -0.19    2.18  -28.77  -47.14
    9.57  -29.11  -44.98   -0.19    2.08   -0.19    2.08  -29.11  -44.98
    9.70  -29.52  -46.13   -0.18    2.11   -0.18    2.11  -29.52  -46.13
    9.84  -30.29  -46.06   -0.18    2.06   -0.18    2.06  -30.29  -46.06
    9.97  -30.71  -44.49   -0.17    1.97   -0.17    1.97  -30.71  -44.49
   10.10  -31.04  -46.15   -0.17    1.96   -0.17    1.96  -31.04  -46.15
   10.23  -31.46  -49.06   -0.15    1.98   -0.15    1.98  -31.46  -49.06
   10.37  -32.08  -52.47   -0.14    1.93   -0.14    1.93  -32.08  -52.47
   10.50  -32.41  -54.12   -0.12    1.84   -0.12    1.84  -32.41  -54.12
   10.63  -32.99  -57.58   -0.11    1.74   -0.11    1.74  -32.99  -57.58
   10.76  -33.63  -61.55   -0.10    1.64   -0.10    1.64  -33.63  -61.55
   10.89  -33.56  -61.05   -0.10    1.57   -0.10    1.57  -33.56  -61.05
   11.03  -33.33  -62.15   -0.10    1.52   -0.10    1.52  -33.33  -62.15
   11.16  -33.33  -66.46   -0.09    1.41   -0.09    1.41  -33.33  -66.46
   11.29  -33.16  -66.59   -0.08    1.34   -0.08    1.34  -33.16  -66.59
   11.42  -32.71  -66.96   -0.07    1.29   -0.07    1.29  -32.71  -66.96
   11.56  -32.40  -69.39   -0.07    1.19   -0.07    1.19  -32.40  -69.39
   11.69  -32.03  -70.49   -0.06    1.10   -0.06    1.10  -32.03  -70.49
   11.82  -31.71  -69.73   -0.06    1.07   -0.06    1.07  -31.71  -69.73
   11.95  -31.59  -70.20   -0.05    0.97   -0.05    0.97  -31.59  -70.20
   12.08  -31.24  -70.29   -0.05    0.89   -0.05    0.89  -31.24  -70.29
   12.22  -31.00  -69.27   -0.05    0.82   -0.05    0.82  -31.00  -69.27
   12.35  -31.02  -70.81   -0.04    0.71   -0.04    0.71  -31.02  -70.81
   12.48  -30.72  -68.07   -0.04    0.62   -0.04    0.62  -30.72  -68.07
   12.61  -30.63  -68.53   -0.04    0.56   -0.04    0.56  -30.63  -68.53
   12.75  -31.04  -69.38   -0.05    0.44   -0.05    0.44  -31.04  -69.38
   12.88  -31.23  -65.19   -0.04    0.37   -0.04    0.37  -31.23  -65.19
   13.01  -31.49  -63.82   -0.05    0.39   -0.05    0.39  -31.49  -63.82
   13.14  -32.26  -64.26   -0.05    0.31   -0.05    0.31  -32.26  -64.26
   13.28  -33.51  -58.15   -0.05    0.27   -0.05    0.27  -33.51  -58.15
   13.41  -34.08  -50.60   -0.05    0.22   -0.05    0.22  -34.08  -50.60
   13.54  -35.28  -45.73   -0.04    0.15   -0.04    0.15  -35.28  -45.73
   13.67  -37.62  -33.20   -0.04    0.13   -0.04    0.13  -37.62  -33.20
   13.80  -38.54   -4.55   -0.04    0.01   -0.04    0.01  -38.54   -4.55
   13.94  -37.95   16.63   -0.04   -0.06   -0.04   -0.06  -37.95   16.63
   14.07  -36.43   40.45   -0.04   -0.13   -0.04   -0.13  -36.43   40.45
   14.20  -34.06   54.38   -0.05   -0.18   -0.05   -0.18  -34.06   54.38
   14.33  -31.84   60.38   -0.03   -0.29   -0.03   -0.29  -31.84   60.38
   14.47  -30.22   66.54   -0.04   -0.34   -0.04   -0.34  -30.22   66.54
   14.60  -28.58   71.42   -0.05   -0.46   -0.05   -0.46  -28.58   71.42
   14.73  -27.07   73.94   -0.05   -0.57   -0.05   -0.57  -27.07   73.94
   14.86  -25.99   74.17   -0.07   -0.57   -0.07   -0.57  -25.99   74.17
   14.99  -25.28   74.82   -0.08   -0.64   -0.08   -0.64  -25.28   74.82
   15.13  -24.37   77.73   -0.08   -0.68   -0.08   -0.68  -24.37   77.73
   15.26  -23.75   77.32   -0.09   -0.72   -0.09   -0.72  -23.75   77.32
   15.39  -23.18   78.86   -0.09   -0.70   -0.09   -0.70  -23.18   78.86
   15.52  -22.80   80.63   -0.09   -0.72   -0.09   -0.72  -22.80   80.63
   15.66  -22.28   81.42   -0.10   -0.71   -0.10   -0.71  -22.28   81.42
   15.79  -21.76   80.89   -0.10   -0.73   -0.10   -0.73  -21.76   80.89
   15.92  -21.62   81.07   -0.09   -0.69   -0.09   -0.69  -21.62   81.07
   16.05  -21.50   82.20   -0.10   -0.66   -0.10   -0.66  -21.50   82.20
   16.18  -21.31   81.53   -0.10   -0.72   -0.10   -0.72  -21.31   81.53
   16.32  -21.21   81.51   -0.09   -0.67   -0.09   -0.67  -21.21   81.51
   16.45  -21.31   80.68   -0.09   -0.68   -0.09   -0.68  -21.31   80.68
   16.58  -21.28   81.26   -0.08   -0.69   -0.08   -0.69  -21.28   81.26
   16.71  -21.38   80.91   -0.08   -0.67   -0.08   -0.67  -21.38   80.91
   16.85  -21.55   78.51   -0.09   -0.70   -0.09   -0.70  -21.55   78.51
   16.98  -21.94   78.83   -0.08   -0.74   -0.08   -0.74  -21.94   78.83
   17.11  -22.25   77.40   -0.09   -0.72   -0.09   -0.72  -22.25   77.40
   17.24  -22.38   75.30   -0.10   -0.73   -0.10   -0.73  -22.38   75.30
   17.37  -23.11   75.65   -0.09   -0.72   -0.09   -0.72  -23.11   75.65
   17.51  -23.63   75.91   -0.09   -0.76   -0.09   -0.76  -23.63   75.91
   17.64  -23.54   74.90   -0.10   -0.76   -0.10   -0.76  -23.54   74.90
   17.77  -24.30   73.22   -0.08   -0.76   -0.08   -0.76  -24.30   73.22
   17.90  -24.83   72.02   -0.08   -0.97   -0.08   -0.97  -24.83   72.02
   18.04  -25.23   72.92   -0.08   -0.91   -0.08   -0.91  -25.23   72.92
   18.17  -25.15   70.71   -0.08   -1.08   -0.08   -1.08  -25.15   70.71
   18.30  -25.81   69.71   -0.07   -1.12   -0.07   -1.12  -25.81   69.71
   18.43  -26.00   69.27   -0.08   -1.20   -0.08   -1.20  -26.00   69.27
   18.57  -25.92   69.26   -0.09   -1.28   -0.09   -1.28  -25.92   69.26
   18.70  -26.07   67.89   -0.09   -1.38   -0.09   -1.38  -26.07   67.89
   18.83  -25.97   67.34   -0.10   -1.47   -0.10   -1.47  -25.97   67.34
   18.96  -25.66   69.69   -0.11   -1.49   -0.11   -1.49  -25.66   69.69
   19.09  -25.15   70.35   -0.10   -1.54   -0.10   -1.54  -25.15   70.35
   19.23  -24.59   70.22   -0.11   -1.64   -0.11   -1.64  -24.59   70.22
   19.36  -24.25   70.79   -0.11   -1.71   -0.11   -1.71  -24.25   70.79
   19.49  -23.61   72.78   -0.10   -1.73   -0.10   -1.73  -23.61   72.78
   19.62  -22.90   74.25   -0.11   -1.85   -0.11   -1.85  -22.90   74.25
   19.76  -22.47   73.92   -0.11   -1.95   -0.11   -1.95  -22.47   73.92
   19.89  -21.80   75.39   -0.11   -2.02   -0.11   -2.02  -21.80   75.39
   20.02  -21.10   77.06   -0.13   -2.17   -0.13   -2.17  -21.10   77.06
   20.15  -20.56   78.10   -0.14   -2.32   -0.14   -2.32  -20.56   78.10
   20.28  -20.13   79.01   -0.15   -2.47   -0.15   -2.47  -20.13   79.01
   20.42  -19.65   81.78   -0.16   -2.55   -0.16   -2.55  -19.65   81.78
   20.55  -19.12   82.29   -0.19   -2.61   -0.19   -2.61  -19.12   82.29
   20.68  -18.62   83.69   -0.21   -2.59   -0.21   -2.59  -18.62   83.69
   20.81  -18.20   84.43   -0.21   -2.69   -0.21   -2.69  -18.20   84.43
   20.95  -17.92   86.20   -0.23   -2.79   -0.23   -2.79  -17.92   86.20
   21.08  -17.52   88.21   -0.26   -2.70   -0.26   -2.70  -17.52   88.21
   21.21  -17.27   87.30   -0.27   -2.75   -0.27   -2.75  -17.27   87.30
   21.34  -17.09   88.46   -0.28   -2.84   -0.28   -2.84  -17.09   88.46
   21.47  -16.87   91.29   -0.28   -2.52   -0.28   -2.52  -16.87   91.29
   21.61  -16.74   90.14   -0.29   -2.57   -0.29   -2.57  -16.74   90.14
   21.74  -16.63   90.03   -0.31   -2.64   -0.31   -2.64  -16.63   90.03
   21.87  -16.59   91.89   -0.30   -2.38   -0.30   -2.38  -16.59   91.89
   22.00  -16.48   90.78   -0.31   -2.36   -0.31   -2.36  -16.48   90.78
   22.14  -16.42   89.54   -0.33   -2.46   -0.33   -2.46  -16.42   89.54
   22.27  -16.70   90.41   -0.32   -2.34   -0.32   -2.34  -16.70   90.41
   22.40  -16.77   90.42   -0.33   -2.07   -0.33   -2.07  -16.77   90.42
   22.53  -16.68   89.42   -0.36   -2.08   -0.36   -2.08  -16.68   89.42
   22.66  -16.84   89.03   -0.38   -1.89   -0.38   -1.89  -16.84   89.03
   22.80  -17.13   88.57   -0.37   -1.76   -0.37   -1.76  -17.13   88.57
   22.93  -17.15   87.65   -0.37   -1.69   -0.37   -1.69  -17.15   87.65
   23.06  -17.20   86.99   -0.37   -1.56   -0.37   -1.56  -17.20   86.99
   23.19  -17.42   85.83   -0.36   -1.53   -0.36   -1.53  -17.42   85.83
   23.33  -17.49   85.21   -0.36   -1.47   -0.36   -1.47  -17.49   85.21
   23.46  -17.58   84.39   -0.36   -1.63   -0.36   -1.63  -17.58   84.39
   23.59  -17.61   83.26   -0.38   -1.76   -0.38   -1.76  -17.61   83.26
   23.72  -17.50   82.75   -0.40   -1.83   -0.40   -1.83  -17.50   82.75
   23.86  -17.47   81.96   -0.40   -1.82   -0.40   -1.82  -17.47   81.96
   23.99  -17.15   81.09   -0.42   -2.04   -0.42   -2.04  -17.15   81.09
   24.12  -16.86   79.04   -0.46   -2.23   -0.46   -2.23  -16.86   79.04
   24.25  -16.73   77.62   -0.47   -2.29   -0.47   -2.29  -16.73   77.62
   24.38  -16.25   77.69   -0.49   -2.41   -0.49   -2.41  -16.25   77.69
   24.52  -15.66   76.79   -0.53   -2.66   -0.53   -2.66  -15.66   76.79
   24.65  -15.22   75.62   -0.52   -2.79   -0.52   -2.79  -15.22   75.62
   24.78  -14.85   74.97   -0.53   -2.96   -0.53   -2.96  -14.85   74.97
   24.91  -14.21   74.78   -0.57   -3.10   -0.57   -3.10  -14.21   74.78
   25.05  -13.49   74.86   -0.61   -3.32   -0.61   -3.32  -13.49   74.86
   25.18  -13.12   72.51   -0.61   -3.58   -0.61   -3.58  -13.12   72.51
   25.31  -12.65   74.36   -0.65   -3.62   -0.65   -3.62  -12.65   74.36
   25.44  -12.18   74.66   -0.68   -3.83   -0.68   -3.83  -12.18   74.66
   25.57  -11.70   74.63   -0.68   -4.03   -0.68   -4.03  -11.70   74.63
   25.71  -11.44   75.69   -0.69   -4.01   -0.69   -4.01  -11.44   75.69
   25.84  -10.98   77.96   -0.73   -4.30   -0.73   -4.30  -10.98   77.96
   25.97  -10.66   80.40   -0.74   -4.78   -0.74   -4.78  -10.66   80.40
   26.10  -10.39   82.88   -0.80   -4.89   -0.80   -4.89  -10.39   82.88
   26.24  -10.11   87.42   -0.82   -4.64   -0.82   -4.64  -10.11   87.42
   26.37  -10.01   90.33   -0.84   -4.65   -0.84   -4.65  -10.01   90.33
   26.50  -10.02   93.44   -0.87   -4.66   -0.87   -4.66  -10.02   93.44
