!  American Technical Ceramics  Date:     3/6/98
!  One Norden Lane
!  Huntington Station,  NY.   11746-2102
!  Tel:  (516) 547-5700               Fax:  (516) 547-5748
!  Part Number  500S7R5
!  Description: Broadband Microwave capacitor
!  Application:
!
# GHZ S DB R 50
! Freq   |S11|   S11 Ph  |S21|   S21 Ph  |S12|   S12 Ph  |S22|   S22 Ph
    0.05   -0.24  -13.00  -13.15   78.06  -13.15   78.06   -0.24  -13.00
    0.18   -2.26  -39.88   -3.91   50.54   -3.91   50.54   -2.26  -39.88
    0.31   -4.83  -55.31   -1.71   34.95   -1.71   34.95   -4.83  -55.31
    0.45   -7.10  -64.55   -0.91   26.20   -0.91   26.20   -7.10  -64.55
    0.58   -9.15  -69.87   -0.59   20.35   -0.59   20.35   -9.15  -69.87
    0.71  -10.81  -73.14   -0.43   16.69   -0.43   16.69  -10.81  -73.14
    0.84  -12.19  -76.57   -0.32   14.18   -0.32   14.18  -12.19  -76.57
    0.98  -13.33  -77.36   -0.23   12.15   -0.23   12.15  -13.33  -77.36
    1.11  -14.47  -79.61   -0.18   10.81   -0.18   10.81  -14.47  -79.61
    1.24  -15.51  -80.41   -0.14    9.72   -0.14    9.72  -15.51  -80.41
    1.37  -16.30  -81.27   -0.12    8.59   -0.12    8.59  -16.30  -81.27
    1.50  -17.20  -82.45   -0.11    7.84   -0.11    7.84  -17.20  -82.45
    1.64  -17.93  -81.96   -0.08    7.08   -0.08    7.08  -17.93  -81.96
    1.77  -18.72  -82.99   -0.07    6.43   -0.07    6.43  -18.72  -82.99
    1.90  -19.44  -83.04   -0.07    5.96   -0.07    5.96  -19.44  -83.04
    2.03  -20.07  -83.45   -0.07    5.49   -0.07    5.49  -20.07  -83.45
    2.17  -20.79  -83.22   -0.06    5.04   -0.06    5.04  -20.79  -83.22
    2.30  -21.39  -83.18   -0.06    4.66   -0.06    4.66  -21.39  -83.18
    2.43  -22.05  -83.81   -0.06    4.36   -0.06    4.36  -22.05  -83.81
    2.56  -22.71  -82.65   -0.05    3.98   -0.05    3.98  -22.71  -82.65
    2.70  -23.28  -83.43   -0.05    3.67   -0.05    3.67  -23.28  -83.43
    2.83  -23.87  -82.95   -0.06    3.45   -0.06    3.45  -23.87  -82.95
    2.96  -24.37  -82.01   -0.06    3.18   -0.06    3.18  -24.37  -82.01
    3.09  -24.99  -82.23   -0.06    2.96   -0.06    2.96  -24.99  -82.23
    3.22  -25.40  -81.04   -0.06    2.72   -0.06    2.72  -25.40  -81.04
    3.36  -25.79  -81.46   -0.06    2.52   -0.06    2.52  -25.79  -81.46
    3.49  -26.05  -80.51   -0.06    2.36   -0.06    2.36  -26.05  -80.51
    3.62  -26.28  -80.46   -0.07    2.17   -0.07    2.17  -26.28  -80.46
    3.75  -26.53  -80.81   -0.08    1.99   -0.08    1.99  -26.53  -80.81
    3.89  -26.39  -80.48   -0.08    1.79   -0.08    1.79  -26.39  -80.48
    4.02  -26.98  -79.36   -0.07    1.70   -0.07    1.70  -26.98  -79.36
    4.15  -27.08  -78.87   -0.07    1.54   -0.07    1.54  -27.08  -78.87
    4.28  -27.05  -79.35   -0.08    1.43   -0.08    1.43  -27.05  -79.35
    4.41  -27.17  -79.22   -0.08    1.29   -0.08    1.29  -27.17  -79.22
    4.55  -27.04  -79.72   -0.08    1.16   -0.08    1.16  -27.04  -79.72
    4.68  -27.08  -80.56   -0.09    1.06   -0.09    1.06  -27.08  -80.56
    4.81  -26.94  -80.02   -0.10    0.99   -0.10    0.99  -26.94  -80.02
    4.94  -26.89  -80.27   -0.10    0.91   -0.10    0.91  -26.89  -80.27
    5.08  -26.86  -79.63   -0.10    0.82   -0.10    0.82  -26.86  -79.63
    5.21  -26.66  -80.62   -0.10    0.71   -0.10    0.71  -26.66  -80.62
    5.34  -26.66  -80.98   -0.11    0.64   -0.11    0.64  -26.66  -80.98
    5.47  -26.52  -80.34   -0.11    0.56   -0.11    0.56  -26.52  -80.34
    5.60  -26.55  -81.42   -0.12    0.47   -0.12    0.47  -26.55  -81.42
    5.74  -26.62  -81.20   -0.11    0.42   -0.11    0.42  -26.62  -81.20
    5.87  -26.80  -80.90   -0.12    0.35   -0.12    0.35  -26.80  -80.90
    6.00  -26.94  -81.38   -0.13    0.25   -0.13    0.25  -26.94  -81.38
    6.13  -27.06  -80.44   -0.13    0.21   -0.13    0.21  -27.06  -80.44
    6.27  -27.47  -79.89   -0.13    0.19   -0.13    0.19  -27.47  -79.89
    6.40  -27.85  -79.69   -0.14    0.10   -0.14    0.10  -27.85  -79.69
    6.53  -28.42  -78.80   -0.14    0.07   -0.14    0.07  -28.42  -78.80
    6.66  -29.13  -76.61   -0.15   -0.02   -0.15   -0.02  -29.13  -76.61
    6.79  -29.62  -73.32   -0.16   -0.10   -0.16   -0.10  -29.62  -73.32
    6.93  -30.30  -68.72   -0.17   -0.08   -0.17   -0.08  -30.30  -68.72
    7.06  -30.86  -63.72   -0.17   -0.10   -0.17   -0.10  -30.86  -63.72
    7.19  -31.48  -59.61   -0.19   -0.17   -0.19   -0.17  -31.48  -59.61
    7.32  -31.94  -51.46   -0.20   -0.16   -0.20   -0.16  -31.94  -51.46
    7.46  -32.27  -42.80   -0.22   -0.15   -0.22   -0.15  -32.27  -42.80
    7.59  -32.15  -36.31   -0.23   -0.15   -0.23   -0.15  -32.15  -36.31
    7.72  -32.03  -28.84   -0.23   -0.08   -0.23   -0.08  -32.03  -28.84
    7.85  -32.44  -23.93   -0.24   -0.03   -0.24   -0.03  -32.44  -23.93
    7.99  -32.54  -16.41   -0.24   -0.01   -0.24   -0.01  -32.54  -16.41
    8.12  -32.38   -7.16   -0.23    0.00   -0.23    0.00  -32.38   -7.16
    8.25  -32.38    0.21   -0.24    0.00   -0.24    0.00  -32.38    0.21
    8.38  -31.92    7.89   -0.24   -0.02   -0.24   -0.02  -31.92    7.89
    8.51  -31.67   14.44   -0.25    0.05   -0.25    0.05  -31.67   14.44
    8.65  -31.41   21.52   -0.24    0.06   -0.24    0.06  -31.41   21.52
    8.78  -30.69   27.92   -0.25    0.04   -0.25    0.04  -30.69   27.92
    8.91  -30.05   33.07   -0.25    0.00   -0.25    0.00  -30.05   33.07
    9.04  -29.55   36.12   -0.27    0.03   -0.27    0.03  -29.55   36.12
    9.18  -29.25   38.13   -0.26    0.10   -0.26    0.10  -29.25   38.13
    9.31  -29.01   39.59   -0.27    0.18   -0.27    0.18  -29.01   39.59
    9.44  -29.32   42.28   -0.27    0.26   -0.27    0.26  -29.32   42.28
    9.57  -29.00   44.82   -0.27    0.29   -0.27    0.29  -29.00   44.82
    9.70  -29.31   46.19   -0.26    0.36   -0.26    0.36  -29.31   46.19
    9.84  -29.61   47.80   -0.25    0.42   -0.25    0.42  -29.61   47.80
    9.97  -29.78   51.33   -0.24    0.46   -0.24    0.46  -29.78   51.33
   10.10  -30.37   50.19   -0.25    0.56   -0.25    0.56  -30.37   50.19
   10.23  -31.07   53.20   -0.23    0.66   -0.23    0.66  -31.07   53.20
   10.37  -31.71   56.24   -0.22    0.65   -0.22    0.65  -31.71   56.24
   10.50  -32.38   59.31   -0.21    0.68   -0.21    0.68  -32.38   59.31
   10.63  -33.03   63.13   -0.19    0.69   -0.19    0.69  -33.03   63.13
   10.76  -33.98   64.35   -0.18    0.66   -0.18    0.66  -33.98   64.35
   10.89  -34.65   66.57   -0.19    0.64   -0.19    0.64  -34.65   66.57
   11.03  -35.64   66.67   -0.18    0.65   -0.18    0.65  -35.64   66.67
   11.16  -37.18   66.94   -0.17    0.65   -0.17    0.65  -37.18   66.94
   11.29  -38.71   64.13   -0.16    0.62   -0.16    0.62  -38.71   64.13
   11.42  -40.92   60.33   -0.15    0.59   -0.15    0.59  -40.92   60.33
   11.56  -43.16   53.91   -0.15    0.60   -0.15    0.60  -43.16   53.91
   11.69  -44.81   39.91   -0.15    0.55   -0.15    0.55  -44.81   39.91
   11.82  -46.27   25.76   -0.14    0.50   -0.14    0.50  -46.27   25.76
   11.95  -46.71    3.75   -0.14    0.48   -0.14    0.48  -46.71    3.75
   12.08  -45.39   -8.14   -0.14    0.45   -0.14    0.45  -45.39   -8.14
   12.22  -43.83  -13.31   -0.14    0.39   -0.14    0.39  -43.83  -13.31
   12.35  -42.88  -19.78   -0.13    0.37   -0.13    0.37  -42.88  -19.78
   12.48  -41.21  -13.20   -0.13    0.31   -0.13    0.31  -41.21  -13.20
   12.61  -40.94   -6.71   -0.13    0.26   -0.13    0.26  -40.94   -6.71
   12.75  -39.90   -7.17   -0.13    0.18   -0.13    0.18  -39.90   -7.17
   12.88  -39.14    1.23   -0.13    0.13   -0.13    0.13  -39.14    1.23
   13.01  -38.67   12.55   -0.14    0.15   -0.14    0.15  -38.67   12.55
   13.14  -37.64   20.23   -0.14    0.12   -0.14    0.12  -37.64   20.23
   13.28  -36.39   34.11   -0.14    0.09   -0.14    0.09  -36.39   34.11
   13.41  -34.94   42.14   -0.13    0.01   -0.13    0.01  -34.94   42.14
   13.54  -33.33   50.91   -0.13   -0.06   -0.13   -0.06  -33.33   50.91
   13.67  -31.72   56.16   -0.14   -0.12   -0.14   -0.12  -31.72   56.16
   13.80  -30.32   62.59   -0.14   -0.27   -0.14   -0.27  -30.32   62.59
   13.94  -28.74   66.87   -0.15   -0.29   -0.15   -0.29  -28.74   66.87
   14.07  -27.18   70.12   -0.14   -0.25   -0.14   -0.25  -27.18   70.12
   14.20  -26.10   72.14   -0.16   -0.39   -0.16   -0.39  -26.10   72.14
   14.33  -24.93   74.53   -0.16   -0.50   -0.16   -0.50  -24.93   74.53
   14.47  -23.91   76.34   -0.16   -0.57   -0.16   -0.57  -23.91   76.34
   14.60  -23.02   77.10   -0.16   -0.71   -0.16   -0.71  -23.02   77.10
   14.73  -22.10   78.68   -0.17   -0.81   -0.17   -0.81  -22.10   78.68
   14.86  -21.46   79.20   -0.20   -0.89   -0.20   -0.89  -21.46   79.20
   14.99  -20.81   79.83   -0.21   -0.96   -0.21   -0.96  -20.81   79.83
   15.13  -20.26   80.59   -0.22   -1.01   -0.22   -1.01  -20.26   80.59
   15.26  -19.93   80.61   -0.24   -1.07   -0.24   -1.07  -19.93   80.61
   15.39  -19.40   82.35   -0.24   -1.10   -0.24   -1.10  -19.40   82.35
   15.52  -19.02   83.11   -0.24   -1.09   -0.24   -1.09  -19.02   83.11
   15.66  -18.74   83.23   -0.25   -1.16   -0.25   -1.16  -18.74   83.23
   15.79  -18.44   83.47   -0.26   -1.14   -0.26   -1.14  -18.44   83.47
   15.92  -18.07   84.08   -0.25   -1.23   -0.25   -1.23  -18.07   84.08
   16.05  -17.90   83.78   -0.27   -1.28   -0.27   -1.28  -17.90   83.78
   16.18  -17.81   83.11   -0.28   -1.35   -0.28   -1.35  -17.81   83.11
   16.32  -17.74   83.40   -0.27   -1.37   -0.27   -1.37  -17.74   83.40
   16.45  -17.68   82.93   -0.28   -1.48   -0.28   -1.48  -17.68   82.93
   16.58  -17.64   83.10   -0.28   -1.55   -0.28   -1.55  -17.64   83.10
   16.71  -17.79   82.95   -0.28   -1.55   -0.28   -1.55  -17.79   82.95
   16.85  -17.72   81.52   -0.29   -1.70   -0.29   -1.70  -17.72   81.52
   16.98  -17.70   82.90   -0.27   -1.88   -0.27   -1.88  -17.70   82.90
   17.11  -17.94   81.57   -0.28   -1.99   -0.28   -1.99  -17.94   81.57
   17.24  -17.87   81.56   -0.32   -2.18   -0.32   -2.18  -17.87   81.56
   17.37  -18.04   81.78   -0.30   -2.45   -0.30   -2.45  -18.04   81.78
   17.51  -18.03   80.66   -0.31   -2.69   -0.31   -2.69  -18.03   80.66
   17.64  -17.91   80.08   -0.34   -2.95   -0.34   -2.95  -17.91   80.08
   17.77  -17.91   80.04   -0.32   -3.29   -0.32   -3.29  -17.91   80.04
   17.90  -17.79   79.72   -0.33   -3.84   -0.33   -3.84  -17.79   79.72
   18.04  -17.57   77.50   -0.37   -4.07   -0.37   -4.07  -17.57   77.50
   18.17  -17.25   77.22   -0.39   -4.60   -0.39   -4.60  -17.25   77.22
   18.30  -16.92   76.26   -0.41   -5.16   -0.41   -5.16  -16.92   76.26
   18.43  -16.35   74.84   -0.46   -5.70   -0.46   -5.70  -16.35   74.84
   18.57  -15.84   73.40   -0.50   -6.30   -0.50   -6.30  -15.84   73.40
   18.70  -15.33   71.89   -0.55   -7.20   -0.55   -7.20  -15.33   71.89
   18.83  -14.59   70.44   -0.62   -7.99   -0.62   -7.99  -14.59   70.44
   18.96  -13.74   68.45   -0.70   -8.81   -0.70   -8.81  -13.74   68.45
   19.09  -12.94   66.11   -0.80   -9.88   -0.80   -9.88  -12.94   66.11
   19.23  -12.06   64.62   -0.94  -11.09   -0.94  -11.09  -12.06   64.62
   19.36  -11.19   61.69   -1.10  -12.44   -1.10  -12.44  -11.19   61.69
   19.49  -10.15   58.29   -1.28  -14.00   -1.28  -14.00  -10.15   58.29
   19.62   -9.37   55.99   -1.61  -15.68   -1.61  -15.68   -9.37   55.99
   19.76   -8.53   51.89   -2.00  -17.61   -2.00  -17.61   -8.53   51.89
   19.89   -7.46   47.32   -2.45  -19.30   -2.45  -19.30   -7.46   47.32
   20.02   -6.68   42.61   -3.17  -20.99   -3.17  -20.99   -6.68   42.61
   20.15   -5.92   36.97   -4.12  -22.13   -4.12  -22.13   -5.92   36.97
   20.28   -5.15   30.17   -5.33  -21.62   -5.33  -21.62   -5.15   30.17
   20.42   -4.66   22.30   -6.81  -17.74   -6.81  -17.74   -4.66   22.30
   20.55   -4.51   14.00   -8.28   -7.50   -8.28   -7.50   -4.51   14.00
   20.68   -4.39    5.57   -8.74    8.37   -8.74    8.37   -4.39    5.57
   20.81   -4.62   -3.77   -7.84   22.35   -7.84   22.35   -4.62   -3.77
   20.95   -5.26  -11.98   -6.28   30.26   -6.28   30.26   -5.26  -11.98
   21.08   -5.93  -19.03   -4.83   32.33   -4.83   32.33   -5.93  -19.03
   21.21   -6.91  -26.19   -3.80   31.98   -3.80   31.98   -6.91  -26.19
   21.34   -7.85  -32.26   -3.05   30.58   -3.05   30.58   -7.85  -32.26
   21.47   -8.85  -36.34   -2.39   28.67   -2.39   28.67   -8.85  -36.34
   21.61   -9.99  -42.05   -1.98   26.96   -1.98   26.96   -9.99  -42.05
   21.74  -11.04  -46.39   -1.67   25.38   -1.67   25.38  -11.04  -46.39
   21.87  -12.24  -49.64   -1.39   23.60   -1.39   23.60  -12.24  -49.64
   22.00  -13.31  -53.82   -1.22   22.24   -1.22   22.24  -13.31  -53.82
   22.14  -14.26  -56.85   -1.11   21.01   -1.11   21.01  -14.26  -56.85
   22.27  -15.35  -59.21   -1.02   19.67   -1.02   19.67  -15.35  -59.21
   22.40  -16.30  -62.59   -0.92   18.79   -0.92   18.79  -16.30  -62.59
   22.53  -17.07  -65.45   -0.88   18.09   -0.88   18.09  -17.07  -65.45
   22.66  -17.83  -67.29   -0.85   17.44   -0.85   17.44  -17.83  -67.29
   22.80  -18.47  -69.51   -0.81   16.83   -0.81   16.83  -18.47  -69.51
   22.93  -19.02  -71.31   -0.79   16.33   -0.79   16.33  -19.02  -71.31
   23.06  -19.38  -71.33   -0.77   15.90   -0.77   15.90  -19.38  -71.33
   23.19  -19.82  -71.87   -0.74   15.51   -0.74   15.51  -19.82  -71.87
   23.33  -19.96  -71.60   -0.71   15.14   -0.71   15.14  -19.96  -71.60
   23.46  -20.07  -70.44   -0.71   14.76   -0.71   14.76  -20.07  -70.44
   23.59  -20.17  -70.45   -0.71   14.51   -0.71   14.51  -20.17  -70.45
   23.72  -20.39  -69.96   -0.71   14.28   -0.71   14.28  -20.39  -69.96
   23.86  -20.81  -69.33   -0.72   14.09   -0.72   14.09  -20.81  -69.33
   23.99  -21.12  -67.23   -0.71   13.97   -0.71   13.97  -21.12  -67.23
   24.12  -21.47  -64.94   -0.71   13.79   -0.71   13.79  -21.47  -64.94
   24.25  -22.10  -61.23   -0.71   13.78   -0.71   13.78  -22.10  -61.23
   24.38  -22.72  -59.30   -0.69   13.63   -0.69   13.63  -22.72  -59.30
   24.52  -23.32  -56.51   -0.67   13.47   -0.67   13.47  -23.32  -56.51
   24.65  -24.49  -51.24   -0.67   13.48   -0.67   13.48  -24.49  -51.24
   24.78  -25.67  -45.49   -0.65   13.44   -0.65   13.44  -25.67  -45.49
   24.91  -27.33  -39.32   -0.64   13.38   -0.64   13.38  -27.33  -39.32
   25.05  -29.38  -23.72   -0.62   13.33   -0.62   13.33  -29.38  -23.72
   25.18  -30.83   -0.35   -0.60   13.34   -0.60   13.34  -30.83   -0.35
   25.31  -31.27   22.80   -0.59   13.27   -0.59   13.27  -31.27   22.80
   25.44  -30.76   42.91   -0.57   13.19   -0.57   13.19  -30.76   42.91
   25.57  -28.95   63.78   -0.53   13.12   -0.53   13.12  -28.95   63.78
   25.71  -26.55   78.76   -0.53   12.83   -0.53   12.83  -26.55   78.76
   25.84  -25.04   88.85   -0.51   12.63   -0.51   12.63  -25.04   88.85
   25.97  -23.39  103.59   -0.50   12.42   -0.50   12.42  -23.39  103.59
   26.10  -22.24  110.17   -0.52   12.14   -0.52   12.14  -22.24  110.17
   26.24  -21.05  115.73   -0.53   11.86   -0.53   11.86  -21.05  115.73
   26.37  -20.19  123.38   -0.55   11.78   -0.55   11.78  -20.19  123.38
   26.50  -19.28  130.99   -0.59   11.72   -0.59   11.72  -19.28  130.99
