!  American Technical Ceramics  Date:     3/6/98
!  One Norden Lane
!  Huntington Station,  NY.   11746-2102
!  Tel:  (516) 547-5700               Fax:  (516) 547-5748
!  Part Number  500S0R5
!  Description: Broadband Microwave capacitor
!  Application:
!
# GHZ S DB R 50
! Freq   |S11|   S11 Ph  |S21|   S21 Ph  |S12|   S12 Ph  |S22|   S22 Ph
    0.05   -0.02   -0.90  -35.08   89.51  -35.08   89.51   -0.02   -0.90
    0.18   -0.03   -3.73  -24.41   86.67  -24.41   86.67   -0.03   -3.73
    0.31   -0.03   -6.20  -19.65   83.98  -19.65   83.98   -0.03   -6.20
    0.45   -0.11   -8.79  -16.69   81.92  -16.69   81.92   -0.11   -8.79
    0.58   -0.19  -11.75  -14.40   78.40  -14.40   78.40   -0.19  -11.75
    0.71   -0.32  -14.42  -12.73   75.36  -12.73   75.36   -0.32  -14.42
    0.84   -0.41  -17.52  -11.37   73.18  -11.37   73.18   -0.41  -17.52
    0.98   -0.38  -18.76  -10.14   70.66  -10.14   70.66   -0.38  -18.76
    1.11   -0.65  -21.41   -9.25   69.04   -9.25   69.04   -0.65  -21.41
    1.24   -0.87  -22.93   -8.43   67.19   -8.43   67.19   -0.87  -22.93
    1.37   -0.84  -25.50   -7.65   64.59   -7.65   64.59   -0.84  -25.50
    1.50   -1.08  -27.95   -7.02   62.80   -7.02   62.80   -1.08  -27.95
    1.64   -1.10  -29.09   -6.38   60.60   -6.38   60.60   -1.10  -29.09
    1.77   -1.29  -31.75   -5.85   58.75   -5.85   58.75   -1.29  -31.75
    1.90   -1.50  -33.34   -5.43   56.86   -5.43   56.86   -1.50  -33.34
    2.03   -1.64  -35.64   -5.04   54.85   -5.04   54.85   -1.64  -35.64
    2.17   -1.87  -37.37   -4.64   53.01   -4.64   53.01   -1.87  -37.37
    2.30   -2.04  -38.87   -4.31   51.17   -4.31   51.17   -2.04  -38.87
    2.43   -2.29  -41.17   -4.03   49.76   -4.03   49.76   -2.29  -41.17
    2.56   -2.49  -42.02   -3.68   47.80   -3.68   47.80   -2.49  -42.02
    2.70   -2.69  -44.32   -3.44   46.31   -3.44   46.31   -2.69  -44.32
    2.83   -2.93  -45.67   -3.22   44.81   -3.22   44.81   -2.93  -45.67
    2.96   -3.11  -46.95   -3.00   42.90   -3.00   42.90   -3.11  -46.95
    3.09   -3.46  -48.77   -2.81   41.55   -2.81   41.55   -3.46  -48.77
    3.22   -3.65  -49.66   -2.63   39.78   -2.63   39.78   -3.65  -49.66
    3.36   -3.91  -51.63   -2.47   38.49   -2.47   38.49   -3.91  -51.63
    3.49   -4.13  -52.10   -2.33   37.21   -2.33   37.21   -4.13  -52.10
    3.62   -4.38  -53.34   -2.20   35.65   -2.20   35.65   -4.38  -53.34
    3.75   -4.75  -54.78   -2.07   34.26   -2.07   34.26   -4.75  -54.78
    3.89   -4.90  -55.66   -1.94   32.65   -1.94   32.65   -4.90  -55.66
    4.02   -4.96  -57.87   -1.75   32.51   -1.75   32.51   -4.96  -57.87
    4.15   -5.16  -58.37   -1.63   31.33   -1.63   31.33   -5.16  -58.37
    4.28   -5.36  -59.60   -1.56   30.19   -1.56   30.19   -5.36  -59.60
    4.41   -5.71  -60.45   -1.52   29.05   -1.52   29.05   -5.71  -60.45
    4.55   -5.86  -61.37   -1.45   27.91   -1.45   27.91   -5.86  -61.37
    4.68   -6.12  -62.65   -1.39   26.95   -1.39   26.95   -6.12  -62.65
    4.81   -6.25  -62.55   -1.35   26.28   -1.35   26.28   -6.25  -62.55
    4.94   -6.45  -62.95   -1.29   25.73   -1.29   25.73   -6.45  -62.95
    5.08   -6.71  -63.24   -1.27   24.94   -1.27   24.94   -6.71  -63.24
    5.21   -6.79  -64.55   -1.21   24.02   -1.21   24.02   -6.79  -64.55
    5.34   -6.94  -65.17   -1.14   23.59   -1.14   23.59   -6.94  -65.17
    5.47   -7.03  -65.22   -1.09   22.81   -1.09   22.81   -7.03  -65.22
    5.60   -7.25  -66.80   -1.08   22.15   -1.08   22.15   -7.25  -66.80
    5.74   -7.35  -66.73   -1.02   21.80   -1.02   21.80   -7.35  -66.73
    5.87   -7.55  -67.65   -1.01   21.05   -1.01   21.05   -7.55  -67.65
    6.00   -7.78  -69.49   -1.01   20.25   -1.01   20.25   -7.78  -69.49
    6.13   -7.73  -69.12   -0.93   19.91   -0.93   19.91   -7.73  -69.12
    6.27   -7.98  -69.66   -0.89   19.60   -0.89   19.60   -7.98  -69.66
    6.40   -8.18  -70.78   -0.91   18.93   -0.91   18.93   -8.18  -70.78
    6.53   -8.41  -71.21   -0.89   18.66   -0.89   18.66   -8.41  -71.21
    6.66   -8.59  -71.86   -0.85   18.13   -0.85   18.13   -8.59  -71.86
    6.79   -8.64  -72.90   -0.84   17.29   -0.84   17.29   -8.64  -72.90
    6.93   -8.94  -72.77   -0.82   17.32   -0.82   17.32   -8.94  -72.77
    7.06   -9.11  -72.13   -0.78   17.03   -0.78   17.03   -9.11  -72.13
    7.19   -9.34  -74.12   -0.80   16.32   -0.80   16.32   -9.34  -74.12
    7.32   -9.60  -73.86   -0.79   16.15   -0.79   16.15   -9.60  -73.86
    7.46   -9.86  -73.51   -0.75   15.78   -0.75   15.78   -9.86  -73.51
    7.59   -9.94  -74.24   -0.77   15.13   -0.77   15.13   -9.94  -74.24
    7.72  -10.08  -73.14   -0.73   15.07   -0.73   15.07  -10.08  -73.14
    7.85  -10.47  -73.69   -0.69   15.08   -0.69   15.08  -10.47  -73.69
    7.99  -10.50  -74.46   -0.71   14.49   -0.71   14.49  -10.50  -74.46
    8.12  -10.75  -74.92   -0.67   14.08   -0.67   14.08  -10.75  -74.92
    8.25  -11.11  -74.92   -0.65   13.92   -0.65   13.92  -11.11  -74.92
    8.38  -11.23  -74.63   -0.63   13.39   -0.63   13.39  -11.23  -74.63
    8.51  -11.58  -75.28   -0.61   13.12   -0.61   13.12  -11.58  -75.28
    8.65  -11.84  -75.28   -0.57   12.95   -0.57   12.95  -11.84  -75.28
    8.78  -12.14  -75.65   -0.56   12.48   -0.56   12.48  -12.14  -75.65
    8.91  -12.46  -75.19   -0.55   12.00   -0.55   12.00  -12.46  -75.19
    9.04  -12.75  -74.87   -0.54   11.54   -0.54   11.54  -12.75  -74.87
    9.18  -13.03  -75.30   -0.53   11.26   -0.53   11.26  -13.03  -75.30
    9.31  -13.24  -74.56   -0.51   10.89   -0.51   10.89  -13.24  -74.56
    9.44  -13.56  -75.04   -0.50   10.69   -0.50   10.69  -13.56  -75.04
    9.57  -13.74  -74.91   -0.50   10.37   -0.50   10.37  -13.74  -74.91
    9.70  -14.01  -75.54   -0.47   10.12   -0.47   10.12  -14.01  -75.54
    9.84  -14.34  -76.04   -0.45    9.73   -0.45    9.73  -14.34  -76.04
    9.97  -14.51  -75.88   -0.44    9.37   -0.44    9.37  -14.51  -75.88
   10.10  -14.81  -77.27   -0.41    9.24   -0.41    9.24  -14.81  -77.27
   10.23  -15.03  -77.44   -0.39    8.95   -0.39    8.95  -15.03  -77.44
   10.37  -15.26  -78.55   -0.38    8.65   -0.38    8.65  -15.26  -78.55
   10.50  -15.43  -79.74   -0.35    8.39   -0.35    8.39  -15.43  -79.74
   10.63  -15.73  -80.36   -0.32    7.98   -0.32    7.98  -15.73  -80.36
   10.76  -16.05  -81.99   -0.31    7.62   -0.31    7.62  -16.05  -81.99
   10.89  -16.09  -82.32   -0.30    7.39   -0.30    7.39  -16.09  -82.32
   11.03  -16.38  -83.08   -0.29    7.12   -0.29    7.12  -16.38  -83.08
   11.16  -16.59  -83.98   -0.29    6.71   -0.29    6.71  -16.59  -83.98
   11.29  -16.56  -84.43   -0.28    6.49   -0.28    6.49  -16.56  -84.43
   11.42  -16.73  -84.97   -0.27    6.30   -0.27    6.30  -16.73  -84.97
   11.56  -16.75  -85.85   -0.26    5.99   -0.26    5.99  -16.75  -85.85
   11.69  -16.75  -86.15   -0.25    5.82   -0.25    5.82  -16.75  -86.15
   11.82  -16.80  -85.68   -0.26    5.66   -0.26    5.66  -16.80  -85.68
   11.95  -16.88  -86.38   -0.24    5.34   -0.24    5.34  -16.88  -86.38
   12.08  -16.83  -86.53   -0.23    5.10   -0.23    5.10  -16.83  -86.53
   12.22  -16.84  -86.01   -0.22    4.94   -0.22    4.94  -16.84  -86.01
   12.35  -16.91  -87.30   -0.21    4.65   -0.21    4.65  -16.91  -87.30
   12.48  -16.82  -86.41   -0.21    4.39   -0.21    4.39  -16.82  -86.41
   12.61  -17.15  -86.61   -0.22    4.28   -0.22    4.28  -17.15  -86.61
   12.75  -17.14  -87.62   -0.22    3.97   -0.22    3.97  -17.14  -87.62
   12.88  -17.24  -87.10   -0.21    3.73   -0.21    3.73  -17.24  -87.10
   13.01  -17.72  -87.40   -0.22    3.82   -0.22    3.82  -17.72  -87.40
   13.14  -17.82  -88.07   -0.22    3.58   -0.22    3.58  -17.82  -88.07
   13.28  -18.13  -88.31   -0.20    3.43   -0.20    3.43  -18.13  -88.31
   13.41  -18.56  -88.60   -0.20    3.42   -0.20    3.42  -18.56  -88.60
   13.54  -19.00  -89.07   -0.18    3.23   -0.18    3.23  -19.00  -89.07
   13.67  -19.39  -89.19   -0.17    2.99   -0.17    2.99  -19.39  -89.19
   13.80  -19.99  -89.73   -0.16    2.87   -0.16    2.87  -19.99  -89.73
   13.94  -20.65  -91.25   -0.15    2.59   -0.15    2.59  -20.65  -91.25
   14.07  -21.14  -91.17   -0.15    2.32   -0.15    2.32  -21.14  -91.17
   14.20  -22.02  -92.05   -0.14    2.16   -0.14    2.16  -22.02  -92.05
   14.33  -22.90  -94.15   -0.15    1.95   -0.15    1.95  -22.90  -94.15
   14.47  -23.85  -94.70   -0.14    1.74   -0.14    1.74  -23.85  -94.70
   14.60  -24.90  -96.77   -0.14    1.52   -0.14    1.52  -24.90  -96.77
   14.73  -26.24  -98.60   -0.14    1.31   -0.14    1.31  -26.24  -98.60
   14.86  -28.04 -100.61   -0.14    1.07   -0.14    1.07  -28.04 -100.61
   14.99  -29.92 -100.83   -0.15    0.87   -0.15    0.87  -29.92 -100.83
   15.13  -32.01 -102.15   -0.15    0.63   -0.15    0.63  -32.01 -102.15
   15.26  -35.05 -106.71   -0.15    0.50   -0.15    0.50  -35.05 -106.71
   15.39  -38.98 -113.14   -0.16    0.30   -0.16    0.30  -38.98 -113.14
   15.52  -46.81 -136.44   -0.15    0.08   -0.15    0.08  -46.81 -136.44
   15.66  -46.32  130.48   -0.16   -0.10   -0.16   -0.10  -46.32  130.48
   15.79  -40.04  103.17   -0.16   -0.24   -0.16   -0.24  -40.04  103.17
   15.92  -36.12   94.02   -0.16   -0.40   -0.16   -0.40  -36.12   94.02
   16.05  -33.75   91.07   -0.17   -0.56   -0.17   -0.56  -33.75   91.07
   16.18  -32.12   89.31   -0.17   -0.65   -0.17   -0.65  -32.12   89.31
   16.32  -31.00   89.92   -0.17   -0.77   -0.17   -0.77  -31.00   89.92
   16.45  -30.14   90.63   -0.16   -0.96   -0.16   -0.96  -30.14   90.63
   16.58  -29.12   91.67   -0.16   -1.13   -0.16   -1.13  -29.12   91.67
   16.71  -28.96   92.34   -0.16   -1.27   -0.16   -1.27  -28.96   92.34
   16.85  -28.52   90.17   -0.17   -1.39   -0.17   -1.39  -28.52   90.17
   16.98  -28.50   92.72   -0.16   -1.50   -0.16   -1.50  -28.50   92.72
   17.11  -29.16   92.34   -0.17   -1.62   -0.17   -1.62  -29.16   92.34
   17.24  -29.19   94.63   -0.17   -1.77   -0.17   -1.77  -29.19   94.63
   17.37  -30.44   95.59   -0.17   -1.91   -0.17   -1.91  -30.44   95.59
   17.51  -31.03   97.77   -0.17   -2.03   -0.17   -2.03  -31.03   97.77
   17.64  -31.83  101.41   -0.18   -2.22   -0.18   -2.22  -31.83  101.41
   17.77  -33.06  103.97   -0.17   -2.32   -0.17   -2.32  -33.06  103.97
   17.90  -34.52  107.26   -0.16   -2.54   -0.16   -2.54  -34.52  107.26
   18.04  -36.25  107.17   -0.16   -2.70   -0.16   -2.70  -36.25  107.17
   18.17  -36.84  111.43   -0.16   -2.88   -0.16   -2.88  -36.84  111.43
   18.30  -38.34  112.60   -0.16   -3.04   -0.16   -3.04  -38.34  112.60
   18.43  -38.71  101.32   -0.16   -3.26   -0.16   -3.26  -38.71  101.32
   18.57  -38.85  102.93   -0.17   -3.46   -0.17   -3.46  -38.85  102.93
   18.70  -38.28  100.86   -0.17   -3.62   -0.17   -3.62  -38.28  100.86
   18.83  -37.12   93.97   -0.18   -3.80   -0.18   -3.80  -37.12   93.97
   18.96  -35.50   88.12   -0.19   -3.93   -0.19   -3.93  -35.50   88.12
   19.09  -33.22   85.56   -0.19   -4.00   -0.19   -4.00  -33.22   85.56
   19.23  -31.16   86.69   -0.19   -4.23   -0.19   -4.23  -31.16   86.69
   19.36  -29.98   85.37   -0.19   -4.34   -0.19   -4.34  -29.98   85.37
   19.49  -28.43   83.41   -0.18   -4.53   -0.18   -4.53  -28.43   83.41
   19.62  -27.18   85.86   -0.19   -4.78   -0.19   -4.78  -27.18   85.86
   19.76  -25.91   85.96   -0.19   -4.99   -0.19   -4.99  -25.91   85.96
   19.89  -24.64   87.06   -0.20   -5.17   -0.20   -5.17  -24.64   87.06
   20.02  -23.57   88.06   -0.21   -5.43   -0.21   -5.43  -23.57   88.06
   20.15  -22.78   88.85   -0.22   -5.67   -0.22   -5.67  -22.78   88.85
   20.28  -21.76   88.71   -0.23   -5.85   -0.23   -5.85  -21.76   88.71
   20.42  -21.16   90.69   -0.25   -6.01   -0.25   -6.01  -21.16   90.69
   20.55  -20.61   91.32   -0.27   -6.27   -0.27   -6.27  -20.61   91.32
   20.68  -19.96   92.20   -0.29   -6.42   -0.29   -6.42  -19.96   92.20
   20.81  -19.31   92.58   -0.29   -6.56   -0.29   -6.56  -19.31   92.58
   20.95  -18.82   92.98   -0.31   -6.75   -0.31   -6.75  -18.82   92.98
   21.08  -18.39   94.34   -0.34   -6.89   -0.34   -6.89  -18.39   94.34
   21.21  -17.94   93.15   -0.36   -7.09   -0.36   -7.09  -17.94   93.15
   21.34  -17.56   92.25   -0.38   -7.28   -0.38   -7.28  -17.56   92.25
   21.47  -17.21   93.49   -0.39   -7.07   -0.39   -7.07  -17.21   93.49
   21.61  -17.04   93.00   -0.41   -7.19   -0.41   -7.19  -17.04   93.00
   21.74  -16.63   92.09   -0.42   -7.41   -0.42   -7.41  -16.63   92.09
   21.87  -16.46   92.48   -0.42   -7.19   -0.42   -7.19  -16.46   92.48
   22.00  -16.28   91.70   -0.43   -7.33   -0.43   -7.33  -16.28   91.70
   22.14  -16.01   90.68   -0.44   -7.43   -0.44   -7.43  -16.01   90.68
   22.27  -15.95   91.56   -0.44   -7.37   -0.44   -7.37  -15.95   91.56
   22.40  -15.98   91.03   -0.47   -7.25   -0.47   -7.25  -15.98   91.03
   22.53  -15.84   90.96   -0.49   -7.34   -0.49   -7.34  -15.84   90.96
   22.66  -15.77   91.54   -0.50   -7.30   -0.50   -7.30  -15.77   91.54
   22.80  -15.99   91.54   -0.50   -7.17   -0.50   -7.17  -15.99   91.54
   22.93  -15.94   91.61   -0.50   -7.20   -0.50   -7.20  -15.94   91.61
   23.06  -16.02   92.98   -0.50   -7.18   -0.50   -7.18  -16.02   92.98
   23.19  -16.21   92.29   -0.50   -7.19   -0.50   -7.19  -16.21   92.29
   23.33  -16.27   92.42   -0.49   -7.25   -0.49   -7.25  -16.27   92.42
   23.46  -16.55   92.01   -0.48   -7.48   -0.48   -7.48  -16.55   92.01
   23.59  -16.69   91.88   -0.49   -7.65   -0.49   -7.65  -16.69   91.88
   23.72  -16.71   91.55   -0.51   -7.83   -0.51   -7.83  -16.71   91.55
   23.86  -16.88   90.07   -0.53   -7.96   -0.53   -7.96  -16.88   90.07
   23.99  -16.78   89.15   -0.55   -8.31   -0.55   -8.31  -16.78   89.15
   24.12  -16.57   86.75   -0.58   -8.56   -0.58   -8.56  -16.57   86.75
   24.25  -16.30   84.24   -0.58   -8.65   -0.58   -8.65  -16.30   84.24
   24.38  -16.03   82.23   -0.61   -8.88   -0.61   -8.88  -16.03   82.23
   24.52  -15.55   81.09   -0.65   -9.25   -0.65   -9.25  -15.55   81.09
   24.65  -15.05   78.49   -0.65   -9.46   -0.65   -9.46  -15.05   78.49
   24.78  -14.62   76.12   -0.65   -9.74   -0.65   -9.74  -14.62   76.12
   24.91  -14.00   75.51   -0.69  -10.08   -0.69  -10.08  -14.00   75.51
   25.05  -13.27   74.09   -0.73  -10.26   -0.73  -10.26  -13.27   74.09
   25.18  -12.76   72.89   -0.74  -10.65   -0.74  -10.65  -12.76   72.89
   25.31  -12.26   73.22   -0.80  -10.98   -0.80  -10.98  -12.26   73.22
   25.44  -11.82   72.87   -0.82  -11.30   -0.82  -11.30  -11.82   72.87
   25.57  -11.34   73.09   -0.82  -11.49   -0.82  -11.49  -11.34   73.09
   25.71  -10.83   73.77   -0.86  -11.96   -0.86  -11.96  -10.83   73.77
   25.84  -10.45   75.69   -0.90  -12.13   -0.90  -12.13  -10.45   75.69
   25.97  -10.01   78.09   -0.91  -12.62   -0.91  -12.62  -10.01   78.09
   26.10   -9.78   80.54   -0.94  -12.99   -0.94  -12.99   -9.78   80.54
   26.24   -9.49   83.52   -0.99  -13.02   -0.99  -13.02   -9.49   83.52
   26.37   -9.43   86.85   -1.04  -13.01   -1.04  -13.01   -9.43   86.85
   26.50   -9.26   89.93   -1.08  -13.12   -1.08  -13.12   -9.26   89.93
