!  American Technical Ceramics  Date:    3/13/98
!  One Norden Lane
!  Huntington Station,  NY.   11746-2102
!  Tel:  (516) 547-5700               Fax:  (516) 547-5748
!  Part Number  700A121J
!  Description: Porcelain, High Q, Low ESR
!  Application: Bypass, Coupling, Timing, Feedback
!               Tuning, Impedance Match, Blocking
# GHZ S DB R 50
! Freq   |S11|   S11 Ph  |S21|   S21 Ph  |S12|   S12 Ph  |S22|   S22 Ph
    0.05  -11.82  -75.89   -0.30   14.64   -0.30   14.64  -11.82  -75.89
    0.07  -14.70  -79.64   -0.18   10.60   -0.18   10.60  -14.70  -79.64
    0.09  -16.85  -82.65   -0.10    8.23   -0.10    8.23  -16.85  -82.65
    0.11  -18.38  -84.28   -0.07    6.71   -0.07    6.71  -18.38  -84.28
    0.13  -19.91  -85.76   -0.03    5.48   -0.03    5.48  -19.91  -85.76
    0.15  -21.16  -87.17   -0.02    4.87   -0.02    4.87  -21.16  -87.17
    0.17  -22.22  -87.54   -0.02    4.16   -0.02    4.16  -22.22  -87.54
    0.19  -23.38  -86.87   -0.02    3.90   -0.02    3.90  -23.38  -86.87
    0.21  -24.28  -88.73   -0.02    3.47   -0.02    3.47  -24.28  -88.73
    0.23  -25.07  -88.75   -0.01    3.15   -0.01    3.15  -25.07  -88.75
    0.25  -25.79  -88.65    0.00    2.72    0.00    2.72  -25.79  -88.65
    0.27  -26.50  -90.17   -0.01    2.62   -0.01    2.62  -26.50  -90.17
    0.29  -27.21  -90.29    0.00    2.32    0.00    2.32  -27.21  -90.29
    0.31  -27.82  -90.33   -0.02    2.16   -0.02    2.16  -27.82  -90.33
    0.33  -28.41  -90.80   -0.02    1.95   -0.02    1.95  -28.41  -90.80
    0.35  -29.07  -91.38    0.01    1.81    0.01    1.81  -29.07  -91.38
    0.37  -29.55  -90.72   -0.01    1.67   -0.01    1.67  -29.55  -90.72
    0.39  -30.12  -91.45   -0.01    1.53   -0.01    1.53  -30.12  -91.45
    0.41  -30.71  -90.93   -0.01    1.38   -0.01    1.38  -30.71  -90.93
    0.43  -31.03  -91.99   -0.01    1.28   -0.01    1.28  -31.03  -91.99
    0.45  -31.57  -93.30   -0.01    1.24   -0.01    1.24  -31.57  -93.30
    0.46  -32.14  -92.84   -0.01    1.28   -0.01    1.28  -32.14  -92.84
    0.48  -32.61  -93.25   -0.02    1.10   -0.02    1.10  -32.61  -93.25
    0.50  -33.17  -92.57   -0.02    0.99   -0.02    0.99  -33.17  -92.57
    0.52  -33.56  -93.48   -0.01    0.94   -0.01    0.94  -33.56  -93.48
    0.54  -33.97  -93.80    0.01    0.88    0.01    0.88  -33.97  -93.80
    0.56  -34.74  -94.56   -0.01    0.85   -0.01    0.85  -34.74  -94.56
    0.58  -34.81  -93.12   -0.01    0.69   -0.01    0.69  -34.81  -93.12
    0.60  -34.99  -95.64   -0.02    0.57   -0.02    0.57  -34.99  -95.64
    0.62  -35.71  -95.30   -0.01    0.56   -0.01    0.56  -35.71  -95.30
    0.64  -36.17  -94.21   -0.01    0.65   -0.01    0.65  -36.17  -94.21
    0.66  -36.48  -93.97   -0.01    0.49   -0.01    0.49  -36.48  -93.97
    0.68  -36.76  -94.31    0.00    0.36    0.00    0.36  -36.76  -94.31
    0.70  -37.19  -94.30   -0.01    0.24   -0.01    0.24  -37.19  -94.30
    0.72  -37.68  -95.58   -0.01    0.29   -0.01    0.29  -37.68  -95.58
    0.74  -38.17  -96.39   -0.01    0.33   -0.01    0.33  -38.17  -96.39
    0.76  -38.52  -94.77    0.00    0.22    0.00    0.22  -38.52  -94.77
    0.78  -39.05  -96.01   -0.01    0.29   -0.01    0.29  -39.05  -96.01
    0.80  -39.20  -96.25    0.00    0.11    0.00    0.11  -39.20  -96.25
    0.82  -39.67  -96.88   -0.01    0.10   -0.01    0.10  -39.67  -96.88
    0.84  -40.33  -98.13    0.00    0.08    0.00    0.08  -40.33  -98.13
    0.86  -41.19  -94.84   -0.01   -0.04   -0.01   -0.04  -41.19  -94.84
    0.88  -40.92  -93.67   -0.01    0.10   -0.01    0.10  -40.92  -93.67
    0.90  -41.47  -98.49   -0.01    0.02   -0.01    0.02  -41.47  -98.49
    0.92  -42.53  -96.80   -0.02   -0.02   -0.02   -0.02  -42.53  -96.80
    0.94  -42.75  -94.68   -0.02   -0.11   -0.02   -0.11  -42.75  -94.68
    0.96  -42.74  -97.43   -0.01   -0.04   -0.01   -0.04  -42.74  -97.43
    0.98  -43.59  -98.80   -0.01   -0.07   -0.01   -0.07  -43.59  -98.80
    1.00  -44.94  -96.66   -0.01   -0.26   -0.01   -0.26  -44.94  -96.66
    1.02  -45.46  -95.38    0.00   -0.23    0.00   -0.23  -45.46  -95.38
    1.04  -46.07  -90.87   -0.01   -0.22   -0.01   -0.22  -46.07  -90.87
    1.06  -46.07  -93.50   -0.01   -0.28   -0.01   -0.28  -46.07  -93.50
    1.08  -46.59  -95.99   -0.01   -0.19   -0.01   -0.19  -46.59  -95.99
    1.10  -47.53  -96.68    0.00   -0.38    0.00   -0.38  -47.53  -96.68
    1.12  -49.04  -97.83   -0.01   -0.40   -0.01   -0.40  -49.04  -97.83
    1.14  -50.51  -91.81   -0.01   -0.27   -0.01   -0.27  -50.51  -91.81
    1.16  -51.11  -89.57   -0.01   -0.33   -0.01   -0.33  -51.11  -89.57
    1.18  -51.06  -91.83    0.00   -0.42    0.00   -0.42  -51.06  -91.83
    1.20  -53.05  -95.42   -0.03   -0.40   -0.03   -0.40  -53.05  -95.42
    1.22  -56.06  -86.51   -0.01   -0.45   -0.01   -0.45  -56.06  -86.51
    1.24  -59.13  -75.07   -0.02   -0.58   -0.02   -0.58  -59.13  -75.07
    1.25  -58.32  -58.63   -0.02   -0.64   -0.02   -0.64  -58.32  -58.63
    1.27  -58.39  -70.62   -0.02   -0.61   -0.02   -0.61  -58.39  -70.62
    1.29  -76.81 -135.53   -0.02   -0.69   -0.02   -0.69  -76.81 -135.53
    1.31  -60.86   63.56   -0.03   -0.60   -0.03   -0.60  -60.86   63.56
    1.33  -58.49   24.03   -0.04   -0.65   -0.04   -0.65  -58.49   24.03
    1.35  -61.27   31.48   -0.02   -0.68   -0.02   -0.68  -61.27   31.48
    1.37  -59.97   62.93   -0.01   -0.75   -0.01   -0.75  -59.97   62.93
    1.39  -55.26   71.69   -0.02   -0.78   -0.02   -0.78  -55.26   71.69
    1.41  -52.33   58.03   -0.02   -0.74   -0.02   -0.74  -52.33   58.03
    1.43  -52.75   50.21   -0.02   -0.65   -0.02   -0.65  -52.75   50.21
    1.45  -52.83   71.46   -0.01   -0.83   -0.01   -0.83  -52.83   71.46
    1.47  -51.20   77.17   -0.02   -0.77   -0.02   -0.77  -51.20   77.17
    1.49  -48.98   84.54   -0.02   -0.72   -0.02   -0.72  -48.98   84.54
    1.51  -47.55   68.55   -0.01   -0.83   -0.01   -0.83  -47.55   68.55
    1.53  -47.17   64.46   -0.02   -1.01   -0.02   -1.01  -47.17   64.46
    1.55  -47.42   67.15    0.00   -0.97    0.00   -0.97  -47.42   67.15
    1.57  -47.14   74.52   -0.02   -0.94   -0.02   -0.94  -47.14   74.52
    1.59  -45.12   76.98   -0.01   -0.96   -0.01   -0.96  -45.12   76.98
    1.61  -43.85   71.49   -0.02   -1.04   -0.02   -1.04  -43.85   71.49
    1.63  -44.29   65.25   -0.02   -0.96   -0.02   -0.96  -44.29   65.25
    1.65  -44.72   72.53   -0.04   -1.14   -0.04   -1.14  -44.72   72.53
    1.67  -43.19   84.13   -0.03   -1.15   -0.03   -1.15  -43.19   84.13
    1.69  -41.51   74.86   -0.03   -1.09   -0.03   -1.09  -41.51   74.86
    1.71  -41.58   66.79   -0.04   -1.09   -0.04   -1.09  -41.58   66.79
    1.73  -42.50   68.33   -0.01   -1.17   -0.01   -1.17  -42.50   68.33
    1.75  -41.85   75.19   -0.03   -1.29   -0.03   -1.29  -41.85   75.19
    1.77  -40.49   76.31   -0.03   -1.25   -0.03   -1.25  -40.49   76.31
    1.79  -39.90   73.04   -0.04   -1.33   -0.04   -1.33  -39.90   73.04
    1.81  -39.71   69.17   -0.02   -1.15   -0.02   -1.15  -39.71   69.17
    1.83  -39.73   69.64   -0.03   -1.24   -0.03   -1.24  -39.73   69.64
    1.85  -39.79   72.68   -0.02   -1.26   -0.02   -1.26  -39.79   72.68
    1.87  -39.06   75.60   -0.04   -1.33   -0.04   -1.33  -39.06   75.60
    1.89  -38.12   73.30   -0.03   -1.36   -0.03   -1.36  -38.12   73.30
    1.91  -37.78   70.58   -0.03   -1.48   -0.03   -1.48  -37.78   70.58
    1.93  -37.51   68.70   -0.04   -1.45   -0.04   -1.45  -37.51   68.70
    1.95  -37.56   69.04   -0.04   -1.47   -0.04   -1.47  -37.56   69.04
    1.97  -37.13   70.54   -0.03   -1.62   -0.03   -1.62  -37.13   70.54
    1.99  -36.44   72.06   -0.04   -1.57   -0.04   -1.57  -36.44   72.06
    2.01  -35.73   69.57   -0.02   -1.67   -0.02   -1.67  -35.73   69.57
    2.03  -35.63   66.47   -0.03   -1.73   -0.03   -1.73  -35.63   66.47
    2.04  -35.77   68.18   -0.04   -1.73   -0.04   -1.73  -35.77   68.18
    2.06  -35.52   69.96   -0.04   -1.82   -0.04   -1.82  -35.52   69.96
    2.08  -34.46   69.79   -0.06   -1.89   -0.06   -1.89  -34.46   69.79
    2.10  -34.04   66.00   -0.05   -2.02   -0.05   -2.02  -34.04   66.00
    2.12  -34.05   64.38   -0.07   -2.00   -0.07   -2.00  -34.05   64.38
    2.14  -33.92   66.42   -0.07   -1.97   -0.07   -1.97  -33.92   66.42
    2.16  -33.09   67.20   -0.08   -1.97   -0.08   -1.97  -33.09   67.20
    2.18  -32.55   64.19   -0.09   -2.04   -0.09   -2.04  -32.55   64.19
    2.20  -32.24   61.56   -0.08   -2.15   -0.08   -2.15  -32.24   61.56
    2.22  -32.03   60.59   -0.09   -2.12   -0.09   -2.12  -32.03   60.59
    2.24  -31.66   60.37   -0.10   -2.25   -0.10   -2.25  -31.66   60.37
    2.26  -30.94   58.93   -0.11   -2.25   -0.11   -2.25  -30.94   58.93
    2.28  -30.36   54.97   -0.11   -2.37   -0.11   -2.37  -30.36   54.97
    2.30  -29.88   50.94   -0.15   -2.34   -0.15   -2.34  -29.88   50.94
    2.32  -29.57   47.23   -0.19   -2.43   -0.19   -2.43  -29.57   47.23
    2.34  -29.10   43.42   -0.20   -2.37   -0.20   -2.37  -29.10   43.42
    2.36  -28.71   38.56   -0.23   -2.33   -0.23   -2.33  -28.71   38.56
    2.38  -28.45   32.88   -0.26   -2.14   -0.26   -2.14  -28.45   32.88
    2.40  -28.38   25.47   -0.29   -1.87   -0.29   -1.87  -28.38   25.47
    2.42  -28.63   17.19   -0.29   -1.81   -0.29   -1.81  -28.63   17.19
    2.44  -29.24   10.48   -0.30   -1.48   -0.30   -1.48  -29.24   10.48
    2.46  -29.81    5.49   -0.29   -1.14   -0.29   -1.14  -29.81    5.49
    2.48  -30.58    0.29   -0.26   -1.06   -0.26   -1.06  -30.58    0.29
    2.50  -31.40   -4.51   -0.24   -1.04   -0.24   -1.04  -31.40   -4.51
    2.52  -32.63   -8.00   -0.21   -0.92   -0.21   -0.92  -32.63   -8.00
    2.54  -33.84   -7.46   -0.18   -0.70   -0.18   -0.70  -33.84   -7.46
    2.56  -35.01   -5.29   -0.17   -0.76   -0.17   -0.76  -35.01   -5.29
    2.58  -35.58   -1.94   -0.15   -0.83   -0.15   -0.83  -35.58   -1.94
    2.60  -36.39   -2.22   -0.15   -1.02   -0.15   -1.02  -36.39   -2.22
    2.62  -37.55    0.00   -0.14   -0.99   -0.14   -0.99  -37.55    0.00
    2.64  -38.26    3.64   -0.11   -1.00   -0.11   -1.00  -38.26    3.64
    2.66  -38.67   11.26   -0.13   -0.98   -0.13   -0.98  -38.67   11.26
    2.68  -38.53   15.66   -0.09   -1.27   -0.09   -1.27  -38.53   15.66
    2.70  -38.73   17.31   -0.10   -1.12   -0.10   -1.12  -38.73   17.31
    2.72  -39.10   21.01   -0.09   -1.19   -0.09   -1.19  -39.10   21.01
    2.74  -39.25   27.35   -0.09   -1.31   -0.09   -1.31  -39.25   27.35
    2.76  -39.16   32.34   -0.09   -1.25   -0.09   -1.25  -39.16   32.34
    2.78  -38.84   36.17   -0.07   -1.39   -0.07   -1.39  -38.84   36.17
    2.80  -38.48   37.70   -0.07   -1.35   -0.07   -1.35  -38.48   37.70
    2.82  -38.50   39.88   -0.07   -1.43   -0.07   -1.43  -38.50   39.88
    2.83  -38.30   40.17   -0.07   -1.40   -0.07   -1.40  -38.30   40.17
    2.85  -38.49   42.80   -0.07   -1.47   -0.07   -1.47  -38.49   42.80
    2.87  -38.08   46.29   -0.06   -1.59   -0.06   -1.59  -38.08   46.29
    2.89  -37.70   48.09   -0.07   -1.43   -0.07   -1.43  -37.70   48.09
    2.91  -37.37   48.44   -0.05   -1.68   -0.05   -1.68  -37.37   48.44
    2.93  -37.43   49.24   -0.06   -1.68   -0.06   -1.68  -37.43   49.24
    2.95  -37.34   51.96   -0.07   -1.79   -0.07   -1.79  -37.34   51.96
    2.97  -36.96   52.28   -0.06   -1.60   -0.06   -1.60  -36.96   52.28
    2.99  -36.71   53.50   -0.06   -1.73   -0.06   -1.73  -36.71   53.50
    3.01  -36.61   51.94   -0.05   -1.71   -0.05   -1.71  -36.61   51.94
    3.03  -36.49   53.63   -0.08   -1.77   -0.08   -1.77  -36.49   53.63
    3.05  -36.37   55.58   -0.06   -1.82   -0.06   -1.82  -36.37   55.58
    3.07  -35.98   55.54   -0.06   -1.92   -0.06   -1.92  -35.98   55.54
    3.09  -35.65   54.94   -0.07   -1.95   -0.07   -1.95  -35.65   54.94
    3.11  -35.84   55.62   -0.07   -1.93   -0.07   -1.93  -35.84   55.62
    3.13  -35.67   55.01   -0.06   -1.86   -0.06   -1.86  -35.67   55.01
    3.15  -35.54   55.36   -0.07   -1.87   -0.07   -1.87  -35.54   55.36
    3.17  -35.29   56.06   -0.06   -1.90   -0.06   -1.90  -35.29   56.06
    3.19  -35.19   56.16   -0.07   -1.95   -0.07   -1.95  -35.19   56.16
    3.21  -35.16   55.38   -0.05   -1.96   -0.05   -1.96  -35.16   55.38
    3.23  -35.02   57.14   -0.07   -2.08   -0.07   -2.08  -35.02   57.14
    3.25  -35.04   57.57   -0.06   -2.09   -0.06   -2.09  -35.04   57.57
    3.27  -34.64   57.26   -0.06   -1.99   -0.06   -1.99  -34.64   57.26
    3.29  -34.69   55.79   -0.05   -2.10   -0.05   -2.10  -34.69   55.79
    3.31  -34.69   56.23   -0.07   -2.10   -0.07   -2.10  -34.69   56.23
    3.33  -34.72   57.04   -0.06   -2.18   -0.06   -2.18  -34.72   57.04
    3.35  -34.59   56.70   -0.07   -2.15   -0.07   -2.15  -34.59   56.70
    3.37  -34.43   56.93   -0.06   -2.28   -0.06   -2.28  -34.43   56.93
    3.39  -34.28   55.11   -0.07   -2.22   -0.07   -2.22  -34.28   55.11
    3.41  -34.40   56.26   -0.07   -2.22   -0.07   -2.22  -34.40   56.26
    3.43  -34.25   57.04   -0.07   -2.31   -0.07   -2.31  -34.25   57.04
    3.45  -34.09   57.38   -0.08   -2.20   -0.08   -2.20  -34.09   57.38
    3.47  -33.90   55.69   -0.08   -2.28   -0.08   -2.28  -33.90   55.69
    3.49  -34.00   55.58   -0.08   -2.30   -0.08   -2.30  -34.00   55.58
    3.51  -34.09   56.09   -0.08   -2.21   -0.08   -2.21  -34.09   56.09
    3.53  -34.12   56.62   -0.06   -2.40   -0.06   -2.40  -34.12   56.62
    3.55  -33.97   56.79   -0.07   -2.28   -0.07   -2.28  -33.97   56.79
    3.57  -33.67   56.47   -0.08   -2.33   -0.08   -2.33  -33.67   56.47
    3.59  -33.80   54.87   -0.07   -2.25   -0.07   -2.25  -33.80   54.87
    3.61  -33.79   54.91   -0.06   -2.54   -0.06   -2.54  -33.79   54.91
    3.62  -33.74   54.83   -0.06   -2.43   -0.06   -2.43  -33.74   54.83
    3.64  -33.68   56.17   -0.07   -2.41   -0.07   -2.41  -33.68   56.17
    3.66  -33.57   55.62   -0.07   -2.63   -0.07   -2.63  -33.57   55.62
    3.68  -33.61   54.99   -0.08   -2.49   -0.08   -2.49  -33.61   54.99
    3.70  -33.63   54.39   -0.07   -2.49   -0.07   -2.49  -33.63   54.39
    3.72  -33.57   53.26   -0.09   -2.57   -0.09   -2.57  -33.57   53.26
    3.74  -33.37   54.16   -0.09   -2.71   -0.09   -2.71  -33.37   54.16
    3.76  -33.40   52.49   -0.07   -2.73   -0.07   -2.73  -33.40   52.49
    3.78  -33.48   53.37   -0.08   -2.81   -0.08   -2.81  -33.48   53.37
    3.80  -33.42   54.24   -0.09   -2.59   -0.09   -2.59  -33.42   54.24
    3.82  -33.43   52.38   -0.10   -2.70   -0.10   -2.70  -33.43   52.38
    3.84  -33.30   52.96   -0.09   -2.63   -0.09   -2.63  -33.30   52.96
    3.86  -33.38   50.69   -0.08   -2.75   -0.08   -2.75  -33.38   50.69
    3.88  -33.49   50.86   -0.11   -2.71   -0.11   -2.71  -33.49   50.86
    3.90  -33.39   50.83   -0.11   -2.70   -0.11   -2.70  -33.39   50.83
    3.92  -33.35   50.84   -0.10   -2.70   -0.10   -2.70  -33.35   50.84
    3.94  -33.21   49.17   -0.09   -2.82   -0.09   -2.82  -33.21   49.17
    3.96  -33.23   48.21   -0.10   -2.66   -0.10   -2.66  -33.23   48.21
    3.98  -33.28   47.76   -0.10   -2.90   -0.10   -2.90  -33.28   47.76
    4.00  -32.74   52.18   -0.10   -2.99   -0.10   -2.99  -32.74   52.18
