!  American Technical Ceramics  Date:    3/13/98
!  One Norden Lane
!  Huntington Station,  NY.   11746-2102
!  Tel:  (516) 547-5700               Fax:  (516) 547-5748
!  Part Number  700A470G
!  Description: Porcelain, High Q, Low ESR
!  Application: Bypass, Coupling, Timing, Feedback
!               Tuning, Impedance Match, Blocking
# GHZ S DB R 50
! Freq   |S11|   S11 Ph  |S21|   S21 Ph  |S12|   S12 Ph  |S22|   S22 Ph
    0.05   -4.94  -55.32   -1.74   34.34   -1.74   34.34   -4.94  -55.32
    0.09   -8.88  -69.34   -0.62   20.89   -0.62   20.89   -8.88  -69.34
    0.13  -11.81  -75.64   -0.40   14.68   -0.40   14.68  -11.81  -75.64
    0.17  -14.07  -79.09   -0.20   11.36   -0.20   11.36  -14.07  -79.09
    0.21  -15.89  -81.49   -0.15    9.10   -0.15    9.10  -15.89  -81.49
    0.25  -17.43  -83.20   -0.09    7.60   -0.09    7.60  -17.43  -83.20
    0.29  -18.76  -84.76   -0.08    6.52   -0.08    6.52  -18.76  -84.76
    0.33  -19.92  -85.78   -0.07    5.69   -0.07    5.69  -19.92  -85.78
    0.37  -21.01  -86.60   -0.05    4.78   -0.05    4.78  -21.01  -86.60
    0.41  -21.95  -86.86   -0.04    4.43   -0.04    4.43  -21.95  -86.86
    0.45  -22.82  -88.03   -0.04    3.91   -0.04    3.91  -22.82  -88.03
    0.49  -23.71  -88.42   -0.03    3.54   -0.03    3.54  -23.71  -88.42
    0.53  -24.67  -88.88   -0.05    3.04   -0.05    3.04  -24.67  -88.88
    0.57  -25.55  -89.08   -0.03    2.74   -0.03    2.74  -25.55  -89.08
    0.61  -26.11  -89.93   -0.03    2.51   -0.03    2.51  -26.11  -89.93
    0.65  -26.87  -89.95   -0.03    2.37   -0.03    2.37  -26.87  -89.95
    0.69  -27.40  -90.34   -0.03    2.21   -0.03    2.21  -27.40  -90.34
    0.73  -28.15  -91.06   -0.04    1.89   -0.04    1.89  -28.15  -91.06
    0.77  -28.82  -90.59   -0.02    1.79   -0.02    1.79  -28.82  -90.59
    0.81  -29.29  -91.35   -0.01    1.55   -0.01    1.55  -29.29  -91.35
    0.85  -30.13  -91.56   -0.02    1.49   -0.02    1.49  -30.13  -91.56
    0.88  -30.44  -91.25   -0.04    1.32   -0.04    1.32  -30.44  -91.25
    0.92  -31.45  -91.45   -0.03    1.18   -0.03    1.18  -31.45  -91.45
    0.96  -31.77  -92.25   -0.04    1.12   -0.04    1.12  -31.77  -92.25
    1.00  -32.71  -92.13   -0.04    1.01   -0.04    1.01  -32.71  -92.13
    1.04  -33.17  -90.49   -0.03    0.94   -0.03    0.94  -33.17  -90.49
    1.08  -33.57  -92.60   -0.02    0.76   -0.02    0.76  -33.57  -92.60
    1.12  -34.65  -92.98   -0.02    0.57   -0.02    0.57  -34.65  -92.98
    1.16  -35.27  -89.94   -0.01    0.63   -0.01    0.63  -35.27  -89.94
    1.20  -35.84  -92.52   -0.03    0.43   -0.03    0.43  -35.84  -92.52
    1.24  -36.91  -90.67   -0.03    0.30   -0.03    0.30  -36.91  -90.67
    1.28  -37.36  -92.56   -0.04    0.29   -0.04    0.29  -37.36  -92.56
    1.32  -38.73  -88.83   -0.04    0.24   -0.04    0.24  -38.73  -88.83
    1.36  -39.01  -90.81   -0.03    0.20   -0.03    0.20  -39.01  -90.81
    1.40  -40.85  -89.05   -0.03    0.23   -0.03    0.23  -40.85  -89.05
    1.44  -41.30  -88.24   -0.03   -0.02   -0.03   -0.02  -41.30  -88.24
    1.48  -43.17  -91.47   -0.02   -0.04   -0.02   -0.04  -43.17  -91.47
    1.52  -45.00  -81.46   -0.02   -0.07   -0.02   -0.07  -45.00  -81.46
    1.56  -44.96  -85.37   -0.02   -0.23   -0.02   -0.23  -44.96  -85.37
    1.60  -50.63  -83.65   -0.03   -0.34   -0.03   -0.34  -50.63  -83.65
    1.64  -48.70  -69.13   -0.03   -0.46   -0.03   -0.46  -48.70  -69.13
    1.68  -64.52  -59.39   -0.05   -0.53   -0.05   -0.53  -64.52  -59.39
    1.72  -52.67  -23.41   -0.04   -0.39   -0.04   -0.39  -52.67  -23.41
    1.76  -61.91   43.94   -0.04   -0.33   -0.04   -0.33  -61.91   43.94
    1.80  -49.95   42.28   -0.02   -0.65   -0.02   -0.65  -49.95   42.28
    1.84  -52.34   41.77   -0.03   -0.72   -0.03   -0.72  -52.34   41.77
    1.88  -47.66   73.23   -0.04   -0.55   -0.04   -0.55  -47.66   73.23
    1.92  -44.96   57.78   -0.03   -0.68   -0.03   -0.68  -44.96   57.78
    1.96  -45.43   63.66   -0.02   -0.97   -0.02   -0.97  -45.43   63.66
    2.00  -41.89   70.91   -0.02   -0.89   -0.02   -0.89  -41.89   70.91
    2.04  -42.29   66.49   -0.03   -0.94   -0.03   -0.94  -42.29   66.49
    2.08  -40.10   75.47   -0.03   -1.11   -0.03   -1.11  -40.10   75.47
    2.12  -39.87   66.38   -0.05   -1.17   -0.05   -1.17  -39.87   66.38
    2.16  -39.32   73.56   -0.05   -1.10   -0.05   -1.10  -39.32   73.56
    2.20  -38.20   69.75   -0.04   -1.22   -0.04   -1.22  -38.20   69.75
    2.24  -38.25   74.01   -0.04   -1.28   -0.04   -1.28  -38.25   74.01
    2.28  -36.83   74.53   -0.05   -1.23   -0.05   -1.23  -36.83   74.53
    2.32  -36.69   68.56   -0.04   -1.29   -0.04   -1.29  -36.69   68.56
    2.36  -36.05   73.93   -0.03   -1.32   -0.03   -1.32  -36.05   73.93
    2.40  -35.25   72.32   -0.03   -1.48   -0.03   -1.48  -35.25   72.32
    2.44  -35.44   72.89   -0.05   -1.41   -0.05   -1.41  -35.44   72.89
    2.47  -34.38   72.56   -0.04   -1.56   -0.04   -1.56  -34.38   72.56
    2.51  -34.50   71.60   -0.04   -1.57   -0.04   -1.57  -34.50   71.60
    2.55  -33.54   74.28   -0.05   -1.81   -0.05   -1.81  -33.54   74.28
    2.59  -33.33   72.12   -0.06   -1.69   -0.06   -1.69  -33.33   72.12
    2.63  -33.05   73.54   -0.06   -1.79   -0.06   -1.79  -33.05   73.54
    2.67  -32.36   72.99   -0.06   -1.71   -0.06   -1.71  -32.36   72.99
    2.71  -32.34   72.42   -0.06   -1.90   -0.06   -1.90  -32.34   72.42
    2.75  -31.99   73.44   -0.04   -1.91   -0.04   -1.91  -31.99   73.44
    2.79  -31.45   72.45   -0.04   -2.08   -0.04   -2.08  -31.45   72.45
    2.83  -31.36   71.66   -0.05   -2.05   -0.05   -2.05  -31.36   71.66
    2.87  -30.91   73.65   -0.05   -2.10   -0.05   -2.10  -30.91   73.65
    2.91  -30.61   71.78   -0.05   -2.10   -0.05   -2.10  -30.61   71.78
    2.95  -30.38   72.27   -0.05   -2.27   -0.05   -2.27  -30.38   72.27
    2.99  -29.84   72.18   -0.03   -2.46   -0.03   -2.46  -29.84   72.18
    3.03  -29.78   72.42   -0.06   -2.38   -0.06   -2.38  -29.78   72.42
    3.07  -29.27   71.97   -0.07   -2.52   -0.07   -2.52  -29.27   71.97
    3.11  -29.02   70.87   -0.07   -2.53   -0.07   -2.53  -29.02   70.87
    3.15  -28.73   71.66   -0.05   -2.53   -0.05   -2.53  -28.73   71.66
    3.19  -28.32   70.92   -0.08   -2.81   -0.08   -2.81  -28.32   70.92
    3.23  -28.09   71.83   -0.07   -2.95   -0.07   -2.95  -28.09   71.83
    3.27  -27.65   71.04   -0.09   -2.95   -0.09   -2.95  -27.65   71.04
    3.31  -27.29   70.50   -0.09   -3.26   -0.09   -3.26  -27.29   70.50
    3.35  -26.88   70.46   -0.07   -3.22   -0.07   -3.22  -26.88   70.46
    3.39  -26.45   70.09   -0.08   -3.61   -0.08   -3.61  -26.45   70.09
    3.43  -25.97   69.64   -0.10   -3.75   -0.10   -3.75  -25.97   69.64
    3.47  -25.24   68.65   -0.11   -3.80   -0.11   -3.80  -25.24   68.65
    3.51  -24.71   67.98   -0.12   -4.05   -0.12   -4.05  -24.71   67.98
    3.55  -23.80   67.18   -0.14   -4.42   -0.14   -4.42  -23.80   67.18
    3.59  -22.82   64.94   -0.17   -4.87   -0.17   -4.87  -22.82   64.94
    3.63  -21.65   61.88   -0.25   -5.30   -0.25   -5.30  -21.65   61.88
    3.67  -20.13   56.43   -0.36   -6.10   -0.36   -6.10  -20.13   56.43
    3.71  -18.20   46.13   -0.61   -7.01   -0.61   -7.01  -18.20   46.13
    3.75  -16.34   26.35   -1.14   -6.39   -1.14   -6.39  -16.34   26.35
    3.79  -16.20   -4.07   -1.47   -1.54   -1.47   -1.54  -16.20   -4.07
    3.83  -18.72  -30.53   -0.97    2.15   -0.97    2.15  -18.72  -30.53
    3.87  -22.18  -44.40   -0.56    1.91   -0.56    1.91  -22.18  -44.40
    3.91  -25.29  -49.51   -0.35    1.06   -0.35    1.06  -25.29  -49.51
    3.95  -28.02  -49.81   -0.23    0.56   -0.23    0.56  -28.02  -49.81
    3.99  -30.36  -48.48   -0.19   -0.10   -0.19   -0.10  -30.36  -48.48
    4.03  -33.47  -40.19   -0.16   -0.39   -0.16   -0.39  -33.47  -40.19
    4.06  -35.07  -30.15   -0.15   -0.71   -0.15   -0.71  -35.07  -30.15
    4.10  -36.39  -22.81   -0.11   -1.11   -0.11   -1.11  -36.39  -22.81
    4.14  -37.42  -11.66   -0.12   -1.19   -0.12   -1.19  -37.42  -11.66
    4.18  -38.05   -1.40   -0.12   -1.35   -0.12   -1.35  -38.05   -1.40
    4.22  -38.15   10.70   -0.11   -1.49   -0.11   -1.49  -38.15   10.70
    4.26  -38.51   15.62   -0.10   -1.82   -0.10   -1.82  -38.51   15.62
    4.30  -38.47   23.48   -0.11   -1.70   -0.11   -1.70  -38.47   23.48
    4.34  -38.18   30.36   -0.13   -1.79   -0.13   -1.79  -38.18   30.36
    4.38  -37.53   36.72   -0.10   -1.96   -0.10   -1.96  -37.53   36.72
    4.42  -37.26   39.81   -0.09   -2.01   -0.09   -2.01  -37.26   39.81
    4.46  -37.06   41.70   -0.10   -2.10   -0.10   -2.10  -37.06   41.70
    4.50  -36.88   43.91   -0.10   -2.14   -0.10   -2.14  -36.88   43.91
    4.54  -36.42   48.48   -0.09   -2.14   -0.09   -2.14  -36.42   48.48
    4.58  -35.83   49.34   -0.11   -2.35   -0.11   -2.35  -35.83   49.34
    4.62  -35.85   48.89   -0.11   -2.23   -0.11   -2.23  -35.85   48.89
    4.66  -35.59   51.73   -0.10   -2.44   -0.10   -2.44  -35.59   51.73
    4.70  -35.04   53.61   -0.11   -2.48   -0.11   -2.48  -35.04   53.61
    4.74  -35.00   53.34   -0.11   -2.69   -0.11   -2.69  -35.00   53.34
    4.78  -34.85   54.14   -0.12   -2.64   -0.12   -2.64  -34.85   54.14
    4.82  -34.52   55.67   -0.11   -2.74   -0.11   -2.74  -34.52   55.67
    4.86  -34.77   54.83   -0.14   -2.69   -0.14   -2.69  -34.77   54.83
    4.90  -34.70   57.32   -0.11   -2.67   -0.11   -2.67  -34.70   57.32
    4.94  -34.26   58.78   -0.10   -2.88   -0.10   -2.88  -34.26   58.78
    4.98  -33.82   57.15   -0.13   -2.96   -0.13   -2.96  -33.82   57.15
    5.02  -34.21   57.67   -0.10   -2.89   -0.10   -2.89  -34.21   57.67
    5.06  -33.71   61.39   -0.13   -2.91   -0.13   -2.91  -33.71   61.39
    5.10  -33.40   59.46   -0.11   -3.23   -0.11   -3.23  -33.40   59.46
    5.14  -33.38   59.35   -0.15   -3.32   -0.15   -3.32  -33.38   59.35
    5.18  -33.07   60.88   -0.12   -3.07   -0.12   -3.07  -33.07   60.88
    5.22  -32.99   59.99   -0.11   -3.29   -0.11   -3.29  -32.99   59.99
    5.26  -32.91   61.12   -0.10   -3.25   -0.10   -3.25  -32.91   61.12
    5.30  -32.61   61.32   -0.12   -3.42   -0.12   -3.42  -32.61   61.32
    5.34  -32.12   61.28   -0.13   -3.44   -0.13   -3.44  -32.12   61.28
    5.38  -32.09   58.52   -0.12   -3.48   -0.12   -3.48  -32.09   58.52
    5.42  -32.23   62.09   -0.13   -3.46   -0.13   -3.46  -32.23   62.09
    5.46  -31.80   62.91   -0.12   -3.59   -0.12   -3.59  -31.80   62.91
    5.50  -31.60   61.26   -0.13   -3.57   -0.13   -3.57  -31.60   61.26
    5.54  -31.62   61.15   -0.14   -3.65   -0.14   -3.65  -31.62   61.15
    5.58  -31.26   61.84   -0.13   -3.61   -0.13   -3.61  -31.26   61.84
    5.62  -31.19   61.65   -0.12   -3.61   -0.12   -3.61  -31.19   61.65
    5.65  -31.09   63.07   -0.13   -3.72   -0.13   -3.72  -31.09   63.07
    5.69  -30.74   62.95   -0.14   -3.95   -0.14   -3.95  -30.74   62.95
    5.73  -30.40   62.61   -0.15   -3.89   -0.15   -3.89  -30.40   62.61
    5.77  -30.36   63.80   -0.13   -3.95   -0.13   -3.95  -30.36   63.80
    5.81  -29.83   65.46   -0.13   -3.95   -0.13   -3.95  -29.83   65.46
    5.85  -29.53   63.55   -0.13   -4.21   -0.13   -4.21  -29.53   63.55
    5.89  -29.35   63.88   -0.14   -4.07   -0.14   -4.07  -29.35   63.88
    5.93  -29.14   64.98   -0.13   -4.11   -0.13   -4.11  -29.14   64.98
    5.97  -28.67   64.32   -0.17   -4.34   -0.17   -4.34  -28.67   64.32
    6.01  -28.34   62.68   -0.14   -4.38   -0.14   -4.38  -28.34   62.68
    6.05  -28.12   63.64   -0.16   -4.42   -0.16   -4.42  -28.12   63.64
    6.09  -27.82   62.94   -0.16   -4.55   -0.16   -4.55  -27.82   62.94
    6.13  -27.58   61.80   -0.16   -4.63   -0.16   -4.63  -27.58   61.80
    6.17  -27.30   62.27   -0.17   -4.72   -0.17   -4.72  -27.30   62.27
    6.21  -26.75   61.90   -0.18   -4.62   -0.18   -4.62  -26.75   61.90
    6.25  -26.53   61.21   -0.19   -4.95   -0.19   -4.95  -26.53   61.21
    6.29  -26.28   61.81   -0.19   -5.07   -0.19   -5.07  -26.28   61.81
    6.33  -25.82   61.34   -0.19   -5.05   -0.19   -5.05  -25.82   61.34
    6.37  -25.47   60.79   -0.18   -5.08   -0.18   -5.08  -25.47   60.79
    6.41  -24.95   60.08   -0.21   -5.30   -0.21   -5.30  -24.95   60.08
    6.45  -24.57   60.25   -0.22   -5.46   -0.22   -5.46  -24.57   60.25
    6.49  -23.90   59.19   -0.23   -5.58   -0.23   -5.58  -23.90   59.19
    6.53  -23.55   57.47   -0.24   -5.77   -0.24   -5.77  -23.55   57.47
    6.57  -22.89   56.31   -0.27   -6.01   -0.27   -6.01  -22.89   56.31
    6.61  -22.23   53.53   -0.31   -6.13   -0.31   -6.13  -22.23   53.53
    6.65  -21.59   51.46   -0.37   -6.23   -0.37   -6.23  -21.59   51.46
    6.69  -21.01   48.06   -0.43   -6.54   -0.43   -6.54  -21.01   48.06
    6.73  -20.23   42.86   -0.53   -6.67   -0.53   -6.67  -20.23   42.86
    6.77  -19.70   35.48   -0.64   -6.55   -0.64   -6.55  -19.70   35.48
    6.81  -19.33   26.95   -0.78   -6.01   -0.78   -6.01  -19.33   26.95
    6.85  -19.66   16.82   -0.85   -4.97   -0.85   -4.97  -19.66   16.82
    6.89  -20.52    6.94   -0.84   -3.70   -0.84   -3.70  -20.52    6.94
    6.93  -22.10    0.67   -0.72   -2.80   -0.72   -2.80  -22.10    0.67
    6.97  -23.51    0.91   -0.60   -2.49   -0.60   -2.49  -23.51    0.91
    7.01  -24.85    3.58   -0.51   -2.53   -0.51   -2.53  -24.85    3.58
    7.05  -26.00    9.97   -0.43   -2.68   -0.43   -2.68  -26.00    9.97
    7.09  -26.47   16.87   -0.39   -2.78   -0.39   -2.78  -26.47   16.87
    7.13  -26.40   21.57   -0.37   -3.10   -0.37   -3.10  -26.40   21.57
    7.17  -26.11   26.94   -0.33   -3.23   -0.33   -3.23  -26.11   26.94
    7.21  -25.79   31.72   -0.32   -3.46   -0.32   -3.46  -25.79   31.72
    7.24  -25.49   35.11   -0.30   -3.58   -0.30   -3.58  -25.49   35.11
    7.28  -25.25   36.90   -0.31   -3.78   -0.31   -3.78  -25.25   36.90
    7.32  -24.81   37.95   -0.32   -3.97   -0.32   -3.97  -24.81   37.95
    7.36  -24.35   38.75   -0.30   -3.97   -0.30   -3.97  -24.35   38.75
    7.40  -24.04   40.12   -0.30   -4.02   -0.30   -4.02  -24.04   40.12
    7.44  -23.98   41.73   -0.32   -4.21   -0.32   -4.21  -23.98   41.73
    7.48  -23.47   41.85   -0.33   -4.23   -0.33   -4.23  -23.47   41.85
    7.52  -23.31   40.85   -0.32   -4.26   -0.32   -4.26  -23.31   40.85
    7.56  -22.90   41.73   -0.34   -4.22   -0.34   -4.22  -22.90   41.73
    7.60  -22.69   42.08   -0.31   -4.23   -0.31   -4.23  -22.69   42.08
    7.64  -22.63   43.67   -0.33   -4.34   -0.33   -4.34  -22.63   43.67
    7.68  -22.52   43.07   -0.32   -4.49   -0.32   -4.49  -22.52   43.07
    7.72  -22.27   44.01   -0.34   -4.18   -0.34   -4.18  -22.27   44.01
    7.76  -21.99   44.07   -0.34   -4.47   -0.34   -4.47  -21.99   44.07
    7.80  -21.79   44.95   -0.34   -4.47   -0.34   -4.47  -21.79   44.95
    7.84  -21.68   45.89   -0.35   -4.56   -0.35   -4.56  -21.68   45.89
    7.88  -21.38   45.67   -0.33   -4.54   -0.33   -4.54  -21.38   45.67
    7.92  -21.27   44.92   -0.34   -4.50   -0.34   -4.50  -21.27   44.92
    7.96  -20.98   46.06   -0.33   -4.69   -0.33   -4.69  -20.98   46.06
    8.00  -20.85   45.83   -0.34   -4.73   -0.34   -4.73  -20.85   45.83
