!  American Technical Ceramics  Date:   11/13/98
!  One Norden Lane
!  Huntington Station,  NY.   11746-2102
!  Tel:  (516) 547-5700               Fax:  (516) 547-5748
!  Part Number  700A0R6
!  Description: NPO, High Q, Temperature Stable
!  Application: Bypass, Coupling, Timing
!               Tuning, Blocking
# GHZ S DB R 50
! Freq   |S11|   S11 Ph  |S21|   S21 Ph  |S12|   S12 Ph  |S22|   S22 Ph
    0.05    0.02   -1.14  -34.15   91.37  -34.15   91.37    0.02   -1.14
    0.15    0.03   -3.18  -24.95   87.06  -24.95   87.06    0.03   -3.18
    0.25   -0.02   -5.53  -20.53   84.87  -20.53   84.87   -0.02   -5.53
    0.35   -0.03   -7.72  -17.66   82.91  -17.66   82.91   -0.03   -7.72
    0.45   -0.07   -9.69  -15.49   80.96  -15.49   80.96   -0.07   -9.69
    0.55   -0.14  -11.48  -13.67   77.54  -13.67   77.54   -0.14  -11.48
    0.65   -0.23  -13.67  -12.30   75.62  -12.30   75.62   -0.23  -13.67
    0.75   -0.43  -15.93  -11.23   74.12  -11.23   74.12   -0.43  -15.93
    0.85   -0.47  -19.04  -10.24   71.73  -10.24   71.73   -0.47  -19.04
    0.95   -0.49  -19.83   -9.32   70.03   -9.32   70.03   -0.49  -19.83
    1.05   -0.64  -21.69   -8.57   67.93   -8.57   67.93   -0.64  -21.69
    1.15   -0.71  -23.20   -7.87   66.27   -7.87   66.27   -0.71  -23.20
    1.25   -0.95  -25.18   -7.33   65.10   -7.33   65.10   -0.95  -25.18
    1.35   -1.04  -27.64   -6.80   62.90   -6.80   62.90   -1.04  -27.64
    1.45   -1.12  -29.11   -6.28   60.96   -6.28   60.96   -1.12  -29.11
    1.55   -1.24  -30.44   -5.81   59.27   -5.81   59.27   -1.24  -30.44
    1.65   -1.36  -31.76   -5.39   57.82   -5.39   57.82   -1.36  -31.76
    1.75   -1.60  -33.34   -5.05   56.68   -5.05   56.68   -1.60  -33.34
    1.85   -1.78  -35.44   -4.78   55.08   -4.78   55.08   -1.78  -35.44
    1.95   -1.91  -36.74   -4.43   53.32   -4.43   53.32   -1.91  -36.74
    2.05   -2.05  -37.90   -4.14   51.84   -4.14   51.84   -2.05  -37.90
    2.14   -2.20  -38.78   -3.85   50.46   -3.85   50.46   -2.20  -38.78
    2.24   -2.43  -40.37   -3.62   49.40   -3.62   49.40   -2.43  -40.37
    2.34   -2.64  -42.09   -3.40   48.09   -3.40   48.09   -2.64  -42.09
    2.44   -2.79  -43.28   -3.19   46.66   -3.19   46.66   -2.79  -43.28
    2.54   -2.99  -44.04   -2.97   45.23   -2.97   45.23   -2.99  -44.04
    2.64   -3.15  -45.05   -2.80   44.13   -2.80   44.13   -3.15  -45.05
    2.74   -3.43  -46.36   -2.63   42.77   -2.63   42.77   -3.43  -46.36
    2.84   -3.63  -48.02   -2.48   41.64   -2.48   41.64   -3.63  -48.02
    2.94   -3.85  -48.97   -2.33   40.23   -2.33   40.23   -3.85  -48.97
    3.04   -4.05  -49.68   -2.18   39.07   -2.18   39.07   -4.05  -49.68
    3.14   -4.26  -50.46   -2.07   38.02   -2.07   38.02   -4.26  -50.46
    3.24   -4.58  -51.31   -1.99   36.80   -1.99   36.80   -4.58  -51.31
    3.34   -4.84  -52.79   -1.89   35.65   -1.89   35.65   -4.84  -52.79
    3.44   -5.07  -53.61   -1.81   34.48   -1.81   34.48   -5.07  -53.61
    3.54   -5.24  -54.36   -1.69   33.40   -1.69   33.40   -5.24  -54.36
    3.64   -5.44  -54.50   -1.63   32.68   -1.63   32.68   -5.44  -54.50
    3.74   -5.78  -55.25   -1.59   31.67   -1.59   31.67   -5.78  -55.25
    3.84   -6.03  -56.47   -1.55   30.69   -1.55   30.69   -6.03  -56.47
    3.94   -6.26  -57.34   -1.50   29.60   -1.50   29.60   -6.26  -57.34
    4.04   -6.27  -59.54   -1.24   28.92   -1.24   28.92   -6.27  -59.54
    4.14   -6.42  -59.70   -1.17   28.39   -1.17   28.39   -6.42  -59.70
    4.24   -6.69  -60.04   -1.15   27.88   -1.15   27.88   -6.69  -60.04
    4.34   -6.94  -61.75   -1.10   27.00   -1.10   27.00   -6.94  -61.75
    4.44   -7.13  -62.40   -1.06   26.13   -1.06   26.13   -7.13  -62.40
    4.54   -7.30  -63.23   -0.99   25.18   -0.99   25.18   -7.30  -63.23
    4.64   -7.40  -63.27   -0.91   24.71   -0.91   24.71   -7.40  -63.27
    4.74   -7.71  -63.33   -0.91   24.33   -0.91   24.33   -7.71  -63.33
    4.84   -7.87  -64.44   -0.89   23.65   -0.89   23.65   -7.87  -64.44
    4.94   -8.12  -64.52   -0.86   22.97   -0.86   22.97   -8.12  -64.52
    5.04   -8.32  -65.28   -0.84   22.09   -0.84   22.09   -8.32  -65.28
    5.14   -8.38  -65.43   -0.76   21.66   -0.76   21.66   -8.38  -65.43
    5.24   -8.62  -65.60   -0.76   21.35   -0.76   21.35   -8.62  -65.60
    5.34   -8.79  -66.18   -0.74   20.83   -0.74   20.83   -8.79  -66.18
    5.44   -9.12  -66.24   -0.74   20.27   -0.74   20.27   -9.12  -66.24
    5.54   -9.27  -66.94   -0.71   19.67   -0.71   19.67   -9.27  -66.94
    5.64   -9.35  -67.26   -0.68   19.27   -0.68   19.27   -9.35  -67.26
    5.74   -9.52  -67.59   -0.64   19.06   -0.64   19.06   -9.52  -67.59
    5.84   -9.89  -68.30   -0.64   18.60   -0.64   18.60   -9.89  -68.30
    5.94  -10.11  -68.76   -0.60   18.11   -0.60   18.11  -10.11  -68.76
    6.04  -10.41  -69.60   -0.59   17.60   -0.59   17.60  -10.41  -69.60
    6.13  -10.47  -69.83   -0.54   17.02   -0.54   17.02  -10.47  -69.83
    6.23  -10.85  -69.63   -0.54   16.79   -0.54   16.79  -10.85  -69.63
    6.33  -11.17  -70.75   -0.53   16.31   -0.53   16.31  -11.17  -70.75
    6.43  -11.44  -71.64   -0.51   15.95   -0.51   15.95  -11.44  -71.64
    6.53  -11.72  -72.09   -0.50   15.47   -0.50   15.47  -11.72  -72.09
    6.63  -11.98  -72.30   -0.48   14.95   -0.48   14.95  -11.98  -72.30
    6.73  -12.38  -72.26   -0.46   14.64   -0.46   14.64  -12.38  -72.26
    6.83  -12.85  -73.36   -0.48   14.27   -0.48   14.27  -12.85  -73.36
    6.93  -13.09  -73.25   -0.46   13.82   -0.46   13.82  -13.09  -73.25
    7.03  -13.46  -72.81   -0.46   13.56   -0.46   13.56  -13.46  -72.81
    7.13  -13.73  -73.08   -0.44   13.06   -0.44   13.06  -13.73  -73.08
    7.23  -14.21  -72.72   -0.44   12.74   -0.44   12.74  -14.21  -72.72
    7.33  -14.63  -72.83   -0.45   12.37   -0.45   12.37  -14.63  -72.83
    7.43  -15.03  -72.09   -0.47   11.99   -0.47   11.99  -15.03  -72.09
    7.53  -15.34  -70.63   -0.46   11.70   -0.46   11.70  -15.34  -70.63
    7.63  -15.70  -69.55   -0.48   11.46   -0.48   11.46  -15.70  -69.55
    7.73  -15.92  -68.40   -0.47   11.24   -0.47   11.24  -15.92  -68.40
    7.83  -16.38  -68.69   -0.46   11.17   -0.46   11.17  -16.38  -68.69
    7.93  -16.78  -68.27   -0.45   10.77   -0.45   10.77  -16.78  -68.27
    8.03  -17.38  -67.13   -0.43   10.50   -0.43   10.50  -17.38  -67.13
    8.13  -17.86  -65.27   -0.42   10.04   -0.42   10.04  -17.86  -65.27
    8.23  -18.35  -63.16   -0.41    9.80   -0.41    9.80  -18.35  -63.16
    8.33  -18.94  -61.77   -0.40    9.57   -0.40    9.57  -18.94  -61.77
    8.43  -19.58  -60.81   -0.39    9.35   -0.39    9.35  -19.58  -60.81
    8.53  -20.41  -58.36   -0.37    8.86   -0.37    8.86  -20.41  -58.36
    8.63  -21.12  -55.31   -0.36    8.58   -0.36    8.58  -21.12  -55.31
    8.73  -22.01  -50.75   -0.35    8.13   -0.35    8.13  -22.01  -50.75
    8.83  -22.77  -46.69   -0.35    7.85   -0.35    7.85  -22.77  -46.69
    8.93  -23.68  -41.90   -0.35    7.52   -0.35    7.52  -23.68  -41.90
    9.03  -24.33  -35.90   -0.35    7.21   -0.35    7.21  -24.33  -35.90
    9.13  -25.20  -28.95   -0.35    6.93   -0.35    6.93  -25.20  -28.95
    9.23  -25.90  -21.29   -0.35    6.58   -0.35    6.58  -25.90  -21.29
    9.33  -26.44  -12.71   -0.34    6.30   -0.34    6.30  -26.44  -12.71
    9.43  -26.81   -5.72   -0.34    6.11   -0.34    6.11  -26.81   -5.72
    9.53  -27.35    3.39   -0.33    5.81   -0.33    5.81  -27.35    3.39
    9.63  -27.44   13.75   -0.32    5.54   -0.32    5.54  -27.44   13.75
    9.73  -27.53   21.90   -0.31    5.28   -0.31    5.28  -27.53   21.90
    9.83  -27.48   31.10   -0.30    4.99   -0.30    4.99  -27.48   31.10
    9.93  -27.30   39.64   -0.29    4.76   -0.29    4.76  -27.30   39.64
   10.03  -26.87   47.76   -0.28    4.44   -0.28    4.44  -26.87   47.76
   10.12  -26.29   54.44   -0.28    4.14   -0.28    4.14  -26.29   54.44
   10.22  -25.88   61.23   -0.27    3.87   -0.27    3.87  -25.88   61.23
   10.32  -25.27   66.57   -0.25    3.59   -0.25    3.59  -25.27   66.57
   10.42  -24.89   71.79   -0.24    3.29   -0.24    3.29  -24.89   71.79
   10.52  -24.17   76.19   -0.24    3.02   -0.24    3.02  -24.17   76.19
   10.62  -23.57   80.65   -0.23    2.74   -0.23    2.74  -23.57   80.65
   10.72  -22.82   83.22   -0.22    2.32   -0.22    2.32  -22.82   83.22
   10.82  -22.37   85.12   -0.21    1.96   -0.21    1.96  -22.37   85.12
   10.92  -21.77   86.42   -0.21    1.65   -0.21    1.65  -21.77   86.42
   11.02  -21.43   87.82   -0.21    1.35   -0.21    1.35  -21.43   87.82
   11.12  -20.89   89.31   -0.21    0.98   -0.21    0.98  -20.89   89.31
   11.22  -20.47   90.30   -0.20    0.57   -0.20    0.57  -20.47   90.30
   11.32  -20.03   90.77   -0.20    0.29   -0.20    0.29  -20.03   90.77
   11.42  -19.75   90.66   -0.19   -0.08   -0.19   -0.08  -19.75   90.66
   11.52  -19.36   90.83   -0.21   -0.40   -0.21   -0.40  -19.36   90.83
   11.62  -18.95   91.09   -0.21   -0.81   -0.21   -0.81  -18.95   91.09
   11.72  -18.50   90.96   -0.22   -1.15   -0.22   -1.15  -18.50   90.96
   11.82  -18.20   91.01   -0.21   -1.62   -0.21   -1.62  -18.20   91.01
   11.92  -17.91   89.78   -0.21   -1.92   -0.21   -1.92  -17.91   89.78
   12.02  -17.50   89.24   -0.23   -2.33   -0.23   -2.33  -17.50   89.24
   12.12  -17.04   88.50   -0.25   -2.64   -0.25   -2.64  -17.04   88.50
   12.22  -16.69   88.31   -0.27   -3.10   -0.27   -3.10  -16.69   88.31
   12.32  -16.33   87.03   -0.27   -3.47   -0.27   -3.47  -16.33   87.03
   12.42  -16.09   85.23   -0.27   -3.99   -0.27   -3.99  -16.09   85.23
   12.52  -15.58   84.35   -0.27   -4.20   -0.27   -4.20  -15.58   84.35
   12.62  -15.29   83.94   -0.29   -4.61   -0.29   -4.61  -15.29   83.94
   12.72  -14.78   83.32   -0.31   -5.00   -0.31   -5.00  -14.78   83.32
   12.82  -14.58   81.70   -0.35   -5.59   -0.35   -5.59  -14.58   81.70
   12.92  -14.06   80.22   -0.33   -6.07   -0.33   -6.07  -14.06   80.22
   13.02  -13.76   79.41   -0.36   -6.46   -0.36   -6.46  -13.76   79.41
   13.12  -13.26   79.08   -0.38   -6.67   -0.38   -6.67  -13.26   79.08
   13.22  -12.93   78.88   -0.44   -7.21   -0.44   -7.21  -12.93   78.88
   13.32  -12.52   77.29   -0.46   -7.75   -0.46   -7.75  -12.52   77.29
   13.42  -12.12   76.24   -0.48   -8.40   -0.48   -8.40  -12.12   76.24
   13.52  -11.69   75.75   -0.47   -8.68   -0.47   -8.68  -11.69   75.75
   13.62  -11.31   75.96   -0.52   -8.90   -0.52   -8.90  -11.31   75.96
   13.72  -10.84   75.26   -0.57   -9.38   -0.57   -9.38  -10.84   75.26
   13.82  -10.52   74.92   -0.64  -10.04   -0.64  -10.04  -10.52   74.92
   13.92  -10.17   73.59   -0.65  -10.73   -0.65  -10.73  -10.17   73.59
   14.02   -9.87   73.34   -0.68  -11.21   -0.68  -11.21   -9.87   73.34
   14.11   -9.42   72.48   -0.71  -11.40   -0.71  -11.40   -9.42   72.48
   14.21   -9.07   74.14   -0.78  -11.54   -0.78  -11.54   -9.07   74.14
   14.31   -8.80   73.68   -0.83  -12.15   -0.83  -12.15   -8.80   73.68
   14.41   -8.60   73.04   -0.89  -12.75   -0.89  -12.75   -8.60   73.04
   14.51   -8.36   72.22   -0.93  -13.20   -0.93  -13.20   -8.36   72.22
   14.61   -8.06   72.35   -0.98  -13.64   -0.98  -13.64   -8.06   72.35
   14.71   -7.73   73.32   -1.01  -13.92   -1.01  -13.92   -7.73   73.32
   14.81   -7.56   73.38   -1.08  -14.28   -1.08  -14.28   -7.56   73.38
   14.91   -7.38   73.42   -1.13  -14.58   -1.13  -14.58   -7.38   73.42
   15.01   -7.34   72.70   -1.22  -15.06   -1.22  -15.06   -7.34   72.70
   15.11   -7.11   73.31   -1.26  -15.31   -1.26  -15.31   -7.11   73.31
   15.21   -6.90   73.56   -1.31  -15.61   -1.31  -15.61   -6.90   73.56
   15.31   -6.78   74.66   -1.35  -15.67   -1.35  -15.67   -6.78   74.66
   15.41   -6.64   73.78   -1.42  -16.06   -1.42  -16.06   -6.64   73.78
   15.51   -6.58   73.97   -1.44  -16.17   -1.44  -16.17   -6.58   73.97
   15.61   -6.47   73.51   -1.51  -16.37   -1.51  -16.37   -6.47   73.51
   15.71   -6.31   74.63   -1.53  -16.50   -1.53  -16.50   -6.31   74.63
   15.81   -6.19   74.44   -1.56  -16.72   -1.56  -16.72   -6.19   74.44
   15.91   -6.08   74.38   -1.58  -16.91   -1.58  -16.91   -6.08   74.38
   16.01   -6.11   73.44   -1.63  -17.08   -1.63  -17.08   -6.11   73.44
   16.11   -6.03   73.35   -1.66  -17.25   -1.66  -17.25   -6.03   73.35
   16.21   -5.94   73.45   -1.70  -17.57   -1.70  -17.57   -5.94   73.45
   16.31   -5.81   73.46   -1.68  -17.93   -1.68  -17.93   -5.81   73.46
   16.41   -5.73   73.15   -1.69  -18.33   -1.69  -18.33   -5.73   73.15
   16.51   -5.71   72.55   -1.71  -18.55   -1.71  -18.55   -5.71   72.55
   16.61   -5.64   72.39   -1.73  -18.82   -1.73  -18.82   -5.64   72.39
   16.71   -5.63   72.44   -1.76  -18.96   -1.76  -18.96   -5.63   72.44
   16.81   -5.49   71.60   -1.80  -19.81   -1.80  -19.81   -5.49   71.60
   16.91   -5.45   71.65   -1.77  -20.07   -1.77  -20.07   -5.45   71.65
   17.01   -5.38   71.02   -1.82  -20.88   -1.82  -20.88   -5.38   71.02
   17.11   -5.46   70.95   -1.82  -21.07   -1.82  -21.07   -5.46   70.95
   17.21   -5.39   70.56   -1.96  -21.74   -1.96  -21.74   -5.39   70.56
   17.31   -5.35   70.53   -1.93  -22.10   -1.93  -22.10   -5.35   70.53
   17.41   -5.21   70.19   -1.99  -22.98   -1.99  -22.98   -5.21   70.19
   17.51   -5.26   70.08   -2.01  -23.49   -2.01  -23.49   -5.26   70.08
   17.61   -5.18   69.78   -2.15  -24.16   -2.15  -24.16   -5.18   69.78
   17.71   -5.15   69.31   -2.18  -24.36   -2.18  -24.36   -5.15   69.31
   17.81   -4.98   68.82   -2.23  -25.39   -2.23  -25.39   -4.98   68.82
   17.91   -4.98   68.13   -2.28  -26.36   -2.28  -26.36   -4.98   68.13
   18.01   -4.87   67.44   -2.33  -26.63   -2.33  -26.63   -4.87   67.44
   18.10   -4.90   65.95   -2.39  -27.70   -2.39  -27.70   -4.90   65.95
   18.20   -4.70   65.76   -2.52  -27.87   -2.52  -27.87   -4.70   65.76
   18.30   -4.63   64.63   -2.58  -29.06   -2.58  -29.06   -4.63   64.63
   18.40   -4.61   63.95   -2.69  -29.98   -2.69  -29.98   -4.61   63.95
   18.50   -4.59   62.02   -2.79  -31.04   -2.79  -31.04   -4.59   62.02
   18.60   -4.44   61.06   -2.92  -31.63   -2.92  -31.63   -4.44   61.06
   18.70   -4.33   60.12   -3.06  -32.50   -3.06  -32.50   -4.33   60.12
   18.80   -4.18   59.33   -3.18  -33.40   -3.18  -33.40   -4.18   59.33
   18.90   -4.10   58.12   -3.32  -34.33   -3.32  -34.33   -4.10   58.12
   19.00   -3.97   56.17   -3.45  -35.44   -3.45  -35.44   -3.97   56.17
   19.10   -3.83   55.22   -3.62  -36.19   -3.62  -36.19   -3.83   55.22
   19.20   -3.72   54.43   -3.82  -37.00   -3.82  -37.00   -3.72   54.43
   19.30   -3.55   53.90   -3.97  -37.83   -3.97  -37.83   -3.55   53.90
   19.40   -3.47   52.41   -4.16  -38.88   -4.16  -38.88   -3.47   52.41
   19.50   -3.29   50.64   -4.32  -39.90   -4.32  -39.90   -3.29   50.64
   19.60   -3.22   50.63   -4.54  -40.56   -4.54  -40.56   -3.22   50.63
   19.70   -3.05   49.52   -4.70  -41.44   -4.70  -41.44   -3.05   49.52
   19.80   -2.99   50.05   -4.95  -42.27   -4.95  -42.27   -2.99   50.05
   19.90   -2.88   48.37   -5.16  -43.55   -5.16  -43.55   -2.88   48.37
   20.00   -2.75   48.52   -5.42  -44.16   -5.42  -44.16   -2.75   48.52
