!  American Technical Ceramics  Date:    3/13/98
!  One Norden Lane
!  Huntington Station,  NY.   11746-2102
!  Tel:  (516) 547-5700               Fax:  (516) 547-5748
!  Part Number  700B120J
!  Description: Porcelain, High Q, Low ESR
!  Application: Bypass, Coupling, Timing, Feedback
!               Tuning, Impedance Match, Blocking
# GHZ S DB R 50
! Freq   |S11|   S11 Ph  |S21|   S21 Ph  |S12|   S12 Ph  |S22|   S22 Ph
    0.05   -0.49  -19.83   -9.34   70.35   -9.34   70.35   -0.49  -19.83
    0.11   -2.12  -39.22   -4.10   50.60   -4.10   50.60   -2.12  -39.22
    0.17   -3.93  -52.36   -2.23   38.02   -2.23   38.02   -3.93  -52.36
    0.24   -5.73  -60.69   -1.35   29.84   -1.35   29.84   -5.73  -60.69
    0.30   -7.23  -66.74   -0.92   24.29   -0.92   24.29   -7.23  -66.74
    0.36   -8.52  -70.84   -0.65   20.14   -0.65   20.14   -8.52  -70.84
    0.42   -9.62  -74.37   -0.50   17.06   -0.50   17.06   -9.62  -74.37
    0.48  -10.55  -76.60   -0.39   14.70   -0.39   14.70  -10.55  -76.60
    0.54  -11.58  -78.88   -0.35   12.32   -0.35   12.32  -11.58  -78.88
    0.61  -12.28  -80.86   -0.29   10.89   -0.29   10.89  -12.28  -80.86
    0.67  -12.87  -82.24   -0.25    9.68   -0.25    9.68  -12.87  -82.24
    0.73  -13.38  -83.36   -0.23    8.60   -0.23    8.60  -13.38  -83.36
    0.79  -13.84  -84.57   -0.22    7.73   -0.22    7.73  -13.84  -84.57
    0.85  -14.23  -85.89   -0.20    6.87   -0.20    6.87  -14.23  -85.89
    0.91  -14.55  -86.77   -0.18    6.09   -0.18    6.09  -14.55  -86.77
    0.98  -14.80  -87.97   -0.17    5.39   -0.17    5.39  -14.80  -87.97
    1.04  -15.07  -88.79   -0.17    4.73   -0.17    4.73  -15.07  -88.79
    1.10  -15.30  -89.77   -0.15    4.12   -0.15    4.12  -15.30  -89.77
    1.16  -15.41  -90.62   -0.16    3.60   -0.16    3.60  -15.41  -90.62
    1.22  -15.57  -91.02   -0.14    3.16   -0.14    3.16  -15.57  -91.02
    1.29  -15.71  -91.82   -0.15    2.67   -0.15    2.67  -15.71  -91.82
    1.35  -15.78  -92.65   -0.14    2.31   -0.14    2.31  -15.78  -92.65
    1.41  -15.85  -93.20   -0.13    1.88   -0.13    1.88  -15.85  -93.20
    1.47  -15.88  -93.98   -0.15    1.51   -0.15    1.51  -15.88  -93.98
    1.53  -15.94  -94.68   -0.14    1.14   -0.14    1.14  -15.94  -94.68
    1.59  -15.98  -95.56   -0.13    0.81   -0.13    0.81  -15.98  -95.56
    1.66  -15.94  -95.93   -0.14    0.43   -0.14    0.43  -15.94  -95.93
    1.72  -15.95  -96.37   -0.15    0.06   -0.15    0.06  -15.95  -96.37
    1.78  -15.96  -97.18   -0.16   -0.27   -0.16   -0.27  -15.96  -97.18
    1.84  -15.93  -97.82   -0.14   -0.49   -0.14   -0.49  -15.93  -97.82
    1.90  -15.82  -97.84   -0.13   -0.79   -0.13   -0.79  -15.82  -97.84
    1.96  -15.80  -98.28   -0.14   -1.13   -0.14   -1.13  -15.80  -98.28
    2.03  -15.81  -99.07   -0.17   -1.35   -0.17   -1.35  -15.81  -99.07
    2.09  -15.78  -99.61   -0.15   -1.55   -0.15   -1.55  -15.78  -99.61
    2.15  -15.62  -99.68   -0.15   -1.85   -0.15   -1.85  -15.62  -99.68
    2.21  -15.60 -100.42   -0.16   -2.21   -0.16   -2.21  -15.60 -100.42
    2.27  -15.57 -101.16   -0.18   -2.22   -0.18   -2.22  -15.57 -101.16
    2.33  -15.49 -101.49   -0.16   -2.54   -0.16   -2.54  -15.49 -101.49
    2.40  -15.37 -101.70   -0.16   -2.76   -0.16   -2.76  -15.37 -101.70
    2.46  -15.33 -102.07   -0.17   -2.98   -0.17   -2.98  -15.33 -102.07
    2.52  -15.26 -102.86   -0.18   -3.21   -0.18   -3.21  -15.26 -102.86
    2.58  -15.19 -102.77   -0.17   -3.44   -0.17   -3.44  -15.19 -102.77
    2.64  -15.09 -102.81   -0.18   -3.77   -0.18   -3.77  -15.09 -102.81
    2.71  -15.01 -103.18   -0.20   -4.01   -0.20   -4.01  -15.01 -103.18
    2.77  -14.97 -104.16   -0.19   -4.20   -0.19   -4.20  -14.97 -104.16
    2.83  -14.89 -103.89   -0.19   -4.33   -0.19   -4.33  -14.89 -103.89
    2.89  -14.73 -104.00   -0.21   -4.39   -0.21   -4.39  -14.73 -104.00
    2.95  -14.74 -104.88   -0.21   -4.88   -0.21   -4.88  -14.74 -104.88
    3.01  -14.66 -105.09   -0.23   -5.06   -0.23   -5.06  -14.66 -105.09
    3.08  -14.51 -105.36   -0.20   -5.19   -0.20   -5.19  -14.51 -105.36
    3.14  -14.45 -105.20   -0.21   -5.44   -0.21   -5.44  -14.45 -105.20
    3.20  -14.44 -105.58   -0.27   -5.74   -0.27   -5.74  -14.44 -105.58
    3.26  -14.34 -106.36   -0.23   -5.71   -0.23   -5.71  -14.34 -106.36
    3.32  -14.30 -106.20   -0.23   -6.14   -0.23   -6.14  -14.30 -106.20
    3.38  -14.10 -105.93   -0.27   -6.34   -0.27   -6.34  -14.10 -105.93
    3.45  -14.12 -107.10   -0.26   -6.56   -0.26   -6.56  -14.12 -107.10
    3.51  -14.04 -107.03   -0.26   -6.59   -0.26   -6.59  -14.04 -107.03
    3.57  -13.89 -106.46   -0.27   -6.84   -0.27   -6.84  -13.89 -106.46
    3.63  -13.79 -107.25   -0.27   -7.04   -0.27   -7.04  -13.79 -107.25
    3.69  -13.82 -107.66   -0.30   -7.38   -0.30   -7.38  -13.82 -107.66
    3.76  -13.65 -107.59   -0.30   -7.41   -0.30   -7.41  -13.65 -107.59
    3.82  -13.60 -107.73   -0.29   -7.98   -0.29   -7.98  -13.60 -107.73
    3.88  -13.46 -107.78   -0.32   -7.93   -0.32   -7.93  -13.46 -107.78
    3.94  -13.45 -107.99   -0.34   -8.02   -0.34   -8.02  -13.45 -107.99
    4.00  -13.55 -109.76   -0.30   -8.29   -0.30   -8.29  -13.55 -109.76
    4.06  -13.45 -109.55   -0.31   -8.42   -0.31   -8.42  -13.45 -109.55
    4.13  -13.39 -109.96   -0.31   -8.71   -0.31   -8.71  -13.39 -109.96
    4.19  -13.49 -110.58   -0.33   -8.96   -0.33   -8.96  -13.49 -110.58
    4.25  -13.32 -110.26   -0.30   -8.77   -0.30   -8.77  -13.32 -110.26
    4.31  -13.31 -110.70   -0.31   -9.17   -0.31   -9.17  -13.31 -110.70
    4.37  -13.35 -111.04   -0.34   -9.35   -0.34   -9.35  -13.35 -111.04
    4.43  -13.37 -111.49   -0.35   -9.48   -0.35   -9.48  -13.37 -111.49
    4.50  -13.34 -111.59   -0.33   -9.74   -0.33   -9.74  -13.34 -111.59
    4.56  -13.32 -111.18   -0.33  -10.07   -0.33  -10.07  -13.32 -111.18
    4.62  -13.36 -111.87   -0.36  -10.16   -0.36  -10.16  -13.36 -111.87
    4.68  -13.44 -111.62   -0.37  -10.31   -0.37  -10.31  -13.44 -111.62
    4.74  -13.35 -111.34   -0.33  -10.58   -0.33  -10.58  -13.35 -111.34
    4.80  -13.37 -111.50   -0.37  -10.73   -0.37  -10.73  -13.37 -111.50
    4.87  -13.44 -111.82   -0.36  -10.81   -0.36  -10.81  -13.44 -111.82
    4.93  -13.50 -112.04   -0.38  -11.14   -0.38  -11.14  -13.50 -112.04
    4.99  -13.48 -112.46   -0.32  -11.43   -0.32  -11.43  -13.48 -112.46
    5.05  -13.63 -111.82   -0.36  -11.61   -0.36  -11.61  -13.63 -111.82
    5.11  -13.71 -112.50   -0.32  -11.90   -0.32  -11.90  -13.71 -112.50
    5.18  -13.85 -112.44   -0.37  -12.07   -0.37  -12.07  -13.85 -112.44
    5.24  -13.94 -112.01   -0.35  -12.26   -0.35  -12.26  -13.94 -112.01
    5.30  -14.03 -111.81   -0.34  -12.72   -0.34  -12.72  -14.03 -111.81
    5.36  -14.25 -112.62   -0.37  -12.78   -0.37  -12.78  -14.25 -112.62
    5.42  -14.49 -111.55   -0.35  -13.06   -0.35  -13.06  -14.49 -111.55
    5.48  -14.45 -111.25   -0.33  -13.30   -0.33  -13.30  -14.45 -111.25
    5.55  -14.78 -111.15   -0.35  -13.79   -0.35  -13.79  -14.78 -111.15
    5.61  -15.02 -111.22   -0.37  -14.07   -0.37  -14.07  -15.02 -111.22
    5.67  -15.30 -110.53   -0.34  -14.58   -0.34  -14.58  -15.30 -110.53
    5.73  -15.54 -110.45   -0.34  -14.78   -0.34  -14.78  -15.54 -110.45
    5.79  -16.06 -109.92   -0.34  -15.60   -0.34  -15.60  -16.06 -109.92
    5.85  -16.59 -109.12   -0.32  -16.06   -0.32  -16.06  -16.59 -109.12
    5.92  -17.35 -107.67   -0.35  -16.88   -0.35  -16.88  -17.35 -107.67
    5.98  -18.18 -104.37   -0.36  -17.84   -0.36  -17.84  -18.18 -104.37
    6.04  -19.47  -98.59   -0.39  -19.09   -0.39  -19.09  -19.47  -98.59
    6.10  -21.16  -87.75   -0.42  -20.72   -0.42  -20.72  -21.16  -87.75
    6.16  -22.29  -61.22   -0.53  -23.19   -0.53  -23.19  -22.29  -61.22
    6.23  -19.31  -25.76   -0.79  -26.59   -0.79  -26.59  -19.31  -25.76
    6.29  -13.36  -14.51   -1.56  -32.03   -1.56  -32.03  -13.36  -14.51
    6.35   -7.88  -29.59   -3.93  -34.83   -3.93  -34.83   -7.88  -29.59
    6.41   -5.62  -60.07   -5.90  -10.43   -5.90  -10.43   -5.62  -60.07
    6.47   -6.20  -82.25   -3.26    1.16   -3.26    1.16   -6.20  -82.25
    6.53   -7.66  -94.01   -1.97   -1.04   -1.97   -1.04   -7.66  -94.01
    6.60   -8.71 -100.13   -1.39   -3.56   -1.39   -3.56   -8.71 -100.13
    6.66   -9.54 -102.42   -1.12   -5.52   -1.12   -5.52   -9.54 -102.42
    6.72  -10.11 -104.14   -0.98   -7.12   -0.98   -7.12  -10.11 -104.14
    6.78  -10.73 -105.62   -0.93   -8.14   -0.93   -8.14  -10.73 -105.62
    6.84  -11.20 -105.39   -0.85   -8.93   -0.85   -8.93  -11.20 -105.39
    6.90  -11.43 -106.03   -0.80   -9.69   -0.80   -9.69  -11.43 -106.03
    6.97  -11.63 -105.70   -0.80  -10.23   -0.80  -10.23  -11.63 -105.70
    7.03  -12.02 -105.89   -0.78  -10.59   -0.78  -10.59  -12.02 -105.89
    7.09  -12.13 -106.40   -0.75  -11.16   -0.75  -11.16  -12.13 -106.40
    7.15  -12.37 -105.76   -0.77  -11.34   -0.77  -11.34  -12.37 -105.76
    7.21  -12.46 -105.67   -0.75  -11.73   -0.75  -11.73  -12.46 -105.67
    7.27  -12.68 -105.39   -0.77  -12.05   -0.77  -12.05  -12.68 -105.39
    7.34  -12.74 -105.09   -0.76  -12.26   -0.76  -12.26  -12.74 -105.09
    7.40  -12.66 -105.34   -0.76  -12.43   -0.76  -12.43  -12.66 -105.34
    7.46  -12.76 -104.50   -0.76  -12.53   -0.76  -12.53  -12.76 -104.50
    7.52  -12.90 -105.51   -0.77  -12.67   -0.77  -12.67  -12.90 -105.51
    7.58  -12.83 -105.56   -0.77  -12.87   -0.77  -12.87  -12.83 -105.56
    7.65  -12.87 -105.51   -0.73  -12.73   -0.73  -12.73  -12.87 -105.51
    7.71  -12.87 -106.59   -0.74  -13.23   -0.74  -13.23  -12.87 -106.59
    7.77  -12.97 -107.81   -0.71  -13.23   -0.71  -13.23  -12.97 -107.81
    7.83  -13.16 -107.94   -0.66  -13.35   -0.66  -13.35  -13.16 -107.94
    7.89  -13.12 -107.96   -0.67  -13.70   -0.67  -13.70  -13.12 -107.96
    7.95  -13.35 -108.18   -0.67  -13.86   -0.67  -13.86  -13.35 -108.18
    8.02  -13.49 -109.45   -0.67  -14.03   -0.67  -14.03  -13.49 -109.45
    8.08  -13.42 -108.67   -0.65  -14.48   -0.65  -14.48  -13.42 -108.67
    8.14  -13.54 -109.21   -0.66  -14.54   -0.66  -14.54  -13.54 -109.21
    8.20  -13.66 -109.57   -0.65  -14.84   -0.65  -14.84  -13.66 -109.57
    8.26  -13.72 -110.32   -0.66  -15.15   -0.66  -15.15  -13.72 -110.32
    8.32  -13.75 -110.26   -0.65  -15.23   -0.65  -15.23  -13.75 -110.26
    8.39  -13.75 -110.93   -0.67  -15.41   -0.67  -15.41  -13.75 -110.93
    8.45  -13.96 -111.40   -0.63  -15.72   -0.63  -15.72  -13.96 -111.40
    8.51  -14.00 -112.51   -0.64  -16.05   -0.64  -16.05  -14.00 -112.51
    8.57  -14.09 -112.12   -0.61  -16.28   -0.61  -16.28  -14.09 -112.12
    8.63  -14.14 -112.58   -0.60  -16.27   -0.60  -16.27  -14.14 -112.58
    8.70  -14.30 -113.02   -0.62  -16.53   -0.62  -16.53  -14.30 -113.02
    8.76  -14.32 -114.07   -0.61  -16.98   -0.61  -16.98  -14.32 -114.07
    8.82  -14.42 -113.83   -0.61  -17.16   -0.61  -17.16  -14.42 -113.83
    8.88  -14.50 -114.62   -0.62  -17.33   -0.62  -17.33  -14.50 -114.62
    8.94  -14.67 -114.98   -0.62  -17.70   -0.62  -17.70  -14.67 -114.98
    9.00  -14.72 -115.83   -0.64  -17.71   -0.64  -17.71  -14.72 -115.83
    9.07  -14.76 -116.25   -0.63  -18.28   -0.63  -18.28  -14.76 -116.25
    9.13  -14.86 -116.79   -0.67  -18.36   -0.67  -18.36  -14.86 -116.79
    9.19  -15.10 -118.13   -0.65  -18.39   -0.65  -18.39  -15.10 -118.13
    9.25  -15.16 -118.88   -0.63  -19.05   -0.63  -19.05  -15.16 -118.88
    9.31  -15.29 -118.73   -0.65  -19.11   -0.65  -19.11  -15.29 -118.73
    9.37  -15.41 -120.04   -0.65  -19.27   -0.65  -19.27  -15.41 -120.04
    9.44  -15.62 -121.12   -0.66  -19.58   -0.66  -19.58  -15.62 -121.12
    9.50  -15.71 -122.10   -0.66  -19.81   -0.66  -19.81  -15.71 -122.10
    9.56  -15.88 -122.34   -0.68  -20.29   -0.68  -20.29  -15.88 -122.34
    9.62  -16.14 -123.26   -0.68  -20.32   -0.68  -20.32  -16.14 -123.26
    9.68  -16.28 -124.54   -0.70  -20.47   -0.70  -20.47  -16.28 -124.54
    9.74  -16.43 -125.87   -0.70  -21.02   -0.70  -21.02  -16.43 -125.87
    9.81  -16.68 -126.01   -0.69  -21.15   -0.69  -21.15  -16.68 -126.01
    9.87  -16.94 -127.41   -0.70  -21.34   -0.70  -21.34  -16.94 -127.41
    9.93  -17.35 -128.22   -0.68  -21.81   -0.68  -21.81  -17.35 -128.22
    9.99  -17.50 -129.55   -0.69  -21.99   -0.69  -21.99  -17.50 -129.55
   10.05  -17.94 -130.05   -0.71  -22.32   -0.71  -22.32  -17.94 -130.05
   10.12  -18.30 -131.63   -0.70  -22.68   -0.70  -22.68  -18.30 -131.63
   10.18  -18.66 -131.92   -0.74  -23.09   -0.74  -23.09  -18.66 -131.92
   10.24  -19.01 -132.75   -0.73  -23.46   -0.73  -23.46  -19.01 -132.75
   10.30  -19.46 -133.90   -0.74  -23.88   -0.74  -23.88  -19.46 -133.90
   10.36  -20.00 -135.45   -0.80  -24.43   -0.80  -24.43  -20.00 -135.45
   10.42  -20.66 -137.03   -0.79  -24.93   -0.79  -24.93  -20.66 -137.03
   10.49  -21.17 -138.65   -0.82  -25.25   -0.82  -25.25  -21.17 -138.65
   10.55  -22.03 -139.99   -0.86  -25.73   -0.86  -25.73  -22.03 -139.99
   10.61  -23.12 -142.83   -0.91  -25.89   -0.91  -25.89  -23.12 -142.83
   10.67  -24.25 -145.65   -0.96  -26.20   -0.96  -26.20  -24.25 -145.65
   10.73  -25.93 -148.41   -0.98  -26.76   -0.98  -26.76  -25.93 -148.41
   10.79  -28.26 -152.22   -1.03  -27.18   -1.03  -27.18  -28.26 -152.22
   10.86  -31.66 -159.34   -1.07  -27.51   -1.07  -27.51  -31.66 -159.34
   10.92  -37.93 -174.25   -1.15  -27.87   -1.15  -27.87  -37.93 -174.25
   10.98  -45.34   76.23   -1.15  -28.32   -1.15  -28.32  -45.34   76.23
   11.04  -33.84   36.30   -1.17  -28.87   -1.17  -28.87  -33.84   36.30
   11.10  -28.75   27.20   -1.24  -29.38   -1.24  -29.38  -28.75   27.20
   11.17  -24.92   21.84   -1.28  -30.33   -1.28  -30.33  -24.92   21.84
   11.23  -22.05   16.97   -1.38  -31.29   -1.38  -31.29  -22.05   16.97
   11.29  -19.79   13.09   -1.46  -32.30   -1.46  -32.30  -19.79   13.09
   11.35  -17.58    7.43   -1.61  -33.61   -1.61  -33.61  -17.58    7.43
   11.41  -15.63    1.56   -1.88  -35.17   -1.88  -35.17  -15.63    1.56
   11.47  -13.70   -6.67   -2.30  -36.76   -2.30  -36.76  -13.70   -6.67
   11.54  -12.01  -17.22   -2.97  -38.10   -2.97  -38.10  -12.01  -17.22
   11.60  -10.66  -31.04   -3.95  -36.97   -3.95  -36.97  -10.66  -31.04
   11.66   -9.86  -48.21   -5.06  -30.22   -5.06  -30.22   -9.86  -48.21
   11.72  -10.05  -67.29   -5.01  -18.84   -5.01  -18.84  -10.05  -67.29
   11.78  -11.45  -82.73   -4.00  -12.45   -4.00  -12.45  -11.45  -82.73
   11.84  -13.12  -94.89   -3.00  -11.40   -3.00  -11.40  -13.12  -94.89
   11.91  -15.24 -102.64   -2.40  -12.52   -2.40  -12.52  -15.24 -102.64
   11.97  -17.31 -106.12   -1.96  -14.21   -1.96  -14.21  -17.31 -106.12
   12.03  -19.61 -108.50   -1.75  -15.49   -1.75  -15.49  -19.61 -108.50
   12.09  -21.97 -106.52   -1.55  -16.97   -1.55  -16.97  -21.97 -106.52
   12.15  -24.44 -100.98   -1.45  -18.20   -1.45  -18.20  -24.44 -100.98
   12.21  -26.79  -91.12   -1.37  -19.09   -1.37  -19.09  -26.79  -91.12
   12.28  -29.23  -75.21   -1.31  -20.13   -1.31  -20.13  -29.23  -75.21
   12.34  -30.60  -52.01   -1.26  -20.94   -1.26  -20.94  -30.60  -52.01
   12.40  -29.62  -26.71   -1.25  -21.63   -1.25  -21.63  -29.62  -26.71
