!Murata Part Number: GRM188R72A222KA01
!These Parameters are Measured in Series Mode Connection
!Data Generated on Mar 30, 2021
!       o--ll--o
!Port1            Port2
!       o------o
!Operation Temp=25[degC], DC Bias Voltage=0[V]
!Freq. Start=100[Hz] Stop=6[GHz] 401[Steps]
# Hz S RI R 50
!Freq.(Hz) S11(Real) S11(Imag) S21(Real) S21(Imag) S12(Real) S12(Imag) S22(Real) S22(Imag)
100 0.9999993 -0.0001388 0.0000007 0.0001388 0.0000007 0.0001388 0.9999993 -0.0001388
105 0.9999993 -0.0001451 0.0000007 0.0001451 0.0000007 0.0001451 0.9999993 -0.0001451
109 0.9999993 -0.0001517 0.0000007 0.0001517 0.0000007 0.0001517 0.9999993 -0.0001517
114 0.9999992 -0.0001586 0.0000008 0.0001586 0.0000008 0.0001586 0.9999992 -0.0001586
120 0.9999992 -0.0001659 0.0000008 0.0001659 0.0000008 0.0001659 0.9999992 -0.0001659
125 0.9999992 -0.0001734 0.0000008 0.0001734 0.0000008 0.0001734 0.9999992 -0.0001734
131 0.9999991 -0.0001814 0.0000009 0.0001814 0.0000009 0.0001814 0.9999991 -0.0001814
137 0.9999991 -0.0001896 0.0000009 0.0001896 0.0000009 0.0001896 0.9999991 -0.0001896
143 0.9999990 -0.0001983 0.0000010 0.0001983 0.0000010 0.0001983 0.9999990 -0.0001983
150 0.9999990 -0.0002073 0.0000010 0.0002073 0.0000010 0.0002073 0.9999990 -0.0002073
156 0.9999990 -0.0002168 0.0000010 0.0002168 0.0000010 0.0002168 0.9999990 -0.0002168
164 0.9999989 -0.0002267 0.0000011 0.0002267 0.0000011 0.0002267 0.9999989 -0.0002267
171 0.9999989 -0.0002370 0.0000011 0.0002370 0.0000011 0.0002370 0.9999989 -0.0002370
179 0.9999988 -0.0002478 0.0000012 0.0002478 0.0000012 0.0002478 0.9999988 -0.0002478
187 0.9999988 -0.0002591 0.0000012 0.0002591 0.0000012 0.0002591 0.9999988 -0.0002591
196 0.9999987 -0.0002710 0.0000013 0.0002710 0.0000013 0.0002710 0.9999987 -0.0002710
205 0.9999987 -0.0002833 0.0000013 0.0002833 0.0000013 0.0002833 0.9999987 -0.0002833
214 0.9999986 -0.0002963 0.0000014 0.0002963 0.0000014 0.0002963 0.9999986 -0.0002963
224 0.9999985 -0.0003098 0.0000015 0.0003098 0.0000015 0.0003098 0.9999985 -0.0003098
234 0.9999985 -0.0003240 0.0000015 0.0003240 0.0000015 0.0003240 0.9999985 -0.0003240
245 0.9999984 -0.0003388 0.0000016 0.0003388 0.0000016 0.0003388 0.9999984 -0.0003388
256 0.9999983 -0.0003542 0.0000017 0.0003542 0.0000017 0.0003542 0.9999983 -0.0003542
268 0.9999983 -0.0003704 0.0000017 0.0003704 0.0000017 0.0003704 0.9999983 -0.0003704
280 0.9999982 -0.0003873 0.0000018 0.0003873 0.0000018 0.0003873 0.9999982 -0.0003873
293 0.9999981 -0.0004050 0.0000019 0.0004050 0.0000019 0.0004050 0.9999981 -0.0004050
306 0.9999980 -0.0004235 0.0000020 0.0004235 0.0000020 0.0004235 0.9999980 -0.0004235
320 0.9999979 -0.0004429 0.0000021 0.0004429 0.0000021 0.0004429 0.9999979 -0.0004429
335 0.9999978 -0.0004631 0.0000022 0.0004631 0.0000022 0.0004631 0.9999978 -0.0004631
350 0.9999977 -0.0004843 0.0000023 0.0004843 0.0000023 0.0004843 0.9999977 -0.0004843
366 0.9999976 -0.0005064 0.0000024 0.0005064 0.0000024 0.0005064 0.9999976 -0.0005064
383 0.9999975 -0.0005295 0.0000025 0.0005295 0.0000025 0.0005295 0.9999975 -0.0005295
401 0.9999974 -0.0005537 0.0000026 0.0005537 0.0000026 0.0005537 0.9999974 -0.0005537
419 0.9999972 -0.0005790 0.0000028 0.0005790 0.0000028 0.0005790 0.9999972 -0.0005790
438 0.9999971 -0.0006055 0.0000029 0.0006055 0.0000029 0.0006055 0.9999971 -0.0006055
458 0.9999969 -0.0006331 0.0000031 0.0006331 0.0000031 0.0006331 0.9999969 -0.0006331
479 0.9999967 -0.0006620 0.0000033 0.0006620 0.0000033 0.0006620 0.9999967 -0.0006620
501 0.9999965 -0.0006923 0.0000035 0.0006923 0.0000035 0.0006923 0.9999965 -0.0006923
524 0.9999963 -0.0007239 0.0000037 0.0007239 0.0000037 0.0007239 0.9999963 -0.0007239
548 0.9999961 -0.0007570 0.0000039 0.0007570 0.0000039 0.0007570 0.9999961 -0.0007570
573 0.9999959 -0.0007915 0.0000041 0.0007915 0.0000041 0.0007915 0.9999959 -0.0007915
600 0.9999957 -0.0008277 0.0000043 0.0008277 0.0000043 0.0008277 0.9999957 -0.0008277
627 0.9999954 -0.0008655 0.0000046 0.0008655 0.0000046 0.0008655 0.9999954 -0.0008655
656 0.9999951 -0.0009050 0.0000049 0.0009050 0.0000049 0.0009050 0.9999951 -0.0009050
686 0.9999948 -0.0009463 0.0000052 0.0009463 0.0000052 0.0009463 0.9999948 -0.0009463
717 0.9999945 -0.0009895 0.0000055 0.0009895 0.0000055 0.0009895 0.9999945 -0.0009895
750 0.9999942 -0.0010347 0.0000058 0.0010347 0.0000058 0.0010347 0.9999942 -0.0010347
784 0.9999939 -0.0010819 0.0000061 0.0010819 0.0000061 0.0010819 0.9999939 -0.0010819
820 0.9999935 -0.0011313 0.0000065 0.0011313 0.0000065 0.0011313 0.9999935 -0.0011313
858 0.9999931 -0.0011829 0.0000069 0.0011829 0.0000069 0.0011829 0.9999931 -0.0011829
897 0.9999927 -0.0012369 0.0000073 0.0012369 0.0000073 0.0012369 0.9999927 -0.0012369
938 0.9999923 -0.0012933 0.0000077 0.0012933 0.0000077 0.0012933 0.9999923 -0.0012933
981 0.9999918 -0.0013524 0.0000082 0.0013524 0.0000082 0.0013524 0.9999918 -0.0013524
1026 0.9999914 -0.0014141 0.0000086 0.0014141 0.0000086 0.0014141 0.9999914 -0.0014141
1073 0.9999909 -0.0014786 0.0000091 0.0014786 0.0000091 0.0014786 0.9999909 -0.0014786
1122 0.9999904 -0.0015461 0.0000096 0.0015461 0.0000096 0.0015461 0.9999904 -0.0015461
1174 0.9999898 -0.0016166 0.0000102 0.0016166 0.0000102 0.0016166 0.9999898 -0.0016166
1227 0.9999892 -0.0016904 0.0000108 0.0016904 0.0000108 0.0016904 0.9999892 -0.0016904
1283 0.9999886 -0.0017675 0.0000114 0.0017675 0.0000114 0.0017675 0.9999886 -0.0017675
1342 0.9999879 -0.0018482 0.0000121 0.0018482 0.0000121 0.0018482 0.9999879 -0.0018482
1404 0.9999873 -0.0019326 0.0000127 0.0019326 0.0000127 0.0019326 0.9999873 -0.0019326
1468 0.9999865 -0.0020208 0.0000135 0.0020208 0.0000135 0.0020208 0.9999865 -0.0020208
1535 0.9999857 -0.0021130 0.0000143 0.0021130 0.0000143 0.0021130 0.9999857 -0.0021130
1606 0.9999849 -0.0022094 0.0000151 0.0022094 0.0000151 0.0022094 0.9999849 -0.0022094
1679 0.9999840 -0.0023103 0.0000160 0.0023103 0.0000160 0.0023103 0.9999840 -0.0023103
1756 0.9999831 -0.0024158 0.0000169 0.0024158 0.0000169 0.0024158 0.9999831 -0.0024158
1836 0.9999821 -0.0025261 0.0000179 0.0025261 0.0000179 0.0025261 0.9999821 -0.0025261
1920 0.9999810 -0.0026414 0.0000190 0.0026414 0.0000190 0.0026414 0.9999810 -0.0026414
2008 0.9999799 -0.0027620 0.0000201 0.0027620 0.0000201 0.0027620 0.9999799 -0.0027620
2100 0.9999787 -0.0028882 0.0000213 0.0028882 0.0000213 0.0028882 0.9999787 -0.0028882
2196 0.9999773 -0.0030201 0.0000227 0.0030201 0.0000227 0.0030201 0.9999773 -0.0030201
2297 0.9999759 -0.0031580 0.0000241 0.0031580 0.0000241 0.0031580 0.9999759 -0.0031580
2402 0.9999744 -0.0033023 0.0000256 0.0033023 0.0000256 0.0033023 0.9999744 -0.0033023
2512 0.9999727 -0.0034531 0.0000273 0.0034531 0.0000273 0.0034531 0.9999727 -0.0034531
2627 0.9999709 -0.0036108 0.0000291 0.0036108 0.0000291 0.0036108 0.9999709 -0.0036108
2748 0.9999690 -0.0037758 0.0000310 0.0037758 0.0000310 0.0037758 0.9999690 -0.0037758
2873 0.9999669 -0.0039483 0.0000331 0.0039483 0.0000331 0.0039483 0.9999669 -0.0039483
3005 0.9999646 -0.0041287 0.0000354 0.0041287 0.0000354 0.0041287 0.9999646 -0.0041287
3143 0.9999621 -0.0043173 0.0000379 0.0043173 0.0000379 0.0043173 0.9999621 -0.0043173
3287 0.9999595 -0.0045145 0.0000405 0.0045145 0.0000405 0.0045145 0.9999595 -0.0045145
3437 0.9999566 -0.0047208 0.0000434 0.0047208 0.0000434 0.0047208 0.9999566 -0.0047208
3594 0.9999534 -0.0049365 0.0000466 0.0049365 0.0000466 0.0049365 0.9999534 -0.0049365
3759 0.9999500 -0.0051620 0.0000500 0.0051620 0.0000500 0.0051620 0.9999500 -0.0051620
3931 0.9999463 -0.0053978 0.0000537 0.0053978 0.0000537 0.0053978 0.9999463 -0.0053978
4111 0.9999422 -0.0056444 0.0000578 0.0056444 0.0000578 0.0056444 0.9999422 -0.0056444
4299 0.9999379 -0.0059022 0.0000621 0.0059022 0.0000621 0.0059022 0.9999379 -0.0059022
4496 0.9999331 -0.0061717 0.0000669 0.0061717 0.0000669 0.0061717 0.9999331 -0.0061717
4702 0.9999280 -0.0064536 0.0000720 0.0064536 0.0000720 0.0064536 0.9999280 -0.0064536
4918 0.9999223 -0.0067483 0.0000777 0.0067483 0.0000777 0.0067483 0.9999223 -0.0067483
5143 0.9999163 -0.0070565 0.0000837 0.0070565 0.0000837 0.0070565 0.9999163 -0.0070565
5378 0.9999097 -0.0073786 0.0000903 0.0073786 0.0000903 0.0073786 0.9999097 -0.0073786
5625 0.9999025 -0.0077155 0.0000975 0.0077155 0.0000975 0.0077155 0.9999025 -0.0077155
5882 0.9998948 -0.0080677 0.0001052 0.0080677 0.0001052 0.0080677 0.9998948 -0.0080677
6151 0.9998864 -0.0084359 0.0001136 0.0084359 0.0001136 0.0084359 0.9998864 -0.0084359
6433 0.9998772 -0.0088209 0.0001228 0.0088209 0.0001228 0.0088209 0.9998772 -0.0088209
6728 0.9998674 -0.0092233 0.0001326 0.0092233 0.0001326 0.0092233 0.9998674 -0.0092233
7036 0.9998567 -0.0096441 0.0001433 0.0096441 0.0001433 0.0096441 0.9998567 -0.0096441
7358 0.9998451 -0.0100841 0.0001549 0.0100841 0.0001549 0.0100841 0.9998451 -0.0100841
7695 0.9998326 -0.0105440 0.0001674 0.0105440 0.0001674 0.0105440 0.9998326 -0.0105440
8047 0.9998190 -0.0110248 0.0001810 0.0110248 0.0001810 0.0110248 0.9998190 -0.0110248
8416 0.9998043 -0.0115276 0.0001957 0.0115276 0.0001957 0.0115276 0.9998043 -0.0115276
8801 0.9997884 -0.0120531 0.0002116 0.0120531 0.0002116 0.0120531 0.9997884 -0.0120531
9204 0.9997712 -0.0126026 0.0002288 0.0126026 0.0002288 0.0126026 0.9997712 -0.0126026
9626 0.9997526 -0.0131770 0.0002474 0.0131770 0.0002474 0.0131770 0.9997526 -0.0131770
10066 0.9997324 -0.0137776 0.0002676 0.0137776 0.0002676 0.0137776 0.9997324 -0.0137776
10527 0.9997106 -0.0144054 0.0002894 0.0144054 0.0002894 0.0144054 0.9997106 -0.0144054
11009 0.9996870 -0.0150619 0.0003130 0.0150619 0.0003130 0.0150619 0.9996870 -0.0150619
11514 0.9996615 -0.0157482 0.0003385 0.0157482 0.0003385 0.0157482 0.9996615 -0.0157482
12041 0.9996338 -0.0164657 0.0003662 0.0164657 0.0003662 0.0164657 0.9996338 -0.0164657
12592 0.9996038 -0.0172158 0.0003962 0.0172158 0.0003962 0.0172158 0.9996038 -0.0172158
13169 0.9995713 -0.0180001 0.0004287 0.0180001 0.0004287 0.0180001 0.9995713 -0.0180001
13772 0.9995361 -0.0188201 0.0004639 0.0188201 0.0004639 0.0188201 0.9995361 -0.0188201
14402 0.9994979 -0.0196774 0.0005021 0.0196774 0.0005021 0.0196774 0.9994979 -0.0196774
15062 0.9994564 -0.0205737 0.0005436 0.0205737 0.0005436 0.0205737 0.9994564 -0.0205737
15752 0.9994114 -0.0215108 0.0005886 0.0215108 0.0005886 0.0215108 0.9994114 -0.0215108
16473 0.9993625 -0.0224906 0.0006375 0.0224906 0.0006375 0.0224906 0.9993625 -0.0224906
17227 0.9993093 -0.0235150 0.0006907 0.0235150 0.0006907 0.0235150 0.9993093 -0.0235150
18016 0.9992516 -0.0245860 0.0007484 0.0245860 0.0007484 0.0245860 0.9992516 -0.0245860
18841 0.9991887 -0.0257058 0.0008113 0.0257058 0.0008113 0.0257058 0.9991887 -0.0257058
19704 0.9991204 -0.0268765 0.0008796 0.0268765 0.0008796 0.0268765 0.9991204 -0.0268765
20606 0.9990459 -0.0281004 0.0009541 0.0281004 0.0009541 0.0281004 0.9990459 -0.0281004
21550 0.9989649 -0.0293800 0.0010351 0.0293800 0.0010351 0.0293800 0.9989649 -0.0293800
22537 0.9988766 -0.0307177 0.0011234 0.0307177 0.0011234 0.0307177 0.9988766 -0.0307177
23569 0.9987804 -0.0321162 0.0012196 0.0321162 0.0012196 0.0321162 0.9987804 -0.0321162
24648 0.9986755 -0.0335782 0.0013245 0.0335782 0.0013245 0.0335782 0.9986755 -0.0335782
25777 0.9985611 -0.0351064 0.0014389 0.0351064 0.0014389 0.0351064 0.9985611 -0.0351064
26957 0.9984364 -0.0367039 0.0015636 0.0367039 0.0015636 0.0367039 0.9984364 -0.0367039
28191 0.9983004 -0.0383738 0.0016996 0.0383738 0.0016996 0.0383738 0.9983004 -0.0383738
29482 0.9981521 -0.0401192 0.0018479 0.0401192 0.0018479 0.0401192 0.9981521 -0.0401192
30832 0.9979902 -0.0419434 0.0020098 0.0419434 0.0020098 0.0419434 0.9979902 -0.0419434
32244 0.9978136 -0.0438499 0.0021864 0.0438499 0.0021864 0.0438499 0.9978136 -0.0438499
33721 0.9976209 -0.0458423 0.0023791 0.0458423 0.0023791 0.0458423 0.9976209 -0.0458423
35265 0.9974106 -0.0479244 0.0025894 0.0479244 0.0025894 0.0479244 0.9974106 -0.0479244
36880 0.9971811 -0.0500999 0.0028189 0.0500999 0.0028189 0.0500999 0.9971811 -0.0500999
38569 0.9969307 -0.0523731 0.0030693 0.0523731 0.0030693 0.0523731 0.9969307 -0.0523731
40335 0.9966574 -0.0547479 0.0033426 0.0547479 0.0033426 0.0547479 0.9966574 -0.0547479
42182 0.9963592 -0.0572288 0.0036408 0.0572288 0.0036408 0.0572288 0.9963592 -0.0572288
44113 0.9960339 -0.0598203 0.0039661 0.0598203 0.0039661 0.0598203 0.9960339 -0.0598203
46134 0.9956789 -0.0625270 0.0043211 0.0625270 0.0043211 0.0625270 0.9956789 -0.0625270
48246 0.9952916 -0.0653537 0.0047084 0.0653537 0.0047084 0.0653537 0.9952916 -0.0653537
50455 0.9948692 -0.0683053 0.0051308 0.0683053 0.0051308 0.0683053 0.9948692 -0.0683053
52766 0.9944085 -0.0713871 0.0055915 0.0713871 0.0055915 0.0713871 0.9944085 -0.0713871
55182 0.9939060 -0.0746043 0.0060940 0.0746043 0.0060940 0.0746043 0.9939060 -0.0746043
57709 0.9933580 -0.0779624 0.0066420 0.0779624 0.0066420 0.0779624 0.9933580 -0.0779624
60352 0.9927606 -0.0814670 0.0072394 0.0814670 0.0072394 0.0814670 0.9927606 -0.0814670
63115 0.9921094 -0.0851238 0.0078906 0.0851238 0.0078906 0.0851238 0.9921094 -0.0851238
66005 0.9913996 -0.0889387 0.0086004 0.0889387 0.0086004 0.0889387 0.9913996 -0.0889387
69028 0.9906261 -0.0929180 0.0093739 0.0929180 0.0093739 0.0929180 0.9906261 -0.0929180
72189 0.9897833 -0.0970676 0.0102167 0.0970676 0.0102167 0.0970676 0.9897833 -0.0970676
75495 0.9888651 -0.1013940 0.0111349 0.1013940 0.0111349 0.1013940 0.9888651 -0.1013940
78952 0.9878650 -0.1059036 0.0121350 0.1059036 0.0121350 0.1059036 0.9878650 -0.1059036
82567 0.9867759 -0.1106028 0.0132241 0.1106028 0.0132241 0.1106028 0.9867759 -0.1106028
86348 0.9855901 -0.1154982 0.0144099 0.1154982 0.0144099 0.1154982 0.9855901 -0.1154982
90302 0.9842993 -0.1205964 0.0157007 0.1205964 0.0157007 0.1205964 0.9842993 -0.1205964
94437 0.9828944 -0.1259041 0.0171056 0.1259041 0.0171056 0.1259041 0.9828944 -0.1259041
98762 0.9813657 -0.1314278 0.0186343 0.1314278 0.0186343 0.1314278 0.9813657 -0.1314278
103284 0.9797027 -0.1371739 0.0202973 0.1371739 0.0202973 0.1371739 0.9797027 -0.1371739
108014 0.9778941 -0.1431488 0.0221059 0.1431488 0.0221059 0.1431488 0.9778941 -0.1431488
112960 0.9759275 -0.1493586 0.0240725 0.1493586 0.0240725 0.1493586 0.9759275 -0.1493586
118133 0.9737899 -0.1558092 0.0262101 0.1558092 0.0262101 0.1558092 0.9737899 -0.1558092
123542 0.9714669 -0.1625061 0.0285331 0.1625061 0.0285331 0.1625061 0.9714669 -0.1625061
129199 0.9689436 -0.1694542 0.0310564 0.1694542 0.0310564 0.1694542 0.9689436 -0.1694542
135116 0.9662034 -0.1766582 0.0337966 0.1766582 0.0337966 0.1766582 0.9662034 -0.1766582
141303 0.9632292 -0.1841218 0.0367708 0.1841218 0.0367708 0.1841218 0.9632292 -0.1841218
147774 0.9600022 -0.1918481 0.0399978 0.1918481 0.0399978 0.1918481 0.9600022 -0.1918481
154540 0.9565028 -0.1998389 0.0434972 0.1998389 0.0434972 0.1998389 0.9565028 -0.1998389
161617 0.9527100 -0.2080953 0.0472900 0.2080953 0.0472900 0.2080953 0.9527100 -0.2080953
169018 0.9486017 -0.2166169 0.0513983 0.2166169 0.0513983 0.2166169 0.9486017 -0.2166169
176758 0.9441547 -0.2254018 0.0558453 0.2254018 0.0558453 0.2254018 0.9441547 -0.2254018
184852 0.9393444 -0.2344465 0.0606556 0.2344465 0.0606556 0.2344465 0.9393444 -0.2344465
193316 0.9341455 -0.2437454 0.0658545 0.2437454 0.0658545 0.2437454 0.9341455 -0.2437454
202169 0.9285315 -0.2532911 0.0714685 0.2532911 0.0714685 0.2532911 0.9285315 -0.2532911
211427 0.9224750 -0.2630735 0.0775250 0.2630735 0.0775250 0.2630735 0.9224750 -0.2630735
221108 0.9159480 -0.2730801 0.0840520 0.2730801 0.0840520 0.2730801 0.9159480 -0.2730801
231233 0.9089219 -0.2832954 0.0910781 0.2832954 0.0910781 0.2832954 0.9089219 -0.2832954
241822 0.9013680 -0.2937009 0.0986320 0.2937009 0.0986320 0.2937009 0.9013680 -0.2937009
252896 0.8932573 -0.3042747 0.1067427 0.3042747 0.1067427 0.3042747 0.8932573 -0.3042747
264476 0.8845614 -0.3149915 0.1154386 0.3149915 0.1154386 0.3149915 0.8845614 -0.3149915
276587 0.8752526 -0.3258220 0.1247474 0.3258220 0.1247474 0.3258220 0.8752526 -0.3258220
289253 0.8653043 -0.3367333 0.1346957 0.3367333 0.1346957 0.3367333 0.8653043 -0.3367333
302498 0.8546916 -0.3476883 0.1453084 0.3476883 0.1453084 0.3476883 0.8546916 -0.3476883
316350 0.8433915 -0.3586460 0.1566085 0.3586460 0.1566085 0.3586460 0.8433915 -0.3586460
330837 0.8313842 -0.3695612 0.1686158 0.3695612 0.1686158 0.3695612 0.8313842 -0.3695612
345986 0.8186529 -0.3803850 0.1813471 0.3803850 0.1813471 0.3803850 0.8186529 -0.3803850
361830 0.8051850 -0.3910645 0.1948150 0.3910645 0.1948150 0.3910645 0.8051850 -0.3910645
378399 0.7909724 -0.4015436 0.2090276 0.4015436 0.2090276 0.4015436 0.7909724 -0.4015436
395726 0.7760123 -0.4117630 0.2239877 0.4117630 0.2239877 0.4117630 0.7760123 -0.4117630
413847 0.7603077 -0.4216610 0.2396923 0.4216610 0.2396923 0.4216610 0.7603077 -0.4216610
432798 0.7438681 -0.4311739 0.2561319 0.4311739 0.2561319 0.4311739 0.7438681 -0.4311739
452617 0.7267098 -0.4402368 0.2732902 0.4402368 0.2732902 0.4402368 0.7267098 -0.4402368
473344 0.7088565 -0.4487848 0.2911435 0.4487848 0.2911435 0.4487848 0.7088565 -0.4487848
495019 0.6903394 -0.4567534 0.3096606 0.4567534 0.3096606 0.4567534 0.6903394 -0.4567534
517687 0.6711971 -0.4640799 0.3288029 0.4640799 0.3288029 0.4640799 0.6711971 -0.4640799
541393 0.6514761 -0.4707044 0.3485239 0.4707044 0.3485239 0.4707044 0.6514761 -0.4707044
566185 0.6312302 -0.4765707 0.3687698 0.4765707 0.3687698 0.4765707 0.6312302 -0.4765707
592111 0.6105202 -0.4816277 0.3894798 0.4816277 0.3894798 0.4816277 0.6105202 -0.4816277
619225 0.5894131 -0.4858301 0.4105869 0.4858301 0.4105869 0.4858301 0.5894131 -0.4858301
647581 0.5679817 -0.4891397 0.4320183 0.4891397 0.4320183 0.4891397 0.5679817 -0.4891397
677235 0.5463035 -0.4915259 0.4536965 0.4915259 0.4536965 0.4915259 0.5463035 -0.4915259
708247 0.5244596 -0.4929665 0.4755404 0.4929665 0.4755404 0.4929665 0.5244596 -0.4929665
740679 0.5025335 -0.4934482 0.4974665 0.4934482 0.4974665 0.4934482 0.5025335 -0.4934482
774597 0.4806098 -0.4929669 0.5193902 0.4929669 0.5193902 0.4929669 0.4806098 -0.4929669
810067 0.4587732 -0.4915279 0.5412268 0.4915279 0.5412268 0.4915279 0.4587732 -0.4915279
847162 0.4371068 -0.4891453 0.5628932 0.4891453 0.5628932 0.4891453 0.4371068 -0.4891453
885955 0.4156912 -0.4858424 0.5843088 0.4858424 0.5843088 0.4858424 0.4156912 -0.4858424
926525 0.3946033 -0.4816506 0.6053967 0.4816506 0.6053967 0.4816506 0.3946033 -0.4816506
968953 0.3739149 -0.4766089 0.6260851 0.4766089 0.6260851 0.4766089 0.3739149 -0.4766089
1013323 0.3536924 -0.4707630 0.6463076 0.4707630 0.6463076 0.4707630 0.3536924 -0.4707630
1059725 0.3339954 -0.4641644 0.6660046 0.4641644 0.6660046 0.4641644 0.3339954 -0.4641644
1108252 0.3148768 -0.4568694 0.6851232 0.4568694 0.6851232 0.4568694 0.3148768 -0.4568694
1159002 0.2963821 -0.4489379 0.7036179 0.4489379 0.7036179 0.4489379 0.2963821 -0.4489379
1212075 0.2785489 -0.4404324 0.7214511 0.4404324 0.7214511 0.4404324 0.2785489 -0.4404324
1267578 0.2614076 -0.4314171 0.7385924 0.4314171 0.7385924 0.4314171 0.2614076 -0.4314171
1325623 0.2449811 -0.4219565 0.7550189 0.4219565 0.7550189 0.4219565 0.2449811 -0.4219565
1386327 0.2292849 -0.4121148 0.7707151 0.4121148 0.7707151 0.4121148 0.2292849 -0.4121148
1449809 0.2143280 -0.4019551 0.7856720 0.4019551 0.7856720 0.4019551 0.2143280 -0.4019551
1516199 0.2001130 -0.3915383 0.7998870 0.3915383 0.7998870 0.3915383 0.2001130 -0.3915383
1585629 0.1866367 -0.3809230 0.8133633 0.3809230 0.8133633 0.3809230 0.1866367 -0.3809230
1658239 0.1738908 -0.3701645 0.8261092 0.3701645 0.8261092 0.3701645 0.1738908 -0.3701645
1734173 0.1618627 -0.3593149 0.8381373 0.3593149 0.8381373 0.3593149 0.1618627 -0.3593149
1813585 0.1505356 -0.3484225 0.8494644 0.3484225 0.8494644 0.3484225 0.1505356 -0.3484225
1896632 0.1398896 -0.3375315 0.8601104 0.3375315 0.8601104 0.3375315 0.1398896 -0.3375315
1983483 0.1299023 -0.3266823 0.8700977 0.3266823 0.8700977 0.3266823 0.1299023 -0.3266823
2074311 0.1205488 -0.3159114 0.8794512 0.3159114 0.8794512 0.3159114 0.1205488 -0.3159114
