!Murata Part Number: GRM185R60J225KE26
!These Parameters are Measured in Series Mode Connection
!Data Generated on Mar 30, 2021
!       o--ll--o
!Port1            Port2
!       o------o
!Operation Temp=25[degC], DC Bias Voltage=0[V]
!Freq. Start=100[Hz] Stop=6[GHz] 401[Steps]
# Hz S RI R 50
!Freq.(Hz) S11(Real) S11(Imag) S21(Real) S21(Imag) S12(Real) S12(Imag) S22(Real) S22(Imag)
100 0.9881092 -0.0948561 0.0118908 0.0948561 0.0118908 0.0948561 0.9881092 -0.0948561
105 0.9871624 -0.0990248 0.0128376 0.0990248 0.0128376 0.0990248 0.9871624 -0.0990248
109 0.9861340 -0.1033673 0.0138660 0.1033673 0.0138660 0.1033673 0.9861340 -0.1033673
114 0.9850170 -0.1078891 0.0149830 0.1078891 0.0149830 0.1078891 0.9850170 -0.1078891
120 0.9838043 -0.1125961 0.0161957 0.1125961 0.0161957 0.1125961 0.9838043 -0.1125961
125 0.9824878 -0.1174939 0.0175122 0.1174939 0.0175122 0.1174939 0.9824878 -0.1174939
131 0.9810591 -0.1225880 0.0189409 0.1225880 0.0189409 0.1225880 0.9810591 -0.1225880
137 0.9795093 -0.1278840 0.0204907 0.1278840 0.0204907 0.1278840 0.9795093 -0.1278840
143 0.9778288 -0.1333873 0.0221712 0.1333873 0.0221712 0.1333873 0.9778288 -0.1333873
150 0.9760071 -0.1391032 0.0239929 0.1391032 0.0239929 0.1391032 0.9760071 -0.1391032
156 0.9740334 -0.1450366 0.0259666 0.1450366 0.0259666 0.1450366 0.9740334 -0.1450366
164 0.9718960 -0.1511925 0.0281040 0.1511925 0.0281040 0.1511925 0.9718960 -0.1511925
171 0.9695824 -0.1575754 0.0304176 0.1575754 0.0304176 0.1575754 0.9695824 -0.1575754
179 0.9670793 -0.1641894 0.0329207 0.1641894 0.0329207 0.1641894 0.9670793 -0.1641894
187 0.9643727 -0.1710383 0.0356273 0.1710383 0.0356273 0.1710383 0.9643727 -0.1710383
196 0.9614477 -0.1781253 0.0385523 0.1781253 0.0385523 0.1781253 0.9614477 -0.1781253
205 0.9582883 -0.1854531 0.0417117 0.1854531 0.0417117 0.1854531 0.9582883 -0.1854531
214 0.9548778 -0.1930237 0.0451222 0.1930237 0.0451222 0.1930237 0.9548778 -0.1930237
224 0.9511983 -0.2008383 0.0488017 0.2008383 0.0488017 0.2008383 0.9511983 -0.2008383
234 0.9472312 -0.2088971 0.0527688 0.2088971 0.0527688 0.2088971 0.9472312 -0.2088971
245 0.9429566 -0.2171992 0.0570434 0.2171992 0.0570434 0.2171992 0.9429566 -0.2171992
256 0.9383536 -0.2257428 0.0616464 0.2257428 0.0616464 0.2257428 0.9383536 -0.2257428
268 0.9334004 -0.2345243 0.0665996 0.2345243 0.0665996 0.2345243 0.9334004 -0.2345243
280 0.9280742 -0.2435388 0.0719258 0.2435388 0.0719258 0.2435388 0.9280742 -0.2435388
293 0.9223511 -0.2527794 0.0776489 0.2527794 0.0776489 0.2527794 0.9223511 -0.2527794
306 0.9162065 -0.2622372 0.0837935 0.2622372 0.0837935 0.2622372 0.9162065 -0.2622372
320 0.9096148 -0.2719013 0.0903852 0.2719013 0.0903852 0.2719013 0.9096148 -0.2719013
335 0.9025501 -0.2817580 0.0974499 0.2817580 0.0974499 0.2817580 0.9025501 -0.2817580
350 0.8949856 -0.2917910 0.1050144 0.2917910 0.1050144 0.2917910 0.8949856 -0.2917910
366 0.8868948 -0.3019809 0.1131052 0.3019809 0.1131052 0.3019809 0.8868948 -0.3019809
383 0.8782508 -0.3123051 0.1217492 0.3123051 0.1217492 0.3123051 0.8782508 -0.3123051
401 0.8690274 -0.3227376 0.1309726 0.3227376 0.1309726 0.3227376 0.8690274 -0.3227376
419 0.8591990 -0.3332486 0.1408010 0.3332486 0.1408010 0.3332486 0.8591990 -0.3332486
438 0.8487415 -0.3438046 0.1512585 0.3438046 0.1512585 0.3438046 0.8487415 -0.3438046
458 0.8376324 -0.3543681 0.1623676 0.3543681 0.1623676 0.3543681 0.8376324 -0.3543681
479 0.8258514 -0.3648977 0.1741486 0.3648977 0.1741486 0.3648977 0.8258514 -0.3648977
501 0.8133812 -0.3753480 0.1866188 0.3753480 0.1866188 0.3753480 0.8133812 -0.3753480
524 0.8002082 -0.3856698 0.1997918 0.3856698 0.1997918 0.3856698 0.8002082 -0.3856698
548 0.7863227 -0.3958104 0.2136773 0.3958104 0.2136773 0.3958104 0.7863227 -0.3958104
573 0.7717200 -0.4057137 0.2282800 0.4057137 0.2282800 0.4057137 0.7717200 -0.4057137
600 0.7564008 -0.4153210 0.2435992 0.4153210 0.2435992 0.4153210 0.7564008 -0.4153210
627 0.7403720 -0.4245713 0.2596280 0.4245713 0.2596280 0.4245713 0.7403720 -0.4245713
656 0.7236470 -0.4334021 0.2763530 0.4334021 0.2763530 0.4334021 0.7236470 -0.4334021
686 0.7062463 -0.4417501 0.2937537 0.4417501 0.2937537 0.4417501 0.7062463 -0.4417501
717 0.6881977 -0.4495526 0.3118023 0.4495526 0.3118023 0.4495526 0.6881977 -0.4495526
750 0.6695366 -0.4567479 0.3304634 0.4567479 0.3304634 0.4567479 0.6695366 -0.4567479
784 0.6503062 -0.4632767 0.3496938 0.4632767 0.3496938 0.4632767 0.6503062 -0.4632767
820 0.6305568 -0.4690832 0.3694432 0.4690832 0.3694432 0.4690832 0.6305568 -0.4690832
858 0.6103460 -0.4741162 0.3896540 0.4741162 0.3896540 0.4741162 0.6103460 -0.4741162
897 0.5897378 -0.4783300 0.4102622 0.4783300 0.4102622 0.4783300 0.5897378 -0.4783300
938 0.5688023 -0.4816858 0.4311977 0.4816858 0.4311977 0.4816858 0.5688023 -0.4816858
981 0.5476141 -0.4841522 0.4523859 0.4841522 0.4523859 0.4841522 0.5476141 -0.4841522
1026 0.5262519 -0.4857060 0.4737481 0.4857060 0.4737481 0.4857060 0.5262519 -0.4857060
1073 0.5047970 -0.4863328 0.4952030 0.4863328 0.4952030 0.4863328 0.5047970 -0.4863328
1122 0.4833318 -0.4860275 0.5166682 0.4860275 0.5166682 0.4860275 0.4833318 -0.4860275
1174 0.4619390 -0.4847940 0.5380610 0.4847940 0.5380610 0.4847940 0.4619390 -0.4847940
1227 0.4406998 -0.4826456 0.5593002 0.4826456 0.5593002 0.4826456 0.4406998 -0.4826456
1283 0.4196931 -0.4796042 0.5803069 0.4796042 0.5803069 0.4796042 0.4196931 -0.4796042
1342 0.3989938 -0.4757000 0.6010062 0.4757000 0.6010062 0.4757000 0.3989938 -0.4757000
1404 0.3786719 -0.4709705 0.6213281 0.4709705 0.6213281 0.4709705 0.3786719 -0.4709705
1468 0.3587920 -0.4654602 0.6412080 0.4654602 0.6412080 0.4654602 0.3587920 -0.4654602
1535 0.3394119 -0.4592189 0.6605881 0.4592189 0.6605881 0.4592189 0.3394119 -0.4592189
1606 0.3205825 -0.4523011 0.6794175 0.4523011 0.6794175 0.4523011 0.3205825 -0.4523011
1679 0.3023477 -0.4447649 0.6976523 0.4447649 0.6976523 0.4447649 0.3023477 -0.4447649
1756 0.2847435 -0.4366704 0.7152565 0.4366704 0.7152565 0.4366704 0.2847435 -0.4366704
1836 0.2677987 -0.4280793 0.7322013 0.4280793 0.7322013 0.4280793 0.2677987 -0.4280793
1920 0.2515347 -0.4190535 0.7484653 0.4190535 0.7484653 0.4190535 0.2515347 -0.4190535
2008 0.2359663 -0.4096543 0.7640337 0.4096543 0.7640337 0.4096543 0.2359663 -0.4096543
2100 0.2211016 -0.3999415 0.7788984 0.3999415 0.7788984 0.3999415 0.2211016 -0.3999415
2196 0.2069428 -0.3899728 0.7930572 0.3899728 0.7930572 0.3899728 0.2069428 -0.3899728
2297 0.1934868 -0.3798035 0.8065132 0.3798035 0.8065132 0.3798035 0.1934868 -0.3798035
2402 0.1807257 -0.3694856 0.8192743 0.3694856 0.8192743 0.3694856 0.1807257 -0.3694856
2512 0.1686478 -0.3590677 0.8313522 0.3590677 0.8313522 0.3590677 0.1686478 -0.3590677
2627 0.1572375 -0.3485948 0.8427625 0.3485948 0.8427625 0.3485948 0.1572375 -0.3485948
2748 0.1464767 -0.3381084 0.8535233 0.3381084 0.8535233 0.3381084 0.1464767 -0.3381084
2873 0.1363450 -0.3276460 0.8636550 0.3276460 0.8636550 0.3276460 0.1363450 -0.3276460
3005 0.1268199 -0.3172414 0.8731801 0.3172414 0.8731801 0.3172414 0.1268199 -0.3172414
3143 0.1178779 -0.3069251 0.8821221 0.3069251 0.8821221 0.3069251 0.1178779 -0.3069251
3287 0.1094945 -0.2967239 0.8905055 0.2967239 0.8905055 0.2967239 0.1094945 -0.2967239
3437 0.1016448 -0.2866614 0.8983552 0.2866614 0.8983552 0.2866614 0.1016448 -0.2866614
3594 0.0943034 -0.2767582 0.9056966 0.2767582 0.9056966 0.2767582 0.0943034 -0.2767582
3759 0.0874453 -0.2670319 0.9125547 0.2670319 0.9125547 0.2670319 0.0874453 -0.2670319
3931 0.0810454 -0.2574976 0.9189546 0.2574976 0.9189546 0.2574976 0.0810454 -0.2574976
4111 0.0750792 -0.2481680 0.9249208 0.2481680 0.9249208 0.2481680 0.0750792 -0.2481680
4299 0.0695227 -0.2390535 0.9304773 0.2390535 0.9304773 0.2390535 0.0695227 -0.2390535
4496 0.0643527 -0.2301626 0.9356473 0.2301626 0.9356473 0.2301626 0.0643527 -0.2301626
4702 0.0595466 -0.2215019 0.9404534 0.2215019 0.9404534 0.2215019 0.0595466 -0.2215019
4918 0.0550826 -0.2130763 0.9449174 0.2130763 0.9449174 0.2130763 0.0550826 -0.2130763
5143 0.0509397 -0.2048896 0.9490603 0.2048896 0.9490603 0.2048896 0.0509397 -0.2048896
5378 0.0470980 -0.1969437 0.9529020 0.1969437 0.9529020 0.1969437 0.0470980 -0.1969437
5625 0.0435382 -0.1892399 0.9564618 0.1892399 0.9564618 0.1892399 0.0435382 -0.1892399
5882 0.0402420 -0.1817781 0.9597580 0.1817781 0.9597580 0.1817781 0.0402420 -0.1817781
6151 0.0371921 -0.1745574 0.9628079 0.1745574 0.9628079 0.1745574 0.0371921 -0.1745574
6433 0.0343718 -0.1675760 0.9656282 0.1675760 0.9656282 0.1675760 0.0343718 -0.1675760
6728 0.0317655 -0.1608316 0.9682345 0.1608316 0.9682345 0.1608316 0.0317655 -0.1608316
7036 0.0293584 -0.1543209 0.9706416 0.1543209 0.9706416 0.1543209 0.0293584 -0.1543209
7358 0.0271364 -0.1480404 0.9728636 0.1480404 0.9728636 0.1480404 0.0271364 -0.1480404
7695 0.0250863 -0.1419860 0.9749137 0.1419860 0.9749137 0.1419860 0.0250863 -0.1419860
8047 0.0231958 -0.1361531 0.9768042 0.1361531 0.9768042 0.1361531 0.0231958 -0.1361531
8416 0.0214530 -0.1305370 0.9785470 0.1305370 0.9785470 0.1305370 0.0214530 -0.1305370
8801 0.0198470 -0.1251325 0.9801530 0.1251325 0.9801530 0.1251325 0.0198470 -0.1251325
9204 0.0183675 -0.1199344 0.9816325 0.1199344 0.9816325 0.1199344 0.0183675 -0.1199344
9626 0.0170050 -0.1149370 0.9829950 0.1149370 0.9829950 0.1149370 0.0170050 -0.1149370
10066 0.0157504 -0.1101348 0.9842496 0.1101348 0.9842496 0.1101348 0.0157504 -0.1101348
10527 0.0145953 -0.1055220 0.9854047 0.1055220 0.9854047 0.1055220 0.0145953 -0.1055220
11009 0.0135319 -0.1010928 0.9864681 0.1010928 0.9864681 0.1010928 0.0135319 -0.1010928
11514 0.0125530 -0.0968415 0.9874470 0.0968415 0.9874470 0.0968415 0.0125530 -0.0968415
12041 0.0116518 -0.0927622 0.9883482 0.0927622 0.9883482 0.0927622 0.0116518 -0.0927622
12592 0.0108219 -0.0888490 0.9891781 0.0888490 0.9891781 0.0888490 0.0108219 -0.0888490
13169 0.0100577 -0.0850963 0.9899423 0.0850963 0.9899423 0.0850963 0.0100577 -0.0850963
13772 0.0093537 -0.0814983 0.9906463 0.0814983 0.9906463 0.0814983 0.0093537 -0.0814983
14402 0.0087049 -0.0780495 0.9912951 0.0780495 0.9912951 0.0780495 0.0087049 -0.0780495
15062 0.0081067 -0.0747443 0.9918933 0.0747443 0.9918933 0.0747443 0.0081067 -0.0747443
15752 0.0075549 -0.0715773 0.9924451 0.0715773 0.9924451 0.0715773 0.0075549 -0.0715773
16473 0.0070455 -0.0685431 0.9929545 0.0685431 0.9929545 0.0685431 0.0070455 -0.0685431
17227 0.0065750 -0.0656367 0.9934250 0.0656367 0.9934250 0.0656367 0.0065750 -0.0656367
18016 0.0061401 -0.0628528 0.9938599 0.0628528 0.9938599 0.0628528 0.0061401 -0.0628528
18841 0.0057377 -0.0601867 0.9942623 0.0601867 0.9942623 0.0601867 0.0057377 -0.0601867
19704 0.0053651 -0.0576335 0.9946349 0.0576335 0.9946349 0.0576335 0.0053651 -0.0576335
20606 0.0050196 -0.0551885 0.9949804 0.0551885 0.9949804 0.0551885 0.0050196 -0.0551885
21550 0.0046991 -0.0528473 0.9953009 0.0528473 0.9953009 0.0528473 0.0046991 -0.0528473
22537 0.0044014 -0.0506055 0.9955986 0.0506055 0.9955986 0.0506055 0.0044014 -0.0506055
23569 0.0041246 -0.0484589 0.9958754 0.0484589 0.9958754 0.0484589 0.0041246 -0.0484589
24648 0.0038669 -0.0464034 0.9961331 0.0464034 0.9961331 0.0464034 0.0038669 -0.0464034
25777 0.0036268 -0.0444351 0.9963732 0.0444351 0.9963732 0.0444351 0.0036268 -0.0444351
26957 0.0034029 -0.0425503 0.9965971 0.0425503 0.9965971 0.0425503 0.0034029 -0.0425503
28191 0.0031939 -0.0407453 0.9968061 0.0407453 0.9968061 0.0407453 0.0031939 -0.0407453
29482 0.0029986 -0.0390167 0.9970014 0.0390167 0.9970014 0.0390167 0.0029986 -0.0390167
30832 0.0028160 -0.0373611 0.9971840 0.0373611 0.9971840 0.0373611 0.0028160 -0.0373611
32244 0.0026452 -0.0357754 0.9973548 0.0357754 0.9973548 0.0357754 0.0026452 -0.0357754
33721 0.0024853 -0.0342566 0.9975147 0.0342566 0.9975147 0.0342566 0.0024853 -0.0342566
35265 0.0023357 -0.0328017 0.9976643 0.0328017 0.9976643 0.0328017 0.0023357 -0.0328017
36880 0.0021955 -0.0314081 0.9978045 0.0314081 0.9978045 0.0314081 0.0021955 -0.0314081
38569 0.0020642 -0.0300729 0.9979358 0.0300729 0.9979358 0.0300729 0.0020642 -0.0300729
40335 0.0019412 -0.0287939 0.9980588 0.0287939 0.9980588 0.0287939 0.0019412 -0.0287939
42182 0.0018260 -0.0275685 0.9981740 0.0275685 0.9981740 0.0275685 0.0018260 -0.0275685
44113 0.0017182 -0.0263946 0.9982818 0.0263946 0.9982818 0.0263946 0.0017182 -0.0263946
46134 0.0016173 -0.0252698 0.9983827 0.0252698 0.9983827 0.0252698 0.0016173 -0.0252698
48246 0.0015229 -0.0241923 0.9984771 0.0241923 0.9984771 0.0241923 0.0015229 -0.0241923
50455 0.0014346 -0.0231600 0.9985654 0.0231600 0.9985654 0.0231600 0.0014346 -0.0231600
52766 0.0013521 -0.0221710 0.9986479 0.0221710 0.9986479 0.0221710 0.0013521 -0.0221710
55182 0.0012751 -0.0212236 0.9987249 0.0212236 0.9987249 0.0212236 0.0012751 -0.0212236
57709 0.0012031 -0.0203160 0.9987969 0.0203160 0.9987969 0.0203160 0.0012031 -0.0203160
60352 0.0011360 -0.0194467 0.9988640 0.0194467 0.9988640 0.0194467 0.0011360 -0.0194467
63115 0.0010735 -0.0186140 0.9989265 0.0186140 0.9989265 0.0186140 0.0010735 -0.0186140
66005 0.0010152 -0.0178165 0.9989848 0.0178165 0.9989848 0.0178165 0.0010152 -0.0178165
69028 0.0009609 -0.0170528 0.9990391 0.0170528 0.9990391 0.0170528 0.0009609 -0.0170528
72189 0.0009104 -0.0163214 0.9990896 0.0163214 0.9990896 0.0163214 0.0009104 -0.0163214
75495 0.0008634 -0.0156211 0.9991366 0.0156211 0.9991366 0.0156211 0.0008634 -0.0156211
78952 0.0008196 -0.0149506 0.9991804 0.0149506 0.9991804 0.0149506 0.0008196 -0.0149506
82567 0.0007789 -0.0143087 0.9992211 0.0143087 0.9992211 0.0143087 0.0007789 -0.0143087
86348 0.0007411 -0.0136942 0.9992589 0.0136942 0.9992589 0.0136942 0.0007411 -0.0136942
90302 0.0007059 -0.0131060 0.9992941 0.0131060 0.9992941 0.0131060 0.0007059 -0.0131060
94437 0.0006731 -0.0125430 0.9993269 0.0125430 0.9993269 0.0125430 0.0006731 -0.0125430
98762 0.0006427 -0.0120042 0.9993573 0.0120042 0.9993573 0.0120042 0.0006427 -0.0120042
103284 0.0006143 -0.0114886 0.9993857 0.0114886 0.9993857 0.0114886 0.0006143 -0.0114886
108014 0.0005878 -0.0109952 0.9994122 0.0109952 0.9994122 0.0109952 0.0005878 -0.0109952
112960 0.0005631 -0.0105231 0.9994369 0.0105231 0.9994369 0.0105231 0.0005631 -0.0105231
118133 0.0005401 -0.0100715 0.9994599 0.0100715 0.9994599 0.0100715 0.0005401 -0.0100715
123542 0.0005185 -0.0096393 0.9994815 0.0096393 0.9994815 0.0096393 0.0005185 -0.0096393
129199 0.0004983 -0.0092259 0.9995017 0.0092259 0.9995017 0.0092259 0.0004983 -0.0092259
135116 0.0004793 -0.0088304 0.9995207 0.0088304 0.9995207 0.0088304 0.0004793 -0.0088304
141303 0.0004614 -0.0084521 0.9995386 0.0084521 0.9995386 0.0084521 0.0004614 -0.0084521
147774 0.0004446 -0.0080902 0.9995554 0.0080902 0.9995554 0.0080902 0.0004446 -0.0080902
154540 0.0004287 -0.0077440 0.9995713 0.0077440 0.9995713 0.0077440 0.0004287 -0.0077440
161617 0.0004136 -0.0074129 0.9995864 0.0074129 0.9995864 0.0074129 0.0004136 -0.0074129
169018 0.0003992 -0.0070961 0.9996008 0.0070961 0.9996008 0.0070961 0.0003992 -0.0070961
176758 0.0003856 -0.0067931 0.9996144 0.0067931 0.9996144 0.0067931 0.0003856 -0.0067931
184852 0.0003725 -0.0065032 0.9996275 0.0065032 0.9996275 0.0065032 0.0003725 -0.0065032
193316 0.0003600 -0.0062259 0.9996400 0.0062259 0.9996400 0.0062259 0.0003600 -0.0062259
202169 0.0003480 -0.0059606 0.9996520 0.0059606 0.9996520 0.0059606 0.0003480 -0.0059606
211427 0.0003364 -0.0057067 0.9996636 0.0057067 0.9996636 0.0057067 0.0003364 -0.0057067
221108 0.0003253 -0.0054638 0.9996747 0.0054638 0.9996747 0.0054638 0.0003253 -0.0054638
231233 0.0003145 -0.0052313 0.9996855 0.0052313 0.9996855 0.0052313 0.0003145 -0.0052313
241822 0.0003040 -0.0050088 0.9996960 0.0050088 0.9996960 0.0050088 0.0003040 -0.0050088
252896 0.0002939 -0.0047959 0.9997061 0.0047959 0.9997061 0.0047959 0.0002939 -0.0047959
264476 0.0002841 -0.0045920 0.9997159 0.0045920 0.9997159 0.0045920 0.0002841 -0.0045920
276587 0.0002745 -0.0043968 0.9997255 0.0043968 0.9997255 0.0043968 0.0002745 -0.0043968
289253 0.0002653 -0.0042098 0.9997347 0.0042098 0.9997347 0.0042098 0.0002653 -0.0042098
302498 0.0002563 -0.0040308 0.9997437 0.0040308 0.9997437 0.0040308 0.0002563 -0.0040308
316350 0.0002475 -0.0038593 0.9997525 0.0038593 0.9997525 0.0038593 0.0002475 -0.0038593
330837 0.0002391 -0.0036950 0.9997609 0.0036950 0.9997609 0.0036950 0.0002391 -0.0036950
345986 0.0002309 -0.0035376 0.9997691 0.0035376 0.9997691 0.0035376 0.0002309 -0.0035376
361830 0.0002229 -0.0033868 0.9997771 0.0033868 0.9997771 0.0033868 0.0002229 -0.0033868
378399 0.0002152 -0.0032423 0.9997848 0.0032423 0.9997848 0.0032423 0.0002152 -0.0032423
395726 0.0002078 -0.0031037 0.9997922 0.0031037 0.9997922 0.0031037 0.0002078 -0.0031037
413847 0.0002007 -0.0029709 0.9997993 0.0029709 0.9997993 0.0029709 0.0002007 -0.0029709
432798 0.0001938 -0.0028436 0.9998062 0.0028436 0.9998062 0.0028436 0.0001938 -0.0028436
452617 0.0001873 -0.0027215 0.9998127 0.0027215 0.9998127 0.0027215 0.0001873 -0.0027215
473344 0.0001810 -0.0026045 0.9998190 0.0026045 0.9998190 0.0026045 0.0001810 -0.0026045
495019 0.0001749 -0.0024922 0.9998251 0.0024922 0.9998251 0.0024922 0.0001749 -0.0024922
517687 0.0001692 -0.0023846 0.9998308 0.0023846 0.9998308 0.0023846 0.0001692 -0.0023846
541393 0.0001638 -0.0022814 0.9998362 0.0022814 0.9998362 0.0022814 0.0001638 -0.0022814
566185 0.0001586 -0.0021825 0.9998414 0.0021825 0.9998414 0.0021825 0.0001586 -0.0021825
592111 0.0001537 -0.0020876 0.9998463 0.0020876 0.9998463 0.0020876 0.0001537 -0.0020876
619225 0.0001490 -0.0019965 0.9998510 0.0019965 0.9998510 0.0019965 0.0001490 -0.0019965
647581 0.0001446 -0.0019093 0.9998554 0.0019093 0.9998554 0.0019093 0.0001446 -0.0019093
677235 0.0001405 -0.0018255 0.9998595 0.0018255 0.9998595 0.0018255 0.0001405 -0.0018255
708247 0.0001366 -0.0017453 0.9998634 0.0017453 0.9998634 0.0017453 0.0001366 -0.0017453
740679 0.0001330 -0.0016683 0.9998670 0.0016683 0.9998670 0.0016683 0.0001330 -0.0016683
774597 0.0001295 -0.0015944 0.9998705 0.0015944 0.9998705 0.0015944 0.0001295 -0.0015944
810067 0.0001263 -0.0015236 0.9998737 0.0015236 0.9998737 0.0015236 0.0001263 -0.0015236
847162 0.0001233 -0.0014557 0.9998767 0.0014557 0.9998767 0.0014557 0.0001233 -0.0014557
885955 0.0001205 -0.0013905 0.9998795 0.0013905 0.9998795 0.0013905 0.0001205 -0.0013905
926525 0.0001179 -0.0013280 0.9998821 0.0013280 0.9998821 0.0013280 0.0001179 -0.0013280
968953 0.0001155 -0.0012680 0.9998845 0.0012680 0.9998845 0.0012680 0.0001155 -0.0012680
1013323 0.0001132 -0.0012105 0.9998868 0.0012105 0.9998868 0.0012105 0.0001132 -0.0012105
1059725 0.0001110 -0.0011552 0.9998890 0.0011552 0.9998890 0.0011552 0.0001110 -0.0011552
1108252 0.0001091 -0.0011022 0.9998909 0.0011022 0.9998909 0.0011022 0.0001091 -0.0011022
1159002 0.0001072 -0.0010514 0.9998928 0.0010514 0.9998928 0.0010514 0.0001072 -0.0010514
1212075 0.0001055 -0.0010025 0.9998945 0.0010025 0.9998945 0.0010025 0.0001055 -0.0010025
1267578 0.0001039 -0.0009556 0.9998961 0.0009556 0.9998961 0.0009556 0.0001039 -0.0009556
1325623 0.0001024 -0.0009106 0.9998976 0.0009106 0.9998976 0.0009106 0.0001024 -0.0009106
1386327 0.0001010 -0.0008673 0.9998990 0.0008673 0.9998990 0.0008673 0.0001010 -0.0008673
1449809 0.0000997 -0.0008257 0.9999003 0.0008257 0.9999003 0.0008257 0.0000997 -0.0008257
1516199 0.0000985 -0.0007857 0.9999015 0.0007857 0.9999015 0.0007857 0.0000985 -0.0007857
1585629 0.0000974 -0.0007472 0.9999026 0.0007472 0.9999026 0.0007472 0.0000974 -0.0007472
1658239 0.0000963 -0.0007102 0.9999037 0.0007102 0.9999037 0.0007102 0.0000963 -0.0007102
1734173 0.0000954 -0.0006745 0.9999046 0.0006745 0.9999046 0.0006745 0.0000954 -0.0006745
1813585 0.0000945 -0.0006402 0.9999055 0.0006402 0.9999055 0.0006402 0.0000945 -0.0006402
1896632 0.0000936 -0.0006071 0.9999064 0.0006071 0.9999064 0.0006071 0.0000936 -0.0006071
1983483 0.0000928 -0.0005751 0.9999072 0.0005751 0.9999072 0.0005751 0.0000928 -0.0005751
2074311 0.0000921 -0.0005443 0.9999079 0.0005443 0.9999079 0.0005443 0.0000921 -0.0005443
