!Murata Part Number: GRM188R11E103MA01
!These Parameters are Measured in Series Mode Connection
!Data Generated on Mar 30, 2021
!       o--ll--o
!Port1            Port2
!       o------o
!Operation Temp=25[degC], DC Bias Voltage=0[V]
!Freq. Start=100[kHz] Stop=6[GHz] 401[Steps]
# Hz S RI R 50
!Freq.(Hz) S11(Real) S11(Imag) S21(Real) S21(Imag) S12(Real) S12(Imag) S22(Real) S22(Imag)
100000 0.7439656 -0.4300341 0.2560344 0.4300341 0.2560344 0.4300341 0.7439656 -0.4300341
102789 0.7335940 -0.4356768 0.2664060 0.4356768 0.2664060 0.4356768 0.7335940 -0.4356768
105655 0.7229561 -0.4411413 0.2770439 0.4411413 0.2770439 0.4411413 0.7229561 -0.4411413
108602 0.7120574 -0.4464127 0.2879426 0.4464127 0.2879426 0.4464127 0.7120574 -0.4464127
111630 0.7009046 -0.4514761 0.2990954 0.4514761 0.2990954 0.4514761 0.7009046 -0.4514761
114743 0.6895055 -0.4563167 0.3104945 0.4563167 0.3104945 0.4563167 0.6895055 -0.4563167
117943 0.6778688 -0.4609199 0.3221312 0.4609199 0.3221312 0.4609199 0.6778688 -0.4609199
121232 0.6660045 -0.4652717 0.3339955 0.4652717 0.3339955 0.4652717 0.6660045 -0.4652717
124613 0.6539235 -0.4693581 0.3460765 0.4693581 0.3460765 0.4693581 0.6539235 -0.4693581
128088 0.6416379 -0.4731660 0.3583621 0.4731660 0.3583621 0.4731660 0.6416379 -0.4731660
131660 0.6291609 -0.4766827 0.3708391 0.4766827 0.3708391 0.4766827 0.6291609 -0.4766827
135332 0.6165065 -0.4798963 0.3834935 0.4798963 0.3834935 0.4798963 0.6165065 -0.4798963
139106 0.6036897 -0.4827957 0.3963103 0.4827957 0.3963103 0.4827957 0.6036897 -0.4827957
142985 0.5907265 -0.4853707 0.4092735 0.4853707 0.4092735 0.4853707 0.5907265 -0.4853707
146972 0.5776338 -0.4876122 0.4223662 0.4876122 0.4223662 0.4876122 0.5776338 -0.4876122
151071 0.5644289 -0.4895119 0.4355711 0.4895119 0.4355711 0.4895119 0.5644289 -0.4895119
155284 0.5511300 -0.4910629 0.4488700 0.4910629 0.4488700 0.4910629 0.5511300 -0.4910629
159614 0.5377559 -0.4922594 0.4622441 0.4922594 0.4622441 0.4922594 0.5377559 -0.4922594
164065 0.5243258 -0.4930969 0.4756742 0.4930969 0.4756742 0.4930969 0.5243258 -0.4930969
168641 0.5108591 -0.4935721 0.4891409 0.4935721 0.4891409 0.4935721 0.5108591 -0.4935721
173344 0.4973756 -0.4936832 0.5026244 0.4936832 0.5026244 0.4936832 0.4973756 -0.4936832
178178 0.4838953 -0.4934296 0.5161047 0.4934296 0.5161047 0.4934296 0.4838953 -0.4934296
183146 0.4704379 -0.4928121 0.5295621 0.4928121 0.5295621 0.4928121 0.4704379 -0.4928121
188254 0.4570232 -0.4918328 0.5429768 0.4918328 0.5429768 0.4918328 0.4570232 -0.4918328
193504 0.4436708 -0.4904953 0.5563292 0.4904953 0.5563292 0.4904953 0.4436708 -0.4904953
198900 0.4303997 -0.4888044 0.5696003 0.4888044 0.5696003 0.4888044 0.4303997 -0.4888044
204447 0.4172288 -0.4867660 0.5827712 0.4867660 0.5827712 0.4867660 0.4172288 -0.4867660
210148 0.4041760 -0.4843875 0.5958240 0.4843875 0.5958240 0.4843875 0.4041760 -0.4843875
216008 0.3912589 -0.4816773 0.6087411 0.4816773 0.6087411 0.4816773 0.3912589 -0.4816773
222032 0.3784941 -0.4786449 0.6215059 0.4786449 0.6215059 0.4786449 0.3784941 -0.4786449
228224 0.3658976 -0.4753007 0.6341024 0.4753007 0.6341024 0.4753007 0.3658976 -0.4753007
234589 0.3534842 -0.4716562 0.6465158 0.4716562 0.6465158 0.4716562 0.3534842 -0.4716562
241130 0.3412680 -0.4677234 0.6587320 0.4677234 0.6587320 0.4677234 0.3412680 -0.4677234
247855 0.3292619 -0.4635155 0.6707381 0.4635155 0.6707381 0.4635155 0.3292619 -0.4635155
254767 0.3174779 -0.4590458 0.6825221 0.4590458 0.6825221 0.4590458 0.3174779 -0.4590458
261871 0.3059266 -0.4543286 0.6940734 0.4543286 0.6940734 0.4543286 0.3059266 -0.4543286
269174 0.2946180 -0.4493783 0.7053820 0.4493783 0.7053820 0.4493783 0.2946180 -0.4493783
276681 0.2835604 -0.4442096 0.7164396 0.4442096 0.7164396 0.4442096 0.2835604 -0.4442096
284397 0.2727614 -0.4388377 0.7272386 0.4388377 0.7272386 0.4388377 0.2727614 -0.4388377
292328 0.2622274 -0.4332777 0.7377726 0.4332777 0.7377726 0.4332777 0.2622274 -0.4332777
300480 0.2519637 -0.4275449 0.7480363 0.4275449 0.7480363 0.4275449 0.2519637 -0.4275449
308859 0.2419744 -0.4216544 0.7580256 0.4216544 0.7580256 0.4216544 0.2419744 -0.4216544
317472 0.2322627 -0.4156213 0.7677373 0.4156213 0.7677373 0.4156213 0.2322627 -0.4156213
326326 0.2228309 -0.4094604 0.7771691 0.4094604 0.7771691 0.4094604 0.2228309 -0.4094604
335426 0.2136802 -0.4031863 0.7863198 0.4031863 0.7863198 0.4031863 0.2136802 -0.4031863
344780 0.2048110 -0.3968133 0.7951890 0.3968133 0.7951890 0.3968133 0.2048110 -0.3968133
354395 0.1962229 -0.3903553 0.8037771 0.3903553 0.8037771 0.3903553 0.1962229 -0.3903553
364278 0.1879145 -0.3838258 0.8120855 0.3838258 0.8120855 0.3838258 0.1879145 -0.3838258
374436 0.1798839 -0.3772377 0.8201161 0.3772377 0.8201161 0.3772377 0.1798839 -0.3772377
384878 0.1721284 -0.3706035 0.8278716 0.3706035 0.8278716 0.3706035 0.1721284 -0.3706035
395611 0.1646449 -0.3639353 0.8353551 0.3639353 0.8353551 0.3639353 0.1646449 -0.3639353
406644 0.1574294 -0.3572444 0.8425706 0.3572444 0.8425706 0.3572444 0.1574294 -0.3572444
417984 0.1504777 -0.3505418 0.8495223 0.3505418 0.8495223 0.3505418 0.1504777 -0.3505418
429640 0.1437850 -0.3438376 0.8562150 0.3438376 0.8562150 0.3438376 0.1437850 -0.3438376
441622 0.1373462 -0.3371416 0.8626538 0.3371416 0.8626538 0.3371416 0.1373462 -0.3371416
453937 0.1311558 -0.3304629 0.8688442 0.3304629 0.8688442 0.3304629 0.1311558 -0.3304629
466596 0.1252081 -0.3238101 0.8747919 0.3238101 0.8747919 0.3238101 0.1252081 -0.3238101
479608 0.1194970 -0.3171911 0.8805030 0.3171911 0.8805030 0.3171911 0.1194970 -0.3171911
492983 0.1140165 -0.3106132 0.8859835 0.3106132 0.8859835 0.3106132 0.1140165 -0.3106132
506731 0.1087601 -0.3040834 0.8912399 0.3040834 0.8912399 0.3040834 0.1087601 -0.3040834
520862 0.1037214 -0.2976080 0.8962786 0.2976080 0.8962786 0.2976080 0.1037214 -0.2976080
535387 0.0988938 -0.2911927 0.9011062 0.2911927 0.9011062 0.2911927 0.0988938 -0.2911927
550318 0.0942709 -0.2848428 0.9057291 0.2848428 0.9057291 0.2848428 0.0942709 -0.2848428
565664 0.0898460 -0.2785632 0.9101540 0.2785632 0.9101540 0.2785632 0.0898460 -0.2785632
581439 0.0856126 -0.2723581 0.9143874 0.2723581 0.9143874 0.2723581 0.0856126 -0.2723581
597654 0.0815640 -0.2662315 0.9184360 0.2662315 0.9184360 0.2662315 0.0815640 -0.2662315
614320 0.0776938 -0.2601868 0.9223062 0.2601868 0.9223062 0.2601868 0.0776938 -0.2601868
631452 0.0739957 -0.2542271 0.9260043 0.2542271 0.9260043 0.2542271 0.0739957 -0.2542271
649061 0.0704632 -0.2483551 0.9295368 0.2483551 0.9295368 0.2483551 0.0704632 -0.2483551
667162 0.0670902 -0.2425731 0.9329098 0.2425731 0.9329098 0.2425731 0.0670902 -0.2425731
685767 0.0638706 -0.2368833 0.9361294 0.2368833 0.9361294 0.2368833 0.0638706 -0.2368833
704891 0.0607984 -0.2312871 0.9392016 0.2312871 0.9392016 0.2312871 0.0607984 -0.2312871
724548 0.0578677 -0.2257862 0.9421323 0.2257862 0.9421323 0.2257862 0.0578677 -0.2257862
744754 0.0550730 -0.2203815 0.9449270 0.2203815 0.9449270 0.2203815 0.0550730 -0.2203815
765523 0.0524086 -0.2150741 0.9475914 0.2150741 0.9475914 0.2150741 0.0524086 -0.2150741
786871 0.0498692 -0.2098644 0.9501308 0.2098644 0.9501308 0.2098644 0.0498692 -0.2098644
808814 0.0474496 -0.2047530 0.9525504 0.2047530 0.9525504 0.2047530 0.0474496 -0.2047530
831370 0.0451446 -0.1997400 0.9548554 0.1997400 0.9548554 0.1997400 0.0451446 -0.1997400
854554 0.0429494 -0.1948256 0.9570506 0.1948256 0.9570506 0.1948256 0.0429494 -0.1948256
878385 0.0408593 -0.1900095 0.9591407 0.1900095 0.9591407 0.1900095 0.0408593 -0.1900095
902880 0.0388696 -0.1852914 0.9611304 0.1852914 0.9611304 0.1852914 0.0388696 -0.1852914
928059 0.0369760 -0.1806711 0.9630240 0.1806711 0.9630240 0.1806711 0.0369760 -0.1806711
953940 0.0351742 -0.1761477 0.9648258 0.1761477 0.9648258 0.1761477 0.0351742 -0.1761477
980542 0.0334599 -0.1717208 0.9665401 0.1717208 0.9665401 0.1717208 0.0334599 -0.1717208
1007887 0.0318294 -0.1673895 0.9681706 0.1673895 0.9681706 0.1673895 0.0318294 -0.1673895
1035994 0.0302788 -0.1631529 0.9697212 0.1631529 0.9697212 0.1631529 0.0302788 -0.1631529
1064885 0.0288044 -0.1590100 0.9711956 0.1590100 0.9711956 0.1590100 0.0288044 -0.1590100
1094581 0.0274027 -0.1549598 0.9725973 0.1549598 0.9725973 0.1549598 0.0274027 -0.1549598
1125106 0.0260703 -0.1510012 0.9739297 0.1510012 0.9739297 0.1510012 0.0260703 -0.1510012
1156481 0.0248040 -0.1471329 0.9751960 0.1471329 0.9751960 0.1471329 0.0248040 -0.1471329
1188732 0.0236006 -0.1433538 0.9763994 0.1433538 0.9763994 0.1433538 0.0236006 -0.1433538
1221882 0.0224572 -0.1396625 0.9775428 0.1396625 0.9775428 0.1396625 0.0224572 -0.1396625
1255957 0.0213710 -0.1360577 0.9786290 0.1360577 0.9786290 0.1360577 0.0213710 -0.1360577
1290982 0.0203391 -0.1325381 0.9796609 0.1325381 0.9796609 0.1325381 0.0203391 -0.1325381
1326984 0.0193590 -0.1291022 0.9806410 0.1291022 0.9806410 0.1291022 0.0193590 -0.1291022
1363989 0.0184281 -0.1257486 0.9815719 0.1257486 0.9815719 0.1257486 0.0184281 -0.1257486
1402027 0.0175441 -0.1224759 0.9824559 0.1224759 0.9824559 0.1224759 0.0175441 -0.1224759
1441125 0.0167047 -0.1192827 0.9832953 0.1192827 0.9832953 0.1192827 0.0167047 -0.1192827
1481314 0.0159077 -0.1161674 0.9840923 0.1161674 0.9840923 0.1161674 0.0159077 -0.1161674
1522623 0.0151509 -0.1131285 0.9848491 0.1131285 0.9848491 0.1131285 0.0151509 -0.1131285
1565085 0.0144324 -0.1101647 0.9855676 0.1101647 0.9855676 0.1101647 0.0144324 -0.1101647
1608730 0.0137503 -0.1072743 0.9862497 0.1072743 0.9862497 0.1072743 0.0137503 -0.1072743
1653593 0.0131028 -0.1044560 0.9868972 0.1044560 0.9868972 0.1044560 0.0131028 -0.1044560
1699707 0.0124881 -0.1017082 0.9875119 0.1017082 0.9875119 0.1017082 0.0124881 -0.1017082
1747106 0.0119045 -0.0990294 0.9880955 0.0990294 0.9880955 0.0990294 0.0119045 -0.0990294
1795828 0.0113506 -0.0964182 0.9886494 0.0964182 0.9886494 0.0964182 0.0113506 -0.0964182
1845908 0.0108247 -0.0938732 0.9891753 0.0938732 0.9891753 0.0938732 0.0108247 -0.0938732
1897385 0.0103255 -0.0913928 0.9896745 0.0913928 0.9896745 0.0913928 0.0103255 -0.0913928
1950297 0.0098516 -0.0889756 0.9901484 0.0889756 0.9901484 0.0889756 0.0098516 -0.0889756
2004685 0.0094017 -0.0866202 0.9905983 0.0866202 0.9905983 0.0866202 0.0094017 -0.0866202
2060590 0.0089745 -0.0843253 0.9910255 0.0843253 0.9910255 0.0843253 0.0089745 -0.0843253
2118054 0.0085690 -0.0820893 0.9914310 0.0820893 0.9914310 0.0820893 0.0085690 -0.0820893
2177120 0.0081839 -0.0799110 0.9918161 0.0799110 0.9918161 0.0799110 0.0081839 -0.0799110
2237833 0.0078183 -0.0777889 0.9921817 0.0777889 0.9921817 0.0777889 0.0078183 -0.0777889
2300240 0.0074710 -0.0757218 0.9925290 0.0757218 0.9925290 0.0757218 0.0074710 -0.0757218
2364387 0.0071413 -0.0737083 0.9928587 0.0737083 0.9928587 0.0737083 0.0071413 -0.0737083
2430322 0.0068280 -0.0717471 0.9931720 0.0717471 0.9931720 0.0717471 0.0068280 -0.0717471
2498097 0.0065305 -0.0698370 0.9934695 0.0698370 0.9934695 0.0698370 0.0065305 -0.0698370
2567761 0.0062478 -0.0679767 0.9937522 0.0679767 0.9937522 0.0679767 0.0062478 -0.0679767
2639368 0.0059792 -0.0661650 0.9940208 0.0661650 0.9940208 0.0661650 0.0059792 -0.0661650
2712972 0.0057239 -0.0644006 0.9942761 0.0644006 0.9942761 0.0644006 0.0057239 -0.0644006
2788629 0.0054813 -0.0626824 0.9945187 0.0626824 0.9945187 0.0626824 0.0054813 -0.0626824
2866396 0.0052507 -0.0610092 0.9947493 0.0610092 0.9947493 0.0610092 0.0052507 -0.0610092
2946331 0.0050315 -0.0593799 0.9949685 0.0593799 0.9949685 0.0593799 0.0050315 -0.0593799
3028495 0.0048230 -0.0577933 0.9951770 0.0577933 0.9951770 0.0577933 0.0048230 -0.0577933
3112951 0.0046248 -0.0562484 0.9953752 0.0562484 0.9953752 0.0562484 0.0046248 -0.0562484
3199762 0.0044363 -0.0547441 0.9955637 0.0547441 0.9955637 0.0547441 0.0044363 -0.0547441
3288994 0.0042569 -0.0532793 0.9957431 0.0532793 0.9957431 0.0532793 0.0042569 -0.0532793
3380714 0.0040862 -0.0518531 0.9959138 0.0518531 0.9959138 0.0518531 0.0040862 -0.0518531
3474992 0.0039238 -0.0504644 0.9960762 0.0504644 0.9960762 0.0504644 0.0039238 -0.0504644
3571899 0.0037693 -0.0491122 0.9962307 0.0491122 0.9962307 0.0491122 0.0037693 -0.0491122
3671508 0.0036222 -0.0477956 0.9963778 0.0477956 0.9963778 0.0477956 0.0036222 -0.0477956
3773896 0.0034821 -0.0465137 0.9965179 0.0465137 0.9965179 0.0465137 0.0034821 -0.0465137
3879139 0.0033487 -0.0452655 0.9966513 0.0452655 0.9966513 0.0452655 0.0033487 -0.0452655
3987316 0.0032217 -0.0440501 0.9967783 0.0440501 0.9967783 0.0440501 0.0032217 -0.0440501
4098510 0.0031008 -0.0428668 0.9968992 0.0428668 0.9968992 0.0428668 0.0031008 -0.0428668
4212806 0.0029855 -0.0417146 0.9970145 0.0417146 0.9970145 0.0417146 0.0029855 -0.0417146
4330288 0.0028757 -0.0405927 0.9971243 0.0405927 0.9971243 0.0405927 0.0028757 -0.0405927
4451047 0.0027711 -0.0395003 0.9972289 0.0395003 0.9972289 0.0395003 0.0027711 -0.0395003
4575173 0.0026715 -0.0384366 0.9973285 0.0384366 0.9973285 0.0384366 0.0026715 -0.0384366
4702761 0.0025765 -0.0374010 0.9974235 0.0374010 0.9974235 0.0374010 0.0025765 -0.0374010
4833907 0.0024860 -0.0363925 0.9975140 0.0363925 0.9975140 0.0363925 0.0024860 -0.0363925
4968711 0.0023997 -0.0354106 0.9976003 0.0354106 0.9976003 0.0354106 0.0023997 -0.0354106
5107273 0.0023174 -0.0344544 0.9976826 0.0344544 0.9976826 0.0344544 0.0023174 -0.0344544
5249700 0.0022390 -0.0335233 0.9977610 0.0335233 0.9977610 0.0335233 0.0022390 -0.0335233
5396098 0.0021642 -0.0326167 0.9978358 0.0326167 0.9978358 0.0326167 0.0021642 -0.0326167
5546579 0.0020930 -0.0317339 0.9979070 0.0317339 0.9979070 0.0317339 0.0020930 -0.0317339
5701257 0.0020250 -0.0308742 0.9979750 0.0308742 0.9979750 0.0308742 0.0020250 -0.0308742
5860248 0.0019602 -0.0300371 0.9980398 0.0300371 0.9980398 0.0300371 0.0019602 -0.0300371
6023672 0.0018984 -0.0292219 0.9981016 0.0292219 0.9981016 0.0292219 0.0018984 -0.0292219
6191655 0.0018395 -0.0284280 0.9981605 0.0284280 0.9981605 0.0284280 0.0018395 -0.0284280
6364321 0.0017833 -0.0276550 0.9982167 0.0276550 0.9982167 0.0276550 0.0017833 -0.0276550
6541803 0.0017297 -0.0269021 0.9982703 0.0269021 0.9982703 0.0269021 0.0017297 -0.0269021
6724235 0.0016786 -0.0261689 0.9983214 0.0261689 0.9983214 0.0261689 0.0016786 -0.0261689
6911753 0.0016299 -0.0254549 0.9983701 0.0254549 0.9983701 0.0254549 0.0016299 -0.0254549
7104501 0.0015834 -0.0247595 0.9984166 0.0247595 0.9984166 0.0247595 0.0015834 -0.0247595
7302625 0.0015391 -0.0240822 0.9984609 0.0240822 0.9984609 0.0240822 0.0015391 -0.0240822
7506273 0.0014968 -0.0234226 0.9985032 0.0234226 0.9985032 0.0234226 0.0014968 -0.0234226
7715601 0.0014565 -0.0227802 0.9985435 0.0227802 0.9985435 0.0227802 0.0014565 -0.0227802
7930766 0.0014180 -0.0221545 0.9985820 0.0221545 0.9985820 0.0221545 0.0014180 -0.0221545
8151931 0.0013814 -0.0215450 0.9986186 0.0215450 0.9986186 0.0215450 0.0013814 -0.0215450
8379264 0.0013464 -0.0209514 0.9986536 0.0209514 0.9986536 0.0209514 0.0013464 -0.0209514
8612937 0.0013130 -0.0203731 0.9986870 0.0203731 0.9986870 0.0203731 0.0013130 -0.0203731
8853126 0.0012812 -0.0198098 0.9987188 0.0198098 0.9987188 0.0198098 0.0012812 -0.0198098
9100013 0.0012508 -0.0192611 0.9987492 0.0192611 0.9987492 0.0192611 0.0012508 -0.0192611
9353785 0.0012219 -0.0187266 0.9987781 0.0187266 0.9987781 0.0187266 0.0012219 -0.0187266
9614634 0.0011942 -0.0182058 0.9988058 0.0182058 0.9988058 0.0182058 0.0011942 -0.0182058
9882758 0.0011679 -0.0176984 0.9988321 0.0176984 0.9988321 0.0176984 0.0011679 -0.0176984
10158358 0.0011427 -0.0172041 0.9988573 0.0172041 0.9988573 0.0172041 0.0011427 -0.0172041
10441645 0.0011187 -0.0167224 0.9988813 0.0167224 0.9988813 0.0167224 0.0011187 -0.0167224
10732831 0.0010958 -0.0162531 0.9989042 0.0162531 0.9989042 0.0162531 0.0010958 -0.0162531
11032137 0.0010740 -0.0157957 0.9989260 0.0157957 0.9989260 0.0157957 0.0010740 -0.0157957
11339791 0.0010531 -0.0153500 0.9989469 0.0153500 0.9989469 0.0153500 0.0010531 -0.0153500
11656024 0.0010332 -0.0149156 0.9989668 0.0149156 0.9989668 0.0149156 0.0010332 -0.0149156
11981075 0.0010142 -0.0144922 0.9989858 0.0144922 0.9989858 0.0144922 0.0010142 -0.0144922
12315192 0.0009961 -0.0140795 0.9990039 0.0140795 0.9990039 0.0140795 0.0009961 -0.0140795
12658625 0.0009788 -0.0136772 0.9990212 0.0136772 0.9990212 0.0136772 0.0009788 -0.0136772
13011637 0.0009624 -0.0132849 0.9990376 0.0132849 0.9990376 0.0132849 0.0009624 -0.0132849
13374492 0.0009466 -0.0129025 0.9990534 0.0129025 0.9990534 0.0129025 0.0009466 -0.0129025
13747467 0.0009316 -0.0125296 0.9990684 0.0125296 0.9990684 0.0125296 0.0009316 -0.0125296
14130843 0.0009173 -0.0121660 0.9990827 0.0121660 0.9990827 0.0121660 0.0009173 -0.0121660
14524910 0.0009036 -0.0118114 0.9990964 0.0118114 0.9990964 0.0118114 0.0009036 -0.0118114
14929966 0.0008906 -0.0114654 0.9991094 0.0114654 0.9991094 0.0114654 0.0008906 -0.0114654
15346318 0.0008782 -0.0111280 0.9991218 0.0111280 0.9991218 0.0111280 0.0008782 -0.0111280
15774281 0.0008663 -0.0107988 0.9991337 0.0107988 0.9991337 0.0107988 0.0008663 -0.0107988
16214179 0.0008551 -0.0104775 0.9991449 0.0104775 0.9991449 0.0104775 0.0008551 -0.0104775
16666344 0.0008443 -0.0101640 0.9991557 0.0101640 0.9991557 0.0101640 0.0008443 -0.0101640
17131118 0.0008341 -0.0098580 0.9991659 0.0098580 0.9991659 0.0098580 0.0008341 -0.0098580
17608854 0.0008243 -0.0095594 0.9991757 0.0095594 0.9991757 0.0095594 0.0008243 -0.0095594
18099912 0.0008150 -0.0092677 0.9991850 0.0092677 0.9991850 0.0092677 0.0008150 -0.0092677
18604665 0.0008062 -0.0089830 0.9991938 0.0089830 0.9991938 0.0089830 0.0008062 -0.0089830
19123493 0.0007978 -0.0087049 0.9992022 0.0087049 0.9992022 0.0087049 0.0007978 -0.0087049
19656790 0.0007898 -0.0084332 0.9992102 0.0084332 0.9992102 0.0084332 0.0007898 -0.0084332
20204959 0.0007822 -0.0081678 0.9992178 0.0081678 0.9992178 0.0081678 0.0007822 -0.0081678
20768415 0.0007750 -0.0079084 0.9992250 0.0079084 0.9992250 0.0079084 0.0007750 -0.0079084
21347584 0.0007682 -0.0076549 0.9992318 0.0076549 0.9992318 0.0076549 0.0007682 -0.0076549
21942904 0.0007618 -0.0074071 0.9992382 0.0074071 0.9992382 0.0074071 0.0007618 -0.0074071
22554827 0.0007557 -0.0071647 0.9992443 0.0071647 0.9992443 0.0071647 0.0007557 -0.0071647
23183813 0.0007499 -0.0069277 0.9992501 0.0069277 0.9992501 0.0069277 0.0007499 -0.0069277
23830340 0.0007445 -0.0066958 0.9992555 0.0066958 0.9992555 0.0066958 0.0007445 -0.0066958
24494897 0.0007393 -0.0064688 0.9992607 0.0064688 0.9992607 0.0064688 0.0007393 -0.0064688
25177987 0.0007345 -0.0062467 0.9992655 0.0062467 0.9992655 0.0062467 0.0007345 -0.0062467
25880126 0.0007300 -0.0060292 0.9992700 0.0060292 0.9992700 0.0060292 0.0007300 -0.0060292
26601845 0.0007257 -0.0058162 0.9992743 0.0058162 0.9992743 0.0058162 0.0007257 -0.0058162
27343691 0.0007218 -0.0056075 0.9992782 0.0056075 0.9992782 0.0056075 0.0007218 -0.0056075
28106225 0.0007181 -0.0054029 0.9992819 0.0054029 0.9992819 0.0054029 0.0007181 -0.0054029
28890023 0.0007147 -0.0052024 0.9992853 0.0052024 0.9992853 0.0052024 0.0007147 -0.0052024
29695680 0.0007115 -0.0050058 0.9992885 0.0050058 0.9992885 0.0050058 0.0007115 -0.0050058
30523804 0.0007086 -0.0048128 0.9992914 0.0048128 0.9992914 0.0048128 0.0007086 -0.0048128
31375021 0.0007059 -0.0046235 0.9992941 0.0046235 0.9992941 0.0046235 0.0007059 -0.0046235
32249977 0.0007035 -0.0044375 0.9992965 0.0044375 0.9992965 0.0044375 0.0007035 -0.0044375
33149332 0.0007013 -0.0042549 0.9992987 0.0042549 0.9992987 0.0042549 0.0007013 -0.0042549
34073768 0.0006993 -0.0040755 0.9993007 0.0040755 0.9993007 0.0040755 0.0006993 -0.0040755
35023984 0.0006976 -0.0038990 0.9993024 0.0038990 0.9993024 0.0038990 0.0006976 -0.0038990
36000698 0.0006961 -0.0037255 0.9993039 0.0037255 0.9993039 0.0037255 0.0006961 -0.0037255
37004650 0.0006948 -0.0035548 0.9993052 0.0035548 0.9993052 0.0035548 0.0006948 -0.0035548
38036599 0.0006938 -0.0033867 0.9993062 0.0033867 0.9993062 0.0033867 0.0006938 -0.0033867
39097326 0.0006930 -0.0032211 0.9993070 0.0032211 0.9993070 0.0032211 0.0006930 -0.0032211
