!Murata Part Number: GRM188B11H332MA01
!These Parameters are Measured in Series Mode Connection
!Data Generated on Mar 30, 2021
!       o--ll--o
!Port1            Port2
!       o------o
!Operation Temp=25[degC], DC Bias Voltage=0[V]
!Freq. Start=100[Hz] Stop=6[GHz] 401[Steps]
# Hz S RI R 50
!Freq.(Hz) S11(Real) S11(Imag) S21(Real) S21(Imag) S12(Real) S12(Imag) S22(Real) S22(Imag)
100 0.9999990 -0.0002077 0.0000010 0.0002077 0.0000010 0.0002077 0.9999990 -0.0002077
105 0.9999990 -0.0002172 0.0000010 0.0002172 0.0000010 0.0002172 0.9999990 -0.0002172
109 0.9999989 -0.0002271 0.0000011 0.0002271 0.0000011 0.0002271 0.9999989 -0.0002271
114 0.9999989 -0.0002375 0.0000011 0.0002375 0.0000011 0.0002375 0.9999989 -0.0002375
120 0.9999988 -0.0002483 0.0000012 0.0002483 0.0000012 0.0002483 0.9999988 -0.0002483
125 0.9999988 -0.0002597 0.0000012 0.0002597 0.0000012 0.0002597 0.9999988 -0.0002597
131 0.9999987 -0.0002715 0.0000013 0.0002715 0.0000013 0.0002715 0.9999987 -0.0002715
137 0.9999987 -0.0002839 0.0000013 0.0002839 0.0000013 0.0002839 0.9999987 -0.0002839
143 0.9999986 -0.0002969 0.0000014 0.0002969 0.0000014 0.0002969 0.9999986 -0.0002969
150 0.9999985 -0.0003104 0.0000015 0.0003104 0.0000015 0.0003104 0.9999985 -0.0003104
156 0.9999985 -0.0003246 0.0000015 0.0003246 0.0000015 0.0003246 0.9999985 -0.0003246
164 0.9999984 -0.0003394 0.0000016 0.0003394 0.0000016 0.0003394 0.9999984 -0.0003394
171 0.9999983 -0.0003549 0.0000017 0.0003549 0.0000017 0.0003549 0.9999983 -0.0003549
179 0.9999983 -0.0003711 0.0000017 0.0003711 0.0000017 0.0003711 0.9999983 -0.0003711
187 0.9999982 -0.0003881 0.0000018 0.0003881 0.0000018 0.0003881 0.9999982 -0.0003881
196 0.9999981 -0.0004058 0.0000019 0.0004058 0.0000019 0.0004058 0.9999981 -0.0004058
205 0.9999980 -0.0004243 0.0000020 0.0004243 0.0000020 0.0004243 0.9999980 -0.0004243
214 0.9999979 -0.0004437 0.0000021 0.0004437 0.0000021 0.0004437 0.9999979 -0.0004437
224 0.9999978 -0.0004640 0.0000022 0.0004640 0.0000022 0.0004640 0.9999978 -0.0004640
234 0.9999977 -0.0004852 0.0000023 0.0004852 0.0000023 0.0004852 0.9999977 -0.0004852
245 0.9999976 -0.0005073 0.0000024 0.0005073 0.0000024 0.0005073 0.9999976 -0.0005073
256 0.9999974 -0.0005305 0.0000026 0.0005305 0.0000026 0.0005305 0.9999974 -0.0005305
268 0.9999973 -0.0005548 0.0000027 0.0005548 0.0000027 0.0005548 0.9999973 -0.0005548
280 0.9999972 -0.0005801 0.0000028 0.0005801 0.0000028 0.0005801 0.9999972 -0.0005801
293 0.9999970 -0.0006066 0.0000030 0.0006066 0.0000030 0.0006066 0.9999970 -0.0006066
306 0.9999968 -0.0006343 0.0000032 0.0006343 0.0000032 0.0006343 0.9999968 -0.0006343
320 0.9999967 -0.0006633 0.0000033 0.0006633 0.0000033 0.0006633 0.9999967 -0.0006633
335 0.9999965 -0.0006936 0.0000035 0.0006936 0.0000035 0.0006936 0.9999965 -0.0006936
350 0.9999963 -0.0007253 0.0000037 0.0007253 0.0000037 0.0007253 0.9999963 -0.0007253
366 0.9999961 -0.0007584 0.0000039 0.0007584 0.0000039 0.0007584 0.9999961 -0.0007584
383 0.9999958 -0.0007930 0.0000042 0.0007930 0.0000042 0.0007930 0.9999958 -0.0007930
401 0.9999956 -0.0008293 0.0000044 0.0008293 0.0000044 0.0008293 0.9999956 -0.0008293
419 0.9999953 -0.0008671 0.0000047 0.0008671 0.0000047 0.0008671 0.9999953 -0.0008671
438 0.9999950 -0.0009067 0.0000050 0.0009067 0.0000050 0.0009067 0.9999950 -0.0009067
458 0.9999947 -0.0009481 0.0000053 0.0009481 0.0000053 0.0009481 0.9999947 -0.0009481
479 0.9999944 -0.0009914 0.0000056 0.0009914 0.0000056 0.0009914 0.9999944 -0.0009914
501 0.9999941 -0.0010367 0.0000059 0.0010367 0.0000059 0.0010367 0.9999941 -0.0010367
524 0.9999937 -0.0010840 0.0000063 0.0010840 0.0000063 0.0010840 0.9999937 -0.0010840
548 0.9999933 -0.0011334 0.0000067 0.0011334 0.0000067 0.0011334 0.9999933 -0.0011334
573 0.9999929 -0.0011852 0.0000071 0.0011852 0.0000071 0.0011852 0.9999929 -0.0011852
600 0.9999925 -0.0012392 0.0000075 0.0012392 0.0000075 0.0012392 0.9999925 -0.0012392
627 0.9999920 -0.0012958 0.0000080 0.0012958 0.0000080 0.0012958 0.9999920 -0.0012958
656 0.9999915 -0.0013549 0.0000085 0.0013549 0.0000085 0.0013549 0.9999915 -0.0013549
686 0.9999910 -0.0014167 0.0000090 0.0014167 0.0000090 0.0014167 0.9999910 -0.0014167
717 0.9999905 -0.0014814 0.0000095 0.0014814 0.0000095 0.0014814 0.9999905 -0.0014814
750 0.9999899 -0.0015489 0.0000101 0.0015489 0.0000101 0.0015489 0.9999899 -0.0015489
784 0.9999894 -0.0016196 0.0000106 0.0016196 0.0000106 0.0016196 0.9999894 -0.0016196
820 0.9999887 -0.0016935 0.0000113 0.0016935 0.0000113 0.0016935 0.9999887 -0.0016935
858 0.9999881 -0.0017707 0.0000119 0.0017707 0.0000119 0.0017707 0.9999881 -0.0017707
897 0.9999874 -0.0018515 0.0000126 0.0018515 0.0000126 0.0018515 0.9999874 -0.0018515
938 0.9999866 -0.0019360 0.0000134 0.0019360 0.0000134 0.0019360 0.9999866 -0.0019360
981 0.9999859 -0.0020243 0.0000141 0.0020243 0.0000141 0.0020243 0.9999859 -0.0020243
1026 0.9999851 -0.0021167 0.0000149 0.0021167 0.0000149 0.0021167 0.9999851 -0.0021167
1073 0.9999842 -0.0022132 0.0000158 0.0022132 0.0000158 0.0022132 0.9999842 -0.0022132
1122 0.9999833 -0.0023142 0.0000167 0.0023142 0.0000167 0.0023142 0.9999833 -0.0023142
1174 0.9999823 -0.0024198 0.0000177 0.0024198 0.0000177 0.0024198 0.9999823 -0.0024198
1227 0.9999813 -0.0025303 0.0000187 0.0025303 0.0000187 0.0025303 0.9999813 -0.0025303
1283 0.9999801 -0.0026457 0.0000199 0.0026457 0.0000199 0.0026457 0.9999801 -0.0026457
1342 0.9999790 -0.0027665 0.0000210 0.0027665 0.0000210 0.0027665 0.9999790 -0.0027665
1404 0.9999777 -0.0028928 0.0000223 0.0028928 0.0000223 0.0028928 0.9999777 -0.0028928
1468 0.9999764 -0.0030248 0.0000236 0.0030248 0.0000236 0.0030248 0.9999764 -0.0030248
1535 0.9999749 -0.0031629 0.0000251 0.0031629 0.0000251 0.0031629 0.9999749 -0.0031629
1606 0.9999734 -0.0033073 0.0000266 0.0033073 0.0000266 0.0033073 0.9999734 -0.0033073
1679 0.9999717 -0.0034583 0.0000283 0.0034583 0.0000283 0.0034583 0.9999717 -0.0034583
1756 0.9999699 -0.0036163 0.0000301 0.0036163 0.0000301 0.0036163 0.9999699 -0.0036163
1836 0.9999679 -0.0037814 0.0000321 0.0037814 0.0000321 0.0037814 0.9999679 -0.0037814
1920 0.9999658 -0.0039541 0.0000342 0.0039541 0.0000342 0.0039541 0.9999658 -0.0039541
2008 0.9999636 -0.0041347 0.0000364 0.0041347 0.0000364 0.0041347 0.9999636 -0.0041347
2100 0.9999611 -0.0043235 0.0000389 0.0043235 0.0000389 0.0043235 0.9999611 -0.0043235
2196 0.9999585 -0.0045210 0.0000415 0.0045210 0.0000415 0.0045210 0.9999585 -0.0045210
2297 0.9999556 -0.0047275 0.0000444 0.0047275 0.0000444 0.0047275 0.9999556 -0.0047275
2402 0.9999525 -0.0049434 0.0000475 0.0049434 0.0000475 0.0049434 0.9999525 -0.0049434
2512 0.9999491 -0.0051692 0.0000509 0.0051692 0.0000509 0.0051692 0.9999491 -0.0051692
2627 0.9999454 -0.0054053 0.0000546 0.0054053 0.0000546 0.0054053 0.9999454 -0.0054053
2748 0.9999414 -0.0056521 0.0000586 0.0056521 0.0000586 0.0056521 0.9999414 -0.0056521
2873 0.9999371 -0.0059103 0.0000629 0.0059103 0.0000629 0.0059103 0.9999371 -0.0059103
3005 0.9999324 -0.0061802 0.0000676 0.0061802 0.0000676 0.0061802 0.9999324 -0.0061802
3143 0.9999274 -0.0064624 0.0000726 0.0064624 0.0000726 0.0064624 0.9999274 -0.0064624
3287 0.9999219 -0.0067575 0.0000781 0.0067575 0.0000781 0.0067575 0.9999219 -0.0067575
3437 0.9999159 -0.0070661 0.0000841 0.0070661 0.0000841 0.0070661 0.9999159 -0.0070661
3594 0.9999094 -0.0073887 0.0000906 0.0073887 0.0000906 0.0073887 0.9999094 -0.0073887
3759 0.9999024 -0.0077260 0.0000976 0.0077260 0.0000976 0.0077260 0.9999024 -0.0077260
3931 0.9998947 -0.0080787 0.0001053 0.0080787 0.0001053 0.0080787 0.9998947 -0.0080787
4111 0.9998865 -0.0084474 0.0001135 0.0084474 0.0001135 0.0084474 0.9998865 -0.0084474
4299 0.9998775 -0.0088329 0.0001225 0.0088329 0.0001225 0.0088329 0.9998775 -0.0088329
4496 0.9998678 -0.0092360 0.0001322 0.0092360 0.0001322 0.0092360 0.9998678 -0.0092360
4702 0.9998573 -0.0096574 0.0001427 0.0096574 0.0001427 0.0096574 0.9998573 -0.0096574
4918 0.9998459 -0.0100980 0.0001541 0.0100980 0.0001541 0.0100980 0.9998459 -0.0100980
5143 0.9998336 -0.0105587 0.0001664 0.0105587 0.0001664 0.0105587 0.9998336 -0.0105587
5378 0.9998202 -0.0110403 0.0001798 0.0110403 0.0001798 0.0110403 0.9998202 -0.0110403
5625 0.9998057 -0.0115438 0.0001943 0.0115438 0.0001943 0.0115438 0.9998057 -0.0115438
5882 0.9997901 -0.0120702 0.0002099 0.0120702 0.0002099 0.0120702 0.9997901 -0.0120702
6151 0.9997731 -0.0126206 0.0002269 0.0126206 0.0002269 0.0126206 0.9997731 -0.0126206
6433 0.9997548 -0.0131960 0.0002452 0.0131960 0.0002452 0.0131960 0.9997548 -0.0131960
6728 0.9997349 -0.0137976 0.0002651 0.0137976 0.0002651 0.0137976 0.9997349 -0.0137976
7036 0.9997133 -0.0144266 0.0002867 0.0144266 0.0002867 0.0144266 0.9997133 -0.0144266
7358 0.9996900 -0.0150842 0.0003100 0.0150842 0.0003100 0.0150842 0.9996900 -0.0150842
7695 0.9996647 -0.0157718 0.0003353 0.0157718 0.0003353 0.0157718 0.9996647 -0.0157718
8047 0.9996373 -0.0164906 0.0003627 0.0164906 0.0003627 0.0164906 0.9996373 -0.0164906
8416 0.9996076 -0.0172422 0.0003924 0.0172422 0.0003924 0.0172422 0.9996076 -0.0172422
8801 0.9995753 -0.0180280 0.0004247 0.0180280 0.0004247 0.0180280 0.9995753 -0.0180280
9204 0.9995404 -0.0188495 0.0004596 0.0188495 0.0004596 0.0188495 0.9995404 -0.0188495
9626 0.9995024 -0.0197085 0.0004976 0.0197085 0.0004976 0.0197085 0.9995024 -0.0197085
10066 0.9994612 -0.0206066 0.0005388 0.0206066 0.0005388 0.0206066 0.9994612 -0.0206066
10527 0.9994164 -0.0215456 0.0005836 0.0215456 0.0005836 0.0215456 0.9994164 -0.0215456
11009 0.9993677 -0.0225273 0.0006323 0.0225273 0.0006323 0.0225273 0.9993677 -0.0225273
11514 0.9993147 -0.0235538 0.0006853 0.0235538 0.0006853 0.0235538 0.9993147 -0.0235538
12041 0.9992571 -0.0246269 0.0007429 0.0246269 0.0007429 0.0246269 0.9992571 -0.0246269
12592 0.9991945 -0.0257489 0.0008055 0.0257489 0.0008055 0.0257489 0.9991945 -0.0257489
13169 0.9991262 -0.0269220 0.0008738 0.0269220 0.0008738 0.0269220 0.9991262 -0.0269220
13772 0.9990519 -0.0281484 0.0009481 0.0281484 0.0009481 0.0281484 0.9990519 -0.0281484
14402 0.9989709 -0.0294306 0.0010291 0.0294306 0.0010291 0.0294306 0.9989709 -0.0294306
15062 0.9988827 -0.0307710 0.0011173 0.0307710 0.0011173 0.0307710 0.9988827 -0.0307710
15752 0.9987865 -0.0321724 0.0012135 0.0321724 0.0012135 0.0321724 0.9987865 -0.0321724
16473 0.9986816 -0.0336373 0.0013184 0.0336373 0.0013184 0.0336373 0.9986816 -0.0336373
17227 0.9985672 -0.0351686 0.0014328 0.0351686 0.0014328 0.0351686 0.9985672 -0.0351686
18016 0.9984424 -0.0367693 0.0015576 0.0367693 0.0015576 0.0367693 0.9984424 -0.0367693
18841 0.9983063 -0.0384425 0.0016937 0.0384425 0.0016937 0.0384425 0.9983063 -0.0384425
19704 0.9981578 -0.0401913 0.0018422 0.0401913 0.0018422 0.0401913 0.9981578 -0.0401913
20606 0.9979957 -0.0420192 0.0020043 0.0420192 0.0020043 0.0420192 0.9979957 -0.0420192
21550 0.9978189 -0.0439295 0.0021811 0.0439295 0.0021811 0.0439295 0.9978189 -0.0439295
22537 0.9976259 -0.0459258 0.0023741 0.0459258 0.0023741 0.0459258 0.9976259 -0.0459258
23569 0.9974153 -0.0480119 0.0025847 0.0480119 0.0025847 0.0480119 0.9974153 -0.0480119
24648 0.9971855 -0.0501917 0.0028145 0.0501917 0.0028145 0.0501917 0.9971855 -0.0501917
25777 0.9969347 -0.0524692 0.0030653 0.0524692 0.0030653 0.0524692 0.9969347 -0.0524692
26957 0.9966611 -0.0548487 0.0033389 0.0548487 0.0033389 0.0548487 0.9966611 -0.0548487
28191 0.9963624 -0.0573344 0.0036376 0.0573344 0.0036376 0.0573344 0.9963624 -0.0573344
29482 0.9960366 -0.0599308 0.0039634 0.0599308 0.0039634 0.0599308 0.9960366 -0.0599308
30832 0.9956811 -0.0626426 0.0043189 0.0626426 0.0043189 0.0626426 0.9956811 -0.0626426
32244 0.9952933 -0.0654746 0.0047067 0.0654746 0.0047067 0.0654746 0.9952933 -0.0654746
33721 0.9948703 -0.0684319 0.0051297 0.0684319 0.0051297 0.0684319 0.9948703 -0.0684319
35265 0.9944089 -0.0715195 0.0055911 0.0715195 0.0055911 0.0715195 0.9944089 -0.0715195
36880 0.9939058 -0.0747428 0.0060942 0.0747428 0.0060942 0.0747428 0.9939058 -0.0747428
38569 0.9933572 -0.0781072 0.0066428 0.0781072 0.0066428 0.0781072 0.9933572 -0.0781072
40335 0.9927591 -0.0816183 0.0072409 0.0816183 0.0072409 0.0816183 0.9927591 -0.0816183
42182 0.9921071 -0.0852821 0.0078929 0.0852821 0.0078929 0.0852821 0.9921071 -0.0852821
44113 0.9913965 -0.0891043 0.0086035 0.0891043 0.0086035 0.0891043 0.9913965 -0.0891043
46134 0.9906222 -0.0930911 0.0093778 0.0930911 0.0093778 0.0930911 0.9906222 -0.0930911
48246 0.9897785 -0.0972488 0.0102215 0.0972488 0.0102215 0.0972488 0.9897785 -0.0972488
50455 0.9888594 -0.1015836 0.0111406 0.1015836 0.0111406 0.1015836 0.9888594 -0.1015836
52766 0.9878584 -0.1061019 0.0121416 0.1061019 0.0121416 0.1061019 0.9878584 -0.1061019
55182 0.9867682 -0.1108104 0.0132318 0.1108104 0.0132318 0.1108104 0.9867682 -0.1108104
57709 0.9855812 -0.1157157 0.0144188 0.1157157 0.0144188 0.1157157 0.9855812 -0.1157157
60352 0.9842891 -0.1208243 0.0157109 0.1208243 0.0157109 0.1208243 0.9842891 -0.1208243
63115 0.9828827 -0.1261428 0.0171173 0.1261428 0.0171173 0.1261428 0.9828827 -0.1261428
66005 0.9813524 -0.1316780 0.0186476 0.1316780 0.0186476 0.1316780 0.9813524 -0.1316780
69028 0.9796875 -0.1374363 0.0203125 0.1374363 0.0203125 0.1374363 0.9796875 -0.1374363
72189 0.9778767 -0.1434240 0.0221233 0.1434240 0.0221233 0.1434240 0.9778767 -0.1434240
75495 0.9759077 -0.1496474 0.0240923 0.1496474 0.0240923 0.1496474 0.9759077 -0.1496474
78952 0.9737672 -0.1561123 0.0262328 0.1561123 0.0262328 0.1561123 0.9737672 -0.1561123
82567 0.9714409 -0.1628242 0.0285591 0.1628242 0.0285591 0.1628242 0.9714409 -0.1628242
86348 0.9689137 -0.1697882 0.0310863 0.1697882 0.0310863 0.1697882 0.9689137 -0.1697882
90302 0.9661692 -0.1770088 0.0338308 0.1770088 0.0338308 0.1770088 0.9661692 -0.1770088
94437 0.9631899 -0.1844899 0.0368101 0.1844899 0.0368101 0.1844899 0.9631899 -0.1844899
98762 0.9599571 -0.1922343 0.0400429 0.1922343 0.0400429 0.1922343 0.9599571 -0.1922343
103284 0.9564511 -0.2002443 0.0435489 0.2002443 0.0435489 0.2002443 0.9564511 -0.2002443
108014 0.9526507 -0.2085206 0.0473493 0.2085206 0.0473493 0.2085206 0.9526507 -0.2085206
112960 0.9485339 -0.2170629 0.0514661 0.2170629 0.0514661 0.2170629 0.9485339 -0.2170629
118133 0.9440772 -0.2258692 0.0559228 0.2258692 0.0559228 0.2258692 0.9440772 -0.2258692
123542 0.9392560 -0.2349361 0.0607440 0.2349361 0.0607440 0.2349361 0.9392560 -0.2349361
129199 0.9340449 -0.2442580 0.0659551 0.2442580 0.0659551 0.2442580 0.9340449 -0.2442580
135116 0.9284172 -0.2538273 0.0715828 0.2538273 0.0715828 0.2538273 0.9284172 -0.2538273
141303 0.9223455 -0.2636339 0.0776545 0.2636339 0.0776545 0.2636339 0.9223455 -0.2636339
147774 0.9158015 -0.2736652 0.0841985 0.2736652 0.0841985 0.2736652 0.9158015 -0.2736652
154540 0.9087568 -0.2839056 0.0912432 0.2839056 0.0912432 0.2839056 0.9087568 -0.2839056
161617 0.9011822 -0.2943366 0.0988178 0.2943366 0.0988178 0.2943366 0.9011822 -0.2943366
169018 0.8930489 -0.3049361 0.1069511 0.3049361 0.1069511 0.3049361 0.8930489 -0.3049361
176758 0.8843283 -0.3156787 0.1156717 0.3156787 0.1156717 0.3156787 0.8843283 -0.3156787
184852 0.8749925 -0.3265349 0.1250075 0.3265349 0.1250075 0.3265349 0.8749925 -0.3265349
193316 0.8650148 -0.3374716 0.1349852 0.3374716 0.1349852 0.3374716 0.8650148 -0.3374716
202169 0.8543701 -0.3484517 0.1456299 0.3484517 0.1456299 0.3484517 0.8543701 -0.3484517
211427 0.8430356 -0.3594337 0.1569644 0.3594337 0.1569644 0.3594337 0.8430356 -0.3594337
221108 0.8309911 -0.3703723 0.1690089 0.3703723 0.1690089 0.3703723 0.8309911 -0.3703723
231233 0.8182200 -0.3812183 0.1817800 0.3812183 0.1817800 0.3812183 0.8182200 -0.3812183
241822 0.8047095 -0.3919186 0.1952905 0.3919186 0.1952905 0.3919186 0.8047095 -0.3919186
252896 0.7904515 -0.4024165 0.2095485 0.4024165 0.2095485 0.4024165 0.7904515 -0.4024165
264476 0.7754432 -0.4126526 0.2245568 0.4126526 0.2245568 0.4126526 0.7754432 -0.4126526
276587 0.7596878 -0.4225646 0.2403122 0.4225646 0.2403122 0.4225646 0.7596878 -0.4225646
289253 0.7431949 -0.4320884 0.2568051 0.4320884 0.2568051 0.4320884 0.7431949 -0.4320884
302498 0.7259810 -0.4411589 0.2740190 0.4411589 0.2740190 0.4411589 0.7259810 -0.4411589
316350 0.7080700 -0.4497106 0.2919300 0.4497106 0.2919300 0.4497106 0.7080700 -0.4497106
330837 0.6894934 -0.4576786 0.3105066 0.4576786 0.3105066 0.4576786 0.6894934 -0.4576786
345986 0.6702904 -0.4649998 0.3297096 0.4649998 0.3297096 0.4649998 0.6702904 -0.4649998
361830 0.6505080 -0.4716140 0.3494920 0.4716140 0.3494920 0.4716140 0.6505080 -0.4716140
378399 0.6302005 -0.4774647 0.3697995 0.4774647 0.3697995 0.4774647 0.6302005 -0.4774647
395726 0.6094293 -0.4825005 0.3905707 0.4825005 0.3905707 0.4825005 0.6094293 -0.4825005
413847 0.5882624 -0.4866763 0.4117376 0.4866763 0.4117376 0.4866763 0.5882624 -0.4866763
432798 0.5667732 -0.4899537 0.4332268 0.4899537 0.4332268 0.4899537 0.5667732 -0.4899537
452617 0.5450400 -0.4923022 0.4549600 0.4923022 0.4549600 0.4923022 0.5450400 -0.4923022
473344 0.5231447 -0.4937001 0.4768553 0.4937001 0.4768553 0.4937001 0.5231447 -0.4937001
495019 0.5011714 -0.4941345 0.4988286 0.4941345 0.4988286 0.4941345 0.5011714 -0.4941345
517687 0.4792056 -0.4936018 0.5207944 0.4936018 0.5207944 0.4936018 0.4792056 -0.4936018
541393 0.4573325 -0.4921081 0.5426675 0.4921081 0.5426675 0.4921081 0.4573325 -0.4921081
566185 0.4356355 -0.4896683 0.5643645 0.4896683 0.5643645 0.4896683 0.4356355 -0.4896683
592111 0.4141956 -0.4863067 0.5858044 0.4863067 0.5858044 0.4863067 0.4141956 -0.4863067
619225 0.3930897 -0.4820554 0.6069103 0.4820554 0.6069103 0.4820554 0.3930897 -0.4820554
647581 0.3723896 -0.4769544 0.6276104 0.4769544 0.6276104 0.4769544 0.3723896 -0.4769544
677235 0.3521612 -0.4710504 0.6478388 0.4710504 0.6478388 0.4710504 0.3521612 -0.4710504
708247 0.3324641 -0.4643956 0.6675359 0.4643956 0.6675359 0.4643956 0.3324641 -0.4643956
740679 0.3133503 -0.4570470 0.6866497 0.4570470 0.6866497 0.4570470 0.3133503 -0.4570470
774597 0.2948648 -0.4490650 0.7051352 0.4490650 0.7051352 0.4490650 0.2948648 -0.4490650
810067 0.2770444 -0.4405127 0.7229556 0.4405127 0.7229556 0.4405127 0.2770444 -0.4405127
847162 0.2599189 -0.4314542 0.7400811 0.4314542 0.7400811 0.4314542 0.2599189 -0.4314542
885955 0.2435103 -0.4219542 0.7564897 0.4219542 0.7564897 0.4219542 0.2435103 -0.4219542
926525 0.2278334 -0.4120769 0.7721666 0.4120769 0.7721666 0.4120769 0.2278334 -0.4120769
968953 0.2128967 -0.4018850 0.7871033 0.4018850 0.7871033 0.4018850 0.2128967 -0.4018850
1013323 0.1987021 -0.3914392 0.8012979 0.3914392 0.8012979 0.3914392 0.1987021 -0.3914392
1059725 0.1852462 -0.3807977 0.8147538 0.3807977 0.8147538 0.3807977 0.1852462 -0.3807977
1108252 0.1725203 -0.3700154 0.8274797 0.3700154 0.8274797 0.3700154 0.1725203 -0.3700154
1159002 0.1605116 -0.3591439 0.8394884 0.3591439 0.8394884 0.3591439 0.1605116 -0.3591439
1212075 0.1492033 -0.3482309 0.8507967 0.3482309 0.8507967 0.3482309 0.1492033 -0.3482309
1267578 0.1385756 -0.3373204 0.8614244 0.3373204 0.8614244 0.3373204 0.1385756 -0.3373204
1325623 0.1286061 -0.3264525 0.8713939 0.3264525 0.8713939 0.3264525 0.1286061 -0.3264525
1386327 0.1192704 -0.3156633 0.8807296 0.3156633 0.8807296 0.3156633 0.1192704 -0.3156633
1449809 0.1105425 -0.3049851 0.8894575 0.3049851 0.8894575 0.3049851 0.1105425 -0.3049851
1516199 0.1023954 -0.2944463 0.8976046 0.2944463 0.8976046 0.2944463 0.1023954 -0.2944463
1585629 0.0948013 -0.2840721 0.9051987 0.2840721 0.9051987 0.2840721 0.0948013 -0.2840721
1658239 0.0877322 -0.2738838 0.9122678 0.2738838 0.9122678 0.2738838 0.0877322 -0.2738838
1734173 0.0811601 -0.2639000 0.9188399 0.2639000 0.9188399 0.2639000 0.0811601 -0.2639000
1813585 0.0750570 -0.2541360 0.9249430 0.2541360 0.9249430 0.2541360 0.0750570 -0.2541360
1896632 0.0693958 -0.2446045 0.9306042 0.2446045 0.9306042 0.2446045 0.0693958 -0.2446045
1983483 0.0641496 -0.2353157 0.9358504 0.2353157 0.9358504 0.2353157 0.0641496 -0.2353157
2074311 0.0592926 -0.2262775 0.9407074 0.2262775 0.9407074 0.2262775 0.0592926 -0.2262775
