!Murata Part Number: GRM188B31E224MA87
!These Parameters are Measured in Series Mode Connection
!Data Generated on Mar 30, 2021
!       o--ll--o
!Port1            Port2
!       o------o
!Operation Temp=25[degC], DC Bias Voltage=0[V]
!Freq. Start=100[Hz] Stop=6[GHz] 401[Steps]
# Hz S RI R 50
!Freq.(Hz) S11(Real) S11(Imag) S21(Real) S21(Imag) S12(Real) S12(Imag) S22(Real) S22(Imag)
100 0.9997561 -0.0132718 0.0002439 0.0132718 0.0002439 0.0132718 0.9997561 -0.0132718
105 0.9997368 -0.0138772 0.0002632 0.0138772 0.0002632 0.0138772 0.9997368 -0.0138772
109 0.9997158 -0.0145103 0.0002842 0.0145103 0.0002842 0.0145103 0.9997158 -0.0145103
114 0.9996930 -0.0151722 0.0003070 0.0151722 0.0003070 0.0151722 0.9996930 -0.0151722
120 0.9996682 -0.0158643 0.0003318 0.0158643 0.0003318 0.0158643 0.9996682 -0.0158643
125 0.9996413 -0.0165879 0.0003587 0.0165879 0.0003587 0.0165879 0.9996413 -0.0165879
131 0.9996120 -0.0173445 0.0003880 0.0173445 0.0003880 0.0173445 0.9996120 -0.0173445
137 0.9995801 -0.0181356 0.0004199 0.0181356 0.0004199 0.0181356 0.9995801 -0.0181356
143 0.9995454 -0.0189627 0.0004546 0.0189627 0.0004546 0.0189627 0.9995454 -0.0189627
150 0.9995076 -0.0198275 0.0004924 0.0198275 0.0004924 0.0198275 0.9995076 -0.0198275
156 0.9994665 -0.0207317 0.0005335 0.0207317 0.0005335 0.0207317 0.9994665 -0.0207317
164 0.9994218 -0.0216770 0.0005782 0.0216770 0.0005782 0.0216770 0.9994218 -0.0216770
171 0.9993731 -0.0226654 0.0006269 0.0226654 0.0006269 0.0226654 0.9993731 -0.0226654
179 0.9993200 -0.0236987 0.0006800 0.0236987 0.0006800 0.0236987 0.9993200 -0.0236987
187 0.9992623 -0.0247789 0.0007377 0.0247789 0.0007377 0.0247789 0.9992623 -0.0247789
196 0.9991994 -0.0259083 0.0008006 0.0259083 0.0008006 0.0259083 0.9991994 -0.0259083
205 0.9991309 -0.0270891 0.0008691 0.0270891 0.0008691 0.0270891 0.9991309 -0.0270891
214 0.9990563 -0.0283234 0.0009437 0.0283234 0.0009437 0.0283234 0.9990563 -0.0283234
224 0.9989750 -0.0296138 0.0010250 0.0296138 0.0010250 0.0296138 0.9989750 -0.0296138
234 0.9988864 -0.0309628 0.0011136 0.0309628 0.0011136 0.0309628 0.9988864 -0.0309628
245 0.9987899 -0.0323730 0.0012101 0.0323730 0.0012101 0.0323730 0.9987899 -0.0323730
256 0.9986846 -0.0338471 0.0013154 0.0338471 0.0013154 0.0338471 0.9986846 -0.0338471
268 0.9985699 -0.0353880 0.0014301 0.0353880 0.0014301 0.0353880 0.9985699 -0.0353880
280 0.9984449 -0.0369986 0.0015551 0.0369986 0.0015551 0.0369986 0.9984449 -0.0369986
293 0.9983085 -0.0386821 0.0016915 0.0386821 0.0016915 0.0386821 0.9983085 -0.0386821
306 0.9981598 -0.0404418 0.0018402 0.0404418 0.0018402 0.0404418 0.9981598 -0.0404418
320 0.9979976 -0.0422808 0.0020024 0.0422808 0.0020024 0.0422808 0.9979976 -0.0422808
335 0.9978207 -0.0442029 0.0021793 0.0442029 0.0021793 0.0442029 0.9978207 -0.0442029
350 0.9976277 -0.0462115 0.0023723 0.0462115 0.0023723 0.0462115 0.9976277 -0.0462115
366 0.9974172 -0.0483105 0.0025828 0.0483105 0.0025828 0.0483105 0.9974172 -0.0483105
383 0.9971876 -0.0505038 0.0028124 0.0505038 0.0028124 0.0505038 0.9971876 -0.0505038
401 0.9969370 -0.0527955 0.0030630 0.0527955 0.0030630 0.0527955 0.9969370 -0.0527955
419 0.9966637 -0.0551898 0.0033363 0.0551898 0.0033363 0.0551898 0.9966637 -0.0551898
438 0.9963656 -0.0576911 0.0036344 0.0576911 0.0036344 0.0576911 0.9963656 -0.0576911
458 0.9960404 -0.0603041 0.0039596 0.0603041 0.0039596 0.0603041 0.9960404 -0.0603041
479 0.9956856 -0.0630333 0.0043144 0.0630333 0.0043144 0.0630333 0.9956856 -0.0630333
501 0.9952985 -0.0658837 0.0047015 0.0658837 0.0047015 0.0658837 0.9952985 -0.0658837
524 0.9948764 -0.0688604 0.0051236 0.0688604 0.0051236 0.0688604 0.9948764 -0.0688604
548 0.9944159 -0.0719685 0.0055841 0.0719685 0.0055841 0.0719685 0.9944159 -0.0719685
573 0.9939138 -0.0752134 0.0060862 0.0752134 0.0060862 0.0752134 0.9939138 -0.0752134
600 0.9933662 -0.0786008 0.0066338 0.0786008 0.0066338 0.0786008 0.9933662 -0.0786008
627 0.9927691 -0.0821363 0.0072309 0.0821363 0.0072309 0.0821363 0.9927691 -0.0821363
656 0.9921181 -0.0858258 0.0078819 0.0858258 0.0078819 0.0858258 0.9921181 -0.0858258
686 0.9914084 -0.0896754 0.0085916 0.0896754 0.0085916 0.0896754 0.9914084 -0.0896754
717 0.9906348 -0.0936912 0.0093652 0.0936912 0.0093652 0.0936912 0.9906348 -0.0936912
750 0.9897916 -0.0978795 0.0102084 0.0978795 0.0102084 0.0978795 0.9897916 -0.0978795
784 0.9888728 -0.1022469 0.0111272 0.1022469 0.0111272 0.1022469 0.9888728 -0.1022469
820 0.9878717 -0.1067998 0.0121283 0.1067998 0.0121283 0.1067998 0.9878717 -0.1067998
858 0.9867810 -0.1115449 0.0132190 0.1115449 0.0132190 0.1115449 0.9867810 -0.1115449
897 0.9855929 -0.1164889 0.0144071 0.1164889 0.0144071 0.1164889 0.9855929 -0.1164889
938 0.9842990 -0.1216385 0.0157010 0.1216385 0.0157010 0.1216385 0.9842990 -0.1216385
981 0.9828901 -0.1270005 0.0171099 0.1270005 0.0171099 0.1270005 0.9828901 -0.1270005
1026 0.9813562 -0.1325816 0.0186438 0.1325816 0.0186438 0.1325816 0.9813562 -0.1325816
1073 0.9796867 -0.1383884 0.0203133 0.1383884 0.0203133 0.1383884 0.9796867 -0.1383884
1122 0.9778699 -0.1444273 0.0221301 0.1444273 0.0221301 0.1444273 0.9778699 -0.1444273
1174 0.9758934 -0.1507046 0.0241066 0.1507046 0.0241066 0.1507046 0.9758934 -0.1507046
1227 0.9737437 -0.1572262 0.0262563 0.1572262 0.0262563 0.1572262 0.9737437 -0.1572262
1283 0.9714064 -0.1639977 0.0285936 0.1639977 0.0285936 0.1639977 0.9714064 -0.1639977
1342 0.9688659 -0.1710242 0.0311341 0.1710242 0.0311341 0.1710242 0.9688659 -0.1710242
1404 0.9661057 -0.1783103 0.0338943 0.1783103 0.0338943 0.1783103 0.9661057 -0.1783103
1468 0.9631079 -0.1858598 0.0368921 0.1858598 0.0368921 0.1858598 0.9631079 -0.1858598
1535 0.9598537 -0.1936757 0.0401463 0.1936757 0.0401463 0.1936757 0.9598537 -0.1936757
1606 0.9563230 -0.2017601 0.0436770 0.2017601 0.0436770 0.2017601 0.9563230 -0.2017601
1679 0.9524943 -0.2101137 0.0475057 0.2101137 0.0475057 0.2101137 0.9524943 -0.2101137
1756 0.9483452 -0.2187361 0.0516548 0.2187361 0.0516548 0.2187361 0.9483452 -0.2187361
1836 0.9438520 -0.2276254 0.0561480 0.2276254 0.0561480 0.2276254 0.9438520 -0.2276254
1920 0.9389897 -0.2367778 0.0610103 0.2367778 0.0610103 0.2367778 0.9389897 -0.2367778
2008 0.9337323 -0.2461877 0.0662677 0.2461877 0.0662677 0.2461877 0.9337323 -0.2461877
2100 0.9280530 -0.2558473 0.0719470 0.2558473 0.0719470 0.2558473 0.9280530 -0.2558473
2196 0.9219239 -0.2657462 0.0780761 0.2657462 0.0780761 0.2657462 0.9219239 -0.2657462
2297 0.9153163 -0.2758717 0.0846837 0.2758717 0.0846837 0.2758717 0.9153163 -0.2758717
2402 0.9082013 -0.2862077 0.0917987 0.2862077 0.0917987 0.2862077 0.9082013 -0.2862077
2512 0.9005495 -0.2967354 0.0994505 0.2967354 0.0994505 0.2967354 0.9005495 -0.2967354
2627 0.8923315 -0.3074322 0.1076685 0.3074322 0.1076685 0.3074322 0.8923315 -0.3074322
2748 0.8835183 -0.3182720 0.1164817 0.3182720 0.1164817 0.3182720 0.8835183 -0.3182720
2873 0.8740817 -0.3292251 0.1259183 0.3292251 0.1259183 0.3292251 0.8740817 -0.3292251
3005 0.8639947 -0.3402576 0.1360053 0.3402576 0.1360053 0.3402576 0.8639947 -0.3402576
3143 0.8532318 -0.3513314 0.1467682 0.3513314 0.1467682 0.3513314 0.8532318 -0.3513314
3287 0.8417700 -0.3624045 0.1582300 0.3624045 0.1582300 0.3624045 0.8417700 -0.3624045
3437 0.8295890 -0.3734305 0.1704110 0.3734305 0.1704110 0.3734305 0.8295890 -0.3734305
3594 0.8166720 -0.3843593 0.1833280 0.3843593 0.1833280 0.3843593 0.8166720 -0.3843593
3759 0.8030063 -0.3951367 0.1969937 0.3951367 0.1969937 0.3951367 0.8030063 -0.3951367
3931 0.7885839 -0.4057050 0.2114161 0.4057050 0.2114161 0.4057050 0.7885839 -0.4057050
4111 0.7734024 -0.4160035 0.2265976 0.4160035 0.2265976 0.4160035 0.7734024 -0.4160035
4299 0.7574654 -0.4259689 0.2425346 0.4259689 0.2425346 0.4259689 0.7574654 -0.4259689
4496 0.7407830 -0.4355360 0.2592170 0.4355360 0.2592170 0.4355360 0.7407830 -0.4355360
4702 0.7233726 -0.4446383 0.2766274 0.4446383 0.2766274 0.4446383 0.7233726 -0.4446383
4918 0.7052591 -0.4532094 0.2947409 0.4532094 0.2947409 0.4532094 0.7052591 -0.4532094
5143 0.6864750 -0.4611834 0.3135250 0.4611834 0.3135250 0.4611834 0.6864750 -0.4611834
5378 0.6670609 -0.4684964 0.3329391 0.4684964 0.3329391 0.4684964 0.6670609 -0.4684964
5625 0.6470652 -0.4750874 0.3529348 0.4750874 0.3529348 0.4750874 0.6470652 -0.4750874
5882 0.6265438 -0.4808996 0.3734562 0.4808996 0.3734562 0.4808996 0.6265438 -0.4808996
6151 0.6055597 -0.4858811 0.3944403 0.4858811 0.3944403 0.4858811 0.6055597 -0.4858811
6433 0.5841826 -0.4899867 0.4158174 0.4899867 0.4158174 0.4899867 0.5841826 -0.4899867
6728 0.5624877 -0.4931783 0.4375123 0.4931783 0.4375123 0.4931783 0.5624877 -0.4931783
7036 0.5405549 -0.4954258 0.4594451 0.4954258 0.4594451 0.4954258 0.5405549 -0.4954258
7358 0.5184677 -0.4967079 0.4815323 0.4967079 0.4815323 0.4967079 0.5184677 -0.4967079
7695 0.4963119 -0.4970126 0.5036881 0.4970126 0.5036881 0.4970126 0.4963119 -0.4970126
8047 0.4741743 -0.4963374 0.5258257 0.4963374 0.5258257 0.4963374 0.4741743 -0.4963374
8416 0.4521412 -0.4946894 0.5478588 0.4946894 0.5478588 0.4946894 0.4521412 -0.4946894
8801 0.4302972 -0.4920849 0.5697028 0.4920849 0.5697028 0.4920849 0.4302972 -0.4920849
9204 0.4087243 -0.4885494 0.5912757 0.4885494 0.5912757 0.4885494 0.4087243 -0.4885494
9626 0.3874998 -0.4841166 0.6125002 0.4841166 0.6125002 0.4841166 0.3874998 -0.4841166
10066 0.3666963 -0.4788279 0.6333037 0.4788279 0.6333037 0.4788279 0.3666963 -0.4788279
10527 0.3463801 -0.4727314 0.6536199 0.4727314 0.6536199 0.4727314 0.3463801 -0.4727314
11009 0.3266106 -0.4658809 0.6733894 0.4658809 0.6733894 0.4658809 0.3266106 -0.4658809
11514 0.3074402 -0.4583347 0.6925598 0.4583347 0.6925598 0.4583347 0.3074402 -0.4583347
12041 0.2889135 -0.4501547 0.7110865 0.4501547 0.7110865 0.4501547 0.2889135 -0.4501547
12592 0.2710674 -0.4414052 0.7289326 0.4414052 0.7289326 0.4414052 0.2710674 -0.4414052
13169 0.2539311 -0.4321517 0.7460689 0.4321517 0.7460689 0.4321517 0.2539311 -0.4321517
13772 0.2375261 -0.4224601 0.7624739 0.4224601 0.7624739 0.4224601 0.2375261 -0.4224601
14402 0.2218668 -0.4123956 0.7781332 0.4123956 0.7781332 0.4123956 0.2218668 -0.4123956
15062 0.2069608 -0.4020223 0.7930392 0.4020223 0.7930392 0.4020223 0.2069608 -0.4020223
15752 0.1928095 -0.3914016 0.8071905 0.3914016 0.8071905 0.3914016 0.1928095 -0.3914016
16473 0.1794085 -0.3805927 0.8205915 0.3805927 0.8205915 0.3805927 0.1794085 -0.3805927
17227 0.1667482 -0.3696512 0.8332518 0.3696512 0.8332518 0.3696512 0.1667482 -0.3696512
18016 0.1548147 -0.3586295 0.8451853 0.3586295 0.8451853 0.3586295 0.1548147 -0.3586295
18841 0.1435904 -0.3475758 0.8564096 0.3475758 0.8564096 0.3475758 0.1435904 -0.3475758
19704 0.1330543 -0.3365346 0.8669457 0.3365346 0.8669457 0.3365346 0.1330543 -0.3365346
20606 0.1231829 -0.3255462 0.8768171 0.3255462 0.8768171 0.3255462 0.1231829 -0.3255462
21550 0.1139507 -0.3146470 0.8860493 0.3146470 0.8860493 0.3146470 0.1139507 -0.3146470
22537 0.1053306 -0.3038692 0.8946694 0.3038692 0.8946694 0.3038692 0.1053306 -0.3038692
23569 0.0972946 -0.2932415 0.9027054 0.2932415 0.9027054 0.2932415 0.0972946 -0.2932415
24648 0.0898140 -0.2827884 0.9101860 0.2827884 0.9101860 0.2827884 0.0898140 -0.2827884
25777 0.0828596 -0.2725315 0.9171404 0.2725315 0.9171404 0.2725315 0.0828596 -0.2725315
26957 0.0764027 -0.2624886 0.9235973 0.2624886 0.9235973 0.2624886 0.0764027 -0.2624886
28191 0.0704146 -0.2526748 0.9295854 0.2526748 0.9295854 0.2526748 0.0704146 -0.2526748
29482 0.0648672 -0.2431022 0.9351328 0.2431022 0.9351328 0.2431022 0.0648672 -0.2431022
30832 0.0597331 -0.2337805 0.9402669 0.2337805 0.9402669 0.2337805 0.0597331 -0.2337805
32244 0.0549860 -0.2247170 0.9450140 0.2247170 0.9450140 0.2247170 0.0549860 -0.2247170
33721 0.0506003 -0.2159168 0.9493997 0.2159168 0.9493997 0.2159168 0.0506003 -0.2159168
35265 0.0465517 -0.2073832 0.9534483 0.2073832 0.9534483 0.2073832 0.0465517 -0.2073832
36880 0.0428169 -0.1991180 0.9571831 0.1991180 0.9571831 0.1991180 0.0428169 -0.1991180
38569 0.0393736 -0.1911214 0.9606264 0.1911214 0.9606264 0.1911214 0.0393736 -0.1911214
40335 0.0362012 -0.1833922 0.9637988 0.1833922 0.9637988 0.1833922 0.0362012 -0.1833922
42182 0.0332796 -0.1759283 0.9667204 0.1759283 0.9667204 0.1759283 0.0332796 -0.1759283
44113 0.0305905 -0.1687265 0.9694095 0.1687265 0.9694095 0.1687265 0.0305905 -0.1687265
46134 0.0281162 -0.1617830 0.9718838 0.1617830 0.9718838 0.1617830 0.0281162 -0.1617830
48246 0.0258406 -0.1550930 0.9741594 0.1550930 0.9741594 0.1550930 0.0258406 -0.1550930
50455 0.0237483 -0.1486515 0.9762517 0.1486515 0.9762517 0.1486515 0.0237483 -0.1486515
52766 0.0218251 -0.1424527 0.9781749 0.1424527 0.9781749 0.1424527 0.0218251 -0.1424527
55182 0.0200578 -0.1364907 0.9799422 0.1364907 0.9799422 0.1364907 0.0200578 -0.1364907
57709 0.0184340 -0.1307592 0.9815660 0.1307592 0.9815660 0.1307592 0.0184340 -0.1307592
60352 0.0169425 -0.1252517 0.9830575 0.1252517 0.9830575 0.1252517 0.0169425 -0.1252517
63115 0.0155726 -0.1199616 0.9844274 0.1199616 0.9844274 0.1199616 0.0155726 -0.1199616
66005 0.0143145 -0.1148820 0.9856855 0.1148820 0.9856855 0.1148820 0.0143145 -0.1148820
69028 0.0131592 -0.1100062 0.9868408 0.1100062 0.9868408 0.1100062 0.0131592 -0.1100062
72189 0.0120984 -0.1053275 0.9879016 0.1053275 0.9879016 0.1053275 0.0120984 -0.1053275
75495 0.0111245 -0.1008391 0.9888755 0.1008391 0.9888755 0.1008391 0.0111245 -0.1008391
78952 0.0102302 -0.0965343 0.9897698 0.0965343 0.9897698 0.0965343 0.0102302 -0.0965343
82567 0.0094092 -0.0924065 0.9905908 0.0924065 0.9905908 0.0924065 0.0094092 -0.0924065
86348 0.0086555 -0.0884492 0.9913445 0.0884492 0.9913445 0.0884492 0.0086555 -0.0884492
90302 0.0079635 -0.0846562 0.9920365 0.0846562 0.9920365 0.0846562 0.0079635 -0.0846562
94437 0.0073282 -0.0810211 0.9926718 0.0810211 0.9926718 0.0810211 0.0073282 -0.0810211
98762 0.0067449 -0.0775380 0.9932551 0.0775380 0.9932551 0.0775380 0.0067449 -0.0775380
103284 0.0062094 -0.0742009 0.9937906 0.0742009 0.9937906 0.0742009 0.0062094 -0.0742009
108014 0.0057178 -0.0710042 0.9942822 0.0710042 0.9942822 0.0710042 0.0057178 -0.0710042
112960 0.0052665 -0.0679422 0.9947335 0.0679422 0.9947335 0.0679422 0.0052665 -0.0679422
118133 0.0048522 -0.0650097 0.9951478 0.0650097 0.9951478 0.0650097 0.0048522 -0.0650097
123542 0.0044719 -0.0622015 0.9955281 0.0622015 0.9955281 0.0622015 0.0044719 -0.0622015
129199 0.0041227 -0.0595125 0.9958773 0.0595125 0.9958773 0.0595125 0.0041227 -0.0595125
135116 0.0038022 -0.0569379 0.9961978 0.0569379 0.9961978 0.0569379 0.0038022 -0.0569379
141303 0.0035081 -0.0544730 0.9964919 0.0544730 0.9964919 0.0544730 0.0035081 -0.0544730
147774 0.0032381 -0.0521133 0.9967619 0.0521133 0.9967619 0.0521133 0.0032381 -0.0521133
154540 0.0029902 -0.0498546 0.9970098 0.0498546 0.9970098 0.0498546 0.0029902 -0.0498546
161617 0.0027628 -0.0476926 0.9972372 0.0476926 0.9972372 0.0476926 0.0027628 -0.0476926
169018 0.0025540 -0.0456234 0.9974460 0.0456234 0.9974460 0.0456234 0.0025540 -0.0456234
176758 0.0023625 -0.0436431 0.9976375 0.0436431 0.9976375 0.0436431 0.0023625 -0.0436431
184852 0.0021866 -0.0417479 0.9978134 0.0417479 0.9978134 0.0417479 0.0021866 -0.0417479
193316 0.0020253 -0.0399344 0.9979747 0.0399344 0.9979747 0.0399344 0.0020253 -0.0399344
202169 0.0018772 -0.0381991 0.9981228 0.0381991 0.9981228 0.0381991 0.0018772 -0.0381991
211427 0.0017414 -0.0365386 0.9982586 0.0365386 0.9982586 0.0365386 0.0017414 -0.0365386
221108 0.0016166 -0.0349500 0.9983834 0.0349500 0.9983834 0.0349500 0.0016166 -0.0349500
231233 0.0015021 -0.0334300 0.9984979 0.0334300 0.9984979 0.0334300 0.0015021 -0.0334300
241822 0.0013970 -0.0319759 0.9986030 0.0319759 0.9986030 0.0319759 0.0013970 -0.0319759
252896 0.0013005 -0.0305848 0.9986995 0.0305848 0.9986995 0.0305848 0.0013005 -0.0305848
264476 0.0012119 -0.0292540 0.9987881 0.0292540 0.9987881 0.0292540 0.0012119 -0.0292540
276587 0.0011305 -0.0279809 0.9988695 0.0279809 0.9988695 0.0279809 0.0011305 -0.0279809
289253 0.0010556 -0.0267632 0.9989444 0.0267632 0.9989444 0.0267632 0.0010556 -0.0267632
302498 0.0009869 -0.0255984 0.9990131 0.0255984 0.9990131 0.0255984 0.0009869 -0.0255984
316350 0.0009236 -0.0244842 0.9990764 0.0244842 0.9990764 0.0244842 0.0009236 -0.0244842
330837 0.0008654 -0.0234184 0.9991346 0.0234184 0.9991346 0.0234184 0.0008654 -0.0234184
345986 0.0008118 -0.0223991 0.9991882 0.0223991 0.9991882 0.0223991 0.0008118 -0.0223991
361830 0.0007624 -0.0214241 0.9992376 0.0214241 0.9992376 0.0214241 0.0007624 -0.0214241
378399 0.0007168 -0.0204915 0.9992832 0.0204915 0.9992832 0.0204915 0.0007168 -0.0204915
395726 0.0006748 -0.0195995 0.9993252 0.0195995 0.9993252 0.0195995 0.0006748 -0.0195995
413847 0.0006360 -0.0187464 0.9993640 0.0187464 0.9993640 0.0187464 0.0006360 -0.0187464
432798 0.0006002 -0.0179304 0.9993998 0.0179304 0.9993998 0.0179304 0.0006002 -0.0179304
452617 0.0005670 -0.0171499 0.9994330 0.0171499 0.9994330 0.0171499 0.0005670 -0.0171499
473344 0.0005363 -0.0164034 0.9994637 0.0164034 0.9994637 0.0164034 0.0005363 -0.0164034
495019 0.0005078 -0.0156893 0.9994922 0.0156893 0.9994922 0.0156893 0.0005078 -0.0156893
517687 0.0004813 -0.0150063 0.9995187 0.0150063 0.9995187 0.0150063 0.0004813 -0.0150063
541393 0.0004568 -0.0143530 0.9995432 0.0143530 0.9995432 0.0143530 0.0004568 -0.0143530
566185 0.0004339 -0.0137280 0.9995661 0.0137280 0.9995661 0.0137280 0.0004339 -0.0137280
592111 0.0004127 -0.0131302 0.9995873 0.0131302 0.9995873 0.0131302 0.0004127 -0.0131302
619225 0.0003929 -0.0125582 0.9996071 0.0125582 0.9996071 0.0125582 0.0003929 -0.0125582
647581 0.0003744 -0.0120111 0.9996256 0.0120111 0.9996256 0.0120111 0.0003744 -0.0120111
677235 0.0003571 -0.0114877 0.9996429 0.0114877 0.9996429 0.0114877 0.0003571 -0.0114877
708247 0.0003411 -0.0109869 0.9996589 0.0109869 0.9996589 0.0109869 0.0003411 -0.0109869
740679 0.0003260 -0.0105078 0.9996740 0.0105078 0.9996740 0.0105078 0.0003260 -0.0105078
774597 0.0003120 -0.0100494 0.9996880 0.0100494 0.9996880 0.0100494 0.0003120 -0.0100494
810067 0.0002988 -0.0096107 0.9997012 0.0096107 0.9997012 0.0096107 0.0002988 -0.0096107
847162 0.0002865 -0.0091910 0.9997135 0.0091910 0.9997135 0.0091910 0.0002865 -0.0091910
885955 0.0002750 -0.0087893 0.9997250 0.0087893 0.9997250 0.0087893 0.0002750 -0.0087893
926525 0.0002643 -0.0084050 0.9997357 0.0084050 0.9997357 0.0084050 0.0002643 -0.0084050
968953 0.0002543 -0.0080372 0.9997457 0.0080372 0.9997457 0.0080372 0.0002543 -0.0080372
1013323 0.0002449 -0.0076852 0.9997551 0.0076852 0.9997551 0.0076852 0.0002449 -0.0076852
1059725 0.0002361 -0.0073483 0.9997639 0.0073483 0.9997639 0.0073483 0.0002361 -0.0073483
1108252 0.0002279 -0.0070259 0.9997721 0.0070259 0.9997721 0.0070259 0.0002279 -0.0070259
1159002 0.0002202 -0.0067173 0.9997798 0.0067173 0.9997798 0.0067173 0.0002202 -0.0067173
1212075 0.0002130 -0.0064219 0.9997870 0.0064219 0.9997870 0.0064219 0.0002130 -0.0064219
1267578 0.0002064 -0.0061392 0.9997936 0.0061392 0.9997936 0.0061392 0.0002064 -0.0061392
1325623 0.0002001 -0.0058686 0.9997999 0.0058686 0.9997999 0.0058686 0.0002001 -0.0058686
1386327 0.0001943 -0.0056095 0.9998057 0.0056095 0.9998057 0.0056095 0.0001943 -0.0056095
1449809 0.0001889 -0.0053615 0.9998111 0.0053615 0.9998111 0.0053615 0.0001889 -0.0053615
1516199 0.0001839 -0.0051241 0.9998161 0.0051241 0.9998161 0.0051241 0.0001839 -0.0051241
1585629 0.0001792 -0.0048968 0.9998208 0.0048968 0.9998208 0.0048968 0.0001792 -0.0048968
1658239 0.0001748 -0.0046792 0.9998252 0.0046792 0.9998252 0.0046792 0.0001748 -0.0046792
1734173 0.0001707 -0.0044708 0.9998293 0.0044708 0.9998293 0.0044708 0.0001707 -0.0044708
1813585 0.0001669 -0.0042712 0.9998331 0.0042712 0.9998331 0.0042712 0.0001669 -0.0042712
1896632 0.0001634 -0.0040801 0.9998366 0.0040801 0.9998366 0.0040801 0.0001634 -0.0040801
1983483 0.0001601 -0.0038971 0.9998399 0.0038971 0.9998399 0.0038971 0.0001601 -0.0038971
2074311 0.0001571 -0.0037217 0.9998429 0.0037217 0.9998429 0.0037217 0.0001571 -0.0037217
