!Murata Part Number: GRM188B11E222MA01
!These Parameters are Measured in Series Mode Connection
!Data Generated on Mar 30, 2021
!       o--ll--o
!Port1            Port2
!       o------o
!Operation Temp=25[degC], DC Bias Voltage=0[V]
!Freq. Start=100[Hz] Stop=6[GHz] 401[Steps]
# Hz S RI R 50
!Freq.(Hz) S11(Real) S11(Imag) S21(Real) S21(Imag) S12(Real) S12(Imag) S22(Real) S22(Imag)
100 0.9999992 -0.0001386 0.0000008 0.0001386 0.0000008 0.0001386 0.9999992 -0.0001386
105 0.9999992 -0.0001449 0.0000008 0.0001449 0.0000008 0.0001449 0.9999992 -0.0001449
109 0.9999991 -0.0001515 0.0000009 0.0001515 0.0000009 0.0001515 0.9999991 -0.0001515
114 0.9999991 -0.0001585 0.0000009 0.0001585 0.0000009 0.0001585 0.9999991 -0.0001585
120 0.9999991 -0.0001657 0.0000009 0.0001657 0.0000009 0.0001657 0.9999991 -0.0001657
125 0.9999990 -0.0001732 0.0000010 0.0001732 0.0000010 0.0001732 0.9999990 -0.0001732
131 0.9999990 -0.0001811 0.0000010 0.0001811 0.0000010 0.0001811 0.9999990 -0.0001811
137 0.9999990 -0.0001894 0.0000010 0.0001894 0.0000010 0.0001894 0.9999990 -0.0001894
143 0.9999989 -0.0001980 0.0000011 0.0001980 0.0000011 0.0001980 0.9999989 -0.0001980
150 0.9999989 -0.0002071 0.0000011 0.0002071 0.0000011 0.0002071 0.9999989 -0.0002071
156 0.9999988 -0.0002165 0.0000012 0.0002165 0.0000012 0.0002165 0.9999988 -0.0002165
164 0.9999988 -0.0002264 0.0000012 0.0002264 0.0000012 0.0002264 0.9999988 -0.0002264
171 0.9999988 -0.0002368 0.0000012 0.0002368 0.0000012 0.0002368 0.9999988 -0.0002368
179 0.9999987 -0.0002476 0.0000013 0.0002476 0.0000013 0.0002476 0.9999987 -0.0002476
187 0.9999987 -0.0002589 0.0000013 0.0002589 0.0000013 0.0002589 0.9999987 -0.0002589
196 0.9999986 -0.0002707 0.0000014 0.0002707 0.0000014 0.0002707 0.9999986 -0.0002707
205 0.9999985 -0.0002830 0.0000015 0.0002830 0.0000015 0.0002830 0.9999985 -0.0002830
214 0.9999985 -0.0002960 0.0000015 0.0002960 0.0000015 0.0002960 0.9999985 -0.0002960
224 0.9999984 -0.0003095 0.0000016 0.0003095 0.0000016 0.0003095 0.9999984 -0.0003095
234 0.9999984 -0.0003236 0.0000016 0.0003236 0.0000016 0.0003236 0.9999984 -0.0003236
245 0.9999983 -0.0003384 0.0000017 0.0003384 0.0000017 0.0003384 0.9999983 -0.0003384
256 0.9999982 -0.0003538 0.0000018 0.0003538 0.0000018 0.0003538 0.9999982 -0.0003538
268 0.9999981 -0.0003700 0.0000019 0.0003700 0.0000019 0.0003700 0.9999981 -0.0003700
280 0.9999981 -0.0003869 0.0000019 0.0003869 0.0000019 0.0003869 0.9999981 -0.0003869
293 0.9999980 -0.0004046 0.0000020 0.0004046 0.0000020 0.0004046 0.9999980 -0.0004046
306 0.9999979 -0.0004230 0.0000021 0.0004230 0.0000021 0.0004230 0.9999979 -0.0004230
320 0.9999978 -0.0004424 0.0000022 0.0004424 0.0000022 0.0004424 0.9999978 -0.0004424
335 0.9999977 -0.0004626 0.0000023 0.0004626 0.0000023 0.0004626 0.9999977 -0.0004626
350 0.9999976 -0.0004837 0.0000024 0.0004837 0.0000024 0.0004837 0.9999976 -0.0004837
366 0.9999975 -0.0005058 0.0000025 0.0005058 0.0000025 0.0005058 0.9999975 -0.0005058
383 0.9999973 -0.0005289 0.0000027 0.0005289 0.0000027 0.0005289 0.9999973 -0.0005289
401 0.9999972 -0.0005530 0.0000028 0.0005530 0.0000028 0.0005530 0.9999972 -0.0005530
419 0.9999971 -0.0005783 0.0000029 0.0005783 0.0000029 0.0005783 0.9999971 -0.0005783
438 0.9999969 -0.0006047 0.0000031 0.0006047 0.0000031 0.0006047 0.9999969 -0.0006047
458 0.9999968 -0.0006323 0.0000032 0.0006323 0.0000032 0.0006323 0.9999968 -0.0006323
479 0.9999966 -0.0006612 0.0000034 0.0006612 0.0000034 0.0006612 0.9999966 -0.0006612
501 0.9999964 -0.0006914 0.0000036 0.0006914 0.0000036 0.0006914 0.9999964 -0.0006914
524 0.9999962 -0.0007230 0.0000038 0.0007230 0.0000038 0.0007230 0.9999962 -0.0007230
548 0.9999960 -0.0007560 0.0000040 0.0007560 0.0000040 0.0007560 0.9999960 -0.0007560
573 0.9999958 -0.0007906 0.0000042 0.0007906 0.0000042 0.0007906 0.9999958 -0.0007906
600 0.9999956 -0.0008267 0.0000044 0.0008267 0.0000044 0.0008267 0.9999956 -0.0008267
627 0.9999954 -0.0008644 0.0000046 0.0008644 0.0000046 0.0008644 0.9999954 -0.0008644
656 0.9999951 -0.0009039 0.0000049 0.0009039 0.0000049 0.0009039 0.9999951 -0.0009039
686 0.9999948 -0.0009452 0.0000052 0.0009452 0.0000052 0.0009452 0.9999948 -0.0009452
717 0.9999945 -0.0009884 0.0000055 0.0009884 0.0000055 0.0009884 0.9999945 -0.0009884
750 0.9999942 -0.0010335 0.0000058 0.0010335 0.0000058 0.0010335 0.9999942 -0.0010335
784 0.9999939 -0.0010807 0.0000061 0.0010807 0.0000061 0.0010807 0.9999939 -0.0010807
820 0.9999935 -0.0011301 0.0000065 0.0011301 0.0000065 0.0011301 0.9999935 -0.0011301
858 0.9999931 -0.0011817 0.0000069 0.0011817 0.0000069 0.0011817 0.9999931 -0.0011817
897 0.9999927 -0.0012356 0.0000073 0.0012356 0.0000073 0.0012356 0.9999927 -0.0012356
938 0.9999923 -0.0012920 0.0000077 0.0012920 0.0000077 0.0012920 0.9999923 -0.0012920
981 0.9999918 -0.0013510 0.0000082 0.0013510 0.0000082 0.0013510 0.9999918 -0.0013510
1026 0.9999913 -0.0014127 0.0000087 0.0014127 0.0000087 0.0014127 0.9999913 -0.0014127
1073 0.9999908 -0.0014772 0.0000092 0.0014772 0.0000092 0.0014772 0.9999908 -0.0014772
1122 0.9999902 -0.0015446 0.0000098 0.0015446 0.0000098 0.0015446 0.9999902 -0.0015446
1174 0.9999897 -0.0016151 0.0000103 0.0016151 0.0000103 0.0016151 0.9999897 -0.0016151
1227 0.9999890 -0.0016888 0.0000110 0.0016888 0.0000110 0.0016888 0.9999890 -0.0016888
1283 0.9999883 -0.0017659 0.0000117 0.0017659 0.0000117 0.0017659 0.9999883 -0.0017659
1342 0.9999876 -0.0018465 0.0000124 0.0018465 0.0000124 0.0018465 0.9999876 -0.0018465
1404 0.9999869 -0.0019308 0.0000131 0.0019308 0.0000131 0.0019308 0.9999869 -0.0019308
1468 0.9999861 -0.0020189 0.0000139 0.0020189 0.0000139 0.0020189 0.9999861 -0.0020189
1535 0.9999852 -0.0021110 0.0000148 0.0021110 0.0000148 0.0021110 0.9999852 -0.0021110
1606 0.9999843 -0.0022073 0.0000157 0.0022073 0.0000157 0.0022073 0.9999843 -0.0022073
1679 0.9999833 -0.0023081 0.0000167 0.0023081 0.0000167 0.0023081 0.9999833 -0.0023081
1756 0.9999823 -0.0024134 0.0000177 0.0024134 0.0000177 0.0024134 0.9999823 -0.0024134
1836 0.9999812 -0.0025235 0.0000188 0.0025235 0.0000188 0.0025235 0.9999812 -0.0025235
1920 0.9999801 -0.0026387 0.0000199 0.0026387 0.0000199 0.0026387 0.9999801 -0.0026387
2008 0.9999788 -0.0027591 0.0000212 0.0027591 0.0000212 0.0027591 0.9999788 -0.0027591
2100 0.9999775 -0.0028850 0.0000225 0.0028850 0.0000225 0.0028850 0.9999775 -0.0028850
2196 0.9999761 -0.0030166 0.0000239 0.0030166 0.0000239 0.0030166 0.9999761 -0.0030166
2297 0.9999746 -0.0031543 0.0000254 0.0031543 0.0000254 0.0031543 0.9999746 -0.0031543
2402 0.9999730 -0.0032983 0.0000270 0.0032983 0.0000270 0.0032983 0.9999730 -0.0032983
2512 0.9999713 -0.0034488 0.0000287 0.0034488 0.0000287 0.0034488 0.9999713 -0.0034488
2627 0.9999695 -0.0036063 0.0000305 0.0036063 0.0000305 0.0036063 0.9999695 -0.0036063
2748 0.9999675 -0.0037709 0.0000325 0.0037709 0.0000325 0.0037709 0.9999675 -0.0037709
2873 0.9999653 -0.0039430 0.0000347 0.0039430 0.0000347 0.0039430 0.9999653 -0.0039430
3005 0.9999630 -0.0041230 0.0000370 0.0041230 0.0000370 0.0041230 0.9999630 -0.0041230
3143 0.9999606 -0.0043113 0.0000394 0.0043113 0.0000394 0.0043113 0.9999606 -0.0043113
3287 0.9999579 -0.0045081 0.0000421 0.0045081 0.0000421 0.0045081 0.9999579 -0.0045081
3437 0.9999550 -0.0047140 0.0000450 0.0047140 0.0000450 0.0047140 0.9999550 -0.0047140
3594 0.9999519 -0.0049292 0.0000481 0.0049292 0.0000481 0.0049292 0.9999519 -0.0049292
3759 0.9999485 -0.0051543 0.0000515 0.0051543 0.0000515 0.0051543 0.9999485 -0.0051543
3931 0.9999449 -0.0053896 0.0000551 0.0053896 0.0000551 0.0053896 0.9999449 -0.0053896
4111 0.9999409 -0.0056357 0.0000591 0.0056357 0.0000591 0.0056357 0.9999409 -0.0056357
4299 0.9999366 -0.0058931 0.0000634 0.0058931 0.0000634 0.0058931 0.9999366 -0.0058931
4496 0.9999320 -0.0061622 0.0000680 0.0061622 0.0000680 0.0061622 0.9999320 -0.0061622
4702 0.9999270 -0.0064435 0.0000730 0.0064435 0.0000730 0.0064435 0.9999270 -0.0064435
4918 0.9999215 -0.0067377 0.0000785 0.0067377 0.0000785 0.0067377 0.9999215 -0.0067377
5143 0.9999156 -0.0070454 0.0000844 0.0070454 0.0000844 0.0070454 0.9999156 -0.0070454
5378 0.9999092 -0.0073670 0.0000908 0.0073670 0.0000908 0.0073670 0.9999092 -0.0073670
5625 0.9999022 -0.0077033 0.0000978 0.0077033 0.0000978 0.0077033 0.9999022 -0.0077033
5882 0.9998947 -0.0080550 0.0001053 0.0080550 0.0001053 0.0080550 0.9998947 -0.0080550
6151 0.9998865 -0.0084226 0.0001135 0.0084226 0.0001135 0.0084226 0.9998865 -0.0084226
6433 0.9998776 -0.0088071 0.0001224 0.0088071 0.0001224 0.0088071 0.9998776 -0.0088071
6728 0.9998680 -0.0092090 0.0001320 0.0092090 0.0001320 0.0092090 0.9998680 -0.0092090
7036 0.9998576 -0.0096292 0.0001424 0.0096292 0.0001424 0.0096292 0.9998576 -0.0096292
7358 0.9998462 -0.0100686 0.0001538 0.0100686 0.0001538 0.0100686 0.9998462 -0.0100686
7695 0.9998340 -0.0105279 0.0001660 0.0105279 0.0001660 0.0105279 0.9998340 -0.0105279
8047 0.9998207 -0.0110082 0.0001793 0.0110082 0.0001793 0.0110082 0.9998207 -0.0110082
8416 0.9998063 -0.0115104 0.0001937 0.0115104 0.0001937 0.0115104 0.9998063 -0.0115104
8801 0.9997907 -0.0120353 0.0002093 0.0120353 0.0002093 0.0120353 0.9997907 -0.0120353
9204 0.9997737 -0.0125842 0.0002263 0.0125842 0.0002263 0.0125842 0.9997737 -0.0125842
9626 0.9997554 -0.0131580 0.0002446 0.0131580 0.0002446 0.0131580 0.9997554 -0.0131580
10066 0.9997355 -0.0137580 0.0002645 0.0137580 0.0002645 0.0137580 0.9997355 -0.0137580
10527 0.9997140 -0.0143852 0.0002860 0.0143852 0.0002860 0.0143852 0.9997140 -0.0143852
11009 0.9996907 -0.0150410 0.0003093 0.0150410 0.0003093 0.0150410 0.9996907 -0.0150410
11514 0.9996654 -0.0157267 0.0003346 0.0157267 0.0003346 0.0157267 0.9996654 -0.0157267
12041 0.9996379 -0.0164435 0.0003621 0.0164435 0.0003621 0.0164435 0.9996379 -0.0164435
12592 0.9996082 -0.0171930 0.0003918 0.0171930 0.0003918 0.0171930 0.9996082 -0.0171930
13169 0.9995759 -0.0179765 0.0004241 0.0179765 0.0004241 0.0179765 0.9995759 -0.0179765
13772 0.9995409 -0.0187958 0.0004591 0.0187958 0.0004591 0.0187958 0.9995409 -0.0187958
14402 0.9995028 -0.0196523 0.0004972 0.0196523 0.0004972 0.0196523 0.9995028 -0.0196523
15062 0.9994616 -0.0205478 0.0005384 0.0205478 0.0005384 0.0205478 0.9994616 -0.0205478
15752 0.9994167 -0.0214840 0.0005833 0.0214840 0.0005833 0.0214840 0.9994167 -0.0214840
16473 0.9993679 -0.0224629 0.0006321 0.0224629 0.0006321 0.0224629 0.9993679 -0.0224629
17227 0.9993149 -0.0234864 0.0006851 0.0234864 0.0006851 0.0234864 0.9993149 -0.0234864
18016 0.9992572 -0.0245564 0.0007428 0.0245564 0.0007428 0.0245564 0.9992572 -0.0245564
18841 0.9991945 -0.0256750 0.0008055 0.0256750 0.0008055 0.0256750 0.9991945 -0.0256750
19704 0.9991262 -0.0268446 0.0008738 0.0268446 0.0008738 0.0268446 0.9991262 -0.0268446
20606 0.9990518 -0.0280673 0.0009482 0.0280673 0.0009482 0.0280673 0.9990518 -0.0280673
21550 0.9989708 -0.0293456 0.0010292 0.0293456 0.0010292 0.0293456 0.9989708 -0.0293456
22537 0.9988826 -0.0306820 0.0011174 0.0306820 0.0011174 0.0306820 0.9988826 -0.0306820
23569 0.9987864 -0.0320790 0.0012136 0.0320790 0.0012136 0.0320790 0.9987864 -0.0320790
24648 0.9986815 -0.0335394 0.0013185 0.0335394 0.0013185 0.0335394 0.9986815 -0.0335394
25777 0.9985672 -0.0350660 0.0014328 0.0350660 0.0014328 0.0350660 0.9985672 -0.0350660
26957 0.9984426 -0.0366618 0.0015574 0.0366618 0.0015574 0.0366618 0.9984426 -0.0366618
28191 0.9983066 -0.0383297 0.0016934 0.0383297 0.0016934 0.0383297 0.9983066 -0.0383297
29482 0.9981582 -0.0400731 0.0018418 0.0400731 0.0018418 0.0400731 0.9981582 -0.0400731
30832 0.9979964 -0.0418952 0.0020036 0.0418952 0.0020036 0.0418952 0.9979964 -0.0418952
32244 0.9978199 -0.0437995 0.0021801 0.0437995 0.0021801 0.0437995 0.9978199 -0.0437995
33721 0.9976272 -0.0457895 0.0023728 0.0457895 0.0023728 0.0457895 0.9976272 -0.0457895
35265 0.9974170 -0.0478691 0.0025830 0.0478691 0.0025830 0.0478691 0.9974170 -0.0478691
36880 0.9971877 -0.0500420 0.0028123 0.0500420 0.0028123 0.0500420 0.9971877 -0.0500420
38569 0.9969374 -0.0523122 0.0030626 0.0523122 0.0030626 0.0523122 0.9969374 -0.0523122
40335 0.9966644 -0.0546841 0.0033356 0.0546841 0.0033356 0.0546841 0.9966644 -0.0546841
42182 0.9963665 -0.0571618 0.0036335 0.0571618 0.0036335 0.0571618 0.9963665 -0.0571618
44113 0.9960415 -0.0597499 0.0039585 0.0597499 0.0039585 0.0597499 0.9960415 -0.0597499
46134 0.9956870 -0.0624529 0.0043130 0.0624529 0.0043130 0.0624529 0.9956870 -0.0624529
48246 0.9953002 -0.0652758 0.0046998 0.0652758 0.0046998 0.0652758 0.9953002 -0.0652758
50455 0.9948785 -0.0682235 0.0051215 0.0682235 0.0051215 0.0682235 0.9948785 -0.0682235
52766 0.9944185 -0.0713010 0.0055815 0.0713010 0.0055815 0.0713010 0.9944185 -0.0713010
55182 0.9939170 -0.0745137 0.0060830 0.0745137 0.0060830 0.0745137 0.9939170 -0.0745137
57709 0.9933701 -0.0778671 0.0066299 0.0778671 0.0066299 0.0778671 0.9933701 -0.0778671
60352 0.9927741 -0.0813667 0.0072259 0.0813667 0.0072259 0.0813667 0.9927741 -0.0813667
63115 0.9921244 -0.0850184 0.0078756 0.0850184 0.0078756 0.0850184 0.9921244 -0.0850184
66005 0.9914163 -0.0888279 0.0085837 0.0888279 0.0085837 0.0888279 0.9914163 -0.0888279
69028 0.9906449 -0.0928015 0.0093551 0.0928015 0.0093551 0.0928015 0.9906449 -0.0928015
72189 0.9898044 -0.0969453 0.0101956 0.0969453 0.0101956 0.0969453 0.9898044 -0.0969453
75495 0.9888889 -0.1012657 0.0111111 0.1012657 0.0111111 0.1012657 0.9888889 -0.1012657
78952 0.9878919 -0.1057689 0.0121081 0.1057689 0.0121081 0.1057689 0.9878919 -0.1057689
82567 0.9868062 -0.1104617 0.0131938 0.1104617 0.0131938 0.1104617 0.9868062 -0.1104617
86348 0.9856243 -0.1153505 0.0143757 0.1153505 0.0143757 0.1153505 0.9856243 -0.1153505
90302 0.9843378 -0.1204420 0.0156622 0.1204420 0.0156622 0.1204420 0.9843378 -0.1204420
94437 0.9829377 -0.1257428 0.0170623 0.1257428 0.0170623 0.1257428 0.9829377 -0.1257428
98762 0.9814143 -0.1312594 0.0185857 0.1312594 0.0185857 0.1312594 0.9814143 -0.1312594
103284 0.9797571 -0.1369985 0.0202429 0.1369985 0.0202429 0.1369985 0.9797571 -0.1369985
108014 0.9779548 -0.1429663 0.0220452 0.1429663 0.0220452 0.1429663 0.9779548 -0.1429663
112960 0.9759951 -0.1491691 0.0240049 0.1491691 0.0240049 0.1491691 0.9759951 -0.1491691
118133 0.9738650 -0.1556126 0.0261350 0.1556126 0.0261350 0.1556126 0.9738650 -0.1556126
123542 0.9715502 -0.1623026 0.0284498 0.1623026 0.0284498 0.1623026 0.9715502 -0.1623026
129199 0.9690355 -0.1692439 0.0309645 0.1692439 0.0309645 0.1692439 0.9690355 -0.1692439
135116 0.9663048 -0.1764413 0.0336952 0.1764413 0.0336952 0.1764413 0.9663048 -0.1764413
141303 0.9633405 -0.1838984 0.0366595 0.1838984 0.0366595 0.1838984 0.9633405 -0.1838984
147774 0.9601242 -0.1916185 0.0398758 0.1916185 0.0398758 0.1916185 0.9601242 -0.1916185
154540 0.9566362 -0.1996035 0.0433638 0.1996035 0.0433638 0.1996035 0.9566362 -0.1996035
161617 0.9528554 -0.2078544 0.0471446 0.2078544 0.0471446 0.2078544 0.9528554 -0.2078544
169018 0.9487599 -0.2163709 0.0512401 0.2163709 0.0512401 0.2163709 0.9487599 -0.2163709
176758 0.9443262 -0.2251513 0.0556738 0.2251513 0.0556738 0.2251513 0.9443262 -0.2251513
184852 0.9395301 -0.2341919 0.0604699 0.2341919 0.0604699 0.2341919 0.9395301 -0.2341919
193316 0.9343460 -0.2434875 0.0656540 0.2434875 0.0656540 0.2434875 0.9343460 -0.2434875
202169 0.9287474 -0.2530305 0.0712526 0.2530305 0.0712526 0.2530305 0.9287474 -0.2530305
211427 0.9227070 -0.2628110 0.0772930 0.2628110 0.0772930 0.2628110 0.9227070 -0.2628110
221108 0.9161968 -0.2728165 0.0838032 0.2728165 0.0838032 0.2728165 0.9161968 -0.2728165
231233 0.9091881 -0.2830317 0.0908119 0.2830317 0.0908119 0.2830317 0.9091881 -0.2830317
241822 0.9016521 -0.2934382 0.0983479 0.2934382 0.0983479 0.2934382 0.9016521 -0.2934382
252896 0.8935599 -0.3040142 0.1064401 0.3040142 0.1064401 0.3040142 0.8935599 -0.3040142
264476 0.8848830 -0.3147343 0.1151170 0.3147343 0.1151170 0.3147343 0.8848830 -0.3147343
276587 0.8755936 -0.3255696 0.1244064 0.3255696 0.1244064 0.3255696 0.8755936 -0.3255696
289253 0.8656649 -0.3364871 0.1343351 0.3364871 0.1343351 0.3364871 0.8656649 -0.3364871
302498 0.8550720 -0.3474499 0.1449280 0.3474499 0.1449280 0.3474499 0.8550720 -0.3474499
316350 0.8437919 -0.3584169 0.1562081 0.3584169 0.1562081 0.3584169 0.8437919 -0.3584169
330837 0.8318044 -0.3693433 0.1681956 0.3693433 0.1681956 0.3693433 0.8318044 -0.3693433
345986 0.8190927 -0.3801801 0.1809073 0.3801801 0.1809073 0.3801801 0.8190927 -0.3801801
361830 0.8056440 -0.3908745 0.1943560 0.3908745 0.1943560 0.3908745 0.8056440 -0.3908745
378399 0.7914499 -0.4013703 0.2085501 0.4013703 0.2085501 0.4013703 0.7914499 -0.4013703
395726 0.7765074 -0.4116085 0.2234926 0.4116085 0.2234926 0.4116085 0.7765074 -0.4116085
413847 0.7608195 -0.4215270 0.2391805 0.4215270 0.2391805 0.4215270 0.7608195 -0.4215270
432798 0.7443952 -0.4310624 0.2556048 0.4310624 0.2556048 0.4310624 0.7443952 -0.4310624
452617 0.7272508 -0.4401496 0.2727492 0.4401496 0.2727492 0.4401496 0.7272508 -0.4401496
473344 0.7094095 -0.4487235 0.2905905 0.4487235 0.2905905 0.4487235 0.7094095 -0.4487235
495019 0.6909024 -0.4567196 0.3090976 0.4567196 0.3090976 0.4567196 0.6909024 -0.4567196
517687 0.6717680 -0.4640749 0.3282320 0.4640749 0.3282320 0.4640749 0.6717680 -0.4640749
541393 0.6520525 -0.4707293 0.3479475 0.4707293 0.3479475 0.4707293 0.6520525 -0.4707293
566185 0.6318095 -0.4766265 0.3681905 0.4766265 0.3681905 0.4766265 0.6318095 -0.4766265
592111 0.6110997 -0.4817149 0.3889003 0.4817149 0.3889003 0.4817149 0.6110997 -0.4817149
619225 0.5899901 -0.4859491 0.4100099 0.4859491 0.4100099 0.4859491 0.5899901 -0.4859491
647581 0.5685535 -0.4892904 0.4314465 0.4892904 0.4314465 0.4892904 0.5685535 -0.4892904
677235 0.5468673 -0.4917081 0.4531327 0.4917081 0.4531327 0.4917081 0.5468673 -0.4917081
708247 0.5250126 -0.4931795 0.4749874 0.4931795 0.4749874 0.4931795 0.5250126 -0.4931795
740679 0.5030731 -0.4936911 0.4969269 0.4936911 0.4969269 0.4936911 0.5030731 -0.4936911
774597 0.4811335 -0.4932386 0.5188665 0.4932386 0.5188665 0.4932386 0.4811335 -0.4932386
810067 0.4592787 -0.4918268 0.5407213 0.4918268 0.5407213 0.4918268 0.4592787 -0.4918268
847162 0.4375920 -0.4894698 0.5624080 0.4894698 0.5624080 0.4894698 0.4375920 -0.4894698
885955 0.4161542 -0.4861907 0.5838458 0.4861907 0.5838458 0.4861907 0.4161542 -0.4861907
926525 0.3950425 -0.4820206 0.6049575 0.4820206 0.6049575 0.4820206 0.3950425 -0.4820206
968953 0.3743289 -0.4769985 0.6256711 0.4769985 0.6256711 0.4769985 0.3743289 -0.4769985
1013323 0.3540801 -0.4711699 0.6459199 0.4711699 0.6459199 0.4711699 0.3540801 -0.4711699
1059725 0.3343561 -0.4645865 0.6656439 0.4645865 0.6656439 0.4645865 0.3343561 -0.4645865
1108252 0.3152099 -0.4573044 0.6847901 0.4573044 0.6847901 0.4573044 0.3152099 -0.4573044
1159002 0.2966872 -0.4493837 0.7033128 0.4493837 0.7033128 0.4493837 0.2966872 -0.4493837
1212075 0.2788261 -0.4408869 0.7211739 0.4408869 0.7211739 0.4408869 0.2788261 -0.4408869
1267578 0.2616570 -0.4318783 0.7383430 0.4318783 0.7383430 0.4318783 0.2616570 -0.4318783
1325623 0.2452029 -0.4224224 0.7547971 0.4224224 0.7547971 0.4224224 0.2452029 -0.4224224
1386327 0.2294797 -0.4125837 0.7705203 0.4125837 0.7705203 0.4125837 0.2294797 -0.4125837
1449809 0.2144964 -0.4024253 0.7855036 0.4024253 0.7855036 0.4024253 0.2144964 -0.4024253
1516199 0.2002557 -0.3920085 0.7997443 0.3920085 0.7997443 0.3920085 0.2002557 -0.3920085
1585629 0.1867545 -0.3813917 0.8132455 0.3813917 0.8132455 0.3813917 0.1867545 -0.3813917
1658239 0.1739846 -0.3706306 0.8260154 0.3706306 0.8260154 0.3706306 0.1739846 -0.3706306
1734173 0.1619334 -0.3597774 0.8380666 0.3597774 0.8380666 0.3597774 0.1619334 -0.3597774
1813585 0.1505842 -0.3488804 0.8494158 0.3488804 0.8494158 0.3488804 0.1505842 -0.3488804
1896632 0.1399171 -0.3379841 0.8600829 0.3379841 0.8600829 0.3379841 0.1399171 -0.3379841
1983483 0.1299095 -0.3271290 0.8700905 0.3271290 0.8700905 0.3271290 0.1299095 -0.3271290
2074311 0.1205368 -0.3163516 0.8794632 0.3163516 0.8794632 0.3163516 0.1205368 -0.3163516
