!Murata Part Number: GRM185B31E105KA12
!These Parameters are Measured in Series Mode Connection
!Data Generated on Mar 30, 2021
!       o--ll--o
!Port1            Port2
!       o------o
!Operation Temp=25[degC], DC Bias Voltage=0[V]
!Freq. Start=100[Hz] Stop=6[GHz] 401[Steps]
# Hz S RI R 50
!Freq.(Hz) S11(Real) S11(Imag) S21(Real) S21(Imag) S12(Real) S12(Imag) S22(Real) S22(Imag)
100 0.9975256 -0.0381540 0.0024744 0.0381540 0.0024744 0.0381540 0.9975256 -0.0381540
105 0.9973559 -0.0398714 0.0026441 0.0398714 0.0026441 0.0398714 0.9973559 -0.0398714
109 0.9971713 -0.0416659 0.0028287 0.0416659 0.0028287 0.0416659 0.9971713 -0.0416659
114 0.9969707 -0.0435409 0.0030293 0.0435409 0.0030293 0.0435409 0.9969707 -0.0435409
120 0.9967524 -0.0454997 0.0032476 0.0454997 0.0032476 0.0454997 0.9967524 -0.0454997
125 0.9965150 -0.0475458 0.0034850 0.0475458 0.0034850 0.0475458 0.9965150 -0.0475458
131 0.9962567 -0.0496829 0.0037433 0.0496829 0.0037433 0.0496829 0.9962567 -0.0496829
137 0.9959757 -0.0519146 0.0040243 0.0519146 0.0040243 0.0519146 0.9959757 -0.0519146
143 0.9956700 -0.0542449 0.0043300 0.0542449 0.0043300 0.0542449 0.9956700 -0.0542449
150 0.9953374 -0.0566777 0.0046626 0.0566777 0.0046626 0.0566777 0.9953374 -0.0566777
156 0.9949758 -0.0592172 0.0050242 0.0592172 0.0050242 0.0592172 0.9949758 -0.0592172
164 0.9945825 -0.0618676 0.0054175 0.0618676 0.0054175 0.0618676 0.9945825 -0.0618676
171 0.9941549 -0.0646332 0.0058451 0.0646332 0.0058451 0.0646332 0.9941549 -0.0646332
179 0.9936901 -0.0675187 0.0063099 0.0675187 0.0063099 0.0675187 0.9936901 -0.0675187
187 0.9931851 -0.0705285 0.0068149 0.0705285 0.0068149 0.0705285 0.9931851 -0.0705285
196 0.9926365 -0.0736675 0.0073635 0.0736675 0.0073635 0.0736675 0.9926365 -0.0736675
205 0.9920407 -0.0769405 0.0079593 0.0769405 0.0079593 0.0769405 0.9920407 -0.0769405
214 0.9913939 -0.0803526 0.0086061 0.0803526 0.0086061 0.0803526 0.9913939 -0.0803526
224 0.9906920 -0.0839088 0.0093080 0.0839088 0.0093080 0.0839088 0.9906920 -0.0839088
234 0.9899306 -0.0876145 0.0100694 0.0876145 0.0100694 0.0876145 0.9899306 -0.0876145
245 0.9891048 -0.0914750 0.0108952 0.0914750 0.0108952 0.0914750 0.9891048 -0.0914750
256 0.9882096 -0.0954959 0.0117904 0.0954959 0.0117904 0.0954959 0.9882096 -0.0954959
268 0.9872394 -0.0996826 0.0127606 0.0996826 0.0127606 0.0996826 0.9872394 -0.0996826
280 0.9861885 -0.1040410 0.0138115 0.1040410 0.0138115 0.1040410 0.9861885 -0.1040410
293 0.9850503 -0.1085768 0.0149497 0.1085768 0.0149497 0.1085768 0.9850503 -0.1085768
306 0.9838181 -0.1132960 0.0161819 0.1132960 0.0161819 0.1132960 0.9838181 -0.1132960
320 0.9824844 -0.1182044 0.0175156 0.1182044 0.0175156 0.1182044 0.9824844 -0.1182044
335 0.9810414 -0.1233083 0.0189586 0.1233083 0.0189586 0.1233083 0.9810414 -0.1233083
350 0.9794805 -0.1286134 0.0205195 0.1286134 0.0205195 0.1286134 0.9794805 -0.1286134
366 0.9777924 -0.1341260 0.0222076 0.1341260 0.0222076 0.1341260 0.9777924 -0.1341260
383 0.9759672 -0.1398521 0.0240328 0.1398521 0.0240328 0.1398521 0.9759672 -0.1398521
401 0.9739942 -0.1457974 0.0260058 0.1457974 0.0260058 0.1457974 0.9739942 -0.1457974
419 0.9718617 -0.1519678 0.0281383 0.1519678 0.0281383 0.1519678 0.9718617 -0.1519678
438 0.9695572 -0.1583687 0.0304428 0.1583687 0.0304428 0.1583687 0.9695572 -0.1583687
458 0.9670673 -0.1650056 0.0329327 0.1650056 0.0329327 0.1650056 0.9670673 -0.1650056
479 0.9643776 -0.1718830 0.0356224 0.1718830 0.0356224 0.1718830 0.9643776 -0.1718830
501 0.9614723 -0.1790055 0.0385277 0.1790055 0.0385277 0.1790055 0.9614723 -0.1790055
524 0.9583350 -0.1863767 0.0416650 0.1863767 0.0416650 0.1863767 0.9583350 -0.1863767
548 0.9549478 -0.1939996 0.0450522 0.1939996 0.0450522 0.1939996 0.9549478 -0.1939996
573 0.9512915 -0.2018762 0.0487085 0.2018762 0.0487085 0.2018762 0.9512915 -0.2018762
600 0.9473461 -0.2100076 0.0526539 0.2100076 0.0526539 0.2100076 0.9473461 -0.2100076
627 0.9430900 -0.2183933 0.0569100 0.2183933 0.0569100 0.2183933 0.9430900 -0.2183933
656 0.9385006 -0.2270317 0.0614994 0.2270317 0.0614994 0.2270317 0.9385006 -0.2270317
686 0.9335541 -0.2359194 0.0664459 0.2359194 0.0664459 0.2359194 0.9335541 -0.2359194
717 0.9282257 -0.2450510 0.0717743 0.2450510 0.0717743 0.2450510 0.9282257 -0.2450510
750 0.9224894 -0.2544190 0.0775106 0.2544190 0.0775106 0.2544190 0.9224894 -0.2544190
784 0.9163186 -0.2640136 0.0836814 0.2640136 0.0836814 0.2640136 0.9163186 -0.2640136
820 0.9096857 -0.2738224 0.0903143 0.2738224 0.0903143 0.2738224 0.9096857 -0.2738224
858 0.9025630 -0.2838301 0.0974370 0.2838301 0.0974370 0.2838301 0.9025630 -0.2838301
897 0.8949221 -0.2940182 0.1050779 0.2940182 0.1050779 0.2940182 0.8949221 -0.2940182
938 0.8867349 -0.3043649 0.1132651 0.3043649 0.1132651 0.3043649 0.8867349 -0.3043649
981 0.8779738 -0.3148450 0.1220262 0.3148450 0.1220262 0.3148450 0.8779738 -0.3148450
1026 0.8686119 -0.3254295 0.1313881 0.3254295 0.1313881 0.3254295 0.8686119 -0.3254295
1073 0.8586233 -0.3360854 0.1413767 0.3360854 0.1413767 0.3360854 0.8586233 -0.3360854
1122 0.8479842 -0.3467759 0.1520158 0.3467759 0.1520158 0.3467759 0.8479842 -0.3467759
1174 0.8366728 -0.3574603 0.1633272 0.3574603 0.1633272 0.3574603 0.8366728 -0.3574603
1227 0.8246704 -0.3680938 0.1753296 0.3680938 0.1753296 0.3680938 0.8246704 -0.3680938
1283 0.8119616 -0.3786280 0.1880384 0.3786280 0.1880384 0.3786280 0.8119616 -0.3786280
1342 0.7985350 -0.3890106 0.2014650 0.3890106 0.2014650 0.3890106 0.7985350 -0.3890106
1404 0.7843841 -0.3991864 0.2156159 0.3991864 0.2156159 0.3991864 0.7843841 -0.3991864
1468 0.7695077 -0.4090972 0.2304923 0.4090972 0.2304923 0.4090972 0.7695077 -0.4090972
1535 0.7539103 -0.4186825 0.2460897 0.4186825 0.2460897 0.4186825 0.7539103 -0.4186825
1606 0.7376029 -0.4278805 0.2623971 0.4278805 0.2623971 0.4278805 0.7376029 -0.4278805
1679 0.7206035 -0.4366282 0.2793965 0.4366282 0.2793965 0.4366282 0.7206035 -0.4366282
1756 0.7029371 -0.4448630 0.2970629 0.4448630 0.2970629 0.4448630 0.7029371 -0.4448630
1836 0.6846359 -0.4525232 0.3153641 0.4525232 0.3153641 0.4525232 0.6846359 -0.4525232
1920 0.6657397 -0.4595491 0.3342603 0.4595491 0.3342603 0.4595491 0.6657397 -0.4595491
2008 0.6462954 -0.4658842 0.3537046 0.4658842 0.3537046 0.4658842 0.6462954 -0.4658842
2100 0.6263571 -0.4714760 0.3736429 0.4714760 0.3736429 0.4714760 0.6263571 -0.4714760
2196 0.6059849 -0.4762774 0.3940151 0.4762774 0.3940151 0.4762774 0.6059849 -0.4762774
2297 0.5852452 -0.4802473 0.4147548 0.4802473 0.4147548 0.4802473 0.5852452 -0.4802473
2402 0.5642090 -0.4833516 0.4357910 0.4833516 0.4357910 0.4833516 0.5642090 -0.4833516
2512 0.5429514 -0.4855637 0.4570486 0.4855637 0.4570486 0.4855637 0.5429514 -0.4855637
2627 0.5215504 -0.4868655 0.4784496 0.4868655 0.4784496 0.4868655 0.5215504 -0.4868655
2748 0.5000857 -0.4872472 0.4999143 0.4872472 0.4999143 0.4872472 0.5000857 -0.4872472
2873 0.4786375 -0.4867078 0.5213625 0.4867078 0.5213625 0.4867078 0.4786375 -0.4867078
3005 0.4572855 -0.4852551 0.5427145 0.4852551 0.5427145 0.4852551 0.4572855 -0.4852551
3143 0.4361072 -0.4829050 0.5638928 0.4829050 0.5638928 0.4829050 0.4361072 -0.4829050
3287 0.4151772 -0.4796815 0.5848228 0.4796815 0.5848228 0.4796815 0.4151772 -0.4796815
3437 0.3945663 -0.4756161 0.6054337 0.4756161 0.6054337 0.4756161 0.3945663 -0.4756161
3594 0.3743403 -0.4707466 0.6256597 0.4707466 0.6256597 0.4707466 0.3743403 -0.4707466
3759 0.3545595 -0.4651167 0.6454405 0.4651167 0.6454405 0.4651167 0.3545595 -0.4651167
3931 0.3352781 -0.4587751 0.6647219 0.4587751 0.6647219 0.4587751 0.3352781 -0.4587751
4111 0.3165437 -0.4517740 0.6834563 0.4517740 0.6834563 0.4517740 0.3165437 -0.4517740
4299 0.2983975 -0.4441690 0.7016025 0.4441690 0.7016025 0.4441690 0.2983975 -0.4441690
4496 0.2808737 -0.4360173 0.7191263 0.4360173 0.7191263 0.4360173 0.2808737 -0.4360173
4702 0.2640000 -0.4273773 0.7360000 0.4273773 0.7360000 0.4273773 0.2640000 -0.4273773
4918 0.2477973 -0.4183079 0.7522027 0.4183079 0.7522027 0.4183079 0.2477973 -0.4183079
5143 0.2322806 -0.4088672 0.7677194 0.4088672 0.7677194 0.4088672 0.2322806 -0.4088672
5378 0.2174591 -0.3991124 0.7825409 0.3991124 0.7825409 0.3991124 0.2174591 -0.3991124
5625 0.2033363 -0.3890989 0.7966637 0.3890989 0.7966637 0.3890989 0.2033363 -0.3890989
5882 0.1899110 -0.3788801 0.8100890 0.3788801 0.8100890 0.3788801 0.1899110 -0.3788801
6151 0.1771775 -0.3685067 0.8228225 0.3685067 0.8228225 0.3685067 0.1771775 -0.3685067
6433 0.1651261 -0.3580266 0.8348739 0.3580266 0.8348739 0.3580266 0.1651261 -0.3580266
6728 0.1537437 -0.3474847 0.8462563 0.3474847 0.8462563 0.3474847 0.1537437 -0.3474847
7036 0.1430142 -0.3369226 0.8569858 0.3369226 0.8569858 0.3369226 0.1430142 -0.3369226
7358 0.1329190 -0.3263787 0.8670810 0.3263787 0.8670810 0.3263787 0.1329190 -0.3263787
7695 0.1234376 -0.3158880 0.8765624 0.3158880 0.8765624 0.3158880 0.1234376 -0.3158880
8047 0.1145476 -0.3054824 0.8854524 0.3054824 0.8854524 0.3054824 0.1145476 -0.3054824
8416 0.1062254 -0.2951902 0.8937746 0.2951902 0.8937746 0.2951902 0.1062254 -0.2951902
8801 0.0984466 -0.2850368 0.9015534 0.2850368 0.9015534 0.2850368 0.0984466 -0.2850368
9204 0.0911862 -0.2750445 0.9088138 0.2750445 0.9088138 0.2750445 0.0911862 -0.2750445
9626 0.0844187 -0.2652328 0.9155813 0.2652328 0.9155813 0.2652328 0.0844187 -0.2652328
10066 0.0781187 -0.2556182 0.9218813 0.2556182 0.9218813 0.2556182 0.0781187 -0.2556182
10527 0.0722610 -0.2462149 0.9277390 0.2462149 0.9277390 0.2462149 0.0722610 -0.2462149
11009 0.0668205 -0.2370345 0.9331795 0.2370345 0.9331795 0.2370345 0.0668205 -0.2370345
11514 0.0617728 -0.2280864 0.9382272 0.2280864 0.9382272 0.2280864 0.0617728 -0.2280864
12041 0.0570940 -0.2193781 0.9429060 0.2193781 0.9429060 0.2193781 0.0570940 -0.2193781
12592 0.0527612 -0.2109150 0.9472388 0.2109150 0.9472388 0.2109150 0.0527612 -0.2109150
13169 0.0487519 -0.2027010 0.9512481 0.2027010 0.9512481 0.2027010 0.0487519 -0.2027010
13772 0.0450449 -0.1947385 0.9549551 0.1947385 0.9549551 0.1947385 0.0450449 -0.1947385
14402 0.0416196 -0.1870282 0.9583804 0.1870282 0.9583804 0.1870282 0.0416196 -0.1870282
15062 0.0384565 -0.1795699 0.9615435 0.1795699 0.9615435 0.1795699 0.0384565 -0.1795699
15752 0.0355372 -0.1723623 0.9644628 0.1723623 0.9644628 0.1723623 0.0355372 -0.1723623
16473 0.0328442 -0.1654030 0.9671558 0.1654030 0.9671558 0.1654030 0.0328442 -0.1654030
17227 0.0303608 -0.1586889 0.9696392 0.1586889 0.9696392 0.1586889 0.0303608 -0.1586889
18016 0.0280716 -0.1522162 0.9719284 0.1522162 0.9719284 0.1522162 0.0280716 -0.1522162
18841 0.0259618 -0.1459806 0.9740382 0.1459806 0.9740382 0.1459806 0.0259618 -0.1459806
19704 0.0240179 -0.1399770 0.9759821 0.1399770 0.9759821 0.1399770 0.0240179 -0.1399770
20606 0.0222269 -0.1342002 0.9777731 0.1342002 0.9777731 0.1342002 0.0222269 -0.1342002
21550 0.0205769 -0.1286444 0.9794231 0.1286444 0.9794231 0.1286444 0.0205769 -0.1286444
22537 0.0190567 -0.1233039 0.9809433 0.1233039 0.9809433 0.1233039 0.0190567 -0.1233039
23569 0.0176561 -0.1181724 0.9823439 0.1181724 0.9823439 0.1181724 0.0176561 -0.1181724
24648 0.0163654 -0.1132438 0.9836346 0.1132438 0.9836346 0.1132438 0.0163654 -0.1132438
25777 0.0151756 -0.1085115 0.9848244 0.1085115 0.9848244 0.1085115 0.0151756 -0.1085115
26957 0.0140786 -0.1039693 0.9859214 0.1039693 0.9859214 0.1039693 0.0140786 -0.1039693
28191 0.0130668 -0.0996107 0.9869332 0.0996107 0.9869332 0.0996107 0.0130668 -0.0996107
29482 0.0121331 -0.0954293 0.9878669 0.0954293 0.9878669 0.0954293 0.0121331 -0.0954293
30832 0.0112712 -0.0914187 0.9887288 0.0914187 0.9887288 0.0914187 0.0112712 -0.0914187
32244 0.0104750 -0.0875727 0.9895250 0.0875727 0.9895250 0.0875727 0.0104750 -0.0875727
33721 0.0097391 -0.0838850 0.9902609 0.0838850 0.9902609 0.0838850 0.0097391 -0.0838850
35265 0.0090587 -0.0803496 0.9909413 0.0803496 0.9909413 0.0803496 0.0090587 -0.0803496
36880 0.0084291 -0.0769606 0.9915709 0.0769606 0.9915709 0.0769606 0.0084291 -0.0769606
38569 0.0078461 -0.0737122 0.9921539 0.0737122 0.9921539 0.0737122 0.0078461 -0.0737122
40335 0.0073060 -0.0705987 0.9926940 0.0705987 0.9926940 0.0705987 0.0073060 -0.0705987
42182 0.0068054 -0.0676148 0.9931946 0.0676148 0.9931946 0.0676148 0.0068054 -0.0676148
44113 0.0063411 -0.0647550 0.9936589 0.0647550 0.9936589 0.0647550 0.0063411 -0.0647550
46134 0.0059103 -0.0620144 0.9940897 0.0620144 0.9940897 0.0620144 0.0059103 -0.0620144
48246 0.0055103 -0.0593880 0.9944897 0.0593880 0.9944897 0.0593880 0.0055103 -0.0593880
50455 0.0051388 -0.0568711 0.9948612 0.0568711 0.9948612 0.0568711 0.0051388 -0.0568711
52766 0.0047937 -0.0544591 0.9952063 0.0544591 0.9952063 0.0544591 0.0047937 -0.0544591
55182 0.0044731 -0.0521477 0.9955269 0.0521477 0.9955269 0.0521477 0.0044731 -0.0521477
57709 0.0041750 -0.0499327 0.9958250 0.0499327 0.9958250 0.0499327 0.0041750 -0.0499327
60352 0.0038980 -0.0478101 0.9961020 0.0478101 0.9961020 0.0478101 0.0038980 -0.0478101
63115 0.0036406 -0.0457761 0.9963594 0.0457761 0.9963594 0.0457761 0.0036406 -0.0457761
66005 0.0034013 -0.0438270 0.9965987 0.0438270 0.9965987 0.0438270 0.0034013 -0.0438270
69028 0.0031789 -0.0419594 0.9968211 0.0419594 0.9968211 0.0419594 0.0031789 -0.0419594
72189 0.0029723 -0.0401699 0.9970277 0.0401699 0.9970277 0.0401699 0.0029723 -0.0401699
75495 0.0027804 -0.0384552 0.9972196 0.0384552 0.9972196 0.0384552 0.0027804 -0.0384552
78952 0.0026022 -0.0368124 0.9973978 0.0368124 0.9973978 0.0368124 0.0026022 -0.0368124
82567 0.0024368 -0.0352386 0.9975632 0.0352386 0.9975632 0.0352386 0.0024368 -0.0352386
86348 0.0022833 -0.0337308 0.9977167 0.0337308 0.9977167 0.0337308 0.0022833 -0.0337308
90302 0.0021409 -0.0322865 0.9978591 0.0322865 0.9978591 0.0322865 0.0021409 -0.0322865
94437 0.0020089 -0.0309031 0.9979911 0.0309031 0.9979911 0.0309031 0.0020089 -0.0309031
98762 0.0018865 -0.0295781 0.9981135 0.0295781 0.9981135 0.0295781 0.0018865 -0.0295781
103284 0.0017730 -0.0283091 0.9982270 0.0283091 0.9982270 0.0283091 0.0017730 -0.0283091
108014 0.0016680 -0.0270940 0.9983320 0.0270940 0.9983320 0.0270940 0.0016680 -0.0270940
112960 0.0015706 -0.0259304 0.9984294 0.0259304 0.9984294 0.0259304 0.0015706 -0.0259304
118133 0.0014805 -0.0248163 0.9985195 0.0248163 0.9985195 0.0248163 0.0014805 -0.0248163
123542 0.0013970 -0.0237497 0.9986030 0.0237497 0.9986030 0.0237497 0.0013970 -0.0237497
129199 0.0013197 -0.0227287 0.9986803 0.0227287 0.9986803 0.0227287 0.0013197 -0.0227287
135116 0.0012482 -0.0217514 0.9987518 0.0217514 0.9987518 0.0217514 0.0012482 -0.0217514
141303 0.0011819 -0.0208160 0.9988181 0.0208160 0.9988181 0.0208160 0.0011819 -0.0208160
147774 0.0011204 -0.0199207 0.9988796 0.0199207 0.9988796 0.0199207 0.0011204 -0.0199207
154540 0.0010634 -0.0190640 0.9989366 0.0190640 0.9989366 0.0190640 0.0010634 -0.0190640
161617 0.0010106 -0.0182442 0.9989894 0.0182442 0.9989894 0.0182442 0.0010106 -0.0182442
169018 0.0009615 -0.0174598 0.9990385 0.0174598 0.9990385 0.0174598 0.0009615 -0.0174598
176758 0.0009159 -0.0167093 0.9990841 0.0167093 0.9990841 0.0167093 0.0009159 -0.0167093
184852 0.0008734 -0.0159912 0.9991266 0.0159912 0.9991266 0.0159912 0.0008734 -0.0159912
193316 0.0008339 -0.0153043 0.9991661 0.0153043 0.9991661 0.0153043 0.0008339 -0.0153043
202169 0.0007969 -0.0146471 0.9992031 0.0146471 0.9992031 0.0146471 0.0007969 -0.0146471
211427 0.0007624 -0.0140185 0.9992376 0.0140185 0.9992376 0.0140185 0.0007624 -0.0140185
221108 0.0007301 -0.0134172 0.9992699 0.0134172 0.9992699 0.0134172 0.0007301 -0.0134172
231233 0.0006997 -0.0128419 0.9993003 0.0128419 0.9993003 0.0128419 0.0006997 -0.0128419
241822 0.0006712 -0.0122917 0.9993288 0.0122917 0.9993288 0.0122917 0.0006712 -0.0122917
252896 0.0006443 -0.0117654 0.9993557 0.0117654 0.9993557 0.0117654 0.0006443 -0.0117654
264476 0.0006188 -0.0112619 0.9993812 0.0112619 0.9993812 0.0112619 0.0006188 -0.0112619
276587 0.0005947 -0.0107802 0.9994053 0.0107802 0.9994053 0.0107802 0.0005947 -0.0107802
289253 0.0005718 -0.0103194 0.9994282 0.0103194 0.9994282 0.0103194 0.0005718 -0.0103194
302498 0.0005500 -0.0098786 0.9994500 0.0098786 0.9994500 0.0098786 0.0005500 -0.0098786
316350 0.0005292 -0.0094568 0.9994708 0.0094568 0.9994708 0.0094568 0.0005292 -0.0094568
330837 0.0005093 -0.0090532 0.9994907 0.0090532 0.9994907 0.0090532 0.0005093 -0.0090532
345986 0.0004902 -0.0086670 0.9995098 0.0086670 0.9995098 0.0086670 0.0004902 -0.0086670
361830 0.0004719 -0.0082974 0.9995281 0.0082974 0.9995281 0.0082974 0.0004719 -0.0082974
378399 0.0004543 -0.0079436 0.9995457 0.0079436 0.9995457 0.0079436 0.0004543 -0.0079436
395726 0.0004373 -0.0076050 0.9995627 0.0076050 0.9995627 0.0076050 0.0004373 -0.0076050
413847 0.0004210 -0.0072808 0.9995790 0.0072808 0.9995790 0.0072808 0.0004210 -0.0072808
432798 0.0004053 -0.0069704 0.9995947 0.0069704 0.9995947 0.0069704 0.0004053 -0.0069704
452617 0.0003901 -0.0066731 0.9996099 0.0066731 0.9996099 0.0066731 0.0003901 -0.0066731
473344 0.0003755 -0.0063884 0.9996245 0.0063884 0.9996245 0.0063884 0.0003755 -0.0063884
495019 0.0003614 -0.0061158 0.9996386 0.0061158 0.9996386 0.0061158 0.0003614 -0.0061158
517687 0.0003478 -0.0058546 0.9996522 0.0058546 0.9996522 0.0058546 0.0003478 -0.0058546
541393 0.0003348 -0.0056043 0.9996652 0.0056043 0.9996652 0.0056043 0.0003348 -0.0056043
566185 0.0003222 -0.0053646 0.9996778 0.0053646 0.9996778 0.0053646 0.0003222 -0.0053646
592111 0.0003102 -0.0051348 0.9996898 0.0051348 0.9996898 0.0051348 0.0003102 -0.0051348
619225 0.0002986 -0.0049146 0.9997014 0.0049146 0.9997014 0.0049146 0.0002986 -0.0049146
647581 0.0002876 -0.0047036 0.9997124 0.0047036 0.9997124 0.0047036 0.0002876 -0.0047036
677235 0.0002770 -0.0045013 0.9997230 0.0045013 0.9997230 0.0045013 0.0002770 -0.0045013
708247 0.0002669 -0.0043074 0.9997331 0.0043074 0.9997331 0.0043074 0.0002669 -0.0043074
740679 0.0002573 -0.0041216 0.9997427 0.0041216 0.9997427 0.0041216 0.0002573 -0.0041216
774597 0.0002482 -0.0039434 0.9997518 0.0039434 0.9997518 0.0039434 0.0002482 -0.0039434
810067 0.0002396 -0.0037726 0.9997604 0.0037726 0.9997604 0.0037726 0.0002396 -0.0037726
847162 0.0002314 -0.0036089 0.9997686 0.0036089 0.9997686 0.0036089 0.0002314 -0.0036089
885955 0.0002237 -0.0034519 0.9997763 0.0034519 0.9997763 0.0034519 0.0002237 -0.0034519
926525 0.0002164 -0.0033014 0.9997836 0.0033014 0.9997836 0.0033014 0.0002164 -0.0033014
968953 0.0002095 -0.0031572 0.9997905 0.0031572 0.9997905 0.0031572 0.0002095 -0.0031572
1013323 0.0002030 -0.0030189 0.9997970 0.0030189 0.9997970 0.0030189 0.0002030 -0.0030189
1059725 0.0001970 -0.0028863 0.9998030 0.0028863 0.9998030 0.0028863 0.0001970 -0.0028863
1108252 0.0001913 -0.0027591 0.9998087 0.0027591 0.9998087 0.0027591 0.0001913 -0.0027591
1159002 0.0001860 -0.0026373 0.9998140 0.0026373 0.9998140 0.0026373 0.0001860 -0.0026373
1212075 0.0001810 -0.0025204 0.9998190 0.0025204 0.9998190 0.0025204 0.0001810 -0.0025204
1267578 0.0001763 -0.0024084 0.9998237 0.0024084 0.9998237 0.0024084 0.0001763 -0.0024084
1325623 0.0001720 -0.0023009 0.9998280 0.0023009 0.9998280 0.0023009 0.0001720 -0.0023009
1386327 0.0001680 -0.0021979 0.9998320 0.0021979 0.9998320 0.0021979 0.0001680 -0.0021979
1449809 0.0001642 -0.0020991 0.9998358 0.0020991 0.9998358 0.0020991 0.0001642 -0.0020991
1516199 0.0001607 -0.0020044 0.9998393 0.0020044 0.9998393 0.0020044 0.0001607 -0.0020044
1585629 0.0001575 -0.0019135 0.9998425 0.0019135 0.9998425 0.0019135 0.0001575 -0.0019135
1658239 0.0001544 -0.0018264 0.9998456 0.0018264 0.9998456 0.0018264 0.0001544 -0.0018264
1734173 0.0001516 -0.0017428 0.9998484 0.0017428 0.9998484 0.0017428 0.0001516 -0.0017428
1813585 0.0001490 -0.0016625 0.9998510 0.0016625 0.9998510 0.0016625 0.0001490 -0.0016625
1896632 0.0001466 -0.0015855 0.9998534 0.0015855 0.9998534 0.0015855 0.0001466 -0.0015855
1983483 0.0001443 -0.0015116 0.9998557 0.0015116 0.9998557 0.0015116 0.0001443 -0.0015116
2074311 0.0001422 -0.0014407 0.9998578 0.0014407 0.9998578 0.0014407 0.0001422 -0.0014407
