!Murata Part Number: GRM188R72A103MA01
!These Parameters are Measured in Series Mode Connection
!Data Generated on Mar 30, 2021
!       o--ll--o
!Port1            Port2
!       o------o
!Operation Temp=25[degC], DC Bias Voltage=0[V]
!Freq. Start=100[Hz] Stop=6[GHz] 401[Steps]
# Hz S RI R 50
!Freq.(Hz) S11(Real) S11(Imag) S21(Real) S21(Imag) S12(Real) S12(Imag) S22(Real) S22(Imag)
100 0.9999965 -0.0006107 0.0000035 0.0006107 0.0000035 0.0006107 0.9999965 -0.0006107
105 0.9999963 -0.0006386 0.0000037 0.0006386 0.0000037 0.0006386 0.9999963 -0.0006386
109 0.9999962 -0.0006678 0.0000038 0.0006678 0.0000038 0.0006678 0.9999962 -0.0006678
114 0.9999960 -0.0006983 0.0000040 0.0006983 0.0000040 0.0006983 0.9999960 -0.0006983
120 0.9999958 -0.0007301 0.0000042 0.0007301 0.0000042 0.0007301 0.9999958 -0.0007301
125 0.9999956 -0.0007635 0.0000044 0.0007635 0.0000044 0.0007635 0.9999956 -0.0007635
131 0.9999954 -0.0007983 0.0000046 0.0007983 0.0000046 0.0007983 0.9999954 -0.0007983
137 0.9999952 -0.0008348 0.0000048 0.0008348 0.0000048 0.0008348 0.9999952 -0.0008348
143 0.9999949 -0.0008729 0.0000051 0.0008729 0.0000051 0.0008729 0.9999949 -0.0008729
150 0.9999947 -0.0009128 0.0000053 0.0009128 0.0000053 0.0009128 0.9999947 -0.0009128
156 0.9999944 -0.0009545 0.0000056 0.0009545 0.0000056 0.0009545 0.9999944 -0.0009545
164 0.9999941 -0.0009980 0.0000059 0.0009980 0.0000059 0.0009980 0.9999941 -0.0009980
171 0.9999938 -0.0010436 0.0000062 0.0010436 0.0000062 0.0010436 0.9999938 -0.0010436
179 0.9999935 -0.0010913 0.0000065 0.0010913 0.0000065 0.0010913 0.9999935 -0.0010913
187 0.9999931 -0.0011411 0.0000069 0.0011411 0.0000069 0.0011411 0.9999931 -0.0011411
196 0.9999927 -0.0011932 0.0000073 0.0011932 0.0000073 0.0011932 0.9999927 -0.0011932
205 0.9999923 -0.0012477 0.0000077 0.0012477 0.0000077 0.0012477 0.9999923 -0.0012477
214 0.9999918 -0.0013047 0.0000082 0.0013047 0.0000082 0.0013047 0.9999918 -0.0013047
224 0.9999914 -0.0013642 0.0000086 0.0013642 0.0000086 0.0013642 0.9999914 -0.0013642
234 0.9999908 -0.0014265 0.0000092 0.0014265 0.0000092 0.0014265 0.9999908 -0.0014265
245 0.9999903 -0.0014916 0.0000097 0.0014916 0.0000097 0.0014916 0.9999903 -0.0014916
256 0.9999897 -0.0015597 0.0000103 0.0015597 0.0000103 0.0015597 0.9999897 -0.0015597
268 0.9999891 -0.0016309 0.0000109 0.0016309 0.0000109 0.0016309 0.9999891 -0.0016309
280 0.9999884 -0.0017053 0.0000116 0.0017053 0.0000116 0.0017053 0.9999884 -0.0017053
293 0.9999877 -0.0017832 0.0000123 0.0017832 0.0000123 0.0017832 0.9999877 -0.0017832
306 0.9999870 -0.0018645 0.0000130 0.0018645 0.0000130 0.0018645 0.9999870 -0.0018645
320 0.9999862 -0.0019496 0.0000138 0.0019496 0.0000138 0.0019496 0.9999862 -0.0019496
335 0.9999853 -0.0020386 0.0000147 0.0020386 0.0000147 0.0020386 0.9999853 -0.0020386
350 0.9999844 -0.0021316 0.0000156 0.0021316 0.0000156 0.0021316 0.9999844 -0.0021316
366 0.9999835 -0.0022288 0.0000165 0.0022288 0.0000165 0.0022288 0.9999835 -0.0022288
383 0.9999824 -0.0023305 0.0000176 0.0023305 0.0000176 0.0023305 0.9999824 -0.0023305
401 0.9999814 -0.0024368 0.0000186 0.0024368 0.0000186 0.0024368 0.9999814 -0.0024368
419 0.9999802 -0.0025480 0.0000198 0.0025480 0.0000198 0.0025480 0.9999802 -0.0025480
438 0.9999790 -0.0026642 0.0000210 0.0026642 0.0000210 0.0026642 0.9999790 -0.0026642
458 0.9999777 -0.0027857 0.0000223 0.0027857 0.0000223 0.0027857 0.9999777 -0.0027857
479 0.9999763 -0.0029128 0.0000237 0.0029128 0.0000237 0.0029128 0.9999763 -0.0029128
501 0.9999749 -0.0030457 0.0000251 0.0030457 0.0000251 0.0030457 0.9999749 -0.0030457
524 0.9999733 -0.0031846 0.0000267 0.0031846 0.0000267 0.0031846 0.9999733 -0.0031846
548 0.9999716 -0.0033299 0.0000284 0.0033299 0.0000284 0.0033299 0.9999716 -0.0033299
573 0.9999699 -0.0034818 0.0000301 0.0034818 0.0000301 0.0034818 0.9999699 -0.0034818
600 0.9999680 -0.0036406 0.0000320 0.0036406 0.0000320 0.0036406 0.9999680 -0.0036406
627 0.9999660 -0.0038067 0.0000340 0.0038067 0.0000340 0.0038067 0.9999660 -0.0038067
656 0.9999638 -0.0039804 0.0000362 0.0039804 0.0000362 0.0039804 0.9999638 -0.0039804
686 0.9999615 -0.0041621 0.0000385 0.0041621 0.0000385 0.0041621 0.9999615 -0.0041621
717 0.9999590 -0.0043520 0.0000410 0.0043520 0.0000410 0.0043520 0.9999590 -0.0043520
750 0.9999564 -0.0045507 0.0000436 0.0045507 0.0000436 0.0045507 0.9999564 -0.0045507
784 0.9999535 -0.0047584 0.0000465 0.0047584 0.0000465 0.0047584 0.9999535 -0.0047584
820 0.9999504 -0.0049756 0.0000496 0.0049756 0.0000496 0.0049756 0.9999504 -0.0049756
858 0.9999471 -0.0052027 0.0000529 0.0052027 0.0000529 0.0052027 0.9999471 -0.0052027
897 0.9999435 -0.0054402 0.0000565 0.0054402 0.0000565 0.0054402 0.9999435 -0.0054402
938 0.9999396 -0.0056886 0.0000604 0.0056886 0.0000604 0.0056886 0.9999396 -0.0056886
981 0.9999354 -0.0059483 0.0000646 0.0059483 0.0000646 0.0059483 0.9999354 -0.0059483
1026 0.9999308 -0.0062199 0.0000692 0.0062199 0.0000692 0.0062199 0.9999308 -0.0062199
1073 0.9999259 -0.0065039 0.0000741 0.0065039 0.0000741 0.0065039 0.9999259 -0.0065039
1122 0.9999205 -0.0068009 0.0000795 0.0068009 0.0000795 0.0068009 0.9999205 -0.0068009
1174 0.9999147 -0.0071114 0.0000853 0.0071114 0.0000853 0.0071114 0.9999147 -0.0071114
1227 0.9999084 -0.0074361 0.0000916 0.0074361 0.0000916 0.0074361 0.9999084 -0.0074361
1283 0.9999015 -0.0077757 0.0000985 0.0077757 0.0000985 0.0077757 0.9999015 -0.0077757
1342 0.9998941 -0.0081307 0.0001059 0.0081307 0.0001059 0.0081307 0.9998941 -0.0081307
1404 0.9998860 -0.0085020 0.0001140 0.0085020 0.0001140 0.0085020 0.9998860 -0.0085020
1468 0.9998772 -0.0088902 0.0001228 0.0088902 0.0001228 0.0088902 0.9998772 -0.0088902
1535 0.9998677 -0.0092961 0.0001323 0.0092961 0.0001323 0.0092961 0.9998677 -0.0092961
1606 0.9998573 -0.0097205 0.0001427 0.0097205 0.0001427 0.0097205 0.9998573 -0.0097205
1679 0.9998460 -0.0101642 0.0001540 0.0101642 0.0001540 0.0101642 0.9998460 -0.0101642
1756 0.9998338 -0.0106282 0.0001662 0.0106282 0.0001662 0.0106282 0.9998338 -0.0106282
1836 0.9998205 -0.0111133 0.0001795 0.0111133 0.0001795 0.0111133 0.9998205 -0.0111133
1920 0.9998060 -0.0116205 0.0001940 0.0116205 0.0001940 0.0116205 0.9998060 -0.0116205
2008 0.9997903 -0.0121508 0.0002097 0.0121508 0.0002097 0.0121508 0.9997903 -0.0121508
2100 0.9997732 -0.0127052 0.0002268 0.0127052 0.0002268 0.0127052 0.9997732 -0.0127052
2196 0.9997547 -0.0132848 0.0002453 0.0132848 0.0002453 0.0132848 0.9997547 -0.0132848
2297 0.9997345 -0.0138908 0.0002655 0.0138908 0.0002655 0.0138908 0.9997345 -0.0138908
2402 0.9997127 -0.0145244 0.0002873 0.0145244 0.0002873 0.0145244 0.9997127 -0.0145244
2512 0.9996889 -0.0151868 0.0003111 0.0151868 0.0003111 0.0151868 0.9996889 -0.0151868
2627 0.9996631 -0.0158792 0.0003369 0.0158792 0.0003369 0.0158792 0.9996631 -0.0158792
2748 0.9996351 -0.0166032 0.0003649 0.0166032 0.0003649 0.0166032 0.9996351 -0.0166032
2873 0.9996048 -0.0173601 0.0003952 0.0173601 0.0003952 0.0173601 0.9996048 -0.0173601
3005 0.9995718 -0.0181513 0.0004282 0.0181513 0.0004282 0.0181513 0.9995718 -0.0181513
3143 0.9995360 -0.0189785 0.0004640 0.0189785 0.0004640 0.0189785 0.9995360 -0.0189785
3287 0.9994971 -0.0198433 0.0005029 0.0198433 0.0005029 0.0198433 0.9994971 -0.0198433
3437 0.9994549 -0.0207474 0.0005451 0.0207474 0.0005451 0.0207474 0.9994549 -0.0207474
3594 0.9994091 -0.0216926 0.0005909 0.0216926 0.0005909 0.0216926 0.9994091 -0.0216926
3759 0.9993593 -0.0226807 0.0006407 0.0226807 0.0006407 0.0226807 0.9993593 -0.0226807
3931 0.9993052 -0.0237137 0.0006948 0.0237137 0.0006948 0.0237137 0.9993052 -0.0237137
4111 0.9992465 -0.0247936 0.0007535 0.0247936 0.0007535 0.0247936 0.9992465 -0.0247936
4299 0.9991826 -0.0259225 0.0008174 0.0259225 0.0008174 0.0259225 0.9991826 -0.0259225
4496 0.9991132 -0.0271027 0.0008868 0.0271027 0.0008868 0.0271027 0.9991132 -0.0271027
4702 0.9990377 -0.0283365 0.0009623 0.0283365 0.0009623 0.0283365 0.9990377 -0.0283365
4918 0.9989556 -0.0296264 0.0010444 0.0296264 0.0010444 0.0296264 0.9989556 -0.0296264
5143 0.9988663 -0.0309747 0.0011337 0.0309747 0.0011337 0.0309747 0.9988663 -0.0309747
5378 0.9987690 -0.0323843 0.0012310 0.0323843 0.0012310 0.0323843 0.9987690 -0.0323843
5625 0.9986632 -0.0338577 0.0013368 0.0338577 0.0013368 0.0338577 0.9986632 -0.0338577
5882 0.9985479 -0.0353980 0.0014521 0.0353980 0.0014521 0.0353980 0.9985479 -0.0353980
6151 0.9984223 -0.0370080 0.0015777 0.0370080 0.0015777 0.0370080 0.9984223 -0.0370080
6433 0.9982855 -0.0386909 0.0017145 0.0386909 0.0017145 0.0386909 0.9982855 -0.0386909
6728 0.9981364 -0.0404500 0.0018636 0.0404500 0.0018636 0.0404500 0.9981364 -0.0404500
7036 0.9979738 -0.0422886 0.0020262 0.0422886 0.0020262 0.0422886 0.9979738 -0.0422886
7358 0.9977966 -0.0442102 0.0022034 0.0442102 0.0022034 0.0442102 0.9977966 -0.0442102
7695 0.9976033 -0.0462185 0.0023967 0.0462185 0.0023967 0.0462185 0.9976033 -0.0462185
8047 0.9973925 -0.0483173 0.0026075 0.0483173 0.0026075 0.0483173 0.9973925 -0.0483173
8416 0.9971625 -0.0505104 0.0028375 0.0505104 0.0028375 0.0505104 0.9971625 -0.0505104
8801 0.9969117 -0.0528021 0.0030883 0.0528021 0.0030883 0.0528021 0.9969117 -0.0528021
9204 0.9966380 -0.0551965 0.0033620 0.0551965 0.0033620 0.0551965 0.9966380 -0.0551965
9626 0.9963393 -0.0576982 0.0036607 0.0576982 0.0036607 0.0576982 0.9963393 -0.0576982
10066 0.9960135 -0.0603115 0.0039865 0.0603115 0.0039865 0.0603115 0.9960135 -0.0603115
10527 0.9956580 -0.0630413 0.0043420 0.0630413 0.0043420 0.0630413 0.9956580 -0.0630413
11009 0.9952701 -0.0658924 0.0047299 0.0658924 0.0047299 0.0658924 0.9952701 -0.0658924
11514 0.9948468 -0.0688700 0.0051532 0.0688700 0.0051532 0.0688700 0.9948468 -0.0688700
12041 0.9943850 -0.0719792 0.0056150 0.0719792 0.0056150 0.0719792 0.9943850 -0.0719792
12592 0.9938812 -0.0752254 0.0061188 0.0752254 0.0061188 0.0752254 0.9938812 -0.0752254
13169 0.9933315 -0.0786141 0.0066685 0.0786141 0.0066685 0.0786141 0.9933315 -0.0786141
13772 0.9927320 -0.0821511 0.0072680 0.0821511 0.0072680 0.0821511 0.9927320 -0.0821511
14402 0.9920781 -0.0858423 0.0079219 0.0858423 0.0079219 0.0858423 0.9920781 -0.0858423
15062 0.9913649 -0.0896936 0.0086351 0.0896936 0.0086351 0.0896936 0.9913649 -0.0896936
15752 0.9905872 -0.0937111 0.0094128 0.0937111 0.0094128 0.0937111 0.9905872 -0.0937111
16473 0.9897394 -0.0979012 0.0102606 0.0979012 0.0102606 0.0979012 0.9897394 -0.0979012
17227 0.9888150 -0.1022703 0.0111850 0.1022703 0.0111850 0.1022703 0.9888150 -0.1022703
18016 0.9878076 -0.1068247 0.0121924 0.1068247 0.0121924 0.1068247 0.9878076 -0.1068247
18841 0.9867097 -0.1115712 0.0132903 0.1115712 0.0132903 0.1115712 0.9867097 -0.1115712
19704 0.9855135 -0.1165162 0.0144865 0.1165162 0.0144865 0.1165162 0.9855135 -0.1165162
20606 0.9842105 -0.1216664 0.0157895 0.1216664 0.0157895 0.1216664 0.9842105 -0.1216664
21550 0.9827914 -0.1270285 0.0172086 0.1270285 0.0172086 0.1270285 0.9827914 -0.1270285
22537 0.9812462 -0.1326090 0.0187538 0.1326090 0.0187538 0.1326090 0.9812462 -0.1326090
23569 0.9795643 -0.1384143 0.0204357 0.1384143 0.0204357 0.1384143 0.9795643 -0.1384143
24648 0.9777339 -0.1444506 0.0222661 0.1444506 0.0222661 0.1444506 0.9777339 -0.1444506
25777 0.9757425 -0.1507242 0.0242575 0.1507242 0.0242575 0.1507242 0.9757425 -0.1507242
26957 0.9735769 -0.1572407 0.0264231 0.1572407 0.0264231 0.1572407 0.9735769 -0.1572407
28191 0.9712225 -0.1640055 0.0287775 0.1640055 0.0287775 0.1640055 0.9712225 -0.1640055
29482 0.9686638 -0.1710235 0.0313362 0.1710235 0.0313362 0.1710235 0.9686638 -0.1710235
30832 0.9658845 -0.1782989 0.0341155 0.1782989 0.0341155 0.1782989 0.9658845 -0.1782989
32244 0.9628667 -0.1858355 0.0371333 0.1858355 0.0371333 0.1858355 0.9628667 -0.1858355
33721 0.9595918 -0.1936359 0.0404082 0.1936359 0.0404082 0.1936359 0.9595918 -0.1936359
35265 0.9560398 -0.2017019 0.0439602 0.2017019 0.0439602 0.2017019 0.9560398 -0.2017019
36880 0.9521896 -0.2100342 0.0478104 0.2100342 0.0478104 0.2100342 0.9521896 -0.2100342
38569 0.9480189 -0.2186321 0.0519811 0.2186321 0.0519811 0.2186321 0.9480189 -0.2186321
40335 0.9435043 -0.2274934 0.0564957 0.2274934 0.0564957 0.2274934 0.9435043 -0.2274934
42182 0.9386214 -0.2366142 0.0613786 0.2366142 0.0613786 0.2366142 0.9386214 -0.2366142
44113 0.9333444 -0.2459887 0.0666556 0.2459887 0.0666556 0.2459887 0.9333444 -0.2459887
46134 0.9276469 -0.2556090 0.0723531 0.2556090 0.0723531 0.2556090 0.9276469 -0.2556090
48246 0.9215015 -0.2654648 0.0784985 0.2654648 0.0784985 0.2654648 0.9215015 -0.2654648
50455 0.9148802 -0.2755431 0.0851198 0.2755431 0.0851198 0.2755431 0.9148802 -0.2755431
52766 0.9077545 -0.2858281 0.0922455 0.2858281 0.0922455 0.2858281 0.9077545 -0.2858281
55182 0.9000955 -0.2963011 0.0999045 0.2963011 0.0999045 0.2963011 0.9000955 -0.2963011
57709 0.8918745 -0.3069397 0.1081255 0.3069397 0.1081255 0.3069397 0.8918745 -0.3069397
60352 0.8830630 -0.3177184 0.1169370 0.3177184 0.1169370 0.3177184 0.8830630 -0.3177184
63115 0.8736333 -0.3286077 0.1263667 0.3286077 0.1263667 0.3286077 0.8736333 -0.3286077
66005 0.8635589 -0.3395741 0.1364411 0.3395741 0.1364411 0.3395741 0.8635589 -0.3395741
69028 0.8528148 -0.3505805 0.1471852 0.3505805 0.1471852 0.3505805 0.8528148 -0.3505805
72189 0.8413782 -0.3615853 0.1586218 0.3615853 0.1586218 0.3615853 0.8413782 -0.3615853
75495 0.8292290 -0.3725432 0.1707710 0.3725432 0.1707710 0.3725432 0.8292290 -0.3725432
78952 0.8163506 -0.3834047 0.1836494 0.3834047 0.1836494 0.3834047 0.8163506 -0.3834047
82567 0.8027301 -0.3941165 0.1972699 0.3941165 0.1972699 0.3941165 0.8027301 -0.3941165
86348 0.7883596 -0.4046219 0.2116404 0.4046219 0.2116404 0.4046219 0.7883596 -0.4046219
90302 0.7732360 -0.4148610 0.2267640 0.4148610 0.2267640 0.4148610 0.7732360 -0.4148610
94437 0.7573625 -0.4247713 0.2426375 0.4247713 0.2426375 0.4247713 0.7573625 -0.4247713
98762 0.7407487 -0.4342882 0.2592513 0.4342882 0.2592513 0.4342882 0.7407487 -0.4342882
103284 0.7234111 -0.4433460 0.2765889 0.4433460 0.2765889 0.4433460 0.7234111 -0.4433460
108014 0.7053737 -0.4518785 0.2946263 0.4518785 0.2946263 0.4518785 0.7053737 -0.4518785
112960 0.6866682 -0.4598202 0.3133318 0.4598202 0.3133318 0.4598202 0.6866682 -0.4598202
118133 0.6673341 -0.4671072 0.3326659 0.4671072 0.3326659 0.4671072 0.6673341 -0.4671072
123542 0.6474189 -0.4736783 0.3525811 0.4736783 0.3525811 0.4736783 0.6474189 -0.4736783
129199 0.6269778 -0.4794765 0.3730222 0.4794765 0.3730222 0.4794765 0.6269778 -0.4794765
135116 0.6060729 -0.4844494 0.3939271 0.4844494 0.3939271 0.4844494 0.6060729 -0.4844494
141303 0.5847733 -0.4885512 0.4152267 0.4885512 0.4152267 0.4885512 0.5847733 -0.4885512
147774 0.5631538 -0.4917430 0.4368462 0.4917430 0.4368462 0.4917430 0.5631538 -0.4917430
154540 0.5412942 -0.4939941 0.4587058 0.4939941 0.4587058 0.4939941 0.5412942 -0.4939941
161617 0.5192779 -0.4952825 0.4807221 0.4952825 0.4807221 0.4952825 0.5192779 -0.4952825
169018 0.4971907 -0.4955955 0.5028093 0.4955955 0.5028093 0.4955955 0.4971907 -0.4955955
176758 0.4751199 -0.4949299 0.5248801 0.4949299 0.5248801 0.4949299 0.4751199 -0.4949299
184852 0.4531521 -0.4932926 0.5468479 0.4932926 0.5468479 0.4932926 0.4531521 -0.4932926
193316 0.4313727 -0.4906996 0.5686273 0.4906996 0.5686273 0.4906996 0.4313727 -0.4906996
202169 0.4098640 -0.4871763 0.5901360 0.4871763 0.5901360 0.4871763 0.4098640 -0.4871763
211427 0.3887040 -0.4827566 0.6112960 0.4827566 0.6112960 0.4827566 0.3887040 -0.4827566
221108 0.3679657 -0.4774822 0.6320343 0.4774822 0.6320343 0.4774822 0.3679657 -0.4774822
231233 0.3477157 -0.4714017 0.6522843 0.4714017 0.6522843 0.4714017 0.3477157 -0.4714017
241822 0.3280138 -0.4645694 0.6719862 0.4645694 0.6719862 0.4645694 0.3280138 -0.4645694
252896 0.3089122 -0.4570444 0.6910878 0.4570444 0.6910878 0.4570444 0.3089122 -0.4570444
264476 0.2904556 -0.4488893 0.7095444 0.4488893 0.7095444 0.4488893 0.2904556 -0.4488893
276587 0.2726803 -0.4401689 0.7273197 0.4401689 0.7273197 0.4401689 0.2726803 -0.4401689
289253 0.2556151 -0.4309495 0.7443849 0.4309495 0.7443849 0.4309495 0.2556151 -0.4309495
302498 0.2392808 -0.4212974 0.7607192 0.4212974 0.7607192 0.4212974 0.2392808 -0.4212974
316350 0.2236912 -0.4112782 0.7763088 0.4112782 0.7763088 0.4112782 0.2236912 -0.4112782
330837 0.2088528 -0.4009559 0.7911472 0.4009559 0.7911472 0.4009559 0.2088528 -0.4009559
345986 0.1947661 -0.3903923 0.8052339 0.3903923 0.8052339 0.3903923 0.1947661 -0.3903923
361830 0.1814257 -0.3796461 0.8185743 0.3796461 0.8185743 0.3796461 0.1814257 -0.3796461
378399 0.1688214 -0.3687727 0.8311786 0.3687727 0.8311786 0.3687727 0.1688214 -0.3687727
395726 0.1569383 -0.3578239 0.8430617 0.3578239 0.8430617 0.3578239 0.1569383 -0.3578239
413847 0.1457581 -0.3468472 0.8542419 0.3468472 0.8542419 0.3468472 0.1457581 -0.3468472
432798 0.1352593 -0.3358865 0.8647407 0.3358865 0.8647407 0.3358865 0.1352593 -0.3358865
452617 0.1254179 -0.3249811 0.8745821 0.3249811 0.8745821 0.3249811 0.1254179 -0.3249811
473344 0.1162081 -0.3141664 0.8837919 0.3141664 0.8837919 0.3141664 0.1162081 -0.3141664
495019 0.1076028 -0.3034739 0.8923972 0.3034739 0.8923972 0.3034739 0.1076028 -0.3034739
517687 0.0995738 -0.2929311 0.9004262 0.2929311 0.9004262 0.2929311 0.0995738 -0.2929311
541393 0.0920926 -0.2825619 0.9079074 0.2825619 0.9079074 0.2825619 0.0920926 -0.2825619
566185 0.0851306 -0.2723867 0.9148694 0.2723867 0.9148694 0.2723867 0.0851306 -0.2723867
592111 0.0786591 -0.2624229 0.9213409 0.2624229 0.9213409 0.2624229 0.0786591 -0.2624229
619225 0.0726501 -0.2526847 0.9273499 0.2526847 0.9273499 0.2526847 0.0726501 -0.2526847
647581 0.0670761 -0.2431837 0.9329239 0.2431837 0.9329239 0.2431837 0.0670761 -0.2431837
677235 0.0619105 -0.2339290 0.9380895 0.2339290 0.9380895 0.2339290 0.0619105 -0.2339290
708247 0.0571273 -0.2249277 0.9428727 0.2249277 0.9428727 0.2249277 0.0571273 -0.2249277
740679 0.0527018 -0.2161845 0.9472982 0.2161845 0.9472982 0.2161845 0.0527018 -0.2161845
774597 0.0486103 -0.2077028 0.9513897 0.2077028 0.9513897 0.2077028 0.0486103 -0.2077028
810067 0.0448302 -0.1994840 0.9551698 0.1994840 0.9551698 0.1994840 0.0448302 -0.1994840
847162 0.0413400 -0.1915286 0.9586600 0.1915286 0.9586600 0.1915286 0.0413400 -0.1915286
885955 0.0381194 -0.1838353 0.9618806 0.1838353 0.9618806 0.1838353 0.0381194 -0.1838353
926525 0.0351491 -0.1764024 0.9648509 0.1764024 0.9648509 0.1764024 0.0351491 -0.1764024
968953 0.0324111 -0.1692268 0.9675889 0.1692268 0.9675889 0.1692268 0.0324111 -0.1692268
1013323 0.0298883 -0.1623050 0.9701117 0.1623050 0.9701117 0.1623050 0.0298883 -0.1623050
1059725 0.0275649 -0.1556325 0.9724351 0.1556325 0.9724351 0.1556325 0.0275649 -0.1556325
1108252 0.0254258 -0.1492047 0.9745742 0.1492047 0.9745742 0.1492047 0.0254258 -0.1492047
1159002 0.0234572 -0.1430160 0.9765428 0.1430160 0.9765428 0.1430160 0.0234572 -0.1430160
1212075 0.0216458 -0.1370610 0.9783542 0.1370610 0.9783542 0.1370610 0.0216458 -0.1370610
1267578 0.0199797 -0.1313337 0.9800203 0.1313337 0.9800203 0.1313337 0.0199797 -0.1313337
1325623 0.0184475 -0.1258278 0.9815525 0.1258278 0.9815525 0.1258278 0.0184475 -0.1258278
1386327 0.0170387 -0.1205372 0.9829613 0.1205372 0.9829613 0.1205372 0.0170387 -0.1205372
1449809 0.0157435 -0.1154552 0.9842565 0.1154552 0.9842565 0.1154552 0.0157435 -0.1154552
1516199 0.0145529 -0.1105756 0.9854471 0.1105756 0.9854471 0.1105756 0.0145529 -0.1105756
1585629 0.0134585 -0.1058916 0.9865415 0.1058916 0.9865415 0.1058916 0.0134585 -0.1058916
1658239 0.0124526 -0.1013968 0.9875474 0.1013968 0.9875474 0.1013968 0.0124526 -0.1013968
1734173 0.0115279 -0.0970847 0.9884721 0.0970847 0.9884721 0.0970847 0.0115279 -0.0970847
1813585 0.0106780 -0.0929489 0.9893220 0.0929489 0.9893220 0.0929489 0.0106780 -0.0929489
1896632 0.0098966 -0.0889831 0.9901034 0.0889831 0.9901034 0.0889831 0.0098966 -0.0889831
1983483 0.0091781 -0.0851809 0.9908219 0.0851809 0.9908219 0.0851809 0.0091781 -0.0851809
2074311 0.0085175 -0.0815363 0.9914825 0.0815363 0.9914825 0.0815363 0.0085175 -0.0815363
