!Murata Part Number: GRM188R71H822KA01
!These Parameters are Measured in Series Mode Connection
!Data Generated on Mar 30, 2021
!       o--ll--o
!Port1            Port2
!       o------o
!Operation Temp=25[degC], DC Bias Voltage=0[V]
!Freq. Start=100[Hz] Stop=6[GHz] 401[Steps]
# Hz S RI R 50
!Freq.(Hz) S11(Real) S11(Imag) S21(Real) S21(Imag) S12(Real) S12(Imag) S22(Real) S22(Imag)
100 0.9999968 -0.0005063 0.0000032 0.0005063 0.0000032 0.0005063 0.9999968 -0.0005063
105 0.9999967 -0.0005294 0.0000033 0.0005294 0.0000033 0.0005294 0.9999967 -0.0005294
109 0.9999966 -0.0005535 0.0000034 0.0005535 0.0000034 0.0005535 0.9999966 -0.0005535
114 0.9999964 -0.0005788 0.0000036 0.0005788 0.0000036 0.0005788 0.9999964 -0.0005788
120 0.9999963 -0.0006052 0.0000037 0.0006052 0.0000037 0.0006052 0.9999963 -0.0006052
125 0.9999962 -0.0006328 0.0000038 0.0006328 0.0000038 0.0006328 0.9999962 -0.0006328
131 0.9999960 -0.0006617 0.0000040 0.0006617 0.0000040 0.0006617 0.9999960 -0.0006617
137 0.9999958 -0.0006919 0.0000042 0.0006919 0.0000042 0.0006919 0.9999958 -0.0006919
143 0.9999956 -0.0007235 0.0000044 0.0007235 0.0000044 0.0007235 0.9999956 -0.0007235
150 0.9999954 -0.0007565 0.0000046 0.0007565 0.0000046 0.0007565 0.9999954 -0.0007565
156 0.9999952 -0.0007911 0.0000048 0.0007911 0.0000048 0.0007911 0.9999952 -0.0007911
164 0.9999950 -0.0008272 0.0000050 0.0008272 0.0000050 0.0008272 0.9999950 -0.0008272
171 0.9999948 -0.0008650 0.0000052 0.0008650 0.0000052 0.0008650 0.9999948 -0.0008650
179 0.9999945 -0.0009045 0.0000055 0.0009045 0.0000055 0.0009045 0.9999945 -0.0009045
187 0.9999943 -0.0009458 0.0000057 0.0009458 0.0000057 0.0009458 0.9999943 -0.0009458
196 0.9999940 -0.0009890 0.0000060 0.0009890 0.0000060 0.0009890 0.9999940 -0.0009890
205 0.9999937 -0.0010342 0.0000063 0.0010342 0.0000063 0.0010342 0.9999937 -0.0010342
214 0.9999933 -0.0010814 0.0000067 0.0010814 0.0000067 0.0010814 0.9999933 -0.0010814
224 0.9999930 -0.0011308 0.0000070 0.0011308 0.0000070 0.0011308 0.9999930 -0.0011308
234 0.9999926 -0.0011824 0.0000074 0.0011824 0.0000074 0.0011824 0.9999926 -0.0011824
245 0.9999922 -0.0012364 0.0000078 0.0012364 0.0000078 0.0012364 0.9999922 -0.0012364
256 0.9999917 -0.0012929 0.0000083 0.0012929 0.0000083 0.0012929 0.9999917 -0.0012929
268 0.9999913 -0.0013519 0.0000087 0.0013519 0.0000087 0.0013519 0.9999913 -0.0013519
280 0.9999907 -0.0014137 0.0000093 0.0014137 0.0000093 0.0014137 0.9999907 -0.0014137
293 0.9999902 -0.0014782 0.0000098 0.0014782 0.0000098 0.0014782 0.9999902 -0.0014782
306 0.9999896 -0.0015457 0.0000104 0.0015457 0.0000104 0.0015457 0.9999896 -0.0015457
320 0.9999890 -0.0016163 0.0000110 0.0016163 0.0000110 0.0016163 0.9999890 -0.0016163
335 0.9999883 -0.0016901 0.0000117 0.0016901 0.0000117 0.0016901 0.9999883 -0.0016901
350 0.9999875 -0.0017672 0.0000125 0.0017672 0.0000125 0.0017672 0.9999875 -0.0017672
366 0.9999868 -0.0018479 0.0000132 0.0018479 0.0000132 0.0018479 0.9999868 -0.0018479
383 0.9999859 -0.0019322 0.0000141 0.0019322 0.0000141 0.0019322 0.9999859 -0.0019322
401 0.9999850 -0.0020204 0.0000150 0.0020204 0.0000150 0.0020204 0.9999850 -0.0020204
419 0.9999841 -0.0021126 0.0000159 0.0021126 0.0000159 0.0021126 0.9999841 -0.0021126
438 0.9999831 -0.0022089 0.0000169 0.0022089 0.0000169 0.0022089 0.9999831 -0.0022089
458 0.9999820 -0.0023097 0.0000180 0.0023097 0.0000180 0.0023097 0.9999820 -0.0023097
479 0.9999808 -0.0024151 0.0000192 0.0024151 0.0000192 0.0024151 0.9999808 -0.0024151
501 0.9999796 -0.0025252 0.0000204 0.0025252 0.0000204 0.0025252 0.9999796 -0.0025252
524 0.9999783 -0.0026404 0.0000217 0.0026404 0.0000217 0.0026404 0.9999783 -0.0026404
548 0.9999769 -0.0027608 0.0000231 0.0027608 0.0000231 0.0027608 0.9999769 -0.0027608
573 0.9999754 -0.0028867 0.0000246 0.0028867 0.0000246 0.0028867 0.9999754 -0.0028867
600 0.9999739 -0.0030183 0.0000261 0.0030183 0.0000261 0.0030183 0.9999739 -0.0030183
627 0.9999722 -0.0031559 0.0000278 0.0031559 0.0000278 0.0031559 0.9999722 -0.0031559
656 0.9999704 -0.0032998 0.0000296 0.0032998 0.0000296 0.0032998 0.9999704 -0.0032998
686 0.9999686 -0.0034503 0.0000314 0.0034503 0.0000314 0.0034503 0.9999686 -0.0034503
717 0.9999666 -0.0036076 0.0000334 0.0036076 0.0000334 0.0036076 0.9999666 -0.0036076
750 0.9999644 -0.0037721 0.0000356 0.0037721 0.0000356 0.0037721 0.9999644 -0.0037721
784 0.9999622 -0.0039441 0.0000378 0.0039441 0.0000378 0.0039441 0.9999622 -0.0039441
820 0.9999598 -0.0041239 0.0000402 0.0041239 0.0000402 0.0041239 0.9999598 -0.0041239
858 0.9999572 -0.0043120 0.0000428 0.0043120 0.0000428 0.0043120 0.9999572 -0.0043120
897 0.9999544 -0.0045086 0.0000456 0.0045086 0.0000456 0.0045086 0.9999544 -0.0045086
938 0.9999515 -0.0047143 0.0000485 0.0047143 0.0000485 0.0047143 0.9999515 -0.0047143
981 0.9999483 -0.0049293 0.0000517 0.0049293 0.0000517 0.0049293 0.9999483 -0.0049293
1026 0.9999449 -0.0051541 0.0000551 0.0051541 0.0000551 0.0051541 0.9999449 -0.0051541
1073 0.9999413 -0.0053893 0.0000587 0.0053893 0.0000587 0.0053893 0.9999413 -0.0053893
1122 0.9999374 -0.0056351 0.0000626 0.0056351 0.0000626 0.0056351 0.9999374 -0.0056351
1174 0.9999332 -0.0058922 0.0000668 0.0058922 0.0000668 0.0058922 0.9999332 -0.0058922
1227 0.9999286 -0.0061611 0.0000714 0.0061611 0.0000714 0.0061611 0.9999286 -0.0061611
1283 0.9999237 -0.0064423 0.0000763 0.0064423 0.0000763 0.0064423 0.9999237 -0.0064423
1342 0.9999184 -0.0067363 0.0000816 0.0067363 0.0000816 0.0067363 0.9999184 -0.0067363
1404 0.9999127 -0.0070437 0.0000873 0.0070437 0.0000873 0.0070437 0.9999127 -0.0070437
1468 0.9999064 -0.0073652 0.0000936 0.0073652 0.0000936 0.0073652 0.9999064 -0.0073652
1535 0.9998997 -0.0077014 0.0001003 0.0077014 0.0001003 0.0077014 0.9998997 -0.0077014
1606 0.9998924 -0.0080529 0.0001076 0.0080529 0.0001076 0.0080529 0.9998924 -0.0080529
1679 0.9998845 -0.0084205 0.0001155 0.0084205 0.0001155 0.0084205 0.9998845 -0.0084205
1756 0.9998758 -0.0088049 0.0001242 0.0088049 0.0001242 0.0088049 0.9998758 -0.0088049
1836 0.9998665 -0.0092069 0.0001335 0.0092069 0.0001335 0.0092069 0.9998665 -0.0092069
1920 0.9998563 -0.0096271 0.0001437 0.0096271 0.0001437 0.0096271 0.9998563 -0.0096271
2008 0.9998453 -0.0100666 0.0001547 0.0100666 0.0001547 0.0100666 0.9998453 -0.0100666
2100 0.9998332 -0.0105261 0.0001668 0.0105261 0.0001668 0.0105261 0.9998332 -0.0105261
2196 0.9998202 -0.0110066 0.0001798 0.0110066 0.0001798 0.0110066 0.9998202 -0.0110066
2297 0.9998060 -0.0115090 0.0001940 0.0115090 0.0001940 0.0115090 0.9998060 -0.0115090
2402 0.9997905 -0.0120342 0.0002095 0.0120342 0.0002095 0.0120342 0.9997905 -0.0120342
2512 0.9997737 -0.0125834 0.0002263 0.0125834 0.0002263 0.0125834 0.9997737 -0.0125834
2627 0.9997554 -0.0131576 0.0002446 0.0131576 0.0002446 0.0131576 0.9997554 -0.0131576
2748 0.9997355 -0.0137579 0.0002645 0.0137579 0.0002645 0.0137579 0.9997355 -0.0137579
2873 0.9997139 -0.0143855 0.0002861 0.0143855 0.0002861 0.0143855 0.9997139 -0.0143855
3005 0.9996904 -0.0150417 0.0003096 0.0150417 0.0003096 0.0150417 0.9996904 -0.0150417
3143 0.9996648 -0.0157277 0.0003352 0.0157277 0.0003352 0.0157277 0.9996648 -0.0157277
3287 0.9996370 -0.0164449 0.0003630 0.0164449 0.0003630 0.0164449 0.9996370 -0.0164449
3437 0.9996068 -0.0171947 0.0003932 0.0171947 0.0003932 0.0171947 0.9996068 -0.0171947
3594 0.9995739 -0.0179785 0.0004261 0.0179785 0.0004261 0.0179785 0.9995739 -0.0179785
3759 0.9995382 -0.0187979 0.0004618 0.0187979 0.0004618 0.0187979 0.9995382 -0.0187979
3931 0.9994995 -0.0196545 0.0005005 0.0196545 0.0005005 0.0196545 0.9994995 -0.0196545
4111 0.9994573 -0.0205499 0.0005427 0.0205499 0.0005427 0.0205499 0.9994573 -0.0205499
4299 0.9994116 -0.0214860 0.0005884 0.0214860 0.0005884 0.0214860 0.9994116 -0.0214860
4496 0.9993619 -0.0224645 0.0006381 0.0224645 0.0006381 0.0224645 0.9993619 -0.0224645
4702 0.9993079 -0.0234874 0.0006921 0.0234874 0.0006921 0.0234874 0.9993079 -0.0234874
4918 0.9992492 -0.0245567 0.0007508 0.0245567 0.0007508 0.0245567 0.9992492 -0.0245567
5143 0.9991855 -0.0256744 0.0008145 0.0256744 0.0008145 0.0256744 0.9991855 -0.0256744
5378 0.9991163 -0.0268428 0.0008837 0.0268428 0.0008837 0.0268428 0.9991163 -0.0268428
5625 0.9990411 -0.0280641 0.0009589 0.0280641 0.0009589 0.0280641 0.9990411 -0.0280641
5882 0.9989593 -0.0293407 0.0010407 0.0293407 0.0010407 0.0293407 0.9989593 -0.0293407
6151 0.9988705 -0.0306752 0.0011295 0.0306752 0.0011295 0.0306752 0.9988705 -0.0306752
6433 0.9987740 -0.0320701 0.0012260 0.0320701 0.0012260 0.0320701 0.9987740 -0.0320701
6728 0.9986691 -0.0335281 0.0013309 0.0335281 0.0013309 0.0335281 0.9986691 -0.0335281
7036 0.9985549 -0.0350521 0.0014451 0.0350521 0.0014451 0.0350521 0.9985549 -0.0350521
7358 0.9984308 -0.0366451 0.0015692 0.0366451 0.0015692 0.0366451 0.9984308 -0.0366451
7695 0.9982957 -0.0383101 0.0017043 0.0383101 0.0017043 0.0383101 0.9982957 -0.0383101
8047 0.9981487 -0.0400504 0.0018513 0.0400504 0.0018513 0.0400504 0.9981487 -0.0400504
8416 0.9979887 -0.0418694 0.0020113 0.0418694 0.0020113 0.0418694 0.9979887 -0.0418694
8801 0.9978144 -0.0437705 0.0021856 0.0437705 0.0021856 0.0437705 0.9978144 -0.0437705
9204 0.9976246 -0.0457573 0.0023754 0.0457573 0.0023754 0.0457573 0.9976246 -0.0457573
9626 0.9974178 -0.0478337 0.0025822 0.0478337 0.0025822 0.0478337 0.9974178 -0.0478337
10066 0.9971924 -0.0500036 0.0028076 0.0500036 0.0028076 0.0500036 0.9971924 -0.0500036
10527 0.9969467 -0.0522711 0.0030533 0.0522711 0.0030533 0.0522711 0.9969467 -0.0522711
11009 0.9966789 -0.0546404 0.0033211 0.0546404 0.0033211 0.0546404 0.9966789 -0.0546404
11514 0.9963869 -0.0571160 0.0036131 0.0571160 0.0036131 0.0571160 0.9963869 -0.0571160
12041 0.9960683 -0.0597024 0.0039317 0.0597024 0.0039317 0.0597024 0.9960683 -0.0597024
12592 0.9957209 -0.0624043 0.0042791 0.0624043 0.0042791 0.0624043 0.9957209 -0.0624043
13169 0.9953419 -0.0652267 0.0046581 0.0652267 0.0046581 0.0652267 0.9953419 -0.0652267
13772 0.9949283 -0.0681745 0.0050717 0.0681745 0.0050717 0.0681745 0.9949283 -0.0681745
14402 0.9944771 -0.0712531 0.0055229 0.0712531 0.0055229 0.0712531 0.9944771 -0.0712531
15062 0.9939847 -0.0744677 0.0060153 0.0744677 0.0060153 0.0744677 0.9939847 -0.0744677
15752 0.9934475 -0.0778240 0.0065525 0.0778240 0.0065525 0.0778240 0.9934475 -0.0778240
16473 0.9928613 -0.0813276 0.0071387 0.0813276 0.0071387 0.0813276 0.9928613 -0.0813276
17227 0.9922216 -0.0849844 0.0077784 0.0849844 0.0077784 0.0849844 0.9922216 -0.0849844
18016 0.9915237 -0.0888004 0.0084763 0.0888004 0.0084763 0.0888004 0.9915237 -0.0888004
18841 0.9907622 -0.0927817 0.0092378 0.0927817 0.0092378 0.0927817 0.9907622 -0.0927817
19704 0.9899316 -0.0969345 0.0100684 0.0969345 0.0100684 0.0969345 0.9899316 -0.0969345
20606 0.9890256 -0.1012652 0.0109744 0.1012652 0.0109744 0.1012652 0.9890256 -0.1012652
21550 0.9880375 -0.1057803 0.0119625 0.1057803 0.0119625 0.1057803 0.9880375 -0.1057803
22537 0.9869600 -0.1104861 0.0130400 0.1104861 0.0130400 0.1104861 0.9869600 -0.1104861
23569 0.9857854 -0.1153892 0.0142146 0.1153892 0.0142146 0.1153892 0.9857854 -0.1153892
24648 0.9845052 -0.1204963 0.0154948 0.1204963 0.0154948 0.1204963 0.9845052 -0.1204963
25777 0.9831101 -0.1258138 0.0168899 0.1258138 0.0168899 0.1258138 0.9831101 -0.1258138
26957 0.9815903 -0.1313481 0.0184097 0.1313481 0.0184097 0.1313481 0.9815903 -0.1313481
28191 0.9799352 -0.1371056 0.0200648 0.1371056 0.0200648 0.1371056 0.9799352 -0.1371056
29482 0.9781332 -0.1430925 0.0218668 0.1430925 0.0218668 0.1430925 0.9781332 -0.1430925
30832 0.9761721 -0.1493146 0.0238279 0.1493146 0.0238279 0.1493146 0.9761721 -0.1493146
32244 0.9740387 -0.1557776 0.0259613 0.1557776 0.0259613 0.1557776 0.9740387 -0.1557776
33721 0.9717188 -0.1624869 0.0282812 0.1624869 0.0282812 0.1624869 0.9717188 -0.1624869
35265 0.9691972 -0.1694470 0.0308028 0.1694470 0.0308028 0.1694470 0.9691972 -0.1694470
36880 0.9664577 -0.1766624 0.0335423 0.1766624 0.0335423 0.1766624 0.9664577 -0.1766624
38569 0.9634831 -0.1841364 0.0365169 0.1841364 0.0365169 0.1841364 0.9634831 -0.1841364
40335 0.9602550 -0.1918719 0.0397450 0.1918719 0.0397450 0.1918719 0.9602550 -0.1918719
42182 0.9567541 -0.1998707 0.0432459 0.1998707 0.0432459 0.1998707 0.9567541 -0.1998707
44113 0.9529596 -0.2081335 0.0470404 0.2081335 0.0470404 0.2081335 0.9529596 -0.2081335
46134 0.9488500 -0.2166597 0.0511500 0.2166597 0.0511500 0.2166597 0.9488500 -0.2166597
48246 0.9444024 -0.2254476 0.0555976 0.2254476 0.0555976 0.2254476 0.9444024 -0.2254476
50455 0.9395928 -0.2344934 0.0604072 0.2344934 0.0604072 0.2344934 0.9395928 -0.2344934
52766 0.9343965 -0.2437919 0.0656035 0.2437919 0.0656035 0.2437919 0.9343965 -0.2437919
55182 0.9287873 -0.2533357 0.0712127 0.2533357 0.0712127 0.2533357 0.9287873 -0.2533357
57709 0.9227387 -0.2631151 0.0772613 0.2631151 0.0772613 0.2631151 0.9227387 -0.2631151
60352 0.9162230 -0.2731182 0.0837770 0.2731182 0.0837770 0.2731182 0.9162230 -0.2731182
63115 0.9092123 -0.2833300 0.0907877 0.2833300 0.0907877 0.2833300 0.9092123 -0.2833300
66005 0.9016782 -0.2937328 0.0983218 0.2937328 0.0983218 0.2937328 0.9016782 -0.2937328
69028 0.8935921 -0.3043056 0.1064079 0.3043056 0.1064079 0.3043056 0.8935921 -0.3043056
72189 0.8849257 -0.3150239 0.1150743 0.3150239 0.1150743 0.3150239 0.8849257 -0.3150239
75495 0.8756514 -0.3258598 0.1243486 0.3258598 0.1243486 0.3258598 0.8756514 -0.3258598
78952 0.8657423 -0.3367813 0.1342577 0.3367813 0.1342577 0.3367813 0.8657423 -0.3367813
82567 0.8551731 -0.3477527 0.1448269 0.3477527 0.1448269 0.3477527 0.8551731 -0.3477527
86348 0.8439203 -0.3587341 0.1560797 0.3587341 0.1560797 0.3587341 0.8439203 -0.3587341
90302 0.8319630 -0.3696815 0.1680370 0.3696815 0.1680370 0.3696815 0.8319630 -0.3696815
94437 0.8192834 -0.3805469 0.1807166 0.3805469 0.1807166 0.3805469 0.8192834 -0.3805469
98762 0.8058674 -0.3912784 0.1941326 0.3912784 0.1941326 0.3912784 0.8058674 -0.3912784
103284 0.7917053 -0.4018206 0.2082947 0.4018206 0.2082947 0.4018206 0.7917053 -0.4018206
108014 0.7767924 -0.4121145 0.2232076 0.4121145 0.2232076 0.4121145 0.7767924 -0.4121145
112960 0.7611299 -0.4220984 0.2388701 0.4220984 0.2388701 0.4220984 0.7611299 -0.4220984
118133 0.7447250 -0.4317084 0.2552750 0.4317084 0.2552750 0.4317084 0.7447250 -0.4317084
123542 0.7275922 -0.4408790 0.2724078 0.4408790 0.2724078 0.4408790 0.7275922 -0.4408790
129199 0.7097530 -0.4495441 0.2902470 0.4495441 0.2902470 0.4495441 0.7097530 -0.4495441
135116 0.6912367 -0.4576377 0.3087633 0.4576377 0.3087633 0.4576377 0.6912367 -0.4576377
141303 0.6720805 -0.4650952 0.3279195 0.4650952 0.3279195 0.4650952 0.6720805 -0.4650952
147774 0.6523296 -0.4718546 0.3476704 0.4718546 0.3476704 0.4718546 0.6523296 -0.4718546
154540 0.6320368 -0.4778571 0.3679632 0.4778571 0.3679632 0.4778571 0.6320368 -0.4778571
161617 0.6112624 -0.4830490 0.3887376 0.4830490 0.3887376 0.4830490 0.6112624 -0.4830490
169018 0.5900736 -0.4873824 0.4099264 0.4873824 0.4099264 0.4873824 0.5900736 -0.4873824
176758 0.5685439 -0.4908162 0.4314561 0.4908162 0.4314561 0.4908162 0.5685439 -0.4908162
184852 0.5467517 -0.4933171 0.4532483 0.4933171 0.4532483 0.4933171 0.5467517 -0.4933171
193316 0.5247796 -0.4948607 0.4752204 0.4948607 0.4752204 0.4948607 0.5247796 -0.4948607
202169 0.5027132 -0.4954315 0.4972868 0.4954315 0.4972868 0.4954315 0.5027132 -0.4954315
211427 0.4806395 -0.4950239 0.5193605 0.4950239 0.5193605 0.4950239 0.4806395 -0.4950239
221108 0.4586457 -0.4936419 0.5413543 0.4936419 0.5413543 0.4936419 0.4586457 -0.4936419
231233 0.4368175 -0.4912990 0.5631825 0.4912990 0.5631825 0.4912990 0.4368175 -0.4912990
241822 0.4152384 -0.4880183 0.5847616 0.4880183 0.5847616 0.4880183 0.4152384 -0.4880183
252896 0.3939879 -0.4838314 0.6060121 0.4838314 0.6060121 0.4838314 0.3939879 -0.4838314
264476 0.3731403 -0.4787782 0.6268597 0.4787782 0.6268597 0.4787782 0.3731403 -0.4787782
276587 0.3527641 -0.4729055 0.6472359 0.4729055 0.6472359 0.4729055 0.3527641 -0.4729055
289253 0.3329210 -0.4662665 0.6670790 0.4662665 0.6670790 0.4662665 0.3329210 -0.4662665
302498 0.3136654 -0.4589190 0.6863346 0.4589190 0.6863346 0.4589190 0.3136654 -0.4589190
316350 0.2950439 -0.4509249 0.7049561 0.4509249 0.7049561 0.4509249 0.2950439 -0.4509249
330837 0.2770950 -0.4423487 0.7229050 0.4423487 0.7229050 0.4423487 0.2770950 -0.4423487
345986 0.2598494 -0.4332564 0.7401506 0.4332564 0.7401506 0.4332564 0.2598494 -0.4332564
361830 0.2433300 -0.4237145 0.7566700 0.4237145 0.7566700 0.4237145 0.2433300 -0.4237145
378399 0.2275522 -0.4137889 0.7724478 0.4137889 0.7724478 0.4137889 0.2275522 -0.4137889
395726 0.2125244 -0.4035442 0.7874756 0.4035442 0.7874756 0.4035442 0.2125244 -0.4035442
413847 0.1982485 -0.3930428 0.8017515 0.3930428 0.8017515 0.3930428 0.1982485 -0.3930428
432798 0.1847206 -0.3823443 0.8152794 0.3823443 0.8152794 0.3823443 0.1847206 -0.3823443
452617 0.1719314 -0.3715050 0.8280686 0.3715050 0.8280686 0.3715050 0.1719314 -0.3715050
473344 0.1598672 -0.3605776 0.8401328 0.3605776 0.8401328 0.3605776 0.1598672 -0.3605776
495019 0.1485105 -0.3496107 0.8514895 0.3496107 0.8514895 0.3496107 0.1485105 -0.3496107
517687 0.1378403 -0.3386491 0.8621597 0.3386491 0.8621597 0.3386491 0.1378403 -0.3386491
541393 0.1278333 -0.3277332 0.8721667 0.3277332 0.8721667 0.3277332 0.1278333 -0.3277332
566185 0.1184641 -0.3168994 0.8815359 0.3168994 0.8815359 0.3168994 0.1184641 -0.3168994
592111 0.1097056 -0.3061801 0.8902944 0.3061801 0.8902944 0.3061801 0.1097056 -0.3061801
619225 0.1015301 -0.2956036 0.8984699 0.2956036 0.8984699 0.2956036 0.1015301 -0.2956036
647581 0.0939090 -0.2851947 0.9060910 0.2851947 0.9060910 0.2851947 0.0939090 -0.2851947
677235 0.0868137 -0.2749747 0.9131863 0.2749747 0.9131863 0.2749747 0.0868137 -0.2749747
708247 0.0802155 -0.2649614 0.9197845 0.2649614 0.9197845 0.2649614 0.0802155 -0.2649614
740679 0.0740863 -0.2551699 0.9259137 0.2551699 0.9259137 0.2551699 0.0740863 -0.2551699
774597 0.0683985 -0.2456123 0.9316015 0.2456123 0.9316015 0.2456123 0.0683985 -0.2456123
810067 0.0631252 -0.2362982 0.9368748 0.2362982 0.9368748 0.2362982 0.0631252 -0.2362982
847162 0.0582405 -0.2272351 0.9417595 0.2272351 0.9417595 0.2272351 0.0582405 -0.2272351
885955 0.0537193 -0.2184283 0.9462807 0.2184283 0.9462807 0.2184283 0.0537193 -0.2184283
926525 0.0495379 -0.2098814 0.9504621 0.2098814 0.9504621 0.2098814 0.0495379 -0.2098814
968953 0.0456733 -0.2015964 0.9543267 0.2015964 0.9543267 0.2015964 0.0456733 -0.2015964
1013323 0.0421040 -0.1935737 0.9578960 0.1935737 0.9578960 0.1935737 0.0421040 -0.1935737
1059725 0.0388095 -0.1858128 0.9611905 0.1858128 0.9611905 0.1858128 0.0388095 -0.1858128
1108252 0.0357702 -0.1783119 0.9642298 0.1783119 0.9642298 0.1783119 0.0357702 -0.1783119
1159002 0.0329681 -0.1710682 0.9670319 0.1710682 0.9670319 0.1710682 0.0329681 -0.1710682
1212075 0.0303859 -0.1640785 0.9696141 0.1640785 0.9696141 0.1640785 0.0303859 -0.1640785
1267578 0.0280074 -0.1573386 0.9719926 0.1573386 0.9719926 0.1573386 0.0280074 -0.1573386
1325623 0.0258176 -0.1508438 0.9741824 0.1508438 0.9741824 0.1508438 0.0258176 -0.1508438
1386327 0.0238024 -0.1445890 0.9761976 0.1445890 0.9761976 0.1445890 0.0238024 -0.1445890
1449809 0.0219485 -0.1385687 0.9780515 0.1385687 0.9780515 0.1385687 0.0219485 -0.1385687
1516199 0.0202436 -0.1327773 0.9797564 0.1327773 0.9797564 0.1327773 0.0202436 -0.1327773
1585629 0.0186763 -0.1272085 0.9813237 0.1272085 0.9813237 0.1272085 0.0186763 -0.1272085
1658239 0.0172359 -0.1218563 0.9827641 0.1218563 0.9827641 0.1218563 0.0172359 -0.1218563
1734173 0.0159124 -0.1167144 0.9840876 0.1167144 0.9840876 0.1167144 0.0159124 -0.1167144
1813585 0.0146967 -0.1117763 0.9853033 0.1117763 0.9853033 0.1117763 0.0146967 -0.1117763
1896632 0.0135802 -0.1070357 0.9864198 0.1070357 0.9864198 0.1070357 0.0135802 -0.1070357
1983483 0.0125549 -0.1024862 0.9874451 0.1024862 0.9874451 0.1024862 0.0125549 -0.1024862
2074311 0.0116136 -0.0981213 0.9883864 0.0981213 0.9883864 0.0981213 0.0116136 -0.0981213
