!Murata Part Number: GRM188R72A471MA01
!These Parameters are Measured in Series Mode Connection
!Data Generated on Mar 30, 2021
!       o--ll--o
!Port1            Port2
!       o------o
!Operation Temp=25[degC], DC Bias Voltage=0[V]
!Freq. Start=100[Hz] Stop=6[GHz] 401[Steps]
# Hz S RI R 50
!Freq.(Hz) S11(Real) S11(Imag) S21(Real) S21(Imag) S12(Real) S12(Imag) S22(Real) S22(Imag)
100 0.9999998 -0.0000293 0.0000002 0.0000293 0.0000002 0.0000293 0.9999998 -0.0000293
105 0.9999998 -0.0000306 0.0000002 0.0000306 0.0000002 0.0000306 0.9999998 -0.0000306
109 0.9999997 -0.0000320 0.0000003 0.0000320 0.0000003 0.0000320 0.9999997 -0.0000320
114 0.9999997 -0.0000335 0.0000003 0.0000335 0.0000003 0.0000335 0.9999997 -0.0000335
120 0.9999997 -0.0000350 0.0000003 0.0000350 0.0000003 0.0000350 0.9999997 -0.0000350
125 0.9999997 -0.0000366 0.0000003 0.0000366 0.0000003 0.0000366 0.9999997 -0.0000366
131 0.9999997 -0.0000383 0.0000003 0.0000383 0.0000003 0.0000383 0.9999997 -0.0000383
137 0.9999997 -0.0000400 0.0000003 0.0000400 0.0000003 0.0000400 0.9999997 -0.0000400
143 0.9999997 -0.0000418 0.0000003 0.0000418 0.0000003 0.0000418 0.9999997 -0.0000418
150 0.9999997 -0.0000437 0.0000003 0.0000437 0.0000003 0.0000437 0.9999997 -0.0000437
156 0.9999997 -0.0000457 0.0000003 0.0000457 0.0000003 0.0000457 0.9999997 -0.0000457
164 0.9999996 -0.0000478 0.0000004 0.0000478 0.0000004 0.0000478 0.9999996 -0.0000478
171 0.9999996 -0.0000500 0.0000004 0.0000500 0.0000004 0.0000500 0.9999996 -0.0000500
179 0.9999996 -0.0000523 0.0000004 0.0000523 0.0000004 0.0000523 0.9999996 -0.0000523
187 0.9999996 -0.0000546 0.0000004 0.0000546 0.0000004 0.0000546 0.9999996 -0.0000546
196 0.9999996 -0.0000571 0.0000004 0.0000571 0.0000004 0.0000571 0.9999996 -0.0000571
205 0.9999996 -0.0000597 0.0000004 0.0000597 0.0000004 0.0000597 0.9999996 -0.0000597
214 0.9999996 -0.0000625 0.0000004 0.0000625 0.0000004 0.0000625 0.9999996 -0.0000625
224 0.9999995 -0.0000653 0.0000005 0.0000653 0.0000005 0.0000653 0.9999995 -0.0000653
234 0.9999995 -0.0000683 0.0000005 0.0000683 0.0000005 0.0000683 0.9999995 -0.0000683
245 0.9999995 -0.0000714 0.0000005 0.0000714 0.0000005 0.0000714 0.9999995 -0.0000714
256 0.9999995 -0.0000746 0.0000005 0.0000746 0.0000005 0.0000746 0.9999995 -0.0000746
268 0.9999995 -0.0000780 0.0000005 0.0000780 0.0000005 0.0000780 0.9999995 -0.0000780
280 0.9999995 -0.0000816 0.0000005 0.0000816 0.0000005 0.0000816 0.9999995 -0.0000816
293 0.9999994 -0.0000853 0.0000006 0.0000853 0.0000006 0.0000853 0.9999994 -0.0000853
306 0.9999994 -0.0000892 0.0000006 0.0000892 0.0000006 0.0000892 0.9999994 -0.0000892
320 0.9999994 -0.0000933 0.0000006 0.0000933 0.0000006 0.0000933 0.9999994 -0.0000933
335 0.9999994 -0.0000975 0.0000006 0.0000975 0.0000006 0.0000975 0.9999994 -0.0000975
350 0.9999993 -0.0001020 0.0000007 0.0001020 0.0000007 0.0001020 0.9999993 -0.0001020
366 0.9999993 -0.0001066 0.0000007 0.0001066 0.0000007 0.0001066 0.9999993 -0.0001066
383 0.9999993 -0.0001115 0.0000007 0.0001115 0.0000007 0.0001115 0.9999993 -0.0001115
401 0.9999993 -0.0001166 0.0000007 0.0001166 0.0000007 0.0001166 0.9999993 -0.0001166
419 0.9999992 -0.0001219 0.0000008 0.0001219 0.0000008 0.0001219 0.9999992 -0.0001219
438 0.9999992 -0.0001275 0.0000008 0.0001275 0.0000008 0.0001275 0.9999992 -0.0001275
458 0.9999992 -0.0001333 0.0000008 0.0001333 0.0000008 0.0001333 0.9999992 -0.0001333
479 0.9999992 -0.0001394 0.0000008 0.0001394 0.0000008 0.0001394 0.9999992 -0.0001394
501 0.9999991 -0.0001457 0.0000009 0.0001457 0.0000009 0.0001457 0.9999991 -0.0001457
524 0.9999991 -0.0001524 0.0000009 0.0001524 0.0000009 0.0001524 0.9999991 -0.0001524
548 0.9999991 -0.0001593 0.0000009 0.0001593 0.0000009 0.0001593 0.9999991 -0.0001593
573 0.9999990 -0.0001666 0.0000010 0.0001666 0.0000010 0.0001666 0.9999990 -0.0001666
600 0.9999990 -0.0001742 0.0000010 0.0001742 0.0000010 0.0001742 0.9999990 -0.0001742
627 0.9999990 -0.0001821 0.0000010 0.0001821 0.0000010 0.0001821 0.9999990 -0.0001821
656 0.9999989 -0.0001904 0.0000011 0.0001904 0.0000011 0.0001904 0.9999989 -0.0001904
686 0.9999989 -0.0001991 0.0000011 0.0001991 0.0000011 0.0001991 0.9999989 -0.0001991
717 0.9999988 -0.0002082 0.0000012 0.0002082 0.0000012 0.0002082 0.9999988 -0.0002082
750 0.9999988 -0.0002177 0.0000012 0.0002177 0.0000012 0.0002177 0.9999988 -0.0002177
784 0.9999988 -0.0002277 0.0000012 0.0002277 0.0000012 0.0002277 0.9999988 -0.0002277
820 0.9999987 -0.0002381 0.0000013 0.0002381 0.0000013 0.0002381 0.9999987 -0.0002381
858 0.9999987 -0.0002489 0.0000013 0.0002489 0.0000013 0.0002489 0.9999987 -0.0002489
897 0.9999986 -0.0002603 0.0000014 0.0002603 0.0000014 0.0002603 0.9999986 -0.0002603
938 0.9999986 -0.0002722 0.0000014 0.0002722 0.0000014 0.0002722 0.9999986 -0.0002722
981 0.9999985 -0.0002846 0.0000015 0.0002846 0.0000015 0.0002846 0.9999985 -0.0002846
1026 0.9999984 -0.0002976 0.0000016 0.0002976 0.0000016 0.0002976 0.9999984 -0.0002976
1073 0.9999984 -0.0003112 0.0000016 0.0003112 0.0000016 0.0003112 0.9999984 -0.0003112
1122 0.9999983 -0.0003255 0.0000017 0.0003255 0.0000017 0.0003255 0.9999983 -0.0003255
1174 0.9999982 -0.0003403 0.0000018 0.0003403 0.0000018 0.0003403 0.9999982 -0.0003403
1227 0.9999981 -0.0003559 0.0000019 0.0003559 0.0000019 0.0003559 0.9999981 -0.0003559
1283 0.9999981 -0.0003721 0.0000019 0.0003721 0.0000019 0.0003721 0.9999981 -0.0003721
1342 0.9999980 -0.0003891 0.0000020 0.0003891 0.0000020 0.0003891 0.9999980 -0.0003891
1404 0.9999979 -0.0004069 0.0000021 0.0004069 0.0000021 0.0004069 0.9999979 -0.0004069
1468 0.9999978 -0.0004255 0.0000022 0.0004255 0.0000022 0.0004255 0.9999978 -0.0004255
1535 0.9999976 -0.0004449 0.0000024 0.0004449 0.0000024 0.0004449 0.9999976 -0.0004449
1606 0.9999975 -0.0004653 0.0000025 0.0004653 0.0000025 0.0004653 0.9999975 -0.0004653
1679 0.9999974 -0.0004865 0.0000026 0.0004865 0.0000026 0.0004865 0.9999974 -0.0004865
1756 0.9999973 -0.0005088 0.0000027 0.0005088 0.0000027 0.0005088 0.9999973 -0.0005088
1836 0.9999971 -0.0005320 0.0000029 0.0005320 0.0000029 0.0005320 0.9999971 -0.0005320
1920 0.9999969 -0.0005563 0.0000031 0.0005563 0.0000031 0.0005563 0.9999969 -0.0005563
2008 0.9999968 -0.0005817 0.0000032 0.0005817 0.0000032 0.0005817 0.9999968 -0.0005817
2100 0.9999966 -0.0006083 0.0000034 0.0006083 0.0000034 0.0006083 0.9999966 -0.0006083
2196 0.9999964 -0.0006360 0.0000036 0.0006360 0.0000036 0.0006360 0.9999964 -0.0006360
2297 0.9999962 -0.0006651 0.0000038 0.0006651 0.0000038 0.0006651 0.9999962 -0.0006651
2402 0.9999960 -0.0006954 0.0000040 0.0006954 0.0000040 0.0006954 0.9999960 -0.0006954
2512 0.9999957 -0.0007272 0.0000043 0.0007272 0.0000043 0.0007272 0.9999957 -0.0007272
2627 0.9999955 -0.0007604 0.0000045 0.0007604 0.0000045 0.0007604 0.9999955 -0.0007604
2748 0.9999952 -0.0007951 0.0000048 0.0007951 0.0000048 0.0007951 0.9999952 -0.0007951
2873 0.9999949 -0.0008314 0.0000051 0.0008314 0.0000051 0.0008314 0.9999949 -0.0008314
3005 0.9999946 -0.0008693 0.0000054 0.0008693 0.0000054 0.0008693 0.9999946 -0.0008693
3143 0.9999943 -0.0009090 0.0000057 0.0009090 0.0000057 0.0009090 0.9999943 -0.0009090
3287 0.9999940 -0.0009504 0.0000060 0.0009504 0.0000060 0.0009504 0.9999940 -0.0009504
3437 0.9999936 -0.0009938 0.0000064 0.0009938 0.0000064 0.0009938 0.9999936 -0.0009938
3594 0.9999933 -0.0010391 0.0000067 0.0010391 0.0000067 0.0010391 0.9999933 -0.0010391
3759 0.9999929 -0.0010865 0.0000071 0.0010865 0.0000071 0.0010865 0.9999929 -0.0010865
3931 0.9999925 -0.0011361 0.0000075 0.0011361 0.0000075 0.0011361 0.9999925 -0.0011361
4111 0.9999920 -0.0011879 0.0000080 0.0011879 0.0000080 0.0011879 0.9999920 -0.0011879
4299 0.9999916 -0.0012421 0.0000084 0.0012421 0.0000084 0.0012421 0.9999916 -0.0012421
4496 0.9999911 -0.0012987 0.0000089 0.0012987 0.0000089 0.0012987 0.9999911 -0.0012987
4702 0.9999906 -0.0013579 0.0000094 0.0013579 0.0000094 0.0013579 0.9999906 -0.0013579
4918 0.9999901 -0.0014199 0.0000099 0.0014199 0.0000099 0.0014199 0.9999901 -0.0014199
5143 0.9999895 -0.0014846 0.0000105 0.0014846 0.0000105 0.0014846 0.9999895 -0.0014846
5378 0.9999890 -0.0015523 0.0000110 0.0015523 0.0000110 0.0015523 0.9999890 -0.0015523
5625 0.9999883 -0.0016231 0.0000117 0.0016231 0.0000117 0.0016231 0.9999883 -0.0016231
5882 0.9999877 -0.0016972 0.0000123 0.0016972 0.0000123 0.0016972 0.9999877 -0.0016972
6151 0.9999870 -0.0017746 0.0000130 0.0017746 0.0000130 0.0017746 0.9999870 -0.0017746
6433 0.9999863 -0.0018556 0.0000137 0.0018556 0.0000137 0.0018556 0.9999863 -0.0018556
6728 0.9999855 -0.0019402 0.0000145 0.0019402 0.0000145 0.0019402 0.9999855 -0.0019402
7036 0.9999847 -0.0020287 0.0000153 0.0020287 0.0000153 0.0020287 0.9999847 -0.0020287
7358 0.9999838 -0.0021213 0.0000162 0.0021213 0.0000162 0.0021213 0.9999838 -0.0021213
7695 0.9999829 -0.0022181 0.0000171 0.0022181 0.0000171 0.0022181 0.9999829 -0.0022181
8047 0.9999819 -0.0023193 0.0000181 0.0023193 0.0000181 0.0023193 0.9999819 -0.0023193
8416 0.9999808 -0.0024252 0.0000192 0.0024252 0.0000192 0.0024252 0.9999808 -0.0024252
8801 0.9999797 -0.0025359 0.0000203 0.0025359 0.0000203 0.0025359 0.9999797 -0.0025359
9204 0.9999784 -0.0026517 0.0000216 0.0026517 0.0000216 0.0026517 0.9999784 -0.0026517
9626 0.9999771 -0.0027727 0.0000229 0.0027727 0.0000229 0.0027727 0.9999771 -0.0027727
10066 0.9999757 -0.0028993 0.0000243 0.0028993 0.0000243 0.0028993 0.9999757 -0.0028993
10527 0.9999742 -0.0030316 0.0000258 0.0030316 0.0000258 0.0030316 0.9999742 -0.0030316
11009 0.9999725 -0.0031700 0.0000275 0.0031700 0.0000275 0.0031700 0.9999725 -0.0031700
11514 0.9999707 -0.0033148 0.0000293 0.0033148 0.0000293 0.0033148 0.9999707 -0.0033148
12041 0.9999688 -0.0034661 0.0000312 0.0034661 0.0000312 0.0034661 0.9999688 -0.0034661
12592 0.9999668 -0.0036243 0.0000332 0.0036243 0.0000332 0.0036243 0.9999668 -0.0036243
13169 0.9999645 -0.0037898 0.0000355 0.0037898 0.0000355 0.0037898 0.9999645 -0.0037898
13772 0.9999621 -0.0039628 0.0000379 0.0039628 0.0000379 0.0039628 0.9999621 -0.0039628
14402 0.9999595 -0.0041437 0.0000405 0.0041437 0.0000405 0.0041437 0.9999595 -0.0041437
15062 0.9999566 -0.0043329 0.0000434 0.0043329 0.0000434 0.0043329 0.9999566 -0.0043329
15752 0.9999536 -0.0045306 0.0000464 0.0045306 0.0000464 0.0045306 0.9999536 -0.0045306
16473 0.9999502 -0.0047374 0.0000498 0.0047374 0.0000498 0.0047374 0.9999502 -0.0047374
17227 0.9999466 -0.0049536 0.0000534 0.0049536 0.0000534 0.0049536 0.9999466 -0.0049536
18016 0.9999428 -0.0051797 0.0000572 0.0051797 0.0000572 0.0051797 0.9999428 -0.0051797
18841 0.9999386 -0.0054160 0.0000614 0.0054160 0.0000614 0.0054160 0.9999386 -0.0054160
19704 0.9999340 -0.0056631 0.0000660 0.0056631 0.0000660 0.0056631 0.9999340 -0.0056631
20606 0.9999291 -0.0059215 0.0000709 0.0059215 0.0000709 0.0059215 0.9999291 -0.0059215
21550 0.9999239 -0.0061916 0.0000761 0.0061916 0.0000761 0.0061916 0.9999239 -0.0061916
22537 0.9999181 -0.0064740 0.0000819 0.0064740 0.0000819 0.0064740 0.9999181 -0.0064740
23569 0.9999120 -0.0067692 0.0000880 0.0067692 0.0000880 0.0067692 0.9999120 -0.0067692
24648 0.9999053 -0.0070779 0.0000947 0.0070779 0.0000947 0.0070779 0.9999053 -0.0070779
25777 0.9998982 -0.0074006 0.0001018 0.0074006 0.0001018 0.0074006 0.9998982 -0.0074006
26957 0.9998904 -0.0077380 0.0001096 0.0077380 0.0001096 0.0077380 0.9998904 -0.0077380
28191 0.9998821 -0.0080907 0.0001179 0.0080907 0.0001179 0.0080907 0.9998821 -0.0080907
29482 0.9998731 -0.0084595 0.0001269 0.0084595 0.0001269 0.0084595 0.9998731 -0.0084595
30832 0.9998634 -0.0088450 0.0001366 0.0088450 0.0001366 0.0088450 0.9998634 -0.0088450
32244 0.9998530 -0.0092480 0.0001470 0.0092480 0.0001470 0.0092480 0.9998530 -0.0092480
33721 0.9998417 -0.0096694 0.0001583 0.0096694 0.0001583 0.0096694 0.9998417 -0.0096694
35265 0.9998296 -0.0101099 0.0001704 0.0101099 0.0001704 0.0101099 0.9998296 -0.0101099
36880 0.9998165 -0.0105705 0.0001835 0.0105705 0.0001835 0.0105705 0.9998165 -0.0105705
38569 0.9998023 -0.0110521 0.0001977 0.0110521 0.0001977 0.0110521 0.9998023 -0.0110521
40335 0.9997871 -0.0115555 0.0002129 0.0115555 0.0002129 0.0115555 0.9997871 -0.0115555
42182 0.9997706 -0.0120819 0.0002294 0.0120819 0.0002294 0.0120819 0.9997706 -0.0120819
44113 0.9997528 -0.0126323 0.0002472 0.0126323 0.0002472 0.0126323 0.9997528 -0.0126323
46134 0.9997336 -0.0132077 0.0002664 0.0132077 0.0002664 0.0132077 0.9997336 -0.0132077
48246 0.9997128 -0.0138093 0.0002872 0.0138093 0.0002872 0.0138093 0.9997128 -0.0138093
50455 0.9996903 -0.0144383 0.0003097 0.0144383 0.0003097 0.0144383 0.9996903 -0.0144383
52766 0.9996659 -0.0150960 0.0003341 0.0150960 0.0003341 0.0150960 0.9996659 -0.0150960
55182 0.9996395 -0.0157836 0.0003605 0.0157836 0.0003605 0.0157836 0.9996395 -0.0157836
57709 0.9996108 -0.0165026 0.0003892 0.0165026 0.0003892 0.0165026 0.9996108 -0.0165026
60352 0.9995798 -0.0172544 0.0004202 0.0172544 0.0004202 0.0172544 0.9995798 -0.0172544
63115 0.9995461 -0.0180403 0.0004539 0.0180403 0.0004539 0.0180403 0.9995461 -0.0180403
66005 0.9995094 -0.0188621 0.0004906 0.0188621 0.0004906 0.0188621 0.9995094 -0.0188621
69028 0.9994697 -0.0197213 0.0005303 0.0197213 0.0005303 0.0197213 0.9994697 -0.0197213
72189 0.9994264 -0.0206196 0.0005736 0.0206196 0.0005736 0.0206196 0.9994264 -0.0206196
75495 0.9993794 -0.0215589 0.0006206 0.0215589 0.0006206 0.0215589 0.9993794 -0.0215589
78952 0.9993282 -0.0225408 0.0006718 0.0225408 0.0006718 0.0225408 0.9993282 -0.0225408
82567 0.9992725 -0.0235674 0.0007275 0.0235674 0.0007275 0.0235674 0.9992725 -0.0235674
86348 0.9992118 -0.0246407 0.0007882 0.0246407 0.0007882 0.0246407 0.9992118 -0.0246407
90302 0.9991457 -0.0257627 0.0008543 0.0257627 0.0008543 0.0257627 0.9991457 -0.0257627
94437 0.9990738 -0.0269356 0.0009262 0.0269356 0.0009262 0.0269356 0.9990738 -0.0269356
98762 0.9989954 -0.0281618 0.0010046 0.0281618 0.0010046 0.0281618 0.9989954 -0.0281618
103284 0.9989100 -0.0294435 0.0010900 0.0294435 0.0010900 0.0294435 0.9989100 -0.0294435
108014 0.9988169 -0.0307833 0.0011831 0.0307833 0.0011831 0.0307833 0.9988169 -0.0307833
112960 0.9987155 -0.0321837 0.0012845 0.0321837 0.0012845 0.0321837 0.9987155 -0.0321837
118133 0.9986049 -0.0336473 0.0013951 0.0336473 0.0013951 0.0336473 0.9986049 -0.0336473
123542 0.9984844 -0.0351771 0.0015156 0.0351771 0.0015156 0.0351771 0.9984844 -0.0351771
129199 0.9983531 -0.0367759 0.0016469 0.0367759 0.0016469 0.0367759 0.9983531 -0.0367759
135116 0.9982099 -0.0384467 0.0017901 0.0384467 0.0017901 0.0384467 0.9982099 -0.0384467
141303 0.9980539 -0.0401926 0.0019461 0.0401926 0.0019461 0.0401926 0.9980539 -0.0401926
147774 0.9978840 -0.0420171 0.0021160 0.0420171 0.0021160 0.0420171 0.9978840 -0.0420171
154540 0.9976987 -0.0439233 0.0023013 0.0439233 0.0023013 0.0439233 0.9976987 -0.0439233
161617 0.9974969 -0.0459150 0.0025031 0.0459150 0.0025031 0.0459150 0.9974969 -0.0459150
169018 0.9972770 -0.0479958 0.0027230 0.0479958 0.0027230 0.0479958 0.9972770 -0.0479958
176758 0.9970375 -0.0501695 0.0029625 0.0501695 0.0029625 0.0501695 0.9970375 -0.0501695
184852 0.9967766 -0.0524401 0.0032234 0.0524401 0.0032234 0.0524401 0.9967766 -0.0524401
193316 0.9964924 -0.0548118 0.0035076 0.0548118 0.0035076 0.0548118 0.9964924 -0.0548118
202169 0.9961829 -0.0572888 0.0038171 0.0572888 0.0038171 0.0572888 0.9961829 -0.0572888
211427 0.9958458 -0.0598756 0.0041542 0.0598756 0.0041542 0.0598756 0.9958458 -0.0598756
221108 0.9954787 -0.0625769 0.0045213 0.0625769 0.0045213 0.0625769 0.9954787 -0.0625769
231233 0.9950791 -0.0653973 0.0049209 0.0653973 0.0049209 0.0653973 0.9950791 -0.0653973
241822 0.9946439 -0.0683420 0.0053561 0.0683420 0.0053561 0.0683420 0.9946439 -0.0683420
252896 0.9941701 -0.0714159 0.0058299 0.0714159 0.0058299 0.0714159 0.9941701 -0.0714159
264476 0.9936543 -0.0746243 0.0063457 0.0746243 0.0063457 0.0746243 0.9936543 -0.0746243
276587 0.9930927 -0.0779728 0.0069073 0.0779728 0.0069073 0.0779728 0.9930927 -0.0779728
289253 0.9924814 -0.0814670 0.0075186 0.0814670 0.0075186 0.0814670 0.9924814 -0.0814670
302498 0.9918159 -0.0851125 0.0081841 0.0851125 0.0081841 0.0851125 0.9918159 -0.0851125
316350 0.9910914 -0.0889154 0.0089086 0.0889154 0.0089086 0.0889154 0.9910914 -0.0889154
330837 0.9903028 -0.0928816 0.0096972 0.0928816 0.0096972 0.0928816 0.9903028 -0.0928816
345986 0.9894444 -0.0970174 0.0105556 0.0970174 0.0105556 0.0970174 0.9894444 -0.0970174
361830 0.9885101 -0.1013290 0.0114899 0.1013290 0.0114899 0.1013290 0.9885101 -0.1013290
378399 0.9874932 -0.1058228 0.0125068 0.1058228 0.0125068 0.1058228 0.9874932 -0.1058228
395726 0.9863865 -0.1105052 0.0136135 0.1105052 0.0136135 0.1105052 0.9863865 -0.1105052
413847 0.9851821 -0.1153827 0.0148179 0.1153827 0.0148179 0.1153827 0.9851821 -0.1153827
432798 0.9838716 -0.1204617 0.0161284 0.1204617 0.0161284 0.1204617 0.9838716 -0.1204617
452617 0.9824459 -0.1257488 0.0175541 0.1257488 0.0175541 0.1257488 0.9824459 -0.1257488
473344 0.9808950 -0.1312501 0.0191050 0.1312501 0.0191050 0.1312501 0.9808950 -0.1312501
495019 0.9792083 -0.1369720 0.0207917 0.1369720 0.0207917 0.1369720 0.9792083 -0.1369720
517687 0.9773743 -0.1429206 0.0226257 0.1429206 0.0226257 0.1429206 0.9773743 -0.1429206
541393 0.9753807 -0.1491014 0.0246193 0.1491014 0.0246193 0.1491014 0.9753807 -0.1491014
566185 0.9732142 -0.1555202 0.0267858 0.1555202 0.0267858 0.1555202 0.9732142 -0.1555202
592111 0.9708606 -0.1621818 0.0291394 0.1621818 0.0291394 0.1621818 0.9708606 -0.1621818
619225 0.9683049 -0.1690909 0.0316951 0.1690909 0.0316951 0.1690909 0.9683049 -0.1690909
647581 0.9655307 -0.1762514 0.0344693 0.1762514 0.0344693 0.1762514 0.9655307 -0.1762514
677235 0.9625209 -0.1836666 0.0374791 0.1836666 0.0374791 0.1836666 0.9625209 -0.1836666
708247 0.9592571 -0.1913389 0.0407429 0.1913389 0.0407429 0.1913389 0.9592571 -0.1913389
740679 0.9557200 -0.1992698 0.0442800 0.1992698 0.0442800 0.1992698 0.9557200 -0.1992698
774597 0.9518891 -0.2074597 0.0481109 0.2074597 0.0481109 0.2074597 0.9518891 -0.2074597
810067 0.9477427 -0.2159076 0.0522573 0.2159076 0.0522573 0.2159076 0.9477427 -0.2159076
847162 0.9432583 -0.2246111 0.0567417 0.2246111 0.0567417 0.2246111 0.9432583 -0.2246111
885955 0.9384121 -0.2335662 0.0615879 0.2335662 0.0615879 0.2335662 0.9384121 -0.2335662
926525 0.9331795 -0.2427671 0.0668205 0.2427671 0.0668205 0.2427671 0.9331795 -0.2427671
968953 0.9275350 -0.2522060 0.0724650 0.2522060 0.0724650 0.2522060 0.9275350 -0.2522060
1013323 0.9214521 -0.2618726 0.0785479 0.2618726 0.0785479 0.2618726 0.9214521 -0.2618726
1059725 0.9149041 -0.2717543 0.0850959 0.2717543 0.0850959 0.2717543 0.9149041 -0.2717543
1108252 0.9078633 -0.2818359 0.0921367 0.2818359 0.0921367 0.2818359 0.9078633 -0.2818359
1159002 0.9003021 -0.2920988 0.0996979 0.2920988 0.0996979 0.2920988 0.9003021 -0.2920988
1212075 0.8921929 -0.3025219 0.1078071 0.3025219 0.1078071 0.3025219 0.8921929 -0.3025219
1267578 0.8835082 -0.3130800 0.1164918 0.3130800 0.1164918 0.3130800 0.8835082 -0.3130800
1325623 0.8742214 -0.3237449 0.1257786 0.3237449 0.1257786 0.3237449 0.8742214 -0.3237449
1386327 0.8643068 -0.3344844 0.1356932 0.3344844 0.1356932 0.3344844 0.8643068 -0.3344844
1449809 0.8537404 -0.3452624 0.1462596 0.3452624 0.1462596 0.3452624 0.8537404 -0.3452624
1516199 0.8425001 -0.3560391 0.1574999 0.3560391 0.1574999 0.3560391 0.8425001 -0.3560391
1585629 0.8305666 -0.3667706 0.1694334 0.3667706 0.1694334 0.3667706 0.8305666 -0.3667706
1658239 0.8179234 -0.3774090 0.1820766 0.3774090 0.1820766 0.3774090 0.8179234 -0.3774090
1734173 0.8045582 -0.3879032 0.1954418 0.3879032 0.1954418 0.3879032 0.8045582 -0.3879032
1813585 0.7904631 -0.3981980 0.2095369 0.3981980 0.2095369 0.3981980 0.7904631 -0.3981980
1896632 0.7756350 -0.4082357 0.2243650 0.4082357 0.2243650 0.4082357 0.7756350 -0.4082357
1983483 0.7600768 -0.4179558 0.2399232 0.4179558 0.2399232 0.4179558 0.7600768 -0.4179558
2074311 0.7437977 -0.4272957 0.2562023 0.4272957 0.2562023 0.4272957 0.7437977 -0.4272957
