!Murata Part Number: GRM188R71H104MA93
!These Parameters are Measured in Series Mode Connection
!Data Generated on Mar 30, 2021
!       o--ll--o
!Port1            Port2
!       o------o
!Operation Temp=25[degC], DC Bias Voltage=0[V]
!Freq. Start=100[Hz] Stop=6[GHz] 401[Steps]
# Hz S RI R 50
!Freq.(Hz) S11(Real) S11(Imag) S21(Real) S21(Imag) S12(Real) S12(Imag) S22(Real) S22(Imag)
100 0.9999302 -0.0062769 0.0000698 0.0062769 0.0000698 0.0062769 0.9999302 -0.0062769
105 0.9999252 -0.0065634 0.0000748 0.0065634 0.0000748 0.0065634 0.9999252 -0.0065634
109 0.9999198 -0.0068630 0.0000802 0.0068630 0.0000802 0.0068630 0.9999198 -0.0068630
114 0.9999140 -0.0071762 0.0000860 0.0071762 0.0000860 0.0071762 0.9999140 -0.0071762
120 0.9999076 -0.0075038 0.0000924 0.0075038 0.0000924 0.0075038 0.9999076 -0.0075038
125 0.9999008 -0.0078463 0.0000992 0.0078463 0.0000992 0.0078463 0.9999008 -0.0078463
131 0.9998933 -0.0082044 0.0001067 0.0082044 0.0001067 0.0082044 0.9998933 -0.0082044
137 0.9998853 -0.0085789 0.0001147 0.0085789 0.0001147 0.0085789 0.9998853 -0.0085789
143 0.9998765 -0.0089704 0.0001235 0.0089704 0.0001235 0.0089704 0.9998765 -0.0089704
150 0.9998671 -0.0093798 0.0001329 0.0093798 0.0001329 0.0093798 0.9998671 -0.0093798
156 0.9998568 -0.0098079 0.0001432 0.0098079 0.0001432 0.0098079 0.9998568 -0.0098079
164 0.9998457 -0.0102554 0.0001543 0.0102554 0.0001543 0.0102554 0.9998457 -0.0102554
171 0.9998336 -0.0107234 0.0001664 0.0107234 0.0001664 0.0107234 0.9998336 -0.0107234
179 0.9998205 -0.0112127 0.0001795 0.0112127 0.0001795 0.0112127 0.9998205 -0.0112127
187 0.9998063 -0.0117243 0.0001937 0.0117243 0.0001937 0.0117243 0.9998063 -0.0117243
196 0.9997909 -0.0122592 0.0002091 0.0122592 0.0002091 0.0122592 0.9997909 -0.0122592
205 0.9997742 -0.0128185 0.0002258 0.0128185 0.0002258 0.0128185 0.9997742 -0.0128185
214 0.9997561 -0.0134033 0.0002439 0.0134033 0.0002439 0.0134033 0.9997561 -0.0134033
224 0.9997365 -0.0140148 0.0002635 0.0140148 0.0002635 0.0140148 0.9997365 -0.0140148
234 0.9997152 -0.0146541 0.0002848 0.0146541 0.0002848 0.0146541 0.9997152 -0.0146541
245 0.9996921 -0.0153225 0.0003079 0.0153225 0.0003079 0.0153225 0.9996921 -0.0153225
256 0.9996669 -0.0160214 0.0003331 0.0160214 0.0003331 0.0160214 0.9996669 -0.0160214
268 0.9996397 -0.0167521 0.0003603 0.0167521 0.0003603 0.0167521 0.9996397 -0.0167521
280 0.9996101 -0.0175162 0.0003899 0.0175162 0.0003899 0.0175162 0.9996101 -0.0175162
293 0.9995779 -0.0183151 0.0004221 0.0183151 0.0004221 0.0183151 0.9995779 -0.0183151
306 0.9995429 -0.0191503 0.0004571 0.0191503 0.0004571 0.0191503 0.9995429 -0.0191503
320 0.9995049 -0.0200237 0.0004951 0.0200237 0.0004951 0.0200237 0.9995049 -0.0200237
335 0.9994635 -0.0209368 0.0005365 0.0209368 0.0005365 0.0209368 0.9994635 -0.0209368
350 0.9994185 -0.0218916 0.0005815 0.0218916 0.0005815 0.0218916 0.9994185 -0.0218916
366 0.9993695 -0.0228898 0.0006305 0.0228898 0.0006305 0.0228898 0.9993695 -0.0228898
383 0.9993162 -0.0239335 0.0006838 0.0239335 0.0006838 0.0239335 0.9993162 -0.0239335
401 0.9992581 -0.0250247 0.0007419 0.0250247 0.0007419 0.0250247 0.9992581 -0.0250247
419 0.9991948 -0.0261656 0.0008052 0.0261656 0.0008052 0.0261656 0.9991948 -0.0261656
438 0.9991259 -0.0273584 0.0008741 0.0273584 0.0008741 0.0273584 0.9991259 -0.0273584
458 0.9990507 -0.0286055 0.0009493 0.0286055 0.0009493 0.0286055 0.9990507 -0.0286055
479 0.9989688 -0.0299093 0.0010312 0.0299093 0.0010312 0.0299093 0.9989688 -0.0299093
501 0.9988794 -0.0312724 0.0011206 0.0312724 0.0011206 0.0312724 0.9988794 -0.0312724
524 0.9987820 -0.0326973 0.0012180 0.0326973 0.0012180 0.0326973 0.9987820 -0.0326973
548 0.9986757 -0.0341869 0.0013243 0.0341869 0.0013243 0.0341869 0.9986757 -0.0341869
573 0.9985597 -0.0357440 0.0014403 0.0357440 0.0014403 0.0357440 0.9985597 -0.0357440
600 0.9984331 -0.0373717 0.0015669 0.0373717 0.0015669 0.0373717 0.9984331 -0.0373717
627 0.9982950 -0.0390731 0.0017050 0.0390731 0.0017050 0.0390731 0.9982950 -0.0390731
656 0.9981443 -0.0408515 0.0018557 0.0408515 0.0018557 0.0408515 0.9981443 -0.0408515
686 0.9979797 -0.0427101 0.0020203 0.0427101 0.0020203 0.0427101 0.9979797 -0.0427101
717 0.9978002 -0.0446526 0.0021998 0.0446526 0.0021998 0.0446526 0.9978002 -0.0446526
750 0.9976042 -0.0466827 0.0023958 0.0466827 0.0023958 0.0466827 0.9976042 -0.0466827
784 0.9973903 -0.0488040 0.0026097 0.0488040 0.0026097 0.0488040 0.9973903 -0.0488040
820 0.9971569 -0.0510207 0.0028431 0.0510207 0.0028431 0.0510207 0.9971569 -0.0510207
858 0.9969022 -0.0533368 0.0030978 0.0533368 0.0030978 0.0533368 0.9969022 -0.0533368
897 0.9966241 -0.0557566 0.0033759 0.0557566 0.0033759 0.0557566 0.9966241 -0.0557566
938 0.9963207 -0.0582845 0.0036793 0.0582845 0.0036793 0.0582845 0.9963207 -0.0582845
981 0.9959896 -0.0609251 0.0040104 0.0609251 0.0040104 0.0609251 0.9959896 -0.0609251
1026 0.9956284 -0.0636832 0.0043716 0.0636832 0.0043716 0.0636832 0.9956284 -0.0636832
1073 0.9952343 -0.0665637 0.0047657 0.0665637 0.0047657 0.0665637 0.9952343 -0.0665637
1122 0.9948043 -0.0695717 0.0051957 0.0695717 0.0051957 0.0695717 0.9948043 -0.0695717
1174 0.9943353 -0.0727125 0.0056647 0.0727125 0.0056647 0.0727125 0.9943353 -0.0727125
1227 0.9938237 -0.0759916 0.0061763 0.0759916 0.0061763 0.0759916 0.9938237 -0.0759916
1283 0.9932658 -0.0794144 0.0067342 0.0794144 0.0067342 0.0794144 0.9932658 -0.0794144
1342 0.9926573 -0.0829869 0.0073427 0.0829869 0.0073427 0.0829869 0.9926573 -0.0829869
1404 0.9919939 -0.0867149 0.0080061 0.0867149 0.0080061 0.0867149 0.9919939 -0.0867149
1468 0.9912705 -0.0906046 0.0087295 0.0906046 0.0087295 0.0906046 0.9912705 -0.0906046
1535 0.9904819 -0.0946621 0.0095181 0.0946621 0.0095181 0.0946621 0.9904819 -0.0946621
1606 0.9896224 -0.0988939 0.0103776 0.0988939 0.0103776 0.0988939 0.9896224 -0.0988939
1679 0.9886855 -0.1033064 0.0113145 0.1033064 0.0113145 0.1033064 0.9886855 -0.1033064
1756 0.9876646 -0.1079062 0.0123354 0.1079062 0.0123354 0.1079062 0.9876646 -0.1079062
1836 0.9865522 -0.1127000 0.0134478 0.1127000 0.0134478 0.1127000 0.9865522 -0.1127000
1920 0.9853403 -0.1176945 0.0146597 0.1176945 0.0146597 0.1176945 0.9853403 -0.1176945
2008 0.9840202 -0.1228964 0.0159798 0.1228964 0.0159798 0.1228964 0.9840202 -0.1228964
2100 0.9825826 -0.1283125 0.0174174 0.1283125 0.0174174 0.1283125 0.9825826 -0.1283125
2196 0.9810172 -0.1339494 0.0189828 0.1339494 0.0189828 0.1339494 0.9810172 -0.1339494
2297 0.9793131 -0.1398136 0.0206869 0.1398136 0.0206869 0.1398136 0.9793131 -0.1398136
2402 0.9774584 -0.1459116 0.0225416 0.1459116 0.0225416 0.1459116 0.9774584 -0.1459116
2512 0.9754404 -0.1522495 0.0245596 0.1522495 0.0245596 0.1522495 0.9754404 -0.1522495
2627 0.9732454 -0.1588330 0.0267546 0.1588330 0.0267546 0.1588330 0.9732454 -0.1588330
2748 0.9708587 -0.1656675 0.0291413 0.1656675 0.0291413 0.1656675 0.9708587 -0.1656675
2873 0.9682643 -0.1727580 0.0317357 0.1727580 0.0317357 0.1727580 0.9682643 -0.1727580
3005 0.9654456 -0.1801088 0.0345544 0.1801088 0.0345544 0.1801088 0.9654456 -0.1801088
3143 0.9623843 -0.1877233 0.0376157 0.1877233 0.0376157 0.1877233 0.9623843 -0.1877233
3287 0.9590614 -0.1956042 0.0409386 0.1956042 0.0409386 0.1956042 0.9590614 -0.1956042
3437 0.9554564 -0.2037532 0.0445436 0.2037532 0.0445436 0.2037532 0.9554564 -0.2037532
3594 0.9515479 -0.2121707 0.0484521 0.2121707 0.0484521 0.2121707 0.9515479 -0.2121707
3759 0.9473131 -0.2208558 0.0526869 0.2208558 0.0526869 0.2208558 0.9473131 -0.2208558
3931 0.9427281 -0.2298059 0.0572719 0.2298059 0.0572719 0.2298059 0.9427281 -0.2298059
4111 0.9377679 -0.2390170 0.0622321 0.2390170 0.0622321 0.2390170 0.9377679 -0.2390170
4299 0.9324066 -0.2484826 0.0675934 0.2484826 0.0675934 0.2484826 0.9324066 -0.2484826
4496 0.9266170 -0.2581944 0.0733830 0.2581944 0.0733830 0.2581944 0.9266170 -0.2581944
4702 0.9203714 -0.2681414 0.0796286 0.2681414 0.0796286 0.2681414 0.9203714 -0.2681414
4918 0.9136415 -0.2783101 0.0863585 0.2783101 0.0863585 0.2783101 0.9136415 -0.2783101
5143 0.9063982 -0.2886839 0.0936018 0.2886839 0.0936018 0.2886839 0.9063982 -0.2886839
5378 0.8986126 -0.2992432 0.1013874 0.2992432 0.1013874 0.2992432 0.8986126 -0.2992432
5625 0.8902555 -0.3099648 0.1097445 0.3099648 0.1097445 0.3099648 0.8902555 -0.3099648
5882 0.8812984 -0.3208220 0.1187016 0.3208220 0.1187016 0.3208220 0.8812984 -0.3208220
6151 0.8717136 -0.3317843 0.1282864 0.3317843 0.1282864 0.3317843 0.8717136 -0.3317843
6433 0.8614746 -0.3428173 0.1385254 0.3428173 0.1385254 0.3428173 0.8614746 -0.3428173
6728 0.8505567 -0.3538823 0.1494433 0.3538823 0.1494433 0.3538823 0.8505567 -0.3538823
7036 0.8389374 -0.3649368 0.1610626 0.3649368 0.1610626 0.3649368 0.8389374 -0.3649368
7358 0.8265973 -0.3759342 0.1734027 0.3759342 0.1734027 0.3759342 0.8265973 -0.3759342
7695 0.8135203 -0.3868237 0.1864797 0.3868237 0.1864797 0.3868237 0.8135203 -0.3868237
8047 0.7996946 -0.3975510 0.2003054 0.3975510 0.2003054 0.3975510 0.7996946 -0.3975510
8416 0.7851131 -0.4080581 0.2148869 0.4080581 0.2148869 0.4080581 0.7851131 -0.4080581
8801 0.7697742 -0.4182843 0.2302258 0.4182843 0.2302258 0.4182843 0.7697742 -0.4182843
9204 0.7536825 -0.4281660 0.2463175 0.4281660 0.2463175 0.4281660 0.7536825 -0.4281660
9626 0.7368490 -0.4376381 0.2631510 0.4376381 0.2631510 0.4376381 0.7368490 -0.4376381
10066 0.7192919 -0.4466343 0.2807081 0.4466343 0.2807081 0.4466343 0.7192919 -0.4466343
10527 0.7010371 -0.4550880 0.2989629 0.4550880 0.2989629 0.4550880 0.7010371 -0.4550880
11009 0.6821181 -0.4629338 0.3178819 0.4629338 0.3178819 0.4629338 0.6821181 -0.4629338
11514 0.6625764 -0.4701078 0.3374236 0.4701078 0.3374236 0.4701078 0.6625764 -0.4701078
12041 0.6424611 -0.4765494 0.3575389 0.4765494 0.3575389 0.4765494 0.6424611 -0.4765494
12592 0.6218294 -0.4822019 0.3781706 0.4822019 0.3781706 0.4822019 0.6218294 -0.4822019
13169 0.6007452 -0.4870142 0.3992548 0.4870142 0.3992548 0.4870142 0.6007452 -0.4870142
13772 0.5792791 -0.4909414 0.4207209 0.4909414 0.4207209 0.4909414 0.5792791 -0.4909414
14402 0.5575074 -0.4939460 0.4424926 0.4939460 0.4424926 0.4939460 0.5575074 -0.4939460
15062 0.5355111 -0.4959988 0.4644889 0.4959988 0.4644889 0.4959988 0.5355111 -0.4959988
15752 0.5133746 -0.4970793 0.4866254 0.4970793 0.4866254 0.4970793 0.5133746 -0.4970793
16473 0.4911848 -0.4971768 0.5088152 0.4971768 0.5088152 0.4971768 0.4911848 -0.4971768
17227 0.4690292 -0.4962898 0.5309708 0.4962898 0.5309708 0.4962898 0.4690292 -0.4962898
18016 0.4469950 -0.4944268 0.5530050 0.4944268 0.5530050 0.4944268 0.4469950 -0.4944268
18841 0.4251676 -0.4916060 0.5748324 0.4916060 0.5748324 0.4916060 0.4251676 -0.4916060
19704 0.4036291 -0.4878544 0.5963709 0.4878544 0.5963709 0.4878544 0.4036291 -0.4878544
20606 0.3824574 -0.4832076 0.6175426 0.4832076 0.6175426 0.4832076 0.3824574 -0.4832076
21550 0.3617247 -0.4777089 0.6382753 0.4777089 0.6382753 0.4777089 0.3617247 -0.4777089
22537 0.3414971 -0.4714084 0.6585029 0.4714084 0.6585029 0.4714084 0.3414971 -0.4714084
23569 0.3218335 -0.4643618 0.6781665 0.4643618 0.6781665 0.4643618 0.3218335 -0.4643618
24648 0.3027853 -0.4566293 0.6972147 0.4566293 0.6972147 0.4566293 0.3027853 -0.4566293
25777 0.2843959 -0.4482745 0.7156041 0.4482745 0.7156041 0.4482745 0.2843959 -0.4482745
26957 0.2667009 -0.4393632 0.7332991 0.4393632 0.7332991 0.4393632 0.2667009 -0.4393632
28191 0.2497278 -0.4299624 0.7502722 0.4299624 0.7502722 0.4299624 0.2497278 -0.4299624
29482 0.2334963 -0.4201391 0.7665037 0.4201391 0.7665037 0.4201391 0.2334963 -0.4201391
30832 0.2180190 -0.4099593 0.7819810 0.4099593 0.7819810 0.4099593 0.2180190 -0.4099593
32244 0.2033015 -0.3994874 0.7966985 0.3994874 0.7966985 0.3994874 0.2033015 -0.3994874
33721 0.1893429 -0.3887853 0.8106571 0.3887853 0.8106571 0.3887853 0.1893429 -0.3887853
35265 0.1761371 -0.3779121 0.8238629 0.3779121 0.8238629 0.3779121 0.1761371 -0.3779121
36880 0.1636725 -0.3669231 0.8363275 0.3669231 0.8363275 0.3669231 0.1636725 -0.3669231
38569 0.1519335 -0.3558702 0.8480665 0.3558702 0.8480665 0.3558702 0.1519335 -0.3558702
40335 0.1409006 -0.3448008 0.8590994 0.3448008 0.8590994 0.3448008 0.1409006 -0.3448008
42182 0.1305515 -0.3337584 0.8694485 0.3337584 0.8694485 0.3337584 0.1305515 -0.3337584
44113 0.1208614 -0.3227824 0.8791386 0.3227824 0.8791386 0.3227824 0.1208614 -0.3227824
46134 0.1118035 -0.3119079 0.8881965 0.3119079 0.8881965 0.3119079 0.1118035 -0.3119079
48246 0.1033500 -0.3011659 0.8966500 0.3011659 0.8966500 0.3011659 0.1033500 -0.3011659
50455 0.0954720 -0.2905836 0.9045280 0.2905836 0.9045280 0.2905836 0.0954720 -0.2905836
52766 0.0881402 -0.2801844 0.9118598 0.2801844 0.9118598 0.2801844 0.0881402 -0.2801844
55182 0.0813253 -0.2699885 0.9186747 0.2699885 0.9186747 0.2699885 0.0813253 -0.2699885
57709 0.0749983 -0.2600125 0.9250017 0.2600125 0.9250017 0.2600125 0.0749983 -0.2600125
60352 0.0691304 -0.2502701 0.9308696 0.2502701 0.9308696 0.2502701 0.0691304 -0.2502701
63115 0.0636938 -0.2407724 0.9363062 0.2407724 0.9363062 0.2407724 0.0636938 -0.2407724
66005 0.0586613 -0.2315280 0.9413387 0.2315280 0.9413387 0.2315280 0.0586613 -0.2315280
69028 0.0540068 -0.2225432 0.9459932 0.2225432 0.9459932 0.2225432 0.0540068 -0.2225432
72189 0.0497052 -0.2138222 0.9502948 0.2138222 0.9502948 0.2138222 0.0497052 -0.2138222
75495 0.0457327 -0.2053677 0.9542673 0.2053677 0.9542673 0.2053677 0.0457327 -0.2053677
78952 0.0420664 -0.1971807 0.9579336 0.1971807 0.9579336 0.1971807 0.0420664 -0.1971807
82567 0.0386849 -0.1892607 0.9613151 0.1892607 0.9613151 0.1892607 0.0386849 -0.1892607
86348 0.0355678 -0.1816064 0.9644322 0.1816064 0.9644322 0.1816064 0.0355678 -0.1816064
90302 0.0326959 -0.1742150 0.9673041 0.1742150 0.9673041 0.1742150 0.0326959 -0.1742150
94437 0.0300512 -0.1670833 0.9699488 0.1670833 0.9699488 0.1670833 0.0300512 -0.1670833
98762 0.0276169 -0.1602070 0.9723831 0.1602070 0.9723831 0.1602070 0.0276169 -0.1602070
103284 0.0253771 -0.1535815 0.9746229 0.1535815 0.9746229 0.1535815 0.0253771 -0.1535815
108014 0.0233171 -0.1472015 0.9766829 0.1472015 0.9766829 0.1472015 0.0233171 -0.1472015
112960 0.0214231 -0.1410614 0.9785769 0.1410614 0.9785769 0.1410614 0.0214231 -0.1410614
118133 0.0196824 -0.1351551 0.9803176 0.1351551 0.9803176 0.1351551 0.0196824 -0.1351551
123542 0.0180830 -0.1294766 0.9819170 0.1294766 0.9819170 0.1294766 0.0180830 -0.1294766
129199 0.0166139 -0.1240195 0.9833861 0.1240195 0.9833861 0.1240195 0.0166139 -0.1240195
135116 0.0152648 -0.1187771 0.9847352 0.1187771 0.9847352 0.1187771 0.0152648 -0.1187771
141303 0.0140262 -0.1137430 0.9859738 0.1137430 0.9859738 0.1137430 0.0140262 -0.1137430
147774 0.0128894 -0.1089106 0.9871106 0.1089106 0.9871106 0.1089106 0.0128894 -0.1089106
154540 0.0118461 -0.1042732 0.9881539 0.1042732 0.9881539 0.1042732 0.0118461 -0.1042732
161617 0.0108888 -0.0998242 0.9891112 0.0998242 0.9891112 0.0998242 0.0108888 -0.0998242
169018 0.0100105 -0.0955573 0.9899895 0.0955573 0.9899895 0.0955573 0.0100105 -0.0955573
176758 0.0092049 -0.0914658 0.9907951 0.0914658 0.9907951 0.0914658 0.0092049 -0.0914658
184852 0.0084660 -0.0875436 0.9915340 0.0875436 0.9915340 0.0875436 0.0084660 -0.0875436
193316 0.0077883 -0.0837843 0.9922117 0.0837843 0.9922117 0.0837843 0.0077883 -0.0837843
202169 0.0071667 -0.0801820 0.9928333 0.0801820 0.9928333 0.0801820 0.0071667 -0.0801820
211427 0.0065967 -0.0767306 0.9934033 0.0767306 0.9934033 0.0767306 0.0065967 -0.0767306
221108 0.0060740 -0.0734245 0.9939260 0.0734245 0.9939260 0.0734245 0.0060740 -0.0734245
231233 0.0055945 -0.0702578 0.9944055 0.0702578 0.9944055 0.0702578 0.0055945 -0.0702578
241822 0.0051548 -0.0672253 0.9948452 0.0672253 0.9948452 0.0672253 0.0051548 -0.0672253
252896 0.0047514 -0.0643214 0.9952486 0.0643214 0.9952486 0.0643214 0.0047514 -0.0643214
264476 0.0043814 -0.0615412 0.9956186 0.0615412 0.9956186 0.0615412 0.0043814 -0.0615412
276587 0.0040419 -0.0588795 0.9959581 0.0588795 0.9959581 0.0588795 0.0040419 -0.0588795
289253 0.0037303 -0.0563315 0.9962697 0.0563315 0.9962697 0.0563315 0.0037303 -0.0563315
302498 0.0034443 -0.0538927 0.9965557 0.0538927 0.9965557 0.0538927 0.0034443 -0.0538927
316350 0.0031817 -0.0515584 0.9968183 0.0515584 0.9968183 0.0515584 0.0031817 -0.0515584
330837 0.0029405 -0.0493243 0.9970595 0.0493243 0.9970595 0.0493243 0.0029405 -0.0493243
345986 0.0027190 -0.0471863 0.9972810 0.0471863 0.9972810 0.0471863 0.0027190 -0.0471863
361830 0.0025154 -0.0451403 0.9974846 0.0451403 0.9974846 0.0451403 0.0025154 -0.0451403
378399 0.0023283 -0.0431823 0.9976717 0.0431823 0.9976717 0.0431823 0.0023283 -0.0431823
395726 0.0021563 -0.0413088 0.9978437 0.0413088 0.9978437 0.0413088 0.0021563 -0.0413088
413847 0.0019980 -0.0395160 0.9980020 0.0395160 0.9980020 0.0395160 0.0019980 -0.0395160
432798 0.0018524 -0.0378006 0.9981476 0.0378006 0.9981476 0.0378006 0.0018524 -0.0378006
452617 0.0017184 -0.0361592 0.9982816 0.0361592 0.9982816 0.0361592 0.0017184 -0.0361592
473344 0.0015950 -0.0345886 0.9984050 0.0345886 0.9984050 0.0345886 0.0015950 -0.0345886
495019 0.0014813 -0.0330858 0.9985187 0.0330858 0.9985187 0.0330858 0.0014813 -0.0330858
517687 0.0013767 -0.0316480 0.9986233 0.0316480 0.9986233 0.0316480 0.0013767 -0.0316480
541393 0.0012802 -0.0302722 0.9987198 0.0302722 0.9987198 0.0302722 0.0012802 -0.0302722
566185 0.0011913 -0.0289558 0.9988087 0.0289558 0.9988087 0.0289558 0.0011913 -0.0289558
592111 0.0011093 -0.0276963 0.9988907 0.0276963 0.9988907 0.0276963 0.0011093 -0.0276963
619225 0.0010338 -0.0264912 0.9989662 0.0264912 0.9989662 0.0264912 0.0010338 -0.0264912
647581 0.0009641 -0.0253382 0.9990359 0.0253382 0.9990359 0.0253382 0.0009641 -0.0253382
677235 0.0008999 -0.0242349 0.9991001 0.0242349 0.9991001 0.0242349 0.0008999 -0.0242349
708247 0.0008406 -0.0231793 0.9991594 0.0231793 0.9991594 0.0231793 0.0008406 -0.0231793
740679 0.0007860 -0.0221693 0.9992140 0.0221693 0.9992140 0.0221693 0.0007860 -0.0221693
774597 0.0007356 -0.0212029 0.9992644 0.0212029 0.9992644 0.0212029 0.0007356 -0.0212029
810067 0.0006892 -0.0202783 0.9993108 0.0202783 0.9993108 0.0202783 0.0006892 -0.0202783
847162 0.0006463 -0.0193936 0.9993537 0.0193936 0.9993537 0.0193936 0.0006463 -0.0193936
885955 0.0006069 -0.0185472 0.9993931 0.0185472 0.9993931 0.0185472 0.0006069 -0.0185472
926525 0.0005705 -0.0177373 0.9994295 0.0177373 0.9994295 0.0177373 0.0005705 -0.0177373
968953 0.0005369 -0.0169624 0.9994631 0.0169624 0.9994631 0.0169624 0.0005369 -0.0169624
1013323 0.0005060 -0.0162210 0.9994940 0.0162210 0.9994940 0.0162210 0.0005060 -0.0162210
1059725 0.0004775 -0.0155117 0.9995225 0.0155117 0.9995225 0.0155117 0.0004775 -0.0155117
1108252 0.0004512 -0.0148330 0.9995488 0.0148330 0.9995488 0.0148330 0.0004512 -0.0148330
1159002 0.0004270 -0.0141837 0.9995730 0.0141837 0.9995730 0.0141837 0.0004270 -0.0141837
1212075 0.0004048 -0.0135624 0.9995952 0.0135624 0.9995952 0.0135624 0.0004048 -0.0135624
1267578 0.0003842 -0.0129680 0.9996158 0.0129680 0.9996158 0.0129680 0.0003842 -0.0129680
1325623 0.0003653 -0.0123993 0.9996347 0.0123993 0.9996347 0.0123993 0.0003653 -0.0123993
1386327 0.0003478 -0.0118552 0.9996522 0.0118552 0.9996522 0.0118552 0.0003478 -0.0118552
1449809 0.0003318 -0.0113346 0.9996682 0.0113346 0.9996682 0.0113346 0.0003318 -0.0113346
1516199 0.0003169 -0.0108364 0.9996831 0.0108364 0.9996831 0.0108364 0.0003169 -0.0108364
1585629 0.0003033 -0.0103598 0.9996967 0.0103598 0.9996967 0.0103598 0.0003033 -0.0103598
1658239 0.0002906 -0.0099038 0.9997094 0.0099038 0.9997094 0.0099038 0.0002906 -0.0099038
1734173 0.0002790 -0.0094674 0.9997210 0.0094674 0.9997210 0.0094674 0.0002790 -0.0094674
1813585 0.0002683 -0.0090498 0.9997317 0.0090498 0.9997317 0.0090498 0.0002683 -0.0090498
1896632 0.0002584 -0.0086502 0.9997416 0.0086502 0.9997416 0.0086502 0.0002584 -0.0086502
1983483 0.0002492 -0.0082678 0.9997508 0.0082678 0.9997508 0.0082678 0.0002492 -0.0082678
2074311 0.0002407 -0.0079018 0.9997593 0.0079018 0.9997593 0.0079018 0.0002407 -0.0079018
