!Murata Part Number: GRM188C60J226MEA0
!These Parameters are Measured in Series Mode Connection
!Data Generated on Mar 30, 2021
!       o--ll--o
!Port1            Port2
!       o------o
!Operation Temp=25[degC], DC Bias Voltage=0[V]
!Freq. Start=100[Hz] Stop=6[GHz] 401[Steps]
# Hz S RI R 50
!Freq.(Hz) S11(Real) S11(Imag) S21(Real) S21(Imag) S12(Real) S12(Imag) S22(Real) S22(Imag)
100 0.5145470 -0.4930994 0.4854530 0.4930994 0.4854530 0.4930994 0.5145470 -0.4930994
105 0.4926206 -0.4932645 0.5073794 0.4932645 0.5073794 0.4932645 0.4926206 -0.4932645
109 0.4707227 -0.4924638 0.5292773 0.4924638 0.5292773 0.4924638 0.4707227 -0.4924638
114 0.4489387 -0.4907051 0.5510613 0.4907051 0.5510613 0.4907051 0.4489387 -0.4907051
120 0.4273526 -0.4880059 0.5726474 0.4880059 0.5726474 0.4880059 0.4273526 -0.4880059
125 0.4060451 -0.4843927 0.5939549 0.4843927 0.5939549 0.4843927 0.4060451 -0.4843927
131 0.3850925 -0.4799001 0.6149075 0.4799001 0.6149075 0.4799001 0.3850925 -0.4799001
137 0.3645658 -0.4745706 0.6354342 0.4745706 0.6354342 0.4745706 0.3645658 -0.4745706
143 0.3445297 -0.4684530 0.6554703 0.4684530 0.6554703 0.4684530 0.3445297 -0.4684530
150 0.3250420 -0.4616018 0.6749580 0.4616018 0.6749580 0.4616018 0.3250420 -0.4616018
156 0.3061529 -0.4540758 0.6938471 0.4540758 0.6938471 0.4540758 0.3061529 -0.4540758
164 0.2879050 -0.4459370 0.7120950 0.4459370 0.7120950 0.4459370 0.2879050 -0.4459370
171 0.2703329 -0.4372497 0.7296671 0.4372497 0.7296671 0.4372497 0.2703329 -0.4372497
179 0.2534635 -0.4280791 0.7465365 0.4280791 0.7465365 0.4280791 0.2534635 -0.4280791
187 0.2373162 -0.4184902 0.7626838 0.4184902 0.7626838 0.4184902 0.2373162 -0.4184902
196 0.2219032 -0.4085474 0.7780968 0.4085474 0.7780968 0.4085474 0.2219032 -0.4085474
205 0.2072302 -0.3983132 0.7927698 0.3983132 0.7927698 0.3983132 0.2072302 -0.3983132
214 0.1932966 -0.3878476 0.8067034 0.3878476 0.8067034 0.3878476 0.1932966 -0.3878476
224 0.1800964 -0.3772078 0.8199036 0.3772078 0.8199036 0.3772078 0.1800964 -0.3772078
234 0.1676189 -0.3664475 0.8323811 0.3664475 0.8323811 0.3664475 0.1676189 -0.3664475
245 0.1558491 -0.3556168 0.8441509 0.3556168 0.8441509 0.3556168 0.1558491 -0.3556168
256 0.1447686 -0.3447616 0.8552314 0.3447616 0.8552314 0.3447616 0.1447686 -0.3447616
268 0.1343561 -0.3339242 0.8656439 0.3339242 0.8656439 0.3339242 0.1343561 -0.3339242
280 0.1245882 -0.3231425 0.8754118 0.3231425 0.8754118 0.3231425 0.1245882 -0.3231425
293 0.1154394 -0.3124507 0.8845606 0.3124507 0.8845606 0.3124507 0.1154394 -0.3124507
306 0.1068834 -0.3018788 0.8931166 0.3018788 0.8931166 0.3018788 0.1068834 -0.3018788
320 0.0988929 -0.2914535 0.9011071 0.2914535 0.9011071 0.2914535 0.0988929 -0.2914535
335 0.0914402 -0.2811977 0.9085598 0.2811977 0.9085598 0.2811977 0.0914402 -0.2811977
350 0.0844974 -0.2711311 0.9155026 0.2711311 0.9155026 0.2711311 0.0844974 -0.2711311
366 0.0780370 -0.2612704 0.9219630 0.2612704 0.9219630 0.2612704 0.0780370 -0.2612704
383 0.0720319 -0.2516295 0.9279681 0.2516295 0.9279681 0.2516295 0.0720319 -0.2516295
401 0.0664556 -0.2422195 0.9335444 0.2422195 0.9335444 0.2422195 0.0664556 -0.2422195
419 0.0612822 -0.2330496 0.9387178 0.2330496 0.9387178 0.2330496 0.0612822 -0.2330496
438 0.0564868 -0.2241264 0.9435132 0.2241264 0.9435132 0.2241264 0.0564868 -0.2241264
458 0.0520455 -0.2154550 0.9479545 0.2154550 0.9479545 0.2154550 0.0520455 -0.2154550
479 0.0479354 -0.2070387 0.9520646 0.2070387 0.9520646 0.2070387 0.0479354 -0.2070387
501 0.0441345 -0.1988791 0.9558655 0.1988791 0.9558655 0.1988791 0.0441345 -0.1988791
524 0.0406221 -0.1909768 0.9593779 0.1909768 0.9593779 0.1909768 0.0406221 -0.1909768
548 0.0373784 -0.1833312 0.9626216 0.1833312 0.9626216 0.1833312 0.0373784 -0.1833312
573 0.0343846 -0.1759404 0.9656154 0.1759404 0.9656154 0.1759404 0.0343846 -0.1759404
600 0.0316232 -0.1688020 0.9683768 0.1688020 0.9683768 0.1688020 0.0316232 -0.1688020
627 0.0290775 -0.1619126 0.9709225 0.1619126 0.9709225 0.1619126 0.0290775 -0.1619126
656 0.0267319 -0.1552684 0.9732681 0.1552684 0.9732681 0.1552684 0.0267319 -0.1552684
686 0.0245717 -0.1488648 0.9754283 0.1488648 0.9754283 0.1488648 0.0245717 -0.1488648
717 0.0225832 -0.1426968 0.9774168 0.1426968 0.9774168 0.1426968 0.0225832 -0.1426968
750 0.0207535 -0.1367593 0.9792465 0.1367593 0.9792465 0.1367593 0.0207535 -0.1367593
784 0.0190707 -0.1310466 0.9809293 0.1310466 0.9809293 0.1310466 0.0190707 -0.1310466
820 0.0175234 -0.1255528 0.9824766 0.1255528 0.9824766 0.1255528 0.0175234 -0.1255528
858 0.0161013 -0.1202721 0.9838987 0.1202721 0.9838987 0.1202721 0.0161013 -0.1202721
897 0.0147946 -0.1151982 0.9852054 0.1151982 0.9852054 0.1151982 0.0147946 -0.1151982
938 0.0135944 -0.1103249 0.9864056 0.1103249 0.9864056 0.1103249 0.0135944 -0.1103249
981 0.0124922 -0.1056461 0.9875078 0.1056461 0.9875078 0.1056461 0.0124922 -0.1056461
1026 0.0114802 -0.1011553 0.9885198 0.1011553 0.9885198 0.1011553 0.0114802 -0.1011553
1073 0.0105513 -0.0968465 0.9894487 0.0968465 0.9894487 0.0968465 0.0105513 -0.0968465
1122 0.0096987 -0.0927133 0.9903013 0.0927133 0.9903013 0.0927133 0.0096987 -0.0927133
1174 0.0089164 -0.0887497 0.9910836 0.0887497 0.9910836 0.0887497 0.0089164 -0.0887497
1227 0.0081985 -0.0849497 0.9918015 0.0849497 0.9918015 0.0849497 0.0081985 -0.0849497
1283 0.0075398 -0.0813071 0.9924602 0.0813071 0.9924602 0.0813071 0.0075398 -0.0813071
1342 0.0069355 -0.0778164 0.9930645 0.0778164 0.9930645 0.0778164 0.0069355 -0.0778164
1404 0.0063811 -0.0744717 0.9936189 0.0744717 0.9936189 0.0744717 0.0063811 -0.0744717
1468 0.0058724 -0.0712674 0.9941276 0.0712674 0.9941276 0.0712674 0.0058724 -0.0712674
1535 0.0054057 -0.0681982 0.9945943 0.0681982 0.9945943 0.0681982 0.0054057 -0.0681982
1606 0.0049773 -0.0652588 0.9950227 0.0652588 0.9950227 0.0652588 0.0049773 -0.0652588
1679 0.0045843 -0.0624440 0.9954157 0.0624440 0.9954157 0.0624440 0.0045843 -0.0624440
1756 0.0042234 -0.0597489 0.9957766 0.0597489 0.9957766 0.0597489 0.0042234 -0.0597489
1836 0.0038922 -0.0571686 0.9961078 0.0571686 0.9961078 0.0571686 0.0038922 -0.0571686
1920 0.0035879 -0.0546985 0.9964121 0.0546985 0.9964121 0.0546985 0.0035879 -0.0546985
2008 0.0033085 -0.0523340 0.9966915 0.0523340 0.9966915 0.0523340 0.0033085 -0.0523340
2100 0.0030517 -0.0500708 0.9969483 0.0500708 0.9969483 0.0500708 0.0030517 -0.0500708
2196 0.0028157 -0.0479047 0.9971843 0.0479047 0.9971843 0.0479047 0.0028157 -0.0479047
2297 0.0025987 -0.0458316 0.9974013 0.0458316 0.9974013 0.0458316 0.0025987 -0.0458316
2402 0.0023992 -0.0438476 0.9976008 0.0438476 0.9976008 0.0438476 0.0023992 -0.0438476
2512 0.0022156 -0.0419490 0.9977844 0.0419490 0.9977844 0.0419490 0.0022156 -0.0419490
2627 0.0020465 -0.0401321 0.9979535 0.0401321 0.9979535 0.0401321 0.0020465 -0.0401321
2748 0.0018909 -0.0383935 0.9981091 0.0383935 0.9981091 0.0383935 0.0018909 -0.0383935
2873 0.0017476 -0.0367298 0.9982524 0.0367298 0.9982524 0.0367298 0.0017476 -0.0367298
3005 0.0016155 -0.0351379 0.9983845 0.0351379 0.9983845 0.0351379 0.0016155 -0.0351379
3143 0.0014938 -0.0336146 0.9985062 0.0336146 0.9985062 0.0336146 0.0014938 -0.0336146
3287 0.0013815 -0.0321569 0.9986185 0.0321569 0.9986185 0.0321569 0.0013815 -0.0321569
3437 0.0012780 -0.0307622 0.9987220 0.0307622 0.9987220 0.0307622 0.0012780 -0.0307622
3594 0.0011825 -0.0294276 0.9988175 0.0294276 0.9988175 0.0294276 0.0011825 -0.0294276
3759 0.0010945 -0.0281506 0.9989055 0.0281506 0.9989055 0.0281506 0.0010945 -0.0281506
3931 0.0010132 -0.0269287 0.9989868 0.0269287 0.9989868 0.0269287 0.0010132 -0.0269287
4111 0.0009382 -0.0257596 0.9990618 0.0257596 0.9990618 0.0257596 0.0009382 -0.0257596
4299 0.0008690 -0.0246409 0.9991310 0.0246409 0.9991310 0.0246409 0.0008690 -0.0246409
4496 0.0008051 -0.0235705 0.9991949 0.0235705 0.9991949 0.0235705 0.0008051 -0.0235705
4702 0.0007461 -0.0225464 0.9992539 0.0225464 0.9992539 0.0225464 0.0007461 -0.0225464
4918 0.0006917 -0.0215665 0.9993083 0.0215665 0.9993083 0.0215665 0.0006917 -0.0215665
5143 0.0006415 -0.0206289 0.9993585 0.0206289 0.9993585 0.0206289 0.0006415 -0.0206289
5378 0.0005952 -0.0197318 0.9994048 0.0197318 0.9994048 0.0197318 0.0005952 -0.0197318
5625 0.0005525 -0.0188736 0.9994475 0.0188736 0.9994475 0.0188736 0.0005525 -0.0188736
5882 0.0005132 -0.0180524 0.9994868 0.0180524 0.9994868 0.0180524 0.0005132 -0.0180524
6151 0.0004768 -0.0172668 0.9995232 0.0172668 0.9995232 0.0172668 0.0004768 -0.0172668
6433 0.0004434 -0.0165152 0.9995566 0.0165152 0.9995566 0.0165152 0.0004434 -0.0165152
6728 0.0004125 -0.0157962 0.9995875 0.0157962 0.9995875 0.0157962 0.0004125 -0.0157962
7036 0.0003841 -0.0151083 0.9996159 0.0151083 0.9996159 0.0151083 0.0003841 -0.0151083
7358 0.0003579 -0.0144503 0.9996421 0.0144503 0.9996421 0.0144503 0.0003579 -0.0144503
7695 0.0003338 -0.0138208 0.9996662 0.0138208 0.9996662 0.0138208 0.0003338 -0.0138208
8047 0.0003116 -0.0132186 0.9996884 0.0132186 0.9996884 0.0132186 0.0003116 -0.0132186
8416 0.0002911 -0.0126426 0.9997089 0.0126426 0.9997089 0.0126426 0.0002911 -0.0126426
8801 0.0002723 -0.0120916 0.9997277 0.0120916 0.9997277 0.0120916 0.0002723 -0.0120916
9204 0.0002550 -0.0115646 0.9997450 0.0115646 0.9997450 0.0115646 0.0002550 -0.0115646
9626 0.0002390 -0.0110605 0.9997610 0.0110605 0.9997610 0.0110605 0.0002390 -0.0110605
10066 0.0002243 -0.0105784 0.9997757 0.0105784 0.9997757 0.0105784 0.0002243 -0.0105784
10527 0.0002107 -0.0101172 0.9997893 0.0101172 0.9997893 0.0101172 0.0002107 -0.0101172
11009 0.0001982 -0.0096761 0.9998018 0.0096761 0.9998018 0.0096761 0.0001982 -0.0096761
11514 0.0001867 -0.0092543 0.9998133 0.0092543 0.9998133 0.0092543 0.0001867 -0.0092543
12041 0.0001761 -0.0088509 0.9998239 0.0088509 0.9998239 0.0088509 0.0001761 -0.0088509
12592 0.0001663 -0.0084650 0.9998337 0.0084650 0.9998337 0.0084650 0.0001663 -0.0084650
13169 0.0001572 -0.0080960 0.9998428 0.0080960 0.9998428 0.0080960 0.0001572 -0.0080960
13772 0.0001489 -0.0077431 0.9998511 0.0077431 0.9998511 0.0077431 0.0001489 -0.0077431
14402 0.0001412 -0.0074056 0.9998588 0.0074056 0.9998588 0.0074056 0.0001412 -0.0074056
15062 0.0001340 -0.0070828 0.9998660 0.0070828 0.9998660 0.0070828 0.0001340 -0.0070828
15752 0.0001274 -0.0067741 0.9998726 0.0067741 0.9998726 0.0067741 0.0001274 -0.0067741
16473 0.0001212 -0.0064790 0.9998788 0.0064790 0.9998788 0.0064790 0.0001212 -0.0064790
17227 0.0001155 -0.0061967 0.9998845 0.0061967 0.9998845 0.0061967 0.0001155 -0.0061967
18016 0.0001102 -0.0059267 0.9998898 0.0059267 0.9998898 0.0059267 0.0001102 -0.0059267
18841 0.0001052 -0.0056685 0.9998948 0.0056685 0.9998948 0.0056685 0.0001052 -0.0056685
19704 0.0001006 -0.0054216 0.9998994 0.0054216 0.9998994 0.0054216 0.0001006 -0.0054216
20606 0.0000962 -0.0051855 0.9999038 0.0051855 0.9999038 0.0051855 0.0000962 -0.0051855
21550 0.0000922 -0.0049597 0.9999078 0.0049597 0.9999078 0.0049597 0.0000922 -0.0049597
22537 0.0000883 -0.0047437 0.9999117 0.0047437 0.9999117 0.0047437 0.0000883 -0.0047437
23569 0.0000848 -0.0045372 0.9999152 0.0045372 0.9999152 0.0045372 0.0000848 -0.0045372
24648 0.0000814 -0.0043396 0.9999186 0.0043396 0.9999186 0.0043396 0.0000814 -0.0043396
25777 0.0000782 -0.0041507 0.9999218 0.0041507 0.9999218 0.0041507 0.0000782 -0.0041507
26957 0.0000752 -0.0039700 0.9999248 0.0039700 0.9999248 0.0039700 0.0000752 -0.0039700
28191 0.0000724 -0.0037972 0.9999276 0.0037972 0.9999276 0.0037972 0.0000724 -0.0037972
29482 0.0000697 -0.0036319 0.9999303 0.0036319 0.9999303 0.0036319 0.0000697 -0.0036319
30832 0.0000672 -0.0034738 0.9999328 0.0034738 0.9999328 0.0034738 0.0000672 -0.0034738
32244 0.0000648 -0.0033225 0.9999352 0.0033225 0.9999352 0.0033225 0.0000648 -0.0033225
33721 0.0000625 -0.0031779 0.9999375 0.0031779 0.9999375 0.0031779 0.0000625 -0.0031779
35265 0.0000603 -0.0030395 0.9999397 0.0030395 0.9999397 0.0030395 0.0000603 -0.0030395
36880 0.0000583 -0.0029071 0.9999417 0.0029071 0.9999417 0.0029071 0.0000583 -0.0029071
38569 0.0000564 -0.0027805 0.9999436 0.0027805 0.9999436 0.0027805 0.0000564 -0.0027805
40335 0.0000545 -0.0026593 0.9999455 0.0026593 0.9999455 0.0026593 0.0000545 -0.0026593
42182 0.0000528 -0.0025434 0.9999472 0.0025434 0.9999472 0.0025434 0.0000528 -0.0025434
44113 0.0000511 -0.0024325 0.9999489 0.0024325 0.9999489 0.0024325 0.0000511 -0.0024325
46134 0.0000496 -0.0023265 0.9999504 0.0023265 0.9999504 0.0023265 0.0000496 -0.0023265
48246 0.0000481 -0.0022250 0.9999519 0.0022250 0.9999519 0.0022250 0.0000481 -0.0022250
50455 0.0000467 -0.0021279 0.9999533 0.0021279 0.9999533 0.0021279 0.0000467 -0.0021279
52766 0.0000454 -0.0020350 0.9999546 0.0020350 0.9999546 0.0020350 0.0000454 -0.0020350
55182 0.0000442 -0.0019462 0.9999558 0.0019462 0.9999558 0.0019462 0.0000442 -0.0019462
57709 0.0000431 -0.0018612 0.9999569 0.0018612 0.9999569 0.0018612 0.0000431 -0.0018612
60352 0.0000420 -0.0017798 0.9999580 0.0017798 0.9999580 0.0017798 0.0000420 -0.0017798
63115 0.0000410 -0.0017020 0.9999590 0.0017020 0.9999590 0.0017020 0.0000410 -0.0017020
66005 0.0000400 -0.0016276 0.9999600 0.0016276 0.9999600 0.0016276 0.0000400 -0.0016276
69028 0.0000391 -0.0015564 0.9999609 0.0015564 0.9999609 0.0015564 0.0000391 -0.0015564
72189 0.0000383 -0.0014882 0.9999617 0.0014882 0.9999617 0.0014882 0.0000383 -0.0014882
75495 0.0000375 -0.0014230 0.9999625 0.0014230 0.9999625 0.0014230 0.0000375 -0.0014230
78952 0.0000368 -0.0013607 0.9999632 0.0013607 0.9999632 0.0013607 0.0000368 -0.0013607
82567 0.0000361 -0.0013010 0.9999639 0.0013010 0.9999639 0.0013010 0.0000361 -0.0013010
86348 0.0000355 -0.0012439 0.9999645 0.0012439 0.9999645 0.0012439 0.0000355 -0.0012439
90302 0.0000349 -0.0011893 0.9999651 0.0011893 0.9999651 0.0011893 0.0000349 -0.0011893
94437 0.0000343 -0.0011371 0.9999657 0.0011371 0.9999657 0.0011371 0.0000343 -0.0011371
98762 0.0000338 -0.0010871 0.9999662 0.0010871 0.9999662 0.0010871 0.0000338 -0.0010871
103284 0.0000334 -0.0010392 0.9999666 0.0010392 0.9999666 0.0010392 0.0000334 -0.0010392
108014 0.0000329 -0.0009935 0.9999671 0.0009935 0.9999671 0.0009935 0.0000329 -0.0009935
112960 0.0000325 -0.0009497 0.9999675 0.0009497 0.9999675 0.0009497 0.0000325 -0.0009497
118133 0.0000321 -0.0009078 0.9999679 0.0009078 0.9999679 0.0009078 0.0000321 -0.0009078
123542 0.0000317 -0.0008677 0.9999683 0.0008677 0.9999683 0.0008677 0.0000317 -0.0008677
129199 0.0000314 -0.0008293 0.9999686 0.0008293 0.9999686 0.0008293 0.0000314 -0.0008293
135116 0.0000311 -0.0007926 0.9999689 0.0007926 0.9999689 0.0007926 0.0000311 -0.0007926
141303 0.0000308 -0.0007575 0.9999692 0.0007575 0.9999692 0.0007575 0.0000308 -0.0007575
147774 0.0000305 -0.0007239 0.9999695 0.0007239 0.9999695 0.0007239 0.0000305 -0.0007239
154540 0.0000302 -0.0006917 0.9999698 0.0006917 0.9999698 0.0006917 0.0000302 -0.0006917
161617 0.0000300 -0.0006609 0.9999700 0.0006609 0.9999700 0.0006609 0.0000300 -0.0006609
169018 0.0000298 -0.0006314 0.9999702 0.0006314 0.9999702 0.0006314 0.0000298 -0.0006314
176758 0.0000295 -0.0006031 0.9999705 0.0006031 0.9999705 0.0006031 0.0000295 -0.0006031
184852 0.0000293 -0.0005761 0.9999707 0.0005761 0.9999707 0.0005761 0.0000293 -0.0005761
193316 0.0000291 -0.0005502 0.9999709 0.0005502 0.9999709 0.0005502 0.0000291 -0.0005502
202169 0.0000289 -0.0005254 0.9999711 0.0005254 0.9999711 0.0005254 0.0000289 -0.0005254
211427 0.0000287 -0.0005017 0.9999713 0.0005017 0.9999713 0.0005017 0.0000287 -0.0005017
221108 0.0000286 -0.0004789 0.9999714 0.0004789 0.9999714 0.0004789 0.0000286 -0.0004789
231233 0.0000284 -0.0004571 0.9999716 0.0004571 0.9999716 0.0004571 0.0000284 -0.0004571
241822 0.0000283 -0.0004362 0.9999717 0.0004362 0.9999717 0.0004362 0.0000283 -0.0004362
252896 0.0000281 -0.0004162 0.9999719 0.0004162 0.9999719 0.0004162 0.0000281 -0.0004162
264476 0.0000280 -0.0003970 0.9999720 0.0003970 0.9999720 0.0003970 0.0000280 -0.0003970
276587 0.0000278 -0.0003786 0.9999722 0.0003786 0.9999722 0.0003786 0.0000278 -0.0003786
289253 0.0000277 -0.0003609 0.9999723 0.0003609 0.9999723 0.0003609 0.0000277 -0.0003609
302498 0.0000276 -0.0003439 0.9999724 0.0003439 0.9999724 0.0003439 0.0000276 -0.0003439
316350 0.0000275 -0.0003277 0.9999725 0.0003277 0.9999725 0.0003277 0.0000275 -0.0003277
330837 0.0000274 -0.0003120 0.9999726 0.0003120 0.9999726 0.0003120 0.0000274 -0.0003120
345986 0.0000273 -0.0002970 0.9999727 0.0002970 0.9999727 0.0002970 0.0000273 -0.0002970
361830 0.0000272 -0.0002826 0.9999728 0.0002826 0.9999728 0.0002826 0.0000272 -0.0002826
378399 0.0000272 -0.0002688 0.9999728 0.0002688 0.9999728 0.0002688 0.0000272 -0.0002688
395726 0.0000271 -0.0002554 0.9999729 0.0002554 0.9999729 0.0002554 0.0000271 -0.0002554
413847 0.0000271 -0.0002426 0.9999729 0.0002426 0.9999729 0.0002426 0.0000271 -0.0002426
432798 0.0000270 -0.0002302 0.9999730 0.0002302 0.9999730 0.0002302 0.0000270 -0.0002302
452617 0.0000270 -0.0002183 0.9999730 0.0002183 0.9999730 0.0002183 0.0000270 -0.0002183
473344 0.0000270 -0.0002069 0.9999730 0.0002069 0.9999730 0.0002069 0.0000270 -0.0002069
495019 0.0000270 -0.0001958 0.9999730 0.0001958 0.9999730 0.0001958 0.0000270 -0.0001958
517687 0.0000271 -0.0001851 0.9999729 0.0001851 0.9999729 0.0001851 0.0000271 -0.0001851
541393 0.0000271 -0.0001748 0.9999729 0.0001748 0.9999729 0.0001748 0.0000271 -0.0001748
566185 0.0000272 -0.0001649 0.9999728 0.0001649 0.9999728 0.0001649 0.0000272 -0.0001649
592111 0.0000273 -0.0001552 0.9999727 0.0001552 0.9999727 0.0001552 0.0000273 -0.0001552
619225 0.0000274 -0.0001459 0.9999726 0.0001459 0.9999726 0.0001459 0.0000274 -0.0001459
647581 0.0000275 -0.0001369 0.9999725 0.0001369 0.9999725 0.0001369 0.0000275 -0.0001369
677235 0.0000276 -0.0001281 0.9999724 0.0001281 0.9999724 0.0001281 0.0000276 -0.0001281
708247 0.0000278 -0.0001196 0.9999722 0.0001196 0.9999722 0.0001196 0.0000278 -0.0001196
740679 0.0000280 -0.0001113 0.9999720 0.0001113 0.9999720 0.0001113 0.0000280 -0.0001113
774597 0.0000282 -0.0001032 0.9999718 0.0001032 0.9999718 0.0001032 0.0000282 -0.0001032
810067 0.0000285 -0.0000954 0.9999715 0.0000954 0.9999715 0.0000954 0.0000285 -0.0000954
847162 0.0000288 -0.0000877 0.9999712 0.0000877 0.9999712 0.0000877 0.0000288 -0.0000877
885955 0.0000291 -0.0000803 0.9999709 0.0000803 0.9999709 0.0000803 0.0000291 -0.0000803
926525 0.0000295 -0.0000729 0.9999705 0.0000729 0.9999705 0.0000729 0.0000295 -0.0000729
968953 0.0000299 -0.0000658 0.9999701 0.0000658 0.9999701 0.0000658 0.0000299 -0.0000658
1013323 0.0000304 -0.0000587 0.9999696 0.0000587 0.9999696 0.0000587 0.0000304 -0.0000587
1059725 0.0000309 -0.0000518 0.9999691 0.0000518 0.9999691 0.0000518 0.0000309 -0.0000518
1108252 0.0000315 -0.0000450 0.9999685 0.0000450 0.9999685 0.0000450 0.0000315 -0.0000450
1159002 0.0000322 -0.0000383 0.9999678 0.0000383 0.9999678 0.0000383 0.0000322 -0.0000383
1212075 0.0000329 -0.0000316 0.9999671 0.0000316 0.9999671 0.0000316 0.0000329 -0.0000316
1267578 0.0000337 -0.0000251 0.9999663 0.0000251 0.9999663 0.0000251 0.0000337 -0.0000251
1325623 0.0000346 -0.0000186 0.9999654 0.0000186 0.9999654 0.0000186 0.0000346 -0.0000186
1386327 0.0000356 -0.0000121 0.9999644 0.0000121 0.9999644 0.0000121 0.0000356 -0.0000121
1449809 0.0000367 -0.0000057 0.9999633 0.0000057 0.9999633 0.0000057 0.0000367 -0.0000057
1516199 0.0000380 0.0000007 0.9999620 -0.0000007 0.9999620 -0.0000007 0.0000380 0.0000007
1585629 0.0000394 0.0000070 0.9999606 -0.0000070 0.9999606 -0.0000070 0.0000394 0.0000070
1658239 0.0000410 0.0000133 0.9999590 -0.0000133 0.9999590 -0.0000133 0.0000410 0.0000133
1734173 0.0000427 0.0000196 0.9999573 -0.0000196 0.9999573 -0.0000196 0.0000427 0.0000196
1813585 0.0000447 0.0000259 0.9999553 -0.0000259 0.9999553 -0.0000259 0.0000447 0.0000259
1896632 0.0000470 0.0000321 0.9999530 -0.0000321 0.9999530 -0.0000321 0.0000470 0.0000321
1983483 0.0000495 0.0000382 0.9999505 -0.0000382 0.9999505 -0.0000382 0.0000495 0.0000382
2074311 0.0000524 0.0000442 0.9999476 -0.0000442 0.9999476 -0.0000442 0.0000524 0.0000442
