!Murata Part Number: GRM188C80G226ME15
!These Parameters are Measured in Series Mode Connection
!Data Generated on Mar 30, 2021
!       o--ll--o
!Port1            Port2
!       o------o
!Operation Temp=25[degC], DC Bias Voltage=0[V]
!Freq. Start=100[Hz] Stop=6[GHz] 401[Steps]
# Hz S RI R 50
!Freq.(Hz) S11(Real) S11(Imag) S21(Real) S21(Imag) S12(Real) S12(Imag) S22(Real) S22(Imag)
100 0.5305146 -0.4919368 0.4694854 0.4919368 0.4694854 0.4919368 0.5305146 -0.4919368
105 0.5086632 -0.4927907 0.4913368 0.4927907 0.4913368 0.4927907 0.5086632 -0.4927907
109 0.4867799 -0.4926838 0.5132201 0.4926838 0.5132201 0.4926838 0.4867799 -0.4926838
114 0.4649503 -0.4916174 0.5350497 0.4916174 0.5350497 0.4916174 0.4649503 -0.4916174
120 0.4432589 -0.4896025 0.5567411 0.4896025 0.5567411 0.4896025 0.4432589 -0.4896025
125 0.4217879 -0.4866594 0.5782121 0.4866594 0.5782121 0.4866594 0.4217879 -0.4866594
131 0.4006162 -0.4828168 0.5993838 0.4828168 0.5993838 0.4828168 0.4006162 -0.4828168
137 0.3798177 -0.4781117 0.6201823 0.4781117 0.6201823 0.4781117 0.3798177 -0.4781117
143 0.3594610 -0.4725879 0.6405390 0.4725879 0.6405390 0.4725879 0.3594610 -0.4725879
150 0.3396080 -0.4662957 0.6603920 0.4662957 0.6603920 0.4662957 0.3396080 -0.4662957
156 0.3203137 -0.4592903 0.6796863 0.4592903 0.6796863 0.4592903 0.3203137 -0.4592903
164 0.3016257 -0.4516308 0.6983743 0.4516308 0.6983743 0.4516308 0.3016257 -0.4516308
171 0.2835837 -0.4433793 0.7164163 0.4433793 0.7164163 0.4433793 0.2835837 -0.4433793
179 0.2662198 -0.4345994 0.7337802 0.4345994 0.7337802 0.4345994 0.2662198 -0.4345994
187 0.2495587 -0.4253555 0.7504413 0.4253555 0.7504413 0.4253555 0.2495587 -0.4253555
196 0.2336175 -0.4157118 0.7663825 0.4157118 0.7663825 0.4157118 0.2336175 -0.4157118
205 0.2184067 -0.4057311 0.7815933 0.4057311 0.7815933 0.4057311 0.2184067 -0.4057311
214 0.2039303 -0.3954745 0.7960697 0.3954745 0.7960697 0.3954745 0.2039303 -0.3954745
224 0.1901867 -0.3850005 0.8098133 0.3850005 0.8098133 0.3850005 0.1901867 -0.3850005
234 0.1771688 -0.3743646 0.8228312 0.3743646 0.8228312 0.3743646 0.1771688 -0.3743646
245 0.1648654 -0.3636188 0.8351346 0.3636188 0.8351346 0.3636188 0.1648654 -0.3636188
256 0.1532611 -0.3528116 0.8467389 0.3528116 0.8467389 0.3528116 0.1532611 -0.3528116
268 0.1423373 -0.3419877 0.8576627 0.3419877 0.8576627 0.3419877 0.1423373 -0.3419877
280 0.1320730 -0.3311876 0.8679270 0.3311876 0.8679270 0.3311876 0.1320730 -0.3311876
293 0.1224446 -0.3204483 0.8775554 0.3204483 0.8775554 0.3204483 0.1224446 -0.3204483
306 0.1134275 -0.3098028 0.8865725 0.3098028 0.8865725 0.3098028 0.1134275 -0.3098028
320 0.1049954 -0.2992803 0.8950046 0.2992803 0.8950046 0.2992803 0.1049954 -0.2992803
335 0.0971216 -0.2889065 0.9028784 0.2889065 0.9028784 0.2889065 0.0971216 -0.2889065
350 0.0897789 -0.2787039 0.9102211 0.2787039 0.9102211 0.2787039 0.0897789 -0.2787039
366 0.0829401 -0.2686917 0.9170599 0.2686917 0.9170599 0.2686917 0.0829401 -0.2686917
383 0.0765781 -0.2588861 0.9234219 0.2588861 0.9234219 0.2588861 0.0765781 -0.2588861
401 0.0706662 -0.2493008 0.9293338 0.2493008 0.9293338 0.2493008 0.0706662 -0.2493008
419 0.0651783 -0.2399468 0.9348217 0.2399468 0.9348217 0.2399468 0.0651783 -0.2399468
438 0.0600889 -0.2308329 0.9399111 0.2308329 0.9399111 0.2308329 0.0600889 -0.2308329
458 0.0553736 -0.2219659 0.9446264 0.2219659 0.9446264 0.2219659 0.0553736 -0.2219659
479 0.0510085 -0.2133507 0.9489915 0.2133507 0.9489915 0.2133507 0.0510085 -0.2133507
501 0.0469710 -0.2049905 0.9530290 0.2049905 0.9530290 0.2049905 0.0469710 -0.2049905
524 0.0432394 -0.1968872 0.9567606 0.1968872 0.9567606 0.1968872 0.0432394 -0.1968872
548 0.0397929 -0.1890410 0.9602071 0.1890410 0.9602071 0.1890410 0.0397929 -0.1890410
573 0.0366120 -0.1814514 0.9633880 0.1814514 0.9633880 0.1814514 0.0366120 -0.1814514
600 0.0336780 -0.1741167 0.9663220 0.1741167 0.9663220 0.1741167 0.0336780 -0.1741167
627 0.0309734 -0.1670341 0.9690266 0.1670341 0.9690266 0.1670341 0.0309734 -0.1670341
656 0.0284815 -0.1602004 0.9715185 0.1602004 0.9715185 0.1602004 0.0284815 -0.1602004
686 0.0261869 -0.1536115 0.9738131 0.1536115 0.9738131 0.1536115 0.0261869 -0.1536115
717 0.0240749 -0.1472630 0.9759251 0.1472630 0.9759251 0.1472630 0.0240749 -0.1472630
750 0.0221318 -0.1411498 0.9778682 0.1411498 0.9778682 0.1411498 0.0221318 -0.1411498
784 0.0203448 -0.1352665 0.9796552 0.1352665 0.9796552 0.1352665 0.0203448 -0.1352665
820 0.0187020 -0.1296074 0.9812980 0.1296074 0.9812980 0.1296074 0.0187020 -0.1296074
858 0.0171922 -0.1241667 0.9828078 0.1241667 0.9828078 0.1241667 0.0171922 -0.1241667
897 0.0158050 -0.1189383 0.9841950 0.1189383 0.9841950 0.1189383 0.0158050 -0.1189383
938 0.0145309 -0.1139159 0.9854691 0.1139159 0.9854691 0.1139159 0.0145309 -0.1139159
981 0.0133607 -0.1090933 0.9866393 0.1090933 0.9866393 0.1090933 0.0133607 -0.1090933
1026 0.0122864 -0.1044642 0.9877136 0.1044642 0.9877136 0.1044642 0.0122864 -0.1044642
1073 0.0113000 -0.1000221 0.9887000 0.1000221 0.9887000 0.1000221 0.0113000 -0.1000221
1122 0.0103946 -0.0957609 0.9896054 0.0957609 0.9896054 0.0957609 0.0103946 -0.0957609
1174 0.0095635 -0.0916742 0.9904365 0.0916742 0.9904365 0.0916742 0.0095635 -0.0916742
1227 0.0088007 -0.0877559 0.9911993 0.0877559 0.9911993 0.0877559 0.0088007 -0.0877559
1283 0.0081005 -0.0839999 0.9918995 0.0839999 0.9918995 0.0839999 0.0081005 -0.0839999
1342 0.0074578 -0.0804002 0.9925422 0.0804002 0.9925422 0.0804002 0.0074578 -0.0804002
1404 0.0068678 -0.0769509 0.9931322 0.0769509 0.9931322 0.0769509 0.0068678 -0.0769509
1468 0.0063262 -0.0736463 0.9936738 0.0736463 0.9936738 0.0736463 0.0063262 -0.0736463
1535 0.0058288 -0.0704808 0.9941712 0.0704808 0.9941712 0.0704808 0.0058288 -0.0704808
1606 0.0053719 -0.0674491 0.9946281 0.0674491 0.9946281 0.0674491 0.0053719 -0.0674491
1679 0.0049523 -0.0645457 0.9950477 0.0645457 0.9950477 0.0645457 0.0049523 -0.0645457
1756 0.0045666 -0.0617655 0.9954334 0.0617655 0.9954334 0.0617655 0.0045666 -0.0617655
1836 0.0042122 -0.0591036 0.9957878 0.0591036 0.9957878 0.0591036 0.0042122 -0.0591036
1920 0.0038863 -0.0565551 0.9961137 0.0565551 0.9961137 0.0565551 0.0038863 -0.0565551
2008 0.0035865 -0.0541154 0.9964135 0.0541154 0.9964135 0.0541154 0.0035865 -0.0541154
2100 0.0033107 -0.0517800 0.9966893 0.0517800 0.9966893 0.0517800 0.0033107 -0.0517800
2196 0.0030568 -0.0495445 0.9969432 0.0495445 0.9969432 0.0495445 0.0030568 -0.0495445
2297 0.0028230 -0.0474048 0.9971770 0.0474048 0.9971770 0.0474048 0.0028230 -0.0474048
2402 0.0026076 -0.0453567 0.9973924 0.0453567 0.9973924 0.0453567 0.0026076 -0.0453567
2512 0.0024092 -0.0433966 0.9975908 0.0433966 0.9975908 0.0433966 0.0024092 -0.0433966
2627 0.0022262 -0.0415205 0.9977738 0.0415205 0.9977738 0.0415205 0.0022262 -0.0415205
2748 0.0020575 -0.0397249 0.9979425 0.0397249 0.9979425 0.0397249 0.0020575 -0.0397249
2873 0.0019019 -0.0380065 0.9980981 0.0380065 0.9980981 0.0380065 0.0019019 -0.0380065
3005 0.0017584 -0.0363618 0.9982416 0.0363618 0.9982416 0.0363618 0.0017584 -0.0363618
3143 0.0016258 -0.0347878 0.9983742 0.0347878 0.9983742 0.0347878 0.0016258 -0.0347878
3287 0.0015035 -0.0332815 0.9984965 0.0332815 0.9984965 0.0332815 0.0015035 -0.0332815
3437 0.0013906 -0.0318398 0.9986094 0.0318398 0.9986094 0.0318398 0.0013906 -0.0318398
3594 0.0012864 -0.0304602 0.9987136 0.0304602 0.9987136 0.0304602 0.0012864 -0.0304602
3759 0.0011901 -0.0291398 0.9988099 0.0291398 0.9988099 0.0291398 0.0011901 -0.0291398
3931 0.0011013 -0.0278762 0.9988987 0.0278762 0.9988987 0.0278762 0.0011013 -0.0278762
4111 0.0010192 -0.0266670 0.9989808 0.0266670 0.9989808 0.0266670 0.0010192 -0.0266670
4299 0.0009435 -0.0255098 0.9990565 0.0255098 0.9990565 0.0255098 0.0009435 -0.0255098
4496 0.0008736 -0.0244024 0.9991264 0.0244024 0.9991264 0.0244024 0.0008736 -0.0244024
4702 0.0008091 -0.0233427 0.9991909 0.0233427 0.9991909 0.0233427 0.0008091 -0.0233427
4918 0.0007496 -0.0223287 0.9992504 0.0223287 0.9992504 0.0223287 0.0007496 -0.0223287
5143 0.0006947 -0.0213583 0.9993053 0.0213583 0.9993053 0.0213583 0.0006947 -0.0213583
5378 0.0006441 -0.0204298 0.9993559 0.0204298 0.9993559 0.0204298 0.0006441 -0.0204298
5625 0.0005975 -0.0195414 0.9994025 0.0195414 0.9994025 0.0195414 0.0005975 -0.0195414
5882 0.0005545 -0.0186913 0.9994455 0.0186913 0.9994455 0.0186913 0.0005545 -0.0186913
6151 0.0005149 -0.0178780 0.9994851 0.0178780 0.9994851 0.0178780 0.0005149 -0.0178780
6433 0.0004784 -0.0170998 0.9995216 0.0170998 0.9995216 0.0170998 0.0004784 -0.0170998
6728 0.0004448 -0.0163553 0.9995552 0.0163553 0.9995552 0.0163553 0.0004448 -0.0163553
7036 0.0004139 -0.0156430 0.9995861 0.0156430 0.9995861 0.0156430 0.0004139 -0.0156430
7358 0.0003854 -0.0149616 0.9996146 0.0149616 0.9996146 0.0149616 0.0003854 -0.0149616
7695 0.0003593 -0.0143097 0.9996407 0.0143097 0.9996407 0.0143097 0.0003593 -0.0143097
8047 0.0003352 -0.0136861 0.9996648 0.0136861 0.9996648 0.0136861 0.0003352 -0.0136861
8416 0.0003130 -0.0130896 0.9996870 0.0130896 0.9996870 0.0130896 0.0003130 -0.0130896
8801 0.0002927 -0.0125190 0.9997073 0.0125190 0.9997073 0.0125190 0.0002927 -0.0125190
9204 0.0002740 -0.0119731 0.9997260 0.0119731 0.9997260 0.0119731 0.0002740 -0.0119731
9626 0.0002568 -0.0114510 0.9997432 0.0114510 0.9997432 0.0114510 0.0002568 -0.0114510
10066 0.0002409 -0.0109517 0.9997591 0.0109517 0.9997591 0.0109517 0.0002409 -0.0109517
10527 0.0002264 -0.0104741 0.9997736 0.0104741 0.9997736 0.0104741 0.0002264 -0.0104741
11009 0.0002130 -0.0100172 0.9997870 0.0100172 0.9997870 0.0100172 0.0002130 -0.0100172
11514 0.0002007 -0.0095803 0.9997993 0.0095803 0.9997993 0.0095803 0.0002007 -0.0095803
12041 0.0001894 -0.0091625 0.9998106 0.0091625 0.9998106 0.0091625 0.0001894 -0.0091625
12592 0.0001790 -0.0087629 0.9998210 0.0087629 0.9998210 0.0087629 0.0001790 -0.0087629
13169 0.0001694 -0.0083807 0.9998306 0.0083807 0.9998306 0.0083807 0.0001694 -0.0083807
13772 0.0001606 -0.0080152 0.9998394 0.0080152 0.9998394 0.0080152 0.0001606 -0.0080152
14402 0.0001525 -0.0076657 0.9998475 0.0076657 0.9998475 0.0076657 0.0001525 -0.0076657
15062 0.0001450 -0.0073314 0.9998550 0.0073314 0.9998550 0.0073314 0.0001450 -0.0073314
15752 0.0001381 -0.0070118 0.9998619 0.0070118 0.9998619 0.0070118 0.0001381 -0.0070118
16473 0.0001317 -0.0067062 0.9998683 0.0067062 0.9998683 0.0067062 0.0001317 -0.0067062
17227 0.0001257 -0.0064139 0.9998743 0.0064139 0.9998743 0.0064139 0.0001257 -0.0064139
18016 0.0001202 -0.0061344 0.9998798 0.0061344 0.9998798 0.0061344 0.0001202 -0.0061344
18841 0.0001151 -0.0058671 0.9998849 0.0058671 0.9998849 0.0058671 0.0001151 -0.0058671
19704 0.0001104 -0.0056115 0.9998896 0.0056115 0.9998896 0.0056115 0.0001104 -0.0056115
20606 0.0001060 -0.0053671 0.9998940 0.0053671 0.9998940 0.0053671 0.0001060 -0.0053671
21550 0.0001019 -0.0051334 0.9998981 0.0051334 0.9998981 0.0051334 0.0001019 -0.0051334
22537 0.0000980 -0.0049100 0.9999020 0.0049100 0.9999020 0.0049100 0.0000980 -0.0049100
23569 0.0000944 -0.0046963 0.9999056 0.0046963 0.9999056 0.0046963 0.0000944 -0.0046963
24648 0.0000910 -0.0044919 0.9999090 0.0044919 0.9999090 0.0044919 0.0000910 -0.0044919
25777 0.0000878 -0.0042965 0.9999122 0.0042965 0.9999122 0.0042965 0.0000878 -0.0042965
26957 0.0000848 -0.0041096 0.9999152 0.0041096 0.9999152 0.0041096 0.0000848 -0.0041096
28191 0.0000819 -0.0039309 0.9999181 0.0039309 0.9999181 0.0039309 0.0000819 -0.0039309
29482 0.0000792 -0.0037600 0.9999208 0.0037600 0.9999208 0.0037600 0.0000792 -0.0037600
30832 0.0000766 -0.0035966 0.9999234 0.0035966 0.9999234 0.0035966 0.0000766 -0.0035966
32244 0.0000741 -0.0034403 0.9999259 0.0034403 0.9999259 0.0034403 0.0000741 -0.0034403
33721 0.0000717 -0.0032908 0.9999283 0.0032908 0.9999283 0.0032908 0.0000717 -0.0032908
35265 0.0000694 -0.0031478 0.9999306 0.0031478 0.9999306 0.0031478 0.0000694 -0.0031478
36880 0.0000673 -0.0030111 0.9999327 0.0030111 0.9999327 0.0030111 0.0000673 -0.0030111
38569 0.0000652 -0.0028803 0.9999348 0.0028803 0.9999348 0.0028803 0.0000652 -0.0028803
40335 0.0000632 -0.0027551 0.9999368 0.0027551 0.9999368 0.0027551 0.0000632 -0.0027551
42182 0.0000612 -0.0026354 0.9999388 0.0026354 0.9999388 0.0026354 0.0000612 -0.0026354
44113 0.0000593 -0.0025209 0.9999407 0.0025209 0.9999407 0.0025209 0.0000593 -0.0025209
46134 0.0000575 -0.0024114 0.9999425 0.0024114 0.9999425 0.0024114 0.0000575 -0.0024114
48246 0.0000558 -0.0023066 0.9999442 0.0023066 0.9999442 0.0023066 0.0000558 -0.0023066
50455 0.0000542 -0.0022063 0.9999458 0.0022063 0.9999458 0.0022063 0.0000542 -0.0022063
52766 0.0000526 -0.0021104 0.9999474 0.0021104 0.9999474 0.0021104 0.0000526 -0.0021104
55182 0.0000510 -0.0020186 0.9999490 0.0020186 0.9999490 0.0020186 0.0000510 -0.0020186
57709 0.0000496 -0.0019307 0.9999504 0.0019307 0.9999504 0.0019307 0.0000496 -0.0019307
60352 0.0000481 -0.0018467 0.9999519 0.0018467 0.9999519 0.0018467 0.0000481 -0.0018467
63115 0.0000468 -0.0017662 0.9999532 0.0017662 0.9999532 0.0017662 0.0000468 -0.0017662
66005 0.0000455 -0.0016893 0.9999545 0.0016893 0.9999545 0.0016893 0.0000455 -0.0016893
69028 0.0000443 -0.0016156 0.9999557 0.0016156 0.9999557 0.0016156 0.0000443 -0.0016156
72189 0.0000431 -0.0015451 0.9999569 0.0015451 0.9999569 0.0015451 0.0000431 -0.0015451
75495 0.0000420 -0.0014776 0.9999580 0.0014776 0.9999580 0.0014776 0.0000420 -0.0014776
78952 0.0000410 -0.0014131 0.9999590 0.0014131 0.9999590 0.0014131 0.0000410 -0.0014131
82567 0.0000400 -0.0013513 0.9999600 0.0013513 0.9999600 0.0013513 0.0000400 -0.0013513
86348 0.0000390 -0.0012921 0.9999610 0.0012921 0.9999610 0.0012921 0.0000390 -0.0012921
90302 0.0000382 -0.0012355 0.9999618 0.0012355 0.9999618 0.0012355 0.0000382 -0.0012355
94437 0.0000373 -0.0011814 0.9999627 0.0011814 0.9999627 0.0011814 0.0000373 -0.0011814
98762 0.0000366 -0.0011295 0.9999634 0.0011295 0.9999634 0.0011295 0.0000366 -0.0011295
103284 0.0000358 -0.0010799 0.9999642 0.0010799 0.9999642 0.0010799 0.0000358 -0.0010799
108014 0.0000352 -0.0010324 0.9999648 0.0010324 0.9999648 0.0010324 0.0000352 -0.0010324
112960 0.0000345 -0.0009869 0.9999655 0.0009869 0.9999655 0.0009869 0.0000345 -0.0009869
118133 0.0000339 -0.0009434 0.9999661 0.0009434 0.9999661 0.0009434 0.0000339 -0.0009434
123542 0.0000334 -0.0009018 0.9999666 0.0009018 0.9999666 0.0009018 0.0000334 -0.0009018
129199 0.0000329 -0.0008619 0.9999671 0.0008619 0.9999671 0.0008619 0.0000329 -0.0008619
135116 0.0000324 -0.0008238 0.9999676 0.0008238 0.9999676 0.0008238 0.0000324 -0.0008238
141303 0.0000320 -0.0007872 0.9999680 0.0007872 0.9999680 0.0007872 0.0000320 -0.0007872
147774 0.0000316 -0.0007523 0.9999684 0.0007523 0.9999684 0.0007523 0.0000316 -0.0007523
154540 0.0000312 -0.0007188 0.9999688 0.0007188 0.9999688 0.0007188 0.0000312 -0.0007188
161617 0.0000309 -0.0006867 0.9999691 0.0006867 0.9999691 0.0006867 0.0000309 -0.0006867
169018 0.0000305 -0.0006561 0.9999695 0.0006561 0.9999695 0.0006561 0.0000305 -0.0006561
176758 0.0000303 -0.0006267 0.9999697 0.0006267 0.9999697 0.0006267 0.0000303 -0.0006267
184852 0.0000300 -0.0005985 0.9999700 0.0005985 0.9999700 0.0005985 0.0000300 -0.0005985
193316 0.0000298 -0.0005716 0.9999702 0.0005716 0.9999702 0.0005716 0.0000298 -0.0005716
202169 0.0000295 -0.0005458 0.9999705 0.0005458 0.9999705 0.0005458 0.0000295 -0.0005458
211427 0.0000293 -0.0005211 0.9999707 0.0005211 0.9999707 0.0005211 0.0000293 -0.0005211
221108 0.0000292 -0.0004974 0.9999708 0.0004974 0.9999708 0.0004974 0.0000292 -0.0004974
231233 0.0000290 -0.0004747 0.9999710 0.0004747 0.9999710 0.0004747 0.0000290 -0.0004747
241822 0.0000289 -0.0004530 0.9999711 0.0004530 0.9999711 0.0004530 0.0000289 -0.0004530
252896 0.0000287 -0.0004321 0.9999713 0.0004321 0.9999713 0.0004321 0.0000287 -0.0004321
264476 0.0000286 -0.0004121 0.9999714 0.0004121 0.9999714 0.0004121 0.0000286 -0.0004121
276587 0.0000285 -0.0003930 0.9999715 0.0003930 0.9999715 0.0003930 0.0000285 -0.0003930
289253 0.0000285 -0.0003746 0.9999715 0.0003746 0.9999715 0.0003746 0.0000285 -0.0003746
302498 0.0000284 -0.0003570 0.9999716 0.0003570 0.9999716 0.0003570 0.0000284 -0.0003570
316350 0.0000283 -0.0003401 0.9999717 0.0003401 0.9999717 0.0003401 0.0000283 -0.0003401
330837 0.0000283 -0.0003239 0.9999717 0.0003239 0.9999717 0.0003239 0.0000283 -0.0003239
345986 0.0000283 -0.0003083 0.9999717 0.0003083 0.9999717 0.0003083 0.0000283 -0.0003083
361830 0.0000282 -0.0002933 0.9999718 0.0002933 0.9999718 0.0002933 0.0000282 -0.0002933
378399 0.0000282 -0.0002790 0.9999718 0.0002790 0.9999718 0.0002790 0.0000282 -0.0002790
395726 0.0000283 -0.0002651 0.9999717 0.0002651 0.9999717 0.0002651 0.0000283 -0.0002651
413847 0.0000283 -0.0002519 0.9999717 0.0002519 0.9999717 0.0002519 0.0000283 -0.0002519
432798 0.0000283 -0.0002391 0.9999717 0.0002391 0.9999717 0.0002391 0.0000283 -0.0002391
452617 0.0000284 -0.0002268 0.9999716 0.0002268 0.9999716 0.0002268 0.0000284 -0.0002268
473344 0.0000284 -0.0002149 0.9999716 0.0002149 0.9999716 0.0002149 0.0000284 -0.0002149
495019 0.0000285 -0.0002035 0.9999715 0.0002035 0.9999715 0.0002035 0.0000285 -0.0002035
517687 0.0000286 -0.0001925 0.9999714 0.0001925 0.9999714 0.0001925 0.0000286 -0.0001925
541393 0.0000287 -0.0001819 0.9999713 0.0001819 0.9999713 0.0001819 0.0000287 -0.0001819
566185 0.0000288 -0.0001716 0.9999712 0.0001716 0.9999712 0.0001716 0.0000288 -0.0001716
592111 0.0000290 -0.0001617 0.9999710 0.0001617 0.9999710 0.0001617 0.0000290 -0.0001617
619225 0.0000291 -0.0001521 0.9999709 0.0001521 0.9999709 0.0001521 0.0000291 -0.0001521
647581 0.0000293 -0.0001429 0.9999707 0.0001429 0.9999707 0.0001429 0.0000293 -0.0001429
677235 0.0000295 -0.0001339 0.9999705 0.0001339 0.9999705 0.0001339 0.0000295 -0.0001339
708247 0.0000297 -0.0001251 0.9999703 0.0001251 0.9999703 0.0001251 0.0000297 -0.0001251
740679 0.0000300 -0.0001167 0.9999700 0.0001167 0.9999700 0.0001167 0.0000300 -0.0001167
774597 0.0000303 -0.0001084 0.9999697 0.0001084 0.9999697 0.0001084 0.0000303 -0.0001084
810067 0.0000306 -0.0001004 0.9999694 0.0001004 0.9999694 0.0001004 0.0000306 -0.0001004
847162 0.0000309 -0.0000926 0.9999691 0.0000926 0.9999691 0.0000926 0.0000309 -0.0000926
885955 0.0000313 -0.0000850 0.9999687 0.0000850 0.9999687 0.0000850 0.0000313 -0.0000850
926525 0.0000317 -0.0000775 0.9999683 0.0000775 0.9999683 0.0000775 0.0000317 -0.0000775
968953 0.0000322 -0.0000703 0.9999678 0.0000703 0.9999678 0.0000703 0.0000322 -0.0000703
1013323 0.0000327 -0.0000631 0.9999673 0.0000631 0.9999673 0.0000631 0.0000327 -0.0000631
1059725 0.0000333 -0.0000561 0.9999667 0.0000561 0.9999667 0.0000561 0.0000333 -0.0000561
1108252 0.0000339 -0.0000492 0.9999661 0.0000492 0.9999661 0.0000492 0.0000339 -0.0000492
1159002 0.0000346 -0.0000424 0.9999654 0.0000424 0.9999654 0.0000424 0.0000346 -0.0000424
1212075 0.0000353 -0.0000357 0.9999647 0.0000357 0.9999647 0.0000357 0.0000353 -0.0000357
1267578 0.0000362 -0.0000291 0.9999638 0.0000291 0.9999638 0.0000291 0.0000362 -0.0000291
1325623 0.0000371 -0.0000226 0.9999629 0.0000226 0.9999629 0.0000226 0.0000371 -0.0000226
1386327 0.0000382 -0.0000161 0.9999618 0.0000161 0.9999618 0.0000161 0.0000382 -0.0000161
1449809 0.0000393 -0.0000097 0.9999607 0.0000097 0.9999607 0.0000097 0.0000393 -0.0000097
1516199 0.0000406 -0.0000034 0.9999594 0.0000034 0.9999594 0.0000034 0.0000406 -0.0000034
1585629 0.0000421 0.0000030 0.9999579 -0.0000030 0.9999579 -0.0000030 0.0000421 0.0000030
1658239 0.0000437 0.0000092 0.9999563 -0.0000092 0.9999563 -0.0000092 0.0000437 0.0000092
1734173 0.0000456 0.0000154 0.9999544 -0.0000154 0.9999544 -0.0000154 0.0000456 0.0000154
1813585 0.0000476 0.0000216 0.9999524 -0.0000216 0.9999524 -0.0000216 0.0000476 0.0000216
1896632 0.0000500 0.0000277 0.9999500 -0.0000277 0.9999500 -0.0000277 0.0000500 0.0000277
1983483 0.0000526 0.0000336 0.9999474 -0.0000336 0.9999474 -0.0000336 0.0000526 0.0000336
2074311 0.0000555 0.0000393 0.9999445 -0.0000393 0.9999445 -0.0000393 0.0000555 0.0000393
