!Murata Part Number: GRM188R60J226ME15
!These Parameters are Measured in Series Mode Connection
!Data Generated on Mar 30, 2021
!       o--ll--o
!Port1            Port2
!       o------o
!Operation Temp=25[degC], DC Bias Voltage=0[V]
!Freq. Start=100[Hz] Stop=6[GHz] 401[Steps]
# Hz S RI R 50
!Freq.(Hz) S11(Real) S11(Imag) S21(Real) S21(Imag) S12(Real) S12(Imag) S22(Real) S22(Imag)
100 0.5532912 -0.4911770 0.4467088 0.4911770 0.4467088 0.4911770 0.5532912 -0.4911770
105 0.5314881 -0.4930396 0.4685119 0.4930396 0.4685119 0.4930396 0.5314881 -0.4930396
109 0.5095632 -0.4939446 0.4904368 0.4939446 0.4904368 0.4939446 0.5095632 -0.4939446
114 0.4876019 -0.4938834 0.5123981 0.4938834 0.5123981 0.4938834 0.4876019 -0.4938834
120 0.4656901 -0.4928570 0.5343099 0.4928570 0.5343099 0.4928570 0.4656901 -0.4928570
125 0.4439129 -0.4908760 0.5560871 0.4908760 0.5560871 0.4908760 0.4439129 -0.4908760
131 0.4223530 -0.4879601 0.5776470 0.4879601 0.5776470 0.4879601 0.4223530 -0.4879601
137 0.4010899 -0.4841378 0.5989101 0.4841378 0.5989101 0.4841378 0.4010899 -0.4841378
143 0.3801983 -0.4794457 0.6198017 0.4794457 0.6198017 0.4794457 0.3801983 -0.4794457
150 0.3597473 -0.4739274 0.6402527 0.4739274 0.6402527 0.4739274 0.3597473 -0.4739274
156 0.3397999 -0.4676331 0.6602001 0.4676331 0.6602001 0.4676331 0.3397999 -0.4676331
164 0.3204117 -0.4606179 0.6795883 0.4606179 0.6795883 0.4606179 0.3204117 -0.4606179
171 0.3016309 -0.4529411 0.6983691 0.4529411 0.6983691 0.4529411 0.3016309 -0.4529411
179 0.2834983 -0.4446647 0.7165017 0.4446647 0.7165017 0.4446647 0.2834983 -0.4446647
187 0.2660468 -0.4358527 0.7339532 0.4358527 0.7339532 0.4358527 0.2660468 -0.4358527
196 0.2493016 -0.4265698 0.7506984 0.4265698 0.7506984 0.4265698 0.2493016 -0.4265698
205 0.2332807 -0.4168806 0.7667193 0.4168806 0.7667193 0.4168806 0.2332807 -0.4168806
214 0.2179952 -0.4068485 0.7820048 0.4068485 0.7820048 0.4068485 0.2179952 -0.4068485
224 0.2034498 -0.3965351 0.7965502 0.3965351 0.7965502 0.3965351 0.2034498 -0.3965351
234 0.1896432 -0.3859996 0.8103568 0.3859996 0.8103568 0.3859996 0.1896432 -0.3859996
245 0.1765689 -0.3752982 0.8234311 0.3752982 0.8234311 0.3752982 0.1765689 -0.3752982
256 0.1642160 -0.3644838 0.8357840 0.3644838 0.8357840 0.3644838 0.1642160 -0.3644838
268 0.1525692 -0.3536056 0.8474308 0.3536056 0.8474308 0.3536056 0.1525692 -0.3536056
280 0.1416102 -0.3427091 0.8583898 0.3427091 0.8583898 0.3427091 0.1416102 -0.3427091
293 0.1313178 -0.3318357 0.8686822 0.3318357 0.8686822 0.3318357 0.1313178 -0.3318357
306 0.1216686 -0.3210232 0.8783314 0.3210232 0.8783314 0.3210232 0.1216686 -0.3210232
320 0.1126374 -0.3103052 0.8873626 0.3103052 0.8873626 0.3103052 0.1126374 -0.3103052
335 0.1041979 -0.2997117 0.8958021 0.2997117 0.8958021 0.2997117 0.1041979 -0.2997117
350 0.0963230 -0.2892692 0.9036770 0.2892692 0.9036770 0.2892692 0.0963230 -0.2892692
366 0.0889849 -0.2790005 0.9110151 0.2790005 0.9110151 0.2790005 0.0889849 -0.2790005
383 0.0821560 -0.2689255 0.9178440 0.2689255 0.9178440 0.2689255 0.0821560 -0.2689255
401 0.0758086 -0.2590608 0.9241914 0.2590608 0.9241914 0.2590608 0.0758086 -0.2590608
419 0.0699154 -0.2494203 0.9300846 0.2494203 0.9300846 0.2494203 0.0699154 -0.2494203
438 0.0644498 -0.2400153 0.9355502 0.2400153 0.9355502 0.2400153 0.0644498 -0.2400153
458 0.0593858 -0.2308548 0.9406142 0.2308548 0.9406142 0.2308548 0.0593858 -0.2308548
479 0.0546982 -0.2219456 0.9453018 0.2219456 0.9453018 0.2219456 0.0546982 -0.2219456
501 0.0503628 -0.2132927 0.9496372 0.2132927 0.9496372 0.2132927 0.0503628 -0.2132927
524 0.0463563 -0.2048993 0.9536437 0.2048993 0.9536437 0.2048993 0.0463563 -0.2048993
548 0.0426565 -0.1967669 0.9573435 0.1967669 0.9573435 0.1967669 0.0426565 -0.1967669
573 0.0392423 -0.1888959 0.9607577 0.1888959 0.9607577 0.1888959 0.0392423 -0.1888959
600 0.0360937 -0.1812854 0.9639063 0.1812854 0.9639063 0.1812854 0.0360937 -0.1812854
627 0.0331917 -0.1739334 0.9668083 0.1739334 0.9668083 0.1739334 0.0331917 -0.1739334
656 0.0305184 -0.1668371 0.9694816 0.1668371 0.9694816 0.1668371 0.0305184 -0.1668371
686 0.0280570 -0.1599928 0.9719430 0.1599928 0.9719430 0.1599928 0.0280570 -0.1599928
717 0.0257917 -0.1533963 0.9742083 0.1533963 0.9742083 0.1533963 0.0257917 -0.1533963
750 0.0237077 -0.1470427 0.9762923 0.1470427 0.9762923 0.1470427 0.0237077 -0.1470427
784 0.0217912 -0.1409269 0.9782088 0.1409269 0.9782088 0.1409269 0.0217912 -0.1409269
820 0.0200292 -0.1350430 0.9799708 0.1350430 0.9799708 0.1350430 0.0200292 -0.1350430
858 0.0184097 -0.1293852 0.9815903 0.1293852 0.9815903 0.1293852 0.0184097 -0.1293852
897 0.0169216 -0.1239473 0.9830784 0.1239473 0.9830784 0.1239473 0.0169216 -0.1239473
938 0.0155544 -0.1187230 0.9844456 0.1187230 0.9844456 0.1187230 0.0155544 -0.1187230
981 0.0142985 -0.1137059 0.9857015 0.1137059 0.9857015 0.1137059 0.0142985 -0.1137059
1026 0.0131449 -0.1088893 0.9868551 0.1088893 0.9868551 0.1088893 0.0131449 -0.1088893
1073 0.0120855 -0.1042669 0.9879145 0.1042669 0.9879145 0.1042669 0.0120855 -0.1042669
1122 0.0111125 -0.0998320 0.9888875 0.0998320 0.9888875 0.0998320 0.0111125 -0.0998320
1174 0.0102190 -0.0955783 0.9897810 0.0955783 0.9897810 0.0955783 0.0102190 -0.0955783
1227 0.0093983 -0.0914992 0.9906017 0.0914992 0.9906017 0.0914992 0.0093983 -0.0914992
1283 0.0086446 -0.0875885 0.9913554 0.0875885 0.9913554 0.0875885 0.0086446 -0.0875885
1342 0.0079523 -0.0838399 0.9920477 0.0838399 0.9920477 0.0838399 0.0079523 -0.0838399
1404 0.0073163 -0.0802474 0.9926837 0.0802474 0.9926837 0.0802474 0.0073163 -0.0802474
1468 0.0067319 -0.0768050 0.9932681 0.0768050 0.9932681 0.0768050 0.0067319 -0.0768050
1535 0.0061950 -0.0735070 0.9938050 0.0735070 0.9938050 0.0735070 0.0061950 -0.0735070
1606 0.0057016 -0.0703475 0.9942984 0.0703475 0.9942984 0.0703475 0.0057016 -0.0703475
1679 0.0052481 -0.0673212 0.9947519 0.0673212 0.9947519 0.0673212 0.0052481 -0.0673212
1756 0.0048311 -0.0644227 0.9951689 0.0644227 0.9951689 0.0644227 0.0048311 -0.0644227
1836 0.0044478 -0.0616470 0.9955522 0.0616470 0.9955522 0.0616470 0.0044478 -0.0616470
1920 0.0040953 -0.0589889 0.9959047 0.0589889 0.9959047 0.0589889 0.0040953 -0.0589889
2008 0.0037710 -0.0564436 0.9962290 0.0564436 0.9962290 0.0564436 0.0037710 -0.0564436
2100 0.0034728 -0.0540067 0.9965272 0.0540067 0.9965272 0.0540067 0.0034728 -0.0540067
2196 0.0031984 -0.0516735 0.9968016 0.0516735 0.9968016 0.0516735 0.0031984 -0.0516735
2297 0.0029460 -0.0494397 0.9970540 0.0494397 0.9970540 0.0494397 0.0029460 -0.0494397
2402 0.0027138 -0.0473013 0.9972862 0.0473013 0.9972862 0.0473013 0.0027138 -0.0473013
2512 0.0025001 -0.0452543 0.9974999 0.0452543 0.9974999 0.0452543 0.0025001 -0.0452543
2627 0.0023034 -0.0432948 0.9976966 0.0432948 0.9976966 0.0432948 0.0023034 -0.0432948
2748 0.0021225 -0.0414192 0.9978775 0.0414192 0.9978775 0.0414192 0.0021225 -0.0414192
2873 0.0019561 -0.0396239 0.9980439 0.0396239 0.9980439 0.0396239 0.0019561 -0.0396239
3005 0.0018029 -0.0379056 0.9981971 0.0379056 0.9981971 0.0379056 0.0018029 -0.0379056
3143 0.0016621 -0.0362610 0.9983379 0.0362610 0.9983379 0.0362610 0.0016621 -0.0362610
3287 0.0015325 -0.0346871 0.9984675 0.0346871 0.9984675 0.0346871 0.0015325 -0.0346871
3437 0.0014133 -0.0331808 0.9985867 0.0331808 0.9985867 0.0331808 0.0014133 -0.0331808
3594 0.0013037 -0.0317394 0.9986963 0.0317394 0.9986963 0.0317394 0.0013037 -0.0317394
3759 0.0012030 -0.0303600 0.9987970 0.0303600 0.9987970 0.0303600 0.0012030 -0.0303600
3931 0.0011104 -0.0290400 0.9988896 0.0290400 0.9988896 0.0290400 0.0011104 -0.0290400
4111 0.0010252 -0.0277770 0.9989748 0.0277770 0.9989748 0.0277770 0.0010252 -0.0277770
4299 0.0009470 -0.0265686 0.9990530 0.0265686 0.9990530 0.0265686 0.0009470 -0.0265686
4496 0.0008751 -0.0254123 0.9991249 0.0254123 0.9991249 0.0254123 0.0008751 -0.0254123
4702 0.0008091 -0.0243060 0.9991909 0.0243060 0.9991909 0.0243060 0.0008091 -0.0243060
4918 0.0007484 -0.0232477 0.9992516 0.0232477 0.9992516 0.0232477 0.0007484 -0.0232477
5143 0.0006927 -0.0222351 0.9993073 0.0222351 0.9993073 0.0222351 0.0006927 -0.0222351
5378 0.0006415 -0.0212665 0.9993585 0.0212665 0.9993585 0.0212665 0.0006415 -0.0212665
5625 0.0005946 -0.0203398 0.9994054 0.0203398 0.9994054 0.0203398 0.0005946 -0.0203398
5882 0.0005514 -0.0194534 0.9994486 0.0194534 0.9994486 0.0194534 0.0005514 -0.0194534
6151 0.0005118 -0.0186055 0.9994882 0.0186055 0.9994882 0.0186055 0.0005118 -0.0186055
6433 0.0004755 -0.0177944 0.9995245 0.0177944 0.9995245 0.0177944 0.0004755 -0.0177944
6728 0.0004421 -0.0170186 0.9995579 0.0170186 0.9995579 0.0170186 0.0004421 -0.0170186
7036 0.0004114 -0.0162766 0.9995886 0.0162766 0.9995886 0.0162766 0.0004114 -0.0162766
7358 0.0003832 -0.0155669 0.9996168 0.0155669 0.9996168 0.0155669 0.0003832 -0.0155669
7695 0.0003573 -0.0148880 0.9996427 0.0148880 0.9996427 0.0148880 0.0003573 -0.0148880
8047 0.0003336 -0.0142388 0.9996664 0.0142388 0.9996664 0.0142388 0.0003336 -0.0142388
8416 0.0003117 -0.0136179 0.9996883 0.0136179 0.9996883 0.0136179 0.0003117 -0.0136179
8801 0.0002916 -0.0130241 0.9997084 0.0130241 0.9997084 0.0130241 0.0002916 -0.0130241
9204 0.0002731 -0.0124562 0.9997269 0.0124562 0.9997269 0.0124562 0.0002731 -0.0124562
9626 0.0002561 -0.0119130 0.9997439 0.0119130 0.9997439 0.0119130 0.0002561 -0.0119130
10066 0.0002404 -0.0113936 0.9997596 0.0113936 0.9997596 0.0113936 0.0002404 -0.0113936
10527 0.0002259 -0.0108969 0.9997741 0.0108969 0.9997741 0.0108969 0.0002259 -0.0108969
11009 0.0002126 -0.0104219 0.9997874 0.0104219 0.9997874 0.0104219 0.0002126 -0.0104219
11514 0.0002002 -0.0099676 0.9997998 0.0099676 0.9997998 0.0099676 0.0002002 -0.0099676
12041 0.0001888 -0.0095332 0.9998112 0.0095332 0.9998112 0.0095332 0.0001888 -0.0095332
12592 0.0001783 -0.0091177 0.9998217 0.0091177 0.9998217 0.0091177 0.0001783 -0.0091177
13169 0.0001685 -0.0087204 0.9998315 0.0087204 0.9998315 0.0087204 0.0001685 -0.0087204
13772 0.0001595 -0.0083405 0.9998405 0.0083405 0.9998405 0.0083405 0.0001595 -0.0083405
14402 0.0001510 -0.0079771 0.9998490 0.0079771 0.9998490 0.0079771 0.0001510 -0.0079771
15062 0.0001432 -0.0076296 0.9998568 0.0076296 0.9998568 0.0076296 0.0001432 -0.0076296
15752 0.0001359 -0.0072973 0.9998641 0.0072973 0.9998641 0.0072973 0.0001359 -0.0072973
16473 0.0001291 -0.0069795 0.9998709 0.0069795 0.9998709 0.0069795 0.0001291 -0.0069795
17227 0.0001227 -0.0066756 0.9998773 0.0066756 0.9998773 0.0066756 0.0001227 -0.0066756
18016 0.0001168 -0.0063849 0.9998832 0.0063849 0.9998832 0.0063849 0.0001168 -0.0063849
18841 0.0001112 -0.0061069 0.9998888 0.0061069 0.9998888 0.0061069 0.0001112 -0.0061069
19704 0.0001060 -0.0058410 0.9998940 0.0058410 0.9998940 0.0058410 0.0001060 -0.0058410
20606 0.0001011 -0.0055867 0.9998989 0.0055867 0.9998989 0.0055867 0.0001011 -0.0055867
21550 0.0000965 -0.0053435 0.9999035 0.0053435 0.9999035 0.0053435 0.0000965 -0.0053435
22537 0.0000922 -0.0051108 0.9999078 0.0051108 0.9999078 0.0051108 0.0000922 -0.0051108
23569 0.0000882 -0.0048883 0.9999118 0.0048883 0.9999118 0.0048883 0.0000882 -0.0048883
24648 0.0000843 -0.0046754 0.9999157 0.0046754 0.9999157 0.0046754 0.0000843 -0.0046754
25777 0.0000807 -0.0044719 0.9999193 0.0044719 0.9999193 0.0044719 0.0000807 -0.0044719
26957 0.0000774 -0.0042771 0.9999226 0.0042771 0.9999226 0.0042771 0.0000774 -0.0042771
28191 0.0000742 -0.0040908 0.9999258 0.0040908 0.9999258 0.0040908 0.0000742 -0.0040908
29482 0.0000712 -0.0039126 0.9999288 0.0039126 0.9999288 0.0039126 0.0000712 -0.0039126
30832 0.0000684 -0.0037422 0.9999316 0.0037422 0.9999316 0.0037422 0.0000684 -0.0037422
32244 0.0000657 -0.0035791 0.9999343 0.0035791 0.9999343 0.0035791 0.0000657 -0.0035791
33721 0.0000632 -0.0034231 0.9999368 0.0034231 0.9999368 0.0034231 0.0000632 -0.0034231
35265 0.0000609 -0.0032739 0.9999391 0.0032739 0.9999391 0.0032739 0.0000609 -0.0032739
36880 0.0000587 -0.0031312 0.9999413 0.0031312 0.9999413 0.0031312 0.0000587 -0.0031312
38569 0.0000566 -0.0029946 0.9999434 0.0029946 0.9999434 0.0029946 0.0000566 -0.0029946
40335 0.0000547 -0.0028640 0.9999453 0.0028640 0.9999453 0.0028640 0.0000547 -0.0028640
42182 0.0000529 -0.0027391 0.9999471 0.0027391 0.9999471 0.0027391 0.0000529 -0.0027391
44113 0.0000512 -0.0026195 0.9999488 0.0026195 0.9999488 0.0026195 0.0000512 -0.0026195
46134 0.0000496 -0.0025052 0.9999504 0.0025052 0.9999504 0.0025052 0.0000496 -0.0025052
48246 0.0000482 -0.0023958 0.9999518 0.0023958 0.9999518 0.0023958 0.0000482 -0.0023958
50455 0.0000468 -0.0022912 0.9999532 0.0022912 0.9999532 0.0022912 0.0000468 -0.0022912
52766 0.0000455 -0.0021911 0.9999545 0.0021911 0.9999545 0.0021911 0.0000455 -0.0021911
55182 0.0000443 -0.0020954 0.9999557 0.0020954 0.9999557 0.0020954 0.0000443 -0.0020954
57709 0.0000432 -0.0020038 0.9999568 0.0020038 0.9999568 0.0020038 0.0000432 -0.0020038
60352 0.0000421 -0.0019162 0.9999579 0.0019162 0.9999579 0.0019162 0.0000421 -0.0019162
63115 0.0000411 -0.0018324 0.9999589 0.0018324 0.9999589 0.0018324 0.0000411 -0.0018324
66005 0.0000402 -0.0017523 0.9999598 0.0017523 0.9999598 0.0017523 0.0000402 -0.0017523
69028 0.0000394 -0.0016756 0.9999606 0.0016756 0.9999606 0.0016756 0.0000394 -0.0016756
72189 0.0000386 -0.0016023 0.9999614 0.0016023 0.9999614 0.0016023 0.0000386 -0.0016023
75495 0.0000378 -0.0015321 0.9999622 0.0015321 0.9999622 0.0015321 0.0000378 -0.0015321
78952 0.0000371 -0.0014650 0.9999629 0.0014650 0.9999629 0.0014650 0.0000371 -0.0014650
82567 0.0000364 -0.0014008 0.9999636 0.0014008 0.9999636 0.0014008 0.0000364 -0.0014008
86348 0.0000358 -0.0013394 0.9999642 0.0013394 0.9999642 0.0013394 0.0000358 -0.0013394
90302 0.0000352 -0.0012807 0.9999648 0.0012807 0.9999648 0.0012807 0.0000352 -0.0012807
94437 0.0000347 -0.0012245 0.9999653 0.0012245 0.9999653 0.0012245 0.0000347 -0.0012245
98762 0.0000341 -0.0011707 0.9999659 0.0011707 0.9999659 0.0011707 0.0000341 -0.0011707
103284 0.0000337 -0.0011193 0.9999663 0.0011193 0.9999663 0.0011193 0.0000337 -0.0011193
108014 0.0000332 -0.0010701 0.9999668 0.0010701 0.9999668 0.0010701 0.0000332 -0.0010701
112960 0.0000327 -0.0010230 0.9999673 0.0010230 0.9999673 0.0010230 0.0000327 -0.0010230
118133 0.0000323 -0.0009780 0.9999677 0.0009780 0.9999677 0.0009780 0.0000323 -0.0009780
123542 0.0000319 -0.0009349 0.9999681 0.0009349 0.9999681 0.0009349 0.0000319 -0.0009349
129199 0.0000315 -0.0008937 0.9999685 0.0008937 0.9999685 0.0008937 0.0000315 -0.0008937
135116 0.0000311 -0.0008542 0.9999689 0.0008542 0.9999689 0.0008542 0.0000311 -0.0008542
141303 0.0000308 -0.0008164 0.9999692 0.0008164 0.9999692 0.0008164 0.0000308 -0.0008164
147774 0.0000304 -0.0007803 0.9999696 0.0007803 0.9999696 0.0007803 0.0000304 -0.0007803
154540 0.0000301 -0.0007457 0.9999699 0.0007457 0.9999699 0.0007457 0.0000301 -0.0007457
161617 0.0000298 -0.0007125 0.9999702 0.0007125 0.9999702 0.0007125 0.0000298 -0.0007125
169018 0.0000295 -0.0006808 0.9999705 0.0006808 0.9999705 0.0006808 0.0000295 -0.0006808
176758 0.0000292 -0.0006505 0.9999708 0.0006505 0.9999708 0.0006505 0.0000292 -0.0006505
184852 0.0000289 -0.0006214 0.9999711 0.0006214 0.9999711 0.0006214 0.0000289 -0.0006214
193316 0.0000287 -0.0005935 0.9999713 0.0005935 0.9999713 0.0005935 0.0000287 -0.0005935
202169 0.0000284 -0.0005669 0.9999716 0.0005669 0.9999716 0.0005669 0.0000284 -0.0005669
211427 0.0000282 -0.0005413 0.9999718 0.0005413 0.9999718 0.0005413 0.0000282 -0.0005413
221108 0.0000280 -0.0005168 0.9999720 0.0005168 0.9999720 0.0005168 0.0000280 -0.0005168
231233 0.0000277 -0.0004934 0.9999723 0.0004934 0.9999723 0.0004934 0.0000277 -0.0004934
241822 0.0000275 -0.0004709 0.9999725 0.0004709 0.9999725 0.0004709 0.0000275 -0.0004709
252896 0.0000274 -0.0004493 0.9999726 0.0004493 0.9999726 0.0004493 0.0000274 -0.0004493
264476 0.0000272 -0.0004287 0.9999728 0.0004287 0.9999728 0.0004287 0.0000272 -0.0004287
276587 0.0000270 -0.0004088 0.9999730 0.0004088 0.9999730 0.0004088 0.0000270 -0.0004088
289253 0.0000269 -0.0003898 0.9999731 0.0003898 0.9999731 0.0003898 0.0000269 -0.0003898
302498 0.0000267 -0.0003716 0.9999733 0.0003716 0.9999733 0.0003716 0.0000267 -0.0003716
316350 0.0000266 -0.0003541 0.9999734 0.0003541 0.9999734 0.0003541 0.0000266 -0.0003541
330837 0.0000265 -0.0003373 0.9999735 0.0003373 0.9999735 0.0003373 0.0000265 -0.0003373
345986 0.0000264 -0.0003211 0.9999736 0.0003211 0.9999736 0.0003211 0.0000264 -0.0003211
361830 0.0000263 -0.0003056 0.9999737 0.0003056 0.9999737 0.0003056 0.0000263 -0.0003056
378399 0.0000262 -0.0002907 0.9999738 0.0002907 0.9999738 0.0002907 0.0000262 -0.0002907
395726 0.0000262 -0.0002764 0.9999738 0.0002764 0.9999738 0.0002764 0.0000262 -0.0002764
413847 0.0000261 -0.0002626 0.9999739 0.0002626 0.9999739 0.0002626 0.0000261 -0.0002626
432798 0.0000261 -0.0002494 0.9999739 0.0002494 0.9999739 0.0002494 0.0000261 -0.0002494
452617 0.0000261 -0.0002366 0.9999739 0.0002366 0.9999739 0.0002366 0.0000261 -0.0002366
473344 0.0000261 -0.0002243 0.9999739 0.0002243 0.9999739 0.0002243 0.0000261 -0.0002243
495019 0.0000261 -0.0002125 0.9999739 0.0002125 0.9999739 0.0002125 0.0000261 -0.0002125
517687 0.0000262 -0.0002010 0.9999738 0.0002010 0.9999738 0.0002010 0.0000262 -0.0002010
541393 0.0000262 -0.0001900 0.9999738 0.0001900 0.9999738 0.0001900 0.0000262 -0.0001900
566185 0.0000263 -0.0001794 0.9999737 0.0001794 0.9999737 0.0001794 0.0000263 -0.0001794
592111 0.0000264 -0.0001691 0.9999736 0.0001691 0.9999736 0.0001691 0.0000264 -0.0001691
619225 0.0000265 -0.0001592 0.9999735 0.0001592 0.9999735 0.0001592 0.0000265 -0.0001592
647581 0.0000266 -0.0001495 0.9999734 0.0001495 0.9999734 0.0001495 0.0000266 -0.0001495
677235 0.0000268 -0.0001402 0.9999732 0.0001402 0.9999732 0.0001402 0.0000268 -0.0001402
708247 0.0000269 -0.0001311 0.9999731 0.0001311 0.9999731 0.0001311 0.0000269 -0.0001311
740679 0.0000271 -0.0001223 0.9999729 0.0001223 0.9999729 0.0001223 0.0000271 -0.0001223
774597 0.0000274 -0.0001138 0.9999726 0.0001138 0.9999726 0.0001138 0.0000274 -0.0001138
810067 0.0000276 -0.0001055 0.9999724 0.0001055 0.9999724 0.0001055 0.0000276 -0.0001055
847162 0.0000279 -0.0000974 0.9999721 0.0000974 0.9999721 0.0000974 0.0000279 -0.0000974
885955 0.0000282 -0.0000895 0.9999718 0.0000895 0.9999718 0.0000895 0.0000282 -0.0000895
926525 0.0000286 -0.0000818 0.9999714 0.0000818 0.9999714 0.0000818 0.0000286 -0.0000818
968953 0.0000290 -0.0000742 0.9999710 0.0000742 0.9999710 0.0000742 0.0000290 -0.0000742
1013323 0.0000294 -0.0000668 0.9999706 0.0000668 0.9999706 0.0000668 0.0000294 -0.0000668
1059725 0.0000299 -0.0000595 0.9999701 0.0000595 0.9999701 0.0000595 0.0000299 -0.0000595
1108252 0.0000305 -0.0000524 0.9999695 0.0000524 0.9999695 0.0000524 0.0000305 -0.0000524
1159002 0.0000311 -0.0000453 0.9999689 0.0000453 0.9999689 0.0000453 0.0000311 -0.0000453
1212075 0.0000317 -0.0000384 0.9999683 0.0000384 0.9999683 0.0000384 0.0000317 -0.0000384
1267578 0.0000325 -0.0000315 0.9999675 0.0000315 0.9999675 0.0000315 0.0000325 -0.0000315
1325623 0.0000333 -0.0000247 0.9999667 0.0000247 0.9999667 0.0000247 0.0000333 -0.0000247
1386327 0.0000342 -0.0000180 0.9999658 0.0000180 0.9999658 0.0000180 0.0000342 -0.0000180
1449809 0.0000352 -0.0000113 0.9999648 0.0000113 0.9999648 0.0000113 0.0000352 -0.0000113
1516199 0.0000363 -0.0000046 0.9999637 0.0000046 0.9999637 0.0000046 0.0000363 -0.0000046
1585629 0.0000376 0.0000020 0.9999624 -0.0000020 0.9999624 -0.0000020 0.0000376 0.0000020
1658239 0.0000390 0.0000086 0.9999610 -0.0000086 0.9999610 -0.0000086 0.0000390 0.0000086
1734173 0.0000406 0.0000152 0.9999594 -0.0000152 0.9999594 -0.0000152 0.0000406 0.0000152
1813585 0.0000424 0.0000218 0.9999576 -0.0000218 0.9999576 -0.0000218 0.0000424 0.0000218
1896632 0.0000444 0.0000284 0.9999556 -0.0000284 0.9999556 -0.0000284 0.0000444 0.0000284
1983483 0.0000466 0.0000350 0.9999534 -0.0000350 0.9999534 -0.0000350 0.0000466 0.0000350
2074311 0.0000492 0.0000415 0.9999508 -0.0000415 0.9999508 -0.0000415 0.0000492 0.0000415
