!Murata Part Number: GRM188R11E333KA01
!These Parameters are Measured in Series Mode Connection
!Data Generated on Mar 30, 2021
!       o--ll--o
!Port1            Port2
!       o------o
!Operation Temp=25[degC], DC Bias Voltage=0[V]
!Freq. Start=100[kHz] Stop=6[GHz] 401[Steps]
# Hz S RI R 50
!Freq.(Hz) S11(Real) S11(Imag) S21(Real) S21(Imag) S12(Real) S12(Imag) S22(Real) S22(Imag)
100000 0.2021390 -0.3961838 0.7978610 0.3961838 0.7978610 0.3961838 0.2021390 -0.3961838
102789 0.1935910 -0.3896904 0.8064090 0.3896904 0.8064090 0.3896904 0.1935910 -0.3896904
105655 0.1853227 -0.3831279 0.8146773 0.3831279 0.8146773 0.3831279 0.1853227 -0.3831279
108602 0.1773320 -0.3765090 0.8226680 0.3765090 0.8226680 0.3765090 0.1773320 -0.3765090
111630 0.1696162 -0.3698462 0.8303838 0.3698462 0.8303838 0.3698462 0.1696162 -0.3698462
114743 0.1621720 -0.3631511 0.8378280 0.3631511 0.8378280 0.3631511 0.1621720 -0.3631511
117943 0.1549955 -0.3564350 0.8450045 0.3564350 0.8450045 0.3564350 0.1549955 -0.3564350
121232 0.1480824 -0.3497087 0.8519176 0.3497087 0.8519176 0.3497087 0.1480824 -0.3497087
124613 0.1414280 -0.3429823 0.8585720 0.3429823 0.8585720 0.3429823 0.1414280 -0.3429823
128088 0.1350271 -0.3362655 0.8649729 0.3362655 0.8649729 0.3362655 0.1350271 -0.3362655
131660 0.1288743 -0.3295671 0.8711257 0.3295671 0.8711257 0.3295671 0.1288743 -0.3295671
135332 0.1229640 -0.3228957 0.8770360 0.3228957 0.8770360 0.3228957 0.1229640 -0.3228957
139106 0.1172901 -0.3162592 0.8827099 0.3162592 0.8827099 0.3162592 0.1172901 -0.3162592
142985 0.1118465 -0.3096648 0.8881535 0.3096648 0.8881535 0.3096648 0.1118465 -0.3096648
146972 0.1066269 -0.3031195 0.8933731 0.3031195 0.8933731 0.3031195 0.1066269 -0.3031195
151071 0.1016250 -0.2966295 0.8983750 0.2966295 0.8983750 0.2966295 0.1016250 -0.2966295
155284 0.0968341 -0.2902005 0.9031659 0.2902005 0.9031659 0.2902005 0.0968341 -0.2902005
159614 0.0922479 -0.2838379 0.9077521 0.2838379 0.9077521 0.2838379 0.0922479 -0.2838379
164065 0.0878596 -0.2775465 0.9121404 0.2775465 0.9121404 0.2775465 0.0878596 -0.2775465
168641 0.0836629 -0.2713306 0.9163371 0.2713306 0.9163371 0.2713306 0.0836629 -0.2713306
173344 0.0796510 -0.2651941 0.9203490 0.2651941 0.9203490 0.2651941 0.0796510 -0.2651941
178178 0.0758175 -0.2591405 0.9241825 0.2591405 0.9241825 0.2591405 0.0758175 -0.2591405
183146 0.0721561 -0.2531729 0.9278439 0.2531729 0.9278439 0.2531729 0.0721561 -0.2531729
188254 0.0686604 -0.2472941 0.9313396 0.2472941 0.9313396 0.2472941 0.0686604 -0.2472941
193504 0.0653240 -0.2415064 0.9346760 0.2415064 0.9346760 0.2415064 0.0653240 -0.2415064
198900 0.0621410 -0.2358118 0.9378590 0.2358118 0.9378590 0.2358118 0.0621410 -0.2358118
204447 0.0591053 -0.2302121 0.9408947 0.2302121 0.9408947 0.2302121 0.0591053 -0.2302121
210148 0.0562110 -0.2247086 0.9437890 0.2247086 0.9437890 0.2247086 0.0562110 -0.2247086
216008 0.0534524 -0.2193026 0.9465476 0.2193026 0.9465476 0.2193026 0.0534524 -0.2193026
222032 0.0508239 -0.2139948 0.9491761 0.2139948 0.9491761 0.2139948 0.0508239 -0.2139948
228224 0.0483201 -0.2087860 0.9516799 0.2087860 0.9516799 0.2087860 0.0483201 -0.2087860
234589 0.0459357 -0.2036765 0.9540643 0.2036765 0.9540643 0.2036765 0.0459357 -0.2036765
241130 0.0436655 -0.1986666 0.9563345 0.1986666 0.9563345 0.1986666 0.0436655 -0.1986666
247855 0.0415046 -0.1937562 0.9584954 0.1937562 0.9584954 0.1937562 0.0415046 -0.1937562
254767 0.0394482 -0.1889452 0.9605518 0.1889452 0.9605518 0.1889452 0.0394482 -0.1889452
261871 0.0374917 -0.1842333 0.9625083 0.1842333 0.9625083 0.1842333 0.0374917 -0.1842333
269174 0.0356306 -0.1796199 0.9643694 0.1796199 0.9643694 0.1796199 0.0356306 -0.1796199
276681 0.0338605 -0.1751046 0.9661395 0.1751046 0.9661395 0.1751046 0.0338605 -0.1751046
284397 0.0321773 -0.1706864 0.9678227 0.1706864 0.9678227 0.1706864 0.0321773 -0.1706864
292328 0.0305771 -0.1663647 0.9694229 0.1663647 0.9694229 0.1663647 0.0305771 -0.1663647
300480 0.0290559 -0.1621384 0.9709441 0.1621384 0.9709441 0.1621384 0.0290559 -0.1621384
308859 0.0276101 -0.1580065 0.9723899 0.1580065 0.9723899 0.1580065 0.0276101 -0.1580065
317472 0.0262361 -0.1539679 0.9737639 0.1539679 0.9737639 0.1539679 0.0262361 -0.1539679
326326 0.0249306 -0.1500215 0.9750694 0.1500215 0.9750694 0.1500215 0.0249306 -0.1500215
335426 0.0236903 -0.1461658 0.9763097 0.1461658 0.9763097 0.1461658 0.0236903 -0.1461658
344780 0.0225120 -0.1423997 0.9774880 0.1423997 0.9774880 0.1423997 0.0225120 -0.1423997
354395 0.0213928 -0.1387218 0.9786072 0.1387218 0.9786072 0.1387218 0.0213928 -0.1387218
364278 0.0203298 -0.1351307 0.9796702 0.1351307 0.9796702 0.1351307 0.0203298 -0.1351307
374436 0.0193203 -0.1316250 0.9806797 0.1316250 0.9806797 0.1316250 0.0193203 -0.1316250
384878 0.0183617 -0.1282032 0.9816383 0.1282032 0.9816383 0.1282032 0.0183617 -0.1282032
395611 0.0174516 -0.1248638 0.9825484 0.1248638 0.9825484 0.1248638 0.0174516 -0.1248638
406644 0.0165874 -0.1216054 0.9834126 0.1216054 0.9834126 0.1216054 0.0165874 -0.1216054
417984 0.0157671 -0.1184265 0.9842329 0.1184265 0.9842329 0.1184265 0.0157671 -0.1184265
429640 0.0149883 -0.1153254 0.9850117 0.1153254 0.9850117 0.1153254 0.0149883 -0.1153254
441622 0.0142491 -0.1123008 0.9857509 0.1123008 0.9857509 0.1123008 0.0142491 -0.1123008
453937 0.0135475 -0.1093510 0.9864525 0.1093510 0.9864525 0.1093510 0.0135475 -0.1093510
466596 0.0128816 -0.1064746 0.9871184 0.1064746 0.9871184 0.1064746 0.0128816 -0.1064746
479608 0.0122497 -0.1036700 0.9877503 0.1036700 0.9877503 0.1036700 0.0122497 -0.1036700
492983 0.0116500 -0.1009358 0.9883500 0.1009358 0.9883500 0.1009358 0.0116500 -0.1009358
506731 0.0110809 -0.0982704 0.9889191 0.0982704 0.9889191 0.0982704 0.0110809 -0.0982704
520862 0.0105409 -0.0956724 0.9894591 0.0956724 0.9894591 0.0956724 0.0105409 -0.0956724
535387 0.0100286 -0.0931402 0.9899714 0.0931402 0.9899714 0.0931402 0.0100286 -0.0931402
550318 0.0095425 -0.0906725 0.9904575 0.0906725 0.9904575 0.0906725 0.0095425 -0.0906725
565664 0.0090813 -0.0882677 0.9909187 0.0882677 0.9909187 0.0882677 0.0090813 -0.0882677
581439 0.0086437 -0.0859245 0.9913563 0.0859245 0.9913563 0.0859245 0.0086437 -0.0859245
597654 0.0082287 -0.0836415 0.9917713 0.0836415 0.9917713 0.0836415 0.0082287 -0.0836415
614320 0.0078349 -0.0814172 0.9921651 0.0814172 0.9921651 0.0814172 0.0078349 -0.0814172
631452 0.0074614 -0.0792503 0.9925386 0.0792503 0.9925386 0.0792503 0.0074614 -0.0792503
649061 0.0071071 -0.0771394 0.9928929 0.0771394 0.9928929 0.0771394 0.0071071 -0.0771394
667162 0.0067711 -0.0750833 0.9932289 0.0750833 0.9932289 0.0750833 0.0067711 -0.0750833
685767 0.0064523 -0.0730806 0.9935477 0.0730806 0.9935477 0.0730806 0.0064523 -0.0730806
704891 0.0061500 -0.0711300 0.9938500 0.0711300 0.9938500 0.0711300 0.0061500 -0.0711300
724548 0.0058632 -0.0692303 0.9941368 0.0692303 0.9941368 0.0692303 0.0058632 -0.0692303
744754 0.0055912 -0.0673803 0.9944088 0.0673803 0.9944088 0.0673803 0.0055912 -0.0673803
765523 0.0053333 -0.0655787 0.9946667 0.0655787 0.9946667 0.0655787 0.0053333 -0.0655787
786871 0.0050886 -0.0638244 0.9949114 0.0638244 0.9949114 0.0638244 0.0050886 -0.0638244
808814 0.0048565 -0.0621162 0.9951435 0.0621162 0.9951435 0.0621162 0.0048565 -0.0621162
831370 0.0046364 -0.0604530 0.9953636 0.0604530 0.9953636 0.0604530 0.0046364 -0.0604530
854554 0.0044277 -0.0588336 0.9955723 0.0588336 0.9955723 0.0588336 0.0044277 -0.0588336
878385 0.0042297 -0.0572569 0.9957703 0.0572569 0.9957703 0.0572569 0.0042297 -0.0572569
902880 0.0040419 -0.0557219 0.9959581 0.0557219 0.9959581 0.0557219 0.0040419 -0.0557219
928059 0.0038637 -0.0542276 0.9961363 0.0542276 0.9961363 0.0542276 0.0038637 -0.0542276
953940 0.0036947 -0.0527728 0.9963053 0.0527728 0.9963053 0.0527728 0.0036947 -0.0527728
980542 0.0035344 -0.0513566 0.9964656 0.0513566 0.9964656 0.0513566 0.0035344 -0.0513566
1007887 0.0033823 -0.0499781 0.9966177 0.0499781 0.9966177 0.0499781 0.0033823 -0.0499781
1035994 0.0032380 -0.0486362 0.9967620 0.0486362 0.9967620 0.0486362 0.0032380 -0.0486362
1064885 0.0031011 -0.0473300 0.9968989 0.0473300 0.9968989 0.0473300 0.0031011 -0.0473300
1094581 0.0029712 -0.0460586 0.9970288 0.0460586 0.9970288 0.0460586 0.0029712 -0.0460586
1125106 0.0028479 -0.0448211 0.9971521 0.0448211 0.9971521 0.0448211 0.0028479 -0.0448211
1156481 0.0027308 -0.0436166 0.9972692 0.0436166 0.9972692 0.0436166 0.0027308 -0.0436166
1188732 0.0026197 -0.0424443 0.9973803 0.0424443 0.9973803 0.0424443 0.0026197 -0.0424443
1221882 0.0025142 -0.0413032 0.9974858 0.0413032 0.9974858 0.0413032 0.0025142 -0.0413032
1255957 0.0024140 -0.0401927 0.9975860 0.0401927 0.9975860 0.0401927 0.0024140 -0.0401927
1290982 0.0023189 -0.0391119 0.9976811 0.0391119 0.9976811 0.0391119 0.0023189 -0.0391119
1326984 0.0022285 -0.0380601 0.9977715 0.0380601 0.9977715 0.0380601 0.0022285 -0.0380601
1363989 0.0021426 -0.0370364 0.9978574 0.0370364 0.9978574 0.0370364 0.0021426 -0.0370364
1402027 0.0020610 -0.0360401 0.9979390 0.0360401 0.9979390 0.0360401 0.0020610 -0.0360401
1441125 0.0019834 -0.0350705 0.9980166 0.0350705 0.9980166 0.0350705 0.0019834 -0.0350705
1481314 0.0019097 -0.0341269 0.9980903 0.0341269 0.9980903 0.0341269 0.0019097 -0.0341269
1522623 0.0018395 -0.0332086 0.9981605 0.0332086 0.9981605 0.0332086 0.0018395 -0.0332086
1565085 0.0017728 -0.0323149 0.9982272 0.0323149 0.9982272 0.0323149 0.0017728 -0.0323149
1608730 0.0017093 -0.0314451 0.9982907 0.0314451 0.9982907 0.0314451 0.0017093 -0.0314451
1653593 0.0016488 -0.0305987 0.9983512 0.0305987 0.9983512 0.0305987 0.0016488 -0.0305987
1699707 0.0015912 -0.0297750 0.9984088 0.0297750 0.9984088 0.0297750 0.0015912 -0.0297750
1747106 0.0015364 -0.0289734 0.9984636 0.0289734 0.9984636 0.0289734 0.0015364 -0.0289734
1795828 0.0014841 -0.0281932 0.9985159 0.0281932 0.9985159 0.0281932 0.0014841 -0.0281932
1845908 0.0014343 -0.0274340 0.9985657 0.0274340 0.9985657 0.0274340 0.0014343 -0.0274340
1897385 0.0013868 -0.0266950 0.9986132 0.0266950 0.9986132 0.0266950 0.0013868 -0.0266950
1950297 0.0013415 -0.0259759 0.9986585 0.0259759 0.9986585 0.0259759 0.0013415 -0.0259759
2004685 0.0012983 -0.0252761 0.9987017 0.0252761 0.9987017 0.0252761 0.0012983 -0.0252761
2060590 0.0012570 -0.0245949 0.9987430 0.0245949 0.9987430 0.0245949 0.0012570 -0.0245949
2118054 0.0012176 -0.0239320 0.9987824 0.0239320 0.9987824 0.0239320 0.0012176 -0.0239320
2177120 0.0011799 -0.0232868 0.9988201 0.0232868 0.9988201 0.0232868 0.0011799 -0.0232868
2237833 0.0011439 -0.0226588 0.9988561 0.0226588 0.9988561 0.0226588 0.0011439 -0.0226588
2300240 0.0011095 -0.0220476 0.9988905 0.0220476 0.9988905 0.0220476 0.0011095 -0.0220476
2364387 0.0010766 -0.0214527 0.9989234 0.0214527 0.9989234 0.0214527 0.0010766 -0.0214527
2430322 0.0010451 -0.0208737 0.9989549 0.0208737 0.9989549 0.0208737 0.0010451 -0.0208737
2498097 0.0010150 -0.0203101 0.9989850 0.0203101 0.9989850 0.0203101 0.0010150 -0.0203101
2567761 0.0009861 -0.0197615 0.9990139 0.0197615 0.9990139 0.0197615 0.0009861 -0.0197615
2639368 0.0009585 -0.0192274 0.9990415 0.0192274 0.9990415 0.0192274 0.0009585 -0.0192274
2712972 0.0009321 -0.0187076 0.9990679 0.0187076 0.9990679 0.0187076 0.0009321 -0.0187076
2788629 0.0009067 -0.0182015 0.9990933 0.0182015 0.9990933 0.0182015 0.0009067 -0.0182015
2866396 0.0008824 -0.0177089 0.9991176 0.0177089 0.9991176 0.0177089 0.0008824 -0.0177089
2946331 0.0008591 -0.0172293 0.9991409 0.0172293 0.9991409 0.0172293 0.0008591 -0.0172293
3028495 0.0008368 -0.0167624 0.9991632 0.0167624 0.9991632 0.0167624 0.0008368 -0.0167624
3112951 0.0008154 -0.0163079 0.9991846 0.0163079 0.9991846 0.0163079 0.0008154 -0.0163079
3199762 0.0007949 -0.0158653 0.9992051 0.0158653 0.9992051 0.0158653 0.0007949 -0.0158653
3288994 0.0007752 -0.0154344 0.9992248 0.0154344 0.9992248 0.0154344 0.0007752 -0.0154344
3380714 0.0007563 -0.0150149 0.9992437 0.0150149 0.9992437 0.0150149 0.0007563 -0.0150149
3474992 0.0007382 -0.0146064 0.9992618 0.0146064 0.9992618 0.0146064 0.0007382 -0.0146064
3571899 0.0007209 -0.0142087 0.9992791 0.0142087 0.9992791 0.0142087 0.0007209 -0.0142087
3671508 0.0007042 -0.0138214 0.9992958 0.0138214 0.9992958 0.0138214 0.0007042 -0.0138214
3773896 0.0006883 -0.0134443 0.9993117 0.0134443 0.9993117 0.0134443 0.0006883 -0.0134443
3879139 0.0006730 -0.0130770 0.9993270 0.0130770 0.9993270 0.0130770 0.0006730 -0.0130770
3987316 0.0006583 -0.0127193 0.9993417 0.0127193 0.9993417 0.0127193 0.0006583 -0.0127193
4098510 0.0006442 -0.0123711 0.9993558 0.0123711 0.9993558 0.0123711 0.0006442 -0.0123711
4212806 0.0006308 -0.0120319 0.9993692 0.0120319 0.9993692 0.0120319 0.0006308 -0.0120319
4330288 0.0006179 -0.0117015 0.9993821 0.0117015 0.9993821 0.0117015 0.0006179 -0.0117015
4451047 0.0006055 -0.0113797 0.9993945 0.0113797 0.9993945 0.0113797 0.0006055 -0.0113797
4575173 0.0005936 -0.0110664 0.9994064 0.0110664 0.9994064 0.0110664 0.0005936 -0.0110664
4702761 0.0005823 -0.0107611 0.9994177 0.0107611 0.9994177 0.0107611 0.0005823 -0.0107611
4833907 0.0005715 -0.0104638 0.9994285 0.0104638 0.9994285 0.0104638 0.0005715 -0.0104638
4968711 0.0005611 -0.0101742 0.9994389 0.0101742 0.9994389 0.0101742 0.0005611 -0.0101742
5107273 0.0005511 -0.0098921 0.9994489 0.0098921 0.9994489 0.0098921 0.0005511 -0.0098921
5249700 0.0005416 -0.0096172 0.9994584 0.0096172 0.9994584 0.0096172 0.0005416 -0.0096172
5396098 0.0005325 -0.0093495 0.9994675 0.0093495 0.9994675 0.0093495 0.0005325 -0.0093495
5546579 0.0005239 -0.0090886 0.9994761 0.0090886 0.9994761 0.0090886 0.0005239 -0.0090886
5701257 0.0005156 -0.0088345 0.9994844 0.0088345 0.9994844 0.0088345 0.0005156 -0.0088345
5860248 0.0005077 -0.0085868 0.9994923 0.0085868 0.9994923 0.0085868 0.0005077 -0.0085868
6023672 0.0005001 -0.0083456 0.9994999 0.0083456 0.9994999 0.0083456 0.0005001 -0.0083456
6191655 0.0004929 -0.0081104 0.9995071 0.0081104 0.9995071 0.0081104 0.0004929 -0.0081104
6364321 0.0004860 -0.0078813 0.9995140 0.0078813 0.9995140 0.0078813 0.0004860 -0.0078813
6541803 0.0004795 -0.0076580 0.9995205 0.0076580 0.9995205 0.0076580 0.0004795 -0.0076580
6724235 0.0004732 -0.0074404 0.9995268 0.0074404 0.9995268 0.0074404 0.0004732 -0.0074404
6911753 0.0004673 -0.0072283 0.9995327 0.0072283 0.9995327 0.0072283 0.0004673 -0.0072283
7104501 0.0004616 -0.0070216 0.9995384 0.0070216 0.9995384 0.0070216 0.0004616 -0.0070216
7302625 0.0004562 -0.0068200 0.9995438 0.0068200 0.9995438 0.0068200 0.0004562 -0.0068200
7506273 0.0004511 -0.0066235 0.9995489 0.0066235 0.9995489 0.0066235 0.0004511 -0.0066235
7715601 0.0004462 -0.0064320 0.9995538 0.0064320 0.9995538 0.0064320 0.0004462 -0.0064320
7930766 0.0004416 -0.0062452 0.9995584 0.0062452 0.9995584 0.0062452 0.0004416 -0.0062452
8151931 0.0004372 -0.0060631 0.9995628 0.0060631 0.9995628 0.0060631 0.0004372 -0.0060631
8379264 0.0004330 -0.0058854 0.9995670 0.0058854 0.9995670 0.0058854 0.0004330 -0.0058854
8612937 0.0004290 -0.0057122 0.9995710 0.0057122 0.9995710 0.0057122 0.0004290 -0.0057122
8853126 0.0004253 -0.0055432 0.9995747 0.0055432 0.9995747 0.0055432 0.0004253 -0.0055432
9100013 0.0004217 -0.0053783 0.9995783 0.0053783 0.9995783 0.0053783 0.0004217 -0.0053783
9353785 0.0004184 -0.0052175 0.9995816 0.0052175 0.9995816 0.0052175 0.0004184 -0.0052175
9614634 0.0004152 -0.0050605 0.9995848 0.0050605 0.9995848 0.0050605 0.0004152 -0.0050605
9882758 0.0004122 -0.0049074 0.9995878 0.0049074 0.9995878 0.0049074 0.0004122 -0.0049074
10158358 0.0004094 -0.0047578 0.9995906 0.0047578 0.9995906 0.0047578 0.0004094 -0.0047578
10441645 0.0004067 -0.0046119 0.9995933 0.0046119 0.9995933 0.0046119 0.0004067 -0.0046119
10732831 0.0004042 -0.0044694 0.9995958 0.0044694 0.9995958 0.0044694 0.0004042 -0.0044694
11032137 0.0004018 -0.0043302 0.9995982 0.0043302 0.9995982 0.0043302 0.0004018 -0.0043302
11339791 0.0003996 -0.0041943 0.9996004 0.0041943 0.9996004 0.0041943 0.0003996 -0.0041943
11656024 0.0003975 -0.0040615 0.9996025 0.0040615 0.9996025 0.0040615 0.0003975 -0.0040615
11981075 0.0003956 -0.0039317 0.9996044 0.0039317 0.9996044 0.0039317 0.0003956 -0.0039317
12315192 0.0003937 -0.0038049 0.9996063 0.0038049 0.9996063 0.0038049 0.0003937 -0.0038049
12658625 0.0003920 -0.0036809 0.9996080 0.0036809 0.9996080 0.0036809 0.0003920 -0.0036809
13011637 0.0003905 -0.0035597 0.9996095 0.0035597 0.9996095 0.0035597 0.0003905 -0.0035597
13374492 0.0003890 -0.0034412 0.9996110 0.0034412 0.9996110 0.0034412 0.0003890 -0.0034412
13747467 0.0003877 -0.0033253 0.9996123 0.0033253 0.9996123 0.0033253 0.0003877 -0.0033253
14130843 0.0003864 -0.0032118 0.9996136 0.0032118 0.9996136 0.0032118 0.0003864 -0.0032118
14524910 0.0003853 -0.0031008 0.9996147 0.0031008 0.9996147 0.0031008 0.0003853 -0.0031008
14929966 0.0003843 -0.0029920 0.9996157 0.0029920 0.9996157 0.0029920 0.0003843 -0.0029920
15346318 0.0003834 -0.0028856 0.9996166 0.0028856 0.9996166 0.0028856 0.0003834 -0.0028856
15774281 0.0003826 -0.0027813 0.9996174 0.0027813 0.9996174 0.0027813 0.0003826 -0.0027813
16214179 0.0003818 -0.0026790 0.9996182 0.0026790 0.9996182 0.0026790 0.0003818 -0.0026790
16666344 0.0003812 -0.0025788 0.9996188 0.0025788 0.9996188 0.0025788 0.0003812 -0.0025788
17131118 0.0003807 -0.0024805 0.9996193 0.0024805 0.9996193 0.0024805 0.0003807 -0.0024805
17608854 0.0003802 -0.0023841 0.9996198 0.0023841 0.9996198 0.0023841 0.0003802 -0.0023841
18099912 0.0003799 -0.0022895 0.9996201 0.0022895 0.9996201 0.0022895 0.0003799 -0.0022895
18604665 0.0003797 -0.0021966 0.9996203 0.0021966 0.9996203 0.0021966 0.0003797 -0.0021966
19123493 0.0003795 -0.0021054 0.9996205 0.0021054 0.9996205 0.0021054 0.0003795 -0.0021054
19656790 0.0003795 -0.0020157 0.9996205 0.0020157 0.9996205 0.0020157 0.0003795 -0.0020157
20204959 0.0003795 -0.0019275 0.9996205 0.0019275 0.9996205 0.0019275 0.0003795 -0.0019275
20768415 0.0003796 -0.0018408 0.9996204 0.0018408 0.9996204 0.0018408 0.0003796 -0.0018408
21347584 0.0003798 -0.0017555 0.9996202 0.0017555 0.9996202 0.0017555 0.0003798 -0.0017555
21942904 0.0003802 -0.0016714 0.9996198 0.0016714 0.9996198 0.0016714 0.0003802 -0.0016714
22554827 0.0003806 -0.0015887 0.9996194 0.0015887 0.9996194 0.0015887 0.0003806 -0.0015887
23183813 0.0003811 -0.0015071 0.9996189 0.0015071 0.9996189 0.0015071 0.0003811 -0.0015071
23830340 0.0003818 -0.0014266 0.9996182 0.0014266 0.9996182 0.0014266 0.0003818 -0.0014266
24494897 0.0003825 -0.0013473 0.9996175 0.0013473 0.9996175 0.0013473 0.0003825 -0.0013473
25177987 0.0003834 -0.0012689 0.9996166 0.0012689 0.9996166 0.0012689 0.0003834 -0.0012689
25880126 0.0003844 -0.0011914 0.9996156 0.0011914 0.9996156 0.0011914 0.0003844 -0.0011914
26601845 0.0003855 -0.0011149 0.9996145 0.0011149 0.9996145 0.0011149 0.0003855 -0.0011149
27343691 0.0003867 -0.0010392 0.9996133 0.0010392 0.9996133 0.0010392 0.0003867 -0.0010392
28106225 0.0003881 -0.0009642 0.9996119 0.0009642 0.9996119 0.0009642 0.0003881 -0.0009642
28890023 0.0003896 -0.0008900 0.9996104 0.0008900 0.9996104 0.0008900 0.0003896 -0.0008900
29695680 0.0003912 -0.0008164 0.9996088 0.0008164 0.9996088 0.0008164 0.0003912 -0.0008164
30523804 0.0003931 -0.0007434 0.9996069 0.0007434 0.9996069 0.0007434 0.0003931 -0.0007434
31375021 0.0003951 -0.0006710 0.9996049 0.0006710 0.9996049 0.0006710 0.0003951 -0.0006710
32249977 0.0003973 -0.0005990 0.9996027 0.0005990 0.9996027 0.0005990 0.0003973 -0.0005990
33149332 0.0003997 -0.0005275 0.9996003 0.0005275 0.9996003 0.0005275 0.0003997 -0.0005275
34073768 0.0004023 -0.0004564 0.9995977 0.0004564 0.9995977 0.0004564 0.0004023 -0.0004564
35023984 0.0004051 -0.0003856 0.9995949 0.0003856 0.9995949 0.0003856 0.0004051 -0.0003856
36000698 0.0004082 -0.0003151 0.9995918 0.0003151 0.9995918 0.0003151 0.0004082 -0.0003151
37004650 0.0004115 -0.0002448 0.9995885 0.0002448 0.9995885 0.0002448 0.0004115 -0.0002448
38036599 0.0004152 -0.0001747 0.9995848 0.0001747 0.9995848 0.0001747 0.0004152 -0.0001747
39097326 0.0004191 -0.0001047 0.9995809 0.0001047 0.9995809 0.0001047 0.0004191 -0.0001047
