!Murata Part Number: GRM188Z71C225KE43
!These Parameters are Measured in Series Mode Connection
!Data Generated on Mar 30, 2021
!       o--ll--o
!Port1            Port2
!       o------o
!Operation Temp=25[degC], DC Bias Voltage=0[V]
!Freq. Start=100[Hz] Stop=6[GHz] 401[Steps]
# Hz S RI R 50
!Freq.(Hz) S11(Real) S11(Imag) S21(Real) S21(Imag) S12(Real) S12(Imag) S22(Real) S22(Imag)
100 0.9872913 -0.1088366 0.0127087 0.1088366 0.0127087 0.1088366 0.9872913 -0.1088366
105 0.9861308 -0.1136605 0.0138692 0.1136605 0.0138692 0.1136605 0.9861308 -0.1136605
109 0.9848670 -0.1186837 0.0151330 0.1186837 0.0151330 0.1186837 0.9848670 -0.1186837
114 0.9834909 -0.1239126 0.0165091 0.1239126 0.0165091 0.1239126 0.9834909 -0.1239126
120 0.9819931 -0.1293534 0.0180069 0.1293534 0.0180069 0.1293534 0.9819931 -0.1293534
125 0.9803634 -0.1350124 0.0196366 0.1350124 0.0196366 0.1350124 0.9803634 -0.1350124
131 0.9785909 -0.1408956 0.0214091 0.1408956 0.0214091 0.1408956 0.9785909 -0.1408956
137 0.9766637 -0.1470089 0.0233363 0.1470089 0.0233363 0.1470089 0.9766637 -0.1470089
143 0.9745693 -0.1533578 0.0254307 0.1533578 0.0254307 0.1533578 0.9745693 -0.1533578
150 0.9722941 -0.1599476 0.0277059 0.1599476 0.0277059 0.1599476 0.9722941 -0.1599476
156 0.9698237 -0.1667832 0.0301763 0.1667832 0.0301763 0.1667832 0.9698237 -0.1667832
164 0.9671425 -0.1738689 0.0328575 0.1738689 0.0328575 0.1738689 0.9671425 -0.1738689
171 0.9642341 -0.1812085 0.0357659 0.1812085 0.0357659 0.1812085 0.9642341 -0.1812085
179 0.9610808 -0.1888051 0.0389192 0.1888051 0.0389192 0.1888051 0.9610808 -0.1888051
187 0.9576641 -0.1966608 0.0423359 0.1966608 0.0423359 0.1966608 0.9576641 -0.1966608
196 0.9539641 -0.2047770 0.0460359 0.2047770 0.0460359 0.2047770 0.9539641 -0.2047770
205 0.9499599 -0.2131536 0.0500401 0.2131536 0.0500401 0.2131536 0.9499599 -0.2131536
214 0.9456294 -0.2217895 0.0543706 0.2217895 0.0543706 0.2217895 0.9456294 -0.2217895
224 0.9409496 -0.2306819 0.0590504 0.2306819 0.0590504 0.2306819 0.9409496 -0.2306819
234 0.9358960 -0.2398265 0.0641040 0.2398265 0.0641040 0.2398265 0.9358960 -0.2398265
245 0.9304435 -0.2492170 0.0695565 0.2492170 0.0695565 0.2492170 0.9304435 -0.2492170
256 0.9245658 -0.2588448 0.0754342 0.2588448 0.0754342 0.2588448 0.9245658 -0.2588448
268 0.9182359 -0.2686993 0.0817641 0.2686993 0.0817641 0.2686993 0.9182359 -0.2686993
280 0.9114260 -0.2787668 0.0885740 0.2787668 0.0885740 0.2787668 0.9114260 -0.2787668
293 0.9041079 -0.2890311 0.0958921 0.2890311 0.0958921 0.2890311 0.9041079 -0.2890311
306 0.8962534 -0.2994727 0.1037466 0.2994727 0.1037466 0.2994727 0.8962534 -0.2994727
320 0.8878339 -0.3100687 0.1121661 0.3100687 0.1121661 0.3100687 0.8878339 -0.3100687
335 0.8788216 -0.3207927 0.1211784 0.3207927 0.1211784 0.3207927 0.8788216 -0.3207927
350 0.8691893 -0.3316146 0.1308107 0.3316146 0.1308107 0.3316146 0.8691893 -0.3316146
366 0.8589111 -0.3425002 0.1410889 0.3425002 0.1410889 0.3425002 0.8589111 -0.3425002
383 0.8479629 -0.3534114 0.1520371 0.3534114 0.1520371 0.3534114 0.8479629 -0.3534114
401 0.8363228 -0.3643057 0.1636772 0.3643057 0.1636772 0.3643057 0.8363228 -0.3643057
419 0.8239721 -0.3751370 0.1760279 0.3751370 0.1760279 0.3751370 0.8239721 -0.3751370
438 0.8108952 -0.3858550 0.1891048 0.3858550 0.1891048 0.3858550 0.8108952 -0.3858550
458 0.7970812 -0.3964057 0.2029188 0.3964057 0.2029188 0.3964057 0.7970812 -0.3964057
479 0.7825236 -0.4067317 0.2174764 0.4067317 0.2174764 0.4067317 0.7825236 -0.4067317
501 0.7672217 -0.4167727 0.2327783 0.4167727 0.2327783 0.4167727 0.7672217 -0.4167727
524 0.7511809 -0.4264659 0.2488191 0.4264659 0.2488191 0.4264659 0.7511809 -0.4264659
548 0.7344133 -0.4357471 0.2655867 0.4357471 0.2655867 0.4357471 0.7344133 -0.4357471
573 0.7169379 -0.4445509 0.2830621 0.4445509 0.2830621 0.4445509 0.7169379 -0.4445509
600 0.6987816 -0.4528120 0.3012184 0.4528120 0.3012184 0.4528120 0.6987816 -0.4528120
627 0.6799787 -0.4604665 0.3200213 0.4604665 0.3200213 0.4604665 0.6799787 -0.4604665
656 0.6605715 -0.4674522 0.3394285 0.4674522 0.3394285 0.4674522 0.6605715 -0.4674522
686 0.6406099 -0.4737103 0.3593901 0.4737103 0.3593901 0.4737103 0.6406099 -0.4737103
717 0.6201512 -0.4791867 0.3798488 0.4791867 0.3798488 0.4791867 0.6201512 -0.4791867
750 0.5992594 -0.4838325 0.4007406 0.4838325 0.4007406 0.4838325 0.5992594 -0.4838325
784 0.5780050 -0.4876053 0.4219950 0.4876053 0.4219950 0.4876053 0.5780050 -0.4876053
820 0.5564635 -0.4904705 0.4435365 0.4904705 0.4435365 0.4904705 0.5564635 -0.4904705
858 0.5347146 -0.4924014 0.4652854 0.4924014 0.4652854 0.4924014 0.5347146 -0.4924014
897 0.5128412 -0.4933804 0.4871588 0.4933804 0.4871588 0.4933804 0.5128412 -0.4933804
938 0.4909280 -0.4933989 0.5090720 0.4933989 0.5090720 0.4933989 0.4909280 -0.4933989
981 0.4690600 -0.4924580 0.5309400 0.4924580 0.5309400 0.4924580 0.4690600 -0.4924580
1026 0.4473213 -0.4905680 0.5526787 0.4905680 0.5526787 0.4905680 0.4473213 -0.4905680
1073 0.4257940 -0.4877482 0.5742060 0.4877482 0.5742060 0.4877482 0.4257940 -0.4877482
1122 0.4045565 -0.4840266 0.5954435 0.4840266 0.5954435 0.4840266 0.4045565 -0.4840266
1174 0.3836829 -0.4794392 0.6163171 0.4794392 0.6163171 0.4794392 0.3836829 -0.4794392
1227 0.3632416 -0.4740289 0.6367584 0.4740289 0.6367584 0.4740289 0.3632416 -0.4740289
1283 0.3432949 -0.4678448 0.6567051 0.4678448 0.6567051 0.4678448 0.3432949 -0.4678448
1342 0.3238982 -0.4609410 0.6761018 0.4609410 0.6761018 0.4609410 0.3238982 -0.4609410
1404 0.3050994 -0.4533758 0.6949006 0.4533758 0.6949006 0.4533758 0.3050994 -0.4533758
1468 0.2869391 -0.4452102 0.7130609 0.4452102 0.7130609 0.4452102 0.2869391 -0.4452102
1535 0.2694503 -0.4365069 0.7305497 0.4365069 0.7305497 0.4365069 0.2694503 -0.4365069
1606 0.2526586 -0.4273295 0.7473414 0.4273295 0.7473414 0.4273295 0.2526586 -0.4273295
1679 0.2365825 -0.4177417 0.7634175 0.4177417 0.7634175 0.4177417 0.2365825 -0.4177417
1756 0.2212335 -0.4078057 0.7787665 0.4078057 0.7787665 0.4078057 0.2212335 -0.4078057
1836 0.2066171 -0.3975825 0.7933829 0.3975825 0.7933829 0.3975825 0.2066171 -0.3975825
1920 0.1927329 -0.3871305 0.8072671 0.3871305 0.8072671 0.3871305 0.1927329 -0.3871305
2008 0.1795753 -0.3765053 0.8204247 0.3765053 0.8204247 0.3765053 0.1795753 -0.3765053
2100 0.1671343 -0.3657594 0.8328657 0.3657594 0.8328657 0.3657594 0.1671343 -0.3657594
2196 0.1553956 -0.3549417 0.8446044 0.3549417 0.8446044 0.3549417 0.1553956 -0.3549417
2297 0.1443419 -0.3440976 0.8556581 0.3440976 0.8556581 0.3440976 0.1443419 -0.3440976
2402 0.1339529 -0.3332686 0.8660471 0.3332686 0.8660471 0.3332686 0.1339529 -0.3332686
2512 0.1242062 -0.3224925 0.8757938 0.3224925 0.8757938 0.3224925 0.1242062 -0.3224925
2627 0.1150774 -0.3118032 0.8849226 0.3118032 0.8849226 0.3118032 0.1150774 -0.3118032
2748 0.1065410 -0.3012312 0.8934590 0.3012312 0.8934590 0.3012312 0.1065410 -0.3012312
2873 0.0985704 -0.2908031 0.9014296 0.2908031 0.9014296 0.2908031 0.0985704 -0.2908031
3005 0.0911387 -0.2805425 0.9088613 0.2805425 0.9088613 0.2805425 0.0911387 -0.2805425
3143 0.0842187 -0.2704696 0.9157813 0.2704696 0.9157813 0.2704696 0.0842187 -0.2704696
3287 0.0777830 -0.2606016 0.9222170 0.2606016 0.9222170 0.2606016 0.0777830 -0.2606016
3437 0.0718047 -0.2509531 0.9281953 0.2509531 0.9281953 0.2509531 0.0718047 -0.2509531
3594 0.0662575 -0.2415358 0.9337425 0.2415358 0.9337425 0.2415358 0.0662575 -0.2415358
3759 0.0611154 -0.2323593 0.9388846 0.2323593 0.9388846 0.2323593 0.0611154 -0.2323593
3931 0.0563534 -0.2234309 0.9436466 0.2234309 0.9436466 0.2234309 0.0563534 -0.2234309
4111 0.0519474 -0.2147562 0.9480526 0.2147562 0.9480526 0.2147562 0.0519474 -0.2147562
4299 0.0478740 -0.2063387 0.9521260 0.2063387 0.9521260 0.2063387 0.0478740 -0.2063387
4496 0.0441110 -0.1981804 0.9558890 0.1981804 0.9558890 0.1981804 0.0441110 -0.1981804
4702 0.0406371 -0.1902822 0.9593629 0.1902822 0.9593629 0.1902822 0.0406371 -0.1902822
4918 0.0374323 -0.1826434 0.9625677 0.1826434 0.9625677 0.1826434 0.0374323 -0.1826434
5143 0.0344774 -0.1752624 0.9655226 0.1752624 0.9655226 0.1752624 0.0344774 -0.1752624
5378 0.0317543 -0.1681366 0.9682457 0.1681366 0.9682457 0.1681366 0.0317543 -0.1681366
5625 0.0292461 -0.1612627 0.9707539 0.1612627 0.9707539 0.1612627 0.0292461 -0.1612627
5882 0.0269367 -0.1546366 0.9730633 0.1546366 0.9730633 0.1546366 0.0269367 -0.1546366
6151 0.0248113 -0.1482536 0.9751887 0.1482536 0.9751887 0.1482536 0.0248113 -0.1482536
6433 0.0228557 -0.1421087 0.9771443 0.1421087 0.9771443 0.1421087 0.0228557 -0.1421087
6728 0.0210570 -0.1361963 0.9789430 0.1361963 0.9789430 0.1361963 0.0210570 -0.1361963
7036 0.0194027 -0.1305105 0.9805973 0.1305105 0.9805973 0.1305105 0.0194027 -0.1305105
7358 0.0178817 -0.1250453 0.9821183 0.1250453 0.9821183 0.1250453 0.0178817 -0.1250453
7695 0.0164834 -0.1197944 0.9835166 0.1197944 0.9835166 0.1197944 0.0164834 -0.1197944
8047 0.0151978 -0.1147514 0.9848022 0.1147514 0.9848022 0.1147514 0.0151978 -0.1147514
8416 0.0140161 -0.1099098 0.9859839 0.1099098 0.9859839 0.1099098 0.0140161 -0.1099098
8801 0.0129296 -0.1052631 0.9870704 0.1052631 0.9870704 0.1052631 0.0129296 -0.1052631
9204 0.0119308 -0.1008048 0.9880692 0.1008048 0.9880692 0.1008048 0.0119308 -0.1008048
9626 0.0110123 -0.0965283 0.9889877 0.0965283 0.9889877 0.0965283 0.0110123 -0.0965283
10066 0.0101677 -0.0924273 0.9898323 0.0924273 0.9898323 0.0924273 0.0101677 -0.0924273
10527 0.0093907 -0.0884954 0.9906093 0.0884954 0.9906093 0.0884954 0.0093907 -0.0884954
11009 0.0086758 -0.0847264 0.9913242 0.0847264 0.9913242 0.0847264 0.0086758 -0.0847264
11514 0.0080179 -0.0811140 0.9919821 0.0811140 0.9919821 0.0811140 0.0080179 -0.0811140
12041 0.0074122 -0.0776523 0.9925878 0.0776523 0.9925878 0.0776523 0.0074122 -0.0776523
12592 0.0068544 -0.0743355 0.9931456 0.0743355 0.9931456 0.0743355 0.0068544 -0.0743355
13169 0.0063406 -0.0711578 0.9936594 0.0711578 0.9936594 0.0711578 0.0063406 -0.0711578
13772 0.0058670 -0.0681137 0.9941330 0.0681137 0.9941330 0.0681137 0.0058670 -0.0681137
14402 0.0054304 -0.0651978 0.9945696 0.0651978 0.9945696 0.0651978 0.0054304 -0.0651978
15062 0.0050277 -0.0624049 0.9949723 0.0624049 0.9949723 0.0624049 0.0050277 -0.0624049
15752 0.0046563 -0.0597300 0.9953437 0.0597300 0.9953437 0.0597300 0.0046563 -0.0597300
16473 0.0043134 -0.0571682 0.9956866 0.0571682 0.9956866 0.0571682 0.0043134 -0.0571682
17227 0.0039970 -0.0547149 0.9960030 0.0547149 0.9960030 0.0547149 0.0039970 -0.0547149
18016 0.0037047 -0.0523655 0.9962953 0.0523655 0.9962953 0.0523655 0.0037047 -0.0523655
18841 0.0034348 -0.0501157 0.9965652 0.0501157 0.9965652 0.0501157 0.0034348 -0.0501157
19704 0.0031855 -0.0479614 0.9968145 0.0479614 0.9968145 0.0479614 0.0031855 -0.0479614
20606 0.0029551 -0.0458986 0.9970449 0.0458986 0.9970449 0.0458986 0.0029551 -0.0458986
21550 0.0027423 -0.0439234 0.9972577 0.0439234 0.9972577 0.0439234 0.0027423 -0.0439234
22537 0.0025456 -0.0420322 0.9974544 0.0420322 0.9974544 0.0420322 0.0025456 -0.0420322
23569 0.0023639 -0.0402215 0.9976361 0.0402215 0.9976361 0.0402215 0.0023639 -0.0402215
24648 0.0021959 -0.0384878 0.9978041 0.0384878 0.9978041 0.0384878 0.0021959 -0.0384878
25777 0.0020408 -0.0368280 0.9979592 0.0368280 0.9979592 0.0368280 0.0020408 -0.0368280
26957 0.0018974 -0.0352390 0.9981026 0.0352390 0.9981026 0.0352390 0.0018974 -0.0352390
28191 0.0017650 -0.0337178 0.9982350 0.0337178 0.9982350 0.0337178 0.0017650 -0.0337178
29482 0.0016427 -0.0322616 0.9983573 0.0322616 0.9983573 0.0322616 0.0016427 -0.0322616
30832 0.0015297 -0.0308676 0.9984703 0.0308676 0.9984703 0.0308676 0.0015297 -0.0308676
32244 0.0014254 -0.0295333 0.9985746 0.0295333 0.9985746 0.0295333 0.0014254 -0.0295333
33721 0.0013292 -0.0282562 0.9986708 0.0282562 0.9986708 0.0282562 0.0013292 -0.0282562
35265 0.0012403 -0.0270339 0.9987597 0.0270339 0.9987597 0.0270339 0.0012403 -0.0270339
36880 0.0011583 -0.0258641 0.9988417 0.0258641 0.9988417 0.0258641 0.0011583 -0.0258641
38569 0.0010826 -0.0247445 0.9989174 0.0247445 0.9989174 0.0247445 0.0010826 -0.0247445
40335 0.0010127 -0.0236732 0.9989873 0.0236732 0.9989873 0.0236732 0.0010127 -0.0236732
42182 0.0009482 -0.0226480 0.9990518 0.0226480 0.9990518 0.0226480 0.0009482 -0.0226480
44113 0.0008887 -0.0216671 0.9991113 0.0216671 0.9991113 0.0216671 0.0008887 -0.0216671
46134 0.0008338 -0.0207285 0.9991662 0.0207285 0.9991662 0.0207285 0.0008338 -0.0207285
48246 0.0007831 -0.0198305 0.9992169 0.0198305 0.9992169 0.0198305 0.0007831 -0.0198305
50455 0.0007362 -0.0189713 0.9992638 0.0189713 0.9992638 0.0189713 0.0007362 -0.0189713
52766 0.0006930 -0.0181494 0.9993070 0.0181494 0.9993070 0.0181494 0.0006930 -0.0181494
55182 0.0006529 -0.0173631 0.9993471 0.0173631 0.9993471 0.0173631 0.0006529 -0.0173631
57709 0.0006159 -0.0166109 0.9993841 0.0166109 0.9993841 0.0166109 0.0006159 -0.0166109
60352 0.0005816 -0.0158914 0.9994184 0.0158914 0.9994184 0.0158914 0.0005816 -0.0158914
63115 0.0005499 -0.0152031 0.9994501 0.0152031 0.9994501 0.0152031 0.0005499 -0.0152031
66005 0.0005204 -0.0145448 0.9994796 0.0145448 0.9994796 0.0145448 0.0005204 -0.0145448
69028 0.0004931 -0.0139150 0.9995069 0.0139150 0.9995069 0.0139150 0.0004931 -0.0139150
72189 0.0004676 -0.0133127 0.9995324 0.0133127 0.9995324 0.0133127 0.0004676 -0.0133127
75495 0.0004439 -0.0127366 0.9995561 0.0127366 0.9995561 0.0127366 0.0004439 -0.0127366
78952 0.0004218 -0.0121856 0.9995782 0.0121856 0.9995782 0.0121856 0.0004218 -0.0121856
82567 0.0004011 -0.0116586 0.9995989 0.0116586 0.9995989 0.0116586 0.0004011 -0.0116586
86348 0.0003818 -0.0111545 0.9996182 0.0111545 0.9996182 0.0111545 0.0003818 -0.0111545
90302 0.0003637 -0.0106723 0.9996363 0.0106723 0.9996363 0.0106723 0.0003637 -0.0106723
94437 0.0003467 -0.0102111 0.9996533 0.0102111 0.9996533 0.0102111 0.0003467 -0.0102111
98762 0.0003306 -0.0097699 0.9996694 0.0097699 0.9996694 0.0097699 0.0003306 -0.0097699
103284 0.0003156 -0.0093479 0.9996844 0.0093479 0.9996844 0.0093479 0.0003156 -0.0093479
108014 0.0003013 -0.0089442 0.9996987 0.0089442 0.9996987 0.0089442 0.0003013 -0.0089442
112960 0.0002878 -0.0085580 0.9997122 0.0085580 0.9997122 0.0085580 0.0002878 -0.0085580
118133 0.0002751 -0.0081886 0.9997249 0.0081886 0.9997249 0.0081886 0.0002751 -0.0081886
123542 0.0002630 -0.0078351 0.9997370 0.0078351 0.9997370 0.0078351 0.0002630 -0.0078351
129199 0.0002515 -0.0074969 0.9997485 0.0074969 0.9997485 0.0074969 0.0002515 -0.0074969
135116 0.0002405 -0.0071733 0.9997595 0.0071733 0.9997595 0.0071733 0.0002405 -0.0071733
141303 0.0002302 -0.0068637 0.9997698 0.0068637 0.9997698 0.0068637 0.0002302 -0.0068637
147774 0.0002203 -0.0065674 0.9997797 0.0065674 0.9997797 0.0065674 0.0002203 -0.0065674
154540 0.0002109 -0.0062839 0.9997891 0.0062839 0.9997891 0.0062839 0.0002109 -0.0062839
161617 0.0002019 -0.0060126 0.9997981 0.0060126 0.9997981 0.0060126 0.0002019 -0.0060126
169018 0.0001934 -0.0057529 0.9998066 0.0057529 0.9998066 0.0057529 0.0001934 -0.0057529
176758 0.0001853 -0.0055043 0.9998147 0.0055043 0.9998147 0.0055043 0.0001853 -0.0055043
184852 0.0001776 -0.0052664 0.9998224 0.0052664 0.9998224 0.0052664 0.0001776 -0.0052664
193316 0.0001702 -0.0050388 0.9998298 0.0050388 0.9998298 0.0050388 0.0001702 -0.0050388
202169 0.0001633 -0.0048208 0.9998367 0.0048208 0.9998367 0.0048208 0.0001633 -0.0048208
211427 0.0001566 -0.0046122 0.9998434 0.0046122 0.9998434 0.0046122 0.0001566 -0.0046122
221108 0.0001503 -0.0044125 0.9998497 0.0044125 0.9998497 0.0044125 0.0001503 -0.0044125
231233 0.0001444 -0.0042213 0.9998556 0.0042213 0.9998556 0.0042213 0.0001444 -0.0042213
241822 0.0001387 -0.0040383 0.9998613 0.0040383 0.9998613 0.0040383 0.0001387 -0.0040383
252896 0.0001334 -0.0038631 0.9998666 0.0038631 0.9998666 0.0038631 0.0001334 -0.0038631
264476 0.0001283 -0.0036954 0.9998717 0.0036954 0.9998717 0.0036954 0.0001283 -0.0036954
276587 0.0001235 -0.0035349 0.9998765 0.0035349 0.9998765 0.0035349 0.0001235 -0.0035349
289253 0.0001190 -0.0033812 0.9998810 0.0033812 0.9998810 0.0033812 0.0001190 -0.0033812
302498 0.0001147 -0.0032341 0.9998853 0.0032341 0.9998853 0.0032341 0.0001147 -0.0032341
316350 0.0001107 -0.0030932 0.9998893 0.0030932 0.9998893 0.0030932 0.0001107 -0.0030932
330837 0.0001069 -0.0029584 0.9998931 0.0029584 0.9998931 0.0029584 0.0001069 -0.0029584
345986 0.0001033 -0.0028293 0.9998967 0.0028293 0.9998967 0.0028293 0.0001033 -0.0028293
361830 0.0000999 -0.0027057 0.9999001 0.0027057 0.9999001 0.0027057 0.0000999 -0.0027057
378399 0.0000967 -0.0025874 0.9999033 0.0025874 0.9999033 0.0025874 0.0000967 -0.0025874
395726 0.0000936 -0.0024741 0.9999064 0.0024741 0.9999064 0.0024741 0.0000936 -0.0024741
413847 0.0000908 -0.0023657 0.9999092 0.0023657 0.9999092 0.0023657 0.0000908 -0.0023657
432798 0.0000881 -0.0022618 0.9999119 0.0022618 0.9999119 0.0022618 0.0000881 -0.0022618
452617 0.0000856 -0.0021623 0.9999144 0.0021623 0.9999144 0.0021623 0.0000856 -0.0021623
473344 0.0000832 -0.0020671 0.9999168 0.0020671 0.9999168 0.0020671 0.0000832 -0.0020671
495019 0.0000810 -0.0019759 0.9999190 0.0019759 0.9999190 0.0019759 0.0000810 -0.0019759
517687 0.0000789 -0.0018886 0.9999211 0.0018886 0.9999211 0.0018886 0.0000789 -0.0018886
541393 0.0000769 -0.0018049 0.9999231 0.0018049 0.9999231 0.0018049 0.0000769 -0.0018049
566185 0.0000750 -0.0017248 0.9999250 0.0017248 0.9999250 0.0017248 0.0000750 -0.0017248
592111 0.0000732 -0.0016480 0.9999268 0.0016480 0.9999268 0.0016480 0.0000732 -0.0016480
619225 0.0000716 -0.0015745 0.9999284 0.0015745 0.9999284 0.0015745 0.0000716 -0.0015745
647581 0.0000700 -0.0015041 0.9999300 0.0015041 0.9999300 0.0015041 0.0000700 -0.0015041
677235 0.0000686 -0.0014365 0.9999314 0.0014365 0.9999314 0.0014365 0.0000686 -0.0014365
708247 0.0000672 -0.0013719 0.9999328 0.0013719 0.9999328 0.0013719 0.0000672 -0.0013719
740679 0.0000660 -0.0013098 0.9999340 0.0013098 0.9999340 0.0013098 0.0000660 -0.0013098
774597 0.0000648 -0.0012504 0.9999352 0.0012504 0.9999352 0.0012504 0.0000648 -0.0012504
810067 0.0000637 -0.0011934 0.9999363 0.0011934 0.9999363 0.0011934 0.0000637 -0.0011934
847162 0.0000626 -0.0011388 0.9999374 0.0011388 0.9999374 0.0011388 0.0000626 -0.0011388
885955 0.0000617 -0.0010863 0.9999383 0.0010863 0.9999383 0.0010863 0.0000617 -0.0010863
926525 0.0000608 -0.0010361 0.9999392 0.0010361 0.9999392 0.0010361 0.0000608 -0.0010361
968953 0.0000600 -0.0009878 0.9999400 0.0009878 0.9999400 0.0009878 0.0000600 -0.0009878
1013323 0.0000592 -0.0009415 0.9999408 0.0009415 0.9999408 0.0009415 0.0000592 -0.0009415
1059725 0.0000585 -0.0008971 0.9999415 0.0008971 0.9999415 0.0008971 0.0000585 -0.0008971
1108252 0.0000579 -0.0008544 0.9999421 0.0008544 0.9999421 0.0008544 0.0000579 -0.0008544
1159002 0.0000573 -0.0008134 0.9999427 0.0008134 0.9999427 0.0008134 0.0000573 -0.0008134
1212075 0.0000568 -0.0007740 0.9999432 0.0007740 0.9999432 0.0007740 0.0000568 -0.0007740
1267578 0.0000563 -0.0007361 0.9999437 0.0007361 0.9999437 0.0007361 0.0000563 -0.0007361
1325623 0.0000559 -0.0006997 0.9999441 0.0006997 0.9999441 0.0006997 0.0000559 -0.0006997
1386327 0.0000555 -0.0006647 0.9999445 0.0006647 0.9999445 0.0006647 0.0000555 -0.0006647
1449809 0.0000552 -0.0006310 0.9999448 0.0006310 0.9999448 0.0006310 0.0000552 -0.0006310
1516199 0.0000549 -0.0005985 0.9999451 0.0005985 0.9999451 0.0005985 0.0000549 -0.0005985
1585629 0.0000546 -0.0005673 0.9999454 0.0005673 0.9999454 0.0005673 0.0000546 -0.0005673
1658239 0.0000544 -0.0005371 0.9999456 0.0005371 0.9999456 0.0005371 0.0000544 -0.0005371
1734173 0.0000543 -0.0005080 0.9999457 0.0005080 0.9999457 0.0005080 0.0000543 -0.0005080
1813585 0.0000542 -0.0004800 0.9999458 0.0004800 0.9999458 0.0004800 0.0000542 -0.0004800
1896632 0.0000541 -0.0004529 0.9999459 0.0004529 0.9999459 0.0004529 0.0000541 -0.0004529
1983483 0.0000541 -0.0004266 0.9999459 0.0004266 0.9999459 0.0004266 0.0000541 -0.0004266
2074311 0.0000541 -0.0004013 0.9999459 0.0004013 0.9999459 0.0004013 0.0000541 -0.0004013
