!Murata Part Number: GRM188C70G225ME20
!These Parameters are Measured in Series Mode Connection
!Data Generated on Mar 30, 2021
!       o--ll--o
!Port1            Port2
!       o------o
!Operation Temp=25[degC], DC Bias Voltage=0[V]
!Freq. Start=100[Hz] Stop=6[GHz] 401[Steps]
# Hz S RI R 50
!Freq.(Hz) S11(Real) S11(Imag) S21(Real) S21(Imag) S12(Real) S12(Imag) S22(Real) S22(Imag)
100 0.9885324 -0.0937762 0.0114676 0.0937762 0.0114676 0.0937762 0.9885324 -0.0937762
105 0.9876140 -0.0978967 0.0123860 0.0978967 0.0123860 0.0978967 0.9876140 -0.0978967
109 0.9866183 -0.1021888 0.0133817 0.1021888 0.0133817 0.1021888 0.9866183 -0.1021888
114 0.9855390 -0.1066585 0.0144610 0.1066585 0.0144610 0.1066585 0.9855390 -0.1066585
120 0.9843691 -0.1113118 0.0156309 0.1113118 0.0156309 0.1113118 0.9843691 -0.1113118
125 0.9831013 -0.1161550 0.0168987 0.1161550 0.0168987 0.1161550 0.9831013 -0.1161550
131 0.9817277 -0.1211942 0.0182723 0.1211942 0.0182723 0.1211942 0.9817277 -0.1211942
137 0.9802397 -0.1264357 0.0197603 0.1264357 0.0197603 0.1264357 0.9802397 -0.1264357
143 0.9786279 -0.1318857 0.0213721 0.1318857 0.0213721 0.1318857 0.9786279 -0.1318857
150 0.9768823 -0.1375503 0.0231177 0.1375503 0.0231177 0.1375503 0.9768823 -0.1375503
156 0.9749921 -0.1434356 0.0250079 0.1434356 0.0250079 0.1434356 0.9749921 -0.1434356
164 0.9729455 -0.1495475 0.0270545 0.1495475 0.0270545 0.1495475 0.9729455 -0.1495475
171 0.9707301 -0.1558914 0.0292699 0.1558914 0.0292699 0.1558914 0.9707301 -0.1558914
179 0.9683321 -0.1624729 0.0316679 0.1624729 0.0316679 0.1624729 0.9683321 -0.1624729
187 0.9657370 -0.1692967 0.0342630 0.1692967 0.0342630 0.1692967 0.9657370 -0.1692967
196 0.9629292 -0.1763672 0.0370708 0.1763672 0.0370708 0.1763672 0.9629292 -0.1763672
205 0.9598919 -0.1836881 0.0401081 0.1836881 0.0401081 0.1836881 0.9598919 -0.1836881
214 0.9566072 -0.1912623 0.0433928 0.1912623 0.0433928 0.1912623 0.9566072 -0.1912623
224 0.9530562 -0.1990917 0.0469438 0.1990917 0.0469438 0.1990917 0.9530562 -0.1990917
234 0.9492186 -0.2071774 0.0507814 0.2071774 0.0507814 0.2071774 0.9492186 -0.2071774
245 0.9450730 -0.2155189 0.0549270 0.2155189 0.0549270 0.2155189 0.9450730 -0.2155189
256 0.9405970 -0.2241143 0.0594030 0.2241143 0.0594030 0.2241143 0.9405970 -0.2241143
268 0.9357670 -0.2329603 0.0642330 0.2329603 0.0642330 0.2329603 0.9357670 -0.2329603
280 0.9305584 -0.2420514 0.0694416 0.2420514 0.0694416 0.2420514 0.9305584 -0.2420514
293 0.9249456 -0.2513801 0.0750544 0.2513801 0.0750544 0.2513801 0.9249456 -0.2513801
306 0.9189023 -0.2609368 0.0810977 0.2609368 0.0810977 0.2609368 0.9189023 -0.2609368
320 0.9124016 -0.2707091 0.0875984 0.2707091 0.0875984 0.2707091 0.9124016 -0.2707091
335 0.9054160 -0.2806819 0.0945840 0.2806819 0.0945840 0.2806819 0.9054160 -0.2806819
350 0.8979179 -0.2908371 0.1020821 0.2908371 0.1020821 0.2908371 0.8979179 -0.2908371
366 0.8898797 -0.3011534 0.1101203 0.3011534 0.1101203 0.3011534 0.8898797 -0.3011534
383 0.8812744 -0.3116062 0.1187256 0.3116062 0.1187256 0.3116062 0.8812744 -0.3116062
401 0.8720756 -0.3221672 0.1279244 0.3221672 0.1279244 0.3221672 0.8720756 -0.3221672
419 0.8622582 -0.3328044 0.1377418 0.3328044 0.1377418 0.3328044 0.8622582 -0.3328044
438 0.8517987 -0.3434822 0.1482013 0.3434822 0.1482013 0.3434822 0.8517987 -0.3434822
458 0.8406758 -0.3541612 0.1593242 0.3541612 0.1593242 0.3541612 0.8406758 -0.3541612
479 0.8288709 -0.3647981 0.1711291 0.3647981 0.1711291 0.3647981 0.8288709 -0.3647981
501 0.8163688 -0.3753461 0.1836312 0.3753461 0.1836312 0.3753461 0.8163688 -0.3753461
524 0.8031578 -0.3857550 0.1968422 0.3857550 0.1968422 0.3857550 0.8031578 -0.3857550
548 0.7892310 -0.3959714 0.2107690 0.3959714 0.2107690 0.3959714 0.7892310 -0.3959714
573 0.7745862 -0.4059393 0.2254138 0.4059393 0.2254138 0.4059393 0.7745862 -0.4059393
600 0.7592268 -0.4156006 0.2407732 0.4156006 0.2407732 0.4156006 0.7592268 -0.4156006
627 0.7431622 -0.4248953 0.2568378 0.4248953 0.2568378 0.4248953 0.7431622 -0.4248953
656 0.7264081 -0.4337627 0.2735919 0.4337627 0.2735919 0.4337627 0.7264081 -0.4337627
686 0.7089869 -0.4421420 0.2910131 0.4421420 0.2910131 0.4421420 0.7089869 -0.4421420
717 0.6909279 -0.4499729 0.3090721 0.4499729 0.3090721 0.4499729 0.6909279 -0.4499729
750 0.6722673 -0.4571970 0.3277327 0.4571970 0.3277327 0.4571970 0.6722673 -0.4571970
784 0.6530481 -0.4637583 0.3469519 0.4637583 0.3469519 0.4637583 0.6530481 -0.4637583
820 0.6333201 -0.4696044 0.3666799 0.4696044 0.3666799 0.4696044 0.6333201 -0.4696044
858 0.6131393 -0.4746873 0.3868607 0.4746873 0.3868607 0.4746873 0.6131393 -0.4746873
897 0.5925674 -0.4789645 0.4074326 0.4789645 0.4074326 0.4789645 0.5925674 -0.4789645
938 0.5716713 -0.4823994 0.4283287 0.4823994 0.4283287 0.4823994 0.5716713 -0.4823994
981 0.5505219 -0.4849624 0.4494781 0.4849624 0.4494781 0.4849624 0.5505219 -0.4849624
1026 0.5291938 -0.4866313 0.4708062 0.4866313 0.4708062 0.4866313 0.5291938 -0.4866313
1073 0.5077638 -0.4873917 0.4922362 0.4873917 0.4922362 0.4873917 0.5077638 -0.4873917
1122 0.4863100 -0.4872373 0.5136900 0.4872373 0.5136900 0.4872373 0.4863100 -0.4872373
1174 0.4649107 -0.4861701 0.5350893 0.4861701 0.5350893 0.4861701 0.4649107 -0.4861701
1227 0.4436435 -0.4842004 0.5563565 0.4842004 0.5563565 0.4842004 0.4436435 -0.4842004
1283 0.4225839 -0.4813460 0.5774161 0.4813460 0.5774161 0.4813460 0.4225839 -0.4813460
1342 0.4018044 -0.4776328 0.5981956 0.4776328 0.5981956 0.4776328 0.4018044 -0.4776328
1404 0.3813739 -0.4730932 0.6186261 0.4730932 0.6186261 0.4730932 0.3813739 -0.4730932
1468 0.3613565 -0.4677664 0.6386435 0.4677664 0.6386435 0.4677664 0.3613565 -0.4677664
1535 0.3418110 -0.4616970 0.6581890 0.4616970 0.6581890 0.4616970 0.3418110 -0.4616970
1606 0.3227901 -0.4549344 0.6772099 0.4549344 0.6772099 0.4549344 0.3227901 -0.4549344
1679 0.3043404 -0.4475320 0.6956596 0.4475320 0.6956596 0.4475320 0.3043404 -0.4475320
1756 0.2865017 -0.4395461 0.7134983 0.4395461 0.7134983 0.4395461 0.2865017 -0.4395461
1836 0.2693073 -0.4310350 0.7306927 0.4310350 0.7306927 0.4310350 0.2693073 -0.4310350
1920 0.2527835 -0.4220586 0.7472165 0.4220586 0.7472165 0.4220586 0.2527835 -0.4220586
2008 0.2369502 -0.4126768 0.7630498 0.4126768 0.7630498 0.4126768 0.2369502 -0.4126768
2100 0.2218207 -0.4029492 0.7781793 0.4029492 0.7781793 0.4029492 0.2218207 -0.4029492
2196 0.2074023 -0.3929342 0.7925977 0.3929342 0.7925977 0.3929342 0.2074023 -0.3929342
2297 0.1936969 -0.3826887 0.8063031 0.3826887 0.8063031 0.3826887 0.1936969 -0.3826887
2402 0.1807010 -0.3722670 0.8192990 0.3722670 0.8192990 0.3722670 0.1807010 -0.3722670
2512 0.1684063 -0.3617208 0.8315937 0.3617208 0.8315937 0.3617208 0.1684063 -0.3617208
2627 0.1568007 -0.3510987 0.8431993 0.3510987 0.8431993 0.3510987 0.1568007 -0.3510987
2748 0.1458682 -0.3404460 0.8541318 0.3404460 0.8541318 0.3404460 0.1458682 -0.3404460
2873 0.1355900 -0.3298043 0.8644100 0.3298043 0.8644100 0.3298043 0.1355900 -0.3298043
3005 0.1259446 -0.3192118 0.8740554 0.3192118 0.8740554 0.3192118 0.1259446 -0.3192118
3143 0.1169086 -0.3087029 0.8830914 0.3087029 0.8830914 0.3087029 0.1169086 -0.3087029
3287 0.1084569 -0.2983083 0.8915431 0.2983083 0.8915431 0.2983083 0.1084569 -0.2983083
3437 0.1005634 -0.2880553 0.8994366 0.2880553 0.8994366 0.2880553 0.1005634 -0.2880553
3594 0.0932013 -0.2779677 0.9067987 0.2779677 0.9067987 0.2779677 0.0932013 -0.2779677
3759 0.0863434 -0.2680659 0.9136566 0.2680659 0.9136566 0.2680659 0.0863434 -0.2680659
3931 0.0799625 -0.2583675 0.9200375 0.2583675 0.9200375 0.2583675 0.0799625 -0.2583675
4111 0.0740313 -0.2488867 0.9259687 0.2488867 0.9259687 0.2488867 0.0740313 -0.2488867
4299 0.0685234 -0.2396356 0.9314766 0.2396356 0.9314766 0.2396356 0.0685234 -0.2396356
4496 0.0634127 -0.2306235 0.9365873 0.2306235 0.9365873 0.2306235 0.0634127 -0.2306235
4702 0.0586741 -0.2218574 0.9413259 0.2218574 0.9413259 0.2218574 0.0586741 -0.2218574
4918 0.0542831 -0.2133424 0.9457169 0.2133424 0.9457169 0.2133424 0.0542831 -0.2133424
5143 0.0502165 -0.2050816 0.9497835 0.2050816 0.9497835 0.2050816 0.0502165 -0.2050816
5378 0.0464520 -0.1970768 0.9535480 0.1970768 0.9535480 0.1970768 0.0464520 -0.1970768
5625 0.0429686 -0.1893281 0.9570314 0.1893281 0.9570314 0.1893281 0.0429686 -0.1893281
5882 0.0397461 -0.1818343 0.9602539 0.1818343 0.9602539 0.1818343 0.0397461 -0.1818343
6151 0.0367657 -0.1745933 0.9632343 0.1745933 0.9632343 0.1745933 0.0367657 -0.1745933
6433 0.0340097 -0.1676020 0.9659903 0.1676020 0.9659903 0.1676020 0.0340097 -0.1676020
6728 0.0314615 -0.1608565 0.9685385 0.1608565 0.9685385 0.1608565 0.0314615 -0.1608565
7036 0.0291057 -0.1543522 0.9708943 0.1543522 0.9708943 0.1543522 0.0291057 -0.1543522
7358 0.0269277 -0.1480840 0.9730723 0.1480840 0.9730723 0.1480840 0.0269277 -0.1480840
7695 0.0249142 -0.1420465 0.9750858 0.1420465 0.9750858 0.1420465 0.0249142 -0.1420465
8047 0.0230528 -0.1362338 0.9769472 0.1362338 0.9769472 0.1362338 0.0230528 -0.1362338
8416 0.0213318 -0.1306398 0.9786682 0.1306398 0.9786682 0.1306398 0.0213318 -0.1306398
8801 0.0197407 -0.1252583 0.9802593 0.1252583 0.9802593 0.1252583 0.0197407 -0.1252583
9204 0.0182696 -0.1200831 0.9817304 0.1200831 0.9817304 0.1200831 0.0182696 -0.1200831
9626 0.0169095 -0.1151076 0.9830905 0.1151076 0.9830905 0.1151076 0.0169095 -0.1151076
10066 0.0156520 -0.1103255 0.9843480 0.1103255 0.9843480 0.1103255 0.0156520 -0.1103255
10527 0.0144894 -0.1057304 0.9855106 0.1057304 0.9855106 0.1057304 0.0144894 -0.1057304
11009 0.0134146 -0.1013162 0.9865854 0.1013162 0.9865854 0.1013162 0.0134146 -0.1013162
11514 0.0124210 -0.0970765 0.9875790 0.0970765 0.9875790 0.0970765 0.0124210 -0.0970765
12041 0.0115026 -0.0930054 0.9884974 0.0930054 0.9884974 0.0930054 0.0115026 -0.0930054
12592 0.0106538 -0.0890970 0.9893462 0.0890970 0.9893462 0.0890970 0.0106538 -0.0890970
13169 0.0098695 -0.0853454 0.9901305 0.0853454 0.9901305 0.0853454 0.0098695 -0.0853454
13772 0.0091449 -0.0817450 0.9908551 0.0817450 0.9908551 0.0817450 0.0091449 -0.0817450
14402 0.0084756 -0.0782904 0.9915244 0.0782904 0.9915244 0.0782904 0.0084756 -0.0782904
15062 0.0078575 -0.0749762 0.9921425 0.0749762 0.9921425 0.0749762 0.0078575 -0.0749762
15752 0.0072868 -0.0717973 0.9927132 0.0717973 0.9927132 0.0717973 0.0072868 -0.0717973
16473 0.0067599 -0.0687486 0.9932401 0.0687486 0.9932401 0.0687486 0.0067599 -0.0687486
17227 0.0062738 -0.0658253 0.9937262 0.0658253 0.9937262 0.0658253 0.0062738 -0.0658253
18016 0.0058252 -0.0630228 0.9941748 0.0630228 0.9941748 0.0630228 0.0058252 -0.0630228
18841 0.0054113 -0.0603363 0.9945887 0.0603363 0.9945887 0.0603363 0.0054113 -0.0603363
19704 0.0050296 -0.0577616 0.9949704 0.0577616 0.9949704 0.0577616 0.0050296 -0.0577616
20606 0.0046776 -0.0552943 0.9953224 0.0552943 0.9953224 0.0552943 0.0046776 -0.0552943
21550 0.0043530 -0.0529303 0.9956470 0.0529303 0.9956470 0.0529303 0.0043530 -0.0529303
22537 0.0040537 -0.0506656 0.9959463 0.0506656 0.9959463 0.0506656 0.0040537 -0.0506656
23569 0.0037777 -0.0484963 0.9962223 0.0484963 0.9962223 0.0484963 0.0037777 -0.0484963
24648 0.0035233 -0.0464187 0.9964767 0.0464187 0.9964767 0.0464187 0.0035233 -0.0464187
25777 0.0032885 -0.0444291 0.9967115 0.0444291 0.9967115 0.0444291 0.0032885 -0.0444291
26957 0.0030720 -0.0425240 0.9969280 0.0425240 0.9969280 0.0425240 0.0030720 -0.0425240
28191 0.0028722 -0.0407001 0.9971278 0.0407001 0.9971278 0.0407001 0.0028722 -0.0407001
29482 0.0026878 -0.0389540 0.9973122 0.0389540 0.9973122 0.0389540 0.0026878 -0.0389540
30832 0.0025175 -0.0372825 0.9974825 0.0372825 0.9974825 0.0372825 0.0025175 -0.0372825
32244 0.0023601 -0.0356827 0.9976399 0.0356827 0.9976399 0.0356827 0.0023601 -0.0356827
33721 0.0022146 -0.0341516 0.9977854 0.0341516 0.9977854 0.0341516 0.0022146 -0.0341516
35265 0.0020799 -0.0326862 0.9979201 0.0326862 0.9979201 0.0326862 0.0020799 -0.0326862
36880 0.0019551 -0.0312839 0.9980449 0.0312839 0.9980449 0.0312839 0.0019551 -0.0312839
38569 0.0018395 -0.0299420 0.9981605 0.0299420 0.9981605 0.0299420 0.0018395 -0.0299420
40335 0.0017321 -0.0286580 0.9982679 0.0286580 0.9982679 0.0286580 0.0017321 -0.0286580
42182 0.0016323 -0.0274293 0.9983677 0.0274293 0.9983677 0.0274293 0.0016323 -0.0274293
44113 0.0015394 -0.0262536 0.9984606 0.0262536 0.9984606 0.0262536 0.0015394 -0.0262536
46134 0.0014529 -0.0251287 0.9985471 0.0251287 0.9985471 0.0251287 0.0014529 -0.0251287
48246 0.0013722 -0.0240523 0.9986278 0.0240523 0.9986278 0.0240523 0.0013722 -0.0240523
50455 0.0012968 -0.0230223 0.9987032 0.0230223 0.9987032 0.0230223 0.0012968 -0.0230223
52766 0.0012262 -0.0220368 0.9987738 0.0220368 0.9987738 0.0220368 0.0012262 -0.0220368
55182 0.0011601 -0.0210936 0.9988399 0.0210936 0.9988399 0.0210936 0.0011601 -0.0210936
57709 0.0010981 -0.0201911 0.9989019 0.0201911 0.9989019 0.0201911 0.0010981 -0.0201911
60352 0.0010398 -0.0193273 0.9989602 0.0193273 0.9989602 0.0193273 0.0010398 -0.0193273
63115 0.0009850 -0.0185007 0.9990150 0.0185007 0.9990150 0.0185007 0.0009850 -0.0185007
66005 0.0009334 -0.0177095 0.9990666 0.0177095 0.9990666 0.0177095 0.0009334 -0.0177095
69028 0.0008848 -0.0169522 0.9991152 0.0169522 0.9991152 0.0169522 0.0008848 -0.0169522
72189 0.0008390 -0.0162272 0.9991610 0.0162272 0.9991610 0.0162272 0.0008390 -0.0162272
75495 0.0007958 -0.0155333 0.9992042 0.0155333 0.9992042 0.0155333 0.0007958 -0.0155333
78952 0.0007550 -0.0148689 0.9992450 0.0148689 0.9992450 0.0148689 0.0007550 -0.0148689
82567 0.0007165 -0.0142329 0.9992835 0.0142329 0.9992835 0.0142329 0.0007165 -0.0142329
86348 0.0006802 -0.0136239 0.9993198 0.0136239 0.9993198 0.0136239 0.0006802 -0.0136239
90302 0.0006459 -0.0130409 0.9993541 0.0130409 0.9993541 0.0130409 0.0006459 -0.0130409
94437 0.0006135 -0.0124826 0.9993865 0.0124826 0.9993865 0.0124826 0.0006135 -0.0124826
98762 0.0005829 -0.0119480 0.9994171 0.0119480 0.9994171 0.0119480 0.0005829 -0.0119480
103284 0.0005542 -0.0114362 0.9994458 0.0114362 0.9994458 0.0114362 0.0005542 -0.0114362
108014 0.0005270 -0.0109460 0.9994730 0.0109460 0.9994730 0.0109460 0.0005270 -0.0109460
112960 0.0005015 -0.0104767 0.9994985 0.0104767 0.9994985 0.0104767 0.0005015 -0.0104767
118133 0.0004774 -0.0100273 0.9995226 0.0100273 0.9995226 0.0100273 0.0004774 -0.0100273
123542 0.0004548 -0.0095969 0.9995452 0.0095969 0.9995452 0.0095969 0.0004548 -0.0095969
129199 0.0004335 -0.0091849 0.9995665 0.0091849 0.9995665 0.0091849 0.0004335 -0.0091849
135116 0.0004136 -0.0087904 0.9995864 0.0087904 0.9995864 0.0087904 0.0004136 -0.0087904
141303 0.0003948 -0.0084127 0.9996052 0.0084127 0.9996052 0.0084127 0.0003948 -0.0084127
147774 0.0003773 -0.0080511 0.9996227 0.0080511 0.9996227 0.0080511 0.0003773 -0.0080511
154540 0.0003608 -0.0077049 0.9996392 0.0077049 0.9996392 0.0077049 0.0003608 -0.0077049
161617 0.0003453 -0.0073734 0.9996547 0.0073734 0.9996547 0.0073734 0.0003453 -0.0073734
169018 0.0003308 -0.0070562 0.9996692 0.0070562 0.9996692 0.0070562 0.0003308 -0.0070562
176758 0.0003172 -0.0067526 0.9996828 0.0067526 0.9996828 0.0067526 0.0003172 -0.0067526
184852 0.0003045 -0.0064619 0.9996955 0.0064619 0.9996955 0.0064619 0.0003045 -0.0064619
193316 0.0002926 -0.0061837 0.9997074 0.0061837 0.9997074 0.0061837 0.0002926 -0.0061837
202169 0.0002813 -0.0059175 0.9997187 0.0059175 0.9997187 0.0059175 0.0002813 -0.0059175
211427 0.0002708 -0.0056628 0.9997292 0.0056628 0.9997292 0.0056628 0.0002708 -0.0056628
221108 0.0002609 -0.0054190 0.9997391 0.0054190 0.9997391 0.0054190 0.0002609 -0.0054190
231233 0.0002516 -0.0051857 0.9997484 0.0051857 0.9997484 0.0051857 0.0002516 -0.0051857
241822 0.0002428 -0.0049625 0.9997572 0.0049625 0.9997572 0.0049625 0.0002428 -0.0049625
252896 0.0002345 -0.0047489 0.9997655 0.0047489 0.9997655 0.0047489 0.0002345 -0.0047489
264476 0.0002267 -0.0045445 0.9997733 0.0045445 0.9997733 0.0045445 0.0002267 -0.0045445
276587 0.0002192 -0.0043489 0.9997808 0.0043489 0.9997808 0.0043489 0.0002192 -0.0043489
289253 0.0002122 -0.0041618 0.9997878 0.0041618 0.9997878 0.0041618 0.0002122 -0.0041618
302498 0.0002054 -0.0039828 0.9997946 0.0039828 0.9997946 0.0039828 0.0002054 -0.0039828
316350 0.0001990 -0.0038115 0.9998010 0.0038115 0.9998010 0.0038115 0.0001990 -0.0038115
330837 0.0001929 -0.0036476 0.9998071 0.0036476 0.9998071 0.0036476 0.0001929 -0.0036476
345986 0.0001870 -0.0034907 0.9998130 0.0034907 0.9998130 0.0034907 0.0001870 -0.0034907
361830 0.0001813 -0.0033406 0.9998187 0.0033406 0.9998187 0.0033406 0.0001813 -0.0033406
378399 0.0001758 -0.0031969 0.9998242 0.0031969 0.9998242 0.0031969 0.0001758 -0.0031969
395726 0.0001705 -0.0030594 0.9998295 0.0030594 0.9998295 0.0030594 0.0001705 -0.0030594
413847 0.0001654 -0.0029277 0.9998346 0.0029277 0.9998346 0.0029277 0.0001654 -0.0029277
432798 0.0001605 -0.0028017 0.9998395 0.0028017 0.9998395 0.0028017 0.0001605 -0.0028017
452617 0.0001557 -0.0026810 0.9998443 0.0026810 0.9998443 0.0026810 0.0001557 -0.0026810
473344 0.0001511 -0.0025654 0.9998489 0.0025654 0.9998489 0.0025654 0.0001511 -0.0025654
495019 0.0001465 -0.0024547 0.9998535 0.0024547 0.9998535 0.0024547 0.0001465 -0.0024547
517687 0.0001422 -0.0023487 0.9998578 0.0023487 0.9998578 0.0023487 0.0001422 -0.0023487
541393 0.0001379 -0.0022471 0.9998621 0.0022471 0.9998621 0.0022471 0.0001379 -0.0022471
566185 0.0001338 -0.0021498 0.9998662 0.0021498 0.9998662 0.0021498 0.0001338 -0.0021498
592111 0.0001298 -0.0020565 0.9998702 0.0020565 0.9998702 0.0020565 0.0001298 -0.0020565
619225 0.0001259 -0.0019671 0.9998741 0.0019671 0.9998741 0.0019671 0.0001259 -0.0019671
647581 0.0001221 -0.0018814 0.9998779 0.0018814 0.9998779 0.0018814 0.0001221 -0.0018814
677235 0.0001185 -0.0017992 0.9998815 0.0017992 0.9998815 0.0017992 0.0001185 -0.0017992
708247 0.0001150 -0.0017203 0.9998850 0.0017203 0.9998850 0.0017203 0.0001150 -0.0017203
740679 0.0001116 -0.0016447 0.9998884 0.0016447 0.9998884 0.0016447 0.0001116 -0.0016447
774597 0.0001084 -0.0015722 0.9998916 0.0015722 0.9998916 0.0015722 0.0001084 -0.0015722
810067 0.0001053 -0.0015026 0.9998947 0.0015026 0.9998947 0.0015026 0.0001053 -0.0015026
847162 0.0001023 -0.0014357 0.9998977 0.0014357 0.9998977 0.0014357 0.0001023 -0.0014357
885955 0.0000995 -0.0013716 0.9999005 0.0013716 0.9999005 0.0013716 0.0000995 -0.0013716
926525 0.0000968 -0.0013101 0.9999032 0.0013101 0.9999032 0.0013101 0.0000968 -0.0013101
968953 0.0000943 -0.0012510 0.9999057 0.0012510 0.9999057 0.0012510 0.0000943 -0.0012510
1013323 0.0000919 -0.0011942 0.9999081 0.0011942 0.9999081 0.0011942 0.0000919 -0.0011942
1059725 0.0000896 -0.0011397 0.9999104 0.0011397 0.9999104 0.0011397 0.0000896 -0.0011397
1108252 0.0000875 -0.0010873 0.9999125 0.0010873 0.9999125 0.0010873 0.0000875 -0.0010873
1159002 0.0000855 -0.0010370 0.9999145 0.0010370 0.9999145 0.0010370 0.0000855 -0.0010370
1212075 0.0000836 -0.0009886 0.9999164 0.0009886 0.9999164 0.0009886 0.0000836 -0.0009886
1267578 0.0000819 -0.0009421 0.9999181 0.0009421 0.9999181 0.0009421 0.0000819 -0.0009421
1325623 0.0000802 -0.0008974 0.9999198 0.0008974 0.9999198 0.0008974 0.0000802 -0.0008974
1386327 0.0000787 -0.0008544 0.9999213 0.0008544 0.9999213 0.0008544 0.0000787 -0.0008544
1449809 0.0000774 -0.0008130 0.9999226 0.0008130 0.9999226 0.0008130 0.0000774 -0.0008130
1516199 0.0000761 -0.0007732 0.9999239 0.0007732 0.9999239 0.0007732 0.0000761 -0.0007732
1585629 0.0000749 -0.0007348 0.9999251 0.0007348 0.9999251 0.0007348 0.0000749 -0.0007348
1658239 0.0000738 -0.0006979 0.9999262 0.0006979 0.9999262 0.0006979 0.0000738 -0.0006979
1734173 0.0000729 -0.0006623 0.9999271 0.0006623 0.9999271 0.0006623 0.0000729 -0.0006623
1813585 0.0000720 -0.0006280 0.9999280 0.0006280 0.9999280 0.0006280 0.0000720 -0.0006280
1896632 0.0000712 -0.0005949 0.9999288 0.0005949 0.9999288 0.0005949 0.0000712 -0.0005949
1983483 0.0000706 -0.0005629 0.9999294 0.0005629 0.9999294 0.0005629 0.0000706 -0.0005629
2074311 0.0000700 -0.0005321 0.9999300 0.0005321 0.9999300 0.0005321 0.0000700 -0.0005321
