!Murata Part Number: GRM188R71E473MA01
!These Parameters are Measured in Series Mode Connection
!Data Generated on Mar 30, 2021
!       o--ll--o
!Port1            Port2
!       o------o
!Operation Temp=25[degC], DC Bias Voltage=0[V]
!Freq. Start=100[Hz] Stop=6[GHz] 401[Steps]
# Hz S RI R 50
!Freq.(Hz) S11(Real) S11(Imag) S21(Real) S21(Imag) S12(Real) S12(Imag) S22(Real) S22(Imag)
100 0.9999764 -0.0030103 0.0000236 0.0030103 0.0000236 0.0030103 0.9999764 -0.0030103
105 0.9999749 -0.0031477 0.0000251 0.0031477 0.0000251 0.0031477 0.9999749 -0.0031477
109 0.9999734 -0.0032914 0.0000266 0.0032914 0.0000266 0.0032914 0.9999734 -0.0032914
114 0.9999717 -0.0034416 0.0000283 0.0034416 0.0000283 0.0034416 0.9999717 -0.0034416
120 0.9999700 -0.0035987 0.0000300 0.0035987 0.0000300 0.0035987 0.9999700 -0.0035987
125 0.9999680 -0.0037631 0.0000320 0.0037631 0.0000320 0.0037631 0.9999680 -0.0037631
131 0.9999660 -0.0039349 0.0000340 0.0039349 0.0000340 0.0039349 0.9999660 -0.0039349
137 0.9999637 -0.0041145 0.0000363 0.0041145 0.0000363 0.0041145 0.9999637 -0.0041145
143 0.9999613 -0.0043024 0.0000387 0.0043024 0.0000387 0.0043024 0.9999613 -0.0043024
150 0.9999587 -0.0044989 0.0000413 0.0044989 0.0000413 0.0044989 0.9999587 -0.0044989
156 0.9999559 -0.0047043 0.0000441 0.0047043 0.0000441 0.0047043 0.9999559 -0.0047043
164 0.9999528 -0.0049191 0.0000472 0.0049191 0.0000472 0.0049191 0.9999528 -0.0049191
171 0.9999495 -0.0051437 0.0000505 0.0051437 0.0000505 0.0051437 0.9999495 -0.0051437
179 0.9999459 -0.0053785 0.0000541 0.0053785 0.0000541 0.0053785 0.9999459 -0.0053785
187 0.9999420 -0.0056241 0.0000580 0.0056241 0.0000580 0.0056241 0.9999420 -0.0056241
196 0.9999379 -0.0058809 0.0000621 0.0058809 0.0000621 0.0058809 0.9999379 -0.0058809
205 0.9999333 -0.0061494 0.0000667 0.0061494 0.0000667 0.0061494 0.9999333 -0.0061494
214 0.9999284 -0.0064301 0.0000716 0.0064301 0.0000716 0.0064301 0.9999284 -0.0064301
224 0.9999231 -0.0067236 0.0000769 0.0067236 0.0000769 0.0067236 0.9999231 -0.0067236
234 0.9999174 -0.0070305 0.0000826 0.0070305 0.0000826 0.0070305 0.9999174 -0.0070305
245 0.9999112 -0.0073514 0.0000888 0.0073514 0.0000888 0.0073514 0.9999112 -0.0073514
256 0.9999045 -0.0076869 0.0000955 0.0076869 0.0000955 0.0076869 0.9999045 -0.0076869
268 0.9998973 -0.0080378 0.0001027 0.0080378 0.0001027 0.0080378 0.9998973 -0.0080378
280 0.9998895 -0.0084046 0.0001105 0.0084046 0.0001105 0.0084046 0.9998895 -0.0084046
293 0.9998810 -0.0087881 0.0001190 0.0087881 0.0001190 0.0087881 0.9998810 -0.0087881
306 0.9998719 -0.0091892 0.0001281 0.0091892 0.0001281 0.0091892 0.9998719 -0.0091892
320 0.9998619 -0.0096085 0.0001381 0.0096085 0.0001381 0.0096085 0.9998619 -0.0096085
335 0.9998512 -0.0100469 0.0001488 0.0100469 0.0001488 0.0100469 0.9998512 -0.0100469
350 0.9998396 -0.0105054 0.0001604 0.0105054 0.0001604 0.0105054 0.9998396 -0.0105054
366 0.9998270 -0.0109847 0.0001730 0.0109847 0.0001730 0.0109847 0.9998270 -0.0109847
383 0.9998134 -0.0114859 0.0001866 0.0114859 0.0001866 0.0114859 0.9998134 -0.0114859
401 0.9997987 -0.0120100 0.0002013 0.0120100 0.0002013 0.0120100 0.9997987 -0.0120100
419 0.9997827 -0.0125580 0.0002173 0.0125580 0.0002173 0.0125580 0.9997827 -0.0125580
438 0.9997653 -0.0131309 0.0002347 0.0131309 0.0002347 0.0131309 0.9997653 -0.0131309
458 0.9997465 -0.0137301 0.0002535 0.0137301 0.0002535 0.0137301 0.9997465 -0.0137301
479 0.9997260 -0.0143565 0.0002740 0.0143565 0.0002740 0.0143565 0.9997260 -0.0143565
501 0.9997038 -0.0150115 0.0002962 0.0150115 0.0002962 0.0150115 0.9997038 -0.0150115
524 0.9996796 -0.0156964 0.0003204 0.0156964 0.0003204 0.0156964 0.9996796 -0.0156964
548 0.9996534 -0.0164126 0.0003466 0.0164126 0.0003466 0.0164126 0.9996534 -0.0164126
573 0.9996248 -0.0171614 0.0003752 0.0171614 0.0003752 0.0171614 0.9996248 -0.0171614
600 0.9995938 -0.0179443 0.0004062 0.0179443 0.0004062 0.0179443 0.9995938 -0.0179443
627 0.9995600 -0.0187629 0.0004400 0.0187629 0.0004400 0.0187629 0.9995600 -0.0187629
656 0.9995232 -0.0196189 0.0004768 0.0196189 0.0004768 0.0196189 0.9995232 -0.0196189
686 0.9994831 -0.0205138 0.0005169 0.0205138 0.0005169 0.0205138 0.9994831 -0.0205138
717 0.9994395 -0.0214495 0.0005605 0.0214495 0.0005605 0.0214495 0.9994395 -0.0214495
750 0.9993919 -0.0224278 0.0006081 0.0224278 0.0006081 0.0224278 0.9993919 -0.0224278
784 0.9993401 -0.0234507 0.0006599 0.0234507 0.0006599 0.0234507 0.9993401 -0.0234507
820 0.9992836 -0.0245200 0.0007164 0.0245200 0.0007164 0.0245200 0.9992836 -0.0245200
858 0.9992221 -0.0256380 0.0007779 0.0256380 0.0007779 0.0256380 0.9992221 -0.0256380
897 0.9991550 -0.0268068 0.0008450 0.0268068 0.0008450 0.0268068 0.9991550 -0.0268068
938 0.9990818 -0.0280286 0.0009182 0.0280286 0.0009182 0.0280286 0.9990818 -0.0280286
981 0.9990021 -0.0293059 0.0009979 0.0293059 0.0009979 0.0293059 0.9990021 -0.0293059
1026 0.9989151 -0.0306412 0.0010849 0.0306412 0.0010849 0.0306412 0.9989151 -0.0306412
1073 0.9988203 -0.0320369 0.0011797 0.0320369 0.0011797 0.0320369 0.9988203 -0.0320369
1122 0.9987170 -0.0334959 0.0012830 0.0334959 0.0012830 0.0334959 0.9987170 -0.0334959
1174 0.9986043 -0.0350209 0.0013957 0.0350209 0.0013957 0.0350209 0.9986043 -0.0350209
1227 0.9984815 -0.0366149 0.0015185 0.0366149 0.0015185 0.0366149 0.9984815 -0.0366149
1283 0.9983476 -0.0382809 0.0016524 0.0382809 0.0016524 0.0382809 0.9983476 -0.0382809
1342 0.9982016 -0.0400220 0.0017984 0.0400220 0.0017984 0.0400220 0.9982016 -0.0400220
1404 0.9980424 -0.0418417 0.0019576 0.0418417 0.0019576 0.0418417 0.9980424 -0.0418417
1468 0.9978689 -0.0437434 0.0021311 0.0437434 0.0021311 0.0437434 0.9978689 -0.0437434
1535 0.9976798 -0.0457307 0.0023202 0.0457307 0.0023202 0.0457307 0.9976798 -0.0457307
1606 0.9974736 -0.0478073 0.0025264 0.0478073 0.0025264 0.0478073 0.9974736 -0.0478073
1679 0.9972489 -0.0499771 0.0027511 0.0499771 0.0027511 0.0499771 0.9972489 -0.0499771
1756 0.9970040 -0.0522442 0.0029960 0.0522442 0.0029960 0.0522442 0.9970040 -0.0522442
1836 0.9967370 -0.0546129 0.0032630 0.0546129 0.0032630 0.0546129 0.9967370 -0.0546129
1920 0.9964459 -0.0570875 0.0035541 0.0570875 0.0035541 0.0570875 0.9964459 -0.0570875
2008 0.9961286 -0.0596725 0.0038714 0.0596725 0.0038714 0.0596725 0.9961286 -0.0596725
2100 0.9957827 -0.0623728 0.0042173 0.0623728 0.0042173 0.0623728 0.9957827 -0.0623728
2196 0.9954056 -0.0651931 0.0045944 0.0651931 0.0045944 0.0651931 0.9954056 -0.0651931
2297 0.9949946 -0.0681387 0.0050054 0.0681387 0.0050054 0.0681387 0.9949946 -0.0681387
2402 0.9945464 -0.0712146 0.0054536 0.0712146 0.0054536 0.0712146 0.9945464 -0.0712146
2512 0.9940578 -0.0744265 0.0059422 0.0744265 0.0059422 0.0744265 0.9940578 -0.0744265
2627 0.9935250 -0.0777798 0.0064750 0.0777798 0.0064750 0.0777798 0.9935250 -0.0777798
2748 0.9929442 -0.0812803 0.0070558 0.0812803 0.0070558 0.0812803 0.9929442 -0.0812803
2873 0.9923108 -0.0849340 0.0076892 0.0849340 0.0076892 0.0849340 0.9923108 -0.0849340
3005 0.9916203 -0.0887469 0.0083797 0.0887469 0.0083797 0.0887469 0.9916203 -0.0887469
3143 0.9908673 -0.0927253 0.0091327 0.0927253 0.0091327 0.0927253 0.9908673 -0.0927253
3287 0.9900464 -0.0968755 0.0099536 0.0968755 0.0099536 0.0968755 0.9900464 -0.0968755
3437 0.9891513 -0.1012041 0.0108487 0.1012041 0.0108487 0.1012041 0.9891513 -0.1012041
3594 0.9881755 -0.1057175 0.0118245 0.1057175 0.0118245 0.1057175 0.9881755 -0.1057175
3759 0.9871117 -0.1104225 0.0128883 0.1104225 0.0128883 0.1104225 0.9871117 -0.1104225
3931 0.9859522 -0.1153259 0.0140478 0.1153259 0.0140478 0.1153259 0.9859522 -0.1153259
4111 0.9846885 -0.1204342 0.0153115 0.1204342 0.0153115 0.1204342 0.9846885 -0.1204342
4299 0.9833114 -0.1257543 0.0166886 0.1257543 0.0166886 0.1257543 0.9833114 -0.1257543
4496 0.9818110 -0.1312928 0.0181890 0.1312928 0.0181890 0.1312928 0.9818110 -0.1312928
4702 0.9801766 -0.1370563 0.0198234 0.1370563 0.0198234 0.1370563 0.9801766 -0.1370563
4918 0.9783968 -0.1430513 0.0216032 0.1430513 0.0216032 0.1430513 0.9783968 -0.1430513
5143 0.9764592 -0.1492838 0.0235408 0.1492838 0.0235408 0.1492838 0.9764592 -0.1492838
5378 0.9743503 -0.1557598 0.0256497 0.1557598 0.0256497 0.1557598 0.9743503 -0.1557598
5625 0.9720558 -0.1624848 0.0279442 0.1624848 0.0279442 0.1624848 0.9720558 -0.1624848
5882 0.9695605 -0.1694639 0.0304395 0.1694639 0.0304395 0.1694639 0.9695605 -0.1694639
6151 0.9668478 -0.1767016 0.0331522 0.1767016 0.0331522 0.1767016 0.9668478 -0.1767016
6433 0.9639004 -0.1842016 0.0360996 0.1842016 0.0360996 0.1842016 0.9639004 -0.1842016
6728 0.9606994 -0.1919669 0.0393006 0.1919669 0.0393006 0.1919669 0.9606994 -0.1919669
7036 0.9572252 -0.1999997 0.0427748 0.1999997 0.0427748 0.1999997 0.9572252 -0.1999997
7358 0.9534566 -0.2083006 0.0465434 0.2083006 0.0465434 0.2083006 0.9534566 -0.2083006
7695 0.9493717 -0.2168696 0.0506283 0.2168696 0.0506283 0.2168696 0.9493717 -0.2168696
8047 0.9449470 -0.2257046 0.0550530 0.2257046 0.0550530 0.2257046 0.9449470 -0.2257046
8416 0.9401581 -0.2348022 0.0598419 0.2348022 0.0598419 0.2348022 0.9401581 -0.2348022
8801 0.9349796 -0.2441571 0.0650204 0.2441571 0.0650204 0.2441571 0.9349796 -0.2441571
9204 0.9293849 -0.2537619 0.0706151 0.2537619 0.0706151 0.2537619 0.9293849 -0.2537619
9626 0.9233467 -0.2636066 0.0766533 0.2636066 0.0766533 0.2636066 0.9233467 -0.2636066
10066 0.9168369 -0.2736791 0.0831631 0.2736791 0.0831631 0.2736791 0.9168369 -0.2736791
10527 0.9098269 -0.2839642 0.0901731 0.2839642 0.0901731 0.2839642 0.9098269 -0.2839642
11009 0.9022876 -0.2944437 0.0977124 0.2944437 0.0977124 0.2944437 0.9022876 -0.2944437
11514 0.8941901 -0.3050960 0.1058099 0.3050960 0.1058099 0.3050960 0.8941901 -0.3050960
12041 0.8855056 -0.3158963 0.1144944 0.3158963 0.1144944 0.3158963 0.8855056 -0.3158963
12592 0.8762058 -0.3268157 0.1237942 0.3268157 0.1237942 0.3268157 0.8762058 -0.3268157
13169 0.8662637 -0.3378218 0.1337363 0.3378218 0.1337363 0.3378218 0.8662637 -0.3378218
13772 0.8556536 -0.3488778 0.1443464 0.3488778 0.1443464 0.3488778 0.8556536 -0.3488778
14402 0.8443519 -0.3599431 0.1556481 0.3599431 0.1556481 0.3599431 0.8443519 -0.3599431
15062 0.8323377 -0.3709729 0.1676623 0.3709729 0.1676623 0.3709729 0.8323377 -0.3709729
15752 0.8195932 -0.3819182 0.1804068 0.3819182 0.1804068 0.3819182 0.8195932 -0.3819182
16473 0.8061045 -0.3927263 0.1938955 0.3927263 0.1938955 0.3927263 0.8061045 -0.3927263
17227 0.7918621 -0.4033408 0.2081379 0.4033408 0.2081379 0.4033408 0.7918621 -0.4033408
18016 0.7768618 -0.4137020 0.2231382 0.4137020 0.2231382 0.4137020 0.7768618 -0.4137020
18841 0.7611053 -0.4237473 0.2388947 0.4237473 0.2388947 0.4237473 0.7611053 -0.4237473
19704 0.7446005 -0.4334122 0.2553995 0.4334122 0.2553995 0.4334122 0.7446005 -0.4334122
20606 0.7273624 -0.4426304 0.2726376 0.4426304 0.2726376 0.4426304 0.7273624 -0.4426304
21550 0.7094134 -0.4513353 0.2905866 0.4513353 0.2905866 0.4513353 0.7094134 -0.4513353
22537 0.6907838 -0.4594605 0.3092162 0.4594605 0.3092162 0.4594605 0.6907838 -0.4594605
23569 0.6715115 -0.4669411 0.3284885 0.4669411 0.3284885 0.4669411 0.6715115 -0.4669411
24648 0.6516426 -0.4737148 0.3483574 0.4737148 0.3483574 0.4737148 0.6516426 -0.4737148
25777 0.6312309 -0.4797228 0.3687691 0.4797228 0.3687691 0.4797228 0.6312309 -0.4797228
26957 0.6103376 -0.4849114 0.3896624 0.4849114 0.3896624 0.4849114 0.6103376 -0.4849114
28191 0.5890310 -0.4892327 0.4109690 0.4892327 0.4109690 0.4892327 0.5890310 -0.4892327
29482 0.5673851 -0.4926460 0.4326149 0.4926460 0.4326149 0.4926460 0.5673851 -0.4926460
30832 0.5454793 -0.4951184 0.4545207 0.4951184 0.4545207 0.4951184 0.5454793 -0.4951184
32244 0.5233970 -0.4966257 0.4766030 0.4966257 0.4766030 0.4966257 0.5233970 -0.4966257
33721 0.5012242 -0.4971532 0.4987758 0.4971532 0.4987758 0.4971532 0.5012242 -0.4971532
35265 0.4790486 -0.4966956 0.5209514 0.4966956 0.5209514 0.4966956 0.4790486 -0.4966956
36880 0.4569578 -0.4952576 0.5430422 0.4952576 0.5430422 0.4952576 0.4569578 -0.4952576
38569 0.4350381 -0.4928532 0.5649619 0.4928532 0.5649619 0.4928532 0.4350381 -0.4928532
40335 0.4133730 -0.4895062 0.5866270 0.4895062 0.5866270 0.4895062 0.4133730 -0.4895062
42182 0.3920422 -0.4852488 0.6079578 0.4852488 0.6079578 0.4852488 0.3920422 -0.4852488
44113 0.3711204 -0.4801214 0.6288796 0.4801214 0.6288796 0.4801214 0.3711204 -0.4801214
46134 0.3506759 -0.4741714 0.6493241 0.4741714 0.6493241 0.4741714 0.3506759 -0.4741714
48246 0.3307705 -0.4674525 0.6692295 0.4674525 0.6692295 0.4674525 0.3307705 -0.4674525
50455 0.3114586 -0.4600229 0.6885414 0.4600229 0.6885414 0.4600229 0.3114586 -0.4600229
52766 0.2927867 -0.4519450 0.7072133 0.4519450 0.7072133 0.4519450 0.2927867 -0.4519450
55182 0.2747932 -0.4432836 0.7252068 0.4432836 0.7252068 0.4432836 0.2747932 -0.4432836
57709 0.2575089 -0.4341052 0.7424911 0.4341052 0.7424911 0.4341052 0.2575089 -0.4341052
60352 0.2409564 -0.4244764 0.7590436 0.4244764 0.7590436 0.4244764 0.2409564 -0.4244764
63115 0.2251512 -0.4144635 0.7748488 0.4144635 0.7748488 0.4144635 0.2251512 -0.4144635
66005 0.2101015 -0.4041313 0.7898985 0.4041313 0.7898985 0.4041313 0.2101015 -0.4041313
69028 0.1958092 -0.3935425 0.8041908 0.3935425 0.8041908 0.3935425 0.1958092 -0.3935425
72189 0.1822704 -0.3827569 0.8177296 0.3827569 0.8177296 0.3827569 0.1822704 -0.3827569
75495 0.1694757 -0.3718312 0.8305243 0.3718312 0.8305243 0.3718312 0.1694757 -0.3718312
78952 0.1574115 -0.3608182 0.8425885 0.3608182 0.8425885 0.3608182 0.1574115 -0.3608182
82567 0.1460601 -0.3497670 0.8539399 0.3497670 0.8539399 0.3497670 0.1460601 -0.3497670
86348 0.1354005 -0.3387226 0.8645995 0.3387226 0.8645995 0.3387226 0.1354005 -0.3387226
90302 0.1254094 -0.3277258 0.8745906 0.3277258 0.8745906 0.3277258 0.1254094 -0.3277258
94437 0.1160611 -0.3168133 0.8839389 0.3168133 0.8839389 0.3168133 0.1160611 -0.3168133
98762 0.1073285 -0.3060178 0.8926715 0.3060178 0.8926715 0.3060178 0.1073285 -0.3060178
103284 0.0991837 -0.2953682 0.9008163 0.2953682 0.9008163 0.2953682 0.0991837 -0.2953682
108014 0.0915978 -0.2848894 0.9084022 0.2848894 0.9084022 0.2848894 0.0915978 -0.2848894
112960 0.0845420 -0.2746030 0.9154580 0.2746030 0.9154580 0.2746030 0.0845420 -0.2746030
118133 0.0779873 -0.2645274 0.9220127 0.2645274 0.9220127 0.2645274 0.0779873 -0.2645274
123542 0.0719052 -0.2546777 0.9280948 0.2546777 0.9280948 0.2546777 0.0719052 -0.2546777
129199 0.0662676 -0.2450664 0.9337324 0.2450664 0.9337324 0.2450664 0.0662676 -0.2450664
135116 0.0610473 -0.2357034 0.9389527 0.2357034 0.9389527 0.2357034 0.0610473 -0.2357034
141303 0.0562179 -0.2265961 0.9437821 0.2265961 0.9437821 0.2265961 0.0562179 -0.2265961
147774 0.0517539 -0.2177501 0.9482461 0.2177501 0.9482461 0.2177501 0.0517539 -0.2177501
154540 0.0476309 -0.2091690 0.9523691 0.2091690 0.9523691 0.2091690 0.0476309 -0.2091690
161617 0.0438258 -0.2008546 0.9561742 0.2008546 0.9561742 0.2008546 0.0438258 -0.2008546
169018 0.0403163 -0.1928075 0.9596837 0.1928075 0.9596837 0.1928075 0.0403163 -0.1928075
176758 0.0370816 -0.1850269 0.9629184 0.1850269 0.9629184 0.1850269 0.0370816 -0.1850269
184852 0.0341018 -0.1775109 0.9658982 0.1775109 0.9658982 0.1775109 0.0341018 -0.1775109
193316 0.0313583 -0.1702566 0.9686417 0.1702566 0.9686417 0.1702566 0.0313583 -0.1702566
202169 0.0288335 -0.1632603 0.9711665 0.1632603 0.9711665 0.1632603 0.0288335 -0.1632603
211427 0.0265111 -0.1565177 0.9734889 0.1565177 0.9734889 0.1565177 0.0265111 -0.1565177
221108 0.0243756 -0.1500238 0.9756244 0.1500238 0.9756244 0.1500238 0.0243756 -0.1500238
231233 0.0224127 -0.1437732 0.9775873 0.1437732 0.9775873 0.1437732 0.0224127 -0.1437732
241822 0.0206090 -0.1377601 0.9793910 0.1377601 0.9793910 0.1377601 0.0206090 -0.1377601
252896 0.0189521 -0.1319785 0.9810479 0.1319785 0.9810479 0.1319785 0.0189521 -0.1319785
264476 0.0174303 -0.1264219 0.9825697 0.1264219 0.9825697 0.1264219 0.0174303 -0.1264219
276587 0.0160330 -0.1210838 0.9839670 0.1210838 0.9839670 0.1210838 0.0160330 -0.1210838
289253 0.0147501 -0.1159578 0.9852499 0.1159578 0.9852499 0.1159578 0.0147501 -0.1159578
302498 0.0135725 -0.1110370 0.9864275 0.1110370 0.9864275 0.1110370 0.0135725 -0.1110370
316350 0.0124916 -0.1063148 0.9875084 0.1063148 0.9875084 0.1063148 0.0124916 -0.1063148
330837 0.0114996 -0.1017846 0.9885004 0.1017846 0.9885004 0.1017846 0.0114996 -0.1017846
345986 0.0105891 -0.0974396 0.9894109 0.0974396 0.9894109 0.0974396 0.0105891 -0.0974396
361830 0.0097536 -0.0932733 0.9902464 0.0932733 0.9902464 0.0932733 0.0097536 -0.0932733
378399 0.0089867 -0.0892792 0.9910133 0.0892792 0.9910133 0.0892792 0.0089867 -0.0892792
395726 0.0082828 -0.0854511 0.9917172 0.0854511 0.9917172 0.0854511 0.0082828 -0.0854511
413847 0.0076368 -0.0817825 0.9923632 0.0817825 0.9923632 0.0817825 0.0076368 -0.0817825
432798 0.0070438 -0.0782676 0.9929562 0.0782676 0.9929562 0.0782676 0.0070438 -0.0782676
452617 0.0064993 -0.0749002 0.9935007 0.0749002 0.9935007 0.0749002 0.0064993 -0.0749002
473344 0.0059994 -0.0716747 0.9940006 0.0716747 0.9940006 0.0716747 0.0059994 -0.0716747
495019 0.0055404 -0.0685854 0.9944596 0.0685854 0.9944596 0.0685854 0.0055404 -0.0685854
517687 0.0051188 -0.0656268 0.9948812 0.0656268 0.9948812 0.0656268 0.0051188 -0.0656268
541393 0.0047316 -0.0627938 0.9952684 0.0627938 0.9952684 0.0627938 0.0047316 -0.0627938
566185 0.0043758 -0.0600811 0.9956242 0.0600811 0.9956242 0.0600811 0.0043758 -0.0600811
592111 0.0040490 -0.0574839 0.9959510 0.0574839 0.9959510 0.0574839 0.0040490 -0.0574839
619225 0.0037486 -0.0549974 0.9962514 0.0549974 0.9962514 0.0549974 0.0037486 -0.0549974
647581 0.0034725 -0.0526171 0.9965275 0.0526171 0.9965275 0.0526171 0.0034725 -0.0526171
677235 0.0032188 -0.0503385 0.9967812 0.0503385 0.9967812 0.0503385 0.0032188 -0.0503385
708247 0.0029855 -0.0481573 0.9970145 0.0481573 0.9970145 0.0481573 0.0029855 -0.0481573
740679 0.0027711 -0.0460696 0.9972289 0.0460696 0.9972289 0.0460696 0.0027711 -0.0460696
774597 0.0025739 -0.0440713 0.9974261 0.0440713 0.9974261 0.0440713 0.0025739 -0.0440713
810067 0.0023926 -0.0421587 0.9976074 0.0421587 0.9976074 0.0421587 0.0023926 -0.0421587
847162 0.0022260 -0.0403283 0.9977740 0.0403283 0.9977740 0.0403283 0.0022260 -0.0403283
885955 0.0020727 -0.0385765 0.9979273 0.0385765 0.9979273 0.0385765 0.0020727 -0.0385765
926525 0.0019317 -0.0369000 0.9980683 0.0369000 0.9980683 0.0369000 0.0019317 -0.0369000
968953 0.0018021 -0.0352956 0.9981979 0.0352956 0.9981979 0.0352956 0.0018021 -0.0352956
1013323 0.0016829 -0.0337603 0.9983171 0.0337603 0.9983171 0.0337603 0.0016829 -0.0337603
1059725 0.0015733 -0.0322912 0.9984267 0.0322912 0.9984267 0.0322912 0.0015733 -0.0322912
1108252 0.0014725 -0.0308853 0.9985275 0.0308853 0.9985275 0.0308853 0.0014725 -0.0308853
1159002 0.0013797 -0.0295401 0.9986203 0.0295401 0.9986203 0.0295401 0.0013797 -0.0295401
1212075 0.0012945 -0.0282530 0.9987055 0.0282530 0.9987055 0.0282530 0.0012945 -0.0282530
1267578 0.0012160 -0.0270214 0.9987840 0.0270214 0.9987840 0.0270214 0.0012160 -0.0270214
1325623 0.0011439 -0.0258430 0.9988561 0.0258430 0.9988561 0.0258430 0.0011439 -0.0258430
1386327 0.0010775 -0.0247155 0.9989225 0.0247155 0.9989225 0.0247155 0.0010775 -0.0247155
1449809 0.0010164 -0.0236367 0.9989836 0.0236367 0.9989836 0.0236367 0.0010164 -0.0236367
1516199 0.0009602 -0.0226046 0.9990398 0.0226046 0.9990398 0.0226046 0.0009602 -0.0226046
1585629 0.0009084 -0.0216171 0.9990916 0.0216171 0.9990916 0.0216171 0.0009084 -0.0216171
1658239 0.0008607 -0.0206723 0.9991393 0.0206723 0.9991393 0.0206723 0.0008607 -0.0206723
1734173 0.0008168 -0.0197684 0.9991832 0.0197684 0.9991832 0.0197684 0.0008168 -0.0197684
1813585 0.0007762 -0.0189036 0.9992238 0.0189036 0.9992238 0.0189036 0.0007762 -0.0189036
1896632 0.0007389 -0.0180762 0.9992611 0.0180762 0.9992611 0.0180762 0.0007389 -0.0180762
1983483 0.0007044 -0.0172845 0.9992956 0.0172845 0.9992956 0.0172845 0.0007044 -0.0172845
2074311 0.0006725 -0.0165271 0.9993275 0.0165271 0.9993275 0.0165271 0.0006725 -0.0165271
