!Murata Part Number: GRM188R71E472MA01
!These Parameters are Measured in Series Mode Connection
!Data Generated on Mar 30, 2021
!       o--ll--o
!Port1            Port2
!       o------o
!Operation Temp=25[degC], DC Bias Voltage=0[V]
!Freq. Start=100[Hz] Stop=6[GHz] 401[Steps]
# Hz S RI R 50
!Freq.(Hz) S11(Real) S11(Imag) S21(Real) S21(Imag) S12(Real) S12(Imag) S22(Real) S22(Imag)
100 0.9999986 -0.0002964 0.0000014 0.0002964 0.0000014 0.0002964 0.9999986 -0.0002964
105 0.9999985 -0.0003099 0.0000015 0.0003099 0.0000015 0.0003099 0.9999985 -0.0003099
109 0.9999984 -0.0003241 0.0000016 0.0003241 0.0000016 0.0003241 0.9999984 -0.0003241
114 0.9999984 -0.0003389 0.0000016 0.0003389 0.0000016 0.0003389 0.9999984 -0.0003389
120 0.9999983 -0.0003543 0.0000017 0.0003543 0.0000017 0.0003543 0.9999983 -0.0003543
125 0.9999982 -0.0003705 0.0000018 0.0003705 0.0000018 0.0003705 0.9999982 -0.0003705
131 0.9999981 -0.0003874 0.0000019 0.0003874 0.0000019 0.0003874 0.9999981 -0.0003874
137 0.9999980 -0.0004051 0.0000020 0.0004051 0.0000020 0.0004051 0.9999980 -0.0004051
143 0.9999979 -0.0004235 0.0000021 0.0004235 0.0000021 0.0004235 0.9999979 -0.0004235
150 0.9999978 -0.0004429 0.0000022 0.0004429 0.0000022 0.0004429 0.9999978 -0.0004429
156 0.9999977 -0.0004631 0.0000023 0.0004631 0.0000023 0.0004631 0.9999977 -0.0004631
164 0.9999976 -0.0004842 0.0000024 0.0004842 0.0000024 0.0004842 0.9999976 -0.0004842
171 0.9999974 -0.0005063 0.0000026 0.0005063 0.0000026 0.0005063 0.9999974 -0.0005063
179 0.9999973 -0.0005294 0.0000027 0.0005294 0.0000027 0.0005294 0.9999973 -0.0005294
187 0.9999972 -0.0005536 0.0000028 0.0005536 0.0000028 0.0005536 0.9999972 -0.0005536
196 0.9999970 -0.0005788 0.0000030 0.0005788 0.0000030 0.0005788 0.9999970 -0.0005788
205 0.9999969 -0.0006053 0.0000031 0.0006053 0.0000031 0.0006053 0.9999969 -0.0006053
214 0.9999968 -0.0006329 0.0000032 0.0006329 0.0000032 0.0006329 0.9999968 -0.0006329
224 0.9999966 -0.0006618 0.0000034 0.0006618 0.0000034 0.0006618 0.9999966 -0.0006618
234 0.9999964 -0.0006920 0.0000036 0.0006920 0.0000036 0.0006920 0.9999964 -0.0006920
245 0.9999962 -0.0007236 0.0000038 0.0007236 0.0000038 0.0007236 0.9999962 -0.0007236
256 0.9999960 -0.0007567 0.0000040 0.0007567 0.0000040 0.0007567 0.9999960 -0.0007567
268 0.9999958 -0.0007912 0.0000042 0.0007912 0.0000042 0.0007912 0.9999958 -0.0007912
280 0.9999956 -0.0008274 0.0000044 0.0008274 0.0000044 0.0008274 0.9999956 -0.0008274
293 0.9999954 -0.0008651 0.0000046 0.0008651 0.0000046 0.0008651 0.9999954 -0.0008651
306 0.9999951 -0.0009047 0.0000049 0.0009047 0.0000049 0.0009047 0.9999951 -0.0009047
320 0.9999949 -0.0009460 0.0000051 0.0009460 0.0000051 0.0009460 0.9999949 -0.0009460
335 0.9999946 -0.0009892 0.0000054 0.0009892 0.0000054 0.0009892 0.9999946 -0.0009892
350 0.9999943 -0.0010344 0.0000057 0.0010344 0.0000057 0.0010344 0.9999943 -0.0010344
366 0.9999940 -0.0010816 0.0000060 0.0010816 0.0000060 0.0010816 0.9999940 -0.0010816
383 0.9999936 -0.0011310 0.0000064 0.0011310 0.0000064 0.0011310 0.9999936 -0.0011310
401 0.9999932 -0.0011826 0.0000068 0.0011826 0.0000068 0.0011826 0.9999932 -0.0011826
419 0.9999928 -0.0012367 0.0000072 0.0012367 0.0000072 0.0012367 0.9999928 -0.0012367
438 0.9999924 -0.0012931 0.0000076 0.0012931 0.0000076 0.0012931 0.9999924 -0.0012931
458 0.9999919 -0.0013522 0.0000081 0.0013522 0.0000081 0.0013522 0.9999919 -0.0013522
479 0.9999914 -0.0014139 0.0000086 0.0014139 0.0000086 0.0014139 0.9999914 -0.0014139
501 0.9999909 -0.0014785 0.0000091 0.0014785 0.0000091 0.0014785 0.9999909 -0.0014785
524 0.9999904 -0.0015459 0.0000096 0.0015459 0.0000096 0.0015459 0.9999904 -0.0015459
548 0.9999898 -0.0016165 0.0000102 0.0016165 0.0000102 0.0016165 0.9999898 -0.0016165
573 0.9999891 -0.0016903 0.0000109 0.0016903 0.0000109 0.0016903 0.9999891 -0.0016903
600 0.9999884 -0.0017675 0.0000116 0.0017675 0.0000116 0.0017675 0.9999884 -0.0017675
627 0.9999877 -0.0018481 0.0000123 0.0018481 0.0000123 0.0018481 0.9999877 -0.0018481
656 0.9999870 -0.0019325 0.0000130 0.0019325 0.0000130 0.0019325 0.9999870 -0.0019325
686 0.9999861 -0.0020206 0.0000139 0.0020206 0.0000139 0.0020206 0.9999861 -0.0020206
717 0.9999853 -0.0021128 0.0000147 0.0021128 0.0000147 0.0021128 0.9999853 -0.0021128
750 0.9999844 -0.0022093 0.0000156 0.0022093 0.0000156 0.0022093 0.9999844 -0.0022093
784 0.9999834 -0.0023101 0.0000166 0.0023101 0.0000166 0.0023101 0.9999834 -0.0023101
820 0.9999823 -0.0024155 0.0000177 0.0024155 0.0000177 0.0024155 0.9999823 -0.0024155
858 0.9999812 -0.0025257 0.0000188 0.0025257 0.0000188 0.0025257 0.9999812 -0.0025257
897 0.9999801 -0.0026409 0.0000199 0.0026409 0.0000199 0.0026409 0.9999801 -0.0026409
938 0.9999788 -0.0027614 0.0000212 0.0027614 0.0000212 0.0027614 0.9999788 -0.0027614
981 0.9999775 -0.0028874 0.0000225 0.0028874 0.0000225 0.0028874 0.9999775 -0.0028874
1026 0.9999761 -0.0030191 0.0000239 0.0030191 0.0000239 0.0030191 0.9999761 -0.0030191
1073 0.9999746 -0.0031569 0.0000254 0.0031569 0.0000254 0.0031569 0.9999746 -0.0031569
1122 0.9999730 -0.0033009 0.0000270 0.0033009 0.0000270 0.0033009 0.9999730 -0.0033009
1174 0.9999713 -0.0034515 0.0000287 0.0034515 0.0000287 0.0034515 0.9999713 -0.0034515
1227 0.9999694 -0.0036090 0.0000306 0.0036090 0.0000306 0.0036090 0.9999694 -0.0036090
1283 0.9999675 -0.0037737 0.0000325 0.0037737 0.0000325 0.0037737 0.9999675 -0.0037737
1342 0.9999654 -0.0039460 0.0000346 0.0039460 0.0000346 0.0039460 0.9999654 -0.0039460
1404 0.9999631 -0.0041261 0.0000369 0.0041261 0.0000369 0.0041261 0.9999631 -0.0041261
1468 0.9999607 -0.0043144 0.0000393 0.0043144 0.0000393 0.0043144 0.9999607 -0.0043144
1535 0.9999581 -0.0045113 0.0000419 0.0045113 0.0000419 0.0045113 0.9999581 -0.0045113
1606 0.9999553 -0.0047173 0.0000447 0.0047173 0.0000447 0.0047173 0.9999553 -0.0047173
1679 0.9999523 -0.0049326 0.0000477 0.0049326 0.0000477 0.0049326 0.9999523 -0.0049326
1756 0.9999490 -0.0051579 0.0000510 0.0051579 0.0000510 0.0051579 0.9999490 -0.0051579
1836 0.9999455 -0.0053934 0.0000545 0.0053934 0.0000545 0.0053934 0.9999455 -0.0053934
1920 0.9999417 -0.0056396 0.0000583 0.0056396 0.0000583 0.0056396 0.9999417 -0.0056396
2008 0.9999376 -0.0058972 0.0000624 0.0058972 0.0000624 0.0058972 0.9999376 -0.0058972
2100 0.9999331 -0.0061664 0.0000669 0.0061664 0.0000669 0.0061664 0.9999331 -0.0061664
2196 0.9999283 -0.0064480 0.0000717 0.0064480 0.0000717 0.0064480 0.9999283 -0.0064480
2297 0.9999231 -0.0067425 0.0000769 0.0067425 0.0000769 0.0067425 0.9999231 -0.0067425
2402 0.9999174 -0.0070504 0.0000826 0.0070504 0.0000826 0.0070504 0.9999174 -0.0070504
2512 0.9999112 -0.0073724 0.0000888 0.0073724 0.0000888 0.0073724 0.9999112 -0.0073724
2627 0.9999045 -0.0077091 0.0000955 0.0077091 0.0000955 0.0077091 0.9999045 -0.0077091
2748 0.9998972 -0.0080611 0.0001028 0.0080611 0.0001028 0.0080611 0.9998972 -0.0080611
2873 0.9998893 -0.0084292 0.0001107 0.0084292 0.0001107 0.0084292 0.9998893 -0.0084292
3005 0.9998807 -0.0088141 0.0001193 0.0088141 0.0001193 0.0088141 0.9998807 -0.0088141
3143 0.9998713 -0.0092165 0.0001287 0.0092165 0.0001287 0.0092165 0.9998713 -0.0092165
3287 0.9998612 -0.0096373 0.0001388 0.0096373 0.0001388 0.0096373 0.9998612 -0.0096373
3437 0.9998501 -0.0100773 0.0001499 0.0100773 0.0001499 0.0100773 0.9998501 -0.0100773
3594 0.9998381 -0.0105373 0.0001619 0.0105373 0.0001619 0.0105373 0.9998381 -0.0105373
3759 0.9998251 -0.0110183 0.0001749 0.0110183 0.0001749 0.0110183 0.9998251 -0.0110183
3931 0.9998109 -0.0115212 0.0001891 0.0115212 0.0001891 0.0115212 0.9998109 -0.0115212
4111 0.9997955 -0.0120470 0.0002045 0.0120470 0.0002045 0.0120470 0.9997955 -0.0120470
4299 0.9997788 -0.0125967 0.0002212 0.0125967 0.0002212 0.0125967 0.9997788 -0.0125967
4496 0.9997607 -0.0131714 0.0002393 0.0131714 0.0002393 0.0131714 0.9997607 -0.0131714
4702 0.9997410 -0.0137723 0.0002590 0.0137723 0.0002590 0.0137723 0.9997410 -0.0137723
4918 0.9997196 -0.0144005 0.0002804 0.0144005 0.0002804 0.0144005 0.9997196 -0.0144005
5143 0.9996964 -0.0150573 0.0003036 0.0150573 0.0003036 0.0150573 0.9996964 -0.0150573
5378 0.9996712 -0.0157439 0.0003288 0.0157439 0.0003288 0.0157439 0.9996712 -0.0157439
5625 0.9996438 -0.0164618 0.0003562 0.0164618 0.0003562 0.0164618 0.9996438 -0.0164618
5882 0.9996141 -0.0172123 0.0003859 0.0172123 0.0003859 0.0172123 0.9996141 -0.0172123
6151 0.9995819 -0.0179969 0.0004181 0.0179969 0.0004181 0.0179969 0.9995819 -0.0179969
6433 0.9995469 -0.0188172 0.0004531 0.0188172 0.0004531 0.0188172 0.9995469 -0.0188172
6728 0.9995089 -0.0196748 0.0004911 0.0196748 0.0004911 0.0196748 0.9995089 -0.0196748
7036 0.9994676 -0.0205714 0.0005324 0.0205714 0.0005324 0.0205714 0.9994676 -0.0205714
7358 0.9994228 -0.0215087 0.0005772 0.0215087 0.0005772 0.0215087 0.9994228 -0.0215087
7695 0.9993741 -0.0224886 0.0006259 0.0224886 0.0006259 0.0224886 0.9993741 -0.0224886
8047 0.9993212 -0.0235131 0.0006788 0.0235131 0.0006788 0.0235131 0.9993212 -0.0235131
8416 0.9992637 -0.0245841 0.0007363 0.0245841 0.0007363 0.0245841 0.9992637 -0.0245841
8801 0.9992012 -0.0257038 0.0007988 0.0257038 0.0007988 0.0257038 0.9992012 -0.0257038
9204 0.9991333 -0.0268744 0.0008667 0.0268744 0.0008667 0.0268744 0.9991333 -0.0268744
9626 0.9990594 -0.0280982 0.0009406 0.0280982 0.0009406 0.0280982 0.9990594 -0.0280982
10066 0.9989789 -0.0293776 0.0010211 0.0293776 0.0010211 0.0293776 0.9989789 -0.0293776
10527 0.9988914 -0.0307151 0.0011086 0.0307151 0.0011086 0.0307151 0.9988914 -0.0307151
11009 0.9987961 -0.0321133 0.0012039 0.0321133 0.0012039 0.0321133 0.9987961 -0.0321133
11514 0.9986923 -0.0335750 0.0013077 0.0335750 0.0013077 0.0335750 0.9986923 -0.0335750
12041 0.9985793 -0.0351030 0.0014207 0.0351030 0.0014207 0.0351030 0.9985793 -0.0351030
12592 0.9984561 -0.0367003 0.0015439 0.0367003 0.0015439 0.0367003 0.9984561 -0.0367003
13169 0.9983218 -0.0383700 0.0016782 0.0383700 0.0016782 0.0383700 0.9983218 -0.0383700
13772 0.9981754 -0.0401152 0.0018246 0.0401152 0.0018246 0.0401152 0.9981754 -0.0401152
14402 0.9980157 -0.0419394 0.0019843 0.0419394 0.0019843 0.0419394 0.9980157 -0.0419394
15062 0.9978415 -0.0438461 0.0021585 0.0438461 0.0021585 0.0438461 0.9978415 -0.0438461
15752 0.9976515 -0.0458388 0.0023485 0.0458388 0.0023485 0.0458388 0.9976515 -0.0458388
16473 0.9974442 -0.0479214 0.0025558 0.0479214 0.0025558 0.0479214 0.9974442 -0.0479214
17227 0.9972180 -0.0500977 0.0027820 0.0500977 0.0027820 0.0500977 0.9972180 -0.0500977
18016 0.9969712 -0.0523719 0.0030288 0.0523719 0.0030288 0.0523719 0.9969712 -0.0523719
18841 0.9967017 -0.0547481 0.0032983 0.0547481 0.0032983 0.0547481 0.9967017 -0.0547481
19704 0.9964076 -0.0572307 0.0035924 0.0572307 0.0035924 0.0572307 0.9964076 -0.0572307
20606 0.9960866 -0.0598243 0.0039134 0.0598243 0.0039134 0.0598243 0.9960866 -0.0598243
21550 0.9957361 -0.0625336 0.0042639 0.0625336 0.0042639 0.0625336 0.9957361 -0.0625336
22537 0.9953536 -0.0653634 0.0046464 0.0653634 0.0046464 0.0653634 0.9953536 -0.0653634
23569 0.9949361 -0.0683187 0.0050639 0.0683187 0.0050639 0.0683187 0.9949361 -0.0683187
24648 0.9944804 -0.0714048 0.0055196 0.0714048 0.0055196 0.0714048 0.9944804 -0.0714048
25777 0.9939831 -0.0746269 0.0060169 0.0746269 0.0060169 0.0746269 0.9939831 -0.0746269
26957 0.9934403 -0.0779906 0.0065597 0.0779906 0.0065597 0.0779906 0.9934403 -0.0779906
28191 0.9928480 -0.0815014 0.0071520 0.0815014 0.0071520 0.0815014 0.9928480 -0.0815014
29482 0.9922019 -0.0851653 0.0077981 0.0851653 0.0077981 0.0851653 0.9922019 -0.0851653
30832 0.9914969 -0.0889881 0.0085031 0.0889881 0.0085031 0.0889881 0.9914969 -0.0889881
32244 0.9907280 -0.0929759 0.0092720 0.0929759 0.0092720 0.0929759 0.9907280 -0.0929759
33721 0.9898895 -0.0971350 0.0101105 0.0971350 0.0101105 0.0971350 0.9898895 -0.0971350
35265 0.9889751 -0.1014715 0.0110249 0.1014715 0.0110249 0.1014715 0.9889751 -0.1014715
36880 0.9879784 -0.1059919 0.0120216 0.1059919 0.0120216 0.1059919 0.9879784 -0.1059919
38569 0.9868920 -0.1107026 0.0131080 0.1107026 0.0131080 0.1107026 0.9868920 -0.1107026
40335 0.9857083 -0.1156102 0.0142917 0.1156102 0.0142917 0.1156102 0.9857083 -0.1156102
42182 0.9844188 -0.1207211 0.0155812 0.1207211 0.0155812 0.1207211 0.9844188 -0.1207211
44113 0.9830144 -0.1260419 0.0169856 0.1260419 0.0169856 0.1260419 0.9830144 -0.1260419
46134 0.9814854 -0.1315790 0.0185146 0.1315790 0.0185146 0.1315790 0.9814854 -0.1315790
48246 0.9798212 -0.1373388 0.0201788 0.1373388 0.0201788 0.1373388 0.9798212 -0.1373388
50455 0.9780105 -0.1433274 0.0219895 0.1433274 0.0219895 0.1433274 0.9780105 -0.1433274
52766 0.9760410 -0.1495509 0.0239590 0.1495509 0.0239590 0.1495509 0.9760410 -0.1495509
55182 0.9738997 -0.1560150 0.0261003 0.1560150 0.0261003 0.1560150 0.9738997 -0.1560150
57709 0.9715723 -0.1627251 0.0284277 0.1627251 0.0284277 0.1627251 0.9715723 -0.1627251
60352 0.9690440 -0.1696860 0.0309560 0.1696860 0.0309560 0.1696860 0.9690440 -0.1696860
63115 0.9662985 -0.1769022 0.0337015 0.1769022 0.0337015 0.1769022 0.9662985 -0.1769022
66005 0.9633186 -0.1843774 0.0366814 0.1843774 0.0366814 0.1843774 0.9633186 -0.1843774
69028 0.9600860 -0.1921146 0.0399140 0.1921146 0.0399140 0.1921146 0.9600860 -0.1921146
72189 0.9565812 -0.2001157 0.0434188 0.2001157 0.0434188 0.2001157 0.9565812 -0.2001157
75495 0.9527835 -0.2083818 0.0472165 0.2083818 0.0472165 0.2083818 0.9527835 -0.2083818
78952 0.9486711 -0.2169126 0.0513289 0.2169126 0.0513289 0.2169126 0.9486711 -0.2169126
82567 0.9442209 -0.2257064 0.0557791 0.2257064 0.0557791 0.2257064 0.9442209 -0.2257064
86348 0.9394088 -0.2347599 0.0605912 0.2347599 0.0605912 0.2347599 0.9394088 -0.2347599
90302 0.9342094 -0.2440679 0.0657906 0.2440679 0.0657906 0.2440679 0.9342094 -0.2440679
94437 0.9285965 -0.2536232 0.0714035 0.2536232 0.0714035 0.2536232 0.9285965 -0.2536232
98762 0.9225429 -0.2634162 0.0774571 0.2634162 0.0774571 0.2634162 0.9225429 -0.2634162
103284 0.9160206 -0.2734348 0.0839794 0.2734348 0.0839794 0.2734348 0.9160206 -0.2734348
108014 0.9090011 -0.2836640 0.0909989 0.2836640 0.0909989 0.2836640 0.9090011 -0.2836640
112960 0.9014552 -0.2940860 0.0985448 0.2940860 0.0985448 0.2940860 0.9014552 -0.2940860
118133 0.8933541 -0.3046793 0.1066459 0.3046793 0.1066459 0.3046793 0.8933541 -0.3046793
123542 0.8846689 -0.3154190 0.1153311 0.3154190 0.1153311 0.3154190 0.8846689 -0.3154190
129199 0.8753715 -0.3262766 0.1246285 0.3262766 0.1246285 0.3262766 0.8753715 -0.3262766
135116 0.8654346 -0.3372195 0.1345654 0.3372195 0.1345654 0.3372195 0.8654346 -0.3372195
141303 0.8548325 -0.3482111 0.1451675 0.3482111 0.1451675 0.3482111 0.8548325 -0.3482111
147774 0.8435419 -0.3592106 0.1564581 0.3592106 0.1564581 0.3592106 0.8435419 -0.3592106
154540 0.8315416 -0.3701730 0.1684584 0.3701730 0.1684584 0.3701730 0.8315416 -0.3701730
161617 0.8188141 -0.3810494 0.1811859 0.3810494 0.1811859 0.3810494 0.8188141 -0.3810494
169018 0.8053457 -0.3917869 0.1946543 0.3917869 0.1946543 0.3917869 0.8053457 -0.3917869
176758 0.7911273 -0.4023288 0.2088727 0.4023288 0.2088727 0.4023288 0.7911273 -0.4023288
184852 0.7761549 -0.4126155 0.2238451 0.4126155 0.2238451 0.4126155 0.7761549 -0.4126155
193316 0.7604308 -0.4225844 0.2395692 0.4225844 0.2395692 0.4225844 0.7604308 -0.4225844
202169 0.7439634 -0.4321708 0.2560366 0.4321708 0.2560366 0.4321708 0.7439634 -0.4321708
211427 0.7267684 -0.4413089 0.2732316 0.4413089 0.2732316 0.4413089 0.7267684 -0.4413089
221108 0.7088688 -0.4499322 0.2911312 0.4499322 0.2911312 0.4499322 0.7088688 -0.4499322
231233 0.6902954 -0.4579749 0.3097046 0.4579749 0.3097046 0.4579749 0.6902954 -0.4579749
241822 0.6710871 -0.4653726 0.3289129 0.4653726 0.3289129 0.4653726 0.6710871 -0.4653726
252896 0.6512904 -0.4720639 0.3487096 0.4720639 0.3487096 0.4720639 0.6512904 -0.4720639
264476 0.6309596 -0.4779910 0.3690404 0.4779910 0.3690404 0.4779910 0.6309596 -0.4779910
276587 0.6101564 -0.4831012 0.3898436 0.4831012 0.3898436 0.4831012 0.6101564 -0.4831012
289253 0.5889491 -0.4873481 0.4110509 0.4873481 0.4110509 0.4873481 0.5889491 -0.4873481
302498 0.5674117 -0.4906921 0.4325883 0.4906921 0.4325883 0.4906921 0.5674117 -0.4906921
316350 0.5456234 -0.4931019 0.4543766 0.4931019 0.4543766 0.4931019 0.5456234 -0.4931019
330837 0.5236668 -0.4945547 0.4763332 0.4945547 0.4763332 0.4945547 0.5236668 -0.4945547
345986 0.5016275 -0.4950371 0.4983725 0.4950371 0.4983725 0.4950371 0.5016275 -0.4950371
361830 0.4795918 -0.4945451 0.5204082 0.4945451 0.5204082 0.4945451 0.4795918 -0.4945451
378399 0.4576461 -0.4930843 0.5423539 0.4930843 0.5423539 0.4930843 0.4576461 -0.4930843
395726 0.4358751 -0.4906699 0.5641249 0.4906699 0.5641249 0.4906699 0.4358751 -0.4906699
413847 0.4143608 -0.4873261 0.5856392 0.4873261 0.5856392 0.4873261 0.4143608 -0.4873261
432798 0.3931810 -0.4830856 0.6068190 0.4830856 0.6068190 0.4830856 0.3931810 -0.4830856
452617 0.3724085 -0.4779887 0.6275915 0.4779887 0.6275915 0.4779887 0.3724085 -0.4779887
473344 0.3521099 -0.4720826 0.6478901 0.4720826 0.6478901 0.4720826 0.3521099 -0.4720826
495019 0.3323453 -0.4654204 0.6676547 0.4654204 0.6676547 0.4654204 0.3323453 -0.4654204
517687 0.3131674 -0.4580595 0.6868326 0.4580595 0.6868326 0.4580595 0.3131674 -0.4580595
541393 0.2946212 -0.4500612 0.7053788 0.4500612 0.7053788 0.4500612 0.2946212 -0.4500612
566185 0.2767439 -0.4414891 0.7232561 0.4414891 0.7232561 0.4414891 0.2767439 -0.4414891
592111 0.2595653 -0.4324080 0.7404347 0.4324080 0.7404347 0.4324080 0.2595653 -0.4324080
619225 0.2431074 -0.4228832 0.7568926 0.4228832 0.7568926 0.4228832 0.2431074 -0.4228832
647581 0.2273851 -0.4129795 0.7726149 0.4129795 0.7726149 0.4129795 0.2273851 -0.4129795
677235 0.2124066 -0.4027599 0.7875934 0.4027599 0.7875934 0.4027599 0.2124066 -0.4027599
708247 0.1981737 -0.3922857 0.8018263 0.3922857 0.8018263 0.3922857 0.1981737 -0.3922857
740679 0.1846827 -0.3816152 0.8153173 0.3816152 0.8153173 0.3816152 0.1846827 -0.3816152
774597 0.1719249 -0.3708038 0.8280751 0.3708038 0.8280751 0.3708038 0.1719249 -0.3708038
810067 0.1598871 -0.3599033 0.8401129 0.3599033 0.8401129 0.3599033 0.1598871 -0.3599033
847162 0.1485524 -0.3489616 0.8514476 0.3489616 0.8514476 0.3489616 0.1485524 -0.3489616
885955 0.1379008 -0.3380229 0.8620992 0.3380229 0.8620992 0.3380229 0.1379008 -0.3380229
926525 0.1279097 -0.3271274 0.8720903 0.3271274 0.8720903 0.3271274 0.1279097 -0.3271274
968953 0.1185543 -0.3163114 0.8814457 0.3163114 0.8814457 0.3163114 0.1185543 -0.3163114
1013323 0.1098087 -0.3056072 0.8901913 0.3056072 0.8901913 0.3056072 0.1098087 -0.3056072
1059725 0.1016454 -0.2950434 0.8983546 0.2950434 0.8983546 0.2950434 0.1016454 -0.2950434
1108252 0.0940366 -0.2846450 0.9059634 0.2846450 0.9059634 0.2846450 0.0940366 -0.2846450
1159002 0.0869541 -0.2744336 0.9130459 0.2744336 0.9130459 0.2744336 0.0869541 -0.2744336
1212075 0.0803697 -0.2644277 0.9196303 0.2644277 0.9196303 0.2644277 0.0803697 -0.2644277
1267578 0.0742553 -0.2546425 0.9257447 0.2546425 0.9257447 0.2546425 0.0742553 -0.2546425
1325623 0.0685835 -0.2450909 0.9314165 0.2450909 0.9314165 0.2450909 0.0685835 -0.2450909
1386327 0.0633274 -0.2357828 0.9366726 0.2357828 0.9366726 0.2357828 0.0633274 -0.2357828
1449809 0.0584609 -0.2267261 0.9415391 0.2267261 0.9415391 0.2267261 0.0584609 -0.2267261
1516199 0.0539590 -0.2179265 0.9460410 0.2179265 0.9460410 0.2179265 0.0539590 -0.2179265
1585629 0.0497974 -0.2093879 0.9502026 0.2093879 0.9502026 0.2093879 0.0497974 -0.2093879
1658239 0.0459532 -0.2011124 0.9540468 0.2011124 0.9540468 0.2011124 0.0459532 -0.2011124
1734173 0.0424043 -0.1931008 0.9575957 0.1931008 0.9575957 0.1931008 0.0424043 -0.1931008
1813585 0.0391298 -0.1853524 0.9608702 0.1853524 0.9608702 0.1853524 0.0391298 -0.1853524
1896632 0.0361102 -0.1778656 0.9638898 0.1778656 0.9638898 0.1778656 0.0361102 -0.1778656
1983483 0.0333268 -0.1706376 0.9666732 0.1706376 0.9666732 0.1706376 0.0333268 -0.1706376
2074311 0.0307620 -0.1636649 0.9692380 0.1636649 0.9692380 0.1636649 0.0307620 -0.1636649
