!Murata Part Number: GRM188B31E225KA12
!These Parameters are Measured in Series Mode Connection
!Data Generated on Mar 30, 2021
!       o--ll--o
!Port1            Port2
!       o------o
!Operation Temp=25[degC], DC Bias Voltage=0[V]
!Freq. Start=100[Hz] Stop=6[GHz] 401[Steps]
# Hz S RI R 50
!Freq.(Hz) S11(Real) S11(Imag) S21(Real) S21(Imag) S12(Real) S12(Imag) S22(Real) S22(Imag)
100 0.9894345 -0.0936967 0.0105655 0.0936967 0.0105655 0.0936967 0.9894345 -0.0936967
105 0.9885394 -0.0978456 0.0114606 0.0978456 0.0114606 0.0978456 0.9885394 -0.0978456
109 0.9875658 -0.1021694 0.0124342 0.1021694 0.0124342 0.1021694 0.9875658 -0.1021694
114 0.9865069 -0.1066741 0.0134931 0.1066741 0.0134931 0.1066741 0.9865069 -0.1066741
120 0.9853554 -0.1113657 0.0146446 0.1113657 0.0146446 0.1113657 0.9853554 -0.1113657
125 0.9841035 -0.1162502 0.0158965 0.1162502 0.0158965 0.1162502 0.9841035 -0.1162502
131 0.9827428 -0.1213336 0.0172572 0.1213336 0.0172572 0.1213336 0.9827428 -0.1213336
137 0.9812642 -0.1266218 0.0187358 0.1266218 0.0187358 0.1266218 0.9812642 -0.1266218
143 0.9796581 -0.1321207 0.0203419 0.1321207 0.0203419 0.1321207 0.9796581 -0.1321207
150 0.9779140 -0.1378359 0.0220860 0.1378359 0.0220860 0.1378359 0.9779140 -0.1378359
156 0.9760208 -0.1437730 0.0239792 0.1437730 0.0239792 0.1437730 0.9760208 -0.1437730
164 0.9739666 -0.1499372 0.0260334 0.1499372 0.0260334 0.1499372 0.9739666 -0.1499372
171 0.9717387 -0.1563335 0.0282613 0.1563335 0.0282613 0.1563335 0.9717387 -0.1563335
179 0.9693236 -0.1629665 0.0306764 0.1629665 0.0306764 0.1629665 0.9693236 -0.1629665
187 0.9667068 -0.1698404 0.0332932 0.1698404 0.0332932 0.1698404 0.9667068 -0.1698404
196 0.9638729 -0.1769587 0.0361271 0.1769587 0.0361271 0.1769587 0.9638729 -0.1769587
205 0.9608057 -0.1843246 0.0391943 0.1843246 0.0391943 0.1843246 0.9608057 -0.1843246
214 0.9574878 -0.1919402 0.0425122 0.1919402 0.0425122 0.1919402 0.9574878 -0.1919402
224 0.9539009 -0.1998072 0.0460991 0.1998072 0.0460991 0.1998072 0.9539009 -0.1998072
234 0.9500257 -0.2079259 0.0499743 0.2079259 0.0499743 0.2079259 0.9500257 -0.2079259
245 0.9458417 -0.2162958 0.0541583 0.2162958 0.0541583 0.2162958 0.9458417 -0.2162958
256 0.9413274 -0.2249149 0.0586726 0.2249149 0.0586726 0.2249149 0.9413274 -0.2249149
268 0.9364604 -0.2337799 0.0635396 0.2337799 0.0635396 0.2337799 0.9364604 -0.2337799
280 0.9312172 -0.2428858 0.0687828 0.2428858 0.0687828 0.2428858 0.9312172 -0.2428858
293 0.9255732 -0.2522258 0.0744268 0.2522258 0.0744268 0.2522258 0.9255732 -0.2522258
306 0.9195031 -0.2617909 0.0804969 0.2617909 0.0804969 0.2617909 0.9195031 -0.2617909
320 0.9129809 -0.2715698 0.0870191 0.2715698 0.0870191 0.2715698 0.9129809 -0.2715698
335 0.9059798 -0.2815489 0.0940202 0.2815489 0.0940202 0.2815489 0.9059798 -0.2815489
350 0.8984725 -0.2917115 0.1015275 0.2917115 0.1015275 0.2917115 0.8984725 -0.2917115
366 0.8904318 -0.3020380 0.1095682 0.3020380 0.1095682 0.3020380 0.8904318 -0.3020380
383 0.8818303 -0.3125055 0.1181697 0.3125055 0.1181697 0.3125055 0.8818303 -0.3125055
401 0.8726411 -0.3230876 0.1273589 0.3230876 0.1273589 0.3230876 0.8726411 -0.3230876
419 0.8628381 -0.3337543 0.1371619 0.3337543 0.1371619 0.3337543 0.8628381 -0.3337543
438 0.8523966 -0.3444715 0.1476034 0.3444715 0.1476034 0.3444715 0.8523966 -0.3444715
458 0.8412934 -0.3552013 0.1587066 0.3552013 0.1587066 0.3552013 0.8412934 -0.3552013
479 0.8295077 -0.3659018 0.1704923 0.3659018 0.1704923 0.3659018 0.8295077 -0.3659018
501 0.8170217 -0.3765270 0.1829783 0.3765270 0.1829783 0.3765270 0.8170217 -0.3765270
524 0.8038210 -0.3870273 0.1961790 0.3870273 0.1961790 0.3870273 0.8038210 -0.3870273
548 0.7898955 -0.3973490 0.2101045 0.3973490 0.2101045 0.3973490 0.7898955 -0.3973490
573 0.7752398 -0.4074354 0.2247602 0.4074354 0.2247602 0.4074354 0.7752398 -0.4074354
600 0.7598542 -0.4172269 0.2401458 0.4172269 0.2401458 0.4172269 0.7598542 -0.4172269
627 0.7437449 -0.4266616 0.2562551 0.4266616 0.2562551 0.4266616 0.7437449 -0.4266616
656 0.7269249 -0.4356757 0.2730751 0.4356757 0.2730751 0.4356757 0.7269249 -0.4356757
686 0.7094143 -0.4442051 0.2905857 0.4442051 0.2905857 0.4442051 0.7094143 -0.4442051
717 0.6912407 -0.4521854 0.3087593 0.4521854 0.3087593 0.4521854 0.6912407 -0.4521854
750 0.6724393 -0.4595537 0.3275607 0.4595537 0.3275607 0.4595537 0.6724393 -0.4595537
784 0.6530531 -0.4662492 0.3469469 0.4662492 0.3469469 0.4662492 0.6530531 -0.4662492
820 0.6331328 -0.4722144 0.3668672 0.4722144 0.3668672 0.4722144 0.6331328 -0.4722144
858 0.6127363 -0.4773965 0.3872637 0.4773965 0.3872637 0.4773965 0.6127363 -0.4773965
897 0.5919282 -0.4817482 0.4080718 0.4817482 0.4080718 0.4817482 0.5919282 -0.4817482
938 0.5707792 -0.4852289 0.4292208 0.4852289 0.4292208 0.4852289 0.5707792 -0.4852289
981 0.5493652 -0.4878057 0.4506348 0.4878057 0.4506348 0.4878057 0.5493652 -0.4878057
1026 0.5277659 -0.4894538 0.4722341 0.4894538 0.4722341 0.4894538 0.5277659 -0.4894538
1073 0.5060643 -0.4901574 0.4939357 0.4901574 0.4939357 0.4901574 0.5060643 -0.4901574
1122 0.4843445 -0.4899102 0.5156555 0.4899102 0.5156555 0.4899102 0.4843445 -0.4899102
1174 0.4626912 -0.4887150 0.5373088 0.4887150 0.5373088 0.4887150 0.4626912 -0.4887150
1227 0.4411878 -0.4865843 0.5588122 0.4865843 0.5588122 0.4865843 0.4411878 -0.4865843
1283 0.4199151 -0.4835395 0.5800849 0.4835395 0.5800849 0.4835395 0.4199151 -0.4835395
1342 0.3989505 -0.4796104 0.6010495 0.4796104 0.6010495 0.4796104 0.3989505 -0.4796104
1404 0.3783664 -0.4748349 0.6216336 0.4748349 0.6216336 0.4748349 0.3783664 -0.4748349
1468 0.3582296 -0.4692577 0.6417704 0.4692577 0.6417704 0.4692577 0.3582296 -0.4692577
1535 0.3386004 -0.4629294 0.6613996 0.4629294 0.6613996 0.4629294 0.3386004 -0.4629294
1606 0.3195318 -0.4559054 0.6804682 0.4559054 0.6804682 0.4559054 0.3195318 -0.4559054
1679 0.3010694 -0.4482451 0.6989306 0.4482451 0.6989306 0.4482451 0.3010694 -0.4482451
1756 0.2832514 -0.4400101 0.7167486 0.4400101 0.7167486 0.4400101 0.2832514 -0.4400101
1836 0.2661080 -0.4312640 0.7338920 0.4312640 0.7338920 0.4312640 0.2661080 -0.4312640
1920 0.2496620 -0.4220704 0.7503380 0.4220704 0.7503380 0.4220704 0.2496620 -0.4220704
2008 0.2339291 -0.4124926 0.7660709 0.4124926 0.7660709 0.4124926 0.2339291 -0.4124926
2100 0.2189182 -0.4025927 0.7810818 0.4025927 0.7810818 0.4025927 0.2189182 -0.4025927
2196 0.2046321 -0.3924304 0.7953679 0.3924304 0.7953679 0.3924304 0.2046321 -0.3924304
2297 0.1910678 -0.3820632 0.8089322 0.3820632 0.8089322 0.3820632 0.1910678 -0.3820632
2402 0.1782173 -0.3715452 0.8217827 0.3715452 0.8217827 0.3715452 0.1782173 -0.3715452
2512 0.1660685 -0.3609269 0.8339315 0.3609269 0.8339315 0.3609269 0.1660685 -0.3609269
2627 0.1546053 -0.3502554 0.8453947 0.3502554 0.8453947 0.3502554 0.1546053 -0.3502554
2748 0.1438088 -0.3395736 0.8561912 0.3395736 0.8561912 0.3395736 0.1438088 -0.3395736
2873 0.1336574 -0.3289209 0.8663426 0.3289209 0.8663426 0.3289209 0.1336574 -0.3289209
3005 0.1241278 -0.3183324 0.8758722 0.3183324 0.8758722 0.3183324 0.1241278 -0.3183324
3143 0.1151952 -0.3078396 0.8848048 0.3078396 0.8848048 0.3078396 0.1151952 -0.3078396
3287 0.1068337 -0.2974705 0.8931663 0.2974705 0.8931663 0.2974705 0.1068337 -0.2974705
3437 0.0990170 -0.2872493 0.9009830 0.2872493 0.9009830 0.2872493 0.0990170 -0.2872493
3594 0.0917184 -0.2771973 0.9082816 0.2771973 0.9082816 0.2771973 0.0917184 -0.2771973
3759 0.0849115 -0.2673324 0.9150885 0.2673324 0.9150885 0.2673324 0.0849115 -0.2673324
3931 0.0785698 -0.2576700 0.9214302 0.2576700 0.9214302 0.2576700 0.0785698 -0.2576700
4111 0.0726677 -0.2482228 0.9273323 0.2482228 0.9273323 0.2482228 0.0726677 -0.2482228
4299 0.0671798 -0.2390011 0.9328202 0.2390011 0.9328202 0.2390011 0.0671798 -0.2390011
4496 0.0620819 -0.2300131 0.9379181 0.2300131 0.9379181 0.2300131 0.0620819 -0.2300131
4702 0.0573501 -0.2212652 0.9426499 0.2212652 0.9426499 0.2212652 0.0573501 -0.2212652
4918 0.0529620 -0.2127620 0.9470380 0.2127620 0.9470380 0.2127620 0.0529620 -0.2127620
5143 0.0488956 -0.2045065 0.9511044 0.2045065 0.9511044 0.2045065 0.0488956 -0.2045065
5378 0.0451303 -0.1965003 0.9548697 0.1965003 0.9548697 0.1965003 0.0451303 -0.1965003
5625 0.0416461 -0.1887440 0.9583539 0.1887440 0.9583539 0.1887440 0.0416461 -0.1887440
5882 0.0384244 -0.1812370 0.9615756 0.1812370 0.9615756 0.1812370 0.0384244 -0.1812370
6151 0.0354472 -0.1739778 0.9645528 0.1739778 0.9645528 0.1739778 0.0354472 -0.1739778
6433 0.0326976 -0.1669641 0.9673024 0.1669641 0.9673024 0.1669641 0.0326976 -0.1669641
6728 0.0301597 -0.1601927 0.9698403 0.1601927 0.9698403 0.1601927 0.0301597 -0.1601927
7036 0.0278185 -0.1536601 0.9721815 0.1536601 0.9721815 0.1536601 0.0278185 -0.1536601
7358 0.0256598 -0.1473621 0.9743402 0.1473621 0.9743402 0.1473621 0.0256598 -0.1473621
7695 0.0236704 -0.1412941 0.9763296 0.1412941 0.9763296 0.1412941 0.0236704 -0.1412941
8047 0.0218376 -0.1354511 0.9781624 0.1354511 0.9781624 0.1354511 0.0218376 -0.1354511
8416 0.0201500 -0.1298279 0.9798500 0.1298279 0.9798500 0.1298279 0.0201500 -0.1298279
8801 0.0185964 -0.1244189 0.9814036 0.1244189 0.9814036 0.1244189 0.0185964 -0.1244189
9204 0.0171668 -0.1192185 0.9828332 0.1192185 0.9828332 0.1192185 0.0171668 -0.1192185
9626 0.0158515 -0.1142209 0.9841485 0.1142209 0.9841485 0.1142209 0.0158515 -0.1142209
10066 0.0146417 -0.1094200 0.9853583 0.1094200 0.9853583 0.1094200 0.0146417 -0.1094200
10527 0.0135292 -0.1048099 0.9864708 0.1048099 0.9864708 0.1048099 0.0135292 -0.1048099
11009 0.0125062 -0.1003846 0.9874938 0.1003846 0.9874938 0.1003846 0.0125062 -0.1003846
11514 0.0115656 -0.0961380 0.9884344 0.0961380 0.9884344 0.0961380 0.0115656 -0.0961380
12041 0.0107009 -0.0920642 0.9892991 0.0920642 0.9892991 0.0920642 0.0107009 -0.0920642
12592 0.0099057 -0.0881572 0.9900943 0.0881572 0.9900943 0.0881572 0.0099057 -0.0881572
13169 0.0091746 -0.0844111 0.9908254 0.0844111 0.9908254 0.0844111 0.0091746 -0.0844111
13772 0.0085021 -0.0808201 0.9914979 0.0808201 0.9914979 0.0808201 0.0085021 -0.0808201
14402 0.0078836 -0.0773786 0.9921164 0.0773786 0.9921164 0.0773786 0.0078836 -0.0773786
15062 0.0073144 -0.0740810 0.9926856 0.0740810 0.9926856 0.0740810 0.0073144 -0.0740810
15752 0.0067904 -0.0709217 0.9932096 0.0709217 0.9932096 0.0709217 0.0067904 -0.0709217
16473 0.0063079 -0.0678954 0.9936921 0.0678954 0.9936921 0.0678954 0.0063079 -0.0678954
17227 0.0058634 -0.0649970 0.9941366 0.0649970 0.9941366 0.0649970 0.0058634 -0.0649970
18016 0.0054535 -0.0622213 0.9945465 0.0622213 0.9945465 0.0622213 0.0054535 -0.0622213
18841 0.0050755 -0.0595634 0.9949245 0.0595634 0.9949245 0.0595634 0.0050755 -0.0595634
19704 0.0047264 -0.0570185 0.9952736 0.0570185 0.9952736 0.0570185 0.0047264 -0.0570185
20606 0.0044040 -0.0545821 0.9955960 0.0545821 0.9955960 0.0545821 0.0044040 -0.0545821
21550 0.0041059 -0.0522495 0.9958941 0.0522495 0.9958941 0.0522495 0.0041059 -0.0522495
22537 0.0038300 -0.0500164 0.9961700 0.0500164 0.9961700 0.0500164 0.0038300 -0.0500164
23569 0.0035745 -0.0478788 0.9964255 0.0478788 0.9964255 0.0478788 0.0035745 -0.0478788
24648 0.0033376 -0.0458324 0.9966624 0.0458324 0.9966624 0.0458324 0.0033376 -0.0458324
25777 0.0031178 -0.0438735 0.9968822 0.0438735 0.9968822 0.0438735 0.0031178 -0.0438735
26957 0.0029136 -0.0419982 0.9970864 0.0419982 0.9970864 0.0419982 0.0029136 -0.0419982
28191 0.0027239 -0.0402029 0.9972761 0.0402029 0.9972761 0.0402029 0.0027239 -0.0402029
29482 0.0025474 -0.0384843 0.9974526 0.0384843 0.9974526 0.0384843 0.0025474 -0.0384843
30832 0.0023830 -0.0368389 0.9976170 0.0368389 0.9976170 0.0368389 0.0023830 -0.0368389
32244 0.0022299 -0.0352637 0.9977701 0.0352637 0.9977701 0.0352637 0.0022299 -0.0352637
33721 0.0020872 -0.0337555 0.9979128 0.0337555 0.9979128 0.0337555 0.0020872 -0.0337555
35265 0.0019541 -0.0323114 0.9980459 0.0323114 0.9980459 0.0323114 0.0019541 -0.0323114
36880 0.0018299 -0.0309288 0.9981701 0.0309288 0.9981701 0.0309288 0.0018299 -0.0309288
38569 0.0017139 -0.0296048 0.9982861 0.0296048 0.9982861 0.0296048 0.0017139 -0.0296048
40335 0.0016057 -0.0283370 0.9983943 0.0283370 0.9983943 0.0283370 0.0016057 -0.0283370
42182 0.0015047 -0.0271230 0.9984953 0.0271230 0.9984953 0.0271230 0.0015047 -0.0271230
44113 0.0014104 -0.0259605 0.9985896 0.0259605 0.9985896 0.0259605 0.0014104 -0.0259605
46134 0.0013224 -0.0248472 0.9986776 0.0248472 0.9986776 0.0248472 0.0013224 -0.0248472
48246 0.0012403 -0.0237812 0.9987597 0.0237812 0.9987597 0.0237812 0.0012403 -0.0237812
50455 0.0011637 -0.0227603 0.9988363 0.0227603 0.9988363 0.0227603 0.0011637 -0.0227603
52766 0.0010923 -0.0217826 0.9989077 0.0217826 0.9989077 0.0217826 0.0010923 -0.0217826
55182 0.0010257 -0.0208465 0.9989743 0.0208465 0.9989743 0.0208465 0.0010257 -0.0208465
57709 0.0009637 -0.0199501 0.9990363 0.0199501 0.9990363 0.0199501 0.0009637 -0.0199501
60352 0.0009059 -0.0190917 0.9990941 0.0190917 0.9990941 0.0190917 0.0009059 -0.0190917
63115 0.0008522 -0.0182698 0.9991478 0.0182698 0.9991478 0.0182698 0.0008522 -0.0182698
66005 0.0008022 -0.0174829 0.9991978 0.0174829 0.9991978 0.0174829 0.0008022 -0.0174829
69028 0.0007557 -0.0167295 0.9992443 0.0167295 0.9992443 0.0167295 0.0007557 -0.0167295
72189 0.0007125 -0.0160082 0.9992875 0.0160082 0.9992875 0.0160082 0.0007125 -0.0160082
75495 0.0006724 -0.0153178 0.9993276 0.0153178 0.9993276 0.0153178 0.0006724 -0.0153178
78952 0.0006351 -0.0146568 0.9993649 0.0146568 0.9993649 0.0146568 0.0006351 -0.0146568
82567 0.0006006 -0.0140242 0.9993994 0.0140242 0.9993994 0.0140242 0.0006006 -0.0140242
86348 0.0005685 -0.0134186 0.9994315 0.0134186 0.9994315 0.0134186 0.0005685 -0.0134186
90302 0.0005387 -0.0128391 0.9994613 0.0128391 0.9994613 0.0128391 0.0005387 -0.0128391
94437 0.0005111 -0.0122845 0.9994889 0.0122845 0.9994889 0.0122845 0.0005111 -0.0122845
98762 0.0004854 -0.0117538 0.9995146 0.0117538 0.9995146 0.0117538 0.0004854 -0.0117538
103284 0.0004616 -0.0112459 0.9995384 0.0112459 0.9995384 0.0112459 0.0004616 -0.0112459
108014 0.0004395 -0.0107600 0.9995605 0.0107600 0.9995605 0.0107600 0.0004395 -0.0107600
112960 0.0004189 -0.0102951 0.9995811 0.0102951 0.9995811 0.0102951 0.0004189 -0.0102951
118133 0.0003998 -0.0098503 0.9996002 0.0098503 0.9996002 0.0098503 0.0003998 -0.0098503
123542 0.0003820 -0.0094247 0.9996180 0.0094247 0.9996180 0.0094247 0.0003820 -0.0094247
129199 0.0003654 -0.0090177 0.9996346 0.0090177 0.9996346 0.0090177 0.0003654 -0.0090177
135116 0.0003500 -0.0086282 0.9996500 0.0086282 0.9996500 0.0086282 0.0003500 -0.0086282
141303 0.0003355 -0.0082557 0.9996645 0.0082557 0.9996645 0.0082557 0.0003355 -0.0082557
147774 0.0003219 -0.0078994 0.9996781 0.0078994 0.9996781 0.0078994 0.0003219 -0.0078994
154540 0.0003092 -0.0075585 0.9996908 0.0075585 0.9996908 0.0075585 0.0003092 -0.0075585
161617 0.0002973 -0.0072325 0.9997027 0.0072325 0.9997027 0.0072325 0.0002973 -0.0072325
169018 0.0002860 -0.0069207 0.9997140 0.0069207 0.9997140 0.0069207 0.0002860 -0.0069207
176758 0.0002754 -0.0066224 0.9997246 0.0066224 0.9997246 0.0066224 0.0002754 -0.0066224
184852 0.0002653 -0.0063370 0.9997347 0.0063370 0.9997347 0.0063370 0.0002653 -0.0063370
193316 0.0002557 -0.0060641 0.9997443 0.0060641 0.9997443 0.0060641 0.0002557 -0.0060641
202169 0.0002466 -0.0058030 0.9997534 0.0058030 0.9997534 0.0058030 0.0002466 -0.0058030
211427 0.0002380 -0.0055533 0.9997620 0.0055533 0.9997620 0.0055533 0.0002380 -0.0055533
221108 0.0002296 -0.0053143 0.9997704 0.0053143 0.9997704 0.0053143 0.0002296 -0.0053143
231233 0.0002217 -0.0050857 0.9997783 0.0050857 0.9997783 0.0050857 0.0002217 -0.0050857
241822 0.0002140 -0.0048670 0.9997860 0.0048670 0.9997860 0.0048670 0.0002140 -0.0048670
252896 0.0002067 -0.0046577 0.9997933 0.0046577 0.9997933 0.0046577 0.0002067 -0.0046577
264476 0.0001996 -0.0044574 0.9998004 0.0044574 0.9998004 0.0044574 0.0001996 -0.0044574
276587 0.0001927 -0.0042657 0.9998073 0.0042657 0.9998073 0.0042657 0.0001927 -0.0042657
289253 0.0001861 -0.0040822 0.9998139 0.0040822 0.9998139 0.0040822 0.0001861 -0.0040822
302498 0.0001797 -0.0039065 0.9998203 0.0039065 0.9998203 0.0039065 0.0001797 -0.0039065
316350 0.0001735 -0.0037384 0.9998265 0.0037384 0.9998265 0.0037384 0.0001735 -0.0037384
330837 0.0001675 -0.0035774 0.9998325 0.0035774 0.9998325 0.0035774 0.0001675 -0.0035774
345986 0.0001618 -0.0034232 0.9998382 0.0034232 0.9998382 0.0034232 0.0001618 -0.0034232
361830 0.0001562 -0.0032756 0.9998438 0.0032756 0.9998438 0.0032756 0.0001562 -0.0032756
378399 0.0001508 -0.0031342 0.9998492 0.0031342 0.9998492 0.0031342 0.0001508 -0.0031342
395726 0.0001456 -0.0029988 0.9998544 0.0029988 0.9998544 0.0029988 0.0001456 -0.0029988
413847 0.0001406 -0.0028690 0.9998594 0.0028690 0.9998594 0.0028690 0.0001406 -0.0028690
432798 0.0001358 -0.0027447 0.9998642 0.0027447 0.9998642 0.0027447 0.0001358 -0.0027447
452617 0.0001312 -0.0026256 0.9998688 0.0026256 0.9998688 0.0026256 0.0001312 -0.0026256
473344 0.0001268 -0.0025115 0.9998732 0.0025115 0.9998732 0.0025115 0.0001268 -0.0025115
495019 0.0001226 -0.0024021 0.9998774 0.0024021 0.9998774 0.0024021 0.0001226 -0.0024021
517687 0.0001186 -0.0022973 0.9998814 0.0022973 0.9998814 0.0022973 0.0001186 -0.0022973
541393 0.0001148 -0.0021968 0.9998852 0.0021968 0.9998852 0.0021968 0.0001148 -0.0021968
566185 0.0001111 -0.0021005 0.9998889 0.0021005 0.9998889 0.0021005 0.0001111 -0.0021005
592111 0.0001077 -0.0020082 0.9998923 0.0020082 0.9998923 0.0020082 0.0001077 -0.0020082
619225 0.0001045 -0.0019197 0.9998955 0.0019197 0.9998955 0.0019197 0.0001045 -0.0019197
647581 0.0001014 -0.0018349 0.9998986 0.0018349 0.9998986 0.0018349 0.0001014 -0.0018349
677235 0.0000985 -0.0017536 0.9999015 0.0017536 0.9999015 0.0017536 0.0000985 -0.0017536
708247 0.0000958 -0.0016756 0.9999042 0.0016756 0.9999042 0.0016756 0.0000958 -0.0016756
740679 0.0000933 -0.0016008 0.9999067 0.0016008 0.9999067 0.0016008 0.0000933 -0.0016008
774597 0.0000909 -0.0015291 0.9999091 0.0015291 0.9999091 0.0015291 0.0000909 -0.0015291
810067 0.0000887 -0.0014604 0.9999113 0.0014604 0.9999113 0.0014604 0.0000887 -0.0014604
847162 0.0000866 -0.0013944 0.9999134 0.0013944 0.9999134 0.0013944 0.0000866 -0.0013944
885955 0.0000847 -0.0013312 0.9999153 0.0013312 0.9999153 0.0013312 0.0000847 -0.0013312
926525 0.0000829 -0.0012705 0.9999171 0.0012705 0.9999171 0.0012705 0.0000829 -0.0012705
968953 0.0000813 -0.0012123 0.9999187 0.0012123 0.9999187 0.0012123 0.0000813 -0.0012123
1013323 0.0000798 -0.0011564 0.9999202 0.0011564 0.9999202 0.0011564 0.0000798 -0.0011564
1059725 0.0000784 -0.0011028 0.9999216 0.0011028 0.9999216 0.0011028 0.0000784 -0.0011028
1108252 0.0000771 -0.0010514 0.9999229 0.0010514 0.9999229 0.0010514 0.0000771 -0.0010514
1159002 0.0000759 -0.0010019 0.9999241 0.0010019 0.9999241 0.0010019 0.0000759 -0.0010019
1212075 0.0000748 -0.0009545 0.9999252 0.0009545 0.9999252 0.0009545 0.0000748 -0.0009545
1267578 0.0000739 -0.0009089 0.9999261 0.0009089 0.9999261 0.0009089 0.0000739 -0.0009089
1325623 0.0000730 -0.0008651 0.9999270 0.0008651 0.9999270 0.0008651 0.0000730 -0.0008651
1386327 0.0000722 -0.0008230 0.9999278 0.0008230 0.9999278 0.0008230 0.0000722 -0.0008230
1449809 0.0000715 -0.0007825 0.9999285 0.0007825 0.9999285 0.0007825 0.0000715 -0.0007825
1516199 0.0000709 -0.0007436 0.9999291 0.0007436 0.9999291 0.0007436 0.0000709 -0.0007436
1585629 0.0000703 -0.0007061 0.9999297 0.0007061 0.9999297 0.0007061 0.0000703 -0.0007061
1658239 0.0000698 -0.0006700 0.9999302 0.0006700 0.9999302 0.0006700 0.0000698 -0.0006700
1734173 0.0000694 -0.0006353 0.9999306 0.0006353 0.9999306 0.0006353 0.0000694 -0.0006353
1813585 0.0000691 -0.0006018 0.9999309 0.0006018 0.9999309 0.0006018 0.0000691 -0.0006018
1896632 0.0000688 -0.0005695 0.9999312 0.0005695 0.9999312 0.0005695 0.0000688 -0.0005695
1983483 0.0000686 -0.0005383 0.9999314 0.0005383 0.9999314 0.0005383 0.0000686 -0.0005383
2074311 0.0000684 -0.0005082 0.9999316 0.0005082 0.9999316 0.0005082 0.0000684 -0.0005082
