!Murata Part Number: GRM188R11H152KA01
!These Parameters are Measured in Series Mode Connection
!Data Generated on Mar 30, 2021
!       o--ll--o
!Port1            Port2
!       o------o
!Operation Temp=25[degC], DC Bias Voltage=0[V]
!Freq. Start=100[Hz] Stop=6[GHz] 401[Steps]
# Hz S RI R 50
!Freq.(Hz) S11(Real) S11(Imag) S21(Real) S21(Imag) S12(Real) S12(Imag) S22(Real) S22(Imag)
100 0.9999995 -0.0000943 0.0000005 0.0000943 0.0000005 0.0000943 0.9999995 -0.0000943
105 0.9999995 -0.0000986 0.0000005 0.0000986 0.0000005 0.0000986 0.9999995 -0.0000986
109 0.9999995 -0.0001031 0.0000005 0.0001031 0.0000005 0.0001031 0.9999995 -0.0001031
114 0.9999994 -0.0001078 0.0000006 0.0001078 0.0000006 0.0001078 0.9999994 -0.0001078
120 0.9999994 -0.0001127 0.0000006 0.0001127 0.0000006 0.0001127 0.9999994 -0.0001127
125 0.9999994 -0.0001178 0.0000006 0.0001178 0.0000006 0.0001178 0.9999994 -0.0001178
131 0.9999994 -0.0001232 0.0000006 0.0001232 0.0000006 0.0001232 0.9999994 -0.0001232
137 0.9999993 -0.0001288 0.0000007 0.0001288 0.0000007 0.0001288 0.9999993 -0.0001288
143 0.9999993 -0.0001347 0.0000007 0.0001347 0.0000007 0.0001347 0.9999993 -0.0001347
150 0.9999993 -0.0001409 0.0000007 0.0001409 0.0000007 0.0001409 0.9999993 -0.0001409
156 0.9999993 -0.0001473 0.0000007 0.0001473 0.0000007 0.0001473 0.9999993 -0.0001473
164 0.9999992 -0.0001540 0.0000008 0.0001540 0.0000008 0.0001540 0.9999992 -0.0001540
171 0.9999992 -0.0001610 0.0000008 0.0001610 0.0000008 0.0001610 0.9999992 -0.0001610
179 0.9999992 -0.0001684 0.0000008 0.0001684 0.0000008 0.0001684 0.9999992 -0.0001684
187 0.9999991 -0.0001761 0.0000009 0.0001761 0.0000009 0.0001761 0.9999991 -0.0001761
196 0.9999991 -0.0001841 0.0000009 0.0001841 0.0000009 0.0001841 0.9999991 -0.0001841
205 0.9999991 -0.0001925 0.0000009 0.0001925 0.0000009 0.0001925 0.9999991 -0.0001925
214 0.9999990 -0.0002013 0.0000010 0.0002013 0.0000010 0.0002013 0.9999990 -0.0002013
224 0.9999990 -0.0002105 0.0000010 0.0002105 0.0000010 0.0002105 0.9999990 -0.0002105
234 0.9999989 -0.0002201 0.0000011 0.0002201 0.0000011 0.0002201 0.9999989 -0.0002201
245 0.9999989 -0.0002302 0.0000011 0.0002302 0.0000011 0.0002302 0.9999989 -0.0002302
256 0.9999988 -0.0002407 0.0000012 0.0002407 0.0000012 0.0002407 0.9999988 -0.0002407
268 0.9999988 -0.0002517 0.0000012 0.0002517 0.0000012 0.0002517 0.9999988 -0.0002517
280 0.9999987 -0.0002632 0.0000013 0.0002632 0.0000013 0.0002632 0.9999987 -0.0002632
293 0.9999987 -0.0002752 0.0000013 0.0002752 0.0000013 0.0002752 0.9999987 -0.0002752
306 0.9999986 -0.0002878 0.0000014 0.0002878 0.0000014 0.0002878 0.9999986 -0.0002878
320 0.9999985 -0.0003009 0.0000015 0.0003009 0.0000015 0.0003009 0.9999985 -0.0003009
335 0.9999985 -0.0003146 0.0000015 0.0003146 0.0000015 0.0003146 0.9999985 -0.0003146
350 0.9999984 -0.0003290 0.0000016 0.0003290 0.0000016 0.0003290 0.9999984 -0.0003290
366 0.9999983 -0.0003440 0.0000017 0.0003440 0.0000017 0.0003440 0.9999983 -0.0003440
383 0.9999982 -0.0003597 0.0000018 0.0003597 0.0000018 0.0003597 0.9999982 -0.0003597
401 0.9999981 -0.0003762 0.0000019 0.0003762 0.0000019 0.0003762 0.9999981 -0.0003762
419 0.9999980 -0.0003933 0.0000020 0.0003933 0.0000020 0.0003933 0.9999980 -0.0003933
438 0.9999979 -0.0004113 0.0000021 0.0004113 0.0000021 0.0004113 0.9999979 -0.0004113
458 0.9999978 -0.0004301 0.0000022 0.0004301 0.0000022 0.0004301 0.9999978 -0.0004301
479 0.9999977 -0.0004497 0.0000023 0.0004497 0.0000023 0.0004497 0.9999977 -0.0004497
501 0.9999976 -0.0004702 0.0000024 0.0004702 0.0000024 0.0004702 0.9999976 -0.0004702
524 0.9999975 -0.0004917 0.0000025 0.0004917 0.0000025 0.0004917 0.9999975 -0.0004917
548 0.9999974 -0.0005142 0.0000026 0.0005142 0.0000026 0.0005142 0.9999974 -0.0005142
573 0.9999972 -0.0005376 0.0000028 0.0005376 0.0000028 0.0005376 0.9999972 -0.0005376
600 0.9999971 -0.0005622 0.0000029 0.0005622 0.0000029 0.0005622 0.9999971 -0.0005622
627 0.9999969 -0.0005878 0.0000031 0.0005878 0.0000031 0.0005878 0.9999969 -0.0005878
656 0.9999968 -0.0006147 0.0000032 0.0006147 0.0000032 0.0006147 0.9999968 -0.0006147
686 0.9999966 -0.0006427 0.0000034 0.0006427 0.0000034 0.0006427 0.9999966 -0.0006427
717 0.9999964 -0.0006721 0.0000036 0.0006721 0.0000036 0.0006721 0.9999964 -0.0006721
750 0.9999963 -0.0007027 0.0000037 0.0007027 0.0000037 0.0007027 0.9999963 -0.0007027
784 0.9999961 -0.0007348 0.0000039 0.0007348 0.0000039 0.0007348 0.9999961 -0.0007348
820 0.9999959 -0.0007683 0.0000041 0.0007683 0.0000041 0.0007683 0.9999959 -0.0007683
858 0.9999957 -0.0008034 0.0000043 0.0008034 0.0000043 0.0008034 0.9999957 -0.0008034
897 0.9999955 -0.0008401 0.0000045 0.0008401 0.0000045 0.0008401 0.9999955 -0.0008401
938 0.9999952 -0.0008785 0.0000048 0.0008785 0.0000048 0.0008785 0.9999952 -0.0008785
981 0.9999950 -0.0009186 0.0000050 0.0009186 0.0000050 0.0009186 0.9999950 -0.0009186
1026 0.9999947 -0.0009605 0.0000053 0.0009605 0.0000053 0.0009605 0.9999947 -0.0009605
1073 0.9999945 -0.0010044 0.0000055 0.0010044 0.0000055 0.0010044 0.9999945 -0.0010044
1122 0.9999942 -0.0010502 0.0000058 0.0010502 0.0000058 0.0010502 0.9999942 -0.0010502
1174 0.9999939 -0.0010982 0.0000061 0.0010982 0.0000061 0.0010982 0.9999939 -0.0010982
1227 0.9999936 -0.0011483 0.0000064 0.0011483 0.0000064 0.0011483 0.9999936 -0.0011483
1283 0.9999932 -0.0012008 0.0000068 0.0012008 0.0000068 0.0012008 0.9999932 -0.0012008
1342 0.9999929 -0.0012556 0.0000071 0.0012556 0.0000071 0.0012556 0.9999929 -0.0012556
1404 0.9999925 -0.0013130 0.0000075 0.0013130 0.0000075 0.0013130 0.9999925 -0.0013130
1468 0.9999921 -0.0013730 0.0000079 0.0013730 0.0000079 0.0013730 0.9999921 -0.0013730
1535 0.9999916 -0.0014357 0.0000084 0.0014357 0.0000084 0.0014357 0.9999916 -0.0014357
1606 0.9999911 -0.0015013 0.0000089 0.0015013 0.0000089 0.0015013 0.9999911 -0.0015013
1679 0.9999906 -0.0015698 0.0000094 0.0015698 0.0000094 0.0015698 0.9999906 -0.0015698
1756 0.9999901 -0.0016416 0.0000099 0.0016416 0.0000099 0.0016416 0.9999901 -0.0016416
1836 0.9999895 -0.0017166 0.0000105 0.0017166 0.0000105 0.0017166 0.9999895 -0.0017166
1920 0.9999889 -0.0017950 0.0000111 0.0017950 0.0000111 0.0017950 0.9999889 -0.0017950
2008 0.9999882 -0.0018770 0.0000118 0.0018770 0.0000118 0.0018770 0.9999882 -0.0018770
2100 0.9999874 -0.0019627 0.0000126 0.0019627 0.0000126 0.0019627 0.9999874 -0.0019627
2196 0.9999866 -0.0020524 0.0000134 0.0020524 0.0000134 0.0020524 0.9999866 -0.0020524
2297 0.9999858 -0.0021462 0.0000142 0.0021462 0.0000142 0.0021462 0.9999858 -0.0021462
2402 0.9999848 -0.0022442 0.0000152 0.0022442 0.0000152 0.0022442 0.9999848 -0.0022442
2512 0.9999838 -0.0023467 0.0000162 0.0023467 0.0000162 0.0023467 0.9999838 -0.0023467
2627 0.9999827 -0.0024539 0.0000173 0.0024539 0.0000173 0.0024539 0.9999827 -0.0024539
2748 0.9999816 -0.0025660 0.0000184 0.0025660 0.0000184 0.0025660 0.9999816 -0.0025660
2873 0.9999803 -0.0026831 0.0000197 0.0026831 0.0000197 0.0026831 0.9999803 -0.0026831
3005 0.9999789 -0.0028057 0.0000211 0.0028057 0.0000211 0.0028057 0.9999789 -0.0028057
3143 0.9999775 -0.0029338 0.0000225 0.0029338 0.0000225 0.0029338 0.9999775 -0.0029338
3287 0.9999759 -0.0030677 0.0000241 0.0030677 0.0000241 0.0030677 0.9999759 -0.0030677
3437 0.9999742 -0.0032078 0.0000258 0.0032078 0.0000258 0.0032078 0.9999742 -0.0032078
3594 0.9999724 -0.0033542 0.0000276 0.0033542 0.0000276 0.0033542 0.9999724 -0.0033542
3759 0.9999704 -0.0035073 0.0000296 0.0035073 0.0000296 0.0035073 0.9999704 -0.0035073
3931 0.9999683 -0.0036674 0.0000317 0.0036674 0.0000317 0.0036674 0.9999683 -0.0036674
4111 0.9999661 -0.0038347 0.0000339 0.0038347 0.0000339 0.0038347 0.9999661 -0.0038347
4299 0.9999636 -0.0040097 0.0000364 0.0040097 0.0000364 0.0040097 0.9999636 -0.0040097
4496 0.9999610 -0.0041927 0.0000390 0.0041927 0.0000390 0.0041927 0.9999610 -0.0041927
4702 0.9999582 -0.0043840 0.0000418 0.0043840 0.0000418 0.0043840 0.9999582 -0.0043840
4918 0.9999552 -0.0045840 0.0000448 0.0045840 0.0000448 0.0045840 0.9999552 -0.0045840
5143 0.9999520 -0.0047931 0.0000480 0.0047931 0.0000480 0.0047931 0.9999520 -0.0047931
5378 0.9999486 -0.0050117 0.0000514 0.0050117 0.0000514 0.0050117 0.9999486 -0.0050117
5625 0.9999449 -0.0052403 0.0000551 0.0052403 0.0000551 0.0052403 0.9999449 -0.0052403
5882 0.9999409 -0.0054793 0.0000591 0.0054793 0.0000591 0.0054793 0.9999409 -0.0054793
6151 0.9999367 -0.0057292 0.0000633 0.0057292 0.0000633 0.0057292 0.9999367 -0.0057292
6433 0.9999321 -0.0059905 0.0000679 0.0059905 0.0000679 0.0059905 0.9999321 -0.0059905
6728 0.9999272 -0.0062637 0.0000728 0.0062637 0.0000728 0.0062637 0.9999272 -0.0062637
7036 0.9999219 -0.0065494 0.0000781 0.0065494 0.0000781 0.0065494 0.9999219 -0.0065494
7358 0.9999162 -0.0068481 0.0000838 0.0068481 0.0000838 0.0068481 0.9999162 -0.0068481
7695 0.9999101 -0.0071605 0.0000899 0.0071605 0.0000899 0.0071605 0.9999101 -0.0071605
8047 0.9999035 -0.0074871 0.0000965 0.0074871 0.0000965 0.0074871 0.9999035 -0.0074871
8416 0.9998964 -0.0078286 0.0001036 0.0078286 0.0001036 0.0078286 0.9998964 -0.0078286
8801 0.9998887 -0.0081857 0.0001113 0.0081857 0.0001113 0.0081857 0.9998887 -0.0081857
9204 0.9998805 -0.0085591 0.0001195 0.0085591 0.0001195 0.0085591 0.9998805 -0.0085591
9626 0.9998715 -0.0089495 0.0001285 0.0089495 0.0001285 0.0089495 0.9998715 -0.0089495
10066 0.9998618 -0.0093578 0.0001382 0.0093578 0.0001382 0.0093578 0.9998618 -0.0093578
10527 0.9998514 -0.0097847 0.0001486 0.0097847 0.0001486 0.0097847 0.9998514 -0.0097847
11009 0.9998400 -0.0102311 0.0001600 0.0102311 0.0001600 0.0102311 0.9998400 -0.0102311
11514 0.9998277 -0.0106979 0.0001723 0.0106979 0.0001723 0.0106979 0.9998277 -0.0106979
12041 0.9998143 -0.0111860 0.0001857 0.0111860 0.0001857 0.0111860 0.9998143 -0.0111860
12592 0.9997998 -0.0116964 0.0002002 0.0116964 0.0002002 0.0116964 0.9997998 -0.0116964
13169 0.9997841 -0.0122301 0.0002159 0.0122301 0.0002159 0.0122301 0.9997841 -0.0122301
13772 0.9997669 -0.0127882 0.0002331 0.0127882 0.0002331 0.0127882 0.9997669 -0.0127882
14402 0.9997483 -0.0133717 0.0002517 0.0133717 0.0002517 0.0133717 0.9997483 -0.0133717
15062 0.9997281 -0.0139818 0.0002719 0.0139818 0.0002719 0.0139818 0.9997281 -0.0139818
15752 0.9997060 -0.0146197 0.0002940 0.0146197 0.0002940 0.0146197 0.9997060 -0.0146197
16473 0.9996821 -0.0152867 0.0003179 0.0152867 0.0003179 0.0152867 0.9996821 -0.0152867
17227 0.9996560 -0.0159841 0.0003440 0.0159841 0.0003440 0.0159841 0.9996560 -0.0159841
18016 0.9996276 -0.0167133 0.0003724 0.0167133 0.0003724 0.0167133 0.9996276 -0.0167133
18841 0.9995966 -0.0174756 0.0004034 0.0174756 0.0004034 0.0174756 0.9995966 -0.0174756
19704 0.9995629 -0.0182727 0.0004371 0.0182727 0.0004371 0.0182727 0.9995629 -0.0182727
20606 0.9995263 -0.0191059 0.0004737 0.0191059 0.0004737 0.0191059 0.9995263 -0.0191059
21550 0.9994863 -0.0199771 0.0005137 0.0199771 0.0005137 0.0199771 0.9994863 -0.0199771
22537 0.9994429 -0.0208878 0.0005571 0.0208878 0.0005571 0.0208878 0.9994429 -0.0208878
23569 0.9993955 -0.0218399 0.0006045 0.0218399 0.0006045 0.0218399 0.9993955 -0.0218399
24648 0.9993440 -0.0228352 0.0006560 0.0228352 0.0006560 0.0228352 0.9993440 -0.0228352
25777 0.9992879 -0.0238757 0.0007121 0.0238757 0.0007121 0.0238757 0.9992879 -0.0238757
26957 0.9992268 -0.0249633 0.0007732 0.0249633 0.0007732 0.0249633 0.9992268 -0.0249633
28191 0.9991603 -0.0261002 0.0008397 0.0261002 0.0008397 0.0261002 0.9991603 -0.0261002
29482 0.9990879 -0.0272886 0.0009121 0.0272886 0.0009121 0.0272886 0.9990879 -0.0272886
30832 0.9990091 -0.0285308 0.0009909 0.0285308 0.0009909 0.0285308 0.9990091 -0.0285308
32244 0.9989234 -0.0298292 0.0010766 0.0298292 0.0010766 0.0298292 0.9989234 -0.0298292
33721 0.9988301 -0.0311863 0.0011699 0.0311863 0.0011699 0.0311863 0.9988301 -0.0311863
35265 0.9987286 -0.0326047 0.0012714 0.0326047 0.0012714 0.0326047 0.9987286 -0.0326047
36880 0.9986182 -0.0340871 0.0013818 0.0340871 0.0013818 0.0340871 0.9986182 -0.0340871
38569 0.9984980 -0.0356365 0.0015020 0.0356365 0.0015020 0.0356365 0.9984980 -0.0356365
40335 0.9983672 -0.0372557 0.0016328 0.0372557 0.0016328 0.0372557 0.9983672 -0.0372557
42182 0.9982248 -0.0389480 0.0017752 0.0389480 0.0017752 0.0389480 0.9982248 -0.0389480
44113 0.9980699 -0.0407164 0.0019301 0.0407164 0.0019301 0.0407164 0.9980699 -0.0407164
46134 0.9979014 -0.0425645 0.0020986 0.0425645 0.0020986 0.0425645 0.9979014 -0.0425645
48246 0.9977179 -0.0444957 0.0022821 0.0444957 0.0022821 0.0444957 0.9977179 -0.0444957
50455 0.9975181 -0.0465138 0.0024819 0.0465138 0.0024819 0.0465138 0.9975181 -0.0465138
52766 0.9973006 -0.0486224 0.0026994 0.0486224 0.0026994 0.0486224 0.9973006 -0.0486224
55182 0.9970639 -0.0508257 0.0029361 0.0508257 0.0029361 0.0508257 0.9970639 -0.0508257
57709 0.9968060 -0.0531277 0.0031940 0.0531277 0.0031940 0.0531277 0.9968060 -0.0531277
60352 0.9965251 -0.0555327 0.0034749 0.0555327 0.0034749 0.0555327 0.9965251 -0.0555327
63115 0.9962192 -0.0580452 0.0037808 0.0580452 0.0037808 0.0580452 0.9962192 -0.0580452
66005 0.9958858 -0.0606698 0.0041142 0.0606698 0.0041142 0.0606698 0.9958858 -0.0606698
69028 0.9955226 -0.0634112 0.0044774 0.0634112 0.0044774 0.0634112 0.9955226 -0.0634112
72189 0.9951267 -0.0662746 0.0048733 0.0662746 0.0048733 0.0662746 0.9951267 -0.0662746
75495 0.9946952 -0.0692648 0.0053048 0.0692648 0.0053048 0.0692648 0.9946952 -0.0692648
78952 0.9942248 -0.0723873 0.0057752 0.0723873 0.0057752 0.0723873 0.9942248 -0.0723873
82567 0.9937120 -0.0756476 0.0062880 0.0756476 0.0062880 0.0756476 0.9937120 -0.0756476
86348 0.9931529 -0.0790511 0.0068471 0.0790511 0.0068471 0.0790511 0.9931529 -0.0790511
90302 0.9925433 -0.0826037 0.0074567 0.0826037 0.0074567 0.0826037 0.9925433 -0.0826037
94437 0.9918786 -0.0863112 0.0081214 0.0863112 0.0081214 0.0863112 0.9918786 -0.0863112
98762 0.9911539 -0.0901798 0.0088461 0.0901798 0.0088461 0.0901798 0.9911539 -0.0901798
103284 0.9903636 -0.0942156 0.0096364 0.0942156 0.0096364 0.0942156 0.9903636 -0.0942156
108014 0.9895020 -0.0984248 0.0104980 0.0984248 0.0104980 0.0984248 0.9895020 -0.0984248
112960 0.9885626 -0.1028139 0.0114374 0.1028139 0.0114374 0.1028139 0.9885626 -0.1028139
118133 0.9875385 -0.1073894 0.0124615 0.1073894 0.0124615 0.1073894 0.9875385 -0.1073894
123542 0.9864223 -0.1121576 0.0135777 0.1121576 0.0135777 0.1121576 0.9864223 -0.1121576
129199 0.9852058 -0.1171253 0.0147942 0.1171253 0.0147942 0.1171253 0.9852058 -0.1171253
135116 0.9838803 -0.1222988 0.0161197 0.1222988 0.0161197 0.1222988 0.9838803 -0.1222988
141303 0.9824363 -0.1276847 0.0175637 0.1276847 0.0175637 0.1276847 0.9824363 -0.1276847
147774 0.9808637 -0.1332893 0.0191363 0.1332893 0.0191363 0.1332893 0.9808637 -0.1332893
154540 0.9791513 -0.1391190 0.0208487 0.1391190 0.0208487 0.1391190 0.9791513 -0.1391190
161617 0.9772875 -0.1451796 0.0227125 0.1451796 0.0227125 0.1451796 0.9772875 -0.1451796
169018 0.9752595 -0.1514771 0.0247405 0.1514771 0.0247405 0.1514771 0.9752595 -0.1514771
176758 0.9730537 -0.1580168 0.0269463 0.1580168 0.0269463 0.1580168 0.9730537 -0.1580168
184852 0.9706554 -0.1648038 0.0293446 0.1648038 0.0293446 0.1648038 0.9706554 -0.1648038
193316 0.9680492 -0.1718425 0.0319508 0.1718425 0.0319508 0.1718425 0.9680492 -0.1718425
202169 0.9652184 -0.1791369 0.0347816 0.1791369 0.0347816 0.1791369 0.9652184 -0.1791369
211427 0.9621454 -0.1866900 0.0378546 0.1866900 0.0378546 0.1866900 0.9621454 -0.1866900
221108 0.9588112 -0.1945041 0.0411888 0.1945041 0.0411888 0.1945041 0.9588112 -0.1945041
231233 0.9551960 -0.2025804 0.0448040 0.2025804 0.0448040 0.2025804 0.9551960 -0.2025804
241822 0.9512789 -0.2109191 0.0487211 0.2109191 0.0487211 0.2109191 0.9512789 -0.2109191
252896 0.9470378 -0.2195190 0.0529622 0.2195190 0.0529622 0.2195190 0.9470378 -0.2195190
264476 0.9424493 -0.2283773 0.0575507 0.2283773 0.0575507 0.2283773 0.9424493 -0.2283773
276587 0.9374894 -0.2374895 0.0625106 0.2374895 0.0625106 0.2374895 0.9374894 -0.2374895
289253 0.9321328 -0.2468493 0.0678672 0.2468493 0.0678672 0.2468493 0.9321328 -0.2468493
302498 0.9263535 -0.2564484 0.0736465 0.2564484 0.0736465 0.2564484 0.9263535 -0.2564484
316350 0.9201245 -0.2662758 0.0798755 0.2662758 0.0798755 0.2662758 0.9201245 -0.2662758
330837 0.9134184 -0.2763183 0.0865816 0.2763183 0.0865816 0.2763183 0.9134184 -0.2763183
345986 0.9062074 -0.2865596 0.0937926 0.2865596 0.0937926 0.2865596 0.9062074 -0.2865596
361830 0.8984632 -0.2969806 0.1015368 0.2969806 0.1015368 0.2969806 0.8984632 -0.2969806
378399 0.8901580 -0.3075588 0.1098420 0.3075588 0.1098420 0.3075588 0.8901580 -0.3075588
395726 0.8812639 -0.3182684 0.1187361 0.3182684 0.1187361 0.3182684 0.8812639 -0.3182684
413847 0.8717541 -0.3290796 0.1282459 0.3290796 0.1282459 0.3290796 0.8717541 -0.3290796
432798 0.8616029 -0.3399592 0.1383971 0.3399592 0.1383971 0.3399592 0.8616029 -0.3399592
452617 0.8507861 -0.3508698 0.1492139 0.3508698 0.1492139 0.3508698 0.8507861 -0.3508698
473344 0.8392819 -0.3617701 0.1607181 0.3617701 0.1607181 0.3617701 0.8392819 -0.3617701
495019 0.8270711 -0.3726149 0.1729289 0.3726149 0.1729289 0.3726149 0.8270711 -0.3726149
517687 0.8141379 -0.3833550 0.1858621 0.3833550 0.1858621 0.3833550 0.8141379 -0.3833550
541393 0.8004704 -0.3939375 0.1995296 0.3939375 0.1995296 0.3939375 0.8004704 -0.3939375
566185 0.7860613 -0.4043061 0.2139387 0.4043061 0.2139387 0.4043061 0.7860613 -0.4043061
592111 0.7709087 -0.4144014 0.2290913 0.4144014 0.2290913 0.4144014 0.7709087 -0.4144014
619225 0.7550164 -0.4241615 0.2449836 0.4241615 0.2449836 0.4241615 0.7550164 -0.4241615
647581 0.7383949 -0.4335227 0.2616051 0.4335227 0.2616051 0.4335227 0.7383949 -0.4335227
677235 0.7210615 -0.4424199 0.2789385 0.4424199 0.2789385 0.4424199 0.7210615 -0.4424199
708247 0.7030408 -0.4507880 0.2969592 0.4507880 0.2969592 0.4507880 0.7030408 -0.4507880
740679 0.6843653 -0.4585625 0.3156347 0.4585625 0.3156347 0.4585625 0.6843653 -0.4585625
774597 0.6650751 -0.4656807 0.3349249 0.4656807 0.3349249 0.4656807 0.6650751 -0.4656807
810067 0.6452180 -0.4720826 0.3547820 0.4720826 0.3547820 0.4720826 0.6452180 -0.4720826
847162 0.6248494 -0.4777126 0.3751506 0.4777126 0.3751506 0.4777126 0.6248494 -0.4777126
885955 0.6040320 -0.4825199 0.3959680 0.4825199 0.3959680 0.4825199 0.6040320 -0.4825199
926525 0.5828346 -0.4864600 0.4171654 0.4864600 0.4171654 0.4864600 0.5828346 -0.4864600
968953 0.5613319 -0.4894957 0.4386681 0.4894957 0.4386681 0.4894957 0.5613319 -0.4894957
1013323 0.5396032 -0.4915978 0.4603968 0.4915978 0.4603968 0.4915978 0.5396032 -0.4915978
1059725 0.5177312 -0.4927460 0.4822688 0.4927460 0.4822688 0.4927460 0.5177312 -0.4927460
1108252 0.4958012 -0.4929291 0.5041988 0.4929291 0.5041988 0.4929291 0.4958012 -0.4929291
1159002 0.4738991 -0.4921453 0.5261009 0.4921453 0.5261009 0.4921453 0.4738991 -0.4921453
1212075 0.4521105 -0.4904028 0.5478895 0.4904028 0.5478895 0.4904028 0.4521105 -0.4904028
1267578 0.4305191 -0.4877187 0.5694809 0.4877187 0.5694809 0.4877187 0.4305191 -0.4877187
1325623 0.4092056 -0.4841194 0.5907944 0.4841194 0.5907944 0.4841194 0.4092056 -0.4841194
1386327 0.3882464 -0.4796395 0.6117536 0.4796395 0.6117536 0.4796395 0.3882464 -0.4796395
1449809 0.3677126 -0.4743212 0.6322874 0.4743212 0.6322874 0.4743212 0.3677126 -0.4743212
1516199 0.3476688 -0.4682132 0.6523312 0.4682132 0.6523312 0.4682132 0.3476688 -0.4682132
1585629 0.3281731 -0.4613699 0.6718269 0.4613699 0.6718269 0.4613699 0.3281731 -0.4613699
1658239 0.3092759 -0.4538500 0.6907241 0.4538500 0.6907241 0.4538500 0.3092759 -0.4538500
1734173 0.2910199 -0.4457155 0.7089801 0.4457155 0.7089801 0.4457155 0.2910199 -0.4457155
1813585 0.2734399 -0.4370305 0.7265601 0.4370305 0.7265601 0.4370305 0.2734399 -0.4370305
1896632 0.2565632 -0.4278603 0.7434368 0.4278603 0.7434368 0.4278603 0.2565632 -0.4278603
1983483 0.2404093 -0.4182700 0.7595907 0.4182700 0.7595907 0.4182700 0.2404093 -0.4182700
2074311 0.2249907 -0.4083241 0.7750093 0.4083241 0.7750093 0.4083241 0.2249907 -0.4083241
