!Murata Part Number: GRM188B31C474MA75
!These Parameters are Measured in Series Mode Connection
!Data Generated on Mar 30, 2021
!       o--ll--o
!Port1            Port2
!       o------o
!Operation Temp=25[degC], DC Bias Voltage=0[V]
!Freq. Start=100[Hz] Stop=6[GHz] 401[Steps]
# Hz S RI R 50
!Freq.(Hz) S11(Real) S11(Imag) S21(Real) S21(Imag) S12(Real) S12(Imag) S22(Real) S22(Imag)
100 0.9990405 -0.0283244 0.0009595 0.0283244 0.0009595 0.0283244 0.9990405 -0.0283244
105 0.9989587 -0.0296143 0.0010413 0.0296143 0.0010413 0.0296143 0.9989587 -0.0296143
109 0.9988696 -0.0309628 0.0011304 0.0309628 0.0011304 0.0309628 0.9988696 -0.0309628
114 0.9987725 -0.0323724 0.0012275 0.0323724 0.0012275 0.0323724 0.9987725 -0.0323724
120 0.9986666 -0.0338459 0.0013334 0.0338459 0.0013334 0.0338459 0.9986666 -0.0338459
125 0.9985512 -0.0353862 0.0014488 0.0353862 0.0014488 0.0353862 0.9985512 -0.0353862
131 0.9984254 -0.0369961 0.0015746 0.0369961 0.0015746 0.0369961 0.9984254 -0.0369961
137 0.9982882 -0.0386788 0.0017118 0.0386788 0.0017118 0.0386788 0.9982882 -0.0386788
143 0.9981386 -0.0404375 0.0018614 0.0404375 0.0018614 0.0404375 0.9981386 -0.0404375
150 0.9979754 -0.0422755 0.0020246 0.0422755 0.0020246 0.0422755 0.9979754 -0.0422755
156 0.9977976 -0.0441963 0.0022024 0.0441963 0.0022024 0.0441963 0.9977976 -0.0441963
164 0.9976036 -0.0462036 0.0023964 0.0462036 0.0023964 0.0462036 0.9976036 -0.0462036
171 0.9973922 -0.0483010 0.0026078 0.0483010 0.0026078 0.0483010 0.9973922 -0.0483010
179 0.9971616 -0.0504926 0.0028384 0.0504926 0.0028384 0.0504926 0.9971616 -0.0504926
187 0.9969102 -0.0527823 0.0030898 0.0527823 0.0030898 0.0527823 0.9969102 -0.0527823
196 0.9966362 -0.0551745 0.0033638 0.0551745 0.0033638 0.0551745 0.9966362 -0.0551745
205 0.9963374 -0.0576736 0.0036626 0.0576736 0.0036626 0.0576736 0.9963374 -0.0576736
214 0.9960116 -0.0602840 0.0039884 0.0602840 0.0039884 0.0602840 0.9960116 -0.0602840
224 0.9956565 -0.0630106 0.0043435 0.0630106 0.0043435 0.0630106 0.9956565 -0.0630106
234 0.9952694 -0.0658583 0.0047306 0.0658583 0.0047306 0.0658583 0.9952694 -0.0658583
245 0.9948474 -0.0688321 0.0051526 0.0688321 0.0051526 0.0688321 0.9948474 -0.0688321
256 0.9943873 -0.0719373 0.0056127 0.0719373 0.0056127 0.0719373 0.9943873 -0.0719373
268 0.9938858 -0.0751794 0.0061142 0.0751794 0.0061142 0.0751794 0.9938858 -0.0751794
280 0.9933391 -0.0785638 0.0066609 0.0785638 0.0066609 0.0785638 0.9933391 -0.0785638
293 0.9927432 -0.0820965 0.0072568 0.0820965 0.0072568 0.0820965 0.9927432 -0.0820965
306 0.9920936 -0.0857833 0.0079064 0.0857833 0.0079064 0.0857833 0.9920936 -0.0857833
320 0.9913855 -0.0896304 0.0086145 0.0896304 0.0086145 0.0896304 0.9913855 -0.0896304
335 0.9906137 -0.0936439 0.0093863 0.0936439 0.0093863 0.0936439 0.9906137 -0.0936439
350 0.9897725 -0.0978302 0.0102275 0.0978302 0.0102275 0.0978302 0.9897725 -0.0978302
366 0.9888556 -0.1021959 0.0111444 0.1021959 0.0111444 0.1021959 0.9888556 -0.1021959
383 0.9878564 -0.1067474 0.0121436 0.1067474 0.0121436 0.1067474 0.9878564 -0.1067474
401 0.9867676 -0.1114914 0.0132324 0.1114914 0.0132324 0.1114914 0.9867676 -0.1114914
419 0.9855811 -0.1164347 0.0144189 0.1164347 0.0144189 0.1164347 0.9855811 -0.1164347
438 0.9842886 -0.1215839 0.0157114 0.1215839 0.0157114 0.1215839 0.9842886 -0.1215839
458 0.9828807 -0.1269458 0.0171193 0.1269458 0.0171193 0.1269458 0.9828807 -0.1269458
479 0.9813473 -0.1325269 0.0186527 0.1325269 0.0186527 0.1325269 0.9813473 -0.1325269
501 0.9796777 -0.1383338 0.0203223 0.1383338 0.0203223 0.1383338 0.9796777 -0.1383338
524 0.9778601 -0.1443728 0.0221399 0.1443728 0.0221399 0.1443728 0.9778601 -0.1443728
548 0.9758821 -0.1506501 0.0241179 0.1506501 0.0241179 0.1506501 0.9758821 -0.1506501
573 0.9737302 -0.1571714 0.0262698 0.1571714 0.0262698 0.1571714 0.9737302 -0.1571714
600 0.9713898 -0.1639422 0.0286102 0.1639422 0.0286102 0.1639422 0.9713898 -0.1639422
627 0.9688454 -0.1709673 0.0311546 0.1709673 0.0311546 0.1709673 0.9688454 -0.1709673
656 0.9660806 -0.1782511 0.0339194 0.1782511 0.0339194 0.1782511 0.9660806 -0.1782511
686 0.9630776 -0.1857973 0.0369224 0.1857973 0.0369224 0.1857973 0.9630776 -0.1857973
717 0.9598175 -0.1936086 0.0401825 0.1936086 0.0401825 0.1936086 0.9598175 -0.1936086
750 0.9562805 -0.2016868 0.0437195 0.2016868 0.0437195 0.2016868 0.9562805 -0.2016868
784 0.9524454 -0.2100327 0.0475546 0.2100327 0.0475546 0.2100327 0.9524454 -0.2100327
820 0.9482899 -0.2186455 0.0517101 0.2186455 0.0517101 0.2186455 0.9482899 -0.2186455
858 0.9437906 -0.2275233 0.0562094 0.2275233 0.0562094 0.2275233 0.9437906 -0.2275233
897 0.9389229 -0.2366621 0.0610771 0.2366621 0.0610771 0.2366621 0.9389229 -0.2366621
938 0.9336613 -0.2460562 0.0663387 0.2460562 0.0663387 0.2460562 0.9336613 -0.2460562
981 0.9279791 -0.2556979 0.0720209 0.2556979 0.0720209 0.2556979 0.9279791 -0.2556979
1026 0.9218490 -0.2655770 0.0781510 0.2655770 0.0781510 0.2655770 0.9218490 -0.2655770
1073 0.9152428 -0.2756808 0.0847572 0.2756808 0.0847572 0.2756808 0.9152428 -0.2756808
1122 0.9081319 -0.2859935 0.0918681 0.2859935 0.0918681 0.2859935 0.9081319 -0.2859935
1174 0.9004874 -0.2964965 0.0995126 0.2964965 0.0995126 0.2964965 0.9004874 -0.2964965
1227 0.8922804 -0.3071679 0.1077196 0.3071679 0.1077196 0.3071679 0.8922804 -0.3071679
1283 0.8834820 -0.3179821 0.1165180 0.3179821 0.1165180 0.3179821 0.8834820 -0.3179821
1342 0.8740644 -0.3289097 0.1259356 0.3289097 0.1259356 0.3289097 0.8740644 -0.3289097
1404 0.8640007 -0.3399177 0.1359993 0.3399177 0.1359993 0.3399177 0.8640007 -0.3399177
1468 0.8532656 -0.3509688 0.1467344 0.3509688 0.1467344 0.3509688 0.8532656 -0.3509688
1535 0.8418358 -0.3620217 0.1581642 0.3620217 0.1581642 0.3620217 0.8418358 -0.3620217
1606 0.8296909 -0.3730309 0.1703091 0.3730309 0.1703091 0.3730309 0.8296909 -0.3730309
1679 0.8168136 -0.3839469 0.1831864 0.3839469 0.1831864 0.3839469 0.8168136 -0.3839469
1756 0.8031907 -0.3947164 0.1968093 0.3947164 0.1968093 0.3947164 0.8031907 -0.3947164
1836 0.7888136 -0.4052825 0.2111864 0.4052825 0.2111864 0.4052825 0.7888136 -0.4052825
1920 0.7736789 -0.4155848 0.2263211 0.4155848 0.2263211 0.4155848 0.7736789 -0.4155848
2008 0.7577892 -0.4255606 0.2422108 0.4255606 0.2422108 0.4255606 0.7577892 -0.4255606
2100 0.7411536 -0.4351448 0.2588464 0.4351448 0.2588464 0.4351448 0.7411536 -0.4351448
2196 0.7237883 -0.4442711 0.2762117 0.4442711 0.2762117 0.4442711 0.7237883 -0.4442711
2297 0.7057169 -0.4528728 0.2942831 0.4528728 0.2942831 0.4528728 0.7057169 -0.4528728
2402 0.6869709 -0.4608835 0.3130291 0.4608835 0.3130291 0.4608835 0.6869709 -0.4608835
2512 0.6675896 -0.4682388 0.3324104 0.4682388 0.3324104 0.4682388 0.6675896 -0.4682388
2627 0.6476206 -0.4748767 0.3523794 0.4748767 0.3523794 0.4748767 0.6476206 -0.4748767
2748 0.6271188 -0.4807392 0.3728812 0.4807392 0.3728812 0.4807392 0.6271188 -0.4807392
2873 0.6061469 -0.4857734 0.3938531 0.4857734 0.3938531 0.4857734 0.6061469 -0.4857734
3005 0.5847740 -0.4899326 0.4152260 0.4899326 0.4152260 0.4899326 0.5847740 -0.4899326
3143 0.5630755 -0.4931772 0.4369245 0.4931772 0.4369245 0.4931772 0.5630755 -0.4931772
3287 0.5411314 -0.4954757 0.4588686 0.4954757 0.4588686 0.4954757 0.5411314 -0.4954757
3437 0.5190258 -0.4968057 0.4809742 0.4968057 0.4809742 0.4968057 0.5190258 -0.4968057
3594 0.4968452 -0.4971539 0.5031548 0.4971539 0.5031548 0.4971539 0.4968452 -0.4971539
3759 0.4746775 -0.4965167 0.5253225 0.4965167 0.5253225 0.4965167 0.4746775 -0.4965167
3931 0.4526101 -0.4949006 0.5473899 0.4949006 0.5473899 0.4949006 0.4526101 -0.4949006
4111 0.4307291 -0.4923213 0.5692709 0.4923213 0.5692709 0.4923213 0.4307291 -0.4923213
4299 0.4091176 -0.4888042 0.5908824 0.4888042 0.5908824 0.4888042 0.4091176 -0.4888042
4496 0.3878545 -0.4843830 0.6121455 0.4843830 0.6121455 0.4843830 0.3878545 -0.4843830
4702 0.3670134 -0.4790996 0.6329866 0.4790996 0.6329866 0.4790996 0.3670134 -0.4790996
4918 0.3466617 -0.4730025 0.6533383 0.4730025 0.6533383 0.4730025 0.3466617 -0.4730025
5143 0.3268599 -0.4661465 0.6731401 0.4661465 0.6731401 0.4661465 0.3268599 -0.4661465
5378 0.3076611 -0.4585907 0.6923389 0.4585907 0.6923389 0.4585907 0.3076611 -0.4585907
5625 0.2891102 -0.4503981 0.7108898 0.4503981 0.7108898 0.4503981 0.2891102 -0.4503981
5882 0.2712445 -0.4416339 0.7287555 0.4416339 0.7287555 0.4416339 0.2712445 -0.4416339
6151 0.2540931 -0.4323648 0.7459069 0.4323648 0.7459069 0.4323648 0.2540931 -0.4323648
6433 0.2376773 -0.4226577 0.7623227 0.4226577 0.7623227 0.4226577 0.2376773 -0.4226577
6728 0.2220113 -0.4125786 0.7779887 0.4125786 0.7779887 0.4125786 0.2220113 -0.4125786
7036 0.2071020 -0.4021921 0.7928980 0.4021921 0.7928980 0.4021921 0.2071020 -0.4021921
7358 0.1929501 -0.3915604 0.8070499 0.3915604 0.8070499 0.3915604 0.1929501 -0.3915604
7695 0.1795506 -0.3807429 0.8204494 0.3807429 0.8204494 0.3807429 0.1795506 -0.3807429
8047 0.1668933 -0.3697956 0.8331067 0.3697956 0.8331067 0.3697956 0.1668933 -0.3697956
8416 0.1549635 -0.3587707 0.8450365 0.3587707 0.8450365 0.3587707 0.1549635 -0.3587707
8801 0.1437430 -0.3477166 0.8562570 0.3477166 0.8562570 0.3477166 0.1437430 -0.3477166
9204 0.1332102 -0.3366774 0.8667898 0.3366774 0.8667898 0.3366774 0.1332102 -0.3366774
9626 0.1233411 -0.3256931 0.8766589 0.3256931 0.8766589 0.3256931 0.1233411 -0.3256931
10066 0.1141098 -0.3147998 0.8858902 0.3147998 0.8858902 0.3147998 0.1141098 -0.3147998
10527 0.1054891 -0.3040294 0.8945109 0.3040294 0.8945109 0.3040294 0.1054891 -0.3040294
11009 0.0974505 -0.2934098 0.9025495 0.2934098 0.9025495 0.2934098 0.0974505 -0.2934098
11514 0.0899653 -0.2829655 0.9100347 0.2829655 0.9100347 0.2829655 0.0899653 -0.2829655
12041 0.0830045 -0.2727173 0.9169955 0.2727173 0.9169955 0.2727173 0.0830045 -0.2727173
12592 0.0765393 -0.2626829 0.9234607 0.2626829 0.9234607 0.2626829 0.0765393 -0.2626829
13169 0.0705411 -0.2528768 0.9294589 0.2528768 0.9294589 0.2528768 0.0705411 -0.2528768
13772 0.0649821 -0.2433110 0.9350179 0.2433110 0.9350179 0.2433110 0.0649821 -0.2433110
14402 0.0598353 -0.2339949 0.9401647 0.2339949 0.9401647 0.2339949 0.0598353 -0.2339949
15062 0.0550743 -0.2249355 0.9449257 0.2249355 0.9449257 0.2249355 0.0550743 -0.2249355
15752 0.0506740 -0.2161379 0.9493260 0.2161379 0.9493260 0.2161379 0.0506740 -0.2161379
16473 0.0466104 -0.2076054 0.9533896 0.2076054 0.9533896 0.2076054 0.0466104 -0.2076054
17227 0.0428603 -0.1993395 0.9571397 0.1993395 0.9571397 0.1993395 0.0428603 -0.1993395
18016 0.0394019 -0.1913406 0.9605981 0.1913406 0.9605981 0.1913406 0.0394019 -0.1913406
18841 0.0362145 -0.1836075 0.9637855 0.1836075 0.9637855 0.1836075 0.0362145 -0.1836075
19704 0.0332787 -0.1761383 0.9667213 0.1761383 0.9667213 0.1761383 0.0332787 -0.1761383
20606 0.0305760 -0.1689299 0.9694240 0.1689299 0.9694240 0.1689299 0.0305760 -0.1689299
21550 0.0280891 -0.1619785 0.9719109 0.1619785 0.9719109 0.1619785 0.0280891 -0.1619785
22537 0.0258018 -0.1552796 0.9741982 0.1552796 0.9741982 0.1552796 0.0258018 -0.1552796
23569 0.0236991 -0.1488283 0.9763009 0.1488283 0.9763009 0.1488283 0.0236991 -0.1488283
24648 0.0217667 -0.1426191 0.9782333 0.1426191 0.9782333 0.1426191 0.0217667 -0.1426191
25777 0.0199914 -0.1366462 0.9800086 0.1366462 0.9800086 0.1366462 0.0199914 -0.1366462
26957 0.0183610 -0.1309034 0.9816390 0.1309034 0.9816390 0.1309034 0.0183610 -0.1309034
28191 0.0168642 -0.1253844 0.9831358 0.1253844 0.9831358 0.1253844 0.0168642 -0.1253844
29482 0.0154902 -0.1200827 0.9845098 0.1200827 0.9845098 0.1200827 0.0154902 -0.1200827
30832 0.0142293 -0.1149919 0.9857707 0.1149919 0.9857707 0.1149919 0.0142293 -0.1149919
32244 0.0130724 -0.1101052 0.9869276 0.1101052 0.9869276 0.1101052 0.0130724 -0.1101052
33721 0.0120111 -0.1054159 0.9879889 0.1054159 0.9879889 0.1054159 0.0120111 -0.1054159
35265 0.0110376 -0.1009175 0.9889624 0.1009175 0.9889624 0.1009175 0.0110376 -0.1009175
36880 0.0101447 -0.0966034 0.9898553 0.0966034 0.9898553 0.0966034 0.0101447 -0.0966034
38569 0.0093259 -0.0924670 0.9906741 0.0924670 0.9906741 0.0924670 0.0093259 -0.0924670
40335 0.0085750 -0.0885020 0.9914250 0.0885020 0.9914250 0.0885020 0.0085750 -0.0885020
42182 0.0078863 -0.0847019 0.9921137 0.0847019 0.9921137 0.0847019 0.0078863 -0.0847019
44113 0.0072548 -0.0810608 0.9927452 0.0810608 0.9927452 0.0810608 0.0072548 -0.0810608
46134 0.0066756 -0.0775725 0.9933244 0.0775725 0.9933244 0.0775725 0.0066756 -0.0775725
48246 0.0061443 -0.0742311 0.9938557 0.0742311 0.9938557 0.0742311 0.0061443 -0.0742311
50455 0.0056570 -0.0710309 0.9943430 0.0710309 0.9943430 0.0710309 0.0056570 -0.0710309
52766 0.0052100 -0.0679663 0.9947900 0.0679663 0.9947900 0.0679663 0.0052100 -0.0679663
55182 0.0047998 -0.0650319 0.9952002 0.0650319 0.9952002 0.0650319 0.0047998 -0.0650319
57709 0.0044233 -0.0622225 0.9955767 0.0622225 0.9955767 0.0622225 0.0044233 -0.0622225
60352 0.0040778 -0.0595329 0.9959222 0.0595329 0.9959222 0.0595329 0.0040778 -0.0595329
63115 0.0037605 -0.0569583 0.9962395 0.0569583 0.9962395 0.0569583 0.0037605 -0.0569583
66005 0.0034691 -0.0544940 0.9965309 0.0544940 0.9965309 0.0544940 0.0034691 -0.0544940
69028 0.0032015 -0.0521352 0.9967985 0.0521352 0.9967985 0.0521352 0.0032015 -0.0521352
72189 0.0029555 -0.0498777 0.9970445 0.0498777 0.9970445 0.0498777 0.0029555 -0.0498777
75495 0.0027295 -0.0477172 0.9972705 0.0477172 0.9972705 0.0477172 0.0027295 -0.0477172
78952 0.0025217 -0.0456496 0.9974783 0.0456496 0.9974783 0.0456496 0.0025217 -0.0456496
82567 0.0023305 -0.0436710 0.9976695 0.0436710 0.9976695 0.0436710 0.0023305 -0.0436710
86348 0.0021547 -0.0417776 0.9978453 0.0417776 0.9978453 0.0417776 0.0021547 -0.0417776
90302 0.0019930 -0.0399657 0.9980070 0.0399657 0.9980070 0.0399657 0.0019930 -0.0399657
94437 0.0018441 -0.0382319 0.9981559 0.0382319 0.9981559 0.0382319 0.0018441 -0.0382319
98762 0.0017070 -0.0365729 0.9982930 0.0365729 0.9982930 0.0365729 0.0017070 -0.0365729
103284 0.0015809 -0.0349854 0.9984191 0.0349854 0.9984191 0.0349854 0.0015809 -0.0349854
108014 0.0014647 -0.0334665 0.9985353 0.0334665 0.9985353 0.0334665 0.0014647 -0.0334665
112960 0.0013576 -0.0320131 0.9986424 0.0320131 0.9986424 0.0320131 0.0013576 -0.0320131
118133 0.0012591 -0.0306224 0.9987409 0.0306224 0.9987409 0.0306224 0.0012591 -0.0306224
123542 0.0011683 -0.0292918 0.9988317 0.0292918 0.9988317 0.0292918 0.0011683 -0.0292918
129199 0.0010846 -0.0280186 0.9989154 0.0280186 0.9989154 0.0280186 0.0010846 -0.0280186
135116 0.0010076 -0.0268005 0.9989924 0.0268005 0.9989924 0.0268005 0.0010076 -0.0268005
141303 0.0009366 -0.0256350 0.9990634 0.0256350 0.9990634 0.0256350 0.0009366 -0.0256350
147774 0.0008712 -0.0245199 0.9991288 0.0245199 0.9991288 0.0245199 0.0008712 -0.0245199
154540 0.0008110 -0.0234531 0.9991890 0.0234531 0.9991890 0.0234531 0.0008110 -0.0234531
161617 0.0007555 -0.0224324 0.9992445 0.0224324 0.9992445 0.0224324 0.0007555 -0.0224324
169018 0.0007045 -0.0214559 0.9992955 0.0214559 0.9992955 0.0214559 0.0007045 -0.0214559
176758 0.0006574 -0.0205217 0.9993426 0.0205217 0.9993426 0.0205217 0.0006574 -0.0205217
184852 0.0006141 -0.0196279 0.9993859 0.0196279 0.9993859 0.0196279 0.0006141 -0.0196279
193316 0.0005742 -0.0187729 0.9994258 0.0187729 0.9994258 0.0187729 0.0005742 -0.0187729
202169 0.0005374 -0.0179550 0.9994626 0.0179550 0.9994626 0.0179550 0.0005374 -0.0179550
211427 0.0005036 -0.0171726 0.9994964 0.0171726 0.9994964 0.0171726 0.0005036 -0.0171726
221108 0.0004724 -0.0164241 0.9995276 0.0164241 0.9995276 0.0164241 0.0004724 -0.0164241
231233 0.0004437 -0.0157082 0.9995563 0.0157082 0.9995563 0.0157082 0.0004437 -0.0157082
241822 0.0004173 -0.0150233 0.9995827 0.0150233 0.9995827 0.0150233 0.0004173 -0.0150233
252896 0.0003929 -0.0143682 0.9996071 0.0143682 0.9996071 0.0143682 0.0003929 -0.0143682
264476 0.0003705 -0.0137416 0.9996295 0.0137416 0.9996295 0.0137416 0.0003705 -0.0137416
276587 0.0003498 -0.0131422 0.9996502 0.0131422 0.9996502 0.0131422 0.0003498 -0.0131422
289253 0.0003307 -0.0125689 0.9996693 0.0125689 0.9996693 0.0125689 0.0003307 -0.0125689
302498 0.0003130 -0.0120205 0.9996870 0.0120205 0.9996870 0.0120205 0.0003130 -0.0120205
316350 0.0002968 -0.0114960 0.9997032 0.0114960 0.9997032 0.0114960 0.0002968 -0.0114960
330837 0.0002817 -0.0109944 0.9997183 0.0109944 0.9997183 0.0109944 0.0002817 -0.0109944
345986 0.0002678 -0.0105145 0.9997322 0.0105145 0.9997322 0.0105145 0.0002678 -0.0105145
361830 0.0002549 -0.0100555 0.9997451 0.0100555 0.9997451 0.0100555 0.0002549 -0.0100555
378399 0.0002430 -0.0096166 0.9997570 0.0096166 0.9997570 0.0096166 0.0002430 -0.0096166
395726 0.0002319 -0.0091967 0.9997681 0.0091967 0.9997681 0.0091967 0.0002319 -0.0091967
413847 0.0002216 -0.0087950 0.9997784 0.0087950 0.9997784 0.0087950 0.0002216 -0.0087950
432798 0.0002121 -0.0084108 0.9997879 0.0084108 0.9997879 0.0084108 0.0002121 -0.0084108
452617 0.0002032 -0.0080434 0.9997968 0.0080434 0.9997968 0.0080434 0.0002032 -0.0080434
473344 0.0001949 -0.0076919 0.9998051 0.0076919 0.9998051 0.0076919 0.0001949 -0.0076919
495019 0.0001872 -0.0073556 0.9998128 0.0073556 0.9998128 0.0073556 0.0001872 -0.0073556
517687 0.0001799 -0.0070339 0.9998201 0.0070339 0.9998201 0.0070339 0.0001799 -0.0070339
541393 0.0001732 -0.0067262 0.9998268 0.0067262 0.9998268 0.0067262 0.0001732 -0.0067262
566185 0.0001668 -0.0064318 0.9998332 0.0064318 0.9998332 0.0064318 0.0001668 -0.0064318
592111 0.0001609 -0.0061501 0.9998391 0.0061501 0.9998391 0.0061501 0.0001609 -0.0061501
619225 0.0001553 -0.0058806 0.9998447 0.0058806 0.9998447 0.0058806 0.0001553 -0.0058806
647581 0.0001501 -0.0056228 0.9998499 0.0056228 0.9998499 0.0056228 0.0001501 -0.0056228
677235 0.0001452 -0.0053761 0.9998548 0.0053761 0.9998548 0.0053761 0.0001452 -0.0053761
708247 0.0001406 -0.0051400 0.9998594 0.0051400 0.9998594 0.0051400 0.0001406 -0.0051400
740679 0.0001363 -0.0049140 0.9998637 0.0049140 0.9998637 0.0049140 0.0001363 -0.0049140
774597 0.0001322 -0.0046978 0.9998678 0.0046978 0.9998678 0.0046978 0.0001322 -0.0046978
810067 0.0001284 -0.0044908 0.9998716 0.0044908 0.9998716 0.0044908 0.0001284 -0.0044908
847162 0.0001248 -0.0042928 0.9998752 0.0042928 0.9998752 0.0042928 0.0001248 -0.0042928
885955 0.0001214 -0.0041032 0.9998786 0.0041032 0.9998786 0.0041032 0.0001214 -0.0041032
926525 0.0001183 -0.0039217 0.9998817 0.0039217 0.9998817 0.0039217 0.0001183 -0.0039217
968953 0.0001153 -0.0037479 0.9998847 0.0037479 0.9998847 0.0037479 0.0001153 -0.0037479
1013323 0.0001125 -0.0035815 0.9998875 0.0035815 0.9998875 0.0035815 0.0001125 -0.0035815
1059725 0.0001099 -0.0034223 0.9998901 0.0034223 0.9998901 0.0034223 0.0001099 -0.0034223
1108252 0.0001075 -0.0032697 0.9998925 0.0032697 0.9998925 0.0032697 0.0001075 -0.0032697
1159002 0.0001052 -0.0031237 0.9998948 0.0031237 0.9998948 0.0031237 0.0001052 -0.0031237
1212075 0.0001031 -0.0029838 0.9998969 0.0029838 0.9998969 0.0029838 0.0001031 -0.0029838
1267578 0.0001011 -0.0028498 0.9998989 0.0028498 0.9998989 0.0028498 0.0001011 -0.0028498
1325623 0.0000992 -0.0027214 0.9999008 0.0027214 0.9999008 0.0027214 0.0000992 -0.0027214
1386327 0.0000975 -0.0025985 0.9999025 0.0025985 0.9999025 0.0025985 0.0000975 -0.0025985
1449809 0.0000960 -0.0024806 0.9999040 0.0024806 0.9999040 0.0024806 0.0000960 -0.0024806
1516199 0.0000945 -0.0023677 0.9999055 0.0023677 0.9999055 0.0023677 0.0000945 -0.0023677
1585629 0.0000931 -0.0022595 0.9999069 0.0022595 0.9999069 0.0022595 0.0000931 -0.0022595
1658239 0.0000919 -0.0021558 0.9999081 0.0021558 0.9999081 0.0021558 0.0000919 -0.0021558
1734173 0.0000908 -0.0020563 0.9999092 0.0020563 0.9999092 0.0020563 0.0000908 -0.0020563
1813585 0.0000897 -0.0019609 0.9999103 0.0019609 0.9999103 0.0019609 0.0000897 -0.0019609
1896632 0.0000888 -0.0018694 0.9999112 0.0018694 0.9999112 0.0018694 0.0000888 -0.0018694
1983483 0.0000879 -0.0017817 0.9999121 0.0017817 0.9999121 0.0017817 0.0000879 -0.0017817
2074311 0.0000871 -0.0016975 0.9999129 0.0016975 0.9999129 0.0016975 0.0000871 -0.0016975
