!Murata Part Number: GRM188Z71A106KA73
!These Parameters are Measured in Series Mode Connection
!Data Generated on Mar 30, 2021
!       o--ll--o
!Port1            Port2
!       o------o
!Operation Temp=25[degC], DC Bias Voltage=0[V]
!Freq. Start=100[Hz] Stop=6[GHz] 401[Steps]
# Hz S RI R 50
!Freq.(Hz) S11(Real) S11(Imag) S21(Real) S21(Imag) S12(Real) S12(Imag) S22(Real) S22(Imag)
100 0.8276871 -0.3688439 0.1723129 0.3688439 0.1723129 0.3688439 0.8276871 -0.3688439
105 0.8149676 -0.3794830 0.1850324 0.3794830 0.1850324 0.3794830 0.8149676 -0.3794830
109 0.8015274 -0.3899718 0.1984726 0.3899718 0.1984726 0.3899718 0.8015274 -0.3899718
114 0.7873599 -0.4002556 0.2126401 0.4002556 0.2126401 0.4002556 0.7873599 -0.4002556
120 0.7724639 -0.4102766 0.2275361 0.4102766 0.2275361 0.4102766 0.7724639 -0.4102766
125 0.7568438 -0.4199751 0.2431562 0.4199751 0.2431562 0.4199751 0.7568438 -0.4199751
131 0.7405102 -0.4292898 0.2594898 0.4292898 0.2594898 0.4292898 0.7405102 -0.4292898
137 0.7234803 -0.4381585 0.2765197 0.4381585 0.2765197 0.4381585 0.7234803 -0.4381585
143 0.7057784 -0.4465192 0.2942216 0.4465192 0.2942216 0.4465192 0.7057784 -0.4465192
150 0.6874356 -0.4543104 0.3125644 0.4543104 0.3125644 0.4543104 0.6874356 -0.4543104
156 0.6684903 -0.4614730 0.3315097 0.4614730 0.3315097 0.4614730 0.6684903 -0.4614730
164 0.6489880 -0.4679503 0.3510120 0.4679503 0.3510120 0.4679503 0.6489880 -0.4679503
171 0.6289808 -0.4736896 0.3710192 0.4736896 0.3710192 0.4736896 0.6289808 -0.4736896
179 0.6085274 -0.4786431 0.3914726 0.4786431 0.3914726 0.4786431 0.6085274 -0.4786431
187 0.5876921 -0.4827685 0.4123079 0.4827685 0.4123079 0.4827685 0.5876921 -0.4827685
196 0.5665444 -0.4860301 0.4334556 0.4860301 0.4334556 0.4860301 0.5665444 -0.4860301
205 0.5451577 -0.4883995 0.4548423 0.4883995 0.4548423 0.4883995 0.5451577 -0.4883995
214 0.5236089 -0.4898560 0.4763911 0.4898560 0.4763911 0.4898560 0.5236089 -0.4898560
224 0.5019769 -0.4903869 0.4980231 0.4903869 0.4980231 0.4903869 0.5019769 -0.4903869
234 0.4803417 -0.4899883 0.5196583 0.4899883 0.5196583 0.4899883 0.4803417 -0.4899883
245 0.4587832 -0.4886646 0.5412168 0.4886646 0.5412168 0.4886646 0.4587832 -0.4886646
256 0.4373799 -0.4864283 0.5626201 0.4864283 0.5626201 0.4864283 0.4373799 -0.4864283
268 0.4162082 -0.4833004 0.5837918 0.4833004 0.5837918 0.4833004 0.4162082 -0.4833004
280 0.3953410 -0.4793091 0.6046590 0.4793091 0.6046590 0.4793091 0.3953410 -0.4793091
293 0.3748471 -0.4744899 0.6251529 0.4744899 0.6251529 0.4744899 0.3748471 -0.4744899
306 0.3547901 -0.4688844 0.6452099 0.4688844 0.6452099 0.4688844 0.3547901 -0.4688844
320 0.3352280 -0.4625396 0.6647720 0.4625396 0.6647720 0.4625396 0.3352280 -0.4625396
335 0.3162125 -0.4555073 0.6837875 0.4555073 0.6837875 0.4555073 0.3162125 -0.4555073
350 0.2977887 -0.4478427 0.7022113 0.4478427 0.7022113 0.4478427 0.2977887 -0.4478427
366 0.2799951 -0.4396040 0.7200049 0.4396040 0.7200049 0.4396040 0.2799951 -0.4396040
383 0.2628631 -0.4308510 0.7371369 0.4308510 0.7371369 0.4308510 0.2628631 -0.4308510
401 0.2464172 -0.4216444 0.7535828 0.4216444 0.7535828 0.4216444 0.2464172 -0.4216444
419 0.2306754 -0.4120452 0.7693246 0.4120452 0.7693246 0.4120452 0.2306754 -0.4120452
438 0.2156494 -0.4021134 0.7843506 0.4021134 0.7843506 0.4021134 0.2156494 -0.4021134
458 0.2013447 -0.3919079 0.7986553 0.3919079 0.7986553 0.3919079 0.2013447 -0.3919079
479 0.1877614 -0.3814853 0.8122386 0.3814853 0.8122386 0.3814853 0.1877614 -0.3814853
501 0.1748943 -0.3709000 0.8251057 0.3709000 0.8251057 0.3709000 0.1748943 -0.3709000
524 0.1627341 -0.3602034 0.8372659 0.3602034 0.8372659 0.3602034 0.1627341 -0.3602034
548 0.1512670 -0.3494435 0.8487330 0.3494435 0.8487330 0.3494435 0.1512670 -0.3494435
573 0.1404761 -0.3386652 0.8595239 0.3386652 0.8595239 0.3386652 0.1404761 -0.3386652
600 0.1303415 -0.3279094 0.8696585 0.3279094 0.8696585 0.3279094 0.1303415 -0.3279094
627 0.1208410 -0.3172137 0.8791590 0.3172137 0.8791590 0.3172137 0.1208410 -0.3172137
656 0.1119505 -0.3066116 0.8880495 0.3066116 0.8880495 0.3066116 0.1119505 -0.3066116
686 0.1036442 -0.2961334 0.8963558 0.2961334 0.8963558 0.2961334 0.1036442 -0.2961334
717 0.0958958 -0.2858056 0.9041042 0.2858056 0.9041042 0.2858056 0.0958958 -0.2858056
750 0.0886781 -0.2756513 0.9113219 0.2756513 0.9113219 0.2756513 0.0886781 -0.2756513
784 0.0819635 -0.2656905 0.9180365 0.2656905 0.9180365 0.2656905 0.0819635 -0.2656905
820 0.0757248 -0.2559400 0.9242752 0.2559400 0.9242752 0.2559400 0.0757248 -0.2559400
858 0.0699347 -0.2464138 0.9300653 0.2464138 0.9300653 0.2464138 0.0699347 -0.2464138
897 0.0645665 -0.2371235 0.9354335 0.2371235 0.9354335 0.2371235 0.0645665 -0.2371235
938 0.0595943 -0.2280779 0.9404057 0.2280779 0.9404057 0.2280779 0.0595943 -0.2280779
981 0.0549928 -0.2192840 0.9450072 0.2192840 0.9450072 0.2192840 0.0549928 -0.2192840
1026 0.0507378 -0.2107465 0.9492622 0.2107465 0.9492622 0.2107465 0.0507378 -0.2107465
1073 0.0468058 -0.2024684 0.9531942 0.2024684 0.9531942 0.2024684 0.0468058 -0.2024684
1122 0.0431746 -0.1944513 0.9568254 0.1944513 0.9568254 0.1944513 0.0431746 -0.1944513
1174 0.0398230 -0.1866951 0.9601770 0.1866951 0.9601770 0.1866951 0.0398230 -0.1866951
1227 0.0367311 -0.1791988 0.9632689 0.1791988 0.9632689 0.1791988 0.0367311 -0.1791988
1283 0.0338797 -0.1719601 0.9661203 0.1719601 0.9661203 0.1719601 0.0338797 -0.1719601
1342 0.0312511 -0.1649758 0.9687489 0.1649758 0.9687489 0.1649758 0.0312511 -0.1649758
1404 0.0288284 -0.1582421 0.9711716 0.1582421 0.9711716 0.1582421 0.0288284 -0.1582421
1468 0.0265961 -0.1517543 0.9734039 0.1517543 0.9734039 0.1517543 0.0265961 -0.1517543
1535 0.0245394 -0.1455072 0.9754606 0.1455072 0.9754606 0.1455072 0.0245394 -0.1455072
1606 0.0226447 -0.1394954 0.9773553 0.1394954 0.9773553 0.1394954 0.0226447 -0.1394954
1679 0.0208992 -0.1337128 0.9791008 0.1337128 0.9791008 0.1337128 0.0208992 -0.1337128
1756 0.0192912 -0.1281532 0.9807088 0.1281532 0.9807088 0.1281532 0.0192912 -0.1281532
1836 0.0178097 -0.1228102 0.9821903 0.1228102 0.9821903 0.1228102 0.0178097 -0.1228102
1920 0.0164447 -0.1176773 0.9835553 0.1176773 0.9835553 0.1176773 0.0164447 -0.1176773
2008 0.0151867 -0.1127478 0.9848133 0.1127478 0.9848133 0.1127478 0.0151867 -0.1127478
2100 0.0140272 -0.1080149 0.9859728 0.1080149 0.9859728 0.1080149 0.0140272 -0.1080149
2196 0.0129583 -0.1034720 0.9870417 0.1034720 0.9870417 0.1034720 0.0129583 -0.1034720
2297 0.0119726 -0.0991126 0.9880274 0.0991126 0.9880274 0.0991126 0.0119726 -0.0991126
2402 0.0110635 -0.0949299 0.9889365 0.0949299 0.9889365 0.0949299 0.0110635 -0.0949299
2512 0.0102248 -0.0909176 0.9897752 0.0909176 0.9897752 0.0909176 0.0102248 -0.0909176
2627 0.0094510 -0.0870692 0.9905490 0.0870692 0.9905490 0.0870692 0.0094510 -0.0870692
2748 0.0087368 -0.0833788 0.9912632 0.0833788 0.9912632 0.0833788 0.0087368 -0.0833788
2873 0.0080776 -0.0798401 0.9919224 0.0798401 0.9919224 0.0798401 0.0080776 -0.0798401
3005 0.0074690 -0.0764473 0.9925310 0.0764473 0.9925310 0.0764473 0.0074690 -0.0764473
3143 0.0069071 -0.0731947 0.9930929 0.0731947 0.9930929 0.0731947 0.0069071 -0.0731947
3287 0.0063882 -0.0700769 0.9936118 0.0700769 0.9936118 0.0700769 0.0063882 -0.0700769
3437 0.0059091 -0.0670885 0.9940909 0.0670885 0.9940909 0.0670885 0.0059091 -0.0670885
3594 0.0054667 -0.0642244 0.9945333 0.0642244 0.9945333 0.0642244 0.0054667 -0.0642244
3759 0.0050581 -0.0614796 0.9949419 0.0614796 0.9949419 0.0614796 0.0050581 -0.0614796
3931 0.0046809 -0.0588494 0.9953191 0.0588494 0.9953191 0.0588494 0.0046809 -0.0588494
4111 0.0043326 -0.0563292 0.9956674 0.0563292 0.9956674 0.0563292 0.0043326 -0.0563292
4299 0.0040111 -0.0539146 0.9959889 0.0539146 0.9959889 0.0539146 0.0040111 -0.0539146
4496 0.0037144 -0.0516013 0.9962856 0.0516013 0.9962856 0.0516013 0.0037144 -0.0516013
4702 0.0034406 -0.0493852 0.9965594 0.0493852 0.9965594 0.0493852 0.0034406 -0.0493852
4918 0.0031880 -0.0472625 0.9968120 0.0472625 0.9968120 0.0472625 0.0031880 -0.0472625
5143 0.0029550 -0.0452293 0.9970450 0.0452293 0.9970450 0.0452293 0.0029550 -0.0452293
5378 0.0027401 -0.0432821 0.9972599 0.0432821 0.9972599 0.0432821 0.0027401 -0.0432821
5625 0.0025420 -0.0414174 0.9974580 0.0414174 0.9974580 0.0414174 0.0025420 -0.0414174
5882 0.0023594 -0.0396318 0.9976406 0.0396318 0.9976406 0.0396318 0.0023594 -0.0396318
6151 0.0021911 -0.0379221 0.9978089 0.0379221 0.9978089 0.0379221 0.0021911 -0.0379221
6433 0.0020361 -0.0362852 0.9979639 0.0362852 0.9979639 0.0362852 0.0020361 -0.0362852
6728 0.0018933 -0.0347182 0.9981067 0.0347182 0.9981067 0.0347182 0.0018933 -0.0347182
7036 0.0017617 -0.0332181 0.9982383 0.0332181 0.9982383 0.0332181 0.0017617 -0.0332181
7358 0.0016405 -0.0317823 0.9983595 0.0317823 0.9983595 0.0317823 0.0016405 -0.0317823
7695 0.0015289 -0.0304080 0.9984711 0.0304080 0.9984711 0.0304080 0.0015289 -0.0304080
8047 0.0014261 -0.0290928 0.9985739 0.0290928 0.9985739 0.0290928 0.0014261 -0.0290928
8416 0.0013314 -0.0278341 0.9986686 0.0278341 0.9986686 0.0278341 0.0013314 -0.0278341
8801 0.0012441 -0.0266297 0.9987559 0.0266297 0.9987559 0.0266297 0.0012441 -0.0266297
9204 0.0011638 -0.0254773 0.9988362 0.0254773 0.9988362 0.0254773 0.0011638 -0.0254773
9626 0.0010897 -0.0243746 0.9989103 0.0243746 0.9989103 0.0243746 0.0010897 -0.0243746
10066 0.0010213 -0.0233196 0.9989787 0.0233196 0.9989787 0.0233196 0.0010213 -0.0233196
10527 0.0009583 -0.0223103 0.9990417 0.0223103 0.9990417 0.0223103 0.0009583 -0.0223103
11009 0.0009000 -0.0213448 0.9991000 0.0213448 0.9991000 0.0213448 0.0009000 -0.0213448
11514 0.0008463 -0.0204211 0.9991537 0.0204211 0.9991537 0.0204211 0.0008463 -0.0204211
12041 0.0007965 -0.0195376 0.9992035 0.0195376 0.9992035 0.0195376 0.0007965 -0.0195376
12592 0.0007505 -0.0186924 0.9992495 0.0186924 0.9992495 0.0186924 0.0007505 -0.0186924
13169 0.0007078 -0.0178840 0.9992922 0.0178840 0.9992922 0.0178840 0.0007078 -0.0178840
13772 0.0006683 -0.0171108 0.9993317 0.0171108 0.9993317 0.0171108 0.0006683 -0.0171108
14402 0.0006315 -0.0163712 0.9993685 0.0163712 0.9993685 0.0163712 0.0006315 -0.0163712
15062 0.0005973 -0.0156637 0.9994027 0.0156637 0.9994027 0.0156637 0.0005973 -0.0156637
15752 0.0005654 -0.0149871 0.9994346 0.0149871 0.9994346 0.0149871 0.0005654 -0.0149871
16473 0.0005357 -0.0143399 0.9994643 0.0143399 0.9994643 0.0143399 0.0005357 -0.0143399
17227 0.0005079 -0.0137209 0.9994921 0.0137209 0.9994921 0.0137209 0.0005079 -0.0137209
18016 0.0004818 -0.0131287 0.9995182 0.0131287 0.9995182 0.0131287 0.0004818 -0.0131287
18841 0.0004574 -0.0125623 0.9995426 0.0125623 0.9995426 0.0125623 0.0004574 -0.0125623
19704 0.0004345 -0.0120205 0.9995655 0.0120205 0.9995655 0.0120205 0.0004345 -0.0120205
20606 0.0004129 -0.0115023 0.9995871 0.0115023 0.9995871 0.0115023 0.0004129 -0.0115023
21550 0.0003926 -0.0110065 0.9996074 0.0110065 0.9996074 0.0110065 0.0003926 -0.0110065
22537 0.0003734 -0.0105322 0.9996266 0.0105322 0.9996266 0.0105322 0.0003734 -0.0105322
23569 0.0003552 -0.0100784 0.9996448 0.0100784 0.9996448 0.0100784 0.0003552 -0.0100784
24648 0.0003381 -0.0096442 0.9996619 0.0096442 0.9996619 0.0096442 0.0003381 -0.0096442
25777 0.0003218 -0.0092288 0.9996782 0.0092288 0.9996782 0.0092288 0.0003218 -0.0092288
26957 0.0003064 -0.0088313 0.9996936 0.0088313 0.9996936 0.0088313 0.0003064 -0.0088313
28191 0.0002918 -0.0084509 0.9997082 0.0084509 0.9997082 0.0084509 0.0002918 -0.0084509
29482 0.0002780 -0.0080869 0.9997220 0.0080869 0.9997220 0.0080869 0.0002780 -0.0080869
30832 0.0002649 -0.0077386 0.9997351 0.0077386 0.9997351 0.0077386 0.0002649 -0.0077386
32244 0.0002524 -0.0074052 0.9997476 0.0074052 0.9997476 0.0074052 0.0002524 -0.0074052
33721 0.0002406 -0.0070862 0.9997594 0.0070862 0.9997594 0.0070862 0.0002406 -0.0070862
35265 0.0002294 -0.0067809 0.9997706 0.0067809 0.9997706 0.0067809 0.0002294 -0.0067809
36880 0.0002188 -0.0064886 0.9997812 0.0064886 0.9997812 0.0064886 0.0002188 -0.0064886
38569 0.0002087 -0.0062089 0.9997913 0.0062089 0.9997913 0.0062089 0.0002087 -0.0062089
40335 0.0001992 -0.0059412 0.9998008 0.0059412 0.9998008 0.0059412 0.0001992 -0.0059412
42182 0.0001902 -0.0056849 0.9998098 0.0056849 0.9998098 0.0056849 0.0001902 -0.0056849
44113 0.0001817 -0.0054396 0.9998183 0.0054396 0.9998183 0.0054396 0.0001817 -0.0054396
46134 0.0001736 -0.0052049 0.9998264 0.0052049 0.9998264 0.0052049 0.0001736 -0.0052049
48246 0.0001660 -0.0049802 0.9998340 0.0049802 0.9998340 0.0049802 0.0001660 -0.0049802
50455 0.0001588 -0.0047651 0.9998412 0.0047651 0.9998412 0.0047651 0.0001588 -0.0047651
52766 0.0001520 -0.0045593 0.9998480 0.0045593 0.9998480 0.0045593 0.0001520 -0.0045593
55182 0.0001457 -0.0043623 0.9998543 0.0043623 0.9998543 0.0043623 0.0001457 -0.0043623
57709 0.0001396 -0.0041737 0.9998604 0.0041737 0.9998604 0.0041737 0.0001396 -0.0041737
60352 0.0001340 -0.0039933 0.9998660 0.0039933 0.9998660 0.0039933 0.0001340 -0.0039933
63115 0.0001286 -0.0038206 0.9998714 0.0038206 0.9998714 0.0038206 0.0001286 -0.0038206
66005 0.0001236 -0.0036553 0.9998764 0.0036553 0.9998764 0.0036553 0.0001236 -0.0036553
69028 0.0001188 -0.0034971 0.9998812 0.0034971 0.9998812 0.0034971 0.0001188 -0.0034971
72189 0.0001144 -0.0033457 0.9998856 0.0033457 0.9998856 0.0033457 0.0001144 -0.0033457
75495 0.0001102 -0.0032009 0.9998898 0.0032009 0.9998898 0.0032009 0.0001102 -0.0032009
78952 0.0001062 -0.0030623 0.9998938 0.0030623 0.9998938 0.0030623 0.0001062 -0.0030623
82567 0.0001024 -0.0029296 0.9998976 0.0029296 0.9998976 0.0029296 0.0001024 -0.0029296
86348 0.0000989 -0.0028027 0.9999011 0.0028027 0.9999011 0.0028027 0.0000989 -0.0028027
90302 0.0000956 -0.0026812 0.9999044 0.0026812 0.9999044 0.0026812 0.0000956 -0.0026812
94437 0.0000924 -0.0025650 0.9999076 0.0025650 0.9999076 0.0025650 0.0000924 -0.0025650
98762 0.0000895 -0.0024538 0.9999105 0.0024538 0.9999105 0.0024538 0.0000895 -0.0024538
103284 0.0000867 -0.0023473 0.9999133 0.0023473 0.9999133 0.0023473 0.0000867 -0.0023473
108014 0.0000840 -0.0022455 0.9999160 0.0022455 0.9999160 0.0022455 0.0000840 -0.0022455
112960 0.0000815 -0.0021480 0.9999185 0.0021480 0.9999185 0.0021480 0.0000815 -0.0021480
118133 0.0000791 -0.0020547 0.9999209 0.0020547 0.9999209 0.0020547 0.0000791 -0.0020547
123542 0.0000769 -0.0019655 0.9999231 0.0019655 0.9999231 0.0019655 0.0000769 -0.0019655
129199 0.0000748 -0.0018801 0.9999252 0.0018801 0.9999252 0.0018801 0.0000748 -0.0018801
135116 0.0000727 -0.0017983 0.9999273 0.0017983 0.9999273 0.0017983 0.0000727 -0.0017983
141303 0.0000708 -0.0017201 0.9999292 0.0017201 0.9999292 0.0017201 0.0000708 -0.0017201
147774 0.0000690 -0.0016452 0.9999310 0.0016452 0.9999310 0.0016452 0.0000690 -0.0016452
154540 0.0000673 -0.0015736 0.9999327 0.0015736 0.9999327 0.0015736 0.0000673 -0.0015736
161617 0.0000656 -0.0015050 0.9999344 0.0015050 0.9999344 0.0015050 0.0000656 -0.0015050
169018 0.0000641 -0.0014394 0.9999359 0.0014394 0.9999359 0.0014394 0.0000641 -0.0014394
176758 0.0000626 -0.0013766 0.9999374 0.0013766 0.9999374 0.0013766 0.0000626 -0.0013766
184852 0.0000611 -0.0013165 0.9999389 0.0013165 0.9999389 0.0013165 0.0000611 -0.0013165
193316 0.0000598 -0.0012589 0.9999402 0.0012589 0.9999402 0.0012589 0.0000598 -0.0012589
202169 0.0000585 -0.0012038 0.9999415 0.0012038 0.9999415 0.0012038 0.0000585 -0.0012038
211427 0.0000572 -0.0011511 0.9999428 0.0011511 0.9999428 0.0011511 0.0000572 -0.0011511
221108 0.0000561 -0.0011006 0.9999439 0.0011006 0.9999439 0.0011006 0.0000561 -0.0011006
231233 0.0000549 -0.0010522 0.9999451 0.0010522 0.9999451 0.0010522 0.0000549 -0.0010522
241822 0.0000538 -0.0010059 0.9999462 0.0010059 0.9999462 0.0010059 0.0000538 -0.0010059
252896 0.0000528 -0.0009615 0.9999472 0.0009615 0.9999472 0.0009615 0.0000528 -0.0009615
264476 0.0000518 -0.0009191 0.9999482 0.0009191 0.9999482 0.0009191 0.0000518 -0.0009191
276587 0.0000508 -0.0008784 0.9999492 0.0008784 0.9999492 0.0008784 0.0000508 -0.0008784
289253 0.0000499 -0.0008394 0.9999501 0.0008394 0.9999501 0.0008394 0.0000499 -0.0008394
302498 0.0000490 -0.0008021 0.9999510 0.0008021 0.9999510 0.0008021 0.0000490 -0.0008021
316350 0.0000482 -0.0007663 0.9999518 0.0007663 0.9999518 0.0007663 0.0000482 -0.0007663
330837 0.0000474 -0.0007319 0.9999526 0.0007319 0.9999526 0.0007319 0.0000474 -0.0007319
345986 0.0000466 -0.0006991 0.9999534 0.0006991 0.9999534 0.0006991 0.0000466 -0.0006991
361830 0.0000458 -0.0006675 0.9999542 0.0006675 0.9999542 0.0006675 0.0000458 -0.0006675
378399 0.0000451 -0.0006373 0.9999549 0.0006373 0.9999549 0.0006373 0.0000451 -0.0006373
395726 0.0000445 -0.0006083 0.9999555 0.0006083 0.9999555 0.0006083 0.0000445 -0.0006083
413847 0.0000438 -0.0005804 0.9999562 0.0005804 0.9999562 0.0005804 0.0000438 -0.0005804
432798 0.0000432 -0.0005537 0.9999568 0.0005537 0.9999568 0.0005537 0.0000432 -0.0005537
452617 0.0000426 -0.0005281 0.9999574 0.0005281 0.9999574 0.0005281 0.0000426 -0.0005281
473344 0.0000421 -0.0005035 0.9999579 0.0005035 0.9999579 0.0005035 0.0000421 -0.0005035
495019 0.0000416 -0.0004798 0.9999584 0.0004798 0.9999584 0.0004798 0.0000416 -0.0004798
517687 0.0000411 -0.0004571 0.9999589 0.0004571 0.9999589 0.0004571 0.0000411 -0.0004571
541393 0.0000407 -0.0004353 0.9999593 0.0004353 0.9999593 0.0004353 0.0000407 -0.0004353
566185 0.0000403 -0.0004143 0.9999597 0.0004143 0.9999597 0.0004143 0.0000403 -0.0004143
592111 0.0000399 -0.0003941 0.9999601 0.0003941 0.9999601 0.0003941 0.0000399 -0.0003941
619225 0.0000396 -0.0003747 0.9999604 0.0003747 0.9999604 0.0003747 0.0000396 -0.0003747
647581 0.0000393 -0.0003560 0.9999607 0.0003560 0.9999607 0.0003560 0.0000393 -0.0003560
677235 0.0000390 -0.0003380 0.9999610 0.0003380 0.9999610 0.0003380 0.0000390 -0.0003380
708247 0.0000388 -0.0003207 0.9999612 0.0003207 0.9999612 0.0003207 0.0000388 -0.0003207
740679 0.0000386 -0.0003039 0.9999614 0.0003039 0.9999614 0.0003039 0.0000386 -0.0003039
774597 0.0000384 -0.0002878 0.9999616 0.0002878 0.9999616 0.0002878 0.0000384 -0.0002878
810067 0.0000383 -0.0002722 0.9999617 0.0002722 0.9999617 0.0002722 0.0000383 -0.0002722
847162 0.0000382 -0.0002572 0.9999618 0.0002572 0.9999618 0.0002572 0.0000382 -0.0002572
885955 0.0000381 -0.0002427 0.9999619 0.0002427 0.9999619 0.0002427 0.0000381 -0.0002427
926525 0.0000381 -0.0002286 0.9999619 0.0002286 0.9999619 0.0002286 0.0000381 -0.0002286
968953 0.0000381 -0.0002150 0.9999619 0.0002150 0.9999619 0.0002150 0.0000381 -0.0002150
1013323 0.0000381 -0.0002018 0.9999619 0.0002018 0.9999619 0.0002018 0.0000381 -0.0002018
1059725 0.0000382 -0.0001890 0.9999618 0.0001890 0.9999618 0.0001890 0.0000382 -0.0001890
1108252 0.0000383 -0.0001766 0.9999617 0.0001766 0.9999617 0.0001766 0.0000383 -0.0001766
1159002 0.0000384 -0.0001645 0.9999616 0.0001645 0.9999616 0.0001645 0.0000384 -0.0001645
1212075 0.0000386 -0.0001528 0.9999614 0.0001528 0.9999614 0.0001528 0.0000386 -0.0001528
1267578 0.0000389 -0.0001413 0.9999611 0.0001413 0.9999611 0.0001413 0.0000389 -0.0001413
1325623 0.0000392 -0.0001302 0.9999608 0.0001302 0.9999608 0.0001302 0.0000392 -0.0001302
1386327 0.0000395 -0.0001192 0.9999605 0.0001192 0.9999605 0.0001192 0.0000395 -0.0001192
1449809 0.0000399 -0.0001085 0.9999601 0.0001085 0.9999601 0.0001085 0.0000399 -0.0001085
1516199 0.0000404 -0.0000981 0.9999596 0.0000981 0.9999596 0.0000981 0.0000404 -0.0000981
1585629 0.0000409 -0.0000878 0.9999591 0.0000878 0.9999591 0.0000878 0.0000409 -0.0000878
1658239 0.0000415 -0.0000776 0.9999585 0.0000776 0.9999585 0.0000776 0.0000415 -0.0000776
1734173 0.0000422 -0.0000677 0.9999578 0.0000677 0.9999578 0.0000677 0.0000422 -0.0000677
1813585 0.0000429 -0.0000578 0.9999571 0.0000578 0.9999571 0.0000578 0.0000429 -0.0000578
1896632 0.0000438 -0.0000481 0.9999562 0.0000481 0.9999562 0.0000481 0.0000438 -0.0000481
1983483 0.0000447 -0.0000384 0.9999553 0.0000384 0.9999553 0.0000384 0.0000447 -0.0000384
2074311 0.0000458 -0.0000288 0.9999542 0.0000288 0.9999542 0.0000288 0.0000458 -0.0000288
