!Murata Part Number: GRM188R71H562KA01
!These Parameters are Measured in Series Mode Connection
!Data Generated on Mar 30, 2021
!       o--ll--o
!Port1            Port2
!       o------o
!Operation Temp=25[degC], DC Bias Voltage=0[V]
!Freq. Start=100[Hz] Stop=6[GHz] 401[Steps]
# Hz S RI R 50
!Freq.(Hz) S11(Real) S11(Imag) S21(Real) S21(Imag) S12(Real) S12(Imag) S22(Real) S22(Imag)
100 0.9999981 -0.0003514 0.0000019 0.0003514 0.0000019 0.0003514 0.9999981 -0.0003514
105 0.9999980 -0.0003675 0.0000020 0.0003675 0.0000020 0.0003675 0.9999980 -0.0003675
109 0.9999979 -0.0003842 0.0000021 0.0003842 0.0000021 0.0003842 0.9999979 -0.0003842
114 0.9999978 -0.0004017 0.0000022 0.0004017 0.0000022 0.0004017 0.9999978 -0.0004017
120 0.9999977 -0.0004201 0.0000023 0.0004201 0.0000023 0.0004201 0.9999977 -0.0004201
125 0.9999976 -0.0004392 0.0000024 0.0004392 0.0000024 0.0004392 0.9999976 -0.0004392
131 0.9999975 -0.0004592 0.0000025 0.0004592 0.0000025 0.0004592 0.9999975 -0.0004592
137 0.9999974 -0.0004802 0.0000026 0.0004802 0.0000026 0.0004802 0.9999974 -0.0004802
143 0.9999973 -0.0005021 0.0000027 0.0005021 0.0000027 0.0005021 0.9999973 -0.0005021
150 0.9999972 -0.0005250 0.0000028 0.0005250 0.0000028 0.0005250 0.9999972 -0.0005250
156 0.9999970 -0.0005489 0.0000030 0.0005489 0.0000030 0.0005489 0.9999970 -0.0005489
164 0.9999969 -0.0005740 0.0000031 0.0005740 0.0000031 0.0005740 0.9999969 -0.0005740
171 0.9999968 -0.0006002 0.0000032 0.0006002 0.0000032 0.0006002 0.9999968 -0.0006002
179 0.9999966 -0.0006276 0.0000034 0.0006276 0.0000034 0.0006276 0.9999966 -0.0006276
187 0.9999965 -0.0006562 0.0000035 0.0006562 0.0000035 0.0006562 0.9999965 -0.0006562
196 0.9999963 -0.0006862 0.0000037 0.0006862 0.0000037 0.0006862 0.9999963 -0.0006862
205 0.9999962 -0.0007175 0.0000038 0.0007175 0.0000038 0.0007175 0.9999962 -0.0007175
214 0.9999960 -0.0007503 0.0000040 0.0007503 0.0000040 0.0007503 0.9999960 -0.0007503
224 0.9999958 -0.0007845 0.0000042 0.0007845 0.0000042 0.0007845 0.9999958 -0.0007845
234 0.9999956 -0.0008204 0.0000044 0.0008204 0.0000044 0.0008204 0.9999956 -0.0008204
245 0.9999954 -0.0008578 0.0000046 0.0008578 0.0000046 0.0008578 0.9999954 -0.0008578
256 0.9999952 -0.0008970 0.0000048 0.0008970 0.0000048 0.0008970 0.9999952 -0.0008970
268 0.9999949 -0.0009380 0.0000051 0.0009380 0.0000051 0.0009380 0.9999949 -0.0009380
280 0.9999947 -0.0009808 0.0000053 0.0009808 0.0000053 0.0009808 0.9999947 -0.0009808
293 0.9999944 -0.0010256 0.0000056 0.0010256 0.0000056 0.0010256 0.9999944 -0.0010256
306 0.9999941 -0.0010724 0.0000059 0.0010724 0.0000059 0.0010724 0.9999941 -0.0010724
320 0.9999938 -0.0011214 0.0000062 0.0011214 0.0000062 0.0011214 0.9999938 -0.0011214
335 0.9999935 -0.0011726 0.0000065 0.0011726 0.0000065 0.0011726 0.9999935 -0.0011726
350 0.9999931 -0.0012262 0.0000069 0.0012262 0.0000069 0.0012262 0.9999931 -0.0012262
366 0.9999927 -0.0012822 0.0000073 0.0012822 0.0000073 0.0012822 0.9999927 -0.0012822
383 0.9999923 -0.0013407 0.0000077 0.0013407 0.0000077 0.0013407 0.9999923 -0.0013407
401 0.9999919 -0.0014020 0.0000081 0.0014020 0.0000081 0.0014020 0.9999919 -0.0014020
419 0.9999915 -0.0014660 0.0000085 0.0014660 0.0000085 0.0014660 0.9999915 -0.0014660
438 0.9999910 -0.0015329 0.0000090 0.0015329 0.0000090 0.0015329 0.9999910 -0.0015329
458 0.9999905 -0.0016029 0.0000095 0.0016029 0.0000095 0.0016029 0.9999905 -0.0016029
479 0.9999899 -0.0016761 0.0000101 0.0016761 0.0000101 0.0016761 0.9999899 -0.0016761
501 0.9999893 -0.0017527 0.0000107 0.0017527 0.0000107 0.0017527 0.9999893 -0.0017527
524 0.9999887 -0.0018327 0.0000113 0.0018327 0.0000113 0.0018327 0.9999887 -0.0018327
548 0.9999880 -0.0019164 0.0000120 0.0019164 0.0000120 0.0019164 0.9999880 -0.0019164
573 0.9999873 -0.0020039 0.0000127 0.0020039 0.0000127 0.0020039 0.9999873 -0.0020039
600 0.9999866 -0.0020954 0.0000134 0.0020954 0.0000134 0.0020954 0.9999866 -0.0020954
627 0.9999858 -0.0021911 0.0000142 0.0021911 0.0000142 0.0021911 0.9999858 -0.0021911
656 0.9999849 -0.0022911 0.0000151 0.0022911 0.0000151 0.0022911 0.9999849 -0.0022911
686 0.9999840 -0.0023958 0.0000160 0.0023958 0.0000160 0.0023958 0.9999840 -0.0023958
717 0.9999830 -0.0025051 0.0000170 0.0025051 0.0000170 0.0025051 0.9999830 -0.0025051
750 0.9999820 -0.0026195 0.0000180 0.0026195 0.0000180 0.0026195 0.9999820 -0.0026195
784 0.9999809 -0.0027392 0.0000191 0.0027392 0.0000191 0.0027392 0.9999809 -0.0027392
820 0.9999797 -0.0028643 0.0000203 0.0028643 0.0000203 0.0028643 0.9999797 -0.0028643
858 0.9999784 -0.0029951 0.0000216 0.0029951 0.0000216 0.0029951 0.9999784 -0.0029951
897 0.9999770 -0.0031319 0.0000230 0.0031319 0.0000230 0.0031319 0.9999770 -0.0031319
938 0.9999756 -0.0032749 0.0000244 0.0032749 0.0000244 0.0032749 0.9999756 -0.0032749
981 0.9999740 -0.0034245 0.0000260 0.0034245 0.0000260 0.0034245 0.9999740 -0.0034245
1026 0.9999723 -0.0035809 0.0000277 0.0035809 0.0000277 0.0035809 0.9999723 -0.0035809
1073 0.9999705 -0.0037445 0.0000295 0.0037445 0.0000295 0.0037445 0.9999705 -0.0037445
1122 0.9999685 -0.0039155 0.0000315 0.0039155 0.0000315 0.0039155 0.9999685 -0.0039155
1174 0.9999664 -0.0040944 0.0000336 0.0040944 0.0000336 0.0040944 0.9999664 -0.0040944
1227 0.9999640 -0.0042815 0.0000360 0.0042815 0.0000360 0.0042815 0.9999640 -0.0042815
1283 0.9999615 -0.0044771 0.0000385 0.0044771 0.0000385 0.0044771 0.9999615 -0.0044771
1342 0.9999588 -0.0046816 0.0000412 0.0046816 0.0000412 0.0046816 0.9999588 -0.0046816
1404 0.9999559 -0.0048955 0.0000441 0.0048955 0.0000441 0.0048955 0.9999559 -0.0048955
1468 0.9999527 -0.0051192 0.0000473 0.0051192 0.0000473 0.0051192 0.9999527 -0.0051192
1535 0.9999493 -0.0053531 0.0000507 0.0053531 0.0000507 0.0053531 0.9999493 -0.0053531
1606 0.9999455 -0.0055977 0.0000545 0.0055977 0.0000545 0.0055977 0.9999455 -0.0055977
1679 0.9999415 -0.0058534 0.0000585 0.0058534 0.0000585 0.0058534 0.9999415 -0.0058534
1756 0.9999371 -0.0061208 0.0000629 0.0061208 0.0000629 0.0061208 0.9999371 -0.0061208
1836 0.9999323 -0.0064005 0.0000677 0.0064005 0.0000677 0.0064005 0.9999323 -0.0064005
1920 0.9999271 -0.0066929 0.0000729 0.0066929 0.0000729 0.0066929 0.9999271 -0.0066929
2008 0.9999214 -0.0069987 0.0000786 0.0069987 0.0000786 0.0069987 0.9999214 -0.0069987
2100 0.9999153 -0.0073184 0.0000847 0.0073184 0.0000847 0.0073184 0.9999153 -0.0073184
2196 0.9999086 -0.0076526 0.0000914 0.0076526 0.0000914 0.0076526 0.9999086 -0.0076526
2297 0.9999013 -0.0080022 0.0000987 0.0080022 0.0000987 0.0080022 0.9999013 -0.0080022
2402 0.9998934 -0.0083676 0.0001066 0.0083676 0.0001066 0.0083676 0.9998934 -0.0083676
2512 0.9998848 -0.0087498 0.0001152 0.0087498 0.0001152 0.0087498 0.9998848 -0.0087498
2627 0.9998755 -0.0091493 0.0001245 0.0091493 0.0001245 0.0091493 0.9998755 -0.0091493
2748 0.9998654 -0.0095670 0.0001346 0.0095670 0.0001346 0.0095670 0.9998654 -0.0095670
2873 0.9998544 -0.0100038 0.0001456 0.0100038 0.0001456 0.0100038 0.9998544 -0.0100038
3005 0.9998425 -0.0104604 0.0001575 0.0104604 0.0001575 0.0104604 0.9998425 -0.0104604
3143 0.9998295 -0.0109379 0.0001705 0.0109379 0.0001705 0.0109379 0.9998295 -0.0109379
3287 0.9998155 -0.0114370 0.0001845 0.0114370 0.0001845 0.0114370 0.9998155 -0.0114370
3437 0.9998002 -0.0119589 0.0001998 0.0119589 0.0001998 0.0119589 0.9998002 -0.0119589
3594 0.9997836 -0.0125045 0.0002164 0.0125045 0.0002164 0.0125045 0.9997836 -0.0125045
3759 0.9997657 -0.0130749 0.0002343 0.0130749 0.0002343 0.0130749 0.9997657 -0.0130749
3931 0.9997462 -0.0136712 0.0002538 0.0136712 0.0002538 0.0136712 0.9997462 -0.0136712
4111 0.9997251 -0.0142947 0.0002749 0.0142947 0.0002749 0.0142947 0.9997251 -0.0142947
4299 0.9997022 -0.0149465 0.0002978 0.0149465 0.0002978 0.0149465 0.9997022 -0.0149465
4496 0.9996773 -0.0156280 0.0003227 0.0156280 0.0003227 0.0156280 0.9996773 -0.0156280
4702 0.9996504 -0.0163405 0.0003496 0.0163405 0.0003496 0.0163405 0.9996504 -0.0163405
4918 0.9996212 -0.0170853 0.0003788 0.0170853 0.0003788 0.0170853 0.9996212 -0.0170853
5143 0.9995895 -0.0178640 0.0004105 0.0178640 0.0004105 0.0178640 0.9995895 -0.0178640
5378 0.9995551 -0.0186782 0.0004449 0.0186782 0.0004449 0.0186782 0.9995551 -0.0186782
5625 0.9995178 -0.0195293 0.0004822 0.0195293 0.0004822 0.0195293 0.9995178 -0.0195293
5882 0.9994773 -0.0204192 0.0005227 0.0204192 0.0005227 0.0204192 0.9994773 -0.0204192
6151 0.9994334 -0.0213495 0.0005666 0.0213495 0.0005666 0.0213495 0.9994334 -0.0213495
6433 0.9993856 -0.0223222 0.0006144 0.0223222 0.0006144 0.0223222 0.9993856 -0.0223222
6728 0.9993338 -0.0233390 0.0006662 0.0233390 0.0006662 0.0233390 0.9993338 -0.0233390
7036 0.9992774 -0.0244022 0.0007226 0.0244022 0.0007226 0.0244022 0.9992774 -0.0244022
7358 0.9992162 -0.0255137 0.0007838 0.0255137 0.0007838 0.0255137 0.9992162 -0.0255137
7695 0.9991496 -0.0266757 0.0008504 0.0266757 0.0008504 0.0266757 0.9991496 -0.0266757
8047 0.9990771 -0.0278906 0.0009229 0.0278906 0.0009229 0.0278906 0.9990771 -0.0278906
8416 0.9989983 -0.0291607 0.0010017 0.0291607 0.0010017 0.0291607 0.9989983 -0.0291607
8801 0.9989124 -0.0304886 0.0010876 0.0304886 0.0010876 0.0304886 0.9989124 -0.0304886
9204 0.9988189 -0.0318768 0.0011811 0.0318768 0.0011811 0.0318768 0.9988189 -0.0318768
9626 0.9987171 -0.0333280 0.0012829 0.0333280 0.0012829 0.0333280 0.9987171 -0.0333280
10066 0.9986061 -0.0348451 0.0013939 0.0348451 0.0013939 0.0348451 0.9986061 -0.0348451
10527 0.9984851 -0.0364310 0.0015149 0.0364310 0.0015149 0.0364310 0.9984851 -0.0364310
11009 0.9983532 -0.0380889 0.0016468 0.0380889 0.0016468 0.0380889 0.9983532 -0.0380889
11514 0.9982094 -0.0398218 0.0017906 0.0398218 0.0017906 0.0398218 0.9982094 -0.0398218
12041 0.9980525 -0.0416331 0.0019475 0.0416331 0.0019475 0.0416331 0.9980525 -0.0416331
12592 0.9978813 -0.0435264 0.0021187 0.0435264 0.0021187 0.0435264 0.9978813 -0.0435264
13169 0.9976944 -0.0455051 0.0023056 0.0455051 0.0023056 0.0455051 0.9976944 -0.0455051
13772 0.9974906 -0.0475731 0.0025094 0.0475731 0.0025094 0.0475731 0.9974906 -0.0475731
14402 0.9972681 -0.0497342 0.0027319 0.0497342 0.0027319 0.0497342 0.9972681 -0.0497342
15062 0.9970252 -0.0519925 0.0029748 0.0519925 0.0029748 0.0519925 0.9970252 -0.0519925
15752 0.9967600 -0.0543521 0.0032400 0.0543521 0.0032400 0.0543521 0.9967600 -0.0543521
16473 0.9964706 -0.0568175 0.0035294 0.0568175 0.0035294 0.0568175 0.9964706 -0.0568175
17227 0.9961546 -0.0593931 0.0038454 0.0593931 0.0038454 0.0593931 0.9961546 -0.0593931
18016 0.9958097 -0.0620836 0.0041903 0.0620836 0.0041903 0.0620836 0.9958097 -0.0620836
18841 0.9954331 -0.0648938 0.0045669 0.0648938 0.0045669 0.0648938 0.9954331 -0.0648938
19704 0.9950221 -0.0678287 0.0049779 0.0678287 0.0049779 0.0678287 0.9950221 -0.0678287
20606 0.9945734 -0.0708935 0.0054266 0.0708935 0.0054266 0.0708935 0.9945734 -0.0708935
21550 0.9940837 -0.0740935 0.0059163 0.0740935 0.0059163 0.0740935 0.9940837 -0.0740935
22537 0.9935493 -0.0774341 0.0064507 0.0774341 0.0064507 0.0774341 0.9935493 -0.0774341
23569 0.9929661 -0.0809209 0.0070339 0.0809209 0.0070339 0.0809209 0.9929661 -0.0809209
24648 0.9923298 -0.0845599 0.0076702 0.0845599 0.0076702 0.0845599 0.9923298 -0.0845599
25777 0.9916357 -0.0883567 0.0083643 0.0883567 0.0083643 0.0883567 0.9916357 -0.0883567
26957 0.9908786 -0.0923176 0.0091214 0.0923176 0.0091214 0.0923176 0.9908786 -0.0923176
28191 0.9900529 -0.0964487 0.0099471 0.0964487 0.0099471 0.0964487 0.9900529 -0.0964487
29482 0.9891526 -0.1007563 0.0108474 0.1007563 0.0108474 0.1007563 0.9891526 -0.1007563
30832 0.9881711 -0.1052467 0.0118289 0.1052467 0.0118289 0.1052467 0.9881711 -0.1052467
32244 0.9871014 -0.1099265 0.0128986 0.1099265 0.0128986 0.1099265 0.9871014 -0.1099265
33721 0.9859359 -0.1148021 0.0140641 0.1148021 0.0140641 0.1148021 0.9859359 -0.1148021
35265 0.9846661 -0.1198801 0.0153339 0.1198801 0.0153339 0.1198801 0.9846661 -0.1198801
36880 0.9832833 -0.1251671 0.0167167 0.1251671 0.0167167 0.1251671 0.9832833 -0.1251671
38569 0.9817777 -0.1306694 0.0182223 0.1306694 0.0182223 0.1306694 0.9817777 -0.1306694
40335 0.9801389 -0.1363936 0.0198611 0.1363936 0.0198611 0.1363936 0.9801389 -0.1363936
42182 0.9783558 -0.1423458 0.0216442 0.1423458 0.0216442 0.1423458 0.9783558 -0.1423458
44113 0.9764162 -0.1485322 0.0235838 0.1485322 0.0235838 0.1485322 0.9764162 -0.1485322
46134 0.9743072 -0.1549586 0.0256928 0.1549586 0.0256928 0.1549586 0.9743072 -0.1549586
48246 0.9720149 -0.1616305 0.0279851 0.1616305 0.0279851 0.1616305 0.9720149 -0.1616305
50455 0.9695244 -0.1685528 0.0304756 0.1685528 0.0304756 0.1685528 0.9695244 -0.1685528
52766 0.9668197 -0.1757302 0.0331803 0.1757302 0.0331803 0.1757302 0.9668197 -0.1757302
55182 0.9638838 -0.1831666 0.0361162 0.1831666 0.0361162 0.1831666 0.9638838 -0.1831666
57709 0.9606984 -0.1908650 0.0393016 0.1908650 0.0393016 0.1908650 0.9606984 -0.1908650
60352 0.9572442 -0.1988279 0.0427558 0.1988279 0.0427558 0.1988279 0.9572442 -0.1988279
63115 0.9535007 -0.2070563 0.0464993 0.2070563 0.0464993 0.2070563 0.9535007 -0.2070563
66005 0.9494463 -0.2155502 0.0505537 0.2155502 0.0505537 0.2155502 0.9494463 -0.2155502
69028 0.9450579 -0.2243084 0.0549421 0.2243084 0.0549421 0.2243084 0.9450579 -0.2243084
72189 0.9403116 -0.2333277 0.0596884 0.2333277 0.0596884 0.2333277 0.9403116 -0.2333277
75495 0.9351822 -0.2426033 0.0648178 0.2426033 0.0648178 0.2426033 0.9351822 -0.2426033
78952 0.9296434 -0.2521285 0.0703566 0.2521285 0.0703566 0.2521285 0.9296434 -0.2521285
82567 0.9236683 -0.2618941 0.0763317 0.2618941 0.0763317 0.2618941 0.9236683 -0.2618941
86348 0.9172287 -0.2718884 0.0827713 0.2718884 0.0827713 0.2718884 0.9172287 -0.2718884
90302 0.9102961 -0.2820970 0.0897039 0.2820970 0.0897039 0.2820970 0.9102961 -0.2820970
94437 0.9028416 -0.2925024 0.0971584 0.2925024 0.0971584 0.2925024 0.9028416 -0.2925024
98762 0.8948360 -0.3030840 0.1051640 0.3030840 0.1051640 0.3030840 0.8948360 -0.3030840
103284 0.8862503 -0.3138173 0.1137497 0.3138173 0.1137497 0.3138173 0.8862503 -0.3138173
108014 0.8770562 -0.3246746 0.1229438 0.3246746 0.1229438 0.3246746 0.8770562 -0.3246746
112960 0.8672262 -0.3356238 0.1327738 0.3356238 0.1327738 0.3356238 0.8672262 -0.3356238
118133 0.8567342 -0.3466290 0.1432658 0.3466290 0.1432658 0.3466290 0.8567342 -0.3466290
123542 0.8455562 -0.3576502 0.1544438 0.3576502 0.1544438 0.3576502 0.8455562 -0.3576502
129199 0.8336706 -0.3686432 0.1663294 0.3686432 0.1663294 0.3686432 0.8336706 -0.3686432
135116 0.8210591 -0.3795596 0.1789409 0.3795596 0.1789409 0.3795596 0.8210591 -0.3795596
141303 0.8077071 -0.3903472 0.1922929 0.3903472 0.1922929 0.3903472 0.8077071 -0.3903472
147774 0.7936043 -0.4009499 0.2063957 0.4009499 0.2063957 0.4009499 0.7936043 -0.4009499
154540 0.7787459 -0.4113084 0.2212541 0.4113084 0.2212541 0.4113084 0.7787459 -0.4113084
161617 0.7631326 -0.4213606 0.2368674 0.4213606 0.2368674 0.4213606 0.7631326 -0.4213606
169018 0.7467716 -0.4310420 0.2532284 0.4310420 0.2532284 0.4310420 0.7467716 -0.4310420
176758 0.7296770 -0.4402867 0.2703230 0.4402867 0.2703230 0.4402867 0.7296770 -0.4402867
184852 0.7118702 -0.4490279 0.2881298 0.4490279 0.2881298 0.4490279 0.7118702 -0.4490279
193316 0.6933805 -0.4571994 0.3066195 0.4571994 0.3066195 0.4571994 0.6933805 -0.4571994
202169 0.6742450 -0.4647360 0.3257550 0.4647360 0.3257550 0.4647360 0.6742450 -0.4647360
211427 0.6545087 -0.4715753 0.3454913 0.4715753 0.3454913 0.4715753 0.6545087 -0.4715753
221108 0.6342246 -0.4776582 0.3657754 0.4776582 0.3657754 0.4776582 0.6342246 -0.4776582
231233 0.6134530 -0.4829304 0.3865470 0.4829304 0.3865470 0.4829304 0.6134530 -0.4829304
241822 0.5922610 -0.4873436 0.4077390 0.4873436 0.4077390 0.4873436 0.5922610 -0.4873436
252896 0.5707221 -0.4908564 0.4292779 0.4908564 0.4292779 0.4908564 0.5707221 -0.4908564
264476 0.5489149 -0.4934350 0.4510851 0.4934350 0.4510851 0.4934350 0.5489149 -0.4934350
276587 0.5269220 -0.4950545 0.4730780 0.4950545 0.4730780 0.4950545 0.5269220 -0.4950545
289253 0.5048291 -0.4956991 0.4951709 0.4956991 0.4951709 0.4956991 0.5048291 -0.4956991
302498 0.4827233 -0.4953626 0.5172767 0.4953626 0.5172767 0.4953626 0.4827233 -0.4953626
316350 0.4606920 -0.4940485 0.5393080 0.4940485 0.5393080 0.4940485 0.4606920 -0.4940485
330837 0.4388214 -0.4917700 0.5611786 0.4917700 0.5611786 0.4917700 0.4388214 -0.4917700
345986 0.4171950 -0.4885495 0.5828050 0.4885495 0.5828050 0.4885495 0.4171950 -0.4885495
361830 0.3958927 -0.4844184 0.6041073 0.4844184 0.6041073 0.4844184 0.3958927 -0.4844184
378399 0.3749893 -0.4794161 0.6250107 0.4794161 0.6250107 0.4794161 0.3749893 -0.4794161
395726 0.3545538 -0.4735890 0.6454462 0.4735890 0.6454462 0.4735890 0.3545538 -0.4735890
413847 0.3346485 -0.4669899 0.6653515 0.4669899 0.6653515 0.4669899 0.3346485 -0.4669899
432798 0.3153282 -0.4596764 0.6846718 0.4596764 0.6846718 0.4596764 0.3153282 -0.4596764
452617 0.2966402 -0.4517103 0.7033598 0.4517103 0.7033598 0.4517103 0.2966402 -0.4517103
473344 0.2786236 -0.4431560 0.7213764 0.4431560 0.7213764 0.4431560 0.2786236 -0.4431560
495019 0.2613098 -0.4340793 0.7386902 0.4340793 0.7386902 0.4340793 0.2613098 -0.4340793
517687 0.2447224 -0.4245468 0.7552776 0.4245468 0.7552776 0.4245468 0.2447224 -0.4245468
541393 0.2288774 -0.4146246 0.7711226 0.4146246 0.7711226 0.4146246 0.2288774 -0.4146246
566185 0.2137838 -0.4043774 0.7862162 0.4043774 0.7862162 0.4043774 0.2137838 -0.4043774
592111 0.1994441 -0.3938678 0.8005559 0.3938678 0.8005559 0.3938678 0.1994441 -0.3938678
619225 0.1858549 -0.3831559 0.8141451 0.3831559 0.8141451 0.3831559 0.1858549 -0.3831559
647581 0.1730076 -0.3722984 0.8269924 0.3722984 0.8269924 0.3722984 0.1730076 -0.3722984
677235 0.1608889 -0.3613483 0.8391111 0.3613483 0.8391111 0.3613483 0.1608889 -0.3613483
708247 0.1494815 -0.3503548 0.8505185 0.3503548 0.8505185 0.3503548 0.1494815 -0.3503548
740679 0.1387650 -0.3393633 0.8612350 0.3393633 0.8612350 0.3393633 0.1387650 -0.3393633
774597 0.1287162 -0.3284146 0.8712838 0.3284146 0.8712838 0.3284146 0.1287162 -0.3284146
810067 0.1193098 -0.3175459 0.8806902 0.3175459 0.8806902 0.3175459 0.1193098 -0.3175459
847162 0.1105191 -0.3067901 0.8894809 0.3067901 0.8894809 0.3067901 0.1105191 -0.3067901
885955 0.1023162 -0.2961762 0.8976838 0.2961762 0.8976838 0.2961762 0.1023162 -0.2961762
926525 0.0946725 -0.2857294 0.9053275 0.2857294 0.9053275 0.2857294 0.0946725 -0.2857294
968953 0.0875592 -0.2754717 0.9124408 0.2754717 0.9124408 0.2754717 0.0875592 -0.2754717
1013323 0.0809476 -0.2654215 0.9190524 0.2654215 0.9190524 0.2654215 0.0809476 -0.2654215
1059725 0.0748092 -0.2555943 0.9251908 0.2555943 0.9251908 0.2555943 0.0748092 -0.2555943
1108252 0.0691161 -0.2460026 0.9308839 0.2460026 0.9308839 0.2460026 0.0691161 -0.2460026
1159002 0.0638410 -0.2366567 0.9361590 0.2366567 0.9361590 0.2366567 0.0638410 -0.2366567
1212075 0.0589577 -0.2275641 0.9410423 0.2275641 0.9410423 0.2275641 0.0589577 -0.2275641
1267578 0.0544407 -0.2187305 0.9455593 0.2187305 0.9455593 0.2187305 0.0544407 -0.2187305
1325623 0.0502656 -0.2101598 0.9497344 0.2101598 0.9497344 0.2101598 0.0502656 -0.2101598
1386327 0.0464093 -0.2018540 0.9535907 0.2018540 0.9535907 0.2018540 0.0464093 -0.2018540
1449809 0.0428496 -0.1938138 0.9571504 0.1938138 0.9571504 0.1938138 0.0428496 -0.1938138
1516199 0.0395656 -0.1860384 0.9604344 0.1860384 0.9604344 0.1860384 0.0395656 -0.1860384
1585629 0.0365373 -0.1785262 0.9634627 0.1785262 0.9634627 0.1785262 0.0365373 -0.1785262
1658239 0.0337462 -0.1712744 0.9662538 0.1712744 0.9662538 0.1712744 0.0337462 -0.1712744
1734173 0.0311747 -0.1642794 0.9688253 0.1642794 0.9688253 0.1642794 0.0311747 -0.1642794
1813585 0.0288062 -0.1575369 0.9711938 0.1575369 0.9711938 0.1575369 0.0288062 -0.1575369
1896632 0.0266255 -0.1510421 0.9733745 0.1510421 0.9733745 0.1510421 0.0266255 -0.1510421
1983483 0.0246179 -0.1447896 0.9753821 0.1447896 0.9753821 0.1447896 0.0246179 -0.1447896
2074311 0.0227702 -0.1387736 0.9772298 0.1387736 0.9772298 0.1387736 0.0227702 -0.1387736
