!Murata Part Number: GRM188R11E153KA01
!These Parameters are Measured in Series Mode Connection
!Data Generated on Mar 30, 2021
!       o--ll--o
!Port1            Port2
!       o------o
!Operation Temp=25[degC], DC Bias Voltage=0[V]
!Freq. Start=100[Hz] Stop=6[GHz] 401[Steps]
# Hz S RI R 50
!Freq.(Hz) S11(Real) S11(Imag) S21(Real) S21(Imag) S12(Real) S12(Imag) S22(Real) S22(Imag)
100 0.9999950 -0.0009170 0.0000050 0.0009170 0.0000050 0.0009170 0.9999950 -0.0009170
105 0.9999948 -0.0009589 0.0000052 0.0009589 0.0000052 0.0009589 0.9999948 -0.0009589
109 0.9999945 -0.0010027 0.0000055 0.0010027 0.0000055 0.0010027 0.9999945 -0.0010027
114 0.9999942 -0.0010485 0.0000058 0.0010485 0.0000058 0.0010485 0.9999942 -0.0010485
120 0.9999939 -0.0010963 0.0000061 0.0010963 0.0000061 0.0010963 0.9999939 -0.0010963
125 0.9999936 -0.0011464 0.0000064 0.0011464 0.0000064 0.0011464 0.9999936 -0.0011464
131 0.9999933 -0.0011987 0.0000067 0.0011987 0.0000067 0.0011987 0.9999933 -0.0011987
137 0.9999929 -0.0012535 0.0000071 0.0012535 0.0000071 0.0012535 0.9999929 -0.0012535
143 0.9999925 -0.0013107 0.0000075 0.0013107 0.0000075 0.0013107 0.9999925 -0.0013107
150 0.9999921 -0.0013706 0.0000079 0.0013706 0.0000079 0.0013706 0.9999921 -0.0013706
156 0.9999916 -0.0014332 0.0000084 0.0014332 0.0000084 0.0014332 0.9999916 -0.0014332
164 0.9999912 -0.0014986 0.0000088 0.0014986 0.0000088 0.0014986 0.9999912 -0.0014986
171 0.9999907 -0.0015670 0.0000093 0.0015670 0.0000093 0.0015670 0.9999907 -0.0015670
179 0.9999901 -0.0016386 0.0000099 0.0016386 0.0000099 0.0016386 0.9999901 -0.0016386
187 0.9999895 -0.0017134 0.0000105 0.0017134 0.0000105 0.0017134 0.9999895 -0.0017134
196 0.9999889 -0.0017917 0.0000111 0.0017917 0.0000111 0.0017917 0.9999889 -0.0017917
205 0.9999882 -0.0018735 0.0000118 0.0018735 0.0000118 0.0018735 0.9999882 -0.0018735
214 0.9999875 -0.0019590 0.0000125 0.0019590 0.0000125 0.0019590 0.9999875 -0.0019590
224 0.9999868 -0.0020485 0.0000132 0.0020485 0.0000132 0.0020485 0.9999868 -0.0020485
234 0.9999859 -0.0021420 0.0000141 0.0021420 0.0000141 0.0021420 0.9999859 -0.0021420
245 0.9999851 -0.0022398 0.0000149 0.0022398 0.0000149 0.0022398 0.9999851 -0.0022398
256 0.9999841 -0.0023421 0.0000159 0.0023421 0.0000159 0.0023421 0.9999841 -0.0023421
268 0.9999831 -0.0024490 0.0000169 0.0024490 0.0000169 0.0024490 0.9999831 -0.0024490
280 0.9999821 -0.0025609 0.0000179 0.0025609 0.0000179 0.0025609 0.9999821 -0.0025609
293 0.9999809 -0.0026778 0.0000191 0.0026778 0.0000191 0.0026778 0.9999809 -0.0026778
306 0.9999797 -0.0028000 0.0000203 0.0028000 0.0000203 0.0028000 0.9999797 -0.0028000
320 0.9999784 -0.0029279 0.0000216 0.0029279 0.0000216 0.0029279 0.9999784 -0.0029279
335 0.9999770 -0.0030616 0.0000230 0.0030616 0.0000230 0.0030616 0.9999770 -0.0030616
350 0.9999755 -0.0032014 0.0000245 0.0032014 0.0000245 0.0032014 0.9999755 -0.0032014
366 0.9999739 -0.0033475 0.0000261 0.0033475 0.0000261 0.0033475 0.9999739 -0.0033475
383 0.9999721 -0.0035004 0.0000279 0.0035004 0.0000279 0.0035004 0.9999721 -0.0035004
401 0.9999703 -0.0036602 0.0000297 0.0036602 0.0000297 0.0036602 0.9999703 -0.0036602
419 0.9999683 -0.0038273 0.0000317 0.0038273 0.0000317 0.0038273 0.9999683 -0.0038273
438 0.9999661 -0.0040020 0.0000339 0.0040020 0.0000339 0.0040020 0.9999661 -0.0040020
458 0.9999638 -0.0041848 0.0000362 0.0041848 0.0000362 0.0041848 0.9999638 -0.0041848
479 0.9999613 -0.0043758 0.0000387 0.0043758 0.0000387 0.0043758 0.9999613 -0.0043758
501 0.9999585 -0.0045756 0.0000415 0.0045756 0.0000415 0.0045756 0.9999585 -0.0045756
524 0.9999556 -0.0047845 0.0000444 0.0047845 0.0000444 0.0047845 0.9999556 -0.0047845
548 0.9999525 -0.0050030 0.0000475 0.0050030 0.0000475 0.0050030 0.9999525 -0.0050030
573 0.9999491 -0.0052314 0.0000509 0.0052314 0.0000509 0.0052314 0.9999491 -0.0052314
600 0.9999454 -0.0054702 0.0000546 0.0054702 0.0000546 0.0054702 0.9999454 -0.0054702
627 0.9999414 -0.0057199 0.0000586 0.0057199 0.0000586 0.0057199 0.9999414 -0.0057199
656 0.9999371 -0.0059810 0.0000629 0.0059810 0.0000629 0.0059810 0.9999371 -0.0059810
686 0.9999325 -0.0062541 0.0000675 0.0062541 0.0000675 0.0062541 0.9999325 -0.0062541
717 0.9999275 -0.0065396 0.0000725 0.0065396 0.0000725 0.0065396 0.9999275 -0.0065396
750 0.9999221 -0.0068381 0.0000779 0.0068381 0.0000779 0.0068381 0.9999221 -0.0068381
784 0.9999163 -0.0071502 0.0000837 0.0071502 0.0000837 0.0071502 0.9999163 -0.0071502
820 0.9999099 -0.0074765 0.0000901 0.0074765 0.0000901 0.0074765 0.9999099 -0.0074765
858 0.9999031 -0.0078178 0.0000969 0.0078178 0.0000969 0.0078178 0.9999031 -0.0078178
897 0.9998957 -0.0081746 0.0001043 0.0081746 0.0001043 0.0081746 0.9998957 -0.0081746
938 0.9998877 -0.0085476 0.0001123 0.0085476 0.0001123 0.0085476 0.9998877 -0.0085476
981 0.9998791 -0.0089377 0.0001209 0.0089377 0.0001209 0.0089377 0.9998791 -0.0089377
1026 0.9998698 -0.0093456 0.0001302 0.0093456 0.0001302 0.0093456 0.9998698 -0.0093456
1073 0.9998596 -0.0097720 0.0001404 0.0097720 0.0001404 0.0097720 0.9998596 -0.0097720
1122 0.9998487 -0.0102179 0.0001513 0.0102179 0.0001513 0.0102179 0.9998487 -0.0102179
1174 0.9998369 -0.0106842 0.0001631 0.0106842 0.0001631 0.0106842 0.9998369 -0.0106842
1227 0.9998240 -0.0111717 0.0001760 0.0111717 0.0001760 0.0111717 0.9998240 -0.0111717
1283 0.9998101 -0.0116814 0.0001899 0.0116814 0.0001899 0.0116814 0.9998101 -0.0116814
1342 0.9997951 -0.0122145 0.0002049 0.0122145 0.0002049 0.0122145 0.9997951 -0.0122145
1404 0.9997787 -0.0127718 0.0002213 0.0127718 0.0002213 0.0127718 0.9997787 -0.0127718
1468 0.9997610 -0.0133546 0.0002390 0.0133546 0.0002390 0.0133546 0.9997610 -0.0133546
1535 0.9997418 -0.0139639 0.0002582 0.0139639 0.0002582 0.0139639 0.9997418 -0.0139639
1606 0.9997209 -0.0146011 0.0002791 0.0146011 0.0002791 0.0146011 0.9997209 -0.0146011
1679 0.9996983 -0.0152673 0.0003017 0.0152673 0.0003017 0.0152673 0.9996983 -0.0152673
1756 0.9996736 -0.0159640 0.0003264 0.0159640 0.0003264 0.0159640 0.9996736 -0.0159640
1836 0.9996468 -0.0166924 0.0003532 0.0166924 0.0003532 0.0166924 0.9996468 -0.0166924
1920 0.9996177 -0.0174541 0.0003823 0.0174541 0.0003823 0.0174541 0.9996177 -0.0174541
2008 0.9995860 -0.0182506 0.0004140 0.0182506 0.0004140 0.0182506 0.9995860 -0.0182506
2100 0.9995515 -0.0190833 0.0004485 0.0190833 0.0004485 0.0190833 0.9995515 -0.0190833
2196 0.9995139 -0.0199541 0.0004861 0.0199541 0.0004861 0.0199541 0.9995139 -0.0199541
2297 0.9994730 -0.0208645 0.0005270 0.0208645 0.0005270 0.0208645 0.9994730 -0.0208645
2402 0.9994284 -0.0218165 0.0005716 0.0218165 0.0005716 0.0218165 0.9994284 -0.0218165
2512 0.9993798 -0.0228118 0.0006202 0.0228118 0.0006202 0.0228118 0.9993798 -0.0228118
2627 0.9993267 -0.0238525 0.0006733 0.0238525 0.0006733 0.0238525 0.9993267 -0.0238525
2748 0.9992689 -0.0249406 0.0007311 0.0249406 0.0007311 0.0249406 0.9992689 -0.0249406
2873 0.9992059 -0.0260782 0.0007941 0.0260782 0.0007941 0.0260782 0.9992059 -0.0260782
3005 0.9991371 -0.0272676 0.0008629 0.0272676 0.0008629 0.0272676 0.9991371 -0.0272676
3143 0.9990621 -0.0285110 0.0009379 0.0285110 0.0009379 0.0285110 0.9990621 -0.0285110
3287 0.9989802 -0.0298109 0.0010198 0.0298109 0.0010198 0.0298109 0.9989802 -0.0298109
3437 0.9988909 -0.0311698 0.0011091 0.0311698 0.0011091 0.0311698 0.9988909 -0.0311698
3594 0.9987934 -0.0325904 0.0012066 0.0325904 0.0012066 0.0325904 0.9987934 -0.0325904
3759 0.9986871 -0.0340753 0.0013129 0.0340753 0.0013129 0.0340753 0.9986871 -0.0340753
3931 0.9985710 -0.0356276 0.0014290 0.0356276 0.0014290 0.0356276 0.9985710 -0.0356276
4111 0.9984443 -0.0372500 0.0015557 0.0372500 0.0015557 0.0372500 0.9984443 -0.0372500
4299 0.9983061 -0.0389458 0.0016939 0.0389458 0.0016939 0.0389458 0.9983061 -0.0389458
4496 0.9981553 -0.0407182 0.0018447 0.0407182 0.0018447 0.0407182 0.9981553 -0.0407182
4702 0.9979907 -0.0425705 0.0020093 0.0425705 0.0020093 0.0425705 0.9979907 -0.0425705
4918 0.9978111 -0.0445062 0.0021889 0.0445062 0.0021889 0.0445062 0.9978111 -0.0445062
5143 0.9976152 -0.0465291 0.0023848 0.0465291 0.0023848 0.0465291 0.9976152 -0.0465291
5378 0.9974015 -0.0486428 0.0025985 0.0486428 0.0025985 0.0486428 0.9974015 -0.0486428
5625 0.9971684 -0.0508514 0.0028316 0.0508514 0.0028316 0.0508514 0.9971684 -0.0508514
5882 0.9969141 -0.0531589 0.0030859 0.0531589 0.0030859 0.0531589 0.9969141 -0.0531589
6151 0.9966367 -0.0555695 0.0033633 0.0555695 0.0033633 0.0555695 0.9966367 -0.0555695
6433 0.9963342 -0.0580878 0.0036658 0.0580878 0.0036658 0.0580878 0.9963342 -0.0580878
6728 0.9960042 -0.0607183 0.0039958 0.0607183 0.0039958 0.0607183 0.9960042 -0.0607183
7036 0.9956445 -0.0634657 0.0043555 0.0634657 0.0043555 0.0634657 0.9956445 -0.0634657
7358 0.9952521 -0.0663351 0.0047479 0.0663351 0.0047479 0.0663351 0.9952521 -0.0663351
7695 0.9948244 -0.0693314 0.0051756 0.0693314 0.0051756 0.0693314 0.9948244 -0.0693314
8047 0.9943580 -0.0724600 0.0056420 0.0724600 0.0056420 0.0724600 0.9943580 -0.0724600
8416 0.9938495 -0.0757264 0.0061505 0.0757264 0.0061505 0.0757264 0.9938495 -0.0757264
8801 0.9932952 -0.0791361 0.0067048 0.0791361 0.0067048 0.0791361 0.9932952 -0.0791361
9204 0.9926909 -0.0826950 0.0073091 0.0826950 0.0073091 0.0826950 0.9926909 -0.0826950
9626 0.9920322 -0.0864090 0.0079678 0.0864090 0.0079678 0.0864090 0.9920322 -0.0864090
10066 0.9913142 -0.0902842 0.0086858 0.0902842 0.0086858 0.0902842 0.9913142 -0.0902842
10527 0.9905315 -0.0943269 0.0094685 0.0943269 0.0094685 0.0943269 0.9905315 -0.0943269
11009 0.9896786 -0.0985436 0.0103214 0.0985436 0.0103214 0.0985436 0.9896786 -0.0985436
11514 0.9887490 -0.1029406 0.0112510 0.1029406 0.0112510 0.1029406 0.9887490 -0.1029406
12041 0.9877359 -0.1075248 0.0122641 0.1075248 0.0122641 0.1075248 0.9877359 -0.1075248
12592 0.9866321 -0.1123026 0.0133679 0.1123026 0.0133679 0.1123026 0.9866321 -0.1123026
13169 0.9854294 -0.1172810 0.0145706 0.1172810 0.0145706 0.1172810 0.9854294 -0.1172810
13772 0.9841192 -0.1224666 0.0158808 0.1224666 0.0158808 0.1224666 0.9841192 -0.1224666
14402 0.9826921 -0.1278662 0.0173079 0.1278662 0.0173079 0.1278662 0.9826921 -0.1278662
15062 0.9811379 -0.1334865 0.0188621 0.1334865 0.0188621 0.1334865 0.9811379 -0.1334865
15752 0.9794456 -0.1393340 0.0205544 0.1393340 0.0205544 0.1393340 0.9794456 -0.1393340
16473 0.9776033 -0.1454151 0.0223967 0.1454151 0.0223967 0.1454151 0.9776033 -0.1454151
17227 0.9755983 -0.1517360 0.0244017 0.1517360 0.0244017 0.1517360 0.9755983 -0.1517360
18016 0.9734169 -0.1583023 0.0265831 0.1583023 0.0265831 0.1583023 0.9734169 -0.1583023
18841 0.9710443 -0.1651196 0.0289557 0.1651196 0.0289557 0.1651196 0.9710443 -0.1651196
19704 0.9684647 -0.1721926 0.0315353 0.1721926 0.0315353 0.1721926 0.9684647 -0.1721926
20606 0.9656612 -0.1795257 0.0343388 0.1795257 0.0343388 0.1795257 0.9656612 -0.1795257
21550 0.9626158 -0.1871224 0.0373842 0.1871224 0.0373842 0.1871224 0.9626158 -0.1871224
22537 0.9593094 -0.1949853 0.0406906 0.1949853 0.0406906 0.1949853 0.9593094 -0.1949853
23569 0.9557215 -0.2031160 0.0442785 0.2031160 0.0442785 0.2031160 0.9557215 -0.2031160
24648 0.9518307 -0.2115149 0.0481693 0.2115149 0.0481693 0.2115149 0.9518307 -0.2115149
25777 0.9476143 -0.2201811 0.0523857 0.2201811 0.0523857 0.2201811 0.9476143 -0.2201811
26957 0.9430484 -0.2291120 0.0569516 0.2291120 0.0569516 0.2291120 0.9430484 -0.2291120
28191 0.9381081 -0.2383033 0.0618919 0.2383033 0.0618919 0.2383033 0.9381081 -0.2383033
29482 0.9327674 -0.2477489 0.0672326 0.2477489 0.0672326 0.2477489 0.9327674 -0.2477489
30832 0.9269993 -0.2574401 0.0730007 0.2574401 0.0730007 0.2574401 0.9269993 -0.2574401
32244 0.9207763 -0.2673661 0.0792237 0.2673661 0.0792237 0.2673661 0.9207763 -0.2673661
33721 0.9140700 -0.2775132 0.0859300 0.2775132 0.0859300 0.2775132 0.9140700 -0.2775132
35265 0.9068516 -0.2878649 0.0931484 0.2878649 0.0931484 0.2878649 0.9068516 -0.2878649
36880 0.8990921 -0.2984015 0.1009079 0.2984015 0.1009079 0.2984015 0.8990921 -0.2984015
38569 0.8907627 -0.3090998 0.1092373 0.3090998 0.1092373 0.3090998 0.8907627 -0.3090998
40335 0.8818350 -0.3199331 0.1181650 0.3199331 0.1181650 0.3199331 0.8818350 -0.3199331
42182 0.8722815 -0.3308711 0.1277185 0.3308711 0.1277185 0.3308711 0.8722815 -0.3308711
44113 0.8620759 -0.3418792 0.1379241 0.3418792 0.1379241 0.3418792 0.8620759 -0.3418792
46134 0.8511939 -0.3529191 0.1488061 0.3529191 0.1488061 0.3529191 0.8511939 -0.3529191
48246 0.8396131 -0.3639483 0.1603869 0.3639483 0.1603869 0.3639483 0.8396131 -0.3639483
50455 0.8273145 -0.3749203 0.1726855 0.3749203 0.1726855 0.3749203 0.8273145 -0.3749203
52766 0.8142822 -0.3857849 0.1857178 0.3857849 0.1857178 0.3857849 0.8142822 -0.3857849
55182 0.8005048 -0.3964878 0.1994952 0.3964878 0.1994952 0.3964878 0.8005048 -0.3964878
57709 0.7859753 -0.4069718 0.2140247 0.4069718 0.2140247 0.4069718 0.7859753 -0.4069718
60352 0.7706925 -0.4171763 0.2293075 0.4171763 0.2293075 0.4171763 0.7706925 -0.4171763
63115 0.7546610 -0.4270387 0.2453390 0.4270387 0.2453390 0.4270387 0.7546610 -0.4270387
66005 0.7378918 -0.4364943 0.2621082 0.4364943 0.2621082 0.4364943 0.7378918 -0.4364943
69028 0.7204033 -0.4454777 0.2795967 0.4454777 0.2795967 0.4454777 0.7204033 -0.4454777
72189 0.7022209 -0.4539230 0.2977791 0.4539230 0.2977791 0.4539230 0.7022209 -0.4539230
75495 0.6833780 -0.4617656 0.3166220 0.4617656 0.3166220 0.4617656 0.6833780 -0.4617656
78952 0.6639154 -0.4689424 0.3360846 0.4689424 0.3360846 0.4689424 0.6639154 -0.4689424
82567 0.6438819 -0.4753935 0.3561181 0.4753935 0.3561181 0.4753935 0.6438819 -0.4753935
86348 0.6233335 -0.4810631 0.3766665 0.4810631 0.3766665 0.4810631 0.6233335 -0.4810631
90302 0.6023334 -0.4859003 0.3976666 0.4859003 0.3976666 0.4859003 0.6023334 -0.4859003
94437 0.5809510 -0.4898608 0.4190490 0.4898608 0.4190490 0.4898608 0.5809510 -0.4898608
98762 0.5592614 -0.4929073 0.4407386 0.4929073 0.4407386 0.4929073 0.5592614 -0.4929073
103284 0.5373443 -0.4950105 0.4626557 0.4950105 0.4626557 0.4950105 0.5373443 -0.4950105
108014 0.5152830 -0.4961498 0.4847170 0.4961498 0.4847170 0.4961498 0.5152830 -0.4961498
112960 0.4931630 -0.4963138 0.5068370 0.4963138 0.5068370 0.4963138 0.4931630 -0.4963138
118133 0.4710707 -0.4955007 0.5289293 0.4955007 0.5289293 0.4955007 0.4710707 -0.4955007
123542 0.4490922 -0.4937178 0.5509078 0.4937178 0.5509078 0.4937178 0.4490922 -0.4937178
129199 0.4273122 -0.4909824 0.5726878 0.4909824 0.5726878 0.4909824 0.4273122 -0.4909824
135116 0.4058119 -0.4873201 0.5941881 0.4873201 0.5941881 0.4873201 0.4058119 -0.4873201
141303 0.3846688 -0.4827655 0.6153312 0.4827655 0.6153312 0.4827655 0.3846688 -0.4827655
147774 0.3639549 -0.4773603 0.6360451 0.4773603 0.6360451 0.4773603 0.3639549 -0.4773603
154540 0.3437364 -0.4711535 0.6562636 0.4711535 0.6562636 0.4711535 0.3437364 -0.4711535
161617 0.3240723 -0.4641992 0.6759277 0.4641992 0.6759277 0.4641992 0.3240723 -0.4641992
169018 0.3050144 -0.4565566 0.6949856 0.4565566 0.6949856 0.4565566 0.3050144 -0.4565566
176758 0.2866069 -0.4482882 0.7133931 0.4482882 0.7133931 0.4482882 0.2866069 -0.4482882
184852 0.2688861 -0.4394588 0.7311139 0.4394588 0.7311139 0.4394588 0.2688861 -0.4394588
193316 0.2518802 -0.4301346 0.7481198 0.4301346 0.7481198 0.4301346 0.2518802 -0.4301346
202169 0.2356101 -0.4203820 0.7643899 0.4203820 0.7643899 0.4203820 0.2356101 -0.4203820
211427 0.2200892 -0.4102665 0.7799108 0.4102665 0.7799108 0.4102665 0.2200892 -0.4102665
221108 0.2053242 -0.3998523 0.7946758 0.3998523 0.7946758 0.3998523 0.2053242 -0.3998523
231233 0.1913153 -0.3892012 0.8086847 0.3892012 0.8086847 0.3892012 0.1913153 -0.3892012
241822 0.1780571 -0.3783724 0.8219429 0.3783724 0.8219429 0.3783724 0.1780571 -0.3783724
252896 0.1655392 -0.3674214 0.8344608 0.3674214 0.8344608 0.3674214 0.1655392 -0.3674214
264476 0.1537465 -0.3564002 0.8462535 0.3564002 0.8462535 0.3564002 0.1537465 -0.3564002
276587 0.1426604 -0.3453568 0.8573396 0.3453568 0.8573396 0.3453568 0.1426604 -0.3453568
289253 0.1322592 -0.3343351 0.8677408 0.3343351 0.8677408 0.3343351 0.1322592 -0.3343351
302498 0.1225184 -0.3233751 0.8774816 0.3233751 0.8774816 0.3233751 0.1225184 -0.3233751
316350 0.1134119 -0.3125122 0.8865881 0.3125122 0.8865881 0.3125122 0.1134119 -0.3125122
330837 0.1049119 -0.3017783 0.8950881 0.3017783 0.8950881 0.3017783 0.1049119 -0.3017783
345986 0.0969898 -0.2912009 0.9030102 0.2912009 0.9030102 0.2912009 0.0969898 -0.2912009
361830 0.0896165 -0.2808042 0.9103835 0.2808042 0.9103835 0.2808042 0.0896165 -0.2808042
378399 0.0827627 -0.2706085 0.9172373 0.2706085 0.9172373 0.2706085 0.0827627 -0.2706085
395726 0.0763991 -0.2606312 0.9236009 0.2606312 0.9236009 0.2606312 0.0763991 -0.2606312
413847 0.0704971 -0.2508864 0.9295029 0.2508864 0.9295029 0.2508864 0.0704971 -0.2508864
432798 0.0650285 -0.2413855 0.9349715 0.2413855 0.9349715 0.2413855 0.0650285 -0.2413855
452617 0.0599661 -0.2321374 0.9400339 0.2321374 0.9400339 0.2321374 0.0599661 -0.2321374
473344 0.0552834 -0.2231486 0.9447166 0.2231486 0.9447166 0.2231486 0.0552834 -0.2231486
495019 0.0509551 -0.2144237 0.9490449 0.2144237 0.9490449 0.2144237 0.0509551 -0.2144237
517687 0.0469573 -0.2059654 0.9530427 0.2059654 0.9530427 0.2059654 0.0469573 -0.2059654
541393 0.0432667 -0.1977748 0.9567333 0.1977748 0.9567333 0.1977748 0.0432667 -0.1977748
566185 0.0398617 -0.1898515 0.9601383 0.1898515 0.9601383 0.1898515 0.0398617 -0.1898515
592111 0.0367217 -0.1821941 0.9632783 0.1821941 0.9632783 0.1821941 0.0367217 -0.1821941
619225 0.0338273 -0.1747999 0.9661727 0.1747999 0.9661727 0.1747999 0.0338273 -0.1747999
647581 0.0311604 -0.1676654 0.9688396 0.1676654 0.9688396 0.1676654 0.0311604 -0.1676654
677235 0.0287040 -0.1607866 0.9712960 0.1607866 0.9712960 0.1607866 0.0287040 -0.1607866
708247 0.0264421 -0.1541585 0.9735579 0.1541585 0.9735579 0.1541585 0.0264421 -0.1541585
740679 0.0243600 -0.1477757 0.9756400 0.1477757 0.9756400 0.1477757 0.0243600 -0.1477757
774597 0.0224439 -0.1416326 0.9775561 0.1416326 0.9775561 0.1416326 0.0224439 -0.1416326
810067 0.0206810 -0.1357231 0.9793190 0.1357231 0.9793190 0.1357231 0.0206810 -0.1357231
847162 0.0190593 -0.1300409 0.9809407 0.1300409 0.9809407 0.1300409 0.0190593 -0.1300409
885955 0.0175679 -0.1245795 0.9824321 0.1245795 0.9824321 0.1245795 0.0175679 -0.1245795
926525 0.0161965 -0.1193323 0.9838035 0.1193323 0.9838035 0.1193323 0.0161965 -0.1193323
968953 0.0149357 -0.1142928 0.9850643 0.1142928 0.9850643 0.1142928 0.0149357 -0.1142928
1013323 0.0137768 -0.1094542 0.9862232 0.1094542 0.9862232 0.1094542 0.0137768 -0.1094542
1059725 0.0127116 -0.1048099 0.9872884 0.1048099 0.9872884 0.1048099 0.0127116 -0.1048099
1108252 0.0117328 -0.1003534 0.9882672 0.1003534 0.9882672 0.1003534 0.0117328 -0.1003534
1159002 0.0108335 -0.0960782 0.9891665 0.0960782 0.9891665 0.0960782 0.0108335 -0.0960782
1212075 0.0100072 -0.0919778 0.9899928 0.0919778 0.9899928 0.0919778 0.0100072 -0.0919778
1267578 0.0092481 -0.0880460 0.9907519 0.0880460 0.9907519 0.0880460 0.0092481 -0.0880460
1325623 0.0085508 -0.0842766 0.9914492 0.0842766 0.9914492 0.0842766 0.0085508 -0.0842766
1386327 0.0079104 -0.0806636 0.9920896 0.0806636 0.9920896 0.0806636 0.0079104 -0.0806636
1449809 0.0073221 -0.0772011 0.9926779 0.0772011 0.9926779 0.0772011 0.0073221 -0.0772011
1516199 0.0067818 -0.0738834 0.9932182 0.0738834 0.9932182 0.0738834 0.0067818 -0.0738834
1585629 0.0062856 -0.0707048 0.9937144 0.0707048 0.9937144 0.0707048 0.0062856 -0.0707048
1658239 0.0058297 -0.0676600 0.9941703 0.0676600 0.9941703 0.0676600 0.0058297 -0.0676600
1734173 0.0054110 -0.0647437 0.9945890 0.0647437 0.9945890 0.0647437 0.0054110 -0.0647437
1813585 0.0050263 -0.0619509 0.9949737 0.0619509 0.9949737 0.0619509 0.0050263 -0.0619509
1896632 0.0046728 -0.0592765 0.9953272 0.0592765 0.9953272 0.0592765 0.0046728 -0.0592765
1983483 0.0043479 -0.0567158 0.9956521 0.0567158 0.9956521 0.0567158 0.0043479 -0.0567158
2074311 0.0040492 -0.0542642 0.9959508 0.0542642 0.9959508 0.0542642 0.0040492 -0.0542642
