!Murata Part Number: GRM42A7U3F270JW31
!These Parameters are Measured in Series Mode Connection
!Data Generated on Mar 30, 2021
!       o--ll--o
!Port1            Port2
!       o------o
!Operation Temp=25[degC], DC Bias Voltage=0[V]
!Freq. Start=100[MHz] Stop=3[GHz] 401[Steps]
# Hz S RI R 50
!Freq.(Hz) S11(Real) S11(Imag) S21(Real) S21(Imag) S12(Real) S12(Imag) S22(Real) S22(Imag)
100000000 0.2547945 -0.4342789 0.7452055 0.4342789 0.7452055 0.4342789 0.2547945 -0.4342789
107250000 0.2287556 -0.4184553 0.7712444 0.4184553 0.7712444 0.4184553 0.2287556 -0.4184553
114500000 0.2061174 -0.4028293 0.7938826 0.4028293 0.7938826 0.4028293 0.2061174 -0.4028293
121750000 0.1863740 -0.3876108 0.8136260 0.3876108 0.8136260 0.3876108 0.1863740 -0.3876108
129000000 0.1690962 -0.3729277 0.8309038 0.3729277 0.8309038 0.3729277 0.1690962 -0.3729277
136250000 0.1539213 -0.3588516 0.8460787 0.3588516 0.8460787 0.3588516 0.1539213 -0.3588516
143500000 0.1405445 -0.3454159 0.8594555 0.3454159 0.8594555 0.3454159 0.1405445 -0.3454159
150750000 0.1287095 -0.3326287 0.8712905 0.3326287 0.8712905 0.3326287 0.1287095 -0.3326287
158000000 0.1182009 -0.3204810 0.8817991 0.3204810 0.8817991 0.3204810 0.1182009 -0.3204810
165250000 0.1088372 -0.3089536 0.8911628 0.3089536 0.8911628 0.3089536 0.1088372 -0.3089536
172500000 0.1004652 -0.2980207 0.8995348 0.2980207 0.8995348 0.2980207 0.1004652 -0.2980207
179750000 0.0929555 -0.2876528 0.9070445 0.2876528 0.9070445 0.2876528 0.0929555 -0.2876528
187000000 0.0861979 -0.2778190 0.9138021 0.2778190 0.9138021 0.2778190 0.0861979 -0.2778190
194250000 0.0800988 -0.2684879 0.9199012 0.2684879 0.9199012 0.2684879 0.0800988 -0.2684879
201500000 0.0745781 -0.2596288 0.9254219 0.2596288 0.9254219 0.2596288 0.0745781 -0.2596288
208750000 0.0695672 -0.2512118 0.9304328 0.2512118 0.9304328 0.2512118 0.0695672 -0.2512118
216000000 0.0650069 -0.2432085 0.9349931 0.2432085 0.9349931 0.2432085 0.0650069 -0.2432085
223250000 0.0608465 -0.2355922 0.9391535 0.2355922 0.9391535 0.2355922 0.0608465 -0.2355922
230500000 0.0570416 -0.2283375 0.9429584 0.2283375 0.9429584 0.2283375 0.0570416 -0.2283375
237750000 0.0535540 -0.2214210 0.9464460 0.2214210 0.9464460 0.2214210 0.0535540 -0.2214210
245000000 0.0503502 -0.2148205 0.9496498 0.2148205 0.9496498 0.2148205 0.0503502 -0.2148205
252250000 0.0474011 -0.2085158 0.9525989 0.2085158 0.9525989 0.2085158 0.0474011 -0.2085158
259500000 0.0446809 -0.2024878 0.9553191 0.2024878 0.9553191 0.2024878 0.0446809 -0.2024878
266750000 0.0421672 -0.1967189 0.9578328 0.1967189 0.9578328 0.1967189 0.0421672 -0.1967189
274000000 0.0398402 -0.1911928 0.9601598 0.1911928 0.9601598 0.1911928 0.0398402 -0.1911928
281250000 0.0376821 -0.1858945 0.9623179 0.1858945 0.9623179 0.1858945 0.0376821 -0.1858945
288500000 0.0356775 -0.1808098 0.9643225 0.1808098 0.9643225 0.1808098 0.0356775 -0.1808098
295750000 0.0338126 -0.1759260 0.9661874 0.1759260 0.9661874 0.1759260 0.0338126 -0.1759260
303000000 0.0320749 -0.1712308 0.9679251 0.1712308 0.9679251 0.1712308 0.0320749 -0.1712308
310250000 0.0304535 -0.1667132 0.9695465 0.1667132 0.9695465 0.1667132 0.0304535 -0.1667132
317500000 0.0289385 -0.1623629 0.9710615 0.1623629 0.9710615 0.1623629 0.0289385 -0.1623629
324750000 0.0275210 -0.1581702 0.9724790 0.1581702 0.9724790 0.1581702 0.0275210 -0.1581702
332000000 0.0261932 -0.1541261 0.9738068 0.1541261 0.9738068 0.1541261 0.0261932 -0.1541261
339250000 0.0249479 -0.1502225 0.9750521 0.1502225 0.9750521 0.1502225 0.0249479 -0.1502225
346500000 0.0237785 -0.1464515 0.9762215 0.1464515 0.9762215 0.1464515 0.0237785 -0.1464515
353750000 0.0226793 -0.1428059 0.9773207 0.1428059 0.9773207 0.1428059 0.0226793 -0.1428059
361000000 0.0216449 -0.1392792 0.9783551 0.1392792 0.9783551 0.1392792 0.0216449 -0.1392792
368250000 0.0206706 -0.1358649 0.9793294 0.1358649 0.9793294 0.1358649 0.0206706 -0.1358649
375500000 0.0197520 -0.1325572 0.9802480 0.1325572 0.9802480 0.1325572 0.0197520 -0.1325572
382750000 0.0188850 -0.1293508 0.9811150 0.1293508 0.9811150 0.1293508 0.0188850 -0.1293508
390000000 0.0180661 -0.1262404 0.9819339 0.1262404 0.9819339 0.1262404 0.0180661 -0.1262404
397250000 0.0172920 -0.1232213 0.9827080 0.1232213 0.9827080 0.1232213 0.0172920 -0.1232213
404500000 0.0165596 -0.1202890 0.9834404 0.1202890 0.9834404 0.1202890 0.0165596 -0.1202890
411750000 0.0158661 -0.1174393 0.9841339 0.1174393 0.9841339 0.1174393 0.0158661 -0.1174393
419000000 0.0152090 -0.1146683 0.9847910 0.1146683 0.9847910 0.1146683 0.0152090 -0.1146683
426250000 0.0145859 -0.1119722 0.9854141 0.1119722 0.9854141 0.1119722 0.0145859 -0.1119722
433500000 0.0139947 -0.1093476 0.9860053 0.1093476 0.9860053 0.1093476 0.0139947 -0.1093476
440750000 0.0134334 -0.1067911 0.9865666 0.1067911 0.9865666 0.1067911 0.0134334 -0.1067911
448000000 0.0129002 -0.1042998 0.9870998 0.1042998 0.9870998 0.1042998 0.0129002 -0.1042998
455250000 0.0123933 -0.1018707 0.9876067 0.1018707 0.9876067 0.1018707 0.0123933 -0.1018707
462500000 0.0119111 -0.0995010 0.9880889 0.0995010 0.9880889 0.0995010 0.0119111 -0.0995010
469750000 0.0114524 -0.0971882 0.9885476 0.0971882 0.9885476 0.0971882 0.0114524 -0.0971882
477000000 0.0110156 -0.0949298 0.9889844 0.0949298 0.9889844 0.0949298 0.0110156 -0.0949298
484250000 0.0105996 -0.0927236 0.9894004 0.0927236 0.9894004 0.0927236 0.0105996 -0.0927236
491500000 0.0102032 -0.0905672 0.9897968 0.0905672 0.9897968 0.0905672 0.0102032 -0.0905672
498750000 0.0098253 -0.0884587 0.9901747 0.0884587 0.9901747 0.0884587 0.0098253 -0.0884587
506000000 0.0094649 -0.0863962 0.9905351 0.0863962 0.9905351 0.0863962 0.0094649 -0.0863962
513250000 0.0091211 -0.0843776 0.9908789 0.0843776 0.9908789 0.0843776 0.0091211 -0.0843776
520500000 0.0087930 -0.0824014 0.9912070 0.0824014 0.9912070 0.0824014 0.0087930 -0.0824014
527750000 0.0084798 -0.0804658 0.9915202 0.0804658 0.9915202 0.0804658 0.0084798 -0.0804658
535000000 0.0081807 -0.0785692 0.9918193 0.0785692 0.9918193 0.0785692 0.0081807 -0.0785692
542250000 0.0078950 -0.0767101 0.9921050 0.0767101 0.9921050 0.0767101 0.0078950 -0.0767101
549500000 0.0076222 -0.0748871 0.9923778 0.0748871 0.9923778 0.0748871 0.0076222 -0.0748871
556750000 0.0073614 -0.0730989 0.9926386 0.0730989 0.9926386 0.0730989 0.0073614 -0.0730989
564000000 0.0071122 -0.0713441 0.9928878 0.0713441 0.9928878 0.0713441 0.0071122 -0.0713441
571250000 0.0068740 -0.0696215 0.9931260 0.0696215 0.9931260 0.0696215 0.0068740 -0.0696215
578500000 0.0066463 -0.0679300 0.9933537 0.0679300 0.9933537 0.0679300 0.0066463 -0.0679300
585750000 0.0064286 -0.0662683 0.9935714 0.0662683 0.9935714 0.0662683 0.0064286 -0.0662683
593000000 0.0062205 -0.0646355 0.9937795 0.0646355 0.9937795 0.0646355 0.0062205 -0.0646355
600250000 0.0060215 -0.0630305 0.9939785 0.0630305 0.9939785 0.0630305 0.0060215 -0.0630305
607500000 0.0058312 -0.0614523 0.9941688 0.0614523 0.9941688 0.0614523 0.0058312 -0.0614523
614750000 0.0056493 -0.0599001 0.9943507 0.0599001 0.9943507 0.0599001 0.0056493 -0.0599001
622000000 0.0054754 -0.0583728 0.9945246 0.0583728 0.9945246 0.0583728 0.0054754 -0.0583728
629250000 0.0053091 -0.0568698 0.9946909 0.0568698 0.9946909 0.0568698 0.0053091 -0.0568698
636500000 0.0051502 -0.0553901 0.9948498 0.0553901 0.9948498 0.0553901 0.0051502 -0.0553901
643750000 0.0049983 -0.0539329 0.9950017 0.0539329 0.9950017 0.0539329 0.0049983 -0.0539329
651000000 0.0048531 -0.0524976 0.9951469 0.0524976 0.9951469 0.0524976 0.0048531 -0.0524976
658250000 0.0047145 -0.0510834 0.9952855 0.0510834 0.9952855 0.0510834 0.0047145 -0.0510834
665500000 0.0045820 -0.0496896 0.9954180 0.0496896 0.9954180 0.0496896 0.0045820 -0.0496896
672750000 0.0044556 -0.0483156 0.9955444 0.0483156 0.9955444 0.0483156 0.0044556 -0.0483156
680000000 0.0043349 -0.0469608 0.9956651 0.0469608 0.9956651 0.0469608 0.0043349 -0.0469608
687250000 0.0042198 -0.0456244 0.9957802 0.0456244 0.9957802 0.0456244 0.0042198 -0.0456244
694500000 0.0041100 -0.0443061 0.9958900 0.0443061 0.9958900 0.0443061 0.0041100 -0.0443061
701750000 0.0040054 -0.0430051 0.9959946 0.0430051 0.9959946 0.0430051 0.0040054 -0.0430051
709000000 0.0039057 -0.0417209 0.9960943 0.0417209 0.9960943 0.0417209 0.0039057 -0.0417209
716250000 0.0038108 -0.0404531 0.9961892 0.0404531 0.9961892 0.0404531 0.0038108 -0.0404531
723500000 0.0037205 -0.0392012 0.9962795 0.0392012 0.9962795 0.0392012 0.0037205 -0.0392012
730750000 0.0036347 -0.0379646 0.9963653 0.0379646 0.9963653 0.0379646 0.0036347 -0.0379646
738000000 0.0035533 -0.0367429 0.9964467 0.0367429 0.9964467 0.0367429 0.0035533 -0.0367429
745250000 0.0034759 -0.0355357 0.9965241 0.0355357 0.9965241 0.0355357 0.0034759 -0.0355357
752500000 0.0034027 -0.0343425 0.9965973 0.0343425 0.9965973 0.0343425 0.0034027 -0.0343425
759750000 0.0033333 -0.0331629 0.9966667 0.0331629 0.9966667 0.0331629 0.0033333 -0.0331629
767000000 0.0032677 -0.0319966 0.9967323 0.0319966 0.9967323 0.0319966 0.0032677 -0.0319966
774250000 0.0032058 -0.0308431 0.9967942 0.0308431 0.9967942 0.0308431 0.0032058 -0.0308431
781500000 0.0031474 -0.0297021 0.9968526 0.0297021 0.9968526 0.0297021 0.0031474 -0.0297021
788750000 0.0030925 -0.0285733 0.9969075 0.0285733 0.9969075 0.0285733 0.0030925 -0.0285733
796000000 0.0030409 -0.0274562 0.9969591 0.0274562 0.9969591 0.0274562 0.0030409 -0.0274562
803250000 0.0029926 -0.0263505 0.9970074 0.0263505 0.9970074 0.0263505 0.0029926 -0.0263505
810500000 0.0029474 -0.0252560 0.9970526 0.0252560 0.9970526 0.0252560 0.0029474 -0.0252560
817750000 0.0029053 -0.0241723 0.9970947 0.0241723 0.9970947 0.0241723 0.0029053 -0.0241723
825000000 0.0028662 -0.0230992 0.9971338 0.0230992 0.9971338 0.0230992 0.0028662 -0.0230992
832250000 0.0028300 -0.0220362 0.9971700 0.0220362 0.9971700 0.0220362 0.0028300 -0.0220362
839500000 0.0027966 -0.0209833 0.9972034 0.0209833 0.9972034 0.0209833 0.0027966 -0.0209833
846750000 0.0027660 -0.0199400 0.9972340 0.0199400 0.9972340 0.0199400 0.0027660 -0.0199400
854000000 0.0027380 -0.0189061 0.9972620 0.0189061 0.9972620 0.0189061 0.0027380 -0.0189061
861250000 0.0027127 -0.0178814 0.9972873 0.0178814 0.9972873 0.0178814 0.0027127 -0.0178814
868500000 0.0026899 -0.0168656 0.9973101 0.0168656 0.9973101 0.0168656 0.0026899 -0.0168656
875750000 0.0026696 -0.0158586 0.9973304 0.0158586 0.9973304 0.0158586 0.0026696 -0.0158586
883000000 0.0026517 -0.0148599 0.9973483 0.0148599 0.9973483 0.0148599 0.0026517 -0.0148599
890250000 0.0026362 -0.0138695 0.9973638 0.0138695 0.9973638 0.0138695 0.0026362 -0.0138695
897500000 0.0026231 -0.0128872 0.9973769 0.0128872 0.9973769 0.0128872 0.0026231 -0.0128872
904750000 0.0026121 -0.0119126 0.9973879 0.0119126 0.9973879 0.0119126 0.0026121 -0.0119126
912000000 0.0026035 -0.0109457 0.9973965 0.0109457 0.9973965 0.0109457 0.0026035 -0.0109457
919250000 0.0025969 -0.0099861 0.9974031 0.0099861 0.9974031 0.0099861 0.0025969 -0.0099861
926500000 0.0025925 -0.0090338 0.9974075 0.0090338 0.9974075 0.0090338 0.0025925 -0.0090338
933750000 0.0025902 -0.0080885 0.9974098 0.0080885 0.9974098 0.0080885 0.0025902 -0.0080885
941000000 0.0025900 -0.0071501 0.9974100 0.0071501 0.9974100 0.0071501 0.0025900 -0.0071501
948250000 0.0025917 -0.0062183 0.9974083 0.0062183 0.9974083 0.0062183 0.0025917 -0.0062183
955500000 0.0025954 -0.0052931 0.9974046 0.0052931 0.9974046 0.0052931 0.0025954 -0.0052931
962750000 0.0026010 -0.0043741 0.9973990 0.0043741 0.9973990 0.0043741 0.0026010 -0.0043741
970000000 0.0026085 -0.0034614 0.9973915 0.0034614 0.9973915 0.0034614 0.0026085 -0.0034614
977250000 0.0026179 -0.0025547 0.9973821 0.0025547 0.9973821 0.0025547 0.0026179 -0.0025547
984500000 0.0026291 -0.0016539 0.9973709 0.0016539 0.9973709 0.0016539 0.0026291 -0.0016539
991750000 0.0026421 -0.0007588 0.9973579 0.0007588 0.9973579 0.0007588 0.0026421 -0.0007588
999000000 0.0026569 0.0001308 0.9973431 -0.0001308 0.9973431 -0.0001308 0.0026569 0.0001308
1006250000 0.0026734 0.0010149 0.9973266 -0.0010149 0.9973266 -0.0010149 0.0026734 0.0010149
1013500000 0.0026916 0.0018937 0.9973084 -0.0018937 0.9973084 -0.0018937 0.0026916 0.0018937
1020750000 0.0027115 0.0027673 0.9972885 -0.0027673 0.9972885 -0.0027673 0.0027115 0.0027673
1028000000 0.0027331 0.0036358 0.9972669 -0.0036358 0.9972669 -0.0036358 0.0027331 0.0036358
1035250000 0.0027563 0.0044995 0.9972437 -0.0044995 0.9972437 -0.0044995 0.0027563 0.0044995
1042500000 0.0027811 0.0053584 0.9972189 -0.0053584 0.9972189 -0.0053584 0.0027811 0.0053584
1049750000 0.0028075 0.0062125 0.9971925 -0.0062125 0.9971925 -0.0062125 0.0028075 0.0062125
1057000000 0.0028355 0.0070622 0.9971645 -0.0070622 0.9971645 -0.0070622 0.0028355 0.0070622
1064250000 0.0028650 0.0079074 0.9971350 -0.0079074 0.9971350 -0.0079074 0.0028650 0.0079074
1071500000 0.0028961 0.0087482 0.9971039 -0.0087482 0.9971039 -0.0087482 0.0028961 0.0087482
1078750000 0.0029287 0.0095849 0.9970713 -0.0095849 0.9970713 -0.0095849 0.0029287 0.0095849
1086000000 0.0029628 0.0104174 0.9970372 -0.0104174 0.9970372 -0.0104174 0.0029628 0.0104174
1093250000 0.0029983 0.0112459 0.9970017 -0.0112459 0.9970017 -0.0112459 0.0029983 0.0112459
1100500000 0.0030354 0.0120704 0.9969646 -0.0120704 0.9969646 -0.0120704 0.0030354 0.0120704
1107750000 0.0030738 0.0128912 0.9969262 -0.0128912 0.9969262 -0.0128912 0.0030738 0.0128912
1115000000 0.0031138 0.0137083 0.9968862 -0.0137083 0.9968862 -0.0137083 0.0031138 0.0137083
1122250000 0.0031551 0.0145217 0.9968449 -0.0145217 0.9968449 -0.0145217 0.0031551 0.0145217
1129500000 0.0031979 0.0153316 0.9968021 -0.0153316 0.9968021 -0.0153316 0.0031979 0.0153316
1136750000 0.0032420 0.0161380 0.9967580 -0.0161380 0.9967580 -0.0161380 0.0032420 0.0161380
1144000000 0.0032876 0.0169411 0.9967124 -0.0169411 0.9967124 -0.0169411 0.0032876 0.0169411
1151250000 0.0033345 0.0177409 0.9966655 -0.0177409 0.9966655 -0.0177409 0.0033345 0.0177409
1158500000 0.0033827 0.0185375 0.9966173 -0.0185375 0.9966173 -0.0185375 0.0033827 0.0185375
1165750000 0.0034324 0.0193310 0.9965676 -0.0193310 0.9965676 -0.0193310 0.0034324 0.0193310
1173000000 0.0034834 0.0201215 0.9965166 -0.0201215 0.9965166 -0.0201215 0.0034834 0.0201215
1180250000 0.0035357 0.0209090 0.9964643 -0.0209090 0.9964643 -0.0209090 0.0035357 0.0209090
1187500000 0.0035893 0.0216937 0.9964107 -0.0216937 0.9964107 -0.0216937 0.0035893 0.0216937
1194750000 0.0036443 0.0224756 0.9963557 -0.0224756 0.9963557 -0.0224756 0.0036443 0.0224756
1202000000 0.0037006 0.0232547 0.9962994 -0.0232547 0.9962994 -0.0232547 0.0037006 0.0232547
1209250000 0.0037582 0.0240312 0.9962418 -0.0240312 0.9962418 -0.0240312 0.0037582 0.0240312
1216500000 0.0038171 0.0248051 0.9961829 -0.0248051 0.9961829 -0.0248051 0.0038171 0.0248051
1223750000 0.0038773 0.0255765 0.9961227 -0.0255765 0.9961227 -0.0255765 0.0038773 0.0255765
1231000000 0.0039388 0.0263455 0.9960612 -0.0263455 0.9960612 -0.0263455 0.0039388 0.0263455
1238250000 0.0040015 0.0271121 0.9959985 -0.0271121 0.9959985 -0.0271121 0.0040015 0.0271121
1245500000 0.0040656 0.0278764 0.9959344 -0.0278764 0.9959344 -0.0278764 0.0040656 0.0278764
1252750000 0.0041309 0.0286384 0.9958691 -0.0286384 0.9958691 -0.0286384 0.0041309 0.0286384
1260000000 0.0041975 0.0293983 0.9958025 -0.0293983 0.9958025 -0.0293983 0.0041975 0.0293983
1267250000 0.0042654 0.0301560 0.9957346 -0.0301560 0.9957346 -0.0301560 0.0042654 0.0301560
1274500000 0.0043345 0.0309117 0.9956655 -0.0309117 0.9956655 -0.0309117 0.0043345 0.0309117
1281750000 0.0044049 0.0316654 0.9955951 -0.0316654 0.9955951 -0.0316654 0.0044049 0.0316654
1289000000 0.0044765 0.0324171 0.9955235 -0.0324171 0.9955235 -0.0324171 0.0044765 0.0324171
1296250000 0.0045494 0.0331670 0.9954506 -0.0331670 0.9954506 -0.0331670 0.0045494 0.0331670
1303500000 0.0046236 0.0339150 0.9953764 -0.0339150 0.9953764 -0.0339150 0.0046236 0.0339150
1310750000 0.0046990 0.0346613 0.9953010 -0.0346613 0.9953010 -0.0346613 0.0046990 0.0346613
1318000000 0.0047757 0.0354058 0.9952243 -0.0354058 0.9952243 -0.0354058 0.0047757 0.0354058
1325250000 0.0048537 0.0361487 0.9951463 -0.0361487 0.9951463 -0.0361487 0.0048537 0.0361487
1332500000 0.0049328 0.0368899 0.9950672 -0.0368899 0.9950672 -0.0368899 0.0049328 0.0368899
1339750000 0.0050133 0.0376297 0.9949867 -0.0376297 0.9949867 -0.0376297 0.0050133 0.0376297
1347000000 0.0050950 0.0383679 0.9949050 -0.0383679 0.9949050 -0.0383679 0.0050950 0.0383679
1354250000 0.0051780 0.0391046 0.9948220 -0.0391046 0.9948220 -0.0391046 0.0051780 0.0391046
1361500000 0.0052622 0.0398399 0.9947378 -0.0398399 0.9947378 -0.0398399 0.0052622 0.0398399
1368750000 0.0053476 0.0405739 0.9946524 -0.0405739 0.9946524 -0.0405739 0.0053476 0.0405739
1376000000 0.0054344 0.0413066 0.9945656 -0.0413066 0.9945656 -0.0413066 0.0054344 0.0413066
1383250000 0.0055224 0.0420380 0.9944776 -0.0420380 0.9944776 -0.0420380 0.0055224 0.0420380
1390500000 0.0056116 0.0427682 0.9943884 -0.0427682 0.9943884 -0.0427682 0.0056116 0.0427682
1397750000 0.0057022 0.0434972 0.9942978 -0.0434972 0.9942978 -0.0434972 0.0057022 0.0434972
1405000000 0.0057940 0.0442251 0.9942060 -0.0442251 0.9942060 -0.0442251 0.0057940 0.0442251
1412250000 0.0058870 0.0449519 0.9941130 -0.0449519 0.9941130 -0.0449519 0.0058870 0.0449519
1419500000 0.0059814 0.0456777 0.9940186 -0.0456777 0.9940186 -0.0456777 0.0059814 0.0456777
1426750000 0.0060770 0.0464025 0.9939230 -0.0464025 0.9939230 -0.0464025 0.0060770 0.0464025
1434000000 0.0061739 0.0471263 0.9938261 -0.0471263 0.9938261 -0.0471263 0.0061739 0.0471263
1441250000 0.0062722 0.0478492 0.9937278 -0.0478492 0.9937278 -0.0478492 0.0062722 0.0478492
1448500000 0.0063717 0.0485713 0.9936283 -0.0485713 0.9936283 -0.0485713 0.0063717 0.0485713
1455750000 0.0064725 0.0492925 0.9935275 -0.0492925 0.9935275 -0.0492925 0.0064725 0.0492925
1463000000 0.0065746 0.0500130 0.9934254 -0.0500130 0.9934254 -0.0500130 0.0065746 0.0500130
1470250000 0.0066780 0.0507327 0.9933220 -0.0507327 0.9933220 -0.0507327 0.0066780 0.0507327
1477500000 0.0067827 0.0514517 0.9932173 -0.0514517 0.9932173 -0.0514517 0.0067827 0.0514517
1484750000 0.0068888 0.0521701 0.9931112 -0.0521701 0.9931112 -0.0521701 0.0068888 0.0521701
1492000000 0.0069962 0.0528878 0.9930038 -0.0528878 0.9930038 -0.0528878 0.0069962 0.0528878
1499250000 0.0071049 0.0536050 0.9928951 -0.0536050 0.9928951 -0.0536050 0.0071049 0.0536050
1506500000 0.0072149 0.0543216 0.9927851 -0.0543216 0.9927851 -0.0543216 0.0072149 0.0543216
1513750000 0.0073263 0.0550376 0.9926737 -0.0550376 0.9926737 -0.0550376 0.0073263 0.0550376
1521000000 0.0074391 0.0557533 0.9925609 -0.0557533 0.9925609 -0.0557533 0.0074391 0.0557533
1528250000 0.0075532 0.0564685 0.9924468 -0.0564685 0.9924468 -0.0564685 0.0075532 0.0564685
1535500000 0.0076687 0.0571833 0.9923313 -0.0571833 0.9923313 -0.0571833 0.0076687 0.0571833
1542750000 0.0077856 0.0578977 0.9922144 -0.0578977 0.9922144 -0.0578977 0.0077856 0.0578977
1550000000 0.0079039 0.0586118 0.9920961 -0.0586118 0.9920961 -0.0586118 0.0079039 0.0586118
1557250000 0.0080236 0.0593256 0.9919764 -0.0593256 0.9919764 -0.0593256 0.0080236 0.0593256
1564500000 0.0081447 0.0600392 0.9918553 -0.0600392 0.9918553 -0.0600392 0.0081447 0.0600392
1571750000 0.0082672 0.0607525 0.9917328 -0.0607525 0.9917328 -0.0607525 0.0082672 0.0607525
1579000000 0.0083911 0.0614657 0.9916089 -0.0614657 0.9916089 -0.0614657 0.0083911 0.0614657
1586250000 0.0085165 0.0621787 0.9914835 -0.0621787 0.9914835 -0.0621787 0.0085165 0.0621787
1593500000 0.0086433 0.0628916 0.9913567 -0.0628916 0.9913567 -0.0628916 0.0086433 0.0628916
1600750000 0.0087716 0.0636045 0.9912284 -0.0636045 0.9912284 -0.0636045 0.0087716 0.0636045
1608000000 0.0089013 0.0643173 0.9910987 -0.0643173 0.9910987 -0.0643173 0.0089013 0.0643173
1615250000 0.0090326 0.0650300 0.9909674 -0.0650300 0.9909674 -0.0650300 0.0090326 0.0650300
1622500000 0.0091653 0.0657428 0.9908347 -0.0657428 0.9908347 -0.0657428 0.0091653 0.0657428
1629750000 0.0092995 0.0664557 0.9907005 -0.0664557 0.9907005 -0.0664557 0.0092995 0.0664557
