!Murata Part Number: GRM42A7U3F220JW31
!These Parameters are Measured in Series Mode Connection
!Data Generated on Mar 30, 2021
!       o--ll--o
!Port1            Port2
!       o------o
!Operation Temp=25[degC], DC Bias Voltage=0[V]
!Freq. Start=100[MHz] Stop=3[GHz] 401[Steps]
# Hz S RI R 50
!Freq.(Hz) S11(Real) S11(Imag) S21(Real) S21(Imag) S12(Real) S12(Imag) S22(Real) S22(Imag)
100000000 0.3530561 -0.4719235 0.6469439 0.4719235 0.6469439 0.4719235 0.3530561 -0.4719235
107250000 0.3217521 -0.4613131 0.6782479 0.4613131 0.6782479 0.4613131 0.3217521 -0.4613131
114500000 0.2937773 -0.4497960 0.7062227 0.4497960 0.7062227 0.4497960 0.2937773 -0.4497960
121750000 0.2687778 -0.4377500 0.7312222 0.4377500 0.7312222 0.4377500 0.2687778 -0.4377500
129000000 0.2464220 -0.4254563 0.7535780 0.4254563 0.7535780 0.4254563 0.2464220 -0.4254563
136250000 0.2264062 -0.4131215 0.7735938 0.4131215 0.7735938 0.4131215 0.2264062 -0.4131215
143500000 0.2084577 -0.4008948 0.7915423 0.4008948 0.7915423 0.4008948 0.2084577 -0.4008948
150750000 0.1923335 -0.3888823 0.8076665 0.3888823 0.8076665 0.3888823 0.1923335 -0.3888823
158000000 0.1778195 -0.3771568 0.8221805 0.3771568 0.8221805 0.3771568 0.1778195 -0.3771568
165250000 0.1647272 -0.3657667 0.8352728 0.3657667 0.8352728 0.3657667 0.1647272 -0.3657667
172500000 0.1528918 -0.3547422 0.8471082 0.3547422 0.8471082 0.3547422 0.1528918 -0.3547422
179750000 0.1421690 -0.3440999 0.8578310 0.3440999 0.8578310 0.3440999 0.1421690 -0.3440999
187000000 0.1324330 -0.3338464 0.8675670 0.3338464 0.8675670 0.3338464 0.1324330 -0.3338464
194250000 0.1235735 -0.3239813 0.8764265 0.3239813 0.8764265 0.3239813 0.1235735 -0.3239813
201500000 0.1154944 -0.3144987 0.8845056 0.3144987 0.8845056 0.3144987 0.1154944 -0.3144987
208750000 0.1081114 -0.3053897 0.8918886 0.3053897 0.8918886 0.3053897 0.1081114 -0.3053897
216000000 0.1013506 -0.2966425 0.8986494 0.2966425 0.8986494 0.2966425 0.1013506 -0.2966425
223250000 0.0951472 -0.2882440 0.9048528 0.2882440 0.9048528 0.2882440 0.0951472 -0.2882440
230500000 0.0894443 -0.2801801 0.9105557 0.2801801 0.9105557 0.2801801 0.0894443 -0.2801801
237750000 0.0841916 -0.2724362 0.9158084 0.2724362 0.9158084 0.2724362 0.0841916 -0.2724362
245000000 0.0793447 -0.2649978 0.9206553 0.2649978 0.9206553 0.2649978 0.0793447 -0.2649978
252250000 0.0748645 -0.2578502 0.9251355 0.2578502 0.9251355 0.2578502 0.0748645 -0.2578502
259500000 0.0707163 -0.2509794 0.9292837 0.2509794 0.9292837 0.2509794 0.0707163 -0.2509794
266750000 0.0668691 -0.2443715 0.9331309 0.2443715 0.9331309 0.2443715 0.0668691 -0.2443715
274000000 0.0632955 -0.2380134 0.9367045 0.2380134 0.9367045 0.2380134 0.0632955 -0.2380134
281250000 0.0599711 -0.2318922 0.9400289 0.2318922 0.9400289 0.2318922 0.0599711 -0.2318922
288500000 0.0568738 -0.2259961 0.9431262 0.2259961 0.9431262 0.2259961 0.0568738 -0.2259961
295750000 0.0539842 -0.2203134 0.9460158 0.2203134 0.9460158 0.2203134 0.0539842 -0.2203134
303000000 0.0512847 -0.2148332 0.9487153 0.2148332 0.9487153 0.2148332 0.0512847 -0.2148332
310250000 0.0487595 -0.2095453 0.9512405 0.2095453 0.9512405 0.2095453 0.0487595 -0.2095453
317500000 0.0463943 -0.2044398 0.9536057 0.2044398 0.9536057 0.2044398 0.0463943 -0.2044398
324750000 0.0441764 -0.1995075 0.9558236 0.1995075 0.9558236 0.1995075 0.0441764 -0.1995075
332000000 0.0420942 -0.1947398 0.9579058 0.1947398 0.9579058 0.1947398 0.0420942 -0.1947398
339250000 0.0401371 -0.1901285 0.9598629 0.1901285 0.9598629 0.1901285 0.0401371 -0.1901285
346500000 0.0382958 -0.1856658 0.9617042 0.1856658 0.9617042 0.1856658 0.0382958 -0.1856658
353750000 0.0365615 -0.1813445 0.9634385 0.1813445 0.9634385 0.1813445 0.0365615 -0.1813445
361000000 0.0349264 -0.1771576 0.9650736 0.1771576 0.9650736 0.1771576 0.0349264 -0.1771576
368250000 0.0333833 -0.1730988 0.9666167 0.1730988 0.9666167 0.1730988 0.0333833 -0.1730988
375500000 0.0319257 -0.1691619 0.9680743 0.1691619 0.9680743 0.1691619 0.0319257 -0.1691619
382750000 0.0305477 -0.1653412 0.9694523 0.1653412 0.9694523 0.1653412 0.0305477 -0.1653412
390000000 0.0292438 -0.1616313 0.9707562 0.1616313 0.9707562 0.1616313 0.0292438 -0.1616313
397250000 0.0280090 -0.1580270 0.9719910 0.1580270 0.9719910 0.1580270 0.0280090 -0.1580270
404500000 0.0268387 -0.1545236 0.9731613 0.1545236 0.9731613 0.1545236 0.0268387 -0.1545236
411750000 0.0257287 -0.1511165 0.9742713 0.1511165 0.9742713 0.1511165 0.0257287 -0.1511165
419000000 0.0246752 -0.1478014 0.9753248 0.1478014 0.9753248 0.1478014 0.0246752 -0.1478014
426250000 0.0236744 -0.1445742 0.9763256 0.1445742 0.9763256 0.1445742 0.0236744 -0.1445742
433500000 0.0227232 -0.1414312 0.9772768 0.1414312 0.9772768 0.1414312 0.0227232 -0.1414312
440750000 0.0218185 -0.1383686 0.9781815 0.1383686 0.9781815 0.1383686 0.0218185 -0.1383686
448000000 0.0209575 -0.1353830 0.9790425 0.1353830 0.9790425 0.1353830 0.0209575 -0.1353830
455250000 0.0201376 -0.1324713 0.9798624 0.1324713 0.9798624 0.1324713 0.0201376 -0.1324713
462500000 0.0193563 -0.1296303 0.9806437 0.1296303 0.9806437 0.1296303 0.0193563 -0.1296303
469750000 0.0186115 -0.1268571 0.9813885 0.1268571 0.9813885 0.1268571 0.0186115 -0.1268571
477000000 0.0179011 -0.1241490 0.9820989 0.1241490 0.9820989 0.1241490 0.0179011 -0.1241490
484250000 0.0172231 -0.1215033 0.9827769 0.1215033 0.9827769 0.1215033 0.0172231 -0.1215033
491500000 0.0165757 -0.1189175 0.9834243 0.1189175 0.9834243 0.1189175 0.0165757 -0.1189175
498750000 0.0159573 -0.1163893 0.9840427 0.1163893 0.9840427 0.1163893 0.0159573 -0.1163893
506000000 0.0153662 -0.1139165 0.9846338 0.1139165 0.9846338 0.1139165 0.0153662 -0.1139165
513250000 0.0148012 -0.1114968 0.9851988 0.1114968 0.9851988 0.1114968 0.0148012 -0.1114968
520500000 0.0142607 -0.1091284 0.9857393 0.1091284 0.9857393 0.1091284 0.0142607 -0.1091284
527750000 0.0137435 -0.1068091 0.9862565 0.1068091 0.9862565 0.1068091 0.0137435 -0.1068091
535000000 0.0132485 -0.1045373 0.9867515 0.1045373 0.9867515 0.1045373 0.0132485 -0.1045373
542250000 0.0127745 -0.1023112 0.9872255 0.1023112 0.9872255 0.1023112 0.0127745 -0.1023112
549500000 0.0123204 -0.1001290 0.9876796 0.1001290 0.9876796 0.1001290 0.0123204 -0.1001290
556750000 0.0118854 -0.0979893 0.9881146 0.0979893 0.9881146 0.0979893 0.0118854 -0.0979893
564000000 0.0114684 -0.0958904 0.9885316 0.0958904 0.9885316 0.0958904 0.0114684 -0.0958904
571250000 0.0110687 -0.0938310 0.9889313 0.0938310 0.9889313 0.0938310 0.0110687 -0.0938310
578500000 0.0106853 -0.0918097 0.9893147 0.0918097 0.9893147 0.0918097 0.0106853 -0.0918097
585750000 0.0103177 -0.0898251 0.9896823 0.0898251 0.9896823 0.0898251 0.0103177 -0.0898251
593000000 0.0099649 -0.0878760 0.9900351 0.0878760 0.9900351 0.0878760 0.0099649 -0.0878760
600250000 0.0096265 -0.0859612 0.9903735 0.0859612 0.9903735 0.0859612 0.0096265 -0.0859612
607500000 0.0093016 -0.0840795 0.9906984 0.0840795 0.9906984 0.0840795 0.0093016 -0.0840795
614750000 0.0089898 -0.0822299 0.9910102 0.0822299 0.9910102 0.0822299 0.0089898 -0.0822299
622000000 0.0086904 -0.0804112 0.9913096 0.0804112 0.9913096 0.0804112 0.0086904 -0.0804112
629250000 0.0084029 -0.0786225 0.9915971 0.0786225 0.9915971 0.0786225 0.0084029 -0.0786225
636500000 0.0081269 -0.0768629 0.9918731 0.0768629 0.9918731 0.0768629 0.0081269 -0.0768629
643750000 0.0078618 -0.0751312 0.9921382 0.0751312 0.9921382 0.0751312 0.0078618 -0.0751312
651000000 0.0076071 -0.0734268 0.9923929 0.0734268 0.9923929 0.0734268 0.0076071 -0.0734268
658250000 0.0073626 -0.0717487 0.9926374 0.0717487 0.9926374 0.0717487 0.0073626 -0.0717487
665500000 0.0071277 -0.0700961 0.9928723 0.0700961 0.9928723 0.0700961 0.0071277 -0.0700961
672750000 0.0069020 -0.0684683 0.9930980 0.0684683 0.9930980 0.0684683 0.0069020 -0.0684683
680000000 0.0066853 -0.0668644 0.9933147 0.0668644 0.9933147 0.0668644 0.0066853 -0.0668644
687250000 0.0064771 -0.0652838 0.9935229 0.0652838 0.9935229 0.0652838 0.0064771 -0.0652838
694500000 0.0062772 -0.0637257 0.9937228 0.0637257 0.9937228 0.0637257 0.0062772 -0.0637257
701750000 0.0060851 -0.0621895 0.9939149 0.0621895 0.9939149 0.0621895 0.0060851 -0.0621895
709000000 0.0059007 -0.0606746 0.9940993 0.0606746 0.9940993 0.0606746 0.0059007 -0.0606746
716250000 0.0057236 -0.0591803 0.9942764 0.0591803 0.9942764 0.0591803 0.0057236 -0.0591803
723500000 0.0055537 -0.0577060 0.9944463 0.0577060 0.9944463 0.0577060 0.0055537 -0.0577060
730750000 0.0053905 -0.0562511 0.9946095 0.0562511 0.9946095 0.0562511 0.0053905 -0.0562511
738000000 0.0052339 -0.0548152 0.9947661 0.0548152 0.9947661 0.0548152 0.0052339 -0.0548152
745250000 0.0050836 -0.0533976 0.9949164 0.0533976 0.9949164 0.0533976 0.0050836 -0.0533976
752500000 0.0049395 -0.0519979 0.9950605 0.0519979 0.9950605 0.0519979 0.0049395 -0.0519979
759750000 0.0048013 -0.0506156 0.9951987 0.0506156 0.9951987 0.0506156 0.0048013 -0.0506156
767000000 0.0046688 -0.0492501 0.9953312 0.0492501 0.9953312 0.0492501 0.0046688 -0.0492501
774250000 0.0045418 -0.0479010 0.9954582 0.0479010 0.9954582 0.0479010 0.0045418 -0.0479010
781500000 0.0044201 -0.0465680 0.9955799 0.0465680 0.9955799 0.0465680 0.0044201 -0.0465680
788750000 0.0043037 -0.0452504 0.9956963 0.0452504 0.9956963 0.0452504 0.0043037 -0.0452504
796000000 0.0041922 -0.0439481 0.9958078 0.0439481 0.9958078 0.0439481 0.0041922 -0.0439481
803250000 0.0040856 -0.0426604 0.9959144 0.0426604 0.9959144 0.0426604 0.0040856 -0.0426604
810500000 0.0039836 -0.0413871 0.9960164 0.0413871 0.9960164 0.0413871 0.0039836 -0.0413871
817750000 0.0038862 -0.0401278 0.9961138 0.0401278 0.9961138 0.0401278 0.0038862 -0.0401278
825000000 0.0037932 -0.0388821 0.9962068 0.0388821 0.9962068 0.0388821 0.0037932 -0.0388821
832250000 0.0037045 -0.0376497 0.9962955 0.0376497 0.9962955 0.0376497 0.0037045 -0.0376497
839500000 0.0036199 -0.0364302 0.9963801 0.0364302 0.9963801 0.0364302 0.0036199 -0.0364302
846750000 0.0035394 -0.0352233 0.9964606 0.0352233 0.9964606 0.0352233 0.0035394 -0.0352233
854000000 0.0034627 -0.0340287 0.9965373 0.0340287 0.9965373 0.0340287 0.0034627 -0.0340287
861250000 0.0033899 -0.0328461 0.9966101 0.0328461 0.9966101 0.0328461 0.0033899 -0.0328461
868500000 0.0033207 -0.0316752 0.9966793 0.0316752 0.9966793 0.0316752 0.0033207 -0.0316752
875750000 0.0032551 -0.0305157 0.9967449 0.0305157 0.9967449 0.0305157 0.0032551 -0.0305157
883000000 0.0031931 -0.0293673 0.9968069 0.0293673 0.9968069 0.0293673 0.0031931 -0.0293673
890250000 0.0031344 -0.0282297 0.9968656 0.0282297 0.9968656 0.0282297 0.0031344 -0.0282297
897500000 0.0030790 -0.0271028 0.9969210 0.0271028 0.9969210 0.0271028 0.0030790 -0.0271028
904750000 0.0030268 -0.0259862 0.9969732 0.0259862 0.9969732 0.0259862 0.0030268 -0.0259862
912000000 0.0029777 -0.0248797 0.9970223 0.0248797 0.9970223 0.0248797 0.0029777 -0.0248797
919250000 0.0029317 -0.0237831 0.9970683 0.0237831 0.9970683 0.0237831 0.0029317 -0.0237831
926500000 0.0028886 -0.0226961 0.9971114 0.0226961 0.9971114 0.0226961 0.0028886 -0.0226961
933750000 0.0028485 -0.0216185 0.9971515 0.0216185 0.9971515 0.0216185 0.0028485 -0.0216185
941000000 0.0028112 -0.0205500 0.9971888 0.0205500 0.9971888 0.0205500 0.0028112 -0.0205500
948250000 0.0027766 -0.0194906 0.9972234 0.0194906 0.9972234 0.0194906 0.0027766 -0.0194906
955500000 0.0027447 -0.0184399 0.9972553 0.0184399 0.9972553 0.0184399 0.0027447 -0.0184399
962750000 0.0027155 -0.0173979 0.9972845 0.0173979 0.9972845 0.0173979 0.0027155 -0.0173979
970000000 0.0026888 -0.0163641 0.9973112 0.0163641 0.9973112 0.0163641 0.0026888 -0.0163641
977250000 0.0026646 -0.0153386 0.9973354 0.0153386 0.9973354 0.0153386 0.0026646 -0.0153386
984500000 0.0026429 -0.0143211 0.9973571 0.0143211 0.9973571 0.0143211 0.0026429 -0.0143211
991750000 0.0026236 -0.0133115 0.9973764 0.0133115 0.9973764 0.0133115 0.0026236 -0.0133115
999000000 0.0026066 -0.0123094 0.9973934 0.0123094 0.9973934 0.0123094 0.0026066 -0.0123094
1006250000 0.0025919 -0.0113149 0.9974081 0.0113149 0.9974081 0.0113149 0.0025919 -0.0113149
1013500000 0.0025794 -0.0103277 0.9974206 0.0103277 0.9974206 0.0103277 0.0025794 -0.0103277
1020750000 0.0025691 -0.0093477 0.9974309 0.0093477 0.9974309 0.0093477 0.0025691 -0.0093477
1028000000 0.0025610 -0.0083747 0.9974390 0.0083747 0.9974390 0.0083747 0.0025610 -0.0083747
1035250000 0.0025550 -0.0074086 0.9974450 0.0074086 0.9974450 0.0074086 0.0025550 -0.0074086
1042500000 0.0025511 -0.0064492 0.9974489 0.0064492 0.9974489 0.0064492 0.0025511 -0.0064492
1049750000 0.0025492 -0.0054963 0.9974508 0.0054963 0.9974508 0.0054963 0.0025492 -0.0054963
1057000000 0.0025492 -0.0045499 0.9974508 0.0045499 0.9974508 0.0045499 0.0025492 -0.0045499
1064250000 0.0025512 -0.0036098 0.9974488 0.0036098 0.9974488 0.0036098 0.0025512 -0.0036098
1071500000 0.0025551 -0.0026759 0.9974449 0.0026759 0.9974449 0.0026759 0.0025551 -0.0026759
1078750000 0.0025609 -0.0017480 0.9974391 0.0017480 0.9974391 0.0017480 0.0025609 -0.0017480
1086000000 0.0025686 -0.0008260 0.9974314 0.0008260 0.9974314 0.0008260 0.0025686 -0.0008260
1093250000 0.0025780 0.0000902 0.9974220 -0.0000902 0.9974220 -0.0000902 0.0025780 0.0000902
1100500000 0.0025892 0.0010007 0.9974108 -0.0010007 0.9974108 -0.0010007 0.0025892 0.0010007
1107750000 0.0026022 0.0019056 0.9973978 -0.0019056 0.9973978 -0.0019056 0.0026022 0.0019056
1115000000 0.0026169 0.0028051 0.9973831 -0.0028051 0.9973831 -0.0028051 0.0026169 0.0028051
1122250000 0.0026333 0.0036993 0.9973667 -0.0036993 0.9973667 -0.0036993 0.0026333 0.0036993
1129500000 0.0026513 0.0045883 0.9973487 -0.0045883 0.9973487 -0.0045883 0.0026513 0.0045883
1136750000 0.0026710 0.0054721 0.9973290 -0.0054721 0.9973290 -0.0054721 0.0026710 0.0054721
1144000000 0.0026922 0.0063509 0.9973078 -0.0063509 0.9973078 -0.0063509 0.0026922 0.0063509
1151250000 0.0027151 0.0072248 0.9972849 -0.0072248 0.9972849 -0.0072248 0.0027151 0.0072248
1158500000 0.0027395 0.0080939 0.9972605 -0.0080939 0.9972605 -0.0080939 0.0027395 0.0080939
1165750000 0.0027655 0.0089582 0.9972345 -0.0089582 0.9972345 -0.0089582 0.0027655 0.0089582
1173000000 0.0027929 0.0098179 0.9972071 -0.0098179 0.9972071 -0.0098179 0.0027929 0.0098179
1180250000 0.0028219 0.0106731 0.9971781 -0.0106731 0.9971781 -0.0106731 0.0028219 0.0106731
1187500000 0.0028523 0.0115239 0.9971477 -0.0115239 0.9971477 -0.0115239 0.0028523 0.0115239
1194750000 0.0028842 0.0123702 0.9971158 -0.0123702 0.9971158 -0.0123702 0.0028842 0.0123702
1202000000 0.0029175 0.0132124 0.9970825 -0.0132124 0.9970825 -0.0132124 0.0029175 0.0132124
1209250000 0.0029523 0.0140503 0.9970477 -0.0140503 0.9970477 -0.0140503 0.0029523 0.0140503
1216500000 0.0029884 0.0148841 0.9970116 -0.0148841 0.9970116 -0.0148841 0.0029884 0.0148841
1223750000 0.0030259 0.0157138 0.9969741 -0.0157138 0.9969741 -0.0157138 0.0030259 0.0157138
1231000000 0.0030648 0.0165397 0.9969352 -0.0165397 0.9969352 -0.0165397 0.0030648 0.0165397
1238250000 0.0031050 0.0173616 0.9968950 -0.0173616 0.9968950 -0.0173616 0.0031050 0.0173616
1245500000 0.0031466 0.0181798 0.9968534 -0.0181798 0.9968534 -0.0181798 0.0031466 0.0181798
1252750000 0.0031894 0.0189942 0.9968106 -0.0189942 0.9968106 -0.0189942 0.0031894 0.0189942
1260000000 0.0032336 0.0198050 0.9967664 -0.0198050 0.9967664 -0.0198050 0.0032336 0.0198050
1267250000 0.0032790 0.0206122 0.9967210 -0.0206122 0.9967210 -0.0206122 0.0032790 0.0206122
1274500000 0.0033258 0.0214158 0.9966742 -0.0214158 0.9966742 -0.0214158 0.0033258 0.0214158
1281750000 0.0033737 0.0222161 0.9966263 -0.0222161 0.9966263 -0.0222161 0.0033737 0.0222161
1289000000 0.0034230 0.0230129 0.9965770 -0.0230129 0.9965770 -0.0230129 0.0034230 0.0230129
1296250000 0.0034734 0.0238065 0.9965266 -0.0238065 0.9965266 -0.0238065 0.0034734 0.0238065
1303500000 0.0035251 0.0245968 0.9964749 -0.0245968 0.9964749 -0.0245968 0.0035251 0.0245968
1310750000 0.0035780 0.0253839 0.9964220 -0.0253839 0.9964220 -0.0253839 0.0035780 0.0253839
1318000000 0.0036321 0.0261678 0.9963679 -0.0261678 0.9963679 -0.0261678 0.0036321 0.0261678
1325250000 0.0036874 0.0269487 0.9963126 -0.0269487 0.9963126 -0.0269487 0.0036874 0.0269487
1332500000 0.0037439 0.0277267 0.9962561 -0.0277267 0.9962561 -0.0277267 0.0037439 0.0277267
1339750000 0.0038016 0.0285016 0.9961984 -0.0285016 0.9961984 -0.0285016 0.0038016 0.0285016
1347000000 0.0038604 0.0292737 0.9961396 -0.0292737 0.9961396 -0.0292737 0.0038604 0.0292737
1354250000 0.0039203 0.0300429 0.9960797 -0.0300429 0.9960797 -0.0300429 0.0039203 0.0300429
1361500000 0.0039815 0.0308093 0.9960185 -0.0308093 0.9960185 -0.0308093 0.0039815 0.0308093
1368750000 0.0040437 0.0315730 0.9959563 -0.0315730 0.9959563 -0.0315730 0.0040437 0.0315730
1376000000 0.0041071 0.0323341 0.9958929 -0.0323341 0.9958929 -0.0323341 0.0041071 0.0323341
1383250000 0.0041716 0.0330925 0.9958284 -0.0330925 0.9958284 -0.0330925 0.0041716 0.0330925
1390500000 0.0042372 0.0338483 0.9957628 -0.0338483 0.9957628 -0.0338483 0.0042372 0.0338483
1397750000 0.0043039 0.0346017 0.9956961 -0.0346017 0.9956961 -0.0346017 0.0043039 0.0346017
1405000000 0.0043718 0.0353525 0.9956282 -0.0353525 0.9956282 -0.0353525 0.0043718 0.0353525
1412250000 0.0044407 0.0361009 0.9955593 -0.0361009 0.9955593 -0.0361009 0.0044407 0.0361009
1419500000 0.0045107 0.0368470 0.9954893 -0.0368470 0.9954893 -0.0368470 0.0045107 0.0368470
1426750000 0.0045818 0.0375907 0.9954182 -0.0375907 0.9954182 -0.0375907 0.0045818 0.0375907
1434000000 0.0046540 0.0383321 0.9953460 -0.0383321 0.9953460 -0.0383321 0.0046540 0.0383321
1441250000 0.0047272 0.0390713 0.9952728 -0.0390713 0.9952728 -0.0390713 0.0047272 0.0390713
1448500000 0.0048016 0.0398083 0.9951984 -0.0398083 0.9951984 -0.0398083 0.0048016 0.0398083
1455750000 0.0048770 0.0405432 0.9951230 -0.0405432 0.9951230 -0.0405432 0.0048770 0.0405432
1463000000 0.0049534 0.0412759 0.9950466 -0.0412759 0.9950466 -0.0412759 0.0049534 0.0412759
1470250000 0.0050309 0.0420066 0.9949691 -0.0420066 0.9949691 -0.0420066 0.0050309 0.0420066
1477500000 0.0051095 0.0427353 0.9948905 -0.0427353 0.9948905 -0.0427353 0.0051095 0.0427353
1484750000 0.0051891 0.0434619 0.9948109 -0.0434619 0.9948109 -0.0434619 0.0051891 0.0434619
1492000000 0.0052698 0.0441867 0.9947302 -0.0441867 0.9947302 -0.0441867 0.0052698 0.0441867
1499250000 0.0053515 0.0449095 0.9946485 -0.0449095 0.9946485 -0.0449095 0.0053515 0.0449095
1506500000 0.0054342 0.0456305 0.9945658 -0.0456305 0.9945658 -0.0456305 0.0054342 0.0456305
1513750000 0.0055180 0.0463497 0.9944820 -0.0463497 0.9944820 -0.0463497 0.0055180 0.0463497
1521000000 0.0056029 0.0470670 0.9943971 -0.0470670 0.9943971 -0.0470670 0.0056029 0.0470670
1528250000 0.0056887 0.0477827 0.9943113 -0.0477827 0.9943113 -0.0477827 0.0056887 0.0477827
1535500000 0.0057756 0.0484966 0.9942244 -0.0484966 0.9942244 -0.0484966 0.0057756 0.0484966
1542750000 0.0058636 0.0492089 0.9941364 -0.0492089 0.9941364 -0.0492089 0.0058636 0.0492089
1550000000 0.0059525 0.0499195 0.9940475 -0.0499195 0.9940475 -0.0499195 0.0059525 0.0499195
1557250000 0.0060425 0.0506285 0.9939575 -0.0506285 0.9939575 -0.0506285 0.0060425 0.0506285
1564500000 0.0061336 0.0513360 0.9938664 -0.0513360 0.9938664 -0.0513360 0.0061336 0.0513360
1571750000 0.0062256 0.0520419 0.9937744 -0.0520419 0.9937744 -0.0520419 0.0062256 0.0520419
1579000000 0.0063187 0.0527464 0.9936813 -0.0527464 0.9936813 -0.0527464 0.0063187 0.0527464
1586250000 0.0064128 0.0534494 0.9935872 -0.0534494 0.9935872 -0.0534494 0.0064128 0.0534494
1593500000 0.0065080 0.0541510 0.9934920 -0.0541510 0.9934920 -0.0541510 0.0065080 0.0541510
1600750000 0.0066042 0.0548512 0.9933958 -0.0548512 0.9933958 -0.0548512 0.0066042 0.0548512
1608000000 0.0067014 0.0555500 0.9932986 -0.0555500 0.9932986 -0.0555500 0.0067014 0.0555500
1615250000 0.0067996 0.0562475 0.9932004 -0.0562475 0.9932004 -0.0562475 0.0067996 0.0562475
1622500000 0.0068989 0.0569437 0.9931011 -0.0569437 0.9931011 -0.0569437 0.0068989 0.0569437
1629750000 0.0069992 0.0576387 0.9930008 -0.0576387 0.9930008 -0.0576387 0.0069992 0.0576387
