!Murata Part Number: GRM42A7U3F820JW31
!These Parameters are Measured in Series Mode Connection
!Data Generated on Mar 30, 2021
!       o--ll--o
!Port1            Port2
!       o------o
!Operation Temp=25[degC], DC Bias Voltage=0[V]
!Freq. Start=100[MHz] Stop=3[GHz] 401[Steps]
# Hz S RI R 50
!Freq.(Hz) S11(Real) S11(Imag) S21(Real) S21(Imag) S12(Real) S12(Imag) S22(Real) S22(Imag)
100000000 0.0351566 -0.1812026 0.9648434 0.1812026 0.9648434 0.1812026 0.0351566 -0.1812026
107250000 0.0305661 -0.1689323 0.9694339 0.1689323 0.9694339 0.1689323 0.0305661 -0.1689323
114500000 0.0267889 -0.1580221 0.9732111 0.1580221 0.9732111 0.1580221 0.0267889 -0.1580221
121750000 0.0236458 -0.1482574 0.9763542 0.1482574 0.9763542 0.1482574 0.0236458 -0.1482574
129000000 0.0210038 -0.1394652 0.9789962 0.1394652 0.9789962 0.1394652 0.0210038 -0.1394652
136250000 0.0187630 -0.1315044 0.9812370 0.1315044 0.9812370 0.1315044 0.0187630 -0.1315044
143500000 0.0168470 -0.1242593 0.9831530 0.1242593 0.9831530 0.1242593 0.0168470 -0.1242593
150750000 0.0151967 -0.1176343 0.9848033 0.1176343 0.9848033 0.1176343 0.0151967 -0.1176343
158000000 0.0137657 -0.1115496 0.9862343 0.1115496 0.9862343 0.1115496 0.0137657 -0.1115496
165250000 0.0125175 -0.1059384 0.9874825 0.1059384 0.9874825 0.1059384 0.0125175 -0.1059384
172500000 0.0114228 -0.1007442 0.9885772 0.1007442 0.9885772 0.1007442 0.0114228 -0.1007442
179750000 0.0104578 -0.0959192 0.9895422 0.0959192 0.9895422 0.0959192 0.0104578 -0.0959192
187000000 0.0096032 -0.0914224 0.9903968 0.0914224 0.9903968 0.0914224 0.0096032 -0.0914224
194250000 0.0088433 -0.0872185 0.9911567 0.0872185 0.9911567 0.0872185 0.0088433 -0.0872185
201500000 0.0081650 -0.0832773 0.9918350 0.0832773 0.9918350 0.0832773 0.0081650 -0.0832773
208750000 0.0075574 -0.0795722 0.9924426 0.0795722 0.9924426 0.0795722 0.0075574 -0.0795722
216000000 0.0070113 -0.0760804 0.9929887 0.0760804 0.9929887 0.0760804 0.0070113 -0.0760804
223250000 0.0065190 -0.0727817 0.9934810 0.0727817 0.9934810 0.0727817 0.0065190 -0.0727817
230500000 0.0060742 -0.0696583 0.9939258 0.0696583 0.9939258 0.0696583 0.0060742 -0.0696583
237750000 0.0056711 -0.0666948 0.9943289 0.0666948 0.9943289 0.0666948 0.0056711 -0.0666948
245000000 0.0053050 -0.0638771 0.9946950 0.0638771 0.9946950 0.0638771 0.0053050 -0.0638771
252250000 0.0049719 -0.0611931 0.9950281 0.0611931 0.9950281 0.0611931 0.0049719 -0.0611931
259500000 0.0046682 -0.0586318 0.9953318 0.0586318 0.9953318 0.0586318 0.0046682 -0.0586318
266750000 0.0043908 -0.0561834 0.9956092 0.0561834 0.9956092 0.0561834 0.0043908 -0.0561834
274000000 0.0041372 -0.0538390 0.9958628 0.0538390 0.9958628 0.0538390 0.0041372 -0.0538390
281250000 0.0039048 -0.0515907 0.9960952 0.0515907 0.9960952 0.0515907 0.0039048 -0.0515907
288500000 0.0036918 -0.0494315 0.9963082 0.0494315 0.9963082 0.0494315 0.0036918 -0.0494315
295750000 0.0034963 -0.0473549 0.9965037 0.0473549 0.9965037 0.0473549 0.0034963 -0.0473549
303000000 0.0033168 -0.0453549 0.9966832 0.0453549 0.9966832 0.0453549 0.0033168 -0.0453549
310250000 0.0031517 -0.0434263 0.9968483 0.0434263 0.9968483 0.0434263 0.0031517 -0.0434263
317500000 0.0029999 -0.0415643 0.9970001 0.0415643 0.9970001 0.0415643 0.0029999 -0.0415643
324750000 0.0028602 -0.0397644 0.9971398 0.0397644 0.9971398 0.0397644 0.0028602 -0.0397644
332000000 0.0027317 -0.0380225 0.9972683 0.0380225 0.9972683 0.0380225 0.0027317 -0.0380225
339250000 0.0026135 -0.0363351 0.9973865 0.0363351 0.9973865 0.0363351 0.0026135 -0.0363351
346500000 0.0025048 -0.0346986 0.9974952 0.0346986 0.9974952 0.0346986 0.0025048 -0.0346986
353750000 0.0024048 -0.0331100 0.9975952 0.0331100 0.9975952 0.0331100 0.0024048 -0.0331100
361000000 0.0023130 -0.0315664 0.9976870 0.0315664 0.9976870 0.0315664 0.0023130 -0.0315664
368250000 0.0022287 -0.0300651 0.9977713 0.0300651 0.9977713 0.0300651 0.0022287 -0.0300651
375500000 0.0021514 -0.0286036 0.9978486 0.0286036 0.9978486 0.0286036 0.0021514 -0.0286036
382750000 0.0020806 -0.0271798 0.9979194 0.0271798 0.9979194 0.0271798 0.0020806 -0.0271798
390000000 0.0020160 -0.0257914 0.9979840 0.0257914 0.9979840 0.0257914 0.0020160 -0.0257914
397250000 0.0019571 -0.0244366 0.9980429 0.0244366 0.9980429 0.0244366 0.0019571 -0.0244366
404500000 0.0019035 -0.0231135 0.9980965 0.0231135 0.9980965 0.0231135 0.0019035 -0.0231135
411750000 0.0018549 -0.0218205 0.9981451 0.0218205 0.9981451 0.0218205 0.0018549 -0.0218205
419000000 0.0018111 -0.0205558 0.9981889 0.0205558 0.9981889 0.0205558 0.0018111 -0.0205558
426250000 0.0017717 -0.0193182 0.9982283 0.0193182 0.9982283 0.0193182 0.0017717 -0.0193182
433500000 0.0017365 -0.0181062 0.9982635 0.0181062 0.9982635 0.0181062 0.0017365 -0.0181062
440750000 0.0017054 -0.0169185 0.9982946 0.0169185 0.9982946 0.0169185 0.0017054 -0.0169185
448000000 0.0016779 -0.0157540 0.9983221 0.0157540 0.9983221 0.0157540 0.0016779 -0.0157540
455250000 0.0016541 -0.0146114 0.9983459 0.0146114 0.9983459 0.0146114 0.0016541 -0.0146114
462500000 0.0016336 -0.0134898 0.9983664 0.0134898 0.9983664 0.0134898 0.0016336 -0.0134898
469750000 0.0016164 -0.0123881 0.9983836 0.0123881 0.9983836 0.0123881 0.0016164 -0.0123881
477000000 0.0016022 -0.0113054 0.9983978 0.0113054 0.9983978 0.0113054 0.0016022 -0.0113054
484250000 0.0015910 -0.0102409 0.9984090 0.0102409 0.9984090 0.0102409 0.0015910 -0.0102409
491500000 0.0015826 -0.0091937 0.9984174 0.0091937 0.9984174 0.0091937 0.0015826 -0.0091937
498750000 0.0015769 -0.0081630 0.9984231 0.0081630 0.9984231 0.0081630 0.0015769 -0.0081630
506000000 0.0015737 -0.0071480 0.9984263 0.0071480 0.9984263 0.0071480 0.0015737 -0.0071480
513250000 0.0015730 -0.0061482 0.9984270 0.0061482 0.9984270 0.0061482 0.0015730 -0.0061482
520500000 0.0015748 -0.0051627 0.9984252 0.0051627 0.9984252 0.0051627 0.0015748 -0.0051627
527750000 0.0015787 -0.0041911 0.9984213 0.0041911 0.9984213 0.0041911 0.0015787 -0.0041911
535000000 0.0015850 -0.0032327 0.9984150 0.0032327 0.9984150 0.0032327 0.0015850 -0.0032327
542250000 0.0015933 -0.0022869 0.9984067 0.0022869 0.9984067 0.0022869 0.0015933 -0.0022869
549500000 0.0016037 -0.0013533 0.9983963 0.0013533 0.9983963 0.0013533 0.0016037 -0.0013533
556750000 0.0016161 -0.0004312 0.9983839 0.0004312 0.9983839 0.0004312 0.0016161 -0.0004312
564000000 0.0016304 0.0004797 0.9983696 -0.0004797 0.9983696 -0.0004797 0.0016304 0.0004797
571250000 0.0016466 0.0013799 0.9983534 -0.0013799 0.9983534 -0.0013799 0.0016466 0.0013799
578500000 0.0016647 0.0022699 0.9983353 -0.0022699 0.9983353 -0.0022699 0.0016647 0.0022699
585750000 0.0016845 0.0031500 0.9983155 -0.0031500 0.9983155 -0.0031500 0.0016845 0.0031500
593000000 0.0017060 0.0040207 0.9982940 -0.0040207 0.9982940 -0.0040207 0.0017060 0.0040207
600250000 0.0017292 0.0048824 0.9982708 -0.0048824 0.9982708 -0.0048824 0.0017292 0.0048824
607500000 0.0017541 0.0057353 0.9982459 -0.0057353 0.9982459 -0.0057353 0.0017541 0.0057353
614750000 0.0017806 0.0065799 0.9982194 -0.0065799 0.9982194 -0.0065799 0.0017806 0.0065799
622000000 0.0018087 0.0074164 0.9981913 -0.0074164 0.9981913 -0.0074164 0.0018087 0.0074164
629250000 0.0018383 0.0082452 0.9981617 -0.0082452 0.9981617 -0.0082452 0.0018383 0.0082452
636500000 0.0018694 0.0090666 0.9981306 -0.0090666 0.9981306 -0.0090666 0.0018694 0.0090666
643750000 0.0019021 0.0098808 0.9980979 -0.0098808 0.9980979 -0.0098808 0.0019021 0.0098808
651000000 0.0019362 0.0106882 0.9980638 -0.0106882 0.9980638 -0.0106882 0.0019362 0.0106882
658250000 0.0019717 0.0114890 0.9980283 -0.0114890 0.9980283 -0.0114890 0.0019717 0.0114890
665500000 0.0020087 0.0122834 0.9979913 -0.0122834 0.9979913 -0.0122834 0.0020087 0.0122834
672750000 0.0020470 0.0130717 0.9979530 -0.0130717 0.9979530 -0.0130717 0.0020470 0.0130717
680000000 0.0020868 0.0138542 0.9979132 -0.0138542 0.9979132 -0.0138542 0.0020868 0.0138542
687250000 0.0021279 0.0146309 0.9978721 -0.0146309 0.9978721 -0.0146309 0.0021279 0.0146309
694500000 0.0021704 0.0154023 0.9978296 -0.0154023 0.9978296 -0.0154023 0.0021704 0.0154023
701750000 0.0022142 0.0161684 0.9977858 -0.0161684 0.9977858 -0.0161684 0.0022142 0.0161684
709000000 0.0022593 0.0169295 0.9977407 -0.0169295 0.9977407 -0.0169295 0.0022593 0.0169295
716250000 0.0023057 0.0176857 0.9976943 -0.0176857 0.9976943 -0.0176857 0.0023057 0.0176857
723500000 0.0023535 0.0184372 0.9976465 -0.0184372 0.9976465 -0.0184372 0.0023535 0.0184372
730750000 0.0024026 0.0191843 0.9975974 -0.0191843 0.9975974 -0.0191843 0.0024026 0.0191843
738000000 0.0024529 0.0199271 0.9975471 -0.0199271 0.9975471 -0.0199271 0.0024529 0.0199271
745250000 0.0025046 0.0206657 0.9974954 -0.0206657 0.9974954 -0.0206657 0.0025046 0.0206657
752500000 0.0025575 0.0214003 0.9974425 -0.0214003 0.9974425 -0.0214003 0.0025575 0.0214003
759750000 0.0026117 0.0221312 0.9973883 -0.0221312 0.9973883 -0.0221312 0.0026117 0.0221312
767000000 0.0026671 0.0228583 0.9973329 -0.0228583 0.9973329 -0.0228583 0.0026671 0.0228583
774250000 0.0027239 0.0235819 0.9972761 -0.0235819 0.9972761 -0.0235819 0.0027239 0.0235819
781500000 0.0027819 0.0243021 0.9972181 -0.0243021 0.9972181 -0.0243021 0.0027819 0.0243021
788750000 0.0028412 0.0250190 0.9971588 -0.0250190 0.9971588 -0.0250190 0.0028412 0.0250190
796000000 0.0029017 0.0257328 0.9970983 -0.0257328 0.9970983 -0.0257328 0.0029017 0.0257328
803250000 0.0029635 0.0264436 0.9970365 -0.0264436 0.9970365 -0.0264436 0.0029635 0.0264436
810500000 0.0030266 0.0271515 0.9969734 -0.0271515 0.9969734 -0.0271515 0.0030266 0.0271515
817750000 0.0030910 0.0278567 0.9969090 -0.0278567 0.9969090 -0.0278567 0.0030910 0.0278567
825000000 0.0031566 0.0285592 0.9968434 -0.0285592 0.9968434 -0.0285592 0.0031566 0.0285592
832250000 0.0032235 0.0292592 0.9967765 -0.0292592 0.9967765 -0.0292592 0.0032235 0.0292592
839500000 0.0032918 0.0299568 0.9967082 -0.0299568 0.9967082 -0.0299568 0.0032918 0.0299568
846750000 0.0033613 0.0306521 0.9966387 -0.0306521 0.9966387 -0.0306521 0.0033613 0.0306521
854000000 0.0034321 0.0313451 0.9965679 -0.0313451 0.9965679 -0.0313451 0.0034321 0.0313451
861250000 0.0035042 0.0320361 0.9964958 -0.0320361 0.9964958 -0.0320361 0.0035042 0.0320361
868500000 0.0035777 0.0327251 0.9964223 -0.0327251 0.9964223 -0.0327251 0.0035777 0.0327251
875750000 0.0036525 0.0334122 0.9963475 -0.0334122 0.9963475 -0.0334122 0.0036525 0.0334122
883000000 0.0037286 0.0340974 0.9962714 -0.0340974 0.9962714 -0.0340974 0.0037286 0.0340974
890250000 0.0038060 0.0347810 0.9961940 -0.0347810 0.9961940 -0.0347810 0.0038060 0.0347810
897500000 0.0038849 0.0354629 0.9961151 -0.0354629 0.9961151 -0.0354629 0.0038849 0.0354629
904750000 0.0039651 0.0361433 0.9960349 -0.0361433 0.9960349 -0.0361433 0.0039651 0.0361433
912000000 0.0040467 0.0368222 0.9959533 -0.0368222 0.9959533 -0.0368222 0.0040467 0.0368222
919250000 0.0041297 0.0374998 0.9958703 -0.0374998 0.9958703 -0.0374998 0.0041297 0.0374998
926500000 0.0042142 0.0381761 0.9957858 -0.0381761 0.9957858 -0.0381761 0.0042142 0.0381761
933750000 0.0043000 0.0388512 0.9957000 -0.0388512 0.9957000 -0.0388512 0.0043000 0.0388512
941000000 0.0043874 0.0395252 0.9956126 -0.0395252 0.9956126 -0.0395252 0.0043874 0.0395252
948250000 0.0044762 0.0401982 0.9955238 -0.0401982 0.9955238 -0.0401982 0.0044762 0.0401982
955500000 0.0045665 0.0408702 0.9954335 -0.0408702 0.9954335 -0.0408702 0.0045665 0.0408702
962750000 0.0046583 0.0415413 0.9953417 -0.0415413 0.9953417 -0.0415413 0.0046583 0.0415413
970000000 0.0047516 0.0422116 0.9952484 -0.0422116 0.9952484 -0.0422116 0.0047516 0.0422116
977250000 0.0048466 0.0428812 0.9951534 -0.0428812 0.9951534 -0.0428812 0.0048466 0.0428812
984500000 0.0049431 0.0435501 0.9950569 -0.0435501 0.9950569 -0.0435501 0.0049431 0.0435501
991750000 0.0050412 0.0442185 0.9949588 -0.0442185 0.9949588 -0.0442185 0.0050412 0.0442185
999000000 0.0051409 0.0448863 0.9948591 -0.0448863 0.9948591 -0.0448863 0.0051409 0.0448863
1006250000 0.0052423 0.0455538 0.9947577 -0.0455538 0.9947577 -0.0455538 0.0052423 0.0455538
1013500000 0.0053455 0.0462208 0.9946545 -0.0462208 0.9946545 -0.0462208 0.0053455 0.0462208
1020750000 0.0054503 0.0468875 0.9945497 -0.0468875 0.9945497 -0.0468875 0.0054503 0.0468875
1028000000 0.0055569 0.0475541 0.9944431 -0.0475541 0.9944431 -0.0475541 0.0055569 0.0475541
1035250000 0.0056653 0.0482204 0.9943347 -0.0482204 0.9943347 -0.0482204 0.0056653 0.0482204
1042500000 0.0057755 0.0488867 0.9942245 -0.0488867 0.9942245 -0.0488867 0.0057755 0.0488867
1049750000 0.0058876 0.0495529 0.9941124 -0.0495529 0.9941124 -0.0495529 0.0058876 0.0495529
1057000000 0.0060016 0.0502192 0.9939984 -0.0502192 0.9939984 -0.0502192 0.0060016 0.0502192
1064250000 0.0061175 0.0508856 0.9938825 -0.0508856 0.9938825 -0.0508856 0.0061175 0.0508856
1071500000 0.0062354 0.0515522 0.9937646 -0.0515522 0.9937646 -0.0515522 0.0062354 0.0515522
1078750000 0.0063554 0.0522190 0.9936446 -0.0522190 0.9936446 -0.0522190 0.0063554 0.0522190
1086000000 0.0064774 0.0528861 0.9935226 -0.0528861 0.9935226 -0.0528861 0.0064774 0.0528861
1093250000 0.0066016 0.0535536 0.9933984 -0.0535536 0.9933984 -0.0535536 0.0066016 0.0535536
1100500000 0.0067280 0.0542216 0.9932720 -0.0542216 0.9932720 -0.0542216 0.0067280 0.0542216
1107750000 0.0068565 0.0548900 0.9931435 -0.0548900 0.9931435 -0.0548900 0.0068565 0.0548900
1115000000 0.0069874 0.0555590 0.9930126 -0.0555590 0.9930126 -0.0555590 0.0069874 0.0555590
1122250000 0.0071207 0.0562287 0.9928793 -0.0562287 0.9928793 -0.0562287 0.0071207 0.0562287
1129500000 0.0072564 0.0568991 0.9927436 -0.0568991 0.9927436 -0.0568991 0.0072564 0.0568991
1136750000 0.0073945 0.0575702 0.9926055 -0.0575702 0.9926055 -0.0575702 0.0073945 0.0575702
1144000000 0.0075352 0.0582421 0.9924648 -0.0582421 0.9924648 -0.0582421 0.0075352 0.0582421
1151250000 0.0076786 0.0589150 0.9923214 -0.0589150 0.9923214 -0.0589150 0.0076786 0.0589150
1158500000 0.0078246 0.0595888 0.9921754 -0.0595888 0.9921754 -0.0595888 0.0078246 0.0595888
1165750000 0.0079735 0.0602637 0.9920265 -0.0602637 0.9920265 -0.0602637 0.0079735 0.0602637
1173000000 0.0081252 0.0609396 0.9918748 -0.0609396 0.9918748 -0.0609396 0.0081252 0.0609396
1180250000 0.0082799 0.0616167 0.9917201 -0.0616167 0.9917201 -0.0616167 0.0082799 0.0616167
1187500000 0.0084376 0.0622950 0.9915624 -0.0622950 0.9915624 -0.0622950 0.0084376 0.0622950
1194750000 0.0085985 0.0629746 0.9914015 -0.0629746 0.9914015 -0.0629746 0.0085985 0.0629746
1202000000 0.0087627 0.0636555 0.9912373 -0.0636555 0.9912373 -0.0636555 0.0087627 0.0636555
1209250000 0.0089303 0.0643379 0.9910697 -0.0643379 0.9910697 -0.0643379 0.0089303 0.0643379
1216500000 0.0091013 0.0650217 0.9908987 -0.0650217 0.9908987 -0.0650217 0.0091013 0.0650217
1223750000 0.0092760 0.0657071 0.9907240 -0.0657071 0.9907240 -0.0657071 0.0092760 0.0657071
1231000000 0.0094545 0.0663941 0.9905455 -0.0663941 0.9905455 -0.0663941 0.0094545 0.0663941
1238250000 0.0096368 0.0670827 0.9903632 -0.0670827 0.9903632 -0.0670827 0.0096368 0.0670827
1245500000 0.0098232 0.0677731 0.9901768 -0.0677731 0.9901768 -0.0677731 0.0098232 0.0677731
1252750000 0.0100138 0.0684652 0.9899862 -0.0684652 0.9899862 -0.0684652 0.0100138 0.0684652
1260000000 0.0102088 0.0691592 0.9897912 -0.0691592 0.9897912 -0.0691592 0.0102088 0.0691592
1267250000 0.0104083 0.0698551 0.9895917 -0.0698551 0.9895917 -0.0698551 0.0104083 0.0698551
1274500000 0.0106125 0.0705530 0.9893875 -0.0705530 0.9893875 -0.0705530 0.0106125 0.0705530
1281750000 0.0108217 0.0712529 0.9891783 -0.0712529 0.9891783 -0.0712529 0.0108217 0.0712529
1289000000 0.0110360 0.0719548 0.9889640 -0.0719548 0.9889640 -0.0719548 0.0110360 0.0719548
1296250000 0.0112556 0.0726588 0.9887444 -0.0726588 0.9887444 -0.0726588 0.0112556 0.0726588
1303500000 0.0114809 0.0733649 0.9885191 -0.0733649 0.9885191 -0.0733649 0.0114809 0.0733649
1310750000 0.0117120 0.0740733 0.9882880 -0.0740733 0.9882880 -0.0740733 0.0117120 0.0740733
1318000000 0.0119493 0.0747839 0.9880507 -0.0747839 0.9880507 -0.0747839 0.0119493 0.0747839
1325250000 0.0121929 0.0754967 0.9878071 -0.0754967 0.9878071 -0.0754967 0.0121929 0.0754967
1332500000 0.0124432 0.0762117 0.9875568 -0.0762117 0.9875568 -0.0762117 0.0124432 0.0762117
1339750000 0.0127006 0.0769290 0.9872994 -0.0769290 0.9872994 -0.0769290 0.0127006 0.0769290
1347000000 0.0129653 0.0776486 0.9870347 -0.0776486 0.9870347 -0.0776486 0.0129653 0.0776486
1354250000 0.0132378 0.0783705 0.9867622 -0.0783705 0.9867622 -0.0783705 0.0132378 0.0783705
1361500000 0.0135184 0.0790946 0.9864816 -0.0790946 0.9864816 -0.0790946 0.0135184 0.0790946
1368750000 0.0138075 0.0798209 0.9861925 -0.0798209 0.9861925 -0.0798209 0.0138075 0.0798209
1376000000 0.0141056 0.0805494 0.9858944 -0.0805494 0.9858944 -0.0805494 0.0141056 0.0805494
1383250000 0.0144131 0.0812799 0.9855869 -0.0812799 0.9855869 -0.0812799 0.0144131 0.0812799
1390500000 0.0147306 0.0820124 0.9852694 -0.0820124 0.9852694 -0.0820124 0.0147306 0.0820124
1397750000 0.0150585 0.0827467 0.9849415 -0.0827467 0.9849415 -0.0827467 0.0150585 0.0827467
1405000000 0.0153975 0.0834827 0.9846025 -0.0834827 0.9846025 -0.0834827 0.0153975 0.0834827
1412250000 0.0157481 0.0842202 0.9842519 -0.0842202 0.9842519 -0.0842202 0.0157481 0.0842202
1419500000 0.0161110 0.0849590 0.9838890 -0.0849590 0.9838890 -0.0849590 0.0161110 0.0849590
1426750000 0.0164868 0.0856988 0.9835132 -0.0856988 0.9835132 -0.0856988 0.0164868 0.0856988
1434000000 0.0168763 0.0864393 0.9831237 -0.0864393 0.9831237 -0.0864393 0.0168763 0.0864393
1441250000 0.0172802 0.0871800 0.9827198 -0.0871800 0.9827198 -0.0871800 0.0172802 0.0871800
1448500000 0.0176993 0.0879206 0.9823007 -0.0879206 0.9823007 -0.0879206 0.0176993 0.0879206
1455750000 0.0181345 0.0886605 0.9818655 -0.0886605 0.9818655 -0.0886605 0.0181345 0.0886605
1463000000 0.0185867 0.0893991 0.9814133 -0.0893991 0.9814133 -0.0893991 0.0185867 0.0893991
1470250000 0.0190567 0.0901357 0.9809433 -0.0901357 0.9809433 -0.0901357 0.0190567 0.0901357
1477500000 0.0195456 0.0908693 0.9804544 -0.0908693 0.9804544 -0.0908693 0.0195456 0.0908693
1484750000 0.0200544 0.0915992 0.9799456 -0.0915992 0.9799456 -0.0915992 0.0200544 0.0915992
1492000000 0.0205839 0.0923241 0.9794161 -0.0923241 0.9794161 -0.0923241 0.0205839 0.0923241
1499250000 0.0211355 0.0930428 0.9788645 -0.0930428 0.9788645 -0.0930428 0.0211355 0.0930428
1506500000 0.0217100 0.0937539 0.9782900 -0.0937539 0.9782900 -0.0937539 0.0217100 0.0937539
1513750000 0.0223085 0.0944557 0.9776915 -0.0944557 0.9776915 -0.0944557 0.0223085 0.0944557
1521000000 0.0229321 0.0951462 0.9770679 -0.0951462 0.9770679 -0.0951462 0.0229321 0.0951462
1528250000 0.0235818 0.0958234 0.9764182 -0.0958234 0.9764182 -0.0958234 0.0235818 0.0958234
1535500000 0.0242584 0.0964848 0.9757416 -0.0964848 0.9757416 -0.0964848 0.0242584 0.0964848
1542750000 0.0249627 0.0971277 0.9750373 -0.0971277 0.9750373 -0.0971277 0.0249627 0.0971277
1550000000 0.0256955 0.0977491 0.9743045 -0.0977491 0.9743045 -0.0977491 0.0256955 0.0977491
1557250000 0.0264570 0.0983455 0.9735430 -0.0983455 0.9735430 -0.0983455 0.0264570 0.0983455
1564500000 0.0272474 0.0989132 0.9727526 -0.0989132 0.9727526 -0.0989132 0.0272474 0.0989132
1571750000 0.0280664 0.0994481 0.9719336 -0.0994481 0.9719336 -0.0994481 0.0280664 0.0994481
1579000000 0.0289134 0.0999456 0.9710866 -0.0999456 0.9710866 -0.0999456 0.0289134 0.0999456
1586250000 0.0297872 0.1004008 0.9702128 -0.1004008 0.9702128 -0.1004008 0.0297872 0.1004008
1593500000 0.0306856 0.1008087 0.9693144 -0.1008087 0.9693144 -0.1008087 0.0306856 0.1008087
1600750000 0.0316061 0.1011639 0.9683939 -0.1011639 0.9683939 -0.1011639 0.0316061 0.1011639
1608000000 0.0325450 0.1014607 0.9674550 -0.1014607 0.9674550 -0.1014607 0.0325450 0.1014607
1615250000 0.0334975 0.1016936 0.9665025 -0.1016936 0.9665025 -0.1016936 0.0334975 0.1016936
1622500000 0.0344577 0.1018573 0.9655423 -0.1018573 0.9655423 -0.1018573 0.0344577 0.1018573
1629750000 0.0354185 0.1019467 0.9645815 -0.1019467 0.9645815 -0.1019467 0.0354185 0.1019467
