!  American Technical Ceramics  Date:    3/13/98
!  One Norden Lane
!  Huntington Station,  NY.   11746-2102
!  Tel:  (516) 547-5700               Fax:  (516) 547-5748
!  Part Number  100A270F
!  Description: Porcelain, High Q, Low ESR
!  Application: Bypass, Coupling, Timing, Feedback
!               Tuning, Impedance Match, Blocking
# GHZ S DB R 50
! Freq   |S11|   S11 Ph  |S21|   S21 Ph  |S12|   S12 Ph  |S22|   S22 Ph
    0.05   -2.26  -39.62   -3.85   50.46   -3.85   50.46   -2.26  -39.62
    0.11   -6.50  -61.60   -1.10   28.00   -1.10   28.00   -6.50  -61.60
    0.17   -9.71  -71.58   -0.46   18.93   -0.46   18.93   -9.71  -71.58
    0.24  -12.23  -76.43   -0.26   13.91   -0.26   13.91  -12.23  -76.43
    0.30  -14.21  -79.79   -0.15   11.13   -0.15   11.13  -14.21  -79.79
    0.36  -15.93  -81.92   -0.09    9.24   -0.09    9.24  -15.93  -81.92
    0.42  -17.32  -83.70   -0.05    7.81   -0.05    7.81  -17.32  -83.70
    0.48  -18.59  -84.73   -0.03    6.76   -0.03    6.76  -18.59  -84.73
    0.54  -20.00  -85.75   -0.04    5.51   -0.04    5.51  -20.00  -85.75
    0.61  -21.05  -86.74   -0.02    4.99   -0.02    4.99  -21.05  -86.74
    0.67  -22.04  -87.28   -0.03    4.43   -0.03    4.43  -22.04  -87.28
    0.73  -22.96  -87.69   -0.01    4.01   -0.01    4.01  -22.96  -87.69
    0.79  -23.85  -88.45   -0.02    3.61   -0.02    3.61  -23.85  -88.45
    0.85  -24.70  -88.91   -0.01    3.22   -0.01    3.22  -24.70  -88.91
    0.91  -25.62  -89.63   -0.01    2.92   -0.01    2.92  -25.62  -89.63
    0.98  -26.34  -90.37    0.00    2.64    0.00    2.64  -26.34  -90.37
    1.04  -27.24  -89.96    0.00    2.31    0.00    2.31  -27.24  -89.96
    1.10  -28.13  -90.81    0.00    2.12    0.00    2.12  -28.13  -90.81
    1.16  -28.83  -91.06    0.00    1.80    0.00    1.80  -28.83  -91.06
    1.22  -29.74  -90.41    0.00    1.66    0.00    1.66  -29.74  -90.41
    1.29  -30.77  -90.74    0.00    1.49    0.00    1.49  -30.77  -90.74
    1.35  -31.54  -91.19    0.02    1.28    0.02    1.28  -31.54  -91.19
    1.41  -32.57  -90.34    0.00    1.19    0.00    1.19  -32.57  -90.34
    1.47  -33.69  -92.13    0.00    1.07    0.00    1.07  -33.69  -92.13
    1.53  -34.73  -89.59    0.00    0.87    0.00    0.87  -34.73  -89.59
    1.59  -36.22  -90.88    0.01    0.73    0.01    0.73  -36.22  -90.88
    1.66  -37.46  -90.45    0.01    0.59    0.01    0.59  -37.46  -90.45
    1.72  -39.00  -86.08   -0.01    0.40   -0.01    0.40  -39.00  -86.08
    1.78  -41.33  -85.74   -0.01    0.36   -0.01    0.36  -41.33  -85.74
    1.84  -43.58  -82.55    0.00    0.24    0.00    0.24  -43.58  -82.55
    1.90  -46.59  -74.37    0.00   -0.07    0.00   -0.07  -46.59  -74.37
    1.96  -51.08  -59.32    0.00   -0.09    0.00   -0.09  -51.08  -59.32
    2.03  -53.20   -4.25    0.00   -0.17    0.00   -0.17  -53.20   -4.25
    2.09  -50.61   51.82   -0.02   -0.35   -0.02   -0.35  -50.61   51.82
    2.15  -47.73   57.33   -0.01   -0.36   -0.01   -0.36  -47.73   57.33
    2.21  -44.28   64.83   -0.01   -0.62   -0.01   -0.62  -44.28   64.83
    2.27  -41.86   67.29   -0.01   -0.48   -0.01   -0.48  -41.86   67.29
    2.33  -40.22   69.59   -0.02   -0.60   -0.02   -0.60  -40.22   69.59
    2.40  -38.51   70.41   -0.01   -0.76   -0.01   -0.76  -38.51   70.41
    2.46  -37.50   73.10   -0.01   -0.70   -0.01   -0.70  -37.50   73.10
    2.52  -36.48   71.92   -0.03   -0.90   -0.03   -0.90  -36.48   71.92
    2.58  -35.57   73.89   -0.04   -1.00   -0.04   -1.00  -35.57   73.89
    2.64  -34.65   74.75   -0.04   -1.06   -0.04   -1.06  -34.65   74.75
    2.71  -33.96   73.41   -0.04   -1.05   -0.04   -1.05  -33.96   73.41
    2.77  -33.29   74.01   -0.01   -1.30   -0.01   -1.30  -33.29   74.01
    2.83  -32.81   73.64   -0.02   -1.26   -0.02   -1.26  -32.81   73.64
    2.89  -32.10   74.96   -0.02   -1.33   -0.02   -1.33  -32.10   74.96
    2.95  -31.75   74.07   -0.03   -1.49   -0.03   -1.49  -31.75   74.07
    3.01  -31.14   73.90   -0.02   -1.73   -0.02   -1.73  -31.14   73.90
    3.08  -30.68   74.08   -0.04   -1.75   -0.04   -1.75  -30.68   74.08
    3.14  -30.37   73.78   -0.03   -1.70   -0.03   -1.70  -30.37   73.78
    3.20  -29.98   73.04   -0.05   -1.94   -0.05   -1.94  -29.98   73.04
    3.26  -29.49   72.60   -0.03   -2.01   -0.03   -2.01  -29.49   72.60
    3.32  -29.42   73.38   -0.03   -2.06   -0.03   -2.06  -29.42   73.38
    3.38  -29.01   72.67   -0.04   -2.22   -0.04   -2.22  -29.01   72.67
    3.45  -28.81   71.93   -0.05   -2.18   -0.05   -2.18  -28.81   71.93
    3.51  -28.66   72.39   -0.04   -2.36   -0.04   -2.36  -28.66   72.39
    3.57  -28.35   72.25   -0.04   -2.37   -0.04   -2.37  -28.35   72.25
    3.63  -28.01   72.20   -0.04   -2.37   -0.04   -2.37  -28.01   72.20
    3.69  -28.02   71.43   -0.04   -2.65   -0.04   -2.65  -28.02   71.43
    3.76  -27.77   71.65   -0.05   -2.75   -0.05   -2.75  -27.77   71.65
    3.82  -27.48   71.46   -0.06   -2.88   -0.06   -2.88  -27.48   71.46
    3.88  -27.46   70.92   -0.05   -2.87   -0.05   -2.87  -27.46   70.92
    3.94  -27.25   70.63   -0.04   -2.93   -0.04   -2.93  -27.25   70.63
    4.00  -26.71   71.39   -0.07   -3.07   -0.07   -3.07  -26.71   71.39
    4.06  -26.45   71.80   -0.07   -3.19   -0.07   -3.19  -26.45   71.80
    4.13  -26.24   70.82   -0.07   -3.37   -0.07   -3.37  -26.24   70.82
    4.19  -26.08   70.84   -0.07   -3.38   -0.07   -3.38  -26.08   70.84
    4.25  -25.73   71.65   -0.08   -3.40   -0.08   -3.40  -25.73   71.65
    4.31  -25.43   71.47   -0.09   -3.73   -0.09   -3.73  -25.43   71.47
    4.37  -24.96   71.88   -0.08   -3.78   -0.08   -3.78  -24.96   71.88
    4.43  -24.73   71.19   -0.10   -3.99   -0.10   -3.99  -24.73   71.19
    4.50  -24.18   71.07   -0.11   -4.22   -0.11   -4.22  -24.18   71.07
    4.56  -23.62   71.17   -0.11   -4.56   -0.11   -4.56  -23.62   71.17
    4.62  -23.10   70.21   -0.14   -4.78   -0.14   -4.78  -23.10   70.21
    4.68  -22.42   68.95   -0.14   -5.13   -0.14   -5.13  -22.42   68.95
    4.74  -21.45   67.81   -0.16   -5.73   -0.16   -5.73  -21.45   67.81
    4.80  -20.45   65.39   -0.23   -6.42   -0.23   -6.42  -20.45   65.39
    4.87  -19.04   61.47   -0.33   -7.10   -0.33   -7.10  -19.04   61.47
    4.93  -17.39   54.27   -0.54   -8.37   -0.54   -8.37  -17.39   54.27
    4.99  -15.12   39.31   -1.02   -9.40   -1.02   -9.40  -15.12   39.31
    5.05  -13.71   11.73   -1.88   -6.21   -1.88   -6.21  -13.71   11.73
    5.11  -15.31  -23.85   -1.61    1.92   -1.61    1.92  -15.31  -23.85
    5.18  -19.26  -45.24   -0.82    3.02   -0.82    3.02  -19.26  -45.24
    5.24  -23.28  -53.01   -0.45    1.73   -0.45    1.73  -23.28  -53.01
    5.30  -26.93  -54.01   -0.29    0.63   -0.29    0.63  -26.93  -54.01
    5.36  -30.49  -50.91   -0.24   -0.01   -0.24   -0.01  -30.49  -50.91
    5.42  -33.70  -40.36   -0.19   -0.73   -0.19   -0.73  -33.70  -40.36
    5.48  -36.29  -23.63   -0.17   -1.06   -0.17   -1.06  -36.29  -23.63
    5.55  -37.54   -3.46   -0.13   -1.59   -0.13   -1.59  -37.54   -3.46
    5.61  -37.70   17.43   -0.15   -1.73   -0.15   -1.73  -37.70   17.43
    5.67  -36.75   33.80   -0.13   -2.04   -0.13   -2.04  -36.75   33.80
    5.73  -35.51   45.76   -0.13   -2.04   -0.13   -2.04  -35.51   45.76
    5.79  -34.34   51.63   -0.12   -2.53   -0.12   -2.53  -34.34   51.63
    5.85  -33.26   55.67   -0.11   -2.57   -0.11   -2.57  -33.26   55.67
    5.92  -32.44   58.33   -0.13   -2.76   -0.13   -2.76  -32.44   58.33
    5.98  -31.35   61.33   -0.13   -2.77   -0.13   -2.77  -31.35   61.33
    6.04  -30.65   60.23   -0.13   -3.01   -0.13   -3.01  -30.65   60.23
    6.10  -30.15   62.07   -0.14   -3.11   -0.14   -3.11  -30.15   62.07
    6.16  -29.43   62.31   -0.14   -3.18   -0.14   -3.18  -29.43   62.31
    6.23  -28.83   63.41   -0.13   -3.43   -0.13   -3.43  -28.83   63.41
    6.29  -28.37   63.79   -0.13   -3.43   -0.13   -3.43  -28.37   63.79
    6.35  -27.95   63.55   -0.15   -3.48   -0.15   -3.48  -27.95   63.55
    6.41  -27.33   63.36   -0.15   -3.64   -0.15   -3.64  -27.33   63.36
    6.47  -26.74   64.54   -0.14   -3.92   -0.14   -3.92  -26.74   64.54
    6.53  -26.33   64.41   -0.15   -3.88   -0.15   -3.88  -26.33   64.41
    6.60  -25.71   63.07   -0.15   -4.02   -0.15   -4.02  -25.71   63.07
    6.66  -25.12   63.07   -0.16   -4.24   -0.16   -4.24  -25.12   63.07
    6.72  -24.66   62.57   -0.16   -4.31   -0.16   -4.31  -24.66   62.57
    6.78  -24.31   61.35   -0.18   -4.23   -0.18   -4.23  -24.31   61.35
    6.84  -23.99   60.41   -0.19   -4.46   -0.19   -4.46  -23.99   60.41
    6.90  -23.44   59.87   -0.18   -4.55   -0.18   -4.55  -23.44   59.87
    6.97  -23.09   59.34   -0.21   -4.71   -0.21   -4.71  -23.09   59.34
    7.03  -22.89   58.17   -0.20   -4.67   -0.20   -4.67  -22.89   58.17
    7.09  -22.49   58.22   -0.21   -4.77   -0.21   -4.77  -22.49   58.22
    7.15  -22.09   57.71   -0.23   -4.96   -0.23   -4.96  -22.09   57.71
    7.21  -21.69   56.54   -0.23   -4.89   -0.23   -4.89  -21.69   56.54
    7.27  -21.44   56.32   -0.25   -5.14   -0.25   -5.14  -21.44   56.32
    7.34  -21.14   55.12   -0.26   -5.23   -0.26   -5.23  -21.14   55.12
    7.40  -20.67   54.34   -0.27   -5.20   -0.27   -5.20  -20.67   54.34
    7.46  -20.59   55.10   -0.27   -5.23   -0.27   -5.23  -20.59   55.10
    7.52  -20.38   53.52   -0.29   -5.33   -0.29   -5.33  -20.38   53.52
    7.58  -19.92   53.05   -0.31   -5.28   -0.31   -5.28  -19.92   53.05
    7.65  -19.84   53.61   -0.31   -5.30   -0.31   -5.30  -19.84   53.61
    7.71  -19.59   53.27   -0.30   -5.65   -0.30   -5.65  -19.59   53.27
    7.77  -19.30   52.88   -0.30   -5.33   -0.30   -5.33  -19.30   52.88
    7.83  -19.17   53.15   -0.33   -5.55   -0.33   -5.55  -19.17   53.15
    7.89  -18.78   53.79   -0.32   -5.51   -0.32   -5.51  -18.78   53.79
    7.95  -18.64   53.42   -0.34   -5.49   -0.34   -5.49  -18.64   53.42
    8.02  -18.49   52.73   -0.34   -5.73   -0.34   -5.73  -18.49   52.73
    8.08  -18.12   54.29   -0.36   -5.73   -0.36   -5.73  -18.12   54.29
    8.14  -17.88   53.61   -0.36   -5.95   -0.36   -5.95  -17.88   53.61
    8.20  -17.71   54.12   -0.37   -5.90   -0.37   -5.90  -17.71   54.12
    8.26  -17.48   53.50   -0.37   -6.09   -0.37   -6.09  -17.48   53.50
    8.32  -17.15   54.29   -0.39   -6.01   -0.39   -6.01  -17.15   54.29
    8.39  -16.93   54.29   -0.41   -6.26   -0.41   -6.26  -16.93   54.29
    8.45  -16.81   54.79   -0.38   -6.29   -0.38   -6.29  -16.81   54.79
    8.51  -16.42   53.92   -0.41   -6.63   -0.41   -6.63  -16.42   53.92
    8.57  -16.07   54.70   -0.42   -6.60   -0.42   -6.60  -16.07   54.70
    8.63  -15.85   54.63   -0.44   -6.83   -0.44   -6.83  -15.85   54.63
    8.70  -15.55   54.22   -0.46   -6.98   -0.46   -6.98  -15.55   54.22
    8.76  -15.24   52.40   -0.48   -7.37   -0.48   -7.37  -15.24   52.40
    8.82  -14.83   52.92   -0.55   -7.52   -0.55   -7.52  -14.83   52.92
    8.88  -14.49   51.12   -0.57   -7.75   -0.57   -7.75  -14.49   51.12
    8.94  -14.13   48.70   -0.66   -7.90   -0.66   -7.90  -14.13   48.70
    9.00  -13.68   45.36   -0.79   -8.26   -0.79   -8.26  -13.68   45.36
    9.07  -13.38   41.63   -0.98   -8.27   -0.98   -8.27  -13.38   41.63
    9.13  -13.33   34.75   -1.22   -7.39   -1.22   -7.39  -13.33   34.75
    9.19  -13.90   26.44   -1.35   -5.50   -1.35   -5.50  -13.90   26.44
    9.25  -15.09   20.89   -1.32   -3.31   -1.32   -3.31  -15.09   20.89
    9.31  -16.71   21.12   -1.08   -1.71   -1.08   -1.71  -16.71   21.12
    9.37  -18.00   26.16   -0.84   -1.61   -0.84   -1.61  -18.00   26.16
    9.44  -18.72   34.41   -0.68   -1.69   -0.68   -1.69  -18.72   34.41
    9.50  -18.67   39.97   -0.58   -2.14   -0.58   -2.14  -18.67   39.97
    9.56  -18.38   45.50   -0.51   -2.54   -0.51   -2.54  -18.38   45.50
    9.62  -18.22   48.38   -0.50   -2.59   -0.50   -2.59  -18.22   48.38
    9.68  -17.92   50.46   -0.43   -3.11   -0.43   -3.11  -17.92   50.46
    9.74  -17.72   52.49   -0.40   -3.34   -0.40   -3.34  -17.72   52.49
    9.81  -17.45   54.76   -0.40   -3.49   -0.40   -3.49  -17.45   54.76
    9.87  -17.31   55.02   -0.41   -3.79   -0.41   -3.79  -17.31   55.02
    9.93  -17.13   56.68   -0.36   -3.75   -0.36   -3.75  -17.13   56.68
    9.99  -16.91   56.89   -0.37   -4.05   -0.37   -4.05  -16.91   56.89
   10.05  -16.78   58.21   -0.35   -3.99   -0.35   -3.99  -16.78   58.21
   10.12  -16.78   57.68   -0.38   -4.08   -0.38   -4.08  -16.78   57.68
   10.18  -16.60   58.57   -0.34   -4.48   -0.34   -4.48  -16.60   58.57
   10.24  -16.48   59.03   -0.35   -4.24   -0.35   -4.24  -16.48   59.03
   10.30  -16.40   60.17   -0.33   -4.43   -0.33   -4.43  -16.40   60.17
   10.36  -16.37   59.76   -0.37   -4.55   -0.37   -4.55  -16.37   59.76
   10.42  -16.28   60.58   -0.33   -4.58   -0.33   -4.58  -16.28   60.58
   10.49  -16.09   60.65   -0.31   -4.82   -0.31   -4.82  -16.09   60.65
   10.55  -16.09   61.59   -0.32   -4.84   -0.32   -4.84  -16.09   61.59
   10.61  -16.01   61.34   -0.31   -4.79   -0.31   -4.79  -16.01   61.34
   10.67  -15.92   61.93   -0.31   -4.74   -0.31   -4.74  -15.92   61.93
   10.73  -15.89   62.11   -0.31   -4.90   -0.31   -4.90  -15.89   62.11
   10.79  -15.78   62.52   -0.30   -5.13   -0.30   -5.13  -15.78   62.52
   10.86  -15.69   62.03   -0.32   -5.22   -0.32   -5.22  -15.69   62.03
   10.92  -15.72   62.65   -0.32   -5.32   -0.32   -5.32  -15.72   62.65
   10.98  -15.61   62.70   -0.31   -5.25   -0.31   -5.25  -15.61   62.70
   11.04  -15.45   62.77   -0.31   -5.56   -0.31   -5.56  -15.45   62.77
   11.10  -15.59   62.52   -0.30   -5.45   -0.30   -5.45  -15.59   62.52
   11.17  -15.50   62.73   -0.32   -5.69   -0.32   -5.69  -15.50   62.73
   11.23  -15.34   62.85   -0.34   -5.67   -0.34   -5.67  -15.34   62.85
   11.29  -15.43   63.31   -0.30   -5.80   -0.30   -5.80  -15.43   63.31
   11.35  -15.39   62.36   -0.29   -5.78   -0.29   -5.78  -15.39   62.36
   11.41  -15.25   62.76   -0.28   -6.03   -0.28   -6.03  -15.25   62.76
   11.47  -15.27   62.98   -0.33   -6.04   -0.33   -6.04  -15.27   62.98
   11.54  -15.22   62.45   -0.29   -6.12   -0.29   -6.12  -15.22   62.45
   11.60  -15.18   62.35   -0.29   -6.32   -0.29   -6.32  -15.18   62.35
   11.66  -15.16   62.53   -0.33   -6.17   -0.33   -6.17  -15.16   62.53
   11.72  -15.08   61.94   -0.31   -6.24   -0.31   -6.24  -15.08   61.94
   11.78  -15.06   62.00   -0.30   -6.60   -0.30   -6.60  -15.06   62.00
   11.84  -15.02   61.74   -0.31   -6.76   -0.31   -6.76  -15.02   61.74
   11.91  -15.00   61.35   -0.31   -6.50   -0.31   -6.50  -15.00   61.35
   11.97  -14.84   61.36   -0.33   -6.89   -0.33   -6.89  -14.84   61.36
   12.03  -14.89   60.91   -0.36   -6.96   -0.36   -6.96  -14.89   60.91
   12.09  -14.81   60.08   -0.31   -7.21   -0.31   -7.21  -14.81   60.08
   12.15  -14.70   59.58   -0.34   -7.26   -0.34   -7.26  -14.70   59.58
   12.21  -14.54   59.27   -0.36   -7.34   -0.36   -7.34  -14.54   59.27
   12.28  -14.61   58.44   -0.34   -7.48   -0.34   -7.48  -14.61   58.44
   12.34  -14.40   57.65   -0.35   -7.71   -0.35   -7.71  -14.40   57.65
   12.40  -14.32   57.12   -0.35   -7.80   -0.35   -7.80  -14.32   57.12
