!  American Technical Ceramics  Date:    3/13/98
!  One Norden Lane
!  Huntington Station,  NY.   11746-2102
!  Tel:  (516) 547-5700               Fax:  (516) 547-5748
!  Part Number  100b1r8b
!  Description: Porcelain, High Q, Low ESR
!  Application: Bypass, Coupling, Timing, Feedback
!               Tuning, Impedance Match, Blocking
# GHZ S DB R 50
! Freq   |S11|   S11 Ph  |S21|   S21 Ph  |S12|   S12 Ph  |S22|   S22 Ph
    0.05    0.04   -2.43  -25.28   85.12  -25.28   85.12    0.04   -2.43
    0.15   -0.05  -10.72  -15.47   79.84  -15.47   79.84   -0.05  -10.72
    0.25   -0.29  -17.44  -11.24   73.08  -11.24   73.08   -0.29  -17.44
    0.35   -0.59  -23.77   -8.61   66.88   -8.61   66.88   -0.59  -23.77
    0.45   -0.93  -29.87   -6.77   61.23   -6.77   61.23   -0.93  -29.87
    0.55   -1.52  -35.87   -5.44   55.07   -5.44   55.07   -1.52  -35.87
    0.65   -1.98  -41.01   -4.45   50.38   -4.45   50.38   -1.98  -41.01
    0.75   -2.44  -45.44   -3.72   46.23   -3.72   46.23   -2.44  -45.44
    0.85   -2.96  -49.74   -3.16   42.37   -3.16   42.37   -2.96  -49.74
    0.95   -3.40  -53.25   -2.74   39.09   -2.74   39.09   -3.40  -53.25
    1.05   -3.83  -56.57   -2.40   36.06   -2.40   36.06   -3.83  -56.57
    1.15   -4.24  -59.74   -2.08   33.42   -2.08   33.42   -4.24  -59.74
    1.25   -4.67  -62.24   -1.80   31.07   -1.80   31.07   -4.67  -62.24
    1.35   -5.09  -64.98   -1.65   28.85   -1.65   28.85   -5.09  -64.98
    1.45   -5.45  -67.38   -1.53   26.86   -1.53   26.86   -5.45  -67.38
    1.55   -5.78  -69.58   -1.40   25.11   -1.40   25.11   -5.78  -69.58
    1.65   -6.10  -71.71   -1.26   23.19   -1.26   23.19   -6.10  -71.71
    1.75   -6.41  -73.69   -1.15   21.92   -1.15   21.92   -6.41  -73.69
    1.85   -6.75  -75.72   -1.06   20.57   -1.06   20.57   -6.75  -75.72
    1.95   -7.02  -77.23   -1.03   19.20   -1.03   19.20   -7.02  -77.23
    2.05   -7.26  -78.83   -0.98   17.86   -0.98   17.86   -7.26  -78.83
    2.14   -7.44  -80.19   -0.91   16.64   -0.91   16.64   -7.44  -80.19
    2.24   -7.71  -82.03   -0.82   15.72   -0.82   15.72   -7.71  -82.03
    2.34   -7.95  -83.63   -0.80   14.60   -0.80   14.60   -7.95  -83.63
    2.44   -8.14  -85.35   -0.78   13.77   -0.78   13.77   -8.14  -85.35
    2.54   -8.32  -86.33   -0.78   12.93   -0.78   12.93   -8.32  -86.33
    2.64   -8.47  -86.69   -0.72   11.87   -0.72   11.87   -8.47  -86.69
    2.74   -8.69  -88.19   -0.68   11.23   -0.68   11.23   -8.69  -88.19
    2.84   -8.89  -89.67   -0.68   10.20   -0.68   10.20   -8.89  -89.67
    2.94   -9.01  -91.31   -0.65    9.62   -0.65    9.62   -9.01  -91.31
    3.04   -9.07  -91.67   -0.67    8.81   -0.67    8.81   -9.07  -91.67
    3.14   -9.21  -92.76   -0.63    7.96   -0.63    7.96   -9.21  -92.76
    3.24   -9.30  -93.62   -0.64    7.61   -0.64    7.61   -9.30  -93.62
    3.34   -9.59  -94.95   -0.61    6.45   -0.61    6.45   -9.59  -94.95
    3.44   -9.60  -96.44   -0.61    6.19   -0.61    6.19   -9.60  -96.44
    3.54   -9.65  -96.54   -0.63    5.47   -0.63    5.47   -9.65  -96.54
    3.64   -9.67  -97.56   -0.58    4.86   -0.58    4.86   -9.67  -97.56
    3.74   -9.84  -97.73   -0.62    4.41   -0.62    4.41   -9.84  -97.73
    3.84   -9.98  -99.47   -0.63    3.85   -0.63    3.85   -9.98  -99.47
    3.94  -10.00 -100.18   -0.61    3.26   -0.61    3.26  -10.00 -100.18
    4.04  -10.11 -101.80   -0.58    2.85   -0.58    2.85  -10.11 -101.80
    4.14  -10.13 -102.53   -0.54    2.37   -0.54    2.37  -10.13 -102.53
    4.24  -10.23 -102.65   -0.55    1.91   -0.55    1.91  -10.23 -102.65
    4.34  -10.42 -104.69   -0.54    1.39   -0.54    1.39  -10.42 -104.69
    4.44  -10.54 -105.60   -0.56    1.11   -0.56    1.11  -10.54 -105.60
    4.54  -10.66 -105.89   -0.57    0.39   -0.57    0.39  -10.66 -105.89
    4.64  -10.73 -106.26   -0.51   -0.06   -0.51   -0.06  -10.73 -106.26
    4.74  -10.85 -105.58   -0.50   -0.04   -0.50   -0.04  -10.85 -105.58
    4.84  -11.04 -107.20   -0.56   -0.62   -0.56   -0.62  -11.04 -107.20
    4.94  -11.09 -107.54   -0.53   -1.13   -0.53   -1.13  -11.09 -107.54
    5.04  -11.42 -108.21   -0.55   -1.72   -0.55   -1.72  -11.42 -108.21
    5.14  -11.44 -108.81   -0.50   -2.13   -0.50   -2.13  -11.44 -108.81
    5.24  -11.73 -108.66   -0.48   -2.09   -0.48   -2.09  -11.73 -108.66
    5.34  -11.84 -109.52   -0.48   -2.47   -0.48   -2.47  -11.84 -109.52
    5.44  -12.27 -109.35   -0.54   -2.97   -0.54   -2.97  -12.27 -109.35
    5.54  -12.30 -110.47   -0.50   -3.73   -0.50   -3.73  -12.30 -110.47
    5.64  -12.49 -109.87   -0.49   -3.89   -0.49   -3.89  -12.49 -109.87
    5.74  -12.62 -111.15   -0.48   -4.17   -0.48   -4.17  -12.62 -111.15
    5.84  -12.95 -111.00   -0.46   -4.31   -0.46   -4.31  -12.95 -111.00
    5.94  -13.27 -112.30   -0.48   -4.88   -0.48   -4.88  -13.27 -112.30
    6.04  -13.58 -112.39   -0.48   -5.32   -0.48   -5.32  -13.58 -112.39
    6.13  -13.72 -112.86   -0.46   -5.70   -0.46   -5.70  -13.72 -112.86
    6.23  -14.05 -112.59   -0.47   -6.05   -0.47   -6.05  -14.05 -112.59
    6.33  -14.36 -113.43   -0.45   -6.16   -0.45   -6.16  -14.36 -113.43
    6.43  -14.81 -114.46   -0.45   -6.63   -0.45   -6.63  -14.81 -114.46
    6.53  -15.15 -115.01   -0.46   -7.49   -0.46   -7.49  -15.15 -115.01
    6.63  -15.61 -114.37   -0.48   -7.73   -0.48   -7.73  -15.61 -114.37
    6.73  -15.98 -113.99   -0.46   -8.26   -0.46   -8.26  -15.98 -113.99
    6.83  -16.53 -113.00   -0.50   -8.50   -0.50   -8.50  -16.53 -113.00
    6.93  -16.77 -112.54   -0.56   -8.85   -0.56   -8.85  -16.77 -112.54
    7.03  -17.03 -112.12   -0.55   -9.06   -0.55   -9.06  -17.03 -112.12
    7.13  -17.25 -111.24   -0.58   -9.40   -0.58   -9.40  -17.25 -111.24
    7.23  -17.66 -109.91   -0.56   -9.89   -0.56   -9.89  -17.66 -109.91
    7.33  -17.84 -108.37   -0.62  -10.02   -0.62  -10.02  -17.84 -108.37
    7.43  -18.07 -108.23   -0.64  -10.13   -0.64  -10.13  -18.07 -108.23
    7.53  -18.02 -106.99   -0.65  -10.46   -0.65  -10.46  -18.02 -106.99
    7.63  -18.18 -108.24   -0.69  -10.30   -0.69  -10.30  -18.18 -108.24
    7.73  -18.10 -109.11   -0.62  -10.74   -0.62  -10.74  -18.10 -109.11
    7.83  -18.60 -111.45   -0.61  -10.75   -0.61  -10.75  -18.60 -111.45
    7.93  -18.87 -113.00   -0.59  -11.20   -0.59  -11.20  -18.87 -113.00
    8.03  -19.39 -113.47   -0.56  -11.54   -0.56  -11.54  -19.39 -113.47
    8.13  -19.53 -113.73   -0.58  -11.98   -0.58  -11.98  -19.53 -113.73
    8.23  -19.98 -113.36   -0.59  -12.38   -0.59  -12.38  -19.98 -113.36
    8.33  -20.20 -114.85   -0.59  -12.54   -0.59  -12.54  -20.20 -114.85
    8.43  -20.63 -118.69   -0.55  -12.95   -0.55  -12.95  -20.63 -118.69
    8.53  -21.17 -120.26   -0.55  -13.32   -0.55  -13.32  -21.17 -120.26
    8.63  -21.75 -121.19   -0.57  -13.92   -0.57  -13.92  -21.75 -121.19
    8.73  -22.19 -123.28   -0.52  -14.37   -0.52  -14.37  -22.19 -123.28
    8.83  -22.81 -125.18   -0.51  -14.65   -0.51  -14.65  -22.81 -125.18
    8.93  -23.67 -127.91   -0.50  -15.40   -0.50  -15.40  -23.67 -127.91
    9.03  -24.33 -130.25   -0.53  -15.96   -0.53  -15.96  -24.33 -130.25
    9.13  -24.91 -131.99   -0.52  -16.33   -0.52  -16.33  -24.91 -131.99
    9.23  -25.76 -137.66   -0.55  -16.81   -0.55  -16.81  -25.76 -137.66
    9.33  -26.72 -140.87   -0.55  -17.33   -0.55  -17.33  -26.72 -140.87
    9.43  -27.63 -147.45   -0.57  -17.78   -0.57  -17.78  -27.63 -147.45
    9.53  -28.57 -155.33   -0.56  -18.02   -0.56  -18.02  -28.57 -155.33
    9.63  -29.96 -166.88   -0.58  -18.74   -0.58  -18.74  -29.96 -166.88
    9.73  -30.73 -179.32   -0.60  -19.05   -0.60  -19.05  -30.73 -179.32
    9.83  -31.45  164.54   -0.60  -19.96   -0.60  -19.96  -31.45  164.54
    9.93  -31.79  145.62   -0.62  -20.19   -0.62  -20.19  -31.79  145.62
   10.03  -30.62  125.95   -0.60  -20.83   -0.60  -20.83  -30.62  125.95
   10.12  -29.51  110.25   -0.61  -21.30   -0.61  -21.30  -29.51  110.25
   10.22  -27.95   99.32   -0.65  -22.05   -0.65  -22.05  -27.95   99.32
   10.32  -26.61   92.31   -0.67  -22.90   -0.67  -22.90  -26.61   92.31
   10.42  -25.24   84.86   -0.73  -23.33   -0.73  -23.33  -25.24   84.86
   10.52  -23.90   79.42   -0.79  -24.17   -0.79  -24.17  -23.90   79.42
   10.62  -22.52   76.17   -0.83  -24.77   -0.83  -24.77  -22.52   76.17
   10.72  -21.13   71.39   -0.94  -25.12   -0.94  -25.12  -21.13   71.39
   10.82  -19.81   67.97   -0.96  -25.64   -0.96  -25.64  -19.81   67.97
   10.92  -18.92   63.79   -1.05  -25.92   -1.05  -25.92  -18.92   63.79
   11.02  -17.83   60.24   -1.08  -26.19   -1.08  -26.19  -17.83   60.24
   11.12  -16.86   56.96   -1.12  -26.42   -1.12  -26.42  -16.86   56.96
   11.22  -15.83   54.29   -1.17  -26.78   -1.17  -26.78  -15.83   54.29
   11.32  -15.18   50.15   -1.23  -27.10   -1.23  -27.10  -15.18   50.15
   11.42  -14.52   46.74   -1.26  -27.66   -1.26  -27.66  -14.52   46.74
   11.52  -13.94   43.00   -1.30  -27.67   -1.30  -27.67  -13.94   43.00
   11.62  -13.52   41.39   -1.31  -28.01   -1.31  -28.01  -13.52   41.39
   11.72  -13.01   38.66   -1.37  -27.94   -1.37  -27.94  -13.01   38.66
   11.82  -12.63   37.13   -1.41  -29.13   -1.41  -29.13  -12.63   37.13
   11.92  -12.35   34.12   -1.36  -29.33   -1.36  -29.33  -12.35   34.12
   12.02  -11.88   32.99   -1.43  -29.69   -1.43  -29.69  -11.88   32.99
   12.12  -11.49   31.50   -1.43  -30.10   -1.43  -30.10  -11.49   31.50
   12.22  -11.07   30.76   -1.48  -30.50   -1.48  -30.50  -11.07   30.76
   12.32  -10.71   28.62   -1.52  -31.21   -1.52  -31.21  -10.71   28.62
   12.42  -10.60   26.94   -1.56  -32.09   -1.56  -32.09  -10.60   26.94
   12.52  -10.12   24.52   -1.59  -32.41   -1.59  -32.41  -10.12   24.52
   12.62   -9.85   24.42   -1.68  -33.02   -1.68  -33.02   -9.85   24.42
   12.72   -9.39   22.55   -1.68  -33.29   -1.68  -33.29   -9.39   22.55
   12.82   -9.25   22.07   -1.82  -34.07   -1.82  -34.07   -9.25   22.07
   12.92   -9.05   18.58   -1.82  -34.93   -1.82  -34.93   -9.05   18.58
   13.02   -8.88   17.71   -1.88  -35.35   -1.88  -35.35   -8.88   17.71
   13.12   -8.55   16.21   -1.92  -35.71   -1.92  -35.71   -8.55   16.21
   13.22   -8.47   16.39   -2.04  -36.23   -2.04  -36.23   -8.47   16.39
   13.32   -8.19   14.43   -2.11  -37.04   -2.11  -37.04   -8.19   14.43
   13.42   -8.23   13.32   -2.18  -37.88   -2.18  -37.88   -8.23   13.32
   13.52   -7.89   10.62   -2.18  -38.48   -2.18  -38.48   -7.89   10.62
   13.62   -7.84   12.30   -2.32  -38.63   -2.32  -38.63   -7.84   12.30
   13.72   -7.53   10.13   -2.39  -39.69   -2.39  -39.69   -7.53   10.13
   13.82   -7.43   10.73   -2.50  -39.81   -2.50  -39.81   -7.43   10.73
   13.92   -7.46    8.45   -2.59  -41.22   -2.59  -41.22   -7.46    8.45
   14.02   -7.41    6.83   -2.69  -42.06   -2.69  -42.06   -7.41    6.83
   14.11   -7.14    5.61   -2.71  -42.87   -2.71  -42.87   -7.14    5.61
   14.21   -6.87    6.70   -2.76  -43.17   -2.76  -43.17   -6.87    6.70
   14.31   -6.75    7.10   -2.86  -43.75   -2.86  -43.75   -6.75    7.10
   14.41   -6.78    5.13   -2.99  -44.97   -2.99  -44.97   -6.78    5.13
   14.51   -6.73    4.47   -3.08  -45.82   -3.08  -45.82   -6.73    4.47
   14.61   -6.62    3.84   -3.27  -47.24   -3.27  -47.24   -6.62    3.84
   14.71   -6.26    3.17   -3.40  -48.27   -3.40  -48.27   -6.26    3.17
   14.81   -5.97    3.10   -3.50  -49.13   -3.50  -49.13   -5.97    3.10
   14.91   -5.82    2.55   -3.70  -49.98   -3.70  -49.98   -5.82    2.55
   15.01   -5.80    0.94   -3.89  -50.55   -3.89  -50.55   -5.80    0.94
   15.11   -5.59    0.31   -4.11  -51.20   -4.11  -51.20   -5.59    0.31
   15.21   -5.37   -1.73   -4.28  -52.46   -4.28  -52.46   -5.37   -1.73
   15.31   -4.96   -2.29   -4.32  -53.34   -4.32  -53.34   -4.96   -2.29
   15.41   -4.86   -4.31   -4.55  -54.15   -4.55  -54.15   -4.86   -4.31
   15.51   -4.70   -6.42   -4.70  -55.74   -4.70  -55.74   -4.70   -6.42
   15.61   -4.59   -9.02   -4.99  -56.98   -4.99  -56.98   -4.59   -9.02
   15.71   -4.27  -10.65   -5.32  -58.89   -5.32  -58.89   -4.27  -10.65
   15.81   -4.07  -13.49   -5.61  -61.17   -5.61  -61.17   -4.07  -13.49
   15.91   -3.82  -16.75   -6.02  -63.60   -6.02  -63.60   -3.82  -16.75
   16.01   -3.78  -21.10   -6.63  -66.01   -6.63  -66.01   -3.78  -21.10
   16.11   -3.54  -25.02   -7.34  -69.34   -7.34  -69.34   -3.54  -25.02
   16.21   -3.41  -30.01   -8.46  -73.01   -8.46  -73.01   -3.41  -30.01
   16.31   -3.24  -36.56  -10.13  -78.28  -10.13  -78.28   -3.24  -36.56
   16.41   -3.40  -45.53  -13.28  -82.79  -13.28  -82.79   -3.40  -45.53
   16.51   -3.83  -57.08  -20.26  -76.16  -20.26  -76.16   -3.83  -57.08
   16.61   -5.17  -71.24  -20.56   30.34  -20.56   30.34   -5.17  -71.24
   16.71   -7.86  -87.90  -11.22   34.22  -11.22   34.22   -7.86  -87.90
   16.81  -13.38 -102.64   -7.20   21.90   -7.20   21.90  -13.38 -102.64
   16.91  -31.38  -78.10   -5.26    7.86   -5.26    7.86  -31.38  -78.10
   17.01  -17.20   36.00   -4.41   -2.56   -4.41   -2.56  -17.20   36.00
   17.11  -11.99   30.58   -4.06  -11.07   -4.06  -11.07  -11.99   30.58
   17.21   -9.34   24.59   -4.07  -17.18   -4.07  -17.18   -9.34   24.59
   17.31   -7.83   19.22   -4.08  -21.78   -4.08  -21.78   -7.83   19.22
   17.41   -6.79   15.32   -4.16  -25.59   -4.16  -25.59   -6.79   15.32
   17.51   -6.08   10.95   -4.28  -28.46   -4.28  -28.46   -6.08   10.95
   17.61   -5.48    8.97   -4.52  -30.72   -4.52  -30.72   -5.48    8.97
   17.71   -5.16    5.54   -4.55  -32.26   -4.55  -32.26   -5.16    5.54
   17.81   -4.71    3.96   -4.75  -34.71   -4.75  -34.71   -4.71    3.96
   17.91   -4.69    1.66   -4.97  -36.77   -4.97  -36.77   -4.69    1.66
   18.01   -4.29   -0.59   -5.06  -37.99   -5.06  -37.99   -4.29   -0.59
   18.10   -4.35   -1.60   -5.31  -40.20   -5.31  -40.20   -4.35   -1.60
   18.20   -3.92   -2.63   -5.50  -39.85   -5.50  -39.85   -3.92   -2.63
   18.30   -3.86   -3.36   -5.79  -41.41   -5.79  -41.41   -3.86   -3.36
   18.40   -3.76   -4.65   -6.03  -42.26   -6.03  -42.26   -3.76   -4.65
   18.50   -3.62   -6.17   -6.17  -42.90   -6.17  -42.90   -3.62   -6.17
   18.60   -3.51   -7.54   -6.45  -43.55   -6.45  -43.55   -3.51   -7.54
   18.70   -3.39   -8.29   -6.65  -43.94   -6.65  -43.94   -3.39   -8.29
   18.80   -3.13   -8.89   -6.89  -43.95   -6.89  -43.95   -3.13   -8.89
   18.90   -3.07  -10.26   -7.13  -44.72   -7.13  -44.72   -3.07  -10.26
   19.00   -2.92  -12.91   -7.29  -45.29   -7.29  -45.29   -2.92  -12.91
   19.10   -2.84  -13.50   -7.57  -46.17   -7.57  -46.17   -2.84  -13.50
   19.20   -2.75  -15.29   -7.89  -47.13   -7.89  -47.13   -2.75  -15.29
   19.30   -2.42  -16.69   -8.31  -48.45   -8.31  -48.45   -2.42  -16.69
   19.40   -2.46  -18.94   -9.28  -50.10   -9.28  -50.10   -2.46  -18.94
   19.50   -2.43  -22.95  -10.67  -46.04  -10.67  -46.04   -2.43  -22.95
   19.60   -2.58  -23.75  -11.02  -31.86  -11.02  -31.86   -2.58  -23.75
   19.70   -2.82  -27.54   -9.49  -24.48   -9.49  -24.48   -2.82  -27.54
   19.80   -2.91  -25.75   -8.27  -27.35   -8.27  -27.35   -2.91  -25.75
   19.90   -3.04  -27.62   -8.00  -31.31   -8.00  -31.31   -3.04  -27.62
   20.00   -3.09  -28.38   -7.76  -33.28   -7.76  -33.28   -3.09  -28.38
