!  American Technical Ceramics  Date:    3/13/98
!  One Norden Lane
!  Huntington Station,  NY.   11746-2102
!  Tel:  (516) 547-5700               Fax:  (516) 547-5748
!  Part Number  100b8r2b
!  Description: Porcelain, High Q, Low ESR
!  Application: Bypass, Coupling, Timing, Feedback
!               Tuning, Impedance Match, Blocking
# GHZ S DB R 50
! Freq   |S11|   S11 Ph  |S21|   S21 Ph  |S12|   S12 Ph  |S22|   S22 Ph
    0.05   -0.21  -14.59  -12.17   75.01  -12.17   75.01   -0.21  -14.59
    0.11   -1.20  -30.37   -6.09   59.37   -6.09   59.37   -1.20  -30.37
    0.17   -2.44  -42.81   -3.60   47.63   -3.60   47.63   -2.44  -42.81
    0.24   -3.84  -51.65   -2.29   38.76   -2.29   38.76   -3.84  -51.65
    0.30   -5.11  -58.45   -1.58   32.46   -1.58   32.46   -5.11  -58.45
    0.36   -6.29  -63.52   -1.16   27.58   -1.16   27.58   -6.29  -63.52
    0.42   -7.30  -67.67   -0.87   23.74   -0.87   23.74   -7.30  -67.67
    0.48   -8.20  -70.55   -0.69   20.85   -0.69   20.85   -8.20  -70.55
    0.54   -9.27  -73.43   -0.59   17.84   -0.59   17.84   -9.27  -73.43
    0.61  -10.01  -75.88   -0.48   15.94   -0.48   15.94  -10.01  -75.88
    0.67  -10.68  -77.56   -0.43   14.43   -0.43   14.43  -10.68  -77.56
    0.73  -11.24  -79.32   -0.37   13.00   -0.37   13.00  -11.24  -79.32
    0.79  -11.78  -80.63   -0.34   11.78   -0.34   11.78  -11.78  -80.63
    0.85  -12.28  -82.31   -0.30   10.70   -0.30   10.70  -12.28  -82.31
    0.91  -12.69  -83.49   -0.26    9.80   -0.26    9.80  -12.69  -83.49
    0.98  -13.08  -84.94   -0.25    8.87   -0.25    8.87  -13.08  -84.94
    1.04  -13.47  -86.02   -0.24    8.10   -0.24    8.10  -13.47  -86.02
    1.10  -13.81  -87.14   -0.22    7.50   -0.22    7.50  -13.81  -87.14
    1.16  -14.04  -88.32   -0.21    6.63   -0.21    6.63  -14.04  -88.32
    1.22  -14.29  -88.94   -0.20    6.24   -0.20    6.24  -14.29  -88.94
    1.29  -14.54  -90.14   -0.19    5.57   -0.19    5.57  -14.54  -90.14
    1.35  -14.72  -91.16   -0.17    5.09   -0.17    5.09  -14.72  -91.16
    1.41  -14.89  -92.02   -0.16    4.67   -0.16    4.67  -14.89  -92.02
    1.47  -15.03  -92.97   -0.17    4.20   -0.17    4.20  -15.03  -92.97
    1.53  -15.18  -93.89   -0.17    3.72   -0.17    3.72  -15.18  -93.89
    1.59  -15.33  -95.07   -0.16    3.48   -0.16    3.48  -15.33  -95.07
    1.66  -15.40  -95.68   -0.16    3.09   -0.16    3.09  -15.40  -95.68
    1.72  -15.50  -96.44   -0.16    2.49   -0.16    2.49  -15.50  -96.44
    1.78  -15.60  -97.58   -0.16    2.20   -0.16    2.20  -15.60  -97.58
    1.84  -15.65  -98.55   -0.15    1.89   -0.15    1.89  -15.65  -98.55
    1.90  -15.64  -98.76   -0.14    1.64   -0.14    1.64  -15.64  -98.76
    1.96  -15.70  -99.48   -0.15    1.23   -0.15    1.23  -15.70  -99.48
    2.03  -15.79 -100.64   -0.16    1.06   -0.16    1.06  -15.79 -100.64
    2.09  -15.84 -101.51   -0.15    0.75   -0.15    0.75  -15.84 -101.51
    2.15  -15.75 -101.91   -0.17    0.55   -0.17    0.55  -15.75 -101.91
    2.21  -15.79 -102.74   -0.16    0.02   -0.16    0.02  -15.79 -102.74
    2.27  -15.85 -103.76   -0.17    0.04   -0.17    0.04  -15.85 -103.76
    2.33  -15.82 -104.32   -0.17   -0.28   -0.17   -0.28  -15.82 -104.32
    2.40  -15.77 -104.95   -0.17   -0.55   -0.17   -0.55  -15.77 -104.95
    2.46  -15.81 -105.67   -0.14   -0.81   -0.14   -0.81  -15.81 -105.67
    2.52  -15.78 -106.68   -0.17   -0.98   -0.17   -0.98  -15.78 -106.68
    2.58  -15.77 -106.96   -0.16   -1.23   -0.16   -1.23  -15.77 -106.96
    2.64  -15.71 -107.10   -0.18   -1.42   -0.18   -1.42  -15.71 -107.10
    2.71  -15.69 -107.82   -0.19   -1.74   -0.19   -1.74  -15.69 -107.82
    2.77  -15.70 -109.16   -0.16   -1.95   -0.16   -1.95  -15.70 -109.16
    2.83  -15.65 -109.13   -0.17   -2.11   -0.17   -2.11  -15.65 -109.13
    2.89  -15.52 -109.52   -0.19   -2.23   -0.19   -2.23  -15.52 -109.52
    2.95  -15.61 -110.63   -0.18   -2.64   -0.18   -2.64  -15.61 -110.63
    3.01  -15.58 -111.12   -0.21   -2.71   -0.21   -2.71  -15.58 -111.12
    3.08  -15.46 -111.63   -0.17   -3.08   -0.17   -3.08  -15.46 -111.63
    3.14  -15.43 -111.75   -0.20   -3.20   -0.20   -3.20  -15.43 -111.75
    3.20  -15.46 -112.21   -0.24   -3.54   -0.24   -3.54  -15.46 -112.21
    3.26  -15.39 -113.35   -0.20   -3.63   -0.20   -3.63  -15.39 -113.35
    3.32  -15.39 -113.43   -0.20   -3.88   -0.20   -3.88  -15.39 -113.43
    3.38  -15.20 -113.49   -0.22   -4.09   -0.22   -4.09  -15.20 -113.49
    3.45  -15.26 -114.87   -0.22   -4.32   -0.22   -4.32  -15.26 -114.87
    3.51  -15.21 -115.02   -0.23   -4.41   -0.23   -4.41  -15.21 -115.02
    3.57  -15.09 -114.69   -0.23   -4.57   -0.23   -4.57  -15.09 -114.69
    3.63  -15.01 -115.74   -0.23   -4.56   -0.23   -4.56  -15.01 -115.74
    3.69  -15.09 -116.26   -0.26   -5.06   -0.26   -5.06  -15.09 -116.26
    3.76  -14.93 -116.53   -0.25   -5.05   -0.25   -5.05  -14.93 -116.53
    3.82  -14.89 -116.95   -0.22   -5.59   -0.22   -5.59  -14.89 -116.95
    3.88  -14.80 -116.87   -0.25   -5.62   -0.25   -5.62  -14.80 -116.87
    3.94  -14.78 -117.74   -0.27   -5.75   -0.27   -5.75  -14.78 -117.74
    4.00  -14.92 -120.04   -0.23   -6.11   -0.23   -6.11  -14.92 -120.04
    4.06  -14.85 -119.97   -0.25   -6.22   -0.25   -6.22  -14.85 -119.97
    4.13  -14.80 -120.76   -0.25   -6.33   -0.25   -6.33  -14.80 -120.76
    4.19  -14.93 -121.59   -0.27   -6.51   -0.27   -6.51  -14.93 -121.59
    4.25  -14.77 -121.78   -0.25   -6.59   -0.25   -6.59  -14.77 -121.78
    4.31  -14.80 -122.48   -0.25   -6.86   -0.25   -6.86  -14.80 -122.48
    4.37  -14.86 -123.31   -0.27   -7.06   -0.27   -7.06  -14.86 -123.31
    4.43  -14.93 -123.97   -0.29   -7.06   -0.29   -7.06  -14.93 -123.97
    4.50  -14.94 -124.44   -0.26   -7.37   -0.26   -7.37  -14.94 -124.44
    4.56  -14.88 -124.21   -0.27   -7.56   -0.27   -7.56  -14.88 -124.21
    4.62  -14.97 -125.51   -0.28   -7.74   -0.28   -7.74  -14.97 -125.51
    4.68  -15.12 -125.86   -0.30   -7.86   -0.30   -7.86  -15.12 -125.86
    4.74  -15.09 -125.76   -0.26   -8.02   -0.26   -8.02  -15.09 -125.76
    4.80  -15.14 -126.30   -0.29   -8.34   -0.29   -8.34  -15.14 -126.30
    4.87  -15.23 -127.01   -0.29   -8.39   -0.29   -8.39  -15.23 -127.01
    4.93  -15.34 -127.35   -0.29   -8.53   -0.29   -8.53  -15.34 -127.35
    4.99  -15.33 -127.96   -0.28   -9.04   -0.28   -9.04  -15.33 -127.96
    5.05  -15.47 -127.87   -0.32   -9.05   -0.32   -9.05  -15.47 -127.87
    5.11  -15.54 -128.91   -0.31   -9.29   -0.31   -9.29  -15.54 -128.91
    5.18  -15.70 -129.37   -0.33   -9.30   -0.33   -9.30  -15.70 -129.37
    5.24  -15.79 -129.44   -0.30   -9.45   -0.30   -9.45  -15.79 -129.44
    5.30  -15.88 -129.82   -0.31   -9.74   -0.31   -9.74  -15.88 -129.82
    5.36  -16.05 -131.11   -0.33   -9.91   -0.33   -9.91  -16.05 -131.11
    5.42  -16.30 -131.08   -0.32  -10.08   -0.32  -10.08  -16.30 -131.08
    5.48  -16.27 -131.14   -0.30  -10.14   -0.30  -10.14  -16.27 -131.14
    5.55  -16.54 -131.82   -0.32  -10.42   -0.32  -10.42  -16.54 -131.82
    5.61  -16.71 -132.64   -0.33  -10.74   -0.33  -10.74  -16.71 -132.64
    5.67  -16.90 -132.54   -0.36  -10.59   -0.36  -10.59  -16.90 -132.54
    5.73  -16.93 -133.68   -0.33  -10.93   -0.33  -10.93  -16.93 -133.68
    5.79  -17.20 -134.49   -0.32  -11.09   -0.32  -11.09  -17.20 -134.49
    5.85  -17.41 -135.56   -0.31  -11.29   -0.31  -11.29  -17.41 -135.56
    5.92  -17.75 -136.70   -0.33  -11.67   -0.33  -11.67  -17.75 -136.70
    5.98  -17.95 -137.22   -0.32  -11.83   -0.32  -11.83  -17.95 -137.22
    6.04  -18.37 -137.64   -0.33  -12.03   -0.33  -12.03  -18.37 -137.64
    6.10  -18.66 -139.07   -0.34  -12.32   -0.34  -12.32  -18.66 -139.07
    6.16  -19.10 -139.81   -0.34  -12.71   -0.34  -12.71  -19.10 -139.81
    6.23  -19.38 -139.80   -0.33  -12.93   -0.33  -12.93  -19.38 -139.80
    6.29  -19.73 -141.24   -0.33  -13.05   -0.33  -13.05  -19.73 -141.24
    6.35  -20.20 -142.63   -0.37  -13.28   -0.37  -13.28  -20.20 -142.63
    6.41  -20.68 -144.65   -0.37  -13.55   -0.37  -13.55  -20.68 -144.65
    6.47  -21.15 -146.17   -0.32  -14.24   -0.32  -14.24  -21.15 -146.17
    6.53  -22.07 -148.59   -0.34  -14.49   -0.34  -14.49  -22.07 -148.59
    6.60  -23.01 -150.40   -0.36  -14.94   -0.36  -14.94  -23.01 -150.40
    6.66  -23.98 -151.60   -0.38  -15.34   -0.38  -15.34  -23.98 -151.60
    6.72  -25.10 -152.92   -0.40  -15.82   -0.40  -15.82  -25.10 -152.92
    6.78  -26.70 -155.64   -0.43  -16.25   -0.43  -16.25  -26.70 -155.64
    6.84  -28.60 -157.90   -0.44  -16.68   -0.44  -16.68  -28.60 -157.90
    6.90  -30.87 -165.44   -0.44  -17.24   -0.44  -17.24  -30.87 -165.44
    6.97  -35.09 -179.76   -0.47  -18.02   -0.47  -18.02  -35.09 -179.76
    7.03  -39.80  124.79   -0.50  -18.61   -0.50  -18.61  -39.80  124.79
    7.09  -34.07   65.57   -0.53  -19.71   -0.53  -19.71  -34.07   65.57
    7.15  -27.77   44.91   -0.59  -20.87   -0.59  -20.87  -27.77   44.91
    7.21  -23.12   34.89   -0.66  -22.48   -0.66  -22.48  -23.12   34.89
    7.27  -19.38   27.58   -0.78  -24.95   -0.78  -24.95  -19.38   27.58
    7.34  -15.74   19.74   -1.04  -27.95   -1.04  -27.95  -15.74   19.74
    7.40  -11.94    8.29   -1.59  -32.42   -1.59  -32.42  -11.94    8.29
    7.46   -8.50   -7.53   -3.00  -38.02   -3.00  -38.02   -8.50   -7.53
    7.52   -5.75  -35.80   -6.38  -34.61   -6.38  -34.61   -5.75  -35.80
    7.58   -5.09  -67.35   -6.97   -1.01   -6.97   -1.01   -5.09  -67.35
    7.65   -6.48  -89.50   -3.84    7.64   -3.84    7.64   -6.48  -89.50
    7.71   -7.99 -103.95   -2.37    4.38   -2.37    4.38   -7.99 -103.95
    7.77   -9.38 -113.13   -1.71    1.39   -1.71    1.39   -9.38 -113.13
    7.83  -10.55 -119.06   -1.32   -1.04   -1.32   -1.04  -10.55 -119.06
    7.89  -11.33 -123.50   -1.13   -2.85   -1.13   -2.85  -11.33 -123.50
    7.95  -12.19 -127.26   -0.99   -4.36   -0.99   -4.36  -12.19 -127.26
    8.02  -12.93 -131.30   -0.90   -5.44   -0.90   -5.44  -12.93 -131.30
    8.08  -13.40 -132.73   -0.83   -6.65   -0.83   -6.65  -13.40 -132.73
    8.14  -13.92 -135.34   -0.79   -7.25   -0.79   -7.25  -13.92 -135.34
    8.20  -14.37 -137.35   -0.75   -8.14   -0.75   -8.14  -14.37 -137.35
    8.26  -14.70 -139.64   -0.74   -8.62   -0.74   -8.62  -14.70 -139.64
    8.32  -14.96 -141.33   -0.71   -9.13   -0.71   -9.13  -14.96 -141.33
    8.39  -15.13 -143.51   -0.68   -9.50   -0.68   -9.50  -15.13 -143.51
    8.45  -15.55 -145.56   -0.64  -10.01   -0.64  -10.01  -15.55 -145.56
    8.51  -15.69 -148.05   -0.64  -10.55   -0.64  -10.55  -15.69 -148.05
    8.57  -15.98 -149.51   -0.62  -11.02   -0.62  -11.02  -15.98 -149.51
    8.63  -16.16 -151.32   -0.57  -11.24   -0.57  -11.24  -16.16 -151.32
    8.70  -16.39 -153.53   -0.61  -11.55   -0.61  -11.55  -16.39 -153.53
    8.76  -16.53 -155.89   -0.58  -12.20   -0.58  -12.20  -16.53 -155.89
    8.82  -16.72 -157.07   -0.58  -12.38   -0.58  -12.38  -16.72 -157.07
    8.88  -16.83 -159.22   -0.57  -12.68   -0.57  -12.68  -16.83 -159.22
    8.94  -17.13 -160.99   -0.58  -13.13   -0.58  -13.13  -17.13 -160.99
    9.00  -17.19 -163.25   -0.58  -13.41   -0.58  -13.41  -17.19 -163.25
    9.07  -17.21 -164.26   -0.58  -13.79   -0.58  -13.79  -17.21 -164.26
    9.13  -17.37 -166.39   -0.58  -14.15   -0.58  -14.15  -17.37 -166.39
    9.19  -17.50 -169.15   -0.60  -14.16   -0.60  -14.16  -17.50 -169.15
    9.25  -17.48 -171.01   -0.56  -14.72   -0.56  -14.72  -17.48 -171.01
    9.31  -17.58 -172.52   -0.59  -14.88   -0.59  -14.88  -17.58 -172.52
    9.37  -17.61 -175.48   -0.60  -15.29   -0.60  -15.29  -17.61 -175.48
    9.44  -17.76 -177.52   -0.59  -15.39   -0.59  -15.39  -17.76 -177.52
    9.50  -17.75  179.92   -0.61  -15.76   -0.61  -15.76  -17.75  179.92
    9.56  -17.77  178.23   -0.63  -16.14   -0.63  -16.14  -17.77  178.23
    9.62  -17.91  175.59   -0.61  -16.29   -0.61  -16.29  -17.91  175.59
    9.68  -17.85  172.51   -0.62  -16.43   -0.62  -16.43  -17.85  172.51
    9.74  -17.82  170.29   -0.64  -17.03   -0.64  -17.03  -17.82  170.29
    9.81  -17.84  168.19   -0.62  -17.22   -0.62  -17.22  -17.84  168.19
    9.87  -17.90  164.44   -0.66  -17.46   -0.66  -17.46  -17.90  164.44
    9.93  -18.03  162.22   -0.65  -17.57   -0.65  -17.57  -18.03  162.22
    9.99  -17.96  159.15   -0.64  -17.93   -0.64  -17.93  -17.96  159.15
   10.05  -18.03  157.03   -0.66  -18.15   -0.66  -18.15  -18.03  157.03
   10.12  -18.14  153.61   -0.68  -18.63   -0.68  -18.63  -18.14  153.61
   10.18  -18.04  151.27   -0.71  -18.84   -0.71  -18.84  -18.04  151.27
   10.24  -17.99  148.36   -0.71  -19.25   -0.71  -19.25  -17.99  148.36
   10.30  -17.94  145.96   -0.73  -19.49   -0.73  -19.49  -17.94  145.96
   10.36  -17.94  142.30   -0.74  -19.92   -0.74  -19.92  -17.94  142.30
   10.42  -17.94  139.60   -0.79  -20.09   -0.79  -20.09  -17.94  139.60
   10.49  -17.70  136.37   -0.79  -20.39   -0.79  -20.39  -17.70  136.37
   10.55  -17.68  134.01   -0.80  -20.82   -0.80  -20.82  -17.68  134.01
   10.61  -17.58  130.10   -0.86  -20.94   -0.86  -20.94  -17.58  130.10
   10.67  -17.32  127.50   -0.92  -20.98   -0.92  -20.98  -17.32  127.50
   10.73  -17.24  123.20   -0.96  -21.37   -0.96  -21.37  -17.24  123.20
   10.79  -17.02  120.17   -1.00  -21.39   -1.00  -21.39  -17.02  120.17
   10.86  -16.82  115.67   -1.02  -21.65   -1.02  -21.65  -16.82  115.67
   10.92  -16.79  112.64   -1.09  -21.57   -1.09  -21.57  -16.79  112.64
   10.98  -16.54  109.24   -1.06  -21.61   -1.06  -21.61  -16.54  109.24
   11.04  -16.29  105.22   -1.05  -21.55   -1.05  -21.55  -16.29  105.22
   11.10  -16.24  101.57   -1.08  -21.70   -1.08  -21.70  -16.24  101.57
   11.17  -16.05   98.32   -1.08  -22.04   -1.08  -22.04  -16.05   98.32
   11.23  -15.80   94.76   -1.14  -22.22   -1.14  -22.22  -15.80   94.76
   11.29  -15.72   91.79   -1.08  -22.28   -1.08  -22.28  -15.72   91.79
   11.35  -15.60   88.12   -1.11  -22.36   -1.11  -22.36  -15.60   88.12
   11.41  -15.34   85.09   -1.09  -22.57   -1.09  -22.57  -15.34   85.09
   11.47  -15.19   82.31   -1.14  -22.69   -1.14  -22.69  -15.19   82.31
   11.54  -15.13   79.05   -1.12  -22.91   -1.12  -22.91  -15.13   79.05
   11.60  -15.01   76.73   -1.14  -22.98   -1.14  -22.98  -15.01   76.73
   11.66  -14.78   74.43   -1.15  -23.24   -1.15  -23.24  -14.78   74.43
   11.72  -14.61   72.14   -1.13  -23.22   -1.13  -23.22  -14.61   72.14
   11.78  -14.48   70.02   -1.12  -23.74   -1.12  -23.74  -14.48   70.02
   11.84  -14.28   67.92   -1.16  -23.98   -1.16  -23.98  -14.28   67.92
   11.91  -14.08   66.06   -1.15  -23.76   -1.15  -23.76  -14.08   66.06
   11.97  -13.80   64.35   -1.17  -24.53   -1.17  -24.53  -13.80   64.35
   12.03  -13.67   62.04   -1.20  -24.58   -1.20  -24.58  -13.67   62.04
   12.09  -13.49   59.79   -1.16  -24.91   -1.16  -24.91  -13.49   59.79
   12.15  -13.25   57.75   -1.18  -25.23   -1.18  -25.23  -13.25   57.75
   12.21  -13.01   56.39   -1.23  -25.46   -1.23  -25.46  -13.01   56.39
   12.28  -12.95   54.34   -1.20  -25.86   -1.20  -25.86  -12.95   54.34
   12.34  -12.65   52.42   -1.22  -26.20   -1.22  -26.20  -12.65   52.42
   12.40  -12.45   50.97   -1.23  -26.53   -1.23  -26.53  -12.45   50.97
