!  American Technical Ceramics  Date:    3/13/98
!  One Norden Lane
!  Huntington Station,  NY.   11746-2102
!  Tel:  (516) 547-5700               Fax:  (516) 547-5748
!  Part Number  100b4r7b
!  Description: Porcelain, High Q, Low ESR
!  Application: Bypass, Coupling, Timing, Feedback
!               Tuning, Impedance Match, Blocking
# GHZ S DB R 50
! Freq   |S11|   S11 Ph  |S21|   S21 Ph  |S12|   S12 Ph  |S22|   S22 Ph
    0.05    0.09   -8.27  -16.85   80.11  -16.85   80.11    0.09   -8.27
    0.14   -0.58  -22.86   -8.56   67.34   -8.56   67.34   -0.58  -22.86
    0.23   -1.52  -35.11   -5.19   55.57   -5.19   55.57   -1.52  -35.11
    0.32   -2.58  -44.75   -3.37   45.99   -3.37   45.99   -2.58  -44.75
    0.41   -3.69  -52.23   -2.38   38.87   -2.38   38.87   -3.69  -52.23
    0.50   -4.73  -57.99   -1.76   33.18   -1.76   33.18   -4.73  -57.99
    0.59   -5.90  -63.22   -1.35   28.12   -1.35   28.12   -5.90  -63.22
    0.68   -6.77  -67.08   -1.08   24.64   -1.08   24.64   -6.77  -67.08
    0.77   -7.53  -70.30   -0.88   21.79   -0.88   21.79   -7.53  -70.30
    0.86   -8.24  -73.02   -0.77   19.32   -0.77   19.32   -8.24  -73.02
    0.95   -8.85  -75.46   -0.66   17.30   -0.66   17.30   -8.85  -75.46
    1.04   -9.38  -77.71   -0.59   15.52   -0.59   15.52   -9.38  -77.71
    1.13   -9.87  -79.71   -0.52   13.91   -0.52   13.91   -9.87  -79.71
    1.22  -10.30  -81.11   -0.48   12.72   -0.48   12.72  -10.30  -81.11
    1.31  -10.69  -82.85   -0.43   11.58   -0.43   11.58  -10.69  -82.85
    1.40  -11.03  -84.30   -0.41   10.52   -0.41   10.52  -11.03  -84.30
    1.49  -11.33  -85.91   -0.36    9.54   -0.36    9.54  -11.33  -85.91
    1.58  -11.60  -87.55   -0.33    8.67   -0.33    8.67  -11.60  -87.55
    1.67  -11.89  -88.72   -0.35    8.03   -0.35    8.03  -11.89  -88.72
    1.76  -12.12  -89.95   -0.33    7.17   -0.33    7.17  -12.12  -89.95
    1.85  -12.30  -91.07   -0.31    6.46   -0.31    6.46  -12.30  -91.07
    1.93  -12.52  -92.11   -0.32    5.85   -0.32    5.85  -12.52  -92.11
    2.02  -12.65  -93.06   -0.31    5.02   -0.31    5.02  -12.65  -93.06
    2.11  -12.77  -93.88   -0.31    4.53   -0.31    4.53  -12.77  -93.88
    2.20  -12.88  -95.01   -0.32    4.18   -0.32    4.18  -12.88  -95.01
    2.29  -12.95  -95.89   -0.31    3.51   -0.31    3.51  -12.95  -95.89
    2.38  -13.01  -96.59   -0.31    3.08   -0.31    3.08  -13.01  -96.59
    2.47  -13.10  -97.64   -0.28    2.58   -0.28    2.58  -13.10  -97.64
    2.56  -13.16  -97.87   -0.30    2.08   -0.30    2.08  -13.16  -97.87
    2.65  -13.19  -98.59   -0.27    1.86   -0.27    1.86  -13.19  -98.59
    2.74  -13.21  -99.73   -0.29    1.35   -0.29    1.35  -13.21  -99.73
    2.83  -13.30 -100.50   -0.28    0.96   -0.28    0.96  -13.30 -100.50
    2.92  -13.33 -101.89   -0.28    0.77   -0.28    0.77  -13.33 -101.89
    3.01  -13.32 -102.10   -0.29    0.07   -0.29    0.07  -13.32 -102.10
    3.10  -13.40 -103.33   -0.31   -0.21   -0.31   -0.21  -13.40 -103.33
    3.19  -13.41 -103.20   -0.35   -0.70   -0.35   -0.70  -13.41 -103.20
    3.28  -13.29 -104.52   -0.27   -1.18   -0.27   -1.18  -13.29 -104.52
    3.37  -13.32 -103.81   -0.36   -1.37   -0.36   -1.37  -13.32 -103.81
    3.46  -13.30 -104.86   -0.32   -1.83   -0.32   -1.83  -13.30 -104.86
    3.55  -13.22 -104.82   -0.33   -2.08   -0.33   -2.08  -13.22 -104.82
    3.64  -13.16 -105.85   -0.32   -2.29   -0.32   -2.29  -13.16 -105.85
    3.73  -13.19 -105.55   -0.36   -2.70   -0.36   -2.70  -13.19 -105.55
    3.82  -13.23 -106.58   -0.35   -2.88   -0.35   -2.88  -13.23 -106.58
    3.91  -13.15 -106.82   -0.38   -3.19   -0.38   -3.19  -13.15 -106.82
    4.00  -13.29 -108.98   -0.33   -3.60   -0.33   -3.60  -13.29 -108.98
    4.09  -13.33 -109.16   -0.36   -3.80   -0.36   -3.80  -13.33 -109.16
    4.18  -13.33 -110.40   -0.37   -4.19   -0.37   -4.19  -13.33 -110.40
    4.27  -13.23 -111.04   -0.36   -4.21   -0.36   -4.21  -13.23 -111.04
    4.36  -13.39 -111.29   -0.37   -4.74   -0.37   -4.74  -13.39 -111.29
    4.45  -13.37 -111.93   -0.36   -4.95   -0.36   -4.95  -13.37 -111.93
    4.54  -13.45 -112.14   -0.37   -5.26   -0.37   -5.26  -13.45 -112.14
    4.63  -13.45 -112.29   -0.36   -5.55   -0.36   -5.55  -13.45 -112.29
    4.72  -13.57 -111.21   -0.39   -5.81   -0.39   -5.81  -13.57 -111.21
    4.81  -13.61 -112.31   -0.39   -6.04   -0.39   -6.04  -13.61 -112.31
    4.90  -13.70 -111.96   -0.38   -6.33   -0.38   -6.33  -13.70 -111.96
    4.99  -13.76 -113.25   -0.36   -6.51   -0.36   -6.51  -13.76 -113.25
    5.08  -13.90 -112.40   -0.37   -6.54   -0.37   -6.54  -13.90 -112.40
    5.17  -14.08 -113.89   -0.36   -7.04   -0.36   -7.04  -14.08 -113.89
    5.26  -14.26 -113.90   -0.35   -7.26   -0.35   -7.26  -14.26 -113.90
    5.35  -14.36 -114.39   -0.36   -7.43   -0.36   -7.43  -14.36 -114.39
    5.44  -14.68 -113.49   -0.40   -7.69   -0.40   -7.69  -14.68 -113.49
    5.52  -14.76 -114.48   -0.38   -8.21   -0.38   -8.21  -14.76 -114.48
    5.61  -14.84 -113.58   -0.38   -8.32   -0.38   -8.32  -14.84 -113.58
    5.70  -14.99 -113.56   -0.39   -8.44   -0.39   -8.44  -14.99 -113.56
    5.79  -15.25 -114.08   -0.40   -8.77   -0.40   -8.77  -15.25 -114.08
    5.88  -15.39 -114.47   -0.37   -8.84   -0.37   -8.84  -15.39 -114.47
    5.97  -15.73 -114.17   -0.36   -9.15   -0.36   -9.15  -15.73 -114.17
    6.06  -16.09 -113.66   -0.36   -9.82   -0.36   -9.82  -16.09 -113.66
    6.15  -16.39 -114.22   -0.38   -9.98   -0.38   -9.98  -16.39 -114.22
    6.24  -16.66 -113.63   -0.39  -10.17   -0.39  -10.17  -16.66 -113.63
    6.33  -16.97 -113.60   -0.40  -10.34   -0.40  -10.34  -16.97 -113.60
    6.42  -17.37 -114.07   -0.41  -10.66   -0.41  -10.66  -17.37 -114.07
    6.51  -17.69 -114.07   -0.37  -11.14   -0.37  -11.14  -17.69 -114.07
    6.60  -18.19 -113.53   -0.41  -11.55   -0.41  -11.55  -18.19 -113.53
    6.69  -18.63 -111.50   -0.41  -11.84   -0.41  -11.84  -18.63 -111.50
    6.78  -19.01 -109.99   -0.47  -12.10   -0.47  -12.10  -19.01 -109.99
    6.87  -19.29 -106.83   -0.48  -12.49   -0.48  -12.49  -19.29 -106.83
    6.96  -19.52 -105.69   -0.49  -12.78   -0.49  -12.78  -19.52 -105.69
    7.05  -19.82 -103.94   -0.52  -12.89   -0.52  -12.89  -19.82 -103.94
    7.14  -20.08 -102.64   -0.52  -12.96   -0.52  -12.96  -20.08 -102.64
    7.23  -20.41 -100.33   -0.53  -13.34   -0.53  -13.34  -20.41 -100.33
    7.32  -20.51  -97.96   -0.58  -13.56   -0.58  -13.56  -20.51  -97.96
    7.41  -20.55  -96.83   -0.59  -13.79   -0.59  -13.79  -20.55  -96.83
    7.50  -20.48  -94.92   -0.59  -13.84   -0.59  -13.84  -20.48  -94.92
    7.59  -20.54  -95.28   -0.63  -14.32   -0.63  -14.32  -20.54  -95.28
    7.68  -20.90  -95.70   -0.59  -14.28   -0.59  -14.28  -20.90  -95.70
    7.77  -21.21  -96.70   -0.57  -14.39   -0.57  -14.39  -21.21  -96.70
    7.86  -21.89  -95.57   -0.55  -14.88   -0.55  -14.88  -21.89  -95.57
    7.95  -22.47  -94.67   -0.53  -15.26   -0.53  -15.26  -22.47  -94.67
    8.04  -23.25  -92.13   -0.49  -15.91   -0.49  -15.91  -23.25  -92.13
    8.13  -23.74  -88.67   -0.52  -16.43   -0.52  -16.43  -23.74  -88.67
    8.22  -24.39  -84.97   -0.53  -16.96   -0.53  -16.96  -24.39  -84.97
    8.31  -25.02  -81.02   -0.52  -17.53   -0.52  -17.53  -25.02  -81.02
    8.40  -25.88  -75.66   -0.55  -18.03   -0.55  -18.03  -25.88  -75.66
    8.49  -26.97  -64.95   -0.51  -18.72   -0.51  -18.72  -26.97  -64.95
    8.58  -27.45  -51.53   -0.52  -19.53   -0.52  -19.53  -27.45  -51.53
    8.67  -27.23  -34.36   -0.54  -20.47   -0.54  -20.47  -27.23  -34.36
    8.76  -25.81  -19.56   -0.53  -21.66   -0.53  -21.66  -25.81  -19.56
    8.85  -23.85   -6.84   -0.58  -23.00   -0.58  -23.00  -23.85   -6.84
    8.94  -21.54   -1.01   -0.64  -24.34   -0.64  -24.34  -21.54   -1.01
    9.03  -19.14    2.87   -0.72  -26.28   -0.72  -26.28  -19.14    2.87
    9.11  -16.65    4.00   -0.79  -28.69   -0.79  -28.69  -16.65    4.00
    9.20  -14.05    2.50   -1.09  -32.01   -1.09  -32.01  -14.05    2.50
    9.29  -11.37   -2.55   -1.51  -36.32   -1.51  -36.32  -11.37   -2.55
    9.38   -8.55  -13.80   -2.57  -41.83   -2.57  -41.83   -8.55  -13.80
    9.47   -6.04  -31.57   -4.89  -45.89   -4.89  -45.89   -6.04  -31.57
    9.56   -4.76  -56.97   -8.53  -27.73   -8.53  -27.73   -4.76  -56.97
    9.65   -5.27  -81.77   -6.54    1.96   -6.54    1.96   -5.27  -81.77
    9.74   -6.79  -99.85   -3.87    4.93   -3.87    4.93   -6.79  -99.85
    9.83   -8.44 -111.12   -2.59    1.47   -2.59    1.47   -8.44 -111.12
    9.92  -10.11 -120.00   -1.88   -2.33   -1.88   -2.33  -10.11 -120.00
   10.01  -11.35 -126.56   -1.55   -4.69   -1.55   -4.69  -11.35 -126.56
   10.10  -12.58 -131.48   -1.30   -6.83   -1.30   -6.83  -12.58 -131.48
   10.19  -13.68 -135.05   -1.22   -8.78   -1.22   -8.78  -13.68 -135.05
   10.28  -14.83 -139.72   -1.10  -10.68   -1.10  -10.68  -14.83 -139.72
   10.37  -15.74 -144.07   -1.04  -11.76   -1.04  -11.76  -15.74 -144.07
   10.46  -16.82 -147.47   -1.04  -13.01   -1.04  -13.01  -16.82 -147.47
   10.55  -17.80 -152.68   -1.02  -14.23   -1.02  -14.23  -17.80 -152.68
   10.64  -18.93 -158.76   -1.07  -15.07   -1.07  -15.07  -18.93 -158.76
   10.73  -20.06 -167.12   -1.11  -15.74   -1.11  -15.74  -20.06 -167.12
   10.82  -21.34 -174.40   -1.13  -16.01   -1.13  -16.01  -21.34 -174.40
   10.91  -22.68  174.36   -1.16  -16.53   -1.16  -16.53  -22.68  174.36
   11.00  -24.03  160.79   -1.14  -17.00   -1.14  -17.00  -24.03  160.79
   11.09  -24.87  144.08   -1.16  -17.36   -1.16  -17.36  -24.87  144.08
   11.18  -25.45  125.63   -1.14  -17.62   -1.14  -17.62  -25.45  125.63
   11.27  -25.05  106.98   -1.16  -18.16   -1.16  -18.16  -25.05  106.98
   11.36  -24.28   89.38   -1.15  -18.71   -1.15  -18.71  -24.28   89.38
   11.45  -23.11   76.54   -1.20  -19.10   -1.20  -19.10  -23.11   76.54
   11.54  -22.31   64.56   -1.21  -19.27   -1.21  -19.27  -22.31   64.56
   11.63  -21.42   59.07   -1.20  -19.63   -1.20  -19.63  -21.42   59.07
   11.72  -20.43   53.13   -1.19  -20.20   -1.19  -20.20  -20.43   53.13
   11.81  -19.56   50.28   -1.21  -20.46   -1.21  -20.46  -19.56   50.28
   11.90  -18.68   45.47   -1.18  -20.83   -1.18  -20.83  -18.68   45.47
   11.99  -17.94   43.21   -1.22  -21.15   -1.22  -21.15  -17.94   43.21
   12.08  -17.32   40.51   -1.25  -21.66   -1.25  -21.66  -17.32   40.51
   12.17  -16.68   37.88   -1.26  -22.15   -1.26  -22.15  -16.68   37.88
   12.26  -16.06   35.97   -1.24  -22.51   -1.24  -22.51  -16.06   35.97
   12.35  -15.52   34.34   -1.25  -22.89   -1.25  -22.89  -15.52   34.34
   12.44  -15.12   33.40   -1.31  -23.72   -1.31  -23.72  -15.12   33.40
   12.53  -14.44   30.93   -1.30  -24.02   -1.30  -24.02  -14.44   30.93
   12.62  -14.03   30.30   -1.37  -24.65   -1.37  -24.65  -14.03   30.30
   12.70  -13.42   28.64   -1.36  -24.75   -1.36  -24.75  -13.42   28.64
   12.79  -13.16   27.02   -1.43  -25.62   -1.43  -25.62  -13.16   27.02
   12.88  -12.64   25.35   -1.43  -25.94   -1.43  -25.94  -12.64   25.35
   12.97  -12.37   23.62   -1.48  -26.20   -1.48  -26.20  -12.37   23.62
   13.06  -12.05   22.83   -1.53  -26.61   -1.53  -26.61  -12.05   22.83
   13.15  -11.90   20.24   -1.53  -27.43   -1.53  -27.43  -11.90   20.24
   13.24  -11.60   20.45   -1.59  -27.44   -1.59  -27.44  -11.60   20.45
   13.33  -11.37   19.02   -1.64  -28.05   -1.64  -28.05  -11.37   19.02
   13.42  -11.30   18.81   -1.73  -28.59   -1.73  -28.59  -11.30   18.81
   13.51  -10.97   16.06   -1.69  -29.30   -1.69  -29.30  -10.97   16.06
   13.60  -10.92   16.99   -1.81  -29.43   -1.81  -29.43  -10.92   16.99
   13.69  -10.60   16.28   -1.83  -29.96   -1.83  -29.96  -10.60   16.28
   13.78  -10.64   15.05   -1.96  -31.34   -1.96  -31.34  -10.64   15.05
   13.87  -10.24   14.14   -1.93  -30.91   -1.93  -30.91  -10.24   14.14
   13.96  -10.05   15.22   -2.00  -31.02   -2.00  -31.02  -10.05   15.22
   14.05   -9.98   14.72   -2.08  -31.97   -2.08  -31.97   -9.98   14.72
   14.14   -9.92   13.54   -2.09  -32.76   -2.09  -32.76   -9.92   13.54
   14.23   -9.58   13.37   -2.13  -33.01   -2.13  -33.01   -9.58   13.37
   14.32   -9.42   14.00   -2.20  -33.34   -2.20  -33.34   -9.42   14.00
   14.41   -9.50   13.44   -2.35  -34.31   -2.35  -34.31   -9.50   13.44
   14.50   -9.36   12.84   -2.42  -34.99   -2.42  -34.99   -9.36   12.84
   14.59   -9.13   12.28   -2.49  -35.64   -2.49  -35.64   -9.13   12.28
   14.68   -8.95   12.82   -2.56  -36.06   -2.56  -36.06   -8.95   12.82
   14.77   -8.78   13.10   -2.67  -36.42   -2.67  -36.42   -8.78   13.10
   14.86   -8.59   12.27   -2.78  -37.12   -2.78  -37.12   -8.59   12.27
   14.95   -8.25   12.35   -2.88  -37.24   -2.88  -37.24   -8.25   12.35
   15.04   -8.06   12.84   -3.04  -37.13   -3.04  -37.13   -8.06   12.84
   15.13   -7.78   11.99   -3.10  -37.31   -3.10  -37.31   -7.78   11.99
   15.22   -7.61    9.85   -3.18  -38.07   -3.18  -38.07   -7.61    9.85
   15.31   -7.29    9.89   -3.17  -38.14   -3.17  -38.14   -7.29    9.89
   15.40   -7.18    8.01   -3.31  -38.74   -3.31  -38.74   -7.18    8.01
   15.49   -7.06    6.71   -3.39  -39.81   -3.39  -39.81   -7.06    6.71
   15.58   -6.87    4.75   -3.50  -40.40   -3.50  -40.40   -6.87    4.75
   15.67   -6.75    4.68   -3.60  -41.12   -3.60  -41.12   -6.75    4.68
   15.76   -6.51    2.36   -3.77  -42.09   -3.77  -42.09   -6.51    2.36
   15.85   -6.43    0.86   -4.04  -42.84   -4.04  -42.84   -6.43    0.86
   15.94   -6.17   -1.28   -4.28  -44.16   -4.28  -44.16   -6.17   -1.28
   16.03   -6.13   -3.21   -4.66  -43.93   -4.66  -43.93   -6.13   -3.21
   16.12   -6.04   -6.97   -5.05  -43.30   -5.05  -43.30   -6.04   -6.97
   16.21   -6.12  -10.48   -5.48  -42.91   -5.48  -42.91   -6.12  -10.48
   16.29   -6.31  -14.34   -6.08  -41.41   -6.08  -41.41   -6.31  -14.34
   16.38   -7.11  -17.49   -6.52  -35.77   -6.52  -35.77   -7.11  -17.49
   16.47   -8.21  -17.25   -6.32  -29.46   -6.32  -29.46   -8.21  -17.25
   16.56   -8.97  -10.74   -5.53  -26.00   -5.53  -26.00   -8.97  -10.74
   16.65   -8.84   -3.87   -4.92  -26.45   -4.92  -26.45   -8.84   -3.87
   16.74   -8.30    1.10   -4.51  -28.55   -4.51  -28.55   -8.30    1.10
   16.83   -7.63    2.41   -4.39  -29.95   -4.39  -29.95   -7.63    2.41
   16.92   -7.10    3.38   -4.36  -32.02   -4.36  -32.02   -7.10    3.38
   17.01   -6.55    2.81   -4.46  -33.33   -4.46  -33.33   -6.55    2.81
   17.10   -6.18    2.71   -4.42  -34.06   -4.42  -34.06   -6.18    2.71
   17.19   -5.72    2.12   -4.63  -34.69   -4.63  -34.69   -5.72    2.12
   17.28   -5.51    1.04   -4.66  -35.25   -4.66  -35.25   -5.51    1.04
   17.37   -5.19    0.12   -4.70  -36.08   -4.70  -36.08   -5.19    0.12
   17.46   -4.90   -0.80   -4.81  -35.99   -4.81  -35.99   -4.90   -0.80
   17.55   -4.69   -1.64   -4.95  -36.77   -4.95  -36.77   -4.69   -1.64
   17.64   -4.32   -2.89   -5.06  -36.58   -5.06  -36.58   -4.32   -2.89
   17.73   -4.37   -4.59   -5.06  -37.35   -5.06  -37.35   -4.37   -4.59
   17.82   -4.15   -5.34   -5.24  -37.66   -5.24  -37.66   -4.15   -5.34
   17.91   -4.27   -6.20   -5.45  -38.85   -5.45  -38.85   -4.27   -6.20
   18.00   -4.10   -7.87   -5.53  -38.62   -5.53  -38.62   -4.10   -7.87
