!  American Technical Ceramics  Date:    3/13/98
!  One Norden Lane
!  Huntington Station,  NY.   11746-2102
!  Tel:  (516) 547-5700               Fax:  (516) 547-5748
!  Part Number  100b561j
!  Description: Porcelain, High Q, Low ESR
!  Application: Bypass, Coupling, Timing, Feedback
!               Tuning, Impedance Match, Blocking
# GHZ S DB R 50
! Freq   |S11|   S11 Ph  |S21|   S21 Ph  |S12|   S12 Ph  |S22|   S22 Ph
    0.05  -24.46  -89.36   -0.02    3.68   -0.02    3.68  -24.46  -89.36
    0.07  -26.75  -87.79    0.00    2.41    0.00    2.41  -26.75  -87.79
    0.09  -28.89  -91.37    0.02    1.73    0.02    1.73  -28.89  -91.37
    0.11  -29.36  -89.40    0.00    1.38    0.00    1.38  -29.36  -89.40
    0.13  -30.55  -90.55    0.01    0.97    0.01    0.97  -30.55  -90.55
    0.15  -31.51  -91.17    0.02    1.07    0.02    1.07  -31.51  -91.17
    0.17  -31.55  -91.49    0.00    0.63    0.00    0.63  -31.55  -91.49
    0.19  -31.88  -90.13    0.01    0.66    0.01    0.66  -31.88  -90.13
    0.21  -32.20  -92.45    0.00    0.38    0.00    0.38  -32.20  -92.45
    0.23  -32.29  -91.12    0.03    0.29    0.03    0.29  -32.29  -91.12
    0.25  -32.21  -89.99    0.01    0.16    0.01    0.16  -32.21  -89.99
    0.27  -32.31  -90.94    0.01    0.20    0.01    0.20  -32.31  -90.94
    0.29  -32.24  -92.11   -0.01    0.10   -0.01    0.10  -32.24  -92.11
    0.31  -32.11  -92.11    0.00   -0.04    0.00   -0.04  -32.11  -92.11
    0.33  -32.07  -91.76    0.01   -0.18    0.01   -0.18  -32.07  -91.76
    0.35  -31.82  -91.82   -0.01   -0.22   -0.01   -0.22  -31.82  -91.82
    0.37  -31.63  -92.28    0.00   -0.44    0.00   -0.44  -31.63  -92.28
    0.39  -31.47  -92.67    0.00   -0.50    0.00   -0.50  -31.47  -92.67
    0.41  -31.35  -91.84    0.00   -0.65    0.00   -0.65  -31.35  -91.84
    0.43  -31.05  -93.06    0.00   -0.62    0.00   -0.62  -31.05  -93.06
    0.45  -30.86  -93.46    0.00   -0.71    0.00   -0.71  -30.86  -93.46
    0.46  -30.60  -93.02   -0.01   -0.66   -0.01   -0.66  -30.60  -93.02
    0.48  -30.51  -94.05    0.00   -0.85    0.00   -0.85  -30.51  -94.05
    0.50  -29.95  -95.24    0.00   -0.91    0.00   -0.91  -29.95  -95.24
    0.52  -29.81  -95.15    0.00   -1.12    0.00   -1.12  -29.81  -95.15
    0.54  -29.58  -94.53    0.01   -1.03    0.01   -1.03  -29.58  -94.53
    0.56  -29.27  -95.56    0.00   -1.00    0.00   -1.00  -29.27  -95.56
    0.58  -29.23  -95.72   -0.01   -1.19   -0.01   -1.19  -29.23  -95.72
    0.60  -29.05  -95.74   -0.01   -1.26   -0.01   -1.26  -29.05  -95.74
    0.62  -28.83  -95.27   -0.01   -1.55   -0.01   -1.55  -28.83  -95.27
    0.64  -28.73  -95.14   -0.02   -1.34   -0.02   -1.34  -28.73  -95.14
    0.66  -28.49  -96.09   -0.01   -1.51   -0.01   -1.51  -28.49  -96.09
    0.68  -28.31  -96.64   -0.01   -1.58   -0.01   -1.58  -28.31  -96.64
    0.70  -28.32  -96.14    0.00   -1.78    0.00   -1.78  -28.32  -96.14
    0.72  -28.18  -96.53   -0.02   -1.76   -0.02   -1.76  -28.18  -96.53
    0.74  -28.04  -96.88   -0.02   -1.76   -0.02   -1.76  -28.04  -96.88
    0.76  -28.07  -96.77   -0.02   -1.83   -0.02   -1.83  -28.07  -96.77
    0.78  -28.19  -96.52   -0.01   -2.13   -0.01   -2.13  -28.19  -96.52
    0.80  -28.43  -96.17   -0.03   -2.22   -0.03   -2.22  -28.43  -96.17
    0.82  -28.94  -94.02   -0.05   -2.50   -0.05   -2.50  -28.94  -94.02
    0.84  -30.07  -85.14   -0.09   -2.79   -0.09   -2.79  -30.07  -85.14
    0.86  -28.58  -54.10   -0.25   -3.16   -0.25   -3.16  -28.58  -54.10
    0.88  -22.96  -67.19   -0.34   -1.19   -0.34   -1.19  -22.96  -67.19
    0.90  -23.05  -85.90   -0.13   -0.83   -0.13   -0.83  -23.05  -85.90
    0.92  -23.54  -91.97   -0.07   -1.21   -0.07   -1.21  -23.54  -91.97
    0.94  -23.86  -94.65   -0.05   -1.45   -0.05   -1.45  -23.86  -94.65
    0.96  -23.99  -96.17   -0.05   -1.63   -0.05   -1.63  -23.99  -96.17
    0.98  -23.99  -96.55   -0.05   -1.76   -0.05   -1.76  -23.99  -96.55
    1.00  -24.01  -97.09   -0.02   -1.91   -0.02   -1.91  -24.01  -97.09
    1.02  -24.00  -97.81   -0.02   -2.03   -0.02   -2.03  -24.00  -97.81
    1.04  -23.94  -98.00   -0.04   -2.09   -0.04   -2.09  -23.94  -98.00
    1.06  -23.82  -98.36   -0.02   -2.20   -0.02   -2.20  -23.82  -98.36
    1.08  -23.76  -98.66   -0.03   -2.16   -0.03   -2.16  -23.76  -98.66
    1.10  -23.68  -98.85   -0.04   -2.37   -0.04   -2.37  -23.68  -98.85
    1.12  -23.55  -98.98   -0.03   -2.36   -0.03   -2.36  -23.55  -98.98
    1.14  -23.41  -99.43   -0.04   -2.43   -0.04   -2.43  -23.41  -99.43
    1.16  -23.31  -99.72   -0.04   -2.39   -0.04   -2.39  -23.31  -99.72
    1.18  -23.25  -99.79   -0.02   -2.51   -0.02   -2.51  -23.25  -99.79
    1.20  -23.17 -100.61   -0.03   -2.52   -0.03   -2.52  -23.17 -100.61
    1.22  -23.02  -99.86   -0.04   -2.57   -0.04   -2.57  -23.02  -99.86
    1.24  -22.93 -100.26   -0.04   -2.66   -0.04   -2.66  -22.93 -100.26
    1.25  -22.86 -100.55   -0.04   -2.80   -0.04   -2.80  -22.86 -100.55
    1.27  -22.77 -100.67   -0.04   -2.95   -0.04   -2.95  -22.77 -100.67
    1.29  -22.62 -100.63   -0.05   -2.97   -0.05   -2.97  -22.62 -100.63
    1.31  -22.50 -101.03   -0.05   -2.92   -0.05   -2.92  -22.50 -101.03
    1.33  -22.42 -101.46   -0.05   -2.96   -0.05   -2.96  -22.42 -101.46
    1.35  -22.38 -101.54   -0.05   -3.02   -0.05   -3.02  -22.38 -101.54
    1.37  -22.25 -101.36   -0.05   -3.10   -0.05   -3.10  -22.25 -101.36
    1.39  -22.13 -101.68   -0.04   -3.31   -0.04   -3.31  -22.13 -101.68
    1.41  -22.12 -101.75   -0.05   -3.34   -0.05   -3.34  -22.12 -101.75
    1.43  -22.05 -101.87   -0.05   -3.31   -0.05   -3.31  -22.05 -101.87
    1.45  -22.02 -102.19   -0.05   -3.42   -0.05   -3.42  -22.02 -102.19
    1.47  -21.97 -102.04   -0.06   -3.53   -0.06   -3.53  -21.97 -102.04
    1.49  -21.98 -102.05   -0.06   -3.54   -0.06   -3.54  -21.98 -102.05
    1.51  -22.00 -101.36   -0.08   -3.83   -0.08   -3.83  -22.00 -101.36
    1.53  -22.08 -100.38   -0.10   -3.96   -0.10   -3.96  -22.08 -100.38
    1.55  -22.10  -97.84   -0.13   -4.02   -0.13   -4.02  -22.10  -97.84
    1.57  -21.76  -93.71   -0.17   -3.91   -0.17   -3.91  -21.76  -93.71
    1.59  -20.99  -91.90   -0.22   -3.56   -0.22   -3.56  -20.99  -91.90
    1.61  -20.26  -94.36   -0.19   -3.10   -0.19   -3.10  -20.26  -94.36
    1.63  -19.95  -97.33   -0.16   -3.02   -0.16   -3.02  -19.95  -97.33
    1.65  -19.91  -99.21   -0.12   -3.16   -0.12   -3.16  -19.91  -99.21
    1.67  -19.86 -100.55   -0.10   -3.30   -0.10   -3.30  -19.86 -100.55
    1.69  -19.80 -101.48   -0.09   -3.42   -0.09   -3.42  -19.80 -101.48
    1.71  -19.76 -102.02   -0.09   -3.27   -0.09   -3.27  -19.76 -102.02
    1.73  -19.70 -102.68   -0.06   -3.68   -0.06   -3.68  -19.70 -102.68
    1.75  -19.71 -102.91   -0.09   -3.72   -0.09   -3.72  -19.71 -102.91
    1.77  -19.63 -103.14   -0.08   -3.80   -0.08   -3.80  -19.63 -103.14
    1.79  -19.52 -103.67   -0.09   -3.90   -0.09   -3.90  -19.52 -103.67
    1.81  -19.44 -103.80   -0.06   -3.80   -0.06   -3.80  -19.44 -103.80
    1.83  -19.43 -104.05   -0.09   -3.94   -0.09   -3.94  -19.43 -104.05
    1.85  -19.38 -104.36   -0.08   -3.91   -0.08   -3.91  -19.38 -104.36
    1.87  -19.29 -104.60   -0.08   -4.07   -0.08   -4.07  -19.29 -104.60
    1.89  -19.18 -104.66   -0.08   -4.01   -0.08   -4.01  -19.18 -104.66
    1.91  -19.11 -104.94   -0.08   -4.14   -0.08   -4.14  -19.11 -104.94
    1.93  -19.11 -105.10   -0.11   -4.22   -0.11   -4.22  -19.11 -105.10
    1.95  -19.04 -105.20   -0.09   -4.29   -0.09   -4.29  -19.04 -105.20
    1.97  -18.93 -105.37   -0.08   -4.46   -0.08   -4.46  -18.93 -105.37
    1.99  -18.84 -105.18   -0.09   -4.33   -0.09   -4.33  -18.84 -105.18
    2.01  -18.82 -105.56   -0.08   -4.50   -0.08   -4.50  -18.82 -105.56
    2.03  -18.76 -105.78   -0.09   -4.46   -0.09   -4.46  -18.76 -105.78
    2.04  -18.71 -105.91   -0.10   -4.42   -0.10   -4.42  -18.71 -105.91
    2.06  -18.61 -105.83   -0.08   -4.56   -0.08   -4.56  -18.61 -105.83
    2.08  -18.56 -105.87   -0.11   -4.60   -0.11   -4.60  -18.56 -105.87
    2.10  -18.50 -106.49   -0.09   -4.76   -0.09   -4.76  -18.50 -106.49
    2.12  -18.43 -106.14   -0.11   -4.81   -0.11   -4.81  -18.43 -106.14
    2.14  -18.38 -106.13   -0.10   -4.89   -0.10   -4.89  -18.38 -106.13
    2.16  -18.37 -106.13   -0.11   -4.95   -0.11   -4.95  -18.37 -106.13
    2.18  -18.30 -106.43   -0.11   -5.02   -0.11   -5.02  -18.30 -106.43
    2.20  -18.27 -106.26   -0.13   -5.08   -0.13   -5.08  -18.27 -106.26
    2.22  -18.25 -105.97   -0.14   -5.16   -0.14   -5.16  -18.25 -105.97
    2.24  -18.18 -105.57   -0.15   -5.23   -0.15   -5.23  -18.18 -105.57
    2.26  -18.12 -104.91   -0.16   -5.21   -0.16   -5.21  -18.12 -104.91
    2.28  -17.96 -104.13   -0.17   -5.29   -0.17   -5.29  -17.96 -104.13
    2.30  -17.75 -103.75   -0.20   -5.14   -0.20   -5.14  -17.75 -103.75
    2.32  -17.57 -103.85   -0.20   -5.17   -0.20   -5.17  -17.57 -103.85
    2.34  -17.42 -104.07   -0.18   -4.96   -0.18   -4.96  -17.42 -104.07
    2.36  -17.24 -104.72   -0.17   -5.02   -0.17   -5.02  -17.24 -104.72
    2.38  -17.11 -105.43   -0.17   -4.91   -0.17   -4.91  -17.11 -105.43
    2.40  -17.02 -106.07   -0.16   -4.84   -0.16   -4.84  -17.02 -106.07
    2.42  -16.98 -106.56   -0.16   -5.14   -0.16   -5.14  -16.98 -106.56
    2.44  -16.94 -106.93   -0.16   -5.14   -0.16   -5.14  -16.94 -106.93
    2.46  -16.86 -106.99   -0.15   -5.11   -0.15   -5.11  -16.86 -106.99
    2.48  -16.78 -107.49   -0.15   -5.24   -0.15   -5.24  -16.78 -107.49
    2.50  -16.76 -107.77   -0.14   -5.42   -0.14   -5.42  -16.76 -107.77
    2.52  -16.72 -108.05   -0.15   -5.24   -0.15   -5.24  -16.72 -108.05
    2.54  -16.67 -108.08   -0.13   -5.40   -0.13   -5.40  -16.67 -108.08
    2.56  -16.59 -108.42   -0.15   -5.40   -0.15   -5.40  -16.59 -108.42
    2.58  -16.57 -108.52   -0.13   -5.60   -0.13   -5.60  -16.57 -108.52
    2.60  -16.52 -108.97   -0.14   -5.75   -0.14   -5.75  -16.52 -108.97
    2.62  -16.51 -109.03   -0.16   -5.70   -0.16   -5.70  -16.51 -109.03
    2.64  -16.40 -108.93   -0.15   -5.63   -0.15   -5.63  -16.40 -108.93
    2.66  -16.37 -109.00   -0.15   -5.61   -0.15   -5.61  -16.37 -109.00
    2.68  -16.33 -109.31   -0.15   -5.89   -0.15   -5.89  -16.33 -109.31
    2.70  -16.25 -109.33   -0.15   -5.74   -0.15   -5.74  -16.25 -109.33
    2.72  -16.22 -109.63   -0.17   -5.90   -0.17   -5.90  -16.22 -109.63
    2.74  -16.20 -109.78   -0.16   -5.96   -0.16   -5.96  -16.20 -109.78
    2.76  -16.14 -109.77   -0.16   -6.10   -0.16   -6.10  -16.14 -109.77
    2.78  -16.09 -109.89   -0.17   -6.12   -0.17   -6.12  -16.09 -109.89
    2.80  -16.03 -110.03   -0.17   -6.15   -0.17   -6.15  -16.03 -110.03
    2.82  -16.01 -109.96   -0.18   -6.09   -0.18   -6.09  -16.01 -109.96
    2.83  -15.98 -110.01   -0.17   -6.31   -0.17   -6.31  -15.98 -110.01
    2.85  -15.94 -109.96   -0.19   -6.35   -0.19   -6.35  -15.94 -109.96
    2.87  -15.85 -109.93   -0.19   -6.44   -0.19   -6.44  -15.85 -109.93
    2.89  -15.80 -109.93   -0.20   -6.31   -0.20   -6.31  -15.80 -109.93
    2.91  -15.78 -109.90   -0.19   -6.45   -0.19   -6.45  -15.78 -109.90
    2.93  -15.77 -110.12   -0.21   -6.50   -0.21   -6.50  -15.77 -110.12
    2.95  -15.71 -109.64   -0.22   -6.59   -0.22   -6.59  -15.71 -109.64
    2.97  -15.61 -109.48   -0.22   -6.67   -0.22   -6.67  -15.61 -109.48
    2.99  -15.56 -109.34   -0.23   -6.49   -0.23   -6.49  -15.56 -109.34
    3.01  -15.48 -109.26   -0.25   -6.51   -0.25   -6.51  -15.48 -109.26
    3.03  -15.40 -109.25   -0.26   -6.47   -0.26   -6.47  -15.40 -109.25
    3.05  -15.26 -109.26   -0.24   -6.50   -0.24   -6.50  -15.26 -109.26
    3.07  -15.19 -109.71   -0.23   -6.60   -0.23   -6.60  -15.19 -109.71
    3.09  -15.15 -110.09   -0.24   -6.67   -0.24   -6.67  -15.15 -110.09
    3.11  -15.08 -110.30   -0.24   -6.58   -0.24   -6.58  -15.08 -110.30
    3.13  -15.01 -110.14   -0.22   -6.60   -0.22   -6.60  -15.01 -110.14
    3.15  -14.94 -110.44   -0.22   -6.64   -0.22   -6.64  -14.94 -110.44
    3.17  -14.90 -110.65   -0.23   -6.67   -0.23   -6.67  -14.90 -110.65
    3.19  -14.89 -110.84   -0.24   -6.74   -0.24   -6.74  -14.89 -110.84
    3.21  -14.82 -110.81   -0.23   -6.76   -0.23   -6.76  -14.82 -110.81
    3.23  -14.77 -111.14   -0.23   -6.87   -0.23   -6.87  -14.77 -111.14
    3.25  -14.73 -111.27   -0.23   -6.94   -0.23   -6.94  -14.73 -111.27
    3.27  -14.70 -111.38   -0.24   -6.89   -0.24   -6.89  -14.70 -111.38
    3.29  -14.64 -111.58   -0.24   -6.99   -0.24   -6.99  -14.64 -111.58
    3.31  -14.62 -111.68   -0.24   -7.10   -0.24   -7.10  -14.62 -111.68
    3.33  -14.58 -111.77   -0.23   -7.18   -0.23   -7.18  -14.58 -111.77
    3.35  -14.56 -111.71   -0.26   -7.13   -0.26   -7.13  -14.56 -111.71
    3.37  -14.48 -112.00   -0.25   -7.30   -0.25   -7.30  -14.48 -112.00
    3.39  -14.43 -111.77   -0.25   -7.27   -0.25   -7.27  -14.43 -111.77
    3.41  -14.42 -112.03   -0.25   -7.26   -0.25   -7.26  -14.42 -112.03
    3.43  -14.40 -112.24   -0.25   -7.37   -0.25   -7.37  -14.40 -112.24
    3.45  -14.37 -112.26   -0.27   -7.44   -0.27   -7.44  -14.37 -112.26
    3.47  -14.31 -112.24   -0.27   -7.61   -0.27   -7.61  -14.31 -112.24
    3.49  -14.29 -112.44   -0.27   -7.53   -0.27   -7.53  -14.29 -112.44
    3.51  -14.27 -112.31   -0.27   -7.49   -0.27   -7.49  -14.27 -112.31
    3.53  -14.20 -112.35   -0.28   -7.65   -0.28   -7.65  -14.20 -112.35
    3.55  -14.16 -112.27   -0.29   -7.73   -0.29   -7.73  -14.16 -112.27
    3.57  -14.12 -112.23   -0.29   -7.70   -0.29   -7.70  -14.12 -112.23
    3.59  -14.07 -112.36   -0.30   -7.70   -0.30   -7.70  -14.07 -112.36
    3.61  -14.04 -112.39   -0.31   -7.99   -0.31   -7.99  -14.04 -112.39
    3.62  -13.98 -112.47   -0.29   -7.87   -0.29   -7.87  -13.98 -112.47
    3.64  -13.94 -112.34   -0.30   -7.93   -0.30   -7.93  -13.94 -112.34
    3.66  -13.89 -112.34   -0.29   -7.95   -0.29   -7.95  -13.89 -112.34
    3.68  -13.87 -112.13   -0.31   -7.93   -0.31   -7.93  -13.87 -112.13
    3.70  -13.79 -112.05   -0.35   -7.89   -0.35   -7.89  -13.79 -112.05
    3.72  -13.72 -111.96   -0.35   -7.98   -0.35   -7.98  -13.72 -111.96
    3.74  -13.67 -112.11   -0.33   -8.01   -0.33   -8.01  -13.67 -112.11
    3.76  -13.61 -112.49   -0.33   -8.03   -0.33   -8.03  -13.61 -112.49
    3.78  -13.57 -112.66   -0.34   -8.13   -0.34   -8.13  -13.57 -112.66
    3.80  -13.53 -112.57   -0.34   -8.07   -0.34   -8.07  -13.53 -112.57
    3.82  -13.44 -112.57   -0.34   -8.14   -0.34   -8.14  -13.44 -112.57
    3.84  -13.41 -112.84   -0.34   -8.00   -0.34   -8.00  -13.41 -112.84
    3.86  -13.35 -112.90   -0.35   -8.21   -0.35   -8.21  -13.35 -112.90
    3.88  -13.29 -113.05   -0.35   -8.28   -0.35   -8.28  -13.29 -113.05
    3.90  -13.25 -113.05   -0.34   -8.17   -0.34   -8.17  -13.25 -113.05
    3.92  -13.22 -113.33   -0.34   -8.37   -0.34   -8.37  -13.22 -113.33
    3.94  -13.18 -113.37   -0.35   -8.34   -0.35   -8.34  -13.18 -113.37
    3.96  -13.12 -113.49   -0.36   -8.38   -0.36   -8.38  -13.12 -113.49
    3.98  -13.09 -113.57   -0.35   -8.51   -0.35   -8.51  -13.09 -113.57
    4.00  -13.27 -115.36   -0.32   -8.59   -0.32   -8.59  -13.27 -115.36
