!  American Technical Ceramics  Date:    3/13/98
!  One Norden Lane
!  Huntington Station,  NY.   11746-2102
!  Tel:  (516) 547-5700               Fax:  (516) 547-5748
!  Part Number  180r150k
!  Description: Porcelain, High Q, Low ESR
!  Application: Bypass, Coupling, Timing, Feedback
!               Tuning, Impedance Match, Blocking
# GHZ S DB R 50
! Freq   |S11|   S11 Ph  |S21|   S21 Ph  |S12|   S12 Ph  |S22|   S22 Ph
    0.05   -0.66  -22.87   -8.09   66.97   -8.09   66.97   -0.66  -22.87
    0.11   -2.74  -43.74   -3.30   46.21   -3.30   46.21   -2.74  -43.74
    0.17   -4.82  -56.76   -1.72   33.87   -1.72   33.87   -4.82  -56.76
    0.24   -6.76  -64.53   -0.99   26.57   -0.99   26.57   -6.76  -64.53
    0.30   -8.35  -69.88   -0.66   21.37   -0.66   21.37   -8.35  -69.88
    0.36   -9.69  -73.69   -0.47   17.81   -0.47   17.81   -9.69  -73.69
    0.42  -10.78  -76.68   -0.35   15.24   -0.35   15.24  -10.78  -76.68
    0.48  -11.74  -78.69   -0.27   13.38   -0.27   13.38  -11.74  -78.69
    0.54  -12.76  -80.48   -0.25   11.36   -0.25   11.36  -12.76  -80.48
    0.61  -13.44  -82.19   -0.19   10.09   -0.19   10.09  -13.44  -82.19
    0.67  -14.01  -83.34   -0.20    9.31   -0.20    9.31  -14.01  -83.34
    0.73  -14.49  -84.19   -0.14    8.26   -0.14    8.26  -14.49  -84.19
    0.79  -14.92  -85.23   -0.16    7.58   -0.16    7.58  -14.92  -85.23
    0.85  -15.30  -86.28   -0.13    7.00   -0.13    7.00  -15.30  -86.28
    0.91  -15.60  -86.83   -0.12    6.40   -0.12    6.40  -15.60  -86.83
    0.98  -15.83  -87.93   -0.11    5.83   -0.11    5.83  -15.83  -87.93
    1.04  -16.09  -88.39   -0.10    5.36   -0.10    5.36  -16.09  -88.39
    1.10  -16.33  -89.18   -0.09    4.97   -0.09    4.97  -16.33  -89.18
    1.16  -16.42  -89.86   -0.10    4.58   -0.10    4.58  -16.42  -89.86
    1.22  -16.56  -89.96   -0.10    4.30   -0.10    4.30  -16.56  -89.96
    1.29  -16.70  -90.50   -0.10    3.93   -0.10    3.93  -16.70  -90.50
    1.35  -16.78  -91.04   -0.08    3.78   -0.08    3.78  -16.78  -91.04
    1.41  -16.83  -91.29   -0.08    3.48   -0.08    3.48  -16.83  -91.29
    1.47  -16.89  -91.84   -0.09    3.23   -0.09    3.23  -16.89  -91.84
    1.53  -16.95  -92.27   -0.10    3.01   -0.10    3.01  -16.95  -92.27
    1.59  -16.99  -92.87   -0.09    2.97   -0.09    2.97  -16.99  -92.87
    1.66  -16.98  -93.01   -0.08    2.60   -0.08    2.60  -16.98  -93.01
    1.72  -17.00  -93.31   -0.10    2.29   -0.10    2.29  -17.00  -93.31
    1.78  -17.02  -93.85   -0.10    2.09   -0.10    2.09  -17.02  -93.85
    1.84  -17.00  -94.35   -0.09    1.96   -0.09    1.96  -17.00  -94.35
    1.90  -16.92  -94.20   -0.09    1.79   -0.09    1.79  -16.92  -94.20
    1.96  -16.92  -94.35   -0.08    1.66   -0.08    1.66  -16.92  -94.35
    2.03  -16.94  -95.04   -0.11    1.60   -0.11    1.60  -16.94  -95.04
    2.09  -16.92  -95.43   -0.10    1.32   -0.10    1.32  -16.92  -95.43
    2.15  -16.81  -95.49   -0.11    1.32   -0.11    1.32  -16.81  -95.49
    2.21  -16.81  -95.92   -0.11    1.00   -0.11    1.00  -16.81  -95.92
    2.27  -16.79  -96.50   -0.12    1.06   -0.12    1.06  -16.79  -96.50
    2.33  -16.73  -96.73   -0.10    0.83   -0.10    0.83  -16.73  -96.73
    2.40  -16.61  -96.87   -0.11    0.67   -0.11    0.67  -16.61  -96.87
    2.46  -16.60  -97.12   -0.12    0.72   -0.12    0.72  -16.60  -97.12
    2.52  -16.57  -97.79   -0.12    0.53   -0.12    0.53  -16.57  -97.79
    2.58  -16.49  -97.67   -0.13    0.35   -0.13    0.35  -16.49  -97.67
    2.64  -16.40  -97.55   -0.13    0.32   -0.13    0.32  -16.40  -97.55
    2.71  -16.33  -98.12   -0.14    0.09   -0.14    0.09  -16.33  -98.12
    2.77  -16.31  -99.03   -0.12    0.03   -0.12    0.03  -16.31  -99.03
    2.83  -16.20  -98.74   -0.12   -0.01   -0.12   -0.01  -16.20  -98.74
    2.89  -16.05  -99.02   -0.13   -0.12   -0.13   -0.12  -16.05  -99.02
    2.95  -16.08  -99.76   -0.14   -0.36   -0.14   -0.36  -16.08  -99.76
    3.01  -16.01 -100.08   -0.17   -0.39   -0.17   -0.39  -16.01 -100.08
    3.08  -15.84 -100.42   -0.14   -0.46   -0.14   -0.46  -15.84 -100.42
    3.14  -15.75 -100.34   -0.14   -0.57   -0.14   -0.57  -15.75 -100.34
    3.20  -15.74 -100.74   -0.18   -0.76   -0.18   -0.76  -15.74 -100.74
    3.26  -15.62 -101.50   -0.15   -0.78   -0.15   -0.78  -15.62 -101.50
    3.32  -15.56 -101.43   -0.16   -0.92   -0.16   -0.92  -15.56 -101.43
    3.38  -15.32 -101.41   -0.19   -1.15   -0.19   -1.15  -15.32 -101.41
    3.45  -15.33 -102.56   -0.18   -1.06   -0.18   -1.06  -15.33 -102.56
    3.51  -15.22 -102.71   -0.19   -1.16   -0.19   -1.16  -15.22 -102.71
    3.57  -15.02 -102.14   -0.18   -1.32   -0.18   -1.32  -15.02 -102.14
    3.63  -14.89 -103.13   -0.20   -1.41   -0.20   -1.41  -14.89 -103.13
    3.69  -14.90 -103.58   -0.23   -1.60   -0.23   -1.60  -14.90 -103.58
    3.76  -14.68 -103.75   -0.22   -1.54   -0.22   -1.54  -14.68 -103.75
    3.82  -14.56 -103.94   -0.21   -1.80   -0.21   -1.80  -14.56 -103.94
    3.88  -14.39 -103.90   -0.24   -1.76   -0.24   -1.76  -14.39 -103.90
    3.94  -14.29 -104.82   -0.25   -1.86   -0.25   -1.86  -14.29 -104.82
    4.00  -14.33 -106.57   -0.22   -1.90   -0.22   -1.90  -14.33 -106.57
    4.06  -14.15 -106.66   -0.24   -2.07   -0.24   -2.07  -14.15 -106.66
    4.13  -14.01 -107.11   -0.23   -2.16   -0.23   -2.16  -14.01 -107.11
    4.19  -14.04 -108.01   -0.26   -2.36   -0.26   -2.36  -14.04 -108.01
    4.25  -13.81 -107.95   -0.25   -2.05   -0.25   -2.05  -13.81 -107.95
    4.31  -13.73 -108.45   -0.25   -2.41   -0.25   -2.41  -13.73 -108.45
    4.37  -13.67 -109.00   -0.27   -2.54   -0.27   -2.54  -13.67 -109.00
    4.43  -13.59 -109.62   -0.30   -2.32   -0.30   -2.32  -13.59 -109.62
    4.50  -13.46 -110.03   -0.27   -2.49   -0.27   -2.49  -13.46 -110.03
    4.56  -13.33 -109.82   -0.29   -2.63   -0.29   -2.63  -13.33 -109.82
    4.62  -13.28 -110.78   -0.30   -2.78   -0.30   -2.78  -13.28 -110.78
    4.68  -13.28 -110.87   -0.32   -2.74   -0.32   -2.74  -13.28 -110.87
    4.74  -13.09 -110.99   -0.29   -2.81   -0.29   -2.81  -13.09 -110.99
    4.80  -13.02 -111.15   -0.34   -2.94   -0.34   -2.94  -13.02 -111.15
    4.87  -12.99 -111.70   -0.32   -2.90   -0.32   -2.90  -12.99 -111.70
    4.93  -12.92 -111.94   -0.35   -2.99   -0.35   -2.99  -12.92 -111.94
    4.99  -12.75 -112.52   -0.29   -3.25   -0.29   -3.25  -12.75 -112.52
    5.05  -12.77 -111.99   -0.36   -3.13   -0.36   -3.13  -12.77 -111.99
    5.11  -12.66 -113.11   -0.33   -3.37   -0.33   -3.37  -12.66 -113.11
    5.18  -12.70 -113.28   -0.38   -3.40   -0.38   -3.40  -12.70 -113.28
    5.24  -12.62 -113.07   -0.35   -3.34   -0.35   -3.34  -12.62 -113.07
    5.30  -12.53 -113.12   -0.38   -3.50   -0.38   -3.50  -12.53 -113.12
    5.36  -12.55 -114.35   -0.37   -3.65   -0.37   -3.65  -12.55 -114.35
    5.42  -12.63 -113.74   -0.39   -3.57   -0.39   -3.57  -12.63 -113.74
    5.48  -12.38 -113.94   -0.34   -3.67   -0.34   -3.67  -12.38 -113.94
    5.55  -12.51 -114.28   -0.38   -3.80   -0.38   -3.80  -12.51 -114.28
    5.61  -12.54 -114.86   -0.39   -4.02   -0.39   -4.02  -12.54 -114.86
    5.67  -12.53 -114.63   -0.38   -4.06   -0.38   -4.06  -12.53 -114.63
    5.73  -12.47 -115.19   -0.39   -4.08   -0.39   -4.08  -12.47 -115.19
    5.79  -12.65 -115.55   -0.39   -4.48   -0.39   -4.48  -12.65 -115.55
    5.85  -12.73 -115.91   -0.37   -4.52   -0.37   -4.52  -12.73 -115.91
    5.92  -12.98 -116.28   -0.40   -4.97   -0.40   -4.97  -12.98 -116.28
    5.98  -13.18 -116.24   -0.39   -5.37   -0.39   -5.37  -13.18 -116.24
    6.04  -13.74 -115.66   -0.43   -6.16   -0.43   -6.16  -13.74 -115.66
    6.10  -14.66 -114.52   -0.46   -7.52   -0.46   -7.52  -14.66 -114.52
    6.16  -16.56 -103.49   -0.69   -9.93   -0.69   -9.93  -16.56 -103.49
    6.23  -13.89  -65.98   -1.81  -12.30   -1.81  -12.30  -13.89  -65.98
    6.29   -8.85  -85.48   -2.33    0.42   -2.33    0.42   -8.85  -85.48
    6.35   -9.08 -102.67   -1.22    2.38   -1.22    2.38   -9.08 -102.67
    6.41   -9.71 -108.72   -0.87    1.08   -0.87    1.08   -9.71 -108.72
    6.47   -9.95 -110.93   -0.69   -0.06   -0.69   -0.06   -9.95 -110.93
    6.53  -10.37 -112.70   -0.65   -0.60   -0.65   -0.60  -10.37 -112.70
    6.60  -10.53 -114.05   -0.63   -0.93   -0.63   -0.93  -10.53 -114.05
    6.66  -10.66 -114.23   -0.58   -1.22   -0.58   -1.22  -10.66 -114.23
    6.72  -10.71 -114.89   -0.58   -1.53   -0.58   -1.53  -10.71 -114.89
    6.78  -10.94 -115.61   -0.59   -1.56   -0.59   -1.56  -10.94 -115.61
    6.84  -11.06 -115.30   -0.57   -1.66   -0.57   -1.66  -11.06 -115.30
    6.90  -11.02 -115.93   -0.57   -1.80   -0.57   -1.80  -11.02 -115.93
    6.97  -11.03 -115.51   -0.57   -2.10   -0.57   -2.10  -11.03 -115.51
    7.03  -11.27 -116.09   -0.60   -1.81   -0.60   -1.81  -11.27 -116.09
    7.09  -11.25 -116.60   -0.59   -2.12   -0.59   -2.12  -11.25 -116.60
    7.15  -11.27 -116.39   -0.57   -2.10   -0.57   -2.10  -11.27 -116.39
    7.21  -11.31 -116.65   -0.60   -2.14   -0.60   -2.14  -11.31 -116.65
    7.27  -11.50 -116.66   -0.61   -2.21   -0.61   -2.21  -11.50 -116.66
    7.34  -11.44 -116.61   -0.59   -2.27   -0.59   -2.27  -11.44 -116.61
    7.40  -11.43 -116.62   -0.61   -2.20   -0.61   -2.20  -11.43 -116.62
    7.46  -11.53 -115.87   -0.60   -2.24   -0.60   -2.24  -11.53 -115.87
    7.52  -11.59 -116.68   -0.63   -2.15   -0.63   -2.15  -11.59 -116.68
    7.58  -11.53 -116.36   -0.64   -2.24   -0.64   -2.24  -11.53 -116.36
    7.65  -11.59 -115.83   -0.62   -2.09   -0.62   -2.09  -11.59 -115.83
    7.71  -11.59 -116.25   -0.64   -2.30   -0.64   -2.30  -11.59 -116.25
    7.77  -11.59 -116.78   -0.65   -1.94   -0.65   -1.94  -11.59 -116.78
    7.83  -11.65 -117.01   -0.64   -1.96   -0.64   -1.96  -11.65 -117.01
    7.89  -11.58 -116.61   -0.65   -2.03   -0.65   -2.03  -11.58 -116.61
    7.95  -11.74 -116.85   -0.65   -1.97   -0.65   -1.97  -11.74 -116.85
    8.02  -11.77 -117.98   -0.64   -1.90   -0.64   -1.90  -11.77 -117.98
    8.08  -11.70 -117.10   -0.62   -2.27   -0.62   -2.27  -11.70 -117.10
    8.14  -11.76 -117.55   -0.64   -2.04   -0.64   -2.04  -11.76 -117.55
    8.20  -11.82 -117.85   -0.65   -2.16   -0.65   -2.16  -11.82 -117.85
    8.26  -11.84 -118.32   -0.67   -2.15   -0.67   -2.15  -11.84 -118.32
    8.32  -11.81 -118.25   -0.65   -2.24   -0.65   -2.24  -11.81 -118.25
    8.39  -11.74 -118.55   -0.65   -2.12   -0.65   -2.12  -11.74 -118.55
    8.45  -11.88 -119.02   -0.62   -2.17   -0.62   -2.17  -11.88 -119.02
    8.51  -11.84 -119.83   -0.68   -2.17   -0.68   -2.17  -11.84 -119.83
    8.57  -11.83 -119.79   -0.63   -2.27   -0.63   -2.27  -11.83 -119.79
    8.63  -11.86 -120.14   -0.62   -2.19   -0.62   -2.19  -11.86 -120.14
    8.70  -11.98 -120.72   -0.66   -2.29   -0.66   -2.29  -11.98 -120.72
    8.76  -11.93 -121.54   -0.67   -2.43   -0.67   -2.43  -11.93 -121.54
    8.82  -11.93 -121.27   -0.64   -2.35   -0.64   -2.35  -11.93 -121.27
    8.88  -11.91 -121.97   -0.67   -2.45   -0.67   -2.45  -11.91 -121.97
    8.94  -12.03 -122.39   -0.64   -2.53   -0.64   -2.53  -12.03 -122.39
    9.00  -11.97 -123.10   -0.66   -2.50   -0.66   -2.50  -11.97 -123.10
    9.07  -11.91 -123.16   -0.68   -2.79   -0.68   -2.79  -11.91 -123.16
    9.13  -11.94 -123.68   -0.71   -2.79   -0.71   -2.79  -11.94 -123.68
    9.19  -11.99 -125.02   -0.70   -2.58   -0.70   -2.58  -11.99 -125.02
    9.25  -11.90 -125.49   -0.68   -2.86   -0.68   -2.86  -11.90 -125.49
    9.31  -11.88 -125.49   -0.70   -2.76   -0.70   -2.76  -11.88 -125.49
    9.37  -11.81 -126.64   -0.71   -2.81   -0.71   -2.81  -11.81 -126.64
    9.44  -11.88 -127.44   -0.73   -2.85   -0.73   -2.85  -11.88 -127.44
    9.50  -11.75 -128.41   -0.73   -2.79   -0.73   -2.79  -11.75 -128.41
    9.56  -11.71 -128.62   -0.75   -3.03   -0.75   -3.03  -11.71 -128.62
    9.62  -11.77 -129.63   -0.72   -2.97   -0.72   -2.97  -11.77 -129.63
    9.68  -11.68 -130.82   -0.77   -2.86   -0.77   -2.86  -11.68 -130.82
    9.74  -11.60 -131.79   -0.74   -3.21   -0.74   -3.21  -11.60 -131.79
    9.81  -11.53 -131.99   -0.73   -3.18   -0.73   -3.18  -11.53 -131.99
    9.87  -11.50 -133.74   -0.77   -3.16   -0.77   -3.16  -11.50 -133.74
    9.93  -11.61 -134.33   -0.76   -3.36   -0.76   -3.36  -11.61 -134.33
    9.99  -11.43 -135.51   -0.77   -3.31   -0.77   -3.31  -11.43 -135.51
   10.05  -11.45 -135.96   -0.78   -3.47   -0.78   -3.47  -11.45 -135.96
   10.12  -11.45 -137.73   -0.77   -3.62   -0.77   -3.62  -11.45 -137.73
   10.18  -11.36 -137.97   -0.82   -3.55   -0.82   -3.55  -11.36 -137.97
   10.24  -11.31 -139.23   -0.79   -3.67   -0.79   -3.67  -11.31 -139.23
   10.30  -11.32 -139.81   -0.82   -3.86   -0.82   -3.86  -11.32 -139.81
   10.36  -11.27 -141.27   -0.82   -3.91   -0.82   -3.91  -11.27 -141.27
   10.42  -11.37 -141.99   -0.86   -4.13   -0.86   -4.13  -11.37 -141.99
   10.49  -11.17 -143.09   -0.82   -4.12   -0.82   -4.12  -11.17 -143.09
   10.55  -11.28 -143.45   -0.86   -4.39   -0.86   -4.39  -11.28 -143.45
   10.61  -11.31 -144.98   -0.84   -4.39   -0.84   -4.39  -11.31 -144.98
   10.67  -11.31 -145.30   -0.89   -4.47   -0.89   -4.47  -11.31 -145.30
   10.73  -11.41 -146.93   -0.84   -4.96   -0.84   -4.96  -11.41 -146.93
   10.79  -11.52 -146.71   -0.90   -5.13   -0.90   -5.13  -11.52 -146.71
   10.86  -11.56 -148.37   -0.89   -5.48   -0.89   -5.48  -11.56 -148.37
   10.92  -11.93 -148.63   -0.98   -5.95   -0.98   -5.95  -11.93 -148.63
   10.98  -12.19 -148.28   -0.98   -6.61   -0.98   -6.61  -12.19 -148.28
   11.04  -12.66 -147.75   -1.06   -7.58   -1.06   -7.58  -12.66 -147.75
   11.10  -13.54 -143.85   -1.28   -8.66   -1.28   -8.66  -13.54 -143.85
   11.17  -13.77 -130.17   -1.77   -9.39   -1.77   -9.39  -13.77 -130.17
   11.23  -11.46 -121.15   -2.38   -6.67   -2.38   -6.67  -11.46 -121.15
   11.29   -9.69 -126.97   -2.26   -1.68   -2.26   -1.68   -9.69 -126.97
   11.35   -9.19 -134.49   -1.83    0.31   -1.83    0.31   -9.19 -134.49
   11.41   -9.18 -138.79   -1.60    0.12   -1.60    0.12   -9.18 -138.79
   11.47   -9.16 -142.41   -1.43   -0.46   -1.43   -0.46   -9.16 -142.41
   11.54   -9.26 -144.04   -1.31   -0.68   -1.31   -0.68   -9.26 -144.04
   11.60   -9.43 -145.19   -1.34   -0.74   -1.34   -0.74   -9.43 -145.19
   11.66   -9.45 -146.45   -1.25   -1.11   -1.25   -1.11   -9.45 -146.45
   11.72   -9.46 -147.59   -1.23   -1.29   -1.23   -1.29   -9.46 -147.59
   11.78   -9.62 -147.92   -1.25   -1.40   -1.25   -1.40   -9.62 -147.92
   11.84   -9.53 -149.20   -1.21   -1.50   -1.21   -1.50   -9.53 -149.20
   11.91   -9.71 -149.57   -1.30   -1.26   -1.30   -1.26   -9.71 -149.57
   11.97   -9.62 -150.11   -1.21   -1.85   -1.21   -1.85   -9.62 -150.11
   12.03   -9.72 -150.62   -1.25   -1.49   -1.25   -1.49   -9.72 -150.62
   12.09   -9.84 -151.22   -1.24   -1.60   -1.24   -1.60   -9.84 -151.22
   12.15   -9.86 -151.44   -1.25   -1.60   -1.25   -1.60   -9.86 -151.44
   12.21   -9.80 -151.99   -1.24   -1.64   -1.24   -1.64   -9.80 -151.99
   12.28  -10.00 -152.41   -1.25   -1.48   -1.25   -1.48  -10.00 -152.41
   12.34   -9.97 -153.42   -1.25   -1.54   -1.25   -1.54   -9.97 -153.42
   12.40  -10.07 -152.95   -1.27   -1.29   -1.27   -1.29  -10.07 -152.95
