!  American Technical Ceramics  Date:    3/13/98
!  One Norden Lane
!  Huntington Station,  NY.   11746-2102
!  Tel:  (516) 547-5700               Fax:  (516) 547-5748
!  Part Number  180r390f
!  Description: Porcelain, High Q, Low ESR
!  Application: Bypass, Coupling, Timing, Feedback
!               Tuning, Impedance Match, Blocking
# GHZ S DB R 50
! Freq   |S11|   S11 Ph  |S21|   S21 Ph  |S12|   S12 Ph  |S22|   S22 Ph
    0.05   -3.83  -50.37   -2.29   39.68   -2.29   39.68   -3.83  -50.37
    0.09   -7.38  -65.49   -0.85   24.89   -0.85   24.89   -7.38  -65.49
    0.13  -10.06  -72.74   -0.52   17.78   -0.52   17.78  -10.06  -72.74
    0.17  -12.15  -77.29   -0.25   13.76   -0.25   13.76  -12.15  -77.29
    0.21  -13.75  -80.12   -0.16   11.22   -0.16   11.22  -13.75  -80.12
    0.25  -15.00  -82.06   -0.12    9.29   -0.12    9.29  -15.00  -82.06
    0.29  -16.03  -83.80   -0.11    7.97   -0.11    7.97  -16.03  -83.80
    0.33  -16.90  -85.10   -0.08    6.97   -0.08    6.97  -16.90  -85.10
    0.37  -17.63  -85.98   -0.06    5.95   -0.06    5.95  -17.63  -85.98
    0.41  -18.23  -86.67   -0.04    5.60   -0.04    5.60  -18.23  -86.67
    0.45  -18.74  -87.61   -0.05    4.98   -0.05    4.98  -18.74  -87.61
    0.49  -19.13  -88.38   -0.03    4.54   -0.03    4.54  -19.13  -88.38
    0.53  -19.62  -88.78   -0.04    3.95   -0.04    3.95  -19.62  -88.78
    0.57  -19.90  -89.78   -0.05    3.79   -0.05    3.79  -19.90  -89.78
    0.61  -20.11  -89.70   -0.04    3.24   -0.04    3.24  -20.11  -89.70
    0.65  -20.25  -90.16   -0.03    3.10   -0.03    3.10  -20.25  -90.16
    0.69  -20.39  -90.77   -0.03    3.06   -0.03    3.06  -20.39  -90.77
    0.73  -20.53  -90.68   -0.02    2.70   -0.02    2.70  -20.53  -90.68
    0.77  -20.54  -91.41   -0.02    2.43   -0.02    2.43  -20.54  -91.41
    0.81  -20.62  -91.44   -0.02    2.36   -0.02    2.36  -20.62  -91.44
    0.85  -20.67  -91.72   -0.03    2.24   -0.03    2.24  -20.67  -91.72
    0.88  -20.68  -91.89   -0.03    1.98   -0.03    1.98  -20.68  -91.89
    0.92  -20.66  -92.19   -0.03    1.89   -0.03    1.89  -20.66  -92.19
    0.96  -20.63  -92.62   -0.04    1.72   -0.04    1.72  -20.63  -92.62
    1.00  -20.62  -92.75   -0.04    1.66   -0.04    1.66  -20.62  -92.75
    1.04  -20.59  -92.85   -0.04    1.57   -0.04    1.57  -20.59  -92.85
    1.08  -20.51  -93.35   -0.02    1.43   -0.02    1.43  -20.51  -93.35
    1.12  -20.45  -93.39   -0.03    1.25   -0.03    1.25  -20.45  -93.39
    1.16  -20.35  -93.61   -0.02    1.26   -0.02    1.26  -20.35  -93.61
    1.20  -20.31  -93.41   -0.03    1.06   -0.03    1.06  -20.31  -93.41
    1.24  -20.26  -93.64   -0.03    1.08   -0.03    1.08  -20.26  -93.64
    1.28  -20.18  -93.70   -0.04    0.88   -0.04    0.88  -20.18  -93.70
    1.32  -20.04  -93.87   -0.04    0.94   -0.04    0.94  -20.04  -93.87
    1.36  -19.99  -94.21   -0.05    0.75   -0.05    0.75  -19.99  -94.21
    1.40  -19.90  -94.10   -0.05    0.85   -0.05    0.85  -19.90  -94.10
    1.44  -19.83  -94.62   -0.05    0.62   -0.05    0.62  -19.83  -94.62
    1.48  -19.72  -94.49   -0.05    0.69   -0.05    0.69  -19.72  -94.49
    1.52  -19.67  -94.79   -0.04    0.55   -0.04    0.55  -19.67  -94.79
    1.56  -19.48  -94.68   -0.06    0.40   -0.06    0.40  -19.48  -94.68
    1.60  -19.49  -95.18   -0.06    0.41   -0.06    0.41  -19.49  -95.18
    1.64  -19.34  -95.04   -0.05    0.25   -0.05    0.25  -19.34  -95.04
    1.68  -19.28  -95.57   -0.07    0.28   -0.07    0.28  -19.28  -95.57
    1.72  -19.14  -95.32   -0.05    0.28   -0.05    0.28  -19.14  -95.32
    1.76  -19.08  -95.67   -0.05    0.32   -0.05    0.32  -19.08  -95.67
    1.80  -18.92  -95.69   -0.06    0.13   -0.06    0.13  -18.92  -95.69
    1.84  -18.87  -96.07   -0.07    0.08   -0.07    0.08  -18.87  -96.07
    1.88  -18.76  -95.65   -0.06    0.02   -0.06    0.02  -18.76  -95.65
    1.92  -18.70  -96.01   -0.05   -0.04   -0.05   -0.04  -18.70  -96.01
    1.96  -18.57  -95.99   -0.07   -0.14   -0.07   -0.14  -18.57  -95.99
    2.00  -18.50  -96.13   -0.08   -0.01   -0.08   -0.01  -18.50  -96.13
    2.04  -18.41  -96.42   -0.08   -0.14   -0.08   -0.14  -18.41  -96.42
    2.08  -18.33  -96.60   -0.05   -0.20   -0.05   -0.20  -18.33  -96.60
    2.12  -18.23  -96.50   -0.08   -0.35   -0.08   -0.35  -18.23  -96.50
    2.16  -18.11  -96.66   -0.07   -0.35   -0.07   -0.35  -18.11  -96.66
    2.20  -18.10  -96.87   -0.09   -0.24   -0.09   -0.24  -18.10  -96.87
    2.24  -17.86  -96.46   -0.08   -0.47   -0.08   -0.47  -17.86  -96.46
    2.28  -17.81  -97.34   -0.09   -0.39   -0.09   -0.39  -17.81  -97.34
    2.32  -17.68  -97.40   -0.07   -0.42   -0.07   -0.42  -17.68  -97.40
    2.36  -17.67  -97.96   -0.08   -0.52   -0.08   -0.52  -17.67  -97.96
    2.40  -17.52  -97.77   -0.08   -0.60   -0.08   -0.60  -17.52  -97.77
    2.44  -17.51  -98.29   -0.10   -0.54   -0.10   -0.54  -17.51  -98.29
    2.47  -17.36  -97.94   -0.08   -0.57   -0.08   -0.57  -17.36  -97.94
    2.51  -17.30  -98.46   -0.10   -0.59   -0.10   -0.59  -17.30  -98.46
    2.55  -17.23  -98.43   -0.10   -0.72   -0.10   -0.72  -17.23  -98.43
    2.59  -17.19  -98.84   -0.12   -0.75   -0.12   -0.75  -17.19  -98.84
    2.63  -17.03  -98.90   -0.10   -0.80   -0.10   -0.80  -17.03  -98.90
    2.67  -16.98  -99.21   -0.11   -0.70   -0.11   -0.70  -16.98  -99.21
    2.71  -16.88  -99.22   -0.12   -1.00   -0.12   -1.00  -16.88  -99.22
    2.75  -16.81  -99.53   -0.10   -0.87   -0.10   -0.87  -16.81  -99.53
    2.79  -16.69  -99.50   -0.11   -1.07   -0.11   -1.07  -16.69  -99.50
    2.83  -16.66  -99.75   -0.11   -0.88   -0.11   -0.88  -16.66  -99.75
    2.87  -16.55  -99.92   -0.12   -1.05   -0.12   -1.05  -16.55  -99.92
    2.91  -16.45 -100.26   -0.10   -1.03   -0.10   -1.03  -16.45 -100.26
    2.95  -16.45 -100.43   -0.12   -1.18   -0.12   -1.18  -16.45 -100.43
    2.99  -16.32 -100.42   -0.09   -1.19   -0.09   -1.19  -16.32 -100.42
    3.03  -16.26 -100.77   -0.14   -1.17   -0.14   -1.17  -16.26 -100.77
    3.07  -16.19 -100.83   -0.14   -1.50   -0.14   -1.50  -16.19 -100.83
    3.11  -16.17 -101.31   -0.16   -1.27   -0.16   -1.27  -16.17 -101.31
    3.15  -16.06 -101.09   -0.14   -1.38   -0.14   -1.38  -16.06 -101.09
    3.19  -16.06 -101.41   -0.17   -1.49   -0.17   -1.49  -16.06 -101.41
    3.23  -15.88 -101.48   -0.14   -1.66   -0.14   -1.66  -15.88 -101.48
    3.27  -15.91 -102.08   -0.18   -1.66   -0.18   -1.66  -15.91 -102.08
    3.31  -15.82 -101.89   -0.17   -1.82   -0.17   -1.82  -15.82 -101.89
    3.35  -15.79 -102.18   -0.17   -1.74   -0.17   -1.74  -15.79 -102.18
    3.39  -15.66 -102.26   -0.17   -2.01   -0.17   -2.01  -15.66 -102.26
    3.43  -15.71 -102.82   -0.17   -2.14   -0.17   -2.14  -15.71 -102.82
    3.47  -15.71 -102.35   -0.17   -2.21   -0.17   -2.21  -15.71 -102.35
    3.51  -15.76 -102.86   -0.18   -2.42   -0.18   -2.42  -15.76 -102.86
    3.55  -15.73 -102.70   -0.19   -2.56   -0.19   -2.56  -15.73 -102.70
    3.59  -15.85 -103.05   -0.19   -2.90   -0.19   -2.90  -15.85 -103.05
    3.63  -16.04 -102.87   -0.20   -3.14   -0.20   -3.14  -16.04 -102.87
    3.67  -16.54 -102.04   -0.23   -3.80   -0.23   -3.80  -16.54 -102.04
    3.71  -17.41  -97.98   -0.30   -4.95   -0.30   -4.95  -17.41  -97.98
    3.75  -18.51  -79.11   -0.60   -6.91   -0.60   -6.91  -18.51  -79.11
    3.79  -13.10  -61.93   -1.64   -4.58   -1.64   -4.58  -13.10  -61.93
    3.83  -11.21  -86.63   -1.03    2.41   -1.03    2.41  -11.21  -86.63
    3.87  -11.87  -96.39   -0.61    1.49   -0.61    1.49  -11.87  -96.39
    3.91  -12.24  -99.45   -0.44    0.50   -0.44    0.50  -12.24  -99.45
    3.95  -12.44 -101.34   -0.40    0.16   -0.40    0.16  -12.44 -101.34
    3.99  -12.52 -102.32   -0.35   -0.29   -0.35   -0.29  -12.52 -102.32
    4.03  -12.85 -104.45   -0.33   -0.37   -0.33   -0.37  -12.85 -104.45
    4.06  -12.82 -104.65   -0.31   -0.60   -0.31   -0.60  -12.82 -104.65
    4.10  -12.86 -105.47   -0.31   -0.78   -0.31   -0.78  -12.86 -105.47
    4.14  -12.81 -105.70   -0.29   -0.99   -0.29   -0.99  -12.81 -105.70
    4.18  -12.87 -106.20   -0.33   -0.99   -0.33   -0.99  -12.87 -106.20
    4.22  -12.73 -106.00   -0.31   -1.14   -0.31   -1.14  -12.73 -106.00
    4.26  -12.73 -107.12   -0.32   -1.13   -0.32   -1.13  -12.73 -107.12
    4.30  -12.66 -107.28   -0.31   -1.19   -0.31   -1.19  -12.66 -107.28
    4.34  -12.66 -107.74   -0.32   -1.24   -0.32   -1.24  -12.66 -107.74
    4.38  -12.58 -107.73   -0.31   -1.39   -0.31   -1.39  -12.58 -107.73
    4.42  -12.56 -108.01   -0.32   -1.37   -0.32   -1.37  -12.56 -108.01
    4.46  -12.46 -108.41   -0.33   -1.44   -0.33   -1.44  -12.46 -108.41
    4.50  -12.46 -108.65   -0.33   -1.63   -0.33   -1.63  -12.46 -108.65
    4.54  -12.39 -108.78   -0.34   -1.51   -0.34   -1.51  -12.39 -108.78
    4.58  -12.34 -108.85   -0.35   -1.55   -0.35   -1.55  -12.34 -108.85
    4.62  -12.28 -109.23   -0.36   -1.57   -0.36   -1.57  -12.28 -109.23
    4.66  -12.17 -109.27   -0.34   -1.73   -0.34   -1.73  -12.17 -109.27
    4.70  -12.20 -109.34   -0.38   -1.61   -0.38   -1.61  -12.20 -109.34
    4.74  -12.06 -109.64   -0.36   -1.76   -0.36   -1.76  -12.06 -109.64
    4.78  -12.10 -109.83   -0.39   -1.60   -0.39   -1.60  -12.10 -109.83
    4.82  -11.98 -109.92   -0.36   -1.71   -0.36   -1.71  -11.98 -109.92
    4.86  -11.99 -110.38   -0.40   -1.71   -0.40   -1.71  -11.99 -110.38
    4.90  -11.88 -110.13   -0.36   -1.87   -0.36   -1.87  -11.88 -110.13
    4.94  -11.88 -110.46   -0.38   -1.65   -0.38   -1.65  -11.88 -110.46
    4.98  -11.76 -110.93   -0.38   -1.86   -0.38   -1.86  -11.76 -110.93
    5.02  -11.83 -110.99   -0.40   -1.87   -0.40   -1.87  -11.83 -110.99
    5.06  -11.70 -110.62   -0.41   -1.67   -0.41   -1.67  -11.70 -110.62
    5.10  -11.64 -111.15   -0.42   -1.87   -0.42   -1.87  -11.64 -111.15
    5.14  -11.60 -111.39   -0.41   -2.11   -0.41   -2.11  -11.60 -111.39
    5.18  -11.60 -111.41   -0.43   -1.72   -0.43   -1.72  -11.60 -111.41
    5.22  -11.50 -111.06   -0.41   -2.08   -0.41   -2.08  -11.50 -111.06
    5.26  -11.54 -111.75   -0.40   -1.91   -0.40   -1.91  -11.54 -111.75
    5.30  -11.43 -111.28   -0.43   -2.09   -0.43   -2.09  -11.43 -111.28
    5.34  -11.41 -111.81   -0.43   -1.86   -0.43   -1.86  -11.41 -111.81
    5.38  -11.39 -111.94   -0.44   -2.08   -0.44   -2.08  -11.39 -111.94
    5.42  -11.36 -111.68   -0.47   -1.81   -0.47   -1.81  -11.36 -111.68
    5.46  -11.23 -111.46   -0.43   -1.75   -0.43   -1.75  -11.23 -111.46
    5.50  -11.20 -112.06   -0.42   -1.93   -0.42   -1.93  -11.20 -112.06
    5.54  -11.27 -112.07   -0.47   -1.96   -0.47   -1.96  -11.27 -112.07
    5.58  -11.18 -111.06   -0.45   -1.85   -0.45   -1.85  -11.18 -111.06
    5.62  -11.17 -112.38   -0.46   -1.78   -0.46   -1.78  -11.17 -112.38
    5.65  -11.11 -112.15   -0.46   -1.89   -0.46   -1.89  -11.11 -112.15
    5.69  -11.07 -112.44   -0.48   -1.95   -0.48   -1.95  -11.07 -112.44
    5.73  -11.04 -112.72   -0.46   -1.99   -0.46   -1.99  -11.04 -112.72
    5.77  -11.10 -112.86   -0.48   -1.82   -0.48   -1.82  -11.10 -112.86
    5.81  -11.00 -112.48   -0.45   -1.97   -0.45   -1.97  -11.00 -112.48
    5.85  -11.04 -112.81   -0.48   -1.78   -0.48   -1.78  -11.04 -112.81
    5.89  -10.99 -112.99   -0.47   -1.96   -0.47   -1.96  -10.99 -112.99
    5.93  -11.04 -113.03   -0.49   -1.83   -0.49   -1.83  -11.04 -113.03
    5.97  -10.96 -113.05   -0.49   -1.90   -0.49   -1.90  -10.96 -113.05
    6.01  -11.04 -113.37   -0.49   -1.86   -0.49   -1.86  -11.04 -113.37
    6.05  -10.93 -113.03   -0.49   -1.92   -0.49   -1.92  -10.93 -113.03
    6.09  -10.97 -113.46   -0.50   -1.94   -0.50   -1.94  -10.97 -113.46
    6.13  -11.00 -113.47   -0.49   -2.07   -0.49   -2.07  -11.00 -113.47
    6.17  -11.06 -113.49   -0.49   -2.03   -0.49   -2.03  -11.06 -113.49
    6.21  -11.01 -113.25   -0.52   -1.88   -0.52   -1.88  -11.01 -113.25
    6.25  -11.01 -113.72   -0.50   -1.95   -0.50   -1.95  -11.01 -113.72
    6.29  -11.04 -113.62   -0.51   -2.00   -0.51   -2.00  -11.04 -113.62
    6.33  -11.02 -113.79   -0.49   -2.08   -0.49   -2.08  -11.02 -113.79
    6.37  -11.05 -114.16   -0.49   -2.04   -0.49   -2.04  -11.05 -114.16
    6.41  -11.12 -114.20   -0.50   -1.98   -0.50   -1.98  -11.12 -114.20
    6.45  -11.16 -113.94   -0.51   -2.07   -0.51   -2.07  -11.16 -113.94
    6.49  -11.15 -114.50   -0.51   -2.30   -0.51   -2.30  -11.15 -114.50
    6.53  -11.31 -114.26   -0.52   -2.36   -0.52   -2.36  -11.31 -114.26
    6.57  -11.28 -114.26   -0.50   -2.37   -0.50   -2.37  -11.28 -114.26
    6.61  -11.45 -114.31   -0.53   -2.77   -0.53   -2.77  -11.45 -114.31
    6.65  -11.53 -113.72   -0.53   -2.68   -0.53   -2.68  -11.53 -113.72
    6.69  -11.75 -113.64   -0.55   -3.09   -0.55   -3.09  -11.75 -113.64
    6.73  -11.90 -112.78   -0.58   -3.53   -0.58   -3.53  -11.90 -112.78
    6.77  -12.28 -111.09   -0.66   -4.00   -0.66   -4.00  -12.28 -111.09
    6.81  -12.53 -106.47   -0.79   -4.81   -0.79   -4.81  -12.53 -106.47
    6.85  -12.21  -98.74   -1.11   -4.87   -1.11   -4.87  -12.21  -98.74
    6.89  -10.66  -96.15   -1.45   -2.90   -1.45   -2.90  -10.66  -96.15
    6.93   -9.84 -101.48   -1.30    0.18   -1.30    0.18   -9.84 -101.48
    6.97   -9.64 -105.94   -1.03    0.83   -1.03    0.83   -9.64 -105.94
    7.01   -9.84 -108.70   -0.90    1.01   -0.90    1.01   -9.84 -108.70
    7.05   -9.95 -109.80   -0.81    0.70   -0.81    0.70   -9.95 -109.80
    7.09  -10.06 -111.31   -0.75    0.48   -0.75    0.48  -10.06 -111.31
    7.13  -10.16 -111.80   -0.74    0.21   -0.74    0.21  -10.16 -111.80
    7.17  -10.24 -112.03   -0.71    0.12   -0.71    0.12  -10.24 -112.03
    7.21  -10.33 -112.17   -0.71    0.08   -0.71    0.08  -10.33 -112.17
    7.24  -10.40 -112.47   -0.68   -0.09   -0.68   -0.09  -10.40 -112.47
    7.28  -10.49 -112.42   -0.69   -0.20   -0.69   -0.20  -10.49 -112.42
    7.32  -10.50 -112.55   -0.68   -0.32   -0.68   -0.32  -10.50 -112.55
    7.36  -10.53 -112.41   -0.70   -0.25   -0.70   -0.25  -10.53 -112.41
    7.40  -10.56 -112.53   -0.69   -0.24   -0.69   -0.24  -10.56 -112.53
    7.44  -10.67 -112.14   -0.71   -0.28   -0.71   -0.28  -10.67 -112.14
    7.48  -10.55 -112.02   -0.69   -0.30   -0.69   -0.30  -10.55 -112.02
    7.52  -10.63 -112.31   -0.74   -0.10   -0.74   -0.10  -10.63 -112.31
    7.56  -10.55 -111.98   -0.71   -0.22   -0.71   -0.22  -10.55 -111.98
    7.60  -10.60 -112.45   -0.71   -0.13   -0.71   -0.13  -10.60 -112.45
    7.64  -10.60 -112.13   -0.71    0.03   -0.71    0.03  -10.60 -112.13
    7.68  -10.63 -112.41   -0.71   -0.23   -0.71   -0.23  -10.63 -112.41
    7.72  -10.57 -112.09   -0.72   -0.07   -0.72   -0.07  -10.57 -112.09
    7.76  -10.63 -112.71   -0.75   -0.11   -0.75   -0.11  -10.63 -112.71
    7.80  -10.62 -112.36   -0.73    0.11   -0.73    0.11  -10.62 -112.36
    7.84  -10.67 -112.47   -0.71    0.01   -0.71    0.01  -10.67 -112.47
    7.88  -10.61 -112.43   -0.73    0.00   -0.73    0.00  -10.61 -112.43
    7.92  -10.69 -112.98   -0.74    0.19   -0.74    0.19  -10.69 -112.98
    7.96  -10.68 -112.46   -0.73    0.01   -0.73    0.01  -10.68 -112.46
    8.00  -10.69 -113.05   -0.74    0.04   -0.74    0.04  -10.69 -113.05
