!  American Technical Ceramics  Date:    8/12/98
!  One Norden Lane
!  Huntington Station,  NY.   11746-2102
!  Tel:  (516) 547-5700               Fax:  (516) 547-5748
!  Part Number  500s3r0
!  Description: Broadband Microwave capacitor
!  Application:
!
# GHZ S DB R 50
! Freq   |S11|   S11 Ph  |S21|   S21 Ph  |S12|   S12 Ph  |S22|   S22 Ph
    0.05   -0.02   -5.30  -20.54   85.06  -20.54   85.06   -0.02   -5.30
    0.18   -0.44  -18.56   -9.94   71.60   -9.94   71.60   -0.44  -18.56
    0.31   -1.20  -30.05   -5.94   59.92   -5.94   59.92   -1.20  -30.05
    0.45   -2.20  -39.64   -3.88   50.85   -3.88   50.85   -2.20  -39.64
    0.58   -3.38  -47.31   -2.69   42.47   -2.69   42.47   -3.38  -47.31
    0.71   -4.48  -52.95   -1.99   36.40   -1.99   36.40   -4.48  -52.95
    0.84   -5.48  -58.22   -1.51   32.06   -1.51   32.06   -5.48  -58.22
    0.98   -6.31  -60.87   -1.14   28.18   -1.14   28.18   -6.31  -60.87
    1.11   -7.26  -64.41   -0.92   25.57   -0.92   25.57   -7.26  -64.41
    1.24   -8.12  -66.42   -0.73   23.30   -0.73   23.30   -8.12  -66.42
    1.37   -8.78  -68.69   -0.61   20.88   -0.61   20.88   -8.78  -68.69
    1.50   -9.55  -70.78   -0.50   19.30   -0.50   19.30   -9.55  -70.78
    1.64  -10.16  -71.62   -0.41   17.46   -0.41   17.46  -10.16  -71.62
    1.77  -10.85  -73.55   -0.35   16.20   -0.35   16.20  -10.85  -73.55
    1.90  -11.46  -74.25   -0.30   15.13   -0.30   15.13  -11.46  -74.25
    2.03  -11.98  -75.72   -0.27   13.96   -0.27   13.96  -11.98  -75.72
    2.17  -12.63  -76.48   -0.24   13.03   -0.24   13.03  -12.63  -76.48
    2.30  -13.13  -76.97   -0.20   12.18   -0.20   12.18  -13.13  -76.97
    2.43  -13.68  -78.62   -0.18   11.43   -0.18   11.43  -13.68  -78.62
    2.56  -14.27  -78.38   -0.16   10.59   -0.16   10.59  -14.27  -78.38
    2.70  -14.76  -79.73   -0.14    9.97   -0.14    9.97  -14.76  -79.73
    2.83  -15.25  -80.17   -0.13    9.40   -0.13    9.40  -15.25  -80.17
    2.96  -15.69  -80.30   -0.13    8.68   -0.13    8.68  -15.69  -80.30
    3.09  -16.29  -81.27   -0.12    8.23   -0.12    8.23  -16.29  -81.27
    3.22  -16.70  -80.98   -0.12    7.68   -0.12    7.68  -16.70  -80.98
    3.36  -17.11  -82.12   -0.12    7.21   -0.12    7.21  -17.11  -82.12
    3.49  -17.46  -81.87   -0.12    6.87   -0.12    6.87  -17.46  -81.87
    3.62  -17.78  -82.43   -0.11    6.43   -0.11    6.43  -17.78  -82.43
    3.75  -18.19  -83.31   -0.11    6.03   -0.11    6.03  -18.19  -83.31
    3.89  -18.41  -83.67   -0.11    5.61   -0.11    5.61  -18.41  -83.67
    4.02  -18.76  -85.27   -0.08    5.27   -0.08    5.27  -18.76  -85.27
    4.15  -19.00  -85.19   -0.07    4.92   -0.07    4.92  -19.00  -85.19
    4.28  -19.18  -86.11   -0.08    4.61   -0.08    4.61  -19.18  -86.11
    4.41  -19.56  -86.19   -0.09    4.35   -0.09    4.35  -19.56  -86.19
    4.55  -19.70  -86.52   -0.09    4.04   -0.09    4.04  -19.70  -86.52
    4.68  -19.87  -87.43   -0.10    3.78   -0.10    3.78  -19.87  -87.43
    4.81  -19.96  -87.01   -0.10    3.60   -0.10    3.60  -19.96  -87.01
    4.94  -20.10  -87.19   -0.10    3.44   -0.10    3.44  -20.10  -87.19
    5.08  -20.26  -87.24   -0.10    3.23   -0.10    3.23  -20.26  -87.24
    5.21  -20.35  -87.93   -0.10    2.97   -0.10    2.97  -20.35  -87.93
    5.34  -20.47  -88.32   -0.10    2.79   -0.10    2.79  -20.47  -88.32
    5.47  -20.52  -87.68   -0.10    2.60   -0.10    2.60  -20.52  -87.68
    5.60  -20.70  -88.54   -0.10    2.41   -0.10    2.41  -20.70  -88.54
    5.74  -20.81  -88.24   -0.10    2.33   -0.10    2.33  -20.81  -88.24
    5.87  -21.04  -88.45   -0.10    2.10   -0.10    2.10  -21.04  -88.45
    6.00  -21.31  -89.09   -0.12    1.94   -0.12    1.94  -21.31  -89.09
    6.13  -21.33  -88.03   -0.11    1.77   -0.11    1.77  -21.33  -88.03
    6.27  -21.67  -87.84   -0.11    1.67   -0.11    1.67  -21.67  -87.84
    6.40  -21.94  -87.68   -0.12    1.52   -0.12    1.52  -21.94  -87.68
    6.53  -22.35  -87.33   -0.13    1.42   -0.13    1.42  -22.35  -87.33
    6.66  -22.75  -86.18   -0.13    1.26   -0.13    1.26  -22.75  -86.18
    6.79  -23.00  -85.31   -0.14    1.06   -0.14    1.06  -23.00  -85.31
    6.93  -23.52  -83.86   -0.15    1.03   -0.15    1.03  -23.52  -83.86
    7.06  -24.01  -80.70   -0.15    0.96   -0.15    0.96  -24.01  -80.70
    7.19  -24.55  -79.59   -0.17    0.79   -0.17    0.79  -24.55  -79.59
    7.32  -25.08  -76.96   -0.18    0.75   -0.18    0.75  -25.08  -76.96
    7.46  -25.78  -72.86   -0.18    0.66   -0.18    0.66  -25.78  -72.86
    7.59  -26.13  -69.41   -0.20    0.61   -0.20    0.61  -26.13  -69.41
    7.72  -26.56  -64.72   -0.20    0.60   -0.20    0.60  -26.56  -64.72
    7.85  -27.26  -61.75   -0.20    0.59   -0.20    0.59  -27.26  -61.75
    7.99  -27.68  -58.81   -0.21    0.53   -0.21    0.53  -27.68  -58.81
    8.12  -28.46  -55.49   -0.20    0.48   -0.20    0.48  -28.46  -55.49
    8.25  -29.50  -51.40   -0.20    0.47   -0.20    0.47  -29.50  -51.40
    8.38  -30.36  -45.08   -0.19    0.35   -0.19    0.35  -30.36  -45.08
    8.51  -31.51  -37.39   -0.20    0.21   -0.20    0.21  -31.51  -37.39
    8.65  -32.40  -27.88   -0.20    0.18   -0.20    0.18  -32.40  -27.88
    8.78  -32.75  -17.57   -0.20    0.10   -0.20    0.10  -32.75  -17.57
    8.91  -32.97   -6.72   -0.20    0.02   -0.20    0.02  -32.97   -6.72
    9.04  -32.89    0.28   -0.21    0.00   -0.21    0.00  -32.89    0.28
    9.18  -33.02    6.41   -0.21   -0.05   -0.21   -0.05  -33.02    6.41
    9.31  -33.17   12.47   -0.22   -0.01   -0.22   -0.01  -33.17   12.47
    9.44  -33.64   18.94   -0.21   -0.01   -0.21   -0.01  -33.64   18.94
    9.57  -33.82   24.34   -0.21   -0.09   -0.21   -0.09  -33.82   24.34
    9.70  -34.66   28.05   -0.21   -0.04   -0.21   -0.04  -34.66   28.05
    9.84  -35.43   34.64   -0.20   -0.11   -0.20   -0.11  -35.43   34.64
    9.97  -36.26   41.26   -0.18   -0.16   -0.18   -0.16  -36.26   41.26
   10.10  -37.66   49.36   -0.18   -0.14   -0.18   -0.14  -37.66   49.36
   10.23  -39.10   61.75   -0.17   -0.16   -0.17   -0.16  -39.10   61.75
   10.37  -40.60   80.94   -0.16   -0.21   -0.16   -0.21  -40.60   80.94
   10.50  -40.22  100.83   -0.15   -0.25   -0.15   -0.25  -40.22  100.83
   10.63  -39.11  114.41   -0.14   -0.30   -0.14   -0.30  -39.11  114.41
   10.76  -38.85  127.74   -0.13   -0.38   -0.13   -0.38  -38.85  127.74
   10.89  -37.28  135.10   -0.13   -0.49   -0.13   -0.49  -37.28  135.10
   11.03  -37.15  137.55   -0.12   -0.54   -0.12   -0.54  -37.15  137.55
   11.16  -37.02  148.62   -0.11   -0.60   -0.11   -0.60  -37.02  148.62
   11.29  -36.18  155.20   -0.11   -0.71   -0.11   -0.71  -36.18  155.20
   11.42  -35.98  156.19   -0.11   -0.77   -0.11   -0.77  -35.98  156.19
   11.56  -36.28  160.56   -0.09   -0.85   -0.09   -0.85  -36.28  160.56
   11.69  -35.96  167.27   -0.09   -0.96   -0.09   -0.96  -35.96  167.27
   11.82  -36.15  169.12   -0.09   -1.02   -0.09   -1.02  -36.15  169.12
   11.95  -36.68  172.64   -0.09   -1.10   -0.09   -1.10  -36.68  172.64
   12.08  -36.78  177.84   -0.08   -1.20   -0.08   -1.20  -36.78  177.84
   12.22  -37.59  178.18   -0.09   -1.28   -0.09   -1.28  -37.59  178.18
   12.35  -38.75  176.17   -0.08   -1.38   -0.08   -1.38  -38.75  176.17
   12.48  -40.24  174.57   -0.08   -1.49   -0.08   -1.49  -40.24  174.57
   12.61  -42.75  177.96   -0.07   -1.60   -0.07   -1.60  -42.75  177.96
   12.75  -43.31  172.50   -0.07   -1.71   -0.07   -1.71  -43.31  172.50
   12.88  -43.93  148.41   -0.08   -1.84   -0.08   -1.84  -43.93  148.41
   13.01  -43.55  114.99   -0.08   -1.86   -0.08   -1.86  -43.55  114.99
   13.14  -41.54  104.75   -0.08   -1.97   -0.08   -1.97  -41.54  104.75
   13.28  -38.11   94.94   -0.08   -2.05   -0.08   -2.05  -38.11   94.94
   13.41  -35.36   87.95   -0.08   -2.19   -0.08   -2.19  -35.36   87.95
   13.54  -33.33   84.57   -0.08   -2.30   -0.08   -2.30  -33.33   84.57
   13.67  -30.99   84.06   -0.08   -2.50   -0.08   -2.50  -30.99   84.06
   13.80  -29.19   83.76   -0.09   -2.67   -0.09   -2.67  -29.19   83.76
   13.94  -27.74   81.77   -0.09   -2.72   -0.09   -2.72  -27.74   81.77
   14.07  -26.31   82.38   -0.10   -2.81   -0.10   -2.81  -26.31   82.38
   14.20  -25.14   83.89   -0.11   -2.99   -0.11   -2.99  -25.14   83.89
   14.33  -23.96   83.39   -0.10   -3.14   -0.10   -3.14  -23.96   83.39
   14.47  -22.83   83.95   -0.11   -3.25   -0.11   -3.25  -22.83   83.95
   14.60  -21.89   84.37   -0.12   -3.43   -0.12   -3.43  -21.89   84.37
   14.73  -21.07   85.07   -0.13   -3.68   -0.13   -3.68  -21.07   85.07
   14.86  -20.34   84.71   -0.16   -3.77   -0.16   -3.77  -20.34   84.71
   14.99  -19.71   84.58   -0.17   -3.94   -0.17   -3.94  -19.71   84.58
   15.13  -19.24   86.14   -0.17   -3.98   -0.17   -3.98  -19.24   86.14
   15.26  -18.77   86.18   -0.19   -4.12   -0.19   -4.12  -18.77   86.18
   15.39  -18.17   87.44   -0.19   -4.18   -0.19   -4.18  -18.17   87.44
   15.52  -17.94   88.67   -0.20   -4.25   -0.20   -4.25  -17.94   88.67
   15.66  -17.58   89.16   -0.22   -4.30   -0.22   -4.30  -17.58   89.16
   15.79  -17.21   89.38   -0.22   -4.42   -0.22   -4.42  -17.21   89.38
   15.92  -16.88   90.09   -0.21   -4.56   -0.21   -4.56  -16.88   90.09
   16.05  -16.77   90.68   -0.23   -4.63   -0.23   -4.63  -16.77   90.68
   16.18  -16.52   89.99   -0.24   -4.86   -0.24   -4.86  -16.52   89.99
   16.32  -16.36   90.66   -0.24   -4.86   -0.24   -4.86  -16.36   90.66
   16.45  -16.32   90.53   -0.24   -5.00   -0.24   -5.00  -16.32   90.53
   16.58  -16.22   91.38   -0.24   -5.12   -0.24   -5.12  -16.22   91.38
   16.71  -16.24   91.55   -0.25   -5.21   -0.25   -5.21  -16.24   91.55
   16.85  -16.11   90.70   -0.26   -5.46   -0.26   -5.46  -16.11   90.70
   16.98  -16.02   91.05   -0.23   -5.65   -0.23   -5.65  -16.02   91.05
   17.11  -16.10   89.97   -0.26   -5.86   -0.26   -5.86  -16.10   89.97
   17.24  -15.99   89.71   -0.29   -6.15   -0.29   -6.15  -15.99   89.71
   17.37  -16.12   89.71   -0.26   -6.40   -0.26   -6.40  -16.12   89.71
   17.51  -16.18   89.00   -0.28   -6.73   -0.28   -6.73  -16.18   89.00
   17.64  -15.92   88.59   -0.33   -7.05   -0.33   -7.05  -15.92   88.59
   17.77  -16.03   87.07   -0.29   -7.43   -0.29   -7.43  -16.03   87.07
   17.90  -15.83   85.82   -0.32   -8.10   -0.32   -8.10  -15.83   85.82
   18.04  -15.70   83.23   -0.36   -8.33   -0.36   -8.33  -15.70   83.23
   18.17  -15.41   82.13   -0.37   -9.04   -0.37   -9.04  -15.41   82.13
   18.30  -15.13   79.49   -0.39   -9.59   -0.39   -9.59  -15.13   79.49
   18.43  -14.76   77.04   -0.45  -10.25   -0.45  -10.25  -14.76   77.04
   18.57  -14.22   74.21   -0.49  -10.88   -0.49  -10.88  -14.22   74.21
   18.70  -13.77   71.28   -0.54  -11.86   -0.54  -11.86  -13.77   71.28
   18.83  -13.24   68.03   -0.62  -12.80   -0.62  -12.80  -13.24   68.03
   18.96  -12.47   65.94   -0.71  -13.65   -0.71  -13.65  -12.47   65.94
   19.09  -11.80   62.63   -0.81  -14.93   -0.81  -14.93  -11.80   62.63
   19.23  -11.03   59.81   -0.97  -16.30   -0.97  -16.30  -11.03   59.81
   19.36  -10.20   56.42   -1.15  -17.75   -1.15  -17.75  -10.20   56.42
   19.49   -9.29   52.83   -1.35  -19.32   -1.35  -19.32   -9.29   52.83
   19.62   -8.55   49.94   -1.69  -21.04   -1.69  -21.04   -8.55   49.94
   19.76   -7.81   45.15   -2.10  -22.97   -2.10  -22.97   -7.81   45.15
   19.89   -6.82   40.20   -2.57  -24.79   -2.57  -24.79   -6.82   40.20
   20.02   -6.15   35.37   -3.31  -26.52   -3.31  -26.52   -6.15   35.37
   20.15   -5.51   29.82   -4.28  -27.63   -4.28  -27.63   -5.51   29.82
   20.28   -4.83   23.10   -5.50  -27.23   -5.50  -27.23   -4.83   23.10
   20.42   -4.40   15.26   -7.01  -23.45   -7.01  -23.45   -4.40   15.26
   20.55   -4.30    7.36   -8.51  -13.52   -8.51  -13.52   -4.30    7.36
   20.68   -4.26   -1.03   -9.08    2.69   -9.08    2.69   -4.26   -1.03
   20.81   -4.52  -10.51   -8.22   17.46   -8.22   17.46   -4.52  -10.51
   20.95   -5.22  -19.03   -6.62   25.90   -6.62   25.90   -5.22  -19.03
   21.08   -5.94  -26.27   -5.12   28.47   -5.12   28.47   -5.94  -26.27
   21.21   -6.98  -33.85   -4.01   28.29   -4.01   28.29   -6.98  -33.85
   21.34   -8.01  -41.38   -3.18   26.98   -3.18   26.98   -8.01  -41.38
   21.47   -9.11  -47.19   -2.48   24.84   -2.48   24.84   -9.11  -47.19
   21.61  -10.43  -54.13   -2.00   23.00   -2.00   23.00  -10.43  -54.13
   21.74  -11.65  -60.24   -1.67   21.06   -1.67   21.06  -11.65  -60.24
   21.87  -12.97  -65.99   -1.39   19.07   -1.39   19.07  -12.97  -65.99
   22.00  -14.20  -72.94   -1.21   17.52   -1.21   17.52  -14.20  -72.94
   22.14  -15.30  -79.16   -1.09   16.05   -1.09   16.05  -15.30  -79.16
   22.27  -16.60  -85.23   -0.99   14.65   -0.99   14.65  -16.60  -85.23
   22.40  -17.60  -92.51   -0.90   13.56   -0.90   13.56  -17.60  -92.51
   22.53  -18.38 -100.01   -0.85   12.78   -0.85   12.78  -18.38 -100.01
   22.66  -19.23 -106.63   -0.83   12.05   -0.83   12.05  -19.23 -106.63
   22.80  -19.92 -113.23   -0.78   11.36   -0.78   11.36  -19.92 -113.23
   22.93  -20.53 -119.61   -0.74   10.66   -0.74   10.66  -20.53 -119.61
   23.06  -20.98 -123.62   -0.73   10.18   -0.73   10.18  -20.98 -123.62
   23.19  -21.35 -127.80   -0.71    9.64   -0.71    9.64  -21.35 -127.80
   23.33  -21.67 -131.16   -0.69    9.20   -0.69    9.20  -21.67 -131.16
   23.46  -22.04 -133.43   -0.69    8.76   -0.69    8.76  -22.04 -133.43
   23.59  -22.37 -135.25   -0.68    8.37   -0.68    8.37  -22.37 -135.25
   23.72  -22.72 -138.83   -0.70    8.03   -0.70    8.03  -22.72 -138.83
   23.86  -23.48 -142.97   -0.70    7.85   -0.70    7.85  -23.48 -142.97
   23.99  -24.37 -146.12   -0.70    7.48   -0.70    7.48  -24.37 -146.12
   24.12  -25.53 -154.10   -0.72    7.15   -0.72    7.15  -25.53 -154.10
   24.25  -27.53 -159.07   -0.74    7.08   -0.74    7.08  -27.53 -159.07
   24.38  -29.17 -165.20   -0.76    6.89   -0.76    6.89  -29.17 -165.20
   24.52  -31.05 -178.36   -0.77    6.68   -0.77    6.68  -31.05 -178.36
   24.65  -31.99  166.04   -0.77    6.95   -0.77    6.95  -31.99  166.04
   24.78  -31.85  149.81   -0.75    7.03   -0.75    7.03  -31.85  149.81
   24.91  -29.57  133.17   -0.71    6.88   -0.71    6.88  -29.57  133.17
   25.05  -26.95  118.85   -0.69    6.54   -0.69    6.54  -26.95  118.85
   25.18  -24.79  112.41   -0.63    6.49   -0.63    6.49  -24.79  112.41
   25.31  -22.66  106.33   -0.61    5.96   -0.61    5.96  -22.66  106.33
   25.44  -20.98   98.84   -0.59    5.61   -0.59    5.61  -20.98   98.84
   25.57  -19.65   97.14   -0.58    5.12   -0.58    5.12  -19.65   97.14
   25.71  -18.55   94.66   -0.60    4.67   -0.60    4.67  -18.55   94.66
   25.84  -17.72   96.80   -0.61    4.05   -0.61    4.05  -17.72   96.80
   25.97  -16.82   98.90   -0.63    3.58   -0.63    3.58  -16.82   98.90
   26.10  -15.51  101.95   -0.67    2.96   -0.67    2.96  -15.51  101.95
   26.24  -14.55  104.86   -0.73    2.75   -0.73    2.75  -14.55  104.86
   26.37  -13.97  105.05   -0.80    2.21   -0.80    2.21  -13.97  105.05
   26.50  -13.56  105.79   -0.86    1.77   -0.86    1.77  -13.56  105.79
