!  American Technical Ceramics  Date:     3/6/98
!  One Norden Lane
!  Huntington Station,  NY.   11746-2102
!  Tel:  (516) 547-5700               Fax:  (516) 547-5748
!  Part Number  500S0R9
!  Description: Broadband Microwave capacitor
!  Application:
!
# GHZ S DB R 50
! Freq   |S11|   S11 Ph  |S21|   S21 Ph  |S12|   S12 Ph  |S22|   S22 Ph
    0.05   -0.04   -1.64  -31.08   88.41  -31.08   88.41   -0.04   -1.64
    0.18   -0.04   -5.76  -20.18   84.51  -20.18   84.51   -0.04   -5.76
    0.31   -0.10   -9.73  -15.48   80.33  -15.48   80.33   -0.10   -9.73
    0.45   -0.24  -13.71  -12.57   76.84  -12.57   76.84   -0.24  -13.71
    0.58   -0.43  -17.95  -10.41   71.98  -10.41   71.98   -0.43  -17.95
    0.71   -0.70  -21.75   -8.86   67.69   -8.86   67.69   -0.70  -21.75
    0.84   -0.92  -25.88   -7.61   64.44   -7.61   64.44   -0.92  -25.88
    0.98   -1.04  -28.13   -6.52   60.85   -6.52   60.85   -1.04  -28.13
    1.11   -1.44  -31.57   -5.75   58.41   -5.75   58.41   -1.44  -31.57
    1.24   -1.80  -33.75   -5.06   55.89   -5.06   55.89   -1.80  -33.75
    1.37   -1.95  -36.92   -4.43   52.61   -4.43   52.61   -1.95  -36.92
    1.50   -2.35  -39.83   -3.96   50.31   -3.96   50.31   -2.35  -39.83
    1.64   -2.55  -41.38   -3.47   47.65   -3.47   47.65   -2.55  -41.38
    1.77   -2.90  -44.36   -3.09   45.35   -3.09   45.35   -2.90  -44.36
    1.90   -3.26  -46.14   -2.79   43.24   -2.79   43.24   -3.26  -46.14
    2.03   -3.57  -48.50   -2.54   41.11   -2.54   41.11   -3.57  -48.50
    2.17   -3.95  -50.27   -2.27   39.14   -2.27   39.14   -3.95  -50.27
    2.30   -4.26  -51.83   -2.06   37.23   -2.06   37.23   -4.26  -51.83
    2.43   -4.65  -54.08   -1.89   35.76   -1.89   35.76   -4.65  -54.08
    2.56   -5.01  -54.84   -1.68   33.88   -1.68   33.88   -5.01  -54.84
    2.70   -5.34  -57.09   -1.53   32.36   -1.53   32.36   -5.34  -57.09
    2.83   -5.72  -58.22   -1.42   30.98   -1.42   30.98   -5.72  -58.22
    2.96   -6.02  -59.17   -1.30   29.30   -1.30   29.30   -6.02  -59.17
    3.09   -6.50  -60.80   -1.20   28.04   -1.20   28.04   -6.50  -60.80
    3.22   -6.82  -61.30   -1.12   26.59   -1.12   26.59   -6.82  -61.30
    3.36   -7.18  -63.04   -1.03   25.42   -1.03   25.42   -7.18  -63.04
    3.49   -7.51  -63.21   -0.96   24.33   -0.96   24.33   -7.51  -63.21
    3.62   -7.86  -64.07   -0.91   23.10   -0.91   23.10   -7.86  -64.07
    3.75   -8.33  -65.06   -0.85   22.00   -0.85   22.00   -8.33  -65.06
    3.89   -8.59  -65.52   -0.79   20.74   -0.79   20.74   -8.59  -65.52
    4.02   -8.77  -67.75   -0.67   20.36   -0.67   20.36   -8.77  -67.75
    4.15   -9.08  -67.88   -0.61   19.42   -0.61   19.42   -9.08  -67.88
    4.28   -9.35  -68.75   -0.59   18.58   -0.59   18.58   -9.35  -68.75
    4.41   -9.77  -69.23   -0.58   17.70   -0.58   17.70   -9.77  -69.23
    4.55  -10.01  -69.76   -0.55   16.85   -0.55   16.85  -10.01  -69.76
    4.68  -10.33  -70.74   -0.53   16.14   -0.53   16.14  -10.33  -70.74
    4.81  -10.53  -70.50   -0.51   15.61   -0.51   15.61  -10.53  -70.50
    4.94  -10.80  -70.78   -0.49   15.13   -0.49   15.13  -10.80  -70.78
    5.08  -11.10  -70.79   -0.49   14.53   -0.49   14.53  -11.10  -70.79
    5.21  -11.25  -71.84   -0.46   13.85   -0.46   13.85  -11.25  -71.84
    5.34  -11.48  -72.47   -0.42   13.45   -0.42   13.45  -11.48  -72.47
    5.47  -11.63  -72.29   -0.41   12.86   -0.41   12.86  -11.63  -72.29
    5.60  -11.91  -73.68   -0.41   12.37   -0.41   12.37  -11.91  -73.68
    5.74  -12.09  -73.55   -0.38   12.03   -0.38   12.03  -12.09  -73.55
    5.87  -12.35  -74.22   -0.38   11.49   -0.38   11.49  -12.35  -74.22
    6.00  -12.64  -75.62   -0.39   10.93   -0.39   10.93  -12.64  -75.62
    6.13  -12.70  -75.22   -0.34   10.60   -0.34   10.60  -12.70  -75.22
    6.27  -13.03  -75.59   -0.33   10.31   -0.33   10.31  -13.03  -75.59
    6.40  -13.33  -76.39   -0.35    9.81   -0.35    9.81  -13.33  -76.39
    6.53  -13.68  -76.71   -0.34    9.56   -0.34    9.56  -13.68  -76.71
    6.66  -14.02  -76.92   -0.33    9.12   -0.33    9.12  -14.02  -76.92
    6.79  -14.24  -77.28   -0.33    8.55   -0.33    8.55  -14.24  -77.28
    6.93  -14.70  -76.71   -0.33    8.47   -0.33    8.47  -14.70  -76.71
    7.06  -15.04  -75.50   -0.31    8.19   -0.31    8.19  -15.04  -75.50
    7.19  -15.41  -76.92   -0.33    7.70   -0.33    7.70  -15.41  -76.92
    7.32  -15.85  -76.10   -0.34    7.51   -0.34    7.51  -15.85  -76.10
    7.46  -16.33  -74.86   -0.33    7.23   -0.33    7.23  -16.33  -74.86
    7.59  -16.56  -74.86   -0.34    6.85   -0.34    6.85  -16.56  -74.86
    7.72  -16.94  -73.43   -0.33    6.73   -0.33    6.73  -16.94  -73.43
    7.85  -17.53  -73.52   -0.31    6.64   -0.31    6.64  -17.53  -73.52
    7.99  -17.79  -73.52   -0.32    6.28   -0.32    6.28  -17.79  -73.52
    8.12  -18.34  -73.11   -0.31    5.98   -0.31    5.98  -18.34  -73.11
    8.25  -18.98  -72.52   -0.30    5.80   -0.30    5.80  -18.98  -72.52
    8.38  -19.43  -71.29   -0.29    5.45   -0.29    5.45  -19.43  -71.29
    8.51  -20.12  -71.10   -0.29    5.25   -0.29    5.25  -20.12  -71.10
    8.65  -20.73  -70.16   -0.27    5.07   -0.27    5.07  -20.73  -70.16
    8.78  -21.52  -69.05   -0.27    4.74   -0.27    4.74  -21.52  -69.05
    8.91  -22.32  -66.23   -0.27    4.42   -0.27    4.42  -22.32  -66.23
    9.04  -22.93  -63.47   -0.27    4.14   -0.27    4.14  -22.93  -63.47
    9.18  -23.60  -61.76   -0.28    3.93   -0.28    3.93  -23.60  -61.76
    9.31  -24.20  -58.27   -0.28    3.75   -0.28    3.75  -24.20  -58.27
    9.44  -24.86  -57.11   -0.27    3.62   -0.27    3.62  -24.86  -57.11
    9.57  -25.59  -54.07   -0.27    3.40   -0.27    3.40  -25.59  -54.07
    9.70  -26.36  -52.10   -0.25    3.23   -0.25    3.23  -26.36  -52.10
    9.84  -27.24  -49.71   -0.24    3.05   -0.24    3.05  -27.24  -49.71
    9.97  -28.13  -45.51   -0.23    2.83   -0.23    2.83  -28.13  -45.51
   10.10  -28.92  -44.58   -0.23    2.72   -0.23    2.72  -28.92  -44.58
   10.23  -30.04  -41.86   -0.21    2.57   -0.21    2.57  -30.04  -41.86
   10.37  -31.26  -39.18   -0.20    2.36   -0.20    2.36  -31.26  -39.18
   10.50  -32.53  -37.24   -0.18    2.18   -0.18    2.18  -32.53  -37.24
   10.63  -34.29  -33.83   -0.17    1.94   -0.17    1.94  -34.29  -33.83
   10.76  -36.19  -29.43   -0.16    1.73   -0.16    1.73  -36.19  -29.43
   10.89  -37.79  -22.78   -0.16    1.52   -0.16    1.52  -37.79  -22.78
   11.03  -39.36  -18.97   -0.15    1.34   -0.15    1.34  -39.36  -18.97
   11.16  -41.54  -12.57   -0.14    1.13   -0.14    1.13  -41.54  -12.57
   11.29  -42.84   -7.44   -0.14    0.93   -0.14    0.93  -42.84   -7.44
   11.42  -44.55  -11.11   -0.13    0.74   -0.13    0.74  -44.55  -11.11
   11.56  -47.75  -13.44   -0.13    0.56   -0.13    0.56  -47.75  -13.44
   11.69  -48.23  -10.39   -0.12    0.34   -0.12    0.34  -48.23  -10.39
   11.82  -49.21   -3.80   -0.12    0.13   -0.12    0.13  -49.21   -3.80
   11.95  -50.10    2.03   -0.11   -0.05   -0.11   -0.05  -50.10    2.03
   12.08  -48.98   13.38   -0.12   -0.22   -0.12   -0.22  -48.98   13.38
   12.22  -47.00   16.87   -0.12   -0.43   -0.12   -0.43  -47.00   16.87
   12.35  -45.64   30.88   -0.11   -0.62   -0.11   -0.62  -45.64   30.88
   12.48  -42.22   34.51   -0.11   -0.80   -0.11   -0.80  -42.22   34.51
   12.61  -40.59   44.84   -0.10   -1.03   -0.10   -1.03  -40.59   44.84
   12.75  -38.34   48.28   -0.10   -1.23   -0.10   -1.23  -38.34   48.28
   12.88  -36.45   53.43   -0.11   -1.42   -0.11   -1.42  -36.45   53.43
   13.01  -35.04   57.87   -0.11   -1.58   -0.11   -1.58  -35.04   57.87
   13.14  -33.11   61.41   -0.11   -1.76   -0.11   -1.76  -33.11   61.41
   13.28  -31.22   66.50   -0.11   -1.89   -0.11   -1.89  -31.22   66.50
   13.41  -29.89   68.72   -0.11   -2.11   -0.11   -2.11  -29.89   68.72
   13.54  -28.52   73.03   -0.11   -2.33   -0.11   -2.33  -28.52   73.03
   13.67  -27.14   75.49   -0.12   -2.54   -0.12   -2.54  -27.14   75.49
   13.80  -25.85   76.68   -0.12   -2.75   -0.12   -2.75  -25.85   76.68
   13.94  -24.67   78.96   -0.12   -2.96   -0.12   -2.96  -24.67   78.96
   14.07  -23.46   81.39   -0.13   -3.08   -0.13   -3.08  -23.46   81.39
   14.20  -22.55   82.06   -0.14   -3.31   -0.14   -3.31  -22.55   82.06
   14.33  -21.58   82.66   -0.14   -3.50   -0.14   -3.50  -21.58   82.66
   14.47  -20.84   83.57   -0.14   -3.70   -0.14   -3.70  -20.84   83.57
   14.60  -20.01   83.37   -0.14   -3.95   -0.14   -3.95  -20.01   83.37
   14.73  -19.24   84.15   -0.16   -4.15   -0.16   -4.15  -19.24   84.15
   14.86  -18.77   83.95   -0.19   -4.35   -0.19   -4.35  -18.77   83.95
   14.99  -18.23   83.97   -0.19   -4.52   -0.19   -4.52  -18.23   83.97
   15.13  -17.73   84.07   -0.21   -4.60   -0.21   -4.60  -17.73   84.07
   15.26  -17.42   82.99   -0.23   -4.77   -0.23   -4.77  -17.42   82.99
   15.39  -16.92   83.99   -0.24   -4.83   -0.24   -4.83  -16.92   83.99
   15.52  -16.58   84.55   -0.24   -4.86   -0.24   -4.86  -16.58   84.55
   15.66  -16.21   84.16   -0.26   -4.98   -0.26   -4.98  -16.21   84.16
   15.79  -15.94   83.67   -0.27   -4.98   -0.27   -4.98  -15.94   83.67
   15.92  -15.58   84.11   -0.26   -5.01   -0.26   -5.01  -15.58   84.11
   16.05  -15.33   83.96   -0.28   -5.10   -0.28   -5.10  -15.33   83.96
   16.18  -15.17   83.09   -0.28   -5.15   -0.28   -5.15  -15.17   83.09
   16.32  -15.07   83.49   -0.28   -5.10   -0.28   -5.10  -15.07   83.49
   16.45  -14.97   83.37   -0.28   -5.18   -0.28   -5.18  -14.97   83.37
   16.58  -14.82   83.76   -0.28   -5.23   -0.28   -5.23  -14.82   83.76
   16.71  -14.93   83.93   -0.28   -5.15   -0.28   -5.15  -14.93   83.93
   16.85  -14.85   82.94   -0.28   -5.22   -0.28   -5.22  -14.85   82.94
   16.98  -14.87   84.87   -0.24   -5.36   -0.24   -5.36  -14.87   84.87
   17.11  -15.08   84.34   -0.26   -5.33   -0.26   -5.33  -15.08   84.34
   17.24  -15.08   84.45   -0.28   -5.47   -0.28   -5.47  -15.08   84.45
   17.37  -15.35   85.58   -0.25   -5.58   -0.25   -5.58  -15.35   85.58
   17.51  -15.46   85.56   -0.24   -5.67   -0.24   -5.67  -15.46   85.56
   17.64  -15.45   85.36   -0.27   -5.82   -0.27   -5.82  -15.45   85.36
   17.77  -15.72   86.19   -0.23   -5.94   -0.23   -5.94  -15.72   86.19
   17.90  -15.93   86.79   -0.23   -6.34   -0.23   -6.34  -15.93   86.79
   18.04  -15.95   85.49   -0.25   -6.30   -0.25   -6.30  -15.95   85.49
   18.17  -16.01   85.46   -0.25   -6.63   -0.25   -6.63  -16.01   85.46
   18.30  -16.16   85.18   -0.24   -6.81   -0.24   -6.81  -16.16   85.18
   18.43  -16.08   84.41   -0.26   -7.06   -0.26   -7.06  -16.08   84.41
   18.57  -15.97   84.09   -0.27   -7.18   -0.27   -7.18  -15.97   84.09
   18.70  -16.05   83.35   -0.26   -7.52   -0.26   -7.52  -16.05   83.35
   18.83  -15.91   82.89   -0.29   -7.77   -0.29   -7.77  -15.91   82.89
   18.96  -15.61   81.98   -0.30   -7.85   -0.30   -7.85  -15.61   81.98
   19.09  -15.33   80.70   -0.31   -8.11   -0.31   -8.11  -15.33   80.70
   19.23  -15.00   81.03   -0.32   -8.40   -0.32   -8.40  -15.00   81.03
   19.36  -14.78   80.36   -0.32   -8.58   -0.32   -8.58  -14.78   80.36
   19.49  -14.35   79.47   -0.33   -8.81   -0.33   -8.81  -14.35   79.47
   19.62  -14.12   80.04   -0.36   -9.15   -0.36   -9.15  -14.12   80.04
   19.76  -13.84   79.50   -0.37   -9.45   -0.37   -9.45  -13.84   79.50
   19.89  -13.36   79.87   -0.37   -9.55   -0.37   -9.55  -13.36   79.87
   20.02  -13.09   80.13   -0.41   -9.89   -0.41   -9.89  -13.09   80.13
   20.15  -12.86   80.40   -0.45  -10.23   -0.45  -10.23  -12.86   80.40
   20.28  -12.49   80.92   -0.46  -10.38   -0.46  -10.38  -12.49   80.92
   20.42  -12.26   82.04   -0.48  -10.57   -0.48  -10.57  -12.26   82.04
   20.55  -12.15   82.32   -0.53  -10.88   -0.53  -10.88  -12.15   82.32
   20.68  -11.90   83.24   -0.57  -10.90   -0.57  -10.90  -11.90   83.24
   20.81  -11.57   83.81   -0.57  -11.15   -0.57  -11.15  -11.57   83.81
   20.95  -11.46   84.34   -0.62  -11.25   -0.62  -11.25  -11.46   84.34
   21.08  -11.29   85.71   -0.66  -11.24   -0.66  -11.24  -11.29   85.71
   21.21  -11.12   84.97   -0.69  -11.42   -0.69  -11.42  -11.12   84.97
   21.34  -10.93   84.64   -0.70  -11.57   -0.70  -11.57  -10.93   84.64
   21.47  -10.73   86.67   -0.72  -11.15   -0.72  -11.15  -10.73   86.67
   21.61  -10.71   85.96   -0.76  -11.21   -0.76  -11.21  -10.71   85.96
   21.74  -10.47   85.50   -0.77  -11.40   -0.77  -11.40  -10.47   85.50
   21.87  -10.44   86.48   -0.78  -10.97   -0.78  -10.97  -10.44   86.48
   22.00  -10.31   85.62   -0.80  -11.00   -0.80  -11.00  -10.31   85.62
   22.14  -10.14   85.07   -0.81  -11.05   -0.81  -11.05  -10.14   85.07
   22.27  -10.15   86.22   -0.80  -10.71   -0.80  -10.71  -10.15   86.22
   22.40  -10.19   85.88   -0.82  -10.39   -0.82  -10.39  -10.19   85.88
   22.53  -10.13   85.62   -0.86  -10.51   -0.86  -10.51  -10.13   85.62
   22.66  -10.11   86.29   -0.85  -10.31   -0.85  -10.31  -10.11   86.29
   22.80  -10.25   86.70   -0.86  -10.00   -0.86  -10.00  -10.25   86.70
   22.93  -10.22   86.81   -0.85   -9.92   -0.85   -9.92  -10.22   86.81
   23.06  -10.25   88.04   -0.83   -9.81   -0.83   -9.81  -10.25   88.04
   23.19  -10.38   87.93   -0.82   -9.75   -0.82   -9.75  -10.38   87.93
   23.33  -10.39   88.42   -0.83   -9.78   -0.83   -9.78  -10.39   88.42
   23.46  -10.51   88.29   -0.80  -10.01   -0.80  -10.01  -10.51   88.29
   23.59  -10.57   88.21   -0.82  -10.31   -0.82  -10.31  -10.57   88.21
   23.72  -10.58   88.30   -0.83  -10.49   -0.83  -10.49  -10.58   88.30
   23.86  -10.68   88.03   -0.84  -10.62   -0.84  -10.62  -10.68   88.03
   23.99  -10.58   87.32   -0.88  -11.15   -0.88  -11.15  -10.58   87.32
   24.12  -10.50   85.83   -0.95  -11.43   -0.95  -11.43  -10.50   85.83
   24.25  -10.40   84.49   -0.94  -11.62   -0.94  -11.62  -10.40   84.49
   24.38  -10.13   83.20   -1.00  -11.86   -1.00  -11.86  -10.13   83.20
   24.52   -9.91   81.65   -1.08  -12.42   -1.08  -12.42   -9.91   81.65
   24.65   -9.66   79.93   -1.07  -12.72   -1.07  -12.72   -9.66   79.93
   24.78   -9.41   77.67   -1.10  -13.15   -1.10  -13.15   -9.41   77.67
   24.91   -9.01   76.52   -1.18  -13.60   -1.18  -13.60   -9.01   76.52
   25.05   -8.57   74.97   -1.28  -13.99   -1.28  -13.99   -8.57   74.97
   25.18   -8.27   73.12   -1.30  -14.58   -1.30  -14.58   -8.27   73.12
   25.31   -7.94   73.24   -1.40  -14.88   -1.40  -14.88   -7.94   73.24
   25.44   -7.65   72.34   -1.46  -15.11   -1.46  -15.11   -7.65   72.34
   25.57   -7.36   71.89   -1.47  -15.53   -1.47  -15.53   -7.36   71.89
   25.71   -7.04   72.32   -1.55  -16.05   -1.55  -16.05   -7.04   72.32
   25.84   -6.77   73.75   -1.65  -16.26   -1.65  -16.26   -6.77   73.75
   25.97   -6.45   75.09   -1.67  -16.79   -1.67  -16.79   -6.45   75.09
   26.10   -6.32   76.98   -1.72  -17.24   -1.72  -17.24   -6.32   76.98
   26.24   -6.09   80.07   -1.81  -17.06   -1.81  -17.06   -6.09   80.07
   26.37   -6.06   82.57   -1.87  -17.09   -1.87  -17.09   -6.06   82.57
   26.50   -6.01   84.70   -1.95  -17.34   -1.95  -17.34   -6.01   84.70
