!  American Technical Ceramics  Date:     3/6/98
!  One Norden Lane
!  Huntington Station,  NY.   11746-2102
!  Tel:  (516) 547-5700               Fax:  (516) 547-5748
!  Part Number  500S100
!  Description: Broadband Microwave capacitor
!  Application:
!
# GHZ S DB R 50
! Freq   |S11|   S11 Ph  |S21|   S21 Ph  |S12|   S12 Ph  |S22|   S22 Ph
    0.05   -0.37  -17.00  -10.76   73.87  -10.76   73.87   -0.37  -17.00
    0.18   -3.44  -48.27   -2.53   42.19   -2.53   42.19   -3.44  -48.27
    0.31   -6.66  -62.76   -0.98   27.59   -0.98   27.59   -6.66  -62.76
    0.45   -9.22  -70.63   -0.48   20.15   -0.48   20.15   -9.22  -70.63
    0.58  -11.41  -74.86   -0.30   15.52   -0.30   15.52  -11.41  -74.86
    0.71  -13.15  -77.19   -0.21   12.66   -0.21   12.66  -13.15  -77.19
    0.84  -14.59  -79.96   -0.15   10.72   -0.15   10.72  -14.59  -79.96
    0.98  -15.79  -80.31   -0.09    9.13   -0.09    9.13  -15.79  -80.31
    1.11  -16.97  -82.15   -0.07    8.09   -0.07    8.09  -16.97  -82.15
    1.24  -18.06  -82.55   -0.04    7.27   -0.04    7.27  -18.06  -82.55
    1.37  -18.88  -83.25   -0.03    6.41   -0.03    6.41  -18.88  -83.25
    1.50  -19.83  -84.21   -0.03    5.84   -0.03    5.84  -19.83  -84.21
    1.64  -20.61  -83.44   -0.01    5.27   -0.01    5.27  -20.61  -83.44
    1.77  -21.44  -84.40   -0.01    4.77   -0.01    4.77  -21.44  -84.40
    1.90  -22.21  -84.31   -0.01    4.40   -0.01    4.40  -22.21  -84.31
    2.03  -22.87  -84.65    0.00    4.07    0.00    4.07  -22.87  -84.65
    2.17  -23.65  -84.48    0.00    3.74    0.00    3.74  -23.65  -84.48
    2.30  -24.27  -84.09   -0.01    3.44   -0.01    3.44  -24.27  -84.09
    2.43  -24.95  -84.79   -0.01    3.21   -0.01    3.21  -24.95  -84.79
    2.56  -25.64  -84.11    0.00    2.95    0.00    2.95  -25.64  -84.11
    2.70  -26.23  -84.38   -0.01    2.69   -0.01    2.69  -26.23  -84.38
    2.83  -26.78  -83.60   -0.01    2.54   -0.01    2.54  -26.78  -83.60
    2.96  -27.27  -83.07   -0.01    2.31   -0.01    2.31  -27.27  -83.07
    3.09  -27.95  -82.68   -0.01    2.12   -0.01    2.12  -27.95  -82.68
    3.22  -28.28  -80.61   -0.02    1.95   -0.02    1.95  -28.28  -80.61
    3.36  -28.56  -81.13   -0.02    1.80   -0.02    1.80  -28.56  -81.13
    3.49  -28.83  -79.69   -0.02    1.69   -0.02    1.69  -28.83  -79.69
    3.62  -28.95  -78.85   -0.03    1.56   -0.03    1.56  -28.95  -78.85
    3.75  -29.11  -79.24   -0.03    1.43   -0.03    1.43  -29.11  -79.24
    3.89  -28.87  -78.54   -0.03    1.27   -0.03    1.27  -28.87  -78.54
    4.02  -29.64  -75.62   -0.03    1.20   -0.03    1.20  -29.64  -75.62
    4.15  -29.75  -74.85   -0.03    1.08   -0.03    1.08  -29.75  -74.85
    4.28  -29.60  -75.44   -0.03    1.00   -0.03    1.00  -29.60  -75.44
    4.41  -29.66  -76.01   -0.04    0.88   -0.04    0.88  -29.66  -76.01
    4.55  -29.61  -77.24   -0.04    0.81   -0.04    0.81  -29.61  -77.24
    4.68  -29.58  -77.94   -0.05    0.69   -0.05    0.69  -29.58  -77.94
    4.81  -29.36  -78.60   -0.05    0.68   -0.05    0.68  -29.36  -78.60
    4.94  -29.34  -79.62   -0.05    0.59   -0.05    0.59  -29.34  -79.62
    5.08  -29.22  -78.83   -0.06    0.54   -0.06    0.54  -29.22  -78.83
    5.21  -28.81  -81.03   -0.06    0.46   -0.06    0.46  -28.81  -81.03
    5.34  -28.75  -82.17   -0.06    0.40   -0.06    0.40  -28.75  -82.17
    5.47  -28.52  -81.89   -0.07    0.31   -0.07    0.31  -28.52  -81.89
    5.60  -28.40  -82.93   -0.08    0.26   -0.08    0.26  -28.40  -82.93
    5.74  -28.35  -83.16   -0.07    0.23   -0.07    0.23  -28.35  -83.16
    5.87  -28.42  -82.99   -0.08    0.15   -0.08    0.15  -28.42  -82.99
    6.00  -28.49  -83.51   -0.09    0.10   -0.09    0.10  -28.49  -83.51
    6.13  -28.56  -82.25   -0.08    0.05   -0.08    0.05  -28.56  -82.25
    6.27  -28.84  -81.09   -0.09    0.05   -0.09    0.05  -28.84  -81.09
    6.40  -29.42  -80.83   -0.10   -0.04   -0.10   -0.04  -29.42  -80.83
    6.53  -30.08  -77.56   -0.10   -0.04   -0.10   -0.04  -30.08  -77.56
    6.66  -30.61  -73.57   -0.11   -0.10   -0.11   -0.10  -30.61  -73.57
    6.79  -31.29  -70.22   -0.12   -0.18   -0.12   -0.18  -31.29  -70.22
    6.93  -32.24  -63.49   -0.13   -0.16   -0.13   -0.16  -32.24  -63.49
    7.06  -32.84  -54.69   -0.13   -0.15   -0.13   -0.15  -32.84  -54.69
    7.19  -33.45  -48.93   -0.15   -0.22   -0.15   -0.22  -33.45  -48.93
    7.32  -33.97  -36.98   -0.16   -0.22   -0.16   -0.22  -33.97  -36.98
    7.46  -33.72  -24.08   -0.17   -0.18   -0.17   -0.18  -33.72  -24.08
    7.59  -33.32  -17.78   -0.18   -0.16   -0.18   -0.16  -33.32  -17.78
    7.72  -33.58  -10.36   -0.19   -0.07   -0.19   -0.07  -33.58  -10.36
    7.85  -33.62   -3.98   -0.19   -0.03   -0.19   -0.03  -33.62   -3.98
    7.99  -33.24    4.07   -0.20    0.03   -0.20    0.03  -33.24    4.07
    8.12  -32.83   13.16   -0.19    0.06   -0.19    0.06  -32.83   13.16
    8.25  -32.69   18.67   -0.20    0.07   -0.20    0.07  -32.69   18.67
    8.38  -32.14   26.37   -0.20    0.04   -0.20    0.04  -32.14   26.37
    8.51  -31.78   31.30   -0.20    0.13   -0.20    0.13  -31.78   31.30
    8.65  -31.39   35.19   -0.20    0.16   -0.20    0.16  -31.39   35.19
    8.78  -30.76   40.52   -0.20    0.11   -0.20    0.11  -30.76   40.52
    8.91  -30.02   44.13   -0.20    0.13   -0.20    0.13  -30.02   44.13
    9.04  -29.52   44.80   -0.22    0.13   -0.22    0.13  -29.52   44.80
    9.18  -29.29   45.31   -0.22    0.21   -0.22    0.21  -29.29   45.31
    9.31  -29.03   46.50   -0.24    0.32   -0.24    0.32  -29.03   46.50
    9.44  -29.23   47.09   -0.23    0.40   -0.23    0.40  -29.23   47.09
    9.57  -28.85   49.03   -0.23    0.40   -0.23    0.40  -28.85   49.03
    9.70  -29.12   50.16   -0.22    0.53   -0.22    0.53  -29.12   50.16
    9.84  -29.32   52.38   -0.21    0.61   -0.21    0.61  -29.32   52.38
    9.97  -29.11   55.36   -0.20    0.65   -0.20    0.65  -29.11   55.36
   10.10  -29.63   54.35   -0.20    0.75   -0.20    0.75  -29.63   54.35
   10.23  -30.16   58.68   -0.19    0.83   -0.19    0.83  -30.16   58.68
   10.37  -30.49   62.00   -0.18    0.86   -0.18    0.86  -30.49   62.00
   10.50  -30.84   64.90   -0.17    0.88   -0.17    0.88  -30.84   64.90
   10.63  -31.45   69.75   -0.15    0.89   -0.15    0.89  -31.45   69.75
   10.76  -31.99   74.40   -0.15    0.87   -0.15    0.87  -31.99   74.40
   10.89  -32.21   76.66   -0.15    0.87   -0.15    0.87  -32.21   76.66
   11.03  -33.35   78.41   -0.14    0.89   -0.14    0.89  -33.35   78.41
   11.16  -34.54   82.17   -0.13    0.87   -0.13    0.87  -34.54   82.17
   11.29  -35.57   84.05   -0.13    0.87   -0.13    0.87  -35.57   84.05
   11.42  -37.50   85.08   -0.12    0.85   -0.12    0.85  -37.50   85.08
   11.56  -39.87   91.79   -0.11    0.88   -0.11    0.88  -39.87   91.79
   11.69  -42.30   91.99   -0.11    0.85   -0.11    0.85  -42.30   91.99
   11.82  -45.42   91.67   -0.11    0.81   -0.11    0.81  -45.42   91.67
   11.95  -49.71   84.10   -0.10    0.84   -0.10    0.84  -49.71   84.10
   12.08  -53.76   59.35   -0.11    0.78   -0.11    0.78  -53.76   59.35
   12.22  -53.16    8.79   -0.10    0.72   -0.10    0.72  -53.16    8.79
   12.35  -50.91   -4.19   -0.10    0.72   -0.10    0.72  -50.91   -4.19
   12.48  -45.44   -1.03   -0.09    0.67   -0.09    0.67  -45.44   -1.03
   12.61  -43.88    0.20   -0.10    0.62   -0.10    0.62  -43.88    0.20
   12.75  -42.16    9.40   -0.10    0.55   -0.10    0.55  -42.16    9.40
   12.88  -39.98   18.84   -0.10    0.52   -0.10    0.52  -39.98   18.84
   13.01  -38.56   21.93   -0.10    0.55   -0.10    0.55  -38.56   21.93
   13.14  -37.52   32.62   -0.10    0.51   -0.10    0.51  -37.52   32.62
   13.28  -35.26   47.08   -0.11    0.50   -0.11    0.50  -35.26   47.08
   13.41  -33.54   50.67   -0.11    0.43   -0.11    0.43  -33.54   50.67
   13.54  -32.37   57.75   -0.10    0.36   -0.10    0.36  -32.37   57.75
   13.67  -30.62   64.13   -0.11    0.34   -0.11    0.34  -30.62   64.13
   13.80  -29.16   67.71   -0.11    0.24   -0.11    0.24  -29.16   67.71
   13.94  -27.84   71.56   -0.12    0.20   -0.12    0.20  -27.84   71.56
   14.07  -26.54   75.93   -0.12    0.21   -0.12    0.21  -26.54   75.93
   14.20  -25.41   77.35   -0.13    0.12   -0.13    0.12  -25.41   77.35
   14.33  -24.35   78.95   -0.12    0.01   -0.12    0.01  -24.35   78.95
   14.47  -23.55   80.33   -0.13   -0.06   -0.13   -0.06  -23.55   80.33
   14.60  -22.69   81.43   -0.14   -0.18   -0.14   -0.18  -22.69   81.43
   14.73  -21.80   82.64   -0.14   -0.30   -0.14   -0.30  -21.80   82.64
   14.86  -21.27   82.45   -0.18   -0.34   -0.18   -0.34  -21.27   82.45
   14.99  -20.77   82.72   -0.18   -0.42   -0.18   -0.42  -20.77   82.72
   15.13  -20.24   83.51   -0.19   -0.45   -0.19   -0.45  -20.24   83.51
   15.26  -19.84   82.80   -0.21   -0.50   -0.21   -0.50  -19.84   82.80
   15.39  -19.38   83.91   -0.21   -0.51   -0.21   -0.51  -19.38   83.91
   15.52  -19.06   85.13   -0.21   -0.49   -0.21   -0.49  -19.06   85.13
   15.66  -18.64   85.15   -0.23   -0.57   -0.23   -0.57  -18.64   85.15
   15.79  -18.29   84.66   -0.23   -0.54   -0.23   -0.54  -18.29   84.66
   15.92  -17.97   85.23   -0.22   -0.60   -0.22   -0.60  -17.97   85.23
   16.05  -17.72   85.35   -0.24   -0.65   -0.24   -0.65  -17.72   85.35
   16.18  -17.54   84.44   -0.25   -0.66   -0.25   -0.66  -17.54   84.44
   16.32  -17.45   84.57   -0.25   -0.67   -0.25   -0.67  -17.45   84.57
   16.45  -17.42   84.40   -0.26   -0.78   -0.26   -0.78  -17.42   84.40
   16.58  -17.29   84.92   -0.25   -0.83   -0.25   -0.83  -17.29   84.92
   16.71  -17.39   84.77   -0.26   -0.83   -0.26   -0.83  -17.39   84.77
   16.85  -17.36   83.28   -0.27   -0.96   -0.27   -0.96  -17.36   83.28
   16.98  -17.51   85.12   -0.25   -1.13   -0.25   -1.13  -17.51   85.12
   17.11  -17.68   84.49   -0.27   -1.18   -0.27   -1.18  -17.68   84.49
   17.24  -17.59   83.90   -0.29   -1.38   -0.29   -1.38  -17.59   83.90
   17.37  -17.98   84.34   -0.27   -1.59   -0.27   -1.59  -17.98   84.34
   17.51  -18.03   83.88   -0.28   -1.83   -0.28   -1.83  -18.03   83.88
   17.64  -17.84   83.00   -0.31   -2.07   -0.31   -2.07  -17.84   83.00
   17.77  -18.01   82.65   -0.29   -2.42   -0.29   -2.42  -18.01   82.65
   17.90  -18.03   81.96   -0.30   -2.96   -0.30   -2.96  -18.03   81.96
   18.04  -17.77   80.52   -0.34   -3.15   -0.34   -3.15  -17.77   80.52
   18.17  -17.41   78.63   -0.36   -3.71   -0.36   -3.71  -17.41   78.63
   18.30  -17.20   77.04   -0.38   -4.24   -0.38   -4.24  -17.20   77.04
   18.43  -16.64   75.38   -0.43   -4.74   -0.43   -4.74  -16.64   75.38
   18.57  -16.02   74.05   -0.47   -5.32   -0.47   -5.32  -16.02   74.05
   18.70  -15.53   71.93   -0.52   -6.16   -0.52   -6.16  -15.53   71.93
   18.83  -14.81   70.04   -0.59   -6.94   -0.59   -6.94  -14.81   70.04
   18.96  -13.91   68.28   -0.67   -7.68   -0.67   -7.68  -13.91   68.28
   19.09  -13.04   65.98   -0.77   -8.71   -0.77   -8.71  -13.04   65.98
   19.23  -12.15   64.62   -0.90   -9.85   -0.90   -9.85  -12.15   64.62
   19.36  -11.32   61.84   -1.05  -11.11   -1.05  -11.11  -11.32   61.84
   19.49  -10.28   58.96   -1.22  -12.58   -1.22  -12.58  -10.28   58.96
   19.62   -9.47   56.94   -1.53  -14.14   -1.53  -14.14   -9.47   56.94
   19.76   -8.65   52.92   -1.89  -15.91   -1.89  -15.91   -8.65   52.92
   19.89   -7.64   48.78   -2.31  -17.55   -2.31  -17.55   -7.64   48.78
   20.02   -6.87   44.45   -2.97  -19.20   -2.97  -19.20   -6.87   44.45
   20.15   -6.11   38.96   -3.84  -20.40   -3.84  -20.40   -6.11   38.96
   20.28   -5.36   32.25   -4.93  -20.32   -4.93  -20.32   -5.36   32.25
   20.42   -4.89   24.57   -6.34  -17.54   -6.34  -17.54   -4.89   24.57
   20.55   -4.70   16.31   -7.79   -9.09   -7.79   -9.09   -4.70   16.31
   20.68   -4.52    7.79   -8.54    5.23   -8.54    5.23   -4.52    7.79
   20.81   -4.68   -1.99   -8.01   19.90   -8.01   19.90   -4.68   -1.99
   20.95   -5.28  -10.57   -6.55   29.46   -6.55   29.46   -5.28  -10.57
   21.08   -5.90  -18.03   -5.07   32.60   -5.07   32.60   -5.90  -18.03
   21.21   -6.80  -25.72   -3.98   32.78   -3.98   32.78   -6.80  -25.72
   21.34   -7.72  -32.35   -3.18   31.73   -3.18   31.73   -7.72  -32.35
   21.47   -8.73  -36.73   -2.47   29.88   -2.47   29.88   -8.73  -36.73
   21.61   -9.82  -42.34   -2.03   28.25   -2.03   28.25   -9.82  -42.34
   21.74  -10.79  -47.03   -1.69   26.68   -1.69   26.68  -10.79  -47.03
   21.87  -12.06  -50.88   -1.38   24.87   -1.38   24.87  -12.06  -50.88
   22.00  -13.21  -54.88   -1.20   23.48   -1.20   23.48  -13.21  -54.88
   22.14  -14.15  -57.62   -1.08   22.19   -1.08   22.19  -14.15  -57.62
   22.27  -15.26  -60.82   -0.98   20.85   -0.98   20.85  -15.26  -60.82
   22.40  -16.37  -64.72   -0.87   19.87   -0.87   19.87  -16.37  -64.72
   22.53  -17.20  -67.20   -0.84   19.12   -0.84   19.12  -17.20  -67.20
   22.66  -17.99  -69.98   -0.80   18.44   -0.80   18.44  -17.99  -69.98
   22.80  -18.74  -73.39   -0.76   17.82   -0.76   17.82  -18.74  -73.39
   22.93  -19.40  -75.68   -0.75   17.33   -0.75   17.33  -19.40  -75.68
   23.06  -19.70  -75.93   -0.73   16.90   -0.73   16.90  -19.70  -75.93
   23.19  -20.12  -77.20   -0.70   16.51   -0.70   16.51  -20.12  -77.20
   23.33  -20.23  -78.16   -0.68   16.15   -0.68   16.15  -20.23  -78.16
   23.46  -20.35  -77.57   -0.67   15.73   -0.67   15.73  -20.35  -77.57
   23.59  -20.29  -77.09   -0.67   15.54   -0.67   15.54  -20.29  -77.09
   23.72  -20.38  -76.63   -0.67   15.28   -0.67   15.28  -20.38  -76.63
   23.86  -20.74  -77.10   -0.69   15.04   -0.69   15.04  -20.74  -77.10
   23.99  -21.04  -74.85   -0.68   14.97   -0.68   14.97  -21.04  -74.85
   24.12  -21.36  -71.81   -0.68   14.81   -0.68   14.81  -21.36  -71.81
   24.25  -21.78  -68.86   -0.67   14.76   -0.67   14.76  -21.78  -68.86
   24.38  -22.66  -67.61   -0.66   14.69   -0.66   14.69  -22.66  -67.61
   24.52  -23.28  -61.70   -0.64   14.51   -0.64   14.51  -23.28  -61.70
   24.65  -24.25  -57.51   -0.64   14.52   -0.64   14.52  -24.25  -57.51
   24.78  -25.62  -52.44   -0.62   14.44   -0.62   14.44  -25.62  -52.44
   24.91  -27.82  -46.82   -0.61   14.38   -0.61   14.38  -27.82  -46.82
   25.05  -30.42  -27.10   -0.59   14.35   -0.59   14.35  -30.42  -27.10
   25.18  -31.87   -3.22   -0.58   14.32   -0.58   14.32  -31.87   -3.22
   25.31  -33.84   29.90   -0.58   14.23   -0.58   14.23  -33.84   29.90
   25.44  -31.36   57.46   -0.56   14.21   -0.56   14.21  -31.36   57.46
   25.57  -28.97   75.47   -0.52   14.21   -0.52   14.21  -28.97   75.47
   25.71  -26.46   89.77   -0.51   13.85   -0.51   13.85  -26.46   89.77
   25.84  -24.54  100.60   -0.50   13.72   -0.50   13.72  -24.54  100.60
   25.97  -22.78  111.44   -0.51   13.43   -0.51   13.43  -22.78  111.44
   26.10  -21.84  118.25   -0.52   13.19   -0.52   13.19  -21.84  118.25
   26.24  -20.63  125.43   -0.53   12.98   -0.53   12.98  -20.63  125.43
   26.37  -19.72  130.61   -0.55   12.89   -0.55   12.89  -19.72  130.61
   26.50  -18.96  137.52   -0.59   12.71   -0.59   12.71  -18.96  137.52
