!  American Technical Ceramics  Date:     3/6/98
!  One Norden Lane
!  Huntington Station,  NY.   11746-2102
!  Tel:  (516) 547-5700               Fax:  (516) 547-5748
!  Part Number  500S0R4
!  Description: Broadband Microwave capacitor
!  Application:
!
# GHZ S DB R 50
! Freq   |S11|   S11 Ph  |S21|   S21 Ph  |S12|   S12 Ph  |S22|   S22 Ph
    0.05    0.04   -0.63  -38.22   87.36  -38.22   87.36    0.04   -0.63
    0.18    0.01   -2.69  -26.91   87.64  -26.91   87.64    0.01   -2.69
    0.31    0.02   -4.59  -22.12   85.51  -22.12   85.51    0.02   -4.59
    0.45   -0.04   -6.51  -19.15   84.09  -19.15   84.09   -0.04   -6.51
    0.58   -0.08   -8.79  -16.82   81.19  -16.82   81.19   -0.08   -8.79
    0.71   -0.18  -10.87  -15.12   78.69  -15.12   78.69   -0.18  -10.87
    0.84   -0.24  -13.39  -13.72   77.09  -13.72   77.09   -0.24  -13.39
    0.98   -0.16  -14.06  -12.44   75.07  -12.44   75.07   -0.16  -14.06
    1.11   -0.38  -16.22  -11.51   73.93  -11.51   73.93   -0.38  -16.22
    1.24   -0.56  -17.22  -10.65   72.55  -10.65   72.55   -0.56  -17.22
    1.37   -0.47  -19.32   -9.80   70.40   -9.80   70.40   -0.47  -19.32
    1.50   -0.65  -21.39   -9.13   68.93   -9.13   68.93   -0.65  -21.39
    1.64   -0.61  -22.04   -8.41   67.22   -8.41   67.22   -0.61  -22.04
    1.77   -0.74  -24.39   -7.82   65.59   -7.82   65.59   -0.74  -24.39
    1.90   -0.89  -25.75   -7.35   63.94   -7.35   63.94   -0.89  -25.75
    2.03   -0.98  -27.72   -6.89   62.25   -6.89   62.25   -0.98  -27.72
    2.17   -1.13  -29.19   -6.42   60.60   -6.42   60.60   -1.13  -29.19
    2.30   -1.23  -30.50   -6.02   58.91   -6.02   58.91   -1.23  -30.50
    2.43   -1.43  -32.54   -5.68   57.69   -5.68   57.69   -1.43  -32.54
    2.56   -1.55  -33.24   -5.25   55.88   -5.25   55.88   -1.55  -33.24
    2.70   -1.70  -35.39   -4.95   54.52   -4.95   54.52   -1.70  -35.39
    2.83   -1.88  -36.67   -4.67   53.04   -4.67   53.04   -1.88  -36.67
    2.96   -2.00  -37.86   -4.38   51.20   -4.38   51.20   -2.00  -37.86
    3.09   -2.28  -39.65   -4.12   49.87   -4.12   49.87   -2.28  -39.65
    3.22   -2.42  -40.54   -3.89   48.03   -3.89   48.03   -2.42  -40.54
    3.36   -2.62  -42.44   -3.66   46.79   -3.66   46.79   -2.62  -42.44
    3.49   -2.80  -42.96   -3.47   45.38   -3.47   45.38   -2.80  -42.96
    3.62   -3.00  -44.22   -3.28   43.77   -3.28   43.77   -3.00  -44.22
    3.75   -3.31  -45.66   -3.09   42.31   -3.09   42.31   -3.31  -45.66
    3.89   -3.41  -46.62   -2.90   40.53   -2.90   40.53   -3.41  -46.62
    4.02   -3.44  -48.65   -2.68   40.59   -2.68   40.59   -3.44  -48.65
    4.15   -3.60  -49.20   -2.51   39.32   -2.51   39.32   -3.60  -49.20
    4.28   -3.76  -50.51   -2.39   38.09   -2.39   38.09   -3.76  -50.51
    4.41   -4.09  -51.50   -2.32   36.73   -2.32   36.73   -4.09  -51.50
    4.55   -4.22  -52.48   -2.20   35.42   -2.20   35.42   -4.22  -52.48
    4.68   -4.45  -53.78   -2.10   34.37   -2.10   34.37   -4.45  -53.78
    4.81   -4.57  -53.75   -2.03   33.55   -2.03   33.55   -4.57  -53.75
    4.94   -4.77  -54.11   -1.96   32.97   -1.96   32.97   -4.77  -54.11
    5.08   -5.01  -54.54   -1.91   32.00   -1.91   32.00   -5.01  -54.54
    5.21   -5.07  -55.93   -1.83   30.96   -1.83   30.96   -5.07  -55.93
    5.34   -5.21  -56.59   -1.72   30.50   -1.72   30.50   -5.21  -56.59
    5.47   -5.29  -56.73   -1.65   29.53   -1.65   29.53   -5.29  -56.73
    5.60   -5.51  -58.39   -1.61   28.80   -1.61   28.80   -5.51  -58.39
    5.74   -5.61  -58.31   -1.54   28.38   -1.54   28.38   -5.61  -58.31
    5.87   -5.81  -59.30   -1.51   27.51   -1.51   27.51   -5.81  -59.30
    6.00   -6.00  -61.28   -1.48   26.54   -1.48   26.54   -6.00  -61.28
    6.13   -5.94  -60.90   -1.37   26.19   -1.37   26.19   -5.94  -60.90
    6.27   -6.17  -61.48   -1.32   25.83   -1.32   25.83   -6.17  -61.48
    6.40   -6.37  -62.87   -1.33   24.93   -1.33   24.93   -6.37  -62.87
    6.53   -6.60  -63.46   -1.29   24.65   -1.29   24.65   -6.60  -63.46
    6.66   -6.78  -64.26   -1.23   23.99   -1.23   23.99   -6.78  -64.26
    6.79   -6.83  -65.48   -1.20   22.93   -1.20   22.93   -6.83  -65.48
    6.93   -7.12  -65.19   -1.17   22.96   -1.17   22.96   -7.12  -65.19
    7.06   -7.26  -64.45   -1.11   22.61   -1.11   22.61   -7.26  -64.45
    7.19   -7.46  -66.82   -1.13   21.70   -1.13   21.70   -7.46  -66.82
    7.32   -7.69  -66.63   -1.11   21.51   -1.11   21.51   -7.69  -66.63
    7.46   -7.94  -66.39   -1.05   21.06   -1.05   21.06   -7.94  -66.39
    7.59   -7.99  -67.53   -1.04   20.18   -1.04   20.18   -7.99  -67.53
    7.72   -8.15  -66.59   -0.99   20.10   -0.99   20.10   -8.15  -66.59
    7.85   -8.57  -67.02   -0.95   20.09   -0.95   20.09   -8.57  -67.02
    7.99   -8.57  -67.74   -0.95   19.27   -0.95   19.27   -8.57  -67.74
    8.12   -8.77  -68.22   -0.91   18.81   -0.91   18.81   -8.77  -68.22
    8.25   -9.11  -68.41   -0.86   18.62   -0.86   18.62   -9.11  -68.41
    8.38   -9.25  -68.25   -0.83   17.87   -0.83   17.87   -9.25  -68.25
    8.51   -9.59  -68.90   -0.80   17.47   -0.80   17.47   -9.59  -68.90
    8.65   -9.82  -68.74   -0.75   17.33   -0.75   17.33   -9.82  -68.74
    8.78  -10.12  -69.31   -0.72   16.71   -0.72   16.71  -10.12  -69.31
    8.91  -10.46  -68.85   -0.70   16.08   -0.70   16.08  -10.46  -68.85
    9.04  -10.72  -68.58   -0.68   15.49   -0.68   15.49  -10.72  -68.58
    9.18  -11.03  -69.17   -0.66   15.07   -0.66   15.07  -11.03  -69.17
    9.31  -11.27  -68.44   -0.62   14.60   -0.62   14.60  -11.27  -68.44
    9.44  -11.60  -68.76   -0.61   14.29   -0.61   14.29  -11.60  -68.76
    9.57  -11.82  -68.63   -0.60   13.79   -0.60   13.79  -11.82  -68.63
    9.70  -12.10  -69.03   -0.56   13.44   -0.56   13.44  -12.10  -69.03
    9.84  -12.46  -69.51   -0.53   12.99   -0.53   12.99  -12.46  -69.51
    9.97  -12.68  -69.23   -0.51   12.48   -0.51   12.48  -12.68  -69.23
   10.10  -13.01  -70.53   -0.47   12.27   -0.47   12.27  -13.01  -70.53
   10.23  -13.31  -70.50   -0.44   11.86   -0.44   11.86  -13.31  -70.50
   10.37  -13.63  -71.27   -0.43   11.41   -0.43   11.41  -13.63  -71.27
   10.50  -13.82  -72.18   -0.39   11.08   -0.39   11.08  -13.82  -72.18
   10.63  -14.18  -72.92   -0.35   10.52   -0.35   10.52  -14.18  -72.92
   10.76  -14.61  -74.42   -0.33   10.03   -0.33   10.03  -14.61  -74.42
   10.89  -14.72  -74.35   -0.32    9.73   -0.32    9.73  -14.72  -74.35
   11.03  -15.03  -75.19   -0.31    9.34   -0.31    9.34  -15.03  -75.19
   11.16  -15.39  -76.19   -0.30    8.81   -0.30    8.81  -15.39  -76.19
   11.29  -15.44  -76.32   -0.28    8.50   -0.28    8.50  -15.44  -76.32
   11.42  -15.65  -76.92   -0.28    8.21   -0.28    8.21  -15.65  -76.92
   11.56  -15.78  -78.34   -0.27    7.78   -0.27    7.78  -15.78  -78.34
   11.69  -15.89  -78.33   -0.25    7.57   -0.25    7.57  -15.89  -78.33
   11.82  -16.01  -77.78   -0.26    7.28   -0.26    7.28  -16.01  -77.78
   11.95  -16.19  -78.70   -0.23    6.85   -0.23    6.85  -16.19  -78.70
   12.08  -16.24  -78.99   -0.22    6.58   -0.22    6.58  -16.24  -78.99
   12.22  -16.29  -78.51   -0.22    6.32   -0.22    6.32  -16.29  -78.51
   12.35  -16.46  -80.11   -0.20    5.94   -0.20    5.94  -16.46  -80.11
   12.48  -16.44  -79.15   -0.19    5.60   -0.19    5.60  -16.44  -79.15
   12.61  -16.86  -79.72   -0.20    5.32   -0.20    5.32  -16.86  -79.72
   12.75  -16.97  -80.82   -0.20    4.96   -0.20    4.96  -16.97  -80.82
   12.88  -17.10  -80.09   -0.19    4.64   -0.19    4.64  -17.10  -80.09
   13.01  -17.57  -80.56   -0.20    4.60   -0.20    4.60  -17.57  -80.56
   13.14  -17.81  -81.14   -0.20    4.25   -0.20    4.25  -17.81  -81.14
   13.28  -18.20  -80.99   -0.18    4.04   -0.18    4.04  -18.20  -80.99
   13.41  -18.69  -80.92   -0.18    3.95   -0.18    3.95  -18.69  -80.92
   13.54  -19.20  -81.61   -0.16    3.67   -0.16    3.67  -19.20  -81.61
   13.67  -19.73  -81.44   -0.15    3.36   -0.15    3.36  -19.73  -81.44
   13.80  -20.42  -80.76   -0.13    3.13   -0.13    3.13  -20.42  -80.76
   13.94  -21.26  -81.66   -0.12    2.82   -0.12    2.82  -21.26  -81.66
   14.07  -22.09  -81.62   -0.11    2.49   -0.11    2.49  -22.09  -81.62
   14.20  -23.28  -81.00   -0.11    2.16   -0.11    2.16  -23.28  -81.00
   14.33  -24.55  -81.59   -0.11    1.89   -0.11    1.89  -24.55  -81.59
   14.47  -25.95  -80.88   -0.11    1.55   -0.11    1.55  -25.95  -80.88
   14.60  -27.94  -80.99   -0.11    1.19   -0.11    1.19  -27.94  -80.99
   14.73  -30.70  -76.89   -0.11    0.89   -0.11    0.89  -30.70  -76.89
   14.86  -34.20  -71.37   -0.11    0.61   -0.11    0.61  -34.20  -71.37
   14.99  -39.00  -53.64   -0.12    0.30   -0.12    0.30  -39.00  -53.64
   15.13  -42.26    4.09   -0.12   -0.02   -0.12   -0.02  -42.26    4.09
   15.26  -37.97   45.32   -0.14   -0.27   -0.14   -0.27  -37.97   45.32
   15.39  -34.00   62.47   -0.13   -0.51   -0.13   -0.51  -34.00   62.47
   15.52  -30.83   71.33   -0.14   -0.76   -0.14   -0.76  -30.83   71.33
   15.66  -28.40   74.21   -0.15   -1.04   -0.15   -1.04  -28.40   74.21
   15.79  -26.93   74.51   -0.15   -1.16   -0.15   -1.16  -26.93   74.51
   15.92  -25.47   76.47   -0.14   -1.40   -0.14   -1.40  -25.47   76.47
   16.05  -24.27   77.89   -0.15   -1.65   -0.15   -1.65  -24.27   77.89
   16.18  -23.47   77.19   -0.16   -1.80   -0.16   -1.80  -23.47   77.19
   16.32  -22.91   77.77   -0.16   -1.97   -0.16   -1.97  -22.91   77.77
   16.45  -22.43   78.85   -0.16   -2.23   -0.16   -2.23  -22.43   78.85
   16.58  -21.82   79.66   -0.15   -2.43   -0.15   -2.43  -21.82   79.66
   16.71  -21.60   79.94   -0.15   -2.57   -0.15   -2.57  -21.60   79.94
   16.85  -21.25   78.30   -0.16   -2.77   -0.16   -2.77  -21.25   78.30
   16.98  -21.30   80.93   -0.15   -2.99   -0.15   -2.99  -21.30   80.93
   17.11  -21.38   80.42   -0.15   -3.13   -0.15   -3.13  -21.38   80.42
   17.24  -21.31   79.81   -0.16   -3.33   -0.16   -3.33  -21.31   79.81
   17.37  -21.73   81.38   -0.15   -3.53   -0.15   -3.53  -21.73   81.38
   17.51  -21.78   81.49   -0.15   -3.76   -0.15   -3.76  -21.78   81.49
   17.64  -21.72   80.88   -0.16   -3.96   -0.16   -3.96  -21.72   80.88
   17.77  -22.07   82.14   -0.14   -4.15   -0.14   -4.15  -22.07   82.14
   17.90  -22.45   83.25   -0.14   -4.57   -0.14   -4.57  -22.45   83.25
   18.04  -22.38   82.38   -0.14   -4.74   -0.14   -4.74  -22.38   82.38
   18.17  -22.48   81.28   -0.14   -5.05   -0.14   -5.05  -22.48   81.28
   18.30  -22.63   81.45   -0.14   -5.34   -0.14   -5.34  -22.63   81.45
   18.43  -22.40   80.55   -0.15   -5.60   -0.15   -5.60  -22.40   80.55
   18.57  -22.15   80.50   -0.16   -5.88   -0.16   -5.88  -22.15   80.50
   18.70  -22.16   79.76   -0.16   -6.18   -0.16   -6.18  -22.16   79.76
   18.83  -21.89   79.33   -0.18   -6.49   -0.18   -6.49  -21.89   79.33
   18.96  -21.30   78.65   -0.19   -6.70   -0.19   -6.70  -21.30   78.65
   19.09  -20.71   77.20   -0.18   -6.96   -0.18   -6.96  -20.71   77.20
   19.23  -20.11   78.14   -0.19   -7.29   -0.19   -7.29  -20.11   78.14
   19.36  -19.67   77.94   -0.20   -7.55   -0.20   -7.55  -19.67   77.94
   19.49  -18.95   77.30   -0.20   -7.80   -0.20   -7.80  -18.95   77.30
   19.62  -18.42   78.02   -0.21   -8.16   -0.21   -8.16  -18.42   78.02
   19.76  -17.93   77.52   -0.22   -8.54   -0.22   -8.54  -17.93   77.52
   19.89  -17.23   78.85   -0.22   -8.77   -0.22   -8.77  -17.23   78.85
   20.02  -16.67   79.27   -0.25   -9.15   -0.25   -9.15  -16.67   79.27
   20.15  -16.30   79.44   -0.28   -9.57   -0.28   -9.57  -16.30   79.44
   20.28  -15.76   80.26   -0.30   -9.78   -0.30   -9.78  -15.76   80.26
   20.42  -15.36   81.77   -0.32  -10.08   -0.32  -10.08  -15.36   81.77
   20.55  -15.07   81.91   -0.35  -10.44   -0.35  -10.44  -15.07   81.91
   20.68  -14.68   82.67   -0.38  -10.62   -0.38  -10.62  -14.68   82.67
   20.81  -14.25   83.36   -0.38  -10.93   -0.38  -10.93  -14.25   83.36
   20.95  -13.96   83.92   -0.42  -11.13   -0.42  -11.13  -13.96   83.92
   21.08  -13.64   85.08   -0.45  -11.31   -0.45  -11.31  -13.64   85.08
   21.21  -13.36   84.10   -0.49  -11.60   -0.49  -11.60  -13.36   84.10
   21.34  -13.06   83.64   -0.51  -11.82   -0.51  -11.82  -13.06   83.64
   21.47  -12.70   85.52   -0.53  -11.59   -0.53  -11.59  -12.70   85.52
   21.61  -12.57   84.51   -0.57  -11.82   -0.57  -11.82  -12.57   84.51
   21.74  -12.28   83.90   -0.58  -12.01   -0.58  -12.01  -12.28   83.90
   21.87  -12.13   84.86   -0.60  -11.77   -0.60  -11.77  -12.13   84.86
   22.00  -11.87   83.76   -0.62  -11.90   -0.62  -11.90  -11.87   83.76
   22.14  -11.67   82.79   -0.63  -12.00   -0.63  -12.00  -11.67   82.79
   22.27  -11.63   83.94   -0.62  -11.82   -0.62  -11.82  -11.63   83.94
   22.40  -11.58   83.40   -0.66  -11.70   -0.66  -11.70  -11.58   83.40
   22.53  -11.47   82.90   -0.69  -11.82   -0.69  -11.82  -11.47   82.90
   22.66  -11.41   83.53   -0.69  -11.76   -0.69  -11.76  -11.41   83.53
   22.80  -11.54   83.90   -0.70  -11.55   -0.70  -11.55  -11.54   83.90
   22.93  -11.46   83.85   -0.70  -11.54   -0.70  -11.54  -11.46   83.85
   23.06  -11.49   84.89   -0.69  -11.47   -0.69  -11.47  -11.49   84.89
   23.19  -11.59   84.61   -0.69  -11.58   -0.69  -11.58  -11.59   84.61
   23.33  -11.59   85.18   -0.69  -11.56   -0.69  -11.56  -11.59   85.18
   23.46  -11.68   84.93   -0.66  -11.93   -0.66  -11.93  -11.68   84.93
   23.59  -11.73   84.72   -0.68  -12.24   -0.68  -12.24  -11.73   84.72
   23.72  -11.75   84.79   -0.69  -12.46   -0.69  -12.46  -11.75   84.79
   23.86  -11.83   84.62   -0.71  -12.67   -0.71  -12.67  -11.83   84.62
   23.99  -11.69   83.81   -0.75  -13.19   -0.75  -13.19  -11.69   83.81
   24.12  -11.60   82.03   -0.80  -13.54   -0.80  -13.54  -11.60   82.03
   24.25  -11.52   80.95   -0.80  -13.75   -0.80  -13.75  -11.52   80.95
   24.38  -11.18   79.54   -0.84  -14.08   -0.84  -14.08  -11.18   79.54
   24.52  -10.92   77.77   -0.91  -14.67   -0.91  -14.67  -10.92   77.77
   24.65  -10.67   76.18   -0.91  -14.99   -0.91  -14.99  -10.67   76.18
   24.78  -10.37   73.99   -0.93  -15.50   -0.93  -15.50  -10.37   73.99
   24.91   -9.90   72.93   -1.00  -15.96   -1.00  -15.96   -9.90   72.93
   25.05   -9.40   71.40   -1.07  -16.46   -1.07  -16.46   -9.40   71.40
   25.18   -9.10   69.61   -1.09  -17.10   -1.09  -17.10   -9.10   69.61
   25.31   -8.70   70.01   -1.17  -17.34   -1.17  -17.34   -8.70   70.01
   25.44   -8.36   68.99   -1.23  -17.63   -1.23  -17.63   -8.36   68.99
   25.57   -8.08   68.69   -1.23  -18.11   -1.23  -18.11   -8.08   68.69
   25.71   -7.67   68.96   -1.32  -18.81   -1.32  -18.81   -7.67   68.96
   25.84   -7.38   70.85   -1.39  -18.90   -1.39  -18.90   -7.38   70.85
   25.97   -7.03   72.14   -1.41  -19.61   -1.41  -19.61   -7.03   72.14
   26.10   -6.87   73.91   -1.45  -20.26   -1.45  -20.26   -6.87   73.91
   26.24   -6.66   76.79   -1.52  -20.25   -1.52  -20.25   -6.66   76.79
   26.37   -6.60   79.72   -1.59  -20.21   -1.59  -20.21   -6.60   79.72
   26.50   -6.50   81.80   -1.65  -20.42   -1.65  -20.42   -6.50   81.80
