!  American Technical Ceramics  Date:     3/6/98
!  One Norden Lane
!  Huntington Station,  NY.   11746-2102
!  Tel:  (516) 547-5700               Fax:  (516) 547-5748
!  Part Number  500S6R2
!  Description: Broadband Microwave capacitor
!  Application:
!
# GHZ S DB R 50
! Freq   |S11|   S11 Ph  |S21|   S21 Ph  |S12|   S12 Ph  |S22|   S22 Ph
    0.05   -0.17  -10.73  -14.50   78.95  -14.50   78.95   -0.17  -10.73
    0.18   -1.70  -35.00   -4.87   55.39   -4.87   55.39   -1.70  -35.00
    0.31   -3.86  -50.44   -2.26   39.81   -2.26   39.81   -3.86  -50.44
    0.45   -5.90  -60.29   -1.24   30.44   -1.24   30.44   -5.90  -60.29
    0.58   -7.83  -66.28   -0.80   23.88   -0.80   23.88   -7.83  -66.28
    0.71   -9.43  -70.10   -0.58   19.68   -0.58   19.68   -9.43  -70.10
    0.84  -10.76  -73.89   -0.43   16.80   -0.43   16.80  -10.76  -73.89
    0.98  -11.86  -75.00   -0.30   14.44   -0.30   14.44  -11.86  -75.00
    1.11  -12.98  -77.43   -0.24   12.85   -0.24   12.85  -12.98  -77.43
    1.24  -13.98  -78.46   -0.19   11.61   -0.19   11.61  -13.98  -78.46
    1.37  -14.75  -79.53   -0.15   10.27   -0.15   10.27  -14.75  -79.53
    1.50  -15.62  -80.88   -0.14    9.38   -0.14    9.38  -15.62  -80.88
    1.64  -16.34  -80.57   -0.10    8.50   -0.10    8.50  -16.34  -80.57
    1.77  -17.09  -81.74   -0.09    7.73   -0.09    7.73  -17.09  -81.74
    1.90  -17.79  -81.93   -0.08    7.17   -0.08    7.17  -17.79  -81.93
    2.03  -18.41  -82.52   -0.08    6.62   -0.08    6.62  -18.41  -82.52
    2.17  -19.10  -82.41   -0.07    6.10   -0.07    6.10  -19.10  -82.41
    2.30  -19.66  -82.52   -0.06    5.63   -0.06    5.63  -19.66  -82.52
    2.43  -20.30  -83.29   -0.06    5.27   -0.06    5.27  -20.30  -83.29
    2.56  -20.93  -82.35   -0.05    4.86   -0.05    4.86  -20.93  -82.35
    2.70  -21.46  -83.30   -0.05    4.49   -0.05    4.49  -21.46  -83.30
    2.83  -22.02  -82.90   -0.06    4.21   -0.06    4.21  -22.02  -82.90
    2.96  -22.50  -82.23   -0.05    3.89   -0.05    3.89  -22.50  -82.23
    3.09  -23.10  -82.65   -0.06    3.63   -0.06    3.63  -23.10  -82.65
    3.22  -23.49  -81.59   -0.06    3.35   -0.06    3.35  -23.49  -81.59
    3.36  -23.89  -82.22   -0.06    3.13   -0.06    3.13  -23.89  -82.22
    3.49  -24.18  -81.33   -0.06    2.92   -0.06    2.92  -24.18  -81.33
    3.62  -24.41  -81.23   -0.07    2.69   -0.07    2.69  -24.41  -81.23
    3.75  -24.68  -81.64   -0.07    2.49   -0.07    2.49  -24.68  -81.64
    3.89  -24.64  -81.36   -0.07    2.26   -0.07    2.26  -24.64  -81.36
    4.02  -25.18  -80.86   -0.06    2.15   -0.06    2.15  -25.18  -80.86
    4.15  -25.30  -80.54   -0.06    1.97   -0.06    1.97  -25.30  -80.54
    4.28  -25.30  -80.87   -0.07    1.84   -0.07    1.84  -25.30  -80.87
    4.41  -25.47  -80.91   -0.08    1.66   -0.08    1.66  -25.47  -80.91
    4.55  -25.43  -81.28   -0.08    1.53   -0.08    1.53  -25.43  -81.28
    4.68  -25.50  -81.99   -0.09    1.39   -0.09    1.39  -25.50  -81.99
    4.81  -25.39  -81.55   -0.09    1.30   -0.09    1.30  -25.39  -81.55
    4.94  -25.38  -81.64   -0.09    1.19   -0.09    1.19  -25.38  -81.64
    5.08  -25.40  -81.03   -0.10    1.11   -0.10    1.11  -25.40  -81.03
    5.21  -25.25  -81.94   -0.10    0.98   -0.10    0.98  -25.25  -81.94
    5.34  -25.25  -82.37   -0.10    0.89   -0.10    0.89  -25.25  -82.37
    5.47  -25.18  -81.72   -0.10    0.79   -0.10    0.79  -25.18  -81.72
    5.60  -25.22  -82.68   -0.11    0.70   -0.11    0.70  -25.22  -82.68
    5.74  -25.30  -82.56   -0.11    0.63   -0.11    0.63  -25.30  -82.56
    5.87  -25.49  -82.43   -0.11    0.53   -0.11    0.53  -25.49  -82.43
    6.00  -25.66  -83.13   -0.12    0.42   -0.12    0.42  -25.66  -83.13
    6.13  -25.77  -82.21   -0.12    0.37   -0.12    0.37  -25.77  -82.21
    6.27  -26.16  -81.89   -0.12    0.34   -0.12    0.34  -26.16  -81.89
    6.40  -26.52  -82.02   -0.13    0.25   -0.13    0.25  -26.52  -82.02
    6.53  -27.08  -81.35   -0.14    0.19   -0.14    0.19  -27.08  -81.35
    6.66  -27.66  -79.77   -0.14    0.11   -0.14    0.11  -27.66  -79.77
    6.79  -28.16  -77.35   -0.15    0.01   -0.15    0.01  -28.16  -77.35
    6.93  -28.81  -73.65   -0.16    0.02   -0.16    0.02  -28.81  -73.65
    7.06  -29.38  -69.83   -0.16    0.00   -0.16    0.00  -29.38  -69.83
    7.19  -29.96  -67.09   -0.18   -0.10   -0.18   -0.10  -29.96  -67.09
    7.32  -30.60  -60.60   -0.19   -0.12   -0.19   -0.12  -30.60  -60.60
    7.46  -31.06  -52.88   -0.20   -0.12   -0.20   -0.12  -31.06  -52.88
    7.59  -31.12  -47.60   -0.22   -0.09   -0.22   -0.09  -31.12  -47.60
    7.72  -31.31  -41.11   -0.22   -0.03   -0.22   -0.03  -31.31  -41.11
    7.85  -31.81  -36.50   -0.22    0.00   -0.22    0.00  -31.81  -36.50
    7.99  -32.07  -29.85   -0.22    0.00   -0.22    0.00  -32.07  -29.85
    8.12  -32.33  -20.80   -0.22    0.00   -0.22    0.00  -32.33  -20.80
    8.25  -32.58  -12.84   -0.22    0.02   -0.22    0.02  -32.58  -12.84
    8.38  -32.41   -4.52   -0.23   -0.04   -0.23   -0.04  -32.41   -4.52
    8.51  -32.39    3.28   -0.23    0.03   -0.23    0.03  -32.39    3.28
    8.65  -32.30   11.31   -0.23    0.02   -0.23    0.02  -32.30   11.31
    8.78  -31.80   19.82   -0.23   -0.02   -0.23   -0.02  -31.80   19.82
    8.91  -31.11   26.62   -0.23   -0.04   -0.23   -0.04  -31.11   26.62
    9.04  -30.59   30.41   -0.25   -0.06   -0.25   -0.06  -30.59   30.41
    9.18  -30.29   32.80   -0.25   -0.01   -0.25   -0.01  -30.29   32.80
    9.31  -30.10   34.93   -0.26    0.06   -0.26    0.06  -30.10   34.93
    9.44  -30.41   37.64   -0.25    0.13   -0.25    0.13  -30.41   37.64
    9.57  -30.08   40.79   -0.26    0.15   -0.26    0.15  -30.08   40.79
    9.70  -30.50   42.74   -0.25    0.24   -0.25    0.24  -30.50   42.74
    9.84  -30.84   44.70   -0.24    0.28   -0.24    0.28  -30.84   44.70
    9.97  -30.93   48.75   -0.23    0.28   -0.23    0.28  -30.93   48.75
   10.10  -31.67   47.85   -0.23    0.40   -0.23    0.40  -31.67   47.85
   10.23  -32.50   51.99   -0.22    0.45   -0.22    0.45  -32.50   51.99
   10.37  -33.27   55.23   -0.20    0.46   -0.20    0.46  -33.27   55.23
   10.50  -34.09   58.93   -0.19    0.46   -0.19    0.46  -34.09   58.93
   10.63  -34.88   63.81   -0.18    0.44   -0.18    0.44  -34.88   63.81
   10.76  -36.03   66.47   -0.17    0.42   -0.17    0.42  -36.03   66.47
   10.89  -36.75   69.34   -0.17    0.38   -0.17    0.38  -36.75   69.34
   11.03  -38.18   69.64   -0.16    0.40   -0.16    0.40  -38.18   69.64
   11.16  -40.17   71.47   -0.16    0.36   -0.16    0.36  -40.17   71.47
   11.29  -42.12   69.24   -0.15    0.35   -0.15    0.35  -42.12   69.24
   11.42  -45.80   62.11   -0.14    0.28   -0.14    0.28  -45.80   62.11
   11.56  -51.22   53.63   -0.14    0.29   -0.14    0.29  -51.22   53.63
   11.69  -54.15   21.47   -0.13    0.23   -0.13    0.23  -54.15   21.47
   11.82  -52.42  -27.96   -0.13    0.19   -0.13    0.19  -52.42  -27.96
   11.95  -49.40  -52.73   -0.12    0.13   -0.12    0.13  -49.40  -52.73
   12.08  -47.39  -52.97   -0.12    0.10   -0.12    0.10  -47.39  -52.97
   12.22  -45.23  -50.20   -0.12    0.04   -0.12    0.04  -45.23  -50.20
   12.35  -44.19  -52.59   -0.12   -0.02   -0.12   -0.02  -44.19  -52.59
   12.48  -42.95  -38.12   -0.12   -0.07   -0.12   -0.07  -42.95  -38.12
   12.61  -43.51  -29.26   -0.11   -0.14   -0.11   -0.14  -43.51  -29.26
   12.75  -42.46  -24.24   -0.11   -0.24   -0.11   -0.24  -42.46  -24.24
   12.88  -41.71  -11.42   -0.12   -0.29   -0.12   -0.29  -41.71  -11.42
   13.01  -41.40    2.67   -0.12   -0.25   -0.12   -0.25  -41.40    2.67
   13.14  -40.38   17.40   -0.12   -0.32   -0.12   -0.32  -40.38   17.40
   13.28  -38.36   35.10   -0.12   -0.38   -0.12   -0.38  -38.36   35.10
   13.41  -36.54   45.70   -0.12   -0.45   -0.12   -0.45  -36.54   45.70
   13.54  -34.60   55.50   -0.12   -0.54   -0.12   -0.54  -34.60   55.50
   13.67  -32.51   61.60   -0.12   -0.63   -0.12   -0.63  -32.51   61.60
   13.80  -30.80   66.16   -0.13   -0.74   -0.13   -0.74  -30.80   66.16
   13.94  -29.12   70.61   -0.13   -0.79   -0.13   -0.79  -29.12   70.61
   14.07  -27.49   73.89   -0.14   -0.78   -0.14   -0.78  -27.49   73.89
   14.20  -26.25   75.44   -0.14   -0.93   -0.14   -0.93  -26.25   75.44
   14.33  -24.98   77.13   -0.14   -1.08   -0.14   -1.08  -24.98   77.13
   14.47  -23.98   78.65   -0.15   -1.13   -0.15   -1.13  -23.98   78.65
   14.60  -23.02   79.40   -0.15   -1.34   -0.15   -1.34  -23.02   79.40
   14.73  -22.06   80.74   -0.16   -1.42   -0.16   -1.42  -22.06   80.74
   14.86  -21.39   80.92   -0.19   -1.55   -0.19   -1.55  -21.39   80.92
   14.99  -20.77   81.49   -0.20   -1.62   -0.20   -1.62  -20.77   81.49
   15.13  -20.19   81.93   -0.20   -1.73   -0.20   -1.73  -20.19   81.93
   15.26  -19.80   81.82   -0.23   -1.74   -0.23   -1.74  -19.80   81.82
   15.39  -19.28   83.53   -0.23   -1.82   -0.23   -1.82  -19.28   83.53
   15.52  -18.89   84.38   -0.22   -1.83   -0.22   -1.83  -18.89   84.38
   15.66  -18.55   84.44   -0.25   -1.92   -0.25   -1.92  -18.55   84.44
   15.79  -18.23   84.49   -0.25   -1.94   -0.25   -1.94  -18.23   84.49
   15.92  -17.87   85.22   -0.24   -2.05   -0.24   -2.05  -17.87   85.22
   16.05  -17.67   84.89   -0.27   -2.14   -0.27   -2.14  -17.67   84.89
   16.18  -17.55   84.06   -0.27   -2.21   -0.27   -2.21  -17.55   84.06
   16.32  -17.46   84.30   -0.27   -2.26   -0.27   -2.26  -17.46   84.30
   16.45  -17.39   83.69   -0.28   -2.44   -0.28   -2.44  -17.39   83.69
   16.58  -17.33   83.99   -0.28   -2.50   -0.28   -2.50  -17.33   83.99
   16.71  -17.41   83.81   -0.28   -2.53   -0.28   -2.53  -17.41   83.81
   16.85  -17.36   82.29   -0.29   -2.74   -0.29   -2.74  -17.36   82.29
   16.98  -17.35   83.67   -0.27   -2.94   -0.27   -2.94  -17.35   83.67
   17.11  -17.53   82.39   -0.29   -3.10   -0.29   -3.10  -17.53   82.39
   17.24  -17.39   82.00   -0.33   -3.35   -0.33   -3.35  -17.39   82.00
   17.37  -17.55   82.26   -0.31   -3.67   -0.31   -3.67  -17.55   82.26
   17.51  -17.47   81.22   -0.31   -3.97   -0.31   -3.97  -17.47   81.22
   17.64  -17.25   80.40   -0.36   -4.28   -0.36   -4.28  -17.25   80.40
   17.77  -17.23   80.10   -0.34   -4.71   -0.34   -4.71  -17.23   80.10
   17.90  -17.05   79.78   -0.36   -5.33   -0.36   -5.33  -17.05   79.78
   18.04  -16.72   77.47   -0.40   -5.62   -0.40   -5.62  -16.72   77.47
   18.17  -16.32   76.80   -0.43   -6.30   -0.43   -6.30  -16.32   76.80
   18.30  -15.95   75.54   -0.46   -6.98   -0.46   -6.98  -15.95   75.54
   18.43  -15.35   73.84   -0.52   -7.63   -0.52   -7.63  -15.35   73.84
   18.57  -14.73   72.18   -0.58   -8.41   -0.58   -8.41  -14.73   72.18
   18.70  -14.15   70.03   -0.65   -9.47   -0.65   -9.47  -14.15   70.03
   18.83  -13.38   68.07   -0.75  -10.47   -0.75  -10.47  -13.38   68.07
   18.96  -12.47   65.68   -0.86  -11.49   -0.86  -11.49  -12.47   65.68
   19.09  -11.63   62.66   -1.01  -12.89   -1.01  -12.89  -11.63   62.66
   19.23  -10.71   60.34   -1.21  -14.37   -1.21  -14.37  -10.71   60.34
   19.36   -9.80   56.56   -1.45  -16.02   -1.45  -16.02   -9.80   56.56
   19.49   -8.73   52.27   -1.76  -17.94   -1.76  -17.94   -8.73   52.27
   19.62   -7.92   48.81   -2.25  -19.87   -2.25  -19.87   -7.92   48.81
   19.76   -7.12   43.32   -2.89  -21.85   -2.89  -21.85   -7.12   43.32
   19.89   -6.09   37.18   -3.65  -23.27   -3.65  -23.27   -6.09   37.18
   20.02   -5.42   30.88   -4.81  -23.76   -4.81  -23.76   -5.42   30.88
   20.15   -4.83   23.54   -6.28  -21.68   -6.28  -21.68   -4.83   23.54
   20.28   -4.33   15.12   -7.87  -14.60   -7.87  -14.60   -4.33   15.12
   20.42   -4.20    6.11   -8.96   -0.79   -8.96   -0.79   -4.20    6.11
   20.55   -4.40   -2.55   -8.68   16.05   -8.68   16.05   -4.40   -2.55
   20.68   -4.67  -10.64   -7.25   27.31   -7.25   27.31   -4.67  -10.64
   20.81   -5.23  -18.91   -5.75   31.74   -5.75   31.74   -5.23  -18.91
   20.95   -6.11  -25.76   -4.44   32.90   -4.44   32.90   -6.11  -25.76
   21.08   -6.92  -31.41   -3.44   31.62   -3.44   31.62   -6.92  -31.41
   21.21   -7.95  -37.19   -2.78   29.99   -2.78   29.99   -7.95  -37.19
   21.34   -8.91  -42.16   -2.31   28.16   -2.31   28.16   -8.91  -42.16
   21.47   -9.95  -45.26   -1.86   26.10   -1.86   26.10   -9.95  -45.26
   21.61  -11.02  -50.39   -1.59   24.52   -1.59   24.52  -11.02  -50.39
   21.74  -12.01  -54.27   -1.38   23.14   -1.38   23.14  -12.01  -54.27
   21.87  -13.20  -57.42   -1.18   21.58   -1.18   21.58  -13.20  -57.42
   22.00  -14.17  -61.46   -1.06   20.38   -1.06   20.38  -14.17  -61.46
   22.14  -15.04  -64.53   -0.98   19.36   -0.98   19.36  -15.04  -64.53
   22.27  -16.05  -67.14   -0.91   18.17   -0.91   18.17  -16.05  -67.14
   22.40  -16.91  -70.87   -0.84   17.39   -0.84   17.39  -16.91  -70.87
   22.53  -17.60  -73.76   -0.81   16.82   -0.81   16.82  -17.60  -73.76
   22.66  -18.26  -75.84   -0.79   16.20   -0.79   16.20  -18.26  -75.84
   22.80  -18.83  -78.33   -0.76   15.67   -0.76   15.67  -18.83  -78.33
   22.93  -19.29  -80.16   -0.75   15.23   -0.75   15.23  -19.29  -80.16
   23.06  -19.53  -79.98   -0.74   14.88   -0.74   14.88  -19.53  -79.98
   23.19  -19.94  -80.51   -0.71   14.50   -0.71   14.50  -19.94  -80.51
   23.33  -19.99  -80.43   -0.69   14.17   -0.69   14.17  -19.99  -80.43
   23.46  -20.13  -79.04   -0.68   13.82   -0.68   13.82  -20.13  -79.04
   23.59  -20.19  -78.96   -0.69   13.62   -0.69   13.62  -20.19  -78.96
   23.72  -20.35  -78.50   -0.69   13.35   -0.69   13.35  -20.35  -78.50
   23.86  -20.79  -78.11   -0.70   13.17   -0.70   13.17  -20.79  -78.11
   23.99  -21.18  -76.27   -0.69   13.12   -0.69   13.12  -21.18  -76.27
   24.12  -21.56  -74.02   -0.69   12.95   -0.69   12.95  -21.56  -74.02
   24.25  -22.21  -71.03   -0.69   12.92   -0.69   12.92  -22.21  -71.03
   24.38  -22.95  -69.93   -0.68   12.79   -0.68   12.79  -22.95  -69.93
   24.52  -23.62  -67.08   -0.66   12.68   -0.66   12.68  -23.62  -67.08
   24.65  -24.90  -62.75   -0.65   12.68   -0.65   12.68  -24.90  -62.75
   24.78  -26.51  -58.79   -0.63   12.61   -0.63   12.61  -26.51  -58.79
   24.91  -28.73  -54.83   -0.62   12.54   -0.62   12.54  -28.73  -54.83
   25.05  -31.75  -39.17   -0.60   12.56   -0.60   12.56  -31.75  -39.17
   25.18  -35.27   -7.37   -0.58   12.58   -0.58   12.58  -35.27   -7.37
   25.31  -36.23   32.63   -0.57   12.37   -0.57   12.37  -36.23   32.63
   25.44  -33.63   65.22   -0.55   12.31   -0.55   12.31  -33.63   65.22
   25.57  -29.79   82.65   -0.52   12.28   -0.52   12.28  -29.79   82.65
   25.71  -26.73   93.58   -0.51   11.99   -0.51   11.99  -26.73   93.58
   25.84  -24.93  101.97   -0.50   11.73   -0.50   11.73  -24.93  101.97
   25.97  -22.99  112.11   -0.49   11.57   -0.49   11.57  -22.99  112.11
   26.10  -21.75  118.71   -0.51   11.28   -0.51   11.28  -21.75  118.71
   26.24  -20.40  123.19   -0.53   10.97   -0.53   10.97  -20.40  123.19
   26.37  -19.42  128.98   -0.54   10.91   -0.54   10.91  -19.42  128.98
   26.50  -18.48  135.21   -0.58   10.76   -0.58   10.76  -18.48  135.21
