!  American Technical Ceramics  Date:     3/6/98
!  One Norden Lane
!  Huntington Station,  NY.   11746-2102
!  Tel:  (516) 547-5700               Fax:  (516) 547-5748
!  Part Number  500S2R7
!  Description: Broadband Microwave capacitor
!  Application:
!
# GHZ S DB R 50
! Freq   |S11|   S11 Ph  |S21|   S21 Ph  |S12|   S12 Ph  |S22|   S22 Ph
    0.05   -0.06   -4.89  -21.70   86.09  -21.70   86.09   -0.06   -4.89
    0.18   -0.37  -16.81  -10.87   73.52  -10.87   73.52   -0.37  -16.81
    0.31   -1.00  -27.51   -6.73   62.64   -6.73   62.64   -1.00  -27.51
    0.45   -1.84  -36.65   -4.53   53.96   -4.53   53.96   -1.84  -36.65
    0.58   -2.88  -44.31   -3.20   45.75   -3.20   45.75   -2.88  -44.31
    0.71   -3.90  -50.02   -2.41   39.55   -2.41   39.55   -3.90  -50.02
    0.84   -4.82  -55.43   -1.85   35.03   -1.85   35.03   -4.82  -55.43
    0.98   -5.60  -58.26   -1.41   30.95   -1.41   30.95   -5.60  -58.26
    1.11   -6.51  -61.96   -1.15   28.15   -1.15   28.15   -6.51  -61.96
    1.24   -7.34  -64.07   -0.93   25.76   -0.93   25.76   -7.34  -64.07
    1.37   -7.98  -66.54   -0.77   23.12   -0.77   23.12   -7.98  -66.54
    1.50   -8.74  -68.81   -0.65   21.39   -0.65   21.39   -8.74  -68.81
    1.64   -9.34  -69.60   -0.54   19.52   -0.54   19.52   -9.34  -69.60
    1.77  -10.01  -71.72   -0.46   18.02   -0.46   18.02  -10.01  -71.72
    1.90  -10.61  -72.60   -0.41   16.81   -0.41   16.81  -10.61  -72.60
    2.03  -11.14  -74.02   -0.37   15.60   -0.37   15.60  -11.14  -74.02
    2.17  -11.77  -74.88   -0.32   14.53   -0.32   14.53  -11.77  -74.88
    2.30  -12.25  -75.47   -0.29   13.56   -0.29   13.56  -12.25  -75.47
    2.43  -12.80  -76.94   -0.26   12.78   -0.26   12.78  -12.80  -76.94
    2.56  -13.35  -76.74   -0.22   11.87   -0.22   11.87  -13.35  -76.74
    2.70  -13.82  -78.19   -0.21   11.12   -0.21   11.12  -13.82  -78.19
    2.83  -14.30  -78.44   -0.20   10.52   -0.20   10.52  -14.30  -78.44
    2.96  -14.72  -78.40   -0.19    9.79   -0.19    9.79  -14.72  -78.40
    3.09  -15.28  -79.22   -0.18    9.22   -0.18    9.22  -15.28  -79.22
    3.22  -15.67  -78.73   -0.17    8.62   -0.17    8.62  -15.67  -78.73
    3.36  -16.07  -79.72   -0.17    8.11   -0.17    8.11  -16.07  -79.72
    3.49  -16.43  -79.12   -0.16    7.69   -0.16    7.69  -16.43  -79.12
    3.62  -16.76  -79.13   -0.16    7.19   -0.16    7.19  -16.76  -79.13
    3.75  -17.20  -79.49   -0.16    6.74   -0.16    6.74  -17.20  -79.49
    3.89  -17.40  -79.21   -0.15    6.25   -0.15    6.25  -17.40  -79.21
    4.02  -17.77  -80.49   -0.12    6.03   -0.12    6.03  -17.77  -80.49
    4.15  -18.05  -80.08   -0.12    5.65   -0.12    5.65  -18.05  -80.08
    4.28  -18.25  -80.45   -0.12    5.31   -0.12    5.31  -18.25  -80.45
    4.41  -18.61  -80.51   -0.13    4.97   -0.13    4.97  -18.61  -80.51
    4.55  -18.79  -80.70   -0.13    4.66   -0.13    4.66  -18.79  -80.70
    4.68  -19.05  -81.40   -0.13    4.37   -0.13    4.37  -19.05  -81.40
    4.81  -19.15  -81.02   -0.13    4.16   -0.13    4.16  -19.15  -81.02
    4.94  -19.33  -81.25   -0.13    3.96   -0.13    3.96  -19.33  -81.25
    5.08  -19.54  -80.93   -0.14    3.75   -0.14    3.75  -19.54  -80.93
    5.21  -19.57  -81.86   -0.14    3.46   -0.14    3.46  -19.57  -81.86
    5.34  -19.72  -82.43   -0.13    3.29   -0.13    3.29  -19.72  -82.43
    5.47  -19.78  -81.98   -0.13    3.03   -0.13    3.03  -19.78  -81.98
    5.60  -19.93  -83.13   -0.14    2.86   -0.14    2.86  -19.93  -83.13
    5.74  -20.07  -82.97   -0.13    2.73   -0.13    2.73  -20.07  -82.97
    5.87  -20.26  -83.10   -0.14    2.51   -0.14    2.51  -20.26  -83.10
    6.00  -20.45  -84.09   -0.15    2.30   -0.15    2.30  -20.45  -84.09
    6.13  -20.54  -83.42   -0.14    2.16   -0.14    2.16  -20.54  -83.42
    6.27  -20.87  -83.10   -0.14    2.04   -0.14    2.04  -20.87  -83.10
    6.40  -21.18  -83.35   -0.15    1.84   -0.15    1.84  -21.18  -83.35
    6.53  -21.60  -83.07   -0.16    1.74   -0.16    1.74  -21.60  -83.07
    6.66  -22.05  -82.09   -0.16    1.57   -0.16    1.57  -22.05  -82.09
    6.79  -22.41  -81.17   -0.17    1.35   -0.17    1.35  -22.41  -81.17
    6.93  -23.00  -79.22   -0.18    1.32   -0.18    1.32  -23.00  -79.22
    7.06  -23.49  -76.80   -0.17    1.21   -0.17    1.21  -23.49  -76.80
    7.19  -24.01  -76.40   -0.19    1.03   -0.19    1.03  -24.01  -76.40
    7.32  -24.60  -73.41   -0.20    0.97   -0.20    0.97  -24.60  -73.41
    7.46  -25.25  -69.86   -0.21    0.87   -0.21    0.87  -25.25  -69.86
    7.59  -25.59  -67.54   -0.23    0.79   -0.23    0.79  -25.59  -67.54
    7.72  -26.11  -64.26   -0.23    0.81   -0.23    0.81  -26.11  -64.26
    7.85  -26.82  -62.77   -0.22    0.78   -0.22    0.78  -26.82  -62.77
    7.99  -27.33  -60.52   -0.23    0.69   -0.23    0.69  -27.33  -60.52
    8.12  -28.17  -56.83   -0.22    0.61   -0.22    0.61  -28.17  -56.83
    8.25  -29.00  -53.24   -0.22    0.56   -0.22    0.56  -29.00  -53.24
    8.38  -29.59  -48.73   -0.23    0.44   -0.23    0.44  -29.59  -48.73
    8.51  -30.54  -44.45   -0.23    0.43   -0.23    0.43  -30.54  -44.45
    8.65  -31.26  -39.26   -0.22    0.38   -0.22    0.38  -31.26  -39.26
    8.78  -32.08  -30.72   -0.22    0.23   -0.22    0.23  -32.08  -30.72
    8.91  -32.44  -20.31   -0.23    0.09   -0.23    0.09  -32.44  -20.31
    9.04  -32.30  -13.24   -0.24    0.03   -0.24    0.03  -32.30  -13.24
    9.18  -32.35   -7.72   -0.24    0.01   -0.24    0.01  -32.35   -7.72
    9.31  -32.14   -2.24   -0.25    0.01   -0.25    0.01  -32.14   -2.24
    9.44  -32.53   -0.16   -0.24    0.00   -0.24    0.00  -32.53   -0.16
    9.57  -32.37    7.20   -0.24   -0.07   -0.24   -0.07  -32.37    7.20
    9.70  -32.66   10.47   -0.23   -0.08   -0.23   -0.08  -32.66   10.47
    9.84  -33.02   14.40   -0.22   -0.09   -0.22   -0.09  -33.02   14.40
    9.97  -33.08   20.76   -0.22   -0.13   -0.22   -0.13  -33.08   20.76
   10.10  -33.50   21.25   -0.22   -0.11   -0.22   -0.11  -33.50   21.25
   10.23  -34.37   26.36   -0.20   -0.14   -0.20   -0.14  -34.37   26.36
   10.37  -35.03   31.78   -0.19   -0.16   -0.19   -0.16  -35.03   31.78
   10.50  -35.81   38.45   -0.18   -0.23   -0.18   -0.23  -35.81   38.45
   10.63  -36.58   46.48   -0.17   -0.32   -0.17   -0.32  -36.58   46.48
   10.76  -37.41   53.01   -0.16   -0.40   -0.16   -0.40  -37.41   53.01
   10.89  -37.81   60.41   -0.15   -0.48   -0.15   -0.48  -37.81   60.41
   11.03  -38.86   64.65   -0.15   -0.56   -0.15   -0.56  -38.86   64.65
   11.16  -40.46   69.87   -0.14   -0.66   -0.14   -0.66  -40.46   69.87
   11.29  -42.13   73.98   -0.14   -0.73   -0.14   -0.73  -42.13   73.98
   11.42  -44.98   77.81   -0.13   -0.83   -0.13   -0.83  -44.98   77.81
   11.56  -49.31   92.20   -0.13   -0.89   -0.13   -0.89  -49.31   92.20
   11.69  -56.41  102.68   -0.13   -1.02   -0.13   -1.02  -56.41  102.68
   11.82  -68.34  126.15   -0.12   -1.12   -0.12   -1.12  -68.34  126.15
   11.95  -58.68 -101.83   -0.11   -1.19   -0.11   -1.19  -58.68 -101.83
   12.08  -53.20  -80.76   -0.11   -1.29   -0.11   -1.29  -53.20  -80.76
   12.22  -49.93  -60.17   -0.11   -1.43   -0.11   -1.43  -49.93  -60.17
   12.35  -48.98  -51.04   -0.11   -1.52   -0.11   -1.52  -48.98  -51.04
   12.48  -46.00  -26.06   -0.11   -1.65   -0.11   -1.65  -46.00  -26.06
   12.61  -45.15   -7.69   -0.10   -1.76   -0.10   -1.76  -45.15   -7.69
   12.75  -43.17    3.73   -0.11   -1.90   -0.11   -1.90  -43.17    3.73
   12.88  -41.11   20.61   -0.11   -2.03   -0.11   -2.03  -41.11   20.61
   13.01  -39.39   30.86   -0.11   -2.05   -0.11   -2.05  -39.39   30.86
   13.14  -37.28   40.25   -0.11   -2.16   -0.11   -2.16  -37.28   40.25
   13.28  -34.90   53.25   -0.11   -2.26   -0.11   -2.26  -34.90   53.25
   13.41  -33.02   58.04   -0.11   -2.41   -0.11   -2.41  -33.02   58.04
   13.54  -31.41   64.32   -0.11   -2.55   -0.11   -2.55  -31.41   64.32
   13.67  -29.63   68.50   -0.12   -2.70   -0.12   -2.70  -29.63   68.50
   13.80  -28.10   71.38   -0.12   -2.87   -0.12   -2.87  -28.10   71.38
   13.94  -26.71   74.41   -0.13   -3.01   -0.13   -3.01  -26.71   74.41
   14.07  -25.36   77.19   -0.13   -3.08   -0.13   -3.08  -25.36   77.19
   14.20  -24.28   78.23   -0.14   -3.25   -0.14   -3.25  -24.28   78.23
   14.33  -23.18   79.37   -0.14   -3.41   -0.14   -3.41  -23.18   79.37
   14.47  -22.35   80.52   -0.15   -3.58   -0.15   -3.58  -22.35   80.52
   14.60  -21.49   80.78   -0.15   -3.84   -0.15   -3.84  -21.49   80.78
   14.73  -20.64   81.71   -0.16   -4.01   -0.16   -4.01  -20.64   81.71
   14.86  -20.09   81.62   -0.19   -4.16   -0.19   -4.16  -20.09   81.62
   14.99  -19.53   81.65   -0.20   -4.33   -0.20   -4.33  -19.53   81.65
   15.13  -19.02   81.83   -0.21   -4.49   -0.21   -4.49  -19.02   81.83
   15.26  -18.61   81.17   -0.23   -4.59   -0.23   -4.59  -18.61   81.17
   15.39  -18.08   82.23   -0.24   -4.71   -0.24   -4.71  -18.08   82.23
   15.52  -17.72   82.83   -0.24   -4.76   -0.24   -4.76  -17.72   82.83
   15.66  -17.32   82.63   -0.26   -4.92   -0.26   -4.92  -17.32   82.63
   15.79  -16.96   82.20   -0.27   -4.97   -0.27   -4.97  -16.96   82.20
   15.92  -16.55   82.48   -0.26   -5.13   -0.26   -5.13  -16.55   82.48
   16.05  -16.30   82.38   -0.28   -5.27   -0.28   -5.27  -16.30   82.38
   16.18  -16.08   81.26   -0.29   -5.37   -0.29   -5.37  -16.08   81.26
   16.32  -15.93   81.56   -0.30   -5.46   -0.30   -5.46  -15.93   81.56
   16.45  -15.81   81.19   -0.30   -5.67   -0.30   -5.67  -15.81   81.19
   16.58  -15.63   81.59   -0.31   -5.81   -0.31   -5.81  -15.63   81.59
   16.71  -15.68   81.46   -0.31   -5.90   -0.31   -5.90  -15.68   81.46
   16.85  -15.53   80.24   -0.32   -6.18   -0.32   -6.18  -15.53   80.24
   16.98  -15.48   81.75   -0.29   -6.47   -0.29   -6.47  -15.48   81.75
   17.11  -15.58   80.89   -0.32   -6.65   -0.32   -6.65  -15.58   80.89
   17.24  -15.44   80.59   -0.35   -6.95   -0.35   -6.95  -15.44   80.59
   17.37  -15.56   80.90   -0.33   -7.36   -0.33   -7.36  -15.56   80.90
   17.51  -15.48   80.06   -0.34   -7.75   -0.34   -7.75  -15.48   80.06
   17.64  -15.24   79.34   -0.40   -8.15   -0.40   -8.15  -15.24   79.34
   17.77  -15.24   78.91   -0.37   -8.67   -0.37   -8.67  -15.24   78.91
   17.90  -15.10   78.33   -0.40   -9.47   -0.40   -9.47  -15.10   78.33
   18.04  -14.77   76.07   -0.45   -9.83   -0.45   -9.83  -14.77   76.07
   18.17  -14.40   74.76   -0.49  -10.65   -0.49  -10.65  -14.40   74.76
   18.30  -14.05   72.98   -0.52  -11.46   -0.52  -11.46  -14.05   72.98
   18.43  -13.47   71.00   -0.61  -12.25   -0.61  -12.25  -13.47   71.00
   18.57  -12.85   69.13   -0.67  -13.16   -0.67  -13.16  -12.85   69.13
   18.70  -12.35   66.58   -0.76  -14.42   -0.76  -14.42  -12.35   66.58
   18.83  -11.62   64.19   -0.90  -15.64   -0.90  -15.64  -11.62   64.19
   18.96  -10.74   61.46   -1.04  -16.80   -1.04  -16.80  -10.74   61.46
   19.09   -9.95   58.11   -1.23  -18.36   -1.23  -18.36   -9.95   58.11
   19.23   -9.10   55.62   -1.49  -20.09   -1.49  -20.09   -9.10   55.62
   19.36   -8.27   51.33   -1.81  -21.97   -1.81  -21.97   -8.27   51.33
   19.49   -7.27   46.71   -2.21  -24.02   -2.21  -24.02   -7.27   46.71
   19.62   -6.58   42.76   -2.85  -25.96   -2.85  -25.96   -6.58   42.76
   19.76   -5.88   36.69   -3.67  -27.77   -3.67  -27.77   -5.88   36.69
   19.89   -5.02   29.93   -4.66  -28.48   -4.66  -28.48   -5.02   29.93
   20.02   -4.53   22.90   -6.11  -27.22   -6.11  -27.22   -4.53   22.90
   20.15   -4.16   14.95   -7.82  -21.40   -7.82  -21.40   -4.16   14.95
   20.28   -3.91    6.05   -9.15   -8.60   -9.15   -8.60   -3.91    6.05
   20.42   -4.06   -3.03   -9.18    8.67   -9.18    8.67   -4.06   -3.03
   20.55   -4.51  -11.52   -7.91   22.13   -7.91   22.13   -4.51  -11.52
   20.68   -4.99  -19.32   -6.25   28.32   -6.25   28.32   -4.99  -19.32
   20.81   -5.73  -27.10   -4.89   29.66   -4.89   29.66   -5.73  -27.10
   20.95   -6.75  -33.39   -3.78   29.14   -3.78   29.14   -6.75  -33.39
   21.08   -7.67  -38.69   -2.95   27.13   -2.95   27.13   -7.67  -38.69
   21.21   -8.78  -43.98   -2.41   25.14   -2.41   25.14   -8.78  -43.98
   21.34   -9.85  -48.42   -2.02   23.17   -2.02   23.17   -9.85  -48.42
   21.47  -11.00  -50.95   -1.65   21.06   -1.65   21.06  -11.00  -50.95
   21.61  -12.17  -55.58   -1.42   19.49   -1.42   19.49  -12.17  -55.58
   21.74  -13.30  -59.24   -1.24   18.00   -1.24   18.00  -13.30  -59.24
   21.87  -14.70  -61.94   -1.06   16.45   -1.06   16.45  -14.70  -61.94
   22.00  -15.99  -65.50   -0.96   15.25   -0.96   15.25  -15.99  -65.50
   22.14  -17.20  -68.13   -0.90   14.15   -0.90   14.15  -17.20  -68.13
   22.27  -18.60  -71.04   -0.84   13.00   -0.84   13.00  -18.60  -71.04
   22.40  -19.90  -75.08   -0.78   12.13   -0.78   12.13  -19.90  -75.08
   22.53  -21.13  -78.84   -0.77   11.51   -0.77   11.51  -21.13  -78.84
   22.66  -22.36  -82.57   -0.75   10.89   -0.75   10.89  -22.36  -82.57
   22.80  -23.38  -87.70   -0.73   10.33   -0.73   10.33  -23.38  -87.70
   22.93  -24.41  -91.98   -0.72    9.88   -0.72    9.88  -24.41  -91.98
   23.06  -24.94  -94.40   -0.71    9.46   -0.71    9.46  -24.94  -94.40
   23.19  -25.76  -96.65   -0.69    9.08   -0.69    9.08  -25.76  -96.65
   23.33  -26.09  -98.64   -0.67    8.66   -0.67    8.66  -26.09  -98.64
   23.46  -26.25  -97.46   -0.66    8.24   -0.66    8.24  -26.25  -97.46
   23.59  -26.30  -98.30   -0.67    7.93   -0.67    7.93  -26.30  -98.30
   23.72  -26.76  -98.87   -0.68    7.63   -0.68    7.63  -26.76  -98.87
   23.86  -27.57  -99.65   -0.69    7.34   -0.69    7.34  -27.57  -99.65
   23.99  -28.43  -98.39   -0.69    7.12   -0.69    7.12  -28.43  -98.39
   24.12  -30.11  -94.24   -0.70    6.87   -0.70    6.87  -30.11  -94.24
   24.25  -32.32  -85.13   -0.70    6.77   -0.70    6.77  -32.32  -85.13
   24.38  -36.15  -80.07   -0.69    6.54   -0.69    6.54  -36.15  -80.07
   24.52  -40.95  -48.04   -0.68    6.25   -0.68    6.25  -40.95  -48.04
   24.65  -40.39   25.47   -0.68    6.13   -0.68    6.13  -40.39   25.47
   24.78  -34.07   55.13   -0.67    5.88   -0.67    5.88  -34.07   55.13
   24.91  -29.83   72.31   -0.67    5.66   -0.67    5.66  -29.83   72.31
   25.05  -26.05   76.23   -0.67    5.43   -0.67    5.43  -26.05   76.23
   25.18  -23.58   78.20   -0.66    5.17   -0.66    5.17  -23.58   78.20
   25.31  -21.89   83.97   -0.66    4.95   -0.66    4.95  -21.89   83.97
   25.44  -20.43   84.83   -0.66    4.59   -0.66    4.59  -20.43   84.83
   25.57  -18.93   87.51   -0.65    4.24   -0.65    4.24  -18.93   87.51
   25.71  -17.63   89.73   -0.66    3.78   -0.66    3.78  -17.63   89.73
   25.84  -16.63   92.98   -0.68    3.37   -0.68    3.37  -16.63   92.98
   25.97  -15.67   96.90   -0.69    2.99   -0.69    2.99  -15.67   96.90
   26.10  -14.98  100.68   -0.73    2.31   -0.73    2.31  -14.98  100.68
   26.24  -14.21  104.15   -0.79    1.86   -0.79    1.86  -14.21  104.15
   26.37  -13.69  107.27   -0.85    1.53   -0.85    1.53  -13.69  107.27
   26.50  -13.19  110.30   -0.93    1.02   -0.93    1.02  -13.19  110.30
