!  American Technical Ceramics  Date:    1/14/99
!  One Norden Lane
!  Huntington Station,  NY.   11746-2102
!  Tel:  (516) 547-5700               Fax:  (516) 547-5748
!  Part Number  700a0r7
!  Description: NPO, High Q, Temperature Stable
!  Application: Bypass, Coupling, Timing
!               Tuning, Blocking
# GHZ S DB R 50
! Freq   |S11|   S11 Ph  |S21|   S21 Ph  |S12|   S12 Ph  |S22|   S22 Ph
    0.05   -0.08   -2.00  -33.49   90.20  -33.49   90.20   -0.08   -2.00
    0.15   -0.08   -3.97  -23.81   86.14  -23.81   86.14   -0.08   -3.97
    0.25   -0.14   -6.47  -19.40   83.81  -19.40   83.81   -0.14   -6.47
    0.35   -0.16   -9.02  -16.53   81.64  -16.53   81.64   -0.16   -9.02
    0.45   -0.21  -11.30  -14.38   79.31  -14.38   79.31   -0.21  -11.30
    0.55   -0.30  -13.25  -12.60   75.58  -12.60   75.58   -0.30  -13.25
    0.65   -0.40  -15.71  -11.25   73.41  -11.25   73.41   -0.40  -15.71
    0.75   -0.62  -18.21  -10.18   71.59  -10.18   71.59   -0.62  -18.21
    0.85   -0.70  -21.69   -9.22   68.87   -9.22   68.87   -0.70  -21.69
    0.95   -0.75  -22.72   -8.32   66.90   -8.32   66.90   -0.75  -22.72
    1.05   -0.93  -24.82   -7.60   64.52   -7.60   64.52   -0.93  -24.82
    1.15   -1.03  -26.52   -6.91   62.71   -6.91   62.71   -1.03  -26.52
    1.25   -1.30  -28.82   -6.40   61.17   -6.40   61.17   -1.30  -28.82
    1.35   -1.44  -31.41   -5.90   58.87   -5.90   58.87   -1.44  -31.41
    1.45   -1.55  -33.07   -5.42   56.75   -5.42   56.75   -1.55  -33.07
    1.55   -1.70  -34.59   -4.97   54.87   -4.97   54.87   -1.70  -34.59
    1.65   -1.87  -36.18   -4.60   53.17   -4.60   53.17   -1.87  -36.18
    1.75   -2.14  -37.83   -4.28   51.99   -4.28   51.99   -2.14  -37.83
    1.85   -2.36  -40.02   -4.03   50.29   -4.03   50.29   -2.36  -40.02
    1.95   -2.51  -41.44   -3.72   48.45   -3.72   48.45   -2.51  -41.44
    2.05   -2.68  -42.78   -3.47   46.85   -3.47   46.85   -2.68  -42.78
    2.14   -2.89  -43.76   -3.22   45.38   -3.22   45.38   -2.89  -43.76
    2.24   -3.13  -45.38   -3.02   44.31   -3.02   44.31   -3.13  -45.38
    2.34   -3.37  -47.12   -2.82   42.93   -2.82   42.93   -3.37  -47.12
    2.44   -3.56  -48.47   -2.65   41.50   -2.65   41.50   -3.56  -48.47
    2.54   -3.76  -49.24   -2.47   40.06   -2.47   40.06   -3.76  -49.24
    2.64   -3.97  -50.24   -2.33   38.97   -2.33   38.97   -3.97  -50.24
    2.74   -4.25  -51.45   -2.19   37.69   -2.19   37.69   -4.25  -51.45
    2.84   -4.48  -53.17   -2.07   36.59   -2.07   36.59   -4.48  -53.17
    2.94   -4.70  -54.00   -1.94   35.24   -1.94   35.24   -4.70  -54.00
    3.04   -4.93  -54.80   -1.82   34.15   -1.82   34.15   -4.93  -54.80
    3.14   -5.14  -55.32   -1.73   33.19   -1.73   33.19   -5.14  -55.32
    3.24   -5.46  -56.22   -1.66   32.05   -1.66   32.05   -5.46  -56.22
    3.34   -5.74  -57.54   -1.58   30.94   -1.58   30.94   -5.74  -57.54
    3.44   -5.99  -58.29   -1.52   29.84   -1.52   29.84   -5.99  -58.29
    3.54   -6.17  -58.85   -1.42   28.82   -1.42   28.82   -6.17  -58.85
    3.64   -6.37  -58.93   -1.37   28.15   -1.37   28.15   -6.37  -58.93
    3.74   -6.72  -59.46   -1.35   27.19   -1.35   27.19   -6.72  -59.46
    3.84   -6.98  -60.62   -1.33   26.28   -1.33   26.28   -6.98  -60.62
    3.94   -7.23  -61.28   -1.30   25.25   -1.30   25.25   -7.23  -61.28
    4.04   -7.32  -63.83   -1.04   24.33   -1.04   24.33   -7.32  -63.83
    4.14   -7.47  -63.96   -0.97   23.77   -0.97   23.77   -7.47  -63.96
    4.24   -7.77  -64.28   -0.97   23.23   -0.97   23.23   -7.77  -64.28
    4.34   -8.04  -65.87   -0.94   22.40   -0.94   22.40   -8.04  -65.87
    4.44   -8.27  -66.28   -0.91   21.59   -0.91   21.59   -8.27  -66.28
    4.54   -8.43  -66.88   -0.86   20.72   -0.86   20.72   -8.43  -66.88
    4.64   -8.55  -66.88   -0.79   20.27   -0.79   20.27   -8.55  -66.88
    4.74   -8.84  -66.85   -0.80   19.95   -0.80   19.95   -8.84  -66.85
    4.84   -9.05  -68.18   -0.79   19.30   -0.79   19.30   -9.05  -68.18
    4.94   -9.24  -68.21   -0.78   18.73   -0.78   18.73   -9.24  -68.21
    5.04   -9.49  -69.12   -0.74   17.92   -0.74   17.92   -9.49  -69.12
    5.14   -9.54  -69.28   -0.68   17.49   -0.68   17.49   -9.54  -69.28
    5.24   -9.82  -69.61   -0.67   17.20   -0.67   17.20   -9.82  -69.61
    5.34  -10.01  -70.08   -0.66   16.71   -0.66   16.71  -10.01  -70.08
    5.44  -10.32  -70.42   -0.67   16.17   -0.67   16.17  -10.32  -70.42
    5.54  -10.47  -70.89   -0.65   15.61   -0.65   15.61  -10.47  -70.89
    5.64  -10.57  -71.39   -0.62   15.19   -0.62   15.19  -10.57  -71.39
    5.74  -10.75  -71.45   -0.59   14.94   -0.59   14.94  -10.75  -71.45
    5.84  -11.09  -72.12   -0.60   14.54   -0.60   14.54  -11.09  -72.12
    5.94  -11.27  -72.62   -0.57   14.09   -0.57   14.09  -11.27  -72.62
    6.04  -11.53  -73.28   -0.57   13.65   -0.57   13.65  -11.53  -73.28
    6.13  -11.57  -73.62   -0.53   13.19   -0.53   13.19  -11.57  -73.62
    6.23  -11.95  -73.60   -0.52   13.00   -0.52   13.00  -11.95  -73.60
    6.33  -12.22  -74.78   -0.51   12.51   -0.51   12.51  -12.22  -74.78
    6.43  -12.55  -75.33   -0.50   12.13   -0.50   12.13  -12.55  -75.33
    6.53  -12.77  -75.58   -0.49   11.65   -0.49   11.65  -12.77  -75.58
    6.63  -13.08  -75.48   -0.48   11.18   -0.48   11.18  -13.08  -75.48
    6.73  -13.39  -75.22   -0.46   10.89   -0.46   10.89  -13.39  -75.22
    6.83  -13.90  -76.14   -0.48   10.54   -0.48   10.54  -13.90  -76.14
    6.93  -14.07  -75.48   -0.47   10.11   -0.47   10.11  -14.07  -75.48
    7.03  -14.52  -75.13   -0.48    9.85   -0.48    9.85  -14.52  -75.13
    7.13  -14.69  -74.68   -0.46    9.37   -0.46    9.37  -14.69  -74.68
    7.23  -15.24  -74.64   -0.46    9.08   -0.46    9.08  -15.24  -74.64
    7.33  -15.59  -73.81   -0.47    8.72   -0.47    8.72  -15.59  -73.81
    7.43  -16.07  -73.85   -0.48    8.40   -0.48    8.40  -16.07  -73.85
    7.53  -16.40  -71.58   -0.47    8.04   -0.47    8.04  -16.40  -71.58
    7.63  -16.83  -71.18   -0.50    7.80   -0.50    7.80  -16.83  -71.18
    7.73  -17.11  -68.90   -0.47    7.51   -0.47    7.51  -17.11  -68.90
    7.83  -17.67  -69.02   -0.49    7.41   -0.49    7.41  -17.67  -69.02
    7.93  -17.96  -67.84   -0.49    7.07   -0.49    7.07  -17.96  -67.84
    8.03  -18.57  -67.12   -0.47    6.84   -0.47    6.84  -18.57  -67.12
    8.13  -18.98  -65.36   -0.46    6.46   -0.46    6.46  -18.98  -65.36
    8.23  -19.59  -63.46   -0.45    6.20   -0.45    6.20  -19.59  -63.46
    8.33  -20.13  -62.03   -0.44    5.94   -0.44    5.94  -20.13  -62.03
    8.43  -20.89  -61.43   -0.43    5.73   -0.43    5.73  -20.89  -61.43
    8.53  -21.60  -58.86   -0.42    5.31   -0.42    5.31  -21.60  -58.86
    8.63  -22.40  -55.94   -0.41    5.05   -0.41    5.05  -22.40  -55.94
    8.73  -23.22  -51.65   -0.39    4.59   -0.39    4.59  -23.22  -51.65
    8.83  -24.19  -47.23   -0.40    4.33   -0.40    4.33  -24.19  -47.23
    8.93  -24.84  -41.97   -0.41    4.01   -0.41    4.01  -24.84  -41.97
    9.03  -25.70  -36.43   -0.41    3.73   -0.41    3.73  -25.70  -36.43
    9.13  -26.06  -30.22   -0.41    3.48   -0.41    3.48  -26.06  -30.22
    9.23  -26.94  -22.64   -0.41    3.20   -0.41    3.20  -26.94  -22.64
    9.33  -27.20  -16.81   -0.41    2.99   -0.41    2.99  -27.20  -16.81
    9.43  -28.01   -9.65   -0.41    2.82   -0.41    2.82  -28.01   -9.65
    9.53  -28.39   -1.87   -0.40    2.58   -0.40    2.58  -28.39   -1.87
    9.63  -28.60    6.76   -0.40    2.31   -0.40    2.31  -28.60    6.76
    9.73  -28.67   15.64   -0.39    2.04   -0.39    2.04  -28.67   15.64
    9.83  -28.76   23.28   -0.38    1.81   -0.38    1.81  -28.76   23.28
    9.93  -28.69   30.32   -0.38    1.61   -0.38    1.61  -28.69   30.32
   10.03  -28.30   36.54   -0.38    1.35   -0.38    1.35  -28.30   36.54
   10.12  -28.18   44.03   -0.38    1.11   -0.38    1.11  -28.18   44.03
   10.22  -27.70   49.95   -0.37    0.86   -0.37    0.86  -27.70   49.95
   10.32  -27.64   56.53   -0.36    0.63   -0.36    0.63  -27.64   56.53
   10.42  -27.00   61.00   -0.35    0.39   -0.35    0.39  -27.00   61.00
   10.52  -26.64   66.86   -0.35    0.18   -0.35    0.18  -26.64   66.86
   10.62  -25.82   71.95   -0.34   -0.06   -0.34   -0.06  -25.82   71.95
   10.72  -25.33   74.65   -0.34   -0.39   -0.34   -0.39  -25.33   74.65
   10.82  -24.48   78.31   -0.32   -0.68   -0.32   -0.68  -24.48   78.31
   10.92  -24.21   79.14   -0.32   -0.94   -0.32   -0.94  -24.21   79.14
   11.02  -23.54   81.85   -0.32   -1.24   -0.32   -1.24  -23.54   81.85
   11.12  -23.25   82.15   -0.32   -1.47   -0.32   -1.47  -23.25   82.15
   11.22  -22.57   84.74   -0.31   -1.84   -0.31   -1.84  -22.57   84.74
   11.32  -22.28   84.93   -0.30   -2.12   -0.30   -2.12  -22.28   84.93
   11.42  -21.94   86.44   -0.31   -2.44   -0.31   -2.44  -21.94   86.44
   11.52  -21.56   85.29   -0.31   -2.70   -0.31   -2.70  -21.56   85.29
   11.62  -21.18   87.50   -0.32   -3.00   -0.32   -3.00  -21.18   87.50
   11.72  -20.86   86.64   -0.32   -3.29   -0.32   -3.29  -20.86   86.64
   11.82  -20.53   87.60   -0.31   -3.67   -0.31   -3.67  -20.53   87.60
   11.92  -20.30   86.56   -0.31   -3.88   -0.31   -3.88  -20.30   86.56
   12.02  -19.87   86.21   -0.33   -4.20   -0.33   -4.20  -19.87   86.21
   12.12  -19.50   85.78   -0.34   -4.43   -0.34   -4.43  -19.50   85.78
   12.22  -19.15   85.67   -0.36   -4.85   -0.36   -4.85  -19.15   85.67
   12.32  -18.91   84.23   -0.36   -5.13   -0.36   -5.13  -18.91   84.23
   12.42  -18.62   82.88   -0.35   -5.51   -0.35   -5.51  -18.62   82.88
   12.52  -18.28   81.38   -0.35   -5.64   -0.35   -5.64  -18.28   81.38
   12.62  -17.84   81.84   -0.36   -6.02   -0.36   -6.02  -17.84   81.84
   12.72  -17.54   81.24   -0.38   -6.28   -0.38   -6.28  -17.54   81.24
   12.82  -17.25   80.54   -0.40   -6.75   -0.40   -6.75  -17.25   80.54
   12.92  -16.83   78.19   -0.38   -7.11   -0.38   -7.11  -16.83   78.19
   13.02  -16.42   78.84   -0.39   -7.42   -0.39   -7.42  -16.42   78.84
   13.12  -15.97   77.96   -0.41   -7.57   -0.41   -7.57  -15.97   77.96
   13.22  -15.64   79.09   -0.46   -8.04   -0.46   -8.04  -15.64   79.09
   13.32  -15.18   76.94   -0.46   -8.41   -0.46   -8.41  -15.18   76.94
   13.42  -14.83   76.64   -0.47   -8.93   -0.47   -8.93  -14.83   76.64
   13.52  -14.31   75.84   -0.47   -9.15   -0.47   -9.15  -14.31   75.84
   13.62  -13.97   76.83   -0.50   -9.41   -0.50   -9.41  -13.97   76.83
   13.72  -13.45   76.16   -0.54   -9.71   -0.54   -9.71  -13.45   76.16
   13.82  -13.17   75.87   -0.59  -10.20   -0.59  -10.20  -13.17   75.87
   13.92  -12.72   74.90   -0.59  -10.74   -0.59  -10.74  -12.72   74.90
   14.02  -12.45   74.22   -0.61  -11.12   -0.61  -11.12  -12.45   74.22
   14.11  -11.96   74.09   -0.62  -11.27   -0.62  -11.27  -11.96   74.09
   14.21  -11.65   75.06   -0.68  -11.38   -0.68  -11.38  -11.65   75.06
   14.31  -11.31   74.99   -0.71  -11.76   -0.71  -11.76  -11.31   74.99
   14.41  -11.05   74.17   -0.74  -12.28   -0.74  -12.28  -11.05   74.17
   14.51  -10.83   74.03   -0.77  -12.62   -0.77  -12.62  -10.83   74.03
   14.61  -10.48   73.72   -0.80  -12.98   -0.80  -12.98  -10.48   73.72
   14.71  -10.17   74.94   -0.82  -13.17   -0.82  -13.17  -10.17   74.94
   14.81   -9.91   74.93   -0.87  -13.47   -0.87  -13.47   -9.91   74.93
   14.91   -9.73   74.95   -0.90  -13.71   -0.90  -13.71   -9.73   74.95
   15.01   -9.61   74.65   -0.97  -14.03   -0.97  -14.03   -9.61   74.65
   15.11   -9.40   75.00   -1.00  -14.21   -1.00  -14.21   -9.40   75.00
   15.21   -9.14   75.73   -1.04  -14.36   -1.04  -14.36   -9.14   75.73
   15.31   -9.02   76.41   -1.05  -14.44   -1.05  -14.44   -9.02   76.41
   15.41   -8.87   75.93   -1.11  -14.73   -1.11  -14.73   -8.87   75.93
   15.51   -8.78   75.99   -1.12  -14.80   -1.12  -14.80   -8.78   75.99
   15.61   -8.69   75.82   -1.17  -14.95   -1.17  -14.95   -8.69   75.82
   15.71   -8.49   76.85   -1.17  -14.99   -1.17  -14.99   -8.49   76.85
   15.81   -8.39   76.64   -1.20  -15.18   -1.20  -15.18   -8.39   76.64
   15.91   -8.24   76.84   -1.21  -15.29   -1.21  -15.29   -8.24   76.84
   16.01   -8.31   75.85   -1.26  -15.33   -1.26  -15.33   -8.31   75.85
   16.11   -8.20   76.24   -1.26  -15.38   -1.26  -15.38   -8.20   76.24
   16.21   -8.14   76.38   -1.29  -15.62   -1.29  -15.62   -8.14   76.38
   16.31   -8.03   77.01   -1.27  -15.78   -1.27  -15.78   -8.03   77.01
   16.41   -7.95   76.72   -1.26  -16.01   -1.26  -16.01   -7.95   76.72
   16.51   -7.97   76.51   -1.27  -16.11   -1.27  -16.11   -7.97   76.51
   16.61   -7.89   76.62   -1.27  -16.33   -1.27  -16.33   -7.89   76.62
   16.71   -7.98   76.84   -1.29  -16.35   -1.29  -16.35   -7.98   76.84
   16.81   -7.79   76.52   -1.31  -17.02   -1.31  -17.02   -7.79   76.52
   16.91   -7.83   76.45   -1.28  -17.12   -1.28  -17.12   -7.83   76.45
   17.01   -7.73   76.86   -1.29  -17.72   -1.29  -17.72   -7.73   76.86
   17.11   -7.90   76.62   -1.30  -17.74   -1.30  -17.74   -7.90   76.62
   17.21   -7.88   77.30   -1.39  -18.27   -1.39  -18.27   -7.88   77.30
   17.31   -7.91   76.95   -1.34  -18.28   -1.34  -18.28   -7.91   76.95
   17.41   -7.80   77.53   -1.37  -18.97   -1.37  -18.97   -7.80   77.53
   17.51   -7.83   77.49   -1.37  -19.21   -1.37  -19.21   -7.83   77.49
   17.61   -7.89   77.99   -1.45  -19.69   -1.45  -19.69   -7.89   77.99
   17.71   -7.88   77.21   -1.45  -19.67   -1.45  -19.67   -7.88   77.21
   17.81   -7.74   77.01   -1.45  -20.39   -1.45  -20.39   -7.74   77.01
   17.91   -7.71   77.38   -1.45  -20.97   -1.45  -20.97   -7.71   77.38
   18.01   -7.74   76.24   -1.46  -21.21   -1.46  -21.21   -7.74   76.24
   18.10   -7.76   75.81   -1.47  -21.91   -1.47  -21.91   -7.76   75.81
   18.20   -7.71   75.17   -1.55  -22.08   -1.55  -22.08   -7.71   75.17
   18.30   -7.59   75.02   -1.56  -22.91   -1.56  -22.91   -7.59   75.02
   18.40   -7.55   74.24   -1.61  -23.63   -1.61  -23.63   -7.55   74.24
   18.50   -7.59   73.47   -1.65  -24.34   -1.65  -24.34   -7.59   73.47
   18.60   -7.42   72.32   -1.72  -24.71   -1.72  -24.71   -7.42   72.32
   18.70   -7.33   72.09   -1.79  -25.37   -1.79  -25.37   -7.33   72.09
   18.80   -7.16   71.64   -1.86  -26.00   -1.86  -26.00   -7.16   71.64
   18.90   -7.12   70.97   -1.93  -26.69   -1.93  -26.69   -7.12   70.97
   19.00   -6.95   69.56   -1.99  -27.38   -1.99  -27.38   -6.95   69.56
   19.10   -6.79   68.81   -2.09  -27.94   -2.09  -27.94   -6.79   68.81
   19.20   -6.66   68.52   -2.19  -28.56   -2.19  -28.56   -6.66   68.52
   19.30   -6.46   68.01   -2.26  -29.19   -2.26  -29.19   -6.46   68.01
   19.40   -6.37   67.24   -2.37  -30.09   -2.37  -30.09   -6.37   67.24
   19.50   -6.12   65.99   -2.43  -30.93   -2.43  -30.93   -6.12   65.99
   19.60   -6.09   66.49   -2.59  -31.68   -2.59  -31.68   -6.09   66.49
   19.70   -5.78   66.20   -2.70  -32.49   -2.70  -32.49   -5.78   66.20
   19.80   -5.74   67.22   -2.91  -33.38   -2.91  -33.38   -5.74   67.22
   19.90   -5.42   66.74   -3.06  -34.53   -3.06  -34.53   -5.42   66.74
   20.00   -5.23   67.33   -3.33  -35.37   -3.33  -35.37   -5.23   67.33
