!  American Technical Ceramics  Date:    3/13/98
!  One Norden Lane
!  Huntington Station,  NY.   11746-2102
!  Tel:  (516) 547-5700               Fax:  (516) 547-5748
!  Part Number  700A390G
!  Description: Porcelain, High Q, Low ESR
!  Application: Bypass, Coupling, Timing, Feedback
!               Tuning, Impedance Match, Blocking
# GHZ S DB R 50
! Freq   |S11|   S11 Ph  |S21|   S21 Ph  |S12|   S12 Ph  |S22|   S22 Ph
    0.05   -3.94  -50.22   -2.22   39.41   -2.22   39.41   -3.94  -50.22
    0.09   -7.52  -65.48   -0.84   24.55   -0.84   24.55   -7.52  -65.48
    0.13  -10.35  -72.51   -0.48   17.56   -0.48   17.56  -10.35  -72.51
    0.17  -12.59  -77.02   -0.23   13.42   -0.23   13.42  -12.59  -77.02
    0.21  -14.37  -79.72   -0.13   10.98   -0.13   10.98  -14.37  -79.72
    0.25  -15.82  -81.51   -0.08    9.09   -0.08    9.09  -15.82  -81.51
    0.29  -17.16  -83.18   -0.06    7.83   -0.06    7.83  -17.16  -83.18
    0.33  -18.28  -84.28   -0.04    6.79   -0.04    6.79  -18.28  -84.28
    0.37  -19.35  -85.52   -0.03    5.91   -0.03    5.91  -19.35  -85.52
    0.41  -20.27  -86.34   -0.01    5.39   -0.01    5.39  -20.27  -86.34
    0.45  -21.12  -86.86    0.00    4.76    0.00    4.76  -21.12  -86.86
    0.49  -21.91  -87.47    0.01    4.30    0.01    4.30  -21.91  -87.47
    0.53  -22.93  -87.55    0.00    3.85    0.00    3.85  -22.93  -87.55
    0.57  -23.66  -88.87   -0.01    3.44   -0.01    3.44  -23.66  -88.87
    0.61  -24.26  -88.63    0.00    3.13    0.00    3.13  -24.26  -88.63
    0.65  -24.88  -89.04    0.01    2.92    0.01    2.92  -24.88  -89.04
    0.69  -25.49  -89.55    0.01    2.80    0.01    2.80  -25.49  -89.55
    0.73  -26.16  -89.83    0.01    2.50    0.01    2.50  -26.16  -89.83
    0.77  -26.68  -90.33    0.01    2.28    0.01    2.28  -26.68  -90.33
    0.81  -27.15  -90.78    0.01    2.13    0.01    2.13  -27.15  -90.78
    0.85  -27.85  -90.56    0.01    1.86    0.01    1.86  -27.85  -90.56
    0.88  -28.28  -90.59    0.00    1.72    0.00    1.72  -28.28  -90.59
    0.92  -28.96  -91.29    0.01    1.57    0.01    1.57  -28.96  -91.29
    0.96  -29.33  -91.43    0.01    1.51    0.01    1.51  -29.33  -91.43
    1.00  -29.88  -91.68    0.01    1.45    0.01    1.45  -29.88  -91.68
    1.04  -30.43  -91.17    0.00    1.24    0.00    1.24  -30.43  -91.17
    1.08  -30.98  -92.22    0.01    1.09    0.01    1.09  -30.98  -92.22
    1.12  -31.47  -91.91    0.01    0.99    0.01    0.99  -31.47  -91.91
    1.16  -31.92  -91.53    0.04    0.83    0.04    0.83  -31.92  -91.53
    1.20  -32.52  -91.75    0.02    0.68    0.02    0.68  -32.52  -91.75
    1.24  -33.26  -91.07    0.01    0.72    0.01    0.72  -33.26  -91.07
    1.28  -33.77  -91.03   -0.01    0.53   -0.01    0.53  -33.77  -91.03
    1.32  -34.29  -91.38    0.00    0.45    0.00    0.45  -34.29  -91.38
    1.36  -34.79  -91.51    0.00    0.46    0.00    0.46  -34.79  -91.51
    1.40  -35.58  -90.70    0.00    0.49    0.00    0.49  -35.58  -90.70
    1.44  -36.15  -90.52    0.00    0.26    0.00    0.26  -36.15  -90.52
    1.48  -37.02  -91.00    0.01    0.20    0.01    0.20  -37.02  -91.00
    1.52  -37.89  -90.12    0.02    0.21    0.02    0.21  -37.89  -90.12
    1.56  -37.97  -89.69    0.01    0.03    0.01    0.03  -37.97  -89.69
    1.60  -39.79  -88.76    0.00   -0.11    0.00   -0.11  -39.79  -88.76
    1.64  -39.85  -84.86    0.00   -0.24    0.00   -0.24  -39.85  -84.86
    1.68  -41.95  -90.07   -0.02   -0.28   -0.02   -0.28  -41.95  -90.07
    1.72  -41.93  -81.04    0.00   -0.19    0.00   -0.19  -41.93  -81.04
    1.76  -43.76  -85.15    0.00   -0.26    0.00   -0.26  -43.76  -85.15
    1.80  -44.81  -73.62    0.00   -0.46    0.00   -0.46  -44.81  -73.62
    1.84  -46.18  -73.65    0.00   -0.48    0.00   -0.48  -46.18  -73.65
    1.88  -49.03  -69.63    0.01   -0.53    0.01   -0.53  -49.03  -69.63
    1.92  -49.85  -48.98    0.00   -0.48    0.00   -0.48  -49.85  -48.98
    1.96  -52.30  -45.79    0.01   -0.58    0.01   -0.58  -52.30  -45.79
    2.00  -53.50    5.28    0.02   -0.74    0.02   -0.74  -53.50    5.28
    2.04  -51.21   -2.00    0.01   -0.82    0.01   -0.82  -51.21   -2.00
    2.08  -51.20   44.59    0.00   -0.87    0.00   -0.87  -51.20   44.59
    2.12  -48.94   35.32   -0.02   -0.81   -0.02   -0.81  -48.94   35.32
    2.16  -48.00   49.16   -0.01   -1.09   -0.01   -1.09  -48.00   49.16
    2.20  -45.27   45.81   -0.01   -1.02   -0.01   -1.02  -45.27   45.81
    2.24  -45.86   57.72    0.00   -1.22    0.00   -1.22  -45.86   57.72
    2.28  -43.25   60.73   -0.01   -1.14   -0.01   -1.14  -43.25   60.73
    2.32  -42.94   57.19   -0.01   -1.17   -0.01   -1.17  -42.94   57.19
    2.36  -41.48   65.02    0.00   -1.34    0.00   -1.34  -41.48   65.02
    2.40  -40.31   62.82    0.01   -1.32    0.01   -1.32  -40.31   62.82
    2.44  -40.35   63.09   -0.01   -1.39   -0.01   -1.39  -40.35   63.09
    2.47  -38.79   64.89    0.00   -1.42    0.00   -1.42  -38.79   64.89
    2.51  -38.67   65.28   -0.01   -1.42   -0.01   -1.42  -38.67   65.28
    2.55  -37.48   68.17   -0.03   -1.64   -0.03   -1.64  -37.48   68.17
    2.59  -37.10   64.82   -0.03   -1.48   -0.03   -1.48  -37.10   64.82
    2.63  -36.89   66.72   -0.02   -1.66   -0.02   -1.66  -36.89   66.72
    2.67  -36.18   67.44   -0.01   -1.66   -0.01   -1.66  -36.18   67.44
    2.71  -36.01   67.72   -0.02   -1.85   -0.02   -1.85  -36.01   67.72
    2.75  -35.54   67.87   -0.01   -1.71   -0.01   -1.71  -35.54   67.87
    2.79  -35.33   66.56   -0.01   -1.95   -0.01   -1.95  -35.33   66.56
    2.83  -34.83   67.24    0.00   -1.88    0.00   -1.88  -34.83   67.24
    2.87  -34.18   68.58   -0.02   -1.95   -0.02   -1.95  -34.18   68.58
    2.91  -33.96   68.12   -0.01   -1.94   -0.01   -1.94  -33.96   68.12
    2.95  -33.82   69.37    0.00   -2.23    0.00   -2.23  -33.82   69.37
    2.99  -33.25   68.28   -0.01   -2.31   -0.01   -2.31  -33.25   68.28
    3.03  -33.13   68.33   -0.01   -2.09   -0.01   -2.09  -33.13   68.33
    3.07  -32.44   68.45   -0.04   -2.37   -0.04   -2.37  -32.44   68.45
    3.11  -32.29   68.11   -0.03   -2.38   -0.03   -2.38  -32.29   68.11
    3.15  -32.19   67.99   -0.02   -2.34   -0.02   -2.34  -32.19   67.99
    3.19  -31.80   67.18   -0.03   -2.46   -0.03   -2.46  -31.80   67.18
    3.23  -31.40   68.26   -0.03   -2.74   -0.03   -2.74  -31.40   68.26
    3.27  -31.07   67.08   -0.05   -2.58   -0.05   -2.58  -31.07   67.08
    3.31  -30.97   67.50   -0.04   -2.73   -0.04   -2.73  -30.97   67.50
    3.35  -30.74   67.07   -0.03   -2.83   -0.03   -2.83  -30.74   67.07
    3.39  -30.47   66.62   -0.04   -2.95   -0.04   -2.95  -30.47   66.62
    3.43  -30.14   66.44   -0.04   -3.04   -0.04   -3.04  -30.14   66.44
    3.47  -29.77   66.10   -0.05   -2.95   -0.05   -2.95  -29.77   66.10
    3.51  -29.79   66.56   -0.04   -3.12   -0.04   -3.12  -29.79   66.56
    3.55  -29.32   66.56   -0.05   -3.30   -0.05   -3.30  -29.32   66.56
    3.59  -29.08   65.94   -0.04   -3.28   -0.04   -3.28  -29.08   65.94
    3.63  -28.64   65.93   -0.05   -3.33   -0.05   -3.33  -28.64   65.93
    3.67  -28.33   65.77   -0.07   -3.38   -0.07   -3.38  -28.33   65.77
    3.71  -27.86   65.44   -0.05   -3.76   -0.05   -3.76  -27.86   65.44
    3.75  -27.37   65.24   -0.06   -3.90   -0.06   -3.90  -27.37   65.24
    3.79  -26.86   64.68   -0.06   -4.05   -0.06   -4.05  -26.86   64.68
    3.83  -26.22   64.12   -0.09   -4.16   -0.09   -4.16  -26.22   64.12
    3.87  -25.67   62.79   -0.12   -4.48   -0.12   -4.48  -25.67   62.79
    3.91  -24.79   61.71   -0.13   -4.99   -0.13   -4.99  -24.79   61.71
    3.95  -23.82   59.59   -0.15   -5.17   -0.15   -5.17  -23.82   59.59
    3.99  -22.61   56.30   -0.22   -5.79   -0.22   -5.79  -22.61   56.30
    4.03  -20.88   52.00   -0.33   -6.45   -0.33   -6.45  -20.88   52.00
    4.06  -19.09   43.46   -0.54   -7.12   -0.54   -7.12  -19.09   43.46
    4.10  -17.31   27.89   -0.92   -7.18   -0.92   -7.18  -17.31   27.89
    4.14  -16.22    3.29   -1.39   -4.27   -1.39   -4.27  -16.22    3.29
    4.18  -17.32  -24.77   -1.23    0.30   -1.23    0.30  -17.32  -24.77
    4.22  -19.85  -43.79   -0.74    1.78   -0.74    1.78  -19.85  -43.79
    4.26  -22.73  -55.60   -0.46    1.18   -0.46    1.18  -22.73  -55.60
    4.30  -25.32  -60.93   -0.30    0.60   -0.30    0.60  -25.32  -60.93
    4.34  -27.72  -63.19   -0.23    0.02   -0.23    0.02  -27.72  -63.19
    4.38  -29.71  -63.29   -0.16   -0.46   -0.16   -0.46  -29.71  -63.29
    4.42  -31.70  -63.48   -0.12   -0.74   -0.12   -0.74  -31.70  -63.48
    4.46  -33.39  -60.58   -0.11   -1.05   -0.11   -1.05  -33.39  -60.58
    4.50  -34.85  -57.64   -0.10   -1.49   -0.10   -1.49  -34.85  -57.64
    4.54  -36.68  -53.72   -0.08   -1.52   -0.08   -1.52  -36.68  -53.72
    4.58  -38.02  -49.29   -0.10   -1.77   -0.10   -1.77  -38.02  -49.29
    4.62  -39.32  -45.86   -0.10   -1.77   -0.10   -1.77  -39.32  -45.86
    4.66  -40.01  -37.70   -0.07   -2.12   -0.07   -2.12  -40.01  -37.70
    4.70  -41.40  -27.14   -0.09   -2.21   -0.09   -2.21  -41.40  -27.14
    4.74  -42.14  -21.14   -0.08   -2.36   -0.08   -2.36  -42.14  -21.14
    4.78  -42.65  -15.99   -0.08   -2.39   -0.08   -2.39  -42.65  -15.99
    4.82  -42.92   -8.93   -0.08   -2.53   -0.08   -2.53  -42.92   -8.93
    4.86  -42.79    0.61   -0.08   -2.50   -0.08   -2.50  -42.79    0.61
    4.90  -43.38    7.86   -0.07   -2.67   -0.07   -2.67  -43.38    7.86
    4.94  -42.88   18.84   -0.07   -2.68   -0.07   -2.68  -42.88   18.84
    4.98  -42.61   18.05   -0.08   -2.71   -0.08   -2.71  -42.61   18.05
    5.02  -42.75   18.68   -0.07   -2.96   -0.07   -2.96  -42.75   18.68
    5.06  -41.74   29.46   -0.08   -2.93   -0.08   -2.93  -41.74   29.46
    5.10  -41.39   30.58   -0.07   -3.09   -0.07   -3.09  -41.39   30.58
    5.14  -41.19   35.74   -0.10   -3.13   -0.10   -3.13  -41.19   35.74
    5.18  -41.05   37.60   -0.07   -2.98   -0.07   -2.98  -41.05   37.60
    5.22  -40.48   40.24   -0.08   -3.30   -0.08   -3.30  -40.48   40.24
    5.26  -39.89   40.63   -0.07   -3.27   -0.07   -3.27  -39.89   40.63
    5.30  -39.59   43.52   -0.07   -3.46   -0.07   -3.46  -39.59   43.52
    5.34  -39.10   47.30   -0.11   -3.42   -0.11   -3.42  -39.10   47.30
    5.38  -38.64   43.99   -0.08   -3.52   -0.08   -3.52  -38.64   43.99
    5.42  -38.53   47.26   -0.09   -3.49   -0.09   -3.49  -38.53   47.26
    5.46  -37.96   48.80   -0.09   -3.53   -0.09   -3.53  -37.96   48.80
    5.50  -37.76   48.79   -0.09   -3.63   -0.09   -3.63  -37.76   48.79
    5.54  -37.76   49.78   -0.09   -3.71   -0.09   -3.71  -37.76   49.78
    5.58  -37.48   50.21   -0.09   -3.65   -0.09   -3.65  -37.48   50.21
    5.62  -37.10   51.38   -0.08   -3.59   -0.08   -3.59  -37.10   51.38
    5.65  -36.78   52.37   -0.10   -3.78   -0.10   -3.78  -36.78   52.37
    5.69  -36.54   55.50   -0.11   -3.97   -0.11   -3.97  -36.54   55.50
    5.73  -35.95   55.70   -0.10   -3.86   -0.10   -3.86  -35.95   55.70
    5.77  -35.74   58.12   -0.09   -4.02   -0.09   -4.02  -35.74   58.12
    5.81  -34.98   58.45   -0.09   -4.05   -0.09   -4.05  -34.98   58.45
    5.85  -34.42   58.35   -0.09   -4.17   -0.09   -4.17  -34.42   58.35
    5.89  -34.07   58.84   -0.10   -4.15   -0.10   -4.15  -34.07   58.84
    5.93  -33.70   59.50   -0.10   -4.26   -0.10   -4.26  -33.70   59.50
    5.97  -33.17   58.80   -0.13   -4.31   -0.13   -4.31  -33.17   58.80
    6.01  -32.83   57.50   -0.11   -4.32   -0.11   -4.32  -32.83   57.50
    6.05  -32.52   57.63   -0.12   -4.32   -0.12   -4.32  -32.52   57.63
    6.09  -32.12   57.60   -0.12   -4.56   -0.12   -4.56  -32.12   57.60
    6.13  -31.88   56.52   -0.11   -4.61   -0.11   -4.61  -31.88   56.52
    6.17  -31.55   57.73   -0.11   -4.58   -0.11   -4.58  -31.55   57.73
    6.21  -31.04   57.65   -0.13   -4.52   -0.13   -4.52  -31.04   57.65
    6.25  -30.84   56.76   -0.11   -4.82   -0.11   -4.82  -30.84   56.76
    6.29  -30.43   58.23   -0.13   -4.74   -0.13   -4.74  -30.43   58.23
    6.33  -29.98   57.67   -0.12   -4.85   -0.12   -4.85  -29.98   57.67
    6.37  -29.67   58.08   -0.12   -5.02   -0.12   -5.02  -29.67   58.08
    6.41  -29.26   57.73   -0.13   -4.98   -0.13   -4.98  -29.26   57.73
    6.45  -28.82   57.95   -0.12   -5.16   -0.12   -5.16  -28.82   57.95
    6.49  -28.19   57.44   -0.14   -5.23   -0.14   -5.23  -28.19   57.44
    6.53  -27.97   57.53   -0.14   -5.15   -0.14   -5.15  -27.97   57.53
    6.57  -27.47   57.81   -0.15   -5.21   -0.15   -5.21  -27.47   57.81
    6.61  -27.04   55.85   -0.15   -5.47   -0.15   -5.47  -27.04   55.85
    6.65  -26.59   55.77   -0.15   -5.48   -0.15   -5.48  -26.59   55.77
    6.69  -26.22   55.81   -0.18   -5.45   -0.18   -5.45  -26.22   55.81
    6.73  -25.72   55.23   -0.18   -5.66   -0.18   -5.66  -25.72   55.23
    6.77  -25.39   53.85   -0.20   -5.67   -0.20   -5.67  -25.39   53.85
    6.81  -24.89   53.24   -0.19   -5.91   -0.19   -5.91  -24.89   53.24
    6.85  -24.47   52.52   -0.20   -5.94   -0.20   -5.94  -24.47   52.52
    6.89  -24.04   51.55   -0.21   -6.13   -0.21   -6.13  -24.04   51.55
    6.93  -23.74   51.00   -0.23   -6.20   -0.23   -6.20  -23.74   51.00
    6.97  -23.16   50.41   -0.24   -6.30   -0.24   -6.30  -23.16   50.41
    7.01  -22.80   48.26   -0.27   -6.48   -0.27   -6.48  -22.80   48.26
    7.05  -22.38   47.98   -0.28   -6.55   -0.28   -6.55  -22.38   47.98
    7.09  -21.80   47.04   -0.31   -6.78   -0.31   -6.78  -21.80   47.04
    7.13  -21.28   44.92   -0.35   -7.05   -0.35   -7.05  -21.28   44.92
    7.17  -20.73   42.82   -0.38   -7.29   -0.38   -7.29  -20.73   42.82
    7.21  -20.09   40.18   -0.45   -7.34   -0.45   -7.34  -20.09   40.18
    7.24  -19.48   36.50   -0.53   -7.58   -0.53   -7.58  -19.48   36.50
    7.28  -18.95   31.79   -0.64   -7.62   -0.64   -7.62  -18.95   31.79
    7.32  -18.54   25.10   -0.77   -7.47   -0.77   -7.47  -18.54   25.10
    7.36  -18.28   17.17   -0.90   -6.63   -0.90   -6.63  -18.28   17.17
    7.40  -18.50    7.95   -0.96   -5.54   -0.96   -5.54  -18.50    7.95
    7.44  -19.41    0.14   -0.97   -4.46   -0.97   -4.46  -19.41    0.14
    7.48  -20.45   -5.58   -0.87   -3.35   -0.87   -3.35  -20.45   -5.58
    7.52  -21.97   -7.95   -0.76   -2.83   -0.76   -2.83  -21.97   -7.95
    7.56  -23.12   -6.06   -0.63   -2.63   -0.63   -2.63  -23.12   -6.06
    7.60  -24.22   -1.84   -0.54   -2.71   -0.54   -2.71  -24.22   -1.84
    7.64  -24.96    4.11   -0.49   -2.90   -0.49   -2.90  -24.96    4.11
    7.68  -25.39    9.01   -0.43   -3.13   -0.43   -3.13  -25.39    9.01
    7.72  -25.48   14.77   -0.41   -3.19   -0.41   -3.19  -25.48   14.77
    7.76  -25.35   19.06   -0.39   -3.49   -0.39   -3.49  -25.35   19.06
    7.80  -25.18   23.32   -0.35   -3.70   -0.35   -3.70  -25.18   23.32
    7.84  -24.98   27.19   -0.36   -3.66   -0.36   -3.66  -24.98   27.19
    7.88  -24.62   29.93   -0.33   -3.91   -0.33   -3.91  -24.62   29.93
    7.92  -24.37   31.10   -0.33   -4.03   -0.33   -4.03  -24.37   31.10
    7.96  -24.06   33.80   -0.32   -4.11   -0.32   -4.11  -24.06   33.80
    8.00  -23.77   34.87   -0.32   -4.23   -0.32   -4.23  -23.77   34.87
