!  American Technical Ceramics  Date:    3/13/98
!  One Norden Lane
!  Huntington Station,  NY.   11746-2102
!  Tel:  (516) 547-5700               Fax:  (516) 547-5748
!  Part Number  700A331G
!  Description: Porcelain, High Q, Low ESR
!  Application: Bypass, Coupling, Timing, Feedback
!               Tuning, Impedance Match, Blocking
# GHZ S DB R 50
! Freq   |S11|   S11 Ph  |S21|   S21 Ph  |S12|   S12 Ph  |S22|   S22 Ph
    0.05  -20.34  -83.32   -0.11    5.45   -0.11    5.45  -20.34  -83.32
    0.07  -23.31  -88.76   -0.05    3.97   -0.05    3.97  -23.31  -88.76
    0.09  -25.54  -89.39   -0.01    2.91   -0.01    2.91  -25.54  -89.39
    0.11  -26.80  -89.01   -0.03    2.58   -0.03    2.58  -26.80  -89.01
    0.13  -28.74  -91.86    0.00    2.01    0.00    2.01  -28.74  -91.86
    0.15  -30.20  -92.87    0.01    1.99    0.01    1.99  -30.20  -92.87
    0.17  -30.99  -92.49    0.00    1.50    0.00    1.50  -30.99  -92.49
    0.19  -32.34  -91.68    0.00    1.37    0.00    1.37  -32.34  -91.68
    0.21  -33.12  -94.34   -0.01    1.27   -0.01    1.27  -33.12  -94.34
    0.23  -34.05  -93.94    0.00    1.13    0.00    1.13  -34.05  -93.94
    0.25  -34.73  -92.57    0.00    0.83    0.00    0.83  -34.73  -92.57
    0.27  -35.49  -94.97   -0.01    0.83   -0.01    0.83  -35.49  -94.97
    0.29  -36.39  -95.93    0.00    0.79    0.00    0.79  -36.39  -95.93
    0.31  -37.08  -95.72    0.00    0.67    0.00    0.67  -37.08  -95.72
    0.33  -37.71  -94.21   -0.01    0.49   -0.01    0.49  -37.71  -94.21
    0.35  -38.19  -95.03    0.00    0.48    0.00    0.48  -38.19  -95.03
    0.37  -38.98  -95.08   -0.01    0.32   -0.01    0.32  -38.98  -95.08
    0.39  -39.57  -93.84    0.00    0.40    0.00    0.40  -39.57  -93.84
    0.41  -40.15  -95.34   -0.01    0.26   -0.01    0.26  -40.15  -95.34
    0.43  -40.37  -98.22   -0.01    0.34   -0.01    0.34  -40.37  -98.22
    0.45  -41.19 -100.76   -0.01    0.28   -0.01    0.28  -41.19 -100.76
    0.46  -41.81  -98.75    0.00    0.20    0.00    0.20  -41.81  -98.75
    0.48  -42.57 -100.01    0.00    0.20    0.00    0.20  -42.57 -100.01
    0.50  -42.81  -99.43   -0.01    0.14   -0.01    0.14  -42.81  -99.43
    0.52  -43.10 -100.89   -0.01    0.07   -0.01    0.07  -43.10 -100.89
    0.54  -43.74 -103.40    0.01    0.00    0.01    0.00  -43.74 -103.40
    0.56  -45.36 -101.72   -0.01    0.10   -0.01    0.10  -45.36 -101.72
    0.58  -45.03  -99.28   -0.02   -0.08   -0.02   -0.08  -45.03  -99.28
    0.60  -44.93 -106.65   -0.01   -0.04   -0.01   -0.04  -44.93 -106.65
    0.62  -46.36 -107.19   -0.03   -0.05   -0.03   -0.05  -46.36 -107.19
    0.64  -47.84 -104.44   -0.01    0.00   -0.01    0.00  -47.84 -104.44
    0.66  -47.56 -101.32    0.00   -0.11    0.00   -0.11  -47.56 -101.32
    0.68  -47.61 -102.61    0.00   -0.12    0.00   -0.12  -47.61 -102.61
    0.70  -48.78 -102.64   -0.01   -0.43   -0.01   -0.43  -48.78 -102.64
    0.72  -50.07 -105.75   -0.02   -0.33   -0.02   -0.33  -50.07 -105.75
    0.74  -50.33 -109.23   -0.01   -0.20   -0.01   -0.20  -50.33 -109.23
    0.76  -52.19 -102.17    0.00   -0.29    0.00   -0.29  -52.19 -102.17
    0.78  -53.20 -104.81    0.00   -0.24    0.00   -0.24  -53.20 -104.81
    0.80  -53.56 -105.14   -0.01   -0.31   -0.01   -0.31  -53.56 -105.14
    0.82  -54.91 -115.84   -0.02   -0.38   -0.02   -0.38  -54.91 -115.84
    0.84  -56.60 -119.36   -0.01   -0.33   -0.01   -0.33  -56.60 -119.36
    0.86  -63.83  -97.22   -0.01   -0.46   -0.01   -0.46  -63.83  -97.22
    0.88  -57.69  -97.51   -0.01   -0.41   -0.01   -0.41  -57.69  -97.51
    0.90  -58.73 -136.55   -0.02   -0.36   -0.02   -0.36  -58.73 -136.55
    0.92  -68.97 -171.74   -0.02   -0.39   -0.02   -0.39  -68.97 -171.74
    0.94  -76.30  -89.82   -0.02   -0.52   -0.02   -0.52  -76.30  -89.82
    0.96  -67.12 -152.10   -0.01   -0.51   -0.01   -0.51  -67.12 -152.10
    0.98  -66.79  145.81   -0.03   -0.38   -0.03   -0.38  -66.79  145.81
    1.00  -60.46   88.49   -0.02   -0.53   -0.02   -0.53  -60.46   88.49
    1.02  -57.42   83.62   -0.01   -0.61   -0.01   -0.61  -57.42   83.62
    1.04  -56.41   57.18   -0.02   -0.57   -0.02   -0.57  -56.41   57.18
    1.06  -57.76   66.18   -0.02   -0.65   -0.02   -0.65  -57.76   66.18
    1.08  -55.32   73.43   -0.02   -0.67   -0.02   -0.67  -55.32   73.43
    1.10  -53.18   70.96   -0.01   -0.72   -0.01   -0.72  -53.18   70.96
    1.12  -51.31   75.90   -0.02   -0.70   -0.02   -0.70  -51.31   75.90
    1.14  -49.98   73.14   -0.02   -0.60   -0.02   -0.60  -49.98   73.14
    1.16  -49.38   68.10   -0.03   -0.64   -0.03   -0.64  -49.38   68.10
    1.18  -49.23   63.38   -0.01   -0.80   -0.01   -0.80  -49.23   63.38
    1.20  -48.34   65.43   -0.03   -0.85   -0.03   -0.85  -48.34   65.43
    1.22  -47.26   65.54   -0.03   -0.87   -0.03   -0.87  -47.26   65.54
    1.24  -45.75   62.87   -0.03   -0.90   -0.03   -0.90  -45.75   62.87
    1.25  -45.23   55.06   -0.05   -1.03   -0.05   -1.03  -45.23   55.06
    1.27  -45.27   55.45   -0.03   -0.96   -0.03   -0.96  -45.27   55.45
    1.29  -44.28   60.13   -0.05   -0.97   -0.05   -0.97  -44.28   60.13
    1.31  -43.05   57.94   -0.05   -0.93   -0.05   -0.93  -43.05   57.94
    1.33  -42.53   48.37   -0.07   -0.92   -0.07   -0.92  -42.53   48.37
    1.35  -42.62   45.36   -0.06   -0.93   -0.06   -0.93  -42.62   45.36
    1.37  -42.31   45.73   -0.06   -0.90   -0.06   -0.90  -42.31   45.73
    1.39  -41.43   41.18   -0.06   -1.07   -0.06   -1.07  -41.43   41.18
    1.41  -40.65   35.22   -0.07   -0.99   -0.07   -0.99  -40.65   35.22
    1.43  -40.67   29.27   -0.07   -0.85   -0.07   -0.85  -40.67   29.27
    1.45  -41.10   26.17   -0.07   -0.87   -0.07   -0.87  -41.10   26.17
    1.47  -41.24   25.70   -0.08   -0.87   -0.08   -0.87  -41.24   25.70
    1.49  -41.29   25.33   -0.08   -0.75   -0.08   -0.75  -41.29   25.33
    1.51  -41.03   19.84   -0.07   -0.87   -0.07   -0.87  -41.03   19.84
    1.53  -41.23   12.73   -0.08   -0.92   -0.08   -0.92  -41.23   12.73
    1.55  -42.04    9.33   -0.06   -0.85   -0.06   -0.85  -42.04    9.33
    1.57  -43.21    6.53   -0.05   -0.85   -0.05   -0.85  -43.21    6.53
    1.59  -43.03   14.42   -0.06   -0.80   -0.06   -0.80  -43.03   14.42
    1.61  -42.75   16.83   -0.06   -0.83   -0.06   -0.83  -42.75   16.83
    1.63  -42.99   10.25   -0.06   -0.75   -0.06   -0.75  -42.99   10.25
    1.65  -44.39    6.14   -0.07   -0.90   -0.07   -0.90  -44.39    6.14
    1.67  -46.27   22.95   -0.07   -0.83   -0.07   -0.83  -46.27   22.95
    1.69  -44.04   27.12   -0.07   -0.85   -0.07   -0.85  -44.04   27.12
    1.71  -43.67   19.22   -0.08   -0.71   -0.08   -0.71  -43.67   19.22
    1.73  -44.71   16.03   -0.04   -0.97   -0.04   -0.97  -44.71   16.03
    1.75  -45.93   25.54   -0.05   -0.96   -0.05   -0.96  -45.93   25.54
    1.77  -44.85   34.39   -0.06   -0.95   -0.06   -0.95  -44.85   34.39
    1.79  -44.19   33.70   -0.06   -1.00   -0.06   -1.00  -44.19   33.70
    1.81  -43.87   29.75   -0.04   -0.91   -0.04   -0.91  -43.87   29.75
    1.83  -44.07   28.71   -0.05   -0.91   -0.05   -0.91  -44.07   28.71
    1.85  -44.85   35.99   -0.03   -0.93   -0.03   -0.93  -44.85   35.99
    1.87  -44.75   43.54   -0.05   -0.90   -0.05   -0.90  -44.75   43.54
    1.89  -43.81   44.93   -0.03   -0.97   -0.03   -0.97  -43.81   44.93
    1.91  -43.01   43.39   -0.05   -0.99   -0.05   -0.99  -43.01   43.39
    1.93  -43.15   39.72   -0.05   -1.05   -0.05   -1.05  -43.15   39.72
    1.95  -43.26   41.32   -0.04   -1.14   -0.04   -1.14  -43.26   41.32
    1.97  -43.19   45.07   -0.03   -1.21   -0.03   -1.21  -43.19   45.07
    1.99  -42.20   50.26   -0.05   -1.14   -0.05   -1.14  -42.20   50.26
    2.01  -41.17   47.32   -0.02   -1.16   -0.02   -1.16  -41.17   47.32
    2.03  -41.30   43.06   -0.03   -1.20   -0.03   -1.20  -41.30   43.06
    2.04  -41.93   47.81   -0.04   -1.12   -0.04   -1.12  -41.93   47.81
    2.06  -42.71   51.95   -0.03   -1.36   -0.03   -1.36  -42.71   51.95
    2.08  -40.71   54.66   -0.06   -1.30   -0.06   -1.30  -40.71   54.66
    2.10  -40.41   48.46   -0.05   -1.42   -0.05   -1.42  -40.41   48.46
    2.12  -40.76   44.45   -0.05   -1.35   -0.05   -1.35  -40.76   44.45
    2.14  -41.52   49.49   -0.05   -1.34   -0.05   -1.34  -41.52   49.49
    2.16  -40.32   54.84   -0.06   -1.31   -0.06   -1.31  -40.32   54.84
    2.18  -39.96   52.21   -0.06   -1.25   -0.06   -1.25  -39.96   52.21
    2.20  -39.76   48.27   -0.06   -1.32   -0.06   -1.32  -39.76   48.27
    2.22  -40.32   49.46   -0.06   -1.32   -0.06   -1.32  -40.32   49.46
    2.24  -40.29   52.38   -0.05   -1.37   -0.05   -1.37  -40.29   52.38
    2.26  -39.61   54.77   -0.06   -1.33   -0.06   -1.33  -39.61   54.77
    2.28  -39.10   51.44   -0.04   -1.30   -0.04   -1.30  -39.10   51.44
    2.30  -38.89   49.21   -0.04   -1.35   -0.04   -1.35  -38.89   49.21
    2.32  -39.07   47.94   -0.07   -1.44   -0.07   -1.44  -39.07   47.94
    2.34  -39.04   50.77   -0.05   -1.38   -0.05   -1.38  -39.04   50.77
    2.36  -38.61   52.39   -0.04   -1.31   -0.04   -1.31  -38.61   52.39
    2.38  -38.33   53.65   -0.05   -1.40   -0.05   -1.40  -38.33   53.65
    2.40  -38.03   50.98   -0.06   -1.34   -0.06   -1.34  -38.03   50.98
    2.42  -38.40   47.38   -0.05   -1.41   -0.05   -1.41  -38.40   47.38
    2.44  -38.72   51.21   -0.06   -1.44   -0.06   -1.44  -38.72   51.21
    2.46  -37.84   52.00   -0.05   -1.38   -0.05   -1.38  -37.84   52.00
    2.48  -37.76   49.75   -0.07   -1.54   -0.07   -1.54  -37.76   49.75
    2.50  -37.89   46.66   -0.06   -1.58   -0.06   -1.58  -37.89   46.66
    2.52  -38.36   48.68   -0.07   -1.56   -0.07   -1.56  -38.36   48.68
    2.54  -37.97   50.87   -0.08   -1.46   -0.08   -1.46  -37.97   50.87
    2.56  -37.60   52.95   -0.08   -1.67   -0.08   -1.67  -37.60   52.95
    2.58  -37.20   51.22   -0.07   -1.60   -0.07   -1.60  -37.20   51.22
    2.60  -37.36   46.66   -0.06   -1.69   -0.06   -1.69  -37.36   46.66
    2.62  -37.79   49.12   -0.08   -1.57   -0.08   -1.57  -37.79   49.12
    2.64  -37.72   50.42   -0.06   -1.47   -0.06   -1.47  -37.72   50.42
    2.66  -37.31   51.59   -0.08   -1.56   -0.08   -1.56  -37.31   51.59
    2.68  -37.12   50.05   -0.07   -1.68   -0.07   -1.68  -37.12   50.05
    2.70  -36.95   47.19   -0.06   -1.50   -0.06   -1.50  -36.95   47.19
    2.72  -37.17   48.20   -0.08   -1.60   -0.08   -1.60  -37.17   48.20
    2.74  -37.25   48.93   -0.08   -1.55   -0.08   -1.55  -37.25   48.93
    2.76  -37.13   49.74   -0.07   -1.66   -0.07   -1.66  -37.13   49.74
    2.78  -36.84   51.13   -0.07   -1.66   -0.07   -1.66  -36.84   51.13
    2.80  -36.59   49.50   -0.06   -1.57   -0.06   -1.57  -36.59   49.50
    2.82  -36.78   47.98   -0.07   -1.59   -0.07   -1.59  -36.78   47.98
    2.83  -36.74   47.14   -0.07   -1.66   -0.07   -1.66  -36.74   47.14
    2.85  -37.10   48.38   -0.07   -1.74   -0.07   -1.74  -37.10   48.38
    2.87  -36.77   48.46   -0.06   -1.74   -0.06   -1.74  -36.77   48.46
    2.89  -36.56   49.59   -0.08   -1.59   -0.08   -1.59  -36.56   49.59
    2.91  -36.49   47.93   -0.06   -1.76   -0.06   -1.76  -36.49   47.93
    2.93  -36.73   48.20   -0.07   -1.71   -0.07   -1.71  -36.73   48.20
    2.95  -36.73   49.65   -0.06   -1.87   -0.06   -1.87  -36.73   49.65
    2.97  -36.43   49.00   -0.08   -1.83   -0.08   -1.83  -36.43   49.00
    2.99  -36.47   48.95   -0.07   -1.72   -0.07   -1.72  -36.47   48.95
    3.01  -36.44   47.89   -0.06   -1.77   -0.06   -1.77  -36.44   47.89
    3.03  -36.37   47.81   -0.09   -1.76   -0.09   -1.76  -36.37   47.81
    3.05  -36.33   48.73   -0.07   -1.84   -0.07   -1.84  -36.33   48.73
    3.07  -36.14   49.61   -0.07   -1.84   -0.07   -1.84  -36.14   49.61
    3.09  -36.08   46.69   -0.08   -1.99   -0.08   -1.99  -36.08   46.69
    3.11  -36.28   47.58   -0.08   -1.96   -0.08   -1.96  -36.28   47.58
    3.13  -36.05   47.10   -0.08   -1.84   -0.08   -1.84  -36.05   47.10
    3.15  -36.08   47.81   -0.07   -1.78   -0.07   -1.78  -36.08   47.81
    3.17  -35.98   47.70   -0.07   -1.92   -0.07   -1.92  -35.98   47.70
    3.19  -35.99   46.74   -0.08   -1.87   -0.08   -1.87  -35.99   46.74
    3.21  -36.02   45.05   -0.07   -1.73   -0.07   -1.73  -36.02   45.05
    3.23  -36.09   46.62   -0.09   -1.81   -0.09   -1.81  -36.09   46.62
    3.25  -35.94   46.94   -0.07   -1.95   -0.07   -1.95  -35.94   46.94
    3.27  -35.79   45.49   -0.06   -1.86   -0.06   -1.86  -35.79   45.49
    3.29  -35.81   44.92   -0.07   -1.91   -0.07   -1.91  -35.81   44.92
    3.31  -35.97   44.30   -0.07   -1.88   -0.07   -1.88  -35.97   44.30
    3.33  -36.09   45.23   -0.07   -1.96   -0.07   -1.96  -36.09   45.23
    3.35  -36.01   45.00   -0.08   -1.95   -0.08   -1.95  -36.01   45.00
    3.37  -36.00   43.94   -0.08   -2.03   -0.08   -2.03  -36.00   43.94
    3.39  -35.87   42.45   -0.07   -2.03   -0.07   -2.03  -35.87   42.45
    3.41  -36.10   42.47   -0.09   -1.92   -0.09   -1.92  -36.10   42.47
    3.43  -36.11   43.32   -0.08   -2.03   -0.08   -2.03  -36.11   43.32
    3.45  -36.09   44.05   -0.09   -1.90   -0.09   -1.90  -36.09   44.05
    3.47  -35.69   42.06   -0.09   -2.02   -0.09   -2.02  -35.69   42.06
    3.49  -36.04   41.59   -0.08   -2.00   -0.08   -2.00  -36.04   41.59
    3.51  -36.38   41.68   -0.08   -2.10   -0.08   -2.10  -36.38   41.68
    3.53  -36.55   41.30   -0.08   -2.06   -0.08   -2.06  -36.55   41.30
    3.55  -36.34   41.78   -0.07   -2.00   -0.07   -2.00  -36.34   41.78
    3.57  -36.19   41.50   -0.07   -2.03   -0.07   -2.03  -36.19   41.50
    3.59  -36.35   38.91   -0.08   -1.87   -0.08   -1.87  -36.35   38.91
    3.61  -36.38   38.73   -0.07   -2.22   -0.07   -2.22  -36.38   38.73
    3.62  -36.45   39.30   -0.06   -2.06   -0.06   -2.06  -36.45   39.30
    3.64  -36.58   40.54   -0.08   -2.09   -0.08   -2.09  -36.58   40.54
    3.66  -36.37   39.85   -0.09   -2.06   -0.09   -2.06  -36.37   39.85
    3.68  -36.55   39.54   -0.08   -2.19   -0.08   -2.19  -36.55   39.54
    3.70  -36.68   37.38   -0.08   -2.07   -0.08   -2.07  -36.68   37.38
    3.72  -36.50   36.20   -0.10   -2.09   -0.10   -2.09  -36.50   36.20
    3.74  -36.45   36.45   -0.09   -2.16   -0.09   -2.16  -36.45   36.45
    3.76  -36.53   35.43   -0.09   -2.27   -0.09   -2.27  -36.53   35.43
    3.78  -36.71   35.60   -0.09   -2.35   -0.09   -2.35  -36.71   35.60
    3.80  -36.76   35.45   -0.10   -2.05   -0.10   -2.05  -36.76   35.45
    3.82  -36.84   33.25   -0.09   -2.26   -0.09   -2.26  -36.84   33.25
    3.84  -36.82   32.76   -0.10   -2.18   -0.10   -2.18  -36.82   32.76
    3.86  -37.05   30.84   -0.09   -2.16   -0.09   -2.16  -37.05   30.84
    3.88  -37.19   29.14   -0.10   -2.29   -0.10   -2.29  -37.19   29.14
    3.90  -37.23   28.40   -0.10   -2.17   -0.10   -2.17  -37.23   28.40
    3.92  -37.24   28.78   -0.09   -2.12   -0.09   -2.12  -37.24   28.78
    3.94  -37.30   26.69   -0.08   -2.27   -0.08   -2.27  -37.30   26.69
    3.96  -37.31   24.97   -0.10   -2.15   -0.10   -2.15  -37.31   24.97
    3.98  -37.64   23.73   -0.09   -2.37   -0.09   -2.37  -37.64   23.73
    4.00  -37.30   33.35   -0.09   -2.49   -0.09   -2.49  -37.30   33.35
