!  American Technical Ceramics  Date:    3/13/98
!  One Norden Lane
!  Huntington Station,  NY.   11746-2102
!  Tel:  (516) 547-5700               Fax:  (516) 547-5748
!  Part Number  700A150G
!  Description: Porcelain, High Q, Low ESR
!  Application: Bypass, Coupling, Timing, Feedback
!               Tuning, Impedance Match, Blocking
# GHZ S DB R 50
! Freq   |S11|   S11 Ph  |S21|   S21 Ph  |S12|   S12 Ph  |S22|   S22 Ph
    0.05   -0.77  -24.53   -7.60   65.80   -7.60   65.80   -0.77  -24.53
    0.11   -3.11  -45.66   -2.88   43.93   -2.88   43.93   -3.11  -45.66
    0.17   -5.43  -58.44   -1.44   31.81   -1.44   31.81   -5.43  -58.44
    0.24   -7.55  -65.71   -0.82   24.45   -0.82   24.45   -7.55  -65.71
    0.30   -9.32  -70.86   -0.51   19.73   -0.51   19.73   -9.32  -70.86
    0.36  -10.85  -74.20   -0.34   16.50   -0.34   16.50  -10.85  -74.20
    0.42  -12.16  -76.99   -0.24   14.06   -0.24   14.06  -12.16  -76.99
    0.48  -13.33  -78.74   -0.17   12.29   -0.17   12.29  -13.33  -78.74
    0.54  -14.64  -80.28   -0.14   10.48   -0.14   10.48  -14.64  -80.28
    0.61  -15.61  -81.83   -0.11    9.41   -0.11    9.41  -15.61  -81.83
    0.67  -16.50  -82.70   -0.10    8.41   -0.10    8.41  -16.50  -82.70
    0.73  -17.32  -83.41   -0.07    7.50   -0.07    7.50  -17.32  -83.41
    0.79  -18.09  -84.25   -0.06    6.88   -0.06    6.88  -18.09  -84.25
    0.85  -18.85  -85.22   -0.04    6.22   -0.04    6.22  -18.85  -85.22
    0.91  -19.54  -85.68   -0.05    5.76   -0.05    5.76  -19.54  -85.68
    0.98  -20.15  -86.51   -0.03    5.29   -0.03    5.29  -20.15  -86.51
    1.04  -20.88  -86.71   -0.03    4.76   -0.03    4.76  -20.88  -86.71
    1.10  -21.51  -87.34   -0.02    4.41   -0.02    4.41  -21.51  -87.34
    1.16  -22.06  -87.70   -0.01    4.10   -0.01    4.10  -22.06  -87.70
    1.22  -22.69  -87.89   -0.01    3.78   -0.01    3.78  -22.69  -87.89
    1.29  -23.35  -88.11   -0.02    3.40   -0.02    3.40  -23.35  -88.11
    1.35  -23.90  -88.39    0.00    3.16    0.00    3.16  -23.90  -88.39
    1.41  -24.49  -88.37    0.00    2.92    0.00    2.92  -24.49  -88.37
    1.47  -25.08  -88.98    0.00    2.70    0.00    2.70  -25.08  -88.98
    1.53  -25.71  -88.52   -0.01    2.49   -0.01    2.49  -25.71  -88.52
    1.59  -26.38  -89.60    0.00    2.27    0.00    2.27  -26.38  -89.60
    1.66  -26.87  -89.26   -0.01    2.02   -0.01    2.02  -26.87  -89.26
    1.72  -27.57  -88.04   -0.02    1.73   -0.02    1.73  -27.57  -88.04
    1.78  -28.39  -88.83   -0.02    1.68   -0.02    1.68  -28.39  -88.83
    1.84  -28.96  -88.79    0.00    1.42    0.00    1.42  -28.96  -88.79
    1.90  -29.64  -88.21    0.00    1.17    0.00    1.17  -29.64  -88.21
    1.96  -30.46  -87.61    0.01    1.12    0.01    1.12  -30.46  -87.61
    2.03  -31.33  -85.96   -0.01    0.92   -0.01    0.92  -31.33  -85.96
    2.09  -32.33  -87.14   -0.01    0.71   -0.01    0.71  -32.33  -87.14
    2.15  -32.98  -85.64   -0.02    0.68   -0.02    0.68  -32.98  -85.64
    2.21  -33.96  -83.27   -0.01    0.42   -0.01    0.42  -33.96  -83.27
    2.27  -35.22  -82.75   -0.01    0.54   -0.01    0.54  -35.22  -82.75
    2.33  -36.11  -81.53   -0.02    0.30   -0.02    0.30  -36.11  -81.53
    2.40  -37.61  -77.09   -0.01    0.06   -0.01    0.06  -37.61  -77.09
    2.46  -39.00  -75.05   -0.01    0.08   -0.01    0.08  -39.00  -75.05
    2.52  -40.33  -69.27   -0.01   -0.07   -0.01   -0.07  -40.33  -69.27
    2.58  -42.32  -60.33   -0.02   -0.22   -0.02   -0.22  -42.32  -60.33
    2.64  -44.40  -52.52   -0.02   -0.35   -0.02   -0.35  -44.40  -52.52
    2.71  -45.48  -35.37   -0.01   -0.46   -0.01   -0.46  -45.48  -35.37
    2.77  -47.48  -13.72   -0.01   -0.55   -0.01   -0.55  -47.48  -13.72
    2.83  -45.63    3.38   -0.01   -0.60   -0.01   -0.60  -45.63    3.38
    2.89  -44.92   25.53   -0.01   -0.72   -0.01   -0.72  -44.92   25.53
    2.95  -43.71   33.09   -0.03   -0.91   -0.03   -0.91  -43.71   33.09
    3.01  -42.16   40.61   -0.01   -1.23   -0.01   -1.23  -42.16   40.61
    3.08  -40.74   46.57   -0.03   -1.14   -0.03   -1.14  -40.74   46.57
    3.14  -39.80   50.94   -0.01   -1.16   -0.01   -1.16  -39.80   50.94
    3.20  -38.33   50.89   -0.04   -1.42   -0.04   -1.42  -38.33   50.89
    3.26  -37.32   55.00   -0.02   -1.52   -0.02   -1.52  -37.32   55.00
    3.32  -37.08   56.11   -0.03   -1.49   -0.03   -1.49  -37.08   56.11
    3.38  -36.30   56.57   -0.04   -1.73   -0.04   -1.73  -36.30   56.57
    3.45  -35.34   56.78   -0.04   -1.65   -0.04   -1.65  -35.34   56.78
    3.51  -35.64   58.05   -0.03   -1.74   -0.03   -1.74  -35.64   58.05
    3.57  -34.77   57.87   -0.03   -1.95   -0.03   -1.95  -34.77   57.87
    3.63  -34.37   59.38   -0.03   -1.90   -0.03   -1.90  -34.37   59.38
    3.69  -34.41   58.77   -0.06   -1.98   -0.06   -1.98  -34.41   58.77
    3.76  -33.88   59.04   -0.04   -2.21   -0.04   -2.21  -33.88   59.04
    3.82  -33.36   59.85   -0.03   -2.37   -0.03   -2.37  -33.36   59.85
    3.88  -33.74   57.93   -0.04   -2.38   -0.04   -2.38  -33.74   57.93
    3.94  -33.37   57.79   -0.03   -2.46   -0.03   -2.46  -33.37   57.79
    4.00  -32.64   61.07   -0.04   -2.48   -0.04   -2.48  -32.64   61.07
    4.06  -32.36   62.33   -0.05   -2.64   -0.05   -2.64  -32.36   62.33
    4.13  -32.21   62.05   -0.05   -2.70   -0.05   -2.70  -32.21   62.05
    4.19  -32.07   61.60   -0.04   -2.82   -0.04   -2.82  -32.07   61.60
    4.25  -32.02   63.20   -0.06   -2.79   -0.06   -2.79  -32.02   63.20
    4.31  -31.87   64.80   -0.04   -2.91   -0.04   -2.91  -31.87   64.80
    4.37  -31.48   65.75   -0.06   -3.05   -0.06   -3.05  -31.48   65.75
    4.43  -31.44   65.57   -0.06   -3.06   -0.06   -3.06  -31.44   65.57
    4.50  -31.13   65.25   -0.06   -3.24   -0.06   -3.24  -31.13   65.25
    4.56  -30.75   67.03   -0.05   -3.40   -0.05   -3.40  -30.75   67.03
    4.62  -30.84   66.36   -0.07   -3.40   -0.07   -3.40  -30.84   66.36
    4.68  -30.58   66.85   -0.06   -3.46   -0.06   -3.46  -30.58   66.85
    4.74  -30.28   67.52   -0.07   -3.64   -0.07   -3.64  -30.28   67.52
    4.80  -30.17   67.68   -0.09   -3.83   -0.09   -3.83  -30.17   67.68
    4.87  -29.81   67.77   -0.08   -3.70   -0.08   -3.70  -29.81   67.77
    4.93  -29.68   69.18   -0.08   -4.01   -0.08   -4.01  -29.68   69.18
    4.99  -29.45   68.12   -0.06   -4.14   -0.06   -4.14  -29.45   68.12
    5.05  -29.05   69.58   -0.08   -4.20   -0.08   -4.20  -29.05   69.58
    5.11  -28.77   68.85   -0.07   -4.44   -0.07   -4.44  -28.77   68.85
    5.18  -28.67   68.51   -0.09   -4.36   -0.09   -4.36  -28.67   68.51
    5.24  -28.26   68.70   -0.09   -4.50   -0.09   -4.50  -28.26   68.70
    5.30  -27.93   69.73   -0.08   -4.73   -0.08   -4.73  -27.93   69.73
    5.36  -27.59   68.67   -0.11   -4.84   -0.11   -4.84  -27.59   68.67
    5.42  -27.36   69.18   -0.09   -5.00   -0.09   -5.00  -27.36   69.18
    5.48  -26.77   69.31   -0.11   -5.06   -0.11   -5.06  -26.77   69.31
    5.55  -26.49   69.04   -0.10   -5.12   -0.10   -5.12  -26.49   69.04
    5.61  -26.16   68.38   -0.11   -5.42   -0.11   -5.42  -26.16   68.38
    5.67  -25.64   69.25   -0.13   -5.62   -0.13   -5.62  -25.64   69.25
    5.73  -25.04   69.20   -0.12   -5.70   -0.12   -5.70  -25.04   69.20
    5.79  -24.58   69.16   -0.12   -6.11   -0.12   -6.11  -24.58   69.16
    5.85  -23.95   68.55   -0.13   -6.18   -0.13   -6.18  -23.95   68.55
    5.92  -23.43   68.14   -0.15   -6.60   -0.15   -6.60  -23.43   68.14
    5.98  -22.59   67.81   -0.17   -6.73   -0.17   -6.73  -22.59   67.81
    6.04  -21.97   65.98   -0.18   -7.16   -0.18   -7.16  -21.97   65.98
    6.10  -21.18   64.92   -0.21   -7.54   -0.21   -7.54  -21.18   64.92
    6.16  -20.29   63.34   -0.24   -8.21   -0.24   -8.21  -20.29   63.34
    6.23  -19.18   61.90   -0.29   -8.76   -0.29   -8.76  -19.18   61.90
    6.29  -18.04   59.08   -0.35   -9.62   -0.35   -9.62  -18.04   59.08
    6.35  -16.60   54.55   -0.53  -10.59   -0.53  -10.59  -16.60   54.55
    6.41  -14.85   46.70   -0.81  -12.19   -0.81  -12.19  -14.85   46.70
    6.47  -12.75   34.10   -1.38  -13.45   -1.38  -13.45  -12.75   34.10
    6.53  -11.49    9.32   -2.45  -10.00   -2.45  -10.00  -11.49    9.32
    6.60  -12.36  -21.29   -2.42    0.45   -2.42    0.45  -12.36  -21.29
    6.66  -15.53  -41.95   -1.37    3.43   -1.37    3.43  -15.53  -41.95
    6.72  -19.14  -50.70   -0.77    2.17   -0.77    2.17  -19.14  -50.70
    6.78  -22.58  -51.32   -0.52    0.79   -0.52    0.79  -22.58  -51.32
    6.84  -25.66  -44.11   -0.41   -0.49   -0.41   -0.49  -25.66  -44.11
    6.90  -27.86  -32.39   -0.32   -1.29   -0.32   -1.29  -27.86  -32.39
    6.97  -29.31  -15.39   -0.29   -1.98   -0.29   -1.98  -29.31  -15.39
    7.03  -29.64    0.23   -0.27   -2.33   -0.27   -2.33  -29.64    0.23
    7.09  -29.22   14.18   -0.26   -2.87   -0.26   -2.87  -29.22   14.18
    7.15  -28.22   23.19   -0.25   -3.20   -0.25   -3.20  -28.22   23.19
    7.21  -27.13   29.49   -0.25   -3.55   -0.25   -3.55  -27.13   29.49
    7.27  -26.36   33.48   -0.26   -3.93   -0.26   -3.93  -26.36   33.48
    7.34  -25.54   36.12   -0.26   -4.15   -0.26   -4.15  -25.54   36.12
    7.40  -24.71   37.33   -0.26   -4.25   -0.26   -4.25  -24.71   37.33
    7.46  -24.32   39.81   -0.27   -4.31   -0.27   -4.31  -24.32   39.81
    7.52  -23.82   39.59   -0.29   -4.51   -0.29   -4.51  -23.82   39.59
    7.58  -23.14   40.44   -0.30   -4.56   -0.30   -4.56  -23.14   40.44
    7.65  -22.88   41.84   -0.29   -4.77   -0.29   -4.77  -22.88   41.84
    7.71  -22.51   42.67   -0.28   -4.98   -0.28   -4.98  -22.51   42.67
    7.77  -22.08   42.80   -0.29   -4.81   -0.29   -4.81  -22.08   42.80
    7.83  -21.87   44.11   -0.31   -5.08   -0.31   -5.08  -21.87   44.11
    7.89  -21.35   45.52   -0.30   -4.94   -0.30   -4.94  -21.35   45.52
    7.95  -21.14   45.58   -0.31   -5.10   -0.31   -5.10  -21.14   45.58
    8.02  -20.94   45.13   -0.32   -5.28   -0.32   -5.28  -20.94   45.13
    8.08  -20.53   47.30   -0.32   -5.28   -0.32   -5.28  -20.53   47.30
    8.14  -20.21   47.17   -0.33   -5.47   -0.33   -5.47  -20.21   47.17
    8.20  -20.02   48.03   -0.33   -5.51   -0.33   -5.51  -20.02   48.03
    8.26  -19.76   47.96   -0.34   -5.58   -0.34   -5.58  -19.76   47.96
    8.32  -19.47   49.13   -0.32   -5.50   -0.32   -5.50  -19.47   49.13
    8.39  -19.19   49.48   -0.32   -5.61   -0.32   -5.61  -19.19   49.48
    8.45  -19.18   50.53   -0.33   -5.99   -0.33   -5.99  -19.18   50.53
    8.51  -18.74   50.18   -0.32   -5.94   -0.32   -5.94  -18.74   50.18
    8.57  -18.51   51.43   -0.31   -5.97   -0.31   -5.97  -18.51   51.43
    8.63  -18.36   51.66   -0.33   -6.06   -0.33   -6.06  -18.36   51.66
    8.70  -18.10   52.74   -0.32   -6.07   -0.32   -6.07  -18.10   52.74
    8.76  -17.89   51.53   -0.34   -6.32   -0.34   -6.32  -17.89   51.53
    8.82  -17.69   53.02   -0.33   -6.14   -0.33   -6.14  -17.69   53.02
    8.88  -17.49   52.89   -0.34   -6.25   -0.34   -6.25  -17.49   52.89
    8.94  -17.34   52.43   -0.33   -6.30   -0.33   -6.30  -17.34   52.43
    9.00  -17.09   52.26   -0.35   -6.40   -0.35   -6.40  -17.09   52.26
    9.07  -17.00   53.28   -0.36   -6.72   -0.36   -6.72  -17.00   53.28
    9.13  -16.91   53.20   -0.35   -6.64   -0.35   -6.64  -16.91   53.20
    9.19  -16.84   52.80   -0.35   -6.50   -0.35   -6.50  -16.84   52.80
    9.25  -16.63   52.90   -0.33   -6.77   -0.33   -6.77  -16.63   52.90
    9.31  -16.54   53.62   -0.38   -6.54   -0.38   -6.54  -16.54   53.62
    9.37  -16.48   53.43   -0.36   -6.73   -0.36   -6.73  -16.48   53.43
    9.44  -16.48   53.87   -0.36   -6.60   -0.36   -6.60  -16.48   53.87
    9.50  -16.29   54.10   -0.34   -6.80   -0.34   -6.80  -16.29   54.10
    9.56  -16.15   54.71   -0.37   -6.81   -0.37   -6.81  -16.15   54.71
    9.62  -16.17   54.86   -0.36   -6.79   -0.36   -6.79  -16.17   54.86
    9.68  -16.04   54.39   -0.34   -6.87   -0.34   -6.87  -16.04   54.39
    9.74  -16.01   55.20   -0.36   -7.03   -0.36   -7.03  -16.01   55.20
    9.81  -15.85   56.17   -0.34   -6.94   -0.34   -6.94  -15.85   56.17
    9.87  -15.82   55.50   -0.37   -7.23   -0.37   -7.23  -15.82   55.50
    9.93  -15.76   56.52   -0.33   -7.06   -0.33   -7.06  -15.76   56.52
    9.99  -15.64   56.27   -0.34   -7.24   -0.34   -7.24  -15.64   56.27
   10.05  -15.56   57.01   -0.35   -7.13   -0.35   -7.13  -15.56   57.01
   10.12  -15.61   56.54   -0.36   -7.26   -0.36   -7.26  -15.61   56.54
   10.18  -15.45   56.88   -0.35   -7.58   -0.35   -7.58  -15.45   56.88
   10.24  -15.36   57.35   -0.36   -7.25   -0.36   -7.25  -15.36   57.35
   10.30  -15.32   57.93   -0.33   -7.61   -0.33   -7.61  -15.32   57.93
   10.36  -15.28   57.72   -0.37   -7.64   -0.37   -7.64  -15.28   57.72
   10.42  -15.20   57.96   -0.35   -7.83   -0.35   -7.83  -15.20   57.96
   10.49  -15.04   58.36   -0.37   -7.75   -0.37   -7.75  -15.04   58.36
   10.55  -14.99   58.75   -0.35   -7.91   -0.35   -7.91  -14.99   58.75
   10.61  -14.92   58.21   -0.36   -8.04   -0.36   -8.04  -14.92   58.21
   10.67  -14.78   58.57   -0.34   -8.27   -0.34   -8.27  -14.78   58.57
   10.73  -14.71   58.48   -0.37   -8.18   -0.37   -8.18  -14.71   58.48
   10.79  -14.54   58.73   -0.36   -8.64   -0.36   -8.64  -14.54   58.73
   10.86  -14.42   57.95   -0.40   -8.80   -0.40   -8.80  -14.42   57.95
   10.92  -14.33   57.99   -0.39   -8.88   -0.39   -8.88  -14.33   57.99
   10.98  -14.17   57.90   -0.39   -9.11   -0.39   -9.11  -14.17   57.90
   11.04  -13.90   57.33   -0.40   -9.31   -0.40   -9.31  -13.90   57.33
   11.10  -13.90   56.43   -0.44   -9.61   -0.44   -9.61  -13.90   56.43
   11.17  -13.66   56.06   -0.46  -10.01   -0.46  -10.01  -13.66   56.06
   11.23  -13.35   55.12   -0.58  -10.33   -0.58  -10.33  -13.35   55.12
   11.29  -13.16   53.92   -0.54  -10.58   -0.54  -10.58  -13.16   53.92
   11.35  -12.94   51.41   -0.63  -11.15   -0.63  -11.15  -12.94   51.41
   11.41  -12.54   49.22   -0.74  -11.62   -0.74  -11.62  -12.54   49.22
   11.47  -12.20   45.37   -0.94  -11.82   -0.94  -11.82  -12.20   45.37
   11.54  -11.92   39.35   -1.17  -12.03   -1.17  -12.03  -11.92   39.35
   11.60  -11.96   31.09   -1.51  -11.04   -1.51  -11.04  -11.96   31.09
   11.66  -12.52   21.03   -1.78   -8.29   -1.78   -8.29  -12.52   21.03
   11.72  -14.00   11.53   -1.68   -4.51   -1.68   -4.51  -14.00   11.53
   11.78  -16.33    9.52   -1.32   -2.71   -1.32   -2.71  -16.33    9.52
   11.84  -18.45   14.48   -0.97   -2.49   -0.97   -2.49  -18.45   14.48
   11.91  -19.61   24.99   -0.72   -2.75   -0.72   -2.75  -19.61   24.99
   11.97  -19.67   35.64   -0.58   -3.53   -0.58   -3.53  -19.67   35.64
   12.03  -19.58   42.67   -0.50   -4.22   -0.50   -4.22  -19.58   42.67
   12.09  -19.12   46.40   -0.40   -4.81   -0.40   -4.81  -19.12   46.40
   12.15  -18.60   49.25   -0.39   -5.25   -0.39   -5.25  -18.60   49.25
   12.21  -18.18   51.17   -0.39   -5.60   -0.39   -5.60  -18.18   51.17
   12.28  -17.99   51.67   -0.34   -6.13   -0.34   -6.13  -17.99   51.67
   12.34  -17.61   52.14   -0.33   -6.47   -0.33   -6.47  -17.61   52.14
   12.40  -17.36   52.73   -0.32   -6.81   -0.32   -6.81  -17.36   52.73
