!  American Technical Ceramics  Date:    3/13/98
!  One Norden Lane
!  Huntington Station,  NY.   11746-2102
!  Tel:  (516) 547-5700               Fax:  (516) 547-5748
!  Part Number  700A391F
!  Description: Porcelain, High Q, Low ESR
!  Application: Bypass, Coupling, Timing, Feedback
!               Tuning, Impedance Match, Blocking
# GHZ S DB R 50
! Freq   |S11|   S11 Ph  |S21|   S21 Ph  |S12|   S12 Ph  |S22|   S22 Ph
    0.05  -21.56  -86.80   -0.04    4.83   -0.04    4.83  -21.56  -86.80
    0.07  -24.84  -87.03   -0.02    3.36   -0.02    3.36  -24.84  -87.03
    0.09  -27.03  -90.42    0.00    2.45    0.00    2.45  -27.03  -90.42
    0.11  -28.20  -92.10   -0.03    2.01   -0.03    2.01  -28.20  -92.10
    0.13  -30.03  -91.86   -0.02    1.52   -0.02    1.52  -30.03  -91.86
    0.15  -31.53  -95.18    0.02    1.47    0.02    1.47  -31.53  -95.18
    0.17  -32.38  -93.82   -0.02    1.27   -0.02    1.27  -32.38  -93.82
    0.19  -33.97  -93.39    0.03    1.11    0.03    1.11  -33.97  -93.39
    0.21  -35.05  -95.46    0.00    1.09    0.00    1.09  -35.05  -95.46
    0.23  -35.73  -96.81    0.01    0.92    0.01    0.92  -35.73  -96.81
    0.25  -36.72  -95.72    0.00    0.73    0.00    0.73  -36.72  -95.72
    0.27  -37.31  -98.51    0.00    0.77    0.00    0.77  -37.31  -98.51
    0.29  -38.48 -101.08    0.01    0.44    0.01    0.44  -38.48 -101.08
    0.31  -38.94 -100.49    0.02    0.58    0.02    0.58  -38.94 -100.49
    0.33  -39.81 -101.66   -0.01    0.44   -0.01    0.44  -39.81 -101.66
    0.35  -40.68 -101.66    0.00    0.40    0.00    0.40  -40.68 -101.66
    0.37  -41.98 -102.19   -0.01    0.26   -0.01    0.26  -41.98 -102.19
    0.39  -42.53 -104.71   -0.01    0.22   -0.01    0.22  -42.53 -104.71
    0.41  -43.34 -102.41   -0.01    0.18   -0.01    0.18  -43.34 -102.41
    0.43  -43.45 -108.12    0.00    0.23    0.00    0.23  -43.45 -108.12
    0.45  -44.44 -111.60   -0.01    0.19   -0.01    0.19  -44.44 -111.60
    0.46  -45.45 -111.62    0.01    0.28    0.01    0.28  -45.45 -111.62
    0.48  -46.25 -118.08    0.00    0.14    0.00    0.14  -46.25 -118.08
    0.50  -46.87 -117.42   -0.02   -0.09   -0.02   -0.09  -46.87 -117.42
    0.52  -47.41 -118.54    0.00    0.06    0.00    0.06  -47.41 -118.54
    0.54  -47.84 -123.11    0.00   -0.05    0.00   -0.05  -47.84 -123.11
    0.56  -51.17 -134.79    0.00   -0.02    0.00   -0.02  -51.17 -134.79
    0.58  -50.92 -124.93   -0.01   -0.11   -0.01   -0.11  -50.92 -124.93
    0.60  -50.06 -140.78   -0.01    0.03   -0.01    0.03  -50.06 -140.78
    0.62  -52.18 -147.77   -0.01   -0.21   -0.01   -0.21  -52.18 -147.77
    0.64  -53.70 -158.36    0.00   -0.06    0.00   -0.06  -53.70 -158.36
    0.66  -55.33 -159.27    0.00   -0.26    0.00   -0.26  -55.33 -159.27
    0.68  -55.56 -160.55    0.00   -0.24    0.00   -0.24  -55.56 -160.55
    0.70  -56.75 -175.47    0.01   -0.36    0.01   -0.36  -56.75 -175.47
    0.72  -54.28  161.58   -0.01   -0.27   -0.01   -0.27  -54.28  161.58
    0.74  -55.35  156.54    0.00   -0.27    0.00   -0.27  -55.35  156.54
    0.76  -54.23  139.58    0.01   -0.26    0.01   -0.26  -54.23  139.58
    0.78  -52.72  131.26    0.00   -0.27    0.00   -0.27  -52.72  131.26
    0.80  -52.63  133.80    0.00   -0.42    0.00   -0.42  -52.63  133.80
    0.82  -51.08  128.92    0.00   -0.41    0.00   -0.41  -51.08  128.92
    0.84  -50.11  120.63    0.01   -0.37    0.01   -0.37  -50.11  120.63
    0.86  -49.33  103.83    0.00   -0.55    0.00   -0.55  -49.33  103.83
    0.88  -50.18  110.79   -0.01   -0.47   -0.01   -0.47  -50.18  110.79
    0.90  -48.13  115.28   -0.01   -0.47   -0.01   -0.47  -48.13  115.28
    0.92  -47.23  105.68   -0.01   -0.46   -0.01   -0.46  -47.23  105.68
    0.94  -47.50   99.96   -0.01   -0.50   -0.01   -0.50  -47.50   99.96
    0.96  -46.58  106.87    0.00   -0.52    0.00   -0.52  -46.58  106.87
    0.98  -45.59  103.13   -0.01   -0.48   -0.01   -0.48  -45.59  103.13
    1.00  -44.71   99.24   -0.01   -0.67   -0.01   -0.67  -44.71   99.24
    1.02  -43.92   98.27    0.01   -0.67    0.01   -0.67  -43.92   98.27
    1.04  -43.55   93.25    0.00   -0.61    0.00   -0.61  -43.55   93.25
    1.06  -43.41   92.30   -0.01   -0.65   -0.01   -0.65  -43.41   92.30
    1.08  -42.76   93.88    0.01   -0.70    0.01   -0.70  -42.76   93.88
    1.10  -42.03   93.15    0.00   -0.76    0.00   -0.76  -42.03   93.15
    1.12  -41.23   93.33   -0.01   -0.71   -0.01   -0.71  -41.23   93.33
    1.14  -40.22   90.01   -0.01   -0.79   -0.01   -0.79  -40.22   90.01
    1.16  -39.72   87.88   -0.01   -0.87   -0.01   -0.87  -39.72   87.88
    1.18  -39.59   85.93    0.00   -1.06    0.00   -1.06  -39.59   85.93
    1.20  -38.63   85.68   -0.03   -0.93   -0.03   -0.93  -38.63   85.68
    1.22  -37.59   84.17   -0.03   -0.94   -0.03   -0.94  -37.59   84.17
    1.24  -36.42   80.04   -0.02   -1.31   -0.02   -1.31  -36.42   80.04
    1.25  -35.47   75.93   -0.05   -1.38   -0.05   -1.38  -35.47   75.93
    1.27  -34.16   71.08   -0.06   -1.54   -0.06   -1.54  -34.16   71.08
    1.29  -32.31   64.70   -0.09   -1.62   -0.09   -1.62  -32.31   64.70
    1.31  -30.35   49.70   -0.17   -1.62   -0.17   -1.62  -30.35   49.70
    1.33  -29.19   22.65   -0.30   -1.20   -0.30   -1.20  -29.19   22.65
    1.35  -30.58  -10.09   -0.28   -0.12   -0.28   -0.12  -30.58  -10.09
    1.37  -34.21  -32.82   -0.16    0.29   -0.16    0.29  -34.21  -32.82
    1.39  -38.44  -41.09   -0.10    0.05   -0.10    0.05  -38.44  -41.09
    1.41  -42.35  -41.34   -0.07    0.02   -0.07    0.02  -42.35  -41.34
    1.43  -45.94  -36.44   -0.04   -0.12   -0.04   -0.12  -45.94  -36.44
    1.45  -51.38  -31.25   -0.02   -0.30   -0.02   -0.30  -51.38  -31.25
    1.47  -57.33   25.62   -0.03   -0.24   -0.03   -0.24  -57.33   25.62
    1.49  -52.75   68.50   -0.02   -0.32   -0.02   -0.32  -52.75   68.50
    1.51  -48.97   62.33    0.00   -0.61    0.00   -0.61  -48.97   62.33
    1.53  -48.05   64.11   -0.02   -0.50   -0.02   -0.50  -48.05   64.11
    1.55  -48.11   73.19   -0.01   -0.62   -0.01   -0.62  -48.11   73.19
    1.57  -47.24   81.46   -0.01   -0.62   -0.01   -0.62  -47.24   81.46
    1.59  -44.44   84.56    0.00   -0.63    0.00   -0.63  -44.44   84.56
    1.61  -42.73   77.42   -0.01   -0.84   -0.01   -0.84  -42.73   77.42
    1.63  -43.26   76.61   -0.02   -0.76   -0.02   -0.76  -43.26   76.61
    1.65  -43.71   81.08   -0.02   -0.97   -0.02   -0.97  -43.71   81.08
    1.67  -41.73   91.65   -0.03   -0.88   -0.03   -0.88  -41.73   91.65
    1.69  -40.63   81.62   -0.03   -0.78   -0.03   -0.78  -40.63   81.62
    1.71  -40.76   76.43   -0.04   -0.68   -0.04   -0.68  -40.76   76.43
    1.73  -41.40   76.95    0.00   -0.93    0.00   -0.93  -41.40   76.95
    1.75  -40.84   84.85   -0.02   -0.85   -0.02   -0.85  -40.84   84.85
    1.77  -39.60   84.73   -0.01   -0.87   -0.01   -0.87  -39.60   84.73
    1.79  -39.11   80.32   -0.02   -0.97   -0.02   -0.97  -39.11   80.32
    1.81  -39.11   77.29   -0.01   -0.82   -0.01   -0.82  -39.11   77.29
    1.83  -39.45   77.94   -0.01   -0.89   -0.01   -0.89  -39.45   77.94
    1.85  -39.05   80.89   -0.01   -0.92   -0.01   -0.92  -39.05   80.89
    1.87  -38.41   84.64   -0.01   -0.90   -0.01   -0.90  -38.41   84.64
    1.89  -37.83   82.25   -0.02   -0.94   -0.02   -0.94  -37.83   82.25
    1.91  -37.54   78.95   -0.01   -1.12   -0.01   -1.12  -37.54   78.95
    1.93  -37.52   77.51   -0.02   -1.10   -0.02   -1.10  -37.52   77.51
    1.95  -37.68   78.15   -0.02   -1.10   -0.02   -1.10  -37.68   78.15
    1.97  -37.22   79.89   -0.01   -1.17   -0.01   -1.17  -37.22   79.89
    1.99  -36.58   79.47   -0.01   -1.23   -0.01   -1.23  -36.58   79.47
    2.01  -36.15   77.11    0.00   -1.16    0.00   -1.16  -36.15   77.11
    2.03  -36.15   75.84   -0.02   -1.14   -0.02   -1.14  -36.15   75.84
    2.04  -36.43   77.42   -0.01   -1.30   -0.01   -1.30  -36.43   77.42
    2.06  -36.13   80.04   -0.01   -1.33   -0.01   -1.33  -36.13   80.04
    2.08  -35.34   79.45   -0.02   -1.40   -0.02   -1.40  -35.34   79.45
    2.10  -35.16   75.51   -0.02   -1.40   -0.02   -1.40  -35.16   75.51
    2.12  -35.34   74.69   -0.04   -1.36   -0.04   -1.36  -35.34   74.69
    2.14  -35.39   77.27   -0.03   -1.44   -0.03   -1.44  -35.39   77.27
    2.16  -34.56   78.38   -0.05   -1.39   -0.05   -1.39  -34.56   78.38
    2.18  -34.24   76.39   -0.04   -1.45   -0.04   -1.45  -34.24   76.39
    2.20  -34.22   74.59   -0.03   -1.41   -0.03   -1.41  -34.22   74.59
    2.22  -34.19   74.96   -0.03   -1.49   -0.03   -1.49  -34.19   74.96
    2.24  -33.97   76.04   -0.04   -1.36   -0.04   -1.36  -33.97   76.04
    2.26  -33.39   75.19   -0.05   -1.57   -0.05   -1.57  -33.39   75.19
    2.28  -33.03   73.39   -0.04   -1.61   -0.04   -1.61  -33.03   73.39
    2.30  -32.72   71.15   -0.05   -1.54   -0.05   -1.54  -32.72   71.15
    2.32  -32.64   70.24   -0.07   -1.75   -0.07   -1.75  -32.64   70.24
    2.34  -32.23   68.90   -0.06   -1.67   -0.06   -1.67  -32.23   68.90
    2.36  -31.73   67.55   -0.06   -1.61   -0.06   -1.61  -31.73   67.55
    2.38  -31.27   64.36   -0.08   -1.68   -0.08   -1.68  -31.27   64.36
    2.40  -31.12   59.43   -0.11   -1.49   -0.11   -1.49  -31.12   59.43
    2.42  -31.20   52.53   -0.11   -1.64   -0.11   -1.64  -31.20   52.53
    2.44  -31.59   47.59   -0.15   -1.57   -0.15   -1.57  -31.59   47.59
    2.46  -31.99   42.48   -0.15   -1.36   -0.15   -1.36  -31.99   42.48
    2.48  -33.00   37.81   -0.14   -1.20   -0.14   -1.20  -33.00   37.81
    2.50  -34.16   36.54   -0.13   -1.15   -0.13   -1.15  -34.16   36.54
    2.52  -35.67   40.08   -0.11   -1.02   -0.11   -1.02  -35.67   40.08
    2.54  -36.22   47.08   -0.10   -0.91   -0.10   -0.91  -36.22   47.08
    2.56  -35.98   54.67   -0.09   -0.97   -0.09   -0.97  -35.98   54.67
    2.58  -35.88   56.70   -0.07   -1.11   -0.07   -1.11  -35.88   56.70
    2.60  -35.77   58.58   -0.07   -1.24   -0.07   -1.24  -35.77   58.58
    2.62  -36.11   63.39   -0.07   -1.24   -0.07   -1.24  -36.11   63.39
    2.64  -35.83   66.57   -0.04   -1.12   -0.04   -1.12  -35.83   66.57
    2.66  -35.17   68.24   -0.06   -1.30   -0.06   -1.30  -35.17   68.24
    2.68  -34.84   67.59   -0.06   -1.30   -0.06   -1.30  -34.84   67.59
    2.70  -34.76   66.53   -0.04   -1.19   -0.04   -1.19  -34.76   66.53
    2.72  -34.68   68.76   -0.05   -1.35   -0.05   -1.35  -34.68   68.76
    2.74  -34.51   70.57   -0.05   -1.40   -0.05   -1.40  -34.51   70.57
    2.76  -34.32   71.21   -0.04   -1.47   -0.04   -1.47  -34.32   71.21
    2.78  -33.90   70.92   -0.04   -1.42   -0.04   -1.42  -33.90   70.92
    2.80  -33.78   71.19   -0.03   -1.52   -0.03   -1.52  -33.78   71.19
    2.82  -33.65   70.64   -0.05   -1.40   -0.05   -1.40  -33.65   70.64
    2.83  -33.65   70.19   -0.04   -1.40   -0.04   -1.40  -33.65   70.19
    2.85  -33.65   71.68   -0.04   -1.43   -0.04   -1.43  -33.65   71.68
    2.87  -33.35   71.72   -0.03   -1.57   -0.03   -1.57  -33.35   71.72
    2.89  -33.10   72.16   -0.04   -1.54   -0.04   -1.54  -33.10   72.16
    2.91  -33.07   71.45   -0.03   -1.61   -0.03   -1.61  -33.07   71.45
    2.93  -33.00   71.20   -0.04   -1.55   -0.04   -1.55  -33.00   71.20
    2.95  -32.89   72.98   -0.04   -1.63   -0.04   -1.63  -32.89   72.98
    2.97  -32.69   72.23   -0.03   -1.70   -0.03   -1.70  -32.69   72.23
    2.99  -32.60   71.76   -0.04   -1.68   -0.04   -1.68  -32.60   71.76
    3.01  -32.57   71.35   -0.03   -1.70   -0.03   -1.70  -32.57   71.35
    3.03  -32.43   71.50   -0.07   -1.74   -0.07   -1.74  -32.43   71.50
    3.05  -32.29   71.73   -0.04   -1.72   -0.04   -1.72  -32.29   71.73
    3.07  -32.07   72.14   -0.05   -1.72   -0.05   -1.72  -32.07   72.14
    3.09  -32.11   70.68   -0.04   -1.89   -0.04   -1.89  -32.11   70.68
    3.11  -32.10   71.42   -0.04   -1.98   -0.04   -1.98  -32.10   71.42
    3.13  -31.93   70.78   -0.04   -1.71   -0.04   -1.71  -31.93   70.78
    3.15  -31.74   71.47   -0.06   -1.63   -0.06   -1.63  -31.74   71.47
    3.17  -31.62   70.34   -0.03   -1.84   -0.03   -1.84  -31.62   70.34
    3.19  -31.61   70.27   -0.04   -1.88   -0.04   -1.88  -31.61   70.27
    3.21  -31.61   69.29   -0.04   -1.74   -0.04   -1.74  -31.61   69.29
    3.23  -31.41   70.11   -0.05   -1.88   -0.05   -1.88  -31.41   70.11
    3.25  -31.31   69.88   -0.04   -1.92   -0.04   -1.92  -31.31   69.88
    3.27  -31.22   69.66   -0.05   -1.88   -0.05   -1.88  -31.22   69.66
    3.29  -31.15   68.24   -0.05   -1.85   -0.05   -1.85  -31.15   68.24
    3.31  -31.08   68.28   -0.06   -1.97   -0.06   -1.97  -31.08   68.28
    3.33  -31.15   67.98   -0.05   -2.03   -0.05   -2.03  -31.15   67.98
    3.35  -30.91   68.04   -0.06   -2.03   -0.06   -2.03  -30.91   68.04
    3.37  -30.76   66.53   -0.05   -2.19   -0.05   -2.19  -30.76   66.53
    3.39  -30.70   65.84   -0.06   -2.07   -0.06   -2.07  -30.70   65.84
    3.41  -30.64   65.44   -0.08   -2.12   -0.08   -2.12  -30.64   65.44
    3.43  -30.57   65.02   -0.08   -2.09   -0.08   -2.09  -30.57   65.02
    3.45  -30.39   64.03   -0.08   -2.11   -0.08   -2.11  -30.39   64.03
    3.47  -30.29   61.83   -0.09   -2.11   -0.09   -2.11  -30.29   61.83
    3.49  -30.35   60.55   -0.10   -2.08   -0.10   -2.08  -30.35   60.55
    3.51  -30.42   58.77   -0.11   -2.14   -0.11   -2.14  -30.42   58.77
    3.53  -30.67   56.74   -0.11   -2.09   -0.11   -2.09  -30.67   56.74
    3.55  -30.64   55.93   -0.11   -1.98   -0.11   -1.98  -30.64   55.93
    3.57  -30.73   54.13   -0.12   -2.04   -0.12   -2.04  -30.73   54.13
    3.59  -31.15   52.06   -0.13   -1.80   -0.13   -1.80  -31.15   52.06
    3.61  -31.45   51.42   -0.11   -2.04   -0.11   -2.04  -31.45   51.42
    3.62  -31.82   51.70   -0.11   -1.81   -0.11   -1.81  -31.82   51.70
    3.64  -32.05   53.13   -0.09   -1.79   -0.09   -1.79  -32.05   53.13
    3.66  -32.30   54.06   -0.10   -1.78   -0.10   -1.78  -32.30   54.06
    3.68  -32.53   54.19   -0.08   -1.89   -0.08   -1.89  -32.53   54.19
    3.70  -32.81   54.56   -0.09   -1.75   -0.09   -1.75  -32.81   54.56
    3.72  -32.91   54.81   -0.10   -1.83   -0.10   -1.83  -32.91   54.81
    3.74  -32.75   56.64   -0.09   -1.96   -0.09   -1.96  -32.75   56.64
    3.76  -32.98   57.26   -0.07   -1.91   -0.07   -1.91  -32.98   57.26
    3.78  -33.11   58.76   -0.07   -2.03   -0.07   -2.03  -33.11   58.76
    3.80  -32.93   59.46   -0.07   -1.85   -0.07   -1.85  -32.93   59.46
    3.82  -33.10   60.06   -0.08   -1.98   -0.08   -1.98  -33.10   60.06
    3.84  -33.10   60.26   -0.08   -1.89   -0.08   -1.89  -33.10   60.26
    3.86  -33.24   59.68   -0.06   -1.99   -0.06   -1.99  -33.24   59.68
    3.88  -33.39   60.59   -0.08   -1.99   -0.08   -1.99  -33.39   60.59
    3.90  -33.29   60.49   -0.08   -1.92   -0.08   -1.92  -33.29   60.49
    3.92  -33.33   61.51   -0.06   -1.94   -0.06   -1.94  -33.33   61.51
    3.94  -33.21   60.59   -0.07   -2.10   -0.07   -2.10  -33.21   60.59
    3.96  -33.33   60.54   -0.07   -1.89   -0.07   -1.89  -33.33   60.54
    3.98  -33.54   61.04   -0.07   -2.16   -0.07   -2.16  -33.54   61.04
    4.00  -32.75   65.52   -0.06   -2.22   -0.06   -2.22  -32.75   65.52
