!  American Technical Ceramics  Date:    3/13/98
!  One Norden Lane
!  Huntington Station,  NY.   11746-2102
!  Tel:  (516) 547-5700               Fax:  (516) 547-5748
!  Part Number  700A5R6C
!  Description: Porcelain, High Q, Low ESR
!  Application: Bypass, Coupling, Timing, Feedback
!               Tuning, Impedance Match, Blocking
# GHZ S DB R 50
! Freq   |S11|   S11 Ph  |S21|   S21 Ph  |S12|   S12 Ph  |S22|   S22 Ph
    0.05    0.00   -9.61  -15.47   79.63  -15.47   79.63    0.00   -9.61
    0.14   -0.84  -25.64   -7.36   64.26   -7.36   64.26   -0.84  -25.64
    0.23   -2.05  -38.41   -4.21   51.71   -4.21   51.71   -2.05  -38.41
    0.32   -3.36  -48.22   -2.61   42.25   -2.61   42.25   -3.36  -48.22
    0.41   -4.70  -55.50   -1.76   35.35   -1.76   35.35   -4.70  -55.50
    0.50   -5.95  -60.63   -1.24   29.95   -1.24   29.95   -5.95  -60.63
    0.59   -7.35  -65.29   -0.90   25.31   -0.90   25.31   -7.35  -65.29
    0.68   -8.40  -68.56   -0.70   22.33   -0.70   22.33   -8.40  -68.56
    0.77   -9.38  -71.23   -0.55   19.79   -0.55   19.79   -9.38  -71.23
    0.86  -10.34  -73.59   -0.44   17.60   -0.44   17.60  -10.34  -73.59
    0.95  -11.14  -75.32   -0.36   15.94   -0.36   15.94  -11.14  -75.32
    1.04  -11.98  -77.08   -0.32   14.46   -0.32   14.46  -11.98  -77.08
    1.13  -12.70  -78.59   -0.25   13.10   -0.25   13.10  -12.70  -78.59
    1.22  -13.45  -79.26   -0.23   12.08   -0.23   12.08  -13.45  -79.26
    1.31  -14.16  -80.54   -0.18   11.11   -0.18   11.11  -14.16  -80.54
    1.40  -14.86  -81.40   -0.16   10.27   -0.16   10.27  -14.86  -81.40
    1.49  -15.53  -82.59   -0.13    9.48   -0.13    9.48  -15.53  -82.59
    1.58  -16.14  -83.67   -0.10    8.80   -0.10    8.80  -16.14  -83.67
    1.67  -16.84  -84.42   -0.14    8.18   -0.14    8.18  -16.84  -84.42
    1.76  -17.47  -84.65   -0.10    7.63   -0.10    7.63  -17.47  -84.65
    1.85  -18.08  -85.38   -0.07    7.00   -0.07    7.00  -18.08  -85.38
    1.93  -18.76  -85.21   -0.08    6.58   -0.08    6.58  -18.76  -85.21
    2.02  -19.35  -85.72   -0.05    5.86   -0.05    5.86  -19.35  -85.72
    2.11  -20.05  -85.75   -0.07    5.53   -0.07    5.53  -20.05  -85.75
    2.20  -20.73  -86.22   -0.07    5.32   -0.07    5.32  -20.73  -86.22
    2.29  -21.38  -86.50   -0.07    4.78   -0.07    4.78  -21.38  -86.50
    2.38  -22.06  -86.76   -0.07    4.43   -0.07    4.43  -22.06  -86.76
    2.47  -22.80  -87.09   -0.04    3.94   -0.04    3.94  -22.80  -87.09
    2.56  -23.58  -86.32   -0.03    3.58   -0.03    3.58  -23.58  -86.32
    2.65  -24.36  -86.50   -0.07    3.43   -0.07    3.43  -24.36  -86.50
    2.74  -25.04  -86.66   -0.05    3.10   -0.05    3.10  -25.04  -86.66
    2.83  -25.89  -86.07   -0.03    2.83   -0.03    2.83  -25.89  -86.07
    2.92  -26.81  -86.82   -0.04    2.58   -0.04    2.58  -26.81  -86.82
    3.01  -27.70  -85.52   -0.04    2.27   -0.04    2.27  -27.70  -85.52
    3.10  -28.74  -84.70   -0.06    2.09   -0.06    2.09  -28.74  -84.70
    3.19  -29.56  -83.41   -0.06    1.75   -0.06    1.75  -29.56  -83.41
    3.28  -30.78  -82.47   -0.02    1.34   -0.02    1.34  -30.78  -82.47
    3.37  -31.64  -79.17   -0.05    1.35   -0.05    1.35  -31.64  -79.17
    3.46  -32.85  -77.71   -0.05    1.03   -0.05    1.03  -32.85  -77.71
    3.55  -33.78  -75.53   -0.04    0.83   -0.04    0.83  -33.78  -75.53
    3.64  -34.81  -72.30   -0.05    0.65   -0.05    0.65  -34.81  -72.30
    3.73  -35.88  -69.13   -0.06    0.30   -0.06    0.30  -35.88  -69.13
    3.82  -37.54  -62.91   -0.07    0.43   -0.07    0.43  -37.54  -62.91
    3.91  -38.22  -58.46   -0.08    0.17   -0.08    0.17  -38.22  -58.46
    4.00  -41.07  -50.95   -0.05   -0.19   -0.05   -0.19  -41.07  -50.95
    4.09  -42.25  -37.58   -0.05   -0.40   -0.05   -0.40  -42.25  -37.58
    4.18  -43.78  -21.57   -0.06   -0.45   -0.06   -0.45  -43.78  -21.57
    4.27  -44.95  -16.07   -0.07   -0.50   -0.07   -0.50  -44.95  -16.07
    4.36  -44.56   16.39   -0.08   -0.82   -0.08   -0.82  -44.56   16.39
    4.45  -43.30   28.68   -0.08   -1.01   -0.08   -1.01  -43.30   28.68
    4.54  -42.28   37.89   -0.06   -1.10   -0.06   -1.10  -42.28   37.89
    4.63  -41.47   42.91   -0.09   -1.26   -0.09   -1.26  -41.47   42.91
    4.72  -39.72   52.85   -0.09   -1.57   -0.09   -1.57  -39.72   52.85
    4.81  -39.05   58.20   -0.08   -1.67   -0.08   -1.67  -39.05   58.20
    4.90  -38.34   60.35   -0.08   -1.64   -0.08   -1.64  -38.34   60.35
    4.99  -37.07   63.08   -0.11   -1.84   -0.11   -1.84  -37.07   63.08
    5.08  -35.62   67.76   -0.11   -2.16   -0.11   -2.16  -35.62   67.76
    5.17  -34.99   68.55   -0.09   -2.43   -0.09   -2.43  -34.99   68.55
    5.26  -34.27   69.10   -0.09   -2.42   -0.09   -2.42  -34.27   69.10
    5.35  -33.34   69.72   -0.11   -2.51   -0.11   -2.51  -33.34   69.72
    5.44  -33.01   70.85   -0.10   -2.73   -0.10   -2.73  -33.01   70.85
    5.52  -32.06   70.48   -0.11   -2.89   -0.11   -2.89  -32.06   70.48
    5.61  -31.40   70.34   -0.12   -2.88   -0.12   -2.88  -31.40   70.34
    5.70  -30.66   72.86   -0.12   -3.14   -0.12   -3.14  -30.66   72.86
    5.79  -30.13   73.05   -0.13   -3.34   -0.13   -3.34  -30.13   73.05
    5.88  -29.38   72.97   -0.13   -3.31   -0.13   -3.31  -29.38   72.97
    5.97  -28.64   73.08   -0.13   -3.48   -0.13   -3.48  -28.64   73.08
    6.06  -28.00   72.41   -0.13   -3.85   -0.13   -3.85  -28.00   72.41
    6.15  -27.43   71.86   -0.13   -3.92   -0.13   -3.92  -27.43   71.86
    6.24  -26.68   71.88   -0.15   -4.11   -0.15   -4.11  -26.68   71.88
    6.33  -26.18   71.10   -0.15   -4.28   -0.15   -4.28  -26.18   71.10
    6.42  -25.54   69.34   -0.16   -4.34   -0.16   -4.34  -25.54   69.34
    6.51  -24.87   68.70   -0.15   -4.52   -0.15   -4.52  -24.87   68.70
    6.60  -24.15   67.87   -0.16   -4.82   -0.16   -4.82  -24.15   67.87
    6.69  -23.63   67.37   -0.17   -4.95   -0.17   -4.95  -23.63   67.37
    6.78  -23.03   65.35   -0.19   -4.99   -0.19   -4.99  -23.03   65.35
    6.87  -22.52   65.07   -0.19   -5.17   -0.19   -5.17  -22.52   65.07
    6.96  -21.94   63.26   -0.21   -5.44   -0.21   -5.44  -21.94   63.26
    7.05  -21.62   63.57   -0.24   -5.62   -0.24   -5.62  -21.62   63.57
    7.14  -21.04   62.49   -0.21   -5.47   -0.21   -5.47  -21.04   62.49
    7.23  -20.54   61.58   -0.24   -5.91   -0.24   -5.91  -20.54   61.58
    7.32  -20.19   60.27   -0.27   -6.03   -0.27   -6.03  -20.19   60.27
    7.41  -19.66   58.85   -0.29   -6.18   -0.29   -6.18  -19.66   58.85
    7.50  -19.15   58.62   -0.32   -6.10   -0.32   -6.10  -19.15   58.62
    7.59  -18.73   57.07   -0.33   -6.24   -0.33   -6.24  -18.73   57.07
    7.68  -18.73   56.98   -0.32   -6.35   -0.32   -6.35  -18.73   56.98
    7.77  -18.31   55.99   -0.32   -6.16   -0.32   -6.16  -18.31   55.99
    7.86  -18.23   57.34   -0.37   -6.26   -0.37   -6.26  -18.23   57.34
    7.95  -17.82   56.60   -0.35   -6.48   -0.35   -6.48  -17.82   56.60
    8.04  -17.63   57.65   -0.34   -6.69   -0.34   -6.69  -17.63   57.65
    8.13  -17.04   57.12   -0.35   -6.63   -0.35   -6.63  -17.04   57.12
    8.22  -16.86   58.23   -0.37   -6.82   -0.37   -6.82  -16.86   58.23
    8.31  -16.59   58.19   -0.41   -6.79   -0.41   -6.79  -16.59   58.19
    8.40  -16.25   57.47   -0.39   -6.97   -0.39   -6.97  -16.25   57.47
    8.49  -15.93   58.84   -0.36   -7.13   -0.36   -7.13  -15.93   58.84
    8.58  -15.71   58.31   -0.39   -7.01   -0.39   -7.01  -15.71   58.31
    8.67  -15.62   58.99   -0.43   -7.31   -0.43   -7.31  -15.62   58.99
    8.76  -15.22   57.62   -0.38   -7.35   -0.38   -7.35  -15.22   57.62
    8.85  -15.12   59.07   -0.40   -7.37   -0.40   -7.37  -15.12   59.07
    8.94  -14.91   57.92   -0.45   -7.64   -0.45   -7.64  -14.91   57.92
    9.03  -14.69   58.26   -0.42   -7.72   -0.42   -7.72  -14.69   58.26
    9.11  -14.48   58.32   -0.41   -7.70   -0.41   -7.70  -14.48   58.32
    9.20  -14.27   58.61   -0.44   -8.05   -0.44   -8.05  -14.27   58.61
    9.29  -14.19   58.73   -0.46   -7.92   -0.46   -7.92  -14.19   58.73
    9.38  -13.97   58.37   -0.46   -7.93   -0.46   -7.93  -13.97   58.37
    9.47  -13.85   59.37   -0.46   -8.14   -0.46   -8.14  -13.85   59.37
    9.56  -13.62   59.36   -0.44   -8.21   -0.44   -8.21  -13.62   59.36
    9.65  -13.60   59.32   -0.44   -8.24   -0.44   -8.24  -13.60   59.32
    9.74  -13.57   59.28   -0.49   -8.36   -0.49   -8.36  -13.57   59.28
    9.83  -13.33   59.75   -0.42   -8.56   -0.42   -8.56  -13.33   59.75
    9.92  -13.38   59.80   -0.46   -8.54   -0.46   -8.54  -13.38   59.80
   10.01  -13.18   59.13   -0.47   -8.67   -0.47   -8.67  -13.18   59.13
   10.10  -13.09   59.35   -0.48   -8.93   -0.48   -8.93  -13.09   59.35
   10.19  -12.94   59.65   -0.46   -9.16   -0.46   -9.16  -12.94   59.65
   10.28  -12.90   60.14   -0.45   -9.06   -0.45   -9.06  -12.90   60.14
   10.37  -12.73   59.88   -0.45   -9.13   -0.45   -9.13  -12.73   59.88
   10.46  -12.55   60.53   -0.47   -9.49   -0.47   -9.49  -12.55   60.53
   10.55  -12.47   60.62   -0.45   -9.57   -0.45   -9.57  -12.47   60.62
   10.64  -12.27   60.81   -0.46   -9.78   -0.46   -9.78  -12.27   60.81
   10.73  -12.26   60.01   -0.52  -10.05   -0.52  -10.05  -12.26   60.01
   10.82  -11.99   60.14   -0.49  -10.51   -0.49  -10.51  -11.99   60.14
   10.91  -11.95   59.30   -0.49  -10.52   -0.49  -10.52  -11.95   59.30
   11.00  -11.76   59.32   -0.50  -10.80   -0.50  -10.80  -11.76   59.32
   11.09  -11.63   58.54   -0.55  -11.25   -0.55  -11.25  -11.63   58.54
   11.18  -11.48   58.26   -0.52  -11.66   -0.52  -11.66  -11.48   58.26
   11.27  -11.33   57.66   -0.59  -11.91   -0.59  -11.91  -11.33   57.66
   11.36  -11.09   56.26   -0.61  -12.54   -0.61  -12.54  -11.09   56.26
   11.45  -10.86   56.27   -0.66  -13.02   -0.66  -13.02  -10.86   56.27
   11.54  -10.55   54.77   -0.70  -13.60   -0.70  -13.60  -10.55   54.77
   11.63  -10.25   53.91   -0.78  -14.49   -0.78  -14.49  -10.25   53.91
   11.72   -9.90   51.53   -0.86  -15.09   -0.86  -15.09   -9.90   51.53
   11.81   -9.53   49.80   -0.98  -16.11   -0.98  -16.11   -9.53   49.80
   11.90   -9.04   45.94   -1.11  -16.98   -1.11  -16.98   -9.04   45.94
   11.99   -8.50   42.56   -1.41  -18.37   -1.41  -18.37   -8.50   42.56
   12.08   -7.99   36.30   -1.83  -19.69   -1.83  -19.69   -7.99   36.30
   12.17   -7.47   27.40   -2.55  -20.97   -2.55  -20.97   -7.47   27.40
   12.26   -7.00   14.98   -3.61  -18.99   -3.61  -18.99   -7.00   14.98
   12.35   -7.26   -1.86   -4.71   -9.98   -4.71   -9.98   -7.26   -1.86
   12.44   -9.00  -19.16   -4.28    2.88   -4.28    2.88   -9.00  -19.16
   12.53  -11.93  -33.98   -2.78    7.79   -2.78    7.79  -11.93  -33.98
   12.62  -15.96  -36.48   -1.73    6.50   -1.73    6.50  -15.96  -36.48
   12.70  -20.08  -27.57   -1.14    4.38   -1.14    4.38  -20.08  -27.57
   12.79  -22.91   -1.51   -0.85    1.80   -0.85    1.80  -22.91   -1.51
   12.88  -22.56   24.09   -0.67    0.03   -0.67    0.03  -22.56   24.09
   12.97  -20.76   39.01   -0.57   -1.37   -0.57   -1.37  -20.76   39.01
   13.06  -19.31   47.58   -0.51   -2.58   -0.51   -2.58  -19.31   47.58
   13.15  -18.08   48.86   -0.47   -3.80   -0.47   -3.80  -18.08   48.86
   13.24  -17.04   52.07   -0.46   -4.49   -0.46   -4.49  -17.04   52.07
   13.33  -16.19   51.33   -0.43   -5.35   -0.43   -5.35  -16.19   51.33
   13.42  -15.65   53.33   -0.47   -6.06   -0.47   -6.06  -15.65   53.33
   13.51  -14.87   51.47   -0.43   -6.79   -0.43   -6.79  -14.87   51.47
   13.60  -14.38   52.90   -0.44   -7.35   -0.44   -7.35  -14.38   52.90
   13.69  -13.85   52.35   -0.49   -7.68   -0.49   -7.68  -13.85   52.35
   13.78  -13.59   51.79   -0.48   -8.72   -0.48   -8.72  -13.59   51.79
   13.87  -12.88   51.64   -0.48   -8.50   -0.48   -8.50  -12.88   51.64
   13.96  -12.49   52.39   -0.52   -8.64   -0.52   -8.64  -12.49   52.39
   14.05  -12.23   51.80   -0.58   -9.58   -0.58   -9.58  -12.23   51.80
   14.14  -11.87   50.68   -0.57  -10.08   -0.57  -10.08  -11.87   50.68
   14.23  -11.41   50.81   -0.60  -10.08   -0.60  -10.08  -11.41   50.81
   14.32  -11.09   51.48   -0.65  -10.23   -0.65  -10.23  -11.09   51.48
   14.41  -10.99   50.58   -0.66  -10.85   -0.66  -10.85  -10.99   50.58
   14.50  -10.77   49.80   -0.68  -11.47   -0.68  -11.47  -10.77   49.80
   14.59  -10.41   49.01   -0.71  -11.49   -0.71  -11.49  -10.41   49.01
   14.68  -10.22   49.54   -0.70  -11.59   -0.70  -11.59  -10.22   49.54
   14.77  -10.06   49.56   -0.74  -11.76   -0.74  -11.76  -10.06   49.56
   14.86   -9.86   49.05   -0.79  -12.28   -0.79  -12.28   -9.86   49.05
   14.95   -9.58   49.27   -0.79  -12.22   -0.79  -12.22   -9.58   49.27
   15.04   -9.53   50.55   -0.87  -11.94   -0.87  -11.94   -9.53   50.55
   15.13   -9.37   50.35   -0.91  -12.12   -0.91  -12.12   -9.37   50.35
   15.22   -9.16   50.03   -0.96  -12.71   -0.96  -12.71   -9.16   50.03
   15.31   -8.95   51.34   -0.92  -12.03   -0.92  -12.03   -8.95   51.34
   15.40   -8.84   50.39   -0.98  -12.35   -0.98  -12.35   -8.84   50.39
   15.49   -8.72   50.29   -1.01  -12.51   -1.01  -12.51   -8.72   50.29
   15.58   -8.50   49.15   -1.01  -12.75   -1.01  -12.75   -8.50   49.15
   15.67   -8.49   50.42   -0.99  -12.58   -0.99  -12.58   -8.49   50.42
   15.76   -8.30   49.76   -0.98  -12.73   -0.98  -12.73   -8.30   49.76
   15.85   -8.36   49.47   -1.06  -12.81   -1.06  -12.81   -8.36   49.47
   15.94   -8.14   48.79   -1.02  -12.96   -1.02  -12.96   -8.14   48.79
   16.03   -8.28   49.32   -1.07  -12.43   -1.07  -12.43   -8.28   49.32
   16.12   -8.19   48.84   -1.05  -12.67   -1.05  -12.67   -8.19   48.84
   16.21   -8.18   48.47   -1.10  -12.70   -1.10  -12.70   -8.18   48.47
   16.29   -7.99   49.16   -1.05  -12.95   -1.05  -12.95   -7.99   49.16
   16.38   -8.09   49.13   -1.09  -12.63   -1.09  -12.63   -8.09   49.13
   16.47   -8.01   48.47   -1.05  -12.69   -1.05  -12.69   -8.01   48.47
   16.56   -8.00   48.63   -1.04  -12.64   -1.04  -12.64   -8.00   48.63
   16.65   -8.02   47.91   -1.09  -12.92   -1.09  -12.92   -8.02   47.91
   16.74   -8.05   48.63   -1.03  -12.94   -1.03  -12.94   -8.05   48.63
   16.83   -8.08   47.43   -1.10  -12.97   -1.10  -12.97   -8.08   47.43
   16.92   -8.11   47.44   -1.08  -13.27   -1.08  -13.27   -8.11   47.44
   17.01   -8.03   46.98   -1.12  -13.86   -1.12  -13.86   -8.03   46.98
   17.10   -8.20   47.06   -1.08  -13.57   -1.08  -13.57   -8.20   47.06
   17.19   -8.15   47.08   -1.18  -14.17   -1.18  -14.17   -8.15   47.08
   17.28   -8.38   47.04   -1.19  -13.66   -1.19  -13.66   -8.38   47.04
   17.37   -8.43   48.05   -1.20  -13.79   -1.20  -13.79   -8.43   48.05
   17.46   -8.44   48.81   -1.26  -13.28   -1.26  -13.28   -8.44   48.81
   17.55   -8.22   49.23   -1.21  -13.28   -1.21  -13.28   -8.22   49.23
   17.64   -8.14   48.73   -1.25  -13.25   -1.25  -13.25   -8.14   48.73
   17.73   -8.11   48.76   -1.13  -13.26   -1.13  -13.26   -8.11   48.76
   17.82   -8.06   47.68   -1.17  -13.75   -1.17  -13.75   -8.06   47.68
   17.91   -8.10   47.51   -1.10  -14.51   -1.10  -14.51   -8.10   47.51
   18.00   -8.10   46.17   -1.11  -14.39   -1.11  -14.39   -8.10   46.17
