!  American Technical Ceramics  Date:    3/13/98
!  One Norden Lane
!  Huntington Station,  NY.   11746-2102
!  Tel:  (516) 547-5700               Fax:  (516) 547-5748
!  Part Number  700B331J
!  Description: Porcelain, High Q, Low ESR
!  Application: Bypass, Coupling, Timing, Feedback
!               Tuning, Impedance Match, Blocking
# GHZ S DB R 50
! Freq   |S11|   S11 Ph  |S21|   S21 Ph  |S12|   S12 Ph  |S22|   S22 Ph
    0.05  -19.88  -87.11   -0.08    5.02   -0.08    5.02  -19.88  -87.11
    0.07  -22.83  -86.40   -0.04    3.61   -0.04    3.61  -22.83  -86.40
    0.09  -25.10  -89.04   -0.01    2.83   -0.01    2.83  -25.10  -89.04
    0.11  -26.19  -88.90   -0.01    2.30   -0.01    2.30  -26.19  -88.90
    0.13  -27.85  -88.63    0.01    1.62    0.01    1.62  -27.85  -88.63
    0.15  -28.70  -90.16    0.01    1.66    0.01    1.66  -28.70  -90.16
    0.17  -29.27  -91.27   -0.01    1.13   -0.01    1.13  -29.27  -91.27
    0.19  -30.17  -89.10    0.01    1.23    0.01    1.23  -30.17  -89.10
    0.21  -30.70  -89.90   -0.01    1.03   -0.01    1.03  -30.70  -89.90
    0.23  -31.01  -89.67    0.01    0.68    0.01    0.68  -31.01  -89.67
    0.25  -31.16  -89.09    0.00    0.76    0.00    0.76  -31.16  -89.09
    0.27  -31.59  -92.22    0.00    0.51    0.00    0.51  -31.59  -92.22
    0.29  -31.72  -91.24    0.01    0.38    0.01    0.38  -31.72  -91.24
    0.31  -31.85  -91.23   -0.01    0.30   -0.01    0.30  -31.85  -91.23
    0.33  -31.86  -91.87   -0.01    0.04   -0.01    0.04  -31.86  -91.87
    0.35  -31.94  -90.59    0.01    0.05    0.01    0.05  -31.94  -90.59
    0.37  -31.97  -91.14    0.00   -0.16    0.00   -0.16  -31.97  -91.14
    0.39  -31.95  -91.60    0.01   -0.23    0.01   -0.23  -31.95  -91.60
    0.41  -31.97  -91.69    0.00   -0.38    0.00   -0.38  -31.97  -91.69
    0.43  -31.91  -92.75    0.00   -0.19    0.00   -0.19  -31.91  -92.75
    0.45  -31.79  -92.57   -0.01   -0.33   -0.01   -0.33  -31.79  -92.57
    0.46  -31.74  -92.56    0.01   -0.43    0.01   -0.43  -31.74  -92.56
    0.48  -31.59  -92.69    0.00   -0.56    0.00   -0.56  -31.59  -92.69
    0.50  -31.32  -94.83   -0.02   -0.62   -0.02   -0.62  -31.32  -94.83
    0.52  -31.24  -94.34   -0.01   -0.78   -0.01   -0.78  -31.24  -94.34
    0.54  -30.98  -94.24    0.01   -0.75    0.01   -0.75  -30.98  -94.24
    0.56  -30.97  -94.76   -0.02   -0.74   -0.02   -0.74  -30.97  -94.76
    0.58  -30.87  -94.80   -0.01   -0.93   -0.01   -0.93  -30.87  -94.80
    0.60  -30.62  -95.49   -0.01   -0.99   -0.01   -0.99  -30.62  -95.49
    0.62  -30.54  -94.60   -0.02   -1.03   -0.02   -1.03  -30.54  -94.60
    0.64  -30.42  -95.26    0.00   -1.08    0.00   -1.08  -30.42  -95.26
    0.66  -30.24  -95.37    0.00   -1.16    0.00   -1.16  -30.24  -95.37
    0.68  -30.15  -95.84   -0.01   -1.11   -0.01   -1.11  -30.15  -95.84
    0.70  -29.98  -94.94    0.00   -1.33    0.00   -1.33  -29.98  -94.94
    0.72  -29.88  -95.45   -0.01   -1.31   -0.01   -1.31  -29.88  -95.45
    0.74  -29.66  -96.08    0.00   -1.24    0.00   -1.24  -29.66  -96.08
    0.76  -29.57  -97.12    0.00   -1.32    0.00   -1.32  -29.57  -97.12
    0.78  -29.49  -96.59   -0.01   -1.49   -0.01   -1.49  -29.49  -96.59
    0.80  -29.38  -96.75   -0.01   -1.55   -0.01   -1.55  -29.38  -96.75
    0.82  -29.22  -96.97   -0.01   -1.59   -0.01   -1.59  -29.22  -96.97
    0.84  -29.17  -97.16   -0.01   -1.66   -0.01   -1.66  -29.17  -97.16
    0.86  -29.14  -97.05   -0.02   -1.79   -0.02   -1.79  -29.14  -97.05
    0.88  -29.00  -97.19   -0.01   -1.78   -0.01   -1.78  -29.00  -97.19
    0.90  -28.92  -97.74   -0.01   -1.82   -0.01   -1.82  -28.92  -97.74
    0.92  -28.83  -97.71   -0.02   -1.82   -0.02   -1.82  -28.83  -97.71
    0.94  -28.79  -98.22   -0.02   -2.07   -0.02   -2.07  -28.79  -98.22
    0.96  -28.75  -98.42   -0.02   -2.04   -0.02   -2.04  -28.75  -98.42
    0.98  -28.81  -98.34   -0.03   -2.11   -0.03   -2.11  -28.81  -98.34
    1.00  -28.92  -98.18   -0.02   -2.34   -0.02   -2.34  -28.92  -98.18
    1.02  -29.15  -98.02   -0.01   -2.46   -0.01   -2.46  -29.15  -98.02
    1.04  -29.45  -96.61   -0.03   -2.57   -0.03   -2.57  -29.45  -96.61
    1.06  -29.92  -95.68   -0.04   -2.79   -0.04   -2.79  -29.92  -95.68
    1.08  -30.89  -90.55   -0.06   -3.00   -0.06   -3.00  -30.89  -90.55
    1.10  -32.18  -75.61   -0.11   -3.52   -0.11   -3.52  -32.18  -75.61
    1.12  -29.74  -42.25   -0.26   -3.84   -0.26   -3.84  -29.74  -42.25
    1.14  -23.30  -48.73   -0.50   -2.33   -0.50   -2.33  -23.30  -48.73
    1.16  -21.99  -75.23   -0.30   -0.61   -0.30   -0.61  -21.99  -75.23
    1.18  -22.69  -87.51   -0.14   -0.96   -0.14   -0.96  -22.69  -87.51
    1.20  -23.33  -93.21   -0.10   -1.26   -0.10   -1.26  -23.33  -93.21
    1.22  -23.65  -94.71   -0.07   -1.43   -0.07   -1.43  -23.65  -94.71
    1.24  -23.88  -96.49   -0.07   -1.75   -0.07   -1.75  -23.88  -96.49
    1.25  -24.08  -97.30   -0.05   -1.87   -0.05   -1.87  -24.08  -97.30
    1.27  -24.11  -98.00   -0.05   -1.95   -0.05   -1.95  -24.11  -98.00
    1.29  -24.11  -98.66   -0.04   -2.06   -0.04   -2.06  -24.11  -98.66
    1.31  -24.11  -99.14   -0.04   -2.12   -0.04   -2.12  -24.11  -99.14
    1.33  -24.11  -99.66   -0.04   -2.21   -0.04   -2.21  -24.11  -99.66
    1.35  -24.09 -100.07   -0.03   -2.27   -0.03   -2.27  -24.09 -100.07
    1.37  -23.99 -100.29   -0.03   -2.30   -0.03   -2.30  -23.99 -100.29
    1.39  -23.97 -100.43   -0.03   -2.56   -0.03   -2.56  -23.97 -100.43
    1.41  -23.92 -100.54   -0.03   -2.52   -0.03   -2.52  -23.92 -100.54
    1.43  -23.84 -100.85   -0.03   -2.49   -0.03   -2.49  -23.84 -100.85
    1.45  -23.78 -101.50   -0.04   -2.60   -0.04   -2.60  -23.78 -101.50
    1.47  -23.72 -101.75   -0.03   -2.60   -0.03   -2.60  -23.72 -101.75
    1.49  -23.66 -102.06   -0.03   -2.61   -0.03   -2.61  -23.66 -102.06
    1.51  -23.59 -101.98   -0.03   -2.71   -0.03   -2.71  -23.59 -101.98
    1.53  -23.51 -101.97   -0.04   -2.85   -0.04   -2.85  -23.51 -101.97
    1.55  -23.37 -102.54   -0.03   -2.98   -0.03   -2.98  -23.37 -102.54
    1.57  -23.31 -102.67   -0.04   -2.92   -0.04   -2.92  -23.31 -102.67
    1.59  -23.30 -102.76   -0.05   -2.97   -0.05   -2.97  -23.30 -102.76
    1.61  -23.30 -102.54   -0.04   -3.08   -0.04   -3.08  -23.30 -102.54
    1.63  -23.14 -102.83   -0.05   -3.10   -0.05   -3.10  -23.14 -102.83
    1.65  -23.05 -103.12   -0.06   -3.17   -0.06   -3.17  -23.05 -103.12
    1.67  -23.01 -103.75   -0.04   -3.20   -0.04   -3.20  -23.01 -103.75
    1.69  -22.97 -103.38   -0.05   -3.23   -0.05   -3.23  -22.97 -103.38
    1.71  -22.88 -103.29   -0.05   -3.24   -0.05   -3.24  -22.88 -103.29
    1.73  -22.71 -103.44   -0.02   -3.43   -0.02   -3.43  -22.71 -103.44
    1.75  -22.74 -103.80   -0.04   -3.43   -0.04   -3.43  -22.74 -103.80
    1.77  -22.71 -104.00   -0.05   -3.51   -0.05   -3.51  -22.71 -104.00
    1.79  -22.62 -103.85   -0.07   -3.67   -0.07   -3.67  -22.62 -103.85
    1.81  -22.52 -103.89   -0.05   -3.62   -0.05   -3.62  -22.52 -103.89
    1.83  -22.48 -104.26   -0.05   -3.56   -0.05   -3.56  -22.48 -104.26
    1.85  -22.48 -104.50   -0.06   -3.69   -0.06   -3.69  -22.48 -104.50
    1.87  -22.42 -104.62   -0.06   -3.80   -0.06   -3.80  -22.42 -104.62
    1.89  -22.41 -104.63   -0.06   -3.95   -0.06   -3.95  -22.41 -104.63
    1.91  -22.37 -104.45   -0.06   -3.94   -0.06   -3.94  -22.37 -104.45
    1.93  -22.35 -104.13   -0.07   -4.10   -0.07   -4.10  -22.35 -104.13
    1.95  -22.39 -104.13   -0.07   -4.05   -0.07   -4.05  -22.39 -104.13
    1.97  -22.39 -103.57   -0.07   -4.27   -0.07   -4.27  -22.39 -103.57
    1.99  -22.53 -103.18   -0.08   -4.32   -0.08   -4.32  -22.53 -103.18
    2.01  -22.64 -101.55   -0.09   -4.54   -0.09   -4.54  -22.64 -101.55
    2.03  -22.67  -99.29   -0.13   -4.61   -0.13   -4.61  -22.67  -99.29
    2.04  -22.59  -96.05   -0.19   -4.60   -0.19   -4.60  -22.59  -96.05
    2.06  -22.06  -91.65   -0.22   -4.60   -0.22   -4.60  -22.06  -91.65
    2.08  -21.16  -90.18   -0.28   -4.20   -0.28   -4.20  -21.16  -90.18
    2.10  -20.34  -92.52   -0.26   -3.85   -0.26   -3.85  -20.34  -92.52
    2.12  -19.88  -95.81   -0.21   -3.57   -0.21   -3.57  -19.88  -95.81
    2.14  -19.76  -98.74   -0.17   -3.65   -0.17   -3.65  -19.76  -98.74
    2.16  -19.79 -100.90   -0.15   -3.50   -0.15   -3.50  -19.79 -100.90
    2.18  -19.81 -102.22   -0.13   -3.63   -0.13   -3.63  -19.81 -102.22
    2.20  -19.82 -103.17   -0.11   -3.73   -0.11   -3.73  -19.82 -103.17
    2.22  -19.78 -104.00   -0.11   -3.91   -0.11   -3.91  -19.78 -104.00
    2.24  -19.77 -104.51   -0.09   -4.02   -0.09   -4.02  -19.77 -104.51
    2.26  -19.81 -104.99   -0.09   -3.97   -0.09   -3.97  -19.81 -104.99
    2.28  -19.74 -105.28   -0.10   -4.06   -0.10   -4.06  -19.74 -105.28
    2.30  -19.67 -105.44   -0.10   -4.11   -0.10   -4.11  -19.67 -105.44
    2.32  -19.67 -106.03   -0.10   -4.24   -0.10   -4.24  -19.67 -106.03
    2.34  -19.71 -106.22   -0.08   -4.15   -0.08   -4.15  -19.71 -106.22
    2.36  -19.66 -106.49   -0.08   -4.35   -0.08   -4.35  -19.66 -106.49
    2.38  -19.58 -106.64   -0.10   -4.37   -0.10   -4.37  -19.58 -106.64
    2.40  -19.53 -106.67   -0.09   -4.28   -0.09   -4.28  -19.53 -106.67
    2.42  -19.49 -106.77   -0.08   -4.41   -0.08   -4.41  -19.49 -106.77
    2.44  -19.44 -107.36   -0.12   -4.60   -0.12   -4.60  -19.44 -107.36
    2.46  -19.39 -107.07   -0.09   -4.54   -0.09   -4.54  -19.39 -107.07
    2.48  -19.34 -107.38   -0.10   -4.63   -0.10   -4.63  -19.34 -107.38
    2.50  -19.30 -107.38   -0.08   -4.83   -0.08   -4.83  -19.30 -107.38
    2.52  -19.25 -107.78   -0.11   -4.73   -0.11   -4.73  -19.25 -107.78
    2.54  -19.21 -107.83   -0.10   -4.68   -0.10   -4.68  -19.21 -107.83
    2.56  -19.17 -108.07   -0.12   -4.78   -0.12   -4.78  -19.17 -108.07
    2.58  -19.17 -107.85   -0.08   -4.83   -0.08   -4.83  -19.17 -107.85
    2.60  -19.07 -108.25   -0.10   -5.10   -0.10   -5.10  -19.07 -108.25
    2.62  -19.05 -108.50   -0.13   -5.04   -0.13   -5.04  -19.05 -108.50
    2.64  -18.98 -108.31   -0.11   -4.98   -0.11   -4.98  -18.98 -108.31
    2.66  -18.95 -108.38   -0.10   -5.09   -0.10   -5.09  -18.95 -108.38
    2.68  -18.92 -108.47   -0.10   -5.30   -0.10   -5.30  -18.92 -108.47
    2.70  -18.85 -108.46   -0.11   -5.14   -0.11   -5.14  -18.85 -108.46
    2.72  -18.83 -108.84   -0.11   -5.29   -0.11   -5.29  -18.83 -108.84
    2.74  -18.82 -108.86   -0.12   -5.28   -0.12   -5.28  -18.82 -108.86
    2.76  -18.77 -108.92   -0.11   -5.38   -0.11   -5.38  -18.77 -108.92
    2.78  -18.72 -108.99   -0.11   -5.53   -0.11   -5.53  -18.72 -108.99
    2.80  -18.67 -108.91   -0.12   -5.55   -0.12   -5.55  -18.67 -108.91
    2.82  -18.66 -108.70   -0.13   -5.47   -0.13   -5.47  -18.66 -108.70
    2.83  -18.65 -108.68   -0.13   -5.56   -0.13   -5.56  -18.65 -108.68
    2.85  -18.62 -108.84   -0.13   -5.63   -0.13   -5.63  -18.62 -108.84
    2.87  -18.60 -108.67   -0.13   -5.80   -0.13   -5.80  -18.60 -108.67
    2.89  -18.56 -108.58   -0.14   -5.78   -0.14   -5.78  -18.56 -108.58
    2.91  -18.56 -108.37   -0.13   -5.96   -0.13   -5.96  -18.56 -108.37
    2.93  -18.58 -108.14   -0.15   -6.07   -0.15   -6.07  -18.58 -108.14
    2.95  -18.57 -107.36   -0.17   -6.10   -0.17   -6.10  -18.57 -107.36
    2.97  -18.51 -106.50   -0.19   -6.04   -0.19   -6.04  -18.51 -106.50
    2.99  -18.42 -105.46   -0.21   -6.11   -0.21   -6.11  -18.42 -105.46
    3.01  -18.25 -104.29   -0.22   -5.98   -0.22   -5.98  -18.25 -104.29
    3.03  -18.03 -103.79   -0.27   -5.94   -0.27   -5.94  -18.03 -103.79
    3.05  -17.73 -103.82   -0.24   -5.87   -0.24   -5.87  -17.73 -103.82
    3.07  -17.53 -104.67   -0.24   -5.70   -0.24   -5.70  -17.53 -104.67
    3.09  -17.38 -105.57   -0.23   -5.70   -0.23   -5.70  -17.38 -105.57
    3.11  -17.27 -106.39   -0.23   -5.68   -0.23   -5.68  -17.27 -106.39
    3.13  -17.19 -106.71   -0.20   -5.71   -0.20   -5.71  -17.19 -106.71
    3.15  -17.12 -107.50   -0.19   -5.60   -0.19   -5.60  -17.12 -107.50
    3.17  -17.11 -107.98   -0.18   -5.72   -0.18   -5.72  -17.11 -107.98
    3.19  -17.10 -108.48   -0.18   -5.84   -0.18   -5.84  -17.10 -108.48
    3.21  -17.03 -108.53   -0.16   -5.84   -0.16   -5.84  -17.03 -108.53
    3.23  -17.01 -109.04   -0.17   -5.98   -0.17   -5.98  -17.01 -109.04
    3.25  -17.01 -109.22   -0.15   -5.96   -0.15   -5.96  -17.01 -109.22
    3.27  -16.99 -109.41   -0.17   -5.94   -0.17   -5.94  -16.99 -109.41
    3.29  -16.95 -109.57   -0.17   -6.05   -0.17   -6.05  -16.95 -109.57
    3.31  -16.91 -109.74   -0.16   -6.17   -0.16   -6.17  -16.91 -109.74
    3.33  -16.90 -109.98   -0.17   -6.27   -0.17   -6.27  -16.90 -109.98
    3.35  -16.88 -110.03   -0.18   -6.21   -0.18   -6.21  -16.88 -110.03
    3.37  -16.82 -110.18   -0.18   -6.41   -0.18   -6.41  -16.82 -110.18
    3.39  -16.78 -109.83   -0.18   -6.31   -0.18   -6.31  -16.78 -109.83
    3.41  -16.75 -110.21   -0.18   -6.33   -0.18   -6.33  -16.75 -110.21
    3.43  -16.74 -110.36   -0.18   -6.45   -0.18   -6.45  -16.74 -110.36
    3.45  -16.74 -110.55   -0.19   -6.46   -0.19   -6.46  -16.74 -110.55
    3.47  -16.66 -110.56   -0.18   -6.67   -0.18   -6.67  -16.66 -110.56
    3.49  -16.65 -110.60   -0.19   -6.51   -0.19   -6.51  -16.65 -110.60
    3.51  -16.61 -110.75   -0.18   -6.67   -0.18   -6.67  -16.61 -110.75
    3.53  -16.54 -110.92   -0.18   -6.81   -0.18   -6.81  -16.54 -110.92
    3.55  -16.52 -110.71   -0.19   -6.73   -0.19   -6.73  -16.52 -110.71
    3.57  -16.48 -110.65   -0.18   -6.70   -0.18   -6.70  -16.48 -110.65
    3.59  -16.45 -110.74   -0.19   -6.71   -0.19   -6.71  -16.45 -110.74
    3.61  -16.43 -110.98   -0.19   -6.95   -0.19   -6.95  -16.43 -110.98
    3.62  -16.38 -111.18   -0.18   -6.96   -0.18   -6.96  -16.38 -111.18
    3.64  -16.38 -111.03   -0.20   -7.08   -0.20   -7.08  -16.38 -111.03
    3.66  -16.37 -111.02   -0.18   -7.02   -0.18   -7.02  -16.37 -111.02
    3.68  -16.34 -111.09   -0.19   -7.22   -0.19   -7.22  -16.34 -111.09
    3.70  -16.27 -110.97   -0.21   -7.12   -0.21   -7.12  -16.27 -110.97
    3.72  -16.25 -110.91   -0.22   -7.24   -0.22   -7.24  -16.25 -110.91
    3.74  -16.26 -110.89   -0.21   -7.42   -0.21   -7.42  -16.26 -110.89
    3.76  -16.19 -111.09   -0.20   -7.45   -0.20   -7.45  -16.19 -111.09
    3.78  -16.21 -111.13   -0.22   -7.59   -0.22   -7.59  -16.21 -111.13
    3.80  -16.21 -110.77   -0.23   -7.49   -0.23   -7.49  -16.21 -110.77
    3.82  -16.14 -110.54   -0.23   -7.53   -0.23   -7.53  -16.14 -110.54
    3.84  -16.15 -110.48   -0.24   -7.68   -0.24   -7.68  -16.15 -110.48
    3.86  -16.09 -110.30   -0.26   -7.76   -0.26   -7.76  -16.09 -110.30
    3.88  -16.04 -110.13   -0.26   -7.84   -0.26   -7.84  -16.04 -110.13
    3.90  -16.01 -109.61   -0.27   -7.86   -0.27   -7.86  -16.01 -109.61
    3.92  -15.99 -109.23   -0.28   -7.83   -0.28   -7.83  -15.99 -109.23
    3.94  -15.92 -108.75   -0.29   -7.93   -0.29   -7.93  -15.92 -108.75
    3.96  -15.82 -108.23   -0.32   -7.85   -0.32   -7.85  -15.82 -108.23
    3.98  -15.69 -107.96   -0.32   -7.93   -0.32   -7.93  -15.69 -107.96
    4.00  -15.84 -109.40   -0.30   -7.97   -0.30   -7.97  -15.84 -109.40
