!  American Technical Ceramics  Date:    3/13/98
!  One Norden Lane
!  Huntington Station,  NY.   11746-2102
!  Tel:  (516) 547-5700               Fax:  (516) 547-5748
!  Part Number  700B8R2J
!  Description: Porcelain, High Q, Low ESR
!  Application: Bypass, Coupling, Timing, Feedback
!               Tuning, Impedance Match, Blocking
# GHZ S DB R 50
! Freq   |S11|   S11 Ph  |S21|   S21 Ph  |S12|   S12 Ph  |S22|   S22 Ph
    0.05   -0.19  -14.74  -12.06   75.45  -12.06   75.45   -0.19  -14.74
    0.11   -1.25  -30.70   -5.99   59.11   -5.99   59.11   -1.25  -30.70
    0.17   -2.49  -43.28   -3.53   47.10   -3.53   47.10   -2.49  -43.28
    0.24   -3.90  -52.09   -2.24   38.49   -2.24   38.49   -3.90  -52.09
    0.30   -5.18  -58.92   -1.55   31.86   -1.55   31.86   -5.18  -58.92
    0.36   -6.35  -63.93   -1.12   27.01   -1.12   27.01   -6.35  -63.93
    0.42   -7.35  -68.02   -0.86   23.24   -0.86   23.24   -7.35  -68.02
    0.48   -8.24  -70.95   -0.67   20.31   -0.67   20.31   -8.24  -70.95
    0.54   -9.25  -73.69   -0.59   17.35   -0.59   17.35   -9.25  -73.69
    0.61   -9.99  -76.23   -0.50   15.51   -0.50   15.51   -9.99  -76.23
    0.67  -10.62  -77.92   -0.44   13.88   -0.44   13.88  -10.62  -77.92
    0.73  -11.15  -79.23   -0.36   12.43   -0.36   12.43  -11.15  -79.23
    0.79  -11.65  -80.77   -0.35   11.30   -0.35   11.30  -11.65  -80.77
    0.85  -12.09  -81.91   -0.30   10.22   -0.30   10.22  -12.09  -81.91
    0.91  -12.50  -83.27   -0.27    9.36   -0.27    9.36  -12.50  -83.27
    0.98  -12.81  -84.83   -0.26    8.40   -0.26    8.40  -12.81  -84.83
    1.04  -13.16  -85.70   -0.25    7.61   -0.25    7.61  -13.16  -85.70
    1.10  -13.44  -86.92   -0.22    6.91   -0.22    6.91  -13.44  -86.92
    1.16  -13.64  -87.85   -0.22    6.23   -0.22    6.23  -13.64  -87.85
    1.22  -13.83  -88.41   -0.21    5.63   -0.21    5.63  -13.83  -88.41
    1.29  -14.05  -89.72   -0.21    5.03   -0.21    5.03  -14.05  -89.72
    1.35  -14.26  -90.34   -0.19    4.59   -0.19    4.59  -14.26  -90.34
    1.41  -14.37  -91.16   -0.18    4.05   -0.18    4.05  -14.37  -91.16
    1.47  -14.48  -91.97   -0.18    3.67   -0.18    3.67  -14.48  -91.97
    1.53  -14.61  -92.83   -0.19    3.25   -0.19    3.25  -14.61  -92.83
    1.59  -14.71  -93.76   -0.17    2.82   -0.17    2.82  -14.71  -93.76
    1.66  -14.73  -94.33   -0.17    2.36   -0.17    2.36  -14.73  -94.33
    1.72  -14.79  -94.88   -0.18    1.94   -0.18    1.94  -14.79  -94.88
    1.78  -14.84  -95.78   -0.18    1.65   -0.18    1.65  -14.84  -95.78
    1.84  -14.88  -96.65   -0.16    1.31   -0.16    1.31  -14.88  -96.65
    1.90  -14.84  -96.78   -0.17    0.87   -0.17    0.87  -14.84  -96.78
    1.96  -14.89  -97.16   -0.17    0.54   -0.17    0.54  -14.89  -97.16
    2.03  -14.92  -98.19   -0.19    0.32   -0.19    0.32  -14.92  -98.19
    2.09  -14.94  -98.87   -0.17    0.10   -0.17    0.10  -14.94  -98.87
    2.15  -14.84  -99.20   -0.19   -0.20   -0.19   -0.20  -14.84  -99.20
    2.21  -14.86  -99.96   -0.19   -0.64   -0.19   -0.64  -14.86  -99.96
    2.27  -14.88 -100.69   -0.19   -0.72   -0.19   -0.72  -14.88 -100.69
    2.33  -14.83 -101.26   -0.18   -1.01   -0.18   -1.01  -14.83 -101.26
    2.40  -14.75 -101.61   -0.19   -1.34   -0.19   -1.34  -14.75 -101.61
    2.46  -14.77 -102.22   -0.19   -1.67   -0.19   -1.67  -14.77 -102.22
    2.52  -14.73 -103.00   -0.20   -1.82   -0.20   -1.82  -14.73 -103.00
    2.58  -14.67 -103.12   -0.18   -2.09   -0.18   -2.09  -14.67 -103.12
    2.64  -14.62 -103.04   -0.21   -2.34   -0.21   -2.34  -14.62 -103.04
    2.71  -14.58 -103.67   -0.23   -2.52   -0.23   -2.52  -14.58 -103.67
    2.77  -14.56 -104.80   -0.20   -2.88   -0.20   -2.88  -14.56 -104.80
    2.83  -14.51 -104.62   -0.19   -3.06   -0.19   -3.06  -14.51 -104.62
    2.89  -14.37 -104.93   -0.22   -3.09   -0.22   -3.09  -14.37 -104.93
    2.95  -14.42 -105.85   -0.21   -3.45   -0.21   -3.45  -14.42 -105.85
    3.01  -14.37 -106.26   -0.24   -3.79   -0.24   -3.79  -14.37 -106.26
    3.08  -14.26 -106.61   -0.22   -3.92   -0.22   -3.92  -14.26 -106.61
    3.14  -14.20 -106.48   -0.22   -4.26   -0.22   -4.26  -14.20 -106.48
    3.20  -14.22 -106.94   -0.28   -4.42   -0.28   -4.42  -14.22 -106.94
    3.26  -14.14 -107.82   -0.23   -4.56   -0.23   -4.56  -14.14 -107.82
    3.32  -14.13 -107.72   -0.24   -4.93   -0.24   -4.93  -14.13 -107.72
    3.38  -13.94 -107.61   -0.29   -5.01   -0.29   -5.01  -13.94 -107.61
    3.45  -13.99 -108.83   -0.28   -5.23   -0.28   -5.23  -13.99 -108.83
    3.51  -13.92 -108.86   -0.28   -5.36   -0.28   -5.36  -13.92 -108.86
    3.57  -13.77 -108.37   -0.27   -5.69   -0.27   -5.69  -13.77 -108.37
    3.63  -13.69 -109.24   -0.28   -5.68   -0.28   -5.68  -13.69 -109.24
    3.69  -13.77 -109.78   -0.31   -6.14   -0.31   -6.14  -13.77 -109.78
    3.76  -13.59 -109.74   -0.29   -6.10   -0.29   -6.10  -13.59 -109.74
    3.82  -13.56 -110.03   -0.29   -6.63   -0.29   -6.63  -13.56 -110.03
    3.88  -13.43 -109.96   -0.30   -6.72   -0.30   -6.72  -13.43 -109.96
    3.94  -13.42 -110.63   -0.33   -6.97   -0.33   -6.97  -13.42 -110.63
    4.00  -13.54 -112.37   -0.30   -7.07   -0.30   -7.07  -13.54 -112.37
    4.06  -13.43 -112.22   -0.31   -7.33   -0.31   -7.33  -13.43 -112.22
    4.13  -13.37 -112.76   -0.32   -7.49   -0.32   -7.49  -13.37 -112.76
    4.19  -13.47 -113.53   -0.33   -7.71   -0.33   -7.71  -13.47 -113.53
    4.25  -13.30 -113.35   -0.32   -7.61   -0.32   -7.61  -13.30 -113.35
    4.31  -13.31 -113.95   -0.31   -8.01   -0.31   -8.01  -13.31 -113.95
    4.37  -13.35 -114.52   -0.32   -8.21   -0.32   -8.21  -13.35 -114.52
    4.43  -13.40 -115.00   -0.35   -8.33   -0.35   -8.33  -13.40 -115.00
    4.50  -13.36 -115.31   -0.32   -8.54   -0.32   -8.54  -13.36 -115.31
    4.56  -13.35 -115.09   -0.34   -8.83   -0.34   -8.83  -13.35 -115.09
    4.62  -13.38 -115.93   -0.34   -9.03   -0.34   -9.03  -13.38 -115.93
    4.68  -13.50 -115.86   -0.36   -9.04   -0.36   -9.04  -13.50 -115.86
    4.74  -13.41 -115.75   -0.32   -9.23   -0.32   -9.23  -13.41 -115.75
    4.80  -13.45 -115.98   -0.37   -9.50   -0.37   -9.50  -13.45 -115.98
    4.87  -13.51 -116.43   -0.33   -9.70   -0.33   -9.70  -13.51 -116.43
    4.93  -13.57 -116.66   -0.36   -9.75   -0.36   -9.75  -13.57 -116.66
    4.99  -13.56 -117.26   -0.33  -10.15   -0.33  -10.15  -13.56 -117.26
    5.05  -13.68 -116.70   -0.37  -10.25   -0.37  -10.25  -13.68 -116.70
    5.11  -13.72 -117.56   -0.33  -10.50   -0.33  -10.50  -13.72 -117.56
    5.18  -13.87 -117.70   -0.36  -10.58   -0.36  -10.58  -13.87 -117.70
    5.24  -13.94 -117.50   -0.34  -10.71   -0.34  -10.71  -13.94 -117.50
    5.30  -13.98 -117.45   -0.35  -11.00   -0.35  -11.00  -13.98 -117.45
    5.36  -14.16 -118.60   -0.36  -11.37   -0.36  -11.37  -14.16 -118.60
    5.42  -14.36 -117.84   -0.36  -11.38   -0.36  -11.38  -14.36 -117.84
    5.48  -14.27 -117.93   -0.33  -11.66   -0.33  -11.66  -14.27 -117.93
    5.55  -14.51 -118.13   -0.35  -11.90   -0.35  -11.90  -14.51 -118.13
    5.61  -14.66 -118.51   -0.36  -12.18   -0.36  -12.18  -14.66 -118.51
    5.67  -14.83 -118.01   -0.37  -12.27   -0.37  -12.27  -14.83 -118.01
    5.73  -14.87 -118.45   -0.35  -12.41   -0.35  -12.41  -14.87 -118.45
    5.79  -15.12 -118.76   -0.36  -12.79   -0.36  -12.79  -15.12 -118.76
    5.85  -15.26 -119.24   -0.33  -13.02   -0.33  -13.02  -15.26 -119.24
    5.92  -15.59 -119.60   -0.35  -13.25   -0.35  -13.25  -15.59 -119.60
    5.98  -15.72 -119.29   -0.33  -13.59   -0.33  -13.59  -15.72 -119.29
    6.04  -16.09 -119.08   -0.34  -13.87   -0.34  -13.87  -16.09 -119.08
    6.10  -16.37 -119.80   -0.34  -14.20   -0.34  -14.20  -16.37 -119.80
    6.16  -16.73 -119.56   -0.34  -14.53   -0.34  -14.53  -16.73 -119.56
    6.23  -16.99 -119.07   -0.35  -15.03   -0.35  -15.03  -16.99 -119.07
    6.29  -17.46 -119.45   -0.35  -15.33   -0.35  -15.33  -17.46 -119.45
    6.35  -17.97 -119.55   -0.36  -15.71   -0.36  -15.71  -17.97 -119.55
    6.41  -18.62 -119.48   -0.36  -16.26   -0.36  -16.26  -18.62 -119.48
    6.47  -19.25 -118.41   -0.33  -17.05   -0.33  -17.05  -19.25 -118.41
    6.53  -20.33 -117.62   -0.34  -17.67   -0.34  -17.67  -20.33 -117.62
    6.60  -21.49 -115.32   -0.35  -18.40   -0.35  -18.40  -21.49 -115.32
    6.66  -23.11 -110.12   -0.37  -19.37   -0.37  -19.37  -23.11 -110.12
    6.72  -25.03 -100.76   -0.39  -20.49   -0.39  -20.49  -25.03 -100.76
    6.78  -27.58  -79.10   -0.45  -21.70   -0.45  -21.70  -27.58  -79.10
    6.84  -27.55  -38.62   -0.50  -23.42   -0.50  -23.42  -27.55  -38.62
    6.90  -22.96   -7.51   -0.59  -25.76   -0.59  -25.76  -22.96   -7.51
    6.97  -17.69    3.12   -0.84  -29.41   -0.84  -29.41  -17.69    3.12
    7.03  -12.91    0.74   -1.39  -34.38   -1.39  -34.38  -12.91    0.74
    7.09   -8.14  -12.67   -2.98  -41.49   -2.98  -41.49   -8.14  -12.67
    7.15   -4.89  -39.59   -7.09  -35.08   -7.09  -35.08   -4.89  -39.59
    7.21   -4.65  -69.65   -6.37    1.67   -6.37    1.67   -4.65  -69.65
    7.27   -6.13  -88.33   -3.41    4.69   -3.41    4.69   -6.13  -88.33
    7.34   -7.52  -98.09   -2.17    1.10   -2.17    1.10   -7.52  -98.09
    7.40   -8.57 -103.77   -1.65   -1.95   -1.65   -1.95   -8.57 -103.77
    7.46   -9.52 -106.15   -1.36   -4.07   -1.36   -4.07   -9.52 -106.15
    7.52  -10.29 -108.89   -1.23   -5.45   -1.23   -5.45  -10.29 -108.89
    7.58  -10.71 -110.23   -1.09   -6.80   -1.09   -6.80  -10.71 -110.23
    7.65  -11.21 -110.95   -1.02   -7.46   -1.02   -7.46  -11.21 -110.95
    7.71  -11.46 -112.58   -0.97   -8.57   -0.97   -8.57  -11.46 -112.58
    7.77  -11.78 -114.33   -0.94   -8.93   -0.94   -8.93  -11.78 -114.33
    7.83  -12.16 -115.05   -0.86   -9.36   -0.86   -9.36  -12.16 -115.05
    7.89  -12.32 -115.47   -0.82  -10.03   -0.82  -10.03  -12.32 -115.47
    7.95  -12.71 -116.34   -0.81  -10.43   -0.81  -10.43  -12.71 -116.34
    8.02  -13.00 -118.06   -0.80  -10.69   -0.80  -10.69  -13.00 -118.06
    8.08  -13.07 -117.74   -0.75  -11.45   -0.75  -11.45  -13.07 -117.74
    8.14  -13.29 -118.62   -0.75  -11.57   -0.75  -11.57  -13.29 -118.62
    8.20  -13.52 -119.40   -0.73  -12.13   -0.73  -12.13  -13.52 -119.40
    8.26  -13.67 -120.13   -0.74  -12.40   -0.74  -12.40  -13.67 -120.13
    8.32  -13.76 -120.23   -0.72  -12.68   -0.72  -12.68  -13.76 -120.23
    8.39  -13.80 -121.24   -0.73  -13.09   -0.73  -13.09  -13.80 -121.24
    8.45  -14.05 -122.10   -0.69  -13.26   -0.69  -13.26  -14.05 -122.10
    8.51  -14.10 -123.64   -0.71  -13.59   -0.71  -13.59  -14.10 -123.64
    8.57  -14.27 -123.74   -0.68  -13.98   -0.68  -13.98  -14.27 -123.74
    8.63  -14.36 -124.73   -0.65  -14.03   -0.65  -14.03  -14.36 -124.73
    8.70  -14.59 -125.76   -0.67  -14.38   -0.67  -14.38  -14.59 -125.76
    8.76  -14.68 -126.92   -0.64  -14.70   -0.64  -14.70  -14.68 -126.92
    8.82  -14.81 -127.10   -0.62  -15.00   -0.62  -15.00  -14.81 -127.10
    8.88  -14.90 -128.19   -0.65  -15.42   -0.65  -15.42  -14.90 -128.19
    8.94  -15.13 -128.90   -0.64  -15.52   -0.64  -15.52  -15.13 -128.90
    9.00  -15.20 -130.22   -0.65  -15.95   -0.65  -15.95  -15.20 -130.22
    9.07  -15.27 -130.65   -0.66  -16.40   -0.66  -16.40  -15.27 -130.65
    9.13  -15.39 -131.52   -0.67  -16.30   -0.67  -16.30  -15.39 -131.52
    9.19  -15.59 -133.30   -0.66  -16.39   -0.66  -16.39  -15.59 -133.30
    9.25  -15.62 -134.47   -0.66  -17.07   -0.66  -17.07  -15.62 -134.47
    9.31  -15.78 -134.80   -0.68  -17.15   -0.68  -17.15  -15.78 -134.80
    9.37  -15.86 -136.62   -0.67  -17.37   -0.67  -17.37  -15.86 -136.62
    9.44  -16.09 -138.18   -0.68  -17.77   -0.68  -17.77  -16.09 -138.18
    9.50  -16.13 -139.64   -0.67  -18.03   -0.67  -18.03  -16.13 -139.64
    9.56  -16.32 -140.51   -0.69  -18.19   -0.69  -18.19  -16.32 -140.51
    9.62  -16.54 -141.84   -0.68  -18.40   -0.68  -18.40  -16.54 -141.84
    9.68  -16.65 -143.95   -0.74  -18.52   -0.74  -18.52  -16.65 -143.95
    9.74  -16.74 -145.76   -0.69  -19.11   -0.69  -19.11  -16.74 -145.76
    9.81  -16.91 -146.59   -0.68  -19.23   -0.68  -19.23  -16.91 -146.59
    9.87  -17.14 -149.05   -0.71  -19.53   -0.71  -19.53  -17.14 -149.05
    9.93  -17.49 -150.80   -0.71  -19.78   -0.71  -19.78  -17.49 -150.80
    9.99  -17.57 -152.76   -0.71  -20.10   -0.71  -20.10  -17.57 -152.76
   10.05  -17.86 -154.36   -0.72  -20.30   -0.72  -20.30  -17.86 -154.36
   10.12  -18.14 -157.18   -0.72  -20.77   -0.72  -20.77  -18.14 -157.18
   10.18  -18.36 -158.65   -0.76  -21.02   -0.76  -21.02  -18.36 -158.65
   10.24  -18.59 -160.82   -0.76  -21.39   -0.76  -21.39  -18.59 -160.82
   10.30  -18.78 -163.19   -0.75  -21.80   -0.75  -21.80  -18.78 -163.19
   10.36  -19.05 -166.53   -0.77  -22.04   -0.77  -22.04  -19.05 -166.53
   10.42  -19.39 -169.42   -0.81  -22.43   -0.81  -22.43  -19.39 -169.42
   10.49  -19.53 -172.93   -0.80  -22.69   -0.80  -22.69  -19.53 -172.93
   10.55  -19.91 -175.96   -0.85  -23.05   -0.85  -23.05  -19.91 -175.96
   10.61  -20.27  179.31   -0.89  -23.32   -0.89  -23.32  -20.27  179.31
   10.67  -20.46  174.79   -0.94  -23.32   -0.94  -23.32  -20.46  174.79
   10.73  -20.85  169.26   -0.96  -23.75   -0.96  -23.75  -20.85  169.26
   10.79  -21.18  163.98   -1.01  -23.94   -1.01  -23.94  -21.18  163.98
   10.86  -21.55  156.51   -1.03  -24.12   -1.03  -24.12  -21.55  156.51
   10.92  -21.95  150.24   -1.07  -24.03   -1.07  -24.03  -21.95  150.24
   10.98  -22.21  143.29   -1.06  -24.32   -1.06  -24.32  -22.21  143.29
   11.04  -22.25  135.37   -1.06  -24.29   -1.06  -24.29  -22.25  135.37
   11.10  -22.42  126.95   -1.09  -24.35   -1.09  -24.35  -22.42  126.95
   11.17  -22.55  118.28   -1.09  -24.61   -1.09  -24.61  -22.55  118.28
   11.23  -22.34  109.30   -1.14  -24.98   -1.14  -24.98  -22.34  109.30
   11.29  -22.23  101.66   -1.10  -25.15   -1.10  -25.15  -22.23  101.66
   11.35  -22.01   93.18   -1.11  -25.31   -1.11  -25.31  -22.01   93.18
   11.41  -21.50   85.31   -1.11  -25.67   -1.11  -25.67  -21.50   85.31
   11.47  -21.12   78.23   -1.16  -25.74   -1.16  -25.74  -21.12   78.23
   11.54  -20.87   71.76   -1.14  -26.13   -1.14  -26.13  -20.87   71.76
   11.60  -20.44   67.30   -1.15  -26.27   -1.15  -26.27  -20.44   67.30
   11.66  -19.89   63.49   -1.16  -26.35   -1.16  -26.35  -19.89   63.49
   11.72  -19.36   59.07   -1.16  -26.68   -1.16  -26.68  -19.36   59.07
   11.78  -18.79   55.43   -1.14  -27.30   -1.14  -27.30  -18.79   55.43
   11.84  -18.21   51.93   -1.19  -27.68   -1.19  -27.68  -18.21   51.93
   11.91  -17.71   48.87   -1.18  -27.85   -1.18  -27.85  -17.71   48.87
   11.97  -17.06   46.27   -1.20  -28.57   -1.20  -28.57  -17.06   46.27
   12.03  -16.64   43.58   -1.27  -28.93   -1.27  -28.93  -16.64   43.58
   12.09  -16.09   40.39   -1.21  -29.54   -1.21  -29.54  -16.09   40.39
   12.15  -15.51   38.01   -1.25  -30.06   -1.25  -30.06  -15.51   38.01
   12.21  -14.92   35.69   -1.30  -30.55   -1.30  -30.55  -14.92   35.69
   12.28  -14.55   33.15   -1.30  -31.50   -1.30  -31.50  -14.55   33.15
   12.34  -13.89   30.74   -1.37  -32.17   -1.37  -32.17  -13.89   30.74
   12.40  -13.31   28.31   -1.44  -33.16   -1.44  -33.16  -13.31   28.31
