!  American Technical Ceramics  Date:    3/13/98
!  One Norden Lane
!  Huntington Station,  NY.   11746-2102
!  Tel:  (516) 547-5700               Fax:  (516) 547-5748
!  Part Number  700B220J
!  Description: Porcelain, High Q, Low ESR
!  Application: Bypass, Coupling, Timing, Feedback
!               Tuning, Impedance Match, Blocking
# GHZ S DB R 50
! Freq   |S11|   S11 Ph  |S21|   S21 Ph  |S12|   S12 Ph  |S22|   S22 Ph
    0.05   -1.64  -34.77   -4.93   55.59   -4.93   55.59   -1.64  -34.77
    0.11   -5.25  -57.31   -1.55   32.42   -1.55   32.42   -5.25  -57.31
    0.17   -8.12  -68.49   -0.74   21.92   -0.74   21.92   -8.12  -68.49
    0.24  -10.41  -74.10   -0.42   16.42   -0.42   16.42  -10.41  -74.10
    0.30  -12.14  -78.09   -0.27   12.89   -0.27   12.89  -12.14  -78.09
    0.36  -13.57  -80.55   -0.19   10.47   -0.19   10.47  -13.57  -80.55
    0.42  -14.67  -82.76   -0.13    8.58   -0.13    8.58  -14.67  -82.76
    0.48  -15.60  -84.17   -0.10    7.30   -0.10    7.30  -15.60  -84.17
    0.54  -16.55  -85.54   -0.11    5.88   -0.11    5.88  -16.55  -85.54
    0.61  -17.16  -86.85   -0.09    4.95   -0.09    4.95  -17.16  -86.85
    0.67  -17.66  -87.90   -0.10    4.37   -0.10    4.37  -17.66  -87.90
    0.73  -18.06  -88.70   -0.09    3.66   -0.09    3.66  -18.06  -88.70
    0.79  -18.42  -89.63   -0.08    3.15   -0.08    3.15  -18.42  -89.63
    0.85  -18.68  -90.80   -0.07    2.62   -0.07    2.62  -18.68  -90.80
    0.91  -18.92  -91.41   -0.06    2.17   -0.06    2.17  -18.92  -91.41
    0.98  -19.03  -92.55   -0.07    1.78   -0.07    1.78  -19.03  -92.55
    1.04  -19.22  -93.27   -0.08    1.31   -0.08    1.31  -19.22  -93.27
    1.10  -19.33  -94.10   -0.06    1.00   -0.06    1.00  -19.33  -94.10
    1.16  -19.32  -95.10   -0.07    0.52   -0.07    0.52  -19.32  -95.10
    1.22  -19.38  -95.28   -0.08    0.28   -0.08    0.28  -19.38  -95.28
    1.29  -19.41  -96.19   -0.08   -0.07   -0.08   -0.07  -19.41  -96.19
    1.35  -19.35  -97.08   -0.06   -0.37   -0.06   -0.37  -19.35  -97.08
    1.41  -19.34  -97.60   -0.07   -0.54   -0.07   -0.54  -19.34  -97.60
    1.47  -19.28  -98.37   -0.07   -0.72   -0.07   -0.72  -19.28  -98.37
    1.53  -19.24  -99.06   -0.08   -1.11   -0.08   -1.11  -19.24  -99.06
    1.59  -19.20 -100.01   -0.08   -1.31   -0.08   -1.31  -19.20 -100.01
    1.66  -19.09 -100.42   -0.08   -1.59   -0.08   -1.59  -19.09 -100.42
    1.72  -19.00 -100.88   -0.09   -1.99   -0.09   -1.99  -19.00 -100.88
    1.78  -18.92 -101.60   -0.08   -2.07   -0.08   -2.07  -18.92 -101.60
    1.84  -18.82 -102.41   -0.08   -2.28   -0.08   -2.28  -18.82 -102.41
    1.90  -18.66 -102.34   -0.08   -2.58   -0.08   -2.58  -18.66 -102.34
    1.96  -18.58 -102.86   -0.09   -2.84   -0.09   -2.84  -18.58 -102.86
    2.03  -18.51 -103.81   -0.11   -3.04   -0.11   -3.04  -18.51 -103.81
    2.09  -18.41 -104.32   -0.08   -3.17   -0.08   -3.17  -18.41 -104.32
    2.15  -18.19 -104.38   -0.10   -3.33   -0.10   -3.33  -18.19 -104.38
    2.21  -18.13 -105.28   -0.10   -3.79   -0.10   -3.79  -18.13 -105.28
    2.27  -18.05 -105.94   -0.11   -3.76   -0.11   -3.76  -18.05 -105.94
    2.33  -17.93 -106.45   -0.10   -4.04   -0.10   -4.04  -17.93 -106.45
    2.40  -17.78 -106.70   -0.11   -4.16   -0.11   -4.16  -17.78 -106.70
    2.46  -17.70 -107.29   -0.10   -4.42   -0.10   -4.42  -17.70 -107.29
    2.52  -17.60 -107.99   -0.13   -4.49   -0.13   -4.49  -17.60 -107.99
    2.58  -17.48 -108.03   -0.11   -4.78   -0.11   -4.78  -17.48 -108.03
    2.64  -17.34 -107.94   -0.14   -4.90   -0.14   -4.90  -17.34 -107.94
    2.71  -17.25 -108.54   -0.14   -5.19   -0.14   -5.19  -17.25 -108.54
    2.77  -17.18 -109.60   -0.13   -5.38   -0.13   -5.38  -17.18 -109.60
    2.83  -17.07 -109.25   -0.13   -5.50   -0.13   -5.50  -17.07 -109.25
    2.89  -16.88 -109.62   -0.14   -5.65   -0.14   -5.65  -16.88 -109.62
    2.95  -16.90 -110.42   -0.15   -5.96   -0.15   -5.96  -16.90 -110.42
    3.01  -16.79 -110.85   -0.16   -6.14   -0.16   -6.14  -16.79 -110.85
    3.08  -16.66 -111.19   -0.14   -6.43   -0.14   -6.43  -16.66 -111.19
    3.14  -16.58 -111.05   -0.14   -6.48   -0.14   -6.48  -16.58 -111.05
    3.20  -16.59 -111.52   -0.20   -6.82   -0.20   -6.82  -16.59 -111.52
    3.26  -16.51 -112.28   -0.16   -6.91   -0.16   -6.91  -16.51 -112.28
    3.32  -16.46 -112.32   -0.17   -7.27   -0.17   -7.27  -16.46 -112.32
    3.38  -16.26 -112.06   -0.19   -7.53   -0.19   -7.53  -16.26 -112.06
    3.45  -16.33 -113.24   -0.19   -7.64   -0.19   -7.64  -16.33 -113.24
    3.51  -16.27 -113.31   -0.18   -7.86   -0.18   -7.86  -16.27 -113.31
    3.57  -16.15 -112.71   -0.18   -8.15   -0.18   -8.15  -16.15 -112.71
    3.63  -16.08 -113.56   -0.20   -8.23   -0.20   -8.23  -16.08 -113.56
    3.69  -16.17 -114.16   -0.23   -8.78   -0.23   -8.78  -16.17 -114.16
    3.76  -16.08 -114.41   -0.21   -8.89   -0.21   -8.89  -16.08 -114.41
    3.82  -16.15 -114.58   -0.20   -9.35   -0.20   -9.35  -16.15 -114.58
    3.88  -16.12 -114.53   -0.22   -9.69   -0.22   -9.69  -16.12 -114.53
    3.94  -16.26 -115.37   -0.23  -10.01   -0.23  -10.01  -16.26 -115.37
    4.00  -16.73 -117.73   -0.22  -10.48   -0.22  -10.48  -16.73 -117.73
    4.06  -16.99 -117.90   -0.21  -11.09   -0.21  -11.09  -16.99 -117.90
    4.13  -17.53 -118.52   -0.22  -11.76   -0.22  -11.76  -17.53 -118.52
    4.19  -18.54 -118.94   -0.26  -12.56   -0.26  -12.56  -18.54 -118.94
    4.25  -20.12 -116.80   -0.28  -13.98   -0.28  -13.98  -20.12 -116.80
    4.31  -24.38 -103.78   -0.37  -16.60   -0.37  -16.60  -24.38 -103.78
    4.37  -21.75  -18.20   -0.90  -21.35   -0.90  -21.35  -21.75  -18.20
    4.43   -9.96  -35.95   -3.48  -20.54   -3.48  -20.54   -9.96  -35.95
    4.50   -8.16  -81.66   -2.44    0.95   -2.44    0.95   -8.16  -81.66
    4.56   -9.59  -99.17   -1.12   -1.44   -1.12   -1.44   -9.59  -99.17
    4.62  -10.65 -106.66   -0.74   -3.74   -0.74   -3.74  -10.65 -106.66
    4.68  -11.41 -109.77   -0.62   -5.11   -0.62   -5.11  -11.41 -109.77
    4.74  -11.74 -111.62   -0.47   -6.07   -0.47   -6.07  -11.74 -111.62
    4.80  -12.15 -113.00   -0.49   -6.90   -0.49   -6.90  -12.15 -113.00
    4.87  -12.42 -114.27   -0.45   -7.29   -0.45   -7.29  -12.42 -114.27
    4.93  -12.64 -114.95   -0.43   -7.74   -0.43   -7.74  -12.64 -114.95
    4.99  -12.71 -115.95   -0.40   -8.48   -0.40   -8.48  -12.71 -115.95
    5.05  -12.93 -115.70   -0.44   -8.75   -0.44   -8.75  -12.93 -115.70
    5.11  -13.03 -117.00   -0.37   -9.02   -0.37   -9.02  -13.03 -117.00
    5.18  -13.23 -117.37   -0.40   -9.14   -0.40   -9.14  -13.23 -117.37
    5.24  -13.34 -117.30   -0.38   -9.37   -0.38   -9.37  -13.34 -117.30
    5.30  -13.42 -117.40   -0.40   -9.61   -0.40   -9.61  -13.42 -117.40
    5.36  -13.58 -118.59   -0.39   -9.95   -0.39   -9.95  -13.58 -118.59
    5.42  -13.81 -118.01   -0.40  -10.10   -0.40  -10.10  -13.81 -118.01
    5.48  -13.70 -117.93   -0.37  -10.26   -0.37  -10.26  -13.70 -117.93
    5.55  -13.93 -118.28   -0.39  -10.54   -0.39  -10.54  -13.93 -118.28
    5.61  -14.05 -118.67   -0.39  -10.69   -0.39  -10.69  -14.05 -118.67
    5.67  -14.15 -118.20   -0.39  -10.73   -0.39  -10.73  -14.15 -118.20
    5.73  -14.14 -118.86   -0.38  -11.01   -0.38  -11.01  -14.14 -118.86
    5.79  -14.33 -119.07   -0.39  -11.20   -0.39  -11.20  -14.33 -119.07
    5.85  -14.41 -119.54   -0.36  -11.26   -0.36  -11.26  -14.41 -119.54
    5.92  -14.63 -119.97   -0.38  -11.53   -0.38  -11.53  -14.63 -119.97
    5.98  -14.66 -119.81   -0.37  -11.72   -0.37  -11.72  -14.66 -119.81
    6.04  -14.89 -119.78   -0.39  -11.99   -0.39  -11.99  -14.89 -119.78
    6.10  -15.02 -120.38   -0.37  -12.14   -0.37  -12.14  -15.02 -120.38
    6.16  -15.21 -120.50   -0.37  -12.38   -0.37  -12.38  -15.21 -120.50
    6.23  -15.27 -120.01   -0.37  -12.52   -0.37  -12.52  -15.27 -120.01
    6.29  -15.50 -120.54   -0.39  -12.68   -0.39  -12.68  -15.50 -120.54
    6.35  -15.65 -120.81   -0.39  -12.72   -0.39  -12.72  -15.65 -120.81
    6.41  -15.86 -121.09   -0.40  -12.98   -0.40  -12.98  -15.86 -121.09
    6.47  -15.91 -120.96   -0.36  -13.44   -0.36  -13.44  -15.91 -120.96
    6.53  -16.31 -121.30   -0.40  -13.50   -0.40  -13.50  -16.31 -121.30
    6.60  -16.50 -121.39   -0.40  -13.87   -0.40  -13.87  -16.50 -121.39
    6.66  -16.72 -120.62   -0.40  -14.07   -0.40  -14.07  -16.72 -120.62
    6.72  -16.82 -120.37   -0.42  -14.41   -0.42  -14.41  -16.82 -120.37
    6.78  -17.19 -120.17   -0.45  -14.37   -0.45  -14.37  -17.19 -120.17
    6.84  -17.43 -118.99   -0.45  -14.51   -0.45  -14.51  -17.43 -118.99
    6.90  -17.46 -118.67   -0.44  -14.82   -0.44  -14.82  -17.46 -118.67
    6.97  -17.57 -117.62   -0.48  -15.13   -0.48  -15.13  -17.57 -117.62
    7.03  -17.90 -117.58   -0.49  -15.07   -0.49  -15.07  -17.90 -117.58
    7.09  -17.90 -117.42   -0.49  -15.45   -0.49  -15.45  -17.90 -117.42
    7.15  -18.15 -116.39   -0.51  -15.52   -0.51  -15.52  -18.15 -116.39
    7.21  -18.39 -115.60   -0.52  -15.80   -0.52  -15.80  -18.39 -115.60
    7.27  -18.64 -114.70   -0.54  -16.10   -0.54  -16.10  -18.64 -114.70
    7.34  -18.73 -113.81   -0.55  -16.22   -0.55  -16.22  -18.73 -113.81
    7.40  -18.80 -112.77   -0.57  -16.36   -0.57  -16.36  -18.80 -112.77
    7.46  -18.98 -111.31   -0.57  -16.71   -0.57  -16.71  -18.98 -111.31
    7.52  -19.29 -111.37   -0.60  -16.84   -0.60  -16.84  -19.29 -111.37
    7.58  -19.38 -109.88   -0.60  -17.14   -0.60  -17.14  -19.38 -109.88
    7.65  -19.72 -108.34   -0.62  -17.33   -0.62  -17.33  -19.72 -108.34
    7.71  -19.93 -107.60   -0.62  -18.04   -0.62  -18.04  -19.93 -107.60
    7.77  -20.61 -106.14   -0.63  -18.30   -0.63  -18.30  -20.61 -106.14
    7.83  -21.48 -101.13   -0.65  -19.14   -0.65  -19.14  -21.48 -101.13
    7.89  -22.15  -90.52   -0.71  -20.09   -0.71  -20.09  -22.15  -90.52
    7.95  -22.13  -71.93   -0.86  -21.38   -0.86  -21.38  -22.13  -71.93
    8.02  -19.72  -53.39   -1.17  -23.23   -1.17  -23.23  -19.72  -53.39
    8.08  -14.95  -49.20   -1.88  -24.07   -1.88  -24.07  -14.95  -49.20
    8.14  -11.58  -67.29   -2.79  -18.70   -2.79  -18.70  -11.58  -67.29
    8.20  -10.95  -89.80   -2.37  -11.04   -2.37  -11.04  -10.95  -89.80
    8.26  -11.69 -104.38   -1.62   -9.55   -1.62   -9.55  -11.69 -104.38
    8.32  -12.51 -111.57   -1.21  -10.57   -1.21  -10.57  -12.51 -111.57
    8.39  -13.17 -116.64   -1.00  -11.60   -1.00  -11.60  -13.17 -116.64
    8.45  -13.88 -119.56   -0.86  -12.40   -0.86  -12.40  -13.88 -119.56
    8.51  -14.31 -122.56   -0.83  -13.17   -0.83  -13.17  -14.31 -122.56
    8.57  -14.75 -123.70   -0.73  -13.81   -0.73  -13.81  -14.75 -123.70
    8.63  -15.02 -125.17   -0.69  -14.24   -0.69  -14.24  -15.02 -125.17
    8.70  -15.40 -126.73   -0.71  -14.66   -0.71  -14.66  -15.40 -126.73
    8.76  -15.60 -128.50   -0.66  -15.17   -0.66  -15.17  -15.60 -128.50
    8.82  -15.80 -129.11   -0.67  -15.55   -0.67  -15.55  -15.80 -129.11
    8.88  -15.98 -130.85   -0.67  -15.69   -0.67  -15.69  -15.98 -130.85
    8.94  -16.30 -131.83   -0.67  -16.16   -0.67  -16.16  -16.30 -131.83
    9.00  -16.44 -133.37   -0.65  -16.45   -0.65  -16.45  -16.44 -133.37
    9.07  -16.55 -134.15   -0.63  -16.87   -0.63  -16.87  -16.55 -134.15
    9.13  -16.69 -135.30   -0.65  -17.15   -0.65  -17.15  -16.69 -135.30
    9.19  -16.96 -137.56   -0.66  -17.12   -0.66  -17.12  -16.96 -137.56
    9.25  -17.08 -139.04   -0.62  -17.89   -0.62  -17.89  -17.08 -139.04
    9.31  -17.25 -139.44   -0.64  -17.96   -0.64  -17.96  -17.25 -139.44
    9.37  -17.36 -141.31   -0.64  -18.18   -0.64  -18.18  -17.36 -141.31
    9.44  -17.58 -143.08   -0.66  -18.56   -0.66  -18.56  -17.58 -143.08
    9.50  -17.62 -145.13   -0.65  -18.75   -0.65  -18.75  -17.62 -145.13
    9.56  -17.77 -146.18   -0.66  -19.07   -0.66  -19.07  -17.77 -146.18
    9.62  -18.05 -148.02   -0.65  -19.17   -0.65  -19.17  -18.05 -148.02
    9.68  -18.20 -150.69   -0.68  -19.42   -0.68  -19.42  -18.20 -150.69
    9.74  -18.32 -152.89   -0.67  -19.98   -0.67  -19.98  -18.32 -152.89
    9.81  -18.51 -153.92   -0.66  -20.12   -0.66  -20.12  -18.51 -153.92
    9.87  -18.80 -156.78   -0.68  -20.28   -0.68  -20.28  -18.80 -156.78
    9.93  -19.08 -158.85   -0.69  -20.72   -0.69  -20.72  -19.08 -158.85
    9.99  -19.18 -161.43   -0.69  -20.96   -0.69  -20.96  -19.18 -161.43
   10.05  -19.46 -163.49   -0.70  -21.16   -0.70  -21.16  -19.46 -163.49
   10.12  -19.77 -166.73   -0.70  -21.40   -0.70  -21.40  -19.77 -166.73
   10.18  -19.98 -168.98   -0.71  -21.87   -0.71  -21.87  -19.98 -168.98
   10.24  -20.19 -171.85   -0.72  -22.17   -0.72  -22.17  -20.19 -171.85
   10.30  -20.37 -174.85   -0.74  -22.55   -0.74  -22.55  -20.37 -174.85
   10.36  -20.69 -178.76   -0.78  -22.93   -0.78  -22.93  -20.69 -178.76
   10.42  -20.94  177.39   -0.80  -23.32   -0.80  -23.32  -20.94  177.39
   10.49  -21.06  172.90   -0.83  -23.60   -0.83  -23.60  -21.06  172.90
   10.55  -21.37  168.87   -0.86  -24.08   -0.86  -24.08  -21.37  168.87
   10.61  -21.71  162.71   -0.90  -24.30   -0.90  -24.30  -21.71  162.71
   10.67  -21.77  157.67   -0.96  -24.28   -0.96  -24.28  -21.77  157.67
   10.73  -21.99  150.53   -0.98  -24.76   -0.98  -24.76  -21.99  150.53
   10.79  -22.07  143.64   -1.05  -24.98   -1.05  -24.98  -22.07  143.64
   10.86  -22.16  134.39   -1.07  -25.14   -1.07  -25.14  -22.16  134.39
   10.92  -22.29  126.48   -1.12  -25.28   -1.12  -25.28  -22.29  126.48
   10.98  -22.27  117.63   -1.13  -25.45   -1.13  -25.45  -22.27  117.63
   11.04  -22.06  108.36   -1.16  -25.76   -1.16  -25.76  -22.06  108.36
   11.10  -21.92   98.93   -1.20  -25.91   -1.20  -25.91  -21.92   98.93
   11.17  -21.61   89.44   -1.24  -26.38   -1.24  -26.38  -21.61   89.44
   11.23  -21.05   79.78   -1.30  -26.87   -1.30  -26.87  -21.05   79.78
   11.29  -20.62   70.23   -1.30  -27.36   -1.30  -27.36  -20.62   70.23
   11.35  -20.05   59.19   -1.38  -27.90   -1.38  -27.90  -20.05   59.19
   11.41  -19.27   48.38   -1.51  -28.67   -1.51  -28.67  -19.27   48.38
   11.47  -18.74   35.75   -1.72  -29.11   -1.72  -29.11  -18.74   35.75
   11.54  -18.31   19.97   -2.00  -29.53   -2.00  -29.53  -18.31   19.97
   11.60  -18.47    1.36   -2.43  -28.77   -2.43  -28.77  -18.47    1.36
   11.66  -19.63  -22.01   -2.76  -25.66   -2.76  -25.66  -19.63  -22.01
   11.72  -22.87  -48.00   -2.66  -21.25   -2.66  -21.25  -22.87  -48.00
   11.78  -30.12  -69.67   -2.26  -19.40   -2.26  -19.40  -30.12  -69.67
   11.84  -49.91  163.69   -1.87  -19.23   -1.87  -19.23  -49.91  163.69
   11.91  -31.70   93.51   -1.64  -19.65   -1.64  -19.65  -31.70   93.51
   11.97  -26.79   81.68   -1.47  -20.70   -1.47  -20.70  -26.79   81.68
   12.03  -24.47   75.14   -1.42  -21.21   -1.42  -21.21  -24.47   75.14
   12.09  -22.85   68.13   -1.31  -21.95   -1.31  -21.95  -22.85   68.13
   12.15  -21.61   64.07   -1.28  -22.70   -1.28  -22.70  -21.61   64.07
   12.21  -20.61   60.94   -1.29  -23.03   -1.29  -23.03  -20.61   60.94
   12.28  -19.90   57.79   -1.23  -23.74   -1.23  -23.74  -19.90   57.79
   12.34  -19.08   55.27   -1.23  -24.13   -1.23  -24.13  -19.08   55.27
   12.40  -18.40   53.03   -1.24  -24.54   -1.24  -24.54  -18.40   53.03
