!  American Technical Ceramics  Date:    3/13/98
!  One Norden Lane
!  Huntington Station,  NY.   11746-2102
!  Tel:  (516) 547-5700               Fax:  (516) 547-5748
!  Part Number  700B330J
!  Description: Porcelain, High Q, Low ESR
!  Application: Bypass, Coupling, Timing, Feedback
!               Tuning, Impedance Match, Blocking
# GHZ S DB R 50
! Freq   |S11|   S11 Ph  |S21|   S21 Ph  |S12|   S12 Ph  |S22|   S22 Ph
    0.05   -3.11  -45.88   -2.85   43.70   -2.85   43.70   -3.11  -45.88
    0.09   -6.39  -62.02   -1.12   27.94   -1.12   27.94   -6.39  -62.02
    0.13   -9.01  -69.86   -0.67   20.11   -0.67   20.11   -9.01  -69.86
    0.17  -11.09  -74.92   -0.41   15.34   -0.41   15.34  -11.09  -74.92
    0.21  -12.74  -77.83   -0.25   12.38   -0.25   12.38  -12.74  -77.83
    0.25  -14.06  -79.99   -0.18   10.24   -0.18   10.24  -14.06  -79.99
    0.29  -15.14  -81.85   -0.14    8.86   -0.14    8.86  -15.14  -81.85
    0.33  -16.09  -83.21   -0.11    7.54   -0.11    7.54  -16.09  -83.21
    0.37  -16.91  -84.20   -0.11    6.40   -0.11    6.40  -16.91  -84.20
    0.41  -17.60  -85.22   -0.07    5.78   -0.07    5.78  -17.60  -85.22
    0.45  -18.22  -86.01   -0.07    4.99   -0.07    4.99  -18.22  -86.01
    0.49  -18.73  -86.90   -0.06    4.41   -0.06    4.41  -18.73  -86.90
    0.53  -19.31  -87.39   -0.06    3.57   -0.06    3.57  -19.31  -87.39
    0.57  -19.70  -88.26   -0.05    3.34   -0.05    3.34  -19.70  -88.26
    0.61  -20.00  -88.62   -0.05    2.80   -0.05    2.80  -20.00  -88.62
    0.65  -20.23  -89.24   -0.04    2.54   -0.04    2.54  -20.23  -89.24
    0.69  -20.46  -89.90   -0.05    2.25   -0.05    2.25  -20.46  -89.90
    0.73  -20.69  -90.29   -0.05    1.79   -0.05    1.79  -20.69  -90.29
    0.77  -20.83  -90.86   -0.04    1.49   -0.04    1.49  -20.83  -90.86
    0.81  -20.94  -91.15   -0.05    1.41   -0.05    1.41  -20.94  -91.15
    0.85  -21.11  -91.71   -0.05    1.13   -0.05    1.13  -21.11  -91.71
    0.88  -21.18  -92.09   -0.05    0.89   -0.05    0.89  -21.18  -92.09
    0.92  -21.25  -92.61   -0.05    0.64   -0.05    0.64  -21.25  -92.61
    0.96  -21.22  -93.10   -0.05    0.39   -0.05    0.39  -21.22  -93.10
    1.00  -21.31  -93.64   -0.05    0.23   -0.05    0.23  -21.31  -93.64
    1.04  -21.31  -93.96   -0.06    0.06   -0.06    0.06  -21.31  -93.96
    1.08  -21.31  -94.52   -0.05   -0.08   -0.05   -0.08  -21.31  -94.52
    1.12  -21.29  -94.85   -0.05   -0.32   -0.05   -0.32  -21.29  -94.85
    1.16  -21.23  -95.29   -0.03   -0.52   -0.03   -0.52  -21.23  -95.29
    1.20  -21.25  -95.42   -0.06   -0.73   -0.06   -0.73  -21.25  -95.42
    1.24  -21.23  -95.90   -0.05   -0.83   -0.05   -0.83  -21.23  -95.90
    1.28  -21.16  -96.10   -0.06   -1.03   -0.06   -1.03  -21.16  -96.10
    1.32  -21.04  -96.46   -0.05   -1.10   -0.05   -1.10  -21.04  -96.46
    1.36  -21.02  -97.16   -0.06   -1.30   -0.06   -1.30  -21.02  -97.16
    1.40  -20.95  -97.26   -0.06   -1.40   -0.06   -1.40  -20.95  -97.26
    1.44  -20.91  -98.00   -0.06   -1.64   -0.06   -1.64  -20.91  -98.00
    1.48  -20.81  -98.10   -0.05   -1.80   -0.05   -1.80  -20.81  -98.10
    1.52  -20.79  -98.70   -0.06   -1.90   -0.06   -1.90  -20.79  -98.70
    1.56  -20.61  -98.81   -0.06   -2.12   -0.06   -2.12  -20.61  -98.81
    1.60  -20.62  -99.34   -0.07   -2.17   -0.07   -2.17  -20.62  -99.34
    1.64  -20.46  -99.35   -0.07   -2.43   -0.07   -2.43  -20.46  -99.35
    1.68  -20.44 -100.28   -0.08   -2.47   -0.08   -2.47  -20.44 -100.28
    1.72  -20.28  -99.98   -0.06   -2.47   -0.06   -2.47  -20.28  -99.98
    1.76  -20.22 -100.53   -0.06   -2.54   -0.06   -2.54  -20.22 -100.53
    1.80  -20.08 -100.66   -0.07   -2.87   -0.07   -2.87  -20.08 -100.66
    1.84  -20.01 -101.34   -0.07   -2.97   -0.07   -2.97  -20.01 -101.34
    1.88  -19.93 -101.20   -0.06   -3.14   -0.06   -3.14  -19.93 -101.20
    1.92  -19.85 -101.67   -0.07   -3.22   -0.07   -3.22  -19.85 -101.67
    1.96  -19.71 -101.69   -0.07   -3.40   -0.07   -3.40  -19.71 -101.69
    2.00  -19.67 -102.33   -0.06   -3.41   -0.06   -3.41  -19.67 -102.33
    2.04  -19.54 -102.62   -0.09   -3.50   -0.09   -3.50  -19.54 -102.62
    2.08  -19.49 -102.72   -0.06   -3.67   -0.06   -3.67  -19.49 -102.72
    2.12  -19.35 -102.80   -0.10   -3.81   -0.10   -3.81  -19.35 -102.80
    2.16  -19.22 -102.96   -0.08   -3.97   -0.08   -3.97  -19.22 -102.96
    2.20  -19.17 -103.73   -0.10   -4.14   -0.10   -4.14  -19.17 -103.73
    2.24  -19.05 -103.54   -0.08   -4.18   -0.08   -4.18  -19.05 -103.54
    2.28  -19.00 -104.03   -0.09   -4.26   -0.09   -4.26  -19.00 -104.03
    2.32  -18.83 -104.18   -0.10   -4.37   -0.10   -4.37  -18.83 -104.18
    2.36  -18.80 -104.79   -0.09   -4.56   -0.09   -4.56  -18.80 -104.79
    2.40  -18.65 -104.61   -0.08   -4.72   -0.08   -4.72  -18.65 -104.61
    2.44  -18.64 -105.28   -0.11   -4.71   -0.11   -4.71  -18.64 -105.28
    2.47  -18.52 -105.06   -0.10   -4.83   -0.10   -4.83  -18.52 -105.06
    2.51  -18.43 -105.71   -0.11   -4.95   -0.11   -4.95  -18.43 -105.71
    2.55  -18.40 -105.80   -0.11   -5.14   -0.11   -5.14  -18.40 -105.80
    2.59  -18.37 -106.08   -0.12   -5.16   -0.12   -5.16  -18.37 -106.08
    2.63  -18.19 -106.11   -0.11   -5.42   -0.11   -5.42  -18.19 -106.11
    2.67  -18.15 -106.43   -0.11   -5.40   -0.11   -5.40  -18.15 -106.43
    2.71  -18.05 -106.67   -0.12   -5.73   -0.12   -5.73  -18.05 -106.67
    2.75  -17.99 -106.81   -0.11   -5.67   -0.11   -5.67  -17.99 -106.81
    2.79  -17.91 -107.08   -0.11   -5.98   -0.11   -5.98  -17.91 -107.08
    2.83  -17.90 -107.23   -0.11   -6.03   -0.11   -6.03  -17.90 -107.23
    2.87  -17.82 -107.42   -0.13   -6.16   -0.13   -6.16  -17.82 -107.42
    2.91  -17.76 -107.85   -0.13   -6.17   -0.13   -6.17  -17.76 -107.85
    2.95  -17.76 -108.04   -0.13   -6.58   -0.13   -6.58  -17.76 -108.04
    2.99  -17.69 -108.14   -0.13   -6.64   -0.13   -6.64  -17.69 -108.14
    3.03  -17.64 -108.27   -0.14   -6.65   -0.14   -6.65  -17.64 -108.27
    3.07  -17.63 -108.20   -0.13   -6.94   -0.13   -6.94  -17.63 -108.20
    3.11  -17.66 -108.83   -0.13   -7.01   -0.13   -7.01  -17.66 -108.83
    3.15  -17.62 -108.56   -0.14   -7.27   -0.14   -7.27  -17.62 -108.56
    3.19  -17.68 -108.87   -0.17   -7.36   -0.17   -7.36  -17.68 -108.87
    3.23  -17.58 -109.05   -0.14   -7.78   -0.14   -7.78  -17.58 -109.05
    3.27  -17.72 -109.45   -0.17   -7.86   -0.17   -7.86  -17.72 -109.45
    3.31  -17.77 -109.19   -0.18   -8.07   -0.18   -8.07  -17.77 -109.19
    3.35  -17.88 -109.42   -0.17   -8.41   -0.17   -8.41  -17.88 -109.42
    3.39  -17.91 -109.50   -0.17   -8.76   -0.17   -8.76  -17.91 -109.50
    3.43  -18.25 -109.98   -0.17   -9.22   -0.17   -9.22  -18.25 -109.98
    3.47  -18.56 -109.05   -0.18   -9.44   -0.18   -9.44  -18.56 -109.05
    3.51  -19.10 -109.06   -0.19  -10.06   -0.19  -10.06  -19.10 -109.06
    3.55  -19.79 -107.57   -0.22  -10.84   -0.22  -10.84  -19.79 -107.57
    3.59  -21.20 -104.59   -0.24  -11.90   -0.24  -11.90  -21.20 -104.59
    3.63  -23.74  -90.20   -0.38  -13.37   -0.38  -13.37  -23.74  -90.20
    3.67  -23.48  -39.27   -0.70  -16.35   -0.70  -16.35  -23.48  -39.27
    3.71  -14.24  -24.78   -1.96  -18.33   -1.96  -18.33  -14.24  -24.78
    3.75   -9.63  -59.31   -2.80   -4.63   -2.80   -4.63   -9.63  -59.31
    3.79  -10.11  -84.58   -1.41   -0.21   -1.41   -0.21  -10.11  -84.58
    3.83  -11.12  -94.43   -0.81   -1.87   -0.81   -1.87  -11.12  -94.43
    3.87  -11.82  -99.53   -0.63   -3.31   -0.63   -3.31  -11.82  -99.53
    3.91  -12.29 -101.87   -0.50   -4.38   -0.50   -4.38  -12.29 -101.87
    3.95  -12.60 -103.62   -0.45   -4.86   -0.45   -4.86  -12.60 -103.62
    3.99  -12.78 -104.71   -0.40   -5.68   -0.40   -5.68  -12.78 -104.71
    4.03  -13.22 -107.08   -0.36   -5.96   -0.36   -5.96  -13.22 -107.08
    4.06  -13.31 -107.26   -0.34   -6.33   -0.34   -6.33  -13.31 -107.26
    4.10  -13.41 -108.18   -0.33   -6.54   -0.33   -6.54  -13.41 -108.18
    4.14  -13.44 -108.63   -0.33   -6.76   -0.33   -6.76  -13.44 -108.63
    4.18  -13.59 -109.09   -0.35   -7.05   -0.35   -7.05  -13.59 -109.09
    4.22  -13.55 -108.92   -0.32   -7.13   -0.32   -7.13  -13.55 -108.92
    4.26  -13.62 -109.91   -0.32   -7.42   -0.32   -7.42  -13.62 -109.91
    4.30  -13.63 -110.17   -0.32   -7.62   -0.32   -7.62  -13.63 -110.17
    4.34  -13.71 -110.66   -0.34   -7.57   -0.34   -7.57  -13.71 -110.66
    4.38  -13.70 -110.59   -0.31   -7.97   -0.31   -7.97  -13.70 -110.59
    4.42  -13.74 -110.91   -0.31   -7.90   -0.31   -7.90  -13.74 -110.91
    4.46  -13.71 -111.24   -0.30   -8.22   -0.30   -8.22  -13.71 -111.24
    4.50  -13.80 -111.31   -0.31   -8.38   -0.31   -8.38  -13.80 -111.31
    4.54  -13.78 -111.51   -0.31   -8.41   -0.31   -8.41  -13.78 -111.51
    4.58  -13.81 -111.58   -0.32   -8.48   -0.32   -8.48  -13.81 -111.58
    4.62  -13.82 -111.74   -0.32   -8.59   -0.32   -8.59  -13.82 -111.74
    4.66  -13.83 -111.87   -0.31   -8.96   -0.31   -8.96  -13.83 -111.87
    4.70  -13.91 -111.73   -0.33   -8.93   -0.33   -8.93  -13.91 -111.73
    4.74  -13.86 -111.73   -0.31   -9.09   -0.31   -9.09  -13.86 -111.73
    4.78  -13.92 -111.98   -0.32   -9.10   -0.32   -9.10  -13.92 -111.98
    4.82  -13.88 -112.01   -0.32   -9.29   -0.32   -9.29  -13.88 -112.01
    4.86  -13.95 -112.27   -0.33   -9.27   -0.33   -9.27  -13.95 -112.27
    4.90  -13.92 -111.94   -0.31   -9.41   -0.31   -9.41  -13.92 -111.94
    4.94  -13.98 -112.35   -0.31   -9.52   -0.31   -9.52  -13.98 -112.35
    4.98  -13.92 -112.69   -0.31   -9.88   -0.31   -9.88  -13.92 -112.69
    5.02  -14.08 -112.78   -0.32   -9.73   -0.32   -9.73  -14.08 -112.78
    5.06  -14.03 -112.23   -0.31   -9.81   -0.31   -9.81  -14.03 -112.23
    5.10  -14.07 -112.66   -0.33  -10.04   -0.33  -10.04  -14.07 -112.66
    5.14  -14.10 -112.91   -0.35  -10.28   -0.35  -10.28  -14.10 -112.91
    5.18  -14.15 -112.62   -0.34  -10.00   -0.34  -10.00  -14.15 -112.62
    5.22  -14.14 -112.44   -0.32  -10.36   -0.32  -10.36  -14.14 -112.44
    5.26  -14.30 -112.93   -0.32  -10.40   -0.32  -10.40  -14.30 -112.93
    5.30  -14.24 -112.31   -0.32  -10.59   -0.32  -10.59  -14.24 -112.31
    5.34  -14.32 -112.71   -0.32  -10.61   -0.32  -10.61  -14.32 -112.71
    5.38  -14.39 -112.80   -0.34  -10.77   -0.34  -10.77  -14.39 -112.80
    5.42  -14.49 -112.21   -0.35  -10.69   -0.35  -10.69  -14.49 -112.21
    5.46  -14.45 -112.13   -0.32  -10.90   -0.32  -10.90  -14.45 -112.13
    5.50  -14.50 -112.64   -0.32  -11.14   -0.32  -11.14  -14.50 -112.64
    5.54  -14.62 -112.28   -0.34  -11.12   -0.34  -11.12  -14.62 -112.28
    5.58  -14.62 -110.85   -0.33  -11.10   -0.33  -11.10  -14.62 -110.85
    5.62  -14.71 -111.94   -0.35  -11.10   -0.35  -11.10  -14.71 -111.94
    5.65  -14.73 -111.74   -0.34  -11.46   -0.34  -11.46  -14.73 -111.74
    5.69  -14.75 -111.82   -0.34  -11.52   -0.34  -11.52  -14.75 -111.82
    5.73  -14.79 -112.04   -0.34  -11.55   -0.34  -11.55  -14.79 -112.04
    5.77  -14.97 -112.14   -0.36  -11.69   -0.36  -11.69  -14.97 -112.14
    5.81  -14.93 -111.69   -0.32  -11.75   -0.32  -11.75  -14.93 -111.69
    5.85  -15.08 -112.17   -0.33  -11.99   -0.33  -11.99  -15.08 -112.17
    5.89  -15.12 -112.17   -0.33  -11.99   -0.33  -11.99  -15.12 -112.17
    5.93  -15.28 -112.10   -0.34  -12.12   -0.34  -12.12  -15.28 -112.10
    5.97  -15.31 -111.78   -0.34  -12.25   -0.34  -12.25  -15.31 -111.78
    6.01  -15.51 -111.90   -0.34  -12.43   -0.34  -12.43  -15.51 -111.90
    6.05  -15.50 -111.35   -0.34  -12.51   -0.34  -12.51  -15.50 -111.35
    6.09  -15.63 -111.59   -0.36  -12.63   -0.36  -12.63  -15.63 -111.59
    6.13  -15.73 -111.42   -0.34  -12.88   -0.34  -12.88  -15.73 -111.42
    6.17  -15.92 -111.24   -0.33  -13.01   -0.33  -13.01  -15.92 -111.24
    6.21  -15.97 -110.61   -0.36  -13.03   -0.36  -13.03  -15.97 -110.61
    6.25  -16.09 -110.88   -0.35  -13.41   -0.35  -13.41  -16.09 -110.88
    6.29  -16.26 -110.34   -0.36  -13.45   -0.36  -13.45  -16.26 -110.34
    6.33  -16.37 -110.29   -0.34  -13.63   -0.34  -13.63  -16.37 -110.29
    6.37  -16.57 -110.29   -0.35  -13.87   -0.35  -13.87  -16.57 -110.29
    6.41  -16.81 -109.95   -0.37  -13.84   -0.37  -13.84  -16.81 -109.95
    6.45  -17.03 -109.09   -0.36  -14.36   -0.36  -14.36  -17.03 -109.09
    6.49  -17.22 -108.89   -0.37  -14.62   -0.37  -14.62  -17.22 -108.89
    6.53  -17.63 -107.56   -0.40  -14.93   -0.40  -14.93  -17.63 -107.56
    6.57  -17.88 -106.38   -0.39  -15.22   -0.39  -15.22  -17.88 -106.38
    6.61  -18.30 -104.43   -0.42  -15.76   -0.42  -15.76  -18.30 -104.43
    6.65  -18.74 -100.99   -0.45  -16.01   -0.45  -16.01  -18.74 -100.99
    6.69  -19.19  -96.51   -0.51  -16.73   -0.51  -16.73  -19.19  -96.51
    6.73  -19.49  -89.75   -0.59  -17.44   -0.59  -17.44  -19.49  -89.75
    6.77  -19.45  -79.48   -0.73  -17.98   -0.73  -17.98  -19.45  -79.48
    6.81  -18.22  -67.36   -0.96  -18.79   -0.96  -18.79  -18.22  -67.36
    6.85  -15.97  -61.99   -1.36  -18.50   -1.36  -18.50  -15.97  -61.99
    6.89  -13.57  -67.41   -1.73  -16.28   -1.73  -16.28  -13.57  -67.41
    6.93  -12.57  -78.62   -1.70  -12.60   -1.70  -12.60  -12.57  -78.62
    6.97  -12.38  -87.94   -1.38  -10.77   -1.38  -10.77  -12.38  -87.94
    7.01  -12.80  -94.79   -1.14  -10.25   -1.14  -10.25  -12.80  -94.79
    7.05  -13.13  -97.98   -0.95  -10.62   -0.95  -10.62  -13.13  -97.98
    7.09  -13.52 -100.80   -0.81  -10.96   -0.81  -10.96  -13.52 -100.80
    7.13  -13.91 -102.41   -0.77  -11.47   -0.77  -11.47  -13.91 -102.41
    7.17  -14.21 -103.19   -0.71  -11.60   -0.71  -11.60  -14.21 -103.19
    7.21  -14.47 -103.51   -0.69  -12.05   -0.69  -12.05  -14.47 -103.51
    7.24  -14.63 -104.01   -0.66  -12.36   -0.66  -12.36  -14.63 -104.01
    7.28  -14.86 -103.75   -0.66  -12.63   -0.66  -12.63  -14.86 -103.75
    7.32  -14.94 -103.65   -0.64  -12.88   -0.64  -12.88  -14.94 -103.65
    7.36  -15.01 -103.90   -0.66  -12.96   -0.66  -12.96  -15.01 -103.90
    7.40  -15.11 -104.04   -0.64  -13.04   -0.64  -13.04  -15.11 -104.04
    7.44  -15.25 -103.53   -0.65  -13.18   -0.65  -13.18  -15.25 -103.53
    7.48  -15.16 -103.68   -0.65  -13.34   -0.65  -13.34  -15.16 -103.68
    7.52  -15.27 -103.65   -0.68  -13.33   -0.68  -13.33  -15.27 -103.65
    7.56  -15.17 -103.34   -0.64  -13.41   -0.64  -13.41  -15.17 -103.34
    7.60  -15.27 -104.23   -0.66  -13.44   -0.66  -13.44  -15.27 -104.23
    7.64  -15.26 -103.99   -0.65  -13.38   -0.65  -13.38  -15.26 -103.99
    7.68  -15.26 -104.78   -0.65  -13.47   -0.65  -13.47  -15.26 -104.78
    7.72  -15.23 -105.30   -0.64  -13.63   -0.64  -13.63  -15.23 -105.30
    7.76  -15.35 -106.10   -0.65  -13.64   -0.65  -13.64  -15.35 -106.10
    7.80  -15.43 -106.32   -0.63  -13.72   -0.63  -13.72  -15.43 -106.32
    7.84  -15.48 -106.38   -0.62  -13.90   -0.62  -13.90  -15.48 -106.38
    7.88  -15.45 -106.58   -0.59  -14.01   -0.59  -14.01  -15.45 -106.58
    7.92  -15.57 -107.11   -0.60  -14.07   -0.60  -14.07  -15.57 -107.11
    7.96  -15.59 -106.94   -0.59  -14.26   -0.59  -14.26  -15.59 -106.94
    8.00  -15.65 -107.86   -0.60  -14.27   -0.60  -14.27  -15.65 -107.86
