! This data is being provided by Wuerth Elektronik eiSos GmbH & Co. KG to the industry for analysis.
!
! Document information:
! Version:rev19a Date: 16/12/2019
!
! Component information:
! Match Code: WE-CNSW P/N: 744232601 Size: 1206
!------------------------------------------------------------------------------------------------------------------
! Disclaimer:  While Würth Elektronik eiSos has made every reasonable effort to ensure the accuracy
! of the information provided, Würth Elektronik eiSos does not guarantee the exemption of error on the
! data collection measurements, nor does Würth Elektronik eiSos guarantee that the information is current.
! Würth Elektronik eiSos reserves the right to make any adjustments at any time without notice.
! Würth Elektronik eiSos expressly disclaims all implied warranties regarding this measurement data collection.
!
! Note 1 – This data measurement is representative according to the product implementation into the fixture.
! Component behavior is sensitive to implementation into the fixture, which includes board
! materials, trace geometry information, connector pin out, layer connection, use of de-embedding
! techniques, etc.
!
! Note 2 - The fixture was designed specifically to match the 50 Ohm line impedance, as well as the connector impedance,
! in order to accomplish a reliable measurement without reflections in the trace. Any other implementation of the fixture will change the obtained
! measurement performance. The used fixture behavior was de-embedded to accomplish reliable measurement results.
!
!------------------------------------------------------------------------------------------------------------------
!
! The test setup consisted of the following:
!   - Agilent VNA E5071C or E5071B
!   - Calibrations are SOLT (short open load thru)
!   - De-embedding of the SMA's or line cards were included
!   - Equipment Settings -
!            - Sampling - 501 points
!            - IF BW – 70 kHz
!            - Averaging – Not used
!
!
!
!             Port 1----->|1|        |2| -----> Port 3
!                            |   DUT  |
!             Port 2----->|3|        |4| -----> Port 4
!
!
!*VNA Port --> |Port in Datasheet|
! |Port in Datasheet| --> VNA Port
!
!
! For further information regarding this testing, please contact
! Wuerth Elektronik eiSos
! Contact: EDA team in QDC
! Email: libraries@we-online.com or libraries@we-online.de
!
!
# Hz S dB R 50
300000	-2.727326e+001	7.765626e+001	-7.959360e-002	-2.062660e+000	-2.866004e+001	8.481775e+001	-2.848315e+001	-9.675653e+001
	-8.428719e-002	-2.371827e+000	-2.695031e+001	8.689565e+001	-2.867560e+001	-9.505911e+001	-2.835983e+001	8.098109e+001
	-2.883819e+001	8.477748e+001	-2.882365e+001	-9.304222e+001	-2.650065e+001	8.703592e+001	-8.337441e-002	-2.306981e+000
	-2.871605e+001	-9.691696e+001	-2.840509e+001	8.482659e+001	-7.060003e-002	-2.456347e+000	-2.699825e+001	8.659797e+001
307335	-2.771811e+001	7.824506e+001	-9.661749e-002	-2.365248e+000	-2.838476e+001	8.270889e+001	-2.871340e+001	-9.586601e+001
	-1.058014e-001	-2.239990e+000	-2.748923e+001	7.714956e+001	-2.848282e+001	-9.721510e+001	-2.845015e+001	8.527323e+001
	-2.822597e+001	8.470242e+001	-2.832573e+001	-9.574099e+001	-2.706143e+001	8.226950e+001	-9.505372e-002	-2.123499e+000
	-2.835848e+001	-9.395576e+001	-2.822120e+001	8.476551e+001	-8.358655e-002	-2.349437e+000	-2.697859e+001	8.157441e+001
314670	-2.763174e+001	7.777234e+001	-9.279733e-002	-2.238754e+000	-2.806253e+001	8.290485e+001	-2.814907e+001	-9.528381e+001
	-1.000206e-001	-2.221701e+000	-2.760974e+001	7.779273e+001	-2.831648e+001	-9.737631e+001	-2.811497e+001	8.472621e+001
	-2.812621e+001	8.302353e+001	-2.855248e+001	-9.500895e+001	-2.688840e+001	8.279269e+001	-1.072202e-001	-2.230840e+000
	-2.835679e+001	-9.621713e+001	-2.827008e+001	8.486547e+001	-9.121317e-002	-2.247139e+000	-2.691980e+001	7.970751e+001
322004	-2.684613e+001	8.166088e+001	-1.000208e-001	-2.308038e+000	-2.803017e+001	8.279217e+001	-2.795515e+001	-9.632453e+001
	-1.027519e-001	-2.302189e+000	-2.760033e+001	7.621429e+001	-2.782683e+001	-9.453881e+001	-2.793379e+001	8.545222e+001
	-2.801684e+001	8.341479e+001	-2.813012e+001	-9.588012e+001	-2.670913e+001	8.604054e+001	-9.895641e-002	-2.225247e+000
	-2.810552e+001	-9.513279e+001	-2.806068e+001	8.604360e+001	-6.529248e-002	-2.320947e+000	-2.734465e+001	8.136798e+001
329339	-2.704952e+001	7.711553e+001	-9.150465e-002	-2.233307e+000	-2.779025e+001	8.456445e+001	-2.778728e+001	-9.498999e+001
	-1.038697e-001	-2.349805e+000	-2.743300e+001	7.994601e+001	-2.772810e+001	-9.412129e+001	-2.763505e+001	8.503307e+001
	-2.798906e+001	8.326713e+001	-2.786259e+001	-9.631352e+001	-2.698796e+001	8.244113e+001	-8.123267e-002	-2.345613e+000
	-2.777496e+001	-9.554903e+001	-2.771492e+001	8.287083e+001	-8.647558e-002	-2.449463e+000	-2.694372e+001	8.211058e+001
336674	-2.769453e+001	7.961079e+001	-1.037170e-001	-2.245427e+000	-2.756932e+001	8.489660e+001	-2.754701e+001	-9.650496e+001
	-9.442669e-002	-2.242981e+000	-2.735010e+001	7.673368e+001	-2.773454e+001	-9.513149e+001	-2.737078e+001	8.505203e+001
	-2.744193e+001	8.453781e+001	-2.780878e+001	-9.480482e+001	-2.701539e+001	8.215504e+001	-1.057597e-001	-2.422264e+000
	-2.754334e+001	-9.627373e+001	-2.770776e+001	8.343197e+001	-9.304786e-002	-2.359682e+000	-2.704187e+001	8.539358e+001
344009	-2.655874e+001	7.720869e+001	-1.108836e-001	-2.354929e+000	-2.730719e+001	8.410444e+001	-2.729016e+001	-9.424855e+001
	-1.004261e-001	-2.507379e+000	-2.670858e+001	7.645334e+001	-2.763123e+001	-9.428904e+001	-2.728942e+001	8.525226e+001
	-2.719840e+001	8.343970e+001	-2.738653e+001	-9.436530e+001	-2.679806e+001	8.241826e+001	-1.058999e-001	-2.384288e+000
	-2.749783e+001	-9.608947e+001	-2.766282e+001	8.490756e+001	-9.590343e-002	-2.442313e+000	-2.701115e+001	8.305572e+001
351344	-2.700739e+001	7.692803e+001	-8.504725e-002	-2.543670e+000	-2.723771e+001	8.303767e+001	-2.725442e+001	-9.553219e+001
	-1.013248e-001	-2.416688e+000	-2.647388e+001	7.888034e+001	-2.709425e+001	-9.534021e+001	-2.718461e+001	8.533092e+001
	-2.750068e+001	8.471717e+001	-2.744442e+001	-9.543209e+001	-2.602160e+001	8.283696e+001	-8.777161e-002	-2.446494e+000
	-2.729100e+001	-9.525100e+001	-2.743242e+001	8.394207e+001	-6.970132e-002	-2.657755e+000	-2.638467e+001	8.433051e+001
358679	-2.668804e+001	7.843391e+001	-9.440227e-002	-2.376314e+000	-2.695908e+001	8.420636e+001	-2.706951e+001	-9.693741e+001
	-1.172680e-001	-2.580992e+000	-2.698491e+001	7.920518e+001	-2.700306e+001	-9.566374e+001	-2.689036e+001	8.347187e+001
	-2.704341e+001	8.398288e+001	-2.715715e+001	-9.497190e+001	-2.625870e+001	8.399427e+001	-8.565251e-002	-2.631229e+000
	-2.719496e+001	-9.430336e+001	-2.714262e+001	8.450555e+001	-9.059107e-002	-2.668339e+000	-2.641715e+001	8.285802e+001
366013	-2.648652e+001	7.777410e+001	-9.722704e-002	-2.520212e+000	-2.689103e+001	8.476453e+001	-2.696061e+001	-9.523711e+001
	-8.693859e-002	-2.603933e+000	-2.665074e+001	8.017317e+001	-2.690375e+001	-9.678156e+001	-2.668435e+001	8.473931e+001
	-2.696895e+001	8.283336e+001	-2.702899e+001	-9.546245e+001	-2.609997e+001	8.095243e+001	-8.512946e-002	-2.532978e+000
	-2.693996e+001	-9.596324e+001	-2.700702e+001	8.357600e+001	-8.066105e-002	-2.510048e+000	-2.650797e+001	8.442295e+001
373348	-2.589261e+001	7.993903e+001	-9.517974e-002	-2.604491e+000	-2.661821e+001	8.403065e+001	-2.683766e+001	-9.523044e+001
	-7.650601e-002	-2.610085e+000	-2.616686e+001	7.970604e+001	-2.679467e+001	-9.691398e+001	-2.671308e+001	8.320694e+001
	-2.650689e+001	8.314991e+001	-2.688690e+001	-9.637597e+001	-2.582558e+001	8.214743e+001	-8.254338e-002	-2.617068e+000
	-2.674041e+001	-9.424274e+001	-2.681548e+001	8.436049e+001	-7.033483e-002	-2.587567e+000	-2.600619e+001	8.009005e+001
380683	-2.603833e+001	7.711291e+001	-1.016545e-001	-2.670583e+000	-2.671811e+001	8.484154e+001	-2.681645e+001	-9.548508e+001
	-8.961973e-002	-2.618642e+000	-2.618564e+001	7.577495e+001	-2.661610e+001	-9.514537e+001	-2.649813e+001	8.505941e+001
	-2.644749e+001	8.490833e+001	-2.668737e+001	-9.572758e+001	-2.569386e+001	8.337117e+001	-8.837802e-002	-2.581614e+000
	-2.656117e+001	-9.501181e+001	-2.648956e+001	8.266118e+001	-7.686914e-002	-2.575084e+000	-2.642201e+001	8.070269e+001
388018	-2.586669e+001	7.988756e+001	-1.010557e-001	-2.606827e+000	-2.650417e+001	8.454722e+001	-2.641432e+001	-9.528764e+001
	-9.965907e-002	-2.805996e+000	-2.588643e+001	7.908145e+001	-2.640505e+001	-9.558176e+001	-2.640247e+001	8.436486e+001
	-2.628710e+001	8.345137e+001	-2.661183e+001	-9.670644e+001	-2.573040e+001	8.202891e+001	-1.059859e-001	-2.653257e+000
	-2.654055e+001	-9.585998e+001	-2.637370e+001	8.393664e+001	-7.018972e-002	-2.728932e+000	-2.585249e+001	8.154118e+001
395353	-2.584942e+001	7.726103e+001	-8.637022e-002	-2.700766e+000	-2.623962e+001	8.253831e+001	-2.623701e+001	-9.662540e+001
	-1.103191e-001	-2.778230e+000	-2.586321e+001	7.890611e+001	-2.630221e+001	-9.610477e+001	-2.645849e+001	8.254043e+001
	-2.624813e+001	8.329749e+001	-2.618383e+001	-9.792778e+001	-2.527620e+001	8.283065e+001	-1.008757e-001	-2.828346e+000
	-2.622226e+001	-9.747729e+001	-2.624441e+001	8.485375e+001	-5.760670e-002	-2.955485e+000	-2.555741e+001	8.127662e+001
402688	-2.574529e+001	7.821254e+001	-1.025750e-001	-2.782860e+000	-2.596282e+001	8.413186e+001	-2.602024e+001	-9.709997e+001
	-1.090401e-001	-2.812294e+000	-2.559244e+001	7.811053e+001	-2.610277e+001	-9.696443e+001	-2.610497e+001	8.334439e+001
	-2.600452e+001	8.369959e+001	-2.621495e+001	-9.540189e+001	-2.546897e+001	8.177259e+001	-8.131242e-002	-2.825890e+000
	-2.619861e+001	-9.766278e+001	-2.624258e+001	8.350940e+001	-6.059704e-002	-2.734810e+000	-2.584372e+001	8.130916e+001
410022	-2.557488e+001	7.894825e+001	-1.163488e-001	-2.851049e+000	-2.609385e+001	8.451277e+001	-2.597282e+001	-9.585853e+001
	-1.156113e-001	-2.773635e+000	-2.562049e+001	7.778140e+001	-2.598260e+001	-9.641002e+001	-2.582545e+001	8.401633e+001
	-2.590016e+001	8.273609e+001	-2.597403e+001	-9.588806e+001	-2.545042e+001	7.940595e+001	-9.655556e-002	-2.805326e+000
	-2.567218e+001	-9.567134e+001	-2.601471e+001	8.404915e+001	-8.721829e-002	-2.839793e+000	-2.560168e+001	8.027038e+001
418652	-2.574261e+001	7.768504e+001	-1.337064e-001	-2.989815e+000	-2.589558e+001	8.337542e+001	-2.589673e+001	-9.615303e+001
	-1.077931e-001	-2.896890e+000	-2.498112e+001	7.714921e+001	-2.596588e+001	-9.802053e+001	-2.562679e+001	8.340436e+001
	-2.598753e+001	8.397523e+001	-2.583153e+001	-9.749606e+001	-2.492484e+001	8.016912e+001	-9.612607e-002	-2.973099e+000
	-2.578492e+001	-9.722263e+001	-2.587384e+001	8.215030e+001	-1.143810e-001	-2.887699e+000	-2.562356e+001	8.200496e+001
428777	-2.490585e+001	7.768805e+001	-1.100801e-001	-2.976884e+000	-2.556598e+001	8.322160e+001	-2.553499e+001	-9.641761e+001
	-1.110538e-001	-3.039911e+000	-2.508025e+001	7.658658e+001	-2.570247e+001	-9.633645e+001	-2.555934e+001	8.343913e+001
	-2.553072e+001	8.296344e+001	-2.561664e+001	-9.614352e+001	-2.487663e+001	8.205149e+001	-1.047862e-001	-2.964875e+000
	-2.566861e+001	-9.715421e+001	-2.554283e+001	8.286098e+001	-7.993208e-002	-2.939052e+000	-2.541408e+001	8.174599e+001
438901	-2.471692e+001	7.806011e+001	-1.049867e-001	-3.003352e+000	-2.546082e+001	8.245337e+001	-2.523831e+001	-9.842824e+001
	-1.139807e-001	-3.301935e+000	-2.515640e+001	7.744647e+001	-2.528422e+001	-9.586385e+001	-2.531865e+001	8.241534e+001
	-2.523054e+001	8.307821e+001	-2.551164e+001	-9.659857e+001	-2.486953e+001	8.187840e+001	-1.036904e-001	-3.136500e+000
	-2.537407e+001	-9.640682e+001	-2.540815e+001	8.357350e+001	-9.411068e-002	-3.067040e+000	-2.508985e+001	8.274105e+001
449026	-2.481769e+001	7.595817e+001	-9.964927e-002	-3.184557e+000	-2.519814e+001	8.400124e+001	-2.517083e+001	-9.731755e+001
	-1.024887e-001	-3.184155e+000	-2.458031e+001	7.919156e+001	-2.514721e+001	-9.759669e+001	-2.502691e+001	8.278864e+001
	-2.517688e+001	8.197840e+001	-2.512497e+001	-9.665147e+001	-2.473255e+001	7.923054e+001	-1.003679e-001	-3.067037e+000
	-2.526403e+001	-9.717321e+001	-2.506994e+001	8.199264e+001	-8.775722e-002	-3.124137e+000	-2.514908e+001	7.842038e+001
459150	-2.455987e+001	7.683285e+001	-1.125136e-001	-3.125628e+000	-2.495035e+001	8.210845e+001	-2.509457e+001	-9.724100e+001
	-1.027327e-001	-3.229236e+000	-2.455991e+001	7.934057e+001	-2.518404e+001	-9.696552e+001	-2.484330e+001	8.367923e+001
	-2.502016e+001	8.265404e+001	-2.496827e+001	-9.741270e+001	-2.462657e+001	8.194720e+001	-1.037071e-001	-3.153609e+000
	-2.519642e+001	-9.705909e+001	-2.500597e+001	8.306061e+001	-8.850534e-002	-3.279589e+000	-2.485897e+001	8.129052e+001
469275	-2.445444e+001	7.688467e+001	-1.251235e-001	-3.358521e+000	-2.478704e+001	8.217008e+001	-2.479182e+001	-9.742463e+001
	-1.133071e-001	-3.184264e+000	-2.471695e+001	7.640167e+001	-2.484176e+001	-9.935726e+001	-2.493388e+001	8.369169e+001
	-2.488748e+001	8.237577e+001	-2.485038e+001	-9.793249e+001	-2.422438e+001	8.045962e+001	-1.099684e-001	-3.202707e+000
	-2.485883e+001	-9.852645e+001	-2.498958e+001	8.419701e+001	-9.563008e-002	-3.351180e+000	-2.477151e+001	7.903833e+001
479399	-2.443287e+001	7.727786e+001	-1.101732e-001	-3.366514e+000	-2.440307e+001	8.181978e+001	-2.478132e+001	-9.800754e+001
	-1.161408e-001	-3.384337e+000	-2.429785e+001	7.657653e+001	-2.472507e+001	-9.653275e+001	-2.446772e+001	8.210087e+001
	-2.455077e+001	8.232006e+001	-2.474199e+001	-9.696980e+001	-2.430821e+001	8.126680e+001	-9.505306e-002	-3.416511e+000
	-2.461093e+001	-9.564880e+001	-2.478394e+001	8.307211e+001	-8.882607e-002	-3.384257e+000	-2.431691e+001	7.914082e+001
489523	-2.428992e+001	7.633698e+001	-1.161478e-001	-3.428365e+000	-2.446878e+001	8.212898e+001	-2.440418e+001	-9.805143e+001
	-1.215437e-001	-3.438537e+000	-2.411868e+001	7.724304e+001	-2.462259e+001	-9.793925e+001	-2.440453e+001	8.245843e+001
	-2.441206e+001	8.134488e+001	-2.452874e+001	-9.786759e+001	-2.395373e+001	7.880193e+001	-1.187659e-001	-3.385767e+000
	-2.440336e+001	-9.760946e+001	-2.438772e+001	8.232139e+001	-1.136158e-001	-3.350099e+000	-2.430026e+001	7.919765e+001
499648	-2.411639e+001	7.740059e+001	-1.226534e-001	-3.452665e+000	-2.415145e+001	8.160834e+001	-2.426886e+001	-9.664612e+001
	-1.228465e-001	-3.398260e+000	-2.417419e+001	7.662366e+001	-2.423564e+001	-9.784422e+001	-2.420981e+001	8.197644e+001
	-2.426570e+001	8.277989e+001	-2.428243e+001	-9.761744e+001	-2.398292e+001	7.991164e+001	-9.677685e-002	-3.361491e+000
	-2.418240e+001	-9.670487e+001	-2.429917e+001	8.254080e+001	-9.324094e-002	-3.485673e+000	-2.431287e+001	7.917257e+001
509772	-2.381776e+001	7.674270e+001	-1.239310e-001	-3.540221e+000	-2.397149e+001	8.100455e+001	-2.425907e+001	-9.792893e+001
	-1.149603e-001	-3.515765e+000	-2.382871e+001	7.516426e+001	-2.420463e+001	-9.854128e+001	-2.400218e+001	8.133069e+001
	-2.403915e+001	8.313483e+001	-2.421964e+001	-9.818587e+001	-2.336175e+001	7.879462e+001	-1.019352e-001	-3.544260e+000
	-2.403506e+001	-9.817786e+001	-2.409006e+001	8.253894e+001	-1.075966e-001	-3.570866e+000	-2.393871e+001	7.937393e+001
519897	-2.345618e+001	7.613841e+001	-1.297221e-001	-3.660139e+000	-2.382825e+001	8.213045e+001	-2.392656e+001	-9.732360e+001
	-1.190671e-001	-3.743418e+000	-2.384091e+001	7.614821e+001	-2.404674e+001	-9.829862e+001	-2.391279e+001	8.141662e+001
	-2.390450e+001	8.174154e+001	-2.412854e+001	-9.725629e+001	-2.354240e+001	7.901141e+001	-1.226691e-001	-3.643945e+000
	-2.397763e+001	-9.820306e+001	-2.406015e+001	8.218426e+001	-1.020900e-001	-3.648715e+000	-2.362980e+001	7.923329e+001
530021	-2.348545e+001	7.500124e+001	-1.095128e-001	-3.741486e+000	-2.372271e+001	8.220487e+001	-2.370227e+001	-9.894863e+001
	-1.401868e-001	-3.633815e+000	-2.320077e+001	7.639807e+001	-2.387696e+001	-9.773272e+001	-2.377901e+001	8.325464e+001
	-2.387459e+001	8.277738e+001	-2.372045e+001	-9.882529e+001	-2.316896e+001	7.782090e+001	-1.049355e-001	-3.654686e+000
	-2.390105e+001	-9.909316e+001	-2.379512e+001	8.176207e+001	-1.131371e-001	-3.772685e+000	-2.347805e+001	8.036159e+001
540146	-2.330992e+001	7.616044e+001	-1.213068e-001	-3.758077e+000	-2.357245e+001	8.089133e+001	-2.368527e+001	-9.922348e+001
	-1.192164e-001	-3.754318e+000	-2.305228e+001	7.519791e+001	-2.378377e+001	-9.803462e+001	-2.352747e+001	8.135128e+001
	-2.361280e+001	8.183317e+001	-2.370651e+001	-9.805742e+001	-2.319387e+001	7.796674e+001	-1.223163e-001	-3.723601e+000
	-2.380468e+001	-9.763443e+001	-2.363956e+001	8.124448e+001	-9.309541e-002	-3.767888e+000	-2.317474e+001	7.795582e+001
550270	-2.333127e+001	7.795100e+001	-1.208149e-001	-3.841131e+000	-2.347464e+001	8.215175e+001	-2.338089e+001	-9.842291e+001
	-1.243770e-001	-3.846022e+000	-2.292942e+001	7.472684e+001	-2.344373e+001	-9.755831e+001	-2.354057e+001	8.212888e+001
	-2.333109e+001	8.113905e+001	-2.347542e+001	-9.882006e+001	-2.336853e+001	7.769524e+001	-1.425587e-001	-3.767912e+000
	-2.331317e+001	-9.865908e+001	-2.348042e+001	8.057141e+001	-1.057681e-001	-3.656766e+000	-2.321214e+001	7.815761e+001
560395	-2.288021e+001	7.602598e+001	-1.330089e-001	-3.794729e+000	-2.322292e+001	8.210200e+001	-2.331461e+001	-9.940789e+001
	-1.383828e-001	-3.830616e+000	-2.296656e+001	7.521146e+001	-2.337691e+001	-9.933345e+001	-2.333866e+001	8.199558e+001
	-2.330725e+001	8.101901e+001	-2.348409e+001	-9.894676e+001	-2.293066e+001	7.809618e+001	-1.239903e-001	-3.928198e+000
	-2.335305e+001	-9.935545e+001	-2.326462e+001	8.142729e+001	-1.069761e-001	-3.909256e+000	-2.282331e+001	7.825208e+001
572189	-2.269785e+001	7.508505e+001	-1.313622e-001	-3.927611e+000	-2.311042e+001	8.004643e+001	-2.322736e+001	-9.800800e+001
	-1.339352e-001	-3.951949e+000	-2.280871e+001	7.521073e+001	-2.326965e+001	-9.784974e+001	-2.297978e+001	8.051342e+001
	-2.325031e+001	8.120946e+001	-2.319701e+001	-9.898057e+001	-2.301149e+001	7.926331e+001	-1.348466e-001	-3.975002e+000
	-2.322729e+001	-9.826809e+001	-2.311233e+001	8.112536e+001	-1.015002e-001	-3.872580e+000	-2.280967e+001	7.620448e+001
586179	-2.257952e+001	7.329988e+001	-1.351791e-001	-3.973225e+000	-2.295031e+001	8.154337e+001	-2.283408e+001	-9.925968e+001
	-1.365128e-001	-4.043055e+000	-2.254495e+001	7.422414e+001	-2.295382e+001	-9.859631e+001	-2.296499e+001	8.096165e+001
	-2.301385e+001	8.068426e+001	-2.309974e+001	-9.901971e+001	-2.266657e+001	7.721466e+001	-1.217482e-001	-4.029146e+000
	-2.304539e+001	-9.893271e+001	-2.291103e+001	8.119977e+001	-1.355022e-001	-3.975613e+000	-2.254771e+001	7.832264e+001
600169	-2.261803e+001	7.549413e+001	-1.441567e-001	-4.261802e+000	-2.276866e+001	8.069510e+001	-2.266121e+001	-9.878224e+001
	-1.292999e-001	-4.234048e+000	-2.267252e+001	7.403161e+001	-2.269854e+001	-9.881216e+001	-2.271600e+001	8.101834e+001
	-2.265378e+001	8.109445e+001	-2.274633e+001	-9.920185e+001	-2.249152e+001	7.826950e+001	-1.207130e-001	-4.153952e+000
	-2.272446e+001	-9.934595e+001	-2.273142e+001	8.144800e+001	-1.400005e-001	-4.095039e+000	-2.270997e+001	7.776777e+001
614158	-2.216168e+001	7.596723e+001	-1.480408e-001	-4.215257e+000	-2.256863e+001	8.034244e+001	-2.245901e+001	-9.947230e+001
	-1.196981e-001	-4.251355e+000	-2.221323e+001	7.476009e+001	-2.244801e+001	-9.917086e+001	-2.251929e+001	8.124495e+001
	-2.255211e+001	7.983331e+001	-2.256545e+001	-1.002576e+002	-2.239777e+001	7.799821e+001	-1.110894e-001	-4.112086e+000
	-2.255520e+001	-9.974751e+001	-2.255453e+001	8.062613e+001	-1.216303e-001	-4.281180e+000	-2.244457e+001	7.886977e+001
628148	-2.221222e+001	7.316206e+001	-1.334307e-001	-4.238883e+000	-2.230065e+001	7.974999e+001	-2.241351e+001	-9.947004e+001
	-1.446207e-001	-4.304406e+000	-2.205032e+001	7.567805e+001	-2.231162e+001	-9.950809e+001	-2.231075e+001	7.969823e+001
	-2.238483e+001	8.137165e+001	-2.230695e+001	-9.987135e+001	-2.219788e+001	7.742602e+001	-1.239286e-001	-4.438953e+000
	-2.240004e+001	-9.942818e+001	-2.232280e+001	8.050265e+001	-1.105194e-001	-4.264770e+000	-2.234320e+001	7.827972e+001
642138	-2.211416e+001	7.418556e+001	-1.444332e-001	-4.343594e+000	-2.210226e+001	8.013951e+001	-2.220248e+001	-9.964368e+001
