!Murata Part Number: GRM2165C1H102JA01
!These Parameters are Measured in Series Mode Connection
!Data Generated on Mar 30, 2021
!       o--ll--o
!Port1            Port2
!       o------o
!Operation Temp=25[degC], DC Bias Voltage=0[V]
!Freq. Start=1000[kHz] Stop=6[GHz] 401[Steps]
# Hz S RI R 50
!Freq.(Hz) S11(Real) S11(Imag) S21(Real) S21(Imag) S12(Real) S12(Imag) S22(Real) S22(Imag)
1000000 0.7135986 -0.4520244 0.2864014 0.4520244 0.2864014 0.4520244 0.7135986 -0.4520244
1021987 0.7046269 -0.4561542 0.2953731 0.4561542 0.2953731 0.4561542 0.7046269 -0.4561542
1044457 0.6954942 -0.4601405 0.3045058 0.4601405 0.3045058 0.4601405 0.6954942 -0.4601405
1067422 0.6862049 -0.4639756 0.3137951 0.4639756 0.3137951 0.4639756 0.6862049 -0.4639756
1090891 0.6767638 -0.4676522 0.3232362 0.4676522 0.3232362 0.4676522 0.6767638 -0.4676522
1114877 0.6671766 -0.4711628 0.3328234 0.4711628 0.3328234 0.4711628 0.6671766 -0.4711628
1139390 0.6574489 -0.4745003 0.3425511 0.4745003 0.3425511 0.4745003 0.6574489 -0.4745003
1164441 0.6475870 -0.4776578 0.3524130 0.4776578 0.3524130 0.4776578 0.6475870 -0.4776578
1190044 0.6375978 -0.4806288 0.3624022 0.4806288 0.3624022 0.4806288 0.6375978 -0.4806288
1216210 0.6274883 -0.4834069 0.3725117 0.4834069 0.3725117 0.4834069 0.6274883 -0.4834069
1242950 0.6172661 -0.4859860 0.3827339 0.4859860 0.3827339 0.4859860 0.6172661 -0.4859860
1270279 0.6069391 -0.4883605 0.3930609 0.4883605 0.3930609 0.4883605 0.6069391 -0.4883605
1298209 0.5965156 -0.4905251 0.4034844 0.4905251 0.4034844 0.4905251 0.5965156 -0.4905251
1326753 0.5860042 -0.4924749 0.4139958 0.4924749 0.4139958 0.4924749 0.5860042 -0.4924749
1355924 0.5754140 -0.4942056 0.4245860 0.4942056 0.4245860 0.4942056 0.5754140 -0.4942056
1385737 0.5647541 -0.4957131 0.4352459 0.4957131 0.4352459 0.4957131 0.5647541 -0.4957131
1416205 0.5540339 -0.4969940 0.4459661 0.4969940 0.4459661 0.4969940 0.5540339 -0.4969940
1447343 0.5432633 -0.4980453 0.4567367 0.4980453 0.4567367 0.4980453 0.5432633 -0.4980453
1479166 0.5324521 -0.4988645 0.4675479 0.4988645 0.4675479 0.4988645 0.5324521 -0.4988645
1511688 0.5216104 -0.4994498 0.4783896 0.4994498 0.4783896 0.4994498 0.5216104 -0.4994498
1544926 0.5107483 -0.4997996 0.4892517 0.4997996 0.4892517 0.4997996 0.5107483 -0.4997996
1578894 0.4998760 -0.4999133 0.5001240 0.4999133 0.5001240 0.4999133 0.4998760 -0.4999133
1613609 0.4890039 -0.4997904 0.5109961 0.4997904 0.5109961 0.4997904 0.4890039 -0.4997904
1649087 0.4781422 -0.4994314 0.5218578 0.4994314 0.5218578 0.4994314 0.4781422 -0.4994314
1685346 0.4673011 -0.4988371 0.5326989 0.4988371 0.5326989 0.4988371 0.4673011 -0.4988371
1722402 0.4564909 -0.4980087 0.5435091 0.4980087 0.5435091 0.4980087 0.4564909 -0.4980087
1760272 0.4457215 -0.4969484 0.5542785 0.4969484 0.5542785 0.4969484 0.4457215 -0.4969484
1798975 0.4350029 -0.4956585 0.5649971 0.4956585 0.5649971 0.4956585 0.4350029 -0.4956585
1838529 0.4243447 -0.4941421 0.5756553 0.4941421 0.5756553 0.4941421 0.4243447 -0.4941421
1878953 0.4137565 -0.4924026 0.5862435 0.4924026 0.5862435 0.4924026 0.4137565 -0.4924026
1920266 0.4032474 -0.4904441 0.5967526 0.4904441 0.5967526 0.4904441 0.4032474 -0.4904441
1962487 0.3928264 -0.4882709 0.6071736 0.4882709 0.6071736 0.4882709 0.3928264 -0.4882709
2005636 0.3825021 -0.4858879 0.6174979 0.4858879 0.6174979 0.4858879 0.3825021 -0.4858879
2049734 0.3722828 -0.4833005 0.6277172 0.4833005 0.6277172 0.4833005 0.3722828 -0.4833005
2094801 0.3621765 -0.4805143 0.6378235 0.4805143 0.6378235 0.4805143 0.3621765 -0.4805143
2140860 0.3521906 -0.4775353 0.6478094 0.4775353 0.6478094 0.4775353 0.3521906 -0.4775353
2187931 0.3423323 -0.4743698 0.6576677 0.4743698 0.6576677 0.4743698 0.3423323 -0.4743698
2236037 0.3326083 -0.4710246 0.6673917 0.4710246 0.6673917 0.4710246 0.3326083 -0.4710246
2285201 0.3230249 -0.4675064 0.6769751 0.4675064 0.6769751 0.4675064 0.3230249 -0.4675064
2335446 0.3135880 -0.4638225 0.6864120 0.4638225 0.6864120 0.4638225 0.3135880 -0.4638225
2386795 0.3043028 -0.4599801 0.6956972 0.4599801 0.6956972 0.4599801 0.3043028 -0.4599801
2439274 0.2951744 -0.4559868 0.7048256 0.4559868 0.7048256 0.4559868 0.2951744 -0.4559868
2492906 0.2862072 -0.4518501 0.7137928 0.4518501 0.7137928 0.4518501 0.2862072 -0.4518501
2547717 0.2774052 -0.4475779 0.7225948 0.4475779 0.7225948 0.4475779 0.2774052 -0.4475779
2603734 0.2687721 -0.4431777 0.7312279 0.4431777 0.7312279 0.4431777 0.2687721 -0.4431777
2660982 0.2603109 -0.4386576 0.7396891 0.4386576 0.7396891 0.4386576 0.2603109 -0.4386576
2719490 0.2520243 -0.4340252 0.7479757 0.4340252 0.7479757 0.4340252 0.2520243 -0.4340252
2779283 0.2439145 -0.4292886 0.7560855 0.4292886 0.7560855 0.4292886 0.2439145 -0.4292886
2840391 0.2359834 -0.4244553 0.7640166 0.4244553 0.7640166 0.4244553 0.2359834 -0.4244553
2902843 0.2282325 -0.4195331 0.7717675 0.4195331 0.7717675 0.4195331 0.2282325 -0.4195331
2966668 0.2206626 -0.4145298 0.7793374 0.4145298 0.7793374 0.4145298 0.2206626 -0.4145298
3031896 0.2132745 -0.4094526 0.7867255 0.4094526 0.7867255 0.4094526 0.2132745 -0.4094526
3098558 0.2060684 -0.4043091 0.7939316 0.4043091 0.7939316 0.4043091 0.2060684 -0.4043091
3166686 0.1990442 -0.3991065 0.8009558 0.3991065 0.8009558 0.3991065 0.1990442 -0.3991065
3236312 0.1922016 -0.3938519 0.8077984 0.3938519 0.8077984 0.3938519 0.1922016 -0.3938519
3307469 0.1855397 -0.3885521 0.8144603 0.3885521 0.8144603 0.3885521 0.1855397 -0.3885521
3380190 0.1790577 -0.3832138 0.8209423 0.3832138 0.8209423 0.3832138 0.1790577 -0.3832138
3454511 0.1727541 -0.3778436 0.8272459 0.3778436 0.8272459 0.3778436 0.1727541 -0.3778436
3530465 0.1666275 -0.3724477 0.8333725 0.3724477 0.8333725 0.3724477 0.1666275 -0.3724477
3608090 0.1606760 -0.3670322 0.8393240 0.3670322 0.8393240 0.3670322 0.1606760 -0.3670322
3687421 0.1548976 -0.3616029 0.8451024 0.3616029 0.8451024 0.3616029 0.1548976 -0.3616029
3768496 0.1492901 -0.3561656 0.8507099 0.3561656 0.8507099 0.3561656 0.1492901 -0.3561656
3851354 0.1438512 -0.3507254 0.8561488 0.3507254 0.8561488 0.3507254 0.1438512 -0.3507254
3936034 0.1385782 -0.3452877 0.8614218 0.3452877 0.8614218 0.3452877 0.1385782 -0.3452877
4022575 0.1334684 -0.3398572 0.8665316 0.3398572 0.8665316 0.3398572 0.1334684 -0.3398572
4111020 0.1285190 -0.3344387 0.8714810 0.3344387 0.8714810 0.3344387 0.1285190 -0.3344387
4201409 0.1237270 -0.3290367 0.8762730 0.3290367 0.8762730 0.3290367 0.1237270 -0.3290367
4293785 0.1190894 -0.3236552 0.8809106 0.3236552 0.8809106 0.3236552 0.1190894 -0.3236552
4388193 0.1146029 -0.3182982 0.8853971 0.3182982 0.8853971 0.3182982 0.1146029 -0.3182982
4484676 0.1102643 -0.3129696 0.8897357 0.3129696 0.8897357 0.3129696 0.1102643 -0.3129696
4583281 0.1060704 -0.3076728 0.8939296 0.3076728 0.8939296 0.3076728 0.1060704 -0.3076728
4684054 0.1020179 -0.3024110 0.8979821 0.3024110 0.8979821 0.3024110 0.1020179 -0.3024110
4787042 0.0981032 -0.2971874 0.9018968 0.2971874 0.9018968 0.2971874 0.0981032 -0.2971874
4892295 0.0943231 -0.2920049 0.9056769 0.2920049 0.9056769 0.2920049 0.0943231 -0.2920049
4999862 0.0906740 -0.2868660 0.9093260 0.2868660 0.9093260 0.2868660 0.0906740 -0.2868660
5109794 0.0871526 -0.2817733 0.9128474 0.2817733 0.9128474 0.2817733 0.0871526 -0.2817733
5222143 0.0837555 -0.2767290 0.9162445 0.2767290 0.9162445 0.2767290 0.0837555 -0.2767290
5336962 0.0804792 -0.2717352 0.9195208 0.2717352 0.9195208 0.2717352 0.0804792 -0.2717352
5454306 0.0773204 -0.2667938 0.9226796 0.2667938 0.9226796 0.2667938 0.0773204 -0.2667938
5574230 0.0742756 -0.2619065 0.9257244 0.2619065 0.9257244 0.2619065 0.0742756 -0.2619065
5696791 0.0713415 -0.2570750 0.9286585 0.2570750 0.9286585 0.2570750 0.0713415 -0.2570750
5822046 0.0685149 -0.2523005 0.9314851 0.2523005 0.9314851 0.2523005 0.0685149 -0.2523005
5950055 0.0657924 -0.2475845 0.9342076 0.2475845 0.9342076 0.2475845 0.0657924 -0.2475845
6080879 0.0631708 -0.2429279 0.9368292 0.2429279 0.9368292 0.2429279 0.0631708 -0.2429279
6214580 0.0606470 -0.2383318 0.9393530 0.2383318 0.9393530 0.2383318 0.0606470 -0.2383318
6351220 0.0582179 -0.2337971 0.9417821 0.2337971 0.9417821 0.2337971 0.0582179 -0.2337971
6490864 0.0558805 -0.2293244 0.9441195 0.2293244 0.9441195 0.2293244 0.0558805 -0.2293244
6633579 0.0536316 -0.2249143 0.9463684 0.2249143 0.9463684 0.2249143 0.0536316 -0.2249143
6779431 0.0514684 -0.2205675 0.9485316 0.2205675 0.9485316 0.2205675 0.0514684 -0.2205675
6928491 0.0493880 -0.2162842 0.9506120 0.2162842 0.9506120 0.2162842 0.0493880 -0.2162842
7080828 0.0473876 -0.2120647 0.9526124 0.2120647 0.9526124 0.2120647 0.0473876 -0.2120647
7236514 0.0454645 -0.2079093 0.9545355 0.2079093 0.9545355 0.2079093 0.0454645 -0.2079093
7395623 0.0436159 -0.2038181 0.9563841 0.2038181 0.9563841 0.2038181 0.0436159 -0.2038181
7558231 0.0418394 -0.1997912 0.9581606 0.1997912 0.9581606 0.1997912 0.0418394 -0.1997912
7724414 0.0401323 -0.1958284 0.9598677 0.1958284 0.9598677 0.1958284 0.0401323 -0.1958284
7894251 0.0384922 -0.1919297 0.9615078 0.1919297 0.9615078 0.1919297 0.0384922 -0.1919297
8067822 0.0369166 -0.1880948 0.9630834 0.1880948 0.9630834 0.1880948 0.0369166 -0.1880948
8245209 0.0354033 -0.1843237 0.9645967 0.1843237 0.9645967 0.1843237 0.0354033 -0.1843237
8426497 0.0339500 -0.1806158 0.9660500 0.1806158 0.9660500 0.1806158 0.0339500 -0.1806158
8611770 0.0325545 -0.1769710 0.9674455 0.1769710 0.9674455 0.1769710 0.0325545 -0.1769710
8801117 0.0312146 -0.1733888 0.9687854 0.1733888 0.9687854 0.1733888 0.0312146 -0.1733888
8994628 0.0299283 -0.1698688 0.9700717 0.1698688 0.9700717 0.1698688 0.0299283 -0.1698688
9192393 0.0286935 -0.1664105 0.9713065 0.1664105 0.9713065 0.1664105 0.0286935 -0.1664105
9394506 0.0275084 -0.1630133 0.9724916 0.1630133 0.9724916 0.1630133 0.0275084 -0.1630133
9601063 0.0263711 -0.1596767 0.9736289 0.1596767 0.9736289 0.1596767 0.0263711 -0.1596767
9812162 0.0252797 -0.1564001 0.9747203 0.1564001 0.9747203 0.1564001 0.0252797 -0.1564001
10027902 0.0242326 -0.1531829 0.9757674 0.1531829 0.9757674 0.1531829 0.0242326 -0.1531829
10248386 0.0232279 -0.1500245 0.9767721 0.1500245 0.9767721 0.1500245 0.0232279 -0.1500245
10473717 0.0222641 -0.1469242 0.9777359 0.1469242 0.9777359 0.1469242 0.0222641 -0.1469242
10704003 0.0213396 -0.1438812 0.9786604 0.1438812 0.9786604 0.1438812 0.0213396 -0.1438812
10939352 0.0204528 -0.1408950 0.9795472 0.1408950 0.9795472 0.1408950 0.0204528 -0.1408950
11179876 0.0196024 -0.1379647 0.9803976 0.1379647 0.9803976 0.1379647 0.0196024 -0.1379647
11425688 0.0187868 -0.1350897 0.9812132 0.1350897 0.9812132 0.1350897 0.0187868 -0.1350897
11676904 0.0180046 -0.1322691 0.9819954 0.1322691 0.9819954 0.1322691 0.0180046 -0.1322691
11933645 0.0172547 -0.1295023 0.9827453 0.1295023 0.9827453 0.1295023 0.0172547 -0.1295023
12196030 0.0165357 -0.1267884 0.9834643 0.1267884 0.9834643 0.1267884 0.0165357 -0.1267884
12464184 0.0158463 -0.1241267 0.9841537 0.1241267 0.9841537 0.1241267 0.0158463 -0.1241267
12738235 0.0151855 -0.1215164 0.9848145 0.1215164 0.9848145 0.1215164 0.0151855 -0.1215164
13018310 0.0145520 -0.1189568 0.9854480 0.1189568 0.9854480 0.1189568 0.0145520 -0.1189568
13304544 0.0139447 -0.1164469 0.9860553 0.1164469 0.9860553 0.1164469 0.0139447 -0.1164469
13597071 0.0133627 -0.1139861 0.9866373 0.1139861 0.9866373 0.1139861 0.0133627 -0.1139861
13896030 0.0128049 -0.1115736 0.9871951 0.1115736 0.9871951 0.1115736 0.0128049 -0.1115736
14201563 0.0122703 -0.1092085 0.9877297 0.1092085 0.9877297 0.1092085 0.0122703 -0.1092085
14513813 0.0117580 -0.1068901 0.9882420 0.1068901 0.9882420 0.1068901 0.0117580 -0.1068901
14832928 0.0112670 -0.1046176 0.9887330 0.1046176 0.9887330 0.1046176 0.0112670 -0.1046176
15159060 0.0107966 -0.1023901 0.9892034 0.1023901 0.9892034 0.1023901 0.0107966 -0.1023901
15492362 0.0103459 -0.1002070 0.9896541 0.1002070 0.9896541 0.1002070 0.0103459 -0.1002070
15832993 0.0099140 -0.0980675 0.9900860 0.0980675 0.9900860 0.0980675 0.0099140 -0.0980675
16181113 0.0095003 -0.0959707 0.9904997 0.0959707 0.9904997 0.0959707 0.0095003 -0.0959707
16536888 0.0091040 -0.0939159 0.9908960 0.0939159 0.9908960 0.0939159 0.0091040 -0.0939159
16900485 0.0087243 -0.0919024 0.9912757 0.0919024 0.9912757 0.0919024 0.0087243 -0.0919024
17272076 0.0083606 -0.0899294 0.9916394 0.0899294 0.9916394 0.0899294 0.0083606 -0.0899294
17651837 0.0080122 -0.0879962 0.9919878 0.0879962 0.9919878 0.0879962 0.0080122 -0.0879962
18039948 0.0076785 -0.0861019 0.9923215 0.0861019 0.9923215 0.0861019 0.0076785 -0.0861019
18436593 0.0073589 -0.0842460 0.9926411 0.0842460 0.9926411 0.0842460 0.0073589 -0.0842460
18841959 0.0070529 -0.0824276 0.9929471 0.0824276 0.9929471 0.0824276 0.0070529 -0.0824276
19256237 0.0067598 -0.0806461 0.9932402 0.0806461 0.9932402 0.0806461 0.0067598 -0.0806461
19679624 0.0064791 -0.0789007 0.9935209 0.0789007 0.9935209 0.0789007 0.0064791 -0.0789007
20112321 0.0062103 -0.0771908 0.9937897 0.0771908 0.9937897 0.0771908 0.0062103 -0.0771908
20554530 0.0059530 -0.0755157 0.9940470 0.0755157 0.9940470 0.0755157 0.0059530 -0.0755157
21006463 0.0057066 -0.0738746 0.9942934 0.0738746 0.9942934 0.0738746 0.0057066 -0.0738746
21468333 0.0054707 -0.0722670 0.9945293 0.0722670 0.9945293 0.0722670 0.0054707 -0.0722670
21940357 0.0052448 -0.0706921 0.9947552 0.0706921 0.9947552 0.0706921 0.0052448 -0.0706921
22422760 0.0050286 -0.0691493 0.9949714 0.0691493 0.9949714 0.0691493 0.0050286 -0.0691493
22915770 0.0048217 -0.0676380 0.9951783 0.0676380 0.9951783 0.0676380 0.0048217 -0.0676380
23419619 0.0046236 -0.0661576 0.9953764 0.0661576 0.9953764 0.0661576 0.0046236 -0.0661576
23934547 0.0044340 -0.0647073 0.9955660 0.0647073 0.9955660 0.0647073 0.0044340 -0.0647073
24460796 0.0042526 -0.0632867 0.9957474 0.0632867 0.9957474 0.0632867 0.0042526 -0.0632867
24998616 0.0040789 -0.0618950 0.9959211 0.0618950 0.9959211 0.0618950 0.0040789 -0.0618950
25548261 0.0039127 -0.0605318 0.9960873 0.0605318 0.9960873 0.0605318 0.0039127 -0.0605318
26109991 0.0037537 -0.0591964 0.9962463 0.0591964 0.9962463 0.0591964 0.0037537 -0.0591964
26684072 0.0036016 -0.0578883 0.9963984 0.0578883 0.9963984 0.0578883 0.0036016 -0.0578883
27270775 0.0034561 -0.0566068 0.9965439 0.0566068 0.9965439 0.0566068 0.0034561 -0.0566068
27870378 0.0033168 -0.0553515 0.9966832 0.0553515 0.9966832 0.0553515 0.0033168 -0.0553515
28483164 0.0031836 -0.0541217 0.9968164 0.0541217 0.9968164 0.0541217 0.0031836 -0.0541217
29109424 0.0030562 -0.0529170 0.9969438 0.0529170 0.9969438 0.0529170 0.0030562 -0.0529170
29749453 0.0029344 -0.0517369 0.9970656 0.0517369 0.9970656 0.0517369 0.0029344 -0.0517369
30403555 0.0028178 -0.0505807 0.9971822 0.0505807 0.9971822 0.0505807 0.0028178 -0.0505807
31072038 0.0027064 -0.0494481 0.9972936 0.0494481 0.9972936 0.0494481 0.0027064 -0.0494481
31755220 0.0025998 -0.0483384 0.9974002 0.0483384 0.9974002 0.0483384 0.0025998 -0.0483384
32453422 0.0024980 -0.0472512 0.9975020 0.0472512 0.9975020 0.0472512 0.0024980 -0.0472512
33166976 0.0024006 -0.0461861 0.9975994 0.0461861 0.9975994 0.0461861 0.0024006 -0.0461861
33896219 0.0023075 -0.0451425 0.9976925 0.0451425 0.9976925 0.0451425 0.0023075 -0.0451425
34641496 0.0022185 -0.0441200 0.9977815 0.0441200 0.9977815 0.0441200 0.0022185 -0.0441200
35403159 0.0021335 -0.0431181 0.9978665 0.0431181 0.9978665 0.0431181 0.0021335 -0.0431181
36181569 0.0020522 -0.0421364 0.9979478 0.0421364 0.9979478 0.0421364 0.0020522 -0.0421364
36977093 0.0019746 -0.0411744 0.9980254 0.0411744 0.9980254 0.0411744 0.0019746 -0.0411744
37790109 0.0019004 -0.0402317 0.9980996 0.0402317 0.9980996 0.0402317 0.0019004 -0.0402317
38621001 0.0018296 -0.0393079 0.9981704 0.0393079 0.9981704 0.0393079 0.0018296 -0.0393079
39470161 0.0017619 -0.0384025 0.9982381 0.0384025 0.9982381 0.0384025 0.0017619 -0.0384025
40337993 0.0016973 -0.0375152 0.9983027 0.0375152 0.9983027 0.0375152 0.0016973 -0.0375152
41224905 0.0016356 -0.0366455 0.9983644 0.0366455 0.9983644 0.0366455 0.0016356 -0.0366455
42131317 0.0015766 -0.0357930 0.9984234 0.0357930 0.9984234 0.0357930 0.0015766 -0.0357930
43057659 0.0015204 -0.0349574 0.9984796 0.0349574 0.9984796 0.0349574 0.0015204 -0.0349574
44004369 0.0014667 -0.0341383 0.9985333 0.0341383 0.9985333 0.0341383 0.0014667 -0.0341383
44971893 0.0014155 -0.0333353 0.9985845 0.0333353 0.9985845 0.0333353 0.0014155 -0.0333353
45960691 0.0013667 -0.0325480 0.9986333 0.0325480 0.9986333 0.0325480 0.0013667 -0.0325480
46971230 0.0013200 -0.0317761 0.9986800 0.0317761 0.9986800 0.0317761 0.0013200 -0.0317761
48003987 0.0012756 -0.0310192 0.9987244 0.0310192 0.9987244 0.0310192 0.0012756 -0.0310192
49059451 0.0012332 -0.0302769 0.9987668 0.0302769 0.9987668 0.0302769 0.0012332 -0.0302769
50138122 0.0011928 -0.0295490 0.9988072 0.0295490 0.9988072 0.0295490 0.0011928 -0.0295490
51240510 0.0011543 -0.0288351 0.9988457 0.0288351 0.9988457 0.0288351 0.0011543 -0.0288351
52367136 0.0011176 -0.0281348 0.9988824 0.0281348 0.9988824 0.0281348 0.0011176 -0.0281348
53518533 0.0010826 -0.0274478 0.9989174 0.0274478 0.9989174 0.0274478 0.0010826 -0.0274478
54695245 0.0010493 -0.0267739 0.9989507 0.0267739 0.9989507 0.0267739 0.0010493 -0.0267739
55897831 0.0010176 -0.0261126 0.9989824 0.0261126 0.9989824 0.0261126 0.0010176 -0.0261126
57126857 0.0009875 -0.0254638 0.9990125 0.0254638 0.9990125 0.0254638 0.0009875 -0.0254638
58382906 0.0009587 -0.0248270 0.9990413 0.0248270 0.9990413 0.0248270 0.0009587 -0.0248270
59666572 0.0009314 -0.0242020 0.9990686 0.0242020 0.9990686 0.0242020 0.0009314 -0.0242020
60978462 0.0009055 -0.0235886 0.9990945 0.0235886 0.9990945 0.0235886 0.0009055 -0.0235886
62319196 0.0008808 -0.0229863 0.9991192 0.0229863 0.9991192 0.0229863 0.0008808 -0.0229863
63689409 0.0008574 -0.0223950 0.9991426 0.0223950 0.9991426 0.0223950 0.0008574 -0.0223950
65089750 0.0008351 -0.0218143 0.9991649 0.0218143 0.9991649 0.0218143 0.0008351 -0.0218143
66520879 0.0008140 -0.0212440 0.9991860 0.0212440 0.9991860 0.0212440 0.0008140 -0.0212440
67983474 0.0007940 -0.0206839 0.9992060 0.0206839 0.9992060 0.0206839 0.0007940 -0.0206839
69478228 0.0007750 -0.0201336 0.9992250 0.0201336 0.9992250 0.0201336 0.0007750 -0.0201336
71005847 0.0007570 -0.0195929 0.9992430 0.0195929 0.9992430 0.0195929 0.0007570 -0.0195929
72567054 0.0007400 -0.0190615 0.9992600 0.0190615 0.9992600 0.0190615 0.0007400 -0.0190615
74162587 0.0007239 -0.0185392 0.9992761 0.0185392 0.9992761 0.0185392 0.0007239 -0.0185392
75793201 0.0007087 -0.0180258 0.9992913 0.0180258 0.9992913 0.0180258 0.0007087 -0.0180258
77459667 0.0006943 -0.0175210 0.9993057 0.0175210 0.9993057 0.0175210 0.0006943 -0.0175210
79162774 0.0006807 -0.0170245 0.9993193 0.0170245 0.9993193 0.0170245 0.0006807 -0.0170245
80903327 0.0006680 -0.0165362 0.9993320 0.0165362 0.9993320 0.0165362 0.0006680 -0.0165362
82682150 0.0006560 -0.0160559 0.9993440 0.0160559 0.9993440 0.0160559 0.0006560 -0.0160559
84500083 0.0006447 -0.0155831 0.9993553 0.0155831 0.9993553 0.0155831 0.0006447 -0.0155831
86357988 0.0006341 -0.0151179 0.9993659 0.0151179 0.9993659 0.0151179 0.0006341 -0.0151179
88256743 0.0006242 -0.0146599 0.9993758 0.0146599 0.9993758 0.0146599 0.0006242 -0.0146599
90197245 0.0006149 -0.0142089 0.9993851 0.0142089 0.9993851 0.0142089 0.0006149 -0.0142089
92180413 0.0006062 -0.0137648 0.9993938 0.0137648 0.9993938 0.0137648 0.0006062 -0.0137648
94207185 0.0005982 -0.0133272 0.9994018 0.0133272 0.9994018 0.0133272 0.0005982 -0.0133272
96278520 0.0005907 -0.0128960 0.9994093 0.0128960 0.9994093 0.0128960 0.0005907 -0.0128960
98395398 0.0005838 -0.0124711 0.9994162 0.0124711 0.9994162 0.0124711 0.0005838 -0.0124711
100558819 0.0005774 -0.0120521 0.9994226 0.0120521 0.9994226 0.0120521 0.0005774 -0.0120521
102769807 0.0005716 -0.0116389 0.9994284 0.0116389 0.9994284 0.0116389 0.0005716 -0.0116389
105029408 0.0005662 -0.0112314 0.9994338 0.0112314 0.9994338 0.0112314 0.0005662 -0.0112314
107338692 0.0005614 -0.0108292 0.9994386 0.0108292 0.9994386 0.0108292 0.0005614 -0.0108292
