!Murata Part Number: GRM21A5C2E272JWA1
!These Parameters are Measured in Series Mode Connection
!Data Generated on Mar 30, 2021
!       o--ll--o
!Port1            Port2
!       o------o
!Operation Temp=25[degC], DC Bias Voltage=0[V]
!Freq. Start=1000[kHz] Stop=1000[MHz] 401[Steps]
# Hz S RI R 50
!Freq.(Hz) S11(Real) S11(Imag) S21(Real) S21(Imag) S12(Real) S12(Imag) S22(Real) S22(Imag)
1000000 0.2768066 -0.4468356 0.7231934 0.4468356 0.7231934 0.4468356 0.2768066 -0.4468356
1017419 0.2699521 -0.4433555 0.7300479 0.4433555 0.7300479 0.4433555 0.2699521 -0.4433555
1035142 0.2632055 -0.4397991 0.7367945 0.4397991 0.7367945 0.4397991 0.2632055 -0.4397991
1053174 0.2565682 -0.4361702 0.7434318 0.4361702 0.7434318 0.4361702 0.2565682 -0.4361702
1071519 0.2500415 -0.4324727 0.7499585 0.4324727 0.7499585 0.4324727 0.2500415 -0.4324727
1090184 0.2436264 -0.4287105 0.7563736 0.4287105 0.7563736 0.4287105 0.2436264 -0.4287105
1109175 0.2373237 -0.4248876 0.7626763 0.4248876 0.7626763 0.4248876 0.2373237 -0.4248876
1128496 0.2311342 -0.4210077 0.7688658 0.4210077 0.7688658 0.4210077 0.2311342 -0.4210077
1148154 0.2250585 -0.4170747 0.7749415 0.4170747 0.7749415 0.4170747 0.2250585 -0.4170747
1168154 0.2190970 -0.4130924 0.7809030 0.4130924 0.7809030 0.4130924 0.2190970 -0.4130924
1188502 0.2132500 -0.4090645 0.7867500 0.4090645 0.7867500 0.4090645 0.2132500 -0.4090645
1209205 0.2075175 -0.4049947 0.7924825 0.4049947 0.7924825 0.4049947 0.2075175 -0.4049947
1230269 0.2018996 -0.4008867 0.7981004 0.4008867 0.7981004 0.4008867 0.2018996 -0.4008867
1251699 0.1963961 -0.3967440 0.8036039 0.3967440 0.8036039 0.3967440 0.1963961 -0.3967440
1273503 0.1910067 -0.3925700 0.8089933 0.3925700 0.8089933 0.3925700 0.1910067 -0.3925700
1295687 0.1857311 -0.3883683 0.8142689 0.3883683 0.8142689 0.3883683 0.1857311 -0.3883683
1318257 0.1805686 -0.3841421 0.8194314 0.3841421 0.8194314 0.3841421 0.1805686 -0.3841421
1341220 0.1755188 -0.3798948 0.8244812 0.3798948 0.8244812 0.3798948 0.1755188 -0.3798948
1364583 0.1705809 -0.3756294 0.8294191 0.3756294 0.8294191 0.3756294 0.1705809 -0.3756294
1388353 0.1657540 -0.3713492 0.8342460 0.3713492 0.8342460 0.3713492 0.1657540 -0.3713492
1412538 0.1610371 -0.3670571 0.8389629 0.3670571 0.8389629 0.3670571 0.1610371 -0.3670571
1437143 0.1564294 -0.3627561 0.8435706 0.3627561 0.8435706 0.3627561 0.1564294 -0.3627561
1462177 0.1519298 -0.3584489 0.8480702 0.3584489 0.8480702 0.3584489 0.1519298 -0.3584489
1487647 0.1475369 -0.3541383 0.8524631 0.3541383 0.8524631 0.3541383 0.1475369 -0.3541383
1513561 0.1432497 -0.3498270 0.8567503 0.3498270 0.8567503 0.3498270 0.1432497 -0.3498270
1539927 0.1390668 -0.3455175 0.8609332 0.3455175 0.8609332 0.3455175 0.1390668 -0.3455175
1566751 0.1349869 -0.3412123 0.8650131 0.3412123 0.8650131 0.3412123 0.1349869 -0.3412123
1594043 0.1310085 -0.3369136 0.8689915 0.3369136 0.8689915 0.3369136 0.1310085 -0.3369136
1621810 0.1271303 -0.3326239 0.8728697 0.3326239 0.8728697 0.3326239 0.1271303 -0.3326239
1650061 0.1233506 -0.3283452 0.8766494 0.3283452 0.8766494 0.3283452 0.1233506 -0.3283452
1678804 0.1196679 -0.3240797 0.8803321 0.3240797 0.8803321 0.3240797 0.1196679 -0.3240797
1708048 0.1160807 -0.3198293 0.8839193 0.3198293 0.8839193 0.3198293 0.1160807 -0.3198293
1737801 0.1125874 -0.3155959 0.8874126 0.3155959 0.8874126 0.3155959 0.1125874 -0.3155959
1768072 0.1091863 -0.3113813 0.8908137 0.3113813 0.8908137 0.3113813 0.1091863 -0.3113813
1798871 0.1058758 -0.3071873 0.8941242 0.3071873 0.8941242 0.3071873 0.1058758 -0.3071873
1830206 0.1026542 -0.3030155 0.8973458 0.3030155 0.8973458 0.3030155 0.1026542 -0.3030155
1862087 0.0995198 -0.2988674 0.9004802 0.2988674 0.9004802 0.2988674 0.0995198 -0.2988674
1894524 0.0964709 -0.2947445 0.9035291 0.2947445 0.9035291 0.2947445 0.0964709 -0.2947445
1927525 0.0935058 -0.2906481 0.9064942 0.2906481 0.9064942 0.2906481 0.0935058 -0.2906481
1961101 0.0906228 -0.2865796 0.9093772 0.2865796 0.9093772 0.2865796 0.0906228 -0.2865796
1995262 0.0878202 -0.2825402 0.9121798 0.2825402 0.9121798 0.2825402 0.0878202 -0.2825402
2030019 0.0850962 -0.2785310 0.9149038 0.2785310 0.9149038 0.2785310 0.0850962 -0.2785310
2065380 0.0824492 -0.2745531 0.9175508 0.2745531 0.9175508 0.2745531 0.0824492 -0.2745531
2101358 0.0798774 -0.2706076 0.9201226 0.2706076 0.9201226 0.2706076 0.0798774 -0.2706076
2137962 0.0773792 -0.2666952 0.9226208 0.2666952 0.9226208 0.2666952 0.0773792 -0.2666952
2175204 0.0749529 -0.2628169 0.9250471 0.2628169 0.9250471 0.2628169 0.0749529 -0.2628169
2213095 0.0725968 -0.2589735 0.9274032 0.2589735 0.9274032 0.2589735 0.0725968 -0.2589735
2251645 0.0703092 -0.2551658 0.9296908 0.2551658 0.9296908 0.2551658 0.0703092 -0.2551658
2290868 0.0680885 -0.2513943 0.9319115 0.2513943 0.9319115 0.2513943 0.0680885 -0.2513943
2330773 0.0659331 -0.2476597 0.9340669 0.2476597 0.9340669 0.2476597 0.0659331 -0.2476597
2371374 0.0638414 -0.2439626 0.9361586 0.2439626 0.9361586 0.2439626 0.0638414 -0.2439626
2412682 0.0618118 -0.2403034 0.9381882 0.2403034 0.9381882 0.2403034 0.0618118 -0.2403034
2454709 0.0598426 -0.2366827 0.9401574 0.2366827 0.9401574 0.2366827 0.0598426 -0.2366827
2497468 0.0579325 -0.2331007 0.9420675 0.2331007 0.9420675 0.2331007 0.0579325 -0.2331007
2540973 0.0560798 -0.2295580 0.9439202 0.2295580 0.9439202 0.2295580 0.0560798 -0.2295580
2585235 0.0542830 -0.2260547 0.9457170 0.2260547 0.9457170 0.2260547 0.0542830 -0.2260547
2630268 0.0525407 -0.2225911 0.9474593 0.2225911 0.9474593 0.2225911 0.0525407 -0.2225911
2676086 0.0508515 -0.2191674 0.9491485 0.2191674 0.9491485 0.2191674 0.0508515 -0.2191674
2722701 0.0492139 -0.2157839 0.9507861 0.2157839 0.9507861 0.2157839 0.0492139 -0.2157839
2770129 0.0476264 -0.2124407 0.9523736 0.2124407 0.9523736 0.2124407 0.0476264 -0.2124407
2818383 0.0460879 -0.2091378 0.9539121 0.2091378 0.9539121 0.2091378 0.0460879 -0.2091378
2867477 0.0445968 -0.2058754 0.9554032 0.2058754 0.9554032 0.2058754 0.0445968 -0.2058754
2917427 0.0431519 -0.2026534 0.9568481 0.2026534 0.9568481 0.2026534 0.0431519 -0.2026534
2968247 0.0417519 -0.1994720 0.9582481 0.1994720 0.9582481 0.1994720 0.0417519 -0.1994720
3019952 0.0403955 -0.1963309 0.9596045 0.1963309 0.9596045 0.1963309 0.0403955 -0.1963309
3072557 0.0390815 -0.1932303 0.9609185 0.1932303 0.9609185 0.1932303 0.0390815 -0.1932303
3126079 0.0378087 -0.1901701 0.9621913 0.1901701 0.9621913 0.1901701 0.0378087 -0.1901701
3180534 0.0365759 -0.1871500 0.9634241 0.1871500 0.9634241 0.1871500 0.0365759 -0.1871500
3235937 0.0353819 -0.1841700 0.9646181 0.1841700 0.9646181 0.1841700 0.0353819 -0.1841700
3292305 0.0342257 -0.1812300 0.9657743 0.1812300 0.9657743 0.1812300 0.0342257 -0.1812300
3349654 0.0331061 -0.1783297 0.9668939 0.1783297 0.9668939 0.1783297 0.0331061 -0.1783297
3408003 0.0320220 -0.1754691 0.9679780 0.1754691 0.9679780 0.1754691 0.0320220 -0.1754691
3467369 0.0309724 -0.1726478 0.9690276 0.1726478 0.9690276 0.1726478 0.0309724 -0.1726478
3527768 0.0299563 -0.1698656 0.9700437 0.1698656 0.9700437 0.1698656 0.0299563 -0.1698656
3589219 0.0289726 -0.1671223 0.9710274 0.1671223 0.9710274 0.1671223 0.0289726 -0.1671223
3651741 0.0280205 -0.1644177 0.9719795 0.1644177 0.9719795 0.1644177 0.0280205 -0.1644177
3715352 0.0270988 -0.1617514 0.9729012 0.1617514 0.9729012 0.1617514 0.0270988 -0.1617514
3780071 0.0262069 -0.1591232 0.9737931 0.1591232 0.9737931 0.1591232 0.0262069 -0.1591232
3845918 0.0253436 -0.1565329 0.9746564 0.1565329 0.9746564 0.1565329 0.0253436 -0.1565329
3912911 0.0245082 -0.1539799 0.9754918 0.1539799 0.9754918 0.1539799 0.0245082 -0.1539799
3981072 0.0236998 -0.1514642 0.9763002 0.1514642 0.9763002 0.1514642 0.0236998 -0.1514642
4050419 0.0229176 -0.1489852 0.9770824 0.1489852 0.9770824 0.1489852 0.0229176 -0.1489852
4120975 0.0221607 -0.1465428 0.9778393 0.1465428 0.9778393 0.1465428 0.0221607 -0.1465428
4192760 0.0214284 -0.1441365 0.9785716 0.1441365 0.9785716 0.1441365 0.0214284 -0.1441365
4265795 0.0207199 -0.1417660 0.9792801 0.1417660 0.9792801 0.1417660 0.0207199 -0.1417660
4340103 0.0200345 -0.1394310 0.9799655 0.1394310 0.9799655 0.1394310 0.0200345 -0.1394310
4415704 0.0193715 -0.1371310 0.9806285 0.1371310 0.9806285 0.1371310 0.0193715 -0.1371310
4492623 0.0187301 -0.1348657 0.9812699 0.1348657 0.9812699 0.1348657 0.0187301 -0.1348657
4570882 0.0181097 -0.1326347 0.9818903 0.1326347 0.9818903 0.1326347 0.0181097 -0.1326347
4650504 0.0175097 -0.1304377 0.9824903 0.1304377 0.9824903 0.1304377 0.0175097 -0.1304377
4731513 0.0169293 -0.1282743 0.9830707 0.1282743 0.9830707 0.1282743 0.0169293 -0.1282743
4813933 0.0163679 -0.1261440 0.9836321 0.1261440 0.9836321 0.1261440 0.0163679 -0.1261440
4897788 0.0158250 -0.1240465 0.9841750 0.1240465 0.9841750 0.1240465 0.0158250 -0.1240465
4983105 0.0153000 -0.1219815 0.9847000 0.1219815 0.9847000 0.1219815 0.0153000 -0.1219815
5069907 0.0147922 -0.1199484 0.9852078 0.1199484 0.9852078 0.1199484 0.0147922 -0.1199484
5158222 0.0143013 -0.1179470 0.9856987 0.1179470 0.9856987 0.1179470 0.0143013 -0.1179470
5248075 0.0138265 -0.1159768 0.9861735 0.1159768 0.9861735 0.1159768 0.0138265 -0.1159768
5339493 0.0133674 -0.1140374 0.9866326 0.1140374 0.9866326 0.1140374 0.0133674 -0.1140374
5432503 0.0129234 -0.1121285 0.9870766 0.1121285 0.9870766 0.1121285 0.0129234 -0.1121285
5527134 0.0124942 -0.1102496 0.9875058 0.1102496 0.9875058 0.1102496 0.0124942 -0.1102496
5623413 0.0120792 -0.1084004 0.9879208 0.1084004 0.9879208 0.1084004 0.0120792 -0.1084004
5721370 0.0116780 -0.1065804 0.9883220 0.1065804 0.9883220 0.1065804 0.0116780 -0.1065804
5821032 0.0112901 -0.1047893 0.9887099 0.1047893 0.9887099 0.1047893 0.0112901 -0.1047893
5922431 0.0109150 -0.1030267 0.9890850 0.1030267 0.9890850 0.1030267 0.0109150 -0.1030267
6025596 0.0105525 -0.1012922 0.9894475 0.1012922 0.9894475 0.1012922 0.0105525 -0.1012922
6130558 0.0102020 -0.0995854 0.9897980 0.0995854 0.9897980 0.0995854 0.0102020 -0.0995854
6237348 0.0098631 -0.0979059 0.9901369 0.0979059 0.9901369 0.0979059 0.0098631 -0.0979059
6345999 0.0095356 -0.0962534 0.9904644 0.0962534 0.9904644 0.0962534 0.0095356 -0.0962534
6456542 0.0092189 -0.0946274 0.9907811 0.0946274 0.9907811 0.0946274 0.0092189 -0.0946274
6569011 0.0089129 -0.0930275 0.9910871 0.0930275 0.9910871 0.0930275 0.0089129 -0.0930275
6683439 0.0086170 -0.0914535 0.9913830 0.0914535 0.9913830 0.0914535 0.0086170 -0.0914535
6799860 0.0083310 -0.0899049 0.9916690 0.0899049 0.9916690 0.0899049 0.0083310 -0.0899049
6918310 0.0080546 -0.0883814 0.9919454 0.0883814 0.9919454 0.0883814 0.0080546 -0.0883814
7038822 0.0077875 -0.0868826 0.9922125 0.0868826 0.9922125 0.0868826 0.0077875 -0.0868826
7161434 0.0075292 -0.0854080 0.9924708 0.0854080 0.9924708 0.0854080 0.0075292 -0.0854080
7286182 0.0072796 -0.0839575 0.9927204 0.0839575 0.9927204 0.0839575 0.0072796 -0.0839575
7413102 0.0070384 -0.0825306 0.9929616 0.0825306 0.9929616 0.0825306 0.0070384 -0.0825306
7542234 0.0068053 -0.0811269 0.9931947 0.0811269 0.9931947 0.0811269 0.0068053 -0.0811269
7673615 0.0065800 -0.0797461 0.9934200 0.0797461 0.9934200 0.0797461 0.0065800 -0.0797461
7807284 0.0063622 -0.0783879 0.9936378 0.0783879 0.9936378 0.0783879 0.0063622 -0.0783879
7943282 0.0061518 -0.0770519 0.9938482 0.0770519 0.9938482 0.0770519 0.0061518 -0.0770519
8081649 0.0059484 -0.0757377 0.9940516 0.0757377 0.9940516 0.0757377 0.0059484 -0.0757377
8222426 0.0057519 -0.0744451 0.9942481 0.0744451 0.9942481 0.0744451 0.0057519 -0.0744451
8365656 0.0055619 -0.0731738 0.9944381 0.0731738 0.9944381 0.0731738 0.0055619 -0.0731738
8511380 0.0053784 -0.0719232 0.9946216 0.0719232 0.9946216 0.0719232 0.0053784 -0.0719232
8659643 0.0052010 -0.0706933 0.9947990 0.0706933 0.9947990 0.0706933 0.0052010 -0.0706933
8810489 0.0050296 -0.0694835 0.9949704 0.0694835 0.9949704 0.0694835 0.0050296 -0.0694835
8963962 0.0048640 -0.0682937 0.9951360 0.0682937 0.9951360 0.0682937 0.0048640 -0.0682937
9120108 0.0047040 -0.0671234 0.9952960 0.0671234 0.9952960 0.0671234 0.0047040 -0.0671234
9278975 0.0045493 -0.0659725 0.9954507 0.0659725 0.9954507 0.0659725 0.0045493 -0.0659725
9440609 0.0043999 -0.0648405 0.9956001 0.0648405 0.9956001 0.0648405 0.0043999 -0.0648405
9605058 0.0042555 -0.0637272 0.9957445 0.0637272 0.9957445 0.0637272 0.0042555 -0.0637272
9772372 0.0041160 -0.0626323 0.9958840 0.0626323 0.9958840 0.0626323 0.0041160 -0.0626323
9942601 0.0039812 -0.0615555 0.9960188 0.0615555 0.9960188 0.0615555 0.0039812 -0.0615555
10115795 0.0038510 -0.0604964 0.9961490 0.0604964 0.9961490 0.0604964 0.0038510 -0.0604964
10292005 0.0037251 -0.0594549 0.9962749 0.0594549 0.9962749 0.0594549 0.0037251 -0.0594549
10471285 0.0036035 -0.0584305 0.9963965 0.0584305 0.9963965 0.0584305 0.0036035 -0.0584305
10653689 0.0034861 -0.0574232 0.9965139 0.0574232 0.9965139 0.0574232 0.0034861 -0.0574232
10839269 0.0033726 -0.0564325 0.9966274 0.0564325 0.9966274 0.0564325 0.0033726 -0.0564325
11028082 0.0032629 -0.0554581 0.9967371 0.0554581 0.9967371 0.0554581 0.0032629 -0.0554581
11220185 0.0031570 -0.0544999 0.9968430 0.0544999 0.9968430 0.0544999 0.0031570 -0.0544999
11415633 0.0030547 -0.0535576 0.9969453 0.0535576 0.9969453 0.0535576 0.0030547 -0.0535576
11614486 0.0029558 -0.0526309 0.9970442 0.0526309 0.9970442 0.0526309 0.0029558 -0.0526309
11816803 0.0028603 -0.0517195 0.9971397 0.0517195 0.9971397 0.0517195 0.0028603 -0.0517195
12022644 0.0027680 -0.0508232 0.9972320 0.0508232 0.9972320 0.0508232 0.0027680 -0.0508232
12232071 0.0026789 -0.0499417 0.9973211 0.0499417 0.9973211 0.0499417 0.0026789 -0.0499417
12445146 0.0025928 -0.0490748 0.9974072 0.0490748 0.9974072 0.0490748 0.0025928 -0.0490748
12661933 0.0025096 -0.0482223 0.9974904 0.0482223 0.9974904 0.0482223 0.0025096 -0.0482223
12882496 0.0024293 -0.0473839 0.9975707 0.0473839 0.9975707 0.0473839 0.0024293 -0.0473839
13106900 0.0023517 -0.0465593 0.9976483 0.0465593 0.9976483 0.0465593 0.0023517 -0.0465593
13335214 0.0022768 -0.0457484 0.9977232 0.0457484 0.9977232 0.0457484 0.0022768 -0.0457484
13567505 0.0022044 -0.0449509 0.9977956 0.0449509 0.9977956 0.0449509 0.0022044 -0.0449509
13803843 0.0021344 -0.0441666 0.9978656 0.0441666 0.9978656 0.0441666 0.0021344 -0.0441666
14044297 0.0020669 -0.0433953 0.9979331 0.0433953 0.9979331 0.0433953 0.0020669 -0.0433953
14288940 0.0020017 -0.0426367 0.9979983 0.0426367 0.9979983 0.0426367 0.0020017 -0.0426367
14537844 0.0019387 -0.0418906 0.9980613 0.0418906 0.9980613 0.0418906 0.0019387 -0.0418906
14791084 0.0018778 -0.0411569 0.9981222 0.0411569 0.9981222 0.0411569 0.0018778 -0.0411569
15048735 0.0018191 -0.0404353 0.9981809 0.0404353 0.9981809 0.0404353 0.0018191 -0.0404353
15310875 0.0017624 -0.0397255 0.9982376 0.0397255 0.9982376 0.0397255 0.0017624 -0.0397255
15577580 0.0017076 -0.0390275 0.9982924 0.0390275 0.9982924 0.0390275 0.0017076 -0.0390275
15848932 0.0016547 -0.0383409 0.9983453 0.0383409 0.9983453 0.0383409 0.0016547 -0.0383409
16125010 0.0016036 -0.0376657 0.9983964 0.0376657 0.9983964 0.0376657 0.0016036 -0.0376657
16405898 0.0015543 -0.0370016 0.9984457 0.0370016 0.9984457 0.0370016 0.0015543 -0.0370016
16691678 0.0015067 -0.0363483 0.9984933 0.0363483 0.9984933 0.0363483 0.0015067 -0.0363483
16982437 0.0014607 -0.0357058 0.9985393 0.0357058 0.9985393 0.0357058 0.0014607 -0.0357058
17278260 0.0014163 -0.0350739 0.9985837 0.0350739 0.9985837 0.0350739 0.0014163 -0.0350739
17579236 0.0013735 -0.0344523 0.9986265 0.0344523 0.9986265 0.0344523 0.0013735 -0.0344523
17885455 0.0013321 -0.0338409 0.9986679 0.0338409 0.9986679 0.0338409 0.0013321 -0.0338409
18197009 0.0012922 -0.0332395 0.9987078 0.0332395 0.9987078 0.0332395 0.0012922 -0.0332395
18513989 0.0012537 -0.0326479 0.9987463 0.0326479 0.9987463 0.0326479 0.0012537 -0.0326479
18836491 0.0012165 -0.0320660 0.9987835 0.0320660 0.9987835 0.0320660 0.0012165 -0.0320660
19164611 0.0011806 -0.0314936 0.9988194 0.0314936 0.9988194 0.0314936 0.0011806 -0.0314936
19498446 0.0011460 -0.0309305 0.9988540 0.0309305 0.9988540 0.0309305 0.0011460 -0.0309305
19838097 0.0011126 -0.0303766 0.9988874 0.0303766 0.9988874 0.0303766 0.0011126 -0.0303766
20183664 0.0010804 -0.0298316 0.9989196 0.0298316 0.9989196 0.0298316 0.0010804 -0.0298316
20535250 0.0010493 -0.0292956 0.9989507 0.0292956 0.9989507 0.0292956 0.0010493 -0.0292956
20892961 0.0010193 -0.0287682 0.9989807 0.0287682 0.9989807 0.0287682 0.0010193 -0.0287682
21256903 0.0009904 -0.0282493 0.9990096 0.0282493 0.9990096 0.0282493 0.0009904 -0.0282493
21627185 0.0009625 -0.0277388 0.9990375 0.0277388 0.9990375 0.0277388 0.0009625 -0.0277388
22003917 0.0009355 -0.0272365 0.9990645 0.0272365 0.9990645 0.0272365 0.0009355 -0.0272365
22387211 0.0009096 -0.0267424 0.9990904 0.0267424 0.9990904 0.0267424 0.0009096 -0.0267424
22777182 0.0008846 -0.0262562 0.9991154 0.0262562 0.9991154 0.0262562 0.0008846 -0.0262562
23173946 0.0008605 -0.0257777 0.9991395 0.0257777 0.9991395 0.0257777 0.0008605 -0.0257777
23577622 0.0008372 -0.0253070 0.9991628 0.0253070 0.9991628 0.0253070 0.0008372 -0.0253070
23988329 0.0008148 -0.0248437 0.9991852 0.0248437 0.9991852 0.0248437 0.0008148 -0.0248437
24406191 0.0007932 -0.0243879 0.9992068 0.0243879 0.9992068 0.0243879 0.0007932 -0.0243879
24831331 0.0007724 -0.0239393 0.9992276 0.0239393 0.9992276 0.0239393 0.0007724 -0.0239393
25263877 0.0007524 -0.0234978 0.9992476 0.0234978 0.9992476 0.0234978 0.0007524 -0.0234978
25703958 0.0007331 -0.0230634 0.9992669 0.0230634 0.9992669 0.0230634 0.0007331 -0.0230634
26151704 0.0007145 -0.0226358 0.9992855 0.0226358 0.9992855 0.0226358 0.0007145 -0.0226358
26607251 0.0006966 -0.0222149 0.9993034 0.0222149 0.9993034 0.0222149 0.0006966 -0.0222149
27070732 0.0006794 -0.0218006 0.9993206 0.0218006 0.9993206 0.0218006 0.0006794 -0.0218006
27542287 0.0006629 -0.0213929 0.9993371 0.0213929 0.9993371 0.0213929 0.0006629 -0.0213929
28022056 0.0006469 -0.0209915 0.9993531 0.0209915 0.9993531 0.0209915 0.0006469 -0.0209915
28510183 0.0006316 -0.0205964 0.9993684 0.0205964 0.9993684 0.0205964 0.0006316 -0.0205964
29006812 0.0006168 -0.0202075 0.9993832 0.0202075 0.9993832 0.0202075 0.0006168 -0.0202075
29512092 0.0006026 -0.0198246 0.9993974 0.0198246 0.9993974 0.0198246 0.0006026 -0.0198246
30026174 0.0005890 -0.0194476 0.9994110 0.0194476 0.9994110 0.0194476 0.0005890 -0.0194476
30549211 0.0005759 -0.0190764 0.9994241 0.0190764 0.9994241 0.0190764 0.0005759 -0.0190764
31081359 0.0005633 -0.0187109 0.9994367 0.0187109 0.9994367 0.0187109 0.0005633 -0.0187109
31622777 0.0005512 -0.0183510 0.9994488 0.0183510 0.9994488 0.0183510 0.0005512 -0.0183510
32173625 0.0005396 -0.0179966 0.9994604 0.0179966 0.9994604 0.0179966 0.0005396 -0.0179966
32734069 0.0005285 -0.0176475 0.9994715 0.0176475 0.9994715 0.0176475 0.0005285 -0.0176475
33304276 0.0005178 -0.0173038 0.9994822 0.0173038 0.9994822 0.0173038 0.0005178 -0.0173038
33884416 0.0005076 -0.0169652 0.9994924 0.0169652 0.9994924 0.0169652 0.0005076 -0.0169652
34474661 0.0004978 -0.0166317 0.9995022 0.0166317 0.9995022 0.0166317 0.0004978 -0.0166317
35075187 0.0004884 -0.0163032 0.9995116 0.0163032 0.9995116 0.0163032 0.0004884 -0.0163032
35686175 0.0004794 -0.0159796 0.9995206 0.0159796 0.9995206 0.0159796 0.0004794 -0.0159796
36307805 0.0004707 -0.0156608 0.9995293 0.0156608 0.9995293 0.0156608 0.0004707 -0.0156608
36940264 0.0004625 -0.0153466 0.9995375 0.0153466 0.9995375 0.0153466 0.0004625 -0.0153466
37583740 0.0004546 -0.0150371 0.9995454 0.0150371 0.9995454 0.0150371 0.0004546 -0.0150371
38238425 0.0004471 -0.0147321 0.9995529 0.0147321 0.9995529 0.0147321 0.0004471 -0.0147321
38904514 0.0004399 -0.0144315 0.9995601 0.0144315 0.9995601 0.0144315 0.0004399 -0.0144315
39582206 0.0004330 -0.0141353 0.9995670 0.0141353 0.9995670 0.0141353 0.0004330 -0.0141353
40271703 0.0004265 -0.0138433 0.9995735 0.0138433 0.9995735 0.0138433 0.0004265 -0.0138433
40973211 0.0004202 -0.0135554 0.9995798 0.0135554 0.9995798 0.0135554 0.0004202 -0.0135554
