!Murata Part Number: GRM21A5C2J180JWA1
!These Parameters are Measured in Series Mode Connection
!Data Generated on Mar 30, 2021
!       o--ll--o
!Port1            Port2
!       o------o
!Operation Temp=25[degC], DC Bias Voltage=0[V]
!Freq. Start=100[MHz] Stop=3[GHz] 401[Steps]
# Hz S RI R 50
!Freq.(Hz) S11(Real) S11(Imag) S21(Real) S21(Imag) S12(Real) S12(Imag) S22(Real) S22(Imag)
100000000 0.4369632 -0.4946336 0.5630368 0.4946336 0.5630368 0.4946336 0.4369632 -0.4946336
107250000 0.4027019 -0.4889638 0.5972981 0.4889638 0.5972981 0.4889638 0.4027019 -0.4889638
114500000 0.3714889 -0.4816235 0.6285111 0.4816235 0.6285111 0.4816235 0.3714889 -0.4816235
121750000 0.3431098 -0.4730669 0.6568902 0.4730669 0.6568902 0.4730669 0.3431098 -0.4730669
129000000 0.3173355 -0.4636565 0.6826645 0.4636565 0.6826645 0.4636565 0.3173355 -0.4636565
136250000 0.2939356 -0.4536778 0.7060644 0.4536778 0.7060644 0.4536778 0.2939356 -0.4536778
143500000 0.2726881 -0.4433542 0.7273119 0.4433542 0.7273119 0.4433542 0.2726881 -0.4433542
150750000 0.2533836 -0.4328582 0.7466164 0.4328582 0.7466164 0.4328582 0.2533836 -0.4328582
158000000 0.2358287 -0.4223219 0.7641713 0.4223219 0.7641713 0.4223219 0.2358287 -0.4223219
165250000 0.2198466 -0.4118452 0.7801534 0.4118452 0.7801534 0.4118452 0.2198466 -0.4118452
172500000 0.2052773 -0.4015026 0.7947227 0.4015026 0.7947227 0.4015026 0.2052773 -0.4015026
179750000 0.1919768 -0.3913490 0.8080232 0.3913490 0.8080232 0.3913490 0.1919768 -0.3913490
187000000 0.1798160 -0.3814232 0.8201840 0.3814232 0.8201840 0.3814232 0.1798160 -0.3814232
194250000 0.1686797 -0.3717524 0.8313203 0.3717524 0.8313203 0.3717524 0.1686797 -0.3717524
201500000 0.1584649 -0.3623541 0.8415351 0.3623541 0.8415351 0.3623541 0.1584649 -0.3623541
208750000 0.1490802 -0.3532389 0.8509198 0.3532389 0.8509198 0.3532389 0.1490802 -0.3532389
216000000 0.1404440 -0.3444115 0.8595560 0.3444115 0.8595560 0.3444115 0.1404440 -0.3444115
223250000 0.1324836 -0.3358727 0.8675164 0.3358727 0.8675164 0.3358727 0.1324836 -0.3358727
230500000 0.1251344 -0.3276202 0.8748656 0.3276202 0.8748656 0.3276202 0.1251344 -0.3276202
237750000 0.1183388 -0.3196491 0.8816612 0.3196491 0.8816612 0.3196491 0.1183388 -0.3196491
245000000 0.1120452 -0.3119532 0.8879548 0.3119532 0.8879548 0.3119532 0.1120452 -0.3119532
252250000 0.1062078 -0.3045246 0.8937922 0.3045246 0.8937922 0.3045246 0.1062078 -0.3045246
259500000 0.1007855 -0.2973552 0.8992145 0.2973552 0.8992145 0.2973552 0.1007855 -0.2973552
266750000 0.0957414 -0.2904358 0.9042586 0.2904358 0.9042586 0.2904358 0.0957414 -0.2904358
274000000 0.0910426 -0.2837574 0.9089574 0.2837574 0.9089574 0.2837574 0.0910426 -0.2837574
281250000 0.0866595 -0.2773106 0.9133405 0.2773106 0.9133405 0.2773106 0.0866595 -0.2773106
288500000 0.0825655 -0.2710862 0.9174345 0.2710862 0.9174345 0.2710862 0.0825655 -0.2710862
295750000 0.0787364 -0.2650748 0.9212636 0.2650748 0.9212636 0.2650748 0.0787364 -0.2650748
303000000 0.0751508 -0.2592676 0.9248492 0.2592676 0.9248492 0.2592676 0.0751508 -0.2592676
310250000 0.0717891 -0.2536558 0.9282109 0.2536558 0.9282109 0.2536558 0.0717891 -0.2536558
317500000 0.0686336 -0.2482310 0.9313664 0.2482310 0.9313664 0.2482310 0.0686336 -0.2482310
324750000 0.0656682 -0.2429850 0.9343318 0.2429850 0.9343318 0.2429850 0.0656682 -0.2429850
332000000 0.0628784 -0.2379099 0.9371216 0.2379099 0.9371216 0.2379099 0.0628784 -0.2379099
339250000 0.0602511 -0.2329982 0.9397489 0.2329982 0.9397489 0.2329982 0.0602511 -0.2329982
346500000 0.0577742 -0.2282428 0.9422258 0.2282428 0.9422258 0.2282428 0.0577742 -0.2282428
353750000 0.0554368 -0.2236368 0.9445632 0.2236368 0.9445632 0.2236368 0.0554368 -0.2236368
361000000 0.0532288 -0.2191735 0.9467712 0.2191735 0.9467712 0.2191735 0.0532288 -0.2191735
368250000 0.0511411 -0.2148469 0.9488589 0.2148469 0.9488589 0.2148469 0.0511411 -0.2148469
375500000 0.0491653 -0.2106509 0.9508347 0.2106509 0.9508347 0.2106509 0.0491653 -0.2106509
382750000 0.0472939 -0.2065798 0.9527061 0.2065798 0.9527061 0.2065798 0.0472939 -0.2065798
390000000 0.0455198 -0.2026284 0.9544802 0.2026284 0.9544802 0.2026284 0.0455198 -0.2026284
397250000 0.0438365 -0.1987914 0.9561635 0.1987914 0.9561635 0.1987914 0.0438365 -0.1987914
404500000 0.0422380 -0.1950640 0.9577620 0.1950640 0.9577620 0.1950640 0.0422380 -0.1950640
411750000 0.0407190 -0.1914417 0.9592810 0.1914417 0.9592810 0.1914417 0.0407190 -0.1914417
419000000 0.0392744 -0.1879200 0.9607256 0.1879200 0.9607256 0.1879200 0.0392744 -0.1879200
426250000 0.0378995 -0.1844947 0.9621005 0.1844947 0.9621005 0.1844947 0.0378995 -0.1844947
433500000 0.0365900 -0.1811619 0.9634100 0.1811619 0.9634100 0.1811619 0.0365900 -0.1811619
440750000 0.0353420 -0.1779178 0.9646580 0.1779178 0.9646580 0.1779178 0.0353420 -0.1779178
448000000 0.0341518 -0.1747588 0.9658482 0.1747588 0.9658482 0.1747588 0.0341518 -0.1747588
455250000 0.0330159 -0.1716815 0.9669841 0.1716815 0.9669841 0.1716815 0.0330159 -0.1716815
462500000 0.0319312 -0.1686828 0.9680688 0.1686828 0.9680688 0.1686828 0.0319312 -0.1686828
469750000 0.0308948 -0.1657594 0.9691052 0.1657594 0.9691052 0.1657594 0.0308948 -0.1657594
477000000 0.0299039 -0.1629085 0.9700961 0.1629085 0.9700961 0.1629085 0.0299039 -0.1629085
484250000 0.0289560 -0.1601272 0.9710440 0.1601272 0.9710440 0.1601272 0.0289560 -0.1601272
491500000 0.0280486 -0.1574130 0.9719514 0.1574130 0.9719514 0.1574130 0.0280486 -0.1574130
498750000 0.0271797 -0.1547632 0.9728203 0.1547632 0.9728203 0.1547632 0.0271797 -0.1547632
506000000 0.0263471 -0.1521755 0.9736529 0.1521755 0.9736529 0.1521755 0.0263471 -0.1521755
513250000 0.0255488 -0.1496476 0.9744512 0.1496476 0.9744512 0.1496476 0.0255488 -0.1496476
520500000 0.0247832 -0.1471773 0.9752168 0.1471773 0.9752168 0.1471773 0.0247832 -0.1471773
527750000 0.0240485 -0.1447624 0.9759515 0.1447624 0.9759515 0.1447624 0.0240485 -0.1447624
535000000 0.0233431 -0.1424010 0.9766569 0.1424010 0.9766569 0.1424010 0.0233431 -0.1424010
542250000 0.0226656 -0.1400912 0.9773344 0.1400912 0.9773344 0.1400912 0.0226656 -0.1400912
549500000 0.0220145 -0.1378311 0.9779855 0.1378311 0.9779855 0.1378311 0.0220145 -0.1378311
556750000 0.0213886 -0.1356190 0.9786114 0.1356190 0.9786114 0.1356190 0.0213886 -0.1356190
564000000 0.0207866 -0.1334533 0.9792134 0.1334533 0.9792134 0.1334533 0.0207866 -0.1334533
571250000 0.0202074 -0.1313323 0.9797926 0.1313323 0.9797926 0.1313323 0.0202074 -0.1313323
578500000 0.0196500 -0.1292546 0.9803500 0.1292546 0.9803500 0.1292546 0.0196500 -0.1292546
585750000 0.0191132 -0.1272187 0.9808868 0.1272187 0.9808868 0.1272187 0.0191132 -0.1272187
593000000 0.0185961 -0.1252232 0.9814039 0.1252232 0.9814039 0.1252232 0.0185961 -0.1252232
600250000 0.0180979 -0.1232667 0.9819021 0.1232667 0.9819021 0.1232667 0.0180979 -0.1232667
607500000 0.0176176 -0.1213480 0.9823824 0.1213480 0.9823824 0.1213480 0.0176176 -0.1213480
614750000 0.0171545 -0.1194658 0.9828455 0.1194658 0.9828455 0.1194658 0.0171545 -0.1194658
622000000 0.0167078 -0.1176191 0.9832922 0.1176191 0.9832922 0.1176191 0.0167078 -0.1176191
629250000 0.0162768 -0.1158066 0.9837232 0.1158066 0.9837232 0.1158066 0.0162768 -0.1158066
636500000 0.0158609 -0.1140272 0.9841391 0.1140272 0.9841391 0.1140272 0.0158609 -0.1140272
643750000 0.0154592 -0.1122800 0.9845408 0.1122800 0.9845408 0.1122800 0.0154592 -0.1122800
651000000 0.0150714 -0.1105640 0.9849286 0.1105640 0.9849286 0.1105640 0.0150714 -0.1105640
658250000 0.0146967 -0.1088782 0.9853033 0.1088782 0.9853033 0.1088782 0.0146967 -0.1088782
665500000 0.0143347 -0.1072216 0.9856653 0.1072216 0.9856653 0.1072216 0.0143347 -0.1072216
672750000 0.0139848 -0.1055934 0.9860152 0.1055934 0.9860152 0.1055934 0.0139848 -0.1055934
680000000 0.0136465 -0.1039928 0.9863535 0.1039928 0.9863535 0.1039928 0.0136465 -0.1039928
687250000 0.0133193 -0.1024189 0.9866807 0.1024189 0.9866807 0.1024189 0.0133193 -0.1024189
694500000 0.0130029 -0.1008710 0.9869971 0.1008710 0.9869971 0.1008710 0.0130029 -0.1008710
701750000 0.0126968 -0.0993482 0.9873032 0.0993482 0.9873032 0.0993482 0.0126968 -0.0993482
709000000 0.0124006 -0.0978500 0.9875994 0.0978500 0.9875994 0.0978500 0.0124006 -0.0978500
716250000 0.0121139 -0.0963755 0.9878861 0.0963755 0.9878861 0.0963755 0.0121139 -0.0963755
723500000 0.0118364 -0.0949240 0.9881636 0.0949240 0.9881636 0.0949240 0.0118364 -0.0949240
730750000 0.0115677 -0.0934951 0.9884323 0.0934951 0.9884323 0.0934951 0.0115677 -0.0934951
738000000 0.0113074 -0.0920879 0.9886926 0.0920879 0.9886926 0.0920879 0.0113074 -0.0920879
745250000 0.0110554 -0.0907020 0.9889446 0.0907020 0.9889446 0.0907020 0.0110554 -0.0907020
752500000 0.0108112 -0.0893367 0.9891888 0.0893367 0.9891888 0.0893367 0.0108112 -0.0893367
759750000 0.0105746 -0.0879915 0.9894254 0.0879915 0.9894254 0.0879915 0.0105746 -0.0879915
767000000 0.0103453 -0.0866658 0.9896547 0.0866658 0.9896547 0.0866658 0.0103453 -0.0866658
774250000 0.0101230 -0.0853592 0.9898770 0.0853592 0.9898770 0.0853592 0.0101230 -0.0853592
781500000 0.0099076 -0.0840710 0.9900924 0.0840710 0.9900924 0.0840710 0.0099076 -0.0840710
788750000 0.0096988 -0.0828009 0.9903012 0.0828009 0.9903012 0.0828009 0.0096988 -0.0828009
796000000 0.0094963 -0.0815483 0.9905037 0.0815483 0.9905037 0.0815483 0.0094963 -0.0815483
803250000 0.0092999 -0.0803128 0.9907001 0.0803128 0.9907001 0.0803128 0.0092999 -0.0803128
810500000 0.0091094 -0.0790940 0.9908906 0.0790940 0.9908906 0.0790940 0.0091094 -0.0790940
817750000 0.0089247 -0.0778914 0.9910753 0.0778914 0.9910753 0.0778914 0.0089247 -0.0778914
825000000 0.0087455 -0.0767046 0.9912545 0.0767046 0.9912545 0.0767046 0.0087455 -0.0767046
832250000 0.0085717 -0.0755332 0.9914283 0.0755332 0.9914283 0.0755332 0.0085717 -0.0755332
839500000 0.0084030 -0.0743769 0.9915970 0.0743769 0.9915970 0.0743769 0.0084030 -0.0743769
846750000 0.0082394 -0.0732353 0.9917606 0.0732353 0.9917606 0.0732353 0.0082394 -0.0732353
854000000 0.0080806 -0.0721079 0.9919194 0.0721079 0.9919194 0.0721079 0.0080806 -0.0721079
861250000 0.0079265 -0.0709945 0.9920735 0.0709945 0.9920735 0.0709945 0.0079265 -0.0709945
868500000 0.0077770 -0.0698948 0.9922230 0.0698948 0.9922230 0.0698948 0.0077770 -0.0698948
875750000 0.0076319 -0.0688083 0.9923681 0.0688083 0.9923681 0.0688083 0.0076319 -0.0688083
883000000 0.0074911 -0.0677348 0.9925089 0.0677348 0.9925089 0.0677348 0.0074911 -0.0677348
890250000 0.0073544 -0.0666740 0.9926456 0.0666740 0.9926456 0.0666740 0.0073544 -0.0666740
897500000 0.0072218 -0.0656255 0.9927782 0.0656255 0.9927782 0.0656255 0.0072218 -0.0656255
904750000 0.0070931 -0.0645892 0.9929069 0.0645892 0.9929069 0.0645892 0.0070931 -0.0645892
912000000 0.0069681 -0.0635646 0.9930319 0.0635646 0.9930319 0.0635646 0.0069681 -0.0635646
919250000 0.0068469 -0.0625515 0.9931531 0.0625515 0.9931531 0.0625515 0.0068469 -0.0625515
926500000 0.0067292 -0.0615498 0.9932708 0.0615498 0.9932708 0.0615498 0.0067292 -0.0615498
933750000 0.0066150 -0.0605590 0.9933850 0.0605590 0.9933850 0.0605590 0.0066150 -0.0605590
941000000 0.0065041 -0.0595790 0.9934959 0.0595790 0.9934959 0.0595790 0.0065041 -0.0595790
948250000 0.0063966 -0.0586095 0.9936034 0.0586095 0.9936034 0.0586095 0.0063966 -0.0586095
955500000 0.0062922 -0.0576503 0.9937078 0.0576503 0.9937078 0.0576503 0.0062922 -0.0576503
962750000 0.0061910 -0.0567012 0.9938090 0.0567012 0.9938090 0.0567012 0.0061910 -0.0567012
970000000 0.0060927 -0.0557619 0.9939073 0.0557619 0.9939073 0.0557619 0.0060927 -0.0557619
977250000 0.0059974 -0.0548322 0.9940026 0.0548322 0.9940026 0.0548322 0.0059974 -0.0548322
984500000 0.0059050 -0.0539119 0.9940950 0.0539119 0.9940950 0.0539119 0.0059050 -0.0539119
991750000 0.0058153 -0.0530009 0.9941847 0.0530009 0.9941847 0.0530009 0.0058153 -0.0530009
999000000 0.0057283 -0.0520988 0.9942717 0.0520988 0.9942717 0.0520988 0.0057283 -0.0520988
1006250000 0.0056440 -0.0512056 0.9943560 0.0512056 0.9943560 0.0512056 0.0056440 -0.0512056
1013500000 0.0055623 -0.0503210 0.9944377 0.0503210 0.9944377 0.0503210 0.0055623 -0.0503210
1020750000 0.0054830 -0.0494449 0.9945170 0.0494449 0.9945170 0.0494449 0.0054830 -0.0494449
1028000000 0.0054062 -0.0485770 0.9945938 0.0485770 0.9945938 0.0485770 0.0054062 -0.0485770
1035250000 0.0053318 -0.0477173 0.9946682 0.0477173 0.9946682 0.0477173 0.0053318 -0.0477173
1042500000 0.0052597 -0.0468655 0.9947403 0.0468655 0.9947403 0.0468655 0.0052597 -0.0468655
1049750000 0.0051899 -0.0460214 0.9948101 0.0460214 0.9948101 0.0460214 0.0051899 -0.0460214
1057000000 0.0051223 -0.0451850 0.9948777 0.0451850 0.9948777 0.0451850 0.0051223 -0.0451850
1064250000 0.0050568 -0.0443560 0.9949432 0.0443560 0.9949432 0.0443560 0.0050568 -0.0443560
1071500000 0.0049935 -0.0435344 0.9950065 0.0435344 0.9950065 0.0435344 0.0049935 -0.0435344
1078750000 0.0049322 -0.0427199 0.9950678 0.0427199 0.9950678 0.0427199 0.0049322 -0.0427199
1086000000 0.0048729 -0.0419124 0.9951271 0.0419124 0.9951271 0.0419124 0.0048729 -0.0419124
1093250000 0.0048155 -0.0411119 0.9951845 0.0411119 0.9951845 0.0411119 0.0048155 -0.0411119
1100500000 0.0047601 -0.0403180 0.9952399 0.0403180 0.9952399 0.0403180 0.0047601 -0.0403180
1107750000 0.0047066 -0.0395308 0.9952934 0.0395308 0.9952934 0.0395308 0.0047066 -0.0395308
1115000000 0.0046549 -0.0387500 0.9953451 0.0387500 0.9953451 0.0387500 0.0046549 -0.0387500
1122250000 0.0046050 -0.0379757 0.9953950 0.0379757 0.9953950 0.0379757 0.0046050 -0.0379757
1129500000 0.0045568 -0.0372075 0.9954432 0.0372075 0.9954432 0.0372075 0.0045568 -0.0372075
1136750000 0.0045104 -0.0364455 0.9954896 0.0364455 0.9954896 0.0364455 0.0045104 -0.0364455
1144000000 0.0044656 -0.0356895 0.9955344 0.0356895 0.9955344 0.0356895 0.0044656 -0.0356895
1151250000 0.0044225 -0.0349393 0.9955775 0.0349393 0.9955775 0.0349393 0.0044225 -0.0349393
1158500000 0.0043809 -0.0341950 0.9956191 0.0341950 0.9956191 0.0341950 0.0043809 -0.0341950
1165750000 0.0043410 -0.0334563 0.9956590 0.0334563 0.9956590 0.0334563 0.0043410 -0.0334563
1173000000 0.0043026 -0.0327231 0.9956974 0.0327231 0.9956974 0.0327231 0.0043026 -0.0327231
1180250000 0.0042657 -0.0319954 0.9957343 0.0319954 0.9957343 0.0319954 0.0042657 -0.0319954
1187500000 0.0042303 -0.0312731 0.9957697 0.0312731 0.9957697 0.0312731 0.0042303 -0.0312731
1194750000 0.0041963 -0.0305560 0.9958037 0.0305560 0.9958037 0.0305560 0.0041963 -0.0305560
1202000000 0.0041638 -0.0298441 0.9958362 0.0298441 0.9958362 0.0298441 0.0041638 -0.0298441
1209250000 0.0041326 -0.0291373 0.9958674 0.0291373 0.9958674 0.0291373 0.0041326 -0.0291373
1216500000 0.0041028 -0.0284354 0.9958972 0.0284354 0.9958972 0.0284354 0.0041028 -0.0284354
1223750000 0.0040744 -0.0277384 0.9959256 0.0277384 0.9959256 0.0277384 0.0040744 -0.0277384
1231000000 0.0040472 -0.0270462 0.9959528 0.0270462 0.9959528 0.0270462 0.0040472 -0.0270462
1238250000 0.0040214 -0.0263588 0.9959786 0.0263588 0.9959786 0.0263588 0.0040214 -0.0263588
1245500000 0.0039968 -0.0256759 0.9960032 0.0256759 0.9960032 0.0256759 0.0039968 -0.0256759
1252750000 0.0039735 -0.0249976 0.9960265 0.0249976 0.9960265 0.0249976 0.0039735 -0.0249976
1260000000 0.0039514 -0.0243238 0.9960486 0.0243238 0.9960486 0.0243238 0.0039514 -0.0243238
1267250000 0.0039305 -0.0236543 0.9960695 0.0236543 0.9960695 0.0236543 0.0039305 -0.0236543
1274500000 0.0039107 -0.0229892 0.9960893 0.0229892 0.9960893 0.0229892 0.0039107 -0.0229892
1281750000 0.0038921 -0.0223283 0.9961079 0.0223283 0.9961079 0.0223283 0.0038921 -0.0223283
1289000000 0.0038747 -0.0216715 0.9961253 0.0216715 0.9961253 0.0216715 0.0038747 -0.0216715
1296250000 0.0038584 -0.0210189 0.9961416 0.0210189 0.9961416 0.0210189 0.0038584 -0.0210189
1303500000 0.0038432 -0.0203702 0.9961568 0.0203702 0.9961568 0.0203702 0.0038432 -0.0203702
1310750000 0.0038290 -0.0197255 0.9961710 0.0197255 0.9961710 0.0197255 0.0038290 -0.0197255
1318000000 0.0038159 -0.0190847 0.9961841 0.0190847 0.9961841 0.0190847 0.0038159 -0.0190847
1325250000 0.0038039 -0.0184477 0.9961961 0.0184477 0.9961961 0.0184477 0.0038039 -0.0184477
1332500000 0.0037929 -0.0178145 0.9962071 0.0178145 0.9962071 0.0178145 0.0037929 -0.0178145
1339750000 0.0037829 -0.0171849 0.9962171 0.0171849 0.9962171 0.0171849 0.0037829 -0.0171849
1347000000 0.0037739 -0.0165590 0.9962261 0.0165590 0.9962261 0.0165590 0.0037739 -0.0165590
1354250000 0.0037659 -0.0159367 0.9962341 0.0159367 0.9962341 0.0159367 0.0037659 -0.0159367
1361500000 0.0037588 -0.0153178 0.9962412 0.0153178 0.9962412 0.0153178 0.0037588 -0.0153178
1368750000 0.0037527 -0.0147024 0.9962473 0.0147024 0.9962473 0.0147024 0.0037527 -0.0147024
1376000000 0.0037475 -0.0140904 0.9962525 0.0140904 0.9962525 0.0140904 0.0037475 -0.0140904
1383250000 0.0037433 -0.0134817 0.9962567 0.0134817 0.9962567 0.0134817 0.0037433 -0.0134817
1390500000 0.0037399 -0.0128763 0.9962601 0.0128763 0.9962601 0.0128763 0.0037399 -0.0128763
1397750000 0.0037375 -0.0122742 0.9962625 0.0122742 0.9962625 0.0122742 0.0037375 -0.0122742
1405000000 0.0037359 -0.0116752 0.9962641 0.0116752 0.9962641 0.0116752 0.0037359 -0.0116752
1412250000 0.0037353 -0.0110793 0.9962647 0.0110793 0.9962647 0.0110793 0.0037353 -0.0110793
1419500000 0.0037354 -0.0104865 0.9962646 0.0104865 0.9962646 0.0104865 0.0037354 -0.0104865
1426750000 0.0037365 -0.0098967 0.9962635 0.0098967 0.9962635 0.0098967 0.0037365 -0.0098967
1434000000 0.0037383 -0.0093099 0.9962617 0.0093099 0.9962617 0.0093099 0.0037383 -0.0093099
1441250000 0.0037410 -0.0087260 0.9962590 0.0087260 0.9962590 0.0087260 0.0037410 -0.0087260
1448500000 0.0037445 -0.0081450 0.9962555 0.0081450 0.9962555 0.0081450 0.0037445 -0.0081450
1455750000 0.0037488 -0.0075669 0.9962512 0.0075669 0.9962512 0.0075669 0.0037488 -0.0075669
1463000000 0.0037539 -0.0069915 0.9962461 0.0069915 0.9962461 0.0069915 0.0037539 -0.0069915
1470250000 0.0037598 -0.0064189 0.9962402 0.0064189 0.9962402 0.0064189 0.0037598 -0.0064189
1477500000 0.0037664 -0.0058490 0.9962336 0.0058490 0.9962336 0.0058490 0.0037664 -0.0058490
1484750000 0.0037738 -0.0052817 0.9962262 0.0052817 0.9962262 0.0052817 0.0037738 -0.0052817
1492000000 0.0037820 -0.0047170 0.9962180 0.0047170 0.9962180 0.0047170 0.0037820 -0.0047170
1499250000 0.0037909 -0.0041550 0.9962091 0.0041550 0.9962091 0.0041550 0.0037909 -0.0041550
1506500000 0.0038006 -0.0035954 0.9961994 0.0035954 0.9961994 0.0035954 0.0038006 -0.0035954
1513750000 0.0038109 -0.0030384 0.9961891 0.0030384 0.9961891 0.0030384 0.0038109 -0.0030384
1521000000 0.0038220 -0.0024838 0.9961780 0.0024838 0.9961780 0.0024838 0.0038220 -0.0024838
1528250000 0.0038338 -0.0019316 0.9961662 0.0019316 0.9961662 0.0019316 0.0038338 -0.0019316
1535500000 0.0038464 -0.0013818 0.9961536 0.0013818 0.9961536 0.0013818 0.0038464 -0.0013818
1542750000 0.0038596 -0.0008344 0.9961404 0.0008344 0.9961404 0.0008344 0.0038596 -0.0008344
1550000000 0.0038735 -0.0002893 0.9961265 0.0002893 0.9961265 0.0002893 0.0038735 -0.0002893
1557250000 0.0038881 0.0002536 0.9961119 -0.0002536 0.9961119 -0.0002536 0.0038881 0.0002536
1564500000 0.0039033 0.0007942 0.9960967 -0.0007942 0.9960967 -0.0007942 0.0039033 0.0007942
1571750000 0.0039192 0.0013326 0.9960808 -0.0013326 0.9960808 -0.0013326 0.0039192 0.0013326
1579000000 0.0039358 0.0018688 0.9960642 -0.0018688 0.9960642 -0.0018688 0.0039358 0.0018688
1586250000 0.0039531 0.0024029 0.9960469 -0.0024029 0.9960469 -0.0024029 0.0039531 0.0024029
1593500000 0.0039710 0.0029349 0.9960290 -0.0029349 0.9960290 -0.0029349 0.0039710 0.0029349
1600750000 0.0039895 0.0034649 0.9960105 -0.0034649 0.9960105 -0.0034649 0.0039895 0.0034649
1608000000 0.0040087 0.0039927 0.9959913 -0.0039927 0.9959913 -0.0039927 0.0040087 0.0039927
1615250000 0.0040285 0.0045186 0.9959715 -0.0045186 0.9959715 -0.0045186 0.0040285 0.0045186
1622500000 0.0040489 0.0050425 0.9959511 -0.0050425 0.9959511 -0.0050425 0.0040489 0.0050425
1629750000 0.0040700 0.0055644 0.9959300 -0.0055644 0.9959300 -0.0055644 0.0040700 0.0055644
