!Murata Part Number: GRM21A7U2E151JW31
!These Parameters are Measured in Series Mode Connection
!Data Generated on Mar 30, 2021
!       o--ll--o
!Port1            Port2
!       o------o
!Operation Temp=25[degC], DC Bias Voltage=0[V]
!Freq. Start=100[MHz] Stop=3[GHz] 401[Steps]
# Hz S RI R 50
!Freq.(Hz) S11(Real) S11(Imag) S21(Real) S21(Imag) S12(Real) S12(Imag) S22(Real) S22(Imag)
100000000 0.0113679 -0.1008075 0.9886321 0.1008075 0.9886321 0.1008075 0.0113679 -0.1008075
107250000 0.0099350 -0.0935710 0.9900650 0.0935710 0.9900650 0.0935710 0.0099350 -0.0935710
114500000 0.0087638 -0.0871896 0.9912362 0.0871896 0.9912362 0.0871896 0.0087638 -0.0871896
121750000 0.0077947 -0.0815158 0.9922053 0.0815158 0.9922053 0.0815158 0.0077947 -0.0815158
129000000 0.0069842 -0.0764339 0.9930158 0.0764339 0.9930158 0.0764339 0.0069842 -0.0764339
136250000 0.0062999 -0.0718518 0.9937001 0.0718518 0.9937001 0.0718518 0.0062999 -0.0718518
143500000 0.0057172 -0.0676956 0.9942828 0.0676956 0.9942828 0.0676956 0.0057172 -0.0676956
150750000 0.0052173 -0.0639052 0.9947827 0.0639052 0.9947827 0.0639052 0.0052173 -0.0639052
158000000 0.0047856 -0.0604312 0.9952144 0.0604312 0.9952144 0.0604312 0.0047856 -0.0604312
165250000 0.0044104 -0.0572327 0.9955896 0.0572327 0.9955896 0.0572327 0.0044104 -0.0572327
172500000 0.0040827 -0.0542754 0.9959173 0.0542754 0.9959173 0.0542754 0.0040827 -0.0542754
179750000 0.0037950 -0.0515307 0.9962050 0.0515307 0.9962050 0.0515307 0.0037950 -0.0515307
187000000 0.0035413 -0.0489741 0.9964587 0.0489741 0.9964587 0.0489741 0.0035413 -0.0489741
194250000 0.0033167 -0.0465848 0.9966833 0.0465848 0.9966833 0.0465848 0.0033167 -0.0465848
201500000 0.0031172 -0.0443450 0.9968828 0.0443450 0.9968828 0.0443450 0.0031172 -0.0443450
208750000 0.0029395 -0.0422392 0.9970605 0.0422392 0.9970605 0.0422392 0.0029395 -0.0422392
216000000 0.0027806 -0.0402540 0.9972194 0.0402540 0.9972194 0.0402540 0.0027806 -0.0402540
223250000 0.0026383 -0.0383779 0.9973617 0.0383779 0.9973617 0.0383779 0.0026383 -0.0383779
230500000 0.0025106 -0.0366006 0.9974894 0.0366006 0.9974894 0.0366006 0.0025106 -0.0366006
237750000 0.0023957 -0.0349131 0.9976043 0.0349131 0.9976043 0.0349131 0.0023957 -0.0349131
245000000 0.0022923 -0.0333074 0.9977077 0.0333074 0.9977077 0.0333074 0.0022923 -0.0333074
252250000 0.0021990 -0.0317767 0.9978010 0.0317767 0.9978010 0.0317767 0.0021990 -0.0317767
259500000 0.0021148 -0.0303146 0.9978852 0.0303146 0.9978852 0.0303146 0.0021148 -0.0303146
266750000 0.0020388 -0.0289155 0.9979612 0.0289155 0.9979612 0.0289155 0.0020388 -0.0289155
274000000 0.0019701 -0.0275745 0.9980299 0.0275745 0.9980299 0.0275745 0.0019701 -0.0275745
281250000 0.0019081 -0.0262870 0.9980919 0.0262870 0.9980919 0.0262870 0.0019081 -0.0262870
288500000 0.0018521 -0.0250491 0.9981479 0.0250491 0.9981479 0.0250491 0.0018521 -0.0250491
295750000 0.0018016 -0.0238571 0.9981984 0.0238571 0.9981984 0.0238571 0.0018016 -0.0238571
303000000 0.0017561 -0.0227078 0.9982439 0.0227078 0.9982439 0.0227078 0.0017561 -0.0227078
310250000 0.0017151 -0.0215980 0.9982849 0.0215980 0.9982849 0.0215980 0.0017151 -0.0215980
317500000 0.0016784 -0.0205252 0.9983216 0.0205252 0.9983216 0.0205252 0.0016784 -0.0205252
324750000 0.0016456 -0.0194868 0.9983544 0.0194868 0.9983544 0.0194868 0.0016456 -0.0194868
332000000 0.0016163 -0.0184805 0.9983837 0.0184805 0.9983837 0.0184805 0.0016163 -0.0184805
339250000 0.0015904 -0.0175043 0.9984096 0.0175043 0.9984096 0.0175043 0.0015904 -0.0175043
346500000 0.0015675 -0.0165563 0.9984325 0.0165563 0.9984325 0.0165563 0.0015675 -0.0165563
353750000 0.0015474 -0.0156348 0.9984526 0.0156348 0.9984526 0.0156348 0.0015474 -0.0156348
361000000 0.0015301 -0.0147381 0.9984699 0.0147381 0.9984699 0.0147381 0.0015301 -0.0147381
368250000 0.0015152 -0.0138648 0.9984848 0.0138648 0.9984848 0.0138648 0.0015152 -0.0138648
375500000 0.0015026 -0.0130135 0.9984974 0.0130135 0.9984974 0.0130135 0.0015026 -0.0130135
382750000 0.0014923 -0.0121829 0.9985077 0.0121829 0.9985077 0.0121829 0.0014923 -0.0121829
390000000 0.0014840 -0.0113718 0.9985160 0.0113718 0.9985160 0.0113718 0.0014840 -0.0113718
397250000 0.0014776 -0.0105792 0.9985224 0.0105792 0.9985224 0.0105792 0.0014776 -0.0105792
404500000 0.0014731 -0.0098041 0.9985269 0.0098041 0.9985269 0.0098041 0.0014731 -0.0098041
411750000 0.0014704 -0.0090455 0.9985296 0.0090455 0.9985296 0.0090455 0.0014704 -0.0090455
419000000 0.0014693 -0.0083025 0.9985307 0.0083025 0.9985307 0.0083025 0.0014693 -0.0083025
426250000 0.0014698 -0.0075744 0.9985302 0.0075744 0.9985302 0.0075744 0.0014698 -0.0075744
433500000 0.0014718 -0.0068603 0.9985282 0.0068603 0.9985282 0.0068603 0.0014718 -0.0068603
440750000 0.0014752 -0.0061596 0.9985248 0.0061596 0.9985248 0.0061596 0.0014752 -0.0061596
448000000 0.0014800 -0.0054715 0.9985200 0.0054715 0.9985200 0.0054715 0.0014800 -0.0054715
455250000 0.0014862 -0.0047955 0.9985138 0.0047955 0.9985138 0.0047955 0.0014862 -0.0047955
462500000 0.0014936 -0.0041309 0.9985064 0.0041309 0.9985064 0.0041309 0.0014936 -0.0041309
469750000 0.0015023 -0.0034773 0.9984977 0.0034773 0.9984977 0.0034773 0.0015023 -0.0034773
477000000 0.0015122 -0.0028340 0.9984878 0.0028340 0.9984878 0.0028340 0.0015122 -0.0028340
484250000 0.0015232 -0.0022007 0.9984768 0.0022007 0.9984768 0.0022007 0.0015232 -0.0022007
491500000 0.0015353 -0.0015768 0.9984647 0.0015768 0.9984647 0.0015768 0.0015353 -0.0015768
498750000 0.0015486 -0.0009618 0.9984514 0.0009618 0.9984514 0.0009618 0.0015486 -0.0009618
506000000 0.0015628 -0.0003555 0.9984372 0.0003555 0.9984372 0.0003555 0.0015628 -0.0003555
513250000 0.0015782 0.0002427 0.9984218 -0.0002427 0.9984218 -0.0002427 0.0015782 0.0002427
520500000 0.0015945 0.0008330 0.9984055 -0.0008330 0.9984055 -0.0008330 0.0015945 0.0008330
527750000 0.0016118 0.0014158 0.9983882 -0.0014158 0.9983882 -0.0014158 0.0016118 0.0014158
535000000 0.0016301 0.0019916 0.9983699 -0.0019916 0.9983699 -0.0019916 0.0016301 0.0019916
542250000 0.0016494 0.0025604 0.9983506 -0.0025604 0.9983506 -0.0025604 0.0016494 0.0025604
549500000 0.0016696 0.0031228 0.9983304 -0.0031228 0.9983304 -0.0031228 0.0016696 0.0031228
556750000 0.0016907 0.0036789 0.9983093 -0.0036789 0.9983093 -0.0036789 0.0016907 0.0036789
564000000 0.0017128 0.0042291 0.9982872 -0.0042291 0.9982872 -0.0042291 0.0017128 0.0042291
571250000 0.0017357 0.0047735 0.9982643 -0.0047735 0.9982643 -0.0047735 0.0017357 0.0047735
578500000 0.0017596 0.0053125 0.9982404 -0.0053125 0.9982404 -0.0053125 0.0017596 0.0053125
585750000 0.0017844 0.0058463 0.9982156 -0.0058463 0.9982156 -0.0058463 0.0017844 0.0058463
593000000 0.0018101 0.0063751 0.9981899 -0.0063751 0.9981899 -0.0063751 0.0018101 0.0063751
600250000 0.0018366 0.0068991 0.9981634 -0.0068991 0.9981634 -0.0068991 0.0018366 0.0068991
607500000 0.0018641 0.0074185 0.9981359 -0.0074185 0.9981359 -0.0074185 0.0018641 0.0074185
614750000 0.0018925 0.0079336 0.9981075 -0.0079336 0.9981075 -0.0079336 0.0018925 0.0079336
622000000 0.0019218 0.0084445 0.9980782 -0.0084445 0.9980782 -0.0084445 0.0019218 0.0084445
629250000 0.0019519 0.0089515 0.9980481 -0.0089515 0.9980481 -0.0089515 0.0019519 0.0089515
636500000 0.0019830 0.0094546 0.9980170 -0.0094546 0.9980170 -0.0094546 0.0019830 0.0094546
643750000 0.0020150 0.0099541 0.9979850 -0.0099541 0.9979850 -0.0099541 0.0020150 0.0099541
651000000 0.0020480 0.0104501 0.9979520 -0.0104501 0.9979520 -0.0104501 0.0020480 0.0104501
658250000 0.0020818 0.0109428 0.9979182 -0.0109428 0.9979182 -0.0109428 0.0020818 0.0109428
665500000 0.0021167 0.0114324 0.9978833 -0.0114324 0.9978833 -0.0114324 0.0021167 0.0114324
672750000 0.0021525 0.0119190 0.9978475 -0.0119190 0.9978475 -0.0119190 0.0021525 0.0119190
680000000 0.0021893 0.0124027 0.9978107 -0.0124027 0.9978107 -0.0124027 0.0021893 0.0124027
687250000 0.0022271 0.0128838 0.9977729 -0.0128838 0.9977729 -0.0128838 0.0022271 0.0128838
694500000 0.0022660 0.0133623 0.9977340 -0.0133623 0.9977340 -0.0133623 0.0022660 0.0133623
701750000 0.0023059 0.0138384 0.9976941 -0.0138384 0.9976941 -0.0138384 0.0023059 0.0138384
709000000 0.0023469 0.0143122 0.9976531 -0.0143122 0.9976531 -0.0143122 0.0023469 0.0143122
716250000 0.0023890 0.0147838 0.9976110 -0.0147838 0.9976110 -0.0147838 0.0023890 0.0147838
723500000 0.0024323 0.0152535 0.9975677 -0.0152535 0.9975677 -0.0152535 0.0024323 0.0152535
730750000 0.0024768 0.0157212 0.9975232 -0.0157212 0.9975232 -0.0157212 0.0024768 0.0157212
738000000 0.0025226 0.0161873 0.9974774 -0.0161873 0.9974774 -0.0161873 0.0025226 0.0161873
745250000 0.0025696 0.0166516 0.9974304 -0.0166516 0.9974304 -0.0166516 0.0025696 0.0166516
752500000 0.0026179 0.0171145 0.9973821 -0.0171145 0.9973821 -0.0171145 0.0026179 0.0171145
759750000 0.0026677 0.0175760 0.9973323 -0.0175760 0.9973323 -0.0175760 0.0026677 0.0175760
767000000 0.0027189 0.0180363 0.9972811 -0.0180363 0.9972811 -0.0180363 0.0027189 0.0180363
774250000 0.0027716 0.0184954 0.9972284 -0.0184954 0.9972284 -0.0184954 0.0027716 0.0184954
781500000 0.0028259 0.0189535 0.9971741 -0.0189535 0.9971741 -0.0189535 0.0028259 0.0189535
788750000 0.0028820 0.0194108 0.9971180 -0.0194108 0.9971180 -0.0194108 0.0028820 0.0194108
796000000 0.0029398 0.0198673 0.9970602 -0.0198673 0.9970602 -0.0198673 0.0029398 0.0198673
803250000 0.0029995 0.0203232 0.9970005 -0.0203232 0.9970005 -0.0203232 0.0029995 0.0203232
810500000 0.0030612 0.0207785 0.9969388 -0.0207785 0.9969388 -0.0207785 0.0030612 0.0207785
817750000 0.0031250 0.0212335 0.9968750 -0.0212335 0.9968750 -0.0212335 0.0031250 0.0212335
825000000 0.0031912 0.0216883 0.9968088 -0.0216883 0.9968088 -0.0216883 0.0031912 0.0216883
832250000 0.0032597 0.0221429 0.9967403 -0.0221429 0.9967403 -0.0221429 0.0032597 0.0221429
839500000 0.0033309 0.0225976 0.9966691 -0.0225976 0.9966691 -0.0225976 0.0033309 0.0225976
846750000 0.0034048 0.0230523 0.9965952 -0.0230523 0.9965952 -0.0230523 0.0034048 0.0230523
854000000 0.0034818 0.0235074 0.9965182 -0.0235074 0.9965182 -0.0235074 0.0034818 0.0235074
861250000 0.0035621 0.0239628 0.9964379 -0.0239628 0.9964379 -0.0239628 0.0035621 0.0239628
868500000 0.0036459 0.0244187 0.9963541 -0.0244187 0.9963541 -0.0244187 0.0036459 0.0244187
875750000 0.0037335 0.0248752 0.9962665 -0.0248752 0.9962665 -0.0248752 0.0037335 0.0248752
883000000 0.0038254 0.0253325 0.9961746 -0.0253325 0.9961746 -0.0253325 0.0038254 0.0253325
890250000 0.0039219 0.0257906 0.9960781 -0.0257906 0.9960781 -0.0257906 0.0039219 0.0257906
897500000 0.0040234 0.0262495 0.9959766 -0.0262495 0.9959766 -0.0262495 0.0040234 0.0262495
904750000 0.0041305 0.0267095 0.9958695 -0.0267095 0.9958695 -0.0267095 0.0041305 0.0267095
912000000 0.0042438 0.0271704 0.9957562 -0.0271704 0.9957562 -0.0271704 0.0042438 0.0271704
919250000 0.0043638 0.0276323 0.9956362 -0.0276323 0.9956362 -0.0276323 0.0043638 0.0276323
926500000 0.0044913 0.0280951 0.9955087 -0.0280951 0.9955087 -0.0280951 0.0044913 0.0280951
933750000 0.0046272 0.0285586 0.9953728 -0.0285586 0.9953728 -0.0285586 0.0046272 0.0285586
941000000 0.0047724 0.0290227 0.9952276 -0.0290227 0.9952276 -0.0290227 0.0047724 0.0290227
948250000 0.0049279 0.0294870 0.9950721 -0.0294870 0.9950721 -0.0294870 0.0049279 0.0294870
955500000 0.0050949 0.0299510 0.9949051 -0.0299510 0.9949051 -0.0299510 0.0050949 0.0299510
962750000 0.0052747 0.0304139 0.9947253 -0.0304139 0.9947253 -0.0304139 0.0052747 0.0304139
970000000 0.0054687 0.0308749 0.9945313 -0.0308749 0.9945313 -0.0308749 0.0054687 0.0308749
977250000 0.0056785 0.0313325 0.9943215 -0.0313325 0.9943215 -0.0313325 0.0056785 0.0313325
984500000 0.0059058 0.0317850 0.9940942 -0.0317850 0.9940942 -0.0317850 0.0059058 0.0317850
991750000 0.0061521 0.0322303 0.9938479 -0.0322303 0.9938479 -0.0322303 0.0061521 0.0322303
999000000 0.0064191 0.0326652 0.9935809 -0.0326652 0.9935809 -0.0326652 0.0064191 0.0326652
1006250000 0.0067082 0.0330861 0.9932918 -0.0330861 0.9932918 -0.0330861 0.0067082 0.0330861
1013500000 0.0070203 0.0334884 0.9929797 -0.0334884 0.9929797 -0.0334884 0.0070203 0.0334884
1020750000 0.0073555 0.0338664 0.9926445 -0.0338664 0.9926445 -0.0338664 0.0073555 0.0338664
1028000000 0.0077128 0.0342134 0.9922872 -0.0342134 0.9922872 -0.0342134 0.0077128 0.0342134
1035250000 0.0080892 0.0345219 0.9919108 -0.0345219 0.9919108 -0.0345219 0.0080892 0.0345219
1042500000 0.0084796 0.0347840 0.9915204 -0.0347840 0.9915204 -0.0347840 0.0084796 0.0347840
1049750000 0.0088757 0.0349920 0.9911243 -0.0349920 0.9911243 -0.0349920 0.0088757 0.0349920
1057000000 0.0092658 0.0351398 0.9907342 -0.0351398 0.9907342 -0.0351398 0.0092658 0.0351398
1064250000 0.0096351 0.0352242 0.9903649 -0.0352242 0.9903649 -0.0352242 0.0096351 0.0352242
1071500000 0.0099664 0.0352467 0.9900336 -0.0352467 0.9900336 -0.0352467 0.0099664 0.0352467
1078750000 0.0102418 0.0352148 0.9897582 -0.0352148 0.9897582 -0.0352148 0.0102418 0.0352148
1086000000 0.0104460 0.0351428 0.9895540 -0.0351428 0.9895540 -0.0351428 0.0104460 0.0351428
1093250000 0.0105682 0.0350500 0.9894318 -0.0350500 0.9894318 -0.0350500 0.0105682 0.0350500
1100500000 0.0106053 0.0349593 0.9893947 -0.0349593 0.9893947 -0.0349593 0.0106053 0.0349593
1107750000 0.0105618 0.0348929 0.9894382 -0.0348929 0.9894382 -0.0348929 0.0105618 0.0348929
1115000000 0.0104495 0.0348697 0.9895505 -0.0348697 0.9895505 -0.0348697 0.0104495 0.0348697
1122250000 0.0102845 0.0349028 0.9897155 -0.0349028 0.9897155 -0.0349028 0.0102845 0.0349028
1129500000 0.0100847 0.0349987 0.9899153 -0.0349987 0.9899153 -0.0349987 0.0100847 0.0349987
1136750000 0.0098672 0.0351581 0.9901328 -0.0351581 0.9901328 -0.0351581 0.0098672 0.0351581
1144000000 0.0096467 0.0353774 0.9903533 -0.0353774 0.9903533 -0.0353774 0.0096467 0.0353774
1151250000 0.0094342 0.0356499 0.9905658 -0.0356499 0.9905658 -0.0356499 0.0094342 0.0356499
1158500000 0.0092377 0.0359680 0.9907623 -0.0359680 0.9907623 -0.0359680 0.0092377 0.0359680
1165750000 0.0090622 0.0363238 0.9909378 -0.0363238 0.9909378 -0.0363238 0.0090622 0.0363238
1173000000 0.0089104 0.0367098 0.9910896 -0.0367098 0.9910896 -0.0367098 0.0089104 0.0367098
1180250000 0.0087834 0.0371196 0.9912166 -0.0371196 0.9912166 -0.0371196 0.0087834 0.0371196
1187500000 0.0086810 0.0375476 0.9913190 -0.0375476 0.9913190 -0.0375476 0.0086810 0.0375476
1194750000 0.0086024 0.0379893 0.9913976 -0.0379893 0.9913976 -0.0379893 0.0086024 0.0379893
1202000000 0.0085464 0.0384412 0.9914536 -0.0384412 0.9914536 -0.0384412 0.0085464 0.0384412
1209250000 0.0085115 0.0389003 0.9914885 -0.0389003 0.9914885 -0.0389003 0.0085115 0.0389003
1216500000 0.0084965 0.0393644 0.9915035 -0.0393644 0.9915035 -0.0393644 0.0084965 0.0393644
1223750000 0.0084997 0.0398318 0.9915003 -0.0398318 0.9915003 -0.0398318 0.0084997 0.0398318
1231000000 0.0085200 0.0403013 0.9914800 -0.0403013 0.9914800 -0.0403013 0.0085200 0.0403013
1238250000 0.0085560 0.0407717 0.9914440 -0.0407717 0.9914440 -0.0407717 0.0085560 0.0407717
1245500000 0.0086069 0.0412423 0.9913931 -0.0412423 0.9913931 -0.0412423 0.0086069 0.0412423
1252750000 0.0086717 0.0417127 0.9913283 -0.0417127 0.9913283 -0.0417127 0.0086717 0.0417127
1260000000 0.0087497 0.0421823 0.9912503 -0.0421823 0.9912503 -0.0421823 0.0087497 0.0421823
1267250000 0.0088401 0.0426508 0.9911599 -0.0426508 0.9911599 -0.0426508 0.0088401 0.0426508
1274500000 0.0089425 0.0431180 0.9910575 -0.0431180 0.9910575 -0.0431180 0.0089425 0.0431180
1281750000 0.0090564 0.0435838 0.9909436 -0.0435838 0.9909436 -0.0435838 0.0090564 0.0435838
1289000000 0.0091817 0.0440479 0.9908183 -0.0440479 0.9908183 -0.0440479 0.0091817 0.0440479
1296250000 0.0093179 0.0445102 0.9906821 -0.0445102 0.9906821 -0.0445102 0.0093179 0.0445102
1303500000 0.0094650 0.0449706 0.9905350 -0.0449706 0.9905350 -0.0449706 0.0094650 0.0449706
1310750000 0.0096230 0.0454289 0.9903770 -0.0454289 0.9903770 -0.0454289 0.0096230 0.0454289
1318000000 0.0097917 0.0458850 0.9902083 -0.0458850 0.9902083 -0.0458850 0.0097917 0.0458850
1325250000 0.0099713 0.0463388 0.9900287 -0.0463388 0.9900287 -0.0463388 0.0099713 0.0463388
1332500000 0.0101619 0.0467899 0.9898381 -0.0467899 0.9898381 -0.0467899 0.0101619 0.0467899
1339750000 0.0103637 0.0472382 0.9896363 -0.0472382 0.9896363 -0.0472382 0.0103637 0.0472382
1347000000 0.0105768 0.0476834 0.9894232 -0.0476834 0.9894232 -0.0476834 0.0105768 0.0476834
1354250000 0.0108014 0.0481252 0.9891986 -0.0481252 0.9891986 -0.0481252 0.0108014 0.0481252
1361500000 0.0110380 0.0485632 0.9889620 -0.0485632 0.9889620 -0.0485632 0.0110380 0.0485632
1368750000 0.0112868 0.0489969 0.9887132 -0.0489969 0.9887132 -0.0489969 0.0112868 0.0489969
1376000000 0.0115482 0.0494258 0.9884518 -0.0494258 0.9884518 -0.0494258 0.0115482 0.0494258
1383250000 0.0118224 0.0498494 0.9881776 -0.0498494 0.9881776 -0.0498494 0.0118224 0.0498494
1390500000 0.0121099 0.0502670 0.9878901 -0.0502670 0.9878901 -0.0502670 0.0121099 0.0502670
1397750000 0.0124111 0.0506778 0.9875889 -0.0506778 0.9875889 -0.0506778 0.0124111 0.0506778
1405000000 0.0127264 0.0510809 0.9872736 -0.0510809 0.9872736 -0.0510809 0.0127264 0.0510809
1412250000 0.0130560 0.0514754 0.9869440 -0.0514754 0.9869440 -0.0514754 0.0130560 0.0514754
1419500000 0.0134003 0.0518602 0.9865997 -0.0518602 0.9865997 -0.0518602 0.0134003 0.0518602
1426750000 0.0137596 0.0522340 0.9862404 -0.0522340 0.9862404 -0.0522340 0.0137596 0.0522340
1434000000 0.0141341 0.0525956 0.9858659 -0.0525956 0.9858659 -0.0525956 0.0141341 0.0525956
1441250000 0.0145240 0.0529433 0.9854760 -0.0529433 0.9854760 -0.0529433 0.0145240 0.0529433
1448500000 0.0149292 0.0532756 0.9850708 -0.0532756 0.9850708 -0.0532756 0.0149292 0.0532756
1455750000 0.0153496 0.0535908 0.9846504 -0.0535908 0.9846504 -0.0535908 0.0153496 0.0535908
1463000000 0.0157850 0.0538868 0.9842150 -0.0538868 0.9842150 -0.0538868 0.0157850 0.0538868
1470250000 0.0162349 0.0541616 0.9837651 -0.0541616 0.9837651 -0.0541616 0.0162349 0.0541616
1477500000 0.0166984 0.0544130 0.9833016 -0.0544130 0.9833016 -0.0544130 0.0166984 0.0544130
1484750000 0.0171747 0.0546388 0.9828253 -0.0546388 0.9828253 -0.0546388 0.0171747 0.0546388
1492000000 0.0176623 0.0548365 0.9823377 -0.0548365 0.9823377 -0.0548365 0.0176623 0.0548365
1499250000 0.0181596 0.0550038 0.9818404 -0.0550038 0.9818404 -0.0550038 0.0181596 0.0550038
1506500000 0.0186644 0.0551383 0.9813356 -0.0551383 0.9813356 -0.0551383 0.0186644 0.0551383
1513750000 0.0191743 0.0552377 0.9808257 -0.0552377 0.9808257 -0.0552377 0.0191743 0.0552377
1521000000 0.0196861 0.0552998 0.9803139 -0.0552998 0.9803139 -0.0552998 0.0196861 0.0552998
1528250000 0.0201965 0.0553228 0.9798035 -0.0553228 0.9798035 -0.0553228 0.0201965 0.0553228
1535500000 0.0207014 0.0553049 0.9792986 -0.0553049 0.9792986 -0.0553049 0.0207014 0.0553049
1542750000 0.0211965 0.0552451 0.9788035 -0.0552451 0.9788035 -0.0552451 0.0211965 0.0552451
1550000000 0.0216768 0.0551428 0.9783232 -0.0551428 0.9783232 -0.0551428 0.0216768 0.0551428
1557250000 0.0221374 0.0549981 0.9778626 -0.0549981 0.9778626 -0.0549981 0.0221374 0.0549981
1564500000 0.0225727 0.0548118 0.9774273 -0.0548118 0.9774273 -0.0548118 0.0225727 0.0548118
1571750000 0.0229773 0.0545857 0.9770227 -0.0545857 0.9770227 -0.0545857 0.0229773 0.0545857
1579000000 0.0233458 0.0543222 0.9766542 -0.0543222 0.9766542 -0.0543222 0.0233458 0.0543222
1586250000 0.0236731 0.0540251 0.9763269 -0.0540251 0.9763269 -0.0540251 0.0236731 0.0540251
1593500000 0.0239544 0.0536987 0.9760456 -0.0536987 0.9760456 -0.0536987 0.0239544 0.0536987
1600750000 0.0241857 0.0533482 0.9758143 -0.0533482 0.9758143 -0.0533482 0.0241857 0.0533482
1608000000 0.0243636 0.0529796 0.9756364 -0.0529796 0.9756364 -0.0529796 0.0243636 0.0529796
1615250000 0.0244859 0.0525996 0.9755141 -0.0525996 0.9755141 -0.0525996 0.0244859 0.0525996
1622500000 0.0245514 0.0522148 0.9754486 -0.0522148 0.9754486 -0.0522148 0.0245514 0.0522148
1629750000 0.0245598 0.0518325 0.9754402 -0.0518325 0.9754402 -0.0518325 0.0245598 0.0518325
