!Murata Part Number: GRM2165C2A123JA01
!These Parameters are Measured in Series Mode Connection
!Data Generated on Mar 30, 2021
!       o--ll--o
!Port1            Port2
!       o------o
!Operation Temp=25[degC], DC Bias Voltage=0[V]
!Freq. Start=1000[kHz] Stop=6[GHz] 401[Steps]
# Hz S RI R 50
!Freq.(Hz) S11(Real) S11(Imag) S21(Real) S21(Imag) S12(Real) S12(Imag) S22(Real) S22(Imag)
1000000 0.0173638 -0.1303807 0.9826362 0.1303807 0.9826362 0.1303807 0.0173638 -0.1303807
1021987 0.0166395 -0.1276681 0.9833605 0.1276681 0.9833605 0.1276681 0.0166395 -0.1276681
1044457 0.0159450 -0.1250081 0.9840550 0.1250081 0.9840550 0.1250081 0.0159450 -0.1250081
1067422 0.0152791 -0.1223997 0.9847209 0.1223997 0.9847209 0.1223997 0.0152791 -0.1223997
1090891 0.0146407 -0.1198424 0.9853593 0.1198424 0.9853593 0.1198424 0.0146407 -0.1198424
1114877 0.0140288 -0.1173352 0.9859712 0.1173352 0.9859712 0.1173352 0.0140288 -0.1173352
1139390 0.0134422 -0.1148774 0.9865578 0.1148774 0.9865578 0.1148774 0.0134422 -0.1148774
1164441 0.0128799 -0.1124683 0.9871201 0.1124683 0.9871201 0.1124683 0.0128799 -0.1124683
1190044 0.0123410 -0.1101069 0.9876590 0.1101069 0.9876590 0.1101069 0.0123410 -0.1101069
1216210 0.0118245 -0.1077926 0.9881755 0.1077926 0.9881755 0.1077926 0.0118245 -0.1077926
1242950 0.0113294 -0.1055245 0.9886706 0.1055245 0.9886706 0.1055245 0.0113294 -0.1055245
1270279 0.0108550 -0.1033019 0.9891450 0.1033019 0.9891450 0.1033019 0.0108550 -0.1033019
1298209 0.0104003 -0.1011240 0.9895997 0.1011240 0.9895997 0.1011240 0.0104003 -0.1011240
1326753 0.0099646 -0.0989900 0.9900354 0.0989900 0.9900354 0.0989900 0.0099646 -0.0989900
1355924 0.0095471 -0.0968992 0.9904529 0.0968992 0.9904529 0.0968992 0.0095471 -0.0968992
1385737 0.0091471 -0.0948508 0.9908529 0.0948508 0.9908529 0.0948508 0.0091471 -0.0948508
1416205 0.0087638 -0.0928440 0.9912362 0.0928440 0.9912362 0.0928440 0.0087638 -0.0928440
1447343 0.0083965 -0.0908781 0.9916035 0.0908781 0.9916035 0.0908781 0.0083965 -0.0908781
1479166 0.0080447 -0.0889523 0.9919553 0.0889523 0.9919553 0.0889523 0.0080447 -0.0889523
1511688 0.0077075 -0.0870660 0.9922925 0.0870660 0.9922925 0.0870660 0.0077075 -0.0870660
1544926 0.0073845 -0.0852184 0.9926155 0.0852184 0.9926155 0.0852184 0.0073845 -0.0852184
1578894 0.0070751 -0.0834087 0.9929249 0.0834087 0.9929249 0.0834087 0.0070751 -0.0834087
1613609 0.0067787 -0.0816363 0.9932213 0.0816363 0.9932213 0.0816363 0.0067787 -0.0816363
1649087 0.0064947 -0.0799004 0.9935053 0.0799004 0.9935053 0.0799004 0.0064947 -0.0799004
1685346 0.0062227 -0.0782005 0.9937773 0.0782005 0.9937773 0.0782005 0.0062227 -0.0782005
1722402 0.0059621 -0.0765357 0.9940379 0.0765357 0.9940379 0.0765357 0.0059621 -0.0765357
1760272 0.0057125 -0.0749054 0.9942875 0.0749054 0.9942875 0.0749054 0.0057125 -0.0749054
1798975 0.0054734 -0.0733090 0.9945266 0.0733090 0.9945266 0.0733090 0.0054734 -0.0733090
1838529 0.0052443 -0.0717457 0.9947557 0.0717457 0.9947557 0.0717457 0.0052443 -0.0717457
1878953 0.0050250 -0.0702150 0.9949750 0.0702150 0.9949750 0.0702150 0.0050250 -0.0702150
1920266 0.0048148 -0.0687162 0.9951852 0.0687162 0.9951852 0.0687162 0.0048148 -0.0687162
1962487 0.0046136 -0.0672487 0.9953864 0.0672487 0.9953864 0.0672487 0.0046136 -0.0672487
2005636 0.0044208 -0.0658118 0.9955792 0.0658118 0.9955792 0.0658118 0.0044208 -0.0658118
2049734 0.0042362 -0.0644050 0.9957638 0.0644050 0.9957638 0.0644050 0.0042362 -0.0644050
2094801 0.0040594 -0.0630277 0.9959406 0.0630277 0.9959406 0.0630277 0.0040594 -0.0630277
2140860 0.0038900 -0.0616792 0.9961100 0.0616792 0.9961100 0.0616792 0.0038900 -0.0616792
2187931 0.0037278 -0.0603590 0.9962722 0.0603590 0.9962722 0.0603590 0.0037278 -0.0603590
2236037 0.0035725 -0.0590665 0.9964275 0.0590665 0.9964275 0.0590665 0.0035725 -0.0590665
2285201 0.0034237 -0.0578012 0.9965763 0.0578012 0.9965763 0.0578012 0.0034237 -0.0578012
2335446 0.0032813 -0.0565625 0.9967187 0.0565625 0.9967187 0.0565625 0.0032813 -0.0565625
2386795 0.0031448 -0.0553499 0.9968552 0.0553499 0.9968552 0.0553499 0.0031448 -0.0553499
2439274 0.0030142 -0.0541628 0.9969858 0.0541628 0.9969858 0.0541628 0.0030142 -0.0541628
2492906 0.0028891 -0.0530008 0.9971109 0.0530008 0.9971109 0.0530008 0.0028891 -0.0530008
2547717 0.0027693 -0.0518632 0.9972307 0.0518632 0.9972307 0.0518632 0.0027693 -0.0518632
2603734 0.0026545 -0.0507497 0.9973455 0.0507497 0.9973455 0.0507497 0.0026545 -0.0507497
2660982 0.0025446 -0.0496596 0.9974554 0.0496596 0.9974554 0.0496596 0.0025446 -0.0496596
2719490 0.0024394 -0.0485926 0.9975606 0.0485926 0.9975606 0.0485926 0.0024394 -0.0485926
2779283 0.0023387 -0.0475482 0.9976613 0.0475482 0.9976613 0.0475482 0.0023387 -0.0475482
2840391 0.0022422 -0.0465258 0.9977578 0.0465258 0.9977578 0.0465258 0.0022422 -0.0465258
2902843 0.0021498 -0.0455251 0.9978502 0.0455251 0.9978502 0.0455251 0.0021498 -0.0455251
2966668 0.0020613 -0.0445455 0.9979387 0.0445455 0.9979387 0.0445455 0.0020613 -0.0445455
3031896 0.0019766 -0.0435867 0.9980234 0.0435867 0.9980234 0.0435867 0.0019766 -0.0435867
3098558 0.0018955 -0.0426481 0.9981045 0.0426481 0.9981045 0.0426481 0.0018955 -0.0426481
3166686 0.0018178 -0.0417295 0.9981822 0.0417295 0.9981822 0.0417295 0.0018178 -0.0417295
3236312 0.0017435 -0.0408303 0.9982565 0.0408303 0.9982565 0.0408303 0.0017435 -0.0408303
3307469 0.0016723 -0.0399502 0.9983277 0.0399502 0.9983277 0.0399502 0.0016723 -0.0399502
3380190 0.0016041 -0.0390888 0.9983959 0.0390888 0.9983959 0.0390888 0.0016041 -0.0390888
3454511 0.0015388 -0.0382456 0.9984612 0.0382456 0.9984612 0.0382456 0.0015388 -0.0382456
3530465 0.0014763 -0.0374202 0.9985237 0.0374202 0.9985237 0.0374202 0.0014763 -0.0374202
3608090 0.0014165 -0.0366124 0.9985835 0.0366124 0.9985835 0.0366124 0.0014165 -0.0366124
3687421 0.0013592 -0.0358218 0.9986408 0.0358218 0.9986408 0.0358218 0.0013592 -0.0358218
3768496 0.0013043 -0.0350478 0.9986957 0.0350478 0.9986957 0.0350478 0.0013043 -0.0350478
3851354 0.0012518 -0.0342904 0.9987482 0.0342904 0.9987482 0.0342904 0.0012518 -0.0342904
3936034 0.0012016 -0.0335489 0.9987984 0.0335489 0.9987984 0.0335489 0.0012016 -0.0335489
4022575 0.0011534 -0.0328232 0.9988466 0.0328232 0.9988466 0.0328232 0.0011534 -0.0328232
4111020 0.0011074 -0.0321129 0.9988926 0.0321129 0.9988926 0.0321129 0.0011074 -0.0321129
4201409 0.0010632 -0.0314177 0.9989368 0.0314177 0.9989368 0.0314177 0.0010632 -0.0314177
4293785 0.0010210 -0.0307372 0.9989790 0.0307372 0.9989790 0.0307372 0.0010210 -0.0307372
4388193 0.0009806 -0.0300711 0.9990194 0.0300711 0.9990194 0.0300711 0.0009806 -0.0300711
4484676 0.0009419 -0.0294192 0.9990581 0.0294192 0.9990581 0.0294192 0.0009419 -0.0294192
4583281 0.0009048 -0.0287811 0.9990952 0.0287811 0.9990952 0.0287811 0.0009048 -0.0287811
4684054 0.0008694 -0.0281565 0.9991306 0.0281565 0.9991306 0.0281565 0.0008694 -0.0281565
4787042 0.0008355 -0.0275451 0.9991645 0.0275451 0.9991645 0.0275451 0.0008355 -0.0275451
4892295 0.0008030 -0.0269467 0.9991970 0.0269467 0.9991970 0.0269467 0.0008030 -0.0269467
4999862 0.0007719 -0.0263610 0.9992281 0.0263610 0.9992281 0.0263610 0.0007719 -0.0263610
5109794 0.0007421 -0.0257877 0.9992579 0.0257877 0.9992579 0.0257877 0.0007421 -0.0257877
5222143 0.0007136 -0.0252265 0.9992864 0.0252265 0.9992864 0.0252265 0.0007136 -0.0252265
5336962 0.0006864 -0.0246772 0.9993136 0.0246772 0.9993136 0.0246772 0.0006864 -0.0246772
5454306 0.0006603 -0.0241395 0.9993397 0.0241395 0.9993397 0.0241395 0.0006603 -0.0241395
5574230 0.0006354 -0.0236131 0.9993646 0.0236131 0.9993646 0.0236131 0.0006354 -0.0236131
5696791 0.0006115 -0.0230979 0.9993885 0.0230979 0.9993885 0.0230979 0.0006115 -0.0230979
5822046 0.0005886 -0.0225936 0.9994114 0.0225936 0.9994114 0.0225936 0.0005886 -0.0225936
5950055 0.0005668 -0.0220999 0.9994332 0.0220999 0.9994332 0.0220999 0.0005668 -0.0220999
6080879 0.0005458 -0.0216167 0.9994542 0.0216167 0.9994542 0.0216167 0.0005458 -0.0216167
6214580 0.0005258 -0.0211436 0.9994742 0.0211436 0.9994742 0.0211436 0.0005258 -0.0211436
6351220 0.0005067 -0.0206805 0.9994933 0.0206805 0.9994933 0.0206805 0.0005067 -0.0206805
6490864 0.0004884 -0.0202271 0.9995116 0.0202271 0.9995116 0.0202271 0.0004884 -0.0202271
6633579 0.0004709 -0.0197833 0.9995291 0.0197833 0.9995291 0.0197833 0.0004709 -0.0197833
6779431 0.0004541 -0.0193488 0.9995459 0.0193488 0.9995459 0.0193488 0.0004541 -0.0193488
6928491 0.0004381 -0.0189235 0.9995619 0.0189235 0.9995619 0.0189235 0.0004381 -0.0189235
7080828 0.0004228 -0.0185071 0.9995772 0.0185071 0.9995772 0.0185071 0.0004228 -0.0185071
7236514 0.0004082 -0.0180994 0.9995918 0.0180994 0.9995918 0.0180994 0.0004082 -0.0180994
7395623 0.0003942 -0.0177002 0.9996058 0.0177002 0.9996058 0.0177002 0.0003942 -0.0177002
7558231 0.0003809 -0.0173094 0.9996191 0.0173094 0.9996191 0.0173094 0.0003809 -0.0173094
7724414 0.0003681 -0.0169268 0.9996319 0.0169268 0.9996319 0.0169268 0.0003681 -0.0169268
7894251 0.0003559 -0.0165522 0.9996441 0.0165522 0.9996441 0.0165522 0.0003559 -0.0165522
8067822 0.0003442 -0.0161854 0.9996558 0.0161854 0.9996558 0.0161854 0.0003442 -0.0161854
8245209 0.0003331 -0.0158263 0.9996669 0.0158263 0.9996669 0.0158263 0.0003331 -0.0158263
8426497 0.0003225 -0.0154746 0.9996775 0.0154746 0.9996775 0.0154746 0.0003225 -0.0154746
8611770 0.0003123 -0.0151303 0.9996877 0.0151303 0.9996877 0.0151303 0.0003123 -0.0151303
8801117 0.0003026 -0.0147931 0.9996974 0.0147931 0.9996974 0.0147931 0.0003026 -0.0147931
8994628 0.0002934 -0.0144629 0.9997066 0.0144629 0.9997066 0.0144629 0.0002934 -0.0144629
9192393 0.0002846 -0.0141395 0.9997154 0.0141395 0.9997154 0.0141395 0.0002846 -0.0141395
9394506 0.0002762 -0.0138228 0.9997238 0.0138228 0.9997238 0.0138228 0.0002762 -0.0138228
9601063 0.0002682 -0.0135127 0.9997318 0.0135127 0.9997318 0.0135127 0.0002682 -0.0135127
9812162 0.0002605 -0.0132089 0.9997395 0.0132089 0.9997395 0.0132089 0.0002605 -0.0132089
10027902 0.0002533 -0.0129115 0.9997467 0.0129115 0.9997467 0.0129115 0.0002533 -0.0129115
10248386 0.0002463 -0.0126201 0.9997537 0.0126201 0.9997537 0.0126201 0.0002463 -0.0126201
10473717 0.0002397 -0.0123347 0.9997603 0.0123347 0.9997603 0.0123347 0.0002397 -0.0123347
10704003 0.0002335 -0.0120551 0.9997665 0.0120551 0.9997665 0.0120551 0.0002335 -0.0120551
10939352 0.0002275 -0.0117812 0.9997725 0.0117812 0.9997725 0.0117812 0.0002275 -0.0117812
11179876 0.0002218 -0.0115130 0.9997782 0.0115130 0.9997782 0.0115130 0.0002218 -0.0115130
11425688 0.0002164 -0.0112502 0.9997836 0.0112502 0.9997836 0.0112502 0.0002164 -0.0112502
11676904 0.0002113 -0.0109927 0.9997887 0.0109927 0.9997887 0.0109927 0.0002113 -0.0109927
11933645 0.0002065 -0.0107404 0.9997935 0.0107404 0.9997935 0.0107404 0.0002065 -0.0107404
12196030 0.0002019 -0.0104932 0.9997981 0.0104932 0.9997981 0.0104932 0.0002019 -0.0104932
12464184 0.0001975 -0.0102510 0.9998025 0.0102510 0.9998025 0.0102510 0.0001975 -0.0102510
12738235 0.0001934 -0.0100137 0.9998066 0.0100137 0.9998066 0.0100137 0.0001934 -0.0100137
13018310 0.0001895 -0.0097811 0.9998105 0.0097811 0.9998105 0.0097811 0.0001895 -0.0097811
13304544 0.0001858 -0.0095532 0.9998142 0.0095532 0.9998142 0.0095532 0.0001858 -0.0095532
13597071 0.0001824 -0.0093298 0.9998176 0.0093298 0.9998176 0.0093298 0.0001824 -0.0093298
13896030 0.0001791 -0.0091108 0.9998209 0.0091108 0.9998209 0.0091108 0.0001791 -0.0091108
14201563 0.0001760 -0.0088962 0.9998240 0.0088962 0.9998240 0.0088962 0.0001760 -0.0088962
14513813 0.0001731 -0.0086858 0.9998269 0.0086858 0.9998269 0.0086858 0.0001731 -0.0086858
14832928 0.0001704 -0.0084795 0.9998296 0.0084795 0.9998296 0.0084795 0.0001704 -0.0084795
15159060 0.0001679 -0.0082773 0.9998321 0.0082773 0.9998321 0.0082773 0.0001679 -0.0082773
15492362 0.0001655 -0.0080790 0.9998345 0.0080790 0.9998345 0.0080790 0.0001655 -0.0080790
15832993 0.0001633 -0.0078845 0.9998367 0.0078845 0.9998367 0.0078845 0.0001633 -0.0078845
16181113 0.0001612 -0.0076938 0.9998388 0.0076938 0.9998388 0.0076938 0.0001612 -0.0076938
16536888 0.0001593 -0.0075068 0.9998407 0.0075068 0.9998407 0.0075068 0.0001593 -0.0075068
16900485 0.0001575 -0.0073234 0.9998425 0.0073234 0.9998425 0.0073234 0.0001575 -0.0073234
17272076 0.0001559 -0.0071434 0.9998441 0.0071434 0.9998441 0.0071434 0.0001559 -0.0071434
17651837 0.0001544 -0.0069669 0.9998456 0.0069669 0.9998456 0.0069669 0.0001544 -0.0069669
18039948 0.0001530 -0.0067936 0.9998470 0.0067936 0.9998470 0.0067936 0.0001530 -0.0067936
18436593 0.0001518 -0.0066237 0.9998482 0.0066237 0.9998482 0.0066237 0.0001518 -0.0066237
18841959 0.0001506 -0.0064569 0.9998494 0.0064569 0.9998494 0.0064569 0.0001506 -0.0064569
19256237 0.0001496 -0.0062931 0.9998504 0.0062931 0.9998504 0.0062931 0.0001496 -0.0062931
19679624 0.0001487 -0.0061324 0.9998513 0.0061324 0.9998513 0.0061324 0.0001487 -0.0061324
20112321 0.0001479 -0.0059746 0.9998521 0.0059746 0.9998521 0.0059746 0.0001479 -0.0059746
20554530 0.0001472 -0.0058197 0.9998528 0.0058197 0.9998528 0.0058197 0.0001472 -0.0058197
21006463 0.0001466 -0.0056676 0.9998534 0.0056676 0.9998534 0.0056676 0.0001466 -0.0056676
21468333 0.0001461 -0.0055182 0.9998539 0.0055182 0.9998539 0.0055182 0.0001461 -0.0055182
21940357 0.0001456 -0.0053714 0.9998544 0.0053714 0.9998544 0.0053714 0.0001456 -0.0053714
22422760 0.0001453 -0.0052272 0.9998547 0.0052272 0.9998547 0.0052272 0.0001453 -0.0052272
22915770 0.0001450 -0.0050855 0.9998550 0.0050855 0.9998550 0.0050855 0.0001450 -0.0050855
23419619 0.0001449 -0.0049463 0.9998551 0.0049463 0.9998551 0.0049463 0.0001449 -0.0049463
23934547 0.0001448 -0.0048094 0.9998552 0.0048094 0.9998552 0.0048094 0.0001448 -0.0048094
24460796 0.0001447 -0.0046748 0.9998553 0.0046748 0.9998553 0.0046748 0.0001447 -0.0046748
24998616 0.0001448 -0.0045425 0.9998552 0.0045425 0.9998552 0.0045425 0.0001448 -0.0045425
25548261 0.0001449 -0.0044124 0.9998551 0.0044124 0.9998551 0.0044124 0.0001449 -0.0044124
26109991 0.0001451 -0.0042843 0.9998549 0.0042843 0.9998549 0.0042843 0.0001451 -0.0042843
26684072 0.0001454 -0.0041584 0.9998546 0.0041584 0.9998546 0.0041584 0.0001454 -0.0041584
27270775 0.0001457 -0.0040344 0.9998543 0.0040344 0.9998543 0.0040344 0.0001457 -0.0040344
27870378 0.0001461 -0.0039124 0.9998539 0.0039124 0.9998539 0.0039124 0.0001461 -0.0039124
28483164 0.0001465 -0.0037923 0.9998535 0.0037923 0.9998535 0.0037923 0.0001465 -0.0037923
29109424 0.0001470 -0.0036740 0.9998530 0.0036740 0.9998530 0.0036740 0.0001470 -0.0036740
29749453 0.0001476 -0.0035575 0.9998524 0.0035575 0.9998524 0.0035575 0.0001476 -0.0035575
30403555 0.0001482 -0.0034426 0.9998518 0.0034426 0.9998518 0.0034426 0.0001482 -0.0034426
31072038 0.0001489 -0.0033295 0.9998511 0.0033295 0.9998511 0.0033295 0.0001489 -0.0033295
31755220 0.0001496 -0.0032179 0.9998504 0.0032179 0.9998504 0.0032179 0.0001496 -0.0032179
32453422 0.0001504 -0.0031079 0.9998496 0.0031079 0.9998496 0.0031079 0.0001504 -0.0031079
33166976 0.0001512 -0.0029993 0.9998488 0.0029993 0.9998488 0.0029993 0.0001512 -0.0029993
33896219 0.0001521 -0.0028923 0.9998479 0.0028923 0.9998479 0.0028923 0.0001521 -0.0028923
34641496 0.0001531 -0.0027866 0.9998469 0.0027866 0.9998469 0.0027866 0.0001531 -0.0027866
35403159 0.0001541 -0.0026822 0.9998459 0.0026822 0.9998459 0.0026822 0.0001541 -0.0026822
36181569 0.0001551 -0.0025791 0.9998449 0.0025791 0.9998449 0.0025791 0.0001551 -0.0025791
36977093 0.0001562 -0.0024773 0.9998438 0.0024773 0.9998438 0.0024773 0.0001562 -0.0024773
37790109 0.0001573 -0.0023767 0.9998427 0.0023767 0.9998427 0.0023767 0.0001573 -0.0023767
38621001 0.0001585 -0.0022772 0.9998415 0.0022772 0.9998415 0.0022772 0.0001585 -0.0022772
39470161 0.0001598 -0.0021787 0.9998402 0.0021787 0.9998402 0.0021787 0.0001598 -0.0021787
40337993 0.0001611 -0.0020813 0.9998389 0.0020813 0.9998389 0.0020813 0.0001611 -0.0020813
41224905 0.0001624 -0.0019850 0.9998376 0.0019850 0.9998376 0.0019850 0.0001624 -0.0019850
42131317 0.0001639 -0.0018895 0.9998361 0.0018895 0.9998361 0.0018895 0.0001639 -0.0018895
43057659 0.0001653 -0.0017949 0.9998347 0.0017949 0.9998347 0.0017949 0.0001653 -0.0017949
44004369 0.0001669 -0.0017012 0.9998331 0.0017012 0.9998331 0.0017012 0.0001669 -0.0017012
44971893 0.0001685 -0.0016083 0.9998315 0.0016083 0.9998315 0.0016083 0.0001685 -0.0016083
45960691 0.0001701 -0.0015162 0.9998299 0.0015162 0.9998299 0.0015162 0.0001701 -0.0015162
46971230 0.0001719 -0.0014247 0.9998281 0.0014247 0.9998281 0.0014247 0.0001719 -0.0014247
48003987 0.0001737 -0.0013339 0.9998263 0.0013339 0.9998263 0.0013339 0.0001737 -0.0013339
49059451 0.0001756 -0.0012437 0.9998244 0.0012437 0.9998244 0.0012437 0.0001756 -0.0012437
50138122 0.0001775 -0.0011541 0.9998225 0.0011541 0.9998225 0.0011541 0.0001775 -0.0011541
51240510 0.0001795 -0.0010650 0.9998205 0.0010650 0.9998205 0.0010650 0.0001795 -0.0010650
52367136 0.0001816 -0.0009764 0.9998184 0.0009764 0.9998184 0.0009764 0.0001816 -0.0009764
53518533 0.0001838 -0.0008882 0.9998162 0.0008882 0.9998162 0.0008882 0.0001838 -0.0008882
54695245 0.0001861 -0.0008004 0.9998139 0.0008004 0.9998139 0.0008004 0.0001861 -0.0008004
55897831 0.0001885 -0.0007129 0.9998115 0.0007129 0.9998115 0.0007129 0.0001885 -0.0007129
57126857 0.0001910 -0.0006256 0.9998090 0.0006256 0.9998090 0.0006256 0.0001910 -0.0006256
58382906 0.0001936 -0.0005387 0.9998064 0.0005387 0.9998064 0.0005387 0.0001936 -0.0005387
59666572 0.0001963 -0.0004519 0.9998037 0.0004519 0.9998037 0.0004519 0.0001963 -0.0004519
60978462 0.0001992 -0.0003652 0.9998008 0.0003652 0.9998008 0.0003652 0.0001992 -0.0003652
62319196 0.0002021 -0.0002786 0.9997979 0.0002786 0.9997979 0.0002786 0.0002021 -0.0002786
63689409 0.0002052 -0.0001921 0.9997948 0.0001921 0.9997948 0.0001921 0.0002052 -0.0001921
65089750 0.0002085 -0.0001055 0.9997915 0.0001055 0.9997915 0.0001055 0.0002085 -0.0001055
66520879 0.0002119 -0.0000189 0.9997881 0.0000189 0.9997881 0.0000189 0.0002119 -0.0000189
67983474 0.0002155 0.0000679 0.9997845 -0.0000679 0.9997845 -0.0000679 0.0002155 0.0000679
69478228 0.0002192 0.0001548 0.9997808 -0.0001548 0.9997808 -0.0001548 0.0002192 0.0001548
71005847 0.0002232 0.0002420 0.9997768 -0.0002420 0.9997768 -0.0002420 0.0002232 0.0002420
72567054 0.0002273 0.0003294 0.9997727 -0.0003294 0.9997727 -0.0003294 0.0002273 0.0003294
74162587 0.0002317 0.0004172 0.9997683 -0.0004172 0.9997683 -0.0004172 0.0002317 0.0004172
75793201 0.0002363 0.0005055 0.9997637 -0.0005055 0.9997637 -0.0005055 0.0002363 0.0005055
77459667 0.0002412 0.0005942 0.9997588 -0.0005942 0.9997588 -0.0005942 0.0002412 0.0005942
79162774 0.0002464 0.0006834 0.9997536 -0.0006834 0.9997536 -0.0006834 0.0002464 0.0006834
80903327 0.0002519 0.0007733 0.9997481 -0.0007733 0.9997481 -0.0007733 0.0002519 0.0007733
82682150 0.0002577 0.0008639 0.9997423 -0.0008639 0.9997423 -0.0008639 0.0002577 0.0008639
84500083 0.0002638 0.0009553 0.9997362 -0.0009553 0.9997362 -0.0009553 0.0002638 0.0009553
86357988 0.0002704 0.0010476 0.9997296 -0.0010476 0.9997296 -0.0010476 0.0002704 0.0010476
88256743 0.0002775 0.0011408 0.9997225 -0.0011408 0.9997225 -0.0011408 0.0002775 0.0011408
90197245 0.0002850 0.0012351 0.9997150 -0.0012351 0.9997150 -0.0012351 0.0002850 0.0012351
92180413 0.0002931 0.0013305 0.9997069 -0.0013305 0.9997069 -0.0013305 0.0002931 0.0013305
94207185 0.0003019 0.0014273 0.9996981 -0.0014273 0.9996981 -0.0014273 0.0003019 0.0014273
96278520 0.0003113 0.0015255 0.9996887 -0.0015255 0.9996887 -0.0015255 0.0003113 0.0015255
98395398 0.0003216 0.0016253 0.9996784 -0.0016253 0.9996784 -0.0016253 0.0003216 0.0016253
100558819 0.0003329 0.0017268 0.9996671 -0.0017268 0.9996671 -0.0017268 0.0003329 0.0017268
102769807 0.0003452 0.0018302 0.9996548 -0.0018302 0.9996548 -0.0018302 0.0003452 0.0018302
105029408 0.0003588 0.0019358 0.9996412 -0.0019358 0.9996412 -0.0019358 0.0003588 0.0019358
107338692 0.0003740 0.0020438 0.9996260 -0.0020438 0.9996260 -0.0020438 0.0003740 0.0020438
