!Murata Part Number: GRM21A5C2J270JWA1
!These Parameters are Measured in Series Mode Connection
!Data Generated on Mar 30, 2021
!       o--ll--o
!Port1            Port2
!       o------o
!Operation Temp=25[degC], DC Bias Voltage=0[V]
!Freq. Start=100[MHz] Stop=3[GHz] 401[Steps]
# Hz S RI R 50
!Freq.(Hz) S11(Real) S11(Imag) S21(Real) S21(Imag) S12(Real) S12(Imag) S22(Real) S22(Imag)
100000000 0.2579133 -0.4355163 0.7420867 0.4355163 0.7420867 0.4355163 0.2579133 -0.4355163
107250000 0.2318454 -0.4199300 0.7681546 0.4199300 0.7681546 0.4199300 0.2318454 -0.4199300
114500000 0.2091718 -0.4045226 0.7908282 0.4045226 0.7908282 0.4045226 0.2091718 -0.4045226
121750000 0.1893898 -0.3895071 0.8106102 0.3895071 0.8106102 0.3895071 0.1893898 -0.3895071
129000000 0.1720721 -0.3750139 0.8279279 0.3750139 0.8279279 0.3750139 0.1720721 -0.3750139
136250000 0.1568575 -0.3611167 0.8431425 0.3611167 0.8431425 0.3611167 0.1568575 -0.3611167
143500000 0.1434418 -0.3478509 0.8565582 0.3478509 0.8565582 0.3478509 0.1434418 -0.3478509
150750000 0.1315694 -0.3352261 0.8684306 0.3352261 0.8684306 0.3352261 0.1315694 -0.3352261
158000000 0.1210250 -0.3232346 0.8789750 0.3232346 0.8789750 0.3232346 0.1210250 -0.3232346
165250000 0.1116273 -0.3118584 0.8883727 0.3118584 0.8883727 0.3118584 0.1116273 -0.3118584
172500000 0.1032233 -0.3010723 0.8967767 0.3010723 0.8967767 0.3010723 0.1032233 -0.3010723
179750000 0.0956833 -0.2908478 0.9043167 0.2908478 0.9043167 0.2908478 0.0956833 -0.2908478
187000000 0.0888972 -0.2811545 0.9111028 0.2811545 0.9111028 0.2811545 0.0888972 -0.2811545
194250000 0.0827712 -0.2719615 0.9172288 0.2719615 0.9172288 0.2719615 0.0827712 -0.2719615
201500000 0.0772251 -0.2632384 0.9227749 0.2632384 0.9227749 0.2632384 0.0772251 -0.2632384
208750000 0.0721903 -0.2549558 0.9278097 0.2549558 0.9278097 0.2549558 0.0721903 -0.2549558
216000000 0.0676074 -0.2470856 0.9323926 0.2470856 0.9323926 0.2470856 0.0676074 -0.2470856
223250000 0.0634256 -0.2396011 0.9365744 0.2396011 0.9365744 0.2396011 0.0634256 -0.2396011
230500000 0.0596004 -0.2324773 0.9403996 0.2324773 0.9403996 0.2324773 0.0596004 -0.2324773
237750000 0.0560935 -0.2256909 0.9439065 0.2256909 0.9439065 0.2256909 0.0560935 -0.2256909
245000000 0.0528713 -0.2192199 0.9471287 0.2192199 0.9471287 0.2192199 0.0528713 -0.2192199
252250000 0.0499046 -0.2130441 0.9500954 0.2130441 0.9500954 0.2130441 0.0499046 -0.2130441
259500000 0.0471677 -0.2071446 0.9528323 0.2071446 0.9528323 0.2071446 0.0471677 -0.2071446
266750000 0.0446379 -0.2015039 0.9553621 0.2015039 0.9553621 0.2015039 0.0446379 -0.2015039
274000000 0.0422954 -0.1961057 0.9577046 0.1961057 0.9577046 0.1961057 0.0422954 -0.1961057
281250000 0.0401224 -0.1909351 0.9598776 0.1909351 0.9598776 0.1909351 0.0401224 -0.1909351
288500000 0.0381034 -0.1859780 0.9618966 0.1859780 0.9618966 0.1859780 0.0381034 -0.1859780
295750000 0.0362245 -0.1812216 0.9637755 0.1812216 0.9637755 0.1812216 0.0362245 -0.1812216
303000000 0.0344733 -0.1766538 0.9655267 0.1766538 0.9655267 0.1766538 0.0344733 -0.1766538
310250000 0.0328387 -0.1722635 0.9671613 0.1722635 0.9671613 0.1722635 0.0328387 -0.1722635
317500000 0.0313109 -0.1680405 0.9686891 0.1680405 0.9686891 0.1680405 0.0313109 -0.1680405
324750000 0.0298809 -0.1639751 0.9701191 0.1639751 0.9701191 0.1639751 0.0298809 -0.1639751
332000000 0.0285408 -0.1600585 0.9714592 0.1600585 0.9714592 0.1600585 0.0285408 -0.1600585
339250000 0.0272834 -0.1562823 0.9727166 0.1562823 0.9727166 0.1562823 0.0272834 -0.1562823
346500000 0.0261022 -0.1526389 0.9738978 0.1526389 0.9738978 0.1526389 0.0261022 -0.1526389
353750000 0.0249913 -0.1491210 0.9750087 0.1491210 0.9750087 0.1491210 0.0249913 -0.1491210
361000000 0.0239455 -0.1457220 0.9760545 0.1457220 0.9760545 0.1457220 0.0239455 -0.1457220
368250000 0.0229598 -0.1424356 0.9770402 0.1424356 0.9770402 0.1424356 0.0229598 -0.1424356
375500000 0.0220299 -0.1392560 0.9779701 0.1392560 0.9779701 0.1392560 0.0220299 -0.1392560
382750000 0.0211518 -0.1361777 0.9788482 0.1361777 0.9788482 0.1361777 0.0211518 -0.1361777
390000000 0.0203219 -0.1331957 0.9796781 0.1331957 0.9796781 0.1331957 0.0203219 -0.1331957
397250000 0.0195368 -0.1303051 0.9804632 0.1303051 0.9804632 0.1303051 0.0195368 -0.1303051
404500000 0.0187934 -0.1275015 0.9812066 0.1275015 0.9812066 0.1275015 0.0187934 -0.1275015
411750000 0.0180891 -0.1247807 0.9819109 0.1247807 0.9819109 0.1247807 0.0180891 -0.1247807
419000000 0.0174211 -0.1221388 0.9825789 0.1221388 0.9825789 0.1221388 0.0174211 -0.1221388
426250000 0.0167872 -0.1195720 0.9832128 0.1195720 0.9832128 0.1195720 0.0167872 -0.1195720
433500000 0.0161852 -0.1170768 0.9838148 0.1170768 0.9838148 0.1170768 0.0161852 -0.1170768
440750000 0.0156130 -0.1146501 0.9843870 0.1146501 0.9843870 0.1146501 0.0156130 -0.1146501
448000000 0.0150689 -0.1122887 0.9849311 0.1122887 0.9849311 0.1122887 0.0150689 -0.1122887
455250000 0.0145511 -0.1099897 0.9854489 0.1099897 0.9854489 0.1099897 0.0145511 -0.1099897
462500000 0.0140581 -0.1077504 0.9859419 0.1077504 0.9859419 0.1077504 0.0140581 -0.1077504
469750000 0.0135884 -0.1055681 0.9864116 0.1055681 0.9864116 0.1055681 0.0135884 -0.1055681
477000000 0.0131407 -0.1034406 0.9868593 0.1034406 0.9868593 0.1034406 0.0131407 -0.1034406
484250000 0.0127136 -0.1013653 0.9872864 0.1013653 0.9872864 0.1013653 0.0127136 -0.1013653
491500000 0.0123061 -0.0993403 0.9876939 0.0993403 0.9876939 0.0993403 0.0123061 -0.0993403
498750000 0.0119170 -0.0973633 0.9880830 0.0973633 0.9880830 0.0973633 0.0119170 -0.0973633
506000000 0.0115454 -0.0954325 0.9884546 0.0954325 0.9884546 0.0954325 0.0115454 -0.0954325
513250000 0.0111902 -0.0935460 0.9888098 0.0935460 0.9888098 0.0935460 0.0111902 -0.0935460
520500000 0.0108507 -0.0917021 0.9891493 0.0917021 0.9891493 0.0917021 0.0108507 -0.0917021
527750000 0.0105260 -0.0898990 0.9894740 0.0898990 0.9894740 0.0898990 0.0105260 -0.0898990
535000000 0.0102154 -0.0881353 0.9897846 0.0881353 0.9897846 0.0881353 0.0102154 -0.0881353
542250000 0.0099180 -0.0864093 0.9900820 0.0864093 0.9900820 0.0864093 0.0099180 -0.0864093
549500000 0.0096334 -0.0847197 0.9903666 0.0847197 0.9903666 0.0847197 0.0096334 -0.0847197
556750000 0.0093607 -0.0830651 0.9906393 0.0830651 0.9906393 0.0830651 0.0093607 -0.0830651
564000000 0.0090995 -0.0814443 0.9909005 0.0814443 0.9909005 0.0814443 0.0090995 -0.0814443
571250000 0.0088492 -0.0798559 0.9911508 0.0798559 0.9911508 0.0798559 0.0088492 -0.0798559
578500000 0.0086093 -0.0782988 0.9913907 0.0782988 0.9913907 0.0782988 0.0086093 -0.0782988
585750000 0.0083792 -0.0767720 0.9916208 0.0767720 0.9916208 0.0767720 0.0083792 -0.0767720
593000000 0.0081586 -0.0752742 0.9918414 0.0752742 0.9918414 0.0752742 0.0081586 -0.0752742
600250000 0.0079470 -0.0738046 0.9920530 0.0738046 0.9920530 0.0738046 0.0079470 -0.0738046
607500000 0.0077440 -0.0723621 0.9922560 0.0723621 0.9922560 0.0723621 0.0077440 -0.0723621
614750000 0.0075492 -0.0709459 0.9924508 0.0709459 0.9924508 0.0709459 0.0075492 -0.0709459
622000000 0.0073622 -0.0695549 0.9926378 0.0695549 0.9926378 0.0695549 0.0073622 -0.0695549
629250000 0.0071828 -0.0681885 0.9928172 0.0681885 0.9928172 0.0681885 0.0071828 -0.0681885
636500000 0.0070105 -0.0668457 0.9929895 0.0668457 0.9929895 0.0668457 0.0070105 -0.0668457
643750000 0.0068452 -0.0655258 0.9931548 0.0655258 0.9931548 0.0655258 0.0068452 -0.0655258
651000000 0.0066864 -0.0642281 0.9933136 0.0642281 0.9933136 0.0642281 0.0066864 -0.0642281
658250000 0.0065340 -0.0629518 0.9934660 0.0629518 0.9934660 0.0629518 0.0065340 -0.0629518
665500000 0.0063876 -0.0616963 0.9936124 0.0616963 0.9936124 0.0616963 0.0063876 -0.0616963
672750000 0.0062471 -0.0604609 0.9937529 0.0604609 0.9937529 0.0604609 0.0062471 -0.0604609
680000000 0.0061121 -0.0592449 0.9938879 0.0592449 0.9938879 0.0592449 0.0061121 -0.0592449
687250000 0.0059826 -0.0580479 0.9940174 0.0580479 0.9940174 0.0580479 0.0059826 -0.0580479
694500000 0.0058582 -0.0568691 0.9941418 0.0568691 0.9941418 0.0568691 0.0058582 -0.0568691
701750000 0.0057388 -0.0557081 0.9942612 0.0557081 0.9942612 0.0557081 0.0057388 -0.0557081
709000000 0.0056241 -0.0545643 0.9943759 0.0545643 0.9943759 0.0545643 0.0056241 -0.0545643
716250000 0.0055141 -0.0534372 0.9944859 0.0534372 0.9944859 0.0534372 0.0055141 -0.0534372
723500000 0.0054085 -0.0523263 0.9945915 0.0523263 0.9945915 0.0523263 0.0054085 -0.0523263
730750000 0.0053072 -0.0512311 0.9946928 0.0512311 0.9946928 0.0512311 0.0053072 -0.0512311
738000000 0.0052101 -0.0501512 0.9947899 0.0501512 0.9947899 0.0501512 0.0052101 -0.0501512
745250000 0.0051169 -0.0490861 0.9948831 0.0490861 0.9948831 0.0490861 0.0051169 -0.0490861
752500000 0.0050276 -0.0480355 0.9949724 0.0480355 0.9949724 0.0480355 0.0050276 -0.0480355
759750000 0.0049419 -0.0469989 0.9950581 0.0469989 0.9950581 0.0469989 0.0049419 -0.0469989
767000000 0.0048599 -0.0459759 0.9951401 0.0459759 0.9951401 0.0459759 0.0048599 -0.0459759
774250000 0.0047813 -0.0449661 0.9952187 0.0449661 0.9952187 0.0449661 0.0047813 -0.0449661
781500000 0.0047061 -0.0439692 0.9952939 0.0439692 0.9952939 0.0439692 0.0047061 -0.0439692
788750000 0.0046341 -0.0429848 0.9953659 0.0429848 0.9953659 0.0429848 0.0046341 -0.0429848
796000000 0.0045653 -0.0420127 0.9954347 0.0420127 0.9954347 0.0420127 0.0045653 -0.0420127
803250000 0.0044995 -0.0410523 0.9955005 0.0410523 0.9955005 0.0410523 0.0044995 -0.0410523
810500000 0.0044366 -0.0401036 0.9955634 0.0401036 0.9955634 0.0401036 0.0044366 -0.0401036
817750000 0.0043766 -0.0391661 0.9956234 0.0391661 0.9956234 0.0391661 0.0043766 -0.0391661
825000000 0.0043193 -0.0382395 0.9956807 0.0382395 0.9956807 0.0382395 0.0043193 -0.0382395
832250000 0.0042648 -0.0373236 0.9957352 0.0373236 0.9957352 0.0373236 0.0042648 -0.0373236
839500000 0.0042128 -0.0364180 0.9957872 0.0364180 0.9957872 0.0364180 0.0042128 -0.0364180
846750000 0.0041634 -0.0355226 0.9958366 0.0355226 0.9958366 0.0355226 0.0041634 -0.0355226
854000000 0.0041164 -0.0346371 0.9958836 0.0346371 0.9958836 0.0346371 0.0041164 -0.0346371
861250000 0.0040718 -0.0337611 0.9959282 0.0337611 0.9959282 0.0337611 0.0040718 -0.0337611
868500000 0.0040295 -0.0328946 0.9959705 0.0328946 0.9959705 0.0328946 0.0040295 -0.0328946
875750000 0.0039894 -0.0320372 0.9960106 0.0320372 0.9960106 0.0320372 0.0039894 -0.0320372
883000000 0.0039516 -0.0311887 0.9960484 0.0311887 0.9960484 0.0311887 0.0039516 -0.0311887
890250000 0.0039158 -0.0303489 0.9960842 0.0303489 0.9960842 0.0303489 0.0039158 -0.0303489
897500000 0.0038822 -0.0295176 0.9961178 0.0295176 0.9961178 0.0295176 0.0038822 -0.0295176
904750000 0.0038505 -0.0286946 0.9961495 0.0286946 0.9961495 0.0286946 0.0038505 -0.0286946
912000000 0.0038209 -0.0278797 0.9961791 0.0278797 0.9961791 0.0278797 0.0038209 -0.0278797
919250000 0.0037931 -0.0270726 0.9962069 0.0270726 0.9962069 0.0270726 0.0037931 -0.0270726
926500000 0.0037672 -0.0262733 0.9962328 0.0262733 0.9962328 0.0262733 0.0037672 -0.0262733
933750000 0.0037431 -0.0254815 0.9962569 0.0254815 0.9962569 0.0254815 0.0037431 -0.0254815
941000000 0.0037208 -0.0246971 0.9962792 0.0246971 0.9962792 0.0246971 0.0037208 -0.0246971
948250000 0.0037003 -0.0239198 0.9962997 0.0239198 0.9962997 0.0239198 0.0037003 -0.0239198
955500000 0.0036814 -0.0231495 0.9963186 0.0231495 0.9963186 0.0231495 0.0036814 -0.0231495
962750000 0.0036642 -0.0223861 0.9963358 0.0223861 0.9963358 0.0223861 0.0036642 -0.0223861
970000000 0.0036485 -0.0216295 0.9963515 0.0216295 0.9963515 0.0216295 0.0036485 -0.0216295
977250000 0.0036345 -0.0208793 0.9963655 0.0208793 0.9963655 0.0208793 0.0036345 -0.0208793
984500000 0.0036220 -0.0201356 0.9963780 0.0201356 0.9963780 0.0201356 0.0036220 -0.0201356
991750000 0.0036110 -0.0193981 0.9963890 0.0193981 0.9963890 0.0193981 0.0036110 -0.0193981
999000000 0.0036015 -0.0186667 0.9963985 0.0186667 0.9963985 0.0186667 0.0036015 -0.0186667
1006250000 0.0035934 -0.0179413 0.9964066 0.0179413 0.9964066 0.0179413 0.0035934 -0.0179413
1013500000 0.0035868 -0.0172218 0.9964132 0.0172218 0.9964132 0.0172218 0.0035868 -0.0172218
1020750000 0.0035815 -0.0165080 0.9964185 0.0165080 0.9964185 0.0165080 0.0035815 -0.0165080
1028000000 0.0035776 -0.0157998 0.9964224 0.0157998 0.9964224 0.0157998 0.0035776 -0.0157998
1035250000 0.0035750 -0.0150971 0.9964250 0.0150971 0.9964250 0.0150971 0.0035750 -0.0150971
1042500000 0.0035737 -0.0143998 0.9964263 0.0143998 0.9964263 0.0143998 0.0035737 -0.0143998
1049750000 0.0035736 -0.0137077 0.9964264 0.0137077 0.9964264 0.0137077 0.0035736 -0.0137077
1057000000 0.0035749 -0.0130208 0.9964251 0.0130208 0.9964251 0.0130208 0.0035749 -0.0130208
1064250000 0.0035773 -0.0123389 0.9964227 0.0123389 0.9964227 0.0123389 0.0035773 -0.0123389
1071500000 0.0035810 -0.0116619 0.9964190 0.0116619 0.9964190 0.0116619 0.0035810 -0.0116619
1078750000 0.0035858 -0.0109898 0.9964142 0.0109898 0.9964142 0.0109898 0.0035858 -0.0109898
1086000000 0.0035918 -0.0103223 0.9964082 0.0103223 0.9964082 0.0103223 0.0035918 -0.0103223
1093250000 0.0035990 -0.0096596 0.9964010 0.0096596 0.9964010 0.0096596 0.0035990 -0.0096596
1100500000 0.0036072 -0.0090013 0.9963928 0.0090013 0.9963928 0.0090013 0.0036072 -0.0090013
1107750000 0.0036166 -0.0083475 0.9963834 0.0083475 0.9963834 0.0083475 0.0036166 -0.0083475
1115000000 0.0036270 -0.0076980 0.9963730 0.0076980 0.9963730 0.0076980 0.0036270 -0.0076980
1122250000 0.0036385 -0.0070528 0.9963615 0.0070528 0.9963615 0.0070528 0.0036385 -0.0070528
1129500000 0.0036511 -0.0064118 0.9963489 0.0064118 0.9963489 0.0064118 0.0036511 -0.0064118
1136750000 0.0036647 -0.0057749 0.9963353 0.0057749 0.9963353 0.0057749 0.0036647 -0.0057749
1144000000 0.0036793 -0.0051420 0.9963207 0.0051420 0.9963207 0.0051420 0.0036793 -0.0051420
1151250000 0.0036949 -0.0045130 0.9963051 0.0045130 0.9963051 0.0045130 0.0036949 -0.0045130
1158500000 0.0037115 -0.0038879 0.9962885 0.0038879 0.9962885 0.0038879 0.0037115 -0.0038879
1165750000 0.0037290 -0.0032666 0.9962710 0.0032666 0.9962710 0.0032666 0.0037290 -0.0032666
1173000000 0.0037475 -0.0026490 0.9962525 0.0026490 0.9962525 0.0026490 0.0037475 -0.0026490
1180250000 0.0037670 -0.0020350 0.9962330 0.0020350 0.9962330 0.0020350 0.0037670 -0.0020350
1187500000 0.0037874 -0.0014246 0.9962126 0.0014246 0.9962126 0.0014246 0.0037874 -0.0014246
1194750000 0.0038087 -0.0008177 0.9961913 0.0008177 0.9961913 0.0008177 0.0038087 -0.0008177
1202000000 0.0038309 -0.0002143 0.9961691 0.0002143 0.9961691 0.0002143 0.0038309 -0.0002143
1209250000 0.0038539 0.0003858 0.9961461 -0.0003858 0.9961461 -0.0003858 0.0038539 0.0003858
1216500000 0.0038779 0.0009826 0.9961221 -0.0009826 0.9961221 -0.0009826 0.0038779 0.0009826
1223750000 0.0039028 0.0015762 0.9960972 -0.0015762 0.9960972 -0.0015762 0.0039028 0.0015762
1231000000 0.0039285 0.0021666 0.9960715 -0.0021666 0.9960715 -0.0021666 0.0039285 0.0021666
1238250000 0.0039550 0.0027539 0.9960450 -0.0027539 0.9960450 -0.0027539 0.0039550 0.0027539
1245500000 0.0039824 0.0033381 0.9960176 -0.0033381 0.9960176 -0.0033381 0.0039824 0.0033381
1252750000 0.0040106 0.0039193 0.9959894 -0.0039193 0.9959894 -0.0039193 0.0040106 0.0039193
1260000000 0.0040396 0.0044975 0.9959604 -0.0044975 0.9959604 -0.0044975 0.0040396 0.0044975
1267250000 0.0040695 0.0050728 0.9959305 -0.0050728 0.9959305 -0.0050728 0.0040695 0.0050728
1274500000 0.0041001 0.0056454 0.9958999 -0.0056454 0.9958999 -0.0056454 0.0041001 0.0056454
1281750000 0.0041315 0.0062151 0.9958685 -0.0062151 0.9958685 -0.0062151 0.0041315 0.0062151
1289000000 0.0041638 0.0067821 0.9958362 -0.0067821 0.9958362 -0.0067821 0.0041638 0.0067821
1296250000 0.0041967 0.0073463 0.9958033 -0.0073463 0.9958033 -0.0073463 0.0041967 0.0073463
1303500000 0.0042305 0.0079080 0.9957695 -0.0079080 0.9957695 -0.0079080 0.0042305 0.0079080
1310750000 0.0042650 0.0084671 0.9957350 -0.0084671 0.9957350 -0.0084671 0.0042650 0.0084671
1318000000 0.0043003 0.0090236 0.9956997 -0.0090236 0.9956997 -0.0090236 0.0043003 0.0090236
1325250000 0.0043363 0.0095776 0.9956637 -0.0095776 0.9956637 -0.0095776 0.0043363 0.0095776
1332500000 0.0043731 0.0101291 0.9956269 -0.0101291 0.9956269 -0.0101291 0.0043731 0.0101291
1339750000 0.0044106 0.0106783 0.9955894 -0.0106783 0.9955894 -0.0106783 0.0044106 0.0106783
1347000000 0.0044488 0.0112251 0.9955512 -0.0112251 0.9955512 -0.0112251 0.0044488 0.0112251
1354250000 0.0044877 0.0117695 0.9955123 -0.0117695 0.9955123 -0.0117695 0.0044877 0.0117695
1361500000 0.0045274 0.0123117 0.9954726 -0.0123117 0.9954726 -0.0123117 0.0045274 0.0123117
1368750000 0.0045677 0.0128516 0.9954323 -0.0128516 0.9954323 -0.0128516 0.0045677 0.0128516
1376000000 0.0046088 0.0133893 0.9953912 -0.0133893 0.9953912 -0.0133893 0.0046088 0.0133893
1383250000 0.0046505 0.0139249 0.9953495 -0.0139249 0.9953495 -0.0139249 0.0046505 0.0139249
1390500000 0.0046930 0.0144583 0.9953070 -0.0144583 0.9953070 -0.0144583 0.0046930 0.0144583
1397750000 0.0047361 0.0149896 0.9952639 -0.0149896 0.9952639 -0.0149896 0.0047361 0.0149896
1405000000 0.0047799 0.0155189 0.9952201 -0.0155189 0.9952201 -0.0155189 0.0047799 0.0155189
1412250000 0.0048244 0.0160462 0.9951756 -0.0160462 0.9951756 -0.0160462 0.0048244 0.0160462
1419500000 0.0048696 0.0165714 0.9951304 -0.0165714 0.9951304 -0.0165714 0.0048696 0.0165714
1426750000 0.0049154 0.0170947 0.9950846 -0.0170947 0.9950846 -0.0170947 0.0049154 0.0170947
1434000000 0.0049619 0.0176161 0.9950381 -0.0176161 0.9950381 -0.0176161 0.0049619 0.0176161
1441250000 0.0050091 0.0181357 0.9949909 -0.0181357 0.9949909 -0.0181357 0.0050091 0.0181357
1448500000 0.0050569 0.0186533 0.9949431 -0.0186533 0.9949431 -0.0186533 0.0050569 0.0186533
1455750000 0.0051053 0.0191692 0.9948947 -0.0191692 0.9948947 -0.0191692 0.0051053 0.0191692
1463000000 0.0051544 0.0196832 0.9948456 -0.0196832 0.9948456 -0.0196832 0.0051544 0.0196832
1470250000 0.0052042 0.0201955 0.9947958 -0.0201955 0.9947958 -0.0201955 0.0052042 0.0201955
1477500000 0.0052546 0.0207061 0.9947454 -0.0207061 0.9947454 -0.0207061 0.0052546 0.0207061
1484750000 0.0053056 0.0212150 0.9946944 -0.0212150 0.9946944 -0.0212150 0.0053056 0.0212150
1492000000 0.0053573 0.0217222 0.9946427 -0.0217222 0.9946427 -0.0217222 0.0053573 0.0217222
1499250000 0.0054096 0.0222278 0.9945904 -0.0222278 0.9945904 -0.0222278 0.0054096 0.0222278
1506500000 0.0054625 0.0227317 0.9945375 -0.0227317 0.9945375 -0.0227317 0.0054625 0.0227317
1513750000 0.0055161 0.0232341 0.9944839 -0.0232341 0.9944839 -0.0232341 0.0055161 0.0232341
1521000000 0.0055703 0.0237349 0.9944297 -0.0237349 0.9944297 -0.0237349 0.0055703 0.0237349
1528250000 0.0056251 0.0242342 0.9943749 -0.0242342 0.9943749 -0.0242342 0.0056251 0.0242342
1535500000 0.0056805 0.0247319 0.9943195 -0.0247319 0.9943195 -0.0247319 0.0056805 0.0247319
1542750000 0.0057365 0.0252282 0.9942635 -0.0252282 0.9942635 -0.0252282 0.0057365 0.0252282
1550000000 0.0057932 0.0257231 0.9942068 -0.0257231 0.9942068 -0.0257231 0.0057932 0.0257231
1557250000 0.0058504 0.0262165 0.9941496 -0.0262165 0.9941496 -0.0262165 0.0058504 0.0262165
1564500000 0.0059083 0.0267084 0.9940917 -0.0267084 0.9940917 -0.0267084 0.0059083 0.0267084
1571750000 0.0059667 0.0271991 0.9940333 -0.0271991 0.9940333 -0.0271991 0.0059667 0.0271991
1579000000 0.0060258 0.0276883 0.9939742 -0.0276883 0.9939742 -0.0276883 0.0060258 0.0276883
1586250000 0.0060855 0.0281762 0.9939145 -0.0281762 0.9939145 -0.0281762 0.0060855 0.0281762
1593500000 0.0061458 0.0286628 0.9938542 -0.0286628 0.9938542 -0.0286628 0.0061458 0.0286628
1600750000 0.0062066 0.0291481 0.9937934 -0.0291481 0.9937934 -0.0291481 0.0062066 0.0291481
1608000000 0.0062681 0.0296321 0.9937319 -0.0296321 0.9937319 -0.0296321 0.0062681 0.0296321
1615250000 0.0063302 0.0301149 0.9936698 -0.0301149 0.9936698 -0.0301149 0.0063302 0.0301149
1622500000 0.0063928 0.0305965 0.9936072 -0.0305965 0.9936072 -0.0305965 0.0063928 0.0305965
1629750000 0.0064561 0.0310768 0.9935439 -0.0310768 0.9935439 -0.0310768 0.0064561 0.0310768
