!Murata Part Number: GRM2162C2A121JA01
!These Parameters are Measured in Series Mode Connection
!Data Generated on Mar 30, 2021
!       o--ll--o
!Port1            Port2
!       o------o
!Operation Temp=25[degC], DC Bias Voltage=0[V]
!Freq. Start=100[MHz] Stop=9[GHz] 401[Steps]
# Hz S RI R 50
!Freq.(Hz) S11(Real) S11(Imag) S21(Real) S21(Imag) S12(Real) S12(Imag) S22(Real) S22(Imag)
100000000 0.0175289 -0.1274727 0.9824711 0.1274727 0.9824711 0.1274727 0.0175289 -0.1274727
121000000 0.0121301 -0.1048854 0.9878699 0.1048854 0.9878699 0.1048854 0.0121301 -0.1048854
142000000 0.0089205 -0.0886036 0.9910795 0.0886036 0.9910795 0.0886036 0.0089205 -0.0886036
163000000 0.0068632 -0.0762745 0.9931368 0.0762745 0.9931368 0.0762745 0.0068632 -0.0762745
184000000 0.0054692 -0.0665800 0.9945308 0.0665800 0.9945308 0.0665800 0.0054692 -0.0665800
205000000 0.0044838 -0.0587268 0.9955162 0.0587268 0.9955162 0.0587268 0.0044838 -0.0587268
226000000 0.0037639 -0.0522100 0.9962361 0.0522100 0.9962361 0.0522100 0.0037639 -0.0522100
247000000 0.0032240 -0.0466933 0.9967760 0.0466933 0.9967760 0.0466933 0.0032240 -0.0466933
268000000 0.0028107 -0.0419442 0.9971893 0.0419442 0.9971893 0.0419442 0.0028107 -0.0419442
289000000 0.0024890 -0.0377970 0.9975110 0.0377970 0.9975110 0.0377970 0.0024890 -0.0377970
310000000 0.0022354 -0.0341302 0.9977646 0.0341302 0.9977646 0.0341302 0.0022354 -0.0341302
331000000 0.0020335 -0.0308531 0.9979665 0.0308531 0.9979665 0.0308531 0.0020335 -0.0308531
352000000 0.0018716 -0.0278963 0.9981284 0.0278963 0.9981284 0.0278963 0.0018716 -0.0278963
373000000 0.0017414 -0.0252060 0.9982586 0.0252060 0.9982586 0.0252060 0.0017414 -0.0252060
394000000 0.0016365 -0.0227396 0.9983635 0.0227396 0.9983635 0.0227396 0.0016365 -0.0227396
415000000 0.0015521 -0.0204633 0.9984479 0.0204633 0.9984479 0.0204633 0.0015521 -0.0204633
436000000 0.0014846 -0.0183495 0.9985154 0.0183495 0.9985154 0.0183495 0.0014846 -0.0183495
457000000 0.0014312 -0.0163760 0.9985688 0.0163760 0.9985688 0.0163760 0.0014312 -0.0163760
478000000 0.0013897 -0.0145241 0.9986103 0.0145241 0.9986103 0.0145241 0.0013897 -0.0145241
499000000 0.0013583 -0.0127786 0.9986417 0.0127786 0.9986417 0.0127786 0.0013583 -0.0127786
520000000 0.0013356 -0.0111263 0.9986644 0.0111263 0.9986644 0.0111263 0.0013356 -0.0111263
541000000 0.0013204 -0.0095564 0.9986796 0.0095564 0.9986796 0.0095564 0.0013204 -0.0095564
562000000 0.0013118 -0.0080596 0.9986882 0.0080596 0.9986882 0.0080596 0.0013118 -0.0080596
583000000 0.0013091 -0.0066278 0.9986909 0.0066278 0.9986909 0.0066278 0.0013091 -0.0066278
604000000 0.0013115 -0.0052541 0.9986885 0.0052541 0.9986885 0.0052541 0.0013115 -0.0052541
625000000 0.0013187 -0.0039326 0.9986813 0.0039326 0.9986813 0.0039326 0.0013187 -0.0039326
646000000 0.0013300 -0.0026580 0.9986700 0.0026580 0.9986700 0.0026580 0.0013300 -0.0026580
667000000 0.0013452 -0.0014258 0.9986548 0.0014258 0.9986548 0.0014258 0.0013452 -0.0014258
688000000 0.0013640 -0.0002318 0.9986360 0.0002318 0.9986360 0.0002318 0.0013640 -0.0002318
709000000 0.0013860 0.0009273 0.9986140 -0.0009273 0.9986140 -0.0009273 0.0013860 0.0009273
730000000 0.0014111 0.0020549 0.9985889 -0.0020549 0.9985889 -0.0020549 0.0014111 0.0020549
751000000 0.0014391 0.0031536 0.9985609 -0.0031536 0.9985609 -0.0031536 0.0014391 0.0031536
772000000 0.0014699 0.0042262 0.9985301 -0.0042262 0.9985301 -0.0042262 0.0014699 0.0042262
793000000 0.0015032 0.0052747 0.9984968 -0.0052747 0.9984968 -0.0052747 0.0015032 0.0052747
814000000 0.0015391 0.0063014 0.9984609 -0.0063014 0.9984609 -0.0063014 0.0015391 0.0063014
835000000 0.0015774 0.0073079 0.9984226 -0.0073079 0.9984226 -0.0073079 0.0015774 0.0073079
856000000 0.0016181 0.0082961 0.9983819 -0.0082961 0.9983819 -0.0082961 0.0016181 0.0082961
877000000 0.0016611 0.0092675 0.9983389 -0.0092675 0.9983389 -0.0092675 0.0016611 0.0092675
898000000 0.0017064 0.0102234 0.9982936 -0.0102234 0.9982936 -0.0102234 0.0017064 0.0102234
919000000 0.0017540 0.0111652 0.9982460 -0.0111652 0.9982460 -0.0111652 0.0017540 0.0111652
940000000 0.0018040 0.0120941 0.9981960 -0.0120941 0.9981960 -0.0120941 0.0018040 0.0120941
961000000 0.0018562 0.0130111 0.9981438 -0.0130111 0.9981438 -0.0130111 0.0018562 0.0130111
982000000 0.0019107 0.0139173 0.9980893 -0.0139173 0.9980893 -0.0139173 0.0019107 0.0139173
1003000000 0.0019677 0.0148136 0.9980323 -0.0148136 0.9980323 -0.0148136 0.0019677 0.0148136
1024000000 0.0020271 0.0157010 0.9979729 -0.0157010 0.9979729 -0.0157010 0.0020271 0.0157010
1045000000 0.0020890 0.0165803 0.9979110 -0.0165803 0.9979110 -0.0165803 0.0020890 0.0165803
1066000000 0.0021535 0.0174522 0.9978465 -0.0174522 0.9978465 -0.0174522 0.0021535 0.0174522
1087000000 0.0022208 0.0183176 0.9977792 -0.0183176 0.9977792 -0.0183176 0.0022208 0.0183176
1108000000 0.0022909 0.0191771 0.9977091 -0.0191771 0.9977091 -0.0191771 0.0022909 0.0191771
1129000000 0.0023640 0.0200314 0.9976360 -0.0200314 0.9976360 -0.0200314 0.0023640 0.0200314
1150000000 0.0024402 0.0208812 0.9975598 -0.0208812 0.9975598 -0.0208812 0.0024402 0.0208812
1171000000 0.0025198 0.0217272 0.9974802 -0.0217272 0.9974802 -0.0217272 0.0025198 0.0217272
1192000000 0.0026030 0.0225699 0.9973970 -0.0225699 0.9973970 -0.0225699 0.0026030 0.0225699
1213000000 0.0026900 0.0234100 0.9973100 -0.0234100 0.9973100 -0.0234100 0.0026900 0.0234100
1234000000 0.0027811 0.0242480 0.9972189 -0.0242480 0.9972189 -0.0242480 0.0027811 0.0242480
1255000000 0.0028767 0.0250845 0.9971233 -0.0250845 0.9971233 -0.0250845 0.0028767 0.0250845
1276000000 0.0029771 0.0259202 0.9970229 -0.0259202 0.9970229 -0.0259202 0.0029771 0.0259202
1297000000 0.0030828 0.0267556 0.9969172 -0.0267556 0.9969172 -0.0267556 0.0030828 0.0267556
1318000000 0.0031943 0.0275912 0.9968057 -0.0275912 0.9968057 -0.0275912 0.0031943 0.0275912
1339000000 0.0033122 0.0284277 0.9966878 -0.0284277 0.9966878 -0.0284277 0.0033122 0.0284277
1360000000 0.0034372 0.0292656 0.9965628 -0.0292656 0.9965628 -0.0292656 0.0034372 0.0292656
1381000000 0.0035700 0.0301055 0.9964300 -0.0301055 0.9964300 -0.0301055 0.0035700 0.0301055
1402000000 0.0037117 0.0309479 0.9962883 -0.0309479 0.9962883 -0.0309479 0.0037117 0.0309479
1423000000 0.0038632 0.0317934 0.9961368 -0.0317934 0.9961368 -0.0317934 0.0038632 0.0317934
1444000000 0.0040258 0.0326425 0.9959742 -0.0326425 0.9959742 -0.0326425 0.0040258 0.0326425
1465000000 0.0042011 0.0334957 0.9957989 -0.0334957 0.9957989 -0.0334957 0.0042011 0.0334957
1486000000 0.0043908 0.0343534 0.9956092 -0.0343534 0.9956092 -0.0343534 0.0043908 0.0343534
1507000000 0.0045970 0.0352159 0.9954030 -0.0352159 0.9954030 -0.0352159 0.0045970 0.0352159
1528000000 0.0048222 0.0360833 0.9951778 -0.0360833 0.9951778 -0.0360833 0.0048222 0.0360833
1549000000 0.0050691 0.0369557 0.9949309 -0.0369557 0.9949309 -0.0369557 0.0050691 0.0369557
1570000000 0.0053414 0.0378325 0.9946586 -0.0378325 0.9946586 -0.0378325 0.0053414 0.0378325
1591000000 0.0056432 0.0387129 0.9943568 -0.0387129 0.9943568 -0.0387129 0.0056432 0.0387129
1612000000 0.0059791 0.0395952 0.9940209 -0.0395952 0.9940209 -0.0395952 0.0059791 0.0395952
1633000000 0.0063549 0.0404766 0.9936451 -0.0404766 0.9936451 -0.0404766 0.0063549 0.0404766
1654000000 0.0067769 0.0413532 0.9932231 -0.0413532 0.9932231 -0.0413532 0.0067769 0.0413532
1675000000 0.0072523 0.0422185 0.9927477 -0.0422185 0.9927477 -0.0422185 0.0072523 0.0422185
1696000000 0.0077887 0.0430636 0.9922113 -0.0430636 0.9922113 -0.0430636 0.0077887 0.0430636
1717000000 0.0083937 0.0438754 0.9916063 -0.0438754 0.9916063 -0.0438754 0.0083937 0.0438754
1738000000 0.0090734 0.0446362 0.9909266 -0.0446362 0.9909266 -0.0446362 0.0090734 0.0446362
1759000000 0.0098307 0.0453219 0.9901693 -0.0453219 0.9901693 -0.0453219 0.0098307 0.0453219
1780000000 0.0106614 0.0459023 0.9893386 -0.0459023 0.9893386 -0.0459023 0.0106614 0.0459023
1801000000 0.0115506 0.0463416 0.9884494 -0.0463416 0.9884494 -0.0463416 0.0115506 0.0463416
1822000000 0.0124662 0.0466030 0.9875338 -0.0466030 0.9875338 -0.0466030 0.0124662 0.0466030
1843000000 0.0133555 0.0466562 0.9866445 -0.0466562 0.9866445 -0.0466562 0.0133555 0.0466562
1864000000 0.0141458 0.0464914 0.9858542 -0.0464914 0.9858542 -0.0464914 0.0141458 0.0464914
1885000000 0.0147538 0.0461319 0.9852462 -0.0461319 0.9852462 -0.0461319 0.0147538 0.0461319
1906000000 0.0151060 0.0456420 0.9848940 -0.0456420 0.9848940 -0.0456420 0.0151060 0.0456420
1927000000 0.0151626 0.0451189 0.9848374 -0.0451189 0.9848374 -0.0451189 0.0151626 0.0451189
1948000000 0.0149327 0.0446689 0.9850673 -0.0446689 0.9850673 -0.0446689 0.0149327 0.0446689
1969000000 0.0144706 0.0443797 0.9855294 -0.0443797 0.9855294 -0.0443797 0.0144706 0.0443797
1990000000 0.0138564 0.0443011 0.9861436 -0.0443011 0.9861436 -0.0443011 0.0138564 0.0443011
2011000000 0.0131717 0.0444432 0.9868283 -0.0444432 0.9868283 -0.0444432 0.0131717 0.0444432
2032000000 0.0124832 0.0447873 0.9875168 -0.0447873 0.9875168 -0.0447873 0.0124832 0.0447873
2053000000 0.0118361 0.0452994 0.9881639 -0.0452994 0.9881639 -0.0452994 0.0118361 0.0452994
2074000000 0.0112561 0.0459420 0.9887439 -0.0459420 0.9887439 -0.0459420 0.0112561 0.0459420
2095000000 0.0107537 0.0466809 0.9892463 -0.0466809 0.9892463 -0.0466809 0.0107537 0.0466809
2116000000 0.0103304 0.0474880 0.9896696 -0.0474880 0.9896696 -0.0474880 0.0103304 0.0474880
2137000000 0.0099818 0.0483414 0.9900182 -0.0483414 0.9900182 -0.0483414 0.0099818 0.0483414
2158000000 0.0097012 0.0492251 0.9902988 -0.0492251 0.9902988 -0.0492251 0.0097012 0.0492251
2179000000 0.0094811 0.0501275 0.9905189 -0.0501275 0.9905189 -0.0501275 0.0094811 0.0501275
2200000000 0.0093142 0.0510408 0.9906858 -0.0510408 0.9906858 -0.0510408 0.0093142 0.0510408
2221000000 0.0091937 0.0519593 0.9908063 -0.0519593 0.9908063 -0.0519593 0.0091937 0.0519593
2242000000 0.0091136 0.0528794 0.9908864 -0.0528794 0.9908864 -0.0528794 0.0091136 0.0528794
2263000000 0.0090688 0.0537989 0.9909312 -0.0537989 0.9909312 -0.0537989 0.0090688 0.0537989
2284000000 0.0090550 0.0547163 0.9909450 -0.0547163 0.9909450 -0.0547163 0.0090550 0.0547163
2305000000 0.0090686 0.0556308 0.9909314 -0.0556308 0.9909314 -0.0556308 0.0090686 0.0556308
2326000000 0.0091065 0.0565420 0.9908935 -0.0565420 0.9908935 -0.0565420 0.0091065 0.0565420
2347000000 0.0091662 0.0574499 0.9908338 -0.0574499 0.9908338 -0.0574499 0.0091662 0.0574499
2368000000 0.0092458 0.0583546 0.9907542 -0.0583546 0.9907542 -0.0583546 0.0092458 0.0583546
2389000000 0.0093436 0.0592562 0.9906564 -0.0592562 0.9906564 -0.0592562 0.0093436 0.0592562
2410000000 0.0094582 0.0601550 0.9905418 -0.0601550 0.9905418 -0.0601550 0.0094582 0.0601550
2431000000 0.0095885 0.0610515 0.9904115 -0.0610515 0.9904115 -0.0610515 0.0095885 0.0610515
2452000000 0.0097336 0.0619459 0.9902664 -0.0619459 0.9902664 -0.0619459 0.0097336 0.0619459
2473000000 0.0098930 0.0628386 0.9901070 -0.0628386 0.9901070 -0.0628386 0.0098930 0.0628386
2494000000 0.0100661 0.0637298 0.9899339 -0.0637298 0.9899339 -0.0637298 0.0100661 0.0637298
2515000000 0.0102526 0.0646200 0.9897474 -0.0646200 0.9897474 -0.0646200 0.0102526 0.0646200
2536000000 0.0104523 0.0655093 0.9895477 -0.0655093 0.9895477 -0.0655093 0.0104523 0.0655093
2557000000 0.0106651 0.0663980 0.9893349 -0.0663980 0.9893349 -0.0663980 0.0106651 0.0663980
2578000000 0.0108910 0.0672863 0.9891090 -0.0672863 0.9891090 -0.0672863 0.0108910 0.0672863
2599000000 0.0111301 0.0681743 0.9888699 -0.0681743 0.9888699 -0.0681743 0.0111301 0.0681743
2620000000 0.0113826 0.0690621 0.9886174 -0.0690621 0.9886174 -0.0690621 0.0113826 0.0690621
2641000000 0.0116488 0.0699498 0.9883512 -0.0699498 0.9883512 -0.0699498 0.0116488 0.0699498
2662000000 0.0119290 0.0708373 0.9880710 -0.0708373 0.9880710 -0.0708373 0.0119290 0.0708373
2683000000 0.0122235 0.0717246 0.9877765 -0.0717246 0.9877765 -0.0717246 0.0122235 0.0717246
2704000000 0.0125330 0.0726116 0.9874670 -0.0726116 0.9874670 -0.0726116 0.0125330 0.0726116
2725000000 0.0128579 0.0734979 0.9871421 -0.0734979 0.9871421 -0.0734979 0.0128579 0.0734979
2746000000 0.0131988 0.0743832 0.9868012 -0.0743832 0.9868012 -0.0743832 0.0131988 0.0743832
2767000000 0.0135565 0.0752673 0.9864435 -0.0752673 0.9864435 -0.0752673 0.0135565 0.0752673
2788000000 0.0139315 0.0761494 0.9860685 -0.0761494 0.9860685 -0.0761494 0.0139315 0.0761494
2809000000 0.0143247 0.0770290 0.9856753 -0.0770290 0.9856753 -0.0770290 0.0143247 0.0770290
2830000000 0.0147368 0.0779053 0.9852632 -0.0779053 0.9852632 -0.0779053 0.0147368 0.0779053
2851000000 0.0151687 0.0787773 0.9848313 -0.0787773 0.9848313 -0.0787773 0.0151687 0.0787773
2872000000 0.0156212 0.0796440 0.9843788 -0.0796440 0.9843788 -0.0796440 0.0156212 0.0796440
2893000000 0.0160951 0.0805039 0.9839049 -0.0805039 0.9839049 -0.0805039 0.0160951 0.0805039
2914000000 0.0165913 0.0813557 0.9834087 -0.0813557 0.9834087 -0.0813557 0.0165913 0.0813557
2935000000 0.0171104 0.0821975 0.9828896 -0.0821975 0.9828896 -0.0821975 0.0171104 0.0821975
2956000000 0.0176533 0.0830273 0.9823467 -0.0830273 0.9823467 -0.0830273 0.0176533 0.0830273
2977000000 0.0182204 0.0838428 0.9817796 -0.0838428 0.9817796 -0.0838428 0.0182204 0.0838428
2998000000 0.0188122 0.0846415 0.9811878 -0.0846415 0.9811878 -0.0846415 0.0188122 0.0846415
3019000000 0.0194289 0.0854204 0.9805711 -0.0854204 0.9805711 -0.0854204 0.0194289 0.0854204
3040000000 0.0200704 0.0861764 0.9799296 -0.0861764 0.9799296 -0.0861764 0.0200704 0.0861764
3061000000 0.0207361 0.0869058 0.9792639 -0.0869058 0.9792639 -0.0869058 0.0207361 0.0869058
3082000000 0.0214252 0.0876050 0.9785748 -0.0876050 0.9785748 -0.0876050 0.0214252 0.0876050
3103000000 0.0221362 0.0882696 0.9778638 -0.0882696 0.9778638 -0.0882696 0.0221362 0.0882696
3124000000 0.0228670 0.0888955 0.9771330 -0.0888955 0.9771330 -0.0888955 0.0228670 0.0888955
3145000000 0.0236145 0.0894782 0.9763855 -0.0894782 0.9763855 -0.0894782 0.0236145 0.0894782
3166000000 0.0243750 0.0900133 0.9756250 -0.0900133 0.9756250 -0.0900133 0.0243750 0.0900133
3187000000 0.0251437 0.0904963 0.9748563 -0.0904963 0.9748563 -0.0904963 0.0251437 0.0904963
3208000000 0.0259147 0.0909235 0.9740853 -0.0909235 0.9740853 -0.0909235 0.0259147 0.0909235
3229000000 0.0266810 0.0912915 0.9733190 -0.0912915 0.9733190 -0.0912915 0.0266810 0.0912915
3250000000 0.0274346 0.0915978 0.9725654 -0.0915978 0.9725654 -0.0915978 0.0274346 0.0915978
3271000000 0.0281665 0.0918412 0.9718335 -0.0918412 0.9718335 -0.0918412 0.0281665 0.0918412
3292000000 0.0288669 0.0920218 0.9711331 -0.0920218 0.9711331 -0.0920218 0.0288669 0.0920218
3313000000 0.0295253 0.0921418 0.9704747 -0.0921418 0.9704747 -0.0921418 0.0295253 0.0921418
3334000000 0.0301314 0.0922049 0.9698686 -0.0922049 0.9698686 -0.0922049 0.0301314 0.0922049
3355000000 0.0306749 0.0922175 0.9693251 -0.0922175 0.9693251 -0.0922175 0.0306749 0.0922175
3376000000 0.0311465 0.0921877 0.9688535 -0.0921877 0.9688535 -0.0921877 0.0311465 0.0921877
3397000000 0.0315382 0.0921259 0.9684618 -0.0921259 0.9684618 -0.0921259 0.0315382 0.0921259
3418000000 0.0318440 0.0920439 0.9681560 -0.0920439 0.9681560 -0.0920439 0.0318440 0.0920439
3439000000 0.0320601 0.0919551 0.9679399 -0.0919551 0.9679399 -0.0919551 0.0320601 0.0919551
3460000000 0.0321853 0.0918732 0.9678147 -0.0918732 0.9678147 -0.0918732 0.0321853 0.0918732
3481000000 0.0322213 0.0918122 0.9677787 -0.0918122 0.9677787 -0.0918122 0.0322213 0.0918122
3502000000 0.0321721 0.0917852 0.9678279 -0.0917852 0.9678279 -0.0917852 0.0321721 0.0917852
3523000000 0.0320442 0.0918044 0.9679558 -0.0918044 0.9679558 -0.0918044 0.0320442 0.0918044
3544000000 0.0318463 0.0918799 0.9681537 -0.0918799 0.9681537 -0.0918799 0.0318463 0.0918799
3565000000 0.0315881 0.0920200 0.9684119 -0.0920200 0.9684119 -0.0920200 0.0315881 0.0920200
3586000000 0.0312805 0.0922308 0.9687195 -0.0922308 0.9687195 -0.0922308 0.0312805 0.0922308
3607000000 0.0309345 0.0925160 0.9690655 -0.0925160 0.9690655 -0.0925160 0.0309345 0.0925160
3628000000 0.0305612 0.0928773 0.9694388 -0.0928773 0.9694388 -0.0928773 0.0305612 0.0928773
3649000000 0.0301707 0.0933146 0.9698293 -0.0933146 0.9698293 -0.0933146 0.0301707 0.0933146
3670000000 0.0297727 0.0938261 0.9702273 -0.0938261 0.9702273 -0.0938261 0.0297727 0.0938261
3691000000 0.0293756 0.0944090 0.9706244 -0.0944090 0.9706244 -0.0944090 0.0293756 0.0944090
3712000000 0.0289866 0.0950593 0.9710134 -0.0950593 0.9710134 -0.0950593 0.0289866 0.0950593
3733000000 0.0286118 0.0957725 0.9713882 -0.0957725 0.9713882 -0.0957725 0.0286118 0.0957725
3754000000 0.0282562 0.0965439 0.9717438 -0.0965439 0.9717438 -0.0965439 0.0282562 0.0965439
3775000000 0.0279235 0.0973685 0.9720765 -0.0973685 0.9720765 -0.0973685 0.0279235 0.0973685
3796000000 0.0276167 0.0982414 0.9723833 -0.0982414 0.9723833 -0.0982414 0.0276167 0.0982414
3817000000 0.0273379 0.0991578 0.9726621 -0.0991578 0.9726621 -0.0991578 0.0273379 0.0991578
3838000000 0.0270885 0.1001134 0.9729115 -0.1001134 0.9729115 -0.1001134 0.0270885 0.1001134
3859000000 0.0268692 0.1011039 0.9731308 -0.1011039 0.9731308 -0.1011039 0.0268692 0.1011039
3880000000 0.0266803 0.1021256 0.9733197 -0.1021256 0.9733197 -0.1021256 0.0266803 0.1021256
3901000000 0.0265217 0.1031750 0.9734783 -0.1031750 0.9734783 -0.1031750 0.0265217 0.1031750
3922000000 0.0263932 0.1042491 0.9736068 -0.1042491 0.9736068 -0.1042491 0.0263932 0.1042491
3943000000 0.0262940 0.1053453 0.9737060 -0.1053453 0.9737060 -0.1053453 0.0262940 0.1053453
3964000000 0.0262236 0.1064610 0.9737764 -0.1064610 0.9737764 -0.1064610 0.0262236 0.1064610
3985000000 0.0261810 0.1075942 0.9738190 -0.1075942 0.9738190 -0.1075942 0.0261810 0.1075942
4006000000 0.0261653 0.1087432 0.9738347 -0.1087432 0.9738347 -0.1087432 0.0261653 0.1087432
4027000000 0.0261757 0.1099064 0.9738243 -0.1099064 0.9738243 -0.1099064 0.0261757 0.1099064
4048000000 0.0262111 0.1110824 0.9737889 -0.1110824 0.9737889 -0.1110824 0.0262111 0.1110824
4069000000 0.0262706 0.1122702 0.9737294 -0.1122702 0.9737294 -0.1122702 0.0262706 0.1122702
4090000000 0.0263534 0.1134689 0.9736466 -0.1134689 0.9736466 -0.1134689 0.0263534 0.1134689
4111000000 0.0264585 0.1146776 0.9735415 -0.1146776 0.9735415 -0.1146776 0.0264585 0.1146776
4132000000 0.0265851 0.1158957 0.9734149 -0.1158957 0.9734149 -0.1158957 0.0265851 0.1158957
4153000000 0.0267325 0.1171227 0.9732675 -0.1171227 0.9732675 -0.1171227 0.0267325 0.1171227
4174000000 0.0268998 0.1183582 0.9731002 -0.1183582 0.9731002 -0.1183582 0.0268998 0.1183582
4195000000 0.0270865 0.1196018 0.9729135 -0.1196018 0.9729135 -0.1196018 0.0270865 0.1196018
4216000000 0.0272919 0.1208534 0.9727081 -0.1208534 0.9727081 -0.1208534 0.0272919 0.1208534
4237000000 0.0275155 0.1221128 0.9724845 -0.1221128 0.9724845 -0.1221128 0.0275155 0.1221128
4258000000 0.0277566 0.1233797 0.9722434 -0.1233797 0.9722434 -0.1233797 0.0277566 0.1233797
4279000000 0.0280149 0.1246543 0.9719851 -0.1246543 0.9719851 -0.1246543 0.0280149 0.1246543
4300000000 0.0282899 0.1259365 0.9717101 -0.1259365 0.9717101 -0.1259365 0.0282899 0.1259365
4321000000 0.0285812 0.1272262 0.9714188 -0.1272262 0.9714188 -0.1272262 0.0285812 0.1272262
4342000000 0.0288886 0.1285236 0.9711114 -0.1285236 0.9711114 -0.1285236 0.0288886 0.1285236
4363000000 0.0292116 0.1298288 0.9707884 -0.1298288 0.9707884 -0.1298288 0.0292116 0.1298288
4384000000 0.0295502 0.1311418 0.9704498 -0.1311418 0.9704498 -0.1311418 0.0295502 0.1311418
4405000000 0.0299039 0.1324628 0.9700961 -0.1324628 0.9700961 -0.1324628 0.0299039 0.1324628
4426000000 0.0302728 0.1337919 0.9697272 -0.1337919 0.9697272 -0.1337919 0.0302728 0.1337919
4447000000 0.0306565 0.1351294 0.9693435 -0.1351294 0.9693435 -0.1351294 0.0306565 0.1351294
4468000000 0.0310551 0.1364754 0.9689449 -0.1364754 0.9689449 -0.1364754 0.0310551 0.1364754
4489000000 0.0314684 0.1378301 0.9685316 -0.1378301 0.9685316 -0.1378301 0.0314684 0.1378301
4510000000 0.0318964 0.1391936 0.9681036 -0.1391936 0.9681036 -0.1391936 0.0318964 0.1391936
