!Murata Part Number: GRM21A7U2E391JW31
!These Parameters are Measured in Series Mode Connection
!Data Generated on Mar 30, 2021
!       o--ll--o
!Port1            Port2
!       o------o
!Operation Temp=25[degC], DC Bias Voltage=0[V]
!Freq. Start=100[MHz] Stop=3[GHz] 401[Steps]
# Hz S RI R 50
!Freq.(Hz) S11(Real) S11(Imag) S21(Real) S21(Imag) S12(Real) S12(Imag) S22(Real) S22(Imag)
100000000 0.0021658 -0.0362959 0.9978342 0.0362959 0.9978342 0.0362959 0.0021658 -0.0362959
107250000 0.0019578 -0.0332335 0.9980422 0.0332335 0.9980422 0.0332335 0.0019578 -0.0332335
114500000 0.0017902 -0.0305170 0.9982098 0.0305170 0.9982098 0.0305170 0.0017902 -0.0305170
121750000 0.0016538 -0.0280849 0.9983462 0.0280849 0.9983462 0.0280849 0.0016538 -0.0280849
129000000 0.0015420 -0.0258893 0.9984580 0.0258893 0.9984580 0.0258893 0.0015420 -0.0258893
136250000 0.0014497 -0.0238927 0.9985503 0.0238927 0.9985503 0.0238927 0.0014497 -0.0238927
143500000 0.0013733 -0.0220650 0.9986267 0.0220650 0.9986267 0.0220650 0.0013733 -0.0220650
150750000 0.0013099 -0.0203819 0.9986901 0.0203819 0.9986901 0.0203819 0.0013099 -0.0203819
158000000 0.0012573 -0.0188234 0.9987427 0.0188234 0.9987427 0.0188234 0.0012573 -0.0188234
165250000 0.0012137 -0.0173733 0.9987863 0.0173733 0.9987863 0.0173733 0.0012137 -0.0173733
172500000 0.0011778 -0.0160178 0.9988222 0.0160178 0.9988222 0.0160178 0.0011778 -0.0160178
179750000 0.0011485 -0.0147456 0.9988515 0.0147456 0.9988515 0.0147456 0.0011485 -0.0147456
187000000 0.0011248 -0.0135468 0.9988752 0.0135468 0.9988752 0.0135468 0.0011248 -0.0135468
194250000 0.0011061 -0.0124134 0.9988939 0.0124134 0.9988939 0.0124134 0.0011061 -0.0124134
201500000 0.0010917 -0.0113382 0.9989083 0.0113382 0.9989083 0.0113382 0.0010917 -0.0113382
208750000 0.0010812 -0.0103151 0.9989188 0.0103151 0.9989188 0.0103151 0.0010812 -0.0103151
216000000 0.0010741 -0.0093388 0.9989259 0.0093388 0.9989259 0.0093388 0.0010741 -0.0093388
223250000 0.0010700 -0.0084049 0.9989300 0.0084049 0.9989300 0.0084049 0.0010700 -0.0084049
230500000 0.0010688 -0.0075092 0.9989312 0.0075092 0.9989312 0.0075092 0.0010688 -0.0075092
237750000 0.0010701 -0.0066483 0.9989299 0.0066483 0.9989299 0.0066483 0.0010701 -0.0066483
245000000 0.0010737 -0.0058190 0.9989263 0.0058190 0.9989263 0.0058190 0.0010737 -0.0058190
252250000 0.0010795 -0.0050185 0.9989205 0.0050185 0.9989205 0.0050185 0.0010795 -0.0050185
259500000 0.0010873 -0.0042445 0.9989127 0.0042445 0.9989127 0.0042445 0.0010873 -0.0042445
266750000 0.0010969 -0.0034948 0.9989031 0.0034948 0.9989031 0.0034948 0.0010969 -0.0034948
274000000 0.0011084 -0.0027673 0.9988916 0.0027673 0.9988916 0.0027673 0.0011084 -0.0027673
281250000 0.0011214 -0.0020603 0.9988786 0.0020603 0.9988786 0.0020603 0.0011214 -0.0020603
288500000 0.0011361 -0.0013723 0.9988639 0.0013723 0.9988639 0.0013723 0.0011361 -0.0013723
295750000 0.0011523 -0.0007018 0.9988477 0.0007018 0.9988477 0.0007018 0.0011523 -0.0007018
303000000 0.0011700 -0.0000475 0.9988300 0.0000475 0.9988300 0.0000475 0.0011700 -0.0000475
310250000 0.0011891 0.0005917 0.9988109 -0.0005917 0.9988109 -0.0005917 0.0011891 0.0005917
317500000 0.0012095 0.0012169 0.9987905 -0.0012169 0.9987905 -0.0012169 0.0012095 0.0012169
324750000 0.0012313 0.0018292 0.9987687 -0.0018292 0.9987687 -0.0018292 0.0012313 0.0018292
332000000 0.0012544 0.0024294 0.9987456 -0.0024294 0.9987456 -0.0024294 0.0012544 0.0024294
339250000 0.0012788 0.0030182 0.9987212 -0.0030182 0.9987212 -0.0030182 0.0012788 0.0030182
346500000 0.0013045 0.0035966 0.9986955 -0.0035966 0.9986955 -0.0035966 0.0013045 0.0035966
353750000 0.0013315 0.0041651 0.9986685 -0.0041651 0.9986685 -0.0041651 0.0013315 0.0041651
361000000 0.0013597 0.0047244 0.9986403 -0.0047244 0.9986403 -0.0047244 0.0013597 0.0047244
368250000 0.0013892 0.0052751 0.9986108 -0.0052751 0.9986108 -0.0052751 0.0013892 0.0052751
375500000 0.0014200 0.0058178 0.9985800 -0.0058178 0.9985800 -0.0058178 0.0014200 0.0058178
382750000 0.0014520 0.0063530 0.9985480 -0.0063530 0.9985480 -0.0063530 0.0014520 0.0063530
390000000 0.0014854 0.0068810 0.9985146 -0.0068810 0.9985146 -0.0068810 0.0014854 0.0068810
397250000 0.0015201 0.0074025 0.9984799 -0.0074025 0.9984799 -0.0074025 0.0015201 0.0074025
404500000 0.0015562 0.0079178 0.9984438 -0.0079178 0.9984438 -0.0079178 0.0015562 0.0079178
411750000 0.0015937 0.0084272 0.9984063 -0.0084272 0.9984063 -0.0084272 0.0015937 0.0084272
419000000 0.0016326 0.0089313 0.9983674 -0.0089313 0.9983674 -0.0089313 0.0016326 0.0089313
426250000 0.0016730 0.0094302 0.9983270 -0.0094302 0.9983270 -0.0094302 0.0016730 0.0094302
433500000 0.0017149 0.0099243 0.9982851 -0.0099243 0.9982851 -0.0099243 0.0017149 0.0099243
440750000 0.0017585 0.0104140 0.9982415 -0.0104140 0.9982415 -0.0104140 0.0017585 0.0104140
448000000 0.0018037 0.0108995 0.9981963 -0.0108995 0.9981963 -0.0108995 0.0018037 0.0108995
455250000 0.0018506 0.0113811 0.9981494 -0.0113811 0.9981494 -0.0113811 0.0018506 0.0113811
462500000 0.0018995 0.0118591 0.9981005 -0.0118591 0.9981005 -0.0118591 0.0018995 0.0118591
469750000 0.0019502 0.0123336 0.9980498 -0.0123336 0.9980498 -0.0123336 0.0019502 0.0123336
477000000 0.0020031 0.0128050 0.9979969 -0.0128050 0.9979969 -0.0128050 0.0020031 0.0128050
484250000 0.0020581 0.0132734 0.9979419 -0.0132734 0.9979419 -0.0132734 0.0020581 0.0132734
491500000 0.0021156 0.0137390 0.9978844 -0.0137390 0.9978844 -0.0137390 0.0021156 0.0137390
498750000 0.0021755 0.0142020 0.9978245 -0.0142020 0.9978245 -0.0142020 0.0021755 0.0142020
506000000 0.0022383 0.0146626 0.9977617 -0.0146626 0.9977617 -0.0146626 0.0022383 0.0146626
513250000 0.0023039 0.0151209 0.9976961 -0.0151209 0.9976961 -0.0151209 0.0023039 0.0151209
520500000 0.0023728 0.0155770 0.9976272 -0.0155770 0.9976272 -0.0155770 0.0023728 0.0155770
527750000 0.0024453 0.0160310 0.9975547 -0.0160310 0.9975547 -0.0160310 0.0024453 0.0160310
535000000 0.0025215 0.0164830 0.9974785 -0.0164830 0.9974785 -0.0164830 0.0025215 0.0164830
542250000 0.0026019 0.0169329 0.9973981 -0.0169329 0.9973981 -0.0169329 0.0026019 0.0169329
549500000 0.0026870 0.0173806 0.9973130 -0.0173806 0.9973130 -0.0173806 0.0026870 0.0173806
556750000 0.0027771 0.0178260 0.9972229 -0.0178260 0.9972229 -0.0178260 0.0027771 0.0178260
564000000 0.0028727 0.0182690 0.9971273 -0.0182690 0.9971273 -0.0182690 0.0028727 0.0182690
571250000 0.0029743 0.0187090 0.9970257 -0.0187090 0.9970257 -0.0187090 0.0029743 0.0187090
578500000 0.0030825 0.0191455 0.9969175 -0.0191455 0.9969175 -0.0191455 0.0030825 0.0191455
585750000 0.0031979 0.0195779 0.9968021 -0.0195779 0.9968021 -0.0195779 0.0031979 0.0195779
593000000 0.0033207 0.0200052 0.9966793 -0.0200052 0.9966793 -0.0200052 0.0033207 0.0200052
600250000 0.0034515 0.0204261 0.9965485 -0.0204261 0.9965485 -0.0204261 0.0034515 0.0204261
607500000 0.0035903 0.0208392 0.9964097 -0.0208392 0.9964097 -0.0208392 0.0035903 0.0208392
614750000 0.0037369 0.0212427 0.9962631 -0.0212427 0.9962631 -0.0212427 0.0037369 0.0212427
622000000 0.0038906 0.0216344 0.9961094 -0.0216344 0.9961094 -0.0216344 0.0038906 0.0216344
629250000 0.0040501 0.0220124 0.9959499 -0.0220124 0.9959499 -0.0220124 0.0040501 0.0220124
636500000 0.0042131 0.0223744 0.9957869 -0.0223744 0.9957869 -0.0223744 0.0042131 0.0223744
643750000 0.0043765 0.0227188 0.9956235 -0.0227188 0.9956235 -0.0227188 0.0043765 0.0227188
651000000 0.0045363 0.0230447 0.9954637 -0.0230447 0.9954637 -0.0230447 0.0045363 0.0230447
658250000 0.0046878 0.0233528 0.9953122 -0.0233528 0.9953122 -0.0233528 0.0046878 0.0233528
665500000 0.0048263 0.0236452 0.9951737 -0.0236452 0.9951737 -0.0236452 0.0048263 0.0236452
672750000 0.0049478 0.0239257 0.9950522 -0.0239257 0.9950522 -0.0239257 0.0049478 0.0239257
680000000 0.0050496 0.0241998 0.9949504 -0.0241998 0.9949504 -0.0241998 0.0050496 0.0241998
687250000 0.0051310 0.0244734 0.9948690 -0.0244734 0.9948690 -0.0244734 0.0051310 0.0244734
694500000 0.0051937 0.0247526 0.9948063 -0.0247526 0.9948063 -0.0247526 0.0051937 0.0247526
701750000 0.0052408 0.0250422 0.9947592 -0.0250422 0.9947592 -0.0250422 0.0052408 0.0250422
709000000 0.0052768 0.0253456 0.9947232 -0.0253456 0.9947232 -0.0253456 0.0052768 0.0253456
716250000 0.0053066 0.0256643 0.9946934 -0.0256643 0.9946934 -0.0256643 0.0053066 0.0256643
723500000 0.0053347 0.0259986 0.9946653 -0.0259986 0.9946653 -0.0259986 0.0053347 0.0259986
730750000 0.0053650 0.0263473 0.9946350 -0.0263473 0.9946350 -0.0263473 0.0053650 0.0263473
738000000 0.0054007 0.0267087 0.9945993 -0.0267087 0.9945993 -0.0267087 0.0054007 0.0267087
745250000 0.0054440 0.0270807 0.9945560 -0.0270807 0.9945560 -0.0270807 0.0054440 0.0270807
752500000 0.0054963 0.0274613 0.9945037 -0.0274613 0.9945037 -0.0274613 0.0054963 0.0274613
759750000 0.0055587 0.0278483 0.9944413 -0.0278483 0.9944413 -0.0278483 0.0055587 0.0278483
767000000 0.0056316 0.0282401 0.9943684 -0.0282401 0.9943684 -0.0282401 0.0056316 0.0282401
774250000 0.0057153 0.0286348 0.9942847 -0.0286348 0.9942847 -0.0286348 0.0057153 0.0286348
781500000 0.0058099 0.0290312 0.9941901 -0.0290312 0.9941901 -0.0290312 0.0058099 0.0290312
788750000 0.0059153 0.0294280 0.9940847 -0.0294280 0.9940847 -0.0294280 0.0059153 0.0294280
796000000 0.0060314 0.0298242 0.9939686 -0.0298242 0.9939686 -0.0298242 0.0060314 0.0298242
803250000 0.0061582 0.0302188 0.9938418 -0.0302188 0.9938418 -0.0302188 0.0061582 0.0302188
810500000 0.0062955 0.0306110 0.9937045 -0.0306110 0.9937045 -0.0306110 0.0062955 0.0306110
817750000 0.0064431 0.0309998 0.9935569 -0.0309998 0.9935569 -0.0309998 0.0064431 0.0309998
825000000 0.0066011 0.0313845 0.9933989 -0.0313845 0.9933989 -0.0313845 0.0066011 0.0313845
832250000 0.0067694 0.0317643 0.9932306 -0.0317643 0.9932306 -0.0317643 0.0067694 0.0317643
839500000 0.0069479 0.0321384 0.9930521 -0.0321384 0.9930521 -0.0321384 0.0069479 0.0321384
846750000 0.0071364 0.0325058 0.9928636 -0.0325058 0.9928636 -0.0325058 0.0071364 0.0325058
854000000 0.0073349 0.0328657 0.9926651 -0.0328657 0.9926651 -0.0328657 0.0073349 0.0328657
861250000 0.0075433 0.0332171 0.9924567 -0.0332171 0.9924567 -0.0332171 0.0075433 0.0332171
868500000 0.0077612 0.0335588 0.9922388 -0.0335588 0.9922388 -0.0335588 0.0077612 0.0335588
875750000 0.0079885 0.0338899 0.9920115 -0.0338899 0.9920115 -0.0338899 0.0079885 0.0338899
883000000 0.0082246 0.0342092 0.9917754 -0.0342092 0.9917754 -0.0342092 0.0082246 0.0342092
890250000 0.0084690 0.0345153 0.9915310 -0.0345153 0.9915310 -0.0345153 0.0084690 0.0345153
897500000 0.0087209 0.0348070 0.9912791 -0.0348070 0.9912791 -0.0348070 0.0087209 0.0348070
904750000 0.0089796 0.0350830 0.9910204 -0.0350830 0.9910204 -0.0350830 0.0089796 0.0350830
912000000 0.0092438 0.0353419 0.9907562 -0.0353419 0.9907562 -0.0353419 0.0092438 0.0353419
919250000 0.0095122 0.0355826 0.9904878 -0.0355826 0.9904878 -0.0355826 0.0095122 0.0355826
926500000 0.0097832 0.0358037 0.9902168 -0.0358037 0.9902168 -0.0358037 0.0097832 0.0358037
933750000 0.0100549 0.0360043 0.9899451 -0.0360043 0.9899451 -0.0360043 0.0100549 0.0360043
941000000 0.0103251 0.0361834 0.9896749 -0.0361834 0.9896749 -0.0361834 0.0103251 0.0361834
948250000 0.0105915 0.0363404 0.9894085 -0.0363404 0.9894085 -0.0363404 0.0105915 0.0363404
955500000 0.0108514 0.0364750 0.9891486 -0.0364750 0.9891486 -0.0364750 0.0108514 0.0364750
962750000 0.0111021 0.0365872 0.9888979 -0.0365872 0.9888979 -0.0365872 0.0111021 0.0365872
970000000 0.0113407 0.0366776 0.9886593 -0.0366776 0.9886593 -0.0366776 0.0113407 0.0366776
977250000 0.0115641 0.0367472 0.9884359 -0.0367472 0.9884359 -0.0367472 0.0115641 0.0367472
984500000 0.0117696 0.0367973 0.9882304 -0.0367973 0.9882304 -0.0367973 0.0117696 0.0367973
991750000 0.0119545 0.0368300 0.9880455 -0.0368300 0.9880455 -0.0368300 0.0119545 0.0368300
999000000 0.0121163 0.0368477 0.9878837 -0.0368477 0.9878837 -0.0368477 0.0121163 0.0368477
1006250000 0.0122531 0.0368534 0.9877469 -0.0368534 0.9877469 -0.0368534 0.0122531 0.0368534
1013500000 0.0123632 0.0368503 0.9876368 -0.0368503 0.9876368 -0.0368503 0.0123632 0.0368503
1020750000 0.0124457 0.0368418 0.9875543 -0.0368418 0.9875543 -0.0368418 0.0124457 0.0368418
1028000000 0.0125002 0.0368317 0.9874998 -0.0368317 0.9874998 -0.0368317 0.0125002 0.0368317
1035250000 0.0125269 0.0368235 0.9874731 -0.0368235 0.9874731 -0.0368235 0.0125269 0.0368235
1042500000 0.0125267 0.0368207 0.9874733 -0.0368207 0.9874733 -0.0368207 0.0125267 0.0368207
1049750000 0.0125009 0.0368266 0.9874991 -0.0368266 0.9874991 -0.0368266 0.0125009 0.0368266
1057000000 0.0124514 0.0368440 0.9875486 -0.0368440 0.9875486 -0.0368440 0.0124514 0.0368440
1064250000 0.0123802 0.0368755 0.9876198 -0.0368755 0.9876198 -0.0368755 0.0123802 0.0368755
1071500000 0.0122901 0.0369231 0.9877099 -0.0369231 0.9877099 -0.0369231 0.0122901 0.0369231
1078750000 0.0121835 0.0369884 0.9878165 -0.0369884 0.9878165 -0.0369884 0.0121835 0.0369884
1086000000 0.0120632 0.0370723 0.9879368 -0.0370723 0.9879368 -0.0370723 0.0120632 0.0370723
1093250000 0.0119320 0.0371756 0.9880680 -0.0371756 0.9880680 -0.0371756 0.0119320 0.0371756
1100500000 0.0117924 0.0372983 0.9882076 -0.0372983 0.9882076 -0.0372983 0.0117924 0.0372983
1107750000 0.0116469 0.0374403 0.9883531 -0.0374403 0.9883531 -0.0374403 0.0116469 0.0374403
1115000000 0.0114976 0.0376012 0.9885024 -0.0376012 0.9885024 -0.0376012 0.0114976 0.0376012
1122250000 0.0113467 0.0377803 0.9886533 -0.0377803 0.9886533 -0.0377803 0.0113467 0.0377803
1129500000 0.0111959 0.0379766 0.9888041 -0.0379766 0.9888041 -0.0379766 0.0111959 0.0379766
1136750000 0.0110466 0.0381891 0.9889534 -0.0381891 0.9889534 -0.0381891 0.0110466 0.0381891
1144000000 0.0109003 0.0384168 0.9890997 -0.0384168 0.9890997 -0.0384168 0.0109003 0.0384168
1151250000 0.0107580 0.0386584 0.9892420 -0.0386584 0.9892420 -0.0386584 0.0107580 0.0386584
1158500000 0.0106204 0.0389128 0.9893796 -0.0389128 0.9893796 -0.0389128 0.0106204 0.0389128
1165750000 0.0104884 0.0391789 0.9895116 -0.0391789 0.9895116 -0.0391789 0.0104884 0.0391789
1173000000 0.0103623 0.0394555 0.9896377 -0.0394555 0.9896377 -0.0394555 0.0103623 0.0394555
1180250000 0.0102426 0.0397416 0.9897574 -0.0397416 0.9897574 -0.0397416 0.0102426 0.0397416
1187500000 0.0101295 0.0400362 0.9898705 -0.0400362 0.9898705 -0.0400362 0.0101295 0.0400362
1194750000 0.0100231 0.0403383 0.9899769 -0.0403383 0.9899769 -0.0403383 0.0100231 0.0403383
1202000000 0.0099235 0.0406471 0.9900765 -0.0406471 0.9900765 -0.0406471 0.0099235 0.0406471
1209250000 0.0098307 0.0409618 0.9901693 -0.0409618 0.9901693 -0.0409618 0.0098307 0.0409618
1216500000 0.0097446 0.0412815 0.9902554 -0.0412815 0.9902554 -0.0412815 0.0097446 0.0412815
1223750000 0.0096650 0.0416058 0.9903350 -0.0416058 0.9903350 -0.0416058 0.0096650 0.0416058
1231000000 0.0095918 0.0419339 0.9904082 -0.0419339 0.9904082 -0.0419339 0.0095918 0.0419339
1238250000 0.0095249 0.0422654 0.9904751 -0.0422654 0.9904751 -0.0422654 0.0095249 0.0422654
1245500000 0.0094639 0.0425996 0.9905361 -0.0425996 0.9905361 -0.0425996 0.0094639 0.0425996
1252750000 0.0094088 0.0429363 0.9905912 -0.0429363 0.9905912 -0.0429363 0.0094088 0.0429363
1260000000 0.0093593 0.0432751 0.9906407 -0.0432751 0.9906407 -0.0432751 0.0093593 0.0432751
1267250000 0.0093151 0.0436155 0.9906849 -0.0436155 0.9906849 -0.0436155 0.0093151 0.0436155
1274500000 0.0092760 0.0439573 0.9907240 -0.0439573 0.9907240 -0.0439573 0.0092760 0.0439573
1281750000 0.0092419 0.0443001 0.9907581 -0.0443001 0.9907581 -0.0443001 0.0092419 0.0443001
1289000000 0.0092124 0.0446439 0.9907876 -0.0446439 0.9907876 -0.0446439 0.0092124 0.0446439
1296250000 0.0091874 0.0449883 0.9908126 -0.0449883 0.9908126 -0.0449883 0.0091874 0.0449883
1303500000 0.0091667 0.0453332 0.9908333 -0.0453332 0.9908333 -0.0453332 0.0091667 0.0453332
1310750000 0.0091500 0.0456784 0.9908500 -0.0456784 0.9908500 -0.0456784 0.0091500 0.0456784
1318000000 0.0091372 0.0460238 0.9908628 -0.0460238 0.9908628 -0.0460238 0.0091372 0.0460238
1325250000 0.0091281 0.0463692 0.9908719 -0.0463692 0.9908719 -0.0463692 0.0091281 0.0463692
1332500000 0.0091225 0.0467146 0.9908775 -0.0467146 0.9908775 -0.0467146 0.0091225 0.0467146
1339750000 0.0091202 0.0470598 0.9908798 -0.0470598 0.9908798 -0.0470598 0.0091202 0.0470598
1347000000 0.0091210 0.0474048 0.9908790 -0.0474048 0.9908790 -0.0474048 0.0091210 0.0474048
1354250000 0.0091249 0.0477495 0.9908751 -0.0477495 0.9908751 -0.0477495 0.0091249 0.0477495
1361500000 0.0091316 0.0480939 0.9908684 -0.0480939 0.9908684 -0.0480939 0.0091316 0.0480939
1368750000 0.0091411 0.0484379 0.9908589 -0.0484379 0.9908589 -0.0484379 0.0091411 0.0484379
1376000000 0.0091531 0.0487815 0.9908469 -0.0487815 0.9908469 -0.0487815 0.0091531 0.0487815
1383250000 0.0091677 0.0491245 0.9908323 -0.0491245 0.9908323 -0.0491245 0.0091677 0.0491245
1390500000 0.0091845 0.0494671 0.9908155 -0.0494671 0.9908155 -0.0494671 0.0091845 0.0494671
1397750000 0.0092037 0.0498092 0.9907963 -0.0498092 0.9907963 -0.0498092 0.0092037 0.0498092
1405000000 0.0092249 0.0501507 0.9907751 -0.0501507 0.9907751 -0.0501507 0.0092249 0.0501507
1412250000 0.0092483 0.0504917 0.9907517 -0.0504917 0.9907517 -0.0504917 0.0092483 0.0504917
1419500000 0.0092735 0.0508321 0.9907265 -0.0508321 0.9907265 -0.0508321 0.0092735 0.0508321
1426750000 0.0093006 0.0511720 0.9906994 -0.0511720 0.9906994 -0.0511720 0.0093006 0.0511720
1434000000 0.0093295 0.0515113 0.9906705 -0.0515113 0.9906705 -0.0515113 0.0093295 0.0515113
1441250000 0.0093601 0.0518500 0.9906399 -0.0518500 0.9906399 -0.0518500 0.0093601 0.0518500
1448500000 0.0093923 0.0521882 0.9906077 -0.0521882 0.9906077 -0.0521882 0.0093923 0.0521882
1455750000 0.0094261 0.0525258 0.9905739 -0.0525258 0.9905739 -0.0525258 0.0094261 0.0525258
1463000000 0.0094614 0.0528628 0.9905386 -0.0528628 0.9905386 -0.0528628 0.0094614 0.0528628
1470250000 0.0094981 0.0531993 0.9905019 -0.0531993 0.9905019 -0.0531993 0.0094981 0.0531993
1477500000 0.0095361 0.0535352 0.9904639 -0.0535352 0.9904639 -0.0535352 0.0095361 0.0535352
1484750000 0.0095755 0.0538706 0.9904245 -0.0538706 0.9904245 -0.0538706 0.0095755 0.0538706
1492000000 0.0096161 0.0542055 0.9903839 -0.0542055 0.9903839 -0.0542055 0.0096161 0.0542055
1499250000 0.0096580 0.0545399 0.9903420 -0.0545399 0.9903420 -0.0545399 0.0096580 0.0545399
1506500000 0.0097010 0.0548737 0.9902990 -0.0548737 0.9902990 -0.0548737 0.0097010 0.0548737
1513750000 0.0097451 0.0552070 0.9902549 -0.0552070 0.9902549 -0.0552070 0.0097451 0.0552070
1521000000 0.0097903 0.0555399 0.9902097 -0.0555399 0.9902097 -0.0555399 0.0097903 0.0555399
1528250000 0.0098365 0.0558723 0.9901635 -0.0558723 0.9901635 -0.0558723 0.0098365 0.0558723
1535500000 0.0098837 0.0562042 0.9901163 -0.0562042 0.9901163 -0.0562042 0.0098837 0.0562042
1542750000 0.0099319 0.0565357 0.9900681 -0.0565357 0.9900681 -0.0565357 0.0099319 0.0565357
1550000000 0.0099810 0.0568667 0.9900190 -0.0568667 0.9900190 -0.0568667 0.0099810 0.0568667
1557250000 0.0100310 0.0571973 0.9899690 -0.0571973 0.9899690 -0.0571973 0.0100310 0.0571973
1564500000 0.0100819 0.0575275 0.9899181 -0.0575275 0.9899181 -0.0575275 0.0100819 0.0575275
1571750000 0.0101336 0.0578573 0.9898664 -0.0578573 0.9898664 -0.0578573 0.0101336 0.0578573
1579000000 0.0101861 0.0581867 0.9898139 -0.0581867 0.9898139 -0.0581867 0.0101861 0.0581867
1586250000 0.0102395 0.0585157 0.9897605 -0.0585157 0.9897605 -0.0585157 0.0102395 0.0585157
1593500000 0.0102935 0.0588443 0.9897065 -0.0588443 0.9897065 -0.0588443 0.0102935 0.0588443
1600750000 0.0103483 0.0591727 0.9896517 -0.0591727 0.9896517 -0.0591727 0.0103483 0.0591727
1608000000 0.0104039 0.0595006 0.9895961 -0.0595006 0.9895961 -0.0595006 0.0104039 0.0595006
1615250000 0.0104601 0.0598283 0.9895399 -0.0598283 0.9895399 -0.0598283 0.0104601 0.0598283
1622500000 0.0105170 0.0601556 0.9894830 -0.0601556 0.9894830 -0.0601556 0.0105170 0.0601556
1629750000 0.0105745 0.0604827 0.9894255 -0.0604827 0.9894255 -0.0604827 0.0105745 0.0604827
