!Murata Part Number: GRM21B7U1A104JA01
!These Parameters are Measured in Series Mode Connection
!Data Generated on Mar 30, 2021
!       o--ll--o
!Port1            Port2
!       o------o
!Operation Temp=25[degC], DC Bias Voltage=0[V]
!Freq. Start=1000[kHz] Stop=6[GHz] 401[Steps]
# Hz S RI R 50
!Freq.(Hz) S11(Real) S11(Imag) S21(Real) S21(Imag) S12(Real) S12(Imag) S22(Real) S22(Imag)
1000000 0.0003042 -0.0162374 0.9996958 0.0162374 0.9996958 0.0162374 0.0003042 -0.0162374
1021987 0.0002930 -0.0158863 0.9997070 0.0158863 0.9997070 0.0158863 0.0002930 -0.0158863
1044457 0.0002822 -0.0155428 0.9997178 0.0155428 0.9997178 0.0155428 0.0002822 -0.0155428
1067422 0.0002719 -0.0152066 0.9997281 0.0152066 0.9997281 0.0152066 0.0002719 -0.0152066
1090891 0.0002621 -0.0148776 0.9997379 0.0148776 0.9997379 0.0148776 0.0002621 -0.0148776
1114877 0.0002527 -0.0145556 0.9997473 0.0145556 0.9997473 0.0145556 0.0002527 -0.0145556
1139390 0.0002436 -0.0142405 0.9997564 0.0142405 0.9997564 0.0142405 0.0002436 -0.0142405
1164441 0.0002350 -0.0139321 0.9997650 0.0139321 0.9997650 0.0139321 0.0002350 -0.0139321
1190044 0.0002267 -0.0136304 0.9997733 0.0136304 0.9997733 0.0136304 0.0002267 -0.0136304
1216210 0.0002188 -0.0133350 0.9997812 0.0133350 0.9997812 0.0133350 0.0002188 -0.0133350
1242950 0.0002113 -0.0130459 0.9997887 0.0130459 0.9997887 0.0130459 0.0002113 -0.0130459
1270279 0.0002040 -0.0127630 0.9997960 0.0127630 0.9997960 0.0127630 0.0002040 -0.0127630
1298209 0.0001971 -0.0124862 0.9998029 0.0124862 0.9998029 0.0124862 0.0001971 -0.0124862
1326753 0.0001905 -0.0122152 0.9998095 0.0122152 0.9998095 0.0122152 0.0001905 -0.0122152
1355924 0.0001842 -0.0119500 0.9998158 0.0119500 0.9998158 0.0119500 0.0001842 -0.0119500
1385737 0.0001781 -0.0116905 0.9998219 0.0116905 0.9998219 0.0116905 0.0001781 -0.0116905
1416205 0.0001723 -0.0114365 0.9998277 0.0114365 0.9998277 0.0114365 0.0001723 -0.0114365
1447343 0.0001668 -0.0111878 0.9998332 0.0111878 0.9998332 0.0111878 0.0001668 -0.0111878
1479166 0.0001615 -0.0109445 0.9998385 0.0109445 0.9998385 0.0109445 0.0001615 -0.0109445
1511688 0.0001564 -0.0107064 0.9998436 0.0107064 0.9998436 0.0107064 0.0001564 -0.0107064
1544926 0.0001516 -0.0104733 0.9998484 0.0104733 0.9998484 0.0104733 0.0001516 -0.0104733
1578894 0.0001469 -0.0102451 0.9998531 0.0102451 0.9998531 0.0102451 0.0001469 -0.0102451
1613609 0.0001425 -0.0100219 0.9998575 0.0100219 0.9998575 0.0100219 0.0001425 -0.0100219
1649087 0.0001383 -0.0098033 0.9998617 0.0098033 0.9998617 0.0098033 0.0001383 -0.0098033
1685346 0.0001342 -0.0095894 0.9998658 0.0095894 0.9998658 0.0095894 0.0001342 -0.0095894
1722402 0.0001304 -0.0093800 0.9998696 0.0093800 0.9998696 0.0093800 0.0001304 -0.0093800
1760272 0.0001267 -0.0091751 0.9998733 0.0091751 0.9998733 0.0091751 0.0001267 -0.0091751
1798975 0.0001232 -0.0089745 0.9998768 0.0089745 0.9998768 0.0089745 0.0001232 -0.0089745
1838529 0.0001198 -0.0087781 0.9998802 0.0087781 0.9998802 0.0087781 0.0001198 -0.0087781
1878953 0.0001166 -0.0085859 0.9998834 0.0085859 0.9998834 0.0085859 0.0001166 -0.0085859
1920266 0.0001135 -0.0083977 0.9998865 0.0083977 0.9998865 0.0083977 0.0001135 -0.0083977
1962487 0.0001106 -0.0082136 0.9998894 0.0082136 0.9998894 0.0082136 0.0001106 -0.0082136
2005636 0.0001078 -0.0080333 0.9998922 0.0080333 0.9998922 0.0080333 0.0001078 -0.0080333
2049734 0.0001052 -0.0078568 0.9998948 0.0078568 0.9998948 0.0078568 0.0001052 -0.0078568
2094801 0.0001026 -0.0076840 0.9998974 0.0076840 0.9998974 0.0076840 0.0001026 -0.0076840
2140860 0.0001002 -0.0075149 0.9998998 0.0075149 0.9998998 0.0075149 0.0001002 -0.0075149
2187931 0.0000979 -0.0073494 0.9999021 0.0073494 0.9999021 0.0073494 0.0000979 -0.0073494
2236037 0.0000957 -0.0071873 0.9999043 0.0071873 0.9999043 0.0071873 0.0000957 -0.0071873
2285201 0.0000936 -0.0070286 0.9999064 0.0070286 0.9999064 0.0070286 0.0000936 -0.0070286
2335446 0.0000916 -0.0068732 0.9999084 0.0068732 0.9999084 0.0068732 0.0000916 -0.0068732
2386795 0.0000898 -0.0067211 0.9999102 0.0067211 0.9999102 0.0067211 0.0000898 -0.0067211
2439274 0.0000880 -0.0065722 0.9999120 0.0065722 0.9999120 0.0065722 0.0000880 -0.0065722
2492906 0.0000863 -0.0064264 0.9999137 0.0064264 0.9999137 0.0064264 0.0000863 -0.0064264
2547717 0.0000846 -0.0062836 0.9999154 0.0062836 0.9999154 0.0062836 0.0000846 -0.0062836
2603734 0.0000831 -0.0061439 0.9999169 0.0061439 0.9999169 0.0061439 0.0000831 -0.0061439
2660982 0.0000816 -0.0060070 0.9999184 0.0060070 0.9999184 0.0060070 0.0000816 -0.0060070
2719490 0.0000803 -0.0058730 0.9999197 0.0058730 0.9999197 0.0058730 0.0000803 -0.0058730
2779283 0.0000789 -0.0057417 0.9999211 0.0057417 0.9999211 0.0057417 0.0000789 -0.0057417
2840391 0.0000777 -0.0056132 0.9999223 0.0056132 0.9999223 0.0056132 0.0000777 -0.0056132
2902843 0.0000765 -0.0054873 0.9999235 0.0054873 0.9999235 0.0054873 0.0000765 -0.0054873
2966668 0.0000754 -0.0053641 0.9999246 0.0053641 0.9999246 0.0053641 0.0000754 -0.0053641
3031896 0.0000744 -0.0052434 0.9999256 0.0052434 0.9999256 0.0052434 0.0000744 -0.0052434
3098558 0.0000734 -0.0051252 0.9999266 0.0051252 0.9999266 0.0051252 0.0000734 -0.0051252
3166686 0.0000725 -0.0050094 0.9999275 0.0050094 0.9999275 0.0050094 0.0000725 -0.0050094
3236312 0.0000716 -0.0048959 0.9999284 0.0048959 0.9999284 0.0048959 0.0000716 -0.0048959
3307469 0.0000708 -0.0047849 0.9999292 0.0047849 0.9999292 0.0047849 0.0000708 -0.0047849
3380190 0.0000700 -0.0046760 0.9999300 0.0046760 0.9999300 0.0046760 0.0000700 -0.0046760
3454511 0.0000693 -0.0045694 0.9999307 0.0045694 0.9999307 0.0045694 0.0000693 -0.0045694
3530465 0.0000686 -0.0044650 0.9999314 0.0044650 0.9999314 0.0044650 0.0000686 -0.0044650
3608090 0.0000680 -0.0043627 0.9999320 0.0043627 0.9999320 0.0043627 0.0000680 -0.0043627
3687421 0.0000674 -0.0042625 0.9999326 0.0042625 0.9999326 0.0042625 0.0000674 -0.0042625
3768496 0.0000669 -0.0041642 0.9999331 0.0041642 0.9999331 0.0041642 0.0000669 -0.0041642
3851354 0.0000664 -0.0040680 0.9999336 0.0040680 0.9999336 0.0040680 0.0000664 -0.0040680
3936034 0.0000659 -0.0039737 0.9999341 0.0039737 0.9999341 0.0039737 0.0000659 -0.0039737
4022575 0.0000655 -0.0038813 0.9999345 0.0038813 0.9999345 0.0038813 0.0000655 -0.0038813
4111020 0.0000651 -0.0037907 0.9999349 0.0037907 0.9999349 0.0037907 0.0000651 -0.0037907
4201409 0.0000648 -0.0037019 0.9999352 0.0037019 0.9999352 0.0037019 0.0000648 -0.0037019
4293785 0.0000645 -0.0036149 0.9999355 0.0036149 0.9999355 0.0036149 0.0000645 -0.0036149
4388193 0.0000642 -0.0035297 0.9999358 0.0035297 0.9999358 0.0035297 0.0000642 -0.0035297
4484676 0.0000639 -0.0034460 0.9999361 0.0034460 0.9999361 0.0034460 0.0000639 -0.0034460
4583281 0.0000637 -0.0033641 0.9999363 0.0033641 0.9999363 0.0033641 0.0000637 -0.0033641
4684054 0.0000635 -0.0032837 0.9999365 0.0032837 0.9999365 0.0032837 0.0000635 -0.0032837
4787042 0.0000633 -0.0032049 0.9999367 0.0032049 0.9999367 0.0032049 0.0000633 -0.0032049
4892295 0.0000632 -0.0031276 0.9999368 0.0031276 0.9999368 0.0031276 0.0000632 -0.0031276
4999862 0.0000630 -0.0030518 0.9999370 0.0030518 0.9999370 0.0030518 0.0000630 -0.0030518
5109794 0.0000629 -0.0029775 0.9999371 0.0029775 0.9999371 0.0029775 0.0000629 -0.0029775
5222143 0.0000629 -0.0029045 0.9999371 0.0029045 0.9999371 0.0029045 0.0000629 -0.0029045
5336962 0.0000628 -0.0028330 0.9999372 0.0028330 0.9999372 0.0028330 0.0000628 -0.0028330
5454306 0.0000628 -0.0027628 0.9999372 0.0027628 0.9999372 0.0027628 0.0000628 -0.0027628
5574230 0.0000628 -0.0026939 0.9999372 0.0026939 0.9999372 0.0026939 0.0000628 -0.0026939
5696791 0.0000628 -0.0026263 0.9999372 0.0026263 0.9999372 0.0026263 0.0000628 -0.0026263
5822046 0.0000628 -0.0025600 0.9999372 0.0025600 0.9999372 0.0025600 0.0000628 -0.0025600
5950055 0.0000629 -0.0024948 0.9999371 0.0024948 0.9999371 0.0024948 0.0000629 -0.0024948
6080879 0.0000630 -0.0024309 0.9999370 0.0024309 0.9999370 0.0024309 0.0000630 -0.0024309
6214580 0.0000631 -0.0023681 0.9999369 0.0023681 0.9999369 0.0023681 0.0000631 -0.0023681
6351220 0.0000632 -0.0023064 0.9999368 0.0023064 0.9999368 0.0023064 0.0000632 -0.0023064
6490864 0.0000633 -0.0022458 0.9999367 0.0022458 0.9999367 0.0022458 0.0000633 -0.0022458
6633579 0.0000635 -0.0021863 0.9999365 0.0021863 0.9999365 0.0021863 0.0000635 -0.0021863
6779431 0.0000636 -0.0021279 0.9999364 0.0021279 0.9999364 0.0021279 0.0000636 -0.0021279
6928491 0.0000638 -0.0020704 0.9999362 0.0020704 0.9999362 0.0020704 0.0000638 -0.0020704
7080828 0.0000640 -0.0020139 0.9999360 0.0020139 0.9999360 0.0020139 0.0000640 -0.0020139
7236514 0.0000642 -0.0019584 0.9999358 0.0019584 0.9999358 0.0019584 0.0000642 -0.0019584
7395623 0.0000645 -0.0019038 0.9999355 0.0019038 0.9999355 0.0019038 0.0000645 -0.0019038
7558231 0.0000647 -0.0018502 0.9999353 0.0018502 0.9999353 0.0018502 0.0000647 -0.0018502
7724414 0.0000650 -0.0017973 0.9999350 0.0017973 0.9999350 0.0017973 0.0000650 -0.0017973
7894251 0.0000653 -0.0017454 0.9999347 0.0017454 0.9999347 0.0017454 0.0000653 -0.0017454
8067822 0.0000656 -0.0016943 0.9999344 0.0016943 0.9999344 0.0016943 0.0000656 -0.0016943
8245209 0.0000659 -0.0016439 0.9999341 0.0016439 0.9999341 0.0016439 0.0000659 -0.0016439
8426497 0.0000663 -0.0015944 0.9999337 0.0015944 0.9999337 0.0015944 0.0000663 -0.0015944
8611770 0.0000666 -0.0015456 0.9999334 0.0015456 0.9999334 0.0015456 0.0000666 -0.0015456
8801117 0.0000670 -0.0014975 0.9999330 0.0014975 0.9999330 0.0014975 0.0000670 -0.0014975
8994628 0.0000674 -0.0014501 0.9999326 0.0014501 0.9999326 0.0014501 0.0000674 -0.0014501
9192393 0.0000679 -0.0014034 0.9999321 0.0014034 0.9999321 0.0014034 0.0000679 -0.0014034
9394506 0.0000683 -0.0013574 0.9999317 0.0013574 0.9999317 0.0013574 0.0000683 -0.0013574
9601063 0.0000688 -0.0013120 0.9999312 0.0013120 0.9999312 0.0013120 0.0000688 -0.0013120
9812162 0.0000693 -0.0012672 0.9999307 0.0012672 0.9999307 0.0012672 0.0000693 -0.0012672
10027902 0.0000698 -0.0012230 0.9999302 0.0012230 0.9999302 0.0012230 0.0000698 -0.0012230
10248386 0.0000703 -0.0011794 0.9999297 0.0011794 0.9999297 0.0011794 0.0000703 -0.0011794
10473717 0.0000709 -0.0011363 0.9999291 0.0011363 0.9999291 0.0011363 0.0000709 -0.0011363
10704003 0.0000715 -0.0010938 0.9999285 0.0010938 0.9999285 0.0010938 0.0000715 -0.0010938
10939352 0.0000721 -0.0010517 0.9999279 0.0010517 0.9999279 0.0010517 0.0000721 -0.0010517
11179876 0.0000727 -0.0010101 0.9999273 0.0010101 0.9999273 0.0010101 0.0000727 -0.0010101
11425688 0.0000734 -0.0009690 0.9999266 0.0009690 0.9999266 0.0009690 0.0000734 -0.0009690
11676904 0.0000741 -0.0009283 0.9999259 0.0009283 0.9999259 0.0009283 0.0000741 -0.0009283
11933645 0.0000749 -0.0008881 0.9999251 0.0008881 0.9999251 0.0008881 0.0000749 -0.0008881
12196030 0.0000757 -0.0008482 0.9999243 0.0008482 0.9999243 0.0008482 0.0000757 -0.0008482
12464184 0.0000765 -0.0008087 0.9999235 0.0008087 0.9999235 0.0008087 0.0000765 -0.0008087
12738235 0.0000773 -0.0007696 0.9999227 0.0007696 0.9999227 0.0007696 0.0000773 -0.0007696
13018310 0.0000782 -0.0007308 0.9999218 0.0007308 0.9999218 0.0007308 0.0000782 -0.0007308
13304544 0.0000792 -0.0006923 0.9999208 0.0006923 0.9999208 0.0006923 0.0000792 -0.0006923
13597071 0.0000802 -0.0006541 0.9999198 0.0006541 0.9999198 0.0006541 0.0000802 -0.0006541
13896030 0.0000812 -0.0006162 0.9999188 0.0006162 0.9999188 0.0006162 0.0000812 -0.0006162
14201563 0.0000823 -0.0005785 0.9999177 0.0005785 0.9999177 0.0005785 0.0000823 -0.0005785
14513813 0.0000834 -0.0005410 0.9999166 0.0005410 0.9999166 0.0005410 0.0000834 -0.0005410
14832928 0.0000846 -0.0005038 0.9999154 0.0005038 0.9999154 0.0005038 0.0000846 -0.0005038
15159060 0.0000859 -0.0004667 0.9999141 0.0004667 0.9999141 0.0004667 0.0000859 -0.0004667
15492362 0.0000872 -0.0004298 0.9999128 0.0004298 0.9999128 0.0004298 0.0000872 -0.0004298
15832993 0.0000886 -0.0003930 0.9999114 0.0003930 0.9999114 0.0003930 0.0000886 -0.0003930
16181113 0.0000900 -0.0003563 0.9999100 0.0003563 0.9999100 0.0003563 0.0000900 -0.0003563
16536888 0.0000916 -0.0003197 0.9999084 0.0003197 0.9999084 0.0003197 0.0000916 -0.0003197
16900485 0.0000932 -0.0002832 0.9999068 0.0002832 0.9999068 0.0002832 0.0000932 -0.0002832
17272076 0.0000949 -0.0002467 0.9999051 0.0002467 0.9999051 0.0002467 0.0000949 -0.0002467
17651837 0.0000967 -0.0002102 0.9999033 0.0002102 0.9999033 0.0002102 0.0000967 -0.0002102
18039948 0.0000986 -0.0001737 0.9999014 0.0001737 0.9999014 0.0001737 0.0000986 -0.0001737
18436593 0.0001006 -0.0001371 0.9998994 0.0001371 0.9998994 0.0001371 0.0001006 -0.0001371
18841959 0.0001027 -0.0001005 0.9998973 0.0001005 0.9998973 0.0001005 0.0001027 -0.0001005
19256237 0.0001050 -0.0000637 0.9998950 0.0000637 0.9998950 0.0000637 0.0001050 -0.0000637
19679624 0.0001074 -0.0000268 0.9998926 0.0000268 0.9998926 0.0000268 0.0001074 -0.0000268
20112321 0.0001100 0.0000103 0.9998900 -0.0000103 0.9998900 -0.0000103 0.0001100 0.0000103
20554530 0.0001127 0.0000477 0.9998873 -0.0000477 0.9998873 -0.0000477 0.0001127 0.0000477
21006463 0.0001156 0.0000853 0.9998844 -0.0000853 0.9998844 -0.0000853 0.0001156 0.0000853
21468333 0.0001187 0.0001232 0.9998813 -0.0001232 0.9998813 -0.0001232 0.0001187 0.0001232
21940357 0.0001220 0.0001615 0.9998780 -0.0001615 0.9998780 -0.0001615 0.0001220 0.0001615
22422760 0.0001256 0.0002002 0.9998744 -0.0002002 0.9998744 -0.0002002 0.0001256 0.0002002
22915770 0.0001295 0.0002394 0.9998705 -0.0002394 0.9998705 -0.0002394 0.0001295 0.0002394
23419619 0.0001336 0.0002791 0.9998664 -0.0002791 0.9998664 -0.0002791 0.0001336 0.0002791
23934547 0.0001381 0.0003194 0.9998619 -0.0003194 0.9998619 -0.0003194 0.0001381 0.0003194
24460796 0.0001430 0.0003605 0.9998570 -0.0003605 0.9998570 -0.0003605 0.0001430 0.0003605
24998616 0.0001484 0.0004023 0.9998516 -0.0004023 0.9998516 -0.0004023 0.0001484 0.0004023
25548261 0.0001543 0.0004450 0.9998457 -0.0004450 0.9998457 -0.0004450 0.0001543 0.0004450
26109991 0.0001608 0.0004888 0.9998392 -0.0004888 0.9998392 -0.0004888 0.0001608 0.0004888
26684072 0.0001680 0.0005337 0.9998320 -0.0005337 0.9998320 -0.0005337 0.0001680 0.0005337
27270775 0.0001761 0.0005799 0.9998239 -0.0005799 0.9998239 -0.0005799 0.0001761 0.0005799
27870378 0.0001852 0.0006276 0.9998148 -0.0006276 0.9998148 -0.0006276 0.0001852 0.0006276
28483164 0.0001956 0.0006771 0.9998044 -0.0006771 0.9998044 -0.0006771 0.0001956 0.0006771
29109424 0.0002076 0.0007285 0.9997924 -0.0007285 0.9997924 -0.0007285 0.0002076 0.0007285
29749453 0.0002214 0.0007823 0.9997786 -0.0007823 0.9997786 -0.0007823 0.0002214 0.0007823
30403555 0.0002377 0.0008386 0.9997623 -0.0008386 0.9997623 -0.0008386 0.0002377 0.0008386
31072038 0.0002572 0.0008980 0.9997428 -0.0008980 0.9997428 -0.0008980 0.0002572 0.0008980
31755220 0.0002809 0.0009609 0.9997191 -0.0009609 0.9997191 -0.0009609 0.0002809 0.0009609
32453422 0.0003101 0.0010278 0.9996899 -0.0010278 0.9996899 -0.0010278 0.0003101 0.0010278
33166976 0.0003469 0.0010990 0.9996531 -0.0010990 0.9996531 -0.0010990 0.0003469 0.0010990
33896219 0.0003943 0.0011749 0.9996057 -0.0011749 0.9996057 -0.0011749 0.0003943 0.0011749
34641496 0.0004566 0.0012548 0.9995434 -0.0012548 0.9995434 -0.0012548 0.0004566 0.0012548
35403159 0.0005404 0.0013366 0.9994596 -0.0013366 0.9994596 -0.0013366 0.0005404 0.0013366
36181569 0.0006544 0.0014143 0.9993456 -0.0014143 0.9993456 -0.0014143 0.0006544 0.0014143
36977093 0.0008093 0.0014734 0.9991907 -0.0014734 0.9991907 -0.0014734 0.0008093 0.0014734
37790109 0.0010106 0.0014844 0.9989894 -0.0014844 0.9989894 -0.0014844 0.0010106 0.0014844
38621001 0.0012385 0.0014003 0.9987615 -0.0014003 0.9987615 -0.0014003 0.0012385 0.0014003
39470161 0.0014189 0.0011868 0.9985811 -0.0011868 0.9985811 -0.0011868 0.0014189 0.0011868
40337993 0.0014486 0.0008953 0.9985514 -0.0008953 0.9985514 -0.0008953 0.0014486 0.0008953
41224905 0.0013128 0.0006581 0.9986872 -0.0006581 0.9986872 -0.0006581 0.0013128 0.0006581
42131317 0.0011063 0.0005515 0.9988937 -0.0005515 0.9988937 -0.0005515 0.0011063 0.0005515
43057659 0.0009164 0.0005536 0.9990836 -0.0005536 0.9990836 -0.0005536 0.0009164 0.0005536
44004369 0.0007731 0.0006158 0.9992269 -0.0006158 0.9992269 -0.0006158 0.0007731 0.0006158
44971893 0.0006746 0.0007042 0.9993254 -0.0007042 0.9993254 -0.0007042 0.0006746 0.0007042
45960691 0.0006110 0.0008018 0.9993890 -0.0008018 0.9993890 -0.0008018 0.0006110 0.0008018
46971230 0.0005738 0.0009015 0.9994262 -0.0009015 0.9994262 -0.0009015 0.0005738 0.0009015
48003987 0.0005569 0.0010005 0.9994431 -0.0010005 0.9994431 -0.0010005 0.0005569 0.0010005
49059451 0.0005573 0.0010981 0.9994427 -0.0010981 0.9994427 -0.0010981 0.0005573 0.0010981
50138122 0.0005736 0.0011941 0.9994264 -0.0011941 0.9994264 -0.0011941 0.0005736 0.0011941
51240510 0.0006067 0.0012880 0.9993933 -0.0012880 0.9993933 -0.0012880 0.0006067 0.0012880
52367136 0.0006588 0.0013778 0.9993412 -0.0013778 0.9993412 -0.0013778 0.0006588 0.0013778
53518533 0.0007338 0.0014591 0.9992662 -0.0014591 0.9992662 -0.0014591 0.0007338 0.0014591
54695245 0.0008350 0.0015222 0.9991650 -0.0015222 0.9991650 -0.0015222 0.0008350 0.0015222
55897831 0.0009616 0.0015505 0.9990384 -0.0015505 0.9990384 -0.0015505 0.0009616 0.0015505
57126857 0.0010987 0.0015217 0.9989013 -0.0015217 0.9989013 -0.0015217 0.0010987 0.0015217
58382906 0.0012080 0.0014230 0.9987920 -0.0014230 0.9987920 -0.0014230 0.0012080 0.0014230
59666572 0.0012411 0.0012788 0.9987589 -0.0012788 0.9987589 -0.0012788 0.0012411 0.0012788
60978462 0.0011833 0.0011498 0.9988167 -0.0011498 0.9988167 -0.0011498 0.0011833 0.0011498
62319196 0.0010710 0.0010834 0.9989290 -0.0010834 0.9989290 -0.0010834 0.0010710 0.0010834
63689409 0.0009522 0.0010833 0.9990478 -0.0010833 0.9990478 -0.0010833 0.0009522 0.0010833
65089750 0.0008536 0.0011289 0.9991464 -0.0011289 0.9991464 -0.0011289 0.0008536 0.0011289
66520879 0.0007820 0.0011992 0.9992180 -0.0011992 0.9992180 -0.0011992 0.0007820 0.0011992
67983474 0.0007351 0.0012807 0.9992649 -0.0012807 0.9992649 -0.0012807 0.0007351 0.0012807
69478228 0.0007089 0.0013657 0.9992911 -0.0013657 0.9992911 -0.0013657 0.0007089 0.0013657
71005847 0.0006995 0.0014503 0.9993005 -0.0014503 0.9993005 -0.0014503 0.0006995 0.0014503
72567054 0.0007046 0.0015318 0.9992954 -0.0015318 0.9992954 -0.0015318 0.0007046 0.0015318
74162587 0.0007222 0.0016083 0.9992778 -0.0016083 0.9992778 -0.0016083 0.0007222 0.0016083
75793201 0.0007510 0.0016771 0.9992490 -0.0016771 0.9992490 -0.0016771 0.0007510 0.0016771
77459667 0.0007888 0.0017351 0.9992112 -0.0017351 0.9992112 -0.0017351 0.0007888 0.0017351
79162774 0.0008318 0.0017788 0.9991682 -0.0017788 0.9991682 -0.0017788 0.0008318 0.0017788
80903327 0.0008734 0.0018061 0.9991266 -0.0018061 0.9991266 -0.0018061 0.0008734 0.0018061
82682150 0.0009054 0.0018185 0.9990946 -0.0018185 0.9990946 -0.0018185 0.0009054 0.0018185
84500083 0.0009205 0.0018234 0.9990795 -0.0018234 0.9990795 -0.0018234 0.0009205 0.0018234
86357988 0.0009176 0.0018312 0.9990824 -0.0018312 0.9990824 -0.0018312 0.0009176 0.0018312
88256743 0.0009022 0.0018511 0.9990978 -0.0018511 0.9990978 -0.0018511 0.0009022 0.0018511
90197245 0.0008832 0.0018867 0.9991168 -0.0018867 0.9991168 -0.0018867 0.0008832 0.0018867
92180413 0.0008692 0.0019363 0.9991308 -0.0019363 0.9991308 -0.0019363 0.0008692 0.0019363
94207185 0.0008660 0.0019950 0.9991340 -0.0019950 0.9991340 -0.0019950 0.0008660 0.0019950
96278520 0.0008772 0.0020560 0.9991228 -0.0020560 0.9991228 -0.0020560 0.0008772 0.0020560
98395398 0.0009033 0.0021106 0.9990967 -0.0021106 0.9990967 -0.0021106 0.0009033 0.0021106
100558819 0.0009400 0.0021486 0.9990600 -0.0021486 0.9990600 -0.0021486 0.0009400 0.0021486
102769807 0.0009740 0.0021620 0.9990260 -0.0021620 0.9990260 -0.0021620 0.0009740 0.0021620
105029408 0.0009859 0.0021553 0.9990141 -0.0021553 0.9990141 -0.0021553 0.0009859 0.0021553
107338692 0.0009651 0.0021493 0.9990349 -0.0021493 0.9990349 -0.0021493 0.0009651 0.0021493
