!Murata Part Number: GRM21A5C2E222JWA1
!These Parameters are Measured in Series Mode Connection
!Data Generated on Mar 30, 2021
!       o--ll--o
!Port1            Port2
!       o------o
!Operation Temp=25[degC], DC Bias Voltage=0[V]
!Freq. Start=1000[kHz] Stop=1000[MHz] 401[Steps]
# Hz S RI R 50
!Freq.(Hz) S11(Real) S11(Imag) S21(Real) S21(Imag) S12(Real) S12(Imag) S22(Real) S22(Imag)
1000000 0.3584651 -0.4788913 0.6415349 0.4788913 0.6415349 0.4788913 0.3584651 -0.4788913
1017419 0.3505700 -0.4764980 0.6494300 0.4764980 0.6494300 0.4764980 0.3505700 -0.4764980
1035142 0.3427557 -0.4739879 0.6572443 0.4739879 0.6572443 0.4739879 0.3427557 -0.4739879
1053174 0.3350255 -0.4713641 0.6649745 0.4713641 0.6649745 0.4713641 0.3350255 -0.4713641
1071519 0.3273827 -0.4686303 0.6726173 0.4686303 0.6726173 0.4686303 0.3273827 -0.4686303
1090184 0.3198302 -0.4657898 0.6801698 0.4657898 0.6801698 0.4657898 0.3198302 -0.4657898
1109175 0.3123709 -0.4628463 0.6876291 0.4628463 0.6876291 0.4628463 0.3123709 -0.4628463
1128496 0.3050074 -0.4598035 0.6949926 0.4598035 0.6949926 0.4598035 0.3050074 -0.4598035
1148154 0.2977422 -0.4566651 0.7022578 0.4566651 0.7022578 0.4566651 0.2977422 -0.4566651
1168154 0.2905776 -0.4534348 0.7094224 0.4534348 0.7094224 0.4534348 0.2905776 -0.4534348
1188502 0.2835156 -0.4501166 0.7164844 0.4501166 0.7164844 0.4501166 0.2835156 -0.4501166
1209205 0.2765583 -0.4467143 0.7234417 0.4467143 0.7234417 0.4467143 0.2765583 -0.4467143
1230269 0.2697073 -0.4432318 0.7302927 0.4432318 0.7302927 0.4432318 0.2697073 -0.4432318
1251699 0.2629643 -0.4396730 0.7370357 0.4396730 0.7370357 0.4396730 0.2629643 -0.4396730
1273503 0.2563306 -0.4360419 0.7436694 0.4360419 0.7436694 0.4360419 0.2563306 -0.4360419
1295687 0.2498075 -0.4323422 0.7501925 0.4323422 0.7501925 0.4323422 0.2498075 -0.4323422
1318257 0.2433960 -0.4285781 0.7566040 0.4285781 0.7566040 0.4285781 0.2433960 -0.4285781
1341220 0.2370969 -0.4247532 0.7629031 0.4247532 0.7629031 0.4247532 0.2370969 -0.4247532
1364583 0.2309111 -0.4208716 0.7690889 0.4208716 0.7690889 0.4208716 0.2309111 -0.4208716
1388353 0.2248391 -0.4169369 0.7751609 0.4169369 0.7751609 0.4169369 0.2248391 -0.4169369
1412538 0.2188813 -0.4129531 0.7811187 0.4129531 0.7811187 0.4129531 0.2188813 -0.4129531
1437143 0.2130379 -0.4089238 0.7869621 0.4089238 0.7869621 0.4089238 0.2130379 -0.4089238
1462177 0.2073090 -0.4048527 0.7926910 0.4048527 0.7926910 0.4048527 0.2073090 -0.4048527
1487647 0.2016948 -0.4007434 0.7983052 0.4007434 0.7983052 0.4007434 0.2016948 -0.4007434
1513561 0.1961949 -0.3965995 0.8038051 0.3965995 0.8038051 0.3965995 0.1961949 -0.3965995
1539927 0.1908092 -0.3924246 0.8091908 0.3924246 0.8091908 0.3924246 0.1908092 -0.3924246
1566751 0.1855371 -0.3882219 0.8144629 0.3882219 0.8144629 0.3882219 0.1855371 -0.3882219
1594043 0.1803783 -0.3839949 0.8196217 0.3839949 0.8196217 0.3839949 0.1803783 -0.3839949
1621810 0.1753320 -0.3797469 0.8246680 0.3797469 0.8246680 0.3797469 0.1753320 -0.3797469
1650061 0.1703976 -0.3754809 0.8296024 0.3754809 0.8296024 0.3754809 0.1703976 -0.3754809
1678804 0.1655741 -0.3712001 0.8344259 0.3712001 0.8344259 0.3712001 0.1655741 -0.3712001
1708048 0.1608608 -0.3669076 0.8391392 0.3669076 0.8391392 0.3669076 0.1608608 -0.3669076
1737801 0.1562565 -0.3626062 0.8437435 0.3626062 0.8437435 0.3626062 0.1562565 -0.3626062
1768072 0.1517602 -0.3582987 0.8482398 0.3582987 0.8482398 0.3582987 0.1517602 -0.3582987
1798871 0.1473707 -0.3539879 0.8526293 0.3539879 0.8526293 0.3539879 0.1473707 -0.3539879
1830206 0.1430868 -0.3496764 0.8569132 0.3496764 0.8569132 0.3496764 0.1430868 -0.3496764
1862087 0.1389071 -0.3453668 0.8610929 0.3453668 0.8610929 0.3453668 0.1389071 -0.3453668
1894524 0.1348304 -0.3410616 0.8651696 0.3410616 0.8651696 0.3410616 0.1348304 -0.3410616
1927525 0.1308552 -0.3367630 0.8691448 0.3367630 0.8691448 0.3367630 0.1308552 -0.3367630
1961101 0.1269800 -0.3324734 0.8730200 0.3324734 0.8730200 0.3324734 0.1269800 -0.3324734
1995262 0.1232034 -0.3281949 0.8767966 0.3281949 0.8767966 0.3281949 0.1232034 -0.3281949
2030019 0.1195237 -0.3239296 0.8804763 0.3239296 0.8804763 0.3239296 0.1195237 -0.3239296
2065380 0.1159395 -0.3196794 0.8840605 0.3196794 0.8840605 0.3196794 0.1159395 -0.3196794
2101358 0.1124491 -0.3154464 0.8875509 0.3154464 0.8875509 0.3154464 0.1124491 -0.3154464
2137962 0.1090508 -0.3112322 0.8909492 0.3112322 0.8909492 0.3112322 0.1090508 -0.3112322
2175204 0.1057431 -0.3070386 0.8942569 0.3070386 0.8942569 0.3070386 0.1057431 -0.3070386
2213095 0.1025242 -0.3028672 0.8974758 0.3028672 0.8974758 0.3028672 0.1025242 -0.3028672
2251645 0.0993925 -0.2987196 0.9006075 0.2987196 0.9006075 0.2987196 0.0993925 -0.2987196
2290868 0.0963462 -0.2945973 0.9036538 0.2945973 0.9036538 0.2945973 0.0963462 -0.2945973
2330773 0.0933837 -0.2905015 0.9066163 0.2905015 0.9066163 0.2905015 0.0933837 -0.2905015
2371374 0.0905032 -0.2864336 0.9094968 0.2864336 0.9094968 0.2864336 0.0905032 -0.2864336
2412682 0.0877031 -0.2823948 0.9122969 0.2823948 0.9122969 0.2823948 0.0877031 -0.2823948
2454709 0.0849815 -0.2783863 0.9150185 0.2783863 0.9150185 0.2783863 0.0849815 -0.2783863
2497468 0.0823369 -0.2744091 0.9176631 0.2744091 0.9176631 0.2744091 0.0823369 -0.2744091
2540973 0.0797674 -0.2704642 0.9202326 0.2704642 0.9202326 0.2704642 0.0797674 -0.2704642
2585235 0.0772715 -0.2665526 0.9227285 0.2665526 0.9227285 0.2665526 0.0772715 -0.2665526
2630268 0.0748474 -0.2626750 0.9251526 0.2626750 0.9251526 0.2626750 0.0748474 -0.2626750
2676086 0.0724934 -0.2588324 0.9275066 0.2588324 0.9275066 0.2588324 0.0724934 -0.2588324
2722701 0.0702079 -0.2550254 0.9297921 0.2550254 0.9297921 0.2550254 0.0702079 -0.2550254
2770129 0.0679893 -0.2512547 0.9320107 0.2512547 0.9320107 0.2512547 0.0679893 -0.2512547
2818383 0.0658359 -0.2475209 0.9341641 0.2475209 0.9341641 0.2475209 0.0658359 -0.2475209
2867477 0.0637461 -0.2438246 0.9362539 0.2438246 0.9362539 0.2438246 0.0637461 -0.2438246
2917427 0.0617183 -0.2401662 0.9382817 0.2401662 0.9382817 0.2401662 0.0617183 -0.2401662
2968247 0.0597511 -0.2365463 0.9402489 0.2365463 0.9402489 0.2365463 0.0597511 -0.2365463
3019952 0.0578427 -0.2329652 0.9421573 0.2329652 0.9421573 0.2329652 0.0578427 -0.2329652
3072557 0.0559918 -0.2294232 0.9440082 0.2294232 0.9440082 0.2294232 0.0559918 -0.2294232
3126079 0.0541967 -0.2259207 0.9458033 0.2259207 0.9458033 0.2259207 0.0541967 -0.2259207
3180534 0.0524561 -0.2224579 0.9475439 0.2224579 0.9475439 0.2224579 0.0524561 -0.2224579
3235937 0.0507685 -0.2190351 0.9492315 0.2190351 0.9492315 0.2190351 0.0507685 -0.2190351
3292305 0.0491324 -0.2156524 0.9508676 0.2156524 0.9508676 0.2156524 0.0491324 -0.2156524
3349654 0.0475466 -0.2123100 0.9524534 0.2123100 0.9524534 0.2123100 0.0475466 -0.2123100
3408003 0.0460095 -0.2090079 0.9539905 0.2090079 0.9539905 0.2090079 0.0460095 -0.2090079
3467369 0.0445199 -0.2057462 0.9554801 0.2057462 0.9554801 0.2057462 0.0445199 -0.2057462
3527768 0.0430764 -0.2025251 0.9569236 0.2025251 0.9569236 0.2025251 0.0430764 -0.2025251
3589219 0.0416778 -0.1993444 0.9583222 0.1993444 0.9583222 0.1993444 0.0416778 -0.1993444
3651741 0.0403227 -0.1962041 0.9596773 0.1962041 0.9596773 0.1962041 0.0403227 -0.1962041
3715352 0.0390100 -0.1931042 0.9609900 0.1931042 0.9609900 0.1931042 0.0390100 -0.1931042
3780071 0.0377385 -0.1900447 0.9622615 0.1900447 0.9622615 0.1900447 0.0377385 -0.1900447
3845918 0.0365069 -0.1870253 0.9634931 0.1870253 0.9634931 0.1870253 0.0365069 -0.1870253
3912911 0.0353142 -0.1840461 0.9646858 0.1840461 0.9646858 0.1840461 0.0353142 -0.1840461
3981072 0.0341591 -0.1811067 0.9658409 0.1811067 0.9658409 0.1811067 0.0341591 -0.1811067
4050419 0.0330406 -0.1782072 0.9669594 0.1782072 0.9669594 0.1782072 0.0330406 -0.1782072
4120975 0.0319576 -0.1753471 0.9680424 0.1753471 0.9680424 0.1753471 0.0319576 -0.1753471
4192760 0.0309091 -0.1725265 0.9690909 0.1725265 0.9690909 0.1725265 0.0309091 -0.1725265
4265795 0.0298940 -0.1697449 0.9701060 0.1697449 0.9701060 0.1697449 0.0298940 -0.1697449
4340103 0.0289114 -0.1670023 0.9710886 0.1670023 0.9710886 0.1670023 0.0289114 -0.1670023
4415704 0.0279602 -0.1642982 0.9720398 0.1642982 0.9720398 0.1642982 0.0279602 -0.1642982
4492623 0.0270395 -0.1616325 0.9729605 0.1616325 0.9729605 0.1616325 0.0270395 -0.1616325
4570882 0.0261484 -0.1590049 0.9738516 0.1590049 0.9738516 0.1590049 0.0261484 -0.1590049
4650504 0.0252861 -0.1564150 0.9747139 0.1564150 0.9747139 0.1564150 0.0252861 -0.1564150
4731513 0.0244516 -0.1538626 0.9755484 0.1538626 0.9755484 0.1538626 0.0244516 -0.1538626
4813933 0.0236440 -0.1513473 0.9763560 0.1513473 0.9763560 0.1513473 0.0236440 -0.1513473
4897788 0.0228626 -0.1488688 0.9771374 0.1488688 0.9771374 0.1488688 0.0228626 -0.1488688
4983105 0.0221065 -0.1464268 0.9778935 0.1464268 0.9778935 0.1464268 0.0221065 -0.1464268
5069907 0.0213750 -0.1440209 0.9786250 0.1440209 0.9786250 0.1440209 0.0213750 -0.1440209
5158222 0.0206673 -0.1416508 0.9793327 0.1416508 0.9793327 0.1416508 0.0206673 -0.1416508
5248075 0.0199826 -0.1393161 0.9800174 0.1393161 0.9800174 0.1393161 0.0199826 -0.1393161
5339493 0.0193203 -0.1370165 0.9806797 0.1370165 0.9806797 0.1370165 0.0193203 -0.1370165
5432503 0.0186797 -0.1347515 0.9813203 0.1347515 0.9813203 0.1347515 0.0186797 -0.1347515
5527134 0.0180599 -0.1325208 0.9819401 0.1325208 0.9819401 0.1325208 0.0180599 -0.1325208
5623413 0.0174605 -0.1303241 0.9825395 0.1303241 0.9825395 0.1303241 0.0174605 -0.1303241
5721370 0.0168808 -0.1281609 0.9831192 0.1281609 0.9831192 0.1281609 0.0168808 -0.1281609
5821032 0.0163200 -0.1260308 0.9836800 0.1260308 0.9836800 0.1260308 0.0163200 -0.1260308
5922431 0.0157777 -0.1239335 0.9842223 0.1239335 0.9842223 0.1239335 0.0157777 -0.1239335
6025596 0.0152533 -0.1218686 0.9847467 0.1218686 0.9847467 0.1218686 0.0152533 -0.1218686
6130558 0.0147461 -0.1198357 0.9852539 0.1198357 0.9852539 0.1198357 0.0147461 -0.1198357
6237348 0.0142557 -0.1178344 0.9857443 0.1178344 0.9857443 0.1178344 0.0142557 -0.1178344
6345999 0.0137815 -0.1158643 0.9862185 0.1158643 0.9862185 0.1158643 0.0137815 -0.1158643
6456542 0.0133229 -0.1139250 0.9866771 0.1139250 0.9866771 0.1139250 0.0133229 -0.1139250
6569011 0.0128795 -0.1120161 0.9871205 0.1120161 0.9871205 0.1120161 0.0128795 -0.1120161
6683439 0.0124508 -0.1101372 0.9875492 0.1101372 0.9875492 0.1101372 0.0124508 -0.1101372
6799860 0.0120363 -0.1082879 0.9879637 0.1082879 0.9879637 0.1082879 0.0120363 -0.1082879
6918310 0.0116355 -0.1064679 0.9883645 0.1064679 0.9883645 0.1064679 0.0116355 -0.1064679
7038822 0.0112481 -0.1046767 0.9887519 0.1046767 0.9887519 0.1046767 0.0112481 -0.1046767
7161434 0.0108735 -0.1029140 0.9891265 0.1029140 0.9891265 0.1029140 0.0108735 -0.1029140
7286182 0.0105114 -0.1011794 0.9894886 0.1011794 0.9894886 0.1011794 0.0105114 -0.1011794
7413102 0.0101613 -0.0994724 0.9898387 0.0994724 0.9898387 0.0994724 0.0101613 -0.0994724
7542234 0.0098229 -0.0977927 0.9901771 0.0977927 0.9901771 0.0977927 0.0098229 -0.0977927
7673615 0.0094958 -0.0961399 0.9905042 0.0961399 0.9905042 0.0961399 0.0094958 -0.0961399
7807284 0.0091796 -0.0945136 0.9908204 0.0945136 0.9908204 0.0945136 0.0091796 -0.0945136
7943282 0.0088739 -0.0929135 0.9911261 0.0929135 0.9911261 0.0929135 0.0088739 -0.0929135
8081649 0.0085785 -0.0913392 0.9914215 0.0913392 0.9914215 0.0913392 0.0085785 -0.0913392
8222426 0.0082929 -0.0897902 0.9917071 0.0897902 0.9917071 0.0897902 0.0082929 -0.0897902
8365656 0.0080169 -0.0882663 0.9919831 0.0882663 0.9919831 0.0882663 0.0080169 -0.0882663
8511380 0.0077501 -0.0867671 0.9922499 0.0867671 0.9922499 0.0867671 0.0077501 -0.0867671
8659643 0.0074923 -0.0852921 0.9925077 0.0852921 0.9925077 0.0852921 0.0074923 -0.0852921
8810489 0.0072430 -0.0838411 0.9927570 0.0838411 0.9927570 0.0838411 0.0072430 -0.0838411
8963962 0.0070022 -0.0824136 0.9929978 0.0824136 0.9929978 0.0824136 0.0070022 -0.0824136
9120108 0.0067694 -0.0810094 0.9932306 0.0810094 0.9932306 0.0810094 0.0067694 -0.0810094
9278975 0.0065445 -0.0796281 0.9934555 0.0796281 0.9934555 0.0796281 0.0065445 -0.0796281
9440609 0.0063271 -0.0782693 0.9936729 0.0782693 0.9936729 0.0782693 0.0063271 -0.0782693
9605058 0.0061170 -0.0769326 0.9938830 0.0769326 0.9938830 0.0769326 0.0061170 -0.0769326
9772372 0.0059140 -0.0756178 0.9940860 0.0756178 0.9940860 0.0756178 0.0059140 -0.0756178
9942601 0.0057178 -0.0743245 0.9942822 0.0743245 0.9942822 0.0743245 0.0057178 -0.0743245
10115795 0.0055282 -0.0730524 0.9944718 0.0730524 0.9944718 0.0730524 0.0055282 -0.0730524
10292005 0.0053450 -0.0718011 0.9946550 0.0718011 0.9946550 0.0718011 0.0053450 -0.0718011
10471285 0.0051679 -0.0705703 0.9948321 0.0705703 0.9948321 0.0705703 0.0051679 -0.0705703
10653689 0.0049969 -0.0693598 0.9950031 0.0693598 0.9950031 0.0693598 0.0049969 -0.0693598
10839269 0.0048316 -0.0681691 0.9951684 0.0681691 0.9951684 0.0681691 0.0048316 -0.0681691
11028082 0.0046719 -0.0669979 0.9953281 0.0669979 0.9953281 0.0669979 0.0046719 -0.0669979
11220185 0.0045176 -0.0658461 0.9954824 0.0658461 0.9954824 0.0658461 0.0045176 -0.0658461
11415633 0.0043685 -0.0647131 0.9956315 0.0647131 0.9956315 0.0647131 0.0043685 -0.0647131
11614486 0.0042245 -0.0635988 0.9957755 0.0635988 0.9957755 0.0635988 0.0042245 -0.0635988
11816803 0.0040853 -0.0625029 0.9959147 0.0625029 0.9959147 0.0625029 0.0040853 -0.0625029
12022644 0.0039508 -0.0614250 0.9960492 0.0614250 0.9960492 0.0614250 0.0039508 -0.0614250
12232071 0.0038209 -0.0603648 0.9961791 0.0603648 0.9961791 0.0603648 0.0038209 -0.0603648
12445146 0.0036955 -0.0593221 0.9963045 0.0593221 0.9963045 0.0593221 0.0036955 -0.0593221
12661933 0.0035742 -0.0582966 0.9964258 0.0582966 0.9964258 0.0582966 0.0035742 -0.0582966
12882496 0.0034571 -0.0572881 0.9965429 0.0572881 0.9965429 0.0572881 0.0034571 -0.0572881
13106900 0.0033440 -0.0562961 0.9966560 0.0562961 0.9966560 0.0562961 0.0033440 -0.0562961
13335214 0.0032347 -0.0553205 0.9967653 0.0553205 0.9967653 0.0553205 0.0032347 -0.0553205
13567505 0.0031291 -0.0543610 0.9968709 0.0543610 0.9968709 0.0543610 0.0031291 -0.0543610
13803843 0.0030271 -0.0534173 0.9969729 0.0534173 0.9969729 0.0534173 0.0030271 -0.0534173
14044297 0.0029286 -0.0524892 0.9970714 0.0524892 0.9970714 0.0524892 0.0029286 -0.0524892
14288940 0.0028335 -0.0515764 0.9971665 0.0515764 0.9971665 0.0515764 0.0028335 -0.0515764
14537844 0.0027416 -0.0506786 0.9972584 0.0506786 0.9972584 0.0506786 0.0027416 -0.0506786
14791084 0.0026529 -0.0497956 0.9973471 0.0497956 0.9973471 0.0497956 0.0026529 -0.0497956
15048735 0.0025671 -0.0489272 0.9974329 0.0489272 0.9974329 0.0489272 0.0025671 -0.0489272
15310875 0.0024844 -0.0480731 0.9975156 0.0480731 0.9975156 0.0480731 0.0024844 -0.0480731
15577580 0.0024044 -0.0472331 0.9975956 0.0472331 0.9975956 0.0472331 0.0024044 -0.0472331
15848932 0.0023272 -0.0464069 0.9976728 0.0464069 0.9976728 0.0464069 0.0023272 -0.0464069
16125010 0.0022527 -0.0455943 0.9977473 0.0455943 0.9977473 0.0455943 0.0022527 -0.0455943
16405898 0.0021807 -0.0447951 0.9978193 0.0447951 0.9978193 0.0447951 0.0021807 -0.0447951
16691678 0.0021112 -0.0440090 0.9978888 0.0440090 0.9978888 0.0440090 0.0021112 -0.0440090
16982437 0.0020441 -0.0432359 0.9979559 0.0432359 0.9979559 0.0432359 0.0020441 -0.0432359
17278260 0.0019793 -0.0424754 0.9980207 0.0424754 0.9980207 0.0424754 0.0019793 -0.0424754
17579236 0.0019168 -0.0417275 0.9980832 0.0417275 0.9980832 0.0417275 0.0019168 -0.0417275
17885455 0.0018564 -0.0409918 0.9981436 0.0409918 0.9981436 0.0409918 0.0018564 -0.0409918
18197009 0.0017981 -0.0402682 0.9982019 0.0402682 0.9982019 0.0402682 0.0017981 -0.0402682
18513989 0.0017418 -0.0395564 0.9982582 0.0395564 0.9982582 0.0395564 0.0017418 -0.0395564
18836491 0.0016875 -0.0388563 0.9983125 0.0388563 0.9983125 0.0388563 0.0016875 -0.0388563
19164611 0.0016351 -0.0381677 0.9983649 0.0381677 0.9983649 0.0381677 0.0016351 -0.0381677
19498446 0.0015845 -0.0374903 0.9984155 0.0374903 0.9984155 0.0374903 0.0015845 -0.0374903
19838097 0.0015357 -0.0368240 0.9984643 0.0368240 0.9984643 0.0368240 0.0015357 -0.0368240
20183664 0.0014886 -0.0361686 0.9985114 0.0361686 0.9985114 0.0361686 0.0014886 -0.0361686
20535250 0.0014432 -0.0355239 0.9985568 0.0355239 0.9985568 0.0355239 0.0014432 -0.0355239
20892961 0.0013994 -0.0348896 0.9986006 0.0348896 0.9986006 0.0348896 0.0013994 -0.0348896
21256903 0.0013571 -0.0342657 0.9986429 0.0342657 0.9986429 0.0342657 0.0013571 -0.0342657
21627185 0.0013163 -0.0336519 0.9986837 0.0336519 0.9986837 0.0336519 0.0013163 -0.0336519
22003917 0.0012769 -0.0330481 0.9987231 0.0330481 0.9987231 0.0330481 0.0012769 -0.0330481
22387211 0.0012390 -0.0324540 0.9987610 0.0324540 0.9987610 0.0324540 0.0012390 -0.0324540
22777182 0.0012024 -0.0318696 0.9987976 0.0318696 0.9987976 0.0318696 0.0012024 -0.0318696
23173946 0.0011671 -0.0312946 0.9988329 0.0312946 0.9988329 0.0312946 0.0011671 -0.0312946
23577622 0.0011331 -0.0307290 0.9988669 0.0307290 0.9988669 0.0307290 0.0011331 -0.0307290
23988329 0.0011003 -0.0301724 0.9988997 0.0301724 0.9988997 0.0301724 0.0011003 -0.0301724
24406191 0.0010687 -0.0296248 0.9989313 0.0296248 0.9989313 0.0296248 0.0010687 -0.0296248
24831331 0.0010383 -0.0290859 0.9989617 0.0290859 0.9989617 0.0290859 0.0010383 -0.0290859
25263877 0.0010090 -0.0285558 0.9989910 0.0285558 0.9989910 0.0285558 0.0010090 -0.0285558
25703958 0.0009807 -0.0280341 0.9990193 0.0280341 0.9990193 0.0280341 0.0009807 -0.0280341
26151704 0.0009535 -0.0275207 0.9990465 0.0275207 0.9990465 0.0275207 0.0009535 -0.0275207
26607251 0.0009273 -0.0270155 0.9990727 0.0270155 0.9990727 0.0270155 0.0009273 -0.0270155
27070732 0.0009020 -0.0265184 0.9990980 0.0265184 0.9990980 0.0265184 0.0009020 -0.0265184
27542287 0.0008777 -0.0260292 0.9991223 0.0260292 0.9991223 0.0260292 0.0008777 -0.0260292
28022056 0.0008544 -0.0255477 0.9991456 0.0255477 0.9991456 0.0255477 0.0008544 -0.0255477
28510183 0.0008319 -0.0250739 0.9991681 0.0250739 0.9991681 0.0250739 0.0008319 -0.0250739
29006812 0.0008102 -0.0246075 0.9991898 0.0246075 0.9991898 0.0246075 0.0008102 -0.0246075
29512092 0.0007894 -0.0241484 0.9992106 0.0241484 0.9992106 0.0241484 0.0007894 -0.0241484
30026174 0.0007694 -0.0236966 0.9992306 0.0236966 0.9992306 0.0236966 0.0007694 -0.0236966
30549211 0.0007501 -0.0232518 0.9992499 0.0232518 0.9992499 0.0232518 0.0007501 -0.0232518
31081359 0.0007316 -0.0228140 0.9992684 0.0228140 0.9992684 0.0228140 0.0007316 -0.0228140
31622777 0.0007138 -0.0223830 0.9992862 0.0223830 0.9992862 0.0223830 0.0007138 -0.0223830
32173625 0.0006968 -0.0219587 0.9993032 0.0219587 0.9993032 0.0219587 0.0006968 -0.0219587
32734069 0.0006804 -0.0215410 0.9993196 0.0215410 0.9993196 0.0215410 0.0006804 -0.0215410
33304276 0.0006646 -0.0211297 0.9993354 0.0211297 0.9993354 0.0211297 0.0006646 -0.0211297
33884416 0.0006495 -0.0207247 0.9993505 0.0207247 0.9993505 0.0207247 0.0006495 -0.0207247
34474661 0.0006351 -0.0203260 0.9993649 0.0203260 0.9993649 0.0203260 0.0006351 -0.0203260
35075187 0.0006212 -0.0199333 0.9993788 0.0199333 0.9993788 0.0199333 0.0006212 -0.0199333
35686175 0.0006079 -0.0195467 0.9993921 0.0195467 0.9993921 0.0195467 0.0006079 -0.0195467
36307805 0.0005951 -0.0191658 0.9994049 0.0191658 0.9994049 0.0191658 0.0005951 -0.0191658
36940264 0.0005829 -0.0187908 0.9994171 0.0187908 0.9994171 0.0187908 0.0005829 -0.0187908
37583740 0.0005712 -0.0184214 0.9994288 0.0184214 0.9994288 0.0184214 0.0005712 -0.0184214
38238425 0.0005600 -0.0180575 0.9994400 0.0180575 0.9994400 0.0180575 0.0005600 -0.0180575
38904514 0.0005493 -0.0176991 0.9994507 0.0176991 0.9994507 0.0176991 0.0005493 -0.0176991
39582206 0.0005391 -0.0173459 0.9994609 0.0173459 0.9994609 0.0173459 0.0005391 -0.0173459
40271703 0.0005294 -0.0169980 0.9994706 0.0169980 0.9994706 0.0169980 0.0005294 -0.0169980
40973211 0.0005200 -0.0166553 0.9994800 0.0166553 0.9994800 0.0166553 0.0005200 -0.0166553
