!Murata Part Number: GRM21A5C2J470JWA1
!These Parameters are Measured in Series Mode Connection
!Data Generated on Mar 30, 2021
!       o--ll--o
!Port1            Port2
!       o------o
!Operation Temp=25[degC], DC Bias Voltage=0[V]
!Freq. Start=100[MHz] Stop=3[GHz] 401[Steps]
# Hz S RI R 50
!Freq.(Hz) S11(Real) S11(Imag) S21(Real) S21(Imag) S12(Real) S12(Imag) S22(Real) S22(Imag)
100000000 0.1025006 -0.3004420 0.8974994 0.3004420 0.8974994 0.3004420 0.1025006 -0.3004420
107250000 0.0902417 -0.2834665 0.9097583 0.2834665 0.9097583 0.2834665 0.0902417 -0.2834665
114500000 0.0799864 -0.2680111 0.9200136 0.2680111 0.9200136 0.2680111 0.0799864 -0.2680111
121750000 0.0713322 -0.2539163 0.9286678 0.2539163 0.9286678 0.2539163 0.0713322 -0.2539163
129000000 0.0639704 -0.2410342 0.9360296 0.2410342 0.9360296 0.2410342 0.0639704 -0.2410342
136250000 0.0576612 -0.2292306 0.9423388 0.2292306 0.9423388 0.2292306 0.0576612 -0.2292306
143500000 0.0522171 -0.2183867 0.9477829 0.2183867 0.9477829 0.2183867 0.0522171 -0.2183867
150750000 0.0474896 -0.2083972 0.9525104 0.2083972 0.9525104 0.2083972 0.0474896 -0.2083972
158000000 0.0433604 -0.1991701 0.9566396 0.1991701 0.9566396 0.1991701 0.0433604 -0.1991701
165250000 0.0397340 -0.1906245 0.9602660 0.1906245 0.9602660 0.1906245 0.0397340 -0.1906245
172500000 0.0365333 -0.1826897 0.9634667 0.1826897 0.9634667 0.1826897 0.0365333 -0.1826897
179750000 0.0336950 -0.1753037 0.9663050 0.1753037 0.9663050 0.1753037 0.0336950 -0.1753037
187000000 0.0311672 -0.1684122 0.9688328 0.1684122 0.9688328 0.1684122 0.0311672 -0.1684122
194250000 0.0289067 -0.1619673 0.9710933 0.1619673 0.9710933 0.1619673 0.0289067 -0.1619673
201500000 0.0268777 -0.1559268 0.9731223 0.1559268 0.9731223 0.1559268 0.0268777 -0.1559268
208750000 0.0250499 -0.1502535 0.9749501 0.1502535 0.9749501 0.1502535 0.0250499 -0.1502535
216000000 0.0233980 -0.1449144 0.9766020 0.1449144 0.9766020 0.1449144 0.0233980 -0.1449144
223250000 0.0219004 -0.1398803 0.9780996 0.1398803 0.9780996 0.1398803 0.0219004 -0.1398803
230500000 0.0205388 -0.1351250 0.9794612 0.1351250 0.9794612 0.1351250 0.0205388 -0.1351250
237750000 0.0192973 -0.1306252 0.9807027 0.1306252 0.9807027 0.1306252 0.0192973 -0.1306252
245000000 0.0181625 -0.1263603 0.9818375 0.1263603 0.9818375 0.1263603 0.0181625 -0.1263603
252250000 0.0171226 -0.1223114 0.9828774 0.1223114 0.9828774 0.1223114 0.0171226 -0.1223114
259500000 0.0161676 -0.1184618 0.9838324 0.1184618 0.9838324 0.1184618 0.0161676 -0.1184618
266750000 0.0152885 -0.1147964 0.9847115 0.1147964 0.9847115 0.1147964 0.0152885 -0.1147964
274000000 0.0144778 -0.1113015 0.9855222 0.1113015 0.9855222 0.1113015 0.0144778 -0.1113015
281250000 0.0137286 -0.1079647 0.9862714 0.1079647 0.9862714 0.1079647 0.0137286 -0.1079647
288500000 0.0130350 -0.1047748 0.9869650 0.1047748 0.9869650 0.1047748 0.0130350 -0.1047748
295750000 0.0123918 -0.1017216 0.9876082 0.1017216 0.9876082 0.1017216 0.0123918 -0.1017216
303000000 0.0117943 -0.0987958 0.9882057 0.0987958 0.9882057 0.0987958 0.0117943 -0.0987958
310250000 0.0112384 -0.0959889 0.9887616 0.0959889 0.9887616 0.0959889 0.0112384 -0.0959889
317500000 0.0107204 -0.0932932 0.9892796 0.0932932 0.9892796 0.0932932 0.0107204 -0.0932932
324750000 0.0102371 -0.0907014 0.9897629 0.0907014 0.9897629 0.0907014 0.0102371 -0.0907014
332000000 0.0097856 -0.0882073 0.9902144 0.0882073 0.9902144 0.0882073 0.0097856 -0.0882073
339250000 0.0093632 -0.0858046 0.9906368 0.0858046 0.9906368 0.0858046 0.0093632 -0.0858046
346500000 0.0089675 -0.0834880 0.9910325 0.0834880 0.9910325 0.0834880 0.0089675 -0.0834880
353750000 0.0085965 -0.0812522 0.9914035 0.0812522 0.9914035 0.0812522 0.0085965 -0.0812522
361000000 0.0082483 -0.0790927 0.9917517 0.0790927 0.9917517 0.0790927 0.0082483 -0.0790927
368250000 0.0079210 -0.0770051 0.9920790 0.0770051 0.9920790 0.0770051 0.0079210 -0.0770051
375500000 0.0076132 -0.0749853 0.9923868 0.0749853 0.9923868 0.0749853 0.0076132 -0.0749853
382750000 0.0073235 -0.0730296 0.9926765 0.0730296 0.9926765 0.0730296 0.0073235 -0.0730296
390000000 0.0070504 -0.0711345 0.9929496 0.0711345 0.9929496 0.0711345 0.0070504 -0.0711345
397250000 0.0067929 -0.0692969 0.9932071 0.0692969 0.9932071 0.0692969 0.0067929 -0.0692969
404500000 0.0065499 -0.0675137 0.9934501 0.0675137 0.9934501 0.0675137 0.0065499 -0.0675137
411750000 0.0063204 -0.0657821 0.9936796 0.0657821 0.9936796 0.0657821 0.0063204 -0.0657821
419000000 0.0061034 -0.0640995 0.9938966 0.0640995 0.9938966 0.0640995 0.0061034 -0.0640995
426250000 0.0058983 -0.0624635 0.9941017 0.0624635 0.9941017 0.0624635 0.0058983 -0.0624635
433500000 0.0057041 -0.0608717 0.9942959 0.0608717 0.9942959 0.0608717 0.0057041 -0.0608717
440750000 0.0055203 -0.0593222 0.9944797 0.0593222 0.9944797 0.0593222 0.0055203 -0.0593222
448000000 0.0053461 -0.0578127 0.9946539 0.0578127 0.9946539 0.0578127 0.0053461 -0.0578127
455250000 0.0051810 -0.0563416 0.9948190 0.0563416 0.9948190 0.0563416 0.0051810 -0.0563416
462500000 0.0050245 -0.0549069 0.9949755 0.0549069 0.9949755 0.0549069 0.0050245 -0.0549069
469750000 0.0048760 -0.0535071 0.9951240 0.0535071 0.9951240 0.0535071 0.0048760 -0.0535071
477000000 0.0047350 -0.0521405 0.9952650 0.0521405 0.9952650 0.0521405 0.0047350 -0.0521405
484250000 0.0046012 -0.0508058 0.9953988 0.0508058 0.9953988 0.0508058 0.0046012 -0.0508058
491500000 0.0044741 -0.0495015 0.9955259 0.0495015 0.9955259 0.0495015 0.0044741 -0.0495015
498750000 0.0043534 -0.0482264 0.9956466 0.0482264 0.9956466 0.0482264 0.0043534 -0.0482264
506000000 0.0042387 -0.0469791 0.9957613 0.0469791 0.9957613 0.0469791 0.0042387 -0.0469791
513250000 0.0041298 -0.0457585 0.9958702 0.0457585 0.9958702 0.0457585 0.0041298 -0.0457585
520500000 0.0040262 -0.0445636 0.9959738 0.0445636 0.9959738 0.0445636 0.0040262 -0.0445636
527750000 0.0039277 -0.0433933 0.9960723 0.0433933 0.9960723 0.0433933 0.0039277 -0.0433933
535000000 0.0038341 -0.0422465 0.9961659 0.0422465 0.9961659 0.0422465 0.0038341 -0.0422465
542250000 0.0037451 -0.0411224 0.9962549 0.0411224 0.9962549 0.0411224 0.0037451 -0.0411224
549500000 0.0036604 -0.0400201 0.9963396 0.0400201 0.9963396 0.0400201 0.0036604 -0.0400201
556750000 0.0035800 -0.0389387 0.9964200 0.0389387 0.9964200 0.0389387 0.0035800 -0.0389387
564000000 0.0035035 -0.0378774 0.9964965 0.0378774 0.9964965 0.0378774 0.0035035 -0.0378774
571250000 0.0034308 -0.0368355 0.9965692 0.0368355 0.9965692 0.0368355 0.0034308 -0.0368355
578500000 0.0033617 -0.0358123 0.9966383 0.0358123 0.9966383 0.0358123 0.0033617 -0.0358123
585750000 0.0032961 -0.0348070 0.9967039 0.0348070 0.9967039 0.0348070 0.0032961 -0.0348070
593000000 0.0032338 -0.0338190 0.9967662 0.0338190 0.9967662 0.0338190 0.0032338 -0.0338190
600250000 0.0031746 -0.0328477 0.9968254 0.0328477 0.9968254 0.0328477 0.0031746 -0.0328477
607500000 0.0031184 -0.0318924 0.9968816 0.0318924 0.9968816 0.0318924 0.0031184 -0.0318924
614750000 0.0030651 -0.0309527 0.9969349 0.0309527 0.9969349 0.0309527 0.0030651 -0.0309527
622000000 0.0030145 -0.0300280 0.9969855 0.0300280 0.9969855 0.0300280 0.0030145 -0.0300280
629250000 0.0029666 -0.0291177 0.9970334 0.0291177 0.9970334 0.0291177 0.0029666 -0.0291177
636500000 0.0029213 -0.0282214 0.9970787 0.0282214 0.9970787 0.0282214 0.0029213 -0.0282214
643750000 0.0028784 -0.0273386 0.9971216 0.0273386 0.9971216 0.0273386 0.0028784 -0.0273386
651000000 0.0028378 -0.0264688 0.9971622 0.0264688 0.9971622 0.0264688 0.0028378 -0.0264688
658250000 0.0027994 -0.0256117 0.9972006 0.0256117 0.9972006 0.0256117 0.0027994 -0.0256117
665500000 0.0027633 -0.0247667 0.9972367 0.0247667 0.9972367 0.0247667 0.0027633 -0.0247667
672750000 0.0027292 -0.0239336 0.9972708 0.0239336 0.9972708 0.0239336 0.0027292 -0.0239336
680000000 0.0026971 -0.0231118 0.9973029 0.0231118 0.9973029 0.0231118 0.0026971 -0.0231118
687250000 0.0026669 -0.0223012 0.9973331 0.0223012 0.9973331 0.0223012 0.0026669 -0.0223012
694500000 0.0026386 -0.0215013 0.9973614 0.0215013 0.9973614 0.0215013 0.0026386 -0.0215013
701750000 0.0026121 -0.0207117 0.9973879 0.0207117 0.9973879 0.0207117 0.0026121 -0.0207117
709000000 0.0025873 -0.0199322 0.9974127 0.0199322 0.9974127 0.0199322 0.0025873 -0.0199322
716250000 0.0025642 -0.0191625 0.9974358 0.0191625 0.9974358 0.0191625 0.0025642 -0.0191625
723500000 0.0025428 -0.0184022 0.9974572 0.0184022 0.9974572 0.0184022 0.0025428 -0.0184022
730750000 0.0025228 -0.0176511 0.9974772 0.0176511 0.9974772 0.0176511 0.0025228 -0.0176511
738000000 0.0025044 -0.0169089 0.9974956 0.0169089 0.9974956 0.0169089 0.0025044 -0.0169089
745250000 0.0024875 -0.0161754 0.9975125 0.0161754 0.9975125 0.0161754 0.0024875 -0.0161754
752500000 0.0024720 -0.0154502 0.9975280 0.0154502 0.9975280 0.0154502 0.0024720 -0.0154502
759750000 0.0024579 -0.0147332 0.9975421 0.0147332 0.9975421 0.0147332 0.0024579 -0.0147332
767000000 0.0024451 -0.0140241 0.9975549 0.0140241 0.9975549 0.0140241 0.0024451 -0.0140241
774250000 0.0024335 -0.0133226 0.9975665 0.0133226 0.9975665 0.0133226 0.0024335 -0.0133226
781500000 0.0024233 -0.0126287 0.9975767 0.0126287 0.9975767 0.0126287 0.0024233 -0.0126287
788750000 0.0024143 -0.0119420 0.9975857 0.0119420 0.9975857 0.0119420 0.0024143 -0.0119420
796000000 0.0024064 -0.0112623 0.9975936 0.0112623 0.9975936 0.0112623 0.0024064 -0.0112623
803250000 0.0023997 -0.0105895 0.9976003 0.0105895 0.9976003 0.0105895 0.0023997 -0.0105895
810500000 0.0023941 -0.0099234 0.9976059 0.0099234 0.9976059 0.0099234 0.0023941 -0.0099234
817750000 0.0023897 -0.0092638 0.9976103 0.0092638 0.9976103 0.0092638 0.0023897 -0.0092638
825000000 0.0023862 -0.0086105 0.9976138 0.0086105 0.9976138 0.0086105 0.0023862 -0.0086105
832250000 0.0023839 -0.0079634 0.9976161 0.0079634 0.9976161 0.0079634 0.0023839 -0.0079634
839500000 0.0023825 -0.0073222 0.9976175 0.0073222 0.9976175 0.0073222 0.0023825 -0.0073222
846750000 0.0023821 -0.0066869 0.9976179 0.0066869 0.9976179 0.0066869 0.0023821 -0.0066869
854000000 0.0023827 -0.0060572 0.9976173 0.0060572 0.9976173 0.0060572 0.0023827 -0.0060572
861250000 0.0023842 -0.0054331 0.9976158 0.0054331 0.9976158 0.0054331 0.0023842 -0.0054331
868500000 0.0023866 -0.0048144 0.9976134 0.0048144 0.9976134 0.0048144 0.0023866 -0.0048144
875750000 0.0023899 -0.0042009 0.9976101 0.0042009 0.9976101 0.0042009 0.0023899 -0.0042009
883000000 0.0023941 -0.0035925 0.9976059 0.0035925 0.9976059 0.0035925 0.0023941 -0.0035925
890250000 0.0023991 -0.0029891 0.9976009 0.0029891 0.9976009 0.0029891 0.0023991 -0.0029891
897500000 0.0024050 -0.0023906 0.9975950 0.0023906 0.9975950 0.0023906 0.0024050 -0.0023906
904750000 0.0024117 -0.0017968 0.9975883 0.0017968 0.9975883 0.0017968 0.0024117 -0.0017968
912000000 0.0024192 -0.0012076 0.9975808 0.0012076 0.9975808 0.0012076 0.0024192 -0.0012076
919250000 0.0024275 -0.0006230 0.9975725 0.0006230 0.9975725 0.0006230 0.0024275 -0.0006230
926500000 0.0024366 -0.0000427 0.9975634 0.0000427 0.9975634 0.0000427 0.0024366 -0.0000427
933750000 0.0024464 0.0005333 0.9975536 -0.0005333 0.9975536 -0.0005333 0.0024464 0.0005333
941000000 0.0024570 0.0011050 0.9975430 -0.0011050 0.9975430 -0.0011050 0.0024570 0.0011050
948250000 0.0024683 0.0016727 0.9975317 -0.0016727 0.9975317 -0.0016727 0.0024683 0.0016727
955500000 0.0024803 0.0022365 0.9975197 -0.0022365 0.9975197 -0.0022365 0.0024803 0.0022365
962750000 0.0024930 0.0027963 0.9975070 -0.0027963 0.9975070 -0.0027963 0.0024930 0.0027963
970000000 0.0025063 0.0033523 0.9974937 -0.0033523 0.9974937 -0.0033523 0.0025063 0.0033523
977250000 0.0025204 0.0039046 0.9974796 -0.0039046 0.9974796 -0.0039046 0.0025204 0.0039046
984500000 0.0025351 0.0044533 0.9974649 -0.0044533 0.9974649 -0.0044533 0.0025351 0.0044533
991750000 0.0025505 0.0049984 0.9974495 -0.0049984 0.9974495 -0.0049984 0.0025505 0.0049984
999000000 0.0025666 0.0055401 0.9974334 -0.0055401 0.9974334 -0.0055401 0.0025666 0.0055401
1006250000 0.0025832 0.0060783 0.9974168 -0.0060783 0.9974168 -0.0060783 0.0025832 0.0060783
1013500000 0.0026005 0.0066133 0.9973995 -0.0066133 0.9973995 -0.0066133 0.0026005 0.0066133
1020750000 0.0026184 0.0071451 0.9973816 -0.0071451 0.9973816 -0.0071451 0.0026184 0.0071451
1028000000 0.0026369 0.0076737 0.9973631 -0.0076737 0.9973631 -0.0076737 0.0026369 0.0076737
1035250000 0.0026561 0.0081992 0.9973439 -0.0081992 0.9973439 -0.0081992 0.0026561 0.0081992
1042500000 0.0026758 0.0087217 0.9973242 -0.0087217 0.9973242 -0.0087217 0.0026758 0.0087217
1049750000 0.0026961 0.0092413 0.9973039 -0.0092413 0.9973039 -0.0092413 0.0026961 0.0092413
1057000000 0.0027169 0.0097579 0.9972831 -0.0097579 0.9972831 -0.0097579 0.0027169 0.0097579
1064250000 0.0027383 0.0102718 0.9972617 -0.0102718 0.9972617 -0.0102718 0.0027383 0.0102718
1071500000 0.0027603 0.0107829 0.9972397 -0.0107829 0.9972397 -0.0107829 0.0027603 0.0107829
1078750000 0.0027829 0.0112913 0.9972171 -0.0112913 0.9972171 -0.0112913 0.0027829 0.0112913
1086000000 0.0028060 0.0117971 0.9971940 -0.0117971 0.9971940 -0.0117971 0.0028060 0.0117971
1093250000 0.0028296 0.0123003 0.9971704 -0.0123003 0.9971704 -0.0123003 0.0028296 0.0123003
1100500000 0.0028538 0.0128009 0.9971462 -0.0128009 0.9971462 -0.0128009 0.0028538 0.0128009
1107750000 0.0028785 0.0132991 0.9971215 -0.0132991 0.9971215 -0.0132991 0.0028785 0.0132991
1115000000 0.0029037 0.0137949 0.9970963 -0.0137949 0.9970963 -0.0137949 0.0029037 0.0137949
1122250000 0.0029294 0.0142883 0.9970706 -0.0142883 0.9970706 -0.0142883 0.0029294 0.0142883
1129500000 0.0029557 0.0147794 0.9970443 -0.0147794 0.9970443 -0.0147794 0.0029557 0.0147794
1136750000 0.0029824 0.0152682 0.9970176 -0.0152682 0.9970176 -0.0152682 0.0029824 0.0152682
1144000000 0.0030097 0.0157549 0.9969903 -0.0157549 0.9969903 -0.0157549 0.0030097 0.0157549
1151250000 0.0030375 0.0162393 0.9969625 -0.0162393 0.9969625 -0.0162393 0.0030375 0.0162393
1158500000 0.0030657 0.0167217 0.9969343 -0.0167217 0.9969343 -0.0167217 0.0030657 0.0167217
1165750000 0.0030945 0.0172019 0.9969055 -0.0172019 0.9969055 -0.0172019 0.0030945 0.0172019
1173000000 0.0031237 0.0176801 0.9968763 -0.0176801 0.9968763 -0.0176801 0.0031237 0.0176801
1180250000 0.0031534 0.0181563 0.9968466 -0.0181563 0.9968466 -0.0181563 0.0031534 0.0181563
1187500000 0.0031836 0.0186306 0.9968164 -0.0186306 0.9968164 -0.0186306 0.0031836 0.0186306
1194750000 0.0032143 0.0191030 0.9967857 -0.0191030 0.9967857 -0.0191030 0.0032143 0.0191030
1202000000 0.0032455 0.0195735 0.9967545 -0.0195735 0.9967545 -0.0195735 0.0032455 0.0195735
1209250000 0.0032771 0.0200421 0.9967229 -0.0200421 0.9967229 -0.0200421 0.0032771 0.0200421
1216500000 0.0033091 0.0205090 0.9966909 -0.0205090 0.9966909 -0.0205090 0.0033091 0.0205090
1223750000 0.0033417 0.0209741 0.9966583 -0.0209741 0.9966583 -0.0209741 0.0033417 0.0209741
1231000000 0.0033747 0.0214375 0.9966253 -0.0214375 0.9966253 -0.0214375 0.0033747 0.0214375
1238250000 0.0034081 0.0218992 0.9965919 -0.0218992 0.9965919 -0.0218992 0.0034081 0.0218992
1245500000 0.0034421 0.0223593 0.9965579 -0.0223593 0.9965579 -0.0223593 0.0034421 0.0223593
1252750000 0.0034764 0.0228177 0.9965236 -0.0228177 0.9965236 -0.0228177 0.0034764 0.0228177
1260000000 0.0035112 0.0232746 0.9964888 -0.0232746 0.9964888 -0.0232746 0.0035112 0.0232746
1267250000 0.0035465 0.0237299 0.9964535 -0.0237299 0.9964535 -0.0237299 0.0035465 0.0237299
1274500000 0.0035822 0.0241837 0.9964178 -0.0241837 0.9964178 -0.0241837 0.0035822 0.0241837
1281750000 0.0036183 0.0246360 0.9963817 -0.0246360 0.9963817 -0.0246360 0.0036183 0.0246360
1289000000 0.0036549 0.0250868 0.9963451 -0.0250868 0.9963451 -0.0250868 0.0036549 0.0250868
1296250000 0.0036919 0.0255363 0.9963081 -0.0255363 0.9963081 -0.0255363 0.0036919 0.0255363
1303500000 0.0037294 0.0259843 0.9962706 -0.0259843 0.9962706 -0.0259843 0.0037294 0.0259843
1310750000 0.0037673 0.0264309 0.9962327 -0.0264309 0.9962327 -0.0264309 0.0037673 0.0264309
1318000000 0.0038056 0.0268762 0.9961944 -0.0268762 0.9961944 -0.0268762 0.0038056 0.0268762
1325250000 0.0038444 0.0273202 0.9961556 -0.0273202 0.9961556 -0.0273202 0.0038444 0.0273202
1332500000 0.0038836 0.0277629 0.9961164 -0.0277629 0.9961164 -0.0277629 0.0038836 0.0277629
1339750000 0.0039232 0.0282044 0.9960768 -0.0282044 0.9960768 -0.0282044 0.0039232 0.0282044
1347000000 0.0039633 0.0286446 0.9960367 -0.0286446 0.9960367 -0.0286446 0.0039633 0.0286446
1354250000 0.0040037 0.0290836 0.9959963 -0.0290836 0.9959963 -0.0290836 0.0040037 0.0290836
1361500000 0.0040446 0.0295214 0.9959554 -0.0295214 0.9959554 -0.0295214 0.0040446 0.0295214
1368750000 0.0040860 0.0299581 0.9959140 -0.0299581 0.9959140 -0.0299581 0.0040860 0.0299581
1376000000 0.0041277 0.0303936 0.9958723 -0.0303936 0.9958723 -0.0303936 0.0041277 0.0303936
1383250000 0.0041699 0.0308280 0.9958301 -0.0308280 0.9958301 -0.0308280 0.0041699 0.0308280
1390500000 0.0042125 0.0312613 0.9957875 -0.0312613 0.9957875 -0.0312613 0.0042125 0.0312613
1397750000 0.0042555 0.0316935 0.9957445 -0.0316935 0.9957445 -0.0316935 0.0042555 0.0316935
1405000000 0.0042989 0.0321247 0.9957011 -0.0321247 0.9957011 -0.0321247 0.0042989 0.0321247
1412250000 0.0043427 0.0325549 0.9956573 -0.0325549 0.9956573 -0.0325549 0.0043427 0.0325549
1419500000 0.0043870 0.0329841 0.9956130 -0.0329841 0.9956130 -0.0329841 0.0043870 0.0329841
1426750000 0.0044317 0.0334123 0.9955683 -0.0334123 0.9955683 -0.0334123 0.0044317 0.0334123
1434000000 0.0044768 0.0338395 0.9955232 -0.0338395 0.9955232 -0.0338395 0.0044768 0.0338395
1441250000 0.0045223 0.0342658 0.9954777 -0.0342658 0.9954777 -0.0342658 0.0045223 0.0342658
1448500000 0.0045682 0.0346911 0.9954318 -0.0346911 0.9954318 -0.0346911 0.0045682 0.0346911
1455750000 0.0046146 0.0351156 0.9953854 -0.0351156 0.9953854 -0.0351156 0.0046146 0.0351156
1463000000 0.0046614 0.0355391 0.9953386 -0.0355391 0.9953386 -0.0355391 0.0046614 0.0355391
1470250000 0.0047085 0.0359618 0.9952915 -0.0359618 0.9952915 -0.0359618 0.0047085 0.0359618
1477500000 0.0047561 0.0363837 0.9952439 -0.0363837 0.9952439 -0.0363837 0.0047561 0.0363837
1484750000 0.0048041 0.0368047 0.9951959 -0.0368047 0.9951959 -0.0368047 0.0048041 0.0368047
1492000000 0.0048526 0.0372249 0.9951474 -0.0372249 0.9951474 -0.0372249 0.0048526 0.0372249
1499250000 0.0049014 0.0376444 0.9950986 -0.0376444 0.9950986 -0.0376444 0.0049014 0.0376444
1506500000 0.0049507 0.0380630 0.9950493 -0.0380630 0.9950493 -0.0380630 0.0049507 0.0380630
1513750000 0.0050003 0.0384809 0.9949997 -0.0384809 0.9949997 -0.0384809 0.0050003 0.0384809
1521000000 0.0050504 0.0388980 0.9949496 -0.0388980 0.9949496 -0.0388980 0.0050504 0.0388980
1528250000 0.0051009 0.0393145 0.9948991 -0.0393145 0.9948991 -0.0393145 0.0051009 0.0393145
1535500000 0.0051518 0.0397302 0.9948482 -0.0397302 0.9948482 -0.0397302 0.0051518 0.0397302
1542750000 0.0052032 0.0401452 0.9947968 -0.0401452 0.9947968 -0.0401452 0.0052032 0.0401452
1550000000 0.0052549 0.0405595 0.9947451 -0.0405595 0.9947451 -0.0405595 0.0052549 0.0405595
1557250000 0.0053071 0.0409732 0.9946929 -0.0409732 0.9946929 -0.0409732 0.0053071 0.0409732
1564500000 0.0053596 0.0413862 0.9946404 -0.0413862 0.9946404 -0.0413862 0.0053596 0.0413862
1571750000 0.0054126 0.0417986 0.9945874 -0.0417986 0.9945874 -0.0417986 0.0054126 0.0417986
1579000000 0.0054661 0.0422103 0.9945339 -0.0422103 0.9945339 -0.0422103 0.0054661 0.0422103
1586250000 0.0055199 0.0426215 0.9944801 -0.0426215 0.9944801 -0.0426215 0.0055199 0.0426215
1593500000 0.0055741 0.0430320 0.9944259 -0.0430320 0.9944259 -0.0430320 0.0055741 0.0430320
1600750000 0.0056288 0.0434420 0.9943712 -0.0434420 0.9943712 -0.0434420 0.0056288 0.0434420
1608000000 0.0056839 0.0438514 0.9943161 -0.0438514 0.9943161 -0.0438514 0.0056839 0.0438514
1615250000 0.0057394 0.0442603 0.9942606 -0.0442603 0.9942606 -0.0442603 0.0057394 0.0442603
1622500000 0.0057953 0.0446686 0.9942047 -0.0446686 0.9942047 -0.0446686 0.0057953 0.0446686
1629750000 0.0058517 0.0450764 0.9941483 -0.0450764 0.9941483 -0.0450764 0.0058517 0.0450764
