!Murata Part Number: GRM21A5C2E181JW01
!These Parameters are Measured in Series Mode Connection
!Data Generated on Mar 30, 2021
!       o--ll--o
!Port1            Port2
!       o------o
!Operation Temp=25[degC], DC Bias Voltage=0[V]
!Freq. Start=100[MHz] Stop=3[GHz] 401[Steps]
# Hz S RI R 50
!Freq.(Hz) S11(Real) S11(Imag) S21(Real) S21(Imag) S12(Real) S12(Imag) S22(Real) S22(Imag)
100000000 0.0080644 -0.0843990 0.9919356 0.0843990 0.9919356 0.0843990 0.0080644 -0.0843990
107250000 0.0070619 -0.0783200 0.9929381 0.0783200 0.9929381 0.0783200 0.0070619 -0.0783200
114500000 0.0062428 -0.0729668 0.9937572 0.0729668 0.9937572 0.0729668 0.0062428 -0.0729668
121750000 0.0055652 -0.0682126 0.9944348 0.0682126 0.9944348 0.0682126 0.0055652 -0.0682126
129000000 0.0049986 -0.0639587 0.9950014 0.0639587 0.9950014 0.0639587 0.0049986 -0.0639587
136250000 0.0045201 -0.0601266 0.9954799 0.0601266 0.9954799 0.0601266 0.0045201 -0.0601266
143500000 0.0041126 -0.0566534 0.9958874 0.0566534 0.9958874 0.0566534 0.0041126 -0.0566534
150750000 0.0037628 -0.0534881 0.9962372 0.0534881 0.9962372 0.0534881 0.0037628 -0.0534881
158000000 0.0034605 -0.0505889 0.9965395 0.0505889 0.9965395 0.0505889 0.0034605 -0.0505889
165250000 0.0031975 -0.0479212 0.9968025 0.0479212 0.9968025 0.0479212 0.0031975 -0.0479212
172500000 0.0029676 -0.0454561 0.9970324 0.0454561 0.9970324 0.0454561 0.0029676 -0.0454561
179750000 0.0027655 -0.0431693 0.9972345 0.0431693 0.9972345 0.0431693 0.0027655 -0.0431693
187000000 0.0025870 -0.0410404 0.9974130 0.0410404 0.9974130 0.0410404 0.0025870 -0.0410404
194250000 0.0024288 -0.0390517 0.9975712 0.0390517 0.9975712 0.0390517 0.0024288 -0.0390517
201500000 0.0022879 -0.0371883 0.9977121 0.0371883 0.9977121 0.0371883 0.0022879 -0.0371883
208750000 0.0021621 -0.0354371 0.9978379 0.0354371 0.9978379 0.0354371 0.0021621 -0.0354371
216000000 0.0020494 -0.0337870 0.9979506 0.0337870 0.9979506 0.0337870 0.0020494 -0.0337870
223250000 0.0019481 -0.0322282 0.9980519 0.0322282 0.9980519 0.0322282 0.0019481 -0.0322282
230500000 0.0018568 -0.0307521 0.9981432 0.0307521 0.9981432 0.0307521 0.0018568 -0.0307521
237750000 0.0017745 -0.0293511 0.9982255 0.0293511 0.9982255 0.0293511 0.0017745 -0.0293511
245000000 0.0017000 -0.0280187 0.9983000 0.0280187 0.9983000 0.0280187 0.0017000 -0.0280187
252250000 0.0016325 -0.0267489 0.9983675 0.0267489 0.9983675 0.0267489 0.0016325 -0.0267489
259500000 0.0015712 -0.0255365 0.9984288 0.0255365 0.9984288 0.0255365 0.0015712 -0.0255365
266750000 0.0015156 -0.0243768 0.9984844 0.0243768 0.9984844 0.0243768 0.0015156 -0.0243768
274000000 0.0014649 -0.0232657 0.9985351 0.0232657 0.9985351 0.0232657 0.0014649 -0.0232657
281250000 0.0014188 -0.0221994 0.9985812 0.0221994 0.9985812 0.0221994 0.0014188 -0.0221994
288500000 0.0013769 -0.0211745 0.9986231 0.0211745 0.9986231 0.0211745 0.0013769 -0.0211745
295750000 0.0013386 -0.0201880 0.9986614 0.0201880 0.9986614 0.0201880 0.0013386 -0.0201880
303000000 0.0013037 -0.0192372 0.9986963 0.0192372 0.9986963 0.0192372 0.0013037 -0.0192372
310250000 0.0012720 -0.0183195 0.9987280 0.0183195 0.9987280 0.0183195 0.0012720 -0.0183195
317500000 0.0012431 -0.0174326 0.9987569 0.0174326 0.9987569 0.0174326 0.0012431 -0.0174326
324750000 0.0012167 -0.0165746 0.9987833 0.0165746 0.9987833 0.0165746 0.0012167 -0.0165746
332000000 0.0011928 -0.0157434 0.9988072 0.0157434 0.9988072 0.0157434 0.0011928 -0.0157434
339250000 0.0011711 -0.0149374 0.9988289 0.0149374 0.9988289 0.0149374 0.0011711 -0.0149374
346500000 0.0011514 -0.0141551 0.9988486 0.0141551 0.9988486 0.0141551 0.0011514 -0.0141551
353750000 0.0011337 -0.0133948 0.9988663 0.0133948 0.9988663 0.0133948 0.0011337 -0.0133948
361000000 0.0011176 -0.0126553 0.9988824 0.0126553 0.9988824 0.0126553 0.0011176 -0.0126553
368250000 0.0011033 -0.0119354 0.9988967 0.0119354 0.9988967 0.0119354 0.0011033 -0.0119354
375500000 0.0010904 -0.0112339 0.9989096 0.0112339 0.9989096 0.0112339 0.0010904 -0.0112339
382750000 0.0010790 -0.0105498 0.9989210 0.0105498 0.9989210 0.0105498 0.0010790 -0.0105498
390000000 0.0010689 -0.0098820 0.9989311 0.0098820 0.9989311 0.0098820 0.0010689 -0.0098820
397250000 0.0010601 -0.0092298 0.9989399 0.0092298 0.9989399 0.0092298 0.0010601 -0.0092298
404500000 0.0010524 -0.0085921 0.9989476 0.0085921 0.9989476 0.0085921 0.0010524 -0.0085921
411750000 0.0010459 -0.0079684 0.9989541 0.0079684 0.9989541 0.0079684 0.0010459 -0.0079684
419000000 0.0010404 -0.0073577 0.9989596 0.0073577 0.9989596 0.0073577 0.0010404 -0.0073577
426250000 0.0010359 -0.0067595 0.9989641 0.0067595 0.9989641 0.0067595 0.0010359 -0.0067595
433500000 0.0010324 -0.0061731 0.9989676 0.0061731 0.9989676 0.0061731 0.0010324 -0.0061731
440750000 0.0010297 -0.0055980 0.9989703 0.0055980 0.9989703 0.0055980 0.0010297 -0.0055980
448000000 0.0010279 -0.0050335 0.9989721 0.0050335 0.9989721 0.0050335 0.0010279 -0.0050335
455250000 0.0010269 -0.0044791 0.9989731 0.0044791 0.9989731 0.0044791 0.0010269 -0.0044791
462500000 0.0010267 -0.0039345 0.9989733 0.0039345 0.9989733 0.0039345 0.0010267 -0.0039345
469750000 0.0010272 -0.0033990 0.9989728 0.0033990 0.9989728 0.0033990 0.0010272 -0.0033990
477000000 0.0010285 -0.0028723 0.9989715 0.0028723 0.9989715 0.0028723 0.0010285 -0.0028723
484250000 0.0010304 -0.0023539 0.9989696 0.0023539 0.9989696 0.0023539 0.0010304 -0.0023539
491500000 0.0010330 -0.0018436 0.9989670 0.0018436 0.9989670 0.0018436 0.0010330 -0.0018436
498750000 0.0010362 -0.0013408 0.9989638 0.0013408 0.9989638 0.0013408 0.0010362 -0.0013408
506000000 0.0010400 -0.0008454 0.9989600 0.0008454 0.9989600 0.0008454 0.0010400 -0.0008454
513250000 0.0010444 -0.0003569 0.9989556 0.0003569 0.9989556 0.0003569 0.0010444 -0.0003569
520500000 0.0010494 0.0001249 0.9989506 -0.0001249 0.9989506 -0.0001249 0.0010494 0.0001249
527750000 0.0010549 0.0006003 0.9989451 -0.0006003 0.9989451 -0.0006003 0.0010549 0.0006003
535000000 0.0010610 0.0010697 0.9989390 -0.0010697 0.9989390 -0.0010697 0.0010610 0.0010697
542250000 0.0010675 0.0015331 0.9989325 -0.0015331 0.9989325 -0.0015331 0.0010675 0.0015331
549500000 0.0010746 0.0019910 0.9989254 -0.0019910 0.9989254 -0.0019910 0.0010746 0.0019910
556750000 0.0010822 0.0024435 0.9989178 -0.0024435 0.9989178 -0.0024435 0.0010822 0.0024435
564000000 0.0010902 0.0028908 0.9989098 -0.0028908 0.9989098 -0.0028908 0.0010902 0.0028908
571250000 0.0010988 0.0033332 0.9989012 -0.0033332 0.9989012 -0.0033332 0.0010988 0.0033332
578500000 0.0011077 0.0037709 0.9988923 -0.0037709 0.9988923 -0.0037709 0.0011077 0.0037709
585750000 0.0011172 0.0042040 0.9988828 -0.0042040 0.9988828 -0.0042040 0.0011172 0.0042040
593000000 0.0011270 0.0046327 0.9988730 -0.0046327 0.9988730 -0.0046327 0.0011270 0.0046327
600250000 0.0011373 0.0050572 0.9988627 -0.0050572 0.9988627 -0.0050572 0.0011373 0.0050572
607500000 0.0011481 0.0054777 0.9988519 -0.0054777 0.9988519 -0.0054777 0.0011481 0.0054777
614750000 0.0011592 0.0058943 0.9988408 -0.0058943 0.9988408 -0.0058943 0.0011592 0.0058943
622000000 0.0011708 0.0063072 0.9988292 -0.0063072 0.9988292 -0.0063072 0.0011708 0.0063072
629250000 0.0011828 0.0067164 0.9988172 -0.0067164 0.9988172 -0.0067164 0.0011828 0.0067164
636500000 0.0011952 0.0071222 0.9988048 -0.0071222 0.9988048 -0.0071222 0.0011952 0.0071222
643750000 0.0012079 0.0075248 0.9987921 -0.0075248 0.9987921 -0.0075248 0.0012079 0.0075248
651000000 0.0012211 0.0079241 0.9987789 -0.0079241 0.9987789 -0.0079241 0.0012211 0.0079241
658250000 0.0012347 0.0083203 0.9987653 -0.0083203 0.9987653 -0.0083203 0.0012347 0.0083203
665500000 0.0012487 0.0087136 0.9987513 -0.0087136 0.9987513 -0.0087136 0.0012487 0.0087136
672750000 0.0012630 0.0091040 0.9987370 -0.0091040 0.9987370 -0.0091040 0.0012630 0.0091040
680000000 0.0012777 0.0094917 0.9987223 -0.0094917 0.9987223 -0.0094917 0.0012777 0.0094917
687250000 0.0012929 0.0098768 0.9987071 -0.0098768 0.9987071 -0.0098768 0.0012929 0.0098768
694500000 0.0013084 0.0102593 0.9986916 -0.0102593 0.9986916 -0.0102593 0.0013084 0.0102593
701750000 0.0013243 0.0106394 0.9986757 -0.0106394 0.9986757 -0.0106394 0.0013243 0.0106394
709000000 0.0013405 0.0110172 0.9986595 -0.0110172 0.9986595 -0.0110172 0.0013405 0.0110172
716250000 0.0013572 0.0113927 0.9986428 -0.0113927 0.9986428 -0.0113927 0.0013572 0.0113927
723500000 0.0013742 0.0117660 0.9986258 -0.0117660 0.9986258 -0.0117660 0.0013742 0.0117660
730750000 0.0013916 0.0121372 0.9986084 -0.0121372 0.9986084 -0.0121372 0.0013916 0.0121372
738000000 0.0014095 0.0125064 0.9985905 -0.0125064 0.9985905 -0.0125064 0.0014095 0.0125064
745250000 0.0014277 0.0128737 0.9985723 -0.0128737 0.9985723 -0.0128737 0.0014277 0.0128737
752500000 0.0014462 0.0132392 0.9985538 -0.0132392 0.9985538 -0.0132392 0.0014462 0.0132392
759750000 0.0014652 0.0136029 0.9985348 -0.0136029 0.9985348 -0.0136029 0.0014652 0.0136029
767000000 0.0014846 0.0139648 0.9985154 -0.0139648 0.9985154 -0.0139648 0.0014846 0.0139648
774250000 0.0015044 0.0143252 0.9984956 -0.0143252 0.9984956 -0.0143252 0.0015044 0.0143252
781500000 0.0015245 0.0146839 0.9984755 -0.0146839 0.9984755 -0.0146839 0.0015245 0.0146839
788750000 0.0015451 0.0150412 0.9984549 -0.0150412 0.9984549 -0.0150412 0.0015451 0.0150412
796000000 0.0015661 0.0153970 0.9984339 -0.0153970 0.9984339 -0.0153970 0.0015661 0.0153970
803250000 0.0015875 0.0157514 0.9984125 -0.0157514 0.9984125 -0.0157514 0.0015875 0.0157514
810500000 0.0016094 0.0161046 0.9983906 -0.0161046 0.9983906 -0.0161046 0.0016094 0.0161046
817750000 0.0016316 0.0164564 0.9983684 -0.0164564 0.9983684 -0.0164564 0.0016316 0.0164564
825000000 0.0016543 0.0168071 0.9983457 -0.0168071 0.9983457 -0.0168071 0.0016543 0.0168071
832250000 0.0016774 0.0171566 0.9983226 -0.0171566 0.9983226 -0.0171566 0.0016774 0.0171566
839500000 0.0017010 0.0175051 0.9982990 -0.0175051 0.9982990 -0.0175051 0.0017010 0.0175051
846750000 0.0017251 0.0178525 0.9982749 -0.0178525 0.9982749 -0.0178525 0.0017251 0.0178525
854000000 0.0017496 0.0181989 0.9982504 -0.0181989 0.9982504 -0.0181989 0.0017496 0.0181989
861250000 0.0017746 0.0185444 0.9982254 -0.0185444 0.9982254 -0.0185444 0.0017746 0.0185444
868500000 0.0018000 0.0188891 0.9982000 -0.0188891 0.9982000 -0.0188891 0.0018000 0.0188891
875750000 0.0018260 0.0192330 0.9981740 -0.0192330 0.9981740 -0.0192330 0.0018260 0.0192330
883000000 0.0018525 0.0195760 0.9981475 -0.0195760 0.9981475 -0.0195760 0.0018525 0.0195760
890250000 0.0018795 0.0199184 0.9981205 -0.0199184 0.9981205 -0.0199184 0.0018795 0.0199184
897500000 0.0019070 0.0202601 0.9980930 -0.0202601 0.9980930 -0.0202601 0.0019070 0.0202601
904750000 0.0019351 0.0206013 0.9980649 -0.0206013 0.9980649 -0.0206013 0.0019351 0.0206013
912000000 0.0019638 0.0209418 0.9980362 -0.0209418 0.9980362 -0.0209418 0.0019638 0.0209418
919250000 0.0019930 0.0212819 0.9980070 -0.0212819 0.9980070 -0.0212819 0.0019930 0.0212819
926500000 0.0020228 0.0216215 0.9979772 -0.0216215 0.9979772 -0.0216215 0.0020228 0.0216215
933750000 0.0020533 0.0219607 0.9979467 -0.0219607 0.9979467 -0.0219607 0.0020533 0.0219607
941000000 0.0020844 0.0222995 0.9979156 -0.0222995 0.9979156 -0.0222995 0.0020844 0.0222995
948250000 0.0021162 0.0226381 0.9978838 -0.0226381 0.9978838 -0.0226381 0.0021162 0.0226381
955500000 0.0021486 0.0229764 0.9978514 -0.0229764 0.9978514 -0.0229764 0.0021486 0.0229764
962750000 0.0021818 0.0233145 0.9978182 -0.0233145 0.9978182 -0.0233145 0.0021818 0.0233145
970000000 0.0022157 0.0236524 0.9977843 -0.0236524 0.9977843 -0.0236524 0.0022157 0.0236524
977250000 0.0022504 0.0239903 0.9977496 -0.0239903 0.9977496 -0.0239903 0.0022504 0.0239903
984500000 0.0022858 0.0243281 0.9977142 -0.0243281 0.9977142 -0.0243281 0.0022858 0.0243281
991750000 0.0023222 0.0246660 0.9976778 -0.0246660 0.9976778 -0.0246660 0.0023222 0.0246660
999000000 0.0023594 0.0250039 0.9976406 -0.0250039 0.9976406 -0.0250039 0.0023594 0.0250039
1006250000 0.0023975 0.0253419 0.9976025 -0.0253419 0.9976025 -0.0253419 0.0023975 0.0253419
1013500000 0.0024365 0.0256802 0.9975635 -0.0256802 0.9975635 -0.0256802 0.0024365 0.0256802
1020750000 0.0024766 0.0260187 0.9975234 -0.0260187 0.9975234 -0.0260187 0.0024766 0.0260187
1028000000 0.0025177 0.0263575 0.9974823 -0.0263575 0.9974823 -0.0263575 0.0025177 0.0263575
1035250000 0.0025599 0.0266966 0.9974401 -0.0266966 0.9974401 -0.0266966 0.0025599 0.0266966
1042500000 0.0026034 0.0270362 0.9973966 -0.0270362 0.9973966 -0.0270362 0.0026034 0.0270362
1049750000 0.0026480 0.0273764 0.9973520 -0.0273764 0.9973520 -0.0273764 0.0026480 0.0273764
1057000000 0.0026939 0.0277170 0.9973061 -0.0277170 0.9973061 -0.0277170 0.0026939 0.0277170
1064250000 0.0027413 0.0280583 0.9972587 -0.0280583 0.9972587 -0.0280583 0.0027413 0.0280583
1071500000 0.0027901 0.0284004 0.9972099 -0.0284004 0.9972099 -0.0284004 0.0027901 0.0284004
1078750000 0.0028404 0.0287431 0.9971596 -0.0287431 0.9971596 -0.0287431 0.0028404 0.0287431
1086000000 0.0028924 0.0290868 0.9971076 -0.0290868 0.9971076 -0.0290868 0.0028924 0.0290868
1093250000 0.0029462 0.0294314 0.9970538 -0.0294314 0.9970538 -0.0294314 0.0029462 0.0294314
1100500000 0.0030019 0.0297770 0.9969981 -0.0297770 0.9969981 -0.0297770 0.0030019 0.0297770
1107750000 0.0030596 0.0301236 0.9969404 -0.0301236 0.9969404 -0.0301236 0.0030596 0.0301236
1115000000 0.0031194 0.0304715 0.9968806 -0.0304715 0.9968806 -0.0304715 0.0031194 0.0304715
1122250000 0.0031816 0.0308206 0.9968184 -0.0308206 0.9968184 -0.0308206 0.0031816 0.0308206
1129500000 0.0032463 0.0311710 0.9967537 -0.0311710 0.9967537 -0.0311710 0.0032463 0.0311710
1136750000 0.0033137 0.0315229 0.9966863 -0.0315229 0.9966863 -0.0315229 0.0033137 0.0315229
1144000000 0.0033840 0.0318763 0.9966160 -0.0318763 0.9966160 -0.0318763 0.0033840 0.0318763
1151250000 0.0034575 0.0322313 0.9965425 -0.0322313 0.9965425 -0.0322313 0.0034575 0.0322313
1158500000 0.0035344 0.0325880 0.9964656 -0.0325880 0.9964656 -0.0325880 0.0035344 0.0325880
1165750000 0.0036149 0.0329465 0.9963851 -0.0329465 0.9963851 -0.0329465 0.0036149 0.0329465
1173000000 0.0036996 0.0333068 0.9963004 -0.0333068 0.9963004 -0.0333068 0.0036996 0.0333068
1180250000 0.0037886 0.0336690 0.9962114 -0.0336690 0.9962114 -0.0336690 0.0037886 0.0336690
1187500000 0.0038824 0.0340333 0.9961176 -0.0340333 0.9961176 -0.0340333 0.0038824 0.0340333
1194750000 0.0039816 0.0343995 0.9960184 -0.0343995 0.9960184 -0.0343995 0.0039816 0.0343995
1202000000 0.0040865 0.0347678 0.9959135 -0.0347678 0.9959135 -0.0347678 0.0040865 0.0347678
1209250000 0.0041977 0.0351382 0.9958023 -0.0351382 0.9958023 -0.0351382 0.0041977 0.0351382
1216500000 0.0043159 0.0355107 0.9956841 -0.0355107 0.9956841 -0.0355107 0.0043159 0.0355107
1223750000 0.0044418 0.0358851 0.9955582 -0.0358851 0.9955582 -0.0358851 0.0044418 0.0358851
1231000000 0.0045762 0.0362614 0.9954238 -0.0362614 0.9954238 -0.0362614 0.0045762 0.0362614
1238250000 0.0047200 0.0366394 0.9952800 -0.0366394 0.9952800 -0.0366394 0.0047200 0.0366394
1245500000 0.0048742 0.0370188 0.9951258 -0.0370188 0.9951258 -0.0370188 0.0048742 0.0370188
1252750000 0.0050398 0.0373992 0.9949602 -0.0373992 0.9949602 -0.0373992 0.0050398 0.0373992
1260000000 0.0052181 0.0377801 0.9947819 -0.0377801 0.9947819 -0.0377801 0.0052181 0.0377801
1267250000 0.0054105 0.0381607 0.9945895 -0.0381607 0.9945895 -0.0381607 0.0054105 0.0381607
1274500000 0.0056185 0.0385402 0.9943815 -0.0385402 0.9943815 -0.0385402 0.0056185 0.0385402
1281750000 0.0058436 0.0389173 0.9941564 -0.0389173 0.9941564 -0.0389173 0.0058436 0.0389173
1289000000 0.0060877 0.0392905 0.9939123 -0.0392905 0.9939123 -0.0392905 0.0060877 0.0392905
1296250000 0.0063524 0.0396576 0.9936476 -0.0396576 0.9936476 -0.0396576 0.0063524 0.0396576
1303500000 0.0066396 0.0400161 0.9933604 -0.0400161 0.9933604 -0.0400161 0.0066396 0.0400161
1310750000 0.0069512 0.0403628 0.9930488 -0.0403628 0.9930488 -0.0403628 0.0069512 0.0403628
1318000000 0.0072886 0.0406937 0.9927114 -0.0406937 0.9927114 -0.0406937 0.0072886 0.0406937
1325250000 0.0076532 0.0410039 0.9923468 -0.0410039 0.9923468 -0.0410039 0.0076532 0.0410039
1332500000 0.0080454 0.0412875 0.9919546 -0.0412875 0.9919546 -0.0412875 0.0080454 0.0412875
1339750000 0.0084649 0.0415374 0.9915351 -0.0415374 0.9915351 -0.0415374 0.0084649 0.0415374
1347000000 0.0089098 0.0417459 0.9910902 -0.0417459 0.9910902 -0.0417459 0.0089098 0.0417459
1354250000 0.0093761 0.0419041 0.9906239 -0.0419041 0.9906239 -0.0419041 0.0093761 0.0419041
1361500000 0.0098575 0.0420030 0.9901425 -0.0420030 0.9901425 -0.0420030 0.0098575 0.0420030
1368750000 0.0103442 0.0420339 0.9896558 -0.0420339 0.9896558 -0.0420339 0.0103442 0.0420339
1376000000 0.0108231 0.0419894 0.9891769 -0.0419894 0.9891769 -0.0419894 0.0108231 0.0419894
1383250000 0.0112778 0.0418655 0.9887222 -0.0418655 0.9887222 -0.0418655 0.0112778 0.0418655
1390500000 0.0116888 0.0416623 0.9883112 -0.0416623 0.9883112 -0.0416623 0.0116888 0.0416623
1397750000 0.0120357 0.0413860 0.9879643 -0.0413860 0.9879643 -0.0413860 0.0120357 0.0413860
1405000000 0.0122991 0.0410494 0.9877009 -0.0410494 0.9877009 -0.0410494 0.0122991 0.0410494
1412250000 0.0124633 0.0406721 0.9875367 -0.0406721 0.9875367 -0.0406721 0.0124633 0.0406721
1419500000 0.0125190 0.0402784 0.9874810 -0.0402784 0.9874810 -0.0402784 0.0125190 0.0402784
1426750000 0.0124649 0.0398946 0.9875351 -0.0398946 0.9875351 -0.0398946 0.0124649 0.0398946
1434000000 0.0123080 0.0395462 0.9876920 -0.0395462 0.9876920 -0.0395462 0.0123080 0.0395462
1441250000 0.0120626 0.0392543 0.9879374 -0.0392543 0.9879374 -0.0392543 0.0120626 0.0392543
1448500000 0.0117474 0.0390341 0.9882526 -0.0390341 0.9882526 -0.0390341 0.0117474 0.0390341
1455750000 0.0113831 0.0388935 0.9886169 -0.0388935 0.9886169 -0.0388935 0.0113831 0.0388935
1463000000 0.0109898 0.0388346 0.9890102 -0.0388346 0.9890102 -0.0388346 0.0109898 0.0388346
1470250000 0.0105854 0.0388540 0.9894146 -0.0388540 0.9894146 -0.0388540 0.0105854 0.0388540
1477500000 0.0101841 0.0389450 0.9898159 -0.0389450 0.9898159 -0.0389450 0.0101841 0.0389450
1484750000 0.0097967 0.0390990 0.9902033 -0.0390990 0.9902033 -0.0390990 0.0097967 0.0390990
1492000000 0.0094307 0.0393065 0.9905693 -0.0393065 0.9905693 -0.0393065 0.0094307 0.0393065
1499250000 0.0090906 0.0395586 0.9909094 -0.0395586 0.9909094 -0.0395586 0.0090906 0.0395586
1506500000 0.0087787 0.0398467 0.9912213 -0.0398467 0.9912213 -0.0398467 0.0087787 0.0398467
1513750000 0.0084959 0.0401635 0.9915041 -0.0401635 0.9915041 -0.0401635 0.0084959 0.0401635
1521000000 0.0082416 0.0405026 0.9917584 -0.0405026 0.9917584 -0.0405026 0.0082416 0.0405026
1528250000 0.0080147 0.0408587 0.9919853 -0.0408587 0.9919853 -0.0408587 0.0080147 0.0408587
1535500000 0.0078137 0.0412277 0.9921863 -0.0412277 0.9921863 -0.0412277 0.0078137 0.0412277
1542750000 0.0076365 0.0416059 0.9923635 -0.0416059 0.9923635 -0.0416059 0.0076365 0.0416059
1550000000 0.0074814 0.0419906 0.9925186 -0.0419906 0.9925186 -0.0419906 0.0074814 0.0419906
1557250000 0.0073465 0.0423797 0.9926535 -0.0423797 0.9926535 -0.0423797 0.0073465 0.0423797
1564500000 0.0072299 0.0427714 0.9927701 -0.0427714 0.9927701 -0.0427714 0.0072299 0.0427714
1571750000 0.0071300 0.0431644 0.9928700 -0.0431644 0.9928700 -0.0431644 0.0071300 0.0431644
1579000000 0.0070452 0.0435578 0.9929548 -0.0435578 0.9929548 -0.0435578 0.0070452 0.0435578
1586250000 0.0069740 0.0439508 0.9930260 -0.0439508 0.9930260 -0.0439508 0.0069740 0.0439508
1593500000 0.0069153 0.0443428 0.9930847 -0.0443428 0.9930847 -0.0443428 0.0069153 0.0443428
1600750000 0.0068677 0.0447335 0.9931323 -0.0447335 0.9931323 -0.0447335 0.0068677 0.0447335
1608000000 0.0068305 0.0451226 0.9931695 -0.0451226 0.9931695 -0.0451226 0.0068305 0.0451226
1615250000 0.0068025 0.0455098 0.9931975 -0.0455098 0.9931975 -0.0455098 0.0068025 0.0455098
1622500000 0.0067830 0.0458950 0.9932170 -0.0458950 0.9932170 -0.0458950 0.0067830 0.0458950
1629750000 0.0067712 0.0462783 0.9932288 -0.0462783 0.9932288 -0.0462783 0.0067712 0.0462783
