!Murata Part Number: GRM21A5C2E152JWA1
!These Parameters are Measured in Series Mode Connection
!Data Generated on Mar 30, 2021
!       o--ll--o
!Port1            Port2
!       o------o
!Operation Temp=25[degC], DC Bias Voltage=0[V]
!Freq. Start=1000[kHz] Stop=1000[MHz] 401[Steps]
# Hz S RI R 50
!Freq.(Hz) S11(Real) S11(Imag) S21(Real) S21(Imag) S12(Real) S12(Imag) S22(Real) S22(Imag)
1000000 0.5464251 -0.4969378 0.4535749 0.4969378 0.4535749 0.4969378 0.5464251 -0.4969378
1017419 0.5378690 -0.4976739 0.4621310 0.4976739 0.4621310 0.4976739 0.5378690 -0.4976739
1035142 0.5292900 -0.4982634 0.4707100 0.4982634 0.4707100 0.4982634 0.5292900 -0.4982634
1053174 0.5206932 -0.4987054 0.4793068 0.4987054 0.4793068 0.4987054 0.5206932 -0.4987054
1071519 0.5120836 -0.4989992 0.4879164 0.4989992 0.4879164 0.4989992 0.5120836 -0.4989992
1090184 0.5034664 -0.4991444 0.4965336 0.4991444 0.4965336 0.4991444 0.5034664 -0.4991444
1109175 0.4948467 -0.4991409 0.5051533 0.4991409 0.5051533 0.4991409 0.4948467 -0.4991409
1128496 0.4862296 -0.4989885 0.5137704 0.4989885 0.5137704 0.4989885 0.4862296 -0.4989885
1148154 0.4776202 -0.4986876 0.5223798 0.4986876 0.5223798 0.4986876 0.4776202 -0.4986876
1168154 0.4690237 -0.4982385 0.5309763 0.4982385 0.5309763 0.4982385 0.4690237 -0.4982385
1188502 0.4604452 -0.4976420 0.5395548 0.4976420 0.5395548 0.4976420 0.4604452 -0.4976420
1209205 0.4518897 -0.4968988 0.5481103 0.4968988 0.5481103 0.4968988 0.4518897 -0.4968988
1230269 0.4433622 -0.4960101 0.5566378 0.4960101 0.5566378 0.4960101 0.4433622 -0.4960101
1251699 0.4348676 -0.4949773 0.5651324 0.4949773 0.5651324 0.4949773 0.4348676 -0.4949773
1273503 0.4264107 -0.4938018 0.5735893 0.4938018 0.5735893 0.4938018 0.4264107 -0.4938018
1295687 0.4179964 -0.4924853 0.5820036 0.4924853 0.5820036 0.4924853 0.4179964 -0.4924853
1318257 0.4096292 -0.4910297 0.5903708 0.4910297 0.5903708 0.4910297 0.4096292 -0.4910297
1341220 0.4013137 -0.4894371 0.5986863 0.4894371 0.5986863 0.4894371 0.4013137 -0.4894371
1364583 0.3930544 -0.4877098 0.6069456 0.4877098 0.6069456 0.4877098 0.3930544 -0.4877098
1388353 0.3848556 -0.4858502 0.6151444 0.4858502 0.6151444 0.4858502 0.3848556 -0.4858502
1412538 0.3767214 -0.4838610 0.6232786 0.4838610 0.6232786 0.4838610 0.3767214 -0.4838610
1437143 0.3686559 -0.4817449 0.6313441 0.4817449 0.6313441 0.4817449 0.3686559 -0.4817449
1462177 0.3606629 -0.4795047 0.6393371 0.4795047 0.6393371 0.4795047 0.3606629 -0.4795047
1487647 0.3527462 -0.4771437 0.6472538 0.4771437 0.6472538 0.4771437 0.3527462 -0.4771437
1513561 0.3449093 -0.4746648 0.6550907 0.4746648 0.6550907 0.4746648 0.3449093 -0.4746648
1539927 0.3371557 -0.4720714 0.6628443 0.4720714 0.6628443 0.4720714 0.3371557 -0.4720714
1566751 0.3294886 -0.4693670 0.6705114 0.4693670 0.6705114 0.4693670 0.3294886 -0.4693670
1594043 0.3219109 -0.4665549 0.6780891 0.4665549 0.6780891 0.4665549 0.3219109 -0.4665549
1621810 0.3144257 -0.4636388 0.6855743 0.4636388 0.6855743 0.4636388 0.3144257 -0.4636388
1650061 0.3070356 -0.4606224 0.6929644 0.4606224 0.6929644 0.4606224 0.3070356 -0.4606224
1678804 0.2997432 -0.4575093 0.7002568 0.4575093 0.7002568 0.4575093 0.2997432 -0.4575093
1708048 0.2925507 -0.4543034 0.7074493 0.4543034 0.7074493 0.4543034 0.2925507 -0.4543034
1737801 0.2854603 -0.4510084 0.7145397 0.4510084 0.7145397 0.4510084 0.2854603 -0.4510084
1768072 0.2784741 -0.4476282 0.7215259 0.4476282 0.7215259 0.4476282 0.2784741 -0.4476282
1798871 0.2715937 -0.4441668 0.7284063 0.4441668 0.7284063 0.4441668 0.2715937 -0.4441668
1830206 0.2648209 -0.4406280 0.7351791 0.4406280 0.7351791 0.4406280 0.2648209 -0.4406280
1862087 0.2581570 -0.4370157 0.7418430 0.4370157 0.7418430 0.4370157 0.2581570 -0.4370157
1894524 0.2516034 -0.4333339 0.7483966 0.4333339 0.7483966 0.4333339 0.2516034 -0.4333339
1927525 0.2451612 -0.4295865 0.7548388 0.4295865 0.7548388 0.4295865 0.2451612 -0.4295865
1961101 0.2388312 -0.4257773 0.7611688 0.4257773 0.7611688 0.4257773 0.2388312 -0.4257773
1995262 0.2326142 -0.4219103 0.7673858 0.4219103 0.7673858 0.4219103 0.2326142 -0.4219103
2030019 0.2265109 -0.4179892 0.7734891 0.4179892 0.7734891 0.4179892 0.2265109 -0.4179892
2065380 0.2205216 -0.4140178 0.7794784 0.4140178 0.7794784 0.4140178 0.2205216 -0.4140178
2101358 0.2146468 -0.4100000 0.7853532 0.4100000 0.7853532 0.4100000 0.2146468 -0.4100000
2137962 0.2088865 -0.4059394 0.7911135 0.4059394 0.7911135 0.4059394 0.2088865 -0.4059394
2175204 0.2032408 -0.4018396 0.7967592 0.4018396 0.7967592 0.4018396 0.2032408 -0.4018396
2213095 0.1977096 -0.3977042 0.8022904 0.3977042 0.8022904 0.3977042 0.1977096 -0.3977042
2251645 0.1922926 -0.3935367 0.8077074 0.3935367 0.8077074 0.3935367 0.1922926 -0.3935367
2290868 0.1869894 -0.3893407 0.8130106 0.3893407 0.8130106 0.3893407 0.1869894 -0.3893407
2330773 0.1817995 -0.3851193 0.8182005 0.3851193 0.8182005 0.3851193 0.1817995 -0.3851193
2371374 0.1767224 -0.3808760 0.8232776 0.3808760 0.8232776 0.3808760 0.1767224 -0.3808760
2412682 0.1717574 -0.3766139 0.8282426 0.3766139 0.8282426 0.3766139 0.1717574 -0.3766139
2454709 0.1669036 -0.3723362 0.8330964 0.3723362 0.8330964 0.3723362 0.1669036 -0.3723362
2497468 0.1621601 -0.3680459 0.8378399 0.3680459 0.8378399 0.3680459 0.1621601 -0.3680459
2540973 0.1575260 -0.3637458 0.8424740 0.3637458 0.8424740 0.3637458 0.1575260 -0.3637458
2585235 0.1530002 -0.3594390 0.8469998 0.3594390 0.8469998 0.3594390 0.1530002 -0.3594390
2630268 0.1485815 -0.3551281 0.8514185 0.3551281 0.8514185 0.3551281 0.1485815 -0.3551281
2676086 0.1442688 -0.3508157 0.8557312 0.3508157 0.8557312 0.3508157 0.1442688 -0.3508157
2722701 0.1400607 -0.3465046 0.8599393 0.3465046 0.8599393 0.3465046 0.1400607 -0.3465046
2770129 0.1359559 -0.3421971 0.8640441 0.3421971 0.8640441 0.3421971 0.1359559 -0.3421971
2818383 0.1319529 -0.3378956 0.8680471 0.3378956 0.8680471 0.3378956 0.1319529 -0.3378956
2867477 0.1280505 -0.3336025 0.8719495 0.3336025 0.8719495 0.3336025 0.1280505 -0.3336025
2917427 0.1242470 -0.3293199 0.8757530 0.3293199 0.8757530 0.3293199 0.1242470 -0.3293199
2968247 0.1205409 -0.3250499 0.8794591 0.3250499 0.8794591 0.3250499 0.1205409 -0.3250499
3019952 0.1169307 -0.3207945 0.8830693 0.3207945 0.8830693 0.3207945 0.1169307 -0.3207945
3072557 0.1134147 -0.3165557 0.8865853 0.3165557 0.8865853 0.3165557 0.1134147 -0.3165557
3126079 0.1099913 -0.3123353 0.8900087 0.3123353 0.8900087 0.3123353 0.1099913 -0.3123353
3180534 0.1066590 -0.3081349 0.8933410 0.3081349 0.8933410 0.3081349 0.1066590 -0.3081349
3235937 0.1034159 -0.3039564 0.8965841 0.3039564 0.8965841 0.3039564 0.1034159 -0.3039564
3292305 0.1002605 -0.2998012 0.8997395 0.2998012 0.8997395 0.2998012 0.1002605 -0.2998012
3349654 0.0971910 -0.2956707 0.9028090 0.2956707 0.9028090 0.2956707 0.0971910 -0.2956707
3408003 0.0942057 -0.2915665 0.9057943 0.2915665 0.9057943 0.2915665 0.0942057 -0.2915665
3467369 0.0913029 -0.2874899 0.9086971 0.2874899 0.9086971 0.2874899 0.0913029 -0.2874899
3527768 0.0884809 -0.2834420 0.9115191 0.2834420 0.9115191 0.2834420 0.0884809 -0.2834420
3589219 0.0857380 -0.2794240 0.9142620 0.2794240 0.9142620 0.2794240 0.0857380 -0.2794240
3651741 0.0830724 -0.2754371 0.9169276 0.2754371 0.9169276 0.2754371 0.0830724 -0.2754371
3715352 0.0804825 -0.2714821 0.9195175 0.2714821 0.9195175 0.2714821 0.0804825 -0.2714821
3780071 0.0779666 -0.2675602 0.9220334 0.2675602 0.9220334 0.2675602 0.0779666 -0.2675602
3845918 0.0755230 -0.2636721 0.9244770 0.2636721 0.9244770 0.2636721 0.0755230 -0.2636721
3912911 0.0731500 -0.2598187 0.9268500 0.2598187 0.9268500 0.2598187 0.0731500 -0.2598187
3981072 0.0708460 -0.2560008 0.9291540 0.2560008 0.9291540 0.2560008 0.0708460 -0.2560008
4050419 0.0686092 -0.2522189 0.9313908 0.2522189 0.9313908 0.2522189 0.0686092 -0.2522189
4120975 0.0664381 -0.2484737 0.9335619 0.2484737 0.9335619 0.2484737 0.0664381 -0.2484737
4192760 0.0643311 -0.2447659 0.9356689 0.2447659 0.9356689 0.2447659 0.0643311 -0.2447659
4265795 0.0622865 -0.2410958 0.9377135 0.2410958 0.9377135 0.2410958 0.0622865 -0.2410958
4340103 0.0603029 -0.2374641 0.9396971 0.2374641 0.9396971 0.2374641 0.0603029 -0.2374641
4415704 0.0583786 -0.2338710 0.9416214 0.2338710 0.9416214 0.2338710 0.0583786 -0.2338710
4492623 0.0565121 -0.2303170 0.9434879 0.2303170 0.9434879 0.2303170 0.0565121 -0.2303170
4570882 0.0547019 -0.2268023 0.9452981 0.2268023 0.9452981 0.2268023 0.0547019 -0.2268023
4650504 0.0529466 -0.2233273 0.9470534 0.2233273 0.9470534 0.2233273 0.0529466 -0.2233273
4731513 0.0512446 -0.2198922 0.9487554 0.2198922 0.9487554 0.2198922 0.0512446 -0.2198922
4813933 0.0495946 -0.2164971 0.9504054 0.2164971 0.9504054 0.2164971 0.0495946 -0.2164971
4897788 0.0479952 -0.2131422 0.9520048 0.2131422 0.9520048 0.2131422 0.0479952 -0.2131422
4983105 0.0464449 -0.2098276 0.9535551 0.2098276 0.9535551 0.2098276 0.0464449 -0.2098276
5069907 0.0449425 -0.2065534 0.9550575 0.2065534 0.9550575 0.2065534 0.0449425 -0.2065534
5158222 0.0434865 -0.2033197 0.9565135 0.2033197 0.9565135 0.2033197 0.0434865 -0.2033197
5248075 0.0420758 -0.2001264 0.9579242 0.2001264 0.9579242 0.2001264 0.0420758 -0.2001264
5339493 0.0407090 -0.1969735 0.9592910 0.1969735 0.9592910 0.1969735 0.0407090 -0.1969735
5432503 0.0393849 -0.1938610 0.9606151 0.1938610 0.9606151 0.1938610 0.0393849 -0.1938610
5527134 0.0381023 -0.1907889 0.9618977 0.1907889 0.9618977 0.1907889 0.0381023 -0.1907889
5623413 0.0368600 -0.1877569 0.9631400 0.1877569 0.9631400 0.1877569 0.0368600 -0.1877569
5721370 0.0356568 -0.1847651 0.9643432 0.1847651 0.9643432 0.1847651 0.0356568 -0.1847651
5821032 0.0344916 -0.1818131 0.9655084 0.1818131 0.9655084 0.1818131 0.0344916 -0.1818131
5922431 0.0333632 -0.1789010 0.9666368 0.1789010 0.9666368 0.1789010 0.0333632 -0.1789010
6025596 0.0322707 -0.1760284 0.9677293 0.1760284 0.9677293 0.1760284 0.0322707 -0.1760284
6130558 0.0312130 -0.1731953 0.9687870 0.1731953 0.9687870 0.1731953 0.0312130 -0.1731953
6237348 0.0301889 -0.1704013 0.9698111 0.1704013 0.9698111 0.1704013 0.0301889 -0.1704013
6345999 0.0291976 -0.1676462 0.9708024 0.1676462 0.9708024 0.1676462 0.0291976 -0.1676462
6456542 0.0282380 -0.1649297 0.9717620 0.1649297 0.9717620 0.1649297 0.0282380 -0.1649297
6569011 0.0273091 -0.1622517 0.9726909 0.1622517 0.9726909 0.1622517 0.0273091 -0.1622517
6683439 0.0264102 -0.1596118 0.9735898 0.1596118 0.9735898 0.1596118 0.0264102 -0.1596118
6799860 0.0255402 -0.1570097 0.9744598 0.1570097 0.9744598 0.1570097 0.0255402 -0.1570097
6918310 0.0246982 -0.1544450 0.9753018 0.1544450 0.9753018 0.1544450 0.0246982 -0.1544450
7038822 0.0238835 -0.1519176 0.9761165 0.1519176 0.9761165 0.1519176 0.0238835 -0.1519176
7161434 0.0230951 -0.1494271 0.9769049 0.1494271 0.9769049 0.1494271 0.0230951 -0.1494271
7286182 0.0223323 -0.1469731 0.9776677 0.1469731 0.9776677 0.1469731 0.0223323 -0.1469731
7413102 0.0215943 -0.1445552 0.9784057 0.1445552 0.9784057 0.1445552 0.0215943 -0.1445552
7542234 0.0208803 -0.1421732 0.9791197 0.1421732 0.9791197 0.1421732 0.0208803 -0.1421732
7673615 0.0201896 -0.1398267 0.9798104 0.1398267 0.9798104 0.1398267 0.0201896 -0.1398267
7807284 0.0195213 -0.1375153 0.9804787 0.1375153 0.9804787 0.1375153 0.0195213 -0.1375153
7943282 0.0188750 -0.1352386 0.9811250 0.1352386 0.9811250 0.1352386 0.0188750 -0.1352386
8081649 0.0182497 -0.1329963 0.9817503 0.1329963 0.9817503 0.1329963 0.0182497 -0.1329963
8222426 0.0176450 -0.1307880 0.9823550 0.1307880 0.9823550 0.1307880 0.0176450 -0.1307880
8365656 0.0170601 -0.1286133 0.9829399 0.1286133 0.9829399 0.1286133 0.0170601 -0.1286133
8511380 0.0164944 -0.1264719 0.9835056 0.1264719 0.9835056 0.1264719 0.0164944 -0.1264719
8659643 0.0159473 -0.1243632 0.9840527 0.1243632 0.9840527 0.1243632 0.0159473 -0.1243632
8810489 0.0154183 -0.1222870 0.9845817 0.1222870 0.9845817 0.1222870 0.0154183 -0.1222870
8963962 0.0149066 -0.1202429 0.9850934 0.1202429 0.9850934 0.1202429 0.0149066 -0.1202429
9120108 0.0144119 -0.1182304 0.9855881 0.1182304 0.9855881 0.1182304 0.0144119 -0.1182304
9278975 0.0139335 -0.1162492 0.9860665 0.1162492 0.9860665 0.1162492 0.0139335 -0.1162492
9440609 0.0134709 -0.1142989 0.9865291 0.1142989 0.9865291 0.1142989 0.0134709 -0.1142989
9605058 0.0130237 -0.1123790 0.9869763 0.1123790 0.9869763 0.1123790 0.0130237 -0.1123790
9772372 0.0125912 -0.1104892 0.9874088 0.1104892 0.9874088 0.1104892 0.0125912 -0.1104892
9942601 0.0121731 -0.1086292 0.9878269 0.1086292 0.9878269 0.1086292 0.0121731 -0.1086292
10115795 0.0117689 -0.1067984 0.9882311 0.1067984 0.9882311 0.1067984 0.0117689 -0.1067984
10292005 0.0113781 -0.1049965 0.9886219 0.1049965 0.9886219 0.1049965 0.0113781 -0.1049965
10471285 0.0110004 -0.1032231 0.9889996 0.1032231 0.9889996 0.1032231 0.0110004 -0.1032231
10653689 0.0106352 -0.1014779 0.9893648 0.1014779 0.9893648 0.1014779 0.0106352 -0.1014779
10839269 0.0102821 -0.0997604 0.9897179 0.0997604 0.9897179 0.0997604 0.0102821 -0.0997604
11028082 0.0099409 -0.0980702 0.9900591 0.0980702 0.9900591 0.0980702 0.0099409 -0.0980702
11220185 0.0096110 -0.0964070 0.9903890 0.0964070 0.9903890 0.0964070 0.0096110 -0.0964070
11415633 0.0092922 -0.0947704 0.9907078 0.0947704 0.9907078 0.0947704 0.0092922 -0.0947704
11614486 0.0089840 -0.0931600 0.9910160 0.0931600 0.9910160 0.0931600 0.0089840 -0.0931600
11816803 0.0086862 -0.0915754 0.9913138 0.0915754 0.9913138 0.0915754 0.0086862 -0.0915754
12022644 0.0083983 -0.0900163 0.9916017 0.0900163 0.9916017 0.0900163 0.0083983 -0.0900163
12232071 0.0081200 -0.0884822 0.9918800 0.0884822 0.9918800 0.0884822 0.0081200 -0.0884822
12445146 0.0078511 -0.0869728 0.9921489 0.0869728 0.9921489 0.0869728 0.0078511 -0.0869728
12661933 0.0075913 -0.0854878 0.9924087 0.0854878 0.9924087 0.0854878 0.0075913 -0.0854878
12882496 0.0073401 -0.0840268 0.9926599 0.0840268 0.9926599 0.0840268 0.0073401 -0.0840268
13106900 0.0070974 -0.0825894 0.9929026 0.0825894 0.9929026 0.0825894 0.0070974 -0.0825894
13335214 0.0068629 -0.0811753 0.9931371 0.0811753 0.9931371 0.0811753 0.0068629 -0.0811753
13567505 0.0066363 -0.0797840 0.9933637 0.0797840 0.9933637 0.0797840 0.0066363 -0.0797840
13803843 0.0064173 -0.0784154 0.9935827 0.0784154 0.9935827 0.0784154 0.0064173 -0.0784154
14044297 0.0062057 -0.0770689 0.9937943 0.0770689 0.9937943 0.0770689 0.0062057 -0.0770689
14288940 0.0060012 -0.0757444 0.9939988 0.0757444 0.9939988 0.0757444 0.0060012 -0.0757444
14537844 0.0058037 -0.0744413 0.9941963 0.0744413 0.9941963 0.0744413 0.0058037 -0.0744413
14791084 0.0056128 -0.0731595 0.9943872 0.0731595 0.9943872 0.0731595 0.0056128 -0.0731595
15048735 0.0054284 -0.0718985 0.9945716 0.0718985 0.9945716 0.0718985 0.0054284 -0.0718985
15310875 0.0052503 -0.0706581 0.9947497 0.0706581 0.9947497 0.0706581 0.0052503 -0.0706581
15577580 0.0050781 -0.0694379 0.9949219 0.0694379 0.9949219 0.0694379 0.0050781 -0.0694379
15848932 0.0049119 -0.0682376 0.9950881 0.0682376 0.9950881 0.0682376 0.0049119 -0.0682376
16125010 0.0047512 -0.0670569 0.9952488 0.0670569 0.9952488 0.0670569 0.0047512 -0.0670569
16405898 0.0045961 -0.0658955 0.9954039 0.0658955 0.9954039 0.0658955 0.0045961 -0.0658955
16691678 0.0044462 -0.0647530 0.9955538 0.0647530 0.9955538 0.0647530 0.0044462 -0.0647530
16982437 0.0043014 -0.0636292 0.9956986 0.0636292 0.9956986 0.0636292 0.0043014 -0.0636292
17278260 0.0041616 -0.0625237 0.9958384 0.0625237 0.9958384 0.0625237 0.0041616 -0.0625237
17579236 0.0040265 -0.0614363 0.9959735 0.0614363 0.9959735 0.0614363 0.0040265 -0.0614363
17885455 0.0038961 -0.0603667 0.9961039 0.0603667 0.9961039 0.0603667 0.0038961 -0.0603667
18197009 0.0037701 -0.0593146 0.9962299 0.0593146 0.9962299 0.0593146 0.0037701 -0.0593146
18513989 0.0036484 -0.0582796 0.9963516 0.0582796 0.9963516 0.0582796 0.0036484 -0.0582796
18836491 0.0035309 -0.0572616 0.9964691 0.0572616 0.9964691 0.0572616 0.0035309 -0.0572616
19164611 0.0034174 -0.0562602 0.9965826 0.0562602 0.9965826 0.0562602 0.0034174 -0.0562602
19498446 0.0033079 -0.0552752 0.9966921 0.0552752 0.9966921 0.0552752 0.0033079 -0.0552752
19838097 0.0032021 -0.0543062 0.9967979 0.0543062 0.9967979 0.0543062 0.0032021 -0.0543062
20183664 0.0030999 -0.0533531 0.9969001 0.0533531 0.9969001 0.0533531 0.0030999 -0.0533531
20535250 0.0030013 -0.0524155 0.9969987 0.0524155 0.9969987 0.0524155 0.0030013 -0.0524155
20892961 0.0029061 -0.0514933 0.9970939 0.0514933 0.9970939 0.0514933 0.0029061 -0.0514933
21256903 0.0028142 -0.0505860 0.9971858 0.0505860 0.9971858 0.0505860 0.0028142 -0.0505860
21627185 0.0027255 -0.0496936 0.9972745 0.0496936 0.9972745 0.0496936 0.0027255 -0.0496936
22003917 0.0026398 -0.0488157 0.9973602 0.0488157 0.9973602 0.0488157 0.0026398 -0.0488157
22387211 0.0025572 -0.0479522 0.9974428 0.0479522 0.9974428 0.0479522 0.0025572 -0.0479522
22777182 0.0024774 -0.0471027 0.9975226 0.0471027 0.9975226 0.0471027 0.0024774 -0.0471027
23173946 0.0024004 -0.0462670 0.9975996 0.0462670 0.9975996 0.0462670 0.0024004 -0.0462670
23577622 0.0023261 -0.0454448 0.9976739 0.0454448 0.9976739 0.0454448 0.0023261 -0.0454448
23988329 0.0022544 -0.0446361 0.9977456 0.0446361 0.9977456 0.0446361 0.0022544 -0.0446361
24406191 0.0021852 -0.0438405 0.9978148 0.0438405 0.9978148 0.0438405 0.0021852 -0.0438405
24831331 0.0021184 -0.0430577 0.9978816 0.0430577 0.9978816 0.0430577 0.0021184 -0.0430577
25263877 0.0020540 -0.0422877 0.9979460 0.0422877 0.9979460 0.0422877 0.0020540 -0.0422877
25703958 0.0019919 -0.0415301 0.9980081 0.0415301 0.9980081 0.0415301 0.0019919 -0.0415301
26151704 0.0019320 -0.0407848 0.9980680 0.0407848 0.9980680 0.0407848 0.0019320 -0.0407848
26607251 0.0018742 -0.0400515 0.9981258 0.0400515 0.9981258 0.0400515 0.0018742 -0.0400515
27070732 0.0018185 -0.0393300 0.9981815 0.0393300 0.9981815 0.0393300 0.0018185 -0.0393300
27542287 0.0017648 -0.0386202 0.9982352 0.0386202 0.9982352 0.0386202 0.0017648 -0.0386202
28022056 0.0017130 -0.0379218 0.9982870 0.0379218 0.9982870 0.0379218 0.0017130 -0.0379218
28510183 0.0016630 -0.0372346 0.9983370 0.0372346 0.9983370 0.0372346 0.0016630 -0.0372346
29006812 0.0016148 -0.0365584 0.9983852 0.0365584 0.9983852 0.0365584 0.0016148 -0.0365584
29512092 0.0015684 -0.0358931 0.9984316 0.0358931 0.9984316 0.0358931 0.0015684 -0.0358931
30026174 0.0015237 -0.0352384 0.9984763 0.0352384 0.9984763 0.0352384 0.0015237 -0.0352384
30549211 0.0014806 -0.0345942 0.9985194 0.0345942 0.9985194 0.0345942 0.0014806 -0.0345942
31081359 0.0014391 -0.0339602 0.9985609 0.0339602 0.9985609 0.0339602 0.0014391 -0.0339602
31622777 0.0013991 -0.0333364 0.9986009 0.0333364 0.9986009 0.0333364 0.0013991 -0.0333364
32173625 0.0013605 -0.0327224 0.9986395 0.0327224 0.9986395 0.0327224 0.0013605 -0.0327224
32734069 0.0013234 -0.0321182 0.9986766 0.0321182 0.9986766 0.0321182 0.0013234 -0.0321182
33304276 0.0012876 -0.0315235 0.9987124 0.0315235 0.9987124 0.0315235 0.0012876 -0.0315235
33884416 0.0012532 -0.0309382 0.9987468 0.0309382 0.9987468 0.0309382 0.0012532 -0.0309382
34474661 0.0012201 -0.0303621 0.9987799 0.0303621 0.9987799 0.0303621 0.0012201 -0.0303621
35075187 0.0011882 -0.0297951 0.9988118 0.0297951 0.9988118 0.0297951 0.0011882 -0.0297951
35686175 0.0011575 -0.0292370 0.9988425 0.0292370 0.9988425 0.0292370 0.0011575 -0.0292370
36307805 0.0011279 -0.0286876 0.9988721 0.0286876 0.9988721 0.0286876 0.0011279 -0.0286876
36940264 0.0010995 -0.0281468 0.9989005 0.0281468 0.9989005 0.0281468 0.0010995 -0.0281468
37583740 0.0010722 -0.0276143 0.9989278 0.0276143 0.9989278 0.0276143 0.0010722 -0.0276143
38238425 0.0010459 -0.0270902 0.9989541 0.0270902 0.9989541 0.0270902 0.0010459 -0.0270902
38904514 0.0010206 -0.0265741 0.9989794 0.0265741 0.9989794 0.0265741 0.0010206 -0.0265741
39582206 0.0009963 -0.0260660 0.9990037 0.0260660 0.9990037 0.0260660 0.0009963 -0.0260660
40271703 0.0009730 -0.0255657 0.9990270 0.0255657 0.9990270 0.0255657 0.0009730 -0.0255657
40973211 0.0009505 -0.0250730 0.9990495 0.0250730 0.9990495 0.0250730 0.0009505 -0.0250730
