!Murata Part Number: GRM21B5C2E332JWA1
!These Parameters are Measured in Series Mode Connection
!Data Generated on Mar 30, 2021
!       o--ll--o
!Port1            Port2
!       o------o
!Operation Temp=25[degC], DC Bias Voltage=0[V]
!Freq. Start=1000[kHz] Stop=1000[MHz] 401[Steps]
# Hz S RI R 50
!Freq.(Hz) S11(Real) S11(Imag) S21(Real) S21(Imag) S12(Real) S12(Imag) S22(Real) S22(Imag)
1000000 0.1942292 -0.3951080 0.8057708 0.3951080 0.8057708 0.3951080 0.1942292 -0.3951080
1017419 0.1888846 -0.3909235 0.8111154 0.3909235 0.8111154 0.3909235 0.1888846 -0.3909235
1035142 0.1836534 -0.3867125 0.8163466 0.3867125 0.8163466 0.3867125 0.1836534 -0.3867125
1053174 0.1785352 -0.3824784 0.8214648 0.3824784 0.8214648 0.3824784 0.1785352 -0.3824784
1071519 0.1735294 -0.3782243 0.8264706 0.3782243 0.8264706 0.3782243 0.1735294 -0.3782243
1090184 0.1686350 -0.3739534 0.8313650 0.3739534 0.8313650 0.3739534 0.1686350 -0.3739534
1109175 0.1638513 -0.3696688 0.8361487 0.3696688 0.8361487 0.3696688 0.1638513 -0.3696688
1128496 0.1591773 -0.3653735 0.8408227 0.3653735 0.8408227 0.3653735 0.1591773 -0.3653735
1148154 0.1546120 -0.3610703 0.8453880 0.3610703 0.8453880 0.3610703 0.1546120 -0.3610703
1168154 0.1501543 -0.3567621 0.8498457 0.3567621 0.8498457 0.3567621 0.1501543 -0.3567621
1188502 0.1458029 -0.3524515 0.8541971 0.3524515 0.8541971 0.3524515 0.1458029 -0.3524515
1209205 0.1415566 -0.3481411 0.8584434 0.3481411 0.8584434 0.3481411 0.1415566 -0.3481411
1230269 0.1374141 -0.3438335 0.8625859 0.3438335 0.8625859 0.3438335 0.1374141 -0.3438335
1251699 0.1333740 -0.3395311 0.8666260 0.3395311 0.8666260 0.3395311 0.1333740 -0.3395311
1273503 0.1294349 -0.3352362 0.8705651 0.3352362 0.8705651 0.3352362 0.1294349 -0.3352362
1295687 0.1255952 -0.3309510 0.8744048 0.3309510 0.8744048 0.3309510 0.1255952 -0.3309510
1318257 0.1218536 -0.3266777 0.8781464 0.3266777 0.8781464 0.3266777 0.1218536 -0.3266777
1341220 0.1182084 -0.3224184 0.8817916 0.3224184 0.8817916 0.3224184 0.1182084 -0.3224184
1364583 0.1146580 -0.3181748 0.8853420 0.3181748 0.8853420 0.3181748 0.1146580 -0.3181748
1388353 0.1112008 -0.3139490 0.8887992 0.3139490 0.8887992 0.3139490 0.1112008 -0.3139490
1412538 0.1078352 -0.3097427 0.8921648 0.3097427 0.8921648 0.3097427 0.1078352 -0.3097427
1437143 0.1045596 -0.3055576 0.8954404 0.3055576 0.8954404 0.3055576 0.1045596 -0.3055576
1462177 0.1013721 -0.3013953 0.8986279 0.3013953 0.8986279 0.3013953 0.1013721 -0.3013953
1487647 0.0982712 -0.2972573 0.9017288 0.2972573 0.9017288 0.2972573 0.0982712 -0.2972573
1513561 0.0952551 -0.2931450 0.9047449 0.2931450 0.9047449 0.2931450 0.0952551 -0.2931450
1539927 0.0923222 -0.2890597 0.9076778 0.2890597 0.9076778 0.2890597 0.0923222 -0.2890597
1566751 0.0894707 -0.2850028 0.9105293 0.2850028 0.9105293 0.2850028 0.0894707 -0.2850028
1594043 0.0866989 -0.2809754 0.9133011 0.2809754 0.9133011 0.2809754 0.0866989 -0.2809754
1621810 0.0840051 -0.2769787 0.9159949 0.2769787 0.9159949 0.2769787 0.0840051 -0.2769787
1650061 0.0813875 -0.2730137 0.9186125 0.2730137 0.9186125 0.2730137 0.0813875 -0.2730137
1678804 0.0788446 -0.2690813 0.9211554 0.2690813 0.9211554 0.2690813 0.0788446 -0.2690813
1708048 0.0763745 -0.2651825 0.9236255 0.2651825 0.9236255 0.2651825 0.0763745 -0.2651825
1737801 0.0739757 -0.2613181 0.9260243 0.2613181 0.9260243 0.2613181 0.0739757 -0.2613181
1768072 0.0716464 -0.2574888 0.9283536 0.2574888 0.9283536 0.2574888 0.0716464 -0.2574888
1798871 0.0693851 -0.2536955 0.9306149 0.2536955 0.9306149 0.2536955 0.0693851 -0.2536955
1830206 0.0671900 -0.2499386 0.9328100 0.2499386 0.9328100 0.2499386 0.0671900 -0.2499386
1862087 0.0650595 -0.2462189 0.9349405 0.2462189 0.9349405 0.2462189 0.0650595 -0.2462189
1894524 0.0629921 -0.2425368 0.9370079 0.2425368 0.9370079 0.2425368 0.0629921 -0.2425368
1927525 0.0609861 -0.2388929 0.9390139 0.2388929 0.9390139 0.2388929 0.0609861 -0.2388929
1961101 0.0590401 -0.2352875 0.9409599 0.2352875 0.9409599 0.2352875 0.0590401 -0.2352875
1995262 0.0571524 -0.2317211 0.9428476 0.2317211 0.9428476 0.2317211 0.0571524 -0.2317211
2030019 0.0553216 -0.2281940 0.9446784 0.2281940 0.9446784 0.2281940 0.0553216 -0.2281940
2065380 0.0535462 -0.2247064 0.9464538 0.2247064 0.9464538 0.2247064 0.0535462 -0.2247064
2101358 0.0518247 -0.2212587 0.9481753 0.2212587 0.9481753 0.2212587 0.0518247 -0.2212587
2137962 0.0501557 -0.2178510 0.9498443 0.2178510 0.9498443 0.2178510 0.0501557 -0.2178510
2175204 0.0485377 -0.2144834 0.9514623 0.2144834 0.9514623 0.2144834 0.0485377 -0.2144834
2213095 0.0469694 -0.2111562 0.9530306 0.2111562 0.9530306 0.2111562 0.0469694 -0.2111562
2251645 0.0454494 -0.2078694 0.9545506 0.2078694 0.9545506 0.2078694 0.0454494 -0.2078694
2290868 0.0439764 -0.2046230 0.9560236 0.2046230 0.9560236 0.2046230 0.0439764 -0.2046230
2330773 0.0425491 -0.2014171 0.9574509 0.2014171 0.9574509 0.2014171 0.0425491 -0.2014171
2371374 0.0411662 -0.1982517 0.9588338 0.1982517 0.9588338 0.1982517 0.0411662 -0.1982517
2412682 0.0398264 -0.1951267 0.9601736 0.1951267 0.9601736 0.1951267 0.0398264 -0.1951267
2454709 0.0385285 -0.1920421 0.9614715 0.1920421 0.9614715 0.1920421 0.0385285 -0.1920421
2497468 0.0372714 -0.1889978 0.9627286 0.1889978 0.9627286 0.1889978 0.0372714 -0.1889978
2540973 0.0360538 -0.1859936 0.9639462 0.1859936 0.9639462 0.1859936 0.0360538 -0.1859936
2585235 0.0348746 -0.1830295 0.9651254 0.1830295 0.9651254 0.1830295 0.0348746 -0.1830295
2630268 0.0337327 -0.1801053 0.9662673 0.1801053 0.9662673 0.1801053 0.0337327 -0.1801053
2676086 0.0326270 -0.1772207 0.9673730 0.1772207 0.9673730 0.1772207 0.0326270 -0.1772207
2722701 0.0315564 -0.1743757 0.9684436 0.1743757 0.9684436 0.1743757 0.0315564 -0.1743757
2770129 0.0305199 -0.1715699 0.9694801 0.1715699 0.9694801 0.1715699 0.0305199 -0.1715699
2818383 0.0295165 -0.1688032 0.9704835 0.1688032 0.9704835 0.1688032 0.0295165 -0.1688032
2867477 0.0285452 -0.1660753 0.9714548 0.1660753 0.9714548 0.1660753 0.0285452 -0.1660753
2917427 0.0276050 -0.1633859 0.9723950 0.1633859 0.9723950 0.1633859 0.0276050 -0.1633859
2968247 0.0266950 -0.1607348 0.9733050 0.1607348 0.9733050 0.1607348 0.0266950 -0.1607348
3019952 0.0258143 -0.1581217 0.9741857 0.1581217 0.9741857 0.1581217 0.0258143 -0.1581217
3072557 0.0249619 -0.1555462 0.9750381 0.1555462 0.9750381 0.1555462 0.0249619 -0.1555462
3126079 0.0241371 -0.1530081 0.9758629 0.1530081 0.9758629 0.1530081 0.0241371 -0.1530081
3180534 0.0233389 -0.1505070 0.9766611 0.1505070 0.9766611 0.1505070 0.0233389 -0.1505070
3235937 0.0225666 -0.1480426 0.9774334 0.1480426 0.9774334 0.1480426 0.0225666 -0.1480426
3292305 0.0218194 -0.1456146 0.9781806 0.1456146 0.9781806 0.1456146 0.0218194 -0.1456146
3349654 0.0210964 -0.1432226 0.9789036 0.1432226 0.9789036 0.1432226 0.0210964 -0.1432226
3408003 0.0203970 -0.1408662 0.9796030 0.1408662 0.9796030 0.1408662 0.0203970 -0.1408662
3467369 0.0197203 -0.1385452 0.9802797 0.1385452 0.9802797 0.1385452 0.0197203 -0.1385452
3527768 0.0190658 -0.1362590 0.9809342 0.1362590 0.9809342 0.1362590 0.0190658 -0.1362590
3589219 0.0184326 -0.1340075 0.9815674 0.1340075 0.9815674 0.1340075 0.0184326 -0.1340075
3651741 0.0178202 -0.1317901 0.9821798 0.1317901 0.9821798 0.1317901 0.0178202 -0.1317901
3715352 0.0172278 -0.1296065 0.9827722 0.1296065 0.9827722 0.1296065 0.0172278 -0.1296065
3780071 0.0166549 -0.1274563 0.9833451 0.1274563 0.9833451 0.1274563 0.0166549 -0.1274563
3845918 0.0161007 -0.1253392 0.9838993 0.1253392 0.9838993 0.1253392 0.0161007 -0.1253392
3912911 0.0155648 -0.1232547 0.9844352 0.1232547 0.9844352 0.1232547 0.0155648 -0.1232547
3981072 0.0150466 -0.1212025 0.9849534 0.1212025 0.9849534 0.1212025 0.0150466 -0.1212025
4050419 0.0145454 -0.1191822 0.9854546 0.1191822 0.9854546 0.1191822 0.0145454 -0.1191822
4120975 0.0140608 -0.1171933 0.9859392 0.1171933 0.9859392 0.1171933 0.0140608 -0.1171933
4192760 0.0135921 -0.1152355 0.9864079 0.1152355 0.9864079 0.1152355 0.0135921 -0.1152355
4265795 0.0131390 -0.1133084 0.9868610 0.1133084 0.9868610 0.1133084 0.0131390 -0.1133084
4340103 0.0127008 -0.1114115 0.9872992 0.1114115 0.9872992 0.1114115 0.0127008 -0.1114115
4415704 0.0122772 -0.1095446 0.9877228 0.1095446 0.9877228 0.1095446 0.0122772 -0.1095446
4492623 0.0118675 -0.1077072 0.9881325 0.1077072 0.9881325 0.1077072 0.0118675 -0.1077072
4570882 0.0114715 -0.1058989 0.9885285 0.1058989 0.9885285 0.1058989 0.0114715 -0.1058989
4650504 0.0110887 -0.1041193 0.9889113 0.1041193 0.9889113 0.1041193 0.0110887 -0.1041193
4731513 0.0107185 -0.1023681 0.9892815 0.1023681 0.9892815 0.1023681 0.0107185 -0.1023681
4813933 0.0103607 -0.1006448 0.9896393 0.1006448 0.9896393 0.1006448 0.0103607 -0.1006448
4897788 0.0100147 -0.0989490 0.9899853 0.0989490 0.9899853 0.0989490 0.0100147 -0.0989490
4983105 0.0096803 -0.0972805 0.9903197 0.0972805 0.9903197 0.0972805 0.0096803 -0.0972805
5069907 0.0093570 -0.0956387 0.9906430 0.0956387 0.9906430 0.0956387 0.0093570 -0.0956387
5158222 0.0090445 -0.0940233 0.9909555 0.0940233 0.9909555 0.0940233 0.0090445 -0.0940233
5248075 0.0087425 -0.0924340 0.9912575 0.0924340 0.9912575 0.0924340 0.0087425 -0.0924340
5339493 0.0084505 -0.0908703 0.9915495 0.0908703 0.9915495 0.0908703 0.0084505 -0.0908703
5432503 0.0081683 -0.0893320 0.9918317 0.0893320 0.9918317 0.0893320 0.0081683 -0.0893320
5527134 0.0078955 -0.0878185 0.9921045 0.0878185 0.9921045 0.0878185 0.0078955 -0.0878185
5623413 0.0076318 -0.0863297 0.9923682 0.0863297 0.9923682 0.0863297 0.0076318 -0.0863297
5721370 0.0073770 -0.0848650 0.9926230 0.0848650 0.9926230 0.0848650 0.0073770 -0.0848650
5821032 0.0071307 -0.0834241 0.9928693 0.0834241 0.9928693 0.0834241 0.0071307 -0.0834241
5922431 0.0068926 -0.0820067 0.9931074 0.0820067 0.9931074 0.0820067 0.0068926 -0.0820067
6025596 0.0066626 -0.0806125 0.9933374 0.0806125 0.9933374 0.0806125 0.0066626 -0.0806125
6130558 0.0064402 -0.0792410 0.9935598 0.0792410 0.9935598 0.0792410 0.0064402 -0.0792410
6237348 0.0062253 -0.0778919 0.9937747 0.0778919 0.9937747 0.0778919 0.0062253 -0.0778919
6345999 0.0060177 -0.0765650 0.9939823 0.0765650 0.9939823 0.0765650 0.0060177 -0.0765650
6456542 0.0058170 -0.0752598 0.9941830 0.0752598 0.9941830 0.0752598 0.0058170 -0.0752598
6569011 0.0056230 -0.0739760 0.9943770 0.0739760 0.9943770 0.0739760 0.0056230 -0.0739760
6683439 0.0054356 -0.0727132 0.9945644 0.0727132 0.9945644 0.0727132 0.0054356 -0.0727132
6799860 0.0052545 -0.0714713 0.9947455 0.0714713 0.9947455 0.0714713 0.0052545 -0.0714713
6918310 0.0050795 -0.0702498 0.9949205 0.0702498 0.9949205 0.0702498 0.0050795 -0.0702498
7038822 0.0049103 -0.0690483 0.9950897 0.0690483 0.9950897 0.0690483 0.0049103 -0.0690483
7161434 0.0047469 -0.0678667 0.9952531 0.0678667 0.9952531 0.0678667 0.0047469 -0.0678667
7286182 0.0045890 -0.0667046 0.9954110 0.0667046 0.9954110 0.0667046 0.0045890 -0.0667046
7413102 0.0044364 -0.0655616 0.9955636 0.0655616 0.9955636 0.0655616 0.0044364 -0.0655616
7542234 0.0042890 -0.0644375 0.9957110 0.0644375 0.9957110 0.0644375 0.0042890 -0.0644375
7673615 0.0041465 -0.0633320 0.9958535 0.0633320 0.9958535 0.0633320 0.0041465 -0.0633320
7807284 0.0040089 -0.0622448 0.9959911 0.0622448 0.9959911 0.0622448 0.0040089 -0.0622448
7943282 0.0038759 -0.0611755 0.9961241 0.0611755 0.9961241 0.0611755 0.0038759 -0.0611755
8081649 0.0037474 -0.0601239 0.9962526 0.0601239 0.9962526 0.0601239 0.0037474 -0.0601239
8222426 0.0036232 -0.0590897 0.9963768 0.0590897 0.9963768 0.0590897 0.0036232 -0.0590897
8365656 0.0035032 -0.0580727 0.9964968 0.0580727 0.9964968 0.0580727 0.0035032 -0.0580727
8511380 0.0033873 -0.0570725 0.9966127 0.0570725 0.9966127 0.0570725 0.0033873 -0.0570725
8659643 0.0032754 -0.0560888 0.9967246 0.0560888 0.9967246 0.0560888 0.0032754 -0.0560888
8810489 0.0031672 -0.0551215 0.9968328 0.0551215 0.9968328 0.0551215 0.0031672 -0.0551215
8963962 0.0030627 -0.0541702 0.9969373 0.0541702 0.9969373 0.0541702 0.0030627 -0.0541702
9120108 0.0029617 -0.0532346 0.9970383 0.0532346 0.9970383 0.0532346 0.0029617 -0.0532346
9278975 0.0028642 -0.0523146 0.9971358 0.0523146 0.9971358 0.0523146 0.0028642 -0.0523146
9440609 0.0027700 -0.0514098 0.9972300 0.0514098 0.9972300 0.0514098 0.0027700 -0.0514098
9605058 0.0026790 -0.0505200 0.9973210 0.0505200 0.9973210 0.0505200 0.0026790 -0.0505200
9772372 0.0025910 -0.0496450 0.9974090 0.0496450 0.9974090 0.0496450 0.0025910 -0.0496450
9942601 0.0025061 -0.0487845 0.9974939 0.0487845 0.9974939 0.0487845 0.0025061 -0.0487845
10115795 0.0024241 -0.0479383 0.9975759 0.0479383 0.9975759 0.0479383 0.0024241 -0.0479383
10292005 0.0023448 -0.0471061 0.9976552 0.0471061 0.9976552 0.0471061 0.0023448 -0.0471061
10471285 0.0022683 -0.0462877 0.9977317 0.0462877 0.9977317 0.0462877 0.0022683 -0.0462877
10653689 0.0021944 -0.0454828 0.9978056 0.0454828 0.9978056 0.0454828 0.0021944 -0.0454828
10839269 0.0021230 -0.0446913 0.9978770 0.0446913 0.9978770 0.0446913 0.0021230 -0.0446913
11028082 0.0020540 -0.0439129 0.9979460 0.0439129 0.9979460 0.0439129 0.0020540 -0.0439129
11220185 0.0019874 -0.0431474 0.9980126 0.0431474 0.9980126 0.0431474 0.0019874 -0.0431474
11415633 0.0019231 -0.0423946 0.9980769 0.0423946 0.9980769 0.0423946 0.0019231 -0.0423946
11614486 0.0018609 -0.0416542 0.9981391 0.0416542 0.9981391 0.0416542 0.0018609 -0.0416542
11816803 0.0018010 -0.0409261 0.9981990 0.0409261 0.9981990 0.0409261 0.0018010 -0.0409261
12022644 0.0017430 -0.0402100 0.9982570 0.0402100 0.9982570 0.0402100 0.0017430 -0.0402100
12232071 0.0016871 -0.0395058 0.9983129 0.0395058 0.9983129 0.0395058 0.0016871 -0.0395058
12445146 0.0016331 -0.0388132 0.9983669 0.0388132 0.9983669 0.0388132 0.0016331 -0.0388132
12661933 0.0015809 -0.0381320 0.9984191 0.0381320 0.9984191 0.0381320 0.0015809 -0.0381320
12882496 0.0015306 -0.0374621 0.9984694 0.0374621 0.9984694 0.0374621 0.0015306 -0.0374621
13106900 0.0014820 -0.0368033 0.9985180 0.0368033 0.9985180 0.0368033 0.0014820 -0.0368033
13335214 0.0014350 -0.0361552 0.9985650 0.0361552 0.9985650 0.0361552 0.0014350 -0.0361552
13567505 0.0013897 -0.0355179 0.9986103 0.0355179 0.9986103 0.0355179 0.0013897 -0.0355179
13803843 0.0013460 -0.0348911 0.9986540 0.0348911 0.9986540 0.0348911 0.0013460 -0.0348911
14044297 0.0013038 -0.0342745 0.9986962 0.0342745 0.9986962 0.0342745 0.0013038 -0.0342745
14288940 0.0012630 -0.0336681 0.9987370 0.0336681 0.9987370 0.0336681 0.0012630 -0.0336681
14537844 0.0012237 -0.0330717 0.9987763 0.0330717 0.9987763 0.0330717 0.0012237 -0.0330717
14791084 0.0011858 -0.0324850 0.9988142 0.0324850 0.9988142 0.0324850 0.0011858 -0.0324850
15048735 0.0011491 -0.0319080 0.9988509 0.0319080 0.9988509 0.0319080 0.0011491 -0.0319080
15310875 0.0011138 -0.0313404 0.9988862 0.0313404 0.9988862 0.0313404 0.0011138 -0.0313404
15577580 0.0010797 -0.0307820 0.9989203 0.0307820 0.9989203 0.0307820 0.0010797 -0.0307820
15848932 0.0010468 -0.0302328 0.9989532 0.0302328 0.9989532 0.0302328 0.0010468 -0.0302328
16125010 0.0010151 -0.0296926 0.9989849 0.0296926 0.9989849 0.0296926 0.0010151 -0.0296926
16405898 0.0009845 -0.0291612 0.9990155 0.0291612 0.9990155 0.0291612 0.0009845 -0.0291612
16691678 0.0009550 -0.0286384 0.9990450 0.0286384 0.9990450 0.0286384 0.0009550 -0.0286384
16982437 0.0009265 -0.0281241 0.9990735 0.0281241 0.9990735 0.0281241 0.0009265 -0.0281241
17278260 0.0008991 -0.0276181 0.9991009 0.0276181 0.9991009 0.0276181 0.0008991 -0.0276181
17579236 0.0008726 -0.0271204 0.9991274 0.0271204 0.9991274 0.0271204 0.0008726 -0.0271204
17885455 0.0008471 -0.0266307 0.9991529 0.0266307 0.9991529 0.0266307 0.0008471 -0.0266307
18197009 0.0008225 -0.0261489 0.9991775 0.0261489 0.9991775 0.0261489 0.0008225 -0.0261489
18513989 0.0007988 -0.0256749 0.9992012 0.0256749 0.9992012 0.0256749 0.0007988 -0.0256749
18836491 0.0007760 -0.0252085 0.9992240 0.0252085 0.9992240 0.0252085 0.0007760 -0.0252085
19164611 0.0007540 -0.0247497 0.9992460 0.0247497 0.9992460 0.0247497 0.0007540 -0.0247497
19498446 0.0007328 -0.0242982 0.9992672 0.0242982 0.9992672 0.0242982 0.0007328 -0.0242982
19838097 0.0007124 -0.0238539 0.9992876 0.0238539 0.9992876 0.0238539 0.0007124 -0.0238539
20183664 0.0006928 -0.0234167 0.9993072 0.0234167 0.9993072 0.0234167 0.0006928 -0.0234167
20535250 0.0006738 -0.0229865 0.9993262 0.0229865 0.9993262 0.0229865 0.0006738 -0.0229865
20892961 0.0006556 -0.0225631 0.9993444 0.0225631 0.9993444 0.0225631 0.0006556 -0.0225631
21256903 0.0006381 -0.0221465 0.9993619 0.0221465 0.9993619 0.0221465 0.0006381 -0.0221465
21627185 0.0006212 -0.0217365 0.9993788 0.0217365 0.9993788 0.0217365 0.0006212 -0.0217365
22003917 0.0006050 -0.0213330 0.9993950 0.0213330 0.9993950 0.0213330 0.0006050 -0.0213330
22387211 0.0005894 -0.0209358 0.9994106 0.0209358 0.9994106 0.0209358 0.0005894 -0.0209358
22777182 0.0005744 -0.0205449 0.9994256 0.0205449 0.9994256 0.0205449 0.0005744 -0.0205449
23173946 0.0005600 -0.0201601 0.9994400 0.0201601 0.9994400 0.0201601 0.0005600 -0.0201601
23577622 0.0005462 -0.0197813 0.9994538 0.0197813 0.9994538 0.0197813 0.0005462 -0.0197813
23988329 0.0005329 -0.0194085 0.9994671 0.0194085 0.9994671 0.0194085 0.0005329 -0.0194085
24406191 0.0005201 -0.0190414 0.9994799 0.0190414 0.9994799 0.0190414 0.0005201 -0.0190414
24831331 0.0005079 -0.0186800 0.9994921 0.0186800 0.9994921 0.0186800 0.0005079 -0.0186800
25263877 0.0004961 -0.0183243 0.9995039 0.0183243 0.9995039 0.0183243 0.0004961 -0.0183243
25703958 0.0004849 -0.0179740 0.9995151 0.0179740 0.9995151 0.0179740 0.0004849 -0.0179740
26151704 0.0004741 -0.0176291 0.9995259 0.0176291 0.9995259 0.0176291 0.0004741 -0.0176291
26607251 0.0004637 -0.0172895 0.9995363 0.0172895 0.9995363 0.0172895 0.0004637 -0.0172895
27070732 0.0004538 -0.0169550 0.9995462 0.0169550 0.9995462 0.0169550 0.0004538 -0.0169550
27542287 0.0004443 -0.0166257 0.9995557 0.0166257 0.9995557 0.0166257 0.0004443 -0.0166257
28022056 0.0004352 -0.0163013 0.9995648 0.0163013 0.9995648 0.0163013 0.0004352 -0.0163013
28510183 0.0004265 -0.0159819 0.9995735 0.0159819 0.9995735 0.0159819 0.0004265 -0.0159819
29006812 0.0004182 -0.0156672 0.9995818 0.0156672 0.9995818 0.0156672 0.0004182 -0.0156672
29512092 0.0004103 -0.0153572 0.9995897 0.0153572 0.9995897 0.0153572 0.0004103 -0.0153572
30026174 0.0004027 -0.0150519 0.9995973 0.0150519 0.9995973 0.0150519 0.0004027 -0.0150519
30549211 0.0003955 -0.0147511 0.9996045 0.0147511 0.9996045 0.0147511 0.0003955 -0.0147511
31081359 0.0003887 -0.0144547 0.9996113 0.0144547 0.9996113 0.0144547 0.0003887 -0.0144547
31622777 0.0003821 -0.0141627 0.9996179 0.0141627 0.9996179 0.0141627 0.0003821 -0.0141627
32173625 0.0003759 -0.0138749 0.9996241 0.0138749 0.9996241 0.0138749 0.0003759 -0.0138749
32734069 0.0003700 -0.0135913 0.9996300 0.0135913 0.9996300 0.0135913 0.0003700 -0.0135913
33304276 0.0003643 -0.0133119 0.9996357 0.0133119 0.9996357 0.0133119 0.0003643 -0.0133119
33884416 0.0003590 -0.0130364 0.9996410 0.0130364 0.9996410 0.0130364 0.0003590 -0.0130364
34474661 0.0003540 -0.0127649 0.9996460 0.0127649 0.9996460 0.0127649 0.0003540 -0.0127649
35075187 0.0003492 -0.0124972 0.9996508 0.0124972 0.9996508 0.0124972 0.0003492 -0.0124972
35686175 0.0003447 -0.0122333 0.9996553 0.0122333 0.9996553 0.0122333 0.0003447 -0.0122333
36307805 0.0003404 -0.0119731 0.9996596 0.0119731 0.9996596 0.0119731 0.0003404 -0.0119731
36940264 0.0003364 -0.0117165 0.9996636 0.0117165 0.9996636 0.0117165 0.0003364 -0.0117165
37583740 0.0003326 -0.0114635 0.9996674 0.0114635 0.9996674 0.0114635 0.0003326 -0.0114635
38238425 0.0003290 -0.0112139 0.9996710 0.0112139 0.9996710 0.0112139 0.0003290 -0.0112139
38904514 0.0003257 -0.0109678 0.9996743 0.0109678 0.9996743 0.0109678 0.0003257 -0.0109678
39582206 0.0003226 -0.0107250 0.9996774 0.0107250 0.9996774 0.0107250 0.0003226 -0.0107250
40271703 0.0003197 -0.0104854 0.9996803 0.0104854 0.9996803 0.0104854 0.0003197 -0.0104854
40973211 0.0003170 -0.0102490 0.9996830 0.0102490 0.9996830 0.0102490 0.0003170 -0.0102490
