!Murata Part Number: GRM2165C2A103JA01
!These Parameters are Measured in Series Mode Connection
!Data Generated on Mar 30, 2021
!       o--ll--o
!Port1            Port2
!       o------o
!Operation Temp=25[degC], DC Bias Voltage=0[V]
!Freq. Start=1000[kHz] Stop=6[GHz] 401[Steps]
# Hz S RI R 50
!Freq.(Hz) S11(Real) S11(Imag) S21(Real) S21(Imag) S12(Real) S12(Imag) S22(Real) S22(Imag)
1000000 0.0247370 -0.1551216 0.9752630 0.1551216 0.9752630 0.1551216 0.0247370 -0.1551216
1021987 0.0237113 -0.1519424 0.9762887 0.1519424 0.9762887 0.1519424 0.0237113 -0.1519424
1044457 0.0227273 -0.1488218 0.9772727 0.1488218 0.9772727 0.1488218 0.0227273 -0.1488218
1067422 0.0217834 -0.1457592 0.9782166 0.1457592 0.9782166 0.1457592 0.0217834 -0.1457592
1090891 0.0208779 -0.1427537 0.9791221 0.1427537 0.9791221 0.1427537 0.0208779 -0.1427537
1114877 0.0200094 -0.1398048 0.9799906 0.1398048 0.9799906 0.1398048 0.0200094 -0.1398048
1139390 0.0191764 -0.1369116 0.9808236 0.1369116 0.9808236 0.1369116 0.0191764 -0.1369116
1164441 0.0183776 -0.1340735 0.9816224 0.1340735 0.9816224 0.1340735 0.0183776 -0.1340735
1190044 0.0176115 -0.1312897 0.9823885 0.1312897 0.9823885 0.1312897 0.0176115 -0.1312897
1216210 0.0168770 -0.1285594 0.9831230 0.1285594 0.9831230 0.1285594 0.0168770 -0.1285594
1242950 0.0161727 -0.1258819 0.9838273 0.1258819 0.9838273 0.1258819 0.0161727 -0.1258819
1270279 0.0154974 -0.1232564 0.9845026 0.1232564 0.9845026 0.1232564 0.0154974 -0.1232564
1298209 0.0148500 -0.1206821 0.9851500 0.1206821 0.9851500 0.1206821 0.0148500 -0.1206821
1326753 0.0142294 -0.1181583 0.9857706 0.1181583 0.9857706 0.1181583 0.0142294 -0.1181583
1355924 0.0136345 -0.1156841 0.9863655 0.1156841 0.9863655 0.1156841 0.0136345 -0.1156841
1385737 0.0130642 -0.1132587 0.9869358 0.1132587 0.9869358 0.1132587 0.0130642 -0.1132587
1416205 0.0125176 -0.1108815 0.9874824 0.1108815 0.9874824 0.1108815 0.0125176 -0.1108815
1447343 0.0119937 -0.1085515 0.9880063 0.1085515 0.9880063 0.1085515 0.0119937 -0.1085515
1479166 0.0114916 -0.1062680 0.9885084 0.1062680 0.9885084 0.1062680 0.0114916 -0.1062680
1511688 0.0110104 -0.1040303 0.9889896 0.1040303 0.9889896 0.1040303 0.0110104 -0.1040303
1544926 0.0105493 -0.1018375 0.9894507 0.1018375 0.9894507 0.1018375 0.0105493 -0.1018375
1578894 0.0101073 -0.0996889 0.9898927 0.0996889 0.9898927 0.0996889 0.0101073 -0.0996889
1613609 0.0096838 -0.0975837 0.9903162 0.0975837 0.9903162 0.0975837 0.0096838 -0.0975837
1649087 0.0092781 -0.0955211 0.9907219 0.0955211 0.9907219 0.0955211 0.0092781 -0.0955211
1685346 0.0088892 -0.0935004 0.9911108 0.0935004 0.9911108 0.0935004 0.0088892 -0.0935004
1722402 0.0085167 -0.0915209 0.9914833 0.0915209 0.9914833 0.0915209 0.0085167 -0.0915209
1760272 0.0081597 -0.0895817 0.9918403 0.0895817 0.9918403 0.0895817 0.0081597 -0.0895817
1798975 0.0078177 -0.0876822 0.9921823 0.0876822 0.9921823 0.0876822 0.0078177 -0.0876822
1838529 0.0074901 -0.0858217 0.9925099 0.0858217 0.9925099 0.0858217 0.0074901 -0.0858217
1878953 0.0071762 -0.0839993 0.9928238 0.0839993 0.9928238 0.0839993 0.0071762 -0.0839993
1920266 0.0068755 -0.0822144 0.9931245 0.0822144 0.9931245 0.0822144 0.0068755 -0.0822144
1962487 0.0065874 -0.0804663 0.9934126 0.0804663 0.9934126 0.0804663 0.0065874 -0.0804663
2005636 0.0063114 -0.0787543 0.9936886 0.0787543 0.9936886 0.0787543 0.0063114 -0.0787543
2049734 0.0060470 -0.0770777 0.9939530 0.0770777 0.9939530 0.0770777 0.0060470 -0.0770777
2094801 0.0057938 -0.0754359 0.9942062 0.0754359 0.9942062 0.0754359 0.0057938 -0.0754359
2140860 0.0055512 -0.0738280 0.9944488 0.0738280 0.9944488 0.0738280 0.0055512 -0.0738280
2187931 0.0053189 -0.0722536 0.9946811 0.0722536 0.9946811 0.0722536 0.0053189 -0.0722536
2236037 0.0050963 -0.0707120 0.9949037 0.0707120 0.9949037 0.0707120 0.0050963 -0.0707120
2285201 0.0048831 -0.0692024 0.9951169 0.0692024 0.9951169 0.0692024 0.0048831 -0.0692024
2335446 0.0046790 -0.0677244 0.9953210 0.0677244 0.9953210 0.0677244 0.0046790 -0.0677244
2386795 0.0044834 -0.0662771 0.9955166 0.0662771 0.9955166 0.0662771 0.0044834 -0.0662771
2439274 0.0042961 -0.0648602 0.9957039 0.0648602 0.9957039 0.0648602 0.0042961 -0.0648602
2492906 0.0041167 -0.0634729 0.9958833 0.0634729 0.9958833 0.0634729 0.0041167 -0.0634729
2547717 0.0039449 -0.0621146 0.9960551 0.0621146 0.9960551 0.0621146 0.0039449 -0.0621146
2603734 0.0037804 -0.0607848 0.9962196 0.0607848 0.9962196 0.0607848 0.0037804 -0.0607848
2660982 0.0036228 -0.0594829 0.9963772 0.0594829 0.9963772 0.0594829 0.0036228 -0.0594829
2719490 0.0034719 -0.0582084 0.9965281 0.0582084 0.9965281 0.0582084 0.0034719 -0.0582084
2779283 0.0033273 -0.0569606 0.9966727 0.0569606 0.9966727 0.0569606 0.0033273 -0.0569606
2840391 0.0031889 -0.0557391 0.9968111 0.0557391 0.9968111 0.0557391 0.0031889 -0.0557391
2902843 0.0030564 -0.0545433 0.9969436 0.0545433 0.9969436 0.0545433 0.0030564 -0.0545433
2966668 0.0029295 -0.0533727 0.9970705 0.0533727 0.9970705 0.0533727 0.0029295 -0.0533727
3031896 0.0028079 -0.0522268 0.9971921 0.0522268 0.9971921 0.0522268 0.0028079 -0.0522268
3098558 0.0026915 -0.0511050 0.9973085 0.0511050 0.9973085 0.0511050 0.0026915 -0.0511050
3166686 0.0025801 -0.0500069 0.9974199 0.0500069 0.9974199 0.0500069 0.0025801 -0.0500069
3236312 0.0024733 -0.0489320 0.9975267 0.0489320 0.9975267 0.0489320 0.0024733 -0.0489320
3307469 0.0023711 -0.0478798 0.9976289 0.0478798 0.9976289 0.0478798 0.0023711 -0.0478798
3380190 0.0022733 -0.0468498 0.9977267 0.0468498 0.9977267 0.0468498 0.0022733 -0.0468498
3454511 0.0021796 -0.0458415 0.9978204 0.0458415 0.9978204 0.0458415 0.0021796 -0.0458415
3530465 0.0020899 -0.0448547 0.9979101 0.0448547 0.9979101 0.0448547 0.0020899 -0.0448547
3608090 0.0020040 -0.0438886 0.9979960 0.0438886 0.9979960 0.0438886 0.0020040 -0.0438886
3687421 0.0019217 -0.0429431 0.9980783 0.0429431 0.9980783 0.0429431 0.0019217 -0.0429431
3768496 0.0018430 -0.0420175 0.9981570 0.0420175 0.9981570 0.0420175 0.0018430 -0.0420175
3851354 0.0017676 -0.0411115 0.9982324 0.0411115 0.9982324 0.0411115 0.0017676 -0.0411115
3936034 0.0016954 -0.0402247 0.9983046 0.0402247 0.9983046 0.0402247 0.0016954 -0.0402247
4022575 0.0016263 -0.0393567 0.9983737 0.0393567 0.9983737 0.0393567 0.0016263 -0.0393567
4111020 0.0015601 -0.0385071 0.9984399 0.0385071 0.9984399 0.0385071 0.0015601 -0.0385071
4201409 0.0014968 -0.0376755 0.9985032 0.0376755 0.9985032 0.0376755 0.0014968 -0.0376755
4293785 0.0014361 -0.0368615 0.9985639 0.0368615 0.9985639 0.0368615 0.0014361 -0.0368615
4388193 0.0013781 -0.0360648 0.9986219 0.0360648 0.9986219 0.0360648 0.0013781 -0.0360648
4484676 0.0013225 -0.0352849 0.9986775 0.0352849 0.9986775 0.0352849 0.0013225 -0.0352849
4583281 0.0012693 -0.0345216 0.9987307 0.0345216 0.9987307 0.0345216 0.0012693 -0.0345216
4684054 0.0012184 -0.0337744 0.9987816 0.0337744 0.9987816 0.0337744 0.0012184 -0.0337744
4787042 0.0011697 -0.0330431 0.9988303 0.0330431 0.9988303 0.0330431 0.0011697 -0.0330431
4892295 0.0011230 -0.0323273 0.9988770 0.0323273 0.9988770 0.0323273 0.0011230 -0.0323273
4999862 0.0010784 -0.0316266 0.9989216 0.0316266 0.9989216 0.0316266 0.0010784 -0.0316266
5109794 0.0010356 -0.0309408 0.9989644 0.0309408 0.9989644 0.0309408 0.0010356 -0.0309408
5222143 0.0009947 -0.0302695 0.9990053 0.0302695 0.9990053 0.0302695 0.0009947 -0.0302695
5336962 0.0009556 -0.0296124 0.9990444 0.0296124 0.9990444 0.0296124 0.0009556 -0.0296124
5454306 0.0009181 -0.0289693 0.9990819 0.0289693 0.9990819 0.0289693 0.0009181 -0.0289693
5574230 0.0008823 -0.0283397 0.9991177 0.0283397 0.9991177 0.0283397 0.0008823 -0.0283397
5696791 0.0008480 -0.0277235 0.9991520 0.0277235 0.9991520 0.0277235 0.0008480 -0.0277235
5822046 0.0008152 -0.0271203 0.9991848 0.0271203 0.9991848 0.0271203 0.0008152 -0.0271203
5950055 0.0007838 -0.0265299 0.9992162 0.0265299 0.9992162 0.0265299 0.0007838 -0.0265299
6080879 0.0007538 -0.0259520 0.9992462 0.0259520 0.9992462 0.0259520 0.0007538 -0.0259520
6214580 0.0007250 -0.0253863 0.9992750 0.0253863 0.9992750 0.0253863 0.0007250 -0.0253863
6351220 0.0006975 -0.0248325 0.9993025 0.0248325 0.9993025 0.0248325 0.0006975 -0.0248325
6490864 0.0006712 -0.0242904 0.9993288 0.0242904 0.9993288 0.0242904 0.0006712 -0.0242904
6633579 0.0006461 -0.0237598 0.9993539 0.0237598 0.9993539 0.0237598 0.0006461 -0.0237598
6779431 0.0006221 -0.0232404 0.9993779 0.0232404 0.9993779 0.0232404 0.0006221 -0.0232404
6928491 0.0005991 -0.0227319 0.9994009 0.0227319 0.9994009 0.0227319 0.0005991 -0.0227319
7080828 0.0005771 -0.0222342 0.9994229 0.0222342 0.9994229 0.0222342 0.0005771 -0.0222342
7236514 0.0005561 -0.0217469 0.9994439 0.0217469 0.9994439 0.0217469 0.0005561 -0.0217469
7395623 0.0005360 -0.0212699 0.9994640 0.0212699 0.9994640 0.0212699 0.0005360 -0.0212699
7558231 0.0005168 -0.0208029 0.9994832 0.0208029 0.9994832 0.0208029 0.0005168 -0.0208029
7724414 0.0004984 -0.0203458 0.9995016 0.0203458 0.9995016 0.0203458 0.0004984 -0.0203458
7894251 0.0004809 -0.0198982 0.9995191 0.0198982 0.9995191 0.0198982 0.0004809 -0.0198982
8067822 0.0004641 -0.0194601 0.9995359 0.0194601 0.9995359 0.0194601 0.0004641 -0.0194601
8245209 0.0004481 -0.0190311 0.9995519 0.0190311 0.9995519 0.0190311 0.0004481 -0.0190311
8426497 0.0004329 -0.0186111 0.9995671 0.0186111 0.9995671 0.0186111 0.0004329 -0.0186111
8611770 0.0004183 -0.0181999 0.9995817 0.0181999 0.9995817 0.0181999 0.0004183 -0.0181999
8801117 0.0004043 -0.0177974 0.9995957 0.0177974 0.9995957 0.0177974 0.0004043 -0.0177974
8994628 0.0003911 -0.0174032 0.9996089 0.0174032 0.9996089 0.0174032 0.0003911 -0.0174032
9192393 0.0003784 -0.0170173 0.9996216 0.0170173 0.9996216 0.0170173 0.0003784 -0.0170173
9394506 0.0003663 -0.0166394 0.9996337 0.0166394 0.9996337 0.0166394 0.0003663 -0.0166394
9601063 0.0003547 -0.0162694 0.9996453 0.0162694 0.9996453 0.0162694 0.0003547 -0.0162694
9812162 0.0003437 -0.0159071 0.9996563 0.0159071 0.9996563 0.0159071 0.0003437 -0.0159071
10027902 0.0003332 -0.0155523 0.9996668 0.0155523 0.9996668 0.0155523 0.0003332 -0.0155523
10248386 0.0003232 -0.0152049 0.9996768 0.0152049 0.9996768 0.0152049 0.0003232 -0.0152049
10473717 0.0003137 -0.0148647 0.9996863 0.0148647 0.9996863 0.0148647 0.0003137 -0.0148647
10704003 0.0003046 -0.0145315 0.9996954 0.0145315 0.9996954 0.0145315 0.0003046 -0.0145315
10939352 0.0002960 -0.0142052 0.9997040 0.0142052 0.9997040 0.0142052 0.0002960 -0.0142052
11179876 0.0002878 -0.0138857 0.9997122 0.0138857 0.9997122 0.0138857 0.0002878 -0.0138857
11425688 0.0002799 -0.0135727 0.9997201 0.0135727 0.9997201 0.0135727 0.0002799 -0.0135727
11676904 0.0002725 -0.0132662 0.9997275 0.0132662 0.9997275 0.0132662 0.0002725 -0.0132662
11933645 0.0002654 -0.0129660 0.9997346 0.0129660 0.9997346 0.0129660 0.0002654 -0.0129660
12196030 0.0002587 -0.0126719 0.9997413 0.0126719 0.9997413 0.0126719 0.0002587 -0.0126719
12464184 0.0002524 -0.0123838 0.9997476 0.0123838 0.9997476 0.0123838 0.0002524 -0.0123838
12738235 0.0002463 -0.0121017 0.9997537 0.0121017 0.9997537 0.0121017 0.0002463 -0.0121017
13018310 0.0002406 -0.0118252 0.9997594 0.0118252 0.9997594 0.0118252 0.0002406 -0.0118252
13304544 0.0002351 -0.0115544 0.9997649 0.0115544 0.9997649 0.0115544 0.0002351 -0.0115544
13597071 0.0002300 -0.0112891 0.9997700 0.0112891 0.9997700 0.0112891 0.0002300 -0.0112891
13896030 0.0002251 -0.0110292 0.9997749 0.0110292 0.9997749 0.0110292 0.0002251 -0.0110292
14201563 0.0002205 -0.0107745 0.9997795 0.0107745 0.9997795 0.0107745 0.0002205 -0.0107745
14513813 0.0002161 -0.0105249 0.9997839 0.0105249 0.9997839 0.0105249 0.0002161 -0.0105249
14832928 0.0002120 -0.0102803 0.9997880 0.0102803 0.9997880 0.0102803 0.0002120 -0.0102803
15159060 0.0002081 -0.0100406 0.9997919 0.0100406 0.9997919 0.0100406 0.0002081 -0.0100406
15492362 0.0002044 -0.0098058 0.9997956 0.0098058 0.9997956 0.0098058 0.0002044 -0.0098058
15832993 0.0002010 -0.0095755 0.9997990 0.0095755 0.9997990 0.0095755 0.0002010 -0.0095755
16181113 0.0001977 -0.0093499 0.9998023 0.0093499 0.9998023 0.0093499 0.0001977 -0.0093499
16536888 0.0001947 -0.0091287 0.9998053 0.0091287 0.9998053 0.0091287 0.0001947 -0.0091287
16900485 0.0001918 -0.0089118 0.9998082 0.0089118 0.9998082 0.0089118 0.0001918 -0.0089118
17272076 0.0001891 -0.0086993 0.9998109 0.0086993 0.9998109 0.0086993 0.0001891 -0.0086993
17651837 0.0001866 -0.0084908 0.9998134 0.0084908 0.9998134 0.0084908 0.0001866 -0.0084908
18039948 0.0001842 -0.0082864 0.9998158 0.0082864 0.9998158 0.0082864 0.0001842 -0.0082864
18436593 0.0001820 -0.0080860 0.9998180 0.0080860 0.9998180 0.0080860 0.0001820 -0.0080860
18841959 0.0001800 -0.0078894 0.9998200 0.0078894 0.9998200 0.0078894 0.0001800 -0.0078894
19256237 0.0001781 -0.0076966 0.9998219 0.0076966 0.9998219 0.0076966 0.0001781 -0.0076966
19679624 0.0001763 -0.0075075 0.9998237 0.0075075 0.9998237 0.0075075 0.0001763 -0.0075075
20112321 0.0001746 -0.0073220 0.9998254 0.0073220 0.9998254 0.0073220 0.0001746 -0.0073220
20554530 0.0001731 -0.0071400 0.9998269 0.0071400 0.9998269 0.0071400 0.0001731 -0.0071400
21006463 0.0001717 -0.0069613 0.9998283 0.0069613 0.9998283 0.0069613 0.0001717 -0.0069613
21468333 0.0001704 -0.0067860 0.9998296 0.0067860 0.9998296 0.0067860 0.0001704 -0.0067860
21940357 0.0001692 -0.0066140 0.9998308 0.0066140 0.9998308 0.0066140 0.0001692 -0.0066140
22422760 0.0001681 -0.0064451 0.9998319 0.0064451 0.9998319 0.0064451 0.0001681 -0.0064451
22915770 0.0001672 -0.0062793 0.9998328 0.0062793 0.9998328 0.0062793 0.0001672 -0.0062793
23419619 0.0001663 -0.0061165 0.9998337 0.0061165 0.9998337 0.0061165 0.0001663 -0.0061165
23934547 0.0001655 -0.0059567 0.9998345 0.0059567 0.9998345 0.0059567 0.0001655 -0.0059567
24460796 0.0001648 -0.0057997 0.9998352 0.0057997 0.9998352 0.0057997 0.0001648 -0.0057997
24998616 0.0001641 -0.0056454 0.9998359 0.0056454 0.9998359 0.0056454 0.0001641 -0.0056454
25548261 0.0001636 -0.0054939 0.9998364 0.0054939 0.9998364 0.0054939 0.0001636 -0.0054939
26109991 0.0001631 -0.0053450 0.9998369 0.0053450 0.9998369 0.0053450 0.0001631 -0.0053450
26684072 0.0001627 -0.0051986 0.9998373 0.0051986 0.9998373 0.0051986 0.0001627 -0.0051986
27270775 0.0001624 -0.0050548 0.9998376 0.0050548 0.9998376 0.0050548 0.0001624 -0.0050548
27870378 0.0001621 -0.0049133 0.9998379 0.0049133 0.9998379 0.0049133 0.0001621 -0.0049133
28483164 0.0001619 -0.0047742 0.9998381 0.0047742 0.9998381 0.0047742 0.0001619 -0.0047742
29109424 0.0001617 -0.0046374 0.9998383 0.0046374 0.9998383 0.0046374 0.0001617 -0.0046374
29749453 0.0001617 -0.0045028 0.9998383 0.0045028 0.9998383 0.0045028 0.0001617 -0.0045028
30403555 0.0001616 -0.0043704 0.9998384 0.0043704 0.9998384 0.0043704 0.0001616 -0.0043704
31072038 0.0001617 -0.0042400 0.9998383 0.0042400 0.9998383 0.0042400 0.0001617 -0.0042400
31755220 0.0001617 -0.0041117 0.9998383 0.0041117 0.9998383 0.0041117 0.0001617 -0.0041117
32453422 0.0001619 -0.0039853 0.9998381 0.0039853 0.9998381 0.0039853 0.0001619 -0.0039853
33166976 0.0001621 -0.0038608 0.9998379 0.0038608 0.9998379 0.0038608 0.0001621 -0.0038608
33896219 0.0001623 -0.0037381 0.9998377 0.0037381 0.9998377 0.0037381 0.0001623 -0.0037381
34641496 0.0001626 -0.0036173 0.9998374 0.0036173 0.9998374 0.0036173 0.0001626 -0.0036173
35403159 0.0001629 -0.0034981 0.9998371 0.0034981 0.9998371 0.0034981 0.0001629 -0.0034981
36181569 0.0001633 -0.0033807 0.9998367 0.0033807 0.9998367 0.0033807 0.0001633 -0.0033807
36977093 0.0001637 -0.0032648 0.9998363 0.0032648 0.9998363 0.0032648 0.0001637 -0.0032648
37790109 0.0001642 -0.0031504 0.9998358 0.0031504 0.9998358 0.0031504 0.0001642 -0.0031504
38621001 0.0001647 -0.0030376 0.9998353 0.0030376 0.9998353 0.0030376 0.0001647 -0.0030376
39470161 0.0001653 -0.0029262 0.9998347 0.0029262 0.9998347 0.0029262 0.0001653 -0.0029262
40337993 0.0001659 -0.0028161 0.9998341 0.0028161 0.9998341 0.0028161 0.0001659 -0.0028161
41224905 0.0001665 -0.0027074 0.9998335 0.0027074 0.9998335 0.0027074 0.0001665 -0.0027074
42131317 0.0001672 -0.0026000 0.9998328 0.0026000 0.9998328 0.0026000 0.0001672 -0.0026000
43057659 0.0001680 -0.0024938 0.9998320 0.0024938 0.9998320 0.0024938 0.0001680 -0.0024938
44004369 0.0001688 -0.0023887 0.9998312 0.0023887 0.9998312 0.0023887 0.0001688 -0.0023887
44971893 0.0001697 -0.0022847 0.9998303 0.0022847 0.9998303 0.0022847 0.0001697 -0.0022847
45960691 0.0001706 -0.0021818 0.9998294 0.0021818 0.9998294 0.0021818 0.0001706 -0.0021818
46971230 0.0001715 -0.0020799 0.9998285 0.0020799 0.9998285 0.0020799 0.0001715 -0.0020799
48003987 0.0001726 -0.0019790 0.9998274 0.0019790 0.9998274 0.0019790 0.0001726 -0.0019790
49059451 0.0001736 -0.0018790 0.9998264 0.0018790 0.9998264 0.0018790 0.0001736 -0.0018790
50138122 0.0001748 -0.0017798 0.9998252 0.0017798 0.9998252 0.0017798 0.0001748 -0.0017798
51240510 0.0001760 -0.0016813 0.9998240 0.0016813 0.9998240 0.0016813 0.0001760 -0.0016813
52367136 0.0001772 -0.0015837 0.9998228 0.0015837 0.9998228 0.0015837 0.0001772 -0.0015837
53518533 0.0001786 -0.0014867 0.9998214 0.0014867 0.9998214 0.0014867 0.0001786 -0.0014867
54695245 0.0001800 -0.0013904 0.9998200 0.0013904 0.9998200 0.0013904 0.0001800 -0.0013904
55897831 0.0001815 -0.0012947 0.9998185 0.0012947 0.9998185 0.0012947 0.0001815 -0.0012947
57126857 0.0001831 -0.0011994 0.9998169 0.0011994 0.9998169 0.0011994 0.0001831 -0.0011994
58382906 0.0001847 -0.0011047 0.9998153 0.0011047 0.9998153 0.0011047 0.0001847 -0.0011047
59666572 0.0001864 -0.0010104 0.9998136 0.0010104 0.9998136 0.0010104 0.0001864 -0.0010104
60978462 0.0001883 -0.0009165 0.9998117 0.0009165 0.9998117 0.0009165 0.0001883 -0.0009165
62319196 0.0001902 -0.0008229 0.9998098 0.0008229 0.9998098 0.0008229 0.0001902 -0.0008229
63689409 0.0001923 -0.0007296 0.9998077 0.0007296 0.9998077 0.0007296 0.0001923 -0.0007296
65089750 0.0001944 -0.0006365 0.9998056 0.0006365 0.9998056 0.0006365 0.0001944 -0.0006365
66520879 0.0001967 -0.0005435 0.9998033 0.0005435 0.9998033 0.0005435 0.0001967 -0.0005435
67983474 0.0001991 -0.0004507 0.9998009 0.0004507 0.9998009 0.0004507 0.0001991 -0.0004507
69478228 0.0002017 -0.0003579 0.9997983 0.0003579 0.9997983 0.0003579 0.0002017 -0.0003579
71005847 0.0002043 -0.0002650 0.9997957 0.0002650 0.9997957 0.0002650 0.0002043 -0.0002650
72567054 0.0002072 -0.0001721 0.9997928 0.0001721 0.9997928 0.0001721 0.0002072 -0.0001721
74162587 0.0002102 -0.0000790 0.9997898 0.0000790 0.9997898 0.0000790 0.0002102 -0.0000790
75793201 0.0002134 0.0000143 0.9997866 -0.0000143 0.9997866 -0.0000143 0.0002134 0.0000143
77459667 0.0002169 0.0001078 0.9997831 -0.0001078 0.9997831 -0.0001078 0.0002169 0.0001078
79162774 0.0002205 0.0002018 0.9997795 -0.0002018 0.9997795 -0.0002018 0.0002205 0.0002018
80903327 0.0002244 0.0002961 0.9997756 -0.0002961 0.9997756 -0.0002961 0.0002244 0.0002961
82682150 0.0002285 0.0003910 0.9997715 -0.0003910 0.9997715 -0.0003910 0.0002285 0.0003910
84500083 0.0002329 0.0004864 0.9997671 -0.0004864 0.9997671 -0.0004864 0.0002329 0.0004864
86357988 0.0002377 0.0005826 0.9997623 -0.0005826 0.9997623 -0.0005826 0.0002377 0.0005826
88256743 0.0002428 0.0006795 0.9997572 -0.0006795 0.9997572 -0.0006795 0.0002428 0.0006795
90197245 0.0002482 0.0007772 0.9997518 -0.0007772 0.9997518 -0.0007772 0.0002482 0.0007772
92180413 0.0002541 0.0008760 0.9997459 -0.0008760 0.9997459 -0.0008760 0.0002541 0.0008760
94207185 0.0002605 0.0009758 0.9997395 -0.0009758 0.9997395 -0.0009758 0.0002605 0.0009758
96278520 0.0002674 0.0010769 0.9997326 -0.0010769 0.9997326 -0.0010769 0.0002674 0.0010769
98395398 0.0002750 0.0011793 0.9997250 -0.0011793 0.9997250 -0.0011793 0.0002750 0.0011793
100558819 0.0002832 0.0012833 0.9997168 -0.0012833 0.9997168 -0.0012833 0.0002832 0.0012833
102769807 0.0002922 0.0013889 0.9997078 -0.0013889 0.9997078 -0.0013889 0.0002922 0.0013889
105029408 0.0003021 0.0014964 0.9996979 -0.0014964 0.9996979 -0.0014964 0.0003021 0.0014964
107338692 0.0003131 0.0016060 0.9996869 -0.0016060 0.9996869 -0.0016060 0.0003131 0.0016060
