!Murata Part Number: GRM2165C2A471JA01
!These Parameters are Measured in Series Mode Connection
!Data Generated on Mar 30, 2021
!       o--ll--o
!Port1            Port2
!       o------o
!Operation Temp=25[degC], DC Bias Voltage=0[V]
!Freq. Start=100[MHz] Stop=9[GHz] 401[Steps]
# Hz S RI R 50
!Freq.(Hz) S11(Real) S11(Imag) S21(Real) S21(Imag) S12(Real) S12(Imag) S22(Real) S22(Imag)
100000000 0.0015470 -0.0304976 0.9984530 0.0304976 0.9984530 0.0304976 0.0015470 -0.0304976
121000000 0.0011971 -0.0239495 0.9988029 0.0239495 0.9988029 0.0239495 0.0011971 -0.0239495
142000000 0.0009980 -0.0191292 0.9990020 0.0191292 0.9990020 0.0191292 0.0009980 -0.0191292
163000000 0.0008785 -0.0153702 0.9991215 0.0153702 0.9991215 0.0153702 0.0008785 -0.0153702
184000000 0.0008055 -0.0123095 0.9991945 0.0123095 0.9991945 0.0123095 0.0008055 -0.0123095
205000000 0.0007621 -0.0097326 0.9992379 0.0097326 0.9992379 0.0097326 0.0007621 -0.0097326
226000000 0.0007387 -0.0075045 0.9992613 0.0075045 0.9992613 0.0075045 0.0007387 -0.0075045
247000000 0.0007297 -0.0055361 0.9992703 0.0055361 0.9992703 0.0055361 0.0007297 -0.0055361
268000000 0.0007317 -0.0037660 0.9992683 0.0037660 0.9992683 0.0037660 0.0007317 -0.0037660
289000000 0.0007424 -0.0021509 0.9992576 0.0021509 0.9992576 0.0021509 0.0007424 -0.0021509
310000000 0.0007603 -0.0006590 0.9992397 0.0006590 0.9992397 0.0006590 0.0007603 -0.0006590
331000000 0.0007845 0.0007335 0.9992155 -0.0007335 0.9992155 -0.0007335 0.0007845 0.0007335
352000000 0.0008144 0.0020446 0.9991856 -0.0020446 0.9991856 -0.0020446 0.0008144 0.0020446
373000000 0.0008495 0.0032884 0.9991505 -0.0032884 0.9991505 -0.0032884 0.0008495 0.0032884
394000000 0.0008896 0.0044759 0.9991104 -0.0044759 0.9991104 -0.0044759 0.0008896 0.0044759
415000000 0.0009346 0.0056159 0.9990654 -0.0056159 0.9990654 -0.0056159 0.0009346 0.0056159
436000000 0.0009843 0.0067158 0.9990157 -0.0067158 0.9990157 -0.0067158 0.0009843 0.0067158
457000000 0.0010389 0.0077812 0.9989611 -0.0077812 0.9989611 -0.0077812 0.0010389 0.0077812
478000000 0.0010985 0.0088172 0.9989015 -0.0088172 0.9989015 -0.0088172 0.0010985 0.0088172
499000000 0.0011633 0.0098277 0.9988367 -0.0098277 0.9988367 -0.0098277 0.0011633 0.0098277
520000000 0.0012335 0.0108161 0.9987665 -0.0108161 0.9987665 -0.0108161 0.0012335 0.0108161
541000000 0.0013096 0.0117854 0.9986904 -0.0117854 0.9986904 -0.0117854 0.0013096 0.0117854
562000000 0.0013919 0.0127380 0.9986081 -0.0127380 0.9986081 -0.0127380 0.0013919 0.0127380
583000000 0.0014810 0.0136760 0.9985190 -0.0136760 0.9985190 -0.0136760 0.0014810 0.0136760
604000000 0.0015774 0.0146011 0.9984226 -0.0146011 0.9984226 -0.0146011 0.0015774 0.0146011
625000000 0.0016820 0.0155148 0.9983180 -0.0155148 0.9983180 -0.0155148 0.0016820 0.0155148
646000000 0.0017956 0.0164183 0.9982044 -0.0164183 0.9982044 -0.0164183 0.0017956 0.0164183
667000000 0.0019191 0.0173124 0.9980809 -0.0173124 0.9980809 -0.0173124 0.0019191 0.0173124
688000000 0.0020538 0.0181976 0.9979462 -0.0181976 0.9979462 -0.0181976 0.0020538 0.0181976
709000000 0.0022010 0.0190743 0.9977990 -0.0190743 0.9977990 -0.0190743 0.0022010 0.0190743
730000000 0.0023621 0.0199422 0.9976379 -0.0199422 0.9976379 -0.0199422 0.0023621 0.0199422
751000000 0.0025388 0.0208006 0.9974612 -0.0208006 0.9974612 -0.0208006 0.0025388 0.0208006
772000000 0.0027327 0.0216480 0.9972673 -0.0216480 0.9972673 -0.0216480 0.0027327 0.0216480
793000000 0.0029455 0.0224823 0.9970545 -0.0224823 0.9970545 -0.0224823 0.0029455 0.0224823
814000000 0.0031785 0.0233003 0.9968215 -0.0233003 0.9968215 -0.0233003 0.0031785 0.0233003
835000000 0.0034325 0.0240978 0.9965675 -0.0240978 0.9965675 -0.0240978 0.0034325 0.0240978
856000000 0.0037071 0.0248693 0.9962929 -0.0248693 0.9962929 -0.0248693 0.0037071 0.0248693
877000000 0.0040002 0.0256085 0.9959998 -0.0256085 0.9959998 -0.0256085 0.0040002 0.0256085
898000000 0.0043071 0.0263084 0.9956929 -0.0263084 0.9956929 -0.0263084 0.0043071 0.0263084
919000000 0.0046200 0.0269626 0.9953800 -0.0269626 0.9953800 -0.0269626 0.0046200 0.0269626
940000000 0.0049275 0.0275668 0.9950725 -0.0275668 0.9950725 -0.0275668 0.0049275 0.0275668
961000000 0.0052154 0.0281207 0.9947846 -0.0281207 0.9947846 -0.0281207 0.0052154 0.0281207
982000000 0.0054686 0.0286297 0.9945314 -0.0286297 0.9945314 -0.0286297 0.0054686 0.0286297
1003000000 0.0056739 0.0291057 0.9943261 -0.0291057 0.9943261 -0.0291057 0.0056739 0.0291057
1024000000 0.0058234 0.0295655 0.9941766 -0.0295655 0.9941766 -0.0295655 0.0058234 0.0295655
1045000000 0.0059165 0.0300279 0.9940835 -0.0300279 0.9940835 -0.0300279 0.0059165 0.0300279
1066000000 0.0059597 0.0305102 0.9940403 -0.0305102 0.9940403 -0.0305102 0.0059597 0.0305102
1087000000 0.0059649 0.0310248 0.9940351 -0.0310248 0.9940351 -0.0310248 0.0059649 0.0310248
1108000000 0.0059463 0.0315781 0.9940537 -0.0315781 0.9940537 -0.0315781 0.0059463 0.0315781
1129000000 0.0059173 0.0321713 0.9940827 -0.0321713 0.9940827 -0.0321713 0.0059173 0.0321713
1150000000 0.0058893 0.0328015 0.9941107 -0.0328015 0.9941107 -0.0328015 0.0058893 0.0328015
1171000000 0.0058707 0.0334634 0.9941293 -0.0334634 0.9941293 -0.0334634 0.0058707 0.0334634
1192000000 0.0058671 0.0341511 0.9941329 -0.0341511 0.9941329 -0.0341511 0.0058671 0.0341511
1213000000 0.0058817 0.0348585 0.9941183 -0.0348585 0.9941183 -0.0348585 0.0058817 0.0348585
1234000000 0.0059161 0.0355805 0.9940839 -0.0355805 0.9940839 -0.0355805 0.0059161 0.0355805
1255000000 0.0059707 0.0363122 0.9940293 -0.0363122 0.9940293 -0.0363122 0.0059707 0.0363122
1276000000 0.0060452 0.0370500 0.9939548 -0.0370500 0.9939548 -0.0370500 0.0060452 0.0370500
1297000000 0.0061391 0.0377906 0.9938609 -0.0377906 0.9938609 -0.0377906 0.0061391 0.0377906
1318000000 0.0062513 0.0385316 0.9937487 -0.0385316 0.9937487 -0.0385316 0.0062513 0.0385316
1339000000 0.0063811 0.0392708 0.9936189 -0.0392708 0.9936189 -0.0392708 0.0063811 0.0392708
1360000000 0.0065275 0.0400064 0.9934725 -0.0400064 0.9934725 -0.0400064 0.0065275 0.0400064
1381000000 0.0066896 0.0407369 0.9933104 -0.0407369 0.9933104 -0.0407369 0.0066896 0.0407369
1402000000 0.0068665 0.0414608 0.9931335 -0.0414608 0.9931335 -0.0414608 0.0068665 0.0414608
1423000000 0.0070573 0.0421770 0.9929427 -0.0421770 0.9929427 -0.0421770 0.0070573 0.0421770
1444000000 0.0072613 0.0428841 0.9927387 -0.0428841 0.9927387 -0.0428841 0.0072613 0.0428841
1465000000 0.0074776 0.0435811 0.9925224 -0.0435811 0.9925224 -0.0435811 0.0074776 0.0435811
1486000000 0.0077051 0.0442667 0.9922949 -0.0442667 0.9922949 -0.0442667 0.0077051 0.0442667
1507000000 0.0079431 0.0449398 0.9920569 -0.0449398 0.9920569 -0.0449398 0.0079431 0.0449398
1528000000 0.0081903 0.0455994 0.9918097 -0.0455994 0.9918097 -0.0455994 0.0081903 0.0455994
1549000000 0.0084455 0.0462442 0.9915545 -0.0462442 0.9915545 -0.0462442 0.0084455 0.0462442
1570000000 0.0087073 0.0468733 0.9912927 -0.0468733 0.9912927 -0.0468733 0.0087073 0.0468733
1591000000 0.0089742 0.0474856 0.9910258 -0.0474856 0.9910258 -0.0474856 0.0089742 0.0474856
1612000000 0.0092444 0.0480805 0.9907556 -0.0480805 0.9907556 -0.0480805 0.0092444 0.0480805
1633000000 0.0095160 0.0486570 0.9904840 -0.0486570 0.9904840 -0.0486570 0.0095160 0.0486570
1654000000 0.0097868 0.0492150 0.9902132 -0.0492150 0.9902132 -0.0492150 0.0097868 0.0492150
1675000000 0.0100545 0.0497540 0.9899455 -0.0497540 0.9899455 -0.0497540 0.0100545 0.0497540
1696000000 0.0103168 0.0502743 0.9896832 -0.0502743 0.9896832 -0.0502743 0.0103168 0.0502743
1717000000 0.0105712 0.0507763 0.9894288 -0.0507763 0.9894288 -0.0507763 0.0105712 0.0507763
1738000000 0.0108152 0.0512610 0.9891848 -0.0512610 0.9891848 -0.0512610 0.0108152 0.0512610
1759000000 0.0110464 0.0517295 0.9889536 -0.0517295 0.9889536 -0.0517295 0.0110464 0.0517295
1780000000 0.0112627 0.0521836 0.9887373 -0.0521836 0.9887373 -0.0521836 0.0112627 0.0521836
1801000000 0.0114619 0.0526254 0.9885381 -0.0526254 0.9885381 -0.0526254 0.0114619 0.0526254
1822000000 0.0116426 0.0530572 0.9883574 -0.0530572 0.9883574 -0.0530572 0.0116426 0.0530572
1843000000 0.0118034 0.0534817 0.9881966 -0.0534817 0.9881966 -0.0534817 0.0118034 0.0534817
1864000000 0.0119435 0.0539017 0.9880565 -0.0539017 0.9880565 -0.0539017 0.0119435 0.0539017
1885000000 0.0120626 0.0543202 0.9879374 -0.0543202 0.9879374 -0.0543202 0.0120626 0.0543202
1906000000 0.0121610 0.0547401 0.9878390 -0.0547401 0.9878390 -0.0547401 0.0121610 0.0547401
1927000000 0.0122392 0.0551641 0.9877608 -0.0551641 0.9877608 -0.0551641 0.0122392 0.0551641
1948000000 0.0122982 0.0555949 0.9877018 -0.0555949 0.9877018 -0.0555949 0.0122982 0.0555949
1969000000 0.0123396 0.0560348 0.9876604 -0.0560348 0.9876604 -0.0560348 0.0123396 0.0560348
1990000000 0.0123651 0.0564858 0.9876349 -0.0564858 0.9876349 -0.0564858 0.0123651 0.0564858
2011000000 0.0123766 0.0569495 0.9876234 -0.0569495 0.9876234 -0.0569495 0.0123766 0.0569495
2032000000 0.0123760 0.0574271 0.9876240 -0.0574271 0.9876240 -0.0574271 0.0123760 0.0574271
2053000000 0.0123657 0.0579195 0.9876343 -0.0579195 0.9876343 -0.0579195 0.0123657 0.0579195
2074000000 0.0123475 0.0584272 0.9876525 -0.0584272 0.9876525 -0.0584272 0.0123475 0.0584272
2095000000 0.0123237 0.0589504 0.9876763 -0.0589504 0.9876763 -0.0589504 0.0123237 0.0589504
2116000000 0.0122959 0.0594891 0.9877041 -0.0594891 0.9877041 -0.0594891 0.0122959 0.0594891
2137000000 0.0122660 0.0600429 0.9877340 -0.0600429 0.9877340 -0.0600429 0.0122660 0.0600429
2158000000 0.0122356 0.0606114 0.9877644 -0.0606114 0.9877644 -0.0606114 0.0122356 0.0606114
2179000000 0.0122060 0.0611939 0.9877940 -0.0611939 0.9877940 -0.0611939 0.0122060 0.0611939
2200000000 0.0121784 0.0617896 0.9878216 -0.0617896 0.9878216 -0.0617896 0.0121784 0.0617896
2221000000 0.0121538 0.0623978 0.9878462 -0.0623978 0.9878462 -0.0623978 0.0121538 0.0623978
2242000000 0.0121332 0.0630176 0.9878668 -0.0630176 0.9878668 -0.0630176 0.0121332 0.0630176
2263000000 0.0121170 0.0636481 0.9878830 -0.0636481 0.9878830 -0.0636481 0.0121170 0.0636481
2284000000 0.0121060 0.0642885 0.9878940 -0.0642885 0.9878940 -0.0642885 0.0121060 0.0642885
2305000000 0.0121006 0.0649381 0.9878994 -0.0649381 0.9878994 -0.0649381 0.0121006 0.0649381
2326000000 0.0121010 0.0655958 0.9878990 -0.0655958 0.9878990 -0.0655958 0.0121010 0.0655958
2347000000 0.0121074 0.0662611 0.9878926 -0.0662611 0.9878926 -0.0662611 0.0121074 0.0662611
2368000000 0.0121200 0.0669333 0.9878800 -0.0669333 0.9878800 -0.0669333 0.0121200 0.0669333
2389000000 0.0121389 0.0676116 0.9878611 -0.0676116 0.9878611 -0.0676116 0.0121389 0.0676116
2410000000 0.0121640 0.0682955 0.9878360 -0.0682955 0.9878360 -0.0682955 0.0121640 0.0682955
2431000000 0.0121954 0.0689844 0.9878046 -0.0689844 0.9878046 -0.0689844 0.0121954 0.0689844
2452000000 0.0122330 0.0696778 0.9877670 -0.0696778 0.9877670 -0.0696778 0.0122330 0.0696778
2473000000 0.0122766 0.0703753 0.9877234 -0.0703753 0.9877234 -0.0703753 0.0122766 0.0703753
2494000000 0.0123262 0.0710764 0.9876738 -0.0710764 0.9876738 -0.0710764 0.0123262 0.0710764
2515000000 0.0123816 0.0717809 0.9876184 -0.0717809 0.9876184 -0.0717809 0.0123816 0.0717809
2536000000 0.0124426 0.0724883 0.9875574 -0.0724883 0.9875574 -0.0724883 0.0124426 0.0724883
2557000000 0.0125092 0.0731984 0.9874908 -0.0731984 0.9874908 -0.0731984 0.0125092 0.0731984
2578000000 0.0125811 0.0739110 0.9874189 -0.0739110 0.9874189 -0.0739110 0.0125811 0.0739110
2599000000 0.0126582 0.0746257 0.9873418 -0.0746257 0.9873418 -0.0746257 0.0126582 0.0746257
2620000000 0.0127404 0.0753425 0.9872596 -0.0753425 0.9872596 -0.0753425 0.0127404 0.0753425
2641000000 0.0128274 0.0760610 0.9871726 -0.0760610 0.9871726 -0.0760610 0.0128274 0.0760610
2662000000 0.0129192 0.0767812 0.9870808 -0.0767812 0.9870808 -0.0767812 0.0129192 0.0767812
2683000000 0.0130155 0.0775030 0.9869845 -0.0775030 0.9869845 -0.0775030 0.0130155 0.0775030
2704000000 0.0131163 0.0782262 0.9868837 -0.0782262 0.9868837 -0.0782262 0.0131163 0.0782262
2725000000 0.0132213 0.0789507 0.9867787 -0.0789507 0.9867787 -0.0789507 0.0132213 0.0789507
2746000000 0.0133305 0.0796765 0.9866695 -0.0796765 0.9866695 -0.0796765 0.0133305 0.0796765
2767000000 0.0134437 0.0804035 0.9865563 -0.0804035 0.9865563 -0.0804035 0.0134437 0.0804035
2788000000 0.0135609 0.0811315 0.9864391 -0.0811315 0.9864391 -0.0811315 0.0135609 0.0811315
2809000000 0.0136818 0.0818606 0.9863182 -0.0818606 0.9863182 -0.0818606 0.0136818 0.0818606
2830000000 0.0138064 0.0825908 0.9861936 -0.0825908 0.9861936 -0.0825908 0.0138064 0.0825908
2851000000 0.0139346 0.0833219 0.9860654 -0.0833219 0.9860654 -0.0833219 0.0139346 0.0833219
2872000000 0.0140662 0.0840540 0.9859338 -0.0840540 0.9859338 -0.0840540 0.0140662 0.0840540
2893000000 0.0142013 0.0847871 0.9857987 -0.0847871 0.9857987 -0.0847871 0.0142013 0.0847871
2914000000 0.0143396 0.0855211 0.9856604 -0.0855211 0.9856604 -0.0855211 0.0143396 0.0855211
2935000000 0.0144812 0.0862560 0.9855188 -0.0862560 0.9855188 -0.0862560 0.0144812 0.0862560
2956000000 0.0146260 0.0869919 0.9853740 -0.0869919 0.9853740 -0.0869919 0.0146260 0.0869919
2977000000 0.0147738 0.0877287 0.9852262 -0.0877287 0.9852262 -0.0877287 0.0147738 0.0877287
2998000000 0.0149246 0.0884664 0.9850754 -0.0884664 0.9850754 -0.0884664 0.0149246 0.0884664
3019000000 0.0150784 0.0892051 0.9849216 -0.0892051 0.9849216 -0.0892051 0.0150784 0.0892051
3040000000 0.0152350 0.0899447 0.9847650 -0.0899447 0.9847650 -0.0899447 0.0152350 0.0899447
3061000000 0.0153946 0.0906853 0.9846054 -0.0906853 0.9846054 -0.0906853 0.0153946 0.0906853
3082000000 0.0155569 0.0914269 0.9844431 -0.0914269 0.9844431 -0.0914269 0.0155569 0.0914269
3103000000 0.0157219 0.0921694 0.9842781 -0.0921694 0.9842781 -0.0921694 0.0157219 0.0921694
3124000000 0.0158897 0.0929130 0.9841103 -0.0929130 0.9841103 -0.0929130 0.0158897 0.0929130
3145000000 0.0160601 0.0936577 0.9839399 -0.0936577 0.9839399 -0.0936577 0.0160601 0.0936577
3166000000 0.0162331 0.0944034 0.9837669 -0.0944034 0.9837669 -0.0944034 0.0162331 0.0944034
3187000000 0.0164088 0.0951502 0.9835912 -0.0951502 0.9835912 -0.0951502 0.0164088 0.0951502
3208000000 0.0165870 0.0958981 0.9834130 -0.0958981 0.9834130 -0.0958981 0.0165870 0.0958981
3229000000 0.0167678 0.0966471 0.9832322 -0.0966471 0.9832322 -0.0966471 0.0167678 0.0966471
3250000000 0.0169510 0.0973973 0.9830490 -0.0973973 0.9830490 -0.0973973 0.0169510 0.0973973
3271000000 0.0171368 0.0981487 0.9828632 -0.0981487 0.9828632 -0.0981487 0.0171368 0.0981487
3292000000 0.0173251 0.0989012 0.9826749 -0.0989012 0.9826749 -0.0989012 0.0173251 0.0989012
3313000000 0.0175158 0.0996551 0.9824842 -0.0996551 0.9824842 -0.0996551 0.0175158 0.0996551
3334000000 0.0177089 0.1004102 0.9822911 -0.1004102 0.9822911 -0.1004102 0.0177089 0.1004102
3355000000 0.0179045 0.1011666 0.9820955 -0.1011666 0.9820955 -0.1011666 0.0179045 0.1011666
3376000000 0.0181026 0.1019243 0.9818974 -0.1019243 0.9818974 -0.1019243 0.0181026 0.1019243
3397000000 0.0183030 0.1026833 0.9816970 -0.1026833 0.9816970 -0.1026833 0.0183030 0.1026833
3418000000 0.0185058 0.1034438 0.9814942 -0.1034438 0.9814942 -0.1034438 0.0185058 0.1034438
3439000000 0.0187110 0.1042057 0.9812890 -0.1042057 0.9812890 -0.1042057 0.0187110 0.1042057
3460000000 0.0189186 0.1049690 0.9810814 -0.1049690 0.9810814 -0.1049690 0.0189186 0.1049690
3481000000 0.0191287 0.1057337 0.9808713 -0.1057337 0.9808713 -0.1057337 0.0191287 0.1057337
3502000000 0.0193411 0.1065000 0.9806589 -0.1065000 0.9806589 -0.1065000 0.0193411 0.1065000
3523000000 0.0195559 0.1072678 0.9804441 -0.1072678 0.9804441 -0.1072678 0.0195559 0.1072678
3544000000 0.0197730 0.1080372 0.9802270 -0.1080372 0.9802270 -0.1080372 0.0197730 0.1080372
3565000000 0.0199926 0.1088081 0.9800074 -0.1088081 0.9800074 -0.1088081 0.0199926 0.1088081
3586000000 0.0202146 0.1095807 0.9797854 -0.1095807 0.9797854 -0.1095807 0.0202146 0.1095807
3607000000 0.0204390 0.1103549 0.9795610 -0.1103549 0.9795610 -0.1103549 0.0204390 0.1103549
3628000000 0.0206658 0.1111308 0.9793342 -0.1111308 0.9793342 -0.1111308 0.0206658 0.1111308
3649000000 0.0208950 0.1119084 0.9791050 -0.1119084 0.9791050 -0.1119084 0.0208950 0.1119084
3670000000 0.0211267 0.1126877 0.9788733 -0.1126877 0.9788733 -0.1126877 0.0211267 0.1126877
3691000000 0.0213608 0.1134688 0.9786392 -0.1134688 0.9786392 -0.1134688 0.0213608 0.1134688
3712000000 0.0215973 0.1142517 0.9784027 -0.1142517 0.9784027 -0.1142517 0.0215973 0.1142517
3733000000 0.0218363 0.1150364 0.9781637 -0.1150364 0.9781637 -0.1150364 0.0218363 0.1150364
3754000000 0.0220778 0.1158229 0.9779222 -0.1158229 0.9779222 -0.1158229 0.0220778 0.1158229
3775000000 0.0223218 0.1166114 0.9776782 -0.1166114 0.9776782 -0.1166114 0.0223218 0.1166114
3796000000 0.0225683 0.1174017 0.9774317 -0.1174017 0.9774317 -0.1174017 0.0225683 0.1174017
3817000000 0.0228173 0.1181940 0.9771827 -0.1181940 0.9771827 -0.1181940 0.0228173 0.1181940
3838000000 0.0230689 0.1189883 0.9769311 -0.1189883 0.9769311 -0.1189883 0.0230689 0.1189883
3859000000 0.0233230 0.1197845 0.9766770 -0.1197845 0.9766770 -0.1197845 0.0233230 0.1197845
3880000000 0.0235797 0.1205828 0.9764203 -0.1205828 0.9764203 -0.1205828 0.0235797 0.1205828
3901000000 0.0238390 0.1213831 0.9761610 -0.1213831 0.9761610 -0.1213831 0.0238390 0.1213831
3922000000 0.0241009 0.1221855 0.9758991 -0.1221855 0.9758991 -0.1221855 0.0241009 0.1221855
3943000000 0.0243655 0.1229901 0.9756345 -0.1229901 0.9756345 -0.1229901 0.0243655 0.1229901
3964000000 0.0246327 0.1237967 0.9753673 -0.1237967 0.9753673 -0.1237967 0.0246327 0.1237967
3985000000 0.0249026 0.1246055 0.9750974 -0.1246055 0.9750974 -0.1246055 0.0249026 0.1246055
4006000000 0.0251752 0.1254166 0.9748248 -0.1254166 0.9748248 -0.1254166 0.0251752 0.1254166
4027000000 0.0254506 0.1262298 0.9745494 -0.1262298 0.9745494 -0.1262298 0.0254506 0.1262298
4048000000 0.0257287 0.1270453 0.9742713 -0.1270453 0.9742713 -0.1270453 0.0257287 0.1270453
4069000000 0.0260096 0.1278630 0.9739904 -0.1278630 0.9739904 -0.1278630 0.0260096 0.1278630
4090000000 0.0262934 0.1286831 0.9737066 -0.1286831 0.9737066 -0.1286831 0.0262934 0.1286831
4111000000 0.0265799 0.1295055 0.9734201 -0.1295055 0.9734201 -0.1295055 0.0265799 0.1295055
4132000000 0.0268694 0.1303302 0.9731306 -0.1303302 0.9731306 -0.1303302 0.0268694 0.1303302
4153000000 0.0271618 0.1311574 0.9728382 -0.1311574 0.9728382 -0.1311574 0.0271618 0.1311574
4174000000 0.0274571 0.1319869 0.9725429 -0.1319869 0.9725429 -0.1319869 0.0274571 0.1319869
4195000000 0.0277553 0.1328189 0.9722447 -0.1328189 0.9722447 -0.1328189 0.0277553 0.1328189
4216000000 0.0280566 0.1336533 0.9719434 -0.1336533 0.9719434 -0.1336533 0.0280566 0.1336533
4237000000 0.0283609 0.1344902 0.9716391 -0.1344902 0.9716391 -0.1344902 0.0283609 0.1344902
4258000000 0.0286683 0.1353297 0.9713317 -0.1353297 0.9713317 -0.1353297 0.0286683 0.1353297
4279000000 0.0289788 0.1361717 0.9710212 -0.1361717 0.9710212 -0.1361717 0.0289788 0.1361717
4300000000 0.0292924 0.1370162 0.9707076 -0.1370162 0.9707076 -0.1370162 0.0292924 0.1370162
4321000000 0.0296092 0.1378633 0.9703908 -0.1378633 0.9703908 -0.1378633 0.0296092 0.1378633
4342000000 0.0299292 0.1387130 0.9700708 -0.1387130 0.9700708 -0.1387130 0.0299292 0.1387130
4363000000 0.0302524 0.1395654 0.9697476 -0.1395654 0.9697476 -0.1395654 0.0302524 0.1395654
4384000000 0.0305790 0.1404204 0.9694210 -0.1404204 0.9694210 -0.1404204 0.0305790 0.1404204
4405000000 0.0309088 0.1412782 0.9690912 -0.1412782 0.9690912 -0.1412782 0.0309088 0.1412782
4426000000 0.0312421 0.1421386 0.9687579 -0.1421386 0.9687579 -0.1421386 0.0312421 0.1421386
4447000000 0.0315787 0.1430017 0.9684213 -0.1430017 0.9684213 -0.1430017 0.0315787 0.1430017
4468000000 0.0319188 0.1438677 0.9680812 -0.1438677 0.9680812 -0.1438677 0.0319188 0.1438677
4489000000 0.0322624 0.1447363 0.9677376 -0.1447363 0.9677376 -0.1447363 0.0322624 0.1447363
4510000000 0.0326095 0.1456078 0.9673905 -0.1456078 0.9673905 -0.1456078 0.0326095 0.1456078
