!Murata Part Number: GRM21B5C2J152JWAA
!These Parameters are Measured in Series Mode Connection
!Data Generated on Mar 30, 2021
!       o--ll--o
!Port1            Port2
!       o------o
!Operation Temp=25[degC], DC Bias Voltage=0[V]
!Freq. Start=1000[kHz] Stop=3[GHz] 401[Steps]
# Hz S RI R 50
!Freq.(Hz) S11(Real) S11(Imag) S21(Real) S21(Imag) S12(Real) S12(Imag) S22(Real) S22(Imag)
1000000 0.5436157 -0.4972303 0.4563843 0.4972303 0.4563843 0.4972303 0.5436157 -0.4972303
1020218 0.5336873 -0.4980163 0.4663127 0.4980163 0.4663127 0.4980163 0.5336873 -0.4980163
1040844 0.5237314 -0.4986048 0.4762686 0.4986048 0.4762686 0.4986048 0.5237314 -0.4986048
1061887 0.5137558 -0.4989945 0.4862442 0.4989945 0.4862442 0.4989945 0.5137558 -0.4989945
1083356 0.5037685 -0.4991848 0.4962315 0.4991848 0.4962315 0.4991848 0.5037685 -0.4991848
1105259 0.4937775 -0.4991752 0.5062225 0.4991752 0.5062225 0.4991752 0.4937775 -0.4991752
1127605 0.4837908 -0.4989657 0.5162092 0.4989657 0.5162092 0.4989657 0.4837908 -0.4989657
1150402 0.4738164 -0.4985567 0.5261836 0.4985567 0.5261836 0.4985567 0.4738164 -0.4985567
1173660 0.4638621 -0.4979491 0.5361379 0.4979491 0.5361379 0.4979491 0.4638621 -0.4979491
1197389 0.4539360 -0.4971440 0.5460640 0.4971440 0.5460640 0.4971440 0.4539360 -0.4971440
1221597 0.4440458 -0.4961431 0.5559542 0.4961431 0.5559542 0.4961431 0.4440458 -0.4961431
1246295 0.4341991 -0.4949483 0.5658009 0.4949483 0.5658009 0.4949483 0.4341991 -0.4949483
1271492 0.4244036 -0.4935620 0.5755964 0.4935620 0.5755964 0.4935620 0.4244036 -0.4935620
1297199 0.4146666 -0.4919868 0.5853334 0.4919868 0.5853334 0.4919868 0.4146666 -0.4919868
1323425 0.4049953 -0.4902258 0.5950047 0.4902258 0.5950047 0.4902258 0.4049953 -0.4902258
1350181 0.3953968 -0.4882825 0.6046032 0.4882825 0.6046032 0.4882825 0.3953968 -0.4882825
1377479 0.3858777 -0.4861604 0.6141223 0.4861604 0.6141223 0.4861604 0.3858777 -0.4861604
1405328 0.3764447 -0.4838637 0.6235553 0.4838637 0.6235553 0.4838637 0.3764447 -0.4838637
1433740 0.3671040 -0.4813966 0.6328960 0.4813966 0.6328960 0.4813966 0.3671040 -0.4813966
1462727 0.3578617 -0.4787636 0.6421383 0.4787636 0.6421383 0.4787636 0.3578617 -0.4787636
1492300 0.3487235 -0.4759695 0.6512765 0.4759695 0.6512765 0.4759695 0.3487235 -0.4759695
1522470 0.3396948 -0.4730193 0.6603052 0.4730193 0.6603052 0.4730193 0.3396948 -0.4730193
1553251 0.3307808 -0.4699184 0.6692192 0.4699184 0.6692192 0.4699184 0.3307808 -0.4699184
1584654 0.3219863 -0.4666720 0.6780137 0.4666720 0.6780137 0.4666720 0.3219863 -0.4666720
1616692 0.3133159 -0.4632857 0.6866841 0.4632857 0.6866841 0.4632857 0.3133159 -0.4632857
1649378 0.3047737 -0.4597653 0.6952263 0.4597653 0.6952263 0.4597653 0.3047737 -0.4597653
1682724 0.2963636 -0.4561165 0.7036364 0.4561165 0.7036364 0.4561165 0.2963636 -0.4561165
1716745 0.2880891 -0.4523452 0.7119109 0.4523452 0.7119109 0.4523452 0.2880891 -0.4523452
1751453 0.2799534 -0.4484575 0.7200466 0.4484575 0.7200466 0.4484575 0.2799534 -0.4484575
1786863 0.2719595 -0.4444594 0.7280405 0.4444594 0.7280405 0.4444594 0.2719595 -0.4444594
1822989 0.2641099 -0.4403570 0.7358901 0.4403570 0.7358901 0.4403570 0.2641099 -0.4403570
1859846 0.2564068 -0.4361563 0.7435932 0.4361563 0.7435932 0.4361563 0.2564068 -0.4361563
1897447 0.2488522 -0.4318635 0.7511478 0.4318635 0.7511478 0.4318635 0.2488522 -0.4318635
1935809 0.2414478 -0.4274846 0.7585522 0.4274846 0.7585522 0.4274846 0.2414478 -0.4274846
1974946 0.2341947 -0.4230257 0.7658053 0.4230257 0.7658053 0.4230257 0.2341947 -0.4230257
2014875 0.2270941 -0.4184928 0.7729059 0.4184928 0.7729059 0.4184928 0.2270941 -0.4184928
2055611 0.2201467 -0.4138918 0.7798533 0.4138918 0.7798533 0.4138918 0.2201467 -0.4138918
2097170 0.2133530 -0.4092285 0.7866470 0.4092285 0.7866470 0.4092285 0.2133530 -0.4092285
2139570 0.2067132 -0.4045087 0.7932868 0.4045087 0.7932868 0.4045087 0.2067132 -0.4045087
2182827 0.2002273 -0.3997380 0.7997727 0.3997380 0.7997727 0.3997380 0.2002273 -0.3997380
2226959 0.1938950 -0.3949220 0.8061050 0.3949220 0.8061050 0.3949220 0.1938950 -0.3949220
2271982 0.1877158 -0.3900660 0.8122842 0.3900660 0.8122842 0.3900660 0.1877158 -0.3900660
2317916 0.1816890 -0.3851753 0.8183110 0.3851753 0.8183110 0.3851753 0.1816890 -0.3851753
2364779 0.1758136 -0.3802551 0.8241864 0.3802551 0.8241864 0.3802551 0.1758136 -0.3802551
2412589 0.1700887 -0.3753103 0.8299113 0.3753103 0.8299113 0.3753103 0.1700887 -0.3753103
2461366 0.1645128 -0.3703458 0.8354872 0.3703458 0.8354872 0.3703458 0.1645128 -0.3703458
2511129 0.1590846 -0.3653662 0.8409154 0.3653662 0.8409154 0.3653662 0.1590846 -0.3653662
2561897 0.1538024 -0.3603760 0.8461976 0.3603760 0.8461976 0.3603760 0.1538024 -0.3603760
2613693 0.1486644 -0.3553796 0.8513356 0.3553796 0.8513356 0.3553796 0.1486644 -0.3553796
2666535 0.1436688 -0.3503812 0.8563312 0.3503812 0.8563312 0.3503812 0.1436688 -0.3503812
2720446 0.1388136 -0.3453846 0.8611864 0.3453846 0.8611864 0.3453846 0.1388136 -0.3453846
2775447 0.1340967 -0.3403938 0.8659033 0.3403938 0.8659033 0.3403938 0.1340967 -0.3403938
2831560 0.1295159 -0.3354125 0.8704841 0.3354125 0.8704841 0.3354125 0.1295159 -0.3354125
2888807 0.1250689 -0.3304441 0.8749311 0.3304441 0.8749311 0.3304441 0.1250689 -0.3304441
2947212 0.1207532 -0.3254919 0.8792468 0.3254919 0.8792468 0.3254919 0.1207532 -0.3254919
3006797 0.1165666 -0.3205591 0.8834334 0.3205591 0.8834334 0.3205591 0.1165666 -0.3205591
3067588 0.1125064 -0.3156487 0.8874936 0.3156487 0.8874936 0.3156487 0.1125064 -0.3156487
3129607 0.1085702 -0.3107636 0.8914298 0.3107636 0.8914298 0.3107636 0.1085702 -0.3107636
3192880 0.1047554 -0.3059063 0.8952446 0.3059063 0.8952446 0.3059063 0.1047554 -0.3059063
3257432 0.1010593 -0.3010794 0.8989407 0.3010794 0.8989407 0.3010794 0.1010593 -0.3010794
3323290 0.0974794 -0.2962852 0.9025206 0.2962852 0.9025206 0.2962852 0.0974794 -0.2962852
3390478 0.0940129 -0.2915260 0.9059871 0.2915260 0.9059871 0.2915260 0.0940129 -0.2915260
3459026 0.0906573 -0.2868038 0.9093427 0.2868038 0.9093427 0.2868038 0.0906573 -0.2868038
3528959 0.0874097 -0.2821205 0.9125903 0.2821205 0.9125903 0.2821205 0.0874097 -0.2821205
3600306 0.0842677 -0.2774779 0.9157323 0.2774779 0.9157323 0.2774779 0.0842677 -0.2774779
3673095 0.0812285 -0.2728777 0.9187715 0.2728777 0.9187715 0.2728777 0.0812285 -0.2728777
3747356 0.0782894 -0.2683214 0.9217106 0.2683214 0.9217106 0.2683214 0.0782894 -0.2683214
3823119 0.0754479 -0.2638103 0.9245521 0.2638103 0.9245521 0.2638103 0.0754479 -0.2638103
3900413 0.0727013 -0.2593458 0.9272987 0.2593458 0.9272987 0.2593458 0.0727013 -0.2593458
3979270 0.0700471 -0.2549290 0.9299529 0.2549290 0.9299529 0.2549290 0.0700471 -0.2549290
4059721 0.0674826 -0.2505610 0.9325174 0.2505610 0.9325174 0.2505610 0.0674826 -0.2505610
4141799 0.0650054 -0.2462426 0.9349946 0.2462426 0.9349946 0.2462426 0.0650054 -0.2462426
4225536 0.0626130 -0.2419748 0.9373870 0.2419748 0.9373870 0.2419748 0.0626130 -0.2419748
4310966 0.0603029 -0.2377583 0.9396971 0.2377583 0.9396971 0.2377583 0.0603029 -0.2377583
4398124 0.0580726 -0.2335937 0.9419274 0.2335937 0.9419274 0.2335937 0.0580726 -0.2335937
4487043 0.0559199 -0.2294816 0.9440801 0.2294816 0.9440801 0.2294816 0.0559199 -0.2294816
4577760 0.0538423 -0.2254225 0.9461577 0.2254225 0.9461577 0.2254225 0.0538423 -0.2254225
4670311 0.0518377 -0.2214167 0.9481623 0.2214167 0.9481623 0.2214167 0.0518377 -0.2214167
4764734 0.0499037 -0.2174647 0.9500963 0.2174647 0.9500963 0.2174647 0.0499037 -0.2174647
4861065 0.0480381 -0.2135666 0.9519619 0.2135666 0.9519619 0.2135666 0.0480381 -0.2135666
4959344 0.0462388 -0.2097227 0.9537612 0.2097227 0.9537612 0.2097227 0.0462388 -0.2097227
5059610 0.0445037 -0.2059331 0.9554963 0.2059331 0.9554963 0.2059331 0.0445037 -0.2059331
5161903 0.0428308 -0.2021978 0.9571692 0.2021978 0.9571692 0.2021978 0.0428308 -0.2021978
5266264 0.0412179 -0.1985168 0.9587821 0.1985168 0.9587821 0.1985168 0.0412179 -0.1985168
5372736 0.0396632 -0.1948902 0.9603368 0.1948902 0.9603368 0.1948902 0.0396632 -0.1948902
5481359 0.0381648 -0.1913177 0.9618352 0.1913177 0.9618352 0.1913177 0.0381648 -0.1913177
5592179 0.0367208 -0.1877992 0.9632792 0.1877992 0.9632792 0.1877992 0.0367208 -0.1877992
5705239 0.0353294 -0.1843347 0.9646706 0.1843347 0.9646706 0.1843347 0.0353294 -0.1843347
5820586 0.0339887 -0.1809237 0.9660113 0.1809237 0.9660113 0.1809237 0.0339887 -0.1809237
5938264 0.0326972 -0.1775662 0.9673028 0.1775662 0.9673028 0.1775662 0.0326972 -0.1775662
6058321 0.0314531 -0.1742617 0.9685469 0.1742617 0.9685469 0.1742617 0.0314531 -0.1742617
6180806 0.0302549 -0.1710099 0.9697451 0.1710099 0.9697451 0.1710099 0.0302549 -0.1710099
6305767 0.0291008 -0.1678105 0.9708992 0.1678105 0.9708992 0.1678105 0.0291008 -0.1678105
6433254 0.0279895 -0.1646630 0.9720105 0.1646630 0.9720105 0.1646630 0.0279895 -0.1646630
6563319 0.0269194 -0.1615671 0.9730806 0.1615671 0.9730806 0.1615671 0.0269194 -0.1615671
6696013 0.0258891 -0.1585223 0.9741109 0.1585223 0.9741109 0.1585223 0.0258891 -0.1585223
6831390 0.0248971 -0.1555281 0.9751029 0.1555281 0.9751029 0.1555281 0.0248971 -0.1555281
6969505 0.0239423 -0.1525841 0.9760577 0.1525841 0.9760577 0.1525841 0.0239423 -0.1525841
7110411 0.0230231 -0.1496897 0.9769769 0.1496897 0.9769769 0.1496897 0.0230231 -0.1496897
7254166 0.0221384 -0.1468444 0.9778616 0.1468444 0.9778616 0.1468444 0.0221384 -0.1468444
7400828 0.0212869 -0.1440477 0.9787131 0.1440477 0.9787131 0.1440477 0.0212869 -0.1440477
7550455 0.0204675 -0.1412991 0.9795325 0.1412991 0.9795325 0.1412991 0.0204675 -0.1412991
7703107 0.0196789 -0.1385980 0.9803211 0.1385980 0.9803211 0.1385980 0.0196789 -0.1385980
7858845 0.0189201 -0.1359437 0.9810799 0.1359437 0.9810799 0.1359437 0.0189201 -0.1359437
8017732 0.0181900 -0.1333358 0.9818100 0.1333358 0.9818100 0.1333358 0.0181900 -0.1333358
8179831 0.0174876 -0.1307736 0.9825124 0.1307736 0.9825124 0.1307736 0.0174876 -0.1307736
8345207 0.0168118 -0.1282566 0.9831882 0.1282566 0.9831882 0.1282566 0.0168118 -0.1282566
8513927 0.0161617 -0.1257842 0.9838383 0.1257842 0.9838383 0.1257842 0.0161617 -0.1257842
8686058 0.0155363 -0.1233556 0.9844637 0.1233556 0.9844637 0.1233556 0.0155363 -0.1233556
8861669 0.0149347 -0.1209704 0.9850653 0.1209704 0.9850653 0.1209704 0.0149347 -0.1209704
9040831 0.0143561 -0.1186280 0.9856439 0.1186280 0.9856439 0.1186280 0.0143561 -0.1186280
9223615 0.0137996 -0.1163277 0.9862004 0.1163277 0.9862004 0.1163277 0.0137996 -0.1163277
9410094 0.0132644 -0.1140688 0.9867356 0.1140688 0.9867356 0.1140688 0.0132644 -0.1140688
9600343 0.0127496 -0.1118509 0.9872504 0.1118509 0.9872504 0.1118509 0.0127496 -0.1118509
9794439 0.0122546 -0.1096732 0.9877454 0.1096732 0.9877454 0.1096732 0.0122546 -0.1096732
9992459 0.0117786 -0.1075351 0.9882214 0.1075351 0.9882214 0.1075351 0.0117786 -0.1075351
10194482 0.0113209 -0.1054362 0.9886791 0.1054362 0.9886791 0.1054362 0.0113209 -0.1054362
10400590 0.0108807 -0.1033756 0.9891193 0.1033756 0.9891193 0.1033756 0.0108807 -0.1033756
10610865 0.0104576 -0.1013529 0.9895424 0.1013529 0.9895424 0.1013529 0.0104576 -0.1013529
10825391 0.0100507 -0.0993674 0.9899493 0.0993674 0.9899493 0.0993674 0.0100507 -0.0993674
11044254 0.0096595 -0.0974186 0.9903405 0.0974186 0.9903405 0.0974186 0.0096595 -0.0974186
11267542 0.0092835 -0.0955058 0.9907165 0.0955058 0.9907165 0.0955058 0.0092835 -0.0955058
11495344 0.0089220 -0.0936284 0.9910780 0.0936284 0.9910780 0.0936284 0.0089220 -0.0936284
11727752 0.0085744 -0.0917858 0.9914256 0.0917858 0.9914256 0.0917858 0.0085744 -0.0917858
11964859 0.0082404 -0.0899775 0.9917596 0.0899775 0.9917596 0.0899775 0.0082404 -0.0899775
12206760 0.0079192 -0.0882029 0.9920808 0.0882029 0.9920808 0.0882029 0.0079192 -0.0882029
12453551 0.0076106 -0.0864614 0.9923894 0.0864614 0.9923894 0.0864614 0.0076106 -0.0864614
12705331 0.0073139 -0.0847525 0.9926861 0.0847525 0.9926861 0.0847525 0.0073139 -0.0847525
12962202 0.0070288 -0.0830755 0.9929712 0.0830755 0.9929712 0.0830755 0.0070288 -0.0830755
13224267 0.0067548 -0.0814299 0.9932452 0.0814299 0.9932452 0.0814299 0.0067548 -0.0814299
13491630 0.0064914 -0.0798153 0.9935086 0.0798153 0.9935086 0.0798153 0.0064914 -0.0798153
13764398 0.0062384 -0.0782309 0.9937616 0.0782309 0.9937616 0.0782309 0.0062384 -0.0782309
14042680 0.0059952 -0.0766764 0.9940048 0.0766764 0.9940048 0.0766764 0.0059952 -0.0766764
14326589 0.0057615 -0.0751511 0.9942385 0.0751511 0.9942385 0.0751511 0.0057615 -0.0751511
14616238 0.0055369 -0.0736545 0.9944631 0.0736545 0.9944631 0.0736545 0.0055369 -0.0736545
14911743 0.0053211 -0.0721862 0.9946789 0.0721862 0.9946789 0.0721862 0.0053211 -0.0721862
15213223 0.0051138 -0.0707455 0.9948862 0.0707455 0.9948862 0.0707455 0.0051138 -0.0707455
15520797 0.0049147 -0.0693321 0.9950853 0.0693321 0.9950853 0.0693321 0.0049147 -0.0693321
15834590 0.0047233 -0.0679454 0.9952767 0.0679454 0.9952767 0.0679454 0.0047233 -0.0679454
16154727 0.0045395 -0.0665849 0.9954605 0.0665849 0.9954605 0.0665849 0.0045395 -0.0665849
16481337 0.0043629 -0.0652501 0.9956371 0.0652501 0.9956371 0.0652501 0.0043629 -0.0652501
16814550 0.0041932 -0.0639406 0.9958068 0.0639406 0.9958068 0.0639406 0.0041932 -0.0639406
17154499 0.0040303 -0.0626559 0.9959697 0.0626559 0.9959697 0.0626559 0.0040303 -0.0626559
17501322 0.0038738 -0.0613955 0.9961262 0.0613955 0.9961262 0.0613955 0.0038738 -0.0613955
17855156 0.0037235 -0.0601589 0.9962765 0.0601589 0.9962765 0.0601589 0.0037235 -0.0601589
18216144 0.0035791 -0.0589458 0.9964209 0.0589458 0.9964209 0.0589458 0.0035791 -0.0589458
18584431 0.0034405 -0.0577556 0.9965595 0.0577556 0.9965595 0.0577556 0.0034405 -0.0577556
18960163 0.0033073 -0.0565880 0.9966927 0.0565880 0.9966927 0.0565880 0.0033073 -0.0565880
19343491 0.0031795 -0.0554425 0.9968205 0.0554425 0.9968205 0.0554425 0.0031795 -0.0554425
19734570 0.0030567 -0.0543187 0.9969433 0.0543187 0.9969433 0.0543187 0.0030567 -0.0543187
20133555 0.0029389 -0.0532162 0.9970611 0.0532162 0.9970611 0.0532162 0.0029389 -0.0532162
20540607 0.0028257 -0.0521345 0.9971743 0.0521345 0.9971743 0.0521345 0.0028257 -0.0521345
20955888 0.0027171 -0.0510733 0.9972829 0.0510733 0.9972829 0.0510733 0.0027171 -0.0510733
21379566 0.0026128 -0.0500322 0.9973872 0.0500322 0.9973872 0.0500322 0.0026128 -0.0500322
21811809 0.0025127 -0.0490107 0.9974873 0.0490107 0.9974873 0.0490107 0.0025127 -0.0490107
22252791 0.0024167 -0.0480085 0.9975833 0.0480085 0.9975833 0.0480085 0.0024167 -0.0480085
22702688 0.0023245 -0.0470253 0.9976755 0.0470253 0.9976755 0.0470253 0.0023245 -0.0470253
23161682 0.0022360 -0.0460606 0.9977640 0.0460606 0.9977640 0.0460606 0.0022360 -0.0460606
23629955 0.0021511 -0.0451141 0.9978489 0.0451141 0.9978489 0.0451141 0.0021511 -0.0451141
24107696 0.0020696 -0.0441854 0.9979304 0.0441854 0.9979304 0.0441854 0.0020696 -0.0441854
24595095 0.0019915 -0.0432742 0.9980085 0.0432742 0.9980085 0.0432742 0.0019915 -0.0432742
25092348 0.0019165 -0.0423801 0.9980835 0.0423801 0.9980835 0.0423801 0.0019165 -0.0423801
25599655 0.0018446 -0.0415028 0.9981554 0.0415028 0.9981554 0.0415028 0.0018446 -0.0415028
26117218 0.0017756 -0.0406420 0.9982244 0.0406420 0.9982244 0.0406420 0.0017756 -0.0406420
26645245 0.0017094 -0.0397972 0.9982906 0.0397972 0.9982906 0.0397972 0.0017094 -0.0397972
27183947 0.0016460 -0.0389683 0.9983540 0.0389683 0.9983540 0.0389683 0.0016460 -0.0389683
27733541 0.0015852 -0.0381549 0.9984148 0.0381549 0.9984148 0.0381549 0.0015852 -0.0381549
28294246 0.0015268 -0.0373566 0.9984732 0.0373566 0.9984732 0.0373566 0.0015268 -0.0373566
28866287 0.0014709 -0.0365733 0.9985291 0.0365733 0.9985291 0.0365733 0.0014709 -0.0365733
29449894 0.0014173 -0.0358044 0.9985827 0.0358044 0.9985827 0.0358044 0.0014173 -0.0358044
30045299 0.0013660 -0.0350499 0.9986340 0.0350499 0.9986340 0.0350499 0.0013660 -0.0350499
30652742 0.0013168 -0.0343093 0.9986832 0.0343093 0.9986832 0.0343093 0.0013168 -0.0343093
31272467 0.0012696 -0.0335824 0.9987304 0.0335824 0.9987304 0.0335824 0.0012696 -0.0335824
31904720 0.0012244 -0.0328689 0.9987756 0.0328689 0.9987756 0.0328689 0.0012244 -0.0328689
32549757 0.0011811 -0.0321686 0.9988189 0.0321686 0.9988189 0.0321686 0.0011811 -0.0321686
33207834 0.0011397 -0.0314811 0.9988603 0.0314811 0.9988603 0.0314811 0.0011397 -0.0314811
33879216 0.0011000 -0.0308062 0.9989000 0.0308062 0.9989000 0.0308062 0.0011000 -0.0308062
34564172 0.0010619 -0.0301436 0.9989381 0.0301436 0.9989381 0.0301436 0.0010619 -0.0301436
35262976 0.0010255 -0.0294931 0.9989745 0.0294931 0.9989745 0.0294931 0.0010255 -0.0294931
35975908 0.0009907 -0.0288545 0.9990093 0.0288545 0.9990093 0.0288545 0.0009907 -0.0288545
36703254 0.0009574 -0.0282273 0.9990426 0.0282273 0.9990426 0.0282273 0.0009574 -0.0282273
37445305 0.0009254 -0.0276116 0.9990746 0.0276116 0.9990746 0.0276116 0.0009254 -0.0276116
38202358 0.0008949 -0.0270068 0.9991051 0.0270068 0.9991051 0.0270068 0.0008949 -0.0270068
38974717 0.0008657 -0.0264130 0.9991343 0.0264130 0.9991343 0.0264130 0.0008657 -0.0264130
39762692 0.0008378 -0.0258297 0.9991622 0.0258297 0.9991622 0.0258297 0.0008378 -0.0258297
40566597 0.0008110 -0.0252568 0.9991890 0.0252568 0.9991890 0.0252568 0.0008110 -0.0252568
41386756 0.0007855 -0.0246941 0.9992145 0.0246941 0.9992145 0.0246941 0.0007855 -0.0246941
42223496 0.0007611 -0.0241413 0.9992389 0.0241413 0.9992389 0.0241413 0.0007611 -0.0241413
43077153 0.0007377 -0.0235982 0.9992623 0.0235982 0.9992623 0.0235982 0.0007377 -0.0235982
43948069 0.0007154 -0.0230646 0.9992846 0.0230646 0.9992846 0.0230646 0.0007154 -0.0230646
44836592 0.0006941 -0.0225403 0.9993059 0.0225403 0.9993059 0.0225403 0.0006941 -0.0225403
45743080 0.0006738 -0.0220250 0.9993262 0.0220250 0.9993262 0.0220250 0.0006738 -0.0220250
46667894 0.0006543 -0.0215186 0.9993457 0.0215186 0.9993457 0.0215186 0.0006543 -0.0215186
47611406 0.0006358 -0.0210209 0.9993642 0.0210209 0.9993642 0.0210209 0.0006358 -0.0210209
48573993 0.0006181 -0.0205317 0.9993819 0.0205317 0.9993819 0.0205317 0.0006181 -0.0205317
49556042 0.0006012 -0.0200508 0.9993988 0.0200508 0.9993988 0.0200508 0.0006012 -0.0200508
50557945 0.0005851 -0.0195779 0.9994149 0.0195779 0.9994149 0.0195779 0.0005851 -0.0195779
51580105 0.0005697 -0.0191129 0.9994303 0.0191129 0.9994303 0.0191129 0.0005697 -0.0191129
52622929 0.0005551 -0.0186557 0.9994449 0.0186557 0.9994449 0.0186557 0.0005551 -0.0186557
53686838 0.0005411 -0.0182059 0.9994589 0.0182059 0.9994589 0.0182059 0.0005411 -0.0182059
54772256 0.0005278 -0.0177635 0.9994722 0.0177635 0.9994722 0.0177635 0.0005278 -0.0177635
55879618 0.0005152 -0.0173283 0.9994848 0.0173283 0.9994848 0.0173283 0.0005152 -0.0173283
57009369 0.0005031 -0.0169000 0.9994969 0.0169000 0.9994969 0.0169000 0.0005031 -0.0169000
58161960 0.0004917 -0.0164786 0.9995083 0.0164786 0.9995083 0.0164786 0.0004917 -0.0164786
59337855 0.0004808 -0.0160638 0.9995192 0.0160638 0.9995192 0.0160638 0.0004808 -0.0160638
60537522 0.0004704 -0.0156556 0.9995296 0.0156556 0.9995296 0.0156556 0.0004704 -0.0156556
61761445 0.0004606 -0.0152536 0.9995394 0.0152536 0.9995394 0.0152536 0.0004606 -0.0152536
63010112 0.0004513 -0.0148578 0.9995487 0.0148578 0.9995487 0.0148578 0.0004513 -0.0148578
64284024 0.0004425 -0.0144679 0.9995575 0.0144679 0.9995575 0.0144679 0.0004425 -0.0144679
65583691 0.0004341 -0.0140839 0.9995659 0.0140839 0.9995659 0.0140839 0.0004341 -0.0140839
66909635 0.0004262 -0.0137056 0.9995738 0.0137056 0.9995738 0.0137056 0.0004262 -0.0137056
68262386 0.0004187 -0.0133328 0.9995813 0.0133328 0.9995813 0.0133328 0.0004187 -0.0133328
69642486 0.0004116 -0.0129654 0.9995884 0.0129654 0.9995884 0.0129654 0.0004116 -0.0129654
71050488 0.0004050 -0.0126032 0.9995950 0.0126032 0.9995950 0.0126032 0.0004050 -0.0126032
72486957 0.0003987 -0.0122461 0.9996013 0.0122461 0.9996013 0.0122461 0.0003987 -0.0122461
73952468 0.0003928 -0.0118939 0.9996072 0.0118939 0.9996072 0.0118939 0.0003928 -0.0118939
