!Murata Part Number: GRM21B5C2J681JWA3
!These Parameters are Measured in Series Mode Connection
!Data Generated on Mar 30, 2021
!       o--ll--o
!Port1            Port2
!       o------o
!Operation Temp=25[degC], DC Bias Voltage=0[V]
!Freq. Start=100[MHz] Stop=3[GHz] 401[Steps]
# Hz S RI R 50
!Freq.(Hz) S11(Real) S11(Imag) S21(Real) S21(Imag) S12(Real) S12(Imag) S22(Real) S22(Imag)
100000000 0.0007198 -0.0190481 0.9992802 0.0190481 0.9992802 0.0190481 0.0007198 -0.0190481
107250000 0.0006686 -0.0171737 0.9993314 0.0171737 0.9993314 0.0171737 0.0006686 -0.0171737
114500000 0.0006292 -0.0154993 0.9993708 0.0154993 0.9993708 0.0154993 0.0006292 -0.0154993
121750000 0.0005987 -0.0139892 0.9994013 0.0139892 0.9994013 0.0139892 0.0005987 -0.0139892
129000000 0.0005750 -0.0126153 0.9994250 0.0126153 0.9994250 0.0126153 0.0005750 -0.0126153
136250000 0.0005567 -0.0113559 0.9994433 0.0113559 0.9994433 0.0113559 0.0005567 -0.0113559
143500000 0.0005427 -0.0101935 0.9994573 0.0101935 0.9994573 0.0101935 0.0005427 -0.0101935
150750000 0.0005322 -0.0091139 0.9994678 0.0091139 0.9994678 0.0091139 0.0005322 -0.0091139
158000000 0.0005247 -0.0081056 0.9994753 0.0081056 0.9994753 0.0081056 0.0005247 -0.0081056
165250000 0.0005195 -0.0071592 0.9994805 0.0071592 0.9994805 0.0071592 0.0005195 -0.0071592
172500000 0.0005165 -0.0062666 0.9994835 0.0062666 0.9994835 0.0062666 0.0005165 -0.0062666
179750000 0.0005152 -0.0054213 0.9994848 0.0054213 0.9994848 0.0054213 0.0005152 -0.0054213
187000000 0.0005155 -0.0046176 0.9994845 0.0046176 0.9994845 0.0046176 0.0005155 -0.0046176
194250000 0.0005172 -0.0038508 0.9994828 0.0038508 0.9994828 0.0038508 0.0005172 -0.0038508
201500000 0.0005202 -0.0031168 0.9994798 0.0031168 0.9994798 0.0031168 0.0005202 -0.0031168
208750000 0.0005243 -0.0024120 0.9994757 0.0024120 0.9994757 0.0024120 0.0005243 -0.0024120
216000000 0.0005295 -0.0017334 0.9994705 0.0017334 0.9994705 0.0017334 0.0005295 -0.0017334
223250000 0.0005357 -0.0010783 0.9994643 0.0010783 0.9994643 0.0010783 0.0005357 -0.0010783
230500000 0.0005428 -0.0004444 0.9994572 0.0004444 0.9994572 0.0004444 0.0005428 -0.0004444
237750000 0.0005509 0.0001704 0.9994491 -0.0001704 0.9994491 -0.0001704 0.0005509 0.0001704
245000000 0.0005599 0.0007679 0.9994401 -0.0007679 0.9994401 -0.0007679 0.0005599 0.0007679
252250000 0.0005697 0.0013498 0.9994303 -0.0013498 0.9994303 -0.0013498 0.0005697 0.0013498
259500000 0.0005804 0.0019174 0.9994196 -0.0019174 0.9994196 -0.0019174 0.0005804 0.0019174
266750000 0.0005920 0.0024721 0.9994080 -0.0024721 0.9994080 -0.0024721 0.0005920 0.0024721
274000000 0.0006044 0.0030151 0.9993956 -0.0030151 0.9993956 -0.0030151 0.0006044 0.0030151
281250000 0.0006177 0.0035475 0.9993823 -0.0035475 0.9993823 -0.0035475 0.0006177 0.0035475
288500000 0.0006320 0.0040701 0.9993680 -0.0040701 0.9993680 -0.0040701 0.0006320 0.0040701
295750000 0.0006472 0.0045839 0.9993528 -0.0045839 0.9993528 -0.0045839 0.0006472 0.0045839
303000000 0.0006633 0.0050898 0.9993367 -0.0050898 0.9993367 -0.0050898 0.0006633 0.0050898
310250000 0.0006804 0.0055884 0.9993196 -0.0055884 0.9993196 -0.0055884 0.0006804 0.0055884
317500000 0.0006987 0.0060806 0.9993013 -0.0060806 0.9993013 -0.0060806 0.0006987 0.0060806
324750000 0.0007180 0.0065669 0.9992820 -0.0065669 0.9992820 -0.0065669 0.0007180 0.0065669
332000000 0.0007386 0.0070480 0.9992614 -0.0070480 0.9992614 -0.0070480 0.0007386 0.0070480
339250000 0.0007604 0.0075245 0.9992396 -0.0075245 0.9992396 -0.0075245 0.0007604 0.0075245
346500000 0.0007836 0.0079969 0.9992164 -0.0079969 0.9992164 -0.0079969 0.0007836 0.0079969
353750000 0.0008083 0.0084660 0.9991917 -0.0084660 0.9991917 -0.0084660 0.0008083 0.0084660
361000000 0.0008347 0.0089321 0.9991653 -0.0089321 0.9991653 -0.0089321 0.0008347 0.0089321
368250000 0.0008629 0.0093959 0.9991371 -0.0093959 0.9991371 -0.0093959 0.0008629 0.0093959
375500000 0.0008931 0.0098578 0.9991069 -0.0098578 0.9991069 -0.0098578 0.0008931 0.0098578
382750000 0.0009255 0.0103186 0.9990745 -0.0103186 0.9990745 -0.0103186 0.0009255 0.0103186
390000000 0.0009604 0.0107787 0.9990396 -0.0107787 0.9990396 -0.0107787 0.0009604 0.0107787
397250000 0.0009982 0.0112388 0.9990018 -0.0112388 0.9990018 -0.0112388 0.0009982 0.0112388
404500000 0.0010392 0.0116995 0.9989608 -0.0116995 0.9989608 -0.0116995 0.0010392 0.0116995
411750000 0.0010840 0.0121614 0.9989160 -0.0121614 0.9989160 -0.0121614 0.0010840 0.0121614
419000000 0.0011331 0.0126253 0.9988669 -0.0126253 0.9988669 -0.0126253 0.0011331 0.0126253
426250000 0.0011874 0.0130921 0.9988126 -0.0130921 0.9988126 -0.0130921 0.0011874 0.0130921
433500000 0.0012477 0.0135624 0.9987523 -0.0135624 0.9987523 -0.0135624 0.0012477 0.0135624
440750000 0.0013152 0.0140374 0.9986848 -0.0140374 0.9986848 -0.0140374 0.0013152 0.0140374
448000000 0.0013915 0.0145180 0.9986085 -0.0145180 0.9986085 -0.0145180 0.0013915 0.0145180
455250000 0.0014786 0.0150054 0.9985214 -0.0150054 0.9985214 -0.0150054 0.0014786 0.0150054
462500000 0.0015789 0.0155007 0.9984211 -0.0155007 0.9984211 -0.0155007 0.0015789 0.0155007
469750000 0.0016958 0.0160051 0.9983042 -0.0160051 0.9983042 -0.0160051 0.0016958 0.0160051
477000000 0.0018337 0.0165197 0.9981663 -0.0165197 0.9981663 -0.0165197 0.0018337 0.0165197
484250000 0.0019987 0.0170453 0.9980013 -0.0170453 0.9980013 -0.0170453 0.0019987 0.0170453
491500000 0.0021988 0.0175820 0.9978012 -0.0175820 0.9978012 -0.0175820 0.0021988 0.0175820
498750000 0.0024447 0.0181283 0.9975553 -0.0181283 0.9975553 -0.0181283 0.0024447 0.0181283
506000000 0.0027510 0.0186795 0.9972490 -0.0186795 0.9972490 -0.0186795 0.0027510 0.0186795
513250000 0.0031367 0.0192252 0.9968633 -0.0192252 0.9968633 -0.0192252 0.0031367 0.0192252
520500000 0.0036250 0.0197438 0.9963750 -0.0197438 0.9963750 -0.0197438 0.0036250 0.0197438
527750000 0.0042398 0.0201952 0.9957602 -0.0201952 0.9957602 -0.0201952 0.0042398 0.0201952
535000000 0.0049938 0.0205100 0.9950062 -0.0205100 0.9950062 -0.0205100 0.0049938 0.0205100
542250000 0.0058604 0.0205854 0.9941396 -0.0205854 0.9941396 -0.0205854 0.0058604 0.0205854
549500000 0.0067294 0.0203100 0.9932706 -0.0203100 0.9932706 -0.0203100 0.0067294 0.0203100
556750000 0.0073838 0.0196490 0.9926162 -0.0196490 0.9926162 -0.0196490 0.0073838 0.0196490
564000000 0.0075871 0.0187522 0.9924129 -0.0187522 0.9924129 -0.0187522 0.0075871 0.0187522
571250000 0.0072705 0.0179250 0.9927295 -0.0179250 0.9927295 -0.0179250 0.0072705 0.0179250
578500000 0.0065983 0.0174203 0.9934017 -0.0174203 0.9934017 -0.0174203 0.0065983 0.0174203
585750000 0.0058153 0.0172968 0.9941847 -0.0172968 0.9941847 -0.0172968 0.0058153 0.0172968
593000000 0.0050905 0.0174740 0.9949095 -0.0174740 0.9949095 -0.0174740 0.0050905 0.0174740
600250000 0.0044918 0.0178415 0.9955082 -0.0178415 0.9955082 -0.0178415 0.0044918 0.0178415
607500000 0.0040251 0.0183130 0.9959749 -0.0183130 0.9959749 -0.0183130 0.0040251 0.0183130
614750000 0.0036725 0.0188342 0.9963275 -0.0188342 0.9963275 -0.0188342 0.0036725 0.0188342
622000000 0.0034113 0.0193745 0.9965887 -0.0193745 0.9965887 -0.0193745 0.0034113 0.0193745
629250000 0.0032211 0.0199178 0.9967789 -0.0199178 0.9967789 -0.0199178 0.0032211 0.0199178
636500000 0.0030861 0.0204562 0.9969139 -0.0204562 0.9969139 -0.0204562 0.0030861 0.0204562
643750000 0.0029940 0.0209865 0.9970060 -0.0209865 0.9970060 -0.0209865 0.0029940 0.0209865
651000000 0.0029360 0.0215077 0.9970640 -0.0215077 0.9970640 -0.0215077 0.0029360 0.0215077
658250000 0.0029055 0.0220200 0.9970945 -0.0220200 0.9970945 -0.0220200 0.0029055 0.0220200
665500000 0.0028977 0.0225242 0.9971023 -0.0225242 0.9971023 -0.0225242 0.0028977 0.0225242
672750000 0.0029093 0.0230213 0.9970907 -0.0230213 0.9970907 -0.0230213 0.0029093 0.0230213
680000000 0.0029378 0.0235125 0.9970622 -0.0235125 0.9970622 -0.0235125 0.0029378 0.0235125
687250000 0.0029816 0.0239987 0.9970184 -0.0239987 0.9970184 -0.0239987 0.0029816 0.0239987
694500000 0.0030395 0.0244809 0.9969605 -0.0244809 0.9969605 -0.0244809 0.0030395 0.0244809
701750000 0.0031109 0.0249601 0.9968891 -0.0249601 0.9968891 -0.0249601 0.0031109 0.0249601
709000000 0.0031956 0.0254370 0.9968044 -0.0254370 0.9968044 -0.0254370 0.0031956 0.0254370
716250000 0.0032936 0.0259124 0.9967064 -0.0259124 0.9967064 -0.0259124 0.0032936 0.0259124
723500000 0.0034055 0.0263866 0.9965945 -0.0263866 0.9965945 -0.0263866 0.0034055 0.0263866
730750000 0.0035318 0.0268603 0.9964682 -0.0268603 0.9964682 -0.0268603 0.0035318 0.0268603
738000000 0.0036736 0.0273337 0.9963264 -0.0273337 0.9963264 -0.0273337 0.0036736 0.0273337
745250000 0.0038321 0.0278068 0.9961679 -0.0278068 0.9961679 -0.0278068 0.0038321 0.0278068
752500000 0.0040088 0.0282795 0.9959912 -0.0282795 0.9959912 -0.0282795 0.0040088 0.0282795
759750000 0.0042056 0.0287514 0.9957944 -0.0287514 0.9957944 -0.0287514 0.0042056 0.0287514
767000000 0.0044247 0.0292219 0.9955753 -0.0292219 0.9955753 -0.0292219 0.0044247 0.0292219
774250000 0.0046685 0.0296897 0.9953315 -0.0296897 0.9953315 -0.0296897 0.0046685 0.0296897
781500000 0.0049399 0.0301531 0.9950601 -0.0301531 0.9950601 -0.0301531 0.0049399 0.0301531
788750000 0.0052420 0.0306095 0.9947580 -0.0306095 0.9947580 -0.0306095 0.0052420 0.0306095
796000000 0.0055782 0.0310557 0.9944218 -0.0310557 0.9944218 -0.0310557 0.0055782 0.0310557
803250000 0.0059519 0.0314869 0.9940481 -0.0314869 0.9940481 -0.0314869 0.0059519 0.0314869
810500000 0.0063667 0.0318972 0.9936333 -0.0318972 0.9936333 -0.0318972 0.0063667 0.0318972
817750000 0.0068254 0.0322785 0.9931746 -0.0322785 0.9931746 -0.0322785 0.0068254 0.0322785
825000000 0.0073300 0.0326210 0.9926700 -0.0326210 0.9926700 -0.0326210 0.0073300 0.0326210
832250000 0.0078808 0.0329124 0.9921192 -0.0329124 0.9921192 -0.0329124 0.0078808 0.0329124
839500000 0.0084752 0.0331380 0.9915248 -0.0331380 0.9915248 -0.0331380 0.0084752 0.0331380
846750000 0.0091062 0.0332814 0.9908938 -0.0332814 0.9908938 -0.0332814 0.0091062 0.0332814
854000000 0.0097613 0.0333252 0.9902387 -0.0333252 0.9902387 -0.0333252 0.0097613 0.0333252
861250000 0.0104207 0.0332535 0.9895793 -0.0332535 0.9895793 -0.0332535 0.0104207 0.0332535
868500000 0.0110571 0.0330542 0.9889429 -0.0330542 0.9889429 -0.0330542 0.0110571 0.0330542
875750000 0.0116361 0.0327240 0.9883639 -0.0327240 0.9883639 -0.0327240 0.0116361 0.0327240
883000000 0.0121195 0.0322710 0.9878805 -0.0322710 0.9878805 -0.0322710 0.0121195 0.0322710
890250000 0.0124704 0.0317182 0.9875296 -0.0317182 0.9875296 -0.0317182 0.0124704 0.0317182
897500000 0.0126603 0.0311025 0.9873397 -0.0311025 0.9873397 -0.0311025 0.0126603 0.0311025
904750000 0.0126751 0.0304702 0.9873249 -0.0304702 0.9873249 -0.0304702 0.0126751 0.0304702
912000000 0.0125185 0.0298701 0.9874815 -0.0298701 0.9874815 -0.0298701 0.0125185 0.0298701
919250000 0.0122109 0.0293454 0.9877891 -0.0293454 0.9877891 -0.0293454 0.0122109 0.0293454
926500000 0.0117847 0.0289272 0.9882153 -0.0289272 0.9882153 -0.0289272 0.0117847 0.0289272
933750000 0.0112776 0.0286323 0.9887224 -0.0286323 0.9887224 -0.0286323 0.0112776 0.0286323
941000000 0.0107260 0.0284639 0.9892740 -0.0284639 0.9892740 -0.0284639 0.0107260 0.0284639
948250000 0.0101612 0.0284149 0.9898388 -0.0284149 0.9898388 -0.0284149 0.0101612 0.0284149
955500000 0.0096072 0.0284717 0.9903928 -0.0284717 0.9903928 -0.0284717 0.0096072 0.0284717
962750000 0.0090804 0.0286181 0.9909196 -0.0286181 0.9909196 -0.0286181 0.0090804 0.0286181
970000000 0.0085910 0.0288374 0.9914090 -0.0288374 0.9914090 -0.0288374 0.0085910 0.0288374
977250000 0.0081441 0.0291141 0.9918559 -0.0291141 0.9918559 -0.0291141 0.0081441 0.0291141
984500000 0.0077411 0.0294348 0.9922589 -0.0294348 0.9922589 -0.0294348 0.0077411 0.0294348
991750000 0.0073812 0.0297884 0.9926188 -0.0297884 0.9926188 -0.0297884 0.0073812 0.0297884
999000000 0.0070623 0.0301657 0.9929377 -0.0301657 0.9929377 -0.0301657 0.0070623 0.0301657
1006250000 0.0067813 0.0305597 0.9932187 -0.0305597 0.9932187 -0.0305597 0.0067813 0.0305597
1013500000 0.0065349 0.0309648 0.9934651 -0.0309648 0.9934651 -0.0309648 0.0065349 0.0309648
1020750000 0.0063196 0.0313768 0.9936804 -0.0313768 0.9936804 -0.0313768 0.0063196 0.0313768
1028000000 0.0061323 0.0317924 0.9938677 -0.0317924 0.9938677 -0.0317924 0.0061323 0.0317924
1035250000 0.0059700 0.0322092 0.9940300 -0.0322092 0.9940300 -0.0322092 0.0059700 0.0322092
1042500000 0.0058300 0.0326256 0.9941700 -0.0326256 0.9941700 -0.0326256 0.0058300 0.0326256
1049750000 0.0057097 0.0330401 0.9942903 -0.0330401 0.9942903 -0.0330401 0.0057097 0.0330401
1057000000 0.0056069 0.0334520 0.9943931 -0.0334520 0.9943931 -0.0334520 0.0056069 0.0334520
1064250000 0.0055198 0.0338605 0.9944802 -0.0338605 0.9944802 -0.0338605 0.0055198 0.0338605
1071500000 0.0054466 0.0342652 0.9945534 -0.0342652 0.9945534 -0.0342652 0.0054466 0.0342652
1078750000 0.0053859 0.0346660 0.9946141 -0.0346660 0.9946141 -0.0346660 0.0053859 0.0346660
1086000000 0.0053362 0.0350625 0.9946638 -0.0350625 0.9946638 -0.0350625 0.0053362 0.0350625
1093250000 0.0052966 0.0354548 0.9947034 -0.0354548 0.9947034 -0.0354548 0.0052966 0.0354548
1100500000 0.0052658 0.0358428 0.9947342 -0.0358428 0.9947342 -0.0358428 0.0052658 0.0358428
1107750000 0.0052432 0.0362266 0.9947568 -0.0362266 0.9947568 -0.0362266 0.0052432 0.0362266
1115000000 0.0052278 0.0366063 0.9947722 -0.0366063 0.9947722 -0.0366063 0.0052278 0.0366063
1122250000 0.0052189 0.0369820 0.9947811 -0.0369820 0.9947811 -0.0369820 0.0052189 0.0369820
1129500000 0.0052161 0.0373537 0.9947839 -0.0373537 0.9947839 -0.0373537 0.0052161 0.0373537
1136750000 0.0052187 0.0377216 0.9947813 -0.0377216 0.9947813 -0.0377216 0.0052187 0.0377216
1144000000 0.0052262 0.0380858 0.9947738 -0.0380858 0.9947738 -0.0380858 0.0052262 0.0380858
1151250000 0.0052383 0.0384465 0.9947617 -0.0384465 0.9947617 -0.0384465 0.0052383 0.0384465
1158500000 0.0052545 0.0388038 0.9947455 -0.0388038 0.9947455 -0.0388038 0.0052545 0.0388038
1165750000 0.0052746 0.0391577 0.9947254 -0.0391577 0.9947254 -0.0391577 0.0052746 0.0391577
1173000000 0.0052981 0.0395084 0.9947019 -0.0395084 0.9947019 -0.0395084 0.0052981 0.0395084
1180250000 0.0053250 0.0398560 0.9946750 -0.0398560 0.9946750 -0.0398560 0.0053250 0.0398560
1187500000 0.0053548 0.0402007 0.9946452 -0.0402007 0.9946452 -0.0402007 0.0053548 0.0402007
1194750000 0.0053874 0.0405425 0.9946126 -0.0405425 0.9946126 -0.0405425 0.0053874 0.0405425
1202000000 0.0054227 0.0408815 0.9945773 -0.0408815 0.9945773 -0.0408815 0.0054227 0.0408815
1209250000 0.0054603 0.0412178 0.9945397 -0.0412178 0.9945397 -0.0412178 0.0054603 0.0412178
1216500000 0.0055001 0.0415514 0.9944999 -0.0415514 0.9944999 -0.0415514 0.0055001 0.0415514
1223750000 0.0055421 0.0418826 0.9944579 -0.0418826 0.9944579 -0.0418826 0.0055421 0.0418826
1231000000 0.0055860 0.0422113 0.9944140 -0.0422113 0.9944140 -0.0422113 0.0055860 0.0422113
1238250000 0.0056318 0.0425377 0.9943682 -0.0425377 0.9943682 -0.0425377 0.0056318 0.0425377
1245500000 0.0056792 0.0428617 0.9943208 -0.0428617 0.9943208 -0.0428617 0.0056792 0.0428617
1252750000 0.0057283 0.0431834 0.9942717 -0.0431834 0.9942717 -0.0431834 0.0057283 0.0431834
1260000000 0.0057789 0.0435030 0.9942211 -0.0435030 0.9942211 -0.0435030 0.0057789 0.0435030
1267250000 0.0058309 0.0438204 0.9941691 -0.0438204 0.9941691 -0.0438204 0.0058309 0.0438204
1274500000 0.0058842 0.0441357 0.9941158 -0.0441357 0.9941158 -0.0441357 0.0058842 0.0441357
1281750000 0.0059388 0.0444490 0.9940612 -0.0444490 0.9940612 -0.0444490 0.0059388 0.0444490
1289000000 0.0059945 0.0447603 0.9940055 -0.0447603 0.9940055 -0.0447603 0.0059945 0.0447603
1296250000 0.0060513 0.0450697 0.9939487 -0.0450697 0.9939487 -0.0450697 0.0060513 0.0450697
1303500000 0.0061091 0.0453771 0.9938909 -0.0453771 0.9938909 -0.0453771 0.0061091 0.0453771
1310750000 0.0061678 0.0456826 0.9938322 -0.0456826 0.9938322 -0.0456826 0.0061678 0.0456826
1318000000 0.0062275 0.0459863 0.9937725 -0.0459863 0.9937725 -0.0459863 0.0062275 0.0459863
1325250000 0.0062880 0.0462881 0.9937120 -0.0462881 0.9937120 -0.0462881 0.0062880 0.0462881
1332500000 0.0063492 0.0465882 0.9936508 -0.0465882 0.9936508 -0.0465882 0.0063492 0.0465882
1339750000 0.0064111 0.0468866 0.9935889 -0.0468866 0.9935889 -0.0468866 0.0064111 0.0468866
1347000000 0.0064737 0.0471832 0.9935263 -0.0471832 0.9935263 -0.0471832 0.0064737 0.0471832
1354250000 0.0065368 0.0474781 0.9934632 -0.0474781 0.9934632 -0.0474781 0.0065368 0.0474781
1361500000 0.0066005 0.0477714 0.9933995 -0.0477714 0.9933995 -0.0477714 0.0066005 0.0477714
1368750000 0.0066647 0.0480630 0.9933353 -0.0480630 0.9933353 -0.0480630 0.0066647 0.0480630
1376000000 0.0067293 0.0483530 0.9932707 -0.0483530 0.9932707 -0.0483530 0.0067293 0.0483530
1383250000 0.0067942 0.0486414 0.9932058 -0.0486414 0.9932058 -0.0486414 0.0067942 0.0486414
1390500000 0.0068595 0.0489282 0.9931405 -0.0489282 0.9931405 -0.0489282 0.0068595 0.0489282
1397750000 0.0069251 0.0492136 0.9930749 -0.0492136 0.9930749 -0.0492136 0.0069251 0.0492136
1405000000 0.0069909 0.0494974 0.9930091 -0.0494974 0.9930091 -0.0494974 0.0069909 0.0494974
1412250000 0.0070569 0.0497797 0.9929431 -0.0497797 0.9929431 -0.0497797 0.0070569 0.0497797
1419500000 0.0071230 0.0500606 0.9928770 -0.0500606 0.9928770 -0.0500606 0.0071230 0.0500606
1426750000 0.0071892 0.0503400 0.9928108 -0.0503400 0.9928108 -0.0503400 0.0071892 0.0503400
1434000000 0.0072554 0.0506180 0.9927446 -0.0506180 0.9927446 -0.0506180 0.0072554 0.0506180
1441250000 0.0073216 0.0508947 0.9926784 -0.0508947 0.9926784 -0.0508947 0.0073216 0.0508947
1448500000 0.0073878 0.0511700 0.9926122 -0.0511700 0.9926122 -0.0511700 0.0073878 0.0511700
1455750000 0.0074539 0.0514440 0.9925461 -0.0514440 0.9925461 -0.0514440 0.0074539 0.0514440
1463000000 0.0075198 0.0517167 0.9924802 -0.0517167 0.9924802 -0.0517167 0.0075198 0.0517167
1470250000 0.0075856 0.0519882 0.9924144 -0.0519882 0.9924144 -0.0519882 0.0075856 0.0519882
1477500000 0.0076511 0.0522584 0.9923489 -0.0522584 0.9923489 -0.0522584 0.0076511 0.0522584
1484750000 0.0077163 0.0525275 0.9922837 -0.0525275 0.9922837 -0.0525275 0.0077163 0.0525275
1492000000 0.0077813 0.0527954 0.9922187 -0.0527954 0.9922187 -0.0527954 0.0077813 0.0527954
1499250000 0.0078459 0.0530622 0.9921541 -0.0530622 0.9921541 -0.0530622 0.0078459 0.0530622
1506500000 0.0079102 0.0533279 0.9920898 -0.0533279 0.9920898 -0.0533279 0.0079102 0.0533279
1513750000 0.0079740 0.0535925 0.9920260 -0.0535925 0.9920260 -0.0535925 0.0079740 0.0535925
1521000000 0.0080374 0.0538562 0.9919626 -0.0538562 0.9919626 -0.0538562 0.0080374 0.0538562
1528250000 0.0081003 0.0541189 0.9918997 -0.0541189 0.9918997 -0.0541189 0.0081003 0.0541189
1535500000 0.0081626 0.0543807 0.9918374 -0.0543807 0.9918374 -0.0543807 0.0081626 0.0543807
1542750000 0.0082245 0.0546416 0.9917755 -0.0546416 0.9917755 -0.0546416 0.0082245 0.0546416
1550000000 0.0082857 0.0549016 0.9917143 -0.0549016 0.9917143 -0.0549016 0.0082857 0.0549016
1557250000 0.0083464 0.0551609 0.9916536 -0.0551609 0.9916536 -0.0551609 0.0083464 0.0551609
1564500000 0.0084065 0.0554194 0.9915935 -0.0554194 0.9915935 -0.0554194 0.0084065 0.0554194
1571750000 0.0084659 0.0556772 0.9915341 -0.0556772 0.9915341 -0.0556772 0.0084659 0.0556772
1579000000 0.0085246 0.0559343 0.9914754 -0.0559343 0.9914754 -0.0559343 0.0085246 0.0559343
1586250000 0.0085827 0.0561908 0.9914173 -0.0561908 0.9914173 -0.0561908 0.0085827 0.0561908
1593500000 0.0086400 0.0564468 0.9913600 -0.0564468 0.9913600 -0.0564468 0.0086400 0.0564468
1600750000 0.0086967 0.0567022 0.9913033 -0.0567022 0.9913033 -0.0567022 0.0086967 0.0567022
1608000000 0.0087526 0.0569572 0.9912474 -0.0569572 0.9912474 -0.0569572 0.0087526 0.0569572
1615250000 0.0088078 0.0572117 0.9911922 -0.0572117 0.9911922 -0.0572117 0.0088078 0.0572117
1622500000 0.0088622 0.0574659 0.9911378 -0.0574659 0.9911378 -0.0574659 0.0088622 0.0574659
1629750000 0.0089159 0.0577197 0.9910841 -0.0577197 0.9910841 -0.0577197 0.0089159 0.0577197
