!Murata Part Number: GRM21A5C2E331JW01
!These Parameters are Measured in Series Mode Connection
!Data Generated on Mar 30, 2021
!       o--ll--o
!Port1            Port2
!       o------o
!Operation Temp=25[degC], DC Bias Voltage=0[V]
!Freq. Start=100[MHz] Stop=3[GHz] 401[Steps]
# Hz S RI R 50
!Freq.(Hz) S11(Real) S11(Imag) S21(Real) S21(Imag) S12(Real) S12(Imag) S22(Real) S22(Imag)
100000000 0.0026991 -0.0452778 0.9973009 0.0452778 0.9973009 0.0452778 0.0026991 -0.0452778
107250000 0.0023995 -0.0418382 0.9976005 0.0418382 0.9976005 0.0418382 0.0023995 -0.0418382
114500000 0.0021554 -0.0388059 0.9978446 0.0388059 0.9978446 0.0388059 0.0021554 -0.0388059
121750000 0.0019542 -0.0361087 0.9980458 0.0361087 0.9980458 0.0361087 0.0019542 -0.0361087
129000000 0.0017865 -0.0336904 0.9982135 0.0336904 0.9982135 0.0336904 0.0017865 -0.0336904
136250000 0.0016455 -0.0315067 0.9983545 0.0315067 0.9983545 0.0315067 0.0016455 -0.0315067
143500000 0.0015259 -0.0295222 0.9984741 0.0295222 0.9984741 0.0295222 0.0015259 -0.0295222
150750000 0.0014238 -0.0277082 0.9985762 0.0277082 0.9985762 0.0277082 0.0014238 -0.0277082
158000000 0.0013360 -0.0260413 0.9986640 0.0260413 0.9986640 0.0260413 0.0013360 -0.0260413
165250000 0.0012602 -0.0245023 0.9987398 0.0245023 0.9987398 0.0245023 0.0012602 -0.0245023
172500000 0.0011945 -0.0230749 0.9988055 0.0230749 0.9988055 0.0230749 0.0011945 -0.0230749
179750000 0.0011371 -0.0217458 0.9988629 0.0217458 0.9988629 0.0217458 0.0011371 -0.0217458
187000000 0.0010870 -0.0205034 0.9989130 0.0205034 0.9989130 0.0205034 0.0010870 -0.0205034
194250000 0.0010431 -0.0193380 0.9989569 0.0193380 0.9989569 0.0193380 0.0010431 -0.0193380
201500000 0.0010045 -0.0182414 0.9989955 0.0182414 0.9989955 0.0182414 0.0010045 -0.0182414
208750000 0.0009706 -0.0172063 0.9990294 0.0172063 0.9990294 0.0172063 0.0009706 -0.0172063
216000000 0.0009407 -0.0162266 0.9990593 0.0162266 0.9990593 0.0162266 0.0009407 -0.0162266
223250000 0.0009144 -0.0152967 0.9990856 0.0152967 0.9990856 0.0152967 0.0009144 -0.0152967
230500000 0.0008912 -0.0144120 0.9991088 0.0144120 0.9991088 0.0144120 0.0008912 -0.0144120
237750000 0.0008709 -0.0135683 0.9991291 0.0135683 0.9991291 0.0135683 0.0008709 -0.0135683
245000000 0.0008530 -0.0127620 0.9991470 0.0127620 0.9991470 0.0127620 0.0008530 -0.0127620
252250000 0.0008374 -0.0119897 0.9991626 0.0119897 0.9991626 0.0119897 0.0008374 -0.0119897
259500000 0.0008238 -0.0112486 0.9991762 0.0112486 0.9991762 0.0112486 0.0008238 -0.0112486
266750000 0.0008121 -0.0105361 0.9991879 0.0105361 0.9991879 0.0105361 0.0008121 -0.0105361
274000000 0.0008020 -0.0098499 0.9991980 0.0098499 0.9991980 0.0098499 0.0008020 -0.0098499
281250000 0.0007934 -0.0091880 0.9992066 0.0091880 0.9992066 0.0091880 0.0007934 -0.0091880
288500000 0.0007863 -0.0085484 0.9992137 0.0085484 0.9992137 0.0085484 0.0007863 -0.0085484
295750000 0.0007804 -0.0079294 0.9992196 0.0079294 0.9992196 0.0079294 0.0007804 -0.0079294
303000000 0.0007757 -0.0073297 0.9992243 0.0073297 0.9992243 0.0073297 0.0007757 -0.0073297
310250000 0.0007722 -0.0067476 0.9992278 0.0067476 0.9992278 0.0067476 0.0007722 -0.0067476
317500000 0.0007696 -0.0061821 0.9992304 0.0061821 0.9992304 0.0061821 0.0007696 -0.0061821
324750000 0.0007681 -0.0056319 0.9992319 0.0056319 0.9992319 0.0056319 0.0007681 -0.0056319
332000000 0.0007674 -0.0050960 0.9992326 0.0050960 0.9992326 0.0050960 0.0007674 -0.0050960
339250000 0.0007677 -0.0045734 0.9992323 0.0045734 0.9992323 0.0045734 0.0007677 -0.0045734
346500000 0.0007687 -0.0040633 0.9992313 0.0040633 0.9992313 0.0040633 0.0007687 -0.0040633
353750000 0.0007705 -0.0035648 0.9992295 0.0035648 0.9992295 0.0035648 0.0007705 -0.0035648
361000000 0.0007731 -0.0030771 0.9992269 0.0030771 0.9992269 0.0030771 0.0007731 -0.0030771
368250000 0.0007764 -0.0025997 0.9992236 0.0025997 0.9992236 0.0025997 0.0007764 -0.0025997
375500000 0.0007804 -0.0021317 0.9992196 0.0021317 0.9992196 0.0021317 0.0007804 -0.0021317
382750000 0.0007851 -0.0016727 0.9992149 0.0016727 0.9992149 0.0016727 0.0007851 -0.0016727
390000000 0.0007904 -0.0012220 0.9992096 0.0012220 0.9992096 0.0012220 0.0007904 -0.0012220
397250000 0.0007963 -0.0007792 0.9992037 0.0007792 0.9992037 0.0007792 0.0007963 -0.0007792
404500000 0.0008029 -0.0003437 0.9991971 0.0003437 0.9991971 0.0003437 0.0008029 -0.0003437
411750000 0.0008101 0.0000849 0.9991899 -0.0000849 0.9991899 -0.0000849 0.0008101 0.0000849
419000000 0.0008179 0.0005070 0.9991821 -0.0005070 0.9991821 -0.0005070 0.0008179 0.0005070
426250000 0.0008263 0.0009230 0.9991737 -0.0009230 0.9991737 -0.0009230 0.0008263 0.0009230
433500000 0.0008353 0.0013333 0.9991647 -0.0013333 0.9991647 -0.0013333 0.0008353 0.0013333
440750000 0.0008449 0.0017383 0.9991551 -0.0017383 0.9991551 -0.0017383 0.0008449 0.0017383
448000000 0.0008551 0.0021383 0.9991449 -0.0021383 0.9991449 -0.0021383 0.0008551 0.0021383
455250000 0.0008659 0.0025336 0.9991341 -0.0025336 0.9991341 -0.0025336 0.0008659 0.0025336
462500000 0.0008773 0.0029246 0.9991227 -0.0029246 0.9991227 -0.0029246 0.0008773 0.0029246
469750000 0.0008894 0.0033115 0.9991106 -0.0033115 0.9991106 -0.0033115 0.0008894 0.0033115
477000000 0.0009020 0.0036946 0.9990980 -0.0036946 0.9990980 -0.0036946 0.0009020 0.0036946
484250000 0.0009153 0.0040741 0.9990847 -0.0040741 0.9990847 -0.0040741 0.0009153 0.0040741
491500000 0.0009292 0.0044504 0.9990708 -0.0044504 0.9990708 -0.0044504 0.0009292 0.0044504
498750000 0.0009438 0.0048237 0.9990562 -0.0048237 0.9990562 -0.0048237 0.0009438 0.0048237
506000000 0.0009591 0.0051942 0.9990409 -0.0051942 0.9990409 -0.0051942 0.0009591 0.0051942
513250000 0.0009751 0.0055622 0.9990249 -0.0055622 0.9990249 -0.0055622 0.0009751 0.0055622
520500000 0.0009918 0.0059279 0.9990082 -0.0059279 0.9990082 -0.0059279 0.0009918 0.0059279
527750000 0.0010093 0.0062914 0.9989907 -0.0062914 0.9989907 -0.0062914 0.0010093 0.0062914
535000000 0.0010276 0.0066532 0.9989724 -0.0066532 0.9989724 -0.0066532 0.0010276 0.0066532
542250000 0.0010467 0.0070132 0.9989533 -0.0070132 0.9989533 -0.0070132 0.0010467 0.0070132
549500000 0.0010667 0.0073719 0.9989333 -0.0073719 0.9989333 -0.0073719 0.0010667 0.0073719
556750000 0.0010875 0.0077293 0.9989125 -0.0077293 0.9989125 -0.0077293 0.0010875 0.0077293
564000000 0.0011094 0.0080858 0.9988906 -0.0080858 0.9988906 -0.0080858 0.0011094 0.0080858
571250000 0.0011323 0.0084415 0.9988677 -0.0084415 0.9988677 -0.0084415 0.0011323 0.0084415
578500000 0.0011562 0.0087966 0.9988438 -0.0087966 0.9988438 -0.0087966 0.0011562 0.0087966
585750000 0.0011813 0.0091514 0.9988187 -0.0091514 0.9988187 -0.0091514 0.0011813 0.0091514
593000000 0.0012076 0.0095061 0.9987924 -0.0095061 0.9987924 -0.0095061 0.0012076 0.0095061
600250000 0.0012352 0.0098610 0.9987648 -0.0098610 0.9987648 -0.0098610 0.0012352 0.0098610
607500000 0.0012642 0.0102163 0.9987358 -0.0102163 0.9987358 -0.0102163 0.0012642 0.0102163
614750000 0.0012948 0.0105722 0.9987052 -0.0105722 0.9987052 -0.0105722 0.0012948 0.0105722
622000000 0.0013270 0.0109290 0.9986730 -0.0109290 0.9986730 -0.0109290 0.0013270 0.0109290
629250000 0.0013609 0.0112870 0.9986391 -0.0112870 0.9986391 -0.0112870 0.0013609 0.0112870
636500000 0.0013968 0.0116465 0.9986032 -0.0116465 0.9986032 -0.0116465 0.0013968 0.0116465
643750000 0.0014347 0.0120078 0.9985653 -0.0120078 0.9985653 -0.0120078 0.0014347 0.0120078
651000000 0.0014750 0.0123712 0.9985250 -0.0123712 0.9985250 -0.0123712 0.0014750 0.0123712
658250000 0.0015178 0.0127371 0.9984822 -0.0127371 0.9984822 -0.0127371 0.0015178 0.0127371
665500000 0.0015634 0.0131058 0.9984366 -0.0131058 0.9984366 -0.0131058 0.0015634 0.0131058
672750000 0.0016122 0.0134778 0.9983878 -0.0134778 0.9983878 -0.0134778 0.0016122 0.0134778
680000000 0.0016643 0.0138536 0.9983357 -0.0138536 0.9983357 -0.0138536 0.0016643 0.0138536
687250000 0.0017203 0.0142335 0.9982797 -0.0142335 0.9982797 -0.0142335 0.0017203 0.0142335
694500000 0.0017806 0.0146181 0.9982194 -0.0146181 0.9982194 -0.0146181 0.0017806 0.0146181
701750000 0.0018458 0.0150080 0.9981542 -0.0150080 0.9981542 -0.0150080 0.0018458 0.0150080
709000000 0.0019165 0.0154037 0.9980835 -0.0154037 0.9980835 -0.0154037 0.0019165 0.0154037
716250000 0.0019934 0.0158061 0.9980066 -0.0158061 0.9980066 -0.0158061 0.0019934 0.0158061
723500000 0.0020775 0.0162158 0.9979225 -0.0162158 0.9979225 -0.0162158 0.0020775 0.0162158
730750000 0.0021698 0.0166336 0.9978302 -0.0166336 0.9978302 -0.0166336 0.0021698 0.0166336
738000000 0.0022717 0.0170605 0.9977283 -0.0170605 0.9977283 -0.0170605 0.0022717 0.0170605
745250000 0.0023845 0.0174975 0.9976155 -0.0174975 0.9976155 -0.0174975 0.0023845 0.0174975
752500000 0.0025103 0.0179455 0.9974897 -0.0179455 0.9974897 -0.0179455 0.0025103 0.0179455
759750000 0.0026513 0.0184058 0.9973487 -0.0184058 0.9973487 -0.0184058 0.0026513 0.0184058
767000000 0.0028103 0.0188796 0.9971897 -0.0188796 0.9971897 -0.0188796 0.0028103 0.0188796
774250000 0.0029908 0.0193681 0.9970092 -0.0193681 0.9970092 -0.0193681 0.0029908 0.0193681
781500000 0.0031970 0.0198725 0.9968030 -0.0198725 0.9968030 -0.0198725 0.0031970 0.0198725
788750000 0.0034343 0.0203941 0.9965657 -0.0203941 0.9965657 -0.0203941 0.0034343 0.0203941
796000000 0.0037096 0.0209336 0.9962904 -0.0209336 0.9962904 -0.0209336 0.0037096 0.0209336
803250000 0.0040312 0.0214913 0.9959688 -0.0214913 0.9959688 -0.0214913 0.0040312 0.0214913
810500000 0.0044101 0.0220664 0.9955899 -0.0220664 0.9955899 -0.0220664 0.0044101 0.0220664
817750000 0.0048597 0.0226564 0.9951403 -0.0226564 0.9951403 -0.0226564 0.0048597 0.0226564
825000000 0.0053974 0.0232557 0.9946026 -0.0232557 0.9946026 -0.0232557 0.0053974 0.0232557
832250000 0.0060443 0.0238535 0.9939557 -0.0238535 0.9939557 -0.0238535 0.0060443 0.0238535
839500000 0.0068259 0.0244308 0.9931741 -0.0244308 0.9931741 -0.0244308 0.0068259 0.0244308
846750000 0.0077707 0.0249556 0.9922293 -0.0249556 0.9922293 -0.0249556 0.0077707 0.0249556
854000000 0.0089067 0.0253761 0.9910933 -0.0253761 0.9910933 -0.0253761 0.0089067 0.0253761
861250000 0.0102514 0.0256128 0.9897486 -0.0256128 0.9897486 -0.0256128 0.0102514 0.0256128
868500000 0.0117929 0.0255539 0.9882071 -0.0255539 0.9882071 -0.0255539 0.0117929 0.0255539
875750000 0.0134586 0.0250619 0.9865414 -0.0250619 0.9865414 -0.0250619 0.0134586 0.0250619
883000000 0.0150802 0.0240117 0.9849198 -0.0240117 0.9849198 -0.0240117 0.0150802 0.0240117
890250000 0.0163865 0.0223678 0.9836135 -0.0223678 0.9836135 -0.0223678 0.0163865 0.0223678
897500000 0.0170746 0.0202737 0.9829254 -0.0202737 0.9829254 -0.0202737 0.0170746 0.0202737
904750000 0.0169590 0.0180600 0.9830410 -0.0180600 0.9830410 -0.0180600 0.0169590 0.0180600
912000000 0.0160900 0.0161140 0.9839100 -0.0161140 0.9839100 -0.0161140 0.0160900 0.0161140
919250000 0.0147190 0.0146983 0.9852810 -0.0146983 0.9852810 -0.0146983 0.0147190 0.0146983
926500000 0.0131494 0.0138769 0.9868506 -0.0138769 0.9868506 -0.0138769 0.0131494 0.0138769
933750000 0.0116130 0.0135680 0.9883870 -0.0135680 0.9883870 -0.0135680 0.0116130 0.0135680
941000000 0.0102360 0.0136361 0.9897640 -0.0136361 0.9897640 -0.0136361 0.0102360 0.0136361
948250000 0.0090629 0.0139531 0.9909371 -0.0139531 0.9909371 -0.0139531 0.0090629 0.0139531
955500000 0.0080916 0.0144211 0.9919084 -0.0144211 0.9919084 -0.0144211 0.0080916 0.0144211
962750000 0.0072996 0.0149729 0.9927004 -0.0149729 0.9927004 -0.0149729 0.0072996 0.0149729
970000000 0.0066589 0.0155659 0.9933411 -0.0155659 0.9933411 -0.0155659 0.0066589 0.0155659
977250000 0.0061424 0.0161736 0.9938576 -0.0161736 0.9938576 -0.0161736 0.0061424 0.0161736
984500000 0.0057270 0.0167809 0.9942730 -0.0167809 0.9942730 -0.0167809 0.0057270 0.0167809
991750000 0.0053935 0.0173791 0.9946065 -0.0173791 0.9946065 -0.0173791 0.0053935 0.0173791
999000000 0.0051265 0.0179640 0.9948735 -0.0179640 0.9948735 -0.0179640 0.0051265 0.0179640
1006250000 0.0049139 0.0185336 0.9950861 -0.0185336 0.9950861 -0.0185336 0.0049139 0.0185336
1013500000 0.0047461 0.0190877 0.9952539 -0.0190877 0.9952539 -0.0190877 0.0047461 0.0190877
1020750000 0.0046157 0.0196267 0.9953843 -0.0196267 0.9953843 -0.0196267 0.0046157 0.0196267
1028000000 0.0045166 0.0201515 0.9954834 -0.0201515 0.9954834 -0.0201515 0.0045166 0.0201515
1035250000 0.0044442 0.0206633 0.9955558 -0.0206633 0.9955558 -0.0206633 0.0044442 0.0206633
1042500000 0.0043948 0.0211633 0.9956052 -0.0211633 0.9956052 -0.0211633 0.0043948 0.0211633
1049750000 0.0043654 0.0216528 0.9956346 -0.0216528 0.9956346 -0.0216528 0.0043654 0.0216528
1057000000 0.0043538 0.0221329 0.9956462 -0.0221329 0.9956462 -0.0221329 0.0043538 0.0221329
1064250000 0.0043581 0.0226048 0.9956419 -0.0226048 0.9956419 -0.0226048 0.0043581 0.0226048
1071500000 0.0043769 0.0230695 0.9956231 -0.0230695 0.9956231 -0.0230695 0.0043769 0.0230695
1078750000 0.0044091 0.0235280 0.9955909 -0.0235280 0.9955909 -0.0235280 0.0044091 0.0235280
1086000000 0.0044538 0.0239813 0.9955462 -0.0239813 0.9955462 -0.0239813 0.0044538 0.0239813
1093250000 0.0045105 0.0244300 0.9954895 -0.0244300 0.9954895 -0.0244300 0.0045105 0.0244300
1100500000 0.0045788 0.0248750 0.9954212 -0.0248750 0.9954212 -0.0248750 0.0045788 0.0248750
1107750000 0.0046583 0.0253168 0.9953417 -0.0253168 0.9953417 -0.0253168 0.0046583 0.0253168
1115000000 0.0047489 0.0257562 0.9952511 -0.0257562 0.9952511 -0.0257562 0.0047489 0.0257562
1122250000 0.0048508 0.0261937 0.9951492 -0.0261937 0.9951492 -0.0261937 0.0048508 0.0261937
1129500000 0.0049641 0.0266297 0.9950359 -0.0266297 0.9950359 -0.0266297 0.0049641 0.0266297
1136750000 0.0050889 0.0270646 0.9949111 -0.0270646 0.9949111 -0.0270646 0.0050889 0.0270646
1144000000 0.0052258 0.0274989 0.9947742 -0.0274989 0.9947742 -0.0274989 0.0052258 0.0274989
1151250000 0.0053752 0.0279328 0.9946248 -0.0279328 0.9946248 -0.0279328 0.0053752 0.0279328
1158500000 0.0055377 0.0283665 0.9944623 -0.0283665 0.9944623 -0.0283665 0.0055377 0.0283665
1165750000 0.0057140 0.0288003 0.9942860 -0.0288003 0.9942860 -0.0288003 0.0057140 0.0288003
1173000000 0.0059049 0.0292341 0.9940951 -0.0292341 0.9940951 -0.0292341 0.0059049 0.0292341
1180250000 0.0061114 0.0296680 0.9938886 -0.0296680 0.9938886 -0.0296680 0.0061114 0.0296680
1187500000 0.0063346 0.0301019 0.9936654 -0.0301019 0.9936654 -0.0301019 0.0063346 0.0301019
1194750000 0.0065756 0.0305356 0.9934244 -0.0305356 0.9934244 -0.0305356 0.0065756 0.0305356
1202000000 0.0068358 0.0309686 0.9931642 -0.0309686 0.9931642 -0.0309686 0.0068358 0.0309686
1209250000 0.0071165 0.0314004 0.9928835 -0.0314004 0.9928835 -0.0314004 0.0071165 0.0314004
1216500000 0.0074195 0.0318303 0.9925805 -0.0318303 0.9925805 -0.0318303 0.0074195 0.0318303
1223750000 0.0077464 0.0322573 0.9922536 -0.0322573 0.9922536 -0.0322573 0.0077464 0.0322573
1231000000 0.0080992 0.0326801 0.9919008 -0.0326801 0.9919008 -0.0326801 0.0080992 0.0326801
1238250000 0.0084797 0.0330973 0.9915203 -0.0330973 0.9915203 -0.0330973 0.0084797 0.0330973
1245500000 0.0088901 0.0335069 0.9911099 -0.0335069 0.9911099 -0.0335069 0.0088901 0.0335069
1252750000 0.0093326 0.0339063 0.9906674 -0.0339063 0.9906674 -0.0339063 0.0093326 0.0339063
1260000000 0.0098094 0.0342928 0.9901906 -0.0342928 0.9901906 -0.0342928 0.0098094 0.0342928
1267250000 0.0103227 0.0346628 0.9896773 -0.0346628 0.9896773 -0.0346628 0.0103227 0.0346628
1274500000 0.0108746 0.0350119 0.9891254 -0.0350119 0.9891254 -0.0350119 0.0108746 0.0350119
1281750000 0.0114669 0.0353353 0.9885331 -0.0353353 0.9885331 -0.0353353 0.0114669 0.0353353
1289000000 0.0121011 0.0356268 0.9878989 -0.0356268 0.9878989 -0.0356268 0.0121011 0.0356268
1296250000 0.0127780 0.0358797 0.9872220 -0.0358797 0.9872220 -0.0358797 0.0127780 0.0358797
1303500000 0.0134977 0.0360860 0.9865023 -0.0360860 0.9865023 -0.0360860 0.0134977 0.0360860
1310750000 0.0142590 0.0362369 0.9857410 -0.0362369 0.9857410 -0.0362369 0.0142590 0.0362369
1318000000 0.0150592 0.0363225 0.9849408 -0.0363225 0.9849408 -0.0363225 0.0150592 0.0363225
1325250000 0.0158935 0.0363322 0.9841065 -0.0363322 0.9841065 -0.0363322 0.0158935 0.0363322
1332500000 0.0167548 0.0362553 0.9832452 -0.0362553 0.9832452 -0.0362553 0.0167548 0.0362553
1339750000 0.0176331 0.0360808 0.9823669 -0.0360808 0.9823669 -0.0360808 0.0176331 0.0360808
1347000000 0.0185152 0.0357988 0.9814848 -0.0357988 0.9814848 -0.0357988 0.0185152 0.0357988
1354250000 0.0193845 0.0354013 0.9806155 -0.0354013 0.9806155 -0.0354013 0.0193845 0.0354013
1361500000 0.0202213 0.0348830 0.9797787 -0.0348830 0.9797787 -0.0348830 0.0202213 0.0348830
1368750000 0.0210032 0.0342429 0.9789968 -0.0342429 0.9789968 -0.0342429 0.0210032 0.0342429
1376000000 0.0217060 0.0334851 0.9782940 -0.0334851 0.9782940 -0.0334851 0.0217060 0.0334851
1383250000 0.0223056 0.0326198 0.9776944 -0.0326198 0.9776944 -0.0326198 0.0223056 0.0326198
1390500000 0.0227791 0.0316636 0.9772209 -0.0316636 0.9772209 -0.0316636 0.0227791 0.0316636
1397750000 0.0231078 0.0306390 0.9768922 -0.0306390 0.9768922 -0.0306390 0.0231078 0.0306390
1405000000 0.0232784 0.0295736 0.9767216 -0.0295736 0.9767216 -0.0295736 0.0232784 0.0295736
1412250000 0.0232848 0.0284977 0.9767152 -0.0284977 0.9767152 -0.0284977 0.0232848 0.0284977
1419500000 0.0231285 0.0274424 0.9768715 -0.0274424 0.9768715 -0.0274424 0.0231285 0.0274424
1426750000 0.0228186 0.0264371 0.9771814 -0.0264371 0.9771814 -0.0264371 0.0228186 0.0264371
1434000000 0.0223710 0.0255074 0.9776290 -0.0255074 0.9776290 -0.0255074 0.0223710 0.0255074
1441250000 0.0218059 0.0246733 0.9781941 -0.0246733 0.9781941 -0.0246733 0.0218059 0.0246733
1448500000 0.0211468 0.0239487 0.9788532 -0.0239487 0.9788532 -0.0239487 0.0211468 0.0239487
1455750000 0.0204176 0.0233412 0.9795824 -0.0233412 0.9795824 -0.0233412 0.0204176 0.0233412
1463000000 0.0196416 0.0228528 0.9803584 -0.0228528 0.9803584 -0.0228528 0.0196416 0.0228528
1470250000 0.0188400 0.0224809 0.9811600 -0.0224809 0.9811600 -0.0224809 0.0188400 0.0224809
1477500000 0.0180309 0.0222190 0.9819691 -0.0222190 0.9819691 -0.0222190 0.0180309 0.0222190
1484750000 0.0172294 0.0220585 0.9827706 -0.0220585 0.9827706 -0.0220585 0.0172294 0.0220585
1492000000 0.0164472 0.0219895 0.9835528 -0.0219895 0.9835528 -0.0219895 0.0164472 0.0219895
1499250000 0.0156930 0.0220011 0.9843070 -0.0220011 0.9843070 -0.0220011 0.0156930 0.0220011
1506500000 0.0149731 0.0220830 0.9850269 -0.0220830 0.9850269 -0.0220830 0.0149731 0.0220830
1513750000 0.0142913 0.0222251 0.9857087 -0.0222251 0.9857087 -0.0222251 0.0142913 0.0222251
1521000000 0.0136498 0.0224181 0.9863502 -0.0224181 0.9863502 -0.0224181 0.0136498 0.0224181
1528250000 0.0130494 0.0226536 0.9869506 -0.0226536 0.9869506 -0.0226536 0.0130494 0.0226536
1535500000 0.0124900 0.0229244 0.9875100 -0.0229244 0.9875100 -0.0229244 0.0124900 0.0229244
1542750000 0.0119704 0.0232240 0.9880296 -0.0232240 0.9880296 -0.0232240 0.0119704 0.0232240
1550000000 0.0114893 0.0235467 0.9885107 -0.0235467 0.9885107 -0.0235467 0.0114893 0.0235467
1557250000 0.0110448 0.0238880 0.9889552 -0.0238880 0.9889552 -0.0238880 0.0110448 0.0238880
1564500000 0.0106348 0.0242438 0.9893652 -0.0242438 0.9893652 -0.0242438 0.0106348 0.0242438
1571750000 0.0102574 0.0246108 0.9897426 -0.0246108 0.9897426 -0.0246108 0.0102574 0.0246108
1579000000 0.0099103 0.0249861 0.9900897 -0.0249861 0.9900897 -0.0249861 0.0099103 0.0249861
1586250000 0.0095916 0.0253675 0.9904084 -0.0253675 0.9904084 -0.0253675 0.0095916 0.0253675
1593500000 0.0092992 0.0257531 0.9907008 -0.0257531 0.9907008 -0.0257531 0.0092992 0.0257531
1600750000 0.0090312 0.0261412 0.9909688 -0.0261412 0.9909688 -0.0261412 0.0090312 0.0261412
1608000000 0.0087859 0.0265306 0.9912141 -0.0265306 0.9912141 -0.0265306 0.0087859 0.0265306
1615250000 0.0085615 0.0269204 0.9914385 -0.0269204 0.9914385 -0.0269204 0.0085615 0.0269204
1622500000 0.0083566 0.0273096 0.9916434 -0.0273096 0.9916434 -0.0273096 0.0083566 0.0273096
1629750000 0.0081697 0.0276976 0.9918303 -0.0276976 0.9918303 -0.0276976 0.0081697 0.0276976
