!Murata Part Number: GRM2165C2A682GA01
!These Parameters are Measured in Series Mode Connection
!Data Generated on Mar 30, 2021
!       o--ll--o
!Port1            Port2
!       o------o
!Operation Temp=25[degC], DC Bias Voltage=0[V]
!Freq. Start=1000[kHz] Stop=6[GHz] 401[Steps]
# Hz S RI R 50
!Freq.(Hz) S11(Real) S11(Imag) S21(Real) S21(Imag) S12(Real) S12(Imag) S22(Real) S22(Imag)
1000000 0.0533385 -0.2245380 0.9466615 0.2245380 0.9466615 0.2245380 0.0533385 -0.2245380
1021987 0.0511869 -0.2202047 0.9488131 0.2202047 0.9488131 0.2202047 0.0511869 -0.2202047
1044457 0.0491177 -0.2159352 0.9508823 0.2159352 0.9508823 0.2159352 0.0491177 -0.2159352
1067422 0.0471281 -0.2117296 0.9528719 0.2117296 0.9528719 0.2117296 0.0471281 -0.2117296
1090891 0.0452154 -0.2075883 0.9547846 0.2075883 0.9547846 0.2075883 0.0452154 -0.2075883
1114877 0.0433770 -0.2035113 0.9566230 0.2035113 0.9566230 0.2035113 0.0433770 -0.2035113
1139390 0.0416101 -0.1994986 0.9583899 0.1994986 0.9583899 0.1994986 0.0416101 -0.1994986
1164441 0.0399124 -0.1955503 0.9600876 0.1955503 0.9600876 0.1955503 0.0399124 -0.1955503
1190044 0.0382814 -0.1916661 0.9617186 0.1916661 0.9617186 0.1916661 0.0382814 -0.1916661
1216210 0.0367145 -0.1878459 0.9632855 0.1878459 0.9632855 0.1878459 0.0367145 -0.1878459
1242950 0.0352097 -0.1840895 0.9647903 0.1840895 0.9647903 0.1840895 0.0352097 -0.1840895
1270279 0.0337644 -0.1803965 0.9662356 0.1803965 0.9662356 0.1803965 0.0337644 -0.1803965
1298209 0.0323767 -0.1767667 0.9676233 0.1767667 0.9676233 0.1767667 0.0323767 -0.1767667
1326753 0.0310443 -0.1731995 0.9689557 0.1731995 0.9689557 0.1731995 0.0310443 -0.1731995
1355924 0.0297652 -0.1696946 0.9702348 0.1696946 0.9702348 0.1696946 0.0297652 -0.1696946
1385737 0.0285374 -0.1662515 0.9714626 0.1662515 0.9714626 0.1662515 0.0285374 -0.1662515
1416205 0.0273590 -0.1628696 0.9726410 0.1628696 0.9726410 0.1628696 0.0273590 -0.1628696
1447343 0.0262281 -0.1595484 0.9737719 0.1595484 0.9737719 0.1595484 0.0262281 -0.1595484
1479166 0.0251429 -0.1562873 0.9748571 0.1562873 0.9748571 0.1562873 0.0251429 -0.1562873
1511688 0.0241017 -0.1530857 0.9758983 0.1530857 0.9758983 0.1530857 0.0241017 -0.1530857
1544926 0.0231027 -0.1499429 0.9768973 0.1499429 0.9768973 0.1499429 0.0231027 -0.1499429
1578894 0.0221443 -0.1468583 0.9778557 0.1468583 0.9778557 0.1468583 0.0221443 -0.1468583
1613609 0.0212250 -0.1438312 0.9787750 0.1438312 0.9787750 0.1438312 0.0212250 -0.1438312
1649087 0.0203432 -0.1408609 0.9796568 0.1408609 0.9796568 0.1408609 0.0203432 -0.1408609
1685346 0.0194975 -0.1379466 0.9805025 0.1379466 0.9805025 0.1379466 0.0194975 -0.1379466
1722402 0.0186864 -0.1350876 0.9813136 0.1350876 0.9813136 0.1350876 0.0186864 -0.1350876
1760272 0.0179087 -0.1322832 0.9820913 0.1322832 0.9820913 0.1322832 0.0179087 -0.1322832
1798975 0.0171629 -0.1295326 0.9828371 0.1295326 0.9828371 0.1295326 0.0171629 -0.1295326
1838529 0.0164478 -0.1268351 0.9835522 0.1268351 0.9835522 0.1268351 0.0164478 -0.1268351
1878953 0.0157622 -0.1241899 0.9842378 0.1241899 0.9842378 0.1241899 0.0157622 -0.1241899
1920266 0.0151049 -0.1215961 0.9848951 0.1215961 0.9848951 0.1215961 0.0151049 -0.1215961
1962487 0.0144748 -0.1190531 0.9855252 0.1190531 0.9855252 0.1190531 0.0144748 -0.1190531
2005636 0.0138708 -0.1165601 0.9861292 0.1165601 0.9861292 0.1165601 0.0138708 -0.1165601
2049734 0.0132918 -0.1141161 0.9867082 0.1141161 0.9867082 0.1141161 0.0132918 -0.1141161
2094801 0.0127368 -0.1117206 0.9872632 0.1117206 0.9872632 0.1117206 0.0127368 -0.1117206
2140860 0.0122049 -0.1093726 0.9877951 0.1093726 0.9877951 0.1093726 0.0122049 -0.1093726
2187931 0.0116952 -0.1070714 0.9883048 0.1070714 0.9883048 0.1070714 0.0116952 -0.1070714
2236037 0.0112066 -0.1048162 0.9887934 0.1048162 0.9887934 0.1048162 0.0112066 -0.1048162
2285201 0.0107384 -0.1026063 0.9892616 0.1026063 0.9892616 0.1026063 0.0107384 -0.1026063
2335446 0.0102898 -0.1004408 0.9897102 0.1004408 0.9897102 0.1004408 0.0102898 -0.1004408
2386795 0.0098598 -0.0983190 0.9901402 0.0983190 0.9901402 0.0983190 0.0098598 -0.0983190
2439274 0.0094479 -0.0962401 0.9905521 0.0962401 0.9905521 0.0962401 0.0094479 -0.0962401
2492906 0.0090532 -0.0942034 0.9909468 0.0942034 0.9909468 0.0942034 0.0090532 -0.0942034
2547717 0.0086750 -0.0922081 0.9913250 0.0922081 0.9913250 0.0922081 0.0086750 -0.0922081
2603734 0.0083126 -0.0902535 0.9916874 0.0902535 0.9916874 0.0902535 0.0083126 -0.0902535
2660982 0.0079654 -0.0883387 0.9920346 0.0883387 0.9920346 0.0883387 0.0079654 -0.0883387
2719490 0.0076328 -0.0864632 0.9923672 0.0864632 0.9923672 0.0864632 0.0076328 -0.0864632
2779283 0.0073142 -0.0846261 0.9926858 0.0846261 0.9926858 0.0846261 0.0073142 -0.0846261
2840391 0.0070089 -0.0828268 0.9929911 0.0828268 0.9929911 0.0828268 0.0070089 -0.0828268
2902843 0.0067165 -0.0810645 0.9932835 0.0810645 0.9932835 0.0810645 0.0067165 -0.0810645
2966668 0.0064364 -0.0793385 0.9935636 0.0793385 0.9935636 0.0793385 0.0064364 -0.0793385
3031896 0.0061681 -0.0776482 0.9938319 0.0776482 0.9938319 0.0776482 0.0061681 -0.0776482
3098558 0.0059110 -0.0759929 0.9940890 0.0759929 0.9940890 0.0759929 0.0059110 -0.0759929
3166686 0.0056648 -0.0743718 0.9943352 0.0743718 0.9943352 0.0743718 0.0056648 -0.0743718
3236312 0.0054290 -0.0727844 0.9945710 0.0727844 0.9945710 0.0727844 0.0054290 -0.0727844
3307469 0.0052031 -0.0712300 0.9947969 0.0712300 0.9947969 0.0712300 0.0052031 -0.0712300
3380190 0.0049868 -0.0697079 0.9950132 0.0697079 0.9950132 0.0697079 0.0049868 -0.0697079
3454511 0.0047796 -0.0682175 0.9952204 0.0682175 0.9952204 0.0682175 0.0047796 -0.0682175
3530465 0.0045811 -0.0667582 0.9954189 0.0667582 0.9954189 0.0667582 0.0045811 -0.0667582
3608090 0.0043910 -0.0653293 0.9956090 0.0653293 0.9956090 0.0653293 0.0043910 -0.0653293
3687421 0.0042090 -0.0639303 0.9957910 0.0639303 0.9957910 0.0639303 0.0042090 -0.0639303
3768496 0.0040346 -0.0625605 0.9959654 0.0625605 0.9959654 0.0625605 0.0040346 -0.0625605
3851354 0.0038676 -0.0612194 0.9961324 0.0612194 0.9961324 0.0612194 0.0038676 -0.0612194
3936034 0.0037077 -0.0599064 0.9962923 0.0599064 0.9962923 0.0599064 0.0037077 -0.0599064
4022575 0.0035546 -0.0586210 0.9964454 0.0586210 0.9964454 0.0586210 0.0035546 -0.0586210
4111020 0.0034079 -0.0573625 0.9965921 0.0573625 0.9965921 0.0573625 0.0034079 -0.0573625
4201409 0.0032675 -0.0561304 0.9967325 0.0561304 0.9967325 0.0561304 0.0032675 -0.0561304
4293785 0.0031330 -0.0549242 0.9968670 0.0549242 0.9968670 0.0549242 0.0031330 -0.0549242
4388193 0.0030042 -0.0537434 0.9969958 0.0537434 0.9969958 0.0537434 0.0030042 -0.0537434
4484676 0.0028808 -0.0525874 0.9971192 0.0525874 0.9971192 0.0525874 0.0028808 -0.0525874
4583281 0.0027627 -0.0514558 0.9972373 0.0514558 0.9972373 0.0514558 0.0027627 -0.0514558
4684054 0.0026497 -0.0503479 0.9973503 0.0503479 0.9973503 0.0503479 0.0026497 -0.0503479
4787042 0.0025414 -0.0492635 0.9974586 0.0492635 0.9974586 0.0492635 0.0025414 -0.0492635
4892295 0.0024377 -0.0482018 0.9975623 0.0482018 0.9975623 0.0482018 0.0024377 -0.0482018
4999862 0.0023384 -0.0471626 0.9976616 0.0471626 0.9976616 0.0471626 0.0023384 -0.0471626
5109794 0.0022433 -0.0461452 0.9977567 0.0461452 0.9977567 0.0461452 0.0022433 -0.0461452
5222143 0.0021523 -0.0451494 0.9978477 0.0451494 0.9978477 0.0451494 0.0021523 -0.0451494
5336962 0.0020651 -0.0441745 0.9979349 0.0441745 0.9979349 0.0441745 0.0020651 -0.0441745
5454306 0.0019817 -0.0432202 0.9980183 0.0432202 0.9980183 0.0432202 0.0019817 -0.0432202
5574230 0.0019018 -0.0422860 0.9980982 0.0422860 0.9980982 0.0422860 0.0019018 -0.0422860
5696791 0.0018253 -0.0413716 0.9981747 0.0413716 0.9981747 0.0413716 0.0018253 -0.0413716
5822046 0.0017521 -0.0404765 0.9982479 0.0404765 0.9982479 0.0404765 0.0017521 -0.0404765
5950055 0.0016820 -0.0396002 0.9983180 0.0396002 0.9983180 0.0396002 0.0016820 -0.0396002
6080879 0.0016148 -0.0387425 0.9983852 0.0387425 0.9983852 0.0387425 0.0016148 -0.0387425
6214580 0.0015506 -0.0379029 0.9984494 0.0379029 0.9984494 0.0379029 0.0015506 -0.0379029
6351220 0.0014890 -0.0370810 0.9985110 0.0370810 0.9985110 0.0370810 0.0014890 -0.0370810
6490864 0.0014301 -0.0362764 0.9985699 0.0362764 0.9985699 0.0362764 0.0014301 -0.0362764
6633579 0.0013738 -0.0354889 0.9986262 0.0354889 0.9986262 0.0354889 0.0013738 -0.0354889
6779431 0.0013198 -0.0347179 0.9986802 0.0347179 0.9986802 0.0347179 0.0013198 -0.0347179
6928491 0.0012681 -0.0339632 0.9987319 0.0339632 0.9987319 0.0339632 0.0012681 -0.0339632
7080828 0.0012187 -0.0332245 0.9987813 0.0332245 0.9987813 0.0332245 0.0012187 -0.0332245
7236514 0.0011714 -0.0325013 0.9988286 0.0325013 0.9988286 0.0325013 0.0011714 -0.0325013
7395623 0.0011261 -0.0317934 0.9988739 0.0317934 0.9988739 0.0317934 0.0011261 -0.0317934
7558231 0.0010827 -0.0311003 0.9989173 0.0311003 0.9989173 0.0311003 0.0010827 -0.0311003
7724414 0.0010412 -0.0304219 0.9989588 0.0304219 0.9989588 0.0304219 0.0010412 -0.0304219
7894251 0.0010015 -0.0297578 0.9989985 0.0297578 0.9989985 0.0297578 0.0010015 -0.0297578
8067822 0.0009635 -0.0291077 0.9990365 0.0291077 0.9990365 0.0291077 0.0009635 -0.0291077
8245209 0.0009271 -0.0284712 0.9990729 0.0284712 0.9990729 0.0284712 0.0009271 -0.0284712
8426497 0.0008923 -0.0278481 0.9991077 0.0278481 0.9991077 0.0278481 0.0008923 -0.0278481
8611770 0.0008590 -0.0272381 0.9991410 0.0272381 0.9991410 0.0272381 0.0008590 -0.0272381
8801117 0.0008272 -0.0266410 0.9991728 0.0266410 0.9991728 0.0266410 0.0008272 -0.0266410
8994628 0.0007967 -0.0260563 0.9992033 0.0260563 0.9992033 0.0260563 0.0007967 -0.0260563
9192393 0.0007675 -0.0254839 0.9992325 0.0254839 0.9992325 0.0254839 0.0007675 -0.0254839
9394506 0.0007397 -0.0249236 0.9992603 0.0249236 0.9992603 0.0249236 0.0007397 -0.0249236
9601063 0.0007130 -0.0243749 0.9992870 0.0243749 0.9992870 0.0243749 0.0007130 -0.0243749
9812162 0.0006875 -0.0238378 0.9993125 0.0238378 0.9993125 0.0238378 0.0006875 -0.0238378
10027902 0.0006631 -0.0233118 0.9993369 0.0233118 0.9993369 0.0233118 0.0006631 -0.0233118
10248386 0.0006398 -0.0227969 0.9993602 0.0227969 0.9993602 0.0227969 0.0006398 -0.0227969
10473717 0.0006175 -0.0222927 0.9993825 0.0222927 0.9993825 0.0222927 0.0006175 -0.0222927
10704003 0.0005961 -0.0217990 0.9994039 0.0217990 0.9994039 0.0217990 0.0005961 -0.0217990
10939352 0.0005758 -0.0213156 0.9994242 0.0213156 0.9994242 0.0213156 0.0005758 -0.0213156
11179876 0.0005563 -0.0208423 0.9994437 0.0208423 0.9994437 0.0208423 0.0005563 -0.0208423
11425688 0.0005377 -0.0203788 0.9994623 0.0203788 0.9994623 0.0203788 0.0005377 -0.0203788
11676904 0.0005199 -0.0199249 0.9994801 0.0199249 0.9994801 0.0199249 0.0005199 -0.0199249
11933645 0.0005029 -0.0194804 0.9994971 0.0194804 0.9994971 0.0194804 0.0005029 -0.0194804
12196030 0.0004867 -0.0190451 0.9995133 0.0190451 0.9995133 0.0190451 0.0004867 -0.0190451
12464184 0.0004712 -0.0186188 0.9995288 0.0186188 0.9995288 0.0186188 0.0004712 -0.0186188
12738235 0.0004564 -0.0182013 0.9995436 0.0182013 0.9995436 0.0182013 0.0004564 -0.0182013
13018310 0.0004423 -0.0177924 0.9995577 0.0177924 0.9995577 0.0177924 0.0004423 -0.0177924
13304544 0.0004289 -0.0173919 0.9995711 0.0173919 0.9995711 0.0173919 0.0004289 -0.0173919
13597071 0.0004160 -0.0169996 0.9995840 0.0169996 0.9995840 0.0169996 0.0004160 -0.0169996
13896030 0.0004038 -0.0166154 0.9995962 0.0166154 0.9995962 0.0166154 0.0004038 -0.0166154
14201563 0.0003921 -0.0162390 0.9996079 0.0162390 0.9996079 0.0162390 0.0003921 -0.0162390
14513813 0.0003810 -0.0158703 0.9996190 0.0158703 0.9996190 0.0158703 0.0003810 -0.0158703
14832928 0.0003704 -0.0155091 0.9996296 0.0155091 0.9996296 0.0155091 0.0003704 -0.0155091
15159060 0.0003603 -0.0151553 0.9996397 0.0151553 0.9996397 0.0151553 0.0003603 -0.0151553
15492362 0.0003507 -0.0148086 0.9996493 0.0148086 0.9996493 0.0148086 0.0003507 -0.0148086
15832993 0.0003416 -0.0144690 0.9996584 0.0144690 0.9996584 0.0144690 0.0003416 -0.0144690
16181113 0.0003329 -0.0141362 0.9996671 0.0141362 0.9996671 0.0141362 0.0003329 -0.0141362
16536888 0.0003246 -0.0138101 0.9996754 0.0138101 0.9996754 0.0138101 0.0003246 -0.0138101
16900485 0.0003168 -0.0134906 0.9996832 0.0134906 0.9996832 0.0134906 0.0003168 -0.0134906
17272076 0.0003093 -0.0131774 0.9996907 0.0131774 0.9996907 0.0131774 0.0003093 -0.0131774
17651837 0.0003023 -0.0128705 0.9996977 0.0128705 0.9996977 0.0128705 0.0003023 -0.0128705
18039948 0.0002956 -0.0125697 0.9997044 0.0125697 0.9997044 0.0125697 0.0002956 -0.0125697
18436593 0.0002892 -0.0122749 0.9997108 0.0122749 0.9997108 0.0122749 0.0002892 -0.0122749
18841959 0.0002832 -0.0119859 0.9997168 0.0119859 0.9997168 0.0119859 0.0002832 -0.0119859
19256237 0.0002776 -0.0117026 0.9997224 0.0117026 0.9997224 0.0117026 0.0002776 -0.0117026
19679624 0.0002722 -0.0114249 0.9997278 0.0114249 0.9997278 0.0114249 0.0002722 -0.0114249
20112321 0.0002672 -0.0111526 0.9997328 0.0111526 0.9997328 0.0111526 0.0002672 -0.0111526
20554530 0.0002624 -0.0108856 0.9997376 0.0108856 0.9997376 0.0108856 0.0002624 -0.0108856
21006463 0.0002579 -0.0106238 0.9997421 0.0106238 0.9997421 0.0106238 0.0002579 -0.0106238
21468333 0.0002537 -0.0103670 0.9997463 0.0103670 0.9997463 0.0103670 0.0002537 -0.0103670
21940357 0.0002498 -0.0101152 0.9997502 0.0101152 0.9997502 0.0101152 0.0002498 -0.0101152
22422760 0.0002461 -0.0098682 0.9997539 0.0098682 0.9997539 0.0098682 0.0002461 -0.0098682
22915770 0.0002426 -0.0096259 0.9997574 0.0096259 0.9997574 0.0096259 0.0002426 -0.0096259
23419619 0.0002394 -0.0093882 0.9997606 0.0093882 0.9997606 0.0093882 0.0002394 -0.0093882
23934547 0.0002363 -0.0091550 0.9997637 0.0091550 0.9997637 0.0091550 0.0002363 -0.0091550
24460796 0.0002335 -0.0089261 0.9997665 0.0089261 0.9997665 0.0089261 0.0002335 -0.0089261
24998616 0.0002309 -0.0087016 0.9997691 0.0087016 0.9997691 0.0087016 0.0002309 -0.0087016
25548261 0.0002286 -0.0084812 0.9997714 0.0084812 0.9997714 0.0084812 0.0002286 -0.0084812
26109991 0.0002263 -0.0082648 0.9997737 0.0082648 0.9997737 0.0082648 0.0002263 -0.0082648
26684072 0.0002243 -0.0080524 0.9997757 0.0080524 0.9997757 0.0080524 0.0002243 -0.0080524
27270775 0.0002225 -0.0078439 0.9997775 0.0078439 0.9997775 0.0078439 0.0002225 -0.0078439
27870378 0.0002208 -0.0076391 0.9997792 0.0076391 0.9997792 0.0076391 0.0002208 -0.0076391
28483164 0.0002193 -0.0074380 0.9997807 0.0074380 0.9997807 0.0074380 0.0002193 -0.0074380
29109424 0.0002179 -0.0072404 0.9997821 0.0072404 0.9997821 0.0072404 0.0002179 -0.0072404
29749453 0.0002167 -0.0070464 0.9997833 0.0070464 0.9997833 0.0070464 0.0002167 -0.0070464
30403555 0.0002156 -0.0068557 0.9997844 0.0068557 0.9997844 0.0068557 0.0002156 -0.0068557
31072038 0.0002147 -0.0066683 0.9997853 0.0066683 0.9997853 0.0066683 0.0002147 -0.0066683
31755220 0.0002139 -0.0064841 0.9997861 0.0064841 0.9997861 0.0064841 0.0002139 -0.0064841
32453422 0.0002132 -0.0063031 0.9997868 0.0063031 0.9997868 0.0063031 0.0002132 -0.0063031
33166976 0.0002126 -0.0061251 0.9997874 0.0061251 0.9997874 0.0061251 0.0002126 -0.0061251
33896219 0.0002122 -0.0059500 0.9997878 0.0059500 0.9997878 0.0059500 0.0002122 -0.0059500
34641496 0.0002119 -0.0057778 0.9997881 0.0057778 0.9997881 0.0057778 0.0002119 -0.0057778
35403159 0.0002117 -0.0056084 0.9997883 0.0056084 0.9997883 0.0056084 0.0002117 -0.0056084
36181569 0.0002115 -0.0054417 0.9997885 0.0054417 0.9997885 0.0054417 0.0002115 -0.0054417
36977093 0.0002115 -0.0052777 0.9997885 0.0052777 0.9997885 0.0052777 0.0002115 -0.0052777
37790109 0.0002116 -0.0051161 0.9997884 0.0051161 0.9997884 0.0051161 0.0002116 -0.0051161
38621001 0.0002117 -0.0049571 0.9997883 0.0049571 0.9997883 0.0049571 0.0002117 -0.0049571
39470161 0.0002120 -0.0048005 0.9997880 0.0048005 0.9997880 0.0048005 0.0002120 -0.0048005
40337993 0.0002123 -0.0046462 0.9997877 0.0046462 0.9997877 0.0046462 0.0002123 -0.0046462
41224905 0.0002127 -0.0044941 0.9997873 0.0044941 0.9997873 0.0044941 0.0002127 -0.0044941
42131317 0.0002132 -0.0043442 0.9997868 0.0043442 0.9997868 0.0043442 0.0002132 -0.0043442
43057659 0.0002138 -0.0041964 0.9997862 0.0041964 0.9997862 0.0041964 0.0002138 -0.0041964
44004369 0.0002144 -0.0040507 0.9997856 0.0040507 0.9997856 0.0040507 0.0002144 -0.0040507
44971893 0.0002151 -0.0039069 0.9997849 0.0039069 0.9997849 0.0039069 0.0002151 -0.0039069
45960691 0.0002159 -0.0037650 0.9997841 0.0037650 0.9997841 0.0037650 0.0002159 -0.0037650
46971230 0.0002167 -0.0036250 0.9997833 0.0036250 0.9997833 0.0036250 0.0002167 -0.0036250
48003987 0.0002176 -0.0034867 0.9997824 0.0034867 0.9997824 0.0034867 0.0002176 -0.0034867
49059451 0.0002185 -0.0033501 0.9997815 0.0033501 0.9997815 0.0033501 0.0002185 -0.0033501
50138122 0.0002195 -0.0032151 0.9997805 0.0032151 0.9997805 0.0032151 0.0002195 -0.0032151
51240510 0.0002206 -0.0030817 0.9997794 0.0030817 0.9997794 0.0030817 0.0002206 -0.0030817
52367136 0.0002217 -0.0029498 0.9997783 0.0029498 0.9997783 0.0029498 0.0002217 -0.0029498
53518533 0.0002228 -0.0028193 0.9997772 0.0028193 0.9997772 0.0028193 0.0002228 -0.0028193
54695245 0.0002240 -0.0026901 0.9997760 0.0026901 0.9997760 0.0026901 0.0002240 -0.0026901
55897831 0.0002253 -0.0025623 0.9997747 0.0025623 0.9997747 0.0025623 0.0002253 -0.0025623
57126857 0.0002266 -0.0024357 0.9997734 0.0024357 0.9997734 0.0024357 0.0002266 -0.0024357
58382906 0.0002280 -0.0023102 0.9997720 0.0023102 0.9997720 0.0023102 0.0002280 -0.0023102
59666572 0.0002294 -0.0021859 0.9997706 0.0021859 0.9997706 0.0021859 0.0002294 -0.0021859
60978462 0.0002309 -0.0020627 0.9997691 0.0020627 0.9997691 0.0020627 0.0002309 -0.0020627
62319196 0.0002325 -0.0019404 0.9997675 0.0019404 0.9997675 0.0019404 0.0002325 -0.0019404
63689409 0.0002340 -0.0018190 0.9997660 0.0018190 0.9997660 0.0018190 0.0002340 -0.0018190
65089750 0.0002357 -0.0016985 0.9997643 0.0016985 0.9997643 0.0016985 0.0002357 -0.0016985
66520879 0.0002374 -0.0015788 0.9997626 0.0015788 0.9997626 0.0015788 0.0002374 -0.0015788
67983474 0.0002392 -0.0014599 0.9997608 0.0014599 0.9997608 0.0014599 0.0002392 -0.0014599
69478228 0.0002410 -0.0013416 0.9997590 0.0013416 0.9997590 0.0013416 0.0002410 -0.0013416
71005847 0.0002429 -0.0012239 0.9997571 0.0012239 0.9997571 0.0012239 0.0002429 -0.0012239
72567054 0.0002448 -0.0011068 0.9997552 0.0011068 0.9997552 0.0011068 0.0002448 -0.0011068
74162587 0.0002469 -0.0009902 0.9997531 0.0009902 0.9997531 0.0009902 0.0002469 -0.0009902
75793201 0.0002489 -0.0008741 0.9997511 0.0008741 0.9997511 0.0008741 0.0002489 -0.0008741
77459667 0.0002511 -0.0007583 0.9997489 0.0007583 0.9997489 0.0007583 0.0002511 -0.0007583
79162774 0.0002534 -0.0006428 0.9997466 0.0006428 0.9997466 0.0006428 0.0002534 -0.0006428
80903327 0.0002557 -0.0005276 0.9997443 0.0005276 0.9997443 0.0005276 0.0002557 -0.0005276
82682150 0.0002582 -0.0004125 0.9997418 0.0004125 0.9997418 0.0004125 0.0002582 -0.0004125
84500083 0.0002607 -0.0002976 0.9997393 0.0002976 0.9997393 0.0002976 0.0002607 -0.0002976
86357988 0.0002633 -0.0001828 0.9997367 0.0001828 0.9997367 0.0001828 0.0002633 -0.0001828
88256743 0.0002661 -0.0000679 0.9997339 0.0000679 0.9997339 0.0000679 0.0002661 -0.0000679
90197245 0.0002689 0.0000470 0.9997311 -0.0000470 0.9997311 -0.0000470 0.0002689 0.0000470
92180413 0.0002719 0.0001620 0.9997281 -0.0001620 0.9997281 -0.0001620 0.0002719 0.0001620
94207185 0.0002750 0.0002773 0.9997250 -0.0002773 0.9997250 -0.0002773 0.0002750 0.0002773
96278520 0.0002783 0.0003928 0.9997217 -0.0003928 0.9997217 -0.0003928 0.0002783 0.0003928
98395398 0.0002817 0.0005087 0.9997183 -0.0005087 0.9997183 -0.0005087 0.0002817 0.0005087
100558819 0.0002853 0.0006249 0.9997147 -0.0006249 0.9997147 -0.0006249 0.0002853 0.0006249
102769807 0.0002891 0.0007417 0.9997109 -0.0007417 0.9997109 -0.0007417 0.0002891 0.0007417
105029408 0.0002931 0.0008590 0.9997069 -0.0008590 0.9997069 -0.0008590 0.0002931 0.0008590
107338692 0.0002973 0.0009769 0.9997027 -0.0009769 0.9997027 -0.0009769 0.0002973 0.0009769
