!Murata Part Number: GRM21B5C2J182JWAA
!These Parameters are Measured in Series Mode Connection
!Data Generated on Mar 30, 2021
!       o--ll--o
!Port1            Port2
!       o------o
!Operation Temp=25[degC], DC Bias Voltage=0[V]
!Freq. Start=100[kHz] Stop=1000[MHz] 401[Steps]
# Hz S RI R 50
!Freq.(Hz) S11(Real) S11(Imag) S21(Real) S21(Imag) S12(Real) S12(Imag) S22(Real) S22(Imag)
100000 0.9733564 -0.1038071 0.0266436 0.1038071 0.0266436 0.1038071 0.9733564 -0.1038071
102329 0.9726539 -0.1054722 0.0273461 0.1054722 0.0273461 0.1054722 0.9726539 -0.1054722
104713 0.9719702 -0.1071802 0.0280298 0.1071802 0.0280298 0.1071802 0.9719702 -0.1071802
107152 0.9713030 -0.1089361 0.0286970 0.1089361 0.0286970 0.1089361 0.9713030 -0.1089361
109648 0.9706499 -0.1107442 0.0293501 0.1107442 0.0293501 0.1107442 0.9706499 -0.1107442
112202 0.9700081 -0.1126084 0.0299919 0.1126084 0.0299919 0.1126084 0.9700081 -0.1126084
114815 0.9693742 -0.1145323 0.0306258 0.1145323 0.0306258 0.1145323 0.9693742 -0.1145323
117490 0.9687449 -0.1165190 0.0312551 0.1165190 0.0312551 0.1165190 0.9687449 -0.1165190
120226 0.9681167 -0.1185713 0.0318833 0.1185713 0.0318833 0.1185713 0.9681167 -0.1185713
123027 0.9674860 -0.1206913 0.0325140 0.1206913 0.0325140 0.1206913 0.9674860 -0.1206913
125893 0.9668493 -0.1228812 0.0331507 0.1228812 0.0331507 0.1228812 0.9668493 -0.1228812
128825 0.9662028 -0.1251424 0.0337972 0.1251424 0.0337972 0.1251424 0.9662028 -0.1251424
131826 0.9655432 -0.1274764 0.0344568 0.1274764 0.0344568 0.1274764 0.9655432 -0.1274764
134896 0.9648669 -0.1298842 0.0351331 0.1298842 0.0351331 0.1298842 0.9648669 -0.1298842
138038 0.9641706 -0.1323668 0.0358294 0.1323668 0.0358294 0.1323668 0.9641706 -0.1323668
141254 0.9634511 -0.1349247 0.0365489 0.1349247 0.0365489 0.1349247 0.9634511 -0.1349247
144544 0.9627053 -0.1375585 0.0372947 0.1375585 0.0372947 0.1375585 0.9627053 -0.1375585
147911 0.9619300 -0.1402687 0.0380700 0.1402687 0.0380700 0.1402687 0.9619300 -0.1402687
151356 0.9611223 -0.1430557 0.0388777 0.1430557 0.0388777 0.1430557 0.9611223 -0.1430557
154882 0.9602794 -0.1459196 0.0397206 0.1459196 0.0397206 0.1459196 0.9602794 -0.1459196
158489 0.9593984 -0.1488606 0.0406016 0.1488606 0.0406016 0.1488606 0.9593984 -0.1488606
162181 0.9584766 -0.1518790 0.0415234 0.1518790 0.0415234 0.1518790 0.9584766 -0.1518790
165959 0.9575114 -0.1549748 0.0424886 0.1549748 0.0424886 0.1549748 0.9575114 -0.1549748
169824 0.9565000 -0.1581481 0.0435000 0.1581481 0.0435000 0.1581481 0.9565000 -0.1581481
173780 0.9554399 -0.1613989 0.0445601 0.1613989 0.0445601 0.1613989 0.9554399 -0.1613989
177828 0.9543284 -0.1647274 0.0456716 0.1647274 0.0456716 0.1647274 0.9543284 -0.1647274
181970 0.9531630 -0.1681335 0.0468370 0.1681335 0.0468370 0.1681335 0.9531630 -0.1681335
186209 0.9519410 -0.1716173 0.0480590 0.1716173 0.0480590 0.1716173 0.9519410 -0.1716173
190546 0.9506598 -0.1751787 0.0493402 0.1751787 0.0493402 0.1751787 0.9506598 -0.1751787
194984 0.9493168 -0.1788177 0.0506832 0.1788177 0.0506832 0.1788177 0.9493168 -0.1788177
199526 0.9479093 -0.1825342 0.0520907 0.1825342 0.0520907 0.1825342 0.9479093 -0.1825342
204174 0.9464345 -0.1863282 0.0535655 0.1863282 0.0535655 0.1863282 0.9464345 -0.1863282
208930 0.9448897 -0.1901996 0.0551103 0.1901996 0.0551103 0.1901996 0.9448897 -0.1901996
213796 0.9432721 -0.1941480 0.0567279 0.1941480 0.0567279 0.1941480 0.9432721 -0.1941480
218776 0.9415789 -0.1981735 0.0584211 0.1981735 0.0584211 0.1981735 0.9415789 -0.1981735
223872 0.9398069 -0.2022755 0.0601931 0.2022755 0.0601931 0.2022755 0.9398069 -0.2022755
229087 0.9379534 -0.2064540 0.0620466 0.2064540 0.0620466 0.2064540 0.9379534 -0.2064540
234423 0.9360152 -0.2107083 0.0639848 0.2107083 0.0639848 0.2107083 0.9360152 -0.2107083
239883 0.9339892 -0.2150381 0.0660108 0.2150381 0.0660108 0.2150381 0.9339892 -0.2150381
245471 0.9318721 -0.2194429 0.0681279 0.2194429 0.0681279 0.2194429 0.9318721 -0.2194429
251189 0.9296607 -0.2239218 0.0703393 0.2239218 0.0703393 0.2239218 0.9296607 -0.2239218
257040 0.9273518 -0.2284742 0.0726482 0.2284742 0.0726482 0.2284742 0.9273518 -0.2284742
263027 0.9249417 -0.2330992 0.0750583 0.2330992 0.0750583 0.2330992 0.9249417 -0.2330992
269153 0.9224271 -0.2377958 0.0775729 0.2377958 0.0775729 0.2377958 0.9224271 -0.2377958
275423 0.9198045 -0.2425628 0.0801955 0.2425628 0.0801955 0.2425628 0.9198045 -0.2425628
281838 0.9170701 -0.2473991 0.0829299 0.2473991 0.0829299 0.2473991 0.9170701 -0.2473991
288403 0.9142204 -0.2523031 0.0857796 0.2523031 0.0857796 0.2523031 0.9142204 -0.2523031
295121 0.9112515 -0.2572733 0.0887485 0.2572733 0.0887485 0.2572733 0.9112515 -0.2572733
301995 0.9081598 -0.2623079 0.0918402 0.2623079 0.0918402 0.2623079 0.9081598 -0.2623079
309030 0.9049413 -0.2674051 0.0950587 0.2674051 0.0950587 0.2674051 0.9049413 -0.2674051
316228 0.9015922 -0.2725626 0.0984078 0.2725626 0.0984078 0.2725626 0.9015922 -0.2725626
323594 0.8981087 -0.2777781 0.1018913 0.2777781 0.1018913 0.2777781 0.8981087 -0.2777781
331131 0.8944866 -0.2830492 0.1055134 0.2830492 0.1055134 0.2830492 0.8944866 -0.2830492
338844 0.8907222 -0.2883731 0.1092778 0.2883731 0.1092778 0.2883731 0.8907222 -0.2883731
346737 0.8868115 -0.2937468 0.1131885 0.2937468 0.1131885 0.2937468 0.8868115 -0.2937468
354813 0.8827505 -0.2991670 0.1172495 0.2991670 0.1172495 0.2991670 0.8827505 -0.2991670
363078 0.8785354 -0.3046303 0.1214646 0.3046303 0.1214646 0.3046303 0.8785354 -0.3046303
371535 0.8741621 -0.3101330 0.1258379 0.3101330 0.1258379 0.3101330 0.8741621 -0.3101330
380189 0.8696270 -0.3156711 0.1303730 0.3156711 0.1303730 0.3156711 0.8696270 -0.3156711
389045 0.8649261 -0.3212404 0.1350739 0.3212404 0.1350739 0.3212404 0.8649261 -0.3212404
398107 0.8600559 -0.3268362 0.1399441 0.3268362 0.1399441 0.3268362 0.8600559 -0.3268362
407380 0.8550126 -0.3324539 0.1449874 0.3324539 0.1449874 0.3324539 0.8550126 -0.3324539
416869 0.8497929 -0.3380883 0.1502071 0.3380883 0.1502071 0.3380883 0.8497929 -0.3380883
426580 0.8443933 -0.3437341 0.1556067 0.3437341 0.1556067 0.3437341 0.8443933 -0.3437341
436516 0.8388107 -0.3493855 0.1611893 0.3493855 0.1611893 0.3493855 0.8388107 -0.3493855
446684 0.8330421 -0.3550366 0.1669579 0.3550366 0.1669579 0.3550366 0.8330421 -0.3550366
457088 0.8270846 -0.3606812 0.1729154 0.3606812 0.1729154 0.3606812 0.8270846 -0.3606812
467735 0.8209356 -0.3663127 0.1790644 0.3663127 0.1790644 0.3663127 0.8209356 -0.3663127
478630 0.8145927 -0.3719243 0.1854073 0.3719243 0.1854073 0.3719243 0.8145927 -0.3719243
489779 0.8080539 -0.3775089 0.1919461 0.3775089 0.1919461 0.3775089 0.8080539 -0.3775089
501187 0.8013174 -0.3830591 0.1986826 0.3830591 0.1986826 0.3830591 0.8013174 -0.3830591
512861 0.7943816 -0.3885674 0.2056184 0.3885674 0.2056184 0.3885674 0.7943816 -0.3885674
524807 0.7872455 -0.3940257 0.2127545 0.3940257 0.2127545 0.3940257 0.7872455 -0.3940257
537032 0.7799083 -0.3994261 0.2200917 0.3994261 0.2200917 0.3994261 0.7799083 -0.3994261
549541 0.7723695 -0.4047602 0.2276305 0.4047602 0.2276305 0.4047602 0.7723695 -0.4047602
562341 0.7646293 -0.4100195 0.2353707 0.4100195 0.2353707 0.4100195 0.7646293 -0.4100195
575440 0.7566880 -0.4151953 0.2433120 0.4151953 0.2433120 0.4151953 0.7566880 -0.4151953
588844 0.7485466 -0.4202787 0.2514534 0.4202787 0.2514534 0.4202787 0.7485466 -0.4202787
602560 0.7402065 -0.4252609 0.2597935 0.4252609 0.2597935 0.4252609 0.7402065 -0.4252609
616595 0.7316696 -0.4301326 0.2683304 0.4301326 0.2683304 0.4301326 0.7316696 -0.4301326
630957 0.7229382 -0.4348848 0.2770618 0.4348848 0.2770618 0.4348848 0.7229382 -0.4348848
645654 0.7140154 -0.4395082 0.2859846 0.4395082 0.2859846 0.4395082 0.7140154 -0.4395082
660693 0.7049046 -0.4439939 0.2950954 0.4439939 0.2950954 0.4439939 0.7049046 -0.4439939
676083 0.6956098 -0.4483325 0.3043902 0.4483325 0.3043902 0.4483325 0.6956098 -0.4483325
691831 0.6861357 -0.4525151 0.3138643 0.4525151 0.3138643 0.4525151 0.6861357 -0.4525151
707946 0.6764873 -0.4565326 0.3235127 0.4565326 0.3235127 0.4565326 0.6764873 -0.4565326
724436 0.6666704 -0.4603765 0.3333296 0.4603765 0.3333296 0.4603765 0.6666704 -0.4603765
741310 0.6566912 -0.4640379 0.3433088 0.4640379 0.3433088 0.4640379 0.6566912 -0.4640379
758578 0.6465566 -0.4675087 0.3534434 0.4675087 0.3534434 0.4675087 0.6465566 -0.4675087
776247 0.6362740 -0.4707807 0.3637260 0.4707807 0.3637260 0.4707807 0.6362740 -0.4707807
794328 0.6258513 -0.4738462 0.3741487 0.4738462 0.3741487 0.4738462 0.6258513 -0.4738462
812831 0.6152969 -0.4766978 0.3847031 0.4766978 0.3847031 0.4766978 0.6152969 -0.4766978
831764 0.6046197 -0.4793286 0.3953803 0.4793286 0.3953803 0.4793286 0.6046197 -0.4793286
851138 0.5938291 -0.4817321 0.4061709 0.4817321 0.4061709 0.4817321 0.5938291 -0.4817321
870964 0.5829349 -0.4839023 0.4170651 0.4839023 0.4170651 0.4839023 0.5829349 -0.4839023
891251 0.5719474 -0.4858336 0.4280526 0.4858336 0.4280526 0.4858336 0.5719474 -0.4858336
912011 0.5608772 -0.4875211 0.4391228 0.4875211 0.4391228 0.4875211 0.5608772 -0.4875211
933254 0.5497353 -0.4889603 0.4502647 0.4889603 0.4502647 0.4889603 0.5497353 -0.4889603
954993 0.5385328 -0.4901477 0.4614672 0.4901477 0.4614672 0.4901477 0.5385328 -0.4901477
977237 0.5272813 -0.4910800 0.4727187 0.4910800 0.4727187 0.4910800 0.5272813 -0.4910800
1000000 0.5159925 -0.4917548 0.4840075 0.4917548 0.4840075 0.4917548 0.5159925 -0.4917548
1023293 0.5046781 -0.4921703 0.4953219 0.4921703 0.4953219 0.4921703 0.5046781 -0.4921703
1047129 0.4933503 -0.4923253 0.5066497 0.4923253 0.5066497 0.4923253 0.4933503 -0.4923253
1071519 0.4820209 -0.4922195 0.5179791 0.4922195 0.5179791 0.4922195 0.4820209 -0.4922195
1096478 0.4707020 -0.4918530 0.5292980 0.4918530 0.5292980 0.4918530 0.4707020 -0.4918530
1122018 0.4594056 -0.4912270 0.5405944 0.4912270 0.5405944 0.4912270 0.4594056 -0.4912270
1148154 0.4481435 -0.4903429 0.5518565 0.4903429 0.5518565 0.4903429 0.4481435 -0.4903429
1174898 0.4369276 -0.4892031 0.5630724 0.4892031 0.5630724 0.4892031 0.4369276 -0.4892031
1202264 0.4257692 -0.4878106 0.5742308 0.4878106 0.5742308 0.4878106 0.4257692 -0.4878106
1230269 0.4146797 -0.4861689 0.5853203 0.4861689 0.5853203 0.4861689 0.4146797 -0.4861689
1258925 0.4036702 -0.4842824 0.5963298 0.4842824 0.5963298 0.4842824 0.4036702 -0.4842824
1288250 0.3927513 -0.4821558 0.6072487 0.4821558 0.6072487 0.4821558 0.3927513 -0.4821558
1318257 0.3819332 -0.4797945 0.6180668 0.4797945 0.6180668 0.4797945 0.3819332 -0.4797945
1348963 0.3712261 -0.4772044 0.6287739 0.4772044 0.6287739 0.4772044 0.3712261 -0.4772044
1380384 0.3606392 -0.4743918 0.6393608 0.4743918 0.6393608 0.4743918 0.3606392 -0.4743918
1412538 0.3501817 -0.4713637 0.6498183 0.4713637 0.6498183 0.4713637 0.3501817 -0.4713637
1445440 0.3398621 -0.4681273 0.6601379 0.4681273 0.6601379 0.4681273 0.3398621 -0.4681273
1479108 0.3296883 -0.4646903 0.6703117 0.4646903 0.6703117 0.4646903 0.3296883 -0.4646903
1513561 0.3196679 -0.4610606 0.6803321 0.4610606 0.6803321 0.4610606 0.3196679 -0.4610606
1548817 0.3098078 -0.4572465 0.6901922 0.4572465 0.6901922 0.4572465 0.3098078 -0.4572465
1584893 0.3001143 -0.4532565 0.6998857 0.4532565 0.6998857 0.4532565 0.3001143 -0.4532565
1621810 0.2905934 -0.4490993 0.7094066 0.4490993 0.7094066 0.4490993 0.2905934 -0.4490993
1659587 0.2812503 -0.4447839 0.7187497 0.4447839 0.7187497 0.4447839 0.2812503 -0.4447839
1698244 0.2720896 -0.4403193 0.7279104 0.4403193 0.7279104 0.4403193 0.2720896 -0.4403193
1737801 0.2631155 -0.4357145 0.7368845 0.4357145 0.7368845 0.4357145 0.2631155 -0.4357145
1778279 0.2543317 -0.4309787 0.7456683 0.4309787 0.7456683 0.4309787 0.2543317 -0.4309787
1819701 0.2457410 -0.4261210 0.7542590 0.4261210 0.7542590 0.4261210 0.2457410 -0.4261210
1862087 0.2373460 -0.4211506 0.7626540 0.4211506 0.7626540 0.4211506 0.2373460 -0.4211506
1905461 0.2291487 -0.4160766 0.7708513 0.4160766 0.7708513 0.4160766 0.2291487 -0.4160766
1949845 0.2211507 -0.4109079 0.7788493 0.4109079 0.7788493 0.4109079 0.2211507 -0.4109079
1995262 0.2133528 -0.4056533 0.7866472 0.4056533 0.7866472 0.4056533 0.2133528 -0.4056533
2041738 0.2057556 -0.4003216 0.7942444 0.4003216 0.7942444 0.4003216 0.2057556 -0.4003216
2089296 0.1983592 -0.3949213 0.8016408 0.3949213 0.8016408 0.3949213 0.1983592 -0.3949213
2137962 0.1911633 -0.3894608 0.8088367 0.3894608 0.8088367 0.3894608 0.1911633 -0.3894608
2187762 0.1841672 -0.3839481 0.8158328 0.3839481 0.8158328 0.3839481 0.1841672 -0.3839481
2238721 0.1773698 -0.3783912 0.8226302 0.3783912 0.8226302 0.3783912 0.1773698 -0.3783912
2290868 0.1707696 -0.3727977 0.8292304 0.3727977 0.8292304 0.3727977 0.1707696 -0.3727977
2344229 0.1643648 -0.3671750 0.8356352 0.3671750 0.8356352 0.3671750 0.1643648 -0.3671750
2398833 0.1581535 -0.3615302 0.8418465 0.3615302 0.8418465 0.3615302 0.1581535 -0.3615302
2454709 0.1521332 -0.3558701 0.8478668 0.3558701 0.8478668 0.3558701 0.1521332 -0.3558701
2511886 0.1463014 -0.3502014 0.8536986 0.3502014 0.8536986 0.3502014 0.1463014 -0.3502014
2570396 0.1406553 -0.3445302 0.8593447 0.3445302 0.8593447 0.3445302 0.1406553 -0.3445302
2630268 0.1351918 -0.3388626 0.8648082 0.3388626 0.8648082 0.3388626 0.1351918 -0.3388626
2691535 0.1299077 -0.3332043 0.8700923 0.3332043 0.8700923 0.3332043 0.1299077 -0.3332043
2754229 0.1247997 -0.3275605 0.8752003 0.3275605 0.8752003 0.3275605 0.1247997 -0.3275605
2818383 0.1198642 -0.3219365 0.8801358 0.3219365 0.8801358 0.3219365 0.1198642 -0.3219365
2884032 0.1150977 -0.3163370 0.8849023 0.3163370 0.8849023 0.3163370 0.1150977 -0.3163370
2951209 0.1104964 -0.3107665 0.8895036 0.3107665 0.8895036 0.3107665 0.1104964 -0.3107665
3019952 0.1060565 -0.3052293 0.8939435 0.3052293 0.8939435 0.3052293 0.1060565 -0.3052293
3090295 0.1017740 -0.2997294 0.8982260 0.2997294 0.8982260 0.2997294 0.1017740 -0.2997294
3162278 0.0976452 -0.2942703 0.9023548 0.2942703 0.9023548 0.2942703 0.0976452 -0.2942703
3235937 0.0936660 -0.2888556 0.9063340 0.2888556 0.9063340 0.2888556 0.0936660 -0.2888556
3311311 0.0898324 -0.2834885 0.9101676 0.2834885 0.9101676 0.2834885 0.0898324 -0.2834885
3388442 0.0861404 -0.2781717 0.9138596 0.2781717 0.9138596 0.2781717 0.0861404 -0.2781717
3467369 0.0825860 -0.2729081 0.9174140 0.2729081 0.9174140 0.2729081 0.0825860 -0.2729081
3548134 0.0791652 -0.2677002 0.9208348 0.2677002 0.9208348 0.2677002 0.0791652 -0.2677002
3630781 0.0758741 -0.2625500 0.9241259 0.2625500 0.9241259 0.2625500 0.0758741 -0.2625500
3715352 0.0727087 -0.2574597 0.9272913 0.2574597 0.9272913 0.2574597 0.0727087 -0.2574597
3801894 0.0696651 -0.2524310 0.9303349 0.2524310 0.9303349 0.2524310 0.0696651 -0.2524310
3890451 0.0667395 -0.2474657 0.9332605 0.2474657 0.9332605 0.2474657 0.0667395 -0.2474657
3981072 0.0639281 -0.2425651 0.9360719 0.2425651 0.9360719 0.2425651 0.0639281 -0.2425651
4073803 0.0612271 -0.2377305 0.9387729 0.2377305 0.9387729 0.2377305 0.0612271 -0.2377305
4168694 0.0586328 -0.2329631 0.9413672 0.2329631 0.9413672 0.2329631 0.0586328 -0.2329631
4265795 0.0561416 -0.2282636 0.9438584 0.2282636 0.9438584 0.2282636 0.0561416 -0.2282636
4365158 0.0537501 -0.2236330 0.9462499 0.2236330 0.9462499 0.2236330 0.0537501 -0.2236330
4466836 0.0514546 -0.2190719 0.9485454 0.2190719 0.9485454 0.2190719 0.0514546 -0.2190719
4570882 0.0492519 -0.2145808 0.9507481 0.2145808 0.9507481 0.2145808 0.0492519 -0.2145808
4677351 0.0471387 -0.2101601 0.9528613 0.2101601 0.9528613 0.2101601 0.0471387 -0.2101601
4786301 0.0451116 -0.2058101 0.9548884 0.2058101 0.9548884 0.2058101 0.0451116 -0.2058101
4897788 0.0431676 -0.2015310 0.9568324 0.2015310 0.9568324 0.2015310 0.0431676 -0.2015310
5011872 0.0413035 -0.1973227 0.9586965 0.1973227 0.9586965 0.1973227 0.0413035 -0.1973227
5128614 0.0395165 -0.1931853 0.9604835 0.1931853 0.9604835 0.1931853 0.0395165 -0.1931853
5248075 0.0378036 -0.1891187 0.9621964 0.1891187 0.9621964 0.1891187 0.0378036 -0.1891187
5370318 0.0361621 -0.1851226 0.9638379 0.1851226 0.9638379 0.1851226 0.0361621 -0.1851226
5495409 0.0345891 -0.1811969 0.9654109 0.1811969 0.9654109 0.1811969 0.0345891 -0.1811969
5623413 0.0330820 -0.1773410 0.9669180 0.1773410 0.9669180 0.1773410 0.0330820 -0.1773410
5754399 0.0316384 -0.1735546 0.9683616 0.1735546 0.9683616 0.1735546 0.0316384 -0.1735546
5888437 0.0302557 -0.1698373 0.9697443 0.1698373 0.9697443 0.1698373 0.0302557 -0.1698373
6025596 0.0289314 -0.1661885 0.9710686 0.1661885 0.9710686 0.1661885 0.0289314 -0.1661885
6165950 0.0276634 -0.1626076 0.9723366 0.1626076 0.9723366 0.1626076 0.0276634 -0.1626076
6309573 0.0264494 -0.1590940 0.9735506 0.1590940 0.9735506 0.1590940 0.0264494 -0.1590940
6456542 0.0252871 -0.1556471 0.9747129 0.1556471 0.9747129 0.1556471 0.0252871 -0.1556471
6606934 0.0241746 -0.1522661 0.9758254 0.1522661 0.9758254 0.1522661 0.0241746 -0.1522661
6760830 0.0231098 -0.1489503 0.9768902 0.1489503 0.9768902 0.1489503 0.0231098 -0.1489503
6918310 0.0220907 -0.1456989 0.9779093 0.1456989 0.9779093 0.1456989 0.0220907 -0.1456989
7079458 0.0211155 -0.1425111 0.9788845 0.1425111 0.9788845 0.1425111 0.0211155 -0.1425111
7244360 0.0201824 -0.1393861 0.9798176 0.1393861 0.9798176 0.1393861 0.0201824 -0.1393861
7413102 0.0192897 -0.1363231 0.9807103 0.1363231 0.9807103 0.1363231 0.0192897 -0.1363231
7585776 0.0184357 -0.1333213 0.9815643 0.1333213 0.9815643 0.1333213 0.0184357 -0.1333213
7762471 0.0176188 -0.1303797 0.9823812 0.1303797 0.9823812 0.1303797 0.0176188 -0.1303797
7943282 0.0168374 -0.1274974 0.9831626 0.1274974 0.9831626 0.1274974 0.0168374 -0.1274974
8128305 0.0160900 -0.1246736 0.9839100 0.1246736 0.9839100 0.1246736 0.0160900 -0.1246736
8317638 0.0153753 -0.1219073 0.9846247 0.1219073 0.9846247 0.1219073 0.0153753 -0.1219073
8511380 0.0146918 -0.1191977 0.9853082 0.1191977 0.9853082 0.1191977 0.0146918 -0.1191977
8709636 0.0140382 -0.1165439 0.9859618 0.1165439 0.9859618 0.1165439 0.0140382 -0.1165439
8912509 0.0134134 -0.1139448 0.9865866 0.1139448 0.9865866 0.1139448 0.0134134 -0.1139448
9120108 0.0128159 -0.1113996 0.9871841 0.1113996 0.9871841 0.1113996 0.0128159 -0.1113996
9332543 0.0122448 -0.1089074 0.9877552 0.1089074 0.9877552 0.1089074 0.0122448 -0.1089074
9549926 0.0116988 -0.1064673 0.9883012 0.1064673 0.9883012 0.1064673 0.0116988 -0.1064673
9772372 0.0111769 -0.1040782 0.9888231 0.1040782 0.9888231 0.1040782 0.0111769 -0.1040782
10000000 0.0106780 -0.1017394 0.9893220 0.1017394 0.9893220 0.1017394 0.0106780 -0.1017394
10232930 0.0102012 -0.0994499 0.9897988 0.0994499 0.9897988 0.0994499 0.0102012 -0.0994499
10471285 0.0097455 -0.0972087 0.9902545 0.0972087 0.9902545 0.0972087 0.0097455 -0.0972087
10715193 0.0093101 -0.0950150 0.9906899 0.0950150 0.9906899 0.0950150 0.0093101 -0.0950150
10964782 0.0088939 -0.0928680 0.9911061 0.0928680 0.9911061 0.0928680 0.0088939 -0.0928680
11220185 0.0084963 -0.0907666 0.9915037 0.0907666 0.9915037 0.0907666 0.0084963 -0.0907666
11481536 0.0081164 -0.0887101 0.9918836 0.0887101 0.9918836 0.0887101 0.0081164 -0.0887101
11748976 0.0077534 -0.0866976 0.9922466 0.0866976 0.9922466 0.0866976 0.0077534 -0.0866976
12022644 0.0074066 -0.0847281 0.9925934 0.0847281 0.9925934 0.0847281 0.0074066 -0.0847281
12302688 0.0070753 -0.0828009 0.9929247 0.0828009 0.9929247 0.0828009 0.0070753 -0.0828009
12589254 0.0067588 -0.0809151 0.9932412 0.0809151 0.9932412 0.0809151 0.0067588 -0.0809151
12882496 0.0064565 -0.0790699 0.9935435 0.0790699 0.9935435 0.0790699 0.0064565 -0.0790699
13182567 0.0061677 -0.0772644 0.9938323 0.0772644 0.9938323 0.0772644 0.0061677 -0.0772644
13489629 0.0058919 -0.0754979 0.9941081 0.0754979 0.9941081 0.0754979 0.0058919 -0.0754979
13803843 0.0056285 -0.0737696 0.9943715 0.0737696 0.9943715 0.0737696 0.0056285 -0.0737696
14125375 0.0053770 -0.0720786 0.9946230 0.0720786 0.9946230 0.0720786 0.0053770 -0.0720786
14454398 0.0051368 -0.0704242 0.9948632 0.0704242 0.9948632 0.0704242 0.0051368 -0.0704242
14791084 0.0049074 -0.0688057 0.9950926 0.0688057 0.9950926 0.0688057 0.0049074 -0.0688057
