!Murata Part Number: GRM21A5C2J560JWA1
!These Parameters are Measured in Series Mode Connection
!Data Generated on Mar 30, 2021
!       o--ll--o
!Port1            Port2
!       o------o
!Operation Temp=25[degC], DC Bias Voltage=0[V]
!Freq. Start=100[MHz] Stop=3[GHz] 401[Steps]
# Hz S RI R 50
!Freq.(Hz) S11(Real) S11(Imag) S21(Real) S21(Imag) S12(Real) S12(Imag) S22(Real) S22(Imag)
100000000 0.0742098 -0.2599025 0.9257902 0.2599025 0.9257902 0.2599025 0.0742098 -0.2599025
107250000 0.0650534 -0.2441926 0.9349466 0.2441926 0.9349466 0.2441926 0.0650534 -0.2441926
114500000 0.0574526 -0.2300527 0.9425474 0.2300527 0.9425474 0.2300527 0.0574526 -0.2300527
121750000 0.0510808 -0.2172789 0.9489192 0.2172789 0.9489192 0.2172789 0.0510808 -0.2172789
129000000 0.0456914 -0.2056954 0.9543086 0.2056954 0.9543086 0.2056954 0.0456914 -0.2056954
136250000 0.0410955 -0.1951517 0.9589045 0.1951517 0.9589045 0.1951517 0.0410955 -0.1951517
143500000 0.0371468 -0.1855189 0.9628532 0.1855189 0.9628532 0.1855189 0.0371468 -0.1855189
150750000 0.0337310 -0.1766873 0.9662690 0.1766873 0.9662690 0.1766873 0.0337310 -0.1766873
158000000 0.0307576 -0.1685627 0.9692424 0.1685627 0.9692424 0.1685627 0.0307576 -0.1685627
165250000 0.0281541 -0.1610644 0.9718459 0.1610644 0.9718459 0.1610644 0.0281541 -0.1610644
172500000 0.0258625 -0.1541229 0.9741375 0.1541229 0.9741375 0.1541229 0.0258625 -0.1541229
179750000 0.0238354 -0.1476783 0.9761646 0.1476783 0.9761646 0.1476783 0.0238354 -0.1476783
187000000 0.0220339 -0.1416786 0.9779661 0.1416786 0.9779661 0.1416786 0.0220339 -0.1416786
194250000 0.0204263 -0.1360785 0.9795737 0.1360785 0.9795737 0.1360785 0.0204263 -0.1360785
201500000 0.0189860 -0.1308386 0.9810140 0.1308386 0.9810140 0.1308386 0.0189860 -0.1308386
208750000 0.0176907 -0.1259244 0.9823093 0.1259244 0.9823093 0.1259244 0.0176907 -0.1259244
216000000 0.0165220 -0.1213054 0.9834780 0.1213054 0.9834780 0.1213054 0.0165220 -0.1213054
223250000 0.0154640 -0.1169548 0.9845360 0.1169548 0.9845360 0.1169548 0.0154640 -0.1169548
230500000 0.0145034 -0.1128490 0.9854966 0.1128490 0.9854966 0.1128490 0.0145034 -0.1128490
237750000 0.0136287 -0.1089667 0.9863713 0.1089667 0.9863713 0.1089667 0.0136287 -0.1089667
245000000 0.0128302 -0.1052894 0.9871698 0.1052894 0.9871698 0.1052894 0.0128302 -0.1052894
252250000 0.0120994 -0.1018003 0.9879006 0.1018003 0.9879006 0.1018003 0.0120994 -0.1018003
259500000 0.0114290 -0.0984843 0.9885710 0.0984843 0.9885710 0.0984843 0.0114290 -0.0984843
266750000 0.0108126 -0.0953279 0.9891874 0.0953279 0.9891874 0.0953279 0.0108126 -0.0953279
274000000 0.0102448 -0.0923192 0.9897552 0.0923192 0.9897552 0.0923192 0.0102448 -0.0923192
281250000 0.0097207 -0.0894470 0.9902793 0.0894470 0.9902793 0.0894470 0.0097207 -0.0894470
288500000 0.0092359 -0.0867016 0.9907641 0.0867016 0.9907641 0.0867016 0.0092359 -0.0867016
295750000 0.0087869 -0.0840740 0.9912131 0.0840740 0.9912131 0.0840740 0.0087869 -0.0840740
303000000 0.0083702 -0.0815559 0.9916298 0.0815559 0.9916298 0.0815559 0.0083702 -0.0815559
310250000 0.0079830 -0.0791400 0.9920170 0.0791400 0.9920170 0.0791400 0.0079830 -0.0791400
317500000 0.0076225 -0.0768195 0.9923775 0.0768195 0.9923775 0.0768195 0.0076225 -0.0768195
324750000 0.0072866 -0.0745881 0.9927134 0.0745881 0.9927134 0.0745881 0.0072866 -0.0745881
332000000 0.0069731 -0.0724403 0.9930269 0.0724403 0.9930269 0.0724403 0.0069731 -0.0724403
339250000 0.0066802 -0.0703708 0.9933198 0.0703708 0.9933198 0.0703708 0.0066802 -0.0703708
346500000 0.0064061 -0.0683747 0.9935939 0.0683747 0.9935939 0.0683747 0.0064061 -0.0683747
353750000 0.0061495 -0.0664478 0.9938505 0.0664478 0.9938505 0.0664478 0.0061495 -0.0664478
361000000 0.0059089 -0.0645859 0.9940911 0.0645859 0.9940911 0.0645859 0.0059089 -0.0645859
368250000 0.0056831 -0.0627853 0.9943169 0.0627853 0.9943169 0.0627853 0.0056831 -0.0627853
375500000 0.0054710 -0.0610425 0.9945290 0.0610425 0.9945290 0.0610425 0.0054710 -0.0610425
382750000 0.0052717 -0.0593543 0.9947283 0.0593543 0.9947283 0.0593543 0.0052717 -0.0593543
390000000 0.0050841 -0.0577177 0.9949159 0.0577177 0.9949159 0.0577177 0.0050841 -0.0577177
397250000 0.0049075 -0.0561299 0.9950925 0.0561299 0.9950925 0.0561299 0.0049075 -0.0561299
404500000 0.0047411 -0.0545884 0.9952589 0.0545884 0.9952589 0.0545884 0.0047411 -0.0545884
411750000 0.0045842 -0.0530907 0.9954158 0.0530907 0.9954158 0.0530907 0.0045842 -0.0530907
419000000 0.0044362 -0.0516346 0.9955638 0.0516346 0.9955638 0.0516346 0.0044362 -0.0516346
426250000 0.0042964 -0.0502180 0.9957036 0.0502180 0.9957036 0.0502180 0.0042964 -0.0502180
433500000 0.0041645 -0.0488390 0.9958355 0.0488390 0.9958355 0.0488390 0.0041645 -0.0488390
440750000 0.0040398 -0.0474957 0.9959602 0.0474957 0.9959602 0.0474957 0.0040398 -0.0474957
448000000 0.0039220 -0.0461864 0.9960780 0.0461864 0.9960780 0.0461864 0.0039220 -0.0461864
455250000 0.0038105 -0.0449096 0.9961895 0.0449096 0.9961895 0.0449096 0.0038105 -0.0449096
462500000 0.0037051 -0.0436636 0.9962949 0.0436636 0.9962949 0.0436636 0.0037051 -0.0436636
469750000 0.0036054 -0.0424472 0.9963946 0.0424472 0.9963946 0.0424472 0.0036054 -0.0424472
477000000 0.0035110 -0.0412589 0.9964890 0.0412589 0.9964890 0.0412589 0.0035110 -0.0412589
484250000 0.0034217 -0.0400974 0.9965783 0.0400974 0.9965783 0.0400974 0.0034217 -0.0400974
491500000 0.0033371 -0.0389618 0.9966629 0.0389618 0.9966629 0.0389618 0.0033371 -0.0389618
498750000 0.0032570 -0.0378507 0.9967430 0.0378507 0.9967430 0.0378507 0.0032570 -0.0378507
506000000 0.0031812 -0.0367632 0.9968188 0.0367632 0.9968188 0.0367632 0.0031812 -0.0367632
513250000 0.0031095 -0.0356982 0.9968905 0.0356982 0.9968905 0.0356982 0.0031095 -0.0356982
520500000 0.0030415 -0.0346549 0.9969585 0.0346549 0.9969585 0.0346549 0.0030415 -0.0346549
527750000 0.0029772 -0.0336323 0.9970228 0.0336323 0.9970228 0.0336323 0.0029772 -0.0336323
535000000 0.0029164 -0.0326296 0.9970836 0.0326296 0.9970836 0.0326296 0.0029164 -0.0326296
542250000 0.0028588 -0.0316461 0.9971412 0.0316461 0.9971412 0.0316461 0.0028588 -0.0316461
549500000 0.0028043 -0.0306809 0.9971957 0.0306809 0.9971957 0.0306809 0.0028043 -0.0306809
556750000 0.0027528 -0.0297333 0.9972472 0.0297333 0.9972472 0.0297333 0.0027528 -0.0297333
564000000 0.0027042 -0.0288027 0.9972958 0.0288027 0.9972958 0.0288027 0.0027042 -0.0288027
571250000 0.0026582 -0.0278884 0.9973418 0.0278884 0.9973418 0.0278884 0.0026582 -0.0278884
578500000 0.0026149 -0.0269898 0.9973851 0.0269898 0.9973851 0.0269898 0.0026149 -0.0269898
585750000 0.0025740 -0.0261063 0.9974260 0.0261063 0.9974260 0.0261063 0.0025740 -0.0261063
593000000 0.0025354 -0.0252374 0.9974646 0.0252374 0.9974646 0.0252374 0.0025354 -0.0252374
600250000 0.0024991 -0.0243825 0.9975009 0.0243825 0.9975009 0.0243825 0.0024991 -0.0243825
607500000 0.0024650 -0.0235411 0.9975350 0.0235411 0.9975350 0.0235411 0.0024650 -0.0235411
614750000 0.0024329 -0.0227128 0.9975671 0.0227128 0.9975671 0.0227128 0.0024329 -0.0227128
622000000 0.0024029 -0.0218971 0.9975971 0.0218971 0.9975971 0.0218971 0.0024029 -0.0218971
629250000 0.0023747 -0.0210935 0.9976253 0.0210935 0.9976253 0.0210935 0.0023747 -0.0210935
636500000 0.0023484 -0.0203017 0.9976516 0.0203017 0.9976516 0.0203017 0.0023484 -0.0203017
643750000 0.0023238 -0.0195212 0.9976762 0.0195212 0.9976762 0.0195212 0.0023238 -0.0195212
651000000 0.0023009 -0.0187516 0.9976991 0.0187516 0.9976991 0.0187516 0.0023009 -0.0187516
658250000 0.0022796 -0.0179927 0.9977204 0.0179927 0.9977204 0.0179927 0.0022796 -0.0179927
665500000 0.0022600 -0.0172440 0.9977400 0.0172440 0.9977400 0.0172440 0.0022600 -0.0172440
672750000 0.0022418 -0.0165051 0.9977582 0.0165051 0.9977582 0.0165051 0.0022418 -0.0165051
680000000 0.0022251 -0.0157759 0.9977749 0.0157759 0.9977749 0.0157759 0.0022251 -0.0157759
687250000 0.0022098 -0.0150560 0.9977902 0.0150560 0.9977902 0.0150560 0.0022098 -0.0150560
694500000 0.0021958 -0.0143450 0.9978042 0.0143450 0.9978042 0.0143450 0.0021958 -0.0143450
701750000 0.0021832 -0.0136428 0.9978168 0.0136428 0.9978168 0.0136428 0.0021832 -0.0136428
709000000 0.0021719 -0.0129489 0.9978281 0.0129489 0.9978281 0.0129489 0.0021719 -0.0129489
716250000 0.0021617 -0.0122633 0.9978383 0.0122633 0.9978383 0.0122633 0.0021617 -0.0122633
723500000 0.0021528 -0.0115855 0.9978472 0.0115855 0.9978472 0.0115855 0.0021528 -0.0115855
730750000 0.0021450 -0.0109155 0.9978550 0.0109155 0.9978550 0.0109155 0.0021450 -0.0109155
738000000 0.0021384 -0.0102529 0.9978616 0.0102529 0.9978616 0.0102529 0.0021384 -0.0102529
745250000 0.0021328 -0.0095975 0.9978672 0.0095975 0.9978672 0.0095975 0.0021328 -0.0095975
752500000 0.0021283 -0.0089491 0.9978717 0.0089491 0.9978717 0.0089491 0.0021283 -0.0089491
759750000 0.0021248 -0.0083075 0.9978752 0.0083075 0.9978752 0.0083075 0.0021248 -0.0083075
767000000 0.0021223 -0.0076726 0.9978777 0.0076726 0.9978777 0.0076726 0.0021223 -0.0076726
774250000 0.0021208 -0.0070440 0.9978792 0.0070440 0.9978792 0.0070440 0.0021208 -0.0070440
781500000 0.0021202 -0.0064217 0.9978798 0.0064217 0.9978798 0.0064217 0.0021202 -0.0064217
788750000 0.0021205 -0.0058055 0.9978795 0.0058055 0.9978795 0.0058055 0.0021205 -0.0058055
796000000 0.0021218 -0.0051951 0.9978782 0.0051951 0.9978782 0.0051951 0.0021218 -0.0051951
803250000 0.0021239 -0.0045905 0.9978761 0.0045905 0.9978761 0.0045905 0.0021239 -0.0045905
810500000 0.0021268 -0.0039914 0.9978732 0.0039914 0.9978732 0.0039914 0.0021268 -0.0039914
817750000 0.0021306 -0.0033978 0.9978694 0.0033978 0.9978694 0.0033978 0.0021306 -0.0033978
825000000 0.0021352 -0.0028094 0.9978648 0.0028094 0.9978648 0.0028094 0.0021352 -0.0028094
832250000 0.0021405 -0.0022261 0.9978595 0.0022261 0.9978595 0.0022261 0.0021405 -0.0022261
839500000 0.0021467 -0.0016478 0.9978533 0.0016478 0.9978533 0.0016478 0.0021467 -0.0016478
846750000 0.0021536 -0.0010744 0.9978464 0.0010744 0.9978464 0.0010744 0.0021536 -0.0010744
854000000 0.0021612 -0.0005057 0.9978388 0.0005057 0.9978388 0.0005057 0.0021612 -0.0005057
861250000 0.0021696 0.0000585 0.9978304 -0.0000585 0.9978304 -0.0000585 0.0021696 0.0000585
868500000 0.0021787 0.0006181 0.9978213 -0.0006181 0.9978213 -0.0006181 0.0021787 0.0006181
875750000 0.0021885 0.0011734 0.9978115 -0.0011734 0.9978115 -0.0011734 0.0021885 0.0011734
883000000 0.0021989 0.0017245 0.9978011 -0.0017245 0.9978011 -0.0017245 0.0021989 0.0017245
890250000 0.0022100 0.0022714 0.9977900 -0.0022714 0.9977900 -0.0022714 0.0022100 0.0022714
897500000 0.0022218 0.0028143 0.9977782 -0.0028143 0.9977782 -0.0028143 0.0022218 0.0028143
904750000 0.0022342 0.0033532 0.9977658 -0.0033532 0.9977658 -0.0033532 0.0022342 0.0033532
912000000 0.0022473 0.0038884 0.9977527 -0.0038884 0.9977527 -0.0038884 0.0022473 0.0038884
919250000 0.0022609 0.0044198 0.9977391 -0.0044198 0.9977391 -0.0044198 0.0022609 0.0044198
926500000 0.0022752 0.0049475 0.9977248 -0.0049475 0.9977248 -0.0049475 0.0022752 0.0049475
933750000 0.0022901 0.0054717 0.9977099 -0.0054717 0.9977099 -0.0054717 0.0022901 0.0054717
941000000 0.0023056 0.0059925 0.9976944 -0.0059925 0.9976944 -0.0059925 0.0023056 0.0059925
948250000 0.0023216 0.0065099 0.9976784 -0.0065099 0.9976784 -0.0065099 0.0023216 0.0065099
955500000 0.0023382 0.0070240 0.9976618 -0.0070240 0.9976618 -0.0070240 0.0023382 0.0070240
962750000 0.0023554 0.0075348 0.9976446 -0.0075348 0.9976446 -0.0075348 0.0023554 0.0075348
970000000 0.0023731 0.0080426 0.9976269 -0.0080426 0.9976269 -0.0080426 0.0023731 0.0080426
977250000 0.0023914 0.0085473 0.9976086 -0.0085473 0.9976086 -0.0085473 0.0023914 0.0085473
984500000 0.0024103 0.0090490 0.9975897 -0.0090490 0.9975897 -0.0090490 0.0024103 0.0090490
991750000 0.0024296 0.0095478 0.9975704 -0.0095478 0.9975704 -0.0095478 0.0024296 0.0095478
999000000 0.0024495 0.0100437 0.9975505 -0.0100437 0.9975505 -0.0100437 0.0024495 0.0100437
1006250000 0.0024699 0.0105369 0.9975301 -0.0105369 0.9975301 -0.0105369 0.0024699 0.0105369
1013500000 0.0024908 0.0110274 0.9975092 -0.0110274 0.9975092 -0.0110274 0.0024908 0.0110274
1020750000 0.0025123 0.0115152 0.9974877 -0.0115152 0.9974877 -0.0115152 0.0025123 0.0115152
1028000000 0.0025342 0.0120004 0.9974658 -0.0120004 0.9974658 -0.0120004 0.0025342 0.0120004
1035250000 0.0025566 0.0124831 0.9974434 -0.0124831 0.9974434 -0.0124831 0.0025566 0.0124831
1042500000 0.0025796 0.0129634 0.9974204 -0.0129634 0.9974204 -0.0129634 0.0025796 0.0129634
1049750000 0.0026030 0.0134412 0.9973970 -0.0134412 0.9973970 -0.0134412 0.0026030 0.0134412
1057000000 0.0026269 0.0139167 0.9973731 -0.0139167 0.9973731 -0.0139167 0.0026269 0.0139167
1064250000 0.0026512 0.0143899 0.9973488 -0.0143899 0.9973488 -0.0143899 0.0026512 0.0143899
1071500000 0.0026761 0.0148609 0.9973239 -0.0148609 0.9973239 -0.0148609 0.0026761 0.0148609
1078750000 0.0027014 0.0153296 0.9972986 -0.0153296 0.9972986 -0.0153296 0.0027014 0.0153296
1086000000 0.0027271 0.0157962 0.9972729 -0.0157962 0.9972729 -0.0157962 0.0027271 0.0157962
1093250000 0.0027534 0.0162608 0.9972466 -0.0162608 0.9972466 -0.0162608 0.0027534 0.0162608
1100500000 0.0027800 0.0167232 0.9972200 -0.0167232 0.9972200 -0.0167232 0.0027800 0.0167232
1107750000 0.0028072 0.0171837 0.9971928 -0.0171837 0.9971928 -0.0171837 0.0028072 0.0171837
1115000000 0.0028348 0.0176422 0.9971652 -0.0176422 0.9971652 -0.0176422 0.0028348 0.0176422
1122250000 0.0028628 0.0180989 0.9971372 -0.0180989 0.9971372 -0.0180989 0.0028628 0.0180989
1129500000 0.0028913 0.0185536 0.9971087 -0.0185536 0.9971087 -0.0185536 0.0028913 0.0185536
1136750000 0.0029202 0.0190065 0.9970798 -0.0190065 0.9970798 -0.0190065 0.0029202 0.0190065
1144000000 0.0029496 0.0194577 0.9970504 -0.0194577 0.9970504 -0.0194577 0.0029496 0.0194577
1151250000 0.0029794 0.0199071 0.9970206 -0.0199071 0.9970206 -0.0199071 0.0029794 0.0199071
1158500000 0.0030096 0.0203548 0.9969904 -0.0203548 0.9969904 -0.0203548 0.0030096 0.0203548
1165750000 0.0030403 0.0208008 0.9969597 -0.0208008 0.9969597 -0.0208008 0.0030403 0.0208008
1173000000 0.0030714 0.0212452 0.9969286 -0.0212452 0.9969286 -0.0212452 0.0030714 0.0212452
1180250000 0.0031029 0.0216880 0.9968971 -0.0216880 0.9968971 -0.0216880 0.0031029 0.0216880
1187500000 0.0031348 0.0221293 0.9968652 -0.0221293 0.9968652 -0.0221293 0.0031348 0.0221293
1194750000 0.0031672 0.0225690 0.9968328 -0.0225690 0.9968328 -0.0225690 0.0031672 0.0225690
1202000000 0.0032000 0.0230073 0.9968000 -0.0230073 0.9968000 -0.0230073 0.0032000 0.0230073
1209250000 0.0032332 0.0234441 0.9967668 -0.0234441 0.9967668 -0.0234441 0.0032332 0.0234441
1216500000 0.0032668 0.0238795 0.9967332 -0.0238795 0.9967332 -0.0238795 0.0032668 0.0238795
1223750000 0.0033009 0.0243135 0.9966991 -0.0243135 0.9966991 -0.0243135 0.0033009 0.0243135
1231000000 0.0033353 0.0247461 0.9966647 -0.0247461 0.9966647 -0.0247461 0.0033353 0.0247461
1238250000 0.0033702 0.0251774 0.9966298 -0.0251774 0.9966298 -0.0251774 0.0033702 0.0251774
1245500000 0.0034055 0.0256075 0.9965945 -0.0256075 0.9965945 -0.0256075 0.0034055 0.0256075
1252750000 0.0034412 0.0260362 0.9965588 -0.0260362 0.9965588 -0.0260362 0.0034412 0.0260362
1260000000 0.0034773 0.0264637 0.9965227 -0.0264637 0.9965227 -0.0264637 0.0034773 0.0264637
1267250000 0.0035138 0.0268900 0.9964862 -0.0268900 0.9964862 -0.0268900 0.0035138 0.0268900
1274500000 0.0035508 0.0273152 0.9964492 -0.0273152 0.9964492 -0.0273152 0.0035508 0.0273152
1281750000 0.0035881 0.0277391 0.9964119 -0.0277391 0.9964119 -0.0277391 0.0035881 0.0277391
1289000000 0.0036259 0.0281620 0.9963741 -0.0281620 0.9963741 -0.0281620 0.0036259 0.0281620
1296250000 0.0036640 0.0285837 0.9963360 -0.0285837 0.9963360 -0.0285837 0.0036640 0.0285837
1303500000 0.0037026 0.0290044 0.9962974 -0.0290044 0.9962974 -0.0290044 0.0037026 0.0290044
1310750000 0.0037416 0.0294240 0.9962584 -0.0294240 0.9962584 -0.0294240 0.0037416 0.0294240
1318000000 0.0037810 0.0298426 0.9962190 -0.0298426 0.9962190 -0.0298426 0.0037810 0.0298426
1325250000 0.0038208 0.0302602 0.9961792 -0.0302602 0.9961792 -0.0302602 0.0038208 0.0302602
1332500000 0.0038610 0.0306768 0.9961390 -0.0306768 0.9961390 -0.0306768 0.0038610 0.0306768
1339750000 0.0039016 0.0310924 0.9960984 -0.0310924 0.9960984 -0.0310924 0.0039016 0.0310924
1347000000 0.0039426 0.0315071 0.9960574 -0.0315071 0.9960574 -0.0315071 0.0039426 0.0315071
1354250000 0.0039840 0.0319209 0.9960160 -0.0319209 0.9960160 -0.0319209 0.0039840 0.0319209
1361500000 0.0040258 0.0323338 0.9959742 -0.0323338 0.9959742 -0.0323338 0.0040258 0.0323338
1368750000 0.0040681 0.0327459 0.9959319 -0.0327459 0.9959319 -0.0327459 0.0040681 0.0327459
1376000000 0.0041107 0.0331571 0.9958893 -0.0331571 0.9958893 -0.0331571 0.0041107 0.0331571
1383250000 0.0041538 0.0335674 0.9958462 -0.0335674 0.9958462 -0.0335674 0.0041538 0.0335674
1390500000 0.0041972 0.0339770 0.9958028 -0.0339770 0.9958028 -0.0339770 0.0041972 0.0339770
1397750000 0.0042411 0.0343858 0.9957589 -0.0343858 0.9957589 -0.0343858 0.0042411 0.0343858
1405000000 0.0042854 0.0347938 0.9957146 -0.0347938 0.9957146 -0.0347938 0.0042854 0.0347938
1412250000 0.0043301 0.0352010 0.9956699 -0.0352010 0.9956699 -0.0352010 0.0043301 0.0352010
1419500000 0.0043752 0.0356076 0.9956248 -0.0356076 0.9956248 -0.0356076 0.0043752 0.0356076
1426750000 0.0044207 0.0360134 0.9955793 -0.0360134 0.9955793 -0.0360134 0.0044207 0.0360134
1434000000 0.0044667 0.0364185 0.9955333 -0.0364185 0.9955333 -0.0364185 0.0044667 0.0364185
1441250000 0.0045130 0.0368229 0.9954870 -0.0368229 0.9954870 -0.0368229 0.0045130 0.0368229
1448500000 0.0045598 0.0372267 0.9954402 -0.0372267 0.9954402 -0.0372267 0.0045598 0.0372267
1455750000 0.0046070 0.0376299 0.9953930 -0.0376299 0.9953930 -0.0376299 0.0046070 0.0376299
1463000000 0.0046546 0.0380324 0.9953454 -0.0380324 0.9953454 -0.0380324 0.0046546 0.0380324
1470250000 0.0047026 0.0384344 0.9952974 -0.0384344 0.9952974 -0.0384344 0.0047026 0.0384344
1477500000 0.0047511 0.0388357 0.9952489 -0.0388357 0.9952489 -0.0388357 0.0047511 0.0388357
1484750000 0.0047999 0.0392365 0.9952001 -0.0392365 0.9952001 -0.0392365 0.0047999 0.0392365
1492000000 0.0048492 0.0396367 0.9951508 -0.0396367 0.9951508 -0.0396367 0.0048492 0.0396367
1499250000 0.0048990 0.0400363 0.9951010 -0.0400363 0.9951010 -0.0400363 0.0048990 0.0400363
1506500000 0.0049491 0.0404355 0.9950509 -0.0404355 0.9950509 -0.0404355 0.0049491 0.0404355
1513750000 0.0049997 0.0408341 0.9950003 -0.0408341 0.9950003 -0.0408341 0.0049997 0.0408341
1521000000 0.0050507 0.0412323 0.9949493 -0.0412323 0.9949493 -0.0412323 0.0050507 0.0412323
1528250000 0.0051021 0.0416299 0.9948979 -0.0416299 0.9948979 -0.0416299 0.0051021 0.0416299
1535500000 0.0051540 0.0420271 0.9948460 -0.0420271 0.9948460 -0.0420271 0.0051540 0.0420271
1542750000 0.0052063 0.0424239 0.9947937 -0.0424239 0.9947937 -0.0424239 0.0052063 0.0424239
1550000000 0.0052591 0.0428202 0.9947409 -0.0428202 0.9947409 -0.0428202 0.0052591 0.0428202
1557250000 0.0053123 0.0432161 0.9946877 -0.0432161 0.9946877 -0.0432161 0.0053123 0.0432161
1564500000 0.0053659 0.0436116 0.9946341 -0.0436116 0.9946341 -0.0436116 0.0053659 0.0436116
1571750000 0.0054200 0.0440067 0.9945800 -0.0440067 0.9945800 -0.0440067 0.0054200 0.0440067
1579000000 0.0054745 0.0444014 0.9945255 -0.0444014 0.9945255 -0.0444014 0.0054745 0.0444014
1586250000 0.0055295 0.0447957 0.9944705 -0.0447957 0.9944705 -0.0447957 0.0055295 0.0447957
1593500000 0.0055850 0.0451897 0.9944150 -0.0451897 0.9944150 -0.0451897 0.0055850 0.0451897
1600750000 0.0056408 0.0455834 0.9943592 -0.0455834 0.9943592 -0.0455834 0.0056408 0.0455834
1608000000 0.0056972 0.0459767 0.9943028 -0.0459767 0.9943028 -0.0459767 0.0056972 0.0459767
1615250000 0.0057540 0.0463697 0.9942460 -0.0463697 0.9942460 -0.0463697 0.0057540 0.0463697
1622500000 0.0058113 0.0467624 0.9941887 -0.0467624 0.9941887 -0.0467624 0.0058113 0.0467624
1629750000 0.0058690 0.0471548 0.9941310 -0.0471548 0.9941310 -0.0471548 0.0058690 0.0471548
