!Murata Part Number: GRM2197U1A473JA01
!These Parameters are Measured in Series Mode Connection
!Data Generated on Mar 30, 2021
!       o--ll--o
!Port1            Port2
!       o------o
!Operation Temp=25[degC], DC Bias Voltage=0[V]
!Freq. Start=1000[kHz] Stop=6[GHz] 401[Steps]
# Hz S RI R 50
!Freq.(Hz) S11(Real) S11(Imag) S21(Real) S21(Imag) S12(Real) S12(Imag) S22(Real) S22(Imag)
1000000 0.0012480 -0.0345654 0.9987520 0.0345654 0.9987520 0.0345654 0.0012480 -0.0345654
1021987 0.0011970 -0.0338217 0.9988030 0.0338217 0.9988030 0.0338217 0.0011970 -0.0338217
1044457 0.0011482 -0.0330939 0.9988518 0.0330939 0.9988518 0.0330939 0.0011482 -0.0330939
1067422 0.0011015 -0.0323815 0.9988985 0.0323815 0.9988985 0.0323815 0.0011015 -0.0323815
1090891 0.0010568 -0.0316844 0.9989432 0.0316844 0.9989432 0.0316844 0.0010568 -0.0316844
1114877 0.0010140 -0.0310021 0.9989860 0.0310021 0.9989860 0.0310021 0.0010140 -0.0310021
1139390 0.0009730 -0.0303344 0.9990270 0.0303344 0.9990270 0.0303344 0.0009730 -0.0303344
1164441 0.0009337 -0.0296809 0.9990663 0.0296809 0.9990663 0.0296809 0.0009337 -0.0296809
1190044 0.0008961 -0.0290414 0.9991039 0.0290414 0.9991039 0.0290414 0.0008961 -0.0290414
1216210 0.0008602 -0.0284155 0.9991398 0.0284155 0.9991398 0.0284155 0.0008602 -0.0284155
1242950 0.0008257 -0.0278029 0.9991743 0.0278029 0.9991743 0.0278029 0.0008257 -0.0278029
1270279 0.0007927 -0.0272035 0.9992073 0.0272035 0.9992073 0.0272035 0.0007927 -0.0272035
1298209 0.0007612 -0.0266168 0.9992388 0.0266168 0.9992388 0.0266168 0.0007612 -0.0266168
1326753 0.0007309 -0.0260426 0.9992691 0.0260426 0.9992691 0.0260426 0.0007309 -0.0260426
1355924 0.0007020 -0.0254807 0.9992980 0.0254807 0.9992980 0.0254807 0.0007020 -0.0254807
1385737 0.0006743 -0.0249308 0.9993257 0.0249308 0.9993257 0.0249308 0.0006743 -0.0249308
1416205 0.0006478 -0.0243926 0.9993522 0.0243926 0.9993522 0.0243926 0.0006478 -0.0243926
1447343 0.0006224 -0.0238659 0.9993776 0.0238659 0.9993776 0.0238659 0.0006224 -0.0238659
1479166 0.0005981 -0.0233505 0.9994019 0.0233505 0.9994019 0.0233505 0.0005981 -0.0233505
1511688 0.0005748 -0.0228460 0.9994252 0.0228460 0.9994252 0.0228460 0.0005748 -0.0228460
1544926 0.0005525 -0.0223523 0.9994475 0.0223523 0.9994475 0.0223523 0.0005525 -0.0223523
1578894 0.0005312 -0.0218692 0.9994688 0.0218692 0.9994688 0.0218692 0.0005312 -0.0218692
1613609 0.0005108 -0.0213963 0.9994892 0.0213963 0.9994892 0.0213963 0.0005108 -0.0213963
1649087 0.0004913 -0.0209335 0.9995087 0.0209335 0.9995087 0.0209335 0.0004913 -0.0209335
1685346 0.0004726 -0.0204806 0.9995274 0.0204806 0.9995274 0.0204806 0.0004726 -0.0204806
1722402 0.0004547 -0.0200374 0.9995453 0.0200374 0.9995453 0.0200374 0.0004547 -0.0200374
1760272 0.0004376 -0.0196036 0.9995624 0.0196036 0.9995624 0.0196036 0.0004376 -0.0196036
1798975 0.0004212 -0.0191790 0.9995788 0.0191790 0.9995788 0.0191790 0.0004212 -0.0191790
1838529 0.0004055 -0.0187635 0.9995945 0.0187635 0.9995945 0.0187635 0.0004055 -0.0187635
1878953 0.0003905 -0.0183568 0.9996095 0.0183568 0.9996095 0.0183568 0.0003905 -0.0183568
1920266 0.0003761 -0.0179588 0.9996239 0.0179588 0.9996239 0.0179588 0.0003761 -0.0179588
1962487 0.0003624 -0.0175693 0.9996376 0.0175693 0.9996376 0.0175693 0.0003624 -0.0175693
2005636 0.0003492 -0.0171881 0.9996508 0.0171881 0.9996508 0.0171881 0.0003492 -0.0171881
2049734 0.0003367 -0.0168150 0.9996633 0.0168150 0.9996633 0.0168150 0.0003367 -0.0168150
2094801 0.0003246 -0.0164498 0.9996754 0.0164498 0.9996754 0.0164498 0.0003246 -0.0164498
2140860 0.0003131 -0.0160924 0.9996869 0.0160924 0.9996869 0.0160924 0.0003131 -0.0160924
2187931 0.0003021 -0.0157426 0.9996979 0.0157426 0.9996979 0.0157426 0.0003021 -0.0157426
2236037 0.0002916 -0.0154002 0.9997084 0.0154002 0.9997084 0.0154002 0.0002916 -0.0154002
2285201 0.0002815 -0.0150651 0.9997185 0.0150651 0.9997185 0.0150651 0.0002815 -0.0150651
2335446 0.0002718 -0.0147371 0.9997282 0.0147371 0.9997282 0.0147371 0.0002718 -0.0147371
2386795 0.0002626 -0.0144161 0.9997374 0.0144161 0.9997374 0.0144161 0.0002626 -0.0144161
2439274 0.0002538 -0.0141019 0.9997462 0.0141019 0.9997462 0.0141019 0.0002538 -0.0141019
2492906 0.0002454 -0.0137943 0.9997546 0.0137943 0.9997546 0.0137943 0.0002454 -0.0137943
2547717 0.0002373 -0.0134933 0.9997627 0.0134933 0.9997627 0.0134933 0.0002373 -0.0134933
2603734 0.0002297 -0.0131986 0.9997703 0.0131986 0.9997703 0.0131986 0.0002297 -0.0131986
2660982 0.0002223 -0.0129102 0.9997777 0.0129102 0.9997777 0.0129102 0.0002223 -0.0129102
2719490 0.0002153 -0.0126279 0.9997847 0.0126279 0.9997847 0.0126279 0.0002153 -0.0126279
2779283 0.0002086 -0.0123515 0.9997914 0.0123515 0.9997914 0.0123515 0.0002086 -0.0123515
2840391 0.0002021 -0.0120810 0.9997979 0.0120810 0.9997979 0.0120810 0.0002021 -0.0120810
2902843 0.0001960 -0.0118162 0.9998040 0.0118162 0.9998040 0.0118162 0.0001960 -0.0118162
2966668 0.0001902 -0.0115570 0.9998098 0.0115570 0.9998098 0.0115570 0.0001902 -0.0115570
3031896 0.0001846 -0.0113033 0.9998154 0.0113033 0.9998154 0.0113033 0.0001846 -0.0113033
3098558 0.0001793 -0.0110549 0.9998207 0.0110549 0.9998207 0.0110549 0.0001793 -0.0110549
3166686 0.0001742 -0.0108117 0.9998258 0.0108117 0.9998258 0.0108117 0.0001742 -0.0108117
3236312 0.0001693 -0.0105737 0.9998307 0.0105737 0.9998307 0.0105737 0.0001693 -0.0105737
3307469 0.0001647 -0.0103406 0.9998353 0.0103406 0.9998353 0.0103406 0.0001647 -0.0103406
3380190 0.0001603 -0.0101125 0.9998397 0.0101125 0.9998397 0.0101125 0.0001603 -0.0101125
3454511 0.0001561 -0.0098891 0.9998439 0.0098891 0.9998439 0.0098891 0.0001561 -0.0098891
3530465 0.0001521 -0.0096704 0.9998479 0.0096704 0.9998479 0.0096704 0.0001521 -0.0096704
3608090 0.0001483 -0.0094563 0.9998517 0.0094563 0.9998517 0.0094563 0.0001483 -0.0094563
3687421 0.0001447 -0.0092467 0.9998553 0.0092467 0.9998553 0.0092467 0.0001447 -0.0092467
3768496 0.0001412 -0.0090415 0.9998588 0.0090415 0.9998588 0.0090415 0.0001412 -0.0090415
3851354 0.0001379 -0.0088405 0.9998621 0.0088405 0.9998621 0.0088405 0.0001379 -0.0088405
3936034 0.0001348 -0.0086437 0.9998652 0.0086437 0.9998652 0.0086437 0.0001348 -0.0086437
4022575 0.0001318 -0.0084511 0.9998682 0.0084511 0.9998682 0.0084511 0.0001318 -0.0084511
4111020 0.0001290 -0.0082624 0.9998710 0.0082624 0.9998710 0.0082624 0.0001290 -0.0082624
4201409 0.0001264 -0.0080777 0.9998736 0.0080777 0.9998736 0.0080777 0.0001264 -0.0080777
4293785 0.0001238 -0.0078967 0.9998762 0.0078967 0.9998762 0.0078967 0.0001238 -0.0078967
4388193 0.0001214 -0.0077196 0.9998786 0.0077196 0.9998786 0.0077196 0.0001214 -0.0077196
4484676 0.0001192 -0.0075460 0.9998808 0.0075460 0.9998808 0.0075460 0.0001192 -0.0075460
4583281 0.0001170 -0.0073761 0.9998830 0.0073761 0.9998830 0.0073761 0.0001170 -0.0073761
4684054 0.0001150 -0.0072097 0.9998850 0.0072097 0.9998850 0.0072097 0.0001150 -0.0072097
4787042 0.0001131 -0.0070467 0.9998869 0.0070467 0.9998869 0.0070467 0.0001131 -0.0070467
4892295 0.0001113 -0.0068870 0.9998887 0.0068870 0.9998887 0.0068870 0.0001113 -0.0068870
4999862 0.0001096 -0.0067306 0.9998904 0.0067306 0.9998904 0.0067306 0.0001096 -0.0067306
5109794 0.0001080 -0.0065774 0.9998920 0.0065774 0.9998920 0.0065774 0.0001080 -0.0065774
5222143 0.0001065 -0.0064273 0.9998935 0.0064273 0.9998935 0.0064273 0.0001065 -0.0064273
5336962 0.0001050 -0.0062803 0.9998950 0.0062803 0.9998950 0.0062803 0.0001050 -0.0062803
5454306 0.0001037 -0.0061363 0.9998963 0.0061363 0.9998963 0.0061363 0.0001037 -0.0061363
5574230 0.0001025 -0.0059952 0.9998975 0.0059952 0.9998975 0.0059952 0.0001025 -0.0059952
5696791 0.0001013 -0.0058569 0.9998987 0.0058569 0.9998987 0.0058569 0.0001013 -0.0058569
5822046 0.0001003 -0.0057214 0.9998997 0.0057214 0.9998997 0.0057214 0.0001003 -0.0057214
5950055 0.0000993 -0.0055887 0.9999007 0.0055887 0.9999007 0.0055887 0.0000993 -0.0055887
6080879 0.0000983 -0.0054586 0.9999017 0.0054586 0.9999017 0.0054586 0.0000983 -0.0054586
6214580 0.0000975 -0.0053311 0.9999025 0.0053311 0.9999025 0.0053311 0.0000975 -0.0053311
6351220 0.0000967 -0.0052062 0.9999033 0.0052062 0.9999033 0.0052062 0.0000967 -0.0052062
6490864 0.0000960 -0.0050837 0.9999040 0.0050837 0.9999040 0.0050837 0.0000960 -0.0050837
6633579 0.0000953 -0.0049636 0.9999047 0.0049636 0.9999047 0.0049636 0.0000953 -0.0049636
6779431 0.0000947 -0.0048460 0.9999053 0.0048460 0.9999053 0.0048460 0.0000947 -0.0048460
6928491 0.0000942 -0.0047306 0.9999058 0.0047306 0.9999058 0.0047306 0.0000942 -0.0047306
7080828 0.0000937 -0.0046175 0.9999063 0.0046175 0.9999063 0.0046175 0.0000937 -0.0046175
7236514 0.0000932 -0.0045066 0.9999068 0.0045066 0.9999068 0.0045066 0.0000932 -0.0045066
7395623 0.0000928 -0.0043978 0.9999072 0.0043978 0.9999072 0.0043978 0.0000928 -0.0043978
7558231 0.0000925 -0.0042912 0.9999075 0.0042912 0.9999075 0.0042912 0.0000925 -0.0042912
7724414 0.0000922 -0.0041866 0.9999078 0.0041866 0.9999078 0.0041866 0.0000922 -0.0041866
7894251 0.0000920 -0.0040840 0.9999080 0.0040840 0.9999080 0.0040840 0.0000920 -0.0040840
8067822 0.0000918 -0.0039833 0.9999082 0.0039833 0.9999082 0.0039833 0.0000918 -0.0039833
8245209 0.0000916 -0.0038846 0.9999084 0.0038846 0.9999084 0.0038846 0.0000916 -0.0038846
8426497 0.0000915 -0.0037877 0.9999085 0.0037877 0.9999085 0.0037877 0.0000915 -0.0037877
8611770 0.0000914 -0.0036926 0.9999086 0.0036926 0.9999086 0.0036926 0.0000914 -0.0036926
8801117 0.0000913 -0.0035993 0.9999087 0.0035993 0.9999087 0.0035993 0.0000913 -0.0035993
8994628 0.0000913 -0.0035077 0.9999087 0.0035077 0.9999087 0.0035077 0.0000913 -0.0035077
9192393 0.0000913 -0.0034178 0.9999087 0.0034178 0.9999087 0.0034178 0.0000913 -0.0034178
9394506 0.0000913 -0.0033295 0.9999087 0.0033295 0.9999087 0.0033295 0.0000913 -0.0033295
9601063 0.0000914 -0.0032428 0.9999086 0.0032428 0.9999086 0.0032428 0.0000914 -0.0032428
9812162 0.0000915 -0.0031577 0.9999085 0.0031577 0.9999085 0.0031577 0.0000915 -0.0031577
10027902 0.0000917 -0.0030741 0.9999083 0.0030741 0.9999083 0.0030741 0.0000917 -0.0030741
10248386 0.0000918 -0.0029919 0.9999082 0.0029919 0.9999082 0.0029919 0.0000918 -0.0029919
10473717 0.0000920 -0.0029112 0.9999080 0.0029112 0.9999080 0.0029112 0.0000920 -0.0029112
10704003 0.0000922 -0.0028319 0.9999078 0.0028319 0.9999078 0.0028319 0.0000922 -0.0028319
10939352 0.0000924 -0.0027539 0.9999076 0.0027539 0.9999076 0.0027539 0.0000924 -0.0027539
11179876 0.0000927 -0.0026773 0.9999073 0.0026773 0.9999073 0.0026773 0.0000927 -0.0026773
11425688 0.0000929 -0.0026019 0.9999071 0.0026019 0.9999071 0.0026019 0.0000929 -0.0026019
11676904 0.0000932 -0.0025278 0.9999068 0.0025278 0.9999068 0.0025278 0.0000932 -0.0025278
11933645 0.0000936 -0.0024549 0.9999064 0.0024549 0.9999064 0.0024549 0.0000936 -0.0024549
12196030 0.0000939 -0.0023832 0.9999061 0.0023832 0.9999061 0.0023832 0.0000939 -0.0023832
12464184 0.0000943 -0.0023126 0.9999057 0.0023126 0.9999057 0.0023126 0.0000943 -0.0023126
12738235 0.0000946 -0.0022431 0.9999054 0.0022431 0.9999054 0.0022431 0.0000946 -0.0022431
13018310 0.0000950 -0.0021746 0.9999050 0.0021746 0.9999050 0.0021746 0.0000950 -0.0021746
13304544 0.0000955 -0.0021073 0.9999045 0.0021073 0.9999045 0.0021073 0.0000955 -0.0021073
13597071 0.0000959 -0.0020409 0.9999041 0.0020409 0.9999041 0.0020409 0.0000959 -0.0020409
13896030 0.0000963 -0.0019755 0.9999037 0.0019755 0.9999037 0.0019755 0.0000963 -0.0019755
14201563 0.0000968 -0.0019110 0.9999032 0.0019110 0.9999032 0.0019110 0.0000968 -0.0019110
14513813 0.0000973 -0.0018475 0.9999027 0.0018475 0.9999027 0.0018475 0.0000973 -0.0018475
14832928 0.0000978 -0.0017848 0.9999022 0.0017848 0.9999022 0.0017848 0.0000978 -0.0017848
15159060 0.0000984 -0.0017230 0.9999016 0.0017230 0.9999016 0.0017230 0.0000984 -0.0017230
15492362 0.0000989 -0.0016620 0.9999011 0.0016620 0.9999011 0.0016620 0.0000989 -0.0016620
15832993 0.0000995 -0.0016018 0.9999005 0.0016018 0.9999005 0.0016018 0.0000995 -0.0016018
16181113 0.0001001 -0.0015423 0.9998999 0.0015423 0.9998999 0.0015423 0.0001001 -0.0015423
16536888 0.0001007 -0.0014836 0.9998993 0.0014836 0.9998993 0.0014836 0.0001007 -0.0014836
16900485 0.0001014 -0.0014256 0.9998986 0.0014256 0.9998986 0.0014256 0.0001014 -0.0014256
17272076 0.0001020 -0.0013682 0.9998980 0.0013682 0.9998980 0.0013682 0.0001020 -0.0013682
17651837 0.0001027 -0.0013115 0.9998973 0.0013115 0.9998973 0.0013115 0.0001027 -0.0013115
18039948 0.0001035 -0.0012554 0.9998965 0.0012554 0.9998965 0.0012554 0.0001035 -0.0012554
18436593 0.0001042 -0.0011999 0.9998958 0.0011999 0.9998958 0.0011999 0.0001042 -0.0011999
18841959 0.0001050 -0.0011449 0.9998950 0.0011449 0.9998950 0.0011449 0.0001050 -0.0011449
19256237 0.0001058 -0.0010905 0.9998942 0.0010905 0.9998942 0.0010905 0.0001058 -0.0010905
19679624 0.0001066 -0.0010365 0.9998934 0.0010365 0.9998934 0.0010365 0.0001066 -0.0010365
20112321 0.0001075 -0.0009831 0.9998925 0.0009831 0.9998925 0.0009831 0.0001075 -0.0009831
20554530 0.0001084 -0.0009301 0.9998916 0.0009301 0.9998916 0.0009301 0.0001084 -0.0009301
21006463 0.0001093 -0.0008775 0.9998907 0.0008775 0.9998907 0.0008775 0.0001093 -0.0008775
21468333 0.0001103 -0.0008253 0.9998897 0.0008253 0.9998897 0.0008253 0.0001103 -0.0008253
21940357 0.0001113 -0.0007734 0.9998887 0.0007734 0.9998887 0.0007734 0.0001113 -0.0007734
22422760 0.0001124 -0.0007220 0.9998876 0.0007220 0.9998876 0.0007220 0.0001124 -0.0007220
22915770 0.0001135 -0.0006708 0.9998865 0.0006708 0.9998865 0.0006708 0.0001135 -0.0006708
23419619 0.0001146 -0.0006199 0.9998854 0.0006199 0.9998854 0.0006199 0.0001146 -0.0006199
23934547 0.0001158 -0.0005692 0.9998842 0.0005692 0.9998842 0.0005692 0.0001158 -0.0005692
24460796 0.0001171 -0.0005188 0.9998829 0.0005188 0.9998829 0.0005188 0.0001171 -0.0005188
24998616 0.0001184 -0.0004686 0.9998816 0.0004686 0.9998816 0.0004686 0.0001184 -0.0004686
25548261 0.0001198 -0.0004185 0.9998802 0.0004185 0.9998802 0.0004185 0.0001198 -0.0004185
26109991 0.0001212 -0.0003686 0.9998788 0.0003686 0.9998788 0.0003686 0.0001212 -0.0003686
26684072 0.0001227 -0.0003188 0.9998773 0.0003188 0.9998773 0.0003188 0.0001227 -0.0003188
27270775 0.0001243 -0.0002691 0.9998757 0.0002691 0.9998757 0.0002691 0.0001243 -0.0002691
27870378 0.0001259 -0.0002194 0.9998741 0.0002194 0.9998741 0.0002194 0.0001259 -0.0002194
28483164 0.0001276 -0.0001697 0.9998724 0.0001697 0.9998724 0.0001697 0.0001276 -0.0001697
29109424 0.0001294 -0.0001201 0.9998706 0.0001201 0.9998706 0.0001201 0.0001294 -0.0001201
29749453 0.0001314 -0.0000704 0.9998686 0.0000704 0.9998686 0.0000704 0.0001314 -0.0000704
30403555 0.0001334 -0.0000206 0.9998666 0.0000206 0.9998666 0.0000206 0.0001334 -0.0000206
31072038 0.0001355 0.0000293 0.9998645 -0.0000293 0.9998645 -0.0000293 0.0001355 0.0000293
31755220 0.0001377 0.0000793 0.9998623 -0.0000793 0.9998623 -0.0000793 0.0001377 0.0000793
32453422 0.0001401 0.0001296 0.9998599 -0.0001296 0.9998599 -0.0001296 0.0001401 0.0001296
33166976 0.0001426 0.0001800 0.9998574 -0.0001800 0.9998574 -0.0001800 0.0001426 0.0001800
33896219 0.0001452 0.0002307 0.9998548 -0.0002307 0.9998548 -0.0002307 0.0001452 0.0002307
34641496 0.0001480 0.0002817 0.9998520 -0.0002817 0.9998520 -0.0002817 0.0001480 0.0002817
35403159 0.0001510 0.0003331 0.9998490 -0.0003331 0.9998490 -0.0003331 0.0001510 0.0003331
36181569 0.0001541 0.0003849 0.9998459 -0.0003849 0.9998459 -0.0003849 0.0001541 0.0003849
36977093 0.0001575 0.0004371 0.9998425 -0.0004371 0.9998425 -0.0004371 0.0001575 0.0004371
37790109 0.0001611 0.0004899 0.9998389 -0.0004899 0.9998389 -0.0004899 0.0001611 0.0004899
38621001 0.0001649 0.0005432 0.9998351 -0.0005432 0.9998351 -0.0005432 0.0001649 0.0005432
39470161 0.0001690 0.0005971 0.9998310 -0.0005971 0.9998310 -0.0005971 0.0001690 0.0005971
40337993 0.0001735 0.0006518 0.9998265 -0.0006518 0.9998265 -0.0006518 0.0001735 0.0006518
41224905 0.0001782 0.0007073 0.9998218 -0.0007073 0.9998218 -0.0007073 0.0001782 0.0007073
42131317 0.0001834 0.0007637 0.9998166 -0.0007637 0.9998166 -0.0007637 0.0001834 0.0007637
43057659 0.0001891 0.0008211 0.9998109 -0.0008211 0.9998109 -0.0008211 0.0001891 0.0008211
44004369 0.0001953 0.0008796 0.9998047 -0.0008796 0.9998047 -0.0008796 0.0001953 0.0008796
44971893 0.0002021 0.0009393 0.9997979 -0.0009393 0.9997979 -0.0009393 0.0002021 0.0009393
45960691 0.0002097 0.0010005 0.9997903 -0.0010005 0.9997903 -0.0010005 0.0002097 0.0010005
46971230 0.0002182 0.0010633 0.9997818 -0.0010633 0.9997818 -0.0010633 0.0002182 0.0010633
48003987 0.0002277 0.0011280 0.9997723 -0.0011280 0.9997723 -0.0011280 0.0002277 0.0011280
49059451 0.0002386 0.0011948 0.9997614 -0.0011948 0.9997614 -0.0011948 0.0002386 0.0011948
50138122 0.0002512 0.0012640 0.9997488 -0.0012640 0.9997488 -0.0012640 0.0002512 0.0012640
51240510 0.0002661 0.0013361 0.9997339 -0.0013361 0.9997339 -0.0013361 0.0002661 0.0013361
52367136 0.0002839 0.0014115 0.9997161 -0.0014115 0.9997161 -0.0014115 0.0002839 0.0014115
53518533 0.0003057 0.0014909 0.9996943 -0.0014909 0.9996943 -0.0014909 0.0003057 0.0014909
54695245 0.0003330 0.0015747 0.9996670 -0.0015747 0.9996670 -0.0015747 0.0003330 0.0015747
55897831 0.0003685 0.0016636 0.9996315 -0.0016636 0.9996315 -0.0016636 0.0003685 0.0016636
57126857 0.0004159 0.0017579 0.9995841 -0.0017579 0.9995841 -0.0017579 0.0004159 0.0017579
58382906 0.0004817 0.0018564 0.9995183 -0.0018564 0.9995183 -0.0018564 0.0004817 0.0018564
59666572 0.0005756 0.0019543 0.9994244 -0.0019543 0.9994244 -0.0019543 0.0005756 0.0019543
60978462 0.0007108 0.0020369 0.9992892 -0.0020369 0.9992892 -0.0020369 0.0007108 0.0020369
62319196 0.0008945 0.0020676 0.9991055 -0.0020676 0.9991055 -0.0020676 0.0008945 0.0020676
63689409 0.0010918 0.0019867 0.9989082 -0.0019867 0.9989082 -0.0019867 0.0010918 0.0019867
65089750 0.0011872 0.0017836 0.9988128 -0.0017836 0.9988128 -0.0017836 0.0011872 0.0017836
66520879 0.0011020 0.0015918 0.9988980 -0.0015918 0.9988980 -0.0015918 0.0011020 0.0015918
67983474 0.0009302 0.0015320 0.9990698 -0.0015320 0.9990698 -0.0015320 0.0009302 0.0015320
69478228 0.0007809 0.0015814 0.9992191 -0.0015814 0.9992191 -0.0015814 0.0007809 0.0015814
71005847 0.0006822 0.0016812 0.9993178 -0.0016812 0.9993178 -0.0016812 0.0006822 0.0016812
72567054 0.0006255 0.0017978 0.9993745 -0.0017978 0.9993745 -0.0017978 0.0006255 0.0017978
74162587 0.0005987 0.0019182 0.9994013 -0.0019182 0.9994013 -0.0019182 0.0005987 0.0019182
75793201 0.0005930 0.0020382 0.9994070 -0.0020382 0.9994070 -0.0020382 0.0005930 0.0020382
77459667 0.0006037 0.0021572 0.9993963 -0.0021572 0.9993963 -0.0021572 0.0006037 0.0021572
79162774 0.0006284 0.0022754 0.9993716 -0.0022754 0.9993716 -0.0022754 0.0006284 0.0022754
80903327 0.0006668 0.0023933 0.9993332 -0.0023933 0.9993332 -0.0023933 0.0006668 0.0023933
82682150 0.0007200 0.0025108 0.9992800 -0.0025108 0.9992800 -0.0025108 0.0007200 0.0025108
84500083 0.0007902 0.0026272 0.9992098 -0.0026272 0.9992098 -0.0026272 0.0007902 0.0026272
86357988 0.0008812 0.0027399 0.9991188 -0.0027399 0.9991188 -0.0027399 0.0008812 0.0027399
88256743 0.0009975 0.0028438 0.9990025 -0.0028438 0.9990025 -0.0028438 0.0009975 0.0028438
90197245 0.0011434 0.0029296 0.9988566 -0.0029296 0.9988566 -0.0029296 0.0011434 0.0029296
92180413 0.0013203 0.0029812 0.9986797 -0.0029812 0.9986797 -0.0029812 0.0013203 0.0029812
94207185 0.0015200 0.0029763 0.9984800 -0.0029763 0.9984800 -0.0029763 0.0015200 0.0029763
96278520 0.0017159 0.0028921 0.9982841 -0.0028921 0.9982841 -0.0028921 0.0017159 0.0028921
98395398 0.0018599 0.0027245 0.9981401 -0.0027245 0.9981401 -0.0027245 0.0018599 0.0027245
100558819 0.0019022 0.0025090 0.9980978 -0.0025090 0.9980978 -0.0025090 0.0019022 0.0025090
102769807 0.0018306 0.0023121 0.9981694 -0.0023121 0.9981694 -0.0023121 0.0018306 0.0023121
105029408 0.0016812 0.0021879 0.9983188 -0.0021879 0.9983188 -0.0021879 0.0016812 0.0021879
107338692 0.0015076 0.0021494 0.9984924 -0.0021494 0.9984924 -0.0021494 0.0015076 0.0021494
