!Murata Part Number: GRM21A5C2E560JW01
!These Parameters are Measured in Series Mode Connection
!Data Generated on Mar 30, 2021
!       o--ll--o
!Port1            Port2
!       o------o
!Operation Temp=25[degC], DC Bias Voltage=0[V]
!Freq. Start=100[MHz] Stop=3[GHz] 401[Steps]
# Hz S RI R 50
!Freq.(Hz) S11(Real) S11(Imag) S21(Real) S21(Imag) S12(Real) S12(Imag) S22(Real) S22(Imag)
100000000 0.0739411 -0.2584077 0.9260589 0.2584077 0.9260589 0.2584077 0.0739411 -0.2584077
107250000 0.0648239 -0.2427028 0.9351761 0.2427028 0.9351761 0.2427028 0.0648239 -0.2427028
114500000 0.0572500 -0.2285613 0.9427500 0.2285613 0.9427500 0.2285613 0.0572500 -0.2285613
121750000 0.0508961 -0.2157790 0.9491039 0.2157790 0.9491039 0.2157790 0.0508961 -0.2157790
129000000 0.0455179 -0.2041808 0.9544821 0.2041808 0.9544821 0.2041808 0.0455179 -0.2041808
136250000 0.0409286 -0.1936165 0.9590714 0.1936165 0.9590714 0.1936165 0.0409286 -0.1936165
143500000 0.0369832 -0.1839581 0.9630168 0.1839581 0.9630168 0.1839581 0.0369832 -0.1839581
150750000 0.0335682 -0.1750963 0.9664318 0.1750963 0.9664318 0.1750963 0.0335682 -0.1750963
158000000 0.0305940 -0.1669375 0.9694060 0.1669375 0.9694060 0.1669375 0.0305940 -0.1669375
165250000 0.0279886 -0.1594016 0.9720114 0.1594016 0.9720114 0.1594016 0.0279886 -0.1594016
172500000 0.0256943 -0.1524195 0.9743057 0.1524195 0.9743057 0.1524195 0.0256943 -0.1524195
179750000 0.0236641 -0.1459316 0.9763359 0.1459316 0.9763359 0.1459316 0.0236641 -0.1459316
187000000 0.0218594 -0.1398864 0.9781406 0.1398864 0.9781406 0.1398864 0.0218594 -0.1398864
194250000 0.0202485 -0.1342388 0.9797515 0.1342388 0.9797515 0.1342388 0.0202485 -0.1342388
201500000 0.0188049 -0.1289497 0.9811951 0.1289497 0.9811951 0.1289497 0.0188049 -0.1289497
208750000 0.0175066 -0.1239848 0.9824934 0.1239848 0.9824934 0.1239848 0.0175066 -0.1239848
216000000 0.0163350 -0.1193138 0.9836650 0.1193138 0.9836650 0.1193138 0.0163350 -0.1193138
223250000 0.0152744 -0.1149100 0.9847256 0.1149100 0.9847256 0.1149100 0.0152744 -0.1149100
230500000 0.0143114 -0.1107500 0.9856886 0.1107500 0.9856886 0.1107500 0.0143114 -0.1107500
237750000 0.0134346 -0.1068127 0.9865654 0.1068127 0.9865654 0.1068127 0.0134346 -0.1068127
245000000 0.0126344 -0.1030796 0.9873656 0.1030796 0.9873656 0.1030796 0.0126344 -0.1030796
252250000 0.0119021 -0.0995339 0.9880979 0.0995339 0.9880979 0.0995339 0.0119021 -0.0995339
259500000 0.0112305 -0.0961608 0.9887695 0.0961608 0.9887695 0.0961608 0.0112305 -0.0961608
266750000 0.0106133 -0.0929468 0.9893867 0.0929468 0.9893867 0.0929468 0.0106133 -0.0929468
274000000 0.0100448 -0.0898798 0.9899552 0.0898798 0.9899552 0.0898798 0.0100448 -0.0898798
281250000 0.0095204 -0.0869491 0.9904796 0.0869491 0.9904796 0.0869491 0.0095204 -0.0869491
288500000 0.0090356 -0.0841447 0.9909644 0.0841447 0.9909644 0.0841447 0.0090356 -0.0841447
295750000 0.0085868 -0.0814578 0.9914132 0.0814578 0.9914132 0.0814578 0.0085868 -0.0814578
303000000 0.0081706 -0.0788801 0.9918294 0.0788801 0.9918294 0.0788801 0.0081706 -0.0788801
310250000 0.0077841 -0.0764043 0.9922159 0.0764043 0.9922159 0.0764043 0.0077841 -0.0764043
317500000 0.0074246 -0.0740236 0.9925754 0.0740236 0.9925754 0.0740236 0.0074246 -0.0740236
324750000 0.0070899 -0.0717318 0.9929101 0.0717318 0.9929101 0.0717318 0.0070899 -0.0717318
332000000 0.0067778 -0.0695234 0.9932222 0.0695234 0.9932222 0.0695234 0.0067778 -0.0695234
339250000 0.0064866 -0.0673931 0.9935134 0.0673931 0.9935134 0.0673931 0.0064866 -0.0673931
346500000 0.0062144 -0.0653362 0.9937856 0.0653362 0.9937856 0.0653362 0.0062144 -0.0653362
353750000 0.0059598 -0.0633481 0.9940402 0.0633481 0.9940402 0.0633481 0.0059598 -0.0633481
361000000 0.0057215 -0.0614250 0.9942785 0.0614250 0.9942785 0.0614250 0.0057215 -0.0614250
368250000 0.0054982 -0.0595630 0.9945018 0.0595630 0.9945018 0.0595630 0.0054982 -0.0595630
375500000 0.0052888 -0.0577588 0.9947112 0.0577588 0.9947112 0.0577588 0.0052888 -0.0577588
382750000 0.0050923 -0.0560090 0.9949077 0.0560090 0.9949077 0.0560090 0.0050923 -0.0560090
390000000 0.0049077 -0.0543107 0.9950923 0.0543107 0.9950923 0.0543107 0.0049077 -0.0543107
397250000 0.0047343 -0.0526611 0.9952657 0.0526611 0.9952657 0.0526611 0.0047343 -0.0526611
404500000 0.0045713 -0.0510577 0.9954287 0.0510577 0.9954287 0.0510577 0.0045713 -0.0510577
411750000 0.0044179 -0.0494980 0.9955821 0.0494980 0.9955821 0.0494980 0.0044179 -0.0494980
419000000 0.0042736 -0.0479799 0.9957264 0.0479799 0.9957264 0.0479799 0.0042736 -0.0479799
426250000 0.0041377 -0.0465013 0.9958623 0.0465013 0.9958623 0.0465013 0.0041377 -0.0465013
433500000 0.0040097 -0.0450601 0.9959903 0.0450601 0.9959903 0.0450601 0.0040097 -0.0450601
440750000 0.0038892 -0.0436546 0.9961108 0.0436546 0.9961108 0.0436546 0.0038892 -0.0436546
448000000 0.0037757 -0.0422831 0.9962243 0.0422831 0.9962243 0.0422831 0.0037757 -0.0422831
455250000 0.0036687 -0.0409439 0.9963313 0.0409439 0.9963313 0.0409439 0.0036687 -0.0409439
462500000 0.0035679 -0.0396356 0.9964321 0.0396356 0.9964321 0.0396356 0.0035679 -0.0396356
469750000 0.0034729 -0.0383567 0.9965271 0.0383567 0.9965271 0.0383567 0.0034729 -0.0383567
477000000 0.0033834 -0.0371060 0.9966166 0.0371060 0.9966166 0.0371060 0.0033834 -0.0371060
484250000 0.0032991 -0.0358821 0.9967009 0.0358821 0.9967009 0.0358821 0.0032991 -0.0358821
491500000 0.0032196 -0.0346839 0.9967804 0.0346839 0.9967804 0.0346839 0.0032196 -0.0346839
498750000 0.0031448 -0.0335102 0.9968552 0.0335102 0.9968552 0.0335102 0.0031448 -0.0335102
506000000 0.0030744 -0.0323601 0.9969256 0.0323601 0.9969256 0.0323601 0.0030744 -0.0323601
513250000 0.0030082 -0.0312326 0.9969918 0.0312326 0.9969918 0.0312326 0.0030082 -0.0312326
520500000 0.0029459 -0.0301266 0.9970541 0.0301266 0.9970541 0.0301266 0.0029459 -0.0301266
527750000 0.0028874 -0.0290413 0.9971126 0.0290413 0.9971126 0.0290413 0.0028874 -0.0290413
535000000 0.0028325 -0.0279759 0.9971675 0.0279759 0.9971675 0.0279759 0.0028325 -0.0279759
542250000 0.0027809 -0.0269296 0.9972191 0.0269296 0.9972191 0.0269296 0.0027809 -0.0269296
549500000 0.0027326 -0.0259017 0.9972674 0.0259017 0.9972674 0.0259017 0.0027326 -0.0259017
556750000 0.0026874 -0.0248913 0.9973126 0.0248913 0.9973126 0.0248913 0.0026874 -0.0248913
564000000 0.0026452 -0.0238979 0.9973548 0.0238979 0.9973548 0.0238979 0.0026452 -0.0238979
571250000 0.0026058 -0.0229208 0.9973942 0.0229208 0.9973942 0.0229208 0.0026058 -0.0229208
578500000 0.0025690 -0.0219593 0.9974310 0.0219593 0.9974310 0.0219593 0.0025690 -0.0219593
585750000 0.0025349 -0.0210129 0.9974651 0.0210129 0.9974651 0.0210129 0.0025349 -0.0210129
593000000 0.0025032 -0.0200811 0.9974968 0.0200811 0.9974968 0.0200811 0.0025032 -0.0200811
600250000 0.0024739 -0.0191633 0.9975261 0.0191633 0.9975261 0.0191633 0.0024739 -0.0191633
607500000 0.0024469 -0.0182590 0.9975531 0.0182590 0.9975531 0.0182590 0.0024469 -0.0182590
614750000 0.0024221 -0.0173678 0.9975779 0.0173678 0.9975779 0.0173678 0.0024221 -0.0173678
622000000 0.0023993 -0.0164891 0.9976007 0.0164891 0.9976007 0.0164891 0.0023993 -0.0164891
629250000 0.0023786 -0.0156225 0.9976214 0.0156225 0.9976214 0.0156225 0.0023786 -0.0156225
636500000 0.0023598 -0.0147677 0.9976402 0.0147677 0.9976402 0.0147677 0.0023598 -0.0147677
643750000 0.0023429 -0.0139242 0.9976571 0.0139242 0.9976571 0.0139242 0.0023429 -0.0139242
651000000 0.0023278 -0.0130916 0.9976722 0.0130916 0.9976722 0.0130916 0.0023278 -0.0130916
658250000 0.0023145 -0.0122696 0.9976855 0.0122696 0.9976855 0.0122696 0.0023145 -0.0122696
665500000 0.0023028 -0.0114578 0.9976972 0.0114578 0.9976972 0.0114578 0.0023028 -0.0114578
672750000 0.0022928 -0.0106559 0.9977072 0.0106559 0.9977072 0.0106559 0.0022928 -0.0106559
680000000 0.0022843 -0.0098636 0.9977157 0.0098636 0.9977157 0.0098636 0.0022843 -0.0098636
687250000 0.0022774 -0.0090806 0.9977226 0.0090806 0.9977226 0.0090806 0.0022774 -0.0090806
694500000 0.0022719 -0.0083065 0.9977281 0.0083065 0.9977281 0.0083065 0.0022719 -0.0083065
701750000 0.0022678 -0.0075411 0.9977322 0.0075411 0.9977322 0.0075411 0.0022678 -0.0075411
709000000 0.0022652 -0.0067841 0.9977348 0.0067841 0.9977348 0.0067841 0.0022652 -0.0067841
716250000 0.0022639 -0.0060353 0.9977361 0.0060353 0.9977361 0.0060353 0.0022639 -0.0060353
723500000 0.0022638 -0.0052944 0.9977362 0.0052944 0.9977362 0.0052944 0.0022638 -0.0052944
730750000 0.0022651 -0.0045611 0.9977349 0.0045611 0.9977349 0.0045611 0.0022651 -0.0045611
738000000 0.0022675 -0.0038353 0.9977325 0.0038353 0.9977325 0.0038353 0.0022675 -0.0038353
745250000 0.0022712 -0.0031167 0.9977288 0.0031167 0.9977288 0.0031167 0.0022712 -0.0031167
752500000 0.0022761 -0.0024051 0.9977239 0.0024051 0.9977239 0.0024051 0.0022761 -0.0024051
759750000 0.0022820 -0.0017002 0.9977180 0.0017002 0.9977180 0.0017002 0.0022820 -0.0017002
767000000 0.0022891 -0.0010020 0.9977109 0.0010020 0.9977109 0.0010020 0.0022891 -0.0010020
774250000 0.0022973 -0.0003102 0.9977027 0.0003102 0.9977027 0.0003102 0.0022973 -0.0003102
781500000 0.0023065 0.0003754 0.9976935 -0.0003754 0.9976935 -0.0003754 0.0023065 0.0003754
788750000 0.0023167 0.0010549 0.9976833 -0.0010549 0.9976833 -0.0010549 0.0023167 0.0010549
796000000 0.0023279 0.0017286 0.9976721 -0.0017286 0.9976721 -0.0017286 0.0023279 0.0017286
803250000 0.0023402 0.0023966 0.9976598 -0.0023966 0.9976598 -0.0023966 0.0023402 0.0023966
810500000 0.0023533 0.0030590 0.9976467 -0.0030590 0.9976467 -0.0030590 0.0023533 0.0030590
817750000 0.0023675 0.0037160 0.9976325 -0.0037160 0.9976325 -0.0037160 0.0023675 0.0037160
825000000 0.0023825 0.0043677 0.9976175 -0.0043677 0.9976175 -0.0043677 0.0023825 0.0043677
832250000 0.0023985 0.0050144 0.9976015 -0.0050144 0.9976015 -0.0050144 0.0023985 0.0050144
839500000 0.0024153 0.0056561 0.9975847 -0.0056561 0.9975847 -0.0056561 0.0024153 0.0056561
846750000 0.0024330 0.0062930 0.9975670 -0.0062930 0.9975670 -0.0062930 0.0024330 0.0062930
854000000 0.0024515 0.0069251 0.9975485 -0.0069251 0.9975485 -0.0069251 0.0024515 0.0069251
861250000 0.0024709 0.0075527 0.9975291 -0.0075527 0.9975291 -0.0075527 0.0024709 0.0075527
868500000 0.0024911 0.0081758 0.9975089 -0.0081758 0.9975089 -0.0081758 0.0024911 0.0081758
875750000 0.0025121 0.0087945 0.9974879 -0.0087945 0.9974879 -0.0087945 0.0025121 0.0087945
883000000 0.0025339 0.0094091 0.9974661 -0.0094091 0.9974661 -0.0094091 0.0025339 0.0094091
890250000 0.0025565 0.0100195 0.9974435 -0.0100195 0.9974435 -0.0100195 0.0025565 0.0100195
897500000 0.0025798 0.0106259 0.9974202 -0.0106259 0.9974202 -0.0106259 0.0025798 0.0106259
904750000 0.0026039 0.0112284 0.9973961 -0.0112284 0.9973961 -0.0112284 0.0026039 0.0112284
912000000 0.0026288 0.0118270 0.9973712 -0.0118270 0.9973712 -0.0118270 0.0026288 0.0118270
919250000 0.0026543 0.0124220 0.9973457 -0.0124220 0.9973457 -0.0124220 0.0026543 0.0124220
926500000 0.0026806 0.0130133 0.9973194 -0.0130133 0.9973194 -0.0130133 0.0026806 0.0130133
933750000 0.0027076 0.0136011 0.9972924 -0.0136011 0.9972924 -0.0136011 0.0027076 0.0136011
941000000 0.0027354 0.0141855 0.9972646 -0.0141855 0.9972646 -0.0141855 0.0027354 0.0141855
948250000 0.0027638 0.0147664 0.9972362 -0.0147664 0.9972362 -0.0147664 0.0027638 0.0147664
955500000 0.0027929 0.0153442 0.9972071 -0.0153442 0.9972071 -0.0153442 0.0027929 0.0153442
962750000 0.0028227 0.0159187 0.9971773 -0.0159187 0.9971773 -0.0159187 0.0028227 0.0159187
970000000 0.0028531 0.0164901 0.9971469 -0.0164901 0.9971469 -0.0164901 0.0028531 0.0164901
977250000 0.0028842 0.0170584 0.9971158 -0.0170584 0.9971158 -0.0170584 0.0028842 0.0170584
984500000 0.0029160 0.0176238 0.9970840 -0.0176238 0.9970840 -0.0176238 0.0029160 0.0176238
991750000 0.0029484 0.0181863 0.9970516 -0.0181863 0.9970516 -0.0181863 0.0029484 0.0181863
999000000 0.0029815 0.0187460 0.9970185 -0.0187460 0.9970185 -0.0187460 0.0029815 0.0187460
1006250000 0.0030152 0.0193029 0.9969848 -0.0193029 0.9969848 -0.0193029 0.0030152 0.0193029
1013500000 0.0030495 0.0198571 0.9969505 -0.0198571 0.9969505 -0.0198571 0.0030495 0.0198571
1020750000 0.0030845 0.0204087 0.9969155 -0.0204087 0.9969155 -0.0204087 0.0030845 0.0204087
1028000000 0.0031200 0.0209577 0.9968800 -0.0209577 0.9968800 -0.0209577 0.0031200 0.0209577
1035250000 0.0031562 0.0215042 0.9968438 -0.0215042 0.9968438 -0.0215042 0.0031562 0.0215042
1042500000 0.0031930 0.0220483 0.9968070 -0.0220483 0.9968070 -0.0220483 0.0031930 0.0220483
1049750000 0.0032304 0.0225900 0.9967696 -0.0225900 0.9967696 -0.0225900 0.0032304 0.0225900
1057000000 0.0032684 0.0231293 0.9967316 -0.0231293 0.9967316 -0.0231293 0.0032684 0.0231293
1064250000 0.0033070 0.0236664 0.9966930 -0.0236664 0.9966930 -0.0236664 0.0033070 0.0236664
1071500000 0.0033462 0.0242012 0.9966538 -0.0242012 0.9966538 -0.0242012 0.0033462 0.0242012
1078750000 0.0033860 0.0247339 0.9966140 -0.0247339 0.9966140 -0.0247339 0.0033860 0.0247339
1086000000 0.0034264 0.0252644 0.9965736 -0.0252644 0.9965736 -0.0252644 0.0034264 0.0252644
1093250000 0.0034673 0.0257929 0.9965327 -0.0257929 0.9965327 -0.0257929 0.0034673 0.0257929
1100500000 0.0035089 0.0263193 0.9964911 -0.0263193 0.9964911 -0.0263193 0.0035089 0.0263193
1107750000 0.0035510 0.0268438 0.9964490 -0.0268438 0.9964490 -0.0268438 0.0035510 0.0268438
1115000000 0.0035937 0.0273663 0.9964063 -0.0273663 0.9964063 -0.0273663 0.0035937 0.0273663
1122250000 0.0036369 0.0278869 0.9963631 -0.0278869 0.9963631 -0.0278869 0.0036369 0.0278869
1129500000 0.0036807 0.0284057 0.9963193 -0.0284057 0.9963193 -0.0284057 0.0036807 0.0284057
1136750000 0.0037251 0.0289227 0.9962749 -0.0289227 0.9962749 -0.0289227 0.0037251 0.0289227
1144000000 0.0037701 0.0294379 0.9962299 -0.0294379 0.9962299 -0.0294379 0.0037701 0.0294379
1151250000 0.0038156 0.0299514 0.9961844 -0.0299514 0.9961844 -0.0299514 0.0038156 0.0299514
1158500000 0.0038616 0.0304632 0.9961384 -0.0304632 0.9961384 -0.0304632 0.0038616 0.0304632
1165750000 0.0039083 0.0309734 0.9960917 -0.0309734 0.9960917 -0.0309734 0.0039083 0.0309734
1173000000 0.0039555 0.0314819 0.9960445 -0.0314819 0.9960445 -0.0314819 0.0039555 0.0314819
1180250000 0.0040032 0.0319889 0.9959968 -0.0319889 0.9959968 -0.0319889 0.0040032 0.0319889
1187500000 0.0040515 0.0324944 0.9959485 -0.0324944 0.9959485 -0.0324944 0.0040515 0.0324944
1194750000 0.0041003 0.0329984 0.9958997 -0.0329984 0.9958997 -0.0329984 0.0041003 0.0329984
1202000000 0.0041497 0.0335009 0.9958503 -0.0335009 0.9958503 -0.0335009 0.0041497 0.0335009
1209250000 0.0041997 0.0340019 0.9958003 -0.0340019 0.9958003 -0.0340019 0.0041997 0.0340019
1216500000 0.0042502 0.0345016 0.9957498 -0.0345016 0.9957498 -0.0345016 0.0042502 0.0345016
1223750000 0.0043012 0.0349999 0.9956988 -0.0349999 0.9956988 -0.0349999 0.0043012 0.0349999
1231000000 0.0043528 0.0354969 0.9956472 -0.0354969 0.9956472 -0.0354969 0.0043528 0.0354969
1238250000 0.0044050 0.0359926 0.9955950 -0.0359926 0.9955950 -0.0359926 0.0044050 0.0359926
1245500000 0.0044577 0.0364870 0.9955423 -0.0364870 0.9955423 -0.0364870 0.0044577 0.0364870
1252750000 0.0045109 0.0369802 0.9954891 -0.0369802 0.9954891 -0.0369802 0.0045109 0.0369802
1260000000 0.0045647 0.0374721 0.9954353 -0.0374721 0.9954353 -0.0374721 0.0045647 0.0374721
1267250000 0.0046190 0.0379629 0.9953810 -0.0379629 0.9953810 -0.0379629 0.0046190 0.0379629
1274500000 0.0046739 0.0384525 0.9953261 -0.0384525 0.9953261 -0.0384525 0.0046739 0.0384525
1281750000 0.0047293 0.0389410 0.9952707 -0.0389410 0.9952707 -0.0389410 0.0047293 0.0389410
1289000000 0.0047853 0.0394284 0.9952147 -0.0394284 0.9952147 -0.0394284 0.0047853 0.0394284
1296250000 0.0048418 0.0399147 0.9951582 -0.0399147 0.9951582 -0.0399147 0.0048418 0.0399147
1303500000 0.0048989 0.0404000 0.9951011 -0.0404000 0.9951011 -0.0404000 0.0048989 0.0404000
1310750000 0.0049565 0.0408842 0.9950435 -0.0408842 0.9950435 -0.0408842 0.0049565 0.0408842
1318000000 0.0050147 0.0413675 0.9949853 -0.0413675 0.9949853 -0.0413675 0.0050147 0.0413675
1325250000 0.0050734 0.0418497 0.9949266 -0.0418497 0.9949266 -0.0418497 0.0050734 0.0418497
1332500000 0.0051327 0.0423311 0.9948673 -0.0423311 0.9948673 -0.0423311 0.0051327 0.0423311
1339750000 0.0051925 0.0428114 0.9948075 -0.0428114 0.9948075 -0.0428114 0.0051925 0.0428114
1347000000 0.0052529 0.0432909 0.9947471 -0.0432909 0.9947471 -0.0432909 0.0052529 0.0432909
1354250000 0.0053139 0.0437696 0.9946861 -0.0437696 0.9946861 -0.0437696 0.0053139 0.0437696
1361500000 0.0053753 0.0442473 0.9946247 -0.0442473 0.9946247 -0.0442473 0.0053753 0.0442473
1368750000 0.0054374 0.0447242 0.9945626 -0.0447242 0.9945626 -0.0447242 0.0054374 0.0447242
1376000000 0.0055000 0.0452003 0.9945000 -0.0452003 0.9945000 -0.0452003 0.0055000 0.0452003
1383250000 0.0055632 0.0456757 0.9944368 -0.0456757 0.9944368 -0.0456757 0.0055632 0.0456757
1390500000 0.0056269 0.0461502 0.9943731 -0.0461502 0.9943731 -0.0461502 0.0056269 0.0461502
1397750000 0.0056912 0.0466240 0.9943088 -0.0466240 0.9943088 -0.0466240 0.0056912 0.0466240
1405000000 0.0057561 0.0470971 0.9942439 -0.0470971 0.9942439 -0.0470971 0.0057561 0.0470971
1412250000 0.0058215 0.0475694 0.9941785 -0.0475694 0.9941785 -0.0475694 0.0058215 0.0475694
1419500000 0.0058875 0.0480411 0.9941125 -0.0480411 0.9941125 -0.0480411 0.0058875 0.0480411
1426750000 0.0059541 0.0485121 0.9940459 -0.0485121 0.9940459 -0.0485121 0.0059541 0.0485121
1434000000 0.0060212 0.0489824 0.9939788 -0.0489824 0.9939788 -0.0489824 0.0060212 0.0489824
1441250000 0.0060890 0.0494521 0.9939110 -0.0494521 0.9939110 -0.0494521 0.0060890 0.0494521
1448500000 0.0061573 0.0499212 0.9938427 -0.0499212 0.9938427 -0.0499212 0.0061573 0.0499212
1455750000 0.0062262 0.0503897 0.9937738 -0.0503897 0.9937738 -0.0503897 0.0062262 0.0503897
1463000000 0.0062956 0.0508577 0.9937044 -0.0508577 0.9937044 -0.0508577 0.0062956 0.0508577
1470250000 0.0063657 0.0513250 0.9936343 -0.0513250 0.9936343 -0.0513250 0.0063657 0.0513250
1477500000 0.0064364 0.0517919 0.9935636 -0.0517919 0.9935636 -0.0517919 0.0064364 0.0517919
1484750000 0.0065076 0.0522582 0.9934924 -0.0522582 0.9934924 -0.0522582 0.0065076 0.0522582
1492000000 0.0065795 0.0527239 0.9934205 -0.0527239 0.9934205 -0.0527239 0.0065795 0.0527239
1499250000 0.0066519 0.0531892 0.9933481 -0.0531892 0.9933481 -0.0531892 0.0066519 0.0531892
1506500000 0.0067250 0.0536541 0.9932750 -0.0536541 0.9932750 -0.0536541 0.0067250 0.0536541
1513750000 0.0067987 0.0541184 0.9932013 -0.0541184 0.9932013 -0.0541184 0.0067987 0.0541184
1521000000 0.0068730 0.0545824 0.9931270 -0.0545824 0.9931270 -0.0545824 0.0068730 0.0545824
1528250000 0.0069479 0.0550459 0.9930521 -0.0550459 0.9930521 -0.0550459 0.0069479 0.0550459
1535500000 0.0070234 0.0555090 0.9929766 -0.0555090 0.9929766 -0.0555090 0.0070234 0.0555090
1542750000 0.0070996 0.0559717 0.9929004 -0.0559717 0.9929004 -0.0559717 0.0070996 0.0559717
1550000000 0.0071763 0.0564340 0.9928237 -0.0564340 0.9928237 -0.0564340 0.0071763 0.0564340
1557250000 0.0072538 0.0568960 0.9927462 -0.0568960 0.9927462 -0.0568960 0.0072538 0.0568960
1564500000 0.0073318 0.0573577 0.9926682 -0.0573577 0.9926682 -0.0573577 0.0073318 0.0573577
1571750000 0.0074105 0.0578190 0.9925895 -0.0578190 0.9925895 -0.0578190 0.0074105 0.0578190
1579000000 0.0074899 0.0582800 0.9925101 -0.0582800 0.9925101 -0.0582800 0.0074899 0.0582800
1586250000 0.0075699 0.0587406 0.9924301 -0.0587406 0.9924301 -0.0587406 0.0075699 0.0587406
1593500000 0.0076506 0.0592011 0.9923494 -0.0592011 0.9923494 -0.0592011 0.0076506 0.0592011
1600750000 0.0077320 0.0596612 0.9922680 -0.0596612 0.9922680 -0.0596612 0.0077320 0.0596612
1608000000 0.0078140 0.0601211 0.9921860 -0.0601211 0.9921860 -0.0601211 0.0078140 0.0601211
1615250000 0.0078967 0.0605807 0.9921033 -0.0605807 0.9921033 -0.0605807 0.0078967 0.0605807
1622500000 0.0079801 0.0610402 0.9920199 -0.0610402 0.9920199 -0.0610402 0.0079801 0.0610402
1629750000 0.0080643 0.0614994 0.9919357 -0.0614994 0.9919357 -0.0614994 0.0080643 0.0614994
