!Murata Part Number: GRM2165C2A151JA01
!These Parameters are Measured in Series Mode Connection
!Data Generated on Mar 30, 2021
!       o--ll--o
!Port1            Port2
!       o------o
!Operation Temp=25[degC], DC Bias Voltage=0[V]
!Freq. Start=100[MHz] Stop=9[GHz] 401[Steps]
# Hz S RI R 50
!Freq.(Hz) S11(Real) S11(Imag) S21(Real) S21(Imag) S12(Real) S12(Imag) S22(Real) S22(Imag)
100000000 0.0114287 -0.1018311 0.9885713 0.1018311 0.9885713 0.1018311 0.0114287 -0.1018311
121000000 0.0079388 -0.0833147 0.9920612 0.0833147 0.9920612 0.0833147 0.0079388 -0.0833147
142000000 0.0058715 -0.0699824 0.9941285 0.0699824 0.9941285 0.0699824 0.0058715 -0.0699824
163000000 0.0045501 -0.0598744 0.9954499 0.0598744 0.9954499 0.0598744 0.0045501 -0.0598744
184000000 0.0036569 -0.0519050 0.9963431 0.0519050 0.9963431 0.0519050 0.0036569 -0.0519050
205000000 0.0030274 -0.0454253 0.9969726 0.0454253 0.9969726 0.0454253 0.0030274 -0.0454253
226000000 0.0025689 -0.0400242 0.9974311 0.0400242 0.9974311 0.0400242 0.0025689 -0.0400242
247000000 0.0022267 -0.0354289 0.9977733 0.0354289 0.9977733 0.0354289 0.0022267 -0.0354289
268000000 0.0019661 -0.0314512 0.9980339 0.0314512 0.9980339 0.0314512 0.0019661 -0.0314512
289000000 0.0017649 -0.0279571 0.9982351 0.0279571 0.9982351 0.0279571 0.0017649 -0.0279571
310000000 0.0016078 -0.0248487 0.9983922 0.0248487 0.9983922 0.0248487 0.0016078 -0.0248487
331000000 0.0014844 -0.0220528 0.9985156 0.0220528 0.9985156 0.0220528 0.0014844 -0.0220528
352000000 0.0013873 -0.0195135 0.9986127 0.0195135 0.9986127 0.0195135 0.0013873 -0.0195135
373000000 0.0013110 -0.0171876 0.9986890 0.0171876 0.9986890 0.0171876 0.0013110 -0.0171876
394000000 0.0012516 -0.0150408 0.9987484 0.0150408 0.9987484 0.0150408 0.0012516 -0.0150408
415000000 0.0012060 -0.0130458 0.9987940 0.0130458 0.9987940 0.0130458 0.0012060 -0.0130458
436000000 0.0011719 -0.0111807 0.9988281 0.0111807 0.9988281 0.0111807 0.0011719 -0.0111807
457000000 0.0011476 -0.0094274 0.9988524 0.0094274 0.9988524 0.0094274 0.0011476 -0.0094274
478000000 0.0011316 -0.0077710 0.9988684 0.0077710 0.9988684 0.0077710 0.0011316 -0.0077710
499000000 0.0011229 -0.0061992 0.9988771 0.0061992 0.9988771 0.0061992 0.0011229 -0.0061992
520000000 0.0011206 -0.0047014 0.9988794 0.0047014 0.9988794 0.0047014 0.0011206 -0.0047014
541000000 0.0011240 -0.0032691 0.9988760 0.0032691 0.9988760 0.0032691 0.0011240 -0.0032691
562000000 0.0011325 -0.0018945 0.9988675 0.0018945 0.9988675 0.0018945 0.0011325 -0.0018945
583000000 0.0011457 -0.0005713 0.9988543 0.0005713 0.9988543 0.0005713 0.0011457 -0.0005713
604000000 0.0011632 0.0007060 0.9988368 -0.0007060 0.9988368 -0.0007060 0.0011632 0.0007060
625000000 0.0011848 0.0019423 0.9988152 -0.0019423 0.9988152 -0.0019423 0.0011848 0.0019423
646000000 0.0012102 0.0031417 0.9987898 -0.0031417 0.9987898 -0.0031417 0.0012102 0.0031417
667000000 0.0012391 0.0043081 0.9987609 -0.0043081 0.9987609 -0.0043081 0.0012391 0.0043081
688000000 0.0012716 0.0054446 0.9987284 -0.0054446 0.9987284 -0.0054446 0.0012716 0.0054446
709000000 0.0013075 0.0065542 0.9986925 -0.0065542 0.9986925 -0.0065542 0.0013075 0.0065542
730000000 0.0013466 0.0076393 0.9986534 -0.0076393 0.9986534 -0.0076393 0.0013466 0.0076393
751000000 0.0013890 0.0087024 0.9986110 -0.0087024 0.9986110 -0.0087024 0.0013890 0.0087024
772000000 0.0014346 0.0097454 0.9985654 -0.0097454 0.9985654 -0.0097454 0.0014346 0.0097454
793000000 0.0014835 0.0107703 0.9985165 -0.0107703 0.9985165 -0.0107703 0.0014835 0.0107703
814000000 0.0015357 0.0117787 0.9984643 -0.0117787 0.9984643 -0.0117787 0.0015357 0.0117787
835000000 0.0015912 0.0127722 0.9984088 -0.0127722 0.9984088 -0.0127722 0.0015912 0.0127722
856000000 0.0016501 0.0137522 0.9983499 -0.0137522 0.9983499 -0.0137522 0.0016501 0.0137522
877000000 0.0017125 0.0147200 0.9982875 -0.0147200 0.9982875 -0.0147200 0.0017125 0.0147200
898000000 0.0017786 0.0156768 0.9982214 -0.0156768 0.9982214 -0.0156768 0.0017786 0.0156768
919000000 0.0018485 0.0166237 0.9981515 -0.0166237 0.9981515 -0.0166237 0.0018485 0.0166237
940000000 0.0019223 0.0175618 0.9980777 -0.0175618 0.9980777 -0.0175618 0.0019223 0.0175618
961000000 0.0020004 0.0184921 0.9979996 -0.0184921 0.9979996 -0.0184921 0.0020004 0.0184921
982000000 0.0020829 0.0194154 0.9979171 -0.0194154 0.9979171 -0.0194154 0.0020829 0.0194154
1003000000 0.0021702 0.0203327 0.9978298 -0.0203327 0.9978298 -0.0203327 0.0021702 0.0203327
1024000000 0.0022626 0.0212448 0.9977374 -0.0212448 0.9977374 -0.0212448 0.0022626 0.0212448
1045000000 0.0023604 0.0221525 0.9976396 -0.0221525 0.9976396 -0.0221525 0.0023604 0.0221525
1066000000 0.0024643 0.0230566 0.9975357 -0.0230566 0.9975357 -0.0230566 0.0024643 0.0230566
1087000000 0.0025746 0.0239579 0.9974254 -0.0239579 0.9974254 -0.0239579 0.0025746 0.0239579
1108000000 0.0026921 0.0248570 0.9973079 -0.0248570 0.9973079 -0.0248570 0.0026921 0.0248570
1129000000 0.0028174 0.0257546 0.9971826 -0.0257546 0.9971826 -0.0257546 0.0028174 0.0257546
1150000000 0.0029514 0.0266514 0.9970486 -0.0266514 0.9970486 -0.0266514 0.0029514 0.0266514
1171000000 0.0030950 0.0275481 0.9969050 -0.0275481 0.9969050 -0.0275481 0.0030950 0.0275481
1192000000 0.0032495 0.0284452 0.9967505 -0.0284452 0.9967505 -0.0284452 0.0032495 0.0284452
1213000000 0.0034161 0.0293433 0.9965839 -0.0293433 0.9965839 -0.0293433 0.0034161 0.0293433
1234000000 0.0035965 0.0302428 0.9964035 -0.0302428 0.9964035 -0.0302428 0.0035965 0.0302428
1255000000 0.0037925 0.0311441 0.9962075 -0.0311441 0.9962075 -0.0311441 0.0037925 0.0311441
1276000000 0.0040062 0.0320474 0.9959938 -0.0320474 0.9959938 -0.0320474 0.0040062 0.0320474
1297000000 0.0042403 0.0329526 0.9957597 -0.0329526 0.9957597 -0.0329526 0.0042403 0.0329526
1318000000 0.0044978 0.0338594 0.9955022 -0.0338594 0.9955022 -0.0338594 0.0044978 0.0338594
1339000000 0.0047822 0.0347670 0.9952178 -0.0347670 0.9952178 -0.0347670 0.0047822 0.0347670
1360000000 0.0050976 0.0356740 0.9949024 -0.0356740 0.9949024 -0.0356740 0.0050976 0.0356740
1381000000 0.0054488 0.0365781 0.9945512 -0.0365781 0.9945512 -0.0365781 0.0054488 0.0365781
1402000000 0.0058413 0.0374756 0.9941587 -0.0374756 0.9941587 -0.0374756 0.0058413 0.0374756
1423000000 0.0062809 0.0383613 0.9937191 -0.0383613 0.9937191 -0.0383613 0.0062809 0.0383613
1444000000 0.0067739 0.0392277 0.9932261 -0.0392277 0.9932261 -0.0392277 0.0067739 0.0392277
1465000000 0.0073266 0.0400641 0.9926734 -0.0400641 0.9926734 -0.0400641 0.0073266 0.0400641
1486000000 0.0079440 0.0408559 0.9920560 -0.0408559 0.9920560 -0.0408559 0.0079440 0.0408559
1507000000 0.0086286 0.0415841 0.9913714 -0.0415841 0.9913714 -0.0415841 0.0086286 0.0415841
1528000000 0.0093779 0.0422245 0.9906221 -0.0422245 0.9906221 -0.0422245 0.0093779 0.0422245
1549000000 0.0101809 0.0427486 0.9898191 -0.0427486 0.9898191 -0.0427486 0.0101809 0.0427486
1570000000 0.0110148 0.0431265 0.9889852 -0.0431265 0.9889852 -0.0431265 0.0110148 0.0431265
1591000000 0.0118409 0.0433317 0.9881591 -0.0433317 0.9881591 -0.0433317 0.0118409 0.0433317
1612000000 0.0126046 0.0433509 0.9873954 -0.0433509 0.9873954 -0.0433509 0.0126046 0.0433509
1633000000 0.0132405 0.0431934 0.9867595 -0.0431934 0.9867595 -0.0431934 0.0132405 0.0431934
1654000000 0.0136846 0.0428985 0.9863154 -0.0428985 0.9863154 -0.0428985 0.0136846 0.0428985
1675000000 0.0138918 0.0425348 0.9861082 -0.0425348 0.9861082 -0.0425348 0.0138918 0.0425348
1696000000 0.0138508 0.0421863 0.9861492 -0.0421863 0.9861492 -0.0421863 0.0138508 0.0421863
1717000000 0.0135875 0.0419331 0.9864125 -0.0419331 0.9864125 -0.0419331 0.0135875 0.0419331
1738000000 0.0131560 0.0418326 0.9868440 -0.0418326 0.9868440 -0.0418326 0.0131560 0.0418326
1759000000 0.0126223 0.0419120 0.9873777 -0.0419120 0.9873777 -0.0419120 0.0126223 0.0419120
1780000000 0.0120479 0.0421708 0.9879521 -0.0421708 0.9879521 -0.0421708 0.0120479 0.0421708
1801000000 0.0114809 0.0425901 0.9885191 -0.0425901 0.9885191 -0.0425901 0.0114809 0.0425901
1822000000 0.0109533 0.0431420 0.9890467 -0.0431420 0.9890467 -0.0431420 0.0109533 0.0431420
1843000000 0.0104834 0.0437976 0.9895166 -0.0437976 0.9895166 -0.0437976 0.0104834 0.0437976
1864000000 0.0100788 0.0445306 0.9899212 -0.0445306 0.9899212 -0.0445306 0.0100788 0.0445306
1885000000 0.0097405 0.0453192 0.9902595 -0.0453192 0.9902595 -0.0453192 0.0097405 0.0453192
1906000000 0.0094653 0.0461464 0.9905347 -0.0461464 0.9905347 -0.0461464 0.0094653 0.0461464
1927000000 0.0092485 0.0469993 0.9907515 -0.0469993 0.9907515 -0.0469993 0.0092485 0.0469993
1948000000 0.0090844 0.0478684 0.9909156 -0.0478684 0.9909156 -0.0478684 0.0090844 0.0478684
1969000000 0.0089674 0.0487471 0.9910326 -0.0487471 0.9910326 -0.0487471 0.0089674 0.0487471
1990000000 0.0088924 0.0496306 0.9911076 -0.0496306 0.9911076 -0.0496306 0.0088924 0.0496306
2011000000 0.0088546 0.0505156 0.9911454 -0.0505156 0.9911454 -0.0505156 0.0088546 0.0505156
2032000000 0.0088501 0.0513999 0.9911499 -0.0513999 0.9911499 -0.0513999 0.0088501 0.0513999
2053000000 0.0088756 0.0522820 0.9911244 -0.0522820 0.9911244 -0.0522820 0.0088756 0.0522820
2074000000 0.0089281 0.0531610 0.9910719 -0.0531610 0.9910719 -0.0531610 0.0089281 0.0531610
2095000000 0.0090053 0.0540363 0.9909947 -0.0540363 0.9909947 -0.0540363 0.0090053 0.0540363
2116000000 0.0091052 0.0549076 0.9908948 -0.0549076 0.9908948 -0.0549076 0.0091052 0.0549076
2137000000 0.0092265 0.0557748 0.9907735 -0.0557748 0.9907735 -0.0557748 0.0092265 0.0557748
2158000000 0.0093677 0.0566378 0.9906323 -0.0566378 0.9906323 -0.0566378 0.0093677 0.0566378
2179000000 0.0095281 0.0574967 0.9904719 -0.0574967 0.9904719 -0.0574967 0.0095281 0.0574967
2200000000 0.0097068 0.0583514 0.9902932 -0.0583514 0.9902932 -0.0583514 0.0097068 0.0583514
2221000000 0.0099035 0.0592019 0.9900965 -0.0592019 0.9900965 -0.0592019 0.0099035 0.0592019
2242000000 0.0101179 0.0600483 0.9898821 -0.0600483 0.9898821 -0.0600483 0.0101179 0.0600483
2263000000 0.0103499 0.0608906 0.9896501 -0.0608906 0.9896501 -0.0608906 0.0103499 0.0608906
2284000000 0.0105994 0.0617284 0.9894006 -0.0617284 0.9894006 -0.0617284 0.0105994 0.0617284
2305000000 0.0108668 0.0625618 0.9891332 -0.0625618 0.9891332 -0.0625618 0.0108668 0.0625618
2326000000 0.0111522 0.0633903 0.9888478 -0.0633903 0.9888478 -0.0633903 0.0111522 0.0633903
2347000000 0.0114561 0.0642136 0.9885439 -0.0642136 0.9885439 -0.0642136 0.0114561 0.0642136
2368000000 0.0117790 0.0650311 0.9882210 -0.0650311 0.9882210 -0.0650311 0.0117790 0.0650311
2389000000 0.0121214 0.0658422 0.9878786 -0.0658422 0.9878786 -0.0658422 0.0121214 0.0658422
2410000000 0.0124841 0.0666460 0.9875159 -0.0666460 0.9875159 -0.0666460 0.0124841 0.0666460
2431000000 0.0128677 0.0674415 0.9871323 -0.0674415 0.9871323 -0.0674415 0.0128677 0.0674415
2452000000 0.0132729 0.0682275 0.9867271 -0.0682275 0.9867271 -0.0682275 0.0132729 0.0682275
2473000000 0.0137005 0.0690026 0.9862995 -0.0690026 0.9862995 -0.0690026 0.0137005 0.0690026
2494000000 0.0141513 0.0697651 0.9858487 -0.0697651 0.9858487 -0.0697651 0.0141513 0.0697651
2515000000 0.0146258 0.0705129 0.9853742 -0.0705129 0.9853742 -0.0705129 0.0146258 0.0705129
2536000000 0.0151248 0.0712438 0.9848752 -0.0712438 0.9848752 -0.0712438 0.0151248 0.0712438
2557000000 0.0156485 0.0719552 0.9843515 -0.0719552 0.9843515 -0.0719552 0.0156485 0.0719552
2578000000 0.0161974 0.0726441 0.9838026 -0.0726441 0.9838026 -0.0726441 0.0161974 0.0726441
2599000000 0.0167711 0.0733073 0.9832289 -0.0733073 0.9832289 -0.0733073 0.0167711 0.0733073
2620000000 0.0173695 0.0739411 0.9826305 -0.0739411 0.9826305 -0.0739411 0.0173695 0.0739411
2641000000 0.0179914 0.0745414 0.9820086 -0.0745414 0.9820086 -0.0745414 0.0179914 0.0745414
2662000000 0.0186354 0.0751039 0.9813646 -0.0751039 0.9813646 -0.0751039 0.0186354 0.0751039
2683000000 0.0192993 0.0756241 0.9807007 -0.0756241 0.9807007 -0.0756241 0.0192993 0.0756241
2704000000 0.0199799 0.0760972 0.9800201 -0.0760972 0.9800201 -0.0760972 0.0199799 0.0760972
2725000000 0.0206732 0.0765185 0.9793268 -0.0765185 0.9793268 -0.0765185 0.0206732 0.0765185
2746000000 0.0213740 0.0768836 0.9786260 -0.0768836 0.9786260 -0.0768836 0.0213740 0.0768836
2767000000 0.0220759 0.0771882 0.9779241 -0.0771882 0.9779241 -0.0771882 0.0220759 0.0771882
2788000000 0.0227715 0.0774290 0.9772285 -0.0774290 0.9772285 -0.0774290 0.0227715 0.0774290
2809000000 0.0234520 0.0776037 0.9765480 -0.0776037 0.9765480 -0.0776037 0.0234520 0.0776037
2830000000 0.0241077 0.0777112 0.9758923 -0.0777112 0.9758923 -0.0777112 0.0241077 0.0777112
2851000000 0.0247282 0.0777523 0.9752718 -0.0777523 0.9752718 -0.0777523 0.0247282 0.0777523
2872000000 0.0253025 0.0777298 0.9746975 -0.0777298 0.9746975 -0.0777298 0.0253025 0.0777298
2893000000 0.0258199 0.0776488 0.9741801 -0.0776488 0.9741801 -0.0776488 0.0258199 0.0776488
2914000000 0.0262701 0.0775166 0.9737299 -0.0775166 0.9737299 -0.0775166 0.0262701 0.0775166
2935000000 0.0266441 0.0773427 0.9733559 -0.0773427 0.9733559 -0.0773427 0.0266441 0.0773427
2956000000 0.0269348 0.0771388 0.9730652 -0.0771388 0.9730652 -0.0771388 0.0269348 0.0771388
2977000000 0.0271374 0.0769179 0.9728626 -0.0769179 0.9728626 -0.0769179 0.0271374 0.0769179
2998000000 0.0272498 0.0766940 0.9727502 -0.0766940 0.9727502 -0.0766940 0.0272498 0.0766940
3019000000 0.0272728 0.0764812 0.9727272 -0.0764812 0.9727272 -0.0764812 0.0272728 0.0764812
3040000000 0.0272098 0.0762931 0.9727902 -0.0762931 0.9727902 -0.0762931 0.0272098 0.0762931
3061000000 0.0270672 0.0761421 0.9729328 -0.0761421 0.9729328 -0.0761421 0.0270672 0.0761421
3082000000 0.0268531 0.0760388 0.9731469 -0.0760388 0.9731469 -0.0760388 0.0268531 0.0760388
3103000000 0.0265773 0.0759917 0.9734227 -0.0759917 0.9734227 -0.0759917 0.0265773 0.0759917
3124000000 0.0262507 0.0760069 0.9737493 -0.0760069 0.9737493 -0.0760069 0.0262507 0.0760069
3145000000 0.0258842 0.0760881 0.9741158 -0.0760881 0.9741158 -0.0760881 0.0258842 0.0760881
3166000000 0.0254889 0.0762371 0.9745111 -0.0762371 0.9745111 -0.0762371 0.0254889 0.0762371
3187000000 0.0250749 0.0764534 0.9749251 -0.0764534 0.9749251 -0.0764534 0.0250749 0.0764534
3208000000 0.0246516 0.0767352 0.9753484 -0.0767352 0.9753484 -0.0767352 0.0246516 0.0767352
3229000000 0.0242271 0.0770793 0.9757729 -0.0770793 0.9757729 -0.0770793 0.0242271 0.0770793
3250000000 0.0238084 0.0774817 0.9761916 -0.0774817 0.9761916 -0.0774817 0.0238084 0.0774817
3271000000 0.0234013 0.0779377 0.9765987 -0.0779377 0.9765987 -0.0779377 0.0234013 0.0779377
3292000000 0.0230103 0.0784425 0.9769897 -0.0784425 0.9769897 -0.0784425 0.0230103 0.0784425
3313000000 0.0226389 0.0789910 0.9773611 -0.0789910 0.9773611 -0.0789910 0.0226389 0.0789910
3334000000 0.0222896 0.0795785 0.9777104 -0.0795785 0.9777104 -0.0795785 0.0222896 0.0795785
3355000000 0.0219642 0.0802001 0.9780358 -0.0802001 0.9780358 -0.0802001 0.0219642 0.0802001
3376000000 0.0216637 0.0808516 0.9783363 -0.0808516 0.9783363 -0.0808516 0.0216637 0.0808516
3397000000 0.0213886 0.0815289 0.9786114 -0.0815289 0.9786114 -0.0815289 0.0213886 0.0815289
3418000000 0.0211390 0.0822283 0.9788610 -0.0822283 0.9788610 -0.0822283 0.0211390 0.0822283
3439000000 0.0209145 0.0829466 0.9790855 -0.0829466 0.9790855 -0.0829466 0.0209145 0.0829466
3460000000 0.0207147 0.0836808 0.9792853 -0.0836808 0.9792853 -0.0836808 0.0207147 0.0836808
3481000000 0.0205387 0.0844283 0.9794613 -0.0844283 0.9794613 -0.0844283 0.0205387 0.0844283
3502000000 0.0203858 0.0851868 0.9796142 -0.0851868 0.9796142 -0.0851868 0.0203858 0.0851868
3523000000 0.0202549 0.0859544 0.9797451 -0.0859544 0.9797451 -0.0859544 0.0202549 0.0859544
3544000000 0.0201451 0.0867293 0.9798549 -0.0867293 0.9798549 -0.0867293 0.0201451 0.0867293
3565000000 0.0200553 0.0875101 0.9799447 -0.0875101 0.9799447 -0.0875101 0.0200553 0.0875101
3586000000 0.0199846 0.0882955 0.9800154 -0.0882955 0.9800154 -0.0882955 0.0199846 0.0882955
3607000000 0.0199318 0.0890843 0.9800682 -0.0890843 0.9800682 -0.0890843 0.0199318 0.0890843
3628000000 0.0198961 0.0898758 0.9801039 -0.0898758 0.9801039 -0.0898758 0.0198961 0.0898758
3649000000 0.0198765 0.0906690 0.9801235 -0.0906690 0.9801235 -0.0906690 0.0198765 0.0906690
3670000000 0.0198721 0.0914633 0.9801279 -0.0914633 0.9801279 -0.0914633 0.0198721 0.0914633
3691000000 0.0198821 0.0922581 0.9801179 -0.0922581 0.9801179 -0.0922581 0.0198821 0.0922581
3712000000 0.0199056 0.0930531 0.9800944 -0.0930531 0.9800944 -0.0930531 0.0199056 0.0930531
3733000000 0.0199419 0.0938478 0.9800581 -0.0938478 0.9800581 -0.0938478 0.0199419 0.0938478
3754000000 0.0199903 0.0946418 0.9800097 -0.0946418 0.9800097 -0.0946418 0.0199903 0.0946418
3775000000 0.0200500 0.0954349 0.9799500 -0.0954349 0.9799500 -0.0954349 0.0200500 0.0954349
3796000000 0.0201207 0.0962270 0.9798793 -0.0962270 0.9798793 -0.0962270 0.0201207 0.0962270
3817000000 0.0202015 0.0970178 0.9797985 -0.0970178 0.9797985 -0.0970178 0.0202015 0.0970178
3838000000 0.0202920 0.0978072 0.9797080 -0.0978072 0.9797080 -0.0978072 0.0202920 0.0978072
3859000000 0.0203917 0.0985951 0.9796083 -0.0985951 0.9796083 -0.0985951 0.0203917 0.0985951
3880000000 0.0205001 0.0993814 0.9794999 -0.0993814 0.9794999 -0.0993814 0.0205001 0.0993814
3901000000 0.0206169 0.1001661 0.9793831 -0.1001661 0.9793831 -0.1001661 0.0206169 0.1001661
3922000000 0.0207415 0.1009492 0.9792585 -0.1009492 0.9792585 -0.1009492 0.0207415 0.1009492
3943000000 0.0208736 0.1017305 0.9791264 -0.1017305 0.9791264 -0.1017305 0.0208736 0.1017305
3964000000 0.0210130 0.1025102 0.9789870 -0.1025102 0.9789870 -0.1025102 0.0210130 0.1025102
3985000000 0.0211591 0.1032882 0.9788409 -0.1032882 0.9788409 -0.1032882 0.0211591 0.1032882
4006000000 0.0213119 0.1040645 0.9786881 -0.1040645 0.9786881 -0.1040645 0.0213119 0.1040645
4027000000 0.0214709 0.1048392 0.9785291 -0.1048392 0.9785291 -0.1048392 0.0214709 0.1048392
4048000000 0.0216360 0.1056122 0.9783640 -0.1056122 0.9783640 -0.1056122 0.0216360 0.1056122
4069000000 0.0218069 0.1063837 0.9781931 -0.1063837 0.9781931 -0.1063837 0.0218069 0.1063837
4090000000 0.0219833 0.1071536 0.9780167 -0.1071536 0.9780167 -0.1071536 0.0219833 0.1071536
4111000000 0.0221651 0.1079220 0.9778349 -0.1079220 0.9778349 -0.1079220 0.0221651 0.1079220
4132000000 0.0223521 0.1086889 0.9776479 -0.1086889 0.9776479 -0.1086889 0.0223521 0.1086889
4153000000 0.0225441 0.1094544 0.9774559 -0.1094544 0.9774559 -0.1094544 0.0225441 0.1094544
4174000000 0.0227410 0.1102186 0.9772590 -0.1102186 0.9772590 -0.1102186 0.0227410 0.1102186
4195000000 0.0229425 0.1109814 0.9770575 -0.1109814 0.9770575 -0.1109814 0.0229425 0.1109814
4216000000 0.0231485 0.1117429 0.9768515 -0.1117429 0.9768515 -0.1117429 0.0231485 0.1117429
4237000000 0.0233590 0.1125031 0.9766410 -0.1125031 0.9766410 -0.1125031 0.0233590 0.1125031
4258000000 0.0235737 0.1132622 0.9764263 -0.1132622 0.9764263 -0.1132622 0.0235737 0.1132622
4279000000 0.0237926 0.1140202 0.9762074 -0.1140202 0.9762074 -0.1140202 0.0237926 0.1140202
4300000000 0.0240156 0.1147770 0.9759844 -0.1147770 0.9759844 -0.1147770 0.0240156 0.1147770
4321000000 0.0242425 0.1155328 0.9757575 -0.1155328 0.9757575 -0.1155328 0.0242425 0.1155328
4342000000 0.0244732 0.1162876 0.9755268 -0.1162876 0.9755268 -0.1162876 0.0244732 0.1162876
4363000000 0.0247078 0.1170414 0.9752922 -0.1170414 0.9752922 -0.1170414 0.0247078 0.1170414
4384000000 0.0249460 0.1177943 0.9750540 -0.1177943 0.9750540 -0.1177943 0.0249460 0.1177943
4405000000 0.0251878 0.1185463 0.9748122 -0.1185463 0.9748122 -0.1185463 0.0251878 0.1185463
4426000000 0.0254332 0.1192976 0.9745668 -0.1192976 0.9745668 -0.1192976 0.0254332 0.1192976
4447000000 0.0256820 0.1200480 0.9743180 -0.1200480 0.9743180 -0.1200480 0.0256820 0.1200480
4468000000 0.0259342 0.1207977 0.9740658 -0.1207977 0.9740658 -0.1207977 0.0259342 0.1207977
4489000000 0.0261897 0.1215466 0.9738103 -0.1215466 0.9738103 -0.1215466 0.0261897 0.1215466
4510000000 0.0264485 0.1222950 0.9735515 -0.1222950 0.9735515 -0.1222950 0.0264485 0.1222950
