!Murata Part Number: GRM21A5C2J101JWA1
!These Parameters are Measured in Series Mode Connection
!Data Generated on Mar 30, 2021
!       o--ll--o
!Port1            Port2
!       o------o
!Operation Temp=25[degC], DC Bias Voltage=0[V]
!Freq. Start=100[MHz] Stop=3[GHz] 401[Steps]
# Hz S RI R 50
!Freq.(Hz) S11(Real) S11(Imag) S21(Real) S21(Imag) S12(Real) S12(Imag) S22(Real) S22(Imag)
100000000 0.0248589 -0.1518401 0.9751411 0.1518401 0.9751411 0.1518401 0.0248589 -0.1518401
107250000 0.0216977 -0.1415627 0.9783023 0.1415627 0.9783023 0.1415627 0.0216977 -0.1415627
114500000 0.0191031 -0.1324762 0.9808969 0.1324762 0.9808969 0.1324762 0.0191031 -0.1324762
121750000 0.0169482 -0.1243843 0.9830518 0.1243843 0.9830518 0.1243843 0.0169482 -0.1243843
129000000 0.0151398 -0.1171310 0.9848602 0.1171310 0.9848602 0.1171310 0.0151398 -0.1171310
136250000 0.0136077 -0.1105906 0.9863923 0.1105906 0.9863923 0.1105906 0.0136077 -0.1105906
143500000 0.0122988 -0.1046609 0.9877012 0.1046609 0.9877012 0.1046609 0.0122988 -0.1046609
150750000 0.0111721 -0.0992582 0.9888279 0.0992582 0.9888279 0.0992582 0.0111721 -0.0992582
158000000 0.0101955 -0.0943131 0.9898045 0.0943131 0.9898045 0.0943131 0.0101955 -0.0943131
165250000 0.0093437 -0.0897678 0.9906563 0.0897678 0.9906563 0.0897678 0.0093437 -0.0897678
172500000 0.0085965 -0.0855739 0.9914035 0.0855739 0.9914035 0.0855739 0.0085965 -0.0855739
179750000 0.0079376 -0.0816901 0.9920624 0.0816901 0.9920624 0.0816901 0.0079376 -0.0816901
187000000 0.0073538 -0.0780816 0.9926462 0.0780816 0.9926462 0.0780816 0.0073538 -0.0780816
194250000 0.0068343 -0.0747185 0.9931657 0.0747185 0.9931657 0.0747185 0.0068343 -0.0747185
201500000 0.0063701 -0.0715749 0.9936299 0.0715749 0.9936299 0.0715749 0.0063701 -0.0715749
208750000 0.0059538 -0.0686285 0.9940462 0.0686285 0.9940462 0.0686285 0.0059538 -0.0686285
216000000 0.0055790 -0.0658599 0.9944210 0.0658599 0.9944210 0.0658599 0.0055790 -0.0658599
223250000 0.0052407 -0.0632523 0.9947593 0.0632523 0.9947593 0.0632523 0.0052407 -0.0632523
230500000 0.0049343 -0.0607906 0.9950657 0.0607906 0.9950657 0.0607906 0.0049343 -0.0607906
237750000 0.0046560 -0.0584618 0.9953440 0.0584618 0.9953440 0.0584618 0.0046560 -0.0584618
245000000 0.0044027 -0.0562542 0.9955973 0.0562542 0.9955973 0.0562542 0.0044027 -0.0562542
252250000 0.0041715 -0.0541577 0.9958285 0.0541577 0.9958285 0.0541577 0.0041715 -0.0541577
259500000 0.0039600 -0.0521630 0.9960400 0.0521630 0.9960400 0.0521630 0.0039600 -0.0521630
266750000 0.0037662 -0.0502620 0.9962338 0.0502620 0.9962338 0.0502620 0.0037662 -0.0502620
274000000 0.0035882 -0.0484473 0.9964118 0.0484473 0.9964118 0.0484473 0.0035882 -0.0484473
281250000 0.0034244 -0.0467123 0.9965756 0.0467123 0.9965756 0.0467123 0.0034244 -0.0467123
288500000 0.0032736 -0.0450511 0.9967264 0.0450511 0.9967264 0.0450511 0.0032736 -0.0450511
295750000 0.0031344 -0.0434583 0.9968656 0.0434583 0.9968656 0.0434583 0.0031344 -0.0434583
303000000 0.0030057 -0.0419290 0.9969943 0.0419290 0.9969943 0.0419290 0.0030057 -0.0419290
310250000 0.0028867 -0.0404589 0.9971133 0.0404589 0.9971133 0.0404589 0.0028867 -0.0404589
317500000 0.0027765 -0.0390439 0.9972235 0.0390439 0.9972235 0.0390439 0.0027765 -0.0390439
324750000 0.0026742 -0.0376804 0.9973258 0.0376804 0.9973258 0.0376804 0.0026742 -0.0376804
332000000 0.0025793 -0.0363650 0.9974207 0.0363650 0.9974207 0.0363650 0.0025793 -0.0363650
339250000 0.0024912 -0.0350946 0.9975088 0.0350946 0.9975088 0.0350946 0.0024912 -0.0350946
346500000 0.0024093 -0.0338665 0.9975907 0.0338665 0.9975907 0.0338665 0.0024093 -0.0338665
353750000 0.0023330 -0.0326780 0.9976670 0.0326780 0.9976670 0.0326780 0.0023330 -0.0326780
361000000 0.0022621 -0.0315268 0.9977379 0.0315268 0.9977379 0.0315268 0.0022621 -0.0315268
368250000 0.0021960 -0.0304107 0.9978040 0.0304107 0.9978040 0.0304107 0.0021960 -0.0304107
375500000 0.0021345 -0.0293276 0.9978655 0.0293276 0.9978655 0.0293276 0.0021345 -0.0293276
382750000 0.0020772 -0.0282758 0.9979228 0.0282758 0.9979228 0.0282758 0.0020772 -0.0282758
390000000 0.0020238 -0.0272534 0.9979762 0.0272534 0.9979762 0.0272534 0.0020238 -0.0272534
397250000 0.0019741 -0.0262588 0.9980259 0.0262588 0.9980259 0.0262588 0.0019741 -0.0262588
404500000 0.0019278 -0.0252906 0.9980722 0.0252906 0.9980722 0.0252906 0.0019278 -0.0252906
411750000 0.0018846 -0.0243473 0.9981154 0.0243473 0.9981154 0.0243473 0.0018846 -0.0243473
419000000 0.0018444 -0.0234277 0.9981556 0.0234277 0.9981556 0.0234277 0.0018444 -0.0234277
426250000 0.0018070 -0.0225305 0.9981930 0.0225305 0.9981930 0.0225305 0.0018070 -0.0225305
433500000 0.0017723 -0.0216547 0.9982277 0.0216547 0.9982277 0.0216547 0.0017723 -0.0216547
440750000 0.0017400 -0.0207992 0.9982600 0.0207992 0.9982600 0.0207992 0.0017400 -0.0207992
448000000 0.0017100 -0.0199629 0.9982900 0.0199629 0.9982900 0.0199629 0.0017100 -0.0199629
455250000 0.0016823 -0.0191450 0.9983177 0.0191450 0.9983177 0.0191450 0.0016823 -0.0191450
462500000 0.0016566 -0.0183445 0.9983434 0.0183445 0.9983434 0.0183445 0.0016566 -0.0183445
469750000 0.0016328 -0.0175608 0.9983672 0.0175608 0.9983672 0.0175608 0.0016328 -0.0175608
477000000 0.0016109 -0.0167929 0.9983891 0.0167929 0.9983891 0.0167929 0.0016109 -0.0167929
484250000 0.0015908 -0.0160403 0.9984092 0.0160403 0.9984092 0.0160403 0.0015908 -0.0160403
491500000 0.0015723 -0.0153021 0.9984277 0.0153021 0.9984277 0.0153021 0.0015723 -0.0153021
498750000 0.0015555 -0.0145778 0.9984445 0.0145778 0.9984445 0.0145778 0.0015555 -0.0145778
506000000 0.0015401 -0.0138668 0.9984599 0.0138668 0.9984599 0.0138668 0.0015401 -0.0138668
513250000 0.0015261 -0.0131685 0.9984739 0.0131685 0.9984739 0.0131685 0.0015261 -0.0131685
520500000 0.0015136 -0.0124824 0.9984864 0.0124824 0.9984864 0.0124824 0.0015136 -0.0124824
527750000 0.0015023 -0.0118079 0.9984977 0.0118079 0.9984977 0.0118079 0.0015023 -0.0118079
535000000 0.0014923 -0.0111446 0.9985077 0.0111446 0.9985077 0.0111446 0.0014923 -0.0111446
542250000 0.0014836 -0.0104920 0.9985164 0.0104920 0.9985164 0.0104920 0.0014836 -0.0104920
549500000 0.0014759 -0.0098497 0.9985241 0.0098497 0.9985241 0.0098497 0.0014759 -0.0098497
556750000 0.0014694 -0.0092173 0.9985306 0.0092173 0.9985306 0.0092173 0.0014694 -0.0092173
564000000 0.0014639 -0.0085943 0.9985361 0.0085943 0.9985361 0.0085943 0.0014639 -0.0085943
571250000 0.0014594 -0.0079805 0.9985406 0.0079805 0.9985406 0.0079805 0.0014594 -0.0079805
578500000 0.0014560 -0.0073754 0.9985440 0.0073754 0.9985440 0.0073754 0.0014560 -0.0073754
585750000 0.0014534 -0.0067788 0.9985466 0.0067788 0.9985466 0.0067788 0.0014534 -0.0067788
593000000 0.0014518 -0.0061903 0.9985482 0.0061903 0.9985482 0.0061903 0.0014518 -0.0061903
600250000 0.0014511 -0.0056096 0.9985489 0.0056096 0.9985489 0.0056096 0.0014511 -0.0056096
607500000 0.0014512 -0.0050364 0.9985488 0.0050364 0.9985488 0.0050364 0.0014512 -0.0050364
614750000 0.0014521 -0.0044705 0.9985479 0.0044705 0.9985479 0.0044705 0.0014521 -0.0044705
622000000 0.0014539 -0.0039116 0.9985461 0.0039116 0.9985461 0.0039116 0.0014539 -0.0039116
629250000 0.0014564 -0.0033594 0.9985436 0.0033594 0.9985436 0.0033594 0.0014564 -0.0033594
636500000 0.0014597 -0.0028137 0.9985403 0.0028137 0.9985403 0.0028137 0.0014597 -0.0028137
643750000 0.0014637 -0.0022742 0.9985363 0.0022742 0.9985363 0.0022742 0.0014637 -0.0022742
651000000 0.0014685 -0.0017408 0.9985315 0.0017408 0.9985315 0.0017408 0.0014685 -0.0017408
658250000 0.0014739 -0.0012133 0.9985261 0.0012133 0.9985261 0.0012133 0.0014739 -0.0012133
665500000 0.0014800 -0.0006914 0.9985200 0.0006914 0.9985200 0.0006914 0.0014800 -0.0006914
672750000 0.0014868 -0.0001749 0.9985132 0.0001749 0.9985132 0.0001749 0.0014868 -0.0001749
680000000 0.0014942 0.0003364 0.9985058 -0.0003364 0.9985058 -0.0003364 0.0014942 0.0003364
687250000 0.0015023 0.0008425 0.9984977 -0.0008425 0.9984977 -0.0008425 0.0015023 0.0008425
694500000 0.0015110 0.0013437 0.9984890 -0.0013437 0.9984890 -0.0013437 0.0015110 0.0013437
701750000 0.0015202 0.0018402 0.9984798 -0.0018402 0.9984798 -0.0018402 0.0015202 0.0018402
709000000 0.0015301 0.0023321 0.9984699 -0.0023321 0.9984699 -0.0023321 0.0015301 0.0023321
716250000 0.0015406 0.0028195 0.9984594 -0.0028195 0.9984594 -0.0028195 0.0015406 0.0028195
723500000 0.0015517 0.0033027 0.9984483 -0.0033027 0.9984483 -0.0033027 0.0015517 0.0033027
730750000 0.0015633 0.0037817 0.9984367 -0.0037817 0.9984367 -0.0037817 0.0015633 0.0037817
738000000 0.0015754 0.0042566 0.9984246 -0.0042566 0.9984246 -0.0042566 0.0015754 0.0042566
745250000 0.0015882 0.0047277 0.9984118 -0.0047277 0.9984118 -0.0047277 0.0015882 0.0047277
752500000 0.0016014 0.0051950 0.9983986 -0.0051950 0.9983986 -0.0051950 0.0016014 0.0051950
759750000 0.0016152 0.0056587 0.9983848 -0.0056587 0.9983848 -0.0056587 0.0016152 0.0056587
767000000 0.0016296 0.0061188 0.9983704 -0.0061188 0.9983704 -0.0061188 0.0016296 0.0061188
774250000 0.0016444 0.0065755 0.9983556 -0.0065755 0.9983556 -0.0065755 0.0016444 0.0065755
781500000 0.0016598 0.0070288 0.9983402 -0.0070288 0.9983402 -0.0070288 0.0016598 0.0070288
788750000 0.0016757 0.0074790 0.9983243 -0.0074790 0.9983243 -0.0074790 0.0016757 0.0074790
796000000 0.0016921 0.0079261 0.9983079 -0.0079261 0.9983079 -0.0079261 0.0016921 0.0079261
803250000 0.0017090 0.0083701 0.9982910 -0.0083701 0.9982910 -0.0083701 0.0017090 0.0083701
810500000 0.0017264 0.0088113 0.9982736 -0.0088113 0.9982736 -0.0088113 0.0017264 0.0088113
817750000 0.0017444 0.0092496 0.9982556 -0.0092496 0.9982556 -0.0092496 0.0017444 0.0092496
825000000 0.0017628 0.0096851 0.9982372 -0.0096851 0.9982372 -0.0096851 0.0017628 0.0096851
832250000 0.0017817 0.0101180 0.9982183 -0.0101180 0.9982183 -0.0101180 0.0017817 0.0101180
839500000 0.0018011 0.0105484 0.9981989 -0.0105484 0.9981989 -0.0105484 0.0018011 0.0105484
846750000 0.0018210 0.0109762 0.9981790 -0.0109762 0.9981790 -0.0109762 0.0018210 0.0109762
854000000 0.0018413 0.0114017 0.9981587 -0.0114017 0.9981587 -0.0114017 0.0018413 0.0114017
861250000 0.0018622 0.0118248 0.9981378 -0.0118248 0.9981378 -0.0118248 0.0018622 0.0118248
868500000 0.0018836 0.0122456 0.9981164 -0.0122456 0.9981164 -0.0122456 0.0018836 0.0122456
875750000 0.0019055 0.0126643 0.9980945 -0.0126643 0.9980945 -0.0126643 0.0019055 0.0126643
883000000 0.0019278 0.0130808 0.9980722 -0.0130808 0.9980722 -0.0130808 0.0019278 0.0130808
890250000 0.0019507 0.0134953 0.9980493 -0.0134953 0.9980493 -0.0134953 0.0019507 0.0134953
897500000 0.0019740 0.0139077 0.9980260 -0.0139077 0.9980260 -0.0139077 0.0019740 0.0139077
904750000 0.0019978 0.0143183 0.9980022 -0.0143183 0.9980022 -0.0143183 0.0019978 0.0143183
912000000 0.0020222 0.0147270 0.9979778 -0.0147270 0.9979778 -0.0147270 0.0020222 0.0147270
919250000 0.0020470 0.0151339 0.9979530 -0.0151339 0.9979530 -0.0151339 0.0020470 0.0151339
926500000 0.0020724 0.0155391 0.9979276 -0.0155391 0.9979276 -0.0155391 0.0020724 0.0155391
933750000 0.0020982 0.0159426 0.9979018 -0.0159426 0.9979018 -0.0159426 0.0020982 0.0159426
941000000 0.0021246 0.0163444 0.9978754 -0.0163444 0.9978754 -0.0163444 0.0021246 0.0163444
948250000 0.0021514 0.0167447 0.9978486 -0.0167447 0.9978486 -0.0167447 0.0021514 0.0167447
955500000 0.0021788 0.0171435 0.9978212 -0.0171435 0.9978212 -0.0171435 0.0021788 0.0171435
962750000 0.0022068 0.0175408 0.9977932 -0.0175408 0.9977932 -0.0175408 0.0022068 0.0175408
970000000 0.0022352 0.0179367 0.9977648 -0.0179367 0.9977648 -0.0179367 0.0022352 0.0179367
977250000 0.0022642 0.0183312 0.9977358 -0.0183312 0.9977358 -0.0183312 0.0022642 0.0183312
984500000 0.0022938 0.0187245 0.9977062 -0.0187245 0.9977062 -0.0187245 0.0022938 0.0187245
991750000 0.0023239 0.0191164 0.9976761 -0.0191164 0.9976761 -0.0191164 0.0023239 0.0191164
999000000 0.0023545 0.0195072 0.9976455 -0.0195072 0.9976455 -0.0195072 0.0023545 0.0195072
1006250000 0.0023857 0.0198968 0.9976143 -0.0198968 0.9976143 -0.0198968 0.0023857 0.0198968
1013500000 0.0024175 0.0202853 0.9975825 -0.0202853 0.9975825 -0.0202853 0.0024175 0.0202853
1020750000 0.0024499 0.0206727 0.9975501 -0.0206727 0.9975501 -0.0206727 0.0024499 0.0206727
1028000000 0.0024828 0.0210591 0.9975172 -0.0210591 0.9975172 -0.0210591 0.0024828 0.0210591
1035250000 0.0025164 0.0214445 0.9974836 -0.0214445 0.9974836 -0.0214445 0.0025164 0.0214445
1042500000 0.0025506 0.0218290 0.9974494 -0.0218290 0.9974494 -0.0218290 0.0025506 0.0218290
1049750000 0.0025854 0.0222126 0.9974146 -0.0222126 0.9974146 -0.0222126 0.0025854 0.0222126
1057000000 0.0026209 0.0225954 0.9973791 -0.0225954 0.9973791 -0.0225954 0.0026209 0.0225954
1064250000 0.0026570 0.0229773 0.9973430 -0.0229773 0.9973430 -0.0229773 0.0026570 0.0229773
1071500000 0.0026937 0.0233585 0.9973063 -0.0233585 0.9973063 -0.0233585 0.0026937 0.0233585
1078750000 0.0027312 0.0237389 0.9972688 -0.0237389 0.9972688 -0.0237389 0.0027312 0.0237389
1086000000 0.0027693 0.0241187 0.9972307 -0.0241187 0.9972307 -0.0241187 0.0027693 0.0241187
1093250000 0.0028082 0.0244979 0.9971918 -0.0244979 0.9971918 -0.0244979 0.0028082 0.0244979
1100500000 0.0028477 0.0248764 0.9971523 -0.0248764 0.9971523 -0.0248764 0.0028477 0.0248764
1107750000 0.0028881 0.0252544 0.9971119 -0.0252544 0.9971119 -0.0252544 0.0028881 0.0252544
1115000000 0.0029292 0.0256319 0.9970708 -0.0256319 0.9970708 -0.0256319 0.0029292 0.0256319
1122250000 0.0029710 0.0260089 0.9970290 -0.0260089 0.9970290 -0.0260089 0.0029710 0.0260089
1129500000 0.0030137 0.0263855 0.9969863 -0.0263855 0.9969863 -0.0263855 0.0030137 0.0263855
1136750000 0.0030573 0.0267617 0.9969427 -0.0267617 0.9969427 -0.0267617 0.0030573 0.0267617
1144000000 0.0031016 0.0271375 0.9968984 -0.0271375 0.9968984 -0.0271375 0.0031016 0.0271375
1151250000 0.0031469 0.0275130 0.9968531 -0.0275130 0.9968531 -0.0275130 0.0031469 0.0275130
1158500000 0.0031931 0.0278883 0.9968069 -0.0278883 0.9968069 -0.0278883 0.0031931 0.0278883
1165750000 0.0032402 0.0282633 0.9967598 -0.0282633 0.9967598 -0.0282633 0.0032402 0.0282633
1173000000 0.0032883 0.0286382 0.9967117 -0.0286382 0.9967117 -0.0286382 0.0032883 0.0286382
1180250000 0.0033374 0.0290129 0.9966626 -0.0290129 0.9966626 -0.0290129 0.0033374 0.0290129
1187500000 0.0033876 0.0293875 0.9966124 -0.0293875 0.9966124 -0.0293875 0.0033876 0.0293875
1194750000 0.0034388 0.0297620 0.9965612 -0.0297620 0.9965612 -0.0297620 0.0034388 0.0297620
1202000000 0.0034911 0.0301365 0.9965089 -0.0301365 0.9965089 -0.0301365 0.0034911 0.0301365
1209250000 0.0035446 0.0305111 0.9964554 -0.0305111 0.9964554 -0.0305111 0.0035446 0.0305111
1216500000 0.0035993 0.0308857 0.9964007 -0.0308857 0.9964007 -0.0308857 0.0035993 0.0308857
1223750000 0.0036553 0.0312603 0.9963447 -0.0312603 0.9963447 -0.0312603 0.0036553 0.0312603
1231000000 0.0037126 0.0316352 0.9962874 -0.0316352 0.9962874 -0.0316352 0.0037126 0.0316352
1238250000 0.0037712 0.0320102 0.9962288 -0.0320102 0.9962288 -0.0320102 0.0037712 0.0320102
1245500000 0.0038313 0.0323855 0.9961687 -0.0323855 0.9961687 -0.0323855 0.0038313 0.0323855
1252750000 0.0038928 0.0327610 0.9961072 -0.0327610 0.9961072 -0.0327610 0.0038928 0.0327610
1260000000 0.0039559 0.0331368 0.9960441 -0.0331368 0.9960441 -0.0331368 0.0039559 0.0331368
1267250000 0.0040206 0.0335130 0.9959794 -0.0335130 0.9959794 -0.0335130 0.0040206 0.0335130
1274500000 0.0040870 0.0338896 0.9959130 -0.0338896 0.9959130 -0.0338896 0.0040870 0.0338896
1281750000 0.0041552 0.0342667 0.9958448 -0.0342667 0.9958448 -0.0342667 0.0041552 0.0342667
1289000000 0.0042253 0.0346442 0.9957747 -0.0346442 0.9957747 -0.0346442 0.0042253 0.0346442
1296250000 0.0042973 0.0350222 0.9957027 -0.0350222 0.9957027 -0.0350222 0.0042973 0.0350222
1303500000 0.0043714 0.0354008 0.9956286 -0.0354008 0.9956286 -0.0354008 0.0043714 0.0354008
1310750000 0.0044477 0.0357800 0.9955523 -0.0357800 0.9955523 -0.0357800 0.0044477 0.0357800
1318000000 0.0045263 0.0361599 0.9954737 -0.0361599 0.9954737 -0.0361599 0.0045263 0.0361599
1325250000 0.0046073 0.0365404 0.9953927 -0.0365404 0.9953927 -0.0365404 0.0046073 0.0365404
1332500000 0.0046908 0.0369216 0.9953092 -0.0369216 0.9953092 -0.0369216 0.0046908 0.0369216
1339750000 0.0047770 0.0373036 0.9952230 -0.0373036 0.9952230 -0.0373036 0.0047770 0.0373036
1347000000 0.0048662 0.0376864 0.9951338 -0.0376864 0.9951338 -0.0376864 0.0048662 0.0376864
1354250000 0.0049583 0.0380699 0.9950417 -0.0380699 0.9950417 -0.0380699 0.0049583 0.0380699
1361500000 0.0050536 0.0384542 0.9949464 -0.0384542 0.9949464 -0.0384542 0.0050536 0.0384542
1368750000 0.0051524 0.0388394 0.9948476 -0.0388394 0.9948476 -0.0388394 0.0051524 0.0388394
1376000000 0.0052547 0.0392254 0.9947453 -0.0392254 0.9947453 -0.0392254 0.0052547 0.0392254
1383250000 0.0053610 0.0396123 0.9946390 -0.0396123 0.9946390 -0.0396123 0.0053610 0.0396123
1390500000 0.0054713 0.0400000 0.9945287 -0.0400000 0.9945287 -0.0400000 0.0054713 0.0400000
1397750000 0.0055860 0.0403884 0.9944140 -0.0403884 0.9944140 -0.0403884 0.0055860 0.0403884
1405000000 0.0057054 0.0407777 0.9942946 -0.0407777 0.9942946 -0.0407777 0.0057054 0.0407777
1412250000 0.0058297 0.0411676 0.9941703 -0.0411676 0.9941703 -0.0411676 0.0058297 0.0411676
1419500000 0.0059593 0.0415582 0.9940407 -0.0415582 0.9940407 -0.0415582 0.0059593 0.0415582
1426750000 0.0060946 0.0419493 0.9939054 -0.0419493 0.9939054 -0.0419493 0.0060946 0.0419493
1434000000 0.0062360 0.0423409 0.9937640 -0.0423409 0.9937640 -0.0423409 0.0062360 0.0423409
1441250000 0.0063838 0.0427327 0.9936162 -0.0427327 0.9936162 -0.0427327 0.0063838 0.0427327
1448500000 0.0065386 0.0431245 0.9934614 -0.0431245 0.9934614 -0.0431245 0.0065386 0.0431245
1455750000 0.0067008 0.0435162 0.9932992 -0.0435162 0.9932992 -0.0435162 0.0067008 0.0435162
1463000000 0.0068709 0.0439074 0.9931291 -0.0439074 0.9931291 -0.0439074 0.0068709 0.0439074
1470250000 0.0070495 0.0442978 0.9929505 -0.0442978 0.9929505 -0.0442978 0.0070495 0.0442978
1477500000 0.0072371 0.0446870 0.9927629 -0.0446870 0.9927629 -0.0446870 0.0072371 0.0446870
1484750000 0.0074344 0.0450744 0.9925656 -0.0450744 0.9925656 -0.0450744 0.0074344 0.0450744
1492000000 0.0076419 0.0454594 0.9923581 -0.0454594 0.9923581 -0.0454594 0.0076419 0.0454594
1499250000 0.0078603 0.0458413 0.9921397 -0.0458413 0.9921397 -0.0458413 0.0078603 0.0458413
1506500000 0.0080903 0.0462193 0.9919097 -0.0462193 0.9919097 -0.0462193 0.0080903 0.0462193
1513750000 0.0083326 0.0465923 0.9916674 -0.0465923 0.9916674 -0.0465923 0.0083326 0.0465923
1521000000 0.0085876 0.0469592 0.9914124 -0.0469592 0.9914124 -0.0469592 0.0085876 0.0469592
1528250000 0.0088561 0.0473187 0.9911439 -0.0473187 0.9911439 -0.0473187 0.0088561 0.0473187
1535500000 0.0091386 0.0476692 0.9908614 -0.0476692 0.9908614 -0.0476692 0.0091386 0.0476692
1542750000 0.0094354 0.0480088 0.9905646 -0.0480088 0.9905646 -0.0480088 0.0094354 0.0480088
1550000000 0.0097468 0.0483357 0.9902532 -0.0483357 0.9902532 -0.0483357 0.0097468 0.0483357
1557250000 0.0100729 0.0486474 0.9899271 -0.0486474 0.9899271 -0.0486474 0.0100729 0.0486474
1564500000 0.0104134 0.0489415 0.9895866 -0.0489415 0.9895866 -0.0489415 0.0104134 0.0489415
1571750000 0.0107676 0.0492152 0.9892324 -0.0492152 0.9892324 -0.0492152 0.0107676 0.0492152
1579000000 0.0111347 0.0494654 0.9888653 -0.0494654 0.9888653 -0.0494654 0.0111347 0.0494654
1586250000 0.0115128 0.0496891 0.9884872 -0.0496891 0.9884872 -0.0496891 0.0115128 0.0496891
1593500000 0.0118998 0.0498829 0.9881002 -0.0498829 0.9881002 -0.0498829 0.0118998 0.0498829
1600750000 0.0122927 0.0500438 0.9877073 -0.0500438 0.9877073 -0.0500438 0.0122927 0.0500438
1608000000 0.0126877 0.0501688 0.9873123 -0.0501688 0.9873123 -0.0501688 0.0126877 0.0501688
1615250000 0.0130800 0.0502552 0.9869200 -0.0502552 0.9869200 -0.0502552 0.0130800 0.0502552
1622500000 0.0134641 0.0503013 0.9865359 -0.0503013 0.9865359 -0.0503013 0.0134641 0.0503013
1629750000 0.0138337 0.0503061 0.9861663 -0.0503061 0.9861663 -0.0503061 0.0138337 0.0503061
