!Murata Part Number: GRM2162C2A271JA01
!These Parameters are Measured in Series Mode Connection
!Data Generated on Mar 30, 2021
!       o--ll--o
!Port1            Port2
!       o------o
!Operation Temp=25[degC], DC Bias Voltage=0[V]
!Freq. Start=100[MHz] Stop=9[GHz] 401[Steps]
# Hz S RI R 50
!Freq.(Hz) S11(Real) S11(Imag) S21(Real) S21(Imag) S12(Real) S12(Imag) S22(Real) S22(Imag)
100000000 0.0038310 -0.0558469 0.9961690 0.0558469 0.9961690 0.0558469 0.0038310 -0.0558469
121000000 0.0027464 -0.0451160 0.9972536 0.0451160 0.9972536 0.0451160 0.0027464 -0.0451160
142000000 0.0021104 -0.0373631 0.9978896 0.0373631 0.9978896 0.0373631 0.0021104 -0.0373631
163000000 0.0017090 -0.0314447 0.9982910 0.0314447 0.9982910 0.0314447 0.0017090 -0.0314447
184000000 0.0014425 -0.0267355 0.9985575 0.0267355 0.9985575 0.0267355 0.0014425 -0.0267355
205000000 0.0012594 -0.0228651 0.9987406 0.0228651 0.9987406 0.0228651 0.0012594 -0.0228651
226000000 0.0011308 -0.0196002 0.9988692 0.0196002 0.9988692 0.0196002 0.0011308 -0.0196002
247000000 0.0010395 -0.0167863 0.9989605 0.0167863 0.9989605 0.0167863 0.0010395 -0.0167863
268000000 0.0009750 -0.0143173 0.9990250 0.0143173 0.9990250 0.0143173 0.0009750 -0.0143173
289000000 0.0009304 -0.0121179 0.9990696 0.0121179 0.9990696 0.0121179 0.0009304 -0.0121179
310000000 0.0009008 -0.0101330 0.9990992 0.0101330 0.9990992 0.0101330 0.0009008 -0.0101330
331000000 0.0008832 -0.0083213 0.9991168 0.0083213 0.9991168 0.0083213 0.0008832 -0.0083213
352000000 0.0008752 -0.0066516 0.9991248 0.0066516 0.9991248 0.0066516 0.0008752 -0.0066516
373000000 0.0008753 -0.0050995 0.9991247 0.0050995 0.9991247 0.0050995 0.0008753 -0.0050995
394000000 0.0008823 -0.0036456 0.9991177 0.0036456 0.9991177 0.0036456 0.0008823 -0.0036456
415000000 0.0008952 -0.0022747 0.9991048 0.0022747 0.9991048 0.0022747 0.0008952 -0.0022747
436000000 0.0009134 -0.0009743 0.9990866 0.0009743 0.9990866 0.0009743 0.0009134 -0.0009743
457000000 0.0009366 0.0002660 0.9990634 -0.0002660 0.9990634 -0.0002660 0.0009366 0.0002660
478000000 0.0009643 0.0014546 0.9990357 -0.0014546 0.9990357 -0.0014546 0.0009643 0.0014546
499000000 0.0009963 0.0025986 0.9990037 -0.0025986 0.9990037 -0.0025986 0.0009963 0.0025986
520000000 0.0010325 0.0037042 0.9989675 -0.0037042 0.9989675 -0.0037042 0.0010325 0.0037042
541000000 0.0010729 0.0047765 0.9989271 -0.0047765 0.9989271 -0.0047765 0.0010729 0.0047765
562000000 0.0011175 0.0058201 0.9988825 -0.0058201 0.9988825 -0.0058201 0.0011175 0.0058201
583000000 0.0011663 0.0068388 0.9988337 -0.0068388 0.9988337 -0.0068388 0.0011663 0.0068388
604000000 0.0012195 0.0078364 0.9987805 -0.0078364 0.9987805 -0.0078364 0.0012195 0.0078364
625000000 0.0012774 0.0088159 0.9987226 -0.0088159 0.9987226 -0.0088159 0.0012774 0.0088159
646000000 0.0013404 0.0097803 0.9986596 -0.0097803 0.9986596 -0.0097803 0.0013404 0.0097803
667000000 0.0014088 0.0107323 0.9985912 -0.0107323 0.9985912 -0.0107323 0.0014088 0.0107323
688000000 0.0014832 0.0116746 0.9985168 -0.0116746 0.9985168 -0.0116746 0.0014832 0.0116746
709000000 0.0015644 0.0126096 0.9984356 -0.0126096 0.9984356 -0.0126096 0.0015644 0.0126096
730000000 0.0016534 0.0135398 0.9983466 -0.0135398 0.9983466 -0.0135398 0.0016534 0.0135398
751000000 0.0017513 0.0144679 0.9982487 -0.0144679 0.9982487 -0.0144679 0.0017513 0.0144679
772000000 0.0018599 0.0153965 0.9981401 -0.0153965 0.9981401 -0.0153965 0.0018599 0.0153965
793000000 0.0019812 0.0163284 0.9980188 -0.0163284 0.9980188 -0.0163284 0.0019812 0.0163284
814000000 0.0021180 0.0172666 0.9978820 -0.0172666 0.9978820 -0.0172666 0.0021180 0.0172666
835000000 0.0022741 0.0182145 0.9977259 -0.0182145 0.9977259 -0.0182145 0.0022741 0.0182145
856000000 0.0024547 0.0191757 0.9975453 -0.0191757 0.9975453 -0.0191757 0.0024547 0.0191757
877000000 0.0026670 0.0201541 0.9973330 -0.0201541 0.9973330 -0.0201541 0.0026670 0.0201541
898000000 0.0029210 0.0211540 0.9970790 -0.0211540 0.9970790 -0.0211540 0.0029210 0.0211540
919000000 0.0032313 0.0221790 0.9967687 -0.0221790 0.9967687 -0.0221790 0.0032313 0.0221790
940000000 0.0036189 0.0232314 0.9963811 -0.0232314 0.9963811 -0.0232314 0.0036189 0.0232314
961000000 0.0041147 0.0243091 0.9958853 -0.0243091 0.9958853 -0.0243091 0.0041147 0.0243091
982000000 0.0047636 0.0253995 0.9952364 -0.0253995 0.9952364 -0.0253995 0.0047636 0.0253995
1003000000 0.0056287 0.0264659 0.9943713 -0.0264659 0.9943713 -0.0264659 0.0056287 0.0264659
1024000000 0.0067882 0.0274193 0.9932118 -0.0274193 0.9932118 -0.0274193 0.0067882 0.0274193
1045000000 0.0083025 0.0280727 0.9916975 -0.0280727 0.9916975 -0.0280727 0.0083025 0.0280727
1066000000 0.0101001 0.0281044 0.9898999 -0.0281044 0.9898999 -0.0281044 0.0101001 0.0281044
1087000000 0.0117649 0.0271811 0.9882351 -0.0271811 0.9882351 -0.0271811 0.0117649 0.0271811
1108000000 0.0125261 0.0254239 0.9874739 -0.0254239 0.9874739 -0.0254239 0.0125261 0.0254239
1129000000 0.0119513 0.0236905 0.9880487 -0.0236905 0.9880487 -0.0236905 0.0119513 0.0236905
1150000000 0.0105152 0.0228050 0.9894848 -0.0228050 0.9894848 -0.0228050 0.0105152 0.0228050
1171000000 0.0089717 0.0228496 0.9910283 -0.0228496 0.9910283 -0.0228496 0.0089717 0.0228496
1192000000 0.0077100 0.0234914 0.9922900 -0.0234914 0.9922900 -0.0234914 0.0077100 0.0234914
1213000000 0.0067928 0.0244223 0.9932072 -0.0244223 0.9932072 -0.0244223 0.0067928 0.0244223
1234000000 0.0061623 0.0254642 0.9938377 -0.0254642 0.9938377 -0.0254642 0.0061623 0.0254642
1255000000 0.0057449 0.0265322 0.9942551 -0.0265322 0.9942551 -0.0265322 0.0057449 0.0265322
1276000000 0.0054813 0.0275902 0.9945187 -0.0275902 0.9945187 -0.0275902 0.0054813 0.0275902
1297000000 0.0053297 0.0286253 0.9946703 -0.0286253 0.9946703 -0.0286253 0.0053297 0.0286253
1318000000 0.0052613 0.0296348 0.9947387 -0.0296348 0.9947387 -0.0296348 0.0052613 0.0296348
1339000000 0.0052570 0.0306202 0.9947430 -0.0306202 0.9947430 -0.0306202 0.0052570 0.0306202
1360000000 0.0053042 0.0315845 0.9946958 -0.0315845 0.9946958 -0.0315845 0.0053042 0.0315845
1381000000 0.0053944 0.0325310 0.9946056 -0.0325310 0.9946056 -0.0325310 0.0053944 0.0325310
1402000000 0.0055224 0.0334628 0.9944776 -0.0334628 0.9944776 -0.0334628 0.0055224 0.0334628
1423000000 0.0056852 0.0343827 0.9943148 -0.0343827 0.9943148 -0.0343827 0.0056852 0.0343827
1444000000 0.0058814 0.0352927 0.9941186 -0.0352927 0.9941186 -0.0352927 0.0058814 0.0352927
1465000000 0.0061109 0.0361945 0.9938891 -0.0361945 0.9938891 -0.0361945 0.0061109 0.0361945
1486000000 0.0063747 0.0370891 0.9936253 -0.0370891 0.9936253 -0.0370891 0.0063747 0.0370891
1507000000 0.0066749 0.0379768 0.9933251 -0.0379768 0.9933251 -0.0379768 0.0066749 0.0379768
1528000000 0.0070143 0.0388572 0.9929857 -0.0388572 0.9929857 -0.0388572 0.0070143 0.0388572
1549000000 0.0073966 0.0397286 0.9926034 -0.0397286 0.9926034 -0.0397286 0.0073966 0.0397286
1570000000 0.0078265 0.0405883 0.9921735 -0.0405883 0.9921735 -0.0405883 0.0078265 0.0405883
1591000000 0.0083089 0.0414319 0.9916911 -0.0414319 0.9916911 -0.0414319 0.0083089 0.0414319
1612000000 0.0088496 0.0422529 0.9911504 -0.0422529 0.9911504 -0.0422529 0.0088496 0.0422529
1633000000 0.0094541 0.0430422 0.9905459 -0.0430422 0.9905459 -0.0430422 0.0094541 0.0430422
1654000000 0.0101278 0.0437874 0.9898722 -0.0437874 0.9898722 -0.0437874 0.0101278 0.0437874
1675000000 0.0108740 0.0444723 0.9891260 -0.0444723 0.9891260 -0.0444723 0.0108740 0.0444723
1696000000 0.0116931 0.0450760 0.9883069 -0.0450760 0.9883069 -0.0450760 0.0116931 0.0450760
1717000000 0.0125803 0.0455737 0.9874197 -0.0455737 0.9874197 -0.0455737 0.0125803 0.0455737
1738000000 0.0135220 0.0459366 0.9864780 -0.0459366 0.9864780 -0.0459366 0.0135220 0.0459366
1759000000 0.0144936 0.0461354 0.9855064 -0.0461354 0.9855064 -0.0461354 0.0144936 0.0461354
1780000000 0.0154562 0.0461447 0.9845438 -0.0461447 0.9845438 -0.0461447 0.0154562 0.0461447
1801000000 0.0163564 0.0459499 0.9836436 -0.0459499 0.9836436 -0.0459499 0.0163564 0.0459499
1822000000 0.0171304 0.0455562 0.9828696 -0.0455562 0.9828696 -0.0455562 0.0171304 0.0455562
1843000000 0.0177129 0.0449949 0.9822871 -0.0449949 0.9822871 -0.0449949 0.0177129 0.0449949
1864000000 0.0180504 0.0443248 0.9819496 -0.0443248 0.9819496 -0.0443248 0.0180504 0.0443248
1885000000 0.0181154 0.0436245 0.9818846 -0.0436245 0.9818846 -0.0436245 0.0181154 0.0436245
1906000000 0.0179138 0.0429783 0.9820862 -0.0429783 0.9820862 -0.0429783 0.0179138 0.0429783
1927000000 0.0174832 0.0424592 0.9825168 -0.0424592 0.9825168 -0.0424592 0.0174832 0.0424592
1948000000 0.0168823 0.0421162 0.9831177 -0.0421162 0.9831177 -0.0421162 0.0168823 0.0421162
1969000000 0.0161763 0.0419711 0.9838237 -0.0419711 0.9838237 -0.0419711 0.0161763 0.0419711
1990000000 0.0154254 0.0420214 0.9845746 -0.0420214 0.9845746 -0.0420214 0.0154254 0.0420214
2011000000 0.0146775 0.0422483 0.9853225 -0.0422483 0.9853225 -0.0422483 0.0146775 0.0422483
2032000000 0.0139658 0.0426250 0.9860342 -0.0426250 0.9860342 -0.0426250 0.0139658 0.0426250
2053000000 0.0133107 0.0431224 0.9866893 -0.0431224 0.9866893 -0.0431224 0.0133107 0.0431224
2074000000 0.0127223 0.0437132 0.9872777 -0.0437132 0.9872777 -0.0437132 0.0127223 0.0437132
2095000000 0.0122035 0.0443741 0.9877965 -0.0443741 0.9877965 -0.0443741 0.0122035 0.0443741
2116000000 0.0117528 0.0450859 0.9882472 -0.0450859 0.9882472 -0.0450859 0.0117528 0.0450859
2137000000 0.0113659 0.0458334 0.9886341 -0.0458334 0.9886341 -0.0458334 0.0113659 0.0458334
2158000000 0.0110374 0.0466051 0.9889626 -0.0466051 0.9889626 -0.0466051 0.0110374 0.0466051
2179000000 0.0107614 0.0473923 0.9892386 -0.0473923 0.9892386 -0.0473923 0.0107614 0.0473923
2200000000 0.0105322 0.0481886 0.9894678 -0.0481886 0.9894678 -0.0481886 0.0105322 0.0481886
2221000000 0.0103443 0.0489894 0.9896557 -0.0489894 0.9896557 -0.0489894 0.0103443 0.0489894
2242000000 0.0101927 0.0497914 0.9898073 -0.0497914 0.9898073 -0.0497914 0.0101927 0.0497914
2263000000 0.0100732 0.0505922 0.9899268 -0.0505922 0.9899268 -0.0505922 0.0100732 0.0505922
2284000000 0.0099819 0.0513903 0.9900181 -0.0513903 0.9900181 -0.0513903 0.0099819 0.0513903
2305000000 0.0099153 0.0521846 0.9900847 -0.0521846 0.9900847 -0.0521846 0.0099153 0.0521846
2326000000 0.0098706 0.0529746 0.9901294 -0.0529746 0.9901294 -0.0529746 0.0098706 0.0529746
2347000000 0.0098452 0.0537599 0.9901548 -0.0537599 0.9901548 -0.0537599 0.0098452 0.0537599
2368000000 0.0098370 0.0545403 0.9901630 -0.0545403 0.9901630 -0.0545403 0.0098370 0.0545403
2389000000 0.0098440 0.0553158 0.9901560 -0.0553158 0.9901560 -0.0553158 0.0098440 0.0553158
2410000000 0.0098647 0.0560866 0.9901353 -0.0560866 0.9901353 -0.0560866 0.0098647 0.0560866
2431000000 0.0098976 0.0568529 0.9901024 -0.0568529 0.9901024 -0.0568529 0.0098976 0.0568529
2452000000 0.0099415 0.0576148 0.9900585 -0.0576148 0.9900585 -0.0576148 0.0099415 0.0576148
2473000000 0.0099953 0.0583726 0.9900047 -0.0583726 0.9900047 -0.0583726 0.0099953 0.0583726
2494000000 0.0100582 0.0591267 0.9899418 -0.0591267 0.9899418 -0.0591267 0.0100582 0.0591267
2515000000 0.0101292 0.0598772 0.9898708 -0.0598772 0.9898708 -0.0598772 0.0101292 0.0598772
2536000000 0.0102078 0.0606245 0.9897922 -0.0606245 0.9897922 -0.0606245 0.0102078 0.0606245
2557000000 0.0102932 0.0613688 0.9897068 -0.0613688 0.9897068 -0.0613688 0.0102932 0.0613688
2578000000 0.0103850 0.0621104 0.9896150 -0.0621104 0.9896150 -0.0621104 0.0103850 0.0621104
2599000000 0.0104826 0.0628497 0.9895174 -0.0628497 0.9895174 -0.0628497 0.0104826 0.0628497
2620000000 0.0105857 0.0635868 0.9894143 -0.0635868 0.9894143 -0.0635868 0.0105857 0.0635868
2641000000 0.0106939 0.0643220 0.9893061 -0.0643220 0.9893061 -0.0643220 0.0106939 0.0643220
2662000000 0.0108069 0.0650555 0.9891931 -0.0650555 0.9891931 -0.0650555 0.0108069 0.0650555
2683000000 0.0109244 0.0657876 0.9890756 -0.0657876 0.9890756 -0.0657876 0.0109244 0.0657876
2704000000 0.0110461 0.0665185 0.9889539 -0.0665185 0.9889539 -0.0665185 0.0110461 0.0665185
2725000000 0.0111719 0.0672483 0.9888281 -0.0672483 0.9888281 -0.0672483 0.0111719 0.0672483
2746000000 0.0113014 0.0679774 0.9886986 -0.0679774 0.9886986 -0.0679774 0.0113014 0.0679774
2767000000 0.0114346 0.0687058 0.9885654 -0.0687058 0.9885654 -0.0687058 0.0114346 0.0687058
2788000000 0.0115713 0.0694338 0.9884287 -0.0694338 0.9884287 -0.0694338 0.0115713 0.0694338
2809000000 0.0117113 0.0701616 0.9882887 -0.0701616 0.9882887 -0.0701616 0.0117113 0.0701616
2830000000 0.0118546 0.0708892 0.9881454 -0.0708892 0.9881454 -0.0708892 0.0118546 0.0708892
2851000000 0.0120010 0.0716169 0.9879990 -0.0716169 0.9879990 -0.0716169 0.0120010 0.0716169
2872000000 0.0121504 0.0723448 0.9878496 -0.0723448 0.9878496 -0.0723448 0.0121504 0.0723448
2893000000 0.0123027 0.0730731 0.9876973 -0.0730731 0.9876973 -0.0730731 0.0123027 0.0730731
2914000000 0.0124579 0.0738018 0.9875421 -0.0738018 0.9875421 -0.0738018 0.0124579 0.0738018
2935000000 0.0126159 0.0745312 0.9873841 -0.0745312 0.9873841 -0.0745312 0.0126159 0.0745312
2956000000 0.0127766 0.0752614 0.9872234 -0.0752614 0.9872234 -0.0752614 0.0127766 0.0752614
2977000000 0.0129400 0.0759925 0.9870600 -0.0759925 0.9870600 -0.0759925 0.0129400 0.0759925
2998000000 0.0131061 0.0767246 0.9868939 -0.0767246 0.9868939 -0.0767246 0.0131061 0.0767246
3019000000 0.0132748 0.0774578 0.9867252 -0.0774578 0.9867252 -0.0774578 0.0132748 0.0774578
3040000000 0.0134460 0.0781923 0.9865540 -0.0781923 0.9865540 -0.0781923 0.0134460 0.0781923
3061000000 0.0136198 0.0789281 0.9863802 -0.0789281 0.9863802 -0.0789281 0.0136198 0.0789281
3082000000 0.0137961 0.0796654 0.9862039 -0.0796654 0.9862039 -0.0796654 0.0137961 0.0796654
3103000000 0.0139750 0.0804043 0.9860250 -0.0804043 0.9860250 -0.0804043 0.0139750 0.0804043
3124000000 0.0141563 0.0811449 0.9858437 -0.0811449 0.9858437 -0.0811449 0.0141563 0.0811449
3145000000 0.0143401 0.0818872 0.9856599 -0.0818872 0.9856599 -0.0818872 0.0143401 0.0818872
3166000000 0.0145264 0.0826315 0.9854736 -0.0826315 0.9854736 -0.0826315 0.0145264 0.0826315
3187000000 0.0147151 0.0833777 0.9852849 -0.0833777 0.9852849 -0.0833777 0.0147151 0.0833777
3208000000 0.0149064 0.0841260 0.9850936 -0.0841260 0.9850936 -0.0841260 0.0149064 0.0841260
3229000000 0.0151001 0.0848765 0.9848999 -0.0848765 0.9848999 -0.0848765 0.0151001 0.0848765
3250000000 0.0152963 0.0856292 0.9847037 -0.0856292 0.9847037 -0.0856292 0.0152963 0.0856292
3271000000 0.0154950 0.0863843 0.9845050 -0.0863843 0.9845050 -0.0863843 0.0154950 0.0863843
3292000000 0.0156961 0.0871419 0.9843039 -0.0871419 0.9843039 -0.0871419 0.0156961 0.0871419
3313000000 0.0158998 0.0879019 0.9841002 -0.0879019 0.9841002 -0.0879019 0.0158998 0.0879019
3334000000 0.0161060 0.0886646 0.9838940 -0.0886646 0.9838940 -0.0886646 0.0161060 0.0886646
3355000000 0.0163148 0.0894301 0.9836852 -0.0894301 0.9836852 -0.0894301 0.0163148 0.0894301
3376000000 0.0165261 0.0901983 0.9834739 -0.0901983 0.9834739 -0.0901983 0.0165261 0.0901983
3397000000 0.0167400 0.0909694 0.9832600 -0.0909694 0.9832600 -0.0909694 0.0167400 0.0909694
3418000000 0.0169565 0.0917435 0.9830435 -0.0917435 0.9830435 -0.0917435 0.0169565 0.0917435
3439000000 0.0171757 0.0925206 0.9828243 -0.0925206 0.9828243 -0.0925206 0.0171757 0.0925206
3460000000 0.0173975 0.0933009 0.9826025 -0.0933009 0.9826025 -0.0933009 0.0173975 0.0933009
3481000000 0.0176219 0.0940844 0.9823781 -0.0940844 0.9823781 -0.0940844 0.0176219 0.0940844
3502000000 0.0178491 0.0948712 0.9821509 -0.0948712 0.9821509 -0.0948712 0.0178491 0.0948712
3523000000 0.0180791 0.0956615 0.9819209 -0.0956615 0.9819209 -0.0956615 0.0180791 0.0956615
3544000000 0.0183118 0.0964552 0.9816882 -0.0964552 0.9816882 -0.0964552 0.0183118 0.0964552
3565000000 0.0185473 0.0972525 0.9814527 -0.0972525 0.9814527 -0.0972525 0.0185473 0.0972525
3586000000 0.0187857 0.0980534 0.9812143 -0.0980534 0.9812143 -0.0980534 0.0187857 0.0980534
3607000000 0.0190269 0.0988581 0.9809731 -0.0988581 0.9809731 -0.0988581 0.0190269 0.0988581
3628000000 0.0192711 0.0996666 0.9807289 -0.0996666 0.9807289 -0.0996666 0.0192711 0.0996666
3649000000 0.0195183 0.1004790 0.9804817 -0.1004790 0.9804817 -0.1004790 0.0195183 0.1004790
3670000000 0.0197684 0.1012955 0.9802316 -0.1012955 0.9802316 -0.1012955 0.0197684 0.1012955
3691000000 0.0200217 0.1021160 0.9799783 -0.1021160 0.9799783 -0.1021160 0.0200217 0.1021160
3712000000 0.0202780 0.1029407 0.9797220 -0.1029407 0.9797220 -0.1029407 0.0202780 0.1029407
3733000000 0.0205374 0.1037696 0.9794626 -0.1037696 0.9794626 -0.1037696 0.0205374 0.1037696
3754000000 0.0208001 0.1046029 0.9791999 -0.1046029 0.9791999 -0.1046029 0.0208001 0.1046029
3775000000 0.0210660 0.1054406 0.9789340 -0.1054406 0.9789340 -0.1054406 0.0210660 0.1054406
3796000000 0.0213353 0.1062829 0.9786647 -0.1062829 0.9786647 -0.1062829 0.0213353 0.1062829
3817000000 0.0216078 0.1071297 0.9783922 -0.1071297 0.9783922 -0.1071297 0.0216078 0.1071297
3838000000 0.0218838 0.1079813 0.9781162 -0.1079813 0.9781162 -0.1079813 0.0218838 0.1079813
3859000000 0.0221633 0.1088377 0.9778367 -0.1088377 0.9778367 -0.1088377 0.0221633 0.1088377
3880000000 0.0224463 0.1096989 0.9775537 -0.1096989 0.9775537 -0.1096989 0.0224463 0.1096989
3901000000 0.0227329 0.1105652 0.9772671 -0.1105652 0.9772671 -0.1105652 0.0227329 0.1105652
3922000000 0.0230232 0.1114365 0.9769768 -0.1114365 0.9769768 -0.1114365 0.0230232 0.1114365
3943000000 0.0233172 0.1123130 0.9766828 -0.1123130 0.9766828 -0.1123130 0.0233172 0.1123130
3964000000 0.0236149 0.1131948 0.9763851 -0.1131948 0.9763851 -0.1131948 0.0236149 0.1131948
3985000000 0.0239166 0.1140819 0.9760834 -0.1140819 0.9760834 -0.1140819 0.0239166 0.1140819
4006000000 0.0242221 0.1149745 0.9757779 -0.1149745 0.9757779 -0.1149745 0.0242221 0.1149745
4027000000 0.0245317 0.1158726 0.9754683 -0.1158726 0.9754683 -0.1158726 0.0245317 0.1158726
4048000000 0.0248454 0.1167765 0.9751546 -0.1167765 0.9751546 -0.1167765 0.0248454 0.1167765
4069000000 0.0251632 0.1176860 0.9748368 -0.1176860 0.9748368 -0.1176860 0.0251632 0.1176860
4090000000 0.0254852 0.1186015 0.9745148 -0.1186015 0.9745148 -0.1186015 0.0254852 0.1186015
4111000000 0.0258116 0.1195229 0.9741884 -0.1195229 0.9741884 -0.1195229 0.0258116 0.1195229
4132000000 0.0261424 0.1204504 0.9738576 -0.1204504 0.9738576 -0.1204504 0.0261424 0.1204504
4153000000 0.0264777 0.1213841 0.9735223 -0.1213841 0.9735223 -0.1213841 0.0264777 0.1213841
4174000000 0.0268176 0.1223240 0.9731824 -0.1223240 0.9731824 -0.1223240 0.0268176 0.1223240
4195000000 0.0271621 0.1232704 0.9728379 -0.1232704 0.9728379 -0.1232704 0.0271621 0.1232704
4216000000 0.0275114 0.1242233 0.9724886 -0.1242233 0.9724886 -0.1242233 0.0275114 0.1242233
4237000000 0.0278656 0.1251827 0.9721344 -0.1251827 0.9721344 -0.1251827 0.0278656 0.1251827
4258000000 0.0282248 0.1261490 0.9717752 -0.1261490 0.9717752 -0.1261490 0.0282248 0.1261490
4279000000 0.0285890 0.1271220 0.9714110 -0.1271220 0.9714110 -0.1271220 0.0285890 0.1271220
4300000000 0.0289584 0.1281021 0.9710416 -0.1281021 0.9710416 -0.1281021 0.0289584 0.1281021
4321000000 0.0293331 0.1290892 0.9706669 -0.1290892 0.9706669 -0.1290892 0.0293331 0.1290892
4342000000 0.0297132 0.1300835 0.9702868 -0.1300835 0.9702868 -0.1300835 0.0297132 0.1300835
4363000000 0.0300988 0.1310852 0.9699012 -0.1310852 0.9699012 -0.1310852 0.0300988 0.1310852
4384000000 0.0304900 0.1320943 0.9695100 -0.1320943 0.9695100 -0.1320943 0.0304900 0.1320943
4405000000 0.0308870 0.1331109 0.9691130 -0.1331109 0.9691130 -0.1331109 0.0308870 0.1331109
4426000000 0.0312899 0.1341353 0.9687101 -0.1341353 0.9687101 -0.1341353 0.0312899 0.1341353
4447000000 0.0316987 0.1351675 0.9683013 -0.1351675 0.9683013 -0.1351675 0.0316987 0.1351675
4468000000 0.0321137 0.1362076 0.9678863 -0.1362076 0.9678863 -0.1362076 0.0321137 0.1362076
4489000000 0.0325350 0.1372559 0.9674650 -0.1372559 0.9674650 -0.1372559 0.0325350 0.1372559
4510000000 0.0329627 0.1383124 0.9670373 -0.1383124 0.9670373 -0.1383124 0.0329627 0.1383124
