!Murata Part Number: GRM21A5C2J271JWA1
!These Parameters are Measured in Series Mode Connection
!Data Generated on Mar 30, 2021
!       o--ll--o
!Port1            Port2
!       o------o
!Operation Temp=25[degC], DC Bias Voltage=0[V]
!Freq. Start=100[MHz] Stop=3[GHz] 401[Steps]
# Hz S RI R 50
!Freq.(Hz) S11(Real) S11(Imag) S21(Real) S21(Imag) S12(Real) S12(Imag) S22(Real) S22(Imag)
100000000 0.0037322 -0.0578035 0.9962678 0.0578035 0.9962678 0.0578035 0.0037322 -0.0578035
107250000 0.0032504 -0.0534475 0.9967496 0.0534475 0.9967496 0.0534475 0.0032504 -0.0534475
114500000 0.0028574 -0.0496050 0.9971426 0.0496050 0.9971426 0.0496050 0.0028574 -0.0496050
121750000 0.0025338 -0.0461854 0.9974662 0.0461854 0.9974662 0.0461854 0.0025338 -0.0461854
129000000 0.0022653 -0.0431185 0.9977347 0.0431185 0.9977347 0.0431185 0.0022653 -0.0431185
136250000 0.0020410 -0.0403491 0.9979590 0.0403491 0.9979590 0.0403491 0.0020410 -0.0403491
143500000 0.0018525 -0.0378326 0.9981475 0.0378326 0.9981475 0.0378326 0.0018525 -0.0378326
150750000 0.0016931 -0.0355333 0.9983069 0.0355333 0.9983069 0.0355333 0.0016931 -0.0355333
158000000 0.0015577 -0.0334217 0.9984423 0.0334217 0.9984423 0.0334217 0.0015577 -0.0334217
165250000 0.0014422 -0.0314734 0.9985578 0.0314734 0.9985578 0.0314734 0.0014422 -0.0314734
172500000 0.0013432 -0.0296681 0.9986568 0.0296681 0.9986568 0.0296681 0.0013432 -0.0296681
179750000 0.0012582 -0.0279885 0.9987418 0.0279885 0.9987418 0.0279885 0.0012582 -0.0279885
187000000 0.0011850 -0.0264203 0.9988150 0.0264203 0.9988150 0.0264203 0.0011850 -0.0264203
194250000 0.0011217 -0.0249510 0.9988783 0.0249510 0.9988783 0.0249510 0.0011217 -0.0249510
201500000 0.0010670 -0.0235700 0.9989330 0.0235700 0.9989330 0.0235700 0.0010670 -0.0235700
208750000 0.0010197 -0.0222682 0.9989803 0.0222682 0.9989803 0.0222682 0.0010197 -0.0222682
216000000 0.0009786 -0.0210376 0.9990214 0.0210376 0.9990214 0.0210376 0.0009786 -0.0210376
223250000 0.0009431 -0.0198712 0.9990569 0.0198712 0.9990569 0.0198712 0.0009431 -0.0198712
230500000 0.0009124 -0.0187630 0.9990876 0.0187630 0.9990876 0.0187630 0.0009124 -0.0187630
237750000 0.0008859 -0.0177077 0.9991141 0.0177077 0.9991141 0.0177077 0.0008859 -0.0177077
245000000 0.0008632 -0.0167006 0.9991368 0.0167006 0.9991368 0.0167006 0.0008632 -0.0167006
252250000 0.0008437 -0.0157374 0.9991563 0.0157374 0.9991563 0.0157374 0.0008437 -0.0157374
259500000 0.0008271 -0.0148145 0.9991729 0.0148145 0.9991729 0.0148145 0.0008271 -0.0148145
266750000 0.0008131 -0.0139286 0.9991869 0.0139286 0.9991869 0.0139286 0.0008131 -0.0139286
274000000 0.0008014 -0.0130766 0.9991986 0.0130766 0.9991986 0.0130766 0.0008014 -0.0130766
281250000 0.0007918 -0.0122560 0.9992082 0.0122560 0.9992082 0.0122560 0.0007918 -0.0122560
288500000 0.0007841 -0.0114644 0.9992159 0.0114644 0.9992159 0.0114644 0.0007841 -0.0114644
295750000 0.0007782 -0.0106996 0.9992218 0.0106996 0.9992218 0.0106996 0.0007782 -0.0106996
303000000 0.0007738 -0.0099596 0.9992262 0.0099596 0.9992262 0.0099596 0.0007738 -0.0099596
310250000 0.0007708 -0.0092426 0.9992292 0.0092426 0.9992292 0.0092426 0.0007708 -0.0092426
317500000 0.0007691 -0.0085471 0.9992309 0.0085471 0.9992309 0.0085471 0.0007691 -0.0085471
324750000 0.0007687 -0.0078716 0.9992313 0.0078716 0.9992313 0.0078716 0.0007687 -0.0078716
332000000 0.0007694 -0.0072148 0.9992306 0.0072148 0.9992306 0.0072148 0.0007694 -0.0072148
339250000 0.0007711 -0.0065753 0.9992289 0.0065753 0.9992289 0.0065753 0.0007711 -0.0065753
346500000 0.0007738 -0.0059521 0.9992262 0.0059521 0.9992262 0.0059521 0.0007738 -0.0059521
353750000 0.0007774 -0.0053442 0.9992226 0.0053442 0.9992226 0.0053442 0.0007774 -0.0053442
361000000 0.0007819 -0.0047506 0.9992181 0.0047506 0.9992181 0.0047506 0.0007819 -0.0047506
368250000 0.0007872 -0.0041704 0.9992128 0.0041704 0.9992128 0.0041704 0.0007872 -0.0041704
375500000 0.0007932 -0.0036028 0.9992068 0.0036028 0.9992068 0.0036028 0.0007932 -0.0036028
382750000 0.0008000 -0.0030471 0.9992000 0.0030471 0.9992000 0.0030471 0.0008000 -0.0030471
390000000 0.0008075 -0.0025025 0.9991925 0.0025025 0.9991925 0.0025025 0.0008075 -0.0025025
397250000 0.0008157 -0.0019684 0.9991843 0.0019684 0.9991843 0.0019684 0.0008157 -0.0019684
404500000 0.0008245 -0.0014443 0.9991755 0.0014443 0.9991755 0.0014443 0.0008245 -0.0014443
411750000 0.0008340 -0.0009295 0.9991660 0.0009295 0.9991660 0.0009295 0.0008340 -0.0009295
419000000 0.0008440 -0.0004235 0.9991560 0.0004235 0.9991560 0.0004235 0.0008440 -0.0004235
426250000 0.0008547 0.0000741 0.9991453 -0.0000741 0.9991453 -0.0000741 0.0008547 0.0000741
433500000 0.0008659 0.0005639 0.9991341 -0.0005639 0.9991341 -0.0005639 0.0008659 0.0005639
440750000 0.0008777 0.0010462 0.9991223 -0.0010462 0.9991223 -0.0010462 0.0008777 0.0010462
448000000 0.0008901 0.0015215 0.9991099 -0.0015215 0.9991099 -0.0015215 0.0008901 0.0015215
455250000 0.0009030 0.0019901 0.9990970 -0.0019901 0.9990970 -0.0019901 0.0009030 0.0019901
462500000 0.0009165 0.0024523 0.9990835 -0.0024523 0.9990835 -0.0024523 0.0009165 0.0024523
469750000 0.0009305 0.0029086 0.9990695 -0.0029086 0.9990695 -0.0029086 0.0009305 0.0029086
477000000 0.0009451 0.0033592 0.9990549 -0.0033592 0.9990549 -0.0033592 0.0009451 0.0033592
484250000 0.0009602 0.0038045 0.9990398 -0.0038045 0.9990398 -0.0038045 0.0009602 0.0038045
491500000 0.0009758 0.0042447 0.9990242 -0.0042447 0.9990242 -0.0042447 0.0009758 0.0042447
498750000 0.0009920 0.0046801 0.9990080 -0.0046801 0.9990080 -0.0046801 0.0009920 0.0046801
506000000 0.0010087 0.0051109 0.9989913 -0.0051109 0.9989913 -0.0051109 0.0010087 0.0051109
513250000 0.0010260 0.0055374 0.9989740 -0.0055374 0.9989740 -0.0055374 0.0010260 0.0055374
520500000 0.0010438 0.0059599 0.9989562 -0.0059599 0.9989562 -0.0059599 0.0010438 0.0059599
527750000 0.0010622 0.0063784 0.9989378 -0.0063784 0.9989378 -0.0063784 0.0010622 0.0063784
535000000 0.0010812 0.0067934 0.9989188 -0.0067934 0.9989188 -0.0067934 0.0010812 0.0067934
542250000 0.0011008 0.0072049 0.9988992 -0.0072049 0.9988992 -0.0072049 0.0011008 0.0072049
549500000 0.0011209 0.0076131 0.9988791 -0.0076131 0.9988791 -0.0076131 0.0011209 0.0076131
556750000 0.0011417 0.0080183 0.9988583 -0.0080183 0.9988583 -0.0080183 0.0011417 0.0080183
564000000 0.0011631 0.0084207 0.9988369 -0.0084207 0.9988369 -0.0084207 0.0011631 0.0084207
571250000 0.0011851 0.0088203 0.9988149 -0.0088203 0.9988149 -0.0088203 0.0011851 0.0088203
578500000 0.0012078 0.0092174 0.9987922 -0.0092174 0.9987922 -0.0092174 0.0012078 0.0092174
585750000 0.0012312 0.0096122 0.9987688 -0.0096122 0.9987688 -0.0096122 0.0012312 0.0096122
593000000 0.0012553 0.0100047 0.9987447 -0.0100047 0.9987447 -0.0100047 0.0012553 0.0100047
600250000 0.0012801 0.0103952 0.9987199 -0.0103952 0.9987199 -0.0103952 0.0012801 0.0103952
607500000 0.0013056 0.0107838 0.9986944 -0.0107838 0.9986944 -0.0107838 0.0013056 0.0107838
614750000 0.0013320 0.0111707 0.9986680 -0.0111707 0.9986680 -0.0111707 0.0013320 0.0111707
622000000 0.0013592 0.0115560 0.9986408 -0.0115560 0.9986408 -0.0115560 0.0013592 0.0115560
629250000 0.0013872 0.0119399 0.9986128 -0.0119399 0.9986128 -0.0119399 0.0013872 0.0119399
636500000 0.0014161 0.0123225 0.9985839 -0.0123225 0.9985839 -0.0123225 0.0014161 0.0123225
643750000 0.0014460 0.0127039 0.9985540 -0.0127039 0.9985540 -0.0127039 0.0014460 0.0127039
651000000 0.0014769 0.0130843 0.9985231 -0.0130843 0.9985231 -0.0130843 0.0014769 0.0130843
658250000 0.0015088 0.0134639 0.9984912 -0.0134639 0.9984912 -0.0134639 0.0015088 0.0134639
665500000 0.0015418 0.0138428 0.9984582 -0.0138428 0.9984582 -0.0138428 0.0015418 0.0138428
672750000 0.0015760 0.0142211 0.9984240 -0.0142211 0.9984240 -0.0142211 0.0015760 0.0142211
680000000 0.0016114 0.0145990 0.9983886 -0.0145990 0.9983886 -0.0145990 0.0016114 0.0145990
687250000 0.0016481 0.0149767 0.9983519 -0.0149767 0.9983519 -0.0149767 0.0016481 0.0149767
694500000 0.0016863 0.0153543 0.9983137 -0.0153543 0.9983137 -0.0153543 0.0016863 0.0153543
701750000 0.0017260 0.0157319 0.9982740 -0.0157319 0.9982740 -0.0157319 0.0017260 0.0157319
709000000 0.0017672 0.0161098 0.9982328 -0.0161098 0.9982328 -0.0161098 0.0017672 0.0161098
716250000 0.0018103 0.0164880 0.9981897 -0.0164880 0.9981897 -0.0164880 0.0018103 0.0164880
723500000 0.0018552 0.0168669 0.9981448 -0.0168669 0.9981448 -0.0168669 0.0018552 0.0168669
730750000 0.0019021 0.0172465 0.9980979 -0.0172465 0.9980979 -0.0172465 0.0019021 0.0172465
738000000 0.0019512 0.0176270 0.9980488 -0.0176270 0.9980488 -0.0176270 0.0019512 0.0176270
745250000 0.0020028 0.0180087 0.9979972 -0.0180087 0.9979972 -0.0180087 0.0020028 0.0180087
752500000 0.0020569 0.0183917 0.9979431 -0.0183917 0.9979431 -0.0183917 0.0020569 0.0183917
759750000 0.0021139 0.0187763 0.9978861 -0.0187763 0.9978861 -0.0187763 0.0021139 0.0187763
767000000 0.0021741 0.0191627 0.9978259 -0.0191627 0.9978259 -0.0191627 0.0021741 0.0191627
774250000 0.0022377 0.0195511 0.9977623 -0.0195511 0.9977623 -0.0195511 0.0022377 0.0195511
781500000 0.0023051 0.0199417 0.9976949 -0.0199417 0.9976949 -0.0199417 0.0023051 0.0199417
788750000 0.0023768 0.0203349 0.9976232 -0.0203349 0.9976232 -0.0203349 0.0023768 0.0203349
796000000 0.0024533 0.0207309 0.9975467 -0.0207309 0.9975467 -0.0207309 0.0024533 0.0207309
803250000 0.0025350 0.0211298 0.9974650 -0.0211298 0.9974650 -0.0211298 0.0025350 0.0211298
810500000 0.0026226 0.0215322 0.9973774 -0.0215322 0.9973774 -0.0215322 0.0026226 0.0215322
817750000 0.0027169 0.0219381 0.9972831 -0.0219381 0.9972831 -0.0219381 0.0027169 0.0219381
825000000 0.0028187 0.0223479 0.9971813 -0.0223479 0.9971813 -0.0223479 0.0028187 0.0223479
832250000 0.0029290 0.0227618 0.9970710 -0.0227618 0.9970710 -0.0227618 0.0029290 0.0227618
839500000 0.0030491 0.0231800 0.9969509 -0.0231800 0.9969509 -0.0231800 0.0030491 0.0231800
846750000 0.0031803 0.0236028 0.9968197 -0.0236028 0.9968197 -0.0236028 0.0031803 0.0236028
854000000 0.0033241 0.0240301 0.9966759 -0.0240301 0.9966759 -0.0240301 0.0033241 0.0240301
861250000 0.0034826 0.0244621 0.9965174 -0.0244621 0.9965174 -0.0244621 0.0034826 0.0244621
868500000 0.0036580 0.0248984 0.9963420 -0.0248984 0.9963420 -0.0248984 0.0036580 0.0248984
875750000 0.0038529 0.0253387 0.9961471 -0.0253387 0.9961471 -0.0253387 0.0038529 0.0253387
883000000 0.0040704 0.0257820 0.9959296 -0.0257820 0.9959296 -0.0257820 0.0040704 0.0257820
890250000 0.0043141 0.0262270 0.9956859 -0.0262270 0.9956859 -0.0262270 0.0043141 0.0262270
897500000 0.0045882 0.0266715 0.9954118 -0.0266715 0.9954118 -0.0266715 0.0045882 0.0266715
904750000 0.0048974 0.0271125 0.9951026 -0.0271125 0.9951026 -0.0271125 0.0048974 0.0271125
912000000 0.0052470 0.0275451 0.9947530 -0.0275451 0.9947530 -0.0275451 0.0052470 0.0275451
919250000 0.0056426 0.0279628 0.9943574 -0.0279628 0.9943574 -0.0279628 0.0056426 0.0279628
926500000 0.0060898 0.0283563 0.9939102 -0.0283563 0.9939102 -0.0283563 0.0060898 0.0283563
933750000 0.0065932 0.0287129 0.9934068 -0.0287129 0.9934068 -0.0287129 0.0065932 0.0287129
941000000 0.0071556 0.0290158 0.9928444 -0.0290158 0.9928444 -0.0290158 0.0071556 0.0290158
948250000 0.0077753 0.0292437 0.9922247 -0.0292437 0.9922247 -0.0292437 0.0077753 0.0292437
955500000 0.0084437 0.0293713 0.9915563 -0.0293713 0.9915563 -0.0293713 0.0084437 0.0293713
962750000 0.0091418 0.0293713 0.9908582 -0.0293713 0.9908582 -0.0293713 0.0091418 0.0293713
970000000 0.0098366 0.0292189 0.9901634 -0.0292189 0.9901634 -0.0292189 0.0098366 0.0292189
977250000 0.0104803 0.0288996 0.9895197 -0.0288996 0.9895197 -0.0288996 0.0104803 0.0288996
984500000 0.0110143 0.0284183 0.9889857 -0.0284183 0.9889857 -0.0284183 0.0110143 0.0284183
991750000 0.0113791 0.0278072 0.9886209 -0.0278072 0.9886209 -0.0278072 0.0113791 0.0278072
999000000 0.0115305 0.0271253 0.9884695 -0.0271253 0.9884695 -0.0271253 0.0115305 0.0271253
1006250000 0.0114535 0.0264486 0.9885465 -0.0264486 0.9885465 -0.0264486 0.0114535 0.0264486
1013500000 0.0111676 0.0258517 0.9888324 -0.0258517 0.9888324 -0.0258517 0.0111676 0.0258517
1020750000 0.0107201 0.0253904 0.9892799 -0.0253904 0.9892799 -0.0253904 0.0107201 0.0253904
1028000000 0.0101709 0.0250928 0.9898291 -0.0250928 0.9898291 -0.0250928 0.0101709 0.0250928
1035250000 0.0095776 0.0249607 0.9904224 -0.0249607 0.9904224 -0.0249607 0.0095776 0.0249607
1042500000 0.0089856 0.0249779 0.9910144 -0.0249779 0.9910144 -0.0249779 0.0089856 0.0249779
1049750000 0.0084260 0.0251193 0.9915740 -0.0251193 0.9915740 -0.0251193 0.0084260 0.0251193
1057000000 0.0079163 0.0253580 0.9920837 -0.0253580 0.9920837 -0.0253580 0.0079163 0.0253580
1064250000 0.0074641 0.0256691 0.9925359 -0.0256691 0.9925359 -0.0256691 0.0074641 0.0256691
1071500000 0.0070706 0.0260323 0.9929294 -0.0260323 0.9929294 -0.0260323 0.0070706 0.0260323
1078750000 0.0067328 0.0264314 0.9932672 -0.0264314 0.9932672 -0.0264314 0.0067328 0.0264314
1086000000 0.0064461 0.0268544 0.9935539 -0.0268544 0.9935539 -0.0268544 0.0064461 0.0268544
1093250000 0.0062052 0.0272924 0.9937948 -0.0272924 0.9937948 -0.0272924 0.0062052 0.0272924
1100500000 0.0060047 0.0277389 0.9939953 -0.0277389 0.9939953 -0.0277389 0.0060047 0.0277389
1107750000 0.0058395 0.0281896 0.9941605 -0.0281896 0.9941605 -0.0281896 0.0058395 0.0281896
1115000000 0.0057051 0.0286415 0.9942949 -0.0286415 0.9942949 -0.0286415 0.0057051 0.0286415
1122250000 0.0055975 0.0290923 0.9944025 -0.0290923 0.9944025 -0.0290923 0.0055975 0.0290923
1129500000 0.0055135 0.0295409 0.9944865 -0.0295409 0.9944865 -0.0295409 0.0055135 0.0295409
1136750000 0.0054500 0.0299864 0.9945500 -0.0299864 0.9945500 -0.0299864 0.0054500 0.0299864
1144000000 0.0054046 0.0304284 0.9945954 -0.0304284 0.9945954 -0.0304284 0.0054046 0.0304284
1151250000 0.0053753 0.0308667 0.9946247 -0.0308667 0.9946247 -0.0308667 0.0053753 0.0308667
1158500000 0.0053603 0.0313011 0.9946397 -0.0313011 0.9946397 -0.0313011 0.0053603 0.0313011
1165750000 0.0053581 0.0317319 0.9946419 -0.0317319 0.9946419 -0.0317319 0.0053581 0.0317319
1173000000 0.0053676 0.0321592 0.9946324 -0.0321592 0.9946324 -0.0321592 0.0053676 0.0321592
1180250000 0.0053878 0.0325831 0.9946122 -0.0325831 0.9946122 -0.0325831 0.0053878 0.0325831
1187500000 0.0054178 0.0330040 0.9945822 -0.0330040 0.9945822 -0.0330040 0.0054178 0.0330040
1194750000 0.0054568 0.0334220 0.9945432 -0.0334220 0.9945432 -0.0334220 0.0054568 0.0334220
1202000000 0.0055045 0.0338374 0.9944955 -0.0338374 0.9944955 -0.0338374 0.0055045 0.0338374
1209250000 0.0055602 0.0342505 0.9944398 -0.0342505 0.9944398 -0.0342505 0.0055602 0.0342505
1216500000 0.0056236 0.0346614 0.9943764 -0.0346614 0.9943764 -0.0346614 0.0056236 0.0346614
1223750000 0.0056946 0.0350705 0.9943054 -0.0350705 0.9943054 -0.0350705 0.0056946 0.0350705
1231000000 0.0057727 0.0354779 0.9942273 -0.0354779 0.9942273 -0.0354779 0.0057727 0.0354779
1238250000 0.0058580 0.0358839 0.9941420 -0.0358839 0.9941420 -0.0358839 0.0058580 0.0358839
1245500000 0.0059504 0.0362885 0.9940496 -0.0362885 0.9940496 -0.0362885 0.0059504 0.0362885
1252750000 0.0060497 0.0366921 0.9939503 -0.0366921 0.9939503 -0.0366921 0.0060497 0.0366921
1260000000 0.0061560 0.0370947 0.9938440 -0.0370947 0.9938440 -0.0370947 0.0061560 0.0370947
1267250000 0.0062694 0.0374964 0.9937306 -0.0374964 0.9937306 -0.0374964 0.0062694 0.0374964
1274500000 0.0063900 0.0378975 0.9936100 -0.0378975 0.9936100 -0.0378975 0.0063900 0.0378975
1281750000 0.0065180 0.0382978 0.9934820 -0.0382978 0.9934820 -0.0382978 0.0065180 0.0382978
1289000000 0.0066534 0.0386976 0.9933466 -0.0386976 0.9933466 -0.0386976 0.0066534 0.0386976
1296250000 0.0067966 0.0390969 0.9932034 -0.0390969 0.9932034 -0.0390969 0.0067966 0.0390969
1303500000 0.0069477 0.0394957 0.9930523 -0.0394957 0.9930523 -0.0394957 0.0069477 0.0394957
1310750000 0.0071071 0.0398939 0.9928929 -0.0398939 0.9928929 -0.0398939 0.0071071 0.0398939
1318000000 0.0072752 0.0402915 0.9927248 -0.0402915 0.9927248 -0.0402915 0.0072752 0.0402915
1325250000 0.0074522 0.0406885 0.9925478 -0.0406885 0.9925478 -0.0406885 0.0074522 0.0406885
1332500000 0.0076385 0.0410848 0.9923615 -0.0410848 0.9923615 -0.0410848 0.0076385 0.0410848
1339750000 0.0078347 0.0414801 0.9921653 -0.0414801 0.9921653 -0.0414801 0.0078347 0.0414801
1347000000 0.0080411 0.0418743 0.9919589 -0.0418743 0.9919589 -0.0418743 0.0080411 0.0418743
1354250000 0.0082583 0.0422672 0.9917417 -0.0422672 0.9917417 -0.0422672 0.0082583 0.0422672
1361500000 0.0084869 0.0426584 0.9915131 -0.0426584 0.9915131 -0.0426584 0.0084869 0.0426584
1368750000 0.0087273 0.0430475 0.9912727 -0.0430475 0.9912727 -0.0430475 0.0087273 0.0430475
1376000000 0.0089802 0.0434342 0.9910198 -0.0434342 0.9910198 -0.0434342 0.0089802 0.0434342
1383250000 0.0092462 0.0438178 0.9907538 -0.0438178 0.9907538 -0.0438178 0.0092462 0.0438178
1390500000 0.0095260 0.0441978 0.9904740 -0.0441978 0.9904740 -0.0441978 0.0095260 0.0441978
1397750000 0.0098203 0.0445735 0.9901797 -0.0445735 0.9901797 -0.0445735 0.0098203 0.0445735
1405000000 0.0101297 0.0449440 0.9898703 -0.0449440 0.9898703 -0.0449440 0.0101297 0.0449440
1412250000 0.0104550 0.0453083 0.9895450 -0.0453083 0.9895450 -0.0453083 0.0104550 0.0453083
1419500000 0.0107968 0.0456654 0.9892032 -0.0456654 0.9892032 -0.0456654 0.0107968 0.0456654
1426750000 0.0111559 0.0460141 0.9888441 -0.0460141 0.9888441 -0.0460141 0.0111559 0.0460141
1434000000 0.0115329 0.0463528 0.9884671 -0.0463528 0.9884671 -0.0463528 0.0115329 0.0463528
1441250000 0.0119283 0.0466800 0.9880717 -0.0466800 0.9880717 -0.0466800 0.0119283 0.0466800
1448500000 0.0123428 0.0469939 0.9876572 -0.0469939 0.9876572 -0.0469939 0.0123428 0.0469939
1455750000 0.0127766 0.0472924 0.9872234 -0.0472924 0.9872234 -0.0472924 0.0127766 0.0472924
1463000000 0.0132302 0.0475734 0.9867698 -0.0475734 0.9867698 -0.0475734 0.0132302 0.0475734
1470250000 0.0137034 0.0478343 0.9862966 -0.0478343 0.9862966 -0.0478343 0.0137034 0.0478343
1477500000 0.0141963 0.0480725 0.9858037 -0.0480725 0.9858037 -0.0480725 0.0141963 0.0480725
1484750000 0.0147082 0.0482849 0.9852918 -0.0482849 0.9852918 -0.0482849 0.0147082 0.0482849
1492000000 0.0152384 0.0484685 0.9847616 -0.0484685 0.9847616 -0.0484685 0.0152384 0.0484685
1499250000 0.0157856 0.0486200 0.9842144 -0.0486200 0.9842144 -0.0486200 0.0157856 0.0486200
1506500000 0.0163481 0.0487359 0.9836519 -0.0487359 0.9836519 -0.0487359 0.0163481 0.0487359
1513750000 0.0169235 0.0488125 0.9830765 -0.0488125 0.9830765 -0.0488125 0.0169235 0.0488125
1521000000 0.0175090 0.0488465 0.9824910 -0.0488465 0.9824910 -0.0488465 0.0175090 0.0488465
1528250000 0.0181007 0.0488343 0.9818993 -0.0488343 0.9818993 -0.0488343 0.0181007 0.0488343
1535500000 0.0186942 0.0487728 0.9813058 -0.0487728 0.9813058 -0.0487728 0.0186942 0.0487728
1542750000 0.0192844 0.0486593 0.9807156 -0.0486593 0.9807156 -0.0486593 0.0192844 0.0486593
1550000000 0.0198653 0.0484915 0.9801347 -0.0484915 0.9801347 -0.0484915 0.0198653 0.0484915
1557250000 0.0204302 0.0482680 0.9795698 -0.0482680 0.9795698 -0.0482680 0.0204302 0.0482680
1564500000 0.0209718 0.0479885 0.9790282 -0.0479885 0.9790282 -0.0479885 0.0209718 0.0479885
1571750000 0.0214824 0.0476538 0.9785176 -0.0476538 0.9785176 -0.0476538 0.0214824 0.0476538
1579000000 0.0219540 0.0472658 0.9780460 -0.0472658 0.9780460 -0.0472658 0.0219540 0.0472658
1586250000 0.0223786 0.0468280 0.9776214 -0.0468280 0.9776214 -0.0468280 0.0223786 0.0468280
1593500000 0.0227487 0.0463456 0.9772513 -0.0463456 0.9772513 -0.0463456 0.0227487 0.0463456
1600750000 0.0230575 0.0458249 0.9769425 -0.0458249 0.9769425 -0.0458249 0.0230575 0.0458249
1608000000 0.0232990 0.0452738 0.9767010 -0.0452738 0.9767010 -0.0452738 0.0232990 0.0452738
1615250000 0.0234688 0.0447011 0.9765312 -0.0447011 0.9765312 -0.0447011 0.0234688 0.0447011
1622500000 0.0235640 0.0441166 0.9764360 -0.0441166 0.9764360 -0.0441166 0.0235640 0.0441166
1629750000 0.0235835 0.0435304 0.9764165 -0.0435304 0.9764165 -0.0435304 0.0235835 0.0435304
