!Murata Part Number: GRM2165C2A681JA01
!These Parameters are Measured in Series Mode Connection
!Data Generated on Mar 30, 2021
!       o--ll--o
!Port1            Port2
!       o------o
!Operation Temp=25[degC], DC Bias Voltage=0[V]
!Freq. Start=100[MHz] Stop=9[GHz] 401[Steps]
# Hz S RI R 50
!Freq.(Hz) S11(Real) S11(Imag) S21(Real) S21(Imag) S12(Real) S12(Imag) S22(Real) S22(Imag)
100000000 0.0008785 -0.0201896 0.9991215 0.0201896 0.9991215 0.0201896 0.0008785 -0.0201896
121000000 0.0007196 -0.0154650 0.9992804 0.0154650 0.9992804 0.0154650 0.0007196 -0.0154650
142000000 0.0006346 -0.0119371 0.9993654 0.0119371 0.9993654 0.0119371 0.0006346 -0.0119371
163000000 0.0005895 -0.0091435 0.9994105 0.0091435 0.9994105 0.0091435 0.0005895 -0.0091435
184000000 0.0005685 -0.0068322 0.9994315 0.0068322 0.9994315 0.0068322 0.0005685 -0.0068322
205000000 0.0005636 -0.0048544 0.9994364 0.0048544 0.9994364 0.0048544 0.0005636 -0.0048544
226000000 0.0005704 -0.0031165 0.9994296 0.0031165 0.9994296 0.0031165 0.0005704 -0.0031165
247000000 0.0005863 -0.0015566 0.9994137 0.0015566 0.9994137 0.0015566 0.0005863 -0.0015566
268000000 0.0006099 -0.0001319 0.9993901 0.0001319 0.9993901 0.0001319 0.0006099 -0.0001319
289000000 0.0006403 0.0011878 0.9993597 -0.0011878 0.9993597 -0.0011878 0.0006403 0.0011878
310000000 0.0006772 0.0024251 0.9993228 -0.0024251 0.9993228 -0.0024251 0.0006772 0.0024251
331000000 0.0007205 0.0035965 0.9992795 -0.0035965 0.9992795 -0.0035965 0.0007205 0.0035965
352000000 0.0007702 0.0047152 0.9992298 -0.0047152 0.9992298 -0.0047152 0.0007702 0.0047152
373000000 0.0008269 0.0057914 0.9991731 -0.0057914 0.9991731 -0.0057914 0.0008269 0.0057914
394000000 0.0008912 0.0068334 0.9991088 -0.0068334 0.9991088 -0.0068334 0.0008912 0.0068334
415000000 0.0009639 0.0078481 0.9990361 -0.0078481 0.9990361 -0.0078481 0.0009639 0.0078481
436000000 0.0010466 0.0088412 0.9989534 -0.0088412 0.9989534 -0.0088412 0.0010466 0.0088412
457000000 0.0011408 0.0098178 0.9988592 -0.0098178 0.9988592 -0.0098178 0.0011408 0.0098178
478000000 0.0012492 0.0107823 0.9987508 -0.0107823 0.9987508 -0.0107823 0.0012492 0.0107823
499000000 0.0013751 0.0117386 0.9986249 -0.0117386 0.9986249 -0.0117386 0.0013751 0.0117386
520000000 0.0015230 0.0126900 0.9984770 -0.0126900 0.9984770 -0.0126900 0.0015230 0.0126900
541000000 0.0016995 0.0136389 0.9983005 -0.0136389 0.9983005 -0.0136389 0.0016995 0.0136389
562000000 0.0019134 0.0145867 0.9980866 -0.0145867 0.9980866 -0.0145867 0.0019134 0.0145867
583000000 0.0021773 0.0155316 0.9978227 -0.0155316 0.9978227 -0.0155316 0.0021773 0.0155316
604000000 0.0025078 0.0164670 0.9974922 -0.0164670 0.9974922 -0.0164670 0.0025078 0.0164670
625000000 0.0029260 0.0173758 0.9970740 -0.0173758 0.9970740 -0.0173758 0.0029260 0.0173758
646000000 0.0034538 0.0182227 0.9965462 -0.0182227 0.9965462 -0.0182227 0.0034538 0.0182227
667000000 0.0041008 0.0189439 0.9958992 -0.0189439 0.9958992 -0.0189439 0.0041008 0.0189439
688000000 0.0048324 0.0194451 0.9951676 -0.0194451 0.9951676 -0.0194451 0.0048324 0.0194451
709000000 0.0055255 0.0196403 0.9944745 -0.0196403 0.9944745 -0.0196403 0.0055255 0.0196403
730000000 0.0059744 0.0195525 0.9940256 -0.0195525 0.9940256 -0.0195525 0.0059744 0.0195525
751000000 0.0060270 0.0193818 0.9939730 -0.0193818 0.9939730 -0.0193818 0.0060270 0.0193818
772000000 0.0057350 0.0193820 0.9942650 -0.0193820 0.9942650 -0.0193820 0.0057350 0.0193820
793000000 0.0052919 0.0196693 0.9947081 -0.0196693 0.9947081 -0.0196693 0.0052919 0.0196693
814000000 0.0048643 0.0202084 0.9951357 -0.0202084 0.9951357 -0.0202084 0.0048643 0.0202084
835000000 0.0045294 0.0209114 0.9954706 -0.0209114 0.9954706 -0.0209114 0.0045294 0.0209114
856000000 0.0043022 0.0217040 0.9956978 -0.0217040 0.9956978 -0.0217040 0.0043022 0.0217040
877000000 0.0041722 0.0225385 0.9958278 -0.0225385 0.9958278 -0.0225385 0.0041722 0.0225385
898000000 0.0041235 0.0233884 0.9958765 -0.0233884 0.9958765 -0.0233884 0.0041235 0.0233884
919000000 0.0041416 0.0242395 0.9958584 -0.0242395 0.9958584 -0.0242395 0.0041416 0.0242395
940000000 0.0042161 0.0250844 0.9957839 -0.0250844 0.9957839 -0.0250844 0.0042161 0.0250844
961000000 0.0043395 0.0259190 0.9956605 -0.0259190 0.9956605 -0.0259190 0.0043395 0.0259190
982000000 0.0045072 0.0267406 0.9954928 -0.0267406 0.9954928 -0.0267406 0.0045072 0.0267406
1003000000 0.0047167 0.0275468 0.9952833 -0.0275468 0.9952833 -0.0275468 0.0047167 0.0275468
1024000000 0.0049670 0.0283346 0.9950330 -0.0283346 0.9950330 -0.0283346 0.0049670 0.0283346
1045000000 0.0052576 0.0291003 0.9947424 -0.0291003 0.9947424 -0.0291003 0.0052576 0.0291003
1066000000 0.0055889 0.0298387 0.9944111 -0.0298387 0.9944111 -0.0298387 0.0055889 0.0298387
1087000000 0.0059606 0.0305431 0.9940394 -0.0305431 0.9940394 -0.0305431 0.0059606 0.0305431
1108000000 0.0063715 0.0312051 0.9936285 -0.0312051 0.9936285 -0.0312051 0.0063715 0.0312051
1129000000 0.0068185 0.0318145 0.9931815 -0.0318145 0.9931815 -0.0318145 0.0068185 0.0318145
1150000000 0.0072955 0.0323598 0.9927045 -0.0323598 0.9927045 -0.0323598 0.0072955 0.0323598
1171000000 0.0077920 0.0328291 0.9922080 -0.0328291 0.9922080 -0.0328291 0.0077920 0.0328291
1192000000 0.0082926 0.0332119 0.9917074 -0.0332119 0.9917074 -0.0332119 0.0082926 0.0332119
1213000000 0.0087766 0.0335013 0.9912234 -0.0335013 0.9912234 -0.0335013 0.0087766 0.0335013
1234000000 0.0092187 0.0336970 0.9907813 -0.0336970 0.9907813 -0.0336970 0.0092187 0.0336970
1255000000 0.0095921 0.0338075 0.9904079 -0.0338075 0.9904079 -0.0338075 0.0095921 0.0338075
1276000000 0.0098725 0.0338515 0.9901275 -0.0338515 0.9901275 -0.0338515 0.0098725 0.0338515
1297000000 0.0100428 0.0338566 0.9899572 -0.0338566 0.9899572 -0.0338566 0.0100428 0.0338566
1318000000 0.0100967 0.0338555 0.9899033 -0.0338555 0.9899033 -0.0338555 0.0100967 0.0338555
1339000000 0.0100401 0.0338803 0.9899599 -0.0338803 0.9899599 -0.0338803 0.0100401 0.0338803
1360000000 0.0098893 0.0339579 0.9901107 -0.0339579 0.9901107 -0.0339579 0.0098893 0.0339579
1381000000 0.0096671 0.0341062 0.9903329 -0.0341062 0.9903329 -0.0341062 0.0096671 0.0341062
1402000000 0.0093983 0.0343337 0.9906017 -0.0343337 0.9906017 -0.0343337 0.0093983 0.0343337
1423000000 0.0091058 0.0346406 0.9908942 -0.0346406 0.9908942 -0.0346406 0.0091058 0.0346406
1444000000 0.0088086 0.0350210 0.9911914 -0.0350210 0.9911914 -0.0350210 0.0088086 0.0350210
1465000000 0.0085207 0.0354656 0.9914793 -0.0354656 0.9914793 -0.0354656 0.0085207 0.0354656
1486000000 0.0082518 0.0359641 0.9917482 -0.0359641 0.9917482 -0.0359641 0.0082518 0.0359641
1507000000 0.0080075 0.0365061 0.9919925 -0.0365061 0.9919925 -0.0365061 0.0080075 0.0365061
1528000000 0.0077904 0.0370820 0.9922096 -0.0370820 0.9922096 -0.0370820 0.0077904 0.0370820
1549000000 0.0076014 0.0376839 0.9923986 -0.0376839 0.9923986 -0.0376839 0.0076014 0.0376839
1570000000 0.0074396 0.0383049 0.9925604 -0.0383049 0.9925604 -0.0383049 0.0074396 0.0383049
1591000000 0.0073038 0.0389397 0.9926962 -0.0389397 0.9926962 -0.0389397 0.0073038 0.0389397
1612000000 0.0071919 0.0395839 0.9928081 -0.0395839 0.9928081 -0.0395839 0.0071919 0.0395839
1633000000 0.0071020 0.0402343 0.9928980 -0.0402343 0.9928980 -0.0402343 0.0071020 0.0402343
1654000000 0.0070320 0.0408882 0.9929680 -0.0408882 0.9929680 -0.0408882 0.0070320 0.0408882
1675000000 0.0069800 0.0415438 0.9930200 -0.0415438 0.9930200 -0.0415438 0.0069800 0.0415438
1696000000 0.0069440 0.0421995 0.9930560 -0.0421995 0.9930560 -0.0421995 0.0069440 0.0421995
1717000000 0.0069225 0.0428542 0.9930775 -0.0428542 0.9930775 -0.0428542 0.0069225 0.0428542
1738000000 0.0069138 0.0435073 0.9930862 -0.0435073 0.9930862 -0.0435073 0.0069138 0.0435073
1759000000 0.0069168 0.0441581 0.9930832 -0.0441581 0.9930832 -0.0441581 0.0069168 0.0441581
1780000000 0.0069301 0.0448061 0.9930699 -0.0448061 0.9930699 -0.0448061 0.0069301 0.0448061
1801000000 0.0069526 0.0454513 0.9930474 -0.0454513 0.9930474 -0.0454513 0.0069526 0.0454513
1822000000 0.0069836 0.0460933 0.9930164 -0.0460933 0.9930164 -0.0460933 0.0069836 0.0460933
1843000000 0.0070220 0.0467321 0.9929780 -0.0467321 0.9929780 -0.0467321 0.0070220 0.0467321
1864000000 0.0070673 0.0473676 0.9929327 -0.0473676 0.9929327 -0.0473676 0.0070673 0.0473676
1885000000 0.0071187 0.0480000 0.9928813 -0.0480000 0.9928813 -0.0480000 0.0071187 0.0480000
1906000000 0.0071756 0.0486290 0.9928244 -0.0486290 0.9928244 -0.0486290 0.0071756 0.0486290
1927000000 0.0072376 0.0492550 0.9927624 -0.0492550 0.9927624 -0.0492550 0.0072376 0.0492550
1948000000 0.0073043 0.0498778 0.9926957 -0.0498778 0.9926957 -0.0498778 0.0073043 0.0498778
1969000000 0.0073752 0.0504976 0.9926248 -0.0504976 0.9926248 -0.0504976 0.0073752 0.0504976
1990000000 0.0074499 0.0511145 0.9925501 -0.0511145 0.9925501 -0.0511145 0.0074499 0.0511145
2011000000 0.0075282 0.0517286 0.9924718 -0.0517286 0.9924718 -0.0517286 0.0075282 0.0517286
2032000000 0.0076098 0.0523399 0.9923902 -0.0523399 0.9923902 -0.0523399 0.0076098 0.0523399
2053000000 0.0076944 0.0529486 0.9923056 -0.0529486 0.9923056 -0.0529486 0.0076944 0.0529486
2074000000 0.0077817 0.0535547 0.9922183 -0.0535547 0.9922183 -0.0535547 0.0077817 0.0535547
2095000000 0.0078717 0.0541583 0.9921283 -0.0541583 0.9921283 -0.0541583 0.0078717 0.0541583
2116000000 0.0079641 0.0547596 0.9920359 -0.0547596 0.9920359 -0.0547596 0.0079641 0.0547596
2137000000 0.0080588 0.0553586 0.9919412 -0.0553586 0.9919412 -0.0553586 0.0080588 0.0553586
2158000000 0.0081556 0.0559553 0.9918444 -0.0559553 0.9918444 -0.0559553 0.0081556 0.0559553
2179000000 0.0082543 0.0565499 0.9917457 -0.0565499 0.9917457 -0.0565499 0.0082543 0.0565499
2200000000 0.0083548 0.0571425 0.9916452 -0.0571425 0.9916452 -0.0571425 0.0083548 0.0571425
2221000000 0.0084571 0.0577331 0.9915429 -0.0577331 0.9915429 -0.0577331 0.0084571 0.0577331
2242000000 0.0085611 0.0583218 0.9914389 -0.0583218 0.9914389 -0.0583218 0.0085611 0.0583218
2263000000 0.0086666 0.0589087 0.9913334 -0.0589087 0.9913334 -0.0589087 0.0086666 0.0589087
2284000000 0.0087735 0.0594938 0.9912265 -0.0594938 0.9912265 -0.0594938 0.0087735 0.0594938
2305000000 0.0088818 0.0600772 0.9911182 -0.0600772 0.9911182 -0.0600772 0.0088818 0.0600772
2326000000 0.0089915 0.0606589 0.9910085 -0.0606589 0.9910085 -0.0606589 0.0089915 0.0606589
2347000000 0.0091023 0.0612391 0.9908977 -0.0612391 0.9908977 -0.0612391 0.0091023 0.0612391
2368000000 0.0092144 0.0618177 0.9907856 -0.0618177 0.9907856 -0.0618177 0.0092144 0.0618177
2389000000 0.0093276 0.0623949 0.9906724 -0.0623949 0.9906724 -0.0623949 0.0093276 0.0623949
2410000000 0.0094418 0.0629707 0.9905582 -0.0629707 0.9905582 -0.0629707 0.0094418 0.0629707
2431000000 0.0095571 0.0635450 0.9904429 -0.0635450 0.9904429 -0.0635450 0.0095571 0.0635450
2452000000 0.0096734 0.0641181 0.9903266 -0.0641181 0.9903266 -0.0641181 0.0096734 0.0641181
2473000000 0.0097907 0.0646898 0.9902093 -0.0646898 0.9902093 -0.0646898 0.0097907 0.0646898
2494000000 0.0099088 0.0652604 0.9900912 -0.0652604 0.9900912 -0.0652604 0.0099088 0.0652604
2515000000 0.0100278 0.0658297 0.9899722 -0.0658297 0.9899722 -0.0658297 0.0100278 0.0658297
2536000000 0.0101477 0.0663979 0.9898523 -0.0663979 0.9898523 -0.0663979 0.0101477 0.0663979
2557000000 0.0102684 0.0669650 0.9897316 -0.0669650 0.9897316 -0.0669650 0.0102684 0.0669650
2578000000 0.0103899 0.0675310 0.9896101 -0.0675310 0.9896101 -0.0675310 0.0103899 0.0675310
2599000000 0.0105121 0.0680960 0.9894879 -0.0680960 0.9894879 -0.0680960 0.0105121 0.0680960
2620000000 0.0106350 0.0686599 0.9893650 -0.0686599 0.9893650 -0.0686599 0.0106350 0.0686599
2641000000 0.0107587 0.0692230 0.9892413 -0.0692230 0.9892413 -0.0692230 0.0107587 0.0692230
2662000000 0.0108831 0.0697851 0.9891169 -0.0697851 0.9891169 -0.0697851 0.0108831 0.0697851
2683000000 0.0110081 0.0703462 0.9889919 -0.0703462 0.9889919 -0.0703462 0.0110081 0.0703462
2704000000 0.0111338 0.0709066 0.9888662 -0.0709066 0.9888662 -0.0709066 0.0111338 0.0709066
2725000000 0.0112602 0.0714661 0.9887398 -0.0714661 0.9887398 -0.0714661 0.0112602 0.0714661
2746000000 0.0113871 0.0720247 0.9886129 -0.0720247 0.9886129 -0.0720247 0.0113871 0.0720247
2767000000 0.0115147 0.0725827 0.9884853 -0.0725827 0.9884853 -0.0725827 0.0115147 0.0725827
2788000000 0.0116428 0.0731398 0.9883572 -0.0731398 0.9883572 -0.0731398 0.0116428 0.0731398
2809000000 0.0117716 0.0736963 0.9882284 -0.0736963 0.9882284 -0.0736963 0.0117716 0.0736963
2830000000 0.0119009 0.0742520 0.9880991 -0.0742520 0.9880991 -0.0742520 0.0119009 0.0742520
2851000000 0.0120307 0.0748071 0.9879693 -0.0748071 0.9879693 -0.0748071 0.0120307 0.0748071
2872000000 0.0121611 0.0753616 0.9878389 -0.0753616 0.9878389 -0.0753616 0.0121611 0.0753616
2893000000 0.0122920 0.0759154 0.9877080 -0.0759154 0.9877080 -0.0759154 0.0122920 0.0759154
2914000000 0.0124235 0.0764686 0.9875765 -0.0764686 0.9875765 -0.0764686 0.0124235 0.0764686
2935000000 0.0125555 0.0770213 0.9874445 -0.0770213 0.9874445 -0.0770213 0.0125555 0.0770213
2956000000 0.0126880 0.0775735 0.9873120 -0.0775735 0.9873120 -0.0775735 0.0126880 0.0775735
2977000000 0.0128209 0.0781251 0.9871791 -0.0781251 0.9871791 -0.0781251 0.0128209 0.0781251
2998000000 0.0129544 0.0786762 0.9870456 -0.0786762 0.9870456 -0.0786762 0.0129544 0.0786762
3019000000 0.0130884 0.0792269 0.9869116 -0.0792269 0.9869116 -0.0792269 0.0130884 0.0792269
3040000000 0.0132228 0.0797770 0.9867772 -0.0797770 0.9867772 -0.0797770 0.0132228 0.0797770
3061000000 0.0133577 0.0803268 0.9866423 -0.0803268 0.9866423 -0.0803268 0.0133577 0.0803268
3082000000 0.0134931 0.0808762 0.9865069 -0.0808762 0.9865069 -0.0808762 0.0134931 0.0808762
3103000000 0.0136290 0.0814251 0.9863710 -0.0814251 0.9863710 -0.0814251 0.0136290 0.0814251
3124000000 0.0137653 0.0819737 0.9862347 -0.0819737 0.9862347 -0.0819737 0.0137653 0.0819737
3145000000 0.0139021 0.0825219 0.9860979 -0.0825219 0.9860979 -0.0825219 0.0139021 0.0825219
3166000000 0.0140393 0.0830699 0.9859607 -0.0830699 0.9859607 -0.0830699 0.0140393 0.0830699
3187000000 0.0141770 0.0836174 0.9858230 -0.0836174 0.9858230 -0.0836174 0.0141770 0.0836174
3208000000 0.0143151 0.0841647 0.9856849 -0.0841647 0.9856849 -0.0841647 0.0143151 0.0841647
3229000000 0.0144537 0.0847118 0.9855463 -0.0847118 0.9855463 -0.0847118 0.0144537 0.0847118
3250000000 0.0145928 0.0852586 0.9854072 -0.0852586 0.9854072 -0.0852586 0.0145928 0.0852586
3271000000 0.0147322 0.0858051 0.9852678 -0.0858051 0.9852678 -0.0858051 0.0147322 0.0858051
3292000000 0.0148721 0.0863514 0.9851279 -0.0863514 0.9851279 -0.0863514 0.0148721 0.0863514
3313000000 0.0150125 0.0868975 0.9849875 -0.0868975 0.9849875 -0.0868975 0.0150125 0.0868975
3334000000 0.0151533 0.0874434 0.9848467 -0.0874434 0.9848467 -0.0874434 0.0151533 0.0874434
3355000000 0.0152945 0.0879892 0.9847055 -0.0879892 0.9847055 -0.0879892 0.0152945 0.0879892
3376000000 0.0154362 0.0885348 0.9845638 -0.0885348 0.9845638 -0.0885348 0.0154362 0.0885348
3397000000 0.0155783 0.0890803 0.9844217 -0.0890803 0.9844217 -0.0890803 0.0155783 0.0890803
3418000000 0.0157208 0.0896257 0.9842792 -0.0896257 0.9842792 -0.0896257 0.0157208 0.0896257
3439000000 0.0158638 0.0901709 0.9841362 -0.0901709 0.9841362 -0.0901709 0.0158638 0.0901709
3460000000 0.0160072 0.0907161 0.9839928 -0.0907161 0.9839928 -0.0907161 0.0160072 0.0907161
3481000000 0.0161510 0.0912612 0.9838490 -0.0912612 0.9838490 -0.0912612 0.0161510 0.0912612
3502000000 0.0162953 0.0918063 0.9837047 -0.0918063 0.9837047 -0.0918063 0.0162953 0.0918063
3523000000 0.0164400 0.0923513 0.9835600 -0.0923513 0.9835600 -0.0923513 0.0164400 0.0923513
3544000000 0.0165852 0.0928963 0.9834148 -0.0928963 0.9834148 -0.0928963 0.0165852 0.0928963
3565000000 0.0167308 0.0934413 0.9832692 -0.0934413 0.9832692 -0.0934413 0.0167308 0.0934413
3586000000 0.0168769 0.0939863 0.9831231 -0.0939863 0.9831231 -0.0939863 0.0168769 0.0939863
3607000000 0.0170234 0.0945314 0.9829766 -0.0945314 0.9829766 -0.0945314 0.0170234 0.0945314
3628000000 0.0171703 0.0950765 0.9828297 -0.0950765 0.9828297 -0.0950765 0.0171703 0.0950765
3649000000 0.0173177 0.0956216 0.9826823 -0.0956216 0.9826823 -0.0956216 0.0173177 0.0956216
3670000000 0.0174656 0.0961668 0.9825344 -0.0961668 0.9825344 -0.0961668 0.0174656 0.0961668
3691000000 0.0176139 0.0967121 0.9823861 -0.0967121 0.9823861 -0.0967121 0.0176139 0.0967121
3712000000 0.0177627 0.0972576 0.9822373 -0.0972576 0.9822373 -0.0972576 0.0177627 0.0972576
3733000000 0.0179119 0.0978031 0.9820881 -0.0978031 0.9820881 -0.0978031 0.0179119 0.0978031
3754000000 0.0180616 0.0983487 0.9819384 -0.0983487 0.9819384 -0.0983487 0.0180616 0.0983487
3775000000 0.0182117 0.0988946 0.9817883 -0.0988946 0.9817883 -0.0988946 0.0182117 0.0988946
3796000000 0.0183623 0.0994405 0.9816377 -0.0994405 0.9816377 -0.0994405 0.0183623 0.0994405
3817000000 0.0185134 0.0999867 0.9814866 -0.0999867 0.9814866 -0.0999867 0.0185134 0.0999867
3838000000 0.0186650 0.1005330 0.9813350 -0.1005330 0.9813350 -0.1005330 0.0186650 0.1005330
3859000000 0.0188171 0.1010796 0.9811829 -0.1010796 0.9811829 -0.1010796 0.0188171 0.1010796
3880000000 0.0189696 0.1016263 0.9810304 -0.1016263 0.9810304 -0.1016263 0.0189696 0.1016263
3901000000 0.0191226 0.1021733 0.9808774 -0.1021733 0.9808774 -0.1021733 0.0191226 0.1021733
3922000000 0.0192761 0.1027206 0.9807239 -0.1027206 0.9807239 -0.1027206 0.0192761 0.1027206
3943000000 0.0194301 0.1032681 0.9805699 -0.1032681 0.9805699 -0.1032681 0.0194301 0.1032681
3964000000 0.0195846 0.1038159 0.9804154 -0.1038159 0.9804154 -0.1038159 0.0195846 0.1038159
3985000000 0.0197396 0.1043640 0.9802604 -0.1043640 0.9802604 -0.1043640 0.0197396 0.1043640
4006000000 0.0198952 0.1049124 0.9801048 -0.1049124 0.9801048 -0.1049124 0.0198952 0.1049124
4027000000 0.0200512 0.1054611 0.9799488 -0.1054611 0.9799488 -0.1054611 0.0200512 0.1054611
4048000000 0.0202077 0.1060102 0.9797923 -0.1060102 0.9797923 -0.1060102 0.0202077 0.1060102
4069000000 0.0203648 0.1065596 0.9796352 -0.1065596 0.9796352 -0.1065596 0.0203648 0.1065596
4090000000 0.0205224 0.1071094 0.9794776 -0.1071094 0.9794776 -0.1071094 0.0205224 0.1071094
4111000000 0.0206805 0.1076595 0.9793195 -0.1076595 0.9793195 -0.1076595 0.0206805 0.1076595
4132000000 0.0208392 0.1082101 0.9791608 -0.1082101 0.9791608 -0.1082101 0.0208392 0.1082101
4153000000 0.0209984 0.1087610 0.9790016 -0.1087610 0.9790016 -0.1087610 0.0209984 0.1087610
4174000000 0.0211582 0.1093124 0.9788418 -0.1093124 0.9788418 -0.1093124 0.0211582 0.1093124
4195000000 0.0213185 0.1098642 0.9786815 -0.1098642 0.9786815 -0.1098642 0.0213185 0.1098642
4216000000 0.0214794 0.1104165 0.9785206 -0.1104165 0.9785206 -0.1104165 0.0214794 0.1104165
4237000000 0.0216408 0.1109692 0.9783592 -0.1109692 0.9783592 -0.1109692 0.0216408 0.1109692
4258000000 0.0218028 0.1115224 0.9781972 -0.1115224 0.9781972 -0.1115224 0.0218028 0.1115224
4279000000 0.0219654 0.1120761 0.9780346 -0.1120761 0.9780346 -0.1120761 0.0219654 0.1120761
4300000000 0.0221286 0.1126303 0.9778714 -0.1126303 0.9778714 -0.1126303 0.0221286 0.1126303
4321000000 0.0222924 0.1131851 0.9777076 -0.1131851 0.9777076 -0.1131851 0.0222924 0.1131851
4342000000 0.0224567 0.1137404 0.9775433 -0.1137404 0.9775433 -0.1137404 0.0224567 0.1137404
4363000000 0.0226217 0.1142962 0.9773783 -0.1142962 0.9773783 -0.1142962 0.0226217 0.1142962
4384000000 0.0227873 0.1148526 0.9772127 -0.1148526 0.9772127 -0.1148526 0.0227873 0.1148526
4405000000 0.0229535 0.1154096 0.9770465 -0.1154096 0.9770465 -0.1154096 0.0229535 0.1154096
4426000000 0.0231203 0.1159672 0.9768797 -0.1159672 0.9768797 -0.1159672 0.0231203 0.1159672
4447000000 0.0232878 0.1165254 0.9767122 -0.1165254 0.9767122 -0.1165254 0.0232878 0.1165254
4468000000 0.0234559 0.1170842 0.9765441 -0.1170842 0.9765441 -0.1170842 0.0234559 0.1170842
4489000000 0.0236246 0.1176437 0.9763754 -0.1176437 0.9763754 -0.1176437 0.0236246 0.1176437
4510000000 0.0237940 0.1182038 0.9762060 -0.1182038 0.9762060 -0.1182038 0.0237940 0.1182038
