!Murata Part Number: GRM21A5C2J471JWA1
!These Parameters are Measured in Series Mode Connection
!Data Generated on Mar 30, 2021
!       o--ll--o
!Port1            Port2
!       o------o
!Operation Temp=25[degC], DC Bias Voltage=0[V]
!Freq. Start=100[MHz] Stop=3[GHz] 401[Steps]
# Hz S RI R 50
!Freq.(Hz) S11(Real) S11(Imag) S21(Real) S21(Imag) S12(Real) S12(Imag) S22(Real) S22(Imag)
100000000 0.0013089 -0.0304645 0.9986911 0.0304645 0.9986911 0.0304645 0.0013089 -0.0304645
107250000 0.0011761 -0.0278876 0.9988239 0.0278876 0.9988239 0.0278876 0.0011761 -0.0278876
114500000 0.0010701 -0.0256038 0.9989299 0.0256038 0.9989299 0.0256038 0.0010701 -0.0256038
121750000 0.0009845 -0.0235607 0.9990155 0.0235607 0.9990155 0.0235607 0.0009845 -0.0235607
129000000 0.0009148 -0.0217177 0.9990852 0.0217177 0.9990852 0.0217177 0.0009148 -0.0217177
136250000 0.0008577 -0.0200427 0.9991423 0.0200427 0.9991423 0.0200427 0.0008577 -0.0200427
143500000 0.0008107 -0.0185103 0.9991893 0.0185103 0.9991893 0.0185103 0.0008107 -0.0185103
150750000 0.0007719 -0.0170999 0.9992281 0.0170999 0.9992281 0.0170999 0.0007719 -0.0170999
158000000 0.0007398 -0.0157946 0.9992602 0.0157946 0.9992602 0.0157946 0.0007398 -0.0157946
165250000 0.0007133 -0.0145806 0.9992867 0.0145806 0.9992867 0.0145806 0.0007133 -0.0145806
172500000 0.0006916 -0.0134463 0.9993084 0.0134463 0.9993084 0.0134463 0.0006916 -0.0134463
179750000 0.0006738 -0.0123819 0.9993262 0.0123819 0.9993262 0.0123819 0.0006738 -0.0123819
187000000 0.0006595 -0.0113794 0.9993405 0.0113794 0.9993405 0.0113794 0.0006595 -0.0113794
194250000 0.0006482 -0.0104318 0.9993518 0.0104318 0.9993518 0.0104318 0.0006482 -0.0104318
201500000 0.0006395 -0.0095330 0.9993605 0.0095330 0.9993605 0.0095330 0.0006395 -0.0095330
208750000 0.0006331 -0.0086781 0.9993669 0.0086781 0.9993669 0.0086781 0.0006331 -0.0086781
216000000 0.0006287 -0.0078624 0.9993713 0.0078624 0.9993713 0.0078624 0.0006287 -0.0078624
223250000 0.0006261 -0.0070822 0.9993739 0.0070822 0.9993739 0.0070822 0.0006261 -0.0070822
230500000 0.0006252 -0.0063340 0.9993748 0.0063340 0.9993748 0.0063340 0.0006252 -0.0063340
237750000 0.0006257 -0.0056150 0.9993743 0.0056150 0.9993743 0.0056150 0.0006257 -0.0056150
245000000 0.0006276 -0.0049224 0.9993724 0.0049224 0.9993724 0.0049224 0.0006276 -0.0049224
252250000 0.0006308 -0.0042540 0.9993692 0.0042540 0.9993692 0.0042540 0.0006308 -0.0042540
259500000 0.0006351 -0.0036077 0.9993649 0.0036077 0.9993649 0.0036077 0.0006351 -0.0036077
266750000 0.0006406 -0.0029816 0.9993594 0.0029816 0.9993594 0.0029816 0.0006406 -0.0029816
274000000 0.0006470 -0.0023741 0.9993530 0.0023741 0.9993530 0.0023741 0.0006470 -0.0023741
281250000 0.0006544 -0.0017838 0.9993456 0.0017838 0.9993456 0.0017838 0.0006544 -0.0017838
288500000 0.0006627 -0.0012092 0.9993373 0.0012092 0.9993373 0.0012092 0.0006627 -0.0012092
295750000 0.0006719 -0.0006493 0.9993281 0.0006493 0.9993281 0.0006493 0.0006719 -0.0006493
303000000 0.0006819 -0.0001028 0.9993181 0.0001028 0.9993181 0.0001028 0.0006819 -0.0001028
310250000 0.0006927 0.0004312 0.9993073 -0.0004312 0.9993073 -0.0004312 0.0006927 0.0004312
317500000 0.0007044 0.0009535 0.9992956 -0.0009535 0.9992956 -0.0009535 0.0007044 0.0009535
324750000 0.0007167 0.0014651 0.9992833 -0.0014651 0.9992833 -0.0014651 0.0007167 0.0014651
332000000 0.0007298 0.0019667 0.9992702 -0.0019667 0.9992702 -0.0019667 0.0007298 0.0019667
339250000 0.0007437 0.0024589 0.9992563 -0.0024589 0.9992563 -0.0024589 0.0007437 0.0024589
346500000 0.0007583 0.0029425 0.9992417 -0.0029425 0.9992417 -0.0029425 0.0007583 0.0029425
353750000 0.0007736 0.0034180 0.9992264 -0.0034180 0.9992264 -0.0034180 0.0007736 0.0034180
361000000 0.0007896 0.0038859 0.9992104 -0.0038859 0.9992104 -0.0038859 0.0007896 0.0038859
368250000 0.0008063 0.0043467 0.9991937 -0.0043467 0.9991937 -0.0043467 0.0008063 0.0043467
375500000 0.0008237 0.0048010 0.9991763 -0.0048010 0.9991763 -0.0048010 0.0008237 0.0048010
382750000 0.0008419 0.0052492 0.9991581 -0.0052492 0.9991581 -0.0052492 0.0008419 0.0052492
390000000 0.0008608 0.0056916 0.9991392 -0.0056916 0.9991392 -0.0056916 0.0008608 0.0056916
397250000 0.0008804 0.0061287 0.9991196 -0.0061287 0.9991196 -0.0061287 0.0008804 0.0061287
404500000 0.0009008 0.0065608 0.9990992 -0.0065608 0.9990992 -0.0065608 0.0009008 0.0065608
411750000 0.0009219 0.0069883 0.9990781 -0.0069883 0.9990781 -0.0069883 0.0009219 0.0069883
419000000 0.0009438 0.0074114 0.9990562 -0.0074114 0.9990562 -0.0074114 0.0009438 0.0074114
426250000 0.0009666 0.0078306 0.9990334 -0.0078306 0.9990334 -0.0078306 0.0009666 0.0078306
433500000 0.0009902 0.0082461 0.9990098 -0.0082461 0.9990098 -0.0082461 0.0009902 0.0082461
440750000 0.0010146 0.0086581 0.9989854 -0.0086581 0.9989854 -0.0086581 0.0010146 0.0086581
448000000 0.0010400 0.0090670 0.9989600 -0.0090670 0.9989600 -0.0090670 0.0010400 0.0090670
455250000 0.0010663 0.0094730 0.9989337 -0.0094730 0.9989337 -0.0094730 0.0010663 0.0094730
462500000 0.0010935 0.0098763 0.9989065 -0.0098763 0.9989065 -0.0098763 0.0010935 0.0098763
469750000 0.0011219 0.0102773 0.9988781 -0.0102773 0.9988781 -0.0102773 0.0011219 0.0102773
477000000 0.0011513 0.0106761 0.9988487 -0.0106761 0.9988487 -0.0106761 0.0011513 0.0106761
484250000 0.0011819 0.0110730 0.9988181 -0.0110730 0.9988181 -0.0110730 0.0011819 0.0110730
491500000 0.0012137 0.0114682 0.9987863 -0.0114682 0.9987863 -0.0114682 0.0012137 0.0114682
498750000 0.0012469 0.0118620 0.9987531 -0.0118620 0.9987531 -0.0118620 0.0012469 0.0118620
506000000 0.0012815 0.0122545 0.9987185 -0.0122545 0.9987185 -0.0122545 0.0012815 0.0122545
513250000 0.0013176 0.0126462 0.9986824 -0.0126462 0.9986824 -0.0126462 0.0013176 0.0126462
520500000 0.0013554 0.0130371 0.9986446 -0.0130371 0.9986446 -0.0130371 0.0013554 0.0130371
527750000 0.0013951 0.0134276 0.9986049 -0.0134276 0.9986049 -0.0134276 0.0013951 0.0134276
535000000 0.0014368 0.0138178 0.9985632 -0.0138178 0.9985632 -0.0138178 0.0014368 0.0138178
542250000 0.0014806 0.0142081 0.9985194 -0.0142081 0.9985194 -0.0142081 0.0014806 0.0142081
549500000 0.0015270 0.0145988 0.9984730 -0.0145988 0.9984730 -0.0145988 0.0015270 0.0145988
556750000 0.0015760 0.0149900 0.9984240 -0.0149900 0.9984240 -0.0149900 0.0015760 0.0149900
564000000 0.0016282 0.0153822 0.9983718 -0.0153822 0.9983718 -0.0153822 0.0016282 0.0153822
571250000 0.0016838 0.0157757 0.9983162 -0.0157757 0.9983162 -0.0157757 0.0016838 0.0157757
578500000 0.0017433 0.0161707 0.9982567 -0.0161707 0.9982567 -0.0161707 0.0017433 0.0161707
585750000 0.0018072 0.0165676 0.9981928 -0.0165676 0.9981928 -0.0165676 0.0018072 0.0165676
593000000 0.0018763 0.0169667 0.9981237 -0.0169667 0.9981237 -0.0169667 0.0018763 0.0169667
600250000 0.0019514 0.0173685 0.9980486 -0.0173685 0.9980486 -0.0173685 0.0019514 0.0173685
607500000 0.0020333 0.0177732 0.9979667 -0.0177732 0.9979667 -0.0177732 0.0020333 0.0177732
614750000 0.0021233 0.0181813 0.9978767 -0.0181813 0.9978767 -0.0181813 0.0021233 0.0181813
622000000 0.0022228 0.0185928 0.9977772 -0.0185928 0.9977772 -0.0185928 0.0022228 0.0185928
629250000 0.0023336 0.0190082 0.9976664 -0.0190082 0.9976664 -0.0190082 0.0023336 0.0190082
636500000 0.0024579 0.0194273 0.9975421 -0.0194273 0.9975421 -0.0194273 0.0024579 0.0194273
643750000 0.0025983 0.0198500 0.9974017 -0.0198500 0.9974017 -0.0198500 0.0025983 0.0198500
651000000 0.0027582 0.0202756 0.9972418 -0.0202756 0.9972418 -0.0202756 0.0027582 0.0202756
658250000 0.0029416 0.0207028 0.9970584 -0.0207028 0.9970584 -0.0207028 0.0029416 0.0207028
665500000 0.0031532 0.0211290 0.9968468 -0.0211290 0.9968468 -0.0211290 0.0031532 0.0211290
672750000 0.0033990 0.0215504 0.9966010 -0.0215504 0.9966010 -0.0215504 0.0033990 0.0215504
680000000 0.0036851 0.0219603 0.9963149 -0.0219603 0.9963149 -0.0219603 0.0036851 0.0219603
687250000 0.0040183 0.0223486 0.9959817 -0.0223486 0.9959817 -0.0223486 0.0040183 0.0223486
694500000 0.0044037 0.0227002 0.9955963 -0.0227002 0.9955963 -0.0227002 0.0044037 0.0227002
701750000 0.0048431 0.0229938 0.9951569 -0.0229938 0.9951569 -0.0229938 0.0048431 0.0229938
709000000 0.0053297 0.0232018 0.9946703 -0.0232018 0.9946703 -0.0232018 0.0053297 0.0232018
716250000 0.0058425 0.0232926 0.9941575 -0.0232926 0.9941575 -0.0232926 0.0058425 0.0232926
723500000 0.0063401 0.0232397 0.9936599 -0.0232397 0.9936599 -0.0232397 0.0063401 0.0232397
730750000 0.0067611 0.0230359 0.9932389 -0.0230359 0.9932389 -0.0230359 0.0067611 0.0230359
738000000 0.0070366 0.0227097 0.9929634 -0.0227097 0.9929634 -0.0227097 0.0070366 0.0227097
745250000 0.0071171 0.0223288 0.9928829 -0.0223288 0.9928829 -0.0223288 0.0071171 0.0223288
752500000 0.0069968 0.0219809 0.9930032 -0.0219809 0.9930032 -0.0219809 0.0069968 0.0219809
759750000 0.0067166 0.0217405 0.9932834 -0.0217405 0.9932834 -0.0217405 0.0067166 0.0217405
767000000 0.0063429 0.0216453 0.9936571 -0.0216453 0.9936571 -0.0216453 0.0063429 0.0216453
774250000 0.0059397 0.0216957 0.9940603 -0.0216957 0.9940603 -0.0216957 0.0059397 0.0216957
781500000 0.0055529 0.0218689 0.9944471 -0.0218689 0.9944471 -0.0218689 0.0055529 0.0218689
788750000 0.0052080 0.0221346 0.9947920 -0.0221346 0.9947920 -0.0221346 0.0052080 0.0221346
796000000 0.0049148 0.0224644 0.9950852 -0.0224644 0.9950852 -0.0224644 0.0049148 0.0224644
803250000 0.0046736 0.0228360 0.9953264 -0.0228360 0.9953264 -0.0228360 0.0046736 0.0228360
810500000 0.0044803 0.0232333 0.9955197 -0.0232333 0.9955197 -0.0232333 0.0044803 0.0232333
817750000 0.0043291 0.0236450 0.9956709 -0.0236450 0.9956709 -0.0236450 0.0043291 0.0236450
825000000 0.0042139 0.0240640 0.9957861 -0.0240640 0.9957861 -0.0240640 0.0042139 0.0240640
832250000 0.0041292 0.0244855 0.9958708 -0.0244855 0.9958708 -0.0244855 0.0041292 0.0244855
839500000 0.0040703 0.0249068 0.9959297 -0.0249068 0.9959297 -0.0249068 0.0040703 0.0249068
846750000 0.0040332 0.0253262 0.9959668 -0.0253262 0.9959668 -0.0253262 0.0040332 0.0253262
854000000 0.0040147 0.0257427 0.9959853 -0.0257427 0.9959853 -0.0257427 0.0040147 0.0257427
861250000 0.0040123 0.0261559 0.9959877 -0.0261559 0.9959877 -0.0261559 0.0040123 0.0261559
868500000 0.0040238 0.0265657 0.9959762 -0.0265657 0.9959762 -0.0265657 0.0040238 0.0265657
875750000 0.0040477 0.0269722 0.9959523 -0.0269722 0.9959523 -0.0269722 0.0040477 0.0269722
883000000 0.0040827 0.0273754 0.9959173 -0.0273754 0.9959173 -0.0273754 0.0040827 0.0273754
890250000 0.0041278 0.0277757 0.9958722 -0.0277757 0.9958722 -0.0277757 0.0041278 0.0277757
897500000 0.0041821 0.0281734 0.9958179 -0.0281734 0.9958179 -0.0281734 0.0041821 0.0281734
904750000 0.0042452 0.0285685 0.9957548 -0.0285685 0.9957548 -0.0285685 0.0042452 0.0285685
912000000 0.0043166 0.0289615 0.9956834 -0.0289615 0.9956834 -0.0289615 0.0043166 0.0289615
919250000 0.0043960 0.0293525 0.9956040 -0.0293525 0.9956040 -0.0293525 0.0043960 0.0293525
926500000 0.0044832 0.0297417 0.9955168 -0.0297417 0.9955168 -0.0297417 0.0044832 0.0297417
933750000 0.0045782 0.0301293 0.9954218 -0.0301293 0.9954218 -0.0301293 0.0045782 0.0301293
941000000 0.0046811 0.0305154 0.9953189 -0.0305154 0.9953189 -0.0305154 0.0046811 0.0305154
948250000 0.0047918 0.0309002 0.9952082 -0.0309002 0.9952082 -0.0309002 0.0047918 0.0309002
955500000 0.0049106 0.0312836 0.9950894 -0.0312836 0.9950894 -0.0312836 0.0049106 0.0312836
962750000 0.0050377 0.0316658 0.9949623 -0.0316658 0.9949623 -0.0316658 0.0050377 0.0316658
970000000 0.0051734 0.0320466 0.9948266 -0.0320466 0.9948266 -0.0320466 0.0051734 0.0320466
977250000 0.0053181 0.0324261 0.9946819 -0.0324261 0.9946819 -0.0324261 0.0053181 0.0324261
984500000 0.0054721 0.0328040 0.9945279 -0.0328040 0.9945279 -0.0328040 0.0054721 0.0328040
991750000 0.0056360 0.0331801 0.9943640 -0.0331801 0.9943640 -0.0331801 0.0056360 0.0331801
999000000 0.0058102 0.0335542 0.9941898 -0.0335542 0.9941898 -0.0335542 0.0058102 0.0335542
1006250000 0.0059954 0.0339259 0.9940046 -0.0339259 0.9940046 -0.0339259 0.0059954 0.0339259
1013500000 0.0061921 0.0342947 0.9938079 -0.0342947 0.9938079 -0.0342947 0.0061921 0.0342947
1020750000 0.0064010 0.0346600 0.9935990 -0.0346600 0.9935990 -0.0346600 0.0064010 0.0346600
1028000000 0.0066228 0.0350211 0.9933772 -0.0350211 0.9933772 -0.0350211 0.0066228 0.0350211
1035250000 0.0068581 0.0353772 0.9931419 -0.0353772 0.9931419 -0.0353772 0.0068581 0.0353772
1042500000 0.0071077 0.0357272 0.9928923 -0.0357272 0.9928923 -0.0357272 0.0071077 0.0357272
1049750000 0.0073723 0.0360700 0.9926277 -0.0360700 0.9926277 -0.0360700 0.0073723 0.0360700
1057000000 0.0076526 0.0364041 0.9923474 -0.0364041 0.9923474 -0.0364041 0.0076526 0.0364041
1064250000 0.0079491 0.0367279 0.9920509 -0.0367279 0.9920509 -0.0367279 0.0079491 0.0367279
1071500000 0.0082624 0.0370395 0.9917376 -0.0370395 0.9917376 -0.0370395 0.0082624 0.0370395
1078750000 0.0085929 0.0373368 0.9914071 -0.0373368 0.9914071 -0.0373368 0.0085929 0.0373368
1086000000 0.0089406 0.0376174 0.9910594 -0.0376174 0.9910594 -0.0376174 0.0089406 0.0376174
1093250000 0.0093056 0.0378784 0.9906944 -0.0378784 0.9906944 -0.0378784 0.0093056 0.0378784
1100500000 0.0096873 0.0381171 0.9903127 -0.0381171 0.9903127 -0.0381171 0.0096873 0.0381171
1107750000 0.0100848 0.0383300 0.9899152 -0.0383300 0.9899152 -0.0383300 0.0100848 0.0383300
1115000000 0.0104967 0.0385138 0.9895033 -0.0385138 0.9895033 -0.0385138 0.0104967 0.0385138
1122250000 0.0109209 0.0386648 0.9890791 -0.0386648 0.9890791 -0.0386648 0.0109209 0.0386648
1129500000 0.0113545 0.0387795 0.9886455 -0.0387795 0.9886455 -0.0387795 0.0113545 0.0387795
1136750000 0.0117938 0.0388542 0.9882062 -0.0388542 0.9882062 -0.0388542 0.0117938 0.0388542
1144000000 0.0122343 0.0388859 0.9877657 -0.0388859 0.9877657 -0.0388859 0.0122343 0.0388859
1151250000 0.0126704 0.0388719 0.9873296 -0.0388719 0.9873296 -0.0388719 0.0126704 0.0388719
1158500000 0.0130956 0.0388103 0.9869044 -0.0388103 0.9869044 -0.0388103 0.0130956 0.0388103
1165750000 0.0135028 0.0387003 0.9864972 -0.0387003 0.9864972 -0.0387003 0.0135028 0.0387003
1173000000 0.0138840 0.0385426 0.9861160 -0.0385426 0.9861160 -0.0385426 0.0138840 0.0385426
1180250000 0.0142313 0.0383394 0.9857687 -0.0383394 0.9857687 -0.0383394 0.0142313 0.0383394
1187500000 0.0145366 0.0380946 0.9854634 -0.0380946 0.9854634 -0.0380946 0.0145366 0.0380946
1194750000 0.0147927 0.0378138 0.9852073 -0.0378138 0.9852073 -0.0378138 0.0147927 0.0378138
1202000000 0.0149931 0.0375045 0.9850069 -0.0375045 0.9850069 -0.0375045 0.0149931 0.0375045
1209250000 0.0151331 0.0371755 0.9848669 -0.0371755 0.9848669 -0.0371755 0.0151331 0.0371755
1216500000 0.0152096 0.0368365 0.9847904 -0.0368365 0.9847904 -0.0368365 0.0152096 0.0368365
1223750000 0.0152220 0.0364977 0.9847780 -0.0364977 0.9847780 -0.0364977 0.0152220 0.0364977
1231000000 0.0151715 0.0361693 0.9848285 -0.0361693 0.9848285 -0.0361693 0.0151715 0.0361693
1238250000 0.0150616 0.0358608 0.9849384 -0.0358608 0.9849384 -0.0358608 0.0150616 0.0358608
1245500000 0.0148973 0.0355805 0.9851027 -0.0355805 0.9851027 -0.0355805 0.0148973 0.0355805
1252750000 0.0146851 0.0353355 0.9853149 -0.0353355 0.9853149 -0.0353355 0.0146851 0.0353355
1260000000 0.0144326 0.0351309 0.9855674 -0.0351309 0.9855674 -0.0351309 0.0144326 0.0351309
1267250000 0.0141475 0.0349701 0.9858525 -0.0349701 0.9858525 -0.0349701 0.0141475 0.0349701
1274500000 0.0138377 0.0348551 0.9861623 -0.0348551 0.9861623 -0.0348551 0.0138377 0.0348551
1281750000 0.0135107 0.0347860 0.9864893 -0.0347860 0.9864893 -0.0347860 0.0135107 0.0347860
1289000000 0.0131733 0.0347620 0.9868267 -0.0347620 0.9868267 -0.0347620 0.0131733 0.0347620
1296250000 0.0128316 0.0347810 0.9871684 -0.0347810 0.9871684 -0.0347810 0.0128316 0.0347810
1303500000 0.0124908 0.0348406 0.9875092 -0.0348406 0.9875092 -0.0348406 0.0124908 0.0348406
1310750000 0.0121553 0.0349374 0.9878447 -0.0349374 0.9878447 -0.0349374 0.0121553 0.0349374
1318000000 0.0118284 0.0350683 0.9881716 -0.0350683 0.9881716 -0.0350683 0.0118284 0.0350683
1325250000 0.0115127 0.0352296 0.9884873 -0.0352296 0.9884873 -0.0352296 0.0115127 0.0352296
1332500000 0.0112103 0.0354180 0.9887897 -0.0354180 0.9887897 -0.0354180 0.0112103 0.0354180
1339750000 0.0109225 0.0356302 0.9890775 -0.0356302 0.9890775 -0.0356302 0.0109225 0.0356302
1347000000 0.0106500 0.0358632 0.9893500 -0.0358632 0.9893500 -0.0358632 0.0106500 0.0358632
1354250000 0.0103934 0.0361140 0.9896066 -0.0361140 0.9896066 -0.0361140 0.0103934 0.0361140
1361500000 0.0101528 0.0363801 0.9898472 -0.0363801 0.9898472 -0.0363801 0.0101528 0.0363801
1368750000 0.0099279 0.0366592 0.9900721 -0.0366592 0.9900721 -0.0366592 0.0099279 0.0366592
1376000000 0.0097186 0.0369492 0.9902814 -0.0369492 0.9902814 -0.0369492 0.0097186 0.0369492
1383250000 0.0095242 0.0372484 0.9904758 -0.0372484 0.9904758 -0.0372484 0.0095242 0.0372484
1390500000 0.0093442 0.0375550 0.9906558 -0.0375550 0.9906558 -0.0375550 0.0093442 0.0375550
1397750000 0.0091780 0.0378678 0.9908220 -0.0378678 0.9908220 -0.0378678 0.0091780 0.0378678
1405000000 0.0090249 0.0381855 0.9909751 -0.0381855 0.9909751 -0.0381855 0.0090249 0.0381855
1412250000 0.0088843 0.0385071 0.9911157 -0.0385071 0.9911157 -0.0385071 0.0088843 0.0385071
1419500000 0.0087554 0.0388317 0.9912446 -0.0388317 0.9912446 -0.0388317 0.0087554 0.0388317
1426750000 0.0086376 0.0391585 0.9913624 -0.0391585 0.9913624 -0.0391585 0.0086376 0.0391585
1434000000 0.0085302 0.0394870 0.9914698 -0.0394870 0.9914698 -0.0394870 0.0085302 0.0394870
1441250000 0.0084326 0.0398165 0.9915674 -0.0398165 0.9915674 -0.0398165 0.0084326 0.0398165
1448500000 0.0083442 0.0401466 0.9916558 -0.0401466 0.9916558 -0.0401466 0.0083442 0.0401466
1455750000 0.0082644 0.0404768 0.9917356 -0.0404768 0.9917356 -0.0404768 0.0082644 0.0404768
1463000000 0.0081927 0.0408069 0.9918073 -0.0408069 0.9918073 -0.0408069 0.0081927 0.0408069
1470250000 0.0081286 0.0411367 0.9918714 -0.0411367 0.9918714 -0.0411367 0.0081286 0.0411367
1477500000 0.0080715 0.0414657 0.9919285 -0.0414657 0.9919285 -0.0414657 0.0080715 0.0414657
1484750000 0.0080212 0.0417940 0.9919788 -0.0417940 0.9919788 -0.0417940 0.0080212 0.0417940
1492000000 0.0079771 0.0421213 0.9920229 -0.0421213 0.9920229 -0.0421213 0.0079771 0.0421213
1499250000 0.0079388 0.0424474 0.9920612 -0.0424474 0.9920612 -0.0424474 0.0079388 0.0424474
1506500000 0.0079061 0.0427724 0.9920939 -0.0427724 0.9920939 -0.0427724 0.0079061 0.0427724
1513750000 0.0078785 0.0430961 0.9921215 -0.0430961 0.9921215 -0.0430961 0.0078785 0.0430961
1521000000 0.0078558 0.0434185 0.9921442 -0.0434185 0.9921442 -0.0434185 0.0078558 0.0434185
1528250000 0.0078377 0.0437394 0.9921623 -0.0437394 0.9921623 -0.0437394 0.0078377 0.0437394
1535500000 0.0078239 0.0440590 0.9921761 -0.0440590 0.9921761 -0.0440590 0.0078239 0.0440590
1542750000 0.0078142 0.0443771 0.9921858 -0.0443771 0.9921858 -0.0443771 0.0078142 0.0443771
1550000000 0.0078083 0.0446938 0.9921917 -0.0446938 0.9921917 -0.0446938 0.0078083 0.0446938
1557250000 0.0078060 0.0450090 0.9921940 -0.0450090 0.9921940 -0.0450090 0.0078060 0.0450090
1564500000 0.0078072 0.0453228 0.9921928 -0.0453228 0.9921928 -0.0453228 0.0078072 0.0453228
1571750000 0.0078116 0.0456351 0.9921884 -0.0456351 0.9921884 -0.0456351 0.0078116 0.0456351
1579000000 0.0078192 0.0459459 0.9921808 -0.0459459 0.9921808 -0.0459459 0.0078192 0.0459459
1586250000 0.0078296 0.0462554 0.9921704 -0.0462554 0.9921704 -0.0462554 0.0078296 0.0462554
1593500000 0.0078428 0.0465634 0.9921572 -0.0465634 0.9921572 -0.0465634 0.0078428 0.0465634
1600750000 0.0078587 0.0468700 0.9921413 -0.0468700 0.9921413 -0.0468700 0.0078587 0.0468700
1608000000 0.0078771 0.0471753 0.9921229 -0.0471753 0.9921229 -0.0471753 0.0078771 0.0471753
1615250000 0.0078979 0.0474792 0.9921021 -0.0474792 0.9921021 -0.0474792 0.0078979 0.0474792
1622500000 0.0079210 0.0477818 0.9920790 -0.0477818 0.9920790 -0.0477818 0.0079210 0.0477818
1629750000 0.0079463 0.0480831 0.9920537 -0.0480831 0.9920537 -0.0480831 0.0079463 0.0480831
