!Murata Part Number: GRM1552C1H7R0WA01
!These Parameters are Measured in Series Mode Connection
!Data Generated on Mar 30, 2021
!       o--ll--o
!Port1            Port2
!       o------o
!Operation Temp=25[degC], DC Bias Voltage=0[V]
!Freq. Start=100[MHz] Stop=9[GHz] 401[Steps]
# Hz S RI R 50
!Freq.(Hz) S11(Real) S11(Imag) S21(Real) S21(Imag) S12(Real) S12(Imag) S22(Real) S22(Imag)
100000000 0.8374441 -0.3685186 0.1625559 0.3685186 0.1625559 0.3685186 0.8374441 -0.3685186
121000000 0.7785828 -0.4146657 0.2214172 0.4146657 0.2214172 0.4146657 0.7785828 -0.4146657
142000000 0.7184048 -0.4491478 0.2815952 0.4491478 0.2815952 0.4491478 0.7184048 -0.4491478
163000000 0.6592153 -0.4732491 0.3407847 0.4732491 0.3407847 0.4732491 0.6592153 -0.4732491
184000000 0.6026183 -0.4885366 0.3973817 0.4885366 0.3973817 0.4885366 0.6026183 -0.4885366
205000000 0.5496043 -0.4966173 0.4503957 0.4966173 0.4503957 0.4966173 0.5496043 -0.4966173
226000000 0.5006829 -0.4989862 0.4993171 0.4989862 0.4993171 0.4989862 0.5006829 -0.4989862
247000000 0.4560168 -0.4969500 0.5439832 0.4969500 0.5439832 0.4969500 0.4560168 -0.4969500
268000000 0.4155368 -0.4916032 0.5844632 0.4916032 0.5844632 0.4916032 0.4155368 -0.4916032
289000000 0.3790315 -0.4838342 0.6209685 0.4838342 0.6209685 0.4838342 0.3790315 -0.4838342
310000000 0.3462118 -0.4743479 0.6537882 0.4743479 0.6537882 0.4743479 0.3462118 -0.4743479
331000000 0.3167548 -0.4636938 0.6832452 0.4636938 0.6832452 0.4636938 0.3167548 -0.4636938
352000000 0.2903320 -0.4522936 0.7096680 0.4522936 0.7096680 0.4522936 0.2903320 -0.4522936
373000000 0.2666265 -0.4404671 0.7333735 0.4404671 0.7333735 0.4404671 0.2666265 -0.4404671
394000000 0.2453424 -0.4284537 0.7546576 0.4284537 0.7546576 0.4284537 0.2453424 -0.4284537
415000000 0.2262096 -0.4164303 0.7737904 0.4164303 0.7737904 0.4164303 0.2262096 -0.4164303
436000000 0.2089845 -0.4045257 0.7910155 0.4045257 0.7910155 0.4045257 0.2089845 -0.4045257
457000000 0.1934502 -0.3928317 0.8065498 0.3928317 0.8065498 0.3928317 0.1934502 -0.3928317
478000000 0.1794145 -0.3814124 0.8205855 0.3814124 0.8205855 0.3814124 0.1794145 -0.3814124
499000000 0.1667078 -0.3703106 0.8332922 0.3703106 0.8332922 0.3703106 0.1667078 -0.3703106
520000000 0.1551810 -0.3595533 0.8448190 0.3595533 0.8448190 0.3595533 0.1551810 -0.3595533
541000000 0.1447032 -0.3491555 0.8552968 0.3491555 0.8552968 0.3491555 0.1447032 -0.3491555
562000000 0.1351593 -0.3391236 0.8648407 0.3391236 0.8648407 0.3391236 0.1351593 -0.3391236
583000000 0.1264487 -0.3294576 0.8735513 0.3294576 0.8735513 0.3294576 0.1264487 -0.3294576
604000000 0.1184826 -0.3201528 0.8815174 0.3201528 0.8815174 0.3201528 0.1184826 -0.3201528
625000000 0.1111831 -0.3112012 0.8888169 0.3112012 0.8888169 0.3112012 0.1111831 -0.3112012
646000000 0.1044818 -0.3025926 0.8955182 0.3025926 0.8955182 0.3025926 0.1044818 -0.3025926
667000000 0.0983182 -0.2943154 0.9016818 0.2943154 0.9016818 0.2943154 0.0983182 -0.2943154
688000000 0.0926388 -0.2863568 0.9073612 0.2863568 0.9073612 0.2863568 0.0926388 -0.2863568
709000000 0.0873966 -0.2787038 0.9126034 0.2787038 0.9126034 0.2787038 0.0873966 -0.2787038
730000000 0.0825496 -0.2713432 0.9174504 0.2713432 0.9174504 0.2713432 0.0825496 -0.2713432
751000000 0.0780609 -0.2642616 0.9219391 0.2642616 0.9219391 0.2642616 0.0780609 -0.2642616
772000000 0.0738972 -0.2574461 0.9261028 0.2574461 0.9261028 0.2574461 0.0738972 -0.2574461
793000000 0.0700293 -0.2508841 0.9299707 0.2508841 0.9299707 0.2508841 0.0700293 -0.2508841
814000000 0.0664308 -0.2445633 0.9335692 0.2445633 0.9335692 0.2445633 0.0664308 -0.2445633
835000000 0.0630783 -0.2384720 0.9369217 0.2384720 0.9369217 0.2384720 0.0630783 -0.2384720
856000000 0.0599506 -0.2325988 0.9400494 0.2325988 0.9400494 0.2325988 0.0599506 -0.2325988
877000000 0.0570289 -0.2269332 0.9429711 0.2269332 0.9429711 0.2269332 0.0570289 -0.2269332
898000000 0.0542961 -0.2214648 0.9457039 0.2214648 0.9457039 0.2214648 0.0542961 -0.2214648
919000000 0.0517370 -0.2161840 0.9482630 0.2161840 0.9482630 0.2161840 0.0517370 -0.2161840
940000000 0.0493376 -0.2110816 0.9506624 0.2110816 0.9506624 0.2110816 0.0493376 -0.2110816
961000000 0.0470855 -0.2061489 0.9529145 0.2061489 0.9529145 0.2061489 0.0470855 -0.2061489
982000000 0.0449693 -0.2013776 0.9550307 0.2013776 0.9550307 0.2013776 0.0449693 -0.2013776
1003000000 0.0429788 -0.1967599 0.9570212 0.1967599 0.9570212 0.1967599 0.0429788 -0.1967599
1024000000 0.0411046 -0.1922886 0.9588954 0.1922886 0.9588954 0.1922886 0.0411046 -0.1922886
1045000000 0.0393381 -0.1879566 0.9606619 0.1879566 0.9606619 0.1879566 0.0393381 -0.1879566
1066000000 0.0376717 -0.1837575 0.9623283 0.1837575 0.9623283 0.1837575 0.0376717 -0.1837575
1087000000 0.0360982 -0.1796849 0.9639018 0.1796849 0.9639018 0.1796849 0.0360982 -0.1796849
1108000000 0.0346112 -0.1757331 0.9653888 0.1757331 0.9653888 0.1757331 0.0346112 -0.1757331
1129000000 0.0332048 -0.1718965 0.9667952 0.1718965 0.9667952 0.1718965 0.0332048 -0.1718965
1150000000 0.0318735 -0.1681699 0.9681265 0.1681699 0.9681265 0.1681699 0.0318735 -0.1681699
1171000000 0.0306123 -0.1645483 0.9693877 0.1645483 0.9693877 0.1645483 0.0306123 -0.1645483
1192000000 0.0294167 -0.1610272 0.9705833 0.1610272 0.9705833 0.1610272 0.0294167 -0.1610272
1213000000 0.0282824 -0.1576020 0.9717176 0.1576020 0.9717176 0.1576020 0.0282824 -0.1576020
1234000000 0.0272055 -0.1542687 0.9727945 0.1542687 0.9727945 0.1542687 0.0272055 -0.1542687
1255000000 0.0261824 -0.1510232 0.9738176 0.1510232 0.9738176 0.1510232 0.0261824 -0.1510232
1276000000 0.0252099 -0.1478619 0.9747901 0.1478619 0.9747901 0.1478619 0.0252099 -0.1478619
1297000000 0.0242849 -0.1447811 0.9757151 0.1447811 0.9757151 0.1447811 0.0242849 -0.1447811
1318000000 0.0234044 -0.1417776 0.9765956 0.1417776 0.9765956 0.1417776 0.0234044 -0.1417776
1339000000 0.0225660 -0.1388481 0.9774340 0.1388481 0.9774340 0.1388481 0.0225660 -0.1388481
1360000000 0.0217671 -0.1359897 0.9782329 0.1359897 0.9782329 0.1359897 0.0217671 -0.1359897
1381000000 0.0210055 -0.1331994 0.9789945 0.1331994 0.9789945 0.1331994 0.0210055 -0.1331994
1402000000 0.0202791 -0.1304745 0.9797209 0.1304745 0.9797209 0.1304745 0.0202791 -0.1304745
1423000000 0.0195858 -0.1278126 0.9804142 0.1278126 0.9804142 0.1278126 0.0195858 -0.1278126
1444000000 0.0189240 -0.1252110 0.9810760 0.1252110 0.9810760 0.1252110 0.0189240 -0.1252110
1465000000 0.0182918 -0.1226676 0.9817082 0.1226676 0.9817082 0.1226676 0.0182918 -0.1226676
1486000000 0.0176877 -0.1201800 0.9823123 0.1201800 0.9823123 0.1201800 0.0176877 -0.1201800
1507000000 0.0171102 -0.1177462 0.9828898 0.1177462 0.9828898 0.1177462 0.0171102 -0.1177462
1528000000 0.0165579 -0.1153641 0.9834421 0.1153641 0.9834421 0.1153641 0.0165579 -0.1153641
1549000000 0.0160295 -0.1130318 0.9839705 0.1130318 0.9839705 0.1130318 0.0160295 -0.1130318
1570000000 0.0155238 -0.1107476 0.9844762 0.1107476 0.9844762 0.1107476 0.0155238 -0.1107476
1591000000 0.0150397 -0.1085096 0.9849603 0.1085096 0.9849603 0.1085096 0.0150397 -0.1085096
1612000000 0.0145760 -0.1063162 0.9854240 0.1063162 0.9854240 0.1063162 0.0145760 -0.1063162
1633000000 0.0141318 -0.1041658 0.9858682 0.1041658 0.9858682 0.1041658 0.0141318 -0.1041658
1654000000 0.0137061 -0.1020570 0.9862939 0.1020570 0.9862939 0.1020570 0.0137061 -0.1020570
1675000000 0.0132981 -0.0999882 0.9867019 0.0999882 0.9867019 0.0999882 0.0132981 -0.0999882
1696000000 0.0129068 -0.0979580 0.9870932 0.0979580 0.9870932 0.0979580 0.0129068 -0.0979580
1717000000 0.0125316 -0.0959653 0.9874684 0.0959653 0.9874684 0.0959653 0.0125316 -0.0959653
1738000000 0.0121717 -0.0940086 0.9878283 0.0940086 0.9878283 0.0940086 0.0121717 -0.0940086
1759000000 0.0118263 -0.0920868 0.9881737 0.0920868 0.9881737 0.0920868 0.0118263 -0.0920868
1780000000 0.0114949 -0.0901988 0.9885051 0.0901988 0.9885051 0.0901988 0.0114949 -0.0901988
1801000000 0.0111768 -0.0883434 0.9888232 0.0883434 0.9888232 0.0883434 0.0111768 -0.0883434
1822000000 0.0108714 -0.0865195 0.9891286 0.0865195 0.9891286 0.0865195 0.0108714 -0.0865195
1843000000 0.0105781 -0.0847262 0.9894219 0.0847262 0.9894219 0.0847262 0.0105781 -0.0847262
1864000000 0.0102965 -0.0829624 0.9897035 0.0829624 0.9897035 0.0829624 0.0102965 -0.0829624
1885000000 0.0100260 -0.0812273 0.9899740 0.0812273 0.9899740 0.0812273 0.0100260 -0.0812273
1906000000 0.0097662 -0.0795199 0.9902338 0.0795199 0.9902338 0.0795199 0.0097662 -0.0795199
1927000000 0.0095167 -0.0778393 0.9904833 0.0778393 0.9904833 0.0778393 0.0095167 -0.0778393
1948000000 0.0092769 -0.0761848 0.9907231 0.0761848 0.9907231 0.0761848 0.0092769 -0.0761848
1969000000 0.0090465 -0.0745555 0.9909535 0.0745555 0.9909535 0.0745555 0.0090465 -0.0745555
1990000000 0.0088252 -0.0729507 0.9911748 0.0729507 0.9911748 0.0729507 0.0088252 -0.0729507
2011000000 0.0086125 -0.0713697 0.9913875 0.0713697 0.9913875 0.0713697 0.0086125 -0.0713697
2032000000 0.0084082 -0.0698116 0.9915918 0.0698116 0.9915918 0.0698116 0.0084082 -0.0698116
2053000000 0.0082118 -0.0682759 0.9917882 0.0682759 0.9917882 0.0682759 0.0082118 -0.0682759
2074000000 0.0080232 -0.0667619 0.9919768 0.0667619 0.9919768 0.0667619 0.0080232 -0.0667619
2095000000 0.0078419 -0.0652689 0.9921581 0.0652689 0.9921581 0.0652689 0.0078419 -0.0652689
2116000000 0.0076678 -0.0637964 0.9923322 0.0637964 0.9923322 0.0637964 0.0076678 -0.0637964
2137000000 0.0075005 -0.0623438 0.9924995 0.0623438 0.9924995 0.0623438 0.0075005 -0.0623438
2158000000 0.0073399 -0.0609104 0.9926601 0.0609104 0.9926601 0.0609104 0.0073399 -0.0609104
2179000000 0.0071856 -0.0594958 0.9928144 0.0594958 0.9928144 0.0594958 0.0071856 -0.0594958
2200000000 0.0070374 -0.0580994 0.9929626 0.0580994 0.9929626 0.0580994 0.0070374 -0.0580994
2221000000 0.0068951 -0.0567208 0.9931049 0.0567208 0.9931049 0.0567208 0.0068951 -0.0567208
2242000000 0.0067586 -0.0553593 0.9932414 0.0553593 0.9932414 0.0553593 0.0067586 -0.0553593
2263000000 0.0066276 -0.0540147 0.9933724 0.0540147 0.9933724 0.0540147 0.0066276 -0.0540147
2284000000 0.0065018 -0.0526863 0.9934982 0.0526863 0.9934982 0.0526863 0.0065018 -0.0526863
2305000000 0.0063813 -0.0513737 0.9936187 0.0513737 0.9936187 0.0513737 0.0063813 -0.0513737
2326000000 0.0062656 -0.0500766 0.9937344 0.0500766 0.9937344 0.0500766 0.0062656 -0.0500766
2347000000 0.0061548 -0.0487945 0.9938452 0.0487945 0.9938452 0.0487945 0.0061548 -0.0487945
2368000000 0.0060487 -0.0475271 0.9939513 0.0475271 0.9939513 0.0475271 0.0060487 -0.0475271
2389000000 0.0059470 -0.0462738 0.9940530 0.0462738 0.9940530 0.0462738 0.0059470 -0.0462738
2410000000 0.0058496 -0.0450344 0.9941504 0.0450344 0.9941504 0.0450344 0.0058496 -0.0450344
2431000000 0.0057565 -0.0438085 0.9942435 0.0438085 0.9942435 0.0438085 0.0057565 -0.0438085
2452000000 0.0056675 -0.0425958 0.9943325 0.0425958 0.9943325 0.0425958 0.0056675 -0.0425958
2473000000 0.0055824 -0.0413959 0.9944176 0.0413959 0.9944176 0.0413959 0.0055824 -0.0413959
2494000000 0.0055011 -0.0402084 0.9944989 0.0402084 0.9944989 0.0402084 0.0055011 -0.0402084
2515000000 0.0054236 -0.0390332 0.9945764 0.0390332 0.9945764 0.0390332 0.0054236 -0.0390332
2536000000 0.0053496 -0.0378697 0.9946504 0.0378697 0.9946504 0.0378697 0.0053496 -0.0378697
2557000000 0.0052792 -0.0367179 0.9947208 0.0367179 0.9947208 0.0367179 0.0052792 -0.0367179
2578000000 0.0052121 -0.0355773 0.9947879 0.0355773 0.9947879 0.0355773 0.0052121 -0.0355773
2599000000 0.0051484 -0.0344477 0.9948516 0.0344477 0.9948516 0.0344477 0.0051484 -0.0344477
2620000000 0.0050878 -0.0333288 0.9949122 0.0333288 0.9949122 0.0333288 0.0050878 -0.0333288
2641000000 0.0050304 -0.0322203 0.9949696 0.0322203 0.9949696 0.0322203 0.0050304 -0.0322203
2662000000 0.0049760 -0.0311221 0.9950240 0.0311221 0.9950240 0.0311221 0.0049760 -0.0311221
2683000000 0.0049245 -0.0300338 0.9950755 0.0300338 0.9950755 0.0300338 0.0049245 -0.0300338
2704000000 0.0048760 -0.0289552 0.9951240 0.0289552 0.9951240 0.0289552 0.0048760 -0.0289552
2725000000 0.0048302 -0.0278861 0.9951698 0.0278861 0.9951698 0.0278861 0.0048302 -0.0278861
2746000000 0.0047871 -0.0268262 0.9952129 0.0268262 0.9952129 0.0268262 0.0047871 -0.0268262
2767000000 0.0047467 -0.0257753 0.9952533 0.0257753 0.9952533 0.0257753 0.0047467 -0.0257753
2788000000 0.0047089 -0.0247333 0.9952911 0.0247333 0.9952911 0.0247333 0.0047089 -0.0247333
2809000000 0.0046735 -0.0236998 0.9953265 0.0236998 0.9953265 0.0236998 0.0046735 -0.0236998
2830000000 0.0046407 -0.0226748 0.9953593 0.0226748 0.9953593 0.0226748 0.0046407 -0.0226748
2851000000 0.0046102 -0.0216579 0.9953898 0.0216579 0.9953898 0.0216579 0.0046102 -0.0216579
2872000000 0.0045821 -0.0206490 0.9954179 0.0206490 0.9954179 0.0206490 0.0045821 -0.0206490
2893000000 0.0045563 -0.0196479 0.9954437 0.0196479 0.9954437 0.0196479 0.0045563 -0.0196479
2914000000 0.0045327 -0.0186545 0.9954673 0.0186545 0.9954673 0.0186545 0.0045327 -0.0186545
2935000000 0.0045113 -0.0176685 0.9954887 0.0176685 0.9954887 0.0176685 0.0045113 -0.0176685
2956000000 0.0044920 -0.0166898 0.9955080 0.0166898 0.9955080 0.0166898 0.0044920 -0.0166898
2977000000 0.0044748 -0.0157182 0.9955252 0.0157182 0.9955252 0.0157182 0.0044748 -0.0157182
2998000000 0.0044596 -0.0147536 0.9955404 0.0147536 0.9955404 0.0147536 0.0044596 -0.0147536
3019000000 0.0044465 -0.0137957 0.9955535 0.0137957 0.9955535 0.0137957 0.0044465 -0.0137957
3040000000 0.0044353 -0.0128445 0.9955647 0.0128445 0.9955647 0.0128445 0.0044353 -0.0128445
3061000000 0.0044260 -0.0118997 0.9955740 0.0118997 0.9955740 0.0118997 0.0044260 -0.0118997
3082000000 0.0044186 -0.0109613 0.9955814 0.0109613 0.9955814 0.0109613 0.0044186 -0.0109613
3103000000 0.0044131 -0.0100290 0.9955869 0.0100290 0.9955869 0.0100290 0.0044131 -0.0100290
3124000000 0.0044093 -0.0091028 0.9955907 0.0091028 0.9955907 0.0091028 0.0044093 -0.0091028
3145000000 0.0044074 -0.0081825 0.9955926 0.0081825 0.9955926 0.0081825 0.0044074 -0.0081825
3166000000 0.0044072 -0.0072680 0.9955928 0.0072680 0.9955928 0.0072680 0.0044072 -0.0072680
3187000000 0.0044087 -0.0063591 0.9955913 0.0063591 0.9955913 0.0063591 0.0044087 -0.0063591
3208000000 0.0044118 -0.0054557 0.9955882 0.0054557 0.9955882 0.0054557 0.0044118 -0.0054557
3229000000 0.0044167 -0.0045577 0.9955833 0.0045577 0.9955833 0.0045577 0.0044167 -0.0045577
3250000000 0.0044231 -0.0036649 0.9955769 0.0036649 0.9955769 0.0036649 0.0044231 -0.0036649
3271000000 0.0044312 -0.0027773 0.9955688 0.0027773 0.9955688 0.0027773 0.0044312 -0.0027773
3292000000 0.0044408 -0.0018947 0.9955592 0.0018947 0.9955592 0.0018947 0.0044408 -0.0018947
3313000000 0.0044520 -0.0010170 0.9955480 0.0010170 0.9955480 0.0010170 0.0044520 -0.0010170
3334000000 0.0044647 -0.0001441 0.9955353 0.0001441 0.9955353 0.0001441 0.0044647 -0.0001441
3355000000 0.0044789 0.0007241 0.9955211 -0.0007241 0.9955211 -0.0007241 0.0044789 0.0007241
3376000000 0.0044945 0.0015877 0.9955055 -0.0015877 0.9955055 -0.0015877 0.0044945 0.0015877
3397000000 0.0045117 0.0024469 0.9954883 -0.0024469 0.9954883 -0.0024469 0.0045117 0.0024469
3418000000 0.0045303 0.0033016 0.9954697 -0.0033016 0.9954697 -0.0033016 0.0045303 0.0033016
3439000000 0.0045503 0.0041522 0.9954497 -0.0041522 0.9954497 -0.0041522 0.0045503 0.0041522
3460000000 0.0045717 0.0049985 0.9954283 -0.0049985 0.9954283 -0.0049985 0.0045717 0.0049985
3481000000 0.0045945 0.0058408 0.9954055 -0.0058408 0.9954055 -0.0058408 0.0045945 0.0058408
3502000000 0.0046187 0.0066790 0.9953813 -0.0066790 0.9953813 -0.0066790 0.0046187 0.0066790
3523000000 0.0046443 0.0075135 0.9953557 -0.0075135 0.9953557 -0.0075135 0.0046443 0.0075135
3544000000 0.0046711 0.0083441 0.9953289 -0.0083441 0.9953289 -0.0083441 0.0046711 0.0083441
3565000000 0.0046994 0.0091710 0.9953006 -0.0091710 0.9953006 -0.0091710 0.0046994 0.0091710
3586000000 0.0047289 0.0099942 0.9952711 -0.0099942 0.9952711 -0.0099942 0.0047289 0.0099942
3607000000 0.0047597 0.0108140 0.9952403 -0.0108140 0.9952403 -0.0108140 0.0047597 0.0108140
3628000000 0.0047918 0.0116303 0.9952082 -0.0116303 0.9952082 -0.0116303 0.0047918 0.0116303
3649000000 0.0048252 0.0124432 0.9951748 -0.0124432 0.9951748 -0.0124432 0.0048252 0.0124432
3670000000 0.0048599 0.0132528 0.9951401 -0.0132528 0.9951401 -0.0132528 0.0048599 0.0132528
3691000000 0.0048958 0.0140593 0.9951042 -0.0140593 0.9951042 -0.0140593 0.0048958 0.0140593
3712000000 0.0049330 0.0148626 0.9950670 -0.0148626 0.9950670 -0.0148626 0.0049330 0.0148626
3733000000 0.0049715 0.0156628 0.9950285 -0.0156628 0.9950285 -0.0156628 0.0049715 0.0156628
3754000000 0.0050111 0.0164601 0.9949889 -0.0164601 0.9949889 -0.0164601 0.0050111 0.0164601
3775000000 0.0050520 0.0172545 0.9949480 -0.0172545 0.9949480 -0.0172545 0.0050520 0.0172545
3796000000 0.0050941 0.0180461 0.9949059 -0.0180461 0.9949059 -0.0180461 0.0050941 0.0180461
3817000000 0.0051374 0.0188349 0.9948626 -0.0188349 0.9948626 -0.0188349 0.0051374 0.0188349
3838000000 0.0051820 0.0196210 0.9948180 -0.0196210 0.9948180 -0.0196210 0.0051820 0.0196210
3859000000 0.0052277 0.0204045 0.9947723 -0.0204045 0.9947723 -0.0204045 0.0052277 0.0204045
3880000000 0.0052746 0.0211854 0.9947254 -0.0211854 0.9947254 -0.0211854 0.0052746 0.0211854
3901000000 0.0053227 0.0219639 0.9946773 -0.0219639 0.9946773 -0.0219639 0.0053227 0.0219639
3922000000 0.0053721 0.0227399 0.9946279 -0.0227399 0.9946279 -0.0227399 0.0053721 0.0227399
3943000000 0.0054226 0.0235137 0.9945774 -0.0235137 0.9945774 -0.0235137 0.0054226 0.0235137
3964000000 0.0054742 0.0242851 0.9945258 -0.0242851 0.9945258 -0.0242851 0.0054742 0.0242851
3985000000 0.0055271 0.0250543 0.9944729 -0.0250543 0.9944729 -0.0250543 0.0055271 0.0250543
4006000000 0.0055812 0.0258214 0.9944188 -0.0258214 0.9944188 -0.0258214 0.0055812 0.0258214
4027000000 0.0056364 0.0265863 0.9943636 -0.0265863 0.9943636 -0.0265863 0.0056364 0.0265863
4048000000 0.0056928 0.0273493 0.9943072 -0.0273493 0.9943072 -0.0273493 0.0056928 0.0273493
4069000000 0.0057504 0.0281102 0.9942496 -0.0281102 0.9942496 -0.0281102 0.0057504 0.0281102
4090000000 0.0058092 0.0288693 0.9941908 -0.0288693 0.9941908 -0.0288693 0.0058092 0.0288693
4111000000 0.0058691 0.0296265 0.9941309 -0.0296265 0.9941309 -0.0296265 0.0058691 0.0296265
4132000000 0.0059303 0.0303819 0.9940697 -0.0303819 0.9940697 -0.0303819 0.0059303 0.0303819
4153000000 0.0059926 0.0311355 0.9940074 -0.0311355 0.9940074 -0.0311355 0.0059926 0.0311355
4174000000 0.0060561 0.0318875 0.9939439 -0.0318875 0.9939439 -0.0318875 0.0060561 0.0318875
4195000000 0.0061208 0.0326379 0.9938792 -0.0326379 0.9938792 -0.0326379 0.0061208 0.0326379
4216000000 0.0061867 0.0333866 0.9938133 -0.0333866 0.9938133 -0.0333866 0.0061867 0.0333866
4237000000 0.0062538 0.0341339 0.9937462 -0.0341339 0.9937462 -0.0341339 0.0062538 0.0341339
4258000000 0.0063221 0.0348797 0.9936779 -0.0348797 0.9936779 -0.0348797 0.0063221 0.0348797
4279000000 0.0063917 0.0356241 0.9936083 -0.0356241 0.9936083 -0.0356241 0.0063917 0.0356241
4300000000 0.0064624 0.0363672 0.9935376 -0.0363672 0.9935376 -0.0363672 0.0064624 0.0363672
4321000000 0.0065344 0.0371089 0.9934656 -0.0371089 0.9934656 -0.0371089 0.0065344 0.0371089
4342000000 0.0066076 0.0378495 0.9933924 -0.0378495 0.9933924 -0.0378495 0.0066076 0.0378495
4363000000 0.0066820 0.0385888 0.9933180 -0.0385888 0.9933180 -0.0385888 0.0066820 0.0385888
4384000000 0.0067577 0.0393269 0.9932423 -0.0393269 0.9932423 -0.0393269 0.0067577 0.0393269
4405000000 0.0068347 0.0400640 0.9931653 -0.0400640 0.9931653 -0.0400640 0.0068347 0.0400640
4426000000 0.0069129 0.0408001 0.9930871 -0.0408001 0.9930871 -0.0408001 0.0069129 0.0408001
4447000000 0.0069924 0.0415351 0.9930076 -0.0415351 0.9930076 -0.0415351 0.0069924 0.0415351
4468000000 0.0070732 0.0422692 0.9929268 -0.0422692 0.9929268 -0.0422692 0.0070732 0.0422692
4489000000 0.0071553 0.0430024 0.9928447 -0.0430024 0.9928447 -0.0430024 0.0071553 0.0430024
4510000000 0.0072387 0.0437348 0.9927613 -0.0437348 0.9927613 -0.0437348 0.0072387 0.0437348
