!Murata Part Number: GRM1552C1H8R0DA01
!These Parameters are Measured in Series Mode Connection
!Data Generated on Mar 30, 2021
!       o--ll--o
!Port1            Port2
!       o------o
!Operation Temp=25[degC], DC Bias Voltage=0[V]
!Freq. Start=100[MHz] Stop=9[GHz] 401[Steps]
# Hz S RI R 50
!Freq.(Hz) S11(Real) S11(Imag) S21(Real) S21(Imag) S12(Real) S12(Imag) S22(Real) S22(Imag)
100000000 0.7977290 -0.4011989 0.2022710 0.4011989 0.2022710 0.4011989 0.7977290 -0.4011989
121000000 0.7291245 -0.4438128 0.2708755 0.4438128 0.2708755 0.4438128 0.7291245 -0.4438128
142000000 0.6613326 -0.4725519 0.3386674 0.4725519 0.3386674 0.4725519 0.6613326 -0.4725519
163000000 0.5968557 -0.4897184 0.4031443 0.4897184 0.4031443 0.4897184 0.5968557 -0.4897184
184000000 0.5371465 -0.4977002 0.4628535 0.4977002 0.4628535 0.4977002 0.5371465 -0.4977002
205000000 0.4828630 -0.4986802 0.5171370 0.4986802 0.5171370 0.4986802 0.4828630 -0.4986802
226000000 0.4341232 -0.4945062 0.5658768 0.4945062 0.5658768 0.4945062 0.4341232 -0.4945062
247000000 0.3907136 -0.4866651 0.6092864 0.4866651 0.6092864 0.4866651 0.3907136 -0.4866651
268000000 0.3522406 -0.4763118 0.6477594 0.4763118 0.6477594 0.4763118 0.3522406 -0.4763118
289000000 0.3182312 -0.4643203 0.6817688 0.4643203 0.6817688 0.4643203 0.3182312 -0.4643203
310000000 0.2881954 -0.4513387 0.7118046 0.4513387 0.7118046 0.4513387 0.2881954 -0.4513387
331000000 0.2616616 -0.4378397 0.7383384 0.4378397 0.7383384 0.4378397 0.2616616 -0.4378397
352000000 0.2381952 -0.4241620 0.7618048 0.4241620 0.7618048 0.4241620 0.2381952 -0.4241620
373000000 0.2174058 -0.4105445 0.7825942 0.4105445 0.7825942 0.4105445 0.2174058 -0.4105445
394000000 0.1989490 -0.3971520 0.8010510 0.3971520 0.8010510 0.3971520 0.1989490 -0.3971520
415000000 0.1825238 -0.3840949 0.8174762 0.3840949 0.8174762 0.3840949 0.1825238 -0.3840949
436000000 0.1678692 -0.3714441 0.8321308 0.3714441 0.8321308 0.3714441 0.1678692 -0.3714441
457000000 0.1547597 -0.3592422 0.8452403 0.3592422 0.8452403 0.3592422 0.1547597 -0.3592422
478000000 0.1430010 -0.3475109 0.8569990 0.3475109 0.8569990 0.3475109 0.1430010 -0.3475109
499000000 0.1324256 -0.3362579 0.8675744 0.3362579 0.8675744 0.3362579 0.1324256 -0.3362579
520000000 0.1228893 -0.3254805 0.8771107 0.3254805 0.8771107 0.3254805 0.1228893 -0.3254805
541000000 0.1142676 -0.3151694 0.8857324 0.3151694 0.8857324 0.3151694 0.1142676 -0.3151694
562000000 0.1064531 -0.3053102 0.8935469 0.3053102 0.8935469 0.3053102 0.1064531 -0.3053102
583000000 0.0993528 -0.2958862 0.9006472 0.2958862 0.9006472 0.2958862 0.0993528 -0.2958862
604000000 0.0928861 -0.2868784 0.9071139 0.2868784 0.9071139 0.2868784 0.0928861 -0.2868784
625000000 0.0869830 -0.2782674 0.9130170 0.2782674 0.9130170 0.2782674 0.0869830 -0.2782674
646000000 0.0815824 -0.2700333 0.9184176 0.2700333 0.9184176 0.2700333 0.0815824 -0.2700333
667000000 0.0766310 -0.2621565 0.9233690 0.2621565 0.9233690 0.2621565 0.0766310 -0.2621565
688000000 0.0720823 -0.2546178 0.9279177 0.2546178 0.9279177 0.2546178 0.0720823 -0.2546178
709000000 0.0678953 -0.2473987 0.9321047 0.2473987 0.9321047 0.2473987 0.0678953 -0.2473987
730000000 0.0640341 -0.2404815 0.9359659 0.2404815 0.9359659 0.2404815 0.0640341 -0.2404815
751000000 0.0604667 -0.2338493 0.9395333 0.2338493 0.9395333 0.2338493 0.0604667 -0.2338493
772000000 0.0571652 -0.2274862 0.9428348 0.2274862 0.9428348 0.2274862 0.0571652 -0.2274862
793000000 0.0541048 -0.2213771 0.9458952 0.2213771 0.9458952 0.2213771 0.0541048 -0.2213771
814000000 0.0512632 -0.2155077 0.9487368 0.2155077 0.9487368 0.2155077 0.0512632 -0.2155077
835000000 0.0486209 -0.2098647 0.9513791 0.2098647 0.9513791 0.2098647 0.0486209 -0.2098647
856000000 0.0461603 -0.2044355 0.9538397 0.2044355 0.9538397 0.2044355 0.0461603 -0.2044355
877000000 0.0438656 -0.1992084 0.9561344 0.1992084 0.9561344 0.1992084 0.0438656 -0.1992084
898000000 0.0417229 -0.1941724 0.9582771 0.1941724 0.9582771 0.1941724 0.0417229 -0.1941724
919000000 0.0397195 -0.1893170 0.9602805 0.1893170 0.9602805 0.1893170 0.0397195 -0.1893170
940000000 0.0378441 -0.1846327 0.9621559 0.1846327 0.9621559 0.1846327 0.0378441 -0.1846327
961000000 0.0360863 -0.1801104 0.9639137 0.1801104 0.9639137 0.1801104 0.0360863 -0.1801104
982000000 0.0344370 -0.1757416 0.9655630 0.1757416 0.9655630 0.1757416 0.0344370 -0.1757416
1003000000 0.0328878 -0.1715183 0.9671122 0.1715183 0.9671122 0.1715183 0.0328878 -0.1715183
1024000000 0.0314311 -0.1674330 0.9685689 0.1674330 0.9685689 0.1674330 0.0314311 -0.1674330
1045000000 0.0300601 -0.1634789 0.9699399 0.1634789 0.9699399 0.1634789 0.0300601 -0.1634789
1066000000 0.0287683 -0.1596493 0.9712317 0.1596493 0.9712317 0.1596493 0.0287683 -0.1596493
1087000000 0.0275502 -0.1559380 0.9724498 0.1559380 0.9724498 0.1559380 0.0275502 -0.1559380
1108000000 0.0264005 -0.1523394 0.9735995 0.1523394 0.9735995 0.1523394 0.0264005 -0.1523394
1129000000 0.0253145 -0.1488479 0.9746855 0.1488479 0.9746855 0.1488479 0.0253145 -0.1488479
1150000000 0.0242879 -0.1454585 0.9757121 0.1454585 0.9757121 0.1454585 0.0242879 -0.1454585
1171000000 0.0233165 -0.1421664 0.9766835 0.1421664 0.9766835 0.1421664 0.0233165 -0.1421664
1192000000 0.0223968 -0.1389670 0.9776032 0.1389670 0.9776032 0.1389670 0.0223968 -0.1389670
1213000000 0.0215254 -0.1358562 0.9784746 0.1358562 0.9784746 0.1358562 0.0215254 -0.1358562
1234000000 0.0206992 -0.1328298 0.9793008 0.1328298 0.9793008 0.1328298 0.0206992 -0.1328298
1255000000 0.0199153 -0.1298842 0.9800847 0.1298842 0.9800847 0.1298842 0.0199153 -0.1298842
1276000000 0.0191712 -0.1270157 0.9808288 0.1270157 0.9808288 0.1270157 0.0191712 -0.1270157
1297000000 0.0184643 -0.1242211 0.9815357 0.1242211 0.9815357 0.1242211 0.0184643 -0.1242211
1318000000 0.0177924 -0.1214970 0.9822076 0.1214970 0.9822076 0.1214970 0.0177924 -0.1214970
1339000000 0.0171534 -0.1188406 0.9828466 0.1188406 0.9828466 0.1188406 0.0171534 -0.1188406
1360000000 0.0165455 -0.1162490 0.9834545 0.1162490 0.9834545 0.1162490 0.0165455 -0.1162490
1381000000 0.0159668 -0.1137195 0.9840332 0.1137195 0.9840332 0.1137195 0.0159668 -0.1137195
1402000000 0.0154156 -0.1112495 0.9845844 0.1112495 0.9845844 0.1112495 0.0154156 -0.1112495
1423000000 0.0148904 -0.1088366 0.9851096 0.1088366 0.9851096 0.1088366 0.0148904 -0.1088366
1444000000 0.0143898 -0.1064786 0.9856102 0.1064786 0.9856102 0.1064786 0.0143898 -0.1064786
1465000000 0.0139124 -0.1041733 0.9860876 0.1041733 0.9860876 0.1041733 0.0139124 -0.1041733
1486000000 0.0134570 -0.1019186 0.9865430 0.1019186 0.9865430 0.1019186 0.0134570 -0.1019186
1507000000 0.0130224 -0.0997125 0.9869776 0.0997125 0.9869776 0.0997125 0.0130224 -0.0997125
1528000000 0.0126074 -0.0975532 0.9873926 0.0975532 0.9873926 0.0975532 0.0126074 -0.0975532
1549000000 0.0122112 -0.0954390 0.9877888 0.0954390 0.9877888 0.0954390 0.0122112 -0.0954390
1570000000 0.0118327 -0.0933681 0.9881673 0.0933681 0.9881673 0.0933681 0.0118327 -0.0933681
1591000000 0.0114710 -0.0913389 0.9885290 0.0913389 0.9885290 0.0913389 0.0114710 -0.0913389
1612000000 0.0111253 -0.0893500 0.9888747 0.0893500 0.9888747 0.0893500 0.0111253 -0.0893500
1633000000 0.0107948 -0.0873998 0.9892052 0.0873998 0.9892052 0.0873998 0.0107948 -0.0873998
1654000000 0.0104788 -0.0854870 0.9895212 0.0854870 0.9895212 0.0854870 0.0104788 -0.0854870
1675000000 0.0101765 -0.0836103 0.9898235 0.0836103 0.9898235 0.0836103 0.0101765 -0.0836103
1696000000 0.0098874 -0.0817683 0.9901126 0.0817683 0.9901126 0.0817683 0.0098874 -0.0817683
1717000000 0.0096108 -0.0799600 0.9903892 0.0799600 0.9903892 0.0799600 0.0096108 -0.0799600
1738000000 0.0093461 -0.0781840 0.9906539 0.0781840 0.9906539 0.0781840 0.0093461 -0.0781840
1759000000 0.0090928 -0.0764394 0.9909072 0.0764394 0.9909072 0.0764394 0.0090928 -0.0764394
1780000000 0.0088503 -0.0747251 0.9911497 0.0747251 0.9911497 0.0747251 0.0088503 -0.0747251
1801000000 0.0086183 -0.0730400 0.9913817 0.0730400 0.9913817 0.0730400 0.0086183 -0.0730400
1822000000 0.0083961 -0.0713833 0.9916039 0.0713833 0.9916039 0.0713833 0.0083961 -0.0713833
1843000000 0.0081835 -0.0697539 0.9918165 0.0697539 0.9918165 0.0697539 0.0081835 -0.0697539
1864000000 0.0079800 -0.0681511 0.9920200 0.0681511 0.9920200 0.0681511 0.0079800 -0.0681511
1885000000 0.0077851 -0.0665738 0.9922149 0.0665738 0.9922149 0.0665738 0.0077851 -0.0665738
1906000000 0.0075986 -0.0650214 0.9924014 0.0650214 0.9924014 0.0650214 0.0075986 -0.0650214
1927000000 0.0074201 -0.0634931 0.9925799 0.0634931 0.9925799 0.0634931 0.0074201 -0.0634931
1948000000 0.0072492 -0.0619881 0.9927508 0.0619881 0.9927508 0.0619881 0.0072492 -0.0619881
1969000000 0.0070857 -0.0605057 0.9929143 0.0605057 0.9929143 0.0605057 0.0070857 -0.0605057
1990000000 0.0069292 -0.0590451 0.9930708 0.0590451 0.9930708 0.0590451 0.0069292 -0.0590451
2011000000 0.0067795 -0.0576058 0.9932205 0.0576058 0.9932205 0.0576058 0.0067795 -0.0576058
2032000000 0.0066363 -0.0561871 0.9933637 0.0561871 0.9933637 0.0561871 0.0066363 -0.0561871
2053000000 0.0064994 -0.0547884 0.9935006 0.0547884 0.9935006 0.0547884 0.0064994 -0.0547884
2074000000 0.0063685 -0.0534091 0.9936315 0.0534091 0.9936315 0.0534091 0.0063685 -0.0534091
2095000000 0.0062434 -0.0520486 0.9937566 0.0520486 0.9937566 0.0520486 0.0062434 -0.0520486
2116000000 0.0061239 -0.0507064 0.9938761 0.0507064 0.9938761 0.0507064 0.0061239 -0.0507064
2137000000 0.0060097 -0.0493819 0.9939903 0.0493819 0.9939903 0.0493819 0.0060097 -0.0493819
2158000000 0.0059007 -0.0480747 0.9940993 0.0480747 0.9940993 0.0480747 0.0059007 -0.0480747
2179000000 0.0057967 -0.0467842 0.9942033 0.0467842 0.9942033 0.0467842 0.0057967 -0.0467842
2200000000 0.0056975 -0.0455100 0.9943025 0.0455100 0.9943025 0.0455100 0.0056975 -0.0455100
2221000000 0.0056030 -0.0442517 0.9943970 0.0442517 0.9943970 0.0442517 0.0056030 -0.0442517
2242000000 0.0055129 -0.0430088 0.9944871 0.0430088 0.9944871 0.0430088 0.0055129 -0.0430088
2263000000 0.0054271 -0.0417808 0.9945729 0.0417808 0.9945729 0.0417808 0.0054271 -0.0417808
2284000000 0.0053455 -0.0405674 0.9946545 0.0405674 0.9946545 0.0405674 0.0053455 -0.0405674
2305000000 0.0052680 -0.0393681 0.9947320 0.0393681 0.9947320 0.0393681 0.0052680 -0.0393681
2326000000 0.0051944 -0.0381827 0.9948056 0.0381827 0.9948056 0.0381827 0.0051944 -0.0381827
2347000000 0.0051245 -0.0370107 0.9948755 0.0370107 0.9948755 0.0370107 0.0051245 -0.0370107
2368000000 0.0050583 -0.0358517 0.9949417 0.0358517 0.9949417 0.0358517 0.0050583 -0.0358517
2389000000 0.0049956 -0.0347055 0.9950044 0.0347055 0.9950044 0.0347055 0.0049956 -0.0347055
2410000000 0.0049364 -0.0335716 0.9950636 0.0335716 0.9950636 0.0335716 0.0049364 -0.0335716
2431000000 0.0048805 -0.0324498 0.9951195 0.0324498 0.9951195 0.0324498 0.0048805 -0.0324498
2452000000 0.0048278 -0.0313398 0.9951722 0.0313398 0.9951722 0.0313398 0.0048278 -0.0313398
2473000000 0.0047782 -0.0302413 0.9952218 0.0302413 0.9952218 0.0302413 0.0047782 -0.0302413
2494000000 0.0047316 -0.0291539 0.9952684 0.0291539 0.9952684 0.0291539 0.0047316 -0.0291539
2515000000 0.0046880 -0.0280774 0.9953120 0.0280774 0.9953120 0.0280774 0.0046880 -0.0280774
2536000000 0.0046473 -0.0270115 0.9953527 0.0270115 0.9953527 0.0270115 0.0046473 -0.0270115
2557000000 0.0046093 -0.0259559 0.9953907 0.0259559 0.9953907 0.0259559 0.0046093 -0.0259559
2578000000 0.0045740 -0.0249105 0.9954260 0.0249105 0.9954260 0.0249105 0.0045740 -0.0249105
2599000000 0.0045413 -0.0238748 0.9954587 0.0238748 0.9954587 0.0238748 0.0045413 -0.0238748
2620000000 0.0045112 -0.0228488 0.9954888 0.0228488 0.9954888 0.0228488 0.0045112 -0.0228488
2641000000 0.0044835 -0.0218322 0.9955165 0.0218322 0.9955165 0.0218322 0.0044835 -0.0218322
2662000000 0.0044583 -0.0208246 0.9955417 0.0208246 0.9955417 0.0208246 0.0044583 -0.0208246
2683000000 0.0044354 -0.0198261 0.9955646 0.0198261 0.9955646 0.0198261 0.0044354 -0.0198261
2704000000 0.0044148 -0.0188362 0.9955852 0.0188362 0.9955852 0.0188362 0.0044148 -0.0188362
2725000000 0.0043965 -0.0178548 0.9956035 0.0178548 0.9956035 0.0178548 0.0043965 -0.0178548
2746000000 0.0043803 -0.0168817 0.9956197 0.0168817 0.9956197 0.0168817 0.0043803 -0.0168817
2767000000 0.0043662 -0.0159167 0.9956338 0.0159167 0.9956338 0.0159167 0.0043662 -0.0159167
2788000000 0.0043542 -0.0149596 0.9956458 0.0149596 0.9956458 0.0149596 0.0043542 -0.0149596
2809000000 0.0043443 -0.0140102 0.9956557 0.0140102 0.9956557 0.0140102 0.0043443 -0.0140102
2830000000 0.0043363 -0.0130684 0.9956637 0.0130684 0.9956637 0.0130684 0.0043363 -0.0130684
2851000000 0.0043302 -0.0121340 0.9956698 0.0121340 0.9956698 0.0121340 0.0043302 -0.0121340
2872000000 0.0043260 -0.0112067 0.9956740 0.0112067 0.9956740 0.0112067 0.0043260 -0.0112067
2893000000 0.0043237 -0.0102865 0.9956763 0.0102865 0.9956763 0.0102865 0.0043237 -0.0102865
2914000000 0.0043232 -0.0093731 0.9956768 0.0093731 0.9956768 0.0093731 0.0043232 -0.0093731
2935000000 0.0043244 -0.0084665 0.9956756 0.0084665 0.9956756 0.0084665 0.0043244 -0.0084665
2956000000 0.0043274 -0.0075665 0.9956726 0.0075665 0.9956726 0.0075665 0.0043274 -0.0075665
2977000000 0.0043321 -0.0066728 0.9956679 0.0066728 0.9956679 0.0066728 0.0043321 -0.0066728
2998000000 0.0043384 -0.0057854 0.9956616 0.0057854 0.9956616 0.0057854 0.0043384 -0.0057854
3019000000 0.0043464 -0.0049042 0.9956536 0.0049042 0.9956536 0.0049042 0.0043464 -0.0049042
3040000000 0.0043560 -0.0040289 0.9956440 0.0040289 0.9956440 0.0040289 0.0043560 -0.0040289
3061000000 0.0043671 -0.0031595 0.9956329 0.0031595 0.9956329 0.0031595 0.0043671 -0.0031595
3082000000 0.0043798 -0.0022959 0.9956202 0.0022959 0.9956202 0.0022959 0.0043798 -0.0022959
3103000000 0.0043940 -0.0014378 0.9956060 0.0014378 0.9956060 0.0014378 0.0043940 -0.0014378
3124000000 0.0044097 -0.0005852 0.9955903 0.0005852 0.9955903 0.0005852 0.0044097 -0.0005852
3145000000 0.0044268 0.0002620 0.9955732 -0.0002620 0.9955732 -0.0002620 0.0044268 0.0002620
3166000000 0.0044454 0.0011040 0.9955546 -0.0011040 0.9955546 -0.0011040 0.0044454 0.0011040
3187000000 0.0044654 0.0019409 0.9955346 -0.0019409 0.9955346 -0.0019409 0.0044654 0.0019409
3208000000 0.0044868 0.0027727 0.9955132 -0.0027727 0.9955132 -0.0027727 0.0044868 0.0027727
3229000000 0.0045096 0.0035997 0.9954904 -0.0035997 0.9954904 -0.0035997 0.0045096 0.0035997
3250000000 0.0045337 0.0044218 0.9954663 -0.0044218 0.9954663 -0.0044218 0.0045337 0.0044218
3271000000 0.0045592 0.0052393 0.9954408 -0.0052393 0.9954408 -0.0052393 0.0045592 0.0052393
3292000000 0.0045860 0.0060522 0.9954140 -0.0060522 0.9954140 -0.0060522 0.0045860 0.0060522
3313000000 0.0046141 0.0068606 0.9953859 -0.0068606 0.9953859 -0.0068606 0.0046141 0.0068606
3334000000 0.0046434 0.0076646 0.9953566 -0.0076646 0.9953566 -0.0076646 0.0046434 0.0076646
3355000000 0.0046741 0.0084643 0.9953259 -0.0084643 0.9953259 -0.0084643 0.0046741 0.0084643
3376000000 0.0047059 0.0092598 0.9952941 -0.0092598 0.9952941 -0.0092598 0.0047059 0.0092598
3397000000 0.0047391 0.0100512 0.9952609 -0.0100512 0.9952609 -0.0100512 0.0047391 0.0100512
3418000000 0.0047734 0.0108386 0.9952266 -0.0108386 0.9952266 -0.0108386 0.0047734 0.0108386
3439000000 0.0048090 0.0116220 0.9951910 -0.0116220 0.9951910 -0.0116220 0.0048090 0.0116220
3460000000 0.0048458 0.0124016 0.9951542 -0.0124016 0.9951542 -0.0124016 0.0048458 0.0124016
3481000000 0.0048837 0.0131774 0.9951163 -0.0131774 0.9951163 -0.0131774 0.0048837 0.0131774
3502000000 0.0049229 0.0139496 0.9950771 -0.0139496 0.9950771 -0.0139496 0.0049229 0.0139496
3523000000 0.0049632 0.0147181 0.9950368 -0.0147181 0.9950368 -0.0147181 0.0049632 0.0147181
3544000000 0.0050047 0.0154831 0.9949953 -0.0154831 0.9949953 -0.0154831 0.0050047 0.0154831
3565000000 0.0050473 0.0162447 0.9949527 -0.0162447 0.9949527 -0.0162447 0.0050473 0.0162447
3586000000 0.0050911 0.0170029 0.9949089 -0.0170029 0.9949089 -0.0170029 0.0050911 0.0170029
3607000000 0.0051360 0.0177578 0.9948640 -0.0177578 0.9948640 -0.0177578 0.0051360 0.0177578
3628000000 0.0051820 0.0185095 0.9948180 -0.0185095 0.9948180 -0.0185095 0.0051820 0.0185095
3649000000 0.0052292 0.0192580 0.9947708 -0.0192580 0.9947708 -0.0192580 0.0052292 0.0192580
3670000000 0.0052774 0.0200035 0.9947226 -0.0200035 0.9947226 -0.0200035 0.0052774 0.0200035
3691000000 0.0053268 0.0207459 0.9946732 -0.0207459 0.9946732 -0.0207459 0.0053268 0.0207459
3712000000 0.0053773 0.0214854 0.9946227 -0.0214854 0.9946227 -0.0214854 0.0053773 0.0214854
3733000000 0.0054290 0.0222220 0.9945710 -0.0222220 0.9945710 -0.0222220 0.0054290 0.0222220
3754000000 0.0054817 0.0229558 0.9945183 -0.0229558 0.9945183 -0.0229558 0.0054817 0.0229558
3775000000 0.0055355 0.0236868 0.9944645 -0.0236868 0.9944645 -0.0236868 0.0055355 0.0236868
3796000000 0.0055904 0.0244152 0.9944096 -0.0244152 0.9944096 -0.0244152 0.0055904 0.0244152
3817000000 0.0056464 0.0251409 0.9943536 -0.0251409 0.9943536 -0.0251409 0.0056464 0.0251409
3838000000 0.0057035 0.0258640 0.9942965 -0.0258640 0.9942965 -0.0258640 0.0057035 0.0258640
3859000000 0.0057617 0.0265846 0.9942383 -0.0265846 0.9942383 -0.0265846 0.0057617 0.0265846
3880000000 0.0058210 0.0273028 0.9941790 -0.0273028 0.9941790 -0.0273028 0.0058210 0.0273028
3901000000 0.0058813 0.0280186 0.9941187 -0.0280186 0.9941187 -0.0280186 0.0058813 0.0280186
3922000000 0.0059428 0.0287320 0.9940572 -0.0287320 0.9940572 -0.0287320 0.0059428 0.0287320
3943000000 0.0060054 0.0294432 0.9939946 -0.0294432 0.9939946 -0.0294432 0.0060054 0.0294432
3964000000 0.0060691 0.0301521 0.9939309 -0.0301521 0.9939309 -0.0301521 0.0060691 0.0301521
3985000000 0.0061338 0.0308588 0.9938662 -0.0308588 0.9938662 -0.0308588 0.0061338 0.0308588
4006000000 0.0061997 0.0315634 0.9938003 -0.0315634 0.9938003 -0.0315634 0.0061997 0.0315634
4027000000 0.0062667 0.0322660 0.9937333 -0.0322660 0.9937333 -0.0322660 0.0062667 0.0322660
4048000000 0.0063348 0.0329665 0.9936652 -0.0329665 0.9936652 -0.0329665 0.0063348 0.0329665
4069000000 0.0064040 0.0336651 0.9935960 -0.0336651 0.9935960 -0.0336651 0.0064040 0.0336651
4090000000 0.0064744 0.0343617 0.9935256 -0.0343617 0.9935256 -0.0343617 0.0064744 0.0343617
4111000000 0.0065458 0.0350565 0.9934542 -0.0350565 0.9934542 -0.0350565 0.0065458 0.0350565
4132000000 0.0066185 0.0357494 0.9933815 -0.0357494 0.9933815 -0.0357494 0.0066185 0.0357494
4153000000 0.0066922 0.0364406 0.9933078 -0.0364406 0.9933078 -0.0364406 0.0066922 0.0364406
4174000000 0.0067671 0.0371300 0.9932329 -0.0371300 0.9932329 -0.0371300 0.0067671 0.0371300
4195000000 0.0068432 0.0378177 0.9931568 -0.0378177 0.9931568 -0.0378177 0.0068432 0.0378177
4216000000 0.0069204 0.0385038 0.9930796 -0.0385038 0.9930796 -0.0385038 0.0069204 0.0385038
4237000000 0.0069989 0.0391884 0.9930011 -0.0391884 0.9930011 -0.0391884 0.0069989 0.0391884
4258000000 0.0070785 0.0398713 0.9929215 -0.0398713 0.9929215 -0.0398713 0.0070785 0.0398713
4279000000 0.0071593 0.0405528 0.9928407 -0.0405528 0.9928407 -0.0405528 0.0071593 0.0405528
4300000000 0.0072413 0.0412327 0.9927587 -0.0412327 0.9927587 -0.0412327 0.0072413 0.0412327
4321000000 0.0073246 0.0419113 0.9926754 -0.0419113 0.9926754 -0.0419113 0.0073246 0.0419113
4342000000 0.0074091 0.0425885 0.9925909 -0.0425885 0.9925909 -0.0425885 0.0074091 0.0425885
4363000000 0.0074949 0.0432643 0.9925051 -0.0432643 0.9925051 -0.0432643 0.0074949 0.0432643
4384000000 0.0075819 0.0439388 0.9924181 -0.0439388 0.9924181 -0.0439388 0.0075819 0.0439388
4405000000 0.0076703 0.0446121 0.9923297 -0.0446121 0.9923297 -0.0446121 0.0076703 0.0446121
4426000000 0.0077599 0.0452842 0.9922401 -0.0452842 0.9922401 -0.0452842 0.0077599 0.0452842
4447000000 0.0078509 0.0459550 0.9921491 -0.0459550 0.9921491 -0.0459550 0.0078509 0.0459550
4468000000 0.0079432 0.0466247 0.9920568 -0.0466247 0.9920568 -0.0466247 0.0079432 0.0466247
4489000000 0.0080369 0.0472933 0.9919631 -0.0472933 0.9919631 -0.0472933 0.0080369 0.0472933
4510000000 0.0081319 0.0479609 0.9918681 -0.0479609 0.9918681 -0.0479609 0.0081319 0.0479609
