!Murata Part Number: GRM1554C2A1R5BA01
!These Parameters are Measured in Series Mode Connection
!Data Generated on Mar 30, 2021
!       o--ll--o
!Port1            Port2
!       o------o
!Operation Temp=25[degC], DC Bias Voltage=0[V]
!Freq. Start=100[MHz] Stop=9[GHz] 401[Steps]
# Hz S RI R 50
!Freq.(Hz) S11(Real) S11(Imag) S21(Real) S21(Imag) S12(Real) S12(Imag) S22(Real) S22(Imag)
100000000 0.9911446 -0.0934265 0.0088554 0.0934265 0.0088554 0.0934265 0.9911446 -0.0934265
121000000 0.9870859 -0.1125906 0.0129141 0.1125906 0.0129141 0.1125906 0.9870859 -0.1125906
142000000 0.9822974 -0.1315005 0.0177026 0.1315005 0.0177026 0.1315005 0.9822974 -0.1315005
163000000 0.9767998 -0.1501166 0.0232002 0.1501166 0.0232002 0.1501166 0.9767998 -0.1501166
184000000 0.9706167 -0.1684017 0.0293833 0.1684017 0.0293833 0.1684017 0.9706167 -0.1684017
205000000 0.9637742 -0.1863205 0.0362258 0.1863205 0.0362258 0.1863205 0.9637742 -0.1863205
226000000 0.9563003 -0.2038404 0.0436997 0.2038404 0.0436997 0.2038404 0.9563003 -0.2038404
247000000 0.9482254 -0.2209315 0.0517746 0.2209315 0.0517746 0.2209315 0.9482254 -0.2209315
268000000 0.9395811 -0.2375665 0.0604189 0.2375665 0.0604189 0.2375665 0.9395811 -0.2375665
289000000 0.9304007 -0.2537210 0.0695993 0.2537210 0.0695993 0.2537210 0.9304007 -0.2537210
310000000 0.9207184 -0.2693736 0.0792816 0.2693736 0.0792816 0.2693736 0.9207184 -0.2693736
331000000 0.9105691 -0.2845056 0.0894309 0.2845056 0.0894309 0.2845056 0.9105691 -0.2845056
352000000 0.8999885 -0.2991014 0.1000115 0.2991014 0.1000115 0.2991014 0.8999885 -0.2991014
373000000 0.8890123 -0.3131482 0.1109877 0.3131482 0.1109877 0.3131482 0.8890123 -0.3131482
394000000 0.8776763 -0.3266357 0.1223237 0.3266357 0.1223237 0.3266357 0.8776763 -0.3266357
415000000 0.8660158 -0.3395567 0.1339842 0.3395567 0.1339842 0.3395567 0.8660158 -0.3395567
436000000 0.8540660 -0.3519063 0.1459340 0.3519063 0.1459340 0.3519063 0.8540660 -0.3519063
457000000 0.8418612 -0.3636822 0.1581388 0.3636822 0.1581388 0.3636822 0.8418612 -0.3636822
478000000 0.8294349 -0.3748844 0.1705651 0.3748844 0.1705651 0.3748844 0.8294349 -0.3748844
499000000 0.8168197 -0.3855149 0.1831803 0.3855149 0.1831803 0.3855149 0.8168197 -0.3855149
520000000 0.8040470 -0.3955777 0.1959530 0.3955777 0.1959530 0.3955777 0.8040470 -0.3955777
541000000 0.7911470 -0.4050789 0.2088530 0.4050789 0.2088530 0.4050789 0.7911470 -0.4050789
562000000 0.7781485 -0.4140260 0.2218515 0.4140260 0.2218515 0.4140260 0.7781485 -0.4140260
583000000 0.7650789 -0.4224280 0.2349211 0.4224280 0.2349211 0.4224280 0.7650789 -0.4224280
604000000 0.7519644 -0.4302954 0.2480356 0.4302954 0.2480356 0.4302954 0.7519644 -0.4302954
625000000 0.7388293 -0.4376397 0.2611707 0.4376397 0.2611707 0.4376397 0.7388293 -0.4376397
646000000 0.7256967 -0.4444734 0.2743033 0.4444734 0.2743033 0.4444734 0.7256967 -0.4444734
667000000 0.7125882 -0.4508101 0.2874118 0.4508101 0.2874118 0.4508101 0.7125882 -0.4508101
688000000 0.6995238 -0.4566638 0.3004762 0.4566638 0.3004762 0.4566638 0.6995238 -0.4566638
709000000 0.6865218 -0.4620492 0.3134782 0.4620492 0.3134782 0.4620492 0.6865218 -0.4620492
730000000 0.6735996 -0.4669816 0.3264004 0.4669816 0.3264004 0.4669816 0.6735996 -0.4669816
751000000 0.6607726 -0.4714764 0.3392274 0.4714764 0.3392274 0.4714764 0.6607726 -0.4714764
772000000 0.6480551 -0.4755495 0.3519449 0.4755495 0.3519449 0.4755495 0.6480551 -0.4755495
793000000 0.6354601 -0.4792167 0.3645399 0.4792167 0.3645399 0.4792167 0.6354601 -0.4792167
814000000 0.6229993 -0.4824939 0.3770007 0.4824939 0.3770007 0.4824939 0.6229993 -0.4824939
835000000 0.6106831 -0.4853971 0.3893169 0.4853971 0.3893169 0.4853971 0.6106831 -0.4853971
856000000 0.5985209 -0.4879420 0.4014791 0.4879420 0.4014791 0.4879420 0.5985209 -0.4879420
877000000 0.5865207 -0.4901443 0.4134793 0.4901443 0.4134793 0.4901443 0.5865207 -0.4901443
898000000 0.5746899 -0.4920194 0.4253101 0.4920194 0.4253101 0.4920194 0.5746899 -0.4920194
919000000 0.5630345 -0.4935825 0.4369655 0.4935825 0.4369655 0.4935825 0.5630345 -0.4935825
940000000 0.5515599 -0.4948483 0.4484401 0.4948483 0.4484401 0.4948483 0.5515599 -0.4948483
961000000 0.5402706 -0.4958315 0.4597294 0.4958315 0.4597294 0.4958315 0.5402706 -0.4958315
982000000 0.5291701 -0.4965460 0.4708299 0.4965460 0.4708299 0.4965460 0.5291701 -0.4965460
1003000000 0.5182614 -0.4970056 0.4817386 0.4970056 0.4817386 0.4970056 0.5182614 -0.4970056
1024000000 0.5075467 -0.4972237 0.4924533 0.4972237 0.4924533 0.4972237 0.5075467 -0.4972237
1045000000 0.4970277 -0.4972130 0.5029723 0.4972130 0.5029723 0.4972130 0.4970277 -0.4972130
1066000000 0.4867054 -0.4969861 0.5132946 0.4969861 0.5132946 0.4969861 0.4867054 -0.4969861
1087000000 0.4765803 -0.4965550 0.5234197 0.4965550 0.5234197 0.4965550 0.4765803 -0.4965550
1108000000 0.4666525 -0.4959311 0.5333475 0.4959311 0.5333475 0.4959311 0.4666525 -0.4959311
1129000000 0.4569217 -0.4951257 0.5430783 0.4951257 0.5430783 0.4951257 0.4569217 -0.4951257
1150000000 0.4473870 -0.4941493 0.5526130 0.4941493 0.5526130 0.4941493 0.4473870 -0.4941493
1171000000 0.4380473 -0.4930122 0.5619527 0.4930122 0.5619527 0.4930122 0.4380473 -0.4930122
1192000000 0.4289013 -0.4917241 0.5710987 0.4917241 0.5710987 0.4917241 0.4289013 -0.4917241
1213000000 0.4199471 -0.4902945 0.5800529 0.4902945 0.5800529 0.4902945 0.4199471 -0.4902945
1234000000 0.4111828 -0.4887322 0.5888172 0.4887322 0.5888172 0.4887322 0.4111828 -0.4887322
1255000000 0.4026063 -0.4870458 0.5973937 0.4870458 0.5973937 0.4870458 0.4026063 -0.4870458
1276000000 0.3942151 -0.4852434 0.6057849 0.4852434 0.6057849 0.4852434 0.3942151 -0.4852434
1297000000 0.3860068 -0.4833327 0.6139932 0.4833327 0.6139932 0.4833327 0.3860068 -0.4833327
1318000000 0.3779785 -0.4813212 0.6220215 0.4813212 0.6220215 0.4813212 0.3779785 -0.4813212
1339000000 0.3701276 -0.4792158 0.6298724 0.4792158 0.6298724 0.4792158 0.3701276 -0.4792158
1360000000 0.3624511 -0.4770232 0.6375489 0.4770232 0.6375489 0.4770232 0.3624511 -0.4770232
1381000000 0.3549460 -0.4747496 0.6450540 0.4747496 0.6450540 0.4747496 0.3549460 -0.4747496
1402000000 0.3476092 -0.4724012 0.6523908 0.4724012 0.6523908 0.4724012 0.3476092 -0.4724012
1423000000 0.3404375 -0.4699835 0.6595625 0.4699835 0.6595625 0.4699835 0.3404375 -0.4699835
1444000000 0.3334279 -0.4675019 0.6665721 0.4675019 0.6665721 0.4675019 0.3334279 -0.4675019
1465000000 0.3265772 -0.4649616 0.6734228 0.4649616 0.6734228 0.4649616 0.3265772 -0.4649616
1486000000 0.3198820 -0.4623674 0.6801180 0.4623674 0.6801180 0.4623674 0.3198820 -0.4623674
1507000000 0.3133392 -0.4597237 0.6866608 0.4597237 0.6866608 0.4597237 0.3133392 -0.4597237
1528000000 0.3069455 -0.4570350 0.6930545 0.4570350 0.6930545 0.4570350 0.3069455 -0.4570350
1549000000 0.3006978 -0.4543052 0.6993022 0.4543052 0.6993022 0.4543052 0.3006978 -0.4543052
1570000000 0.2945928 -0.4515383 0.7054072 0.4515383 0.7054072 0.4515383 0.2945928 -0.4515383
1591000000 0.2886274 -0.4487378 0.7113726 0.4487378 0.7113726 0.4487378 0.2886274 -0.4487378
1612000000 0.2827984 -0.4459071 0.7172016 0.4459071 0.7172016 0.4459071 0.2827984 -0.4459071
1633000000 0.2771026 -0.4430495 0.7228974 0.4430495 0.7228974 0.4430495 0.2771026 -0.4430495
1654000000 0.2715371 -0.4401680 0.7284629 0.4401680 0.7284629 0.4401680 0.2715371 -0.4401680
1675000000 0.2660987 -0.4372655 0.7339013 0.4372655 0.7339013 0.4372655 0.2660987 -0.4372655
1696000000 0.2607844 -0.4343446 0.7392156 0.4343446 0.7392156 0.4343446 0.2607844 -0.4343446
1717000000 0.2555913 -0.4314078 0.7444087 0.4314078 0.7444087 0.4314078 0.2555913 -0.4314078
1738000000 0.2505165 -0.4284575 0.7494835 0.4284575 0.7494835 0.4284575 0.2505165 -0.4284575
1759000000 0.2455571 -0.4254960 0.7544429 0.4254960 0.7544429 0.4254960 0.2455571 -0.4254960
1780000000 0.2407104 -0.4225254 0.7592896 0.4225254 0.7592896 0.4225254 0.2407104 -0.4225254
1801000000 0.2359735 -0.4195475 0.7640265 0.4195475 0.7640265 0.4195475 0.2359735 -0.4195475
1822000000 0.2313439 -0.4165642 0.7686561 0.4165642 0.7686561 0.4165642 0.2313439 -0.4165642
1843000000 0.2268187 -0.4135773 0.7731813 0.4135773 0.7731813 0.4135773 0.2268187 -0.4135773
1864000000 0.2223955 -0.4105884 0.7776045 0.4105884 0.7776045 0.4105884 0.2223955 -0.4105884
1885000000 0.2180717 -0.4075989 0.7819283 0.4075989 0.7819283 0.4075989 0.2180717 -0.4075989
1906000000 0.2138449 -0.4046103 0.7861551 0.4046103 0.7861551 0.4046103 0.2138449 -0.4046103
1927000000 0.2097126 -0.4016239 0.7902874 0.4016239 0.7902874 0.4016239 0.2097126 -0.4016239
1948000000 0.2056724 -0.3986409 0.7943276 0.3986409 0.7943276 0.3986409 0.2056724 -0.3986409
1969000000 0.2017222 -0.3956624 0.7982778 0.3956624 0.7982778 0.3956624 0.2017222 -0.3956624
1990000000 0.1978595 -0.3926897 0.8021405 0.3926897 0.8021405 0.3926897 0.1978595 -0.3926897
2011000000 0.1940822 -0.3897235 0.8059178 0.3897235 0.8059178 0.3897235 0.1940822 -0.3897235
2032000000 0.1903883 -0.3867649 0.8096117 0.3867649 0.8096117 0.3867649 0.1903883 -0.3867649
2053000000 0.1867754 -0.3838146 0.8132246 0.3838146 0.8132246 0.3838146 0.1867754 -0.3838146
2074000000 0.1832418 -0.3808736 0.8167582 0.3808736 0.8167582 0.3808736 0.1832418 -0.3808736
2095000000 0.1797852 -0.3779426 0.8202148 0.3779426 0.8202148 0.3779426 0.1797852 -0.3779426
2116000000 0.1764039 -0.3750221 0.8235961 0.3750221 0.8235961 0.3750221 0.1764039 -0.3750221
2137000000 0.1730960 -0.3721129 0.8269040 0.3721129 0.8269040 0.3721129 0.1730960 -0.3721129
2158000000 0.1698595 -0.3692155 0.8301405 0.3692155 0.8301405 0.3692155 0.1698595 -0.3692155
2179000000 0.1666927 -0.3663305 0.8333073 0.3663305 0.8333073 0.3663305 0.1666927 -0.3663305
2200000000 0.1635939 -0.3634583 0.8364061 0.3634583 0.8364061 0.3634583 0.1635939 -0.3634583
2221000000 0.1605614 -0.3605995 0.8394386 0.3605995 0.8394386 0.3605995 0.1605614 -0.3605995
2242000000 0.1575935 -0.3577544 0.8424065 0.3577544 0.8424065 0.3577544 0.1575935 -0.3577544
2263000000 0.1546886 -0.3549233 0.8453114 0.3549233 0.8453114 0.3549233 0.1546886 -0.3549233
2284000000 0.1518451 -0.3521067 0.8481549 0.3521067 0.8481549 0.3521067 0.1518451 -0.3521067
2305000000 0.1490616 -0.3493048 0.8509384 0.3493048 0.8509384 0.3493048 0.1490616 -0.3493048
2326000000 0.1463365 -0.3465180 0.8536635 0.3465180 0.8536635 0.3465180 0.1463365 -0.3465180
2347000000 0.1436684 -0.3437464 0.8563316 0.3437464 0.8563316 0.3437464 0.1436684 -0.3437464
2368000000 0.1410560 -0.3409903 0.8589440 0.3409903 0.8589440 0.3409903 0.1410560 -0.3409903
2389000000 0.1384977 -0.3382499 0.8615023 0.3382499 0.8615023 0.3382499 0.1384977 -0.3382499
2410000000 0.1359924 -0.3355253 0.8640076 0.3355253 0.8640076 0.3355253 0.1359924 -0.3355253
2431000000 0.1335387 -0.3328168 0.8664613 0.3328168 0.8664613 0.3328168 0.1335387 -0.3328168
2452000000 0.1311354 -0.3301244 0.8688646 0.3301244 0.8688646 0.3301244 0.1311354 -0.3301244
2473000000 0.1287812 -0.3274483 0.8712188 0.3274483 0.8712188 0.3274483 0.1287812 -0.3274483
2494000000 0.1264750 -0.3247885 0.8735250 0.3247885 0.8735250 0.3247885 0.1264750 -0.3247885
2515000000 0.1242156 -0.3221451 0.8757844 0.3221451 0.8757844 0.3221451 0.1242156 -0.3221451
2536000000 0.1220019 -0.3195183 0.8779981 0.3195183 0.8779981 0.3195183 0.1220019 -0.3195183
2557000000 0.1198327 -0.3169080 0.8801673 0.3169080 0.8801673 0.3169080 0.1198327 -0.3169080
2578000000 0.1177071 -0.3143142 0.8822929 0.3143142 0.8822929 0.3143142 0.1177071 -0.3143142
2599000000 0.1156240 -0.3117370 0.8843760 0.3117370 0.8843760 0.3117370 0.1156240 -0.3117370
2620000000 0.1135823 -0.3091765 0.8864177 0.3091765 0.8864177 0.3091765 0.1135823 -0.3091765
2641000000 0.1115812 -0.3066325 0.8884188 0.3066325 0.8884188 0.3066325 0.1115812 -0.3066325
2662000000 0.1096196 -0.3041050 0.8903804 0.3041050 0.8903804 0.3041050 0.1096196 -0.3041050
2683000000 0.1076967 -0.3015942 0.8923033 0.3015942 0.8923033 0.3015942 0.1076967 -0.3015942
2704000000 0.1058114 -0.2990998 0.8941886 0.2990998 0.8941886 0.2990998 0.1058114 -0.2990998
2725000000 0.1039631 -0.2966219 0.8960369 0.2966219 0.8960369 0.2966219 0.1039631 -0.2966219
2746000000 0.1021507 -0.2941604 0.8978493 0.2941604 0.8978493 0.2941604 0.1021507 -0.2941604
2767000000 0.1003735 -0.2917152 0.8996265 0.2917152 0.8996265 0.2917152 0.1003735 -0.2917152
2788000000 0.0986306 -0.2892864 0.9013694 0.2892864 0.9013694 0.2892864 0.0986306 -0.2892864
2809000000 0.0969213 -0.2868737 0.9030787 0.2868737 0.9030787 0.2868737 0.0969213 -0.2868737
2830000000 0.0952448 -0.2844772 0.9047552 0.2844772 0.9047552 0.2844772 0.0952448 -0.2844772
2851000000 0.0936004 -0.2820968 0.9063996 0.2820968 0.9063996 0.2820968 0.0936004 -0.2820968
2872000000 0.0919874 -0.2797323 0.9080126 0.2797323 0.9080126 0.2797323 0.0919874 -0.2797323
2893000000 0.0904049 -0.2773836 0.9095951 0.2773836 0.9095951 0.2773836 0.0904049 -0.2773836
2914000000 0.0888524 -0.2750507 0.9111476 0.2750507 0.9111476 0.2750507 0.0888524 -0.2750507
2935000000 0.0873292 -0.2727335 0.9126708 0.2727335 0.9126708 0.2727335 0.0873292 -0.2727335
2956000000 0.0858347 -0.2704319 0.9141653 0.2704319 0.9141653 0.2704319 0.0858347 -0.2704319
2977000000 0.0843681 -0.2681457 0.9156319 0.2681457 0.9156319 0.2681457 0.0843681 -0.2681457
2998000000 0.0829289 -0.2658748 0.9170711 0.2658748 0.9170711 0.2658748 0.0829289 -0.2658748
3019000000 0.0815165 -0.2636192 0.9184835 0.2636192 0.9184835 0.2636192 0.0815165 -0.2636192
3040000000 0.0801303 -0.2613787 0.9198697 0.2613787 0.9198697 0.2613787 0.0801303 -0.2613787
3061000000 0.0787698 -0.2591531 0.9212302 0.2591531 0.9212302 0.2591531 0.0787698 -0.2591531
3082000000 0.0774343 -0.2569424 0.9225657 0.2569424 0.9225657 0.2569424 0.0774343 -0.2569424
3103000000 0.0761233 -0.2547464 0.9238767 0.2547464 0.9238767 0.2547464 0.0761233 -0.2547464
3124000000 0.0748364 -0.2525651 0.9251636 0.2525651 0.9251636 0.2525651 0.0748364 -0.2525651
3145000000 0.0735730 -0.2503982 0.9264270 0.2503982 0.9264270 0.2503982 0.0735730 -0.2503982
3166000000 0.0723325 -0.2482457 0.9276675 0.2482457 0.9276675 0.2482457 0.0723325 -0.2482457
3187000000 0.0711146 -0.2461075 0.9288854 0.2461075 0.9288854 0.2461075 0.0711146 -0.2461075
3208000000 0.0699188 -0.2439833 0.9300812 0.2439833 0.9300812 0.2439833 0.0699188 -0.2439833
3229000000 0.0687445 -0.2418731 0.9312555 0.2418731 0.9312555 0.2418731 0.0687445 -0.2418731
3250000000 0.0675913 -0.2397767 0.9324087 0.2397767 0.9324087 0.2397767 0.0675913 -0.2397767
3271000000 0.0664589 -0.2376941 0.9335411 0.2376941 0.9335411 0.2376941 0.0664589 -0.2376941
3292000000 0.0653467 -0.2356250 0.9346533 0.2356250 0.9346533 0.2356250 0.0653467 -0.2356250
3313000000 0.0642544 -0.2335693 0.9357456 0.2335693 0.9357456 0.2335693 0.0642544 -0.2335693
3334000000 0.0631815 -0.2315270 0.9368185 0.2315270 0.9368185 0.2315270 0.0631815 -0.2315270
3355000000 0.0621277 -0.2294978 0.9378723 0.2294978 0.9378723 0.2294978 0.0621277 -0.2294978
3376000000 0.0610926 -0.2274817 0.9389074 0.2274817 0.9389074 0.2274817 0.0610926 -0.2274817
3397000000 0.0600757 -0.2254784 0.9399243 0.2254784 0.9399243 0.2254784 0.0600757 -0.2254784
3418000000 0.0590768 -0.2234880 0.9409232 0.2234880 0.9409232 0.2234880 0.0590768 -0.2234880
3439000000 0.0580955 -0.2215102 0.9419045 0.2215102 0.9419045 0.2215102 0.0580955 -0.2215102
3460000000 0.0571314 -0.2195449 0.9428686 0.2195449 0.9428686 0.2195449 0.0571314 -0.2195449
3481000000 0.0561841 -0.2175920 0.9438159 0.2175920 0.9438159 0.2175920 0.0561841 -0.2175920
3502000000 0.0552535 -0.2156514 0.9447465 0.2156514 0.9447465 0.2156514 0.0552535 -0.2156514
3523000000 0.0543391 -0.2137229 0.9456609 0.2137229 0.9456609 0.2137229 0.0543391 -0.2137229
3544000000 0.0534405 -0.2118063 0.9465595 0.2118063 0.9465595 0.2118063 0.0534405 -0.2118063
3565000000 0.0525576 -0.2099017 0.9474424 0.2099017 0.9474424 0.2099017 0.0525576 -0.2099017
3586000000 0.0516901 -0.2080088 0.9483099 0.2080088 0.9483099 0.2080088 0.0516901 -0.2080088
3607000000 0.0508375 -0.2061274 0.9491625 0.2061274 0.9491625 0.2061274 0.0508375 -0.2061274
3628000000 0.0499997 -0.2042576 0.9500003 0.2042576 0.9500003 0.2042576 0.0499997 -0.2042576
3649000000 0.0491763 -0.2023991 0.9508237 0.2023991 0.9508237 0.2023991 0.0491763 -0.2023991
3670000000 0.0483671 -0.2005519 0.9516329 0.2005519 0.9516329 0.2005519 0.0483671 -0.2005519
3691000000 0.0475719 -0.1987158 0.9524281 0.1987158 0.9524281 0.1987158 0.0475719 -0.1987158
3712000000 0.0467903 -0.1968906 0.9532097 0.1968906 0.9532097 0.1968906 0.0467903 -0.1968906
3733000000 0.0460221 -0.1950763 0.9539779 0.1950763 0.9539779 0.1950763 0.0460221 -0.1950763
3754000000 0.0452671 -0.1932728 0.9547329 0.1932728 0.9547329 0.1932728 0.0452671 -0.1932728
3775000000 0.0445250 -0.1914799 0.9554750 0.1914799 0.9554750 0.1914799 0.0445250 -0.1914799
3796000000 0.0437956 -0.1896975 0.9562044 0.1896975 0.9562044 0.1896975 0.0437956 -0.1896975
3817000000 0.0430787 -0.1879254 0.9569213 0.1879254 0.9569213 0.1879254 0.0430787 -0.1879254
3838000000 0.0423740 -0.1861637 0.9576260 0.1861637 0.9576260 0.1861637 0.0423740 -0.1861637
3859000000 0.0416813 -0.1844120 0.9583187 0.1844120 0.9583187 0.1844120 0.0416813 -0.1844120
3880000000 0.0410005 -0.1826705 0.9589995 0.1826705 0.9589995 0.1826705 0.0410005 -0.1826705
3901000000 0.0403312 -0.1809388 0.9596688 0.1809388 0.9596688 0.1809388 0.0403312 -0.1809388
3922000000 0.0396733 -0.1792170 0.9603267 0.1792170 0.9603267 0.1792170 0.0396733 -0.1792170
3943000000 0.0390267 -0.1775048 0.9609733 0.1775048 0.9609733 0.1775048 0.0390267 -0.1775048
3964000000 0.0383910 -0.1758022 0.9616090 0.1758022 0.9616090 0.1758022 0.0383910 -0.1758022
3985000000 0.0377661 -0.1741092 0.9622339 0.1741092 0.9622339 0.1741092 0.0377661 -0.1741092
4006000000 0.0371519 -0.1724254 0.9628481 0.1724254 0.9628481 0.1724254 0.0371519 -0.1724254
4027000000 0.0365482 -0.1707510 0.9634518 0.1707510 0.9634518 0.1707510 0.0365482 -0.1707510
4048000000 0.0359547 -0.1690857 0.9640453 0.1690857 0.9640453 0.1690857 0.0359547 -0.1690857
4069000000 0.0353713 -0.1674294 0.9646287 0.1674294 0.9646287 0.1674294 0.0353713 -0.1674294
4090000000 0.0347978 -0.1657821 0.9652022 0.1657821 0.9652022 0.1657821 0.0347978 -0.1657821
4111000000 0.0342341 -0.1641436 0.9657659 0.1641436 0.9657659 0.1641436 0.0342341 -0.1641436
4132000000 0.0336800 -0.1625139 0.9663200 0.1625139 0.9663200 0.1625139 0.0336800 -0.1625139
4153000000 0.0331354 -0.1608928 0.9668646 0.1608928 0.9668646 0.1608928 0.0331354 -0.1608928
4174000000 0.0326001 -0.1592802 0.9673999 0.1592802 0.9673999 0.1592802 0.0326001 -0.1592802
4195000000 0.0320739 -0.1576761 0.9679261 0.1576761 0.9679261 0.1576761 0.0320739 -0.1576761
4216000000 0.0315567 -0.1560803 0.9684433 0.1560803 0.9684433 0.1560803 0.0315567 -0.1560803
4237000000 0.0310483 -0.1544927 0.9689517 0.1544927 0.9689517 0.1544927 0.0310483 -0.1544927
4258000000 0.0305487 -0.1529133 0.9694513 0.1529133 0.9694513 0.1529133 0.0305487 -0.1529133
4279000000 0.0300577 -0.1513419 0.9699423 0.1513419 0.9699423 0.1513419 0.0300577 -0.1513419
4300000000 0.0295751 -0.1497786 0.9704249 0.1497786 0.9704249 0.1497786 0.0295751 -0.1497786
4321000000 0.0291008 -0.1482230 0.9708992 0.1482230 0.9708992 0.1482230 0.0291008 -0.1482230
4342000000 0.0286348 -0.1466753 0.9713652 0.1466753 0.9713652 0.1466753 0.0286348 -0.1466753
4363000000 0.0281767 -0.1451352 0.9718233 0.1451352 0.9718233 0.1451352 0.0281767 -0.1451352
4384000000 0.0277267 -0.1436027 0.9722733 0.1436027 0.9722733 0.1436027 0.0277267 -0.1436027
4405000000 0.0272844 -0.1420777 0.9727156 0.1420777 0.9727156 0.1420777 0.0272844 -0.1420777
4426000000 0.0268499 -0.1405602 0.9731501 0.1405602 0.9731501 0.1405602 0.0268499 -0.1405602
4447000000 0.0264229 -0.1390500 0.9735771 0.1390500 0.9735771 0.1390500 0.0264229 -0.1390500
4468000000 0.0260034 -0.1375470 0.9739966 0.1375470 0.9739966 0.1375470 0.0260034 -0.1375470
4489000000 0.0255913 -0.1360512 0.9744087 0.1360512 0.9744087 0.1360512 0.0255913 -0.1360512
4510000000 0.0251865 -0.1345624 0.9748135 0.1345624 0.9748135 0.1345624 0.0251865 -0.1345624
