!Murata Part Number: GRM1555C2A7R7DA01
!These Parameters are Measured in Series Mode Connection
!Data Generated on Mar 30, 2021
!       o--ll--o
!Port1            Port2
!       o------o
!Operation Temp=25[degC], DC Bias Voltage=0[V]
!Freq. Start=100[MHz] Stop=9[GHz] 401[Steps]
# Hz S RI R 50
!Freq.(Hz) S11(Real) S11(Imag) S21(Real) S21(Imag) S12(Real) S12(Imag) S22(Real) S22(Imag)
100000000 0.8097895 -0.3919916 0.1902105 0.3919916 0.1902105 0.3919916 0.8097895 -0.3919916
121000000 0.7439662 -0.4358644 0.2560338 0.4358644 0.2560338 0.4358644 0.7439662 -0.4358644
142000000 0.6782545 -0.4664684 0.3217455 0.4664684 0.3217455 0.4664684 0.6782545 -0.4664684
163000000 0.6151302 -0.4857850 0.3848698 0.4857850 0.3848698 0.4857850 0.6151302 -0.4857850
184000000 0.5561215 -0.4959583 0.4438785 0.4959583 0.4438785 0.4959583 0.5561215 -0.4959583
205000000 0.5020079 -0.4990105 0.4979921 0.4990105 0.4979921 0.4990105 0.5020079 -0.4990105
226000000 0.4530368 -0.4966998 0.5469632 0.4966998 0.5469632 0.4966998 0.4530368 -0.4966998
247000000 0.4091119 -0.4904750 0.5908881 0.4904750 0.5908881 0.4904750 0.4091119 -0.4904750
268000000 0.3699361 -0.4814858 0.6300639 0.4814858 0.6300639 0.4814858 0.3699361 -0.4814858
289000000 0.3351110 -0.4706205 0.6648890 0.4706205 0.6648890 0.4706205 0.3351110 -0.4706205
310000000 0.3042018 -0.4585511 0.6957982 0.4585511 0.6957982 0.4585511 0.3042018 -0.4585511
331000000 0.2767760 -0.4457773 0.7232240 0.4457773 0.7232240 0.4457773 0.2767760 -0.4457773
352000000 0.2524259 -0.4326654 0.7475741 0.4326654 0.7475741 0.4326654 0.2524259 -0.4326654
373000000 0.2307788 -0.4194793 0.7692212 0.4194793 0.7692212 0.4194793 0.2307788 -0.4194793
394000000 0.2115012 -0.4064065 0.7884988 0.4064065 0.7884988 0.4064065 0.2115012 -0.4064065
415000000 0.1942983 -0.3935769 0.8057017 0.3935769 0.8057017 0.3935769 0.1942983 -0.3935769
436000000 0.1789120 -0.3810780 0.8210880 0.3810780 0.8210880 0.3810780 0.1789120 -0.3810780
457000000 0.1651176 -0.3689662 0.8348824 0.3689662 0.8348824 0.3689662 0.1651176 -0.3689662
478000000 0.1527199 -0.3572750 0.8472801 0.3572750 0.8472801 0.3572750 0.1527199 -0.3572750
499000000 0.1415498 -0.3460217 0.8584502 0.3460217 0.8584502 0.3460217 0.1415498 -0.3460217
520000000 0.1314608 -0.3352115 0.8685392 0.3352115 0.8685392 0.3352115 0.1314608 -0.3352115
541000000 0.1223260 -0.3248415 0.8776740 0.3248415 0.8776740 0.3248415 0.1223260 -0.3248415
562000000 0.1140351 -0.3149029 0.8859649 0.3149029 0.8859649 0.3149029 0.1140351 -0.3149029
583000000 0.1064927 -0.3053832 0.8935073 0.3053832 0.8935073 0.3053832 0.1064927 -0.3053832
604000000 0.0996156 -0.2962673 0.9003844 0.2962673 0.9003844 0.2962673 0.0996156 -0.2962673
625000000 0.0933311 -0.2875384 0.9066689 0.2875384 0.9066689 0.2875384 0.0933311 -0.2875384
646000000 0.0875761 -0.2791792 0.9124239 0.2791792 0.9124239 0.2791792 0.0875761 -0.2791792
667000000 0.0822951 -0.2711720 0.9177049 0.2711720 0.9177049 0.2711720 0.0822951 -0.2711720
688000000 0.0774394 -0.2634993 0.9225606 0.2634993 0.9225606 0.2634993 0.0774394 -0.2634993
709000000 0.0729662 -0.2561438 0.9270338 0.2561438 0.9270338 0.2561438 0.0729662 -0.2561438
730000000 0.0688380 -0.2490888 0.9311620 0.2490888 0.9311620 0.2490888 0.0688380 -0.2490888
751000000 0.0650214 -0.2423185 0.9349786 0.2423185 0.9349786 0.2423185 0.0650214 -0.2423185
772000000 0.0614869 -0.2358175 0.9385131 0.2358175 0.9385131 0.2358175 0.0614869 -0.2358175
793000000 0.0582083 -0.2295712 0.9417917 0.2295712 0.9417917 0.2295712 0.0582083 -0.2295712
814000000 0.0551624 -0.2235659 0.9448376 0.2235659 0.9448376 0.2235659 0.0551624 -0.2235659
835000000 0.0523285 -0.2177885 0.9476715 0.2177885 0.9476715 0.2177885 0.0523285 -0.2177885
856000000 0.0496879 -0.2122269 0.9503121 0.2122269 0.9503121 0.2122269 0.0496879 -0.2122269
877000000 0.0472242 -0.2068694 0.9527758 0.2068694 0.9527758 0.2068694 0.0472242 -0.2068694
898000000 0.0449224 -0.2017052 0.9550776 0.2017052 0.9550776 0.2017052 0.0449224 -0.2017052
919000000 0.0427692 -0.1967241 0.9572308 0.1967241 0.9572308 0.1967241 0.0427692 -0.1967241
940000000 0.0407526 -0.1919164 0.9592474 0.1919164 0.9592474 0.1919164 0.0407526 -0.1919164
961000000 0.0388616 -0.1872732 0.9611384 0.1872732 0.9611384 0.1872732 0.0388616 -0.1872732
982000000 0.0370864 -0.1827860 0.9629136 0.1827860 0.9629136 0.1827860 0.0370864 -0.1827860
1003000000 0.0354183 -0.1784468 0.9645817 0.1784468 0.9645817 0.1784468 0.0354183 -0.1784468
1024000000 0.0338490 -0.1742482 0.9661510 0.1742482 0.9661510 0.1742482 0.0338490 -0.1742482
1045000000 0.0323714 -0.1701832 0.9676286 0.1701832 0.9676286 0.1701832 0.0323714 -0.1701832
1066000000 0.0309786 -0.1662451 0.9690214 0.1662451 0.9690214 0.1662451 0.0309786 -0.1662451
1087000000 0.0296647 -0.1624279 0.9703353 0.1624279 0.9703353 0.1624279 0.0296647 -0.1624279
1108000000 0.0284241 -0.1587257 0.9715759 0.1587257 0.9715759 0.1587257 0.0284241 -0.1587257
1129000000 0.0272517 -0.1551330 0.9727483 0.1551330 0.9727483 0.1551330 0.0272517 -0.1551330
1150000000 0.0261429 -0.1516447 0.9738571 0.1516447 0.9738571 0.1516447 0.0261429 -0.1516447
1171000000 0.0250934 -0.1482559 0.9749066 0.1482559 0.9749066 0.1482559 0.0250934 -0.1482559
1192000000 0.0240994 -0.1449620 0.9759006 0.1449620 0.9759006 0.1449620 0.0240994 -0.1449620
1213000000 0.0231571 -0.1417588 0.9768429 0.1417588 0.9768429 0.1417588 0.0231571 -0.1417588
1234000000 0.0222634 -0.1386422 0.9777366 0.1386422 0.9777366 0.1386422 0.0222634 -0.1386422
1255000000 0.0214151 -0.1356083 0.9785849 0.1356083 0.9785849 0.1356083 0.0214151 -0.1356083
1276000000 0.0206095 -0.1326536 0.9793905 0.1326536 0.9793905 0.1326536 0.0206095 -0.1326536
1297000000 0.0198439 -0.1297746 0.9801561 0.1297746 0.9801561 0.1297746 0.0198439 -0.1297746
1318000000 0.0191159 -0.1269681 0.9808841 0.1269681 0.9808841 0.1269681 0.0191159 -0.1269681
1339000000 0.0184234 -0.1242310 0.9815766 0.1242310 0.9815766 0.1242310 0.0184234 -0.1242310
1360000000 0.0177642 -0.1215604 0.9822358 0.1215604 0.9822358 0.1215604 0.0177642 -0.1215604
1381000000 0.0171364 -0.1189537 0.9828636 0.1189537 0.9828636 0.1189537 0.0171364 -0.1189537
1402000000 0.0165383 -0.1164081 0.9834617 0.1164081 0.9834617 0.1164081 0.0165383 -0.1164081
1423000000 0.0159681 -0.1139213 0.9840319 0.1139213 0.9840319 0.1139213 0.0159681 -0.1139213
1444000000 0.0154244 -0.1114909 0.9845756 0.1114909 0.9845756 0.1114909 0.0154244 -0.1114909
1465000000 0.0149057 -0.1091146 0.9850943 0.1091146 0.9850943 0.1091146 0.0149057 -0.1091146
1486000000 0.0144107 -0.1067905 0.9855893 0.1067905 0.9855893 0.1067905 0.0144107 -0.1067905
1507000000 0.0139381 -0.1045164 0.9860619 0.1045164 0.9860619 0.1045164 0.0139381 -0.1045164
1528000000 0.0134867 -0.1022905 0.9865133 0.1022905 0.9865133 0.1022905 0.0134867 -0.1022905
1549000000 0.0130554 -0.1001110 0.9869446 0.1001110 0.9869446 0.1001110 0.0130554 -0.1001110
1570000000 0.0126433 -0.0979761 0.9873567 0.0979761 0.9873567 0.0979761 0.0126433 -0.0979761
1591000000 0.0122493 -0.0958843 0.9877507 0.0958843 0.9877507 0.0958843 0.0122493 -0.0958843
1612000000 0.0118726 -0.0938338 0.9881274 0.0938338 0.9881274 0.0938338 0.0118726 -0.0938338
1633000000 0.0115123 -0.0918234 0.9884877 0.0918234 0.9884877 0.0918234 0.0115123 -0.0918234
1654000000 0.0111677 -0.0898515 0.9888323 0.0898515 0.9888323 0.0898515 0.0111677 -0.0898515
1675000000 0.0108379 -0.0879167 0.9891621 0.0879167 0.9891621 0.0879167 0.0108379 -0.0879167
1696000000 0.0105223 -0.0860179 0.9894777 0.0860179 0.9894777 0.0860179 0.0105223 -0.0860179
1717000000 0.0102201 -0.0841536 0.9897799 0.0841536 0.9897799 0.0841536 0.0102201 -0.0841536
1738000000 0.0099309 -0.0823229 0.9900691 0.0823229 0.9900691 0.0823229 0.0099309 -0.0823229
1759000000 0.0096540 -0.0805245 0.9903460 0.0805245 0.9903460 0.0805245 0.0096540 -0.0805245
1780000000 0.0093888 -0.0787573 0.9906112 0.0787573 0.9906112 0.0787573 0.0093888 -0.0787573
1801000000 0.0091349 -0.0770204 0.9908651 0.0770204 0.9908651 0.0770204 0.0091349 -0.0770204
1822000000 0.0088917 -0.0753127 0.9911083 0.0753127 0.9911083 0.0753127 0.0088917 -0.0753127
1843000000 0.0086587 -0.0736333 0.9913413 0.0736333 0.9913413 0.0736333 0.0086587 -0.0736333
1864000000 0.0084356 -0.0719813 0.9915644 0.0719813 0.9915644 0.0719813 0.0084356 -0.0719813
1885000000 0.0082220 -0.0703557 0.9917780 0.0703557 0.9917780 0.0703557 0.0082220 -0.0703557
1906000000 0.0080173 -0.0687559 0.9919827 0.0687559 0.9919827 0.0687559 0.0080173 -0.0687559
1927000000 0.0078213 -0.0671809 0.9921787 0.0671809 0.9921787 0.0671809 0.0078213 -0.0671809
1948000000 0.0076335 -0.0656299 0.9923665 0.0656299 0.9923665 0.0656299 0.0076335 -0.0656299
1969000000 0.0074537 -0.0641024 0.9925463 0.0641024 0.9925463 0.0641024 0.0074537 -0.0641024
1990000000 0.0072816 -0.0625975 0.9927184 0.0625975 0.9927184 0.0625975 0.0072816 -0.0625975
2011000000 0.0071168 -0.0611145 0.9928832 0.0611145 0.9928832 0.0611145 0.0071168 -0.0611145
2032000000 0.0069590 -0.0596529 0.9930410 0.0596529 0.9930410 0.0596529 0.0069590 -0.0596529
2053000000 0.0068081 -0.0582119 0.9931919 0.0582119 0.9931919 0.0582119 0.0068081 -0.0582119
2074000000 0.0066636 -0.0567910 0.9933364 0.0567910 0.9933364 0.0567910 0.0066636 -0.0567910
2095000000 0.0065254 -0.0553896 0.9934746 0.0553896 0.9934746 0.0553896 0.0065254 -0.0553896
2116000000 0.0063933 -0.0540071 0.9936067 0.0540071 0.9936067 0.0540071 0.0063933 -0.0540071
2137000000 0.0062669 -0.0526430 0.9937331 0.0526430 0.9937331 0.0526430 0.0062669 -0.0526430
2158000000 0.0061462 -0.0512967 0.9938538 0.0512967 0.9938538 0.0512967 0.0061462 -0.0512967
2179000000 0.0060308 -0.0499678 0.9939692 0.0499678 0.9939692 0.0499678 0.0060308 -0.0499678
2200000000 0.0059207 -0.0486558 0.9940793 0.0486558 0.9940793 0.0486558 0.0059207 -0.0486558
2221000000 0.0058156 -0.0473601 0.9941844 0.0473601 0.9941844 0.0473601 0.0058156 -0.0473601
2242000000 0.0057153 -0.0460804 0.9942847 0.0460804 0.9942847 0.0460804 0.0057153 -0.0460804
2263000000 0.0056197 -0.0448162 0.9943803 0.0448162 0.9943803 0.0448162 0.0056197 -0.0448162
2284000000 0.0055286 -0.0435671 0.9944714 0.0435671 0.9944714 0.0435671 0.0055286 -0.0435671
2305000000 0.0054419 -0.0423327 0.9945581 0.0423327 0.9945581 0.0423327 0.0054419 -0.0423327
2326000000 0.0053594 -0.0411126 0.9946406 0.0411126 0.9946406 0.0411126 0.0053594 -0.0411126
2347000000 0.0052810 -0.0399064 0.9947190 0.0399064 0.9947190 0.0399064 0.0052810 -0.0399064
2368000000 0.0052065 -0.0387137 0.9947935 0.0387137 0.9947935 0.0387137 0.0052065 -0.0387137
2389000000 0.0051358 -0.0375342 0.9948642 0.0375342 0.9948642 0.0375342 0.0051358 -0.0375342
2410000000 0.0050689 -0.0363676 0.9949311 0.0363676 0.9949311 0.0363676 0.0050689 -0.0363676
2431000000 0.0050055 -0.0352135 0.9949945 0.0352135 0.9949945 0.0352135 0.0050055 -0.0352135
2452000000 0.0049456 -0.0340715 0.9950544 0.0340715 0.9950544 0.0340715 0.0049456 -0.0340715
2473000000 0.0048890 -0.0329415 0.9951110 0.0329415 0.9951110 0.0329415 0.0048890 -0.0329415
2494000000 0.0048358 -0.0318230 0.9951642 0.0318230 0.9951642 0.0318230 0.0048358 -0.0318230
2515000000 0.0047856 -0.0307158 0.9952144 0.0307158 0.9952144 0.0307158 0.0047856 -0.0307158
2536000000 0.0047386 -0.0296197 0.9952614 0.0296197 0.9952614 0.0296197 0.0047386 -0.0296197
2557000000 0.0046945 -0.0285342 0.9953055 0.0285342 0.9953055 0.0285342 0.0046945 -0.0285342
2578000000 0.0046534 -0.0274592 0.9953466 0.0274592 0.9953466 0.0274592 0.0046534 -0.0274592
2599000000 0.0046150 -0.0263945 0.9953850 0.0263945 0.9953850 0.0263945 0.0046150 -0.0263945
2620000000 0.0045794 -0.0253396 0.9954206 0.0253396 0.9954206 0.0253396 0.0045794 -0.0253396
2641000000 0.0045464 -0.0242945 0.9954536 0.0242945 0.9954536 0.0242945 0.0045464 -0.0242945
2662000000 0.0045160 -0.0232589 0.9954840 0.0232589 0.9954840 0.0232589 0.0045160 -0.0232589
2683000000 0.0044881 -0.0222325 0.9955119 0.0222325 0.9955119 0.0222325 0.0044881 -0.0222325
2704000000 0.0044627 -0.0212152 0.9955373 0.0212152 0.9955373 0.0212152 0.0044627 -0.0212152
2725000000 0.0044396 -0.0202066 0.9955604 0.0202066 0.9955604 0.0202066 0.0044396 -0.0202066
2746000000 0.0044189 -0.0192067 0.9955811 0.0192067 0.9955811 0.0192067 0.0044189 -0.0192067
2767000000 0.0044004 -0.0182152 0.9955996 0.0182152 0.9955996 0.0182152 0.0044004 -0.0182152
2788000000 0.0043842 -0.0172319 0.9956158 0.0172319 0.9956158 0.0172319 0.0043842 -0.0172319
2809000000 0.0043700 -0.0162565 0.9956300 0.0162565 0.9956300 0.0162565 0.0043700 -0.0162565
2830000000 0.0043580 -0.0152890 0.9956420 0.0152890 0.9956420 0.0152890 0.0043580 -0.0152890
2851000000 0.0043481 -0.0143292 0.9956519 0.0143292 0.9956519 0.0143292 0.0043481 -0.0143292
2872000000 0.0043401 -0.0133768 0.9956599 0.0133768 0.9956599 0.0133768 0.0043401 -0.0133768
2893000000 0.0043341 -0.0124317 0.9956659 0.0124317 0.9956659 0.0124317 0.0043341 -0.0124317
2914000000 0.0043300 -0.0114937 0.9956700 0.0114937 0.9956700 0.0114937 0.0043300 -0.0114937
2935000000 0.0043277 -0.0105627 0.9956723 0.0105627 0.9956723 0.0105627 0.0043277 -0.0105627
2956000000 0.0043273 -0.0096385 0.9956727 0.0096385 0.9956727 0.0096385 0.0043273 -0.0096385
2977000000 0.0043287 -0.0087209 0.9956713 0.0087209 0.9956713 0.0087209 0.0043287 -0.0087209
2998000000 0.0043318 -0.0078098 0.9956682 0.0078098 0.9956682 0.0078098 0.0043318 -0.0078098
3019000000 0.0043366 -0.0069051 0.9956634 0.0069051 0.9956634 0.0069051 0.0043366 -0.0069051
3040000000 0.0043431 -0.0060066 0.9956569 0.0060066 0.9956569 0.0060066 0.0043431 -0.0060066
3061000000 0.0043513 -0.0051141 0.9956487 0.0051141 0.9956487 0.0051141 0.0043513 -0.0051141
3082000000 0.0043610 -0.0042276 0.9956390 0.0042276 0.9956390 0.0042276 0.0043610 -0.0042276
3103000000 0.0043724 -0.0033468 0.9956276 0.0033468 0.9956276 0.0033468 0.0043724 -0.0033468
3124000000 0.0043852 -0.0024718 0.9956148 0.0024718 0.9956148 0.0024718 0.0043852 -0.0024718
3145000000 0.0043996 -0.0016022 0.9956004 0.0016022 0.9956004 0.0016022 0.0043996 -0.0016022
3166000000 0.0044155 -0.0007381 0.9955845 0.0007381 0.9955845 0.0007381 0.0044155 -0.0007381
3187000000 0.0044329 0.0001207 0.9955671 -0.0001207 0.9955671 -0.0001207 0.0044329 0.0001207
3208000000 0.0044517 0.0009744 0.9955483 -0.0009744 0.9955483 -0.0009744 0.0044517 0.0009744
3229000000 0.0044719 0.0018229 0.9955281 -0.0018229 0.9955281 -0.0018229 0.0044719 0.0018229
3250000000 0.0044936 0.0026666 0.9955064 -0.0026666 0.9955064 -0.0026666 0.0044936 0.0026666
3271000000 0.0045166 0.0035054 0.9954834 -0.0035054 0.9954834 -0.0035054 0.0045166 0.0035054
3292000000 0.0045409 0.0043394 0.9954591 -0.0043394 0.9954591 -0.0043394 0.0045409 0.0043394
3313000000 0.0045666 0.0051689 0.9954334 -0.0051689 0.9954334 -0.0051689 0.0045666 0.0051689
3334000000 0.0045936 0.0059938 0.9954064 -0.0059938 0.9954064 -0.0059938 0.0045936 0.0059938
3355000000 0.0046219 0.0068143 0.9953781 -0.0068143 0.9953781 -0.0068143 0.0046219 0.0068143
3376000000 0.0046515 0.0076304 0.9953485 -0.0076304 0.9953485 -0.0076304 0.0046515 0.0076304
3397000000 0.0046823 0.0084424 0.9953177 -0.0084424 0.9953177 -0.0084424 0.0046823 0.0084424
3418000000 0.0047144 0.0092502 0.9952856 -0.0092502 0.9952856 -0.0092502 0.0047144 0.0092502
3439000000 0.0047477 0.0100540 0.9952523 -0.0100540 0.9952523 -0.0100540 0.0047477 0.0100540
3460000000 0.0047822 0.0108538 0.9952178 -0.0108538 0.9952178 -0.0108538 0.0047822 0.0108538
3481000000 0.0048179 0.0116497 0.9951821 -0.0116497 0.9951821 -0.0116497 0.0048179 0.0116497
3502000000 0.0048548 0.0124419 0.9951452 -0.0124419 0.9951452 -0.0124419 0.0048548 0.0124419
3523000000 0.0048929 0.0132304 0.9951071 -0.0132304 0.9951071 -0.0132304 0.0048929 0.0132304
3544000000 0.0049321 0.0140153 0.9950679 -0.0140153 0.9950679 -0.0140153 0.0049321 0.0140153
3565000000 0.0049726 0.0147966 0.9950274 -0.0147966 0.9950274 -0.0147966 0.0049726 0.0147966
3586000000 0.0050141 0.0155745 0.9949859 -0.0155745 0.9949859 -0.0155745 0.0050141 0.0155745
3607000000 0.0050568 0.0163491 0.9949432 -0.0163491 0.9949432 -0.0163491 0.0050568 0.0163491
3628000000 0.0051006 0.0171204 0.9948994 -0.0171204 0.9948994 -0.0171204 0.0051006 0.0171204
3649000000 0.0051455 0.0178884 0.9948545 -0.0178884 0.9948545 -0.0178884 0.0051455 0.0178884
3670000000 0.0051916 0.0186533 0.9948084 -0.0186533 0.9948084 -0.0186533 0.0051916 0.0186533
3691000000 0.0052387 0.0194152 0.9947613 -0.0194152 0.9947613 -0.0194152 0.0052387 0.0194152
3712000000 0.0052869 0.0201740 0.9947131 -0.0201740 0.9947131 -0.0201740 0.0052869 0.0201740
3733000000 0.0053363 0.0209300 0.9946637 -0.0209300 0.9946637 -0.0209300 0.0053363 0.0209300
3754000000 0.0053867 0.0216830 0.9946133 -0.0216830 0.9946133 -0.0216830 0.0053867 0.0216830
3775000000 0.0054382 0.0224333 0.9945618 -0.0224333 0.9945618 -0.0224333 0.0054382 0.0224333
3796000000 0.0054908 0.0231809 0.9945092 -0.0231809 0.9945092 -0.0231809 0.0054908 0.0231809
3817000000 0.0055444 0.0239259 0.9944556 -0.0239259 0.9944556 -0.0239259 0.0055444 0.0239259
3838000000 0.0055991 0.0246682 0.9944009 -0.0246682 0.9944009 -0.0246682 0.0055991 0.0246682
3859000000 0.0056549 0.0254081 0.9943451 -0.0254081 0.9943451 -0.0254081 0.0056549 0.0254081
3880000000 0.0057117 0.0261454 0.9942883 -0.0261454 0.9942883 -0.0261454 0.0057117 0.0261454
3901000000 0.0057697 0.0268804 0.9942303 -0.0268804 0.9942303 -0.0268804 0.0057697 0.0268804
3922000000 0.0058286 0.0276131 0.9941714 -0.0276131 0.9941714 -0.0276131 0.0058286 0.0276131
3943000000 0.0058887 0.0283434 0.9941113 -0.0283434 0.9941113 -0.0283434 0.0058887 0.0283434
3964000000 0.0059498 0.0290716 0.9940502 -0.0290716 0.9940502 -0.0290716 0.0059498 0.0290716
3985000000 0.0060120 0.0297976 0.9939880 -0.0297976 0.9939880 -0.0297976 0.0060120 0.0297976
4006000000 0.0060752 0.0305215 0.9939248 -0.0305215 0.9939248 -0.0305215 0.0060752 0.0305215
4027000000 0.0061395 0.0312434 0.9938605 -0.0312434 0.9938605 -0.0312434 0.0061395 0.0312434
4048000000 0.0062049 0.0319633 0.9937951 -0.0319633 0.9937951 -0.0319633 0.0062049 0.0319633
4069000000 0.0062714 0.0326813 0.9937286 -0.0326813 0.9937286 -0.0326813 0.0062714 0.0326813
4090000000 0.0063389 0.0333974 0.9936611 -0.0333974 0.9936611 -0.0333974 0.0063389 0.0333974
4111000000 0.0064075 0.0341116 0.9935925 -0.0341116 0.9935925 -0.0341116 0.0064075 0.0341116
4132000000 0.0064772 0.0348241 0.9935228 -0.0348241 0.9935228 -0.0348241 0.0064772 0.0348241
4153000000 0.0065481 0.0355350 0.9934519 -0.0355350 0.9934519 -0.0355350 0.0065481 0.0355350
4174000000 0.0066200 0.0362441 0.9933800 -0.0362441 0.9933800 -0.0362441 0.0066200 0.0362441
4195000000 0.0066930 0.0369516 0.9933070 -0.0369516 0.9933070 -0.0369516 0.0066930 0.0369516
4216000000 0.0067671 0.0376576 0.9932329 -0.0376576 0.9932329 -0.0376576 0.0067671 0.0376576
4237000000 0.0068424 0.0383621 0.9931576 -0.0383621 0.9931576 -0.0383621 0.0068424 0.0383621
4258000000 0.0069188 0.0390652 0.9930812 -0.0390652 0.9930812 -0.0390652 0.0069188 0.0390652
4279000000 0.0069964 0.0397668 0.9930036 -0.0397668 0.9930036 -0.0397668 0.0069964 0.0397668
4300000000 0.0070751 0.0404671 0.9929249 -0.0404671 0.9929249 -0.0404671 0.0070751 0.0404671
4321000000 0.0071550 0.0411661 0.9928450 -0.0411661 0.9928450 -0.0411661 0.0071550 0.0411661
4342000000 0.0072361 0.0418638 0.9927639 -0.0418638 0.9927639 -0.0418638 0.0072361 0.0418638
4363000000 0.0073183 0.0425603 0.9926817 -0.0425603 0.9926817 -0.0425603 0.0073183 0.0425603
4384000000 0.0074018 0.0432557 0.9925982 -0.0432557 0.9925982 -0.0432557 0.0074018 0.0432557
4405000000 0.0074865 0.0439500 0.9925135 -0.0439500 0.9925135 -0.0439500 0.0074865 0.0439500
4426000000 0.0075725 0.0446432 0.9924275 -0.0446432 0.9924275 -0.0446432 0.0075725 0.0446432
4447000000 0.0076597 0.0453353 0.9923403 -0.0453353 0.9923403 -0.0453353 0.0076597 0.0453353
4468000000 0.0077482 0.0460266 0.9922518 -0.0460266 0.9922518 -0.0460266 0.0077482 0.0460266
4489000000 0.0078379 0.0467169 0.9921621 -0.0467169 0.9921621 -0.0467169 0.0078379 0.0467169
4510000000 0.0079291 0.0474063 0.9920709 -0.0474063 0.9920709 -0.0474063 0.0079291 0.0474063
