!Murata Part Number: GRM1554C2AR20BA01
!These Parameters are Measured in Series Mode Connection
!Data Generated on Mar 30, 2021
!       o--ll--o
!Port1            Port2
!       o------o
!Operation Temp=25[degC], DC Bias Voltage=0[V]
!Freq. Start=100[MHz] Stop=20[GHz] 401[Steps]
# Hz S RI R 50
!Freq.(Hz) S11(Real) S11(Imag) S21(Real) S21(Imag) S12(Real) S12(Imag) S22(Real) S22(Imag)
100000000 0.9998406 -0.0125647 0.0001594 0.0125647 0.0001594 0.0125647 0.9998406 -0.0125647
149750000 0.9996427 -0.0188126 0.0003573 0.0188126 0.0003573 0.0188126 0.9996427 -0.0188126
199500000 0.9993659 -0.0250568 0.0006341 0.0250568 0.0006341 0.0250568 0.9993659 -0.0250568
249250000 0.9990105 -0.0312962 0.0009895 0.0312962 0.0009895 0.0312962 0.9990105 -0.0312962
299000000 0.9985764 -0.0375294 0.0014236 0.0375294 0.0014236 0.0375294 0.9985764 -0.0375294
348750000 0.9980639 -0.0437554 0.0019361 0.0437554 0.0019361 0.0437554 0.9980639 -0.0437554
398500000 0.9974731 -0.0499729 0.0025269 0.0499729 0.0025269 0.0499729 0.9974731 -0.0499729
448250000 0.9968042 -0.0561806 0.0031958 0.0561806 0.0031958 0.0561806 0.9968042 -0.0561806
498000000 0.9960573 -0.0623775 0.0039427 0.0623775 0.0039427 0.0623775 0.9960573 -0.0623775
547750000 0.9952327 -0.0685623 0.0047673 0.0685623 0.0047673 0.0685623 0.9952327 -0.0685623
597500000 0.9943306 -0.0747338 0.0056694 0.0747338 0.0056694 0.0747338 0.9943306 -0.0747338
647250000 0.9933514 -0.0808908 0.0066486 0.0808908 0.0066486 0.0808908 0.9933514 -0.0808908
697000000 0.9922952 -0.0870322 0.0077048 0.0870322 0.0077048 0.0870322 0.9922952 -0.0870322
746750000 0.9911625 -0.0931569 0.0088375 0.0931569 0.0088375 0.0931569 0.9911625 -0.0931569
796500000 0.9899535 -0.0992635 0.0100465 0.0992635 0.0100465 0.0992635 0.9899535 -0.0992635
846250000 0.9886686 -0.1053511 0.0113314 0.1053511 0.0113314 0.1053511 0.9886686 -0.1053511
896000000 0.9873082 -0.1114185 0.0126918 0.1114185 0.0126918 0.1114185 0.9873082 -0.1114185
945750000 0.9858727 -0.1174644 0.0141273 0.1174644 0.0141273 0.1174644 0.9858727 -0.1174644
995500000 0.9843625 -0.1234879 0.0156375 0.1234879 0.0156375 0.1234879 0.9843625 -0.1234879
1045250000 0.9827781 -0.1294877 0.0172219 0.1294877 0.0172219 0.1294877 0.9827781 -0.1294877
1095000000 0.9811199 -0.1354629 0.0188801 0.1354629 0.0188801 0.1354629 0.9811199 -0.1354629
1144750000 0.9793883 -0.1414122 0.0206117 0.1414122 0.0206117 0.1414122 0.9793883 -0.1414122
1194500000 0.9775840 -0.1473347 0.0224160 0.1473347 0.0224160 0.1473347 0.9775840 -0.1473347
1244250000 0.9757074 -0.1532293 0.0242926 0.1532293 0.0242926 0.1532293 0.9757074 -0.1532293
1294000000 0.9737591 -0.1590948 0.0262409 0.1590948 0.0262409 0.1590948 0.9737591 -0.1590948
1343750000 0.9717396 -0.1649303 0.0282604 0.1649303 0.0282604 0.1649303 0.9717396 -0.1649303
1393500000 0.9696496 -0.1707348 0.0303504 0.1707348 0.0303504 0.1707348 0.9696496 -0.1707348
1443250000 0.9674895 -0.1765072 0.0325105 0.1765072 0.0325105 0.1765072 0.9674895 -0.1765072
1493000000 0.9652601 -0.1822465 0.0347399 0.1822465 0.0347399 0.1822465 0.9652601 -0.1822465
1542750000 0.9629619 -0.1879518 0.0370381 0.1879518 0.0370381 0.1879518 0.9629619 -0.1879518
1592500000 0.9605957 -0.1936220 0.0394043 0.1936220 0.0394043 0.1936220 0.9605957 -0.1936220
1642250000 0.9581620 -0.1992563 0.0418380 0.1992563 0.0418380 0.1992563 0.9581620 -0.1992563
1692000000 0.9556616 -0.2048536 0.0443384 0.2048536 0.0443384 0.2048536 0.9556616 -0.2048536
1741750000 0.9530952 -0.2104131 0.0469048 0.2104131 0.0469048 0.2104131 0.9530952 -0.2104131
1791500000 0.9504634 -0.2159339 0.0495366 0.2159339 0.0495366 0.2159339 0.9504634 -0.2159339
1841250000 0.9477671 -0.2214150 0.0522329 0.2214150 0.0522329 0.2214150 0.9477671 -0.2214150
1891000000 0.9450069 -0.2268556 0.0549931 0.2268556 0.0549931 0.2268556 0.9450069 -0.2268556
1940750000 0.9421836 -0.2322548 0.0578164 0.2322548 0.0578164 0.2322548 0.9421836 -0.2322548
1990500000 0.9392979 -0.2376118 0.0607021 0.2376118 0.0607021 0.2376118 0.9392979 -0.2376118
2040250000 0.9363508 -0.2429258 0.0636492 0.2429258 0.0636492 0.2429258 0.9363508 -0.2429258
2090000000 0.9333429 -0.2481960 0.0666571 0.2481960 0.0666571 0.2481960 0.9333429 -0.2481960
2139750000 0.9302750 -0.2534216 0.0697250 0.2534216 0.0697250 0.2534216 0.9302750 -0.2534216
2189500000 0.9271481 -0.2586017 0.0728519 0.2586017 0.0728519 0.2586017 0.9271481 -0.2586017
2239250000 0.9239628 -0.2637358 0.0760372 0.2637358 0.0760372 0.2637358 0.9239628 -0.2637358
2289000000 0.9207202 -0.2688229 0.0792798 0.2688229 0.0792798 0.2688229 0.9207202 -0.2688229
2338750000 0.9174209 -0.2738625 0.0825791 0.2738625 0.0825791 0.2738625 0.9174209 -0.2738625
2388500000 0.9140659 -0.2788538 0.0859341 0.2788538 0.0859341 0.2788538 0.9140659 -0.2788538
2438250000 0.9106560 -0.2837961 0.0893440 0.2837961 0.0893440 0.2837961 0.9106560 -0.2837961
2488000000 0.9071922 -0.2886889 0.0928078 0.2886889 0.0928078 0.2886889 0.9071922 -0.2886889
2537750000 0.9036753 -0.2935314 0.0963247 0.2935314 0.0963247 0.2935314 0.9036753 -0.2935314
2587500000 0.9001062 -0.2983230 0.0998938 0.2983230 0.0998938 0.2983230 0.9001062 -0.2983230
2637250000 0.8964858 -0.3030632 0.1035142 0.3030632 0.1035142 0.3030632 0.8964858 -0.3030632
2687000000 0.8928150 -0.3077513 0.1071850 0.3077513 0.1071850 0.3077513 0.8928150 -0.3077513
2736750000 0.8890947 -0.3123869 0.1109053 0.3123869 0.1109053 0.3123869 0.8890947 -0.3123869
2786500000 0.8853259 -0.3169693 0.1146741 0.3169693 0.1146741 0.3169693 0.8853259 -0.3169693
2836250000 0.8815095 -0.3214980 0.1184905 0.3214980 0.1184905 0.3214980 0.8815095 -0.3214980
2886000000 0.8776463 -0.3259726 0.1223537 0.3259726 0.1223537 0.3259726 0.8776463 -0.3259726
2935750000 0.8737375 -0.3303925 0.1262625 0.3303925 0.1262625 0.3303925 0.8737375 -0.3303925
2985500000 0.8697838 -0.3347573 0.1302162 0.3347573 0.1302162 0.3347573 0.8697838 -0.3347573
3035250000 0.8657862 -0.3390665 0.1342138 0.3390665 0.1342138 0.3390665 0.8657862 -0.3390665
3085000000 0.8617458 -0.3433198 0.1382542 0.3433198 0.1382542 0.3433198 0.8617458 -0.3433198
3134750000 0.8576633 -0.3475166 0.1423367 0.3475166 0.1423367 0.3475166 0.8576633 -0.3475166
3184500000 0.8535399 -0.3516567 0.1464601 0.3516567 0.1464601 0.3516567 0.8535399 -0.3516567
3234250000 0.8493764 -0.3557396 0.1506236 0.3557396 0.1506236 0.3557396 0.8493764 -0.3557396
3284000000 0.8451737 -0.3597651 0.1548263 0.3597651 0.1548263 0.3597651 0.8451737 -0.3597651
3333750000 0.8409330 -0.3637327 0.1590670 0.3637327 0.1590670 0.3637327 0.8409330 -0.3637327
3383500000 0.8366550 -0.3676422 0.1633450 0.3676422 0.1633450 0.3676422 0.8366550 -0.3676422
3433250000 0.8323407 -0.3714932 0.1676593 0.3714932 0.1676593 0.3714932 0.8323407 -0.3714932
3483000000 0.8279912 -0.3752856 0.1720088 0.3752856 0.1720088 0.3752856 0.8279912 -0.3752856
3532750000 0.8236074 -0.3790190 0.1763926 0.3790190 0.1763926 0.3790190 0.8236074 -0.3790190
3582500000 0.8191902 -0.3826931 0.1808098 0.3826931 0.1808098 0.3826931 0.8191902 -0.3826931
3632250000 0.8147405 -0.3863079 0.1852595 0.3863079 0.1852595 0.3863079 0.8147405 -0.3863079
3682000000 0.8102594 -0.3898630 0.1897406 0.3898630 0.1897406 0.3898630 0.8102594 -0.3898630
3731750000 0.8057478 -0.3933583 0.1942522 0.3933583 0.1942522 0.3933583 0.8057478 -0.3933583
3781500000 0.8012066 -0.3967936 0.1987934 0.3967936 0.1987934 0.3967936 0.8012066 -0.3967936
3831250000 0.7966367 -0.4001689 0.2033633 0.4001689 0.2033633 0.4001689 0.7966367 -0.4001689
3881000000 0.7920392 -0.4034838 0.2079608 0.4034838 0.2079608 0.4034838 0.7920392 -0.4034838
3930750000 0.7874149 -0.4067383 0.2125851 0.4067383 0.2125851 0.4067383 0.7874149 -0.4067383
3980500000 0.7827648 -0.4099324 0.2172352 0.4099324 0.2172352 0.4099324 0.7827648 -0.4099324
4030250000 0.7780898 -0.4130659 0.2219102 0.4130659 0.2219102 0.4130659 0.7780898 -0.4130659
4080000000 0.7733908 -0.4161388 0.2266092 0.4161388 0.2266092 0.4161388 0.7733908 -0.4161388
4129750000 0.7686687 -0.4191510 0.2313313 0.4191510 0.2313313 0.4191510 0.7686687 -0.4191510
4179500000 0.7639245 -0.4221025 0.2360755 0.4221025 0.2360755 0.4221025 0.7639245 -0.4221025
4229250000 0.7591591 -0.4249932 0.2408409 0.4249932 0.2408409 0.4249932 0.7591591 -0.4249932
4279000000 0.7543733 -0.4278232 0.2456267 0.4278232 0.2456267 0.4278232 0.7543733 -0.4278232
4328750000 0.7495681 -0.4305925 0.2504319 0.4305925 0.2504319 0.4305925 0.7495681 -0.4305925
4378500000 0.7447444 -0.4333010 0.2552556 0.4333010 0.2552556 0.4333010 0.7447444 -0.4333010
4428250000 0.7399030 -0.4359489 0.2600970 0.4359489 0.2600970 0.4359489 0.7399030 -0.4359489
4478000000 0.7350448 -0.4385361 0.2649552 0.4385361 0.2649552 0.4385361 0.7350448 -0.4385361
4527750000 0.7301707 -0.4410628 0.2698293 0.4410628 0.2698293 0.4410628 0.7301707 -0.4410628
4577500000 0.7252815 -0.4435290 0.2747185 0.4435290 0.2747185 0.4435290 0.7252815 -0.4435290
4627250000 0.7203782 -0.4459349 0.2796218 0.4459349 0.2796218 0.4459349 0.7203782 -0.4459349
4677000000 0.7154615 -0.4482804 0.2845385 0.4482804 0.2845385 0.4482804 0.7154615 -0.4482804
4726750000 0.7105323 -0.4505658 0.2894677 0.4505658 0.2894677 0.4505658 0.7105323 -0.4505658
4776500000 0.7055914 -0.4527912 0.2944086 0.4527912 0.2944086 0.4527912 0.7055914 -0.4527912
4826250000 0.7006396 -0.4549568 0.2993604 0.4549568 0.2993604 0.4549568 0.7006396 -0.4549568
4876000000 0.6956779 -0.4570626 0.3043221 0.4570626 0.3043221 0.4570626 0.6956779 -0.4570626
4925750000 0.6907068 -0.4591089 0.3092932 0.4591089 0.3092932 0.4591089 0.6907068 -0.4591089
4975500000 0.6857274 -0.4610958 0.3142726 0.4610958 0.3142726 0.4610958 0.6857274 -0.4610958
5025250000 0.6807403 -0.4630235 0.3192597 0.4630235 0.3192597 0.4630235 0.6807403 -0.4630235
5075000000 0.6757464 -0.4648922 0.3242536 0.4648922 0.3242536 0.4648922 0.6757464 -0.4648922
5124750000 0.6707464 -0.4667022 0.3292536 0.4667022 0.3292536 0.4667022 0.6707464 -0.4667022
5174500000 0.6657410 -0.4684537 0.3342590 0.4684537 0.3342590 0.4684537 0.6657410 -0.4684537
5224250000 0.6607311 -0.4701468 0.3392689 0.4701468 0.3392689 0.4701468 0.6607311 -0.4701468
5274000000 0.6557173 -0.4717819 0.3442827 0.4717819 0.3442827 0.4717819 0.6557173 -0.4717819
5323750000 0.6507005 -0.4733592 0.3492995 0.4733592 0.3492995 0.4733592 0.6507005 -0.4733592
5373500000 0.6456813 -0.4748790 0.3543187 0.4748790 0.3543187 0.4748790 0.6456813 -0.4748790
5423250000 0.6406604 -0.4763414 0.3593396 0.4763414 0.3593396 0.4763414 0.6406604 -0.4763414
5473000000 0.6356386 -0.4777469 0.3643614 0.4777469 0.3643614 0.4777469 0.6356386 -0.4777469
5522750000 0.6306165 -0.4790957 0.3693835 0.4790957 0.3693835 0.4790957 0.6306165 -0.4790957
5572500000 0.6255949 -0.4803881 0.3744051 0.4803881 0.3744051 0.4803881 0.6255949 -0.4803881
5622250000 0.6205743 -0.4816244 0.3794257 0.4816244 0.3794257 0.4816244 0.6205743 -0.4816244
5672000000 0.6155556 -0.4828048 0.3844444 0.4828048 0.3844444 0.4828048 0.6155556 -0.4828048
5721750000 0.6105393 -0.4839299 0.3894607 0.4839299 0.3894607 0.4839299 0.6105393 -0.4839299
5771500000 0.6055260 -0.4849997 0.3944740 0.4849997 0.3944740 0.4849997 0.6055260 -0.4849997
5821250000 0.6005165 -0.4860148 0.3994835 0.4860148 0.3994835 0.4860148 0.6005165 -0.4860148
5871000000 0.5955113 -0.4869754 0.4044887 0.4869754 0.4044887 0.4869754 0.5955113 -0.4869754
5920750000 0.5905111 -0.4878819 0.4094889 0.4878819 0.4094889 0.4878819 0.5905111 -0.4878819
5970500000 0.5855165 -0.4887346 0.4144835 0.4887346 0.4144835 0.4887346 0.5855165 -0.4887346
6020250000 0.5805280 -0.4895339 0.4194720 0.4895339 0.4194720 0.4895339 0.5805280 -0.4895339
6070000000 0.5755462 -0.4902801 0.4244538 0.4902801 0.4244538 0.4902801 0.5755462 -0.4902801
6119750000 0.5705718 -0.4909737 0.4294282 0.4909737 0.4294282 0.4909737 0.5705718 -0.4909737
6169500000 0.5656053 -0.4916149 0.4343947 0.4916149 0.4343947 0.4916149 0.5656053 -0.4916149
6219250000 0.5606472 -0.4922043 0.4393528 0.4922043 0.4393528 0.4922043 0.5606472 -0.4922043
6269000000 0.5556980 -0.4927421 0.4443020 0.4927421 0.4443020 0.4927421 0.5556980 -0.4927421
6318750000 0.5507584 -0.4932287 0.4492416 0.4932287 0.4492416 0.4932287 0.5507584 -0.4932287
6368500000 0.5458289 -0.4936646 0.4541711 0.4936646 0.4541711 0.4936646 0.5458289 -0.4936646
6418250000 0.5409099 -0.4940502 0.4590901 0.4940502 0.4590901 0.4940502 0.5409099 -0.4940502
6468000000 0.5360020 -0.4943858 0.4639980 0.4943858 0.4639980 0.4943858 0.5360020 -0.4943858
6517750000 0.5311057 -0.4946718 0.4688943 0.4946718 0.4688943 0.4946718 0.5311057 -0.4946718
6567500000 0.5262214 -0.4949087 0.4737786 0.4949087 0.4737786 0.4949087 0.5262214 -0.4949087
6617250000 0.5213496 -0.4950968 0.4786504 0.4950968 0.4786504 0.4950968 0.5213496 -0.4950968
6667000000 0.5164908 -0.4952367 0.4835092 0.4952367 0.4835092 0.4952367 0.5164908 -0.4952367
6716750000 0.5116455 -0.4953286 0.4883545 0.4953286 0.4883545 0.4953286 0.5116455 -0.4953286
6766500000 0.5068141 -0.4953730 0.4931859 0.4953730 0.4931859 0.4953730 0.5068141 -0.4953730
6816250000 0.5019970 -0.4953704 0.4980030 0.4953704 0.4980030 0.4953704 0.5019970 -0.4953704
6866000000 0.4971947 -0.4953211 0.5028053 0.4953211 0.5028053 0.4953211 0.4971947 -0.4953211
6915750000 0.4924075 -0.4952257 0.5075925 0.4952257 0.5075925 0.4952257 0.4924075 -0.4952257
6965500000 0.4876359 -0.4950844 0.5123641 0.4950844 0.5123641 0.4950844 0.4876359 -0.4950844
7015250000 0.4828804 -0.4948978 0.5171196 0.4948978 0.5171196 0.4948978 0.4828804 -0.4948978
7065000000 0.4781412 -0.4946662 0.5218588 0.4946662 0.5218588 0.4946662 0.4781412 -0.4946662
7114750000 0.4734187 -0.4943902 0.5265813 0.4943902 0.5265813 0.4943902 0.4734187 -0.4943902
7164500000 0.4687134 -0.4940700 0.5312866 0.4940700 0.5312866 0.4940700 0.4687134 -0.4940700
7214250000 0.4640256 -0.4937063 0.5359744 0.4937063 0.5359744 0.4937063 0.4640256 -0.4937063
7264000000 0.4593556 -0.4932994 0.5406444 0.4932994 0.5406444 0.4932994 0.4593556 -0.4932994
7313750000 0.4547039 -0.4928497 0.5452961 0.4928497 0.5452961 0.4928497 0.4547039 -0.4928497
7363500000 0.4500706 -0.4923576 0.5499294 0.4923576 0.5499294 0.4923576 0.4500706 -0.4923576
7413250000 0.4454563 -0.4918237 0.5545437 0.4918237 0.5545437 0.4918237 0.4454563 -0.4918237
7463000000 0.4408611 -0.4912483 0.5591389 0.4912483 0.5591389 0.4912483 0.4408611 -0.4912483
7512750000 0.4362854 -0.4906320 0.5637146 0.4906320 0.5637146 0.4906320 0.4362854 -0.4906320
7562500000 0.4317295 -0.4899750 0.5682705 0.4899750 0.5682705 0.4899750 0.4317295 -0.4899750
7612250000 0.4271937 -0.4892779 0.5728063 0.4892779 0.5728063 0.4892779 0.4271937 -0.4892779
7662000000 0.4226782 -0.4885411 0.5773218 0.4885411 0.5773218 0.4885411 0.4226782 -0.4885411
7711750000 0.4181835 -0.4877650 0.5818165 0.4877650 0.5818165 0.4877650 0.4181835 -0.4877650
7761500000 0.4137096 -0.4869500 0.5862904 0.4869500 0.5862904 0.4869500 0.4137096 -0.4869500
7811250000 0.4092569 -0.4860967 0.5907431 0.4860967 0.5907431 0.4860967 0.4092569 -0.4860967
7861000000 0.4048257 -0.4852054 0.5951743 0.4852054 0.5951743 0.4852054 0.4048257 -0.4852054
7910750000 0.4004162 -0.4842766 0.5995838 0.4842766 0.5995838 0.4842766 0.4004162 -0.4842766
7960500000 0.3960286 -0.4833106 0.6039714 0.4833106 0.6039714 0.4833106 0.3960286 -0.4833106
8010250000 0.3916632 -0.4823080 0.6083368 0.4823080 0.6083368 0.4823080 0.3916632 -0.4823080
8060000000 0.3873201 -0.4812691 0.6126799 0.4812691 0.6126799 0.4812691 0.3873201 -0.4812691
8109750000 0.3829997 -0.4801943 0.6170003 0.4801943 0.6170003 0.4801943 0.3829997 -0.4801943
8159500000 0.3787021 -0.4790842 0.6212979 0.4790842 0.6212979 0.4790842 0.3787021 -0.4790842
8209250000 0.3744275 -0.4779391 0.6255725 0.4779391 0.6255725 0.4779391 0.3744275 -0.4779391
8259000000 0.3701761 -0.4767595 0.6298239 0.4767595 0.6298239 0.4767595 0.3701761 -0.4767595
8308750000 0.3659482 -0.4755457 0.6340518 0.4755457 0.6340518 0.4755457 0.3659482 -0.4755457
8358500000 0.3617438 -0.4742982 0.6382562 0.4742982 0.6382562 0.4742982 0.3617438 -0.4742982
8408250000 0.3575632 -0.4730174 0.6424368 0.4730174 0.6424368 0.4730174 0.3575632 -0.4730174
8458000000 0.3534065 -0.4717038 0.6465935 0.4717038 0.6465935 0.4717038 0.3534065 -0.4717038
8507750000 0.3492739 -0.4703576 0.6507261 0.4703576 0.6507261 0.4703576 0.3492739 -0.4703576
8557500000 0.3451656 -0.4689794 0.6548344 0.4689794 0.6548344 0.4689794 0.3451656 -0.4689794
8607250000 0.3410818 -0.4675696 0.6589182 0.4675696 0.6589182 0.4675696 0.3410818 -0.4675696
8657000000 0.3370224 -0.4661285 0.6629776 0.4661285 0.6629776 0.4661285 0.3370224 -0.4661285
8706750000 0.3329878 -0.4646566 0.6670122 0.4646566 0.6670122 0.4646566 0.3329878 -0.4646566
8756500000 0.3289780 -0.4631542 0.6710220 0.4631542 0.6710220 0.4631542 0.3289780 -0.4631542
8806250000 0.3249931 -0.4616218 0.6750069 0.4616218 0.6750069 0.4616218 0.3249931 -0.4616218
8856000000 0.3210334 -0.4600598 0.6789666 0.4600598 0.6789666 0.4600598 0.3210334 -0.4600598
8905750000 0.3170988 -0.4584685 0.6829012 0.4584685 0.6829012 0.4584685 0.3170988 -0.4584685
8955500000 0.3131896 -0.4568483 0.6868104 0.4568483 0.6868104 0.4568483 0.3131896 -0.4568483
9005250000 0.3093057 -0.4551997 0.6906943 0.4551997 0.6906943 0.4551997 0.3093057 -0.4551997
9055000000 0.3054474 -0.4535230 0.6945526 0.4535230 0.6945526 0.4535230 0.3054474 -0.4535230
9104750000 0.3016147 -0.4518186 0.6983853 0.4518186 0.6983853 0.4518186 0.3016147 -0.4518186
9154500000 0.2978076 -0.4500869 0.7021924 0.4500869 0.7021924 0.4500869 0.2978076 -0.4500869
9204250000 0.2940264 -0.4483283 0.7059736 0.4483283 0.7059736 0.4483283 0.2940264 -0.4483283
9254000000 0.2902710 -0.4465431 0.7097290 0.4465431 0.7097290 0.4465431 0.2902710 -0.4465431
9303750000 0.2865416 -0.4447316 0.7134584 0.4447316 0.7134584 0.4447316 0.2865416 -0.4447316
9353500000 0.2828382 -0.4428944 0.7171618 0.4428944 0.7171618 0.4428944 0.2828382 -0.4428944
9403250000 0.2791609 -0.4410317 0.7208391 0.4410317 0.7208391 0.4410317 0.2791609 -0.4410317
9453000000 0.2755097 -0.4391439 0.7244903 0.4391439 0.7244903 0.4391439 0.2755097 -0.4391439
9502750000 0.2718847 -0.4372314 0.7281153 0.4372314 0.7281153 0.4372314 0.2718847 -0.4372314
9552500000 0.2682859 -0.4352945 0.7317141 0.4352945 0.7317141 0.4352945 0.2682859 -0.4352945
9602250000 0.2647135 -0.4333336 0.7352865 0.4333336 0.7352865 0.4333336 0.2647135 -0.4333336
9652000000 0.2611674 -0.4313490 0.7388326 0.4313490 0.7388326 0.4313490 0.2611674 -0.4313490
9701750000 0.2576477 -0.4293411 0.7423523 0.4293411 0.7423523 0.4293411 0.2576477 -0.4293411
9751500000 0.2541544 -0.4273102 0.7458456 0.4273102 0.7458456 0.4273102 0.2541544 -0.4273102
9801250000 0.2506876 -0.4252566 0.7493124 0.4252566 0.7493124 0.4252566 0.2506876 -0.4252566
9851000000 0.2472472 -0.4231808 0.7527528 0.4231808 0.7527528 0.4231808 0.2472472 -0.4231808
9900750000 0.2438334 -0.4210830 0.7561666 0.4210830 0.7561666 0.4210830 0.2438334 -0.4210830
9950500000 0.2404461 -0.4189635 0.7595539 0.4189635 0.7595539 0.4189635 0.2404461 -0.4189635
10000250000 0.2370854 -0.4168228 0.7629146 0.4168228 0.7629146 0.4168228 0.2370854 -0.4168228
10050000000 0.2337512 -0.4146610 0.7662488 0.4146610 0.7662488 0.4146610 0.2337512 -0.4146610
10099750000 0.2304436 -0.4124786 0.7695564 0.4124786 0.7695564 0.4124786 0.2304436 -0.4124786
10149500000 0.2271626 -0.4102758 0.7728374 0.4102758 0.7728374 0.4102758 0.2271626 -0.4102758
10199250000 0.2239082 -0.4080531 0.7760918 0.4080531 0.7760918 0.4080531 0.2239082 -0.4080531
10249000000 0.2206804 -0.4058106 0.7793196 0.4058106 0.7793196 0.4058106 0.2206804 -0.4058106
10298750000 0.2174792 -0.4035486 0.7825208 0.4035486 0.7825208 0.4035486 0.2174792 -0.4035486
10348500000 0.2143046 -0.4012676 0.7856954 0.4012676 0.7856954 0.4012676 0.2143046 -0.4012676
10398250000 0.2111566 -0.3989678 0.7888434 0.3989678 0.7888434 0.3989678 0.2111566 -0.3989678
10448000000 0.2080351 -0.3966495 0.7919649 0.3966495 0.7919649 0.3966495 0.2080351 -0.3966495
10497750000 0.2049402 -0.3943130 0.7950598 0.3943130 0.7950598 0.3943130 0.2049402 -0.3943130
