!Murata Part Number: GRM1555C1H8R7DA01
!These Parameters are Measured in Series Mode Connection
!Data Generated on Mar 30, 2021
!       o--ll--o
!Port1            Port2
!       o------o
!Operation Temp=25[degC], DC Bias Voltage=0[V]
!Freq. Start=100[MHz] Stop=9[GHz] 401[Steps]
# Hz S RI R 50
!Freq.(Hz) S11(Real) S11(Imag) S21(Real) S21(Imag) S12(Real) S12(Imag) S22(Real) S22(Imag)
100000000 0.7692995 -0.4207549 0.2307005 0.4207549 0.2307005 0.4207549 0.7692995 -0.4207549
121000000 0.6947347 -0.4598821 0.3052653 0.4598821 0.3052653 0.4598821 0.6947347 -0.4598821
142000000 0.6227788 -0.4839414 0.3772212 0.4839414 0.3772212 0.4839414 0.6227788 -0.4839414
163000000 0.5558785 -0.4960056 0.4441215 0.4960056 0.4441215 0.4960056 0.5558785 -0.4960056
184000000 0.4952186 -0.4990016 0.5047814 0.4990016 0.5047814 0.4990016 0.4952186 -0.4990016
205000000 0.4411180 -0.4954312 0.5588820 0.4954312 0.5588820 0.4954312 0.4411180 -0.4954312
226000000 0.3933693 -0.4872929 0.6066307 0.4872929 0.6066307 0.4872929 0.3933693 -0.4872929
247000000 0.3514854 -0.4761135 0.6485146 0.4761135 0.6485146 0.4761135 0.3514854 -0.4761135
268000000 0.3148600 -0.4630223 0.6851400 0.4630223 0.6851400 0.4630223 0.3148600 -0.4630223
289000000 0.2828644 -0.4488349 0.7171356 0.4488349 0.7171356 0.4488349 0.2828644 -0.4488349
310000000 0.2548989 -0.4341286 0.7451011 0.4341286 0.7451011 0.4341286 0.2548989 -0.4341286
331000000 0.2304185 -0.4193039 0.7695815 0.4193039 0.7695815 0.4193039 0.2304185 -0.4193039
352000000 0.2089412 -0.4046331 0.7910588 0.4046331 0.7910588 0.4046331 0.2089412 -0.4046331
373000000 0.1900484 -0.3902958 0.8099516 0.3902958 0.8099516 0.3902958 0.1900484 -0.3902958
394000000 0.1733799 -0.3764063 0.8266201 0.3764063 0.8266201 0.3764063 0.1733799 -0.3764063
415000000 0.1586281 -0.3630325 0.8413719 0.3630325 0.8413719 0.3630325 0.1586281 -0.3630325
436000000 0.1455313 -0.3502099 0.8544687 0.3502099 0.8544687 0.3502099 0.1455313 -0.3502099
457000000 0.1338666 -0.3379518 0.8661334 0.3379518 0.8661334 0.3379518 0.1338666 -0.3379518
478000000 0.1234447 -0.3262565 0.8765553 0.3262565 0.8765553 0.3262565 0.1234447 -0.3262565
499000000 0.1141046 -0.3151122 0.8858954 0.3151122 0.8858954 0.3151122 0.1141046 -0.3151122
520000000 0.1057086 -0.3045005 0.8942914 0.3045005 0.8942914 0.3045005 0.1057086 -0.3045005
541000000 0.0981395 -0.2943993 0.9018605 0.2943993 0.9018605 0.2943993 0.0981395 -0.2943993
562000000 0.0912967 -0.2847840 0.9087033 0.2847840 0.9087033 0.2847840 0.0912967 -0.2847840
583000000 0.0850938 -0.2756294 0.9149062 0.2756294 0.9149062 0.2756294 0.0850938 -0.2756294
604000000 0.0794563 -0.2669101 0.9205437 0.2669101 0.9205437 0.2669101 0.0794563 -0.2669101
625000000 0.0743201 -0.2586009 0.9256799 0.2586009 0.9256799 0.2586009 0.0743201 -0.2586009
646000000 0.0696295 -0.2506778 0.9303705 0.2506778 0.9303705 0.2506778 0.0696295 -0.2506778
667000000 0.0653360 -0.2431175 0.9346640 0.2431175 0.9346640 0.2431175 0.0653360 -0.2431175
688000000 0.0613975 -0.2358981 0.9386025 0.2358981 0.9386025 0.2358981 0.0613975 -0.2358981
709000000 0.0577771 -0.2289989 0.9422229 0.2289989 0.9422229 0.2289989 0.0577771 -0.2289989
730000000 0.0544426 -0.2224003 0.9455574 0.2224003 0.9455574 0.2224003 0.0544426 -0.2224003
751000000 0.0513656 -0.2160841 0.9486344 0.2160841 0.9486344 0.2160841 0.0513656 -0.2160841
772000000 0.0485210 -0.2100331 0.9514790 0.2100331 0.9514790 0.2100331 0.0485210 -0.2100331
793000000 0.0458867 -0.2042315 0.9541133 0.2042315 0.9541133 0.2042315 0.0458867 -0.2042315
814000000 0.0434432 -0.1986643 0.9565568 0.1986643 0.9565568 0.1986643 0.0434432 -0.1986643
835000000 0.0411731 -0.1933178 0.9588269 0.1933178 0.9588269 0.1933178 0.0411731 -0.1933178
856000000 0.0390609 -0.1881789 0.9609391 0.1881789 0.9609391 0.1881789 0.0390609 -0.1881789
877000000 0.0370927 -0.1832357 0.9629073 0.1832357 0.9629073 0.1832357 0.0370927 -0.1832357
898000000 0.0352563 -0.1784770 0.9647437 0.1784770 0.9647437 0.1784770 0.0352563 -0.1784770
919000000 0.0335405 -0.1738924 0.9664595 0.1738924 0.9664595 0.1738924 0.0335405 -0.1738924
940000000 0.0319355 -0.1694721 0.9680645 0.1694721 0.9680645 0.1694721 0.0319355 -0.1694721
961000000 0.0304322 -0.1652071 0.9695678 0.1652071 0.9695678 0.1652071 0.0304322 -0.1652071
982000000 0.0290226 -0.1610890 0.9709774 0.1610890 0.9709774 0.1610890 0.0290226 -0.1610890
1003000000 0.0276994 -0.1571099 0.9723006 0.1571099 0.9723006 0.1571099 0.0276994 -0.1571099
1024000000 0.0264560 -0.1532623 0.9735440 0.1532623 0.9735440 0.1532623 0.0264560 -0.1532623
1045000000 0.0252864 -0.1495396 0.9747136 0.1495396 0.9747136 0.1495396 0.0252864 -0.1495396
1066000000 0.0241853 -0.1459351 0.9758147 0.1459351 0.9758147 0.1459351 0.0241853 -0.1459351
1087000000 0.0231475 -0.1424429 0.9768525 0.1424429 0.9768525 0.1424429 0.0231475 -0.1424429
1108000000 0.0221687 -0.1390575 0.9778313 0.1390575 0.9778313 0.1390575 0.0221687 -0.1390575
1129000000 0.0212447 -0.1357734 0.9787553 0.1357734 0.9787553 0.1357734 0.0212447 -0.1357734
1150000000 0.0203717 -0.1325859 0.9796283 0.1325859 0.9796283 0.1325859 0.0203717 -0.1325859
1171000000 0.0195464 -0.1294901 0.9804536 0.1294901 0.9804536 0.1294901 0.0195464 -0.1294901
1192000000 0.0187654 -0.1264818 0.9812346 0.1264818 0.9812346 0.1264818 0.0187654 -0.1264818
1213000000 0.0180260 -0.1235569 0.9819740 0.1235569 0.9819740 0.1235569 0.0180260 -0.1235569
1234000000 0.0173255 -0.1207116 0.9826745 0.1207116 0.9826745 0.1207116 0.0173255 -0.1207116
1255000000 0.0166614 -0.1179421 0.9833386 0.1179421 0.9833386 0.1179421 0.0166614 -0.1179421
1276000000 0.0160314 -0.1152451 0.9839686 0.1152451 0.9839686 0.1152451 0.0160314 -0.1152451
1297000000 0.0154335 -0.1126174 0.9845665 0.1126174 0.9845665 0.1126174 0.0154335 -0.1126174
1318000000 0.0148657 -0.1100560 0.9851343 0.1100560 0.9851343 0.1100560 0.0148657 -0.1100560
1339000000 0.0143263 -0.1075579 0.9856737 0.1075579 0.9856737 0.1075579 0.0143263 -0.1075579
1360000000 0.0138135 -0.1051205 0.9861865 0.1051205 0.9861865 0.1051205 0.0138135 -0.1051205
1381000000 0.0133258 -0.1027412 0.9866742 0.1027412 0.9866742 0.1027412 0.0133258 -0.1027412
1402000000 0.0128619 -0.1004176 0.9871381 0.1004176 0.9871381 0.1004176 0.0128619 -0.1004176
1423000000 0.0124203 -0.0981475 0.9875797 0.0981475 0.9875797 0.0981475 0.0124203 -0.0981475
1444000000 0.0119999 -0.0959286 0.9880001 0.0959286 0.9880001 0.0959286 0.0119999 -0.0959286
1465000000 0.0115995 -0.0937588 0.9884005 0.0937588 0.9884005 0.0937588 0.0115995 -0.0937588
1486000000 0.0112180 -0.0916364 0.9887820 0.0916364 0.9887820 0.0916364 0.0112180 -0.0916364
1507000000 0.0108545 -0.0895593 0.9891455 0.0895593 0.9891455 0.0895593 0.0108545 -0.0895593
1528000000 0.0105079 -0.0875259 0.9894921 0.0875259 0.9894921 0.0875259 0.0105079 -0.0875259
1549000000 0.0101775 -0.0855344 0.9898225 0.0855344 0.9898225 0.0855344 0.0101775 -0.0855344
1570000000 0.0098624 -0.0835834 0.9901376 0.0835834 0.9901376 0.0835834 0.0098624 -0.0835834
1591000000 0.0095618 -0.0816712 0.9904382 0.0816712 0.9904382 0.0816712 0.0095618 -0.0816712
1612000000 0.0092750 -0.0797965 0.9907250 0.0797965 0.9907250 0.0797965 0.0092750 -0.0797965
1633000000 0.0090014 -0.0779579 0.9909986 0.0779579 0.9909986 0.0779579 0.0090014 -0.0779579
1654000000 0.0087403 -0.0761541 0.9912597 0.0761541 0.9912597 0.0761541 0.0087403 -0.0761541
1675000000 0.0084912 -0.0743838 0.9915088 0.0743838 0.9915088 0.0743838 0.0084912 -0.0743838
1696000000 0.0082534 -0.0726459 0.9917466 0.0726459 0.9917466 0.0726459 0.0082534 -0.0726459
1717000000 0.0080264 -0.0709393 0.9919736 0.0709393 0.9919736 0.0709393 0.0080264 -0.0709393
1738000000 0.0078098 -0.0692628 0.9921902 0.0692628 0.9921902 0.0692628 0.0078098 -0.0692628
1759000000 0.0076031 -0.0676154 0.9923969 0.0676154 0.9923969 0.0676154 0.0076031 -0.0676154
1780000000 0.0074059 -0.0659962 0.9925941 0.0659962 0.9925941 0.0659962 0.0074059 -0.0659962
1801000000 0.0072176 -0.0644042 0.9927824 0.0644042 0.9927824 0.0644042 0.0072176 -0.0644042
1822000000 0.0070380 -0.0628385 0.9929620 0.0628385 0.9929620 0.0628385 0.0070380 -0.0628385
1843000000 0.0068667 -0.0612982 0.9931333 0.0612982 0.9931333 0.0612982 0.0068667 -0.0612982
1864000000 0.0067033 -0.0597826 0.9932967 0.0597826 0.9932967 0.0597826 0.0067033 -0.0597826
1885000000 0.0065475 -0.0582908 0.9934525 0.0582908 0.9934525 0.0582908 0.0065475 -0.0582908
1906000000 0.0063990 -0.0568221 0.9936010 0.0568221 0.9936010 0.0568221 0.0063990 -0.0568221
1927000000 0.0062574 -0.0553757 0.9937426 0.0553757 0.9937426 0.0553757 0.0062574 -0.0553757
1948000000 0.0061226 -0.0539510 0.9938774 0.0539510 0.9938774 0.0539510 0.0061226 -0.0539510
1969000000 0.0059942 -0.0525473 0.9940058 0.0525473 0.9940058 0.0525473 0.0059942 -0.0525473
1990000000 0.0058720 -0.0511639 0.9941280 0.0511639 0.9941280 0.0511639 0.0058720 -0.0511639
2011000000 0.0057557 -0.0498003 0.9942443 0.0498003 0.9942443 0.0498003 0.0057557 -0.0498003
2032000000 0.0056451 -0.0484558 0.9943549 0.0484558 0.9943549 0.0484558 0.0056451 -0.0484558
2053000000 0.0055400 -0.0471299 0.9944600 0.0471299 0.9944600 0.0471299 0.0055400 -0.0471299
2074000000 0.0054403 -0.0458220 0.9945597 0.0458220 0.9945597 0.0458220 0.0054403 -0.0458220
2095000000 0.0053456 -0.0445316 0.9946544 0.0445316 0.9946544 0.0445316 0.0053456 -0.0445316
2116000000 0.0052558 -0.0432581 0.9947442 0.0432581 0.9947442 0.0432581 0.0052558 -0.0432581
2137000000 0.0051708 -0.0420012 0.9948292 0.0420012 0.9948292 0.0420012 0.0051708 -0.0420012
2158000000 0.0050904 -0.0407603 0.9949096 0.0407603 0.9949096 0.0407603 0.0050904 -0.0407603
2179000000 0.0050143 -0.0395350 0.9949857 0.0395350 0.9949857 0.0395350 0.0050143 -0.0395350
2200000000 0.0049425 -0.0383249 0.9950575 0.0383249 0.9950575 0.0383249 0.0049425 -0.0383249
2221000000 0.0048749 -0.0371294 0.9951251 0.0371294 0.9951251 0.0371294 0.0048749 -0.0371294
2242000000 0.0048111 -0.0359483 0.9951889 0.0359483 0.9951889 0.0359483 0.0048111 -0.0359483
2263000000 0.0047513 -0.0347811 0.9952487 0.0347811 0.9952487 0.0347811 0.0047513 -0.0347811
2284000000 0.0046951 -0.0336275 0.9953049 0.0336275 0.9953049 0.0336275 0.0046951 -0.0336275
2305000000 0.0046425 -0.0324870 0.9953575 0.0324870 0.9953575 0.0324870 0.0046425 -0.0324870
2326000000 0.0045934 -0.0313594 0.9954066 0.0313594 0.9954066 0.0313594 0.0045934 -0.0313594
2347000000 0.0045477 -0.0302443 0.9954523 0.0302443 0.9954523 0.0302443 0.0045477 -0.0302443
2368000000 0.0045052 -0.0291413 0.9954948 0.0291413 0.9954948 0.0291413 0.0045052 -0.0291413
2389000000 0.0044659 -0.0280502 0.9955341 0.0280502 0.9955341 0.0280502 0.0044659 -0.0280502
2410000000 0.0044296 -0.0269707 0.9955704 0.0269707 0.9955704 0.0269707 0.0044296 -0.0269707
2431000000 0.0043963 -0.0259024 0.9956037 0.0259024 0.9956037 0.0259024 0.0043963 -0.0259024
2452000000 0.0043659 -0.0248450 0.9956341 0.0248450 0.9956341 0.0248450 0.0043659 -0.0248450
2473000000 0.0043383 -0.0237983 0.9956617 0.0237983 0.9956617 0.0237983 0.0043383 -0.0237983
2494000000 0.0043134 -0.0227621 0.9956866 0.0227621 0.9956866 0.0227621 0.0043134 -0.0227621
2515000000 0.0042911 -0.0217360 0.9957089 0.0217360 0.9957089 0.0217360 0.0042911 -0.0217360
2536000000 0.0042714 -0.0207197 0.9957286 0.0207197 0.9957286 0.0207197 0.0042714 -0.0207197
2557000000 0.0042541 -0.0197132 0.9957459 0.0197132 0.9957459 0.0197132 0.0042541 -0.0197132
2578000000 0.0042393 -0.0187161 0.9957607 0.0187161 0.9957607 0.0187161 0.0042393 -0.0187161
2599000000 0.0042269 -0.0177281 0.9957731 0.0177281 0.9957731 0.0177281 0.0042269 -0.0177281
2620000000 0.0042167 -0.0167491 0.9957833 0.0167491 0.9957833 0.0167491 0.0042167 -0.0167491
2641000000 0.0042088 -0.0157789 0.9957912 0.0157789 0.9957912 0.0157789 0.0042088 -0.0157789
2662000000 0.0042031 -0.0148172 0.9957969 0.0148172 0.9957969 0.0148172 0.0042031 -0.0148172
2683000000 0.0041995 -0.0138638 0.9958005 0.0138638 0.9958005 0.0138638 0.0041995 -0.0138638
2704000000 0.0041979 -0.0129186 0.9958021 0.0129186 0.9958021 0.0129186 0.0041979 -0.0129186
2725000000 0.0041984 -0.0119813 0.9958016 0.0119813 0.9958016 0.0119813 0.0041984 -0.0119813
2746000000 0.0042008 -0.0110518 0.9957992 0.0110518 0.9957992 0.0110518 0.0042008 -0.0110518
2767000000 0.0042052 -0.0101299 0.9957948 0.0101299 0.9957948 0.0101299 0.0042052 -0.0101299
2788000000 0.0042114 -0.0092153 0.9957886 0.0092153 0.9957886 0.0092153 0.0042114 -0.0092153
2809000000 0.0042195 -0.0083080 0.9957805 0.0083080 0.9957805 0.0083080 0.0042195 -0.0083080
2830000000 0.0042293 -0.0074078 0.9957707 0.0074078 0.9957707 0.0074078 0.0042293 -0.0074078
2851000000 0.0042409 -0.0065145 0.9957591 0.0065145 0.9957591 0.0065145 0.0042409 -0.0065145
2872000000 0.0042542 -0.0056279 0.9957458 0.0056279 0.9957458 0.0056279 0.0042542 -0.0056279
2893000000 0.0042692 -0.0047479 0.9957308 0.0047479 0.9957308 0.0047479 0.0042692 -0.0047479
2914000000 0.0042859 -0.0038744 0.9957141 0.0038744 0.9957141 0.0038744 0.0042859 -0.0038744
2935000000 0.0043041 -0.0030071 0.9956959 0.0030071 0.9956959 0.0030071 0.0043041 -0.0030071
2956000000 0.0043240 -0.0021460 0.9956760 0.0021460 0.9956760 0.0021460 0.0043240 -0.0021460
2977000000 0.0043453 -0.0012910 0.9956547 0.0012910 0.9956547 0.0012910 0.0043453 -0.0012910
2998000000 0.0043682 -0.0004418 0.9956318 0.0004418 0.9956318 0.0004418 0.0043682 -0.0004418
3019000000 0.0043926 0.0004016 0.9956074 -0.0004016 0.9956074 -0.0004016 0.0043926 0.0004016
3040000000 0.0044184 0.0012394 0.9955816 -0.0012394 0.9955816 -0.0012394 0.0044184 0.0012394
3061000000 0.0044457 0.0020717 0.9955543 -0.0020717 0.9955543 -0.0020717 0.0044457 0.0020717
3082000000 0.0044744 0.0028986 0.9955256 -0.0028986 0.9955256 -0.0028986 0.0044744 0.0028986
3103000000 0.0045045 0.0037202 0.9954955 -0.0037202 0.9954955 -0.0037202 0.0045045 0.0037202
3124000000 0.0045359 0.0045366 0.9954641 -0.0045366 0.9954641 -0.0045366 0.0045359 0.0045366
3145000000 0.0045687 0.0053481 0.9954313 -0.0053481 0.9954313 -0.0053481 0.0045687 0.0053481
3166000000 0.0046028 0.0061546 0.9953972 -0.0061546 0.9953972 -0.0061546 0.0046028 0.0061546
3187000000 0.0046381 0.0069563 0.9953619 -0.0069563 0.9953619 -0.0069563 0.0046381 0.0069563
3208000000 0.0046748 0.0077532 0.9953252 -0.0077532 0.9953252 -0.0077532 0.0046748 0.0077532
3229000000 0.0047128 0.0085455 0.9952872 -0.0085455 0.9952872 -0.0085455 0.0047128 0.0085455
3250000000 0.0047519 0.0093334 0.9952481 -0.0093334 0.9952481 -0.0093334 0.0047519 0.0093334
3271000000 0.0047923 0.0101168 0.9952077 -0.0101168 0.9952077 -0.0101168 0.0047923 0.0101168
3292000000 0.0048340 0.0108958 0.9951660 -0.0108958 0.9951660 -0.0108958 0.0048340 0.0108958
3313000000 0.0048768 0.0116707 0.9951232 -0.0116707 0.9951232 -0.0116707 0.0048768 0.0116707
3334000000 0.0049208 0.0124414 0.9950792 -0.0124414 0.9950792 -0.0124414 0.0049208 0.0124414
3355000000 0.0049660 0.0132080 0.9950340 -0.0132080 0.9950340 -0.0132080 0.0049660 0.0132080
3376000000 0.0050123 0.0139707 0.9949877 -0.0139707 0.9949877 -0.0139707 0.0050123 0.0139707
3397000000 0.0050598 0.0147295 0.9949402 -0.0147295 0.9949402 -0.0147295 0.0050598 0.0147295
3418000000 0.0051084 0.0154845 0.9948916 -0.0154845 0.9948916 -0.0154845 0.0051084 0.0154845
3439000000 0.0051582 0.0162358 0.9948418 -0.0162358 0.9948418 -0.0162358 0.0051582 0.0162358
3460000000 0.0052091 0.0169835 0.9947909 -0.0169835 0.9947909 -0.0169835 0.0052091 0.0169835
3481000000 0.0052610 0.0177276 0.9947390 -0.0177276 0.9947390 -0.0177276 0.0052610 0.0177276
3502000000 0.0053141 0.0184683 0.9946859 -0.0184683 0.9946859 -0.0184683 0.0053141 0.0184683
3523000000 0.0053683 0.0192055 0.9946317 -0.0192055 0.9946317 -0.0192055 0.0053683 0.0192055
3544000000 0.0054235 0.0199394 0.9945765 -0.0199394 0.9945765 -0.0199394 0.0054235 0.0199394
3565000000 0.0054799 0.0206700 0.9945201 -0.0206700 0.9945201 -0.0206700 0.0054799 0.0206700
3586000000 0.0055373 0.0213975 0.9944627 -0.0213975 0.9944627 -0.0213975 0.0055373 0.0213975
3607000000 0.0055958 0.0221218 0.9944042 -0.0221218 0.9944042 -0.0221218 0.0055958 0.0221218
3628000000 0.0056553 0.0228431 0.9943447 -0.0228431 0.9943447 -0.0228431 0.0056553 0.0228431
3649000000 0.0057159 0.0235615 0.9942841 -0.0235615 0.9942841 -0.0235615 0.0057159 0.0235615
3670000000 0.0057776 0.0242769 0.9942224 -0.0242769 0.9942224 -0.0242769 0.0057776 0.0242769
3691000000 0.0058403 0.0249894 0.9941597 -0.0249894 0.9941597 -0.0249894 0.0058403 0.0249894
3712000000 0.0059041 0.0256992 0.9940959 -0.0256992 0.9940959 -0.0256992 0.0059041 0.0256992
3733000000 0.0059689 0.0264063 0.9940311 -0.0264063 0.9940311 -0.0264063 0.0059689 0.0264063
3754000000 0.0060348 0.0271107 0.9939652 -0.0271107 0.9939652 -0.0271107 0.0060348 0.0271107
3775000000 0.0061017 0.0278125 0.9938983 -0.0278125 0.9938983 -0.0278125 0.0061017 0.0278125
3796000000 0.0061697 0.0285117 0.9938303 -0.0285117 0.9938303 -0.0285117 0.0061697 0.0285117
3817000000 0.0062387 0.0292085 0.9937613 -0.0292085 0.9937613 -0.0292085 0.0062387 0.0292085
3838000000 0.0063088 0.0299029 0.9936912 -0.0299029 0.9936912 -0.0299029 0.0063088 0.0299029
3859000000 0.0063800 0.0305949 0.9936200 -0.0305949 0.9936200 -0.0305949 0.0063800 0.0305949
3880000000 0.0064522 0.0312846 0.9935478 -0.0312846 0.9935478 -0.0312846 0.0064522 0.0312846
3901000000 0.0065255 0.0319720 0.9934745 -0.0319720 0.9934745 -0.0319720 0.0065255 0.0319720
3922000000 0.0065999 0.0326573 0.9934001 -0.0326573 0.9934001 -0.0326573 0.0065999 0.0326573
3943000000 0.0066754 0.0333404 0.9933246 -0.0333404 0.9933246 -0.0333404 0.0066754 0.0333404
3964000000 0.0067519 0.0340214 0.9932481 -0.0340214 0.9932481 -0.0340214 0.0067519 0.0340214
3985000000 0.0068296 0.0347004 0.9931704 -0.0347004 0.9931704 -0.0347004 0.0068296 0.0347004
4006000000 0.0069084 0.0353774 0.9930916 -0.0353774 0.9930916 -0.0353774 0.0069084 0.0353774
4027000000 0.0069882 0.0360524 0.9930118 -0.0360524 0.9930118 -0.0360524 0.0069882 0.0360524
4048000000 0.0070692 0.0367256 0.9929308 -0.0367256 0.9929308 -0.0367256 0.0070692 0.0367256
4069000000 0.0071514 0.0373970 0.9928486 -0.0373970 0.9928486 -0.0373970 0.0071514 0.0373970
4090000000 0.0072347 0.0380665 0.9927653 -0.0380665 0.9927653 -0.0380665 0.0072347 0.0380665
4111000000 0.0073192 0.0387344 0.9926808 -0.0387344 0.9926808 -0.0387344 0.0073192 0.0387344
4132000000 0.0074048 0.0394005 0.9925952 -0.0394005 0.9925952 -0.0394005 0.0074048 0.0394005
4153000000 0.0074917 0.0400650 0.9925083 -0.0400650 0.9925083 -0.0400650 0.0074917 0.0400650
4174000000 0.0075798 0.0407280 0.9924202 -0.0407280 0.9924202 -0.0407280 0.0075798 0.0407280
4195000000 0.0076691 0.0413894 0.9923309 -0.0413894 0.9923309 -0.0413894 0.0076691 0.0413894
4216000000 0.0077597 0.0420493 0.9922403 -0.0420493 0.9922403 -0.0420493 0.0077597 0.0420493
4237000000 0.0078515 0.0427077 0.9921485 -0.0427077 0.9921485 -0.0427077 0.0078515 0.0427077
4258000000 0.0079447 0.0433648 0.9920553 -0.0433648 0.9920553 -0.0433648 0.0079447 0.0433648
4279000000 0.0080392 0.0440205 0.9919608 -0.0440205 0.9919608 -0.0440205 0.0080392 0.0440205
4300000000 0.0081350 0.0446749 0.9918650 -0.0446749 0.9918650 -0.0446749 0.0081350 0.0446749
4321000000 0.0082323 0.0453280 0.9917677 -0.0453280 0.9917677 -0.0453280 0.0082323 0.0453280
4342000000 0.0083309 0.0459799 0.9916691 -0.0459799 0.9916691 -0.0459799 0.0083309 0.0459799
4363000000 0.0084310 0.0466306 0.9915690 -0.0466306 0.9915690 -0.0466306 0.0084310 0.0466306
4384000000 0.0085326 0.0472801 0.9914674 -0.0472801 0.9914674 -0.0472801 0.0085326 0.0472801
4405000000 0.0086357 0.0479286 0.9913643 -0.0479286 0.9913643 -0.0479286 0.0086357 0.0479286
4426000000 0.0087403 0.0485761 0.9912597 -0.0485761 0.9912597 -0.0485761 0.0087403 0.0485761
4447000000 0.0088466 0.0492225 0.9911534 -0.0492225 0.9911534 -0.0492225 0.0088466 0.0492225
4468000000 0.0089545 0.0498679 0.9910455 -0.0498679 0.9910455 -0.0498679 0.0089545 0.0498679
4489000000 0.0090641 0.0505124 0.9909359 -0.0505124 0.9909359 -0.0505124 0.0090641 0.0505124
4510000000 0.0091754 0.0511561 0.9908246 -0.0511561 0.9908246 -0.0511561 0.0091754 0.0511561
