!Murata Part Number: GRM1552C2A120GA01
!These Parameters are Measured in Series Mode Connection
!Data Generated on Mar 30, 2021
!       o--ll--o
!Port1            Port2
!       o------o
!Operation Temp=25[degC], DC Bias Voltage=0[V]
!Freq. Start=100[MHz] Stop=9[GHz] 401[Steps]
# Hz S RI R 50
!Freq.(Hz) S11(Real) S11(Imag) S21(Real) S21(Imag) S12(Real) S12(Imag) S22(Real) S22(Imag)
100000000 0.6367122 -0.4804901 0.3632878 0.4804901 0.3632878 0.4804901 0.6367122 -0.4804901
121000000 0.5445684 -0.4974547 0.4554316 0.4974547 0.4554316 0.4974547 0.5445684 -0.4974547
142000000 0.4643926 -0.4980757 0.5356074 0.4980757 0.5356074 0.4980757 0.4643926 -0.4980757
163000000 0.3964990 -0.4884140 0.6035010 0.4884140 0.6035010 0.4884140 0.3964990 -0.4884140
184000000 0.3397945 -0.4727798 0.6602055 0.4727798 0.6602055 0.4727798 0.3397945 -0.4727798
205000000 0.2926951 -0.4540348 0.7073049 0.4540348 0.7073049 0.4540348 0.2926951 -0.4540348
226000000 0.2535901 -0.4339931 0.7464099 0.4339931 0.7464099 0.4339931 0.2535901 -0.4339931
247000000 0.2210361 -0.4137618 0.7789639 0.4137618 0.7789639 0.4137618 0.2210361 -0.4137618
268000000 0.1938148 -0.3939894 0.8061852 0.3939894 0.8061852 0.3939894 0.1938148 -0.3939894
289000000 0.1709287 -0.3750345 0.8290713 0.3750345 0.8290713 0.3750345 0.1709287 -0.3750345
310000000 0.1515737 -0.3570756 0.8484263 0.3570756 0.8484263 0.3570756 0.1515737 -0.3570756
331000000 0.1351054 -0.3401819 0.8648946 0.3401819 0.8648946 0.3401819 0.1351054 -0.3401819
352000000 0.1210090 -0.3243570 0.8789910 0.3243570 0.8789910 0.3243570 0.1210090 -0.3243570
373000000 0.1088719 -0.3095674 0.8911281 0.3095674 0.8911281 0.3095674 0.1088719 -0.3095674
394000000 0.0983629 -0.2957594 0.9016371 0.2957594 0.9016371 0.2957594 0.0983629 -0.2957594
415000000 0.0892147 -0.2828695 0.9107853 0.2828695 0.9107853 0.2828695 0.0892147 -0.2828695
436000000 0.0812105 -0.2708312 0.9187895 0.2708312 0.9187895 0.2708312 0.0812105 -0.2708312
457000000 0.0741736 -0.2595787 0.9258264 0.2595787 0.9258264 0.2595787 0.0741736 -0.2595787
478000000 0.0679590 -0.2490486 0.9320410 0.2490486 0.9320410 0.2490486 0.0679590 -0.2490486
499000000 0.0624472 -0.2391816 0.9375528 0.2391816 0.9375528 0.2391816 0.0624472 -0.2391816
520000000 0.0575391 -0.2299228 0.9424609 0.2299228 0.9424609 0.2299228 0.0575391 -0.2299228
541000000 0.0531521 -0.2212218 0.9468479 0.2212218 0.9468479 0.2212218 0.0531521 -0.2212218
562000000 0.0492169 -0.2130323 0.9507831 0.2130323 0.9507831 0.2130323 0.0492169 -0.2130323
583000000 0.0456752 -0.2053124 0.9543248 0.2053124 0.9543248 0.2053124 0.0456752 -0.2053124
604000000 0.0424777 -0.1980242 0.9575223 0.1980242 0.9575223 0.1980242 0.0424777 -0.1980242
625000000 0.0395824 -0.1911330 0.9604176 0.1911330 0.9604176 0.1911330 0.0395824 -0.1911330
646000000 0.0369534 -0.1846075 0.9630466 0.1846075 0.9630466 0.1846075 0.0369534 -0.1846075
667000000 0.0345600 -0.1784194 0.9654400 0.1784194 0.9654400 0.1784194 0.0345600 -0.1784194
688000000 0.0323756 -0.1725428 0.9676244 0.1725428 0.9676244 0.1725428 0.0323756 -0.1725428
709000000 0.0303774 -0.1669546 0.9696226 0.1669546 0.9696226 0.1669546 0.0303774 -0.1669546
730000000 0.0285454 -0.1616333 0.9714546 0.1616333 0.9714546 0.1616333 0.0285454 -0.1616333
751000000 0.0268624 -0.1565598 0.9731376 0.1565598 0.9731376 0.1565598 0.0268624 -0.1565598
772000000 0.0253131 -0.1517164 0.9746869 0.1517164 0.9746869 0.1517164 0.0253131 -0.1517164
793000000 0.0238843 -0.1470872 0.9761157 0.1470872 0.9761157 0.1470872 0.0238843 -0.1470872
814000000 0.0225643 -0.1426574 0.9774357 0.1426574 0.9774357 0.1426574 0.0225643 -0.1426574
835000000 0.0213428 -0.1384136 0.9786572 0.1384136 0.9786572 0.1384136 0.0213428 -0.1384136
856000000 0.0202106 -0.1343436 0.9797894 0.1343436 0.9797894 0.1343436 0.0202106 -0.1343436
877000000 0.0191597 -0.1304362 0.9808403 0.1304362 0.9808403 0.1304362 0.0191597 -0.1304362
898000000 0.0181828 -0.1266811 0.9818172 0.1266811 0.9818172 0.1266811 0.0181828 -0.1266811
919000000 0.0172734 -0.1230686 0.9827266 0.1230686 0.9827266 0.1230686 0.0172734 -0.1230686
940000000 0.0164260 -0.1195902 0.9835740 0.1195902 0.9835740 0.1195902 0.0164260 -0.1195902
961000000 0.0156352 -0.1162376 0.9843648 0.1162376 0.9843648 0.1162376 0.0156352 -0.1162376
982000000 0.0148964 -0.1130035 0.9851036 0.1130035 0.9851036 0.1130035 0.0148964 -0.1130035
1003000000 0.0142056 -0.1098810 0.9857944 0.1098810 0.9857944 0.1098810 0.0142056 -0.1098810
1024000000 0.0135588 -0.1068636 0.9864412 0.1068636 0.9864412 0.1068636 0.0135588 -0.1068636
1045000000 0.0129528 -0.1039456 0.9870472 0.1039456 0.9870472 0.1039456 0.0129528 -0.1039456
1066000000 0.0123844 -0.1011213 0.9876156 0.1011213 0.9876156 0.1011213 0.0123844 -0.1011213
1087000000 0.0118509 -0.0983857 0.9881491 0.0983857 0.9881491 0.0983857 0.0118509 -0.0983857
1108000000 0.0113496 -0.0957340 0.9886504 0.0957340 0.9886504 0.0957340 0.0113496 -0.0957340
1129000000 0.0108783 -0.0931618 0.9891217 0.0931618 0.9891217 0.0931618 0.0108783 -0.0931618
1150000000 0.0104349 -0.0906650 0.9895651 0.0906650 0.9895651 0.0906650 0.0104349 -0.0906650
1171000000 0.0100175 -0.0882398 0.9899825 0.0882398 0.9899825 0.0882398 0.0100175 -0.0882398
1192000000 0.0096242 -0.0858824 0.9903758 0.0858824 0.9903758 0.0858824 0.0096242 -0.0858824
1213000000 0.0092535 -0.0835896 0.9907465 0.0835896 0.9907465 0.0835896 0.0092535 -0.0835896
1234000000 0.0089039 -0.0813583 0.9910961 0.0813583 0.9910961 0.0813583 0.0089039 -0.0813583
1255000000 0.0085740 -0.0791853 0.9914260 0.0791853 0.9914260 0.0791853 0.0085740 -0.0791853
1276000000 0.0082626 -0.0770681 0.9917374 0.0770681 0.9917374 0.0770681 0.0082626 -0.0770681
1297000000 0.0079685 -0.0750039 0.9920315 0.0750039 0.9920315 0.0750039 0.0079685 -0.0750039
1318000000 0.0076906 -0.0729903 0.9923094 0.0729903 0.9923094 0.0729903 0.0076906 -0.0729903
1339000000 0.0074280 -0.0710250 0.9925720 0.0710250 0.9925720 0.0710250 0.0074280 -0.0710250
1360000000 0.0071798 -0.0691058 0.9928202 0.0691058 0.9928202 0.0691058 0.0071798 -0.0691058
1381000000 0.0069450 -0.0672307 0.9930550 0.0672307 0.9930550 0.0672307 0.0069450 -0.0672307
1402000000 0.0067230 -0.0653977 0.9932770 0.0653977 0.9932770 0.0653977 0.0067230 -0.0653977
1423000000 0.0065131 -0.0636051 0.9934869 0.0636051 0.9934869 0.0636051 0.0065131 -0.0636051
1444000000 0.0063144 -0.0618510 0.9936856 0.0618510 0.9936856 0.0618510 0.0063144 -0.0618510
1465000000 0.0061265 -0.0601339 0.9938735 0.0601339 0.9938735 0.0601339 0.0061265 -0.0601339
1486000000 0.0059487 -0.0584522 0.9940513 0.0584522 0.9940513 0.0584522 0.0059487 -0.0584522
1507000000 0.0057805 -0.0568045 0.9942195 0.0568045 0.9942195 0.0568045 0.0057805 -0.0568045
1528000000 0.0056214 -0.0551893 0.9943786 0.0551893 0.9943786 0.0551893 0.0056214 -0.0551893
1549000000 0.0054709 -0.0536054 0.9945291 0.0536054 0.9945291 0.0536054 0.0054709 -0.0536054
1570000000 0.0053286 -0.0520514 0.9946714 0.0520514 0.9946714 0.0520514 0.0053286 -0.0520514
1591000000 0.0051941 -0.0505263 0.9948059 0.0505263 0.9948059 0.0505263 0.0051941 -0.0505263
1612000000 0.0050670 -0.0490289 0.9949330 0.0490289 0.9949330 0.0490289 0.0050670 -0.0490289
1633000000 0.0049469 -0.0475580 0.9950531 0.0475580 0.9950531 0.0475580 0.0049469 -0.0475580
1654000000 0.0048335 -0.0461128 0.9951665 0.0461128 0.9951665 0.0461128 0.0048335 -0.0461128
1675000000 0.0047265 -0.0446922 0.9952735 0.0446922 0.9952735 0.0446922 0.0047265 -0.0446922
1696000000 0.0046255 -0.0432952 0.9953745 0.0432952 0.9953745 0.0432952 0.0046255 -0.0432952
1717000000 0.0045304 -0.0419211 0.9954696 0.0419211 0.9954696 0.0419211 0.0045304 -0.0419211
1738000000 0.0044409 -0.0405690 0.9955591 0.0405690 0.9955591 0.0405690 0.0044409 -0.0405690
1759000000 0.0043567 -0.0392380 0.9956433 0.0392380 0.9956433 0.0392380 0.0043567 -0.0392380
1780000000 0.0042775 -0.0379273 0.9957225 0.0379273 0.9957225 0.0379273 0.0042775 -0.0379273
1801000000 0.0042033 -0.0366364 0.9957967 0.0366364 0.9957967 0.0366364 0.0042033 -0.0366364
1822000000 0.0041337 -0.0353644 0.9958663 0.0353644 0.9958663 0.0353644 0.0041337 -0.0353644
1843000000 0.0040685 -0.0341107 0.9959315 0.0341107 0.9959315 0.0341107 0.0040685 -0.0341107
1864000000 0.0040077 -0.0328746 0.9959923 0.0328746 0.9959923 0.0328746 0.0040077 -0.0328746
1885000000 0.0039510 -0.0316555 0.9960490 0.0316555 0.9960490 0.0316555 0.0039510 -0.0316555
1906000000 0.0038983 -0.0304529 0.9961017 0.0304529 0.9961017 0.0304529 0.0038983 -0.0304529
1927000000 0.0038494 -0.0292661 0.9961506 0.0292661 0.9961506 0.0292661 0.0038494 -0.0292661
1948000000 0.0038042 -0.0280947 0.9961958 0.0280947 0.9961958 0.0280947 0.0038042 -0.0280947
1969000000 0.0037626 -0.0269380 0.9962374 0.0269380 0.9962374 0.0269380 0.0037626 -0.0269380
1990000000 0.0037244 -0.0257957 0.9962756 0.0257957 0.9962756 0.0257957 0.0037244 -0.0257957
2011000000 0.0036895 -0.0246672 0.9963105 0.0246672 0.9963105 0.0246672 0.0036895 -0.0246672
2032000000 0.0036578 -0.0235520 0.9963422 0.0235520 0.9963422 0.0235520 0.0036578 -0.0235520
2053000000 0.0036291 -0.0224497 0.9963709 0.0224497 0.9963709 0.0224497 0.0036291 -0.0224497
2074000000 0.0036035 -0.0213600 0.9963965 0.0213600 0.9963965 0.0213600 0.0036035 -0.0213600
2095000000 0.0035808 -0.0202823 0.9964192 0.0202823 0.9964192 0.0202823 0.0035808 -0.0202823
2116000000 0.0035609 -0.0192163 0.9964391 0.0192163 0.9964391 0.0192163 0.0035609 -0.0192163
2137000000 0.0035437 -0.0181615 0.9964563 0.0181615 0.9964563 0.0181615 0.0035437 -0.0181615
2158000000 0.0035292 -0.0171177 0.9964708 0.0171177 0.9964708 0.0171177 0.0035292 -0.0171177
2179000000 0.0035172 -0.0160845 0.9964828 0.0160845 0.9964828 0.0160845 0.0035172 -0.0160845
2200000000 0.0035078 -0.0150615 0.9964922 0.0150615 0.9964922 0.0150615 0.0035078 -0.0150615
2221000000 0.0035008 -0.0140484 0.9964992 0.0140484 0.9964992 0.0140484 0.0035008 -0.0140484
2242000000 0.0034962 -0.0130448 0.9965038 0.0130448 0.9965038 0.0130448 0.0034962 -0.0130448
2263000000 0.0034939 -0.0120506 0.9965061 0.0120506 0.9965061 0.0120506 0.0034939 -0.0120506
2284000000 0.0034938 -0.0110653 0.9965062 0.0110653 0.9965062 0.0110653 0.0034938 -0.0110653
2305000000 0.0034960 -0.0100887 0.9965040 0.0100887 0.9965040 0.0100887 0.0034960 -0.0100887
2326000000 0.0035004 -0.0091205 0.9964996 0.0091205 0.9964996 0.0091205 0.0035004 -0.0091205
2347000000 0.0035068 -0.0081604 0.9964932 0.0081604 0.9964932 0.0081604 0.0035068 -0.0081604
2368000000 0.0035154 -0.0072082 0.9964846 0.0072082 0.9964846 0.0072082 0.0035154 -0.0072082
2389000000 0.0035260 -0.0062636 0.9964740 0.0062636 0.9964740 0.0062636 0.0035260 -0.0062636
2410000000 0.0035386 -0.0053264 0.9964614 0.0053264 0.9964614 0.0053264 0.0035386 -0.0053264
2431000000 0.0035531 -0.0043963 0.9964469 0.0043963 0.9964469 0.0043963 0.0035531 -0.0043963
2452000000 0.0035696 -0.0034731 0.9964304 0.0034731 0.9964304 0.0034731 0.0035696 -0.0034731
2473000000 0.0035880 -0.0025566 0.9964120 0.0025566 0.9964120 0.0025566 0.0035880 -0.0025566
2494000000 0.0036083 -0.0016466 0.9963917 0.0016466 0.9963917 0.0016466 0.0036083 -0.0016466
2515000000 0.0036305 -0.0007428 0.9963695 0.0007428 0.9963695 0.0007428 0.0036305 -0.0007428
2536000000 0.0036544 0.0001550 0.9963456 -0.0001550 0.9963456 -0.0001550 0.0036544 0.0001550
2557000000 0.0036802 0.0010469 0.9963198 -0.0010469 0.9963198 -0.0010469 0.0036802 0.0010469
2578000000 0.0037077 0.0019332 0.9962923 -0.0019332 0.9962923 -0.0019332 0.0037077 0.0019332
2599000000 0.0037371 0.0028140 0.9962629 -0.0028140 0.9962629 -0.0028140 0.0037371 0.0028140
2620000000 0.0037682 0.0036896 0.9962318 -0.0036896 0.9962318 -0.0036896 0.0037682 0.0036896
2641000000 0.0038010 0.0045600 0.9961990 -0.0045600 0.9961990 -0.0045600 0.0038010 0.0045600
2662000000 0.0038355 0.0054256 0.9961645 -0.0054256 0.9961645 -0.0054256 0.0038355 0.0054256
2683000000 0.0038718 0.0062864 0.9961282 -0.0062864 0.9961282 -0.0062864 0.0038718 0.0062864
2704000000 0.0039098 0.0071427 0.9960902 -0.0071427 0.9960902 -0.0071427 0.0039098 0.0071427
2725000000 0.0039494 0.0079945 0.9960506 -0.0079945 0.9960506 -0.0079945 0.0039494 0.0079945
2746000000 0.0039908 0.0088421 0.9960092 -0.0088421 0.9960092 -0.0088421 0.0039908 0.0088421
2767000000 0.0040339 0.0096856 0.9959661 -0.0096856 0.9959661 -0.0096856 0.0040339 0.0096856
2788000000 0.0040787 0.0105252 0.9959213 -0.0105252 0.9959213 -0.0105252 0.0040787 0.0105252
2809000000 0.0041251 0.0113610 0.9958749 -0.0113610 0.9958749 -0.0113610 0.0041251 0.0113610
2830000000 0.0041733 0.0121932 0.9958267 -0.0121932 0.9958267 -0.0121932 0.0041733 0.0121932
2851000000 0.0042231 0.0130218 0.9957769 -0.0130218 0.9957769 -0.0130218 0.0042231 0.0130218
2872000000 0.0042746 0.0138472 0.9957254 -0.0138472 0.9957254 -0.0138472 0.0042746 0.0138472
2893000000 0.0043279 0.0146693 0.9956721 -0.0146693 0.9956721 -0.0146693 0.0043279 0.0146693
2914000000 0.0043829 0.0154883 0.9956171 -0.0154883 0.9956171 -0.0154883 0.0043829 0.0154883
2935000000 0.0044396 0.0163044 0.9955604 -0.0163044 0.9955604 -0.0163044 0.0044396 0.0163044
2956000000 0.0044980 0.0171178 0.9955020 -0.0171178 0.9955020 -0.0171178 0.0044980 0.0171178
2977000000 0.0045582 0.0179284 0.9954418 -0.0179284 0.9954418 -0.0179284 0.0045582 0.0179284
2998000000 0.0046201 0.0187365 0.9953799 -0.0187365 0.9953799 -0.0187365 0.0046201 0.0187365
3019000000 0.0046839 0.0195422 0.9953161 -0.0195422 0.9953161 -0.0195422 0.0046839 0.0195422
3040000000 0.0047494 0.0203456 0.9952506 -0.0203456 0.9952506 -0.0203456 0.0047494 0.0203456
3061000000 0.0048167 0.0211469 0.9951833 -0.0211469 0.9951833 -0.0211469 0.0048167 0.0211469
3082000000 0.0048860 0.0219461 0.9951140 -0.0219461 0.9951140 -0.0219461 0.0048860 0.0219461
3103000000 0.0049570 0.0227434 0.9950430 -0.0227434 0.9950430 -0.0227434 0.0049570 0.0227434
3124000000 0.0050300 0.0235390 0.9949700 -0.0235390 0.9949700 -0.0235390 0.0050300 0.0235390
3145000000 0.0051049 0.0243328 0.9948951 -0.0243328 0.9948951 -0.0243328 0.0051049 0.0243328
3166000000 0.0051818 0.0251251 0.9948182 -0.0251251 0.9948182 -0.0251251 0.0051818 0.0251251
3187000000 0.0052607 0.0259160 0.9947393 -0.0259160 0.9947393 -0.0259160 0.0052607 0.0259160
3208000000 0.0053416 0.0267056 0.9946584 -0.0267056 0.9946584 -0.0267056 0.0053416 0.0267056
3229000000 0.0054246 0.0274940 0.9945754 -0.0274940 0.9945754 -0.0274940 0.0054246 0.0274940
3250000000 0.0055097 0.0282813 0.9944903 -0.0282813 0.9944903 -0.0282813 0.0055097 0.0282813
3271000000 0.0055970 0.0290676 0.9944030 -0.0290676 0.9944030 -0.0290676 0.0055970 0.0290676
3292000000 0.0056865 0.0298532 0.9943135 -0.0298532 0.9943135 -0.0298532 0.0056865 0.0298532
3313000000 0.0057783 0.0306380 0.9942217 -0.0306380 0.9942217 -0.0306380 0.0057783 0.0306380
3334000000 0.0058724 0.0314222 0.9941276 -0.0314222 0.9941276 -0.0314222 0.0058724 0.0314222
3355000000 0.0059689 0.0322059 0.9940311 -0.0322059 0.9940311 -0.0322059 0.0059689 0.0322059
3376000000 0.0060679 0.0329893 0.9939321 -0.0329893 0.9939321 -0.0329893 0.0060679 0.0329893
3397000000 0.0061694 0.0337724 0.9938306 -0.0337724 0.9938306 -0.0337724 0.0061694 0.0337724
3418000000 0.0062735 0.0345554 0.9937265 -0.0345554 0.9937265 -0.0345554 0.0062735 0.0345554
3439000000 0.0063803 0.0353384 0.9936197 -0.0353384 0.9936197 -0.0353384 0.0063803 0.0353384
3460000000 0.0064898 0.0361216 0.9935102 -0.0361216 0.9935102 -0.0361216 0.0064898 0.0361216
3481000000 0.0066022 0.0369049 0.9933978 -0.0369049 0.9933978 -0.0369049 0.0066022 0.0369049
3502000000 0.0067176 0.0376887 0.9932824 -0.0376887 0.9932824 -0.0376887 0.0067176 0.0376887
3523000000 0.0068360 0.0384729 0.9931640 -0.0384729 0.9931640 -0.0384729 0.0068360 0.0384729
3544000000 0.0069576 0.0392577 0.9930424 -0.0392577 0.9930424 -0.0392577 0.0069576 0.0392577
3565000000 0.0070825 0.0400433 0.9929175 -0.0400433 0.9929175 -0.0400433 0.0070825 0.0400433
3586000000 0.0072109 0.0408298 0.9927891 -0.0408298 0.9927891 -0.0408298 0.0072109 0.0408298
3607000000 0.0073427 0.0416173 0.9926573 -0.0416173 0.9926573 -0.0416173 0.0073427 0.0416173
3628000000 0.0074783 0.0424059 0.9925217 -0.0424059 0.9925217 -0.0424059 0.0074783 0.0424059
3649000000 0.0076178 0.0431958 0.9923822 -0.0431958 0.9923822 -0.0431958 0.0076178 0.0431958
3670000000 0.0077613 0.0439870 0.9922387 -0.0439870 0.9922387 -0.0439870 0.0077613 0.0439870
3691000000 0.0079090 0.0447798 0.9920910 -0.0447798 0.9920910 -0.0447798 0.0079090 0.0447798
3712000000 0.0080611 0.0455743 0.9919389 -0.0455743 0.9919389 -0.0455743 0.0080611 0.0455743
3733000000 0.0082178 0.0463706 0.9917822 -0.0463706 0.9917822 -0.0463706 0.0082178 0.0463706
3754000000 0.0083794 0.0471689 0.9916206 -0.0471689 0.9916206 -0.0471689 0.0083794 0.0471689
3775000000 0.0085460 0.0479693 0.9914540 -0.0479693 0.9914540 -0.0479693 0.0085460 0.0479693
3796000000 0.0087180 0.0487718 0.9912820 -0.0487718 0.9912820 -0.0487718 0.0087180 0.0487718
3817000000 0.0088957 0.0495768 0.9911043 -0.0495768 0.9911043 -0.0495768 0.0088957 0.0495768
3838000000 0.0090792 0.0503843 0.9909208 -0.0503843 0.9909208 -0.0503843 0.0090792 0.0503843
3859000000 0.0092691 0.0511944 0.9907309 -0.0511944 0.9907309 -0.0511944 0.0092691 0.0511944
3880000000 0.0094655 0.0520074 0.9905345 -0.0520074 0.9905345 -0.0520074 0.0094655 0.0520074
3901000000 0.0096690 0.0528233 0.9903310 -0.0528233 0.9903310 -0.0528233 0.0096690 0.0528233
3922000000 0.0098799 0.0536422 0.9901201 -0.0536422 0.9901201 -0.0536422 0.0098799 0.0536422
3943000000 0.0100986 0.0544644 0.9899014 -0.0544644 0.9899014 -0.0544644 0.0100986 0.0544644
3964000000 0.0103257 0.0552898 0.9896743 -0.0552898 0.9896743 -0.0552898 0.0103257 0.0552898
3985000000 0.0105618 0.0561187 0.9894382 -0.0561187 0.9894382 -0.0561187 0.0105618 0.0561187
4006000000 0.0108073 0.0569512 0.9891927 -0.0569512 0.9891927 -0.0569512 0.0108073 0.0569512
4027000000 0.0110629 0.0577872 0.9889371 -0.0577872 0.9889371 -0.0577872 0.0110629 0.0577872
4048000000 0.0113292 0.0586270 0.9886708 -0.0586270 0.9886708 -0.0586270 0.0113292 0.0586270
4069000000 0.0116072 0.0594705 0.9883928 -0.0594705 0.9883928 -0.0594705 0.0116072 0.0594705
4090000000 0.0118975 0.0603178 0.9881025 -0.0603178 0.9881025 -0.0603178 0.0118975 0.0603178
4111000000 0.0122010 0.0611688 0.9877990 -0.0611688 0.9877990 -0.0611688 0.0122010 0.0611688
4132000000 0.0125187 0.0620236 0.9874813 -0.0620236 0.9874813 -0.0620236 0.0125187 0.0620236
4153000000 0.0128517 0.0628820 0.9871483 -0.0628820 0.9871483 -0.0628820 0.0128517 0.0628820
4174000000 0.0132011 0.0637438 0.9867989 -0.0637438 0.9867989 -0.0637438 0.0132011 0.0637438
4195000000 0.0135681 0.0646089 0.9864319 -0.0646089 0.9864319 -0.0646089 0.0135681 0.0646089
4216000000 0.0139542 0.0654769 0.9860458 -0.0654769 0.9860458 -0.0654769 0.0139542 0.0654769
4237000000 0.0143607 0.0663473 0.9856393 -0.0663473 0.9856393 -0.0663473 0.0143607 0.0663473
4258000000 0.0147894 0.0672197 0.9852106 -0.0672197 0.9852106 -0.0672197 0.0147894 0.0672197
4279000000 0.0152420 0.0680933 0.9847580 -0.0680933 0.9847580 -0.0680933 0.0152420 0.0680933
4300000000 0.0157203 0.0689673 0.9842797 -0.0689673 0.9842797 -0.0689673 0.0157203 0.0689673
4321000000 0.0162264 0.0698404 0.9837736 -0.0698404 0.9837736 -0.0698404 0.0162264 0.0698404
4342000000 0.0167626 0.0707113 0.9832374 -0.0707113 0.9832374 -0.0707113 0.0167626 0.0707113
4363000000 0.0173311 0.0715784 0.9826689 -0.0715784 0.9826689 -0.0715784 0.0173311 0.0715784
4384000000 0.0179345 0.0724395 0.9820655 -0.0724395 0.9820655 -0.0724395 0.0179345 0.0724395
4405000000 0.0185753 0.0732920 0.9814247 -0.0732920 0.9814247 -0.0732920 0.0185753 0.0732920
4426000000 0.0192564 0.0741330 0.9807436 -0.0741330 0.9807436 -0.0741330 0.0192564 0.0741330
4447000000 0.0199803 0.0749586 0.9800197 -0.0749586 0.9800197 -0.0749586 0.0199803 0.0749586
4468000000 0.0207500 0.0757646 0.9792500 -0.0757646 0.9792500 -0.0757646 0.0207500 0.0757646
4489000000 0.0215679 0.0765456 0.9784321 -0.0765456 0.9784321 -0.0765456 0.0215679 0.0765456
4510000000 0.0224365 0.0772953 0.9775635 -0.0772953 0.9775635 -0.0772953 0.0224365 0.0772953
