!Murata Part Number: GRM1555C1H471GA01
!These Parameters are Measured in Series Mode Connection
!Data Generated on Mar 30, 2021
!       o--ll--o
!Port1            Port2
!       o------o
!Operation Temp=25[degC], DC Bias Voltage=0[V]
!Freq. Start=100[MHz] Stop=9[GHz] 401[Steps]
# Hz S RI R 50
!Freq.(Hz) S11(Real) S11(Imag) S21(Real) S21(Imag) S12(Real) S12(Imag) S22(Real) S22(Imag)
100000000 0.0015422 -0.0315568 0.9984578 0.0315568 0.9984578 0.0315568 0.0015422 -0.0315568
121000000 0.0011938 -0.0252310 0.9988062 0.0252310 0.9988062 0.0252310 0.0011938 -0.0252310
142000000 0.0009964 -0.0206335 0.9990036 0.0206335 0.9990036 0.0206335 0.0009964 -0.0206335
163000000 0.0008789 -0.0170977 0.9991211 0.0170977 0.9991211 0.0170977 0.0008789 -0.0170977
184000000 0.0008081 -0.0142607 0.9991919 0.0142607 0.9991919 0.0142607 0.0008081 -0.0142607
205000000 0.0007670 -0.0119079 0.9992330 0.0119079 0.9992330 0.0119079 0.0007670 -0.0119079
226000000 0.0007459 -0.0099044 0.9992541 0.0099044 0.9992541 0.0099044 0.0007459 -0.0099044
247000000 0.0007393 -0.0081611 0.9992607 0.0081611 0.9992607 0.0081611 0.0007393 -0.0081611
268000000 0.0007437 -0.0066167 0.9992563 0.0066167 0.9992563 0.0066167 0.0007437 -0.0066167
289000000 0.0007566 -0.0052278 0.9992434 0.0052278 0.9992434 0.0052278 0.0007566 -0.0052278
310000000 0.0007767 -0.0039626 0.9992233 0.0039626 0.9992233 0.0039626 0.0007767 -0.0039626
331000000 0.0008029 -0.0027974 0.9991971 0.0027974 0.9991971 0.0027974 0.0008029 -0.0027974
352000000 0.0008345 -0.0017140 0.9991655 0.0017140 0.9991655 0.0017140 0.0008345 -0.0017140
373000000 0.0008710 -0.0006982 0.9991290 0.0006982 0.9991290 0.0006982 0.0008710 -0.0006982
394000000 0.0009121 0.0002610 0.9990879 -0.0002610 0.9990879 -0.0002610 0.0009121 0.0002610
415000000 0.0009577 0.0011727 0.9990423 -0.0011727 0.9990423 -0.0011727 0.0009577 0.0011727
436000000 0.0010076 0.0020442 0.9989924 -0.0020442 0.9989924 -0.0020442 0.0010076 0.0020442
457000000 0.0010619 0.0028816 0.9989381 -0.0028816 0.9989381 -0.0028816 0.0010619 0.0028816
478000000 0.0011208 0.0036902 0.9988792 -0.0036902 0.9988792 -0.0036902 0.0011208 0.0036902
499000000 0.0011846 0.0044744 0.9988154 -0.0044744 0.9988154 -0.0044744 0.0011846 0.0044744
520000000 0.0012538 0.0052381 0.9987462 -0.0052381 0.9987462 -0.0052381 0.0012538 0.0052381
541000000 0.0013290 0.0059850 0.9986710 -0.0059850 0.9986710 -0.0059850 0.0013290 0.0059850
562000000 0.0014113 0.0067181 0.9985887 -0.0067181 0.9985887 -0.0067181 0.0014113 0.0067181
583000000 0.0015021 0.0074408 0.9984979 -0.0074408 0.9984979 -0.0074408 0.0015021 0.0074408
604000000 0.0016036 0.0081561 0.9983964 -0.0081561 0.9983964 -0.0081561 0.0016036 0.0081561
625000000 0.0017189 0.0088670 0.9982811 -0.0088670 0.9982811 -0.0088670 0.0017189 0.0088670
646000000 0.0018527 0.0095762 0.9981473 -0.0095762 0.9981473 -0.0095762 0.0018527 0.0095762
667000000 0.0020125 0.0102863 0.9979875 -0.0102863 0.9979875 -0.0102863 0.0020125 0.0102863
688000000 0.0022097 0.0109977 0.9977903 -0.0109977 0.9977903 -0.0109977 0.0022097 0.0109977
709000000 0.0024622 0.0117063 0.9975378 -0.0117063 0.9975378 -0.0117063 0.0024622 0.0117063
730000000 0.0027960 0.0123952 0.9972040 -0.0123952 0.9972040 -0.0123952 0.0027960 0.0123952
751000000 0.0032401 0.0130180 0.9967599 -0.0130180 0.9967599 -0.0130180 0.0032401 0.0130180
772000000 0.0037935 0.0134757 0.9962065 -0.0134757 0.9962065 -0.0134757 0.0037935 0.0134757
793000000 0.0043351 0.0136429 0.9956649 -0.0136429 0.9956649 -0.0136429 0.0043351 0.0136429
814000000 0.0045983 0.0135586 0.9954017 -0.0135586 0.9954017 -0.0135586 0.0045983 0.0135586
835000000 0.0044729 0.0135378 0.9955271 -0.0135378 0.9955271 -0.0135378 0.0044729 0.0135378
856000000 0.0041787 0.0138024 0.9958213 -0.0138024 0.9958213 -0.0138024 0.0041787 0.0138024
877000000 0.0039352 0.0143006 0.9960648 -0.0143006 0.9960648 -0.0143006 0.0039352 0.0143006
898000000 0.0038073 0.0149135 0.9961927 -0.0149135 0.9961927 -0.0149135 0.0038073 0.0149135
919000000 0.0037855 0.0155672 0.9962145 -0.0155672 0.9962145 -0.0155672 0.0037855 0.0155672
940000000 0.0038485 0.0162278 0.9961515 -0.0162278 0.9961515 -0.0162278 0.0038485 0.0162278
961000000 0.0039804 0.0168810 0.9960196 -0.0168810 0.9960196 -0.0168810 0.0039804 0.0168810
982000000 0.0041730 0.0175195 0.9958270 -0.0175195 0.9958270 -0.0175195 0.0041730 0.0175195
1003000000 0.0044236 0.0181374 0.9955764 -0.0181374 0.9955764 -0.0181374 0.0044236 0.0181374
1024000000 0.0047330 0.0187266 0.9952670 -0.0187266 0.9952670 -0.0187266 0.0047330 0.0187266
1045000000 0.0051032 0.0192748 0.9948968 -0.0192748 0.9948968 -0.0192748 0.0051032 0.0192748
1066000000 0.0055347 0.0197642 0.9944653 -0.0197642 0.9944653 -0.0197642 0.0055347 0.0197642
1087000000 0.0060225 0.0201706 0.9939775 -0.0201706 0.9939775 -0.0201706 0.0060225 0.0201706
1108000000 0.0065501 0.0204647 0.9934499 -0.0204647 0.9934499 -0.0204647 0.0065501 0.0204647
1129000000 0.0070841 0.0206186 0.9929159 -0.0206186 0.9929159 -0.0206186 0.0070841 0.0206186
1150000000 0.0075709 0.0206172 0.9924291 -0.0206172 0.9924291 -0.0206172 0.0075709 0.0206172
1171000000 0.0079449 0.0204739 0.9920551 -0.0204739 0.9920551 -0.0204739 0.0079449 0.0204739
1192000000 0.0081480 0.0202390 0.9918520 -0.0202390 0.9918520 -0.0202390 0.0081480 0.0202390
1213000000 0.0081551 0.0199904 0.9918449 -0.0199904 0.9918449 -0.0199904 0.0081551 0.0199904
1234000000 0.0079854 0.0198069 0.9920146 -0.0198069 0.9920146 -0.0198069 0.0079854 0.0198069
1255000000 0.0076917 0.0197416 0.9923083 -0.0197416 0.9923083 -0.0197416 0.0076917 0.0197416
1276000000 0.0073359 0.0198120 0.9926641 -0.0198120 0.9926641 -0.0198120 0.0073359 0.0198120
1297000000 0.0069699 0.0200074 0.9930301 -0.0200074 0.9930301 -0.0200074 0.0069699 0.0200074
1318000000 0.0066271 0.0203037 0.9933729 -0.0203037 0.9933729 -0.0203037 0.0066271 0.0203037
1339000000 0.0063247 0.0206739 0.9936753 -0.0206739 0.9936753 -0.0206739 0.0063247 0.0206739
1360000000 0.0060682 0.0210946 0.9939318 -0.0210946 0.9939318 -0.0210946 0.0060682 0.0210946
1381000000 0.0058568 0.0215476 0.9941432 -0.0215476 0.9941432 -0.0215476 0.0058568 0.0215476
1402000000 0.0056863 0.0220198 0.9943137 -0.0220198 0.9943137 -0.0220198 0.0056863 0.0220198
1423000000 0.0055514 0.0225021 0.9944486 -0.0225021 0.9944486 -0.0225021 0.0055514 0.0225021
1444000000 0.0054469 0.0229884 0.9945531 -0.0229884 0.9945531 -0.0229884 0.0054469 0.0229884
1465000000 0.0053680 0.0234749 0.9946320 -0.0234749 0.9946320 -0.0234749 0.0053680 0.0234749
1486000000 0.0053104 0.0239591 0.9946896 -0.0239591 0.9946896 -0.0239591 0.0053104 0.0239591
1507000000 0.0052708 0.0244394 0.9947292 -0.0244394 0.9947292 -0.0244394 0.0052708 0.0244394
1528000000 0.0052460 0.0249150 0.9947540 -0.0249150 0.9947540 -0.0249150 0.0052460 0.0249150
1549000000 0.0052337 0.0253856 0.9947663 -0.0253856 0.9947663 -0.0253856 0.0052337 0.0253856
1570000000 0.0052319 0.0258509 0.9947681 -0.0258509 0.9947681 -0.0258509 0.0052319 0.0258509
1591000000 0.0052388 0.0263110 0.9947612 -0.0263110 0.9947612 -0.0263110 0.0052388 0.0263110
1612000000 0.0052532 0.0267660 0.9947468 -0.0267660 0.9947468 -0.0267660 0.0052532 0.0267660
1633000000 0.0052740 0.0272161 0.9947260 -0.0272161 0.9947260 -0.0272161 0.0052740 0.0272161
1654000000 0.0053001 0.0276615 0.9946999 -0.0276615 0.9946999 -0.0276615 0.0053001 0.0276615
1675000000 0.0053308 0.0281025 0.9946692 -0.0281025 0.9946692 -0.0281025 0.0053308 0.0281025
1696000000 0.0053654 0.0285393 0.9946346 -0.0285393 0.9946346 -0.0285393 0.0053654 0.0285393
1717000000 0.0054034 0.0289722 0.9945966 -0.0289722 0.9945966 -0.0289722 0.0054034 0.0289722
1738000000 0.0054443 0.0294014 0.9945557 -0.0294014 0.9945557 -0.0294014 0.0054443 0.0294014
1759000000 0.0054877 0.0298272 0.9945123 -0.0298272 0.9945123 -0.0298272 0.0054877 0.0298272
1780000000 0.0055334 0.0302497 0.9944666 -0.0302497 0.9944666 -0.0302497 0.0055334 0.0302497
1801000000 0.0055809 0.0306691 0.9944191 -0.0306691 0.9944191 -0.0306691 0.0055809 0.0306691
1822000000 0.0056301 0.0310858 0.9943699 -0.0310858 0.9943699 -0.0310858 0.0056301 0.0310858
1843000000 0.0056807 0.0314997 0.9943193 -0.0314997 0.9943193 -0.0314997 0.0056807 0.0314997
1864000000 0.0057325 0.0319111 0.9942675 -0.0319111 0.9942675 -0.0319111 0.0057325 0.0319111
1885000000 0.0057855 0.0323202 0.9942145 -0.0323202 0.9942145 -0.0323202 0.0057855 0.0323202
1906000000 0.0058394 0.0327270 0.9941606 -0.0327270 0.9941606 -0.0327270 0.0058394 0.0327270
1927000000 0.0058942 0.0331318 0.9941058 -0.0331318 0.9941058 -0.0331318 0.0058942 0.0331318
1948000000 0.0059497 0.0335346 0.9940503 -0.0335346 0.9940503 -0.0335346 0.0059497 0.0335346
1969000000 0.0060059 0.0339356 0.9939941 -0.0339356 0.9939941 -0.0339356 0.0060059 0.0339356
1990000000 0.0060626 0.0343349 0.9939374 -0.0343349 0.9939374 -0.0343349 0.0060626 0.0343349
2011000000 0.0061198 0.0347325 0.9938802 -0.0347325 0.9938802 -0.0347325 0.0061198 0.0347325
2032000000 0.0061774 0.0351286 0.9938226 -0.0351286 0.9938226 -0.0351286 0.0061774 0.0351286
2053000000 0.0062355 0.0355233 0.9937645 -0.0355233 0.9937645 -0.0355233 0.0062355 0.0355233
2074000000 0.0062938 0.0359166 0.9937062 -0.0359166 0.9937062 -0.0359166 0.0062938 0.0359166
2095000000 0.0063524 0.0363086 0.9936476 -0.0363086 0.9936476 -0.0363086 0.0063524 0.0363086
2116000000 0.0064113 0.0366995 0.9935887 -0.0366995 0.9935887 -0.0366995 0.0064113 0.0366995
2137000000 0.0064704 0.0370892 0.9935296 -0.0370892 0.9935296 -0.0370892 0.0064704 0.0370892
2158000000 0.0065297 0.0374779 0.9934703 -0.0374779 0.9934703 -0.0374779 0.0065297 0.0374779
2179000000 0.0065892 0.0378656 0.9934108 -0.0378656 0.9934108 -0.0378656 0.0065892 0.0378656
2200000000 0.0066487 0.0382523 0.9933513 -0.0382523 0.9933513 -0.0382523 0.0066487 0.0382523
2221000000 0.0067084 0.0386382 0.9932916 -0.0386382 0.9932916 -0.0386382 0.0067084 0.0386382
2242000000 0.0067682 0.0390232 0.9932318 -0.0390232 0.9932318 -0.0390232 0.0067682 0.0390232
2263000000 0.0068281 0.0394075 0.9931719 -0.0394075 0.9931719 -0.0394075 0.0068281 0.0394075
2284000000 0.0068881 0.0397910 0.9931119 -0.0397910 0.9931119 -0.0397910 0.0068881 0.0397910
2305000000 0.0069481 0.0401739 0.9930519 -0.0401739 0.9930519 -0.0401739 0.0069481 0.0401739
2326000000 0.0070081 0.0405561 0.9929919 -0.0405561 0.9929919 -0.0405561 0.0070081 0.0405561
2347000000 0.0070682 0.0409378 0.9929318 -0.0409378 0.9929318 -0.0409378 0.0070682 0.0409378
2368000000 0.0071284 0.0413188 0.9928716 -0.0413188 0.9928716 -0.0413188 0.0071284 0.0413188
2389000000 0.0071885 0.0416994 0.9928115 -0.0416994 0.9928115 -0.0416994 0.0071885 0.0416994
2410000000 0.0072487 0.0420795 0.9927513 -0.0420795 0.9927513 -0.0420795 0.0072487 0.0420795
2431000000 0.0073089 0.0424592 0.9926911 -0.0424592 0.9926911 -0.0424592 0.0073089 0.0424592
2452000000 0.0073691 0.0428385 0.9926309 -0.0428385 0.9926309 -0.0428385 0.0073691 0.0428385
2473000000 0.0074293 0.0432174 0.9925707 -0.0432174 0.9925707 -0.0432174 0.0074293 0.0432174
2494000000 0.0074895 0.0435959 0.9925105 -0.0435959 0.9925105 -0.0435959 0.0074895 0.0435959
2515000000 0.0075498 0.0439741 0.9924502 -0.0439741 0.9924502 -0.0439741 0.0075498 0.0439741
2536000000 0.0076100 0.0443521 0.9923900 -0.0443521 0.9923900 -0.0443521 0.0076100 0.0443521
2557000000 0.0076702 0.0447298 0.9923298 -0.0447298 0.9923298 -0.0447298 0.0076702 0.0447298
2578000000 0.0077305 0.0451073 0.9922695 -0.0451073 0.9922695 -0.0451073 0.0077305 0.0451073
2599000000 0.0077907 0.0454846 0.9922093 -0.0454846 0.9922093 -0.0454846 0.0077907 0.0454846
2620000000 0.0078510 0.0458617 0.9921490 -0.0458617 0.9921490 -0.0458617 0.0078510 0.0458617
2641000000 0.0079112 0.0462386 0.9920888 -0.0462386 0.9920888 -0.0462386 0.0079112 0.0462386
2662000000 0.0079715 0.0466155 0.9920285 -0.0466155 0.9920285 -0.0466155 0.0079715 0.0466155
2683000000 0.0080318 0.0469922 0.9919682 -0.0469922 0.9919682 -0.0469922 0.0080318 0.0469922
2704000000 0.0080920 0.0473688 0.9919080 -0.0473688 0.9919080 -0.0473688 0.0080920 0.0473688
2725000000 0.0081524 0.0477454 0.9918476 -0.0477454 0.9918476 -0.0477454 0.0081524 0.0477454
2746000000 0.0082127 0.0481220 0.9917873 -0.0481220 0.9917873 -0.0481220 0.0082127 0.0481220
2767000000 0.0082730 0.0484985 0.9917270 -0.0484985 0.9917270 -0.0484985 0.0082730 0.0484985
2788000000 0.0083334 0.0488750 0.9916666 -0.0488750 0.9916666 -0.0488750 0.0083334 0.0488750
2809000000 0.0083938 0.0492515 0.9916062 -0.0492515 0.9916062 -0.0492515 0.0083938 0.0492515
2830000000 0.0084542 0.0496281 0.9915458 -0.0496281 0.9915458 -0.0496281 0.0084542 0.0496281
2851000000 0.0085147 0.0500047 0.9914853 -0.0500047 0.9914853 -0.0500047 0.0085147 0.0500047
2872000000 0.0085752 0.0503814 0.9914248 -0.0503814 0.9914248 -0.0503814 0.0085752 0.0503814
2893000000 0.0086357 0.0507582 0.9913643 -0.0507582 0.9913643 -0.0507582 0.0086357 0.0507582
2914000000 0.0086963 0.0511351 0.9913037 -0.0511351 0.9913037 -0.0511351 0.0086963 0.0511351
2935000000 0.0087569 0.0515122 0.9912431 -0.0515122 0.9912431 -0.0515122 0.0087569 0.0515122
2956000000 0.0088176 0.0518893 0.9911824 -0.0518893 0.9911824 -0.0518893 0.0088176 0.0518893
2977000000 0.0088784 0.0522666 0.9911216 -0.0522666 0.9911216 -0.0522666 0.0088784 0.0522666
2998000000 0.0089392 0.0526441 0.9910608 -0.0526441 0.9910608 -0.0526441 0.0089392 0.0526441
3019000000 0.0090000 0.0530218 0.9910000 -0.0530218 0.9910000 -0.0530218 0.0090000 0.0530218
3040000000 0.0090610 0.0533996 0.9909390 -0.0533996 0.9909390 -0.0533996 0.0090610 0.0533996
3061000000 0.0091220 0.0537777 0.9908780 -0.0537777 0.9908780 -0.0537777 0.0091220 0.0537777
3082000000 0.0091831 0.0541560 0.9908169 -0.0541560 0.9908169 -0.0541560 0.0091831 0.0541560
3103000000 0.0092443 0.0545345 0.9907557 -0.0545345 0.9907557 -0.0545345 0.0092443 0.0545345
3124000000 0.0093056 0.0549133 0.9906944 -0.0549133 0.9906944 -0.0549133 0.0093056 0.0549133
3145000000 0.0093669 0.0552923 0.9906331 -0.0552923 0.9906331 -0.0552923 0.0093669 0.0552923
3166000000 0.0094284 0.0556717 0.9905716 -0.0556717 0.9905716 -0.0556717 0.0094284 0.0556717
3187000000 0.0094900 0.0560513 0.9905100 -0.0560513 0.9905100 -0.0560513 0.0094900 0.0560513
3208000000 0.0095516 0.0564312 0.9904484 -0.0564312 0.9904484 -0.0564312 0.0095516 0.0564312
3229000000 0.0096134 0.0568115 0.9903866 -0.0568115 0.9903866 -0.0568115 0.0096134 0.0568115
3250000000 0.0096753 0.0571920 0.9903247 -0.0571920 0.9903247 -0.0571920 0.0096753 0.0571920
3271000000 0.0097374 0.0575729 0.9902626 -0.0575729 0.9902626 -0.0575729 0.0097374 0.0575729
3292000000 0.0097995 0.0579542 0.9902005 -0.0579542 0.9902005 -0.0579542 0.0097995 0.0579542
3313000000 0.0098618 0.0583358 0.9901382 -0.0583358 0.9901382 -0.0583358 0.0098618 0.0583358
3334000000 0.0099242 0.0587178 0.9900758 -0.0587178 0.9900758 -0.0587178 0.0099242 0.0587178
3355000000 0.0099868 0.0591002 0.9900132 -0.0591002 0.9900132 -0.0591002 0.0099868 0.0591002
3376000000 0.0100495 0.0594830 0.9899505 -0.0594830 0.9899505 -0.0594830 0.0100495 0.0594830
3397000000 0.0101124 0.0598662 0.9898876 -0.0598662 0.9898876 -0.0598662 0.0101124 0.0598662
3418000000 0.0101754 0.0602498 0.9898246 -0.0602498 0.9898246 -0.0602498 0.0101754 0.0602498
3439000000 0.0102386 0.0606338 0.9897614 -0.0606338 0.9897614 -0.0606338 0.0102386 0.0606338
3460000000 0.0103019 0.0610183 0.9896981 -0.0610183 0.9896981 -0.0610183 0.0103019 0.0610183
3481000000 0.0103654 0.0614032 0.9896346 -0.0614032 0.9896346 -0.0614032 0.0103654 0.0614032
3502000000 0.0104291 0.0617886 0.9895709 -0.0617886 0.9895709 -0.0617886 0.0104291 0.0617886
3523000000 0.0104930 0.0621745 0.9895070 -0.0621745 0.9895070 -0.0621745 0.0104930 0.0621745
3544000000 0.0105571 0.0625608 0.9894429 -0.0625608 0.9894429 -0.0625608 0.0105571 0.0625608
3565000000 0.0106213 0.0629477 0.9893787 -0.0629477 0.9893787 -0.0629477 0.0106213 0.0629477
3586000000 0.0106858 0.0633350 0.9893142 -0.0633350 0.9893142 -0.0633350 0.0106858 0.0633350
3607000000 0.0107504 0.0637228 0.9892496 -0.0637228 0.9892496 -0.0637228 0.0107504 0.0637228
3628000000 0.0108153 0.0641112 0.9891847 -0.0641112 0.9891847 -0.0641112 0.0108153 0.0641112
3649000000 0.0108803 0.0645001 0.9891197 -0.0645001 0.9891197 -0.0645001 0.0108803 0.0645001
3670000000 0.0109456 0.0648896 0.9890544 -0.0648896 0.9890544 -0.0648896 0.0109456 0.0648896
3691000000 0.0110111 0.0652796 0.9889889 -0.0652796 0.9889889 -0.0652796 0.0110111 0.0652796
3712000000 0.0110768 0.0656702 0.9889232 -0.0656702 0.9889232 -0.0656702 0.0110768 0.0656702
3733000000 0.0111428 0.0660613 0.9888572 -0.0660613 0.9888572 -0.0660613 0.0111428 0.0660613
3754000000 0.0112090 0.0664530 0.9887910 -0.0664530 0.9887910 -0.0664530 0.0112090 0.0664530
3775000000 0.0112754 0.0668454 0.9887246 -0.0668454 0.9887246 -0.0668454 0.0112754 0.0668454
3796000000 0.0113421 0.0672383 0.9886579 -0.0672383 0.9886579 -0.0672383 0.0113421 0.0672383
3817000000 0.0114090 0.0676318 0.9885910 -0.0676318 0.9885910 -0.0676318 0.0114090 0.0676318
3838000000 0.0114762 0.0680260 0.9885238 -0.0680260 0.9885238 -0.0680260 0.0114762 0.0680260
3859000000 0.0115436 0.0684208 0.9884564 -0.0684208 0.9884564 -0.0684208 0.0115436 0.0684208
3880000000 0.0116113 0.0688162 0.9883887 -0.0688162 0.9883887 -0.0688162 0.0116113 0.0688162
3901000000 0.0116793 0.0692123 0.9883207 -0.0692123 0.9883207 -0.0692123 0.0116793 0.0692123
3922000000 0.0117476 0.0696090 0.9882524 -0.0696090 0.9882524 -0.0696090 0.0117476 0.0696090
3943000000 0.0118161 0.0700065 0.9881839 -0.0700065 0.9881839 -0.0700065 0.0118161 0.0700065
3964000000 0.0118849 0.0704046 0.9881151 -0.0704046 0.9881151 -0.0704046 0.0118849 0.0704046
3985000000 0.0119540 0.0708034 0.9880460 -0.0708034 0.9880460 -0.0708034 0.0119540 0.0708034
4006000000 0.0120234 0.0712029 0.9879766 -0.0712029 0.9879766 -0.0712029 0.0120234 0.0712029
4027000000 0.0120932 0.0716031 0.9879068 -0.0716031 0.9879068 -0.0716031 0.0120932 0.0716031
4048000000 0.0121632 0.0720040 0.9878368 -0.0720040 0.9878368 -0.0720040 0.0121632 0.0720040
4069000000 0.0122335 0.0724057 0.9877665 -0.0724057 0.9877665 -0.0724057 0.0122335 0.0724057
4090000000 0.0123042 0.0728081 0.9876958 -0.0728081 0.9876958 -0.0728081 0.0123042 0.0728081
4111000000 0.0123751 0.0732112 0.9876249 -0.0732112 0.9876249 -0.0732112 0.0123751 0.0732112
4132000000 0.0124464 0.0736152 0.9875536 -0.0736152 0.9875536 -0.0736152 0.0124464 0.0736152
4153000000 0.0125181 0.0740199 0.9874819 -0.0740199 0.9874819 -0.0740199 0.0125181 0.0740199
4174000000 0.0125900 0.0744253 0.9874100 -0.0744253 0.9874100 -0.0744253 0.0125900 0.0744253
4195000000 0.0126623 0.0748316 0.9873377 -0.0748316 0.9873377 -0.0748316 0.0126623 0.0748316
4216000000 0.0127350 0.0752387 0.9872650 -0.0752387 0.9872650 -0.0752387 0.0127350 0.0752387
4237000000 0.0128080 0.0756466 0.9871920 -0.0756466 0.9871920 -0.0756466 0.0128080 0.0756466
4258000000 0.0128814 0.0760553 0.9871186 -0.0760553 0.9871186 -0.0760553 0.0128814 0.0760553
4279000000 0.0129551 0.0764649 0.9870449 -0.0764649 0.9870449 -0.0764649 0.0129551 0.0764649
4300000000 0.0130293 0.0768753 0.9869707 -0.0768753 0.9869707 -0.0768753 0.0130293 0.0768753
4321000000 0.0131037 0.0772865 0.9868963 -0.0772865 0.9868963 -0.0772865 0.0131037 0.0772865
4342000000 0.0131786 0.0776986 0.9868214 -0.0776986 0.9868214 -0.0776986 0.0131786 0.0776986
4363000000 0.0132539 0.0781116 0.9867461 -0.0781116 0.9867461 -0.0781116 0.0132539 0.0781116
4384000000 0.0133295 0.0785255 0.9866705 -0.0785255 0.9866705 -0.0785255 0.0133295 0.0785255
4405000000 0.0134056 0.0789403 0.9865944 -0.0789403 0.9865944 -0.0789403 0.0134056 0.0789403
4426000000 0.0134821 0.0793560 0.9865179 -0.0793560 0.9865179 -0.0793560 0.0134821 0.0793560
4447000000 0.0135589 0.0797727 0.9864411 -0.0797727 0.9864411 -0.0797727 0.0135589 0.0797727
4468000000 0.0136362 0.0801902 0.9863638 -0.0801902 0.9863638 -0.0801902 0.0136362 0.0801902
4489000000 0.0137139 0.0806088 0.9862861 -0.0806088 0.9862861 -0.0806088 0.0137139 0.0806088
4510000000 0.0137921 0.0810282 0.9862079 -0.0810282 0.9862079 -0.0810282 0.0137921 0.0810282
