!Murata Part Number: GRM1555C1H182JA01
!These Parameters are Measured in Series Mode Connection
!Data Generated on Mar 30, 2021
!       o--ll--o
!Port1            Port2
!       o------o
!Operation Temp=25[degC], DC Bias Voltage=0[V]
!Freq. Start=1000[kHz] Stop=6[GHz] 401[Steps]
# Hz S RI R 50
!Freq.(Hz) S11(Real) S11(Imag) S21(Real) S21(Imag) S12(Real) S12(Imag) S22(Real) S22(Imag)
1000000 0.4290677 -0.4949037 0.5709323 0.4949037 0.5709323 0.4949037 0.4290677 -0.4949037
1021987 0.4184465 -0.4932639 0.5815535 0.4932639 0.5815535 0.4932639 0.4184465 -0.4932639
1044457 0.4079004 -0.4914031 0.5920996 0.4914031 0.5920996 0.4914031 0.4079004 -0.4914031
1067422 0.3974384 -0.4893257 0.6025616 0.4893257 0.6025616 0.4893257 0.3974384 -0.4893257
1090891 0.3870693 -0.4870362 0.6129307 0.4870362 0.6129307 0.4870362 0.3870693 -0.4870362
1114877 0.3768017 -0.4845399 0.6231983 0.4845399 0.6231983 0.4845399 0.3768017 -0.4845399
1139390 0.3666434 -0.4818422 0.6333566 0.4818422 0.6333566 0.4818422 0.3666434 -0.4818422
1164441 0.3566024 -0.4789489 0.6433976 0.4789489 0.6433976 0.4789489 0.3566024 -0.4789489
1190044 0.3466858 -0.4758664 0.6533142 0.4758664 0.6533142 0.4758664 0.3466858 -0.4758664
1216210 0.3369006 -0.4726010 0.6630994 0.4726010 0.6630994 0.4726010 0.3369006 -0.4726010
1242950 0.3272532 -0.4691597 0.6727468 0.4691597 0.6727468 0.4691597 0.3272532 -0.4691597
1270279 0.3177497 -0.4655494 0.6822503 0.4655494 0.6822503 0.4655494 0.3177497 -0.4655494
1298209 0.3083958 -0.4617773 0.6916042 0.4617773 0.6916042 0.4617773 0.3083958 -0.4617773
1326753 0.2991964 -0.4578510 0.7008036 0.4578510 0.7008036 0.4578510 0.2991964 -0.4578510
1355924 0.2901564 -0.4537779 0.7098436 0.4537779 0.7098436 0.4537779 0.2901564 -0.4537779
1385737 0.2812799 -0.4495657 0.7187201 0.4495657 0.7187201 0.4495657 0.2812799 -0.4495657
1416205 0.2725707 -0.4452222 0.7274293 0.4452222 0.7274293 0.4452222 0.2725707 -0.4452222
1447343 0.2640321 -0.4407552 0.7359679 0.4407552 0.7359679 0.4407552 0.2640321 -0.4407552
1479166 0.2556671 -0.4361725 0.7443329 0.4361725 0.7443329 0.4361725 0.2556671 -0.4361725
1511688 0.2474779 -0.4314820 0.7525221 0.4314820 0.7525221 0.4314820 0.2474779 -0.4314820
1544926 0.2394667 -0.4266915 0.7605333 0.4266915 0.7605333 0.4266915 0.2394667 -0.4266915
1578894 0.2316351 -0.4218087 0.7683649 0.4218087 0.7683649 0.4218087 0.2316351 -0.4218087
1613609 0.2239842 -0.4168413 0.7760158 0.4168413 0.7760158 0.4168413 0.2239842 -0.4168413
1649087 0.2165148 -0.4117969 0.7834852 0.4117969 0.7834852 0.4117969 0.2165148 -0.4117969
1685346 0.2092275 -0.4066828 0.7907725 0.4066828 0.7907725 0.4066828 0.2092275 -0.4066828
1722402 0.2021221 -0.4015065 0.7978779 0.4015065 0.7978779 0.4015065 0.2021221 -0.4015065
1760272 0.1951986 -0.3962749 0.8048014 0.3962749 0.8048014 0.3962749 0.1951986 -0.3962749
1798975 0.1884562 -0.3909953 0.8115438 0.3909953 0.8115438 0.3909953 0.1884562 -0.3909953
1838529 0.1818941 -0.3856742 0.8181059 0.3856742 0.8181059 0.3856742 0.1818941 -0.3856742
1878953 0.1755112 -0.3803183 0.8244888 0.3803183 0.8244888 0.3803183 0.1755112 -0.3803183
1920266 0.1693060 -0.3749341 0.8306940 0.3749341 0.8306940 0.3749341 0.1693060 -0.3749341
1962487 0.1632768 -0.3695276 0.8367232 0.3695276 0.8367232 0.3695276 0.1632768 -0.3695276
2005636 0.1574216 -0.3641048 0.8425784 0.3641048 0.8425784 0.3641048 0.1574216 -0.3641048
2049734 0.1517384 -0.3586715 0.8482616 0.3586715 0.8482616 0.3586715 0.1517384 -0.3586715
2094801 0.1462249 -0.3532331 0.8537751 0.3532331 0.8537751 0.3532331 0.1462249 -0.3532331
2140860 0.1408785 -0.3477949 0.8591215 0.3477949 0.8591215 0.3477949 0.1408785 -0.3477949
2187931 0.1356965 -0.3423618 0.8643035 0.3423618 0.8643035 0.3423618 0.1356965 -0.3423618
2236037 0.1306763 -0.3369388 0.8693237 0.3369388 0.8693237 0.3369388 0.1306763 -0.3369388
2285201 0.1258148 -0.3315302 0.8741852 0.3315302 0.8741852 0.3315302 0.1258148 -0.3315302
2335446 0.1211091 -0.3261405 0.8788909 0.3261405 0.8788909 0.3261405 0.1211091 -0.3261405
2386795 0.1165560 -0.3207736 0.8834440 0.3207736 0.8834440 0.3207736 0.1165560 -0.3207736
2439274 0.1121523 -0.3154335 0.8878477 0.3154335 0.8878477 0.3154335 0.1121523 -0.3154335
2492906 0.1078948 -0.3101237 0.8921052 0.3101237 0.8921052 0.3101237 0.1078948 -0.3101237
2547717 0.1037801 -0.3048477 0.8962199 0.3048477 0.8962199 0.3048477 0.1037801 -0.3048477
2603734 0.0998048 -0.2996085 0.9001952 0.2996085 0.9001952 0.2996085 0.0998048 -0.2996085
2660982 0.0959656 -0.2944092 0.9040344 0.2944092 0.9040344 0.2944092 0.0959656 -0.2944092
2719490 0.0922591 -0.2892525 0.9077409 0.2892525 0.9077409 0.2892525 0.0922591 -0.2892525
2779283 0.0886817 -0.2841410 0.9113183 0.2841410 0.9113183 0.2841410 0.0886817 -0.2841410
2840391 0.0852302 -0.2790769 0.9147698 0.2790769 0.9147698 0.2790769 0.0852302 -0.2790769
2902843 0.0819010 -0.2740626 0.9180990 0.2740626 0.9180990 0.2740626 0.0819010 -0.2740626
2966668 0.0786908 -0.2690999 0.9213092 0.2690999 0.9213092 0.2690999 0.0786908 -0.2690999
3031896 0.0755961 -0.2641906 0.9244039 0.2641906 0.9244039 0.2641906 0.0755961 -0.2641906
3098558 0.0726137 -0.2593365 0.9273863 0.2593365 0.9273863 0.2593365 0.0726137 -0.2593365
3166686 0.0697401 -0.2545390 0.9302599 0.2545390 0.9302599 0.2545390 0.0697401 -0.2545390
3236312 0.0669722 -0.2497994 0.9330278 0.2497994 0.9330278 0.2497994 0.0669722 -0.2497994
3307469 0.0643066 -0.2451189 0.9356934 0.2451189 0.9356934 0.2451189 0.0643066 -0.2451189
3380190 0.0617403 -0.2404986 0.9382597 0.2404986 0.9382597 0.2404986 0.0617403 -0.2404986
3454511 0.0592699 -0.2359393 0.9407301 0.2359393 0.9407301 0.2359393 0.0592699 -0.2359393
3530465 0.0568926 -0.2314419 0.9431074 0.2314419 0.9431074 0.2314419 0.0568926 -0.2314419
3608090 0.0546051 -0.2270070 0.9453949 0.2270070 0.9453949 0.2270070 0.0546051 -0.2270070
3687421 0.0524047 -0.2226351 0.9475953 0.2226351 0.9475953 0.2226351 0.0524047 -0.2226351
3768496 0.0502883 -0.2183268 0.9497117 0.2183268 0.9497117 0.2183268 0.0502883 -0.2183268
3851354 0.0482532 -0.2140823 0.9517468 0.2140823 0.9517468 0.2140823 0.0482532 -0.2140823
3936034 0.0462965 -0.2099018 0.9537035 0.2099018 0.9537035 0.2099018 0.0462965 -0.2099018
4022575 0.0444156 -0.2057857 0.9555844 0.2057857 0.9555844 0.2057857 0.0444156 -0.2057857
4111020 0.0426078 -0.2017338 0.9573922 0.2017338 0.9573922 0.2017338 0.0426078 -0.2017338
4201409 0.0408706 -0.1977462 0.9591294 0.1977462 0.9591294 0.1977462 0.0408706 -0.1977462
4293785 0.0392014 -0.1938229 0.9607986 0.1938229 0.9607986 0.1938229 0.0392014 -0.1938229
4388193 0.0375979 -0.1899637 0.9624021 0.1899637 0.9624021 0.1899637 0.0375979 -0.1899637
4484676 0.0360576 -0.1861683 0.9639424 0.1861683 0.9639424 0.1861683 0.0360576 -0.1861683
4583281 0.0345783 -0.1824366 0.9654217 0.1824366 0.9654217 0.1824366 0.0345783 -0.1824366
4684054 0.0331577 -0.1787681 0.9668423 0.1787681 0.9668423 0.1787681 0.0331577 -0.1787681
4787042 0.0317937 -0.1751625 0.9682063 0.1751625 0.9682063 0.1751625 0.0317937 -0.1751625
4892295 0.0304841 -0.1716195 0.9695159 0.1716195 0.9695159 0.1716195 0.0304841 -0.1716195
4999862 0.0292270 -0.1681384 0.9707730 0.1681384 0.9707730 0.1681384 0.0292270 -0.1681384
5109794 0.0280204 -0.1647188 0.9719796 0.1647188 0.9719796 0.1647188 0.0280204 -0.1647188
5222143 0.0268624 -0.1613603 0.9731376 0.1613603 0.9731376 0.1613603 0.0268624 -0.1613603
5336962 0.0257510 -0.1580621 0.9742490 0.1580621 0.9742490 0.1580621 0.0257510 -0.1580621
5454306 0.0246847 -0.1548237 0.9753153 0.1548237 0.9753153 0.1548237 0.0246847 -0.1548237
5574230 0.0236615 -0.1516444 0.9763385 0.1516444 0.9763385 0.1516444 0.0236615 -0.1516444
5696791 0.0226800 -0.1485237 0.9773200 0.1485237 0.9773200 0.1485237 0.0226800 -0.1485237
5822046 0.0217383 -0.1454608 0.9782617 0.1454608 0.9782617 0.1454608 0.0217383 -0.1454608
5950055 0.0208351 -0.1424550 0.9791649 0.1424550 0.9791649 0.1424550 0.0208351 -0.1424550
6080879 0.0199688 -0.1395057 0.9800312 0.1395057 0.9800312 0.1395057 0.0199688 -0.1395057
6214580 0.0191380 -0.1366120 0.9808620 0.1366120 0.9808620 0.1366120 0.0191380 -0.1366120
6351220 0.0183412 -0.1337733 0.9816588 0.1337733 0.9816588 0.1337733 0.0183412 -0.1337733
6490864 0.0175772 -0.1309888 0.9824228 0.1309888 0.9824228 0.1309888 0.0175772 -0.1309888
6633579 0.0168446 -0.1282577 0.9831554 0.1282577 0.9831554 0.1282577 0.0168446 -0.1282577
6779431 0.0161421 -0.1255793 0.9838579 0.1255793 0.9838579 0.1255793 0.0161421 -0.1255793
6928491 0.0154687 -0.1229528 0.9845313 0.1229528 0.9845313 0.1229528 0.0154687 -0.1229528
7080828 0.0148231 -0.1203773 0.9851769 0.1203773 0.9851769 0.1203773 0.0148231 -0.1203773
7236514 0.0142042 -0.1178522 0.9857958 0.1178522 0.9857958 0.1178522 0.0142042 -0.1178522
7395623 0.0136110 -0.1153766 0.9863890 0.1153766 0.9863890 0.1153766 0.0136110 -0.1153766
7558231 0.0130424 -0.1129498 0.9869576 0.1129498 0.9869576 0.1129498 0.0130424 -0.1129498
7724414 0.0124974 -0.1105709 0.9875026 0.1105709 0.9875026 0.1105709 0.0124974 -0.1105709
7894251 0.0119750 -0.1082392 0.9880250 0.1082392 0.9880250 0.1082392 0.0119750 -0.1082392
8067822 0.0114745 -0.1059538 0.9885255 0.1059538 0.9885255 0.1059538 0.0114745 -0.1059538
8245209 0.0109948 -0.1037141 0.9890052 0.1037141 0.9890052 0.1037141 0.0109948 -0.1037141
8426497 0.0105351 -0.1015192 0.9894649 0.1015192 0.9894649 0.1015192 0.0105351 -0.1015192
8611770 0.0100946 -0.0993683 0.9899054 0.0993683 0.9899054 0.0993683 0.0100946 -0.0993683
8801117 0.0096725 -0.0972607 0.9903275 0.0972607 0.9903275 0.0972607 0.0096725 -0.0972607
8994628 0.0092681 -0.0951956 0.9907319 0.0951956 0.9907319 0.0951956 0.0092681 -0.0951956
9192393 0.0088807 -0.0931723 0.9911193 0.0931723 0.9911193 0.0931723 0.0088807 -0.0931723
9394506 0.0085095 -0.0911900 0.9914905 0.0911900 0.9914905 0.0911900 0.0085095 -0.0911900
9601063 0.0081539 -0.0892479 0.9918461 0.0892479 0.9918461 0.0892479 0.0081539 -0.0892479
9812162 0.0078132 -0.0873453 0.9921868 0.0873453 0.9921868 0.0873453 0.0078132 -0.0873453
10027902 0.0074869 -0.0854815 0.9925131 0.0854815 0.9925131 0.0854815 0.0074869 -0.0854815
10248386 0.0071743 -0.0836558 0.9928257 0.0836558 0.9928257 0.0836558 0.0071743 -0.0836558
10473717 0.0068749 -0.0818675 0.9931251 0.0818675 0.9931251 0.0818675 0.0068749 -0.0818675
10704003 0.0065881 -0.0801157 0.9934119 0.0801157 0.9934119 0.0801157 0.0065881 -0.0801157
10939352 0.0063134 -0.0784000 0.9936866 0.0784000 0.9936866 0.0784000 0.0063134 -0.0784000
11179876 0.0060503 -0.0767195 0.9939497 0.0767195 0.9939497 0.0767195 0.0060503 -0.0767195
11425688 0.0057984 -0.0750735 0.9942016 0.0750735 0.9942016 0.0750735 0.0057984 -0.0750735
11676904 0.0055571 -0.0734615 0.9944429 0.0734615 0.9944429 0.0734615 0.0055571 -0.0734615
11933645 0.0053260 -0.0718827 0.9946740 0.0718827 0.9946740 0.0718827 0.0053260 -0.0718827
12196030 0.0051047 -0.0703365 0.9948953 0.0703365 0.9948953 0.0703365 0.0051047 -0.0703365
12464184 0.0048929 -0.0688223 0.9951071 0.0688223 0.9951071 0.0688223 0.0048929 -0.0688223
12738235 0.0046900 -0.0673394 0.9953100 0.0673394 0.9953100 0.0673394 0.0046900 -0.0673394
13018310 0.0044958 -0.0658872 0.9955042 0.0658872 0.9955042 0.0658872 0.0044958 -0.0658872
13304544 0.0043098 -0.0644651 0.9956902 0.0644651 0.9956902 0.0644651 0.0043098 -0.0644651
13597071 0.0041318 -0.0630725 0.9958682 0.0630725 0.9958682 0.0630725 0.0041318 -0.0630725
13896030 0.0039613 -0.0617087 0.9960387 0.0617087 0.9960387 0.0617087 0.0039613 -0.0617087
14201563 0.0037982 -0.0603733 0.9962018 0.0603733 0.9962018 0.0603733 0.0037982 -0.0603733
14513813 0.0036420 -0.0590657 0.9963580 0.0590657 0.9963580 0.0590657 0.0036420 -0.0590657
14832928 0.0034925 -0.0577852 0.9965075 0.0577852 0.9965075 0.0577852 0.0034925 -0.0577852
15159060 0.0033494 -0.0565313 0.9966506 0.0565313 0.9966506 0.0565313 0.0033494 -0.0565313
15492362 0.0032125 -0.0553035 0.9967875 0.0553035 0.9967875 0.0553035 0.0032125 -0.0553035
15832993 0.0030814 -0.0541012 0.9969186 0.0541012 0.9969186 0.0541012 0.0030814 -0.0541012
16181113 0.0029560 -0.0529240 0.9970440 0.0529240 0.9970440 0.0529240 0.0029560 -0.0529240
16536888 0.0028360 -0.0517712 0.9971640 0.0517712 0.9971640 0.0517712 0.0028360 -0.0517712
16900485 0.0027211 -0.0506425 0.9972789 0.0506425 0.9972789 0.0506425 0.0027211 -0.0506425
17272076 0.0026113 -0.0495372 0.9973887 0.0495372 0.9973887 0.0495372 0.0026113 -0.0495372
17651837 0.0025062 -0.0484550 0.9974938 0.0484550 0.9974938 0.0484550 0.0025062 -0.0484550
18039948 0.0024056 -0.0473952 0.9975944 0.0473952 0.9975944 0.0473952 0.0024056 -0.0473952
18436593 0.0023095 -0.0463575 0.9976905 0.0463575 0.9976905 0.0463575 0.0023095 -0.0463575
18841959 0.0022175 -0.0453414 0.9977825 0.0453414 0.9977825 0.0453414 0.0022175 -0.0453414
19256237 0.0021295 -0.0443465 0.9978705 0.0443465 0.9978705 0.0443465 0.0021295 -0.0443465
19679624 0.0020454 -0.0433722 0.9979546 0.0433722 0.9979546 0.0433722 0.0020454 -0.0433722
20112321 0.0019649 -0.0424182 0.9980351 0.0424182 0.9980351 0.0424182 0.0019649 -0.0424182
20554530 0.0018880 -0.0414840 0.9981120 0.0414840 0.9981120 0.0414840 0.0018880 -0.0414840
21006463 0.0018145 -0.0405692 0.9981855 0.0405692 0.9981855 0.0405692 0.0018145 -0.0405692
21468333 0.0017442 -0.0396734 0.9982558 0.0396734 0.9982558 0.0396734 0.0017442 -0.0396734
21940357 0.0016771 -0.0387961 0.9983229 0.0387961 0.9983229 0.0387961 0.0016771 -0.0387961
22422760 0.0016129 -0.0379371 0.9983871 0.0379371 0.9983871 0.0379371 0.0016129 -0.0379371
22915770 0.0015515 -0.0370958 0.9984485 0.0370958 0.9984485 0.0370958 0.0015515 -0.0370958
23419619 0.0014930 -0.0362720 0.9985070 0.0362720 0.9985070 0.0362720 0.0014930 -0.0362720
23934547 0.0014370 -0.0354652 0.9985630 0.0354652 0.9985630 0.0354652 0.0014370 -0.0354652
24460796 0.0013835 -0.0346751 0.9986165 0.0346751 0.9986165 0.0346751 0.0013835 -0.0346751
24998616 0.0013325 -0.0339013 0.9986675 0.0339013 0.9986675 0.0339013 0.0013325 -0.0339013
25548261 0.0012838 -0.0331435 0.9987162 0.0331435 0.9987162 0.0331435 0.0012838 -0.0331435
26109991 0.0012372 -0.0324012 0.9987628 0.0324012 0.9987628 0.0324012 0.0012372 -0.0324012
26684072 0.0011928 -0.0316743 0.9988072 0.0316743 0.9988072 0.0316743 0.0011928 -0.0316743
27270775 0.0011505 -0.0309622 0.9988495 0.0309622 0.9988495 0.0309622 0.0011505 -0.0309622
27870378 0.0011100 -0.0302648 0.9988900 0.0302648 0.9988900 0.0302648 0.0011100 -0.0302648
28483164 0.0010715 -0.0295817 0.9989285 0.0295817 0.9989285 0.0295817 0.0010715 -0.0295817
29109424 0.0010347 -0.0289126 0.9989653 0.0289126 0.9989653 0.0289126 0.0010347 -0.0289126
29749453 0.0009997 -0.0282571 0.9990003 0.0282571 0.9990003 0.0282571 0.0009997 -0.0282571
30403555 0.0009662 -0.0276150 0.9990338 0.0276150 0.9990338 0.0276150 0.0009662 -0.0276150
31072038 0.0009344 -0.0269860 0.9990656 0.0269860 0.9990656 0.0269860 0.0009344 -0.0269860
31755220 0.0009041 -0.0263697 0.9990959 0.0263697 0.9990959 0.0263697 0.0009041 -0.0263697
32453422 0.0008752 -0.0257659 0.9991248 0.0257659 0.9991248 0.0257659 0.0008752 -0.0257659
33166976 0.0008477 -0.0251744 0.9991523 0.0251744 0.9991523 0.0251744 0.0008477 -0.0251744
33896219 0.0008215 -0.0245948 0.9991785 0.0245948 0.9991785 0.0245948 0.0008215 -0.0245948
34641496 0.0007966 -0.0240269 0.9992034 0.0240269 0.9992034 0.0240269 0.0007966 -0.0240269
35403159 0.0007729 -0.0234704 0.9992271 0.0234704 0.9992271 0.0234704 0.0007729 -0.0234704
36181569 0.0007504 -0.0229250 0.9992496 0.0229250 0.9992496 0.0229250 0.0007504 -0.0229250
36977093 0.0007290 -0.0223905 0.9992710 0.0223905 0.9992710 0.0223905 0.0007290 -0.0223905
37790109 0.0007086 -0.0218667 0.9992914 0.0218667 0.9992914 0.0218667 0.0007086 -0.0218667
38621001 0.0006893 -0.0213533 0.9993107 0.0213533 0.9993107 0.0213533 0.0006893 -0.0213533
39470161 0.0006710 -0.0208500 0.9993290 0.0208500 0.9993290 0.0208500 0.0006710 -0.0208500
40337993 0.0006536 -0.0203567 0.9993464 0.0203567 0.9993464 0.0203567 0.0006536 -0.0203567
41224905 0.0006371 -0.0198731 0.9993629 0.0198731 0.9993629 0.0198731 0.0006371 -0.0198731
42131317 0.0006215 -0.0193989 0.9993785 0.0193989 0.9993785 0.0193989 0.0006215 -0.0193989
43057659 0.0006067 -0.0189341 0.9993933 0.0189341 0.9993933 0.0189341 0.0006067 -0.0189341
44004369 0.0005927 -0.0184782 0.9994073 0.0184782 0.9994073 0.0184782 0.0005927 -0.0184782
44971893 0.0005795 -0.0180312 0.9994205 0.0180312 0.9994205 0.0180312 0.0005795 -0.0180312
45960691 0.0005670 -0.0175927 0.9994330 0.0175927 0.9994330 0.0175927 0.0005670 -0.0175927
46971230 0.0005552 -0.0171627 0.9994448 0.0171627 0.9994448 0.0171627 0.0005552 -0.0171627
48003987 0.0005440 -0.0167409 0.9994560 0.0167409 0.9994560 0.0167409 0.0005440 -0.0167409
49059451 0.0005336 -0.0163271 0.9994664 0.0163271 0.9994664 0.0163271 0.0005336 -0.0163271
50138122 0.0005237 -0.0159211 0.9994763 0.0159211 0.9994763 0.0159211 0.0005237 -0.0159211
51240510 0.0005144 -0.0155227 0.9994856 0.0155227 0.9994856 0.0155227 0.0005144 -0.0155227
52367136 0.0005057 -0.0151318 0.9994943 0.0151318 0.9994943 0.0151318 0.0005057 -0.0151318
53518533 0.0004976 -0.0147481 0.9995024 0.0147481 0.9995024 0.0147481 0.0004976 -0.0147481
54695245 0.0004899 -0.0143715 0.9995101 0.0143715 0.9995101 0.0143715 0.0004899 -0.0143715
55897831 0.0004828 -0.0140018 0.9995172 0.0140018 0.9995172 0.0140018 0.0004828 -0.0140018
57126857 0.0004762 -0.0136388 0.9995238 0.0136388 0.9995238 0.0136388 0.0004762 -0.0136388
58382906 0.0004700 -0.0132823 0.9995300 0.0132823 0.9995300 0.0132823 0.0004700 -0.0132823
59666572 0.0004643 -0.0129322 0.9995357 0.0129322 0.9995357 0.0129322 0.0004643 -0.0129322
60978462 0.0004590 -0.0125884 0.9995410 0.0125884 0.9995410 0.0125884 0.0004590 -0.0125884
62319196 0.0004541 -0.0122506 0.9995459 0.0122506 0.9995459 0.0122506 0.0004541 -0.0122506
63689409 0.0004497 -0.0119187 0.9995503 0.0119187 0.9995503 0.0119187 0.0004497 -0.0119187
65089750 0.0004456 -0.0115925 0.9995544 0.0115925 0.9995544 0.0115925 0.0004456 -0.0115925
66520879 0.0004419 -0.0112719 0.9995581 0.0112719 0.9995581 0.0112719 0.0004419 -0.0112719
67983474 0.0004385 -0.0109568 0.9995615 0.0109568 0.9995615 0.0109568 0.0004385 -0.0109568
69478228 0.0004355 -0.0106469 0.9995645 0.0106469 0.9995645 0.0106469 0.0004355 -0.0106469
71005847 0.0004328 -0.0103422 0.9995672 0.0103422 0.9995672 0.0103422 0.0004328 -0.0103422
72567054 0.0004305 -0.0100425 0.9995695 0.0100425 0.9995695 0.0100425 0.0004305 -0.0100425
74162587 0.0004284 -0.0097477 0.9995716 0.0097477 0.9995716 0.0097477 0.0004284 -0.0097477
75793201 0.0004267 -0.0094575 0.9995733 0.0094575 0.9995733 0.0094575 0.0004267 -0.0094575
77459667 0.0004253 -0.0091720 0.9995747 0.0091720 0.9995747 0.0091720 0.0004253 -0.0091720
79162774 0.0004241 -0.0088909 0.9995759 0.0088909 0.9995759 0.0088909 0.0004241 -0.0088909
80903327 0.0004232 -0.0086141 0.9995768 0.0086141 0.9995768 0.0086141 0.0004232 -0.0086141
82682150 0.0004226 -0.0083415 0.9995774 0.0083415 0.9995774 0.0083415 0.0004226 -0.0083415
84500083 0.0004223 -0.0080729 0.9995777 0.0080729 0.9995777 0.0080729 0.0004223 -0.0080729
86357988 0.0004222 -0.0078083 0.9995778 0.0078083 0.9995778 0.0078083 0.0004222 -0.0078083
88256743 0.0004223 -0.0075475 0.9995777 0.0075475 0.9995777 0.0075475 0.0004223 -0.0075475
90197245 0.0004227 -0.0072904 0.9995773 0.0072904 0.9995773 0.0072904 0.0004227 -0.0072904
92180413 0.0004233 -0.0070369 0.9995767 0.0070369 0.9995767 0.0070369 0.0004233 -0.0070369
94207185 0.0004241 -0.0067867 0.9995759 0.0067867 0.9995759 0.0067867 0.0004241 -0.0067867
96278520 0.0004252 -0.0065400 0.9995748 0.0065400 0.9995748 0.0065400 0.0004252 -0.0065400
98395398 0.0004264 -0.0062964 0.9995736 0.0062964 0.9995736 0.0062964 0.0004264 -0.0062964
100558819 0.0004279 -0.0060559 0.9995721 0.0060559 0.9995721 0.0060559 0.0004279 -0.0060559
102769807 0.0004296 -0.0058184 0.9995704 0.0058184 0.9995704 0.0058184 0.0004296 -0.0058184
105029408 0.0004314 -0.0055838 0.9995686 0.0055838 0.9995686 0.0055838 0.0004314 -0.0055838
107338692 0.0004335 -0.0053519 0.9995665 0.0053519 0.9995665 0.0053519 0.0004335 -0.0053519
