!Murata Part Number: GRM1555C1H8R1BA01
!These Parameters are Measured in Series Mode Connection
!Data Generated on Mar 30, 2021
!       o--ll--o
!Port1            Port2
!       o------o
!Operation Temp=25[degC], DC Bias Voltage=0[V]
!Freq. Start=100[MHz] Stop=9[GHz] 401[Steps]
# Hz S RI R 50
!Freq.(Hz) S11(Real) S11(Imag) S21(Real) S21(Imag) S12(Real) S12(Imag) S22(Real) S22(Imag)
100000000 0.7936882 -0.4041565 0.2063118 0.4041565 0.2063118 0.4041565 0.7936882 -0.4041565
121000000 0.7241858 -0.4463170 0.2758142 0.4463170 0.2758142 0.4463170 0.7241858 -0.4463170
142000000 0.6557399 -0.4744129 0.3442601 0.4744129 0.3442601 0.4744129 0.6557399 -0.4744129
163000000 0.5908548 -0.4908550 0.4091452 0.4908550 0.4091452 0.4908550 0.5908548 -0.4908550
184000000 0.5309529 -0.4981115 0.4690471 0.4981115 0.4690471 0.4981115 0.5309529 -0.4981115
205000000 0.4766480 -0.4984155 0.5233520 0.4984155 0.5233520 0.4984155 0.4766480 -0.4984155
226000000 0.4280134 -0.4936415 0.5719866 0.4936415 0.5719866 0.4936415 0.4280134 -0.4936415
247000000 0.3847963 -0.4852862 0.6152037 0.4852862 0.6152037 0.4852862 0.3847963 -0.4852862
268000000 0.3465714 -0.4745040 0.6534286 0.4745040 0.6534286 0.4745040 0.3465714 -0.4745040
289000000 0.3128418 -0.4621625 0.6871582 0.4621625 0.6871582 0.4621625 0.3128418 -0.4621625
310000000 0.2831002 -0.4489010 0.7168998 0.4489010 0.7168998 0.4489010 0.2831002 -0.4489010
331000000 0.2568630 -0.4351822 0.7431370 0.4351822 0.7431370 0.4351822 0.2568630 -0.4351822
352000000 0.2336876 -0.4213356 0.7663124 0.4213356 0.7663124 0.4213356 0.2336876 -0.4213356
373000000 0.2131784 -0.4075918 0.7868216 0.4075918 0.7868216 0.4075918 0.2131784 -0.4075918
394000000 0.1949880 -0.3941078 0.8050120 0.3941078 0.8050120 0.3941078 0.1949880 -0.3941078
415000000 0.1788138 -0.3809880 0.8211862 0.3809880 0.8211862 0.3809880 0.1788138 -0.3809880
436000000 0.1643943 -0.3682978 0.8356057 0.3682978 0.8356057 0.3682978 0.1643943 -0.3682978
457000000 0.1515040 -0.3560752 0.8484960 0.3560752 0.8484960 0.3560752 0.1515040 -0.3560752
478000000 0.1399490 -0.3443385 0.8600510 0.3443385 0.8600510 0.3443385 0.1399490 -0.3443385
499000000 0.1295626 -0.3330922 0.8704374 0.3330922 0.8704374 0.3330922 0.1295626 -0.3330922
520000000 0.1202014 -0.3223312 0.8797986 0.3223312 0.8797986 0.3223312 0.1202014 -0.3223312
541000000 0.1117419 -0.3120440 0.8882581 0.3120440 0.8882581 0.3120440 0.1117419 -0.3120440
562000000 0.1040775 -0.3022149 0.8959225 0.3022149 0.8959225 0.3022149 0.1040775 -0.3022149
583000000 0.0971162 -0.2928254 0.9028838 0.2928254 0.9028838 0.2928254 0.0971162 -0.2928254
604000000 0.0907784 -0.2838557 0.9092216 0.2838557 0.9092216 0.2838557 0.0907784 -0.2838557
625000000 0.0849947 -0.2752854 0.9150053 0.2752854 0.9150053 0.2752854 0.0849947 -0.2752854
646000000 0.0797049 -0.2670940 0.9202951 0.2670940 0.9202951 0.2670940 0.0797049 -0.2670940
667000000 0.0748564 -0.2592612 0.9251436 0.2592612 0.9251436 0.2592612 0.0748564 -0.2592612
688000000 0.0704034 -0.2517673 0.9295966 0.2517673 0.9295966 0.2517673 0.0704034 -0.2517673
709000000 0.0663054 -0.2445934 0.9336946 0.2445934 0.9336946 0.2445934 0.0663054 -0.2445934
730000000 0.0625269 -0.2377216 0.9374731 0.2377216 0.9374731 0.2377216 0.0625269 -0.2377216
751000000 0.0590369 -0.2311348 0.9409631 0.2311348 0.9409631 0.2311348 0.0590369 -0.2311348
772000000 0.0558075 -0.2248167 0.9441925 0.2248167 0.9441925 0.2248167 0.0558075 -0.2248167
793000000 0.0528145 -0.2187521 0.9471855 0.2187521 0.9471855 0.2187521 0.0528145 -0.2187521
814000000 0.0500360 -0.2129267 0.9499640 0.2129267 0.9499640 0.2129267 0.0500360 -0.2129267
835000000 0.0474527 -0.2073270 0.9525473 0.2073270 0.9525473 0.2073270 0.0474527 -0.2073270
856000000 0.0450474 -0.2019404 0.9549526 0.2019404 0.9549526 0.2019404 0.0450474 -0.2019404
877000000 0.0428048 -0.1967551 0.9571952 0.1967551 0.9571952 0.1967551 0.0428048 -0.1967551
898000000 0.0407109 -0.1917599 0.9592891 0.1917599 0.9592891 0.1917599 0.0407109 -0.1917599
919000000 0.0387534 -0.1869447 0.9612466 0.1869447 0.9612466 0.1869447 0.0387534 -0.1869447
940000000 0.0369212 -0.1822995 0.9630788 0.1822995 0.9630788 0.1822995 0.0369212 -0.1822995
961000000 0.0352042 -0.1778155 0.9647958 0.1778155 0.9647958 0.1778155 0.0352042 -0.1778155
982000000 0.0335933 -0.1734840 0.9664067 0.1734840 0.9664067 0.1734840 0.0335933 -0.1734840
1003000000 0.0320804 -0.1692971 0.9679196 0.1692971 0.9679196 0.1692971 0.0320804 -0.1692971
1024000000 0.0306580 -0.1652475 0.9693420 0.1652475 0.9693420 0.1652475 0.0306580 -0.1652475
1045000000 0.0293193 -0.1613280 0.9706807 0.1613280 0.9706807 0.1613280 0.0293193 -0.1613280
1066000000 0.0280583 -0.1575323 0.9719417 0.1575323 0.9719417 0.1575323 0.0280583 -0.1575323
1087000000 0.0268693 -0.1538540 0.9731307 0.1538540 0.9731307 0.1538540 0.0268693 -0.1538540
1108000000 0.0257472 -0.1502875 0.9742528 0.1502875 0.9742528 0.1502875 0.0257472 -0.1502875
1129000000 0.0246874 -0.1468274 0.9753126 0.1468274 0.9753126 0.1468274 0.0246874 -0.1468274
1150000000 0.0236856 -0.1434686 0.9763144 0.1434686 0.9763144 0.1434686 0.0236856 -0.1434686
1171000000 0.0227379 -0.1402062 0.9772621 0.1402062 0.9772621 0.1402062 0.0227379 -0.1402062
1192000000 0.0218407 -0.1370359 0.9781593 0.1370359 0.9781593 0.1370359 0.0218407 -0.1370359
1213000000 0.0209907 -0.1339534 0.9790093 0.1339534 0.9790093 0.1339534 0.0209907 -0.1339534
1234000000 0.0201849 -0.1309546 0.9798151 0.1309546 0.9798151 0.1309546 0.0201849 -0.1309546
1255000000 0.0194205 -0.1280359 0.9805795 0.1280359 0.9805795 0.1280359 0.0194205 -0.1280359
1276000000 0.0186949 -0.1251937 0.9813051 0.1251937 0.9813051 0.1251937 0.0186949 -0.1251937
1297000000 0.0180057 -0.1224246 0.9819943 0.1224246 0.9819943 0.1224246 0.0180057 -0.1224246
1318000000 0.0173508 -0.1197256 0.9826492 0.1197256 0.9826492 0.1197256 0.0173508 -0.1197256
1339000000 0.0167280 -0.1170935 0.9832720 0.1170935 0.9832720 0.1170935 0.0167280 -0.1170935
1360000000 0.0161356 -0.1145256 0.9838644 0.1145256 0.9838644 0.1145256 0.0161356 -0.1145256
1381000000 0.0155716 -0.1120193 0.9844284 0.1120193 0.9844284 0.1120193 0.0155716 -0.1120193
1402000000 0.0150347 -0.1095719 0.9849653 0.1095719 0.9849653 0.1095719 0.0150347 -0.1095719
1423000000 0.0145231 -0.1071812 0.9854769 0.1071812 0.9854769 0.1071812 0.0145231 -0.1071812
1444000000 0.0140355 -0.1048447 0.9859645 0.1048447 0.9859645 0.1048447 0.0140355 -0.1048447
1465000000 0.0135706 -0.1025604 0.9864294 0.1025604 0.9864294 0.1025604 0.0135706 -0.1025604
1486000000 0.0131272 -0.1003263 0.9868728 0.1003263 0.9868728 0.1003263 0.0131272 -0.1003263
1507000000 0.0127041 -0.0981403 0.9872959 0.0981403 0.9872959 0.0981403 0.0127041 -0.0981403
1528000000 0.0123002 -0.0960007 0.9876998 0.0960007 0.9876998 0.0960007 0.0123002 -0.0960007
1549000000 0.0119146 -0.0939056 0.9880854 0.0939056 0.9880854 0.0939056 0.0119146 -0.0939056
1570000000 0.0115463 -0.0918535 0.9884537 0.0918535 0.9884537 0.0918535 0.0115463 -0.0918535
1591000000 0.0111944 -0.0898427 0.9888056 0.0898427 0.9888056 0.0898427 0.0111944 -0.0898427
1612000000 0.0108582 -0.0878716 0.9891418 0.0878716 0.9891418 0.0878716 0.0108582 -0.0878716
1633000000 0.0105369 -0.0859390 0.9894631 0.0859390 0.9894631 0.0859390 0.0105369 -0.0859390
1654000000 0.0102296 -0.0840433 0.9897704 0.0840433 0.9897704 0.0840433 0.0102296 -0.0840433
1675000000 0.0099359 -0.0821834 0.9900641 0.0821834 0.9900641 0.0821834 0.0099359 -0.0821834
1696000000 0.0096549 -0.0803578 0.9903451 0.0803578 0.9903451 0.0803578 0.0096549 -0.0803578
1717000000 0.0093862 -0.0785655 0.9906138 0.0785655 0.9906138 0.0785655 0.0093862 -0.0785655
1738000000 0.0091291 -0.0768053 0.9908709 0.0768053 0.9908709 0.0768053 0.0091291 -0.0768053
1759000000 0.0088831 -0.0750761 0.9911169 0.0750761 0.9911169 0.0750761 0.0088831 -0.0750761
1780000000 0.0086478 -0.0733769 0.9913522 0.0733769 0.9913522 0.0733769 0.0086478 -0.0733769
1801000000 0.0084226 -0.0717066 0.9915774 0.0717066 0.9915774 0.0717066 0.0084226 -0.0717066
1822000000 0.0082070 -0.0700643 0.9917930 0.0700643 0.9917930 0.0700643 0.0082070 -0.0700643
1843000000 0.0080008 -0.0684491 0.9919992 0.0684491 0.9919992 0.0684491 0.0080008 -0.0684491
1864000000 0.0078035 -0.0668601 0.9921965 0.0668601 0.9921965 0.0668601 0.0078035 -0.0668601
1885000000 0.0076146 -0.0652965 0.9923854 0.0652965 0.9923854 0.0652965 0.0076146 -0.0652965
1906000000 0.0074339 -0.0637575 0.9925661 0.0637575 0.9925661 0.0637575 0.0074339 -0.0637575
1927000000 0.0072610 -0.0622422 0.9927390 0.0622422 0.9927390 0.0622422 0.0072610 -0.0622422
1948000000 0.0070955 -0.0607500 0.9929045 0.0607500 0.9929045 0.0607500 0.0070955 -0.0607500
1969000000 0.0069373 -0.0592802 0.9930627 0.0592802 0.9930627 0.0592802 0.0069373 -0.0592802
1990000000 0.0067859 -0.0578320 0.9932141 0.0578320 0.9932141 0.0578320 0.0067859 -0.0578320
2011000000 0.0066412 -0.0564048 0.9933588 0.0564048 0.9933588 0.0564048 0.0066412 -0.0564048
2032000000 0.0065028 -0.0549980 0.9934972 0.0549980 0.9934972 0.0549980 0.0065028 -0.0549980
2053000000 0.0063706 -0.0536109 0.9936294 0.0536109 0.9936294 0.0536109 0.0063706 -0.0536109
2074000000 0.0062442 -0.0522431 0.9937558 0.0522431 0.9937558 0.0522431 0.0062442 -0.0522431
2095000000 0.0061235 -0.0508938 0.9938765 0.0508938 0.9938765 0.0508938 0.0061235 -0.0508938
2116000000 0.0060082 -0.0495626 0.9939918 0.0495626 0.9939918 0.0495626 0.0060082 -0.0495626
2137000000 0.0058982 -0.0482490 0.9941018 0.0482490 0.9941018 0.0482490 0.0058982 -0.0482490
2158000000 0.0057932 -0.0469524 0.9942068 0.0469524 0.9942068 0.0469524 0.0057932 -0.0469524
2179000000 0.0056931 -0.0456724 0.9943069 0.0456724 0.9943069 0.0456724 0.0056931 -0.0456724
2200000000 0.0055977 -0.0444085 0.9944023 0.0444085 0.9944023 0.0444085 0.0055977 -0.0444085
2221000000 0.0055068 -0.0431602 0.9944932 0.0431602 0.9944932 0.0431602 0.0055068 -0.0431602
2242000000 0.0054203 -0.0419272 0.9945797 0.0419272 0.9945797 0.0419272 0.0054203 -0.0419272
2263000000 0.0053381 -0.0407090 0.9946619 0.0407090 0.9946619 0.0407090 0.0053381 -0.0407090
2284000000 0.0052599 -0.0395051 0.9947401 0.0395051 0.9947401 0.0395051 0.0052599 -0.0395051
2305000000 0.0051857 -0.0383153 0.9948143 0.0383153 0.9948143 0.0383153 0.0051857 -0.0383153
2326000000 0.0051152 -0.0371391 0.9948848 0.0371391 0.9948848 0.0371391 0.0051152 -0.0371391
2347000000 0.0050485 -0.0359762 0.9949515 0.0359762 0.9949515 0.0359762 0.0050485 -0.0359762
2368000000 0.0049854 -0.0348262 0.9950146 0.0348262 0.9950146 0.0348262 0.0049854 -0.0348262
2389000000 0.0049257 -0.0336888 0.9950743 0.0336888 0.9950743 0.0336888 0.0049257 -0.0336888
2410000000 0.0048693 -0.0325636 0.9951307 0.0325636 0.9951307 0.0325636 0.0048693 -0.0325636
2431000000 0.0048162 -0.0314503 0.9951838 0.0314503 0.9951838 0.0314503 0.0048162 -0.0314503
2452000000 0.0047663 -0.0303487 0.9952337 0.0303487 0.9952337 0.0303487 0.0047663 -0.0303487
2473000000 0.0047194 -0.0292584 0.9952806 0.0292584 0.9952806 0.0292584 0.0047194 -0.0292584
2494000000 0.0046754 -0.0281791 0.9953246 0.0281791 0.9953246 0.0281791 0.0046754 -0.0281791
2515000000 0.0046344 -0.0271106 0.9953656 0.0271106 0.9953656 0.0271106 0.0046344 -0.0271106
2536000000 0.0045961 -0.0260526 0.9954039 0.0260526 0.9954039 0.0260526 0.0045961 -0.0260526
2557000000 0.0045606 -0.0250048 0.9954394 0.0250048 0.9954394 0.0250048 0.0045606 -0.0250048
2578000000 0.0045276 -0.0239670 0.9954724 0.0239670 0.9954724 0.0239670 0.0045276 -0.0239670
2599000000 0.0044973 -0.0229389 0.9955027 0.0229389 0.9955027 0.0229389 0.0044973 -0.0229389
2620000000 0.0044694 -0.0219202 0.9955306 0.0219202 0.9955306 0.0219202 0.0044694 -0.0219202
2641000000 0.0044440 -0.0209109 0.9955560 0.0209109 0.9955560 0.0209109 0.0044440 -0.0209109
2662000000 0.0044209 -0.0199106 0.9955791 0.0199106 0.9955791 0.0199106 0.0044209 -0.0199106
2683000000 0.0044001 -0.0189190 0.9955999 0.0189190 0.9955999 0.0189190 0.0044001 -0.0189190
2704000000 0.0043816 -0.0179361 0.9956184 0.0179361 0.9956184 0.0179361 0.0043816 -0.0179361
2725000000 0.0043652 -0.0169616 0.9956348 0.0169616 0.9956348 0.0169616 0.0043652 -0.0169616
2746000000 0.0043510 -0.0159953 0.9956490 0.0159953 0.9956490 0.0159953 0.0043510 -0.0159953
2767000000 0.0043389 -0.0150370 0.9956611 0.0150370 0.9956611 0.0150370 0.0043389 -0.0150370
2788000000 0.0043288 -0.0140865 0.9956712 0.0140865 0.9956712 0.0140865 0.0043288 -0.0140865
2809000000 0.0043206 -0.0131436 0.9956794 0.0131436 0.9956794 0.0131436 0.0043206 -0.0131436
2830000000 0.0043144 -0.0122082 0.9956856 0.0122082 0.9956856 0.0122082 0.0043144 -0.0122082
2851000000 0.0043101 -0.0112800 0.9956899 0.0112800 0.9956899 0.0112800 0.0043101 -0.0112800
2872000000 0.0043077 -0.0103590 0.9956923 0.0103590 0.9956923 0.0103590 0.0043077 -0.0103590
2893000000 0.0043070 -0.0094449 0.9956930 0.0094449 0.9956930 0.0094449 0.0043070 -0.0094449
2914000000 0.0043082 -0.0085376 0.9956918 0.0085376 0.9956918 0.0085376 0.0043082 -0.0085376
2935000000 0.0043110 -0.0076370 0.9956890 0.0076370 0.9956890 0.0076370 0.0043110 -0.0076370
2956000000 0.0043156 -0.0067428 0.9956844 0.0067428 0.9956844 0.0067428 0.0043156 -0.0067428
2977000000 0.0043218 -0.0058549 0.9956782 0.0058549 0.9956782 0.0058549 0.0043218 -0.0058549
2998000000 0.0043297 -0.0049733 0.9956703 0.0049733 0.9956703 0.0049733 0.0043297 -0.0049733
3019000000 0.0043391 -0.0040977 0.9956609 0.0040977 0.9956609 0.0040977 0.0043391 -0.0040977
3040000000 0.0043501 -0.0032280 0.9956499 0.0032280 0.9956499 0.0032280 0.0043501 -0.0032280
3061000000 0.0043627 -0.0023642 0.9956373 0.0023642 0.9956373 0.0023642 0.0043627 -0.0023642
3082000000 0.0043768 -0.0015059 0.9956232 0.0015059 0.9956232 0.0015059 0.0043768 -0.0015059
3103000000 0.0043923 -0.0006532 0.9956077 0.0006532 0.9956077 0.0006532 0.0043923 -0.0006532
3124000000 0.0044094 0.0001941 0.9955906 -0.0001941 0.9955906 -0.0001941 0.0044094 0.0001941
3145000000 0.0044278 0.0010361 0.9955722 -0.0010361 0.9955722 -0.0010361 0.0044278 0.0010361
3166000000 0.0044477 0.0018729 0.9955523 -0.0018729 0.9955523 -0.0018729 0.0044477 0.0018729
3187000000 0.0044690 0.0027046 0.9955310 -0.0027046 0.9955310 -0.0027046 0.0044690 0.0027046
3208000000 0.0044916 0.0035315 0.9955084 -0.0035315 0.9955084 -0.0035315 0.0044916 0.0035315
3229000000 0.0045156 0.0043534 0.9954844 -0.0043534 0.9954844 -0.0043534 0.0045156 0.0043534
3250000000 0.0045409 0.0051707 0.9954591 -0.0051707 0.9954591 -0.0051707 0.0045409 0.0051707
3271000000 0.0045676 0.0059833 0.9954324 -0.0059833 0.9954324 -0.0059833 0.0045676 0.0059833
3292000000 0.0045955 0.0067914 0.9954045 -0.0067914 0.9954045 -0.0067914 0.0045955 0.0067914
3313000000 0.0046247 0.0075950 0.9953753 -0.0075950 0.9953753 -0.0075950 0.0046247 0.0075950
3334000000 0.0046552 0.0083944 0.9953448 -0.0083944 0.9953448 -0.0083944 0.0046552 0.0083944
3355000000 0.0046869 0.0091895 0.9953131 -0.0091895 0.9953131 -0.0091895 0.0046869 0.0091895
3376000000 0.0047199 0.0099804 0.9952801 -0.0099804 0.9952801 -0.0099804 0.0047199 0.0099804
3397000000 0.0047541 0.0107673 0.9952459 -0.0107673 0.9952459 -0.0107673 0.0047541 0.0107673
3418000000 0.0047894 0.0115502 0.9952106 -0.0115502 0.9952106 -0.0115502 0.0047894 0.0115502
3439000000 0.0048260 0.0123292 0.9951740 -0.0123292 0.9951740 -0.0123292 0.0048260 0.0123292
3460000000 0.0048638 0.0131045 0.9951362 -0.0131045 0.9951362 -0.0131045 0.0048638 0.0131045
3481000000 0.0049027 0.0138760 0.9950973 -0.0138760 0.9950973 -0.0138760 0.0049027 0.0138760
3502000000 0.0049428 0.0146439 0.9950572 -0.0146439 0.9950572 -0.0146439 0.0049428 0.0146439
3523000000 0.0049841 0.0154082 0.9950159 -0.0154082 0.9950159 -0.0154082 0.0049841 0.0154082
3544000000 0.0050265 0.0161691 0.9949735 -0.0161691 0.9949735 -0.0161691 0.0050265 0.0161691
3565000000 0.0050700 0.0169265 0.9949300 -0.0169265 0.9949300 -0.0169265 0.0050700 0.0169265
3586000000 0.0051147 0.0176807 0.9948853 -0.0176807 0.9948853 -0.0176807 0.0051147 0.0176807
3607000000 0.0051605 0.0184315 0.9948395 -0.0184315 0.9948395 -0.0184315 0.0051605 0.0184315
3628000000 0.0052074 0.0191792 0.9947926 -0.0191792 0.9947926 -0.0191792 0.0052074 0.0191792
3649000000 0.0052554 0.0199238 0.9947446 -0.0199238 0.9947446 -0.0199238 0.0052554 0.0199238
3670000000 0.0053045 0.0206654 0.9946955 -0.0206654 0.9946955 -0.0206654 0.0053045 0.0206654
3691000000 0.0053547 0.0214040 0.9946453 -0.0214040 0.9946453 -0.0214040 0.0053547 0.0214040
3712000000 0.0054061 0.0221396 0.9945939 -0.0221396 0.9945939 -0.0221396 0.0054061 0.0221396
3733000000 0.0054585 0.0228725 0.9945415 -0.0228725 0.9945415 -0.0228725 0.0054585 0.0228725
3754000000 0.0055120 0.0236025 0.9944880 -0.0236025 0.9944880 -0.0236025 0.0055120 0.0236025
3775000000 0.0055665 0.0243299 0.9944335 -0.0243299 0.9944335 -0.0243299 0.0055665 0.0243299
3796000000 0.0056222 0.0250545 0.9943778 -0.0250545 0.9943778 -0.0250545 0.0056222 0.0250545
3817000000 0.0056790 0.0257766 0.9943210 -0.0257766 0.9943210 -0.0257766 0.0056790 0.0257766
3838000000 0.0057368 0.0264962 0.9942632 -0.0264962 0.9942632 -0.0264962 0.0057368 0.0264962
3859000000 0.0057957 0.0272133 0.9942043 -0.0272133 0.9942043 -0.0272133 0.0057957 0.0272133
3880000000 0.0058557 0.0279279 0.9941443 -0.0279279 0.9941443 -0.0279279 0.0058557 0.0279279
3901000000 0.0059168 0.0286403 0.9940832 -0.0286403 0.9940832 -0.0286403 0.0059168 0.0286403
3922000000 0.0059790 0.0293503 0.9940210 -0.0293503 0.9940210 -0.0293503 0.0059790 0.0293503
3943000000 0.0060422 0.0300580 0.9939578 -0.0300580 0.9939578 -0.0300580 0.0060422 0.0300580
3964000000 0.0061066 0.0307636 0.9938934 -0.0307636 0.9938934 -0.0307636 0.0061066 0.0307636
3985000000 0.0061720 0.0314670 0.9938280 -0.0314670 0.9938280 -0.0314670 0.0061720 0.0314670
4006000000 0.0062385 0.0321683 0.9937615 -0.0321683 0.9937615 -0.0321683 0.0062385 0.0321683
4027000000 0.0063062 0.0328676 0.9936938 -0.0328676 0.9936938 -0.0328676 0.0063062 0.0328676
4048000000 0.0063749 0.0335649 0.9936251 -0.0335649 0.9936251 -0.0335649 0.0063749 0.0335649
4069000000 0.0064448 0.0342603 0.9935552 -0.0342603 0.9935552 -0.0342603 0.0064448 0.0342603
4090000000 0.0065157 0.0349537 0.9934843 -0.0349537 0.9934843 -0.0349537 0.0065157 0.0349537
4111000000 0.0065878 0.0356453 0.9934122 -0.0356453 0.9934122 -0.0356453 0.0065878 0.0356453
4132000000 0.0066610 0.0363352 0.9933390 -0.0363352 0.9933390 -0.0363352 0.0066610 0.0363352
4153000000 0.0067354 0.0370233 0.9932646 -0.0370233 0.9932646 -0.0370233 0.0067354 0.0370233
4174000000 0.0068109 0.0377096 0.9931891 -0.0377096 0.9931891 -0.0377096 0.0068109 0.0377096
4195000000 0.0068875 0.0383944 0.9931125 -0.0383944 0.9931125 -0.0383944 0.0068875 0.0383944
4216000000 0.0069653 0.0390775 0.9930347 -0.0390775 0.9930347 -0.0390775 0.0069653 0.0390775
4237000000 0.0070443 0.0397590 0.9929557 -0.0397590 0.9929557 -0.0397590 0.0070443 0.0397590
4258000000 0.0071245 0.0404390 0.9928755 -0.0404390 0.9928755 -0.0404390 0.0071245 0.0404390
4279000000 0.0072058 0.0411176 0.9927942 -0.0411176 0.9927942 -0.0411176 0.0072058 0.0411176
4300000000 0.0072884 0.0417947 0.9927116 -0.0417947 0.9927116 -0.0417947 0.0072884 0.0417947
4321000000 0.0073722 0.0424704 0.9926278 -0.0424704 0.9926278 -0.0424704 0.0073722 0.0424704
4342000000 0.0074573 0.0431447 0.9925427 -0.0431447 0.9925427 -0.0431447 0.0074573 0.0431447
4363000000 0.0075436 0.0438177 0.9924564 -0.0438177 0.9924564 -0.0438177 0.0075436 0.0438177
4384000000 0.0076311 0.0444895 0.9923689 -0.0444895 0.9923689 -0.0444895 0.0076311 0.0444895
4405000000 0.0077199 0.0451600 0.9922801 -0.0451600 0.9922801 -0.0451600 0.0077199 0.0451600
4426000000 0.0078101 0.0458293 0.9921899 -0.0458293 0.9921899 -0.0458293 0.0078101 0.0458293
4447000000 0.0079015 0.0464975 0.9920985 -0.0464975 0.9920985 -0.0464975 0.0079015 0.0464975
4468000000 0.0079943 0.0471645 0.9920057 -0.0471645 0.9920057 -0.0471645 0.0079943 0.0471645
4489000000 0.0080885 0.0478304 0.9919115 -0.0478304 0.9919115 -0.0478304 0.0080885 0.0478304
4510000000 0.0081840 0.0484953 0.9918160 -0.0484953 0.9918160 -0.0484953 0.0081840 0.0484953
