!Murata Part Number: GRM1552C2A7R2BA01
!These Parameters are Measured in Series Mode Connection
!Data Generated on Mar 30, 2021
!       o--ll--o
!Port1            Port2
!       o------o
!Operation Temp=25[degC], DC Bias Voltage=0[V]
!Freq. Start=100[MHz] Stop=9[GHz] 401[Steps]
# Hz S RI R 50
!Freq.(Hz) S11(Real) S11(Imag) S21(Real) S21(Imag) S12(Real) S12(Imag) S22(Real) S22(Imag)
100000000 0.8296453 -0.3754909 0.1703547 0.3754909 0.1703547 0.3754909 0.8296453 -0.3754909
121000000 0.7687501 -0.4210829 0.2312499 0.4210829 0.2312499 0.4210829 0.7687501 -0.4210829
142000000 0.7069197 -0.4545299 0.2930803 0.4545299 0.2930803 0.4545299 0.7069197 -0.4545299
163000000 0.6465219 -0.4773080 0.3534781 0.4773080 0.3534781 0.4773080 0.6465219 -0.4773080
184000000 0.5891521 -0.4911493 0.4108479 0.4911493 0.4108479 0.4911493 0.5891521 -0.4911493
205000000 0.5357500 -0.4977844 0.4642500 0.4977844 0.4642500 0.4977844 0.5357500 -0.4977844
226000000 0.4867560 -0.4987907 0.5132440 0.4987907 0.5132440 0.4987907 0.4867560 -0.4987907
247000000 0.4422606 -0.4955225 0.5577394 0.4955225 0.5577394 0.4955225 0.4422606 -0.4955225
268000000 0.4021292 -0.4890960 0.5978708 0.4890960 0.5978708 0.4890960 0.4021292 -0.4890960
289000000 0.3660951 -0.4804041 0.6339049 0.4804041 0.6339049 0.4804041 0.3660951 -0.4804041
310000000 0.3338250 -0.4701454 0.6661750 0.4701454 0.6661750 0.4701454 0.3338250 -0.4701454
331000000 0.3049619 -0.4588569 0.6950381 0.4588569 0.6950381 0.4588569 0.3049619 -0.4588569
352000000 0.2791524 -0.4469456 0.7208476 0.4469456 0.7208476 0.4469456 0.2791524 -0.4469456
373000000 0.2560613 -0.4347155 0.7439387 0.4347155 0.7439387 0.4347155 0.2560613 -0.4347155
394000000 0.2353804 -0.4223911 0.7646196 0.4223911 0.7646196 0.4223911 0.2353804 -0.4223911
415000000 0.2168307 -0.4101355 0.7831693 0.4101355 0.7831693 0.4101355 0.2168307 -0.4101355
436000000 0.2001638 -0.3980650 0.7998362 0.3980650 0.7998362 0.3980650 0.2001638 -0.3980650
457000000 0.1851593 -0.3862609 0.8148407 0.3862609 0.8148407 0.3862609 0.1851593 -0.3862609
478000000 0.1716237 -0.3747778 0.8283763 0.3747778 0.8283763 0.3747778 0.1716237 -0.3747778
499000000 0.1593870 -0.3636507 0.8406130 0.3636507 0.8406130 0.3636507 0.1593870 -0.3636507
520000000 0.1483005 -0.3528997 0.8516995 0.3528997 0.8516995 0.3528997 0.1483005 -0.3528997
541000000 0.1382343 -0.3425342 0.8617657 0.3425342 0.8617657 0.3425342 0.1382343 -0.3425342
562000000 0.1290746 -0.3325559 0.8709254 0.3325559 0.8709254 0.3325559 0.1290746 -0.3325559
583000000 0.1207220 -0.3229607 0.8792780 0.3229607 0.8792780 0.3229607 0.1207220 -0.3229607
604000000 0.1130894 -0.3137406 0.8869106 0.3137406 0.8869106 0.3137406 0.1130894 -0.3137406
625000000 0.1061005 -0.3048848 0.8938995 0.3048848 0.8938995 0.3048848 0.1061005 -0.3048848
646000000 0.0996883 -0.2963807 0.9003117 0.2963807 0.9003117 0.2963807 0.0996883 -0.2963807
667000000 0.0937937 -0.2882147 0.9062063 0.2882147 0.9062063 0.2882147 0.0937937 -0.2882147
688000000 0.0883649 -0.2803726 0.9116351 0.2803726 0.9116351 0.2803726 0.0883649 -0.2803726
709000000 0.0833561 -0.2728400 0.9166439 0.2728400 0.9166439 0.2728400 0.0833561 -0.2728400
730000000 0.0787265 -0.2656023 0.9212735 0.2656023 0.9212735 0.2656023 0.0787265 -0.2656023
751000000 0.0744403 -0.2586455 0.9255597 0.2586455 0.9255597 0.2586455 0.0744403 -0.2586455
772000000 0.0704656 -0.2519557 0.9295344 0.2519557 0.9295344 0.2519557 0.0704656 -0.2519557
793000000 0.0667739 -0.2455198 0.9332261 0.2455198 0.9332261 0.2455198 0.0667739 -0.2455198
814000000 0.0633399 -0.2393249 0.9366601 0.2393249 0.9366601 0.2393249 0.0633399 -0.2393249
835000000 0.0601410 -0.2333588 0.9398590 0.2333588 0.9398590 0.2333588 0.0601410 -0.2333588
856000000 0.0571568 -0.2276100 0.9428432 0.2276100 0.9428432 0.2276100 0.0571568 -0.2276100
877000000 0.0543693 -0.2220673 0.9456307 0.2220673 0.9456307 0.2220673 0.0543693 -0.2220673
898000000 0.0517620 -0.2167205 0.9482380 0.2167205 0.9482380 0.2167205 0.0517620 -0.2167205
919000000 0.0493203 -0.2115595 0.9506797 0.2115595 0.9506797 0.2115595 0.0493203 -0.2115595
940000000 0.0470309 -0.2065751 0.9529691 0.2065751 0.9529691 0.2065751 0.0470309 -0.2065751
961000000 0.0448818 -0.2017583 0.9551182 0.2017583 0.9551182 0.2017583 0.0448818 -0.2017583
982000000 0.0428621 -0.1971010 0.9571379 0.1971010 0.9571379 0.1971010 0.0428621 -0.1971010
1003000000 0.0409621 -0.1925952 0.9590379 0.1925952 0.9590379 0.1925952 0.0409621 -0.1925952
1024000000 0.0391727 -0.1882335 0.9608273 0.1882335 0.9608273 0.1882335 0.0391727 -0.1882335
1045000000 0.0374859 -0.1840089 0.9625141 0.1840089 0.9625141 0.1840089 0.0374859 -0.1840089
1066000000 0.0358943 -0.1799149 0.9641057 0.1799149 0.9641057 0.1799149 0.0358943 -0.1799149
1087000000 0.0343911 -0.1759453 0.9656089 0.1759453 0.9656089 0.1759453 0.0343911 -0.1759453
1108000000 0.0329701 -0.1720941 0.9670299 0.1720941 0.9670299 0.1720941 0.0329701 -0.1720941
1129000000 0.0316257 -0.1683560 0.9683743 0.1683560 0.9683743 0.1683560 0.0316257 -0.1683560
1150000000 0.0303527 -0.1647256 0.9696473 0.1647256 0.9696473 0.1647256 0.0303527 -0.1647256
1171000000 0.0291464 -0.1611981 0.9708536 0.1611981 0.9708536 0.1611981 0.0291464 -0.1611981
1192000000 0.0280024 -0.1577688 0.9719976 0.1577688 0.9719976 0.1577688 0.0280024 -0.1577688
1213000000 0.0269166 -0.1544333 0.9730834 0.1544333 0.9730834 0.1544333 0.0269166 -0.1544333
1234000000 0.0258855 -0.1511875 0.9741145 0.1511875 0.9741145 0.1511875 0.0258855 -0.1511875
1255000000 0.0249056 -0.1480275 0.9750944 0.1480275 0.9750944 0.1480275 0.0249056 -0.1480275
1276000000 0.0239737 -0.1449495 0.9760263 0.1449495 0.9760263 0.1449495 0.0239737 -0.1449495
1297000000 0.0230869 -0.1419501 0.9769131 0.1419501 0.9769131 0.1419501 0.0230869 -0.1419501
1318000000 0.0222425 -0.1390260 0.9777575 0.1390260 0.9777575 0.1390260 0.0222425 -0.1390260
1339000000 0.0214381 -0.1361739 0.9785619 0.1361739 0.9785619 0.1361739 0.0214381 -0.1361739
1360000000 0.0206713 -0.1333909 0.9793287 0.1333909 0.9793287 0.1333909 0.0206713 -0.1333909
1381000000 0.0199400 -0.1306741 0.9800600 0.1306741 0.9800600 0.1306741 0.0199400 -0.1306741
1402000000 0.0192421 -0.1280210 0.9807579 0.1280210 0.9807579 0.1280210 0.0192421 -0.1280210
1423000000 0.0185759 -0.1254289 0.9814241 0.1254289 0.9814241 0.1254289 0.0185759 -0.1254289
1444000000 0.0179395 -0.1228955 0.9820605 0.1228955 0.9820605 0.1228955 0.0179395 -0.1228955
1465000000 0.0173314 -0.1204184 0.9826686 0.1204184 0.9826686 0.1204184 0.0173314 -0.1204184
1486000000 0.0167501 -0.1179954 0.9832499 0.1179954 0.9832499 0.1179954 0.0167501 -0.1179954
1507000000 0.0161941 -0.1156244 0.9838059 0.1156244 0.9838059 0.1156244 0.0161941 -0.1156244
1528000000 0.0156622 -0.1133036 0.9843378 0.1133036 0.9843378 0.1133036 0.0156622 -0.1133036
1549000000 0.0151530 -0.1110310 0.9848470 0.1110310 0.9848470 0.1110310 0.0151530 -0.1110310
1570000000 0.0146656 -0.1088047 0.9853344 0.1088047 0.9853344 0.1088047 0.0146656 -0.1088047
1591000000 0.0141987 -0.1066232 0.9858013 0.1066232 0.9858013 0.1066232 0.0141987 -0.1066232
1612000000 0.0137515 -0.1044847 0.9862485 0.1044847 0.9862485 0.1044847 0.0137515 -0.1044847
1633000000 0.0133228 -0.1023878 0.9866772 0.1023878 0.9866772 0.1023878 0.0133228 -0.1023878
1654000000 0.0129119 -0.1003308 0.9870881 0.1003308 0.9870881 0.1003308 0.0129119 -0.1003308
1675000000 0.0125179 -0.0983125 0.9874821 0.0983125 0.9874821 0.0983125 0.0125179 -0.0983125
1696000000 0.0121400 -0.0963313 0.9878600 0.0963313 0.9878600 0.0963313 0.0121400 -0.0963313
1717000000 0.0117774 -0.0943862 0.9882226 0.0943862 0.9882226 0.0943862 0.0117774 -0.0943862
1738000000 0.0114296 -0.0924757 0.9885704 0.0924757 0.9885704 0.0924757 0.0114296 -0.0924757
1759000000 0.0110957 -0.0905988 0.9889043 0.0905988 0.9889043 0.0905988 0.0110957 -0.0905988
1780000000 0.0107753 -0.0887543 0.9892247 0.0887543 0.9892247 0.0887543 0.0107753 -0.0887543
1801000000 0.0104677 -0.0869410 0.9895323 0.0869410 0.9895323 0.0869410 0.0104677 -0.0869410
1822000000 0.0101723 -0.0851581 0.9898277 0.0851581 0.9898277 0.0851581 0.0101723 -0.0851581
1843000000 0.0098887 -0.0834043 0.9901113 0.0834043 0.9901113 0.0834043 0.0098887 -0.0834043
1864000000 0.0096163 -0.0816789 0.9903837 0.0816789 0.9903837 0.0816789 0.0096163 -0.0816789
1885000000 0.0093547 -0.0799809 0.9906453 0.0799809 0.9906453 0.0799809 0.0093547 -0.0799809
1906000000 0.0091034 -0.0783093 0.9908966 0.0783093 0.9908966 0.0783093 0.0091034 -0.0783093
1927000000 0.0088621 -0.0766634 0.9911379 0.0766634 0.9911379 0.0766634 0.0088621 -0.0766634
1948000000 0.0086303 -0.0750424 0.9913697 0.0750424 0.9913697 0.0750424 0.0086303 -0.0750424
1969000000 0.0084076 -0.0734454 0.9915924 0.0734454 0.9915924 0.0734454 0.0084076 -0.0734454
1990000000 0.0081937 -0.0718717 0.9918063 0.0718717 0.9918063 0.0718717 0.0081937 -0.0718717
2011000000 0.0079883 -0.0703206 0.9920117 0.0703206 0.9920117 0.0703206 0.0079883 -0.0703206
2032000000 0.0077910 -0.0687913 0.9922090 0.0687913 0.9922090 0.0687913 0.0077910 -0.0687913
2053000000 0.0076016 -0.0672833 0.9923984 0.0672833 0.9923984 0.0672833 0.0076016 -0.0672833
2074000000 0.0074196 -0.0657959 0.9925804 0.0657959 0.9925804 0.0657959 0.0074196 -0.0657959
2095000000 0.0072450 -0.0643284 0.9927550 0.0643284 0.9927550 0.0643284 0.0072450 -0.0643284
2116000000 0.0070774 -0.0628803 0.9929226 0.0628803 0.9929226 0.0628803 0.0070774 -0.0628803
2137000000 0.0069165 -0.0614510 0.9930835 0.0614510 0.9930835 0.0614510 0.0069165 -0.0614510
2158000000 0.0067622 -0.0600398 0.9932378 0.0600398 0.9932378 0.0600398 0.0067622 -0.0600398
2179000000 0.0066141 -0.0586464 0.9933859 0.0586464 0.9933859 0.0586464 0.0066141 -0.0586464
2200000000 0.0064722 -0.0572701 0.9935278 0.0572701 0.9935278 0.0572701 0.0064722 -0.0572701
2221000000 0.0063361 -0.0559105 0.9936639 0.0559105 0.9936639 0.0559105 0.0063361 -0.0559105
2242000000 0.0062057 -0.0545671 0.9937943 0.0545671 0.9937943 0.0545671 0.0062057 -0.0545671
2263000000 0.0060808 -0.0532394 0.9939192 0.0532394 0.9939192 0.0532394 0.0060808 -0.0532394
2284000000 0.0059612 -0.0519270 0.9940388 0.0519270 0.9940388 0.0519270 0.0059612 -0.0519270
2305000000 0.0058468 -0.0506294 0.9941532 0.0506294 0.9941532 0.0506294 0.0058468 -0.0506294
2326000000 0.0057374 -0.0493463 0.9942626 0.0493463 0.9942626 0.0493463 0.0057374 -0.0493463
2347000000 0.0056329 -0.0480771 0.9943671 0.0480771 0.9943671 0.0480771 0.0056329 -0.0480771
2368000000 0.0055330 -0.0468215 0.9944670 0.0468215 0.9944670 0.0468215 0.0055330 -0.0468215
2389000000 0.0054377 -0.0455792 0.9945623 0.0455792 0.9945623 0.0455792 0.0054377 -0.0455792
2410000000 0.0053469 -0.0443498 0.9946531 0.0443498 0.9946531 0.0443498 0.0053469 -0.0443498
2431000000 0.0052603 -0.0431328 0.9947397 0.0431328 0.9947397 0.0431328 0.0052603 -0.0431328
2452000000 0.0051779 -0.0419280 0.9948221 0.0419280 0.9948221 0.0419280 0.0051779 -0.0419280
2473000000 0.0050996 -0.0407350 0.9949004 0.0407350 0.9949004 0.0407350 0.0050996 -0.0407350
2494000000 0.0050252 -0.0395535 0.9949748 0.0395535 0.9949748 0.0395535 0.0050252 -0.0395535
2515000000 0.0049547 -0.0383832 0.9950453 0.0383832 0.9950453 0.0383832 0.0049547 -0.0383832
2536000000 0.0048879 -0.0372238 0.9951121 0.0372238 0.9951121 0.0372238 0.0048879 -0.0372238
2557000000 0.0048248 -0.0360749 0.9951752 0.0360749 0.9951752 0.0360749 0.0048248 -0.0360749
2578000000 0.0047652 -0.0349363 0.9952348 0.0349363 0.9952348 0.0349363 0.0047652 -0.0349363
2599000000 0.0047091 -0.0338078 0.9952909 0.0338078 0.9952909 0.0338078 0.0047091 -0.0338078
2620000000 0.0046564 -0.0326889 0.9953436 0.0326889 0.9953436 0.0326889 0.0046564 -0.0326889
2641000000 0.0046070 -0.0315795 0.9953930 0.0315795 0.9953930 0.0315795 0.0046070 -0.0315795
2662000000 0.0045608 -0.0304794 0.9954392 0.0304794 0.9954392 0.0304794 0.0045608 -0.0304794
2683000000 0.0045178 -0.0293881 0.9954822 0.0293881 0.9954822 0.0293881 0.0045178 -0.0293881
2704000000 0.0044779 -0.0283056 0.9955221 0.0283056 0.9955221 0.0283056 0.0044779 -0.0283056
2725000000 0.0044410 -0.0272316 0.9955590 0.0272316 0.9955590 0.0272316 0.0044410 -0.0272316
2746000000 0.0044070 -0.0261658 0.9955930 0.0261658 0.9955930 0.0261658 0.0044070 -0.0261658
2767000000 0.0043759 -0.0251081 0.9956241 0.0251081 0.9956241 0.0251081 0.0043759 -0.0251081
2788000000 0.0043477 -0.0240581 0.9956523 0.0240581 0.9956523 0.0240581 0.0043477 -0.0240581
2809000000 0.0043223 -0.0230157 0.9956777 0.0230157 0.9956777 0.0230157 0.0043223 -0.0230157
2830000000 0.0042996 -0.0219807 0.9957004 0.0219807 0.9957004 0.0219807 0.0042996 -0.0219807
2851000000 0.0042796 -0.0209529 0.9957204 0.0209529 0.9957204 0.0209529 0.0042796 -0.0209529
2872000000 0.0042622 -0.0199321 0.9957378 0.0199321 0.9957378 0.0199321 0.0042622 -0.0199321
2893000000 0.0042474 -0.0189180 0.9957526 0.0189180 0.9957526 0.0189180 0.0042474 -0.0189180
2914000000 0.0042351 -0.0179106 0.9957649 0.0179106 0.9957649 0.0179106 0.0042351 -0.0179106
2935000000 0.0042253 -0.0169095 0.9957747 0.0169095 0.9957747 0.0169095 0.0042253 -0.0169095
2956000000 0.0042180 -0.0159147 0.9957820 0.0159147 0.9957820 0.0159147 0.0042180 -0.0159147
2977000000 0.0042132 -0.0149259 0.9957868 0.0149259 0.9957868 0.0149259 0.0042132 -0.0149259
2998000000 0.0042107 -0.0139431 0.9957893 0.0139431 0.9957893 0.0139431 0.0042107 -0.0139431
3019000000 0.0042106 -0.0129659 0.9957894 0.0129659 0.9957894 0.0129659 0.0042106 -0.0129659
3040000000 0.0042128 -0.0119943 0.9957872 0.0119943 0.9957872 0.0119943 0.0042128 -0.0119943
3061000000 0.0042173 -0.0110281 0.9957827 0.0110281 0.9957827 0.0110281 0.0042173 -0.0110281
3082000000 0.0042241 -0.0100672 0.9957759 0.0100672 0.9957759 0.0100672 0.0042241 -0.0100672
3103000000 0.0042331 -0.0091113 0.9957669 0.0091113 0.9957669 0.0091113 0.0042331 -0.0091113
3124000000 0.0042444 -0.0081603 0.9957556 0.0081603 0.9957556 0.0081603 0.0042444 -0.0081603
3145000000 0.0042578 -0.0072142 0.9957422 0.0072142 0.9957422 0.0072142 0.0042578 -0.0072142
3166000000 0.0042735 -0.0062726 0.9957265 0.0062726 0.9957265 0.0062726 0.0042735 -0.0062726
3187000000 0.0042912 -0.0053356 0.9957088 0.0053356 0.9957088 0.0053356 0.0042912 -0.0053356
3208000000 0.0043112 -0.0044029 0.9956888 0.0044029 0.9956888 0.0044029 0.0043112 -0.0044029
3229000000 0.0043332 -0.0034745 0.9956668 0.0034745 0.9956668 0.0034745 0.0043332 -0.0034745
3250000000 0.0043574 -0.0025501 0.9956426 0.0025501 0.9956426 0.0025501 0.0043574 -0.0025501
3271000000 0.0043836 -0.0016297 0.9956164 0.0016297 0.9956164 0.0016297 0.0043836 -0.0016297
3292000000 0.0044119 -0.0007132 0.9955881 0.0007132 0.9955881 0.0007132 0.0044119 -0.0007132
3313000000 0.0044423 0.0001997 0.9955577 -0.0001997 0.9955577 -0.0001997 0.0044423 0.0001997
3334000000 0.0044748 0.0011090 0.9955252 -0.0011090 0.9955252 -0.0011090 0.0044748 0.0011090
3355000000 0.0045093 0.0020148 0.9954907 -0.0020148 0.9954907 -0.0020148 0.0045093 0.0020148
3376000000 0.0045458 0.0029173 0.9954542 -0.0029173 0.9954542 -0.0029173 0.0045458 0.0029173
3397000000 0.0045844 0.0038166 0.9954156 -0.0038166 0.9954156 -0.0038166 0.0045844 0.0038166
3418000000 0.0046250 0.0047128 0.9953750 -0.0047128 0.9953750 -0.0047128 0.0046250 0.0047128
3439000000 0.0046677 0.0056061 0.9953323 -0.0056061 0.9953323 -0.0056061 0.0046677 0.0056061
3460000000 0.0047124 0.0064964 0.9952876 -0.0064964 0.9952876 -0.0064964 0.0047124 0.0064964
3481000000 0.0047591 0.0073840 0.9952409 -0.0073840 0.9952409 -0.0073840 0.0047591 0.0073840
3502000000 0.0048078 0.0082690 0.9951922 -0.0082690 0.9951922 -0.0082690 0.0048078 0.0082690
3523000000 0.0048586 0.0091514 0.9951414 -0.0091514 0.9951414 -0.0091514 0.0048586 0.0091514
3544000000 0.0049113 0.0100314 0.9950887 -0.0100314 0.9950887 -0.0100314 0.0049113 0.0100314
3565000000 0.0049662 0.0109090 0.9950338 -0.0109090 0.9950338 -0.0109090 0.0049662 0.0109090
3586000000 0.0050230 0.0117845 0.9949770 -0.0117845 0.9949770 -0.0117845 0.0050230 0.0117845
3607000000 0.0050819 0.0126578 0.9949181 -0.0126578 0.9949181 -0.0126578 0.0050819 0.0126578
3628000000 0.0051429 0.0135292 0.9948571 -0.0135292 0.9948571 -0.0135292 0.0051429 0.0135292
3649000000 0.0052059 0.0143986 0.9947941 -0.0143986 0.9947941 -0.0143986 0.0052059 0.0143986
3670000000 0.0052710 0.0152662 0.9947290 -0.0152662 0.9947290 -0.0152662 0.0052710 0.0152662
3691000000 0.0053381 0.0161321 0.9946619 -0.0161321 0.9946619 -0.0161321 0.0053381 0.0161321
3712000000 0.0054074 0.0169964 0.9945926 -0.0169964 0.9945926 -0.0169964 0.0054074 0.0169964
3733000000 0.0054787 0.0178592 0.9945213 -0.0178592 0.9945213 -0.0178592 0.0054787 0.0178592
3754000000 0.0055522 0.0187206 0.9944478 -0.0187206 0.9944478 -0.0187206 0.0055522 0.0187206
3775000000 0.0056279 0.0195806 0.9943721 -0.0195806 0.9943721 -0.0195806 0.0056279 0.0195806
3796000000 0.0057056 0.0204395 0.9942944 -0.0204395 0.9942944 -0.0204395 0.0057056 0.0204395
3817000000 0.0057856 0.0212972 0.9942144 -0.0212972 0.9942144 -0.0212972 0.0057856 0.0212972
3838000000 0.0058678 0.0221539 0.9941322 -0.0221539 0.9941322 -0.0221539 0.0058678 0.0221539
3859000000 0.0059521 0.0230096 0.9940479 -0.0230096 0.9940479 -0.0230096 0.0059521 0.0230096
3880000000 0.0060388 0.0238645 0.9939612 -0.0238645 0.9939612 -0.0238645 0.0060388 0.0238645
3901000000 0.0061276 0.0247187 0.9938724 -0.0247187 0.9938724 -0.0247187 0.0061276 0.0247187
3922000000 0.0062188 0.0255722 0.9937812 -0.0255722 0.9937812 -0.0255722 0.0062188 0.0255722
3943000000 0.0063123 0.0264251 0.9936877 -0.0264251 0.9936877 -0.0264251 0.0063123 0.0264251
3964000000 0.0064081 0.0272776 0.9935919 -0.0272776 0.9935919 -0.0272776 0.0064081 0.0272776
3985000000 0.0065063 0.0281297 0.9934937 -0.0281297 0.9934937 -0.0281297 0.0065063 0.0281297
4006000000 0.0066070 0.0289814 0.9933930 -0.0289814 0.9933930 -0.0289814 0.0066070 0.0289814
4027000000 0.0067100 0.0298330 0.9932900 -0.0298330 0.9932900 -0.0298330 0.0067100 0.0298330
4048000000 0.0068156 0.0306845 0.9931844 -0.0306845 0.9931844 -0.0306845 0.0068156 0.0306845
4069000000 0.0069236 0.0315360 0.9930764 -0.0315360 0.9930764 -0.0315360 0.0069236 0.0315360
4090000000 0.0070342 0.0323875 0.9929658 -0.0323875 0.9929658 -0.0323875 0.0070342 0.0323875
4111000000 0.0071474 0.0332392 0.9928526 -0.0332392 0.9928526 -0.0332392 0.0071474 0.0332392
4132000000 0.0072633 0.0340912 0.9927367 -0.0340912 0.9927367 -0.0340912 0.0072633 0.0340912
4153000000 0.0073818 0.0349435 0.9926182 -0.0349435 0.9926182 -0.0349435 0.0073818 0.0349435
4174000000 0.0075031 0.0357963 0.9924969 -0.0357963 0.9924969 -0.0357963 0.0075031 0.0357963
4195000000 0.0076272 0.0366496 0.9923728 -0.0366496 0.9923728 -0.0366496 0.0076272 0.0366496
4216000000 0.0077540 0.0375035 0.9922460 -0.0375035 0.9922460 -0.0375035 0.0077540 0.0375035
4237000000 0.0078838 0.0383582 0.9921162 -0.0383582 0.9921162 -0.0383582 0.0078838 0.0383582
4258000000 0.0080165 0.0392136 0.9919835 -0.0392136 0.9919835 -0.0392136 0.0080165 0.0392136
4279000000 0.0081522 0.0400700 0.9918478 -0.0400700 0.9918478 -0.0400700 0.0081522 0.0400700
4300000000 0.0082910 0.0409273 0.9917090 -0.0409273 0.9917090 -0.0409273 0.0082910 0.0409273
4321000000 0.0084329 0.0417857 0.9915671 -0.0417857 0.9915671 -0.0417857 0.0084329 0.0417857
4342000000 0.0085779 0.0426454 0.9914221 -0.0426454 0.9914221 -0.0426454 0.0085779 0.0426454
4363000000 0.0087263 0.0435063 0.9912737 -0.0435063 0.9912737 -0.0435063 0.0087263 0.0435063
4384000000 0.0088779 0.0443686 0.9911221 -0.0443686 0.9911221 -0.0443686 0.0088779 0.0443686
4405000000 0.0090330 0.0452323 0.9909670 -0.0452323 0.9909670 -0.0452323 0.0090330 0.0452323
4426000000 0.0091916 0.0460976 0.9908084 -0.0460976 0.9908084 -0.0460976 0.0091916 0.0460976
4447000000 0.0093537 0.0469646 0.9906463 -0.0469646 0.9906463 -0.0469646 0.0093537 0.0469646
4468000000 0.0095195 0.0478334 0.9904805 -0.0478334 0.9904805 -0.0478334 0.0095195 0.0478334
4489000000 0.0096890 0.0487040 0.9903110 -0.0487040 0.9903110 -0.0487040 0.0096890 0.0487040
4510000000 0.0098624 0.0495766 0.9901376 -0.0495766 0.9901376 -0.0495766 0.0098624 0.0495766
