!Murata Part Number: GRM1552C1H5R0BA01
!These Parameters are Measured in Series Mode Connection
!Data Generated on Mar 30, 2021
!       o--ll--o
!Port1            Port2
!       o------o
!Operation Temp=25[degC], DC Bias Voltage=0[V]
!Freq. Start=100[MHz] Stop=9[GHz] 401[Steps]
# Hz S RI R 50
!Freq.(Hz) S11(Real) S11(Imag) S21(Real) S21(Imag) S12(Real) S12(Imag) S22(Real) S22(Imag)
100000000 0.9099044 -0.2859883 0.0900956 0.2859883 0.0900956 0.2859883 0.9099044 -0.2859883
121000000 0.8733264 -0.3322068 0.1266736 0.3322068 0.1266736 0.3322068 0.8733264 -0.3322068
142000000 0.8334100 -0.3721392 0.1665900 0.3721392 0.1665900 0.3721392 0.8334100 -0.3721392
163000000 0.7914042 -0.4057643 0.2085958 0.4057643 0.2085958 0.4057643 0.7914042 -0.4057643
184000000 0.7484204 -0.4333098 0.2515796 0.4333098 0.2515796 0.4333098 0.7484204 -0.4333098
205000000 0.7053950 -0.4551830 0.2946050 0.4551830 0.2946050 0.4551830 0.7053950 -0.4551830
226000000 0.6630770 -0.4719050 0.3369230 0.4719050 0.3369230 0.4719050 0.6630770 -0.4719050
247000000 0.6220348 -0.4840538 0.3779652 0.4840538 0.3779652 0.4840538 0.6220348 -0.4840538
268000000 0.5826740 -0.4922204 0.4173260 0.4922204 0.4173260 0.4922204 0.5826740 -0.4922204
289000000 0.5452617 -0.4969772 0.4547383 0.4969772 0.4547383 0.4969772 0.5452617 -0.4969772
310000000 0.5099524 -0.4988577 0.4900476 0.4988577 0.4900476 0.4988577 0.5099524 -0.4988577
331000000 0.4768129 -0.4983449 0.5231871 0.4983449 0.5231871 0.4983449 0.4768129 -0.4983449
352000000 0.4458437 -0.4958668 0.5541563 0.4958668 0.5541563 0.4958668 0.4458437 -0.4958668
373000000 0.4169977 -0.4917957 0.5830023 0.4917957 0.5830023 0.4917957 0.4169977 -0.4917957
394000000 0.3901949 -0.4864512 0.6098051 0.4864512 0.6098051 0.4864512 0.3901949 -0.4864512
415000000 0.3653343 -0.4801045 0.6346657 0.4801045 0.6346657 0.4801045 0.3653343 -0.4801045
436000000 0.3423025 -0.4729836 0.6576975 0.4729836 0.6576975 0.4729836 0.3423025 -0.4729836
457000000 0.3209806 -0.4652785 0.6790194 0.4652785 0.6790194 0.4652785 0.3209806 -0.4652785
478000000 0.3012486 -0.4571465 0.6987514 0.4571465 0.6987514 0.4571465 0.3012486 -0.4571465
499000000 0.2829887 -0.4487170 0.7170113 0.4487170 0.7170113 0.4487170 0.2829887 -0.4487170
520000000 0.2660877 -0.4400957 0.7339123 0.4400957 0.7339123 0.4400957 0.2660877 -0.4400957
541000000 0.2504382 -0.4313684 0.7495618 0.4313684 0.7495618 0.4313684 0.2504382 -0.4313684
562000000 0.2359393 -0.4226045 0.7640607 0.4226045 0.7640607 0.4226045 0.2359393 -0.4226045
583000000 0.2224973 -0.4138593 0.7775027 0.4138593 0.7775027 0.4138593 0.2224973 -0.4138593
604000000 0.2100253 -0.4051769 0.7899747 0.4051769 0.7899747 0.4051769 0.2100253 -0.4051769
625000000 0.1984433 -0.3965920 0.8015567 0.3965920 0.8015567 0.3965920 0.1984433 -0.3965920
646000000 0.1876779 -0.3881313 0.8123221 0.3881313 0.8123221 0.3881313 0.1876779 -0.3881313
667000000 0.1776618 -0.3798155 0.8223382 0.3798155 0.8223382 0.3798155 0.1776618 -0.3798155
688000000 0.1683336 -0.3716598 0.8316664 0.3716598 0.8316664 0.3716598 0.1683336 -0.3716598
709000000 0.1596372 -0.3636753 0.8403628 0.3636753 0.8403628 0.3636753 0.1596372 -0.3636753
730000000 0.1515216 -0.3558696 0.8484784 0.3558696 0.8484784 0.3558696 0.1515216 -0.3558696
751000000 0.1439401 -0.3482476 0.8560599 0.3482476 0.8560599 0.3482476 0.1439401 -0.3482476
772000000 0.1368502 -0.3408120 0.8631498 0.3408120 0.8631498 0.3408120 0.1368502 -0.3408120
793000000 0.1302133 -0.3335634 0.8697867 0.3335634 0.8697867 0.3335634 0.1302133 -0.3335634
814000000 0.1239942 -0.3265014 0.8760058 0.3265014 0.8760058 0.3265014 0.1239942 -0.3265014
835000000 0.1181606 -0.3196241 0.8818394 0.3196241 0.8818394 0.3196241 0.1181606 -0.3196241
856000000 0.1126833 -0.3129290 0.8873167 0.3129290 0.8873167 0.3129290 0.1126833 -0.3129290
877000000 0.1075355 -0.3064126 0.8924645 0.3064126 0.8924645 0.3064126 0.1075355 -0.3064126
898000000 0.1026928 -0.3000712 0.8973072 0.3000712 0.8973072 0.3000712 0.1026928 -0.3000712
919000000 0.0981329 -0.2939006 0.9018671 0.2939006 0.9018671 0.2939006 0.0981329 -0.2939006
940000000 0.0938352 -0.2878963 0.9061648 0.2878963 0.9061648 0.2878963 0.0938352 -0.2878963
961000000 0.0897812 -0.2820536 0.9102188 0.2820536 0.9102188 0.2820536 0.0897812 -0.2820536
982000000 0.0859535 -0.2763678 0.9140465 0.2763678 0.9140465 0.2763678 0.0859535 -0.2763678
1003000000 0.0823367 -0.2708340 0.9176633 0.2708340 0.9176633 0.2708340 0.0823367 -0.2708340
1024000000 0.0789161 -0.2654474 0.9210839 0.2654474 0.9210839 0.2654474 0.0789161 -0.2654474
1045000000 0.0756785 -0.2602031 0.9243215 0.2602031 0.9243215 0.2602031 0.0756785 -0.2602031
1066000000 0.0726117 -0.2550965 0.9273883 0.2550965 0.9273883 0.2550965 0.0726117 -0.2550965
1087000000 0.0697045 -0.2501230 0.9302955 0.2501230 0.9302955 0.2501230 0.0697045 -0.2501230
1108000000 0.0669465 -0.2452778 0.9330535 0.2452778 0.9330535 0.2452778 0.0669465 -0.2452778
1129000000 0.0643282 -0.2405566 0.9356718 0.2405566 0.9356718 0.2405566 0.0643282 -0.2405566
1150000000 0.0618408 -0.2359551 0.9381592 0.2359551 0.9381592 0.2359551 0.0618408 -0.2359551
1171000000 0.0594760 -0.2314690 0.9405240 0.2314690 0.9405240 0.2314690 0.0594760 -0.2314690
1192000000 0.0572263 -0.2270942 0.9427737 0.2270942 0.9427737 0.2270942 0.0572263 -0.2270942
1213000000 0.0550848 -0.2228270 0.9449152 0.2228270 0.9449152 0.2228270 0.0550848 -0.2228270
1234000000 0.0530449 -0.2186634 0.9469551 0.2186634 0.9469551 0.2186634 0.0530449 -0.2186634
1255000000 0.0511007 -0.2145997 0.9488993 0.2145997 0.9488993 0.2145997 0.0511007 -0.2145997
1276000000 0.0492466 -0.2106326 0.9507534 0.2106326 0.9507534 0.2106326 0.0492466 -0.2106326
1297000000 0.0474774 -0.2067585 0.9525226 0.2067585 0.9525226 0.2067585 0.0474774 -0.2067585
1318000000 0.0457882 -0.2029741 0.9542118 0.2029741 0.9542118 0.2029741 0.0457882 -0.2029741
1339000000 0.0441747 -0.1992765 0.9558253 0.1992765 0.9558253 0.1992765 0.0441747 -0.1992765
1360000000 0.0426324 -0.1956624 0.9573676 0.1956624 0.9573676 0.1956624 0.0426324 -0.1956624
1381000000 0.0411577 -0.1921291 0.9588423 0.1921291 0.9588423 0.1921291 0.0411577 -0.1921291
1402000000 0.0397468 -0.1886737 0.9602532 0.1886737 0.9602532 0.1886737 0.0397468 -0.1886737
1423000000 0.0383963 -0.1852936 0.9616037 0.1852936 0.9616037 0.1852936 0.0383963 -0.1852936
1444000000 0.0371031 -0.1819861 0.9628969 0.1819861 0.9628969 0.1819861 0.0371031 -0.1819861
1465000000 0.0358641 -0.1787489 0.9641359 0.1787489 0.9641359 0.1787489 0.0358641 -0.1787489
1486000000 0.0346766 -0.1755795 0.9653234 0.1755795 0.9653234 0.1755795 0.0346766 -0.1755795
1507000000 0.0335379 -0.1724757 0.9664621 0.1724757 0.9664621 0.1724757 0.0335379 -0.1724757
1528000000 0.0324457 -0.1694353 0.9675543 0.1694353 0.9675543 0.1694353 0.0324457 -0.1694353
1549000000 0.0313976 -0.1664562 0.9686024 0.1664562 0.9686024 0.1664562 0.0313976 -0.1664562
1570000000 0.0303914 -0.1635363 0.9696086 0.1635363 0.9696086 0.1635363 0.0303914 -0.1635363
1591000000 0.0294251 -0.1606738 0.9705749 0.1606738 0.9705749 0.1606738 0.0294251 -0.1606738
1612000000 0.0284968 -0.1578668 0.9715032 0.1578668 0.9715032 0.1578668 0.0284968 -0.1578668
1633000000 0.0276047 -0.1551135 0.9723953 0.1551135 0.9723953 0.1551135 0.0276047 -0.1551135
1654000000 0.0267472 -0.1524121 0.9732528 0.1524121 0.9732528 0.1524121 0.0267472 -0.1524121
1675000000 0.0259225 -0.1497611 0.9740775 0.1497611 0.9740775 0.1497611 0.0259225 -0.1497611
1696000000 0.0251293 -0.1471589 0.9748707 0.1471589 0.9748707 0.1471589 0.0251293 -0.1471589
1717000000 0.0243661 -0.1446039 0.9756339 0.1446039 0.9756339 0.1446039 0.0243661 -0.1446039
1738000000 0.0236315 -0.1420947 0.9763685 0.1420947 0.9763685 0.1420947 0.0236315 -0.1420947
1759000000 0.0229243 -0.1396299 0.9770757 0.1396299 0.9770757 0.1396299 0.0229243 -0.1396299
1780000000 0.0222433 -0.1372081 0.9777567 0.1372081 0.9777567 0.1372081 0.0222433 -0.1372081
1801000000 0.0215873 -0.1348280 0.9784127 0.1348280 0.9784127 0.1348280 0.0215873 -0.1348280
1822000000 0.0209554 -0.1324884 0.9790446 0.1324884 0.9790446 0.1324884 0.0209554 -0.1324884
1843000000 0.0203464 -0.1301881 0.9796536 0.1301881 0.9796536 0.1301881 0.0203464 -0.1301881
1864000000 0.0197595 -0.1279258 0.9802405 0.1279258 0.9802405 0.1279258 0.0197595 -0.1279258
1885000000 0.0191936 -0.1257006 0.9808064 0.1257006 0.9808064 0.1257006 0.0191936 -0.1257006
1906000000 0.0186480 -0.1235113 0.9813520 0.1235113 0.9813520 0.1235113 0.0186480 -0.1235113
1927000000 0.0181218 -0.1213568 0.9818782 0.1213568 0.9818782 0.1213568 0.0181218 -0.1213568
1948000000 0.0176142 -0.1192363 0.9823858 0.1192363 0.9823858 0.1192363 0.0176142 -0.1192363
1969000000 0.0171246 -0.1171486 0.9828754 0.1171486 0.9828754 0.1171486 0.0171246 -0.1171486
1990000000 0.0166521 -0.1150929 0.9833479 0.1150929 0.9833479 0.1150929 0.0166521 -0.1150929
2011000000 0.0161962 -0.1130684 0.9838038 0.1130684 0.9838038 0.1130684 0.0161962 -0.1130684
2032000000 0.0157562 -0.1110741 0.9842438 0.1110741 0.9842438 0.1110741 0.0157562 -0.1110741
2053000000 0.0153315 -0.1091091 0.9846685 0.1091091 0.9846685 0.1091091 0.0153315 -0.1091091
2074000000 0.0149214 -0.1071728 0.9850786 0.1071728 0.9850786 0.1071728 0.0149214 -0.1071728
2095000000 0.0145256 -0.1052643 0.9854744 0.1052643 0.9854744 0.1052643 0.0145256 -0.1052643
2116000000 0.0141434 -0.1033829 0.9858566 0.1033829 0.9858566 0.1033829 0.0141434 -0.1033829
2137000000 0.0137744 -0.1015278 0.9862256 0.1015278 0.9862256 0.1015278 0.0137744 -0.1015278
2158000000 0.0134180 -0.0996984 0.9865820 0.0996984 0.9865820 0.0996984 0.0134180 -0.0996984
2179000000 0.0130738 -0.0978940 0.9869262 0.0978940 0.9869262 0.0978940 0.0130738 -0.0978940
2200000000 0.0127415 -0.0961139 0.9872585 0.0961139 0.9872585 0.0961139 0.0127415 -0.0961139
2221000000 0.0124205 -0.0943574 0.9875795 0.0943574 0.9875795 0.0943574 0.0124205 -0.0943574
2242000000 0.0121105 -0.0926241 0.9878895 0.0926241 0.9878895 0.0926241 0.0121105 -0.0926241
2263000000 0.0118110 -0.0909133 0.9881890 0.0909133 0.9881890 0.0909133 0.0118110 -0.0909133
2284000000 0.0115219 -0.0892244 0.9884781 0.0892244 0.9884781 0.0892244 0.0115219 -0.0892244
2305000000 0.0112426 -0.0875568 0.9887574 0.0875568 0.9887574 0.0875568 0.0112426 -0.0875568
2326000000 0.0109729 -0.0859101 0.9890271 0.0859101 0.9890271 0.0859101 0.0109729 -0.0859101
2347000000 0.0107124 -0.0842837 0.9892876 0.0842837 0.9892876 0.0842837 0.0107124 -0.0842837
2368000000 0.0104609 -0.0826772 0.9895391 0.0826772 0.9895391 0.0826772 0.0104609 -0.0826772
2389000000 0.0102180 -0.0810899 0.9897820 0.0810899 0.9897820 0.0810899 0.0102180 -0.0810899
2410000000 0.0099836 -0.0795216 0.9900164 0.0795216 0.9900164 0.0795216 0.0099836 -0.0795216
2431000000 0.0097572 -0.0779716 0.9902428 0.0779716 0.9902428 0.0779716 0.0097572 -0.0779716
2452000000 0.0095387 -0.0764396 0.9904613 0.0764396 0.9904613 0.0764396 0.0095387 -0.0764396
2473000000 0.0093278 -0.0749252 0.9906722 0.0749252 0.9906722 0.0749252 0.0093278 -0.0749252
2494000000 0.0091243 -0.0734278 0.9908757 0.0734278 0.9908757 0.0734278 0.0091243 -0.0734278
2515000000 0.0089279 -0.0719472 0.9910721 0.0719472 0.9910721 0.0719472 0.0089279 -0.0719472
2536000000 0.0087385 -0.0704829 0.9912615 0.0704829 0.9912615 0.0704829 0.0087385 -0.0704829
2557000000 0.0085558 -0.0690346 0.9914442 0.0690346 0.9914442 0.0690346 0.0085558 -0.0690346
2578000000 0.0083796 -0.0676018 0.9916204 0.0676018 0.9916204 0.0676018 0.0083796 -0.0676018
2599000000 0.0082098 -0.0661843 0.9917902 0.0661843 0.9917902 0.0661843 0.0082098 -0.0661843
2620000000 0.0080461 -0.0647816 0.9919539 0.0647816 0.9919539 0.0647816 0.0080461 -0.0647816
2641000000 0.0078884 -0.0633935 0.9921116 0.0633935 0.9921116 0.0633935 0.0078884 -0.0633935
2662000000 0.0077365 -0.0620196 0.9922635 0.0620196 0.9922635 0.0620196 0.0077365 -0.0620196
2683000000 0.0075903 -0.0606595 0.9924097 0.0606595 0.9924097 0.0606595 0.0075903 -0.0606595
2704000000 0.0074495 -0.0593131 0.9925505 0.0593131 0.9925505 0.0593131 0.0074495 -0.0593131
2725000000 0.0073141 -0.0579799 0.9926859 0.0579799 0.9926859 0.0579799 0.0073141 -0.0579799
2746000000 0.0071839 -0.0566597 0.9928161 0.0566597 0.9928161 0.0566597 0.0071839 -0.0566597
2767000000 0.0070587 -0.0553523 0.9929413 0.0553523 0.9929413 0.0553523 0.0070587 -0.0553523
2788000000 0.0069384 -0.0540572 0.9930616 0.0540572 0.9930616 0.0540572 0.0069384 -0.0540572
2809000000 0.0068230 -0.0527744 0.9931770 0.0527744 0.9931770 0.0527744 0.0068230 -0.0527744
2830000000 0.0067121 -0.0515034 0.9932879 0.0515034 0.9932879 0.0515034 0.0067121 -0.0515034
2851000000 0.0066058 -0.0502441 0.9933942 0.0502441 0.9933942 0.0502441 0.0066058 -0.0502441
2872000000 0.0065040 -0.0489961 0.9934960 0.0489961 0.9934960 0.0489961 0.0065040 -0.0489961
2893000000 0.0064064 -0.0477593 0.9935936 0.0477593 0.9935936 0.0477593 0.0064064 -0.0477593
2914000000 0.0063130 -0.0465335 0.9936870 0.0465335 0.9936870 0.0465335 0.0063130 -0.0465335
2935000000 0.0062238 -0.0453183 0.9937762 0.0453183 0.9937762 0.0453183 0.0062238 -0.0453183
2956000000 0.0061385 -0.0441136 0.9938615 0.0441136 0.9938615 0.0441136 0.0061385 -0.0441136
2977000000 0.0060572 -0.0429191 0.9939428 0.0429191 0.9939428 0.0429191 0.0060572 -0.0429191
2998000000 0.0059796 -0.0417347 0.9940204 0.0417347 0.9940204 0.0417347 0.0059796 -0.0417347
3019000000 0.0059058 -0.0405601 0.9940942 0.0405601 0.9940942 0.0405601 0.0059058 -0.0405601
3040000000 0.0058355 -0.0393951 0.9941645 0.0393951 0.9941645 0.0393951 0.0058355 -0.0393951
3061000000 0.0057689 -0.0382396 0.9942311 0.0382396 0.9942311 0.0382396 0.0057689 -0.0382396
3082000000 0.0057057 -0.0370933 0.9942943 0.0370933 0.9942943 0.0370933 0.0057057 -0.0370933
3103000000 0.0056458 -0.0359560 0.9943542 0.0359560 0.9943542 0.0359560 0.0056458 -0.0359560
3124000000 0.0055893 -0.0348277 0.9944107 0.0348277 0.9944107 0.0348277 0.0055893 -0.0348277
3145000000 0.0055361 -0.0337080 0.9944639 0.0337080 0.9944639 0.0337080 0.0055361 -0.0337080
3166000000 0.0054860 -0.0325968 0.9945140 0.0325968 0.9945140 0.0325968 0.0054860 -0.0325968
3187000000 0.0054390 -0.0314940 0.9945610 0.0314940 0.9945610 0.0314940 0.0054390 -0.0314940
3208000000 0.0053950 -0.0303994 0.9946050 0.0303994 0.9946050 0.0303994 0.0053950 -0.0303994
3229000000 0.0053540 -0.0293128 0.9946460 0.0293128 0.9946460 0.0293128 0.0053540 -0.0293128
3250000000 0.0053159 -0.0282340 0.9946841 0.0282340 0.9946841 0.0282340 0.0053159 -0.0282340
3271000000 0.0052806 -0.0271630 0.9947194 0.0271630 0.9947194 0.0271630 0.0052806 -0.0271630
3292000000 0.0052482 -0.0260995 0.9947518 0.0260995 0.9947518 0.0260995 0.0052482 -0.0260995
3313000000 0.0052185 -0.0250435 0.9947815 0.0250435 0.9947815 0.0250435 0.0052185 -0.0250435
3334000000 0.0051914 -0.0239947 0.9948086 0.0239947 0.9948086 0.0239947 0.0051914 -0.0239947
3355000000 0.0051670 -0.0229530 0.9948330 0.0229530 0.9948330 0.0229530 0.0051670 -0.0229530
3376000000 0.0051452 -0.0219183 0.9948548 0.0219183 0.9948548 0.0219183 0.0051452 -0.0219183
3397000000 0.0051260 -0.0208905 0.9948740 0.0208905 0.9948740 0.0208905 0.0051260 -0.0208905
3418000000 0.0051092 -0.0198693 0.9948908 0.0198693 0.9948908 0.0198693 0.0051092 -0.0198693
3439000000 0.0050948 -0.0188548 0.9949052 0.0188548 0.9949052 0.0188548 0.0050948 -0.0188548
3460000000 0.0050829 -0.0178468 0.9949171 0.0178468 0.9949171 0.0178468 0.0050829 -0.0178468
3481000000 0.0050733 -0.0168450 0.9949267 0.0168450 0.9949267 0.0168450 0.0050733 -0.0168450
3502000000 0.0050660 -0.0158495 0.9949340 0.0158495 0.9949340 0.0158495 0.0050660 -0.0158495
3523000000 0.0050611 -0.0148601 0.9949389 0.0148601 0.9949389 0.0148601 0.0050611 -0.0148601
3544000000 0.0050583 -0.0138767 0.9949417 0.0138767 0.9949417 0.0138767 0.0050583 -0.0138767
3565000000 0.0050578 -0.0128992 0.9949422 0.0128992 0.9949422 0.0128992 0.0050578 -0.0128992
3586000000 0.0050595 -0.0119274 0.9949405 0.0119274 0.9949405 0.0119274 0.0050595 -0.0119274
3607000000 0.0050632 -0.0109612 0.9949368 0.0109612 0.9949368 0.0109612 0.0050632 -0.0109612
3628000000 0.0050691 -0.0100006 0.9949309 0.0100006 0.9949309 0.0100006 0.0050691 -0.0100006
3649000000 0.0050771 -0.0090455 0.9949229 0.0090455 0.9949229 0.0090455 0.0050771 -0.0090455
3670000000 0.0050871 -0.0080956 0.9949129 0.0080956 0.9949129 0.0080956 0.0050871 -0.0080956
3691000000 0.0050992 -0.0071510 0.9949008 0.0071510 0.9949008 0.0071510 0.0050992 -0.0071510
3712000000 0.0051132 -0.0062116 0.9948868 0.0062116 0.9948868 0.0062116 0.0051132 -0.0062116
3733000000 0.0051292 -0.0052771 0.9948708 0.0052771 0.9948708 0.0052771 0.0051292 -0.0052771
3754000000 0.0051472 -0.0043476 0.9948528 0.0043476 0.9948528 0.0043476 0.0051472 -0.0043476
3775000000 0.0051670 -0.0034230 0.9948330 0.0034230 0.9948330 0.0034230 0.0051670 -0.0034230
3796000000 0.0051887 -0.0025031 0.9948113 0.0025031 0.9948113 0.0025031 0.0051887 -0.0025031
3817000000 0.0052124 -0.0015879 0.9947876 0.0015879 0.9947876 0.0015879 0.0052124 -0.0015879
3838000000 0.0052378 -0.0006772 0.9947622 0.0006772 0.9947622 0.0006772 0.0052378 -0.0006772
3859000000 0.0052651 0.0002290 0.9947349 -0.0002290 0.9947349 -0.0002290 0.0052651 0.0002290
3880000000 0.0052942 0.0011307 0.9947058 -0.0011307 0.9947058 -0.0011307 0.0052942 0.0011307
3901000000 0.0053251 0.0020282 0.9946749 -0.0020282 0.9946749 -0.0020282 0.0053251 0.0020282
3922000000 0.0053577 0.0029214 0.9946423 -0.0029214 0.9946423 -0.0029214 0.0053577 0.0029214
3943000000 0.0053921 0.0038105 0.9946079 -0.0038105 0.9946079 -0.0038105 0.0053921 0.0038105
3964000000 0.0054283 0.0046955 0.9945717 -0.0046955 0.9945717 -0.0046955 0.0054283 0.0046955
3985000000 0.0054661 0.0055765 0.9945339 -0.0055765 0.9945339 -0.0055765 0.0054661 0.0055765
4006000000 0.0055057 0.0064536 0.9944943 -0.0064536 0.9944943 -0.0064536 0.0055057 0.0064536
4027000000 0.0055469 0.0073269 0.9944531 -0.0073269 0.9944531 -0.0073269 0.0055469 0.0073269
4048000000 0.0055899 0.0081964 0.9944101 -0.0081964 0.9944101 -0.0081964 0.0055899 0.0081964
4069000000 0.0056345 0.0090622 0.9943655 -0.0090622 0.9943655 -0.0090622 0.0056345 0.0090622
4090000000 0.0056807 0.0099244 0.9943193 -0.0099244 0.9943193 -0.0099244 0.0056807 0.0099244
4111000000 0.0057286 0.0107831 0.9942714 -0.0107831 0.9942714 -0.0107831 0.0057286 0.0107831
4132000000 0.0057782 0.0116383 0.9942218 -0.0116383 0.9942218 -0.0116383 0.0057782 0.0116383
4153000000 0.0058294 0.0124901 0.9941706 -0.0124901 0.9941706 -0.0124901 0.0058294 0.0124901
4174000000 0.0058821 0.0133385 0.9941179 -0.0133385 0.9941179 -0.0133385 0.0058821 0.0133385
4195000000 0.0059365 0.0141837 0.9940635 -0.0141837 0.9940635 -0.0141837 0.0059365 0.0141837
4216000000 0.0059925 0.0150258 0.9940075 -0.0150258 0.9940075 -0.0150258 0.0059925 0.0150258
4237000000 0.0060501 0.0158646 0.9939499 -0.0158646 0.9939499 -0.0158646 0.0060501 0.0158646
4258000000 0.0061093 0.0167004 0.9938907 -0.0167004 0.9938907 -0.0167004 0.0061093 0.0167004
4279000000 0.0061701 0.0175333 0.9938299 -0.0175333 0.9938299 -0.0175333 0.0061701 0.0175333
4300000000 0.0062325 0.0183631 0.9937675 -0.0183631 0.9937675 -0.0183631 0.0062325 0.0183631
4321000000 0.0062964 0.0191902 0.9937036 -0.0191902 0.9937036 -0.0191902 0.0062964 0.0191902
4342000000 0.0063619 0.0200144 0.9936381 -0.0200144 0.9936381 -0.0200144 0.0063619 0.0200144
4363000000 0.0064290 0.0208358 0.9935710 -0.0208358 0.9935710 -0.0208358 0.0064290 0.0208358
4384000000 0.0064977 0.0216546 0.9935023 -0.0216546 0.9935023 -0.0216546 0.0064977 0.0216546
4405000000 0.0065679 0.0224707 0.9934321 -0.0224707 0.9934321 -0.0224707 0.0065679 0.0224707
4426000000 0.0066397 0.0232843 0.9933603 -0.0232843 0.9933603 -0.0232843 0.0066397 0.0232843
4447000000 0.0067131 0.0240954 0.9932869 -0.0240954 0.9932869 -0.0240954 0.0067131 0.0240954
4468000000 0.0067880 0.0249040 0.9932120 -0.0249040 0.9932120 -0.0249040 0.0067880 0.0249040
4489000000 0.0068646 0.0257103 0.9931354 -0.0257103 0.9931354 -0.0257103 0.0068646 0.0257103
4510000000 0.0069427 0.0265142 0.9930573 -0.0265142 0.9930573 -0.0265142 0.0069427 0.0265142
