!Murata Part Number: GRM1553C1H3R2BA01
!These Parameters are Measured in Series Mode Connection
!Data Generated on Mar 30, 2021
!       o--ll--o
!Port1            Port2
!       o------o
!Operation Temp=25[degC], DC Bias Voltage=0[V]
!Freq. Start=100[MHz] Stop=9[GHz] 401[Steps]
# Hz S RI R 50
!Freq.(Hz) S11(Real) S11(Imag) S21(Real) S21(Imag) S12(Real) S12(Imag) S22(Real) S22(Imag)
100000000 0.9610190 -0.1932880 0.0389810 0.1932880 0.0389810 0.1932880 0.9610190 -0.1932880
121000000 0.9439233 -0.2297531 0.0560767 0.2297531 0.0560767 0.2297531 0.9439233 -0.2297531
142000000 0.9243397 -0.2640817 0.0756603 0.2640817 0.0756603 0.2640817 0.9243397 -0.2640817
163000000 0.9026031 -0.2960700 0.0973969 0.2960700 0.0973969 0.2960700 0.9026031 -0.2960700
184000000 0.8790600 -0.3255745 0.1209400 0.3255745 0.1209400 0.3255745 0.8790600 -0.3255745
205000000 0.8540571 -0.3525101 0.1459429 0.3525101 0.1459429 0.3525101 0.8540571 -0.3525101
226000000 0.8279316 -0.3768451 0.1720684 0.3768451 0.1720684 0.3768451 0.8279316 -0.3768451
247000000 0.8010021 -0.3985955 0.1989979 0.3985955 0.1989979 0.3985955 0.8010021 -0.3985955
268000000 0.7735633 -0.4178175 0.2264367 0.4178175 0.2264367 0.4178175 0.7735633 -0.4178175
289000000 0.7458813 -0.4346005 0.2541187 0.4346005 0.2541187 0.4346005 0.7458813 -0.4346005
310000000 0.7181915 -0.4490593 0.2818085 0.4490593 0.2818085 0.4490593 0.7181915 -0.4490593
331000000 0.6906977 -0.4613275 0.3093023 0.4613275 0.3093023 0.4613275 0.6906977 -0.4613275
352000000 0.6635729 -0.4715508 0.3364271 0.4715508 0.3364271 0.4715508 0.6635729 -0.4715508
373000000 0.6369601 -0.4798820 0.3630399 0.4798820 0.3630399 0.4798820 0.6369601 -0.4798820
394000000 0.6109753 -0.4864763 0.3890247 0.4864763 0.3890247 0.4864763 0.6109753 -0.4864763
415000000 0.5857092 -0.4914877 0.4142908 0.4914877 0.4142908 0.4914877 0.5857092 -0.4914877
436000000 0.5612303 -0.4950660 0.4387697 0.4950660 0.4387697 0.4950660 0.5612303 -0.4950660
457000000 0.5375879 -0.4973548 0.4624121 0.4973548 0.4624121 0.4973548 0.5375879 -0.4973548
478000000 0.5148145 -0.4984900 0.4851855 0.4984900 0.4851855 0.4984900 0.5148145 -0.4984900
499000000 0.4929282 -0.4985989 0.5070718 0.4985989 0.5070718 0.4985989 0.4929282 -0.4985989
520000000 0.4719356 -0.4977995 0.5280644 0.4977995 0.5280644 0.4977995 0.4719356 -0.4977995
541000000 0.4518336 -0.4962007 0.5481664 0.4962007 0.5481664 0.4962007 0.4518336 -0.4962007
562000000 0.4326110 -0.4939018 0.5673890 0.4939018 0.5673890 0.4939018 0.4326110 -0.4939018
583000000 0.4142507 -0.4909933 0.5857493 0.4909933 0.5857493 0.4909933 0.4142507 -0.4909933
604000000 0.3967308 -0.4875570 0.6032692 0.4875570 0.6032692 0.4875570 0.3967308 -0.4875570
625000000 0.3800258 -0.4836666 0.6199742 0.4836666 0.6199742 0.4836666 0.3800258 -0.4836666
646000000 0.3641076 -0.4793881 0.6358924 0.4793881 0.6358924 0.4793881 0.3641076 -0.4793881
667000000 0.3489463 -0.4747808 0.6510537 0.4747808 0.6510537 0.4747808 0.3489463 -0.4747808
688000000 0.3345110 -0.4698971 0.6654890 0.4698971 0.6654890 0.4698971 0.3345110 -0.4698971
709000000 0.3207704 -0.4647839 0.6792296 0.4647839 0.6792296 0.4647839 0.3207704 -0.4647839
730000000 0.3076931 -0.4594826 0.6923069 0.4594826 0.6923069 0.4594826 0.3076931 -0.4594826
751000000 0.2952478 -0.4540298 0.7047522 0.4540298 0.7047522 0.4540298 0.2952478 -0.4540298
772000000 0.2834041 -0.4484577 0.7165959 0.4484577 0.7165959 0.4484577 0.2834041 -0.4484577
793000000 0.2721320 -0.4427946 0.7278680 0.4427946 0.7278680 0.4427946 0.2721320 -0.4427946
814000000 0.2614027 -0.4370655 0.7385973 0.4370655 0.7385973 0.4370655 0.2614027 -0.4370655
835000000 0.2511883 -0.4312919 0.7488117 0.4312919 0.7488117 0.4312919 0.2511883 -0.4312919
856000000 0.2414621 -0.4254930 0.7585379 0.4254930 0.7585379 0.4254930 0.2414621 -0.4254930
877000000 0.2321985 -0.4196851 0.7678015 0.4196851 0.7678015 0.4196851 0.2321985 -0.4196851
898000000 0.2233730 -0.4138825 0.7766270 0.4138825 0.7766270 0.4138825 0.2233730 -0.4138825
919000000 0.2149624 -0.4080975 0.7850376 0.4080975 0.7850376 0.4080975 0.2149624 -0.4080975
940000000 0.2069446 -0.4023409 0.7930554 0.4023409 0.7930554 0.4023409 0.2069446 -0.4023409
961000000 0.1992986 -0.3966216 0.8007014 0.3966216 0.8007014 0.3966216 0.1992986 -0.3966216
982000000 0.1920045 -0.3909475 0.8079955 0.3909475 0.8079955 0.3909475 0.1920045 -0.3909475
1003000000 0.1850435 -0.3853250 0.8149565 0.3853250 0.8149565 0.3853250 0.1850435 -0.3853250
1024000000 0.1783980 -0.3797597 0.8216020 0.3797597 0.8216020 0.3797597 0.1783980 -0.3797597
1045000000 0.1720511 -0.3742563 0.8279489 0.3742563 0.8279489 0.3742563 0.1720511 -0.3742563
1066000000 0.1659870 -0.3688184 0.8340130 0.3688184 0.8340130 0.3688184 0.1659870 -0.3688184
1087000000 0.1601907 -0.3634493 0.8398093 0.3634493 0.8398093 0.3634493 0.1601907 -0.3634493
1108000000 0.1546483 -0.3581513 0.8453517 0.3581513 0.8453517 0.3581513 0.1546483 -0.3581513
1129000000 0.1493463 -0.3529264 0.8506537 0.3529264 0.8506537 0.3529264 0.1493463 -0.3529264
1150000000 0.1442723 -0.3477761 0.8557277 0.3477761 0.8557277 0.3477761 0.1442723 -0.3477761
1171000000 0.1394146 -0.3427013 0.8605854 0.3427013 0.8605854 0.3427013 0.1394146 -0.3427013
1192000000 0.1347619 -0.3377029 0.8652381 0.3377029 0.8652381 0.3377029 0.1347619 -0.3377029
1213000000 0.1303039 -0.3327811 0.8696961 0.3327811 0.8696961 0.3327811 0.1303039 -0.3327811
1234000000 0.1260306 -0.3279360 0.8739694 0.3279360 0.8739694 0.3279360 0.1260306 -0.3279360
1255000000 0.1219328 -0.3231676 0.8780672 0.3231676 0.8780672 0.3231676 0.1219328 -0.3231676
1276000000 0.1180016 -0.3184754 0.8819984 0.3184754 0.8819984 0.3184754 0.1180016 -0.3184754
1297000000 0.1142289 -0.3138590 0.8857711 0.3138590 0.8857711 0.3138590 0.1142289 -0.3138590
1318000000 0.1106067 -0.3093177 0.8893933 0.3093177 0.8893933 0.3093177 0.1106067 -0.3093177
1339000000 0.1071279 -0.3048508 0.8928721 0.3048508 0.8928721 0.3048508 0.1071279 -0.3048508
1360000000 0.1037853 -0.3004573 0.8962147 0.3004573 0.8962147 0.3004573 0.1037853 -0.3004573
1381000000 0.1005726 -0.2961363 0.8994274 0.2961363 0.8994274 0.2961363 0.1005726 -0.2961363
1402000000 0.0974834 -0.2918868 0.9025166 0.2918868 0.9025166 0.2918868 0.0974834 -0.2918868
1423000000 0.0945120 -0.2877075 0.9054880 0.2877075 0.9054880 0.2877075 0.0945120 -0.2877075
1444000000 0.0916528 -0.2835975 0.9083472 0.2835975 0.9083472 0.2835975 0.0916528 -0.2835975
1465000000 0.0889006 -0.2795555 0.9110994 0.2795555 0.9110994 0.2795555 0.0889006 -0.2795555
1486000000 0.0862505 -0.2755802 0.9137495 0.2755802 0.9137495 0.2755802 0.0862505 -0.2755802
1507000000 0.0836979 -0.2716704 0.9163021 0.2716704 0.9163021 0.2716704 0.0836979 -0.2716704
1528000000 0.0812382 -0.2678250 0.9187618 0.2678250 0.9187618 0.2678250 0.0812382 -0.2678250
1549000000 0.0788675 -0.2640425 0.9211325 0.2640425 0.9211325 0.2640425 0.0788675 -0.2640425
1570000000 0.0765816 -0.2603218 0.9234184 0.2603218 0.9234184 0.2603218 0.0765816 -0.2603218
1591000000 0.0743769 -0.2566616 0.9256231 0.2566616 0.9256231 0.2566616 0.0743769 -0.2566616
1612000000 0.0722497 -0.2530606 0.9277503 0.2530606 0.9277503 0.2530606 0.0722497 -0.2530606
1633000000 0.0701969 -0.2495175 0.9298031 0.2495175 0.9298031 0.2495175 0.0701969 -0.2495175
1654000000 0.0682151 -0.2460312 0.9317849 0.2460312 0.9317849 0.2460312 0.0682151 -0.2460312
1675000000 0.0663013 -0.2426004 0.9336987 0.2426004 0.9336987 0.2426004 0.0663013 -0.2426004
1696000000 0.0644527 -0.2392238 0.9355473 0.2392238 0.9355473 0.2392238 0.0644527 -0.2392238
1717000000 0.0626665 -0.2359003 0.9373335 0.2359003 0.9373335 0.2359003 0.0626665 -0.2359003
1738000000 0.0609402 -0.2326287 0.9390598 0.2326287 0.9390598 0.2326287 0.0609402 -0.2326287
1759000000 0.0592712 -0.2294078 0.9407288 0.2294078 0.9407288 0.2294078 0.0592712 -0.2294078
1780000000 0.0576574 -0.2262366 0.9423426 0.2262366 0.9423426 0.2262366 0.0576574 -0.2262366
1801000000 0.0560963 -0.2231138 0.9439037 0.2231138 0.9439037 0.2231138 0.0560963 -0.2231138
1822000000 0.0545860 -0.2200384 0.9454140 0.2200384 0.9454140 0.2200384 0.0545860 -0.2200384
1843000000 0.0531244 -0.2170093 0.9468756 0.2170093 0.9468756 0.2170093 0.0531244 -0.2170093
1864000000 0.0517096 -0.2140254 0.9482904 0.2140254 0.9482904 0.2140254 0.0517096 -0.2140254
1885000000 0.0503398 -0.2110857 0.9496602 0.2110857 0.9496602 0.2110857 0.0503398 -0.2110857
1906000000 0.0490132 -0.2081893 0.9509868 0.2081893 0.9509868 0.2081893 0.0490132 -0.2081893
1927000000 0.0477282 -0.2053351 0.9522718 0.2053351 0.9522718 0.2053351 0.0477282 -0.2053351
1948000000 0.0464831 -0.2025221 0.9535169 0.2025221 0.9535169 0.2025221 0.0464831 -0.2025221
1969000000 0.0452766 -0.1997495 0.9547234 0.1997495 0.9547234 0.1997495 0.0452766 -0.1997495
1990000000 0.0441071 -0.1970162 0.9558929 0.1970162 0.9558929 0.1970162 0.0441071 -0.1970162
2011000000 0.0429734 -0.1943215 0.9570266 0.1943215 0.9570266 0.1943215 0.0429734 -0.1943215
2032000000 0.0418739 -0.1916644 0.9581261 0.1916644 0.9581261 0.1916644 0.0418739 -0.1916644
2053000000 0.0408077 -0.1890440 0.9591923 0.1890440 0.9591923 0.1890440 0.0408077 -0.1890440
2074000000 0.0397733 -0.1864596 0.9602267 0.1864596 0.9602267 0.1864596 0.0397733 -0.1864596
2095000000 0.0387698 -0.1839103 0.9612302 0.1839103 0.9612302 0.1839103 0.0387698 -0.1839103
2116000000 0.0377959 -0.1813953 0.9622041 0.1813953 0.9622041 0.1813953 0.0377959 -0.1813953
2137000000 0.0368507 -0.1789139 0.9631493 0.1789139 0.9631493 0.1789139 0.0368507 -0.1789139
2158000000 0.0359331 -0.1764653 0.9640669 0.1764653 0.9640669 0.1764653 0.0359331 -0.1764653
2179000000 0.0350423 -0.1740488 0.9649577 0.1740488 0.9649577 0.1740488 0.0350423 -0.1740488
2200000000 0.0341772 -0.1716636 0.9658228 0.1716636 0.9658228 0.1716636 0.0341772 -0.1716636
2221000000 0.0333371 -0.1693090 0.9666629 0.1693090 0.9666629 0.1693090 0.0333371 -0.1693090
2242000000 0.0325210 -0.1669844 0.9674790 0.1669844 0.9674790 0.1669844 0.0325210 -0.1669844
2263000000 0.0317281 -0.1646892 0.9682719 0.1646892 0.9682719 0.1646892 0.0317281 -0.1646892
2284000000 0.0309578 -0.1624226 0.9690422 0.1624226 0.9690422 0.1624226 0.0309578 -0.1624226
2305000000 0.0302092 -0.1601840 0.9697908 0.1601840 0.9697908 0.1601840 0.0302092 -0.1601840
2326000000 0.0294817 -0.1579728 0.9705183 0.1579728 0.9705183 0.1579728 0.0294817 -0.1579728
2347000000 0.0287745 -0.1557885 0.9712255 0.1557885 0.9712255 0.1557885 0.0287745 -0.1557885
2368000000 0.0280870 -0.1536304 0.9719130 0.1536304 0.9719130 0.1536304 0.0280870 -0.1536304
2389000000 0.0274186 -0.1514980 0.9725814 0.1514980 0.9725814 0.1514980 0.0274186 -0.1514980
2410000000 0.0267687 -0.1493906 0.9732313 0.1493906 0.9732313 0.1493906 0.0267687 -0.1493906
2431000000 0.0261367 -0.1473079 0.9738633 0.1473079 0.9738633 0.1473079 0.0261367 -0.1473079
2452000000 0.0255220 -0.1452492 0.9744780 0.1452492 0.9744780 0.1452492 0.0255220 -0.1452492
2473000000 0.0249242 -0.1432140 0.9750758 0.1432140 0.9750758 0.1432140 0.0249242 -0.1432140
2494000000 0.0243426 -0.1412019 0.9756574 0.1412019 0.9756574 0.1412019 0.0243426 -0.1412019
2515000000 0.0237768 -0.1392123 0.9762232 0.1392123 0.9762232 0.1392123 0.0237768 -0.1392123
2536000000 0.0232264 -0.1372448 0.9767736 0.1372448 0.9767736 0.1372448 0.0232264 -0.1372448
2557000000 0.0226909 -0.1352988 0.9773091 0.1352988 0.9773091 0.1352988 0.0226909 -0.1352988
2578000000 0.0221697 -0.1333741 0.9778303 0.1333741 0.9778303 0.1333741 0.0221697 -0.1333741
2599000000 0.0216626 -0.1314700 0.9783374 0.1314700 0.9783374 0.1314700 0.0216626 -0.1314700
2620000000 0.0211691 -0.1295862 0.9788309 0.1295862 0.9788309 0.1295862 0.0211691 -0.1295862
2641000000 0.0206888 -0.1277223 0.9793112 0.1277223 0.9793112 0.1277223 0.0206888 -0.1277223
2662000000 0.0202213 -0.1258779 0.9797787 0.1258779 0.9797787 0.1258779 0.0202213 -0.1258779
2683000000 0.0197663 -0.1240525 0.9802337 0.1240525 0.9802337 0.1240525 0.0197663 -0.1240525
2704000000 0.0193234 -0.1222457 0.9806766 0.1222457 0.9806766 0.1222457 0.0193234 -0.1222457
2725000000 0.0188923 -0.1204573 0.9811077 0.1204573 0.9811077 0.1204573 0.0188923 -0.1204573
2746000000 0.0184726 -0.1186868 0.9815274 0.1186868 0.9815274 0.1186868 0.0184726 -0.1186868
2767000000 0.0180640 -0.1169338 0.9819360 0.1169338 0.9819360 0.1169338 0.0180640 -0.1169338
2788000000 0.0176663 -0.1151980 0.9823337 0.1151980 0.9823337 0.1151980 0.0176663 -0.1151980
2809000000 0.0172792 -0.1134791 0.9827208 0.1134791 0.9827208 0.1134791 0.0172792 -0.1134791
2830000000 0.0169023 -0.1117767 0.9830977 0.1117767 0.9830977 0.1117767 0.0169023 -0.1117767
2851000000 0.0165353 -0.1100904 0.9834647 0.1100904 0.9834647 0.1100904 0.0165353 -0.1100904
2872000000 0.0161781 -0.1084201 0.9838219 0.1084201 0.9838219 0.1084201 0.0161781 -0.1084201
2893000000 0.0158304 -0.1067653 0.9841696 0.1067653 0.9841696 0.1067653 0.0158304 -0.1067653
2914000000 0.0154919 -0.1051257 0.9845081 0.1051257 0.9845081 0.1051257 0.0154919 -0.1051257
2935000000 0.0151623 -0.1035011 0.9848377 0.1035011 0.9848377 0.1035011 0.0151623 -0.1035011
2956000000 0.0148415 -0.1018912 0.9851585 0.1018912 0.9851585 0.1018912 0.0148415 -0.1018912
2977000000 0.0145293 -0.1002956 0.9854707 0.1002956 0.9854707 0.1002956 0.0145293 -0.1002956
2998000000 0.0142253 -0.0987142 0.9857747 0.0987142 0.9857747 0.0987142 0.0142253 -0.0987142
3019000000 0.0139295 -0.0971465 0.9860705 0.0971465 0.9860705 0.0971465 0.0139295 -0.0971465
3040000000 0.0136416 -0.0955924 0.9863584 0.0955924 0.9863584 0.0955924 0.0136416 -0.0955924
3061000000 0.0133614 -0.0940516 0.9866386 0.0940516 0.9866386 0.0940516 0.0133614 -0.0940516
3082000000 0.0130887 -0.0925239 0.9869113 0.0925239 0.9869113 0.0925239 0.0130887 -0.0925239
3103000000 0.0128234 -0.0910089 0.9871766 0.0910089 0.9871766 0.0910089 0.0128234 -0.0910089
3124000000 0.0125653 -0.0895065 0.9874347 0.0895065 0.9874347 0.0895065 0.0125653 -0.0895065
3145000000 0.0123142 -0.0880164 0.9876858 0.0880164 0.9876858 0.0880164 0.0123142 -0.0880164
3166000000 0.0120699 -0.0865384 0.9879301 0.0865384 0.9879301 0.0865384 0.0120699 -0.0865384
3187000000 0.0118322 -0.0850722 0.9881678 0.0850722 0.9881678 0.0850722 0.0118322 -0.0850722
3208000000 0.0116012 -0.0836176 0.9883988 0.0836176 0.9883988 0.0836176 0.0116012 -0.0836176
3229000000 0.0113765 -0.0821745 0.9886235 0.0821745 0.9886235 0.0821745 0.0113765 -0.0821745
3250000000 0.0111580 -0.0807426 0.9888420 0.0807426 0.9888420 0.0807426 0.0111580 -0.0807426
3271000000 0.0109456 -0.0793216 0.9890544 0.0793216 0.9890544 0.0793216 0.0109456 -0.0793216
3292000000 0.0107392 -0.0779114 0.9892608 0.0779114 0.9892608 0.0779114 0.0107392 -0.0779114
3313000000 0.0105386 -0.0765119 0.9894614 0.0765119 0.9894614 0.0765119 0.0105386 -0.0765119
3334000000 0.0103438 -0.0751227 0.9896562 0.0751227 0.9896562 0.0751227 0.0103438 -0.0751227
3355000000 0.0101545 -0.0737437 0.9898455 0.0737437 0.9898455 0.0737437 0.0101545 -0.0737437
3376000000 0.0099706 -0.0723747 0.9900294 0.0723747 0.9900294 0.0723747 0.0099706 -0.0723747
3397000000 0.0097921 -0.0710155 0.9902079 0.0710155 0.9902079 0.0710155 0.0097921 -0.0710155
3418000000 0.0096189 -0.0696660 0.9903811 0.0696660 0.9903811 0.0696660 0.0096189 -0.0696660
3439000000 0.0094507 -0.0683260 0.9905493 0.0683260 0.9905493 0.0683260 0.0094507 -0.0683260
3460000000 0.0092876 -0.0669953 0.9907124 0.0669953 0.9907124 0.0669953 0.0092876 -0.0669953
3481000000 0.0091294 -0.0656736 0.9908706 0.0656736 0.9908706 0.0656736 0.0091294 -0.0656736
3502000000 0.0089761 -0.0643610 0.9910239 0.0643610 0.9910239 0.0643610 0.0089761 -0.0643610
3523000000 0.0088274 -0.0630572 0.9911726 0.0630572 0.9911726 0.0630572 0.0088274 -0.0630572
3544000000 0.0086834 -0.0617619 0.9913166 0.0617619 0.9913166 0.0617619 0.0086834 -0.0617619
3565000000 0.0085439 -0.0604752 0.9914561 0.0604752 0.9914561 0.0604752 0.0085439 -0.0604752
3586000000 0.0084089 -0.0591968 0.9915911 0.0591968 0.9915911 0.0591968 0.0084089 -0.0591968
3607000000 0.0082783 -0.0579266 0.9917217 0.0579266 0.9917217 0.0579266 0.0082783 -0.0579266
3628000000 0.0081519 -0.0566644 0.9918481 0.0566644 0.9918481 0.0566644 0.0081519 -0.0566644
3649000000 0.0080297 -0.0554101 0.9919703 0.0554101 0.9919703 0.0554101 0.0080297 -0.0554101
3670000000 0.0079117 -0.0541636 0.9920883 0.0541636 0.9920883 0.0541636 0.0079117 -0.0541636
3691000000 0.0077977 -0.0529247 0.9922023 0.0529247 0.9922023 0.0529247 0.0077977 -0.0529247
3712000000 0.0076877 -0.0516932 0.9923123 0.0516932 0.9923123 0.0516932 0.0076877 -0.0516932
3733000000 0.0075816 -0.0504691 0.9924184 0.0504691 0.9924184 0.0504691 0.0075816 -0.0504691
3754000000 0.0074794 -0.0492522 0.9925206 0.0492522 0.9925206 0.0492522 0.0074794 -0.0492522
3775000000 0.0073809 -0.0480423 0.9926191 0.0480423 0.9926191 0.0480423 0.0073809 -0.0480423
3796000000 0.0072862 -0.0468394 0.9927138 0.0468394 0.9927138 0.0468394 0.0072862 -0.0468394
3817000000 0.0071951 -0.0456434 0.9928049 0.0456434 0.9928049 0.0456434 0.0071951 -0.0456434
3838000000 0.0071075 -0.0444540 0.9928925 0.0444540 0.9928925 0.0444540 0.0071075 -0.0444540
3859000000 0.0070235 -0.0432713 0.9929765 0.0432713 0.9929765 0.0432713 0.0070235 -0.0432713
3880000000 0.0069430 -0.0420949 0.9930570 0.0420949 0.9930570 0.0420949 0.0069430 -0.0420949
3901000000 0.0068659 -0.0409250 0.9931341 0.0409250 0.9931341 0.0409250 0.0068659 -0.0409250
3922000000 0.0067922 -0.0397613 0.9932078 0.0397613 0.9932078 0.0397613 0.0067922 -0.0397613
3943000000 0.0067217 -0.0386037 0.9932783 0.0386037 0.9932783 0.0386037 0.0067217 -0.0386037
3964000000 0.0066546 -0.0374521 0.9933454 0.0374521 0.9933454 0.0374521 0.0066546 -0.0374521
3985000000 0.0065906 -0.0363064 0.9934094 0.0363064 0.9934094 0.0363064 0.0065906 -0.0363064
4006000000 0.0065298 -0.0351666 0.9934702 0.0351666 0.9934702 0.0351666 0.0065298 -0.0351666
4027000000 0.0064721 -0.0340324 0.9935279 0.0340324 0.9935279 0.0340324 0.0064721 -0.0340324
4048000000 0.0064175 -0.0329038 0.9935825 0.0329038 0.9935825 0.0329038 0.0064175 -0.0329038
4069000000 0.0063659 -0.0317807 0.9936341 0.0317807 0.9936341 0.0317807 0.0063659 -0.0317807
4090000000 0.0063173 -0.0306630 0.9936827 0.0306630 0.9936827 0.0306630 0.0063173 -0.0306630
4111000000 0.0062717 -0.0295506 0.9937283 0.0295506 0.9937283 0.0295506 0.0062717 -0.0295506
4132000000 0.0062289 -0.0284434 0.9937711 0.0284434 0.9937711 0.0284434 0.0062289 -0.0284434
4153000000 0.0061890 -0.0273413 0.9938110 0.0273413 0.9938110 0.0273413 0.0061890 -0.0273413
4174000000 0.0061520 -0.0262442 0.9938480 0.0262442 0.9938480 0.0262442 0.0061520 -0.0262442
4195000000 0.0061177 -0.0251521 0.9938823 0.0251521 0.9938823 0.0251521 0.0061177 -0.0251521
4216000000 0.0060862 -0.0240647 0.9939138 0.0240647 0.9939138 0.0240647 0.0060862 -0.0240647
4237000000 0.0060575 -0.0229821 0.9939425 0.0229821 0.9939425 0.0229821 0.0060575 -0.0229821
4258000000 0.0060314 -0.0219042 0.9939686 0.0219042 0.9939686 0.0219042 0.0060314 -0.0219042
4279000000 0.0060080 -0.0208308 0.9939920 0.0208308 0.9939920 0.0208308 0.0060080 -0.0208308
4300000000 0.0059872 -0.0197619 0.9940128 0.0197619 0.9940128 0.0197619 0.0059872 -0.0197619
4321000000 0.0059690 -0.0186974 0.9940310 0.0186974 0.9940310 0.0186974 0.0059690 -0.0186974
4342000000 0.0059534 -0.0176372 0.9940466 0.0176372 0.9940466 0.0176372 0.0059534 -0.0176372
4363000000 0.0059403 -0.0165813 0.9940597 0.0165813 0.9940597 0.0165813 0.0059403 -0.0165813
4384000000 0.0059298 -0.0155295 0.9940702 0.0155295 0.9940702 0.0155295 0.0059298 -0.0155295
4405000000 0.0059218 -0.0144817 0.9940782 0.0144817 0.9940782 0.0144817 0.0059218 -0.0144817
4426000000 0.0059162 -0.0134380 0.9940838 0.0134380 0.9940838 0.0134380 0.0059162 -0.0134380
4447000000 0.0059131 -0.0123982 0.9940869 0.0123982 0.9940869 0.0123982 0.0059131 -0.0123982
4468000000 0.0059123 -0.0113622 0.9940877 0.0113622 0.9940877 0.0113622 0.0059123 -0.0113622
4489000000 0.0059140 -0.0103300 0.9940860 0.0103300 0.9940860 0.0103300 0.0059140 -0.0103300
4510000000 0.0059181 -0.0093015 0.9940819 0.0093015 0.9940819 0.0093015 0.0059181 -0.0093015
