!Murata Part Number: GRM1553C1H3R8WA01
!These Parameters are Measured in Series Mode Connection
!Data Generated on Mar 30, 2021
!       o--ll--o
!Port1            Port2
!       o------o
!Operation Temp=25[degC], DC Bias Voltage=0[V]
!Freq. Start=100[MHz] Stop=9[GHz] 401[Steps]
# Hz S RI R 50
!Freq.(Hz) S11(Real) S11(Imag) S21(Real) S21(Imag) S12(Real) S12(Imag) S22(Real) S22(Imag)
100000000 0.9459084 -0.2259237 0.0540916 0.2259237 0.0540916 0.2259237 0.9459084 -0.2259237
121000000 0.9227168 -0.2667078 0.0772832 0.2667078 0.0772832 0.2667078 0.9227168 -0.2667078
142000000 0.8965364 -0.3041730 0.1034636 0.3041730 0.1034636 0.3041730 0.8965364 -0.3041730
163000000 0.8679493 -0.3380974 0.1320507 0.3380974 0.1320507 0.3380974 0.8679493 -0.3380974
184000000 0.8375319 -0.3683730 0.1624681 0.3683730 0.1624681 0.3683730 0.8375319 -0.3683730
205000000 0.8058332 -0.3949930 0.1941668 0.3949930 0.1941668 0.3949930 0.8058332 -0.3949930
226000000 0.7733572 -0.4180362 0.2266428 0.4180362 0.2266428 0.4180362 0.7733572 -0.4180362
247000000 0.7405528 -0.4376494 0.2594472 0.4376494 0.2594472 0.4376494 0.7405528 -0.4376494
268000000 0.7078072 -0.4540297 0.2921928 0.4540297 0.2921928 0.4540297 0.7078072 -0.4540297
289000000 0.6754452 -0.4674086 0.3245548 0.4674086 0.3245548 0.4674086 0.6754452 -0.4674086
310000000 0.6437305 -0.4780373 0.3562695 0.4780373 0.3562695 0.4780373 0.6437305 -0.4780373
331000000 0.6128705 -0.4861754 0.3871295 0.4861754 0.3871295 0.4861754 0.6128705 -0.4861754
352000000 0.5830216 -0.4920813 0.4169784 0.4920813 0.4169784 0.4920813 0.5830216 -0.4920813
373000000 0.5542958 -0.4960053 0.4457042 0.4960053 0.4457042 0.4960053 0.5542958 -0.4960053
394000000 0.5267677 -0.4981849 0.4732323 0.4981849 0.4732323 0.4981849 0.5267677 -0.4981849
415000000 0.5004800 -0.4988412 0.4995200 0.4988412 0.4995200 0.4988412 0.5004800 -0.4988412
436000000 0.4754502 -0.4981776 0.5245498 0.4981776 0.5245498 0.4981776 0.4754502 -0.4981776
457000000 0.4516752 -0.4963788 0.5483248 0.4963788 0.5483248 0.4963788 0.4516752 -0.4963788
478000000 0.4291362 -0.4936109 0.5708638 0.4936109 0.5708638 0.4936109 0.4291362 -0.4936109
499000000 0.4078024 -0.4900223 0.5921976 0.4900223 0.5921976 0.4900223 0.4078024 -0.4900223
520000000 0.3876344 -0.4857444 0.6123656 0.4857444 0.6123656 0.4857444 0.3876344 -0.4857444
541000000 0.3685866 -0.4808929 0.6314134 0.4808929 0.6314134 0.4808929 0.3685866 -0.4808929
562000000 0.3506095 -0.4755693 0.6493905 0.4755693 0.6493905 0.4755693 0.3506095 -0.4755693
583000000 0.3336514 -0.4698618 0.6663486 0.4698618 0.6663486 0.4698618 0.3336514 -0.4698618
604000000 0.3176596 -0.4638474 0.6823404 0.4638474 0.6823404 0.4638474 0.3176596 -0.4638474
625000000 0.3025815 -0.4575923 0.6974185 0.4575923 0.6974185 0.4575923 0.3025815 -0.4575923
646000000 0.2883654 -0.4511539 0.7116346 0.4511539 0.7116346 0.4511539 0.2883654 -0.4511539
667000000 0.2749608 -0.4445811 0.7250392 0.4445811 0.7250392 0.4445811 0.2749608 -0.4445811
688000000 0.2623194 -0.4379160 0.7376806 0.4379160 0.7376806 0.4379160 0.2623194 -0.4379160
709000000 0.2503945 -0.4311945 0.7496055 0.4311945 0.7496055 0.4311945 0.2503945 -0.4311945
730000000 0.2391419 -0.4244469 0.7608581 0.4244469 0.7608581 0.4244469 0.2391419 -0.4244469
751000000 0.2285198 -0.4176989 0.7714802 0.4176989 0.7714802 0.4176989 0.2285198 -0.4176989
772000000 0.2184884 -0.4109721 0.7815116 0.4109721 0.7815116 0.4109721 0.2184884 -0.4109721
793000000 0.2090106 -0.4042848 0.7909894 0.4042848 0.7909894 0.4042848 0.2090106 -0.4042848
814000000 0.2000513 -0.3976518 0.7999487 0.3976518 0.7999487 0.3976518 0.2000513 -0.3976518
835000000 0.1915776 -0.3910857 0.8084224 0.3910857 0.8084224 0.3910857 0.1915776 -0.3910857
856000000 0.1835590 -0.3845967 0.8164410 0.3845967 0.8164410 0.3845967 0.1835590 -0.3845967
877000000 0.1759667 -0.3781929 0.8240333 0.3781929 0.8240333 0.3781929 0.1759667 -0.3781929
898000000 0.1687739 -0.3718809 0.8312261 0.3718809 0.8312261 0.3718809 0.1687739 -0.3718809
919000000 0.1619556 -0.3656659 0.8380444 0.3656659 0.8380444 0.3656659 0.1619556 -0.3656659
940000000 0.1554885 -0.3595519 0.8445115 0.3595519 0.8445115 0.3595519 0.1554885 -0.3595519
961000000 0.1493509 -0.3535417 0.8506491 0.3535417 0.8506491 0.3535417 0.1493509 -0.3535417
982000000 0.1435226 -0.3476372 0.8564774 0.3476372 0.8564774 0.3476372 0.1435226 -0.3476372
1003000000 0.1379846 -0.3418399 0.8620154 0.3418399 0.8620154 0.3418399 0.1379846 -0.3418399
1024000000 0.1327194 -0.3361503 0.8672806 0.3361503 0.8672806 0.3361503 0.1327194 -0.3361503
1045000000 0.1277107 -0.3305684 0.8722893 0.3305684 0.8722893 0.3305684 0.1277107 -0.3305684
1066000000 0.1229431 -0.3250941 0.8770569 0.3250941 0.8770569 0.3250941 0.1229431 -0.3250941
1087000000 0.1184025 -0.3197264 0.8815975 0.3197264 0.8815975 0.3197264 0.1184025 -0.3197264
1108000000 0.1140755 -0.3144644 0.8859245 0.3144644 0.8859245 0.3144644 0.1140755 -0.3144644
1129000000 0.1099498 -0.3093068 0.8900502 0.3093068 0.8900502 0.3093068 0.1099498 -0.3093068
1150000000 0.1060138 -0.3042521 0.8939862 0.3042521 0.8939862 0.3042521 0.1060138 -0.3042521
1171000000 0.1022567 -0.2992986 0.8977433 0.2992986 0.8977433 0.2992986 0.1022567 -0.2992986
1192000000 0.0986686 -0.2944445 0.9013314 0.2944445 0.9013314 0.2944445 0.0986686 -0.2944445
1213000000 0.0952399 -0.2896879 0.9047601 0.2896879 0.9047601 0.2896879 0.0952399 -0.2896879
1234000000 0.0919619 -0.2850268 0.9080381 0.2850268 0.9080381 0.2850268 0.0919619 -0.2850268
1255000000 0.0888263 -0.2804591 0.9111737 0.2804591 0.9111737 0.2804591 0.0888263 -0.2804591
1276000000 0.0858255 -0.2759828 0.9141745 0.2759828 0.9141745 0.2759828 0.0858255 -0.2759828
1297000000 0.0829522 -0.2715958 0.9170478 0.2715958 0.9170478 0.2715958 0.0829522 -0.2715958
1318000000 0.0801997 -0.2672958 0.9198003 0.2672958 0.9198003 0.2672958 0.0801997 -0.2672958
1339000000 0.0775617 -0.2630809 0.9224383 0.2630809 0.9224383 0.2630809 0.0775617 -0.2630809
1360000000 0.0750322 -0.2589488 0.9249678 0.2589488 0.9249678 0.2589488 0.0750322 -0.2589488
1381000000 0.0726057 -0.2548975 0.9273943 0.2548975 0.9273943 0.2548975 0.0726057 -0.2548975
1402000000 0.0702769 -0.2509248 0.9297231 0.2509248 0.9297231 0.2509248 0.0702769 -0.2509248
1423000000 0.0680409 -0.2470289 0.9319591 0.2470289 0.9319591 0.2470289 0.0680409 -0.2470289
1444000000 0.0658931 -0.2432075 0.9341069 0.2432075 0.9341069 0.2432075 0.0658931 -0.2432075
1465000000 0.0638293 -0.2394589 0.9361707 0.2394589 0.9361707 0.2394589 0.0638293 -0.2394589
1486000000 0.0618452 -0.2357809 0.9381548 0.2357809 0.9381548 0.2357809 0.0618452 -0.2357809
1507000000 0.0599370 -0.2321717 0.9400630 0.2321717 0.9400630 0.2321717 0.0599370 -0.2321717
1528000000 0.0581012 -0.2286295 0.9418988 0.2286295 0.9418988 0.2286295 0.0581012 -0.2286295
1549000000 0.0563343 -0.2251524 0.9436657 0.2251524 0.9436657 0.2251524 0.0563343 -0.2251524
1570000000 0.0546331 -0.2217387 0.9453669 0.2217387 0.9453669 0.2217387 0.0546331 -0.2217387
1591000000 0.0529945 -0.2183867 0.9470055 0.2183867 0.9470055 0.2183867 0.0529945 -0.2183867
1612000000 0.0514158 -0.2150946 0.9485842 0.2150946 0.9485842 0.2150946 0.0514158 -0.2150946
1633000000 0.0498941 -0.2118608 0.9501059 0.2118608 0.9501059 0.2118608 0.0498941 -0.2118608
1654000000 0.0484270 -0.2086838 0.9515730 0.2086838 0.9515730 0.2086838 0.0484270 -0.2086838
1675000000 0.0470120 -0.2055620 0.9529880 0.2055620 0.9529880 0.2055620 0.0470120 -0.2055620
1696000000 0.0456468 -0.2024938 0.9543532 0.2024938 0.9543532 0.2024938 0.0456468 -0.2024938
1717000000 0.0443292 -0.1994779 0.9556708 0.1994779 0.9556708 0.1994779 0.0443292 -0.1994779
1738000000 0.0430573 -0.1965128 0.9569427 0.1965128 0.9569427 0.1965128 0.0430573 -0.1965128
1759000000 0.0418291 -0.1935972 0.9581709 0.1935972 0.9581709 0.1935972 0.0418291 -0.1935972
1780000000 0.0406427 -0.1907297 0.9593573 0.1907297 0.9593573 0.1907297 0.0406427 -0.1907297
1801000000 0.0394963 -0.1879090 0.9605037 0.1879090 0.9605037 0.1879090 0.0394963 -0.1879090
1822000000 0.0383885 -0.1851338 0.9616115 0.1851338 0.9616115 0.1851338 0.0383885 -0.1851338
1843000000 0.0373174 -0.1824030 0.9626826 0.1824030 0.9626826 0.1824030 0.0373174 -0.1824030
1864000000 0.0362818 -0.1797154 0.9637182 0.1797154 0.9637182 0.1797154 0.0362818 -0.1797154
1885000000 0.0352801 -0.1770698 0.9647199 0.1770698 0.9647199 0.1770698 0.0352801 -0.1770698
1906000000 0.0343110 -0.1744650 0.9656890 0.1744650 0.9656890 0.1744650 0.0343110 -0.1744650
1927000000 0.0333732 -0.1719002 0.9666268 0.1719002 0.9666268 0.1719002 0.0333732 -0.1719002
1948000000 0.0324655 -0.1693740 0.9675345 0.1693740 0.9675345 0.1693740 0.0324655 -0.1693740
1969000000 0.0315868 -0.1668857 0.9684132 0.1668857 0.9684132 0.1668857 0.0315868 -0.1668857
1990000000 0.0307360 -0.1644341 0.9692640 0.1644341 0.9692640 0.1644341 0.0307360 -0.1644341
2011000000 0.0299119 -0.1620184 0.9700881 0.1620184 0.9700881 0.1620184 0.0299119 -0.1620184
2032000000 0.0291136 -0.1596376 0.9708864 0.1596376 0.9708864 0.1596376 0.0291136 -0.1596376
2053000000 0.0283402 -0.1572908 0.9716598 0.1572908 0.9716598 0.1572908 0.0283402 -0.1572908
2074000000 0.0275907 -0.1549771 0.9724093 0.1549771 0.9724093 0.1549771 0.0275907 -0.1549771
2095000000 0.0268642 -0.1526957 0.9731358 0.1526957 0.9731358 0.1526957 0.0268642 -0.1526957
2116000000 0.0261600 -0.1504459 0.9738400 0.1504459 0.9738400 0.1504459 0.0261600 -0.1504459
2137000000 0.0254772 -0.1482267 0.9745228 0.1482267 0.9745228 0.1482267 0.0254772 -0.1482267
2158000000 0.0248151 -0.1460374 0.9751849 0.1460374 0.9751849 0.1460374 0.0248151 -0.1460374
2179000000 0.0241730 -0.1438773 0.9758270 0.1438773 0.9758270 0.1438773 0.0241730 -0.1438773
2200000000 0.0235501 -0.1417457 0.9764499 0.1417457 0.9764499 0.1417457 0.0235501 -0.1417457
2221000000 0.0229459 -0.1396418 0.9770541 0.1396418 0.9770541 0.1396418 0.0229459 -0.1396418
2242000000 0.0223597 -0.1375649 0.9776403 0.1375649 0.9776403 0.1375649 0.0223597 -0.1375649
2263000000 0.0217908 -0.1355145 0.9782092 0.1355145 0.9782092 0.1355145 0.0217908 -0.1355145
2284000000 0.0212387 -0.1334898 0.9787613 0.1334898 0.9787613 0.1334898 0.0212387 -0.1334898
2305000000 0.0207029 -0.1314903 0.9792971 0.1314903 0.9792971 0.1314903 0.0207029 -0.1314903
2326000000 0.0201828 -0.1295152 0.9798172 0.1295152 0.9798172 0.1295152 0.0201828 -0.1295152
2347000000 0.0196779 -0.1275641 0.9803221 0.1275641 0.9803221 0.1275641 0.0196779 -0.1275641
2368000000 0.0191878 -0.1256364 0.9808122 0.1256364 0.9808122 0.1256364 0.0191878 -0.1256364
2389000000 0.0187119 -0.1237315 0.9812881 0.1237315 0.9812881 0.1237315 0.0187119 -0.1237315
2410000000 0.0182498 -0.1218489 0.9817502 0.1218489 0.9817502 0.1218489 0.0182498 -0.1218489
2431000000 0.0178012 -0.1199880 0.9821988 0.1199880 0.9821988 0.1199880 0.0178012 -0.1199880
2452000000 0.0173655 -0.1181483 0.9826345 0.1181483 0.9826345 0.1181483 0.0173655 -0.1181483
2473000000 0.0169424 -0.1163294 0.9830576 0.1163294 0.9830576 0.1163294 0.0169424 -0.1163294
2494000000 0.0165315 -0.1145307 0.9834685 0.1145307 0.9834685 0.1145307 0.0165315 -0.1145307
2515000000 0.0161324 -0.1127518 0.9838676 0.1127518 0.9838676 0.1127518 0.0161324 -0.1127518
2536000000 0.0157448 -0.1109922 0.9842552 0.1109922 0.9842552 0.1109922 0.0157448 -0.1109922
2557000000 0.0153684 -0.1092515 0.9846316 0.1092515 0.9846316 0.1092515 0.0153684 -0.1092515
2578000000 0.0150029 -0.1075293 0.9849971 0.1075293 0.9849971 0.1075293 0.0150029 -0.1075293
2599000000 0.0146478 -0.1058251 0.9853522 0.1058251 0.9853522 0.1058251 0.0146478 -0.1058251
2620000000 0.0143030 -0.1041385 0.9856970 0.1041385 0.9856970 0.1041385 0.0143030 -0.1041385
2641000000 0.0139682 -0.1024691 0.9860318 0.1024691 0.9860318 0.1024691 0.0139682 -0.1024691
2662000000 0.0136430 -0.1008166 0.9863570 0.1008166 0.9863570 0.1008166 0.0136430 -0.1008166
2683000000 0.0133272 -0.0991805 0.9866728 0.0991805 0.9866728 0.0991805 0.0133272 -0.0991805
2704000000 0.0130206 -0.0975605 0.9869794 0.0975605 0.9869794 0.0975605 0.0130206 -0.0975605
2725000000 0.0127229 -0.0959563 0.9872771 0.0959563 0.9872771 0.0959563 0.0127229 -0.0959563
2746000000 0.0124338 -0.0943674 0.9875662 0.0943674 0.9875662 0.0943674 0.0124338 -0.0943674
2767000000 0.0121532 -0.0927936 0.9878468 0.0927936 0.9878468 0.0927936 0.0121532 -0.0927936
2788000000 0.0118808 -0.0912345 0.9881192 0.0912345 0.9881192 0.0912345 0.0118808 -0.0912345
2809000000 0.0116165 -0.0896898 0.9883835 0.0896898 0.9883835 0.0896898 0.0116165 -0.0896898
2830000000 0.0113599 -0.0881592 0.9886401 0.0881592 0.9886401 0.0881592 0.0113599 -0.0881592
2851000000 0.0111110 -0.0866423 0.9888890 0.0866423 0.9888890 0.0866423 0.0111110 -0.0866423
2872000000 0.0108694 -0.0851389 0.9891306 0.0851389 0.9891306 0.0851389 0.0108694 -0.0851389
2893000000 0.0106352 -0.0836487 0.9893648 0.0836487 0.9893648 0.0836487 0.0106352 -0.0836487
2914000000 0.0104080 -0.0821714 0.9895920 0.0821714 0.9895920 0.0821714 0.0104080 -0.0821714
2935000000 0.0101877 -0.0807067 0.9898123 0.0807067 0.9898123 0.0807067 0.0101877 -0.0807067
2956000000 0.0099741 -0.0792543 0.9900259 0.0792543 0.9900259 0.0792543 0.0099741 -0.0792543
2977000000 0.0097671 -0.0778140 0.9902329 0.0778140 0.9902329 0.0778140 0.0097671 -0.0778140
2998000000 0.0095666 -0.0763856 0.9904334 0.0763856 0.9904334 0.0763856 0.0095666 -0.0763856
3019000000 0.0093723 -0.0749687 0.9906277 0.0749687 0.9906277 0.0749687 0.0093723 -0.0749687
3040000000 0.0091842 -0.0735631 0.9908158 0.0735631 0.9908158 0.0735631 0.0091842 -0.0735631
3061000000 0.0090021 -0.0721686 0.9909979 0.0721686 0.9909979 0.0721686 0.0090021 -0.0721686
3082000000 0.0088259 -0.0707850 0.9911741 0.0707850 0.9911741 0.0707850 0.0088259 -0.0707850
3103000000 0.0086554 -0.0694120 0.9913446 0.0694120 0.9913446 0.0694120 0.0086554 -0.0694120
3124000000 0.0084905 -0.0680493 0.9915095 0.0680493 0.9915095 0.0680493 0.0084905 -0.0680493
3145000000 0.0083312 -0.0666969 0.9916688 0.0666969 0.9916688 0.0666969 0.0083312 -0.0666969
3166000000 0.0081773 -0.0653544 0.9918227 0.0653544 0.9918227 0.0653544 0.0081773 -0.0653544
3187000000 0.0080286 -0.0640217 0.9919714 0.0640217 0.9919714 0.0640217 0.0080286 -0.0640217
3208000000 0.0078851 -0.0626985 0.9921149 0.0626985 0.9921149 0.0626985 0.0078851 -0.0626985
3229000000 0.0077467 -0.0613847 0.9922533 0.0613847 0.9922533 0.0613847 0.0077467 -0.0613847
3250000000 0.0076133 -0.0600800 0.9923867 0.0600800 0.9923867 0.0600800 0.0076133 -0.0600800
3271000000 0.0074848 -0.0587843 0.9925152 0.0587843 0.9925152 0.0587843 0.0074848 -0.0587843
3292000000 0.0073610 -0.0574973 0.9926390 0.0574973 0.9926390 0.0574973 0.0073610 -0.0574973
3313000000 0.0072420 -0.0562189 0.9927580 0.0562189 0.9927580 0.0562189 0.0072420 -0.0562189
3334000000 0.0071276 -0.0549490 0.9928724 0.0549490 0.9928724 0.0549490 0.0071276 -0.0549490
3355000000 0.0070177 -0.0536873 0.9929823 0.0536873 0.9929823 0.0536873 0.0070177 -0.0536873
3376000000 0.0069123 -0.0524336 0.9930877 0.0524336 0.9930877 0.0524336 0.0069123 -0.0524336
3397000000 0.0068112 -0.0511878 0.9931888 0.0511878 0.9931888 0.0511878 0.0068112 -0.0511878
3418000000 0.0067145 -0.0499498 0.9932855 0.0499498 0.9932855 0.0499498 0.0067145 -0.0499498
3439000000 0.0066220 -0.0487193 0.9933780 0.0487193 0.9933780 0.0487193 0.0066220 -0.0487193
3460000000 0.0065336 -0.0474963 0.9934664 0.0474963 0.9934664 0.0474963 0.0065336 -0.0474963
3481000000 0.0064494 -0.0462805 0.9935506 0.0462805 0.9935506 0.0462805 0.0064494 -0.0462805
3502000000 0.0063691 -0.0450718 0.9936309 0.0450718 0.9936309 0.0450718 0.0063691 -0.0450718
3523000000 0.0062929 -0.0438700 0.9937071 0.0438700 0.9937071 0.0438700 0.0062929 -0.0438700
3544000000 0.0062205 -0.0426751 0.9937795 0.0426751 0.9937795 0.0426751 0.0062205 -0.0426751
3565000000 0.0061520 -0.0414868 0.9938480 0.0414868 0.9938480 0.0414868 0.0061520 -0.0414868
3586000000 0.0060873 -0.0403050 0.9939127 0.0403050 0.9939127 0.0403050 0.0060873 -0.0403050
3607000000 0.0060264 -0.0391296 0.9939736 0.0391296 0.9939736 0.0391296 0.0060264 -0.0391296
3628000000 0.0059691 -0.0379605 0.9940309 0.0379605 0.9940309 0.0379605 0.0059691 -0.0379605
3649000000 0.0059154 -0.0367974 0.9940846 0.0367974 0.9940846 0.0367974 0.0059154 -0.0367974
3670000000 0.0058654 -0.0356404 0.9941346 0.0356404 0.9941346 0.0356404 0.0058654 -0.0356404
3691000000 0.0058189 -0.0344892 0.9941811 0.0344892 0.9941811 0.0344892 0.0058189 -0.0344892
3712000000 0.0057759 -0.0333437 0.9942241 0.0333437 0.9942241 0.0333437 0.0057759 -0.0333437
3733000000 0.0057363 -0.0322039 0.9942637 0.0322039 0.9942637 0.0322039 0.0057363 -0.0322039
3754000000 0.0057002 -0.0310695 0.9942998 0.0310695 0.9942998 0.0310695 0.0057002 -0.0310695
3775000000 0.0056675 -0.0299405 0.9943325 0.0299405 0.9943325 0.0299405 0.0056675 -0.0299405
3796000000 0.0056380 -0.0288168 0.9943620 0.0288168 0.9943620 0.0288168 0.0056380 -0.0288168
3817000000 0.0056119 -0.0276981 0.9943881 0.0276981 0.9943881 0.0276981 0.0056119 -0.0276981
3838000000 0.0055891 -0.0265845 0.9944109 0.0265845 0.9944109 0.0265845 0.0055891 -0.0265845
3859000000 0.0055695 -0.0254758 0.9944305 0.0254758 0.9944305 0.0254758 0.0055695 -0.0254758
3880000000 0.0055530 -0.0243719 0.9944470 0.0243719 0.9944470 0.0243719 0.0055530 -0.0243719
3901000000 0.0055398 -0.0232727 0.9944602 0.0232727 0.9944602 0.0232727 0.0055398 -0.0232727
3922000000 0.0055297 -0.0221781 0.9944703 0.0221781 0.9944703 0.0221781 0.0055297 -0.0221781
3943000000 0.0055227 -0.0210879 0.9944773 0.0210879 0.9944773 0.0210879 0.0055227 -0.0210879
3964000000 0.0055188 -0.0200022 0.9944812 0.0200022 0.9944812 0.0200022 0.0055188 -0.0200022
3985000000 0.0055180 -0.0189207 0.9944820 0.0189207 0.9944820 0.0189207 0.0055180 -0.0189207
4006000000 0.0055201 -0.0178434 0.9944799 0.0178434 0.9944799 0.0178434 0.0055201 -0.0178434
4027000000 0.0055254 -0.0167701 0.9944746 0.0167701 0.9944746 0.0167701 0.0055254 -0.0167701
4048000000 0.0055335 -0.0157009 0.9944665 0.0157009 0.9944665 0.0157009 0.0055335 -0.0157009
4069000000 0.0055447 -0.0146355 0.9944553 0.0146355 0.9944553 0.0146355 0.0055447 -0.0146355
4090000000 0.0055588 -0.0135740 0.9944412 0.0135740 0.9944412 0.0135740 0.0055588 -0.0135740
4111000000 0.0055759 -0.0125161 0.9944241 0.0125161 0.9944241 0.0125161 0.0055759 -0.0125161
4132000000 0.0055958 -0.0114618 0.9944042 0.0114618 0.9944042 0.0114618 0.0055958 -0.0114618
4153000000 0.0056187 -0.0104111 0.9943813 0.0104111 0.9943813 0.0104111 0.0056187 -0.0104111
4174000000 0.0056445 -0.0093638 0.9943555 0.0093638 0.9943555 0.0093638 0.0056445 -0.0093638
4195000000 0.0056731 -0.0083198 0.9943269 0.0083198 0.9943269 0.0083198 0.0056731 -0.0083198
4216000000 0.0057045 -0.0072792 0.9942955 0.0072792 0.9942955 0.0072792 0.0057045 -0.0072792
4237000000 0.0057389 -0.0062416 0.9942611 0.0062416 0.9942611 0.0062416 0.0057389 -0.0062416
4258000000 0.0057760 -0.0052072 0.9942240 0.0052072 0.9942240 0.0052072 0.0057760 -0.0052072
4279000000 0.0058160 -0.0041758 0.9941840 0.0041758 0.9941840 0.0041758 0.0058160 -0.0041758
4300000000 0.0058588 -0.0031473 0.9941412 0.0031473 0.9941412 0.0031473 0.0058588 -0.0031473
4321000000 0.0059044 -0.0021216 0.9940956 0.0021216 0.9940956 0.0021216 0.0059044 -0.0021216
4342000000 0.0059527 -0.0010987 0.9940473 0.0010987 0.9940473 0.0010987 0.0059527 -0.0010987
4363000000 0.0060039 -0.0000785 0.9939961 0.0000785 0.9939961 0.0000785 0.0060039 -0.0000785
4384000000 0.0060579 0.0009391 0.9939421 -0.0009391 0.9939421 -0.0009391 0.0060579 0.0009391
4405000000 0.0061146 0.0019541 0.9938854 -0.0019541 0.9938854 -0.0019541 0.0061146 0.0019541
4426000000 0.0061742 0.0029667 0.9938258 -0.0029667 0.9938258 -0.0029667 0.0061742 0.0029667
4447000000 0.0062365 0.0039769 0.9937635 -0.0039769 0.9937635 -0.0039769 0.0062365 0.0039769
4468000000 0.0063015 0.0049848 0.9936985 -0.0049848 0.9936985 -0.0049848 0.0063015 0.0049848
4489000000 0.0063694 0.0059905 0.9936306 -0.0059905 0.9936306 -0.0059905 0.0063694 0.0059905
4510000000 0.0064400 0.0069940 0.9935600 -0.0069940 0.9935600 -0.0069940 0.0064400 0.0069940
