!Murata Part Number: GRM1552C1H681GA01
!These Parameters are Measured in Series Mode Connection
!Data Generated on Mar 30, 2021
!       o--ll--o
!Port1            Port2
!       o------o
!Operation Temp=25[degC], DC Bias Voltage=0[V]
!Freq. Start=100[MHz] Stop=9[GHz] 401[Steps]
# Hz S RI R 50
!Freq.(Hz) S11(Real) S11(Imag) S21(Real) S21(Imag) S12(Real) S12(Imag) S22(Real) S22(Imag)
100000000 0.0010095 -0.0210360 0.9989905 0.0210360 0.9989905 0.0210360 0.0010095 -0.0210360
121000000 0.0008467 -0.0164919 0.9991533 0.0164919 0.9991533 0.0164919 0.0008467 -0.0164919
142000000 0.0007569 -0.0131445 0.9992431 0.0131445 0.9992431 0.0131445 0.0007569 -0.0131445
163000000 0.0007062 -0.0105313 0.9992938 0.0105313 0.9992938 0.0105313 0.0007062 -0.0105313
184000000 0.0006787 -0.0084007 0.9993213 0.0084007 0.9993213 0.0084007 0.0006787 -0.0084007
205000000 0.0006665 -0.0066040 0.9993335 0.0066040 0.9993335 0.0066040 0.0006665 -0.0066040
226000000 0.0006650 -0.0050476 0.9993350 0.0050476 0.9993350 0.0050476 0.0006650 -0.0050476
247000000 0.0006717 -0.0036695 0.9993283 0.0036695 0.9993283 0.0036695 0.0006717 -0.0036695
268000000 0.0006851 -0.0024273 0.9993149 0.0024273 0.9993149 0.0024273 0.0006851 -0.0024273
289000000 0.0007042 -0.0012906 0.9992958 0.0012906 0.9992958 0.0012906 0.0007042 -0.0012906
310000000 0.0007287 -0.0002372 0.9992713 0.0002372 0.9992713 0.0002372 0.0007287 -0.0002372
331000000 0.0007582 0.0007497 0.9992418 -0.0007497 0.9992418 -0.0007497 0.0007582 0.0007497
352000000 0.0007930 0.0016829 0.9992070 -0.0016829 0.9992070 -0.0016829 0.0007930 0.0016829
373000000 0.0008333 0.0025725 0.9991667 -0.0025725 0.9991667 -0.0025725 0.0008333 0.0025725
394000000 0.0008796 0.0034268 0.9991204 -0.0034268 0.9991204 -0.0034268 0.0008796 0.0034268
415000000 0.0009328 0.0042525 0.9990672 -0.0042525 0.9990672 -0.0042525 0.0009328 0.0042525
436000000 0.0009940 0.0050552 0.9990060 -0.0050552 0.9990060 -0.0050552 0.0009940 0.0050552
457000000 0.0010649 0.0058397 0.9989351 -0.0058397 0.9989351 -0.0058397 0.0010649 0.0058397
478000000 0.0011477 0.0066102 0.9988523 -0.0066102 0.9988523 -0.0066102 0.0011477 0.0066102
499000000 0.0012459 0.0073701 0.9987541 -0.0073701 0.9987541 -0.0073701 0.0012459 0.0073701
520000000 0.0013640 0.0081222 0.9986360 -0.0081222 0.9986360 -0.0081222 0.0013640 0.0081222
541000000 0.0015087 0.0088679 0.9984913 -0.0088679 0.9984913 -0.0088679 0.0015087 0.0088679
562000000 0.0016894 0.0096062 0.9983106 -0.0096062 0.9983106 -0.0096062 0.0016894 0.0096062
583000000 0.0019184 0.0103310 0.9980816 -0.0103310 0.9980816 -0.0103310 0.0019184 0.0103310
604000000 0.0022109 0.0110270 0.9977891 -0.0110270 0.9977891 -0.0110270 0.0022109 0.0110270
625000000 0.0025789 0.0116621 0.9974211 -0.0116621 0.9974211 -0.0116621 0.0025789 0.0116621
646000000 0.0030145 0.0121820 0.9969855 -0.0121820 0.9969855 -0.0121820 0.0030145 0.0121820
667000000 0.0034592 0.0125244 0.9965408 -0.0125244 0.9965408 -0.0125244 0.0034592 0.0125244
688000000 0.0037899 0.0126790 0.9962101 -0.0126790 0.9962101 -0.0126790 0.0037899 0.0126790
709000000 0.0038919 0.0127536 0.9961081 -0.0127536 0.9961081 -0.0127536 0.0038919 0.0127536
730000000 0.0037787 0.0129155 0.9962213 -0.0129155 0.9962213 -0.0129155 0.0037787 0.0129155
751000000 0.0035716 0.0132504 0.9964284 -0.0132504 0.9964284 -0.0132504 0.0035716 0.0132504
772000000 0.0033811 0.0137388 0.9966189 -0.0137388 0.9966189 -0.0137388 0.0033811 0.0137388
793000000 0.0032577 0.0143242 0.9967423 -0.0143242 0.9967423 -0.0143242 0.0032577 0.0143242
814000000 0.0032119 0.0149594 0.9967881 -0.0149594 0.9967881 -0.0149594 0.0032119 0.0149594
835000000 0.0032389 0.0156146 0.9967611 -0.0156146 0.9967611 -0.0156146 0.0032389 0.0156146
856000000 0.0033320 0.0162723 0.9966680 -0.0162723 0.9966680 -0.0162723 0.0033320 0.0162723
877000000 0.0034863 0.0169206 0.9965137 -0.0169206 0.9965137 -0.0169206 0.0034863 0.0169206
898000000 0.0036995 0.0175496 0.9963005 -0.0175496 0.9963005 -0.0175496 0.0036995 0.0175496
919000000 0.0039710 0.0181480 0.9960290 -0.0181480 0.9960290 -0.0181480 0.0039710 0.0181480
940000000 0.0042996 0.0187012 0.9957004 -0.0187012 0.9957004 -0.0187012 0.0042996 0.0187012
961000000 0.0046809 0.0191905 0.9953191 -0.0191905 0.9953191 -0.0191905 0.0046809 0.0191905
982000000 0.0051030 0.0195936 0.9948970 -0.0195936 0.9948970 -0.0195936 0.0051030 0.0195936
1003000000 0.0055425 0.0198880 0.9944575 -0.0198880 0.9944575 -0.0198880 0.0055425 0.0198880
1024000000 0.0059616 0.0200584 0.9940384 -0.0200584 0.9940384 -0.0200584 0.0059616 0.0200584
1045000000 0.0063110 0.0201072 0.9936890 -0.0201072 0.9936890 -0.0201072 0.0063110 0.0201072
1066000000 0.0065418 0.0200631 0.9934582 -0.0200631 0.9934582 -0.0200631 0.0065418 0.0200631
1087000000 0.0066225 0.0199792 0.9933775 -0.0199792 0.9933775 -0.0199792 0.0066225 0.0199792
1108000000 0.0065528 0.0199183 0.9934472 -0.0199183 0.9934472 -0.0199183 0.0065528 0.0199183
1129000000 0.0063620 0.0199322 0.9936380 -0.0199322 0.9936380 -0.0199322 0.0063620 0.0199322
1150000000 0.0060956 0.0200488 0.9939044 -0.0200488 0.9939044 -0.0200488 0.0060956 0.0200488
1171000000 0.0057986 0.0202714 0.9942014 -0.0202714 0.9942014 -0.0202714 0.0057986 0.0202714
1192000000 0.0055052 0.0205873 0.9944948 -0.0205873 0.9944948 -0.0205873 0.0055052 0.0205873
1213000000 0.0052367 0.0209770 0.9947633 -0.0209770 0.9947633 -0.0209770 0.0052367 0.0209770
1234000000 0.0050033 0.0214206 0.9949967 -0.0214206 0.9949967 -0.0214206 0.0050033 0.0214206
1255000000 0.0048081 0.0219014 0.9951919 -0.0219014 0.9951919 -0.0219014 0.0048081 0.0219014
1276000000 0.0046500 0.0224062 0.9953500 -0.0224062 0.9953500 -0.0224062 0.0046500 0.0224062
1297000000 0.0045259 0.0229254 0.9954741 -0.0229254 0.9954741 -0.0229254 0.0045259 0.0229254
1318000000 0.0044321 0.0234524 0.9955679 -0.0234524 0.9955679 -0.0234524 0.0044321 0.0234524
1339000000 0.0043646 0.0239823 0.9956354 -0.0239823 0.9956354 -0.0239823 0.0043646 0.0239823
1360000000 0.0043199 0.0245120 0.9956801 -0.0245120 0.9956801 -0.0245120 0.0043199 0.0245120
1381000000 0.0042949 0.0250394 0.9957051 -0.0250394 0.9957051 -0.0250394 0.0042949 0.0250394
1402000000 0.0042868 0.0255630 0.9957132 -0.0255630 0.9957132 -0.0255630 0.0042868 0.0255630
1423000000 0.0042936 0.0260818 0.9957064 -0.0260818 0.9957064 -0.0260818 0.0042936 0.0260818
1444000000 0.0043132 0.0265952 0.9956868 -0.0265952 0.9956868 -0.0265952 0.0043132 0.0265952
1465000000 0.0043439 0.0271027 0.9956561 -0.0271027 0.9956561 -0.0271027 0.0043439 0.0271027
1486000000 0.0043845 0.0276041 0.9956155 -0.0276041 0.9956155 -0.0276041 0.0043845 0.0276041
1507000000 0.0044336 0.0280989 0.9955664 -0.0280989 0.9955664 -0.0280989 0.0044336 0.0280989
1528000000 0.0044902 0.0285870 0.9955098 -0.0285870 0.9955098 -0.0285870 0.0044902 0.0285870
1549000000 0.0045532 0.0290682 0.9954468 -0.0290682 0.9954468 -0.0290682 0.0045532 0.0290682
1570000000 0.0046217 0.0295424 0.9953783 -0.0295424 0.9953783 -0.0295424 0.0046217 0.0295424
1591000000 0.0046947 0.0300093 0.9953053 -0.0300093 0.9953053 -0.0300093 0.0046947 0.0300093
1612000000 0.0047714 0.0304689 0.9952286 -0.0304689 0.9952286 -0.0304689 0.0047714 0.0304689
1633000000 0.0048506 0.0309211 0.9951494 -0.0309211 0.9951494 -0.0309211 0.0048506 0.0309211
1654000000 0.0049315 0.0313661 0.9950685 -0.0313661 0.9950685 -0.0313661 0.0049315 0.0313661
1675000000 0.0050131 0.0318038 0.9949869 -0.0318038 0.9949869 -0.0318038 0.0050131 0.0318038
1696000000 0.0050944 0.0322347 0.9949056 -0.0322347 0.9949056 -0.0322347 0.0050944 0.0322347
1717000000 0.0051744 0.0326590 0.9948256 -0.0326590 0.9948256 -0.0326590 0.0051744 0.0326590
1738000000 0.0052522 0.0330774 0.9947478 -0.0330774 0.9947478 -0.0330774 0.0052522 0.0330774
1759000000 0.0053271 0.0334905 0.9946729 -0.0334905 0.9946729 -0.0334905 0.0053271 0.0334905
1780000000 0.0053983 0.0338991 0.9946017 -0.0338991 0.9946017 -0.0338991 0.0053983 0.0338991
1801000000 0.0054653 0.0343042 0.9945347 -0.0343042 0.9945347 -0.0343042 0.0054653 0.0343042
1822000000 0.0055278 0.0347067 0.9944722 -0.0347067 0.9944722 -0.0347067 0.0055278 0.0347067
1843000000 0.0055856 0.0351076 0.9944144 -0.0351076 0.9944144 -0.0351076 0.0055856 0.0351076
1864000000 0.0056388 0.0355079 0.9943612 -0.0355079 0.9943612 -0.0355079 0.0056388 0.0355079
1885000000 0.0056876 0.0359085 0.9943124 -0.0359085 0.9943124 -0.0359085 0.0056876 0.0359085
1906000000 0.0057323 0.0363103 0.9942677 -0.0363103 0.9942677 -0.0363103 0.0057323 0.0363103
1927000000 0.0057736 0.0367138 0.9942264 -0.0367138 0.9942264 -0.0367138 0.0057736 0.0367138
1948000000 0.0058118 0.0371197 0.9941882 -0.0371197 0.9941882 -0.0371197 0.0058118 0.0371197
1969000000 0.0058477 0.0375283 0.9941523 -0.0375283 0.9941523 -0.0375283 0.0058477 0.0375283
1990000000 0.0058818 0.0379399 0.9941182 -0.0379399 0.9941182 -0.0379399 0.0058818 0.0379399
2011000000 0.0059147 0.0383545 0.9940853 -0.0383545 0.9940853 -0.0383545 0.0059147 0.0383545
2032000000 0.0059470 0.0387722 0.9940530 -0.0387722 0.9940530 -0.0387722 0.0059470 0.0387722
2053000000 0.0059792 0.0391930 0.9940208 -0.0391930 0.9940208 -0.0391930 0.0059792 0.0391930
2074000000 0.0060117 0.0396167 0.9939883 -0.0396167 0.9939883 -0.0396167 0.0060117 0.0396167
2095000000 0.0060449 0.0400431 0.9939551 -0.0400431 0.9939551 -0.0400431 0.0060449 0.0400431
2116000000 0.0060790 0.0404720 0.9939210 -0.0404720 0.9939210 -0.0404720 0.0060790 0.0404720
2137000000 0.0061144 0.0409032 0.9938856 -0.0409032 0.9938856 -0.0409032 0.0061144 0.0409032
2158000000 0.0061511 0.0413365 0.9938489 -0.0413365 0.9938489 -0.0413365 0.0061511 0.0413365
2179000000 0.0061893 0.0417716 0.9938107 -0.0417716 0.9938107 -0.0417716 0.0061893 0.0417716
2200000000 0.0062292 0.0422083 0.9937708 -0.0422083 0.9937708 -0.0422083 0.0062292 0.0422083
2221000000 0.0062707 0.0426464 0.9937293 -0.0426464 0.9937293 -0.0426464 0.0062707 0.0426464
2242000000 0.0063138 0.0430857 0.9936862 -0.0430857 0.9936862 -0.0430857 0.0063138 0.0430857
2263000000 0.0063587 0.0435261 0.9936413 -0.0435261 0.9936413 -0.0435261 0.0063587 0.0435261
2284000000 0.0064052 0.0439674 0.9935948 -0.0439674 0.9935948 -0.0439674 0.0064052 0.0439674
2305000000 0.0064533 0.0444095 0.9935467 -0.0444095 0.9935467 -0.0444095 0.0064533 0.0444095
2326000000 0.0065030 0.0448522 0.9934970 -0.0448522 0.9934970 -0.0448522 0.0065030 0.0448522
2347000000 0.0065543 0.0452955 0.9934457 -0.0452955 0.9934457 -0.0452955 0.0065543 0.0452955
2368000000 0.0066070 0.0457393 0.9933930 -0.0457393 0.9933930 -0.0457393 0.0066070 0.0457393
2389000000 0.0066612 0.0461835 0.9933388 -0.0461835 0.9933388 -0.0461835 0.0066612 0.0461835
2410000000 0.0067168 0.0466281 0.9932832 -0.0466281 0.9932832 -0.0466281 0.0067168 0.0466281
2431000000 0.0067736 0.0470729 0.9932264 -0.0470729 0.9932264 -0.0470729 0.0067736 0.0470729
2452000000 0.0068318 0.0475181 0.9931682 -0.0475181 0.9931682 -0.0475181 0.0068318 0.0475181
2473000000 0.0068911 0.0479635 0.9931089 -0.0479635 0.9931089 -0.0479635 0.0068911 0.0479635
2494000000 0.0069516 0.0484091 0.9930484 -0.0484091 0.9930484 -0.0484091 0.0069516 0.0484091
2515000000 0.0070132 0.0488549 0.9929868 -0.0488549 0.9929868 -0.0488549 0.0070132 0.0488549
2536000000 0.0070759 0.0493009 0.9929241 -0.0493009 0.9929241 -0.0493009 0.0070759 0.0493009
2557000000 0.0071396 0.0497471 0.9928604 -0.0497471 0.9928604 -0.0497471 0.0071396 0.0497471
2578000000 0.0072043 0.0501934 0.9927957 -0.0501934 0.9927957 -0.0501934 0.0072043 0.0501934
2599000000 0.0072699 0.0506400 0.9927301 -0.0506400 0.9927301 -0.0506400 0.0072699 0.0506400
2620000000 0.0073364 0.0510867 0.9926636 -0.0510867 0.9926636 -0.0510867 0.0073364 0.0510867
2641000000 0.0074037 0.0515337 0.9925963 -0.0515337 0.9925963 -0.0515337 0.0074037 0.0515337
2662000000 0.0074719 0.0519809 0.9925281 -0.0519809 0.9925281 -0.0519809 0.0074719 0.0519809
2683000000 0.0075409 0.0524283 0.9924591 -0.0524283 0.9924591 -0.0524283 0.0075409 0.0524283
2704000000 0.0076107 0.0528759 0.9923893 -0.0528759 0.9923893 -0.0528759 0.0076107 0.0528759
2725000000 0.0076812 0.0533238 0.9923188 -0.0533238 0.9923188 -0.0533238 0.0076812 0.0533238
2746000000 0.0077524 0.0537720 0.9922476 -0.0537720 0.9922476 -0.0537720 0.0077524 0.0537720
2767000000 0.0078243 0.0542204 0.9921757 -0.0542204 0.9921757 -0.0542204 0.0078243 0.0542204
2788000000 0.0078969 0.0546692 0.9921031 -0.0546692 0.9921031 -0.0546692 0.0078969 0.0546692
2809000000 0.0079702 0.0551183 0.9920298 -0.0551183 0.9920298 -0.0551183 0.0079702 0.0551183
2830000000 0.0080441 0.0555677 0.9919559 -0.0555677 0.9919559 -0.0555677 0.0080441 0.0555677
2851000000 0.0081187 0.0560175 0.9918813 -0.0560175 0.9918813 -0.0560175 0.0081187 0.0560175
2872000000 0.0081939 0.0564677 0.9918061 -0.0564677 0.9918061 -0.0564677 0.0081939 0.0564677
2893000000 0.0082697 0.0569183 0.9917303 -0.0569183 0.9917303 -0.0569183 0.0082697 0.0569183
2914000000 0.0083461 0.0573693 0.9916539 -0.0573693 0.9916539 -0.0573693 0.0083461 0.0573693
2935000000 0.0084231 0.0578208 0.9915769 -0.0578208 0.9915769 -0.0578208 0.0084231 0.0578208
2956000000 0.0085006 0.0582728 0.9914994 -0.0582728 0.9914994 -0.0582728 0.0085006 0.0582728
2977000000 0.0085788 0.0587253 0.9914212 -0.0587253 0.9914212 -0.0587253 0.0085788 0.0587253
2998000000 0.0086575 0.0591782 0.9913425 -0.0591782 0.9913425 -0.0591782 0.0086575 0.0591782
3019000000 0.0087367 0.0596318 0.9912633 -0.0596318 0.9912633 -0.0596318 0.0087367 0.0596318
3040000000 0.0088166 0.0600859 0.9911834 -0.0600859 0.9911834 -0.0600859 0.0088166 0.0600859
3061000000 0.0088969 0.0605406 0.9911031 -0.0605406 0.9911031 -0.0605406 0.0088969 0.0605406
3082000000 0.0089779 0.0609959 0.9910221 -0.0609959 0.9910221 -0.0609959 0.0089779 0.0609959
3103000000 0.0090594 0.0614518 0.9909406 -0.0614518 0.9909406 -0.0614518 0.0090594 0.0614518
3124000000 0.0091414 0.0619085 0.9908586 -0.0619085 0.9908586 -0.0619085 0.0091414 0.0619085
3145000000 0.0092240 0.0623658 0.9907760 -0.0623658 0.9907760 -0.0623658 0.0092240 0.0623658
3166000000 0.0093071 0.0628238 0.9906929 -0.0628238 0.9906929 -0.0628238 0.0093071 0.0628238
3187000000 0.0093908 0.0632825 0.9906092 -0.0632825 0.9906092 -0.0632825 0.0093908 0.0632825
3208000000 0.0094751 0.0637420 0.9905249 -0.0637420 0.9905249 -0.0637420 0.0094751 0.0637420
3229000000 0.0095599 0.0642023 0.9904401 -0.0642023 0.9904401 -0.0642023 0.0095599 0.0642023
3250000000 0.0096452 0.0646634 0.9903548 -0.0646634 0.9903548 -0.0646634 0.0096452 0.0646634
3271000000 0.0097312 0.0651253 0.9902688 -0.0651253 0.9902688 -0.0651253 0.0097312 0.0651253
3292000000 0.0098177 0.0655880 0.9901823 -0.0655880 0.9901823 -0.0655880 0.0098177 0.0655880
3313000000 0.0099048 0.0660517 0.9900952 -0.0660517 0.9900952 -0.0660517 0.0099048 0.0660517
3334000000 0.0099924 0.0665162 0.9900076 -0.0665162 0.9900076 -0.0665162 0.0099924 0.0665162
3355000000 0.0100807 0.0669817 0.9899193 -0.0669817 0.9899193 -0.0669817 0.0100807 0.0669817
3376000000 0.0101695 0.0674482 0.9898305 -0.0674482 0.9898305 -0.0674482 0.0101695 0.0674482
3397000000 0.0102590 0.0679156 0.9897410 -0.0679156 0.9897410 -0.0679156 0.0102590 0.0679156
3418000000 0.0103490 0.0683840 0.9896510 -0.0683840 0.9896510 -0.0683840 0.0103490 0.0683840
3439000000 0.0104397 0.0688535 0.9895603 -0.0688535 0.9895603 -0.0688535 0.0104397 0.0688535
3460000000 0.0105310 0.0693240 0.9894690 -0.0693240 0.9894690 -0.0693240 0.0105310 0.0693240
3481000000 0.0106230 0.0697956 0.9893770 -0.0697956 0.9893770 -0.0697956 0.0106230 0.0697956
3502000000 0.0107156 0.0702684 0.9892844 -0.0702684 0.9892844 -0.0702684 0.0107156 0.0702684
3523000000 0.0108089 0.0707423 0.9891911 -0.0707423 0.9891911 -0.0707423 0.0108089 0.0707423
3544000000 0.0109029 0.0712173 0.9890971 -0.0712173 0.9890971 -0.0712173 0.0109029 0.0712173
3565000000 0.0109976 0.0716936 0.9890024 -0.0716936 0.9890024 -0.0716936 0.0109976 0.0716936
3586000000 0.0110930 0.0721711 0.9889070 -0.0721711 0.9889070 -0.0721711 0.0110930 0.0721711
3607000000 0.0111891 0.0726499 0.9888109 -0.0726499 0.9888109 -0.0726499 0.0111891 0.0726499
3628000000 0.0112860 0.0731299 0.9887140 -0.0731299 0.9887140 -0.0731299 0.0112860 0.0731299
3649000000 0.0113836 0.0736113 0.9886164 -0.0736113 0.9886164 -0.0736113 0.0113836 0.0736113
3670000000 0.0114820 0.0740941 0.9885180 -0.0740941 0.9885180 -0.0740941 0.0114820 0.0740941
3691000000 0.0115812 0.0745783 0.9884188 -0.0745783 0.9884188 -0.0745783 0.0115812 0.0745783
3712000000 0.0116813 0.0750639 0.9883187 -0.0750639 0.9883187 -0.0750639 0.0116813 0.0750639
3733000000 0.0117822 0.0755509 0.9882178 -0.0755509 0.9882178 -0.0755509 0.0117822 0.0755509
3754000000 0.0118840 0.0760395 0.9881160 -0.0760395 0.9881160 -0.0760395 0.0118840 0.0760395
3775000000 0.0119868 0.0765296 0.9880132 -0.0765296 0.9880132 -0.0765296 0.0119868 0.0765296
3796000000 0.0120904 0.0770213 0.9879096 -0.0770213 0.9879096 -0.0770213 0.0120904 0.0770213
3817000000 0.0121951 0.0775147 0.9878049 -0.0775147 0.9878049 -0.0775147 0.0121951 0.0775147
3838000000 0.0123007 0.0780097 0.9876993 -0.0780097 0.9876993 -0.0780097 0.0123007 0.0780097
3859000000 0.0124074 0.0785064 0.9875926 -0.0785064 0.9875926 -0.0785064 0.0124074 0.0785064
3880000000 0.0125152 0.0790049 0.9874848 -0.0790049 0.9874848 -0.0790049 0.0125152 0.0790049
3901000000 0.0126241 0.0795052 0.9873759 -0.0795052 0.9873759 -0.0795052 0.0126241 0.0795052
3922000000 0.0127342 0.0800073 0.9872658 -0.0800073 0.9872658 -0.0800073 0.0127342 0.0800073
3943000000 0.0128456 0.0805114 0.9871544 -0.0805114 0.9871544 -0.0805114 0.0128456 0.0805114
3964000000 0.0129582 0.0810174 0.9870418 -0.0810174 0.9870418 -0.0810174 0.0129582 0.0810174
3985000000 0.0130722 0.0815254 0.9869278 -0.0815254 0.9869278 -0.0815254 0.0130722 0.0815254
4006000000 0.0131877 0.0820355 0.9868123 -0.0820355 0.9868123 -0.0820355 0.0131877 0.0820355
4027000000 0.0133046 0.0825478 0.9866954 -0.0825478 0.9866954 -0.0825478 0.0133046 0.0825478
4048000000 0.0134231 0.0830622 0.9865769 -0.0830622 0.9865769 -0.0830622 0.0134231 0.0830622
4069000000 0.0135433 0.0835790 0.9864567 -0.0835790 0.9864567 -0.0835790 0.0135433 0.0835790
4090000000 0.0136652 0.0840981 0.9863348 -0.0840981 0.9863348 -0.0840981 0.0136652 0.0840981
4111000000 0.0137890 0.0846195 0.9862110 -0.0846195 0.9862110 -0.0846195 0.0137890 0.0846195
4132000000 0.0139149 0.0851435 0.9860851 -0.0851435 0.9860851 -0.0851435 0.0139149 0.0851435
4153000000 0.0140429 0.0856701 0.9859571 -0.0856701 0.9859571 -0.0856701 0.0140429 0.0856701
4174000000 0.0141731 0.0861993 0.9858269 -0.0861993 0.9858269 -0.0861993 0.0141731 0.0861993
4195000000 0.0143058 0.0867312 0.9856942 -0.0867312 0.9856942 -0.0867312 0.0143058 0.0867312
4216000000 0.0144412 0.0872660 0.9855588 -0.0872660 0.9855588 -0.0872660 0.0144412 0.0872660
4237000000 0.0145794 0.0878036 0.9854206 -0.0878036 0.9854206 -0.0878036 0.0145794 0.0878036
4258000000 0.0147207 0.0883443 0.9852793 -0.0883443 0.9852793 -0.0883443 0.0147207 0.0883443
4279000000 0.0148654 0.0888881 0.9851346 -0.0888881 0.9851346 -0.0888881 0.0148654 0.0888881
4300000000 0.0150137 0.0894351 0.9849863 -0.0894351 0.9849863 -0.0894351 0.0150137 0.0894351
4321000000 0.0151661 0.0899854 0.9848339 -0.0899854 0.9848339 -0.0899854 0.0151661 0.0899854
4342000000 0.0153228 0.0905390 0.9846772 -0.0905390 0.9846772 -0.0905390 0.0153228 0.0905390
4363000000 0.0154844 0.0910961 0.9845156 -0.0910961 0.9845156 -0.0910961 0.0154844 0.0910961
4384000000 0.0156514 0.0916567 0.9843486 -0.0916567 0.9843486 -0.0916567 0.0156514 0.0916567
4405000000 0.0158243 0.0922208 0.9841757 -0.0922208 0.9841757 -0.0922208 0.0158243 0.0922208
4426000000 0.0160038 0.0927885 0.9839962 -0.0927885 0.9839962 -0.0927885 0.0160038 0.0927885
4447000000 0.0161908 0.0933597 0.9838092 -0.0933597 0.9838092 -0.0933597 0.0161908 0.0933597
4468000000 0.0163860 0.0939344 0.9836140 -0.0939344 0.9836140 -0.0939344 0.0163860 0.0939344
4489000000 0.0165906 0.0945122 0.9834094 -0.0945122 0.9834094 -0.0945122 0.0165906 0.0945122
4510000000 0.0168057 0.0950931 0.9831943 -0.0950931 0.9831943 -0.0950931 0.0168057 0.0950931
