!Murata Part Number: GRM1555C1H8R6CA01
!These Parameters are Measured in Series Mode Connection
!Data Generated on Mar 30, 2021
!       o--ll--o
!Port1            Port2
!       o------o
!Operation Temp=25[degC], DC Bias Voltage=0[V]
!Freq. Start=100[MHz] Stop=9[GHz] 401[Steps]
# Hz S RI R 50
!Freq.(Hz) S11(Real) S11(Imag) S21(Real) S21(Imag) S12(Real) S12(Imag) S22(Real) S22(Imag)
100000000 0.7733797 -0.4181247 0.2266203 0.4181247 0.2266203 0.4181247 0.7733797 -0.4181247
121000000 0.6996200 -0.4577930 0.3003800 0.4577930 0.3003800 0.4577930 0.6996200 -0.4577930
142000000 0.6282009 -0.4825442 0.3717991 0.4825442 0.3717991 0.4825442 0.6282009 -0.4825442
163000000 0.5615872 -0.4953403 0.4384128 0.4953403 0.4384128 0.4953403 0.5615872 -0.4953403
184000000 0.5010093 -0.4990347 0.4989907 0.4990347 0.4989907 0.4990347 0.5010093 -0.4990347
205000000 0.4468386 -0.4960888 0.5531614 0.4960888 0.5531614 0.4960888 0.4468386 -0.4960888
226000000 0.3989153 -0.4884845 0.6010847 0.4884845 0.6010847 0.4884845 0.3989153 -0.4884845
247000000 0.3567910 -0.4777469 0.6432090 0.4777469 0.6432090 0.4777469 0.3567910 -0.4777469
268000000 0.3198883 -0.4650118 0.6801117 0.4650118 0.6801117 0.4650118 0.3198883 -0.4650118
289000000 0.2875990 -0.4511050 0.7124010 0.4511050 0.7124010 0.4511050 0.2875990 -0.4511050
310000000 0.2593376 -0.4366148 0.7406624 0.4366148 0.7406624 0.4366148 0.2593376 -0.4366148
331000000 0.2345679 -0.4219525 0.7654321 0.4219525 0.7654321 0.4219525 0.2345679 -0.4219525
352000000 0.2128137 -0.4074000 0.7871863 0.4074000 0.7871863 0.4074000 0.2128137 -0.4074000
373000000 0.1936591 -0.3931453 0.8063409 0.3931453 0.8063409 0.3931453 0.1936591 -0.3931453
394000000 0.1767457 -0.3793096 0.8232543 0.3793096 0.8232543 0.3793096 0.1767457 -0.3793096
415000000 0.1617662 -0.3659665 0.8382338 0.3659665 0.8382338 0.3659665 0.1617662 -0.3659665
436000000 0.1484585 -0.3531564 0.8515415 0.3531564 0.8515415 0.3531564 0.1484585 -0.3531564
457000000 0.1365991 -0.3408964 0.8634009 0.3408964 0.8634009 0.3408964 0.1365991 -0.3408964
478000000 0.1259978 -0.3291879 0.8740022 0.3291879 0.8740022 0.3291879 0.1259978 -0.3291879
499000000 0.1164924 -0.3180215 0.8835076 0.3180215 0.8835076 0.3180215 0.1164924 -0.3180215
520000000 0.1079443 -0.3073811 0.8920557 0.3073811 0.8920557 0.3073811 0.1079443 -0.3073811
541000000 0.1002351 -0.2972458 0.8997649 0.2972458 0.8997649 0.2972458 0.1002351 -0.2972458
562000000 0.0932633 -0.2875927 0.9067367 0.2875927 0.9067367 0.2875927 0.0932633 -0.2875927
583000000 0.0869414 -0.2783974 0.9130586 0.2783974 0.9130586 0.2783974 0.0869414 -0.2783974
604000000 0.0811942 -0.2696354 0.9188058 0.2696354 0.9188058 0.2696354 0.0811942 -0.2696354
625000000 0.0759566 -0.2612822 0.9240434 0.2612822 0.9240434 0.2612822 0.0759566 -0.2612822
646000000 0.0711722 -0.2533142 0.9288278 0.2533142 0.9288278 0.2533142 0.0711722 -0.2533142
667000000 0.0667919 -0.2457087 0.9332081 0.2457087 0.9332081 0.2457087 0.0667919 -0.2457087
688000000 0.0627730 -0.2384440 0.9372270 0.2384440 0.9372270 0.2384440 0.0627730 -0.2384440
709000000 0.0590780 -0.2314997 0.9409220 0.2314997 0.9409220 0.2314997 0.0590780 -0.2314997
730000000 0.0556741 -0.2248565 0.9443259 0.2248565 0.9443259 0.2248565 0.0556741 -0.2248565
751000000 0.0525325 -0.2184961 0.9474675 0.2184961 0.9474675 0.2184961 0.0525325 -0.2184961
772000000 0.0496278 -0.2124018 0.9503722 0.2124018 0.9503722 0.2124018 0.0496278 -0.2124018
793000000 0.0469375 -0.2065575 0.9530625 0.2065575 0.9530625 0.2065575 0.0469375 -0.2065575
814000000 0.0444416 -0.2009486 0.9555584 0.2009486 0.9555584 0.2009486 0.0444416 -0.2009486
835000000 0.0421225 -0.1955612 0.9578775 0.1955612 0.9578775 0.1955612 0.0421225 -0.1955612
856000000 0.0399644 -0.1903824 0.9600356 0.1903824 0.9600356 0.1903824 0.0399644 -0.1903824
877000000 0.0379533 -0.1854002 0.9620467 0.1854002 0.9620467 0.1854002 0.0379533 -0.1854002
898000000 0.0360765 -0.1806035 0.9639235 0.1806035 0.9639235 0.1806035 0.0360765 -0.1806035
919000000 0.0343229 -0.1759818 0.9656771 0.1759818 0.9656771 0.1759818 0.0343229 -0.1759818
940000000 0.0326822 -0.1715254 0.9673178 0.1715254 0.9673178 0.1715254 0.0326822 -0.1715254
961000000 0.0311454 -0.1672253 0.9688546 0.1672253 0.9688546 0.1672253 0.0311454 -0.1672253
982000000 0.0297041 -0.1630729 0.9702959 0.1630729 0.9702959 0.1630729 0.0297041 -0.1630729
1003000000 0.0283511 -0.1590605 0.9716489 0.1590605 0.9716489 0.1590605 0.0283511 -0.1590605
1024000000 0.0270796 -0.1551805 0.9729204 0.1551805 0.9729204 0.1551805 0.0270796 -0.1551805
1045000000 0.0258834 -0.1514262 0.9741166 0.1514262 0.9741166 0.1514262 0.0258834 -0.1514262
1066000000 0.0247570 -0.1477911 0.9752430 0.1477911 0.9752430 0.1477911 0.0247570 -0.1477911
1087000000 0.0236954 -0.1442691 0.9763046 0.1442691 0.9763046 0.1442691 0.0236954 -0.1442691
1108000000 0.0226940 -0.1408546 0.9773060 0.1408546 0.9773060 0.1408546 0.0226940 -0.1408546
1129000000 0.0217486 -0.1375422 0.9782514 0.1375422 0.9782514 0.1375422 0.0217486 -0.1375422
1150000000 0.0208553 -0.1343272 0.9791447 0.1343272 0.9791447 0.1343272 0.0208553 -0.1343272
1171000000 0.0200106 -0.1312046 0.9799894 0.1312046 0.9799894 0.1312046 0.0200106 -0.1312046
1192000000 0.0192112 -0.1281703 0.9807888 0.1281703 0.9807888 0.1281703 0.0192112 -0.1281703
1213000000 0.0184544 -0.1252201 0.9815456 0.1252201 0.9815456 0.1252201 0.0184544 -0.1252201
1234000000 0.0177372 -0.1223500 0.9822628 0.1223500 0.9822628 0.1223500 0.0177372 -0.1223500
1255000000 0.0170572 -0.1195565 0.9829428 0.1195565 0.9829428 0.1195565 0.0170572 -0.1195565
1276000000 0.0164121 -0.1168361 0.9835879 0.1168361 0.9835879 0.1168361 0.0164121 -0.1168361
1297000000 0.0157997 -0.1141856 0.9842003 0.1141856 0.9842003 0.1141856 0.0157997 -0.1141856
1318000000 0.0152181 -0.1116019 0.9847819 0.1116019 0.9847819 0.1116019 0.0152181 -0.1116019
1339000000 0.0146654 -0.1090822 0.9853346 0.1090822 0.9853346 0.1090822 0.0146654 -0.1090822
1360000000 0.0141400 -0.1066236 0.9858600 0.1066236 0.9858600 0.1066236 0.0141400 -0.1066236
1381000000 0.0136403 -0.1042238 0.9863597 0.1042238 0.9863597 0.1042238 0.0136403 -0.1042238
1402000000 0.0131648 -0.1018801 0.9868352 0.1018801 0.9868352 0.1018801 0.0131648 -0.1018801
1423000000 0.0127122 -0.0995904 0.9872878 0.0995904 0.9872878 0.0995904 0.0127122 -0.0995904
1444000000 0.0122812 -0.0973524 0.9877188 0.0973524 0.9877188 0.0973524 0.0122812 -0.0973524
1465000000 0.0118706 -0.0951640 0.9881294 0.0951640 0.9881294 0.0951640 0.0118706 -0.0951640
1486000000 0.0114794 -0.0930233 0.9885206 0.0930233 0.9885206 0.0930233 0.0114794 -0.0930233
1507000000 0.0111065 -0.0909285 0.9888935 0.0909285 0.9888935 0.0909285 0.0111065 -0.0909285
1528000000 0.0107509 -0.0888777 0.9892491 0.0888777 0.9892491 0.0888777 0.0107509 -0.0888777
1549000000 0.0104118 -0.0868694 0.9895882 0.0868694 0.9895882 0.0868694 0.0104118 -0.0868694
1570000000 0.0100884 -0.0849018 0.9899116 0.0849018 0.9899116 0.0849018 0.0100884 -0.0849018
1591000000 0.0097798 -0.0829734 0.9902202 0.0829734 0.9902202 0.0829734 0.0097798 -0.0829734
1612000000 0.0094853 -0.0810829 0.9905147 0.0810829 0.9905147 0.0810829 0.0094853 -0.0810829
1633000000 0.0092043 -0.0792289 0.9907957 0.0792289 0.9907957 0.0792289 0.0092043 -0.0792289
1654000000 0.0089361 -0.0774100 0.9910639 0.0774100 0.9910639 0.0774100 0.0089361 -0.0774100
1675000000 0.0086801 -0.0756249 0.9913199 0.0756249 0.9913199 0.0756249 0.0086801 -0.0756249
1696000000 0.0084356 -0.0738726 0.9915644 0.0738726 0.9915644 0.0738726 0.0084356 -0.0738726
1717000000 0.0082023 -0.0721518 0.9917977 0.0721518 0.9917977 0.0721518 0.0082023 -0.0721518
1738000000 0.0079795 -0.0704615 0.9920205 0.0704615 0.9920205 0.0704615 0.0079795 -0.0704615
1759000000 0.0077668 -0.0688006 0.9922332 0.0688006 0.9922332 0.0688006 0.0077668 -0.0688006
1780000000 0.0075638 -0.0671681 0.9924362 0.0671681 0.9924362 0.0671681 0.0075638 -0.0671681
1801000000 0.0073700 -0.0655631 0.9926300 0.0655631 0.9926300 0.0655631 0.0073700 -0.0655631
1822000000 0.0071851 -0.0639847 0.9928149 0.0639847 0.9928149 0.0639847 0.0071851 -0.0639847
1843000000 0.0070085 -0.0624320 0.9929915 0.0624320 0.9929915 0.0624320 0.0070085 -0.0624320
1864000000 0.0068401 -0.0609042 0.9931599 0.0609042 0.9931599 0.0609042 0.0068401 -0.0609042
1885000000 0.0066794 -0.0594005 0.9933206 0.0594005 0.9933206 0.0594005 0.0066794 -0.0594005
1906000000 0.0065262 -0.0579201 0.9934738 0.0579201 0.9934738 0.0579201 0.0065262 -0.0579201
1927000000 0.0063801 -0.0564623 0.9936199 0.0564623 0.9936199 0.0564623 0.0063801 -0.0564623
1948000000 0.0062409 -0.0550263 0.9937591 0.0550263 0.9937591 0.0550263 0.0062409 -0.0550263
1969000000 0.0061082 -0.0536116 0.9938918 0.0536116 0.9938918 0.0536116 0.0061082 -0.0536116
1990000000 0.0059818 -0.0522174 0.9940182 0.0522174 0.9940182 0.0522174 0.0059818 -0.0522174
2011000000 0.0058615 -0.0508431 0.9941385 0.0508431 0.9941385 0.0508431 0.0058615 -0.0508431
2032000000 0.0057471 -0.0494882 0.9942529 0.0494882 0.9942529 0.0494882 0.0057471 -0.0494882
2053000000 0.0056382 -0.0481521 0.9943618 0.0481521 0.9943618 0.0481521 0.0056382 -0.0481521
2074000000 0.0055348 -0.0468342 0.9944652 0.0468342 0.9944652 0.0468342 0.0055348 -0.0468342
2095000000 0.0054366 -0.0455339 0.9945634 0.0455339 0.9945634 0.0455339 0.0054366 -0.0455339
2116000000 0.0053433 -0.0442509 0.9946567 0.0442509 0.9946567 0.0442509 0.0053433 -0.0442509
2137000000 0.0052550 -0.0429845 0.9947450 0.0429845 0.9947450 0.0429845 0.0052550 -0.0429845
2158000000 0.0051713 -0.0417343 0.9948287 0.0417343 0.9948287 0.0417343 0.0051713 -0.0417343
2179000000 0.0050921 -0.0404998 0.9949079 0.0404998 0.9949079 0.0404998 0.0050921 -0.0404998
2200000000 0.0050172 -0.0392807 0.9949828 0.0392807 0.9949828 0.0392807 0.0050172 -0.0392807
2221000000 0.0049465 -0.0380764 0.9950535 0.0380764 0.9950535 0.0380764 0.0049465 -0.0380764
2242000000 0.0048799 -0.0368867 0.9951201 0.0368867 0.9951201 0.0368867 0.0048799 -0.0368867
2263000000 0.0048172 -0.0357110 0.9951828 0.0357110 0.9951828 0.0357110 0.0048172 -0.0357110
2284000000 0.0047583 -0.0345489 0.9952417 0.0345489 0.9952417 0.0345489 0.0047583 -0.0345489
2305000000 0.0047030 -0.0334003 0.9952970 0.0334003 0.9952970 0.0334003 0.0047030 -0.0334003
2326000000 0.0046513 -0.0322646 0.9953487 0.0322646 0.9953487 0.0322646 0.0046513 -0.0322646
2347000000 0.0046031 -0.0311415 0.9953969 0.0311415 0.9953969 0.0311415 0.0046031 -0.0311415
2368000000 0.0045581 -0.0300307 0.9954419 0.0300307 0.9954419 0.0300307 0.0045581 -0.0300307
2389000000 0.0045164 -0.0289319 0.9954836 0.0289319 0.9954836 0.0289319 0.0045164 -0.0289319
2410000000 0.0044778 -0.0278448 0.9955222 0.0278448 0.9955222 0.0278448 0.0044778 -0.0278448
2431000000 0.0044422 -0.0267691 0.9955578 0.0267691 0.9955578 0.0267691 0.0044422 -0.0267691
2452000000 0.0044095 -0.0257044 0.9955905 0.0257044 0.9955905 0.0257044 0.0044095 -0.0257044
2473000000 0.0043798 -0.0246505 0.9956202 0.0246505 0.9956202 0.0246505 0.0043798 -0.0246505
2494000000 0.0043527 -0.0236072 0.9956473 0.0236072 0.9956473 0.0236072 0.0043527 -0.0236072
2515000000 0.0043284 -0.0225741 0.9956716 0.0225741 0.9956716 0.0225741 0.0043284 -0.0225741
2536000000 0.0043067 -0.0215510 0.9956933 0.0215510 0.9956933 0.0215510 0.0043067 -0.0215510
2557000000 0.0042875 -0.0205377 0.9957125 0.0205377 0.9957125 0.0205377 0.0042875 -0.0205377
2578000000 0.0042708 -0.0195339 0.9957292 0.0195339 0.9957292 0.0195339 0.0042708 -0.0195339
2599000000 0.0042564 -0.0185394 0.9957436 0.0185394 0.9957436 0.0185394 0.0042564 -0.0185394
2620000000 0.0042445 -0.0175539 0.9957555 0.0175539 0.9957555 0.0175539 0.0042445 -0.0175539
2641000000 0.0042348 -0.0165773 0.9957652 0.0165773 0.9957652 0.0165773 0.0042348 -0.0165773
2662000000 0.0042273 -0.0156094 0.9957727 0.0156094 0.9957727 0.0156094 0.0042273 -0.0156094
2683000000 0.0042220 -0.0146498 0.9957780 0.0146498 0.9957780 0.0146498 0.0042220 -0.0146498
2704000000 0.0042188 -0.0136985 0.9957812 0.0136985 0.9957812 0.0136985 0.0042188 -0.0136985
2725000000 0.0042176 -0.0127553 0.9957824 0.0127553 0.9957824 0.0127553 0.0042176 -0.0127553
2746000000 0.0042185 -0.0118198 0.9957815 0.0118198 0.9957815 0.0118198 0.0042185 -0.0118198
2767000000 0.0042213 -0.0108921 0.9957787 0.0108921 0.9957787 0.0108921 0.0042213 -0.0108921
2788000000 0.0042260 -0.0099718 0.9957740 0.0099718 0.9957740 0.0099718 0.0042260 -0.0099718
2809000000 0.0042326 -0.0090589 0.9957674 0.0090589 0.9957674 0.0090589 0.0042326 -0.0090589
2830000000 0.0042410 -0.0081531 0.9957590 0.0081531 0.9957590 0.0081531 0.0042410 -0.0081531
2851000000 0.0042512 -0.0072542 0.9957488 0.0072542 0.9957488 0.0072542 0.0042512 -0.0072542
2872000000 0.0042631 -0.0063622 0.9957369 0.0063622 0.9957369 0.0063622 0.0042631 -0.0063622
2893000000 0.0042767 -0.0054769 0.9957233 0.0054769 0.9957233 0.0054769 0.0042767 -0.0054769
2914000000 0.0042920 -0.0045981 0.9957080 0.0045981 0.9957080 0.0045981 0.0042920 -0.0045981
2935000000 0.0043090 -0.0037256 0.9956910 0.0037256 0.9956910 0.0037256 0.0043090 -0.0037256
2956000000 0.0043275 -0.0028594 0.9956725 0.0028594 0.9956725 0.0028594 0.0043275 -0.0028594
2977000000 0.0043477 -0.0019993 0.9956523 0.0019993 0.9956523 0.0019993 0.0043477 -0.0019993
2998000000 0.0043693 -0.0011452 0.9956307 0.0011452 0.9956307 0.0011452 0.0043693 -0.0011452
3019000000 0.0043925 -0.0002968 0.9956075 0.0002968 0.9956075 0.0002968 0.0043925 -0.0002968
3040000000 0.0044172 0.0005458 0.9955828 -0.0005458 0.9955828 -0.0005458 0.0044172 0.0005458
3061000000 0.0044433 0.0013829 0.9955567 -0.0013829 0.9955567 -0.0013829 0.0044433 0.0013829
3082000000 0.0044709 0.0022145 0.9955291 -0.0022145 0.9955291 -0.0022145 0.0044709 0.0022145
3103000000 0.0044998 0.0030408 0.9955002 -0.0030408 0.9955002 -0.0030408 0.0044998 0.0030408
3124000000 0.0045302 0.0038619 0.9954698 -0.0038619 0.9954698 -0.0038619 0.0045302 0.0038619
3145000000 0.0045619 0.0046779 0.9954381 -0.0046779 0.9954381 -0.0046779 0.0045619 0.0046779
3166000000 0.0045950 0.0054889 0.9954050 -0.0054889 0.9954050 -0.0054889 0.0045950 0.0054889
3187000000 0.0046293 0.0062950 0.9953707 -0.0062950 0.9953707 -0.0062950 0.0046293 0.0062950
3208000000 0.0046650 0.0070963 0.9953350 -0.0070963 0.9953350 -0.0070963 0.0046650 0.0070963
3229000000 0.0047020 0.0078930 0.9952980 -0.0078930 0.9952980 -0.0078930 0.0047020 0.0078930
3250000000 0.0047402 0.0086851 0.9952598 -0.0086851 0.9952598 -0.0086851 0.0047402 0.0086851
3271000000 0.0047797 0.0094727 0.9952203 -0.0094727 0.9952203 -0.0094727 0.0047797 0.0094727
3292000000 0.0048204 0.0102560 0.9951796 -0.0102560 0.9951796 -0.0102560 0.0048204 0.0102560
3313000000 0.0048623 0.0110349 0.9951377 -0.0110349 0.9951377 -0.0110349 0.0048623 0.0110349
3334000000 0.0049054 0.0118097 0.9950946 -0.0118097 0.9950946 -0.0118097 0.0049054 0.0118097
3355000000 0.0049497 0.0125804 0.9950503 -0.0125804 0.9950503 -0.0125804 0.0049497 0.0125804
3376000000 0.0049952 0.0133470 0.9950048 -0.0133470 0.9950048 -0.0133470 0.0049952 0.0133470
3397000000 0.0050418 0.0141098 0.9949582 -0.0141098 0.9949582 -0.0141098 0.0050418 0.0141098
3418000000 0.0050896 0.0148687 0.9949104 -0.0148687 0.9949104 -0.0148687 0.0050896 0.0148687
3439000000 0.0051386 0.0156238 0.9948614 -0.0156238 0.9948614 -0.0156238 0.0051386 0.0156238
3460000000 0.0051887 0.0163753 0.9948113 -0.0163753 0.9948113 -0.0163753 0.0051887 0.0163753
3481000000 0.0052399 0.0171231 0.9947601 -0.0171231 0.9947601 -0.0171231 0.0052399 0.0171231
3502000000 0.0052922 0.0178675 0.9947078 -0.0178675 0.9947078 -0.0178675 0.0052922 0.0178675
3523000000 0.0053456 0.0186084 0.9946544 -0.0186084 0.9946544 -0.0186084 0.0053456 0.0186084
3544000000 0.0054001 0.0193459 0.9945999 -0.0193459 0.9945999 -0.0193459 0.0054001 0.0193459
3565000000 0.0054557 0.0200801 0.9945443 -0.0200801 0.9945443 -0.0200801 0.0054557 0.0200801
3586000000 0.0055124 0.0208111 0.9944876 -0.0208111 0.9944876 -0.0208111 0.0055124 0.0208111
3607000000 0.0055702 0.0215389 0.9944298 -0.0215389 0.9944298 -0.0215389 0.0055702 0.0215389
3628000000 0.0056290 0.0222637 0.9943710 -0.0222637 0.9943710 -0.0222637 0.0056290 0.0222637
3649000000 0.0056889 0.0229855 0.9943111 -0.0229855 0.9943111 -0.0229855 0.0056889 0.0229855
3670000000 0.0057499 0.0237043 0.9942501 -0.0237043 0.9942501 -0.0237043 0.0057499 0.0237043
3691000000 0.0058120 0.0244202 0.9941880 -0.0244202 0.9941880 -0.0244202 0.0058120 0.0244202
3712000000 0.0058751 0.0251333 0.9941249 -0.0251333 0.9941249 -0.0251333 0.0058751 0.0251333
3733000000 0.0059393 0.0258436 0.9940607 -0.0258436 0.9940607 -0.0258436 0.0059393 0.0258436
3754000000 0.0060045 0.0265512 0.9939955 -0.0265512 0.9939955 -0.0265512 0.0060045 0.0265512
3775000000 0.0060708 0.0272562 0.9939292 -0.0272562 0.9939292 -0.0272562 0.0060708 0.0272562
3796000000 0.0061382 0.0279587 0.9938618 -0.0279587 0.9938618 -0.0279587 0.0061382 0.0279587
3817000000 0.0062067 0.0286586 0.9937933 -0.0286586 0.9937933 -0.0286586 0.0062067 0.0286586
3838000000 0.0062762 0.0293561 0.9937238 -0.0293561 0.9937238 -0.0293561 0.0062762 0.0293561
3859000000 0.0063468 0.0300512 0.9936532 -0.0300512 0.9936532 -0.0300512 0.0063468 0.0300512
3880000000 0.0064184 0.0307439 0.9935816 -0.0307439 0.9935816 -0.0307439 0.0064184 0.0307439
3901000000 0.0064912 0.0314343 0.9935088 -0.0314343 0.9935088 -0.0314343 0.0064912 0.0314343
3922000000 0.0065650 0.0321226 0.9934350 -0.0321226 0.9934350 -0.0321226 0.0065650 0.0321226
3943000000 0.0066399 0.0328086 0.9933601 -0.0328086 0.9933601 -0.0328086 0.0066399 0.0328086
3964000000 0.0067159 0.0334926 0.9932841 -0.0334926 0.9932841 -0.0334926 0.0067159 0.0334926
3985000000 0.0067931 0.0341744 0.9932069 -0.0341744 0.9932069 -0.0341744 0.0067931 0.0341744
4006000000 0.0068713 0.0348543 0.9931287 -0.0348543 0.9931287 -0.0348543 0.0068713 0.0348543
4027000000 0.0069507 0.0355322 0.9930493 -0.0355322 0.9930493 -0.0355322 0.0069507 0.0355322
4048000000 0.0070312 0.0362082 0.9929688 -0.0362082 0.9929688 -0.0362082 0.0070312 0.0362082
4069000000 0.0071128 0.0368823 0.9928872 -0.0368823 0.9928872 -0.0368823 0.0071128 0.0368823
4090000000 0.0071957 0.0375547 0.9928043 -0.0375547 0.9928043 -0.0375547 0.0071957 0.0375547
4111000000 0.0072797 0.0382252 0.9927203 -0.0382252 0.9927203 -0.0382252 0.0072797 0.0382252
4132000000 0.0073648 0.0388941 0.9926352 -0.0388941 0.9926352 -0.0388941 0.0073648 0.0388941
4153000000 0.0074512 0.0395613 0.9925488 -0.0395613 0.9925488 -0.0395613 0.0074512 0.0395613
4174000000 0.0075388 0.0402269 0.9924612 -0.0402269 0.9924612 -0.0402269 0.0075388 0.0402269
4195000000 0.0076277 0.0408909 0.9923723 -0.0408909 0.9923723 -0.0408909 0.0076277 0.0408909
4216000000 0.0077178 0.0415534 0.9922822 -0.0415534 0.9922822 -0.0415534 0.0077178 0.0415534
4237000000 0.0078092 0.0422144 0.9921908 -0.0422144 0.9921908 -0.0422144 0.0078092 0.0422144
4258000000 0.0079020 0.0428740 0.9920980 -0.0428740 0.9920980 -0.0428740 0.0079020 0.0428740
4279000000 0.0079960 0.0435322 0.9920040 -0.0435322 0.9920040 -0.0435322 0.0079960 0.0435322
4300000000 0.0080914 0.0441891 0.9919086 -0.0441891 0.9919086 -0.0441891 0.0080914 0.0441891
4321000000 0.0081882 0.0448447 0.9918118 -0.0448447 0.9918118 -0.0448447 0.0081882 0.0448447
4342000000 0.0082865 0.0454991 0.9917135 -0.0454991 0.9917135 -0.0454991 0.0082865 0.0454991
4363000000 0.0083861 0.0461522 0.9916139 -0.0461522 0.9916139 -0.0461522 0.0083861 0.0461522
4384000000 0.0084873 0.0468042 0.9915127 -0.0468042 0.9915127 -0.0468042 0.0084873 0.0468042
4405000000 0.0085900 0.0474551 0.9914100 -0.0474551 0.9914100 -0.0474551 0.0085900 0.0474551
4426000000 0.0086943 0.0481049 0.9913057 -0.0481049 0.9913057 -0.0481049 0.0086943 0.0481049
4447000000 0.0088001 0.0487537 0.9911999 -0.0487537 0.9911999 -0.0487537 0.0088001 0.0487537
4468000000 0.0089076 0.0494015 0.9910924 -0.0494015 0.9910924 -0.0494015 0.0089076 0.0494015
4489000000 0.0090169 0.0500483 0.9909831 -0.0500483 0.9909831 -0.0500483 0.0090169 0.0500483
4510000000 0.0091278 0.0506942 0.9908722 -0.0506942 0.9908722 -0.0506942 0.0091278 0.0506942
