!Murata Part Number: GRM1555C2A7R5WA01
!These Parameters are Measured in Series Mode Connection
!Data Generated on Mar 30, 2021
!       o--ll--o
!Port1            Port2
!       o------o
!Operation Temp=25[degC], DC Bias Voltage=0[V]
!Freq. Start=100[MHz] Stop=9[GHz] 401[Steps]
# Hz S RI R 50
!Freq.(Hz) S11(Real) S11(Imag) S21(Real) S21(Imag) S12(Real) S12(Imag) S22(Real) S22(Imag)
100000000 0.8177835 -0.3855555 0.1822165 0.3855555 0.1822165 0.3855555 0.8177835 -0.3855555
121000000 0.7538981 -0.4301726 0.2461019 0.4301726 0.2461019 0.4301726 0.7538981 -0.4301726
142000000 0.6896889 -0.4619558 0.3103111 0.4619558 0.3103111 0.4619558 0.6896889 -0.4619558
163000000 0.6275973 -0.4826802 0.3724027 0.4826802 0.3724027 0.4826802 0.6275973 -0.4826802
184000000 0.5691866 -0.4943256 0.4308134 0.4943256 0.4308134 0.4943256 0.5691866 -0.4943256
205000000 0.5153060 -0.4988007 0.4846940 0.4988007 0.4846940 0.4988007 0.5153060 -0.4988007
226000000 0.4662835 -0.4977960 0.5337165 0.4977960 0.5337165 0.4977960 0.4662835 -0.4977960
247000000 0.4220986 -0.4927265 0.5779014 0.4927265 0.5779014 0.4927265 0.4220986 -0.4927265
268000000 0.3825190 -0.4847324 0.6174810 0.4847324 0.6174810 0.4847324 0.3825190 -0.4847324
289000000 0.3471979 -0.4747064 0.6528021 0.4747064 0.6528021 0.4747064 0.3471979 -0.4747064
310000000 0.3157394 -0.4633329 0.6842606 0.4633329 0.6842606 0.4633329 0.3157394 -0.4633329
331000000 0.2877398 -0.4511277 0.7122602 0.4511277 0.7122602 0.4511277 0.2877398 -0.4511277
352000000 0.2628118 -0.4384738 0.7371882 0.4384738 0.7371882 0.4384738 0.2628118 -0.4384738
373000000 0.2405963 -0.4256517 0.7594037 0.4256517 0.7594037 0.4256517 0.2405963 -0.4256517
394000000 0.2207689 -0.4128634 0.7792311 0.4128634 0.7792311 0.4128634 0.2207689 -0.4128634
415000000 0.2030404 -0.4002520 0.7969596 0.4002520 0.7969596 0.4002520 0.2030404 -0.4002520
436000000 0.1871558 -0.3879162 0.8128442 0.3879162 0.8128442 0.3879162 0.1871558 -0.3879162
457000000 0.1728917 -0.3759221 0.8271083 0.3759221 0.8271083 0.3759221 0.1728917 -0.3759221
478000000 0.1600532 -0.3643113 0.8399468 0.3643113 0.8399468 0.3643113 0.1600532 -0.3643113
499000000 0.1484704 -0.3531078 0.8515296 0.3531078 0.8515296 0.3531078 0.1484704 -0.3531078
520000000 0.1379960 -0.3423225 0.8620040 0.3423225 0.8620040 0.3423225 0.1379960 -0.3423225
541000000 0.1285015 -0.3319573 0.8714985 0.3319573 0.8714985 0.3319573 0.1285015 -0.3319573
562000000 0.1198753 -0.3220073 0.8801247 0.3220073 0.8801247 0.3220073 0.1198753 -0.3220073
583000000 0.1120202 -0.3124631 0.8879798 0.3124631 0.8879798 0.3124631 0.1120202 -0.3124631
604000000 0.1048515 -0.3033121 0.8951485 0.3033121 0.8951485 0.3033121 0.1048515 -0.3033121
625000000 0.0982951 -0.2945400 0.9017049 0.2945400 0.9017049 0.2945400 0.0982951 -0.2945400
646000000 0.0922861 -0.2861310 0.9077139 0.2861310 0.9077139 0.2861310 0.0922861 -0.2861310
667000000 0.0867679 -0.2780691 0.9132321 0.2780691 0.9132321 0.2780691 0.0867679 -0.2780691
688000000 0.0816904 -0.2703379 0.9183096 0.2703379 0.9183096 0.2703379 0.0816904 -0.2703379
709000000 0.0770096 -0.2629212 0.9229904 0.2629212 0.9229904 0.2629212 0.0770096 -0.2629212
730000000 0.0726868 -0.2558032 0.9273132 0.2558032 0.9273132 0.2558032 0.0726868 -0.2558032
751000000 0.0686876 -0.2489684 0.9313124 0.2489684 0.9313124 0.2489684 0.0686876 -0.2489684
772000000 0.0649817 -0.2424022 0.9350183 0.2424022 0.9350183 0.2424022 0.0649817 -0.2424022
793000000 0.0615419 -0.2360905 0.9384581 0.2360905 0.9384581 0.2360905 0.0615419 -0.2360905
814000000 0.0583441 -0.2300199 0.9416559 0.2300199 0.9416559 0.2300199 0.0583441 -0.2300199
835000000 0.0553671 -0.2241776 0.9446329 0.2241776 0.9446329 0.2241776 0.0553671 -0.2241776
856000000 0.0525914 -0.2185515 0.9474086 0.2185515 0.9474086 0.2185515 0.0525914 -0.2185515
877000000 0.0500000 -0.2131305 0.9500000 0.2131305 0.9500000 0.2131305 0.0500000 -0.2131305
898000000 0.0475775 -0.2079036 0.9524225 0.2079036 0.9524225 0.2079036 0.0475775 -0.2079036
919000000 0.0453099 -0.2028608 0.9546901 0.2028608 0.9546901 0.2028608 0.0453099 -0.2028608
940000000 0.0431847 -0.1979925 0.9568153 0.1979925 0.9568153 0.1979925 0.0431847 -0.1979925
961000000 0.0411906 -0.1932899 0.9588094 0.1932899 0.9588094 0.1932899 0.0411906 -0.1932899
982000000 0.0393175 -0.1887445 0.9606825 0.1887445 0.9606825 0.1887445 0.0393175 -0.1887445
1003000000 0.0375561 -0.1843483 0.9624439 0.1843483 0.9624439 0.1843483 0.0375561 -0.1843483
1024000000 0.0358980 -0.1800940 0.9641020 0.1800940 0.9641020 0.1800940 0.0358980 -0.1800940
1045000000 0.0343356 -0.1759745 0.9656644 0.1759745 0.9656644 0.1759745 0.0343356 -0.1759745
1066000000 0.0328619 -0.1719832 0.9671381 0.1719832 0.9671381 0.1719832 0.0328619 -0.1719832
1087000000 0.0314707 -0.1681139 0.9685293 0.1681139 0.9685293 0.1681139 0.0314707 -0.1681139
1108000000 0.0301561 -0.1643609 0.9698439 0.1643609 0.9698439 0.1643609 0.0301561 -0.1643609
1129000000 0.0289128 -0.1607185 0.9710872 0.1607185 0.9710872 0.1607185 0.0289128 -0.1607185
1150000000 0.0277361 -0.1571816 0.9722639 0.1571816 0.9722639 0.1571816 0.0277361 -0.1571816
1171000000 0.0266214 -0.1537453 0.9733786 0.1537453 0.9733786 0.1537453 0.0266214 -0.1537453
1192000000 0.0255647 -0.1504051 0.9744353 0.1504051 0.9744353 0.1504051 0.0255647 -0.1504051
1213000000 0.0245623 -0.1471566 0.9754377 0.1471566 0.9754377 0.1471566 0.0245623 -0.1471566
1234000000 0.0236106 -0.1439957 0.9763894 0.1439957 0.9763894 0.1439957 0.0236106 -0.1439957
1255000000 0.0227066 -0.1409184 0.9772934 0.1409184 0.9772934 0.1409184 0.0227066 -0.1409184
1276000000 0.0218473 -0.1379213 0.9781527 0.1379213 0.9781527 0.1379213 0.0218473 -0.1379213
1297000000 0.0210299 -0.1350008 0.9789701 0.1350008 0.9789701 0.1350008 0.0210299 -0.1350008
1318000000 0.0202520 -0.1321536 0.9797480 0.1321536 0.9797480 0.1321536 0.0202520 -0.1321536
1339000000 0.0195112 -0.1293766 0.9804888 0.1293766 0.9804888 0.1293766 0.0195112 -0.1293766
1360000000 0.0188054 -0.1266670 0.9811946 0.1266670 0.9811946 0.1266670 0.0188054 -0.1266670
1381000000 0.0181326 -0.1240219 0.9818674 0.1240219 0.9818674 0.1240219 0.0181326 -0.1240219
1402000000 0.0174909 -0.1214387 0.9825091 0.1214387 0.9825091 0.1214387 0.0174909 -0.1214387
1423000000 0.0168786 -0.1189150 0.9831214 0.1189150 0.9831214 0.1189150 0.0168786 -0.1189150
1444000000 0.0162941 -0.1164483 0.9837059 0.1164483 0.9837059 0.1164483 0.0162941 -0.1164483
1465000000 0.0157358 -0.1140363 0.9842642 0.1140363 0.9842642 0.1140363 0.0157358 -0.1140363
1486000000 0.0152024 -0.1116771 0.9847976 0.1116771 0.9847976 0.1116771 0.0152024 -0.1116771
1507000000 0.0146926 -0.1093685 0.9853074 0.1093685 0.9853074 0.1093685 0.0146926 -0.1093685
1528000000 0.0142052 -0.1071085 0.9857948 0.1071085 0.9857948 0.1071085 0.0142052 -0.1071085
1549000000 0.0137389 -0.1048955 0.9862611 0.1048955 0.9862611 0.1048955 0.0137389 -0.1048955
1570000000 0.0132928 -0.1027275 0.9867072 0.1027275 0.9867072 0.1027275 0.0132928 -0.1027275
1591000000 0.0128659 -0.1006030 0.9871341 0.1006030 0.9871341 0.1006030 0.0128659 -0.1006030
1612000000 0.0124571 -0.0985203 0.9875429 0.0985203 0.9875429 0.0985203 0.0124571 -0.0985203
1633000000 0.0120657 -0.0964780 0.9879343 0.0964780 0.9879343 0.0964780 0.0120657 -0.0964780
1654000000 0.0116908 -0.0944745 0.9883092 0.0944745 0.9883092 0.0944745 0.0116908 -0.0944745
1675000000 0.0113316 -0.0925086 0.9886684 0.0925086 0.9886684 0.0925086 0.0113316 -0.0925086
1696000000 0.0109874 -0.0905788 0.9890126 0.0905788 0.9890126 0.0905788 0.0109874 -0.0905788
1717000000 0.0106575 -0.0886840 0.9893425 0.0886840 0.9893425 0.0886840 0.0106575 -0.0886840
1738000000 0.0103413 -0.0868229 0.9896587 0.0868229 0.9896587 0.0868229 0.0103413 -0.0868229
1759000000 0.0100382 -0.0849943 0.9899618 0.0849943 0.9899618 0.0849943 0.0100382 -0.0849943
1780000000 0.0097475 -0.0831973 0.9902525 0.0831973 0.9902525 0.0831973 0.0097475 -0.0831973
1801000000 0.0094687 -0.0814306 0.9905313 0.0814306 0.9905313 0.0814306 0.0094687 -0.0814306
1822000000 0.0092014 -0.0796934 0.9907986 0.0796934 0.9907986 0.0796934 0.0092014 -0.0796934
1843000000 0.0089450 -0.0779846 0.9910550 0.0779846 0.9910550 0.0779846 0.0089450 -0.0779846
1864000000 0.0086991 -0.0763033 0.9913009 0.0763033 0.9913009 0.0763033 0.0086991 -0.0763033
1885000000 0.0084633 -0.0746486 0.9915367 0.0746486 0.9915367 0.0746486 0.0084633 -0.0746486
1906000000 0.0082371 -0.0730197 0.9917629 0.0730197 0.9917629 0.0730197 0.0082371 -0.0730197
1927000000 0.0080202 -0.0714157 0.9919798 0.0714157 0.9919798 0.0714157 0.0080202 -0.0714157
1948000000 0.0078122 -0.0698359 0.9921878 0.0698359 0.9921878 0.0698359 0.0078122 -0.0698359
1969000000 0.0076127 -0.0682795 0.9923873 0.0682795 0.9923873 0.0682795 0.0076127 -0.0682795
1990000000 0.0074215 -0.0667457 0.9925785 0.0667457 0.9925785 0.0667457 0.0074215 -0.0667457
2011000000 0.0072381 -0.0652340 0.9927619 0.0652340 0.9927619 0.0652340 0.0072381 -0.0652340
2032000000 0.0070624 -0.0637435 0.9929376 0.0637435 0.9929376 0.0637435 0.0070624 -0.0637435
2053000000 0.0068940 -0.0622737 0.9931060 0.0622737 0.9931060 0.0622737 0.0068940 -0.0622737
2074000000 0.0067327 -0.0608240 0.9932673 0.0608240 0.9932673 0.0608240 0.0067327 -0.0608240
2095000000 0.0065782 -0.0593937 0.9934218 0.0593937 0.9934218 0.0593937 0.0065782 -0.0593937
2116000000 0.0064302 -0.0579822 0.9935698 0.0579822 0.9935698 0.0579822 0.0064302 -0.0579822
2137000000 0.0062886 -0.0565891 0.9937114 0.0565891 0.9937114 0.0565891 0.0062886 -0.0565891
2158000000 0.0061532 -0.0552137 0.9938468 0.0552137 0.9938468 0.0552137 0.0061532 -0.0552137
2179000000 0.0060236 -0.0538556 0.9939764 0.0538556 0.9939764 0.0538556 0.0060236 -0.0538556
2200000000 0.0058998 -0.0525142 0.9941002 0.0525142 0.9941002 0.0525142 0.0058998 -0.0525142
2221000000 0.0057815 -0.0511891 0.9942185 0.0511891 0.9942185 0.0511891 0.0057815 -0.0511891
2242000000 0.0056686 -0.0498798 0.9943314 0.0498798 0.9943314 0.0498798 0.0056686 -0.0498798
2263000000 0.0055609 -0.0485859 0.9944391 0.0485859 0.9944391 0.0485859 0.0055609 -0.0485859
2284000000 0.0054581 -0.0473069 0.9945419 0.0473069 0.9945419 0.0473069 0.0054581 -0.0473069
2305000000 0.0053603 -0.0460425 0.9946397 0.0460425 0.9946397 0.0460425 0.0053603 -0.0460425
2326000000 0.0052672 -0.0447921 0.9947328 0.0447921 0.9947328 0.0447921 0.0052672 -0.0447921
2347000000 0.0051786 -0.0435555 0.9948214 0.0435555 0.9948214 0.0435555 0.0051786 -0.0435555
2368000000 0.0050945 -0.0423322 0.9949055 0.0423322 0.9949055 0.0423322 0.0050945 -0.0423322
2389000000 0.0050148 -0.0411218 0.9949852 0.0411218 0.9949852 0.0411218 0.0050148 -0.0411218
2410000000 0.0049392 -0.0399241 0.9950608 0.0399241 0.9950608 0.0399241 0.0049392 -0.0399241
2431000000 0.0048677 -0.0387386 0.9951323 0.0387386 0.9951323 0.0387386 0.0048677 -0.0387386
2452000000 0.0048002 -0.0375651 0.9951998 0.0375651 0.9951998 0.0375651 0.0048002 -0.0375651
2473000000 0.0047366 -0.0364032 0.9952634 0.0364032 0.9952634 0.0364032 0.0047366 -0.0364032
2494000000 0.0046767 -0.0352527 0.9953233 0.0352527 0.9953233 0.0352527 0.0046767 -0.0352527
2515000000 0.0046205 -0.0341131 0.9953795 0.0341131 0.9953795 0.0341131 0.0046205 -0.0341131
2536000000 0.0045678 -0.0329842 0.9954322 0.0329842 0.9954322 0.0329842 0.0045678 -0.0329842
2557000000 0.0045187 -0.0318658 0.9954813 0.0318658 0.9954813 0.0318658 0.0045187 -0.0318658
2578000000 0.0044729 -0.0307575 0.9955271 0.0307575 0.9955271 0.0307575 0.0044729 -0.0307575
2599000000 0.0044305 -0.0296591 0.9955695 0.0296591 0.9955695 0.0296591 0.0044305 -0.0296591
2620000000 0.0043913 -0.0285703 0.9956087 0.0285703 0.9956087 0.0285703 0.0043913 -0.0285703
2641000000 0.0043553 -0.0274909 0.9956447 0.0274909 0.9956447 0.0274909 0.0043553 -0.0274909
2662000000 0.0043225 -0.0264206 0.9956775 0.0264206 0.9956775 0.0264206 0.0043225 -0.0264206
2683000000 0.0042926 -0.0253591 0.9957074 0.0253591 0.9957074 0.0253591 0.0042926 -0.0253591
2704000000 0.0042657 -0.0243064 0.9957343 0.0243064 0.9957343 0.0243064 0.0042657 -0.0243064
2725000000 0.0042418 -0.0232620 0.9957582 0.0232620 0.9957582 0.0232620 0.0042418 -0.0232620
2746000000 0.0042207 -0.0222259 0.9957793 0.0222259 0.9957793 0.0222259 0.0042207 -0.0222259
2767000000 0.0042024 -0.0211977 0.9957976 0.0211977 0.9957976 0.0211977 0.0042024 -0.0211977
2788000000 0.0041869 -0.0201774 0.9958131 0.0201774 0.9958131 0.0201774 0.0041869 -0.0201774
2809000000 0.0041740 -0.0191646 0.9958260 0.0191646 0.9958260 0.0191646 0.0041740 -0.0191646
2830000000 0.0041639 -0.0181591 0.9958361 0.0181591 0.9958361 0.0181591 0.0041639 -0.0181591
2851000000 0.0041563 -0.0171609 0.9958437 0.0171609 0.9958437 0.0171609 0.0041563 -0.0171609
2872000000 0.0041513 -0.0161697 0.9958487 0.0161697 0.9958487 0.0161697 0.0041513 -0.0161697
2893000000 0.0041489 -0.0151853 0.9958511 0.0151853 0.9958511 0.0151853 0.0041489 -0.0151853
2914000000 0.0041489 -0.0142075 0.9958511 0.0142075 0.9958511 0.0142075 0.0041489 -0.0142075
2935000000 0.0041514 -0.0132362 0.9958486 0.0132362 0.9958486 0.0132362 0.0041514 -0.0132362
2956000000 0.0041563 -0.0122711 0.9958437 0.0122711 0.9958437 0.0122711 0.0041563 -0.0122711
2977000000 0.0041636 -0.0113122 0.9958364 0.0113122 0.9958364 0.0113122 0.0041636 -0.0113122
2998000000 0.0041732 -0.0103593 0.9958268 0.0103593 0.9958268 0.0103593 0.0041732 -0.0103593
3019000000 0.0041852 -0.0094121 0.9958148 0.0094121 0.9958148 0.0094121 0.0041852 -0.0094121
3040000000 0.0041995 -0.0084707 0.9958005 0.0084707 0.9958005 0.0084707 0.0041995 -0.0084707
3061000000 0.0042161 -0.0075347 0.9957839 0.0075347 0.9957839 0.0075347 0.0042161 -0.0075347
3082000000 0.0042349 -0.0066040 0.9957651 0.0066040 0.9957651 0.0066040 0.0042349 -0.0066040
3103000000 0.0042560 -0.0056786 0.9957440 0.0056786 0.9957440 0.0056786 0.0042560 -0.0056786
3124000000 0.0042792 -0.0047582 0.9957208 0.0047582 0.9957208 0.0047582 0.0042792 -0.0047582
3145000000 0.0043047 -0.0038427 0.9956953 0.0038427 0.9956953 0.0038427 0.0043047 -0.0038427
3166000000 0.0043324 -0.0029320 0.9956676 0.0029320 0.9956676 0.0029320 0.0043324 -0.0029320
3187000000 0.0043622 -0.0020260 0.9956378 0.0020260 0.9956378 0.0020260 0.0043622 -0.0020260
3208000000 0.0043941 -0.0011245 0.9956059 0.0011245 0.9956059 0.0011245 0.0043941 -0.0011245
3229000000 0.0044282 -0.0002274 0.9955718 0.0002274 0.9955718 0.0002274 0.0044282 -0.0002274
3250000000 0.0044645 0.0006655 0.9955355 -0.0006655 0.9955355 -0.0006655 0.0044645 0.0006655
3271000000 0.0045028 0.0015542 0.9954972 -0.0015542 0.9954972 -0.0015542 0.0045028 0.0015542
3292000000 0.0045433 0.0024389 0.9954567 -0.0024389 0.9954567 -0.0024389 0.0045433 0.0024389
3313000000 0.0045858 0.0033197 0.9954142 -0.0033197 0.9954142 -0.0033197 0.0045858 0.0033197
3334000000 0.0046305 0.0041967 0.9953695 -0.0041967 0.9953695 -0.0041967 0.0046305 0.0041967
3355000000 0.0046772 0.0050701 0.9953228 -0.0050701 0.9953228 -0.0050701 0.0046772 0.0050701
3376000000 0.0047260 0.0059399 0.9952740 -0.0059399 0.9952740 -0.0059399 0.0047260 0.0059399
3397000000 0.0047769 0.0068063 0.9952231 -0.0068063 0.9952231 -0.0068063 0.0047769 0.0068063
3418000000 0.0048299 0.0076693 0.9951701 -0.0076693 0.9951701 -0.0076693 0.0048299 0.0076693
3439000000 0.0048850 0.0085291 0.9951150 -0.0085291 0.9951150 -0.0085291 0.0048850 0.0085291
3460000000 0.0049421 0.0093858 0.9950579 -0.0093858 0.9950579 -0.0093858 0.0049421 0.0093858
3481000000 0.0050014 0.0102395 0.9949986 -0.0102395 0.9949986 -0.0102395 0.0050014 0.0102395
3502000000 0.0050627 0.0110902 0.9949373 -0.0110902 0.9949373 -0.0110902 0.0050627 0.0110902
3523000000 0.0051261 0.0119382 0.9948739 -0.0119382 0.9948739 -0.0119382 0.0051261 0.0119382
3544000000 0.0051917 0.0127835 0.9948083 -0.0127835 0.9948083 -0.0127835 0.0051917 0.0127835
3565000000 0.0052593 0.0136261 0.9947407 -0.0136261 0.9947407 -0.0136261 0.0052593 0.0136261
3586000000 0.0053291 0.0144663 0.9946709 -0.0144663 0.9946709 -0.0144663 0.0053291 0.0144663
3607000000 0.0054011 0.0153040 0.9945989 -0.0153040 0.9945989 -0.0153040 0.0054011 0.0153040
3628000000 0.0054751 0.0161395 0.9945249 -0.0161395 0.9945249 -0.0161395 0.0054751 0.0161395
3649000000 0.0055513 0.0169727 0.9944487 -0.0169727 0.9944487 -0.0169727 0.0055513 0.0169727
3670000000 0.0056297 0.0178037 0.9943703 -0.0178037 0.9943703 -0.0178037 0.0056297 0.0178037
3691000000 0.0057103 0.0186328 0.9942897 -0.0186328 0.9942897 -0.0186328 0.0057103 0.0186328
3712000000 0.0057931 0.0194599 0.9942069 -0.0194599 0.9942069 -0.0194599 0.0057931 0.0194599
3733000000 0.0058782 0.0202852 0.9941218 -0.0202852 0.9941218 -0.0202852 0.0058782 0.0202852
3754000000 0.0059655 0.0211087 0.9940345 -0.0211087 0.9940345 -0.0211087 0.0059655 0.0211087
3775000000 0.0060550 0.0219305 0.9939450 -0.0219305 0.9939450 -0.0219305 0.0060550 0.0219305
3796000000 0.0061468 0.0227508 0.9938532 -0.0227508 0.9938532 -0.0227508 0.0061468 0.0227508
3817000000 0.0062410 0.0235695 0.9937590 -0.0235695 0.9937590 -0.0235695 0.0062410 0.0235695
3838000000 0.0063375 0.0243869 0.9936625 -0.0243869 0.9936625 -0.0243869 0.0063375 0.0243869
3859000000 0.0064364 0.0252029 0.9935636 -0.0252029 0.9935636 -0.0252029 0.0064364 0.0252029
3880000000 0.0065377 0.0260177 0.9934623 -0.0260177 0.9934623 -0.0260177 0.0065377 0.0260177
3901000000 0.0066414 0.0268314 0.9933586 -0.0268314 0.9933586 -0.0268314 0.0066414 0.0268314
3922000000 0.0067475 0.0276440 0.9932525 -0.0276440 0.9932525 -0.0276440 0.0067475 0.0276440
3943000000 0.0068562 0.0284556 0.9931438 -0.0284556 0.9931438 -0.0284556 0.0068562 0.0284556
3964000000 0.0069674 0.0292664 0.9930326 -0.0292664 0.9930326 -0.0292664 0.0069674 0.0292664
3985000000 0.0070812 0.0300763 0.9929188 -0.0300763 0.9929188 -0.0300763 0.0070812 0.0300763
4006000000 0.0071976 0.0308855 0.9928024 -0.0308855 0.9928024 -0.0308855 0.0071976 0.0308855
4027000000 0.0073166 0.0316941 0.9926834 -0.0316941 0.9926834 -0.0316941 0.0073166 0.0316941
4048000000 0.0074383 0.0325022 0.9925617 -0.0325022 0.9925617 -0.0325022 0.0074383 0.0325022
4069000000 0.0075628 0.0333097 0.9924372 -0.0333097 0.9924372 -0.0333097 0.0075628 0.0333097
4090000000 0.0076901 0.0341169 0.9923099 -0.0341169 0.9923099 -0.0341169 0.0076901 0.0341169
4111000000 0.0078202 0.0349238 0.9921798 -0.0349238 0.9921798 -0.0349238 0.0078202 0.0349238
4132000000 0.0079532 0.0357305 0.9920468 -0.0357305 0.9920468 -0.0357305 0.0079532 0.0357305
4153000000 0.0080891 0.0365370 0.9919109 -0.0365370 0.9919109 -0.0365370 0.0080891 0.0365370
4174000000 0.0082281 0.0373435 0.9917719 -0.0373435 0.9917719 -0.0373435 0.0082281 0.0373435
4195000000 0.0083701 0.0381500 0.9916299 -0.0381500 0.9916299 -0.0381500 0.0083701 0.0381500
4216000000 0.0085152 0.0389566 0.9914848 -0.0389566 0.9914848 -0.0389566 0.0085152 0.0389566
4237000000 0.0086635 0.0397635 0.9913365 -0.0397635 0.9913365 -0.0397635 0.0086635 0.0397635
4258000000 0.0088151 0.0405706 0.9911849 -0.0405706 0.9911849 -0.0405706 0.0088151 0.0405706
4279000000 0.0089700 0.0413781 0.9910300 -0.0413781 0.9910300 -0.0413781 0.0089700 0.0413781
4300000000 0.0091283 0.0421860 0.9908717 -0.0421860 0.9908717 -0.0421860 0.0091283 0.0421860
4321000000 0.0092901 0.0429945 0.9907099 -0.0429945 0.9907099 -0.0429945 0.0092901 0.0429945
4342000000 0.0094554 0.0438036 0.9905446 -0.0438036 0.9905446 -0.0438036 0.0094554 0.0438036
4363000000 0.0096243 0.0446133 0.9903757 -0.0446133 0.9903757 -0.0446133 0.0096243 0.0446133
4384000000 0.0097970 0.0454239 0.9902030 -0.0454239 0.9902030 -0.0454239 0.0097970 0.0454239
4405000000 0.0099735 0.0462354 0.9900265 -0.0462354 0.9900265 -0.0462354 0.0099735 0.0462354
4426000000 0.0101539 0.0470478 0.9898461 -0.0470478 0.9898461 -0.0470478 0.0101539 0.0470478
4447000000 0.0103383 0.0478613 0.9896617 -0.0478613 0.9896617 -0.0478613 0.0103383 0.0478613
4468000000 0.0105267 0.0486759 0.9894733 -0.0486759 0.9894733 -0.0486759 0.0105267 0.0486759
4489000000 0.0107194 0.0494917 0.9892806 -0.0494917 0.9892806 -0.0494917 0.0107194 0.0494917
4510000000 0.0109164 0.0503088 0.9890836 -0.0503088 0.9890836 -0.0503088 0.0109164 0.0503088
