!Murata Part Number: GRM1555C2A5R4WA01
!These Parameters are Measured in Series Mode Connection
!Data Generated on Mar 30, 2021
!       o--ll--o
!Port1            Port2
!       o------o
!Operation Temp=25[degC], DC Bias Voltage=0[V]
!Freq. Start=100[MHz] Stop=9[GHz] 401[Steps]
# Hz S RI R 50
!Freq.(Hz) S11(Real) S11(Imag) S21(Real) S21(Imag) S12(Real) S12(Imag) S22(Real) S22(Imag)
100000000 0.8964577 -0.3043089 0.1035423 0.3043089 0.1035423 0.3043089 0.8964577 -0.3043089
121000000 0.8552844 -0.3513814 0.1447156 0.3513814 0.1447156 0.3513814 0.8552844 -0.3513814
142000000 0.8109075 -0.3910739 0.1890925 0.3910739 0.1890925 0.3910739 0.8109075 -0.3910739
163000000 0.7648202 -0.4235269 0.2351798 0.4235269 0.2351798 0.4235269 0.7648202 -0.4235269
184000000 0.7182973 -0.4491685 0.2817027 0.4491685 0.2817027 0.4491685 0.7182973 -0.4491685
205000000 0.6723620 -0.4686144 0.3276380 0.4686144 0.3276380 0.4686144 0.6723620 -0.4686144
226000000 0.6277872 -0.4825797 0.3722128 0.4825797 0.3722128 0.4825797 0.6277872 -0.4825797
247000000 0.5851181 -0.4918087 0.4148819 0.4918087 0.4148819 0.4918087 0.5851181 -0.4918087
268000000 0.5447070 -0.4970259 0.4552930 0.4970259 0.4552930 0.4970259 0.5447070 -0.4970259
289000000 0.5067509 -0.4989039 0.4932491 0.4989039 0.4932491 0.4989039 0.5067509 -0.4989039
310000000 0.4713278 -0.4980469 0.5286722 0.4980469 0.5286722 0.4980469 0.4713278 -0.4980469
331000000 0.4384287 -0.4949836 0.5615713 0.4949836 0.5615713 0.4949836 0.4384287 -0.4949836
352000000 0.4079835 -0.4901678 0.5920165 0.4901678 0.5920165 0.4901678 0.4079835 -0.4901678
373000000 0.3798822 -0.4839829 0.6201178 0.4839829 0.6201178 0.4839829 0.3798822 -0.4839829
394000000 0.3539903 -0.4767488 0.6460097 0.4767488 0.6460097 0.4767488 0.3539903 -0.4767488
415000000 0.3301610 -0.4687295 0.6698390 0.4687295 0.6698390 0.4687295 0.3301610 -0.4687295
436000000 0.3082430 -0.4601412 0.6917570 0.4601412 0.6917570 0.4601412 0.3082430 -0.4601412
457000000 0.2880866 -0.4511593 0.7119134 0.4511593 0.7119134 0.4511593 0.2880866 -0.4511593
478000000 0.2695474 -0.4419252 0.7304526 0.4419252 0.7304526 0.4419252 0.2695474 -0.4419252
499000000 0.2524882 -0.4325521 0.7475118 0.4325521 0.7475118 0.4325521 0.2524882 -0.4325521
520000000 0.2367810 -0.4231298 0.7632190 0.4231298 0.7632190 0.4231298 0.2367810 -0.4231298
541000000 0.2223072 -0.4137288 0.7776928 0.4137288 0.7776928 0.4137288 0.2223072 -0.4137288
562000000 0.2089575 -0.4044044 0.7910425 0.4044044 0.7910425 0.4044044 0.2089575 -0.4044044
583000000 0.1966322 -0.3951990 0.8033678 0.3951990 0.8033678 0.3951990 0.1966322 -0.3951990
604000000 0.1852401 -0.3861448 0.8147599 0.3861448 0.8147599 0.3861448 0.1852401 -0.3861448
625000000 0.1746987 -0.3772657 0.8253013 0.3772657 0.8253013 0.3772657 0.1746987 -0.3772657
646000000 0.1649330 -0.3685790 0.8350670 0.3685790 0.8350670 0.3685790 0.1649330 -0.3685790
667000000 0.1558751 -0.3600967 0.8441249 0.3600967 0.8441249 0.3600967 0.1558751 -0.3600967
688000000 0.1474636 -0.3518265 0.8525364 0.3518265 0.8525364 0.3518265 0.1474636 -0.3518265
709000000 0.1396428 -0.3437728 0.8603572 0.3437728 0.8603572 0.3437728 0.1396428 -0.3437728
730000000 0.1323627 -0.3359373 0.8676373 0.3359373 0.8676373 0.3359373 0.1323627 -0.3359373
751000000 0.1255777 -0.3283196 0.8744223 0.3283196 0.8744223 0.3283196 0.1255777 -0.3283196
772000000 0.1192467 -0.3209178 0.8807533 0.3209178 0.8807533 0.3209178 0.1192467 -0.3209178
793000000 0.1133325 -0.3137285 0.8866675 0.3137285 0.8866675 0.3137285 0.1133325 -0.3137285
814000000 0.1078013 -0.3067477 0.8921987 0.3067477 0.8921987 0.3067477 0.1078013 -0.3067477
835000000 0.1026227 -0.2999704 0.8973773 0.2999704 0.8973773 0.2999704 0.1026227 -0.2999704
856000000 0.0977687 -0.2933913 0.9022313 0.2933913 0.9022313 0.2933913 0.0977687 -0.2933913
877000000 0.0932143 -0.2870047 0.9067857 0.2870047 0.9067857 0.2870047 0.0932143 -0.2870047
898000000 0.0889365 -0.2808047 0.9110635 0.2808047 0.9110635 0.2808047 0.0889365 -0.2808047
919000000 0.0849144 -0.2747852 0.9150856 0.2747852 0.9150856 0.2747852 0.0849144 -0.2747852
940000000 0.0811291 -0.2689400 0.9188709 0.2689400 0.9188709 0.2689400 0.0811291 -0.2689400
961000000 0.0775630 -0.2632632 0.9224370 0.2632632 0.9224370 0.2632632 0.0775630 -0.2632632
982000000 0.0742005 -0.2577488 0.9257995 0.2577488 0.9257995 0.2577488 0.0742005 -0.2577488
1003000000 0.0710270 -0.2523907 0.9289730 0.2523907 0.9289730 0.2523907 0.0710270 -0.2523907
1024000000 0.0680293 -0.2471834 0.9319707 0.2471834 0.9319707 0.2471834 0.0680293 -0.2471834
1045000000 0.0651952 -0.2421210 0.9348048 0.2421210 0.9348048 0.2421210 0.0651952 -0.2421210
1066000000 0.0625135 -0.2371982 0.9374865 0.2371982 0.9374865 0.2371982 0.0625135 -0.2371982
1087000000 0.0599740 -0.2324098 0.9400260 0.2324098 0.9400260 0.2324098 0.0599740 -0.2324098
1108000000 0.0575673 -0.2277505 0.9424327 0.2277505 0.9424327 0.2277505 0.0575673 -0.2277505
1129000000 0.0552847 -0.2232154 0.9447153 0.2232154 0.9447153 0.2232154 0.0552847 -0.2232154
1150000000 0.0531182 -0.2187999 0.9468818 0.2187999 0.9468818 0.2187999 0.0531182 -0.2187999
1171000000 0.0510605 -0.2144993 0.9489395 0.2144993 0.9489395 0.2144993 0.0510605 -0.2144993
1192000000 0.0491047 -0.2103094 0.9508953 0.2103094 0.9508953 0.2103094 0.0491047 -0.2103094
1213000000 0.0472445 -0.2062258 0.9527555 0.2062258 0.9527555 0.2062258 0.0472445 -0.2062258
1234000000 0.0454742 -0.2022447 0.9545258 0.2022447 0.9545258 0.2022447 0.0454742 -0.2022447
1255000000 0.0437884 -0.1983620 0.9562116 0.1983620 0.9562116 0.1983620 0.0437884 -0.1983620
1276000000 0.0421819 -0.1945742 0.9578181 0.1945742 0.9578181 0.1945742 0.0421819 -0.1945742
1297000000 0.0406502 -0.1908777 0.9593498 0.1908777 0.9593498 0.1908777 0.0406502 -0.1908777
1318000000 0.0391891 -0.1872691 0.9608109 0.1872691 0.9608109 0.1872691 0.0391891 -0.1872691
1339000000 0.0377943 -0.1837452 0.9622057 0.1837452 0.9622057 0.1837452 0.0377943 -0.1837452
1360000000 0.0364623 -0.1803028 0.9635377 0.1803028 0.9635377 0.1803028 0.0364623 -0.1803028
1381000000 0.0351896 -0.1769391 0.9648104 0.1769391 0.9648104 0.1769391 0.0351896 -0.1769391
1402000000 0.0339729 -0.1736511 0.9660271 0.1736511 0.9660271 0.1736511 0.0339729 -0.1736511
1423000000 0.0328091 -0.1704362 0.9671909 0.1704362 0.9671909 0.1704362 0.0328091 -0.1704362
1444000000 0.0316955 -0.1672918 0.9683045 0.1672918 0.9683045 0.1672918 0.0316955 -0.1672918
1465000000 0.0306295 -0.1642153 0.9693705 0.1642153 0.9693705 0.1642153 0.0306295 -0.1642153
1486000000 0.0296085 -0.1612044 0.9703915 0.1612044 0.9703915 0.1612044 0.0296085 -0.1612044
1507000000 0.0286302 -0.1582569 0.9713698 0.1582569 0.9713698 0.1582569 0.0286302 -0.1582569
1528000000 0.0276924 -0.1553704 0.9723076 0.1553704 0.9723076 0.1553704 0.0276924 -0.1553704
1549000000 0.0267932 -0.1525430 0.9732068 0.1525430 0.9732068 0.1525430 0.0267932 -0.1525430
1570000000 0.0259307 -0.1497727 0.9740693 0.1497727 0.9740693 0.1497727 0.0259307 -0.1497727
1591000000 0.0251029 -0.1470575 0.9748971 0.1470575 0.9748971 0.1470575 0.0251029 -0.1470575
1612000000 0.0243083 -0.1443955 0.9756917 0.1443955 0.9756917 0.1443955 0.0243083 -0.1443955
1633000000 0.0235453 -0.1417851 0.9764547 0.1417851 0.9764547 0.1417851 0.0235453 -0.1417851
1654000000 0.0228123 -0.1392245 0.9771877 0.1392245 0.9771877 0.1392245 0.0228123 -0.1392245
1675000000 0.0221080 -0.1367121 0.9778920 0.1367121 0.9778920 0.1367121 0.0221080 -0.1367121
1696000000 0.0214311 -0.1342464 0.9785689 0.1342464 0.9785689 0.1342464 0.0214311 -0.1342464
1717000000 0.0207803 -0.1318259 0.9792197 0.1318259 0.9792197 0.1318259 0.0207803 -0.1318259
1738000000 0.0201543 -0.1294491 0.9798457 0.1294491 0.9798457 0.1294491 0.0201543 -0.1294491
1759000000 0.0195522 -0.1271146 0.9804478 0.1271146 0.9804478 0.1271146 0.0195522 -0.1271146
1780000000 0.0189729 -0.1248212 0.9810271 0.1248212 0.9810271 0.1248212 0.0189729 -0.1248212
1801000000 0.0184153 -0.1225676 0.9815847 0.1225676 0.9815847 0.1225676 0.0184153 -0.1225676
1822000000 0.0178786 -0.1203526 0.9821214 0.1203526 0.9821214 0.1203526 0.0178786 -0.1203526
1843000000 0.0173617 -0.1181749 0.9826383 0.1181749 0.9826383 0.1181749 0.0173617 -0.1181749
1864000000 0.0168640 -0.1160335 0.9831360 0.1160335 0.9831360 0.1160335 0.0168640 -0.1160335
1885000000 0.0163846 -0.1139272 0.9836154 0.1139272 0.9836154 0.1139272 0.0163846 -0.1139272
1906000000 0.0159228 -0.1118551 0.9840772 0.1118551 0.9840772 0.1118551 0.0159228 -0.1118551
1927000000 0.0154777 -0.1098162 0.9845223 0.1098162 0.9845223 0.1098162 0.0154777 -0.1098162
1948000000 0.0150489 -0.1078094 0.9849511 0.1078094 0.9849511 0.1078094 0.0150489 -0.1078094
1969000000 0.0146355 -0.1058338 0.9853645 0.1058338 0.9853645 0.1058338 0.0146355 -0.1058338
1990000000 0.0142370 -0.1038886 0.9857630 0.1038886 0.9857630 0.1038886 0.0142370 -0.1038886
2011000000 0.0138528 -0.1019729 0.9861472 0.1019729 0.9861472 0.1019729 0.0138528 -0.1019729
2032000000 0.0134824 -0.1000858 0.9865176 0.1000858 0.9865176 0.1000858 0.0134824 -0.1000858
2053000000 0.0131252 -0.0982266 0.9868748 0.0982266 0.9868748 0.0982266 0.0131252 -0.0982266
2074000000 0.0127807 -0.0963944 0.9872193 0.0963944 0.9872193 0.0963944 0.0127807 -0.0963944
2095000000 0.0124485 -0.0945886 0.9875515 0.0945886 0.9875515 0.0945886 0.0124485 -0.0945886
2116000000 0.0121281 -0.0928084 0.9878719 0.0928084 0.9878719 0.0928084 0.0121281 -0.0928084
2137000000 0.0118190 -0.0910531 0.9881810 0.0910531 0.9881810 0.0910531 0.0118190 -0.0910531
2158000000 0.0115208 -0.0893221 0.9884792 0.0893221 0.9884792 0.0893221 0.0115208 -0.0893221
2179000000 0.0112332 -0.0876146 0.9887668 0.0876146 0.9887668 0.0876146 0.0112332 -0.0876146
2200000000 0.0109558 -0.0859302 0.9890442 0.0859302 0.9890442 0.0859302 0.0109558 -0.0859302
2221000000 0.0106881 -0.0842681 0.9893119 0.0842681 0.9893119 0.0842681 0.0106881 -0.0842681
2242000000 0.0104300 -0.0826278 0.9895700 0.0826278 0.9895700 0.0826278 0.0104300 -0.0826278
2263000000 0.0101810 -0.0810087 0.9898190 0.0810087 0.9898190 0.0810087 0.0101810 -0.0810087
2284000000 0.0099407 -0.0794104 0.9900593 0.0794104 0.9900593 0.0794104 0.0099407 -0.0794104
2305000000 0.0097091 -0.0778321 0.9902909 0.0778321 0.9902909 0.0778321 0.0097091 -0.0778321
2326000000 0.0094856 -0.0762736 0.9905144 0.0762736 0.9905144 0.0762736 0.0094856 -0.0762736
2347000000 0.0092701 -0.0747341 0.9907299 0.0747341 0.9907299 0.0747341 0.0092701 -0.0747341
2368000000 0.0090623 -0.0732134 0.9909377 0.0732134 0.9909377 0.0732134 0.0090623 -0.0732134
2389000000 0.0088620 -0.0717109 0.9911380 0.0717109 0.9911380 0.0717109 0.0088620 -0.0717109
2410000000 0.0086689 -0.0702261 0.9913311 0.0702261 0.9913311 0.0702261 0.0086689 -0.0702261
2431000000 0.0084827 -0.0687586 0.9915173 0.0687586 0.9915173 0.0687586 0.0084827 -0.0687586
2452000000 0.0083033 -0.0673081 0.9916967 0.0673081 0.9916967 0.0673081 0.0083033 -0.0673081
2473000000 0.0081304 -0.0658741 0.9918696 0.0658741 0.9918696 0.0658741 0.0081304 -0.0658741
2494000000 0.0079639 -0.0644561 0.9920361 0.0644561 0.9920361 0.0644561 0.0079639 -0.0644561
2515000000 0.0078035 -0.0630539 0.9921965 0.0630539 0.9921965 0.0630539 0.0078035 -0.0630539
2536000000 0.0076490 -0.0616671 0.9923510 0.0616671 0.9923510 0.0616671 0.0076490 -0.0616671
2557000000 0.0075003 -0.0602953 0.9924997 0.0602953 0.9924997 0.0602953 0.0075003 -0.0602953
2578000000 0.0073573 -0.0589381 0.9926427 0.0589381 0.9926427 0.0589381 0.0073573 -0.0589381
2599000000 0.0072196 -0.0575952 0.9927804 0.0575952 0.9927804 0.0575952 0.0072196 -0.0575952
2620000000 0.0070873 -0.0562662 0.9929127 0.0562662 0.9929127 0.0562662 0.0070873 -0.0562662
2641000000 0.0069600 -0.0549510 0.9930400 0.0549510 0.9930400 0.0549510 0.0069600 -0.0549510
2662000000 0.0068378 -0.0536491 0.9931622 0.0536491 0.9931622 0.0536491 0.0068378 -0.0536491
2683000000 0.0067203 -0.0523602 0.9932797 0.0523602 0.9932797 0.0523602 0.0067203 -0.0523602
2704000000 0.0066076 -0.0510841 0.9933924 0.0510841 0.9933924 0.0510841 0.0066076 -0.0510841
2725000000 0.0064994 -0.0498204 0.9935006 0.0498204 0.9935006 0.0498204 0.0064994 -0.0498204
2746000000 0.0063957 -0.0485690 0.9936043 0.0485690 0.9936043 0.0485690 0.0063957 -0.0485690
2767000000 0.0062963 -0.0473295 0.9937037 0.0473295 0.9937037 0.0473295 0.0062963 -0.0473295
2788000000 0.0062010 -0.0461016 0.9937990 0.0461016 0.9937990 0.0461016 0.0062010 -0.0461016
2809000000 0.0061099 -0.0448852 0.9938901 0.0448852 0.9938901 0.0448852 0.0061099 -0.0448852
2830000000 0.0060227 -0.0436799 0.9939773 0.0436799 0.9939773 0.0436799 0.0060227 -0.0436799
2851000000 0.0059395 -0.0424855 0.9940605 0.0424855 0.9940605 0.0424855 0.0059395 -0.0424855
2872000000 0.0058600 -0.0413018 0.9941400 0.0413018 0.9941400 0.0413018 0.0058600 -0.0413018
2893000000 0.0057841 -0.0401286 0.9942159 0.0401286 0.9942159 0.0401286 0.0057841 -0.0401286
2914000000 0.0057119 -0.0389657 0.9942881 0.0389657 0.9942881 0.0389657 0.0057119 -0.0389657
2935000000 0.0056431 -0.0378127 0.9943569 0.0378127 0.9943569 0.0378127 0.0056431 -0.0378127
2956000000 0.0055778 -0.0366696 0.9944222 0.0366696 0.9944222 0.0366696 0.0055778 -0.0366696
2977000000 0.0055158 -0.0355361 0.9944842 0.0355361 0.9944842 0.0355361 0.0055158 -0.0355361
2998000000 0.0054570 -0.0344120 0.9945430 0.0344120 0.9945430 0.0344120 0.0054570 -0.0344120
3019000000 0.0054014 -0.0332971 0.9945986 0.0332971 0.9945986 0.0332971 0.0054014 -0.0332971
3040000000 0.0053489 -0.0321912 0.9946511 0.0321912 0.9946511 0.0321912 0.0053489 -0.0321912
3061000000 0.0052994 -0.0310942 0.9947006 0.0310942 0.9947006 0.0310942 0.0052994 -0.0310942
3082000000 0.0052528 -0.0300058 0.9947472 0.0300058 0.9947472 0.0300058 0.0052528 -0.0300058
3103000000 0.0052091 -0.0289259 0.9947909 0.0289259 0.9947909 0.0289259 0.0052091 -0.0289259
3124000000 0.0051682 -0.0278544 0.9948318 0.0278544 0.9948318 0.0278544 0.0051682 -0.0278544
3145000000 0.0051301 -0.0267910 0.9948699 0.0267910 0.9948699 0.0267910 0.0051301 -0.0267910
3166000000 0.0050947 -0.0257356 0.9949053 0.0257356 0.9949053 0.0257356 0.0050947 -0.0257356
3187000000 0.0050619 -0.0246880 0.9949381 0.0246880 0.9949381 0.0246880 0.0050619 -0.0246880
3208000000 0.0050317 -0.0236481 0.9949683 0.0236481 0.9949683 0.0236481 0.0050317 -0.0236481
3229000000 0.0050040 -0.0226157 0.9949960 0.0226157 0.9949960 0.0226157 0.0050040 -0.0226157
3250000000 0.0049787 -0.0215906 0.9950213 0.0215906 0.9950213 0.0215906 0.0049787 -0.0215906
3271000000 0.0049559 -0.0205729 0.9950441 0.0205729 0.9950441 0.0205729 0.0049559 -0.0205729
3292000000 0.0049355 -0.0195622 0.9950645 0.0195622 0.9950645 0.0195622 0.0049355 -0.0195622
3313000000 0.0049173 -0.0185584 0.9950827 0.0185584 0.9950827 0.0185584 0.0049173 -0.0185584
3334000000 0.0049015 -0.0175615 0.9950985 0.0175615 0.9950985 0.0175615 0.0049015 -0.0175615
3355000000 0.0048878 -0.0165713 0.9951122 0.0165713 0.9951122 0.0165713 0.0048878 -0.0165713
3376000000 0.0048764 -0.0155876 0.9951236 0.0155876 0.9951236 0.0155876 0.0048764 -0.0155876
3397000000 0.0048671 -0.0146103 0.9951329 0.0146103 0.9951329 0.0146103 0.0048671 -0.0146103
3418000000 0.0048599 -0.0136394 0.9951401 0.0136394 0.9951401 0.0136394 0.0048599 -0.0136394
3439000000 0.0048547 -0.0126746 0.9951453 0.0126746 0.9951453 0.0126746 0.0048547 -0.0126746
3460000000 0.0048516 -0.0117160 0.9951484 0.0117160 0.9951484 0.0117160 0.0048516 -0.0117160
3481000000 0.0048505 -0.0107633 0.9951495 0.0107633 0.9951495 0.0107633 0.0048505 -0.0107633
3502000000 0.0048513 -0.0098164 0.9951487 0.0098164 0.9951487 0.0098164 0.0048513 -0.0098164
3523000000 0.0048541 -0.0088753 0.9951459 0.0088753 0.9951459 0.0088753 0.0048541 -0.0088753
3544000000 0.0048587 -0.0079398 0.9951413 0.0079398 0.9951413 0.0079398 0.0048587 -0.0079398
3565000000 0.0048652 -0.0070098 0.9951348 0.0070098 0.9951348 0.0070098 0.0048652 -0.0070098
3586000000 0.0048735 -0.0060852 0.9951265 0.0060852 0.9951265 0.0060852 0.0048735 -0.0060852
3607000000 0.0048837 -0.0051660 0.9951163 0.0051660 0.9951163 0.0051660 0.0048837 -0.0051660
3628000000 0.0048956 -0.0042520 0.9951044 0.0042520 0.9951044 0.0042520 0.0048956 -0.0042520
3649000000 0.0049092 -0.0033431 0.9950908 0.0033431 0.9950908 0.0033431 0.0049092 -0.0033431
3670000000 0.0049245 -0.0024393 0.9950755 0.0024393 0.9950755 0.0024393 0.0049245 -0.0024393
3691000000 0.0049416 -0.0015404 0.9950584 0.0015404 0.9950584 0.0015404 0.0049416 -0.0015404
3712000000 0.0049603 -0.0006463 0.9950397 0.0006463 0.9950397 0.0006463 0.0049603 -0.0006463
3733000000 0.0049807 0.0002430 0.9950193 -0.0002430 0.9950193 -0.0002430 0.0049807 0.0002430
3754000000 0.0050026 0.0011277 0.9949974 -0.0011277 0.9949974 -0.0011277 0.0050026 0.0011277
3775000000 0.0050262 0.0020077 0.9949738 -0.0020077 0.9949738 -0.0020077 0.0050262 0.0020077
3796000000 0.0050513 0.0028833 0.9949487 -0.0028833 0.9949487 -0.0028833 0.0050513 0.0028833
3817000000 0.0050780 0.0037544 0.9949220 -0.0037544 0.9949220 -0.0037544 0.0050780 0.0037544
3838000000 0.0051063 0.0046212 0.9948937 -0.0046212 0.9948937 -0.0046212 0.0051063 0.0046212
3859000000 0.0051360 0.0054837 0.9948640 -0.0054837 0.9948640 -0.0054837 0.0051360 0.0054837
3880000000 0.0051673 0.0063420 0.9948327 -0.0063420 0.9948327 -0.0063420 0.0051673 0.0063420
3901000000 0.0052000 0.0071963 0.9948000 -0.0071963 0.9948000 -0.0071963 0.0052000 0.0071963
3922000000 0.0052342 0.0080465 0.9947658 -0.0080465 0.9947658 -0.0080465 0.0052342 0.0080465
3943000000 0.0052698 0.0088927 0.9947302 -0.0088927 0.9947302 -0.0088927 0.0052698 0.0088927
3964000000 0.0053069 0.0097351 0.9946931 -0.0097351 0.9946931 -0.0097351 0.0053069 0.0097351
3985000000 0.0053454 0.0105736 0.9946546 -0.0105736 0.9946546 -0.0105736 0.0053454 0.0105736
4006000000 0.0053853 0.0114084 0.9946147 -0.0114084 0.9946147 -0.0114084 0.0053853 0.0114084
4027000000 0.0054266 0.0122396 0.9945734 -0.0122396 0.9945734 -0.0122396 0.0054266 0.0122396
4048000000 0.0054693 0.0130671 0.9945307 -0.0130671 0.9945307 -0.0130671 0.0054693 0.0130671
4069000000 0.0055133 0.0138910 0.9944867 -0.0138910 0.9944867 -0.0138910 0.0055133 0.0138910
4090000000 0.0055587 0.0147115 0.9944413 -0.0147115 0.9944413 -0.0147115 0.0055587 0.0147115
4111000000 0.0056054 0.0155286 0.9943946 -0.0155286 0.9943946 -0.0155286 0.0056054 0.0155286
4132000000 0.0056535 0.0163423 0.9943465 -0.0163423 0.9943465 -0.0163423 0.0056535 0.0163423
4153000000 0.0057028 0.0171527 0.9942972 -0.0171527 0.9942972 -0.0171527 0.0057028 0.0171527
4174000000 0.0057535 0.0179599 0.9942465 -0.0179599 0.9942465 -0.0179599 0.0057535 0.0179599
4195000000 0.0058055 0.0187639 0.9941945 -0.0187639 0.9941945 -0.0187639 0.0058055 0.0187639
4216000000 0.0058588 0.0195648 0.9941412 -0.0195648 0.9941412 -0.0195648 0.0058588 0.0195648
4237000000 0.0059134 0.0203627 0.9940866 -0.0203627 0.9940866 -0.0203627 0.0059134 0.0203627
4258000000 0.0059692 0.0211575 0.9940308 -0.0211575 0.9940308 -0.0211575 0.0059692 0.0211575
4279000000 0.0060263 0.0219494 0.9939737 -0.0219494 0.9939737 -0.0219494 0.0060263 0.0219494
4300000000 0.0060847 0.0227384 0.9939153 -0.0227384 0.9939153 -0.0227384 0.0060847 0.0227384
4321000000 0.0061444 0.0235246 0.9938556 -0.0235246 0.9938556 -0.0235246 0.0061444 0.0235246
4342000000 0.0062053 0.0243080 0.9937947 -0.0243080 0.9937947 -0.0243080 0.0062053 0.0243080
4363000000 0.0062674 0.0250886 0.9937326 -0.0250886 0.9937326 -0.0250886 0.0062674 0.0250886
4384000000 0.0063308 0.0258666 0.9936692 -0.0258666 0.9936692 -0.0258666 0.0063308 0.0258666
4405000000 0.0063954 0.0266420 0.9936046 -0.0266420 0.9936046 -0.0266420 0.0063954 0.0266420
4426000000 0.0064613 0.0274147 0.9935387 -0.0274147 0.9935387 -0.0274147 0.0064613 0.0274147
4447000000 0.0065283 0.0281850 0.9934717 -0.0281850 0.9934717 -0.0281850 0.0065283 0.0281850
4468000000 0.0065967 0.0289527 0.9934033 -0.0289527 0.9934033 -0.0289527 0.0065967 0.0289527
4489000000 0.0066662 0.0297181 0.9933338 -0.0297181 0.9933338 -0.0297181 0.0066662 0.0297181
4510000000 0.0067370 0.0304810 0.9932630 -0.0304810 0.9932630 -0.0304810 0.0067370 0.0304810
