!Murata Part Number: GRM1555C2A221JE01
!These Parameters are Measured in Series Mode Connection
!Data Generated on Mar 30, 2021
!       o--ll--o
!Port1            Port2
!       o------o
!Operation Temp=25[degC], DC Bias Voltage=0[V]
!Freq. Start=100[MHz] Stop=9[GHz] 401[Steps]
# Hz S RI R 50
!Freq.(Hz) S11(Real) S11(Imag) S21(Real) S21(Imag) S12(Real) S12(Imag) S22(Real) S22(Imag)
100000000 0.0057556 -0.0693300 0.9942444 0.0693300 0.9942444 0.0693300 0.0057556 -0.0693300
121000000 0.0041231 -0.0564190 0.9958769 0.0564190 0.9958769 0.0564190 0.0041231 -0.0564190
142000000 0.0031622 -0.0471346 0.9968378 0.0471346 0.9968378 0.0471346 0.0031622 -0.0471346
163000000 0.0025526 -0.0400893 0.9974474 0.0400893 0.9974474 0.0400893 0.0025526 -0.0400893
184000000 0.0021445 -0.0345222 0.9978555 0.0345222 0.9978555 0.0345222 0.0021445 -0.0345222
205000000 0.0018607 -0.0299819 0.9981393 0.0299819 0.9981393 0.0299819 0.0018607 -0.0299819
226000000 0.0016578 -0.0261835 0.9983422 0.0261835 0.9983422 0.0261835 0.0016578 -0.0261835
247000000 0.0015102 -0.0229386 0.9984898 0.0229386 0.9984898 0.0229386 0.0015102 -0.0229386
268000000 0.0014016 -0.0201174 0.9985984 0.0201174 0.9985984 0.0201174 0.0014016 -0.0201174
289000000 0.0013217 -0.0176279 0.9986783 0.0176279 0.9986783 0.0176279 0.0013217 -0.0176279
310000000 0.0012634 -0.0154029 0.9987366 0.0154029 0.9987366 0.0154029 0.0012634 -0.0154029
331000000 0.0012218 -0.0133920 0.9987782 0.0133920 0.9987782 0.0133920 0.0012218 -0.0133920
352000000 0.0011934 -0.0115571 0.9988066 0.0115571 0.9988066 0.0115571 0.0011934 -0.0115571
373000000 0.0011758 -0.0098684 0.9988242 0.0098684 0.9988242 0.0098684 0.0011758 -0.0098684
394000000 0.0011669 -0.0083027 0.9988331 0.0083027 0.9988331 0.0083027 0.0011669 -0.0083027
415000000 0.0011654 -0.0068412 0.9988346 0.0068412 0.9988346 0.0068412 0.0011654 -0.0068412
436000000 0.0011703 -0.0054689 0.9988297 0.0054689 0.9988297 0.0054689 0.0011703 -0.0054689
457000000 0.0011807 -0.0041736 0.9988193 0.0041736 0.9988193 0.0041736 0.0011807 -0.0041736
478000000 0.0011959 -0.0029450 0.9988041 0.0029450 0.9988041 0.0029450 0.0011959 -0.0029450
499000000 0.0012155 -0.0017747 0.9987845 0.0017747 0.9987845 0.0017747 0.0012155 -0.0017747
520000000 0.0012390 -0.0006556 0.9987610 0.0006556 0.9987610 0.0006556 0.0012390 -0.0006556
541000000 0.0012660 0.0004182 0.9987340 -0.0004182 0.9987340 -0.0004182 0.0012660 0.0004182
562000000 0.0012964 0.0014519 0.9987036 -0.0014519 0.9987036 -0.0014519 0.0012964 0.0014519
583000000 0.0013299 0.0024498 0.9986701 -0.0024498 0.9986701 -0.0024498 0.0013299 0.0024498
604000000 0.0013664 0.0034157 0.9986336 -0.0034157 0.9986336 -0.0034157 0.0013664 0.0034157
625000000 0.0014056 0.0043529 0.9985944 -0.0043529 0.9985944 -0.0043529 0.0014056 0.0043529
646000000 0.0014475 0.0052642 0.9985525 -0.0052642 0.9985525 -0.0052642 0.0014475 0.0052642
667000000 0.0014920 0.0061522 0.9985080 -0.0061522 0.9985080 -0.0061522 0.0014920 0.0061522
688000000 0.0015391 0.0070190 0.9984609 -0.0070190 0.9984609 -0.0070190 0.0015391 0.0070190
709000000 0.0015886 0.0078667 0.9984114 -0.0078667 0.9984114 -0.0078667 0.0015886 0.0078667
730000000 0.0016407 0.0086969 0.9983593 -0.0086969 0.9983593 -0.0086969 0.0016407 0.0086969
751000000 0.0016951 0.0095113 0.9983049 -0.0095113 0.9983049 -0.0095113 0.0016951 0.0095113
772000000 0.0017521 0.0103112 0.9982479 -0.0103112 0.9982479 -0.0103112 0.0017521 0.0103112
793000000 0.0018115 0.0110980 0.9981885 -0.0110980 0.9981885 -0.0110980 0.0018115 0.0110980
814000000 0.0018735 0.0118728 0.9981265 -0.0118728 0.9981265 -0.0118728 0.0018735 0.0118728
835000000 0.0019381 0.0126366 0.9980619 -0.0126366 0.9980619 -0.0126366 0.0019381 0.0126366
856000000 0.0020054 0.0133906 0.9979946 -0.0133906 0.9979946 -0.0133906 0.0020054 0.0133906
877000000 0.0020755 0.0141355 0.9979245 -0.0141355 0.9979245 -0.0141355 0.0020755 0.0141355
898000000 0.0021486 0.0148724 0.9978514 -0.0148724 0.9978514 -0.0148724 0.0021486 0.0148724
919000000 0.0022249 0.0156020 0.9977751 -0.0156020 0.9977751 -0.0156020 0.0022249 0.0156020
940000000 0.0023046 0.0163250 0.9976954 -0.0163250 0.9976954 -0.0163250 0.0023046 0.0163250
961000000 0.0023881 0.0170425 0.9976119 -0.0170425 0.9976119 -0.0170425 0.0023881 0.0170425
982000000 0.0024759 0.0177549 0.9975241 -0.0177549 0.9975241 -0.0177549 0.0024759 0.0177549
1003000000 0.0025684 0.0184632 0.9974316 -0.0184632 0.9974316 -0.0184632 0.0025684 0.0184632
1024000000 0.0026664 0.0191681 0.9973336 -0.0191681 0.9973336 -0.0191681 0.0026664 0.0191681
1045000000 0.0027708 0.0198703 0.9972292 -0.0198703 0.9972292 -0.0198703 0.0027708 0.0198703
1066000000 0.0028829 0.0205704 0.9971171 -0.0205704 0.9971171 -0.0205704 0.0028829 0.0205704
1087000000 0.0030044 0.0212691 0.9969956 -0.0212691 0.9969956 -0.0212691 0.0030044 0.0212691
1108000000 0.0031375 0.0219669 0.9968625 -0.0219669 0.9968625 -0.0219669 0.0031375 0.0219669
1129000000 0.0032853 0.0226636 0.9967147 -0.0226636 0.9967147 -0.0226636 0.0032853 0.0226636
1150000000 0.0034520 0.0233586 0.9965480 -0.0233586 0.9965480 -0.0233586 0.0034520 0.0233586
1171000000 0.0036430 0.0240494 0.9963570 -0.0240494 0.9963570 -0.0240494 0.0036430 0.0240494
1192000000 0.0038652 0.0247309 0.9961348 -0.0247309 0.9961348 -0.0247309 0.0038652 0.0247309
1213000000 0.0041262 0.0253927 0.9958738 -0.0253927 0.9958738 -0.0253927 0.0041262 0.0253927
1234000000 0.0044316 0.0260159 0.9955684 -0.0260159 0.9955684 -0.0260159 0.0044316 0.0260159
1255000000 0.0047769 0.0265710 0.9952231 -0.0265710 0.9952231 -0.0265710 0.0047769 0.0265710
1276000000 0.0051343 0.0270229 0.9948657 -0.0270229 0.9948657 -0.0270229 0.0051343 0.0270229
1297000000 0.0054419 0.0273542 0.9945581 -0.0273542 0.9945581 -0.0273542 0.0054419 0.0273542
1318000000 0.0056243 0.0276015 0.9943757 -0.0276015 0.9943757 -0.0276015 0.0056243 0.0276015
1339000000 0.0056508 0.0278562 0.9943492 -0.0278562 0.9943492 -0.0278562 0.0056508 0.0278562
1360000000 0.0055662 0.0282019 0.9944338 -0.0282019 0.9944338 -0.0282019 0.0055662 0.0282019
1381000000 0.0054470 0.0286617 0.9945530 -0.0286617 0.9945530 -0.0286617 0.0054470 0.0286617
1402000000 0.0053479 0.0292125 0.9946521 -0.0292125 0.9946521 -0.0292125 0.0053479 0.0292125
1423000000 0.0052914 0.0298197 0.9947086 -0.0298197 0.9947086 -0.0298197 0.0052914 0.0298197
1444000000 0.0052797 0.0304564 0.9947203 -0.0304564 0.9947203 -0.0304564 0.0052797 0.0304564
1465000000 0.0053075 0.0311056 0.9946925 -0.0311056 0.9946925 -0.0311056 0.0053075 0.0311056
1486000000 0.0053681 0.0317580 0.9946319 -0.0317580 0.9946319 -0.0317580 0.0053681 0.0317580
1507000000 0.0054556 0.0324088 0.9945444 -0.0324088 0.9945444 -0.0324088 0.0054556 0.0324088
1528000000 0.0055656 0.0330553 0.9944344 -0.0330553 0.9944344 -0.0330553 0.0055656 0.0330553
1549000000 0.0056950 0.0336965 0.9943050 -0.0336965 0.9943050 -0.0336965 0.0056950 0.0336965
1570000000 0.0058416 0.0343319 0.9941584 -0.0343319 0.9941584 -0.0343319 0.0058416 0.0343319
1591000000 0.0060040 0.0349610 0.9939960 -0.0349610 0.9939960 -0.0349610 0.0060040 0.0349610
1612000000 0.0061816 0.0355836 0.9938184 -0.0355836 0.9938184 -0.0355836 0.0061816 0.0355836
1633000000 0.0063740 0.0361993 0.9936260 -0.0361993 0.9936260 -0.0361993 0.0063740 0.0361993
1654000000 0.0065810 0.0368075 0.9934190 -0.0368075 0.9934190 -0.0368075 0.0065810 0.0368075
1675000000 0.0068030 0.0374075 0.9931970 -0.0374075 0.9931970 -0.0374075 0.0068030 0.0374075
1696000000 0.0070401 0.0379983 0.9929599 -0.0379983 0.9929599 -0.0379983 0.0070401 0.0379983
1717000000 0.0072929 0.0385786 0.9927071 -0.0385786 0.9927071 -0.0385786 0.0072929 0.0385786
1738000000 0.0075617 0.0391465 0.9924383 -0.0391465 0.9924383 -0.0391465 0.0075617 0.0391465
1759000000 0.0078466 0.0397002 0.9921534 -0.0397002 0.9921534 -0.0397002 0.0078466 0.0397002
1780000000 0.0081479 0.0402371 0.9918521 -0.0402371 0.9918521 -0.0402371 0.0081479 0.0402371
1801000000 0.0084652 0.0407543 0.9915348 -0.0407543 0.9915348 -0.0407543 0.0084652 0.0407543
1822000000 0.0087977 0.0412487 0.9912023 -0.0412487 0.9912023 -0.0412487 0.0087977 0.0412487
1843000000 0.0091439 0.0417164 0.9908561 -0.0417164 0.9908561 -0.0417164 0.0091439 0.0417164
1864000000 0.0095016 0.0421538 0.9904984 -0.0421538 0.9904984 -0.0421538 0.0095016 0.0421538
1885000000 0.0098674 0.0425570 0.9901326 -0.0425570 0.9901326 -0.0425570 0.0098674 0.0425570
1906000000 0.0102368 0.0429223 0.9897632 -0.0429223 0.9897632 -0.0429223 0.0102368 0.0429223
1927000000 0.0106038 0.0432466 0.9893962 -0.0432466 0.9893962 -0.0432466 0.0106038 0.0432466
1948000000 0.0109616 0.0435282 0.9890384 -0.0435282 0.9890384 -0.0435282 0.0109616 0.0435282
1969000000 0.0113020 0.0437664 0.9886980 -0.0437664 0.9886980 -0.0437664 0.0113020 0.0437664
1990000000 0.0116162 0.0439630 0.9883838 -0.0439630 0.9883838 -0.0439630 0.0116162 0.0439630
2011000000 0.0118956 0.0441219 0.9881044 -0.0441219 0.9881044 -0.0441219 0.0118956 0.0441219
2032000000 0.0121322 0.0442494 0.9878678 -0.0442494 0.9878678 -0.0442494 0.0121322 0.0442494
2053000000 0.0123195 0.0443539 0.9876805 -0.0443539 0.9876805 -0.0443539 0.0123195 0.0443539
2074000000 0.0124537 0.0444458 0.9875463 -0.0444458 0.9875463 -0.0444458 0.0124537 0.0444458
2095000000 0.0125332 0.0445360 0.9874668 -0.0445360 0.9874668 -0.0445360 0.0125332 0.0445360
2116000000 0.0125599 0.0446355 0.9874401 -0.0446355 0.9874401 -0.0446355 0.0125599 0.0446355
2137000000 0.0125381 0.0447541 0.9874619 -0.0447541 0.9874619 -0.0447541 0.0125381 0.0447541
2158000000 0.0124743 0.0448999 0.9875257 -0.0448999 0.9875257 -0.0448999 0.0124743 0.0448999
2179000000 0.0123762 0.0450787 0.9876238 -0.0450787 0.9876238 -0.0450787 0.0123762 0.0450787
2200000000 0.0122524 0.0452941 0.9877476 -0.0452941 0.9877476 -0.0452941 0.0122524 0.0452941
2221000000 0.0121111 0.0455472 0.9878889 -0.0455472 0.9878889 -0.0455472 0.0121111 0.0455472
2242000000 0.0119599 0.0458376 0.9880401 -0.0458376 0.9880401 -0.0458376 0.0119599 0.0458376
2263000000 0.0118052 0.0461634 0.9881948 -0.0461634 0.9881948 -0.0461634 0.0118052 0.0461634
2284000000 0.0116526 0.0465215 0.9883474 -0.0465215 0.9883474 -0.0465215 0.0116526 0.0465215
2305000000 0.0115061 0.0469086 0.9884939 -0.0469086 0.9884939 -0.0469086 0.0115061 0.0469086
2326000000 0.0113688 0.0473210 0.9886312 -0.0473210 0.9886312 -0.0473210 0.0113688 0.0473210
2347000000 0.0112428 0.0477551 0.9887572 -0.0477551 0.9887572 -0.0477551 0.0112428 0.0477551
2368000000 0.0111295 0.0482075 0.9888705 -0.0482075 0.9888705 -0.0482075 0.0111295 0.0482075
2389000000 0.0110295 0.0486751 0.9889705 -0.0486751 0.9889705 -0.0486751 0.0110295 0.0486751
2410000000 0.0109430 0.0491550 0.9890570 -0.0491550 0.9890570 -0.0491550 0.0109430 0.0491550
2431000000 0.0108698 0.0496448 0.9891302 -0.0496448 0.9891302 -0.0496448 0.0108698 0.0496448
2452000000 0.0108097 0.0501424 0.9891903 -0.0501424 0.9891903 -0.0501424 0.0108097 0.0501424
2473000000 0.0107620 0.0506460 0.9892380 -0.0506460 0.9892380 -0.0506460 0.0107620 0.0506460
2494000000 0.0107260 0.0511542 0.9892740 -0.0511542 0.9892740 -0.0511542 0.0107260 0.0511542
2515000000 0.0107012 0.0516655 0.9892988 -0.0516655 0.9892988 -0.0516655 0.0107012 0.0516655
2536000000 0.0106866 0.0521790 0.9893134 -0.0521790 0.9893134 -0.0521790 0.0106866 0.0521790
2557000000 0.0106817 0.0526938 0.9893183 -0.0526938 0.9893183 -0.0526938 0.0106817 0.0526938
2578000000 0.0106857 0.0532093 0.9893143 -0.0532093 0.9893143 -0.0532093 0.0106857 0.0532093
2599000000 0.0106980 0.0537248 0.9893020 -0.0537248 0.9893020 -0.0537248 0.0106980 0.0537248
2620000000 0.0107179 0.0542399 0.9892821 -0.0542399 0.9892821 -0.0542399 0.0107179 0.0542399
2641000000 0.0107449 0.0547543 0.9892551 -0.0547543 0.9892551 -0.0547543 0.0107449 0.0547543
2662000000 0.0107783 0.0552675 0.9892217 -0.0552675 0.9892217 -0.0552675 0.0107783 0.0552675
2683000000 0.0108177 0.0557795 0.9891823 -0.0557795 0.9891823 -0.0557795 0.0108177 0.0557795
2704000000 0.0108627 0.0562900 0.9891373 -0.0562900 0.9891373 -0.0562900 0.0108627 0.0562900
2725000000 0.0109127 0.0567989 0.9890873 -0.0567989 0.9890873 -0.0567989 0.0109127 0.0567989
2746000000 0.0109675 0.0573060 0.9890325 -0.0573060 0.9890325 -0.0573060 0.0109675 0.0573060
2767000000 0.0110266 0.0578114 0.9889734 -0.0578114 0.9889734 -0.0578114 0.0110266 0.0578114
2788000000 0.0110898 0.0583150 0.9889102 -0.0583150 0.9889102 -0.0583150 0.0110898 0.0583150
2809000000 0.0111567 0.0588166 0.9888433 -0.0588166 0.9888433 -0.0588166 0.0111567 0.0588166
2830000000 0.0112271 0.0593164 0.9887729 -0.0593164 0.9887729 -0.0593164 0.0112271 0.0593164
2851000000 0.0113007 0.0598144 0.9886993 -0.0598144 0.9886993 -0.0598144 0.0113007 0.0598144
2872000000 0.0113773 0.0603104 0.9886227 -0.0603104 0.9886227 -0.0603104 0.0113773 0.0603104
2893000000 0.0114567 0.0608046 0.9885433 -0.0608046 0.9885433 -0.0608046 0.0114567 0.0608046
2914000000 0.0115387 0.0612969 0.9884613 -0.0612969 0.9884613 -0.0612969 0.0115387 0.0612969
2935000000 0.0116232 0.0617874 0.9883768 -0.0617874 0.9883768 -0.0617874 0.0116232 0.0617874
2956000000 0.0117100 0.0622761 0.9882900 -0.0622761 0.9882900 -0.0622761 0.0117100 0.0622761
2977000000 0.0117989 0.0627630 0.9882011 -0.0627630 0.9882011 -0.0627630 0.0117989 0.0627630
2998000000 0.0118898 0.0632482 0.9881102 -0.0632482 0.9881102 -0.0632482 0.0118898 0.0632482
3019000000 0.0119826 0.0637318 0.9880174 -0.0637318 0.9880174 -0.0637318 0.0119826 0.0637318
3040000000 0.0120772 0.0642136 0.9879228 -0.0642136 0.9879228 -0.0642136 0.0120772 0.0642136
3061000000 0.0121735 0.0646938 0.9878265 -0.0646938 0.9878265 -0.0646938 0.0121735 0.0646938
3082000000 0.0122714 0.0651724 0.9877286 -0.0651724 0.9877286 -0.0651724 0.0122714 0.0651724
3103000000 0.0123708 0.0656495 0.9876292 -0.0656495 0.9876292 -0.0656495 0.0123708 0.0656495
3124000000 0.0124716 0.0661250 0.9875284 -0.0661250 0.9875284 -0.0661250 0.0124716 0.0661250
3145000000 0.0125738 0.0665991 0.9874262 -0.0665991 0.9874262 -0.0665991 0.0125738 0.0665991
3166000000 0.0126772 0.0670717 0.9873228 -0.0670717 0.9873228 -0.0670717 0.0126772 0.0670717
3187000000 0.0127819 0.0675428 0.9872181 -0.0675428 0.9872181 -0.0675428 0.0127819 0.0675428
3208000000 0.0128878 0.0680126 0.9871122 -0.0680126 0.9871122 -0.0680126 0.0128878 0.0680126
3229000000 0.0129948 0.0684810 0.9870052 -0.0684810 0.9870052 -0.0684810 0.0129948 0.0684810
3250000000 0.0131028 0.0689481 0.9868972 -0.0689481 0.9868972 -0.0689481 0.0131028 0.0689481
3271000000 0.0132119 0.0694138 0.9867881 -0.0694138 0.9867881 -0.0694138 0.0132119 0.0694138
3292000000 0.0133219 0.0698783 0.9866781 -0.0698783 0.9866781 -0.0698783 0.0133219 0.0698783
3313000000 0.0134330 0.0703416 0.9865670 -0.0703416 0.9865670 -0.0703416 0.0134330 0.0703416
3334000000 0.0135449 0.0708036 0.9864551 -0.0708036 0.9864551 -0.0708036 0.0135449 0.0708036
3355000000 0.0136577 0.0712645 0.9863423 -0.0712645 0.9863423 -0.0712645 0.0136577 0.0712645
3376000000 0.0137713 0.0717241 0.9862287 -0.0717241 0.9862287 -0.0717241 0.0137713 0.0717241
3397000000 0.0138857 0.0721826 0.9861143 -0.0721826 0.9861143 -0.0721826 0.0138857 0.0721826
3418000000 0.0140010 0.0726400 0.9859990 -0.0726400 0.9859990 -0.0726400 0.0140010 0.0726400
3439000000 0.0141170 0.0730963 0.9858830 -0.0730963 0.9858830 -0.0730963 0.0141170 0.0730963
3460000000 0.0142337 0.0735516 0.9857663 -0.0735516 0.9857663 -0.0735516 0.0142337 0.0735516
3481000000 0.0143512 0.0740057 0.9856488 -0.0740057 0.9856488 -0.0740057 0.0143512 0.0740057
3502000000 0.0144693 0.0744589 0.9855307 -0.0744589 0.9855307 -0.0744589 0.0144693 0.0744589
3523000000 0.0145881 0.0749110 0.9854119 -0.0749110 0.9854119 -0.0749110 0.0145881 0.0749110
3544000000 0.0147076 0.0753621 0.9852924 -0.0753621 0.9852924 -0.0753621 0.0147076 0.0753621
3565000000 0.0148277 0.0758122 0.9851723 -0.0758122 0.9851723 -0.0758122 0.0148277 0.0758122
3586000000 0.0149485 0.0762614 0.9850515 -0.0762614 0.9850515 -0.0762614 0.0149485 0.0762614
3607000000 0.0150698 0.0767097 0.9849302 -0.0767097 0.9849302 -0.0767097 0.0150698 0.0767097
3628000000 0.0151918 0.0771570 0.9848082 -0.0771570 0.9848082 -0.0771570 0.0151918 0.0771570
3649000000 0.0153143 0.0776034 0.9846857 -0.0776034 0.9846857 -0.0776034 0.0153143 0.0776034
3670000000 0.0154374 0.0780489 0.9845626 -0.0780489 0.9845626 -0.0780489 0.0154374 0.0780489
3691000000 0.0155610 0.0784935 0.9844390 -0.0784935 0.9844390 -0.0784935 0.0155610 0.0784935
3712000000 0.0156852 0.0789372 0.9843148 -0.0789372 0.9843148 -0.0789372 0.0156852 0.0789372
3733000000 0.0158100 0.0793801 0.9841900 -0.0793801 0.9841900 -0.0793801 0.0158100 0.0793801
3754000000 0.0159352 0.0798222 0.9840648 -0.0798222 0.9840648 -0.0798222 0.0159352 0.0798222
3775000000 0.0160610 0.0802634 0.9839390 -0.0802634 0.9839390 -0.0802634 0.0160610 0.0802634
3796000000 0.0161873 0.0807038 0.9838127 -0.0807038 0.9838127 -0.0807038 0.0161873 0.0807038
3817000000 0.0163140 0.0811434 0.9836860 -0.0811434 0.9836860 -0.0811434 0.0163140 0.0811434
3838000000 0.0164413 0.0815822 0.9835587 -0.0815822 0.9835587 -0.0815822 0.0164413 0.0815822
3859000000 0.0165691 0.0820203 0.9834309 -0.0820203 0.9834309 -0.0820203 0.0165691 0.0820203
3880000000 0.0166973 0.0824575 0.9833027 -0.0824575 0.9833027 -0.0824575 0.0166973 0.0824575
3901000000 0.0168260 0.0828940 0.9831740 -0.0828940 0.9831740 -0.0828940 0.0168260 0.0828940
3922000000 0.0169551 0.0833298 0.9830449 -0.0833298 0.9830449 -0.0833298 0.0169551 0.0833298
3943000000 0.0170848 0.0837648 0.9829152 -0.0837648 0.9829152 -0.0837648 0.0170848 0.0837648
3964000000 0.0172148 0.0841991 0.9827852 -0.0841991 0.9827852 -0.0841991 0.0172148 0.0841991
3985000000 0.0173454 0.0846327 0.9826546 -0.0846327 0.9826546 -0.0846327 0.0173454 0.0846327
4006000000 0.0174763 0.0850655 0.9825237 -0.0850655 0.9825237 -0.0850655 0.0174763 0.0850655
4027000000 0.0176077 0.0854977 0.9823923 -0.0854977 0.9823923 -0.0854977 0.0176077 0.0854977
4048000000 0.0177395 0.0859292 0.9822605 -0.0859292 0.9822605 -0.0859292 0.0177395 0.0859292
4069000000 0.0178718 0.0863600 0.9821282 -0.0863600 0.9821282 -0.0863600 0.0178718 0.0863600
4090000000 0.0180045 0.0867901 0.9819955 -0.0867901 0.9819955 -0.0867901 0.0180045 0.0867901
4111000000 0.0181376 0.0872195 0.9818624 -0.0872195 0.9818624 -0.0872195 0.0181376 0.0872195
4132000000 0.0182711 0.0876483 0.9817289 -0.0876483 0.9817289 -0.0876483 0.0182711 0.0876483
4153000000 0.0184050 0.0880764 0.9815950 -0.0880764 0.9815950 -0.0880764 0.0184050 0.0880764
4174000000 0.0185393 0.0885038 0.9814607 -0.0885038 0.9814607 -0.0885038 0.0185393 0.0885038
4195000000 0.0186741 0.0889307 0.9813259 -0.0889307 0.9813259 -0.0889307 0.0186741 0.0889307
4216000000 0.0188092 0.0893569 0.9811908 -0.0893569 0.9811908 -0.0893569 0.0188092 0.0893569
4237000000 0.0189448 0.0897824 0.9810552 -0.0897824 0.9810552 -0.0897824 0.0189448 0.0897824
4258000000 0.0190807 0.0902074 0.9809193 -0.0902074 0.9809193 -0.0902074 0.0190807 0.0902074
4279000000 0.0192171 0.0906317 0.9807829 -0.0906317 0.9807829 -0.0906317 0.0192171 0.0906317
4300000000 0.0193538 0.0910554 0.9806462 -0.0910554 0.9806462 -0.0910554 0.0193538 0.0910554
4321000000 0.0194909 0.0914785 0.9805091 -0.0914785 0.9805091 -0.0914785 0.0194909 0.0914785
4342000000 0.0196284 0.0919010 0.9803716 -0.0919010 0.9803716 -0.0919010 0.0196284 0.0919010
4363000000 0.0197663 0.0923229 0.9802337 -0.0923229 0.9802337 -0.0923229 0.0197663 0.0923229
4384000000 0.0199046 0.0927443 0.9800954 -0.0927443 0.9800954 -0.0927443 0.0199046 0.0927443
4405000000 0.0200432 0.0931650 0.9799568 -0.0931650 0.9799568 -0.0931650 0.0200432 0.0931650
4426000000 0.0201823 0.0935852 0.9798177 -0.0935852 0.9798177 -0.0935852 0.0201823 0.0935852
4447000000 0.0203217 0.0940048 0.9796783 -0.0940048 0.9796783 -0.0940048 0.0203217 0.0940048
4468000000 0.0204615 0.0944238 0.9795385 -0.0944238 0.9795385 -0.0944238 0.0204615 0.0944238
4489000000 0.0206017 0.0948423 0.9793983 -0.0948423 0.9793983 -0.0948423 0.0206017 0.0948423
4510000000 0.0207422 0.0952602 0.9792578 -0.0952602 0.9792578 -0.0952602 0.0207422 0.0952602
