!Murata Part Number: GRM1553U1A122JA01
!These Parameters are Measured in Series Mode Connection
!Data Generated on Mar 30, 2021
!       o--ll--o
!Port1            Port2
!       o------o
!Operation Temp=25[degC], DC Bias Voltage=0[V]
!Freq. Start=1000[kHz] Stop=6[GHz] 401[Steps]
# Hz S RI R 50
!Freq.(Hz) S11(Real) S11(Imag) S21(Real) S21(Imag) S12(Real) S12(Imag) S22(Real) S22(Imag)
1000000 0.6268155 -0.4835574 0.3731845 0.4835574 0.3731845 0.4835574 0.6268155 -0.4835574
1021987 0.6165868 -0.4861224 0.3834132 0.4861224 0.3834132 0.4861224 0.6165868 -0.4861224
1044457 0.6062540 -0.4884824 0.3937460 0.4884824 0.3937460 0.4884824 0.6062540 -0.4884824
1067422 0.5958253 -0.4906322 0.4041747 0.4906322 0.4041747 0.4906322 0.5958253 -0.4906322
1090891 0.5853093 -0.4925670 0.4146907 0.4925670 0.4146907 0.4925670 0.5853093 -0.4925670
1114877 0.5747151 -0.4942823 0.4252849 0.4942823 0.4252849 0.4942823 0.5747151 -0.4942823
1139390 0.5640519 -0.4957743 0.4359481 0.4957743 0.4359481 0.4957743 0.5640519 -0.4957743
1164441 0.5533292 -0.4970394 0.4466708 0.4970394 0.4466708 0.4970394 0.5533292 -0.4970394
1190044 0.5425567 -0.4980748 0.4574433 0.4980748 0.4574433 0.4980748 0.5425567 -0.4980748
1216210 0.5317443 -0.4988780 0.4682557 0.4988780 0.4682557 0.4988780 0.5317443 -0.4988780
1242950 0.5209021 -0.4994472 0.4790979 0.4994472 0.4790979 0.4994472 0.5209021 -0.4994472
1270279 0.5100402 -0.4997809 0.4899598 0.4997809 0.4899598 0.4997809 0.5100402 -0.4997809
1298209 0.4991690 -0.4998784 0.5008310 0.4998784 0.5008310 0.4998784 0.4991690 -0.4998784
1326753 0.4882986 -0.4997395 0.5117014 0.4997395 0.5117014 0.4997395 0.4882986 -0.4997395
1355924 0.4774393 -0.4993645 0.5225607 0.4993645 0.5225607 0.4993645 0.4774393 -0.4993645
1385737 0.4666014 -0.4987542 0.5333986 0.4987542 0.5333986 0.4987542 0.4666014 -0.4987542
1416205 0.4557950 -0.4979102 0.5442050 0.4979102 0.5442050 0.4979102 0.4557950 -0.4979102
1447343 0.4450302 -0.4968344 0.5549698 0.4968344 0.5549698 0.4968344 0.4450302 -0.4968344
1479166 0.4343168 -0.4955292 0.5656832 0.4955292 0.5656832 0.4955292 0.4343168 -0.4955292
1511688 0.4236646 -0.4939978 0.5763354 0.4939978 0.5763354 0.4939978 0.4236646 -0.4939978
1544926 0.4130829 -0.4922436 0.5869171 0.4922436 0.5869171 0.4922436 0.4130829 -0.4922436
1578894 0.4025810 -0.4902707 0.5974190 0.4902707 0.5974190 0.4902707 0.4025810 -0.4902707
1613609 0.3921678 -0.4880835 0.6078322 0.4880835 0.6078322 0.4880835 0.3921678 -0.4880835
1649087 0.3818519 -0.4856869 0.6181481 0.4856869 0.6181481 0.4856869 0.3818519 -0.4856869
1685346 0.3716416 -0.4830864 0.6283584 0.4830864 0.6283584 0.4830864 0.3716416 -0.4830864
1722402 0.3615447 -0.4802874 0.6384553 0.4802874 0.6384553 0.4802874 0.3615447 -0.4802874
1760272 0.3515688 -0.4772962 0.6484312 0.4772962 0.6484312 0.4772962 0.3515688 -0.4772962
1798975 0.3417210 -0.4741190 0.6582790 0.4741190 0.6582790 0.4741190 0.3417210 -0.4741190
1838529 0.3320079 -0.4707625 0.6679921 0.4707625 0.6679921 0.4707625 0.3320079 -0.4707625
1878953 0.3224358 -0.4672337 0.6775642 0.4672337 0.6775642 0.4672337 0.3224358 -0.4672337
1920266 0.3130105 -0.4635397 0.6869895 0.4635397 0.6869895 0.4635397 0.3130105 -0.4635397
1962487 0.3037373 -0.4596877 0.6962627 0.4596877 0.6962627 0.4596877 0.3037373 -0.4596877
2005636 0.2946212 -0.4556854 0.7053788 0.4556854 0.7053788 0.4556854 0.2946212 -0.4556854
2049734 0.2856666 -0.4515403 0.7143334 0.4515403 0.7143334 0.4515403 0.2856666 -0.4515403
2094801 0.2768775 -0.4472602 0.7231225 0.4472602 0.7231225 0.4472602 0.2768775 -0.4472602
2140860 0.2682574 -0.4428528 0.7317426 0.4428528 0.7317426 0.4428528 0.2682574 -0.4428528
2187931 0.2598095 -0.4383260 0.7401905 0.4383260 0.7401905 0.4383260 0.2598095 -0.4383260
2236037 0.2515363 -0.4336876 0.7484637 0.4336876 0.7484637 0.4336876 0.2515363 -0.4336876
2285201 0.2434400 -0.4289455 0.7565600 0.4289455 0.7565600 0.4289455 0.2434400 -0.4289455
2335446 0.2355226 -0.4241073 0.7644774 0.4241073 0.7644774 0.4241073 0.2355226 -0.4241073
2386795 0.2277853 -0.4191808 0.7722147 0.4191808 0.7722147 0.4191808 0.2277853 -0.4191808
2439274 0.2202291 -0.4141737 0.7797709 0.4141737 0.7797709 0.4141737 0.2202291 -0.4141737
2492906 0.2128547 -0.4090933 0.7871453 0.4090933 0.7871453 0.4090933 0.2128547 -0.4090933
2547717 0.2056623 -0.4039472 0.7943377 0.4039472 0.7943377 0.4039472 0.2056623 -0.4039472
2603734 0.1986518 -0.3987425 0.8013482 0.3987425 0.8013482 0.3987425 0.1986518 -0.3987425
2660982 0.1918227 -0.3934862 0.8081773 0.3934862 0.8081773 0.3934862 0.1918227 -0.3934862
2719490 0.1851744 -0.3881853 0.8148256 0.3881853 0.8148256 0.3881853 0.1851744 -0.3881853
2779283 0.1787057 -0.3828465 0.8212943 0.3828465 0.8212943 0.3828465 0.1787057 -0.3828465
2840391 0.1724154 -0.3774761 0.8275846 0.3774761 0.8275846 0.3774761 0.1724154 -0.3774761
2902843 0.1663019 -0.3720806 0.8336981 0.3720806 0.8336981 0.3720806 0.1663019 -0.3720806
2966668 0.1603634 -0.3666659 0.8396366 0.3666659 0.8396366 0.3666659 0.1603634 -0.3666659
3031896 0.1545978 -0.3612379 0.8454022 0.3612379 0.8454022 0.3612379 0.1545978 -0.3612379
3098558 0.1490029 -0.3558022 0.8509971 0.3558022 0.8509971 0.3558022 0.1490029 -0.3558022
3166686 0.1435764 -0.3503642 0.8564236 0.3503642 0.8564236 0.3503642 0.1435764 -0.3503642
3236312 0.1383156 -0.3449289 0.8616844 0.3449289 0.8616844 0.3449289 0.1383156 -0.3449289
3307469 0.1332178 -0.3395012 0.8667822 0.3395012 0.8667822 0.3395012 0.1332178 -0.3395012
3380190 0.1282802 -0.3340859 0.8717198 0.3340859 0.8717198 0.3340859 0.1282802 -0.3340859
3454511 0.1234997 -0.3286873 0.8765003 0.3286873 0.8765003 0.3286873 0.1234997 -0.3286873
3530465 0.1188733 -0.3233097 0.8811267 0.3233097 0.8811267 0.3233097 0.1188733 -0.3233097
3608090 0.1143978 -0.3179568 0.8856022 0.3179568 0.8856022 0.3179568 0.1143978 -0.3179568
3687421 0.1100701 -0.3126326 0.8899299 0.3126326 0.8899299 0.3126326 0.1100701 -0.3126326
3768496 0.1058867 -0.3073405 0.8941133 0.3073405 0.8941133 0.3073405 0.1058867 -0.3073405
3851354 0.1018444 -0.3020837 0.8981556 0.3020837 0.8981556 0.3020837 0.1018444 -0.3020837
3936034 0.0979397 -0.2968653 0.9020603 0.2968653 0.9020603 0.2968653 0.0979397 -0.2968653
4022575 0.0941693 -0.2916881 0.9058307 0.2916881 0.9058307 0.2916881 0.0941693 -0.2916881
4111020 0.0905298 -0.2865549 0.9094702 0.2865549 0.9094702 0.2865549 0.0905298 -0.2865549
4201409 0.0870176 -0.2814680 0.9129824 0.2814680 0.9129824 0.2814680 0.0870176 -0.2814680
4293785 0.0836295 -0.2764297 0.9163705 0.2764297 0.9163705 0.2764297 0.0836295 -0.2764297
4388193 0.0803619 -0.2714420 0.9196381 0.2714420 0.9196381 0.2714420 0.0803619 -0.2714420
4484676 0.0772115 -0.2665070 0.9227885 0.2665070 0.9227885 0.2665070 0.0772115 -0.2665070
4583281 0.0741749 -0.2616262 0.9258251 0.2616262 0.9258251 0.2616262 0.0741749 -0.2616262
4684054 0.0712487 -0.2568013 0.9287513 0.2568013 0.9287513 0.2568013 0.0712487 -0.2568013
4787042 0.0684298 -0.2520336 0.9315702 0.2520336 0.9315702 0.2520336 0.0684298 -0.2520336
4892295 0.0657147 -0.2473244 0.9342853 0.2473244 0.9342853 0.2473244 0.0657147 -0.2473244
4999862 0.0631004 -0.2426749 0.9368996 0.2426749 0.9368996 0.2426749 0.0631004 -0.2426749
5109794 0.0605836 -0.2380859 0.9394164 0.2380859 0.9394164 0.2380859 0.0605836 -0.2380859
5222143 0.0581612 -0.2335583 0.9418388 0.2335583 0.9418388 0.2335583 0.0581612 -0.2335583
5336962 0.0558302 -0.2290929 0.9441698 0.2290929 0.9441698 0.2290929 0.0558302 -0.2290929
5454306 0.0535876 -0.2246902 0.9464124 0.2246902 0.9464124 0.2246902 0.0535876 -0.2246902
5574230 0.0514304 -0.2203508 0.9485696 0.2203508 0.9485696 0.2203508 0.0514304 -0.2203508
5696791 0.0493559 -0.2160750 0.9506441 0.2160750 0.9506441 0.2160750 0.0493559 -0.2160750
5822046 0.0473611 -0.2118631 0.9526389 0.2118631 0.9526389 0.2118631 0.0473611 -0.2118631
5950055 0.0454434 -0.2077154 0.9545566 0.2077154 0.9545566 0.2077154 0.0454434 -0.2077154
6080879 0.0436001 -0.2036319 0.9563999 0.2036319 0.9563999 0.2036319 0.0436001 -0.2036319
6214580 0.0418285 -0.1996126 0.9581715 0.1996126 0.9581715 0.1996126 0.0418285 -0.1996126
6351220 0.0401263 -0.1956576 0.9598737 0.1956576 0.9598737 0.1956576 0.0401263 -0.1956576
6490864 0.0384908 -0.1917667 0.9615092 0.1917667 0.9615092 0.1917667 0.0384908 -0.1917667
6633579 0.0369197 -0.1879397 0.9630803 0.1879397 0.9630803 0.1879397 0.0369197 -0.1879397
6779431 0.0354106 -0.1841764 0.9645894 0.1841764 0.9645894 0.1841764 0.0354106 -0.1841764
6928491 0.0339614 -0.1804765 0.9660386 0.1804765 0.9660386 0.1804765 0.0339614 -0.1804765
7080828 0.0325698 -0.1768397 0.9674302 0.1768397 0.9674302 0.1768397 0.0325698 -0.1768397
7236514 0.0312337 -0.1732654 0.9687663 0.1732654 0.9687663 0.1732654 0.0312337 -0.1732654
7395623 0.0299510 -0.1697534 0.9700490 0.1697534 0.9700490 0.1697534 0.0299510 -0.1697534
7558231 0.0287197 -0.1663031 0.9712803 0.1663031 0.9712803 0.1663031 0.0287197 -0.1663031
7724414 0.0275379 -0.1629139 0.9724621 0.1629139 0.9724621 0.1629139 0.0275379 -0.1629139
7894251 0.0264037 -0.1595854 0.9735963 0.1595854 0.9735963 0.1595854 0.0264037 -0.1595854
8067822 0.0253154 -0.1563169 0.9746846 0.1563169 0.9746846 0.1563169 0.0253154 -0.1563169
8245209 0.0242711 -0.1531078 0.9757289 0.1531078 0.9757289 0.1531078 0.0242711 -0.1531078
8426497 0.0232691 -0.1499575 0.9767309 0.1499575 0.9767309 0.1499575 0.0232691 -0.1499575
8611770 0.0223079 -0.1468653 0.9776921 0.1468653 0.9776921 0.1468653 0.0223079 -0.1468653
8801117 0.0213859 -0.1438306 0.9786141 0.1438306 0.9786141 0.1438306 0.0213859 -0.1438306
8994628 0.0205015 -0.1408525 0.9794985 0.1408525 0.9794985 0.1408525 0.0205015 -0.1408525
9192393 0.0196532 -0.1379304 0.9803468 0.1379304 0.9803468 0.1379304 0.0196532 -0.1379304
9394506 0.0188398 -0.1350636 0.9811602 0.1350636 0.9811602 0.1350636 0.0188398 -0.1350636
9601063 0.0180596 -0.1322513 0.9819404 0.1322513 0.9819404 0.1322513 0.0180596 -0.1322513
9812162 0.0173116 -0.1294927 0.9826884 0.1294927 0.9826884 0.1294927 0.0173116 -0.1294927
10027902 0.0165944 -0.1267871 0.9834056 0.1267871 0.9834056 0.1267871 0.0165944 -0.1267871
10248386 0.0159067 -0.1241337 0.9840933 0.1241337 0.9840933 0.1241337 0.0159067 -0.1241337
10473717 0.0152474 -0.1215317 0.9847526 0.1215317 0.9847526 0.1215317 0.0152474 -0.1215317
10704003 0.0146154 -0.1189804 0.9853846 0.1189804 0.9853846 0.1189804 0.0146154 -0.1189804
10939352 0.0140095 -0.1164789 0.9859905 0.1164789 0.9859905 0.1164789 0.0140095 -0.1164789
11179876 0.0134288 -0.1140266 0.9865712 0.1140266 0.9865712 0.1140266 0.0134288 -0.1140266
11425688 0.0128722 -0.1116224 0.9871278 0.1116224 0.9871278 0.1116224 0.0128722 -0.1116224
11676904 0.0123387 -0.1092658 0.9876613 0.1092658 0.9876613 0.1092658 0.0123387 -0.1092658
11933645 0.0118274 -0.1069559 0.9881726 0.1069559 0.9881726 0.1069559 0.0118274 -0.1069559
12196030 0.0113374 -0.1046919 0.9886626 0.1046919 0.9886626 0.1046919 0.0113374 -0.1046919
12464184 0.0108679 -0.1024731 0.9891321 0.1024731 0.9891321 0.1024731 0.0108679 -0.1024731
12738235 0.0104180 -0.1002986 0.9895820 0.1002986 0.9895820 0.1002986 0.0104180 -0.1002986
13018310 0.0099868 -0.0981677 0.9900132 0.0981677 0.9900132 0.0981677 0.0099868 -0.0981677
13304544 0.0095737 -0.0960796 0.9904263 0.0960796 0.9904263 0.0960796 0.0095737 -0.0960796
13597071 0.0091779 -0.0940336 0.9908221 0.0940336 0.9908221 0.0940336 0.0091779 -0.0940336
13896030 0.0087987 -0.0920288 0.9912013 0.0920288 0.9912013 0.0920288 0.0087987 -0.0920288
14201563 0.0084355 -0.0900647 0.9915645 0.0900647 0.9915645 0.0900647 0.0084355 -0.0900647
14513813 0.0080874 -0.0881403 0.9919126 0.0881403 0.9919126 0.0881403 0.0080874 -0.0881403
14832928 0.0077541 -0.0862550 0.9922459 0.0862550 0.9922459 0.0862550 0.0077541 -0.0862550
15159060 0.0074347 -0.0844081 0.9925653 0.0844081 0.9925653 0.0844081 0.0074347 -0.0844081
15492362 0.0071288 -0.0825988 0.9928712 0.0825988 0.9928712 0.0825988 0.0071288 -0.0825988
15832993 0.0068358 -0.0808264 0.9931642 0.0808264 0.9931642 0.0808264 0.0068358 -0.0808264
16181113 0.0065552 -0.0790902 0.9934448 0.0790902 0.9934448 0.0790902 0.0065552 -0.0790902
16536888 0.0062864 -0.0773895 0.9937136 0.0773895 0.9937136 0.0773895 0.0062864 -0.0773895
16900485 0.0060290 -0.0757237 0.9939710 0.0757237 0.9939710 0.0757237 0.0060290 -0.0757237
17272076 0.0057825 -0.0740920 0.9942175 0.0740920 0.9942175 0.0740920 0.0057825 -0.0740920
17651837 0.0055464 -0.0724938 0.9944536 0.0724938 0.9944536 0.0724938 0.0055464 -0.0724938
18039948 0.0053203 -0.0709285 0.9946797 0.0709285 0.9946797 0.0709285 0.0053203 -0.0709285
18436593 0.0051039 -0.0693953 0.9948961 0.0693953 0.9948961 0.0693953 0.0051039 -0.0693953
18841959 0.0048966 -0.0678937 0.9951034 0.0678937 0.9951034 0.0678937 0.0048966 -0.0678937
19256237 0.0046982 -0.0664230 0.9953018 0.0664230 0.9953018 0.0664230 0.0046982 -0.0664230
19679624 0.0045082 -0.0649826 0.9954918 0.0649826 0.9954918 0.0649826 0.0045082 -0.0649826
20112321 0.0043263 -0.0635720 0.9956737 0.0635720 0.9956737 0.0635720 0.0043263 -0.0635720
20554530 0.0041522 -0.0621904 0.9958478 0.0621904 0.9958478 0.0621904 0.0041522 -0.0621904
21006463 0.0039855 -0.0608373 0.9960145 0.0608373 0.9960145 0.0608373 0.0039855 -0.0608373
21468333 0.0038259 -0.0595121 0.9961741 0.0595121 0.9961741 0.0595121 0.0038259 -0.0595121
21940357 0.0036732 -0.0582144 0.9963268 0.0582144 0.9963268 0.0582144 0.0036732 -0.0582144
22422760 0.0035271 -0.0569434 0.9964729 0.0569434 0.9964729 0.0569434 0.0035271 -0.0569434
22915770 0.0033872 -0.0556986 0.9966128 0.0556986 0.9966128 0.0556986 0.0033872 -0.0556986
23419619 0.0032533 -0.0544796 0.9967467 0.0544796 0.9967467 0.0544796 0.0032533 -0.0544796
23934547 0.0031252 -0.0532857 0.9968748 0.0532857 0.9968748 0.0532857 0.0031252 -0.0532857
24460796 0.0030027 -0.0521165 0.9969973 0.0521165 0.9969973 0.0521165 0.0030027 -0.0521165
24998616 0.0028854 -0.0509714 0.9971146 0.0509714 0.9971146 0.0509714 0.0028854 -0.0509714
25548261 0.0027733 -0.0498499 0.9972267 0.0498499 0.9972267 0.0498499 0.0027733 -0.0498499
26109991 0.0026659 -0.0487516 0.9973341 0.0487516 0.9973341 0.0487516 0.0026659 -0.0487516
26684072 0.0025633 -0.0476759 0.9974367 0.0476759 0.9974367 0.0476759 0.0025633 -0.0476759
27270775 0.0024651 -0.0466224 0.9975349 0.0466224 0.9975349 0.0466224 0.0024651 -0.0466224
27870378 0.0023713 -0.0455906 0.9976287 0.0455906 0.9976287 0.0455906 0.0023713 -0.0455906
28483164 0.0022815 -0.0445801 0.9977185 0.0445801 0.9977185 0.0445801 0.0022815 -0.0445801
29109424 0.0021957 -0.0435903 0.9978043 0.0435903 0.9978043 0.0435903 0.0021957 -0.0435903
29749453 0.0021136 -0.0426209 0.9978864 0.0426209 0.9978864 0.0426209 0.0021136 -0.0426209
30403555 0.0020352 -0.0416713 0.9979648 0.0416713 0.9979648 0.0416713 0.0020352 -0.0416713
31072038 0.0019602 -0.0407413 0.9980398 0.0407413 0.9980398 0.0407413 0.0019602 -0.0407413
31755220 0.0018886 -0.0398304 0.9981114 0.0398304 0.9981114 0.0398304 0.0018886 -0.0398304
32453422 0.0018202 -0.0389380 0.9981798 0.0389380 0.9981798 0.0389380 0.0018202 -0.0389380
33166976 0.0017548 -0.0380640 0.9982452 0.0380640 0.9982452 0.0380640 0.0017548 -0.0380640
33896219 0.0016924 -0.0372078 0.9983076 0.0372078 0.9983076 0.0372078 0.0016924 -0.0372078
34641496 0.0016327 -0.0363690 0.9983673 0.0363690 0.9983673 0.0363690 0.0016327 -0.0363690
35403159 0.0015758 -0.0355474 0.9984242 0.0355474 0.9984242 0.0355474 0.0015758 -0.0355474
36181569 0.0015214 -0.0347425 0.9984786 0.0347425 0.9984786 0.0347425 0.0015214 -0.0347425
36977093 0.0014695 -0.0339539 0.9985305 0.0339539 0.9985305 0.0339539 0.0014695 -0.0339539
37790109 0.0014200 -0.0331813 0.9985800 0.0331813 0.9985800 0.0331813 0.0014200 -0.0331813
38621001 0.0013728 -0.0324243 0.9986272 0.0324243 0.9986272 0.0324243 0.0013728 -0.0324243
39470161 0.0013278 -0.0316827 0.9986722 0.0316827 0.9986722 0.0316827 0.0013278 -0.0316827
40337993 0.0012848 -0.0309559 0.9987152 0.0309559 0.9987152 0.0309559 0.0012848 -0.0309559
41224905 0.0012438 -0.0302438 0.9987562 0.0302438 0.9987562 0.0302438 0.0012438 -0.0302438
42131317 0.0012048 -0.0295460 0.9987952 0.0295460 0.9987952 0.0295460 0.0012048 -0.0295460
43057659 0.0011676 -0.0288622 0.9988324 0.0288622 0.9988324 0.0288622 0.0011676 -0.0288622
44004369 0.0011322 -0.0281920 0.9988678 0.0281920 0.9988678 0.0281920 0.0011322 -0.0281920
44971893 0.0010985 -0.0275352 0.9989015 0.0275352 0.9989015 0.0275352 0.0010985 -0.0275352
45960691 0.0010664 -0.0268914 0.9989336 0.0268914 0.9989336 0.0268914 0.0010664 -0.0268914
46971230 0.0010358 -0.0262604 0.9989642 0.0262604 0.9989642 0.0262604 0.0010358 -0.0262604
48003987 0.0010068 -0.0256419 0.9989932 0.0256419 0.9989932 0.0256419 0.0010068 -0.0256419
49059451 0.0009791 -0.0250355 0.9990209 0.0250355 0.9990209 0.0250355 0.0009791 -0.0250355
50138122 0.0009528 -0.0244410 0.9990472 0.0244410 0.9990472 0.0244410 0.0009528 -0.0244410
51240510 0.0009279 -0.0238582 0.9990721 0.0238582 0.9990721 0.0238582 0.0009279 -0.0238582
52367136 0.0009042 -0.0232867 0.9990958 0.0232867 0.9990958 0.0232867 0.0009042 -0.0232867
53518533 0.0008817 -0.0227262 0.9991183 0.0227262 0.9991183 0.0227262 0.0008817 -0.0227262
54695245 0.0008603 -0.0221767 0.9991397 0.0221767 0.9991397 0.0221767 0.0008603 -0.0221767
55897831 0.0008401 -0.0216377 0.9991599 0.0216377 0.9991599 0.0216377 0.0008401 -0.0216377
57126857 0.0008209 -0.0211090 0.9991791 0.0211090 0.9991791 0.0211090 0.0008209 -0.0211090
58382906 0.0008027 -0.0205904 0.9991973 0.0205904 0.9991973 0.0205904 0.0008027 -0.0205904
59666572 0.0007855 -0.0200816 0.9992145 0.0200816 0.9992145 0.0200816 0.0007855 -0.0200816
60978462 0.0007692 -0.0195824 0.9992308 0.0195824 0.9992308 0.0195824 0.0007692 -0.0195824
62319196 0.0007538 -0.0190926 0.9992462 0.0190926 0.9992462 0.0190926 0.0007538 -0.0190926
63689409 0.0007392 -0.0186120 0.9992608 0.0186120 0.9992608 0.0186120 0.0007392 -0.0186120
65089750 0.0007254 -0.0181402 0.9992746 0.0181402 0.9992746 0.0181402 0.0007254 -0.0181402
66520879 0.0007125 -0.0176772 0.9992875 0.0176772 0.9992875 0.0176772 0.0007125 -0.0176772
67983474 0.0007002 -0.0172226 0.9992998 0.0172226 0.9992998 0.0172226 0.0007002 -0.0172226
69478228 0.0006887 -0.0167762 0.9993113 0.0167762 0.9993113 0.0167762 0.0006887 -0.0167762
71005847 0.0006778 -0.0163380 0.9993222 0.0163380 0.9993222 0.0163380 0.0006778 -0.0163380
72567054 0.0006676 -0.0159075 0.9993324 0.0159075 0.9993324 0.0159075 0.0006676 -0.0159075
74162587 0.0006580 -0.0154847 0.9993420 0.0154847 0.9993420 0.0154847 0.0006580 -0.0154847
75793201 0.0006491 -0.0150694 0.9993509 0.0150694 0.9993509 0.0150694 0.0006491 -0.0150694
77459667 0.0006406 -0.0146613 0.9993594 0.0146613 0.9993594 0.0146613 0.0006406 -0.0146613
79162774 0.0006327 -0.0142602 0.9993673 0.0142602 0.9993673 0.0142602 0.0006327 -0.0142602
80903327 0.0006254 -0.0138660 0.9993746 0.0138660 0.9993746 0.0138660 0.0006254 -0.0138660
82682150 0.0006185 -0.0134784 0.9993815 0.0134784 0.9993815 0.0134784 0.0006185 -0.0134784
84500083 0.0006121 -0.0130974 0.9993879 0.0130974 0.9993879 0.0130974 0.0006121 -0.0130974
86357988 0.0006062 -0.0127227 0.9993938 0.0127227 0.9993938 0.0127227 0.0006062 -0.0127227
88256743 0.0006007 -0.0123540 0.9993993 0.0123540 0.9993993 0.0123540 0.0006007 -0.0123540
90197245 0.0005956 -0.0119914 0.9994044 0.0119914 0.9994044 0.0119914 0.0005956 -0.0119914
92180413 0.0005909 -0.0116345 0.9994091 0.0116345 0.9994091 0.0116345 0.0005909 -0.0116345
94207185 0.0005866 -0.0112832 0.9994134 0.0112832 0.9994134 0.0112832 0.0005866 -0.0112832
96278520 0.0005827 -0.0109374 0.9994173 0.0109374 0.9994173 0.0109374 0.0005827 -0.0109374
98395398 0.0005792 -0.0105968 0.9994208 0.0105968 0.9994208 0.0105968 0.0005792 -0.0105968
100558819 0.0005759 -0.0102613 0.9994241 0.0102613 0.9994241 0.0102613 0.0005759 -0.0102613
102769807 0.0005730 -0.0099308 0.9994270 0.0099308 0.9994270 0.0099308 0.0005730 -0.0099308
105029408 0.0005704 -0.0096051 0.9994296 0.0096051 0.9994296 0.0096051 0.0005704 -0.0096051
107338692 0.0005682 -0.0092840 0.9994318 0.0092840 0.9994318 0.0092840 0.0005682 -0.0092840
