!Murata Part Number: GRM1552C1H4R2BA01
!These Parameters are Measured in Series Mode Connection
!Data Generated on Mar 30, 2021
!       o--ll--o
!Port1            Port2
!       o------o
!Operation Temp=25[degC], DC Bias Voltage=0[V]
!Freq. Start=100[MHz] Stop=9[GHz] 401[Steps]
# Hz S RI R 50
!Freq.(Hz) S11(Real) S11(Imag) S21(Real) S21(Imag) S12(Real) S12(Imag) S22(Real) S22(Imag)
100000000 0.9346955 -0.2467649 0.0653045 0.2467649 0.0653045 0.2467649 0.9346955 -0.2467649
121000000 0.9071607 -0.2898465 0.0928393 0.2898465 0.0928393 0.2898465 0.9071607 -0.2898465
142000000 0.8764050 -0.3286951 0.1235950 0.3286951 0.1235950 0.3286951 0.8764050 -0.3286951
163000000 0.8432122 -0.3631132 0.1567878 0.3631132 0.1567878 0.3631132 0.8432122 -0.3631132
184000000 0.8083336 -0.3930606 0.1916664 0.3930606 0.1916664 0.3930606 0.8083336 -0.3930606
205000000 0.7724586 -0.4186292 0.2275414 0.4186292 0.2275414 0.4186292 0.7724586 -0.4186292
226000000 0.7361947 -0.4400144 0.2638053 0.4400144 0.2638053 0.4400144 0.7361947 -0.4400144
247000000 0.7000583 -0.4574862 0.2999417 0.4574862 0.2999417 0.4574862 0.7000583 -0.4574862
268000000 0.6644722 -0.4713628 0.3355278 0.4713628 0.3355278 0.4713628 0.6644722 -0.4713628
289000000 0.6297703 -0.4819877 0.3702297 0.4819877 0.3702297 0.4819877 0.6297703 -0.4819877
310000000 0.5962044 -0.4897119 0.4037956 0.4897119 0.4037956 0.4897119 0.5962044 -0.4897119
331000000 0.5639550 -0.4948794 0.4360450 0.4948794 0.4360450 0.4948794 0.5639550 -0.4948794
352000000 0.5331420 -0.4978183 0.4668580 0.4978183 0.4668580 0.4978183 0.5331420 -0.4978183
373000000 0.5038349 -0.4988338 0.4961651 0.4988338 0.4961651 0.4988338 0.5038349 -0.4988338
394000000 0.4760631 -0.4982049 0.5239369 0.4982049 0.5239369 0.4982049 0.4760631 -0.4982049
415000000 0.4498249 -0.4961832 0.5501751 0.4961832 0.5501751 0.4961832 0.4498249 -0.4961832
436000000 0.4250944 -0.4929923 0.5749056 0.4929923 0.5749056 0.4929923 0.4250944 -0.4929923
457000000 0.4018284 -0.4888295 0.5981716 0.4888295 0.5981716 0.4888295 0.4018284 -0.4888295
478000000 0.3799716 -0.4838673 0.6200284 0.4838673 0.6200284 0.4838673 0.3799716 -0.4838673
499000000 0.3594605 -0.4782550 0.6405395 0.4782550 0.6405395 0.4782550 0.3594605 -0.4782550
520000000 0.3402265 -0.4721216 0.6597735 0.4721216 0.6597735 0.4721216 0.3402265 -0.4721216
541000000 0.3221990 -0.4655778 0.6778010 0.4655778 0.6778010 0.4655778 0.3221990 -0.4655778
562000000 0.3053070 -0.4587177 0.6946930 0.4587177 0.6946930 0.4587177 0.3053070 -0.4587177
583000000 0.2894800 -0.4516216 0.7105200 0.4516216 0.7105200 0.4516216 0.2894800 -0.4516216
604000000 0.2746500 -0.4443572 0.7253500 0.4443572 0.7253500 0.4443572 0.2746500 -0.4443572
625000000 0.2607512 -0.4369814 0.7392488 0.4369814 0.7392488 0.4369814 0.2607512 -0.4369814
646000000 0.2477213 -0.4295422 0.7522787 0.4295422 0.7522787 0.4295422 0.2477213 -0.4295422
667000000 0.2355008 -0.4220794 0.7644992 0.4220794 0.7644992 0.4220794 0.2355008 -0.4220794
688000000 0.2240342 -0.4146260 0.7759658 0.4146260 0.7759658 0.4146260 0.2240342 -0.4146260
709000000 0.2132692 -0.4072093 0.7867308 0.4072093 0.7867308 0.4072093 0.2132692 -0.4072093
730000000 0.2031570 -0.3998518 0.7968430 0.3998518 0.7968430 0.3998518 0.2031570 -0.3998518
751000000 0.1936521 -0.3925715 0.8063479 0.3925715 0.8063479 0.3925715 0.1936521 -0.3925715
772000000 0.1847121 -0.3853831 0.8152879 0.3853831 0.8152879 0.3853831 0.1847121 -0.3853831
793000000 0.1762980 -0.3782981 0.8237020 0.3782981 0.8237020 0.3782981 0.1762980 -0.3782981
814000000 0.1683732 -0.3713258 0.8316268 0.3713258 0.8316268 0.3713258 0.1683732 -0.3713258
835000000 0.1609040 -0.3644728 0.8390960 0.3644728 0.8390960 0.3644728 0.1609040 -0.3644728
856000000 0.1538593 -0.3577445 0.8461407 0.3577445 0.8461407 0.3577445 0.1538593 -0.3577445
877000000 0.1472102 -0.3511445 0.8527898 0.3511445 0.8527898 0.3511445 0.1472102 -0.3511445
898000000 0.1409300 -0.3446750 0.8590700 0.3446750 0.8590700 0.3446750 0.1409300 -0.3446750
919000000 0.1349939 -0.3383374 0.8650061 0.3383374 0.8650061 0.3383374 0.1349939 -0.3383374
940000000 0.1293791 -0.3321323 0.8706209 0.3321323 0.8706209 0.3321323 0.1293791 -0.3321323
961000000 0.1240646 -0.3260592 0.8759354 0.3260592 0.8759354 0.3260592 0.1240646 -0.3260592
982000000 0.1190306 -0.3201174 0.8809694 0.3201174 0.8809694 0.3201174 0.1190306 -0.3201174
1003000000 0.1142593 -0.3143054 0.8857407 0.3143054 0.8857407 0.3143054 0.1142593 -0.3143054
1024000000 0.1097336 -0.3086217 0.8902664 0.3086217 0.8902664 0.3086217 0.1097336 -0.3086217
1045000000 0.1054382 -0.3030640 0.8945618 0.3030640 0.8945618 0.3030640 0.1054382 -0.3030640
1066000000 0.1013587 -0.2976303 0.8986413 0.2976303 0.8986413 0.2976303 0.1013587 -0.2976303
1087000000 0.0974816 -0.2923179 0.9025184 0.2923179 0.9025184 0.2923179 0.0974816 -0.2923179
1108000000 0.0937947 -0.2871242 0.9062053 0.2871242 0.9062053 0.2871242 0.0937947 -0.2871242
1129000000 0.0902863 -0.2820466 0.9097137 0.2820466 0.9097137 0.2820466 0.0902863 -0.2820466
1150000000 0.0869459 -0.2770822 0.9130541 0.2770822 0.9130541 0.2770822 0.0869459 -0.2770822
1171000000 0.0837634 -0.2722282 0.9162366 0.2722282 0.9162366 0.2722282 0.0837634 -0.2722282
1192000000 0.0807297 -0.2674817 0.9192703 0.2674817 0.9192703 0.2674817 0.0807297 -0.2674817
1213000000 0.0778361 -0.2628399 0.9221639 0.2628399 0.9221639 0.2628399 0.0778361 -0.2628399
1234000000 0.0750746 -0.2582999 0.9249254 0.2582999 0.9249254 0.2582999 0.0750746 -0.2582999
1255000000 0.0724377 -0.2538589 0.9275623 0.2538589 0.9275623 0.2538589 0.0724377 -0.2538589
1276000000 0.0699186 -0.2495140 0.9300814 0.2495140 0.9300814 0.2495140 0.0699186 -0.2495140
1297000000 0.0675106 -0.2452626 0.9324894 0.2452626 0.9324894 0.2452626 0.0675106 -0.2452626
1318000000 0.0652077 -0.2411020 0.9347923 0.2411020 0.9347923 0.2411020 0.0652077 -0.2411020
1339000000 0.0630042 -0.2370295 0.9369958 0.2370295 0.9369958 0.2370295 0.0630042 -0.2370295
1360000000 0.0608948 -0.2330424 0.9391052 0.2330424 0.9391052 0.2330424 0.0608948 -0.2330424
1381000000 0.0588745 -0.2291384 0.9411255 0.2291384 0.9411255 0.2291384 0.0588745 -0.2291384
1402000000 0.0569387 -0.2253150 0.9430613 0.2253150 0.9430613 0.2253150 0.0569387 -0.2253150
1423000000 0.0550830 -0.2215697 0.9449170 0.2215697 0.9449170 0.2215697 0.0550830 -0.2215697
1444000000 0.0533033 -0.2179002 0.9466967 0.2179002 0.9466967 0.2179002 0.0533033 -0.2179002
1465000000 0.0515958 -0.2143043 0.9484042 0.2143043 0.9484042 0.2143043 0.0515958 -0.2143043
1486000000 0.0499568 -0.2107799 0.9500432 0.2107799 0.9500432 0.2107799 0.0499568 -0.2107799
1507000000 0.0483830 -0.2073247 0.9516170 0.2073247 0.9516170 0.2073247 0.0483830 -0.2073247
1528000000 0.0468712 -0.2039367 0.9531288 0.2039367 0.9531288 0.2039367 0.0468712 -0.2039367
1549000000 0.0454184 -0.2006140 0.9545816 0.2006140 0.9545816 0.2006140 0.0454184 -0.2006140
1570000000 0.0440218 -0.1973545 0.9559782 0.1973545 0.9559782 0.1973545 0.0440218 -0.1973545
1591000000 0.0426786 -0.1941565 0.9573214 0.1941565 0.9573214 0.1941565 0.0426786 -0.1941565
1612000000 0.0413864 -0.1910182 0.9586136 0.1910182 0.9586136 0.1910182 0.0413864 -0.1910182
1633000000 0.0401429 -0.1879377 0.9598571 0.1879377 0.9598571 0.1879377 0.0401429 -0.1879377
1654000000 0.0389457 -0.1849134 0.9610543 0.1849134 0.9610543 0.1849134 0.0389457 -0.1849134
1675000000 0.0377929 -0.1819438 0.9622071 0.1819438 0.9622071 0.1819438 0.0377929 -0.1819438
1696000000 0.0366823 -0.1790271 0.9633177 0.1790271 0.9633177 0.1790271 0.0366823 -0.1790271
1717000000 0.0356122 -0.1761618 0.9643878 0.1761618 0.9643878 0.1761618 0.0356122 -0.1761618
1738000000 0.0345807 -0.1733466 0.9654193 0.1733466 0.9654193 0.1733466 0.0345807 -0.1733466
1759000000 0.0335862 -0.1705799 0.9664138 0.1705799 0.9664138 0.1705799 0.0335862 -0.1705799
1780000000 0.0326270 -0.1678604 0.9673730 0.1678604 0.9673730 0.1678604 0.0326270 -0.1678604
1801000000 0.0317017 -0.1651868 0.9682983 0.1651868 0.9682983 0.1651868 0.0317017 -0.1651868
1822000000 0.0308087 -0.1625578 0.9691913 0.1625578 0.9691913 0.1625578 0.0308087 -0.1625578
1843000000 0.0299469 -0.1599721 0.9700531 0.1599721 0.9700531 0.1599721 0.0299469 -0.1599721
1864000000 0.0291148 -0.1574285 0.9708852 0.1574285 0.9708852 0.1574285 0.0291148 -0.1574285
1885000000 0.0283113 -0.1549258 0.9716887 0.1549258 0.9716887 0.1549258 0.0283113 -0.1549258
1906000000 0.0275352 -0.1524630 0.9724648 0.1524630 0.9724648 0.1524630 0.0275352 -0.1524630
1927000000 0.0267854 -0.1500390 0.9732146 0.1500390 0.9732146 0.1500390 0.0267854 -0.1500390
1948000000 0.0260608 -0.1476527 0.9739392 0.1476527 0.9739392 0.1476527 0.0260608 -0.1476527
1969000000 0.0253604 -0.1453030 0.9746396 0.1453030 0.9746396 0.1453030 0.0253604 -0.1453030
1990000000 0.0246834 -0.1429891 0.9753166 0.1429891 0.9753166 0.1429891 0.0246834 -0.1429891
2011000000 0.0240287 -0.1407099 0.9759713 0.1407099 0.9759713 0.1407099 0.0240287 -0.1407099
2032000000 0.0233956 -0.1384645 0.9766044 0.1384645 0.9766044 0.1384645 0.0233956 -0.1384645
2053000000 0.0227832 -0.1362521 0.9772168 0.1362521 0.9772168 0.1362521 0.0227832 -0.1362521
2074000000 0.0221907 -0.1340717 0.9778093 0.1340717 0.9778093 0.1340717 0.0221907 -0.1340717
2095000000 0.0216174 -0.1319226 0.9783826 0.1319226 0.9783826 0.1319226 0.0216174 -0.1319226
2116000000 0.0210627 -0.1298039 0.9789373 0.1298039 0.9789373 0.1298039 0.0210627 -0.1298039
2137000000 0.0205257 -0.1277149 0.9794743 0.1277149 0.9794743 0.1277149 0.0205257 -0.1277149
2158000000 0.0200058 -0.1256548 0.9799942 0.1256548 0.9799942 0.1256548 0.0200058 -0.1256548
2179000000 0.0195026 -0.1236228 0.9804974 0.1236228 0.9804974 0.1236228 0.0195026 -0.1236228
2200000000 0.0190152 -0.1216183 0.9809848 0.1216183 0.9809848 0.1216183 0.0190152 -0.1216183
2221000000 0.0185433 -0.1196405 0.9814567 0.1196405 0.9814567 0.1196405 0.0185433 -0.1196405
2242000000 0.0180862 -0.1176889 0.9819138 0.1176889 0.9819138 0.1176889 0.0180862 -0.1176889
2263000000 0.0176434 -0.1157627 0.9823566 0.1157627 0.9823566 0.1157627 0.0176434 -0.1157627
2284000000 0.0172145 -0.1138613 0.9827855 0.1138613 0.9827855 0.1138613 0.0172145 -0.1138613
2305000000 0.0167990 -0.1119841 0.9832010 0.1119841 0.9832010 0.1119841 0.0167990 -0.1119841
2326000000 0.0163964 -0.1101305 0.9836036 0.1101305 0.9836036 0.1101305 0.0163964 -0.1101305
2347000000 0.0160063 -0.1083000 0.9839937 0.1083000 0.9839937 0.1083000 0.0160063 -0.1083000
2368000000 0.0156282 -0.1064920 0.9843718 0.1064920 0.9843718 0.1064920 0.0156282 -0.1064920
2389000000 0.0152618 -0.1047059 0.9847382 0.1047059 0.9847382 0.1047059 0.0152618 -0.1047059
2410000000 0.0149068 -0.1029413 0.9850932 0.1029413 0.9850932 0.1029413 0.0149068 -0.1029413
2431000000 0.0145626 -0.1011975 0.9854374 0.1011975 0.9854374 0.1011975 0.0145626 -0.1011975
2452000000 0.0142291 -0.0994743 0.9857709 0.0994743 0.9857709 0.0994743 0.0142291 -0.0994743
2473000000 0.0139058 -0.0977709 0.9860942 0.0977709 0.9860942 0.0977709 0.0139058 -0.0977709
2494000000 0.0135924 -0.0960871 0.9864076 0.0960871 0.9864076 0.0960871 0.0135924 -0.0960871
2515000000 0.0132886 -0.0944223 0.9867114 0.0944223 0.9867114 0.0944223 0.0132886 -0.0944223
2536000000 0.0129942 -0.0927761 0.9870058 0.0927761 0.9870058 0.0927761 0.0129942 -0.0927761
2557000000 0.0127088 -0.0911481 0.9872912 0.0911481 0.9872912 0.0911481 0.0127088 -0.0911481
2578000000 0.0124321 -0.0895378 0.9875679 0.0895378 0.9875679 0.0895378 0.0124321 -0.0895378
2599000000 0.0121640 -0.0879449 0.9878360 0.0879449 0.9878360 0.0879449 0.0121640 -0.0879449
2620000000 0.0119041 -0.0863690 0.9880959 0.0863690 0.9880959 0.0863690 0.0119041 -0.0863690
2641000000 0.0116522 -0.0848096 0.9883478 0.0848096 0.9883478 0.0848096 0.0116522 -0.0848096
2662000000 0.0114081 -0.0832665 0.9885919 0.0832665 0.9885919 0.0832665 0.0114081 -0.0832665
2683000000 0.0111715 -0.0817392 0.9888285 0.0817392 0.9888285 0.0817392 0.0111715 -0.0817392
2704000000 0.0109422 -0.0802274 0.9890578 0.0802274 0.9890578 0.0802274 0.0109422 -0.0802274
2725000000 0.0107201 -0.0787308 0.9892799 0.0787308 0.9892799 0.0787308 0.0107201 -0.0787308
2746000000 0.0105049 -0.0772490 0.9894951 0.0772490 0.9894951 0.0772490 0.0105049 -0.0772490
2767000000 0.0102964 -0.0757818 0.9897036 0.0757818 0.9897036 0.0757818 0.0102964 -0.0757818
2788000000 0.0100944 -0.0743287 0.9899056 0.0743287 0.9899056 0.0743287 0.0100944 -0.0743287
2809000000 0.0098988 -0.0728895 0.9901012 0.0728895 0.9901012 0.0728895 0.0098988 -0.0728895
2830000000 0.0097094 -0.0714639 0.9902906 0.0714639 0.9902906 0.0714639 0.0097094 -0.0714639
2851000000 0.0095260 -0.0700516 0.9904740 0.0700516 0.9904740 0.0700516 0.0095260 -0.0700516
2872000000 0.0093485 -0.0686523 0.9906515 0.0686523 0.9906515 0.0686523 0.0093485 -0.0686523
2893000000 0.0091766 -0.0672658 0.9908234 0.0672658 0.9908234 0.0672658 0.0091766 -0.0672658
2914000000 0.0090104 -0.0658917 0.9909896 0.0658917 0.9909896 0.0658917 0.0090104 -0.0658917
2935000000 0.0088495 -0.0645298 0.9911505 0.0645298 0.9911505 0.0645298 0.0088495 -0.0645298
2956000000 0.0086939 -0.0631799 0.9913061 0.0631799 0.9913061 0.0631799 0.0086939 -0.0631799
2977000000 0.0085435 -0.0618417 0.9914565 0.0618417 0.9914565 0.0618417 0.0085435 -0.0618417
2998000000 0.0083981 -0.0605150 0.9916019 0.0605150 0.9916019 0.0605150 0.0083981 -0.0605150
3019000000 0.0082575 -0.0591994 0.9917425 0.0591994 0.9917425 0.0591994 0.0082575 -0.0591994
3040000000 0.0081217 -0.0578949 0.9918783 0.0578949 0.9918783 0.0578949 0.0081217 -0.0578949
3061000000 0.0079906 -0.0566011 0.9920094 0.0566011 0.9920094 0.0566011 0.0079906 -0.0566011
3082000000 0.0078640 -0.0553179 0.9921360 0.0553179 0.9921360 0.0553179 0.0078640 -0.0553179
3103000000 0.0077418 -0.0540450 0.9922582 0.0540450 0.9922582 0.0540450 0.0077418 -0.0540450
3124000000 0.0076240 -0.0527823 0.9923760 0.0527823 0.9923760 0.0527823 0.0076240 -0.0527823
3145000000 0.0075103 -0.0515294 0.9924897 0.0515294 0.9924897 0.0515294 0.0075103 -0.0515294
3166000000 0.0074008 -0.0502863 0.9925992 0.0502863 0.9925992 0.0502863 0.0074008 -0.0502863
3187000000 0.0072954 -0.0490527 0.9927046 0.0490527 0.9927046 0.0490527 0.0072954 -0.0490527
3208000000 0.0071938 -0.0478284 0.9928062 0.0478284 0.9928062 0.0478284 0.0071938 -0.0478284
3229000000 0.0070962 -0.0466133 0.9929038 0.0466133 0.9929038 0.0466133 0.0070962 -0.0466133
3250000000 0.0070022 -0.0454071 0.9929978 0.0454071 0.9929978 0.0454071 0.0070022 -0.0454071
3271000000 0.0069120 -0.0442097 0.9930880 0.0442097 0.9930880 0.0442097 0.0069120 -0.0442097
3292000000 0.0068254 -0.0430209 0.9931746 0.0430209 0.9931746 0.0430209 0.0068254 -0.0430209
3313000000 0.0067423 -0.0418406 0.9932577 0.0418406 0.9932577 0.0418406 0.0067423 -0.0418406
3334000000 0.0066626 -0.0406685 0.9933374 0.0406685 0.9933374 0.0406685 0.0066626 -0.0406685
3355000000 0.0065863 -0.0395046 0.9934137 0.0395046 0.9934137 0.0395046 0.0065863 -0.0395046
3376000000 0.0065134 -0.0383486 0.9934866 0.0383486 0.9934866 0.0383486 0.0065134 -0.0383486
3397000000 0.0064437 -0.0372003 0.9935563 0.0372003 0.9935563 0.0372003 0.0064437 -0.0372003
3418000000 0.0063771 -0.0360598 0.9936229 0.0360598 0.9936229 0.0360598 0.0063771 -0.0360598
3439000000 0.0063137 -0.0349267 0.9936863 0.0349267 0.9936863 0.0349267 0.0063137 -0.0349267
3460000000 0.0062533 -0.0338009 0.9937467 0.0338009 0.9937467 0.0338009 0.0062533 -0.0338009
3481000000 0.0061959 -0.0326824 0.9938041 0.0326824 0.9938041 0.0326824 0.0061959 -0.0326824
3502000000 0.0061415 -0.0315709 0.9938585 0.0315709 0.9938585 0.0315709 0.0061415 -0.0315709
3523000000 0.0060899 -0.0304664 0.9939101 0.0304664 0.9939101 0.0304664 0.0060899 -0.0304664
3544000000 0.0060412 -0.0293686 0.9939588 0.0293686 0.9939588 0.0293686 0.0060412 -0.0293686
3565000000 0.0059952 -0.0282775 0.9940048 0.0282775 0.9940048 0.0282775 0.0059952 -0.0282775
3586000000 0.0059520 -0.0271929 0.9940480 0.0271929 0.9940480 0.0271929 0.0059520 -0.0271929
3607000000 0.0059114 -0.0261147 0.9940886 0.0261147 0.9940886 0.0261147 0.0059114 -0.0261147
3628000000 0.0058735 -0.0250428 0.9941265 0.0250428 0.9941265 0.0250428 0.0058735 -0.0250428
3649000000 0.0058381 -0.0239771 0.9941619 0.0239771 0.9941619 0.0239771 0.0058381 -0.0239771
3670000000 0.0058053 -0.0229174 0.9941947 0.0229174 0.9941947 0.0229174 0.0058053 -0.0229174
3691000000 0.0057750 -0.0218636 0.9942250 0.0218636 0.9942250 0.0218636 0.0057750 -0.0218636
3712000000 0.0057472 -0.0208157 0.9942528 0.0208157 0.9942528 0.0208157 0.0057472 -0.0208157
3733000000 0.0057217 -0.0197734 0.9942783 0.0197734 0.9942783 0.0197734 0.0057217 -0.0197734
3754000000 0.0056987 -0.0187367 0.9943013 0.0187367 0.9943013 0.0187367 0.0056987 -0.0187367
3775000000 0.0056780 -0.0177055 0.9943220 0.0177055 0.9943220 0.0177055 0.0056780 -0.0177055
3796000000 0.0056596 -0.0166796 0.9943404 0.0166796 0.9943404 0.0166796 0.0056596 -0.0166796
3817000000 0.0056434 -0.0156591 0.9943566 0.0156591 0.9943566 0.0156591 0.0056434 -0.0156591
3838000000 0.0056296 -0.0146437 0.9943704 0.0146437 0.9943704 0.0146437 0.0056296 -0.0146437
3859000000 0.0056179 -0.0136333 0.9943821 0.0136333 0.9943821 0.0136333 0.0056179 -0.0136333
3880000000 0.0056084 -0.0126279 0.9943916 0.0126279 0.9943916 0.0126279 0.0056084 -0.0126279
3901000000 0.0056010 -0.0116274 0.9943990 0.0116274 0.9943990 0.0116274 0.0056010 -0.0116274
3922000000 0.0055957 -0.0106317 0.9944043 0.0106317 0.9944043 0.0106317 0.0055957 -0.0106317
3943000000 0.0055926 -0.0096406 0.9944074 0.0096406 0.9944074 0.0096406 0.0055926 -0.0096406
3964000000 0.0055915 -0.0086541 0.9944085 0.0086541 0.9944085 0.0086541 0.0055915 -0.0086541
3985000000 0.0055924 -0.0076721 0.9944076 0.0076721 0.9944076 0.0076721 0.0055924 -0.0076721
4006000000 0.0055953 -0.0066945 0.9944047 0.0066945 0.9944047 0.0066945 0.0055953 -0.0066945
4027000000 0.0056003 -0.0057213 0.9943997 0.0057213 0.9943997 0.0057213 0.0056003 -0.0057213
4048000000 0.0056071 -0.0047523 0.9943929 0.0047523 0.9943929 0.0047523 0.0056071 -0.0047523
4069000000 0.0056160 -0.0037874 0.9943840 0.0037874 0.9943840 0.0037874 0.0056160 -0.0037874
4090000000 0.0056267 -0.0028266 0.9943733 0.0028266 0.9943733 0.0028266 0.0056267 -0.0028266
4111000000 0.0056393 -0.0018697 0.9943607 0.0018697 0.9943607 0.0018697 0.0056393 -0.0018697
4132000000 0.0056538 -0.0009168 0.9943462 0.0009168 0.9943462 0.0009168 0.0056538 -0.0009168
4153000000 0.0056702 0.0000323 0.9943298 -0.0000323 0.9943298 -0.0000323 0.0056702 0.0000323
4174000000 0.0056884 0.0009777 0.9943116 -0.0009777 0.9943116 -0.0009777 0.0056884 0.0009777
4195000000 0.0057084 0.0019194 0.9942916 -0.0019194 0.9942916 -0.0019194 0.0057084 0.0019194
4216000000 0.0057302 0.0028575 0.9942698 -0.0028575 0.9942698 -0.0028575 0.0057302 0.0028575
4237000000 0.0057538 0.0037921 0.9942462 -0.0037921 0.9942462 -0.0037921 0.0057538 0.0037921
4258000000 0.0057792 0.0047232 0.9942208 -0.0047232 0.9942208 -0.0047232 0.0057792 0.0047232
4279000000 0.0058063 0.0056510 0.9941937 -0.0056510 0.9941937 -0.0056510 0.0058063 0.0056510
4300000000 0.0058351 0.0065755 0.9941649 -0.0065755 0.9941649 -0.0065755 0.0058351 0.0065755
4321000000 0.0058657 0.0074967 0.9941343 -0.0074967 0.9941343 -0.0074967 0.0058657 0.0074967
4342000000 0.0058980 0.0084148 0.9941020 -0.0084148 0.9941020 -0.0084148 0.0058980 0.0084148
4363000000 0.0059320 0.0093298 0.9940680 -0.0093298 0.9940680 -0.0093298 0.0059320 0.0093298
4384000000 0.0059677 0.0102418 0.9940323 -0.0102418 0.9940323 -0.0102418 0.0059677 0.0102418
4405000000 0.0060050 0.0111508 0.9939950 -0.0111508 0.9939950 -0.0111508 0.0060050 0.0111508
4426000000 0.0060440 0.0120569 0.9939560 -0.0120569 0.9939560 -0.0120569 0.0060440 0.0120569
4447000000 0.0060847 0.0129603 0.9939153 -0.0129603 0.9939153 -0.0129603 0.0060847 0.0129603
4468000000 0.0061270 0.0138608 0.9938730 -0.0138608 0.9938730 -0.0138608 0.0061270 0.0138608
4489000000 0.0061710 0.0147587 0.9938290 -0.0147587 0.9938290 -0.0147587 0.0061710 0.0147587
4510000000 0.0062166 0.0156539 0.9937834 -0.0156539 0.9937834 -0.0156539 0.0062166 0.0156539
