!Murata Part Number: GRM1553C2A2R8BA01
!These Parameters are Measured in Series Mode Connection
!Data Generated on Mar 30, 2021
!       o--ll--o
!Port1            Port2
!       o------o
!Operation Temp=25[degC], DC Bias Voltage=0[V]
!Freq. Start=100[MHz] Stop=9[GHz] 401[Steps]
# Hz S RI R 50
!Freq.(Hz) S11(Real) S11(Imag) S21(Real) S21(Imag) S12(Real) S12(Imag) S22(Real) S22(Imag)
100000000 0.9698714 -0.1706774 0.0301286 0.1706774 0.0301286 0.1706774 0.9698714 -0.1706774
121000000 0.9564841 -0.2036960 0.0435159 0.2036960 0.0435159 0.2036960 0.9564841 -0.2036960
142000000 0.9410162 -0.2352195 0.0589838 0.2352195 0.0589838 0.2352195 0.9410162 -0.2352195
163000000 0.9236796 -0.2650795 0.0763204 0.2650795 0.0763204 0.2650795 0.9236796 -0.2650795
184000000 0.9046996 -0.2931432 0.0953004 0.2931432 0.0953004 0.2931432 0.9046996 -0.2931432
205000000 0.8843084 -0.3193128 0.1156916 0.3193128 0.1156916 0.3193128 0.8843084 -0.3193128
226000000 0.8627387 -0.3435253 0.1372613 0.3435253 0.1372613 0.3435253 0.8627387 -0.3435253
247000000 0.8402189 -0.3657493 0.1597811 0.3657493 0.1597811 0.3657493 0.8402189 -0.3657493
268000000 0.8169682 -0.3859829 0.1830318 0.3859829 0.1830318 0.3859829 0.8169682 -0.3859829
289000000 0.7931932 -0.4042499 0.2068068 0.4042499 0.2068068 0.4042499 0.7931932 -0.4042499
310000000 0.7690852 -0.4205959 0.2309148 0.4205959 0.2309148 0.4205959 0.7690852 -0.4205959
331000000 0.7448183 -0.4350848 0.2551817 0.4350848 0.2551817 0.4350848 0.7448183 -0.4350848
352000000 0.7205483 -0.4477948 0.2794517 0.4477948 0.2794517 0.4477948 0.7205483 -0.4477948
373000000 0.6964128 -0.4588148 0.3035872 0.4588148 0.3035872 0.4588148 0.6964128 -0.4588148
394000000 0.6725310 -0.4682414 0.3274690 0.4682414 0.3274690 0.4682414 0.6725310 -0.4682414
415000000 0.6490046 -0.4761760 0.3509954 0.4761760 0.3509954 0.4761760 0.6490046 -0.4761760
436000000 0.6259186 -0.4827221 0.3740814 0.4827221 0.3740814 0.4827221 0.6259186 -0.4827221
457000000 0.6033428 -0.4879837 0.3966572 0.4879837 0.3966572 0.4879837 0.6033428 -0.4879837
478000000 0.5813329 -0.4920630 0.4186671 0.4920630 0.4186671 0.4920630 0.5813329 -0.4920630
499000000 0.5599321 -0.4950598 0.4400679 0.4950598 0.4400679 0.4950598 0.5599321 -0.4950598
520000000 0.5391724 -0.4970699 0.4608276 0.4970699 0.4608276 0.4970699 0.5391724 -0.4970699
541000000 0.5190760 -0.4981845 0.4809240 0.4981845 0.4809240 0.4981845 0.5190760 -0.4981845
562000000 0.4996567 -0.4984900 0.5003433 0.4984900 0.5003433 0.4984900 0.4996567 -0.4984900
583000000 0.4809212 -0.4980673 0.5190788 0.4980673 0.5190788 0.4980673 0.4809212 -0.4980673
604000000 0.4628698 -0.4969920 0.5371302 0.4969920 0.5371302 0.4969920 0.4628698 -0.4969920
625000000 0.4454979 -0.4953340 0.5545021 0.4953340 0.5545021 0.4953340 0.4454979 -0.4953340
646000000 0.4287968 -0.4931581 0.5712032 0.4931581 0.5712032 0.4931581 0.4287968 -0.4931581
667000000 0.4127542 -0.4905235 0.5872458 0.4905235 0.5872458 0.4905235 0.4127542 -0.4905235
688000000 0.3973552 -0.4874848 0.6026448 0.4874848 0.6026448 0.4874848 0.3973552 -0.4874848
709000000 0.3825830 -0.4840916 0.6174170 0.4840916 0.6174170 0.4840916 0.3825830 -0.4840916
730000000 0.3684188 -0.4803890 0.6315812 0.4803890 0.6315812 0.4803890 0.3684188 -0.4803890
751000000 0.3548432 -0.4764181 0.6451568 0.4764181 0.6451568 0.4764181 0.3548432 -0.4764181
772000000 0.3418355 -0.4722158 0.6581645 0.4722158 0.6581645 0.4722158 0.3418355 -0.4722158
793000000 0.3293751 -0.4678157 0.6706249 0.4678157 0.6706249 0.4678157 0.3293751 -0.4678157
814000000 0.3174407 -0.4632479 0.6825593 0.4632479 0.6825593 0.4632479 0.3174407 -0.4632479
835000000 0.3060115 -0.4585396 0.6939885 0.4585396 0.6939885 0.4585396 0.3060115 -0.4585396
856000000 0.2950665 -0.4537149 0.7049335 0.4537149 0.7049335 0.4537149 0.2950665 -0.4537149
877000000 0.2845852 -0.4487958 0.7154148 0.4487958 0.7154148 0.4487958 0.2845852 -0.4487958
898000000 0.2745475 -0.4438017 0.7254525 0.4438017 0.7254525 0.4438017 0.2745475 -0.4438017
919000000 0.2649340 -0.4387498 0.7350660 0.4387498 0.7350660 0.4387498 0.2649340 -0.4387498
940000000 0.2557257 -0.4336557 0.7442743 0.4336557 0.7442743 0.4336557 0.2557257 -0.4336557
961000000 0.2469041 -0.4285330 0.7530959 0.4285330 0.7530959 0.4285330 0.2469041 -0.4285330
982000000 0.2384516 -0.4233940 0.7615484 0.4233940 0.7615484 0.4233940 0.2384516 -0.4233940
1003000000 0.2303513 -0.4182493 0.7696487 0.4182493 0.7696487 0.4182493 0.2303513 -0.4182493
1024000000 0.2225868 -0.4131085 0.7774132 0.4131085 0.7774132 0.4131085 0.2225868 -0.4131085
1045000000 0.2151425 -0.4079799 0.7848575 0.4079799 0.7848575 0.4079799 0.2151425 -0.4079799
1066000000 0.2080033 -0.4028708 0.7919967 0.4028708 0.7919967 0.4028708 0.2080033 -0.4028708
1087000000 0.2011551 -0.3977876 0.7988449 0.3977876 0.7988449 0.3977876 0.2011551 -0.3977876
1108000000 0.1945843 -0.3927360 0.8054157 0.3927360 0.8054157 0.3927360 0.1945843 -0.3927360
1129000000 0.1882777 -0.3877207 0.8117223 0.3877207 0.8117223 0.3877207 0.1882777 -0.3877207
1150000000 0.1822232 -0.3827459 0.8177768 0.3827459 0.8177768 0.3827459 0.1822232 -0.3827459
1171000000 0.1764088 -0.3778152 0.8235912 0.3778152 0.8235912 0.3778152 0.1764088 -0.3778152
1192000000 0.1708234 -0.3729317 0.8291766 0.3729317 0.8291766 0.3729317 0.1708234 -0.3729317
1213000000 0.1654563 -0.3680980 0.8345437 0.3680980 0.8345437 0.3680980 0.1654563 -0.3680980
1234000000 0.1602975 -0.3633161 0.8397025 0.3633161 0.8397025 0.3633161 0.1602975 -0.3633161
1255000000 0.1553373 -0.3585880 0.8446627 0.3585880 0.8446627 0.3585880 0.1553373 -0.3585880
1276000000 0.1505665 -0.3539150 0.8494335 0.3539150 0.8494335 0.3539150 0.1505665 -0.3539150
1297000000 0.1459766 -0.3492983 0.8540234 0.3492983 0.8540234 0.3492983 0.1459766 -0.3492983
1318000000 0.1415593 -0.3447388 0.8584407 0.3447388 0.8584407 0.3447388 0.1415593 -0.3447388
1339000000 0.1373067 -0.3402371 0.8626933 0.3402371 0.8626933 0.3402371 0.1373067 -0.3402371
1360000000 0.1332115 -0.3357937 0.8667885 0.3357937 0.8667885 0.3357937 0.1332115 -0.3357937
1381000000 0.1292666 -0.3314089 0.8707334 0.3314089 0.8707334 0.3314089 0.1292666 -0.3314089
1402000000 0.1254653 -0.3270827 0.8745347 0.3270827 0.8745347 0.3270827 0.1254653 -0.3270827
1423000000 0.1218013 -0.3228152 0.8781987 0.3228152 0.8781987 0.3228152 0.1218013 -0.3228152
1444000000 0.1182685 -0.3186061 0.8817315 0.3186061 0.8817315 0.3186061 0.1182685 -0.3186061
1465000000 0.1148613 -0.3144552 0.8851387 0.3144552 0.8851387 0.3144552 0.1148613 -0.3144552
1486000000 0.1115740 -0.3103621 0.8884260 0.3103621 0.8884260 0.3103621 0.1115740 -0.3103621
1507000000 0.1084017 -0.3063263 0.8915983 0.3063263 0.8915983 0.3063263 0.1084017 -0.3063263
1528000000 0.1053394 -0.3023474 0.8946606 0.3023474 0.8946606 0.3023474 0.1053394 -0.3023474
1549000000 0.1023823 -0.2984248 0.8976177 0.2984248 0.8976177 0.2984248 0.1023823 -0.2984248
1570000000 0.0995262 -0.2945578 0.9004738 0.2945578 0.9004738 0.2945578 0.0995262 -0.2945578
1591000000 0.0967667 -0.2907456 0.9032333 0.2907456 0.9032333 0.2907456 0.0967667 -0.2907456
1612000000 0.0940998 -0.2869877 0.9059002 0.2869877 0.9059002 0.2869877 0.0940998 -0.2869877
1633000000 0.0915218 -0.2832833 0.9084782 0.2832833 0.9084782 0.2832833 0.0915218 -0.2832833
1654000000 0.0890289 -0.2796315 0.9109711 0.2796315 0.9109711 0.2796315 0.0890289 -0.2796315
1675000000 0.0866178 -0.2760316 0.9133822 0.2760316 0.9133822 0.2760316 0.0866178 -0.2760316
1696000000 0.0842852 -0.2724828 0.9157148 0.2724828 0.9157148 0.2724828 0.0842852 -0.2724828
1717000000 0.0820278 -0.2689842 0.9179722 0.2689842 0.9179722 0.2689842 0.0820278 -0.2689842
1738000000 0.0798427 -0.2655350 0.9201573 0.2655350 0.9201573 0.2655350 0.0798427 -0.2655350
1759000000 0.0777271 -0.2621343 0.9222729 0.2621343 0.9222729 0.2621343 0.0777271 -0.2621343
1780000000 0.0756783 -0.2587813 0.9243217 0.2587813 0.9243217 0.2587813 0.0756783 -0.2587813
1801000000 0.0736937 -0.2554752 0.9263063 0.2554752 0.9263063 0.2554752 0.0736937 -0.2554752
1822000000 0.0717707 -0.2522151 0.9282293 0.2522151 0.9282293 0.2522151 0.0717707 -0.2522151
1843000000 0.0699071 -0.2490002 0.9300929 0.2490002 0.9300929 0.2490002 0.0699071 -0.2490002
1864000000 0.0681006 -0.2458295 0.9318994 0.2458295 0.9318994 0.2458295 0.0681006 -0.2458295
1885000000 0.0663491 -0.2427024 0.9336509 0.2427024 0.9336509 0.2427024 0.0663491 -0.2427024
1906000000 0.0646505 -0.2396179 0.9353495 0.2396179 0.9353495 0.2396179 0.0646505 -0.2396179
1927000000 0.0630028 -0.2365753 0.9369972 0.2365753 0.9369972 0.2365753 0.0630028 -0.2365753
1948000000 0.0614043 -0.2335737 0.9385957 0.2335737 0.9385957 0.2335737 0.0614043 -0.2335737
1969000000 0.0598530 -0.2306124 0.9401470 0.2306124 0.9401470 0.2306124 0.0598530 -0.2306124
1990000000 0.0583473 -0.2276905 0.9416527 0.2276905 0.9416527 0.2276905 0.0583473 -0.2276905
2011000000 0.0568857 -0.2248073 0.9431143 0.2248073 0.9431143 0.2248073 0.0568857 -0.2248073
2032000000 0.0554664 -0.2219621 0.9445336 0.2219621 0.9445336 0.2219621 0.0554664 -0.2219621
2053000000 0.0540880 -0.2191540 0.9459120 0.2191540 0.9459120 0.2191540 0.0540880 -0.2191540
2074000000 0.0527492 -0.2163823 0.9472508 0.2163823 0.9472508 0.2163823 0.0527492 -0.2163823
2095000000 0.0514484 -0.2136464 0.9485516 0.2136464 0.9485516 0.2136464 0.0514484 -0.2136464
2116000000 0.0501845 -0.2109454 0.9498155 0.2109454 0.9498155 0.2109454 0.0501845 -0.2109454
2137000000 0.0489561 -0.2082788 0.9510439 0.2082788 0.9510439 0.2082788 0.0489561 -0.2082788
2158000000 0.0477620 -0.2056458 0.9522380 0.2056458 0.9522380 0.2056458 0.0477620 -0.2056458
2179000000 0.0466012 -0.2030457 0.9533988 0.2030457 0.9533988 0.2030457 0.0466012 -0.2030457
2200000000 0.0454724 -0.2004779 0.9545276 0.2004779 0.9545276 0.2004779 0.0454724 -0.2004779
2221000000 0.0443747 -0.1979417 0.9556253 0.1979417 0.9556253 0.1979417 0.0443747 -0.1979417
2242000000 0.0433070 -0.1954366 0.9566930 0.1954366 0.9566930 0.1954366 0.0433070 -0.1954366
2263000000 0.0422683 -0.1929618 0.9577317 0.1929618 0.9577317 0.1929618 0.0422683 -0.1929618
2284000000 0.0412577 -0.1905168 0.9587423 0.1905168 0.9587423 0.1905168 0.0412577 -0.1905168
2305000000 0.0402743 -0.1881010 0.9597257 0.1881010 0.9597257 0.1881010 0.0402743 -0.1881010
2326000000 0.0393173 -0.1857138 0.9606827 0.1857138 0.9606827 0.1857138 0.0393173 -0.1857138
2347000000 0.0383858 -0.1833547 0.9616142 0.1833547 0.9616142 0.1833547 0.0383858 -0.1833547
2368000000 0.0374789 -0.1810230 0.9625211 0.1810230 0.9625211 0.1810230 0.0374789 -0.1810230
2389000000 0.0365961 -0.1787183 0.9634039 0.1787183 0.9634039 0.1787183 0.0365961 -0.1787183
2410000000 0.0357364 -0.1764399 0.9642636 0.1764399 0.9642636 0.1764399 0.0357364 -0.1764399
2431000000 0.0348992 -0.1741875 0.9651008 0.1741875 0.9651008 0.1741875 0.0348992 -0.1741875
2452000000 0.0340839 -0.1719604 0.9659161 0.1719604 0.9659161 0.1719604 0.0340839 -0.1719604
2473000000 0.0332897 -0.1697582 0.9667103 0.1697582 0.9667103 0.1697582 0.0332897 -0.1697582
2494000000 0.0325160 -0.1675804 0.9674840 0.1675804 0.9674840 0.1675804 0.0325160 -0.1675804
2515000000 0.0317623 -0.1654265 0.9682377 0.1654265 0.9682377 0.1654265 0.0317623 -0.1654265
2536000000 0.0310279 -0.1632960 0.9689721 0.1632960 0.9689721 0.1632960 0.0310279 -0.1632960
2557000000 0.0303122 -0.1611885 0.9696878 0.1611885 0.9696878 0.1611885 0.0303122 -0.1611885
2578000000 0.0296149 -0.1591036 0.9703851 0.1591036 0.9703851 0.1591036 0.0296149 -0.1591036
2599000000 0.0289352 -0.1570408 0.9710648 0.1570408 0.9710648 0.1570408 0.0289352 -0.1570408
2620000000 0.0282727 -0.1549996 0.9717273 0.1549996 0.9717273 0.1549996 0.0282727 -0.1549996
2641000000 0.0276270 -0.1529797 0.9723730 0.1529797 0.9723730 0.1529797 0.0276270 -0.1529797
2662000000 0.0269975 -0.1509807 0.9730025 0.1509807 0.9730025 0.1509807 0.0269975 -0.1509807
2683000000 0.0263838 -0.1490022 0.9736162 0.1490022 0.9736162 0.1490022 0.0263838 -0.1490022
2704000000 0.0257855 -0.1470437 0.9742145 0.1470437 0.9742145 0.1470437 0.0257855 -0.1470437
2725000000 0.0252022 -0.1451049 0.9747978 0.1451049 0.9747978 0.1451049 0.0252022 -0.1451049
2746000000 0.0246334 -0.1431855 0.9753666 0.1431855 0.9753666 0.1431855 0.0246334 -0.1431855
2767000000 0.0240787 -0.1412850 0.9759213 0.1412850 0.9759213 0.1412850 0.0240787 -0.1412850
2788000000 0.0235379 -0.1394031 0.9764621 0.1394031 0.9764621 0.1394031 0.0235379 -0.1394031
2809000000 0.0230104 -0.1375395 0.9769896 0.1375395 0.9769896 0.1375395 0.0230104 -0.1375395
2830000000 0.0224960 -0.1356938 0.9775040 0.1356938 0.9775040 0.1356938 0.0224960 -0.1356938
2851000000 0.0219943 -0.1338656 0.9780057 0.1338656 0.9780057 0.1338656 0.0219943 -0.1338656
2872000000 0.0215050 -0.1320548 0.9784950 0.1320548 0.9784950 0.1320548 0.0215050 -0.1320548
2893000000 0.0210278 -0.1302608 0.9789722 0.1302608 0.9789722 0.1302608 0.0210278 -0.1302608
2914000000 0.0205624 -0.1284836 0.9794376 0.1284836 0.9794376 0.1284836 0.0205624 -0.1284836
2935000000 0.0201084 -0.1267226 0.9798916 0.1267226 0.9798916 0.1267226 0.0201084 -0.1267226
2956000000 0.0196657 -0.1249777 0.9803343 0.1249777 0.9803343 0.1249777 0.0196657 -0.1249777
2977000000 0.0192338 -0.1232485 0.9807662 0.1232485 0.9807662 0.1232485 0.0192338 -0.1232485
2998000000 0.0188126 -0.1215348 0.9811874 0.1215348 0.9811874 0.1215348 0.0188126 -0.1215348
3019000000 0.0184017 -0.1198363 0.9815983 0.1198363 0.9815983 0.1198363 0.0184017 -0.1198363
3040000000 0.0180010 -0.1181527 0.9819990 0.1181527 0.9819990 0.1181527 0.0180010 -0.1181527
3061000000 0.0176102 -0.1164837 0.9823898 0.1164837 0.9823898 0.1164837 0.0176102 -0.1164837
3082000000 0.0172290 -0.1148291 0.9827710 0.1148291 0.9827710 0.1148291 0.0172290 -0.1148291
3103000000 0.0168573 -0.1131887 0.9831427 0.1131887 0.9831427 0.1131887 0.0168573 -0.1131887
3124000000 0.0164947 -0.1115621 0.9835053 0.1115621 0.9835053 0.1115621 0.0164947 -0.1115621
3145000000 0.0161412 -0.1099492 0.9838588 0.1099492 0.9838588 0.1099492 0.0161412 -0.1099492
3166000000 0.0157964 -0.1083496 0.9842036 0.1083496 0.9842036 0.1083496 0.0157964 -0.1083496
3187000000 0.0154603 -0.1067633 0.9845397 0.1067633 0.9845397 0.1067633 0.0154603 -0.1067633
3208000000 0.0151325 -0.1051899 0.9848675 0.1051899 0.9848675 0.1051899 0.0151325 -0.1051899
3229000000 0.0148129 -0.1036291 0.9851871 0.1036291 0.9851871 0.1036291 0.0148129 -0.1036291
3250000000 0.0145013 -0.1020809 0.9854987 0.1020809 0.9854987 0.1020809 0.0145013 -0.1020809
3271000000 0.0141976 -0.1005450 0.9858024 0.1005450 0.9858024 0.1005450 0.0141976 -0.1005450
3292000000 0.0139016 -0.0990211 0.9860984 0.0990211 0.9860984 0.0990211 0.0139016 -0.0990211
3313000000 0.0136131 -0.0975091 0.9863869 0.0975091 0.9863869 0.0975091 0.0136131 -0.0975091
3334000000 0.0133319 -0.0960088 0.9866681 0.0960088 0.9866681 0.0960088 0.0133319 -0.0960088
3355000000 0.0130579 -0.0945199 0.9869421 0.0945199 0.9869421 0.0945199 0.0130579 -0.0945199
3376000000 0.0127910 -0.0930424 0.9872090 0.0930424 0.9872090 0.0930424 0.0127910 -0.0930424
3397000000 0.0125309 -0.0915759 0.9874691 0.0915759 0.9874691 0.0915759 0.0125309 -0.0915759
3418000000 0.0122776 -0.0901203 0.9877224 0.0901203 0.9877224 0.0901203 0.0122776 -0.0901203
3439000000 0.0120309 -0.0886754 0.9879691 0.0886754 0.9879691 0.0886754 0.0120309 -0.0886754
3460000000 0.0117907 -0.0872410 0.9882093 0.0872410 0.9882093 0.0872410 0.0117907 -0.0872410
3481000000 0.0115569 -0.0858171 0.9884431 0.0858171 0.9884431 0.0858171 0.0115569 -0.0858171
3502000000 0.0113293 -0.0844033 0.9886707 0.0844033 0.9886707 0.0844033 0.0113293 -0.0844033
3523000000 0.0111078 -0.0829996 0.9888922 0.0829996 0.9888922 0.0829996 0.0111078 -0.0829996
3544000000 0.0108922 -0.0816057 0.9891078 0.0816057 0.9891078 0.0816057 0.0108922 -0.0816057
3565000000 0.0106826 -0.0802215 0.9893174 0.0802215 0.9893174 0.0802215 0.0106826 -0.0802215
3586000000 0.0104786 -0.0788469 0.9895214 0.0788469 0.9895214 0.0788469 0.0104786 -0.0788469
3607000000 0.0102804 -0.0774817 0.9897196 0.0774817 0.9897196 0.0774817 0.0102804 -0.0774817
3628000000 0.0100877 -0.0761257 0.9899123 0.0761257 0.9899123 0.0761257 0.0100877 -0.0761257
3649000000 0.0099004 -0.0747788 0.9900996 0.0747788 0.9900996 0.0747788 0.0099004 -0.0747788
3670000000 0.0097184 -0.0734409 0.9902816 0.0734409 0.9902816 0.0734409 0.0097184 -0.0734409
3691000000 0.0095417 -0.0721117 0.9904583 0.0721117 0.9904583 0.0721117 0.0095417 -0.0721117
3712000000 0.0093702 -0.0707913 0.9906298 0.0707913 0.9906298 0.0707913 0.0093702 -0.0707913
3733000000 0.0092037 -0.0694793 0.9907963 0.0694793 0.9907963 0.0694793 0.0092037 -0.0694793
3754000000 0.0090422 -0.0681758 0.9909578 0.0681758 0.9909578 0.0681758 0.0090422 -0.0681758
3775000000 0.0088855 -0.0668805 0.9911145 0.0668805 0.9911145 0.0668805 0.0088855 -0.0668805
3796000000 0.0087337 -0.0655934 0.9912663 0.0655934 0.9912663 0.0655934 0.0087337 -0.0655934
3817000000 0.0085866 -0.0643142 0.9914134 0.0643142 0.9914134 0.0643142 0.0085866 -0.0643142
3838000000 0.0084441 -0.0630430 0.9915559 0.0630430 0.9915559 0.0630430 0.0084441 -0.0630430
3859000000 0.0083062 -0.0617795 0.9916938 0.0617795 0.9916938 0.0617795 0.0083062 -0.0617795
3880000000 0.0081728 -0.0605236 0.9918272 0.0605236 0.9918272 0.0605236 0.0081728 -0.0605236
3901000000 0.0080437 -0.0592753 0.9919563 0.0592753 0.9919563 0.0592753 0.0080437 -0.0592753
3922000000 0.0079191 -0.0580344 0.9920809 0.0580344 0.9920809 0.0580344 0.0079191 -0.0580344
3943000000 0.0077987 -0.0568008 0.9922013 0.0568008 0.9922013 0.0568008 0.0077987 -0.0568008
3964000000 0.0076825 -0.0555743 0.9923175 0.0555743 0.9923175 0.0555743 0.0076825 -0.0555743
3985000000 0.0075705 -0.0543550 0.9924295 0.0543550 0.9924295 0.0543550 0.0075705 -0.0543550
4006000000 0.0074625 -0.0531426 0.9925375 0.0531426 0.9925375 0.0531426 0.0074625 -0.0531426
4027000000 0.0073586 -0.0519370 0.9926414 0.0519370 0.9926414 0.0519370 0.0073586 -0.0519370
4048000000 0.0072586 -0.0507382 0.9927414 0.0507382 0.9927414 0.0507382 0.0072586 -0.0507382
4069000000 0.0071626 -0.0495461 0.9928374 0.0495461 0.9928374 0.0495461 0.0071626 -0.0495461
4090000000 0.0070704 -0.0483606 0.9929296 0.0483606 0.9929296 0.0483606 0.0070704 -0.0483606
4111000000 0.0069820 -0.0471815 0.9930180 0.0471815 0.9930180 0.0471815 0.0069820 -0.0471815
4132000000 0.0068973 -0.0460087 0.9931027 0.0460087 0.9931027 0.0460087 0.0068973 -0.0460087
4153000000 0.0068163 -0.0448422 0.9931837 0.0448422 0.9931837 0.0448422 0.0068163 -0.0448422
4174000000 0.0067390 -0.0436819 0.9932610 0.0436819 0.9932610 0.0436819 0.0067390 -0.0436819
4195000000 0.0066652 -0.0425277 0.9933348 0.0425277 0.9933348 0.0425277 0.0066652 -0.0425277
4216000000 0.0065950 -0.0413795 0.9934050 0.0413795 0.9934050 0.0413795 0.0065950 -0.0413795
4237000000 0.0065283 -0.0402372 0.9934717 0.0402372 0.9934717 0.0402372 0.0065283 -0.0402372
4258000000 0.0064651 -0.0391007 0.9935349 0.0391007 0.9935349 0.0391007 0.0064651 -0.0391007
4279000000 0.0064052 -0.0379700 0.9935948 0.0379700 0.9935948 0.0379700 0.0064052 -0.0379700
4300000000 0.0063488 -0.0368449 0.9936512 0.0368449 0.9936512 0.0368449 0.0063488 -0.0368449
4321000000 0.0062956 -0.0357253 0.9937044 0.0357253 0.9937044 0.0357253 0.0062956 -0.0357253
4342000000 0.0062458 -0.0346113 0.9937542 0.0346113 0.9937542 0.0346113 0.0062458 -0.0346113
4363000000 0.0061992 -0.0335027 0.9938008 0.0335027 0.9938008 0.0335027 0.0061992 -0.0335027
4384000000 0.0061558 -0.0323994 0.9938442 0.0323994 0.9938442 0.0323994 0.0061558 -0.0323994
4405000000 0.0061156 -0.0313014 0.9938844 0.0313014 0.9938844 0.0313014 0.0061156 -0.0313014
4426000000 0.0060786 -0.0302085 0.9939214 0.0302085 0.9939214 0.0302085 0.0060786 -0.0302085
4447000000 0.0060446 -0.0291208 0.9939554 0.0291208 0.9939554 0.0291208 0.0060446 -0.0291208
4468000000 0.0060137 -0.0280381 0.9939863 0.0280381 0.9939863 0.0280381 0.0060137 -0.0280381
4489000000 0.0059859 -0.0269604 0.9940141 0.0269604 0.9940141 0.0269604 0.0059859 -0.0269604
4510000000 0.0059611 -0.0258875 0.9940389 0.0258875 0.9940389 0.0258875 0.0059611 -0.0258875
