!Murata Part Number: GRM1555C1H160JA01
!These Parameters are Measured in Series Mode Connection
!Data Generated on Mar 30, 2021
!       o--ll--o
!Port1            Port2
!       o------o
!Operation Temp=25[degC], DC Bias Voltage=0[V]
!Freq. Start=100[MHz] Stop=9[GHz] 401[Steps]
# Hz S RI R 50
!Freq.(Hz) S11(Real) S11(Imag) S21(Real) S21(Imag) S12(Real) S12(Imag) S22(Real) S22(Imag)
100000000 0.4962637 -0.4993426 0.5037363 0.4993426 0.5037363 0.4993426 0.4962637 -0.4993426
121000000 0.4018859 -0.4894983 0.5981141 0.4894983 0.5981141 0.4894983 0.4018859 -0.4894983
142000000 0.3275293 -0.4683927 0.6724707 0.4683927 0.6724707 0.4683927 0.3275293 -0.4683927
163000000 0.2694946 -0.4426377 0.7305054 0.4426377 0.7305054 0.4426377 0.2694946 -0.4426377
184000000 0.2241255 -0.4158038 0.7758745 0.4158038 0.7758745 0.4158038 0.2241255 -0.4158038
205000000 0.1884030 -0.3896886 0.8115970 0.3896886 0.8115970 0.3896886 0.1884030 -0.3896886
226000000 0.1600015 -0.3651165 0.8399985 0.3651165 0.8399985 0.3651165 0.1600015 -0.3651165
247000000 0.1371783 -0.3423962 0.8628217 0.3423962 0.8628217 0.3423962 0.1371783 -0.3423962
268000000 0.1186391 -0.3215733 0.8813609 0.3215733 0.8813609 0.3215733 0.1186391 -0.3215733
289000000 0.1034221 -0.3025656 0.8965779 0.3025656 0.8965779 0.3025656 0.1034221 -0.3025656
310000000 0.0908079 -0.2852352 0.9091921 0.2852352 0.9091921 0.2852352 0.0908079 -0.2852352
331000000 0.0802544 -0.2694260 0.9197456 0.2694260 0.9197456 0.2694260 0.0802544 -0.2694260
352000000 0.0713488 -0.2549824 0.9286512 0.2549824 0.9286512 0.2549824 0.0713488 -0.2549824
373000000 0.0637741 -0.2417585 0.9362259 0.2417585 0.9362259 0.2417585 0.0637741 -0.2417585
394000000 0.0572840 -0.2296215 0.9427160 0.2296215 0.9427160 0.2296215 0.0572840 -0.2296215
415000000 0.0516855 -0.2184527 0.9483145 0.2184527 0.9483145 0.2184527 0.0516855 -0.2184527
436000000 0.0468258 -0.2081470 0.9531742 0.2081470 0.9531742 0.2081470 0.0468258 -0.2081470
457000000 0.0425832 -0.1986121 0.9574168 0.1986121 0.9574168 0.1986121 0.0425832 -0.1986121
478000000 0.0388595 -0.1897668 0.9611405 0.1897668 0.9611405 0.1897668 0.0388595 -0.1897668
499000000 0.0355751 -0.1815400 0.9644249 0.1815400 0.9644249 0.1815400 0.0355751 -0.1815400
520000000 0.0326649 -0.1738692 0.9673351 0.1738692 0.9673351 0.1738692 0.0326649 -0.1738692
541000000 0.0300753 -0.1666996 0.9699247 0.1666996 0.9699247 0.1666996 0.0300753 -0.1666996
562000000 0.0277619 -0.1599827 0.9722381 0.1599827 0.9722381 0.1599827 0.0277619 -0.1599827
583000000 0.0256877 -0.1536761 0.9743123 0.1536761 0.9743123 0.1536761 0.0256877 -0.1536761
604000000 0.0238215 -0.1477421 0.9761785 0.1477421 0.9761785 0.1477421 0.0238215 -0.1477421
625000000 0.0221372 -0.1421473 0.9778628 0.1421473 0.9778628 0.1421473 0.0221372 -0.1421473
646000000 0.0206126 -0.1368620 0.9793874 0.1368620 0.9793874 0.1368620 0.0206126 -0.1368620
667000000 0.0192286 -0.1318599 0.9807714 0.1318599 0.9807714 0.1318599 0.0192286 -0.1318599
688000000 0.0179690 -0.1271174 0.9820310 0.1271174 0.9820310 0.1271174 0.0179690 -0.1271174
709000000 0.0168200 -0.1226134 0.9831800 0.1226134 0.9831800 0.1226134 0.0168200 -0.1226134
730000000 0.0157693 -0.1183290 0.9842307 0.1183290 0.9842307 0.1183290 0.0157693 -0.1183290
751000000 0.0148067 -0.1142471 0.9851933 0.1142471 0.9851933 0.1142471 0.0148067 -0.1142471
772000000 0.0139229 -0.1103524 0.9860771 0.1103524 0.9860771 0.1103524 0.0139229 -0.1103524
793000000 0.0131100 -0.1066310 0.9868900 0.1066310 0.9868900 0.1066310 0.0131100 -0.1066310
814000000 0.0123610 -0.1030704 0.9876390 0.1030704 0.9876390 0.1030704 0.0123610 -0.1030704
835000000 0.0116698 -0.0996592 0.9883302 0.0996592 0.9883302 0.0996592 0.0116698 -0.0996592
856000000 0.0110310 -0.0963869 0.9889690 0.0963869 0.9889690 0.0963869 0.0110310 -0.0963869
877000000 0.0104398 -0.0932443 0.9895602 0.0932443 0.9895602 0.0932443 0.0104398 -0.0932443
898000000 0.0098919 -0.0902225 0.9901081 0.0902225 0.9901081 0.0902225 0.0098919 -0.0902225
919000000 0.0093835 -0.0873139 0.9906165 0.0873139 0.9906165 0.0873139 0.0093835 -0.0873139
940000000 0.0089114 -0.0845111 0.9910886 0.0845111 0.9910886 0.0845111 0.0089114 -0.0845111
961000000 0.0084723 -0.0818075 0.9915277 0.0818075 0.9915277 0.0818075 0.0084723 -0.0818075
982000000 0.0080638 -0.0791970 0.9919362 0.0791970 0.9919362 0.0791970 0.0080638 -0.0791970
1003000000 0.0076832 -0.0766741 0.9923168 0.0766741 0.9923168 0.0766741 0.0076832 -0.0766741
1024000000 0.0073284 -0.0742335 0.9926716 0.0742335 0.9926716 0.0742335 0.0073284 -0.0742335
1045000000 0.0069975 -0.0718704 0.9930025 0.0718704 0.9930025 0.0718704 0.0069975 -0.0718704
1066000000 0.0066886 -0.0695805 0.9933114 0.0695805 0.9933114 0.0695805 0.0066886 -0.0695805
1087000000 0.0064001 -0.0673597 0.9935999 0.0673597 0.9935999 0.0673597 0.0064001 -0.0673597
1108000000 0.0061305 -0.0652040 0.9938695 0.0652040 0.9938695 0.0652040 0.0061305 -0.0652040
1129000000 0.0058786 -0.0631101 0.9941214 0.0631101 0.9941214 0.0631101 0.0058786 -0.0631101
1150000000 0.0056431 -0.0610747 0.9943569 0.0610747 0.9943569 0.0610747 0.0056431 -0.0610747
1171000000 0.0054228 -0.0590946 0.9945772 0.0590946 0.9945772 0.0590946 0.0054228 -0.0590946
1192000000 0.0052167 -0.0571670 0.9947833 0.0571670 0.9947833 0.0571670 0.0052167 -0.0571670
1213000000 0.0050240 -0.0552893 0.9949760 0.0552893 0.9949760 0.0552893 0.0050240 -0.0552893
1234000000 0.0048438 -0.0534589 0.9951562 0.0534589 0.9951562 0.0534589 0.0048438 -0.0534589
1255000000 0.0046752 -0.0516736 0.9953248 0.0516736 0.9953248 0.0516736 0.0046752 -0.0516736
1276000000 0.0045175 -0.0499312 0.9954825 0.0499312 0.9954825 0.0499312 0.0045175 -0.0499312
1297000000 0.0043702 -0.0482296 0.9956298 0.0482296 0.9956298 0.0482296 0.0043702 -0.0482296
1318000000 0.0042325 -0.0465669 0.9957675 0.0465669 0.9957675 0.0465669 0.0042325 -0.0465669
1339000000 0.0041039 -0.0449413 0.9958961 0.0449413 0.9958961 0.0449413 0.0041039 -0.0449413
1360000000 0.0039839 -0.0433511 0.9960161 0.0433511 0.9960161 0.0433511 0.0039839 -0.0433511
1381000000 0.0038720 -0.0417948 0.9961280 0.0417948 0.9961280 0.0417948 0.0038720 -0.0417948
1402000000 0.0037678 -0.0402707 0.9962322 0.0402707 0.9962322 0.0402707 0.0037678 -0.0402707
1423000000 0.0036708 -0.0387775 0.9963292 0.0387775 0.9963292 0.0387775 0.0036708 -0.0387775
1444000000 0.0035806 -0.0373139 0.9964194 0.0373139 0.9964194 0.0373139 0.0035806 -0.0373139
1465000000 0.0034969 -0.0358786 0.9965031 0.0358786 0.9965031 0.0358786 0.0034969 -0.0358786
1486000000 0.0034193 -0.0344703 0.9965807 0.0344703 0.9965807 0.0344703 0.0034193 -0.0344703
1507000000 0.0033476 -0.0330881 0.9966524 0.0330881 0.9966524 0.0330881 0.0033476 -0.0330881
1528000000 0.0032815 -0.0317307 0.9967185 0.0317307 0.9967185 0.0317307 0.0032815 -0.0317307
1549000000 0.0032206 -0.0303972 0.9967794 0.0303972 0.9967794 0.0303972 0.0032206 -0.0303972
1570000000 0.0031647 -0.0290866 0.9968353 0.0290866 0.9968353 0.0290866 0.0031647 -0.0290866
1591000000 0.0031136 -0.0277981 0.9968864 0.0277981 0.9968864 0.0277981 0.0031136 -0.0277981
1612000000 0.0030671 -0.0265306 0.9969329 0.0265306 0.9969329 0.0265306 0.0030671 -0.0265306
1633000000 0.0030250 -0.0252835 0.9969750 0.0252835 0.9969750 0.0252835 0.0030250 -0.0252835
1654000000 0.0029870 -0.0240559 0.9970130 0.0240559 0.9970130 0.0240559 0.0029870 -0.0240559
1675000000 0.0029530 -0.0228471 0.9970470 0.0228471 0.9970470 0.0228471 0.0029530 -0.0228471
1696000000 0.0029228 -0.0216564 0.9970772 0.0216564 0.9970772 0.0216564 0.0029228 -0.0216564
1717000000 0.0028963 -0.0204831 0.9971037 0.0204831 0.9971037 0.0204831 0.0028963 -0.0204831
1738000000 0.0028732 -0.0193265 0.9971268 0.0193265 0.9971268 0.0193265 0.0028732 -0.0193265
1759000000 0.0028536 -0.0181860 0.9971464 0.0181860 0.9971464 0.0181860 0.0028536 -0.0181860
1780000000 0.0028371 -0.0170611 0.9971629 0.0170611 0.9971629 0.0170611 0.0028371 -0.0170611
1801000000 0.0028238 -0.0159512 0.9971762 0.0159512 0.9971762 0.0159512 0.0028238 -0.0159512
1822000000 0.0028135 -0.0148557 0.9971865 0.0148557 0.9971865 0.0148557 0.0028135 -0.0148557
1843000000 0.0028060 -0.0137742 0.9971940 0.0137742 0.9971940 0.0137742 0.0028060 -0.0137742
1864000000 0.0028013 -0.0127061 0.9971987 0.0127061 0.9971987 0.0127061 0.0028013 -0.0127061
1885000000 0.0027993 -0.0116510 0.9972007 0.0116510 0.9972007 0.0116510 0.0027993 -0.0116510
1906000000 0.0027999 -0.0106083 0.9972001 0.0106083 0.9972001 0.0106083 0.0027999 -0.0106083
1927000000 0.0028030 -0.0095778 0.9971970 0.0095778 0.9971970 0.0095778 0.0028030 -0.0095778
1948000000 0.0028085 -0.0085590 0.9971915 0.0085590 0.9971915 0.0085590 0.0028085 -0.0085590
1969000000 0.0028163 -0.0075514 0.9971837 0.0075514 0.9971837 0.0075514 0.0028163 -0.0075514
1990000000 0.0028264 -0.0065547 0.9971736 0.0065547 0.9971736 0.0065547 0.0028264 -0.0065547
2011000000 0.0028387 -0.0055686 0.9971613 0.0055686 0.9971613 0.0055686 0.0028387 -0.0055686
2032000000 0.0028532 -0.0045926 0.9971468 0.0045926 0.9971468 0.0045926 0.0028532 -0.0045926
2053000000 0.0028697 -0.0036264 0.9971303 0.0036264 0.9971303 0.0036264 0.0028697 -0.0036264
2074000000 0.0028882 -0.0026698 0.9971118 0.0026698 0.9971118 0.0026698 0.0028882 -0.0026698
2095000000 0.0029087 -0.0017224 0.9970913 0.0017224 0.9970913 0.0017224 0.0029087 -0.0017224
2116000000 0.0029311 -0.0007838 0.9970689 0.0007838 0.9970689 0.0007838 0.0029311 -0.0007838
2137000000 0.0029554 0.0001461 0.9970446 -0.0001461 0.9970446 -0.0001461 0.0029554 0.0001461
2158000000 0.0029815 0.0010678 0.9970185 -0.0010678 0.9970185 -0.0010678 0.0029815 0.0010678
2179000000 0.0030094 0.0019814 0.9969906 -0.0019814 0.9969906 -0.0019814 0.0030094 0.0019814
2200000000 0.0030390 0.0028872 0.9969610 -0.0028872 0.9969610 -0.0028872 0.0030390 0.0028872
2221000000 0.0030704 0.0037854 0.9969296 -0.0037854 0.9969296 -0.0037854 0.0030704 0.0037854
2242000000 0.0031034 0.0046764 0.9968966 -0.0046764 0.9968966 -0.0046764 0.0031034 0.0046764
2263000000 0.0031380 0.0055603 0.9968620 -0.0055603 0.9968620 -0.0055603 0.0031380 0.0055603
2284000000 0.0031742 0.0064374 0.9968258 -0.0064374 0.9968258 -0.0064374 0.0031742 0.0064374
2305000000 0.0032120 0.0073078 0.9967880 -0.0073078 0.9967880 -0.0073078 0.0032120 0.0073078
2326000000 0.0032514 0.0081719 0.9967486 -0.0081719 0.9967486 -0.0081719 0.0032514 0.0081719
2347000000 0.0032923 0.0090298 0.9967077 -0.0090298 0.9967077 -0.0090298 0.0032923 0.0090298
2368000000 0.0033346 0.0098817 0.9966654 -0.0098817 0.9966654 -0.0098817 0.0033346 0.0098817
2389000000 0.0033785 0.0107278 0.9966215 -0.0107278 0.9966215 -0.0107278 0.0033785 0.0107278
2410000000 0.0034238 0.0115683 0.9965762 -0.0115683 0.9965762 -0.0115683 0.0034238 0.0115683
2431000000 0.0034706 0.0124033 0.9965294 -0.0124033 0.9965294 -0.0124033 0.0034706 0.0124033
2452000000 0.0035188 0.0132331 0.9964812 -0.0132331 0.9964812 -0.0132331 0.0035188 0.0132331
2473000000 0.0035684 0.0140579 0.9964316 -0.0140579 0.9964316 -0.0140579 0.0035684 0.0140579
2494000000 0.0036194 0.0148777 0.9963806 -0.0148777 0.9963806 -0.0148777 0.0036194 0.0148777
2515000000 0.0036717 0.0156927 0.9963283 -0.0156927 0.9963283 -0.0156927 0.0036717 0.0156927
2536000000 0.0037255 0.0165032 0.9962745 -0.0165032 0.9962745 -0.0165032 0.0037255 0.0165032
2557000000 0.0037806 0.0173092 0.9962194 -0.0173092 0.9962194 -0.0173092 0.0037806 0.0173092
2578000000 0.0038370 0.0181110 0.9961630 -0.0181110 0.9961630 -0.0181110 0.0038370 0.0181110
2599000000 0.0038948 0.0189086 0.9961052 -0.0189086 0.9961052 -0.0189086 0.0038948 0.0189086
2620000000 0.0039540 0.0197022 0.9960460 -0.0197022 0.9960460 -0.0197022 0.0039540 0.0197022
2641000000 0.0040145 0.0204919 0.9959855 -0.0204919 0.9959855 -0.0204919 0.0040145 0.0204919
2662000000 0.0040763 0.0212779 0.9959237 -0.0212779 0.9959237 -0.0212779 0.0040763 0.0212779
2683000000 0.0041395 0.0220602 0.9958605 -0.0220602 0.9958605 -0.0220602 0.0041395 0.0220602
2704000000 0.0042039 0.0228391 0.9957961 -0.0228391 0.9957961 -0.0228391 0.0042039 0.0228391
2725000000 0.0042697 0.0236147 0.9957303 -0.0236147 0.9957303 -0.0236147 0.0042697 0.0236147
2746000000 0.0043369 0.0243870 0.9956631 -0.0243870 0.9956631 -0.0243870 0.0043369 0.0243870
2767000000 0.0044054 0.0251563 0.9955946 -0.0251563 0.9955946 -0.0251563 0.0044054 0.0251563
2788000000 0.0044752 0.0259225 0.9955248 -0.0259225 0.9955248 -0.0259225 0.0044752 0.0259225
2809000000 0.0045463 0.0266859 0.9954537 -0.0266859 0.9954537 -0.0266859 0.0045463 0.0266859
2830000000 0.0046188 0.0274465 0.9953812 -0.0274465 0.9953812 -0.0274465 0.0046188 0.0274465
2851000000 0.0046927 0.0282044 0.9953073 -0.0282044 0.9953073 -0.0282044 0.0046927 0.0282044
2872000000 0.0047679 0.0289598 0.9952321 -0.0289598 0.9952321 -0.0289598 0.0047679 0.0289598
2893000000 0.0048445 0.0297128 0.9951555 -0.0297128 0.9951555 -0.0297128 0.0048445 0.0297128
2914000000 0.0049225 0.0304634 0.9950775 -0.0304634 0.9950775 -0.0304634 0.0049225 0.0304634
2935000000 0.0050019 0.0312119 0.9949981 -0.0312119 0.9949981 -0.0312119 0.0050019 0.0312119
2956000000 0.0050827 0.0319582 0.9949173 -0.0319582 0.9949173 -0.0319582 0.0050827 0.0319582
2977000000 0.0051649 0.0327024 0.9948351 -0.0327024 0.9948351 -0.0327024 0.0051649 0.0327024
2998000000 0.0052486 0.0334448 0.9947514 -0.0334448 0.9947514 -0.0334448 0.0052486 0.0334448
3019000000 0.0053338 0.0341853 0.9946662 -0.0341853 0.9946662 -0.0341853 0.0053338 0.0341853
3040000000 0.0054204 0.0349241 0.9945796 -0.0349241 0.9945796 -0.0349241 0.0054204 0.0349241
3061000000 0.0055085 0.0356612 0.9944915 -0.0356612 0.9944915 -0.0356612 0.0055085 0.0356612
3082000000 0.0055982 0.0363968 0.9944018 -0.0363968 0.9944018 -0.0363968 0.0055982 0.0363968
3103000000 0.0056894 0.0371310 0.9943106 -0.0371310 0.9943106 -0.0371310 0.0056894 0.0371310
3124000000 0.0057823 0.0378638 0.9942177 -0.0378638 0.9942177 -0.0378638 0.0057823 0.0378638
3145000000 0.0058767 0.0385953 0.9941233 -0.0385953 0.9941233 -0.0385953 0.0058767 0.0385953
3166000000 0.0059728 0.0393257 0.9940272 -0.0393257 0.9940272 -0.0393257 0.0059728 0.0393257
3187000000 0.0060706 0.0400549 0.9939294 -0.0400549 0.9939294 -0.0400549 0.0060706 0.0400549
3208000000 0.0061700 0.0407832 0.9938300 -0.0407832 0.9938300 -0.0407832 0.0061700 0.0407832
3229000000 0.0062713 0.0415106 0.9937287 -0.0415106 0.9937287 -0.0415106 0.0062713 0.0415106
3250000000 0.0063743 0.0422372 0.9936257 -0.0422372 0.9936257 -0.0422372 0.0063743 0.0422372
3271000000 0.0064793 0.0429630 0.9935207 -0.0429630 0.9935207 -0.0429630 0.0064793 0.0429630
3292000000 0.0065861 0.0436883 0.9934139 -0.0436883 0.9934139 -0.0436883 0.0065861 0.0436883
3313000000 0.0066948 0.0444129 0.9933052 -0.0444129 0.9933052 -0.0444129 0.0066948 0.0444129
3334000000 0.0068056 0.0451371 0.9931944 -0.0451371 0.9931944 -0.0451371 0.0068056 0.0451371
3355000000 0.0069184 0.0458610 0.9930816 -0.0458610 0.9930816 -0.0458610 0.0069184 0.0458610
3376000000 0.0070334 0.0465846 0.9929666 -0.0465846 0.9929666 -0.0465846 0.0070334 0.0465846
3397000000 0.0071505 0.0473080 0.9928495 -0.0473080 0.9928495 -0.0473080 0.0071505 0.0473080
3418000000 0.0072700 0.0480313 0.9927300 -0.0480313 0.9927300 -0.0480313 0.0072700 0.0480313
3439000000 0.0073918 0.0487545 0.9926082 -0.0487545 0.9926082 -0.0487545 0.0073918 0.0487545
3460000000 0.0075161 0.0494779 0.9924839 -0.0494779 0.9924839 -0.0494779 0.0075161 0.0494779
3481000000 0.0076428 0.0502015 0.9923572 -0.0502015 0.9923572 -0.0502015 0.0076428 0.0502015
3502000000 0.0077723 0.0509253 0.9922277 -0.0509253 0.9922277 -0.0509253 0.0077723 0.0509253
3523000000 0.0079045 0.0516495 0.9920955 -0.0516495 0.9920955 -0.0516495 0.0079045 0.0516495
3544000000 0.0080395 0.0523741 0.9919605 -0.0523741 0.9919605 -0.0523741 0.0080395 0.0523741
3565000000 0.0081775 0.0530992 0.9918225 -0.0530992 0.9918225 -0.0530992 0.0081775 0.0530992
3586000000 0.0083187 0.0538250 0.9916813 -0.0538250 0.9916813 -0.0538250 0.0083187 0.0538250
3607000000 0.0084631 0.0545515 0.9915369 -0.0545515 0.9915369 -0.0545515 0.0084631 0.0545515
3628000000 0.0086109 0.0552789 0.9913891 -0.0552789 0.9913891 -0.0552789 0.0086109 0.0552789
3649000000 0.0087624 0.0560071 0.9912376 -0.0560071 0.9912376 -0.0560071 0.0087624 0.0560071
3670000000 0.0089176 0.0567363 0.9910824 -0.0567363 0.9910824 -0.0567363 0.0089176 0.0567363
3691000000 0.0090769 0.0574666 0.9909231 -0.0574666 0.9909231 -0.0574666 0.0090769 0.0574666
3712000000 0.0092403 0.0581981 0.9907597 -0.0581981 0.9907597 -0.0581981 0.0092403 0.0581981
3733000000 0.0094082 0.0589308 0.9905918 -0.0589308 0.9905918 -0.0589308 0.0094082 0.0589308
3754000000 0.0095808 0.0596648 0.9904192 -0.0596648 0.9904192 -0.0596648 0.0095808 0.0596648
3775000000 0.0097583 0.0604002 0.9902417 -0.0604002 0.9902417 -0.0604002 0.0097583 0.0604002
3796000000 0.0099412 0.0611370 0.9900588 -0.0611370 0.9900588 -0.0611370 0.0099412 0.0611370
3817000000 0.0101298 0.0618754 0.9898702 -0.0618754 0.9898702 -0.0618754 0.0101298 0.0618754
3838000000 0.0103243 0.0626153 0.9896757 -0.0626153 0.9896757 -0.0626153 0.0103243 0.0626153
3859000000 0.0105252 0.0633568 0.9894748 -0.0633568 0.9894748 -0.0633568 0.0105252 0.0633568
3880000000 0.0107330 0.0640999 0.9892670 -0.0640999 0.9892670 -0.0640999 0.0107330 0.0640999
3901000000 0.0109482 0.0648446 0.9890518 -0.0648446 0.9890518 -0.0648446 0.0109482 0.0648446
3922000000 0.0111712 0.0655909 0.9888288 -0.0655909 0.9888288 -0.0655909 0.0111712 0.0655909
3943000000 0.0114026 0.0663386 0.9885974 -0.0663386 0.9885974 -0.0663386 0.0114026 0.0663386
3964000000 0.0116431 0.0670877 0.9883569 -0.0670877 0.9883569 -0.0670877 0.0116431 0.0670877
3985000000 0.0118934 0.0678381 0.9881066 -0.0678381 0.9881066 -0.0678381 0.0118934 0.0678381
4006000000 0.0121542 0.0685895 0.9878458 -0.0685895 0.9878458 -0.0685895 0.0121542 0.0685895
4027000000 0.0124263 0.0693417 0.9875737 -0.0693417 0.9875737 -0.0693417 0.0124263 0.0693417
4048000000 0.0127107 0.0700942 0.9872893 -0.0700942 0.9872893 -0.0700942 0.0127107 0.0700942
4069000000 0.0130084 0.0708467 0.9869916 -0.0708467 0.9869916 -0.0708467 0.0130084 0.0708467
4090000000 0.0133203 0.0715985 0.9866797 -0.0715985 0.9866797 -0.0715985 0.0133203 0.0715985
4111000000 0.0136476 0.0723488 0.9863524 -0.0723488 0.9863524 -0.0723488 0.0136476 0.0723488
4132000000 0.0139916 0.0730968 0.9860084 -0.0730968 0.9860084 -0.0730968 0.0139916 0.0730968
4153000000 0.0143535 0.0738413 0.9856465 -0.0738413 0.9856465 -0.0738413 0.0143535 0.0738413
4174000000 0.0147346 0.0745809 0.9852654 -0.0745809 0.9852654 -0.0745809 0.0147346 0.0745809
4195000000 0.0151364 0.0753139 0.9848636 -0.0753139 0.9848636 -0.0753139 0.0151364 0.0753139
4216000000 0.0155602 0.0760381 0.9844398 -0.0760381 0.9844398 -0.0760381 0.0155602 0.0760381
4237000000 0.0160073 0.0767511 0.9839927 -0.0767511 0.9839927 -0.0767511 0.0160073 0.0767511
4258000000 0.0164791 0.0774498 0.9835209 -0.0774498 0.9835209 -0.0774498 0.0164791 0.0774498
4279000000 0.0169764 0.0781307 0.9830236 -0.0781307 0.9830236 -0.0781307 0.0169764 0.0781307
4300000000 0.0175001 0.0787896 0.9824999 -0.0787896 0.9824999 -0.0787896 0.0175001 0.0787896
4321000000 0.0180502 0.0794216 0.9819498 -0.0794216 0.9819498 -0.0794216 0.0180502 0.0794216
4342000000 0.0186263 0.0800211 0.9813737 -0.0800211 0.9813737 -0.0800211 0.0186263 0.0800211
4363000000 0.0192268 0.0805820 0.9807732 -0.0805820 0.9807732 -0.0805820 0.0192268 0.0805820
4384000000 0.0198491 0.0810975 0.9801509 -0.0810975 0.9801509 -0.0810975 0.0198491 0.0810975
4405000000 0.0204887 0.0815604 0.9795113 -0.0815604 0.9795113 -0.0815604 0.0204887 0.0815604
4426000000 0.0211394 0.0819636 0.9788606 -0.0819636 0.9788606 -0.0819636 0.0211394 0.0819636
4447000000 0.0217927 0.0823003 0.9782073 -0.0823003 0.9782073 -0.0823003 0.0217927 0.0823003
4468000000 0.0224375 0.0825650 0.9775625 -0.0825650 0.9775625 -0.0825650 0.0224375 0.0825650
4489000000 0.0230608 0.0827540 0.9769392 -0.0827540 0.9769392 -0.0827540 0.0230608 0.0827540
4510000000 0.0236471 0.0828667 0.9763529 -0.0828667 0.9763529 -0.0828667 0.0236471 0.0828667
