!Murata Part Number: GRM1555C1H200JA01
!These Parameters are Measured in Series Mode Connection
!Data Generated on Mar 30, 2021
!       o--ll--o
!Port1            Port2
!       o------o
!Operation Temp=25[degC], DC Bias Voltage=0[V]
!Freq. Start=100[MHz] Stop=9[GHz] 401[Steps]
# Hz S RI R 50
!Freq.(Hz) S11(Real) S11(Imag) S21(Real) S21(Imag) S12(Real) S12(Imag) S22(Real) S22(Imag)
100000000 0.3865102 -0.4861562 0.6134898 0.4861562 0.6134898 0.4861562 0.3865102 -0.4861562
121000000 0.3004758 -0.4575000 0.6995242 0.4575000 0.6995242 0.4575000 0.3004758 -0.4575000
142000000 0.2373574 -0.4243241 0.7626426 0.4243241 0.7626426 0.4243241 0.2373574 -0.4243241
163000000 0.1906937 -0.3915319 0.8093063 0.3915319 0.8093063 0.3915319 0.1906937 -0.3915319
184000000 0.1556920 -0.3610661 0.8443080 0.3610661 0.8443080 0.3610661 0.1556920 -0.3610661
205000000 0.1289972 -0.3335151 0.8710028 0.3335151 0.8710028 0.3335151 0.1289972 -0.3335151
226000000 0.1082952 -0.3088818 0.8917048 0.3088818 0.8917048 0.3088818 0.1082952 -0.3088818
247000000 0.0919843 -0.2869383 0.9080157 0.2869383 0.9080157 0.2869383 0.0919843 -0.2869383
268000000 0.0789436 -0.2673856 0.9210564 0.2673856 0.9210564 0.2673856 0.0789436 -0.2673856
289000000 0.0683774 -0.2499217 0.9316226 0.2499217 0.9316226 0.2499217 0.0683774 -0.2499217
310000000 0.0597118 -0.2342697 0.9402882 0.2342697 0.9402882 0.2342697 0.0597118 -0.2342697
331000000 0.0525268 -0.2201858 0.9474732 0.2201858 0.9474732 0.2201858 0.0525268 -0.2201858
352000000 0.0465099 -0.2074601 0.9534901 0.2074601 0.9534901 0.2074601 0.0465099 -0.2074601
373000000 0.0414260 -0.1959135 0.9585740 0.1959135 0.9585740 0.1959135 0.0414260 -0.1959135
394000000 0.0370951 -0.1853939 0.9629049 0.1853939 0.9629049 0.1853939 0.0370951 -0.1853939
415000000 0.0333784 -0.1757721 0.9666216 0.1757721 0.9666216 0.1757721 0.0333784 -0.1757721
436000000 0.0301672 -0.1669383 0.9698328 0.1669383 0.9698328 0.1669383 0.0301672 -0.1669383
457000000 0.0273756 -0.1587988 0.9726244 0.1587988 0.9726244 0.1587988 0.0273756 -0.1587988
478000000 0.0249351 -0.1512737 0.9750649 0.1512737 0.9750649 0.1512737 0.0249351 -0.1512737
499000000 0.0227905 -0.1442943 0.9772095 0.1442943 0.9772095 0.1442943 0.0227905 -0.1442943
520000000 0.0208969 -0.1378012 0.9791031 0.1378012 0.9791031 0.1378012 0.0208969 -0.1378012
541000000 0.0192178 -0.1317434 0.9807822 0.1317434 0.9807822 0.1317434 0.0192178 -0.1317434
562000000 0.0177229 -0.1260764 0.9822771 0.1260764 0.9822771 0.1260764 0.0177229 -0.1260764
583000000 0.0163869 -0.1207614 0.9836131 0.1207614 0.9836131 0.1207614 0.0163869 -0.1207614
604000000 0.0151891 -0.1157646 0.9848109 0.1157646 0.9848109 0.1157646 0.0151891 -0.1157646
625000000 0.0141116 -0.1110560 0.9858884 0.1110560 0.9858884 0.1110560 0.0141116 -0.1110560
646000000 0.0131395 -0.1066096 0.9868605 0.1066096 0.9868605 0.1066096 0.0131395 -0.1066096
667000000 0.0122603 -0.1024020 0.9877397 0.1024020 0.9877397 0.1024020 0.0122603 -0.1024020
688000000 0.0114630 -0.0984126 0.9885370 0.0984126 0.9885370 0.0984126 0.0114630 -0.0984126
709000000 0.0107384 -0.0946233 0.9892616 0.0946233 0.9892616 0.0946233 0.0107384 -0.0946233
730000000 0.0100785 -0.0910175 0.9899215 0.0910175 0.9899215 0.0910175 0.0100785 -0.0910175
751000000 0.0094762 -0.0875806 0.9905238 0.0875806 0.9905238 0.0875806 0.0094762 -0.0875806
772000000 0.0089257 -0.0842995 0.9910743 0.0842995 0.9910743 0.0842995 0.0089257 -0.0842995
793000000 0.0084215 -0.0811623 0.9915785 0.0811623 0.9915785 0.0811623 0.0084215 -0.0811623
814000000 0.0079592 -0.0781584 0.9920408 0.0781584 0.9920408 0.0781584 0.0079592 -0.0781584
835000000 0.0075347 -0.0752780 0.9924653 0.0752780 0.9924653 0.0752780 0.0075347 -0.0752780
856000000 0.0071443 -0.0725125 0.9928557 0.0725125 0.9928557 0.0725125 0.0071443 -0.0725125
877000000 0.0067851 -0.0698539 0.9932149 0.0698539 0.9932149 0.0698539 0.0067851 -0.0698539
898000000 0.0064540 -0.0672948 0.9935460 0.0672948 0.9935460 0.0672948 0.0064540 -0.0672948
919000000 0.0061488 -0.0648288 0.9938512 0.0648288 0.9938512 0.0648288 0.0061488 -0.0648288
940000000 0.0058671 -0.0624496 0.9941329 0.0624496 0.9941329 0.0624496 0.0058671 -0.0624496
961000000 0.0056069 -0.0601519 0.9943931 0.0601519 0.9943931 0.0601519 0.0056069 -0.0601519
982000000 0.0053666 -0.0579305 0.9946334 0.0579305 0.9946334 0.0579305 0.0053666 -0.0579305
1003000000 0.0051445 -0.0557806 0.9948555 0.0557806 0.9948555 0.0557806 0.0051445 -0.0557806
1024000000 0.0049391 -0.0536981 0.9950609 0.0536981 0.9950609 0.0536981 0.0049391 -0.0536981
1045000000 0.0047493 -0.0516789 0.9952507 0.0516789 0.9952507 0.0516789 0.0047493 -0.0516789
1066000000 0.0045737 -0.0497194 0.9954263 0.0497194 0.9954263 0.0497194 0.0045737 -0.0497194
1087000000 0.0044114 -0.0478161 0.9955886 0.0478161 0.9955886 0.0478161 0.0044114 -0.0478161
1108000000 0.0042614 -0.0459659 0.9957386 0.0459659 0.9957386 0.0459659 0.0042614 -0.0459659
1129000000 0.0041228 -0.0441658 0.9958772 0.0441658 0.9958772 0.0441658 0.0041228 -0.0441658
1150000000 0.0039949 -0.0424132 0.9960051 0.0424132 0.9960051 0.0424132 0.0039949 -0.0424132
1171000000 0.0038768 -0.0407056 0.9961232 0.0407056 0.9961232 0.0407056 0.0038768 -0.0407056
1192000000 0.0037680 -0.0390405 0.9962320 0.0390405 0.9962320 0.0390405 0.0037680 -0.0390405
1213000000 0.0036679 -0.0374158 0.9963321 0.0374158 0.9963321 0.0374158 0.0036679 -0.0374158
1234000000 0.0035758 -0.0358293 0.9964242 0.0358293 0.9964242 0.0358293 0.0035758 -0.0358293
1255000000 0.0034913 -0.0342793 0.9965087 0.0342793 0.9965087 0.0342793 0.0034913 -0.0342793
1276000000 0.0034140 -0.0327638 0.9965860 0.0327638 0.9965860 0.0327638 0.0034140 -0.0327638
1297000000 0.0033433 -0.0312813 0.9966567 0.0312813 0.9966567 0.0312813 0.0033433 -0.0312813
1318000000 0.0032789 -0.0298300 0.9967211 0.0298300 0.9967211 0.0298300 0.0032789 -0.0298300
1339000000 0.0032205 -0.0284086 0.9967795 0.0284086 0.9967795 0.0284086 0.0032205 -0.0284086
1360000000 0.0031676 -0.0270157 0.9968324 0.0270157 0.9968324 0.0270157 0.0031676 -0.0270157
1381000000 0.0031201 -0.0256498 0.9968799 0.0256498 0.9968799 0.0256498 0.0031201 -0.0256498
1402000000 0.0030776 -0.0243098 0.9969224 0.0243098 0.9969224 0.0243098 0.0030776 -0.0243098
1423000000 0.0030398 -0.0229945 0.9969602 0.0229945 0.9969602 0.0229945 0.0030398 -0.0229945
1444000000 0.0030065 -0.0217028 0.9969935 0.0217028 0.9969935 0.0217028 0.0030065 -0.0217028
1465000000 0.0029775 -0.0204337 0.9970225 0.0204337 0.9970225 0.0204337 0.0029775 -0.0204337
1486000000 0.0029526 -0.0191862 0.9970474 0.0191862 0.9970474 0.0191862 0.0029526 -0.0191862
1507000000 0.0029315 -0.0179593 0.9970685 0.0179593 0.9970685 0.0179593 0.0029315 -0.0179593
1528000000 0.0029141 -0.0167522 0.9970859 0.0167522 0.9970859 0.0167522 0.0029141 -0.0167522
1549000000 0.0029003 -0.0155640 0.9970997 0.0155640 0.9970997 0.0155640 0.0029003 -0.0155640
1570000000 0.0028898 -0.0143939 0.9971102 0.0143939 0.9971102 0.0143939 0.0028898 -0.0143939
1591000000 0.0028826 -0.0132412 0.9971174 0.0132412 0.9971174 0.0132412 0.0028826 -0.0132412
1612000000 0.0028785 -0.0121052 0.9971215 0.0121052 0.9971215 0.0121052 0.0028785 -0.0121052
1633000000 0.0028773 -0.0109852 0.9971227 0.0109852 0.9971227 0.0109852 0.0028773 -0.0109852
1654000000 0.0028790 -0.0098805 0.9971210 0.0098805 0.9971210 0.0098805 0.0028790 -0.0098805
1675000000 0.0028834 -0.0087906 0.9971166 0.0087906 0.9971166 0.0087906 0.0028834 -0.0087906
1696000000 0.0028905 -0.0077147 0.9971095 0.0077147 0.9971095 0.0077147 0.0028905 -0.0077147
1717000000 0.0029001 -0.0066525 0.9970999 0.0066525 0.9970999 0.0066525 0.0029001 -0.0066525
1738000000 0.0029122 -0.0056033 0.9970878 0.0056033 0.9970878 0.0056033 0.0029122 -0.0056033
1759000000 0.0029267 -0.0045667 0.9970733 0.0045667 0.9970733 0.0045667 0.0029267 -0.0045667
1780000000 0.0029435 -0.0035421 0.9970565 0.0035421 0.9970565 0.0035421 0.0029435 -0.0035421
1801000000 0.0029626 -0.0025290 0.9970374 0.0025290 0.9970374 0.0025290 0.0029626 -0.0025290
1822000000 0.0029838 -0.0015272 0.9970162 0.0015272 0.9970162 0.0015272 0.0029838 -0.0015272
1843000000 0.0030071 -0.0005360 0.9969929 0.0005360 0.9969929 0.0005360 0.0030071 -0.0005360
1864000000 0.0030325 0.0004448 0.9969675 -0.0004448 0.9969675 -0.0004448 0.0030325 0.0004448
1885000000 0.0030599 0.0014157 0.9969401 -0.0014157 0.9969401 -0.0014157 0.0030599 0.0014157
1906000000 0.0030893 0.0023771 0.9969107 -0.0023771 0.9969107 -0.0023771 0.0030893 0.0023771
1927000000 0.0031206 0.0033293 0.9968794 -0.0033293 0.9968794 -0.0033293 0.0031206 0.0033293
1948000000 0.0031537 0.0042726 0.9968463 -0.0042726 0.9968463 -0.0042726 0.0031537 0.0042726
1969000000 0.0031887 0.0052074 0.9968113 -0.0052074 0.9968113 -0.0052074 0.0031887 0.0052074
1990000000 0.0032255 0.0061340 0.9967745 -0.0061340 0.9967745 -0.0061340 0.0032255 0.0061340
2011000000 0.0032641 0.0070528 0.9967359 -0.0070528 0.9967359 -0.0070528 0.0032641 0.0070528
2032000000 0.0033045 0.0079639 0.9966955 -0.0079639 0.9966955 -0.0079639 0.0033045 0.0079639
2053000000 0.0033465 0.0088677 0.9966535 -0.0088677 0.9966535 -0.0088677 0.0033465 0.0088677
2074000000 0.0033902 0.0097645 0.9966098 -0.0097645 0.9966098 -0.0097645 0.0033902 0.0097645
2095000000 0.0034357 0.0106545 0.9965643 -0.0106545 0.9965643 -0.0106545 0.0034357 0.0106545
2116000000 0.0034827 0.0115380 0.9965173 -0.0115380 0.9965173 -0.0115380 0.0034827 0.0115380
2137000000 0.0035315 0.0124151 0.9964685 -0.0124151 0.9964685 -0.0124151 0.0035315 0.0124151
2158000000 0.0035818 0.0132863 0.9964182 -0.0132863 0.9964182 -0.0132863 0.0035818 0.0132863
2179000000 0.0036337 0.0141516 0.9963663 -0.0141516 0.9963663 -0.0141516 0.0036337 0.0141516
2200000000 0.0036873 0.0150113 0.9963127 -0.0150113 0.9963127 -0.0150113 0.0036873 0.0150113
2221000000 0.0037425 0.0158656 0.9962575 -0.0158656 0.9962575 -0.0158656 0.0037425 0.0158656
2242000000 0.0037992 0.0167148 0.9962008 -0.0167148 0.9962008 -0.0167148 0.0037992 0.0167148
2263000000 0.0038575 0.0175590 0.9961425 -0.0175590 0.9961425 -0.0175590 0.0038575 0.0175590
2284000000 0.0039174 0.0183983 0.9960826 -0.0183983 0.9960826 -0.0183983 0.0039174 0.0183983
2305000000 0.0039789 0.0192331 0.9960211 -0.0192331 0.9960211 -0.0192331 0.0039789 0.0192331
2326000000 0.0040420 0.0200635 0.9959580 -0.0200635 0.9959580 -0.0200635 0.0040420 0.0200635
2347000000 0.0041066 0.0208896 0.9958934 -0.0208896 0.9958934 -0.0208896 0.0041066 0.0208896
2368000000 0.0041729 0.0217117 0.9958271 -0.0217117 0.9958271 -0.0217117 0.0041729 0.0217117
2389000000 0.0042407 0.0225299 0.9957593 -0.0225299 0.9957593 -0.0225299 0.0042407 0.0225299
2410000000 0.0043102 0.0233443 0.9956898 -0.0233443 0.9956898 -0.0233443 0.0043102 0.0233443
2431000000 0.0043812 0.0241551 0.9956188 -0.0241551 0.9956188 -0.0241551 0.0043812 0.0241551
2452000000 0.0044539 0.0249625 0.9955461 -0.0249625 0.9955461 -0.0249625 0.0044539 0.0249625
2473000000 0.0045282 0.0257667 0.9954718 -0.0257667 0.9954718 -0.0257667 0.0045282 0.0257667
2494000000 0.0046042 0.0265677 0.9953958 -0.0265677 0.9953958 -0.0265677 0.0046042 0.0265677
2515000000 0.0046818 0.0273657 0.9953182 -0.0273657 0.9953182 -0.0273657 0.0046818 0.0273657
2536000000 0.0047612 0.0281608 0.9952388 -0.0281608 0.9952388 -0.0281608 0.0047612 0.0281608
2557000000 0.0048422 0.0289533 0.9951578 -0.0289533 0.9951578 -0.0289533 0.0048422 0.0289533
2578000000 0.0049250 0.0297431 0.9950750 -0.0297431 0.9950750 -0.0297431 0.0049250 0.0297431
2599000000 0.0050096 0.0305306 0.9949904 -0.0305306 0.9949904 -0.0305306 0.0050096 0.0305306
2620000000 0.0050959 0.0313156 0.9949041 -0.0313156 0.9949041 -0.0313156 0.0050959 0.0313156
2641000000 0.0051841 0.0320985 0.9948159 -0.0320985 0.9948159 -0.0320985 0.0051841 0.0320985
2662000000 0.0052741 0.0328793 0.9947259 -0.0328793 0.9947259 -0.0328793 0.0052741 0.0328793
2683000000 0.0053660 0.0336582 0.9946340 -0.0336582 0.9946340 -0.0336582 0.0053660 0.0336582
2704000000 0.0054598 0.0344352 0.9945402 -0.0344352 0.9945402 -0.0344352 0.0054598 0.0344352
2725000000 0.0055556 0.0352105 0.9944444 -0.0352105 0.9944444 -0.0352105 0.0055556 0.0352105
2746000000 0.0056534 0.0359842 0.9943466 -0.0359842 0.9943466 -0.0359842 0.0056534 0.0359842
2767000000 0.0057532 0.0367564 0.9942468 -0.0367564 0.9942468 -0.0367564 0.0057532 0.0367564
2788000000 0.0058552 0.0375271 0.9941448 -0.0375271 0.9941448 -0.0375271 0.0058552 0.0375271
2809000000 0.0059593 0.0382966 0.9940407 -0.0382966 0.9940407 -0.0382966 0.0059593 0.0382966
2830000000 0.0060656 0.0390650 0.9939344 -0.0390650 0.9939344 -0.0390650 0.0060656 0.0390650
2851000000 0.0061742 0.0398322 0.9938258 -0.0398322 0.9938258 -0.0398322 0.0061742 0.0398322
2872000000 0.0062852 0.0405985 0.9937148 -0.0405985 0.9937148 -0.0405985 0.0062852 0.0405985
2893000000 0.0063985 0.0413639 0.9936015 -0.0413639 0.9936015 -0.0413639 0.0063985 0.0413639
2914000000 0.0065144 0.0421286 0.9934856 -0.0421286 0.9934856 -0.0421286 0.0065144 0.0421286
2935000000 0.0066328 0.0428926 0.9933672 -0.0428926 0.9933672 -0.0428926 0.0066328 0.0428926
2956000000 0.0067539 0.0436560 0.9932461 -0.0436560 0.9932461 -0.0436560 0.0067539 0.0436560
2977000000 0.0068777 0.0444189 0.9931223 -0.0444189 0.9931223 -0.0444189 0.0068777 0.0444189
2998000000 0.0070043 0.0451814 0.9929957 -0.0451814 0.9929957 -0.0451814 0.0070043 0.0451814
3019000000 0.0071339 0.0459436 0.9928661 -0.0459436 0.9928661 -0.0459436 0.0071339 0.0459436
3040000000 0.0072666 0.0467056 0.9927334 -0.0467056 0.9927334 -0.0467056 0.0072666 0.0467056
3061000000 0.0074024 0.0474675 0.9925976 -0.0474675 0.9925976 -0.0474675 0.0074024 0.0474675
3082000000 0.0075415 0.0482293 0.9924585 -0.0482293 0.9924585 -0.0482293 0.0075415 0.0482293
3103000000 0.0076841 0.0489912 0.9923159 -0.0489912 0.9923159 -0.0489912 0.0076841 0.0489912
3124000000 0.0078302 0.0497532 0.9921698 -0.0497532 0.9921698 -0.0497532 0.0078302 0.0497532
3145000000 0.0079801 0.0505153 0.9920199 -0.0505153 0.9920199 -0.0505153 0.0079801 0.0505153
3166000000 0.0081339 0.0512777 0.9918661 -0.0512777 0.9918661 -0.0512777 0.0081339 0.0512777
3187000000 0.0082918 0.0520404 0.9917082 -0.0520404 0.9917082 -0.0520404 0.0082918 0.0520404
3208000000 0.0084540 0.0528035 0.9915460 -0.0528035 0.9915460 -0.0528035 0.0084540 0.0528035
3229000000 0.0086207 0.0535670 0.9913793 -0.0535670 0.9913793 -0.0535670 0.0086207 0.0535670
3250000000 0.0087921 0.0543309 0.9912079 -0.0543309 0.9912079 -0.0543309 0.0087921 0.0543309
3271000000 0.0089684 0.0550953 0.9910316 -0.0550953 0.9910316 -0.0550953 0.0089684 0.0550953
3292000000 0.0091500 0.0558603 0.9908500 -0.0558603 0.9908500 -0.0558603 0.0091500 0.0558603
3313000000 0.0093371 0.0566258 0.9906629 -0.0566258 0.9906629 -0.0566258 0.0093371 0.0566258
3334000000 0.0095299 0.0573918 0.9904701 -0.0573918 0.9904701 -0.0573918 0.0095299 0.0573918
3355000000 0.0097288 0.0581582 0.9902712 -0.0581582 0.9902712 -0.0581582 0.0097288 0.0581582
3376000000 0.0099342 0.0589252 0.9900658 -0.0589252 0.9900658 -0.0589252 0.0099342 0.0589252
3397000000 0.0101465 0.0596925 0.9898535 -0.0596925 0.9898535 -0.0596925 0.0101465 0.0596925
3418000000 0.0103659 0.0604602 0.9896341 -0.0604602 0.9896341 -0.0604602 0.0103659 0.0604602
3439000000 0.0105929 0.0612280 0.9894071 -0.0612280 0.9894071 -0.0612280 0.0105929 0.0612280
3460000000 0.0108280 0.0619959 0.9891720 -0.0619959 0.9891720 -0.0619959 0.0108280 0.0619959
3481000000 0.0110717 0.0627636 0.9889283 -0.0627636 0.9889283 -0.0627636 0.0110717 0.0627636
3502000000 0.0113245 0.0635309 0.9886755 -0.0635309 0.9886755 -0.0635309 0.0113245 0.0635309
3523000000 0.0115868 0.0642975 0.9884132 -0.0642975 0.9884132 -0.0642975 0.0115868 0.0642975
3544000000 0.0118594 0.0650630 0.9881406 -0.0650630 0.9881406 -0.0650630 0.0118594 0.0650630
3565000000 0.0121427 0.0658270 0.9878573 -0.0658270 0.9878573 -0.0658270 0.0121427 0.0658270
3586000000 0.0124374 0.0665890 0.9875626 -0.0665890 0.9875626 -0.0665890 0.0124374 0.0665890
3607000000 0.0127442 0.0673484 0.9872558 -0.0673484 0.9872558 -0.0673484 0.0127442 0.0673484
3628000000 0.0130637 0.0681044 0.9869363 -0.0681044 0.9869363 -0.0681044 0.0130637 0.0681044
3649000000 0.0133966 0.0688561 0.9866034 -0.0688561 0.9866034 -0.0688561 0.0133966 0.0688561
3670000000 0.0137436 0.0696026 0.9862564 -0.0696026 0.9862564 -0.0696026 0.0137436 0.0696026
3691000000 0.0141054 0.0703428 0.9858946 -0.0703428 0.9858946 -0.0703428 0.0141054 0.0703428
3712000000 0.0144824 0.0710751 0.9855176 -0.0710751 0.9855176 -0.0710751 0.0144824 0.0710751
3733000000 0.0148754 0.0717981 0.9851246 -0.0717981 0.9851246 -0.0717981 0.0148754 0.0717981
3754000000 0.0152848 0.0725101 0.9847152 -0.0725101 0.9847152 -0.0725101 0.0152848 0.0725101
3775000000 0.0157109 0.0732090 0.9842891 -0.0732090 0.9842891 -0.0732090 0.0157109 0.0732090
3796000000 0.0161537 0.0738924 0.9838463 -0.0738924 0.9838463 -0.0738924 0.0161537 0.0738924
3817000000 0.0166133 0.0745580 0.9833867 -0.0745580 0.9833867 -0.0745580 0.0166133 0.0745580
3838000000 0.0170891 0.0752030 0.9829109 -0.0752030 0.9829109 -0.0752030 0.0170891 0.0752030
3859000000 0.0175804 0.0758242 0.9824196 -0.0758242 0.9824196 -0.0758242 0.0175804 0.0758242
3880000000 0.0180857 0.0764185 0.9819143 -0.0764185 0.9819143 -0.0764185 0.0180857 0.0764185
3901000000 0.0186032 0.0769826 0.9813968 -0.0769826 0.9813968 -0.0769826 0.0186032 0.0769826
3922000000 0.0191302 0.0775130 0.9808698 -0.0775130 0.9808698 -0.0775130 0.0191302 0.0775130
3943000000 0.0196634 0.0780065 0.9803366 -0.0780065 0.9803366 -0.0780065 0.0196634 0.0780065
3964000000 0.0201983 0.0784599 0.9798017 -0.0784599 0.9798017 -0.0784599 0.0201983 0.0784599
3985000000 0.0207300 0.0788706 0.9792700 -0.0788706 0.9792700 -0.0788706 0.0207300 0.0788706
4006000000 0.0212524 0.0792368 0.9787476 -0.0792368 0.9787476 -0.0792368 0.0212524 0.0792368
4027000000 0.0217586 0.0795575 0.9782414 -0.0795575 0.9782414 -0.0795575 0.0217586 0.0795575
4048000000 0.0222411 0.0798330 0.9777589 -0.0798330 0.9777589 -0.0798330 0.0222411 0.0798330
4069000000 0.0226921 0.0800652 0.9773079 -0.0800652 0.9773079 -0.0800652 0.0226921 0.0800652
4090000000 0.0231038 0.0802574 0.9768962 -0.0802574 0.9768962 -0.0802574 0.0231038 0.0802574
4111000000 0.0234686 0.0804148 0.9765314 -0.0804148 0.9765314 -0.0804148 0.0234686 0.0804148
4132000000 0.0237800 0.0805446 0.9762200 -0.0805446 0.9762200 -0.0805446 0.0237800 0.0805446
4153000000 0.0240327 0.0806550 0.9759673 -0.0806550 0.9759673 -0.0806550 0.0240327 0.0806550
4174000000 0.0242233 0.0807557 0.9757767 -0.0807557 0.9757767 -0.0807557 0.0242233 0.0807557
4195000000 0.0243502 0.0808570 0.9756498 -0.0808570 0.9756498 -0.0808570 0.0243502 0.0808570
4216000000 0.0244144 0.0809695 0.9755856 -0.0809695 0.9755856 -0.0809695 0.0244144 0.0809695
4237000000 0.0244187 0.0811030 0.9755813 -0.0811030 0.9755813 -0.0811030 0.0244187 0.0811030
4258000000 0.0243680 0.0812667 0.9756320 -0.0812667 0.9756320 -0.0812667 0.0243680 0.0812667
4279000000 0.0242689 0.0814681 0.9757311 -0.0814681 0.9757311 -0.0814681 0.0242689 0.0814681
4300000000 0.0241288 0.0817131 0.9758712 -0.0817131 0.9758712 -0.0817131 0.0241288 0.0817131
4321000000 0.0239562 0.0820058 0.9760438 -0.0820058 0.9760438 -0.0820058 0.0239562 0.0820058
4342000000 0.0237591 0.0823485 0.9762409 -0.0823485 0.9762409 -0.0823485 0.0237591 0.0823485
4363000000 0.0235459 0.0827417 0.9764541 -0.0827417 0.9764541 -0.0827417 0.0235459 0.0827417
4384000000 0.0233240 0.0831848 0.9766760 -0.0831848 0.9766760 -0.0831848 0.0233240 0.0831848
4405000000 0.0231000 0.0836757 0.9769000 -0.0836757 0.9769000 -0.0836757 0.0231000 0.0836757
4426000000 0.0228797 0.0842116 0.9771203 -0.0842116 0.9771203 -0.0842116 0.0228797 0.0842116
4447000000 0.0226679 0.0847893 0.9773321 -0.0847893 0.9773321 -0.0847893 0.0226679 0.0847893
4468000000 0.0224684 0.0854050 0.9775316 -0.0854050 0.9775316 -0.0854050 0.0224684 0.0854050
4489000000 0.0222841 0.0860549 0.9777159 -0.0860549 0.9777159 -0.0860549 0.0222841 0.0860549
4510000000 0.0221172 0.0867352 0.9778828 -0.0867352 0.9778828 -0.0867352 0.0221172 0.0867352
