!Murata Part Number: GRM1552C2A9R0CA01
!These Parameters are Measured in Series Mode Connection
!Data Generated on Mar 30, 2021
!       o--ll--o
!Port1            Port2
!       o------o
!Operation Temp=25[degC], DC Bias Voltage=0[V]
!Freq. Start=100[MHz] Stop=9[GHz] 401[Steps]
# Hz S RI R 50
!Freq.(Hz) S11(Real) S11(Imag) S21(Real) S21(Imag) S12(Real) S12(Imag) S22(Real) S22(Imag)
100000000 0.7570692 -0.4283152 0.2429308 0.4283152 0.2429308 0.4283152 0.7570692 -0.4283152
121000000 0.6802049 -0.4657447 0.3197951 0.4657447 0.3197951 0.4657447 0.6802049 -0.4657447
142000000 0.6067759 -0.4876992 0.3932241 0.4876992 0.3932241 0.4876992 0.6067759 -0.4876992
163000000 0.5391537 -0.4975831 0.4608463 0.4975831 0.4608463 0.4975831 0.5391537 -0.4975831
184000000 0.4783713 -0.4985349 0.5216287 0.4985349 0.5216287 0.4985349 0.4783713 -0.4985349
205000000 0.4245831 -0.4931662 0.5754169 0.4931662 0.5754169 0.4931662 0.4245831 -0.4931662
226000000 0.3774367 -0.4835152 0.6225633 0.4835152 0.6225633 0.4835152 0.3774367 -0.4835152
247000000 0.3363306 -0.4711052 0.6636694 0.4711052 0.6636694 0.4711052 0.3363306 -0.4711052
268000000 0.3005749 -0.4570409 0.6994251 0.4570409 0.6994251 0.4570409 0.3005749 -0.4570409
289000000 0.2694825 -0.4421039 0.7305175 0.4421039 0.7305175 0.4421039 0.2694825 -0.4421039
310000000 0.2424153 -0.4268361 0.7575847 0.4268361 0.7575847 0.4268361 0.2424153 -0.4268361
331000000 0.2188041 -0.4116050 0.7811959 0.4116050 0.7811959 0.4116050 0.2188041 -0.4116050
352000000 0.1981525 -0.3966538 0.8018475 0.3966538 0.8018475 0.3966538 0.1981525 -0.3966538
373000000 0.1800346 -0.3821375 0.8199654 0.3821375 0.8199654 0.3821375 0.1800346 -0.3821375
394000000 0.1640874 -0.3681496 0.8359126 0.3681496 0.8359126 0.3681496 0.1640874 -0.3681496
415000000 0.1500031 -0.3547414 0.8499969 0.3547414 0.8499969 0.3547414 0.1500031 -0.3547414
436000000 0.1375217 -0.3419346 0.8624783 0.3419346 0.8624783 0.3419346 0.1375217 -0.3419346
457000000 0.1264231 -0.3297316 0.8735769 0.3297316 0.8735769 0.3297316 0.1264231 -0.3297316
478000000 0.1165212 -0.3181218 0.8834788 0.3181218 0.8834788 0.3181218 0.1165212 -0.3181218
499000000 0.1076583 -0.3070863 0.8923417 0.3070863 0.8923417 0.3070863 0.1076583 -0.3070863
520000000 0.0997004 -0.2966012 0.9002996 0.2966012 0.9002996 0.2966012 0.0997004 -0.2966012
541000000 0.0925335 -0.2866395 0.9074665 0.2866395 0.9074665 0.2866395 0.0925335 -0.2866395
562000000 0.0860601 -0.2771735 0.9139399 0.2771735 0.9139399 0.2771735 0.0860601 -0.2771735
583000000 0.0801967 -0.2681748 0.9198033 0.2681748 0.9198033 0.2681748 0.0801967 -0.2681748
604000000 0.0748717 -0.2596158 0.9251283 0.2596158 0.9251283 0.2596158 0.0748717 -0.2596158
625000000 0.0700233 -0.2514696 0.9299767 0.2514696 0.9299767 0.2514696 0.0700233 -0.2514696
646000000 0.0655980 -0.2437105 0.9344020 0.2437105 0.9344020 0.2437105 0.0655980 -0.2437105
667000000 0.0615494 -0.2363144 0.9384506 0.2363144 0.9384506 0.2363144 0.0615494 -0.2363144
688000000 0.0578372 -0.2292584 0.9421628 0.2292584 0.9421628 0.2292584 0.0578372 -0.2292584
709000000 0.0544263 -0.2225210 0.9455737 0.2225210 0.9455737 0.2225210 0.0544263 -0.2225210
730000000 0.0512858 -0.2160823 0.9487142 0.2160823 0.9487142 0.2160823 0.0512858 -0.2160823
751000000 0.0483886 -0.2099234 0.9516114 0.2099234 0.9516114 0.2099234 0.0483886 -0.2099234
772000000 0.0457110 -0.2040271 0.9542890 0.2040271 0.9542890 0.2040271 0.0457110 -0.2040271
793000000 0.0432320 -0.1983771 0.9567680 0.1983771 0.9567680 0.1983771 0.0432320 -0.1983771
814000000 0.0409329 -0.1929584 0.9590671 0.1929584 0.9590671 0.1929584 0.0409329 -0.1929584
835000000 0.0387972 -0.1877571 0.9612028 0.1877571 0.9612028 0.1877571 0.0387972 -0.1877571
856000000 0.0368103 -0.1827602 0.9631897 0.1827602 0.9631897 0.1827602 0.0368103 -0.1827602
877000000 0.0349592 -0.1779556 0.9650408 0.1779556 0.9650408 0.1779556 0.0349592 -0.1779556
898000000 0.0332320 -0.1733321 0.9667680 0.1733321 0.9667680 0.1733321 0.0332320 -0.1733321
919000000 0.0316183 -0.1688793 0.9683817 0.1688793 0.9683817 0.1688793 0.0316183 -0.1688793
940000000 0.0301088 -0.1645876 0.9698912 0.1645876 0.9698912 0.1645876 0.0301088 -0.1645876
961000000 0.0286950 -0.1604479 0.9713050 0.1604479 0.9713050 0.1604479 0.0286950 -0.1604479
982000000 0.0273692 -0.1564518 0.9726308 0.1564518 0.9726308 0.1564518 0.0273692 -0.1564518
1003000000 0.0261246 -0.1525915 0.9738754 0.1525915 0.9738754 0.1525915 0.0261246 -0.1525915
1024000000 0.0249549 -0.1488597 0.9750451 0.1488597 0.9750451 0.1488597 0.0249549 -0.1488597
1045000000 0.0238546 -0.1452496 0.9761454 0.1452496 0.9761454 0.1452496 0.0238546 -0.1452496
1066000000 0.0228185 -0.1417549 0.9771815 0.1417549 0.9771815 0.1417549 0.0228185 -0.1417549
1087000000 0.0218419 -0.1383695 0.9781581 0.1383695 0.9781581 0.1383695 0.0218419 -0.1383695
1108000000 0.0209205 -0.1350880 0.9790795 0.1350880 0.9790795 0.1350880 0.0209205 -0.1350880
1129000000 0.0200506 -0.1319052 0.9799494 0.1319052 0.9799494 0.1319052 0.0200506 -0.1319052
1150000000 0.0192286 -0.1288161 0.9807714 0.1288161 0.9807714 0.1288161 0.0192286 -0.1288161
1171000000 0.0184512 -0.1258161 0.9815488 0.1258161 0.9815488 0.1258161 0.0184512 -0.1258161
1192000000 0.0177154 -0.1229011 0.9822846 0.1229011 0.9822846 0.1229011 0.0177154 -0.1229011
1213000000 0.0170186 -0.1200670 0.9829814 0.1200670 0.9829814 0.1200670 0.0170186 -0.1200670
1234000000 0.0163583 -0.1173099 0.9836417 0.1173099 0.9836417 0.1173099 0.0163583 -0.1173099
1255000000 0.0157320 -0.1146263 0.9842680 0.1146263 0.9842680 0.1146263 0.0157320 -0.1146263
1276000000 0.0151378 -0.1120129 0.9848622 0.1120129 0.9848622 0.1120129 0.0151378 -0.1120129
1297000000 0.0145736 -0.1094665 0.9854264 0.1094665 0.9854264 0.1094665 0.0145736 -0.1094665
1318000000 0.0140377 -0.1069841 0.9859623 0.1069841 0.9859623 0.1069841 0.0140377 -0.1069841
1339000000 0.0135283 -0.1045629 0.9864717 0.1045629 0.9864717 0.1045629 0.0135283 -0.1045629
1360000000 0.0130439 -0.1022002 0.9869561 0.1022002 0.9869561 0.1022002 0.0130439 -0.1022002
1381000000 0.0125830 -0.0998936 0.9874170 0.0998936 0.9874170 0.0998936 0.0125830 -0.0998936
1402000000 0.0121444 -0.0976407 0.9878556 0.0976407 0.9878556 0.0976407 0.0121444 -0.0976407
1423000000 0.0117268 -0.0954392 0.9882732 0.0954392 0.9882732 0.0954392 0.0117268 -0.0954392
1444000000 0.0113291 -0.0932870 0.9886709 0.0932870 0.9886709 0.0932870 0.0113291 -0.0932870
1465000000 0.0109501 -0.0911821 0.9890499 0.0911821 0.9890499 0.0911821 0.0109501 -0.0911821
1486000000 0.0105888 -0.0891225 0.9894112 0.0891225 0.9894112 0.0891225 0.0105888 -0.0891225
1507000000 0.0102444 -0.0871066 0.9897556 0.0871066 0.9897556 0.0871066 0.0102444 -0.0871066
1528000000 0.0099160 -0.0851324 0.9900840 0.0851324 0.9900840 0.0851324 0.0099160 -0.0851324
1549000000 0.0096027 -0.0831985 0.9903973 0.0831985 0.9903973 0.0831985 0.0096027 -0.0831985
1570000000 0.0093038 -0.0813032 0.9906962 0.0813032 0.9906962 0.0813032 0.0093038 -0.0813032
1591000000 0.0090186 -0.0794451 0.9909814 0.0794451 0.9909814 0.0794451 0.0090186 -0.0794451
1612000000 0.0087464 -0.0776228 0.9912536 0.0776228 0.9912536 0.0776228 0.0087464 -0.0776228
1633000000 0.0084866 -0.0758349 0.9915134 0.0758349 0.9915134 0.0758349 0.0084866 -0.0758349
1654000000 0.0082385 -0.0740802 0.9917615 0.0740802 0.9917615 0.0740802 0.0082385 -0.0740802
1675000000 0.0080018 -0.0723574 0.9919982 0.0723574 0.9919982 0.0723574 0.0080018 -0.0723574
1696000000 0.0077758 -0.0706654 0.9922242 0.0706654 0.9922242 0.0706654 0.0077758 -0.0706654
1717000000 0.0075600 -0.0690031 0.9924400 0.0690031 0.9924400 0.0690031 0.0075600 -0.0690031
1738000000 0.0073540 -0.0673694 0.9926460 0.0673694 0.9926460 0.0673694 0.0073540 -0.0673694
1759000000 0.0071574 -0.0657633 0.9928426 0.0657633 0.9928426 0.0657633 0.0071574 -0.0657633
1780000000 0.0069698 -0.0641838 0.9930302 0.0641838 0.9930302 0.0641838 0.0069698 -0.0641838
1801000000 0.0067907 -0.0626301 0.9932093 0.0626301 0.9932093 0.0626301 0.0067907 -0.0626301
1822000000 0.0066199 -0.0611012 0.9933801 0.0611012 0.9933801 0.0611012 0.0066199 -0.0611012
1843000000 0.0064569 -0.0595962 0.9935431 0.0595962 0.9935431 0.0595962 0.0064569 -0.0595962
1864000000 0.0063015 -0.0581145 0.9936985 0.0581145 0.9936985 0.0581145 0.0063015 -0.0581145
1885000000 0.0061534 -0.0566551 0.9938466 0.0566551 0.9938466 0.0566551 0.0061534 -0.0566551
1906000000 0.0060122 -0.0552174 0.9939878 0.0552174 0.9939878 0.0552174 0.0060122 -0.0552174
1927000000 0.0058778 -0.0538007 0.9941222 0.0538007 0.9941222 0.0538007 0.0058778 -0.0538007
1948000000 0.0057497 -0.0524042 0.9942503 0.0524042 0.9942503 0.0524042 0.0057497 -0.0524042
1969000000 0.0056280 -0.0510273 0.9943720 0.0510273 0.9943720 0.0510273 0.0056280 -0.0510273
1990000000 0.0055121 -0.0496693 0.9944879 0.0496693 0.9944879 0.0496693 0.0055121 -0.0496693
2011000000 0.0054021 -0.0483297 0.9945979 0.0483297 0.9945979 0.0483297 0.0054021 -0.0483297
2032000000 0.0052976 -0.0470079 0.9947024 0.0470079 0.9947024 0.0470079 0.0052976 -0.0470079
2053000000 0.0051985 -0.0457032 0.9948015 0.0457032 0.9948015 0.0457032 0.0051985 -0.0457032
2074000000 0.0051045 -0.0444153 0.9948955 0.0444153 0.9948955 0.0444153 0.0051045 -0.0444153
2095000000 0.0050156 -0.0431435 0.9949844 0.0431435 0.9949844 0.0431435 0.0050156 -0.0431435
2116000000 0.0049315 -0.0418873 0.9950685 0.0418873 0.9950685 0.0418873 0.0049315 -0.0418873
2137000000 0.0048520 -0.0406463 0.9951480 0.0406463 0.9951480 0.0406463 0.0048520 -0.0406463
2158000000 0.0047772 -0.0394199 0.9952228 0.0394199 0.9952228 0.0394199 0.0047772 -0.0394199
2179000000 0.0047067 -0.0382079 0.9952933 0.0382079 0.9952933 0.0382079 0.0047067 -0.0382079
2200000000 0.0046404 -0.0370096 0.9953596 0.0370096 0.9953596 0.0370096 0.0046404 -0.0370096
2221000000 0.0045783 -0.0358247 0.9954217 0.0358247 0.9954217 0.0358247 0.0045783 -0.0358247
2242000000 0.0045202 -0.0346528 0.9954798 0.0346528 0.9954798 0.0346528 0.0045202 -0.0346528
2263000000 0.0044661 -0.0334935 0.9955339 0.0334935 0.9955339 0.0334935 0.0044661 -0.0334935
2284000000 0.0044157 -0.0323464 0.9955843 0.0323464 0.9955843 0.0323464 0.0044157 -0.0323464
2305000000 0.0043689 -0.0312112 0.9956311 0.0312112 0.9956311 0.0312112 0.0043689 -0.0312112
2326000000 0.0043258 -0.0300874 0.9956742 0.0300874 0.9956742 0.0300874 0.0043258 -0.0300874
2347000000 0.0042862 -0.0289749 0.9957138 0.0289749 0.9957138 0.0289749 0.0042862 -0.0289749
2368000000 0.0042499 -0.0278731 0.9957501 0.0278731 0.9957501 0.0278731 0.0042499 -0.0278731
2389000000 0.0042170 -0.0267819 0.9957830 0.0267819 0.9957830 0.0267819 0.0042170 -0.0267819
2410000000 0.0041874 -0.0257008 0.9958126 0.0257008 0.9958126 0.0257008 0.0041874 -0.0257008
2431000000 0.0041609 -0.0246297 0.9958391 0.0246297 0.9958391 0.0246297 0.0041609 -0.0246297
2452000000 0.0041375 -0.0235682 0.9958625 0.0235682 0.9958625 0.0235682 0.0041375 -0.0235682
2473000000 0.0041171 -0.0225160 0.9958829 0.0225160 0.9958829 0.0225160 0.0041171 -0.0225160
2494000000 0.0040997 -0.0214728 0.9959003 0.0214728 0.9959003 0.0214728 0.0040997 -0.0214728
2515000000 0.0040852 -0.0204385 0.9959148 0.0204385 0.9959148 0.0204385 0.0040852 -0.0204385
2536000000 0.0040735 -0.0194126 0.9959265 0.0194126 0.9959265 0.0194126 0.0040735 -0.0194126
2557000000 0.0040646 -0.0183950 0.9959354 0.0183950 0.9959354 0.0183950 0.0040646 -0.0183950
2578000000 0.0040585 -0.0173855 0.9959415 0.0173855 0.9959415 0.0173855 0.0040585 -0.0173855
2599000000 0.0040550 -0.0163838 0.9959450 0.0163838 0.9959450 0.0163838 0.0040550 -0.0163838
2620000000 0.0040542 -0.0153896 0.9959458 0.0153896 0.9959458 0.0153896 0.0040542 -0.0153896
2641000000 0.0040561 -0.0144028 0.9959439 0.0144028 0.9959439 0.0144028 0.0040561 -0.0144028
2662000000 0.0040604 -0.0134231 0.9959396 0.0134231 0.9959396 0.0134231 0.0040604 -0.0134231
2683000000 0.0040673 -0.0124503 0.9959327 0.0124503 0.9959327 0.0124503 0.0040673 -0.0124503
2704000000 0.0040767 -0.0114842 0.9959233 0.0114842 0.9959233 0.0114842 0.0040767 -0.0114842
2725000000 0.0040885 -0.0105246 0.9959115 0.0105246 0.9959115 0.0105246 0.0040885 -0.0105246
2746000000 0.0041028 -0.0095713 0.9958972 0.0095713 0.9958972 0.0095713 0.0041028 -0.0095713
2767000000 0.0041195 -0.0086242 0.9958805 0.0086242 0.9958805 0.0086242 0.0041195 -0.0086242
2788000000 0.0041385 -0.0076829 0.9958615 0.0076829 0.9958615 0.0076829 0.0041385 -0.0076829
2809000000 0.0041599 -0.0067474 0.9958401 0.0067474 0.9958401 0.0067474 0.0041599 -0.0067474
2830000000 0.0041836 -0.0058175 0.9958164 0.0058175 0.9958164 0.0058175 0.0041836 -0.0058175
2851000000 0.0042096 -0.0048930 0.9957904 0.0048930 0.9957904 0.0048930 0.0042096 -0.0048930
2872000000 0.0042379 -0.0039737 0.9957621 0.0039737 0.9957621 0.0039737 0.0042379 -0.0039737
2893000000 0.0042685 -0.0030594 0.9957315 0.0030594 0.9957315 0.0030594 0.0042685 -0.0030594
2914000000 0.0043014 -0.0021500 0.9956986 0.0021500 0.9956986 0.0021500 0.0043014 -0.0021500
2935000000 0.0043364 -0.0012454 0.9956636 0.0012454 0.9956636 0.0012454 0.0043364 -0.0012454
2956000000 0.0043738 -0.0003453 0.9956262 0.0003453 0.9956262 0.0003453 0.0043738 -0.0003453
2977000000 0.0044133 0.0005503 0.9955867 -0.0005503 0.9955867 -0.0005503 0.0044133 0.0005503
2998000000 0.0044550 0.0014417 0.9955450 -0.0014417 0.9955450 -0.0014417 0.0044550 0.0014417
3019000000 0.0044990 0.0023289 0.9955010 -0.0023289 0.9955010 -0.0023289 0.0044990 0.0023289
3040000000 0.0045452 0.0032122 0.9954548 -0.0032122 0.9954548 -0.0032122 0.0045452 0.0032122
3061000000 0.0045936 0.0040916 0.9954064 -0.0040916 0.9954064 -0.0040916 0.0045936 0.0040916
3082000000 0.0046441 0.0049673 0.9953559 -0.0049673 0.9953559 -0.0049673 0.0046441 0.0049673
3103000000 0.0046969 0.0058395 0.9953031 -0.0058395 0.9953031 -0.0058395 0.0046969 0.0058395
3124000000 0.0047519 0.0067082 0.9952481 -0.0067082 0.9952481 -0.0067082 0.0047519 0.0067082
3145000000 0.0048091 0.0075736 0.9951909 -0.0075736 0.9951909 -0.0075736 0.0048091 0.0075736
3166000000 0.0048685 0.0084359 0.9951315 -0.0084359 0.9951315 -0.0084359 0.0048685 0.0084359
3187000000 0.0049302 0.0092951 0.9950698 -0.0092951 0.9950698 -0.0092951 0.0049302 0.0092951
3208000000 0.0049941 0.0101514 0.9950059 -0.0101514 0.9950059 -0.0101514 0.0049941 0.0101514
3229000000 0.0050602 0.0110049 0.9949398 -0.0110049 0.9949398 -0.0110049 0.0050602 0.0110049
3250000000 0.0051286 0.0118558 0.9948714 -0.0118558 0.9948714 -0.0118558 0.0051286 0.0118558
3271000000 0.0051993 0.0127041 0.9948007 -0.0127041 0.9948007 -0.0127041 0.0051993 0.0127041
3292000000 0.0052722 0.0135500 0.9947278 -0.0135500 0.9947278 -0.0135500 0.0052722 0.0135500
3313000000 0.0053475 0.0143936 0.9946525 -0.0143936 0.9946525 -0.0143936 0.0053475 0.0143936
3334000000 0.0054251 0.0152350 0.9945749 -0.0152350 0.9945749 -0.0152350 0.0054251 0.0152350
3355000000 0.0055050 0.0160743 0.9944950 -0.0160743 0.9944950 -0.0160743 0.0055050 0.0160743
3376000000 0.0055873 0.0169116 0.9944127 -0.0169116 0.9944127 -0.0169116 0.0055873 0.0169116
3397000000 0.0056720 0.0177471 0.9943280 -0.0177471 0.9943280 -0.0177471 0.0056720 0.0177471
3418000000 0.0057591 0.0185809 0.9942409 -0.0185809 0.9942409 -0.0185809 0.0057591 0.0185809
3439000000 0.0058487 0.0194130 0.9941513 -0.0194130 0.9941513 -0.0194130 0.0058487 0.0194130
3460000000 0.0059407 0.0202437 0.9940593 -0.0202437 0.9940593 -0.0202437 0.0059407 0.0202437
3481000000 0.0060353 0.0210729 0.9939647 -0.0210729 0.9939647 -0.0210729 0.0060353 0.0210729
3502000000 0.0061324 0.0219008 0.9938676 -0.0219008 0.9938676 -0.0219008 0.0061324 0.0219008
3523000000 0.0062321 0.0227275 0.9937679 -0.0227275 0.9937679 -0.0227275 0.0062321 0.0227275
3544000000 0.0063345 0.0235531 0.9936655 -0.0235531 0.9936655 -0.0235531 0.0063345 0.0235531
3565000000 0.0064395 0.0243778 0.9935605 -0.0243778 0.9935605 -0.0243778 0.0064395 0.0243778
3586000000 0.0065472 0.0252016 0.9934528 -0.0252016 0.9934528 -0.0252016 0.0065472 0.0252016
3607000000 0.0066576 0.0260246 0.9933424 -0.0260246 0.9933424 -0.0260246 0.0066576 0.0260246
3628000000 0.0067709 0.0268470 0.9932291 -0.0268470 0.9932291 -0.0268470 0.0067709 0.0268470
3649000000 0.0068870 0.0276687 0.9931130 -0.0276687 0.9931130 -0.0276687 0.0068870 0.0276687
3670000000 0.0070060 0.0284901 0.9929940 -0.0284901 0.9929940 -0.0284901 0.0070060 0.0284901
3691000000 0.0071280 0.0293111 0.9928720 -0.0293111 0.9928720 -0.0293111 0.0071280 0.0293111
3712000000 0.0072530 0.0301318 0.9927470 -0.0301318 0.9927470 -0.0301318 0.0072530 0.0301318
3733000000 0.0073812 0.0309524 0.9926188 -0.0309524 0.9926188 -0.0309524 0.0073812 0.0309524
3754000000 0.0075124 0.0317729 0.9924876 -0.0317729 0.9924876 -0.0317729 0.0075124 0.0317729
3775000000 0.0076469 0.0325936 0.9923531 -0.0325936 0.9923531 -0.0325936 0.0076469 0.0325936
3796000000 0.0077846 0.0334143 0.9922154 -0.0334143 0.9922154 -0.0334143 0.0077846 0.0334143
3817000000 0.0079258 0.0342354 0.9920742 -0.0342354 0.9920742 -0.0342354 0.0079258 0.0342354
3838000000 0.0080703 0.0350568 0.9919297 -0.0350568 0.9919297 -0.0350568 0.0080703 0.0350568
3859000000 0.0082184 0.0358787 0.9917816 -0.0358787 0.9917816 -0.0358787 0.0082184 0.0358787
3880000000 0.0083701 0.0367011 0.9916299 -0.0367011 0.9916299 -0.0367011 0.0083701 0.0367011
3901000000 0.0085255 0.0375242 0.9914745 -0.0375242 0.9914745 -0.0375242 0.0085255 0.0375242
3922000000 0.0086847 0.0383482 0.9913153 -0.0383482 0.9913153 -0.0383482 0.0086847 0.0383482
3943000000 0.0088478 0.0391730 0.9911522 -0.0391730 0.9911522 -0.0391730 0.0088478 0.0391730
3964000000 0.0090149 0.0399988 0.9909851 -0.0399988 0.9909851 -0.0399988 0.0090149 0.0399988
3985000000 0.0091861 0.0408256 0.9908139 -0.0408256 0.9908139 -0.0408256 0.0091861 0.0408256
4006000000 0.0093616 0.0416537 0.9906384 -0.0416537 0.9906384 -0.0416537 0.0093616 0.0416537
4027000000 0.0095413 0.0424831 0.9904587 -0.0424831 0.9904587 -0.0424831 0.0095413 0.0424831
4048000000 0.0097256 0.0433139 0.9902744 -0.0433139 0.9902744 -0.0433139 0.0097256 0.0433139
4069000000 0.0099144 0.0441462 0.9900856 -0.0441462 0.9900856 -0.0441462 0.0099144 0.0441462
4090000000 0.0101079 0.0449801 0.9898921 -0.0449801 0.9898921 -0.0449801 0.0101079 0.0449801
4111000000 0.0103063 0.0458158 0.9896937 -0.0458158 0.9896937 -0.0458158 0.0103063 0.0458158
4132000000 0.0105098 0.0466532 0.9894902 -0.0466532 0.9894902 -0.0466532 0.0105098 0.0466532
4153000000 0.0107184 0.0474926 0.9892816 -0.0474926 0.9892816 -0.0474926 0.0107184 0.0474926
4174000000 0.0109323 0.0483341 0.9890677 -0.0483341 0.9890677 -0.0483341 0.0109323 0.0483341
4195000000 0.0111518 0.0491777 0.9888482 -0.0491777 0.9888482 -0.0491777 0.0111518 0.0491777
4216000000 0.0113770 0.0500235 0.9886230 -0.0500235 0.9886230 -0.0500235 0.0113770 0.0500235
4237000000 0.0116080 0.0508717 0.9883920 -0.0508717 0.9883920 -0.0508717 0.0116080 0.0508717
4258000000 0.0118451 0.0517224 0.9881549 -0.0517224 0.9881549 -0.0517224 0.0118451 0.0517224
4279000000 0.0120885 0.0525756 0.9879115 -0.0525756 0.9879115 -0.0525756 0.0120885 0.0525756
4300000000 0.0123385 0.0534315 0.9876615 -0.0534315 0.9876615 -0.0534315 0.0123385 0.0534315
4321000000 0.0125951 0.0542901 0.9874049 -0.0542901 0.9874049 -0.0542901 0.0125951 0.0542901
4342000000 0.0128587 0.0551517 0.9871413 -0.0551517 0.9871413 -0.0551517 0.0128587 0.0551517
4363000000 0.0131296 0.0560162 0.9868704 -0.0560162 0.9868704 -0.0560162 0.0131296 0.0560162
4384000000 0.0134079 0.0568838 0.9865921 -0.0568838 0.9865921 -0.0568838 0.0134079 0.0568838
4405000000 0.0136940 0.0577546 0.9863060 -0.0577546 0.9863060 -0.0577546 0.0136940 0.0577546
4426000000 0.0139882 0.0586286 0.9860118 -0.0586286 0.9860118 -0.0586286 0.0139882 0.0586286
4447000000 0.0142908 0.0595060 0.9857092 -0.0595060 0.9857092 -0.0595060 0.0142908 0.0595060
4468000000 0.0146020 0.0603869 0.9853980 -0.0603869 0.9853980 -0.0603869 0.0146020 0.0603869
4489000000 0.0149223 0.0612713 0.9850777 -0.0612713 0.9850777 -0.0612713 0.0149223 0.0612713
4510000000 0.0152519 0.0621594 0.9847481 -0.0621594 0.9847481 -0.0621594 0.0152519 0.0621594
