!Murata Part Number: GRM1552C2A5R2BA01
!These Parameters are Measured in Series Mode Connection
!Data Generated on Mar 30, 2021
!       o--ll--o
!Port1            Port2
!       o------o
!Operation Temp=25[degC], DC Bias Voltage=0[V]
!Freq. Start=100[MHz] Stop=9[GHz] 401[Steps]
# Hz S RI R 50
!Freq.(Hz) S11(Real) S11(Imag) S21(Real) S21(Imag) S12(Real) S12(Imag) S22(Real) S22(Imag)
100000000 0.9032605 -0.2952591 0.0967395 0.2952591 0.0967395 0.2952591 0.9032605 -0.2952591
121000000 0.8643852 -0.3419629 0.1356148 0.3419629 0.1356148 0.3419629 0.8643852 -0.3419629
142000000 0.8222219 -0.3818368 0.1777781 0.3818368 0.1777781 0.3818368 0.8222219 -0.3818368
163000000 0.7781419 -0.4149340 0.2218581 0.4149340 0.2218581 0.4149340 0.7781419 -0.4149340
184000000 0.7333408 -0.4415771 0.2666592 0.4415771 0.2666592 0.4415771 0.7333408 -0.4415771
205000000 0.6888022 -0.4622741 0.3111978 0.4622741 0.3111978 0.4622741 0.6888022 -0.4622741
226000000 0.6452917 -0.4776413 0.3547083 0.4776413 0.3547083 0.4776413 0.6452917 -0.4776413
247000000 0.6033701 -0.4883397 0.3966299 0.4883397 0.3966299 0.4883397 0.6033701 -0.4883397
268000000 0.5634200 -0.4950283 0.4365800 0.4950283 0.4365800 0.4950283 0.5634200 -0.4950283
289000000 0.5256760 -0.4983313 0.4743240 0.4983313 0.4743240 0.4983313 0.5256760 -0.4983313
310000000 0.4902561 -0.4988198 0.5097439 0.4988198 0.5097439 0.4988198 0.4902561 -0.4988198
331000000 0.4571902 -0.4970018 0.5428098 0.4970018 0.5428098 0.4970018 0.4571902 -0.4970018
352000000 0.4264438 -0.4933203 0.5735562 0.4933203 0.5735562 0.4933203 0.4264438 -0.4933203
373000000 0.3979382 -0.4881547 0.6020618 0.4881547 0.6020618 0.4881547 0.3979382 -0.4881547
394000000 0.3715660 -0.4818264 0.6284340 0.4818264 0.6284340 0.4818264 0.3715660 -0.4818264
415000000 0.3472025 -0.4746042 0.6527975 0.4746042 0.6527975 0.4746042 0.3472025 -0.4746042
436000000 0.3247148 -0.4667110 0.6752852 0.4667110 0.6752852 0.4667110 0.3247148 -0.4667110
457000000 0.3039677 -0.4583302 0.6960323 0.4583302 0.6960323 0.4583302 0.3039677 -0.4583302
478000000 0.2848284 -0.4496116 0.7151716 0.4496116 0.7151716 0.4496116 0.2848284 -0.4496116
499000000 0.2671688 -0.4406768 0.7328312 0.4406768 0.7328312 0.4406768 0.2671688 -0.4406768
520000000 0.2508676 -0.4316237 0.7491324 0.4316237 0.7491324 0.4316237 0.2508676 -0.4316237
541000000 0.2358112 -0.4225306 0.7641888 0.4225306 0.7641888 0.4225306 0.2358112 -0.4225306
562000000 0.2218942 -0.4134597 0.7781058 0.4134597 0.7781058 0.4134597 0.2218942 -0.4134597
583000000 0.2090194 -0.4044599 0.7909806 0.4044599 0.7909806 0.4044599 0.2090194 -0.4044599
604000000 0.1970974 -0.3955693 0.8029026 0.3955693 0.8029026 0.3955693 0.1970974 -0.3955693
625000000 0.1860466 -0.3868170 0.8139534 0.3868170 0.8139534 0.3868170 0.1860466 -0.3868170
646000000 0.1757926 -0.3782250 0.8242074 0.3782250 0.8242074 0.3782250 0.1757926 -0.3782250
667000000 0.1662676 -0.3698093 0.8337324 0.3698093 0.8337324 0.3698093 0.1662676 -0.3698093
688000000 0.1574100 -0.3615815 0.8425900 0.3615815 0.8425900 0.3615815 0.1574100 -0.3615815
709000000 0.1491638 -0.3535490 0.8508362 0.3535490 0.8508362 0.3535490 0.1491638 -0.3535490
730000000 0.1414783 -0.3457164 0.8585217 0.3457164 0.8585217 0.3457164 0.1414783 -0.3457164
751000000 0.1343074 -0.3380859 0.8656926 0.3380859 0.8656926 0.3380859 0.1343074 -0.3380859
772000000 0.1276091 -0.3306577 0.8723909 0.3306577 0.8723909 0.3306577 0.1276091 -0.3306577
793000000 0.1213455 -0.3234303 0.8786545 0.3234303 0.8786545 0.3234303 0.1213455 -0.3234303
814000000 0.1154820 -0.3164014 0.8845180 0.3164014 0.8845180 0.3164014 0.1154820 -0.3164014
835000000 0.1099872 -0.3095675 0.8900128 0.3095675 0.8900128 0.3095675 0.1099872 -0.3095675
856000000 0.1048326 -0.3029245 0.8951674 0.3029245 0.8951674 0.3029245 0.1048326 -0.3029245
877000000 0.0999922 -0.2964679 0.9000078 0.2964679 0.9000078 0.2964679 0.0999922 -0.2964679
898000000 0.0954423 -0.2901927 0.9045577 0.2901927 0.9045577 0.2901927 0.0954423 -0.2901927
919000000 0.0911613 -0.2840937 0.9088387 0.2840937 0.9088387 0.2840937 0.0911613 -0.2840937
940000000 0.0871294 -0.2781656 0.9128706 0.2781656 0.9128706 0.2781656 0.0871294 -0.2781656
961000000 0.0833286 -0.2724029 0.9166714 0.2724029 0.9166714 0.2724029 0.0833286 -0.2724029
982000000 0.0797425 -0.2668002 0.9202575 0.2668002 0.9202575 0.2668002 0.0797425 -0.2668002
1003000000 0.0763558 -0.2613522 0.9236442 0.2613522 0.9236442 0.2613522 0.0763558 -0.2613522
1024000000 0.0731549 -0.2560533 0.9268451 0.2560533 0.9268451 0.2560533 0.0731549 -0.2560533
1045000000 0.0701269 -0.2508985 0.9298731 0.2508985 0.9298731 0.2508985 0.0701269 -0.2508985
1066000000 0.0672602 -0.2458825 0.9327398 0.2458825 0.9327398 0.2458825 0.0672602 -0.2458825
1087000000 0.0645441 -0.2410004 0.9354559 0.2410004 0.9354559 0.2410004 0.0645441 -0.2410004
1108000000 0.0619687 -0.2362473 0.9380313 0.2362473 0.9380313 0.2362473 0.0619687 -0.2362473
1129000000 0.0595249 -0.2316185 0.9404751 0.2316185 0.9404751 0.2316185 0.0595249 -0.2316185
1150000000 0.0572043 -0.2271094 0.9427957 0.2271094 0.9427957 0.2271094 0.0572043 -0.2271094
1171000000 0.0549991 -0.2227157 0.9450009 0.2227157 0.9450009 0.2227157 0.0549991 -0.2227157
1192000000 0.0529022 -0.2184330 0.9470978 0.2184330 0.9470978 0.2184330 0.0529022 -0.2184330
1213000000 0.0509069 -0.2142574 0.9490931 0.2142574 0.9490931 0.2142574 0.0509069 -0.2142574
1234000000 0.0490072 -0.2101849 0.9509928 0.2101849 0.9509928 0.2101849 0.0490072 -0.2101849
1255000000 0.0471973 -0.2062117 0.9528027 0.2062117 0.9528027 0.2062117 0.0471973 -0.2062117
1276000000 0.0454719 -0.2023342 0.9545281 0.2023342 0.9545281 0.2023342 0.0454719 -0.2023342
1297000000 0.0438261 -0.1985489 0.9561739 0.1985489 0.9561739 0.1985489 0.0438261 -0.1985489
1318000000 0.0422554 -0.1948525 0.9577446 0.1948525 0.9577446 0.1948525 0.0422554 -0.1948525
1339000000 0.0407556 -0.1912418 0.9592444 0.1912418 0.9592444 0.1912418 0.0407556 -0.1912418
1360000000 0.0393226 -0.1877137 0.9606774 0.1877137 0.9606774 0.1877137 0.0393226 -0.1877137
1381000000 0.0379528 -0.1842653 0.9620472 0.1842653 0.9620472 0.1842653 0.0379528 -0.1842653
1402000000 0.0366428 -0.1808938 0.9633572 0.1808938 0.9633572 0.1808938 0.0366428 -0.1808938
1423000000 0.0353893 -0.1775964 0.9646107 0.1775964 0.9646107 0.1775964 0.0353893 -0.1775964
1444000000 0.0341894 -0.1743705 0.9658106 0.1743705 0.9658106 0.1743705 0.0341894 -0.1743705
1465000000 0.0330402 -0.1712138 0.9669598 0.1712138 0.9669598 0.1712138 0.0330402 -0.1712138
1486000000 0.0319392 -0.1681237 0.9680608 0.1681237 0.9680608 0.1681237 0.0319392 -0.1681237
1507000000 0.0308838 -0.1650981 0.9691162 0.1650981 0.9691162 0.1650981 0.0308838 -0.1650981
1528000000 0.0298718 -0.1621347 0.9701282 0.1621347 0.9701282 0.1621347 0.0298718 -0.1621347
1549000000 0.0289010 -0.1592314 0.9710990 0.1592314 0.9710990 0.1592314 0.0289010 -0.1592314
1570000000 0.0279694 -0.1563863 0.9720306 0.1563863 0.9720306 0.1563863 0.0279694 -0.1563863
1591000000 0.0270750 -0.1535974 0.9729250 0.1535974 0.9729250 0.1535974 0.0270750 -0.1535974
1612000000 0.0262162 -0.1508628 0.9737838 0.1508628 0.9737838 0.1508628 0.0262162 -0.1508628
1633000000 0.0253911 -0.1481808 0.9746089 0.1481808 0.9746089 0.1481808 0.0253911 -0.1481808
1654000000 0.0245983 -0.1455496 0.9754017 0.1455496 0.9754017 0.1455496 0.0245983 -0.1455496
1675000000 0.0238361 -0.1429677 0.9761639 0.1429677 0.9761639 0.1429677 0.0238361 -0.1429677
1696000000 0.0231033 -0.1404335 0.9768967 0.1404335 0.9768967 0.1404335 0.0231033 -0.1404335
1717000000 0.0223985 -0.1379455 0.9776015 0.1379455 0.9776015 0.1379455 0.0223985 -0.1379455
1738000000 0.0217204 -0.1355021 0.9782796 0.1355021 0.9782796 0.1355021 0.0217204 -0.1355021
1759000000 0.0210678 -0.1331021 0.9789322 0.1331021 0.9789322 0.1331021 0.0210678 -0.1331021
1780000000 0.0204396 -0.1307440 0.9795604 0.1307440 0.9795604 0.1307440 0.0204396 -0.1307440
1801000000 0.0198348 -0.1284267 0.9801652 0.1284267 0.9801652 0.1284267 0.0198348 -0.1284267
1822000000 0.0192524 -0.1261488 0.9807476 0.1261488 0.9807476 0.1261488 0.0192524 -0.1261488
1843000000 0.0186914 -0.1239092 0.9813086 0.1239092 0.9813086 0.1239092 0.0186914 -0.1239092
1864000000 0.0181509 -0.1217068 0.9818491 0.1217068 0.9818491 0.1217068 0.0181509 -0.1217068
1885000000 0.0176301 -0.1195404 0.9823699 0.1195404 0.9823699 0.1195404 0.0176301 -0.1195404
1906000000 0.0171281 -0.1174089 0.9828719 0.1174089 0.9828719 0.1174089 0.0171281 -0.1174089
1927000000 0.0166443 -0.1153114 0.9833557 0.1153114 0.9833557 0.1153114 0.0166443 -0.1153114
1948000000 0.0161778 -0.1132470 0.9838222 0.1132470 0.9838222 0.1132470 0.0161778 -0.1132470
1969000000 0.0157280 -0.1112145 0.9842720 0.1112145 0.9842720 0.1112145 0.0157280 -0.1112145
1990000000 0.0152942 -0.1092131 0.9847058 0.1092131 0.9847058 0.1092131 0.0152942 -0.1092131
2011000000 0.0148758 -0.1072420 0.9851242 0.1072420 0.9851242 0.1072420 0.0148758 -0.1072420
2032000000 0.0144722 -0.1053003 0.9855278 0.1053003 0.9855278 0.1053003 0.0144722 -0.1053003
2053000000 0.0140829 -0.1033872 0.9859171 0.1033872 0.9859171 0.1033872 0.0140829 -0.1033872
2074000000 0.0137073 -0.1015019 0.9862927 0.1015019 0.9862927 0.1015019 0.0137073 -0.1015019
2095000000 0.0133448 -0.0996436 0.9866552 0.0996436 0.9866552 0.0996436 0.0133448 -0.0996436
2116000000 0.0129951 -0.0978116 0.9870049 0.0978116 0.9870049 0.0978116 0.0129951 -0.0978116
2137000000 0.0126576 -0.0960052 0.9873424 0.0960052 0.9873424 0.0960052 0.0126576 -0.0960052
2158000000 0.0123320 -0.0942237 0.9876680 0.0942237 0.9876680 0.0942237 0.0123320 -0.0942237
2179000000 0.0120177 -0.0924664 0.9879823 0.0924664 0.9879823 0.0924664 0.0120177 -0.0924664
2200000000 0.0117144 -0.0907328 0.9882856 0.0907328 0.9882856 0.0907328 0.0117144 -0.0907328
2221000000 0.0114217 -0.0890222 0.9885783 0.0890222 0.9885783 0.0890222 0.0114217 -0.0890222
2242000000 0.0111392 -0.0873339 0.9888608 0.0873339 0.9888608 0.0873339 0.0111392 -0.0873339
2263000000 0.0108666 -0.0856675 0.9891334 0.0856675 0.9891334 0.0856675 0.0108666 -0.0856675
2284000000 0.0106035 -0.0840223 0.9893965 0.0840223 0.9893965 0.0840223 0.0106035 -0.0840223
2305000000 0.0103496 -0.0823979 0.9896504 0.0823979 0.9896504 0.0823979 0.0103496 -0.0823979
2326000000 0.0101047 -0.0807936 0.9898953 0.0807936 0.9898953 0.0807936 0.0101047 -0.0807936
2347000000 0.0098683 -0.0792091 0.9901317 0.0792091 0.9901317 0.0792091 0.0098683 -0.0792091
2368000000 0.0096404 -0.0776437 0.9903596 0.0776437 0.9903596 0.0776437 0.0096404 -0.0776437
2389000000 0.0094204 -0.0760971 0.9905796 0.0760971 0.9905796 0.0760971 0.0094204 -0.0760971
2410000000 0.0092083 -0.0745688 0.9907917 0.0745688 0.9907917 0.0745688 0.0092083 -0.0745688
2431000000 0.0090037 -0.0730583 0.9909963 0.0730583 0.9909963 0.0730583 0.0090037 -0.0730583
2452000000 0.0088065 -0.0715652 0.9911935 0.0715652 0.9911935 0.0715652 0.0088065 -0.0715652
2473000000 0.0086163 -0.0700891 0.9913837 0.0700891 0.9913837 0.0700891 0.0086163 -0.0700891
2494000000 0.0084330 -0.0686295 0.9915670 0.0686295 0.9915670 0.0686295 0.0084330 -0.0686295
2515000000 0.0082564 -0.0671862 0.9917436 0.0671862 0.9917436 0.0671862 0.0082564 -0.0671862
2536000000 0.0080863 -0.0657586 0.9919137 0.0657586 0.9919137 0.0657586 0.0080863 -0.0657586
2557000000 0.0079224 -0.0643465 0.9920776 0.0643465 0.9920776 0.0643465 0.0079224 -0.0643465
2578000000 0.0077646 -0.0629495 0.9922354 0.0629495 0.9922354 0.0629495 0.0077646 -0.0629495
2599000000 0.0076128 -0.0615672 0.9923872 0.0615672 0.9923872 0.0615672 0.0076128 -0.0615672
2620000000 0.0074666 -0.0601992 0.9925334 0.0601992 0.9925334 0.0601992 0.0074666 -0.0601992
2641000000 0.0073261 -0.0588454 0.9926739 0.0588454 0.9926739 0.0588454 0.0073261 -0.0588454
2662000000 0.0071909 -0.0575053 0.9928091 0.0575053 0.9928091 0.0575053 0.0071909 -0.0575053
2683000000 0.0070611 -0.0561786 0.9929389 0.0561786 0.9929389 0.0561786 0.0070611 -0.0561786
2704000000 0.0069363 -0.0548651 0.9930637 0.0548651 0.9930637 0.0548651 0.0069363 -0.0548651
2725000000 0.0068165 -0.0535644 0.9931835 0.0535644 0.9931835 0.0535644 0.0068165 -0.0535644
2746000000 0.0067016 -0.0522763 0.9932984 0.0522763 0.9932984 0.0522763 0.0067016 -0.0522763
2767000000 0.0065914 -0.0510004 0.9934086 0.0510004 0.9934086 0.0510004 0.0065914 -0.0510004
2788000000 0.0064857 -0.0497366 0.9935143 0.0497366 0.9935143 0.0497366 0.0064857 -0.0497366
2809000000 0.0063845 -0.0484845 0.9936155 0.0484845 0.9936155 0.0484845 0.0063845 -0.0484845
2830000000 0.0062877 -0.0472439 0.9937123 0.0472439 0.9937123 0.0472439 0.0062877 -0.0472439
2851000000 0.0061951 -0.0460146 0.9938049 0.0460146 0.9938049 0.0460146 0.0061951 -0.0460146
2872000000 0.0061067 -0.0447963 0.9938933 0.0447963 0.9938933 0.0447963 0.0061067 -0.0447963
2893000000 0.0060222 -0.0435887 0.9939778 0.0435887 0.9939778 0.0435887 0.0060222 -0.0435887
2914000000 0.0059417 -0.0423917 0.9940583 0.0423917 0.9940583 0.0423917 0.0059417 -0.0423917
2935000000 0.0058651 -0.0412051 0.9941349 0.0412051 0.9941349 0.0412051 0.0058651 -0.0412051
2956000000 0.0057921 -0.0400285 0.9942079 0.0400285 0.9942079 0.0400285 0.0057921 -0.0400285
2977000000 0.0057228 -0.0388618 0.9942772 0.0388618 0.9942772 0.0388618 0.0057228 -0.0388618
2998000000 0.0056571 -0.0377049 0.9943429 0.0377049 0.9943429 0.0377049 0.0056571 -0.0377049
3019000000 0.0055948 -0.0365574 0.9944052 0.0365574 0.9944052 0.0365574 0.0055948 -0.0365574
3040000000 0.0055360 -0.0354192 0.9944640 0.0354192 0.9944640 0.0354192 0.0055360 -0.0354192
3061000000 0.0054804 -0.0342901 0.9945196 0.0342901 0.9945196 0.0342901 0.0054804 -0.0342901
3082000000 0.0054281 -0.0331699 0.9945719 0.0331699 0.9945719 0.0331699 0.0054281 -0.0331699
3103000000 0.0053790 -0.0320585 0.9946210 0.0320585 0.9946210 0.0320585 0.0053790 -0.0320585
3124000000 0.0053329 -0.0309557 0.9946671 0.0309557 0.9946671 0.0309557 0.0053329 -0.0309557
3145000000 0.0052899 -0.0298612 0.9947101 0.0298612 0.9947101 0.0298612 0.0052899 -0.0298612
3166000000 0.0052499 -0.0287749 0.9947501 0.0287749 0.9947501 0.0287749 0.0052499 -0.0287749
3187000000 0.0052128 -0.0276967 0.9947872 0.0276967 0.9947872 0.0276967 0.0052128 -0.0276967
3208000000 0.0051785 -0.0266264 0.9948215 0.0266264 0.9948215 0.0266264 0.0051785 -0.0266264
3229000000 0.0051470 -0.0255638 0.9948530 0.0255638 0.9948530 0.0255638 0.0051470 -0.0255638
3250000000 0.0051182 -0.0245089 0.9948818 0.0245089 0.9948818 0.0245089 0.0051182 -0.0245089
3271000000 0.0050921 -0.0234613 0.9949079 0.0234613 0.9949079 0.0234613 0.0050921 -0.0234613
3292000000 0.0050687 -0.0224210 0.9949313 0.0224210 0.9949313 0.0224210 0.0050687 -0.0224210
3313000000 0.0050478 -0.0213879 0.9949522 0.0213879 0.9949522 0.0213879 0.0050478 -0.0213879
3334000000 0.0050294 -0.0203618 0.9949706 0.0203618 0.9949706 0.0203618 0.0050294 -0.0203618
3355000000 0.0050135 -0.0193426 0.9949865 0.0193426 0.9949865 0.0193426 0.0050135 -0.0193426
3376000000 0.0050000 -0.0183301 0.9950000 0.0183301 0.9950000 0.0183301 0.0050000 -0.0183301
3397000000 0.0049889 -0.0173242 0.9950111 0.0173242 0.9950111 0.0173242 0.0049889 -0.0173242
3418000000 0.0049802 -0.0163247 0.9950198 0.0163247 0.9950198 0.0163247 0.0049802 -0.0163247
3439000000 0.0049737 -0.0153317 0.9950263 0.0153317 0.9950263 0.0153317 0.0049737 -0.0153317
3460000000 0.0049696 -0.0143448 0.9950304 0.0143448 0.9950304 0.0143448 0.0049696 -0.0143448
3481000000 0.0049676 -0.0133641 0.9950324 0.0133641 0.9950324 0.0133641 0.0049676 -0.0133641
3502000000 0.0049678 -0.0123893 0.9950322 0.0123893 0.9950322 0.0123893 0.0049678 -0.0123893
3523000000 0.0049702 -0.0114204 0.9950298 0.0114204 0.9950298 0.0114204 0.0049702 -0.0114204
3544000000 0.0049747 -0.0104573 0.9950253 0.0104573 0.9950253 0.0104573 0.0049747 -0.0104573
3565000000 0.0049813 -0.0094998 0.9950187 0.0094998 0.9950187 0.0094998 0.0049813 -0.0094998
3586000000 0.0049899 -0.0085479 0.9950101 0.0085479 0.9950101 0.0085479 0.0049899 -0.0085479
3607000000 0.0050006 -0.0076014 0.9949994 0.0076014 0.9949994 0.0076014 0.0050006 -0.0076014
3628000000 0.0050132 -0.0066603 0.9949868 0.0066603 0.9949868 0.0066603 0.0050132 -0.0066603
3649000000 0.0050278 -0.0057244 0.9949722 0.0057244 0.9949722 0.0057244 0.0050278 -0.0057244
3670000000 0.0050444 -0.0047936 0.9949556 0.0047936 0.9949556 0.0047936 0.0050444 -0.0047936
3691000000 0.0050628 -0.0038679 0.9949372 0.0038679 0.9949372 0.0038679 0.0050628 -0.0038679
3712000000 0.0050832 -0.0029470 0.9949168 0.0029470 0.9949168 0.0029470 0.0050832 -0.0029470
3733000000 0.0051054 -0.0020311 0.9948946 0.0020311 0.9948946 0.0020311 0.0051054 -0.0020311
3754000000 0.0051294 -0.0011199 0.9948706 0.0011199 0.9948706 0.0011199 0.0051294 -0.0011199
3775000000 0.0051553 -0.0002133 0.9948447 0.0002133 0.9948447 0.0002133 0.0051553 -0.0002133
3796000000 0.0051829 0.0006887 0.9948171 -0.0006887 0.9948171 -0.0006887 0.0051829 0.0006887
3817000000 0.0052123 0.0015862 0.9947877 -0.0015862 0.9947877 -0.0015862 0.0052123 0.0015862
3838000000 0.0052435 0.0024793 0.9947565 -0.0024793 0.9947565 -0.0024793 0.0052435 0.0024793
3859000000 0.0052764 0.0033681 0.9947236 -0.0033681 0.9947236 -0.0033681 0.0052764 0.0033681
3880000000 0.0053111 0.0042527 0.9946889 -0.0042527 0.9946889 -0.0042527 0.0053111 0.0042527
3901000000 0.0053474 0.0051331 0.9946526 -0.0051331 0.9946526 -0.0051331 0.0053474 0.0051331
3922000000 0.0053854 0.0060095 0.9946146 -0.0060095 0.9946146 -0.0060095 0.0053854 0.0060095
3943000000 0.0054251 0.0068818 0.9945749 -0.0068818 0.9945749 -0.0068818 0.0054251 0.0068818
3964000000 0.0054665 0.0077503 0.9945335 -0.0077503 0.9945335 -0.0077503 0.0054665 0.0077503
3985000000 0.0055095 0.0086149 0.9944905 -0.0086149 0.9944905 -0.0086149 0.0055095 0.0086149
4006000000 0.0055541 0.0094758 0.9944459 -0.0094758 0.9944459 -0.0094758 0.0055541 0.0094758
4027000000 0.0056003 0.0103330 0.9943997 -0.0103330 0.9943997 -0.0103330 0.0056003 0.0103330
4048000000 0.0056482 0.0111866 0.9943518 -0.0111866 0.9943518 -0.0111866 0.0056482 0.0111866
4069000000 0.0056976 0.0120367 0.9943024 -0.0120367 0.9943024 -0.0120367 0.0056976 0.0120367
4090000000 0.0057486 0.0128833 0.9942514 -0.0128833 0.9942514 -0.0128833 0.0057486 0.0128833
4111000000 0.0058012 0.0137264 0.9941988 -0.0137264 0.9941988 -0.0137264 0.0058012 0.0137264
4132000000 0.0058554 0.0145663 0.9941446 -0.0145663 0.9941446 -0.0145663 0.0058554 0.0145663
4153000000 0.0059111 0.0154029 0.9940889 -0.0154029 0.9940889 -0.0154029 0.0059111 0.0154029
4174000000 0.0059684 0.0162363 0.9940316 -0.0162363 0.9940316 -0.0162363 0.0059684 0.0162363
4195000000 0.0060272 0.0170666 0.9939728 -0.0170666 0.9939728 -0.0170666 0.0060272 0.0170666
4216000000 0.0060876 0.0178939 0.9939124 -0.0178939 0.9939124 -0.0178939 0.0060876 0.0178939
4237000000 0.0061495 0.0187181 0.9938505 -0.0187181 0.9938505 -0.0187181 0.0061495 0.0187181
4258000000 0.0062129 0.0195394 0.9937871 -0.0195394 0.9937871 -0.0195394 0.0062129 0.0195394
4279000000 0.0062778 0.0203578 0.9937222 -0.0203578 0.9937222 -0.0203578 0.0062778 0.0203578
4300000000 0.0063443 0.0211735 0.9936557 -0.0211735 0.9936557 -0.0211735 0.0063443 0.0211735
4321000000 0.0064123 0.0219864 0.9935877 -0.0219864 0.9935877 -0.0219864 0.0064123 0.0219864
4342000000 0.0064818 0.0227966 0.9935182 -0.0227966 0.9935182 -0.0227966 0.0064818 0.0227966
4363000000 0.0065529 0.0236041 0.9934471 -0.0236041 0.9934471 -0.0236041 0.0065529 0.0236041
4384000000 0.0066254 0.0244092 0.9933746 -0.0244092 0.9933746 -0.0244092 0.0066254 0.0244092
4405000000 0.0066995 0.0252117 0.9933005 -0.0252117 0.9933005 -0.0252117 0.0066995 0.0252117
4426000000 0.0067751 0.0260117 0.9932249 -0.0260117 0.9932249 -0.0260117 0.0067751 0.0260117
4447000000 0.0068523 0.0268094 0.9931477 -0.0268094 0.9931477 -0.0268094 0.0068523 0.0268094
4468000000 0.0069309 0.0276048 0.9930691 -0.0276048 0.9930691 -0.0276048 0.0069309 0.0276048
4489000000 0.0070111 0.0283978 0.9929889 -0.0283978 0.9929889 -0.0283978 0.0070111 0.0283978
4510000000 0.0070928 0.0291887 0.9929072 -0.0291887 0.9929072 -0.0291887 0.0070928 0.0291887
