!Murata Part Number: GRM1552C1H680GA01
!These Parameters are Measured in Series Mode Connection
!Data Generated on Mar 30, 2021
!       o--ll--o
!Port1            Port2
!       o------o
!Operation Temp=25[degC], DC Bias Voltage=0[V]
!Freq. Start=100[MHz] Stop=9[GHz] 401[Steps]
# Hz S RI R 50
!Freq.(Hz) S11(Real) S11(Imag) S21(Real) S21(Imag) S12(Real) S12(Imag) S22(Real) S22(Imag)
100000000 0.0518102 -0.2192452 0.9481898 0.2192452 0.9481898 0.2192452 0.0518102 -0.2192452
121000000 0.0359649 -0.1832730 0.9640351 0.1832730 0.9640351 0.1832730 0.0359649 -0.1832730
142000000 0.0263683 -0.1567520 0.9736317 0.1567520 0.9736317 0.1567520 0.0263683 -0.1567520
163000000 0.0201412 -0.1364427 0.9798588 0.1364427 0.9798588 0.1364427 0.0201412 -0.1364427
184000000 0.0158828 -0.1203966 0.9841172 0.1203966 0.9841172 0.1203966 0.0158828 -0.1203966
205000000 0.0128488 -0.1073887 0.9871512 0.1073887 0.9871512 0.1073887 0.0128488 -0.1073887
226000000 0.0106152 -0.0966162 0.9893848 0.0966162 0.9893848 0.0966162 0.0106152 -0.0966162
247000000 0.0089266 -0.0875332 0.9910734 0.0875332 0.9910734 0.0875332 0.0089266 -0.0875332
268000000 0.0076219 -0.0797569 0.9923781 0.0797569 0.9923781 0.0797569 0.0076219 -0.0797569
289000000 0.0065953 -0.0730111 0.9934047 0.0730111 0.9934047 0.0730111 0.0065953 -0.0730111
310000000 0.0057752 -0.0670920 0.9942248 0.0670920 0.9942248 0.0670920 0.0057752 -0.0670920
331000000 0.0051116 -0.0618460 0.9948884 0.0618460 0.9948884 0.0618460 0.0051116 -0.0618460
352000000 0.0045690 -0.0571551 0.9954310 0.0571551 0.9954310 0.0571551 0.0045690 -0.0571551
373000000 0.0041213 -0.0529273 0.9958787 0.0529273 0.9958787 0.0529273 0.0041213 -0.0529273
394000000 0.0037492 -0.0490898 0.9962508 0.0490898 0.9962508 0.0490898 0.0037492 -0.0490898
415000000 0.0034380 -0.0455844 0.9965620 0.0455844 0.9965620 0.0455844 0.0034380 -0.0455844
436000000 0.0031766 -0.0423637 0.9968234 0.0423637 0.9968234 0.0423637 0.0031766 -0.0423637
457000000 0.0029563 -0.0393892 0.9970437 0.0393892 0.9970437 0.0393892 0.0029563 -0.0393892
478000000 0.0027701 -0.0366287 0.9972299 0.0366287 0.9972299 0.0366287 0.0027701 -0.0366287
499000000 0.0026126 -0.0340555 0.9973874 0.0340555 0.9973874 0.0340555 0.0026126 -0.0340555
520000000 0.0024794 -0.0316474 0.9975206 0.0316474 0.9975206 0.0316474 0.0024794 -0.0316474
541000000 0.0023668 -0.0293851 0.9976332 0.0293851 0.9976332 0.0293851 0.0023668 -0.0293851
562000000 0.0022721 -0.0272527 0.9977279 0.0272527 0.9977279 0.0272527 0.0022721 -0.0272527
583000000 0.0021926 -0.0252362 0.9978074 0.0252362 0.9978074 0.0252362 0.0021926 -0.0252362
604000000 0.0021266 -0.0233236 0.9978734 0.0233236 0.9978734 0.0233236 0.0021266 -0.0233236
625000000 0.0020721 -0.0215046 0.9979279 0.0215046 0.9979279 0.0215046 0.0020721 -0.0215046
646000000 0.0020279 -0.0197700 0.9979721 0.0197700 0.9979721 0.0197700 0.0020279 -0.0197700
667000000 0.0019927 -0.0181121 0.9980073 0.0181121 0.9980073 0.0181121 0.0019927 -0.0181121
688000000 0.0019656 -0.0165237 0.9980344 0.0165237 0.9980344 0.0165237 0.0019656 -0.0165237
709000000 0.0019455 -0.0149989 0.9980545 0.0149989 0.9980545 0.0149989 0.0019455 -0.0149989
730000000 0.0019319 -0.0135321 0.9980681 0.0135321 0.9980681 0.0135321 0.0019319 -0.0135321
751000000 0.0019239 -0.0121184 0.9980761 0.0121184 0.9980761 0.0121184 0.0019239 -0.0121184
772000000 0.0019211 -0.0107536 0.9980789 0.0107536 0.9980789 0.0107536 0.0019211 -0.0107536
793000000 0.0019230 -0.0094338 0.9980770 0.0094338 0.9980770 0.0094338 0.0019230 -0.0094338
814000000 0.0019291 -0.0081554 0.9980709 0.0081554 0.9980709 0.0081554 0.0019291 -0.0081554
835000000 0.0019391 -0.0069154 0.9980609 0.0069154 0.9980609 0.0069154 0.0019391 -0.0069154
856000000 0.0019526 -0.0057108 0.9980474 0.0057108 0.9980474 0.0057108 0.0019526 -0.0057108
877000000 0.0019694 -0.0045392 0.9980306 0.0045392 0.9980306 0.0045392 0.0019694 -0.0045392
898000000 0.0019892 -0.0033982 0.9980108 0.0033982 0.9980108 0.0033982 0.0019892 -0.0033982
919000000 0.0020118 -0.0022857 0.9979882 0.0022857 0.9979882 0.0022857 0.0020118 -0.0022857
940000000 0.0020370 -0.0011998 0.9979630 0.0011998 0.9979630 0.0011998 0.0020370 -0.0011998
961000000 0.0020645 -0.0001385 0.9979355 0.0001385 0.9979355 0.0001385 0.0020645 -0.0001385
982000000 0.0020944 0.0008995 0.9979056 -0.0008995 0.9979056 -0.0008995 0.0020944 0.0008995
1003000000 0.0021264 0.0019160 0.9978736 -0.0019160 0.9978736 -0.0019160 0.0021264 0.0019160
1024000000 0.0021604 0.0029121 0.9978396 -0.0029121 0.9978396 -0.0029121 0.0021604 0.0029121
1045000000 0.0021963 0.0038893 0.9978037 -0.0038893 0.9978037 -0.0038893 0.0021963 0.0038893
1066000000 0.0022340 0.0048486 0.9977660 -0.0048486 0.9977660 -0.0048486 0.0022340 0.0048486
1087000000 0.0022735 0.0057912 0.9977265 -0.0057912 0.9977265 -0.0057912 0.0022735 0.0057912
1108000000 0.0023146 0.0067180 0.9976854 -0.0067180 0.9976854 -0.0067180 0.0023146 0.0067180
1129000000 0.0023574 0.0076299 0.9976426 -0.0076299 0.9976426 -0.0076299 0.0023574 0.0076299
1150000000 0.0024017 0.0085279 0.9975983 -0.0085279 0.9975983 -0.0085279 0.0024017 0.0085279
1171000000 0.0024476 0.0094128 0.9975524 -0.0094128 0.9975524 -0.0094128 0.0024476 0.0094128
1192000000 0.0024950 0.0102852 0.9975050 -0.0102852 0.9975050 -0.0102852 0.0024950 0.0102852
1213000000 0.0025438 0.0111460 0.9974562 -0.0111460 0.9974562 -0.0111460 0.0025438 0.0111460
1234000000 0.0025940 0.0119957 0.9974060 -0.0119957 0.9974060 -0.0119957 0.0025940 0.0119957
1255000000 0.0026457 0.0128349 0.9973543 -0.0128349 0.9973543 -0.0128349 0.0026457 0.0128349
1276000000 0.0026988 0.0136643 0.9973012 -0.0136643 0.9973012 -0.0136643 0.0026988 0.0136643
1297000000 0.0027533 0.0144843 0.9972467 -0.0144843 0.9972467 -0.0144843 0.0027533 0.0144843
1318000000 0.0028092 0.0152955 0.9971908 -0.0152955 0.9971908 -0.0152955 0.0028092 0.0152955
1339000000 0.0028665 0.0160984 0.9971335 -0.0160984 0.9971335 -0.0160984 0.0028665 0.0160984
1360000000 0.0029252 0.0168934 0.9970748 -0.0168934 0.9970748 -0.0168934 0.0029252 0.0168934
1381000000 0.0029853 0.0176809 0.9970147 -0.0176809 0.9970147 -0.0176809 0.0029853 0.0176809
1402000000 0.0030469 0.0184613 0.9969531 -0.0184613 0.9969531 -0.0184613 0.0030469 0.0184613
1423000000 0.0031099 0.0192351 0.9968901 -0.0192351 0.9968901 -0.0192351 0.0031099 0.0192351
1444000000 0.0031744 0.0200025 0.9968256 -0.0200025 0.9968256 -0.0200025 0.0031744 0.0200025
1465000000 0.0032404 0.0207639 0.9967596 -0.0207639 0.9967596 -0.0207639 0.0032404 0.0207639
1486000000 0.0033080 0.0215196 0.9966920 -0.0215196 0.9966920 -0.0215196 0.0033080 0.0215196
1507000000 0.0033771 0.0222699 0.9966229 -0.0222699 0.9966229 -0.0222699 0.0033771 0.0222699
1528000000 0.0034479 0.0230152 0.9965521 -0.0230152 0.9965521 -0.0230152 0.0034479 0.0230152
1549000000 0.0035203 0.0237557 0.9964797 -0.0237557 0.9964797 -0.0237557 0.0035203 0.0237557
1570000000 0.0035944 0.0244915 0.9964056 -0.0244915 0.9964056 -0.0244915 0.0035944 0.0244915
1591000000 0.0036704 0.0252231 0.9963296 -0.0252231 0.9963296 -0.0252231 0.0036704 0.0252231
1612000000 0.0037481 0.0259507 0.9962519 -0.0259507 0.9962519 -0.0259507 0.0037481 0.0259507
1633000000 0.0038278 0.0266743 0.9961722 -0.0266743 0.9961722 -0.0266743 0.0038278 0.0266743
1654000000 0.0039094 0.0273944 0.9960906 -0.0273944 0.9960906 -0.0273944 0.0039094 0.0273944
1675000000 0.0039931 0.0281110 0.9960069 -0.0281110 0.9960069 -0.0281110 0.0039931 0.0281110
1696000000 0.0040789 0.0288243 0.9959211 -0.0288243 0.9959211 -0.0288243 0.0040789 0.0288243
1717000000 0.0041670 0.0295346 0.9958330 -0.0295346 0.9958330 -0.0295346 0.0041670 0.0295346
1738000000 0.0042574 0.0302420 0.9957426 -0.0302420 0.9957426 -0.0302420 0.0042574 0.0302420
1759000000 0.0043503 0.0309467 0.9956497 -0.0309467 0.9956497 -0.0309467 0.0043503 0.0309467
1780000000 0.0044457 0.0316487 0.9955543 -0.0316487 0.9955543 -0.0316487 0.0044457 0.0316487
1801000000 0.0045438 0.0323483 0.9954562 -0.0323483 0.9954562 -0.0323483 0.0045438 0.0323483
1822000000 0.0046448 0.0330456 0.9953552 -0.0330456 0.9953552 -0.0330456 0.0046448 0.0330456
1843000000 0.0047487 0.0337406 0.9952513 -0.0337406 0.9952513 -0.0337406 0.0047487 0.0337406
1864000000 0.0048558 0.0344336 0.9951442 -0.0344336 0.9951442 -0.0344336 0.0048558 0.0344336
1885000000 0.0049663 0.0351244 0.9950337 -0.0351244 0.9950337 -0.0351244 0.0049663 0.0351244
1906000000 0.0050802 0.0358133 0.9949198 -0.0358133 0.9949198 -0.0358133 0.0050802 0.0358133
1927000000 0.0051979 0.0365002 0.9948021 -0.0365002 0.9948021 -0.0365002 0.0051979 0.0365002
1948000000 0.0053195 0.0371852 0.9946805 -0.0371852 0.9946805 -0.0371852 0.0053195 0.0371852
1969000000 0.0054453 0.0378682 0.9945547 -0.0378682 0.9945547 -0.0378682 0.0054453 0.0378682
1990000000 0.0055756 0.0385493 0.9944244 -0.0385493 0.9944244 -0.0385493 0.0055756 0.0385493
2011000000 0.0057105 0.0392283 0.9942895 -0.0392283 0.9942895 -0.0392283 0.0057105 0.0392283
2032000000 0.0058505 0.0399051 0.9941495 -0.0399051 0.9941495 -0.0399051 0.0058505 0.0399051
2053000000 0.0059957 0.0405797 0.9940043 -0.0405797 0.9940043 -0.0405797 0.0059957 0.0405797
2074000000 0.0061465 0.0412517 0.9938535 -0.0412517 0.9938535 -0.0412517 0.0061465 0.0412517
2095000000 0.0063032 0.0419210 0.9936968 -0.0419210 0.9936968 -0.0419210 0.0063032 0.0419210
2116000000 0.0064661 0.0425872 0.9935339 -0.0425872 0.9935339 -0.0425872 0.0064661 0.0425872
2137000000 0.0066355 0.0432498 0.9933645 -0.0432498 0.9933645 -0.0432498 0.0066355 0.0432498
2158000000 0.0068118 0.0439085 0.9931882 -0.0439085 0.9931882 -0.0439085 0.0068118 0.0439085
2179000000 0.0069951 0.0445625 0.9930049 -0.0445625 0.9930049 -0.0445625 0.0069951 0.0445625
2200000000 0.0071858 0.0452113 0.9928142 -0.0452113 0.9928142 -0.0452113 0.0071858 0.0452113
2221000000 0.0073839 0.0458541 0.9926161 -0.0458541 0.9926161 -0.0458541 0.0073839 0.0458541
2242000000 0.0075896 0.0464898 0.9924104 -0.0464898 0.9924104 -0.0464898 0.0075896 0.0464898
2263000000 0.0078027 0.0471174 0.9921973 -0.0471174 0.9921973 -0.0471174 0.0078027 0.0471174
2284000000 0.0080231 0.0477359 0.9919769 -0.0477359 0.9919769 -0.0477359 0.0080231 0.0477359
2305000000 0.0082503 0.0483439 0.9917497 -0.0483439 0.9917497 -0.0483439 0.0082503 0.0483439
2326000000 0.0084837 0.0489402 0.9915163 -0.0489402 0.9915163 -0.0489402 0.0084837 0.0489402
2347000000 0.0087222 0.0495234 0.9912778 -0.0495234 0.9912778 -0.0495234 0.0087222 0.0495234
2368000000 0.0089645 0.0500922 0.9910355 -0.0500922 0.9910355 -0.0500922 0.0089645 0.0500922
2389000000 0.0092090 0.0506454 0.9907910 -0.0506454 0.9907910 -0.0506454 0.0092090 0.0506454
2410000000 0.0094534 0.0511821 0.9905466 -0.0511821 0.9905466 -0.0511821 0.0094534 0.0511821
2431000000 0.0096956 0.0517017 0.9903044 -0.0517017 0.9903044 -0.0517017 0.0096956 0.0517017
2452000000 0.0099325 0.0522040 0.9900675 -0.0522040 0.9900675 -0.0522040 0.0099325 0.0522040
2473000000 0.0101614 0.0526894 0.9898386 -0.0526894 0.9898386 -0.0526894 0.0101614 0.0526894
2494000000 0.0103791 0.0531590 0.9896209 -0.0531590 0.9896209 -0.0531590 0.0103791 0.0531590
2515000000 0.0105828 0.0536147 0.9894172 -0.0536147 0.9894172 -0.0536147 0.0105828 0.0536147
2536000000 0.0107699 0.0540590 0.9892301 -0.0540590 0.9892301 -0.0540590 0.0107699 0.0540590
2557000000 0.0109384 0.0544951 0.9890616 -0.0544951 0.9890616 -0.0544951 0.0109384 0.0544951
2578000000 0.0110870 0.0549267 0.9889130 -0.0549267 0.9889130 -0.0549267 0.0110870 0.0549267
2599000000 0.0112153 0.0553576 0.9887847 -0.0553576 0.9887847 -0.0553576 0.0112153 0.0553576
2620000000 0.0113237 0.0557917 0.9886763 -0.0557917 0.9886763 -0.0557917 0.0113237 0.0557917
2641000000 0.0114135 0.0562328 0.9885865 -0.0562328 0.9885865 -0.0562328 0.0114135 0.0562328
2662000000 0.0114869 0.0566840 0.9885131 -0.0566840 0.9885131 -0.0566840 0.0114869 0.0566840
2683000000 0.0115463 0.0571479 0.9884537 -0.0571479 0.9884537 -0.0571479 0.0115463 0.0571479
2704000000 0.0115948 0.0576265 0.9884052 -0.0576265 0.9884052 -0.0576265 0.0115948 0.0576265
2725000000 0.0116355 0.0581208 0.9883645 -0.0581208 0.9883645 -0.0581208 0.0116355 0.0581208
2746000000 0.0116714 0.0586313 0.9883286 -0.0586313 0.9883286 -0.0586313 0.0116714 0.0586313
2767000000 0.0117054 0.0591580 0.9882946 -0.0591580 0.9882946 -0.0591580 0.0117054 0.0591580
2788000000 0.0117400 0.0597002 0.9882600 -0.0597002 0.9882600 -0.0597002 0.0117400 0.0597002
2809000000 0.0117776 0.0602571 0.9882224 -0.0602571 0.9882224 -0.0602571 0.0117776 0.0602571
2830000000 0.0118199 0.0608274 0.9881801 -0.0608274 0.9881801 -0.0608274 0.0118199 0.0608274
2851000000 0.0118684 0.0614099 0.9881316 -0.0614099 0.9881316 -0.0614099 0.0118684 0.0614099
2872000000 0.0119244 0.0620032 0.9880756 -0.0620032 0.9880756 -0.0620032 0.0119244 0.0620032
2893000000 0.0119886 0.0626059 0.9880114 -0.0626059 0.9880114 -0.0626059 0.0119886 0.0626059
2914000000 0.0120618 0.0632167 0.9879382 -0.0632167 0.9879382 -0.0632167 0.0120618 0.0632167
2935000000 0.0121442 0.0638344 0.9878558 -0.0638344 0.9878558 -0.0638344 0.0121442 0.0638344
2956000000 0.0122363 0.0644579 0.9877637 -0.0644579 0.9877637 -0.0644579 0.0122363 0.0644579
2977000000 0.0123380 0.0650861 0.9876620 -0.0650861 0.9876620 -0.0650861 0.0123380 0.0650861
2998000000 0.0124495 0.0657180 0.9875505 -0.0657180 0.9875505 -0.0657180 0.0124495 0.0657180
3019000000 0.0125706 0.0663529 0.9874294 -0.0663529 0.9874294 -0.0663529 0.0125706 0.0663529
3040000000 0.0127014 0.0669900 0.9872986 -0.0669900 0.9872986 -0.0669900 0.0127014 0.0669900
3061000000 0.0128416 0.0676286 0.9871584 -0.0676286 0.9871584 -0.0676286 0.0128416 0.0676286
3082000000 0.0129912 0.0682682 0.9870088 -0.0682682 0.9870088 -0.0682682 0.0129912 0.0682682
3103000000 0.0131499 0.0689082 0.9868501 -0.0689082 0.9868501 -0.0689082 0.0131499 0.0689082
3124000000 0.0133178 0.0695481 0.9866822 -0.0695481 0.9866822 -0.0695481 0.0133178 0.0695481
3145000000 0.0134945 0.0701874 0.9865055 -0.0701874 0.9865055 -0.0701874 0.0134945 0.0701874
3166000000 0.0136801 0.0708258 0.9863199 -0.0708258 0.9863199 -0.0708258 0.0136801 0.0708258
3187000000 0.0138742 0.0714630 0.9861258 -0.0714630 0.9861258 -0.0714630 0.0138742 0.0714630
3208000000 0.0140770 0.0720984 0.9859230 -0.0720984 0.9859230 -0.0720984 0.0140770 0.0720984
3229000000 0.0142882 0.0727318 0.9857118 -0.0727318 0.9857118 -0.0727318 0.0142882 0.0727318
3250000000 0.0145077 0.0733629 0.9854923 -0.0733629 0.9854923 -0.0733629 0.0145077 0.0733629
3271000000 0.0147355 0.0739913 0.9852645 -0.0739913 0.9852645 -0.0739913 0.0147355 0.0739913
3292000000 0.0149715 0.0746167 0.9850285 -0.0746167 0.9850285 -0.0746167 0.0149715 0.0746167
3313000000 0.0152156 0.0752388 0.9847844 -0.0752388 0.9847844 -0.0752388 0.0152156 0.0752388
3334000000 0.0154678 0.0758572 0.9845322 -0.0758572 0.9845322 -0.0758572 0.0154678 0.0758572
3355000000 0.0157279 0.0764716 0.9842721 -0.0764716 0.9842721 -0.0764716 0.0157279 0.0764716
3376000000 0.0159960 0.0770816 0.9840040 -0.0770816 0.9840040 -0.0770816 0.0159960 0.0770816
3397000000 0.0162719 0.0776869 0.9837281 -0.0776869 0.9837281 -0.0776869 0.0162719 0.0776869
3418000000 0.0165556 0.0782871 0.9834444 -0.0782871 0.9834444 -0.0782871 0.0165556 0.0782871
3439000000 0.0168469 0.0788818 0.9831531 -0.0788818 0.9831531 -0.0788818 0.0168469 0.0788818
3460000000 0.0171458 0.0794705 0.9828542 -0.0794705 0.9828542 -0.0794705 0.0171458 0.0794705
3481000000 0.0174522 0.0800529 0.9825478 -0.0800529 0.9825478 -0.0800529 0.0174522 0.0800529
3502000000 0.0177658 0.0806284 0.9822342 -0.0806284 0.9822342 -0.0806284 0.0177658 0.0806284
3523000000 0.0180866 0.0811967 0.9819134 -0.0811967 0.9819134 -0.0811967 0.0180866 0.0811967
3544000000 0.0184144 0.0817572 0.9815856 -0.0817572 0.9815856 -0.0817572 0.0184144 0.0817572
3565000000 0.0187489 0.0823094 0.9812511 -0.0823094 0.9812511 -0.0823094 0.0187489 0.0823094
3586000000 0.0190899 0.0828529 0.9809101 -0.0828529 0.9809101 -0.0828529 0.0190899 0.0828529
3607000000 0.0194370 0.0833871 0.9805630 -0.0833871 0.9805630 -0.0833871 0.0194370 0.0833871
3628000000 0.0197899 0.0839114 0.9802101 -0.0839114 0.9802101 -0.0839114 0.0197899 0.0839114
3649000000 0.0201483 0.0844254 0.9798517 -0.0844254 0.9798517 -0.0844254 0.0201483 0.0844254
3670000000 0.0205117 0.0849284 0.9794883 -0.0849284 0.9794883 -0.0849284 0.0205117 0.0849284
3691000000 0.0208795 0.0854200 0.9791205 -0.0854200 0.9791205 -0.0854200 0.0208795 0.0854200
3712000000 0.0212512 0.0858996 0.9787488 -0.0858996 0.9787488 -0.0858996 0.0212512 0.0858996
3733000000 0.0216262 0.0863667 0.9783738 -0.0863667 0.9783738 -0.0863667 0.0216262 0.0863667
3754000000 0.0220038 0.0868208 0.9779962 -0.0868208 0.9779962 -0.0868208 0.0220038 0.0868208
3775000000 0.0223833 0.0872615 0.9776167 -0.0872615 0.9776167 -0.0872615 0.0223833 0.0872615
3796000000 0.0227637 0.0876882 0.9772363 -0.0876882 0.9772363 -0.0876882 0.0227637 0.0876882
3817000000 0.0231442 0.0881007 0.9768558 -0.0881007 0.9768558 -0.0881007 0.0231442 0.0881007
3838000000 0.0235239 0.0884985 0.9764761 -0.0884985 0.9764761 -0.0884985 0.0235239 0.0884985
3859000000 0.0239017 0.0888815 0.9760983 -0.0888815 0.9760983 -0.0888815 0.0239017 0.0888815
3880000000 0.0242766 0.0892494 0.9757234 -0.0892494 0.9757234 -0.0892494 0.0242766 0.0892494
3901000000 0.0246473 0.0896022 0.9753527 -0.0896022 0.9753527 -0.0896022 0.0246473 0.0896022
3922000000 0.0250127 0.0899398 0.9749873 -0.0899398 0.9749873 -0.0899398 0.0250127 0.0899398
3943000000 0.0253715 0.0902624 0.9746285 -0.0902624 0.9746285 -0.0902624 0.0253715 0.0902624
3964000000 0.0257226 0.0905701 0.9742774 -0.0905701 0.9742774 -0.0905701 0.0257226 0.0905701
3985000000 0.0260646 0.0908634 0.9739354 -0.0908634 0.9739354 -0.0908634 0.0260646 0.0908634
4006000000 0.0263962 0.0911426 0.9736038 -0.0911426 0.9736038 -0.0911426 0.0263962 0.0911426
4027000000 0.0267161 0.0914084 0.9732839 -0.0914084 0.9732839 -0.0914084 0.0267161 0.0914084
4048000000 0.0270232 0.0916616 0.9729768 -0.0916616 0.9729768 -0.0916616 0.0270232 0.0916616
4069000000 0.0273162 0.0919029 0.9726838 -0.0919029 0.9726838 -0.0919029 0.0273162 0.0919029
4090000000 0.0275941 0.0921335 0.9724059 -0.0921335 0.9724059 -0.0921335 0.0275941 0.0921335
4111000000 0.0278556 0.0923544 0.9721444 -0.0923544 0.9721444 -0.0923544 0.0278556 0.0923544
4132000000 0.0281000 0.0925669 0.9719000 -0.0925669 0.9719000 -0.0925669 0.0281000 0.0925669
4153000000 0.0283263 0.0927724 0.9716737 -0.0927724 0.9716737 -0.0927724 0.0283263 0.0927724
4174000000 0.0285339 0.0929723 0.9714661 -0.0929723 0.9714661 -0.0929723 0.0285339 0.0929723
4195000000 0.0287222 0.0931682 0.9712778 -0.0931682 0.9712778 -0.0931682 0.0287222 0.0931682
4216000000 0.0288907 0.0933616 0.9711093 -0.0933616 0.9711093 -0.0933616 0.0288907 0.0933616
4237000000 0.0290393 0.0935543 0.9709607 -0.0935543 0.9709607 -0.0935543 0.0290393 0.0935543
4258000000 0.0291679 0.0937478 0.9708321 -0.0937478 0.9708321 -0.0937478 0.0291679 0.0937478
4279000000 0.0292765 0.0939439 0.9707235 -0.0939439 0.9707235 -0.0939439 0.0292765 0.0939439
4300000000 0.0293655 0.0941442 0.9706345 -0.0941442 0.9706345 -0.0941442 0.0293655 0.0941442
4321000000 0.0294351 0.0943502 0.9705649 -0.0943502 0.9705649 -0.0943502 0.0294351 0.0943502
4342000000 0.0294861 0.0945636 0.9705139 -0.0945636 0.9705139 -0.0945636 0.0294861 0.0945636
4363000000 0.0295191 0.0947859 0.9704809 -0.0947859 0.9704809 -0.0947859 0.0295191 0.0947859
4384000000 0.0295349 0.0950183 0.9704651 -0.0950183 0.9704651 -0.0950183 0.0295349 0.0950183
4405000000 0.0295346 0.0952621 0.9704654 -0.0952621 0.9704654 -0.0952621 0.0295346 0.0952621
4426000000 0.0295191 0.0955185 0.9704809 -0.0955185 0.9704809 -0.0955185 0.0295191 0.0955185
4447000000 0.0294897 0.0957885 0.9705103 -0.0957885 0.9705103 -0.0957885 0.0294897 0.0957885
4468000000 0.0294476 0.0960729 0.9705524 -0.0960729 0.9705524 -0.0960729 0.0294476 0.0960729
4489000000 0.0293939 0.0963726 0.9706061 -0.0963726 0.9706061 -0.0963726 0.0293939 0.0963726
4510000000 0.0293301 0.0966881 0.9706699 -0.0966881 0.9706699 -0.0966881 0.0293301 0.0966881
