!Murata Part Number: GRM1554C2A2R0CA01
!These Parameters are Measured in Series Mode Connection
!Data Generated on Mar 30, 2021
!       o--ll--o
!Port1            Port2
!       o------o
!Operation Temp=25[degC], DC Bias Voltage=0[V]
!Freq. Start=100[MHz] Stop=9[GHz] 401[Steps]
# Hz S RI R 50
!Freq.(Hz) S11(Real) S11(Imag) S21(Real) S21(Imag) S12(Real) S12(Imag) S22(Real) S22(Imag)
100000000 0.9843899 -0.1237290 0.0156101 0.1237290 0.0156101 0.1237290 0.9843899 -0.1237290
121000000 0.9773046 -0.1486495 0.0226954 0.1486495 0.0226954 0.1486495 0.9773046 -0.1486495
142000000 0.9690003 -0.1729866 0.0309997 0.1729866 0.0309997 0.1729866 0.9690003 -0.1729866
163000000 0.9595394 -0.1966578 0.0404606 0.1966578 0.0404606 0.1966578 0.9595394 -0.1966578
184000000 0.9489908 -0.2195884 0.0510092 0.2195884 0.0510092 0.2195884 0.9489908 -0.2195884
205000000 0.9374291 -0.2417125 0.0625709 0.2417125 0.0625709 0.2417125 0.9374291 -0.2417125
226000000 0.9249333 -0.2629730 0.0750667 0.2629730 0.0750667 0.2629730 0.9249333 -0.2629730
247000000 0.9115852 -0.2833221 0.0884148 0.2833221 0.0884148 0.2833221 0.9115852 -0.2833221
268000000 0.8974690 -0.3027210 0.1025310 0.3027210 0.1025310 0.3027210 0.8974690 -0.3027210
289000000 0.8826694 -0.3211403 0.1173306 0.3211403 0.1173306 0.3211403 0.8826694 -0.3211403
310000000 0.8672709 -0.3385589 0.1327291 0.3385589 0.1327291 0.3385589 0.8672709 -0.3385589
331000000 0.8513568 -0.3549642 0.1486432 0.3549642 0.1486432 0.3549642 0.8513568 -0.3549642
352000000 0.8350084 -0.3703513 0.1649916 0.3703513 0.1649916 0.3703513 0.8350084 -0.3703513
373000000 0.8183039 -0.3847226 0.1816961 0.3847226 0.1816961 0.3847226 0.8183039 -0.3847226
394000000 0.8013185 -0.3980868 0.1986815 0.3980868 0.1986815 0.3980868 0.8013185 -0.3980868
415000000 0.7841232 -0.4104586 0.2158768 0.4104586 0.2158768 0.4104586 0.7841232 -0.4104586
436000000 0.7667848 -0.4218575 0.2332152 0.4218575 0.2332152 0.4218575 0.7667848 -0.4218575
457000000 0.7493658 -0.4323078 0.2506342 0.4323078 0.2506342 0.4323078 0.7493658 -0.4323078
478000000 0.7319236 -0.4418370 0.2680764 0.4418370 0.2680764 0.4418370 0.7319236 -0.4418370
499000000 0.7145110 -0.4504762 0.2854890 0.4504762 0.2854890 0.4504762 0.7145110 -0.4504762
520000000 0.6971763 -0.4582585 0.3028237 0.4582585 0.3028237 0.4582585 0.6971763 -0.4582585
541000000 0.6799627 -0.4652189 0.3200373 0.4652189 0.3200373 0.4652189 0.6799627 -0.4652189
562000000 0.6629089 -0.4713941 0.3370911 0.4713941 0.3370911 0.4713941 0.6629089 -0.4713941
583000000 0.6460495 -0.4768211 0.3539505 0.4768211 0.3539505 0.4768211 0.6460495 -0.4768211
604000000 0.6294145 -0.4815377 0.3705855 0.4815377 0.3705855 0.4815377 0.6294145 -0.4815377
625000000 0.6130302 -0.4855817 0.3869698 0.4855817 0.3869698 0.4855817 0.6130302 -0.4855817
646000000 0.5969189 -0.4889906 0.4030811 0.4889906 0.4030811 0.4889906 0.5969189 -0.4889906
667000000 0.5810999 -0.4918014 0.4189001 0.4918014 0.4189001 0.4918014 0.5810999 -0.4918014
688000000 0.5655887 -0.4940503 0.4344113 0.4940503 0.4344113 0.4940503 0.5655887 -0.4940503
709000000 0.5503984 -0.4957726 0.4496016 0.4957726 0.4496016 0.4957726 0.5503984 -0.4957726
730000000 0.5355390 -0.4970025 0.4644610 0.4970025 0.4644610 0.4970025 0.5355390 -0.4970025
751000000 0.5210183 -0.4977731 0.4789817 0.4977731 0.4789817 0.4977731 0.5210183 -0.4977731
772000000 0.5068419 -0.4981159 0.4931581 0.4981159 0.4931581 0.4981159 0.5068419 -0.4981159
793000000 0.4930133 -0.4980614 0.5069867 0.4980614 0.5069867 0.4980614 0.4930133 -0.4980614
814000000 0.4795343 -0.4976384 0.5204657 0.4976384 0.5204657 0.4976384 0.4795343 -0.4976384
835000000 0.4664052 -0.4968746 0.5335948 0.4968746 0.5335948 0.4968746 0.4664052 -0.4968746
856000000 0.4536249 -0.4957960 0.5463751 0.4957960 0.5463751 0.4957960 0.4536249 -0.4957960
877000000 0.4411911 -0.4944273 0.5588089 0.4944273 0.5588089 0.4944273 0.4411911 -0.4944273
898000000 0.4291006 -0.4927919 0.5708994 0.4927919 0.5708994 0.4927919 0.4291006 -0.4927919
919000000 0.4173491 -0.4909118 0.5826509 0.4909118 0.5826509 0.4909118 0.4173491 -0.4909118
940000000 0.4059317 -0.4888075 0.5940683 0.4888075 0.5940683 0.4888075 0.4059317 -0.4888075
961000000 0.3948427 -0.4864986 0.6051573 0.4864986 0.6051573 0.4864986 0.3948427 -0.4864986
982000000 0.3840762 -0.4840031 0.6159238 0.4840031 0.6159238 0.4840031 0.3840762 -0.4840031
1003000000 0.3736254 -0.4813380 0.6263746 0.4813380 0.6263746 0.4813380 0.3736254 -0.4813380
1024000000 0.3634836 -0.4785192 0.6365164 0.4785192 0.6365164 0.4785192 0.3634836 -0.4785192
1045000000 0.3536435 -0.4755615 0.6463565 0.4755615 0.6463565 0.4755615 0.3536435 -0.4755615
1066000000 0.3440978 -0.4724787 0.6559022 0.4724787 0.6559022 0.4724787 0.3440978 -0.4724787
1087000000 0.3348390 -0.4692835 0.6651610 0.4692835 0.6651610 0.4692835 0.3348390 -0.4692835
1108000000 0.3258595 -0.4659880 0.6741405 0.4659880 0.6741405 0.4659880 0.3258595 -0.4659880
1129000000 0.3171516 -0.4626032 0.6828484 0.4626032 0.6828484 0.4626032 0.3171516 -0.4626032
1150000000 0.3087078 -0.4591394 0.6912922 0.4591394 0.6912922 0.4591394 0.3087078 -0.4591394
1171000000 0.3005202 -0.4556060 0.6994798 0.4556060 0.6994798 0.4556060 0.3005202 -0.4556060
1192000000 0.2925815 -0.4520119 0.7074185 0.4520119 0.7074185 0.4520119 0.2925815 -0.4520119
1213000000 0.2848841 -0.4483652 0.7151159 0.4483652 0.7151159 0.4483652 0.2848841 -0.4483652
1234000000 0.2774207 -0.4446733 0.7225793 0.4446733 0.7225793 0.4446733 0.2774207 -0.4446733
1255000000 0.2701839 -0.4409433 0.7298161 0.4409433 0.7298161 0.4409433 0.2701839 -0.4409433
1276000000 0.2631666 -0.4371816 0.7368334 0.4371816 0.7368334 0.4371816 0.2631666 -0.4371816
1297000000 0.2563620 -0.4333939 0.7436380 0.4333939 0.7436380 0.4333939 0.2563620 -0.4333939
1318000000 0.2497631 -0.4295858 0.7502369 0.4295858 0.7502369 0.4295858 0.2497631 -0.4295858
1339000000 0.2433633 -0.4257622 0.7566367 0.4257622 0.7566367 0.4257622 0.2433633 -0.4257622
1360000000 0.2371561 -0.4219276 0.7628439 0.4219276 0.7628439 0.4219276 0.2371561 -0.4219276
1381000000 0.2311351 -0.4180863 0.7688649 0.4180863 0.7688649 0.4180863 0.2311351 -0.4180863
1402000000 0.2252944 -0.4142421 0.7747056 0.4142421 0.7747056 0.4142421 0.2252944 -0.4142421
1423000000 0.2196278 -0.4103985 0.7803722 0.4103985 0.7803722 0.4103985 0.2196278 -0.4103985
1444000000 0.2141296 -0.4065587 0.7858704 0.4065587 0.7858704 0.4065587 0.2141296 -0.4065587
1465000000 0.2087943 -0.4027257 0.7912057 0.4027257 0.7912057 0.4027257 0.2087943 -0.4027257
1486000000 0.2036162 -0.3989020 0.7963838 0.3989020 0.7963838 0.3989020 0.2036162 -0.3989020
1507000000 0.1985903 -0.3950902 0.8014097 0.3950902 0.8014097 0.3950902 0.1985903 -0.3950902
1528000000 0.1937115 -0.3912924 0.8062885 0.3912924 0.8062885 0.3912924 0.1937115 -0.3912924
1549000000 0.1889747 -0.3875106 0.8110253 0.3875106 0.8110253 0.3875106 0.1889747 -0.3875106
1570000000 0.1843752 -0.3837467 0.8156248 0.3837467 0.8156248 0.3837467 0.1843752 -0.3837467
1591000000 0.1799085 -0.3800022 0.8200915 0.3800022 0.8200915 0.3800022 0.1799085 -0.3800022
1612000000 0.1755701 -0.3762785 0.8244299 0.3762785 0.8244299 0.3762785 0.1755701 -0.3762785
1633000000 0.1713558 -0.3725771 0.8286442 0.3725771 0.8286442 0.3725771 0.1713558 -0.3725771
1654000000 0.1672613 -0.3688991 0.8327387 0.3688991 0.8327387 0.3688991 0.1672613 -0.3688991
1675000000 0.1632827 -0.3652455 0.8367173 0.3652455 0.8367173 0.3652455 0.1632827 -0.3652455
1696000000 0.1594162 -0.3616173 0.8405838 0.3616173 0.8405838 0.3616173 0.1594162 -0.3616173
1717000000 0.1556581 -0.3580152 0.8443419 0.3580152 0.8443419 0.3580152 0.1556581 -0.3580152
1738000000 0.1520047 -0.3544400 0.8479953 0.3544400 0.8479953 0.3544400 0.1520047 -0.3544400
1759000000 0.1484527 -0.3508922 0.8515473 0.3508922 0.8515473 0.3508922 0.1484527 -0.3508922
1780000000 0.1449986 -0.3473725 0.8550014 0.3473725 0.8550014 0.3473725 0.1449986 -0.3473725
1801000000 0.1416394 -0.3438813 0.8583606 0.3438813 0.8583606 0.3438813 0.1416394 -0.3438813
1822000000 0.1383718 -0.3404190 0.8616282 0.3404190 0.8616282 0.3404190 0.1383718 -0.3404190
1843000000 0.1351930 -0.3369858 0.8648070 0.3369858 0.8648070 0.3369858 0.1351930 -0.3369858
1864000000 0.1321000 -0.3335820 0.8679000 0.3335820 0.8679000 0.3335820 0.1321000 -0.3335820
1885000000 0.1290901 -0.3302080 0.8709099 0.3302080 0.8709099 0.3302080 0.1290901 -0.3302080
1906000000 0.1261607 -0.3268636 0.8738393 0.3268636 0.8738393 0.3268636 0.1261607 -0.3268636
1927000000 0.1233091 -0.3235492 0.8766909 0.3235492 0.8766909 0.3235492 0.1233091 -0.3235492
1948000000 0.1205329 -0.3202647 0.8794671 0.3202647 0.8794671 0.3202647 0.1205329 -0.3202647
1969000000 0.1178296 -0.3170102 0.8821704 0.3170102 0.8821704 0.3170102 0.1178296 -0.3170102
1990000000 0.1151971 -0.3137857 0.8848029 0.3137857 0.8848029 0.3137857 0.1151971 -0.3137857
2011000000 0.1126331 -0.3105910 0.8873669 0.3105910 0.8873669 0.3105910 0.1126331 -0.3105910
2032000000 0.1101353 -0.3074262 0.8898647 0.3074262 0.8898647 0.3074262 0.1101353 -0.3074262
2053000000 0.1077019 -0.3042910 0.8922981 0.3042910 0.8922981 0.3042910 0.1077019 -0.3042910
2074000000 0.1053308 -0.3011855 0.8946692 0.3011855 0.8946692 0.3011855 0.1053308 -0.3011855
2095000000 0.1030200 -0.2981094 0.8969800 0.2981094 0.8969800 0.2981094 0.1030200 -0.2981094
2116000000 0.1007677 -0.2950626 0.8992323 0.2950626 0.8992323 0.2950626 0.1007677 -0.2950626
2137000000 0.0985723 -0.2920448 0.9014277 0.2920448 0.9014277 0.2920448 0.0985723 -0.2920448
2158000000 0.0964318 -0.2890559 0.9035682 0.2890559 0.9035682 0.2890559 0.0964318 -0.2890559
2179000000 0.0943447 -0.2860956 0.9056553 0.2860956 0.9056553 0.2860956 0.0943447 -0.2860956
2200000000 0.0923094 -0.2831637 0.9076906 0.2831637 0.9076906 0.2831637 0.0923094 -0.2831637
2221000000 0.0903243 -0.2802600 0.9096757 0.2802600 0.9096757 0.2802600 0.0903243 -0.2802600
2242000000 0.0883880 -0.2773842 0.9116120 0.2773842 0.9116120 0.2773842 0.0883880 -0.2773842
2263000000 0.0864990 -0.2745361 0.9135010 0.2745361 0.9135010 0.2745361 0.0864990 -0.2745361
2284000000 0.0846559 -0.2717153 0.9153441 0.2717153 0.9153441 0.2717153 0.0846559 -0.2717153
2305000000 0.0828573 -0.2689216 0.9171427 0.2689216 0.9171427 0.2689216 0.0828573 -0.2689216
2326000000 0.0811021 -0.2661547 0.9188979 0.2661547 0.9188979 0.2661547 0.0811021 -0.2661547
2347000000 0.0793890 -0.2634143 0.9206110 0.2634143 0.9206110 0.2634143 0.0793890 -0.2634143
2368000000 0.0777166 -0.2607001 0.9222834 0.2607001 0.9222834 0.2607001 0.0777166 -0.2607001
2389000000 0.0760840 -0.2580119 0.9239160 0.2580119 0.9239160 0.2580119 0.0760840 -0.2580119
2410000000 0.0744899 -0.2553492 0.9255101 0.2553492 0.9255101 0.2553492 0.0744899 -0.2553492
2431000000 0.0729333 -0.2527119 0.9270667 0.2527119 0.9270667 0.2527119 0.0729333 -0.2527119
2452000000 0.0714131 -0.2500995 0.9285869 0.2500995 0.9285869 0.2500995 0.0714131 -0.2500995
2473000000 0.0699283 -0.2475119 0.9300717 0.2475119 0.9300717 0.2475119 0.0699283 -0.2475119
2494000000 0.0684780 -0.2449486 0.9315220 0.2449486 0.9315220 0.2449486 0.0684780 -0.2449486
2515000000 0.0670611 -0.2424095 0.9329389 0.2424095 0.9329389 0.2424095 0.0670611 -0.2424095
2536000000 0.0656768 -0.2398941 0.9343232 0.2398941 0.9343232 0.2398941 0.0656768 -0.2398941
2557000000 0.0643242 -0.2374021 0.9356758 0.2374021 0.9356758 0.2374021 0.0643242 -0.2374021
2578000000 0.0630025 -0.2349333 0.9369975 0.2349333 0.9369975 0.2349333 0.0630025 -0.2349333
2599000000 0.0617107 -0.2324874 0.9382893 0.2324874 0.9382893 0.2324874 0.0617107 -0.2324874
2620000000 0.0604481 -0.2300641 0.9395519 0.2300641 0.9395519 0.2300641 0.0604481 -0.2300641
2641000000 0.0592140 -0.2276629 0.9407860 0.2276629 0.9407860 0.2276629 0.0592140 -0.2276629
2662000000 0.0580076 -0.2252838 0.9419924 0.2252838 0.9419924 0.2252838 0.0580076 -0.2252838
2683000000 0.0568281 -0.2229263 0.9431719 0.2229263 0.9431719 0.2229263 0.0568281 -0.2229263
2704000000 0.0556748 -0.2205901 0.9443252 0.2205901 0.9443252 0.2205901 0.0556748 -0.2205901
2725000000 0.0545471 -0.2182750 0.9454529 0.2182750 0.9454529 0.2182750 0.0545471 -0.2182750
2746000000 0.0534444 -0.2159807 0.9465556 0.2159807 0.9465556 0.2159807 0.0534444 -0.2159807
2767000000 0.0523659 -0.2137069 0.9476341 0.2137069 0.9476341 0.2137069 0.0523659 -0.2137069
2788000000 0.0513111 -0.2114532 0.9486889 0.2114532 0.9486889 0.2114532 0.0513111 -0.2114532
2809000000 0.0502793 -0.2092195 0.9497207 0.2092195 0.9497207 0.2092195 0.0502793 -0.2092195
2830000000 0.0492700 -0.2070054 0.9507300 0.2070054 0.9507300 0.2070054 0.0492700 -0.2070054
2851000000 0.0482827 -0.2048107 0.9517173 0.2048107 0.9517173 0.2048107 0.0482827 -0.2048107
2872000000 0.0473167 -0.2026351 0.9526833 0.2026351 0.9526833 0.2026351 0.0473167 -0.2026351
2893000000 0.0463716 -0.2004783 0.9536284 0.2004783 0.9536284 0.2004783 0.0463716 -0.2004783
2914000000 0.0454468 -0.1983401 0.9545532 0.1983401 0.9545532 0.1983401 0.0454468 -0.1983401
2935000000 0.0445419 -0.1962202 0.9554581 0.1962202 0.9554581 0.1962202 0.0445419 -0.1962202
2956000000 0.0436563 -0.1941183 0.9563437 0.1941183 0.9563437 0.1941183 0.0436563 -0.1941183
2977000000 0.0427896 -0.1920341 0.9572104 0.1920341 0.9572104 0.1920341 0.0427896 -0.1920341
2998000000 0.0419414 -0.1899675 0.9580586 0.1899675 0.9580586 0.1899675 0.0419414 -0.1899675
3019000000 0.0411112 -0.1879182 0.9588888 0.1879182 0.9588888 0.1879182 0.0411112 -0.1879182
3040000000 0.0402986 -0.1858859 0.9597014 0.1858859 0.9597014 0.1858859 0.0402986 -0.1858859
3061000000 0.0395032 -0.1838705 0.9604968 0.1838705 0.9604968 0.1838705 0.0395032 -0.1838705
3082000000 0.0387245 -0.1818715 0.9612755 0.1818715 0.9612755 0.1818715 0.0387245 -0.1818715
3103000000 0.0379622 -0.1798889 0.9620378 0.1798889 0.9620378 0.1798889 0.0379622 -0.1798889
3124000000 0.0372160 -0.1779224 0.9627840 0.1779224 0.9627840 0.1779224 0.0372160 -0.1779224
3145000000 0.0364854 -0.1759717 0.9635146 0.1759717 0.9635146 0.1759717 0.0364854 -0.1759717
3166000000 0.0357700 -0.1740366 0.9642300 0.1740366 0.9642300 0.1740366 0.0357700 -0.1740366
3187000000 0.0350696 -0.1721170 0.9649304 0.1721170 0.9649304 0.1721170 0.0350696 -0.1721170
3208000000 0.0343839 -0.1702125 0.9656161 0.1702125 0.9656161 0.1702125 0.0343839 -0.1702125
3229000000 0.0337124 -0.1683231 0.9662876 0.1683231 0.9662876 0.1683231 0.0337124 -0.1683231
3250000000 0.0330548 -0.1664484 0.9669452 0.1664484 0.9669452 0.1664484 0.0330548 -0.1664484
3271000000 0.0324110 -0.1645882 0.9675890 0.1645882 0.9675890 0.1645882 0.0324110 -0.1645882
3292000000 0.0317804 -0.1627424 0.9682196 0.1627424 0.9682196 0.1627424 0.0317804 -0.1627424
3313000000 0.0311630 -0.1609107 0.9688370 0.1609107 0.9688370 0.1609107 0.0311630 -0.1609107
3334000000 0.0305584 -0.1590930 0.9694416 0.1590930 0.9694416 0.1590930 0.0305584 -0.1590930
3355000000 0.0299662 -0.1572891 0.9700338 0.1572891 0.9700338 0.1572891 0.0299662 -0.1572891
3376000000 0.0293863 -0.1554987 0.9706137 0.1554987 0.9706137 0.1554987 0.0293863 -0.1554987
3397000000 0.0288184 -0.1537216 0.9711816 0.1537216 0.9711816 0.1537216 0.0288184 -0.1537216
3418000000 0.0282623 -0.1519578 0.9717377 0.1519578 0.9717377 0.1519578 0.0282623 -0.1519578
3439000000 0.0277176 -0.1502070 0.9722824 0.1502070 0.9722824 0.1502070 0.0277176 -0.1502070
3460000000 0.0271842 -0.1484689 0.9728158 0.1484689 0.9728158 0.1484689 0.0271842 -0.1484689
3481000000 0.0266618 -0.1467435 0.9733382 0.1467435 0.9733382 0.1467435 0.0266618 -0.1467435
3502000000 0.0261502 -0.1450306 0.9738498 0.1450306 0.9738498 0.1450306 0.0261502 -0.1450306
3523000000 0.0256492 -0.1433300 0.9743508 0.1433300 0.9743508 0.1433300 0.0256492 -0.1433300
3544000000 0.0251585 -0.1416415 0.9748415 0.1416415 0.9748415 0.1416415 0.0251585 -0.1416415
3565000000 0.0246780 -0.1399649 0.9753220 0.1399649 0.9753220 0.1399649 0.0246780 -0.1399649
3586000000 0.0242075 -0.1383001 0.9757925 0.1383001 0.9757925 0.1383001 0.0242075 -0.1383001
3607000000 0.0237467 -0.1366470 0.9762533 0.1366470 0.9762533 0.1366470 0.0237467 -0.1366470
3628000000 0.0232955 -0.1350053 0.9767045 0.1350053 0.9767045 0.1350053 0.0232955 -0.1350053
3649000000 0.0228536 -0.1333750 0.9771464 0.1333750 0.9771464 0.1333750 0.0228536 -0.1333750
3670000000 0.0224209 -0.1317558 0.9775791 0.1317558 0.9775791 0.1317558 0.0224209 -0.1317558
3691000000 0.0219973 -0.1301476 0.9780027 0.1301476 0.9780027 0.1301476 0.0219973 -0.1301476
3712000000 0.0215825 -0.1285503 0.9784175 0.1285503 0.9784175 0.1285503 0.0215825 -0.1285503
3733000000 0.0211764 -0.1269637 0.9788236 0.1269637 0.9788236 0.1269637 0.0211764 -0.1269637
3754000000 0.0207788 -0.1253877 0.9792212 0.1253877 0.9792212 0.1253877 0.0207788 -0.1253877
3775000000 0.0203896 -0.1238220 0.9796104 0.1238220 0.9796104 0.1238220 0.0203896 -0.1238220
3796000000 0.0200085 -0.1222667 0.9799915 0.1222667 0.9799915 0.1222667 0.0200085 -0.1222667
3817000000 0.0196355 -0.1207215 0.9803645 0.1207215 0.9803645 0.1207215 0.0196355 -0.1207215
3838000000 0.0192704 -0.1191864 0.9807296 0.1191864 0.9807296 0.1191864 0.0192704 -0.1191864
3859000000 0.0189131 -0.1176611 0.9810869 0.1176611 0.9810869 0.1176611 0.0189131 -0.1176611
3880000000 0.0185633 -0.1161456 0.9814367 0.1161456 0.9814367 0.1161456 0.0185633 -0.1161456
3901000000 0.0182211 -0.1146397 0.9817789 0.1146397 0.9817789 0.1146397 0.0182211 -0.1146397
3922000000 0.0178862 -0.1131433 0.9821138 0.1131433 0.9821138 0.1131433 0.0178862 -0.1131433
3943000000 0.0175585 -0.1116562 0.9824415 0.1116562 0.9824415 0.1116562 0.0175585 -0.1116562
3964000000 0.0172379 -0.1101785 0.9827621 0.1101785 0.9827621 0.1101785 0.0172379 -0.1101785
3985000000 0.0169242 -0.1087098 0.9830758 0.1087098 0.9830758 0.1087098 0.0169242 -0.1087098
4006000000 0.0166175 -0.1072502 0.9833825 0.1072502 0.9833825 0.1072502 0.0166175 -0.1072502
4027000000 0.0163174 -0.1057994 0.9836826 0.1057994 0.9836826 0.1057994 0.0163174 -0.1057994
4048000000 0.0160239 -0.1043575 0.9839761 0.1043575 0.9839761 0.1043575 0.0160239 -0.1043575
4069000000 0.0157370 -0.1029242 0.9842630 0.1029242 0.9842630 0.1029242 0.0157370 -0.1029242
4090000000 0.0154564 -0.1014994 0.9845436 0.1014994 0.9845436 0.1014994 0.0154564 -0.1014994
4111000000 0.0151821 -0.1000831 0.9848179 0.1000831 0.9848179 0.1000831 0.0151821 -0.1000831
4132000000 0.0149140 -0.0986752 0.9850860 0.0986752 0.9850860 0.0986752 0.0149140 -0.0986752
4153000000 0.0146520 -0.0972755 0.9853480 0.0972755 0.9853480 0.0972755 0.0146520 -0.0972755
4174000000 0.0143959 -0.0958839 0.9856041 0.0958839 0.9856041 0.0958839 0.0143959 -0.0958839
4195000000 0.0141457 -0.0945003 0.9858543 0.0945003 0.9858543 0.0945003 0.0141457 -0.0945003
4216000000 0.0139013 -0.0931247 0.9860987 0.0931247 0.9860987 0.0931247 0.0139013 -0.0931247
4237000000 0.0136627 -0.0917569 0.9863373 0.0917569 0.9863373 0.0917569 0.0136627 -0.0917569
4258000000 0.0134296 -0.0903969 0.9865704 0.0903969 0.9865704 0.0903969 0.0134296 -0.0903969
4279000000 0.0132020 -0.0890444 0.9867980 0.0890444 0.9867980 0.0890444 0.0132020 -0.0890444
4300000000 0.0129798 -0.0876995 0.9870202 0.0876995 0.9870202 0.0876995 0.0129798 -0.0876995
4321000000 0.0127630 -0.0863621 0.9872370 0.0863621 0.9872370 0.0863621 0.0127630 -0.0863621
4342000000 0.0125515 -0.0850320 0.9874485 0.0850320 0.9874485 0.0850320 0.0125515 -0.0850320
4363000000 0.0123451 -0.0837092 0.9876549 0.0837092 0.9876549 0.0837092 0.0123451 -0.0837092
4384000000 0.0121439 -0.0823936 0.9878561 0.0823936 0.9878561 0.0823936 0.0121439 -0.0823936
4405000000 0.0119476 -0.0810850 0.9880524 0.0810850 0.9880524 0.0810850 0.0119476 -0.0810850
4426000000 0.0117564 -0.0797835 0.9882436 0.0797835 0.9882436 0.0797835 0.0117564 -0.0797835
4447000000 0.0115700 -0.0784889 0.9884300 0.0784889 0.9884300 0.0784889 0.0115700 -0.0784889
4468000000 0.0113884 -0.0772011 0.9886116 0.0772011 0.9886116 0.0772011 0.0113884 -0.0772011
4489000000 0.0112115 -0.0759201 0.9887885 0.0759201 0.9887885 0.0759201 0.0112115 -0.0759201
4510000000 0.0110393 -0.0746458 0.9889607 0.0746458 0.9889607 0.0746458 0.0110393 -0.0746458
