!Murata Part Number: GRM1553U1A182JA01
!These Parameters are Measured in Series Mode Connection
!Data Generated on Mar 30, 2021
!       o--ll--o
!Port1            Port2
!       o------o
!Operation Temp=25[degC], DC Bias Voltage=0[V]
!Freq. Start=1000[kHz] Stop=6[GHz] 401[Steps]
# Hz S RI R 50
!Freq.(Hz) S11(Real) S11(Imag) S21(Real) S21(Imag) S12(Real) S12(Imag) S22(Real) S22(Imag)
1000000 0.4492543 -0.4973558 0.5507457 0.4973558 0.5507457 0.4973558 0.4492543 -0.4973558
1021987 0.4385180 -0.4961418 0.5614820 0.4961418 0.5614820 0.4961418 0.4385180 -0.4961418
1044457 0.4278390 -0.4947002 0.5721610 0.4947002 0.5721610 0.4947002 0.4278390 -0.4947002
1067422 0.4172269 -0.4930343 0.5827731 0.4930343 0.5827731 0.4930343 0.4172269 -0.4930343
1090891 0.4066910 -0.4911481 0.5933090 0.4911481 0.5933090 0.4911481 0.4066910 -0.4911481
1114877 0.3962402 -0.4890457 0.6037598 0.4890457 0.6037598 0.4890457 0.3962402 -0.4890457
1139390 0.3858834 -0.4867320 0.6141166 0.4867320 0.6141166 0.4867320 0.3858834 -0.4867320
1164441 0.3756288 -0.4842120 0.6243712 0.4842120 0.6243712 0.4842120 0.3756288 -0.4842120
1190044 0.3654847 -0.4814913 0.6345153 0.4814913 0.6345153 0.4814913 0.3654847 -0.4814913
1216210 0.3554586 -0.4785759 0.6445414 0.4785759 0.6445414 0.4785759 0.3554586 -0.4785759
1242950 0.3455578 -0.4754719 0.6544422 0.4754719 0.6544422 0.4754719 0.3455578 -0.4754719
1270279 0.3357891 -0.4721860 0.6642109 0.4721860 0.6642109 0.4721860 0.3357891 -0.4721860
1298209 0.3261590 -0.4687249 0.6738410 0.4687249 0.6738410 0.4687249 0.3261590 -0.4687249
1326753 0.3166735 -0.4650957 0.6833265 0.4650957 0.6833265 0.4650957 0.3166735 -0.4650957
1355924 0.3073381 -0.4613056 0.6926619 0.4613056 0.6926619 0.4613056 0.3073381 -0.4613056
1385737 0.2981578 -0.4573622 0.7018422 0.4573622 0.7018422 0.4573622 0.2981578 -0.4573622
1416205 0.2891373 -0.4532729 0.7108627 0.4532729 0.7108627 0.4532729 0.2891373 -0.4532729
1447343 0.2802809 -0.4490454 0.7197191 0.4490454 0.7197191 0.4490454 0.2802809 -0.4490454
1479166 0.2715921 -0.4446876 0.7284079 0.4446876 0.7284079 0.4446876 0.2715921 -0.4446876
1511688 0.2630742 -0.4402073 0.7369258 0.4402073 0.7369258 0.4402073 0.2630742 -0.4402073
1544926 0.2547302 -0.4356122 0.7452698 0.4356122 0.7452698 0.4356122 0.2547302 -0.4356122
1578894 0.2465623 -0.4309102 0.7534377 0.4309102 0.7534377 0.4309102 0.2465623 -0.4309102
1613609 0.2385725 -0.4261091 0.7614275 0.4261091 0.7614275 0.4261091 0.2385725 -0.4261091
1649087 0.2307624 -0.4212167 0.7692376 0.4212167 0.7692376 0.4212167 0.2307624 -0.4212167
1685346 0.2231332 -0.4162406 0.7768668 0.4162406 0.7768668 0.4162406 0.2231332 -0.4162406
1722402 0.2156855 -0.4111883 0.7843145 0.4111883 0.7843145 0.4111883 0.2156855 -0.4111883
1760272 0.2084198 -0.4060672 0.7915802 0.4060672 0.7915802 0.4060672 0.2084198 -0.4060672
1798975 0.2013360 -0.4008847 0.7986640 0.4008847 0.7986640 0.4008847 0.2013360 -0.4008847
1838529 0.1944340 -0.3956480 0.8055660 0.3956480 0.8055660 0.3956480 0.1944340 -0.3956480
1878953 0.1877131 -0.3903638 0.8122869 0.3903638 0.8122869 0.3903638 0.1877131 -0.3903638
1920266 0.1811722 -0.3850390 0.8188278 0.3850390 0.8188278 0.3850390 0.1811722 -0.3850390
1962487 0.1748104 -0.3796803 0.8251896 0.3796803 0.8251896 0.3796803 0.1748104 -0.3796803
2005636 0.1686260 -0.3742938 0.8313740 0.3742938 0.8313740 0.3742938 0.1686260 -0.3742938
2049734 0.1626174 -0.3688858 0.8373826 0.3688858 0.8373826 0.3688858 0.1626174 -0.3688858
2094801 0.1567825 -0.3634622 0.8432175 0.3634622 0.8432175 0.3634622 0.1567825 -0.3634622
2140860 0.1511194 -0.3580287 0.8488806 0.3580287 0.8488806 0.3580287 0.1511194 -0.3580287
2187931 0.1456255 -0.3525908 0.8543745 0.3525908 0.8543745 0.3525908 0.1456255 -0.3525908
2236037 0.1402985 -0.3471536 0.8597015 0.3471536 0.8597015 0.3471536 0.1402985 -0.3471536
2285201 0.1351356 -0.3417222 0.8648644 0.3417222 0.8648644 0.3417222 0.1351356 -0.3417222
2335446 0.1301340 -0.3363012 0.8698660 0.3363012 0.8698660 0.3363012 0.1301340 -0.3363012
2386795 0.1252909 -0.3308953 0.8747091 0.3308953 0.8747091 0.3308953 0.1252909 -0.3308953
2439274 0.1206030 -0.3255087 0.8793970 0.3255087 0.8793970 0.3255087 0.1206030 -0.3255087
2492906 0.1160674 -0.3201454 0.8839326 0.3201454 0.8839326 0.3201454 0.1160674 -0.3201454
2547717 0.1116808 -0.3148093 0.8883192 0.3148093 0.8883192 0.3148093 0.1116808 -0.3148093
2603734 0.1074400 -0.3095038 0.8925600 0.3095038 0.8925600 0.3095038 0.1074400 -0.3095038
2660982 0.1033415 -0.3042325 0.8966585 0.3042325 0.8966585 0.3042325 0.1033415 -0.3042325
2719490 0.0993821 -0.2989984 0.9006179 0.2989984 0.9006179 0.2989984 0.0993821 -0.2989984
2779283 0.0955584 -0.2938045 0.9044416 0.2938045 0.9044416 0.2938045 0.0955584 -0.2938045
2840391 0.0918668 -0.2886534 0.9081332 0.2886534 0.9081332 0.2886534 0.0918668 -0.2886534
2902843 0.0883041 -0.2835478 0.9116959 0.2835478 0.9116959 0.2835478 0.0883041 -0.2835478
2966668 0.0848667 -0.2784899 0.9151333 0.2784899 0.9151333 0.2784899 0.0848667 -0.2784899
3031896 0.0815513 -0.2734819 0.9184487 0.2734819 0.9184487 0.2734819 0.0815513 -0.2734819
3098558 0.0783545 -0.2685257 0.9216455 0.2685257 0.9216455 0.2685257 0.0783545 -0.2685257
3166686 0.0752728 -0.2636233 0.9247272 0.2636233 0.9247272 0.2636233 0.0752728 -0.2636233
3236312 0.0723029 -0.2587760 0.9276971 0.2587760 0.9276971 0.2587760 0.0723029 -0.2587760
3307469 0.0694415 -0.2539856 0.9305585 0.2539856 0.9305585 0.2539856 0.0694415 -0.2539856
3380190 0.0666854 -0.2492531 0.9333146 0.2492531 0.9333146 0.2492531 0.0666854 -0.2492531
3454511 0.0640312 -0.2445799 0.9359688 0.2445799 0.9359688 0.2445799 0.0640312 -0.2445799
3530465 0.0614759 -0.2399669 0.9385241 0.2399669 0.9385241 0.2399669 0.0614759 -0.2399669
3608090 0.0590163 -0.2354151 0.9409837 0.2354151 0.9409837 0.2354151 0.0590163 -0.2354151
3687421 0.0566492 -0.2309251 0.9433508 0.2309251 0.9433508 0.2309251 0.0566492 -0.2309251
3768496 0.0543718 -0.2264977 0.9456282 0.2264977 0.9456282 0.2264977 0.0543718 -0.2264977
3851354 0.0521810 -0.2221334 0.9478190 0.2221334 0.9478190 0.2221334 0.0521810 -0.2221334
3936034 0.0500739 -0.2178327 0.9499261 0.2178327 0.9499261 0.2178327 0.0500739 -0.2178327
4022575 0.0480478 -0.2135957 0.9519522 0.2135957 0.9519522 0.2135957 0.0480478 -0.2135957
4111020 0.0460998 -0.2094229 0.9539002 0.2094229 0.9539002 0.2094229 0.0460998 -0.2094229
4201409 0.0442272 -0.2053143 0.9557728 0.2053143 0.9557728 0.2053143 0.0442272 -0.2053143
4293785 0.0424275 -0.2012700 0.9575725 0.2012700 0.9575725 0.2012700 0.0424275 -0.2012700
4388193 0.0406981 -0.1972900 0.9593019 0.1972900 0.9593019 0.1972900 0.0406981 -0.1972900
4484676 0.0390365 -0.1933742 0.9609635 0.1933742 0.9609635 0.1933742 0.0390365 -0.1933742
4583281 0.0374402 -0.1895225 0.9625598 0.1895225 0.9625598 0.1895225 0.0374402 -0.1895225
4684054 0.0359069 -0.1857346 0.9640931 0.1857346 0.9640931 0.1857346 0.0359069 -0.1857346
4787042 0.0344344 -0.1820102 0.9655656 0.1820102 0.9655656 0.1820102 0.0344344 -0.1820102
4892295 0.0330203 -0.1783491 0.9669797 0.1783491 0.9669797 0.1783491 0.0330203 -0.1783491
4999862 0.0316626 -0.1747508 0.9683374 0.1747508 0.9683374 0.1747508 0.0316626 -0.1747508
5109794 0.0303591 -0.1712150 0.9696409 0.1712150 0.9696409 0.1712150 0.0303591 -0.1712150
5222143 0.0291079 -0.1677411 0.9708921 0.1677411 0.9708921 0.1677411 0.0291079 -0.1677411
5336962 0.0279069 -0.1643286 0.9720931 0.1643286 0.9720931 0.1643286 0.0279069 -0.1643286
5454306 0.0267543 -0.1609771 0.9732457 0.1609771 0.9732457 0.1609771 0.0267543 -0.1609771
5574230 0.0256482 -0.1576859 0.9743518 0.1576859 0.9743518 0.1576859 0.0256482 -0.1576859
5696791 0.0245869 -0.1544543 0.9754131 0.1544543 0.9754131 0.1544543 0.0245869 -0.1544543
5822046 0.0235687 -0.1512819 0.9764313 0.1512819 0.9764313 0.1512819 0.0235687 -0.1512819
5950055 0.0225918 -0.1481679 0.9774082 0.1481679 0.9774082 0.1481679 0.0225918 -0.1481679
6080879 0.0216547 -0.1451117 0.9783453 0.1451117 0.9783453 0.1451117 0.0216547 -0.1451117
6214580 0.0207559 -0.1421125 0.9792441 0.1421125 0.9792441 0.1421125 0.0207559 -0.1421125
6351220 0.0198938 -0.1391697 0.9801062 0.1391697 0.9801062 0.1391697 0.0198938 -0.1391697
6490864 0.0190671 -0.1362824 0.9809329 0.1362824 0.9809329 0.1362824 0.0190671 -0.1362824
6633579 0.0182742 -0.1334501 0.9817258 0.1334501 0.9817258 0.1334501 0.0182742 -0.1334501
6779431 0.0175140 -0.1306718 0.9824860 0.1306718 0.9824860 0.1306718 0.0175140 -0.1306718
6928491 0.0167851 -0.1279469 0.9832149 0.1279469 0.9832149 0.1279469 0.0167851 -0.1279469
7080828 0.0160862 -0.1252746 0.9839138 0.1252746 0.9839138 0.1252746 0.0160862 -0.1252746
7236514 0.0154162 -0.1226541 0.9845838 0.1226541 0.9845838 0.1226541 0.0154162 -0.1226541
7395623 0.0147739 -0.1200846 0.9852261 0.1200846 0.9852261 0.1200846 0.0147739 -0.1200846
7558231 0.0141582 -0.1175654 0.9858418 0.1175654 0.9858418 0.1175654 0.0141582 -0.1175654
7724414 0.0135680 -0.1150956 0.9864320 0.1150956 0.9864320 0.1150956 0.0135680 -0.1150956
7894251 0.0130024 -0.1126745 0.9869976 0.1126745 0.9869976 0.1126745 0.0130024 -0.1126745
8067822 0.0124602 -0.1103012 0.9875398 0.1103012 0.9875398 0.1103012 0.0124602 -0.1103012
8245209 0.0119407 -0.1079751 0.9880593 0.1079751 0.9880593 0.1079751 0.0119407 -0.1079751
8426497 0.0114428 -0.1056953 0.9885572 0.1056953 0.9885572 0.1056953 0.0114428 -0.1056953
8611770 0.0109656 -0.1034610 0.9890344 0.1034610 0.9890344 0.1034610 0.0109656 -0.1034610
8801117 0.0105084 -0.1012714 0.9894916 0.1012714 0.9894916 0.1012714 0.0105084 -0.1012714
8994628 0.0100703 -0.0991259 0.9899297 0.0991259 0.9899297 0.0991259 0.0100703 -0.0991259
9192393 0.0096505 -0.0970235 0.9903495 0.0970235 0.9903495 0.0970235 0.0096505 -0.0970235
9394506 0.0092484 -0.0949636 0.9907516 0.0949636 0.9907516 0.0949636 0.0092484 -0.0949636
9601063 0.0088630 -0.0929454 0.9911370 0.0929454 0.9911370 0.0929454 0.0088630 -0.0929454
9812162 0.0084939 -0.0909681 0.9915061 0.0909681 0.9915061 0.0909681 0.0084939 -0.0909681
10027902 0.0081403 -0.0890310 0.9918597 0.0890310 0.9918597 0.0890310 0.0081403 -0.0890310
10248386 0.0078015 -0.0871333 0.9921985 0.0871333 0.9921985 0.0871333 0.0078015 -0.0871333
10473717 0.0074770 -0.0852744 0.9925230 0.0852744 0.9925230 0.0852744 0.0074770 -0.0852744
10704003 0.0071661 -0.0834534 0.9928339 0.0834534 0.9928339 0.0834534 0.0071661 -0.0834534
10939352 0.0068683 -0.0816698 0.9931317 0.0816698 0.9931317 0.0816698 0.0068683 -0.0816698
11179876 0.0065831 -0.0799227 0.9934169 0.0799227 0.9934169 0.0799227 0.0065831 -0.0799227
11425688 0.0063100 -0.0782116 0.9936900 0.0782116 0.9936900 0.0782116 0.0063100 -0.0782116
11676904 0.0060483 -0.0765356 0.9939517 0.0765356 0.9939517 0.0765356 0.0060483 -0.0765356
11933645 0.0057978 -0.0748941 0.9942022 0.0748941 0.9942022 0.0748941 0.0057978 -0.0748941
12196030 0.0055578 -0.0732865 0.9944422 0.0732865 0.9944422 0.0732865 0.0055578 -0.0732865
12464184 0.0053280 -0.0717121 0.9946720 0.0717121 0.9946720 0.0717121 0.0053280 -0.0717121
12738235 0.0051079 -0.0701703 0.9948921 0.0701703 0.9948921 0.0701703 0.0051079 -0.0701703
13018310 0.0048972 -0.0686603 0.9951028 0.0686603 0.9951028 0.0686603 0.0048972 -0.0686603
13304544 0.0046953 -0.0671816 0.9953047 0.0671816 0.9953047 0.0671816 0.0046953 -0.0671816
13597071 0.0045021 -0.0657335 0.9954979 0.0657335 0.9954979 0.0657335 0.0045021 -0.0657335
13896030 0.0043171 -0.0643155 0.9956829 0.0643155 0.9956829 0.0643155 0.0043171 -0.0643155
14201563 0.0041399 -0.0629269 0.9958601 0.0629269 0.9958601 0.0629269 0.0041399 -0.0629269
14513813 0.0039702 -0.0615672 0.9960298 0.0615672 0.9960298 0.0615672 0.0039702 -0.0615672
14832928 0.0038078 -0.0602357 0.9961922 0.0602357 0.9961922 0.0602357 0.0038078 -0.0602357
15159060 0.0036523 -0.0589318 0.9963477 0.0589318 0.9963477 0.0589318 0.0036523 -0.0589318
15492362 0.0035035 -0.0576551 0.9964965 0.0576551 0.9964965 0.0576551 0.0035035 -0.0576551
15832993 0.0033609 -0.0564050 0.9966391 0.0564050 0.9966391 0.0564050 0.0033609 -0.0564050
16181113 0.0032245 -0.0551809 0.9967755 0.0551809 0.9967755 0.0551809 0.0032245 -0.0551809
16536888 0.0030939 -0.0539823 0.9969061 0.0539823 0.9969061 0.0539823 0.0030939 -0.0539823
16900485 0.0029689 -0.0528086 0.9970311 0.0528086 0.9970311 0.0528086 0.0029689 -0.0528086
17272076 0.0028492 -0.0516594 0.9971508 0.0516594 0.9971508 0.0516594 0.0028492 -0.0516594
17651837 0.0027347 -0.0505341 0.9972653 0.0505341 0.9972653 0.0505341 0.0027347 -0.0505341
18039948 0.0026251 -0.0494322 0.9973749 0.0494322 0.9973749 0.0494322 0.0026251 -0.0494322
18436593 0.0025202 -0.0483533 0.9974798 0.0483533 0.9974798 0.0483533 0.0025202 -0.0483533
18841959 0.0024198 -0.0472968 0.9975802 0.0472968 0.9975802 0.0472968 0.0024198 -0.0472968
19256237 0.0023237 -0.0462624 0.9976763 0.0462624 0.9976763 0.0462624 0.0023237 -0.0462624
19679624 0.0022317 -0.0452494 0.9977683 0.0452494 0.9977683 0.0452494 0.0022317 -0.0452494
20112321 0.0021438 -0.0442576 0.9978562 0.0442576 0.9978562 0.0442576 0.0021438 -0.0442576
20554530 0.0020596 -0.0432863 0.9979404 0.0432863 0.9979404 0.0432863 0.0020596 -0.0432863
21006463 0.0019791 -0.0423353 0.9980209 0.0423353 0.9980209 0.0423353 0.0019791 -0.0423353
21468333 0.0019020 -0.0414040 0.9980980 0.0414040 0.9980980 0.0414040 0.0019020 -0.0414040
21940357 0.0018283 -0.0404921 0.9981717 0.0404921 0.9981717 0.0404921 0.0018283 -0.0404921
22422760 0.0017579 -0.0395991 0.9982421 0.0395991 0.9982421 0.0395991 0.0017579 -0.0395991
22915770 0.0016905 -0.0387246 0.9983095 0.0387246 0.9983095 0.0387246 0.0016905 -0.0387246
23419619 0.0016260 -0.0378682 0.9983740 0.0378682 0.9983740 0.0378682 0.0016260 -0.0378682
23934547 0.0015643 -0.0370296 0.9984357 0.0370296 0.9984357 0.0370296 0.0015643 -0.0370296
24460796 0.0015054 -0.0362083 0.9984946 0.0362083 0.9984946 0.0362083 0.0015054 -0.0362083
24998616 0.0014491 -0.0354040 0.9985509 0.0354040 0.9985509 0.0354040 0.0014491 -0.0354040
25548261 0.0013952 -0.0346163 0.9986048 0.0346163 0.9986048 0.0346163 0.0013952 -0.0346163
26109991 0.0013437 -0.0338448 0.9986563 0.0338448 0.9986563 0.0338448 0.0013437 -0.0338448
26684072 0.0012945 -0.0330892 0.9987055 0.0330892 0.9987055 0.0330892 0.0012945 -0.0330892
27270775 0.0012475 -0.0323492 0.9987525 0.0323492 0.9987525 0.0323492 0.0012475 -0.0323492
27870378 0.0012026 -0.0316244 0.9987974 0.0316244 0.9987974 0.0316244 0.0012026 -0.0316244
28483164 0.0011597 -0.0309145 0.9988403 0.0309145 0.9988403 0.0309145 0.0011597 -0.0309145
29109424 0.0011188 -0.0302191 0.9988812 0.0302191 0.9988812 0.0302191 0.0011188 -0.0302191
29749453 0.0010797 -0.0295380 0.9989203 0.0295380 0.9989203 0.0295380 0.0010797 -0.0295380
30403555 0.0010424 -0.0288708 0.9989576 0.0288708 0.9989576 0.0288708 0.0010424 -0.0288708
31072038 0.0010067 -0.0282171 0.9989933 0.0282171 0.9989933 0.0282171 0.0010067 -0.0282171
31755220 0.0009727 -0.0275768 0.9990273 0.0275768 0.9990273 0.0275768 0.0009727 -0.0275768
32453422 0.0009403 -0.0269495 0.9990597 0.0269495 0.9990597 0.0269495 0.0009403 -0.0269495
33166976 0.0009094 -0.0263349 0.9990906 0.0263349 0.9990906 0.0263349 0.0009094 -0.0263349
33896219 0.0008799 -0.0257328 0.9991201 0.0257328 0.9991201 0.0257328 0.0008799 -0.0257328
34641496 0.0008518 -0.0251428 0.9991482 0.0251428 0.9991482 0.0251428 0.0008518 -0.0251428
35403159 0.0008251 -0.0245647 0.9991749 0.0245647 0.9991749 0.0245647 0.0008251 -0.0245647
36181569 0.0007996 -0.0239983 0.9992004 0.0239983 0.9992004 0.0239983 0.0007996 -0.0239983
36977093 0.0007753 -0.0234432 0.9992247 0.0234432 0.9992247 0.0234432 0.0007753 -0.0234432
37790109 0.0007522 -0.0228991 0.9992478 0.0228991 0.9992478 0.0228991 0.0007522 -0.0228991
38621001 0.0007302 -0.0223660 0.9992698 0.0223660 0.9992698 0.0223660 0.0007302 -0.0223660
39470161 0.0007093 -0.0218434 0.9992907 0.0218434 0.9992907 0.0218434 0.0007093 -0.0218434
40337993 0.0006895 -0.0213312 0.9993105 0.0213312 0.9993105 0.0213312 0.0006895 -0.0213312
41224905 0.0006706 -0.0208292 0.9993294 0.0208292 0.9993294 0.0208292 0.0006706 -0.0208292
42131317 0.0006528 -0.0203370 0.9993472 0.0203370 0.9993472 0.0203370 0.0006528 -0.0203370
43057659 0.0006358 -0.0198545 0.9993642 0.0198545 0.9993642 0.0198545 0.0006358 -0.0198545
44004369 0.0006197 -0.0193814 0.9993803 0.0193814 0.9993803 0.0193814 0.0006197 -0.0193814
44971893 0.0006044 -0.0189175 0.9993956 0.0189175 0.9993956 0.0189175 0.0006044 -0.0189175
45960691 0.0005900 -0.0184627 0.9994100 0.0184627 0.9994100 0.0184627 0.0005900 -0.0184627
46971230 0.0005763 -0.0180166 0.9994237 0.0180166 0.9994237 0.0180166 0.0005763 -0.0180166
48003987 0.0005634 -0.0175791 0.9994366 0.0175791 0.9994366 0.0175791 0.0005634 -0.0175791
49059451 0.0005512 -0.0171500 0.9994488 0.0171500 0.9994488 0.0171500 0.0005512 -0.0171500
50138122 0.0005397 -0.0167291 0.9994603 0.0167291 0.9994603 0.0167291 0.0005397 -0.0167291
51240510 0.0005289 -0.0163162 0.9994711 0.0163162 0.9994711 0.0163162 0.0005289 -0.0163162
52367136 0.0005187 -0.0159111 0.9994813 0.0159111 0.9994813 0.0159111 0.0005187 -0.0159111
53518533 0.0005091 -0.0155136 0.9994909 0.0155136 0.9994909 0.0155136 0.0005091 -0.0155136
54695245 0.0005001 -0.0151235 0.9994999 0.0151235 0.9994999 0.0151235 0.0005001 -0.0151235
55897831 0.0004917 -0.0147406 0.9995083 0.0147406 0.9995083 0.0147406 0.0004917 -0.0147406
57126857 0.0004838 -0.0143648 0.9995162 0.0143648 0.9995162 0.0143648 0.0004838 -0.0143648
58382906 0.0004764 -0.0139959 0.9995236 0.0139959 0.9995236 0.0139959 0.0004764 -0.0139959
59666572 0.0004695 -0.0136337 0.9995305 0.0136337 0.9995305 0.0136337 0.0004695 -0.0136337
60978462 0.0004631 -0.0132780 0.9995369 0.0132780 0.9995369 0.0132780 0.0004631 -0.0132780
62319196 0.0004572 -0.0129288 0.9995428 0.0129288 0.9995428 0.0129288 0.0004572 -0.0129288
63689409 0.0004517 -0.0125857 0.9995483 0.0125857 0.9995483 0.0125857 0.0004517 -0.0125857
65089750 0.0004466 -0.0122487 0.9995534 0.0122487 0.9995534 0.0122487 0.0004466 -0.0122487
66520879 0.0004419 -0.0119176 0.9995581 0.0119176 0.9995581 0.0119176 0.0004419 -0.0119176
67983474 0.0004376 -0.0115922 0.9995624 0.0115922 0.9995624 0.0115922 0.0004376 -0.0115922
69478228 0.0004337 -0.0112724 0.9995663 0.0112724 0.9995663 0.0112724 0.0004337 -0.0112724
71005847 0.0004301 -0.0109580 0.9995699 0.0109580 0.9995699 0.0109580 0.0004301 -0.0109580
72567054 0.0004269 -0.0106489 0.9995731 0.0106489 0.9995731 0.0106489 0.0004269 -0.0106489
74162587 0.0004241 -0.0103450 0.9995759 0.0103450 0.9995759 0.0103450 0.0004241 -0.0103450
75793201 0.0004215 -0.0100460 0.9995785 0.0100460 0.9995785 0.0100460 0.0004215 -0.0100460
77459667 0.0004193 -0.0097519 0.9995807 0.0097519 0.9995807 0.0097519 0.0004193 -0.0097519
79162774 0.0004173 -0.0094625 0.9995827 0.0094625 0.9995827 0.0094625 0.0004173 -0.0094625
80903327 0.0004156 -0.0091777 0.9995844 0.0091777 0.9995844 0.0091777 0.0004156 -0.0091777
82682150 0.0004143 -0.0088973 0.9995857 0.0088973 0.9995857 0.0088973 0.0004143 -0.0088973
84500083 0.0004131 -0.0086213 0.9995869 0.0086213 0.9995869 0.0086213 0.0004131 -0.0086213
86357988 0.0004123 -0.0083494 0.9995877 0.0083494 0.9995877 0.0083494 0.0004123 -0.0083494
88256743 0.0004117 -0.0080815 0.9995883 0.0080815 0.9995883 0.0080815 0.0004117 -0.0080815
90197245 0.0004113 -0.0078176 0.9995887 0.0078176 0.9995887 0.0078176 0.0004113 -0.0078176
92180413 0.0004111 -0.0075574 0.9995889 0.0075574 0.9995889 0.0075574 0.0004111 -0.0075574
94207185 0.0004112 -0.0073009 0.9995888 0.0073009 0.9995888 0.0073009 0.0004112 -0.0073009
96278520 0.0004116 -0.0070480 0.9995884 0.0070480 0.9995884 0.0070480 0.0004116 -0.0070480
98395398 0.0004121 -0.0067984 0.9995879 0.0067984 0.9995879 0.0067984 0.0004121 -0.0067984
100558819 0.0004128 -0.0065522 0.9995872 0.0065522 0.9995872 0.0065522 0.0004128 -0.0065522
102769807 0.0004138 -0.0063091 0.9995862 0.0063091 0.9995862 0.0063091 0.0004138 -0.0063091
105029408 0.0004149 -0.0060691 0.9995851 0.0060691 0.9995851 0.0060691 0.0004149 -0.0060691
107338692 0.0004163 -0.0058321 0.9995837 0.0058321 0.9995837 0.0058321 0.0004163 -0.0058321
