!Murata Part Number: GRM1555C1H8R9CA01
!These Parameters are Measured in Series Mode Connection
!Data Generated on Mar 30, 2021
!       o--ll--o
!Port1            Port2
!       o------o
!Operation Temp=25[degC], DC Bias Voltage=0[V]
!Freq. Start=100[MHz] Stop=9[GHz] 401[Steps]
# Hz S RI R 50
!Freq.(Hz) S11(Real) S11(Imag) S21(Real) S21(Imag) S12(Real) S12(Imag) S22(Real) S22(Imag)
100000000 0.7611574 -0.4258439 0.2388426 0.4258439 0.2388426 0.4258439 0.7611574 -0.4258439
121000000 0.6850495 -0.4638511 0.3149505 0.4638511 0.3149505 0.4638511 0.6850495 -0.4638511
142000000 0.6120999 -0.4865135 0.3879001 0.4865135 0.3879001 0.4865135 0.6120999 -0.4865135
163000000 0.5447079 -0.4971254 0.4552921 0.4971254 0.4552921 0.4971254 0.5447079 -0.4971254
184000000 0.4839588 -0.4987566 0.5160412 0.4987566 0.5160412 0.4987566 0.4839588 -0.4987566
205000000 0.4300624 -0.4939836 0.5699376 0.4939836 0.5699376 0.4939836 0.4300624 -0.4939836
226000000 0.3827145 -0.4848328 0.6172855 0.4848328 0.6172855 0.4848328 0.3827145 -0.4848328
247000000 0.3413510 -0.4728297 0.6586490 0.4728297 0.6586490 0.4728297 0.3413510 -0.4728297
268000000 0.3053095 -0.4590876 0.6946905 0.4590876 0.6946905 0.4590876 0.3053095 -0.4590876
289000000 0.2739215 -0.4443998 0.7260785 0.4443998 0.7260785 0.4443998 0.2739215 -0.4443998
310000000 0.2465613 -0.4293201 0.7534387 0.4293201 0.7534387 0.4293201 0.2465613 -0.4293201
331000000 0.2226672 -0.4142268 0.7773328 0.4142268 0.7773328 0.4142268 0.2226672 -0.4142268
352000000 0.2017475 -0.3993727 0.7982525 0.3993727 0.7982525 0.3993727 0.2017475 -0.3993727
373000000 0.1833783 -0.3849209 0.8166217 0.3849209 0.8166217 0.3849209 0.1833783 -0.3849209
394000000 0.1671974 -0.3709716 0.8328026 0.3709716 0.8328026 0.3709716 0.1671974 -0.3709716
415000000 0.1528971 -0.3575814 0.8471029 0.3575814 0.8471029 0.3575814 0.1528971 -0.3575814
436000000 0.1402166 -0.3447767 0.8597834 0.3447767 0.8597834 0.3447767 0.1402166 -0.3447767
457000000 0.1289350 -0.3325633 0.8710650 0.3325633 0.8710650 0.3325633 0.1289350 -0.3325633
478000000 0.1188650 -0.3209334 0.8811350 0.3209334 0.8811350 0.3209334 0.1188650 -0.3209334
499000000 0.1098478 -0.3098703 0.8901522 0.3098703 0.8901522 0.3098703 0.1098478 -0.3098703
520000000 0.1017483 -0.2993520 0.8982517 0.2993520 0.8982517 0.2993520 0.1017483 -0.2993520
541000000 0.0944512 -0.2893530 0.9055488 0.2893530 0.9055488 0.2893530 0.0944512 -0.2893530
562000000 0.0878582 -0.2798466 0.9121418 0.2798466 0.9121418 0.2798466 0.0878582 -0.2798466
583000000 0.0818848 -0.2708054 0.9181152 0.2708054 0.9181152 0.2708054 0.0818848 -0.2708054
604000000 0.0764585 -0.2622025 0.9235415 0.2622025 0.9235415 0.2622025 0.0764585 -0.2622025
625000000 0.0715166 -0.2540116 0.9284834 0.2540116 0.9284834 0.2540116 0.0715166 -0.2540116
646000000 0.0670049 -0.2462074 0.9329951 0.2462074 0.9329951 0.2462074 0.0670049 -0.2462074
667000000 0.0628766 -0.2387662 0.9371234 0.2387662 0.9371234 0.2387662 0.0628766 -0.2387662
688000000 0.0590906 -0.2316652 0.9409094 0.2316652 0.9409094 0.2316652 0.0590906 -0.2316652
709000000 0.0556112 -0.2248834 0.9443888 0.2248834 0.9443888 0.2248834 0.0556112 -0.2248834
730000000 0.0524071 -0.2184007 0.9475929 0.2184007 0.9475929 0.2184007 0.0524071 -0.2184007
751000000 0.0494508 -0.2121988 0.9505492 0.2121988 0.9505492 0.2121988 0.0494508 -0.2121988
772000000 0.0467182 -0.2062601 0.9532818 0.2062601 0.9532818 0.2062601 0.0467182 -0.2062601
793000000 0.0441879 -0.2005688 0.9558121 0.2005688 0.9558121 0.2005688 0.0441879 -0.2005688
814000000 0.0418409 -0.1951096 0.9581591 0.1951096 0.9581591 0.1951096 0.0418409 -0.1951096
835000000 0.0396606 -0.1898688 0.9603394 0.1898688 0.9603394 0.1898688 0.0396606 -0.1898688
856000000 0.0376318 -0.1848334 0.9623682 0.1848334 0.9623682 0.1848334 0.0376318 -0.1848334
877000000 0.0357415 -0.1799913 0.9642585 0.1799913 0.9642585 0.1799913 0.0357415 -0.1799913
898000000 0.0339775 -0.1753313 0.9660225 0.1753313 0.9660225 0.1753313 0.0339775 -0.1753313
919000000 0.0323294 -0.1708430 0.9676706 0.1708430 0.9676706 0.1708430 0.0323294 -0.1708430
940000000 0.0307874 -0.1665167 0.9692126 0.1665167 0.9692126 0.1665167 0.0307874 -0.1665167
961000000 0.0293430 -0.1623434 0.9706570 0.1623434 0.9706570 0.1623434 0.0293430 -0.1623434
982000000 0.0279885 -0.1583146 0.9720115 0.1583146 0.9720115 0.1583146 0.0279885 -0.1583146
1003000000 0.0267167 -0.1544225 0.9732833 0.1544225 0.9732833 0.1544225 0.0267167 -0.1544225
1024000000 0.0255215 -0.1506599 0.9744785 0.1506599 0.9744785 0.1506599 0.0255215 -0.1506599
1045000000 0.0243969 -0.1470198 0.9756031 0.1470198 0.9756031 0.1470198 0.0243969 -0.1470198
1066000000 0.0233379 -0.1434959 0.9766621 0.1434959 0.9766621 0.1434959 0.0233379 -0.1434959
1087000000 0.0223396 -0.1400822 0.9776604 0.1400822 0.9776604 0.1400822 0.0223396 -0.1400822
1108000000 0.0213977 -0.1367731 0.9786023 0.1367731 0.9786023 0.1367731 0.0213977 -0.1367731
1129000000 0.0205083 -0.1335634 0.9794917 0.1335634 0.9794917 0.1335634 0.0205083 -0.1335634
1150000000 0.0196678 -0.1304483 0.9803322 0.1304483 0.9803322 0.1304483 0.0196678 -0.1304483
1171000000 0.0188729 -0.1274230 0.9811271 0.1274230 0.9811271 0.1274230 0.0188729 -0.1274230
1192000000 0.0181204 -0.1244833 0.9818796 0.1244833 0.9818796 0.1244833 0.0181204 -0.1244833
1213000000 0.0174077 -0.1216252 0.9825923 0.1216252 0.9825923 0.1216252 0.0174077 -0.1216252
1234000000 0.0167322 -0.1188448 0.9832678 0.1188448 0.9832678 0.1188448 0.0167322 -0.1188448
1255000000 0.0160916 -0.1161385 0.9839084 0.1161385 0.9839084 0.1161385 0.0160916 -0.1161385
1276000000 0.0154836 -0.1135030 0.9845164 0.1135030 0.9845164 0.1135030 0.0154836 -0.1135030
1297000000 0.0149063 -0.1109350 0.9850937 0.1109350 0.9850937 0.1109350 0.0149063 -0.1109350
1318000000 0.0143578 -0.1084316 0.9856422 0.1084316 0.9856422 0.1084316 0.0143578 -0.1084316
1339000000 0.0138364 -0.1059900 0.9861636 0.1059900 0.9861636 0.1059900 0.0138364 -0.1059900
1360000000 0.0133406 -0.1036075 0.9866594 0.1036075 0.9866594 0.1036075 0.0133406 -0.1036075
1381000000 0.0128688 -0.1012815 0.9871312 0.1012815 0.9871312 0.1012815 0.0128688 -0.1012815
1402000000 0.0124197 -0.0990096 0.9875803 0.0990096 0.9875803 0.0990096 0.0124197 -0.0990096
1423000000 0.0119921 -0.0967897 0.9880079 0.0967897 0.9880079 0.0967897 0.0119921 -0.0967897
1444000000 0.0115847 -0.0946195 0.9884153 0.0946195 0.9884153 0.0946195 0.0115847 -0.0946195
1465000000 0.0111964 -0.0924971 0.9888036 0.0924971 0.9888036 0.0924971 0.0111964 -0.0924971
1486000000 0.0108263 -0.0904204 0.9891737 0.0904204 0.9891737 0.0904204 0.0108263 -0.0904204
1507000000 0.0104734 -0.0883877 0.9895266 0.0883877 0.9895266 0.0883877 0.0104734 -0.0883877
1528000000 0.0101368 -0.0863973 0.9898632 0.0863973 0.9898632 0.0863973 0.0101368 -0.0863973
1549000000 0.0098156 -0.0844474 0.9901844 0.0844474 0.9901844 0.0844474 0.0098156 -0.0844474
1570000000 0.0095092 -0.0825366 0.9904908 0.0825366 0.9904908 0.0825366 0.0095092 -0.0825366
1591000000 0.0092167 -0.0806633 0.9907833 0.0806633 0.9907833 0.0806633 0.0092167 -0.0806633
1612000000 0.0089375 -0.0788262 0.9910625 0.0788262 0.9910625 0.0788262 0.0089375 -0.0788262
1633000000 0.0086710 -0.0770238 0.9913290 0.0770238 0.9913290 0.0770238 0.0086710 -0.0770238
1654000000 0.0084164 -0.0752549 0.9915836 0.0752549 0.9915836 0.0752549 0.0084164 -0.0752549
1675000000 0.0081734 -0.0735182 0.9918266 0.0735182 0.9918266 0.0735182 0.0081734 -0.0735182
1696000000 0.0079414 -0.0718127 0.9920586 0.0718127 0.9920586 0.0718127 0.0079414 -0.0718127
1717000000 0.0077198 -0.0701371 0.9922802 0.0701371 0.9922802 0.0701371 0.0077198 -0.0701371
1738000000 0.0075082 -0.0684904 0.9924918 0.0684904 0.9924918 0.0684904 0.0075082 -0.0684904
1759000000 0.0073062 -0.0668716 0.9926938 0.0668716 0.9926938 0.0668716 0.0073062 -0.0668716
1780000000 0.0071133 -0.0652797 0.9928867 0.0652797 0.9928867 0.0652797 0.0071133 -0.0652797
1801000000 0.0069291 -0.0637138 0.9930709 0.0637138 0.9930709 0.0637138 0.0069291 -0.0637138
1822000000 0.0067534 -0.0621730 0.9932466 0.0621730 0.9932466 0.0621730 0.0067534 -0.0621730
1843000000 0.0065857 -0.0606564 0.9934143 0.0606564 0.9934143 0.0606564 0.0065857 -0.0606564
1864000000 0.0064257 -0.0591633 0.9935743 0.0591633 0.9935743 0.0591633 0.0064257 -0.0591633
1885000000 0.0062732 -0.0576927 0.9937268 0.0576927 0.9937268 0.0576927 0.0062732 -0.0576927
1906000000 0.0061277 -0.0562441 0.9938723 0.0562441 0.9938723 0.0562441 0.0061277 -0.0562441
1927000000 0.0059891 -0.0548166 0.9940109 0.0548166 0.9940109 0.0548166 0.0059891 -0.0548166
1948000000 0.0058571 -0.0534095 0.9941429 0.0534095 0.9941429 0.0534095 0.0058571 -0.0534095
1969000000 0.0057313 -0.0520223 0.9942687 0.0520223 0.9942687 0.0520223 0.0057313 -0.0520223
1990000000 0.0056117 -0.0506542 0.9943883 0.0506542 0.9943883 0.0506542 0.0056117 -0.0506542
2011000000 0.0054980 -0.0493047 0.9945020 0.0493047 0.9945020 0.0493047 0.0054980 -0.0493047
2032000000 0.0053900 -0.0479731 0.9946100 0.0479731 0.9946100 0.0479731 0.0053900 -0.0479731
2053000000 0.0052874 -0.0466589 0.9947126 0.0466589 0.9947126 0.0466589 0.0052874 -0.0466589
2074000000 0.0051901 -0.0453615 0.9948099 0.0453615 0.9948099 0.0453615 0.0051901 -0.0453615
2095000000 0.0050979 -0.0440805 0.9949021 0.0440805 0.9949021 0.0440805 0.0050979 -0.0440805
2116000000 0.0050106 -0.0428153 0.9949894 0.0428153 0.9949894 0.0428153 0.0050106 -0.0428153
2137000000 0.0049281 -0.0415654 0.9950719 0.0415654 0.9950719 0.0415654 0.0049281 -0.0415654
2158000000 0.0048502 -0.0403304 0.9951498 0.0403304 0.9951498 0.0403304 0.0048502 -0.0403304
2179000000 0.0047768 -0.0391097 0.9952232 0.0391097 0.9952232 0.0391097 0.0047768 -0.0391097
2200000000 0.0047078 -0.0379031 0.9952922 0.0379031 0.9952922 0.0379031 0.0047078 -0.0379031
2221000000 0.0046429 -0.0367099 0.9953571 0.0367099 0.9953571 0.0367099 0.0046429 -0.0367099
2242000000 0.0045822 -0.0355299 0.9954178 0.0355299 0.9954178 0.0355299 0.0045822 -0.0355299
2263000000 0.0045254 -0.0343626 0.9954746 0.0343626 0.9954746 0.0343626 0.0045254 -0.0343626
2284000000 0.0044724 -0.0332077 0.9955276 0.0332077 0.9955276 0.0332077 0.0044724 -0.0332077
2305000000 0.0044232 -0.0320648 0.9955768 0.0320648 0.9955768 0.0320648 0.0044232 -0.0320648
2326000000 0.0043777 -0.0309335 0.9956223 0.0309335 0.9956223 0.0309335 0.0043777 -0.0309335
2347000000 0.0043357 -0.0298134 0.9956643 0.0298134 0.9956643 0.0298134 0.0043357 -0.0298134
2368000000 0.0042972 -0.0287044 0.9957028 0.0287044 0.9957028 0.0287044 0.0042972 -0.0287044
2389000000 0.0042621 -0.0276059 0.9957379 0.0276059 0.9957379 0.0276059 0.0042621 -0.0276059
2410000000 0.0042302 -0.0265178 0.9957698 0.0265178 0.9957698 0.0265178 0.0042302 -0.0265178
2431000000 0.0042016 -0.0254397 0.9957984 0.0254397 0.9957984 0.0254397 0.0042016 -0.0254397
2452000000 0.0041762 -0.0243713 0.9958238 0.0243713 0.9958238 0.0243713 0.0041762 -0.0243713
2473000000 0.0041538 -0.0233124 0.9958462 0.0233124 0.9958462 0.0233124 0.0041538 -0.0233124
2494000000 0.0041344 -0.0222626 0.9958656 0.0222626 0.9958656 0.0222626 0.0041344 -0.0222626
2515000000 0.0041179 -0.0212217 0.9958821 0.0212217 0.9958821 0.0212217 0.0041179 -0.0212217
2536000000 0.0041044 -0.0201894 0.9958956 0.0201894 0.9958956 0.0201894 0.0041044 -0.0201894
2557000000 0.0040937 -0.0191655 0.9959063 0.0191655 0.9959063 0.0191655 0.0040937 -0.0191655
2578000000 0.0040858 -0.0181497 0.9959142 0.0181497 0.9959142 0.0181497 0.0040858 -0.0181497
2599000000 0.0040806 -0.0171419 0.9959194 0.0171419 0.9959194 0.0171419 0.0040806 -0.0171419
2620000000 0.0040781 -0.0161416 0.9959219 0.0161416 0.9959219 0.0161416 0.0040781 -0.0161416
2641000000 0.0040782 -0.0151489 0.9959218 0.0151489 0.9959218 0.0151489 0.0040782 -0.0151489
2662000000 0.0040809 -0.0141633 0.9959191 0.0141633 0.9959191 0.0141633 0.0040809 -0.0141633
2683000000 0.0040862 -0.0131847 0.9959138 0.0131847 0.9959138 0.0131847 0.0040862 -0.0131847
2704000000 0.0040940 -0.0122129 0.9959060 0.0122129 0.9959060 0.0122129 0.0040940 -0.0122129
2725000000 0.0041044 -0.0112477 0.9958956 0.0112477 0.9958956 0.0112477 0.0041044 -0.0112477
2746000000 0.0041171 -0.0102889 0.9958829 0.0102889 0.9958829 0.0102889 0.0041171 -0.0102889
2767000000 0.0041323 -0.0093363 0.9958677 0.0093363 0.9958677 0.0093363 0.0041323 -0.0093363
2788000000 0.0041499 -0.0083897 0.9958501 0.0083897 0.9958501 0.0083897 0.0041499 -0.0083897
2809000000 0.0041699 -0.0074489 0.9958301 0.0074489 0.9958301 0.0074489 0.0041699 -0.0074489
2830000000 0.0041922 -0.0065137 0.9958078 0.0065137 0.9958078 0.0065137 0.0041922 -0.0065137
2851000000 0.0042169 -0.0055840 0.9957831 0.0055840 0.9957831 0.0055840 0.0042169 -0.0055840
2872000000 0.0042439 -0.0046596 0.9957561 0.0046596 0.9957561 0.0046596 0.0042439 -0.0046596
2893000000 0.0042732 -0.0037403 0.9957268 0.0037403 0.9957268 0.0037403 0.0042732 -0.0037403
2914000000 0.0043047 -0.0028260 0.9956953 0.0028260 0.9956953 0.0028260 0.0043047 -0.0028260
2935000000 0.0043386 -0.0019165 0.9956614 0.0019165 0.9956614 0.0019165 0.0043386 -0.0019165
2956000000 0.0043747 -0.0010116 0.9956253 0.0010116 0.9956253 0.0010116 0.0043747 -0.0010116
2977000000 0.0044130 -0.0001112 0.9955870 0.0001112 0.9955870 0.0001112 0.0044130 -0.0001112
2998000000 0.0044536 0.0007848 0.9955464 -0.0007848 0.9955464 -0.0007848 0.0044536 0.0007848
3019000000 0.0044964 0.0016767 0.9955036 -0.0016767 0.9955036 -0.0016767 0.0044964 0.0016767
3040000000 0.0045414 0.0025645 0.9954586 -0.0025645 0.9954586 -0.0025645 0.0045414 0.0025645
3061000000 0.0045887 0.0034484 0.9954113 -0.0034484 0.9954113 -0.0034484 0.0045887 0.0034484
3082000000 0.0046382 0.0043286 0.9953618 -0.0043286 0.9953618 -0.0043286 0.0046382 0.0043286
3103000000 0.0046899 0.0052052 0.9953101 -0.0052052 0.9953101 -0.0052052 0.0046899 0.0052052
3124000000 0.0047438 0.0060782 0.9952562 -0.0060782 0.9952562 -0.0060782 0.0047438 0.0060782
3145000000 0.0048000 0.0069479 0.9952000 -0.0069479 0.9952000 -0.0069479 0.0048000 0.0069479
3166000000 0.0048584 0.0078144 0.9951416 -0.0078144 0.9951416 -0.0078144 0.0048584 0.0078144
3187000000 0.0049190 0.0086778 0.9950810 -0.0086778 0.9950810 -0.0086778 0.0049190 0.0086778
3208000000 0.0049819 0.0095383 0.9950181 -0.0095383 0.9950181 -0.0095383 0.0049819 0.0095383
3229000000 0.0050471 0.0103959 0.9949529 -0.0103959 0.9949529 -0.0103959 0.0050471 0.0103959
3250000000 0.0051145 0.0112508 0.9948855 -0.0112508 0.9948855 -0.0112508 0.0051145 0.0112508
3271000000 0.0051843 0.0121031 0.9948157 -0.0121031 0.9948157 -0.0121031 0.0051843 0.0121031
3292000000 0.0052563 0.0129529 0.9947437 -0.0129529 0.9947437 -0.0129529 0.0052563 0.0129529
3313000000 0.0053307 0.0138003 0.9946693 -0.0138003 0.9946693 -0.0138003 0.0053307 0.0138003
3334000000 0.0054073 0.0146456 0.9945927 -0.0146456 0.9945927 -0.0146456 0.0054073 0.0146456
3355000000 0.0054864 0.0154887 0.9945136 -0.0154887 0.9945136 -0.0154887 0.0054864 0.0154887
3376000000 0.0055678 0.0163298 0.9944322 -0.0163298 0.9944322 -0.0163298 0.0055678 0.0163298
3397000000 0.0056517 0.0171690 0.9943483 -0.0171690 0.9943483 -0.0171690 0.0056517 0.0171690
3418000000 0.0057380 0.0180064 0.9942620 -0.0180064 0.9942620 -0.0180064 0.0057380 0.0180064
3439000000 0.0058267 0.0188422 0.9941733 -0.0188422 0.9941733 -0.0188422 0.0058267 0.0188422
3460000000 0.0059180 0.0196764 0.9940820 -0.0196764 0.9940820 -0.0196764 0.0059180 0.0196764
3481000000 0.0060117 0.0205092 0.9939883 -0.0205092 0.9939883 -0.0205092 0.0060117 0.0205092
3502000000 0.0061080 0.0213406 0.9938920 -0.0213406 0.9938920 -0.0213406 0.0061080 0.0213406
3523000000 0.0062070 0.0221708 0.9937930 -0.0221708 0.9937930 -0.0221708 0.0062070 0.0221708
3544000000 0.0063085 0.0229999 0.9936915 -0.0229999 0.9936915 -0.0229999 0.0063085 0.0229999
3565000000 0.0064128 0.0238279 0.9935872 -0.0238279 0.9935872 -0.0238279 0.0064128 0.0238279
3586000000 0.0065197 0.0246551 0.9934803 -0.0246551 0.9934803 -0.0246551 0.0065197 0.0246551
3607000000 0.0066294 0.0254814 0.9933706 -0.0254814 0.9933706 -0.0254814 0.0066294 0.0254814
3628000000 0.0067420 0.0263070 0.9932580 -0.0263070 0.9932580 -0.0263070 0.0067420 0.0263070
3649000000 0.0068574 0.0271321 0.9931426 -0.0271321 0.9931426 -0.0271321 0.0068574 0.0271321
3670000000 0.0069757 0.0279567 0.9930243 -0.0279567 0.9930243 -0.0279567 0.0069757 0.0279567
3691000000 0.0070970 0.0287808 0.9929030 -0.0287808 0.9929030 -0.0287808 0.0070970 0.0287808
3712000000 0.0072213 0.0296047 0.9927787 -0.0296047 0.9927787 -0.0296047 0.0072213 0.0296047
3733000000 0.0073487 0.0304284 0.9926513 -0.0304284 0.9926513 -0.0304284 0.0073487 0.0304284
3754000000 0.0074793 0.0312521 0.9925207 -0.0312521 0.9925207 -0.0312521 0.0074793 0.0312521
3775000000 0.0076131 0.0320758 0.9923869 -0.0320758 0.9923869 -0.0320758 0.0076131 0.0320758
3796000000 0.0077502 0.0328996 0.9922498 -0.0328996 0.9922498 -0.0328996 0.0077502 0.0328996
3817000000 0.0078907 0.0337236 0.9921093 -0.0337236 0.9921093 -0.0337236 0.0078907 0.0337236
3838000000 0.0080346 0.0345480 0.9919654 -0.0345480 0.9919654 -0.0345480 0.0080346 0.0345480
3859000000 0.0081820 0.0353728 0.9918180 -0.0353728 0.9918180 -0.0353728 0.0081820 0.0353728
3880000000 0.0083331 0.0361982 0.9916669 -0.0361982 0.9916669 -0.0361982 0.0083331 0.0361982
3901000000 0.0084879 0.0370242 0.9915121 -0.0370242 0.9915121 -0.0370242 0.0084879 0.0370242
3922000000 0.0086465 0.0378510 0.9913535 -0.0378510 0.9913535 -0.0378510 0.0086465 0.0378510
3943000000 0.0088090 0.0386787 0.9911910 -0.0386787 0.9911910 -0.0386787 0.0088090 0.0386787
3964000000 0.0089754 0.0395073 0.9910246 -0.0395073 0.9910246 -0.0395073 0.0089754 0.0395073
3985000000 0.0091460 0.0403370 0.9908540 -0.0403370 0.9908540 -0.0403370 0.0091460 0.0403370
4006000000 0.0093209 0.0411678 0.9906791 -0.0411678 0.9906791 -0.0411678 0.0093209 0.0411678
4027000000 0.0095000 0.0419999 0.9905000 -0.0419999 0.9905000 -0.0419999 0.0095000 0.0419999
4048000000 0.0096837 0.0428334 0.9903163 -0.0428334 0.9903163 -0.0428334 0.0096837 0.0428334
4069000000 0.0098719 0.0436684 0.9901281 -0.0436684 0.9901281 -0.0436684 0.0098719 0.0436684
4090000000 0.0100649 0.0445050 0.9899351 -0.0445050 0.9899351 -0.0445050 0.0100649 0.0445050
4111000000 0.0102627 0.0453433 0.9897373 -0.0453433 0.9897373 -0.0453433 0.0102627 0.0453433
4132000000 0.0104656 0.0461834 0.9895344 -0.0461834 0.9895344 -0.0461834 0.0104656 0.0461834
4153000000 0.0106736 0.0470254 0.9893264 -0.0470254 0.9893264 -0.0470254 0.0106736 0.0470254
4174000000 0.0108870 0.0478695 0.9891130 -0.0478695 0.9891130 -0.0478695 0.0108870 0.0478695
4195000000 0.0111060 0.0487156 0.9888940 -0.0487156 0.9888940 -0.0487156 0.0111060 0.0487156
4216000000 0.0113306 0.0495640 0.9886694 -0.0495640 0.9886694 -0.0495640 0.0113306 0.0495640
4237000000 0.0115611 0.0504148 0.9884389 -0.0504148 0.9884389 -0.0504148 0.0115611 0.0504148
4258000000 0.0117976 0.0512679 0.9882024 -0.0512679 0.9882024 -0.0512679 0.0117976 0.0512679
4279000000 0.0120405 0.0521236 0.9879595 -0.0521236 0.9879595 -0.0521236 0.0120405 0.0521236
4300000000 0.0122899 0.0529820 0.9877101 -0.0529820 0.9877101 -0.0529820 0.0122899 0.0529820
4321000000 0.0125460 0.0538431 0.9874540 -0.0538431 0.9874540 -0.0538431 0.0125460 0.0538431
4342000000 0.0128091 0.0547071 0.9871909 -0.0547071 0.9871909 -0.0547071 0.0128091 0.0547071
4363000000 0.0130794 0.0555741 0.9869206 -0.0555741 0.9869206 -0.0555741 0.0130794 0.0555741
4384000000 0.0133572 0.0564441 0.9866428 -0.0564441 0.9866428 -0.0564441 0.0133572 0.0564441
4405000000 0.0136428 0.0573172 0.9863572 -0.0573172 0.9863572 -0.0573172 0.0136428 0.0573172
4426000000 0.0139365 0.0581937 0.9860635 -0.0581937 0.9860635 -0.0581937 0.0139365 0.0581937
4447000000 0.0142385 0.0590734 0.9857615 -0.0590734 0.9857615 -0.0590734 0.0142385 0.0590734
4468000000 0.0145493 0.0599567 0.9854507 -0.0599567 0.9854507 -0.0599567 0.0145493 0.0599567
4489000000 0.0148690 0.0608434 0.9851310 -0.0608434 0.9851310 -0.0608434 0.0148690 0.0608434
4510000000 0.0151982 0.0617338 0.9848018 -0.0617338 0.9848018 -0.0617338 0.0151982 0.0617338
