!Murata Part Number: GRM1555C1H682JE01
!These Parameters are Measured in Series Mode Connection
!Data Generated on Mar 30, 2021
!       o--ll--o
!Port1            Port2
!       o------o
!Operation Temp=25[degC], DC Bias Voltage=0[V]
!Freq. Start=1000[kHz] Stop=6[GHz] 401[Steps]
# Hz S RI R 50
!Freq.(Hz) S11(Real) S11(Imag) S21(Real) S21(Imag) S12(Real) S12(Imag) S22(Real) S22(Imag)
1000000 0.0536817 -0.2253170 0.9463183 0.2253170 0.9463183 0.2253170 0.0536817 -0.2253170
1021987 0.0515152 -0.2209729 0.9484848 0.2209729 0.9484848 0.2209729 0.0515152 -0.2209729
1044457 0.0494317 -0.2166924 0.9505683 0.2166924 0.9505683 0.2166924 0.0494317 -0.2166924
1067422 0.0474282 -0.2124759 0.9525718 0.2124759 0.9525718 0.2124759 0.0474282 -0.2124759
1090891 0.0455021 -0.2083235 0.9544979 0.2083235 0.9544979 0.2083235 0.0455021 -0.2083235
1114877 0.0436507 -0.2042355 0.9563493 0.2042355 0.9563493 0.2042355 0.0436507 -0.2042355
1139390 0.0418714 -0.2002119 0.9581286 0.2002119 0.9581286 0.2002119 0.0418714 -0.2002119
1164441 0.0401616 -0.1962525 0.9598384 0.1962525 0.9598384 0.1962525 0.0401616 -0.1962525
1190044 0.0385188 -0.1923573 0.9614812 0.1923573 0.9614812 0.1923573 0.0385188 -0.1923573
1216210 0.0369407 -0.1885262 0.9630593 0.1885262 0.9630593 0.1885262 0.0369407 -0.1885262
1242950 0.0354250 -0.1847589 0.9645750 0.1847589 0.9645750 0.1847589 0.0354250 -0.1847589
1270279 0.0339692 -0.1810551 0.9660308 0.1810551 0.9660308 0.1810551 0.0339692 -0.1810551
1298209 0.0325714 -0.1774145 0.9674286 0.1774145 0.9674286 0.1774145 0.0325714 -0.1774145
1326753 0.0312293 -0.1738366 0.9687707 0.1738366 0.9687707 0.1738366 0.0312293 -0.1738366
1355924 0.0299408 -0.1703211 0.9700592 0.1703211 0.9700592 0.1703211 0.0299408 -0.1703211
1385737 0.0287039 -0.1668674 0.9712961 0.1668674 0.9712961 0.1668674 0.0287039 -0.1668674
1416205 0.0275168 -0.1634750 0.9724832 0.1634750 0.9724832 0.1634750 0.0275168 -0.1634750
1447343 0.0263774 -0.1601435 0.9736226 0.1601435 0.9736226 0.1601435 0.0263774 -0.1601435
1479166 0.0252841 -0.1568721 0.9747159 0.1568721 0.9747159 0.1568721 0.0252841 -0.1568721
1511688 0.0242351 -0.1536603 0.9757649 0.1536603 0.9757649 0.1536603 0.0242351 -0.1536603
1544926 0.0232286 -0.1505075 0.9767714 0.1505075 0.9767714 0.1505075 0.0232286 -0.1505075
1578894 0.0222630 -0.1474129 0.9777370 0.1474129 0.9777370 0.1474129 0.0222630 -0.1474129
1613609 0.0213367 -0.1443760 0.9786633 0.1443760 0.9786633 0.1443760 0.0213367 -0.1443760
1649087 0.0204482 -0.1413959 0.9795518 0.1413959 0.9795518 0.1413959 0.0204482 -0.1413959
1685346 0.0195960 -0.1384720 0.9804040 0.1384720 0.9804040 0.1384720 0.0195960 -0.1384720
1722402 0.0187788 -0.1356036 0.9812212 0.1356036 0.9812212 0.1356036 0.0187788 -0.1356036
1760272 0.0179951 -0.1327899 0.9820049 0.1327899 0.9820049 0.1327899 0.0179951 -0.1327899
1798975 0.0172436 -0.1300301 0.9827564 0.1300301 0.9827564 0.1300301 0.0172436 -0.1300301
1838529 0.0165230 -0.1273235 0.9834770 0.1273235 0.9834770 0.1273235 0.0165230 -0.1273235
1878953 0.0158321 -0.1246693 0.9841679 0.1246693 0.9841679 0.1246693 0.0158321 -0.1246693
1920266 0.0151697 -0.1220668 0.9848303 0.1220668 0.9848303 0.1220668 0.0151697 -0.1220668
1962487 0.0145347 -0.1195151 0.9854653 0.1195151 0.9854653 0.1195151 0.0145347 -0.1195151
2005636 0.0139260 -0.1170135 0.9860740 0.1170135 0.9860740 0.1170135 0.0139260 -0.1170135
2049734 0.0133425 -0.1145611 0.9866575 0.1145611 0.9866575 0.1145611 0.0133425 -0.1145611
2094801 0.0127832 -0.1121573 0.9872168 0.1121573 0.9872168 0.1121573 0.0127832 -0.1121573
2140860 0.0122472 -0.1098012 0.9877528 0.1098012 0.9877528 0.1098012 0.0122472 -0.1098012
2187931 0.0117334 -0.1074920 0.9882666 0.1074920 0.9882666 0.1074920 0.0117334 -0.1074920
2236037 0.0112411 -0.1052290 0.9887589 0.1052290 0.9887589 0.1052290 0.0112411 -0.1052290
2285201 0.0107692 -0.1030113 0.9892308 0.1030113 0.9892308 0.1030113 0.0107692 -0.1030113
2335446 0.0103171 -0.1008382 0.9896829 0.1008382 0.9896829 0.1008382 0.0103171 -0.1008382
2386795 0.0098838 -0.0987090 0.9901162 0.0987090 0.9901162 0.0987090 0.0098838 -0.0987090
2439274 0.0094686 -0.0966228 0.9905314 0.0966228 0.9905314 0.0966228 0.0094686 -0.0966228
2492906 0.0090708 -0.0945789 0.9909292 0.0945789 0.9909292 0.0945789 0.0090708 -0.0945789
2547717 0.0086897 -0.0925766 0.9913103 0.0925766 0.9913103 0.0925766 0.0086897 -0.0925766
2603734 0.0083245 -0.0906150 0.9916755 0.0906150 0.9916755 0.0906150 0.0083245 -0.0906150
2660982 0.0079746 -0.0886935 0.9920254 0.0886935 0.9920254 0.0886935 0.0079746 -0.0886935
2719490 0.0076395 -0.0868113 0.9923605 0.0868113 0.9923605 0.0868113 0.0076395 -0.0868113
2779283 0.0073184 -0.0849677 0.9926816 0.0849677 0.9926816 0.0849677 0.0073184 -0.0849677
2840391 0.0070108 -0.0831620 0.9929892 0.0831620 0.9929892 0.0831620 0.0070108 -0.0831620
2902843 0.0067161 -0.0813935 0.9932839 0.0813935 0.9932839 0.0813935 0.0067161 -0.0813935
2966668 0.0064338 -0.0796614 0.9935662 0.0796614 0.9935662 0.0796614 0.0064338 -0.0796614
3031896 0.0061635 -0.0779652 0.9938365 0.0779652 0.9938365 0.0779652 0.0061635 -0.0779652
3098558 0.0059045 -0.0763040 0.9940955 0.0763040 0.9940955 0.0763040 0.0059045 -0.0763040
3166686 0.0056564 -0.0746772 0.9943436 0.0746772 0.9943436 0.0746772 0.0056564 -0.0746772
3236312 0.0054188 -0.0730842 0.9945812 0.0730842 0.9945812 0.0730842 0.0054188 -0.0730842
3307469 0.0051913 -0.0715243 0.9948087 0.0715243 0.9948087 0.0715243 0.0051913 -0.0715243
3380190 0.0049733 -0.0699968 0.9950267 0.0699968 0.9950267 0.0699968 0.0049733 -0.0699968
3454511 0.0047646 -0.0685012 0.9952354 0.0685012 0.9952354 0.0685012 0.0047646 -0.0685012
3530465 0.0045647 -0.0670368 0.9954353 0.0670368 0.9954353 0.0670368 0.0045647 -0.0670368
3608090 0.0043732 -0.0656030 0.9956268 0.0656030 0.9956268 0.0656030 0.0043732 -0.0656030
3687421 0.0041899 -0.0641991 0.9958101 0.0641991 0.9958101 0.0641991 0.0041899 -0.0641991
3768496 0.0040143 -0.0628246 0.9959857 0.0628246 0.9959857 0.0628246 0.0040143 -0.0628246
3851354 0.0038462 -0.0614789 0.9961538 0.0614789 0.9961538 0.0614789 0.0038462 -0.0614789
3936034 0.0036851 -0.0601614 0.9963149 0.0601614 0.9963149 0.0601614 0.0036851 -0.0601614
4022575 0.0035310 -0.0588716 0.9964690 0.0588716 0.9964690 0.0588716 0.0035310 -0.0588716
4111020 0.0033833 -0.0576088 0.9966167 0.0576088 0.9966167 0.0576088 0.0033833 -0.0576088
4201409 0.0032419 -0.0563726 0.9967581 0.0563726 0.9967581 0.0563726 0.0032419 -0.0563726
4293785 0.0031066 -0.0551624 0.9968934 0.0551624 0.9968934 0.0551624 0.0031066 -0.0551624
4388193 0.0029770 -0.0539777 0.9970230 0.0539777 0.9970230 0.0539777 0.0029770 -0.0539777
4484676 0.0028529 -0.0528179 0.9971471 0.0528179 0.9971471 0.0528179 0.0028529 -0.0528179
4583281 0.0027340 -0.0516825 0.9972660 0.0516825 0.9972660 0.0516825 0.0027340 -0.0516825
4684054 0.0026203 -0.0505711 0.9973797 0.0505711 0.9973797 0.0505711 0.0026203 -0.0505711
4787042 0.0025113 -0.0494832 0.9974887 0.0494832 0.9974887 0.0494832 0.0025113 -0.0494832
4892295 0.0024071 -0.0484182 0.9975929 0.0484182 0.9975929 0.0484182 0.0024071 -0.0484182
4999862 0.0023072 -0.0473756 0.9976928 0.0473756 0.9976928 0.0473756 0.0023072 -0.0473756
5109794 0.0022117 -0.0463551 0.9977883 0.0463551 0.9977883 0.0463551 0.0022117 -0.0463551
5222143 0.0021202 -0.0453562 0.9978798 0.0453562 0.9978798 0.0453562 0.0021202 -0.0453562
5336962 0.0020326 -0.0443784 0.9979674 0.0443784 0.9979674 0.0443784 0.0020326 -0.0443784
5454306 0.0019487 -0.0434213 0.9980513 0.0434213 0.9980513 0.0434213 0.0019487 -0.0434213
5574230 0.0018684 -0.0424844 0.9981316 0.0424844 0.9981316 0.0424844 0.0018684 -0.0424844
5696791 0.0017916 -0.0415673 0.9982084 0.0415673 0.9982084 0.0415673 0.0017916 -0.0415673
5822046 0.0017181 -0.0406696 0.9982819 0.0406696 0.9982819 0.0406696 0.0017181 -0.0406696
5950055 0.0016477 -0.0397909 0.9983523 0.0397909 0.9983523 0.0397909 0.0016477 -0.0397909
6080879 0.0015803 -0.0389309 0.9984197 0.0389309 0.9984197 0.0389309 0.0015803 -0.0389309
6214580 0.0015158 -0.0380890 0.9984842 0.0380890 0.9984842 0.0380890 0.0015158 -0.0380890
6351220 0.0014541 -0.0372649 0.9985459 0.0372649 0.9985459 0.0372649 0.0014541 -0.0372649
6490864 0.0013951 -0.0364583 0.9986049 0.0364583 0.9986049 0.0364583 0.0013951 -0.0364583
6633579 0.0013385 -0.0356688 0.9986615 0.0356688 0.9986615 0.0356688 0.0013385 -0.0356688
6779431 0.0012845 -0.0348960 0.9987155 0.0348960 0.9987155 0.0348960 0.0012845 -0.0348960
6928491 0.0012327 -0.0341396 0.9987673 0.0341396 0.9987673 0.0341396 0.0012327 -0.0341396
7080828 0.0011832 -0.0333992 0.9988168 0.0333992 0.9988168 0.0333992 0.0011832 -0.0333992
7236514 0.0011358 -0.0326744 0.9988642 0.0326744 0.9988642 0.0326744 0.0011358 -0.0326744
7395623 0.0010905 -0.0319650 0.9989095 0.0319650 0.9989095 0.0319650 0.0010905 -0.0319650
7558231 0.0010471 -0.0312706 0.9989529 0.0312706 0.9989529 0.0312706 0.0010471 -0.0312706
7724414 0.0010056 -0.0305909 0.9989944 0.0305909 0.9989944 0.0305909 0.0010056 -0.0305909
7894251 0.0009659 -0.0299256 0.9990341 0.0299256 0.9990341 0.0299256 0.0009659 -0.0299256
8067822 0.0009279 -0.0292743 0.9990721 0.0292743 0.9990721 0.0292743 0.0009279 -0.0292743
8245209 0.0008916 -0.0286369 0.9991084 0.0286369 0.9991084 0.0286369 0.0008916 -0.0286369
8426497 0.0008569 -0.0280129 0.9991431 0.0280129 0.9991431 0.0280129 0.0008569 -0.0280129
8611770 0.0008237 -0.0274021 0.9991763 0.0274021 0.9991763 0.0274021 0.0008237 -0.0274021
8801117 0.0007919 -0.0268042 0.9992081 0.0268042 0.9992081 0.0268042 0.0007919 -0.0268042
8994628 0.0007615 -0.0262189 0.9992385 0.0262189 0.9992385 0.0262189 0.0007615 -0.0262189
9192393 0.0007325 -0.0256460 0.9992675 0.0256460 0.9992675 0.0256460 0.0007325 -0.0256460
9394506 0.0007047 -0.0250852 0.9992953 0.0250852 0.9992953 0.0250852 0.0007047 -0.0250852
9601063 0.0006782 -0.0245362 0.9993218 0.0245362 0.9993218 0.0245362 0.0006782 -0.0245362
9812162 0.0006528 -0.0239988 0.9993472 0.0239988 0.9993472 0.0239988 0.0006528 -0.0239988
10027902 0.0006286 -0.0234727 0.9993714 0.0234727 0.9993714 0.0234727 0.0006286 -0.0234727
10248386 0.0006054 -0.0229577 0.9993946 0.0229577 0.9993946 0.0229577 0.0006054 -0.0229577
10473717 0.0005832 -0.0224535 0.9994168 0.0224535 0.9994168 0.0224535 0.0005832 -0.0224535
10704003 0.0005621 -0.0219599 0.9994379 0.0219599 0.9994379 0.0219599 0.0005621 -0.0219599
10939352 0.0005419 -0.0214767 0.9994581 0.0214767 0.9994581 0.0214767 0.0005419 -0.0214767
11179876 0.0005226 -0.0210037 0.9994774 0.0210037 0.9994774 0.0210037 0.0005226 -0.0210037
11425688 0.0005041 -0.0205405 0.9994959 0.0205405 0.9994959 0.0205405 0.0005041 -0.0205405
11676904 0.0004865 -0.0200871 0.9995135 0.0200871 0.9995135 0.0200871 0.0004865 -0.0200871
11933645 0.0004697 -0.0196432 0.9995303 0.0196432 0.9995303 0.0196432 0.0004697 -0.0196432
12196030 0.0004536 -0.0192086 0.9995464 0.0192086 0.9995464 0.0192086 0.0004536 -0.0192086
12464184 0.0004383 -0.0187831 0.9995617 0.0187831 0.9995617 0.0187831 0.0004383 -0.0187831
12738235 0.0004237 -0.0183664 0.9995763 0.0183664 0.9995763 0.0183664 0.0004237 -0.0183664
13018310 0.0004097 -0.0179585 0.9995903 0.0179585 0.9995903 0.0179585 0.0004097 -0.0179585
13304544 0.0003964 -0.0175591 0.9996036 0.0175591 0.9996036 0.0175591 0.0003964 -0.0175591
13597071 0.0003837 -0.0171679 0.9996163 0.0171679 0.9996163 0.0171679 0.0003837 -0.0171679
13896030 0.0003716 -0.0167849 0.9996284 0.0167849 0.9996284 0.0167849 0.0003716 -0.0167849
14201563 0.0003601 -0.0164099 0.9996399 0.0164099 0.9996399 0.0164099 0.0003601 -0.0164099
14513813 0.0003490 -0.0160426 0.9996510 0.0160426 0.9996510 0.0160426 0.0003490 -0.0160426
14832928 0.0003386 -0.0156830 0.9996614 0.0156830 0.9996614 0.0156830 0.0003386 -0.0156830
15159060 0.0003286 -0.0153307 0.9996714 0.0153307 0.9996714 0.0153307 0.0003286 -0.0153307
15492362 0.0003190 -0.0149858 0.9996810 0.0149858 0.9996810 0.0149858 0.0003190 -0.0149858
15832993 0.0003100 -0.0146479 0.9996900 0.0146479 0.9996900 0.0146479 0.0003100 -0.0146479
16181113 0.0003013 -0.0143170 0.9996987 0.0143170 0.9996987 0.0143170 0.0003013 -0.0143170
16536888 0.0002931 -0.0139929 0.9997069 0.0139929 0.9997069 0.0139929 0.0002931 -0.0139929
16900485 0.0002853 -0.0136755 0.9997147 0.0136755 0.9997147 0.0136755 0.0002853 -0.0136755
17272076 0.0002779 -0.0133645 0.9997221 0.0133645 0.9997221 0.0133645 0.0002779 -0.0133645
17651837 0.0002708 -0.0130598 0.9997292 0.0130598 0.9997292 0.0130598 0.0002708 -0.0130598
18039948 0.0002641 -0.0127614 0.9997359 0.0127614 0.9997359 0.0127614 0.0002641 -0.0127614
18436593 0.0002577 -0.0124690 0.9997423 0.0124690 0.9997423 0.0124690 0.0002577 -0.0124690
18841959 0.0002516 -0.0121826 0.9997484 0.0121826 0.9997484 0.0121826 0.0002516 -0.0121826
19256237 0.0002459 -0.0119019 0.9997541 0.0119019 0.9997541 0.0119019 0.0002459 -0.0119019
19679624 0.0002404 -0.0116269 0.9997596 0.0116269 0.9997596 0.0116269 0.0002404 -0.0116269
20112321 0.0002353 -0.0113574 0.9997647 0.0113574 0.9997647 0.0113574 0.0002353 -0.0113574
20554530 0.0002304 -0.0110933 0.9997696 0.0110933 0.9997696 0.0110933 0.0002304 -0.0110933
21006463 0.0002257 -0.0108345 0.9997743 0.0108345 0.9997743 0.0108345 0.0002257 -0.0108345
21468333 0.0002214 -0.0105809 0.9997786 0.0105809 0.9997786 0.0105809 0.0002214 -0.0105809
21940357 0.0002172 -0.0103322 0.9997828 0.0103322 0.9997828 0.0103322 0.0002172 -0.0103322
22422760 0.0002133 -0.0100885 0.9997867 0.0100885 0.9997867 0.0100885 0.0002133 -0.0100885
22915770 0.0002096 -0.0098496 0.9997904 0.0098496 0.9997904 0.0098496 0.0002096 -0.0098496
23419619 0.0002062 -0.0096153 0.9997938 0.0096153 0.9997938 0.0096153 0.0002062 -0.0096153
23934547 0.0002029 -0.0093857 0.9997971 0.0093857 0.9997971 0.0093857 0.0002029 -0.0093857
24460796 0.0001998 -0.0091605 0.9998002 0.0091605 0.9998002 0.0091605 0.0001998 -0.0091605
24998616 0.0001970 -0.0089396 0.9998030 0.0089396 0.9998030 0.0089396 0.0001970 -0.0089396
25548261 0.0001943 -0.0087231 0.9998057 0.0087231 0.9998057 0.0087231 0.0001943 -0.0087231
26109991 0.0001918 -0.0085106 0.9998082 0.0085106 0.9998082 0.0085106 0.0001918 -0.0085106
26684072 0.0001895 -0.0083022 0.9998105 0.0083022 0.9998105 0.0083022 0.0001895 -0.0083022
27270775 0.0001873 -0.0080978 0.9998127 0.0080978 0.9998127 0.0080978 0.0001873 -0.0080978
27870378 0.0001853 -0.0078973 0.9998147 0.0078973 0.9998147 0.0078973 0.0001853 -0.0078973
28483164 0.0001834 -0.0077004 0.9998166 0.0077004 0.9998166 0.0077004 0.0001834 -0.0077004
29109424 0.0001817 -0.0075073 0.9998183 0.0075073 0.9998183 0.0075073 0.0001817 -0.0075073
29749453 0.0001802 -0.0073178 0.9998198 0.0073178 0.9998198 0.0073178 0.0001802 -0.0073178
30403555 0.0001788 -0.0071317 0.9998212 0.0071317 0.9998212 0.0071317 0.0001788 -0.0071317
31072038 0.0001775 -0.0069490 0.9998225 0.0069490 0.9998225 0.0069490 0.0001775 -0.0069490
31755220 0.0001764 -0.0067697 0.9998236 0.0067697 0.9998236 0.0067697 0.0001764 -0.0067697
32453422 0.0001753 -0.0065936 0.9998247 0.0065936 0.9998247 0.0065936 0.0001753 -0.0065936
33166976 0.0001745 -0.0064206 0.9998255 0.0064206 0.9998255 0.0064206 0.0001745 -0.0064206
33896219 0.0001737 -0.0062507 0.9998263 0.0062507 0.9998263 0.0062507 0.0001737 -0.0062507
34641496 0.0001731 -0.0060838 0.9998269 0.0060838 0.9998269 0.0060838 0.0001731 -0.0060838
35403159 0.0001725 -0.0059198 0.9998275 0.0059198 0.9998275 0.0059198 0.0001725 -0.0059198
36181569 0.0001721 -0.0057586 0.9998279 0.0057586 0.9998279 0.0057586 0.0001721 -0.0057586
36977093 0.0001718 -0.0056002 0.9998282 0.0056002 0.9998282 0.0056002 0.0001718 -0.0056002
37790109 0.0001716 -0.0054444 0.9998284 0.0054444 0.9998284 0.0054444 0.0001716 -0.0054444
38621001 0.0001716 -0.0052913 0.9998284 0.0052913 0.9998284 0.0052913 0.0001716 -0.0052913
39470161 0.0001716 -0.0051407 0.9998284 0.0051407 0.9998284 0.0051407 0.0001716 -0.0051407
40337993 0.0001717 -0.0049926 0.9998283 0.0049926 0.9998283 0.0049926 0.0001717 -0.0049926
41224905 0.0001719 -0.0048469 0.9998281 0.0048469 0.9998281 0.0048469 0.0001719 -0.0048469
42131317 0.0001723 -0.0047035 0.9998277 0.0047035 0.9998277 0.0047035 0.0001723 -0.0047035
43057659 0.0001727 -0.0045623 0.9998273 0.0045623 0.9998273 0.0045623 0.0001727 -0.0045623
44004369 0.0001732 -0.0044234 0.9998268 0.0044234 0.9998268 0.0044234 0.0001732 -0.0044234
44971893 0.0001739 -0.0042866 0.9998261 0.0042866 0.9998261 0.0042866 0.0001739 -0.0042866
45960691 0.0001746 -0.0041518 0.9998254 0.0041518 0.9998254 0.0041518 0.0001746 -0.0041518
46971230 0.0001754 -0.0040191 0.9998246 0.0040191 0.9998246 0.0040191 0.0001754 -0.0040191
48003987 0.0001763 -0.0038883 0.9998237 0.0038883 0.9998237 0.0038883 0.0001763 -0.0038883
49059451 0.0001773 -0.0037594 0.9998227 0.0037594 0.9998227 0.0037594 0.0001773 -0.0037594
50138122 0.0001784 -0.0036323 0.9998216 0.0036323 0.9998216 0.0036323 0.0001784 -0.0036323
51240510 0.0001796 -0.0035069 0.9998204 0.0035069 0.9998204 0.0035069 0.0001796 -0.0035069
52367136 0.0001808 -0.0033833 0.9998192 0.0033833 0.9998192 0.0033833 0.0001808 -0.0033833
53518533 0.0001822 -0.0032613 0.9998178 0.0032613 0.9998178 0.0032613 0.0001822 -0.0032613
54695245 0.0001836 -0.0031409 0.9998164 0.0031409 0.9998164 0.0031409 0.0001836 -0.0031409
55897831 0.0001852 -0.0030220 0.9998148 0.0030220 0.9998148 0.0030220 0.0001852 -0.0030220
57126857 0.0001868 -0.0029046 0.9998132 0.0029046 0.9998132 0.0029046 0.0001868 -0.0029046
58382906 0.0001885 -0.0027886 0.9998115 0.0027886 0.9998115 0.0027886 0.0001885 -0.0027886
59666572 0.0001903 -0.0026739 0.9998097 0.0026739 0.9998097 0.0026739 0.0001903 -0.0026739
60978462 0.0001922 -0.0025606 0.9998078 0.0025606 0.9998078 0.0025606 0.0001922 -0.0025606
62319196 0.0001941 -0.0024485 0.9998059 0.0024485 0.9998059 0.0024485 0.0001941 -0.0024485
63689409 0.0001962 -0.0023377 0.9998038 0.0023377 0.9998038 0.0023377 0.0001962 -0.0023377
65089750 0.0001983 -0.0022279 0.9998017 0.0022279 0.9998017 0.0022279 0.0001983 -0.0022279
66520879 0.0002005 -0.0021193 0.9997995 0.0021193 0.9997995 0.0021193 0.0002005 -0.0021193
67983474 0.0002028 -0.0020117 0.9997972 0.0020117 0.9997972 0.0020117 0.0002028 -0.0020117
69478228 0.0002052 -0.0019051 0.9997948 0.0019051 0.9997948 0.0019051 0.0002052 -0.0019051
71005847 0.0002077 -0.0017994 0.9997923 0.0017994 0.9997923 0.0017994 0.0002077 -0.0017994
72567054 0.0002102 -0.0016946 0.9997898 0.0016946 0.9997898 0.0016946 0.0002102 -0.0016946
74162587 0.0002129 -0.0015906 0.9997871 0.0015906 0.9997871 0.0015906 0.0002129 -0.0015906
75793201 0.0002156 -0.0014874 0.9997844 0.0014874 0.9997844 0.0014874 0.0002156 -0.0014874
77459667 0.0002184 -0.0013850 0.9997816 0.0013850 0.9997816 0.0013850 0.0002184 -0.0013850
79162774 0.0002213 -0.0012832 0.9997787 0.0012832 0.9997787 0.0012832 0.0002213 -0.0012832
80903327 0.0002243 -0.0011820 0.9997757 0.0011820 0.9997757 0.0011820 0.0002243 -0.0011820
82682150 0.0002274 -0.0010814 0.9997726 0.0010814 0.9997726 0.0010814 0.0002274 -0.0010814
84500083 0.0002306 -0.0009812 0.9997694 0.0009812 0.9997694 0.0009812 0.0002306 -0.0009812
86357988 0.0002339 -0.0008816 0.9997661 0.0008816 0.9997661 0.0008816 0.0002339 -0.0008816
88256743 0.0002373 -0.0007823 0.9997627 0.0007823 0.9997627 0.0007823 0.0002373 -0.0007823
90197245 0.0002408 -0.0006834 0.9997592 0.0006834 0.9997592 0.0006834 0.0002408 -0.0006834
92180413 0.0002444 -0.0005848 0.9997556 0.0005848 0.9997556 0.0005848 0.0002444 -0.0005848
94207185 0.0002481 -0.0004864 0.9997519 0.0004864 0.9997519 0.0004864 0.0002481 -0.0004864
96278520 0.0002519 -0.0003882 0.9997481 0.0003882 0.9997481 0.0003882 0.0002519 -0.0003882
98395398 0.0002559 -0.0002901 0.9997441 0.0002901 0.9997441 0.0002901 0.0002559 -0.0002901
100558819 0.0002600 -0.0001920 0.9997400 0.0001920 0.9997400 0.0001920 0.0002600 -0.0001920
102769807 0.0002642 -0.0000939 0.9997358 0.0000939 0.9997358 0.0000939 0.0002642 -0.0000939
105029408 0.0002686 0.0000042 0.9997314 -0.0000042 0.9997314 -0.0000042 0.0002686 0.0000042
107338692 0.0002731 0.0001025 0.9997269 -0.0001025 0.9997269 -0.0001025 0.0002731 0.0001025
