!Murata Part Number: GRM1552C1H7R1DA01
!These Parameters are Measured in Series Mode Connection
!Data Generated on Mar 30, 2021
!       o--ll--o
!Port1            Port2
!       o------o
!Operation Temp=25[degC], DC Bias Voltage=0[V]
!Freq. Start=100[MHz] Stop=9[GHz] 401[Steps]
# Hz S RI R 50
!Freq.(Hz) S11(Real) S11(Imag) S21(Real) S21(Imag) S12(Real) S12(Imag) S22(Real) S22(Imag)
100000000 0.8335641 -0.3720245 0.1664359 0.3720245 0.1664359 0.3720245 0.8335641 -0.3720245
121000000 0.7736886 -0.4179017 0.2263114 0.4179017 0.2263114 0.4179017 0.7736886 -0.4179017
142000000 0.7126866 -0.4518729 0.2873134 0.4518729 0.2873134 0.4518729 0.7126866 -0.4518729
163000000 0.6528956 -0.4753181 0.3471044 0.4753181 0.3471044 0.4753181 0.6528956 -0.4753181
184000000 0.5959157 -0.4898872 0.4040843 0.4898872 0.4040843 0.4898872 0.5959157 -0.4898872
205000000 0.5427130 -0.4972494 0.4572870 0.4972494 0.4572870 0.4972494 0.5427130 -0.4972494
226000000 0.4937622 -0.4989416 0.5062378 0.4989416 0.5062378 0.4989416 0.4937622 -0.4989416
247000000 0.4491899 -0.4962949 0.5508101 0.4962949 0.5508101 0.4962949 0.4491899 -0.4962949
268000000 0.4088940 -0.4904150 0.5911060 0.4904150 0.5911060 0.4904150 0.4088940 -0.4904150
289000000 0.3726348 -0.4821928 0.6273652 0.4821928 0.6273652 0.4821928 0.3726348 -0.4821928
310000000 0.3401009 -0.4723302 0.6598991 0.4723302 0.6598991 0.4723302 0.3401009 -0.4723302
331000000 0.3109520 -0.4613703 0.6890480 0.4613703 0.6890480 0.4613703 0.3109520 -0.4613703
352000000 0.2848468 -0.4497274 0.7151532 0.4497274 0.7151532 0.4497274 0.2848468 -0.4497274
373000000 0.2614591 -0.4377133 0.7385409 0.4377133 0.7385409 0.4377133 0.2614591 -0.4377133
394000000 0.2404866 -0.4255597 0.7595134 0.4255597 0.7595134 0.4255597 0.2404866 -0.4255597
415000000 0.2216547 -0.4134364 0.7783453 0.4134364 0.7783453 0.4134364 0.2216547 -0.4134364
436000000 0.2047173 -0.4014660 0.7952827 0.4014660 0.7952827 0.4014660 0.2047173 -0.4014660
457000000 0.1894557 -0.3897348 0.8105443 0.3897348 0.8105443 0.3897348 0.1894557 -0.3897348
478000000 0.1756770 -0.3783020 0.8243230 0.3783020 0.8243230 0.3783020 0.1756770 -0.3783020
499000000 0.1632115 -0.3672063 0.8367885 0.3672063 0.8367885 0.3672063 0.1632115 -0.3672063
520000000 0.1519102 -0.3564712 0.8480898 0.3564712 0.8480898 0.3564712 0.1519102 -0.3564712
541000000 0.1416428 -0.3461088 0.8583572 0.3461088 0.8583572 0.3461088 0.1416428 -0.3461088
562000000 0.1322949 -0.3361231 0.8677051 0.3361231 0.8677051 0.3361231 0.1322949 -0.3361231
583000000 0.1237664 -0.3265120 0.8762336 0.3265120 0.8762336 0.3265120 0.1237664 -0.3265120
604000000 0.1159695 -0.3172690 0.8840305 0.3172690 0.8840305 0.3172690 0.1159695 -0.3172690
625000000 0.1088272 -0.3083847 0.8911728 0.3083847 0.8911728 0.3083847 0.1088272 -0.3083847
646000000 0.1022716 -0.2998476 0.8977284 0.2998476 0.8977284 0.2998476 0.1022716 -0.2998476
667000000 0.0962432 -0.2916452 0.9037568 0.2916452 0.9037568 0.2916452 0.0962432 -0.2916452
688000000 0.0906893 -0.2837639 0.9093107 0.2837639 0.9093107 0.2837639 0.0906893 -0.2837639
709000000 0.0855633 -0.2761898 0.9144367 0.2761898 0.9144367 0.2761898 0.0855633 -0.2761898
730000000 0.0808243 -0.2689092 0.9191757 0.2689092 0.9191757 0.2689092 0.0808243 -0.2689092
751000000 0.0764356 -0.2619084 0.9235644 0.2619084 0.9235644 0.2619084 0.0764356 -0.2619084
772000000 0.0723648 -0.2551738 0.9276352 0.2551738 0.9276352 0.2551738 0.0723648 -0.2551738
793000000 0.0685829 -0.2486927 0.9314171 0.2486927 0.9314171 0.2486927 0.0685829 -0.2486927
814000000 0.0650643 -0.2424523 0.9349357 0.2424523 0.9349357 0.2424523 0.0650643 -0.2424523
835000000 0.0617859 -0.2364409 0.9382141 0.2364409 0.9382141 0.2364409 0.0617859 -0.2364409
856000000 0.0587270 -0.2306468 0.9412730 0.2306468 0.9412730 0.2306468 0.0587270 -0.2306468
877000000 0.0558691 -0.2250594 0.9441309 0.2250594 0.9441309 0.2250594 0.0558691 -0.2250594
898000000 0.0531956 -0.2196681 0.9468044 0.2196681 0.9468044 0.2196681 0.0531956 -0.2196681
919000000 0.0506914 -0.2144632 0.9493086 0.2144632 0.9493086 0.2144632 0.0506914 -0.2144632
940000000 0.0483430 -0.2094355 0.9516570 0.2094355 0.9516570 0.2094355 0.0483430 -0.2094355
961000000 0.0461383 -0.2045762 0.9538617 0.2045762 0.9538617 0.2045762 0.0461383 -0.2045762
982000000 0.0440660 -0.1998769 0.9559340 0.1998769 0.9559340 0.1998769 0.0440660 -0.1998769
1003000000 0.0421162 -0.1953299 0.9578838 0.1953299 0.9578838 0.1953299 0.0421162 -0.1953299
1024000000 0.0402797 -0.1909278 0.9597203 0.1909278 0.9597203 0.1909278 0.0402797 -0.1909278
1045000000 0.0385483 -0.1866636 0.9614517 0.1866636 0.9614517 0.1866636 0.0385483 -0.1866636
1066000000 0.0369143 -0.1825308 0.9630857 0.1825308 0.9630857 0.1825308 0.0369143 -0.1825308
1087000000 0.0353709 -0.1785232 0.9646291 0.1785232 0.9646291 0.1785232 0.0353709 -0.1785232
1108000000 0.0339118 -0.1746348 0.9660882 0.1746348 0.9660882 0.1746348 0.0339118 -0.1746348
1129000000 0.0325311 -0.1708602 0.9674689 0.1708602 0.9674689 0.1708602 0.0325311 -0.1708602
1150000000 0.0312236 -0.1671942 0.9687764 0.1671942 0.9687764 0.1671942 0.0312236 -0.1671942
1171000000 0.0299845 -0.1636318 0.9700155 0.1636318 0.9700155 0.1636318 0.0299845 -0.1636318
1192000000 0.0288092 -0.1601684 0.9711908 0.1601684 0.9711908 0.1601684 0.0288092 -0.1601684
1213000000 0.0276937 -0.1567996 0.9723063 0.1567996 0.9723063 0.1567996 0.0276937 -0.1567996
1234000000 0.0266341 -0.1535212 0.9733659 0.1535212 0.9733659 0.1535212 0.0266341 -0.1535212
1255000000 0.0256270 -0.1503293 0.9743730 0.1503293 0.9743730 0.1503293 0.0256270 -0.1503293
1276000000 0.0246692 -0.1472202 0.9753308 0.1472202 0.9753308 0.1472202 0.0246692 -0.1472202
1297000000 0.0237577 -0.1441903 0.9762423 0.1441903 0.9762423 0.1441903 0.0237577 -0.1441903
1318000000 0.0228896 -0.1412364 0.9771104 0.1412364 0.9771104 0.1412364 0.0228896 -0.1412364
1339000000 0.0220625 -0.1383551 0.9779375 0.1383551 0.9779375 0.1383551 0.0220625 -0.1383551
1360000000 0.0212740 -0.1355437 0.9787260 0.1355437 0.9787260 0.1355437 0.0212740 -0.1355437
1381000000 0.0205219 -0.1327992 0.9794781 0.1327992 0.9794781 0.1327992 0.0205219 -0.1327992
1402000000 0.0198042 -0.1301188 0.9801958 0.1301188 0.9801958 0.1301188 0.0198042 -0.1301188
1423000000 0.0191188 -0.1275001 0.9808812 0.1275001 0.9808812 0.1275001 0.0191188 -0.1275001
1444000000 0.0184641 -0.1249407 0.9815359 0.1249407 0.9815359 0.1249407 0.0184641 -0.1249407
1465000000 0.0178384 -0.1224381 0.9821616 0.1224381 0.9821616 0.1224381 0.0178384 -0.1224381
1486000000 0.0172402 -0.1199902 0.9827598 0.1199902 0.9827598 0.1199902 0.0172402 -0.1199902
1507000000 0.0166680 -0.1175950 0.9833320 0.1175950 0.9833320 0.1175950 0.0166680 -0.1175950
1528000000 0.0161204 -0.1152503 0.9838796 0.1152503 0.9838796 0.1152503 0.0161204 -0.1152503
1549000000 0.0155963 -0.1129543 0.9844037 0.1129543 0.9844037 0.1129543 0.0155963 -0.1129543
1570000000 0.0150944 -0.1107053 0.9849056 0.1107053 0.9849056 0.1107053 0.0150944 -0.1107053
1591000000 0.0146136 -0.1085014 0.9853864 0.1085014 0.9853864 0.1085014 0.0146136 -0.1085014
1612000000 0.0141530 -0.1063411 0.9858470 0.1063411 0.9858470 0.1063411 0.0141530 -0.1063411
1633000000 0.0137114 -0.1042227 0.9862886 0.1042227 0.9862886 0.1042227 0.0137114 -0.1042227
1654000000 0.0132880 -0.1021448 0.9867120 0.1021448 0.9867120 0.1021448 0.0132880 -0.1021448
1675000000 0.0128820 -0.1001060 0.9871180 0.1001060 0.9871180 0.1001060 0.0128820 -0.1001060
1696000000 0.0124925 -0.0981048 0.9875075 0.0981048 0.9875075 0.0981048 0.0124925 -0.0981048
1717000000 0.0121188 -0.0961399 0.9878812 0.0961399 0.9878812 0.0961399 0.0121188 -0.0961399
1738000000 0.0117601 -0.0942102 0.9882399 0.0942102 0.9882399 0.0942102 0.0117601 -0.0942102
1759000000 0.0114158 -0.0923144 0.9885842 0.0923144 0.9885842 0.0923144 0.0114158 -0.0923144
1780000000 0.0110853 -0.0904513 0.9889147 0.0904513 0.9889147 0.0904513 0.0110853 -0.0904513
1801000000 0.0107679 -0.0886199 0.9892321 0.0886199 0.9892321 0.0886199 0.0107679 -0.0886199
1822000000 0.0104631 -0.0868191 0.9895369 0.0868191 0.9895369 0.0868191 0.0104631 -0.0868191
1843000000 0.0101704 -0.0850479 0.9898296 0.0850479 0.9898296 0.0850479 0.0101704 -0.0850479
1864000000 0.0098892 -0.0833054 0.9901108 0.0833054 0.9901108 0.0833054 0.0098892 -0.0833054
1885000000 0.0096190 -0.0815905 0.9903810 0.0815905 0.9903810 0.0815905 0.0096190 -0.0815905
1906000000 0.0093595 -0.0799025 0.9906405 0.0799025 0.9906405 0.0799025 0.0093595 -0.0799025
1927000000 0.0091101 -0.0782405 0.9908899 0.0782405 0.9908899 0.0782405 0.0091101 -0.0782405
1948000000 0.0088705 -0.0766036 0.9911295 0.0766036 0.9911295 0.0766036 0.0088705 -0.0766036
1969000000 0.0086403 -0.0749910 0.9913597 0.0749910 0.9913597 0.0749910 0.0086403 -0.0749910
1990000000 0.0084191 -0.0734020 0.9915809 0.0734020 0.9915809 0.0734020 0.0084191 -0.0734020
2011000000 0.0082066 -0.0718359 0.9917934 0.0718359 0.9917934 0.0718359 0.0082066 -0.0718359
2032000000 0.0080024 -0.0702920 0.9919976 0.0702920 0.9919976 0.0702920 0.0080024 -0.0702920
2053000000 0.0078063 -0.0687695 0.9921937 0.0687695 0.9921937 0.0687695 0.0078063 -0.0687695
2074000000 0.0076179 -0.0672679 0.9923821 0.0672679 0.9923821 0.0672679 0.0076179 -0.0672679
2095000000 0.0074370 -0.0657865 0.9925630 0.0657865 0.9925630 0.0657865 0.0074370 -0.0657865
2116000000 0.0072632 -0.0643247 0.9927368 0.0643247 0.9927368 0.0643247 0.0072632 -0.0643247
2137000000 0.0070964 -0.0628819 0.9929036 0.0628819 0.9929036 0.0628819 0.0070964 -0.0628819
2158000000 0.0069362 -0.0614575 0.9930638 0.0614575 0.9930638 0.0614575 0.0069362 -0.0614575
2179000000 0.0067826 -0.0600511 0.9932174 0.0600511 0.9932174 0.0600511 0.0067826 -0.0600511
2200000000 0.0066351 -0.0586621 0.9933649 0.0586621 0.9933649 0.0586621 0.0066351 -0.0586621
2221000000 0.0064937 -0.0572899 0.9935063 0.0572899 0.9935063 0.0572899 0.0064937 -0.0572899
2242000000 0.0063582 -0.0559342 0.9936418 0.0559342 0.9936418 0.0559342 0.0063582 -0.0559342
2263000000 0.0062282 -0.0545943 0.9937718 0.0545943 0.9937718 0.0545943 0.0062282 -0.0545943
2284000000 0.0061038 -0.0532700 0.9938962 0.0532700 0.9938962 0.0532700 0.0061038 -0.0532700
2305000000 0.0059846 -0.0519606 0.9940154 0.0519606 0.9940154 0.0519606 0.0059846 -0.0519606
2326000000 0.0058705 -0.0506659 0.9941295 0.0506659 0.9941295 0.0506659 0.0058705 -0.0506659
2347000000 0.0057614 -0.0493854 0.9942386 0.0493854 0.9942386 0.0493854 0.0057614 -0.0493854
2368000000 0.0056571 -0.0481187 0.9943429 0.0481187 0.9943429 0.0481187 0.0056571 -0.0481187
2389000000 0.0055575 -0.0468654 0.9944425 0.0468654 0.9944425 0.0468654 0.0055575 -0.0468654
2410000000 0.0054625 -0.0456251 0.9945375 0.0456251 0.9945375 0.0456251 0.0054625 -0.0456251
2431000000 0.0053718 -0.0443975 0.9946282 0.0443975 0.9946282 0.0443975 0.0053718 -0.0443975
2452000000 0.0052854 -0.0431822 0.9947146 0.0431822 0.9947146 0.0431822 0.0052854 -0.0431822
2473000000 0.0052032 -0.0419789 0.9947968 0.0419789 0.9947968 0.0419789 0.0052032 -0.0419789
2494000000 0.0051250 -0.0407872 0.9948750 0.0407872 0.9948750 0.0407872 0.0051250 -0.0407872
2515000000 0.0050507 -0.0396069 0.9949493 0.0396069 0.9949493 0.0396069 0.0050507 -0.0396069
2536000000 0.0049803 -0.0384376 0.9950197 0.0384376 0.9950197 0.0384376 0.0049803 -0.0384376
2557000000 0.0049136 -0.0372790 0.9950864 0.0372790 0.9950864 0.0372790 0.0049136 -0.0372790
2578000000 0.0048506 -0.0361309 0.9951494 0.0361309 0.9951494 0.0361309 0.0048506 -0.0361309
2599000000 0.0047911 -0.0349929 0.9952089 0.0349929 0.9952089 0.0349929 0.0047911 -0.0349929
2620000000 0.0047351 -0.0338648 0.9952649 0.0338648 0.9952649 0.0338648 0.0047351 -0.0338648
2641000000 0.0046825 -0.0327462 0.9953175 0.0327462 0.9953175 0.0327462 0.0046825 -0.0327462
2662000000 0.0046331 -0.0316371 0.9953669 0.0316371 0.9953669 0.0316371 0.0046331 -0.0316371
2683000000 0.0045870 -0.0305370 0.9954130 0.0305370 0.9954130 0.0305370 0.0045870 -0.0305370
2704000000 0.0045441 -0.0294457 0.9954559 0.0294457 0.9954559 0.0294457 0.0045441 -0.0294457
2725000000 0.0045042 -0.0283630 0.9954958 0.0283630 0.9954958 0.0283630 0.0045042 -0.0283630
2746000000 0.0044673 -0.0272888 0.9955327 0.0272888 0.9955327 0.0272888 0.0044673 -0.0272888
2767000000 0.0044334 -0.0262226 0.9955666 0.0262226 0.9955666 0.0262226 0.0044334 -0.0262226
2788000000 0.0044024 -0.0251644 0.9955976 0.0251644 0.9955976 0.0251644 0.0044024 -0.0251644
2809000000 0.0043743 -0.0241138 0.9956257 0.0241138 0.9956257 0.0241138 0.0043743 -0.0241138
2830000000 0.0043489 -0.0230708 0.9956511 0.0230708 0.9956511 0.0230708 0.0043489 -0.0230708
2851000000 0.0043263 -0.0220351 0.9956737 0.0220351 0.9956737 0.0220351 0.0043263 -0.0220351
2872000000 0.0043064 -0.0210064 0.9956936 0.0210064 0.9956936 0.0210064 0.0043064 -0.0210064
2893000000 0.0042890 -0.0199846 0.9957110 0.0199846 0.9957110 0.0199846 0.0042890 -0.0199846
2914000000 0.0042743 -0.0189695 0.9957257 0.0189695 0.9957257 0.0189695 0.0042743 -0.0189695
2935000000 0.0042622 -0.0179610 0.9957378 0.0179610 0.9957378 0.0179610 0.0042622 -0.0179610
2956000000 0.0042525 -0.0169587 0.9957475 0.0169587 0.9957475 0.0169587 0.0042525 -0.0169587
2977000000 0.0042453 -0.0159627 0.9957547 0.0159627 0.9957547 0.0159627 0.0042453 -0.0159627
2998000000 0.0042406 -0.0149726 0.9957594 0.0149726 0.9957594 0.0149726 0.0042406 -0.0149726
3019000000 0.0042383 -0.0139883 0.9957617 0.0139883 0.9957617 0.0139883 0.0042383 -0.0139883
3040000000 0.0042383 -0.0130097 0.9957617 0.0130097 0.9957617 0.0130097 0.0042383 -0.0130097
3061000000 0.0042407 -0.0120365 0.9957593 0.0120365 0.9957593 0.0120365 0.0042407 -0.0120365
3082000000 0.0042454 -0.0110687 0.9957546 0.0110687 0.9957546 0.0110687 0.0042454 -0.0110687
3103000000 0.0042523 -0.0101060 0.9957477 0.0101060 0.9957477 0.0101060 0.0042523 -0.0101060
3124000000 0.0042616 -0.0091484 0.9957384 0.0091484 0.9957384 0.0091484 0.0042616 -0.0091484
3145000000 0.0042730 -0.0081956 0.9957270 0.0081956 0.9957270 0.0081956 0.0042730 -0.0081956
3166000000 0.0042867 -0.0072476 0.9957133 0.0072476 0.9957133 0.0072476 0.0042867 -0.0072476
3187000000 0.0043026 -0.0063041 0.9956974 0.0063041 0.9956974 0.0063041 0.0043026 -0.0063041
3208000000 0.0043206 -0.0053651 0.9956794 0.0053651 0.9956794 0.0053651 0.0043206 -0.0053651
3229000000 0.0043408 -0.0044303 0.9956592 0.0044303 0.9956592 0.0044303 0.0043408 -0.0044303
3250000000 0.0043631 -0.0034998 0.9956369 0.0034998 0.9956369 0.0034998 0.0043631 -0.0034998
3271000000 0.0043876 -0.0025732 0.9956124 0.0025732 0.9956124 0.0025732 0.0043876 -0.0025732
3292000000 0.0044142 -0.0016506 0.9955858 0.0016506 0.9955858 0.0016506 0.0044142 -0.0016506
3313000000 0.0044428 -0.0007317 0.9955572 0.0007317 0.9955572 0.0007317 0.0044428 -0.0007317
3334000000 0.0044736 0.0001835 0.9955264 -0.0001835 0.9955264 -0.0001835 0.0044736 0.0001835
3355000000 0.0045064 0.0010952 0.9954936 -0.0010952 0.9954936 -0.0010952 0.0045064 0.0010952
3376000000 0.0045413 0.0020035 0.9954587 -0.0020035 0.9954587 -0.0020035 0.0045413 0.0020035
3397000000 0.0045783 0.0029085 0.9954217 -0.0029085 0.9954217 -0.0029085 0.0045783 0.0029085
3418000000 0.0046173 0.0038104 0.9953827 -0.0038104 0.9953827 -0.0038104 0.0046173 0.0038104
3439000000 0.0046584 0.0047092 0.9953416 -0.0047092 0.9953416 -0.0047092 0.0046584 0.0047092
3460000000 0.0047015 0.0056051 0.9952985 -0.0056051 0.9952985 -0.0056051 0.0047015 0.0056051
3481000000 0.0047467 0.0064981 0.9952533 -0.0064981 0.9952533 -0.0064981 0.0047467 0.0064981
3502000000 0.0047939 0.0073885 0.9952061 -0.0073885 0.9952061 -0.0073885 0.0047939 0.0073885
3523000000 0.0048432 0.0082763 0.9951568 -0.0082763 0.9951568 -0.0082763 0.0048432 0.0082763
3544000000 0.0048946 0.0091616 0.9951054 -0.0091616 0.9951054 -0.0091616 0.0048946 0.0091616
3565000000 0.0049479 0.0100445 0.9950521 -0.0100445 0.9950521 -0.0100445 0.0049479 0.0100445
3586000000 0.0050034 0.0109251 0.9949966 -0.0109251 0.9949966 -0.0109251 0.0050034 0.0109251
3607000000 0.0050609 0.0118035 0.9949391 -0.0118035 0.9949391 -0.0118035 0.0050609 0.0118035
3628000000 0.0051205 0.0126799 0.9948795 -0.0126799 0.9948795 -0.0126799 0.0051205 0.0126799
3649000000 0.0051821 0.0135544 0.9948179 -0.0135544 0.9948179 -0.0135544 0.0051821 0.0135544
3670000000 0.0052459 0.0144270 0.9947541 -0.0144270 0.9947541 -0.0144270 0.0052459 0.0144270
3691000000 0.0053117 0.0152978 0.9946883 -0.0152978 0.9946883 -0.0152978 0.0053117 0.0152978
3712000000 0.0053797 0.0161669 0.9946203 -0.0161669 0.9946203 -0.0161669 0.0053797 0.0161669
3733000000 0.0054498 0.0170345 0.9945502 -0.0170345 0.9945502 -0.0170345 0.0054498 0.0170345
3754000000 0.0055220 0.0179007 0.9944780 -0.0179007 0.9944780 -0.0179007 0.0055220 0.0179007
3775000000 0.0055964 0.0187654 0.9944036 -0.0187654 0.9944036 -0.0187654 0.0055964 0.0187654
3796000000 0.0056730 0.0196289 0.9943270 -0.0196289 0.9943270 -0.0196289 0.0056730 0.0196289
3817000000 0.0057517 0.0204913 0.9942483 -0.0204913 0.9942483 -0.0204913 0.0057517 0.0204913
3838000000 0.0058327 0.0213525 0.9941673 -0.0213525 0.9941673 -0.0213525 0.0058327 0.0213525
3859000000 0.0059159 0.0222128 0.9940841 -0.0222128 0.9940841 -0.0222128 0.0059159 0.0222128
3880000000 0.0060013 0.0230722 0.9939987 -0.0230722 0.9939987 -0.0230722 0.0060013 0.0230722
3901000000 0.0060890 0.0239308 0.9939110 -0.0239308 0.9939110 -0.0239308 0.0060890 0.0239308
3922000000 0.0061791 0.0247887 0.9938209 -0.0247887 0.9938209 -0.0247887 0.0061791 0.0247887
3943000000 0.0062714 0.0256460 0.9937286 -0.0256460 0.9937286 -0.0256460 0.0062714 0.0256460
3964000000 0.0063662 0.0265027 0.9936338 -0.0265027 0.9936338 -0.0265027 0.0063662 0.0265027
3985000000 0.0064633 0.0273591 0.9935367 -0.0273591 0.9935367 -0.0273591 0.0064633 0.0273591
4006000000 0.0065628 0.0282151 0.9934372 -0.0282151 0.9934372 -0.0282151 0.0065628 0.0282151
4027000000 0.0066648 0.0290709 0.9933352 -0.0290709 0.9933352 -0.0290709 0.0066648 0.0290709
4048000000 0.0067693 0.0299265 0.9932307 -0.0299265 0.9932307 -0.0299265 0.0067693 0.0299265
4069000000 0.0068763 0.0307821 0.9931237 -0.0307821 0.9931237 -0.0307821 0.0068763 0.0307821
4090000000 0.0069858 0.0316377 0.9930142 -0.0316377 0.9930142 -0.0316377 0.0069858 0.0316377
4111000000 0.0070980 0.0324935 0.9929020 -0.0324935 0.9929020 -0.0324935 0.0070980 0.0324935
4132000000 0.0072129 0.0333495 0.9927871 -0.0333495 0.9927871 -0.0333495 0.0072129 0.0333495
4153000000 0.0073304 0.0342058 0.9926696 -0.0342058 0.9926696 -0.0342058 0.0073304 0.0342058
4174000000 0.0074506 0.0350625 0.9925494 -0.0350625 0.9925494 -0.0350625 0.0074506 0.0350625
4195000000 0.0075737 0.0359197 0.9924263 -0.0359197 0.9924263 -0.0359197 0.0075737 0.0359197
4216000000 0.0076996 0.0367774 0.9923004 -0.0367774 0.9923004 -0.0367774 0.0076996 0.0367774
4237000000 0.0078284 0.0376359 0.9921716 -0.0376359 0.9921716 -0.0376359 0.0078284 0.0376359
4258000000 0.0079601 0.0384952 0.9920399 -0.0384952 0.9920399 -0.0384952 0.0079601 0.0384952
4279000000 0.0080949 0.0393553 0.9919051 -0.0393553 0.9919051 -0.0393553 0.0080949 0.0393553
4300000000 0.0082327 0.0402164 0.9917673 -0.0402164 0.9917673 -0.0402164 0.0082327 0.0402164
4321000000 0.0083737 0.0410785 0.9916263 -0.0410785 0.9916263 -0.0410785 0.0083737 0.0410785
4342000000 0.0085178 0.0419418 0.9914822 -0.0419418 0.9914822 -0.0419418 0.0085178 0.0419418
4363000000 0.0086652 0.0428064 0.9913348 -0.0428064 0.9913348 -0.0428064 0.0086652 0.0428064
4384000000 0.0088160 0.0436723 0.9911840 -0.0436723 0.9911840 -0.0436723 0.0088160 0.0436723
4405000000 0.0089701 0.0445396 0.9910299 -0.0445396 0.9910299 -0.0445396 0.0089701 0.0445396
4426000000 0.0091278 0.0454085 0.9908722 -0.0454085 0.9908722 -0.0454085 0.0091278 0.0454085
4447000000 0.0092891 0.0462790 0.9907109 -0.0462790 0.9907109 -0.0462790 0.0092891 0.0462790
4468000000 0.0094540 0.0471513 0.9905460 -0.0471513 0.9905460 -0.0471513 0.0094540 0.0471513
4489000000 0.0096226 0.0480254 0.9903774 -0.0480254 0.9903774 -0.0480254 0.0096226 0.0480254
4510000000 0.0097951 0.0489014 0.9902049 -0.0489014 0.9902049 -0.0489014 0.0097951 0.0489014
