!Murata Part Number: GRM1552C1H9R9CA01
!These Parameters are Measured in Series Mode Connection
!Data Generated on Mar 30, 2021
!       o--ll--o
!Port1            Port2
!       o------o
!Operation Temp=25[degC], DC Bias Voltage=0[V]
!Freq. Start=100[MHz] Stop=9[GHz] 401[Steps]
# Hz S RI R 50
!Freq.(Hz) S11(Real) S11(Imag) S21(Real) S21(Imag) S12(Real) S12(Imag) S22(Real) S22(Imag)
100000000 0.7203307 -0.4483682 0.2796693 0.4483682 0.2796693 0.4483682 0.7203307 -0.4483682
121000000 0.6373716 -0.4801907 0.3626284 0.4801907 0.3626284 0.4801907 0.6373716 -0.4801907
142000000 0.5604148 -0.4956683 0.4395852 0.4956683 0.4395852 0.4956683 0.5604148 -0.4956683
163000000 0.4914450 -0.4991574 0.5085550 0.4991574 0.5085550 0.4991574 0.4914450 -0.4991574
184000000 0.4309482 -0.4943375 0.5690518 0.4943375 0.5690518 0.4943375 0.4309482 -0.4943375
205000000 0.3785548 -0.4840524 0.6214452 0.4840524 0.6214452 0.4840524 0.3785548 -0.4840524
226000000 0.3334868 -0.4703801 0.6665132 0.4703801 0.6665132 0.4703801 0.3334868 -0.4703801
247000000 0.2948284 -0.4547815 0.7051716 0.4547815 0.7051716 0.4547815 0.2948284 -0.4547815
268000000 0.2616729 -0.4382544 0.7383271 0.4382544 0.7383271 0.4382544 0.2616729 -0.4382544
289000000 0.2331909 -0.4214634 0.7668091 0.4214634 0.7668091 0.4214634 0.2331909 -0.4214634
310000000 0.2086567 -0.4048391 0.7913433 0.4048391 0.7913433 0.4048391 0.2086567 -0.4048391
331000000 0.1874503 -0.3886514 0.8125497 0.3886514 0.8125497 0.3886514 0.1874503 -0.3886514
352000000 0.1690498 -0.3730611 0.8309502 0.3730611 0.8309502 0.3730611 0.1690498 -0.3730611
373000000 0.1530191 -0.3581554 0.8469809 0.3581554 0.8469809 0.3581554 0.1530191 -0.3581554
394000000 0.1389953 -0.3439734 0.8610047 0.3439734 0.8610047 0.3439734 0.1389953 -0.3439734
415000000 0.1266767 -0.3305222 0.8733233 0.3305222 0.8733233 0.3305222 0.1266767 -0.3305222
436000000 0.1158122 -0.3177890 0.8841878 0.3177890 0.8841878 0.3177890 0.1158122 -0.3177890
457000000 0.1061925 -0.3057485 0.8938075 0.3057485 0.8938075 0.3057485 0.1061925 -0.3057485
478000000 0.0976429 -0.2943684 0.9023571 0.2943684 0.9023571 0.2943684 0.0976429 -0.2943684
499000000 0.0900166 -0.2836127 0.9099834 0.2836127 0.9099834 0.2836127 0.0900166 -0.2836127
520000000 0.0831903 -0.2734439 0.9168097 0.2734439 0.9168097 0.2734439 0.0831903 -0.2734439
541000000 0.0770599 -0.2638247 0.9229401 0.2638247 0.9229401 0.2638247 0.0770599 -0.2638247
562000000 0.0715369 -0.2547188 0.9284631 0.2547188 0.9284631 0.2547188 0.0715369 -0.2547188
583000000 0.0665462 -0.2460915 0.9334538 0.2460915 0.9334538 0.2460915 0.0665462 -0.2460915
604000000 0.0620236 -0.2379101 0.9379764 0.2379101 0.9379764 0.2379101 0.0620236 -0.2379101
625000000 0.0579141 -0.2301438 0.9420859 0.2301438 0.9420859 0.2301438 0.0579141 -0.2301438
646000000 0.0541704 -0.2227638 0.9458296 0.2227638 0.9458296 0.2227638 0.0541704 -0.2227638
667000000 0.0507514 -0.2157437 0.9492486 0.2157437 0.9492486 0.2157437 0.0507514 -0.2157437
688000000 0.0476218 -0.2090588 0.9523782 0.2090588 0.9523782 0.2090588 0.0476218 -0.2090588
709000000 0.0447506 -0.2026862 0.9552494 0.2026862 0.9552494 0.2026862 0.0447506 -0.2026862
730000000 0.0421112 -0.1966051 0.9578888 0.1966051 0.9578888 0.1966051 0.0421112 -0.1966051
751000000 0.0396798 -0.1907959 0.9603202 0.1907959 0.9603202 0.1907959 0.0396798 -0.1907959
772000000 0.0374358 -0.1852409 0.9625642 0.1852409 0.9625642 0.1852409 0.0374358 -0.1852409
793000000 0.0353610 -0.1799234 0.9646390 0.1799234 0.9646390 0.1799234 0.0353610 -0.1799234
814000000 0.0334394 -0.1748284 0.9665606 0.1748284 0.9665606 0.1748284 0.0334394 -0.1748284
835000000 0.0316567 -0.1699418 0.9683433 0.1699418 0.9683433 0.1699418 0.0316567 -0.1699418
856000000 0.0300004 -0.1652506 0.9699996 0.1652506 0.9699996 0.1652506 0.0300004 -0.1652506
877000000 0.0284591 -0.1607429 0.9715409 0.1607429 0.9715409 0.1607429 0.0284591 -0.1607429
898000000 0.0270229 -0.1564075 0.9729771 0.1564075 0.9729771 0.1564075 0.0270229 -0.1564075
919000000 0.0256827 -0.1522343 0.9743173 0.1522343 0.9743173 0.1522343 0.0256827 -0.1522343
940000000 0.0244306 -0.1482137 0.9755694 0.1482137 0.9755694 0.1482137 0.0244306 -0.1482137
961000000 0.0232594 -0.1443370 0.9767406 0.1443370 0.9767406 0.1443370 0.0232594 -0.1443370
982000000 0.0221625 -0.1405959 0.9778375 0.1405959 0.9778375 0.1405959 0.0221625 -0.1405959
1003000000 0.0211341 -0.1369830 0.9788659 0.1369830 0.9788659 0.1369830 0.0211341 -0.1369830
1024000000 0.0201689 -0.1334911 0.9798311 0.1334911 0.9798311 0.1334911 0.0201689 -0.1334911
1045000000 0.0192621 -0.1301137 0.9807379 0.1301137 0.9807379 0.1301137 0.0192621 -0.1301137
1066000000 0.0184094 -0.1268447 0.9815906 0.1268447 0.9815906 0.1268447 0.0184094 -0.1268447
1087000000 0.0176067 -0.1236784 0.9823933 0.1236784 0.9823933 0.1236784 0.0176067 -0.1236784
1108000000 0.0168506 -0.1206094 0.9831494 0.1206094 0.9831494 0.1206094 0.0168506 -0.1206094
1129000000 0.0161376 -0.1176328 0.9838624 0.1176328 0.9838624 0.1176328 0.0161376 -0.1176328
1150000000 0.0154649 -0.1147440 0.9845351 0.1147440 0.9845351 0.1147440 0.0154649 -0.1147440
1171000000 0.0148297 -0.1119385 0.9851703 0.1119385 0.9851703 0.1119385 0.0148297 -0.1119385
1192000000 0.0142294 -0.1092124 0.9857706 0.1092124 0.9857706 0.1092124 0.0142294 -0.1092124
1213000000 0.0136619 -0.1065617 0.9863381 0.1065617 0.9863381 0.1065617 0.0136619 -0.1065617
1234000000 0.0131248 -0.1039830 0.9868752 0.1039830 0.9868752 0.1039830 0.0131248 -0.1039830
1255000000 0.0126164 -0.1014728 0.9873836 0.1014728 0.9873836 0.1014728 0.0126164 -0.1014728
1276000000 0.0121348 -0.0990280 0.9878652 0.0990280 0.9878652 0.0990280 0.0121348 -0.0990280
1297000000 0.0116784 -0.0966455 0.9883216 0.0966455 0.9883216 0.0966455 0.0116784 -0.0966455
1318000000 0.0112456 -0.0943227 0.9887544 0.0943227 0.9887544 0.0943227 0.0112456 -0.0943227
1339000000 0.0108350 -0.0920568 0.9891650 0.0920568 0.9891650 0.0920568 0.0108350 -0.0920568
1360000000 0.0104453 -0.0898453 0.9895547 0.0898453 0.9895547 0.0898453 0.0104453 -0.0898453
1381000000 0.0100753 -0.0876859 0.9899247 0.0876859 0.9899247 0.0876859 0.0100753 -0.0876859
1402000000 0.0097239 -0.0855764 0.9902761 0.0855764 0.9902761 0.0855764 0.0097239 -0.0855764
1423000000 0.0093901 -0.0835146 0.9906099 0.0835146 0.9906099 0.0835146 0.0093901 -0.0835146
1444000000 0.0090728 -0.0814987 0.9909272 0.0814987 0.9909272 0.0814987 0.0090728 -0.0814987
1465000000 0.0087711 -0.0795266 0.9912289 0.0795266 0.9912289 0.0795266 0.0087711 -0.0795266
1486000000 0.0084843 -0.0775966 0.9915157 0.0775966 0.9915157 0.0775966 0.0084843 -0.0775966
1507000000 0.0082115 -0.0757070 0.9917885 0.0757070 0.9917885 0.0757070 0.0082115 -0.0757070
1528000000 0.0079520 -0.0738563 0.9920480 0.0738563 0.9920480 0.0738563 0.0079520 -0.0738563
1549000000 0.0077051 -0.0720428 0.9922949 0.0720428 0.9922949 0.0720428 0.0077051 -0.0720428
1570000000 0.0074702 -0.0702651 0.9925298 0.0702651 0.9925298 0.0702651 0.0074702 -0.0702651
1591000000 0.0072467 -0.0685219 0.9927533 0.0685219 0.9927533 0.0685219 0.0072467 -0.0685219
1612000000 0.0070340 -0.0668119 0.9929660 0.0668119 0.9929660 0.0668119 0.0070340 -0.0668119
1633000000 0.0068316 -0.0651338 0.9931684 0.0651338 0.9931684 0.0651338 0.0068316 -0.0651338
1654000000 0.0066389 -0.0634864 0.9933611 0.0634864 0.9933611 0.0634864 0.0066389 -0.0634864
1675000000 0.0064557 -0.0618686 0.9935443 0.0618686 0.9935443 0.0618686 0.0064557 -0.0618686
1696000000 0.0062813 -0.0602793 0.9937187 0.0602793 0.9937187 0.0602793 0.0062813 -0.0602793
1717000000 0.0061154 -0.0587174 0.9938846 0.0587174 0.9938846 0.0587174 0.0061154 -0.0587174
1738000000 0.0059576 -0.0571821 0.9940424 0.0571821 0.9940424 0.0571821 0.0059576 -0.0571821
1759000000 0.0058076 -0.0556724 0.9941924 0.0556724 0.9941924 0.0556724 0.0058076 -0.0556724
1780000000 0.0056649 -0.0541873 0.9943351 0.0541873 0.9943351 0.0541873 0.0056649 -0.0541873
1801000000 0.0055294 -0.0527260 0.9944706 0.0527260 0.9944706 0.0527260 0.0055294 -0.0527260
1822000000 0.0054006 -0.0512878 0.9945994 0.0512878 0.9945994 0.0512878 0.0054006 -0.0512878
1843000000 0.0052783 -0.0498717 0.9947217 0.0498717 0.9947217 0.0498717 0.0052783 -0.0498717
1864000000 0.0051623 -0.0484772 0.9948377 0.0484772 0.9948377 0.0484772 0.0051623 -0.0484772
1885000000 0.0050522 -0.0471033 0.9949478 0.0471033 0.9949478 0.0471033 0.0050522 -0.0471033
1906000000 0.0049478 -0.0457495 0.9950522 0.0457495 0.9950522 0.0457495 0.0049478 -0.0457495
1927000000 0.0048490 -0.0444152 0.9951510 0.0444152 0.9951510 0.0444152 0.0048490 -0.0444152
1948000000 0.0047554 -0.0430996 0.9952446 0.0430996 0.9952446 0.0430996 0.0047554 -0.0430996
1969000000 0.0046669 -0.0418021 0.9953331 0.0418021 0.9953331 0.0418021 0.0046669 -0.0418021
1990000000 0.0045833 -0.0405222 0.9954167 0.0405222 0.9954167 0.0405222 0.0045833 -0.0405222
2011000000 0.0045044 -0.0392593 0.9954956 0.0392593 0.9954956 0.0392593 0.0045044 -0.0392593
2032000000 0.0044300 -0.0380129 0.9955700 0.0380129 0.9955700 0.0380129 0.0044300 -0.0380129
2053000000 0.0043600 -0.0367825 0.9956400 0.0367825 0.9956400 0.0367825 0.0043600 -0.0367825
2074000000 0.0042942 -0.0355675 0.9957058 0.0355675 0.9957058 0.0355675 0.0042942 -0.0355675
2095000000 0.0042325 -0.0343675 0.9957675 0.0343675 0.9957675 0.0343675 0.0042325 -0.0343675
2116000000 0.0041747 -0.0331820 0.9958253 0.0331820 0.9958253 0.0331820 0.0041747 -0.0331820
2137000000 0.0041207 -0.0320106 0.9958793 0.0320106 0.9958793 0.0320106 0.0041207 -0.0320106
2158000000 0.0040703 -0.0308528 0.9959297 0.0308528 0.9959297 0.0308528 0.0040703 -0.0308528
2179000000 0.0040235 -0.0297083 0.9959765 0.0297083 0.9959765 0.0297083 0.0040235 -0.0297083
2200000000 0.0039801 -0.0285766 0.9960199 0.0285766 0.9960199 0.0285766 0.0039801 -0.0285766
2221000000 0.0039400 -0.0274574 0.9960600 0.0274574 0.9960600 0.0274574 0.0039400 -0.0274574
2242000000 0.0039031 -0.0263502 0.9960969 0.0263502 0.9960969 0.0263502 0.0039031 -0.0263502
2263000000 0.0038693 -0.0252548 0.9961307 0.0252548 0.9961307 0.0252548 0.0038693 -0.0252548
2284000000 0.0038386 -0.0241707 0.9961614 0.0241707 0.9961614 0.0241707 0.0038386 -0.0241707
2305000000 0.0038108 -0.0230977 0.9961892 0.0230977 0.9961892 0.0230977 0.0038108 -0.0230977
2326000000 0.0037858 -0.0220354 0.9962142 0.0220354 0.9962142 0.0220354 0.0037858 -0.0220354
2347000000 0.0037636 -0.0209835 0.9962364 0.0209835 0.9962364 0.0209835 0.0037636 -0.0209835
2368000000 0.0037441 -0.0199418 0.9962559 0.0199418 0.9962559 0.0199418 0.0037441 -0.0199418
2389000000 0.0037272 -0.0189098 0.9962728 0.0189098 0.9962728 0.0189098 0.0037272 -0.0189098
2410000000 0.0037129 -0.0178874 0.9962871 0.0178874 0.9962871 0.0178874 0.0037129 -0.0178874
2431000000 0.0037010 -0.0168743 0.9962990 0.0168743 0.9962990 0.0168743 0.0037010 -0.0168743
2452000000 0.0036915 -0.0158702 0.9963085 0.0158702 0.9963085 0.0158702 0.0036915 -0.0158702
2473000000 0.0036844 -0.0148748 0.9963156 0.0148748 0.9963156 0.0148748 0.0036844 -0.0148748
2494000000 0.0036796 -0.0138879 0.9963204 0.0138879 0.9963204 0.0138879 0.0036796 -0.0138879
2515000000 0.0036770 -0.0129093 0.9963230 0.0129093 0.9963230 0.0129093 0.0036770 -0.0129093
2536000000 0.0036766 -0.0119387 0.9963234 0.0119387 0.9963234 0.0119387 0.0036766 -0.0119387
2557000000 0.0036784 -0.0109759 0.9963216 0.0109759 0.9963216 0.0109759 0.0036784 -0.0109759
2578000000 0.0036823 -0.0100207 0.9963177 0.0100207 0.9963177 0.0100207 0.0036823 -0.0100207
2599000000 0.0036882 -0.0090729 0.9963118 0.0090729 0.9963118 0.0090729 0.0036882 -0.0090729
2620000000 0.0036961 -0.0081322 0.9963039 0.0081322 0.9963039 0.0081322 0.0036961 -0.0081322
2641000000 0.0037059 -0.0071985 0.9962941 0.0071985 0.9962941 0.0071985 0.0037059 -0.0071985
2662000000 0.0037177 -0.0062716 0.9962823 0.0062716 0.9962823 0.0062716 0.0037177 -0.0062716
2683000000 0.0037314 -0.0053512 0.9962686 0.0053512 0.9962686 0.0053512 0.0037314 -0.0053512
2704000000 0.0037470 -0.0044373 0.9962530 0.0044373 0.9962530 0.0044373 0.0037470 -0.0044373
2725000000 0.0037643 -0.0035295 0.9962357 0.0035295 0.9962357 0.0035295 0.0037643 -0.0035295
2746000000 0.0037835 -0.0026279 0.9962165 0.0026279 0.9962165 0.0026279 0.0037835 -0.0026279
2767000000 0.0038044 -0.0017320 0.9961956 0.0017320 0.9961956 0.0017320 0.0038044 -0.0017320
2788000000 0.0038270 -0.0008419 0.9961730 0.0008419 0.9961730 0.0008419 0.0038270 -0.0008419
2809000000 0.0038514 0.0000426 0.9961486 -0.0000426 0.9961486 -0.0000426 0.0038514 0.0000426
2830000000 0.0038774 0.0009218 0.9961226 -0.0009218 0.9961226 -0.0009218 0.0038774 0.0009218
2851000000 0.0039051 0.0017957 0.9960949 -0.0017957 0.9960949 -0.0017957 0.0039051 0.0017957
2872000000 0.0039344 0.0026646 0.9960656 -0.0026646 0.9960656 -0.0026646 0.0039344 0.0026646
2893000000 0.0039653 0.0035285 0.9960347 -0.0035285 0.9960347 -0.0035285 0.0039653 0.0035285
2914000000 0.0039978 0.0043875 0.9960022 -0.0043875 0.9960022 -0.0043875 0.0039978 0.0043875
2935000000 0.0040319 0.0052419 0.9959681 -0.0052419 0.9959681 -0.0052419 0.0040319 0.0052419
2956000000 0.0040676 0.0060918 0.9959324 -0.0060918 0.9959324 -0.0060918 0.0040676 0.0060918
2977000000 0.0041048 0.0069373 0.9958952 -0.0069373 0.9958952 -0.0069373 0.0041048 0.0069373
2998000000 0.0041435 0.0077785 0.9958565 -0.0077785 0.9958565 -0.0077785 0.0041435 0.0077785
3019000000 0.0041837 0.0086155 0.9958163 -0.0086155 0.9958163 -0.0086155 0.0041837 0.0086155
3040000000 0.0042254 0.0094485 0.9957746 -0.0094485 0.9957746 -0.0094485 0.0042254 0.0094485
3061000000 0.0042686 0.0102776 0.9957314 -0.0102776 0.9957314 -0.0102776 0.0042686 0.0102776
3082000000 0.0043133 0.0111029 0.9956867 -0.0111029 0.9956867 -0.0111029 0.0043133 0.0111029
3103000000 0.0043594 0.0119246 0.9956406 -0.0119246 0.9956406 -0.0119246 0.0043594 0.0119246
3124000000 0.0044070 0.0127426 0.9955930 -0.0127426 0.9955930 -0.0127426 0.0044070 0.0127426
3145000000 0.0044560 0.0135572 0.9955440 -0.0135572 0.9955440 -0.0135572 0.0044560 0.0135572
3166000000 0.0045064 0.0143684 0.9954936 -0.0143684 0.9954936 -0.0143684 0.0045064 0.0143684
3187000000 0.0045583 0.0151764 0.9954417 -0.0151764 0.9954417 -0.0151764 0.0045583 0.0151764
3208000000 0.0046116 0.0159813 0.9953884 -0.0159813 0.9953884 -0.0159813 0.0046116 0.0159813
3229000000 0.0046663 0.0167831 0.9953337 -0.0167831 0.9953337 -0.0167831 0.0046663 0.0167831
3250000000 0.0047225 0.0175820 0.9952775 -0.0175820 0.9952775 -0.0175820 0.0047225 0.0175820
3271000000 0.0047800 0.0183780 0.9952200 -0.0183780 0.9952200 -0.0183780 0.0047800 0.0183780
3292000000 0.0048389 0.0191712 0.9951611 -0.0191712 0.9951611 -0.0191712 0.0048389 0.0191712
3313000000 0.0048993 0.0199618 0.9951007 -0.0199618 0.9951007 -0.0199618 0.0048993 0.0199618
3334000000 0.0049610 0.0207498 0.9950390 -0.0207498 0.9950390 -0.0207498 0.0049610 0.0207498
3355000000 0.0050242 0.0215354 0.9949758 -0.0215354 0.9949758 -0.0215354 0.0050242 0.0215354
3376000000 0.0050887 0.0223185 0.9949113 -0.0223185 0.9949113 -0.0223185 0.0050887 0.0223185
3397000000 0.0051547 0.0230994 0.9948453 -0.0230994 0.9948453 -0.0230994 0.0051547 0.0230994
3418000000 0.0052221 0.0238780 0.9947779 -0.0238780 0.9947779 -0.0238780 0.0052221 0.0238780
3439000000 0.0052908 0.0246544 0.9947092 -0.0246544 0.9947092 -0.0246544 0.0052908 0.0246544
3460000000 0.0053610 0.0254289 0.9946390 -0.0254289 0.9946390 -0.0254289 0.0053610 0.0254289
3481000000 0.0054326 0.0262013 0.9945674 -0.0262013 0.9945674 -0.0262013 0.0054326 0.0262013
3502000000 0.0055056 0.0269719 0.9944944 -0.0269719 0.9944944 -0.0269719 0.0055056 0.0269719
3523000000 0.0055801 0.0277406 0.9944199 -0.0277406 0.9944199 -0.0277406 0.0055801 0.0277406
3544000000 0.0056560 0.0285076 0.9943440 -0.0285076 0.9943440 -0.0285076 0.0056560 0.0285076
3565000000 0.0057333 0.0292729 0.9942667 -0.0292729 0.9942667 -0.0292729 0.0057333 0.0292729
3586000000 0.0058120 0.0300367 0.9941880 -0.0300367 0.9941880 -0.0300367 0.0058120 0.0300367
3607000000 0.0058923 0.0307989 0.9941077 -0.0307989 0.9941077 -0.0307989 0.0058923 0.0307989
3628000000 0.0059739 0.0315597 0.9940261 -0.0315597 0.9940261 -0.0315597 0.0059739 0.0315597
3649000000 0.0060571 0.0323191 0.9939429 -0.0323191 0.9939429 -0.0323191 0.0060571 0.0323191
3670000000 0.0061418 0.0330773 0.9938582 -0.0330773 0.9938582 -0.0330773 0.0061418 0.0330773
3691000000 0.0062279 0.0338342 0.9937721 -0.0338342 0.9937721 -0.0338342 0.0062279 0.0338342
3712000000 0.0063156 0.0345900 0.9936844 -0.0345900 0.9936844 -0.0345900 0.0063156 0.0345900
3733000000 0.0064048 0.0353446 0.9935952 -0.0353446 0.9935952 -0.0353446 0.0064048 0.0353446
3754000000 0.0064955 0.0360983 0.9935045 -0.0360983 0.9935045 -0.0360983 0.0064955 0.0360983
3775000000 0.0065878 0.0368510 0.9934122 -0.0368510 0.9934122 -0.0368510 0.0065878 0.0368510
3796000000 0.0066817 0.0376028 0.9933183 -0.0376028 0.9933183 -0.0376028 0.0066817 0.0376028
3817000000 0.0067772 0.0383538 0.9932228 -0.0383538 0.9932228 -0.0383538 0.0067772 0.0383538
3838000000 0.0068742 0.0391041 0.9931258 -0.0391041 0.9931258 -0.0391041 0.0068742 0.0391041
3859000000 0.0069729 0.0398537 0.9930271 -0.0398537 0.9930271 -0.0398537 0.0069729 0.0398537
3880000000 0.0070733 0.0406026 0.9929267 -0.0406026 0.9929267 -0.0406026 0.0070733 0.0406026
3901000000 0.0071754 0.0413511 0.9928246 -0.0413511 0.9928246 -0.0413511 0.0071754 0.0413511
3922000000 0.0072791 0.0420990 0.9927209 -0.0420990 0.9927209 -0.0420990 0.0072791 0.0420990
3943000000 0.0073846 0.0428465 0.9926154 -0.0428465 0.9926154 -0.0428465 0.0073846 0.0428465
3964000000 0.0074918 0.0435936 0.9925082 -0.0435936 0.9925082 -0.0435936 0.0074918 0.0435936
3985000000 0.0076009 0.0443405 0.9923991 -0.0443405 0.9923991 -0.0443405 0.0076009 0.0443405
4006000000 0.0077117 0.0450871 0.9922883 -0.0450871 0.9922883 -0.0450871 0.0077117 0.0450871
4027000000 0.0078244 0.0458335 0.9921756 -0.0458335 0.9921756 -0.0458335 0.0078244 0.0458335
4048000000 0.0079390 0.0465798 0.9920610 -0.0465798 0.9920610 -0.0465798 0.0079390 0.0465798
4069000000 0.0080554 0.0473261 0.9919446 -0.0473261 0.9919446 -0.0473261 0.0080554 0.0473261
4090000000 0.0081739 0.0480724 0.9918261 -0.0480724 0.9918261 -0.0480724 0.0081739 0.0480724
4111000000 0.0082943 0.0488188 0.9917057 -0.0488188 0.9917057 -0.0488188 0.0082943 0.0488188
4132000000 0.0084168 0.0495653 0.9915832 -0.0495653 0.9915832 -0.0495653 0.0084168 0.0495653
4153000000 0.0085413 0.0503120 0.9914587 -0.0503120 0.9914587 -0.0503120 0.0085413 0.0503120
4174000000 0.0086680 0.0510589 0.9913320 -0.0510589 0.9913320 -0.0510589 0.0086680 0.0510589
4195000000 0.0087969 0.0518062 0.9912031 -0.0518062 0.9912031 -0.0518062 0.0087969 0.0518062
4216000000 0.0089280 0.0525538 0.9910720 -0.0525538 0.9910720 -0.0525538 0.0089280 0.0525538
4237000000 0.0090613 0.0533019 0.9909387 -0.0533019 0.9909387 -0.0533019 0.0090613 0.0533019
4258000000 0.0091971 0.0540505 0.9908029 -0.0540505 0.9908029 -0.0540505 0.0091971 0.0540505
4279000000 0.0093352 0.0547996 0.9906648 -0.0547996 0.9906648 -0.0547996 0.0093352 0.0547996
4300000000 0.0094759 0.0555494 0.9905241 -0.0555494 0.9905241 -0.0555494 0.0094759 0.0555494
4321000000 0.0096190 0.0562998 0.9903810 -0.0562998 0.9903810 -0.0562998 0.0096190 0.0562998
4342000000 0.0097649 0.0570509 0.9902351 -0.0570509 0.9902351 -0.0570509 0.0097649 0.0570509
4363000000 0.0099134 0.0578029 0.9900866 -0.0578029 0.9900866 -0.0578029 0.0099134 0.0578029
4384000000 0.0100647 0.0585556 0.9899353 -0.0585556 0.9899353 -0.0585556 0.0100647 0.0585556
4405000000 0.0102190 0.0593093 0.9897810 -0.0593093 0.9897810 -0.0593093 0.0102190 0.0593093
4426000000 0.0103762 0.0600638 0.9896238 -0.0600638 0.9896238 -0.0600638 0.0103762 0.0600638
4447000000 0.0105366 0.0608194 0.9894634 -0.0608194 0.9894634 -0.0608194 0.0105366 0.0608194
4468000000 0.0107001 0.0615760 0.9892999 -0.0615760 0.9892999 -0.0615760 0.0107001 0.0615760
4489000000 0.0108671 0.0623337 0.9891329 -0.0623337 0.9891329 -0.0623337 0.0108671 0.0623337
4510000000 0.0110375 0.0630925 0.9889625 -0.0630925 0.9889625 -0.0630925 0.0110375 0.0630925
