!Murata Part Number: GRM1552C1H102GA01
!These Parameters are Measured in Series Mode Connection
!Data Generated on Mar 30, 2021
!       o--ll--o
!Port1            Port2
!       o------o
!Operation Temp=25[degC], DC Bias Voltage=0[V]
!Freq. Start=1000[kHz] Stop=6[GHz] 401[Steps]
# Hz S RI R 50
!Freq.(Hz) S11(Real) S11(Imag) S21(Real) S21(Imag) S12(Real) S12(Imag) S22(Real) S22(Imag)
1000000 0.7197455 -0.4490779 0.2802545 0.4490779 0.2802545 0.4490779 0.7197455 -0.4490779
1021987 0.7108885 -0.4533032 0.2891115 0.4533032 0.2891115 0.4533032 0.7108885 -0.4533032
1044457 0.7018675 -0.4573904 0.2981325 0.4573904 0.2981325 0.4573904 0.7018675 -0.4573904
1067422 0.6926867 -0.4613317 0.3073133 0.4613317 0.3073133 0.4613317 0.6926867 -0.4613317
1090891 0.6833507 -0.4651196 0.3166493 0.4651196 0.3166493 0.4651196 0.6833507 -0.4651196
1114877 0.6738647 -0.4687466 0.3261353 0.4687466 0.3261353 0.4687466 0.6738647 -0.4687466
1139390 0.6642341 -0.4722055 0.3357659 0.4722055 0.3357659 0.4722055 0.6642341 -0.4722055
1164441 0.6544650 -0.4754893 0.3455350 0.4754893 0.3455350 0.4754893 0.6544650 -0.4754893
1190044 0.6445637 -0.4785910 0.3554363 0.4785910 0.3554363 0.4785910 0.6445637 -0.4785910
1216210 0.6345372 -0.4815042 0.3654628 0.4815042 0.3654628 0.4815042 0.6345372 -0.4815042
1242950 0.6243927 -0.4842226 0.3756073 0.4842226 0.3756073 0.4842226 0.6243927 -0.4842226
1270279 0.6141378 -0.4867403 0.3858622 0.4867403 0.3858622 0.4867403 0.6141378 -0.4867403
1298209 0.6037806 -0.4890518 0.3962194 0.4890518 0.3962194 0.4890518 0.6037806 -0.4890518
1326753 0.5933296 -0.4911518 0.4066704 0.4911518 0.4066704 0.4911518 0.5933296 -0.4911518
1355924 0.5827933 -0.4930357 0.4172067 0.4930357 0.4172067 0.4930357 0.5827933 -0.4930357
1385737 0.5721810 -0.4946992 0.4278190 0.4946992 0.4278190 0.4946992 0.5721810 -0.4946992
1416205 0.5615018 -0.4961384 0.4384982 0.4961384 0.4384982 0.4961384 0.5615018 -0.4961384
1447343 0.5507654 -0.4973501 0.4492346 0.4973501 0.4492346 0.4973501 0.5507654 -0.4973501
1479166 0.5399814 -0.4983314 0.4600186 0.4983314 0.4600186 0.4983314 0.5399814 -0.4983314
1511688 0.5291600 -0.4990799 0.4708400 0.4990799 0.4708400 0.4990799 0.5291600 -0.4990799
1544926 0.5183110 -0.4995940 0.4816890 0.4995940 0.4816890 0.4995940 0.5183110 -0.4995940
1578894 0.5074448 -0.4998724 0.4925552 0.4998724 0.4925552 0.4998724 0.5074448 -0.4998724
1613609 0.4965716 -0.4999145 0.5034284 0.4999145 0.5034284 0.4999145 0.4965716 -0.4999145
1649087 0.4857017 -0.4997201 0.5142983 0.4997201 0.5142983 0.4997201 0.4857017 -0.4997201
1685346 0.4748453 -0.4992898 0.5251547 0.4992898 0.5251547 0.4992898 0.4748453 -0.4992898
1722402 0.4640126 -0.4986244 0.5359874 0.4986244 0.5359874 0.4986244 0.4640126 -0.4986244
1760272 0.4532139 -0.4977257 0.5467861 0.4977257 0.5467861 0.4977257 0.4532139 -0.4977257
1798975 0.4424590 -0.4965957 0.5575410 0.4965957 0.5575410 0.4965957 0.4424590 -0.4965957
1838529 0.4317578 -0.4952370 0.5682422 0.4952370 0.5682422 0.4952370 0.4317578 -0.4952370
1878953 0.4211200 -0.4936527 0.5788800 0.4936527 0.5788800 0.4936527 0.4211200 -0.4936527
1920266 0.4105550 -0.4918466 0.5894450 0.4918466 0.5894450 0.4918466 0.4105550 -0.4918466
1962487 0.4000719 -0.4898227 0.5999281 0.4898227 0.5999281 0.4898227 0.4000719 -0.4898227
2005636 0.3896795 -0.4875857 0.6103205 0.4875857 0.6103205 0.4875857 0.3896795 -0.4875857
2049734 0.3793864 -0.4851404 0.6206136 0.4851404 0.6206136 0.4851404 0.3793864 -0.4851404
2094801 0.3692008 -0.4824924 0.6307992 0.4824924 0.6307992 0.4824924 0.3692008 -0.4824924
2140860 0.3591304 -0.4796473 0.6408696 0.4796473 0.6408696 0.4796473 0.3591304 -0.4796473
2187931 0.3491827 -0.4766114 0.6508173 0.4766114 0.6508173 0.4766114 0.3491827 -0.4766114
2236037 0.3393647 -0.4733911 0.6606353 0.4733911 0.6606353 0.4733911 0.3393647 -0.4733911
2285201 0.3296829 -0.4699931 0.6703171 0.4699931 0.6703171 0.4699931 0.3296829 -0.4699931
2335446 0.3201436 -0.4664243 0.6798564 0.4664243 0.6798564 0.4664243 0.3201436 -0.4664243
2386795 0.3107524 -0.4626919 0.6892476 0.4626919 0.6892476 0.4626919 0.3107524 -0.4626919
2439274 0.3015145 -0.4588034 0.6984855 0.4588034 0.6984855 0.4588034 0.3015145 -0.4588034
2492906 0.2924347 -0.4547663 0.7075653 0.4547663 0.7075653 0.4547663 0.2924347 -0.4547663
2547717 0.2835175 -0.4505882 0.7164825 0.4505882 0.7164825 0.4505882 0.2835175 -0.4505882
2603734 0.2747667 -0.4462768 0.7252333 0.4462768 0.7252333 0.4462768 0.2747667 -0.4462768
2660982 0.2661856 -0.4418399 0.7338144 0.4418399 0.7338144 0.4418399 0.2661856 -0.4418399
2719490 0.2577774 -0.4372855 0.7422226 0.4372855 0.7422226 0.4372855 0.2577774 -0.4372855
2779283 0.2495445 -0.4326212 0.7504555 0.4326212 0.7504555 0.4326212 0.2495445 -0.4326212
2840391 0.2414890 -0.4278550 0.7585110 0.4278550 0.7585110 0.4278550 0.2414890 -0.4278550
2902843 0.2336127 -0.4229946 0.7663873 0.4229946 0.7663873 0.4229946 0.2336127 -0.4229946
2966668 0.2259169 -0.4180477 0.7740831 0.4180477 0.7740831 0.4180477 0.2259169 -0.4180477
3031896 0.2184024 -0.4130218 0.7815976 0.4130218 0.7815976 0.4130218 0.2184024 -0.4130218
3098558 0.2110697 -0.4079244 0.7889303 0.4079244 0.7889303 0.4079244 0.2110697 -0.4079244
3166686 0.2039191 -0.4027630 0.7960809 0.4027630 0.7960809 0.4027630 0.2039191 -0.4027630
3236312 0.1969503 -0.3975446 0.8030497 0.3975446 0.8030497 0.3975446 0.1969503 -0.3975446
3307469 0.1901629 -0.3922763 0.8098371 0.3922763 0.8098371 0.3922763 0.1901629 -0.3922763
3380190 0.1835560 -0.3869649 0.8164440 0.3869649 0.8164440 0.3869649 0.1835560 -0.3869649
3454511 0.1771285 -0.3816170 0.8228715 0.3816170 0.8228715 0.3816170 0.1771285 -0.3816170
3530465 0.1708790 -0.3762392 0.8291210 0.3762392 0.8291210 0.3762392 0.1708790 -0.3762392
3608090 0.1648060 -0.3708376 0.8351940 0.3708376 0.8351940 0.3708376 0.1648060 -0.3708376
3687421 0.1589075 -0.3654182 0.8410925 0.3654182 0.8410925 0.3654182 0.1589075 -0.3654182
3768496 0.1531815 -0.3599868 0.8468185 0.3599868 0.8468185 0.3599868 0.1531815 -0.3599868
3851354 0.1476257 -0.3545490 0.8523743 0.3545490 0.8523743 0.3545490 0.1476257 -0.3545490
3936034 0.1422377 -0.3491100 0.8577623 0.3491100 0.8577623 0.3491100 0.1422377 -0.3491100
4022575 0.1370148 -0.3436749 0.8629852 0.3436749 0.8629852 0.3436749 0.1370148 -0.3436749
4111020 0.1319542 -0.3382486 0.8680458 0.3382486 0.8680458 0.3382486 0.1319542 -0.3382486
4201409 0.1270532 -0.3328357 0.8729468 0.3328357 0.8729468 0.3328357 0.1270532 -0.3328357
4293785 0.1223086 -0.3274405 0.8776914 0.3274405 0.8776914 0.3274405 0.1223086 -0.3274405
4388193 0.1177174 -0.3220671 0.8822826 0.3220671 0.8822826 0.3220671 0.1177174 -0.3220671
4484676 0.1132765 -0.3167195 0.8867235 0.3167195 0.8867235 0.3167195 0.1132765 -0.3167195
4583281 0.1089824 -0.3114012 0.8910176 0.3114012 0.8910176 0.3114012 0.1089824 -0.3114012
4684054 0.1048320 -0.3061159 0.8951680 0.3061159 0.8951680 0.3061159 0.1048320 -0.3061159
4787042 0.1008219 -0.3008666 0.8991781 0.3008666 0.8991781 0.3008666 0.1008219 -0.3008666
4892295 0.0969487 -0.2956564 0.9030513 0.2956564 0.9030513 0.2956564 0.0969487 -0.2956564
4999862 0.0932090 -0.2904881 0.9067910 0.2904881 0.9067910 0.2904881 0.0932090 -0.2904881
5109794 0.0895993 -0.2853642 0.9104007 0.2853642 0.9104007 0.2853642 0.0895993 -0.2853642
5222143 0.0861163 -0.2802873 0.9138837 0.2802873 0.9138837 0.2802873 0.0861163 -0.2802873
5336962 0.0827565 -0.2752594 0.9172435 0.2752594 0.9172435 0.2752594 0.0827565 -0.2752594
5454306 0.0795165 -0.2702827 0.9204835 0.2702827 0.9204835 0.2702827 0.0795165 -0.2702827
5574230 0.0763929 -0.2653589 0.9236071 0.2653589 0.9236071 0.2653589 0.0763929 -0.2653589
5696791 0.0733823 -0.2604898 0.9266177 0.2604898 0.9266177 0.2604898 0.0733823 -0.2604898
5822046 0.0704815 -0.2556769 0.9295185 0.2556769 0.9295185 0.2556769 0.0704815 -0.2556769
5950055 0.0676871 -0.2509216 0.9323129 0.2509216 0.9323129 0.2509216 0.0676871 -0.2509216
6080879 0.0649959 -0.2462250 0.9350041 0.2462250 0.9350041 0.2462250 0.0649959 -0.2462250
6214580 0.0624047 -0.2415882 0.9375953 0.2415882 0.9375953 0.2415882 0.0624047 -0.2415882
6351220 0.0599103 -0.2370123 0.9400897 0.2370123 0.9400897 0.2370123 0.0599103 -0.2370123
6490864 0.0575096 -0.2324979 0.9424904 0.2324979 0.9424904 0.2324979 0.0575096 -0.2324979
6633579 0.0551997 -0.2280459 0.9448003 0.2280459 0.9448003 0.2280459 0.0551997 -0.2280459
6779431 0.0529775 -0.2236567 0.9470225 0.2236567 0.9470225 0.2236567 0.0529775 -0.2236567
6928491 0.0508400 -0.2193308 0.9491600 0.2193308 0.9491600 0.2193308 0.0508400 -0.2193308
7080828 0.0487846 -0.2150686 0.9512154 0.2150686 0.9512154 0.2150686 0.0487846 -0.2150686
7236514 0.0468083 -0.2108705 0.9531917 0.2108705 0.9531917 0.2108705 0.0468083 -0.2108705
7395623 0.0449084 -0.2067364 0.9550916 0.2067364 0.9550916 0.2067364 0.0449084 -0.2067364
7558231 0.0430824 -0.2026666 0.9569176 0.2026666 0.9569176 0.2026666 0.0430824 -0.2026666
7724414 0.0413276 -0.1986611 0.9586724 0.1986611 0.9586724 0.1986611 0.0413276 -0.1986611
7894251 0.0396415 -0.1947198 0.9603585 0.1947198 0.9603585 0.1947198 0.0396415 -0.1947198
8067822 0.0380216 -0.1908426 0.9619784 0.1908426 0.9619784 0.1908426 0.0380216 -0.1908426
8245209 0.0364656 -0.1870292 0.9635344 0.1870292 0.9635344 0.1870292 0.0364656 -0.1870292
8426497 0.0349712 -0.1832794 0.9650288 0.1832794 0.9650288 0.1832794 0.0349712 -0.1832794
8611770 0.0335360 -0.1795930 0.9664640 0.1795930 0.9664640 0.1795930 0.0335360 -0.1795930
8801117 0.0321581 -0.1759695 0.9678419 0.1759695 0.9678419 0.1759695 0.0321581 -0.1759695
8994628 0.0308351 -0.1724085 0.9691649 0.1724085 0.9691649 0.1724085 0.0308351 -0.1724085
9192393 0.0295652 -0.1689097 0.9704348 0.1689097 0.9704348 0.1689097 0.0295652 -0.1689097
9394506 0.0283462 -0.1654724 0.9716538 0.1654724 0.9716538 0.1654724 0.0283462 -0.1654724
9601063 0.0271763 -0.1620961 0.9728237 0.1620961 0.9728237 0.1620961 0.0271763 -0.1620961
9812162 0.0260536 -0.1587804 0.9739464 0.1587804 0.9739464 0.1587804 0.0260536 -0.1587804
10027902 0.0249764 -0.1555245 0.9750236 0.1555245 0.9750236 0.1555245 0.0249764 -0.1555245
10248386 0.0239429 -0.1523279 0.9760571 0.1523279 0.9760571 0.1523279 0.0239429 -0.1523279
10473717 0.0229513 -0.1491900 0.9770487 0.1491900 0.9770487 0.1491900 0.0229513 -0.1491900
10704003 0.0220002 -0.1461100 0.9779998 0.1461100 0.9779998 0.1461100 0.0220002 -0.1461100
10939352 0.0210879 -0.1430872 0.9789121 0.1430872 0.9789121 0.1430872 0.0210879 -0.1430872
11179876 0.0202129 -0.1401210 0.9797871 0.1401210 0.9797871 0.1401210 0.0202129 -0.1401210
11425688 0.0193738 -0.1372106 0.9806262 0.1372106 0.9806262 0.1372106 0.0193738 -0.1372106
11676904 0.0185692 -0.1343553 0.9814308 0.1343553 0.9814308 0.1343553 0.0185692 -0.1343553
11933645 0.0177977 -0.1315543 0.9822023 0.1315543 0.9822023 0.1315543 0.0177977 -0.1315543
12196030 0.0170579 -0.1288070 0.9829421 0.1288070 0.9829421 0.1288070 0.0170579 -0.1288070
12464184 0.0163487 -0.1261124 0.9836513 0.1261124 0.9836513 0.1261124 0.0163487 -0.1261124
12738235 0.0156689 -0.1234698 0.9843311 0.1234698 0.9843311 0.1234698 0.0156689 -0.1234698
13018310 0.0150172 -0.1208786 0.9849828 0.1208786 0.9849828 0.1208786 0.0150172 -0.1208786
13304544 0.0143926 -0.1183378 0.9856074 0.1183378 0.9856074 0.1183378 0.0143926 -0.1183378
13597071 0.0137939 -0.1158466 0.9862061 0.1158466 0.9862061 0.1158466 0.0137939 -0.1158466
13896030 0.0132201 -0.1134044 0.9867799 0.1134044 0.9867799 0.1134044 0.0132201 -0.1134044
14201563 0.0126703 -0.1110103 0.9873297 0.1110103 0.9873297 0.1110103 0.0126703 -0.1110103
14513813 0.0121434 -0.1086635 0.9878566 0.1086635 0.9878566 0.1086635 0.0121434 -0.1086635
14832928 0.0116385 -0.1063633 0.9883615 0.1063633 0.9883615 0.1063633 0.0116385 -0.1063633
15159060 0.0111548 -0.1041088 0.9888452 0.1041088 0.9888452 0.1041088 0.0111548 -0.1041088
15492362 0.0106914 -0.1018994 0.9893086 0.1018994 0.9893086 0.1018994 0.0106914 -0.1018994
15832993 0.0102474 -0.0997341 0.9897526 0.0997341 0.9897526 0.0997341 0.0102474 -0.0997341
16181113 0.0098220 -0.0976122 0.9901780 0.0976122 0.9901780 0.0976122 0.0098220 -0.0976122
16536888 0.0094146 -0.0955331 0.9905854 0.0955331 0.9905854 0.0955331 0.0094146 -0.0955331
16900485 0.0090244 -0.0934958 0.9909756 0.0934958 0.9909756 0.0934958 0.0090244 -0.0934958
17272076 0.0086506 -0.0914997 0.9913494 0.0914997 0.9913494 0.0914997 0.0086506 -0.0914997
17651837 0.0082927 -0.0895440 0.9917073 0.0895440 0.9917073 0.0895440 0.0082927 -0.0895440
18039948 0.0079499 -0.0876280 0.9920501 0.0876280 0.9920501 0.0876280 0.0079499 -0.0876280
18436593 0.0076216 -0.0857509 0.9923784 0.0857509 0.9923784 0.0857509 0.0076216 -0.0857509
18841959 0.0073072 -0.0839121 0.9926928 0.0839121 0.9926928 0.0839121 0.0073072 -0.0839121
19256237 0.0070062 -0.0821108 0.9929938 0.0821108 0.9929938 0.0821108 0.0070062 -0.0821108
19679624 0.0067180 -0.0803462 0.9932820 0.0803462 0.9932820 0.0803462 0.0067180 -0.0803462
20112321 0.0064421 -0.0786178 0.9935579 0.0786178 0.9935579 0.0786178 0.0064421 -0.0786178
20554530 0.0061780 -0.0769247 0.9938220 0.0769247 0.9938220 0.0769247 0.0061780 -0.0769247
21006463 0.0059251 -0.0752664 0.9940749 0.0752664 0.9940749 0.0752664 0.0059251 -0.0752664
21468333 0.0056831 -0.0736422 0.9943169 0.0736422 0.9943169 0.0736422 0.0056831 -0.0736422
21940357 0.0054514 -0.0720513 0.9945486 0.0720513 0.9945486 0.0720513 0.0054514 -0.0720513
22422760 0.0052297 -0.0704932 0.9947703 0.0704932 0.9947703 0.0704932 0.0052297 -0.0704932
22915770 0.0050175 -0.0689672 0.9949825 0.0689672 0.9949825 0.0689672 0.0050175 -0.0689672
23419619 0.0048144 -0.0674727 0.9951856 0.0674727 0.9951856 0.0674727 0.0048144 -0.0674727
23934547 0.0046201 -0.0660090 0.9953799 0.0660090 0.9953799 0.0660090 0.0046201 -0.0660090
24460796 0.0044342 -0.0645755 0.9955658 0.0645755 0.9955658 0.0645755 0.0044342 -0.0645755
24998616 0.0042563 -0.0631717 0.9957437 0.0631717 0.9957437 0.0631717 0.0042563 -0.0631717
25548261 0.0040860 -0.0617969 0.9959140 0.0617969 0.9959140 0.0617969 0.0040860 -0.0617969
26109991 0.0039232 -0.0604505 0.9960768 0.0604505 0.9960768 0.0604505 0.0039232 -0.0604505
26684072 0.0037674 -0.0591320 0.9962326 0.0591320 0.9962326 0.0591320 0.0037674 -0.0591320
27270775 0.0036184 -0.0578408 0.9963816 0.0578408 0.9963816 0.0578408 0.0036184 -0.0578408
27870378 0.0034759 -0.0565763 0.9965241 0.0565763 0.9965241 0.0565763 0.0034759 -0.0565763
28483164 0.0033396 -0.0553381 0.9966604 0.0553381 0.9966604 0.0553381 0.0033396 -0.0553381
29109424 0.0032092 -0.0541255 0.9967908 0.0541255 0.9967908 0.0541255 0.0032092 -0.0541255
29749453 0.0030845 -0.0529380 0.9969155 0.0529380 0.9969155 0.0529380 0.0030845 -0.0529380
30403555 0.0029653 -0.0517751 0.9970347 0.0517751 0.9970347 0.0517751 0.0029653 -0.0517751
31072038 0.0028513 -0.0506363 0.9971487 0.0506363 0.9971487 0.0506363 0.0028513 -0.0506363
31755220 0.0027423 -0.0495211 0.9972577 0.0495211 0.9972577 0.0495211 0.0027423 -0.0495211
32453422 0.0026381 -0.0484289 0.9973619 0.0484289 0.9973619 0.0484289 0.0026381 -0.0484289
33166976 0.0025385 -0.0473594 0.9974615 0.0473594 0.9974615 0.0473594 0.0025385 -0.0473594
33896219 0.0024433 -0.0463120 0.9975567 0.0463120 0.9975567 0.0463120 0.0024433 -0.0463120
34641496 0.0023522 -0.0452863 0.9976478 0.0452863 0.9976478 0.0452863 0.0023522 -0.0452863
35403159 0.0022652 -0.0442818 0.9977348 0.0442818 0.9977348 0.0442818 0.0022652 -0.0442818
36181569 0.0021821 -0.0432980 0.9978179 0.0432980 0.9978179 0.0432980 0.0021821 -0.0432980
36977093 0.0021026 -0.0423346 0.9978974 0.0423346 0.9978974 0.0423346 0.0021026 -0.0423346
37790109 0.0020266 -0.0413910 0.9979734 0.0413910 0.9979734 0.0413910 0.0020266 -0.0413910
38621001 0.0019541 -0.0404668 0.9980459 0.0404668 0.9980459 0.0404668 0.0019541 -0.0404668
39470161 0.0018847 -0.0395617 0.9981153 0.0395617 0.9981153 0.0395617 0.0018847 -0.0395617
40337993 0.0018185 -0.0386752 0.9981815 0.0386752 0.9981815 0.0386752 0.0018185 -0.0386752
41224905 0.0017552 -0.0378069 0.9982448 0.0378069 0.9982448 0.0378069 0.0017552 -0.0378069
42131317 0.0016947 -0.0369564 0.9983053 0.0369564 0.9983053 0.0369564 0.0016947 -0.0369564
43057659 0.0016369 -0.0361233 0.9983631 0.0361233 0.9983631 0.0361233 0.0016369 -0.0361233
44004369 0.0015817 -0.0353073 0.9984183 0.0353073 0.9984183 0.0353073 0.0015817 -0.0353073
44971893 0.0015290 -0.0345079 0.9984710 0.0345079 0.9984710 0.0345079 0.0015290 -0.0345079
45960691 0.0014786 -0.0337248 0.9985214 0.0337248 0.9985214 0.0337248 0.0014786 -0.0337248
46971230 0.0014306 -0.0329576 0.9985694 0.0329576 0.9985694 0.0329576 0.0014306 -0.0329576
48003987 0.0013846 -0.0322060 0.9986154 0.0322060 0.9986154 0.0322060 0.0013846 -0.0322060
49059451 0.0013408 -0.0314697 0.9986592 0.0314697 0.9986592 0.0314697 0.0013408 -0.0314697
50138122 0.0012989 -0.0307482 0.9987011 0.0307482 0.9987011 0.0307482 0.0012989 -0.0307482
51240510 0.0012589 -0.0300412 0.9987411 0.0300412 0.9987411 0.0300412 0.0012589 -0.0300412
52367136 0.0012208 -0.0293485 0.9987792 0.0293485 0.9987792 0.0293485 0.0012208 -0.0293485
53518533 0.0011843 -0.0286697 0.9988157 0.0286697 0.9988157 0.0286697 0.0011843 -0.0286697
54695245 0.0011495 -0.0280044 0.9988505 0.0280044 0.9988505 0.0280044 0.0011495 -0.0280044
55897831 0.0011163 -0.0273524 0.9988837 0.0273524 0.9988837 0.0273524 0.0011163 -0.0273524
57126857 0.0010846 -0.0267134 0.9989154 0.0267134 0.9989154 0.0267134 0.0010846 -0.0267134
58382906 0.0010544 -0.0260870 0.9989456 0.0260870 0.9989456 0.0260870 0.0010544 -0.0260870
59666572 0.0010255 -0.0254730 0.9989745 0.0254730 0.9989745 0.0254730 0.0010255 -0.0254730
60978462 0.0009980 -0.0248710 0.9990020 0.0248710 0.9990020 0.0248710 0.0009980 -0.0248710
62319196 0.0009717 -0.0242809 0.9990283 0.0242809 0.9990283 0.0242809 0.0009717 -0.0242809
63689409 0.0009467 -0.0237022 0.9990533 0.0237022 0.9990533 0.0237022 0.0009467 -0.0237022
65089750 0.0009228 -0.0231348 0.9990772 0.0231348 0.9990772 0.0231348 0.0009228 -0.0231348
66520879 0.0009000 -0.0225784 0.9991000 0.0225784 0.9991000 0.0225784 0.0009000 -0.0225784
67983474 0.0008783 -0.0220327 0.9991217 0.0220327 0.9991217 0.0220327 0.0008783 -0.0220327
69478228 0.0008576 -0.0214974 0.9991424 0.0214974 0.9991424 0.0214974 0.0008576 -0.0214974
71005847 0.0008378 -0.0209723 0.9991622 0.0209723 0.9991622 0.0209723 0.0008378 -0.0209723
72567054 0.0008190 -0.0204572 0.9991810 0.0204572 0.9991810 0.0204572 0.0008190 -0.0204572
74162587 0.0008011 -0.0199517 0.9991989 0.0199517 0.9991989 0.0199517 0.0008011 -0.0199517
75793201 0.0007841 -0.0194558 0.9992159 0.0194558 0.9992159 0.0194558 0.0007841 -0.0194558
77459667 0.0007678 -0.0189690 0.9992322 0.0189690 0.9992322 0.0189690 0.0007678 -0.0189690
79162774 0.0007524 -0.0184913 0.9992476 0.0184913 0.9992476 0.0184913 0.0007524 -0.0184913
80903327 0.0007377 -0.0180223 0.9992623 0.0180223 0.9992623 0.0180223 0.0007377 -0.0180223
82682150 0.0007238 -0.0175619 0.9992762 0.0175619 0.9992762 0.0175619 0.0007238 -0.0175619
84500083 0.0007105 -0.0171098 0.9992895 0.0171098 0.9992895 0.0171098 0.0007105 -0.0171098
86357988 0.0006979 -0.0166658 0.9993021 0.0166658 0.9993021 0.0166658 0.0006979 -0.0166658
88256743 0.0006859 -0.0162297 0.9993141 0.0162297 0.9993141 0.0162297 0.0006859 -0.0162297
90197245 0.0006746 -0.0158013 0.9993254 0.0158013 0.9993254 0.0158013 0.0006746 -0.0158013
92180413 0.0006639 -0.0153804 0.9993361 0.0153804 0.9993361 0.0153804 0.0006639 -0.0153804
94207185 0.0006537 -0.0149668 0.9993463 0.0149668 0.9993463 0.0149668 0.0006537 -0.0149668
96278520 0.0006441 -0.0145602 0.9993559 0.0145602 0.9993559 0.0145602 0.0006441 -0.0145602
98395398 0.0006350 -0.0141606 0.9993650 0.0141606 0.9993650 0.0141606 0.0006350 -0.0141606
100558819 0.0006264 -0.0137677 0.9993736 0.0137677 0.9993736 0.0137677 0.0006264 -0.0137677
102769807 0.0006183 -0.0133813 0.9993817 0.0133813 0.9993817 0.0133813 0.0006183 -0.0133813
105029408 0.0006107 -0.0130012 0.9993893 0.0130012 0.9993893 0.0130012 0.0006107 -0.0130012
107338692 0.0006036 -0.0126273 0.9993964 0.0126273 0.9993964 0.0126273 0.0006036 -0.0126273
