!Murata Part Number: GRM1555C2A8R2CA01
!These Parameters are Measured in Series Mode Connection
!Data Generated on Mar 30, 2021
!       o--ll--o
!Port1            Port2
!       o------o
!Operation Temp=25[degC], DC Bias Voltage=0[V]
!Freq. Start=100[MHz] Stop=9[GHz] 401[Steps]
# Hz S RI R 50
!Freq.(Hz) S11(Real) S11(Imag) S21(Real) S21(Imag) S12(Real) S12(Imag) S22(Real) S22(Imag)
100000000 0.7896386 -0.4070586 0.2103614 0.4070586 0.2103614 0.4070586 0.7896386 -0.4070586
121000000 0.7192533 -0.4487498 0.2807467 0.4487498 0.2807467 0.4487498 0.7192533 -0.4487498
142000000 0.6501730 -0.4761928 0.3498270 0.4761928 0.3498270 0.4761928 0.6501730 -0.4761928
163000000 0.5849008 -0.4919079 0.4150992 0.4919079 0.4150992 0.4919079 0.5849008 -0.4919079
184000000 0.5248259 -0.4984423 0.4751741 0.4984423 0.4751741 0.4984423 0.5248259 -0.4984423
205000000 0.4705164 -0.4980782 0.5294836 0.4980782 0.5294836 0.4980782 0.4705164 -0.4980782
226000000 0.4220002 -0.4927150 0.5779998 0.4927150 0.5779998 0.4927150 0.4220002 -0.4927150
247000000 0.3789849 -0.4838578 0.6210151 0.4838578 0.6210151 0.4838578 0.3789849 -0.4838578
268000000 0.3410142 -0.4726593 0.6589858 0.4726593 0.6589858 0.4726593 0.3410142 -0.4726593
289000000 0.3075678 -0.4599801 0.6924322 0.4599801 0.6924322 0.4599801 0.3075678 -0.4599801
310000000 0.2781215 -0.4464499 0.7218785 0.4464499 0.7218785 0.4464499 0.2781215 -0.4464499
331000000 0.2521803 -0.4325217 0.7478197 0.4325217 0.7478197 0.4325217 0.2521803 -0.4325217
352000000 0.2292938 -0.4185156 0.7707062 0.4185156 0.7707062 0.4185156 0.2292938 -0.4185156
373000000 0.2090620 -0.4046534 0.7909380 0.4046534 0.7909380 0.4046534 0.2090620 -0.4046534
394000000 0.1911346 -0.3910851 0.8088654 0.3910851 0.8088654 0.3910851 0.1911346 -0.3910851
415000000 0.1752076 -0.3779086 0.8247924 0.3779086 0.8247924 0.3779086 0.1752076 -0.3779086
436000000 0.1610190 -0.3651841 0.8389810 0.3651841 0.8389810 0.3651841 0.1610190 -0.3651841
457000000 0.1483437 -0.3529452 0.8516563 0.3529452 0.8516563 0.3529452 0.1483437 -0.3529452
478000000 0.1369882 -0.3412067 0.8630118 0.3412067 0.8630118 0.3412067 0.1369882 -0.3412067
499000000 0.1267867 -0.3299701 0.8732133 0.3299701 0.8732133 0.3299701 0.1267867 -0.3299701
520000000 0.1175965 -0.3192280 0.8824035 0.3192280 0.8824035 0.3192280 0.1175965 -0.3192280
541000000 0.1092953 -0.3089668 0.8907047 0.3089668 0.8907047 0.3089668 0.1092953 -0.3089668
562000000 0.1017773 -0.2991692 0.8982227 0.2991692 0.8982227 0.2991692 0.1017773 -0.2991692
583000000 0.0949515 -0.2898156 0.9050485 0.2898156 0.9050485 0.2898156 0.0949515 -0.2898156
604000000 0.0887390 -0.2808851 0.9112610 0.2808851 0.9112610 0.2808851 0.0887390 -0.2808851
625000000 0.0830715 -0.2723563 0.9169285 0.2723563 0.9169285 0.2723563 0.0830715 -0.2723563
646000000 0.0778894 -0.2642080 0.9221106 0.2642080 0.9221106 0.2642080 0.0778894 -0.2642080
667000000 0.0731409 -0.2564195 0.9268591 0.2564195 0.9268591 0.2564195 0.0731409 -0.2564195
688000000 0.0687807 -0.2489706 0.9312193 0.2489706 0.9312193 0.2489706 0.0687807 -0.2489706
709000000 0.0647691 -0.2418421 0.9352309 0.2418421 0.9352309 0.2418421 0.0647691 -0.2418421
730000000 0.0610711 -0.2350158 0.9389289 0.2350158 0.9389289 0.2350158 0.0610711 -0.2350158
751000000 0.0576560 -0.2284741 0.9423440 0.2284741 0.9423440 0.2284741 0.0576560 -0.2284741
772000000 0.0544966 -0.2222008 0.9455034 0.2222008 0.9455034 0.2222008 0.0544966 -0.2222008
793000000 0.0515688 -0.2161805 0.9484312 0.2161805 0.9484312 0.2161805 0.0515688 -0.2161805
814000000 0.0488514 -0.2103988 0.9511486 0.2103988 0.9511486 0.2103988 0.0488514 -0.2103988
835000000 0.0463253 -0.2048420 0.9536747 0.2048420 0.9536747 0.2048420 0.0463253 -0.2048420
856000000 0.0439737 -0.1994975 0.9560263 0.1994975 0.9560263 0.1994975 0.0439737 -0.1994975
877000000 0.0417813 -0.1943535 0.9582187 0.1943535 0.9582187 0.1943535 0.0417813 -0.1943535
898000000 0.0397347 -0.1893988 0.9602653 0.1893988 0.9602653 0.1893988 0.0397347 -0.1893988
919000000 0.0378217 -0.1846231 0.9621783 0.1846231 0.9621783 0.1846231 0.0378217 -0.1846231
940000000 0.0360313 -0.1800166 0.9639687 0.1800166 0.9639687 0.1800166 0.0360313 -0.1800166
961000000 0.0343537 -0.1755703 0.9656463 0.1755703 0.9656463 0.1755703 0.0343537 -0.1755703
982000000 0.0327800 -0.1712756 0.9672200 0.1712756 0.9672200 0.1712756 0.0327800 -0.1712756
1003000000 0.0313021 -0.1671247 0.9686979 0.1671247 0.9686979 0.1671247 0.0313021 -0.1671247
1024000000 0.0299129 -0.1631101 0.9700871 0.1631101 0.9700871 0.1631101 0.0299129 -0.1631101
1045000000 0.0286056 -0.1592248 0.9713944 0.1592248 0.9713944 0.1592248 0.0286056 -0.1592248
1066000000 0.0273742 -0.1554624 0.9726258 0.1554624 0.9726258 0.1554624 0.0273742 -0.1554624
1087000000 0.0262133 -0.1518166 0.9737867 0.1518166 0.9737867 0.1518166 0.0262133 -0.1518166
1108000000 0.0251179 -0.1482817 0.9748821 0.1482817 0.9748821 0.1482817 0.0251179 -0.1482817
1129000000 0.0240834 -0.1448524 0.9759166 0.1448524 0.9759166 0.1448524 0.0240834 -0.1448524
1150000000 0.0231057 -0.1415236 0.9768943 0.1415236 0.9768943 0.1415236 0.0231057 -0.1415236
1171000000 0.0221808 -0.1382905 0.9778192 0.1382905 0.9778192 0.1382905 0.0221808 -0.1382905
1192000000 0.0213053 -0.1351487 0.9786947 0.1351487 0.9786947 0.1351487 0.0213053 -0.1351487
1213000000 0.0204760 -0.1320940 0.9795240 0.1320940 0.9795240 0.1320940 0.0204760 -0.1320940
1234000000 0.0196899 -0.1291223 0.9803101 0.1291223 0.9803101 0.1291223 0.0196899 -0.1291223
1255000000 0.0189443 -0.1262300 0.9810557 0.1262300 0.9810557 0.1262300 0.0189443 -0.1262300
1276000000 0.0182366 -0.1234135 0.9817634 0.1234135 0.9817634 0.1234135 0.0182366 -0.1234135
1297000000 0.0175646 -0.1206696 0.9824354 0.1206696 0.9824354 0.1206696 0.0175646 -0.1206696
1318000000 0.0169260 -0.1179950 0.9830740 0.1179950 0.9830740 0.1179950 0.0169260 -0.1179950
1339000000 0.0163188 -0.1153868 0.9836812 0.1153868 0.9836812 0.1153868 0.0163188 -0.1153868
1360000000 0.0157413 -0.1128422 0.9842587 0.1128422 0.9842587 0.1128422 0.0157413 -0.1128422
1381000000 0.0151917 -0.1103586 0.9848083 0.1103586 0.9848083 0.1103586 0.0151917 -0.1103586
1402000000 0.0146684 -0.1079334 0.9853316 0.1079334 0.9853316 0.1079334 0.0146684 -0.1079334
1423000000 0.0141700 -0.1055643 0.9858300 0.1055643 0.9858300 0.1055643 0.0141700 -0.1055643
1444000000 0.0136950 -0.1032490 0.9863050 0.1032490 0.9863050 0.1032490 0.0136950 -0.1032490
1465000000 0.0132421 -0.1009853 0.9867579 0.1009853 0.9867579 0.1009853 0.0132421 -0.1009853
1486000000 0.0128103 -0.0987713 0.9871897 0.0987713 0.9871897 0.0987713 0.0128103 -0.0987713
1507000000 0.0123983 -0.0966050 0.9876017 0.0966050 0.9876017 0.0966050 0.0123983 -0.0966050
1528000000 0.0120051 -0.0944846 0.9879949 0.0944846 0.9879949 0.0944846 0.0120051 -0.0944846
1549000000 0.0116298 -0.0924083 0.9883702 0.0924083 0.9883702 0.0924083 0.0116298 -0.0924083
1570000000 0.0112713 -0.0903745 0.9887287 0.0903745 0.9887287 0.0903745 0.0112713 -0.0903745
1591000000 0.0109290 -0.0883817 0.9890710 0.0883817 0.9890710 0.0883817 0.0109290 -0.0883817
1612000000 0.0106019 -0.0864282 0.9893981 0.0864282 0.9893981 0.0864282 0.0106019 -0.0864282
1633000000 0.0102894 -0.0845127 0.9897106 0.0845127 0.9897106 0.0845127 0.0102894 -0.0845127
1654000000 0.0099906 -0.0826338 0.9900094 0.0826338 0.9900094 0.0826338 0.0099906 -0.0826338
1675000000 0.0097050 -0.0807903 0.9902950 0.0807903 0.9902950 0.0807903 0.0097050 -0.0807903
1696000000 0.0094319 -0.0789808 0.9905681 0.0789808 0.9905681 0.0789808 0.0094319 -0.0789808
1717000000 0.0091708 -0.0772042 0.9908292 0.0772042 0.9908292 0.0772042 0.0091708 -0.0772042
1738000000 0.0089210 -0.0754594 0.9910790 0.0754594 0.9910790 0.0754594 0.0089210 -0.0754594
1759000000 0.0086822 -0.0737452 0.9913178 0.0737452 0.9913178 0.0737452 0.0086822 -0.0737452
1780000000 0.0084536 -0.0720607 0.9915464 0.0720607 0.9915464 0.0720607 0.0084536 -0.0720607
1801000000 0.0082351 -0.0704049 0.9917649 0.0704049 0.9917649 0.0704049 0.0082351 -0.0704049
1822000000 0.0080259 -0.0687768 0.9919741 0.0687768 0.9919741 0.0687768 0.0080259 -0.0687768
1843000000 0.0078259 -0.0671754 0.9921741 0.0671754 0.9921741 0.0671754 0.0078259 -0.0671754
1864000000 0.0076345 -0.0656000 0.9923655 0.0656000 0.9923655 0.0656000 0.0076345 -0.0656000
1885000000 0.0074514 -0.0640497 0.9925486 0.0640497 0.9925486 0.0640497 0.0074514 -0.0640497
1906000000 0.0072763 -0.0625237 0.9927237 0.0625237 0.9927237 0.0625237 0.0072763 -0.0625237
1927000000 0.0071088 -0.0610213 0.9928912 0.0610213 0.9928912 0.0610213 0.0071088 -0.0610213
1948000000 0.0069486 -0.0595416 0.9930514 0.0595416 0.9930514 0.0595416 0.0069486 -0.0595416
1969000000 0.0067955 -0.0580841 0.9932045 0.0580841 0.9932045 0.0580841 0.0067955 -0.0580841
1990000000 0.0066490 -0.0566480 0.9933510 0.0566480 0.9933510 0.0566480 0.0066490 -0.0566480
2011000000 0.0065091 -0.0552326 0.9934909 0.0552326 0.9934909 0.0552326 0.0065091 -0.0552326
2032000000 0.0063753 -0.0538374 0.9936247 0.0538374 0.9936247 0.0538374 0.0063753 -0.0538374
2053000000 0.0062476 -0.0524617 0.9937524 0.0524617 0.9937524 0.0524617 0.0062476 -0.0524617
2074000000 0.0061255 -0.0511050 0.9938745 0.0511050 0.9938745 0.0511050 0.0061255 -0.0511050
2095000000 0.0060090 -0.0497668 0.9939910 0.0497668 0.9939910 0.0497668 0.0060090 -0.0497668
2116000000 0.0058979 -0.0484463 0.9941021 0.0484463 0.9941021 0.0484463 0.0058979 -0.0484463
2137000000 0.0057918 -0.0471433 0.9942082 0.0471433 0.9942082 0.0471433 0.0057918 -0.0471433
2158000000 0.0056907 -0.0458571 0.9943093 0.0458571 0.9943093 0.0458571 0.0056907 -0.0458571
2179000000 0.0055944 -0.0445873 0.9944056 0.0445873 0.9944056 0.0445873 0.0055944 -0.0445873
2200000000 0.0055027 -0.0433334 0.9944973 0.0433334 0.9944973 0.0433334 0.0055027 -0.0433334
2221000000 0.0054153 -0.0420951 0.9945847 0.0420951 0.9945847 0.0420951 0.0054153 -0.0420951
2242000000 0.0053323 -0.0408717 0.9946677 0.0408717 0.9946677 0.0408717 0.0053323 -0.0408717
2263000000 0.0052534 -0.0396630 0.9947466 0.0396630 0.9947466 0.0396630 0.0052534 -0.0396630
2284000000 0.0051785 -0.0384685 0.9948215 0.0384685 0.9948215 0.0384685 0.0051785 -0.0384685
2305000000 0.0051075 -0.0372879 0.9948925 0.0372879 0.9948925 0.0372879 0.0051075 -0.0372879
2326000000 0.0050402 -0.0361208 0.9949598 0.0361208 0.9949598 0.0361208 0.0050402 -0.0361208
2347000000 0.0049764 -0.0349667 0.9950236 0.0349667 0.9950236 0.0349667 0.0049764 -0.0349667
2368000000 0.0049162 -0.0338255 0.9950838 0.0338255 0.9950838 0.0338255 0.0049162 -0.0338255
2389000000 0.0048594 -0.0326966 0.9951406 0.0326966 0.9951406 0.0326966 0.0048594 -0.0326966
2410000000 0.0048059 -0.0315799 0.9951941 0.0315799 0.9951941 0.0315799 0.0048059 -0.0315799
2431000000 0.0047555 -0.0304750 0.9952445 0.0304750 0.9952445 0.0304750 0.0047555 -0.0304750
2452000000 0.0047082 -0.0293816 0.9952918 0.0293816 0.9952918 0.0293816 0.0047082 -0.0293816
2473000000 0.0046639 -0.0282993 0.9953361 0.0282993 0.9953361 0.0282993 0.0046639 -0.0282993
2494000000 0.0046225 -0.0272280 0.9953775 0.0272280 0.9953775 0.0272280 0.0046225 -0.0272280
2515000000 0.0045839 -0.0261673 0.9954161 0.0261673 0.9954161 0.0261673 0.0045839 -0.0261673
2536000000 0.0045480 -0.0251170 0.9954520 0.0251170 0.9954520 0.0251170 0.0045480 -0.0251170
2557000000 0.0045148 -0.0240767 0.9954852 0.0240767 0.9954852 0.0240767 0.0045148 -0.0240767
2578000000 0.0044841 -0.0230464 0.9955159 0.0230464 0.9955159 0.0230464 0.0044841 -0.0230464
2599000000 0.0044560 -0.0220256 0.9955440 0.0220256 0.9955440 0.0220256 0.0044560 -0.0220256
2620000000 0.0044303 -0.0210142 0.9955697 0.0210142 0.9955697 0.0210142 0.0044303 -0.0210142
2641000000 0.0044070 -0.0200120 0.9955930 0.0200120 0.9955930 0.0200120 0.0044070 -0.0200120
2662000000 0.0043860 -0.0190187 0.9956140 0.0190187 0.9956140 0.0190187 0.0043860 -0.0190187
2683000000 0.0043673 -0.0180341 0.9956327 0.0180341 0.9956327 0.0180341 0.0043673 -0.0180341
2704000000 0.0043507 -0.0170580 0.9956493 0.0170580 0.9956493 0.0170580 0.0043507 -0.0170580
2725000000 0.0043363 -0.0160901 0.9956637 0.0160901 0.9956637 0.0160901 0.0043363 -0.0160901
2746000000 0.0043240 -0.0151304 0.9956760 0.0151304 0.9956760 0.0151304 0.0043240 -0.0151304
2767000000 0.0043137 -0.0141786 0.9956863 0.0141786 0.9956863 0.0141786 0.0043137 -0.0141786
2788000000 0.0043054 -0.0132346 0.9956946 0.0132346 0.9956946 0.0132346 0.0043054 -0.0132346
2809000000 0.0042990 -0.0122980 0.9957010 0.0122980 0.9957010 0.0122980 0.0042990 -0.0122980
2830000000 0.0042946 -0.0113688 0.9957054 0.0113688 0.9957054 0.0113688 0.0042946 -0.0113688
2851000000 0.0042920 -0.0104469 0.9957080 0.0104469 0.9957080 0.0104469 0.0042920 -0.0104469
2872000000 0.0042912 -0.0095319 0.9957088 0.0095319 0.9957088 0.0095319 0.0042912 -0.0095319
2893000000 0.0042921 -0.0086238 0.9957079 0.0086238 0.9957079 0.0086238 0.0042921 -0.0086238
2914000000 0.0042949 -0.0077224 0.9957051 0.0077224 0.9957051 0.0077224 0.0042949 -0.0077224
2935000000 0.0042993 -0.0068276 0.9957007 0.0068276 0.9957007 0.0068276 0.0042993 -0.0068276
2956000000 0.0043054 -0.0059392 0.9956946 0.0059392 0.9956946 0.0059392 0.0043054 -0.0059392
2977000000 0.0043131 -0.0050570 0.9956869 0.0050570 0.9956869 0.0050570 0.0043131 -0.0050570
2998000000 0.0043224 -0.0041809 0.9956776 0.0041809 0.9956776 0.0041809 0.0043224 -0.0041809
3019000000 0.0043333 -0.0033109 0.9956667 0.0033109 0.9956667 0.0033109 0.0043333 -0.0033109
3040000000 0.0043457 -0.0024467 0.9956543 0.0024467 0.9956543 0.0024467 0.0043457 -0.0024467
3061000000 0.0043596 -0.0015882 0.9956404 0.0015882 0.9956404 0.0015882 0.0043596 -0.0015882
3082000000 0.0043750 -0.0007352 0.9956250 0.0007352 0.9956250 0.0007352 0.0043750 -0.0007352
3103000000 0.0043919 0.0001122 0.9956081 -0.0001122 0.9956081 -0.0001122 0.0043919 0.0001122
3124000000 0.0044102 0.0009543 0.9955898 -0.0009543 0.9955898 -0.0009543 0.0044102 0.0009543
3145000000 0.0044300 0.0017912 0.9955700 -0.0017912 0.9955700 -0.0017912 0.0044300 0.0017912
3166000000 0.0044511 0.0026230 0.9955489 -0.0026230 0.9955489 -0.0026230 0.0044511 0.0026230
3187000000 0.0044736 0.0034498 0.9955264 -0.0034498 0.9955264 -0.0034498 0.0044736 0.0034498
3208000000 0.0044974 0.0042717 0.9955026 -0.0042717 0.9955026 -0.0042717 0.0044974 0.0042717
3229000000 0.0045226 0.0050888 0.9954774 -0.0050888 0.9954774 -0.0050888 0.0045226 0.0050888
3250000000 0.0045491 0.0059013 0.9954509 -0.0059013 0.9954509 -0.0059013 0.0045491 0.0059013
3271000000 0.0045768 0.0067091 0.9954232 -0.0067091 0.9954232 -0.0067091 0.0045768 0.0067091
3292000000 0.0046059 0.0075125 0.9953941 -0.0075125 0.9953941 -0.0075125 0.0046059 0.0075125
3313000000 0.0046362 0.0083116 0.9953638 -0.0083116 0.9953638 -0.0083116 0.0046362 0.0083116
3334000000 0.0046677 0.0091063 0.9953323 -0.0091063 0.9953323 -0.0091063 0.0046677 0.0091063
3355000000 0.0047005 0.0098969 0.9952995 -0.0098969 0.9952995 -0.0098969 0.0047005 0.0098969
3376000000 0.0047345 0.0106834 0.9952655 -0.0106834 0.9952655 -0.0106834 0.0047345 0.0106834
3397000000 0.0047697 0.0114659 0.9952303 -0.0114659 0.9952303 -0.0114659 0.0047697 0.0114659
3418000000 0.0048060 0.0122444 0.9951940 -0.0122444 0.9951940 -0.0122444 0.0048060 0.0122444
3439000000 0.0048436 0.0130192 0.9951564 -0.0130192 0.9951564 -0.0130192 0.0048436 0.0130192
3460000000 0.0048823 0.0137901 0.9951177 -0.0137901 0.9951177 -0.0137901 0.0048823 0.0137901
3481000000 0.0049222 0.0145575 0.9950778 -0.0145575 0.9950778 -0.0145575 0.0049222 0.0145575
3502000000 0.0049632 0.0153212 0.9950368 -0.0153212 0.9950368 -0.0153212 0.0049632 0.0153212
3523000000 0.0050054 0.0160814 0.9949946 -0.0160814 0.9949946 -0.0160814 0.0050054 0.0160814
3544000000 0.0050487 0.0168382 0.9949513 -0.0168382 0.9949513 -0.0168382 0.0050487 0.0168382
3565000000 0.0050931 0.0175916 0.9949069 -0.0175916 0.9949069 -0.0175916 0.0050931 0.0175916
3586000000 0.0051386 0.0183418 0.9948614 -0.0183418 0.9948614 -0.0183418 0.0051386 0.0183418
3607000000 0.0051853 0.0190888 0.9948147 -0.0190888 0.9948147 -0.0190888 0.0051853 0.0190888
3628000000 0.0052330 0.0198326 0.9947670 -0.0198326 0.9947670 -0.0198326 0.0052330 0.0198326
3649000000 0.0052819 0.0205733 0.9947181 -0.0205733 0.9947181 -0.0205733 0.0052819 0.0205733
3670000000 0.0053318 0.0213111 0.9946682 -0.0213111 0.9946682 -0.0213111 0.0053318 0.0213111
3691000000 0.0053828 0.0220459 0.9946172 -0.0220459 0.9946172 -0.0220459 0.0053828 0.0220459
3712000000 0.0054349 0.0227779 0.9945651 -0.0227779 0.9945651 -0.0227779 0.0054349 0.0227779
3733000000 0.0054881 0.0235070 0.9945119 -0.0235070 0.9945119 -0.0235070 0.0054881 0.0235070
3754000000 0.0055423 0.0242334 0.9944577 -0.0242334 0.9944577 -0.0242334 0.0055423 0.0242334
3775000000 0.0055977 0.0249572 0.9944023 -0.0249572 0.9944023 -0.0249572 0.0055977 0.0249572
3796000000 0.0056541 0.0256783 0.9943459 -0.0256783 0.9943459 -0.0256783 0.0056541 0.0256783
3817000000 0.0057115 0.0263968 0.9942885 -0.0263968 0.9942885 -0.0263968 0.0057115 0.0263968
3838000000 0.0057701 0.0271129 0.9942299 -0.0271129 0.9942299 -0.0271129 0.0057701 0.0271129
3859000000 0.0058297 0.0278265 0.9941703 -0.0278265 0.9941703 -0.0278265 0.0058297 0.0278265
3880000000 0.0058904 0.0285378 0.9941096 -0.0285378 0.9941096 -0.0285378 0.0058904 0.0285378
3901000000 0.0059521 0.0292467 0.9940479 -0.0292467 0.9940479 -0.0292467 0.0059521 0.0292467
3922000000 0.0060150 0.0299534 0.9939850 -0.0299534 0.9939850 -0.0299534 0.0060150 0.0299534
3943000000 0.0060789 0.0306578 0.9939211 -0.0306578 0.9939211 -0.0306578 0.0060789 0.0306578
3964000000 0.0061439 0.0313601 0.9938561 -0.0313601 0.9938561 -0.0313601 0.0061439 0.0313601
3985000000 0.0062100 0.0320603 0.9937900 -0.0320603 0.9937900 -0.0320603 0.0062100 0.0320603
4006000000 0.0062771 0.0327584 0.9937229 -0.0327584 0.9937229 -0.0327584 0.0062771 0.0327584
4027000000 0.0063454 0.0334545 0.9936546 -0.0334545 0.9936546 -0.0334545 0.0063454 0.0334545
4048000000 0.0064147 0.0341486 0.9935853 -0.0341486 0.9935853 -0.0341486 0.0064147 0.0341486
4069000000 0.0064852 0.0348409 0.9935148 -0.0348409 0.9935148 -0.0348409 0.0064852 0.0348409
4090000000 0.0065567 0.0355312 0.9934433 -0.0355312 0.9934433 -0.0355312 0.0065567 0.0355312
4111000000 0.0066294 0.0362198 0.9933706 -0.0362198 0.9933706 -0.0362198 0.0066294 0.0362198
4132000000 0.0067032 0.0369066 0.9932968 -0.0369066 0.9932968 -0.0369066 0.0067032 0.0369066
4153000000 0.0067781 0.0375917 0.9932219 -0.0375917 0.9932219 -0.0375917 0.0067781 0.0375917
4174000000 0.0068542 0.0382751 0.9931458 -0.0382751 0.9931458 -0.0382751 0.0068542 0.0382751
4195000000 0.0069314 0.0389568 0.9930686 -0.0389568 0.9930686 -0.0389568 0.0069314 0.0389568
4216000000 0.0070097 0.0396370 0.9929903 -0.0396370 0.9929903 -0.0396370 0.0070097 0.0396370
4237000000 0.0070893 0.0403157 0.9929107 -0.0403157 0.9929107 -0.0403157 0.0070893 0.0403157
4258000000 0.0071700 0.0409928 0.9928300 -0.0409928 0.9928300 -0.0409928 0.0071700 0.0409928
4279000000 0.0072519 0.0416685 0.9927481 -0.0416685 0.9927481 -0.0416685 0.0072519 0.0416685
4300000000 0.0073350 0.0423428 0.9926650 -0.0423428 0.9926650 -0.0423428 0.0073350 0.0423428
4321000000 0.0074193 0.0430157 0.9925807 -0.0430157 0.9925807 -0.0430157 0.0074193 0.0430157
4342000000 0.0075048 0.0436873 0.9924952 -0.0436873 0.9924952 -0.0436873 0.0075048 0.0436873
4363000000 0.0075916 0.0443576 0.9924084 -0.0443576 0.9924084 -0.0443576 0.0075916 0.0443576
4384000000 0.0076797 0.0450266 0.9923203 -0.0450266 0.9923203 -0.0450266 0.0076797 0.0450266
4405000000 0.0077690 0.0456945 0.9922310 -0.0456945 0.9922310 -0.0456945 0.0077690 0.0456945
4426000000 0.0078596 0.0463611 0.9921404 -0.0463611 0.9921404 -0.0463611 0.0078596 0.0463611
4447000000 0.0079515 0.0470266 0.9920485 -0.0470266 0.9920485 -0.0470266 0.0079515 0.0470266
4468000000 0.0080448 0.0476910 0.9919552 -0.0476910 0.9919552 -0.0476910 0.0080448 0.0476910
4489000000 0.0081394 0.0483544 0.9918606 -0.0483544 0.9918606 -0.0483544 0.0081394 0.0483544
4510000000 0.0082354 0.0490167 0.9917646 -0.0490167 0.9917646 -0.0490167 0.0082354 0.0490167
