!Murata Part Number: GRM1555C1H5R3BA01
!These Parameters are Measured in Series Mode Connection
!Data Generated on Mar 30, 2021
!       o--ll--o
!Port1            Port2
!       o------o
!Operation Temp=25[degC], DC Bias Voltage=0[V]
!Freq. Start=100[MHz] Stop=9[GHz] 401[Steps]
# Hz S RI R 50
!Freq.(Hz) S11(Real) S11(Imag) S21(Real) S21(Imag) S12(Real) S12(Imag) S22(Real) S22(Imag)
100000000 0.8998783 -0.2998118 0.1001217 0.2998118 0.1001217 0.2998118 0.8998783 -0.2998118
121000000 0.8598536 -0.3467144 0.1401464 0.3467144 0.1401464 0.3467144 0.8598536 -0.3467144
142000000 0.8165788 -0.3865127 0.1834212 0.3865127 0.1834212 0.3865127 0.8165788 -0.3865127
163000000 0.7714863 -0.4193018 0.2285137 0.4193018 0.2285137 0.4193018 0.7714863 -0.4193018
184000000 0.7258119 -0.4454558 0.2741881 0.4454558 0.2741881 0.4454558 0.7258119 -0.4454558
205000000 0.6805603 -0.4655356 0.3194397 0.4655356 0.3194397 0.4655356 0.6805603 -0.4655356
226000000 0.6365016 -0.4802067 0.3634984 0.4802067 0.3634984 0.4802067 0.6365016 -0.4802067
247000000 0.5941900 -0.4901718 0.4058100 0.4901718 0.4058100 0.4901718 0.5941900 -0.4901718
268000000 0.5539937 -0.4961228 0.4460063 0.4961228 0.4460063 0.4961228 0.5539937 -0.4961228
289000000 0.5161293 -0.4987088 0.4838707 0.4987088 0.4838707 0.4987088 0.5161293 -0.4987088
310000000 0.4806952 -0.4985179 0.5193048 0.4985179 0.5193048 0.4985179 0.4806952 -0.4985179
331000000 0.4477019 -0.4960691 0.5522981 0.4960691 0.5522981 0.4960691 0.4477019 -0.4960691
352000000 0.4170972 -0.4918111 0.5829028 0.4918111 0.5829028 0.4918111 0.4170972 -0.4918111
373000000 0.3887868 -0.4861260 0.6112132 0.4861260 0.6112132 0.4861260 0.3887868 -0.4861260
394000000 0.3626495 -0.4793346 0.6373505 0.4793346 0.6373505 0.4793346 0.3626495 -0.4793346
415000000 0.3385494 -0.4717038 0.6614506 0.4717038 0.6614506 0.4717038 0.3385494 -0.4717038
436000000 0.3163443 -0.4634531 0.6836557 0.4634531 0.6836557 0.4634531 0.3163443 -0.4634531
457000000 0.2958917 -0.4547623 0.7041083 0.4547623 0.7041083 0.4547623 0.2958917 -0.4547623
478000000 0.2770524 -0.4457770 0.7229476 0.4457770 0.7229476 0.4457770 0.2770524 -0.4457770
499000000 0.2596940 -0.4366145 0.7403060 0.4366145 0.7403060 0.4366145 0.2596940 -0.4366145
520000000 0.2436915 -0.4273689 0.7563085 0.4273689 0.7563085 0.4273689 0.2436915 -0.4273689
541000000 0.2289288 -0.4181146 0.7710712 0.4181146 0.7710712 0.4181146 0.2289288 -0.4181146
562000000 0.2152982 -0.4089103 0.7847018 0.4089103 0.7847018 0.4089103 0.2152982 -0.4089103
583000000 0.2027013 -0.3998016 0.7972987 0.3998016 0.7972987 0.3998016 0.2027013 -0.3998016
604000000 0.1910478 -0.3908236 0.8089522 0.3908236 0.8089522 0.3908236 0.1910478 -0.3908236
625000000 0.1802555 -0.3820029 0.8197445 0.3820029 0.8197445 0.3820029 0.1802555 -0.3820029
646000000 0.1702496 -0.3733591 0.8297504 0.3733591 0.8297504 0.3733591 0.1702496 -0.3733591
667000000 0.1609622 -0.3649061 0.8390378 0.3649061 0.8390378 0.3649061 0.1609622 -0.3649061
688000000 0.1523318 -0.3566535 0.8476682 0.3566535 0.8476682 0.3566535 0.1523318 -0.3566535
709000000 0.1443025 -0.3486072 0.8556975 0.3486072 0.8556975 0.3486072 0.1443025 -0.3486072
730000000 0.1368239 -0.3407704 0.8631761 0.3407704 0.8631761 0.3407704 0.1368239 -0.3407704
751000000 0.1298502 -0.3331438 0.8701498 0.3331438 0.8701498 0.3331438 0.1298502 -0.3331438
772000000 0.1233397 -0.3257266 0.8766603 0.3257266 0.8766603 0.3257266 0.1233397 -0.3257266
793000000 0.1172550 -0.3185165 0.8827450 0.3185165 0.8827450 0.3185165 0.1172550 -0.3185165
814000000 0.1115618 -0.3115101 0.8884382 0.3115101 0.8884382 0.3115101 0.1115618 -0.3115101
835000000 0.1062292 -0.3047032 0.8937708 0.3047032 0.8937708 0.3047032 0.1062292 -0.3047032
856000000 0.1012290 -0.2980911 0.8987710 0.2980911 0.8987710 0.2980911 0.1012290 -0.2980911
877000000 0.0965356 -0.2916687 0.9034644 0.2916687 0.9034644 0.2916687 0.0965356 -0.2916687
898000000 0.0921256 -0.2854305 0.9078744 0.2854305 0.9078744 0.2854305 0.0921256 -0.2854305
919000000 0.0879779 -0.2793708 0.9120221 0.2793708 0.9120221 0.2793708 0.0879779 -0.2793708
940000000 0.0840730 -0.2734839 0.9159270 0.2734839 0.9159270 0.2734839 0.0840730 -0.2734839
961000000 0.0803933 -0.2677640 0.9196067 0.2677640 0.9196067 0.2677640 0.0803933 -0.2677640
982000000 0.0769225 -0.2622055 0.9230775 0.2622055 0.9230775 0.2622055 0.0769225 -0.2622055
1003000000 0.0736460 -0.2568026 0.9263540 0.2568026 0.9263540 0.2568026 0.0736460 -0.2568026
1024000000 0.0705501 -0.2515498 0.9294499 0.2515498 0.9294499 0.2515498 0.0705501 -0.2515498
1045000000 0.0676224 -0.2464417 0.9323776 0.2464417 0.9323776 0.2464417 0.0676224 -0.2464417
1066000000 0.0648515 -0.2414729 0.9351485 0.2414729 0.9351485 0.2414729 0.0648515 -0.2414729
1087000000 0.0622270 -0.2366382 0.9377730 0.2366382 0.9377730 0.2366382 0.0622270 -0.2366382
1108000000 0.0597391 -0.2319328 0.9402609 0.2319328 0.9402609 0.2319328 0.0597391 -0.2319328
1129000000 0.0573790 -0.2273517 0.9426210 0.2273517 0.9426210 0.2273517 0.0573790 -0.2273517
1150000000 0.0551384 -0.2228904 0.9448616 0.2228904 0.9448616 0.2228904 0.0551384 -0.2228904
1171000000 0.0530100 -0.2185443 0.9469900 0.2185443 0.9469900 0.2185443 0.0530100 -0.2185443
1192000000 0.0509865 -0.2143091 0.9490135 0.2143091 0.9490135 0.2143091 0.0509865 -0.2143091
1213000000 0.0490616 -0.2101807 0.9509384 0.2101807 0.9509384 0.2101807 0.0490616 -0.2101807
1234000000 0.0472294 -0.2061551 0.9527706 0.2061551 0.9527706 0.2061551 0.0472294 -0.2061551
1255000000 0.0454842 -0.2022286 0.9545158 0.2022286 0.9545158 0.2022286 0.0454842 -0.2022286
1276000000 0.0438209 -0.1983973 0.9561791 0.1983973 0.9561791 0.1983973 0.0438209 -0.1983973
1297000000 0.0422348 -0.1946579 0.9577652 0.1946579 0.9577652 0.1946579 0.0422348 -0.1946579
1318000000 0.0407213 -0.1910070 0.9592787 0.1910070 0.9592787 0.1910070 0.0407213 -0.1910070
1339000000 0.0392765 -0.1874413 0.9607235 0.1874413 0.9607235 0.1874413 0.0392765 -0.1874413
1360000000 0.0378964 -0.1839578 0.9621036 0.1839578 0.9621036 0.1839578 0.0378964 -0.1839578
1381000000 0.0365775 -0.1805534 0.9634225 0.1805534 0.9634225 0.1805534 0.0365775 -0.1805534
1402000000 0.0353164 -0.1772254 0.9646836 0.1772254 0.9646836 0.1772254 0.0353164 -0.1772254
1423000000 0.0341100 -0.1739711 0.9658900 0.1739711 0.9658900 0.1739711 0.0341100 -0.1739711
1444000000 0.0329554 -0.1707879 0.9670446 0.1707879 0.9670446 0.1707879 0.0329554 -0.1707879
1465000000 0.0318499 -0.1676732 0.9681501 0.1676732 0.9681501 0.1676732 0.0318499 -0.1676732
1486000000 0.0307910 -0.1646247 0.9692090 0.1646247 0.9692090 0.1646247 0.0307910 -0.1646247
1507000000 0.0297762 -0.1616402 0.9702238 0.1616402 0.9702238 0.1616402 0.0297762 -0.1616402
1528000000 0.0288032 -0.1587174 0.9711968 0.1587174 0.9711968 0.1587174 0.0288032 -0.1587174
1549000000 0.0278701 -0.1558542 0.9721299 0.1558542 0.9721299 0.1558542 0.0278701 -0.1558542
1570000000 0.0269749 -0.1530486 0.9730251 0.1530486 0.9730251 0.1530486 0.0269749 -0.1530486
1591000000 0.0261157 -0.1502987 0.9738843 0.1502987 0.9738843 0.1502987 0.0261157 -0.1502987
1612000000 0.0252907 -0.1476027 0.9747093 0.1476027 0.9747093 0.1476027 0.0252907 -0.1476027
1633000000 0.0244983 -0.1449588 0.9755017 0.1449588 0.9755017 0.1449588 0.0244983 -0.1449588
1654000000 0.0237371 -0.1423653 0.9762629 0.1423653 0.9762629 0.1423653 0.0237371 -0.1423653
1675000000 0.0230054 -0.1398206 0.9769946 0.1398206 0.9769946 0.1398206 0.0230054 -0.1398206
1696000000 0.0223021 -0.1373230 0.9776979 0.1373230 0.9776979 0.1373230 0.0223021 -0.1373230
1717000000 0.0216257 -0.1348712 0.9783743 0.1348712 0.9783743 0.1348712 0.0216257 -0.1348712
1738000000 0.0209751 -0.1324636 0.9790249 0.1324636 0.9790249 0.1324636 0.0209751 -0.1324636
1759000000 0.0203492 -0.1300989 0.9796508 0.1300989 0.9796508 0.1300989 0.0203492 -0.1300989
1780000000 0.0197468 -0.1277758 0.9802532 0.1277758 0.9802532 0.1277758 0.0197468 -0.1277758
1801000000 0.0191669 -0.1254929 0.9808331 0.1254929 0.9808331 0.1254929 0.0191669 -0.1254929
1822000000 0.0186085 -0.1232491 0.9813915 0.1232491 0.9813915 0.1232491 0.0186085 -0.1232491
1843000000 0.0180708 -0.1210431 0.9819292 0.1210431 0.9819292 0.1210431 0.0180708 -0.1210431
1864000000 0.0175528 -0.1188739 0.9824472 0.1188739 0.9824472 0.1188739 0.0175528 -0.1188739
1885000000 0.0170538 -0.1167403 0.9829462 0.1167403 0.9829462 0.1167403 0.0170538 -0.1167403
1906000000 0.0165729 -0.1146413 0.9834271 0.1146413 0.9834271 0.1146413 0.0165729 -0.1146413
1927000000 0.0161094 -0.1125759 0.9838906 0.1125759 0.9838906 0.1125759 0.0161094 -0.1125759
1948000000 0.0156626 -0.1105431 0.9843374 0.1105431 0.9843374 0.1105431 0.0156626 -0.1105431
1969000000 0.0152319 -0.1085419 0.9847681 0.1085419 0.9847681 0.1085419 0.0152319 -0.1085419
1990000000 0.0148166 -0.1065715 0.9851834 0.1065715 0.9851834 0.1065715 0.0148166 -0.1065715
2011000000 0.0144161 -0.1046310 0.9855839 0.1046310 0.9855839 0.1046310 0.0144161 -0.1046310
2032000000 0.0140298 -0.1027196 0.9859702 0.1027196 0.9859702 0.1027196 0.0140298 -0.1027196
2053000000 0.0136572 -0.1008364 0.9863428 0.1008364 0.9863428 0.1008364 0.0136572 -0.1008364
2074000000 0.0132978 -0.0989806 0.9867022 0.0989806 0.9867022 0.0989806 0.0132978 -0.0989806
2095000000 0.0129510 -0.0971516 0.9870490 0.0971516 0.9870490 0.0971516 0.0129510 -0.0971516
2116000000 0.0126164 -0.0953486 0.9873836 0.0953486 0.9873836 0.0953486 0.0126164 -0.0953486
2137000000 0.0122936 -0.0935708 0.9877064 0.0935708 0.9877064 0.0935708 0.0122936 -0.0935708
2158000000 0.0119821 -0.0918176 0.9880179 0.0918176 0.9880179 0.0918176 0.0119821 -0.0918176
2179000000 0.0116815 -0.0900884 0.9883185 0.0900884 0.9883185 0.0900884 0.0116815 -0.0900884
2200000000 0.0113915 -0.0883825 0.9886085 0.0883825 0.9886085 0.0883825 0.0113915 -0.0883825
2221000000 0.0111115 -0.0866993 0.9888885 0.0866993 0.9888885 0.0866993 0.0111115 -0.0866993
2242000000 0.0108414 -0.0850383 0.9891586 0.0850383 0.9891586 0.0850383 0.0108414 -0.0850383
2263000000 0.0105808 -0.0833987 0.9894192 0.0833987 0.9894192 0.0833987 0.0105808 -0.0833987
2284000000 0.0103292 -0.0817802 0.9896708 0.0817802 0.9896708 0.0817802 0.0103292 -0.0817802
2305000000 0.0100865 -0.0801821 0.9899135 0.0801821 0.9899135 0.0801821 0.0100865 -0.0801821
2326000000 0.0098523 -0.0786040 0.9901477 0.0786040 0.9901477 0.0786040 0.0098523 -0.0786040
2347000000 0.0096264 -0.0770453 0.9903736 0.0770453 0.9903736 0.0770453 0.0096264 -0.0770453
2368000000 0.0094084 -0.0755056 0.9905916 0.0755056 0.9905916 0.0755056 0.0094084 -0.0755056
2389000000 0.0091981 -0.0739844 0.9908019 0.0739844 0.9908019 0.0739844 0.0091981 -0.0739844
2410000000 0.0089952 -0.0724812 0.9910048 0.0724812 0.9910048 0.0724812 0.0089952 -0.0724812
2431000000 0.0087996 -0.0709956 0.9912004 0.0709956 0.9912004 0.0709956 0.0087996 -0.0709956
2452000000 0.0086110 -0.0695272 0.9913890 0.0695272 0.9913890 0.0695272 0.0086110 -0.0695272
2473000000 0.0084291 -0.0680756 0.9915709 0.0680756 0.9915709 0.0680756 0.0084291 -0.0680756
2494000000 0.0082538 -0.0666403 0.9917462 0.0666403 0.9917462 0.0666403 0.0082538 -0.0666403
2515000000 0.0080848 -0.0652210 0.9919152 0.0652210 0.9919152 0.0652210 0.0080848 -0.0652210
2536000000 0.0079220 -0.0638173 0.9920780 0.0638173 0.9920780 0.0638173 0.0079220 -0.0638173
2557000000 0.0077652 -0.0624288 0.9922348 0.0624288 0.9922348 0.0624288 0.0077652 -0.0624288
2578000000 0.0076142 -0.0610552 0.9923858 0.0610552 0.9923858 0.0610552 0.0076142 -0.0610552
2599000000 0.0074688 -0.0596961 0.9925312 0.0596961 0.9925312 0.0596961 0.0074688 -0.0596961
2620000000 0.0073288 -0.0583513 0.9926712 0.0583513 0.9926712 0.0583513 0.0073288 -0.0583513
2641000000 0.0071941 -0.0570203 0.9928059 0.0570203 0.9928059 0.0570203 0.0071941 -0.0570203
2662000000 0.0070646 -0.0557029 0.9929354 0.0557029 0.9929354 0.0557029 0.0070646 -0.0557029
2683000000 0.0069401 -0.0543987 0.9930599 0.0543987 0.9930599 0.0543987 0.0069401 -0.0543987
2704000000 0.0068204 -0.0531076 0.9931796 0.0531076 0.9931796 0.0531076 0.0068204 -0.0531076
2725000000 0.0067055 -0.0518290 0.9932945 0.0518290 0.9932945 0.0518290 0.0067055 -0.0518290
2746000000 0.0065951 -0.0505629 0.9934049 0.0505629 0.9934049 0.0505629 0.0065951 -0.0505629
2767000000 0.0064892 -0.0493089 0.9935108 0.0493089 0.9935108 0.0493089 0.0064892 -0.0493089
2788000000 0.0063877 -0.0480668 0.9936123 0.0480668 0.9936123 0.0480668 0.0063877 -0.0480668
2809000000 0.0062904 -0.0468362 0.9937096 0.0468362 0.9937096 0.0468362 0.0062904 -0.0468362
2830000000 0.0061971 -0.0456170 0.9938029 0.0456170 0.9938029 0.0456170 0.0061971 -0.0456170
2851000000 0.0061079 -0.0444089 0.9938921 0.0444089 0.9938921 0.0444089 0.0061079 -0.0444089
2872000000 0.0060226 -0.0432117 0.9939774 0.0432117 0.9939774 0.0432117 0.0060226 -0.0432117
2893000000 0.0059411 -0.0420251 0.9940589 0.0420251 0.9940589 0.0420251 0.0059411 -0.0420251
2914000000 0.0058633 -0.0408490 0.9941367 0.0408490 0.9941367 0.0408490 0.0058633 -0.0408490
2935000000 0.0057891 -0.0396830 0.9942109 0.0396830 0.9942109 0.0396830 0.0057891 -0.0396830
2956000000 0.0057185 -0.0385270 0.9942815 0.0385270 0.9942815 0.0385270 0.0057185 -0.0385270
2977000000 0.0056512 -0.0373808 0.9943488 0.0373808 0.9943488 0.0373808 0.0056512 -0.0373808
2998000000 0.0055873 -0.0362441 0.9944127 0.0362441 0.9944127 0.0362441 0.0055873 -0.0362441
3019000000 0.0055267 -0.0351168 0.9944733 0.0351168 0.9944733 0.0351168 0.0055267 -0.0351168
3040000000 0.0054693 -0.0339987 0.9945307 0.0339987 0.9945307 0.0339987 0.0054693 -0.0339987
3061000000 0.0054150 -0.0328896 0.9945850 0.0328896 0.9945850 0.0328896 0.0054150 -0.0328896
3082000000 0.0053637 -0.0317893 0.9946363 0.0317893 0.9946363 0.0317893 0.0053637 -0.0317893
3103000000 0.0053154 -0.0306977 0.9946846 0.0306977 0.9946846 0.0306977 0.0053154 -0.0306977
3124000000 0.0052700 -0.0296145 0.9947300 0.0296145 0.9947300 0.0296145 0.0052700 -0.0296145
3145000000 0.0052275 -0.0285395 0.9947725 0.0285395 0.9947725 0.0285395 0.0052275 -0.0285395
3166000000 0.0051877 -0.0274728 0.9948123 0.0274728 0.9948123 0.0274728 0.0051877 -0.0274728
3187000000 0.0051506 -0.0264139 0.9948494 0.0264139 0.9948494 0.0264139 0.0051506 -0.0264139
3208000000 0.0051162 -0.0253629 0.9948838 0.0253629 0.9948838 0.0253629 0.0051162 -0.0253629
3229000000 0.0050844 -0.0243196 0.9949156 0.0243196 0.9949156 0.0243196 0.0050844 -0.0243196
3250000000 0.0050551 -0.0232837 0.9949449 0.0232837 0.9949449 0.0232837 0.0050551 -0.0232837
3271000000 0.0050284 -0.0222552 0.9949716 0.0222552 0.9949716 0.0222552 0.0050284 -0.0222552
3292000000 0.0050040 -0.0212339 0.9949960 0.0212339 0.9949960 0.0212339 0.0050040 -0.0212339
3313000000 0.0049821 -0.0202197 0.9950179 0.0202197 0.9950179 0.0202197 0.0049821 -0.0202197
3334000000 0.0049625 -0.0192125 0.9950375 0.0192125 0.9950375 0.0192125 0.0049625 -0.0192125
3355000000 0.0049452 -0.0182120 0.9950548 0.0182120 0.9950548 0.0182120 0.0049452 -0.0182120
3376000000 0.0049301 -0.0172182 0.9950699 0.0172182 0.9950699 0.0172182 0.0049301 -0.0172182
3397000000 0.0049173 -0.0162310 0.9950827 0.0162310 0.9950827 0.0162310 0.0049173 -0.0162310
3418000000 0.0049066 -0.0152502 0.9950934 0.0152502 0.9950934 0.0152502 0.0049066 -0.0152502
3439000000 0.0048981 -0.0142757 0.9951019 0.0142757 0.9951019 0.0142757 0.0048981 -0.0142757
3460000000 0.0048916 -0.0133073 0.9951084 0.0133073 0.9951084 0.0133073 0.0048916 -0.0133073
3481000000 0.0048872 -0.0123450 0.9951128 0.0123450 0.9951128 0.0123450 0.0048872 -0.0123450
3502000000 0.0048848 -0.0113887 0.9951152 0.0113887 0.9951152 0.0113887 0.0048848 -0.0113887
3523000000 0.0048844 -0.0104383 0.9951156 0.0104383 0.9951156 0.0104383 0.0048844 -0.0104383
3544000000 0.0048859 -0.0094935 0.9951141 0.0094935 0.9951141 0.0094935 0.0048859 -0.0094935
3565000000 0.0048894 -0.0085544 0.9951106 0.0085544 0.9951106 0.0085544 0.0048894 -0.0085544
3586000000 0.0048947 -0.0076208 0.9951053 0.0076208 0.9951053 0.0076208 0.0048947 -0.0076208
3607000000 0.0049019 -0.0066926 0.9950981 0.0066926 0.9950981 0.0066926 0.0049019 -0.0066926
3628000000 0.0049108 -0.0057698 0.9950892 0.0057698 0.9950892 0.0057698 0.0049108 -0.0057698
3649000000 0.0049216 -0.0048521 0.9950784 0.0048521 0.9950784 0.0048521 0.0049216 -0.0048521
3670000000 0.0049342 -0.0039396 0.9950658 0.0039396 0.9950658 0.0039396 0.0049342 -0.0039396
3691000000 0.0049484 -0.0030321 0.9950516 0.0030321 0.9950516 0.0030321 0.0049484 -0.0030321
3712000000 0.0049644 -0.0021296 0.9950356 0.0021296 0.9950356 0.0021296 0.0049644 -0.0021296
3733000000 0.0049821 -0.0012319 0.9950179 0.0012319 0.9950179 0.0012319 0.0049821 -0.0012319
3754000000 0.0050015 -0.0003389 0.9949985 0.0003389 0.9949985 0.0003389 0.0050015 -0.0003389
3775000000 0.0050224 0.0005494 0.9949776 -0.0005494 0.9949776 -0.0005494 0.0050224 0.0005494
3796000000 0.0050450 0.0014331 0.9949550 -0.0014331 0.9949550 -0.0014331 0.0050450 0.0014331
3817000000 0.0050692 0.0023122 0.9949308 -0.0023122 0.9949308 -0.0023122 0.0050692 0.0023122
3838000000 0.0050950 0.0031870 0.9949050 -0.0031870 0.9949050 -0.0031870 0.0050950 0.0031870
3859000000 0.0051223 0.0040574 0.9948777 -0.0040574 0.9948777 -0.0040574 0.0051223 0.0040574
3880000000 0.0051512 0.0049236 0.9948488 -0.0049236 0.9948488 -0.0049236 0.0051512 0.0049236
3901000000 0.0051816 0.0057856 0.9948184 -0.0057856 0.9948184 -0.0057856 0.0051816 0.0057856
3922000000 0.0052135 0.0066434 0.9947865 -0.0066434 0.9947865 -0.0066434 0.0052135 0.0066434
3943000000 0.0052469 0.0074973 0.9947531 -0.0074973 0.9947531 -0.0074973 0.0052469 0.0074973
3964000000 0.0052817 0.0083472 0.9947183 -0.0083472 0.9947183 -0.0083472 0.0052817 0.0083472
3985000000 0.0053180 0.0091931 0.9946820 -0.0091931 0.9946820 -0.0091931 0.0053180 0.0091931
4006000000 0.0053557 0.0100353 0.9946443 -0.0100353 0.9946443 -0.0100353 0.0053557 0.0100353
4027000000 0.0053949 0.0108737 0.9946051 -0.0108737 0.9946051 -0.0108737 0.0053949 0.0108737
4048000000 0.0054354 0.0117085 0.9945646 -0.0117085 0.9945646 -0.0117085 0.0054354 0.0117085
4069000000 0.0054774 0.0125396 0.9945226 -0.0125396 0.9945226 -0.0125396 0.0054774 0.0125396
4090000000 0.0055207 0.0133672 0.9944793 -0.0133672 0.9944793 -0.0133672 0.0055207 0.0133672
4111000000 0.0055654 0.0141912 0.9944346 -0.0141912 0.9944346 -0.0141912 0.0055654 0.0141912
4132000000 0.0056115 0.0150119 0.9943885 -0.0150119 0.9943885 -0.0150119 0.0056115 0.0150119
4153000000 0.0056589 0.0158292 0.9943411 -0.0158292 0.9943411 -0.0158292 0.0056589 0.0158292
4174000000 0.0057077 0.0166432 0.9942923 -0.0166432 0.9942923 -0.0166432 0.0057077 0.0166432
4195000000 0.0057578 0.0174540 0.9942422 -0.0174540 0.9942422 -0.0174540 0.0057578 0.0174540
4216000000 0.0058092 0.0182616 0.9941908 -0.0182616 0.9941908 -0.0182616 0.0058092 0.0182616
4237000000 0.0058619 0.0190661 0.9941381 -0.0190661 0.9941381 -0.0190661 0.0058619 0.0190661
4258000000 0.0059160 0.0198675 0.9940840 -0.0198675 0.9940840 -0.0198675 0.0059160 0.0198675
4279000000 0.0059713 0.0206659 0.9940287 -0.0206659 0.9940287 -0.0206659 0.0059713 0.0206659
4300000000 0.0060279 0.0214614 0.9939721 -0.0214614 0.9939721 -0.0214614 0.0060279 0.0214614
4321000000 0.0060858 0.0222540 0.9939142 -0.0222540 0.9939142 -0.0222540 0.0060858 0.0222540
4342000000 0.0061450 0.0230437 0.9938550 -0.0230437 0.9938550 -0.0230437 0.0061450 0.0230437
4363000000 0.0062054 0.0238307 0.9937946 -0.0238307 0.9937946 -0.0238307 0.0062054 0.0238307
4384000000 0.0062671 0.0246149 0.9937329 -0.0246149 0.9937329 -0.0246149 0.0062671 0.0246149
4405000000 0.0063301 0.0253964 0.9936699 -0.0253964 0.9936699 -0.0253964 0.0063301 0.0253964
4426000000 0.0063944 0.0261753 0.9936056 -0.0261753 0.9936056 -0.0261753 0.0063944 0.0261753
4447000000 0.0064598 0.0269516 0.9935402 -0.0269516 0.9935402 -0.0269516 0.0064598 0.0269516
4468000000 0.0065266 0.0277254 0.9934734 -0.0277254 0.9934734 -0.0277254 0.0065266 0.0277254
4489000000 0.0065946 0.0284967 0.9934054 -0.0284967 0.9934054 -0.0284967 0.0065946 0.0284967
4510000000 0.0066638 0.0292655 0.9933362 -0.0292655 0.9933362 -0.0292655 0.0066638 0.0292655
