!Murata Part Number: GRM1555C1H1R7WA01
!These Parameters are Measured in Series Mode Connection
!Data Generated on Mar 30, 2021
!       o--ll--o
!Port1            Port2
!       o------o
!Operation Temp=25[degC], DC Bias Voltage=0[V]
!Freq. Start=100[MHz] Stop=9[GHz] 401[Steps]
# Hz S RI R 50
!Freq.(Hz) S11(Real) S11(Imag) S21(Real) S21(Imag) S12(Real) S12(Imag) S22(Real) S22(Imag)
100000000 0.9886684 -0.1056210 0.0113316 0.1056210 0.0113316 0.1056210 0.9886684 -0.1056210
121000000 0.9834934 -0.1271421 0.0165066 0.1271421 0.0165066 0.1271421 0.9834934 -0.1271421
142000000 0.9774027 -0.1482974 0.0225973 0.1482974 0.0225973 0.1482974 0.9774027 -0.1482974
163000000 0.9704301 -0.1690320 0.0295699 0.1690320 0.0295699 0.1690320 0.9704301 -0.1690320
184000000 0.9626133 -0.1892947 0.0373867 0.1892947 0.0373867 0.1892947 0.9626133 -0.1892947
205000000 0.9539938 -0.2090385 0.0460062 0.2090385 0.0460062 0.2090385 0.9539938 -0.2090385
226000000 0.9446162 -0.2282206 0.0553838 0.2282206 0.0553838 0.2282206 0.9446162 -0.2282206
247000000 0.9345276 -0.2468031 0.0654724 0.2468031 0.0654724 0.2468031 0.9345276 -0.2468031
268000000 0.9237771 -0.2647526 0.0762229 0.2647526 0.0762229 0.2647526 0.9237771 -0.2647526
289000000 0.9124154 -0.2820407 0.0875846 0.2820407 0.0875846 0.2820407 0.9124154 -0.2820407
310000000 0.9004941 -0.2986435 0.0995059 0.2986435 0.0995059 0.2986435 0.9004941 -0.2986435
331000000 0.8880652 -0.3145422 0.1119348 0.3145422 0.1119348 0.3145422 0.8880652 -0.3145422
352000000 0.8751808 -0.3297223 0.1248192 0.3297223 0.1248192 0.3297223 0.8751808 -0.3297223
373000000 0.8618924 -0.3441738 0.1381076 0.3441738 0.1381076 0.3441738 0.8618924 -0.3441738
394000000 0.8482507 -0.3578909 0.1517493 0.3578909 0.1517493 0.3578909 0.8482507 -0.3578909
415000000 0.8343053 -0.3708719 0.1656947 0.3708719 0.1656947 0.3708719 0.8343053 -0.3708719
436000000 0.8201041 -0.3831185 0.1798959 0.3831185 0.1798959 0.3831185 0.8201041 -0.3831185
457000000 0.8056932 -0.3946360 0.1943068 0.3946360 0.1943068 0.3946360 0.8056932 -0.3946360
478000000 0.7911169 -0.4054327 0.2088831 0.4054327 0.2088831 0.4054327 0.7911169 -0.4054327
499000000 0.7764171 -0.4155196 0.2235829 0.4155196 0.2235829 0.4155196 0.7764171 -0.4155196
520000000 0.7616335 -0.4249103 0.2383665 0.4249103 0.2383665 0.4249103 0.7616335 -0.4249103
541000000 0.7468033 -0.4336203 0.2531967 0.4336203 0.2531967 0.4336203 0.7468033 -0.4336203
562000000 0.7319615 -0.4416672 0.2680385 0.4416672 0.2680385 0.4416672 0.7319615 -0.4416672
583000000 0.7171401 -0.4490699 0.2828599 0.4490699 0.2828599 0.4490699 0.7171401 -0.4490699
604000000 0.7023692 -0.4558488 0.2976308 0.4558488 0.2976308 0.4558488 0.7023692 -0.4558488
625000000 0.6876759 -0.4620252 0.3123241 0.4620252 0.3123241 0.4620252 0.6876759 -0.4620252
646000000 0.6730853 -0.4676211 0.3269147 0.4676211 0.3269147 0.4676211 0.6730853 -0.4676211
667000000 0.6586199 -0.4726592 0.3413801 0.4726592 0.3413801 0.4726592 0.6586199 -0.4726592
688000000 0.6443001 -0.4771624 0.3556999 0.4771624 0.3556999 0.4771624 0.6443001 -0.4771624
709000000 0.6301440 -0.4811540 0.3698560 0.4811540 0.3698560 0.4811540 0.6301440 -0.4811540
730000000 0.6161677 -0.4846572 0.3838323 0.4846572 0.3838323 0.4846572 0.6161677 -0.4846572
751000000 0.6023854 -0.4876951 0.3976146 0.4876951 0.3976146 0.4876951 0.6023854 -0.4876951
772000000 0.5888093 -0.4902904 0.4111907 0.4902904 0.4111907 0.4902904 0.5888093 -0.4902904
793000000 0.5754501 -0.4924656 0.4245499 0.4924656 0.4245499 0.4924656 0.5754501 -0.4924656
814000000 0.5623167 -0.4942429 0.4376833 0.4942429 0.4376833 0.4942429 0.5623167 -0.4942429
835000000 0.5494166 -0.4956436 0.4505834 0.4956436 0.4505834 0.4956436 0.5494166 -0.4956436
856000000 0.5367558 -0.4966888 0.4632442 0.4966888 0.4632442 0.4966888 0.5367558 -0.4966888
877000000 0.5243392 -0.4973987 0.4756608 0.4973987 0.4756608 0.4973987 0.5243392 -0.4973987
898000000 0.5121705 -0.4977930 0.4878295 0.4977930 0.4878295 0.4977930 0.5121705 -0.4977930
919000000 0.5002523 -0.4978906 0.4997477 0.4978906 0.4997477 0.4978906 0.5002523 -0.4978906
940000000 0.4885861 -0.4977098 0.5114139 0.4977098 0.5114139 0.4977098 0.4885861 -0.4977098
961000000 0.4771729 -0.4972679 0.5228271 0.4972679 0.5228271 0.4972679 0.4771729 -0.4972679
982000000 0.4660126 -0.4965818 0.5339874 0.4965818 0.5339874 0.4965818 0.4660126 -0.4965818
1003000000 0.4551044 -0.4956675 0.5448956 0.4956675 0.5448956 0.4956675 0.4551044 -0.4956675
1024000000 0.4444472 -0.4945401 0.5555528 0.4945401 0.5555528 0.4945401 0.4444472 -0.4945401
1045000000 0.4340389 -0.4932144 0.5659611 0.4932144 0.5659611 0.4932144 0.4340389 -0.4932144
1066000000 0.4238772 -0.4917040 0.5761228 0.4917040 0.5761228 0.4917040 0.4238772 -0.4917040
1087000000 0.4139593 -0.4900221 0.5860407 0.4900221 0.5860407 0.4900221 0.4139593 -0.4900221
1108000000 0.4042821 -0.4881812 0.5957179 0.4881812 0.5957179 0.4881812 0.4042821 -0.4881812
1129000000 0.3948421 -0.4861930 0.6051579 0.4861930 0.6051579 0.4861930 0.3948421 -0.4861930
1150000000 0.3856355 -0.4840688 0.6143645 0.4840688 0.6143645 0.4840688 0.3856355 -0.4840688
1171000000 0.3766583 -0.4818191 0.6233417 0.4818191 0.6233417 0.4818191 0.3766583 -0.4818191
1192000000 0.3679064 -0.4794538 0.6320936 0.4794538 0.6320936 0.4794538 0.3679064 -0.4794538
1213000000 0.3593755 -0.4769823 0.6406245 0.4769823 0.6406245 0.4769823 0.3593755 -0.4769823
1234000000 0.3510610 -0.4744134 0.6489390 0.4744134 0.6489390 0.4744134 0.3510610 -0.4744134
1255000000 0.3429585 -0.4717556 0.6570415 0.4717556 0.6570415 0.4717556 0.3429585 -0.4717556
1276000000 0.3350633 -0.4690165 0.6649367 0.4690165 0.6649367 0.4690165 0.3350633 -0.4690165
1297000000 0.3273707 -0.4662036 0.6726293 0.4662036 0.6726293 0.4662036 0.3273707 -0.4662036
1318000000 0.3198761 -0.4633237 0.6801239 0.4633237 0.6801239 0.4633237 0.3198761 -0.4633237
1339000000 0.3125748 -0.4603834 0.6874252 0.4603834 0.6874252 0.4603834 0.3125748 -0.4603834
1360000000 0.3054620 -0.4573886 0.6945380 0.4573886 0.6945380 0.4573886 0.3054620 -0.4573886
1381000000 0.2985332 -0.4543452 0.7014668 0.4543452 0.7014668 0.4543452 0.2985332 -0.4543452
1402000000 0.2917836 -0.4512584 0.7082164 0.4512584 0.7082164 0.4512584 0.2917836 -0.4512584
1423000000 0.2852086 -0.4481332 0.7147914 0.4481332 0.7147914 0.4481332 0.2852086 -0.4481332
1444000000 0.2788038 -0.4449742 0.7211962 0.4449742 0.7211962 0.4449742 0.2788038 -0.4449742
1465000000 0.2725647 -0.4417858 0.7274353 0.4417858 0.7274353 0.4417858 0.2725647 -0.4417858
1486000000 0.2664867 -0.4385721 0.7335133 0.4385721 0.7335133 0.4385721 0.2664867 -0.4385721
1507000000 0.2605657 -0.4353368 0.7394343 0.4353368 0.7394343 0.4353368 0.2605657 -0.4353368
1528000000 0.2547973 -0.4320836 0.7452027 0.4320836 0.7452027 0.4320836 0.2547973 -0.4320836
1549000000 0.2491774 -0.4288155 0.7508226 0.4288155 0.7508226 0.4288155 0.2491774 -0.4288155
1570000000 0.2437018 -0.4255358 0.7562982 0.4255358 0.7562982 0.4255358 0.2437018 -0.4255358
1591000000 0.2383666 -0.4222472 0.7616334 0.4222472 0.7616334 0.4222472 0.2383666 -0.4222472
1612000000 0.2331679 -0.4189525 0.7668321 0.4189525 0.7668321 0.4189525 0.2331679 -0.4189525
1633000000 0.2281018 -0.4156540 0.7718982 0.4156540 0.7718982 0.4156540 0.2281018 -0.4156540
1654000000 0.2231647 -0.4123540 0.7768353 0.4123540 0.7768353 0.4123540 0.2231647 -0.4123540
1675000000 0.2183528 -0.4090547 0.7816472 0.4090547 0.7816472 0.4090547 0.2183528 -0.4090547
1696000000 0.2136626 -0.4057580 0.7863374 0.4057580 0.7863374 0.4057580 0.2136626 -0.4057580
1717000000 0.2090907 -0.4024656 0.7909093 0.4024656 0.7909093 0.4024656 0.2090907 -0.4024656
1738000000 0.2046337 -0.3991794 0.7953663 0.3991794 0.7953663 0.3991794 0.2046337 -0.3991794
1759000000 0.2002883 -0.3959007 0.7997117 0.3959007 0.7997117 0.3959007 0.2002883 -0.3959007
1780000000 0.1960515 -0.3926311 0.8039485 0.3926311 0.8039485 0.3926311 0.1960515 -0.3926311
1801000000 0.1919200 -0.3893719 0.8080800 0.3893719 0.8080800 0.3893719 0.1919200 -0.3893719
1822000000 0.1878908 -0.3861241 0.8121092 0.3861241 0.8121092 0.3861241 0.1878908 -0.3861241
1843000000 0.1839612 -0.3828890 0.8160388 0.3828890 0.8160388 0.3828890 0.1839612 -0.3828890
1864000000 0.1801281 -0.3796675 0.8198719 0.3796675 0.8198719 0.3796675 0.1801281 -0.3796675
1885000000 0.1763889 -0.3764606 0.8236111 0.3764606 0.8236111 0.3764606 0.1763889 -0.3764606
1906000000 0.1727409 -0.3732692 0.8272591 0.3732692 0.8272591 0.3732692 0.1727409 -0.3732692
1927000000 0.1691816 -0.3700938 0.8308184 0.3700938 0.8308184 0.3700938 0.1691816 -0.3700938
1948000000 0.1657083 -0.3669354 0.8342917 0.3669354 0.8342917 0.3669354 0.1657083 -0.3669354
1969000000 0.1623187 -0.3637944 0.8376813 0.3637944 0.8376813 0.3637944 0.1623187 -0.3637944
1990000000 0.1590104 -0.3606715 0.8409896 0.3606715 0.8409896 0.3606715 0.1590104 -0.3606715
2011000000 0.1557811 -0.3575672 0.8442189 0.3575672 0.8442189 0.3575672 0.1557811 -0.3575672
2032000000 0.1526285 -0.3544819 0.8473715 0.3544819 0.8473715 0.3544819 0.1526285 -0.3544819
2053000000 0.1495506 -0.3514160 0.8504494 0.3514160 0.8504494 0.3514160 0.1495506 -0.3514160
2074000000 0.1465452 -0.3483699 0.8534548 0.3483699 0.8534548 0.3483699 0.1465452 -0.3483699
2095000000 0.1436104 -0.3453438 0.8563896 0.3453438 0.8563896 0.3453438 0.1436104 -0.3453438
2116000000 0.1407441 -0.3423382 0.8592559 0.3423382 0.8592559 0.3423382 0.1407441 -0.3423382
2137000000 0.1379444 -0.3393532 0.8620556 0.3393532 0.8620556 0.3393532 0.1379444 -0.3393532
2158000000 0.1352095 -0.3363890 0.8647905 0.3363890 0.8647905 0.3363890 0.1352095 -0.3363890
2179000000 0.1325376 -0.3334457 0.8674624 0.3334457 0.8674624 0.3334457 0.1325376 -0.3334457
2200000000 0.1299270 -0.3305236 0.8700730 0.3305236 0.8700730 0.3305236 0.1299270 -0.3305236
2221000000 0.1273761 -0.3276227 0.8726239 0.3276227 0.8726239 0.3276227 0.1273761 -0.3276227
2242000000 0.1248831 -0.3247431 0.8751169 0.3247431 0.8751169 0.3247431 0.1248831 -0.3247431
2263000000 0.1224464 -0.3218848 0.8775536 0.3218848 0.8775536 0.3218848 0.1224464 -0.3218848
2284000000 0.1200647 -0.3190480 0.8799353 0.3190480 0.8799353 0.3190480 0.1200647 -0.3190480
2305000000 0.1177364 -0.3162326 0.8822636 0.3162326 0.8822636 0.3162326 0.1177364 -0.3162326
2326000000 0.1154600 -0.3134385 0.8845400 0.3134385 0.8845400 0.3134385 0.1154600 -0.3134385
2347000000 0.1132341 -0.3106659 0.8867659 0.3106659 0.8867659 0.3106659 0.1132341 -0.3106659
2368000000 0.1110575 -0.3079147 0.8889425 0.3079147 0.8889425 0.3079147 0.1110575 -0.3079147
2389000000 0.1089288 -0.3051847 0.8910712 0.3051847 0.8910712 0.3051847 0.1089288 -0.3051847
2410000000 0.1068468 -0.3024760 0.8931532 0.3024760 0.8931532 0.3024760 0.1068468 -0.3024760
2431000000 0.1048102 -0.2997884 0.8951898 0.2997884 0.8951898 0.2997884 0.1048102 -0.2997884
2452000000 0.1028178 -0.2971219 0.8971822 0.2971219 0.8971822 0.2971219 0.1028178 -0.2971219
2473000000 0.1008684 -0.2944763 0.8991316 0.2944763 0.8991316 0.2944763 0.1008684 -0.2944763
2494000000 0.0989610 -0.2918516 0.9010390 0.2918516 0.9010390 0.2918516 0.0989610 -0.2918516
2515000000 0.0970945 -0.2892476 0.9029055 0.2892476 0.9029055 0.2892476 0.0970945 -0.2892476
2536000000 0.0952678 -0.2866641 0.9047322 0.2866641 0.9047322 0.2866641 0.0952678 -0.2866641
2557000000 0.0934799 -0.2841012 0.9065201 0.2841012 0.9065201 0.2841012 0.0934799 -0.2841012
2578000000 0.0917299 -0.2815585 0.9082701 0.2815585 0.9082701 0.2815585 0.0917299 -0.2815585
2599000000 0.0900166 -0.2790360 0.9099834 0.2790360 0.9099834 0.2790360 0.0900166 -0.2790360
2620000000 0.0883393 -0.2765334 0.9116607 0.2765334 0.9116607 0.2765334 0.0883393 -0.2765334
2641000000 0.0866970 -0.2740508 0.9133030 0.2740508 0.9133030 0.2740508 0.0866970 -0.2740508
2662000000 0.0850888 -0.2715877 0.9149112 0.2715877 0.9149112 0.2715877 0.0850888 -0.2715877
2683000000 0.0835140 -0.2691442 0.9164860 0.2691442 0.9164860 0.2691442 0.0835140 -0.2691442
2704000000 0.0819715 -0.2667200 0.9180285 0.2667200 0.9180285 0.2667200 0.0819715 -0.2667200
2725000000 0.0804608 -0.2643149 0.9195392 0.2643149 0.9195392 0.2643149 0.0804608 -0.2643149
2746000000 0.0789809 -0.2619287 0.9210191 0.2619287 0.9210191 0.2619287 0.0789809 -0.2619287
2767000000 0.0775312 -0.2595614 0.9224688 0.2595614 0.9224688 0.2595614 0.0775312 -0.2595614
2788000000 0.0761109 -0.2572126 0.9238891 0.2572126 0.9238891 0.2572126 0.0761109 -0.2572126
2809000000 0.0747192 -0.2548822 0.9252808 0.2548822 0.9252808 0.2548822 0.0747192 -0.2548822
2830000000 0.0733556 -0.2525701 0.9266444 0.2525701 0.9266444 0.2525701 0.0733556 -0.2525701
2851000000 0.0720193 -0.2502759 0.9279807 0.2502759 0.9279807 0.2502759 0.0720193 -0.2502759
2872000000 0.0707097 -0.2479996 0.9292903 0.2479996 0.9292903 0.2479996 0.0707097 -0.2479996
2893000000 0.0694261 -0.2457409 0.9305739 0.2457409 0.9305739 0.2457409 0.0694261 -0.2457409
2914000000 0.0681679 -0.2434997 0.9318321 0.2434997 0.9318321 0.2434997 0.0681679 -0.2434997
2935000000 0.0669346 -0.2412757 0.9330654 0.2412757 0.9330654 0.2412757 0.0669346 -0.2412757
2956000000 0.0657256 -0.2390687 0.9342744 0.2390687 0.9342744 0.2390687 0.0657256 -0.2390687
2977000000 0.0645402 -0.2368786 0.9354598 0.2368786 0.9354598 0.2368786 0.0645402 -0.2368786
2998000000 0.0633780 -0.2347052 0.9366220 0.2347052 0.9366220 0.2347052 0.0633780 -0.2347052
3019000000 0.0622384 -0.2325483 0.9377616 0.2325483 0.9377616 0.2325483 0.0622384 -0.2325483
3040000000 0.0611210 -0.2304076 0.9388790 0.2304076 0.9388790 0.2304076 0.0611210 -0.2304076
3061000000 0.0600251 -0.2282830 0.9399749 0.2282830 0.9399749 0.2282830 0.0600251 -0.2282830
3082000000 0.0589503 -0.2261744 0.9410497 0.2261744 0.9410497 0.2261744 0.0589503 -0.2261744
3103000000 0.0578962 -0.2240814 0.9421038 0.2240814 0.9421038 0.2240814 0.0578962 -0.2240814
3124000000 0.0568622 -0.2220040 0.9431378 0.2220040 0.9431378 0.2220040 0.0568622 -0.2220040
3145000000 0.0558480 -0.2199418 0.9441520 0.2199418 0.9441520 0.2199418 0.0558480 -0.2199418
3166000000 0.0548531 -0.2178949 0.9451469 0.2178949 0.9451469 0.2178949 0.0548531 -0.2178949
3187000000 0.0538770 -0.2158629 0.9461230 0.2158629 0.9461230 0.2158629 0.0538770 -0.2158629
3208000000 0.0529194 -0.2138456 0.9470806 0.2138456 0.9470806 0.2138456 0.0529194 -0.2138456
3229000000 0.0519799 -0.2118430 0.9480201 0.2118430 0.9480201 0.2118430 0.0519799 -0.2118430
3250000000 0.0510580 -0.2098548 0.9489420 0.2098548 0.9489420 0.2098548 0.0510580 -0.2098548
3271000000 0.0501534 -0.2078808 0.9498466 0.2078808 0.9498466 0.2078808 0.0501534 -0.2078808
3292000000 0.0492657 -0.2059208 0.9507343 0.2059208 0.9507343 0.2059208 0.0492657 -0.2059208
3313000000 0.0483946 -0.2039747 0.9516054 0.2039747 0.9516054 0.2039747 0.0483946 -0.2039747
3334000000 0.0475396 -0.2020424 0.9524604 0.2020424 0.9524604 0.2020424 0.0475396 -0.2020424
3355000000 0.0467006 -0.2001235 0.9532994 0.2001235 0.9532994 0.2001235 0.0467006 -0.2001235
3376000000 0.0458770 -0.1982180 0.9541230 0.1982180 0.9541230 0.1982180 0.0458770 -0.1982180
3397000000 0.0450687 -0.1963257 0.9549313 0.1963257 0.9549313 0.1963257 0.0450687 -0.1963257
3418000000 0.0442753 -0.1944463 0.9557247 0.1944463 0.9557247 0.1944463 0.0442753 -0.1944463
3439000000 0.0434965 -0.1925798 0.9565035 0.1925798 0.9565035 0.1925798 0.0434965 -0.1925798
3460000000 0.0427319 -0.1907260 0.9572681 0.1907260 0.9572681 0.1907260 0.0427319 -0.1907260
3481000000 0.0419814 -0.1888847 0.9580186 0.1888847 0.9580186 0.1888847 0.0419814 -0.1888847
3502000000 0.0412446 -0.1870558 0.9587554 0.1870558 0.9587554 0.1870558 0.0412446 -0.1870558
3523000000 0.0405212 -0.1852390 0.9594788 0.1852390 0.9594788 0.1852390 0.0405212 -0.1852390
3544000000 0.0398110 -0.1834342 0.9601890 0.1834342 0.9601890 0.1834342 0.0398110 -0.1834342
3565000000 0.0391137 -0.1816414 0.9608863 0.1816414 0.9608863 0.1816414 0.0391137 -0.1816414
3586000000 0.0384291 -0.1798602 0.9615709 0.1798602 0.9615709 0.1798602 0.0384291 -0.1798602
3607000000 0.0377569 -0.1780906 0.9622431 0.1780906 0.9622431 0.1780906 0.0377569 -0.1780906
3628000000 0.0370968 -0.1763324 0.9629032 0.1763324 0.9629032 0.1763324 0.0370968 -0.1763324
3649000000 0.0364487 -0.1745854 0.9635513 0.1745854 0.9635513 0.1745854 0.0364487 -0.1745854
3670000000 0.0358123 -0.1728496 0.9641877 0.1728496 0.9641877 0.1728496 0.0358123 -0.1728496
3691000000 0.0351874 -0.1711247 0.9648126 0.1711247 0.9648126 0.1711247 0.0351874 -0.1711247
3712000000 0.0345737 -0.1694106 0.9654263 0.1694106 0.9654263 0.1694106 0.0345737 -0.1694106
3733000000 0.0339711 -0.1677072 0.9660289 0.1677072 0.9660289 0.1677072 0.0339711 -0.1677072
3754000000 0.0333793 -0.1660143 0.9666207 0.1660143 0.9666207 0.1660143 0.0333793 -0.1660143
3775000000 0.0327982 -0.1643318 0.9672018 0.1643318 0.9672018 0.1643318 0.0327982 -0.1643318
3796000000 0.0322275 -0.1626595 0.9677725 0.1626595 0.9677725 0.1626595 0.0322275 -0.1626595
3817000000 0.0316671 -0.1609974 0.9683329 0.1609974 0.9683329 0.1609974 0.0316671 -0.1609974
3838000000 0.0311167 -0.1593452 0.9688833 0.1593452 0.9688833 0.1593452 0.0311167 -0.1593452
3859000000 0.0305762 -0.1577028 0.9694238 0.1577028 0.9694238 0.1577028 0.0305762 -0.1577028
3880000000 0.0300455 -0.1560702 0.9699545 0.1560702 0.9699545 0.1560702 0.0300455 -0.1560702
3901000000 0.0295242 -0.1544471 0.9704758 0.1544471 0.9704758 0.1544471 0.0295242 -0.1544471
3922000000 0.0290123 -0.1528335 0.9709877 0.1528335 0.9709877 0.1528335 0.0290123 -0.1528335
3943000000 0.0285096 -0.1512291 0.9714904 0.1512291 0.9714904 0.1512291 0.0285096 -0.1512291
3964000000 0.0280160 -0.1496340 0.9719840 0.1496340 0.9719840 0.1496340 0.0280160 -0.1496340
3985000000 0.0275312 -0.1480479 0.9724688 0.1480479 0.9724688 0.1480479 0.0275312 -0.1480479
4006000000 0.0270551 -0.1464708 0.9729449 0.1464708 0.9729449 0.1464708 0.0270551 -0.1464708
4027000000 0.0265876 -0.1449024 0.9734124 0.1449024 0.9734124 0.1449024 0.0265876 -0.1449024
4048000000 0.0261286 -0.1433428 0.9738714 0.1433428 0.9738714 0.1433428 0.0261286 -0.1433428
4069000000 0.0256778 -0.1417917 0.9743222 0.1417917 0.9743222 0.1417917 0.0256778 -0.1417917
4090000000 0.0252352 -0.1402491 0.9747648 0.1402491 0.9747648 0.1402491 0.0252352 -0.1402491
4111000000 0.0248006 -0.1387148 0.9751994 0.1387148 0.9751994 0.1387148 0.0248006 -0.1387148
4132000000 0.0243738 -0.1371887 0.9756262 0.1371887 0.9756262 0.1371887 0.0243738 -0.1371887
4153000000 0.0239549 -0.1356708 0.9760451 0.1356708 0.9760451 0.1356708 0.0239549 -0.1356708
4174000000 0.0235435 -0.1341608 0.9764565 0.1341608 0.9764565 0.1341608 0.0235435 -0.1341608
4195000000 0.0231396 -0.1326588 0.9768604 0.1326588 0.9768604 0.1326588 0.0231396 -0.1326588
4216000000 0.0227432 -0.1311645 0.9772568 0.1311645 0.9772568 0.1311645 0.0227432 -0.1311645
4237000000 0.0223539 -0.1296778 0.9776461 0.1296778 0.9776461 0.1296778 0.0223539 -0.1296778
4258000000 0.0219719 -0.1281987 0.9780281 0.1281987 0.9780281 0.1281987 0.0219719 -0.1281987
4279000000 0.0215968 -0.1267271 0.9784032 0.1267271 0.9784032 0.1267271 0.0215968 -0.1267271
4300000000 0.0212287 -0.1252628 0.9787713 0.1252628 0.9787713 0.1252628 0.0212287 -0.1252628
4321000000 0.0208675 -0.1238057 0.9791325 0.1238057 0.9791325 0.1238057 0.0208675 -0.1238057
4342000000 0.0205129 -0.1223558 0.9794871 0.1223558 0.9794871 0.1223558 0.0205129 -0.1223558
4363000000 0.0201649 -0.1209129 0.9798351 0.1209129 0.9798351 0.1209129 0.0201649 -0.1209129
4384000000 0.0198235 -0.1194769 0.9801765 0.1194769 0.9801765 0.1194769 0.0198235 -0.1194769
4405000000 0.0194885 -0.1180478 0.9805115 0.1180478 0.9805115 0.1180478 0.0194885 -0.1180478
4426000000 0.0191599 -0.1166254 0.9808401 0.1166254 0.9808401 0.1166254 0.0191599 -0.1166254
4447000000 0.0188374 -0.1152096 0.9811626 0.1152096 0.9811626 0.1152096 0.0188374 -0.1152096
4468000000 0.0185211 -0.1138004 0.9814789 0.1138004 0.9814789 0.1138004 0.0185211 -0.1138004
4489000000 0.0182109 -0.1123976 0.9817891 0.1123976 0.9817891 0.1123976 0.0182109 -0.1123976
4510000000 0.0179067 -0.1110012 0.9820933 0.1110012 0.9820933 0.1110012 0.0179067 -0.1110012
