!Murata Part Number: GRM1555C2A471JE01
!These Parameters are Measured in Series Mode Connection
!Data Generated on Mar 30, 2021
!       o--ll--o
!Port1            Port2
!       o------o
!Operation Temp=25[degC], DC Bias Voltage=0[V]
!Freq. Start=100[MHz] Stop=9[GHz] 401[Steps]
# Hz S RI R 50
!Freq.(Hz) S11(Real) S11(Imag) S21(Real) S21(Imag) S12(Real) S12(Imag) S22(Real) S22(Imag)
100000000 0.0014144 -0.0316022 0.9985856 0.0316022 0.9985856 0.0316022 0.0014144 -0.0316022
121000000 0.0010735 -0.0253074 0.9989265 0.0253074 0.9989265 0.0253074 0.0010735 -0.0253074
142000000 0.0008796 -0.0207395 0.9991204 0.0207395 0.9991204 0.0207395 0.0008796 -0.0207395
163000000 0.0007630 -0.0172319 0.9992370 0.0172319 0.9992370 0.0172319 0.0007630 -0.0172319
184000000 0.0006914 -0.0144218 0.9993086 0.0144218 0.9993086 0.0144218 0.0006914 -0.0144218
205000000 0.0006483 -0.0120948 0.9993517 0.0120948 0.9993517 0.0120948 0.0006483 -0.0120948
226000000 0.0006242 -0.0101162 0.9993758 0.0101162 0.9993758 0.0101162 0.0006242 -0.0101162
247000000 0.0006139 -0.0083968 0.9993861 0.0083968 0.9993861 0.0083968 0.0006139 -0.0083968
268000000 0.0006138 -0.0068756 0.9993862 0.0068756 0.9993862 0.0068756 0.0006138 -0.0068756
289000000 0.0006218 -0.0055090 0.9993782 0.0055090 0.9993782 0.0055090 0.0006218 -0.0055090
310000000 0.0006365 -0.0042653 0.9993635 0.0042653 0.9993635 0.0042653 0.0006365 -0.0042653
331000000 0.0006567 -0.0031208 0.9993433 0.0031208 0.9993433 0.0031208 0.0006567 -0.0031208
352000000 0.0006820 -0.0020572 0.9993180 0.0020572 0.9993180 0.0020572 0.0006820 -0.0020572
373000000 0.0007119 -0.0010603 0.9992881 0.0010603 0.9992881 0.0010603 0.0007119 -0.0010603
394000000 0.0007460 -0.0001191 0.9992540 0.0001191 0.9992540 0.0001191 0.0007460 -0.0001191
415000000 0.0007842 0.0007757 0.9992158 -0.0007757 0.9992158 -0.0007757 0.0007842 0.0007757
436000000 0.0008266 0.0016314 0.9991734 -0.0016314 0.9991734 -0.0016314 0.0008266 0.0016314
457000000 0.0008732 0.0024544 0.9991268 -0.0024544 0.9991268 -0.0024544 0.0008732 0.0024544
478000000 0.0009242 0.0032499 0.9990758 -0.0032499 0.9990758 -0.0032499 0.0009242 0.0032499
499000000 0.0009801 0.0040227 0.9990199 -0.0040227 0.9990199 -0.0040227 0.0009801 0.0040227
520000000 0.0010412 0.0047769 0.9989588 -0.0047769 0.9989588 -0.0047769 0.0010412 0.0047769
541000000 0.0011085 0.0055165 0.9988915 -0.0055165 0.9988915 -0.0055165 0.0011085 0.0055165
562000000 0.0011831 0.0062452 0.9988169 -0.0062452 0.9988169 -0.0062452 0.0011831 0.0062452
583000000 0.0012667 0.0069668 0.9987333 -0.0069668 0.9987333 -0.0069668 0.0012667 0.0069668
604000000 0.0013618 0.0076853 0.9986382 -0.0076853 0.9986382 -0.0076853 0.0013618 0.0076853
625000000 0.0014723 0.0084051 0.9985277 -0.0084051 0.9985277 -0.0084051 0.0014723 0.0084051
646000000 0.0016041 0.0091310 0.9983959 -0.0091310 0.9983959 -0.0091310 0.0016041 0.0091310
667000000 0.0017671 0.0098682 0.9982329 -0.0098682 0.9982329 -0.0098682 0.0017671 0.0098682
688000000 0.0019779 0.0106216 0.9980221 -0.0106216 0.9980221 -0.0106216 0.0019779 0.0106216
709000000 0.0022654 0.0113922 0.9977346 -0.0113922 0.9977346 -0.0113922 0.0022654 0.0113922
730000000 0.0026795 0.0121660 0.9973205 -0.0121660 0.9973205 -0.0121660 0.0026795 0.0121660
751000000 0.0032978 0.0128786 0.9967022 -0.0128786 0.9967022 -0.0128786 0.0032978 0.0128786
772000000 0.0041782 0.0133312 0.9958218 -0.0133312 0.9958218 -0.0133312 0.0041782 0.0133312
793000000 0.0050978 0.0131703 0.9949022 -0.0131703 0.9949022 -0.0131703 0.0050978 0.0131703
814000000 0.0053447 0.0124778 0.9946553 -0.0124778 0.9946553 -0.0124778 0.0053447 0.0124778
835000000 0.0047868 0.0121399 0.9952132 -0.0121399 0.9952132 -0.0121399 0.0047868 0.0121399
856000000 0.0041295 0.0124528 0.9958705 -0.0124528 0.9958705 -0.0124528 0.0041295 0.0124528
877000000 0.0037118 0.0130958 0.9962882 -0.0130958 0.9962882 -0.0130958 0.0037118 0.0130958
898000000 0.0035183 0.0138362 0.9964817 -0.0138362 0.9964817 -0.0138362 0.0035183 0.0138362
919000000 0.0034798 0.0145876 0.9965202 -0.0145876 0.9965202 -0.0145876 0.0034798 0.0145876
940000000 0.0035495 0.0153255 0.9964505 -0.0153255 0.9964505 -0.0153255 0.0035495 0.0153255
961000000 0.0037033 0.0160444 0.9962967 -0.0160444 0.9962967 -0.0160444 0.0037033 0.0160444
982000000 0.0039314 0.0167428 0.9960686 -0.0167428 0.9960686 -0.0167428 0.0039314 0.0167428
1003000000 0.0042335 0.0174177 0.9957665 -0.0174177 0.9957665 -0.0174177 0.0042335 0.0174177
1024000000 0.0046148 0.0180610 0.9953852 -0.0180610 0.9953852 -0.0180610 0.0046148 0.0180610
1045000000 0.0050833 0.0186576 0.9949167 -0.0186576 0.9949167 -0.0186576 0.0050833 0.0186576
1066000000 0.0056463 0.0191815 0.9943537 -0.0191815 0.9943537 -0.0191815 0.0056463 0.0191815
1087000000 0.0063039 0.0195937 0.9936961 -0.0195937 0.9936961 -0.0195937 0.0063039 0.0195937
1108000000 0.0070378 0.0198426 0.9929622 -0.0198426 0.9929622 -0.0198426 0.0070378 0.0198426
1129000000 0.0077977 0.0198727 0.9922023 -0.0198727 0.9922023 -0.0198727 0.0077977 0.0198727
1150000000 0.0084917 0.0196485 0.9915083 -0.0196485 0.9915083 -0.0196485 0.0084917 0.0196485
1171000000 0.0089981 0.0191892 0.9910019 -0.0191892 0.9910019 -0.0191892 0.0089981 0.0191892
1192000000 0.0092102 0.0185911 0.9907898 -0.0185911 0.9907898 -0.0185911 0.0092102 0.0185911
1213000000 0.0090938 0.0180041 0.9909062 -0.0180041 0.9909062 -0.0180041 0.0090938 0.0180041
1234000000 0.0087066 0.0175666 0.9912934 -0.0175666 0.9912934 -0.0175666 0.0087066 0.0175666
1255000000 0.0081605 0.0173512 0.9918395 -0.0173512 0.9918395 -0.0173512 0.0081605 0.0173512
1276000000 0.0075657 0.0173600 0.9924343 -0.0173600 0.9924343 -0.0173600 0.0075657 0.0173600
1297000000 0.0069980 0.0175529 0.9930020 -0.0175529 0.9930020 -0.0175529 0.0069980 0.0175529
1318000000 0.0064961 0.0178786 0.9935039 -0.0178786 0.9935039 -0.0178786 0.0064961 0.0178786
1339000000 0.0060721 0.0182915 0.9939279 -0.0182915 0.9939279 -0.0182915 0.0060721 0.0182915
1360000000 0.0057240 0.0187572 0.9942760 -0.0187572 0.9942760 -0.0187572 0.0057240 0.0187572
1381000000 0.0054433 0.0192522 0.9945567 -0.0192522 0.9945567 -0.0192522 0.0054433 0.0192522
1402000000 0.0052197 0.0197610 0.9947803 -0.0197610 0.9947803 -0.0197610 0.0052197 0.0197610
1423000000 0.0050435 0.0202738 0.9949565 -0.0202738 0.9949565 -0.0202738 0.0050435 0.0202738
1444000000 0.0049062 0.0207849 0.9950938 -0.0207849 0.9950938 -0.0207849 0.0049062 0.0207849
1465000000 0.0048007 0.0212909 0.9951993 -0.0212909 0.9951993 -0.0212909 0.0048007 0.0212909
1486000000 0.0047210 0.0217898 0.9952790 -0.0217898 0.9952790 -0.0217898 0.0047210 0.0217898
1507000000 0.0046626 0.0222807 0.9953374 -0.0222807 0.9953374 -0.0222807 0.0046626 0.0222807
1528000000 0.0046217 0.0227635 0.9953783 -0.0227635 0.9953783 -0.0227635 0.0046217 0.0227635
1549000000 0.0045951 0.0232381 0.9954049 -0.0232381 0.9954049 -0.0232381 0.0045951 0.0232381
1570000000 0.0045805 0.0237048 0.9954195 -0.0237048 0.9954195 -0.0237048 0.0045805 0.0237048
1591000000 0.0045760 0.0241639 0.9954240 -0.0241639 0.9954240 -0.0241639 0.0045760 0.0241639
1612000000 0.0045798 0.0246159 0.9954202 -0.0246159 0.9954202 -0.0246159 0.0045798 0.0246159
1633000000 0.0045907 0.0250612 0.9954093 -0.0250612 0.9954093 -0.0250612 0.0045907 0.0250612
1654000000 0.0046076 0.0255003 0.9953924 -0.0255003 0.9953924 -0.0255003 0.0046076 0.0255003
1675000000 0.0046297 0.0259334 0.9953703 -0.0259334 0.9953703 -0.0259334 0.0046297 0.0259334
1696000000 0.0046561 0.0263612 0.9953439 -0.0263612 0.9953439 -0.0263612 0.0046561 0.0263612
1717000000 0.0046863 0.0267838 0.9953137 -0.0267838 0.9953137 -0.0267838 0.0046863 0.0267838
1738000000 0.0047197 0.0272016 0.9952803 -0.0272016 0.9952803 -0.0272016 0.0047197 0.0272016
1759000000 0.0047560 0.0276151 0.9952440 -0.0276151 0.9952440 -0.0276151 0.0047560 0.0276151
1780000000 0.0047946 0.0280243 0.9952054 -0.0280243 0.9952054 -0.0280243 0.0047946 0.0280243
1801000000 0.0048354 0.0284297 0.9951646 -0.0284297 0.9951646 -0.0284297 0.0048354 0.0284297
1822000000 0.0048781 0.0288314 0.9951219 -0.0288314 0.9951219 -0.0288314 0.0048781 0.0288314
1843000000 0.0049223 0.0292297 0.9950777 -0.0292297 0.9950777 -0.0292297 0.0049223 0.0292297
1864000000 0.0049680 0.0296247 0.9950320 -0.0296247 0.9950320 -0.0296247 0.0049680 0.0296247
1885000000 0.0050149 0.0300167 0.9949851 -0.0300167 0.9949851 -0.0300167 0.0050149 0.0300167
1906000000 0.0050629 0.0304059 0.9949371 -0.0304059 0.9949371 -0.0304059 0.0050629 0.0304059
1927000000 0.0051119 0.0307923 0.9948881 -0.0307923 0.9948881 -0.0307923 0.0051119 0.0307923
1948000000 0.0051617 0.0311762 0.9948383 -0.0311762 0.9948383 -0.0311762 0.0051617 0.0311762
1969000000 0.0052123 0.0315577 0.9947877 -0.0315577 0.9947877 -0.0315577 0.0052123 0.0315577
1990000000 0.0052635 0.0319368 0.9947365 -0.0319368 0.9947365 -0.0319368 0.0052635 0.0319368
2011000000 0.0053152 0.0323138 0.9946848 -0.0323138 0.9946848 -0.0323138 0.0053152 0.0323138
2032000000 0.0053675 0.0326888 0.9946325 -0.0326888 0.9946325 -0.0326888 0.0053675 0.0326888
2053000000 0.0054202 0.0330617 0.9945798 -0.0330617 0.9945798 -0.0330617 0.0054202 0.0330617
2074000000 0.0054733 0.0334328 0.9945267 -0.0334328 0.9945267 -0.0334328 0.0054733 0.0334328
2095000000 0.0055268 0.0338021 0.9944732 -0.0338021 0.9944732 -0.0338021 0.0055268 0.0338021
2116000000 0.0055805 0.0341698 0.9944195 -0.0341698 0.9944195 -0.0341698 0.0055805 0.0341698
2137000000 0.0056345 0.0345357 0.9943655 -0.0345357 0.9943655 -0.0345357 0.0056345 0.0345357
2158000000 0.0056887 0.0349002 0.9943113 -0.0349002 0.9943113 -0.0349002 0.0056887 0.0349002
2179000000 0.0057431 0.0352631 0.9942569 -0.0352631 0.9942569 -0.0352631 0.0057431 0.0352631
2200000000 0.0057977 0.0356247 0.9942023 -0.0356247 0.9942023 -0.0356247 0.0057977 0.0356247
2221000000 0.0058524 0.0359848 0.9941476 -0.0359848 0.9941476 -0.0359848 0.0058524 0.0359848
2242000000 0.0059072 0.0363437 0.9940928 -0.0363437 0.9940928 -0.0363437 0.0059072 0.0363437
2263000000 0.0059622 0.0367013 0.9940378 -0.0367013 0.9940378 -0.0367013 0.0059622 0.0367013
2284000000 0.0060171 0.0370578 0.9939829 -0.0370578 0.9939829 -0.0370578 0.0060171 0.0370578
2305000000 0.0060722 0.0374131 0.9939278 -0.0374131 0.9939278 -0.0374131 0.0060722 0.0374131
2326000000 0.0061273 0.0377672 0.9938727 -0.0377672 0.9938727 -0.0377672 0.0061273 0.0377672
2347000000 0.0061824 0.0381203 0.9938176 -0.0381203 0.9938176 -0.0381203 0.0061824 0.0381203
2368000000 0.0062376 0.0384724 0.9937624 -0.0384724 0.9937624 -0.0384724 0.0062376 0.0384724
2389000000 0.0062928 0.0388235 0.9937072 -0.0388235 0.9937072 -0.0388235 0.0062928 0.0388235
2410000000 0.0063479 0.0391737 0.9936521 -0.0391737 0.9936521 -0.0391737 0.0063479 0.0391737
2431000000 0.0064031 0.0395230 0.9935969 -0.0395230 0.9935969 -0.0395230 0.0064031 0.0395230
2452000000 0.0064583 0.0398713 0.9935417 -0.0398713 0.9935417 -0.0398713 0.0064583 0.0398713
2473000000 0.0065134 0.0402189 0.9934866 -0.0402189 0.9934866 -0.0402189 0.0065134 0.0402189
2494000000 0.0065685 0.0405656 0.9934315 -0.0405656 0.9934315 -0.0405656 0.0065685 0.0405656
2515000000 0.0066236 0.0409115 0.9933764 -0.0409115 0.9933764 -0.0409115 0.0066236 0.0409115
2536000000 0.0066787 0.0412567 0.9933213 -0.0412567 0.9933213 -0.0412567 0.0066787 0.0412567
2557000000 0.0067337 0.0416011 0.9932663 -0.0416011 0.9932663 -0.0416011 0.0067337 0.0416011
2578000000 0.0067887 0.0419448 0.9932113 -0.0419448 0.9932113 -0.0419448 0.0067887 0.0419448
2599000000 0.0068436 0.0422879 0.9931564 -0.0422879 0.9931564 -0.0422879 0.0068436 0.0422879
2620000000 0.0068985 0.0426302 0.9931015 -0.0426302 0.9931015 -0.0426302 0.0068985 0.0426302
2641000000 0.0069534 0.0429720 0.9930466 -0.0429720 0.9930466 -0.0429720 0.0069534 0.0429720
2662000000 0.0070082 0.0433131 0.9929918 -0.0433131 0.9929918 -0.0433131 0.0070082 0.0433131
2683000000 0.0070629 0.0436536 0.9929371 -0.0436536 0.9929371 -0.0436536 0.0070629 0.0436536
2704000000 0.0071176 0.0439936 0.9928824 -0.0439936 0.9928824 -0.0439936 0.0071176 0.0439936
2725000000 0.0071723 0.0443330 0.9928277 -0.0443330 0.9928277 -0.0443330 0.0071723 0.0443330
2746000000 0.0072269 0.0446718 0.9927731 -0.0446718 0.9927731 -0.0446718 0.0072269 0.0446718
2767000000 0.0072814 0.0450102 0.9927186 -0.0450102 0.9927186 -0.0450102 0.0072814 0.0450102
2788000000 0.0073360 0.0453480 0.9926640 -0.0453480 0.9926640 -0.0453480 0.0073360 0.0453480
2809000000 0.0073904 0.0456853 0.9926096 -0.0456853 0.9926096 -0.0456853 0.0073904 0.0456853
2830000000 0.0074448 0.0460222 0.9925552 -0.0460222 0.9925552 -0.0460222 0.0074448 0.0460222
2851000000 0.0074992 0.0463586 0.9925008 -0.0463586 0.9925008 -0.0463586 0.0074992 0.0463586
2872000000 0.0075535 0.0466945 0.9924465 -0.0466945 0.9924465 -0.0466945 0.0075535 0.0466945
2893000000 0.0076078 0.0470300 0.9923922 -0.0470300 0.9923922 -0.0470300 0.0076078 0.0470300
2914000000 0.0076620 0.0473651 0.9923380 -0.0473651 0.9923380 -0.0473651 0.0076620 0.0473651
2935000000 0.0077162 0.0476998 0.9922838 -0.0476998 0.9922838 -0.0476998 0.0077162 0.0476998
2956000000 0.0077703 0.0480341 0.9922297 -0.0480341 0.9922297 -0.0480341 0.0077703 0.0480341
2977000000 0.0078244 0.0483680 0.9921756 -0.0483680 0.9921756 -0.0483680 0.0078244 0.0483680
2998000000 0.0078785 0.0487015 0.9921215 -0.0487015 0.9921215 -0.0487015 0.0078785 0.0487015
3019000000 0.0079325 0.0490347 0.9920675 -0.0490347 0.9920675 -0.0490347 0.0079325 0.0490347
3040000000 0.0079865 0.0493675 0.9920135 -0.0493675 0.9920135 -0.0493675 0.0079865 0.0493675
3061000000 0.0080405 0.0497000 0.9919595 -0.0497000 0.9919595 -0.0497000 0.0080405 0.0497000
3082000000 0.0080944 0.0500322 0.9919056 -0.0500322 0.9919056 -0.0500322 0.0080944 0.0500322
3103000000 0.0081483 0.0503640 0.9918517 -0.0503640 0.9918517 -0.0503640 0.0081483 0.0503640
3124000000 0.0082022 0.0506955 0.9917978 -0.0506955 0.9917978 -0.0506955 0.0082022 0.0506955
3145000000 0.0082560 0.0510267 0.9917440 -0.0510267 0.9917440 -0.0510267 0.0082560 0.0510267
3166000000 0.0083099 0.0513576 0.9916901 -0.0513576 0.9916901 -0.0513576 0.0083099 0.0513576
3187000000 0.0083637 0.0516883 0.9916363 -0.0516883 0.9916363 -0.0516883 0.0083637 0.0516883
3208000000 0.0084175 0.0520186 0.9915825 -0.0520186 0.9915825 -0.0520186 0.0084175 0.0520186
3229000000 0.0084712 0.0523487 0.9915288 -0.0523487 0.9915288 -0.0523487 0.0084712 0.0523487
3250000000 0.0085250 0.0526785 0.9914750 -0.0526785 0.9914750 -0.0526785 0.0085250 0.0526785
3271000000 0.0085788 0.0530081 0.9914212 -0.0530081 0.9914212 -0.0530081 0.0085788 0.0530081
3292000000 0.0086325 0.0533374 0.9913675 -0.0533374 0.9913675 -0.0533374 0.0086325 0.0533374
3313000000 0.0086862 0.0536664 0.9913138 -0.0536664 0.9913138 -0.0536664 0.0086862 0.0536664
3334000000 0.0087400 0.0539953 0.9912600 -0.0539953 0.9912600 -0.0539953 0.0087400 0.0539953
3355000000 0.0087937 0.0543239 0.9912063 -0.0543239 0.9912063 -0.0543239 0.0087937 0.0543239
3376000000 0.0088474 0.0546522 0.9911526 -0.0546522 0.9911526 -0.0546522 0.0088474 0.0546522
3397000000 0.0089012 0.0549804 0.9910988 -0.0549804 0.9910988 -0.0549804 0.0089012 0.0549804
3418000000 0.0089549 0.0553083 0.9910451 -0.0553083 0.9910451 -0.0553083 0.0089549 0.0553083
3439000000 0.0090086 0.0556361 0.9909914 -0.0556361 0.9909914 -0.0556361 0.0090086 0.0556361
3460000000 0.0090624 0.0559636 0.9909376 -0.0559636 0.9909376 -0.0559636 0.0090624 0.0559636
3481000000 0.0091162 0.0562909 0.9908838 -0.0562909 0.9908838 -0.0562909 0.0091162 0.0562909
3502000000 0.0091699 0.0566181 0.9908301 -0.0566181 0.9908301 -0.0566181 0.0091699 0.0566181
3523000000 0.0092237 0.0569450 0.9907763 -0.0569450 0.9907763 -0.0569450 0.0092237 0.0569450
3544000000 0.0092775 0.0572718 0.9907225 -0.0572718 0.9907225 -0.0572718 0.0092775 0.0572718
3565000000 0.0093314 0.0575984 0.9906686 -0.0575984 0.9906686 -0.0575984 0.0093314 0.0575984
3586000000 0.0093852 0.0579248 0.9906148 -0.0579248 0.9906148 -0.0579248 0.0093852 0.0579248
3607000000 0.0094391 0.0582511 0.9905609 -0.0582511 0.9905609 -0.0582511 0.0094391 0.0582511
3628000000 0.0094930 0.0585772 0.9905070 -0.0585772 0.9905070 -0.0585772 0.0094930 0.0585772
3649000000 0.0095470 0.0589031 0.9904530 -0.0589031 0.9904530 -0.0589031 0.0095470 0.0589031
3670000000 0.0096009 0.0592289 0.9903991 -0.0592289 0.9903991 -0.0592289 0.0096009 0.0592289
3691000000 0.0096549 0.0595545 0.9903451 -0.0595545 0.9903451 -0.0595545 0.0096549 0.0595545
3712000000 0.0097090 0.0598799 0.9902910 -0.0598799 0.9902910 -0.0598799 0.0097090 0.0598799
3733000000 0.0097630 0.0602052 0.9902370 -0.0602052 0.9902370 -0.0602052 0.0097630 0.0602052
3754000000 0.0098172 0.0605304 0.9901828 -0.0605304 0.9901828 -0.0605304 0.0098172 0.0605304
3775000000 0.0098713 0.0608554 0.9901287 -0.0608554 0.9901287 -0.0608554 0.0098713 0.0608554
3796000000 0.0099255 0.0611803 0.9900745 -0.0611803 0.9900745 -0.0611803 0.0099255 0.0611803
3817000000 0.0099798 0.0615051 0.9900202 -0.0615051 0.9900202 -0.0615051 0.0099798 0.0615051
3838000000 0.0100341 0.0618297 0.9899659 -0.0618297 0.9899659 -0.0618297 0.0100341 0.0618297
3859000000 0.0100884 0.0621542 0.9899116 -0.0621542 0.9899116 -0.0621542 0.0100884 0.0621542
3880000000 0.0101428 0.0624786 0.9898572 -0.0624786 0.9898572 -0.0624786 0.0101428 0.0624786
3901000000 0.0101973 0.0628028 0.9898027 -0.0628028 0.9898027 -0.0628028 0.0101973 0.0628028
3922000000 0.0102518 0.0631269 0.9897482 -0.0631269 0.9897482 -0.0631269 0.0102518 0.0631269
3943000000 0.0103063 0.0634509 0.9896937 -0.0634509 0.9896937 -0.0634509 0.0103063 0.0634509
3964000000 0.0103610 0.0637748 0.9896390 -0.0637748 0.9896390 -0.0637748 0.0103610 0.0637748
3985000000 0.0104157 0.0640986 0.9895843 -0.0640986 0.9895843 -0.0640986 0.0104157 0.0640986
4006000000 0.0104704 0.0644223 0.9895296 -0.0644223 0.9895296 -0.0644223 0.0104704 0.0644223
4027000000 0.0105252 0.0647458 0.9894748 -0.0647458 0.9894748 -0.0647458 0.0105252 0.0647458
4048000000 0.0105801 0.0650693 0.9894199 -0.0650693 0.9894199 -0.0650693 0.0105801 0.0650693
4069000000 0.0106351 0.0653926 0.9893649 -0.0653926 0.9893649 -0.0653926 0.0106351 0.0653926
4090000000 0.0106901 0.0657158 0.9893099 -0.0657158 0.9893099 -0.0657158 0.0106901 0.0657158
4111000000 0.0107452 0.0660390 0.9892548 -0.0660390 0.9892548 -0.0660390 0.0107452 0.0660390
4132000000 0.0108004 0.0663620 0.9891996 -0.0663620 0.9891996 -0.0663620 0.0108004 0.0663620
4153000000 0.0108556 0.0666850 0.9891444 -0.0666850 0.9891444 -0.0666850 0.0108556 0.0666850
4174000000 0.0109110 0.0670078 0.9890890 -0.0670078 0.9890890 -0.0670078 0.0109110 0.0670078
4195000000 0.0109664 0.0673305 0.9890336 -0.0673305 0.9890336 -0.0673305 0.0109664 0.0673305
4216000000 0.0110219 0.0676532 0.9889781 -0.0676532 0.9889781 -0.0676532 0.0110219 0.0676532
4237000000 0.0110774 0.0679758 0.9889226 -0.0679758 0.9889226 -0.0679758 0.0110774 0.0679758
4258000000 0.0111331 0.0682982 0.9888669 -0.0682982 0.9888669 -0.0682982 0.0111331 0.0682982
4279000000 0.0111888 0.0686206 0.9888112 -0.0686206 0.9888112 -0.0686206 0.0111888 0.0686206
4300000000 0.0112447 0.0689429 0.9887553 -0.0689429 0.9887553 -0.0689429 0.0112447 0.0689429
4321000000 0.0113006 0.0692651 0.9886994 -0.0692651 0.9886994 -0.0692651 0.0113006 0.0692651
4342000000 0.0113566 0.0695873 0.9886434 -0.0695873 0.9886434 -0.0695873 0.0113566 0.0695873
4363000000 0.0114127 0.0699093 0.9885873 -0.0699093 0.9885873 -0.0699093 0.0114127 0.0699093
4384000000 0.0114689 0.0702313 0.9885311 -0.0702313 0.9885311 -0.0702313 0.0114689 0.0702313
4405000000 0.0115252 0.0705532 0.9884748 -0.0705532 0.9884748 -0.0705532 0.0115252 0.0705532
4426000000 0.0115815 0.0708750 0.9884185 -0.0708750 0.9884185 -0.0708750 0.0115815 0.0708750
4447000000 0.0116380 0.0711967 0.9883620 -0.0711967 0.9883620 -0.0711967 0.0116380 0.0711967
4468000000 0.0116946 0.0715184 0.9883054 -0.0715184 0.9883054 -0.0715184 0.0116946 0.0715184
4489000000 0.0117513 0.0718399 0.9882487 -0.0718399 0.9882487 -0.0718399 0.0117513 0.0718399
4510000000 0.0118081 0.0721614 0.9881919 -0.0721614 0.9881919 -0.0721614 0.0118081 0.0721614
