!Murata Part Number: GRM1552C2A150GA01
!These Parameters are Measured in Series Mode Connection
!Data Generated on Mar 30, 2021
!       o--ll--o
!Port1            Port2
!       o------o
!Operation Temp=25[degC], DC Bias Voltage=0[V]
!Freq. Start=100[MHz] Stop=9[GHz] 401[Steps]
# Hz S RI R 50
!Freq.(Hz) S11(Real) S11(Imag) S21(Real) S21(Imag) S12(Real) S12(Imag) S22(Real) S22(Imag)
100000000 0.5284145 -0.4984809 0.4715855 0.4984809 0.4715855 0.4984809 0.5284145 -0.4984809
121000000 0.4331664 -0.4946502 0.5668336 0.4946502 0.5668336 0.4946502 0.4331664 -0.4946502
142000000 0.3564560 -0.4779359 0.6435440 0.4779359 0.6435440 0.4779359 0.3564560 -0.4779359
163000000 0.2955321 -0.4551104 0.7044679 0.4551104 0.7044679 0.4551104 0.2955321 -0.4551104
184000000 0.2472469 -0.4300833 0.7527531 0.4300833 0.7527531 0.4300833 0.2472469 -0.4300833
205000000 0.2088148 -0.4049745 0.7911852 0.4049745 0.7911852 0.4049745 0.2088148 -0.4049745
226000000 0.1779952 -0.3808598 0.8220048 0.3808598 0.8220048 0.3808598 0.1779952 -0.3808598
247000000 0.1530577 -0.3582298 0.8469423 0.3582298 0.8469423 0.3582298 0.1530577 -0.3582298
268000000 0.1326879 -0.3372566 0.8673121 0.3372566 0.8673121 0.3372566 0.1326879 -0.3372566
289000000 0.1158919 -0.3179442 0.8841081 0.3179442 0.8841081 0.3179442 0.1158919 -0.3179442
310000000 0.1019163 -0.3002132 0.8980837 0.3002132 0.8980837 0.3002132 0.1019163 -0.3002132
331000000 0.0901872 -0.2839469 0.9098128 0.2839469 0.9098128 0.2839469 0.0901872 -0.2839469
352000000 0.0802637 -0.2690163 0.9197363 0.2690163 0.9197363 0.2690163 0.0802637 -0.2690163
373000000 0.0718044 -0.2552929 0.9281956 0.2552929 0.9281956 0.2552929 0.0718044 -0.2552929
394000000 0.0645427 -0.2426556 0.9354573 0.2426556 0.9354573 0.2426556 0.0645427 -0.2426556
415000000 0.0582686 -0.2309934 0.9417314 0.2309934 0.9417314 0.2309934 0.0582686 -0.2309934
436000000 0.0528150 -0.2202060 0.9471850 0.2202060 0.9471850 0.2202060 0.0528150 -0.2202060
457000000 0.0480482 -0.2102040 0.9519518 0.2102040 0.9519518 0.2102040 0.0480482 -0.2102040
478000000 0.0438601 -0.2009079 0.9561399 0.2009079 0.9561399 0.2009079 0.0438601 -0.2009079
499000000 0.0401628 -0.1922473 0.9598372 0.1922473 0.9598372 0.1922473 0.0401628 -0.1922473
520000000 0.0368843 -0.1841600 0.9631157 0.1841600 0.9631157 0.1841600 0.0368843 -0.1841600
541000000 0.0339651 -0.1765909 0.9660349 0.1765909 0.9660349 0.1765909 0.0339651 -0.1765909
562000000 0.0313557 -0.1694912 0.9686443 0.1694912 0.9686443 0.1694912 0.0313557 -0.1694912
583000000 0.0290150 -0.1628179 0.9709850 0.1628179 0.9709850 0.1628179 0.0290150 -0.1628179
604000000 0.0269082 -0.1565324 0.9730918 0.1565324 0.9730918 0.1565324 0.0269082 -0.1565324
625000000 0.0250062 -0.1506008 0.9749938 0.1506008 0.9749938 0.1506008 0.0250062 -0.1506008
646000000 0.0232839 -0.1449927 0.9767161 0.1449927 0.9767161 0.1449927 0.0232839 -0.1449927
667000000 0.0217202 -0.1396808 0.9782798 0.1396808 0.9782798 0.1396808 0.0217202 -0.1396808
688000000 0.0202968 -0.1346409 0.9797032 0.1346409 0.9797032 0.1346409 0.0202968 -0.1346409
709000000 0.0189982 -0.1298512 0.9810018 0.1298512 0.9810018 0.1298512 0.0189982 -0.1298512
730000000 0.0178108 -0.1252921 0.9821892 0.1252921 0.9821892 0.1252921 0.0178108 -0.1252921
751000000 0.0167227 -0.1209459 0.9832773 0.1209459 0.9832773 0.1209459 0.0167227 -0.1209459
772000000 0.0157238 -0.1167966 0.9842762 0.1167966 0.9842762 0.1167966 0.0157238 -0.1167966
793000000 0.0148051 -0.1128299 0.9851949 0.1128299 0.9851949 0.1128299 0.0148051 -0.1128299
814000000 0.0139588 -0.1090326 0.9860412 0.1090326 0.9860412 0.1090326 0.0139588 -0.1090326
835000000 0.0131779 -0.1053929 0.9868221 0.1053929 0.9868221 0.1053929 0.0131779 -0.1053929
856000000 0.0124563 -0.1018999 0.9875437 0.1018999 0.9875437 0.1018999 0.0124563 -0.1018999
877000000 0.0117886 -0.0985438 0.9882114 0.0985438 0.9882114 0.0985438 0.0117886 -0.0985438
898000000 0.0111701 -0.0953155 0.9888299 0.0953155 0.9888299 0.0953155 0.0111701 -0.0953155
919000000 0.0105964 -0.0922067 0.9894036 0.0922067 0.9894036 0.0922067 0.0105964 -0.0922067
940000000 0.0100637 -0.0892100 0.9899363 0.0892100 0.9899363 0.0892100 0.0100637 -0.0892100
961000000 0.0095686 -0.0863183 0.9904314 0.0863183 0.9904314 0.0863183 0.0095686 -0.0863183
982000000 0.0091081 -0.0835253 0.9908919 0.0835253 0.9908919 0.0835253 0.0091081 -0.0835253
1003000000 0.0086794 -0.0808249 0.9913206 0.0808249 0.9913206 0.0808249 0.0086794 -0.0808249
1024000000 0.0082800 -0.0782119 0.9917200 0.0782119 0.9917200 0.0782119 0.0082800 -0.0782119
1045000000 0.0079076 -0.0756812 0.9920924 0.0756812 0.9920924 0.0756812 0.0079076 -0.0756812
1066000000 0.0075603 -0.0732280 0.9924397 0.0732280 0.9924397 0.0732280 0.0075603 -0.0732280
1087000000 0.0072362 -0.0708482 0.9927638 0.0708482 0.9927638 0.0708482 0.0072362 -0.0708482
1108000000 0.0069336 -0.0685376 0.9930664 0.0685376 0.9930664 0.0685376 0.0069336 -0.0685376
1129000000 0.0066511 -0.0662926 0.9933489 0.0662926 0.9933489 0.0662926 0.0066511 -0.0662926
1150000000 0.0063871 -0.0641097 0.9936129 0.0641097 0.9936129 0.0641097 0.0063871 -0.0641097
1171000000 0.0061406 -0.0619857 0.9938594 0.0619857 0.9938594 0.0619857 0.0061406 -0.0619857
1192000000 0.0059102 -0.0599176 0.9940898 0.0599176 0.9940898 0.0599176 0.0059102 -0.0599176
1213000000 0.0056950 -0.0579025 0.9943050 0.0579025 0.9943050 0.0579025 0.0056950 -0.0579025
1234000000 0.0054939 -0.0559378 0.9945061 0.0559378 0.9945061 0.0559378 0.0054939 -0.0559378
1255000000 0.0053062 -0.0540211 0.9946938 0.0540211 0.9946938 0.0540211 0.0053062 -0.0540211
1276000000 0.0051308 -0.0521500 0.9948692 0.0521500 0.9948692 0.0521500 0.0051308 -0.0521500
1297000000 0.0049672 -0.0503225 0.9950328 0.0503225 0.9950328 0.0503225 0.0049672 -0.0503225
1318000000 0.0048146 -0.0485364 0.9951854 0.0485364 0.9951854 0.0485364 0.0048146 -0.0485364
1339000000 0.0046724 -0.0467899 0.9953276 0.0467899 0.9953276 0.0467899 0.0046724 -0.0467899
1360000000 0.0045399 -0.0450811 0.9954601 0.0450811 0.9954601 0.0450811 0.0045399 -0.0450811
1381000000 0.0044167 -0.0434084 0.9955833 0.0434084 0.9955833 0.0434084 0.0044167 -0.0434084
1402000000 0.0043021 -0.0417702 0.9956979 0.0417702 0.9956979 0.0417702 0.0043021 -0.0417702
1423000000 0.0041958 -0.0401650 0.9958042 0.0401650 0.9958042 0.0401650 0.0041958 -0.0401650
1444000000 0.0040972 -0.0385914 0.9959028 0.0385914 0.9959028 0.0385914 0.0040972 -0.0385914
1465000000 0.0040061 -0.0370479 0.9959939 0.0370479 0.9959939 0.0370479 0.0040061 -0.0370479
1486000000 0.0039219 -0.0355335 0.9960781 0.0355335 0.9960781 0.0355335 0.0039219 -0.0355335
1507000000 0.0038443 -0.0340468 0.9961557 0.0340468 0.9961557 0.0340468 0.0038443 -0.0340468
1528000000 0.0037731 -0.0325867 0.9962269 0.0325867 0.9962269 0.0325867 0.0037731 -0.0325867
1549000000 0.0037079 -0.0311522 0.9962921 0.0311522 0.9962921 0.0311522 0.0037079 -0.0311522
1570000000 0.0036483 -0.0297421 0.9963517 0.0297421 0.9963517 0.0297421 0.0036483 -0.0297421
1591000000 0.0035942 -0.0283557 0.9964058 0.0283557 0.9964058 0.0283557 0.0035942 -0.0283557
1612000000 0.0035453 -0.0269919 0.9964547 0.0269919 0.9964547 0.0269919 0.0035453 -0.0269919
1633000000 0.0035013 -0.0256498 0.9964987 0.0256498 0.9964987 0.0256498 0.0035013 -0.0256498
1654000000 0.0034621 -0.0243287 0.9965379 0.0243287 0.9965379 0.0243287 0.0034621 -0.0243287
1675000000 0.0034274 -0.0230278 0.9965726 0.0230278 0.9965726 0.0230278 0.0034274 -0.0230278
1696000000 0.0033969 -0.0217462 0.9966031 0.0217462 0.9966031 0.0217462 0.0033969 -0.0217462
1717000000 0.0033707 -0.0204832 0.9966293 0.0204832 0.9966293 0.0204832 0.0033707 -0.0204832
1738000000 0.0033484 -0.0192383 0.9966516 0.0192383 0.9966516 0.0192383 0.0033484 -0.0192383
1759000000 0.0033299 -0.0180106 0.9966701 0.0180106 0.9966701 0.0180106 0.0033299 -0.0180106
1780000000 0.0033150 -0.0167997 0.9966850 0.0167997 0.9966850 0.0167997 0.0033150 -0.0167997
1801000000 0.0033037 -0.0156049 0.9966963 0.0156049 0.9966963 0.0156049 0.0033037 -0.0156049
1822000000 0.0032957 -0.0144256 0.9967043 0.0144256 0.9967043 0.0144256 0.0032957 -0.0144256
1843000000 0.0032910 -0.0132613 0.9967090 0.0132613 0.9967090 0.0132613 0.0032910 -0.0132613
1864000000 0.0032894 -0.0121114 0.9967106 0.0121114 0.9967106 0.0121114 0.0032894 -0.0121114
1885000000 0.0032909 -0.0109755 0.9967091 0.0109755 0.9967091 0.0109755 0.0032909 -0.0109755
1906000000 0.0032952 -0.0098531 0.9967048 0.0098531 0.9967048 0.0098531 0.0032952 -0.0098531
1927000000 0.0033024 -0.0087437 0.9966976 0.0087437 0.9966976 0.0087437 0.0033024 -0.0087437
1948000000 0.0033122 -0.0076468 0.9966878 0.0076468 0.9966878 0.0076468 0.0033122 -0.0076468
1969000000 0.0033247 -0.0065622 0.9966753 0.0065622 0.9966753 0.0065622 0.0033247 -0.0065622
1990000000 0.0033398 -0.0054892 0.9966602 0.0054892 0.9966602 0.0054892 0.0033398 -0.0054892
2011000000 0.0033573 -0.0044277 0.9966427 0.0044277 0.9966427 0.0044277 0.0033573 -0.0044277
2032000000 0.0033771 -0.0033771 0.9966229 0.0033771 0.9966229 0.0033771 0.0033771 -0.0033771
2053000000 0.0033993 -0.0023371 0.9966007 0.0023371 0.9966007 0.0023371 0.0033993 -0.0023371
2074000000 0.0034238 -0.0013074 0.9965762 0.0013074 0.9965762 0.0013074 0.0034238 -0.0013074
2095000000 0.0034505 -0.0002877 0.9965495 0.0002877 0.9965495 0.0002877 0.0034505 -0.0002877
2116000000 0.0034792 0.0007225 0.9965208 -0.0007225 0.9965208 -0.0007225 0.0034792 0.0007225
2137000000 0.0035101 0.0017233 0.9964899 -0.0017233 0.9964899 -0.0017233 0.0035101 0.0017233
2158000000 0.0035430 0.0027151 0.9964570 -0.0027151 0.9964570 -0.0027151 0.0035430 0.0027151
2179000000 0.0035778 0.0036983 0.9964222 -0.0036983 0.9964222 -0.0036983 0.0035778 0.0036983
2200000000 0.0036146 0.0046729 0.9963854 -0.0046729 0.9963854 -0.0046729 0.0036146 0.0046729
2221000000 0.0036533 0.0056395 0.9963467 -0.0056395 0.9963467 -0.0056395 0.0036533 0.0056395
2242000000 0.0036938 0.0065981 0.9963062 -0.0065981 0.9963062 -0.0065981 0.0036938 0.0065981
2263000000 0.0037361 0.0075490 0.9962639 -0.0075490 0.9962639 -0.0075490 0.0037361 0.0075490
2284000000 0.0037801 0.0084925 0.9962199 -0.0084925 0.9962199 -0.0084925 0.0037801 0.0084925
2305000000 0.0038259 0.0094289 0.9961741 -0.0094289 0.9961741 -0.0094289 0.0038259 0.0094289
2326000000 0.0038735 0.0103583 0.9961265 -0.0103583 0.9961265 -0.0103583 0.0038735 0.0103583
2347000000 0.0039226 0.0112809 0.9960774 -0.0112809 0.9960774 -0.0112809 0.0039226 0.0112809
2368000000 0.0039735 0.0121971 0.9960265 -0.0121971 0.9960265 -0.0121971 0.0039735 0.0121971
2389000000 0.0040259 0.0131069 0.9959741 -0.0131069 0.9959741 -0.0131069 0.0040259 0.0131069
2410000000 0.0040800 0.0140106 0.9959200 -0.0140106 0.9959200 -0.0140106 0.0040800 0.0140106
2431000000 0.0041356 0.0149084 0.9958644 -0.0149084 0.9958644 -0.0149084 0.0041356 0.0149084
2452000000 0.0041928 0.0158005 0.9958072 -0.0158005 0.9958072 -0.0158005 0.0041928 0.0158005
2473000000 0.0042515 0.0166870 0.9957485 -0.0166870 0.9957485 -0.0166870 0.0042515 0.0166870
2494000000 0.0043117 0.0175681 0.9956883 -0.0175681 0.9956883 -0.0175681 0.0043117 0.0175681
2515000000 0.0043735 0.0184441 0.9956265 -0.0184441 0.9956265 -0.0184441 0.0043735 0.0184441
2536000000 0.0044367 0.0193150 0.9955633 -0.0193150 0.9955633 -0.0193150 0.0044367 0.0193150
2557000000 0.0045014 0.0201810 0.9954986 -0.0201810 0.9954986 -0.0201810 0.0045014 0.0201810
2578000000 0.0045676 0.0210424 0.9954324 -0.0210424 0.9954324 -0.0210424 0.0045676 0.0210424
2599000000 0.0046352 0.0218991 0.9953648 -0.0218991 0.9953648 -0.0218991 0.0046352 0.0218991
2620000000 0.0047043 0.0227515 0.9952957 -0.0227515 0.9952957 -0.0227515 0.0047043 0.0227515
2641000000 0.0047749 0.0235996 0.9952251 -0.0235996 0.9952251 -0.0235996 0.0047749 0.0235996
2662000000 0.0048469 0.0244437 0.9951531 -0.0244437 0.9951531 -0.0244437 0.0048469 0.0244437
2683000000 0.0049203 0.0252837 0.9950797 -0.0252837 0.9950797 -0.0252837 0.0049203 0.0252837
2704000000 0.0049951 0.0261199 0.9950049 -0.0261199 0.9950049 -0.0261199 0.0049951 0.0261199
2725000000 0.0050714 0.0269524 0.9949286 -0.0269524 0.9949286 -0.0269524 0.0050714 0.0269524
2746000000 0.0051491 0.0277813 0.9948509 -0.0277813 0.9948509 -0.0277813 0.0051491 0.0277813
2767000000 0.0052283 0.0286068 0.9947717 -0.0286068 0.9947717 -0.0286068 0.0052283 0.0286068
2788000000 0.0053089 0.0294289 0.9946911 -0.0294289 0.9946911 -0.0294289 0.0053089 0.0294289
2809000000 0.0053910 0.0302479 0.9946090 -0.0302479 0.9946090 -0.0302479 0.0053910 0.0302479
2830000000 0.0054744 0.0310638 0.9945256 -0.0310638 0.9945256 -0.0310638 0.0054744 0.0310638
2851000000 0.0055594 0.0318767 0.9944406 -0.0318767 0.9944406 -0.0318767 0.0055594 0.0318767
2872000000 0.0056458 0.0326867 0.9943542 -0.0326867 0.9943542 -0.0326867 0.0056458 0.0326867
2893000000 0.0057337 0.0334941 0.9942663 -0.0334941 0.9942663 -0.0334941 0.0057337 0.0334941
2914000000 0.0058231 0.0342988 0.9941769 -0.0342988 0.9941769 -0.0342988 0.0058231 0.0342988
2935000000 0.0059140 0.0351010 0.9940860 -0.0351010 0.9940860 -0.0351010 0.0059140 0.0351010
2956000000 0.0060064 0.0359007 0.9939936 -0.0359007 0.9939936 -0.0359007 0.0060064 0.0359007
2977000000 0.0061003 0.0366982 0.9938997 -0.0366982 0.9938997 -0.0366982 0.0061003 0.0366982
2998000000 0.0061958 0.0374935 0.9938042 -0.0374935 0.9938042 -0.0374935 0.0061958 0.0374935
3019000000 0.0062929 0.0382866 0.9937071 -0.0382866 0.9937071 -0.0382866 0.0062929 0.0382866
3040000000 0.0063915 0.0390778 0.9936085 -0.0390778 0.9936085 -0.0390778 0.0063915 0.0390778
3061000000 0.0064917 0.0398670 0.9935083 -0.0398670 0.9935083 -0.0398670 0.0064917 0.0398670
3082000000 0.0065936 0.0406545 0.9934064 -0.0406545 0.9934064 -0.0406545 0.0065936 0.0406545
3103000000 0.0066972 0.0414402 0.9933028 -0.0414402 0.9933028 -0.0414402 0.0066972 0.0414402
3124000000 0.0068024 0.0422244 0.9931976 -0.0422244 0.9931976 -0.0422244 0.0068024 0.0422244
3145000000 0.0069094 0.0430070 0.9930906 -0.0430070 0.9930906 -0.0430070 0.0069094 0.0430070
3166000000 0.0070181 0.0437882 0.9929819 -0.0437882 0.9929819 -0.0437882 0.0070181 0.0437882
3187000000 0.0071286 0.0445680 0.9928714 -0.0445680 0.9928714 -0.0445680 0.0071286 0.0445680
3208000000 0.0072409 0.0453466 0.9927591 -0.0453466 0.9927591 -0.0453466 0.0072409 0.0453466
3229000000 0.0073551 0.0461241 0.9926449 -0.0461241 0.9926449 -0.0461241 0.0073551 0.0461241
3250000000 0.0074712 0.0469005 0.9925288 -0.0469005 0.9925288 -0.0469005 0.0074712 0.0469005
3271000000 0.0075892 0.0476759 0.9924108 -0.0476759 0.9924108 -0.0476759 0.0075892 0.0476759
3292000000 0.0077093 0.0484504 0.9922907 -0.0484504 0.9922907 -0.0484504 0.0077093 0.0484504
3313000000 0.0078314 0.0492241 0.9921686 -0.0492241 0.9921686 -0.0492241 0.0078314 0.0492241
3334000000 0.0079555 0.0499971 0.9920445 -0.0499971 0.9920445 -0.0499971 0.0079555 0.0499971
3355000000 0.0080819 0.0507695 0.9919181 -0.0507695 0.9919181 -0.0507695 0.0080819 0.0507695
3376000000 0.0082105 0.0515414 0.9917895 -0.0515414 0.9917895 -0.0515414 0.0082105 0.0515414
3397000000 0.0083413 0.0523128 0.9916587 -0.0523128 0.9916587 -0.0523128 0.0083413 0.0523128
3418000000 0.0084745 0.0530838 0.9915255 -0.0530838 0.9915255 -0.0530838 0.0084745 0.0530838
3439000000 0.0086101 0.0538545 0.9913899 -0.0538545 0.9913899 -0.0538545 0.0086101 0.0538545
3460000000 0.0087483 0.0546250 0.9912517 -0.0546250 0.9912517 -0.0546250 0.0087483 0.0546250
3481000000 0.0088890 0.0553954 0.9911110 -0.0553954 0.9911110 -0.0553954 0.0088890 0.0553954
3502000000 0.0090324 0.0561658 0.9909676 -0.0561658 0.9909676 -0.0561658 0.0090324 0.0561658
3523000000 0.0091786 0.0569362 0.9908214 -0.0569362 0.9908214 -0.0569362 0.0091786 0.0569362
3544000000 0.0093276 0.0577068 0.9906724 -0.0577068 0.9906724 -0.0577068 0.0093276 0.0577068
3565000000 0.0094796 0.0584775 0.9905204 -0.0584775 0.9905204 -0.0584775 0.0094796 0.0584775
3586000000 0.0096348 0.0592486 0.9903652 -0.0592486 0.9903652 -0.0592486 0.0096348 0.0592486
3607000000 0.0097931 0.0600200 0.9902069 -0.0600200 0.9902069 -0.0600200 0.0097931 0.0600200
3628000000 0.0099547 0.0607918 0.9900453 -0.0607918 0.9900453 -0.0607918 0.0099547 0.0607918
3649000000 0.0101199 0.0615642 0.9898801 -0.0615642 0.9898801 -0.0615642 0.0101199 0.0615642
3670000000 0.0102887 0.0623371 0.9897113 -0.0623371 0.9897113 -0.0623371 0.0102887 0.0623371
3691000000 0.0104612 0.0631108 0.9895388 -0.0631108 0.9895388 -0.0631108 0.0104612 0.0631108
3712000000 0.0106377 0.0638851 0.9893623 -0.0638851 0.9893623 -0.0638851 0.0106377 0.0638851
3733000000 0.0108184 0.0646603 0.9891816 -0.0646603 0.9891816 -0.0646603 0.0108184 0.0646603
3754000000 0.0110034 0.0654363 0.9889966 -0.0654363 0.9889966 -0.0654363 0.0110034 0.0654363
3775000000 0.0111929 0.0662133 0.9888071 -0.0662133 0.9888071 -0.0662133 0.0111929 0.0662133
3796000000 0.0113872 0.0669912 0.9886128 -0.0669912 0.9886128 -0.0669912 0.0113872 0.0669912
3817000000 0.0115865 0.0677702 0.9884135 -0.0677702 0.9884135 -0.0677702 0.0115865 0.0677702
3838000000 0.0117910 0.0685503 0.9882090 -0.0685503 0.9882090 -0.0685503 0.0117910 0.0685503
3859000000 0.0120011 0.0693314 0.9879989 -0.0693314 0.9879989 -0.0693314 0.0120011 0.0693314
3880000000 0.0122169 0.0701137 0.9877831 -0.0701137 0.9877831 -0.0701137 0.0122169 0.0701137
3901000000 0.0124390 0.0708972 0.9875610 -0.0708972 0.9875610 -0.0708972 0.0124390 0.0708972
3922000000 0.0126675 0.0716818 0.9873325 -0.0716818 0.9873325 -0.0716818 0.0126675 0.0716818
3943000000 0.0129028 0.0724676 0.9870972 -0.0724676 0.9870972 -0.0724676 0.0129028 0.0724676
3964000000 0.0131454 0.0732545 0.9868546 -0.0732545 0.9868546 -0.0732545 0.0131454 0.0732545
3985000000 0.0133956 0.0740425 0.9866044 -0.0740425 0.9866044 -0.0740425 0.0133956 0.0740425
4006000000 0.0136539 0.0748315 0.9863461 -0.0748315 0.9863461 -0.0748315 0.0136539 0.0748315
4027000000 0.0139208 0.0756213 0.9860792 -0.0756213 0.9860792 -0.0756213 0.0139208 0.0756213
4048000000 0.0141968 0.0764120 0.9858032 -0.0764120 0.9858032 -0.0764120 0.0141968 0.0764120
4069000000 0.0144825 0.0772033 0.9855175 -0.0772033 0.9855175 -0.0772033 0.0144825 0.0772033
4090000000 0.0147784 0.0779950 0.9852216 -0.0779950 0.9852216 -0.0779950 0.0147784 0.0779950
4111000000 0.0150852 0.0787868 0.9849148 -0.0787868 0.9849148 -0.0787868 0.0150852 0.0787868
4132000000 0.0154036 0.0795785 0.9845964 -0.0795785 0.9845964 -0.0795785 0.0154036 0.0795785
4153000000 0.0157342 0.0803696 0.9842658 -0.0803696 0.9842658 -0.0803696 0.0157342 0.0803696
4174000000 0.0160779 0.0811596 0.9839221 -0.0811596 0.9839221 -0.0811596 0.0160779 0.0811596
4195000000 0.0164355 0.0819481 0.9835645 -0.0819481 0.9835645 -0.0819481 0.0164355 0.0819481
4216000000 0.0168078 0.0827344 0.9831922 -0.0827344 0.9831922 -0.0827344 0.0168078 0.0827344
4237000000 0.0171957 0.0835176 0.9828043 -0.0835176 0.9828043 -0.0835176 0.0171957 0.0835176
4258000000 0.0176002 0.0842969 0.9823998 -0.0842969 0.9823998 -0.0842969 0.0176002 0.0842969
4279000000 0.0180221 0.0850711 0.9819779 -0.0850711 0.9819779 -0.0850711 0.0180221 0.0850711
4300000000 0.0184624 0.0858390 0.9815376 -0.0858390 0.9815376 -0.0858390 0.0184624 0.0858390
4321000000 0.0189222 0.0865992 0.9810778 -0.0865992 0.9810778 -0.0865992 0.0189222 0.0865992
4342000000 0.0194022 0.0873498 0.9805978 -0.0873498 0.9805978 -0.0873498 0.0194022 0.0873498
4363000000 0.0199035 0.0880890 0.9800965 -0.0880890 0.9800965 -0.0880890 0.0199035 0.0880890
4384000000 0.0204268 0.0888144 0.9795732 -0.0888144 0.9795732 -0.0888144 0.0204268 0.0888144
4405000000 0.0209728 0.0895235 0.9790272 -0.0895235 0.9790272 -0.0895235 0.0209728 0.0895235
4426000000 0.0215419 0.0902133 0.9784581 -0.0902133 0.9784581 -0.0902133 0.0215419 0.0902133
4447000000 0.0221342 0.0908805 0.9778658 -0.0908805 0.9778658 -0.0908805 0.0221342 0.0908805
4468000000 0.0227497 0.0915214 0.9772503 -0.0915214 0.9772503 -0.0915214 0.0227497 0.0915214
4489000000 0.0233877 0.0921320 0.9766123 -0.0921320 0.9766123 -0.0921320 0.0233877 0.0921320
4510000000 0.0240470 0.0927078 0.9759530 -0.0927078 0.9759530 -0.0927078 0.0240470 0.0927078
