!Murata Part Number: GRM1555C1H910JA01
!These Parameters are Measured in Series Mode Connection
!Data Generated on Mar 30, 2021
!       o--ll--o
!Port1            Port2
!       o------o
!Operation Temp=25[degC], DC Bias Voltage=0[V]
!Freq. Start=100[MHz] Stop=9[GHz] 401[Steps]
# Hz S RI R 50
!Freq.(Hz) S11(Real) S11(Imag) S21(Real) S21(Imag) S12(Real) S12(Imag) S22(Real) S22(Imag)
100000000 0.0298743 -0.1671857 0.9701257 0.1671857 0.9701257 0.1671857 0.0298743 -0.1671857
121000000 0.0206807 -0.1385866 0.9793193 0.1385866 0.9793193 0.1385866 0.0206807 -0.1385866
142000000 0.0151777 -0.1178448 0.9848223 0.1178448 0.9848223 0.1178448 0.0151777 -0.1178448
163000000 0.0116338 -0.1021093 0.9883662 0.1021093 0.9883662 0.1021093 0.0116338 -0.1021093
184000000 0.0092234 -0.0897445 0.9907766 0.0897445 0.9907766 0.0897445 0.0092234 -0.0897445
205000000 0.0075135 -0.0797516 0.9924865 0.0797516 0.9924865 0.0797516 0.0075135 -0.0797516
226000000 0.0062595 -0.0714884 0.9937405 0.0714884 0.9937405 0.0714884 0.0062595 -0.0714884
247000000 0.0053149 -0.0645242 0.9946851 0.0645242 0.9946851 0.0645242 0.0053149 -0.0645242
268000000 0.0045880 -0.0585598 0.9954120 0.0585598 0.9954120 0.0585598 0.0045880 -0.0585598
289000000 0.0040184 -0.0533810 0.9959816 0.0533810 0.9959816 0.0533810 0.0040184 -0.0533810
310000000 0.0035657 -0.0488305 0.9964343 0.0488305 0.9964343 0.0488305 0.0035657 -0.0488305
331000000 0.0032015 -0.0447902 0.9967985 0.0447902 0.9967985 0.0447902 0.0032015 -0.0447902
352000000 0.0029057 -0.0411700 0.9970943 0.0411700 0.9970943 0.0411700 0.0029057 -0.0411700
373000000 0.0026637 -0.0378997 0.9973363 0.0378997 0.9973363 0.0378997 0.0026637 -0.0378997
394000000 0.0024645 -0.0349238 0.9975355 0.0349238 0.9975355 0.0349238 0.0024645 -0.0349238
415000000 0.0023000 -0.0321981 0.9977000 0.0321981 0.9977000 0.0321981 0.0023000 -0.0321981
436000000 0.0021637 -0.0296867 0.9978363 0.0296867 0.9978363 0.0296867 0.0021637 -0.0296867
457000000 0.0020509 -0.0273603 0.9979491 0.0273603 0.9979491 0.0273603 0.0020509 -0.0273603
478000000 0.0019575 -0.0251947 0.9980425 0.0251947 0.9980425 0.0251947 0.0019575 -0.0251947
499000000 0.0018807 -0.0231697 0.9981193 0.0231697 0.9981193 0.0231697 0.0018807 -0.0231697
520000000 0.0018178 -0.0212684 0.9981822 0.0212684 0.9981822 0.0212684 0.0018178 -0.0212684
541000000 0.0017669 -0.0194764 0.9982331 0.0194764 0.9982331 0.0194764 0.0017669 -0.0194764
562000000 0.0017263 -0.0177815 0.9982737 0.0177815 0.9982737 0.0177815 0.0017263 -0.0177815
583000000 0.0016947 -0.0161733 0.9983053 0.0161733 0.9983053 0.0161733 0.0016947 -0.0161733
604000000 0.0016709 -0.0146427 0.9983291 0.0146427 0.9983291 0.0146427 0.0016709 -0.0146427
625000000 0.0016541 -0.0131820 0.9983459 0.0131820 0.9983459 0.0131820 0.0016541 -0.0131820
646000000 0.0016434 -0.0117843 0.9983566 0.0117843 0.9983566 0.0117843 0.0016434 -0.0117843
667000000 0.0016381 -0.0104437 0.9983619 0.0104437 0.9983619 0.0104437 0.0016381 -0.0104437
688000000 0.0016377 -0.0091548 0.9983623 0.0091548 0.9983623 0.0091548 0.0016377 -0.0091548
709000000 0.0016418 -0.0079131 0.9983582 0.0079131 0.9983582 0.0079131 0.0016418 -0.0079131
730000000 0.0016498 -0.0067145 0.9983502 0.0067145 0.9983502 0.0067145 0.0016498 -0.0067145
751000000 0.0016615 -0.0055553 0.9983385 0.0055553 0.9983385 0.0055553 0.0016615 -0.0055553
772000000 0.0016765 -0.0044323 0.9983235 0.0044323 0.9983235 0.0044323 0.0016765 -0.0044323
793000000 0.0016946 -0.0033424 0.9983054 0.0033424 0.9983054 0.0033424 0.0016946 -0.0033424
814000000 0.0017155 -0.0022832 0.9982845 0.0022832 0.9982845 0.0022832 0.0017155 -0.0022832
835000000 0.0017391 -0.0012522 0.9982609 0.0012522 0.9982609 0.0012522 0.0017391 -0.0012522
856000000 0.0017652 -0.0002473 0.9982348 0.0002473 0.9982348 0.0002473 0.0017652 -0.0002473
877000000 0.0017936 0.0007334 0.9982064 -0.0007334 0.9982064 -0.0007334 0.0017936 0.0007334
898000000 0.0018242 0.0016918 0.9981758 -0.0016918 0.9981758 -0.0016918 0.0018242 0.0016918
919000000 0.0018570 0.0026294 0.9981430 -0.0026294 0.9981430 -0.0026294 0.0018570 0.0026294
940000000 0.0018918 0.0035477 0.9981082 -0.0035477 0.9981082 -0.0035477 0.0018918 0.0035477
961000000 0.0019286 0.0044481 0.9980714 -0.0044481 0.9980714 -0.0044481 0.0019286 0.0044481
982000000 0.0019673 0.0053318 0.9980327 -0.0053318 0.9980327 -0.0053318 0.0019673 0.0053318
1003000000 0.0020078 0.0061998 0.9979922 -0.0061998 0.9979922 -0.0061998 0.0020078 0.0061998
1024000000 0.0020502 0.0070534 0.9979498 -0.0070534 0.9979498 -0.0070534 0.0020502 0.0070534
1045000000 0.0020943 0.0078934 0.9979057 -0.0078934 0.9979057 -0.0078934 0.0020943 0.0078934
1066000000 0.0021403 0.0087207 0.9978597 -0.0087207 0.9978597 -0.0087207 0.0021403 0.0087207
1087000000 0.0021879 0.0095363 0.9978121 -0.0095363 0.9978121 -0.0095363 0.0021879 0.0095363
1108000000 0.0022374 0.0103408 0.9977626 -0.0103408 0.9977626 -0.0103408 0.0022374 0.0103408
1129000000 0.0022887 0.0111350 0.9977113 -0.0111350 0.9977113 -0.0111350 0.0022887 0.0111350
1150000000 0.0023417 0.0119195 0.9976583 -0.0119195 0.9976583 -0.0119195 0.0023417 0.0119195
1171000000 0.0023966 0.0126951 0.9976034 -0.0126951 0.9976034 -0.0126951 0.0023966 0.0126951
1192000000 0.0024533 0.0134622 0.9975467 -0.0134622 0.9975467 -0.0134622 0.0024533 0.0134622
1213000000 0.0025119 0.0142216 0.9974881 -0.0142216 0.9974881 -0.0142216 0.0025119 0.0142216
1234000000 0.0025726 0.0149736 0.9974274 -0.0149736 0.9974274 -0.0149736 0.0025726 0.0149736
1255000000 0.0026352 0.0157188 0.9973648 -0.0157188 0.9973648 -0.0157188 0.0026352 0.0157188
1276000000 0.0026999 0.0164577 0.9973001 -0.0164577 0.9973001 -0.0164577 0.0026999 0.0164577
1297000000 0.0027669 0.0171908 0.9972331 -0.0171908 0.9972331 -0.0171908 0.0027669 0.0171908
1318000000 0.0028361 0.0179184 0.9971639 -0.0179184 0.9971639 -0.0179184 0.0028361 0.0179184
1339000000 0.0029078 0.0186410 0.9970922 -0.0186410 0.9970922 -0.0186410 0.0029078 0.0186410
1360000000 0.0029820 0.0193590 0.9970180 -0.0193590 0.9970180 -0.0193590 0.0029820 0.0193590
1381000000 0.0030589 0.0200727 0.9969411 -0.0200727 0.9969411 -0.0200727 0.0030589 0.0200727
1402000000 0.0031387 0.0207825 0.9968613 -0.0207825 0.9968613 -0.0207825 0.0031387 0.0207825
1423000000 0.0032216 0.0214888 0.9967784 -0.0214888 0.9967784 -0.0214888 0.0032216 0.0214888
1444000000 0.0033078 0.0221918 0.9966922 -0.0221918 0.9966922 -0.0221918 0.0033078 0.0221918
1465000000 0.0033975 0.0228920 0.9966025 -0.0228920 0.9966025 -0.0228920 0.0033975 0.0228920
1486000000 0.0034910 0.0235896 0.9965090 -0.0235896 0.9965090 -0.0235896 0.0034910 0.0235896
1507000000 0.0035888 0.0242849 0.9964112 -0.0242849 0.9964112 -0.0242849 0.0035888 0.0242849
1528000000 0.0036910 0.0249781 0.9963090 -0.0249781 0.9963090 -0.0249781 0.0036910 0.0249781
1549000000 0.0037983 0.0256695 0.9962017 -0.0256695 0.9962017 -0.0256695 0.0037983 0.0256695
1570000000 0.0039110 0.0263593 0.9960890 -0.0263593 0.9960890 -0.0263593 0.0039110 0.0263593
1591000000 0.0040298 0.0270477 0.9959702 -0.0270477 0.9959702 -0.0270477 0.0040298 0.0270477
1612000000 0.0041553 0.0277348 0.9958447 -0.0277348 0.9958447 -0.0277348 0.0041553 0.0277348
1633000000 0.0042883 0.0284207 0.9957117 -0.0284207 0.9957117 -0.0284207 0.0042883 0.0284207
1654000000 0.0044296 0.0291052 0.9955704 -0.0291052 0.9955704 -0.0291052 0.0044296 0.0291052
1675000000 0.0045801 0.0297883 0.9954199 -0.0297883 0.9954199 -0.0297883 0.0045801 0.0297883
1696000000 0.0047411 0.0304696 0.9952589 -0.0304696 0.9952589 -0.0304696 0.0047411 0.0304696
1717000000 0.0049138 0.0311486 0.9950862 -0.0311486 0.9950862 -0.0311486 0.0049138 0.0311486
1738000000 0.0050995 0.0318245 0.9949005 -0.0318245 0.9949005 -0.0318245 0.0050995 0.0318245
1759000000 0.0052999 0.0324961 0.9947001 -0.0324961 0.9947001 -0.0324961 0.0052999 0.0324961
1780000000 0.0055165 0.0331618 0.9944835 -0.0331618 0.9944835 -0.0331618 0.0055165 0.0331618
1801000000 0.0057510 0.0338193 0.9942490 -0.0338193 0.9942490 -0.0338193 0.0057510 0.0338193
1822000000 0.0060050 0.0344655 0.9939950 -0.0344655 0.9939950 -0.0344655 0.0060050 0.0344655
1843000000 0.0062796 0.0350966 0.9937204 -0.0350966 0.9937204 -0.0350966 0.0062796 0.0350966
1864000000 0.0065753 0.0357076 0.9934247 -0.0357076 0.9934247 -0.0357076 0.0065753 0.0357076
1885000000 0.0068915 0.0362922 0.9931085 -0.0362922 0.9931085 -0.0362922 0.0068915 0.0362922
1906000000 0.0072259 0.0368434 0.9927741 -0.0368434 0.9927741 -0.0368434 0.0072259 0.0368434
1927000000 0.0075733 0.0373537 0.9924267 -0.0373537 0.9924267 -0.0373537 0.0075733 0.0373537
1948000000 0.0079257 0.0378157 0.9920743 -0.0378157 0.9920743 -0.0378157 0.0079257 0.0378157
1969000000 0.0082710 0.0382242 0.9917290 -0.0382242 0.9917290 -0.0382242 0.0082710 0.0382242
1990000000 0.0085941 0.0385776 0.9914059 -0.0385776 0.9914059 -0.0385776 0.0085941 0.0385776
2011000000 0.0088782 0.0388802 0.9911218 -0.0388802 0.9911218 -0.0388802 0.0088782 0.0388802
2032000000 0.0091073 0.0391430 0.9908927 -0.0391430 0.9908927 -0.0391430 0.0091073 0.0391430
2053000000 0.0092700 0.0393834 0.9907300 -0.0393834 0.9907300 -0.0393834 0.0092700 0.0393834
2074000000 0.0093622 0.0396228 0.9906378 -0.0396228 0.9906378 -0.0396228 0.0093622 0.0396228
2095000000 0.0093881 0.0398822 0.9906119 -0.0398822 0.9906119 -0.0398822 0.0093881 0.0398822
2116000000 0.0093594 0.0401791 0.9906406 -0.0401791 0.9906406 -0.0401791 0.0093594 0.0401791
2137000000 0.0092921 0.0405244 0.9907079 -0.0405244 0.9907079 -0.0405244 0.0092921 0.0405244
2158000000 0.0092029 0.0409224 0.9907971 -0.0409224 0.9907971 -0.0409224 0.0092029 0.0409224
2179000000 0.0091071 0.0413717 0.9908929 -0.0413717 0.9908929 -0.0413717 0.0091071 0.0413717
2200000000 0.0090168 0.0418671 0.9909832 -0.0418671 0.9909832 -0.0418671 0.0090168 0.0418671
2221000000 0.0089404 0.0424015 0.9910596 -0.0424015 0.9910596 -0.0424015 0.0089404 0.0424015
2242000000 0.0088831 0.0429674 0.9911169 -0.0429674 0.9911169 -0.0429674 0.0088831 0.0429674
2263000000 0.0088478 0.0435579 0.9911522 -0.0435579 0.9911522 -0.0435579 0.0088478 0.0435579
2284000000 0.0088355 0.0441667 0.9911645 -0.0441667 0.9911645 -0.0441667 0.0088355 0.0441667
2305000000 0.0088460 0.0447887 0.9911540 -0.0447887 0.9911540 -0.0447887 0.0088460 0.0447887
2326000000 0.0088787 0.0454200 0.9911213 -0.0454200 0.9911213 -0.0454200 0.0088787 0.0454200
2347000000 0.0089323 0.0460572 0.9910677 -0.0460572 0.9910677 -0.0460572 0.0089323 0.0460572
2368000000 0.0090056 0.0466979 0.9909944 -0.0466979 0.9909944 -0.0466979 0.0090056 0.0466979
2389000000 0.0090973 0.0473400 0.9909027 -0.0473400 0.9909027 -0.0473400 0.0090973 0.0473400
2410000000 0.0092063 0.0479822 0.9907937 -0.0479822 0.9907937 -0.0479822 0.0092063 0.0479822
2431000000 0.0093316 0.0486233 0.9906684 -0.0486233 0.9906684 -0.0486233 0.0093316 0.0486233
2452000000 0.0094723 0.0492623 0.9905277 -0.0492623 0.9905277 -0.0492623 0.0094723 0.0492623
2473000000 0.0096275 0.0498985 0.9903725 -0.0498985 0.9903725 -0.0498985 0.0096275 0.0498985
2494000000 0.0097966 0.0505312 0.9902034 -0.0505312 0.9902034 -0.0505312 0.0097966 0.0505312
2515000000 0.0099792 0.0511598 0.9900208 -0.0511598 0.9900208 -0.0511598 0.0099792 0.0511598
2536000000 0.0101748 0.0517839 0.9898252 -0.0517839 0.9898252 -0.0517839 0.0101748 0.0517839
2557000000 0.0103831 0.0524028 0.9896169 -0.0524028 0.9896169 -0.0524028 0.0103831 0.0524028
2578000000 0.0106037 0.0530162 0.9893963 -0.0530162 0.9893963 -0.0530162 0.0106037 0.0530162
2599000000 0.0108365 0.0536234 0.9891635 -0.0536234 0.9891635 -0.0536234 0.0108365 0.0536234
2620000000 0.0110813 0.0542238 0.9889187 -0.0542238 0.9889187 -0.0542238 0.0110813 0.0542238
2641000000 0.0113380 0.0548168 0.9886620 -0.0548168 0.9886620 -0.0548168 0.0113380 0.0548168
2662000000 0.0116063 0.0554018 0.9883937 -0.0554018 0.9883937 -0.0554018 0.0116063 0.0554018
2683000000 0.0118862 0.0559779 0.9881138 -0.0559779 0.9881138 -0.0559779 0.0118862 0.0559779
2704000000 0.0121774 0.0565444 0.9878226 -0.0565444 0.9878226 -0.0565444 0.0121774 0.0565444
2725000000 0.0124798 0.0571003 0.9875202 -0.0571003 0.9875202 -0.0571003 0.0124798 0.0571003
2746000000 0.0127930 0.0576448 0.9872070 -0.0576448 0.9872070 -0.0576448 0.0127930 0.0576448
2767000000 0.0131167 0.0581767 0.9868833 -0.0581767 0.9868833 -0.0581767 0.0131167 0.0581767
2788000000 0.0134505 0.0586950 0.9865495 -0.0586950 0.9865495 -0.0586950 0.0134505 0.0586950
2809000000 0.0137937 0.0591986 0.9862063 -0.0591986 0.9862063 -0.0591986 0.0137937 0.0591986
2830000000 0.0141458 0.0596863 0.9858542 -0.0596863 0.9858542 -0.0596863 0.0141458 0.0596863
2851000000 0.0145057 0.0601568 0.9854943 -0.0601568 0.9854943 -0.0601568 0.0145057 0.0601568
2872000000 0.0148725 0.0606089 0.9851275 -0.0606089 0.9851275 -0.0606089 0.0148725 0.0606089
2893000000 0.0152449 0.0610414 0.9847551 -0.0610414 0.9847551 -0.0610414 0.0152449 0.0610414
2914000000 0.0156216 0.0614531 0.9843784 -0.0614531 0.9843784 -0.0614531 0.0156216 0.0614531
2935000000 0.0160007 0.0618430 0.9839993 -0.0618430 0.9839993 -0.0618430 0.0160007 0.0618430
2956000000 0.0163806 0.0622100 0.9836194 -0.0622100 0.9836194 -0.0622100 0.0163806 0.0622100
2977000000 0.0167589 0.0625534 0.9832411 -0.0625534 0.9832411 -0.0625534 0.0167589 0.0625534
2998000000 0.0171334 0.0628725 0.9828666 -0.0628725 0.9828666 -0.0628725 0.0171334 0.0628725
3019000000 0.0175016 0.0631670 0.9824984 -0.0631670 0.9824984 -0.0631670 0.0175016 0.0631670
3040000000 0.0178608 0.0634369 0.9821392 -0.0634369 0.9821392 -0.0634369 0.0178608 0.0634369
3061000000 0.0182081 0.0636825 0.9817919 -0.0636825 0.9817919 -0.0636825 0.0182081 0.0636825
3082000000 0.0185407 0.0639044 0.9814593 -0.0639044 0.9814593 -0.0639044 0.0185407 0.0639044
3103000000 0.0188556 0.0641039 0.9811444 -0.0641039 0.9811444 -0.0641039 0.0188556 0.0641039
3124000000 0.0191502 0.0642825 0.9808498 -0.0642825 0.9808498 -0.0642825 0.0191502 0.0642825
3145000000 0.0194216 0.0644423 0.9805784 -0.0644423 0.9805784 -0.0644423 0.0194216 0.0644423
3166000000 0.0196675 0.0645856 0.9803325 -0.0645856 0.9803325 -0.0645856 0.0196675 0.0645856
3187000000 0.0198858 0.0647154 0.9801142 -0.0647154 0.9801142 -0.0647154 0.0198858 0.0647154
3208000000 0.0200749 0.0648347 0.9799251 -0.0648347 0.9799251 -0.0648347 0.0200749 0.0648347
3229000000 0.0202333 0.0649469 0.9797667 -0.0649469 0.9797667 -0.0649469 0.0202333 0.0649469
3250000000 0.0203605 0.0650558 0.9796395 -0.0650558 0.9796395 -0.0650558 0.0203605 0.0650558
3271000000 0.0204563 0.0651649 0.9795437 -0.0651649 0.9795437 -0.0651649 0.0204563 0.0651649
3292000000 0.0205209 0.0652780 0.9794791 -0.0652780 0.9794791 -0.0652780 0.0205209 0.0652780
3313000000 0.0205553 0.0653984 0.9794447 -0.0653984 0.9794447 -0.0653984 0.0205553 0.0653984
3334000000 0.0205608 0.0655297 0.9794392 -0.0655297 0.9794392 -0.0655297 0.0205608 0.0655297
3355000000 0.0205392 0.0656747 0.9794608 -0.0656747 0.9794608 -0.0656747 0.0205392 0.0656747
3376000000 0.0204927 0.0658362 0.9795073 -0.0658362 0.9795073 -0.0658362 0.0204927 0.0658362
3397000000 0.0204238 0.0660165 0.9795762 -0.0660165 0.9795762 -0.0660165 0.0204238 0.0660165
3418000000 0.0203350 0.0662173 0.9796650 -0.0662173 0.9796650 -0.0662173 0.0203350 0.0662173
3439000000 0.0202291 0.0664401 0.9797709 -0.0664401 0.9797709 -0.0664401 0.0202291 0.0664401
3460000000 0.0201090 0.0666859 0.9798910 -0.0666859 0.9798910 -0.0666859 0.0201090 0.0666859
3481000000 0.0199774 0.0669553 0.9800226 -0.0669553 0.9800226 -0.0669553 0.0199774 0.0669553
3502000000 0.0198370 0.0672484 0.9801630 -0.0672484 0.9801630 -0.0672484 0.0198370 0.0672484
3523000000 0.0196903 0.0675652 0.9803097 -0.0675652 0.9803097 -0.0675652 0.0196903 0.0675652
3544000000 0.0195398 0.0679052 0.9804602 -0.0679052 0.9804602 -0.0679052 0.0195398 0.0679052
3565000000 0.0193877 0.0682678 0.9806123 -0.0682678 0.9806123 -0.0682678 0.0193877 0.0682678
3586000000 0.0192358 0.0686520 0.9807642 -0.0686520 0.9807642 -0.0686520 0.0192358 0.0686520
3607000000 0.0190859 0.0690570 0.9809141 -0.0690570 0.9809141 -0.0690570 0.0190859 0.0690570
3628000000 0.0189395 0.0694817 0.9810605 -0.0694817 0.9810605 -0.0694817 0.0189395 0.0694817
3649000000 0.0187979 0.0699248 0.9812021 -0.0699248 0.9812021 -0.0699248 0.0187979 0.0699248
3670000000 0.0186623 0.0703852 0.9813377 -0.0703852 0.9813377 -0.0703852 0.0186623 0.0703852
3691000000 0.0185335 0.0708616 0.9814665 -0.0708616 0.9814665 -0.0708616 0.0185335 0.0708616
3712000000 0.0184122 0.0713529 0.9815878 -0.0713529 0.9815878 -0.0713529 0.0184122 0.0713529
3733000000 0.0182991 0.0718578 0.9817009 -0.0718578 0.9817009 -0.0718578 0.0182991 0.0718578
3754000000 0.0181946 0.0723753 0.9818054 -0.0723753 0.9818054 -0.0723753 0.0181946 0.0723753
3775000000 0.0180989 0.0729043 0.9819011 -0.0729043 0.9819011 -0.0729043 0.0180989 0.0729043
3796000000 0.0180123 0.0734437 0.9819877 -0.0734437 0.9819877 -0.0734437 0.0180123 0.0734437
3817000000 0.0179349 0.0739925 0.9820651 -0.0739925 0.9820651 -0.0739925 0.0179349 0.0739925
3838000000 0.0178668 0.0745499 0.9821332 -0.0745499 0.9821332 -0.0745499 0.0178668 0.0745499
3859000000 0.0178078 0.0751151 0.9821922 -0.0751151 0.9821922 -0.0751151 0.0178078 0.0751151
3880000000 0.0177580 0.0756872 0.9822420 -0.0756872 0.9822420 -0.0756872 0.0177580 0.0756872
3901000000 0.0177173 0.0762657 0.9822827 -0.0762657 0.9822827 -0.0762657 0.0177173 0.0762657
3922000000 0.0176854 0.0768497 0.9823146 -0.0768497 0.9823146 -0.0768497 0.0176854 0.0768497
3943000000 0.0176621 0.0774388 0.9823379 -0.0774388 0.9823379 -0.0774388 0.0176621 0.0774388
3964000000 0.0176474 0.0780324 0.9823526 -0.0780324 0.9823526 -0.0780324 0.0176474 0.0780324
3985000000 0.0176410 0.0786300 0.9823590 -0.0786300 0.9823590 -0.0786300 0.0176410 0.0786300
4006000000 0.0176426 0.0792312 0.9823574 -0.0792312 0.9823574 -0.0792312 0.0176426 0.0792312
4027000000 0.0176520 0.0798356 0.9823480 -0.0798356 0.9823480 -0.0798356 0.0176520 0.0798356
4048000000 0.0176690 0.0804429 0.9823310 -0.0804429 0.9823310 -0.0804429 0.0176690 0.0804429
4069000000 0.0176933 0.0810527 0.9823067 -0.0810527 0.9823067 -0.0810527 0.0176933 0.0810527
4090000000 0.0177248 0.0816647 0.9822752 -0.0816647 0.9822752 -0.0816647 0.0177248 0.0816647
4111000000 0.0177631 0.0822788 0.9822369 -0.0822788 0.9822369 -0.0822788 0.0177631 0.0822788
4132000000 0.0178081 0.0828946 0.9821919 -0.0828946 0.9821919 -0.0828946 0.0178081 0.0828946
4153000000 0.0178596 0.0835120 0.9821404 -0.0835120 0.9821404 -0.0835120 0.0178596 0.0835120
4174000000 0.0179172 0.0841308 0.9820828 -0.0841308 0.9820828 -0.0841308 0.0179172 0.0841308
4195000000 0.0179810 0.0847508 0.9820190 -0.0847508 0.9820190 -0.0847508 0.0179810 0.0847508
4216000000 0.0180505 0.0853720 0.9819495 -0.0853720 0.9819495 -0.0853720 0.0180505 0.0853720
4237000000 0.0181257 0.0859941 0.9818743 -0.0859941 0.9818743 -0.0859941 0.0181257 0.0859941
4258000000 0.0182063 0.0866172 0.9817937 -0.0866172 0.9817937 -0.0866172 0.0182063 0.0866172
4279000000 0.0182923 0.0872410 0.9817077 -0.0872410 0.9817077 -0.0872410 0.0182923 0.0872410
4300000000 0.0183834 0.0878656 0.9816166 -0.0878656 0.9816166 -0.0878656 0.0183834 0.0878656
4321000000 0.0184794 0.0884909 0.9815206 -0.0884909 0.9815206 -0.0884909 0.0184794 0.0884909
4342000000 0.0185803 0.0891167 0.9814197 -0.0891167 0.9814197 -0.0891167 0.0185803 0.0891167
4363000000 0.0186858 0.0897431 0.9813142 -0.0897431 0.9813142 -0.0897431 0.0186858 0.0897431
4384000000 0.0187959 0.0903700 0.9812041 -0.0903700 0.9812041 -0.0903700 0.0187959 0.0903700
4405000000 0.0189104 0.0909974 0.9810896 -0.0909974 0.9810896 -0.0909974 0.0189104 0.0909974
4426000000 0.0190292 0.0916253 0.9809708 -0.0916253 0.9809708 -0.0916253 0.0190292 0.0916253
4447000000 0.0191522 0.0922536 0.9808478 -0.0922536 0.9808478 -0.0922536 0.0191522 0.0922536
4468000000 0.0192793 0.0928823 0.9807207 -0.0928823 0.9807207 -0.0928823 0.0192793 0.0928823
4489000000 0.0194104 0.0935115 0.9805896 -0.0935115 0.9805896 -0.0935115 0.0194104 0.0935115
4510000000 0.0195453 0.0941410 0.9804547 -0.0941410 0.9804547 -0.0941410 0.0195453 0.0941410
