!Murata Part Number: GRM1553C1H3R5WA01
!These Parameters are Measured in Series Mode Connection
!Data Generated on Mar 30, 2021
!       o--ll--o
!Port1            Port2
!       o------o
!Operation Temp=25[degC], DC Bias Voltage=0[V]
!Freq. Start=100[MHz] Stop=9[GHz] 401[Steps]
# Hz S RI R 50
!Freq.(Hz) S11(Real) S11(Imag) S21(Real) S21(Imag) S12(Real) S12(Imag) S22(Real) S22(Imag)
100000000 0.9537243 -0.2098066 0.0462757 0.2098066 0.0462757 0.2098066 0.9537243 -0.2098066
121000000 0.9336490 -0.2485618 0.0663510 0.2485618 0.0663510 0.2485618 0.9336490 -0.2485618
142000000 0.9108147 -0.2846202 0.0891853 0.2846202 0.0891853 0.2846202 0.9108147 -0.2846202
163000000 0.8856705 -0.3177622 0.1143295 0.3177622 0.1143295 0.3177622 0.8856705 -0.3177622
184000000 0.8586717 -0.3478529 0.1413283 0.3478529 0.1413283 0.3478529 0.8586717 -0.3478529
205000000 0.8302631 -0.3748363 0.1697369 0.3748363 0.1697369 0.3748363 0.8302631 -0.3748363
226000000 0.8008655 -0.3987258 0.1991345 0.3987258 0.1991345 0.3987258 0.8008655 -0.3987258
247000000 0.7708654 -0.4195939 0.2291346 0.4195939 0.2291346 0.4195939 0.7708654 -0.4195939
268000000 0.7406084 -0.4375600 0.2593916 0.4375600 0.2593916 0.4375600 0.7406084 -0.4375600
289000000 0.7103962 -0.4527789 0.2896038 0.4527789 0.2896038 0.4527789 0.7103962 -0.4527789
310000000 0.6804850 -0.4654301 0.3195150 0.4654301 0.3195150 0.4654301 0.6804850 -0.4654301
331000000 0.6510872 -0.4757085 0.3489128 0.4757085 0.3489128 0.4757085 0.6510872 -0.4757085
352000000 0.6223739 -0.4838161 0.3776261 0.4838161 0.3776261 0.4838161 0.6223739 -0.4838161
373000000 0.5944786 -0.4899557 0.4055214 0.4899557 0.4055214 0.4899557 0.5944786 -0.4899557
394000000 0.5675012 -0.4943258 0.4324988 0.4943258 0.4324988 0.4943258 0.5675012 -0.4943258
415000000 0.5415126 -0.4971168 0.4584874 0.4971168 0.4584874 0.4971168 0.5415126 -0.4971168
436000000 0.5165589 -0.4985084 0.4834411 0.4985084 0.4834411 0.4985084 0.5165589 -0.4985084
457000000 0.4926654 -0.4986682 0.5073346 0.4986682 0.5073346 0.4986682 0.4926654 -0.4986682
478000000 0.4698403 -0.4977506 0.5301597 0.4977506 0.5301597 0.4977506 0.4698403 -0.4977506
499000000 0.4480782 -0.4958965 0.5519218 0.4958965 0.5519218 0.4958965 0.4480782 -0.4958965
520000000 0.4273630 -0.4932338 0.5726370 0.4932338 0.5726370 0.4932338 0.4273630 -0.4932338
541000000 0.4076700 -0.4898774 0.5923300 0.4898774 0.5923300 0.4898774 0.4076700 -0.4898774
562000000 0.3889686 -0.4859301 0.6110314 0.4859301 0.6110314 0.4859301 0.3889686 -0.4859301
583000000 0.3712235 -0.4814833 0.6287765 0.4814833 0.6287765 0.4814833 0.3712235 -0.4814833
604000000 0.3543965 -0.4766182 0.6456035 0.4766182 0.6456035 0.4766182 0.3543965 -0.4766182
625000000 0.3384475 -0.4714063 0.6615525 0.4714063 0.6615525 0.4714063 0.3384475 -0.4714063
646000000 0.3233355 -0.4659104 0.6766645 0.4659104 0.6766645 0.4659104 0.3233355 -0.4659104
667000000 0.3090194 -0.4601858 0.6909806 0.4601858 0.6909806 0.4601858 0.3090194 -0.4601858
688000000 0.2954583 -0.4542804 0.7045417 0.4542804 0.7045417 0.4542804 0.2954583 -0.4542804
709000000 0.2826122 -0.4482361 0.7173878 0.4482361 0.7173878 0.4482361 0.2826122 -0.4482361
730000000 0.2704424 -0.4420894 0.7295576 0.4420894 0.7295576 0.4420894 0.2704424 -0.4420894
751000000 0.2589113 -0.4358716 0.7410887 0.4358716 0.7410887 0.4358716 0.2589113 -0.4358716
772000000 0.2479828 -0.4296100 0.7520172 0.4296100 0.7520172 0.4296100 0.2479828 -0.4296100
793000000 0.2376227 -0.4233277 0.7623773 0.4233277 0.7623773 0.4233277 0.2376227 -0.4233277
814000000 0.2277983 -0.4170449 0.7722017 0.4170449 0.7722017 0.4170449 0.2277983 -0.4170449
835000000 0.2184785 -0.4107786 0.7815215 0.4107786 0.7815215 0.4107786 0.2184785 -0.4107786
856000000 0.2096339 -0.4045433 0.7903661 0.4045433 0.7903661 0.4045433 0.2096339 -0.4045433
877000000 0.2012369 -0.3983511 0.7987631 0.3983511 0.7987631 0.3983511 0.2012369 -0.3983511
898000000 0.1932613 -0.3922125 0.8067387 0.3922125 0.8067387 0.3922125 0.1932613 -0.3922125
919000000 0.1856826 -0.3861359 0.8143174 0.3861359 0.8143174 0.3861359 0.1856826 -0.3861359
940000000 0.1784777 -0.3801285 0.8215223 0.3801285 0.8215223 0.3801285 0.1784777 -0.3801285
961000000 0.1716248 -0.3741960 0.8283752 0.3741960 0.8283752 0.3741960 0.1716248 -0.3741960
982000000 0.1651035 -0.3683432 0.8348965 0.3683432 0.8348965 0.3683432 0.1651035 -0.3683432
1003000000 0.1588949 -0.3625737 0.8411051 0.3625737 0.8411051 0.3625737 0.1588949 -0.3625737
1024000000 0.1529809 -0.3568905 0.8470191 0.3568905 0.8470191 0.3568905 0.1529809 -0.3568905
1045000000 0.1473447 -0.3512957 0.8526553 0.3512957 0.8526553 0.3512957 0.1473447 -0.3512957
1066000000 0.1419707 -0.3457907 0.8580293 0.3457907 0.8580293 0.3457907 0.1419707 -0.3457907
1087000000 0.1368441 -0.3403767 0.8631559 0.3403767 0.8631559 0.3403767 0.1368441 -0.3403767
1108000000 0.1319511 -0.3350542 0.8680489 0.3350542 0.8680489 0.3350542 0.1319511 -0.3350542
1129000000 0.1272787 -0.3298232 0.8727213 0.3298232 0.8727213 0.3298232 0.1272787 -0.3298232
1150000000 0.1228148 -0.3246836 0.8771852 0.3246836 0.8771852 0.3246836 0.1228148 -0.3246836
1171000000 0.1185480 -0.3196350 0.8814520 0.3196350 0.8814520 0.3196350 0.1185480 -0.3196350
1192000000 0.1144677 -0.3146766 0.8855323 0.3146766 0.8855323 0.3146766 0.1144677 -0.3146766
1213000000 0.1105638 -0.3098074 0.8894362 0.3098074 0.8894362 0.3098074 0.1105638 -0.3098074
1234000000 0.1068270 -0.3050265 0.8931730 0.3050265 0.8931730 0.3050265 0.1068270 -0.3050265
1255000000 0.1032485 -0.3003326 0.8967515 0.3003326 0.8967515 0.3003326 0.1032485 -0.3003326
1276000000 0.0998199 -0.2957243 0.9001801 0.2957243 0.9001801 0.2957243 0.0998199 -0.2957243
1297000000 0.0965336 -0.2912002 0.9034664 0.2912002 0.9034664 0.2912002 0.0965336 -0.2912002
1318000000 0.0933822 -0.2867589 0.9066178 0.2867589 0.9066178 0.2867589 0.0933822 -0.2867589
1339000000 0.0903589 -0.2823987 0.9096411 0.2823987 0.9096411 0.2823987 0.0903589 -0.2823987
1360000000 0.0874573 -0.2781182 0.9125427 0.2781182 0.9125427 0.2781182 0.0874573 -0.2781182
1381000000 0.0846712 -0.2739156 0.9153288 0.2739156 0.9153288 0.2739156 0.0846712 -0.2739156
1402000000 0.0819950 -0.2697892 0.9180050 0.2697892 0.9180050 0.2697892 0.0819950 -0.2697892
1423000000 0.0794233 -0.2657376 0.9205767 0.2657376 0.9205767 0.2657376 0.0794233 -0.2657376
1444000000 0.0769510 -0.2617589 0.9230490 0.2617589 0.9230490 0.2617589 0.0769510 -0.2617589
1465000000 0.0745734 -0.2578516 0.9254266 0.2578516 0.9254266 0.2578516 0.0745734 -0.2578516
1486000000 0.0722859 -0.2540139 0.9277141 0.2540139 0.9277141 0.2540139 0.0722859 -0.2540139
1507000000 0.0700844 -0.2502443 0.9299156 0.2502443 0.9299156 0.2502443 0.0700844 -0.2502443
1528000000 0.0679648 -0.2465412 0.9320352 0.2465412 0.9320352 0.2465412 0.0679648 -0.2465412
1549000000 0.0659233 -0.2429029 0.9340767 0.2429029 0.9340767 0.2429029 0.0659233 -0.2429029
1570000000 0.0639564 -0.2393279 0.9360436 0.2393279 0.9360436 0.2393279 0.0639564 -0.2393279
1591000000 0.0620607 -0.2358146 0.9379393 0.2358146 0.9379393 0.2358146 0.0620607 -0.2358146
1612000000 0.0602330 -0.2323616 0.9397670 0.2323616 0.9397670 0.2323616 0.0602330 -0.2323616
1633000000 0.0584703 -0.2289673 0.9415297 0.2289673 0.9415297 0.2289673 0.0584703 -0.2289673
1654000000 0.0567697 -0.2256303 0.9432303 0.2256303 0.9432303 0.2256303 0.0567697 -0.2256303
1675000000 0.0551286 -0.2223492 0.9448714 0.2223492 0.9448714 0.2223492 0.0551286 -0.2223492
1696000000 0.0535443 -0.2191226 0.9464557 0.2191226 0.9464557 0.2191226 0.0535443 -0.2191226
1717000000 0.0520145 -0.2159490 0.9479855 0.2159490 0.9479855 0.2159490 0.0520145 -0.2159490
1738000000 0.0505368 -0.2128273 0.9494632 0.2128273 0.9494632 0.2128273 0.0505368 -0.2128273
1759000000 0.0491090 -0.2097561 0.9508910 0.2097561 0.9508910 0.2097561 0.0491090 -0.2097561
1780000000 0.0477292 -0.2067341 0.9522708 0.2067341 0.9522708 0.2067341 0.0477292 -0.2067341
1801000000 0.0463952 -0.2037601 0.9536048 0.2037601 0.9536048 0.2037601 0.0463952 -0.2037601
1822000000 0.0451053 -0.2008329 0.9548947 0.2008329 0.9548947 0.2008329 0.0451053 -0.2008329
1843000000 0.0438577 -0.1979513 0.9561423 0.1979513 0.9561423 0.1979513 0.0438577 -0.1979513
1864000000 0.0426506 -0.1951143 0.9573494 0.1951143 0.9573494 0.1951143 0.0426506 -0.1951143
1885000000 0.0414826 -0.1923206 0.9585174 0.1923206 0.9585174 0.1923206 0.0414826 -0.1923206
1906000000 0.0403520 -0.1895693 0.9596480 0.1895693 0.9596480 0.1895693 0.0403520 -0.1895693
1927000000 0.0392574 -0.1868593 0.9607426 0.1868593 0.9607426 0.1868593 0.0392574 -0.1868593
1948000000 0.0381974 -0.1841895 0.9618026 0.1841895 0.9618026 0.1841895 0.0381974 -0.1841895
1969000000 0.0371707 -0.1815590 0.9628293 0.1815590 0.9628293 0.1815590 0.0371707 -0.1815590
1990000000 0.0361760 -0.1789668 0.9638240 0.1789668 0.9638240 0.1789668 0.0361760 -0.1789668
2011000000 0.0352122 -0.1764120 0.9647878 0.1764120 0.9647878 0.1764120 0.0352122 -0.1764120
2032000000 0.0342781 -0.1738936 0.9657219 0.1738936 0.9657219 0.1738936 0.0342781 -0.1738936
2053000000 0.0333727 -0.1714109 0.9666273 0.1714109 0.9666273 0.1714109 0.0333727 -0.1714109
2074000000 0.0324948 -0.1689628 0.9675052 0.1689628 0.9675052 0.1689628 0.0324948 -0.1689628
2095000000 0.0316435 -0.1665486 0.9683565 0.1665486 0.9683565 0.1665486 0.0316435 -0.1665486
2116000000 0.0308178 -0.1641675 0.9691822 0.1641675 0.9691822 0.1641675 0.0308178 -0.1641675
2137000000 0.0300168 -0.1618187 0.9699832 0.1618187 0.9699832 0.1618187 0.0300168 -0.1618187
2158000000 0.0292398 -0.1595015 0.9707602 0.1595015 0.9707602 0.1595015 0.0292398 -0.1595015
2179000000 0.0284857 -0.1572149 0.9715143 0.1572149 0.9715143 0.1572149 0.0284857 -0.1572149
2200000000 0.0277539 -0.1549585 0.9722461 0.1549585 0.9722461 0.1549585 0.0277539 -0.1549585
2221000000 0.0270436 -0.1527314 0.9729564 0.1527314 0.9729564 0.1527314 0.0270436 -0.1527314
2242000000 0.0263541 -0.1505329 0.9736459 0.1505329 0.9736459 0.1505329 0.0263541 -0.1505329
2263000000 0.0256846 -0.1483624 0.9743154 0.1483624 0.9743154 0.1483624 0.0256846 -0.1483624
2284000000 0.0250346 -0.1462193 0.9749654 0.1462193 0.9749654 0.1462193 0.0250346 -0.1462193
2305000000 0.0244033 -0.1441029 0.9755967 0.1441029 0.9755967 0.1441029 0.0244033 -0.1441029
2326000000 0.0237901 -0.1420126 0.9762099 0.1420126 0.9762099 0.1420126 0.0237901 -0.1420126
2347000000 0.0231946 -0.1399478 0.9768054 0.1399478 0.9768054 0.1399478 0.0231946 -0.1399478
2368000000 0.0226161 -0.1379080 0.9773839 0.1379080 0.9773839 0.1379080 0.0226161 -0.1379080
2389000000 0.0220540 -0.1358925 0.9779460 0.1358925 0.9779460 0.1358925 0.0220540 -0.1358925
2410000000 0.0215079 -0.1339008 0.9784921 0.1339008 0.9784921 0.1339008 0.0215079 -0.1339008
2431000000 0.0209773 -0.1319324 0.9790227 0.1319324 0.9790227 0.1319324 0.0209773 -0.1319324
2452000000 0.0204616 -0.1299868 0.9795384 0.1299868 0.9795384 0.1299868 0.0204616 -0.1299868
2473000000 0.0199605 -0.1280635 0.9800395 0.1280635 0.9800395 0.1280635 0.0199605 -0.1280635
2494000000 0.0194735 -0.1261619 0.9805265 0.1261619 0.9805265 0.1261619 0.0194735 -0.1261619
2515000000 0.0190002 -0.1242816 0.9809998 0.1242816 0.9809998 0.1242816 0.0190002 -0.1242816
2536000000 0.0185401 -0.1224222 0.9814599 0.1224222 0.9814599 0.1224222 0.0185401 -0.1224222
2557000000 0.0180929 -0.1205832 0.9819071 0.1205832 0.9819071 0.1205832 0.0180929 -0.1205832
2578000000 0.0176583 -0.1187641 0.9823417 0.1187641 0.9823417 0.1187641 0.0176583 -0.1187641
2599000000 0.0172357 -0.1169645 0.9827643 0.1169645 0.9827643 0.1169645 0.0172357 -0.1169645
2620000000 0.0168250 -0.1151839 0.9831750 0.1151839 0.9831750 0.1151839 0.0168250 -0.1151839
2641000000 0.0164258 -0.1134221 0.9835742 0.1134221 0.9835742 0.1134221 0.0164258 -0.1134221
2662000000 0.0160377 -0.1116786 0.9839623 0.1116786 0.9839623 0.1116786 0.0160377 -0.1116786
2683000000 0.0156604 -0.1099530 0.9843396 0.1099530 0.9843396 0.1099530 0.0156604 -0.1099530
2704000000 0.0152936 -0.1082449 0.9847064 0.1082449 0.9847064 0.1082449 0.0152936 -0.1082449
2725000000 0.0149372 -0.1065540 0.9850628 0.1065540 0.9850628 0.1065540 0.0149372 -0.1065540
2746000000 0.0145907 -0.1048799 0.9854093 0.1048799 0.9854093 0.1048799 0.0145907 -0.1048799
2767000000 0.0142539 -0.1032222 0.9857461 0.1032222 0.9857461 0.1032222 0.0142539 -0.1032222
2788000000 0.0139266 -0.1015807 0.9860734 0.1015807 0.9860734 0.1015807 0.0139266 -0.1015807
2809000000 0.0136084 -0.0999549 0.9863916 0.0999549 0.9863916 0.0999549 0.0136084 -0.0999549
2830000000 0.0132993 -0.0983447 0.9867007 0.0983447 0.9867007 0.0983447 0.0132993 -0.0983447
2851000000 0.0129989 -0.0967495 0.9870011 0.0967495 0.9870011 0.0967495 0.0129989 -0.0967495
2872000000 0.0127070 -0.0951693 0.9872930 0.0951693 0.9872930 0.0951693 0.0127070 -0.0951693
2893000000 0.0124234 -0.0936035 0.9875766 0.0936035 0.9875766 0.0936035 0.0124234 -0.0936035
2914000000 0.0121479 -0.0920521 0.9878521 0.0920521 0.9878521 0.0920521 0.0121479 -0.0920521
2935000000 0.0118803 -0.0905146 0.9881197 0.0905146 0.9881197 0.0905146 0.0118803 -0.0905146
2956000000 0.0116205 -0.0889908 0.9883795 0.0889908 0.9883795 0.0889908 0.0116205 -0.0889908
2977000000 0.0113681 -0.0874804 0.9886319 0.0874804 0.9886319 0.0874804 0.0113681 -0.0874804
2998000000 0.0111231 -0.0859832 0.9888769 0.0859832 0.9888769 0.0859832 0.0111231 -0.0859832
3019000000 0.0108853 -0.0844989 0.9891147 0.0844989 0.9891147 0.0844989 0.0108853 -0.0844989
3040000000 0.0106545 -0.0830272 0.9893455 0.0830272 0.9893455 0.0830272 0.0106545 -0.0830272
3061000000 0.0104305 -0.0815679 0.9895695 0.0815679 0.9895695 0.0815679 0.0104305 -0.0815679
3082000000 0.0102132 -0.0801208 0.9897868 0.0801208 0.9897868 0.0801208 0.0102132 -0.0801208
3103000000 0.0100024 -0.0786857 0.9899976 0.0786857 0.9899976 0.0786857 0.0100024 -0.0786857
3124000000 0.0097980 -0.0772622 0.9902020 0.0772622 0.9902020 0.0772622 0.0097980 -0.0772622
3145000000 0.0095999 -0.0758502 0.9904001 0.0758502 0.9904001 0.0758502 0.0095999 -0.0758502
3166000000 0.0094079 -0.0744495 0.9905921 0.0744495 0.9905921 0.0744495 0.0094079 -0.0744495
3187000000 0.0092219 -0.0730598 0.9907781 0.0730598 0.9907781 0.0730598 0.0092219 -0.0730598
3208000000 0.0090417 -0.0716809 0.9909583 0.0716809 0.9909583 0.0716809 0.0090417 -0.0716809
3229000000 0.0088673 -0.0703127 0.9911327 0.0703127 0.9911327 0.0703127 0.0088673 -0.0703127
3250000000 0.0086985 -0.0689549 0.9913015 0.0689549 0.9913015 0.0689549 0.0086985 -0.0689549
3271000000 0.0085351 -0.0676074 0.9914649 0.0676074 0.9914649 0.0676074 0.0085351 -0.0676074
3292000000 0.0083772 -0.0662698 0.9916228 0.0662698 0.9916228 0.0662698 0.0083772 -0.0662698
3313000000 0.0082245 -0.0649422 0.9917755 0.0649422 0.9917755 0.0649422 0.0082245 -0.0649422
3334000000 0.0080770 -0.0636242 0.9919230 0.0636242 0.9919230 0.0636242 0.0080770 -0.0636242
3355000000 0.0079346 -0.0623158 0.9920654 0.0623158 0.9920654 0.0623158 0.0079346 -0.0623158
3376000000 0.0077972 -0.0610166 0.9922028 0.0610166 0.9922028 0.0610166 0.0077972 -0.0610166
3397000000 0.0076646 -0.0597266 0.9923354 0.0597266 0.9923354 0.0597266 0.0076646 -0.0597266
3418000000 0.0075368 -0.0584456 0.9924632 0.0584456 0.9924632 0.0584456 0.0075368 -0.0584456
3439000000 0.0074138 -0.0571734 0.9925862 0.0571734 0.9925862 0.0571734 0.0074138 -0.0571734
3460000000 0.0072953 -0.0559099 0.9927047 0.0559099 0.9927047 0.0559099 0.0072953 -0.0559099
3481000000 0.0071814 -0.0546549 0.9928186 0.0546549 0.9928186 0.0546549 0.0071814 -0.0546549
3502000000 0.0070719 -0.0534083 0.9929281 0.0534083 0.9929281 0.0534083 0.0070719 -0.0534083
3523000000 0.0069669 -0.0521698 0.9930331 0.0521698 0.9930331 0.0521698 0.0069669 -0.0521698
3544000000 0.0068661 -0.0509394 0.9931339 0.0509394 0.9931339 0.0509394 0.0068661 -0.0509394
3565000000 0.0067695 -0.0497169 0.9932305 0.0497169 0.9932305 0.0497169 0.0067695 -0.0497169
3586000000 0.0066771 -0.0485022 0.9933229 0.0485022 0.9933229 0.0485022 0.0066771 -0.0485022
3607000000 0.0065888 -0.0472951 0.9934112 0.0472951 0.9934112 0.0472951 0.0065888 -0.0472951
3628000000 0.0065045 -0.0460956 0.9934955 0.0460956 0.9934955 0.0460956 0.0065045 -0.0460956
3649000000 0.0064242 -0.0449034 0.9935758 0.0449034 0.9935758 0.0449034 0.0064242 -0.0449034
3670000000 0.0063477 -0.0437184 0.9936523 0.0437184 0.9936523 0.0437184 0.0063477 -0.0437184
3691000000 0.0062752 -0.0425405 0.9937248 0.0425405 0.9937248 0.0425405 0.0062752 -0.0425405
3712000000 0.0062063 -0.0413696 0.9937937 0.0413696 0.9937937 0.0413696 0.0062063 -0.0413696
3733000000 0.0061413 -0.0402056 0.9938587 0.0402056 0.9938587 0.0402056 0.0061413 -0.0402056
3754000000 0.0060798 -0.0390484 0.9939202 0.0390484 0.9939202 0.0390484 0.0060798 -0.0390484
3775000000 0.0060220 -0.0378977 0.9939780 0.0378977 0.9939780 0.0378977 0.0060220 -0.0378977
3796000000 0.0059678 -0.0367536 0.9940322 0.0367536 0.9940322 0.0367536 0.0059678 -0.0367536
3817000000 0.0059171 -0.0356158 0.9940829 0.0356158 0.9940829 0.0356158 0.0059171 -0.0356158
3838000000 0.0058699 -0.0344844 0.9941301 0.0344844 0.9941301 0.0344844 0.0058699 -0.0344844
3859000000 0.0058261 -0.0333591 0.9941739 0.0333591 0.9941739 0.0333591 0.0058261 -0.0333591
3880000000 0.0057856 -0.0322399 0.9942144 0.0322399 0.9942144 0.0322399 0.0057856 -0.0322399
3901000000 0.0057486 -0.0311266 0.9942514 0.0311266 0.9942514 0.0311266 0.0057486 -0.0311266
3922000000 0.0057148 -0.0300193 0.9942852 0.0300193 0.9942852 0.0300193 0.0057148 -0.0300193
3943000000 0.0056842 -0.0289176 0.9943158 0.0289176 0.9943158 0.0289176 0.0056842 -0.0289176
3964000000 0.0056569 -0.0278217 0.9943431 0.0278217 0.9943431 0.0278217 0.0056569 -0.0278217
3985000000 0.0056328 -0.0267313 0.9943672 0.0267313 0.9943672 0.0267313 0.0056328 -0.0267313
4006000000 0.0056118 -0.0256464 0.9943882 0.0256464 0.9943882 0.0256464 0.0056118 -0.0256464
4027000000 0.0055940 -0.0245669 0.9944060 0.0245669 0.9944060 0.0245669 0.0055940 -0.0245669
4048000000 0.0055792 -0.0234926 0.9944208 0.0234926 0.9944208 0.0234926 0.0055792 -0.0234926
4069000000 0.0055675 -0.0224235 0.9944325 0.0224235 0.9944325 0.0224235 0.0055675 -0.0224235
4090000000 0.0055587 -0.0213596 0.9944413 0.0213596 0.9944413 0.0213596 0.0055587 -0.0213596
4111000000 0.0055530 -0.0203007 0.9944470 0.0203007 0.9944470 0.0203007 0.0055530 -0.0203007
4132000000 0.0055503 -0.0192467 0.9944497 0.0192467 0.9944497 0.0192467 0.0055503 -0.0192467
4153000000 0.0055504 -0.0181975 0.9944496 0.0181975 0.9944496 0.0181975 0.0055504 -0.0181975
4174000000 0.0055535 -0.0171531 0.9944465 0.0171531 0.9944465 0.0171531 0.0055535 -0.0171531
4195000000 0.0055594 -0.0161134 0.9944406 0.0161134 0.9944406 0.0161134 0.0055594 -0.0161134
4216000000 0.0055683 -0.0150784 0.9944317 0.0150784 0.9944317 0.0150784 0.0055683 -0.0150784
4237000000 0.0055799 -0.0140478 0.9944201 0.0140478 0.9944201 0.0140478 0.0055799 -0.0140478
4258000000 0.0055944 -0.0130217 0.9944056 0.0130217 0.9944056 0.0130217 0.0055944 -0.0130217
4279000000 0.0056116 -0.0120000 0.9943884 0.0120000 0.9943884 0.0120000 0.0056116 -0.0120000
4300000000 0.0056316 -0.0109825 0.9943684 0.0109825 0.9943684 0.0109825 0.0056316 -0.0109825
4321000000 0.0056544 -0.0099693 0.9943456 0.0099693 0.9943456 0.0099693 0.0056544 -0.0099693
4342000000 0.0056799 -0.0089603 0.9943201 0.0089603 0.9943201 0.0089603 0.0056799 -0.0089603
4363000000 0.0057081 -0.0079553 0.9942919 0.0079553 0.9942919 0.0079553 0.0057081 -0.0079553
4384000000 0.0057390 -0.0069544 0.9942610 0.0069544 0.9942610 0.0069544 0.0057390 -0.0069544
4405000000 0.0057726 -0.0059574 0.9942274 0.0059574 0.9942274 0.0059574 0.0057726 -0.0059574
4426000000 0.0058089 -0.0049643 0.9941911 0.0049643 0.9941911 0.0049643 0.0058089 -0.0049643
4447000000 0.0058478 -0.0039750 0.9941522 0.0039750 0.9941522 0.0039750 0.0058478 -0.0039750
4468000000 0.0058894 -0.0029894 0.9941106 0.0029894 0.9941106 0.0029894 0.0058894 -0.0029894
4489000000 0.0059336 -0.0020076 0.9940664 0.0020076 0.9940664 0.0020076 0.0059336 -0.0020076
4510000000 0.0059804 -0.0010293 0.9940196 0.0010293 0.9940196 0.0010293 0.0059804 -0.0010293
