!Murata Part Number: GRM1555C1H431GA01
!These Parameters are Measured in Series Mode Connection
!Data Generated on Mar 30, 2021
!       o--ll--o
!Port1            Port2
!       o------o
!Operation Temp=25[degC], DC Bias Voltage=0[V]
!Freq. Start=100[MHz] Stop=9[GHz] 401[Steps]
# Hz S RI R 50
!Freq.(Hz) S11(Real) S11(Imag) S21(Real) S21(Imag) S12(Real) S12(Imag) S22(Real) S22(Imag)
100000000 0.0019217 -0.0349130 0.9980783 0.0349130 0.9980783 0.0349130 0.0019217 -0.0349130
121000000 0.0014982 -0.0280973 0.9985018 0.0280973 0.9985018 0.0280973 0.0014982 -0.0280973
142000000 0.0012535 -0.0231684 0.9987465 0.0231684 0.9987465 0.0231684 0.0012535 -0.0231684
163000000 0.0011026 -0.0193989 0.9988974 0.0193989 0.9988974 0.0193989 0.0011026 -0.0193989
184000000 0.0010060 -0.0163927 0.9989940 0.0163927 0.9989940 0.0163927 0.0010060 -0.0163927
205000000 0.0009433 -0.0139156 0.9990567 0.0139156 0.9990567 0.0139156 0.0009433 -0.0139156
226000000 0.0009031 -0.0118204 0.9990969 0.0118204 0.9990969 0.0118204 0.0009031 -0.0118204
247000000 0.0008786 -0.0100097 0.9991214 0.0100097 0.9991214 0.0100097 0.0008786 -0.0100097
268000000 0.0008656 -0.0084167 0.9991344 0.0084167 0.9991344 0.0084167 0.0008656 -0.0084167
289000000 0.0008613 -0.0069940 0.9991387 0.0069940 0.9991387 0.0069940 0.0008613 -0.0069940
310000000 0.0008638 -0.0057071 0.9991362 0.0057071 0.9991362 0.0057071 0.0008638 -0.0057071
331000000 0.0008720 -0.0045300 0.9991280 0.0045300 0.9991280 0.0045300 0.0008720 -0.0045300
352000000 0.0008848 -0.0034431 0.9991152 0.0034431 0.9991152 0.0034431 0.0008848 -0.0034431
373000000 0.0009016 -0.0024312 0.9990984 0.0024312 0.9990984 0.0024312 0.0009016 -0.0024312
394000000 0.0009219 -0.0014823 0.9990781 0.0014823 0.9990781 0.0014823 0.0009219 -0.0014823
415000000 0.0009453 -0.0005866 0.9990547 0.0005866 0.9990547 0.0005866 0.0009453 -0.0005866
436000000 0.0009716 0.0002635 0.9990284 -0.0002635 0.9990284 -0.0002635 0.0009716 0.0002635
457000000 0.0010005 0.0010743 0.9989995 -0.0010743 0.9989995 -0.0010743 0.0010005 0.0010743
478000000 0.0010320 0.0018512 0.9989680 -0.0018512 0.9989680 -0.0018512 0.0010320 0.0018512
499000000 0.0010657 0.0025986 0.9989343 -0.0025986 0.9989343 -0.0025986 0.0010657 0.0025986
520000000 0.0011018 0.0033200 0.9988982 -0.0033200 0.9988982 -0.0033200 0.0011018 0.0033200
541000000 0.0011402 0.0040188 0.9988598 -0.0040188 0.9988598 -0.0040188 0.0011402 0.0040188
562000000 0.0011807 0.0046975 0.9988193 -0.0046975 0.9988193 -0.0046975 0.0011807 0.0046975
583000000 0.0012235 0.0053585 0.9987765 -0.0053585 0.9987765 -0.0053585 0.0012235 0.0053585
604000000 0.0012685 0.0060039 0.9987315 -0.0060039 0.9987315 -0.0060039 0.0012685 0.0060039
625000000 0.0013159 0.0066355 0.9986841 -0.0066355 0.9986841 -0.0066355 0.0013159 0.0066355
646000000 0.0013657 0.0072549 0.9986343 -0.0072549 0.9986343 -0.0072549 0.0013657 0.0072549
667000000 0.0014180 0.0078635 0.9985820 -0.0078635 0.9985820 -0.0078635 0.0014180 0.0078635
688000000 0.0014730 0.0084626 0.9985270 -0.0084626 0.9985270 -0.0084626 0.0014730 0.0084626
709000000 0.0015309 0.0090534 0.9984691 -0.0090534 0.9984691 -0.0090534 0.0015309 0.0090534
730000000 0.0015919 0.0096370 0.9984081 -0.0096370 0.9984081 -0.0096370 0.0015919 0.0096370
751000000 0.0016564 0.0102146 0.9983436 -0.0102146 0.9983436 -0.0102146 0.0016564 0.0102146
772000000 0.0017247 0.0107869 0.9982753 -0.0107869 0.9982753 -0.0107869 0.0017247 0.0107869
793000000 0.0017974 0.0113551 0.9982026 -0.0113551 0.9982026 -0.0113551 0.0017974 0.0113551
814000000 0.0018751 0.0119199 0.9981249 -0.0119199 0.9981249 -0.0119199 0.0018751 0.0119199
835000000 0.0019584 0.0124823 0.9980416 -0.0124823 0.9980416 -0.0124823 0.0019584 0.0124823
856000000 0.0020484 0.0130431 0.9979516 -0.0130431 0.9979516 -0.0130431 0.0020484 0.0130431
877000000 0.0021463 0.0136031 0.9978537 -0.0136031 0.9978537 -0.0136031 0.0021463 0.0136031
898000000 0.0022534 0.0141630 0.9977466 -0.0141630 0.9977466 -0.0141630 0.0022534 0.0141630
919000000 0.0023716 0.0147236 0.9976284 -0.0147236 0.9976284 -0.0147236 0.0023716 0.0147236
940000000 0.0025033 0.0152852 0.9974967 -0.0152852 0.9974967 -0.0152852 0.0025033 0.0152852
961000000 0.0026515 0.0158482 0.9973485 -0.0158482 0.9973485 -0.0158482 0.0026515 0.0158482
982000000 0.0028197 0.0164122 0.9971803 -0.0164122 0.9971803 -0.0164122 0.0028197 0.0164122
1003000000 0.0030126 0.0169763 0.9969874 -0.0169763 0.9969874 -0.0169763 0.0030126 0.0169763
1024000000 0.0032361 0.0175383 0.9967639 -0.0175383 0.9967639 -0.0175383 0.0032361 0.0175383
1045000000 0.0034971 0.0180939 0.9965029 -0.0180939 0.9965029 -0.0180939 0.0034971 0.0180939
1066000000 0.0038036 0.0186359 0.9961964 -0.0186359 0.9961964 -0.0186359 0.0038036 0.0186359
1087000000 0.0041640 0.0191522 0.9958360 -0.0191522 0.9958360 -0.0191522 0.0041640 0.0191522
1108000000 0.0045852 0.0196240 0.9954148 -0.0196240 0.9954148 -0.0196240 0.0045852 0.0196240
1129000000 0.0050687 0.0200241 0.9949313 -0.0200241 0.9949313 -0.0200241 0.0050687 0.0200241
1150000000 0.0056039 0.0203167 0.9943961 -0.0203167 0.9943961 -0.0203167 0.0056039 0.0203167
1171000000 0.0061587 0.0204630 0.9938413 -0.0204630 0.9938413 -0.0204630 0.0061587 0.0204630
1192000000 0.0066729 0.0204362 0.9933271 -0.0204362 0.9933271 -0.0204362 0.0066729 0.0204362
1213000000 0.0070643 0.0202445 0.9929357 -0.0202445 0.9929357 -0.0202445 0.0070643 0.0202445
1234000000 0.0072569 0.0199478 0.9927431 -0.0199478 0.9927431 -0.0199478 0.0072569 0.0199478
1255000000 0.0072194 0.0196466 0.9927806 -0.0196466 0.9927806 -0.0196466 0.0072194 0.0196466
1276000000 0.0069838 0.0194395 0.9930162 -0.0194395 0.9930162 -0.0194395 0.0069838 0.0194395
1297000000 0.0066242 0.0193845 0.9933758 -0.0193845 0.9933758 -0.0193845 0.0066242 0.0193845
1318000000 0.0062189 0.0194898 0.9937811 -0.0194898 0.9937811 -0.0194898 0.0062189 0.0194898
1339000000 0.0058250 0.0197311 0.9941750 -0.0197311 0.9941750 -0.0197311 0.0058250 0.0197311
1360000000 0.0054738 0.0200733 0.9945262 -0.0200733 0.9945262 -0.0200733 0.0054738 0.0200733
1381000000 0.0051768 0.0204834 0.9948232 -0.0204834 0.9948232 -0.0204834 0.0051768 0.0204834
1402000000 0.0049340 0.0209361 0.9950660 -0.0209361 0.9950660 -0.0209361 0.0049340 0.0209361
1423000000 0.0047404 0.0214133 0.9952596 -0.0214133 0.9952596 -0.0214133 0.0047404 0.0214133
1444000000 0.0045892 0.0219033 0.9954108 -0.0219033 0.9954108 -0.0219033 0.0045892 0.0219033
1465000000 0.0044734 0.0223983 0.9955266 -0.0223983 0.9955266 -0.0223983 0.0044734 0.0223983
1486000000 0.0043870 0.0228938 0.9956130 -0.0228938 0.9956130 -0.0228938 0.0043870 0.0228938
1507000000 0.0043250 0.0233870 0.9956750 -0.0233870 0.9956750 -0.0233870 0.0043250 0.0233870
1528000000 0.0042830 0.0238762 0.9957170 -0.0238762 0.9957170 -0.0238762 0.0042830 0.0238762
1549000000 0.0042579 0.0243607 0.9957421 -0.0243607 0.9957421 -0.0243607 0.0042579 0.0243607
1570000000 0.0042467 0.0248401 0.9957533 -0.0248401 0.9957533 -0.0248401 0.0042467 0.0248401
1591000000 0.0042474 0.0253143 0.9957526 -0.0253143 0.9957526 -0.0253143 0.0042474 0.0253143
1612000000 0.0042583 0.0257835 0.9957417 -0.0257835 0.9957417 -0.0257835 0.0042583 0.0257835
1633000000 0.0042780 0.0262477 0.9957220 -0.0262477 0.9957220 -0.0262477 0.0042780 0.0262477
1654000000 0.0043054 0.0267073 0.9956946 -0.0267073 0.9956946 -0.0267073 0.0043054 0.0267073
1675000000 0.0043396 0.0271624 0.9956604 -0.0271624 0.9956604 -0.0271624 0.0043396 0.0271624
1696000000 0.0043801 0.0276133 0.9956199 -0.0276133 0.9956199 -0.0276133 0.0043801 0.0276133
1717000000 0.0044261 0.0280600 0.9955739 -0.0280600 0.9955739 -0.0280600 0.0044261 0.0280600
1738000000 0.0044774 0.0285029 0.9955226 -0.0285029 0.9955226 -0.0285029 0.0044774 0.0285029
1759000000 0.0045335 0.0289418 0.9954665 -0.0289418 0.9954665 -0.0289418 0.0045335 0.0289418
1780000000 0.0045943 0.0293770 0.9954057 -0.0293770 0.9954057 -0.0293770 0.0045943 0.0293770
1801000000 0.0046594 0.0298084 0.9953406 -0.0298084 0.9953406 -0.0298084 0.0046594 0.0298084
1822000000 0.0047287 0.0302361 0.9952713 -0.0302361 0.9952713 -0.0302361 0.0047287 0.0302361
1843000000 0.0048022 0.0306598 0.9951978 -0.0306598 0.9951978 -0.0306598 0.0048022 0.0306598
1864000000 0.0048796 0.0310794 0.9951204 -0.0310794 0.9951204 -0.0310794 0.0048796 0.0310794
1885000000 0.0049607 0.0314949 0.9950393 -0.0314949 0.9950393 -0.0314949 0.0049607 0.0314949
1906000000 0.0050456 0.0319058 0.9949544 -0.0319058 0.9949544 -0.0319058 0.0050456 0.0319058
1927000000 0.0051339 0.0323118 0.9948661 -0.0323118 0.9948661 -0.0323118 0.0051339 0.0323118
1948000000 0.0052253 0.0327127 0.9947747 -0.0327127 0.9947747 -0.0327127 0.0052253 0.0327127
1969000000 0.0053197 0.0331081 0.9946803 -0.0331081 0.9946803 -0.0331081 0.0053197 0.0331081
1990000000 0.0054166 0.0334974 0.9945834 -0.0334974 0.9945834 -0.0334974 0.0054166 0.0334974
2011000000 0.0055154 0.0338803 0.9944846 -0.0338803 0.9944846 -0.0338803 0.0055154 0.0338803
2032000000 0.0056155 0.0342564 0.9943845 -0.0342564 0.9943845 -0.0342564 0.0056155 0.0342564
2053000000 0.0057163 0.0346253 0.9942837 -0.0346253 0.9942837 -0.0346253 0.0057163 0.0346253
2074000000 0.0058167 0.0349868 0.9941833 -0.0349868 0.9941833 -0.0349868 0.0058167 0.0349868
2095000000 0.0059158 0.0353406 0.9940842 -0.0353406 0.9940842 -0.0353406 0.0059158 0.0353406
2116000000 0.0060125 0.0356869 0.9939875 -0.0356869 0.9939875 -0.0356869 0.0060125 0.0356869
2137000000 0.0061057 0.0360259 0.9938943 -0.0360259 0.9938943 -0.0360259 0.0061057 0.0360259
2158000000 0.0061941 0.0363581 0.9938059 -0.0363581 0.9938059 -0.0363581 0.0061941 0.0363581
2179000000 0.0062766 0.0366841 0.9937234 -0.0366841 0.9937234 -0.0366841 0.0062766 0.0366841
2200000000 0.0063523 0.0370050 0.9936477 -0.0370050 0.9936477 -0.0370050 0.0063523 0.0370050
2221000000 0.0064202 0.0373219 0.9935798 -0.0373219 0.9935798 -0.0373219 0.0064202 0.0373219
2242000000 0.0064799 0.0376362 0.9935201 -0.0376362 0.9935201 -0.0376362 0.0064799 0.0376362
2263000000 0.0065311 0.0379493 0.9934689 -0.0379493 0.9934689 -0.0379493 0.0065311 0.0379493
2284000000 0.0065738 0.0382627 0.9934262 -0.0382627 0.9934262 -0.0382627 0.0065738 0.0382627
2305000000 0.0066082 0.0385778 0.9933918 -0.0385778 0.9933918 -0.0385778 0.0066082 0.0385778
2326000000 0.0066351 0.0388960 0.9933649 -0.0388960 0.9933649 -0.0388960 0.0066351 0.0388960
2347000000 0.0066551 0.0392183 0.9933449 -0.0392183 0.9933449 -0.0392183 0.0066551 0.0392183
2368000000 0.0066693 0.0395455 0.9933307 -0.0395455 0.9933307 -0.0395455 0.0066693 0.0395455
2389000000 0.0066787 0.0398783 0.9933213 -0.0398783 0.9933213 -0.0398783 0.0066787 0.0398783
2410000000 0.0066844 0.0402171 0.9933156 -0.0402171 0.9933156 -0.0402171 0.0066844 0.0402171
2431000000 0.0066875 0.0405621 0.9933125 -0.0405621 0.9933125 -0.0405621 0.0066875 0.0405621
2452000000 0.0066888 0.0409132 0.9933112 -0.0409132 0.9933112 -0.0409132 0.0066888 0.0409132
2473000000 0.0066893 0.0412703 0.9933107 -0.0412703 0.9933107 -0.0412703 0.0066893 0.0412703
2494000000 0.0066898 0.0416330 0.9933102 -0.0416330 0.9933102 -0.0416330 0.0066898 0.0416330
2515000000 0.0066908 0.0420011 0.9933092 -0.0420011 0.9933092 -0.0420011 0.0066908 0.0420011
2536000000 0.0066929 0.0423741 0.9933071 -0.0423741 0.9933071 -0.0423741 0.0066929 0.0423741
2557000000 0.0066966 0.0427516 0.9933034 -0.0427516 0.9933034 -0.0427516 0.0066966 0.0427516
2578000000 0.0067020 0.0431331 0.9932980 -0.0431331 0.9932980 -0.0431331 0.0067020 0.0431331
2599000000 0.0067095 0.0435182 0.9932905 -0.0435182 0.9932905 -0.0435182 0.0067095 0.0435182
2620000000 0.0067192 0.0439065 0.9932808 -0.0439065 0.9932808 -0.0439065 0.0067192 0.0439065
2641000000 0.0067312 0.0442977 0.9932688 -0.0442977 0.9932688 -0.0442977 0.0067312 0.0442977
2662000000 0.0067455 0.0446914 0.9932545 -0.0446914 0.9932545 -0.0446914 0.0067455 0.0446914
2683000000 0.0067621 0.0450873 0.9932379 -0.0450873 0.9932379 -0.0450873 0.0067621 0.0450873
2704000000 0.0067810 0.0454851 0.9932190 -0.0454851 0.9932190 -0.0454851 0.0067810 0.0454851
2725000000 0.0068022 0.0458846 0.9931978 -0.0458846 0.9931978 -0.0458846 0.0068022 0.0458846
2746000000 0.0068256 0.0462856 0.9931744 -0.0462856 0.9931744 -0.0462856 0.0068256 0.0462856
2767000000 0.0068511 0.0466879 0.9931489 -0.0466879 0.9931489 -0.0466879 0.0068511 0.0466879
2788000000 0.0068786 0.0470914 0.9931214 -0.0470914 0.9931214 -0.0470914 0.0068786 0.0470914
2809000000 0.0069080 0.0474959 0.9930920 -0.0474959 0.9930920 -0.0474959 0.0069080 0.0474959
2830000000 0.0069394 0.0479012 0.9930606 -0.0479012 0.9930606 -0.0479012 0.0069394 0.0479012
2851000000 0.0069725 0.0483074 0.9930275 -0.0483074 0.9930275 -0.0483074 0.0069725 0.0483074
2872000000 0.0070074 0.0487144 0.9929926 -0.0487144 0.9929926 -0.0487144 0.0070074 0.0487144
2893000000 0.0070438 0.0491220 0.9929562 -0.0491220 0.9929562 -0.0491220 0.0070438 0.0491220
2914000000 0.0070819 0.0495302 0.9929181 -0.0495302 0.9929181 -0.0495302 0.0070819 0.0495302
2935000000 0.0071214 0.0499390 0.9928786 -0.0499390 0.9928786 -0.0499390 0.0071214 0.0499390
2956000000 0.0071623 0.0503483 0.9928377 -0.0503483 0.9928377 -0.0503483 0.0071623 0.0503483
2977000000 0.0072045 0.0507581 0.9927955 -0.0507581 0.9927955 -0.0507581 0.0072045 0.0507581
2998000000 0.0072481 0.0511685 0.9927519 -0.0511685 0.9927519 -0.0511685 0.0072481 0.0511685
3019000000 0.0072929 0.0515793 0.9927071 -0.0515793 0.9927071 -0.0515793 0.0072929 0.0515793
3040000000 0.0073388 0.0519906 0.9926612 -0.0519906 0.9926612 -0.0519906 0.0073388 0.0519906
3061000000 0.0073860 0.0524024 0.9926140 -0.0524024 0.9926140 -0.0524024 0.0073860 0.0524024
3082000000 0.0074342 0.0528146 0.9925658 -0.0528146 0.9925658 -0.0528146 0.0074342 0.0528146
3103000000 0.0074834 0.0532273 0.9925166 -0.0532273 0.9925166 -0.0532273 0.0074834 0.0532273
3124000000 0.0075337 0.0536405 0.9924663 -0.0536405 0.9924663 -0.0536405 0.0075337 0.0536405
3145000000 0.0075849 0.0540542 0.9924151 -0.0540542 0.9924151 -0.0540542 0.0075849 0.0540542
3166000000 0.0076371 0.0544683 0.9923629 -0.0544683 0.9923629 -0.0544683 0.0076371 0.0544683
3187000000 0.0076902 0.0548830 0.9923098 -0.0548830 0.9923098 -0.0548830 0.0076902 0.0548830
3208000000 0.0077443 0.0552982 0.9922557 -0.0552982 0.9922557 -0.0552982 0.0077443 0.0552982
3229000000 0.0077992 0.0557138 0.9922008 -0.0557138 0.9922008 -0.0557138 0.0077992 0.0557138
3250000000 0.0078549 0.0561300 0.9921451 -0.0561300 0.9921451 -0.0561300 0.0078549 0.0561300
3271000000 0.0079115 0.0565468 0.9920885 -0.0565468 0.9920885 -0.0565468 0.0079115 0.0565468
3292000000 0.0079689 0.0569641 0.9920311 -0.0569641 0.9920311 -0.0569641 0.0079689 0.0569641
3313000000 0.0080270 0.0573820 0.9919730 -0.0573820 0.9919730 -0.0573820 0.0080270 0.0573820
3334000000 0.0080860 0.0578005 0.9919140 -0.0578005 0.9919140 -0.0578005 0.0080860 0.0578005
3355000000 0.0081457 0.0582196 0.9918543 -0.0582196 0.9918543 -0.0582196 0.0081457 0.0582196
3376000000 0.0082062 0.0586394 0.9917938 -0.0586394 0.9917938 -0.0586394 0.0082062 0.0586394
3397000000 0.0082675 0.0590597 0.9917325 -0.0590597 0.9917325 -0.0590597 0.0082675 0.0590597
3418000000 0.0083295 0.0594808 0.9916705 -0.0594808 0.9916705 -0.0594808 0.0083295 0.0594808
3439000000 0.0083922 0.0599025 0.9916078 -0.0599025 0.9916078 -0.0599025 0.0083922 0.0599025
3460000000 0.0084556 0.0603249 0.9915444 -0.0603249 0.9915444 -0.0603249 0.0084556 0.0603249
3481000000 0.0085198 0.0607480 0.9914802 -0.0607480 0.9914802 -0.0607480 0.0085198 0.0607480
3502000000 0.0085847 0.0611718 0.9914153 -0.0611718 0.9914153 -0.0611718 0.0085847 0.0611718
3523000000 0.0086503 0.0615964 0.9913497 -0.0615964 0.9913497 -0.0615964 0.0086503 0.0615964
3544000000 0.0087165 0.0620217 0.9912835 -0.0620217 0.9912835 -0.0620217 0.0087165 0.0620217
3565000000 0.0087835 0.0624478 0.9912165 -0.0624478 0.9912165 -0.0624478 0.0087835 0.0624478
3586000000 0.0088512 0.0628747 0.9911488 -0.0628747 0.9911488 -0.0628747 0.0088512 0.0628747
3607000000 0.0089196 0.0633024 0.9910804 -0.0633024 0.9910804 -0.0633024 0.0089196 0.0633024
3628000000 0.0089888 0.0637309 0.9910112 -0.0637309 0.9910112 -0.0637309 0.0089888 0.0637309
3649000000 0.0090586 0.0641603 0.9909414 -0.0641603 0.9909414 -0.0641603 0.0090586 0.0641603
3670000000 0.0091291 0.0645905 0.9908709 -0.0645905 0.9908709 -0.0645905 0.0091291 0.0645905
3691000000 0.0092003 0.0650216 0.9907997 -0.0650216 0.9907997 -0.0650216 0.0092003 0.0650216
3712000000 0.0092722 0.0654536 0.9907278 -0.0654536 0.9907278 -0.0654536 0.0092722 0.0654536
3733000000 0.0093448 0.0658865 0.9906552 -0.0658865 0.9906552 -0.0658865 0.0093448 0.0658865
3754000000 0.0094181 0.0663204 0.9905819 -0.0663204 0.9905819 -0.0663204 0.0094181 0.0663204
3775000000 0.0094921 0.0667552 0.9905079 -0.0667552 0.9905079 -0.0667552 0.0094921 0.0667552
3796000000 0.0095669 0.0671909 0.9904331 -0.0671909 0.9904331 -0.0671909 0.0095669 0.0671909
3817000000 0.0096424 0.0676277 0.9903576 -0.0676277 0.9903576 -0.0676277 0.0096424 0.0676277
3838000000 0.0097185 0.0680654 0.9902815 -0.0680654 0.9902815 -0.0680654 0.0097185 0.0680654
3859000000 0.0097955 0.0685041 0.9902045 -0.0685041 0.9902045 -0.0685041 0.0097955 0.0685041
3880000000 0.0098731 0.0689439 0.9901269 -0.0689439 0.9901269 -0.0689439 0.0098731 0.0689439
3901000000 0.0099515 0.0693847 0.9900485 -0.0693847 0.9900485 -0.0693847 0.0099515 0.0693847
3922000000 0.0100306 0.0698266 0.9899694 -0.0698266 0.9899694 -0.0698266 0.0100306 0.0698266
3943000000 0.0101105 0.0702696 0.9898895 -0.0702696 0.9898895 -0.0702696 0.0101105 0.0702696
3964000000 0.0101911 0.0707137 0.9898089 -0.0707137 0.9898089 -0.0707137 0.0101911 0.0707137
3985000000 0.0102724 0.0711589 0.9897276 -0.0711589 0.9897276 -0.0711589 0.0102724 0.0711589
4006000000 0.0103546 0.0716052 0.9896454 -0.0716052 0.9896454 -0.0716052 0.0103546 0.0716052
4027000000 0.0104375 0.0720527 0.9895625 -0.0720527 0.9895625 -0.0720527 0.0104375 0.0720527
4048000000 0.0105212 0.0725013 0.9894788 -0.0725013 0.9894788 -0.0725013 0.0105212 0.0725013
4069000000 0.0106056 0.0729512 0.9893944 -0.0729512 0.9893944 -0.0729512 0.0106056 0.0729512
4090000000 0.0106909 0.0734022 0.9893091 -0.0734022 0.9893091 -0.0734022 0.0106909 0.0734022
4111000000 0.0107770 0.0738545 0.9892230 -0.0738545 0.9892230 -0.0738545 0.0107770 0.0738545
4132000000 0.0108638 0.0743080 0.9891362 -0.0743080 0.9891362 -0.0743080 0.0108638 0.0743080
4153000000 0.0109515 0.0747628 0.9890485 -0.0747628 0.9890485 -0.0747628 0.0109515 0.0747628
4174000000 0.0110400 0.0752188 0.9889600 -0.0752188 0.9889600 -0.0752188 0.0110400 0.0752188
4195000000 0.0111294 0.0756762 0.9888706 -0.0756762 0.9888706 -0.0756762 0.0111294 0.0756762
4216000000 0.0112196 0.0761348 0.9887804 -0.0761348 0.9887804 -0.0761348 0.0112196 0.0761348
4237000000 0.0113106 0.0765948 0.9886894 -0.0765948 0.9886894 -0.0765948 0.0113106 0.0765948
4258000000 0.0114025 0.0770562 0.9885975 -0.0770562 0.9885975 -0.0770562 0.0114025 0.0770562
4279000000 0.0114953 0.0775189 0.9885047 -0.0775189 0.9885047 -0.0775189 0.0114953 0.0775189
4300000000 0.0115889 0.0779830 0.9884111 -0.0779830 0.9884111 -0.0779830 0.0115889 0.0779830
4321000000 0.0116835 0.0784486 0.9883165 -0.0784486 0.9883165 -0.0784486 0.0116835 0.0784486
4342000000 0.0117789 0.0789155 0.9882211 -0.0789155 0.9882211 -0.0789155 0.0117789 0.0789155
4363000000 0.0118753 0.0793839 0.9881247 -0.0793839 0.9881247 -0.0793839 0.0118753 0.0793839
4384000000 0.0119726 0.0798538 0.9880274 -0.0798538 0.9880274 -0.0798538 0.0119726 0.0798538
4405000000 0.0120708 0.0803251 0.9879292 -0.0803251 0.9879292 -0.0803251 0.0120708 0.0803251
4426000000 0.0121699 0.0807980 0.9878301 -0.0807980 0.9878301 -0.0807980 0.0121699 0.0807980
4447000000 0.0122700 0.0812724 0.9877300 -0.0812724 0.9877300 -0.0812724 0.0122700 0.0812724
4468000000 0.0123711 0.0817483 0.9876289 -0.0817483 0.9876289 -0.0817483 0.0123711 0.0817483
4489000000 0.0124732 0.0822258 0.9875268 -0.0822258 0.9875268 -0.0822258 0.0124732 0.0822258
4510000000 0.0125762 0.0827049 0.9874238 -0.0827049 0.9874238 -0.0827049 0.0125762 0.0827049
