!Murata Part Number: GRM1552C1H300JA01
!These Parameters are Measured in Series Mode Connection
!Data Generated on Mar 30, 2021
!       o--ll--o
!Port1            Port2
!       o------o
!Operation Temp=25[degC], DC Bias Voltage=0[V]
!Freq. Start=100[MHz] Stop=9[GHz] 401[Steps]
# Hz S RI R 50
!Freq.(Hz) S11(Real) S11(Imag) S21(Real) S21(Imag) S12(Real) S12(Imag) S22(Real) S22(Imag)
100000000 0.2186676 -0.4122459 0.7813324 0.4122459 0.7813324 0.4122459 0.2186676 -0.4122459
121000000 0.1601999 -0.3654571 0.8398001 0.3654571 0.8398001 0.3654571 0.1601999 -0.3654571
142000000 0.1214009 -0.3250164 0.8785991 0.3250164 0.8785991 0.3250164 0.1214009 -0.3250164
163000000 0.0946751 -0.2909427 0.9053249 0.2909427 0.9053249 0.2909427 0.0946751 -0.2909427
184000000 0.0756261 -0.2623236 0.9243739 0.2623236 0.9243739 0.2623236 0.0756261 -0.2623236
205000000 0.0616367 -0.2381603 0.9383633 0.2381603 0.9383633 0.2381603 0.0616367 -0.2381603
226000000 0.0510940 -0.2175895 0.9489060 0.2175895 0.9489060 0.2175895 0.0510940 -0.2175895
247000000 0.0429700 -0.1999158 0.9570300 0.1999158 0.9570300 0.1999158 0.0429700 -0.1999158
268000000 0.0365880 -0.1845922 0.9634120 0.1845922 0.9634120 0.1845922 0.0365880 -0.1845922
289000000 0.0314900 -0.1711905 0.9685100 0.1711905 0.9685100 0.1711905 0.0314900 -0.1711905
310000000 0.0273577 -0.1593747 0.9726423 0.1593747 0.9726423 0.1593747 0.0273577 -0.1593747
331000000 0.0239650 -0.1488794 0.9760350 0.1488794 0.9760350 0.1488794 0.0239650 -0.1488794
352000000 0.0211478 -0.1394930 0.9788522 0.1394930 0.9788522 0.1394930 0.0211478 -0.1394930
373000000 0.0187849 -0.1310454 0.9812151 0.1310454 0.9812151 0.1310454 0.0187849 -0.1310454
394000000 0.0167854 -0.1233991 0.9832146 0.1233991 0.9832146 0.1233991 0.0167854 -0.1233991
415000000 0.0150797 -0.1164412 0.9849203 0.1164412 0.9849203 0.1164412 0.0150797 -0.1164412
436000000 0.0136142 -0.1100789 0.9863858 0.1100789 0.9863858 0.1100789 0.0136142 -0.1100789
457000000 0.0123471 -0.1042350 0.9876529 0.1042350 0.9876529 0.1042350 0.0123471 -0.1042350
478000000 0.0112451 -0.0988450 0.9887549 0.0988450 0.9887549 0.0988450 0.0112451 -0.0988450
499000000 0.0102816 -0.0938544 0.9897184 0.0938544 0.9897184 0.0938544 0.0102816 -0.0938544
520000000 0.0094353 -0.0892171 0.9905647 0.0892171 0.9905647 0.0892171 0.0094353 -0.0892171
541000000 0.0086888 -0.0848938 0.9913112 0.0848938 0.9913112 0.0848938 0.0086888 -0.0848938
562000000 0.0080278 -0.0808506 0.9919722 0.0808506 0.9919722 0.0808506 0.0080278 -0.0808506
583000000 0.0074404 -0.0770584 0.9925596 0.0770584 0.9925596 0.0770584 0.0074404 -0.0770584
604000000 0.0069169 -0.0734919 0.9930831 0.0734919 0.9930831 0.0734919 0.0069169 -0.0734919
625000000 0.0064489 -0.0701292 0.9935511 0.0701292 0.9935511 0.0701292 0.0064489 -0.0701292
646000000 0.0060296 -0.0669509 0.9939704 0.0669509 0.9939704 0.0669509 0.0060296 -0.0669509
667000000 0.0056530 -0.0639402 0.9943470 0.0639402 0.9943470 0.0639402 0.0056530 -0.0639402
688000000 0.0053142 -0.0610821 0.9946858 0.0610821 0.9946858 0.0610821 0.0053142 -0.0610821
709000000 0.0050088 -0.0583635 0.9949912 0.0583635 0.9949912 0.0583635 0.0050088 -0.0583635
730000000 0.0047332 -0.0557726 0.9952668 0.0557726 0.9952668 0.0557726 0.0047332 -0.0557726
751000000 0.0044842 -0.0532990 0.9955158 0.0532990 0.9955158 0.0532990 0.0044842 -0.0532990
772000000 0.0042589 -0.0509333 0.9957411 0.0509333 0.9957411 0.0509333 0.0042589 -0.0509333
793000000 0.0040550 -0.0486670 0.9959450 0.0486670 0.9959450 0.0486670 0.0040550 -0.0486670
814000000 0.0038703 -0.0464928 0.9961297 0.0464928 0.9961297 0.0464928 0.0038703 -0.0464928
835000000 0.0037030 -0.0444037 0.9962970 0.0444037 0.9962970 0.0444037 0.0037030 -0.0444037
856000000 0.0035515 -0.0423937 0.9964485 0.0423937 0.9964485 0.0423937 0.0035515 -0.0423937
877000000 0.0034143 -0.0404571 0.9965857 0.0404571 0.9965857 0.0404571 0.0034143 -0.0404571
898000000 0.0032902 -0.0385889 0.9967098 0.0385889 0.9967098 0.0385889 0.0032902 -0.0385889
919000000 0.0031779 -0.0367845 0.9968221 0.0367845 0.9968221 0.0367845 0.0031779 -0.0367845
940000000 0.0030766 -0.0350396 0.9969234 0.0350396 0.9969234 0.0350396 0.0030766 -0.0350396
961000000 0.0029852 -0.0333505 0.9970148 0.0333505 0.9970148 0.0333505 0.0029852 -0.0333505
982000000 0.0029030 -0.0317136 0.9970970 0.0317136 0.9970970 0.0317136 0.0029030 -0.0317136
1003000000 0.0028293 -0.0301256 0.9971707 0.0301256 0.9971707 0.0301256 0.0028293 -0.0301256
1024000000 0.0027633 -0.0285836 0.9972367 0.0285836 0.9972367 0.0285836 0.0027633 -0.0285836
1045000000 0.0027046 -0.0270848 0.9972954 0.0270848 0.9972954 0.0270848 0.0027046 -0.0270848
1066000000 0.0026525 -0.0256268 0.9973475 0.0256268 0.9973475 0.0256268 0.0026525 -0.0256268
1087000000 0.0026066 -0.0242070 0.9973934 0.0242070 0.9973934 0.0242070 0.0026066 -0.0242070
1108000000 0.0025664 -0.0228235 0.9974336 0.0228235 0.9974336 0.0228235 0.0025664 -0.0228235
1129000000 0.0025316 -0.0214742 0.9974684 0.0214742 0.9974684 0.0214742 0.0025316 -0.0214742
1150000000 0.0025018 -0.0201572 0.9974982 0.0201572 0.9974982 0.0201572 0.0025018 -0.0201572
1171000000 0.0024767 -0.0188708 0.9975233 0.0188708 0.9975233 0.0188708 0.0024767 -0.0188708
1192000000 0.0024559 -0.0176134 0.9975441 0.0176134 0.9975441 0.0176134 0.0024559 -0.0176134
1213000000 0.0024392 -0.0163834 0.9975608 0.0163834 0.9975608 0.0163834 0.0024392 -0.0163834
1234000000 0.0024263 -0.0151794 0.9975737 0.0151794 0.9975737 0.0151794 0.0024263 -0.0151794
1255000000 0.0024171 -0.0140003 0.9975829 0.0140003 0.9975829 0.0140003 0.0024171 -0.0140003
1276000000 0.0024112 -0.0128446 0.9975888 0.0128446 0.9975888 0.0128446 0.0024112 -0.0128446
1297000000 0.0024086 -0.0117113 0.9975914 0.0117113 0.9975914 0.0117113 0.0024086 -0.0117113
1318000000 0.0024089 -0.0105993 0.9975911 0.0105993 0.9975911 0.0105993 0.0024089 -0.0105993
1339000000 0.0024122 -0.0095075 0.9975878 0.0095075 0.9975878 0.0095075 0.0024122 -0.0095075
1360000000 0.0024181 -0.0084350 0.9975819 0.0084350 0.9975819 0.0084350 0.0024181 -0.0084350
1381000000 0.0024266 -0.0073810 0.9975734 0.0073810 0.9975734 0.0073810 0.0024266 -0.0073810
1402000000 0.0024376 -0.0063445 0.9975624 0.0063445 0.9975624 0.0063445 0.0024376 -0.0063445
1423000000 0.0024509 -0.0053248 0.9975491 0.0053248 0.9975491 0.0053248 0.0024509 -0.0053248
1444000000 0.0024665 -0.0043211 0.9975335 0.0043211 0.9975335 0.0043211 0.0024665 -0.0043211
1465000000 0.0024842 -0.0033327 0.9975158 0.0033327 0.9975158 0.0033327 0.0024842 -0.0033327
1486000000 0.0025039 -0.0023590 0.9974961 0.0023590 0.9974961 0.0023590 0.0025039 -0.0023590
1507000000 0.0025256 -0.0013992 0.9974744 0.0013992 0.9974744 0.0013992 0.0025256 -0.0013992
1528000000 0.0025491 -0.0004529 0.9974509 0.0004529 0.9974509 0.0004529 0.0025491 -0.0004529
1549000000 0.0025745 0.0004807 0.9974255 -0.0004807 0.9974255 -0.0004807 0.0025745 0.0004807
1570000000 0.0026016 0.0014020 0.9973984 -0.0014020 0.9973984 -0.0014020 0.0026016 0.0014020
1591000000 0.0026304 0.0023114 0.9973696 -0.0023114 0.9973696 -0.0023114 0.0026304 0.0023114
1612000000 0.0026609 0.0032097 0.9973391 -0.0032097 0.9973391 -0.0032097 0.0026609 0.0032097
1633000000 0.0026929 0.0040971 0.9973071 -0.0040971 0.9973071 -0.0040971 0.0026929 0.0040971
1654000000 0.0027265 0.0049741 0.9972735 -0.0049741 0.9972735 -0.0049741 0.0027265 0.0049741
1675000000 0.0027616 0.0058412 0.9972384 -0.0058412 0.9972384 -0.0058412 0.0027616 0.0058412
1696000000 0.0027982 0.0066987 0.9972018 -0.0066987 0.9972018 -0.0066987 0.0027982 0.0066987
1717000000 0.0028362 0.0075471 0.9971638 -0.0075471 0.9971638 -0.0075471 0.0028362 0.0075471
1738000000 0.0028756 0.0083867 0.9971244 -0.0083867 0.9971244 -0.0083867 0.0028756 0.0083867
1759000000 0.0029163 0.0092178 0.9970837 -0.0092178 0.9970837 -0.0092178 0.0029163 0.0092178
1780000000 0.0029585 0.0100408 0.9970415 -0.0100408 0.9970415 -0.0100408 0.0029585 0.0100408
1801000000 0.0030020 0.0108561 0.9969980 -0.0108561 0.9969980 -0.0108561 0.0030020 0.0108561
1822000000 0.0030468 0.0116638 0.9969532 -0.0116638 0.9969532 -0.0116638 0.0030468 0.0116638
1843000000 0.0030929 0.0124644 0.9969071 -0.0124644 0.9969071 -0.0124644 0.0030929 0.0124644
1864000000 0.0031404 0.0132580 0.9968596 -0.0132580 0.9968596 -0.0132580 0.0031404 0.0132580
1885000000 0.0031891 0.0140450 0.9968109 -0.0140450 0.9968109 -0.0140450 0.0031891 0.0140450
1906000000 0.0032392 0.0148256 0.9967608 -0.0148256 0.9967608 -0.0148256 0.0032392 0.0148256
1927000000 0.0032905 0.0156001 0.9967095 -0.0156001 0.9967095 -0.0156001 0.0032905 0.0156001
1948000000 0.0033431 0.0163687 0.9966569 -0.0163687 0.9966569 -0.0163687 0.0033431 0.0163687
1969000000 0.0033970 0.0171316 0.9966030 -0.0171316 0.9966030 -0.0171316 0.0033970 0.0171316
1990000000 0.0034523 0.0178890 0.9965477 -0.0178890 0.9965477 -0.0178890 0.0034523 0.0178890
2011000000 0.0035088 0.0186413 0.9964912 -0.0186413 0.9964912 -0.0186413 0.0035088 0.0186413
2032000000 0.0035667 0.0193885 0.9964333 -0.0193885 0.9964333 -0.0193885 0.0035667 0.0193885
2053000000 0.0036259 0.0201309 0.9963741 -0.0201309 0.9963741 -0.0201309 0.0036259 0.0201309
2074000000 0.0036864 0.0208686 0.9963136 -0.0208686 0.9963136 -0.0208686 0.0036864 0.0208686
2095000000 0.0037484 0.0216019 0.9962516 -0.0216019 0.9962516 -0.0216019 0.0037484 0.0216019
2116000000 0.0038117 0.0223309 0.9961883 -0.0223309 0.9961883 -0.0223309 0.0038117 0.0223309
2137000000 0.0038765 0.0230559 0.9961235 -0.0230559 0.9961235 -0.0230559 0.0038765 0.0230559
2158000000 0.0039428 0.0237768 0.9960572 -0.0237768 0.9960572 -0.0237768 0.0039428 0.0237768
2179000000 0.0040105 0.0244940 0.9959895 -0.0244940 0.9959895 -0.0244940 0.0040105 0.0244940
2200000000 0.0040798 0.0252076 0.9959202 -0.0252076 0.9959202 -0.0252076 0.0040798 0.0252076
2221000000 0.0041506 0.0259177 0.9958494 -0.0259177 0.9958494 -0.0259177 0.0041506 0.0259177
2242000000 0.0042231 0.0266245 0.9957769 -0.0266245 0.9957769 -0.0266245 0.0042231 0.0266245
2263000000 0.0042972 0.0273281 0.9957028 -0.0273281 0.9957028 -0.0273281 0.0042972 0.0273281
2284000000 0.0043731 0.0280286 0.9956269 -0.0280286 0.9956269 -0.0280286 0.0043731 0.0280286
2305000000 0.0044507 0.0287263 0.9955493 -0.0287263 0.9955493 -0.0287263 0.0044507 0.0287263
2326000000 0.0045302 0.0294211 0.9954698 -0.0294211 0.9954698 -0.0294211 0.0045302 0.0294211
2347000000 0.0046116 0.0301132 0.9953884 -0.0301132 0.9953884 -0.0301132 0.0046116 0.0301132
2368000000 0.0046950 0.0308028 0.9953050 -0.0308028 0.9953050 -0.0308028 0.0046950 0.0308028
2389000000 0.0047805 0.0314899 0.9952195 -0.0314899 0.9952195 -0.0314899 0.0047805 0.0314899
2410000000 0.0048681 0.0321746 0.9951319 -0.0321746 0.9951319 -0.0321746 0.0048681 0.0321746
2431000000 0.0049580 0.0328571 0.9950420 -0.0328571 0.9950420 -0.0328571 0.0049580 0.0328571
2452000000 0.0050502 0.0335374 0.9949498 -0.0335374 0.9949498 -0.0335374 0.0050502 0.0335374
2473000000 0.0051449 0.0342157 0.9948551 -0.0342157 0.9948551 -0.0342157 0.0051449 0.0342157
2494000000 0.0052422 0.0348919 0.9947578 -0.0348919 0.9947578 -0.0348919 0.0052422 0.0348919
2515000000 0.0053423 0.0355662 0.9946577 -0.0355662 0.9946577 -0.0355662 0.0053423 0.0355662
2536000000 0.0054452 0.0362386 0.9945548 -0.0362386 0.9945548 -0.0362386 0.0054452 0.0362386
2557000000 0.0055511 0.0369092 0.9944489 -0.0369092 0.9944489 -0.0369092 0.0055511 0.0369092
2578000000 0.0056601 0.0375780 0.9943399 -0.0375780 0.9943399 -0.0375780 0.0056601 0.0375780
2599000000 0.0057726 0.0382450 0.9942274 -0.0382450 0.9942274 -0.0382450 0.0057726 0.0382450
2620000000 0.0058885 0.0389103 0.9941115 -0.0389103 0.9941115 -0.0389103 0.0058885 0.0389103
2641000000 0.0060082 0.0395739 0.9939918 -0.0395739 0.9939918 -0.0395739 0.0060082 0.0395739
2662000000 0.0061319 0.0402356 0.9938681 -0.0402356 0.9938681 -0.0402356 0.0061319 0.0402356
2683000000 0.0062597 0.0408955 0.9937403 -0.0408955 0.9937403 -0.0408955 0.0062597 0.0408955
2704000000 0.0063920 0.0415536 0.9936080 -0.0415536 0.9936080 -0.0415536 0.0063920 0.0415536
2725000000 0.0065290 0.0422096 0.9934710 -0.0422096 0.9934710 -0.0422096 0.0065290 0.0422096
2746000000 0.0066709 0.0428635 0.9933291 -0.0428635 0.9933291 -0.0428635 0.0066709 0.0428635
2767000000 0.0068180 0.0435151 0.9931820 -0.0435151 0.9931820 -0.0435151 0.0068180 0.0435151
2788000000 0.0069707 0.0441643 0.9930293 -0.0441643 0.9930293 -0.0441643 0.0069707 0.0441643
2809000000 0.0071293 0.0448106 0.9928707 -0.0448106 0.9928707 -0.0448106 0.0071293 0.0448106
2830000000 0.0072941 0.0454539 0.9927059 -0.0454539 0.9927059 -0.0454539 0.0072941 0.0454539
2851000000 0.0074653 0.0460938 0.9925347 -0.0460938 0.9925347 -0.0460938 0.0074653 0.0460938
2872000000 0.0076434 0.0467297 0.9923566 -0.0467297 0.9923566 -0.0467297 0.0076434 0.0467297
2893000000 0.0078285 0.0473612 0.9921715 -0.0473612 0.9921715 -0.0473612 0.0078285 0.0473612
2914000000 0.0080211 0.0479877 0.9919789 -0.0479877 0.9919789 -0.0479877 0.0080211 0.0479877
2935000000 0.0082214 0.0486084 0.9917786 -0.0486084 0.9917786 -0.0486084 0.0082214 0.0486084
2956000000 0.0084295 0.0492226 0.9915705 -0.0492226 0.9915705 -0.0492226 0.0084295 0.0492226
2977000000 0.0086456 0.0498293 0.9913544 -0.0498293 0.9913544 -0.0498293 0.0086456 0.0498293
2998000000 0.0088697 0.0504274 0.9911303 -0.0504274 0.9911303 -0.0504274 0.0088697 0.0504274
3019000000 0.0091018 0.0510159 0.9908982 -0.0510159 0.9908982 -0.0510159 0.0091018 0.0510159
3040000000 0.0093416 0.0515934 0.9906584 -0.0515934 0.9906584 -0.0515934 0.0093416 0.0515934
3061000000 0.0095887 0.0521585 0.9904113 -0.0521585 0.9904113 -0.0521585 0.0095887 0.0521585
3082000000 0.0098424 0.0527098 0.9901576 -0.0527098 0.9901576 -0.0527098 0.0098424 0.0527098
3103000000 0.0101017 0.0532459 0.9898983 -0.0532459 0.9898983 -0.0532459 0.0101017 0.0532459
3124000000 0.0103654 0.0537651 0.9896346 -0.0537651 0.9896346 -0.0537651 0.0103654 0.0537651
3145000000 0.0106318 0.0542661 0.9893682 -0.0542661 0.9893682 -0.0542661 0.0106318 0.0542661
3166000000 0.0108989 0.0547476 0.9891011 -0.0547476 0.9891011 -0.0547476 0.0108989 0.0547476
3187000000 0.0111643 0.0552085 0.9888357 -0.0552085 0.9888357 -0.0552085 0.0111643 0.0552085
3208000000 0.0114253 0.0556480 0.9885747 -0.0556480 0.9885747 -0.0556480 0.0114253 0.0556480
3229000000 0.0116787 0.0560659 0.9883213 -0.0560659 0.9883213 -0.0560659 0.0116787 0.0560659
3250000000 0.0119212 0.0564626 0.9880788 -0.0564626 0.9880788 -0.0564626 0.0119212 0.0564626
3271000000 0.0121494 0.0568390 0.9878506 -0.0568390 0.9878506 -0.0568390 0.0121494 0.0568390
3292000000 0.0123597 0.0571968 0.9876403 -0.0571968 0.9876403 -0.0571968 0.0123597 0.0571968
3313000000 0.0125491 0.0575385 0.9874509 -0.0575385 0.9874509 -0.0575385 0.0125491 0.0575385
3334000000 0.0127148 0.0578672 0.9872852 -0.0578672 0.9872852 -0.0578672 0.0127148 0.0578672
3355000000 0.0128546 0.0581868 0.9871454 -0.0581868 0.9871454 -0.0581868 0.0128546 0.0581868
3376000000 0.0129673 0.0585015 0.9870327 -0.0585015 0.9870327 -0.0585015 0.0129673 0.0585015
3397000000 0.0130522 0.0588158 0.9869478 -0.0588158 0.9869478 -0.0588158 0.0130522 0.0588158
3418000000 0.0131100 0.0591340 0.9868900 -0.0591340 0.9868900 -0.0591340 0.0131100 0.0591340
3439000000 0.0131419 0.0594605 0.9868581 -0.0594605 0.9868581 -0.0594605 0.0131419 0.0594605
3460000000 0.0131501 0.0597990 0.9868499 -0.0597990 0.9868499 -0.0597990 0.0131501 0.0597990
3481000000 0.0131374 0.0601528 0.9868626 -0.0601528 0.9868626 -0.0601528 0.0131374 0.0601528
3502000000 0.0131070 0.0605244 0.9868930 -0.0605244 0.9868930 -0.0605244 0.0131070 0.0605244
3523000000 0.0130622 0.0609154 0.9869378 -0.0609154 0.9869378 -0.0609154 0.0130622 0.0609154
3544000000 0.0130067 0.0613268 0.9869933 -0.0613268 0.9869933 -0.0613268 0.0130067 0.0613268
3565000000 0.0129437 0.0617590 0.9870563 -0.0617590 0.9870563 -0.0617590 0.0129437 0.0617590
3586000000 0.0128765 0.0622118 0.9871235 -0.0622118 0.9871235 -0.0622118 0.0128765 0.0622118
3607000000 0.0128079 0.0626843 0.9871921 -0.0626843 0.9871921 -0.0626843 0.0128079 0.0626843
3628000000 0.0127402 0.0631756 0.9872598 -0.0631756 0.9872598 -0.0631756 0.0127402 0.0631756
3649000000 0.0126756 0.0636843 0.9873244 -0.0636843 0.9873244 -0.0636843 0.0126756 0.0636843
3670000000 0.0126158 0.0642090 0.9873842 -0.0642090 0.9873842 -0.0642090 0.0126158 0.0642090
3691000000 0.0125620 0.0647481 0.9874380 -0.0647481 0.9874380 -0.0647481 0.0125620 0.0647481
3712000000 0.0125153 0.0653001 0.9874847 -0.0653001 0.9874847 -0.0653001 0.0125153 0.0653001
3733000000 0.0124763 0.0658635 0.9875237 -0.0658635 0.9875237 -0.0658635 0.0124763 0.0658635
3754000000 0.0124456 0.0664369 0.9875544 -0.0664369 0.9875544 -0.0664369 0.0124456 0.0664369
3775000000 0.0124234 0.0670191 0.9875766 -0.0670191 0.9875766 -0.0670191 0.0124234 0.0670191
3796000000 0.0124099 0.0676088 0.9875901 -0.0676088 0.9875901 -0.0676088 0.0124099 0.0676088
3817000000 0.0124050 0.0682049 0.9875950 -0.0682049 0.9875950 -0.0682049 0.0124050 0.0682049
3838000000 0.0124086 0.0688066 0.9875914 -0.0688066 0.9875914 -0.0688066 0.0124086 0.0688066
3859000000 0.0124205 0.0694128 0.9875795 -0.0694128 0.9875795 -0.0694128 0.0124205 0.0694128
3880000000 0.0124407 0.0700230 0.9875593 -0.0700230 0.9875593 -0.0700230 0.0124407 0.0700230
3901000000 0.0124687 0.0706364 0.9875313 -0.0706364 0.9875313 -0.0706364 0.0124687 0.0706364
3922000000 0.0125043 0.0712525 0.9874957 -0.0712525 0.9874957 -0.0712525 0.0125043 0.0712525
3943000000 0.0125472 0.0718708 0.9874528 -0.0718708 0.9874528 -0.0718708 0.0125472 0.0718708
3964000000 0.0125972 0.0724908 0.9874028 -0.0724908 0.9874028 -0.0724908 0.0125972 0.0724908
3985000000 0.0126540 0.0731123 0.9873460 -0.0731123 0.9873460 -0.0731123 0.0126540 0.0731123
4006000000 0.0127172 0.0737349 0.9872828 -0.0737349 0.9872828 -0.0737349 0.0127172 0.0737349
4027000000 0.0127866 0.0743583 0.9872134 -0.0743583 0.9872134 -0.0743583 0.0127866 0.0743583
4048000000 0.0128620 0.0749823 0.9871380 -0.0749823 0.9871380 -0.0749823 0.0128620 0.0749823
4069000000 0.0129431 0.0756068 0.9870569 -0.0756068 0.9870569 -0.0756068 0.0129431 0.0756068
4090000000 0.0130297 0.0762316 0.9869703 -0.0762316 0.9869703 -0.0762316 0.0130297 0.0762316
4111000000 0.0131216 0.0768566 0.9868784 -0.0768566 0.9868784 -0.0768566 0.0131216 0.0768566
4132000000 0.0132186 0.0774816 0.9867814 -0.0774816 0.9867814 -0.0774816 0.0132186 0.0774816
4153000000 0.0133206 0.0781067 0.9866794 -0.0781067 0.9866794 -0.0781067 0.0133206 0.0781067
4174000000 0.0134273 0.0787316 0.9865727 -0.0787316 0.9865727 -0.0787316 0.0134273 0.0787316
4195000000 0.0135385 0.0793564 0.9864615 -0.0793564 0.9864615 -0.0793564 0.0135385 0.0793564
4216000000 0.0136543 0.0799810 0.9863457 -0.0799810 0.9863457 -0.0799810 0.0136543 0.0799810
4237000000 0.0137744 0.0806054 0.9862256 -0.0806054 0.9862256 -0.0806054 0.0137744 0.0806054
4258000000 0.0138988 0.0812295 0.9861012 -0.0812295 0.9861012 -0.0812295 0.0138988 0.0812295
4279000000 0.0140273 0.0818534 0.9859727 -0.0818534 0.9859727 -0.0818534 0.0140273 0.0818534
4300000000 0.0141599 0.0824770 0.9858401 -0.0824770 0.9858401 -0.0824770 0.0141599 0.0824770
4321000000 0.0142964 0.0831003 0.9857036 -0.0831003 0.9857036 -0.0831003 0.0142964 0.0831003
4342000000 0.0144368 0.0837232 0.9855632 -0.0837232 0.9855632 -0.0837232 0.0144368 0.0837232
4363000000 0.0145811 0.0843459 0.9854189 -0.0843459 0.9854189 -0.0843459 0.0145811 0.0843459
4384000000 0.0147292 0.0849682 0.9852708 -0.0849682 0.9852708 -0.0849682 0.0147292 0.0849682
4405000000 0.0148810 0.0855902 0.9851190 -0.0855902 0.9851190 -0.0855902 0.0148810 0.0855902
4426000000 0.0150366 0.0862119 0.9849634 -0.0862119 0.9849634 -0.0862119 0.0150366 0.0862119
4447000000 0.0151958 0.0868333 0.9848042 -0.0868333 0.9848042 -0.0868333 0.0151958 0.0868333
4468000000 0.0153588 0.0874543 0.9846412 -0.0874543 0.9846412 -0.0874543 0.0153588 0.0874543
4489000000 0.0155253 0.0880750 0.9844747 -0.0880750 0.9844747 -0.0880750 0.0155253 0.0880750
4510000000 0.0156955 0.0886954 0.9843045 -0.0886954 0.9843045 -0.0886954 0.0156955 0.0886954
