!Murata Part Number: GRM31B5C2J222JWA1
!These Parameters are Measured in Series Mode Connection
!Data Generated on Mar 30, 2021
!       o--ll--o
!Port1            Port2
!       o------o
!Operation Temp=25[degC], DC Bias Voltage=0[V]
!Freq. Start=1000[kHz] Stop=1000[MHz] 401[Steps]
# Hz S RI R 50
!Freq.(Hz) S11(Real) S11(Imag) S21(Real) S21(Imag) S12(Real) S12(Imag) S22(Real) S22(Imag)
1000000 0.3636242 -0.4804389 0.6363758 0.4804389 0.6363758 0.4804389 0.3636242 -0.4804389
1017419 0.3556768 -0.4781231 0.6443232 0.4781231 0.6443232 0.4781231 0.3556768 -0.4781231
1035142 0.3478079 -0.4756882 0.6521921 0.4756882 0.6521921 0.4756882 0.3478079 -0.4756882
1053174 0.3400211 -0.4731376 0.6599789 0.4731376 0.6599789 0.4731376 0.3400211 -0.4731376
1071519 0.3323195 -0.4704746 0.6676805 0.4704746 0.6676805 0.4704746 0.3323195 -0.4704746
1090184 0.3247063 -0.4677026 0.6752937 0.4677026 0.6752937 0.4677026 0.3247063 -0.4677026
1109175 0.3171845 -0.4648252 0.6828155 0.4648252 0.6828155 0.4648252 0.3171845 -0.4648252
1128496 0.3097568 -0.4618460 0.6902432 0.4618460 0.6902432 0.4618460 0.3097568 -0.4618460
1148154 0.3024258 -0.4587687 0.6975742 0.4587687 0.6975742 0.4587687 0.3024258 -0.4587687
1168154 0.2951939 -0.4555971 0.7048061 0.4555971 0.7048061 0.4555971 0.2951939 -0.4555971
1188502 0.2880634 -0.4523351 0.7119366 0.4523351 0.7119366 0.4523351 0.2880634 -0.4523351
1209205 0.2810363 -0.4489863 0.7189637 0.4489863 0.7189637 0.4489863 0.2810363 -0.4489863
1230269 0.2741145 -0.4455548 0.7258855 0.4455548 0.7258855 0.4455548 0.2741145 -0.4455548
1251699 0.2672996 -0.4420444 0.7327004 0.4420444 0.7327004 0.4420444 0.2672996 -0.4420444
1273503 0.2605932 -0.4384591 0.7394068 0.4384591 0.7394068 0.4384591 0.2605932 -0.4384591
1295687 0.2539966 -0.4348027 0.7460034 0.4348027 0.7460034 0.4348027 0.2539966 -0.4348027
1318257 0.2475109 -0.4310792 0.7524891 0.4310792 0.7524891 0.4310792 0.2475109 -0.4310792
1341220 0.2411372 -0.4272925 0.7588628 0.4272925 0.7588628 0.4272925 0.2411372 -0.4272925
1364583 0.2348763 -0.4234464 0.7651237 0.4234464 0.7651237 0.4234464 0.2348763 -0.4234464
1388353 0.2287288 -0.4195448 0.7712712 0.4195448 0.7712712 0.4195448 0.2287288 -0.4195448
1412538 0.2226953 -0.4155915 0.7773047 0.4155915 0.7773047 0.4155915 0.2226953 -0.4155915
1437143 0.2167761 -0.4115903 0.7832239 0.4115903 0.7832239 0.4115903 0.2167761 -0.4115903
1462177 0.2109714 -0.4075449 0.7890286 0.4075449 0.7890286 0.4075449 0.2109714 -0.4075449
1487647 0.2052814 -0.4034590 0.7947186 0.4034590 0.7947186 0.4034590 0.2052814 -0.4034590
1513561 0.1997059 -0.3993361 0.8002941 0.3993361 0.8002941 0.3993361 0.1997059 -0.3993361
1539927 0.1942447 -0.3951799 0.8057553 0.3951799 0.8057553 0.3951799 0.1942447 -0.3951799
1566751 0.1888975 -0.3909937 0.8111025 0.3909937 0.8111025 0.3909937 0.1888975 -0.3909937
1594043 0.1836639 -0.3867809 0.8163361 0.3867809 0.8163361 0.3867809 0.1836639 -0.3867809
1621810 0.1785433 -0.3825450 0.8214567 0.3825450 0.8214567 0.3825450 0.1785433 -0.3825450
1650061 0.1735351 -0.3782891 0.8264649 0.3782891 0.8264649 0.3782891 0.1735351 -0.3782891
1678804 0.1686384 -0.3740163 0.8313616 0.3740163 0.8313616 0.3740163 0.1686384 -0.3740163
1708048 0.1638524 -0.3697298 0.8361476 0.3697298 0.8361476 0.3697298 0.1638524 -0.3697298
1737801 0.1591762 -0.3654325 0.8408238 0.3654325 0.8408238 0.3654325 0.1591762 -0.3654325
1768072 0.1546088 -0.3611273 0.8453912 0.3611273 0.8453912 0.3611273 0.1546088 -0.3611273
1798871 0.1501489 -0.3568170 0.8498511 0.3568170 0.8498511 0.3568170 0.1501489 -0.3568170
1830206 0.1457954 -0.3525043 0.8542046 0.3525043 0.8542046 0.3525043 0.1457954 -0.3525043
1862087 0.1415471 -0.3481918 0.8584529 0.3481918 0.8584529 0.3481918 0.1415471 -0.3481918
1894524 0.1374026 -0.3438821 0.8625974 0.3438821 0.8625974 0.3438821 0.1374026 -0.3438821
1927525 0.1333606 -0.3395774 0.8666394 0.3395774 0.8666394 0.3395774 0.1333606 -0.3395774
1961101 0.1294196 -0.3352803 0.8705804 0.3352803 0.8705804 0.3352803 0.1294196 -0.3352803
1995262 0.1255781 -0.3309928 0.8744219 0.3309928 0.8744219 0.3309928 0.1255781 -0.3309928
2030019 0.1218347 -0.3267172 0.8781653 0.3267172 0.8781653 0.3267172 0.1218347 -0.3267172
2065380 0.1181877 -0.3224555 0.8818123 0.3224555 0.8818123 0.3224555 0.1181877 -0.3224555
2101358 0.1146356 -0.3182096 0.8853644 0.3182096 0.8853644 0.3182096 0.1146356 -0.3182096
2137962 0.1111768 -0.3139814 0.8888232 0.3139814 0.8888232 0.3139814 0.1111768 -0.3139814
2175204 0.1078096 -0.3097726 0.8921904 0.3097726 0.8921904 0.3097726 0.1078096 -0.3097726
2213095 0.1045323 -0.3055850 0.8954677 0.3055850 0.8954677 0.3055850 0.1045323 -0.3055850
2251645 0.1013434 -0.3014202 0.8986566 0.3014202 0.8986566 0.3014202 0.1013434 -0.3014202
2290868 0.0982410 -0.2972796 0.9017590 0.2972796 0.9017590 0.2972796 0.0982410 -0.2972796
2330773 0.0952234 -0.2931648 0.9047766 0.2931648 0.9047766 0.2931648 0.0952234 -0.2931648
2371374 0.0922891 -0.2890770 0.9077109 0.2890770 0.9077109 0.2890770 0.0922891 -0.2890770
2412682 0.0894362 -0.2850175 0.9105638 0.2850175 0.9105638 0.2850175 0.0894362 -0.2850175
2454709 0.0866631 -0.2809874 0.9133369 0.2809874 0.9133369 0.2809874 0.0866631 -0.2809874
2497468 0.0839680 -0.2769881 0.9160320 0.2769881 0.9160320 0.2769881 0.0839680 -0.2769881
2540973 0.0813492 -0.2730203 0.9186508 0.2730203 0.9186508 0.2730203 0.0813492 -0.2730203
2585235 0.0788050 -0.2690853 0.9211950 0.2690853 0.9211950 0.2690853 0.0788050 -0.2690853
2630268 0.0763338 -0.2651837 0.9236662 0.2651837 0.9236662 0.2651837 0.0763338 -0.2651837
2676086 0.0739338 -0.2613165 0.9260662 0.2613165 0.9260662 0.2613165 0.0739338 -0.2613165
2722701 0.0716034 -0.2574845 0.9283966 0.2574845 0.9283966 0.2574845 0.0716034 -0.2574845
2770129 0.0693410 -0.2536884 0.9306590 0.2536884 0.9306590 0.2536884 0.0693410 -0.2536884
2818383 0.0671448 -0.2499287 0.9328552 0.2499287 0.9328552 0.2499287 0.0671448 -0.2499287
2867477 0.0650133 -0.2462061 0.9349867 0.2462061 0.9349867 0.2462061 0.0650133 -0.2462061
2917427 0.0629449 -0.2425212 0.9370551 0.2425212 0.9370551 0.2425212 0.0629449 -0.2425212
2968247 0.0609380 -0.2388744 0.9390620 0.2388744 0.9390620 0.2388744 0.0609380 -0.2388744
3019952 0.0589911 -0.2352661 0.9410089 0.2352661 0.9410089 0.2352661 0.0589911 -0.2352661
3072557 0.0571025 -0.2316968 0.9428975 0.2316968 0.9428975 0.2316968 0.0571025 -0.2316968
3126079 0.0552708 -0.2281667 0.9447292 0.2281667 0.9447292 0.2281667 0.0552708 -0.2281667
3180534 0.0534946 -0.2246761 0.9465054 0.2246761 0.9465054 0.2246761 0.0534946 -0.2246761
3235937 0.0517723 -0.2212254 0.9482277 0.2212254 0.9482277 0.2212254 0.0517723 -0.2212254
3292305 0.0501025 -0.2178146 0.9498975 0.2178146 0.9498975 0.2178146 0.0501025 -0.2178146
3349654 0.0484838 -0.2144440 0.9515162 0.2144440 0.9515162 0.2144440 0.0484838 -0.2144440
3408003 0.0469147 -0.2111137 0.9530853 0.2111137 0.9530853 0.2111137 0.0469147 -0.2111137
3467369 0.0453941 -0.2078238 0.9546059 0.2078238 0.9546059 0.2078238 0.0453941 -0.2078238
3527768 0.0439204 -0.2045743 0.9560796 0.2045743 0.9560796 0.2045743 0.0439204 -0.2045743
3589219 0.0424924 -0.2013652 0.9575076 0.2013652 0.9575076 0.2013652 0.0424924 -0.2013652
3651741 0.0411089 -0.1981966 0.9588911 0.1981966 0.9588911 0.1981966 0.0411089 -0.1981966
3715352 0.0397685 -0.1950684 0.9602315 0.1950684 0.9602315 0.1950684 0.0397685 -0.1950684
3780071 0.0384700 -0.1919806 0.9615300 0.1919806 0.9615300 0.1919806 0.0384700 -0.1919806
3845918 0.0372124 -0.1889330 0.9627876 0.1889330 0.9627876 0.1889330 0.0372124 -0.1889330
3912911 0.0359942 -0.1859256 0.9640058 0.1859256 0.9640058 0.1859256 0.0359942 -0.1859256
3981072 0.0348145 -0.1829582 0.9651855 0.1829582 0.9651855 0.1829582 0.0348145 -0.1829582
4050419 0.0336721 -0.1800306 0.9663279 0.1800306 0.9663279 0.1800306 0.0336721 -0.1800306
4120975 0.0325659 -0.1771427 0.9674341 0.1771427 0.9674341 0.1771427 0.0325659 -0.1771427
4192760 0.0314949 -0.1742942 0.9685051 0.1742942 0.9685051 0.1742942 0.0314949 -0.1742942
4265795 0.0304580 -0.1714850 0.9695420 0.1714850 0.9695420 0.1714850 0.0304580 -0.1714850
4340103 0.0294542 -0.1687149 0.9705458 0.1687149 0.9705458 0.1687149 0.0294542 -0.1687149
4415704 0.0284824 -0.1659835 0.9715176 0.1659835 0.9715176 0.1659835 0.0284824 -0.1659835
4492623 0.0275419 -0.1632906 0.9724581 0.1632906 0.9724581 0.1632906 0.0275419 -0.1632906
4570882 0.0266315 -0.1606359 0.9733685 0.1606359 0.9733685 0.1606359 0.0266315 -0.1606359
4650504 0.0257504 -0.1580192 0.9742496 0.1580192 0.9742496 0.1580192 0.0257504 -0.1580192
4731513 0.0248978 -0.1554400 0.9751022 0.1554400 0.9751022 0.1554400 0.0248978 -0.1554400
4813933 0.0240726 -0.1528983 0.9759274 0.1528983 0.9759274 0.1528983 0.0240726 -0.1528983
4897788 0.0232742 -0.1503935 0.9767258 0.1503935 0.9767258 0.1503935 0.0232742 -0.1503935
4983105 0.0225016 -0.1479253 0.9774984 0.1479253 0.9774984 0.1479253 0.0225016 -0.1479253
5069907 0.0217541 -0.1454935 0.9782459 0.1454935 0.9782459 0.1454935 0.0217541 -0.1454935
5158222 0.0210309 -0.1430977 0.9789691 0.1430977 0.9789691 0.1430977 0.0210309 -0.1430977
5248075 0.0203313 -0.1407375 0.9796687 0.1407375 0.9796687 0.1407375 0.0203313 -0.1407375
5339493 0.0196544 -0.1384125 0.9803456 0.1384125 0.9803456 0.1384125 0.0196544 -0.1384125
5432503 0.0189997 -0.1361225 0.9810003 0.1361225 0.9810003 0.1361225 0.0189997 -0.1361225
5527134 0.0183664 -0.1338669 0.9816336 0.1338669 0.9816336 0.1338669 0.0183664 -0.1338669
5623413 0.0177538 -0.1316455 0.9822462 0.1316455 0.9822462 0.1316455 0.0177538 -0.1316455
5721370 0.0171612 -0.1294579 0.9828388 0.1294579 0.9828388 0.1294579 0.0171612 -0.1294579
5821032 0.0165882 -0.1273036 0.9834118 0.1273036 0.9834118 0.1273036 0.0165882 -0.1273036
5922431 0.0160339 -0.1251823 0.9839661 0.1251823 0.9839661 0.1251823 0.0160339 -0.1251823
6025596 0.0154979 -0.1230936 0.9845021 0.1230936 0.9845021 0.1230936 0.0154979 -0.1230936
6130558 0.0149796 -0.1210371 0.9850204 0.1210371 0.9850204 0.1210371 0.0149796 -0.1210371
6237348 0.0144784 -0.1190125 0.9855216 0.1190125 0.9855216 0.1190125 0.0144784 -0.1190125
6345999 0.0139937 -0.1170192 0.9860063 0.1170192 0.9860063 0.1170192 0.0139937 -0.1170192
6456542 0.0135250 -0.1150570 0.9864750 0.1150570 0.9864750 0.1150570 0.0135250 -0.1150570
6569011 0.0130718 -0.1131254 0.9869282 0.1131254 0.9869282 0.1131254 0.0130718 -0.1131254
6683439 0.0126336 -0.1112241 0.9873664 0.1112241 0.9873664 0.1112241 0.0126336 -0.1112241
6799860 0.0122100 -0.1093526 0.9877900 0.1093526 0.9877900 0.1093526 0.0122100 -0.1093526
6918310 0.0118004 -0.1075106 0.9881996 0.1075106 0.9881996 0.1075106 0.0118004 -0.1075106
7038822 0.0114044 -0.1056976 0.9885956 0.1056976 0.9885956 0.1056976 0.0114044 -0.1056976
7161434 0.0110216 -0.1039133 0.9889784 0.1039133 0.9889784 0.1039133 0.0110216 -0.1039133
7286182 0.0106515 -0.1021572 0.9893485 0.1021572 0.9893485 0.1021572 0.0106515 -0.1021572
7413102 0.0102937 -0.1004290 0.9897063 0.1004290 0.9897063 0.1004290 0.0102937 -0.1004290
7542234 0.0099478 -0.0987284 0.9900522 0.0987284 0.9900522 0.0987284 0.0099478 -0.0987284
7673615 0.0096135 -0.0970548 0.9903865 0.0970548 0.9903865 0.0970548 0.0096135 -0.0970548
7807284 0.0092904 -0.0954080 0.9907096 0.0954080 0.9907096 0.0954080 0.0092904 -0.0954080
7943282 0.0089780 -0.0937875 0.9910220 0.0937875 0.9910220 0.0937875 0.0089780 -0.0937875
8081649 0.0086761 -0.0921930 0.9913239 0.0921930 0.9913239 0.0921930 0.0086761 -0.0921930
8222426 0.0083843 -0.0906241 0.9916157 0.0906241 0.9916157 0.0906241 0.0083843 -0.0906241
8365656 0.0081022 -0.0890804 0.9918978 0.0890804 0.9918978 0.0890804 0.0081022 -0.0890804
8511380 0.0078296 -0.0875616 0.9921704 0.0875616 0.9921704 0.0875616 0.0078296 -0.0875616
8659643 0.0075662 -0.0860672 0.9924338 0.0860672 0.9924338 0.0860672 0.0075662 -0.0860672
8810489 0.0073115 -0.0845970 0.9926885 0.0845970 0.9926885 0.0845970 0.0073115 -0.0845970
8963962 0.0070655 -0.0831505 0.9929345 0.0831505 0.9929345 0.0831505 0.0070655 -0.0831505
9120108 0.0068277 -0.0817275 0.9931723 0.0817275 0.9931723 0.0817275 0.0068277 -0.0817275
9278975 0.0065979 -0.0803274 0.9934021 0.0803274 0.9934021 0.0803274 0.0065979 -0.0803274
9440609 0.0063758 -0.0789501 0.9936242 0.0789501 0.9936242 0.0789501 0.0063758 -0.0789501
9605058 0.0061612 -0.0775951 0.9938388 0.0775951 0.9938388 0.0775951 0.0061612 -0.0775951
9772372 0.0059538 -0.0762622 0.9940462 0.0762622 0.9940462 0.0762622 0.0059538 -0.0762622
9942601 0.0057535 -0.0749509 0.9942465 0.0749509 0.9942465 0.0749509 0.0057535 -0.0749509
10115795 0.0055598 -0.0736609 0.9944402 0.0736609 0.9944402 0.0736609 0.0055598 -0.0736609
10292005 0.0053728 -0.0723919 0.9946272 0.0723919 0.9946272 0.0723919 0.0053728 -0.0723919
10471285 0.0051920 -0.0711436 0.9948080 0.0711436 0.9948080 0.0711436 0.0051920 -0.0711436
10653689 0.0050174 -0.0699156 0.9949826 0.0699156 0.9949826 0.0699156 0.0050174 -0.0699156
10839269 0.0048487 -0.0687077 0.9951513 0.0687077 0.9951513 0.0687077 0.0048487 -0.0687077
11028082 0.0046857 -0.0675195 0.9953143 0.0675195 0.9953143 0.0675195 0.0046857 -0.0675195
11220185 0.0045282 -0.0663506 0.9954718 0.0663506 0.9954718 0.0663506 0.0045282 -0.0663506
11415633 0.0043761 -0.0652008 0.9956239 0.0652008 0.9956239 0.0652008 0.0043761 -0.0652008
11614486 0.0042291 -0.0640698 0.9957709 0.0640698 0.9957709 0.0640698 0.0042291 -0.0640698
11816803 0.0040871 -0.0629573 0.9959129 0.0629573 0.9959129 0.0629573 0.0040871 -0.0629573
12022644 0.0039500 -0.0618630 0.9960500 0.0618630 0.9960500 0.0618630 0.0039500 -0.0618630
12232071 0.0038175 -0.0607865 0.9961825 0.0607865 0.9961825 0.0607865 0.0038175 -0.0607865
12445146 0.0036895 -0.0597276 0.9963105 0.0597276 0.9963105 0.0597276 0.0036895 -0.0597276
12661933 0.0035659 -0.0586860 0.9964341 0.0586860 0.9964341 0.0586860 0.0035659 -0.0586860
12882496 0.0034465 -0.0576614 0.9965535 0.0576614 0.9965535 0.0576614 0.0034465 -0.0576614
13106900 0.0033312 -0.0566536 0.9966688 0.0566536 0.9966688 0.0566536 0.0033312 -0.0566536
13335214 0.0032199 -0.0556622 0.9967801 0.0556622 0.9967801 0.0556622 0.0032199 -0.0556622
13567505 0.0031123 -0.0546870 0.9968877 0.0546870 0.9968877 0.0546870 0.0031123 -0.0546870
13803843 0.0030085 -0.0537278 0.9969915 0.0537278 0.9969915 0.0537278 0.0030085 -0.0537278
14044297 0.0029082 -0.0527842 0.9970918 0.0527842 0.9970918 0.0527842 0.0029082 -0.0527842
14288940 0.0028114 -0.0518559 0.9971886 0.0518559 0.9971886 0.0518559 0.0028114 -0.0518559
14537844 0.0027178 -0.0509429 0.9972822 0.0509429 0.9972822 0.0509429 0.0027178 -0.0509429
14791084 0.0026276 -0.0500447 0.9973724 0.0500447 0.9973724 0.0500447 0.0026276 -0.0500447
15048735 0.0025404 -0.0491611 0.9974596 0.0491611 0.9974596 0.0491611 0.0025404 -0.0491611
15310875 0.0024562 -0.0482919 0.9975438 0.0482919 0.9975438 0.0482919 0.0024562 -0.0482919
15577580 0.0023750 -0.0474369 0.9976250 0.0474369 0.9976250 0.0474369 0.0023750 -0.0474369
15848932 0.0022965 -0.0465958 0.9977035 0.0465958 0.9977035 0.0465958 0.0022965 -0.0465958
16125010 0.0022208 -0.0457683 0.9977792 0.0457683 0.9977792 0.0457683 0.0022208 -0.0457683
16405898 0.0021477 -0.0449543 0.9978523 0.0449543 0.9978523 0.0449543 0.0021477 -0.0449543
16691678 0.0020772 -0.0441534 0.9979228 0.0441534 0.9979228 0.0441534 0.0020772 -0.0441534
16982437 0.0020091 -0.0433656 0.9979909 0.0433656 0.9979909 0.0433656 0.0020091 -0.0433656
17278260 0.0019434 -0.0425905 0.9980566 0.0425905 0.9980566 0.0425905 0.0019434 -0.0425905
17579236 0.0018800 -0.0418279 0.9981200 0.0418279 0.9981200 0.0418279 0.0018800 -0.0418279
17885455 0.0018188 -0.0410777 0.9981812 0.0410777 0.9981812 0.0410777 0.0018188 -0.0410777
18197009 0.0017598 -0.0403396 0.9982402 0.0403396 0.9982402 0.0403396 0.0017598 -0.0403396
18513989 0.0017029 -0.0396133 0.9982971 0.0396133 0.9982971 0.0396133 0.0017029 -0.0396133
18836491 0.0016479 -0.0388988 0.9983521 0.0388988 0.9983521 0.0388988 0.0016479 -0.0388988
19164611 0.0015949 -0.0381957 0.9984051 0.0381957 0.9984051 0.0381957 0.0015949 -0.0381957
19498446 0.0015438 -0.0375040 0.9984562 0.0375040 0.9984562 0.0375040 0.0015438 -0.0375040
19838097 0.0014945 -0.0368233 0.9985055 0.0368233 0.9985055 0.0368233 0.0014945 -0.0368233
20183664 0.0014470 -0.0361535 0.9985530 0.0361535 0.9985530 0.0361535 0.0014470 -0.0361535
20535250 0.0014011 -0.0354944 0.9985989 0.0354944 0.9985989 0.0354944 0.0014011 -0.0354944
20892961 0.0013569 -0.0348458 0.9986431 0.0348458 0.9986431 0.0348458 0.0013569 -0.0348458
21256903 0.0013143 -0.0342076 0.9986857 0.0342076 0.9986857 0.0342076 0.0013143 -0.0342076
21627185 0.0012732 -0.0335795 0.9987268 0.0335795 0.9987268 0.0335795 0.0012732 -0.0335795
22003917 0.0012336 -0.0329613 0.9987664 0.0329613 0.9987664 0.0329613 0.0012336 -0.0329613
22387211 0.0011955 -0.0323530 0.9988045 0.0323530 0.9988045 0.0323530 0.0011955 -0.0323530
22777182 0.0011587 -0.0317542 0.9988413 0.0317542 0.9988413 0.0317542 0.0011587 -0.0317542
23173946 0.0011233 -0.0311649 0.9988767 0.0311649 0.9988767 0.0311649 0.0011233 -0.0311649
23577622 0.0010891 -0.0305848 0.9989109 0.0305848 0.9989109 0.0305848 0.0010891 -0.0305848
23988329 0.0010562 -0.0300138 0.9989438 0.0300138 0.9989438 0.0300138 0.0010562 -0.0300138
24406191 0.0010246 -0.0294518 0.9989754 0.0294518 0.9989754 0.0294518 0.0010246 -0.0294518
24831331 0.0009941 -0.0288985 0.9990059 0.0288985 0.9990059 0.0288985 0.0009941 -0.0288985
25263877 0.0009647 -0.0283539 0.9990353 0.0283539 0.9990353 0.0283539 0.0009647 -0.0283539
25703958 0.0009365 -0.0278177 0.9990635 0.0278177 0.9990635 0.0278177 0.0009365 -0.0278177
26151704 0.0009092 -0.0272898 0.9990908 0.0272898 0.9990908 0.0272898 0.0009092 -0.0272898
26607251 0.0008831 -0.0267700 0.9991169 0.0267700 0.9991169 0.0267700 0.0008831 -0.0267700
27070732 0.0008579 -0.0262582 0.9991421 0.0262582 0.9991421 0.0262582 0.0008579 -0.0262582
27542287 0.0008336 -0.0257543 0.9991664 0.0257543 0.9991664 0.0257543 0.0008336 -0.0257543
28022056 0.0008103 -0.0252580 0.9991897 0.0252580 0.9991897 0.0252580 0.0008103 -0.0252580
28510183 0.0007879 -0.0247693 0.9992121 0.0247693 0.9992121 0.0247693 0.0007879 -0.0247693
29006812 0.0007664 -0.0242880 0.9992336 0.0242880 0.9992336 0.0242880 0.0007664 -0.0242880
29512092 0.0007456 -0.0238140 0.9992544 0.0238140 0.9992544 0.0238140 0.0007456 -0.0238140
30026174 0.0007257 -0.0233471 0.9992743 0.0233471 0.9992743 0.0233471 0.0007257 -0.0233471
30549211 0.0007066 -0.0228872 0.9992934 0.0228872 0.9992934 0.0228872 0.0007066 -0.0228872
31081359 0.0006882 -0.0224341 0.9993118 0.0224341 0.9993118 0.0224341 0.0006882 -0.0224341
31622777 0.0006706 -0.0219878 0.9993294 0.0219878 0.9993294 0.0219878 0.0006706 -0.0219878
32173625 0.0006536 -0.0215480 0.9993464 0.0215480 0.9993464 0.0215480 0.0006536 -0.0215480
32734069 0.0006374 -0.0211148 0.9993626 0.0211148 0.9993626 0.0211148 0.0006374 -0.0211148
33304276 0.0006218 -0.0206878 0.9993782 0.0206878 0.9993782 0.0206878 0.0006218 -0.0206878
33884416 0.0006068 -0.0202671 0.9993932 0.0202671 0.9993932 0.0202671 0.0006068 -0.0202671
34474661 0.0005924 -0.0198524 0.9994076 0.0198524 0.9994076 0.0198524 0.0005924 -0.0198524
35075187 0.0005786 -0.0194437 0.9994214 0.0194437 0.9994214 0.0194437 0.0005786 -0.0194437
35686175 0.0005655 -0.0190409 0.9994345 0.0190409 0.9994345 0.0190409 0.0005655 -0.0190409
36307805 0.0005528 -0.0186437 0.9994472 0.0186437 0.9994472 0.0186437 0.0005528 -0.0186437
36940264 0.0005407 -0.0182522 0.9994593 0.0182522 0.9994593 0.0182522 0.0005407 -0.0182522
37583740 0.0005291 -0.0178662 0.9994709 0.0178662 0.9994709 0.0178662 0.0005291 -0.0178662
38238425 0.0005180 -0.0174855 0.9994820 0.0174855 0.9994820 0.0174855 0.0005180 -0.0174855
38904514 0.0005074 -0.0171101 0.9994926 0.0171101 0.9994926 0.0171101 0.0005074 -0.0171101
39582206 0.0004972 -0.0167398 0.9995028 0.0167398 0.9995028 0.0167398 0.0004972 -0.0167398
40271703 0.0004875 -0.0163746 0.9995125 0.0163746 0.9995125 0.0163746 0.0004875 -0.0163746
40973211 0.0004783 -0.0160143 0.9995217 0.0160143 0.9995217 0.0160143 0.0004783 -0.0160143
