!Murata Part Number: GRM31A7U3A221JW31
!These Parameters are Measured in Series Mode Connection
!Data Generated on Mar 30, 2021
!       o--ll--o
!Port1            Port2
!       o------o
!Operation Temp=25[degC], DC Bias Voltage=0[V]
!Freq. Start=100[MHz] Stop=3[GHz] 401[Steps]
# Hz S RI R 50
!Freq.(Hz) S11(Real) S11(Imag) S21(Real) S21(Imag) S12(Real) S12(Imag) S22(Real) S22(Imag)
100000000 0.0054153 -0.0668980 0.9945847 0.0668980 0.9945847 0.0668980 0.0054153 -0.0668980
107250000 0.0047453 -0.0617176 0.9952547 0.0617176 0.9952547 0.0617176 0.0047453 -0.0617176
114500000 0.0041994 -0.0571391 0.9958006 0.0571391 0.9958006 0.0571391 0.0041994 -0.0571391
121750000 0.0037492 -0.0530567 0.9962508 0.0530567 0.9962508 0.0530567 0.0037492 -0.0530567
129000000 0.0033740 -0.0493877 0.9966260 0.0493877 0.9966260 0.0493877 0.0033740 -0.0493877
136250000 0.0030585 -0.0460671 0.9969415 0.0460671 0.9969415 0.0460671 0.0030585 -0.0460671
143500000 0.0027911 -0.0430424 0.9972089 0.0430424 0.9972089 0.0430424 0.0027911 -0.0430424
150750000 0.0025628 -0.0402715 0.9974372 0.0402715 0.9974372 0.0402715 0.0025628 -0.0402715
158000000 0.0023668 -0.0377196 0.9976332 0.0377196 0.9976332 0.0377196 0.0023668 -0.0377196
165250000 0.0021976 -0.0353582 0.9978024 0.0353582 0.9978024 0.0353582 0.0021976 -0.0353582
172500000 0.0020509 -0.0331633 0.9979491 0.0331633 0.9979491 0.0331633 0.0020509 -0.0331633
179750000 0.0019232 -0.0311149 0.9980768 0.0311149 0.9980768 0.0311149 0.0019232 -0.0311149
187000000 0.0018117 -0.0291960 0.9981883 0.0291960 0.9981883 0.0291960 0.0018117 -0.0291960
194250000 0.0017142 -0.0273922 0.9982858 0.0273922 0.9982858 0.0273922 0.0017142 -0.0273922
201500000 0.0016287 -0.0256911 0.9983713 0.0256911 0.9983713 0.0256911 0.0016287 -0.0256911
208750000 0.0015537 -0.0240819 0.9984463 0.0240819 0.9984463 0.0240819 0.0015537 -0.0240819
216000000 0.0014878 -0.0225555 0.9985122 0.0225555 0.9985122 0.0225555 0.0014878 -0.0225555
223250000 0.0014299 -0.0211037 0.9985701 0.0211037 0.9985701 0.0211037 0.0014299 -0.0211037
230500000 0.0013792 -0.0197195 0.9986208 0.0197195 0.9986208 0.0197195 0.0013792 -0.0197195
237750000 0.0013348 -0.0183967 0.9986652 0.0183967 0.9986652 0.0183967 0.0013348 -0.0183967
245000000 0.0012961 -0.0171298 0.9987039 0.0171298 0.9987039 0.0171298 0.0012961 -0.0171298
252250000 0.0012624 -0.0159139 0.9987376 0.0159139 0.9987376 0.0159139 0.0012624 -0.0159139
259500000 0.0012334 -0.0147448 0.9987666 0.0147448 0.9987666 0.0147448 0.0012334 -0.0147448
266750000 0.0012085 -0.0136186 0.9987915 0.0136186 0.9987915 0.0136186 0.0012085 -0.0136186
274000000 0.0011874 -0.0125318 0.9988126 0.0125318 0.9988126 0.0125318 0.0011874 -0.0125318
281250000 0.0011697 -0.0114814 0.9988303 0.0114814 0.9988303 0.0114814 0.0011697 -0.0114814
288500000 0.0011552 -0.0104646 0.9988448 0.0104646 0.9988448 0.0104646 0.0011552 -0.0104646
295750000 0.0011437 -0.0094788 0.9988563 0.0094788 0.9988563 0.0094788 0.0011437 -0.0094788
303000000 0.0011349 -0.0085218 0.9988651 0.0085218 0.9988651 0.0085218 0.0011349 -0.0085218
310250000 0.0011285 -0.0075916 0.9988715 0.0075916 0.9988715 0.0075916 0.0011285 -0.0075916
317500000 0.0011246 -0.0066862 0.9988754 0.0066862 0.9988754 0.0066862 0.0011246 -0.0066862
324750000 0.0011229 -0.0058039 0.9988771 0.0058039 0.9988771 0.0058039 0.0011229 -0.0058039
332000000 0.0011232 -0.0049431 0.9988768 0.0049431 0.9988768 0.0049431 0.0011232 -0.0049431
339250000 0.0011255 -0.0041025 0.9988745 0.0041025 0.9988745 0.0041025 0.0011255 -0.0041025
346500000 0.0011297 -0.0032807 0.9988703 0.0032807 0.9988703 0.0032807 0.0011297 -0.0032807
353750000 0.0011357 -0.0024765 0.9988643 0.0024765 0.9988643 0.0024765 0.0011357 -0.0024765
361000000 0.0011433 -0.0016887 0.9988567 0.0016887 0.9988567 0.0016887 0.0011433 -0.0016887
368250000 0.0011526 -0.0009164 0.9988474 0.0009164 0.9988474 0.0009164 0.0011526 -0.0009164
375500000 0.0011635 -0.0001586 0.9988365 0.0001586 0.9988365 0.0001586 0.0011635 -0.0001586
382750000 0.0011759 0.0005856 0.9988241 -0.0005856 0.9988241 -0.0005856 0.0011759 0.0005856
390000000 0.0011897 0.0013170 0.9988103 -0.0013170 0.9988103 -0.0013170 0.0011897 0.0013170
397250000 0.0012050 0.0020364 0.9987950 -0.0020364 0.9987950 -0.0020364 0.0012050 0.0020364
404500000 0.0012217 0.0027445 0.9987783 -0.0027445 0.9987783 -0.0027445 0.0012217 0.0027445
411750000 0.0012397 0.0034419 0.9987603 -0.0034419 0.9987603 -0.0034419 0.0012397 0.0034419
419000000 0.0012592 0.0041293 0.9987408 -0.0041293 0.9987408 -0.0041293 0.0012592 0.0041293
426250000 0.0012799 0.0048073 0.9987201 -0.0048073 0.9987201 -0.0048073 0.0012799 0.0048073
433500000 0.0013019 0.0054764 0.9986981 -0.0054764 0.9986981 -0.0054764 0.0013019 0.0054764
440750000 0.0013253 0.0061371 0.9986747 -0.0061371 0.9986747 -0.0061371 0.0013253 0.0061371
448000000 0.0013499 0.0067899 0.9986501 -0.0067899 0.9986501 -0.0067899 0.0013499 0.0067899
455250000 0.0013759 0.0074352 0.9986241 -0.0074352 0.9986241 -0.0074352 0.0013759 0.0074352
462500000 0.0014031 0.0080735 0.9985969 -0.0080735 0.9985969 -0.0080735 0.0014031 0.0080735
469750000 0.0014317 0.0087052 0.9985683 -0.0087052 0.9985683 -0.0087052 0.0014317 0.0087052
477000000 0.0014616 0.0093307 0.9985384 -0.0093307 0.9985384 -0.0093307 0.0014616 0.0093307
484250000 0.0014928 0.0099503 0.9985072 -0.0099503 0.9985072 -0.0099503 0.0014928 0.0099503
491500000 0.0015253 0.0105644 0.9984747 -0.0105644 0.9984747 -0.0105644 0.0015253 0.0105644
498750000 0.0015592 0.0111733 0.9984408 -0.0111733 0.9984408 -0.0111733 0.0015592 0.0111733
506000000 0.0015945 0.0117773 0.9984055 -0.0117773 0.9984055 -0.0117773 0.0015945 0.0117773
513250000 0.0016312 0.0123768 0.9983688 -0.0123768 0.9983688 -0.0123768 0.0016312 0.0123768
520500000 0.0016693 0.0129719 0.9983307 -0.0129719 0.9983307 -0.0129719 0.0016693 0.0129719
527750000 0.0017089 0.0135631 0.9982911 -0.0135631 0.9982911 -0.0135631 0.0017089 0.0135631
535000000 0.0017500 0.0141505 0.9982500 -0.0141505 0.9982500 -0.0141505 0.0017500 0.0141505
542250000 0.0017927 0.0147344 0.9982073 -0.0147344 0.9982073 -0.0147344 0.0017927 0.0147344
549500000 0.0018370 0.0153150 0.9981630 -0.0153150 0.9981630 -0.0153150 0.0018370 0.0153150
556750000 0.0018829 0.0158927 0.9981171 -0.0158927 0.9981171 -0.0158927 0.0018829 0.0158927
564000000 0.0019306 0.0164676 0.9980694 -0.0164676 0.9980694 -0.0164676 0.0019306 0.0164676
571250000 0.0019801 0.0170399 0.9980199 -0.0170399 0.9980199 -0.0170399 0.0019801 0.0170399
578500000 0.0020314 0.0176099 0.9979686 -0.0176099 0.9979686 -0.0176099 0.0020314 0.0176099
585750000 0.0020846 0.0181778 0.9979154 -0.0181778 0.9979154 -0.0181778 0.0020846 0.0181778
593000000 0.0021398 0.0187437 0.9978602 -0.0187437 0.9978602 -0.0187437 0.0021398 0.0187437
600250000 0.0021972 0.0193080 0.9978028 -0.0193080 0.9978028 -0.0193080 0.0021972 0.0193080
607500000 0.0022567 0.0198707 0.9977433 -0.0198707 0.9977433 -0.0198707 0.0022567 0.0198707
614750000 0.0023185 0.0204321 0.9976815 -0.0204321 0.9976815 -0.0204321 0.0023185 0.0204321
622000000 0.0023828 0.0209924 0.9976172 -0.0209924 0.9976172 -0.0209924 0.0023828 0.0209924
629250000 0.0024497 0.0215517 0.9975503 -0.0215517 0.9975503 -0.0215517 0.0024497 0.0215517
636500000 0.0025192 0.0221103 0.9974808 -0.0221103 0.9974808 -0.0221103 0.0025192 0.0221103
643750000 0.0025916 0.0226683 0.9974084 -0.0226683 0.9974084 -0.0226683 0.0025916 0.0226683
651000000 0.0026670 0.0232259 0.9973330 -0.0232259 0.9973330 -0.0232259 0.0026670 0.0232259
658250000 0.0027456 0.0237833 0.9972544 -0.0237833 0.9972544 -0.0237833 0.0027456 0.0237833
665500000 0.0028276 0.0243406 0.9971724 -0.0243406 0.9971724 -0.0243406 0.0028276 0.0243406
672750000 0.0029132 0.0248980 0.9970868 -0.0248980 0.9970868 -0.0248980 0.0029132 0.0248980
680000000 0.0030026 0.0254558 0.9969974 -0.0254558 0.9969974 -0.0254558 0.0030026 0.0254558
687250000 0.0030962 0.0260139 0.9969038 -0.0260139 0.9969038 -0.0260139 0.0030962 0.0260139
694500000 0.0031942 0.0265727 0.9968058 -0.0265727 0.9968058 -0.0265727 0.0031942 0.0265727
701750000 0.0032970 0.0271323 0.9967030 -0.0271323 0.9967030 -0.0271323 0.0032970 0.0271323
709000000 0.0034048 0.0276927 0.9965952 -0.0276927 0.9965952 -0.0276927 0.0034048 0.0276927
716250000 0.0035181 0.0282542 0.9964819 -0.0282542 0.9964819 -0.0282542 0.0035181 0.0282542
723500000 0.0036372 0.0288169 0.9963628 -0.0288169 0.9963628 -0.0288169 0.0036372 0.0288169
730750000 0.0037627 0.0293808 0.9962373 -0.0293808 0.9962373 -0.0293808 0.0037627 0.0293808
738000000 0.0038950 0.0299461 0.9961050 -0.0299461 0.9961050 -0.0299461 0.0038950 0.0299461
745250000 0.0040348 0.0305129 0.9959652 -0.0305129 0.9959652 -0.0305129 0.0040348 0.0305129
752500000 0.0041826 0.0310811 0.9958174 -0.0310811 0.9958174 -0.0310811 0.0041826 0.0310811
759750000 0.0043391 0.0316508 0.9956609 -0.0316508 0.9956609 -0.0316508 0.0043391 0.0316508
767000000 0.0045051 0.0322219 0.9954949 -0.0322219 0.9954949 -0.0322219 0.0045051 0.0322219
774250000 0.0046815 0.0327945 0.9953185 -0.0327945 0.9953185 -0.0327945 0.0046815 0.0327945
781500000 0.0048690 0.0333682 0.9951310 -0.0333682 0.9951310 -0.0333682 0.0048690 0.0333682
788750000 0.0050688 0.0339430 0.9949312 -0.0339430 0.9949312 -0.0339430 0.0050688 0.0339430
796000000 0.0052820 0.0345184 0.9947180 -0.0345184 0.9947180 -0.0345184 0.0052820 0.0345184
803250000 0.0055097 0.0350939 0.9944903 -0.0350939 0.9944903 -0.0350939 0.0055097 0.0350939
810500000 0.0057533 0.0356691 0.9942467 -0.0356691 0.9942467 -0.0356691 0.0057533 0.0356691
817750000 0.0060142 0.0362430 0.9939858 -0.0362430 0.9939858 -0.0362430 0.0060142 0.0362430
825000000 0.0062940 0.0368148 0.9937060 -0.0368148 0.9937060 -0.0368148 0.0062940 0.0368148
832250000 0.0065943 0.0373830 0.9934057 -0.0373830 0.9934057 -0.0373830 0.0065943 0.0373830
839500000 0.0069168 0.0379461 0.9930832 -0.0379461 0.9930832 -0.0379461 0.0069168 0.0379461
846750000 0.0072634 0.0385021 0.9927366 -0.0385021 0.9927366 -0.0385021 0.0072634 0.0385021
854000000 0.0076358 0.0390484 0.9923642 -0.0390484 0.9923642 -0.0390484 0.0076358 0.0390484
861250000 0.0080358 0.0395821 0.9919642 -0.0395821 0.9919642 -0.0395821 0.0080358 0.0395821
868500000 0.0084651 0.0400995 0.9915349 -0.0400995 0.9915349 -0.0400995 0.0084651 0.0400995
875750000 0.0089250 0.0405963 0.9910750 -0.0405963 0.9910750 -0.0405963 0.0089250 0.0405963
883000000 0.0094166 0.0410671 0.9905834 -0.0410671 0.9905834 -0.0410671 0.0094166 0.0410671
890250000 0.0099399 0.0415061 0.9900601 -0.0415061 0.9900601 -0.0415061 0.0099399 0.0415061
897500000 0.0104945 0.0419062 0.9895055 -0.0419062 0.9895055 -0.0419062 0.0104945 0.0419062
904750000 0.0110783 0.0422597 0.9889217 -0.0422597 0.9889217 -0.0422597 0.0110783 0.0422597
912000000 0.0116877 0.0425584 0.9883123 -0.0425584 0.9883123 -0.0425584 0.0116877 0.0425584
919250000 0.0123170 0.0427934 0.9876830 -0.0427934 0.9876830 -0.0427934 0.0123170 0.0427934
926500000 0.0129580 0.0429564 0.9870420 -0.0429564 0.9870420 -0.0429564 0.0129580 0.0429564
933750000 0.0135995 0.0430395 0.9864005 -0.0430395 0.9864005 -0.0430395 0.0135995 0.0430395
941000000 0.0142277 0.0430370 0.9857723 -0.0430370 0.9857723 -0.0430370 0.0142277 0.0430370
948250000 0.0148261 0.0429460 0.9851739 -0.0429460 0.9851739 -0.0429460 0.0148261 0.0429460
955500000 0.0153759 0.0427674 0.9846241 -0.0427674 0.9846241 -0.0427674 0.0153759 0.0427674
962750000 0.0158580 0.0425072 0.9841420 -0.0425072 0.9841420 -0.0425072 0.0158580 0.0425072
970000000 0.0162536 0.0421769 0.9837464 -0.0421769 0.9837464 -0.0421769 0.0162536 0.0421769
977250000 0.0165469 0.0417932 0.9834531 -0.0417932 0.9834531 -0.0417932 0.0165469 0.0417932
984500000 0.0167265 0.0413774 0.9832735 -0.0413774 0.9832735 -0.0413774 0.0167265 0.0413774
991750000 0.0167870 0.0409535 0.9832130 -0.0409535 0.9832130 -0.0409535 0.0167870 0.0409535
999000000 0.0167298 0.0405464 0.9832702 -0.0405464 0.9832702 -0.0405464 0.0167298 0.0405464
1006250000 0.0165626 0.0401790 0.9834374 -0.0401790 0.9834374 -0.0401790 0.0165626 0.0401790
1013500000 0.0162988 0.0398710 0.9837012 -0.0398710 0.9837012 -0.0398710 0.0162988 0.0398710
1020750000 0.0159554 0.0396372 0.9840446 -0.0396372 0.9840446 -0.0396372 0.0159554 0.0396372
1028000000 0.0155513 0.0394868 0.9844487 -0.0394868 0.9844487 -0.0394868 0.0155513 0.0394868
1035250000 0.0151055 0.0394237 0.9848945 -0.0394237 0.9848945 -0.0394237 0.0151055 0.0394237
1042500000 0.0146358 0.0394477 0.9853642 -0.0394477 0.9853642 -0.0394477 0.0146358 0.0394477
1049750000 0.0141576 0.0395545 0.9858424 -0.0395545 0.9858424 -0.0395545 0.0141576 0.0395545
1057000000 0.0136837 0.0397379 0.9863163 -0.0397379 0.9863163 -0.0397379 0.0136837 0.0397379
1064250000 0.0132239 0.0399900 0.9867761 -0.0399900 0.9867761 -0.0399900 0.0132239 0.0399900
1071500000 0.0127857 0.0403024 0.9872143 -0.0403024 0.9872143 -0.0403024 0.0127857 0.0403024
1078750000 0.0123739 0.0406667 0.9876261 -0.0406667 0.9876261 -0.0406667 0.0123739 0.0406667
1086000000 0.0119917 0.0410751 0.9880083 -0.0410751 0.9880083 -0.0410751 0.0119917 0.0410751
1093250000 0.0116406 0.0415201 0.9883594 -0.0415201 0.9883594 -0.0415201 0.0116406 0.0415201
1100500000 0.0113212 0.0419955 0.9886788 -0.0419955 0.9886788 -0.0419955 0.0113212 0.0419955
1107750000 0.0110331 0.0424956 0.9889669 -0.0424956 0.9889669 -0.0424956 0.0110331 0.0424956
1115000000 0.0107754 0.0430156 0.9892246 -0.0430156 0.9892246 -0.0430156 0.0107754 0.0430156
1122250000 0.0105469 0.0435514 0.9894531 -0.0435514 0.9894531 -0.0435514 0.0105469 0.0435514
1129500000 0.0103460 0.0440996 0.9896540 -0.0440996 0.9896540 -0.0440996 0.0103460 0.0440996
1136750000 0.0101711 0.0446574 0.9898289 -0.0446574 0.9898289 -0.0446574 0.0101711 0.0446574
1144000000 0.0100207 0.0452225 0.9899793 -0.0452225 0.9899793 -0.0452225 0.0100207 0.0452225
1151250000 0.0098931 0.0457930 0.9901069 -0.0457930 0.9901069 -0.0457930 0.0098931 0.0457930
1158500000 0.0097869 0.0463673 0.9902131 -0.0463673 0.9902131 -0.0463673 0.0097869 0.0463673
1165750000 0.0097006 0.0469443 0.9902994 -0.0469443 0.9902994 -0.0469443 0.0097006 0.0469443
1173000000 0.0096328 0.0475229 0.9903672 -0.0475229 0.9903672 -0.0475229 0.0096328 0.0475229
1180250000 0.0095824 0.0481024 0.9904176 -0.0481024 0.9904176 -0.0481024 0.0095824 0.0481024
1187500000 0.0095483 0.0486822 0.9904517 -0.0486822 0.9904517 -0.0486822 0.0095483 0.0486822
1194750000 0.0095294 0.0492617 0.9904706 -0.0492617 0.9904706 -0.0492617 0.0095294 0.0492617
1202000000 0.0095248 0.0498406 0.9904752 -0.0498406 0.9904752 -0.0498406 0.0095248 0.0498406
1209250000 0.0095337 0.0504187 0.9904663 -0.0504187 0.9904663 -0.0504187 0.0095337 0.0504187
1216500000 0.0095554 0.0509957 0.9904446 -0.0509957 0.9904446 -0.0509957 0.0095554 0.0509957
1223750000 0.0095893 0.0515714 0.9904107 -0.0515714 0.9904107 -0.0515714 0.0095893 0.0515714
1231000000 0.0096348 0.0521458 0.9903652 -0.0521458 0.9903652 -0.0521458 0.0096348 0.0521458
1238250000 0.0096915 0.0527187 0.9903085 -0.0527187 0.9903085 -0.0527187 0.0096915 0.0527187
1245500000 0.0097588 0.0532902 0.9902412 -0.0532902 0.9902412 -0.0532902 0.0097588 0.0532902
1252750000 0.0098365 0.0538602 0.9901635 -0.0538602 0.9901635 -0.0538602 0.0098365 0.0538602
1260000000 0.0099243 0.0544286 0.9900757 -0.0544286 0.9900757 -0.0544286 0.0099243 0.0544286
1267250000 0.0100219 0.0549956 0.9899781 -0.0549956 0.9899781 -0.0549956 0.0100219 0.0549956
1274500000 0.0101291 0.0555610 0.9898709 -0.0555610 0.9898709 -0.0555610 0.0101291 0.0555610
1281750000 0.0102457 0.0561248 0.9897543 -0.0561248 0.9897543 -0.0561248 0.0102457 0.0561248
1289000000 0.0103718 0.0566871 0.9896282 -0.0566871 0.9896282 -0.0566871 0.0103718 0.0566871
1296250000 0.0105071 0.0572478 0.9894929 -0.0572478 0.9894929 -0.0572478 0.0105071 0.0572478
1303500000 0.0106516 0.0578069 0.9893484 -0.0578069 0.9893484 -0.0578069 0.0106516 0.0578069
1310750000 0.0108055 0.0583644 0.9891945 -0.0583644 0.9891945 -0.0583644 0.0108055 0.0583644
1318000000 0.0109686 0.0589202 0.9890314 -0.0589202 0.9890314 -0.0589202 0.0109686 0.0589202
1325250000 0.0111411 0.0594743 0.9888589 -0.0594743 0.9888589 -0.0594743 0.0111411 0.0594743
1332500000 0.0113230 0.0600265 0.9886770 -0.0600265 0.9886770 -0.0600265 0.0113230 0.0600265
1339750000 0.0115146 0.0605768 0.9884854 -0.0605768 0.9884854 -0.0605768 0.0115146 0.0605768
1347000000 0.0117158 0.0611250 0.9882842 -0.0611250 0.9882842 -0.0611250 0.0117158 0.0611250
1354250000 0.0119270 0.0616710 0.9880730 -0.0616710 0.9880730 -0.0616710 0.0119270 0.0616710
1361500000 0.0121482 0.0622146 0.9878518 -0.0622146 0.9878518 -0.0622146 0.0121482 0.0622146
1368750000 0.0123798 0.0627555 0.9876202 -0.0627555 0.9876202 -0.0627555 0.0123798 0.0627555
1376000000 0.0126219 0.0632936 0.9873781 -0.0632936 0.9873781 -0.0632936 0.0126219 0.0632936
1383250000 0.0128748 0.0638284 0.9871252 -0.0638284 0.9871252 -0.0638284 0.0128748 0.0638284
1390500000 0.0131388 0.0643598 0.9868612 -0.0643598 0.9868612 -0.0643598 0.0131388 0.0643598
1397750000 0.0134142 0.0648873 0.9865858 -0.0648873 0.9865858 -0.0648873 0.0134142 0.0648873
1405000000 0.0137012 0.0654104 0.9862988 -0.0654104 0.9862988 -0.0654104 0.0137012 0.0654104
1412250000 0.0140001 0.0659287 0.9859999 -0.0659287 0.9859999 -0.0659287 0.0140001 0.0659287
1419500000 0.0143113 0.0664417 0.9856887 -0.0664417 0.9856887 -0.0664417 0.0143113 0.0664417
1426750000 0.0146350 0.0669487 0.9853650 -0.0669487 0.9853650 -0.0669487 0.0146350 0.0669487
1434000000 0.0149716 0.0674491 0.9850284 -0.0674491 0.9850284 -0.0674491 0.0149716 0.0674491
1441250000 0.0153212 0.0679421 0.9846788 -0.0679421 0.9846788 -0.0679421 0.0153212 0.0679421
1448500000 0.0156842 0.0684268 0.9843158 -0.0684268 0.9843158 -0.0684268 0.0156842 0.0684268
1455750000 0.0160608 0.0689025 0.9839392 -0.0689025 0.9839392 -0.0689025 0.0160608 0.0689025
1463000000 0.0164511 0.0693680 0.9835489 -0.0693680 0.9835489 -0.0693680 0.0164511 0.0693680
1470250000 0.0168554 0.0698223 0.9831446 -0.0698223 0.9831446 -0.0698223 0.0168554 0.0698223
1477500000 0.0172736 0.0702642 0.9827264 -0.0702642 0.9827264 -0.0702642 0.0172736 0.0702642
1484750000 0.0177057 0.0706924 0.9822943 -0.0706924 0.9822943 -0.0706924 0.0177057 0.0706924
1492000000 0.0181517 0.0711057 0.9818483 -0.0711057 0.9818483 -0.0711057 0.0181517 0.0711057
1499250000 0.0186112 0.0715024 0.9813888 -0.0715024 0.9813888 -0.0715024 0.0186112 0.0715024
1506500000 0.0190841 0.0718811 0.9809159 -0.0718811 0.9809159 -0.0718811 0.0190841 0.0718811
1513750000 0.0195696 0.0722401 0.9804304 -0.0722401 0.9804304 -0.0722401 0.0195696 0.0722401
1521000000 0.0200672 0.0725776 0.9799328 -0.0725776 0.9799328 -0.0725776 0.0200672 0.0725776
1528250000 0.0205759 0.0728920 0.9794241 -0.0728920 0.9794241 -0.0728920 0.0205759 0.0728920
1535500000 0.0210947 0.0731815 0.9789053 -0.0731815 0.9789053 -0.0731815 0.0210947 0.0731815
1542750000 0.0216221 0.0734441 0.9783779 -0.0734441 0.9783779 -0.0734441 0.0216221 0.0734441
1550000000 0.0221566 0.0736780 0.9778434 -0.0736780 0.9778434 -0.0736780 0.0221566 0.0736780
1557250000 0.0226961 0.0738816 0.9773039 -0.0738816 0.9773039 -0.0738816 0.0226961 0.0738816
1564500000 0.0232385 0.0740531 0.9767615 -0.0740531 0.9767615 -0.0740531 0.0232385 0.0740531
1571750000 0.0237811 0.0741910 0.9762189 -0.0741910 0.9762189 -0.0741910 0.0237811 0.0741910
1579000000 0.0243212 0.0742940 0.9756788 -0.0742940 0.9756788 -0.0742940 0.0243212 0.0742940
1586250000 0.0248555 0.0743610 0.9751445 -0.0743610 0.9751445 -0.0743610 0.0248555 0.0743610
1593500000 0.0253805 0.0743912 0.9746195 -0.0743912 0.9746195 -0.0743912 0.0253805 0.0743912
1600750000 0.0258925 0.0743843 0.9741075 -0.0743843 0.9741075 -0.0743843 0.0258925 0.0743843
1608000000 0.0263875 0.0743403 0.9736125 -0.0743403 0.9736125 -0.0743403 0.0263875 0.0743403
1615250000 0.0268614 0.0742600 0.9731386 -0.0742600 0.9731386 -0.0742600 0.0268614 0.0742600
1622500000 0.0273099 0.0741443 0.9726901 -0.0741443 0.9726901 -0.0741443 0.0273099 0.0741443
1629750000 0.0277290 0.0739951 0.9722710 -0.0739951 0.9722710 -0.0739951 0.0277290 0.0739951
