!Murata Part Number: GRM3192C2A332JA01
!These Parameters are Measured in Series Mode Connection
!Data Generated on Mar 30, 2021
!       o--ll--o
!Port1            Port2
!       o------o
!Operation Temp=25[degC], DC Bias Voltage=0[V]
!Freq. Start=1000[kHz] Stop=6[GHz] 401[Steps]
# Hz S RI R 50
!Freq.(Hz) S11(Real) S11(Imag) S21(Real) S21(Imag) S12(Real) S12(Imag) S22(Real) S22(Imag)
1000000 0.1884002 -0.3908983 0.8115998 0.3908983 0.8115998 0.3908983 0.1884002 -0.3908983
1021987 0.1818415 -0.3855778 0.8181585 0.3855778 0.8181585 0.3855778 0.1818415 -0.3855778
1044457 0.1754618 -0.3802225 0.8245382 0.3802225 0.8245382 0.3802225 0.1754618 -0.3802225
1067422 0.1692597 -0.3748390 0.8307403 0.3748390 0.8307403 0.3748390 0.1692597 -0.3748390
1090891 0.1632336 -0.3694334 0.8367664 0.3694334 0.8367664 0.3694334 0.1632336 -0.3694334
1114877 0.1573814 -0.3640116 0.8426186 0.3640116 0.8426186 0.3640116 0.1573814 -0.3640116
1139390 0.1517012 -0.3585793 0.8482988 0.3585793 0.8482988 0.3585793 0.1517012 -0.3585793
1164441 0.1461905 -0.3531420 0.8538095 0.3531420 0.8538095 0.3531420 0.1461905 -0.3531420
1190044 0.1408468 -0.3477050 0.8591532 0.3477050 0.8591532 0.3477050 0.1408468 -0.3477050
1216210 0.1356676 -0.3422733 0.8643324 0.3422733 0.8643324 0.3422733 0.1356676 -0.3422733
1242950 0.1306499 -0.3368516 0.8693501 0.3368516 0.8693501 0.3368516 0.1306499 -0.3368516
1270279 0.1257910 -0.3314445 0.8742090 0.3314445 0.8742090 0.3314445 0.1257910 -0.3314445
1298209 0.1210876 -0.3260562 0.8789124 0.3260562 0.8789124 0.3260562 0.1210876 -0.3260562
1326753 0.1165369 -0.3206909 0.8834631 0.3206909 0.8834631 0.3206909 0.1165369 -0.3206909
1355924 0.1121354 -0.3153524 0.8878646 0.3153524 0.8878646 0.3153524 0.1121354 -0.3153524
1385737 0.1078800 -0.3100442 0.8921200 0.3100442 0.8921200 0.3100442 0.1078800 -0.3100442
1416205 0.1037673 -0.3047698 0.8962327 0.3047698 0.8962327 0.3047698 0.1037673 -0.3047698
1447343 0.0997940 -0.2995324 0.9002060 0.2995324 0.9002060 0.2995324 0.0997940 -0.2995324
1479166 0.0959567 -0.2943348 0.9040433 0.2943348 0.9040433 0.2943348 0.0959567 -0.2943348
1511688 0.0922519 -0.2891798 0.9077481 0.2891798 0.9077481 0.2891798 0.0922519 -0.2891798
1544926 0.0886763 -0.2840700 0.9113237 0.2840700 0.9113237 0.2840700 0.0886763 -0.2840700
1578894 0.0852263 -0.2790078 0.9147737 0.2790078 0.9147737 0.2790078 0.0852263 -0.2790078
1613609 0.0818986 -0.2739952 0.9181014 0.2739952 0.9181014 0.2739952 0.0818986 -0.2739952
1649087 0.0786899 -0.2690343 0.9213101 0.2690343 0.9213101 0.2690343 0.0786899 -0.2690343
1685346 0.0755966 -0.2641269 0.9244034 0.2641269 0.9244034 0.2641269 0.0755966 -0.2641269
1722402 0.0726154 -0.2592746 0.9273846 0.2592746 0.9273846 0.2592746 0.0726154 -0.2592746
1760272 0.0697431 -0.2544789 0.9302569 0.2544789 0.9302569 0.2544789 0.0697431 -0.2544789
1798975 0.0669763 -0.2497411 0.9330237 0.2497411 0.9330237 0.2497411 0.0669763 -0.2497411
1838529 0.0643118 -0.2450625 0.9356882 0.2450625 0.9356882 0.2450625 0.0643118 -0.2450625
1878953 0.0617464 -0.2404439 0.9382536 0.2404439 0.9382536 0.2404439 0.0617464 -0.2404439
1920266 0.0592770 -0.2358864 0.9407230 0.2358864 0.9407230 0.2358864 0.0592770 -0.2358864
1962487 0.0569005 -0.2313908 0.9430995 0.2313908 0.9430995 0.2313908 0.0569005 -0.2313908
2005636 0.0546139 -0.2269576 0.9453861 0.2269576 0.9453861 0.2269576 0.0546139 -0.2269576
2049734 0.0524142 -0.2225875 0.9475858 0.2225875 0.9475858 0.2225875 0.0524142 -0.2225875
2094801 0.0502986 -0.2182809 0.9497014 0.2182809 0.9497014 0.2182809 0.0502986 -0.2182809
2140860 0.0482641 -0.2140381 0.9517359 0.2140381 0.9517359 0.2140381 0.0482641 -0.2140381
2187931 0.0463080 -0.2098593 0.9536920 0.2098593 0.9536920 0.2098593 0.0463080 -0.2098593
2236037 0.0444276 -0.2057448 0.9555724 0.2057448 0.9555724 0.2057448 0.0444276 -0.2057448
2285201 0.0426203 -0.2016946 0.9573797 0.2016946 0.9573797 0.2016946 0.0426203 -0.2016946
2335446 0.0408835 -0.1977087 0.9591165 0.1977087 0.9591165 0.1977087 0.0408835 -0.1977087
2386795 0.0392148 -0.1937870 0.9607852 0.1937870 0.9607852 0.1937870 0.0392148 -0.1937870
2439274 0.0376116 -0.1899293 0.9623884 0.1899293 0.9623884 0.1899293 0.0376116 -0.1899293
2492906 0.0360716 -0.1861355 0.9639284 0.1861355 0.9639284 0.1861355 0.0360716 -0.1861355
2547717 0.0345926 -0.1824053 0.9654074 0.1824053 0.9654074 0.1824053 0.0345926 -0.1824053
2603734 0.0331723 -0.1787384 0.9668277 0.1787384 0.9668277 0.1787384 0.0331723 -0.1787384
2660982 0.0318085 -0.1751343 0.9681915 0.1751343 0.9681915 0.1751343 0.0318085 -0.1751343
2719490 0.0304991 -0.1715927 0.9695009 0.1715927 0.9695009 0.1715927 0.0304991 -0.1715927
2779283 0.0292421 -0.1681131 0.9707579 0.1681131 0.9707579 0.1681131 0.0292421 -0.1681131
2840391 0.0280356 -0.1646950 0.9719644 0.1646950 0.9719644 0.1646950 0.0280356 -0.1646950
2902843 0.0268777 -0.1613378 0.9731223 0.1613378 0.9731223 0.1613378 0.0268777 -0.1613378
2966668 0.0257664 -0.1580410 0.9742336 0.1580410 0.9742336 0.1580410 0.0257664 -0.1580410
3031896 0.0247001 -0.1548040 0.9752999 0.1548040 0.9752999 0.1548040 0.0247001 -0.1548040
3098558 0.0236770 -0.1516261 0.9763230 0.1516261 0.9763230 0.1516261 0.0236770 -0.1516261
3166686 0.0226954 -0.1485067 0.9773046 0.1485067 0.9773046 0.1485067 0.0226954 -0.1485067
3236312 0.0217537 -0.1454451 0.9782463 0.1454451 0.9782463 0.1454451 0.0217537 -0.1454451
3307469 0.0208504 -0.1424406 0.9791496 0.1424406 0.9791496 0.1424406 0.0208504 -0.1424406
3380190 0.0199840 -0.1394925 0.9800160 0.1394925 0.9800160 0.1394925 0.0199840 -0.1394925
3454511 0.0191531 -0.1366001 0.9808469 0.1366001 0.9808469 0.1366001 0.0191531 -0.1366001
3530465 0.0183562 -0.1337627 0.9816438 0.1337627 0.9816438 0.1337627 0.0183562 -0.1337627
3608090 0.0175920 -0.1309794 0.9824080 0.1309794 0.9824080 0.1309794 0.0175920 -0.1309794
3687421 0.0168592 -0.1282495 0.9831408 0.1282495 0.9831408 0.1282495 0.0168592 -0.1282495
3768496 0.0161566 -0.1255722 0.9838434 0.1255722 0.9838434 0.1255722 0.0161566 -0.1255722
3851354 0.0154830 -0.1229469 0.9845170 0.1229469 0.9845170 0.1229469 0.0154830 -0.1229469
3936034 0.0148372 -0.1203726 0.9851628 0.1203726 0.9851628 0.1203726 0.0148372 -0.1203726
4022575 0.0142181 -0.1178486 0.9857819 0.1178486 0.9857819 0.1178486 0.0142181 -0.1178486
4111020 0.0136246 -0.1153742 0.9863754 0.1153742 0.9863754 0.1153742 0.0136246 -0.1153742
4201409 0.0130557 -0.1129484 0.9869443 0.1129484 0.9869443 0.1129484 0.0130557 -0.1129484
4293785 0.0125104 -0.1105706 0.9874896 0.1105706 0.9874896 0.1105706 0.0125104 -0.1105706
4388193 0.0119878 -0.1082400 0.9880122 0.1082400 0.9880122 0.1082400 0.0119878 -0.1082400
4484676 0.0114869 -0.1059558 0.9885131 0.1059558 0.9885131 0.1059558 0.0114869 -0.1059558
4583281 0.0110068 -0.1037171 0.9889932 0.1037171 0.9889932 0.1037171 0.0110068 -0.1037171
4684054 0.0105468 -0.1015232 0.9894532 0.1015232 0.9894532 0.1015232 0.0105468 -0.1015232
4787042 0.0101059 -0.0993734 0.9898941 0.0993734 0.9898941 0.0993734 0.0101059 -0.0993734
4892295 0.0096834 -0.0972668 0.9903166 0.0972668 0.9903166 0.0972668 0.0096834 -0.0972668
4999862 0.0092786 -0.0952028 0.9907214 0.0952028 0.9907214 0.0952028 0.0092786 -0.0952028
5109794 0.0088907 -0.0931805 0.9911093 0.0931805 0.9911093 0.0931805 0.0088907 -0.0931805
5222143 0.0085191 -0.0911991 0.9914809 0.0911991 0.9914809 0.0911991 0.0085191 -0.0911991
5336962 0.0081630 -0.0892580 0.9918370 0.0892580 0.9918370 0.0892580 0.0081630 -0.0892580
5454306 0.0078219 -0.0873565 0.9921781 0.0873565 0.9921781 0.0873565 0.0078219 -0.0873565
5574230 0.0074950 -0.0854937 0.9925050 0.0854937 0.9925050 0.0854937 0.0074950 -0.0854937
5696791 0.0071819 -0.0836689 0.9928181 0.0836689 0.9928181 0.0836689 0.0071819 -0.0836689
5822046 0.0068819 -0.0818815 0.9931181 0.0818815 0.9931181 0.0818815 0.0068819 -0.0818815
5950055 0.0065946 -0.0801307 0.9934054 0.0801307 0.9934054 0.0801307 0.0065946 -0.0801307
6080879 0.0063193 -0.0784159 0.9936807 0.0784159 0.9936807 0.0784159 0.0063193 -0.0784159
6214580 0.0060556 -0.0767363 0.9939444 0.0767363 0.9939444 0.0767363 0.0060556 -0.0767363
6351220 0.0058030 -0.0750913 0.9941970 0.0750913 0.9941970 0.0750913 0.0058030 -0.0750913
6490864 0.0055610 -0.0734801 0.9944390 0.0734801 0.9944390 0.0734801 0.0055610 -0.0734801
6633579 0.0053293 -0.0719022 0.9946707 0.0719022 0.9946707 0.0719022 0.0053293 -0.0719022
6779431 0.0051073 -0.0703569 0.9948927 0.0703569 0.9948927 0.0703569 0.0051073 -0.0703569
6928491 0.0048947 -0.0688436 0.9951053 0.0688436 0.9951053 0.0688436 0.0048947 -0.0688436
7080828 0.0046911 -0.0673615 0.9953089 0.0673615 0.9953089 0.0673615 0.0046911 -0.0673615
7236514 0.0044961 -0.0659102 0.9955039 0.0659102 0.9955039 0.0659102 0.0044961 -0.0659102
7395623 0.0043093 -0.0644889 0.9956907 0.0644889 0.9956907 0.0644889 0.0043093 -0.0644889
7558231 0.0041305 -0.0630971 0.9958695 0.0630971 0.9958695 0.0630971 0.0041305 -0.0630971
7724414 0.0039592 -0.0617341 0.9960408 0.0617341 0.9960408 0.0617341 0.0039592 -0.0617341
7894251 0.0037951 -0.0603995 0.9962049 0.0603995 0.9962049 0.0603995 0.0037951 -0.0603995
8067822 0.0036380 -0.0590926 0.9963620 0.0590926 0.9963620 0.0590926 0.0036380 -0.0590926
8245209 0.0034876 -0.0578129 0.9965124 0.0578129 0.9965124 0.0578129 0.0034876 -0.0578129
8426497 0.0033435 -0.0565597 0.9966565 0.0565597 0.9966565 0.0565597 0.0033435 -0.0565597
8611770 0.0032056 -0.0553326 0.9967944 0.0553326 0.9967944 0.0553326 0.0032056 -0.0553326
8801117 0.0030735 -0.0541310 0.9969265 0.0541310 0.9969265 0.0541310 0.0030735 -0.0541310
8994628 0.0029470 -0.0529545 0.9970530 0.0529545 0.9970530 0.0529545 0.0029470 -0.0529545
9192393 0.0028259 -0.0518024 0.9971741 0.0518024 0.9971741 0.0518024 0.0028259 -0.0518024
9394506 0.0027100 -0.0506742 0.9972900 0.0506742 0.9972900 0.0506742 0.0027100 -0.0506742
9601063 0.0025990 -0.0495696 0.9974010 0.0495696 0.9974010 0.0495696 0.0025990 -0.0495696
9812162 0.0024927 -0.0484879 0.9975073 0.0484879 0.9975073 0.0484879 0.0024927 -0.0484879
10027902 0.0023909 -0.0474287 0.9976091 0.0474287 0.9976091 0.0474287 0.0023909 -0.0474287
10248386 0.0022935 -0.0463915 0.9977065 0.0463915 0.9977065 0.0463915 0.0022935 -0.0463915
10473717 0.0022003 -0.0453759 0.9977997 0.0453759 0.9977997 0.0453759 0.0022003 -0.0453759
10704003 0.0021110 -0.0443814 0.9978890 0.0443814 0.9978890 0.0443814 0.0021110 -0.0443814
10939352 0.0020255 -0.0434075 0.9979745 0.0434075 0.9979745 0.0434075 0.0020255 -0.0434075
11179876 0.0019437 -0.0424539 0.9980563 0.0424539 0.9980563 0.0424539 0.0019437 -0.0424539
11425688 0.0018655 -0.0415200 0.9981345 0.0415200 0.9981345 0.0415200 0.0018655 -0.0415200
11676904 0.0017905 -0.0406055 0.9982095 0.0406055 0.9982095 0.0406055 0.0017905 -0.0406055
11933645 0.0017188 -0.0397100 0.9982812 0.0397100 0.9982812 0.0397100 0.0017188 -0.0397100
12196030 0.0016502 -0.0388330 0.9983498 0.0388330 0.9983498 0.0388330 0.0016502 -0.0388330
12464184 0.0015845 -0.0379741 0.9984155 0.0379741 0.9984155 0.0379741 0.0015845 -0.0379741
12738235 0.0015216 -0.0371330 0.9984784 0.0371330 0.9984784 0.0371330 0.0015216 -0.0371330
13018310 0.0014615 -0.0363093 0.9985385 0.0363093 0.9985385 0.0363093 0.0014615 -0.0363093
13304544 0.0014040 -0.0355026 0.9985960 0.0355026 0.9985960 0.0355026 0.0014040 -0.0355026
13597071 0.0013489 -0.0347124 0.9986511 0.0347124 0.9986511 0.0347124 0.0013489 -0.0347124
13896030 0.0012963 -0.0339386 0.9987037 0.0339386 0.9987037 0.0339386 0.0012963 -0.0339386
14201563 0.0012459 -0.0331806 0.9987541 0.0331806 0.9987541 0.0331806 0.0012459 -0.0331806
14513813 0.0011977 -0.0324382 0.9988023 0.0324382 0.9988023 0.0324382 0.0011977 -0.0324382
14832928 0.0011516 -0.0317111 0.9988484 0.0317111 0.9988484 0.0317111 0.0011516 -0.0317111
15159060 0.0011076 -0.0309988 0.9988924 0.0309988 0.9988924 0.0309988 0.0011076 -0.0309988
15492362 0.0010654 -0.0303010 0.9989346 0.0303010 0.9989346 0.0303010 0.0010654 -0.0303010
15832993 0.0010252 -0.0296175 0.9989748 0.0296175 0.9989748 0.0296175 0.0010252 -0.0296175
16181113 0.0009867 -0.0289479 0.9990133 0.0289479 0.9990133 0.0289479 0.0009867 -0.0289479
16536888 0.0009499 -0.0282920 0.9990501 0.0282920 0.9990501 0.0282920 0.0009499 -0.0282920
16900485 0.0009147 -0.0276493 0.9990853 0.0276493 0.9990853 0.0276493 0.0009147 -0.0276493
17272076 0.0008811 -0.0270196 0.9991189 0.0270196 0.9991189 0.0270196 0.0008811 -0.0270196
17651837 0.0008490 -0.0264027 0.9991510 0.0264027 0.9991510 0.0264027 0.0008490 -0.0264027
18039948 0.0008184 -0.0257981 0.9991816 0.0257981 0.9991816 0.0257981 0.0008184 -0.0257981
18436593 0.0007891 -0.0252058 0.9992109 0.0252058 0.9992109 0.0252058 0.0007891 -0.0252058
18841959 0.0007611 -0.0246253 0.9992389 0.0246253 0.9992389 0.0246253 0.0007611 -0.0246253
19256237 0.0007345 -0.0240564 0.9992655 0.0240564 0.9992655 0.0240564 0.0007345 -0.0240564
19679624 0.0007090 -0.0234988 0.9992910 0.0234988 0.9992910 0.0234988 0.0007090 -0.0234988
20112321 0.0006847 -0.0229524 0.9993153 0.0229524 0.9993153 0.0229524 0.0006847 -0.0229524
20554530 0.0006616 -0.0224167 0.9993384 0.0224167 0.9993384 0.0224167 0.0006616 -0.0224167
21006463 0.0006395 -0.0218917 0.9993605 0.0218917 0.9993605 0.0218917 0.0006395 -0.0218917
21468333 0.0006185 -0.0213769 0.9993815 0.0213769 0.9993815 0.0213769 0.0006185 -0.0213769
21940357 0.0005985 -0.0208723 0.9994015 0.0208723 0.9994015 0.0208723 0.0005985 -0.0208723
22422760 0.0005794 -0.0203776 0.9994206 0.0203776 0.9994206 0.0203776 0.0005794 -0.0203776
22915770 0.0005612 -0.0198924 0.9994388 0.0198924 0.9994388 0.0198924 0.0005612 -0.0198924
23419619 0.0005440 -0.0194167 0.9994560 0.0194167 0.9994560 0.0194167 0.0005440 -0.0194167
23934547 0.0005276 -0.0189502 0.9994724 0.0189502 0.9994724 0.0189502 0.0005276 -0.0189502
24460796 0.0005120 -0.0184926 0.9994880 0.0184926 0.9994880 0.0184926 0.0005120 -0.0184926
24998616 0.0004972 -0.0180438 0.9995028 0.0180438 0.9995028 0.0180438 0.0004972 -0.0180438
25548261 0.0004831 -0.0176035 0.9995169 0.0176035 0.9995169 0.0176035 0.0004831 -0.0176035
26109991 0.0004698 -0.0171716 0.9995302 0.0171716 0.9995302 0.0171716 0.0004698 -0.0171716
26684072 0.0004572 -0.0167478 0.9995428 0.0167478 0.9995428 0.0167478 0.0004572 -0.0167478
27270775 0.0004452 -0.0163319 0.9995548 0.0163319 0.9995548 0.0163319 0.0004452 -0.0163319
27870378 0.0004339 -0.0159238 0.9995661 0.0159238 0.9995661 0.0159238 0.0004339 -0.0159238
28483164 0.0004232 -0.0155233 0.9995768 0.0155233 0.9995768 0.0155233 0.0004232 -0.0155233
29109424 0.0004132 -0.0151301 0.9995868 0.0151301 0.9995868 0.0151301 0.0004132 -0.0151301
29749453 0.0004037 -0.0147441 0.9995963 0.0147441 0.9995963 0.0147441 0.0004037 -0.0147441
30403555 0.0003948 -0.0143651 0.9996052 0.0143651 0.9996052 0.0143651 0.0003948 -0.0143651
31072038 0.0003864 -0.0139930 0.9996136 0.0139930 0.9996136 0.0139930 0.0003864 -0.0139930
31755220 0.0003785 -0.0136275 0.9996215 0.0136275 0.9996215 0.0136275 0.0003785 -0.0136275
32453422 0.0003711 -0.0132685 0.9996289 0.0132685 0.9996289 0.0132685 0.0003711 -0.0132685
33166976 0.0003643 -0.0129158 0.9996357 0.0129158 0.9996357 0.0129158 0.0003643 -0.0129158
33896219 0.0003579 -0.0125693 0.9996421 0.0125693 0.9996421 0.0125693 0.0003579 -0.0125693
34641496 0.0003519 -0.0122287 0.9996481 0.0122287 0.9996481 0.0122287 0.0003519 -0.0122287
35403159 0.0003464 -0.0118940 0.9996536 0.0118940 0.9996536 0.0118940 0.0003464 -0.0118940
36181569 0.0003413 -0.0115650 0.9996587 0.0115650 0.9996587 0.0115650 0.0003413 -0.0115650
36977093 0.0003366 -0.0112415 0.9996634 0.0112415 0.9996634 0.0112415 0.0003366 -0.0112415
37790109 0.0003323 -0.0109234 0.9996677 0.0109234 0.9996677 0.0109234 0.0003323 -0.0109234
38621001 0.0003284 -0.0106105 0.9996716 0.0106105 0.9996716 0.0106105 0.0003284 -0.0106105
39470161 0.0003248 -0.0103026 0.9996752 0.0103026 0.9996752 0.0103026 0.0003248 -0.0103026
40337993 0.0003217 -0.0099997 0.9996783 0.0099997 0.9996783 0.0099997 0.0003217 -0.0099997
41224905 0.0003188 -0.0097016 0.9996812 0.0097016 0.9996812 0.0097016 0.0003188 -0.0097016
42131317 0.0003163 -0.0094081 0.9996837 0.0094081 0.9996837 0.0094081 0.0003163 -0.0094081
43057659 0.0003142 -0.0091192 0.9996858 0.0091192 0.9996858 0.0091192 0.0003142 -0.0091192
44004369 0.0003123 -0.0088346 0.9996877 0.0088346 0.9996877 0.0088346 0.0003123 -0.0088346
44971893 0.0003107 -0.0085543 0.9996893 0.0085543 0.9996893 0.0085543 0.0003107 -0.0085543
45960691 0.0003095 -0.0082780 0.9996905 0.0082780 0.9996905 0.0082780 0.0003095 -0.0082780
46971230 0.0003085 -0.0080058 0.9996915 0.0080058 0.9996915 0.0080058 0.0003085 -0.0080058
48003987 0.0003079 -0.0077373 0.9996921 0.0077373 0.9996921 0.0077373 0.0003079 -0.0077373
49059451 0.0003075 -0.0074726 0.9996925 0.0074726 0.9996925 0.0074726 0.0003075 -0.0074726
50138122 0.0003073 -0.0072115 0.9996927 0.0072115 0.9996927 0.0072115 0.0003073 -0.0072115
51240510 0.0003074 -0.0069539 0.9996926 0.0069539 0.9996926 0.0069539 0.0003074 -0.0069539
52367136 0.0003078 -0.0066996 0.9996922 0.0066996 0.9996922 0.0066996 0.0003078 -0.0066996
53518533 0.0003085 -0.0064485 0.9996915 0.0064485 0.9996915 0.0064485 0.0003085 -0.0064485
54695245 0.0003094 -0.0062005 0.9996906 0.0062005 0.9996906 0.0062005 0.0003094 -0.0062005
55897831 0.0003105 -0.0059554 0.9996895 0.0059554 0.9996895 0.0059554 0.0003105 -0.0059554
57126857 0.0003118 -0.0057133 0.9996882 0.0057133 0.9996882 0.0057133 0.0003118 -0.0057133
58382906 0.0003134 -0.0054738 0.9996866 0.0054738 0.9996866 0.0054738 0.0003134 -0.0054738
59666572 0.0003153 -0.0052370 0.9996847 0.0052370 0.9996847 0.0052370 0.0003153 -0.0052370
60978462 0.0003173 -0.0050026 0.9996827 0.0050026 0.9996827 0.0050026 0.0003173 -0.0050026
62319196 0.0003196 -0.0047707 0.9996804 0.0047707 0.9996804 0.0047707 0.0003196 -0.0047707
63689409 0.0003222 -0.0045410 0.9996778 0.0045410 0.9996778 0.0045410 0.0003222 -0.0045410
65089750 0.0003249 -0.0043134 0.9996751 0.0043134 0.9996751 0.0043134 0.0003249 -0.0043134
66520879 0.0003279 -0.0040879 0.9996721 0.0040879 0.9996721 0.0040879 0.0003279 -0.0040879
67983474 0.0003311 -0.0038643 0.9996689 0.0038643 0.9996689 0.0038643 0.0003311 -0.0038643
69478228 0.0003345 -0.0036425 0.9996655 0.0036425 0.9996655 0.0036425 0.0003345 -0.0036425
71005847 0.0003382 -0.0034224 0.9996618 0.0034224 0.9996618 0.0034224 0.0003382 -0.0034224
72567054 0.0003420 -0.0032038 0.9996580 0.0032038 0.9996580 0.0032038 0.0003420 -0.0032038
74162587 0.0003462 -0.0029867 0.9996538 0.0029867 0.9996538 0.0029867 0.0003462 -0.0029867
75793201 0.0003506 -0.0027709 0.9996494 0.0027709 0.9996494 0.0027709 0.0003506 -0.0027709
77459667 0.0003552 -0.0025563 0.9996448 0.0025563 0.9996448 0.0025563 0.0003552 -0.0025563
79162774 0.0003601 -0.0023428 0.9996399 0.0023428 0.9996399 0.0023428 0.0003601 -0.0023428
80903327 0.0003652 -0.0021302 0.9996348 0.0021302 0.9996348 0.0021302 0.0003652 -0.0021302
82682150 0.0003706 -0.0019185 0.9996294 0.0019185 0.9996294 0.0019185 0.0003706 -0.0019185
84500083 0.0003763 -0.0017075 0.9996237 0.0017075 0.9996237 0.0017075 0.0003763 -0.0017075
86357988 0.0003823 -0.0014972 0.9996177 0.0014972 0.9996177 0.0014972 0.0003823 -0.0014972
88256743 0.0003886 -0.0012873 0.9996114 0.0012873 0.9996114 0.0012873 0.0003886 -0.0012873
90197245 0.0003952 -0.0010777 0.9996048 0.0010777 0.9996048 0.0010777 0.0003952 -0.0010777
92180413 0.0004021 -0.0008683 0.9995979 0.0008683 0.9995979 0.0008683 0.0004021 -0.0008683
94207185 0.0004094 -0.0006590 0.9995906 0.0006590 0.9995906 0.0006590 0.0004094 -0.0006590
96278520 0.0004171 -0.0004496 0.9995829 0.0004496 0.9995829 0.0004496 0.0004171 -0.0004496
98395398 0.0004251 -0.0002400 0.9995749 0.0002400 0.9995749 0.0002400 0.0004251 -0.0002400
100558819 0.0004336 -0.0000300 0.9995664 0.0000300 0.9995664 0.0000300 0.0004336 -0.0000300
102769807 0.0004426 0.0001806 0.9995574 -0.0001806 0.9995574 -0.0001806 0.0004426 0.0001806
105029408 0.0004520 0.0003919 0.9995480 -0.0003919 0.9995480 -0.0003919 0.0004520 0.0003919
107338692 0.0004619 0.0006040 0.9995381 -0.0006040 0.9995381 -0.0006040 0.0004619 0.0006040
