!Murata Part Number: GRM31C2C2A104JA01
!These Parameters are Measured in Series Mode Connection
!Data Generated on Mar 30, 2021
!       o--ll--o
!Port1            Port2
!       o------o
!Operation Temp=25[degC], DC Bias Voltage=0[V]
!Freq. Start=1000[kHz] Stop=6[GHz] 401[Steps]
# Hz S RI R 50
!Freq.(Hz) S11(Real) S11(Imag) S21(Real) S21(Imag) S12(Real) S12(Imag) S22(Real) S22(Imag)
1000000 0.0002914 -0.0158394 0.9997086 0.0158394 0.9997086 0.0158394 0.0002914 -0.0158394
1021987 0.0002807 -0.0154958 0.9997193 0.0154958 0.9997193 0.0154958 0.0002807 -0.0154958
1044457 0.0002705 -0.0151594 0.9997295 0.0151594 0.9997295 0.0151594 0.0002705 -0.0151594
1067422 0.0002608 -0.0148302 0.9997392 0.0148302 0.9997392 0.0148302 0.0002608 -0.0148302
1090891 0.0002515 -0.0145081 0.9997485 0.0145081 0.9997485 0.0145081 0.0002515 -0.0145081
1114877 0.0002425 -0.0141927 0.9997575 0.0141927 0.9997575 0.0141927 0.0002425 -0.0141927
1139390 0.0002340 -0.0138841 0.9997660 0.0138841 0.9997660 0.0138841 0.0002340 -0.0138841
1164441 0.0002259 -0.0135821 0.9997741 0.0135821 0.9997741 0.0135821 0.0002259 -0.0135821
1190044 0.0002181 -0.0132864 0.9997819 0.0132864 0.9997819 0.0132864 0.0002181 -0.0132864
1216210 0.0002106 -0.0129971 0.9997894 0.0129971 0.9997894 0.0129971 0.0002106 -0.0129971
1242950 0.0002035 -0.0127138 0.9997965 0.0127138 0.9997965 0.0127138 0.0002035 -0.0127138
1270279 0.0001967 -0.0124366 0.9998033 0.0124366 0.9998033 0.0124366 0.0001967 -0.0124366
1298209 0.0001902 -0.0121653 0.9998098 0.0121653 0.9998098 0.0121653 0.0001902 -0.0121653
1326753 0.0001840 -0.0118997 0.9998160 0.0118997 0.9998160 0.0118997 0.0001840 -0.0118997
1355924 0.0001780 -0.0116398 0.9998220 0.0116398 0.9998220 0.0116398 0.0001780 -0.0116398
1385737 0.0001724 -0.0113853 0.9998276 0.0113853 0.9998276 0.0113853 0.0001724 -0.0113853
1416205 0.0001669 -0.0111363 0.9998331 0.0111363 0.9998331 0.0111363 0.0001669 -0.0111363
1447343 0.0001618 -0.0108925 0.9998382 0.0108925 0.9998382 0.0108925 0.0001618 -0.0108925
1479166 0.0001568 -0.0106538 0.9998432 0.0106538 0.9998432 0.0106538 0.0001568 -0.0106538
1511688 0.0001521 -0.0104202 0.9998479 0.0104202 0.9998479 0.0104202 0.0001521 -0.0104202
1544926 0.0001477 -0.0101916 0.9998523 0.0101916 0.9998523 0.0101916 0.0001477 -0.0101916
1578894 0.0001434 -0.0099677 0.9998566 0.0099677 0.9998566 0.0099677 0.0001434 -0.0099677
1613609 0.0001393 -0.0097486 0.9998607 0.0097486 0.9998607 0.0097486 0.0001393 -0.0097486
1649087 0.0001354 -0.0095341 0.9998646 0.0095341 0.9998646 0.0095341 0.0001354 -0.0095341
1685346 0.0001317 -0.0093241 0.9998683 0.0093241 0.9998683 0.0093241 0.0001317 -0.0093241
1722402 0.0001282 -0.0091185 0.9998718 0.0091185 0.9998718 0.0091185 0.0001282 -0.0091185
1760272 0.0001248 -0.0089172 0.9998752 0.0089172 0.9998752 0.0089172 0.0001248 -0.0089172
1798975 0.0001216 -0.0087202 0.9998784 0.0087202 0.9998784 0.0087202 0.0001216 -0.0087202
1838529 0.0001186 -0.0085273 0.9998814 0.0085273 0.9998814 0.0085273 0.0001186 -0.0085273
1878953 0.0001157 -0.0083384 0.9998843 0.0083384 0.9998843 0.0083384 0.0001157 -0.0083384
1920266 0.0001130 -0.0081535 0.9998870 0.0081535 0.9998870 0.0081535 0.0001130 -0.0081535
1962487 0.0001104 -0.0079724 0.9998896 0.0079724 0.9998896 0.0079724 0.0001104 -0.0079724
2005636 0.0001079 -0.0077952 0.9998921 0.0077952 0.9998921 0.0077952 0.0001079 -0.0077952
2049734 0.0001056 -0.0076216 0.9998944 0.0076216 0.9998944 0.0076216 0.0001056 -0.0076216
2094801 0.0001034 -0.0074516 0.9998966 0.0074516 0.9998966 0.0074516 0.0001034 -0.0074516
2140860 0.0001013 -0.0072852 0.9998987 0.0072852 0.9998987 0.0072852 0.0001013 -0.0072852
2187931 0.0000993 -0.0071222 0.9999007 0.0071222 0.9999007 0.0071222 0.0000993 -0.0071222
2236037 0.0000975 -0.0069626 0.9999025 0.0069626 0.9999025 0.0069626 0.0000975 -0.0069626
2285201 0.0000957 -0.0068063 0.9999043 0.0068063 0.9999043 0.0068063 0.0000957 -0.0068063
2335446 0.0000940 -0.0066533 0.9999060 0.0066533 0.9999060 0.0066533 0.0000940 -0.0066533
2386795 0.0000925 -0.0065034 0.9999075 0.0065034 0.9999075 0.0065034 0.0000925 -0.0065034
2439274 0.0000910 -0.0063566 0.9999090 0.0063566 0.9999090 0.0063566 0.0000910 -0.0063566
2492906 0.0000896 -0.0062128 0.9999104 0.0062128 0.9999104 0.0062128 0.0000896 -0.0062128
2547717 0.0000883 -0.0060719 0.9999117 0.0060719 0.9999117 0.0060719 0.0000883 -0.0060719
2603734 0.0000871 -0.0059340 0.9999129 0.0059340 0.9999129 0.0059340 0.0000871 -0.0059340
2660982 0.0000860 -0.0057989 0.9999140 0.0057989 0.9999140 0.0057989 0.0000860 -0.0057989
2719490 0.0000850 -0.0056665 0.9999150 0.0056665 0.9999150 0.0056665 0.0000850 -0.0056665
2779283 0.0000840 -0.0055368 0.9999160 0.0055368 0.9999160 0.0055368 0.0000840 -0.0055368
2840391 0.0000831 -0.0054098 0.9999169 0.0054098 0.9999169 0.0054098 0.0000831 -0.0054098
2902843 0.0000822 -0.0052853 0.9999178 0.0052853 0.9999178 0.0052853 0.0000822 -0.0052853
2966668 0.0000815 -0.0051634 0.9999185 0.0051634 0.9999185 0.0051634 0.0000815 -0.0051634
3031896 0.0000808 -0.0050439 0.9999192 0.0050439 0.9999192 0.0050439 0.0000808 -0.0050439
3098558 0.0000801 -0.0049269 0.9999199 0.0049269 0.9999199 0.0049269 0.0000801 -0.0049269
3166686 0.0000795 -0.0048121 0.9999205 0.0048121 0.9999205 0.0048121 0.0000795 -0.0048121
3236312 0.0000790 -0.0046997 0.9999210 0.0046997 0.9999210 0.0046997 0.0000790 -0.0046997
3307469 0.0000785 -0.0045895 0.9999215 0.0045895 0.9999215 0.0045895 0.0000785 -0.0045895
3380190 0.0000781 -0.0044815 0.9999219 0.0044815 0.9999219 0.0044815 0.0000781 -0.0044815
3454511 0.0000777 -0.0043757 0.9999223 0.0043757 0.9999223 0.0043757 0.0000777 -0.0043757
3530465 0.0000774 -0.0042719 0.9999226 0.0042719 0.9999226 0.0042719 0.0000774 -0.0042719
3608090 0.0000771 -0.0041702 0.9999229 0.0041702 0.9999229 0.0041702 0.0000771 -0.0041702
3687421 0.0000768 -0.0040705 0.9999232 0.0040705 0.9999232 0.0040705 0.0000768 -0.0040705
3768496 0.0000766 -0.0039727 0.9999234 0.0039727 0.9999234 0.0039727 0.0000766 -0.0039727
3851354 0.0000764 -0.0038768 0.9999236 0.0038768 0.9999236 0.0038768 0.0000764 -0.0038768
3936034 0.0000763 -0.0037828 0.9999237 0.0037828 0.9999237 0.0037828 0.0000763 -0.0037828
4022575 0.0000762 -0.0036905 0.9999238 0.0036905 0.9999238 0.0036905 0.0000762 -0.0036905
4111020 0.0000762 -0.0036001 0.9999238 0.0036001 0.9999238 0.0036001 0.0000762 -0.0036001
4201409 0.0000761 -0.0035114 0.9999239 0.0035114 0.9999239 0.0035114 0.0000761 -0.0035114
4293785 0.0000761 -0.0034243 0.9999239 0.0034243 0.9999239 0.0034243 0.0000761 -0.0034243
4388193 0.0000762 -0.0033389 0.9999238 0.0033389 0.9999238 0.0033389 0.0000762 -0.0033389
4484676 0.0000762 -0.0032551 0.9999238 0.0032551 0.9999238 0.0032551 0.0000762 -0.0032551
4583281 0.0000763 -0.0031729 0.9999237 0.0031729 0.9999237 0.0031729 0.0000763 -0.0031729
4684054 0.0000764 -0.0030922 0.9999236 0.0030922 0.9999236 0.0030922 0.0000764 -0.0030922
4787042 0.0000765 -0.0030129 0.9999235 0.0030129 0.9999235 0.0030129 0.0000765 -0.0030129
4892295 0.0000767 -0.0029351 0.9999233 0.0029351 0.9999233 0.0029351 0.0000767 -0.0029351
4999862 0.0000769 -0.0028587 0.9999231 0.0028587 0.9999231 0.0028587 0.0000769 -0.0028587
5109794 0.0000770 -0.0027837 0.9999230 0.0027837 0.9999230 0.0027837 0.0000770 -0.0027837
5222143 0.0000773 -0.0027101 0.9999227 0.0027101 0.9999227 0.0027101 0.0000773 -0.0027101
5336962 0.0000775 -0.0026377 0.9999225 0.0026377 0.9999225 0.0026377 0.0000775 -0.0026377
5454306 0.0000777 -0.0025666 0.9999223 0.0025666 0.9999223 0.0025666 0.0000777 -0.0025666
5574230 0.0000780 -0.0024967 0.9999220 0.0024967 0.9999220 0.0024967 0.0000780 -0.0024967
5696791 0.0000783 -0.0024280 0.9999217 0.0024280 0.9999217 0.0024280 0.0000783 -0.0024280
5822046 0.0000786 -0.0023605 0.9999214 0.0023605 0.9999214 0.0023605 0.0000786 -0.0023605
5950055 0.0000789 -0.0022941 0.9999211 0.0022941 0.9999211 0.0022941 0.0000789 -0.0022941
6080879 0.0000792 -0.0022288 0.9999208 0.0022288 0.9999208 0.0022288 0.0000792 -0.0022288
6214580 0.0000795 -0.0021645 0.9999205 0.0021645 0.9999205 0.0021645 0.0000795 -0.0021645
6351220 0.0000799 -0.0021013 0.9999201 0.0021013 0.9999201 0.0021013 0.0000799 -0.0021013
6490864 0.0000802 -0.0020391 0.9999198 0.0020391 0.9999198 0.0020391 0.0000802 -0.0020391
6633579 0.0000806 -0.0019779 0.9999194 0.0019779 0.9999194 0.0019779 0.0000806 -0.0019779
6779431 0.0000810 -0.0019177 0.9999190 0.0019177 0.9999190 0.0019177 0.0000810 -0.0019177
6928491 0.0000814 -0.0018583 0.9999186 0.0018583 0.9999186 0.0018583 0.0000814 -0.0018583
7080828 0.0000818 -0.0017998 0.9999182 0.0017998 0.9999182 0.0017998 0.0000818 -0.0017998
7236514 0.0000822 -0.0017422 0.9999178 0.0017422 0.9999178 0.0017422 0.0000822 -0.0017422
7395623 0.0000826 -0.0016854 0.9999174 0.0016854 0.9999174 0.0016854 0.0000826 -0.0016854
7558231 0.0000830 -0.0016294 0.9999170 0.0016294 0.9999170 0.0016294 0.0000830 -0.0016294
7724414 0.0000835 -0.0015742 0.9999165 0.0015742 0.9999165 0.0015742 0.0000835 -0.0015742
7894251 0.0000839 -0.0015197 0.9999161 0.0015197 0.9999161 0.0015197 0.0000839 -0.0015197
8067822 0.0000844 -0.0014660 0.9999156 0.0014660 0.9999156 0.0014660 0.0000844 -0.0014660
8245209 0.0000849 -0.0014129 0.9999151 0.0014129 0.9999151 0.0014129 0.0000849 -0.0014129
8426497 0.0000853 -0.0013605 0.9999147 0.0013605 0.9999147 0.0013605 0.0000853 -0.0013605
8611770 0.0000858 -0.0013087 0.9999142 0.0013087 0.9999142 0.0013087 0.0000858 -0.0013087
8801117 0.0000864 -0.0012575 0.9999136 0.0012575 0.9999136 0.0012575 0.0000864 -0.0012575
8994628 0.0000869 -0.0012070 0.9999131 0.0012070 0.9999131 0.0012070 0.0000869 -0.0012070
9192393 0.0000874 -0.0011569 0.9999126 0.0011569 0.9999126 0.0011569 0.0000874 -0.0011569
9394506 0.0000880 -0.0011074 0.9999120 0.0011074 0.9999120 0.0011074 0.0000880 -0.0011074
9601063 0.0000886 -0.0010584 0.9999114 0.0010584 0.9999114 0.0010584 0.0000886 -0.0010584
9812162 0.0000892 -0.0010099 0.9999108 0.0010099 0.9999108 0.0010099 0.0000892 -0.0010099
10027902 0.0000898 -0.0009619 0.9999102 0.0009619 0.9999102 0.0009619 0.0000898 -0.0009619
10248386 0.0000904 -0.0009142 0.9999096 0.0009142 0.9999096 0.0009142 0.0000904 -0.0009142
10473717 0.0000911 -0.0008670 0.9999089 0.0008670 0.9999089 0.0008670 0.0000911 -0.0008670
10704003 0.0000917 -0.0008202 0.9999083 0.0008202 0.9999083 0.0008202 0.0000917 -0.0008202
10939352 0.0000924 -0.0007737 0.9999076 0.0007737 0.9999076 0.0007737 0.0000924 -0.0007737
11179876 0.0000932 -0.0007275 0.9999068 0.0007275 0.9999068 0.0007275 0.0000932 -0.0007275
11425688 0.0000939 -0.0006816 0.9999061 0.0006816 0.9999061 0.0006816 0.0000939 -0.0006816
11676904 0.0000947 -0.0006360 0.9999053 0.0006360 0.9999053 0.0006360 0.0000947 -0.0006360
11933645 0.0000955 -0.0005906 0.9999045 0.0005906 0.9999045 0.0005906 0.0000955 -0.0005906
12196030 0.0000964 -0.0005455 0.9999036 0.0005455 0.9999036 0.0005455 0.0000964 -0.0005455
12464184 0.0000973 -0.0005005 0.9999027 0.0005005 0.9999027 0.0005005 0.0000973 -0.0005005
12738235 0.0000982 -0.0004557 0.9999018 0.0004557 0.9999018 0.0004557 0.0000982 -0.0004557
13018310 0.0000992 -0.0004111 0.9999008 0.0004111 0.9999008 0.0004111 0.0000992 -0.0004111
13304544 0.0001002 -0.0003665 0.9998998 0.0003665 0.9998998 0.0003665 0.0001002 -0.0003665
13597071 0.0001013 -0.0003220 0.9998987 0.0003220 0.9998987 0.0003220 0.0001013 -0.0003220
13896030 0.0001024 -0.0002776 0.9998976 0.0002776 0.9998976 0.0002776 0.0001024 -0.0002776
14201563 0.0001036 -0.0002332 0.9998964 0.0002332 0.9998964 0.0002332 0.0001036 -0.0002332
14513813 0.0001049 -0.0001888 0.9998951 0.0001888 0.9998951 0.0001888 0.0001049 -0.0001888
14832928 0.0001063 -0.0001443 0.9998937 0.0001443 0.9998937 0.0001443 0.0001063 -0.0001443
15159060 0.0001077 -0.0000997 0.9998923 0.0000997 0.9998923 0.0000997 0.0001077 -0.0000997
15492362 0.0001092 -0.0000550 0.9998908 0.0000550 0.9998908 0.0000550 0.0001092 -0.0000550
15832993 0.0001108 -0.0000101 0.9998892 0.0000101 0.9998892 0.0000101 0.0001108 -0.0000101
16181113 0.0001125 0.0000349 0.9998875 -0.0000349 0.9998875 -0.0000349 0.0001125 0.0000349
16536888 0.0001144 0.0000802 0.9998856 -0.0000802 0.9998856 -0.0000802 0.0001144 0.0000802
16900485 0.0001163 0.0001258 0.9998837 -0.0001258 0.9998837 -0.0001258 0.0001163 0.0001258
17272076 0.0001185 0.0001717 0.9998815 -0.0001717 0.9998815 -0.0001717 0.0001185 0.0001717
17651837 0.0001208 0.0002181 0.9998792 -0.0002181 0.9998792 -0.0002181 0.0001208 0.0002181
18039948 0.0001232 0.0002648 0.9998768 -0.0002648 0.9998768 -0.0002648 0.0001232 0.0002648
18436593 0.0001259 0.0003121 0.9998741 -0.0003121 0.9998741 -0.0003121 0.0001259 0.0003121
18841959 0.0001289 0.0003600 0.9998711 -0.0003600 0.9998711 -0.0003600 0.0001289 0.0003600
19256237 0.0001321 0.0004085 0.9998679 -0.0004085 0.9998679 -0.0004085 0.0001321 0.0004085
19679624 0.0001356 0.0004577 0.9998644 -0.0004577 0.9998644 -0.0004577 0.0001356 0.0004577
20112321 0.0001395 0.0005078 0.9998605 -0.0005078 0.9998605 -0.0005078 0.0001395 0.0005078
20554530 0.0001438 0.0005588 0.9998562 -0.0005588 0.9998562 -0.0005588 0.0001438 0.0005588
21006463 0.0001485 0.0006108 0.9998515 -0.0006108 0.9998515 -0.0006108 0.0001485 0.0006108
21468333 0.0001539 0.0006641 0.9998461 -0.0006641 0.9998461 -0.0006641 0.0001539 0.0006641
21940357 0.0001600 0.0007186 0.9998400 -0.0007186 0.9998400 -0.0007186 0.0001600 0.0007186
22422760 0.0001669 0.0007747 0.9998331 -0.0007747 0.9998331 -0.0007747 0.0001669 0.0007747
22915770 0.0001748 0.0008326 0.9998252 -0.0008326 0.9998252 -0.0008326 0.0001748 0.0008326
23419619 0.0001840 0.0008923 0.9998160 -0.0008923 0.9998160 -0.0008923 0.0001840 0.0008923
23934547 0.0001948 0.0009544 0.9998052 -0.0009544 0.9998052 -0.0009544 0.0001948 0.0009544
24460796 0.0002076 0.0010190 0.9997924 -0.0010190 0.9997924 -0.0010190 0.0002076 0.0010190
24998616 0.0002230 0.0010867 0.9997770 -0.0010867 0.9997770 -0.0010867 0.0002230 0.0010867
25548261 0.0002418 0.0011577 0.9997582 -0.0011577 0.9997582 -0.0011577 0.0002418 0.0011577
26109991 0.0002652 0.0012328 0.9997348 -0.0012328 0.9997348 -0.0012328 0.0002652 0.0012328
26684072 0.0002949 0.0013123 0.9997051 -0.0013123 0.9997051 -0.0013123 0.0002949 0.0013123
27270775 0.0003335 0.0013967 0.9996665 -0.0013967 0.9996665 -0.0013967 0.0003335 0.0013967
27870378 0.0003846 0.0014858 0.9996154 -0.0014858 0.9996154 -0.0014858 0.0003846 0.0014858
28483164 0.0004542 0.0015784 0.9995458 -0.0015784 0.9995458 -0.0015784 0.0004542 0.0015784
29109424 0.0005504 0.0016702 0.9994496 -0.0016702 0.9994496 -0.0016702 0.0005504 0.0016702
29749453 0.0006841 0.0017494 0.9993159 -0.0017494 0.9993159 -0.0017494 0.0006841 0.0017494
30403555 0.0008635 0.0017900 0.9991365 -0.0017900 0.9991365 -0.0017900 0.0008635 0.0017900
31072038 0.0010757 0.0017462 0.9989243 -0.0017462 0.9989243 -0.0017462 0.0010757 0.0017462
31755220 0.0012527 0.0015771 0.9987473 -0.0015771 0.9987473 -0.0015771 0.0012527 0.0015771
32453422 0.0012872 0.0013260 0.9987128 -0.0013260 0.9987128 -0.0013260 0.0012872 0.0013260
33166976 0.0011594 0.0011280 0.9988406 -0.0011280 0.9988406 -0.0011280 0.0011594 0.0011280
33896219 0.0009677 0.0010595 0.9990323 -0.0010595 0.9990323 -0.0010595 0.0009677 0.0010595
34641496 0.0007982 0.0010938 0.9992018 -0.0010938 0.9992018 -0.0010938 0.0007982 0.0010938
35403159 0.0006762 0.0011814 0.9993238 -0.0011814 0.9993238 -0.0011814 0.0006762 0.0011814
36181569 0.0005972 0.0012908 0.9994028 -0.0012908 0.9994028 -0.0012908 0.0005972 0.0012908
36977093 0.0005508 0.0014076 0.9994492 -0.0014076 0.9994492 -0.0014076 0.0005508 0.0014076
37790109 0.0005290 0.0015259 0.9994710 -0.0015259 0.9994710 -0.0015259 0.0005290 0.0015259
38621001 0.0005266 0.0016441 0.9994734 -0.0016441 0.9994734 -0.0016441 0.0005266 0.0016441
39470161 0.0005413 0.0017618 0.9994587 -0.0017618 0.9994587 -0.0017618 0.0005413 0.0017618
40337993 0.0005723 0.0018789 0.9994277 -0.0018789 0.9994277 -0.0018789 0.0005723 0.0018789
41224905 0.0006210 0.0019950 0.9993790 -0.0019950 0.9993790 -0.0019950 0.0006210 0.0019950
42131317 0.0006900 0.0021085 0.9993100 -0.0021085 0.9993100 -0.0021085 0.0006900 0.0021085
43057659 0.0007833 0.0022158 0.9992167 -0.0022158 0.9992167 -0.0022158 0.0007833 0.0022158
44004369 0.0009055 0.0023095 0.9990945 -0.0023095 0.9990945 -0.0023095 0.0009055 0.0023095
44971893 0.0010599 0.0023766 0.9989401 -0.0023766 0.9989401 -0.0023766 0.0010599 0.0023766
45960691 0.0012434 0.0023966 0.9987566 -0.0023966 0.9987566 -0.0023966 0.0012434 0.0023966
46971230 0.0014379 0.0023447 0.9985621 -0.0023447 0.9985621 -0.0023447 0.0014379 0.0023447
48003987 0.0016018 0.0022057 0.9983982 -0.0022057 0.9983982 -0.0022057 0.0016018 0.0022057
49059451 0.0016800 0.0019982 0.9983200 -0.0019982 0.9983200 -0.0019982 0.0016800 0.0019982
50138122 0.0016405 0.0017828 0.9983595 -0.0017828 0.9983595 -0.0017828 0.0016405 0.0017828
51240510 0.0015039 0.0016260 0.9984961 -0.0016260 0.9984961 -0.0016260 0.0015039 0.0016260
52367136 0.0013241 0.0015576 0.9986759 -0.0015576 0.9986759 -0.0015576 0.0013241 0.0015576
53518533 0.0011481 0.0015681 0.9988519 -0.0015681 0.9988519 -0.0015681 0.0011481 0.0015681
54695245 0.0009997 0.0016328 0.9990003 -0.0016328 0.9990003 -0.0016328 0.0009997 0.0016328
55897831 0.0008847 0.0017291 0.9991153 -0.0017291 0.9991153 -0.0017291 0.0008847 0.0017291
57126857 0.0008011 0.0018418 0.9991989 -0.0018418 0.9991989 -0.0018418 0.0008011 0.0018418
58382906 0.0007444 0.0019615 0.9992556 -0.0019615 0.9992556 -0.0019615 0.0007444 0.0019615
59666572 0.0007104 0.0020826 0.9992896 -0.0020826 0.9992896 -0.0020826 0.0007104 0.0020826
60978462 0.0006958 0.0022014 0.9993042 -0.0022014 0.9993042 -0.0022014 0.0006958 0.0022014
62319196 0.0006980 0.0023146 0.9993020 -0.0023146 0.9993020 -0.0023146 0.0006980 0.0023146
63689409 0.0007141 0.0024186 0.9992859 -0.0024186 0.9992859 -0.0024186 0.0007141 0.0024186
65089750 0.0007399 0.0025097 0.9992601 -0.0025097 0.9992601 -0.0025097 0.0007399 0.0025097
66520879 0.0007687 0.0025852 0.9992313 -0.0025852 0.9992313 -0.0025852 0.0007687 0.0025852
67983474 0.0007915 0.0026465 0.9992085 -0.0026465 0.9992085 -0.0026465 0.0007915 0.0026465
69478228 0.0008010 0.0027008 0.9991990 -0.0027008 0.9991990 -0.0027008 0.0008010 0.0027008
71005847 0.0007962 0.0027590 0.9992038 -0.0027590 0.9992038 -0.0027590 0.0007962 0.0027590
72567054 0.0007832 0.0028295 0.9992168 -0.0028295 0.9992168 -0.0028295 0.0007832 0.0028295
74162587 0.0007710 0.0029147 0.9992290 -0.0029147 0.9992290 -0.0029147 0.0007710 0.0029147
75793201 0.0007669 0.0030119 0.9992331 -0.0030119 0.9992331 -0.0030119 0.0007669 0.0030119
77459667 0.0007753 0.0031163 0.9992247 -0.0031163 0.9992247 -0.0031163 0.0007753 0.0031163
79162774 0.0007981 0.0032222 0.9992019 -0.0032222 0.9992019 -0.0032222 0.0007981 0.0032222
80903327 0.0008355 0.0033243 0.9991645 -0.0033243 0.9991645 -0.0033243 0.0008355 0.0033243
82682150 0.0008862 0.0034165 0.9991138 -0.0034165 0.9991138 -0.0034165 0.0008862 0.0034165
84500083 0.0009462 0.0034926 0.9990538 -0.0034926 0.9990538 -0.0034926 0.0009462 0.0034926
86357988 0.0010081 0.0035477 0.9989919 -0.0035477 0.9989919 -0.0035477 0.0010081 0.0035477
88256743 0.0010606 0.0035805 0.9989394 -0.0035805 0.9989394 -0.0035805 0.0010606 0.0035805
90197245 0.0010920 0.0035968 0.9989080 -0.0035968 0.9989080 -0.0035968 0.0010920 0.0035968
92180413 0.0010951 0.0036095 0.9989049 -0.0036095 0.9989049 -0.0036095 0.0010951 0.0036095
94207185 0.0010719 0.0036334 0.9989281 -0.0036334 0.9989281 -0.0036334 0.0010719 0.0036334
96278520 0.0010322 0.0036785 0.9989678 -0.0036785 0.9989678 -0.0036785 0.0010322 0.0036785
98395398 0.0009878 0.0037470 0.9990122 -0.0037470 0.9990122 -0.0037470 0.0009878 0.0037470
100558819 0.0009476 0.0038356 0.9990524 -0.0038356 0.9990524 -0.0038356 0.0009476 0.0038356
102769807 0.0009166 0.0039387 0.9990834 -0.0039387 0.9990834 -0.0039387 0.0009166 0.0039387
105029408 0.0008966 0.0040509 0.9991034 -0.0040509 0.9991034 -0.0040509 0.0008966 0.0040509
107338692 0.0008874 0.0041679 0.9991126 -0.0041679 0.9991126 -0.0041679 0.0008874 0.0041679
