!Murata Part Number: GRM31A5C2J270JW01
!These Parameters are Measured in Series Mode Connection
!Data Generated on Mar 30, 2021
!       o--ll--o
!Port1            Port2
!       o------o
!Operation Temp=25[degC], DC Bias Voltage=0[V]
!Freq. Start=100[MHz] Stop=3[GHz] 401[Steps]
# Hz S RI R 50
!Freq.(Hz) S11(Real) S11(Imag) S21(Real) S21(Imag) S12(Real) S12(Imag) S22(Real) S22(Imag)
100000000 0.2554416 -0.4349061 0.7445584 0.4349061 0.7445584 0.4349061 0.2554416 -0.4349061
107250000 0.2294392 -0.4191800 0.7705608 0.4191800 0.7705608 0.4191800 0.2294392 -0.4191800
114500000 0.2068331 -0.4036531 0.7931669 0.4036531 0.7931669 0.4036531 0.2068331 -0.4036531
121750000 0.1871180 -0.3885346 0.8128820 0.3885346 0.8128820 0.3885346 0.1871180 -0.3885346
129000000 0.1698648 -0.3739520 0.8301352 0.3739520 0.8301352 0.3739520 0.1698648 -0.3739520
136250000 0.1547115 -0.3599766 0.8452885 0.3599766 0.8452885 0.3599766 0.1547115 -0.3599766
143500000 0.1413535 -0.3466417 0.8586465 0.3466417 0.8586465 0.3466417 0.1413535 -0.3466417
150750000 0.1295349 -0.3339549 0.8704651 0.3339549 0.8704651 0.3339549 0.1295349 -0.3339549
158000000 0.1190405 -0.3219075 0.8809595 0.3219075 0.8809595 0.3219075 0.1190405 -0.3219075
165250000 0.1096890 -0.3104800 0.8903110 0.3104800 0.8903110 0.3104800 0.1096890 -0.3104800
172500000 0.1013276 -0.2996465 0.8986724 0.2996465 0.8986724 0.2996465 0.1013276 -0.2996465
179750000 0.0938268 -0.2893778 0.9061732 0.2893778 0.9061732 0.2893778 0.0938268 -0.2893778
187000000 0.0870768 -0.2796427 0.9129232 0.2796427 0.9129232 0.2796427 0.0870768 -0.2796427
194250000 0.0809841 -0.2704099 0.9190159 0.2704099 0.9190159 0.2704099 0.0809841 -0.2704099
201500000 0.0754686 -0.2616486 0.9245314 0.2616486 0.9245314 0.2616486 0.0754686 -0.2616486
208750000 0.0704619 -0.2533291 0.9295381 0.2533291 0.9295381 0.2533291 0.0704619 -0.2533291
216000000 0.0659049 -0.2454229 0.9340951 0.2454229 0.9340951 0.2454229 0.0659049 -0.2454229
223250000 0.0617469 -0.2379033 0.9382531 0.2379033 0.9382531 0.2379033 0.0617469 -0.2379033
230500000 0.0579437 -0.2307450 0.9420563 0.2307450 0.9420563 0.2307450 0.0579437 -0.2307450
237750000 0.0544571 -0.2239246 0.9455429 0.2239246 0.9455429 0.2239246 0.0544571 -0.2239246
245000000 0.0512536 -0.2174199 0.9487464 0.2174199 0.9487464 0.2174199 0.0512536 -0.2174199
252250000 0.0483041 -0.2112107 0.9516959 0.2112107 0.9516959 0.2112107 0.0483041 -0.2112107
259500000 0.0455831 -0.2052779 0.9544169 0.2052779 0.9544169 0.2052779 0.0455831 -0.2052779
266750000 0.0430681 -0.1996040 0.9569319 0.1996040 0.9569319 0.1996040 0.0430681 -0.1996040
274000000 0.0407391 -0.1941727 0.9592609 0.1941727 0.9592609 0.1941727 0.0407391 -0.1941727
281250000 0.0385787 -0.1889689 0.9614213 0.1889689 0.9614213 0.1889689 0.0385787 -0.1889689
288500000 0.0365713 -0.1839787 0.9634287 0.1839787 0.9634287 0.1839787 0.0365713 -0.1839787
295750000 0.0347031 -0.1791890 0.9652969 0.1791890 0.9652969 0.1791890 0.0347031 -0.1791890
303000000 0.0329618 -0.1745879 0.9670382 0.1745879 0.9670382 0.1745879 0.0329618 -0.1745879
310250000 0.0313364 -0.1701643 0.9686636 0.1701643 0.9686636 0.1701643 0.0313364 -0.1701643
317500000 0.0298171 -0.1659077 0.9701829 0.1659077 0.9701829 0.1659077 0.0298171 -0.1659077
324750000 0.0283949 -0.1618086 0.9716051 0.1618086 0.9716051 0.1618086 0.0283949 -0.1618086
332000000 0.0270621 -0.1578582 0.9729379 0.1578582 0.9729379 0.1578582 0.0270621 -0.1578582
339250000 0.0258114 -0.1540480 0.9741886 0.1540480 0.9741886 0.1540480 0.0258114 -0.1540480
346500000 0.0246363 -0.1503704 0.9753637 0.1503704 0.9753637 0.1503704 0.0246363 -0.1503704
353750000 0.0235312 -0.1468182 0.9764688 0.1468182 0.9764688 0.1468182 0.0235312 -0.1468182
361000000 0.0224905 -0.1433848 0.9775095 0.1433848 0.9775095 0.1433848 0.0224905 -0.1433848
368250000 0.0215097 -0.1400637 0.9784903 0.1400637 0.9784903 0.1400637 0.0215097 -0.1400637
375500000 0.0205842 -0.1368493 0.9794158 0.1368493 0.9794158 0.1368493 0.0205842 -0.1368493
382750000 0.0197102 -0.1337360 0.9802898 0.1337360 0.9802898 0.1337360 0.0197102 -0.1337360
390000000 0.0188839 -0.1307188 0.9811161 0.1307188 0.9811161 0.1307188 0.0188839 -0.1307188
397250000 0.0181022 -0.1277929 0.9818978 0.1277929 0.9818978 0.1277929 0.0181022 -0.1277929
404500000 0.0173619 -0.1249537 0.9826381 0.1249537 0.9826381 0.1249537 0.0173619 -0.1249537
411750000 0.0166602 -0.1221972 0.9833398 0.1221972 0.9833398 0.1221972 0.0166602 -0.1221972
419000000 0.0159948 -0.1195194 0.9840052 0.1195194 0.9840052 0.1195194 0.0159948 -0.1195194
426250000 0.0153631 -0.1169165 0.9846369 0.1169165 0.9846369 0.1169165 0.0153631 -0.1169165
433500000 0.0147630 -0.1143851 0.9852370 0.1143851 0.9852370 0.1143851 0.0147630 -0.1143851
440750000 0.0141926 -0.1119219 0.9858074 0.1119219 0.9858074 0.1119219 0.0141926 -0.1119219
448000000 0.0136500 -0.1095239 0.9863500 0.1095239 0.9863500 0.1095239 0.0136500 -0.1095239
455250000 0.0131336 -0.1071882 0.9868664 0.1071882 0.9868664 0.1071882 0.0131336 -0.1071882
462500000 0.0126417 -0.1049119 0.9873583 0.1049119 0.9873583 0.1049119 0.0126417 -0.1049119
469750000 0.0121729 -0.1026926 0.9878271 0.1026926 0.9878271 0.1026926 0.0121729 -0.1026926
477000000 0.0117258 -0.1005277 0.9882742 0.1005277 0.9882742 0.1005277 0.0117258 -0.1005277
484250000 0.0112994 -0.0984151 0.9887006 0.0984151 0.9887006 0.0984151 0.0112994 -0.0984151
491500000 0.0108922 -0.0963524 0.9891078 0.0963524 0.9891078 0.0963524 0.0108922 -0.0963524
498750000 0.0105034 -0.0943377 0.9894966 0.0943377 0.9894966 0.0943377 0.0105034 -0.0943377
506000000 0.0101319 -0.0923690 0.9898681 0.0923690 0.9898681 0.0923690 0.0101319 -0.0923690
513250000 0.0097767 -0.0904444 0.9902233 0.0904444 0.9902233 0.0904444 0.0097767 -0.0904444
520500000 0.0094370 -0.0885622 0.9905630 0.0885622 0.9905630 0.0885622 0.0094370 -0.0885622
527750000 0.0091119 -0.0867207 0.9908881 0.0867207 0.9908881 0.0867207 0.0091119 -0.0867207
535000000 0.0088008 -0.0849184 0.9911992 0.0849184 0.9911992 0.0849184 0.0088008 -0.0849184
542250000 0.0085029 -0.0831537 0.9914971 0.0831537 0.9914971 0.0831537 0.0085029 -0.0831537
549500000 0.0082175 -0.0814252 0.9917825 0.0814252 0.9917825 0.0814252 0.0082175 -0.0814252
556750000 0.0079441 -0.0797315 0.9920559 0.0797315 0.9920559 0.0797315 0.0079441 -0.0797315
564000000 0.0076820 -0.0780714 0.9923180 0.0780714 0.9923180 0.0780714 0.0076820 -0.0780714
571250000 0.0074306 -0.0764437 0.9925694 0.0764437 0.9925694 0.0764437 0.0074306 -0.0764437
578500000 0.0071896 -0.0748471 0.9928104 0.0748471 0.9928104 0.0748471 0.0071896 -0.0748471
585750000 0.0069583 -0.0732806 0.9930417 0.0732806 0.9930417 0.0732806 0.0069583 -0.0732806
593000000 0.0067364 -0.0717430 0.9932636 0.0717430 0.9932636 0.0717430 0.0067364 -0.0717430
600250000 0.0065233 -0.0702334 0.9934767 0.0702334 0.9934767 0.0702334 0.0065233 -0.0702334
607500000 0.0063188 -0.0687508 0.9936812 0.0687508 0.9936812 0.0687508 0.0063188 -0.0687508
614750000 0.0061224 -0.0672942 0.9938776 0.0672942 0.9938776 0.0672942 0.0061224 -0.0672942
622000000 0.0059338 -0.0658629 0.9940662 0.0658629 0.9940662 0.0658629 0.0059338 -0.0658629
629250000 0.0057526 -0.0644558 0.9942474 0.0644558 0.9942474 0.0644558 0.0057526 -0.0644558
636500000 0.0055785 -0.0630723 0.9944215 0.0630723 0.9944215 0.0630723 0.0055785 -0.0630723
643750000 0.0054113 -0.0617115 0.9945887 0.0617115 0.9945887 0.0617115 0.0054113 -0.0617115
651000000 0.0052505 -0.0603727 0.9947495 0.0603727 0.9947495 0.0603727 0.0052505 -0.0603727
658250000 0.0050961 -0.0590552 0.9949039 0.0590552 0.9949039 0.0590552 0.0050961 -0.0590552
665500000 0.0049476 -0.0577583 0.9950524 0.0577583 0.9950524 0.0577583 0.0049476 -0.0577583
672750000 0.0048049 -0.0564813 0.9951951 0.0564813 0.9951951 0.0564813 0.0048049 -0.0564813
680000000 0.0046677 -0.0552237 0.9953323 0.0552237 0.9953323 0.0552237 0.0046677 -0.0552237
687250000 0.0045358 -0.0539848 0.9954642 0.0539848 0.9954642 0.0539848 0.0045358 -0.0539848
694500000 0.0044091 -0.0527640 0.9955909 0.0527640 0.9955909 0.0527640 0.0044091 -0.0527640
701750000 0.0042872 -0.0515608 0.9957128 0.0515608 0.9957128 0.0515608 0.0042872 -0.0515608
709000000 0.0041701 -0.0503747 0.9958299 0.0503747 0.9958299 0.0503747 0.0041701 -0.0503747
716250000 0.0040576 -0.0492051 0.9959424 0.0492051 0.9959424 0.0492051 0.0040576 -0.0492051
723500000 0.0039494 -0.0480515 0.9960506 0.0480515 0.9960506 0.0480515 0.0039494 -0.0480515
730750000 0.0038455 -0.0469136 0.9961545 0.0469136 0.9961545 0.0469136 0.0038455 -0.0469136
738000000 0.0037456 -0.0457907 0.9962544 0.0457907 0.9962544 0.0457907 0.0037456 -0.0457907
745250000 0.0036497 -0.0446826 0.9963503 0.0446826 0.9963503 0.0446826 0.0036497 -0.0446826
752500000 0.0035575 -0.0435887 0.9964425 0.0435887 0.9964425 0.0435887 0.0035575 -0.0435887
759750000 0.0034690 -0.0425086 0.9965310 0.0425086 0.9965310 0.0425086 0.0034690 -0.0425086
767000000 0.0033841 -0.0414420 0.9966159 0.0414420 0.9966159 0.0414420 0.0033841 -0.0414420
774250000 0.0033026 -0.0403885 0.9966974 0.0403885 0.9966974 0.0403885 0.0033026 -0.0403885
781500000 0.0032244 -0.0393477 0.9967756 0.0393477 0.9967756 0.0393477 0.0032244 -0.0393477
788750000 0.0031494 -0.0383192 0.9968506 0.0383192 0.9968506 0.0383192 0.0031494 -0.0383192
796000000 0.0030775 -0.0373028 0.9969225 0.0373028 0.9969225 0.0373028 0.0030775 -0.0373028
803250000 0.0030086 -0.0362980 0.9969914 0.0362980 0.9969914 0.0362980 0.0030086 -0.0362980
810500000 0.0029426 -0.0353047 0.9970574 0.0353047 0.9970574 0.0353047 0.0029426 -0.0353047
817750000 0.0028794 -0.0343224 0.9971206 0.0343224 0.9971206 0.0343224 0.0028794 -0.0343224
825000000 0.0028189 -0.0333509 0.9971811 0.0333509 0.9971811 0.0333509 0.0028189 -0.0333509
832250000 0.0027611 -0.0323899 0.9972389 0.0323899 0.9972389 0.0323899 0.0027611 -0.0323899
839500000 0.0027058 -0.0314391 0.9972942 0.0314391 0.9972942 0.0314391 0.0027058 -0.0314391
846750000 0.0026530 -0.0304982 0.9973470 0.0304982 0.9973470 0.0304982 0.0026530 -0.0304982
854000000 0.0026027 -0.0295671 0.9973973 0.0295671 0.9973973 0.0295671 0.0026027 -0.0295671
861250000 0.0025547 -0.0286453 0.9974453 0.0286453 0.9974453 0.0286453 0.0025547 -0.0286453
868500000 0.0025090 -0.0277328 0.9974910 0.0277328 0.9974910 0.0277328 0.0025090 -0.0277328
875750000 0.0024655 -0.0268293 0.9975345 0.0268293 0.9975345 0.0268293 0.0024655 -0.0268293
883000000 0.0024241 -0.0259345 0.9975759 0.0259345 0.9975759 0.0259345 0.0024241 -0.0259345
890250000 0.0023849 -0.0250482 0.9976151 0.0250482 0.9976151 0.0250482 0.0023849 -0.0250482
897500000 0.0023477 -0.0241702 0.9976523 0.0241702 0.9976523 0.0241702 0.0023477 -0.0241702
904750000 0.0023125 -0.0233003 0.9976875 0.0233003 0.9976875 0.0233003 0.0023125 -0.0233003
912000000 0.0022792 -0.0224383 0.9977208 0.0224383 0.9977208 0.0224383 0.0022792 -0.0224383
919250000 0.0022479 -0.0215840 0.9977521 0.0215840 0.9977521 0.0215840 0.0022479 -0.0215840
926500000 0.0022183 -0.0207373 0.9977817 0.0207373 0.9977817 0.0207373 0.0022183 -0.0207373
933750000 0.0021906 -0.0198979 0.9978094 0.0198979 0.9978094 0.0198979 0.0021906 -0.0198979
941000000 0.0021646 -0.0190656 0.9978354 0.0190656 0.9978354 0.0190656 0.0021646 -0.0190656
948250000 0.0021404 -0.0182404 0.9978596 0.0182404 0.9978596 0.0182404 0.0021404 -0.0182404
955500000 0.0021178 -0.0174219 0.9978822 0.0174219 0.9978822 0.0174219 0.0021178 -0.0174219
962750000 0.0020968 -0.0166101 0.9979032 0.0166101 0.9979032 0.0166101 0.0020968 -0.0166101
970000000 0.0020774 -0.0158049 0.9979226 0.0158049 0.9979226 0.0158049 0.0020774 -0.0158049
977250000 0.0020596 -0.0150059 0.9979404 0.0150059 0.9979404 0.0150059 0.0020596 -0.0150059
984500000 0.0020433 -0.0142132 0.9979567 0.0142132 0.9979567 0.0142132 0.0020433 -0.0142132
991750000 0.0020285 -0.0134265 0.9979715 0.0134265 0.9979715 0.0134265 0.0020285 -0.0134265
999000000 0.0020152 -0.0126458 0.9979848 0.0126458 0.9979848 0.0126458 0.0020152 -0.0126458
1006250000 0.0020033 -0.0118708 0.9979967 0.0118708 0.9979967 0.0118708 0.0020033 -0.0118708
1013500000 0.0019928 -0.0111015 0.9980072 0.0111015 0.9980072 0.0111015 0.0019928 -0.0111015
1020750000 0.0019837 -0.0103377 0.9980163 0.0103377 0.9980163 0.0103377 0.0019837 -0.0103377
1028000000 0.0019759 -0.0095793 0.9980241 0.0095793 0.9980241 0.0095793 0.0019759 -0.0095793
1035250000 0.0019694 -0.0088262 0.9980306 0.0088262 0.9980306 0.0088262 0.0019694 -0.0088262
1042500000 0.0019642 -0.0080782 0.9980358 0.0080782 0.9980358 0.0080782 0.0019642 -0.0080782
1049750000 0.0019603 -0.0073353 0.9980397 0.0073353 0.9980397 0.0073353 0.0019603 -0.0073353
1057000000 0.0019576 -0.0065973 0.9980424 0.0065973 0.9980424 0.0065973 0.0019576 -0.0065973
1064250000 0.0019561 -0.0058641 0.9980439 0.0058641 0.9980439 0.0058641 0.0019561 -0.0058641
1071500000 0.0019559 -0.0051356 0.9980441 0.0051356 0.9980441 0.0051356 0.0019559 -0.0051356
1078750000 0.0019568 -0.0044118 0.9980432 0.0044118 0.9980432 0.0044118 0.0019568 -0.0044118
1086000000 0.0019589 -0.0036924 0.9980411 0.0036924 0.9980411 0.0036924 0.0019589 -0.0036924
1093250000 0.0019621 -0.0029774 0.9980379 0.0029774 0.9980379 0.0029774 0.0019621 -0.0029774
1100500000 0.0019665 -0.0022667 0.9980335 0.0022667 0.9980335 0.0022667 0.0019665 -0.0022667
1107750000 0.0019719 -0.0015603 0.9980281 0.0015603 0.9980281 0.0015603 0.0019719 -0.0015603
1115000000 0.0019784 -0.0008580 0.9980216 0.0008580 0.9980216 0.0008580 0.0019784 -0.0008580
1122250000 0.0019860 -0.0001597 0.9980140 0.0001597 0.9980140 0.0001597 0.0019860 -0.0001597
1129500000 0.0019946 0.0005347 0.9980054 -0.0005347 0.9980054 -0.0005347 0.0019946 0.0005347
1136750000 0.0020043 0.0012252 0.9979957 -0.0012252 0.9979957 -0.0012252 0.0020043 0.0012252
1144000000 0.0020150 0.0019119 0.9979850 -0.0019119 0.9979850 -0.0019119 0.0020150 0.0019119
1151250000 0.0020267 0.0025950 0.9979733 -0.0025950 0.9979733 -0.0025950 0.0020267 0.0025950
1158500000 0.0020394 0.0032744 0.9979606 -0.0032744 0.9979606 -0.0032744 0.0020394 0.0032744
1165750000 0.0020531 0.0039503 0.9979469 -0.0039503 0.9979469 -0.0039503 0.0020531 0.0039503
1173000000 0.0020677 0.0046227 0.9979323 -0.0046227 0.9979323 -0.0046227 0.0020677 0.0046227
1180250000 0.0020833 0.0052917 0.9979167 -0.0052917 0.9979167 -0.0052917 0.0020833 0.0052917
1187500000 0.0020998 0.0059575 0.9979002 -0.0059575 0.9979002 -0.0059575 0.0020998 0.0059575
1194750000 0.0021173 0.0066199 0.9978827 -0.0066199 0.9978827 -0.0066199 0.0021173 0.0066199
1202000000 0.0021357 0.0072793 0.9978643 -0.0072793 0.9978643 -0.0072793 0.0021357 0.0072793
1209250000 0.0021549 0.0079355 0.9978451 -0.0079355 0.9978451 -0.0079355 0.0021549 0.0079355
1216500000 0.0021751 0.0085886 0.9978249 -0.0085886 0.9978249 -0.0085886 0.0021751 0.0085886
1223750000 0.0021962 0.0092388 0.9978038 -0.0092388 0.9978038 -0.0092388 0.0021962 0.0092388
1231000000 0.0022181 0.0098861 0.9977819 -0.0098861 0.9977819 -0.0098861 0.0022181 0.0098861
1238250000 0.0022409 0.0105306 0.9977591 -0.0105306 0.9977591 -0.0105306 0.0022409 0.0105306
1245500000 0.0022646 0.0111722 0.9977354 -0.0111722 0.9977354 -0.0111722 0.0022646 0.0111722
1252750000 0.0022891 0.0118111 0.9977109 -0.0118111 0.9977109 -0.0118111 0.0022891 0.0118111
1260000000 0.0023145 0.0124474 0.9976855 -0.0124474 0.9976855 -0.0124474 0.0023145 0.0124474
1267250000 0.0023407 0.0130810 0.9976593 -0.0130810 0.9976593 -0.0130810 0.0023407 0.0130810
1274500000 0.0023677 0.0137121 0.9976323 -0.0137121 0.9976323 -0.0137121 0.0023677 0.0137121
1281750000 0.0023956 0.0143407 0.9976044 -0.0143407 0.9976044 -0.0143407 0.0023956 0.0143407
1289000000 0.0024242 0.0149668 0.9975758 -0.0149668 0.9975758 -0.0149668 0.0024242 0.0149668
1296250000 0.0024537 0.0155906 0.9975463 -0.0155906 0.9975463 -0.0155906 0.0024537 0.0155906
1303500000 0.0024840 0.0162120 0.9975160 -0.0162120 0.9975160 -0.0162120 0.0024840 0.0162120
1310750000 0.0025150 0.0168311 0.9974850 -0.0168311 0.9974850 -0.0168311 0.0025150 0.0168311
1318000000 0.0025469 0.0174479 0.9974531 -0.0174479 0.9974531 -0.0174479 0.0025469 0.0174479
1325250000 0.0025795 0.0180626 0.9974205 -0.0180626 0.9974205 -0.0180626 0.0025795 0.0180626
1332500000 0.0026129 0.0186751 0.9973871 -0.0186751 0.9973871 -0.0186751 0.0026129 0.0186751
1339750000 0.0026471 0.0192855 0.9973529 -0.0192855 0.9973529 -0.0192855 0.0026471 0.0192855
1347000000 0.0026820 0.0198939 0.9973180 -0.0198939 0.9973180 -0.0198939 0.0026820 0.0198939
1354250000 0.0027177 0.0205003 0.9972823 -0.0205003 0.9972823 -0.0205003 0.0027177 0.0205003
1361500000 0.0027542 0.0211047 0.9972458 -0.0211047 0.9972458 -0.0211047 0.0027542 0.0211047
1368750000 0.0027914 0.0217071 0.9972086 -0.0217071 0.9972086 -0.0217071 0.0027914 0.0217071
1376000000 0.0028294 0.0223077 0.9971706 -0.0223077 0.9971706 -0.0223077 0.0028294 0.0223077
1383250000 0.0028681 0.0229065 0.9971319 -0.0229065 0.9971319 -0.0229065 0.0028681 0.0229065
1390500000 0.0029076 0.0235034 0.9970924 -0.0235034 0.9970924 -0.0235034 0.0029076 0.0235034
1397750000 0.0029478 0.0240986 0.9970522 -0.0240986 0.9970522 -0.0240986 0.0029478 0.0240986
1405000000 0.0029887 0.0246921 0.9970113 -0.0246921 0.9970113 -0.0246921 0.0029887 0.0246921
1412250000 0.0030304 0.0252839 0.9969696 -0.0252839 0.9969696 -0.0252839 0.0030304 0.0252839
1419500000 0.0030728 0.0258741 0.9969272 -0.0258741 0.9969272 -0.0258741 0.0030728 0.0258741
1426750000 0.0031159 0.0264627 0.9968841 -0.0264627 0.9968841 -0.0264627 0.0031159 0.0264627
1434000000 0.0031598 0.0270497 0.9968402 -0.0270497 0.9968402 -0.0270497 0.0031598 0.0270497
1441250000 0.0032044 0.0276352 0.9967956 -0.0276352 0.9967956 -0.0276352 0.0032044 0.0276352
1448500000 0.0032497 0.0282192 0.9967503 -0.0282192 0.9967503 -0.0282192 0.0032497 0.0282192
1455750000 0.0032957 0.0288017 0.9967043 -0.0288017 0.9967043 -0.0288017 0.0032957 0.0288017
1463000000 0.0033425 0.0293829 0.9966575 -0.0293829 0.9966575 -0.0293829 0.0033425 0.0293829
1470250000 0.0033899 0.0299626 0.9966101 -0.0299626 0.9966101 -0.0299626 0.0033899 0.0299626
1477500000 0.0034381 0.0305410 0.9965619 -0.0305410 0.9965619 -0.0305410 0.0034381 0.0305410
1484750000 0.0034870 0.0311181 0.9965130 -0.0311181 0.9965130 -0.0311181 0.0034870 0.0311181
1492000000 0.0035366 0.0316938 0.9964634 -0.0316938 0.9964634 -0.0316938 0.0035366 0.0316938
1499250000 0.0035869 0.0322684 0.9964131 -0.0322684 0.9964131 -0.0322684 0.0035869 0.0322684
1506500000 0.0036380 0.0328417 0.9963620 -0.0328417 0.9963620 -0.0328417 0.0036380 0.0328417
1513750000 0.0036897 0.0334138 0.9963103 -0.0334138 0.9963103 -0.0334138 0.0036897 0.0334138
1521000000 0.0037422 0.0339848 0.9962578 -0.0339848 0.9962578 -0.0339848 0.0037422 0.0339848
1528250000 0.0037954 0.0345546 0.9962046 -0.0345546 0.9962046 -0.0345546 0.0037954 0.0345546
1535500000 0.0038492 0.0351233 0.9961508 -0.0351233 0.9961508 -0.0351233 0.0038492 0.0351233
1542750000 0.0039038 0.0356910 0.9960962 -0.0356910 0.9960962 -0.0356910 0.0039038 0.0356910
1550000000 0.0039591 0.0362576 0.9960409 -0.0362576 0.9960409 -0.0362576 0.0039591 0.0362576
1557250000 0.0040152 0.0368233 0.9959848 -0.0368233 0.9959848 -0.0368233 0.0040152 0.0368233
1564500000 0.0040719 0.0373879 0.9959281 -0.0373879 0.9959281 -0.0373879 0.0040719 0.0373879
1571750000 0.0041293 0.0379516 0.9958707 -0.0379516 0.9958707 -0.0379516 0.0041293 0.0379516
1579000000 0.0041875 0.0385143 0.9958125 -0.0385143 0.9958125 -0.0385143 0.0041875 0.0385143
1586250000 0.0042464 0.0390762 0.9957536 -0.0390762 0.9957536 -0.0390762 0.0042464 0.0390762
1593500000 0.0043059 0.0396372 0.9956941 -0.0396372 0.9956941 -0.0396372 0.0043059 0.0396372
1600750000 0.0043663 0.0401973 0.9956337 -0.0401973 0.9956337 -0.0401973 0.0043663 0.0401973
1608000000 0.0044273 0.0407567 0.9955727 -0.0407567 0.9955727 -0.0407567 0.0044273 0.0407567
1615250000 0.0044890 0.0413152 0.9955110 -0.0413152 0.9955110 -0.0413152 0.0044890 0.0413152
1622500000 0.0045515 0.0418730 0.9954485 -0.0418730 0.9954485 -0.0418730 0.0045515 0.0418730
1629750000 0.0046147 0.0424300 0.9953853 -0.0424300 0.9953853 -0.0424300 0.0046147 0.0424300
