!Murata Part Number: GRM31A5C3A220JW01
!These Parameters are Measured in Series Mode Connection
!Data Generated on Mar 30, 2021
!       o--ll--o
!Port1            Port2
!       o------o
!Operation Temp=25[degC], DC Bias Voltage=0[V]
!Freq. Start=100[MHz] Stop=3[GHz] 401[Steps]
# Hz S RI R 50
!Freq.(Hz) S11(Real) S11(Imag) S21(Real) S21(Imag) S12(Real) S12(Imag) S22(Real) S22(Imag)
100000000 0.3408195 -0.4728556 0.6591805 0.4728556 0.6591805 0.4728556 0.3408195 -0.4728556
107250000 0.3097664 -0.4611846 0.6902336 0.4611846 0.6902336 0.4611846 0.3097664 -0.4611846
114500000 0.2821687 -0.4487587 0.7178313 0.4487587 0.7178313 0.4487587 0.2821687 -0.4487587
121750000 0.2576300 -0.4359487 0.7423700 0.4359487 0.7423700 0.4359487 0.2576300 -0.4359487
129000000 0.2357860 -0.4230241 0.7642140 0.4230241 0.7642140 0.4230241 0.2357860 -0.4230241
136250000 0.2163090 -0.4101775 0.7836910 0.4101775 0.7836910 0.4101775 0.2163090 -0.4101775
143500000 0.1989084 -0.3975438 0.8010916 0.3975438 0.8010916 0.3975438 0.1989084 -0.3975438
150750000 0.1833290 -0.3852150 0.8166710 0.3852150 0.8166710 0.3852150 0.1833290 -0.3852150
158000000 0.1693477 -0.3732516 0.8306523 0.3732516 0.8306523 0.3732516 0.1693477 -0.3732516
165250000 0.1567706 -0.3616904 0.8432294 0.3616904 0.8432294 0.3616904 0.1567706 -0.3616904
172500000 0.1454290 -0.3505517 0.8545710 0.3505517 0.8545710 0.3505517 0.1454290 -0.3505517
179750000 0.1351767 -0.3398432 0.8648233 0.3398432 0.8648233 0.3398432 0.1351767 -0.3398432
187000000 0.1258867 -0.3295642 0.8741133 0.3295642 0.8741133 0.3295642 0.1258867 -0.3295642
194250000 0.1174486 -0.3197076 0.8825514 0.3197076 0.8825514 0.3197076 0.1174486 -0.3197076
201500000 0.1097666 -0.3102625 0.8902334 0.3102625 0.8902334 0.3102625 0.1097666 -0.3102625
208750000 0.1027571 -0.3012150 0.8972429 0.3012150 0.8972429 0.3012150 0.1027571 -0.3012150
216000000 0.0963472 -0.2925494 0.9036528 0.2925494 0.9036528 0.2925494 0.0963472 -0.2925494
223250000 0.0904731 -0.2842493 0.9095269 0.2842493 0.9095269 0.2842493 0.0904731 -0.2842493
230500000 0.0850790 -0.2762978 0.9149210 0.2762978 0.9149210 0.2762978 0.0850790 -0.2762978
237750000 0.0801158 -0.2686778 0.9198842 0.2686778 0.9198842 0.2686778 0.0801158 -0.2686778
245000000 0.0755404 -0.2613728 0.9244596 0.2613728 0.9244596 0.2613728 0.0755404 -0.2613728
252250000 0.0713147 -0.2543664 0.9286853 0.2543664 0.9286853 0.2543664 0.0713147 -0.2543664
259500000 0.0674051 -0.2476432 0.9325949 0.2476432 0.9325949 0.2476432 0.0674051 -0.2476432
266750000 0.0637817 -0.2411880 0.9362183 0.2411880 0.9362183 0.2411880 0.0637817 -0.2411880
274000000 0.0604180 -0.2349866 0.9395820 0.2349866 0.9395820 0.2349866 0.0604180 -0.2349866
281250000 0.0572906 -0.2290255 0.9427094 0.2290255 0.9427094 0.2290255 0.0572906 -0.2290255
288500000 0.0543783 -0.2232917 0.9456217 0.2232917 0.9456217 0.2232917 0.0543783 -0.2232917
295750000 0.0516625 -0.2177732 0.9483375 0.2177732 0.9483375 0.2177732 0.0516625 -0.2177732
303000000 0.0491262 -0.2124586 0.9508738 0.2124586 0.9508738 0.2124586 0.0491262 -0.2124586
310250000 0.0467545 -0.2073370 0.9532455 0.2073370 0.9532455 0.2073370 0.0467545 -0.2073370
317500000 0.0445337 -0.2023984 0.9554663 0.2023984 0.9554663 0.2023984 0.0445337 -0.2023984
324750000 0.0424516 -0.1976331 0.9575484 0.1976331 0.9575484 0.1976331 0.0424516 -0.1976331
332000000 0.0404972 -0.1930323 0.9595028 0.1930323 0.9595028 0.1930323 0.0404972 -0.1930323
339250000 0.0386606 -0.1885876 0.9613394 0.1885876 0.9613394 0.1885876 0.0386606 -0.1885876
346500000 0.0369327 -0.1842909 0.9630673 0.1842909 0.9630673 0.1842909 0.0369327 -0.1842909
353750000 0.0353054 -0.1801349 0.9646946 0.1801349 0.9646946 0.1801349 0.0353054 -0.1801349
361000000 0.0337711 -0.1761126 0.9662289 0.1761126 0.9662289 0.1761126 0.0337711 -0.1761126
368250000 0.0323231 -0.1722174 0.9676769 0.1722174 0.9676769 0.1722174 0.0323231 -0.1722174
375500000 0.0309553 -0.1684432 0.9690447 0.1684432 0.9690447 0.1684432 0.0309553 -0.1684432
382750000 0.0296620 -0.1647841 0.9703380 0.1647841 0.9703380 0.1647841 0.0296620 -0.1647841
390000000 0.0284380 -0.1612347 0.9715620 0.1612347 0.9715620 0.1612347 0.0284380 -0.1612347
397250000 0.0272786 -0.1577898 0.9727214 0.1577898 0.9727214 0.1577898 0.0272786 -0.1577898
404500000 0.0261796 -0.1544445 0.9738204 0.1544445 0.9738204 0.1544445 0.0261796 -0.1544445
411750000 0.0251368 -0.1511943 0.9748632 0.1511943 0.9748632 0.1511943 0.0251368 -0.1511943
419000000 0.0241468 -0.1480350 0.9758532 0.1480350 0.9758532 0.1480350 0.0241468 -0.1480350
426250000 0.0232060 -0.1449623 0.9767940 0.1449623 0.9767940 0.1449623 0.0232060 -0.1449623
433500000 0.0223115 -0.1419725 0.9776885 0.1419725 0.9776885 0.1419725 0.0223115 -0.1419725
440750000 0.0214603 -0.1390620 0.9785397 0.1390620 0.9785397 0.1390620 0.0214603 -0.1390620
448000000 0.0206498 -0.1362273 0.9793502 0.1362273 0.9793502 0.1362273 0.0206498 -0.1362273
455250000 0.0198776 -0.1334653 0.9801224 0.1334653 0.9801224 0.1334653 0.0198776 -0.1334653
462500000 0.0191414 -0.1307727 0.9808586 0.1307727 0.9808586 0.1307727 0.0191414 -0.1307727
469750000 0.0184390 -0.1281467 0.9815610 0.1281467 0.9815610 0.1281467 0.0184390 -0.1281467
477000000 0.0177687 -0.1255847 0.9822313 0.1255847 0.9822313 0.1255847 0.0177687 -0.1255847
484250000 0.0171284 -0.1230839 0.9828716 0.1230839 0.9828716 0.1230839 0.0171284 -0.1230839
491500000 0.0165166 -0.1206419 0.9834834 0.1206419 0.9834834 0.1206419 0.0165166 -0.1206419
498750000 0.0159317 -0.1182564 0.9840683 0.1182564 0.9840683 0.1182564 0.0159317 -0.1182564
506000000 0.0153722 -0.1159251 0.9846278 0.1159251 0.9846278 0.1159251 0.0153722 -0.1159251
513250000 0.0148368 -0.1136459 0.9851632 0.1136459 0.9851632 0.1136459 0.0148368 -0.1136459
520500000 0.0143242 -0.1114169 0.9856758 0.1114169 0.9856758 0.1114169 0.0143242 -0.1114169
527750000 0.0138331 -0.1092361 0.9861669 0.1092361 0.9861669 0.1092361 0.0138331 -0.1092361
535000000 0.0133626 -0.1071016 0.9866374 0.1071016 0.9866374 0.1071016 0.0133626 -0.1071016
542250000 0.0129115 -0.1050119 0.9870885 0.1050119 0.9870885 0.1050119 0.0129115 -0.1050119
549500000 0.0124789 -0.1029651 0.9875211 0.1029651 0.9875211 0.1029651 0.0124789 -0.1029651
556750000 0.0120639 -0.1009598 0.9879361 0.1009598 0.9879361 0.1009598 0.0120639 -0.1009598
564000000 0.0116655 -0.0989945 0.9883345 0.0989945 0.9883345 0.0989945 0.0116655 -0.0989945
571250000 0.0112831 -0.0970677 0.9887169 0.0970677 0.9887169 0.0970677 0.0112831 -0.0970677
578500000 0.0109158 -0.0951781 0.9890842 0.0951781 0.9890842 0.0951781 0.0109158 -0.0951781
585750000 0.0105629 -0.0933244 0.9894371 0.0933244 0.9894371 0.0933244 0.0105629 -0.0933244
593000000 0.0102239 -0.0915053 0.9897761 0.0915053 0.9897761 0.0915053 0.0102239 -0.0915053
600250000 0.0098979 -0.0897197 0.9901021 0.0897197 0.9901021 0.0897197 0.0098979 -0.0897197
607500000 0.0095845 -0.0879664 0.9904155 0.0879664 0.9904155 0.0879664 0.0095845 -0.0879664
614750000 0.0092831 -0.0862443 0.9907169 0.0862443 0.9907169 0.0862443 0.0092831 -0.0862443
622000000 0.0089931 -0.0845524 0.9910069 0.0845524 0.9910069 0.0845524 0.0089931 -0.0845524
629250000 0.0087141 -0.0828897 0.9912859 0.0828897 0.9912859 0.0828897 0.0087141 -0.0828897
636500000 0.0084456 -0.0812553 0.9915544 0.0812553 0.9915544 0.0812553 0.0084456 -0.0812553
643750000 0.0081871 -0.0796482 0.9918129 0.0796482 0.9918129 0.0796482 0.0081871 -0.0796482
651000000 0.0079382 -0.0780676 0.9920618 0.0780676 0.9920618 0.0780676 0.0079382 -0.0780676
658250000 0.0076986 -0.0765127 0.9923014 0.0765127 0.9923014 0.0765127 0.0076986 -0.0765127
665500000 0.0074678 -0.0749826 0.9925322 0.0749826 0.9925322 0.0749826 0.0074678 -0.0749826
672750000 0.0072454 -0.0734765 0.9927546 0.0734765 0.9927546 0.0734765 0.0072454 -0.0734765
680000000 0.0070312 -0.0719938 0.9929688 0.0719938 0.9929688 0.0719938 0.0070312 -0.0719938
687250000 0.0068249 -0.0705337 0.9931751 0.0705337 0.9931751 0.0705337 0.0068249 -0.0705337
694500000 0.0066260 -0.0690955 0.9933740 0.0690955 0.9933740 0.0690955 0.0066260 -0.0690955
701750000 0.0064344 -0.0676786 0.9935656 0.0676786 0.9935656 0.0676786 0.0064344 -0.0676786
709000000 0.0062498 -0.0662823 0.9937502 0.0662823 0.9937502 0.0662823 0.0062498 -0.0662823
716250000 0.0060718 -0.0649061 0.9939282 0.0649061 0.9939282 0.0649061 0.0060718 -0.0649061
723500000 0.0059003 -0.0635493 0.9940997 0.0635493 0.9940997 0.0635493 0.0059003 -0.0635493
730750000 0.0057349 -0.0622115 0.9942651 0.0622115 0.9942651 0.0622115 0.0057349 -0.0622115
738000000 0.0055756 -0.0608920 0.9944244 0.0608920 0.9944244 0.0608920 0.0055756 -0.0608920
745250000 0.0054220 -0.0595903 0.9945780 0.0595903 0.9945780 0.0595903 0.0054220 -0.0595903
752500000 0.0052740 -0.0583059 0.9947260 0.0583059 0.9947260 0.0583059 0.0052740 -0.0583059
759750000 0.0051313 -0.0570384 0.9948687 0.0570384 0.9948687 0.0570384 0.0051313 -0.0570384
767000000 0.0049938 -0.0557873 0.9950062 0.0557873 0.9950062 0.0557873 0.0049938 -0.0557873
774250000 0.0048613 -0.0545521 0.9951387 0.0545521 0.9951387 0.0545521 0.0048613 -0.0545521
781500000 0.0047336 -0.0533324 0.9952664 0.0533324 0.9952664 0.0533324 0.0047336 -0.0533324
788750000 0.0046106 -0.0521278 0.9953894 0.0521278 0.9953894 0.0521278 0.0046106 -0.0521278
796000000 0.0044921 -0.0509379 0.9955079 0.0509379 0.9955079 0.0509379 0.0044921 -0.0509379
803250000 0.0043780 -0.0497623 0.9956220 0.0497623 0.9956220 0.0497623 0.0043780 -0.0497623
810500000 0.0042681 -0.0486005 0.9957319 0.0486005 0.9957319 0.0486005 0.0042681 -0.0486005
817750000 0.0041623 -0.0474523 0.9958377 0.0474523 0.9958377 0.0474523 0.0041623 -0.0474523
825000000 0.0040605 -0.0463173 0.9959395 0.0463173 0.9959395 0.0463173 0.0040605 -0.0463173
832250000 0.0039625 -0.0451952 0.9960375 0.0451952 0.9960375 0.0451952 0.0039625 -0.0451952
839500000 0.0038682 -0.0440856 0.9961318 0.0440856 0.9961318 0.0440856 0.0038682 -0.0440856
846750000 0.0037775 -0.0429882 0.9962225 0.0429882 0.9962225 0.0429882 0.0037775 -0.0429882
854000000 0.0036903 -0.0419026 0.9963097 0.0419026 0.9963097 0.0419026 0.0036903 -0.0419026
861250000 0.0036065 -0.0408287 0.9963935 0.0408287 0.9963935 0.0408287 0.0036065 -0.0408287
868500000 0.0035260 -0.0397661 0.9964740 0.0397661 0.9964740 0.0397661 0.0035260 -0.0397661
875750000 0.0034487 -0.0387146 0.9965513 0.0387146 0.9965513 0.0387146 0.0034487 -0.0387146
883000000 0.0033745 -0.0376737 0.9966255 0.0376737 0.9966255 0.0376737 0.0033745 -0.0376737
890250000 0.0033033 -0.0366434 0.9966967 0.0366434 0.9966967 0.0366434 0.0033033 -0.0366434
897500000 0.0032350 -0.0356234 0.9967650 0.0356234 0.9967650 0.0356234 0.0032350 -0.0356234
904750000 0.0031696 -0.0346133 0.9968304 0.0346133 0.9968304 0.0346133 0.0031696 -0.0346133
912000000 0.0031070 -0.0336130 0.9968930 0.0336130 0.9968930 0.0336130 0.0031070 -0.0336130
919250000 0.0030471 -0.0326222 0.9969529 0.0326222 0.9969529 0.0326222 0.0030471 -0.0326222
926500000 0.0029898 -0.0316408 0.9970102 0.0316408 0.9970102 0.0316408 0.0029898 -0.0316408
933750000 0.0029350 -0.0306684 0.9970650 0.0306684 0.9970650 0.0306684 0.0029350 -0.0306684
941000000 0.0028828 -0.0297049 0.9971172 0.0297049 0.9971172 0.0297049 0.0028828 -0.0297049
948250000 0.0028330 -0.0287501 0.9971670 0.0287501 0.9971670 0.0287501 0.0028330 -0.0287501
955500000 0.0027855 -0.0278037 0.9972145 0.0278037 0.9972145 0.0278037 0.0027855 -0.0278037
962750000 0.0027404 -0.0268656 0.9972596 0.0268656 0.9972596 0.0268656 0.0027404 -0.0268656
970000000 0.0026975 -0.0259356 0.9973025 0.0259356 0.9973025 0.0259356 0.0026975 -0.0259356
977250000 0.0026567 -0.0250136 0.9973433 0.0250136 0.9973433 0.0250136 0.0026567 -0.0250136
984500000 0.0026182 -0.0240992 0.9973818 0.0240992 0.9973818 0.0240992 0.0026182 -0.0240992
991750000 0.0025817 -0.0231924 0.9974183 0.0231924 0.9974183 0.0231924 0.0025817 -0.0231924
999000000 0.0025473 -0.0222930 0.9974527 0.0222930 0.9974527 0.0222930 0.0025473 -0.0222930
1006250000 0.0025148 -0.0214009 0.9974852 0.0214009 0.9974852 0.0214009 0.0025148 -0.0214009
1013500000 0.0024844 -0.0205158 0.9975156 0.0205158 0.9975156 0.0205158 0.0024844 -0.0205158
1020750000 0.0024558 -0.0196376 0.9975442 0.0196376 0.9975442 0.0196376 0.0024558 -0.0196376
1028000000 0.0024291 -0.0187662 0.9975709 0.0187662 0.9975709 0.0187662 0.0024291 -0.0187662
1035250000 0.0024042 -0.0179015 0.9975958 0.0179015 0.9975958 0.0179015 0.0024042 -0.0179015
1042500000 0.0023811 -0.0170432 0.9976189 0.0170432 0.9976189 0.0170432 0.0023811 -0.0170432
1049750000 0.0023597 -0.0161912 0.9976403 0.0161912 0.9976403 0.0161912 0.0023597 -0.0161912
1057000000 0.0023401 -0.0153454 0.9976599 0.0153454 0.9976599 0.0153454 0.0023401 -0.0153454
1064250000 0.0023221 -0.0145058 0.9976779 0.0145058 0.9976779 0.0145058 0.0023221 -0.0145058
1071500000 0.0023058 -0.0136720 0.9976942 0.0136720 0.9976942 0.0136720 0.0023058 -0.0136720
1078750000 0.0022910 -0.0128441 0.9977090 0.0128441 0.9977090 0.0128441 0.0022910 -0.0128441
1086000000 0.0022779 -0.0120219 0.9977221 0.0120219 0.9977221 0.0120219 0.0022779 -0.0120219
1093250000 0.0022663 -0.0112053 0.9977337 0.0112053 0.9977337 0.0112053 0.0022663 -0.0112053
1100500000 0.0022562 -0.0103942 0.9977438 0.0103942 0.9977438 0.0103942 0.0022562 -0.0103942
1107750000 0.0022476 -0.0095884 0.9977524 0.0095884 0.9977524 0.0095884 0.0022476 -0.0095884
1115000000 0.0022404 -0.0087879 0.9977596 0.0087879 0.9977596 0.0087879 0.0022404 -0.0087879
1122250000 0.0022347 -0.0079925 0.9977653 0.0079925 0.9977653 0.0079925 0.0022347 -0.0079925
1129500000 0.0022304 -0.0072021 0.9977696 0.0072021 0.9977696 0.0072021 0.0022304 -0.0072021
1136750000 0.0022275 -0.0064167 0.9977725 0.0064167 0.9977725 0.0064167 0.0022275 -0.0064167
1144000000 0.0022259 -0.0056362 0.9977741 0.0056362 0.9977741 0.0056362 0.0022259 -0.0056362
1151250000 0.0022256 -0.0048603 0.9977744 0.0048603 0.9977744 0.0048603 0.0022256 -0.0048603
1158500000 0.0022267 -0.0040891 0.9977733 0.0040891 0.9977733 0.0040891 0.0022267 -0.0040891
1165750000 0.0022291 -0.0033225 0.9977709 0.0033225 0.9977709 0.0033225 0.0022291 -0.0033225
1173000000 0.0022327 -0.0025603 0.9977673 0.0025603 0.9977673 0.0025603 0.0022327 -0.0025603
1180250000 0.0022376 -0.0018026 0.9977624 0.0018026 0.9977624 0.0018026 0.0022376 -0.0018026
1187500000 0.0022437 -0.0010491 0.9977563 0.0010491 0.9977563 0.0010491 0.0022437 -0.0010491
1194750000 0.0022510 -0.0002998 0.9977490 0.0002998 0.9977490 0.0002998 0.0022510 -0.0002998
1202000000 0.0022595 0.0004454 0.9977405 -0.0004454 0.9977405 -0.0004454 0.0022595 0.0004454
1209250000 0.0022692 0.0011865 0.9977308 -0.0011865 0.9977308 -0.0011865 0.0022692 0.0011865
1216500000 0.0022800 0.0019236 0.9977200 -0.0019236 0.9977200 -0.0019236 0.0022800 0.0019236
1223750000 0.0022920 0.0026569 0.9977080 -0.0026569 0.9977080 -0.0026569 0.0022920 0.0026569
1231000000 0.0023051 0.0033863 0.9976949 -0.0033863 0.9976949 -0.0033863 0.0023051 0.0033863
1238250000 0.0023193 0.0041120 0.9976807 -0.0041120 0.9976807 -0.0041120 0.0023193 0.0041120
1245500000 0.0023346 0.0048341 0.9976654 -0.0048341 0.9976654 -0.0048341 0.0023346 0.0048341
1252750000 0.0023510 0.0055525 0.9976490 -0.0055525 0.9976490 -0.0055525 0.0023510 0.0055525
1260000000 0.0023684 0.0062674 0.9976316 -0.0062674 0.9976316 -0.0062674 0.0023684 0.0062674
1267250000 0.0023869 0.0069788 0.9976131 -0.0069788 0.9976131 -0.0069788 0.0023869 0.0069788
1274500000 0.0024064 0.0076868 0.9975936 -0.0076868 0.9975936 -0.0076868 0.0024064 0.0076868
1281750000 0.0024270 0.0083915 0.9975730 -0.0083915 0.9975730 -0.0083915 0.0024270 0.0083915
1289000000 0.0024485 0.0090929 0.9975515 -0.0090929 0.9975515 -0.0090929 0.0024485 0.0090929
1296250000 0.0024711 0.0097910 0.9975289 -0.0097910 0.9975289 -0.0097910 0.0024711 0.0097910
1303500000 0.0024946 0.0104861 0.9975054 -0.0104861 0.9975054 -0.0104861 0.0024946 0.0104861
1310750000 0.0025191 0.0111780 0.9974809 -0.0111780 0.9974809 -0.0111780 0.0025191 0.0111780
1318000000 0.0025446 0.0118669 0.9974554 -0.0118669 0.9974554 -0.0118669 0.0025446 0.0118669
1325250000 0.0025711 0.0125528 0.9974289 -0.0125528 0.9974289 -0.0125528 0.0025711 0.0125528
1332500000 0.0025984 0.0132358 0.9974016 -0.0132358 0.9974016 -0.0132358 0.0025984 0.0132358
1339750000 0.0026267 0.0139159 0.9973733 -0.0139159 0.9973733 -0.0139159 0.0026267 0.0139159
1347000000 0.0026560 0.0145932 0.9973440 -0.0145932 0.9973440 -0.0145932 0.0026560 0.0145932
1354250000 0.0026861 0.0152677 0.9973139 -0.0152677 0.9973139 -0.0152677 0.0026861 0.0152677
1361500000 0.0027172 0.0159395 0.9972828 -0.0159395 0.9972828 -0.0159395 0.0027172 0.0159395
1368750000 0.0027491 0.0166087 0.9972509 -0.0166087 0.9972509 -0.0166087 0.0027491 0.0166087
1376000000 0.0027820 0.0172752 0.9972180 -0.0172752 0.9972180 -0.0172752 0.0027820 0.0172752
1383250000 0.0028157 0.0179392 0.9971843 -0.0179392 0.9971843 -0.0179392 0.0028157 0.0179392
1390500000 0.0028503 0.0186006 0.9971497 -0.0186006 0.9971497 -0.0186006 0.0028503 0.0186006
1397750000 0.0028858 0.0192595 0.9971142 -0.0192595 0.9971142 -0.0192595 0.0028858 0.0192595
1405000000 0.0029221 0.0199161 0.9970779 -0.0199161 0.9970779 -0.0199161 0.0029221 0.0199161
1412250000 0.0029593 0.0205702 0.9970407 -0.0205702 0.9970407 -0.0205702 0.0029593 0.0205702
1419500000 0.0029973 0.0212220 0.9970027 -0.0212220 0.9970027 -0.0212220 0.0029973 0.0212220
1426750000 0.0030362 0.0218715 0.9969638 -0.0218715 0.9969638 -0.0218715 0.0030362 0.0218715
1434000000 0.0030758 0.0225187 0.9969242 -0.0225187 0.9969242 -0.0225187 0.0030758 0.0225187
1441250000 0.0031164 0.0231637 0.9968836 -0.0231637 0.9968836 -0.0231637 0.0031164 0.0231637
1448500000 0.0031577 0.0238066 0.9968423 -0.0238066 0.9968423 -0.0238066 0.0031577 0.0238066
1455750000 0.0031998 0.0244473 0.9968002 -0.0244473 0.9968002 -0.0244473 0.0031998 0.0244473
1463000000 0.0032428 0.0250859 0.9967572 -0.0250859 0.9967572 -0.0250859 0.0032428 0.0250859
1470250000 0.0032866 0.0257224 0.9967134 -0.0257224 0.9967134 -0.0257224 0.0032866 0.0257224
1477500000 0.0033311 0.0263570 0.9966689 -0.0263570 0.9966689 -0.0263570 0.0033311 0.0263570
1484750000 0.0033765 0.0269895 0.9966235 -0.0269895 0.9966235 -0.0269895 0.0033765 0.0269895
1492000000 0.0034226 0.0276201 0.9965774 -0.0276201 0.9965774 -0.0276201 0.0034226 0.0276201
1499250000 0.0034695 0.0282488 0.9965305 -0.0282488 0.9965305 -0.0282488 0.0034695 0.0282488
1506500000 0.0035172 0.0288756 0.9964828 -0.0288756 0.9964828 -0.0288756 0.0035172 0.0288756
1513750000 0.0035657 0.0295005 0.9964343 -0.0295005 0.9964343 -0.0295005 0.0035657 0.0295005
1521000000 0.0036150 0.0301237 0.9963850 -0.0301237 0.9963850 -0.0301237 0.0036150 0.0301237
1528250000 0.0036650 0.0307450 0.9963350 -0.0307450 0.9963350 -0.0307450 0.0036650 0.0307450
1535500000 0.0037158 0.0313646 0.9962842 -0.0313646 0.9962842 -0.0313646 0.0037158 0.0313646
1542750000 0.0037673 0.0319826 0.9962327 -0.0319826 0.9962327 -0.0319826 0.0037673 0.0319826
1550000000 0.0038196 0.0325988 0.9961804 -0.0325988 0.9961804 -0.0325988 0.0038196 0.0325988
1557250000 0.0038727 0.0332134 0.9961273 -0.0332134 0.9961273 -0.0332134 0.0038727 0.0332134
1564500000 0.0039265 0.0338263 0.9960735 -0.0338263 0.9960735 -0.0338263 0.0039265 0.0338263
1571750000 0.0039810 0.0344377 0.9960190 -0.0344377 0.9960190 -0.0344377 0.0039810 0.0344377
1579000000 0.0040363 0.0350475 0.9959637 -0.0350475 0.9959637 -0.0350475 0.0040363 0.0350475
1586250000 0.0040924 0.0356558 0.9959076 -0.0356558 0.9959076 -0.0356558 0.0040924 0.0356558
1593500000 0.0041492 0.0362626 0.9958508 -0.0362626 0.9958508 -0.0362626 0.0041492 0.0362626
1600750000 0.0042067 0.0368679 0.9957933 -0.0368679 0.9957933 -0.0368679 0.0042067 0.0368679
1608000000 0.0042650 0.0374718 0.9957350 -0.0374718 0.9957350 -0.0374718 0.0042650 0.0374718
1615250000 0.0043239 0.0380743 0.9956761 -0.0380743 0.9956761 -0.0380743 0.0043239 0.0380743
1622500000 0.0043837 0.0386753 0.9956163 -0.0386753 0.9956163 -0.0386753 0.0043837 0.0386753
1629750000 0.0044441 0.0392750 0.9955559 -0.0392750 0.9955559 -0.0392750 0.0044441 0.0392750
