!Murata Part Number: GRM3192C2A153JA01
!These Parameters are Measured in Series Mode Connection
!Data Generated on Mar 30, 2021
!       o--ll--o
!Port1            Port2
!       o------o
!Operation Temp=25[degC], DC Bias Voltage=0[V]
!Freq. Start=1000[kHz] Stop=6[GHz] 401[Steps]
# Hz S RI R 50
!Freq.(Hz) S11(Real) S11(Imag) S21(Real) S21(Imag) S12(Real) S12(Imag) S22(Real) S22(Imag)
1000000 0.0109186 -0.1034834 0.9890814 0.1034834 0.9890814 0.1034834 0.0109186 -0.1034834
1021987 0.0104621 -0.1013016 0.9895379 0.1013016 0.9895379 0.1013016 0.0104621 -0.1013016
1044457 0.0100246 -0.0991637 0.9899754 0.0991637 0.9899754 0.0991637 0.0100246 -0.0991637
1067422 0.0096054 -0.0970690 0.9903946 0.0970690 0.9903946 0.0970690 0.0096054 -0.0970690
1090891 0.0092037 -0.0950168 0.9907963 0.0950168 0.9907963 0.0950168 0.0092037 -0.0950168
1114877 0.0088187 -0.0930063 0.9911813 0.0930063 0.9911813 0.0930063 0.0088187 -0.0930063
1139390 0.0084499 -0.0910367 0.9915501 0.0910367 0.9915501 0.0910367 0.0084499 -0.0910367
1164441 0.0080966 -0.0891073 0.9919034 0.0891073 0.9919034 0.0891073 0.0080966 -0.0891073
1190044 0.0077580 -0.0872174 0.9922420 0.0872174 0.9922420 0.0872174 0.0077580 -0.0872174
1216210 0.0074336 -0.0853662 0.9925664 0.0853662 0.9925664 0.0853662 0.0074336 -0.0853662
1242950 0.0071229 -0.0835530 0.9928771 0.0835530 0.9928771 0.0835530 0.0071229 -0.0835530
1270279 0.0068251 -0.0817772 0.9931749 0.0817772 0.9931749 0.0817772 0.0068251 -0.0817772
1298209 0.0065399 -0.0800380 0.9934601 0.0800380 0.9934601 0.0800380 0.0065399 -0.0800380
1326753 0.0062667 -0.0783346 0.9937333 0.0783346 0.9937333 0.0783346 0.0062667 -0.0783346
1355924 0.0060050 -0.0766665 0.9939950 0.0766665 0.9939950 0.0766665 0.0060050 -0.0766665
1385737 0.0057543 -0.0750330 0.9942457 0.0750330 0.9942457 0.0750330 0.0057543 -0.0750330
1416205 0.0055141 -0.0734333 0.9944859 0.0734333 0.9944859 0.0734333 0.0055141 -0.0734333
1447343 0.0052840 -0.0718669 0.9947160 0.0718669 0.9947160 0.0718669 0.0052840 -0.0718669
1479166 0.0050637 -0.0703331 0.9949363 0.0703331 0.9949363 0.0703331 0.0050637 -0.0703331
1511688 0.0048526 -0.0688312 0.9951474 0.0688312 0.9951474 0.0688312 0.0048526 -0.0688312
1544926 0.0046505 -0.0673606 0.9953495 0.0673606 0.9953495 0.0673606 0.0046505 -0.0673606
1578894 0.0044568 -0.0659207 0.9955432 0.0659207 0.9955432 0.0659207 0.0044568 -0.0659207
1613609 0.0042714 -0.0645110 0.9957286 0.0645110 0.9957286 0.0645110 0.0042714 -0.0645110
1649087 0.0040937 -0.0631307 0.9959063 0.0631307 0.9959063 0.0631307 0.0040937 -0.0631307
1685346 0.0039236 -0.0617793 0.9960764 0.0617793 0.9960764 0.0617793 0.0039236 -0.0617793
1722402 0.0037607 -0.0604563 0.9962393 0.0604563 0.9962393 0.0604563 0.0037607 -0.0604563
1760272 0.0036046 -0.0591610 0.9963954 0.0591610 0.9963954 0.0591610 0.0036046 -0.0591610
1798975 0.0034552 -0.0578929 0.9965448 0.0578929 0.9965448 0.0578929 0.0034552 -0.0578929
1838529 0.0033120 -0.0566514 0.9966880 0.0566514 0.9966880 0.0566514 0.0033120 -0.0566514
1878953 0.0031750 -0.0554361 0.9968250 0.0554361 0.9968250 0.0554361 0.0031750 -0.0554361
1920266 0.0030437 -0.0542463 0.9969563 0.0542463 0.9969563 0.0542463 0.0030437 -0.0542463
1962487 0.0029180 -0.0530816 0.9970820 0.0530816 0.9970820 0.0530816 0.0029180 -0.0530816
2005636 0.0027976 -0.0519414 0.9972024 0.0519414 0.9972024 0.0519414 0.0027976 -0.0519414
2049734 0.0026823 -0.0508253 0.9973177 0.0508253 0.9973177 0.0508253 0.0026823 -0.0508253
2094801 0.0025719 -0.0497327 0.9974281 0.0497327 0.9974281 0.0497327 0.0025719 -0.0497327
2140860 0.0024662 -0.0486632 0.9975338 0.0486632 0.9975338 0.0486632 0.0024662 -0.0486632
2187931 0.0023649 -0.0476162 0.9976351 0.0476162 0.9976351 0.0476162 0.0023649 -0.0476162
2236037 0.0022680 -0.0465914 0.9977320 0.0465914 0.9977320 0.0465914 0.0022680 -0.0465914
2285201 0.0021751 -0.0455882 0.9978249 0.0455882 0.9978249 0.0455882 0.0021751 -0.0455882
2335446 0.0020862 -0.0446062 0.9979138 0.0446062 0.9979138 0.0446062 0.0020862 -0.0446062
2386795 0.0020011 -0.0436450 0.9979989 0.0436450 0.9979989 0.0436450 0.0020011 -0.0436450
2439274 0.0019196 -0.0427041 0.9980804 0.0427041 0.9980804 0.0427041 0.0019196 -0.0427041
2492906 0.0018415 -0.0417831 0.9981585 0.0417831 0.9981585 0.0417831 0.0018415 -0.0417831
2547717 0.0017668 -0.0408815 0.9982332 0.0408815 0.9982332 0.0408815 0.0017668 -0.0408815
2603734 0.0016952 -0.0399991 0.9983048 0.0399991 0.9983048 0.0399991 0.0016952 -0.0399991
2660982 0.0016267 -0.0391354 0.9983733 0.0391354 0.9983733 0.0391354 0.0016267 -0.0391354
2719490 0.0015611 -0.0382899 0.9984389 0.0382899 0.9984389 0.0382899 0.0015611 -0.0382899
2779283 0.0014983 -0.0374623 0.9985017 0.0374623 0.9985017 0.0374623 0.0014983 -0.0374623
2840391 0.0014381 -0.0366522 0.9985619 0.0366522 0.9985619 0.0366522 0.0014381 -0.0366522
2902843 0.0013806 -0.0358593 0.9986194 0.0358593 0.9986194 0.0358593 0.0013806 -0.0358593
2966668 0.0013254 -0.0350832 0.9986746 0.0350832 0.9986746 0.0350832 0.0013254 -0.0350832
3031896 0.0012726 -0.0343235 0.9987274 0.0343235 0.9987274 0.0343235 0.0012726 -0.0343235
3098558 0.0012221 -0.0335799 0.9987779 0.0335799 0.9987779 0.0335799 0.0012221 -0.0335799
3166686 0.0011737 -0.0328520 0.9988263 0.0328520 0.9988263 0.0328520 0.0011737 -0.0328520
3236312 0.0011274 -0.0321396 0.9988726 0.0321396 0.9988726 0.0321396 0.0011274 -0.0321396
3307469 0.0010830 -0.0314422 0.9989170 0.0314422 0.9989170 0.0314422 0.0010830 -0.0314422
3380190 0.0010405 -0.0307596 0.9989595 0.0307596 0.9989595 0.0307596 0.0010405 -0.0307596
3454511 0.0009999 -0.0300914 0.9990001 0.0300914 0.9990001 0.0300914 0.0009999 -0.0300914
3530465 0.0009610 -0.0294373 0.9990390 0.0294373 0.9990390 0.0294373 0.0009610 -0.0294373
3608090 0.0009237 -0.0287970 0.9990763 0.0287970 0.9990763 0.0287970 0.0009237 -0.0287970
3687421 0.0008881 -0.0281703 0.9991119 0.0281703 0.9991119 0.0281703 0.0008881 -0.0281703
3768496 0.0008539 -0.0275569 0.9991461 0.0275569 0.9991461 0.0275569 0.0008539 -0.0275569
3851354 0.0008213 -0.0269563 0.9991787 0.0269563 0.9991787 0.0269563 0.0008213 -0.0269563
3936034 0.0007900 -0.0263685 0.9992100 0.0263685 0.9992100 0.0263685 0.0007900 -0.0263685
4022575 0.0007600 -0.0257931 0.9992400 0.0257931 0.9992400 0.0257931 0.0007600 -0.0257931
4111020 0.0007314 -0.0252298 0.9992686 0.0252298 0.9992686 0.0252298 0.0007314 -0.0252298
4201409 0.0007039 -0.0246783 0.9992961 0.0246783 0.9992961 0.0246783 0.0007039 -0.0246783
4293785 0.0006777 -0.0241385 0.9993223 0.0241385 0.9993223 0.0241385 0.0006777 -0.0241385
4388193 0.0006526 -0.0236101 0.9993474 0.0236101 0.9993474 0.0236101 0.0006526 -0.0236101
4484676 0.0006285 -0.0230928 0.9993715 0.0230928 0.9993715 0.0230928 0.0006285 -0.0230928
4583281 0.0006055 -0.0225863 0.9993945 0.0225863 0.9993945 0.0225863 0.0006055 -0.0225863
4684054 0.0005835 -0.0220905 0.9994165 0.0220905 0.9994165 0.0220905 0.0005835 -0.0220905
4787042 0.0005624 -0.0216051 0.9994376 0.0216051 0.9994376 0.0216051 0.0005624 -0.0216051
4892295 0.0005423 -0.0211299 0.9994577 0.0211299 0.9994577 0.0211299 0.0005423 -0.0211299
4999862 0.0005230 -0.0206646 0.9994770 0.0206646 0.9994770 0.0206646 0.0005230 -0.0206646
5109794 0.0005046 -0.0202091 0.9994954 0.0202091 0.9994954 0.0202091 0.0005046 -0.0202091
5222143 0.0004869 -0.0197631 0.9995131 0.0197631 0.9995131 0.0197631 0.0004869 -0.0197631
5336962 0.0004700 -0.0193265 0.9995300 0.0193265 0.9995300 0.0193265 0.0004700 -0.0193265
5454306 0.0004539 -0.0188989 0.9995461 0.0188989 0.9995461 0.0188989 0.0004539 -0.0188989
5574230 0.0004385 -0.0184803 0.9995615 0.0184803 0.9995615 0.0184803 0.0004385 -0.0184803
5696791 0.0004237 -0.0180704 0.9995763 0.0180704 0.9995763 0.0180704 0.0004237 -0.0180704
5822046 0.0004096 -0.0176690 0.9995904 0.0176690 0.9995904 0.0176690 0.0004096 -0.0176690
5950055 0.0003961 -0.0172759 0.9996039 0.0172759 0.9996039 0.0172759 0.0003961 -0.0172759
6080879 0.0003832 -0.0168911 0.9996168 0.0168911 0.9996168 0.0168911 0.0003832 -0.0168911
6214580 0.0003709 -0.0165141 0.9996291 0.0165141 0.9996291 0.0165141 0.0003709 -0.0165141
6351220 0.0003591 -0.0161450 0.9996409 0.0161450 0.9996409 0.0161450 0.0003591 -0.0161450
6490864 0.0003478 -0.0157835 0.9996522 0.0157835 0.9996522 0.0157835 0.0003478 -0.0157835
6633579 0.0003371 -0.0154295 0.9996629 0.0154295 0.9996629 0.0154295 0.0003371 -0.0154295
6779431 0.0003268 -0.0150827 0.9996732 0.0150827 0.9996732 0.0150827 0.0003268 -0.0150827
6928491 0.0003170 -0.0147431 0.9996830 0.0147431 0.9996830 0.0147431 0.0003170 -0.0147431
7080828 0.0003077 -0.0144105 0.9996923 0.0144105 0.9996923 0.0144105 0.0003077 -0.0144105
7236514 0.0002987 -0.0140846 0.9997013 0.0140846 0.9997013 0.0140846 0.0002987 -0.0140846
7395623 0.0002902 -0.0137654 0.9997098 0.0137654 0.9997098 0.0137654 0.0002902 -0.0137654
7558231 0.0002821 -0.0134527 0.9997179 0.0134527 0.9997179 0.0134527 0.0002821 -0.0134527
7724414 0.0002744 -0.0131464 0.9997256 0.0131464 0.9997256 0.0131464 0.0002744 -0.0131464
7894251 0.0002670 -0.0128463 0.9997330 0.0128463 0.9997330 0.0128463 0.0002670 -0.0128463
8067822 0.0002599 -0.0125523 0.9997401 0.0125523 0.9997401 0.0125523 0.0002599 -0.0125523
8245209 0.0002532 -0.0122642 0.9997468 0.0122642 0.9997468 0.0122642 0.0002532 -0.0122642
8426497 0.0002469 -0.0119819 0.9997531 0.0119819 0.9997531 0.0119819 0.0002469 -0.0119819
8611770 0.0002408 -0.0117053 0.9997592 0.0117053 0.9997592 0.0117053 0.0002408 -0.0117053
8801117 0.0002350 -0.0114342 0.9997650 0.0114342 0.9997650 0.0114342 0.0002350 -0.0114342
8994628 0.0002296 -0.0111685 0.9997704 0.0111685 0.9997704 0.0111685 0.0002296 -0.0111685
9192393 0.0002244 -0.0109081 0.9997756 0.0109081 0.9997756 0.0109081 0.0002244 -0.0109081
9394506 0.0002194 -0.0106529 0.9997806 0.0106529 0.9997806 0.0106529 0.0002194 -0.0106529
9601063 0.0002148 -0.0104028 0.9997852 0.0104028 0.9997852 0.0104028 0.0002148 -0.0104028
9812162 0.0002103 -0.0101575 0.9997897 0.0101575 0.9997897 0.0101575 0.0002103 -0.0101575
10027902 0.0002061 -0.0099171 0.9997939 0.0099171 0.9997939 0.0099171 0.0002061 -0.0099171
10248386 0.0002022 -0.0096814 0.9997978 0.0096814 0.9997978 0.0096814 0.0002022 -0.0096814
10473717 0.0001984 -0.0094502 0.9998016 0.0094502 0.9998016 0.0094502 0.0001984 -0.0094502
10704003 0.0001949 -0.0092236 0.9998051 0.0092236 0.9998051 0.0092236 0.0001949 -0.0092236
10939352 0.0001916 -0.0090013 0.9998084 0.0090013 0.9998084 0.0090013 0.0001916 -0.0090013
11179876 0.0001885 -0.0087833 0.9998115 0.0087833 0.9998115 0.0087833 0.0001885 -0.0087833
11425688 0.0001855 -0.0085695 0.9998145 0.0085695 0.9998145 0.0085695 0.0001855 -0.0085695
11676904 0.0001828 -0.0083597 0.9998172 0.0083597 0.9998172 0.0083597 0.0001828 -0.0083597
11933645 0.0001802 -0.0081539 0.9998198 0.0081539 0.9998198 0.0081539 0.0001802 -0.0081539
12196030 0.0001778 -0.0079520 0.9998222 0.0079520 0.9998222 0.0079520 0.0001778 -0.0079520
12464184 0.0001756 -0.0077538 0.9998244 0.0077538 0.9998244 0.0077538 0.0001756 -0.0077538
12738235 0.0001736 -0.0075594 0.9998264 0.0075594 0.9998264 0.0075594 0.0001736 -0.0075594
13018310 0.0001717 -0.0073685 0.9998283 0.0073685 0.9998283 0.0073685 0.0001717 -0.0073685
13304544 0.0001699 -0.0071812 0.9998301 0.0071812 0.9998301 0.0071812 0.0001699 -0.0071812
13597071 0.0001683 -0.0069973 0.9998317 0.0069973 0.9998317 0.0069973 0.0001683 -0.0069973
13896030 0.0001669 -0.0068167 0.9998331 0.0068167 0.9998331 0.0068167 0.0001669 -0.0068167
14201563 0.0001656 -0.0066393 0.9998344 0.0066393 0.9998344 0.0066393 0.0001656 -0.0066393
14513813 0.0001644 -0.0064652 0.9998356 0.0064652 0.9998356 0.0064652 0.0001644 -0.0064652
14832928 0.0001634 -0.0062941 0.9998366 0.0062941 0.9998366 0.0062941 0.0001634 -0.0062941
15159060 0.0001625 -0.0061260 0.9998375 0.0061260 0.9998375 0.0061260 0.0001625 -0.0061260
15492362 0.0001617 -0.0059609 0.9998383 0.0059609 0.9998383 0.0059609 0.0001617 -0.0059609
15832993 0.0001610 -0.0057986 0.9998390 0.0057986 0.9998390 0.0057986 0.0001610 -0.0057986
16181113 0.0001605 -0.0056390 0.9998395 0.0056390 0.9998395 0.0056390 0.0001605 -0.0056390
16536888 0.0001601 -0.0054822 0.9998399 0.0054822 0.9998399 0.0054822 0.0001601 -0.0054822
16900485 0.0001597 -0.0053280 0.9998403 0.0053280 0.9998403 0.0053280 0.0001597 -0.0053280
17272076 0.0001595 -0.0051764 0.9998405 0.0051764 0.9998405 0.0051764 0.0001595 -0.0051764
17651837 0.0001594 -0.0050272 0.9998406 0.0050272 0.9998406 0.0050272 0.0001594 -0.0050272
18039948 0.0001594 -0.0048805 0.9998406 0.0048805 0.9998406 0.0048805 0.0001594 -0.0048805
18436593 0.0001596 -0.0047361 0.9998404 0.0047361 0.9998404 0.0047361 0.0001596 -0.0047361
18841959 0.0001598 -0.0045940 0.9998402 0.0045940 0.9998402 0.0045940 0.0001598 -0.0045940
19256237 0.0001601 -0.0044541 0.9998399 0.0044541 0.9998399 0.0044541 0.0001601 -0.0044541
19679624 0.0001605 -0.0043164 0.9998395 0.0043164 0.9998395 0.0043164 0.0001605 -0.0043164
20112321 0.0001610 -0.0041808 0.9998390 0.0041808 0.9998390 0.0041808 0.0001610 -0.0041808
20554530 0.0001615 -0.0040471 0.9998385 0.0040471 0.9998385 0.0040471 0.0001615 -0.0040471
21006463 0.0001622 -0.0039155 0.9998378 0.0039155 0.9998378 0.0039155 0.0001622 -0.0039155
21468333 0.0001630 -0.0037857 0.9998370 0.0037857 0.9998370 0.0037857 0.0001630 -0.0037857
21940357 0.0001638 -0.0036578 0.9998362 0.0036578 0.9998362 0.0036578 0.0001638 -0.0036578
22422760 0.0001647 -0.0035316 0.9998353 0.0035316 0.9998353 0.0035316 0.0001647 -0.0035316
22915770 0.0001657 -0.0034072 0.9998343 0.0034072 0.9998343 0.0034072 0.0001657 -0.0034072
23419619 0.0001668 -0.0032844 0.9998332 0.0032844 0.9998332 0.0032844 0.0001668 -0.0032844
23934547 0.0001680 -0.0031632 0.9998320 0.0031632 0.9998320 0.0031632 0.0001680 -0.0031632
24460796 0.0001692 -0.0030436 0.9998308 0.0030436 0.9998308 0.0030436 0.0001692 -0.0030436
24998616 0.0001705 -0.0029254 0.9998295 0.0029254 0.9998295 0.0029254 0.0001705 -0.0029254
25548261 0.0001719 -0.0028087 0.9998281 0.0028087 0.9998281 0.0028087 0.0001719 -0.0028087
26109991 0.0001733 -0.0026933 0.9998267 0.0026933 0.9998267 0.0026933 0.0001733 -0.0026933
26684072 0.0001749 -0.0025793 0.9998251 0.0025793 0.9998251 0.0025793 0.0001749 -0.0025793
27270775 0.0001765 -0.0024665 0.9998235 0.0024665 0.9998235 0.0024665 0.0001765 -0.0024665
27870378 0.0001781 -0.0023550 0.9998219 0.0023550 0.9998219 0.0023550 0.0001781 -0.0023550
28483164 0.0001798 -0.0022446 0.9998202 0.0022446 0.9998202 0.0022446 0.0001798 -0.0022446
29109424 0.0001816 -0.0021353 0.9998184 0.0021353 0.9998184 0.0021353 0.0001816 -0.0021353
29749453 0.0001835 -0.0020270 0.9998165 0.0020270 0.9998165 0.0020270 0.0001835 -0.0020270
30403555 0.0001854 -0.0019198 0.9998146 0.0019198 0.9998146 0.0019198 0.0001854 -0.0019198
31072038 0.0001874 -0.0018135 0.9998126 0.0018135 0.9998126 0.0018135 0.0001874 -0.0018135
31755220 0.0001895 -0.0017081 0.9998105 0.0017081 0.9998105 0.0017081 0.0001895 -0.0017081
32453422 0.0001916 -0.0016035 0.9998084 0.0016035 0.9998084 0.0016035 0.0001916 -0.0016035
33166976 0.0001938 -0.0014997 0.9998062 0.0014997 0.9998062 0.0014997 0.0001938 -0.0014997
33896219 0.0001961 -0.0013966 0.9998039 0.0013966 0.9998039 0.0013966 0.0001961 -0.0013966
34641496 0.0001984 -0.0012942 0.9998016 0.0012942 0.9998016 0.0012942 0.0001984 -0.0012942
35403159 0.0002009 -0.0011925 0.9997991 0.0011925 0.9997991 0.0011925 0.0002009 -0.0011925
36181569 0.0002033 -0.0010913 0.9997967 0.0010913 0.9997967 0.0010913 0.0002033 -0.0010913
36977093 0.0002059 -0.0009907 0.9997941 0.0009907 0.9997941 0.0009907 0.0002059 -0.0009907
37790109 0.0002085 -0.0008905 0.9997915 0.0008905 0.9997915 0.0008905 0.0002085 -0.0008905
38621001 0.0002112 -0.0007907 0.9997888 0.0007907 0.9997888 0.0007907 0.0002112 -0.0007907
39470161 0.0002140 -0.0006913 0.9997860 0.0006913 0.9997860 0.0006913 0.0002140 -0.0006913
40337993 0.0002169 -0.0005922 0.9997831 0.0005922 0.9997831 0.0005922 0.0002169 -0.0005922
41224905 0.0002199 -0.0004934 0.9997801 0.0004934 0.9997801 0.0004934 0.0002199 -0.0004934
42131317 0.0002229 -0.0003947 0.9997771 0.0003947 0.9997771 0.0003947 0.0002229 -0.0003947
43057659 0.0002261 -0.0002963 0.9997739 0.0002963 0.9997739 0.0002963 0.0002261 -0.0002963
44004369 0.0002293 -0.0001979 0.9997707 0.0001979 0.9997707 0.0001979 0.0002293 -0.0001979
44971893 0.0002327 -0.0000995 0.9997673 0.0000995 0.9997673 0.0000995 0.0002327 -0.0000995
45960691 0.0002362 -0.0000011 0.9997638 0.0000011 0.9997638 0.0000011 0.0002362 -0.0000011
46971230 0.0002398 0.0000974 0.9997602 -0.0000974 0.9997602 -0.0000974 0.0002398 0.0000974
48003987 0.0002435 0.0001960 0.9997565 -0.0001960 0.9997565 -0.0001960 0.0002435 0.0001960
49059451 0.0002474 0.0002948 0.9997526 -0.0002948 0.9997526 -0.0002948 0.0002474 0.0002948
50138122 0.0002514 0.0003938 0.9997486 -0.0003938 0.9997486 -0.0003938 0.0002514 0.0003938
51240510 0.0002556 0.0004932 0.9997444 -0.0004932 0.9997444 -0.0004932 0.0002556 0.0004932
52367136 0.0002599 0.0005930 0.9997401 -0.0005930 0.9997401 -0.0005930 0.0002599 0.0005930
53518533 0.0002644 0.0006933 0.9997356 -0.0006933 0.9997356 -0.0006933 0.0002644 0.0006933
54695245 0.0002692 0.0007941 0.9997308 -0.0007941 0.9997308 -0.0007941 0.0002692 0.0007941
55897831 0.0002741 0.0008955 0.9997259 -0.0008955 0.9997259 -0.0008955 0.0002741 0.0008955
57126857 0.0002793 0.0009975 0.9997207 -0.0009975 0.9997207 -0.0009975 0.0002793 0.0009975
58382906 0.0002848 0.0011004 0.9997152 -0.0011004 0.9997152 -0.0011004 0.0002848 0.0011004
59666572 0.0002906 0.0012040 0.9997094 -0.0012040 0.9997094 -0.0012040 0.0002906 0.0012040
60978462 0.0002966 0.0013087 0.9997034 -0.0013087 0.9997034 -0.0013087 0.0002966 0.0013087
62319196 0.0003030 0.0014143 0.9996970 -0.0014143 0.9996970 -0.0014143 0.0003030 0.0014143
63689409 0.0003098 0.0015211 0.9996902 -0.0015211 0.9996902 -0.0015211 0.0003098 0.0015211
65089750 0.0003171 0.0016292 0.9996829 -0.0016292 0.9996829 -0.0016292 0.0003171 0.0016292
66520879 0.0003248 0.0017386 0.9996752 -0.0017386 0.9996752 -0.0017386 0.0003248 0.0017386
67983474 0.0003331 0.0018494 0.9996669 -0.0018494 0.9996669 -0.0018494 0.0003331 0.0018494
69478228 0.0003420 0.0019620 0.9996580 -0.0019620 0.9996580 -0.0019620 0.0003420 0.0019620
71005847 0.0003516 0.0020763 0.9996484 -0.0020763 0.9996484 -0.0020763 0.0003516 0.0020763
72567054 0.0003621 0.0021926 0.9996379 -0.0021926 0.9996379 -0.0021926 0.0003621 0.0021926
74162587 0.0003735 0.0023110 0.9996265 -0.0023110 0.9996265 -0.0023110 0.0003735 0.0023110
75793201 0.0003860 0.0024319 0.9996140 -0.0024319 0.9996140 -0.0024319 0.0003860 0.0024319
77459667 0.0003999 0.0025554 0.9996001 -0.0025554 0.9996001 -0.0025554 0.0003999 0.0025554
79162774 0.0004154 0.0026818 0.9995846 -0.0026818 0.9995846 -0.0026818 0.0004154 0.0026818
80903327 0.0004329 0.0028114 0.9995671 -0.0028114 0.9995671 -0.0028114 0.0004329 0.0028114
82682150 0.0004527 0.0029447 0.9995473 -0.0029447 0.9995473 -0.0029447 0.0004527 0.0029447
84500083 0.0004756 0.0030821 0.9995244 -0.0030821 0.9995244 -0.0030821 0.0004756 0.0030821
86357988 0.0005024 0.0032240 0.9994976 -0.0032240 0.9994976 -0.0032240 0.0005024 0.0032240
88256743 0.0005341 0.0033710 0.9994659 -0.0033710 0.9994659 -0.0033710 0.0005341 0.0033710
90197245 0.0005724 0.0035237 0.9994276 -0.0035237 0.9994276 -0.0035237 0.0005724 0.0035237
92180413 0.0006196 0.0036826 0.9993804 -0.0036826 0.9993804 -0.0036826 0.0006196 0.0036826
94207185 0.0006791 0.0038479 0.9993209 -0.0038479 0.9993209 -0.0038479 0.0006791 0.0038479
96278520 0.0007556 0.0040191 0.9992444 -0.0040191 0.9992444 -0.0040191 0.0007556 0.0040191
98395398 0.0008563 0.0041939 0.9991437 -0.0041939 0.9991437 -0.0041939 0.0008563 0.0041939
100558819 0.0009910 0.0043658 0.9990090 -0.0043658 0.9990090 -0.0043658 0.0009910 0.0043658
102769807 0.0011713 0.0045196 0.9988287 -0.0045196 0.9988287 -0.0045196 0.0011713 0.0045196
105029408 0.0014041 0.0046237 0.9985959 -0.0046237 0.9985959 -0.0046237 0.0014041 0.0046237
107338692 0.0016710 0.0046271 0.9983290 -0.0046271 0.9983290 -0.0046271 0.0016710 0.0046271
