!Murata Part Number: GRM3195C2A273JA01
!These Parameters are Measured in Series Mode Connection
!Data Generated on Mar 30, 2021
!       o--ll--o
!Port1            Port2
!       o------o
!Operation Temp=25[degC], DC Bias Voltage=0[V]
!Freq. Start=1000[kHz] Stop=6[GHz] 401[Steps]
# Hz S RI R 50
!Freq.(Hz) S11(Real) S11(Imag) S21(Real) S21(Imag) S12(Real) S12(Imag) S22(Real) S22(Imag)
1000000 0.0036222 -0.0595938 0.9963778 0.0595938 0.9963778 0.0595938 0.0036222 -0.0595938
1021987 0.0034708 -0.0583180 0.9965292 0.0583180 0.9965292 0.0583180 0.0034708 -0.0583180
1044457 0.0033259 -0.0570691 0.9966741 0.0570691 0.9966741 0.0570691 0.0033259 -0.0570691
1067422 0.0031872 -0.0558465 0.9968128 0.0558465 0.9968128 0.0558465 0.0031872 -0.0558465
1090891 0.0030543 -0.0546496 0.9969457 0.0546496 0.9969457 0.0546496 0.0030543 -0.0546496
1114877 0.0029270 -0.0534780 0.9970730 0.0534780 0.9970730 0.0534780 0.0029270 -0.0534780
1139390 0.0028052 -0.0523311 0.9971948 0.0523311 0.9971948 0.0523311 0.0028052 -0.0523311
1164441 0.0026885 -0.0512084 0.9973115 0.0512084 0.9973115 0.0512084 0.0026885 -0.0512084
1190044 0.0025768 -0.0501094 0.9974232 0.0501094 0.9974232 0.0501094 0.0025768 -0.0501094
1216210 0.0024698 -0.0490337 0.9975302 0.0490337 0.9975302 0.0490337 0.0024698 -0.0490337
1242950 0.0023674 -0.0479807 0.9976326 0.0479807 0.9976326 0.0479807 0.0023674 -0.0479807
1270279 0.0022693 -0.0469500 0.9977307 0.0469500 0.9977307 0.0469500 0.0022693 -0.0469500
1298209 0.0021754 -0.0459411 0.9978246 0.0459411 0.9978246 0.0459411 0.0021754 -0.0459411
1326753 0.0020855 -0.0449536 0.9979145 0.0449536 0.9979145 0.0449536 0.0020855 -0.0449536
1355924 0.0019995 -0.0439870 0.9980005 0.0439870 0.9980005 0.0439870 0.0019995 -0.0439870
1385737 0.0019171 -0.0430409 0.9980829 0.0430409 0.9980829 0.0430409 0.0019171 -0.0430409
1416205 0.0018382 -0.0421149 0.9981618 0.0421149 0.9981618 0.0421149 0.0018382 -0.0421149
1447343 0.0017626 -0.0412085 0.9982374 0.0412085 0.9982374 0.0412085 0.0017626 -0.0412085
1479166 0.0016903 -0.0403213 0.9983097 0.0403213 0.9983097 0.0403213 0.0016903 -0.0403213
1511688 0.0016211 -0.0394530 0.9983789 0.0394530 0.9983789 0.0394530 0.0016211 -0.0394530
1544926 0.0015549 -0.0386032 0.9984451 0.0386032 0.9984451 0.0386032 0.0015549 -0.0386032
1578894 0.0014914 -0.0377713 0.9985086 0.0377713 0.9985086 0.0377713 0.0014914 -0.0377713
1613609 0.0014307 -0.0369572 0.9985693 0.0369572 0.9985693 0.0369572 0.0014307 -0.0369572
1649087 0.0013726 -0.0361603 0.9986274 0.0361603 0.9986274 0.0361603 0.0013726 -0.0361603
1685346 0.0013170 -0.0353804 0.9986830 0.0353804 0.9986830 0.0353804 0.0013170 -0.0353804
1722402 0.0012637 -0.0346171 0.9987363 0.0346171 0.9987363 0.0346171 0.0012637 -0.0346171
1760272 0.0012127 -0.0338700 0.9987873 0.0338700 0.9987873 0.0338700 0.0012127 -0.0338700
1798975 0.0011640 -0.0331388 0.9988360 0.0331388 0.9988360 0.0331388 0.0011640 -0.0331388
1838529 0.0011173 -0.0324231 0.9988827 0.0324231 0.9988827 0.0324231 0.0011173 -0.0324231
1878953 0.0010726 -0.0317227 0.9989274 0.0317227 0.9989274 0.0317227 0.0010726 -0.0317227
1920266 0.0010298 -0.0310371 0.9989702 0.0310371 0.9989702 0.0310371 0.0010298 -0.0310371
1962487 0.0009889 -0.0303662 0.9990111 0.0303662 0.9990111 0.0303662 0.0009889 -0.0303662
2005636 0.0009497 -0.0297095 0.9990503 0.0297095 0.9990503 0.0297095 0.0009497 -0.0297095
2049734 0.0009122 -0.0290668 0.9990878 0.0290668 0.9990878 0.0290668 0.0009122 -0.0290668
2094801 0.0008763 -0.0284377 0.9991237 0.0284377 0.9991237 0.0284377 0.0008763 -0.0284377
2140860 0.0008420 -0.0278220 0.9991580 0.0278220 0.9991580 0.0278220 0.0008420 -0.0278220
2187931 0.0008092 -0.0272194 0.9991908 0.0272194 0.9991908 0.0272194 0.0008092 -0.0272194
2236037 0.0007777 -0.0266297 0.9992223 0.0266297 0.9992223 0.0266297 0.0007777 -0.0266297
2285201 0.0007477 -0.0260524 0.9992523 0.0260524 0.9992523 0.0260524 0.0007477 -0.0260524
2335446 0.0007189 -0.0254875 0.9992811 0.0254875 0.9992811 0.0254875 0.0007189 -0.0254875
2386795 0.0006913 -0.0249345 0.9993087 0.0249345 0.9993087 0.0249345 0.0006913 -0.0249345
2439274 0.0006650 -0.0243933 0.9993350 0.0243933 0.9993350 0.0243933 0.0006650 -0.0243933
2492906 0.0006398 -0.0238636 0.9993602 0.0238636 0.9993602 0.0238636 0.0006398 -0.0238636
2547717 0.0006157 -0.0233452 0.9993843 0.0233452 0.9993843 0.0233452 0.0006157 -0.0233452
2603734 0.0005926 -0.0228377 0.9994074 0.0228377 0.9994074 0.0228377 0.0005926 -0.0228377
2660982 0.0005705 -0.0223411 0.9994295 0.0223411 0.9994295 0.0223411 0.0005705 -0.0223411
2719490 0.0005494 -0.0218550 0.9994506 0.0218550 0.9994506 0.0218550 0.0005494 -0.0218550
2779283 0.0005292 -0.0213792 0.9994708 0.0213792 0.9994708 0.0213792 0.0005292 -0.0213792
2840391 0.0005099 -0.0209134 0.9994901 0.0209134 0.9994901 0.0209134 0.0005099 -0.0209134
2902843 0.0004914 -0.0204576 0.9995086 0.0204576 0.9995086 0.0204576 0.0004914 -0.0204576
2966668 0.0004738 -0.0200114 0.9995262 0.0200114 0.9995262 0.0200114 0.0004738 -0.0200114
3031896 0.0004568 -0.0195747 0.9995432 0.0195747 0.9995432 0.0195747 0.0004568 -0.0195747
3098558 0.0004407 -0.0191472 0.9995593 0.0191472 0.9995593 0.0191472 0.0004407 -0.0191472
3166686 0.0004252 -0.0187288 0.9995748 0.0187288 0.9995748 0.0187288 0.0004252 -0.0187288
3236312 0.0004104 -0.0183192 0.9995896 0.0183192 0.9995896 0.0183192 0.0004104 -0.0183192
3307469 0.0003963 -0.0179182 0.9996037 0.0179182 0.9996037 0.0179182 0.0003963 -0.0179182
3380190 0.0003828 -0.0175258 0.9996172 0.0175258 0.9996172 0.0175258 0.0003828 -0.0175258
3454511 0.0003698 -0.0171416 0.9996302 0.0171416 0.9996302 0.0171416 0.0003698 -0.0171416
3530465 0.0003575 -0.0167655 0.9996425 0.0167655 0.9996425 0.0167655 0.0003575 -0.0167655
3608090 0.0003456 -0.0163974 0.9996544 0.0163974 0.9996544 0.0163974 0.0003456 -0.0163974
3687421 0.0003343 -0.0160370 0.9996657 0.0160370 0.9996657 0.0160370 0.0003343 -0.0160370
3768496 0.0003235 -0.0156841 0.9996765 0.0156841 0.9996765 0.0156841 0.0003235 -0.0156841
3851354 0.0003132 -0.0153387 0.9996868 0.0153387 0.9996868 0.0153387 0.0003132 -0.0153387
3936034 0.0003033 -0.0150006 0.9996967 0.0150006 0.9996967 0.0150006 0.0003033 -0.0150006
4022575 0.0002939 -0.0146696 0.9997061 0.0146696 0.9997061 0.0146696 0.0002939 -0.0146696
4111020 0.0002848 -0.0143455 0.9997152 0.0143455 0.9997152 0.0143455 0.0002848 -0.0143455
4201409 0.0002762 -0.0140281 0.9997238 0.0140281 0.9997238 0.0140281 0.0002762 -0.0140281
4293785 0.0002680 -0.0137175 0.9997320 0.0137175 0.9997320 0.0137175 0.0002680 -0.0137175
4388193 0.0002601 -0.0134133 0.9997399 0.0134133 0.9997399 0.0134133 0.0002601 -0.0134133
4484676 0.0002525 -0.0131154 0.9997475 0.0131154 0.9997475 0.0131154 0.0002525 -0.0131154
4583281 0.0002454 -0.0128238 0.9997546 0.0128238 0.9997546 0.0128238 0.0002454 -0.0128238
4684054 0.0002385 -0.0125382 0.9997615 0.0125382 0.9997615 0.0125382 0.0002385 -0.0125382
4787042 0.0002319 -0.0122586 0.9997681 0.0122586 0.9997681 0.0122586 0.0002319 -0.0122586
4892295 0.0002257 -0.0119847 0.9997743 0.0119847 0.9997743 0.0119847 0.0002257 -0.0119847
4999862 0.0002197 -0.0117166 0.9997803 0.0117166 0.9997803 0.0117166 0.0002197 -0.0117166
5109794 0.0002139 -0.0114540 0.9997861 0.0114540 0.9997861 0.0114540 0.0002139 -0.0114540
5222143 0.0002085 -0.0111968 0.9997915 0.0111968 0.9997915 0.0111968 0.0002085 -0.0111968
5336962 0.0002033 -0.0109449 0.9997967 0.0109449 0.9997967 0.0109449 0.0002033 -0.0109449
5454306 0.0001983 -0.0106982 0.9998017 0.0106982 0.9998017 0.0106982 0.0001983 -0.0106982
5574230 0.0001936 -0.0104565 0.9998064 0.0104565 0.9998064 0.0104565 0.0001936 -0.0104565
5696791 0.0001890 -0.0102198 0.9998110 0.0102198 0.9998110 0.0102198 0.0001890 -0.0102198
5822046 0.0001847 -0.0099880 0.9998153 0.0099880 0.9998153 0.0099880 0.0001847 -0.0099880
5950055 0.0001806 -0.0097608 0.9998194 0.0097608 0.9998194 0.0097608 0.0001806 -0.0097608
6080879 0.0001767 -0.0095383 0.9998233 0.0095383 0.9998233 0.0095383 0.0001767 -0.0095383
6214580 0.0001730 -0.0093203 0.9998270 0.0093203 0.9998270 0.0093203 0.0001730 -0.0093203
6351220 0.0001694 -0.0091068 0.9998306 0.0091068 0.9998306 0.0091068 0.0001694 -0.0091068
6490864 0.0001660 -0.0088975 0.9998340 0.0088975 0.9998340 0.0088975 0.0001660 -0.0088975
6633579 0.0001628 -0.0086924 0.9998372 0.0086924 0.9998372 0.0086924 0.0001628 -0.0086924
6779431 0.0001598 -0.0084915 0.9998402 0.0084915 0.9998402 0.0084915 0.0001598 -0.0084915
6928491 0.0001568 -0.0082946 0.9998432 0.0082946 0.9998432 0.0082946 0.0001568 -0.0082946
7080828 0.0001541 -0.0081016 0.9998459 0.0081016 0.9998459 0.0081016 0.0001541 -0.0081016
7236514 0.0001515 -0.0079125 0.9998485 0.0079125 0.9998485 0.0079125 0.0001515 -0.0079125
7395623 0.0001490 -0.0077271 0.9998510 0.0077271 0.9998510 0.0077271 0.0001490 -0.0077271
7558231 0.0001466 -0.0075453 0.9998534 0.0075453 0.9998534 0.0075453 0.0001466 -0.0075453
7724414 0.0001444 -0.0073672 0.9998556 0.0073672 0.9998556 0.0073672 0.0001444 -0.0073672
7894251 0.0001423 -0.0071925 0.9998577 0.0071925 0.9998577 0.0071925 0.0001423 -0.0071925
8067822 0.0001403 -0.0070212 0.9998597 0.0070212 0.9998597 0.0070212 0.0001403 -0.0070212
8245209 0.0001384 -0.0068533 0.9998616 0.0068533 0.9998616 0.0068533 0.0001384 -0.0068533
8426497 0.0001366 -0.0066886 0.9998634 0.0066886 0.9998634 0.0066886 0.0001366 -0.0066886
8611770 0.0001349 -0.0065271 0.9998651 0.0065271 0.9998651 0.0065271 0.0001349 -0.0065271
8801117 0.0001333 -0.0063686 0.9998667 0.0063686 0.9998667 0.0063686 0.0001333 -0.0063686
8994628 0.0001319 -0.0062132 0.9998681 0.0062132 0.9998681 0.0062132 0.0001319 -0.0062132
9192393 0.0001305 -0.0060608 0.9998695 0.0060608 0.9998695 0.0060608 0.0001305 -0.0060608
9394506 0.0001292 -0.0059112 0.9998708 0.0059112 0.9998708 0.0059112 0.0001292 -0.0059112
9601063 0.0001280 -0.0057644 0.9998720 0.0057644 0.9998720 0.0057644 0.0001280 -0.0057644
9812162 0.0001269 -0.0056203 0.9998731 0.0056203 0.9998731 0.0056203 0.0001269 -0.0056203
10027902 0.0001259 -0.0054790 0.9998741 0.0054790 0.9998741 0.0054790 0.0001259 -0.0054790
10248386 0.0001249 -0.0053402 0.9998751 0.0053402 0.9998751 0.0053402 0.0001249 -0.0053402
10473717 0.0001240 -0.0052039 0.9998760 0.0052039 0.9998760 0.0052039 0.0001240 -0.0052039
10704003 0.0001233 -0.0050701 0.9998767 0.0050701 0.9998767 0.0050701 0.0001233 -0.0050701
10939352 0.0001225 -0.0049387 0.9998775 0.0049387 0.9998775 0.0049387 0.0001225 -0.0049387
11179876 0.0001219 -0.0048097 0.9998781 0.0048097 0.9998781 0.0048097 0.0001219 -0.0048097
11425688 0.0001213 -0.0046830 0.9998787 0.0046830 0.9998787 0.0046830 0.0001213 -0.0046830
11676904 0.0001208 -0.0045584 0.9998792 0.0045584 0.9998792 0.0045584 0.0001208 -0.0045584
11933645 0.0001204 -0.0044361 0.9998796 0.0044361 0.9998796 0.0044361 0.0001204 -0.0044361
12196030 0.0001200 -0.0043158 0.9998800 0.0043158 0.9998800 0.0043158 0.0001200 -0.0043158
12464184 0.0001197 -0.0041976 0.9998803 0.0041976 0.9998803 0.0041976 0.0001197 -0.0041976
12738235 0.0001195 -0.0040814 0.9998805 0.0040814 0.9998805 0.0040814 0.0001195 -0.0040814
13018310 0.0001193 -0.0039671 0.9998807 0.0039671 0.9998807 0.0039671 0.0001193 -0.0039671
13304544 0.0001192 -0.0038547 0.9998808 0.0038547 0.9998808 0.0038547 0.0001192 -0.0038547
13597071 0.0001191 -0.0037442 0.9998809 0.0037442 0.9998809 0.0037442 0.0001191 -0.0037442
13896030 0.0001191 -0.0036354 0.9998809 0.0036354 0.9998809 0.0036354 0.0001191 -0.0036354
14201563 0.0001192 -0.0035283 0.9998808 0.0035283 0.9998808 0.0035283 0.0001192 -0.0035283
14513813 0.0001193 -0.0034230 0.9998807 0.0034230 0.9998807 0.0034230 0.0001193 -0.0034230
14832928 0.0001195 -0.0033192 0.9998805 0.0033192 0.9998805 0.0033192 0.0001195 -0.0033192
15159060 0.0001197 -0.0032171 0.9998803 0.0032171 0.9998803 0.0032171 0.0001197 -0.0032171
15492362 0.0001200 -0.0031164 0.9998800 0.0031164 0.9998800 0.0031164 0.0001200 -0.0031164
15832993 0.0001204 -0.0030173 0.9998796 0.0030173 0.9998796 0.0030173 0.0001204 -0.0030173
16181113 0.0001208 -0.0029196 0.9998792 0.0029196 0.9998792 0.0029196 0.0001208 -0.0029196
16536888 0.0001213 -0.0028232 0.9998787 0.0028232 0.9998787 0.0028232 0.0001213 -0.0028232
16900485 0.0001218 -0.0027282 0.9998782 0.0027282 0.9998782 0.0027282 0.0001218 -0.0027282
17272076 0.0001224 -0.0026346 0.9998776 0.0026346 0.9998776 0.0026346 0.0001224 -0.0026346
17651837 0.0001230 -0.0025421 0.9998770 0.0025421 0.9998770 0.0025421 0.0001230 -0.0025421
18039948 0.0001237 -0.0024509 0.9998763 0.0024509 0.9998763 0.0024509 0.0001237 -0.0024509
18436593 0.0001245 -0.0023608 0.9998755 0.0023608 0.9998755 0.0023608 0.0001245 -0.0023608
18841959 0.0001253 -0.0022719 0.9998747 0.0022719 0.9998747 0.0022719 0.0001253 -0.0022719
19256237 0.0001261 -0.0021841 0.9998739 0.0021841 0.9998739 0.0021841 0.0001261 -0.0021841
19679624 0.0001271 -0.0020972 0.9998729 0.0020972 0.9998729 0.0020972 0.0001271 -0.0020972
20112321 0.0001281 -0.0020114 0.9998719 0.0020114 0.9998719 0.0020114 0.0001281 -0.0020114
20554530 0.0001291 -0.0019265 0.9998709 0.0019265 0.9998709 0.0019265 0.0001291 -0.0019265
21006463 0.0001302 -0.0018426 0.9998698 0.0018426 0.9998698 0.0018426 0.0001302 -0.0018426
21468333 0.0001314 -0.0017595 0.9998686 0.0017595 0.9998686 0.0017595 0.0001314 -0.0017595
21940357 0.0001326 -0.0016772 0.9998674 0.0016772 0.9998674 0.0016772 0.0001326 -0.0016772
22422760 0.0001339 -0.0015957 0.9998661 0.0015957 0.9998661 0.0015957 0.0001339 -0.0015957
22915770 0.0001353 -0.0015150 0.9998647 0.0015150 0.9998647 0.0015150 0.0001353 -0.0015150
23419619 0.0001367 -0.0014350 0.9998633 0.0014350 0.9998633 0.0014350 0.0001367 -0.0014350
23934547 0.0001382 -0.0013557 0.9998618 0.0013557 0.9998618 0.0013557 0.0001382 -0.0013557
24460796 0.0001398 -0.0012769 0.9998602 0.0012769 0.9998602 0.0012769 0.0001398 -0.0012769
24998616 0.0001415 -0.0011988 0.9998585 0.0011988 0.9998585 0.0011988 0.0001415 -0.0011988
25548261 0.0001432 -0.0011212 0.9998568 0.0011212 0.9998568 0.0011212 0.0001432 -0.0011212
26109991 0.0001450 -0.0010442 0.9998550 0.0010442 0.9998550 0.0010442 0.0001450 -0.0010442
26684072 0.0001469 -0.0009676 0.9998531 0.0009676 0.9998531 0.0009676 0.0001469 -0.0009676
27270775 0.0001489 -0.0008914 0.9998511 0.0008914 0.9998511 0.0008914 0.0001489 -0.0008914
27870378 0.0001510 -0.0008156 0.9998490 0.0008156 0.9998490 0.0008156 0.0001510 -0.0008156
28483164 0.0001531 -0.0007402 0.9998469 0.0007402 0.9998469 0.0007402 0.0001531 -0.0007402
29109424 0.0001554 -0.0006650 0.9998446 0.0006650 0.9998446 0.0006650 0.0001554 -0.0006650
29749453 0.0001578 -0.0005902 0.9998422 0.0005902 0.9998422 0.0005902 0.0001578 -0.0005902
30403555 0.0001603 -0.0005155 0.9998397 0.0005155 0.9998397 0.0005155 0.0001603 -0.0005155
31072038 0.0001628 -0.0004411 0.9998372 0.0004411 0.9998372 0.0004411 0.0001628 -0.0004411
31755220 0.0001656 -0.0003668 0.9998344 0.0003668 0.9998344 0.0003668 0.0001656 -0.0003668
32453422 0.0001684 -0.0002925 0.9998316 0.0002925 0.9998316 0.0002925 0.0001684 -0.0002925
33166976 0.0001713 -0.0002184 0.9998287 0.0002184 0.9998287 0.0002184 0.0001713 -0.0002184
33896219 0.0001745 -0.0001442 0.9998255 0.0001442 0.9998255 0.0001442 0.0001745 -0.0001442
34641496 0.0001777 -0.0000700 0.9998223 0.0000700 0.9998223 0.0000700 0.0001777 -0.0000700
35403159 0.0001811 0.0000042 0.9998189 -0.0000042 0.9998189 -0.0000042 0.0001811 0.0000042
36181569 0.0001847 0.0000786 0.9998153 -0.0000786 0.9998153 -0.0000786 0.0001847 0.0000786
36977093 0.0001884 0.0001532 0.9998116 -0.0001532 0.9998116 -0.0001532 0.0001884 0.0001532
37790109 0.0001924 0.0002280 0.9998076 -0.0002280 0.9998076 -0.0002280 0.0001924 0.0002280
38621001 0.0001965 0.0003031 0.9998035 -0.0003031 0.9998035 -0.0003031 0.0001965 0.0003031
39470161 0.0002009 0.0003786 0.9997991 -0.0003786 0.9997991 -0.0003786 0.0002009 0.0003786
40337993 0.0002055 0.0004544 0.9997945 -0.0004544 0.9997945 -0.0004544 0.0002055 0.0004544
41224905 0.0002103 0.0005307 0.9997897 -0.0005307 0.9997897 -0.0005307 0.0002103 0.0005307
42131317 0.0002154 0.0006076 0.9997846 -0.0006076 0.9997846 -0.0006076 0.0002154 0.0006076
43057659 0.0002208 0.0006850 0.9997792 -0.0006850 0.9997792 -0.0006850 0.0002208 0.0006850
44004369 0.0002266 0.0007631 0.9997734 -0.0007631 0.9997734 -0.0007631 0.0002266 0.0007631
44971893 0.0002327 0.0008419 0.9997673 -0.0008419 0.9997673 -0.0008419 0.0002327 0.0008419
45960691 0.0002392 0.0009216 0.9997608 -0.0009216 0.9997608 -0.0009216 0.0002392 0.0009216
46971230 0.0002461 0.0010023 0.9997539 -0.0010023 0.9997539 -0.0010023 0.0002461 0.0010023
48003987 0.0002535 0.0010839 0.9997465 -0.0010839 0.9997465 -0.0010839 0.0002535 0.0010839
49059451 0.0002614 0.0011667 0.9997386 -0.0011667 0.9997386 -0.0011667 0.0002614 0.0011667
50138122 0.0002699 0.0012508 0.9997301 -0.0012508 0.9997301 -0.0012508 0.0002699 0.0012508
51240510 0.0002791 0.0013363 0.9997209 -0.0013363 0.9997209 -0.0013363 0.0002791 0.0013363
52367136 0.0002892 0.0014233 0.9997108 -0.0014233 0.9997108 -0.0014233 0.0002892 0.0014233
53518533 0.0003001 0.0015121 0.9996999 -0.0015121 0.9996999 -0.0015121 0.0003001 0.0015121
54695245 0.0003121 0.0016029 0.9996879 -0.0016029 0.9996879 -0.0016029 0.0003121 0.0016029
55897831 0.0003253 0.0016958 0.9996747 -0.0016958 0.9996747 -0.0016958 0.0003253 0.0016958
57126857 0.0003401 0.0017913 0.9996599 -0.0017913 0.9996599 -0.0017913 0.0003401 0.0017913
58382906 0.0003567 0.0018895 0.9996433 -0.0018895 0.9996433 -0.0018895 0.0003567 0.0018895
59666572 0.0003755 0.0019908 0.9996245 -0.0019908 0.9996245 -0.0019908 0.0003755 0.0019908
60978462 0.0003972 0.0020958 0.9996028 -0.0020958 0.9996028 -0.0020958 0.0003972 0.0020958
62319196 0.0004224 0.0022048 0.9995776 -0.0022048 0.9995776 -0.0022048 0.0004224 0.0022048
63689409 0.0004523 0.0023185 0.9995477 -0.0023185 0.9995477 -0.0023185 0.0004523 0.0023185
65089750 0.0004883 0.0024376 0.9995117 -0.0024376 0.9995117 -0.0024376 0.0004883 0.0024376
66520879 0.0005326 0.0025626 0.9994674 -0.0025626 0.9994674 -0.0025626 0.0005326 0.0025626
67983474 0.0005883 0.0026941 0.9994117 -0.0026941 0.9994117 -0.0026941 0.0005883 0.0026941
69478228 0.0006600 0.0028321 0.9993400 -0.0028321 0.9993400 -0.0028321 0.0006600 0.0028321
71005847 0.0007547 0.0029752 0.9992453 -0.0029752 0.9992453 -0.0029752 0.0007547 0.0029752
72567054 0.0008823 0.0031188 0.9991177 -0.0031188 0.9991177 -0.0031188 0.0008823 0.0031188
74162587 0.0010564 0.0032506 0.9989436 -0.0032506 0.9989436 -0.0032506 0.0010564 0.0032506
75793201 0.0012895 0.0033427 0.9987105 -0.0033427 0.9987105 -0.0033427 0.0012895 0.0033427
77459667 0.0015770 0.0033426 0.9984230 -0.0033426 0.9984230 -0.0033426 0.0015770 0.0033426
79162774 0.0018571 0.0031865 0.9981429 -0.0031865 0.9981429 -0.0031865 0.0018571 0.0031865
80903327 0.0019947 0.0028808 0.9980053 -0.0028808 0.9980053 -0.0028808 0.0019947 0.0028808
82682150 0.0019010 0.0025731 0.9980990 -0.0025731 0.9980990 -0.0025731 0.0019010 0.0025731
84500083 0.0016582 0.0024166 0.9983418 -0.0024166 0.9983418 -0.0024166 0.0016582 0.0024166
86357988 0.0014042 0.0024240 0.9985958 -0.0024240 0.9985958 -0.0024240 0.0014042 0.0024240
88256743 0.0012052 0.0025320 0.9987948 -0.0025320 0.9987948 -0.0025320 0.0012052 0.0025320
90197245 0.0010682 0.0026867 0.9989318 -0.0026867 0.9989318 -0.0026867 0.0010682 0.0026867
92180413 0.0009809 0.0028593 0.9990191 -0.0028593 0.9990191 -0.0028593 0.0009809 0.0028593
94207185 0.0009305 0.0030372 0.9990695 -0.0030372 0.9990695 -0.0030372 0.0009305 0.0030372
96278520 0.0009077 0.0032160 0.9990923 -0.0032160 0.9990923 -0.0032160 0.0009077 0.0032160
98395398 0.0009066 0.0033945 0.9990934 -0.0033945 0.9990934 -0.0033945 0.0009066 0.0033945
100558819 0.0009242 0.0035732 0.9990758 -0.0035732 0.9990758 -0.0035732 0.0009242 0.0035732
102769807 0.0009596 0.0037528 0.9990404 -0.0037528 0.9990404 -0.0037528 0.0009596 0.0037528
105029408 0.0010137 0.0039341 0.9989863 -0.0039341 0.9989863 -0.0039341 0.0010137 0.0039341
107338692 0.0010893 0.0041171 0.9989107 -0.0041171 0.9989107 -0.0041171 0.0010893 0.0041171
