!Murata Part Number: GRM3195C1H563JA05
!These Parameters are Measured in Series Mode Connection
!Data Generated on Mar 30, 2021
!       o--ll--o
!Port1            Port2
!       o------o
!Operation Temp=25[degC], DC Bias Voltage=0[V]
!Freq. Start=1000[kHz] Stop=6[GHz] 401[Steps]
# Hz S RI R 50
!Freq.(Hz) S11(Real) S11(Imag) S21(Real) S21(Imag) S12(Real) S12(Imag) S22(Real) S22(Imag)
1000000 0.0008571 -0.0285120 0.9991429 0.0285120 0.9991429 0.0285120 0.0008571 -0.0285120
1021987 0.0008224 -0.0278974 0.9991776 0.0278974 0.9991776 0.0278974 0.0008224 -0.0278974
1044457 0.0007893 -0.0272959 0.9992107 0.0272959 0.9992107 0.0272959 0.0007893 -0.0272959
1067422 0.0007576 -0.0267073 0.9992424 0.0267073 0.9992424 0.0267073 0.0007576 -0.0267073
1090891 0.0007272 -0.0261312 0.9992728 0.0261312 0.9992728 0.0261312 0.0007272 -0.0261312
1114877 0.0006981 -0.0255675 0.9993019 0.0255675 0.9993019 0.0255675 0.0006981 -0.0255675
1139390 0.0006703 -0.0250157 0.9993297 0.0250157 0.9993297 0.0250157 0.0006703 -0.0250157
1164441 0.0006436 -0.0244758 0.9993564 0.0244758 0.9993564 0.0244758 0.0006436 -0.0244758
1190044 0.0006181 -0.0239473 0.9993819 0.0239473 0.9993819 0.0239473 0.0006181 -0.0239473
1216210 0.0005937 -0.0234302 0.9994063 0.0234302 0.9994063 0.0234302 0.0005937 -0.0234302
1242950 0.0005703 -0.0229240 0.9994297 0.0229240 0.9994297 0.0229240 0.0005703 -0.0229240
1270279 0.0005479 -0.0224287 0.9994521 0.0224287 0.9994521 0.0224287 0.0005479 -0.0224287
1298209 0.0005265 -0.0219440 0.9994735 0.0219440 0.9994735 0.0219440 0.0005265 -0.0219440
1326753 0.0005060 -0.0214696 0.9994940 0.0214696 0.9994940 0.0214696 0.0005060 -0.0214696
1355924 0.0004864 -0.0210053 0.9995136 0.0210053 0.9995136 0.0210053 0.0004864 -0.0210053
1385737 0.0004676 -0.0205509 0.9995324 0.0205509 0.9995324 0.0205509 0.0004676 -0.0205509
1416205 0.0004496 -0.0201062 0.9995504 0.0201062 0.9995504 0.0201062 0.0004496 -0.0201062
1447343 0.0004324 -0.0196710 0.9995676 0.0196710 0.9995676 0.0196710 0.0004324 -0.0196710
1479166 0.0004159 -0.0192450 0.9995841 0.0192450 0.9995841 0.0192450 0.0004159 -0.0192450
1511688 0.0004002 -0.0188282 0.9995998 0.0188282 0.9995998 0.0188282 0.0004002 -0.0188282
1544926 0.0003851 -0.0184202 0.9996149 0.0184202 0.9996149 0.0184202 0.0003851 -0.0184202
1578894 0.0003707 -0.0180209 0.9996293 0.0180209 0.9996293 0.0180209 0.0003707 -0.0180209
1613609 0.0003569 -0.0176301 0.9996431 0.0176301 0.9996431 0.0176301 0.0003569 -0.0176301
1649087 0.0003436 -0.0172477 0.9996564 0.0172477 0.9996564 0.0172477 0.0003436 -0.0172477
1685346 0.0003310 -0.0168734 0.9996690 0.0168734 0.9996690 0.0168734 0.0003310 -0.0168734
1722402 0.0003189 -0.0165070 0.9996811 0.0165070 0.9996811 0.0165070 0.0003189 -0.0165070
1760272 0.0003073 -0.0161485 0.9996927 0.0161485 0.9996927 0.0161485 0.0003073 -0.0161485
1798975 0.0002963 -0.0157975 0.9997037 0.0157975 0.9997037 0.0157975 0.0002963 -0.0157975
1838529 0.0002857 -0.0154541 0.9997143 0.0154541 0.9997143 0.0154541 0.0002857 -0.0154541
1878953 0.0002755 -0.0151179 0.9997245 0.0151179 0.9997245 0.0151179 0.0002755 -0.0151179
1920266 0.0002658 -0.0147889 0.9997342 0.0147889 0.9997342 0.0147889 0.0002658 -0.0147889
1962487 0.0002566 -0.0144668 0.9997434 0.0144668 0.9997434 0.0144668 0.0002566 -0.0144668
2005636 0.0002477 -0.0141516 0.9997523 0.0141516 0.9997523 0.0141516 0.0002477 -0.0141516
2049734 0.0002392 -0.0138431 0.9997608 0.0138431 0.9997608 0.0138431 0.0002392 -0.0138431
2094801 0.0002311 -0.0135412 0.9997689 0.0135412 0.9997689 0.0135412 0.0002311 -0.0135412
2140860 0.0002234 -0.0132456 0.9997766 0.0132456 0.9997766 0.0132456 0.0002234 -0.0132456
2187931 0.0002160 -0.0129563 0.9997840 0.0129563 0.9997840 0.0129563 0.0002160 -0.0129563
2236037 0.0002089 -0.0126731 0.9997911 0.0126731 0.9997911 0.0126731 0.0002089 -0.0126731
2285201 0.0002021 -0.0123959 0.9997979 0.0123959 0.9997979 0.0123959 0.0002021 -0.0123959
2335446 0.0001957 -0.0121245 0.9998043 0.0121245 0.9998043 0.0121245 0.0001957 -0.0121245
2386795 0.0001895 -0.0118589 0.9998105 0.0118589 0.9998105 0.0118589 0.0001895 -0.0118589
2439274 0.0001836 -0.0115989 0.9998164 0.0115989 0.9998164 0.0115989 0.0001836 -0.0115989
2492906 0.0001780 -0.0113444 0.9998220 0.0113444 0.9998220 0.0113444 0.0001780 -0.0113444
2547717 0.0001726 -0.0110953 0.9998274 0.0110953 0.9998274 0.0110953 0.0001726 -0.0110953
2603734 0.0001675 -0.0108514 0.9998325 0.0108514 0.9998325 0.0108514 0.0001675 -0.0108514
2660982 0.0001626 -0.0106127 0.9998374 0.0106127 0.9998374 0.0106127 0.0001626 -0.0106127
2719490 0.0001579 -0.0103789 0.9998421 0.0103789 0.9998421 0.0103789 0.0001579 -0.0103789
2779283 0.0001535 -0.0101501 0.9998465 0.0101501 0.9998465 0.0101501 0.0001535 -0.0101501
2840391 0.0001492 -0.0099261 0.9998508 0.0099261 0.9998508 0.0099261 0.0001492 -0.0099261
2902843 0.0001451 -0.0097068 0.9998549 0.0097068 0.9998549 0.0097068 0.0001451 -0.0097068
2966668 0.0001413 -0.0094920 0.9998587 0.0094920 0.9998587 0.0094920 0.0001413 -0.0094920
3031896 0.0001376 -0.0092818 0.9998624 0.0092818 0.9998624 0.0092818 0.0001376 -0.0092818
3098558 0.0001341 -0.0090760 0.9998659 0.0090760 0.9998659 0.0090760 0.0001341 -0.0090760
3166686 0.0001308 -0.0088744 0.9998692 0.0088744 0.9998692 0.0088744 0.0001308 -0.0088744
3236312 0.0001276 -0.0086771 0.9998724 0.0086771 0.9998724 0.0086771 0.0001276 -0.0086771
3307469 0.0001246 -0.0084839 0.9998754 0.0084839 0.9998754 0.0084839 0.0001246 -0.0084839
3380190 0.0001217 -0.0082947 0.9998783 0.0082947 0.9998783 0.0082947 0.0001217 -0.0082947
3454511 0.0001189 -0.0081094 0.9998811 0.0081094 0.9998811 0.0081094 0.0001189 -0.0081094
3530465 0.0001164 -0.0079280 0.9998836 0.0079280 0.9998836 0.0079280 0.0001164 -0.0079280
3608090 0.0001139 -0.0077503 0.9998861 0.0077503 0.9998861 0.0077503 0.0001139 -0.0077503
3687421 0.0001115 -0.0075763 0.9998885 0.0075763 0.9998885 0.0075763 0.0001115 -0.0075763
3768496 0.0001093 -0.0074059 0.9998907 0.0074059 0.9998907 0.0074059 0.0001093 -0.0074059
3851354 0.0001072 -0.0072391 0.9998928 0.0072391 0.9998928 0.0072391 0.0001072 -0.0072391
3936034 0.0001052 -0.0070756 0.9998948 0.0070756 0.9998948 0.0070756 0.0001052 -0.0070756
4022575 0.0001033 -0.0069155 0.9998967 0.0069155 0.9998967 0.0069155 0.0001033 -0.0069155
4111020 0.0001016 -0.0067587 0.9998984 0.0067587 0.9998984 0.0067587 0.0001016 -0.0067587
4201409 0.0000999 -0.0066051 0.9999001 0.0066051 0.9999001 0.0066051 0.0000999 -0.0066051
4293785 0.0000983 -0.0064546 0.9999017 0.0064546 0.9999017 0.0064546 0.0000983 -0.0064546
4388193 0.0000968 -0.0063072 0.9999032 0.0063072 0.9999032 0.0063072 0.0000968 -0.0063072
4484676 0.0000954 -0.0061628 0.9999046 0.0061628 0.9999046 0.0061628 0.0000954 -0.0061628
4583281 0.0000940 -0.0060214 0.9999060 0.0060214 0.9999060 0.0060214 0.0000940 -0.0060214
4684054 0.0000928 -0.0058827 0.9999072 0.0058827 0.9999072 0.0058827 0.0000928 -0.0058827
4787042 0.0000916 -0.0057469 0.9999084 0.0057469 0.9999084 0.0057469 0.0000916 -0.0057469
4892295 0.0000905 -0.0056138 0.9999095 0.0056138 0.9999095 0.0056138 0.0000905 -0.0056138
4999862 0.0000895 -0.0054834 0.9999105 0.0054834 0.9999105 0.0054834 0.0000895 -0.0054834
5109794 0.0000885 -0.0053556 0.9999115 0.0053556 0.9999115 0.0053556 0.0000885 -0.0053556
5222143 0.0000876 -0.0052303 0.9999124 0.0052303 0.9999124 0.0052303 0.0000876 -0.0052303
5336962 0.0000867 -0.0051076 0.9999133 0.0051076 0.9999133 0.0051076 0.0000867 -0.0051076
5454306 0.0000860 -0.0049872 0.9999140 0.0049872 0.9999140 0.0049872 0.0000860 -0.0049872
5574230 0.0000852 -0.0048692 0.9999148 0.0048692 0.9999148 0.0048692 0.0000852 -0.0048692
5696791 0.0000846 -0.0047536 0.9999154 0.0047536 0.9999154 0.0047536 0.0000846 -0.0047536
5822046 0.0000839 -0.0046402 0.9999161 0.0046402 0.9999161 0.0046402 0.0000839 -0.0046402
5950055 0.0000834 -0.0045290 0.9999166 0.0045290 0.9999166 0.0045290 0.0000834 -0.0045290
6080879 0.0000829 -0.0044200 0.9999171 0.0044200 0.9999171 0.0044200 0.0000829 -0.0044200
6214580 0.0000824 -0.0043130 0.9999176 0.0043130 0.9999176 0.0043130 0.0000824 -0.0043130
6351220 0.0000819 -0.0042082 0.9999181 0.0042082 0.9999181 0.0042082 0.0000819 -0.0042082
6490864 0.0000815 -0.0041053 0.9999185 0.0041053 0.9999185 0.0041053 0.0000815 -0.0041053
6633579 0.0000812 -0.0040044 0.9999188 0.0040044 0.9999188 0.0040044 0.0000812 -0.0040044
6779431 0.0000809 -0.0039054 0.9999191 0.0039054 0.9999191 0.0039054 0.0000809 -0.0039054
6928491 0.0000806 -0.0038082 0.9999194 0.0038082 0.9999194 0.0038082 0.0000806 -0.0038082
7080828 0.0000804 -0.0037129 0.9999196 0.0037129 0.9999196 0.0037129 0.0000804 -0.0037129
7236514 0.0000802 -0.0036194 0.9999198 0.0036194 0.9999198 0.0036194 0.0000802 -0.0036194
7395623 0.0000800 -0.0035275 0.9999200 0.0035275 0.9999200 0.0035275 0.0000800 -0.0035275
7558231 0.0000798 -0.0034374 0.9999202 0.0034374 0.9999202 0.0034374 0.0000798 -0.0034374
7724414 0.0000797 -0.0033488 0.9999203 0.0033488 0.9999203 0.0033488 0.0000797 -0.0033488
7894251 0.0000796 -0.0032619 0.9999204 0.0032619 0.9999204 0.0032619 0.0000796 -0.0032619
8067822 0.0000796 -0.0031765 0.9999204 0.0031765 0.9999204 0.0031765 0.0000796 -0.0031765
8245209 0.0000795 -0.0030927 0.9999205 0.0030927 0.9999205 0.0030927 0.0000795 -0.0030927
8426497 0.0000795 -0.0030103 0.9999205 0.0030103 0.9999205 0.0030103 0.0000795 -0.0030103
8611770 0.0000795 -0.0029293 0.9999205 0.0029293 0.9999205 0.0029293 0.0000795 -0.0029293
8801117 0.0000796 -0.0028497 0.9999204 0.0028497 0.9999204 0.0028497 0.0000796 -0.0028497
8994628 0.0000796 -0.0027715 0.9999204 0.0027715 0.9999204 0.0027715 0.0000796 -0.0027715
9192393 0.0000797 -0.0026946 0.9999203 0.0026946 0.9999203 0.0026946 0.0000797 -0.0026946
9394506 0.0000798 -0.0026190 0.9999202 0.0026190 0.9999202 0.0026190 0.0000798 -0.0026190
9601063 0.0000800 -0.0025447 0.9999200 0.0025447 0.9999200 0.0025447 0.0000800 -0.0025447
9812162 0.0000801 -0.0024715 0.9999199 0.0024715 0.9999199 0.0024715 0.0000801 -0.0024715
10027902 0.0000803 -0.0023995 0.9999197 0.0023995 0.9999197 0.0023995 0.0000803 -0.0023995
10248386 0.0000805 -0.0023286 0.9999195 0.0023286 0.9999195 0.0023286 0.0000805 -0.0023286
10473717 0.0000807 -0.0022589 0.9999193 0.0022589 0.9999193 0.0022589 0.0000807 -0.0022589
10704003 0.0000810 -0.0021902 0.9999190 0.0021902 0.9999190 0.0021902 0.0000810 -0.0021902
10939352 0.0000812 -0.0021226 0.9999188 0.0021226 0.9999188 0.0021226 0.0000812 -0.0021226
11179876 0.0000815 -0.0020559 0.9999185 0.0020559 0.9999185 0.0020559 0.0000815 -0.0020559
11425688 0.0000818 -0.0019902 0.9999182 0.0019902 0.9999182 0.0019902 0.0000818 -0.0019902
11676904 0.0000821 -0.0019255 0.9999179 0.0019255 0.9999179 0.0019255 0.0000821 -0.0019255
11933645 0.0000825 -0.0018616 0.9999175 0.0018616 0.9999175 0.0018616 0.0000825 -0.0018616
12196030 0.0000828 -0.0017987 0.9999172 0.0017987 0.9999172 0.0017987 0.0000828 -0.0017987
12464184 0.0000832 -0.0017366 0.9999168 0.0017366 0.9999168 0.0017366 0.0000832 -0.0017366
12738235 0.0000836 -0.0016753 0.9999164 0.0016753 0.9999164 0.0016753 0.0000836 -0.0016753
13018310 0.0000841 -0.0016147 0.9999159 0.0016147 0.9999159 0.0016147 0.0000841 -0.0016147
13304544 0.0000845 -0.0015549 0.9999155 0.0015549 0.9999155 0.0015549 0.0000845 -0.0015549
13597071 0.0000850 -0.0014959 0.9999150 0.0014959 0.9999150 0.0014959 0.0000850 -0.0014959
13896030 0.0000855 -0.0014375 0.9999145 0.0014375 0.9999145 0.0014375 0.0000855 -0.0014375
14201563 0.0000861 -0.0013798 0.9999139 0.0013798 0.9999139 0.0013798 0.0000861 -0.0013798
14513813 0.0000866 -0.0013227 0.9999134 0.0013227 0.9999134 0.0013227 0.0000866 -0.0013227
14832928 0.0000872 -0.0012662 0.9999128 0.0012662 0.9999128 0.0012662 0.0000872 -0.0012662
15159060 0.0000878 -0.0012103 0.9999122 0.0012103 0.9999122 0.0012103 0.0000878 -0.0012103
15492362 0.0000885 -0.0011550 0.9999115 0.0011550 0.9999115 0.0011550 0.0000885 -0.0011550
15832993 0.0000892 -0.0011001 0.9999108 0.0011001 0.9999108 0.0011001 0.0000892 -0.0011001
16181113 0.0000899 -0.0010458 0.9999101 0.0010458 0.9999101 0.0010458 0.0000899 -0.0010458
16536888 0.0000907 -0.0009919 0.9999093 0.0009919 0.9999093 0.0009919 0.0000907 -0.0009919
16900485 0.0000915 -0.0009384 0.9999085 0.0009384 0.9999085 0.0009384 0.0000915 -0.0009384
17272076 0.0000923 -0.0008853 0.9999077 0.0008853 0.9999077 0.0008853 0.0000923 -0.0008853
17651837 0.0000932 -0.0008326 0.9999068 0.0008326 0.9999068 0.0008326 0.0000932 -0.0008326
18039948 0.0000941 -0.0007802 0.9999059 0.0007802 0.9999059 0.0007802 0.0000941 -0.0007802
18436593 0.0000951 -0.0007281 0.9999049 0.0007281 0.9999049 0.0007281 0.0000951 -0.0007281
18841959 0.0000961 -0.0006764 0.9999039 0.0006764 0.9999039 0.0006764 0.0000961 -0.0006764
19256237 0.0000972 -0.0006248 0.9999028 0.0006248 0.9999028 0.0006248 0.0000972 -0.0006248
19679624 0.0000983 -0.0005735 0.9999017 0.0005735 0.9999017 0.0005735 0.0000983 -0.0005735
20112321 0.0000995 -0.0005224 0.9999005 0.0005224 0.9999005 0.0005224 0.0000995 -0.0005224
20554530 0.0001008 -0.0004714 0.9998992 0.0004714 0.9998992 0.0004714 0.0001008 -0.0004714
21006463 0.0001021 -0.0004205 0.9998979 0.0004205 0.9998979 0.0004205 0.0001021 -0.0004205
21468333 0.0001035 -0.0003697 0.9998965 0.0003697 0.9998965 0.0003697 0.0001035 -0.0003697
21940357 0.0001050 -0.0003190 0.9998950 0.0003190 0.9998950 0.0003190 0.0001050 -0.0003190
22422760 0.0001065 -0.0002683 0.9998935 0.0002683 0.9998935 0.0002683 0.0001065 -0.0002683
22915770 0.0001082 -0.0002176 0.9998918 0.0002176 0.9998918 0.0002176 0.0001082 -0.0002176
23419619 0.0001100 -0.0001668 0.9998900 0.0001668 0.9998900 0.0001668 0.0001100 -0.0001668
23934547 0.0001118 -0.0001160 0.9998882 0.0001160 0.9998882 0.0001160 0.0001118 -0.0001160
24460796 0.0001138 -0.0000650 0.9998862 0.0000650 0.9998862 0.0000650 0.0001138 -0.0000650
24998616 0.0001159 -0.0000138 0.9998841 0.0000138 0.9998841 0.0000138 0.0001159 -0.0000138
25548261 0.0001182 0.0000376 0.9998818 -0.0000376 0.9998818 -0.0000376 0.0001182 0.0000376
26109991 0.0001205 0.0000893 0.9998795 -0.0000893 0.9998795 -0.0000893 0.0001205 0.0000893
26684072 0.0001231 0.0001413 0.9998769 -0.0001413 0.9998769 -0.0001413 0.0001231 0.0001413
27270775 0.0001258 0.0001936 0.9998742 -0.0001936 0.9998742 -0.0001936 0.0001258 0.0001936
27870378 0.0001288 0.0002465 0.9998712 -0.0002465 0.9998712 -0.0002465 0.0001288 0.0002465
28483164 0.0001319 0.0002998 0.9998681 -0.0002998 0.9998681 -0.0002998 0.0001319 0.0002998
29109424 0.0001353 0.0003536 0.9998647 -0.0003536 0.9998647 -0.0003536 0.0001353 0.0003536
29749453 0.0001390 0.0004082 0.9998610 -0.0004082 0.9998610 -0.0004082 0.0001390 0.0004082
30403555 0.0001430 0.0004634 0.9998570 -0.0004634 0.9998570 -0.0004634 0.0001430 0.0004634
31072038 0.0001473 0.0005195 0.9998527 -0.0005195 0.9998527 -0.0005195 0.0001473 0.0005195
31755220 0.0001520 0.0005765 0.9998480 -0.0005765 0.9998480 -0.0005765 0.0001520 0.0005765
32453422 0.0001572 0.0006345 0.9998428 -0.0006345 0.9998428 -0.0006345 0.0001572 0.0006345
33166976 0.0001629 0.0006937 0.9998371 -0.0006937 0.9998371 -0.0006937 0.0001629 0.0006937
33896219 0.0001692 0.0007542 0.9998308 -0.0007542 0.9998308 -0.0007542 0.0001692 0.0007542
34641496 0.0001763 0.0008162 0.9998237 -0.0008162 0.9998237 -0.0008162 0.0001763 0.0008162
35403159 0.0001842 0.0008798 0.9998158 -0.0008798 0.9998158 -0.0008798 0.0001842 0.0008798
36181569 0.0001931 0.0009454 0.9998069 -0.0009454 0.9998069 -0.0009454 0.0001931 0.0009454
36977093 0.0002033 0.0010132 0.9997967 -0.0010132 0.9997967 -0.0010132 0.0002033 0.0010132
37790109 0.0002150 0.0010835 0.9997850 -0.0010835 0.9997850 -0.0010835 0.0002150 0.0010835
38621001 0.0002286 0.0011567 0.9997714 -0.0011567 0.9997714 -0.0011567 0.0002286 0.0011567
39470161 0.0002446 0.0012332 0.9997554 -0.0012332 0.9997554 -0.0012332 0.0002446 0.0012332
40337993 0.0002638 0.0013136 0.9997362 -0.0013136 0.9997362 -0.0013136 0.0002638 0.0013136
41224905 0.0002872 0.0013987 0.9997128 -0.0013987 0.9997128 -0.0013987 0.0002872 0.0013987
42131317 0.0003161 0.0014890 0.9996839 -0.0014890 0.9996839 -0.0014890 0.0003161 0.0014890
43057659 0.0003528 0.0015856 0.9996472 -0.0015856 0.9996472 -0.0015856 0.0003528 0.0015856
44004369 0.0004005 0.0016892 0.9995995 -0.0016892 0.9995995 -0.0016892 0.0004005 0.0016892
44971893 0.0004640 0.0018002 0.9995360 -0.0018002 0.9995360 -0.0018002 0.0004640 0.0018002
45960691 0.0005512 0.0019180 0.9994488 -0.0019180 0.9994488 -0.0019180 0.0005512 0.0019180
46971230 0.0006738 0.0020382 0.9993262 -0.0020382 0.9993262 -0.0020382 0.0006738 0.0020382
48003987 0.0008489 0.0021474 0.9991511 -0.0021474 0.9991511 -0.0021474 0.0008489 0.0021474
49059451 0.0010939 0.0022114 0.9989061 -0.0022114 0.9989061 -0.0022114 0.0010939 0.0022114
50138122 0.0014019 0.0021604 0.9985981 -0.0021604 0.9985981 -0.0021604 0.0014019 0.0021604
51240510 0.0016788 0.0019150 0.9983212 -0.0019150 0.9983212 -0.0019150 0.0016788 0.0019150
52367136 0.0017425 0.0015246 0.9982575 -0.0015246 0.9982575 -0.0015246 0.0017425 0.0015246
53518533 0.0015469 0.0012136 0.9984531 -0.0012136 0.9984531 -0.0012136 0.0015469 0.0012136
54695245 0.0012588 0.0011083 0.9987412 -0.0011083 0.9987412 -0.0011083 0.0012588 0.0011083
55897831 0.0010152 0.0011547 0.9989848 -0.0011547 0.9989848 -0.0011547 0.0010152 0.0011547
57126857 0.0008468 0.0012715 0.9991532 -0.0012715 0.9991532 -0.0012715 0.0008468 0.0012715
58382906 0.0007405 0.0014130 0.9992595 -0.0014130 0.9992595 -0.0014130 0.0007405 0.0014130
59666572 0.0006787 0.0015603 0.9993213 -0.0015603 0.9993213 -0.0015603 0.0006787 0.0015603
60978462 0.0006488 0.0017070 0.9993512 -0.0017070 0.9993512 -0.0017070 0.0006488 0.0017070
62319196 0.0006432 0.0018517 0.9993568 -0.0018517 0.9993568 -0.0018517 0.0006432 0.0018517
63689409 0.0006581 0.0019948 0.9993419 -0.0019948 0.9993419 -0.0019948 0.0006581 0.0019948
65089750 0.0006924 0.0021369 0.9993076 -0.0021369 0.9993076 -0.0021369 0.0006924 0.0021369
66520879 0.0007470 0.0022784 0.9992530 -0.0022784 0.9992530 -0.0022784 0.0007470 0.0022784
67983474 0.0008251 0.0024185 0.9991749 -0.0024185 0.9991749 -0.0024185 0.0008251 0.0024185
69478228 0.0009317 0.0025542 0.9990683 -0.0025542 0.9990683 -0.0025542 0.0009317 0.0025542
71005847 0.0010736 0.0026788 0.9989264 -0.0026788 0.9989264 -0.0026788 0.0010736 0.0026788
72567054 0.0012577 0.0027791 0.9987423 -0.0027791 0.9987423 -0.0027791 0.0012577 0.0027791
74162587 0.0014870 0.0028317 0.9985130 -0.0028317 0.9985130 -0.0028317 0.0014870 0.0028317
75793201 0.0017495 0.0028022 0.9982505 -0.0028022 0.9982505 -0.0028022 0.0017495 0.0028022
77459667 0.0020029 0.0026562 0.9979971 -0.0026562 0.9979971 -0.0026562 0.0020029 0.0026562
79162774 0.0021710 0.0023925 0.9978290 -0.0023925 0.9978290 -0.0023925 0.0021710 0.0023925
80903327 0.0021831 0.0020756 0.9978169 -0.0020756 0.9978169 -0.0020756 0.0021831 0.0020756
82682150 0.0020378 0.0018099 0.9979622 -0.0018099 0.9979622 -0.0018099 0.0020378 0.0018099
84500083 0.0018045 0.0016624 0.9981955 -0.0016624 0.9981955 -0.0016624 0.0018045 0.0016624
86357988 0.0015607 0.0016334 0.9984393 -0.0016334 0.9984393 -0.0016334 0.0015607 0.0016334
88256743 0.0013501 0.0016885 0.9986499 -0.0016885 0.9986499 -0.0016885 0.0013501 0.0016885
90197245 0.0011853 0.0017927 0.9988147 -0.0017927 0.9988147 -0.0017927 0.0011853 0.0017927
92180413 0.0010638 0.0019216 0.9989362 -0.0019216 0.9989362 -0.0019216 0.0010638 0.0019216
94207185 0.0009784 0.0020611 0.9990216 -0.0020611 0.9990216 -0.0020611 0.0009784 0.0020611
96278520 0.0009222 0.0022036 0.9990778 -0.0022036 0.9990778 -0.0022036 0.0009222 0.0022036
98395398 0.0008897 0.0023450 0.9991103 -0.0023450 0.9991103 -0.0023450 0.0008897 0.0023450
100558819 0.0008768 0.0024828 0.9991232 -0.0024828 0.9991232 -0.0024828 0.0008768 0.0024828
102769807 0.0008809 0.0026154 0.9991191 -0.0026154 0.9991191 -0.0026154 0.0008809 0.0026154
105029408 0.0009000 0.0027408 0.9991000 -0.0027408 0.9991000 -0.0027408 0.0009000 0.0027408
107338692 0.0009322 0.0028566 0.9990678 -0.0028566 0.9990678 -0.0028566 0.0009322 0.0028566
