!Murata Part Number: GRM31A5C2J560JW01
!These Parameters are Measured in Series Mode Connection
!Data Generated on Mar 30, 2021
!       o--ll--o
!Port1            Port2
!       o------o
!Operation Temp=25[degC], DC Bias Voltage=0[V]
!Freq. Start=100[MHz] Stop=3[GHz] 401[Steps]
# Hz S RI R 50
!Freq.(Hz) S11(Real) S11(Imag) S21(Real) S21(Imag) S12(Real) S12(Imag) S22(Real) S22(Imag)
100000000 0.0733087 -0.2581074 0.9266913 0.2581074 0.9266913 0.2581074 0.0733087 -0.2581074
107250000 0.0641760 -0.2423391 0.9358240 0.2423391 0.9358240 0.2423391 0.0641760 -0.2423391
114500000 0.0565892 -0.2281353 0.9434108 0.2281353 0.9434108 0.2281353 0.0565892 -0.2281353
121750000 0.0502247 -0.2152921 0.9497753 0.2152921 0.9497753 0.2152921 0.0502247 -0.2152921
129000000 0.0448378 -0.2036341 0.9551622 0.2036341 0.9551622 0.2036341 0.0448378 -0.2036341
136250000 0.0402412 -0.1930109 0.9597588 0.1930109 0.9597588 0.1930109 0.0402412 -0.1930109
143500000 0.0362897 -0.1832947 0.9637103 0.1832947 0.9637103 0.1832947 0.0362897 -0.1832947
150750000 0.0328697 -0.1743758 0.9671303 0.1743758 0.9671303 0.1743758 0.0328697 -0.1743758
158000000 0.0298912 -0.1661608 0.9701088 0.1661608 0.9701088 0.1661608 0.0298912 -0.1661608
165250000 0.0272825 -0.1585693 0.9727175 0.1585693 0.9727175 0.1585693 0.0272825 -0.1585693
172500000 0.0249854 -0.1515323 0.9750146 0.1515323 0.9750146 0.1515323 0.0249854 -0.1515323
179750000 0.0229530 -0.1449901 0.9770470 0.1449901 0.9770470 0.1449901 0.0229530 -0.1449901
187000000 0.0211466 -0.1388910 0.9788534 0.1388910 0.9788534 0.1388910 0.0211466 -0.1388910
194250000 0.0195344 -0.1331901 0.9804656 0.1331901 0.9804656 0.1331901 0.0195344 -0.1331901
201500000 0.0180900 -0.1278481 0.9819100 0.1278481 0.9819100 0.1278481 0.0180900 -0.1278481
208750000 0.0167911 -0.1228306 0.9832089 0.1228306 0.9832089 0.1228306 0.0167911 -0.1228306
216000000 0.0156193 -0.1181074 0.9843807 0.1181074 0.9843807 0.1181074 0.0156193 -0.1181074
223250000 0.0145587 -0.1136518 0.9854413 0.1136518 0.9854413 0.1136518 0.0145587 -0.1136518
230500000 0.0135961 -0.1094402 0.9864039 0.1094402 0.9864039 0.1094402 0.0135961 -0.1094402
237750000 0.0127199 -0.1054517 0.9872801 0.1054517 0.9872801 0.1054517 0.0127199 -0.1054517
245000000 0.0119203 -0.1016675 0.9880797 0.1016675 0.9880797 0.1016675 0.0119203 -0.1016675
252250000 0.0111890 -0.0980710 0.9888110 0.0980710 0.9888110 0.0980710 0.0111890 -0.0980710
259500000 0.0105186 -0.0946472 0.9894814 0.0946472 0.9894814 0.0946472 0.0105186 -0.0946472
266750000 0.0099027 -0.0913828 0.9900973 0.0913828 0.9900973 0.0913828 0.0099027 -0.0913828
274000000 0.0093358 -0.0882657 0.9906642 0.0882657 0.9906642 0.0882657 0.0093358 -0.0882657
281250000 0.0088130 -0.0852849 0.9911870 0.0852849 0.9911870 0.0852849 0.0088130 -0.0852849
288500000 0.0083300 -0.0824306 0.9916700 0.0824306 0.9916700 0.0824306 0.0083300 -0.0824306
295750000 0.0078831 -0.0796938 0.9921169 0.0796938 0.9921169 0.0796938 0.0078831 -0.0796938
303000000 0.0074690 -0.0770665 0.9925310 0.0770665 0.9925310 0.0770665 0.0074690 -0.0770665
310250000 0.0070847 -0.0745411 0.9929153 0.0745411 0.9929153 0.0745411 0.0070847 -0.0745411
317500000 0.0067276 -0.0721110 0.9932724 0.0721110 0.9932724 0.0721110 0.0067276 -0.0721110
324750000 0.0063954 -0.0697700 0.9936046 0.0697700 0.9936046 0.0697700 0.0063954 -0.0697700
332000000 0.0060859 -0.0675123 0.9939141 0.0675123 0.9939141 0.0675123 0.0060859 -0.0675123
339250000 0.0057973 -0.0653329 0.9942027 0.0653329 0.9942027 0.0653329 0.0057973 -0.0653329
346500000 0.0055279 -0.0632268 0.9944721 0.0632268 0.9944721 0.0632268 0.0055279 -0.0632268
353750000 0.0052762 -0.0611898 0.9947238 0.0611898 0.9947238 0.0611898 0.0052762 -0.0611898
361000000 0.0050409 -0.0592178 0.9949591 0.0592178 0.9949591 0.0592178 0.0050409 -0.0592178
368250000 0.0048207 -0.0573070 0.9951793 0.0573070 0.9951793 0.0573070 0.0048207 -0.0573070
375500000 0.0046145 -0.0554539 0.9953855 0.0554539 0.9953855 0.0554539 0.0046145 -0.0554539
382750000 0.0044213 -0.0536553 0.9955787 0.0536553 0.9955787 0.0536553 0.0044213 -0.0536553
390000000 0.0042401 -0.0519083 0.9957599 0.0519083 0.9957599 0.0519083 0.0042401 -0.0519083
397250000 0.0040702 -0.0502101 0.9959298 0.0502101 0.9959298 0.0502101 0.0040702 -0.0502101
404500000 0.0039108 -0.0485581 0.9960892 0.0485581 0.9960892 0.0485581 0.0039108 -0.0485581
411750000 0.0037611 -0.0469499 0.9962389 0.0469499 0.9962389 0.0469499 0.0037611 -0.0469499
419000000 0.0036205 -0.0453832 0.9963795 0.0453832 0.9963795 0.0453832 0.0036205 -0.0453832
426250000 0.0034885 -0.0438561 0.9965115 0.0438561 0.9965115 0.0438561 0.0034885 -0.0438561
433500000 0.0033645 -0.0423664 0.9966355 0.0423664 0.9966355 0.0423664 0.0033645 -0.0423664
440750000 0.0032481 -0.0409125 0.9967519 0.0409125 0.9967519 0.0409125 0.0032481 -0.0409125
448000000 0.0031386 -0.0394925 0.9968614 0.0394925 0.9968614 0.0394925 0.0031386 -0.0394925
455250000 0.0030359 -0.0381049 0.9969641 0.0381049 0.9969641 0.0381049 0.0030359 -0.0381049
462500000 0.0029394 -0.0367482 0.9970606 0.0367482 0.9970606 0.0367482 0.0029394 -0.0367482
469750000 0.0028488 -0.0354210 0.9971512 0.0354210 0.9971512 0.0354210 0.0028488 -0.0354210
477000000 0.0027637 -0.0341219 0.9972363 0.0341219 0.9972363 0.0341219 0.0027637 -0.0341219
484250000 0.0026840 -0.0328496 0.9973160 0.0328496 0.9973160 0.0328496 0.0026840 -0.0328496
491500000 0.0026092 -0.0316031 0.9973908 0.0316031 0.9973908 0.0316031 0.0026092 -0.0316031
498750000 0.0025391 -0.0303811 0.9974609 0.0303811 0.9974609 0.0303811 0.0025391 -0.0303811
506000000 0.0024735 -0.0291827 0.9975265 0.0291827 0.9975265 0.0291827 0.0024735 -0.0291827
513250000 0.0024122 -0.0280068 0.9975878 0.0280068 0.9975878 0.0280068 0.0024122 -0.0280068
520500000 0.0023549 -0.0268525 0.9976451 0.0268525 0.9976451 0.0268525 0.0023549 -0.0268525
527750000 0.0023015 -0.0257189 0.9976985 0.0257189 0.9976985 0.0257189 0.0023015 -0.0257189
535000000 0.0022517 -0.0246052 0.9977483 0.0246052 0.9977483 0.0246052 0.0022517 -0.0246052
542250000 0.0022054 -0.0235106 0.9977946 0.0235106 0.9977946 0.0235106 0.0022054 -0.0235106
549500000 0.0021624 -0.0224343 0.9978376 0.0224343 0.9978376 0.0224343 0.0021624 -0.0224343
556750000 0.0021226 -0.0213756 0.9978774 0.0213756 0.9978774 0.0213756 0.0021226 -0.0213756
564000000 0.0020859 -0.0203339 0.9979141 0.0203339 0.9979141 0.0203339 0.0020859 -0.0203339
571250000 0.0020520 -0.0193084 0.9979480 0.0193084 0.9979480 0.0193084 0.0020520 -0.0193084
578500000 0.0020209 -0.0182986 0.9979791 0.0182986 0.9979791 0.0182986 0.0020209 -0.0182986
585750000 0.0019925 -0.0173039 0.9980075 0.0173039 0.9980075 0.0173039 0.0019925 -0.0173039
593000000 0.0019667 -0.0163237 0.9980333 0.0163237 0.9980333 0.0163237 0.0019667 -0.0163237
600250000 0.0019433 -0.0153575 0.9980567 0.0153575 0.9980567 0.0153575 0.0019433 -0.0153575
607500000 0.0019222 -0.0144048 0.9980778 0.0144048 0.9980778 0.0144048 0.0019222 -0.0144048
614750000 0.0019035 -0.0134651 0.9980965 0.0134651 0.9980965 0.0134651 0.0019035 -0.0134651
622000000 0.0018869 -0.0125380 0.9981131 0.0125380 0.9981131 0.0125380 0.0018869 -0.0125380
629250000 0.0018724 -0.0116230 0.9981276 0.0116230 0.9981276 0.0116230 0.0018724 -0.0116230
636500000 0.0018599 -0.0107197 0.9981401 0.0107197 0.9981401 0.0107197 0.0018599 -0.0107197
643750000 0.0018494 -0.0098277 0.9981506 0.0098277 0.9981506 0.0098277 0.0018494 -0.0098277
651000000 0.0018408 -0.0089467 0.9981592 0.0089467 0.9981592 0.0089467 0.0018408 -0.0089467
658250000 0.0018341 -0.0080761 0.9981659 0.0080761 0.9981659 0.0080761 0.0018341 -0.0080761
665500000 0.0018291 -0.0072158 0.9981709 0.0072158 0.9981709 0.0072158 0.0018291 -0.0072158
672750000 0.0018258 -0.0063654 0.9981742 0.0063654 0.9981742 0.0063654 0.0018258 -0.0063654
680000000 0.0018241 -0.0055245 0.9981759 0.0055245 0.9981759 0.0055245 0.0018241 -0.0055245
687250000 0.0018241 -0.0046928 0.9981759 0.0046928 0.9981759 0.0046928 0.0018241 -0.0046928
694500000 0.0018256 -0.0038701 0.9981744 0.0038701 0.9981744 0.0038701 0.0018256 -0.0038701
701750000 0.0018286 -0.0030560 0.9981714 0.0030560 0.9981714 0.0030560 0.0018286 -0.0030560
709000000 0.0018331 -0.0022503 0.9981669 0.0022503 0.9981669 0.0022503 0.0018331 -0.0022503
716250000 0.0018390 -0.0014528 0.9981610 0.0014528 0.9981610 0.0014528 0.0018390 -0.0014528
723500000 0.0018464 -0.0006631 0.9981536 0.0006631 0.9981536 0.0006631 0.0018464 -0.0006631
730750000 0.0018550 0.0001189 0.9981450 -0.0001189 0.9981450 -0.0001189 0.0018550 0.0001189
738000000 0.0018650 0.0008935 0.9981350 -0.0008935 0.9981350 -0.0008935 0.0018650 0.0008935
745250000 0.0018763 0.0016610 0.9981237 -0.0016610 0.9981237 -0.0016610 0.0018763 0.0016610
752500000 0.0018888 0.0024215 0.9981112 -0.0024215 0.9981112 -0.0024215 0.0018888 0.0024215
759750000 0.0019025 0.0031752 0.9980975 -0.0031752 0.9980975 -0.0031752 0.0019025 0.0031752
767000000 0.0019175 0.0039223 0.9980825 -0.0039223 0.9980825 -0.0039223 0.0019175 0.0039223
774250000 0.0019336 0.0046631 0.9980664 -0.0046631 0.9980664 -0.0046631 0.0019336 0.0046631
781500000 0.0019508 0.0053977 0.9980492 -0.0053977 0.9980492 -0.0053977 0.0019508 0.0053977
788750000 0.0019692 0.0061263 0.9980308 -0.0061263 0.9980308 -0.0061263 0.0019692 0.0061263
796000000 0.0019886 0.0068490 0.9980114 -0.0068490 0.9980114 -0.0068490 0.0019886 0.0068490
803250000 0.0020091 0.0075661 0.9979909 -0.0075661 0.9979909 -0.0075661 0.0020091 0.0075661
810500000 0.0020307 0.0082777 0.9979693 -0.0082777 0.9979693 -0.0082777 0.0020307 0.0082777
817750000 0.0020533 0.0089839 0.9979467 -0.0089839 0.9979467 -0.0089839 0.0020533 0.0089839
825000000 0.0020769 0.0096849 0.9979231 -0.0096849 0.9979231 -0.0096849 0.0020769 0.0096849
832250000 0.0021015 0.0103808 0.9978985 -0.0103808 0.9978985 -0.0103808 0.0021015 0.0103808
839500000 0.0021271 0.0110718 0.9978729 -0.0110718 0.9978729 -0.0110718 0.0021271 0.0110718
846750000 0.0021536 0.0117580 0.9978464 -0.0117580 0.9978464 -0.0117580 0.0021536 0.0117580
854000000 0.0021811 0.0124395 0.9978189 -0.0124395 0.9978189 -0.0124395 0.0021811 0.0124395
861250000 0.0022095 0.0131165 0.9977905 -0.0131165 0.9977905 -0.0131165 0.0022095 0.0131165
868500000 0.0022388 0.0137891 0.9977612 -0.0137891 0.9977612 -0.0137891 0.0022388 0.0137891
875750000 0.0022690 0.0144574 0.9977310 -0.0144574 0.9977310 -0.0144574 0.0022690 0.0144574
883000000 0.0023001 0.0151215 0.9976999 -0.0151215 0.9976999 -0.0151215 0.0023001 0.0151215
890250000 0.0023321 0.0157815 0.9976679 -0.0157815 0.9976679 -0.0157815 0.0023321 0.0157815
897500000 0.0023649 0.0164375 0.9976351 -0.0164375 0.9976351 -0.0164375 0.0023649 0.0164375
904750000 0.0023986 0.0170897 0.9976014 -0.0170897 0.9976014 -0.0170897 0.0023986 0.0170897
912000000 0.0024331 0.0177381 0.9975669 -0.0177381 0.9975669 -0.0177381 0.0024331 0.0177381
919250000 0.0024685 0.0183829 0.9975315 -0.0183829 0.9975315 -0.0183829 0.0024685 0.0183829
926500000 0.0025046 0.0190241 0.9974954 -0.0190241 0.9974954 -0.0190241 0.0025046 0.0190241
933750000 0.0025416 0.0196617 0.9974584 -0.0196617 0.9974584 -0.0196617 0.0025416 0.0196617
941000000 0.0025794 0.0202960 0.9974206 -0.0202960 0.9974206 -0.0202960 0.0025794 0.0202960
948250000 0.0026179 0.0209270 0.9973821 -0.0209270 0.9973821 -0.0209270 0.0026179 0.0209270
955500000 0.0026573 0.0215548 0.9973427 -0.0215548 0.9973427 -0.0215548 0.0026573 0.0215548
962750000 0.0026974 0.0221794 0.9973026 -0.0221794 0.9973026 -0.0221794 0.0026974 0.0221794
970000000 0.0027383 0.0228010 0.9972617 -0.0228010 0.9972617 -0.0228010 0.0027383 0.0228010
977250000 0.0027799 0.0234195 0.9972201 -0.0234195 0.9972201 -0.0234195 0.0027799 0.0234195
984500000 0.0028223 0.0240352 0.9971777 -0.0240352 0.9971777 -0.0240352 0.0028223 0.0240352
991750000 0.0028655 0.0246480 0.9971345 -0.0246480 0.9971345 -0.0246480 0.0028655 0.0246480
999000000 0.0029094 0.0252580 0.9970906 -0.0252580 0.9970906 -0.0252580 0.0029094 0.0252580
1006250000 0.0029540 0.0258653 0.9970460 -0.0258653 0.9970460 -0.0258653 0.0029540 0.0258653
1013500000 0.0029994 0.0264700 0.9970006 -0.0264700 0.9970006 -0.0264700 0.0029994 0.0264700
1020750000 0.0030455 0.0270721 0.9969545 -0.0270721 0.9969545 -0.0270721 0.0030455 0.0270721
1028000000 0.0030923 0.0276718 0.9969077 -0.0276718 0.9969077 -0.0276718 0.0030923 0.0276718
1035250000 0.0031398 0.0282689 0.9968602 -0.0282689 0.9968602 -0.0282689 0.0031398 0.0282689
1042500000 0.0031881 0.0288637 0.9968119 -0.0288637 0.9968119 -0.0288637 0.0031881 0.0288637
1049750000 0.0032370 0.0294561 0.9967630 -0.0294561 0.9967630 -0.0294561 0.0032370 0.0294561
1057000000 0.0032867 0.0300463 0.9967133 -0.0300463 0.9967133 -0.0300463 0.0032867 0.0300463
1064250000 0.0033370 0.0306343 0.9966630 -0.0306343 0.9966630 -0.0306343 0.0033370 0.0306343
1071500000 0.0033881 0.0312201 0.9966119 -0.0312201 0.9966119 -0.0312201 0.0033881 0.0312201
1078750000 0.0034398 0.0318037 0.9965602 -0.0318037 0.9965602 -0.0318037 0.0034398 0.0318037
1086000000 0.0034922 0.0323853 0.9965078 -0.0323853 0.9965078 -0.0323853 0.0034922 0.0323853
1093250000 0.0035454 0.0329650 0.9964546 -0.0329650 0.9964546 -0.0329650 0.0035454 0.0329650
1100500000 0.0035992 0.0335426 0.9964008 -0.0335426 0.9964008 -0.0335426 0.0035992 0.0335426
1107750000 0.0036537 0.0341183 0.9963463 -0.0341183 0.9963463 -0.0341183 0.0036537 0.0341183
1115000000 0.0037088 0.0346922 0.9962912 -0.0346922 0.9962912 -0.0346922 0.0037088 0.0346922
1122250000 0.0037647 0.0352642 0.9962353 -0.0352642 0.9962353 -0.0352642 0.0037647 0.0352642
1129500000 0.0038212 0.0358345 0.9961788 -0.0358345 0.9961788 -0.0358345 0.0038212 0.0358345
1136750000 0.0038784 0.0364030 0.9961216 -0.0364030 0.9961216 -0.0364030 0.0038784 0.0364030
1144000000 0.0039363 0.0369698 0.9960637 -0.0369698 0.9960637 -0.0369698 0.0039363 0.0369698
1151250000 0.0039949 0.0375350 0.9960051 -0.0375350 0.9960051 -0.0375350 0.0039949 0.0375350
1158500000 0.0040541 0.0380986 0.9959459 -0.0380986 0.9959459 -0.0380986 0.0040541 0.0380986
1165750000 0.0041140 0.0386606 0.9958860 -0.0386606 0.9958860 -0.0386606 0.0041140 0.0386606
1173000000 0.0041745 0.0392210 0.9958255 -0.0392210 0.9958255 -0.0392210 0.0041745 0.0392210
1180250000 0.0042358 0.0397800 0.9957642 -0.0397800 0.9957642 -0.0397800 0.0042358 0.0397800
1187500000 0.0042976 0.0403375 0.9957024 -0.0403375 0.9957024 -0.0403375 0.0042976 0.0403375
1194750000 0.0043602 0.0408935 0.9956398 -0.0408935 0.9956398 -0.0408935 0.0043602 0.0408935
1202000000 0.0044234 0.0414482 0.9955766 -0.0414482 0.9955766 -0.0414482 0.0044234 0.0414482
1209250000 0.0044873 0.0420015 0.9955127 -0.0420015 0.9955127 -0.0420015 0.0044873 0.0420015
1216500000 0.0045519 0.0425536 0.9954481 -0.0425536 0.9954481 -0.0425536 0.0045519 0.0425536
1223750000 0.0046171 0.0431043 0.9953829 -0.0431043 0.9953829 -0.0431043 0.0046171 0.0431043
1231000000 0.0046830 0.0436537 0.9953170 -0.0436537 0.9953170 -0.0436537 0.0046830 0.0436537
1238250000 0.0047495 0.0442020 0.9952505 -0.0442020 0.9952505 -0.0442020 0.0047495 0.0442020
1245500000 0.0048167 0.0447490 0.9951833 -0.0447490 0.9951833 -0.0447490 0.0048167 0.0447490
1252750000 0.0048846 0.0452949 0.9951154 -0.0452949 0.9951154 -0.0452949 0.0048846 0.0452949
1260000000 0.0049532 0.0458397 0.9950468 -0.0458397 0.9950468 -0.0458397 0.0049532 0.0458397
1267250000 0.0050224 0.0463833 0.9949776 -0.0463833 0.9949776 -0.0463833 0.0050224 0.0463833
1274500000 0.0050923 0.0469259 0.9949077 -0.0469259 0.9949077 -0.0469259 0.0050923 0.0469259
1281750000 0.0051628 0.0474674 0.9948372 -0.0474674 0.9948372 -0.0474674 0.0051628 0.0474674
1289000000 0.0052340 0.0480079 0.9947660 -0.0480079 0.9947660 -0.0480079 0.0052340 0.0480079
1296250000 0.0053059 0.0485474 0.9946941 -0.0485474 0.9946941 -0.0485474 0.0053059 0.0485474
1303500000 0.0053785 0.0490860 0.9946215 -0.0490860 0.9946215 -0.0490860 0.0053785 0.0490860
1310750000 0.0054517 0.0496236 0.9945483 -0.0496236 0.9945483 -0.0496236 0.0054517 0.0496236
1318000000 0.0055256 0.0501603 0.9944744 -0.0501603 0.9944744 -0.0501603 0.0055256 0.0501603
1325250000 0.0056002 0.0506961 0.9943998 -0.0506961 0.9943998 -0.0506961 0.0056002 0.0506961
1332500000 0.0056755 0.0512310 0.9943245 -0.0512310 0.9943245 -0.0512310 0.0056755 0.0512310
1339750000 0.0057514 0.0517652 0.9942486 -0.0517652 0.9942486 -0.0517652 0.0057514 0.0517652
1347000000 0.0058280 0.0522984 0.9941720 -0.0522984 0.9941720 -0.0522984 0.0058280 0.0522984
1354250000 0.0059053 0.0528309 0.9940947 -0.0528309 0.9940947 -0.0528309 0.0059053 0.0528309
1361500000 0.0059833 0.0533627 0.9940167 -0.0533627 0.9940167 -0.0533627 0.0059833 0.0533627
1368750000 0.0060620 0.0538936 0.9939380 -0.0538936 0.9939380 -0.0538936 0.0060620 0.0538936
1376000000 0.0061413 0.0544239 0.9938587 -0.0544239 0.9938587 -0.0544239 0.0061413 0.0544239
1383250000 0.0062214 0.0549535 0.9937786 -0.0549535 0.9937786 -0.0549535 0.0062214 0.0549535
1390500000 0.0063021 0.0554823 0.9936979 -0.0554823 0.9936979 -0.0554823 0.0063021 0.0554823
1397750000 0.0063835 0.0560105 0.9936165 -0.0560105 0.9936165 -0.0560105 0.0063835 0.0560105
1405000000 0.0064656 0.0565381 0.9935344 -0.0565381 0.9935344 -0.0565381 0.0064656 0.0565381
1412250000 0.0065485 0.0570651 0.9934515 -0.0570651 0.9934515 -0.0570651 0.0065485 0.0570651
1419500000 0.0066320 0.0575914 0.9933680 -0.0575914 0.9933680 -0.0575914 0.0066320 0.0575914
1426750000 0.0067162 0.0581172 0.9932838 -0.0581172 0.9932838 -0.0581172 0.0067162 0.0581172
1434000000 0.0068012 0.0586424 0.9931988 -0.0586424 0.9931988 -0.0586424 0.0068012 0.0586424
1441250000 0.0068868 0.0591671 0.9931132 -0.0591671 0.9931132 -0.0591671 0.0068868 0.0591671
1448500000 0.0069732 0.0596913 0.9930268 -0.0596913 0.9930268 -0.0596913 0.0069732 0.0596913
1455750000 0.0070602 0.0602150 0.9929398 -0.0602150 0.9929398 -0.0602150 0.0070602 0.0602150
1463000000 0.0071480 0.0607381 0.9928520 -0.0607381 0.9928520 -0.0607381 0.0071480 0.0607381
1470250000 0.0072366 0.0612609 0.9927634 -0.0612609 0.9927634 -0.0612609 0.0072366 0.0612609
1477500000 0.0073258 0.0617831 0.9926742 -0.0617831 0.9926742 -0.0617831 0.0073258 0.0617831
1484750000 0.0074158 0.0623050 0.9925842 -0.0623050 0.9925842 -0.0623050 0.0074158 0.0623050
1492000000 0.0075065 0.0628264 0.9924935 -0.0628264 0.9924935 -0.0628264 0.0075065 0.0628264
1499250000 0.0075979 0.0633475 0.9924021 -0.0633475 0.9924021 -0.0633475 0.0075979 0.0633475
1506500000 0.0076901 0.0638681 0.9923099 -0.0638681 0.9923099 -0.0638681 0.0076901 0.0638681
1513750000 0.0077830 0.0643884 0.9922170 -0.0643884 0.9922170 -0.0643884 0.0077830 0.0643884
1521000000 0.0078767 0.0649084 0.9921233 -0.0649084 0.9921233 -0.0649084 0.0078767 0.0649084
1528250000 0.0079711 0.0654280 0.9920289 -0.0654280 0.9920289 -0.0654280 0.0079711 0.0654280
1535500000 0.0080663 0.0659474 0.9919337 -0.0659474 0.9919337 -0.0659474 0.0080663 0.0659474
1542750000 0.0081622 0.0664664 0.9918378 -0.0664664 0.9918378 -0.0664664 0.0081622 0.0664664
1550000000 0.0082589 0.0669852 0.9917411 -0.0669852 0.9917411 -0.0669852 0.0082589 0.0669852
1557250000 0.0083564 0.0675037 0.9916436 -0.0675037 0.9916436 -0.0675037 0.0083564 0.0675037
1564500000 0.0084546 0.0680219 0.9915454 -0.0680219 0.9915454 -0.0680219 0.0084546 0.0680219
1571750000 0.0085537 0.0685400 0.9914463 -0.0685400 0.9914463 -0.0685400 0.0085537 0.0685400
1579000000 0.0086535 0.0690578 0.9913465 -0.0690578 0.9913465 -0.0690578 0.0086535 0.0690578
1586250000 0.0087541 0.0695754 0.9912459 -0.0695754 0.9912459 -0.0695754 0.0087541 0.0695754
1593500000 0.0088554 0.0700928 0.9911446 -0.0700928 0.9911446 -0.0700928 0.0088554 0.0700928
1600750000 0.0089576 0.0706101 0.9910424 -0.0706101 0.9910424 -0.0706101 0.0089576 0.0706101
1608000000 0.0090606 0.0711272 0.9909394 -0.0711272 0.9909394 -0.0711272 0.0090606 0.0711272
1615250000 0.0091644 0.0716442 0.9908356 -0.0716442 0.9908356 -0.0716442 0.0091644 0.0716442
1622500000 0.0092690 0.0721610 0.9907310 -0.0721610 0.9907310 -0.0721610 0.0092690 0.0721610
1629750000 0.0093744 0.0726778 0.9906256 -0.0726778 0.9906256 -0.0726778 0.0093744 0.0726778
