!Murata Part Number: GRM31A7U2J102JW31
!These Parameters are Measured in Series Mode Connection
!Data Generated on Mar 30, 2021
!       o--ll--o
!Port1            Port2
!       o------o
!Operation Temp=25[degC], DC Bias Voltage=0[V]
!Freq. Start=1000[kHz] Stop=3[GHz] 401[Steps]
# Hz S RI R 50
!Freq.(Hz) S11(Real) S11(Imag) S21(Real) S21(Imag) S12(Real) S12(Imag) S22(Real) S22(Imag)
1000000 0.7162440 -0.4507500 0.2837560 0.4507500 0.2837560 0.4507500 0.7162440 -0.4507500
1020218 0.7080382 -0.4545936 0.2919618 0.4545936 0.2919618 0.4545936 0.7080382 -0.4545936
1040844 0.6996946 -0.4583180 0.3003054 0.4583180 0.3003054 0.4583180 0.6996946 -0.4583180
1061887 0.6912166 -0.4619174 0.3087834 0.4619174 0.3087834 0.4619174 0.6912166 -0.4619174
1083356 0.6826077 -0.4653858 0.3173923 0.4653858 0.3173923 0.4653858 0.6826077 -0.4653858
1105259 0.6738722 -0.4687175 0.3261278 0.4687175 0.3261278 0.4687175 0.6738722 -0.4687175
1127605 0.6650141 -0.4719068 0.3349859 0.4719068 0.3349859 0.4719068 0.6650141 -0.4719068
1150402 0.6560383 -0.4749481 0.3439617 0.4749481 0.3439617 0.4749481 0.6560383 -0.4749481
1173660 0.6469497 -0.4778362 0.3530503 0.4778362 0.3530503 0.4778362 0.6469497 -0.4778362
1197389 0.6377536 -0.4805659 0.3622464 0.4805659 0.3622464 0.4805659 0.6377536 -0.4805659
1221597 0.6284555 -0.4831322 0.3715445 0.4831322 0.3715445 0.4831322 0.6284555 -0.4831322
1246295 0.6190612 -0.4855305 0.3809388 0.4855305 0.3809388 0.4855305 0.6190612 -0.4855305
1271492 0.6095771 -0.4877563 0.3904229 0.4877563 0.3904229 0.4877563 0.6095771 -0.4877563
1297199 0.6000094 -0.4898054 0.3999906 0.4898054 0.3999906 0.4898054 0.6000094 -0.4898054
1323425 0.5903648 -0.4916740 0.4096352 0.4916740 0.4096352 0.4916740 0.5903648 -0.4916740
1350181 0.5806501 -0.4933584 0.4193499 0.4933584 0.4193499 0.4933584 0.5806501 -0.4933584
1377479 0.5708726 -0.4948554 0.4291274 0.4948554 0.4291274 0.4948554 0.5708726 -0.4948554
1405328 0.5610395 -0.4961620 0.4389605 0.4961620 0.4389605 0.4961620 0.5610395 -0.4961620
1433740 0.5511582 -0.4972758 0.4488418 0.4972758 0.4488418 0.4972758 0.5511582 -0.4972758
1462727 0.5412363 -0.4981945 0.4587637 0.4981945 0.4587637 0.4981945 0.5412363 -0.4981945
1492300 0.5312817 -0.4989162 0.4687183 0.4989162 0.4687183 0.4989162 0.5312817 -0.4989162
1522470 0.5213022 -0.4994396 0.4786978 0.4994396 0.4786978 0.4994396 0.5213022 -0.4994396
1553251 0.5113056 -0.4997636 0.4886944 0.4997636 0.4886944 0.4997636 0.5113056 -0.4997636
1584654 0.5013000 -0.4998876 0.4987000 0.4998876 0.4987000 0.4998876 0.5013000 -0.4998876
1616692 0.4912933 -0.4998112 0.5087067 0.4998112 0.5087067 0.4998112 0.4912933 -0.4998112
1649378 0.4812937 -0.4995347 0.5187063 0.4995347 0.5187063 0.4995347 0.4812937 -0.4995347
1682724 0.4713090 -0.4990586 0.5286910 0.4990586 0.5286910 0.4990586 0.4713090 -0.4990586
1716745 0.4613473 -0.4983838 0.5386527 0.4983838 0.5386527 0.4983838 0.4613473 -0.4983838
1751453 0.4514163 -0.4975116 0.5485837 0.4975116 0.5485837 0.4975116 0.4514163 -0.4975116
1786863 0.4415240 -0.4964439 0.5584760 0.4964439 0.5584760 0.4964439 0.4415240 -0.4964439
1822989 0.4316778 -0.4951827 0.5683222 0.4951827 0.5683222 0.4951827 0.4316778 -0.4951827
1859846 0.4218854 -0.4937304 0.5781146 0.4937304 0.5781146 0.4937304 0.4218854 -0.4937304
1897447 0.4121540 -0.4920900 0.5878460 0.4920900 0.5878460 0.4920900 0.4121540 -0.4920900
1935809 0.4024908 -0.4902645 0.5975092 0.4902645 0.5975092 0.4902645 0.4024908 -0.4902645
1974946 0.3929028 -0.4882575 0.6070972 0.4882575 0.6070972 0.4882575 0.3929028 -0.4882575
2014875 0.3833967 -0.4860728 0.6166033 0.4860728 0.6166033 0.4860728 0.3833967 -0.4860728
2055611 0.3739789 -0.4837144 0.6260211 0.4837144 0.6260211 0.4837144 0.3739789 -0.4837144
2097170 0.3646557 -0.4811869 0.6353443 0.4811869 0.6353443 0.4811869 0.3646557 -0.4811869
2139570 0.3554330 -0.4784947 0.6445670 0.4784947 0.6445670 0.4784947 0.3554330 -0.4784947
2182827 0.3463164 -0.4756428 0.6536836 0.4756428 0.6536836 0.4756428 0.3463164 -0.4756428
2226959 0.3373113 -0.4726364 0.6626887 0.4726364 0.6626887 0.4726364 0.3373113 -0.4726364
2271982 0.3284227 -0.4694806 0.6715773 0.4694806 0.6715773 0.4694806 0.3284227 -0.4694806
2317916 0.3196554 -0.4661809 0.6803446 0.4661809 0.6803446 0.4661809 0.3196554 -0.4661809
2364779 0.3110138 -0.4627430 0.6889862 0.4627430 0.6889862 0.4627430 0.3110138 -0.4627430
2412589 0.3025020 -0.4591727 0.6974980 0.4591727 0.6974980 0.4591727 0.3025020 -0.4591727
2461366 0.2941237 -0.4554757 0.7058763 0.4554757 0.7058763 0.4554757 0.2941237 -0.4554757
2511129 0.2858824 -0.4516580 0.7141176 0.4516580 0.7141176 0.4516580 0.2858824 -0.4516580
2561897 0.2777812 -0.4477257 0.7222188 0.4477257 0.7222188 0.4477257 0.2777812 -0.4477257
2613693 0.2698228 -0.4436847 0.7301772 0.4436847 0.7301772 0.4436847 0.2698228 -0.4436847
2666535 0.2620098 -0.4395413 0.7379902 0.4395413 0.7379902 0.4395413 0.2620098 -0.4395413
2720446 0.2543442 -0.4353016 0.7456558 0.4353016 0.7456558 0.4353016 0.2543442 -0.4353016
2775447 0.2468280 -0.4309715 0.7531720 0.4309715 0.7531720 0.4309715 0.2468280 -0.4309715
2831560 0.2394626 -0.4265573 0.7605374 0.4265573 0.7605374 0.4265573 0.2394626 -0.4265573
2888807 0.2322492 -0.4220648 0.7677508 0.4220648 0.7677508 0.4220648 0.2322492 -0.4220648
2947212 0.2251888 -0.4175002 0.7748112 0.4175002 0.7748112 0.4175002 0.2251888 -0.4175002
3006797 0.2182821 -0.4128693 0.7817179 0.4128693 0.7817179 0.4128693 0.2182821 -0.4128693
3067588 0.2115294 -0.4081780 0.7884706 0.4081780 0.7884706 0.4081780 0.2115294 -0.4081780
3129607 0.2049309 -0.4034319 0.7950691 0.4034319 0.7950691 0.4034319 0.2049309 -0.4034319
3192880 0.1984864 -0.3986367 0.8015136 0.3986367 0.8015136 0.3986367 0.1984864 -0.3986367
3257432 0.1921957 -0.3937978 0.8078043 0.3937978 0.8078043 0.3937978 0.1921957 -0.3937978
3323290 0.1860581 -0.3889207 0.8139419 0.3889207 0.8139419 0.3889207 0.1860581 -0.3889207
3390478 0.1800729 -0.3840105 0.8199271 0.3840105 0.8199271 0.3840105 0.1800729 -0.3840105
3459026 0.1742390 -0.3790724 0.8257610 0.3790724 0.8257610 0.3790724 0.1742390 -0.3790724
3528959 0.1685553 -0.3741113 0.8314447 0.3741113 0.8314447 0.3741113 0.1685553 -0.3741113
3600306 0.1630205 -0.3691320 0.8369795 0.3691320 0.8369795 0.3691320 0.1630205 -0.3691320
3673095 0.1576331 -0.3641390 0.8423669 0.3641390 0.8423669 0.3641390 0.1576331 -0.3641390
3747356 0.1523913 -0.3591369 0.8476087 0.3591369 0.8476087 0.3591369 0.1523913 -0.3591369
3823119 0.1472933 -0.3541299 0.8527067 0.3541299 0.8527067 0.3541299 0.1472933 -0.3541299
3900413 0.1423374 -0.3491221 0.8576626 0.3491221 0.8576626 0.3491221 0.1423374 -0.3491221
3979270 0.1375213 -0.3441176 0.8624787 0.3441176 0.8624787 0.3441176 0.1375213 -0.3441176
4059721 0.1328430 -0.3391200 0.8671570 0.3391200 0.8671570 0.3391200 0.1328430 -0.3391200
4141799 0.1283003 -0.3341331 0.8716997 0.3341331 0.8716997 0.3341331 0.1283003 -0.3341331
4225536 0.1238908 -0.3291601 0.8761092 0.3291601 0.8761092 0.3291601 0.1238908 -0.3291601
4310966 0.1196120 -0.3242045 0.8803880 0.3242045 0.8803880 0.3242045 0.1196120 -0.3242045
4398124 0.1154617 -0.3192692 0.8845383 0.3192692 0.8845383 0.3192692 0.1154617 -0.3192692
4487043 0.1114371 -0.3143573 0.8885629 0.3143573 0.8885629 0.3143573 0.1114371 -0.3143573
4577760 0.1075359 -0.3094715 0.8924641 0.3094715 0.8924641 0.3094715 0.1075359 -0.3094715
4670311 0.1037553 -0.3046144 0.8962447 0.3046144 0.8962447 0.3046144 0.1037553 -0.3046144
4764734 0.1000928 -0.2997886 0.8999072 0.2997886 0.8999072 0.2997886 0.1000928 -0.2997886
4861065 0.0965458 -0.2949962 0.9034542 0.2949962 0.9034542 0.2949962 0.0965458 -0.2949962
4959344 0.0931114 -0.2902395 0.9068886 0.2902395 0.9068886 0.2902395 0.0931114 -0.2902395
5059610 0.0897872 -0.2855204 0.9102128 0.2855204 0.9102128 0.2855204 0.0897872 -0.2855204
5161903 0.0865704 -0.2808409 0.9134296 0.2808409 0.9134296 0.2808409 0.0865704 -0.2808409
5266264 0.0834583 -0.2762027 0.9165417 0.2762027 0.9165417 0.2762027 0.0834583 -0.2762027
5372736 0.0804484 -0.2716074 0.9195516 0.2716074 0.9195516 0.2716074 0.0804484 -0.2716074
5481359 0.0775378 -0.2670564 0.9224622 0.2670564 0.9224622 0.2670564 0.0775378 -0.2670564
5592179 0.0747241 -0.2625512 0.9252759 0.2625512 0.9252759 0.2625512 0.0747241 -0.2625512
5705239 0.0720046 -0.2580929 0.9279954 0.2580929 0.9279954 0.2580929 0.0720046 -0.2580929
5820586 0.0693767 -0.2536827 0.9306233 0.2536827 0.9306233 0.2536827 0.0693767 -0.2536827
5938264 0.0668379 -0.2493216 0.9331621 0.2493216 0.9331621 0.2493216 0.0668379 -0.2493216
6058321 0.0643856 -0.2450104 0.9356144 0.2450104 0.9356144 0.2450104 0.0643856 -0.2450104
6180806 0.0620174 -0.2407501 0.9379826 0.2407501 0.9379826 0.2407501 0.0620174 -0.2407501
6305767 0.0597308 -0.2365414 0.9402692 0.2365414 0.9402692 0.2365414 0.0597308 -0.2365414
6433254 0.0575234 -0.2323847 0.9424766 0.2323847 0.9424766 0.2323847 0.0575234 -0.2323847
6563319 0.0553929 -0.2282808 0.9446071 0.2282808 0.9446071 0.2282808 0.0553929 -0.2282808
6696013 0.0533369 -0.2242300 0.9466631 0.2242300 0.9466631 0.2242300 0.0533369 -0.2242300
6831390 0.0513531 -0.2202326 0.9486469 0.2202326 0.9486469 0.2202326 0.0513531 -0.2202326
6969505 0.0494394 -0.2162891 0.9505606 0.2162891 0.9505606 0.2162891 0.0494394 -0.2162891
7110411 0.0475935 -0.2123997 0.9524065 0.2123997 0.9524065 0.2123997 0.0475935 -0.2123997
7254166 0.0458132 -0.2085644 0.9541868 0.2085644 0.9541868 0.2085644 0.0458132 -0.2085644
7400828 0.0440965 -0.2047835 0.9559035 0.2047835 0.9559035 0.2047835 0.0440965 -0.2047835
7550455 0.0424414 -0.2010568 0.9575586 0.2010568 0.9575586 0.2010568 0.0424414 -0.2010568
7703107 0.0408459 -0.1973846 0.9591541 0.1973846 0.9591541 0.1973846 0.0408459 -0.1973846
7858845 0.0393079 -0.1937665 0.9606921 0.1937665 0.9606921 0.1937665 0.0393079 -0.1937665
8017732 0.0378257 -0.1902027 0.9621743 0.1902027 0.9621743 0.1902027 0.0378257 -0.1902027
8179831 0.0363973 -0.1866928 0.9636027 0.1866928 0.9636027 0.1866928 0.0363973 -0.1866928
8345207 0.0350210 -0.1832367 0.9649790 0.1832367 0.9649790 0.1832367 0.0350210 -0.1832367
8513927 0.0336950 -0.1798341 0.9663050 0.1798341 0.9663050 0.1798341 0.0336950 -0.1798341
8686058 0.0324176 -0.1764848 0.9675824 0.1764848 0.9675824 0.1764848 0.0324176 -0.1764848
8861669 0.0311872 -0.1731884 0.9688128 0.1731884 0.9688128 0.1731884 0.0311872 -0.1731884
9040831 0.0300021 -0.1699446 0.9699979 0.1699446 0.9699979 0.1699446 0.0300021 -0.1699446
9223615 0.0288608 -0.1667530 0.9711392 0.1667530 0.9711392 0.1667530 0.0288608 -0.1667530
9410094 0.0277618 -0.1636132 0.9722382 0.1636132 0.9722382 0.1636132 0.0277618 -0.1636132
9600343 0.0267036 -0.1605248 0.9732964 0.1605248 0.9732964 0.1605248 0.0267036 -0.1605248
9794439 0.0256847 -0.1574874 0.9743153 0.1574874 0.9743153 0.1574874 0.0256847 -0.1574874
9992459 0.0247039 -0.1545003 0.9752961 0.1545003 0.9752961 0.1545003 0.0247039 -0.1545003
10194482 0.0237597 -0.1515632 0.9762403 0.1515632 0.9762403 0.1515632 0.0237597 -0.1515632
10400590 0.0228508 -0.1486756 0.9771492 0.1486756 0.9771492 0.1486756 0.0228508 -0.1486756
10610865 0.0219761 -0.1458368 0.9780239 0.1458368 0.9780239 0.1458368 0.0219761 -0.1458368
10825391 0.0211342 -0.1430464 0.9788658 0.1430464 0.9788658 0.1430464 0.0211342 -0.1430464
11044254 0.0203240 -0.1403038 0.9796760 0.1403038 0.9796760 0.1403038 0.0203240 -0.1403038
11267542 0.0195444 -0.1376085 0.9804556 0.1376085 0.9804556 0.1376085 0.0195444 -0.1376085
11495344 0.0187942 -0.1349598 0.9812058 0.1349598 0.9812058 0.1349598 0.0187942 -0.1349598
11727752 0.0180724 -0.1323572 0.9819276 0.1323572 0.9819276 0.1323572 0.0180724 -0.1323572
11964859 0.0173780 -0.1298001 0.9826220 0.1298001 0.9826220 0.1298001 0.0173780 -0.1298001
12206760 0.0167099 -0.1272879 0.9832901 0.1272879 0.9832901 0.1272879 0.0167099 -0.1272879
12453551 0.0160673 -0.1248199 0.9839327 0.1248199 0.9839327 0.1248199 0.0160673 -0.1248199
12705331 0.0154490 -0.1223957 0.9845510 0.1223957 0.9845510 0.1223957 0.0154490 -0.1223957
12962202 0.0148544 -0.1200145 0.9851456 0.1200145 0.9851456 0.1200145 0.0148544 -0.1200145
13224267 0.0142824 -0.1176757 0.9857176 0.1176757 0.9857176 0.1176757 0.0142824 -0.1176757
13491630 0.0137323 -0.1153787 0.9862677 0.1153787 0.9862677 0.1153787 0.0137323 -0.1153787
13764398 0.0132033 -0.1131230 0.9867967 0.1131230 0.9867967 0.1131230 0.0132033 -0.1131230
14042680 0.0126945 -0.1109079 0.9873055 0.1109079 0.9873055 0.1109079 0.0126945 -0.1109079
14326589 0.0122052 -0.1087327 0.9877948 0.1087327 0.9877948 0.1087327 0.0122052 -0.1087327
14616238 0.0117347 -0.1065969 0.9882653 0.1065969 0.9882653 0.1065969 0.0117347 -0.1065969
14911743 0.0112824 -0.1044998 0.9887176 0.1044998 0.9887176 0.1044998 0.0112824 -0.1044998
15213223 0.0108474 -0.1024408 0.9891526 0.1024408 0.9891526 0.1024408 0.0108474 -0.1024408
15520797 0.0104292 -0.1004194 0.9895708 0.1004194 0.9895708 0.1004194 0.0104292 -0.1004194
15834590 0.0100271 -0.0984349 0.9899729 0.0984349 0.9899729 0.0984349 0.0100271 -0.0984349
16154727 0.0096405 -0.0964867 0.9903595 0.0964867 0.9903595 0.0964867 0.0096405 -0.0964867
16481337 0.0092689 -0.0945741 0.9907311 0.0945741 0.9907311 0.0945741 0.0092689 -0.0945741
16814550 0.0089117 -0.0926967 0.9910883 0.0926967 0.9910883 0.0926967 0.0089117 -0.0926967
17154499 0.0085683 -0.0908538 0.9914317 0.0908538 0.9914317 0.0908538 0.0085683 -0.0908538
17501322 0.0082382 -0.0890448 0.9917618 0.0890448 0.9917618 0.0890448 0.0082382 -0.0890448
17855156 0.0079210 -0.0872692 0.9920790 0.0872692 0.9920790 0.0872692 0.0079210 -0.0872692
18216144 0.0076160 -0.0855264 0.9923840 0.0855264 0.9923840 0.0855264 0.0076160 -0.0855264
18584431 0.0073230 -0.0838157 0.9926770 0.0838157 0.9926770 0.0838157 0.0073230 -0.0838157
18960163 0.0070413 -0.0821367 0.9929587 0.0821367 0.9929587 0.0821367 0.0070413 -0.0821367
19343491 0.0067706 -0.0804887 0.9932294 0.0804887 0.9932294 0.0804887 0.0067706 -0.0804887
19734570 0.0065105 -0.0788713 0.9934895 0.0788713 0.9934895 0.0788713 0.0065105 -0.0788713
20133555 0.0062606 -0.0772839 0.9937394 0.0772839 0.9937394 0.0772839 0.0062606 -0.0772839
20540607 0.0060204 -0.0757258 0.9939796 0.0757258 0.9939796 0.0757258 0.0060204 -0.0757258
20955888 0.0057897 -0.0741967 0.9942103 0.0741967 0.9942103 0.0741967 0.0057897 -0.0741967
21379566 0.0055680 -0.0726960 0.9944320 0.0726960 0.9944320 0.0726960 0.0055680 -0.0726960
21811809 0.0053550 -0.0712231 0.9946450 0.0712231 0.9946450 0.0712231 0.0053550 -0.0712231
22252791 0.0051504 -0.0697775 0.9948496 0.0697775 0.9948496 0.0697775 0.0051504 -0.0697775
22702688 0.0049538 -0.0683588 0.9950462 0.0683588 0.9950462 0.0683588 0.0049538 -0.0683588
23161682 0.0047650 -0.0669664 0.9952350 0.0669664 0.9952350 0.0669664 0.0047650 -0.0669664
23629955 0.0045837 -0.0655998 0.9954163 0.0655998 0.9954163 0.0655998 0.0045837 -0.0655998
24107696 0.0044095 -0.0642586 0.9955905 0.0642586 0.9955905 0.0642586 0.0044095 -0.0642586
24595095 0.0042422 -0.0629422 0.9957578 0.0629422 0.9957578 0.0629422 0.0042422 -0.0629422
25092348 0.0040816 -0.0616502 0.9959184 0.0616502 0.9959184 0.0616502 0.0040816 -0.0616502
25599655 0.0039274 -0.0603822 0.9960726 0.0603822 0.9960726 0.0603822 0.0039274 -0.0603822
26117218 0.0037793 -0.0591376 0.9962207 0.0591376 0.9962207 0.0591376 0.0037793 -0.0591376
26645245 0.0036371 -0.0579160 0.9963629 0.0579160 0.9963629 0.0579160 0.0036371 -0.0579160
27183947 0.0035006 -0.0567170 0.9964994 0.0567170 0.9964994 0.0567170 0.0035006 -0.0567170
27733541 0.0033696 -0.0555402 0.9966304 0.0555402 0.9966304 0.0555402 0.0033696 -0.0555402
28294246 0.0032439 -0.0543850 0.9967561 0.0543850 0.9967561 0.0543850 0.0032439 -0.0543850
28866287 0.0031232 -0.0532511 0.9968768 0.0532511 0.9968768 0.0532511 0.0031232 -0.0532511
29449894 0.0030074 -0.0521380 0.9969926 0.0521380 0.9969926 0.0521380 0.0030074 -0.0521380
30045299 0.0028963 -0.0510454 0.9971037 0.0510454 0.9971037 0.0510454 0.0028963 -0.0510454
30652742 0.0027898 -0.0499728 0.9972102 0.0499728 0.9972102 0.0499728 0.0027898 -0.0499728
31272467 0.0026876 -0.0489199 0.9973124 0.0489199 0.9973124 0.0489199 0.0026876 -0.0489199
31904720 0.0025895 -0.0478862 0.9974105 0.0478862 0.9974105 0.0478862 0.0025895 -0.0478862
32549757 0.0024955 -0.0468713 0.9975045 0.0468713 0.9975045 0.0468713 0.0024955 -0.0468713
33207834 0.0024054 -0.0458749 0.9975946 0.0458749 0.9975946 0.0458749 0.0024054 -0.0458749
33879216 0.0023190 -0.0448966 0.9976810 0.0448966 0.9976810 0.0448966 0.0023190 -0.0448966
34564172 0.0022362 -0.0439360 0.9977638 0.0439360 0.9977638 0.0439360 0.0022362 -0.0439360
35262976 0.0021569 -0.0429928 0.9978431 0.0429928 0.9978431 0.0429928 0.0021569 -0.0429928
35975908 0.0020809 -0.0420666 0.9979191 0.0420666 0.9979191 0.0420666 0.0020809 -0.0420666
36703254 0.0020082 -0.0411571 0.9979918 0.0411571 0.9979918 0.0411571 0.0020082 -0.0411571
37445305 0.0019385 -0.0402639 0.9980615 0.0402639 0.9980615 0.0402639 0.0019385 -0.0402639
38202358 0.0018718 -0.0393867 0.9981282 0.0393867 0.9981282 0.0393867 0.0018718 -0.0393867
38974717 0.0018080 -0.0385251 0.9981920 0.0385251 0.9981920 0.0385251 0.0018080 -0.0385251
39762692 0.0017469 -0.0376788 0.9982531 0.0376788 0.9982531 0.0376788 0.0017469 -0.0376788
40566597 0.0016885 -0.0368475 0.9983115 0.0368475 0.9983115 0.0368475 0.0016885 -0.0368475
41386756 0.0016327 -0.0360309 0.9983673 0.0360309 0.9983673 0.0360309 0.0016327 -0.0360309
42223496 0.0015794 -0.0352287 0.9984206 0.0352287 0.9984206 0.0352287 0.0015794 -0.0352287
43077153 0.0015285 -0.0344406 0.9984715 0.0344406 0.9984715 0.0344406 0.0015285 -0.0344406
43948069 0.0014798 -0.0336662 0.9985202 0.0336662 0.9985202 0.0336662 0.0014798 -0.0336662
44836592 0.0014334 -0.0329053 0.9985666 0.0329053 0.9985666 0.0329053 0.0014334 -0.0329053
45743080 0.0013891 -0.0321576 0.9986109 0.0321576 0.9986109 0.0321576 0.0013891 -0.0321576
46667894 0.0013469 -0.0314227 0.9986531 0.0314227 0.9986531 0.0314227 0.0013469 -0.0314227
47611406 0.0013066 -0.0307005 0.9986934 0.0307005 0.9986934 0.0307005 0.0013066 -0.0307005
48573993 0.0012683 -0.0299907 0.9987317 0.0299907 0.9987317 0.0299907 0.0012683 -0.0299907
49556042 0.0012318 -0.0292929 0.9987682 0.0292929 0.9987682 0.0292929 0.0012318 -0.0292929
50557945 0.0011971 -0.0286069 0.9988029 0.0286069 0.9988029 0.0286069 0.0011971 -0.0286069
51580105 0.0011642 -0.0279325 0.9988358 0.0279325 0.9988358 0.0279325 0.0011642 -0.0279325
52622929 0.0011328 -0.0272693 0.9988672 0.0272693 0.9988672 0.0272693 0.0011328 -0.0272693
53686838 0.0011031 -0.0266172 0.9988969 0.0266172 0.9988969 0.0266172 0.0011031 -0.0266172
54772256 0.0010749 -0.0259759 0.9989251 0.0259759 0.9989251 0.0259759 0.0010749 -0.0259759
55879618 0.0010482 -0.0253452 0.9989518 0.0253452 0.9989518 0.0253452 0.0010482 -0.0253452
57009369 0.0010229 -0.0247247 0.9989771 0.0247247 0.9989771 0.0247247 0.0010229 -0.0247247
58161960 0.0009989 -0.0241143 0.9990011 0.0241143 0.9990011 0.0241143 0.0009989 -0.0241143
59337855 0.0009763 -0.0235138 0.9990237 0.0235138 0.9990237 0.0235138 0.0009763 -0.0235138
60537522 0.0009549 -0.0229228 0.9990451 0.0229228 0.9990451 0.0229228 0.0009549 -0.0229228
61761445 0.0009348 -0.0223412 0.9990652 0.0223412 0.9990652 0.0223412 0.0009348 -0.0223412
63010112 0.0009158 -0.0217688 0.9990842 0.0217688 0.9990842 0.0217688 0.0009158 -0.0217688
64284024 0.0008979 -0.0212053 0.9991021 0.0212053 0.9991021 0.0212053 0.0008979 -0.0212053
65583691 0.0008811 -0.0206506 0.9991189 0.0206506 0.9991189 0.0206506 0.0008811 -0.0206506
66909635 0.0008653 -0.0201043 0.9991347 0.0201043 0.9991347 0.0201043 0.0008653 -0.0201043
68262386 0.0008505 -0.0195664 0.9991495 0.0195664 0.9991495 0.0195664 0.0008505 -0.0195664
69642486 0.0008366 -0.0190365 0.9991634 0.0190365 0.9991634 0.0190365 0.0008366 -0.0190365
71050488 0.0008236 -0.0185145 0.9991764 0.0185145 0.9991764 0.0185145 0.0008236 -0.0185145
72486957 0.0008114 -0.0180002 0.9991886 0.0180002 0.9991886 0.0180002 0.0008114 -0.0180002
73952468 0.0008001 -0.0174933 0.9991999 0.0174933 0.9991999 0.0174933 0.0008001 -0.0174933
