!Murata Part Number: GRM31B7U2E822JW31
!These Parameters are Measured in Series Mode Connection
!Data Generated on Mar 30, 2021
!       o--ll--o
!Port1            Port2
!       o------o
!Operation Temp=25[degC], DC Bias Voltage=0[V]
!Freq. Start=1000[kHz] Stop=3[GHz] 401[Steps]
# Hz S RI R 50
!Freq.(Hz) S11(Real) S11(Imag) S21(Real) S21(Imag) S12(Real) S12(Imag) S22(Real) S22(Imag)
1000000 0.0368559 -0.1881437 0.9631441 0.1881437 0.9631441 0.1881437 0.0368559 -0.1881437
1020218 0.0354638 -0.1846795 0.9645362 0.1846795 0.9645362 0.1846795 0.0354638 -0.1846795
1040844 0.0341226 -0.1812690 0.9658774 0.1812690 0.9658774 0.1812690 0.0341226 -0.1812690
1061887 0.0328305 -0.1779121 0.9671695 0.1779121 0.9671695 0.1779121 0.0328305 -0.1779121
1083356 0.0315859 -0.1746084 0.9684141 0.1746084 0.9684141 0.1746084 0.0315859 -0.1746084
1105259 0.0303870 -0.1713576 0.9696130 0.1713576 0.9696130 0.1713576 0.0303870 -0.1713576
1127605 0.0292325 -0.1681593 0.9707675 0.1681593 0.9707675 0.1681593 0.0292325 -0.1681593
1150402 0.0281206 -0.1650130 0.9718794 0.1650130 0.9718794 0.1650130 0.0281206 -0.1650130
1173660 0.0270499 -0.1619185 0.9729501 0.1619185 0.9729501 0.1619185 0.0270499 -0.1619185
1197389 0.0260191 -0.1588752 0.9739809 0.1588752 0.9739809 0.1588752 0.0260191 -0.1588752
1221597 0.0250266 -0.1558827 0.9749734 0.1558827 0.9749734 0.1558827 0.0250266 -0.1558827
1246295 0.0240712 -0.1529404 0.9759288 0.1529404 0.9759288 0.1529404 0.0240712 -0.1529404
1271492 0.0231515 -0.1500480 0.9768485 0.1500480 0.9768485 0.1500480 0.0231515 -0.1500480
1297199 0.0222663 -0.1472048 0.9777337 0.1472048 0.9777337 0.1472048 0.0222663 -0.1472048
1323425 0.0214143 -0.1444104 0.9785857 0.1444104 0.9785857 0.1444104 0.0214143 -0.1444104
1350181 0.0205943 -0.1416641 0.9794057 0.1416641 0.9794057 0.1416641 0.0205943 -0.1416641
1377479 0.0198052 -0.1389655 0.9801948 0.1389655 0.9801948 0.1389655 0.0198052 -0.1389655
1405328 0.0190459 -0.1363139 0.9809541 0.1363139 0.9809541 0.1363139 0.0190459 -0.1363139
1433740 0.0183153 -0.1337088 0.9816847 0.1337088 0.9816847 0.1337088 0.0183153 -0.1337088
1462727 0.0176123 -0.1311496 0.9823877 0.1311496 0.9823877 0.1311496 0.0176123 -0.1311496
1492300 0.0169360 -0.1286357 0.9830640 0.1286357 0.9830640 0.1286357 0.0169360 -0.1286357
1522470 0.0162853 -0.1261665 0.9837147 0.1261665 0.9837147 0.1261665 0.0162853 -0.1261665
1553251 0.0156593 -0.1237414 0.9843407 0.1237414 0.9843407 0.1237414 0.0156593 -0.1237414
1584654 0.0150572 -0.1213598 0.9849428 0.1213598 0.9849428 0.1213598 0.0150572 -0.1213598
1616692 0.0144780 -0.1190211 0.9855220 0.1190211 0.9855220 0.1190211 0.0144780 -0.1190211
1649378 0.0139209 -0.1167246 0.9860791 0.1167246 0.9860791 0.1167246 0.0139209 -0.1167246
1682724 0.0133851 -0.1144697 0.9866149 0.1144697 0.9866149 0.1144697 0.0133851 -0.1144697
1716745 0.0128697 -0.1122560 0.9871303 0.1122560 0.9871303 0.1122560 0.0128697 -0.1122560
1751453 0.0123741 -0.1100826 0.9876259 0.1100826 0.9876259 0.1100826 0.0123741 -0.1100826
1786863 0.0118974 -0.1079491 0.9881026 0.1079491 0.9881026 0.1079491 0.0118974 -0.1079491
1822989 0.0114390 -0.1058547 0.9885610 0.1058547 0.9885610 0.1058547 0.0114390 -0.1058547
1859846 0.0109982 -0.1037990 0.9890018 0.1037990 0.9890018 0.1037990 0.0109982 -0.1037990
1897447 0.0105744 -0.1017812 0.9894256 0.1017812 0.9894256 0.1017812 0.0105744 -0.1017812
1935809 0.0101668 -0.0998009 0.9898332 0.0998009 0.9898332 0.0998009 0.0101668 -0.0998009
1974946 0.0097749 -0.0978573 0.9902251 0.0978573 0.9902251 0.0978573 0.0097749 -0.0978573
2014875 0.0093981 -0.0959499 0.9906019 0.0959499 0.9906019 0.0959499 0.0093981 -0.0959499
2055611 0.0090359 -0.0940781 0.9909641 0.0940781 0.9909641 0.0940781 0.0090359 -0.0940781
2097170 0.0086875 -0.0922413 0.9913125 0.0922413 0.9913125 0.0922413 0.0086875 -0.0922413
2139570 0.0083527 -0.0904390 0.9916473 0.0904390 0.9916473 0.0904390 0.0083527 -0.0904390
2182827 0.0080308 -0.0886705 0.9919692 0.0886705 0.9919692 0.0886705 0.0080308 -0.0886705
2226959 0.0077213 -0.0869353 0.9922787 0.0869353 0.9922787 0.0869353 0.0077213 -0.0869353
2271982 0.0074238 -0.0852328 0.9925762 0.0852328 0.9925762 0.0852328 0.0074238 -0.0852328
2317916 0.0071377 -0.0835625 0.9928623 0.0835625 0.9928623 0.0835625 0.0071377 -0.0835625
2364779 0.0068628 -0.0819237 0.9931372 0.0819237 0.9931372 0.0819237 0.0068628 -0.0819237
2412589 0.0065985 -0.0803160 0.9934015 0.0803160 0.9934015 0.0803160 0.0065985 -0.0803160
2461366 0.0063445 -0.0787388 0.9936555 0.0787388 0.9936555 0.0787388 0.0063445 -0.0787388
2511129 0.0061003 -0.0771916 0.9938997 0.0771916 0.9938997 0.0771916 0.0061003 -0.0771916
2561897 0.0058656 -0.0756739 0.9941344 0.0756739 0.9941344 0.0756739 0.0058656 -0.0756739
2613693 0.0056400 -0.0741850 0.9943600 0.0741850 0.9943600 0.0741850 0.0056400 -0.0741850
2666535 0.0054232 -0.0727246 0.9945768 0.0727246 0.9945768 0.0727246 0.0054232 -0.0727246
2720446 0.0052148 -0.0712921 0.9947852 0.0712921 0.9947852 0.0712921 0.0052148 -0.0712921
2775447 0.0050145 -0.0698869 0.9949855 0.0698869 0.9949855 0.0698869 0.0050145 -0.0698869
2831560 0.0048220 -0.0685087 0.9951780 0.0685087 0.9951780 0.0685087 0.0048220 -0.0685087
2888807 0.0046370 -0.0671568 0.9953630 0.0671568 0.9953630 0.0671568 0.0046370 -0.0671568
2947212 0.0044591 -0.0658309 0.9955409 0.0658309 0.9955409 0.0658309 0.0044591 -0.0658309
3006797 0.0042883 -0.0645305 0.9957117 0.0645305 0.9957117 0.0645305 0.0042883 -0.0645305
3067588 0.0041240 -0.0632550 0.9958760 0.0632550 0.9958760 0.0632550 0.0041240 -0.0632550
3129607 0.0039662 -0.0620041 0.9960338 0.0620041 0.9960338 0.0620041 0.0039662 -0.0620041
3192880 0.0038146 -0.0607772 0.9961854 0.0607772 0.9961854 0.0607772 0.0038146 -0.0607772
3257432 0.0036688 -0.0595740 0.9963312 0.0595740 0.9963312 0.0595740 0.0036688 -0.0595740
3323290 0.0035288 -0.0583939 0.9964712 0.0583939 0.9964712 0.0583939 0.0035288 -0.0583939
3390478 0.0033942 -0.0572366 0.9966058 0.0572366 0.9966058 0.0572366 0.0033942 -0.0572366
3459026 0.0032649 -0.0561017 0.9967351 0.0561017 0.9967351 0.0561017 0.0032649 -0.0561017
3528959 0.0031406 -0.0549886 0.9968594 0.0549886 0.9968594 0.0549886 0.0031406 -0.0549886
3600306 0.0030212 -0.0538970 0.9969788 0.0538970 0.9969788 0.0538970 0.0030212 -0.0538970
3673095 0.0029064 -0.0528265 0.9970936 0.0528265 0.9970936 0.0528265 0.0029064 -0.0528265
3747356 0.0027962 -0.0517768 0.9972038 0.0517768 0.9972038 0.0517768 0.0027962 -0.0517768
3823119 0.0026903 -0.0507473 0.9973097 0.0507473 0.9973097 0.0507473 0.0026903 -0.0507473
3900413 0.0025885 -0.0497377 0.9974115 0.0497377 0.9974115 0.0497377 0.0025885 -0.0497377
3979270 0.0024907 -0.0487476 0.9975093 0.0487476 0.9975093 0.0487476 0.0024907 -0.0487476
4059721 0.0023968 -0.0477767 0.9976032 0.0477767 0.9976032 0.0477767 0.0023968 -0.0477767
4141799 0.0023065 -0.0468246 0.9976935 0.0468246 0.9976935 0.0468246 0.0023065 -0.0468246
4225536 0.0022198 -0.0458910 0.9977802 0.0458910 0.9977802 0.0458910 0.0022198 -0.0458910
4310966 0.0021365 -0.0449754 0.9978635 0.0449754 0.9978635 0.0449754 0.0021365 -0.0449754
4398124 0.0020564 -0.0440775 0.9979436 0.0440775 0.9979436 0.0440775 0.0020564 -0.0440775
4487043 0.0019796 -0.0431970 0.9980204 0.0431970 0.9980204 0.0431970 0.0019796 -0.0431970
4577760 0.0019057 -0.0423336 0.9980943 0.0423336 0.9980943 0.0423336 0.0019057 -0.0423336
4670311 0.0018347 -0.0414868 0.9981653 0.0414868 0.9981653 0.0414868 0.0018347 -0.0414868
4764734 0.0017666 -0.0406565 0.9982334 0.0406565 0.9982334 0.0406565 0.0017666 -0.0406565
4861065 0.0017011 -0.0398423 0.9982989 0.0398423 0.9982989 0.0398423 0.0017011 -0.0398423
4959344 0.0016382 -0.0390438 0.9983618 0.0390438 0.9983618 0.0390438 0.0016382 -0.0390438
5059610 0.0015778 -0.0382608 0.9984222 0.0382608 0.9984222 0.0382608 0.0015778 -0.0382608
5161903 0.0015198 -0.0374929 0.9984802 0.0374929 0.9984802 0.0374929 0.0015198 -0.0374929
5266264 0.0014641 -0.0367399 0.9985359 0.0367399 0.9985359 0.0367399 0.0014641 -0.0367399
5372736 0.0014106 -0.0360014 0.9985894 0.0360014 0.9985894 0.0360014 0.0014106 -0.0360014
5481359 0.0013592 -0.0352772 0.9986408 0.0352772 0.9986408 0.0352772 0.0013592 -0.0352772
5592179 0.0013098 -0.0345671 0.9986902 0.0345671 0.9986902 0.0345671 0.0013098 -0.0345671
5705239 0.0012624 -0.0338706 0.9987376 0.0338706 0.9987376 0.0338706 0.0012624 -0.0338706
5820586 0.0012169 -0.0331876 0.9987831 0.0331876 0.9987831 0.0331876 0.0012169 -0.0331876
5938264 0.0011732 -0.0325178 0.9988268 0.0325178 0.9988268 0.0325178 0.0011732 -0.0325178
6058321 0.0011313 -0.0318609 0.9988687 0.0318609 0.9988687 0.0318609 0.0011313 -0.0318609
6180806 0.0010910 -0.0312167 0.9989090 0.0312167 0.9989090 0.0312167 0.0010910 -0.0312167
6305767 0.0010523 -0.0305849 0.9989477 0.0305849 0.9989477 0.0305849 0.0010523 -0.0305849
6433254 0.0010152 -0.0299653 0.9989848 0.0299653 0.9989848 0.0299653 0.0010152 -0.0299653
6563319 0.0009795 -0.0293576 0.9990205 0.0293576 0.9990205 0.0293576 0.0009795 -0.0293576
6696013 0.0009453 -0.0287616 0.9990547 0.0287616 0.9990547 0.0287616 0.0009453 -0.0287616
6831390 0.0009125 -0.0281770 0.9990875 0.0281770 0.9990875 0.0281770 0.0009125 -0.0281770
6969505 0.0008810 -0.0276037 0.9991190 0.0276037 0.9991190 0.0276037 0.0008810 -0.0276037
7110411 0.0008507 -0.0270414 0.9991493 0.0270414 0.9991493 0.0270414 0.0008507 -0.0270414
7254166 0.0008217 -0.0264899 0.9991783 0.0264899 0.9991783 0.0264899 0.0008217 -0.0264899
7400828 0.0007939 -0.0259490 0.9992061 0.0259490 0.9992061 0.0259490 0.0007939 -0.0259490
7550455 0.0007672 -0.0254184 0.9992328 0.0254184 0.9992328 0.0254184 0.0007672 -0.0254184
7703107 0.0007415 -0.0248979 0.9992585 0.0248979 0.9992585 0.0248979 0.0007415 -0.0248979
7858845 0.0007169 -0.0243874 0.9992831 0.0243874 0.9992831 0.0243874 0.0007169 -0.0243874
8017732 0.0006934 -0.0238867 0.9993066 0.0238867 0.9993066 0.0238867 0.0006934 -0.0238867
8179831 0.0006707 -0.0233955 0.9993293 0.0233955 0.9993293 0.0233955 0.0006707 -0.0233955
8345207 0.0006490 -0.0229136 0.9993510 0.0229136 0.9993510 0.0229136 0.0006490 -0.0229136
8513927 0.0006282 -0.0224409 0.9993718 0.0224409 0.9993718 0.0224409 0.0006282 -0.0224409
8686058 0.0006083 -0.0219772 0.9993917 0.0219772 0.9993917 0.0219772 0.0006083 -0.0219772
8861669 0.0005892 -0.0215223 0.9994108 0.0215223 0.9994108 0.0215223 0.0005892 -0.0215223
9040831 0.0005708 -0.0210760 0.9994292 0.0210760 0.9994292 0.0210760 0.0005708 -0.0210760
9223615 0.0005533 -0.0206382 0.9994467 0.0206382 0.9994467 0.0206382 0.0005533 -0.0206382
9410094 0.0005364 -0.0202086 0.9994636 0.0202086 0.9994636 0.0202086 0.0005364 -0.0202086
9600343 0.0005203 -0.0197871 0.9994797 0.0197871 0.9994797 0.0197871 0.0005203 -0.0197871
9794439 0.0005048 -0.0193735 0.9994952 0.0193735 0.9994952 0.0193735 0.0005048 -0.0193735
9992459 0.0004899 -0.0189678 0.9995101 0.0189678 0.9995101 0.0189678 0.0004899 -0.0189678
10194482 0.0004757 -0.0185696 0.9995243 0.0185696 0.9995243 0.0185696 0.0004757 -0.0185696
10400590 0.0004621 -0.0181788 0.9995379 0.0181788 0.9995379 0.0181788 0.0004621 -0.0181788
10610865 0.0004491 -0.0177954 0.9995509 0.0177954 0.9995509 0.0177954 0.0004491 -0.0177954
10825391 0.0004366 -0.0174191 0.9995634 0.0174191 0.9995634 0.0174191 0.0004366 -0.0174191
11044254 0.0004246 -0.0170498 0.9995754 0.0170498 0.9995754 0.0170498 0.0004246 -0.0170498
11267542 0.0004131 -0.0166874 0.9995869 0.0166874 0.9995869 0.0166874 0.0004131 -0.0166874
11495344 0.0004021 -0.0163316 0.9995979 0.0163316 0.9995979 0.0163316 0.0004021 -0.0163316
11727752 0.0003916 -0.0159824 0.9996084 0.0159824 0.9996084 0.0159824 0.0003916 -0.0159824
11964859 0.0003815 -0.0156397 0.9996185 0.0156397 0.9996185 0.0156397 0.0003815 -0.0156397
12206760 0.0003718 -0.0153032 0.9996282 0.0153032 0.9996282 0.0153032 0.0003718 -0.0153032
12453551 0.0003625 -0.0149729 0.9996375 0.0149729 0.9996375 0.0149729 0.0003625 -0.0149729
12705331 0.0003536 -0.0146486 0.9996464 0.0146486 0.9996464 0.0146486 0.0003536 -0.0146486
12962202 0.0003451 -0.0143302 0.9996549 0.0143302 0.9996549 0.0143302 0.0003451 -0.0143302
13224267 0.0003370 -0.0140175 0.9996630 0.0140175 0.9996630 0.0140175 0.0003370 -0.0140175
13491630 0.0003291 -0.0137105 0.9996709 0.0137105 0.9996709 0.0137105 0.0003291 -0.0137105
13764398 0.0003216 -0.0134089 0.9996784 0.0134089 0.9996784 0.0134089 0.0003216 -0.0134089
14042680 0.0003144 -0.0131128 0.9996856 0.0131128 0.9996856 0.0131128 0.0003144 -0.0131128
14326589 0.0003075 -0.0128220 0.9996925 0.0128220 0.9996925 0.0128220 0.0003075 -0.0128220
14616238 0.0003009 -0.0125363 0.9996991 0.0125363 0.9996991 0.0125363 0.0003009 -0.0125363
14911743 0.0002946 -0.0122556 0.9997054 0.0122556 0.9997054 0.0122556 0.0002946 -0.0122556
15213223 0.0002885 -0.0119798 0.9997115 0.0119798 0.9997115 0.0119798 0.0002885 -0.0119798
15520797 0.0002826 -0.0117089 0.9997174 0.0117089 0.9997174 0.0117089 0.0002826 -0.0117089
15834590 0.0002770 -0.0114426 0.9997230 0.0114426 0.9997230 0.0114426 0.0002770 -0.0114426
16154727 0.0002716 -0.0111810 0.9997284 0.0111810 0.9997284 0.0111810 0.0002716 -0.0111810
16481337 0.0002664 -0.0109238 0.9997336 0.0109238 0.9997336 0.0109238 0.0002664 -0.0109238
16814550 0.0002615 -0.0106710 0.9997385 0.0106710 0.9997385 0.0106710 0.0002615 -0.0106710
17154499 0.0002567 -0.0104224 0.9997433 0.0104224 0.9997433 0.0104224 0.0002567 -0.0104224
17501322 0.0002521 -0.0101781 0.9997479 0.0101781 0.9997479 0.0101781 0.0002521 -0.0101781
17855156 0.0002477 -0.0099377 0.9997523 0.0099377 0.9997523 0.0099377 0.0002477 -0.0099377
18216144 0.0002435 -0.0097014 0.9997565 0.0097014 0.9997565 0.0097014 0.0002435 -0.0097014
18584431 0.0002394 -0.0094689 0.9997606 0.0094689 0.9997606 0.0094689 0.0002394 -0.0094689
18960163 0.0002355 -0.0092403 0.9997645 0.0092403 0.9997645 0.0092403 0.0002355 -0.0092403
19343491 0.0002318 -0.0090153 0.9997682 0.0090153 0.9997682 0.0090153 0.0002318 -0.0090153
19734570 0.0002282 -0.0087938 0.9997718 0.0087938 0.9997718 0.0087938 0.0002282 -0.0087938
20133555 0.0002247 -0.0085759 0.9997753 0.0085759 0.9997753 0.0085759 0.0002247 -0.0085759
20540607 0.0002215 -0.0083614 0.9997785 0.0083614 0.9997785 0.0083614 0.0002215 -0.0083614
20955888 0.0002183 -0.0081502 0.9997817 0.0081502 0.9997817 0.0081502 0.0002183 -0.0081502
21379566 0.0002153 -0.0079423 0.9997847 0.0079423 0.9997847 0.0079423 0.0002153 -0.0079423
21811809 0.0002124 -0.0077374 0.9997876 0.0077374 0.9997876 0.0077374 0.0002124 -0.0077374
22252791 0.0002097 -0.0075357 0.9997903 0.0075357 0.9997903 0.0075357 0.0002097 -0.0075357
22702688 0.0002071 -0.0073369 0.9997929 0.0073369 0.9997929 0.0073369 0.0002071 -0.0073369
23161682 0.0002046 -0.0071411 0.9997954 0.0071411 0.9997954 0.0071411 0.0002046 -0.0071411
23629955 0.0002023 -0.0069480 0.9997977 0.0069480 0.9997977 0.0069480 0.0002023 -0.0069480
24107696 0.0002001 -0.0067577 0.9997999 0.0067577 0.9997999 0.0067577 0.0002001 -0.0067577
24595095 0.0001980 -0.0065701 0.9998020 0.0065701 0.9998020 0.0065701 0.0001980 -0.0065701
25092348 0.0001961 -0.0063850 0.9998039 0.0063850 0.9998039 0.0063850 0.0001961 -0.0063850
25599655 0.0001943 -0.0062025 0.9998057 0.0062025 0.9998057 0.0062025 0.0001943 -0.0062025
26117218 0.0001926 -0.0060224 0.9998074 0.0060224 0.9998074 0.0060224 0.0001926 -0.0060224
26645245 0.0001910 -0.0058447 0.9998090 0.0058447 0.9998090 0.0058447 0.0001910 -0.0058447
27183947 0.0001896 -0.0056692 0.9998104 0.0056692 0.9998104 0.0056692 0.0001896 -0.0056692
27733541 0.0001883 -0.0054960 0.9998117 0.0054960 0.9998117 0.0054960 0.0001883 -0.0054960
28294246 0.0001871 -0.0053250 0.9998129 0.0053250 0.9998129 0.0053250 0.0001871 -0.0053250
28866287 0.0001860 -0.0051560 0.9998140 0.0051560 0.9998140 0.0051560 0.0001860 -0.0051560
29449894 0.0001851 -0.0049890 0.9998149 0.0049890 0.9998149 0.0049890 0.0001851 -0.0049890
30045299 0.0001843 -0.0048240 0.9998157 0.0048240 0.9998157 0.0048240 0.0001843 -0.0048240
30652742 0.0001837 -0.0046609 0.9998163 0.0046609 0.9998163 0.0046609 0.0001837 -0.0046609
31272467 0.0001831 -0.0044996 0.9998169 0.0044996 0.9998169 0.0044996 0.0001831 -0.0044996
31904720 0.0001828 -0.0043401 0.9998172 0.0043401 0.9998172 0.0043401 0.0001828 -0.0043401
32549757 0.0001825 -0.0041822 0.9998175 0.0041822 0.9998175 0.0041822 0.0001825 -0.0041822
33207834 0.0001824 -0.0040259 0.9998176 0.0040259 0.9998176 0.0040259 0.0001824 -0.0040259
33879216 0.0001824 -0.0038713 0.9998176 0.0038713 0.9998176 0.0038713 0.0001824 -0.0038713
34564172 0.0001826 -0.0037181 0.9998174 0.0037181 0.9998174 0.0037181 0.0001826 -0.0037181
35262976 0.0001829 -0.0035663 0.9998171 0.0035663 0.9998171 0.0035663 0.0001829 -0.0035663
35975908 0.0001834 -0.0034159 0.9998166 0.0034159 0.9998166 0.0034159 0.0001834 -0.0034159
36703254 0.0001840 -0.0032669 0.9998160 0.0032669 0.9998160 0.0032669 0.0001840 -0.0032669
37445305 0.0001847 -0.0031190 0.9998153 0.0031190 0.9998153 0.0031190 0.0001847 -0.0031190
38202358 0.0001856 -0.0029724 0.9998144 0.0029724 0.9998144 0.0029724 0.0001856 -0.0029724
38974717 0.0001867 -0.0028269 0.9998133 0.0028269 0.9998133 0.0028269 0.0001867 -0.0028269
39762692 0.0001879 -0.0026825 0.9998121 0.0026825 0.9998121 0.0026825 0.0001879 -0.0026825
40566597 0.0001893 -0.0025390 0.9998107 0.0025390 0.9998107 0.0025390 0.0001893 -0.0025390
41386756 0.0001909 -0.0023965 0.9998091 0.0023965 0.9998091 0.0023965 0.0001909 -0.0023965
42223496 0.0001926 -0.0022549 0.9998074 0.0022549 0.9998074 0.0022549 0.0001926 -0.0022549
43077153 0.0001945 -0.0021141 0.9998055 0.0021141 0.9998055 0.0021141 0.0001945 -0.0021141
43948069 0.0001966 -0.0019741 0.9998034 0.0019741 0.9998034 0.0019741 0.0001966 -0.0019741
44836592 0.0001989 -0.0018348 0.9998011 0.0018348 0.9998011 0.0018348 0.0001989 -0.0018348
45743080 0.0002013 -0.0016961 0.9997987 0.0016961 0.9997987 0.0016961 0.0002013 -0.0016961
46667894 0.0002040 -0.0015581 0.9997960 0.0015581 0.9997960 0.0015581 0.0002040 -0.0015581
47611406 0.0002069 -0.0014205 0.9997931 0.0014205 0.9997931 0.0014205 0.0002069 -0.0014205
48573993 0.0002099 -0.0012834 0.9997901 0.0012834 0.9997901 0.0012834 0.0002099 -0.0012834
49556042 0.0002132 -0.0011466 0.9997868 0.0011466 0.9997868 0.0011466 0.0002132 -0.0011466
50557945 0.0002167 -0.0010102 0.9997833 0.0010102 0.9997833 0.0010102 0.0002167 -0.0010102
51580105 0.0002205 -0.0008741 0.9997795 0.0008741 0.9997795 0.0008741 0.0002205 -0.0008741
52622929 0.0002245 -0.0007382 0.9997755 0.0007382 0.9997755 0.0007382 0.0002245 -0.0007382
53686838 0.0002287 -0.0006024 0.9997713 0.0006024 0.9997713 0.0006024 0.0002287 -0.0006024
54772256 0.0002332 -0.0004666 0.9997668 0.0004666 0.9997668 0.0004666 0.0002332 -0.0004666
55879618 0.0002380 -0.0003309 0.9997620 0.0003309 0.9997620 0.0003309 0.0002380 -0.0003309
57009369 0.0002430 -0.0001951 0.9997570 0.0001951 0.9997570 0.0001951 0.0002430 -0.0001951
58161960 0.0002484 -0.0000591 0.9997516 0.0000591 0.9997516 0.0000591 0.0002484 -0.0000591
59337855 0.0002540 0.0000771 0.9997460 -0.0000771 0.9997460 -0.0000771 0.0002540 0.0000771
60537522 0.0002600 0.0002136 0.9997400 -0.0002136 0.9997400 -0.0002136 0.0002600 0.0002136
61761445 0.0002664 0.0003504 0.9997336 -0.0003504 0.9997336 -0.0003504 0.0002664 0.0003504
63010112 0.0002731 0.0004878 0.9997269 -0.0004878 0.9997269 -0.0004878 0.0002731 0.0004878
64284024 0.0002802 0.0006257 0.9997198 -0.0006257 0.9997198 -0.0006257 0.0002802 0.0006257
65583691 0.0002877 0.0007642 0.9997123 -0.0007642 0.9997123 -0.0007642 0.0002877 0.0007642
66909635 0.0002956 0.0009035 0.9997044 -0.0009035 0.9997044 -0.0009035 0.0002956 0.0009035
68262386 0.0003041 0.0010437 0.9996959 -0.0010437 0.9996959 -0.0010437 0.0003041 0.0010437
69642486 0.0003130 0.0011848 0.9996870 -0.0011848 0.9996870 -0.0011848 0.0003130 0.0011848
71050488 0.0003224 0.0013270 0.9996776 -0.0013270 0.9996776 -0.0013270 0.0003224 0.0013270
72486957 0.0003325 0.0014704 0.9996675 -0.0014704 0.9996675 -0.0014704 0.0003325 0.0014704
73952468 0.0003432 0.0016151 0.9996568 -0.0016151 0.9996568 -0.0016151 0.0003432 0.0016151
