!Murata Part Number: GRM31A5C2J561JW01
!These Parameters are Measured in Series Mode Connection
!Data Generated on Mar 30, 2021
!       o--ll--o
!Port1            Port2
!       o------o
!Operation Temp=25[degC], DC Bias Voltage=0[V]
!Freq. Start=100[MHz] Stop=3[GHz] 401[Steps]
# Hz S RI R 50
!Freq.(Hz) S11(Real) S11(Imag) S21(Real) S21(Imag) S12(Real) S12(Imag) S22(Real) S22(Imag)
100000000 0.0012153 -0.0232570 0.9987847 0.0232570 0.9987847 0.0232570 0.0012153 -0.0232570
107250000 0.0011168 -0.0209699 0.9988832 0.0209699 0.9988832 0.0209699 0.0011168 -0.0209699
114500000 0.0010381 -0.0189246 0.9989619 0.0189246 0.9989619 0.0189246 0.0010381 -0.0189246
121750000 0.0009748 -0.0170779 0.9990252 0.0170779 0.9990252 0.0170779 0.0009748 -0.0170779
129000000 0.0009235 -0.0153965 0.9990765 0.0153965 0.9990765 0.0153965 0.0009235 -0.0153965
136250000 0.0008820 -0.0138538 0.9991180 0.0138538 0.9991180 0.0138538 0.0008820 -0.0138538
143500000 0.0008484 -0.0124289 0.9991516 0.0124289 0.9991516 0.0124289 0.0008484 -0.0124289
150750000 0.0008214 -0.0111047 0.9991786 0.0111047 0.9991786 0.0111047 0.0008214 -0.0111047
158000000 0.0007998 -0.0098673 0.9992002 0.0098673 0.9992002 0.0098673 0.0007998 -0.0098673
165250000 0.0007827 -0.0087052 0.9992173 0.0087052 0.9992173 0.0087052 0.0007827 -0.0087052
172500000 0.0007697 -0.0076089 0.9992303 0.0076089 0.9992303 0.0076089 0.0007697 -0.0076089
179750000 0.0007600 -0.0065704 0.9992400 0.0065704 0.9992400 0.0065704 0.0007600 -0.0065704
187000000 0.0007534 -0.0055828 0.9992466 0.0055828 0.9992466 0.0055828 0.0007534 -0.0055828
194250000 0.0007493 -0.0046404 0.9992507 0.0046404 0.9992507 0.0046404 0.0007493 -0.0046404
201500000 0.0007477 -0.0037383 0.9992523 0.0037383 0.9992523 0.0037383 0.0007477 -0.0037383
208750000 0.0007481 -0.0028722 0.9992519 0.0028722 0.9992519 0.0028722 0.0007481 -0.0028722
216000000 0.0007504 -0.0020383 0.9992496 0.0020383 0.9992496 0.0020383 0.0007504 -0.0020383
223250000 0.0007546 -0.0012335 0.9992454 0.0012335 0.9992454 0.0012335 0.0007546 -0.0012335
230500000 0.0007603 -0.0004549 0.9992397 0.0004549 0.9992397 0.0004549 0.0007603 -0.0004549
237750000 0.0007675 0.0002999 0.9992325 -0.0002999 0.9992325 -0.0002999 0.0007675 0.0002999
245000000 0.0007762 0.0010331 0.9992238 -0.0010331 0.9992238 -0.0010331 0.0007762 0.0010331
252250000 0.0007863 0.0017468 0.9992137 -0.0017468 0.9992137 -0.0017468 0.0007863 0.0017468
259500000 0.0007976 0.0024426 0.9992024 -0.0024426 0.9992024 -0.0024426 0.0007976 0.0024426
266750000 0.0008101 0.0031221 0.9991899 -0.0031221 0.9991899 -0.0031221 0.0008101 0.0031221
274000000 0.0008239 0.0037867 0.9991761 -0.0037867 0.9991761 -0.0037867 0.0008239 0.0037867
281250000 0.0008388 0.0044376 0.9991612 -0.0044376 0.9991612 -0.0044376 0.0008388 0.0044376
288500000 0.0008549 0.0050761 0.9991451 -0.0050761 0.9991451 -0.0050761 0.0008549 0.0050761
295750000 0.0008721 0.0057030 0.9991279 -0.0057030 0.9991279 -0.0057030 0.0008721 0.0057030
303000000 0.0008905 0.0063194 0.9991095 -0.0063194 0.9991095 -0.0063194 0.0008905 0.0063194
310250000 0.0009099 0.0069262 0.9990901 -0.0069262 0.9990901 -0.0069262 0.0009099 0.0069262
317500000 0.0009306 0.0075241 0.9990694 -0.0075241 0.9990694 -0.0075241 0.0009306 0.0075241
324750000 0.0009523 0.0081138 0.9990477 -0.0081138 0.9990477 -0.0081138 0.0009523 0.0081138
332000000 0.0009752 0.0086961 0.9990248 -0.0086961 0.9990248 -0.0086961 0.0009752 0.0086961
339250000 0.0009993 0.0092716 0.9990007 -0.0092716 0.9990007 -0.0092716 0.0009993 0.0092716
346500000 0.0010247 0.0098409 0.9989753 -0.0098409 0.9989753 -0.0098409 0.0010247 0.0098409
353750000 0.0010513 0.0104045 0.9989487 -0.0104045 0.9989487 -0.0104045 0.0010513 0.0104045
361000000 0.0010792 0.0109629 0.9989208 -0.0109629 0.9989208 -0.0109629 0.0010792 0.0109629
368250000 0.0011084 0.0115167 0.9988916 -0.0115167 0.9988916 -0.0115167 0.0011084 0.0115167
375500000 0.0011392 0.0120663 0.9988608 -0.0120663 0.9988608 -0.0120663 0.0011392 0.0120663
382750000 0.0011714 0.0126122 0.9988286 -0.0126122 0.9988286 -0.0126122 0.0011714 0.0126122
390000000 0.0012052 0.0131548 0.9987948 -0.0131548 0.9987948 -0.0131548 0.0012052 0.0131548
397250000 0.0012407 0.0136946 0.9987593 -0.0136946 0.9987593 -0.0136946 0.0012407 0.0136946
404500000 0.0012780 0.0142320 0.9987220 -0.0142320 0.9987220 -0.0142320 0.0012780 0.0142320
411750000 0.0013172 0.0147674 0.9986828 -0.0147674 0.9986828 -0.0147674 0.0013172 0.0147674
419000000 0.0013586 0.0153012 0.9986414 -0.0153012 0.9986414 -0.0153012 0.0013586 0.0153012
426250000 0.0014023 0.0158339 0.9985977 -0.0158339 0.9985977 -0.0158339 0.0014023 0.0158339
433500000 0.0014484 0.0163658 0.9985516 -0.0163658 0.9985516 -0.0163658 0.0014484 0.0163658
440750000 0.0014973 0.0168975 0.9985027 -0.0168975 0.9985027 -0.0168975 0.0014973 0.0168975
448000000 0.0015492 0.0174292 0.9984508 -0.0174292 0.9984508 -0.0174292 0.0015492 0.0174292
455250000 0.0016044 0.0179616 0.9983956 -0.0179616 0.9983956 -0.0179616 0.0016044 0.0179616
462500000 0.0016634 0.0184951 0.9983366 -0.0184951 0.9983366 -0.0184951 0.0016634 0.0184951
469750000 0.0017265 0.0190301 0.9982735 -0.0190301 0.9982735 -0.0190301 0.0017265 0.0190301
477000000 0.0017944 0.0195673 0.9982056 -0.0195673 0.9982056 -0.0195673 0.0017944 0.0195673
484250000 0.0018677 0.0201071 0.9981323 -0.0201071 0.9981323 -0.0201071 0.0018677 0.0201071
491500000 0.0019472 0.0206502 0.9980528 -0.0206502 0.9980528 -0.0206502 0.0019472 0.0206502
498750000 0.0020338 0.0211972 0.9979662 -0.0211972 0.9979662 -0.0211972 0.0020338 0.0211972
506000000 0.0021286 0.0217488 0.9978714 -0.0217488 0.9978714 -0.0217488 0.0021286 0.0217488
513250000 0.0022330 0.0223055 0.9977670 -0.0223055 0.9977670 -0.0223055 0.0022330 0.0223055
520500000 0.0023488 0.0228681 0.9976512 -0.0228681 0.9976512 -0.0228681 0.0023488 0.0228681
527750000 0.0024781 0.0234374 0.9975219 -0.0234374 0.9975219 -0.0234374 0.0024781 0.0234374
535000000 0.0026233 0.0240138 0.9973767 -0.0240138 0.9973767 -0.0240138 0.0026233 0.0240138
542250000 0.0027879 0.0245978 0.9972121 -0.0245978 0.9972121 -0.0245978 0.0027879 0.0245978
549500000 0.0029758 0.0251897 0.9970242 -0.0251897 0.9970242 -0.0251897 0.0029758 0.0251897
556750000 0.0031922 0.0257891 0.9968078 -0.0257891 0.9968078 -0.0257891 0.0031922 0.0257891
564000000 0.0034435 0.0263951 0.9965565 -0.0263951 0.9965565 -0.0263951 0.0034435 0.0263951
571250000 0.0037375 0.0270050 0.9962625 -0.0270050 0.9962625 -0.0270050 0.0037375 0.0270050
578500000 0.0040842 0.0276144 0.9959158 -0.0276144 0.9959158 -0.0276144 0.0040842 0.0276144
585750000 0.0044952 0.0282149 0.9955048 -0.0282149 0.9955048 -0.0282149 0.0044952 0.0282149
593000000 0.0049839 0.0287930 0.9950161 -0.0287930 0.9950161 -0.0287930 0.0049839 0.0287930
600250000 0.0055638 0.0293266 0.9944362 -0.0293266 0.9944362 -0.0293266 0.0055638 0.0293266
607500000 0.0062452 0.0297822 0.9937548 -0.0297822 0.9937548 -0.0297822 0.0062452 0.0297822
614750000 0.0070279 0.0301115 0.9929721 -0.0301115 0.9929721 -0.0301115 0.0070279 0.0301115
622000000 0.0078893 0.0302528 0.9921107 -0.0302528 0.9921107 -0.0302528 0.0078893 0.0302528
629250000 0.0087683 0.0301417 0.9912317 -0.0301417 0.9912317 -0.0301417 0.0087683 0.0301417
636500000 0.0095554 0.0297386 0.9904446 -0.0297386 0.9904446 -0.0297386 0.0095554 0.0297386
643750000 0.0101074 0.0290700 0.9898926 -0.0290700 0.9898926 -0.0290700 0.0101074 0.0290700
651000000 0.0103005 0.0282533 0.9896995 -0.0282533 0.9896995 -0.0282533 0.0103005 0.0282533
658250000 0.0100980 0.0274682 0.9899020 -0.0274682 0.9899020 -0.0274682 0.0100980 0.0274682
665500000 0.0095731 0.0268798 0.9904269 -0.0268798 0.9904269 -0.0268798 0.0095731 0.0268798
672750000 0.0088635 0.0265732 0.9911365 -0.0265732 0.9911365 -0.0265732 0.0088635 0.0265732
680000000 0.0081037 0.0265477 0.9918963 -0.0265477 0.9918963 -0.0265477 0.0081037 0.0265477
687250000 0.0073859 0.0267519 0.9926141 -0.0267519 0.9926141 -0.0267519 0.0073859 0.0267519
694500000 0.0067559 0.0271212 0.9932441 -0.0271212 0.9932441 -0.0271212 0.0067559 0.0271212
701750000 0.0062275 0.0275988 0.9937725 -0.0275988 0.9937725 -0.0275988 0.0062275 0.0275988
709000000 0.0057967 0.0281422 0.9942033 -0.0281422 0.9942033 -0.0281422 0.0057967 0.0281422
716250000 0.0054523 0.0287224 0.9945477 -0.0287224 0.9945477 -0.0287224 0.0054523 0.0287224
723500000 0.0051811 0.0293209 0.9948189 -0.0293209 0.9948189 -0.0293209 0.0051811 0.0293209
730750000 0.0049708 0.0299258 0.9950292 -0.0299258 0.9950292 -0.0299258 0.0049708 0.0299258
738000000 0.0048106 0.0305305 0.9951894 -0.0305305 0.9951894 -0.0305305 0.0048106 0.0305305
745250000 0.0046918 0.0311309 0.9953082 -0.0311309 0.9953082 -0.0311309 0.0046918 0.0311309
752500000 0.0046073 0.0317250 0.9953927 -0.0317250 0.9953927 -0.0317250 0.0046073 0.0317250
759750000 0.0045515 0.0323120 0.9954485 -0.0323120 0.9954485 -0.0323120 0.0045515 0.0323120
767000000 0.0045198 0.0328916 0.9954802 -0.0328916 0.9954802 -0.0328916 0.0045198 0.0328916
774250000 0.0045088 0.0334640 0.9954912 -0.0334640 0.9954912 -0.0334640 0.0045088 0.0334640
781500000 0.0045158 0.0340296 0.9954842 -0.0340296 0.9954842 -0.0340296 0.0045158 0.0340296
788750000 0.0045384 0.0345890 0.9954616 -0.0345890 0.9954616 -0.0345890 0.0045384 0.0345890
796000000 0.0045752 0.0351427 0.9954248 -0.0351427 0.9954248 -0.0351427 0.0045752 0.0351427
803250000 0.0046248 0.0356913 0.9953752 -0.0356913 0.9953752 -0.0356913 0.0046248 0.0356913
810500000 0.0046861 0.0362353 0.9953139 -0.0362353 0.9953139 -0.0362353 0.0046861 0.0362353
817750000 0.0047585 0.0367752 0.9952415 -0.0367752 0.9952415 -0.0367752 0.0047585 0.0367752
825000000 0.0048414 0.0373115 0.9951586 -0.0373115 0.9951586 -0.0373115 0.0048414 0.0373115
832250000 0.0049346 0.0378446 0.9950654 -0.0378446 0.9950654 -0.0378446 0.0049346 0.0378446
839500000 0.0050377 0.0383748 0.9949623 -0.0383748 0.9949623 -0.0383748 0.0050377 0.0383748
846750000 0.0051507 0.0389024 0.9948493 -0.0389024 0.9948493 -0.0389024 0.0051507 0.0389024
854000000 0.0052737 0.0394278 0.9947263 -0.0394278 0.9947263 -0.0394278 0.0052737 0.0394278
861250000 0.0054068 0.0399510 0.9945932 -0.0399510 0.9945932 -0.0399510 0.0054068 0.0399510
868500000 0.0055503 0.0404722 0.9944497 -0.0404722 0.9944497 -0.0404722 0.0055503 0.0404722
875750000 0.0057045 0.0409914 0.9942955 -0.0409914 0.9942955 -0.0409914 0.0057045 0.0409914
883000000 0.0058699 0.0415086 0.9941301 -0.0415086 0.9941301 -0.0415086 0.0058699 0.0415086
890250000 0.0060469 0.0420237 0.9939531 -0.0420237 0.9939531 -0.0420237 0.0060469 0.0420237
897500000 0.0062361 0.0425364 0.9937639 -0.0425364 0.9937639 -0.0425364 0.0062361 0.0425364
904750000 0.0064383 0.0430465 0.9935617 -0.0430465 0.9935617 -0.0430465 0.0064383 0.0430465
912000000 0.0066541 0.0435535 0.9933459 -0.0435535 0.9933459 -0.0435535 0.0066541 0.0435535
919250000 0.0068843 0.0440568 0.9931157 -0.0440568 0.9931157 -0.0440568 0.0068843 0.0440568
926500000 0.0071298 0.0445558 0.9928702 -0.0445558 0.9928702 -0.0445558 0.0071298 0.0445558
933750000 0.0073915 0.0450496 0.9926085 -0.0450496 0.9926085 -0.0450496 0.0073915 0.0450496
941000000 0.0076703 0.0455369 0.9923297 -0.0455369 0.9923297 -0.0455369 0.0076703 0.0455369
948250000 0.0079672 0.0460165 0.9920328 -0.0460165 0.9920328 -0.0460165 0.0079672 0.0460165
955500000 0.0082832 0.0464868 0.9917168 -0.0464868 0.9917168 -0.0464868 0.0082832 0.0464868
962750000 0.0086190 0.0469458 0.9913810 -0.0469458 0.9913810 -0.0469458 0.0086190 0.0469458
970000000 0.0089756 0.0473913 0.9910244 -0.0473913 0.9910244 -0.0473913 0.0089756 0.0473913
977250000 0.0093536 0.0478208 0.9906464 -0.0478208 0.9906464 -0.0478208 0.0093536 0.0478208
984500000 0.0097534 0.0482311 0.9902466 -0.0482311 0.9902466 -0.0482311 0.0097534 0.0482311
991750000 0.0101751 0.0486189 0.9898249 -0.0486189 0.9898249 -0.0486189 0.0101751 0.0486189
999000000 0.0106184 0.0489804 0.9893816 -0.0489804 0.9893816 -0.0489804 0.0106184 0.0489804
1006250000 0.0110823 0.0493113 0.9889177 -0.0493113 0.9889177 -0.0493113 0.0110823 0.0493113
1013500000 0.0115652 0.0496069 0.9884348 -0.0496069 0.9884348 -0.0496069 0.0115652 0.0496069
1020750000 0.0120646 0.0498626 0.9879354 -0.0498626 0.9879354 -0.0498626 0.0120646 0.0498626
1028000000 0.0125770 0.0500733 0.9874230 -0.0500733 0.9874230 -0.0500733 0.0125770 0.0500733
1035250000 0.0130974 0.0502341 0.9869026 -0.0502341 0.9869026 -0.0502341 0.0130974 0.0502341
1042500000 0.0136198 0.0503408 0.9863802 -0.0503408 0.9863802 -0.0503408 0.0136198 0.0503408
1049750000 0.0141367 0.0503895 0.9858633 -0.0503895 0.9858633 -0.0503895 0.0141367 0.0503895
1057000000 0.0146392 0.0503777 0.9853608 -0.0503777 0.9853608 -0.0503777 0.0146392 0.0503777
1064250000 0.0151173 0.0503047 0.9848827 -0.0503047 0.9848827 -0.0503047 0.0151173 0.0503047
1071500000 0.0155601 0.0501715 0.9844399 -0.0501715 0.9844399 -0.0501715 0.0155601 0.0501715
1078750000 0.0159567 0.0499817 0.9840433 -0.0499817 0.9840433 -0.0499817 0.0159567 0.0499817
1086000000 0.0162961 0.0497416 0.9837039 -0.0497416 0.9837039 -0.0497416 0.0162961 0.0497416
1093250000 0.0165687 0.0494599 0.9834313 -0.0494599 0.9834313 -0.0494599 0.0165687 0.0494599
1100500000 0.0167666 0.0491479 0.9832334 -0.0491479 0.9832334 -0.0491479 0.0167666 0.0491479
1107750000 0.0168847 0.0488185 0.9831153 -0.0488185 0.9831153 -0.0488185 0.0168847 0.0488185
1115000000 0.0169206 0.0484857 0.9830794 -0.0484857 0.9830794 -0.0484857 0.0169206 0.0484857
1122250000 0.0168754 0.0481638 0.9831246 -0.0481638 0.9831246 -0.0481638 0.0168754 0.0481638
1129500000 0.0167533 0.0478663 0.9832467 -0.0478663 0.9832467 -0.0478663 0.0167533 0.0478663
1136750000 0.0165612 0.0476049 0.9834388 -0.0476049 0.9834388 -0.0476049 0.0165612 0.0476049
1144000000 0.0163080 0.0473894 0.9836920 -0.0473894 0.9836920 -0.0473894 0.0163080 0.0473894
1151250000 0.0160043 0.0472269 0.9839957 -0.0472269 0.9839957 -0.0472269 0.0160043 0.0472269
1158500000 0.0156609 0.0471220 0.9843391 -0.0471220 0.9843391 -0.0471220 0.0156609 0.0471220
1165750000 0.0152887 0.0470766 0.9847113 -0.0470766 0.9847113 -0.0470766 0.0152887 0.0470766
1173000000 0.0148982 0.0470907 0.9851018 -0.0470907 0.9851018 -0.0470907 0.0148982 0.0470907
1180250000 0.0144983 0.0471623 0.9855017 -0.0471623 0.9855017 -0.0471623 0.0144983 0.0471623
1187500000 0.0140972 0.0472882 0.9859028 -0.0472882 0.9859028 -0.0472882 0.0140972 0.0472882
1194750000 0.0137013 0.0474643 0.9862987 -0.0474643 0.9862987 -0.0474643 0.0137013 0.0474643
1202000000 0.0133159 0.0476858 0.9866841 -0.0476858 0.9866841 -0.0476858 0.0133159 0.0476858
1209250000 0.0129451 0.0479478 0.9870549 -0.0479478 0.9870549 -0.0479478 0.0129451 0.0479478
1216500000 0.0125916 0.0482457 0.9874084 -0.0482457 0.9874084 -0.0482457 0.0125916 0.0482457
1223750000 0.0122575 0.0485746 0.9877425 -0.0485746 0.9877425 -0.0485746 0.0122575 0.0485746
1231000000 0.0119439 0.0489302 0.9880561 -0.0489302 0.9880561 -0.0489302 0.0119439 0.0489302
1238250000 0.0116514 0.0493086 0.9883486 -0.0493086 0.9883486 -0.0493086 0.0116514 0.0493086
1245500000 0.0113800 0.0497062 0.9886200 -0.0497062 0.9886200 -0.0497062 0.0113800 0.0497062
1252750000 0.0111294 0.0501197 0.9888706 -0.0501197 0.9888706 -0.0501197 0.0111294 0.0501197
1260000000 0.0108991 0.0505465 0.9891009 -0.0505465 0.9891009 -0.0505465 0.0108991 0.0505465
1267250000 0.0106884 0.0509840 0.9893116 -0.0509840 0.9893116 -0.0509840 0.0106884 0.0509840
1274500000 0.0104962 0.0514302 0.9895038 -0.0514302 0.9895038 -0.0514302 0.0104962 0.0514302
1281750000 0.0103218 0.0518832 0.9896782 -0.0518832 0.9896782 -0.0518832 0.0103218 0.0518832
1289000000 0.0101642 0.0523416 0.9898358 -0.0523416 0.9898358 -0.0523416 0.0101642 0.0523416
1296250000 0.0100223 0.0528041 0.9899777 -0.0528041 0.9899777 -0.0528041 0.0100223 0.0528041
1303500000 0.0098951 0.0532695 0.9901049 -0.0532695 0.9901049 -0.0532695 0.0098951 0.0532695
1310750000 0.0097818 0.0537370 0.9902182 -0.0537370 0.9902182 -0.0537370 0.0097818 0.0537370
1318000000 0.0096815 0.0542057 0.9903185 -0.0542057 0.9903185 -0.0542057 0.0096815 0.0542057
1325250000 0.0095932 0.0546750 0.9904068 -0.0546750 0.9904068 -0.0546750 0.0095932 0.0546750
1332500000 0.0095163 0.0551445 0.9904837 -0.0551445 0.9904837 -0.0551445 0.0095163 0.0551445
1339750000 0.0094499 0.0556136 0.9905501 -0.0556136 0.9905501 -0.0556136 0.0094499 0.0556136
1347000000 0.0093933 0.0560820 0.9906067 -0.0560820 0.9906067 -0.0560820 0.0093933 0.0560820
1354250000 0.0093459 0.0565495 0.9906541 -0.0565495 0.9906541 -0.0565495 0.0093459 0.0565495
1361500000 0.0093070 0.0570157 0.9906930 -0.0570157 0.9906930 -0.0570157 0.0093070 0.0570157
1368750000 0.0092762 0.0574806 0.9907238 -0.0574806 0.9907238 -0.0574806 0.0092762 0.0574806
1376000000 0.0092529 0.0579439 0.9907471 -0.0579439 0.9907471 -0.0579439 0.0092529 0.0579439
1383250000 0.0092366 0.0584056 0.9907634 -0.0584056 0.9907634 -0.0584056 0.0092366 0.0584056
1390500000 0.0092269 0.0588655 0.9907731 -0.0588655 0.9907731 -0.0588655 0.0092269 0.0588655
1397750000 0.0092233 0.0593236 0.9907767 -0.0593236 0.9907767 -0.0593236 0.0092233 0.0593236
1405000000 0.0092255 0.0597799 0.9907745 -0.0597799 0.9907745 -0.0597799 0.0092255 0.0597799
1412250000 0.0092332 0.0602344 0.9907668 -0.0602344 0.9907668 -0.0602344 0.0092332 0.0602344
1419500000 0.0092459 0.0606869 0.9907541 -0.0606869 0.9907541 -0.0606869 0.0092459 0.0606869
1426750000 0.0092636 0.0611376 0.9907364 -0.0611376 0.9907364 -0.0611376 0.0092636 0.0611376
1434000000 0.0092857 0.0615863 0.9907143 -0.0615863 0.9907143 -0.0615863 0.0092857 0.0615863
1441250000 0.0093122 0.0620333 0.9906878 -0.0620333 0.9906878 -0.0620333 0.0093122 0.0620333
1448500000 0.0093428 0.0624783 0.9906572 -0.0624783 0.9906572 -0.0624783 0.0093428 0.0624783
1455750000 0.0093772 0.0629216 0.9906228 -0.0629216 0.9906228 -0.0629216 0.0093772 0.0629216
1463000000 0.0094153 0.0633630 0.9905847 -0.0633630 0.9905847 -0.0633630 0.0094153 0.0633630
1470250000 0.0094569 0.0638027 0.9905431 -0.0638027 0.9905431 -0.0638027 0.0094569 0.0638027
1477500000 0.0095018 0.0642407 0.9904982 -0.0642407 0.9904982 -0.0642407 0.0095018 0.0642407
1484750000 0.0095498 0.0646769 0.9904502 -0.0646769 0.9904502 -0.0646769 0.0095498 0.0646769
1492000000 0.0096009 0.0651114 0.9903991 -0.0651114 0.9903991 -0.0651114 0.0096009 0.0651114
1499250000 0.0096549 0.0655443 0.9903451 -0.0655443 0.9903451 -0.0655443 0.0096549 0.0655443
1506500000 0.0097117 0.0659756 0.9902883 -0.0659756 0.9902883 -0.0659756 0.0097117 0.0659756
1513750000 0.0097711 0.0664053 0.9902289 -0.0664053 0.9902289 -0.0664053 0.0097711 0.0664053
1521000000 0.0098330 0.0668334 0.9901670 -0.0668334 0.9901670 -0.0668334 0.0098330 0.0668334
1528250000 0.0098974 0.0672600 0.9901026 -0.0672600 0.9901026 -0.0672600 0.0098974 0.0672600
1535500000 0.0099642 0.0676851 0.9900358 -0.0676851 0.9900358 -0.0676851 0.0099642 0.0676851
1542750000 0.0100332 0.0681087 0.9899668 -0.0681087 0.9899668 -0.0681087 0.0100332 0.0681087
1550000000 0.0101044 0.0685309 0.9898956 -0.0685309 0.9898956 -0.0685309 0.0101044 0.0685309
1557250000 0.0101778 0.0689517 0.9898222 -0.0689517 0.9898222 -0.0689517 0.0101778 0.0689517
1564500000 0.0102531 0.0693711 0.9897469 -0.0693711 0.9897469 -0.0693711 0.0102531 0.0693711
1571750000 0.0103305 0.0697891 0.9896695 -0.0697891 0.9896695 -0.0697891 0.0103305 0.0697891
1579000000 0.0104098 0.0702057 0.9895902 -0.0702057 0.9895902 -0.0702057 0.0104098 0.0702057
1586250000 0.0104909 0.0706210 0.9895091 -0.0706210 0.9895091 -0.0706210 0.0104909 0.0706210
1593500000 0.0105738 0.0710350 0.9894262 -0.0710350 0.9894262 -0.0710350 0.0105738 0.0710350
1600750000 0.0106585 0.0714477 0.9893415 -0.0714477 0.9893415 -0.0714477 0.0106585 0.0714477
1608000000 0.0107449 0.0718592 0.9892551 -0.0718592 0.9892551 -0.0718592 0.0107449 0.0718592
1615250000 0.0108329 0.0722693 0.9891671 -0.0722693 0.9891671 -0.0722693 0.0108329 0.0722693
1622500000 0.0109225 0.0726783 0.9890775 -0.0726783 0.9890775 -0.0726783 0.0109225 0.0726783
1629750000 0.0110137 0.0730859 0.9889863 -0.0730859 0.9889863 -0.0730859 0.0110137 0.0730859
