!Murata Part Number: GRM31C7U2J392JW32
!These Parameters are Measured in Series Mode Connection
!Data Generated on Mar 30, 2021
!       o--ll--o
!Port1            Port2
!       o------o
!Operation Temp=25[degC], DC Bias Voltage=0[V]
!Freq. Start=1000[kHz] Stop=3[GHz] 401[Steps]
# Hz S RI R 50
!Freq.(Hz) S11(Real) S11(Imag) S21(Real) S21(Imag) S12(Real) S12(Imag) S22(Real) S22(Imag)
1000000 0.1393711 -0.3462293 0.8606289 0.3462293 0.8606289 0.3462293 0.1393711 -0.3462293
1020218 0.1346394 -0.3412318 0.8653606 0.3412318 0.8653606 0.3412318 0.1346394 -0.3412318
1040844 0.1300441 -0.3362436 0.8699559 0.3362436 0.8699559 0.3362436 0.1300441 -0.3362436
1061887 0.1255830 -0.3312682 0.8744170 0.3312682 0.8744170 0.3312682 0.1255830 -0.3312682
1083356 0.1212535 -0.3263089 0.8787465 0.3263089 0.8787465 0.3263089 0.1212535 -0.3263089
1105259 0.1170535 -0.3213689 0.8829465 0.3213689 0.8829465 0.3213689 0.1170535 -0.3213689
1127605 0.1129802 -0.3164511 0.8870198 0.3164511 0.8870198 0.3164511 0.1129802 -0.3164511
1150402 0.1090312 -0.3115585 0.8909688 0.3115585 0.8909688 0.3115585 0.1090312 -0.3115585
1173660 0.1052039 -0.3066937 0.8947961 0.3066937 0.8947961 0.3066937 0.1052039 -0.3066937
1197389 0.1014957 -0.3018593 0.8985043 0.3018593 0.8985043 0.3018593 0.1014957 -0.3018593
1221597 0.0979040 -0.2970575 0.9020960 0.2970575 0.9020960 0.2970575 0.0979040 -0.2970575
1246295 0.0944260 -0.2922906 0.9055740 0.2922906 0.9055740 0.2922906 0.0944260 -0.2922906
1271492 0.0910592 -0.2875608 0.9089408 0.2875608 0.9089408 0.2875608 0.0910592 -0.2875608
1297199 0.0878008 -0.2828698 0.9121992 0.2828698 0.9121992 0.2828698 0.0878008 -0.2828698
1323425 0.0846482 -0.2782196 0.9153518 0.2782196 0.9153518 0.2782196 0.0846482 -0.2782196
1350181 0.0815987 -0.2736117 0.9184013 0.2736117 0.9184013 0.2736117 0.0815987 -0.2736117
1377479 0.0786497 -0.2690477 0.9213503 0.2690477 0.9213503 0.2690477 0.0786497 -0.2690477
1405328 0.0757985 -0.2645290 0.9242015 0.2645290 0.9242015 0.2645290 0.0757985 -0.2645290
1433740 0.0730426 -0.2600569 0.9269574 0.2600569 0.9269574 0.2600569 0.0730426 -0.2600569
1462727 0.0703792 -0.2556325 0.9296208 0.2556325 0.9296208 0.2556325 0.0703792 -0.2556325
1492300 0.0678059 -0.2512570 0.9321941 0.2512570 0.9321941 0.2512570 0.0678059 -0.2512570
1522470 0.0653202 -0.2469312 0.9346798 0.2469312 0.9346798 0.2469312 0.0653202 -0.2469312
1553251 0.0629195 -0.2426560 0.9370805 0.2426560 0.9370805 0.2426560 0.0629195 -0.2426560
1584654 0.0606013 -0.2384322 0.9393987 0.2384322 0.9393987 0.2384322 0.0606013 -0.2384322
1616692 0.0583632 -0.2342604 0.9416368 0.2342604 0.9416368 0.2342604 0.0583632 -0.2342604
1649378 0.0562030 -0.2301411 0.9437970 0.2301411 0.9437970 0.2301411 0.0562030 -0.2301411
1682724 0.0541181 -0.2260750 0.9458819 0.2260750 0.9458819 0.2260750 0.0541181 -0.2260750
1716745 0.0521064 -0.2220623 0.9478936 0.2220623 0.9478936 0.2220623 0.0521064 -0.2220623
1751453 0.0501655 -0.2181034 0.9498345 0.2181034 0.9498345 0.2181034 0.0501655 -0.2181034
1786863 0.0482933 -0.2141987 0.9517067 0.2141987 0.9517067 0.2141987 0.0482933 -0.2141987
1822989 0.0464876 -0.2103481 0.9535124 0.2103481 0.9535124 0.2103481 0.0464876 -0.2103481
1859846 0.0447463 -0.2065520 0.9552537 0.2065520 0.9552537 0.2065520 0.0447463 -0.2065520
1897447 0.0430673 -0.2028103 0.9569327 0.2028103 0.9569327 0.2028103 0.0430673 -0.2028103
1935809 0.0414486 -0.1991231 0.9585514 0.1991231 0.9585514 0.1991231 0.0414486 -0.1991231
1974946 0.0398883 -0.1954903 0.9601117 0.1954903 0.9601117 0.1954903 0.0398883 -0.1954903
2014875 0.0383844 -0.1919118 0.9616156 0.1919118 0.9616156 0.1919118 0.0383844 -0.1919118
2055611 0.0369351 -0.1883876 0.9630649 0.1883876 0.9630649 0.1883876 0.0369351 -0.1883876
2097170 0.0355386 -0.1849173 0.9644614 0.1849173 0.9644614 0.1849173 0.0355386 -0.1849173
2139570 0.0341930 -0.1815008 0.9658070 0.1815008 0.9658070 0.1815008 0.0341930 -0.1815008
2182827 0.0328967 -0.1781377 0.9671033 0.1781377 0.9671033 0.1781377 0.0328967 -0.1781377
2226959 0.0316480 -0.1748279 0.9683520 0.1748279 0.9683520 0.1748279 0.0316480 -0.1748279
2271982 0.0304452 -0.1715710 0.9695548 0.1715710 0.9695548 0.1715710 0.0304452 -0.1715710
2317916 0.0292869 -0.1683666 0.9707131 0.1683666 0.9707131 0.1683666 0.0292869 -0.1683666
2364779 0.0281714 -0.1652143 0.9718286 0.1652143 0.9718286 0.1652143 0.0281714 -0.1652143
2412589 0.0270972 -0.1621137 0.9729028 0.1621137 0.9729028 0.1621137 0.0270972 -0.1621137
2461366 0.0260629 -0.1590643 0.9739371 0.1590643 0.9739371 0.1590643 0.0260629 -0.1590643
2511129 0.0250672 -0.1560658 0.9749328 0.1560658 0.9749328 0.1560658 0.0250672 -0.1560658
2561897 0.0241086 -0.1531175 0.9758914 0.1531175 0.9758914 0.1531175 0.0241086 -0.1531175
2613693 0.0231859 -0.1502191 0.9768141 0.1502191 0.9768141 0.1502191 0.0231859 -0.1502191
2666535 0.0222977 -0.1473699 0.9777023 0.1473699 0.9777023 0.1473699 0.0222977 -0.1473699
2720446 0.0214429 -0.1445695 0.9785571 0.1445695 0.9785571 0.1445695 0.0214429 -0.1445695
2775447 0.0206202 -0.1418172 0.9793798 0.1418172 0.9793798 0.1418172 0.0206202 -0.1418172
2831560 0.0198285 -0.1391127 0.9801715 0.1391127 0.9801715 0.1391127 0.0198285 -0.1391127
2888807 0.0190666 -0.1364551 0.9809334 0.1364551 0.9809334 0.1364551 0.0190666 -0.1364551
2947212 0.0183335 -0.1338441 0.9816665 0.1338441 0.9816665 0.1338441 0.0183335 -0.1338441
3006797 0.0176282 -0.1312790 0.9823718 0.1312790 0.9823718 0.1312790 0.0176282 -0.1312790
3067588 0.0169496 -0.1287592 0.9830504 0.1287592 0.9830504 0.1287592 0.0169496 -0.1287592
3129607 0.0162967 -0.1262841 0.9837033 0.1262841 0.9837033 0.1262841 0.0162967 -0.1262841
3192880 0.0156687 -0.1238531 0.9843313 0.1238531 0.9843313 0.1238531 0.0156687 -0.1238531
3257432 0.0150645 -0.1214657 0.9849355 0.1214657 0.9849355 0.1214657 0.0150645 -0.1214657
3323290 0.0144834 -0.1191211 0.9855166 0.1191211 0.9855166 0.1191211 0.0144834 -0.1191211
3390478 0.0139244 -0.1168188 0.9860756 0.1168188 0.9860756 0.1168188 0.0139244 -0.1168188
3459026 0.0133868 -0.1145582 0.9866132 0.1145582 0.9866132 0.1145582 0.0133868 -0.1145582
3528959 0.0128697 -0.1123386 0.9871303 0.1123386 0.9871303 0.1123386 0.0128697 -0.1123386
3600306 0.0123724 -0.1101594 0.9876276 0.1101594 0.9876276 0.1101594 0.0123724 -0.1101594
3673095 0.0118941 -0.1080201 0.9881059 0.1080201 0.9881059 0.1080201 0.0118941 -0.1080201
3747356 0.0114342 -0.1059200 0.9885658 0.1059200 0.9885658 0.1059200 0.0114342 -0.1059200
3823119 0.0109919 -0.1038585 0.9890081 0.1038585 0.9890081 0.1038585 0.0109919 -0.1038585
3900413 0.0105666 -0.1018350 0.9894334 0.1018350 0.9894334 0.1018350 0.0105666 -0.1018350
3979270 0.0101577 -0.0998488 0.9898423 0.0998488 0.9898423 0.0998488 0.0101577 -0.0998488
4059721 0.0097645 -0.0978995 0.9902355 0.0978995 0.9902355 0.0978995 0.0097645 -0.0978995
4141799 0.0093864 -0.0959864 0.9906136 0.0959864 0.9906136 0.0959864 0.0093864 -0.0959864
4225536 0.0090230 -0.0941088 0.9909770 0.0941088 0.9909770 0.0941088 0.0090230 -0.0941088
4310966 0.0086735 -0.0922663 0.9913265 0.0922663 0.9913265 0.0922663 0.0086735 -0.0922663
4398124 0.0083375 -0.0904582 0.9916625 0.0904582 0.9916625 0.0904582 0.0083375 -0.0904582
4487043 0.0080145 -0.0886839 0.9919855 0.0886839 0.9919855 0.0886839 0.0080145 -0.0886839
4577760 0.0077040 -0.0869430 0.9922960 0.0869430 0.9922960 0.0869430 0.0077040 -0.0869430
4670311 0.0074055 -0.0852347 0.9925945 0.0852347 0.9925945 0.0852347 0.0074055 -0.0852347
4764734 0.0071185 -0.0835586 0.9928815 0.0835586 0.9928815 0.0835586 0.0071185 -0.0835586
4861065 0.0068427 -0.0819140 0.9931573 0.0819140 0.9931573 0.0819140 0.0068427 -0.0819140
4959344 0.0065775 -0.0803005 0.9934225 0.0803005 0.9934225 0.0803005 0.0065775 -0.0803005
5059610 0.0063227 -0.0787175 0.9936773 0.0787175 0.9936773 0.0787175 0.0063227 -0.0787175
5161903 0.0060777 -0.0771645 0.9939223 0.0771645 0.9939223 0.0771645 0.0060777 -0.0771645
5266264 0.0058422 -0.0756408 0.9941578 0.0756408 0.9941578 0.0756408 0.0058422 -0.0756408
5372736 0.0056159 -0.0741461 0.9943841 0.0741461 0.9943841 0.0741461 0.0056159 -0.0741461
5481359 0.0053984 -0.0726798 0.9946016 0.0726798 0.9946016 0.0726798 0.0053984 -0.0726798
5592179 0.0051893 -0.0712413 0.9948107 0.0712413 0.9948107 0.0712413 0.0051893 -0.0712413
5705239 0.0049883 -0.0698302 0.9950117 0.0698302 0.9950117 0.0698302 0.0049883 -0.0698302
5820586 0.0047952 -0.0684460 0.9952048 0.0684460 0.9952048 0.0684460 0.0047952 -0.0684460
5938264 0.0046096 -0.0670881 0.9953904 0.0670881 0.9953904 0.0670881 0.0046096 -0.0670881
6058321 0.0044313 -0.0657562 0.9955687 0.0657562 0.9955687 0.0657562 0.0044313 -0.0657562
6180806 0.0042598 -0.0644497 0.9957402 0.0644497 0.9957402 0.0644497 0.0042598 -0.0644497
6305767 0.0040951 -0.0631681 0.9959049 0.0631681 0.9959049 0.0631681 0.0040951 -0.0631681
6433254 0.0039368 -0.0619110 0.9960632 0.0619110 0.9960632 0.0619110 0.0039368 -0.0619110
6563319 0.0037847 -0.0606779 0.9962153 0.0606779 0.9962153 0.0606779 0.0037847 -0.0606779
6696013 0.0036385 -0.0594685 0.9963615 0.0594685 0.9963615 0.0594685 0.0036385 -0.0594685
6831390 0.0034980 -0.0582821 0.9965020 0.0582821 0.9965020 0.0582821 0.0034980 -0.0582821
6969505 0.0033631 -0.0571185 0.9966369 0.0571185 0.9966369 0.0571185 0.0033631 -0.0571185
7110411 0.0032334 -0.0559771 0.9967666 0.0559771 0.9967666 0.0559771 0.0032334 -0.0559771
7254166 0.0031088 -0.0548576 0.9968912 0.0548576 0.9968912 0.0548576 0.0031088 -0.0548576
7400828 0.0029890 -0.0537596 0.9970110 0.0537596 0.9970110 0.0537596 0.0029890 -0.0537596
7550455 0.0028740 -0.0526826 0.9971260 0.0526826 0.9971260 0.0526826 0.0028740 -0.0526826
7703107 0.0027635 -0.0516261 0.9972365 0.0516261 0.9972365 0.0516261 0.0027635 -0.0516261
7858845 0.0026573 -0.0505900 0.9973427 0.0505900 0.9973427 0.0505900 0.0026573 -0.0505900
8017732 0.0025552 -0.0495737 0.9974448 0.0495737 0.9974448 0.0495737 0.0025552 -0.0495737
8179831 0.0024572 -0.0485768 0.9975428 0.0485768 0.9975428 0.0485768 0.0024572 -0.0485768
8345207 0.0023630 -0.0475990 0.9976370 0.0475990 0.9976370 0.0475990 0.0023630 -0.0475990
8513927 0.0022726 -0.0466400 0.9977274 0.0466400 0.9977274 0.0466400 0.0022726 -0.0466400
8686058 0.0021857 -0.0456993 0.9978143 0.0456993 0.9978143 0.0456993 0.0021857 -0.0456993
8861669 0.0021022 -0.0447766 0.9978978 0.0447766 0.9978978 0.0447766 0.0021022 -0.0447766
9040831 0.0020220 -0.0438715 0.9979780 0.0438715 0.9979780 0.0438715 0.0020220 -0.0438715
9223615 0.0019450 -0.0429838 0.9980550 0.0429838 0.9980550 0.0429838 0.0019450 -0.0429838
9410094 0.0018710 -0.0421130 0.9981290 0.0421130 0.9981290 0.0421130 0.0018710 -0.0421130
9600343 0.0017999 -0.0412588 0.9982001 0.0412588 0.9982001 0.0412588 0.0017999 -0.0412588
9794439 0.0017317 -0.0404210 0.9982683 0.0404210 0.9982683 0.0404210 0.0017317 -0.0404210
9992459 0.0016661 -0.0395991 0.9983339 0.0395991 0.9983339 0.0395991 0.0016661 -0.0395991
10194482 0.0016032 -0.0387929 0.9983968 0.0387929 0.9983968 0.0387929 0.0016032 -0.0387929
10400590 0.0015427 -0.0380020 0.9984573 0.0380020 0.9984573 0.0380020 0.0015427 -0.0380020
10610865 0.0014847 -0.0372262 0.9985153 0.0372262 0.9985153 0.0372262 0.0014847 -0.0372262
10825391 0.0014290 -0.0364651 0.9985710 0.0364651 0.9985710 0.0364651 0.0014290 -0.0364651
11044254 0.0013754 -0.0357185 0.9986246 0.0357185 0.9986246 0.0357185 0.0013754 -0.0357185
11267542 0.0013241 -0.0349860 0.9986759 0.0349860 0.9986759 0.0349860 0.0013241 -0.0349860
11495344 0.0012747 -0.0342675 0.9987253 0.0342675 0.9987253 0.0342675 0.0012747 -0.0342675
11727752 0.0012274 -0.0335625 0.9987726 0.0335625 0.9987726 0.0335625 0.0012274 -0.0335625
11964859 0.0011819 -0.0328709 0.9988181 0.0328709 0.9988181 0.0328709 0.0011819 -0.0328709
12206760 0.0011383 -0.0321923 0.9988617 0.0321923 0.9988617 0.0321923 0.0011383 -0.0321923
12453551 0.0010964 -0.0315265 0.9989036 0.0315265 0.9989036 0.0315265 0.0010964 -0.0315265
12705331 0.0010563 -0.0308732 0.9989437 0.0308732 0.9989437 0.0308732 0.0010563 -0.0308732
12962202 0.0010177 -0.0302323 0.9989823 0.0302323 0.9989823 0.0302323 0.0010177 -0.0302323
13224267 0.0009807 -0.0296033 0.9990193 0.0296033 0.9990193 0.0296033 0.0009807 -0.0296033
13491630 0.0009452 -0.0289862 0.9990548 0.0289862 0.9990548 0.0289862 0.0009452 -0.0289862
13764398 0.0009112 -0.0283806 0.9990888 0.0283806 0.9990888 0.0283806 0.0009112 -0.0283806
14042680 0.0008785 -0.0277862 0.9991215 0.0277862 0.9991215 0.0277862 0.0008785 -0.0277862
14326589 0.0008472 -0.0272030 0.9991528 0.0272030 0.9991528 0.0272030 0.0008472 -0.0272030
14616238 0.0008172 -0.0266306 0.9991828 0.0266306 0.9991828 0.0266306 0.0008172 -0.0266306
14911743 0.0007884 -0.0260688 0.9992116 0.0260688 0.9992116 0.0260688 0.0007884 -0.0260688
15213223 0.0007608 -0.0255174 0.9992392 0.0255174 0.9992392 0.0255174 0.0007608 -0.0255174
15520797 0.0007344 -0.0249762 0.9992656 0.0249762 0.9992656 0.0249762 0.0007344 -0.0249762
15834590 0.0007090 -0.0244450 0.9992910 0.0244450 0.9992910 0.0244450 0.0007090 -0.0244450
16154727 0.0006848 -0.0239235 0.9993152 0.0239235 0.9993152 0.0239235 0.0006848 -0.0239235
16481337 0.0006615 -0.0234116 0.9993385 0.0234116 0.9993385 0.0234116 0.0006615 -0.0234116
16814550 0.0006392 -0.0229091 0.9993608 0.0229091 0.9993608 0.0229091 0.0006392 -0.0229091
17154499 0.0006179 -0.0224157 0.9993821 0.0224157 0.9993821 0.0224157 0.0006179 -0.0224157
17501322 0.0005975 -0.0219312 0.9994025 0.0219312 0.9994025 0.0219312 0.0005975 -0.0219312
17855156 0.0005780 -0.0214555 0.9994220 0.0214555 0.9994220 0.0214555 0.0005780 -0.0214555
18216144 0.0005593 -0.0209884 0.9994407 0.0209884 0.9994407 0.0209884 0.0005593 -0.0209884
18584431 0.0005415 -0.0205297 0.9994585 0.0205297 0.9994585 0.0205297 0.0005415 -0.0205297
18960163 0.0005244 -0.0200793 0.9994756 0.0200793 0.9994756 0.0200793 0.0005244 -0.0200793
19343491 0.0005081 -0.0196368 0.9994919 0.0196368 0.9994919 0.0196368 0.0005081 -0.0196368
19734570 0.0004925 -0.0192023 0.9995075 0.0192023 0.9995075 0.0192023 0.0004925 -0.0192023
20133555 0.0004776 -0.0187754 0.9995224 0.0187754 0.9995224 0.0187754 0.0004776 -0.0187754
20540607 0.0004634 -0.0183560 0.9995366 0.0183560 0.9995366 0.0183560 0.0004634 -0.0183560
20955888 0.0004499 -0.0179440 0.9995501 0.0179440 0.9995501 0.0179440 0.0004499 -0.0179440
21379566 0.0004370 -0.0175392 0.9995630 0.0175392 0.9995630 0.0175392 0.0004370 -0.0175392
21811809 0.0004247 -0.0171415 0.9995753 0.0171415 0.9995753 0.0171415 0.0004247 -0.0171415
22252791 0.0004130 -0.0167506 0.9995870 0.0167506 0.9995870 0.0167506 0.0004130 -0.0167506
22702688 0.0004018 -0.0163664 0.9995982 0.0163664 0.9995982 0.0163664 0.0004018 -0.0163664
23161682 0.0003912 -0.0159888 0.9996088 0.0159888 0.9996088 0.0159888 0.0003912 -0.0159888
23629955 0.0003812 -0.0156177 0.9996188 0.0156177 0.9996188 0.0156177 0.0003812 -0.0156177
24107696 0.0003716 -0.0152528 0.9996284 0.0152528 0.9996284 0.0152528 0.0003716 -0.0152528
24595095 0.0003625 -0.0148940 0.9996375 0.0148940 0.9996375 0.0148940 0.0003625 -0.0148940
25092348 0.0003539 -0.0145412 0.9996461 0.0145412 0.9996461 0.0145412 0.0003539 -0.0145412
25599655 0.0003458 -0.0141943 0.9996542 0.0141943 0.9996542 0.0141943 0.0003458 -0.0141943
26117218 0.0003381 -0.0138531 0.9996619 0.0138531 0.9996619 0.0138531 0.0003381 -0.0138531
26645245 0.0003309 -0.0135175 0.9996691 0.0135175 0.9996691 0.0135175 0.0003309 -0.0135175
27183947 0.0003240 -0.0131872 0.9996760 0.0131872 0.9996760 0.0131872 0.0003240 -0.0131872
27733541 0.0003176 -0.0128623 0.9996824 0.0128623 0.9996824 0.0128623 0.0003176 -0.0128623
28294246 0.0003115 -0.0125426 0.9996885 0.0125426 0.9996885 0.0125426 0.0003115 -0.0125426
28866287 0.0003058 -0.0122280 0.9996942 0.0122280 0.9996942 0.0122280 0.0003058 -0.0122280
29449894 0.0003005 -0.0119182 0.9996995 0.0119182 0.9996995 0.0119182 0.0003005 -0.0119182
30045299 0.0002956 -0.0116133 0.9997044 0.0116133 0.9997044 0.0116133 0.0002956 -0.0116133
30652742 0.0002909 -0.0113130 0.9997091 0.0113130 0.9997091 0.0113130 0.0002909 -0.0113130
31272467 0.0002867 -0.0110173 0.9997133 0.0110173 0.9997133 0.0110173 0.0002867 -0.0110173
31904720 0.0002827 -0.0107261 0.9997173 0.0107261 0.9997173 0.0107261 0.0002827 -0.0107261
32549757 0.0002790 -0.0104391 0.9997210 0.0104391 0.9997210 0.0104391 0.0002790 -0.0104391
33207834 0.0002757 -0.0101564 0.9997243 0.0101564 0.9997243 0.0101564 0.0002757 -0.0101564
33879216 0.0002726 -0.0098778 0.9997274 0.0098778 0.9997274 0.0098778 0.0002726 -0.0098778
34564172 0.0002699 -0.0096031 0.9997301 0.0096031 0.9997301 0.0096031 0.0002699 -0.0096031
35262976 0.0002674 -0.0093323 0.9997326 0.0093323 0.9997326 0.0093323 0.0002674 -0.0093323
35975908 0.0002652 -0.0090653 0.9997348 0.0090653 0.9997348 0.0090653 0.0002652 -0.0090653
36703254 0.0002632 -0.0088020 0.9997368 0.0088020 0.9997368 0.0088020 0.0002632 -0.0088020
37445305 0.0002616 -0.0085422 0.9997384 0.0085422 0.9997384 0.0085422 0.0002616 -0.0085422
38202358 0.0002601 -0.0082858 0.9997399 0.0082858 0.9997399 0.0082858 0.0002601 -0.0082858
38974717 0.0002590 -0.0080327 0.9997410 0.0080327 0.9997410 0.0080327 0.0002590 -0.0080327
39762692 0.0002580 -0.0077829 0.9997420 0.0077829 0.9997420 0.0077829 0.0002580 -0.0077829
40566597 0.0002574 -0.0075363 0.9997426 0.0075363 0.9997426 0.0075363 0.0002574 -0.0075363
41386756 0.0002569 -0.0072926 0.9997431 0.0072926 0.9997431 0.0072926 0.0002569 -0.0072926
42223496 0.0002567 -0.0070519 0.9997433 0.0070519 0.9997433 0.0070519 0.0002567 -0.0070519
43077153 0.0002567 -0.0068140 0.9997433 0.0068140 0.9997433 0.0068140 0.0002567 -0.0068140
43948069 0.0002570 -0.0065788 0.9997430 0.0065788 0.9997430 0.0065788 0.0002570 -0.0065788
44836592 0.0002574 -0.0063463 0.9997426 0.0063463 0.9997426 0.0063463 0.0002574 -0.0063463
45743080 0.0002581 -0.0061163 0.9997419 0.0061163 0.9997419 0.0061163 0.0002581 -0.0061163
46667894 0.0002591 -0.0058887 0.9997409 0.0058887 0.9997409 0.0058887 0.0002591 -0.0058887
47611406 0.0002602 -0.0056635 0.9997398 0.0056635 0.9997398 0.0056635 0.0002602 -0.0056635
48573993 0.0002616 -0.0054406 0.9997384 0.0054406 0.9997384 0.0054406 0.0002616 -0.0054406
49556042 0.0002632 -0.0052197 0.9997368 0.0052197 0.9997368 0.0052197 0.0002632 -0.0052197
50557945 0.0002650 -0.0050010 0.9997350 0.0050010 0.9997350 0.0050010 0.0002650 -0.0050010
51580105 0.0002670 -0.0047842 0.9997330 0.0047842 0.9997330 0.0047842 0.0002670 -0.0047842
52622929 0.0002693 -0.0045693 0.9997307 0.0045693 0.9997307 0.0045693 0.0002693 -0.0045693
53686838 0.0002718 -0.0043561 0.9997282 0.0043561 0.9997282 0.0043561 0.0002718 -0.0043561
54772256 0.0002745 -0.0041446 0.9997255 0.0041446 0.9997255 0.0041446 0.0002745 -0.0041446
55879618 0.0002774 -0.0039348 0.9997226 0.0039348 0.9997226 0.0039348 0.0002774 -0.0039348
57009369 0.0002806 -0.0037264 0.9997194 0.0037264 0.9997194 0.0037264 0.0002806 -0.0037264
58161960 0.0002841 -0.0035194 0.9997159 0.0035194 0.9997159 0.0035194 0.0002841 -0.0035194
59337855 0.0002878 -0.0033137 0.9997122 0.0033137 0.9997122 0.0033137 0.0002878 -0.0033137
60537522 0.0002917 -0.0031093 0.9997083 0.0031093 0.9997083 0.0031093 0.0002917 -0.0031093
61761445 0.0002959 -0.0029059 0.9997041 0.0029059 0.9997041 0.0029059 0.0002959 -0.0029059
63010112 0.0003003 -0.0027036 0.9996997 0.0027036 0.9996997 0.0027036 0.0003003 -0.0027036
64284024 0.0003051 -0.0025022 0.9996949 0.0025022 0.9996949 0.0025022 0.0003051 -0.0025022
65583691 0.0003101 -0.0023017 0.9996899 0.0023017 0.9996899 0.0023017 0.0003101 -0.0023017
66909635 0.0003154 -0.0021018 0.9996846 0.0021018 0.9996846 0.0021018 0.0003154 -0.0021018
68262386 0.0003210 -0.0019026 0.9996790 0.0019026 0.9996790 0.0019026 0.0003210 -0.0019026
69642486 0.0003269 -0.0017040 0.9996731 0.0017040 0.9996731 0.0017040 0.0003269 -0.0017040
71050488 0.0003332 -0.0015057 0.9996668 0.0015057 0.9996668 0.0015057 0.0003332 -0.0015057
72486957 0.0003398 -0.0013078 0.9996602 0.0013078 0.9996602 0.0013078 0.0003398 -0.0013078
73952468 0.0003467 -0.0011101 0.9996533 0.0011101 0.9996533 0.0011101 0.0003467 -0.0011101
