!Murata Part Number: GRM31C2C1H683JA01
!These Parameters are Measured in Series Mode Connection
!Data Generated on Mar 30, 2021
!       o--ll--o
!Port1            Port2
!       o------o
!Operation Temp=25[degC], DC Bias Voltage=0[V]
!Freq. Start=1000[kHz] Stop=6[GHz] 401[Steps]
# Hz S RI R 50
!Freq.(Hz) S11(Real) S11(Imag) S21(Real) S21(Imag) S12(Real) S12(Imag) S22(Real) S22(Imag)
1000000 0.0006077 -0.0238205 0.9993923 0.0238205 0.9993923 0.0238205 0.0006077 -0.0238205
1021987 0.0005834 -0.0233061 0.9994166 0.0233061 0.9994166 0.0233061 0.0005834 -0.0233061
1044457 0.0005602 -0.0228026 0.9994398 0.0228026 0.9994398 0.0228026 0.0005602 -0.0228026
1067422 0.0005379 -0.0223099 0.9994621 0.0223099 0.9994621 0.0223099 0.0005379 -0.0223099
1090891 0.0005166 -0.0218277 0.9994834 0.0218277 0.9994834 0.0218277 0.0005166 -0.0218277
1114877 0.0004962 -0.0213558 0.9995038 0.0213558 0.9995038 0.0213558 0.0004962 -0.0213558
1139390 0.0004767 -0.0208939 0.9995233 0.0208939 0.9995233 0.0208939 0.0004767 -0.0208939
1164441 0.0004580 -0.0204419 0.9995420 0.0204419 0.9995420 0.0204419 0.0004580 -0.0204419
1190044 0.0004401 -0.0199996 0.9995599 0.0199996 0.9995599 0.0199996 0.0004401 -0.0199996
1216210 0.0004230 -0.0195667 0.9995770 0.0195667 0.9995770 0.0195667 0.0004230 -0.0195667
1242950 0.0004066 -0.0191429 0.9995934 0.0191429 0.9995934 0.0191429 0.0004066 -0.0191429
1270279 0.0003909 -0.0187283 0.9996091 0.0187283 0.9996091 0.0187283 0.0003909 -0.0187283
1298209 0.0003759 -0.0183224 0.9996241 0.0183224 0.9996241 0.0183224 0.0003759 -0.0183224
1326753 0.0003615 -0.0179252 0.9996385 0.0179252 0.9996385 0.0179252 0.0003615 -0.0179252
1355924 0.0003477 -0.0175365 0.9996523 0.0175365 0.9996523 0.0175365 0.0003477 -0.0175365
1385737 0.0003345 -0.0171560 0.9996655 0.0171560 0.9996655 0.0171560 0.0003345 -0.0171560
1416205 0.0003219 -0.0167836 0.9996781 0.0167836 0.9996781 0.0167836 0.0003219 -0.0167836
1447343 0.0003098 -0.0164192 0.9996902 0.0164192 0.9996902 0.0164192 0.0003098 -0.0164192
1479166 0.0002982 -0.0160625 0.9997018 0.0160625 0.9997018 0.0160625 0.0002982 -0.0160625
1511688 0.0002871 -0.0157134 0.9997129 0.0157134 0.9997129 0.0157134 0.0002871 -0.0157134
1544926 0.0002765 -0.0153717 0.9997235 0.0153717 0.9997235 0.0153717 0.0002765 -0.0153717
1578894 0.0002664 -0.0150372 0.9997336 0.0150372 0.9997336 0.0150372 0.0002664 -0.0150372
1613609 0.0002566 -0.0147099 0.9997434 0.0147099 0.9997434 0.0147099 0.0002566 -0.0147099
1649087 0.0002473 -0.0143895 0.9997527 0.0143895 0.9997527 0.0143895 0.0002473 -0.0143895
1685346 0.0002384 -0.0140759 0.9997616 0.0140759 0.9997616 0.0140759 0.0002384 -0.0140759
1722402 0.0002299 -0.0137689 0.9997701 0.0137689 0.9997701 0.0137689 0.0002299 -0.0137689
1760272 0.0002217 -0.0134684 0.9997783 0.0134684 0.9997783 0.0134684 0.0002217 -0.0134684
1798975 0.0002139 -0.0131744 0.9997861 0.0131744 0.9997861 0.0131744 0.0002139 -0.0131744
1838529 0.0002064 -0.0128865 0.9997936 0.0128865 0.9997936 0.0128865 0.0002064 -0.0128865
1878953 0.0001993 -0.0126047 0.9998007 0.0126047 0.9998007 0.0126047 0.0001993 -0.0126047
1920266 0.0001924 -0.0123289 0.9998076 0.0123289 0.9998076 0.0123289 0.0001924 -0.0123289
1962487 0.0001859 -0.0120589 0.9998141 0.0120589 0.9998141 0.0120589 0.0001859 -0.0120589
2005636 0.0001796 -0.0117946 0.9998204 0.0117946 0.9998204 0.0117946 0.0001796 -0.0117946
2049734 0.0001736 -0.0115358 0.9998264 0.0115358 0.9998264 0.0115358 0.0001736 -0.0115358
2094801 0.0001679 -0.0112825 0.9998321 0.0112825 0.9998321 0.0112825 0.0001679 -0.0112825
2140860 0.0001624 -0.0110346 0.9998376 0.0110346 0.9998376 0.0110346 0.0001624 -0.0110346
2187931 0.0001571 -0.0107919 0.9998429 0.0107919 0.9998429 0.0107919 0.0001571 -0.0107919
2236037 0.0001521 -0.0105542 0.9998479 0.0105542 0.9998479 0.0105542 0.0001521 -0.0105542
2285201 0.0001472 -0.0103216 0.9998528 0.0103216 0.9998528 0.0103216 0.0001472 -0.0103216
2335446 0.0001426 -0.0100938 0.9998574 0.0100938 0.9998574 0.0100938 0.0001426 -0.0100938
2386795 0.0001382 -0.0098708 0.9998618 0.0098708 0.9998618 0.0098708 0.0001382 -0.0098708
2439274 0.0001340 -0.0096525 0.9998660 0.0096525 0.9998660 0.0096525 0.0001340 -0.0096525
2492906 0.0001300 -0.0094387 0.9998700 0.0094387 0.9998700 0.0094387 0.0001300 -0.0094387
2547717 0.0001261 -0.0092294 0.9998739 0.0092294 0.9998739 0.0092294 0.0001261 -0.0092294
2603734 0.0001224 -0.0090244 0.9998776 0.0090244 0.9998776 0.0090244 0.0001224 -0.0090244
2660982 0.0001189 -0.0088237 0.9998811 0.0088237 0.9998811 0.0088237 0.0001189 -0.0088237
2719490 0.0001155 -0.0086272 0.9998845 0.0086272 0.9998845 0.0086272 0.0001155 -0.0086272
2779283 0.0001123 -0.0084348 0.9998877 0.0084348 0.9998877 0.0084348 0.0001123 -0.0084348
2840391 0.0001092 -0.0082463 0.9998908 0.0082463 0.9998908 0.0082463 0.0001092 -0.0082463
2902843 0.0001063 -0.0080618 0.9998937 0.0080618 0.9998937 0.0080618 0.0001063 -0.0080618
2966668 0.0001035 -0.0078811 0.9998965 0.0078811 0.9998965 0.0078811 0.0001035 -0.0078811
3031896 0.0001008 -0.0077040 0.9998992 0.0077040 0.9998992 0.0077040 0.0001008 -0.0077040
3098558 0.0000982 -0.0075307 0.9999018 0.0075307 0.9999018 0.0075307 0.0000982 -0.0075307
3166686 0.0000958 -0.0073609 0.9999042 0.0073609 0.9999042 0.0073609 0.0000958 -0.0073609
3236312 0.0000934 -0.0071945 0.9999066 0.0071945 0.9999066 0.0071945 0.0000934 -0.0071945
3307469 0.0000912 -0.0070316 0.9999088 0.0070316 0.9999088 0.0070316 0.0000912 -0.0070316
3380190 0.0000891 -0.0068720 0.9999109 0.0068720 0.9999109 0.0068720 0.0000891 -0.0068720
3454511 0.0000871 -0.0067156 0.9999129 0.0067156 0.9999129 0.0067156 0.0000871 -0.0067156
3530465 0.0000851 -0.0065625 0.9999149 0.0065625 0.9999149 0.0065625 0.0000851 -0.0065625
3608090 0.0000833 -0.0064124 0.9999167 0.0064124 0.9999167 0.0064124 0.0000833 -0.0064124
3687421 0.0000815 -0.0062653 0.9999185 0.0062653 0.9999185 0.0062653 0.0000815 -0.0062653
3768496 0.0000799 -0.0061212 0.9999201 0.0061212 0.9999201 0.0061212 0.0000799 -0.0061212
3851354 0.0000783 -0.0059801 0.9999217 0.0059801 0.9999217 0.0059801 0.0000783 -0.0059801
3936034 0.0000768 -0.0058417 0.9999232 0.0058417 0.9999232 0.0058417 0.0000768 -0.0058417
4022575 0.0000753 -0.0057061 0.9999247 0.0057061 0.9999247 0.0057061 0.0000753 -0.0057061
4111020 0.0000740 -0.0055732 0.9999260 0.0055732 0.9999260 0.0055732 0.0000740 -0.0055732
4201409 0.0000727 -0.0054429 0.9999273 0.0054429 0.9999273 0.0054429 0.0000727 -0.0054429
4293785 0.0000714 -0.0053152 0.9999286 0.0053152 0.9999286 0.0053152 0.0000714 -0.0053152
4388193 0.0000703 -0.0051901 0.9999297 0.0051901 0.9999297 0.0051901 0.0000703 -0.0051901
4484676 0.0000692 -0.0050673 0.9999308 0.0050673 0.9999308 0.0050673 0.0000692 -0.0050673
4583281 0.0000681 -0.0049470 0.9999319 0.0049470 0.9999319 0.0049470 0.0000681 -0.0049470
4684054 0.0000672 -0.0048290 0.9999328 0.0048290 0.9999328 0.0048290 0.0000672 -0.0048290
4787042 0.0000662 -0.0047133 0.9999338 0.0047133 0.9999338 0.0047133 0.0000662 -0.0047133
4892295 0.0000654 -0.0045998 0.9999346 0.0045998 0.9999346 0.0045998 0.0000654 -0.0045998
4999862 0.0000646 -0.0044885 0.9999354 0.0044885 0.9999354 0.0044885 0.0000646 -0.0044885
5109794 0.0000638 -0.0043793 0.9999362 0.0043793 0.9999362 0.0043793 0.0000638 -0.0043793
5222143 0.0000631 -0.0042722 0.9999369 0.0042722 0.9999369 0.0042722 0.0000631 -0.0042722
5336962 0.0000624 -0.0041671 0.9999376 0.0041671 0.9999376 0.0041671 0.0000624 -0.0041671
5454306 0.0000618 -0.0040640 0.9999382 0.0040640 0.9999382 0.0040640 0.0000618 -0.0040640
5574230 0.0000613 -0.0039628 0.9999387 0.0039628 0.9999387 0.0039628 0.0000613 -0.0039628
5696791 0.0000607 -0.0038634 0.9999393 0.0038634 0.9999393 0.0038634 0.0000607 -0.0038634
5822046 0.0000603 -0.0037659 0.9999397 0.0037659 0.9999397 0.0037659 0.0000603 -0.0037659
5950055 0.0000598 -0.0036702 0.9999402 0.0036702 0.9999402 0.0036702 0.0000598 -0.0036702
6080879 0.0000594 -0.0035762 0.9999406 0.0035762 0.9999406 0.0035762 0.0000594 -0.0035762
6214580 0.0000591 -0.0034839 0.9999409 0.0034839 0.9999409 0.0034839 0.0000591 -0.0034839
6351220 0.0000588 -0.0033932 0.9999412 0.0033932 0.9999412 0.0033932 0.0000588 -0.0033932
6490864 0.0000585 -0.0033042 0.9999415 0.0033042 0.9999415 0.0033042 0.0000585 -0.0033042
6633579 0.0000583 -0.0032167 0.9999417 0.0032167 0.9999417 0.0032167 0.0000583 -0.0032167
6779431 0.0000581 -0.0031307 0.9999419 0.0031307 0.9999419 0.0031307 0.0000581 -0.0031307
6928491 0.0000580 -0.0030462 0.9999420 0.0030462 0.9999420 0.0030462 0.0000580 -0.0030462
7080828 0.0000579 -0.0029631 0.9999421 0.0029631 0.9999421 0.0029631 0.0000579 -0.0029631
7236514 0.0000578 -0.0028814 0.9999422 0.0028814 0.9999422 0.0028814 0.0000578 -0.0028814
7395623 0.0000578 -0.0028011 0.9999422 0.0028011 0.9999422 0.0028011 0.0000578 -0.0028011
7558231 0.0000578 -0.0027221 0.9999422 0.0027221 0.9999422 0.0027221 0.0000578 -0.0027221
7724414 0.0000579 -0.0026444 0.9999421 0.0026444 0.9999421 0.0026444 0.0000579 -0.0026444
7894251 0.0000580 -0.0025680 0.9999420 0.0025680 0.9999420 0.0025680 0.0000580 -0.0025680
8067822 0.0000581 -0.0024927 0.9999419 0.0024927 0.9999419 0.0024927 0.0000581 -0.0024927
8245209 0.0000583 -0.0024187 0.9999417 0.0024187 0.9999417 0.0024187 0.0000583 -0.0024187
8426497 0.0000585 -0.0023457 0.9999415 0.0023457 0.9999415 0.0023457 0.0000585 -0.0023457
8611770 0.0000588 -0.0022739 0.9999412 0.0022739 0.9999412 0.0022739 0.0000588 -0.0022739
8801117 0.0000590 -0.0022031 0.9999410 0.0022031 0.9999410 0.0022031 0.0000590 -0.0022031
8994628 0.0000594 -0.0021334 0.9999406 0.0021334 0.9999406 0.0021334 0.0000594 -0.0021334
9192393 0.0000598 -0.0020646 0.9999402 0.0020646 0.9999402 0.0020646 0.0000598 -0.0020646
9394506 0.0000602 -0.0019969 0.9999398 0.0019969 0.9999398 0.0019969 0.0000602 -0.0019969
9601063 0.0000606 -0.0019301 0.9999394 0.0019301 0.9999394 0.0019301 0.0000606 -0.0019301
9812162 0.0000612 -0.0018641 0.9999388 0.0018641 0.9999388 0.0018641 0.0000612 -0.0018641
10027902 0.0000617 -0.0017991 0.9999383 0.0017991 0.9999383 0.0017991 0.0000617 -0.0017991
10248386 0.0000623 -0.0017349 0.9999377 0.0017349 0.9999377 0.0017349 0.0000623 -0.0017349
10473717 0.0000629 -0.0016714 0.9999371 0.0016714 0.9999371 0.0016714 0.0000629 -0.0016714
10704003 0.0000636 -0.0016088 0.9999364 0.0016088 0.9999364 0.0016088 0.0000636 -0.0016088
10939352 0.0000644 -0.0015469 0.9999356 0.0015469 0.9999356 0.0015469 0.0000644 -0.0015469
11179876 0.0000652 -0.0014857 0.9999348 0.0014857 0.9999348 0.0014857 0.0000652 -0.0014857
11425688 0.0000660 -0.0014253 0.9999340 0.0014253 0.9999340 0.0014253 0.0000660 -0.0014253
11676904 0.0000669 -0.0013654 0.9999331 0.0013654 0.9999331 0.0013654 0.0000669 -0.0013654
11933645 0.0000679 -0.0013062 0.9999321 0.0013062 0.9999321 0.0013062 0.0000679 -0.0013062
12196030 0.0000689 -0.0012476 0.9999311 0.0012476 0.9999311 0.0012476 0.0000689 -0.0012476
12464184 0.0000700 -0.0011895 0.9999300 0.0011895 0.9999300 0.0011895 0.0000700 -0.0011895
12738235 0.0000711 -0.0011320 0.9999289 0.0011320 0.9999289 0.0011320 0.0000711 -0.0011320
13018310 0.0000723 -0.0010750 0.9999277 0.0010750 0.9999277 0.0010750 0.0000723 -0.0010750
13304544 0.0000736 -0.0010184 0.9999264 0.0010184 0.9999264 0.0010184 0.0000736 -0.0010184
13597071 0.0000749 -0.0009623 0.9999251 0.0009623 0.9999251 0.0009623 0.0000749 -0.0009623
13896030 0.0000763 -0.0009067 0.9999237 0.0009067 0.9999237 0.0009067 0.0000763 -0.0009067
14201563 0.0000778 -0.0008514 0.9999222 0.0008514 0.9999222 0.0008514 0.0000778 -0.0008514
14513813 0.0000794 -0.0007964 0.9999206 0.0007964 0.9999206 0.0007964 0.0000794 -0.0007964
14832928 0.0000810 -0.0007418 0.9999190 0.0007418 0.9999190 0.0007418 0.0000810 -0.0007418
15159060 0.0000828 -0.0006875 0.9999172 0.0006875 0.9999172 0.0006875 0.0000828 -0.0006875
15492362 0.0000846 -0.0006334 0.9999154 0.0006334 0.9999154 0.0006334 0.0000846 -0.0006334
15832993 0.0000865 -0.0005796 0.9999135 0.0005796 0.9999135 0.0005796 0.0000865 -0.0005796
16181113 0.0000885 -0.0005259 0.9999115 0.0005259 0.9999115 0.0005259 0.0000885 -0.0005259
16536888 0.0000906 -0.0004725 0.9999094 0.0004725 0.9999094 0.0004725 0.0000906 -0.0004725
16900485 0.0000928 -0.0004191 0.9999072 0.0004191 0.9999072 0.0004191 0.0000928 -0.0004191
17272076 0.0000951 -0.0003659 0.9999049 0.0003659 0.9999049 0.0003659 0.0000951 -0.0003659
17651837 0.0000976 -0.0003127 0.9999024 0.0003127 0.9999024 0.0003127 0.0000976 -0.0003127
18039948 0.0001002 -0.0002595 0.9998998 0.0002595 0.9998998 0.0002595 0.0001002 -0.0002595
18436593 0.0001029 -0.0002063 0.9998971 0.0002063 0.9998971 0.0002063 0.0001029 -0.0002063
18841959 0.0001057 -0.0001531 0.9998943 0.0001531 0.9998943 0.0001531 0.0001057 -0.0001531
19256237 0.0001087 -0.0000997 0.9998913 0.0000997 0.9998913 0.0000997 0.0001087 -0.0000997
19679624 0.0001119 -0.0000462 0.9998881 0.0000462 0.9998881 0.0000462 0.0001119 -0.0000462
20112321 0.0001152 0.0000074 0.9998848 -0.0000074 0.9998848 -0.0000074 0.0001152 0.0000074
20554530 0.0001187 0.0000613 0.9998813 -0.0000613 0.9998813 -0.0000613 0.0001187 0.0000613
21006463 0.0001224 0.0001156 0.9998776 -0.0001156 0.9998776 -0.0001156 0.0001224 0.0001156
21468333 0.0001264 0.0001701 0.9998736 -0.0001701 0.9998736 -0.0001701 0.0001264 0.0001701
21940357 0.0001305 0.0002251 0.9998695 -0.0002251 0.9998695 -0.0002251 0.0001305 0.0002251
22422760 0.0001350 0.0002805 0.9998650 -0.0002805 0.9998650 -0.0002805 0.0001350 0.0002805
22915770 0.0001397 0.0003365 0.9998603 -0.0003365 0.9998603 -0.0003365 0.0001397 0.0003365
23419619 0.0001447 0.0003932 0.9998553 -0.0003932 0.9998553 -0.0003932 0.0001447 0.0003932
23934547 0.0001500 0.0004506 0.9998500 -0.0004506 0.9998500 -0.0004506 0.0001500 0.0004506
24460796 0.0001558 0.0005088 0.9998442 -0.0005088 0.9998442 -0.0005088 0.0001558 0.0005088
24998616 0.0001619 0.0005679 0.9998381 -0.0005679 0.9998381 -0.0005679 0.0001619 0.0005679
25548261 0.0001686 0.0006282 0.9998314 -0.0006282 0.9998314 -0.0006282 0.0001686 0.0006282
26109991 0.0001758 0.0006896 0.9998242 -0.0006896 0.9998242 -0.0006896 0.0001758 0.0006896
26684072 0.0001837 0.0007525 0.9998163 -0.0007525 0.9998163 -0.0007525 0.0001837 0.0007525
27270775 0.0001924 0.0008170 0.9998076 -0.0008170 0.9998076 -0.0008170 0.0001924 0.0008170
27870378 0.0002019 0.0008833 0.9997981 -0.0008833 0.9997981 -0.0008833 0.0002019 0.0008833
28483164 0.0002126 0.0009518 0.9997874 -0.0009518 0.9997874 -0.0009518 0.0002126 0.0009518
29109424 0.0002246 0.0010229 0.9997754 -0.0010229 0.9997754 -0.0010229 0.0002246 0.0010229
29749453 0.0002384 0.0010968 0.9997616 -0.0010968 0.9997616 -0.0010968 0.0002384 0.0010968
30403555 0.0002543 0.0011743 0.9997457 -0.0011743 0.9997457 -0.0011743 0.0002543 0.0011743
31072038 0.0002730 0.0012559 0.9997270 -0.0012559 0.9997270 -0.0012559 0.0002730 0.0012559
31755220 0.0002954 0.0013426 0.9997046 -0.0013426 0.9997046 -0.0013426 0.0002954 0.0013426
32453422 0.0003230 0.0014353 0.9996770 -0.0014353 0.9996770 -0.0014353 0.0003230 0.0014353
33166976 0.0003578 0.0015354 0.9996422 -0.0015354 0.9996422 -0.0015354 0.0003578 0.0015354
33896219 0.0004031 0.0016446 0.9995969 -0.0016446 0.9995969 -0.0016446 0.0004031 0.0016446
34641496 0.0004645 0.0017644 0.9995355 -0.0017644 0.9995355 -0.0017644 0.0004645 0.0017644
35403159 0.0005510 0.0018961 0.9994490 -0.0018961 0.9994490 -0.0018961 0.0005510 0.0018961
36181569 0.0006783 0.0020379 0.9993217 -0.0020379 0.9993217 -0.0020379 0.0006783 0.0020379
36977093 0.0008731 0.0021779 0.9991269 -0.0021779 0.9991269 -0.0021779 0.0008731 0.0021779
37790109 0.0011723 0.0022727 0.9988277 -0.0022727 0.9988277 -0.0022727 0.0011723 0.0022727
38621001 0.0015848 0.0022056 0.9984152 -0.0022056 0.9984152 -0.0022056 0.0015848 0.0022056
39470161 0.0019430 0.0018195 0.9980570 -0.0018195 0.9980570 -0.0018195 0.0019430 0.0018195
40337993 0.0019054 0.0012608 0.9980946 -0.0012608 0.9980946 -0.0012608 0.0019054 0.0012608
41224905 0.0015353 0.0009561 0.9984647 -0.0009561 0.9984647 -0.0009561 0.0015353 0.0009561
42131317 0.0011736 0.0009506 0.9988264 -0.0009506 0.9988264 -0.0009506 0.0011736 0.0009506
43057659 0.0009336 0.0010779 0.9990664 -0.0010779 0.9990664 -0.0010779 0.0009336 0.0010779
44004369 0.0007923 0.0012411 0.9992077 -0.0012411 0.9992077 -0.0012411 0.0007923 0.0012411
44971893 0.0007148 0.0014069 0.9992852 -0.0014069 0.9992852 -0.0014069 0.0007148 0.0014069
45960691 0.0006783 0.0015673 0.9993217 -0.0015673 0.9993217 -0.0015673 0.0006783 0.0015673
46971230 0.0006704 0.0017220 0.9993296 -0.0017220 0.9993296 -0.0017220 0.0006704 0.0017220
48003987 0.0006849 0.0018731 0.9993151 -0.0018731 0.9993151 -0.0018731 0.0006849 0.0018731
49059451 0.0007202 0.0020226 0.9992798 -0.0020226 0.9992798 -0.0020226 0.0007202 0.0020226
50138122 0.0007775 0.0021720 0.9992225 -0.0021720 0.9992225 -0.0021720 0.0007775 0.0021720
51240510 0.0008610 0.0023215 0.9991390 -0.0023215 0.9991390 -0.0023215 0.0008610 0.0023215
52367136 0.0009783 0.0024687 0.9990217 -0.0024687 0.9990217 -0.0024687 0.0009783 0.0024687
53518533 0.0011402 0.0026058 0.9988598 -0.0026058 0.9988598 -0.0026058 0.0011402 0.0026058
54695245 0.0013596 0.0027143 0.9986404 -0.0027143 0.9986404 -0.0027143 0.0013596 0.0027143
55897831 0.0016437 0.0027573 0.9983563 -0.0027573 0.9983563 -0.0027573 0.0016437 0.0027573
57126857 0.0019715 0.0026757 0.9980285 -0.0026757 0.9980285 -0.0026757 0.0019715 0.0026757
58382906 0.0022588 0.0024174 0.9977412 -0.0024174 0.9977412 -0.0024174 0.0022588 0.0024174
59666572 0.0023686 0.0020188 0.9976314 -0.0020188 0.9976314 -0.0020188 0.0023686 0.0020188
60978462 0.0022364 0.0016382 0.9977636 -0.0016382 0.9977636 -0.0016382 0.0022364 0.0016382
62319196 0.0019530 0.0014166 0.9980470 -0.0014166 0.9980470 -0.0014166 0.0019530 0.0014166
63689409 0.0016519 0.0013660 0.9983481 -0.0013660 0.9983481 -0.0013660 0.0016519 0.0013660
65089750 0.0014032 0.0014273 0.9985968 -0.0014273 0.9985968 -0.0014273 0.0014032 0.0014273
66520879 0.0012195 0.0015446 0.9987805 -0.0015446 0.9987805 -0.0015446 0.0012195 0.0015446
67983474 0.0010914 0.0016847 0.9989086 -0.0016847 0.9989086 -0.0016847 0.0010914 0.0016847
69478228 0.0010058 0.0018310 0.9989942 -0.0018310 0.9989942 -0.0018310 0.0010058 0.0018310
71005847 0.0009523 0.0019763 0.9990477 -0.0019763 0.9990477 -0.0019763 0.0009523 0.0019763
72567054 0.0009235 0.0021175 0.9990765 -0.0021175 0.9990765 -0.0021175 0.0009235 0.0021175
74162587 0.0009149 0.0022531 0.9990851 -0.0022531 0.9990851 -0.0022531 0.0009149 0.0022531
75793201 0.0009238 0.0023816 0.9990762 -0.0023816 0.9990762 -0.0023816 0.0009238 0.0023816
77459667 0.0009485 0.0025007 0.9990515 -0.0025007 0.9990515 -0.0025007 0.0009485 0.0025007
79162774 0.0009868 0.0026068 0.9990132 -0.0026068 0.9990132 -0.0026068 0.0009868 0.0026068
80903327 0.0010340 0.0026950 0.9989660 -0.0026950 0.9989660 -0.0026950 0.0010340 0.0026950
82682150 0.0010809 0.0027620 0.9989191 -0.0027620 0.9989191 -0.0027620 0.0010809 0.0027620
84500083 0.0011154 0.0028116 0.9988846 -0.0028116 0.9988846 -0.0028116 0.0011154 0.0028116
86357988 0.0011295 0.0028561 0.9988705 -0.0028561 0.9988705 -0.0028561 0.0011295 0.0028561
88256743 0.0011267 0.0029105 0.9988733 -0.0029105 0.9988733 -0.0029105 0.0011267 0.0029105
90197245 0.0011190 0.0029826 0.9988810 -0.0029826 0.9988810 -0.0029826 0.0011190 0.0029826
92180413 0.0011186 0.0030701 0.9988814 -0.0030701 0.9988814 -0.0030701 0.0011186 0.0030701
94207185 0.0011327 0.0031660 0.9988673 -0.0031660 0.9988673 -0.0031660 0.0011327 0.0031660
96278520 0.0011642 0.0032614 0.9988358 -0.0032614 0.9988358 -0.0032614 0.0011642 0.0032614
98395398 0.0012122 0.0033472 0.9987878 -0.0033472 0.9987878 -0.0033472 0.0012122 0.0033472
100558819 0.0012714 0.0034139 0.9987286 -0.0034139 0.9987286 -0.0034139 0.0012714 0.0034139
102769807 0.0013306 0.0034545 0.9986694 -0.0034545 0.9986694 -0.0034545 0.0013306 0.0034545
105029408 0.0013734 0.0034693 0.9986266 -0.0034693 0.9986266 -0.0034693 0.0013734 0.0034693
107338692 0.0013848 0.0034707 0.9986152 -0.0034707 0.9986152 -0.0034707 0.0013848 0.0034707
