!Murata Part Number: GRM3195C2A182JA01
!These Parameters are Measured in Series Mode Connection
!Data Generated on Mar 30, 2021
!       o--ll--o
!Port1            Port2
!       o------o
!Operation Temp=25[degC], DC Bias Voltage=0[V]
!Freq. Start=1000[kHz] Stop=6[GHz] 401[Steps]
# Hz S RI R 50
!Freq.(Hz) S11(Real) S11(Imag) S21(Real) S21(Imag) S12(Real) S12(Imag) S22(Real) S22(Imag)
1000000 0.4439506 -0.4967473 0.5560494 0.4967473 0.5560494 0.4967473 0.4439506 -0.4967473
1021987 0.4332414 -0.4954198 0.5667586 0.4954198 0.5667586 0.4954198 0.4332414 -0.4954198
1044457 0.4225943 -0.4938662 0.5774057 0.4938662 0.5774057 0.4938662 0.4225943 -0.4938662
1067422 0.4120187 -0.4920902 0.5879813 0.4920902 0.5879813 0.4920902 0.4120187 -0.4920902
1090891 0.4015237 -0.4900959 0.5984763 0.4900959 0.5984763 0.4900959 0.4015237 -0.4900959
1114877 0.3911183 -0.4878877 0.6088817 0.4878877 0.6088817 0.4878877 0.3911183 -0.4878877
1139390 0.3808110 -0.4854705 0.6191890 0.4854705 0.6191890 0.4854705 0.3808110 -0.4854705
1164441 0.3706101 -0.4828499 0.6293899 0.4828499 0.6293899 0.4828499 0.3706101 -0.4828499
1190044 0.3605233 -0.4800313 0.6394767 0.4800313 0.6394767 0.4800313 0.3605233 -0.4800313
1216210 0.3505583 -0.4770211 0.6494417 0.4770211 0.6494417 0.4770211 0.3505583 -0.4770211
1242950 0.3407219 -0.4738254 0.6592781 0.4738254 0.6592781 0.4738254 0.3407219 -0.4738254
1270279 0.3310210 -0.4704512 0.6689790 0.4704512 0.6689790 0.4704512 0.3310210 -0.4704512
1298209 0.3214616 -0.4669051 0.6785384 0.4669051 0.6785384 0.4669051 0.3214616 -0.4669051
1326753 0.3120496 -0.4631945 0.6879504 0.4631945 0.6879504 0.4631945 0.3120496 -0.4631945
1355924 0.3027902 -0.4593267 0.6972098 0.4593267 0.6972098 0.4593267 0.3027902 -0.4593267
1385737 0.2936884 -0.4553092 0.7063116 0.4553092 0.7063116 0.4553092 0.2936884 -0.4553092
1416205 0.2847485 -0.4511496 0.7152515 0.4511496 0.7152515 0.4511496 0.2847485 -0.4511496
1447343 0.2759744 -0.4468557 0.7240256 0.4468557 0.7240256 0.4468557 0.2759744 -0.4468557
1479166 0.2673698 -0.4424353 0.7326302 0.4424353 0.7326302 0.4424353 0.2673698 -0.4424353
1511688 0.2589375 -0.4378961 0.7410625 0.4378961 0.7410625 0.4378961 0.2589375 -0.4378961
1544926 0.2506803 -0.4332460 0.7493197 0.4332460 0.7493197 0.4332460 0.2506803 -0.4332460
1578894 0.2426002 -0.4284929 0.7573998 0.4284929 0.7573998 0.4284929 0.2426002 -0.4284929
1613609 0.2346991 -0.4236445 0.7653009 0.4236445 0.7653009 0.4236445 0.2346991 -0.4236445
1649087 0.2269783 -0.4187085 0.7730217 0.4187085 0.7730217 0.4187085 0.2269783 -0.4187085
1685346 0.2194388 -0.4136924 0.7805612 0.4136924 0.7805612 0.4136924 0.2194388 -0.4136924
1722402 0.2120810 -0.4086039 0.7879190 0.4086039 0.7879190 0.4086039 0.2120810 -0.4086039
1760272 0.2049053 -0.4034503 0.7950947 0.4034503 0.7950947 0.4034503 0.2049053 -0.4034503
1798975 0.1979115 -0.3982387 0.8020885 0.3982387 0.8020885 0.3982387 0.1979115 -0.3982387
1838529 0.1910992 -0.3929762 0.8089008 0.3929762 0.8089008 0.3929762 0.1910992 -0.3929762
1878953 0.1844675 -0.3876697 0.8155325 0.3876697 0.8155325 0.3876697 0.1844675 -0.3876697
1920266 0.1780154 -0.3823258 0.8219846 0.3823258 0.8219846 0.3823258 0.1780154 -0.3823258
1962487 0.1717415 -0.3769510 0.8282585 0.3769510 0.8282585 0.3769510 0.1717415 -0.3769510
2005636 0.1656444 -0.3715516 0.8343556 0.3715516 0.8343556 0.3715516 0.1656444 -0.3715516
2049734 0.1597220 -0.3661336 0.8402780 0.3661336 0.8402780 0.3661336 0.1597220 -0.3661336
2094801 0.1539725 -0.3607028 0.8460275 0.3607028 0.8460275 0.3607028 0.1539725 -0.3607028
2140860 0.1483934 -0.3552648 0.8516066 0.3552648 0.8516066 0.3552648 0.1483934 -0.3552648
2187931 0.1429825 -0.3498249 0.8570175 0.3498249 0.8570175 0.3498249 0.1429825 -0.3498249
2236037 0.1377371 -0.3443882 0.8622629 0.3443882 0.8622629 0.3443882 0.1377371 -0.3443882
2285201 0.1326545 -0.3389597 0.8673455 0.3389597 0.8673455 0.3389597 0.1326545 -0.3389597
2335446 0.1277318 -0.3335438 0.8722682 0.3335438 0.8722682 0.3335438 0.1277318 -0.3335438
2386795 0.1229660 -0.3281451 0.8770340 0.3281451 0.8770340 0.3281451 0.1229660 -0.3281451
2439274 0.1183541 -0.3227677 0.8816459 0.3227677 0.8816459 0.3227677 0.1183541 -0.3227677
2492906 0.1138928 -0.3174154 0.8861072 0.3174154 0.8861072 0.3174154 0.1138928 -0.3174154
2547717 0.1095789 -0.3120921 0.8904211 0.3120921 0.8904211 0.3120921 0.1095789 -0.3120921
2603734 0.1054091 -0.3068011 0.8945909 0.3068011 0.8945909 0.3068011 0.1054091 -0.3068011
2660982 0.1013801 -0.3015458 0.8986199 0.3015458 0.8986199 0.3015458 0.1013801 -0.3015458
2719490 0.0974884 -0.2963292 0.9025116 0.2963292 0.9025116 0.2963292 0.0974884 -0.2963292
2779283 0.0937308 -0.2911540 0.9062692 0.2911540 0.9062692 0.2911540 0.0937308 -0.2911540
2840391 0.0901037 -0.2860230 0.9098963 0.2860230 0.9098963 0.2860230 0.0901037 -0.2860230
2902843 0.0866037 -0.2809385 0.9133963 0.2809385 0.9133963 0.2809385 0.0866037 -0.2809385
2966668 0.0832274 -0.2759029 0.9167726 0.2759029 0.9167726 0.2759029 0.0832274 -0.2759029
3031896 0.0799713 -0.2709181 0.9200287 0.2709181 0.9200287 0.2709181 0.0799713 -0.2709181
3098558 0.0768322 -0.2659860 0.9231678 0.2659860 0.9231678 0.2659860 0.0768322 -0.2659860
3166686 0.0738066 -0.2611083 0.9261934 0.2611083 0.9261934 0.2611083 0.0738066 -0.2611083
3236312 0.0708912 -0.2562866 0.9291088 0.2562866 0.9291088 0.2562866 0.0708912 -0.2562866
3307469 0.0680827 -0.2515223 0.9319173 0.2515223 0.9319173 0.2515223 0.0680827 -0.2515223
3380190 0.0653778 -0.2468166 0.9346222 0.2468166 0.9346222 0.2468166 0.0653778 -0.2468166
3454511 0.0627733 -0.2421706 0.9372267 0.2421706 0.9372267 0.2421706 0.0627733 -0.2421706
3530465 0.0602662 -0.2375853 0.9397338 0.2375853 0.9397338 0.2375853 0.0602662 -0.2375853
3608090 0.0578532 -0.2330614 0.9421468 0.2330614 0.9421468 0.2330614 0.0578532 -0.2330614
3687421 0.0555313 -0.2285997 0.9444687 0.2285997 0.9444687 0.2285997 0.0555313 -0.2285997
3768496 0.0532975 -0.2242009 0.9467025 0.2242009 0.9467025 0.2242009 0.0532975 -0.2242009
3851354 0.0511490 -0.2198653 0.9488510 0.2198653 0.9488510 0.2198653 0.0511490 -0.2198653
3936034 0.0490828 -0.2155934 0.9509172 0.2155934 0.9509172 0.2155934 0.0490828 -0.2155934
4022575 0.0470962 -0.2113854 0.9529038 0.2113854 0.9529038 0.2113854 0.0470962 -0.2113854
4111020 0.0451864 -0.2072415 0.9548136 0.2072415 0.9548136 0.2072415 0.0451864 -0.2072415
4201409 0.0433507 -0.2031619 0.9566493 0.2031619 0.9566493 0.2031619 0.0433507 -0.2031619
4293785 0.0415867 -0.1991466 0.9584133 0.1991466 0.9584133 0.1991466 0.0415867 -0.1991466
4388193 0.0398916 -0.1951954 0.9601084 0.1951954 0.9601084 0.1951954 0.0398916 -0.1951954
4484676 0.0382632 -0.1913084 0.9617368 0.1913084 0.9617368 0.1913084 0.0382632 -0.1913084
4583281 0.0366990 -0.1874852 0.9633010 0.1874852 0.9633010 0.1874852 0.0366990 -0.1874852
4684054 0.0351966 -0.1837257 0.9648034 0.1837257 0.9648034 0.1837257 0.0351966 -0.1837257
4787042 0.0337538 -0.1800296 0.9662462 0.1800296 0.9662462 0.1800296 0.0337538 -0.1800296
4892295 0.0323685 -0.1763965 0.9676315 0.1763965 0.9676315 0.1763965 0.0323685 -0.1763965
4999862 0.0310384 -0.1728259 0.9689616 0.1728259 0.9689616 0.1728259 0.0310384 -0.1728259
5109794 0.0297617 -0.1693176 0.9702383 0.1693176 0.9702383 0.1693176 0.0297617 -0.1693176
5222143 0.0285361 -0.1658708 0.9714639 0.1658708 0.9714639 0.1658708 0.0285361 -0.1658708
5336962 0.0273599 -0.1624852 0.9726401 0.1624852 0.9726401 0.1624852 0.0273599 -0.1624852
5454306 0.0262312 -0.1591602 0.9737688 0.1591602 0.9737688 0.1591602 0.0262312 -0.1591602
5574230 0.0251481 -0.1558951 0.9748519 0.1558951 0.9748519 0.1558951 0.0251481 -0.1558951
5696791 0.0241089 -0.1526894 0.9758911 0.1526894 0.9758911 0.1526894 0.0241089 -0.1526894
5822046 0.0231119 -0.1495423 0.9768881 0.1495423 0.9768881 0.1495423 0.0231119 -0.1495423
5950055 0.0221555 -0.1464534 0.9778445 0.1464534 0.9778445 0.1464534 0.0221555 -0.1464534
6080879 0.0212382 -0.1434217 0.9787618 0.1434217 0.9787618 0.1434217 0.0212382 -0.1434217
6214580 0.0203583 -0.1404467 0.9796417 0.1404467 0.9796417 0.1404467 0.0203583 -0.1404467
6351220 0.0195145 -0.1375276 0.9804855 0.1375276 0.9804855 0.1375276 0.0195145 -0.1375276
6490864 0.0187053 -0.1346637 0.9812947 0.1346637 0.9812947 0.1346637 0.0187053 -0.1346637
6633579 0.0179293 -0.1318542 0.9820707 0.1318542 0.9820707 0.1318542 0.0179293 -0.1318542
6779431 0.0171853 -0.1290984 0.9828147 0.1290984 0.9828147 0.1290984 0.0171853 -0.1290984
6928491 0.0164720 -0.1263954 0.9835280 0.1263954 0.9835280 0.1263954 0.0164720 -0.1263954
7080828 0.0157881 -0.1237446 0.9842119 0.1237446 0.9842119 0.1237446 0.0157881 -0.1237446
7236514 0.0151325 -0.1211451 0.9848675 0.1211451 0.9848675 0.1211451 0.0151325 -0.1211451
7395623 0.0145040 -0.1185962 0.9854960 0.1185962 0.9854960 0.1185962 0.0145040 -0.1185962
7558231 0.0139017 -0.1160970 0.9860983 0.1160970 0.9860983 0.1160970 0.0139017 -0.1160970
7724414 0.0133243 -0.1136468 0.9866757 0.1136468 0.9866757 0.1136468 0.0133243 -0.1136468
7894251 0.0127709 -0.1112448 0.9872291 0.1112448 0.9872291 0.1112448 0.0127709 -0.1112448
8067822 0.0122406 -0.1088902 0.9877594 0.1088902 0.9877594 0.1088902 0.0122406 -0.1088902
8245209 0.0117323 -0.1065821 0.9882677 0.1065821 0.9882677 0.1065821 0.0117323 -0.1065821
8426497 0.0112453 -0.1043199 0.9887547 0.1043199 0.9887547 0.1043199 0.0112453 -0.1043199
8611770 0.0107786 -0.1021028 0.9892214 0.1021028 0.9892214 0.1021028 0.0107786 -0.1021028
8801117 0.0103314 -0.0999299 0.9896686 0.0999299 0.9896686 0.0999299 0.0103314 -0.0999299
8994628 0.0099029 -0.0978004 0.9900971 0.0978004 0.9900971 0.0978004 0.0099029 -0.0978004
9192393 0.0094924 -0.0957137 0.9905076 0.0957137 0.9905076 0.0957137 0.0094924 -0.0957137
9394506 0.0090991 -0.0936690 0.9909009 0.0936690 0.9909009 0.0936690 0.0090991 -0.0936690
9601063 0.0087223 -0.0916654 0.9912777 0.0916654 0.9912777 0.0916654 0.0087223 -0.0916654
9812162 0.0083613 -0.0897022 0.9916387 0.0897022 0.9916387 0.0897022 0.0083613 -0.0897022
10027902 0.0080155 -0.0877788 0.9919845 0.0877788 0.9919845 0.0877788 0.0080155 -0.0877788
10248386 0.0076843 -0.0858943 0.9923157 0.0858943 0.9923157 0.0858943 0.0076843 -0.0858943
10473717 0.0073670 -0.0840480 0.9926330 0.0840480 0.9926330 0.0840480 0.0073670 -0.0840480
10704003 0.0070631 -0.0822392 0.9929369 0.0822392 0.9929369 0.0822392 0.0070631 -0.0822392
10939352 0.0067720 -0.0804672 0.9932280 0.0804672 0.9932280 0.0804672 0.0067720 -0.0804672
11179876 0.0064932 -0.0787313 0.9935068 0.0787313 0.9935068 0.0787313 0.0064932 -0.0787313
11425688 0.0062262 -0.0770308 0.9937738 0.0770308 0.9937738 0.0770308 0.0062262 -0.0770308
11676904 0.0059704 -0.0753650 0.9940296 0.0753650 0.9940296 0.0753650 0.0059704 -0.0753650
11933645 0.0057255 -0.0737332 0.9942745 0.0737332 0.9942745 0.0737332 0.0057255 -0.0737332
12196030 0.0054910 -0.0721348 0.9945090 0.0721348 0.9945090 0.0721348 0.0054910 -0.0721348
12464184 0.0052664 -0.0705691 0.9947336 0.0705691 0.9947336 0.0705691 0.0052664 -0.0705691
12738235 0.0050514 -0.0690354 0.9949486 0.0690354 0.9949486 0.0690354 0.0050514 -0.0690354
13018310 0.0048455 -0.0675331 0.9951545 0.0675331 0.9951545 0.0675331 0.0048455 -0.0675331
13304544 0.0046483 -0.0660617 0.9953517 0.0660617 0.9953517 0.0660617 0.0046483 -0.0660617
13597071 0.0044595 -0.0646203 0.9955405 0.0646203 0.9955405 0.0646203 0.0044595 -0.0646203
13896030 0.0042788 -0.0632086 0.9957212 0.0632086 0.9957212 0.0632086 0.0042788 -0.0632086
14201563 0.0041058 -0.0618257 0.9958942 0.0618257 0.9958942 0.0618257 0.0041058 -0.0618257
14513813 0.0039402 -0.0604712 0.9960598 0.0604712 0.9960598 0.0604712 0.0039402 -0.0604712
14832928 0.0037816 -0.0591445 0.9962184 0.0591445 0.9962184 0.0591445 0.0037816 -0.0591445
15159060 0.0036298 -0.0578450 0.9963702 0.0578450 0.9963702 0.0578450 0.0036298 -0.0578450
15492362 0.0034845 -0.0565721 0.9965155 0.0565721 0.9965155 0.0565721 0.0034845 -0.0565721
15832993 0.0033455 -0.0553253 0.9966545 0.0553253 0.9966545 0.0553253 0.0033455 -0.0553253
16181113 0.0032124 -0.0541041 0.9967876 0.0541041 0.9967876 0.0541041 0.0032124 -0.0541041
16536888 0.0030850 -0.0529078 0.9969150 0.0529078 0.9969150 0.0529078 0.0030850 -0.0529078
16900485 0.0029631 -0.0517360 0.9970369 0.0517360 0.9970369 0.0517360 0.0029631 -0.0517360
17272076 0.0028465 -0.0505882 0.9971535 0.0505882 0.9971535 0.0505882 0.0028465 -0.0505882
17651837 0.0027349 -0.0494638 0.9972651 0.0494638 0.9972651 0.0494638 0.0027349 -0.0494638
18039948 0.0026281 -0.0483624 0.9973719 0.0483624 0.9973719 0.0483624 0.0026281 -0.0483624
18436593 0.0025259 -0.0472835 0.9974741 0.0472835 0.9974741 0.0472835 0.0025259 -0.0472835
18841959 0.0024282 -0.0462265 0.9975718 0.0462265 0.9975718 0.0462265 0.0024282 -0.0462265
19256237 0.0023347 -0.0451910 0.9976653 0.0451910 0.9976653 0.0451910 0.0023347 -0.0451910
19679624 0.0022453 -0.0441766 0.9977547 0.0441766 0.9977547 0.0441766 0.0022453 -0.0441766
20112321 0.0021598 -0.0431828 0.9978402 0.0431828 0.9978402 0.0431828 0.0021598 -0.0431828
20554530 0.0020781 -0.0422091 0.9979219 0.0422091 0.9979219 0.0422091 0.0020781 -0.0422091
21006463 0.0019999 -0.0412551 0.9980001 0.0412551 0.9980001 0.0412551 0.0019999 -0.0412551
21468333 0.0019251 -0.0403205 0.9980749 0.0403205 0.9980749 0.0403205 0.0019251 -0.0403205
21940357 0.0018537 -0.0394046 0.9981463 0.0394046 0.9981463 0.0394046 0.0018537 -0.0394046
22422760 0.0017854 -0.0385072 0.9982146 0.0385072 0.9982146 0.0385072 0.0017854 -0.0385072
22915770 0.0017201 -0.0376279 0.9982799 0.0376279 0.9982799 0.0376279 0.0017201 -0.0376279
23419619 0.0016578 -0.0367661 0.9983422 0.0367661 0.9983422 0.0367661 0.0016578 -0.0367661
23934547 0.0015982 -0.0359217 0.9984018 0.0359217 0.9984018 0.0359217 0.0015982 -0.0359217
24460796 0.0015413 -0.0350940 0.9984587 0.0350940 0.9984587 0.0350940 0.0015413 -0.0350940
24998616 0.0014869 -0.0342829 0.9985131 0.0342829 0.9985131 0.0342829 0.0014869 -0.0342829
25548261 0.0014350 -0.0334879 0.9985650 0.0334879 0.9985650 0.0334879 0.0014350 -0.0334879
26109991 0.0013855 -0.0327086 0.9986145 0.0327086 0.9986145 0.0327086 0.0013855 -0.0327086
26684072 0.0013382 -0.0319447 0.9986618 0.0319447 0.9986618 0.0319447 0.0013382 -0.0319447
27270775 0.0012931 -0.0311958 0.9987069 0.0311958 0.9987069 0.0311958 0.0012931 -0.0311958
27870378 0.0012500 -0.0304617 0.9987500 0.0304617 0.9987500 0.0304617 0.0012500 -0.0304617
28483164 0.0012090 -0.0297419 0.9987910 0.0297419 0.9987910 0.0297419 0.0012090 -0.0297419
29109424 0.0011698 -0.0290362 0.9988302 0.0290362 0.9988302 0.0290362 0.0011698 -0.0290362
29749453 0.0011325 -0.0283441 0.9988675 0.0283441 0.9988675 0.0283441 0.0011325 -0.0283441
30403555 0.0010969 -0.0276655 0.9989031 0.0276655 0.9989031 0.0276655 0.0010969 -0.0276655
31072038 0.0010630 -0.0269999 0.9989370 0.0269999 0.9989370 0.0269999 0.0010630 -0.0269999
31755220 0.0010308 -0.0263471 0.9989692 0.0263471 0.9989692 0.0263471 0.0010308 -0.0263471
32453422 0.0010000 -0.0257068 0.9990000 0.0257068 0.9990000 0.0257068 0.0010000 -0.0257068
33166976 0.0009708 -0.0250786 0.9990292 0.0250786 0.9990292 0.0250786 0.0009708 -0.0250786
33896219 0.0009430 -0.0244624 0.9990570 0.0244624 0.9990570 0.0244624 0.0009430 -0.0244624
34641496 0.0009165 -0.0238577 0.9990835 0.0238577 0.9990835 0.0238577 0.0009165 -0.0238577
35403159 0.0008914 -0.0232644 0.9991086 0.0232644 0.9991086 0.0232644 0.0008914 -0.0232644
36181569 0.0008675 -0.0226821 0.9991325 0.0226821 0.9991325 0.0226821 0.0008675 -0.0226821
36977093 0.0008449 -0.0221106 0.9991551 0.0221106 0.9991551 0.0221106 0.0008449 -0.0221106
37790109 0.0008234 -0.0215497 0.9991766 0.0215497 0.9991766 0.0215497 0.0008234 -0.0215497
38621001 0.0008030 -0.0209989 0.9991970 0.0209989 0.9991970 0.0209989 0.0008030 -0.0209989
39470161 0.0007836 -0.0204582 0.9992164 0.0204582 0.9992164 0.0204582 0.0007836 -0.0204582
40337993 0.0007653 -0.0199273 0.9992347 0.0199273 0.9992347 0.0199273 0.0007653 -0.0199273
41224905 0.0007479 -0.0194058 0.9992521 0.0194058 0.9992521 0.0194058 0.0007479 -0.0194058
42131317 0.0007315 -0.0188936 0.9992685 0.0188936 0.9992685 0.0188936 0.0007315 -0.0188936
43057659 0.0007160 -0.0183904 0.9992840 0.0183904 0.9992840 0.0183904 0.0007160 -0.0183904
44004369 0.0007014 -0.0178961 0.9992986 0.0178961 0.9992986 0.0178961 0.0007014 -0.0178961
44971893 0.0006875 -0.0174102 0.9993125 0.0174102 0.9993125 0.0174102 0.0006875 -0.0174102
45960691 0.0006745 -0.0169328 0.9993255 0.0169328 0.9993255 0.0169328 0.0006745 -0.0169328
46971230 0.0006622 -0.0164634 0.9993378 0.0164634 0.9993378 0.0164634 0.0006622 -0.0164634
48003987 0.0006507 -0.0160019 0.9993493 0.0160019 0.9993493 0.0160019 0.0006507 -0.0160019
49059451 0.0006398 -0.0155481 0.9993602 0.0155481 0.9993602 0.0155481 0.0006398 -0.0155481
50138122 0.0006296 -0.0151018 0.9993704 0.0151018 0.9993704 0.0151018 0.0006296 -0.0151018
51240510 0.0006201 -0.0146627 0.9993799 0.0146627 0.9993799 0.0146627 0.0006201 -0.0146627
52367136 0.0006111 -0.0142307 0.9993889 0.0142307 0.9993889 0.0142307 0.0006111 -0.0142307
53518533 0.0006028 -0.0138055 0.9993972 0.0138055 0.9993972 0.0138055 0.0006028 -0.0138055
54695245 0.0005950 -0.0133869 0.9994050 0.0133869 0.9994050 0.0133869 0.0005950 -0.0133869
55897831 0.0005877 -0.0129748 0.9994123 0.0129748 0.9994123 0.0129748 0.0005877 -0.0129748
57126857 0.0005810 -0.0125690 0.9994190 0.0125690 0.9994190 0.0125690 0.0005810 -0.0125690
58382906 0.0005748 -0.0121692 0.9994252 0.0121692 0.9994252 0.0121692 0.0005748 -0.0121692
59666572 0.0005690 -0.0117753 0.9994310 0.0117753 0.9994310 0.0117753 0.0005690 -0.0117753
60978462 0.0005637 -0.0113871 0.9994363 0.0113871 0.9994363 0.0113871 0.0005637 -0.0113871
62319196 0.0005588 -0.0110043 0.9994412 0.0110043 0.9994412 0.0110043 0.0005588 -0.0110043
63689409 0.0005543 -0.0106269 0.9994457 0.0106269 0.9994457 0.0106269 0.0005543 -0.0106269
65089750 0.0005502 -0.0102547 0.9994498 0.0102547 0.9994498 0.0102547 0.0005502 -0.0102547
66520879 0.0005465 -0.0098873 0.9994535 0.0098873 0.9994535 0.0098873 0.0005465 -0.0098873
67983474 0.0005432 -0.0095248 0.9994568 0.0095248 0.9994568 0.0095248 0.0005432 -0.0095248
69478228 0.0005403 -0.0091669 0.9994597 0.0091669 0.9994597 0.0091669 0.0005403 -0.0091669
71005847 0.0005376 -0.0088134 0.9994624 0.0088134 0.9994624 0.0088134 0.0005376 -0.0088134
72567054 0.0005353 -0.0084642 0.9994647 0.0084642 0.9994647 0.0084642 0.0005353 -0.0084642
74162587 0.0005334 -0.0081192 0.9994666 0.0081192 0.9994666 0.0081192 0.0005334 -0.0081192
75793201 0.0005317 -0.0077780 0.9994683 0.0077780 0.9994683 0.0077780 0.0005317 -0.0077780
77459667 0.0005303 -0.0074406 0.9994697 0.0074406 0.9994697 0.0074406 0.0005303 -0.0074406
79162774 0.0005292 -0.0071068 0.9994708 0.0071068 0.9994708 0.0071068 0.0005292 -0.0071068
80903327 0.0005284 -0.0067765 0.9994716 0.0067765 0.9994716 0.0067765 0.0005284 -0.0067765
82682150 0.0005279 -0.0064495 0.9994721 0.0064495 0.9994721 0.0064495 0.0005279 -0.0064495
84500083 0.0005276 -0.0061256 0.9994724 0.0061256 0.9994724 0.0061256 0.0005276 -0.0061256
86357988 0.0005276 -0.0058047 0.9994724 0.0058047 0.9994724 0.0058047 0.0005276 -0.0058047
88256743 0.0005279 -0.0054865 0.9994721 0.0054865 0.9994721 0.0054865 0.0005279 -0.0054865
90197245 0.0005283 -0.0051711 0.9994717 0.0051711 0.9994717 0.0051711 0.0005283 -0.0051711
92180413 0.0005291 -0.0048582 0.9994709 0.0048582 0.9994709 0.0048582 0.0005291 -0.0048582
94207185 0.0005300 -0.0045476 0.9994700 0.0045476 0.9994700 0.0045476 0.0005300 -0.0045476
96278520 0.0005312 -0.0042392 0.9994688 0.0042392 0.9994688 0.0042392 0.0005312 -0.0042392
98395398 0.0005327 -0.0039329 0.9994673 0.0039329 0.9994673 0.0039329 0.0005327 -0.0039329
100558819 0.0005343 -0.0036285 0.9994657 0.0036285 0.9994657 0.0036285 0.0005343 -0.0036285
102769807 0.0005362 -0.0033258 0.9994638 0.0033258 0.9994638 0.0033258 0.0005362 -0.0033258
105029408 0.0005384 -0.0030248 0.9994616 0.0030248 0.9994616 0.0030248 0.0005384 -0.0030248
107338692 0.0005408 -0.0027252 0.9994592 0.0027252 0.9994592 0.0027252 0.0005408 -0.0027252
