!Murata Part Number: GRM31C7U3A821JW32
!These Parameters are Measured in Series Mode Connection
!Data Generated on Mar 30, 2021
!       o--ll--o
!Port1            Port2
!       o------o
!Operation Temp=25[degC], DC Bias Voltage=0[V]
!Freq. Start=100[MHz] Stop=3[GHz] 401[Steps]
# Hz S RI R 50
!Freq.(Hz) S11(Real) S11(Imag) S21(Real) S21(Imag) S12(Real) S12(Imag) S22(Real) S22(Imag)
100000000 0.0004013 -0.0136577 0.9995987 0.0136577 0.9995987 0.0136577 0.0004013 -0.0136577
107250000 0.0003699 -0.0119209 0.9996301 0.0119209 0.9996301 0.0119209 0.0003699 -0.0119209
114500000 0.0003490 -0.0103479 0.9996510 0.0103479 0.9996510 0.0103479 0.0003490 -0.0103479
121750000 0.0003366 -0.0089086 0.9996634 0.0089086 0.9996634 0.0089086 0.0003366 -0.0089086
129000000 0.0003313 -0.0075799 0.9996687 0.0075799 0.9996687 0.0075799 0.0003313 -0.0075799
136250000 0.0003320 -0.0063435 0.9996680 0.0063435 0.9996680 0.0063435 0.0003320 -0.0063435
143500000 0.0003380 -0.0051846 0.9996620 0.0051846 0.9996620 0.0051846 0.0003380 -0.0051846
150750000 0.0003486 -0.0040913 0.9996514 0.0040913 0.9996514 0.0040913 0.0003486 -0.0040913
158000000 0.0003636 -0.0030536 0.9996364 0.0030536 0.9996364 0.0030536 0.0003636 -0.0030536
165250000 0.0003828 -0.0020633 0.9996172 0.0020633 0.9996172 0.0020633 0.0003828 -0.0020633
172500000 0.0004059 -0.0011134 0.9995941 0.0011134 0.9995941 0.0011134 0.0004059 -0.0011134
179750000 0.0004329 -0.0001979 0.9995671 0.0001979 0.9995671 0.0001979 0.0004329 -0.0001979
187000000 0.0004639 0.0006885 0.9995361 -0.0006885 0.9995361 -0.0006885 0.0004639 0.0006885
194250000 0.0004991 0.0015504 0.9995009 -0.0015504 0.9995009 -0.0015504 0.0004991 0.0015504
201500000 0.0005386 0.0023919 0.9994614 -0.0023919 0.9994614 -0.0023919 0.0005386 0.0023919
208750000 0.0005828 0.0032169 0.9994172 -0.0032169 0.9994172 -0.0032169 0.0005828 0.0032169
216000000 0.0006321 0.0040288 0.9993679 -0.0040288 0.9993679 -0.0040288 0.0006321 0.0040288
223250000 0.0006871 0.0048311 0.9993129 -0.0048311 0.9993129 -0.0048311 0.0006871 0.0048311
230500000 0.0007487 0.0056272 0.9992513 -0.0056272 0.9992513 -0.0056272 0.0007487 0.0056272
237750000 0.0008177 0.0064204 0.9991823 -0.0064204 0.9991823 -0.0064204 0.0008177 0.0064204
245000000 0.0008956 0.0072142 0.9991044 -0.0072142 0.9991044 -0.0072142 0.0008956 0.0072142
252250000 0.0009839 0.0080123 0.9990161 -0.0080123 0.9990161 -0.0080123 0.0009839 0.0080123
259500000 0.0010849 0.0088187 0.9989151 -0.0088187 0.9989151 -0.0088187 0.0010849 0.0088187
266750000 0.0012015 0.0096379 0.9987985 -0.0096379 0.9987985 -0.0096379 0.0012015 0.0096379
274000000 0.0013378 0.0104751 0.9986622 -0.0104751 0.9986622 -0.0104751 0.0013378 0.0104751
281250000 0.0014990 0.0113364 0.9985010 -0.0113364 0.9985010 -0.0113364 0.0014990 0.0113364
288500000 0.0016929 0.0122288 0.9983071 -0.0122288 0.9983071 -0.0122288 0.0016929 0.0122288
295750000 0.0019302 0.0131608 0.9980698 -0.0131608 0.9980698 -0.0131608 0.0019302 0.0131608
303000000 0.0022265 0.0141423 0.9977735 -0.0141423 0.9977735 -0.0141423 0.0022265 0.0141423
310250000 0.0026053 0.0151849 0.9973947 -0.0151849 0.9973947 -0.0151849 0.0026053 0.0151849
317500000 0.0031022 0.0163006 0.9968978 -0.0163006 0.9968978 -0.0163006 0.0031022 0.0163006
324750000 0.0037729 0.0174993 0.9962271 -0.0174993 0.9962271 -0.0174993 0.0037729 0.0174993
332000000 0.0047058 0.0187797 0.9952942 -0.0187797 0.9952942 -0.0187797 0.0047058 0.0187797
339250000 0.0060414 0.0201056 0.9939586 -0.0201056 0.9939586 -0.0201056 0.0060414 0.0201056
346500000 0.0079908 0.0213441 0.9920092 -0.0213441 0.9920092 -0.0213441 0.0079908 0.0213441
353750000 0.0108062 0.0221224 0.9891938 -0.0221224 0.9891938 -0.0221224 0.0108062 0.0221224
361000000 0.0145145 0.0216077 0.9854855 -0.0216077 0.9854855 -0.0216077 0.0145145 0.0216077
368250000 0.0181202 0.0186801 0.9818798 -0.0186801 0.9818798 -0.0186801 0.0181202 0.0186801
375500000 0.0192726 0.0136361 0.9807274 -0.0136361 0.9807274 -0.0136361 0.0192726 0.0136361
382750000 0.0170343 0.0092783 0.9829657 -0.0092783 0.9829657 -0.0092783 0.0170343 0.0092783
390000000 0.0134370 0.0074511 0.9865630 -0.0074511 0.9865630 -0.0074511 0.0134370 0.0074511
397250000 0.0103163 0.0075438 0.9896837 -0.0075438 0.9896837 -0.0075438 0.0103163 0.0075438
404500000 0.0080947 0.0085073 0.9919053 -0.0085073 0.9919053 -0.0085073 0.0080947 0.0085073
411750000 0.0066067 0.0097512 0.9933933 -0.0097512 0.9933933 -0.0097512 0.0066067 0.0097512
419000000 0.0056241 0.0110331 0.9943759 -0.0110331 0.9943759 -0.0110331 0.0056241 0.0110331
426250000 0.0049781 0.0122702 0.9950219 -0.0122702 0.9950219 -0.0122702 0.0049781 0.0122702
433500000 0.0045599 0.0134424 0.9954401 -0.0134424 0.9954401 -0.0134424 0.0045599 0.0134424
440750000 0.0043011 0.0145525 0.9956989 -0.0145525 0.9956989 -0.0145525 0.0043011 0.0145525
448000000 0.0041595 0.0156102 0.9958405 -0.0156102 0.9958405 -0.0156102 0.0041595 0.0156102
455250000 0.0041088 0.0166269 0.9958912 -0.0166269 0.9958912 -0.0166269 0.0041088 0.0166269
462500000 0.0041335 0.0176134 0.9958665 -0.0176134 0.9958665 -0.0176134 0.0041335 0.0176134
469750000 0.0042253 0.0185792 0.9957747 -0.0185792 0.9957747 -0.0185792 0.0042253 0.0185792
477000000 0.0043810 0.0195325 0.9956190 -0.0195325 0.9956190 -0.0195325 0.0043810 0.0195325
484250000 0.0046020 0.0204802 0.9953980 -0.0204802 0.9953980 -0.0204802 0.0046020 0.0204802
491500000 0.0048938 0.0214279 0.9951062 -0.0214279 0.9951062 -0.0214279 0.0048938 0.0214279
498750000 0.0052659 0.0223793 0.9947341 -0.0223793 0.9947341 -0.0223793 0.0052659 0.0223793
506000000 0.0057328 0.0233356 0.9942672 -0.0233356 0.9942672 -0.0233356 0.0057328 0.0233356
513250000 0.0063141 0.0242940 0.9936859 -0.0242940 0.9936859 -0.0242940 0.0063141 0.0242940
520500000 0.0070362 0.0252453 0.9929638 -0.0252453 0.9929638 -0.0252453 0.0070362 0.0252453
527750000 0.0079321 0.0261699 0.9920679 -0.0261699 0.9920679 -0.0261699 0.0079321 0.0261699
535000000 0.0090414 0.0270307 0.9909586 -0.0270307 0.9909586 -0.0270307 0.0090414 0.0270307
542250000 0.0104052 0.0277634 0.9895948 -0.0277634 0.9895948 -0.0277634 0.0104052 0.0277634
549500000 0.0120536 0.0282639 0.9879464 -0.0282639 0.9879464 -0.0282639 0.0120536 0.0282639
556750000 0.0139777 0.0283784 0.9860223 -0.0283784 0.9860223 -0.0283784 0.0139777 0.0283784
564000000 0.0160813 0.0279113 0.9839187 -0.0279113 0.9839187 -0.0279113 0.0160813 0.0279113
571250000 0.0181226 0.0266832 0.9818774 -0.0266832 0.9818774 -0.0266832 0.0181226 0.0266832
578500000 0.0197064 0.0246576 0.9802936 -0.0246576 0.9802936 -0.0246576 0.0197064 0.0246576
585750000 0.0204093 0.0220783 0.9795907 -0.0220783 0.9795907 -0.0220783 0.0204093 0.0220783
593000000 0.0200262 0.0194519 0.9799738 -0.0194519 0.9799738 -0.0194519 0.0200262 0.0194519
600250000 0.0187172 0.0173026 0.9812828 -0.0173026 0.9812828 -0.0173026 0.0187172 0.0173026
607500000 0.0168865 0.0159123 0.9831135 -0.0159123 0.9831135 -0.0159123 0.0168865 0.0159123
614750000 0.0149367 0.0152770 0.9850633 -0.0152770 0.9850633 -0.0152770 0.0149367 0.0152770
622000000 0.0131269 0.0152335 0.9868731 -0.0152335 0.9868731 -0.0152335 0.0131269 0.0152335
629250000 0.0115698 0.0155901 0.9884302 -0.0155901 0.9884302 -0.0155901 0.0115698 0.0155901
636500000 0.0102852 0.0161899 0.9897148 -0.0161899 0.9897148 -0.0161899 0.0102852 0.0161899
643750000 0.0092489 0.0169241 0.9907511 -0.0169241 0.9907511 -0.0169241 0.0092489 0.0169241
651000000 0.0084230 0.0177236 0.9915770 -0.0177236 0.9915770 -0.0177236 0.0084230 0.0177236
658250000 0.0077691 0.0185470 0.9922309 -0.0185470 0.9922309 -0.0185470 0.0077691 0.0185470
665500000 0.0072537 0.0193707 0.9927463 -0.0193707 0.9927463 -0.0193707 0.0072537 0.0193707
672750000 0.0068498 0.0201817 0.9931502 -0.0201817 0.9931502 -0.0201817 0.0068498 0.0201817
680000000 0.0065360 0.0209738 0.9934640 -0.0209738 0.9934640 -0.0209738 0.0065360 0.0209738
687250000 0.0062955 0.0217446 0.9937045 -0.0217446 0.9937045 -0.0217446 0.0062955 0.0217446
694500000 0.0061157 0.0224934 0.9938843 -0.0224934 0.9938843 -0.0224934 0.0061157 0.0224934
701750000 0.0059870 0.0232212 0.9940130 -0.0232212 0.9940130 -0.0232212 0.0059870 0.0232212
709000000 0.0059019 0.0239292 0.9940981 -0.0239292 0.9940981 -0.0239292 0.0059019 0.0239292
716250000 0.0058553 0.0246189 0.9941447 -0.0246189 0.9941447 -0.0246189 0.0058553 0.0246189
723500000 0.0058431 0.0252917 0.9941569 -0.0252917 0.9941569 -0.0252917 0.0058431 0.0252917
730750000 0.0058630 0.0259490 0.9941370 -0.0259490 0.9941370 -0.0259490 0.0058630 0.0259490
738000000 0.0059134 0.0265917 0.9940866 -0.0265917 0.9940866 -0.0265917 0.0059134 0.0265917
745250000 0.0059937 0.0272202 0.9940063 -0.0272202 0.9940063 -0.0272202 0.0059937 0.0272202
752500000 0.0061044 0.0278342 0.9938956 -0.0278342 0.9938956 -0.0278342 0.0061044 0.0278342
759750000 0.0062463 0.0284328 0.9937537 -0.0284328 0.9937537 -0.0284328 0.0062463 0.0284328
767000000 0.0064209 0.0290135 0.9935791 -0.0290135 0.9935791 -0.0290135 0.0064209 0.0290135
774250000 0.0066301 0.0295725 0.9933699 -0.0295725 0.9933699 -0.0295725 0.0066301 0.0295725
781500000 0.0068752 0.0301041 0.9931248 -0.0301041 0.9931248 -0.0301041 0.0068752 0.0301041
788750000 0.0071566 0.0305998 0.9928434 -0.0305998 0.9928434 -0.0305998 0.0071566 0.0305998
796000000 0.0074724 0.0310490 0.9925276 -0.0310490 0.9925276 -0.0310490 0.0074724 0.0310490
803250000 0.0078161 0.0314386 0.9921839 -0.0314386 0.9921839 -0.0314386 0.0078161 0.0314386
810500000 0.0081751 0.0317552 0.9918249 -0.0317552 0.9918249 -0.0317552 0.0081751 0.0317552
817750000 0.0085285 0.0319882 0.9914715 -0.0319882 0.9914715 -0.0319882 0.0085285 0.0319882
825000000 0.0088482 0.0321351 0.9911518 -0.0321351 0.9911518 -0.0321351 0.0088482 0.0321351
832250000 0.0091026 0.0322069 0.9908974 -0.0322069 0.9908974 -0.0322069 0.0091026 0.0322069
839500000 0.0092652 0.0322301 0.9907348 -0.0322301 0.9907348 -0.0322301 0.0092652 0.0322301
846750000 0.0093238 0.0322426 0.9906762 -0.0322426 0.9906762 -0.0322426 0.0093238 0.0322426
854000000 0.0092852 0.0322840 0.9907148 -0.0322840 0.9907148 -0.0322840 0.0092852 0.0322840
861250000 0.0091729 0.0323849 0.9908271 -0.0323849 0.9908271 -0.0323849 0.0091729 0.0323849
868500000 0.0090178 0.0325604 0.9909822 -0.0325604 0.9909822 -0.0325604 0.0090178 0.0325604
875750000 0.0088498 0.0328110 0.9911502 -0.0328110 0.9911502 -0.0328110 0.0088498 0.0328110
883000000 0.0086920 0.0331275 0.9913080 -0.0331275 0.9913080 -0.0331275 0.0086920 0.0331275
890250000 0.0085593 0.0334961 0.9914407 -0.0334961 0.9914407 -0.0334961 0.0085593 0.0334961
897500000 0.0084595 0.0339027 0.9915405 -0.0339027 0.9915405 -0.0339027 0.0084595 0.0339027
904750000 0.0083957 0.0343348 0.9916043 -0.0343348 0.9916043 -0.0343348 0.0083957 0.0343348
912000000 0.0083675 0.0347822 0.9916325 -0.0347822 0.9916325 -0.0347822 0.0083675 0.0347822
919250000 0.0083734 0.0352369 0.9916266 -0.0352369 0.9916266 -0.0352369 0.0083734 0.0352369
926500000 0.0084108 0.0356928 0.9915892 -0.0356928 0.9915892 -0.0356928 0.0084108 0.0356928
933750000 0.0084771 0.0361454 0.9915229 -0.0361454 0.9915229 -0.0361454 0.0084771 0.0361454
941000000 0.0085698 0.0365910 0.9914302 -0.0365910 0.9914302 -0.0365910 0.0085698 0.0365910
948250000 0.0086865 0.0370267 0.9913135 -0.0370267 0.9913135 -0.0370267 0.0086865 0.0370267
955500000 0.0088250 0.0374498 0.9911750 -0.0374498 0.9911750 -0.0374498 0.0088250 0.0374498
962750000 0.0089832 0.0378583 0.9910168 -0.0378583 0.9910168 -0.0378583 0.0089832 0.0378583
970000000 0.0091590 0.0382498 0.9908410 -0.0382498 0.9908410 -0.0382498 0.0091590 0.0382498
977250000 0.0093503 0.0386223 0.9906497 -0.0386223 0.9906497 -0.0386223 0.0093503 0.0386223
984500000 0.0095547 0.0389737 0.9904453 -0.0389737 0.9904453 -0.0389737 0.0095547 0.0389737
991750000 0.0097697 0.0393022 0.9902303 -0.0393022 0.9902303 -0.0393022 0.0097697 0.0393022
999000000 0.0099924 0.0396059 0.9900076 -0.0396059 0.9900076 -0.0396059 0.0099924 0.0396059
1006250000 0.0102193 0.0398832 0.9897807 -0.0398832 0.9897807 -0.0398832 0.0102193 0.0398832
1013500000 0.0104466 0.0401330 0.9895534 -0.0401330 0.9895534 -0.0401330 0.0104466 0.0401330
1020750000 0.0106703 0.0403546 0.9893297 -0.0403546 0.9893297 -0.0403546 0.0106703 0.0403546
1028000000 0.0108856 0.0405480 0.9891144 -0.0405480 0.9891144 -0.0405480 0.0108856 0.0405480
1035250000 0.0110877 0.0407142 0.9889123 -0.0407142 0.9889123 -0.0407142 0.0110877 0.0407142
1042500000 0.0112721 0.0408550 0.9887279 -0.0408550 0.9887279 -0.0408550 0.0112721 0.0408550
1049750000 0.0114340 0.0409735 0.9885660 -0.0409735 0.9885660 -0.0409735 0.0114340 0.0409735
1057000000 0.0115697 0.0410735 0.9884303 -0.0410735 0.9884303 -0.0410735 0.0115697 0.0410735
1064250000 0.0116759 0.0411599 0.9883241 -0.0411599 0.9883241 -0.0411599 0.0116759 0.0411599
1071500000 0.0117507 0.0412381 0.9882493 -0.0412381 0.9882493 -0.0412381 0.0117507 0.0412381
1078750000 0.0117933 0.0413139 0.9882067 -0.0413139 0.9882067 -0.0413139 0.0117933 0.0413139
1086000000 0.0118043 0.0413930 0.9881957 -0.0413930 0.9881957 -0.0413930 0.0118043 0.0413930
1093250000 0.0117853 0.0414808 0.9882147 -0.0414808 0.9882147 -0.0414808 0.0117853 0.0414808
1100500000 0.0117391 0.0415821 0.9882609 -0.0415821 0.9882609 -0.0415821 0.0117391 0.0415821
1107750000 0.0116694 0.0417006 0.9883306 -0.0417006 0.9883306 -0.0417006 0.0116694 0.0417006
1115000000 0.0115802 0.0418392 0.9884198 -0.0418392 0.9884198 -0.0418392 0.0115802 0.0418392
1122250000 0.0114759 0.0419996 0.9885241 -0.0419996 0.9885241 -0.0419996 0.0114759 0.0419996
1129500000 0.0113606 0.0421828 0.9886394 -0.0421828 0.9886394 -0.0421828 0.0113606 0.0421828
1136750000 0.0112383 0.0423886 0.9887617 -0.0423886 0.9887617 -0.0423886 0.0112383 0.0423886
1144000000 0.0111127 0.0426164 0.9888873 -0.0426164 0.9888873 -0.0426164 0.0111127 0.0426164
1151250000 0.0109869 0.0428649 0.9890131 -0.0428649 0.9890131 -0.0428649 0.0109869 0.0428649
1158500000 0.0108633 0.0431327 0.9891367 -0.0431327 0.9891367 -0.0431327 0.0108633 0.0431327
1165750000 0.0107441 0.0434179 0.9892559 -0.0434179 0.9892559 -0.0434179 0.0107441 0.0434179
1173000000 0.0106309 0.0437186 0.9893691 -0.0437186 0.9893691 -0.0437186 0.0106309 0.0437186
1180250000 0.0105248 0.0440331 0.9894752 -0.0440331 0.9894752 -0.0440331 0.0105248 0.0440331
1187500000 0.0104265 0.0443594 0.9895735 -0.0443594 0.9895735 -0.0443594 0.0104265 0.0443594
1194750000 0.0103367 0.0446960 0.9896633 -0.0446960 0.9896633 -0.0446960 0.0103367 0.0446960
1202000000 0.0102554 0.0450413 0.9897446 -0.0450413 0.9897446 -0.0450413 0.0102554 0.0450413
1209250000 0.0101829 0.0453938 0.9898171 -0.0453938 0.9898171 -0.0453938 0.0101829 0.0453938
1216500000 0.0101188 0.0457524 0.9898812 -0.0457524 0.9898812 -0.0457524 0.0101188 0.0457524
1223750000 0.0100631 0.0461159 0.9899369 -0.0461159 0.9899369 -0.0461159 0.0100631 0.0461159
1231000000 0.0100154 0.0464834 0.9899846 -0.0464834 0.9899846 -0.0464834 0.0100154 0.0464834
1238250000 0.0099755 0.0468541 0.9900245 -0.0468541 0.9900245 -0.0468541 0.0099755 0.0468541
1245500000 0.0099429 0.0472272 0.9900571 -0.0472272 0.9900571 -0.0472272 0.0099429 0.0472272
1252750000 0.0099172 0.0476022 0.9900828 -0.0476022 0.9900828 -0.0476022 0.0099172 0.0476022
1260000000 0.0098980 0.0479784 0.9901020 -0.0479784 0.9901020 -0.0479784 0.0098980 0.0479784
1267250000 0.0098851 0.0483556 0.9901149 -0.0483556 0.9901149 -0.0483556 0.0098851 0.0483556
1274500000 0.0098778 0.0487333 0.9901222 -0.0487333 0.9901222 -0.0487333 0.0098778 0.0487333
1281750000 0.0098761 0.0491113 0.9901239 -0.0491113 0.9901239 -0.0491113 0.0098761 0.0491113
1289000000 0.0098793 0.0494892 0.9901207 -0.0494892 0.9901207 -0.0494892 0.0098793 0.0494892
1296250000 0.0098873 0.0498669 0.9901127 -0.0498669 0.9901127 -0.0498669 0.0098873 0.0498669
1303500000 0.0098997 0.0502442 0.9901003 -0.0502442 0.9901003 -0.0502442 0.0098997 0.0502442
1310750000 0.0099162 0.0506210 0.9900838 -0.0506210 0.9900838 -0.0506210 0.0099162 0.0506210
1318000000 0.0099366 0.0509971 0.9900634 -0.0509971 0.9900634 -0.0509971 0.0099366 0.0509971
1325250000 0.0099606 0.0513726 0.9900394 -0.0513726 0.9900394 -0.0513726 0.0099606 0.0513726
1332500000 0.0099879 0.0517473 0.9900121 -0.0517473 0.9900121 -0.0517473 0.0099879 0.0517473
1339750000 0.0100184 0.0521211 0.9899816 -0.0521211 0.9899816 -0.0521211 0.0100184 0.0521211
1347000000 0.0100518 0.0524941 0.9899482 -0.0524941 0.9899482 -0.0524941 0.0100518 0.0524941
1354250000 0.0100879 0.0528662 0.9899121 -0.0528662 0.9899121 -0.0528662 0.0100879 0.0528662
1361500000 0.0101266 0.0532374 0.9898734 -0.0532374 0.9898734 -0.0532374 0.0101266 0.0532374
1368750000 0.0101677 0.0536077 0.9898323 -0.0536077 0.9898323 -0.0536077 0.0101677 0.0536077
1376000000 0.0102111 0.0539771 0.9897889 -0.0539771 0.9897889 -0.0539771 0.0102111 0.0539771
1383250000 0.0102566 0.0543456 0.9897434 -0.0543456 0.9897434 -0.0543456 0.0102566 0.0543456
1390500000 0.0103041 0.0547132 0.9896959 -0.0547132 0.9896959 -0.0547132 0.0103041 0.0547132
1397750000 0.0103535 0.0550800 0.9896465 -0.0550800 0.9896465 -0.0550800 0.0103535 0.0550800
1405000000 0.0104046 0.0554459 0.9895954 -0.0554459 0.9895954 -0.0554459 0.0104046 0.0554459
1412250000 0.0104574 0.0558110 0.9895426 -0.0558110 0.9895426 -0.0558110 0.0104574 0.0558110
1419500000 0.0105118 0.0561753 0.9894882 -0.0561753 0.9894882 -0.0561753 0.0105118 0.0561753
1426750000 0.0105677 0.0565389 0.9894323 -0.0565389 0.9894323 -0.0565389 0.0105677 0.0565389
1434000000 0.0106250 0.0569017 0.9893750 -0.0569017 0.9893750 -0.0569017 0.0106250 0.0569017
1441250000 0.0106836 0.0572637 0.9893164 -0.0572637 0.9893164 -0.0572637 0.0106836 0.0572637
1448500000 0.0107435 0.0576251 0.9892565 -0.0576251 0.9892565 -0.0576251 0.0107435 0.0576251
1455750000 0.0108046 0.0579858 0.9891954 -0.0579858 0.9891954 -0.0579858 0.0108046 0.0579858
1463000000 0.0108668 0.0583458 0.9891332 -0.0583458 0.9891332 -0.0583458 0.0108668 0.0583458
1470250000 0.0109301 0.0587053 0.9890699 -0.0587053 0.9890699 -0.0587053 0.0109301 0.0587053
1477500000 0.0109945 0.0590641 0.9890055 -0.0590641 0.9890055 -0.0590641 0.0109945 0.0590641
1484750000 0.0110598 0.0594224 0.9889402 -0.0594224 0.9889402 -0.0594224 0.0110598 0.0594224
1492000000 0.0111261 0.0597802 0.9888739 -0.0597802 0.9888739 -0.0597802 0.0111261 0.0597802
1499250000 0.0111934 0.0601374 0.9888066 -0.0601374 0.9888066 -0.0601374 0.0111934 0.0601374
1506500000 0.0112614 0.0604942 0.9887386 -0.0604942 0.9887386 -0.0604942 0.0112614 0.0604942
1513750000 0.0113303 0.0608505 0.9886697 -0.0608505 0.9886697 -0.0608505 0.0113303 0.0608505
1521000000 0.0114001 0.0612064 0.9885999 -0.0612064 0.9885999 -0.0612064 0.0114001 0.0612064
1528250000 0.0114705 0.0615619 0.9885295 -0.0615619 0.9885295 -0.0615619 0.0114705 0.0615619
1535500000 0.0115418 0.0619170 0.9884582 -0.0619170 0.9884582 -0.0619170 0.0115418 0.0619170
1542750000 0.0116137 0.0622718 0.9883863 -0.0622718 0.9883863 -0.0622718 0.0116137 0.0622718
1550000000 0.0116863 0.0626262 0.9883137 -0.0626262 0.9883137 -0.0626262 0.0116863 0.0626262
1557250000 0.0117596 0.0629803 0.9882404 -0.0629803 0.9882404 -0.0629803 0.0117596 0.0629803
1564500000 0.0118336 0.0633342 0.9881664 -0.0633342 0.9881664 -0.0633342 0.0118336 0.0633342
1571750000 0.0119081 0.0636877 0.9880919 -0.0636877 0.9880919 -0.0636877 0.0119081 0.0636877
1579000000 0.0119833 0.0640411 0.9880167 -0.0640411 0.9880167 -0.0640411 0.0119833 0.0640411
1586250000 0.0120591 0.0643942 0.9879409 -0.0643942 0.9879409 -0.0643942 0.0120591 0.0643942
1593500000 0.0121354 0.0647471 0.9878646 -0.0647471 0.9878646 -0.0647471 0.0121354 0.0647471
1600750000 0.0122123 0.0650998 0.9877877 -0.0650998 0.9877877 -0.0650998 0.0122123 0.0650998
1608000000 0.0122897 0.0654523 0.9877103 -0.0654523 0.9877103 -0.0654523 0.0122897 0.0654523
1615250000 0.0123677 0.0658047 0.9876323 -0.0658047 0.9876323 -0.0658047 0.0123677 0.0658047
1622500000 0.0124462 0.0661570 0.9875538 -0.0661570 0.9875538 -0.0661570 0.0124462 0.0661570
1629750000 0.0125252 0.0665092 0.9874748 -0.0665092 0.9874748 -0.0665092 0.0125252 0.0665092
