!Murata Part Number: GRM31A7U3A121JW31
!These Parameters are Measured in Series Mode Connection
!Data Generated on Mar 30, 2021
!       o--ll--o
!Port1            Port2
!       o------o
!Operation Temp=25[degC], DC Bias Voltage=0[V]
!Freq. Start=100[MHz] Stop=3[GHz] 401[Steps]
# Hz S RI R 50
!Freq.(Hz) S11(Real) S11(Imag) S21(Real) S21(Imag) S12(Real) S12(Imag) S22(Real) S22(Imag)
100000000 0.0170180 -0.1250572 0.9829820 0.1250572 0.9829820 0.1250572 0.0170180 -0.1250572
107250000 0.0148007 -0.1161400 0.9851993 0.1161400 0.9851993 0.1161400 0.0148007 -0.1161400
114500000 0.0129851 -0.1082571 0.9870149 0.1082571 0.9870149 0.1082571 0.0129851 -0.1082571
121750000 0.0114805 -0.1012336 0.9885195 0.1012336 0.9885195 0.1012336 0.0114805 -0.1012336
129000000 0.0102204 -0.0949315 0.9897796 0.0949315 0.9897796 0.0949315 0.0102204 -0.0949315
136250000 0.0091549 -0.0892404 0.9908451 0.0892404 0.9908451 0.0892404 0.0091549 -0.0892404
143500000 0.0082464 -0.0840711 0.9917536 0.0840711 0.9917536 0.0840711 0.0082464 -0.0840711
150750000 0.0074661 -0.0793510 0.9925339 0.0793510 0.9925339 0.0793510 0.0074661 -0.0793510
158000000 0.0067911 -0.0750200 0.9932089 0.0750200 0.9932089 0.0750200 0.0067911 -0.0750200
165250000 0.0062038 -0.0710284 0.9937962 0.0710284 0.9937962 0.0710284 0.0062038 -0.0710284
172500000 0.0056899 -0.0673345 0.9943101 0.0673345 0.9943101 0.0673345 0.0056899 -0.0673345
179750000 0.0052379 -0.0639030 0.9947621 0.0639030 0.9947621 0.0639030 0.0052379 -0.0639030
187000000 0.0048387 -0.0607040 0.9951613 0.0607040 0.9951613 0.0607040 0.0048387 -0.0607040
194250000 0.0044847 -0.0577122 0.9955153 0.0577122 0.9955153 0.0577122 0.0044847 -0.0577122
201500000 0.0041694 -0.0549054 0.9958306 0.0549054 0.9958306 0.0549054 0.0041694 -0.0549054
208750000 0.0038878 -0.0522647 0.9961122 0.0522647 0.9961122 0.0522647 0.0038878 -0.0522647
216000000 0.0036355 -0.0497737 0.9963645 0.0497737 0.9963645 0.0497737 0.0036355 -0.0497737
223250000 0.0034088 -0.0474180 0.9965912 0.0474180 0.9965912 0.0474180 0.0034088 -0.0474180
230500000 0.0032046 -0.0451849 0.9967954 0.0451849 0.9967954 0.0451849 0.0032046 -0.0451849
237750000 0.0030202 -0.0430634 0.9969798 0.0430634 0.9969798 0.0430634 0.0030202 -0.0430634
245000000 0.0028535 -0.0410437 0.9971465 0.0410437 0.9971465 0.0410437 0.0028535 -0.0410437
252250000 0.0027025 -0.0391171 0.9972975 0.0391171 0.9972975 0.0391171 0.0027025 -0.0391171
259500000 0.0025655 -0.0372758 0.9974345 0.0372758 0.9974345 0.0372758 0.0025655 -0.0372758
266750000 0.0024410 -0.0355130 0.9975590 0.0355130 0.9975590 0.0355130 0.0024410 -0.0355130
274000000 0.0023279 -0.0338224 0.9976721 0.0338224 0.9976721 0.0338224 0.0023279 -0.0338224
281250000 0.0022249 -0.0321986 0.9977751 0.0321986 0.9977751 0.0321986 0.0022249 -0.0321986
288500000 0.0021312 -0.0306365 0.9978688 0.0306365 0.9978688 0.0306365 0.0021312 -0.0306365
295750000 0.0020458 -0.0291316 0.9979542 0.0291316 0.9979542 0.0291316 0.0020458 -0.0291316
303000000 0.0019681 -0.0276799 0.9980319 0.0276799 0.9980319 0.0276799 0.0019681 -0.0276799
310250000 0.0018973 -0.0262775 0.9981027 0.0262775 0.9981027 0.0262775 0.0018973 -0.0262775
317500000 0.0018329 -0.0249211 0.9981671 0.0249211 0.9981671 0.0249211 0.0018329 -0.0249211
324750000 0.0017744 -0.0236077 0.9982256 0.0236077 0.9982256 0.0236077 0.0017744 -0.0236077
332000000 0.0017213 -0.0223345 0.9982787 0.0223345 0.9982787 0.0223345 0.0017213 -0.0223345
339250000 0.0016731 -0.0210988 0.9983269 0.0210988 0.9983269 0.0210988 0.0016731 -0.0210988
346500000 0.0016295 -0.0198983 0.9983705 0.0198983 0.9983705 0.0198983 0.0016295 -0.0198983
353750000 0.0015902 -0.0187308 0.9984098 0.0187308 0.9984098 0.0187308 0.0015902 -0.0187308
361000000 0.0015549 -0.0175944 0.9984451 0.0175944 0.9984451 0.0175944 0.0015549 -0.0175944
368250000 0.0015233 -0.0164872 0.9984767 0.0164872 0.9984767 0.0164872 0.0015233 -0.0164872
375500000 0.0014951 -0.0154075 0.9985049 0.0154075 0.9985049 0.0154075 0.0014951 -0.0154075
382750000 0.0014701 -0.0143538 0.9985299 0.0143538 0.9985299 0.0143538 0.0014701 -0.0143538
390000000 0.0014481 -0.0133245 0.9985519 0.0133245 0.9985519 0.0133245 0.0014481 -0.0133245
397250000 0.0014290 -0.0123183 0.9985710 0.0123183 0.9985710 0.0123183 0.0014290 -0.0123183
404500000 0.0014125 -0.0113341 0.9985875 0.0113341 0.9985875 0.0113341 0.0014125 -0.0113341
411750000 0.0013985 -0.0103705 0.9986015 0.0103705 0.9986015 0.0103705 0.0013985 -0.0103705
419000000 0.0013869 -0.0094265 0.9986131 0.0094265 0.9986131 0.0094265 0.0013869 -0.0094265
426250000 0.0013776 -0.0085012 0.9986224 0.0085012 0.9986224 0.0085012 0.0013776 -0.0085012
433500000 0.0013703 -0.0075935 0.9986297 0.0075935 0.9986297 0.0075935 0.0013703 -0.0075935
440750000 0.0013651 -0.0067026 0.9986349 0.0067026 0.9986349 0.0067026 0.0013651 -0.0067026
448000000 0.0013618 -0.0058276 0.9986382 0.0058276 0.9986382 0.0058276 0.0013618 -0.0058276
455250000 0.0013604 -0.0049678 0.9986396 0.0049678 0.9986396 0.0049678 0.0013604 -0.0049678
462500000 0.0013607 -0.0041225 0.9986393 0.0041225 0.9986393 0.0041225 0.0013607 -0.0041225
469750000 0.0013626 -0.0032909 0.9986374 0.0032909 0.9986374 0.0032909 0.0013626 -0.0032909
477000000 0.0013662 -0.0024724 0.9986338 0.0024724 0.9986338 0.0024724 0.0013662 -0.0024724
484250000 0.0013712 -0.0016665 0.9986288 0.0016665 0.9986288 0.0016665 0.0013712 -0.0016665
491500000 0.0013778 -0.0008725 0.9986222 0.0008725 0.9986222 0.0008725 0.0013778 -0.0008725
498750000 0.0013858 -0.0000899 0.9986142 0.0000899 0.9986142 0.0000899 0.0013858 -0.0000899
506000000 0.0013951 0.0006818 0.9986049 -0.0006818 0.9986049 -0.0006818 0.0013951 0.0006818
513250000 0.0014058 0.0014431 0.9985942 -0.0014431 0.9985942 -0.0014431 0.0014058 0.0014431
520500000 0.0014177 0.0021944 0.9985823 -0.0021944 0.9985823 -0.0021944 0.0014177 0.0021944
527750000 0.0014309 0.0029361 0.9985691 -0.0029361 0.9985691 -0.0029361 0.0014309 0.0029361
535000000 0.0014452 0.0036687 0.9985548 -0.0036687 0.9985548 -0.0036687 0.0014452 0.0036687
542250000 0.0014607 0.0043926 0.9985393 -0.0043926 0.9985393 -0.0043926 0.0014607 0.0043926
549500000 0.0014774 0.0051080 0.9985226 -0.0051080 0.9985226 -0.0051080 0.0014774 0.0051080
556750000 0.0014951 0.0058154 0.9985049 -0.0058154 0.9985049 -0.0058154 0.0014951 0.0058154
564000000 0.0015139 0.0065151 0.9984861 -0.0065151 0.9984861 -0.0065151 0.0015139 0.0065151
571250000 0.0015338 0.0072074 0.9984662 -0.0072074 0.9984662 -0.0072074 0.0015338 0.0072074
578500000 0.0015546 0.0078926 0.9984454 -0.0078926 0.9984454 -0.0078926 0.0015546 0.0078926
585750000 0.0015765 0.0085709 0.9984235 -0.0085709 0.9984235 -0.0085709 0.0015765 0.0085709
593000000 0.0015993 0.0092426 0.9984007 -0.0092426 0.9984007 -0.0092426 0.0015993 0.0092426
600250000 0.0016231 0.0099081 0.9983769 -0.0099081 0.9983769 -0.0099081 0.0016231 0.0099081
607500000 0.0016478 0.0105674 0.9983522 -0.0105674 0.9983522 -0.0105674 0.0016478 0.0105674
614750000 0.0016735 0.0112210 0.9983265 -0.0112210 0.9983265 -0.0112210 0.0016735 0.0112210
622000000 0.0017000 0.0118689 0.9983000 -0.0118689 0.9983000 -0.0118689 0.0017000 0.0118689
629250000 0.0017275 0.0125114 0.9982725 -0.0125114 0.9982725 -0.0125114 0.0017275 0.0125114
636500000 0.0017558 0.0131488 0.9982442 -0.0131488 0.9982442 -0.0131488 0.0017558 0.0131488
643750000 0.0017849 0.0137811 0.9982151 -0.0137811 0.9982151 -0.0137811 0.0017849 0.0137811
651000000 0.0018150 0.0144086 0.9981850 -0.0144086 0.9981850 -0.0144086 0.0018150 0.0144086
658250000 0.0018458 0.0150315 0.9981542 -0.0150315 0.9981542 -0.0150315 0.0018458 0.0150315
665500000 0.0018775 0.0156498 0.9981225 -0.0156498 0.9981225 -0.0156498 0.0018775 0.0156498
672750000 0.0019101 0.0162639 0.9980899 -0.0162639 0.9980899 -0.0162639 0.0019101 0.0162639
680000000 0.0019434 0.0168739 0.9980566 -0.0168739 0.9980566 -0.0168739 0.0019434 0.0168739
687250000 0.0019776 0.0174798 0.9980224 -0.0174798 0.9980224 -0.0174798 0.0019776 0.0174798
694500000 0.0020125 0.0180819 0.9979875 -0.0180819 0.9979875 -0.0180819 0.0020125 0.0180819
701750000 0.0020483 0.0186802 0.9979517 -0.0186802 0.9979517 -0.0186802 0.0020483 0.0186802
709000000 0.0020848 0.0192750 0.9979152 -0.0192750 0.9979152 -0.0192750 0.0020848 0.0192750
716250000 0.0021221 0.0198663 0.9978779 -0.0198663 0.9978779 -0.0198663 0.0021221 0.0198663
723500000 0.0021603 0.0204543 0.9978397 -0.0204543 0.9978397 -0.0204543 0.0021603 0.0204543
730750000 0.0021991 0.0210391 0.9978009 -0.0210391 0.9978009 -0.0210391 0.0021991 0.0210391
738000000 0.0022388 0.0216208 0.9977612 -0.0216208 0.9977612 -0.0216208 0.0022388 0.0216208
745250000 0.0022793 0.0221995 0.9977207 -0.0221995 0.9977207 -0.0221995 0.0022793 0.0221995
752500000 0.0023205 0.0227753 0.9976795 -0.0227753 0.9976795 -0.0227753 0.0023205 0.0227753
759750000 0.0023625 0.0233483 0.9976375 -0.0233483 0.9976375 -0.0233483 0.0023625 0.0233483
767000000 0.0024053 0.0239186 0.9975947 -0.0239186 0.9975947 -0.0239186 0.0024053 0.0239186
774250000 0.0024488 0.0244864 0.9975512 -0.0244864 0.9975512 -0.0244864 0.0024488 0.0244864
781500000 0.0024931 0.0250517 0.9975069 -0.0250517 0.9975069 -0.0250517 0.0024931 0.0250517
788750000 0.0025382 0.0256145 0.9974618 -0.0256145 0.9974618 -0.0256145 0.0025382 0.0256145
796000000 0.0025840 0.0261751 0.9974160 -0.0261751 0.9974160 -0.0261751 0.0025840 0.0261751
803250000 0.0026307 0.0267334 0.9973693 -0.0267334 0.9973693 -0.0267334 0.0026307 0.0267334
810500000 0.0026781 0.0272896 0.9973219 -0.0272896 0.9973219 -0.0272896 0.0026781 0.0272896
817750000 0.0027263 0.0278437 0.9972737 -0.0278437 0.9972737 -0.0278437 0.0027263 0.0278437
825000000 0.0027752 0.0283958 0.9972248 -0.0283958 0.9972248 -0.0283958 0.0027752 0.0283958
832250000 0.0028250 0.0289460 0.9971750 -0.0289460 0.9971750 -0.0289460 0.0028250 0.0289460
839500000 0.0028755 0.0294943 0.9971245 -0.0294943 0.9971245 -0.0294943 0.0028755 0.0294943
846750000 0.0029268 0.0300409 0.9970732 -0.0300409 0.9970732 -0.0300409 0.0029268 0.0300409
854000000 0.0029790 0.0305857 0.9970210 -0.0305857 0.9970210 -0.0305857 0.0029790 0.0305857
861250000 0.0030319 0.0311289 0.9969681 -0.0311289 0.9969681 -0.0311289 0.0030319 0.0311289
868500000 0.0030856 0.0316705 0.9969144 -0.0316705 0.9969144 -0.0316705 0.0030856 0.0316705
875750000 0.0031402 0.0322106 0.9968598 -0.0322106 0.9968598 -0.0322106 0.0031402 0.0322106
883000000 0.0031955 0.0327492 0.9968045 -0.0327492 0.9968045 -0.0327492 0.0031955 0.0327492
890250000 0.0032517 0.0332865 0.9967483 -0.0332865 0.9967483 -0.0332865 0.0032517 0.0332865
897500000 0.0033088 0.0338223 0.9966912 -0.0338223 0.9966912 -0.0338223 0.0033088 0.0338223
904750000 0.0033666 0.0343569 0.9966334 -0.0343569 0.9966334 -0.0343569 0.0033666 0.0343569
912000000 0.0034253 0.0348903 0.9965747 -0.0348903 0.9965747 -0.0348903 0.0034253 0.0348903
919250000 0.0034849 0.0354225 0.9965151 -0.0354225 0.9965151 -0.0354225 0.0034849 0.0354225
926500000 0.0035453 0.0359535 0.9964547 -0.0359535 0.9964547 -0.0359535 0.0035453 0.0359535
933750000 0.0036066 0.0364835 0.9963934 -0.0364835 0.9963934 -0.0364835 0.0036066 0.0364835
941000000 0.0036688 0.0370124 0.9963312 -0.0370124 0.9963312 -0.0370124 0.0036688 0.0370124
948250000 0.0037319 0.0375404 0.9962681 -0.0375404 0.9962681 -0.0375404 0.0037319 0.0375404
955500000 0.0037959 0.0380674 0.9962041 -0.0380674 0.9962041 -0.0380674 0.0037959 0.0380674
962750000 0.0038608 0.0385936 0.9961392 -0.0385936 0.9961392 -0.0385936 0.0038608 0.0385936
970000000 0.0039267 0.0391189 0.9960733 -0.0391189 0.9960733 -0.0391189 0.0039267 0.0391189
977250000 0.0039935 0.0396434 0.9960065 -0.0396434 0.9960065 -0.0396434 0.0039935 0.0396434
984500000 0.0040612 0.0401671 0.9959388 -0.0401671 0.9959388 -0.0401671 0.0040612 0.0401671
991750000 0.0041300 0.0406901 0.9958700 -0.0406901 0.9958700 -0.0406901 0.0041300 0.0406901
999000000 0.0041997 0.0412125 0.9958003 -0.0412125 0.9958003 -0.0412125 0.0041997 0.0412125
1006250000 0.0042704 0.0417342 0.9957296 -0.0417342 0.9957296 -0.0417342 0.0042704 0.0417342
1013500000 0.0043421 0.0422554 0.9956579 -0.0422554 0.9956579 -0.0422554 0.0043421 0.0422554
1020750000 0.0044149 0.0427759 0.9955851 -0.0427759 0.9955851 -0.0427759 0.0044149 0.0427759
1028000000 0.0044887 0.0432960 0.9955113 -0.0432960 0.9955113 -0.0432960 0.0044887 0.0432960
1035250000 0.0045636 0.0438156 0.9954364 -0.0438156 0.9954364 -0.0438156 0.0045636 0.0438156
1042500000 0.0046396 0.0443347 0.9953604 -0.0443347 0.9953604 -0.0443347 0.0046396 0.0443347
1049750000 0.0047167 0.0448535 0.9952833 -0.0448535 0.9952833 -0.0448535 0.0047167 0.0448535
1057000000 0.0047949 0.0453718 0.9952051 -0.0453718 0.9952051 -0.0453718 0.0047949 0.0453718
1064250000 0.0048743 0.0458899 0.9951257 -0.0458899 0.9951257 -0.0458899 0.0048743 0.0458899
1071500000 0.0049549 0.0464076 0.9950451 -0.0464076 0.9950451 -0.0464076 0.0049549 0.0464076
1078750000 0.0050367 0.0469251 0.9949633 -0.0469251 0.9949633 -0.0469251 0.0050367 0.0469251
1086000000 0.0051197 0.0474423 0.9948803 -0.0474423 0.9948803 -0.0474423 0.0051197 0.0474423
1093250000 0.0052040 0.0479593 0.9947960 -0.0479593 0.9947960 -0.0479593 0.0052040 0.0479593
1100500000 0.0052896 0.0484762 0.9947104 -0.0484762 0.9947104 -0.0484762 0.0052896 0.0484762
1107750000 0.0053765 0.0489929 0.9946235 -0.0489929 0.9946235 -0.0489929 0.0053765 0.0489929
1115000000 0.0054648 0.0495094 0.9945352 -0.0495094 0.9945352 -0.0495094 0.0054648 0.0495094
1122250000 0.0055544 0.0500259 0.9944456 -0.0500259 0.9944456 -0.0500259 0.0055544 0.0500259
1129500000 0.0056455 0.0505424 0.9943545 -0.0505424 0.9943545 -0.0505424 0.0056455 0.0505424
1136750000 0.0057380 0.0510588 0.9942620 -0.0510588 0.9942620 -0.0510588 0.0057380 0.0510588
1144000000 0.0058320 0.0515752 0.9941680 -0.0515752 0.9941680 -0.0515752 0.0058320 0.0515752
1151250000 0.0059276 0.0520916 0.9940724 -0.0520916 0.9940724 -0.0520916 0.0059276 0.0520916
1158500000 0.0060248 0.0526081 0.9939752 -0.0526081 0.9939752 -0.0526081 0.0060248 0.0526081
1165750000 0.0061236 0.0531246 0.9938764 -0.0531246 0.9938764 -0.0531246 0.0061236 0.0531246
1173000000 0.0062240 0.0536412 0.9937760 -0.0536412 0.9937760 -0.0536412 0.0062240 0.0536412
1180250000 0.0063262 0.0541579 0.9936738 -0.0541579 0.9936738 -0.0541579 0.0063262 0.0541579
1187500000 0.0064302 0.0546747 0.9935698 -0.0546747 0.9935698 -0.0546747 0.0064302 0.0546747
1194750000 0.0065360 0.0551917 0.9934640 -0.0551917 0.9934640 -0.0551917 0.0065360 0.0551917
1202000000 0.0066437 0.0557088 0.9933563 -0.0557088 0.9933563 -0.0557088 0.0066437 0.0557088
1209250000 0.0067533 0.0562261 0.9932467 -0.0562261 0.9932467 -0.0562261 0.0067533 0.0562261
1216500000 0.0068650 0.0567436 0.9931350 -0.0567436 0.9931350 -0.0567436 0.0068650 0.0567436
1223750000 0.0069787 0.0572612 0.9930213 -0.0572612 0.9930213 -0.0572612 0.0069787 0.0572612
1231000000 0.0070946 0.0577791 0.9929054 -0.0577791 0.9929054 -0.0577791 0.0070946 0.0577791
1238250000 0.0072127 0.0582971 0.9927873 -0.0582971 0.9927873 -0.0582971 0.0072127 0.0582971
1245500000 0.0073332 0.0588154 0.9926668 -0.0588154 0.9926668 -0.0588154 0.0073332 0.0588154
1252750000 0.0074560 0.0593338 0.9925440 -0.0593338 0.9925440 -0.0593338 0.0074560 0.0593338
1260000000 0.0075813 0.0598524 0.9924187 -0.0598524 0.9924187 -0.0598524 0.0075813 0.0598524
1267250000 0.0077091 0.0603712 0.9922909 -0.0603712 0.9922909 -0.0603712 0.0077091 0.0603712
1274500000 0.0078396 0.0608901 0.9921604 -0.0608901 0.9921604 -0.0608901 0.0078396 0.0608901
1281750000 0.0079729 0.0614092 0.9920271 -0.0614092 0.9920271 -0.0614092 0.0079729 0.0614092
1289000000 0.0081090 0.0619283 0.9918910 -0.0619283 0.9918910 -0.0619283 0.0081090 0.0619283
1296250000 0.0082481 0.0624476 0.9917519 -0.0624476 0.9917519 -0.0624476 0.0082481 0.0624476
1303500000 0.0083903 0.0629669 0.9916097 -0.0629669 0.9916097 -0.0629669 0.0083903 0.0629669
1310750000 0.0085357 0.0634861 0.9914643 -0.0634861 0.9914643 -0.0634861 0.0085357 0.0634861
1318000000 0.0086845 0.0640053 0.9913155 -0.0640053 0.9913155 -0.0640053 0.0086845 0.0640053
1325250000 0.0088366 0.0645243 0.9911634 -0.0645243 0.9911634 -0.0645243 0.0088366 0.0645243
1332500000 0.0089924 0.0650431 0.9910076 -0.0650431 0.9910076 -0.0650431 0.0089924 0.0650431
1339750000 0.0091519 0.0655616 0.9908481 -0.0655616 0.9908481 -0.0655616 0.0091519 0.0655616
1347000000 0.0093153 0.0660796 0.9906847 -0.0660796 0.9906847 -0.0660796 0.0093153 0.0660796
1354250000 0.0094826 0.0665971 0.9905174 -0.0665971 0.9905174 -0.0665971 0.0094826 0.0665971
1361500000 0.0096542 0.0671139 0.9903458 -0.0671139 0.9903458 -0.0671139 0.0096542 0.0671139
1368750000 0.0098301 0.0676299 0.9901699 -0.0676299 0.9901699 -0.0676299 0.0098301 0.0676299
1376000000 0.0100104 0.0681449 0.9899896 -0.0681449 0.9899896 -0.0681449 0.0100104 0.0681449
1383250000 0.0101954 0.0686587 0.9898046 -0.0686587 0.9898046 -0.0686587 0.0101954 0.0686587
1390500000 0.0103852 0.0691710 0.9896148 -0.0691710 0.9896148 -0.0691710 0.0103852 0.0691710
1397750000 0.0105799 0.0696817 0.9894201 -0.0696817 0.9894201 -0.0696817 0.0105799 0.0696817
1405000000 0.0107797 0.0701905 0.9892203 -0.0701905 0.9892203 -0.0701905 0.0107797 0.0701905
1412250000 0.0109848 0.0706970 0.9890152 -0.0706970 0.9890152 -0.0706970 0.0109848 0.0706970
1419500000 0.0111952 0.0712010 0.9888048 -0.0712010 0.9888048 -0.0712010 0.0111952 0.0712010
1426750000 0.0114111 0.0717020 0.9885889 -0.0717020 0.9885889 -0.0717020 0.0114111 0.0717020
1434000000 0.0116326 0.0721996 0.9883674 -0.0721996 0.9883674 -0.0721996 0.0116326 0.0721996
1441250000 0.0118598 0.0726935 0.9881402 -0.0726935 0.9881402 -0.0726935 0.0118598 0.0726935
1448500000 0.0120927 0.0731831 0.9879073 -0.0731831 0.9879073 -0.0731831 0.0120927 0.0731831
1455750000 0.0123314 0.0736679 0.9876686 -0.0736679 0.9876686 -0.0736679 0.0123314 0.0736679
1463000000 0.0125757 0.0741474 0.9874243 -0.0741474 0.9874243 -0.0741474 0.0125757 0.0741474
1470250000 0.0128258 0.0746209 0.9871742 -0.0746209 0.9871742 -0.0746209 0.0128258 0.0746209
1477500000 0.0130813 0.0750878 0.9869187 -0.0750878 0.9869187 -0.0750878 0.0130813 0.0750878
1484750000 0.0133422 0.0755474 0.9866578 -0.0755474 0.9866578 -0.0755474 0.0133422 0.0755474
1492000000 0.0136080 0.0759990 0.9863920 -0.0759990 0.9863920 -0.0759990 0.0136080 0.0759990
1499250000 0.0138786 0.0764419 0.9861214 -0.0764419 0.9861214 -0.0764419 0.0138786 0.0764419
1506500000 0.0141534 0.0768752 0.9858466 -0.0768752 0.9858466 -0.0768752 0.0141534 0.0768752
1513750000 0.0144317 0.0772984 0.9855683 -0.0772984 0.9855683 -0.0772984 0.0144317 0.0772984
1521000000 0.0147130 0.0777105 0.9852870 -0.0777105 0.9852870 -0.0777105 0.0147130 0.0777105
1528250000 0.0149964 0.0781109 0.9850036 -0.0781109 0.9850036 -0.0781109 0.0149964 0.0781109
1535500000 0.0152809 0.0784989 0.9847191 -0.0784989 0.9847191 -0.0784989 0.0152809 0.0784989
1542750000 0.0155654 0.0788740 0.9844346 -0.0788740 0.9844346 -0.0788740 0.0155654 0.0788740
1550000000 0.0158486 0.0792355 0.9841514 -0.0792355 0.9841514 -0.0792355 0.0158486 0.0792355
1557250000 0.0161292 0.0795832 0.9838708 -0.0795832 0.9838708 -0.0795832 0.0161292 0.0795832
1564500000 0.0164057 0.0799167 0.9835943 -0.0799167 0.9835943 -0.0799167 0.0164057 0.0799167
1571750000 0.0166764 0.0802362 0.9833236 -0.0802362 0.9833236 -0.0802362 0.0166764 0.0802362
1579000000 0.0169396 0.0805417 0.9830604 -0.0805417 0.9830604 -0.0805417 0.0169396 0.0805417
1586250000 0.0171936 0.0808337 0.9828064 -0.0808337 0.9828064 -0.0808337 0.0171936 0.0808337
1593500000 0.0174366 0.0811129 0.9825634 -0.0811129 0.9825634 -0.0811129 0.0174366 0.0811129
1600750000 0.0176669 0.0813802 0.9823331 -0.0813802 0.9823331 -0.0813802 0.0176669 0.0813802
1608000000 0.0178829 0.0816369 0.9821171 -0.0816369 0.9821171 -0.0816369 0.0178829 0.0816369
1615250000 0.0180831 0.0818845 0.9819169 -0.0818845 0.9819169 -0.0818845 0.0180831 0.0818845
1622500000 0.0182662 0.0821247 0.9817338 -0.0821247 0.9817338 -0.0821247 0.0182662 0.0821247
1629750000 0.0184312 0.0823596 0.9815688 -0.0823596 0.9815688 -0.0823596 0.0184312 0.0823596
