!Murata Part Number: GRM3195C2A473JA01
!These Parameters are Measured in Series Mode Connection
!Data Generated on Mar 30, 2021
!       o--ll--o
!Port1            Port2
!       o------o
!Operation Temp=25[degC], DC Bias Voltage=0[V]
!Freq. Start=1000[kHz] Stop=6[GHz] 401[Steps]
# Hz S RI R 50
!Freq.(Hz) S11(Real) S11(Imag) S21(Real) S21(Imag) S12(Real) S12(Imag) S22(Real) S22(Imag)
1000000 0.0012095 -0.0340329 0.9987905 0.0340329 0.9987905 0.0340329 0.0012095 -0.0340329
1021987 0.0011602 -0.0333000 0.9988398 0.0333000 0.9988398 0.0333000 0.0011602 -0.0333000
1044457 0.0011130 -0.0325828 0.9988870 0.0325828 0.9988870 0.0325828 0.0011130 -0.0325828
1067422 0.0010679 -0.0318808 0.9989321 0.0318808 0.9989321 0.0318808 0.0010679 -0.0318808
1090891 0.0010246 -0.0311938 0.9989754 0.0311938 0.9989754 0.0311938 0.0010246 -0.0311938
1114877 0.0009832 -0.0305215 0.9990168 0.0305215 0.9990168 0.0305215 0.0009832 -0.0305215
1139390 0.0009436 -0.0298635 0.9990564 0.0298635 0.9990564 0.0298635 0.0009436 -0.0298635
1164441 0.0009056 -0.0292195 0.9990944 0.0292195 0.9990944 0.0292195 0.0009056 -0.0292195
1190044 0.0008693 -0.0285893 0.9991307 0.0285893 0.9991307 0.0285893 0.0008693 -0.0285893
1216210 0.0008346 -0.0279725 0.9991654 0.0279725 0.9991654 0.0279725 0.0008346 -0.0279725
1242950 0.0008013 -0.0273688 0.9991987 0.0273688 0.9991987 0.0273688 0.0008013 -0.0273688
1270279 0.0007694 -0.0267780 0.9992306 0.0267780 0.9992306 0.0267780 0.0007694 -0.0267780
1298209 0.0007389 -0.0261998 0.9992611 0.0261998 0.9992611 0.0261998 0.0007389 -0.0261998
1326753 0.0007098 -0.0256340 0.9992902 0.0256340 0.9992902 0.0256340 0.0007098 -0.0256340
1355924 0.0006818 -0.0250802 0.9993182 0.0250802 0.9993182 0.0250802 0.0006818 -0.0250802
1385737 0.0006551 -0.0245383 0.9993449 0.0245383 0.9993449 0.0245383 0.0006551 -0.0245383
1416205 0.0006295 -0.0240078 0.9993705 0.0240078 0.9993705 0.0240078 0.0006295 -0.0240078
1447343 0.0006051 -0.0234887 0.9993949 0.0234887 0.9993949 0.0234887 0.0006051 -0.0234887
1479166 0.0005816 -0.0229807 0.9994184 0.0229807 0.9994184 0.0229807 0.0005816 -0.0229807
1511688 0.0005592 -0.0224835 0.9994408 0.0224835 0.9994408 0.0224835 0.0005592 -0.0224835
1544926 0.0005378 -0.0219969 0.9994622 0.0219969 0.9994622 0.0219969 0.0005378 -0.0219969
1578894 0.0005172 -0.0215207 0.9994828 0.0215207 0.9994828 0.0215207 0.0005172 -0.0215207
1613609 0.0004976 -0.0210546 0.9995024 0.0210546 0.9995024 0.0210546 0.0004976 -0.0210546
1649087 0.0004788 -0.0205985 0.9995212 0.0205985 0.9995212 0.0205985 0.0004788 -0.0205985
1685346 0.0004608 -0.0201520 0.9995392 0.0201520 0.9995392 0.0201520 0.0004608 -0.0201520
1722402 0.0004436 -0.0197151 0.9995564 0.0197151 0.9995564 0.0197151 0.0004436 -0.0197151
1760272 0.0004271 -0.0192875 0.9995729 0.0192875 0.9995729 0.0192875 0.0004271 -0.0192875
1798975 0.0004114 -0.0188690 0.9995886 0.0188690 0.9995886 0.0188690 0.0004114 -0.0188690
1838529 0.0003963 -0.0184594 0.9996037 0.0184594 0.9996037 0.0184594 0.0003963 -0.0184594
1878953 0.0003819 -0.0180585 0.9996181 0.0180585 0.9996181 0.0180585 0.0003819 -0.0180585
1920266 0.0003681 -0.0176661 0.9996319 0.0176661 0.9996319 0.0176661 0.0003681 -0.0176661
1962487 0.0003549 -0.0172821 0.9996451 0.0172821 0.9996451 0.0172821 0.0003549 -0.0172821
2005636 0.0003423 -0.0169063 0.9996577 0.0169063 0.9996577 0.0169063 0.0003423 -0.0169063
2049734 0.0003303 -0.0165384 0.9996697 0.0165384 0.9996697 0.0165384 0.0003303 -0.0165384
2094801 0.0003187 -0.0161784 0.9996813 0.0161784 0.9996813 0.0161784 0.0003187 -0.0161784
2140860 0.0003077 -0.0158260 0.9996923 0.0158260 0.9996923 0.0158260 0.0003077 -0.0158260
2187931 0.0002972 -0.0154811 0.9997028 0.0154811 0.9997028 0.0154811 0.0002972 -0.0154811
2236037 0.0002871 -0.0151435 0.9997129 0.0151435 0.9997129 0.0151435 0.0002871 -0.0151435
2285201 0.0002774 -0.0148130 0.9997226 0.0148130 0.9997226 0.0148130 0.0002774 -0.0148130
2335446 0.0002682 -0.0144896 0.9997318 0.0144896 0.9997318 0.0144896 0.0002682 -0.0144896
2386795 0.0002594 -0.0141730 0.9997406 0.0141730 0.9997406 0.0141730 0.0002594 -0.0141730
2439274 0.0002509 -0.0138631 0.9997491 0.0138631 0.9997491 0.0138631 0.0002509 -0.0138631
2492906 0.0002429 -0.0135598 0.9997571 0.0135598 0.9997571 0.0135598 0.0002429 -0.0135598
2547717 0.0002352 -0.0132629 0.9997648 0.0132629 0.9997648 0.0132629 0.0002352 -0.0132629
2603734 0.0002278 -0.0129723 0.9997722 0.0129723 0.9997722 0.0129723 0.0002278 -0.0129723
2660982 0.0002208 -0.0126878 0.9997792 0.0126878 0.9997792 0.0126878 0.0002208 -0.0126878
2719490 0.0002140 -0.0124093 0.9997860 0.0124093 0.9997860 0.0124093 0.0002140 -0.0124093
2779283 0.0002076 -0.0121367 0.9997924 0.0121367 0.9997924 0.0121367 0.0002076 -0.0121367
2840391 0.0002015 -0.0118698 0.9997985 0.0118698 0.9997985 0.0118698 0.0002015 -0.0118698
2902843 0.0001956 -0.0116086 0.9998044 0.0116086 0.9998044 0.0116086 0.0001956 -0.0116086
2966668 0.0001900 -0.0113528 0.9998100 0.0113528 0.9998100 0.0113528 0.0001900 -0.0113528
3031896 0.0001846 -0.0111024 0.9998154 0.0111024 0.9998154 0.0111024 0.0001846 -0.0111024
3098558 0.0001795 -0.0108573 0.9998205 0.0108573 0.9998205 0.0108573 0.0001795 -0.0108573
3166686 0.0001746 -0.0106173 0.9998254 0.0106173 0.9998254 0.0106173 0.0001746 -0.0106173
3236312 0.0001700 -0.0103823 0.9998300 0.0103823 0.9998300 0.0103823 0.0001700 -0.0103823
3307469 0.0001655 -0.0101523 0.9998345 0.0101523 0.9998345 0.0101523 0.0001655 -0.0101523
3380190 0.0001612 -0.0099270 0.9998388 0.0099270 0.9998388 0.0099270 0.0001612 -0.0099270
3454511 0.0001572 -0.0097065 0.9998428 0.0097065 0.9998428 0.0097065 0.0001572 -0.0097065
3530465 0.0001533 -0.0094905 0.9998467 0.0094905 0.9998467 0.0094905 0.0001533 -0.0094905
3608090 0.0001496 -0.0092791 0.9998504 0.0092791 0.9998504 0.0092791 0.0001496 -0.0092791
3687421 0.0001460 -0.0090720 0.9998540 0.0090720 0.9998540 0.0090720 0.0001460 -0.0090720
3768496 0.0001427 -0.0088693 0.9998573 0.0088693 0.9998573 0.0088693 0.0001427 -0.0088693
3851354 0.0001394 -0.0086707 0.9998606 0.0086707 0.9998606 0.0086707 0.0001394 -0.0086707
3936034 0.0001364 -0.0084762 0.9998636 0.0084762 0.9998636 0.0084762 0.0001364 -0.0084762
4022575 0.0001334 -0.0082858 0.9998666 0.0082858 0.9998666 0.0082858 0.0001334 -0.0082858
4111020 0.0001306 -0.0080993 0.9998694 0.0080993 0.9998694 0.0080993 0.0001306 -0.0080993
4201409 0.0001280 -0.0079166 0.9998720 0.0079166 0.9998720 0.0079166 0.0001280 -0.0079166
4293785 0.0001254 -0.0077377 0.9998746 0.0077377 0.9998746 0.0077377 0.0001254 -0.0077377
4388193 0.0001230 -0.0075624 0.9998770 0.0075624 0.9998770 0.0075624 0.0001230 -0.0075624
4484676 0.0001207 -0.0073907 0.9998793 0.0073907 0.9998793 0.0073907 0.0001207 -0.0073907
4583281 0.0001185 -0.0072226 0.9998815 0.0072226 0.9998815 0.0072226 0.0001185 -0.0072226
4684054 0.0001164 -0.0070578 0.9998836 0.0070578 0.9998836 0.0070578 0.0001164 -0.0070578
4787042 0.0001145 -0.0068964 0.9998855 0.0068964 0.9998855 0.0068964 0.0001145 -0.0068964
4892295 0.0001126 -0.0067382 0.9998874 0.0067382 0.9998874 0.0067382 0.0001126 -0.0067382
4999862 0.0001108 -0.0065833 0.9998892 0.0065833 0.9998892 0.0065833 0.0001108 -0.0065833
5109794 0.0001091 -0.0064314 0.9998909 0.0064314 0.9998909 0.0064314 0.0001091 -0.0064314
5222143 0.0001074 -0.0062826 0.9998926 0.0062826 0.9998926 0.0062826 0.0001074 -0.0062826
5336962 0.0001059 -0.0061368 0.9998941 0.0061368 0.9998941 0.0061368 0.0001059 -0.0061368
5454306 0.0001045 -0.0059939 0.9998955 0.0059939 0.9998955 0.0059939 0.0001045 -0.0059939
5574230 0.0001031 -0.0058538 0.9998969 0.0058538 0.9998969 0.0058538 0.0001031 -0.0058538
5696791 0.0001018 -0.0057165 0.9998982 0.0057165 0.9998982 0.0057165 0.0001018 -0.0057165
5822046 0.0001005 -0.0055819 0.9998995 0.0055819 0.9998995 0.0055819 0.0001005 -0.0055819
5950055 0.0000994 -0.0054500 0.9999006 0.0054500 0.9999006 0.0054500 0.0000994 -0.0054500
6080879 0.0000983 -0.0053206 0.9999017 0.0053206 0.9999017 0.0053206 0.0000983 -0.0053206
6214580 0.0000972 -0.0051938 0.9999028 0.0051938 0.9999028 0.0051938 0.0000972 -0.0051938
6351220 0.0000963 -0.0050694 0.9999037 0.0050694 0.9999037 0.0050694 0.0000963 -0.0050694
6490864 0.0000953 -0.0049474 0.9999047 0.0049474 0.9999047 0.0049474 0.0000953 -0.0049474
6633579 0.0000945 -0.0048277 0.9999055 0.0048277 0.9999055 0.0048277 0.0000945 -0.0048277
6779431 0.0000937 -0.0047104 0.9999063 0.0047104 0.9999063 0.0047104 0.0000937 -0.0047104
6928491 0.0000930 -0.0045952 0.9999070 0.0045952 0.9999070 0.0045952 0.0000930 -0.0045952
7080828 0.0000923 -0.0044823 0.9999077 0.0044823 0.9999077 0.0044823 0.0000923 -0.0044823
7236514 0.0000916 -0.0043715 0.9999084 0.0043715 0.9999084 0.0043715 0.0000916 -0.0043715
7395623 0.0000910 -0.0042627 0.9999090 0.0042627 0.9999090 0.0042627 0.0000910 -0.0042627
7558231 0.0000905 -0.0041560 0.9999095 0.0041560 0.9999095 0.0041560 0.0000905 -0.0041560
7724414 0.0000900 -0.0040512 0.9999100 0.0040512 0.9999100 0.0040512 0.0000900 -0.0040512
7894251 0.0000896 -0.0039484 0.9999104 0.0039484 0.9999104 0.0039484 0.0000896 -0.0039484
8067822 0.0000892 -0.0038474 0.9999108 0.0038474 0.9999108 0.0038474 0.0000892 -0.0038474
8245209 0.0000888 -0.0037482 0.9999112 0.0037482 0.9999112 0.0037482 0.0000888 -0.0037482
8426497 0.0000885 -0.0036509 0.9999115 0.0036509 0.9999115 0.0036509 0.0000885 -0.0036509
8611770 0.0000882 -0.0035552 0.9999118 0.0035552 0.9999118 0.0035552 0.0000882 -0.0035552
8801117 0.0000880 -0.0034612 0.9999120 0.0034612 0.9999120 0.0034612 0.0000880 -0.0034612
8994628 0.0000878 -0.0033689 0.9999122 0.0033689 0.9999122 0.0033689 0.0000878 -0.0033689
9192393 0.0000877 -0.0032782 0.9999123 0.0032782 0.9999123 0.0032782 0.0000877 -0.0032782
9394506 0.0000876 -0.0031890 0.9999124 0.0031890 0.9999124 0.0031890 0.0000876 -0.0031890
9601063 0.0000875 -0.0031013 0.9999125 0.0031013 0.9999125 0.0031013 0.0000875 -0.0031013
9812162 0.0000875 -0.0030152 0.9999125 0.0030152 0.9999125 0.0030152 0.0000875 -0.0030152
10027902 0.0000875 -0.0029304 0.9999125 0.0029304 0.9999125 0.0029304 0.0000875 -0.0029304
10248386 0.0000875 -0.0028470 0.9999125 0.0028470 0.9999125 0.0028470 0.0000875 -0.0028470
10473717 0.0000876 -0.0027650 0.9999124 0.0027650 0.9999124 0.0027650 0.0000876 -0.0027650
10704003 0.0000878 -0.0026843 0.9999122 0.0026843 0.9999122 0.0026843 0.0000878 -0.0026843
10939352 0.0000879 -0.0026048 0.9999121 0.0026048 0.9999121 0.0026048 0.0000879 -0.0026048
11179876 0.0000881 -0.0025266 0.9999119 0.0025266 0.9999119 0.0025266 0.0000881 -0.0025266
11425688 0.0000884 -0.0024496 0.9999116 0.0024496 0.9999116 0.0024496 0.0000884 -0.0024496
11676904 0.0000887 -0.0023737 0.9999113 0.0023737 0.9999113 0.0023737 0.0000887 -0.0023737
11933645 0.0000890 -0.0022990 0.9999110 0.0022990 0.9999110 0.0022990 0.0000890 -0.0022990
12196030 0.0000894 -0.0022254 0.9999106 0.0022254 0.9999106 0.0022254 0.0000894 -0.0022254
12464184 0.0000898 -0.0021528 0.9999102 0.0021528 0.9999102 0.0021528 0.0000898 -0.0021528
12738235 0.0000902 -0.0020812 0.9999098 0.0020812 0.9999098 0.0020812 0.0000902 -0.0020812
13018310 0.0000907 -0.0020106 0.9999093 0.0020106 0.9999093 0.0020106 0.0000907 -0.0020106
13304544 0.0000913 -0.0019410 0.9999087 0.0019410 0.9999087 0.0019410 0.0000913 -0.0019410
13597071 0.0000918 -0.0018723 0.9999082 0.0018723 0.9999082 0.0018723 0.0000918 -0.0018723
13896030 0.0000924 -0.0018044 0.9999076 0.0018044 0.9999076 0.0018044 0.0000924 -0.0018044
14201563 0.0000931 -0.0017374 0.9999069 0.0017374 0.9999069 0.0017374 0.0000931 -0.0017374
14513813 0.0000938 -0.0016713 0.9999062 0.0016713 0.9999062 0.0016713 0.0000938 -0.0016713
14832928 0.0000945 -0.0016059 0.9999055 0.0016059 0.9999055 0.0016059 0.0000945 -0.0016059
15159060 0.0000953 -0.0015413 0.9999047 0.0015413 0.9999047 0.0015413 0.0000953 -0.0015413
15492362 0.0000961 -0.0014774 0.9999039 0.0014774 0.9999039 0.0014774 0.0000961 -0.0014774
15832993 0.0000970 -0.0014142 0.9999030 0.0014142 0.9999030 0.0014142 0.0000970 -0.0014142
16181113 0.0000979 -0.0013517 0.9999021 0.0013517 0.9999021 0.0013517 0.0000979 -0.0013517
16536888 0.0000989 -0.0012898 0.9999011 0.0012898 0.9999011 0.0012898 0.0000989 -0.0012898
16900485 0.0000999 -0.0012285 0.9999001 0.0012285 0.9999001 0.0012285 0.0000999 -0.0012285
17272076 0.0001010 -0.0011678 0.9998990 0.0011678 0.9998990 0.0011678 0.0001010 -0.0011678
17651837 0.0001022 -0.0011076 0.9998978 0.0011076 0.9998978 0.0011076 0.0001022 -0.0011076
18039948 0.0001033 -0.0010479 0.9998967 0.0010479 0.9998967 0.0010479 0.0001033 -0.0010479
18436593 0.0001046 -0.0009887 0.9998954 0.0009887 0.9998954 0.0009887 0.0001046 -0.0009887
18841959 0.0001059 -0.0009299 0.9998941 0.0009299 0.9998941 0.0009299 0.0001059 -0.0009299
19256237 0.0001072 -0.0008716 0.9998928 0.0008716 0.9998928 0.0008716 0.0001072 -0.0008716
19679624 0.0001086 -0.0008137 0.9998914 0.0008137 0.9998914 0.0008137 0.0001086 -0.0008137
20112321 0.0001101 -0.0007561 0.9998899 0.0007561 0.9998899 0.0007561 0.0001101 -0.0007561
20554530 0.0001117 -0.0006988 0.9998883 0.0006988 0.9998883 0.0006988 0.0001117 -0.0006988
21006463 0.0001133 -0.0006418 0.9998867 0.0006418 0.9998867 0.0006418 0.0001133 -0.0006418
21468333 0.0001150 -0.0005851 0.9998850 0.0005851 0.9998850 0.0005851 0.0001150 -0.0005851
21940357 0.0001167 -0.0005287 0.9998833 0.0005287 0.9998833 0.0005287 0.0001167 -0.0005287
22422760 0.0001186 -0.0004724 0.9998814 0.0004724 0.9998814 0.0004724 0.0001186 -0.0004724
22915770 0.0001205 -0.0004163 0.9998795 0.0004163 0.9998795 0.0004163 0.0001205 -0.0004163
23419619 0.0001225 -0.0003603 0.9998775 0.0003603 0.9998775 0.0003603 0.0001225 -0.0003603
23934547 0.0001246 -0.0003045 0.9998754 0.0003045 0.9998754 0.0003045 0.0001246 -0.0003045
24460796 0.0001268 -0.0002487 0.9998732 0.0002487 0.9998732 0.0002487 0.0001268 -0.0002487
24998616 0.0001291 -0.0001929 0.9998709 0.0001929 0.9998709 0.0001929 0.0001291 -0.0001929
25548261 0.0001315 -0.0001371 0.9998685 0.0001371 0.9998685 0.0001371 0.0001315 -0.0001371
26109991 0.0001340 -0.0000813 0.9998660 0.0000813 0.9998660 0.0000813 0.0001340 -0.0000813
26684072 0.0001366 -0.0000254 0.9998634 0.0000254 0.9998634 0.0000254 0.0001366 -0.0000254
27270775 0.0001393 0.0000306 0.9998607 -0.0000306 0.9998607 -0.0000306 0.0001393 0.0000306
27870378 0.0001422 0.0000868 0.9998578 -0.0000868 0.9998578 -0.0000868 0.0001422 0.0000868
28483164 0.0001452 0.0001433 0.9998548 -0.0001433 0.9998548 -0.0001433 0.0001452 0.0001433
29109424 0.0001484 0.0001999 0.9998516 -0.0001999 0.9998516 -0.0001999 0.0001484 0.0001999
29749453 0.0001518 0.0002569 0.9998482 -0.0002569 0.9998482 -0.0002569 0.0001518 0.0002569
30403555 0.0001553 0.0003142 0.9998447 -0.0003142 0.9998447 -0.0003142 0.0001553 0.0003142
31072038 0.0001591 0.0003720 0.9998409 -0.0003720 0.9998409 -0.0003720 0.0001591 0.0003720
31755220 0.0001631 0.0004302 0.9998369 -0.0004302 0.9998369 -0.0004302 0.0001631 0.0004302
32453422 0.0001673 0.0004890 0.9998327 -0.0004890 0.9998327 -0.0004890 0.0001673 0.0004890
33166976 0.0001718 0.0005483 0.9998282 -0.0005483 0.9998282 -0.0005483 0.0001718 0.0005483
33896219 0.0001766 0.0006084 0.9998234 -0.0006084 0.9998234 -0.0006084 0.0001766 0.0006084
34641496 0.0001817 0.0006692 0.9998183 -0.0006692 0.9998183 -0.0006692 0.0001817 0.0006692
35403159 0.0001872 0.0007309 0.9998128 -0.0007309 0.9998128 -0.0007309 0.0001872 0.0007309
36181569 0.0001932 0.0007936 0.9998068 -0.0007936 0.9998068 -0.0007936 0.0001932 0.0007936
36977093 0.0001996 0.0008574 0.9998004 -0.0008574 0.9998004 -0.0008574 0.0001996 0.0008574
37790109 0.0002066 0.0009223 0.9997934 -0.0009223 0.9997934 -0.0009223 0.0002066 0.0009223
38621001 0.0002143 0.0009886 0.9997857 -0.0009886 0.9997857 -0.0009886 0.0002143 0.0009886
39470161 0.0002228 0.0010565 0.9997772 -0.0010565 0.9997772 -0.0010565 0.0002228 0.0010565
40337993 0.0002322 0.0011261 0.9997678 -0.0011261 0.9997678 -0.0011261 0.0002322 0.0011261
41224905 0.0002427 0.0011977 0.9997573 -0.0011977 0.9997573 -0.0011977 0.0002427 0.0011977
42131317 0.0002546 0.0012714 0.9997454 -0.0012714 0.9997454 -0.0012714 0.0002546 0.0012714
43057659 0.0002683 0.0013478 0.9997317 -0.0013478 0.9997317 -0.0013478 0.0002683 0.0013478
44004369 0.0002840 0.0014271 0.9997160 -0.0014271 0.9997160 -0.0014271 0.0002840 0.0014271
44971893 0.0003025 0.0015097 0.9996975 -0.0015097 0.9996975 -0.0015097 0.0003025 0.0015097
45960691 0.0003246 0.0015963 0.9996754 -0.0015963 0.9996754 -0.0015963 0.0003246 0.0015963
46971230 0.0003513 0.0016874 0.9996487 -0.0016874 0.9996487 -0.0016874 0.0003513 0.0016874
48003987 0.0003845 0.0017836 0.9996155 -0.0017836 0.9996155 -0.0017836 0.0003845 0.0017836
49059451 0.0004267 0.0018857 0.9995733 -0.0018857 0.9995733 -0.0018857 0.0004267 0.0018857
50138122 0.0004816 0.0019939 0.9995184 -0.0019939 0.9995184 -0.0019939 0.0004816 0.0019939
51240510 0.0005550 0.0021077 0.9994450 -0.0021077 0.9994450 -0.0021077 0.0005550 0.0021077
52367136 0.0006556 0.0022241 0.9993444 -0.0022241 0.9993444 -0.0022241 0.0006556 0.0022241
53518533 0.0007959 0.0023344 0.9992041 -0.0023344 0.9992041 -0.0023344 0.0007959 0.0023344
54695245 0.0009898 0.0024161 0.9990102 -0.0024161 0.9990102 -0.0024161 0.0009898 0.0024161
55897831 0.0012396 0.0024228 0.9987604 -0.0024228 0.9987604 -0.0024228 0.0012396 0.0024228
57126857 0.0014971 0.0022889 0.9985029 -0.0022889 0.9985029 -0.0022889 0.0014971 0.0022889
58382906 0.0016336 0.0020056 0.9983664 -0.0020056 0.9983664 -0.0020056 0.0016336 0.0020056
59666572 0.0015509 0.0017116 0.9984491 -0.0017116 0.9984491 -0.0017116 0.0015509 0.0017116
60978462 0.0013277 0.0015613 0.9986723 -0.0015613 0.9986723 -0.0015613 0.0013277 0.0015613
62319196 0.0011000 0.0015634 0.9989000 -0.0015634 0.9989000 -0.0015634 0.0011000 0.0015634
63689409 0.0009276 0.0016533 0.9990724 -0.0016533 0.9990724 -0.0016533 0.0009276 0.0016533
65089750 0.0008125 0.0017806 0.9991875 -0.0017806 0.9991875 -0.0017806 0.0008125 0.0017806
66520879 0.0007416 0.0019204 0.9992584 -0.0019204 0.9992584 -0.0019204 0.0007416 0.0019204
67983474 0.0007026 0.0020626 0.9992974 -0.0020626 0.9992974 -0.0020626 0.0007026 0.0020626
69478228 0.0006871 0.0022040 0.9993129 -0.0022040 0.9993129 -0.0022040 0.0006871 0.0022040
71005847 0.0006903 0.0023440 0.9993097 -0.0023440 0.9993097 -0.0023440 0.0006903 0.0023440
72567054 0.0007097 0.0024829 0.9992903 -0.0024829 0.9992903 -0.0024829 0.0007097 0.0024829
74162587 0.0007445 0.0026213 0.9992555 -0.0026213 0.9992555 -0.0026213 0.0007445 0.0026213
75793201 0.0007956 0.0027593 0.9992044 -0.0027593 0.9992044 -0.0027593 0.0007956 0.0027593
77459667 0.0008653 0.0028963 0.9991347 -0.0028963 0.9991347 -0.0028963 0.0008653 0.0028963
79162774 0.0009569 0.0030303 0.9990431 -0.0030303 0.9990431 -0.0030303 0.0009569 0.0030303
80903327 0.0010752 0.0031569 0.9989248 -0.0031569 0.9989248 -0.0031569 0.0010752 0.0031569
82682150 0.0012251 0.0032679 0.9987749 -0.0032679 0.9987749 -0.0032679 0.0012251 0.0032679
84500083 0.0014101 0.0033493 0.9985899 -0.0033493 0.9985899 -0.0033493 0.0014101 0.0033493
86357988 0.0016271 0.0033794 0.9983729 -0.0033794 0.9983729 -0.0033794 0.0016271 0.0033794
88256743 0.0018580 0.0033321 0.9981420 -0.0033321 0.9981420 -0.0033321 0.0018580 0.0033321
90197245 0.0020617 0.0031890 0.9979383 -0.0031890 0.9979383 -0.0031890 0.0020617 0.0031890
92180413 0.0021803 0.0029630 0.9978197 -0.0029630 0.9978197 -0.0029630 0.0021803 0.0029630
94207185 0.0021713 0.0027108 0.9978287 -0.0027108 0.9978287 -0.0027108 0.0021713 0.0027108
96278520 0.0020427 0.0025063 0.9979573 -0.0025063 0.9979573 -0.0025063 0.0020427 0.0025063
98395398 0.0018457 0.0023949 0.9981543 -0.0023949 0.9981543 -0.0023949 0.0018457 0.0023949
100558819 0.0016361 0.0023778 0.9983639 -0.0023778 0.9983639 -0.0023778 0.0016361 0.0023778
102769807 0.0014483 0.0024322 0.9985517 -0.0024322 0.9985517 -0.0024322 0.0014483 0.0024322
105029408 0.0012950 0.0025321 0.9987050 -0.0025321 0.9987050 -0.0025321 0.0012950 0.0025321
107338692 0.0011768 0.0026577 0.9988232 -0.0026577 0.9988232 -0.0026577 0.0011768 0.0026577
