!Murata Part Number: GRM3192C2A393JA01
!These Parameters are Measured in Series Mode Connection
!Data Generated on Mar 30, 2021
!       o--ll--o
!Port1            Port2
!       o------o
!Operation Temp=25[degC], DC Bias Voltage=0[V]
!Freq. Start=1000[kHz] Stop=6[GHz] 401[Steps]
# Hz S RI R 50
!Freq.(Hz) S11(Real) S11(Imag) S21(Real) S21(Imag) S12(Real) S12(Imag) S22(Real) S22(Imag)
1000000 0.0017640 -0.0414496 0.9982360 0.0414496 0.9982360 0.0414496 0.0017640 -0.0414496
1021987 0.0016909 -0.0405585 0.9983091 0.0405585 0.9983091 0.0405585 0.0016909 -0.0405585
1044457 0.0016209 -0.0396862 0.9983791 0.0396862 0.9983791 0.0396862 0.0016209 -0.0396862
1067422 0.0015538 -0.0388326 0.9984462 0.0388326 0.9984462 0.0388326 0.0015538 -0.0388326
1090891 0.0014897 -0.0379971 0.9985103 0.0379971 0.9985103 0.0379971 0.0014897 -0.0379971
1114877 0.0014282 -0.0371793 0.9985718 0.0371793 0.9985718 0.0371793 0.0014282 -0.0371793
1139390 0.0013694 -0.0363790 0.9986306 0.0363790 0.9986306 0.0363790 0.0013694 -0.0363790
1164441 0.0013131 -0.0355956 0.9986869 0.0355956 0.9986869 0.0355956 0.0013131 -0.0355956
1190044 0.0012592 -0.0348290 0.9987408 0.0348290 0.9987408 0.0348290 0.0012592 -0.0348290
1216210 0.0012076 -0.0340787 0.9987924 0.0340787 0.9987924 0.0340787 0.0012076 -0.0340787
1242950 0.0011583 -0.0333443 0.9988417 0.0333443 0.9988417 0.0333443 0.0011583 -0.0333443
1270279 0.0011110 -0.0326257 0.9988890 0.0326257 0.9988890 0.0326257 0.0011110 -0.0326257
1298209 0.0010657 -0.0319223 0.9989343 0.0319223 0.9989343 0.0319223 0.0010657 -0.0319223
1326753 0.0010224 -0.0312339 0.9989776 0.0312339 0.9989776 0.0312339 0.0010224 -0.0312339
1355924 0.0009810 -0.0305601 0.9990190 0.0305601 0.9990190 0.0305601 0.0009810 -0.0305601
1385737 0.0009413 -0.0299008 0.9990587 0.0299008 0.9990587 0.0299008 0.0009413 -0.0299008
1416205 0.0009033 -0.0292555 0.9990967 0.0292555 0.9990967 0.0292555 0.0009033 -0.0292555
1447343 0.0008670 -0.0286239 0.9991330 0.0286239 0.9991330 0.0286239 0.0008670 -0.0286239
1479166 0.0008322 -0.0280058 0.9991678 0.0280058 0.9991678 0.0280058 0.0008322 -0.0280058
1511688 0.0007989 -0.0274009 0.9992011 0.0274009 0.9992011 0.0274009 0.0007989 -0.0274009
1544926 0.0007670 -0.0268088 0.9992330 0.0268088 0.9992330 0.0268088 0.0007670 -0.0268088
1578894 0.0007365 -0.0262294 0.9992635 0.0262294 0.9992635 0.0262294 0.0007365 -0.0262294
1613609 0.0007073 -0.0256624 0.9992927 0.0256624 0.9992927 0.0256624 0.0007073 -0.0256624
1649087 0.0006794 -0.0251074 0.9993206 0.0251074 0.9993206 0.0251074 0.0006794 -0.0251074
1685346 0.0006527 -0.0245642 0.9993473 0.0245642 0.9993473 0.0245642 0.0006527 -0.0245642
1722402 0.0006271 -0.0240327 0.9993729 0.0240327 0.9993729 0.0240327 0.0006271 -0.0240327
1760272 0.0006026 -0.0235124 0.9993974 0.0235124 0.9993974 0.0235124 0.0006026 -0.0235124
1798975 0.0005792 -0.0230033 0.9994208 0.0230033 0.9994208 0.0230033 0.0005792 -0.0230033
1838529 0.0005568 -0.0225049 0.9994432 0.0225049 0.9994432 0.0225049 0.0005568 -0.0225049
1878953 0.0005353 -0.0220172 0.9994647 0.0220172 0.9994647 0.0220172 0.0005353 -0.0220172
1920266 0.0005148 -0.0215399 0.9994852 0.0215399 0.9994852 0.0215399 0.0005148 -0.0215399
1962487 0.0004952 -0.0210728 0.9995048 0.0210728 0.9995048 0.0210728 0.0004952 -0.0210728
2005636 0.0004764 -0.0206156 0.9995236 0.0206156 0.9995236 0.0206156 0.0004764 -0.0206156
2049734 0.0004584 -0.0201681 0.9995416 0.0201681 0.9995416 0.0201681 0.0004584 -0.0201681
2094801 0.0004412 -0.0197301 0.9995588 0.0197301 0.9995588 0.0197301 0.0004412 -0.0197301
2140860 0.0004248 -0.0193015 0.9995752 0.0193015 0.9995752 0.0193015 0.0004248 -0.0193015
2187931 0.0004090 -0.0188820 0.9995910 0.0188820 0.9995910 0.0188820 0.0004090 -0.0188820
2236037 0.0003940 -0.0184714 0.9996060 0.0184714 0.9996060 0.0184714 0.0003940 -0.0184714
2285201 0.0003796 -0.0180695 0.9996204 0.0180695 0.9996204 0.0180695 0.0003796 -0.0180695
2335446 0.0003658 -0.0176761 0.9996342 0.0176761 0.9996342 0.0176761 0.0003658 -0.0176761
2386795 0.0003526 -0.0172911 0.9996474 0.0172911 0.9996474 0.0172911 0.0003526 -0.0172911
2439274 0.0003400 -0.0169143 0.9996600 0.0169143 0.9996600 0.0169143 0.0003400 -0.0169143
2492906 0.0003279 -0.0165455 0.9996721 0.0165455 0.9996721 0.0165455 0.0003279 -0.0165455
2547717 0.0003164 -0.0161845 0.9996836 0.0161845 0.9996836 0.0161845 0.0003164 -0.0161845
2603734 0.0003053 -0.0158311 0.9996947 0.0158311 0.9996947 0.0158311 0.0003053 -0.0158311
2660982 0.0002948 -0.0154852 0.9997052 0.0154852 0.9997052 0.0154852 0.0002948 -0.0154852
2719490 0.0002847 -0.0151467 0.9997153 0.0151467 0.9997153 0.0151467 0.0002847 -0.0151467
2779283 0.0002750 -0.0148153 0.9997250 0.0148153 0.9997250 0.0148153 0.0002750 -0.0148153
2840391 0.0002658 -0.0144909 0.9997342 0.0144909 0.9997342 0.0144909 0.0002658 -0.0144909
2902843 0.0002569 -0.0141733 0.9997431 0.0141733 0.9997431 0.0141733 0.0002569 -0.0141733
2966668 0.0002485 -0.0138625 0.9997515 0.0138625 0.9997515 0.0138625 0.0002485 -0.0138625
3031896 0.0002404 -0.0135582 0.9997596 0.0135582 0.9997596 0.0135582 0.0002404 -0.0135582
3098558 0.0002327 -0.0132603 0.9997673 0.0132603 0.9997673 0.0132603 0.0002327 -0.0132603
3166686 0.0002253 -0.0129687 0.9997747 0.0129687 0.9997747 0.0129687 0.0002253 -0.0129687
3236312 0.0002182 -0.0126833 0.9997818 0.0126833 0.9997818 0.0126833 0.0002182 -0.0126833
3307469 0.0002115 -0.0124038 0.9997885 0.0124038 0.9997885 0.0124038 0.0002115 -0.0124038
3380190 0.0002050 -0.0121302 0.9997950 0.0121302 0.9997950 0.0121302 0.0002050 -0.0121302
3454511 0.0001989 -0.0118623 0.9998011 0.0118623 0.9998011 0.0118623 0.0001989 -0.0118623
3530465 0.0001930 -0.0116001 0.9998070 0.0116001 0.9998070 0.0116001 0.0001930 -0.0116001
3608090 0.0001873 -0.0113433 0.9998127 0.0113433 0.9998127 0.0113433 0.0001873 -0.0113433
3687421 0.0001819 -0.0110919 0.9998181 0.0110919 0.9998181 0.0110919 0.0001819 -0.0110919
3768496 0.0001768 -0.0108458 0.9998232 0.0108458 0.9998232 0.0108458 0.0001768 -0.0108458
3851354 0.0001719 -0.0106048 0.9998281 0.0106048 0.9998281 0.0106048 0.0001719 -0.0106048
3936034 0.0001672 -0.0103688 0.9998328 0.0103688 0.9998328 0.0103688 0.0001672 -0.0103688
4022575 0.0001627 -0.0101377 0.9998373 0.0101377 0.9998373 0.0101377 0.0001627 -0.0101377
4111020 0.0001584 -0.0099114 0.9998416 0.0099114 0.9998416 0.0099114 0.0001584 -0.0099114
4201409 0.0001543 -0.0096898 0.9998457 0.0096898 0.9998457 0.0096898 0.0001543 -0.0096898
4293785 0.0001504 -0.0094728 0.9998496 0.0094728 0.9998496 0.0094728 0.0001504 -0.0094728
4388193 0.0001467 -0.0092602 0.9998533 0.0092602 0.9998533 0.0092602 0.0001467 -0.0092602
4484676 0.0001431 -0.0090521 0.9998569 0.0090521 0.9998569 0.0090521 0.0001431 -0.0090521
4583281 0.0001397 -0.0088482 0.9998603 0.0088482 0.9998603 0.0088482 0.0001397 -0.0088482
4684054 0.0001365 -0.0086485 0.9998635 0.0086485 0.9998635 0.0086485 0.0001365 -0.0086485
4787042 0.0001334 -0.0084530 0.9998666 0.0084530 0.9998666 0.0084530 0.0001334 -0.0084530
4892295 0.0001304 -0.0082614 0.9998696 0.0082614 0.9998696 0.0082614 0.0001304 -0.0082614
4999862 0.0001276 -0.0080737 0.9998724 0.0080737 0.9998724 0.0080737 0.0001276 -0.0080737
5109794 0.0001249 -0.0078898 0.9998751 0.0078898 0.9998751 0.0078898 0.0001249 -0.0078898
5222143 0.0001224 -0.0077097 0.9998776 0.0077097 0.9998776 0.0077097 0.0001224 -0.0077097
5336962 0.0001200 -0.0075333 0.9998800 0.0075333 0.9998800 0.0075333 0.0001200 -0.0075333
5454306 0.0001177 -0.0073604 0.9998823 0.0073604 0.9998823 0.0073604 0.0001177 -0.0073604
5574230 0.0001155 -0.0071909 0.9998845 0.0071909 0.9998845 0.0071909 0.0001155 -0.0071909
5696791 0.0001134 -0.0070249 0.9998866 0.0070249 0.9998866 0.0070249 0.0001134 -0.0070249
5822046 0.0001114 -0.0068622 0.9998886 0.0068622 0.9998886 0.0068622 0.0001114 -0.0068622
5950055 0.0001095 -0.0067028 0.9998905 0.0067028 0.9998905 0.0067028 0.0001095 -0.0067028
6080879 0.0001078 -0.0065465 0.9998922 0.0065465 0.9998922 0.0065465 0.0001078 -0.0065465
6214580 0.0001061 -0.0063933 0.9998939 0.0063933 0.9998939 0.0063933 0.0001061 -0.0063933
6351220 0.0001045 -0.0062432 0.9998955 0.0062432 0.9998955 0.0062432 0.0001045 -0.0062432
6490864 0.0001030 -0.0060960 0.9998970 0.0060960 0.9998970 0.0060960 0.0001030 -0.0060960
6633579 0.0001016 -0.0059517 0.9998984 0.0059517 0.9998984 0.0059517 0.0001016 -0.0059517
6779431 0.0001002 -0.0058102 0.9998998 0.0058102 0.9998998 0.0058102 0.0001002 -0.0058102
6928491 0.0000990 -0.0056715 0.9999010 0.0056715 0.9999010 0.0056715 0.0000990 -0.0056715
7080828 0.0000978 -0.0055355 0.9999022 0.0055355 0.9999022 0.0055355 0.0000978 -0.0055355
7236514 0.0000966 -0.0054020 0.9999034 0.0054020 0.9999034 0.0054020 0.0000966 -0.0054020
7395623 0.0000956 -0.0052712 0.9999044 0.0052712 0.9999044 0.0052712 0.0000956 -0.0052712
7558231 0.0000946 -0.0051428 0.9999054 0.0051428 0.9999054 0.0051428 0.0000946 -0.0051428
7724414 0.0000937 -0.0050169 0.9999063 0.0050169 0.9999063 0.0050169 0.0000937 -0.0050169
7894251 0.0000929 -0.0048933 0.9999071 0.0048933 0.9999071 0.0048933 0.0000929 -0.0048933
8067822 0.0000921 -0.0047721 0.9999079 0.0047721 0.9999079 0.0047721 0.0000921 -0.0047721
8245209 0.0000914 -0.0046531 0.9999086 0.0046531 0.9999086 0.0046531 0.0000914 -0.0046531
8426497 0.0000907 -0.0045363 0.9999093 0.0045363 0.9999093 0.0045363 0.0000907 -0.0045363
8611770 0.0000901 -0.0044217 0.9999099 0.0044217 0.9999099 0.0044217 0.0000901 -0.0044217
8801117 0.0000896 -0.0043092 0.9999104 0.0043092 0.9999104 0.0043092 0.0000896 -0.0043092
8994628 0.0000891 -0.0041987 0.9999109 0.0041987 0.9999109 0.0041987 0.0000891 -0.0041987
9192393 0.0000886 -0.0040902 0.9999114 0.0040902 0.9999114 0.0040902 0.0000886 -0.0040902
9394506 0.0000883 -0.0039836 0.9999117 0.0039836 0.9999117 0.0039836 0.0000883 -0.0039836
9601063 0.0000879 -0.0038790 0.9999121 0.0038790 0.9999121 0.0038790 0.0000879 -0.0038790
9812162 0.0000876 -0.0037761 0.9999124 0.0037761 0.9999124 0.0037761 0.0000876 -0.0037761
10027902 0.0000874 -0.0036751 0.9999126 0.0036751 0.9999126 0.0036751 0.0000874 -0.0036751
10248386 0.0000872 -0.0035758 0.9999128 0.0035758 0.9999128 0.0035758 0.0000872 -0.0035758
10473717 0.0000871 -0.0034782 0.9999129 0.0034782 0.9999129 0.0034782 0.0000871 -0.0034782
10704003 0.0000870 -0.0033822 0.9999130 0.0033822 0.9999130 0.0033822 0.0000870 -0.0033822
10939352 0.0000870 -0.0032879 0.9999130 0.0032879 0.9999130 0.0032879 0.0000870 -0.0032879
11179876 0.0000870 -0.0031950 0.9999130 0.0031950 0.9999130 0.0031950 0.0000870 -0.0031950
11425688 0.0000870 -0.0031038 0.9999130 0.0031038 0.9999130 0.0031038 0.0000870 -0.0031038
11676904 0.0000871 -0.0030139 0.9999129 0.0030139 0.9999129 0.0030139 0.0000871 -0.0030139
11933645 0.0000873 -0.0029255 0.9999127 0.0029255 0.9999127 0.0029255 0.0000873 -0.0029255
12196030 0.0000874 -0.0028385 0.9999126 0.0028385 0.9999126 0.0028385 0.0000874 -0.0028385
12464184 0.0000877 -0.0027529 0.9999123 0.0027529 0.9999123 0.0027529 0.0000877 -0.0027529
12738235 0.0000880 -0.0026685 0.9999120 0.0026685 0.9999120 0.0026685 0.0000880 -0.0026685
13018310 0.0000883 -0.0025854 0.9999117 0.0025854 0.9999117 0.0025854 0.0000883 -0.0025854
13304544 0.0000886 -0.0025035 0.9999114 0.0025035 0.9999114 0.0025035 0.0000886 -0.0025035
13597071 0.0000891 -0.0024228 0.9999109 0.0024228 0.9999109 0.0024228 0.0000891 -0.0024228
13896030 0.0000895 -0.0023432 0.9999105 0.0023432 0.9999105 0.0023432 0.0000895 -0.0023432
14201563 0.0000900 -0.0022648 0.9999100 0.0022648 0.9999100 0.0022648 0.0000900 -0.0022648
14513813 0.0000906 -0.0021874 0.9999094 0.0021874 0.9999094 0.0021874 0.0000906 -0.0021874
14832928 0.0000912 -0.0021110 0.9999088 0.0021110 0.9999088 0.0021110 0.0000912 -0.0021110
15159060 0.0000918 -0.0020357 0.9999082 0.0020357 0.9999082 0.0020357 0.0000918 -0.0020357
15492362 0.0000925 -0.0019613 0.9999075 0.0019613 0.9999075 0.0019613 0.0000925 -0.0019613
15832993 0.0000932 -0.0018878 0.9999068 0.0018878 0.9999068 0.0018878 0.0000932 -0.0018878
16181113 0.0000940 -0.0018152 0.9999060 0.0018152 0.9999060 0.0018152 0.0000940 -0.0018152
16536888 0.0000949 -0.0017434 0.9999051 0.0017434 0.9999051 0.0017434 0.0000949 -0.0017434
16900485 0.0000958 -0.0016724 0.9999042 0.0016724 0.9999042 0.0016724 0.0000958 -0.0016724
17272076 0.0000967 -0.0016023 0.9999033 0.0016023 0.9999033 0.0016023 0.0000967 -0.0016023
17651837 0.0000978 -0.0015328 0.9999022 0.0015328 0.9999022 0.0015328 0.0000978 -0.0015328
18039948 0.0000988 -0.0014641 0.9999012 0.0014641 0.9999012 0.0014641 0.0000988 -0.0014641
18436593 0.0001000 -0.0013960 0.9999000 0.0013960 0.9999000 0.0013960 0.0001000 -0.0013960
18841959 0.0001011 -0.0013286 0.9998989 0.0013286 0.9998989 0.0013286 0.0001011 -0.0013286
19256237 0.0001024 -0.0012618 0.9998976 0.0012618 0.9998976 0.0012618 0.0001024 -0.0012618
19679624 0.0001037 -0.0011955 0.9998963 0.0011955 0.9998963 0.0011955 0.0001037 -0.0011955
20112321 0.0001051 -0.0011298 0.9998949 0.0011298 0.9998949 0.0011298 0.0001051 -0.0011298
20554530 0.0001066 -0.0010645 0.9998934 0.0010645 0.9998934 0.0010645 0.0001066 -0.0010645
21006463 0.0001081 -0.0009998 0.9998919 0.0009998 0.9998919 0.0009998 0.0001081 -0.0009998
21468333 0.0001097 -0.0009354 0.9998903 0.0009354 0.9998903 0.0009354 0.0001097 -0.0009354
21940357 0.0001114 -0.0008715 0.9998886 0.0008715 0.9998886 0.0008715 0.0001114 -0.0008715
22422760 0.0001132 -0.0008079 0.9998868 0.0008079 0.9998868 0.0008079 0.0001132 -0.0008079
22915770 0.0001151 -0.0007446 0.9998849 0.0007446 0.9998849 0.0007446 0.0001151 -0.0007446
23419619 0.0001170 -0.0006816 0.9998830 0.0006816 0.9998830 0.0006816 0.0001170 -0.0006816
23934547 0.0001191 -0.0006189 0.9998809 0.0006189 0.9998809 0.0006189 0.0001191 -0.0006189
24460796 0.0001213 -0.0005564 0.9998787 0.0005564 0.9998787 0.0005564 0.0001213 -0.0005564
24998616 0.0001236 -0.0004940 0.9998764 0.0004940 0.9998764 0.0004940 0.0001236 -0.0004940
25548261 0.0001260 -0.0004318 0.9998740 0.0004318 0.9998740 0.0004318 0.0001260 -0.0004318
26109991 0.0001285 -0.0003697 0.9998715 0.0003697 0.9998715 0.0003697 0.0001285 -0.0003697
26684072 0.0001311 -0.0003076 0.9998689 0.0003076 0.9998689 0.0003076 0.0001311 -0.0003076
27270775 0.0001339 -0.0002456 0.9998661 0.0002456 0.9998661 0.0002456 0.0001339 -0.0002456
27870378 0.0001369 -0.0001835 0.9998631 0.0001835 0.9998631 0.0001835 0.0001369 -0.0001835
28483164 0.0001399 -0.0001214 0.9998601 0.0001214 0.9998601 0.0001214 0.0001399 -0.0001214
29109424 0.0001432 -0.0000591 0.9998568 0.0000591 0.9998568 0.0000591 0.0001432 -0.0000591
29749453 0.0001466 0.0000033 0.9998534 -0.0000033 0.9998534 -0.0000033 0.0001466 0.0000033
30403555 0.0001503 0.0000660 0.9998497 -0.0000660 0.9998497 -0.0000660 0.0001503 0.0000660
31072038 0.0001541 0.0001289 0.9998459 -0.0001289 0.9998459 -0.0001289 0.0001541 0.0001289
31755220 0.0001582 0.0001921 0.9998418 -0.0001921 0.9998418 -0.0001921 0.0001582 0.0001921
32453422 0.0001625 0.0002558 0.9998375 -0.0002558 0.9998375 -0.0002558 0.0001625 0.0002558
33166976 0.0001670 0.0003198 0.9998330 -0.0003198 0.9998330 -0.0003198 0.0001670 0.0003198
33896219 0.0001719 0.0003844 0.9998281 -0.0003844 0.9998281 -0.0003844 0.0001719 0.0003844
34641496 0.0001771 0.0004496 0.9998229 -0.0004496 0.9998229 -0.0004496 0.0001771 0.0004496
35403159 0.0001826 0.0005155 0.9998174 -0.0005155 0.9998174 -0.0005155 0.0001826 0.0005155
36181569 0.0001885 0.0005821 0.9998115 -0.0005821 0.9998115 -0.0005821 0.0001885 0.0005821
36977093 0.0001948 0.0006496 0.9998052 -0.0006496 0.9998052 -0.0006496 0.0001948 0.0006496
37790109 0.0002016 0.0007180 0.9997984 -0.0007180 0.9997984 -0.0007180 0.0002016 0.0007180
38621001 0.0002090 0.0007876 0.9997910 -0.0007876 0.9997910 -0.0007876 0.0002090 0.0007876
39470161 0.0002170 0.0008584 0.9997830 -0.0008584 0.9997830 -0.0008584 0.0002170 0.0008584
40337993 0.0002257 0.0009306 0.9997743 -0.0009306 0.9997743 -0.0009306 0.0002257 0.0009306
41224905 0.0002352 0.0010043 0.9997648 -0.0010043 0.9997648 -0.0010043 0.0002352 0.0010043
42131317 0.0002457 0.0010799 0.9997543 -0.0010799 0.9997543 -0.0010799 0.0002457 0.0010799
43057659 0.0002574 0.0011574 0.9997426 -0.0011574 0.9997426 -0.0011574 0.0002574 0.0011574
44004369 0.0002704 0.0012373 0.9997296 -0.0012373 0.9997296 -0.0012373 0.0002704 0.0012373
44971893 0.0002852 0.0013198 0.9997148 -0.0013198 0.9997148 -0.0013198 0.0002852 0.0013198
45960691 0.0003020 0.0014055 0.9996980 -0.0014055 0.9996980 -0.0014055 0.0003020 0.0014055
46971230 0.0003215 0.0014946 0.9996785 -0.0014946 0.9996785 -0.0014946 0.0003215 0.0014946
48003987 0.0003444 0.0015880 0.9996556 -0.0015880 0.9996556 -0.0015880 0.0003444 0.0015880
49059451 0.0003718 0.0016862 0.9996282 -0.0016862 0.9996282 -0.0016862 0.0003718 0.0016862
50138122 0.0004052 0.0017900 0.9995948 -0.0017900 0.9995948 -0.0017900 0.0004052 0.0017900
51240510 0.0004469 0.0019005 0.9995531 -0.0019005 0.9995531 -0.0019005 0.0004469 0.0019005
52367136 0.0005002 0.0020184 0.9994998 -0.0020184 0.9994998 -0.0020184 0.0005002 0.0020184
53518533 0.0005706 0.0021444 0.9994294 -0.0021444 0.9994294 -0.0021444 0.0005706 0.0021444
54695245 0.0006661 0.0022775 0.9993339 -0.0022775 0.9993339 -0.0022775 0.0006661 0.0022775
55897831 0.0007995 0.0024133 0.9992005 -0.0024133 0.9992005 -0.0024133 0.0007995 0.0024133
57126857 0.0009890 0.0025376 0.9990110 -0.0025376 0.9990110 -0.0025376 0.0009890 0.0025376
58382906 0.0012538 0.0026136 0.9987462 -0.0026136 0.9987462 -0.0026136 0.0012538 0.0026136
59666572 0.0015863 0.0025661 0.9984137 -0.0025661 0.9984137 -0.0025661 0.0015863 0.0025661
60978462 0.0018850 0.0023093 0.9981150 -0.0023093 0.9981150 -0.0023093 0.0018850 0.0023093
62319196 0.0019530 0.0018976 0.9980470 -0.0018976 0.9980470 -0.0018976 0.0019530 0.0018976
63689409 0.0017430 0.0015741 0.9982570 -0.0015741 0.9982570 -0.0015741 0.0017430 0.0015741
65089750 0.0014369 0.0014722 0.9985631 -0.0014722 0.9985631 -0.0014722 0.0014369 0.0014722
66520879 0.0011804 0.0015314 0.9988196 -0.0015314 0.9988196 -0.0015314 0.0011804 0.0015314
67983474 0.0010044 0.0016643 0.9989956 -0.0016643 0.9989956 -0.0016643 0.0010044 0.0016643
69478228 0.0008941 0.0018224 0.9991059 -0.0018224 0.9991059 -0.0018224 0.0008941 0.0018224
71005847 0.0008305 0.0019862 0.9991695 -0.0019862 0.9991695 -0.0019862 0.0008305 0.0019862
72567054 0.0007999 0.0021491 0.9992001 -0.0021491 0.9992001 -0.0021491 0.0007999 0.0021491
74162587 0.0007940 0.0023099 0.9992060 -0.0023099 0.9992060 -0.0023099 0.0007940 0.0023099
75793201 0.0008083 0.0024692 0.9991917 -0.0024692 0.9991917 -0.0024692 0.0008083 0.0024692
77459667 0.0008411 0.0026283 0.9991589 -0.0026283 0.9991589 -0.0026283 0.0008411 0.0026283
79162774 0.0008930 0.0027881 0.9991070 -0.0027881 0.9991070 -0.0027881 0.0008930 0.0027881
80903327 0.0009665 0.0029490 0.9990335 -0.0029490 0.9990335 -0.0029490 0.0009665 0.0029490
82682150 0.0010661 0.0031104 0.9989339 -0.0031104 0.9989339 -0.0031104 0.0010661 0.0031104
84500083 0.0011990 0.0032690 0.9988010 -0.0032690 0.9988010 -0.0032690 0.0011990 0.0032690
86357988 0.0013745 0.0034170 0.9986255 -0.0034170 0.9986255 -0.0034170 0.0013745 0.0034170
88256743 0.0016031 0.0035383 0.9983969 -0.0035383 0.9983969 -0.0035383 0.0016031 0.0035383
90197245 0.0018912 0.0036030 0.9981088 -0.0036030 0.9981088 -0.0036030 0.0018912 0.0036030
92180413 0.0022266 0.0035649 0.9977734 -0.0035649 0.9977734 -0.0035649 0.0022266 0.0035649
94207185 0.0025557 0.0033742 0.9974443 -0.0033742 0.9974443 -0.0033742 0.0025557 0.0033742
96278520 0.0027736 0.0030248 0.9972264 -0.0030248 0.9972264 -0.0030248 0.0027736 0.0030248
98395398 0.0027814 0.0026065 0.9972186 -0.0026065 0.9972186 -0.0026065 0.0027814 0.0026065
100558819 0.0025821 0.0022645 0.9974179 -0.0022645 0.9974179 -0.0022645 0.0025821 0.0022645
102769807 0.0022777 0.0020839 0.9977223 -0.0020839 0.9977223 -0.0020839 0.0022777 0.0020839
105029408 0.0019712 0.0020546 0.9980288 -0.0020546 0.9980288 -0.0020546 0.0019712 0.0020546
107338692 0.0017141 0.0021256 0.9982859 -0.0021256 0.9982859 -0.0021256 0.0017141 0.0021256
