!Murata Part Number: GRM31A7U3A101JW31
!These Parameters are Measured in Series Mode Connection
!Data Generated on Mar 30, 2021
!       o--ll--o
!Port1            Port2
!       o------o
!Operation Temp=25[degC], DC Bias Voltage=0[V]
!Freq. Start=100[MHz] Stop=3[GHz] 401[Steps]
# Hz S RI R 50
!Freq.(Hz) S11(Real) S11(Imag) S21(Real) S21(Imag) S12(Real) S12(Imag) S22(Real) S22(Imag)
100000000 0.0243055 -0.1499239 0.9756945 0.1499239 0.9756945 0.1499239 0.0243055 -0.1499239
107250000 0.0211545 -0.1395141 0.9788455 0.1395141 0.9788455 0.1395141 0.0211545 -0.1395141
114500000 0.0185690 -0.1302953 0.9814310 0.1302953 0.9814310 0.1302953 0.0185690 -0.1302953
121750000 0.0164226 -0.1220712 0.9835774 0.1220712 0.9835774 0.1220712 0.0164226 -0.1220712
129000000 0.0146219 -0.1146856 0.9853781 0.1146856 0.9853781 0.1146856 0.0146219 -0.1146856
136250000 0.0130972 -0.1080128 0.9869028 0.1080128 0.9869028 0.1080128 0.0130972 -0.1080128
143500000 0.0117953 -0.1019506 0.9882047 0.1019506 0.9882047 0.1019506 0.0117953 -0.1019506
150750000 0.0106753 -0.0964152 0.9893247 0.0964152 0.9893247 0.0964152 0.0106753 -0.0964152
158000000 0.0097053 -0.0913374 0.9902947 0.0913374 0.9902947 0.0913374 0.0097053 -0.0913374
165250000 0.0088599 -0.0866592 0.9911401 0.0866592 0.9911401 0.0866592 0.0088599 -0.0866592
172500000 0.0081191 -0.0823323 0.9918809 0.0823323 0.9918809 0.0823323 0.0081191 -0.0823323
179750000 0.0074666 -0.0783154 0.9925334 0.0783154 0.9925334 0.0783154 0.0074666 -0.0783154
187000000 0.0068893 -0.0745736 0.9931107 0.0745736 0.9931107 0.0745736 0.0068893 -0.0745736
194250000 0.0063762 -0.0710771 0.9936238 0.0710771 0.9936238 0.0710771 0.0063762 -0.0710771
201500000 0.0059184 -0.0678000 0.9940816 0.0678000 0.9940816 0.0678000 0.0059184 -0.0678000
208750000 0.0055086 -0.0647200 0.9944914 0.0647200 0.9944914 0.0647200 0.0055086 -0.0647200
216000000 0.0051405 -0.0618177 0.9948595 0.0618177 0.9948595 0.0618177 0.0051405 -0.0618177
223250000 0.0048089 -0.0590761 0.9951911 0.0590761 0.9951911 0.0590761 0.0048089 -0.0590761
230500000 0.0045094 -0.0564805 0.9954906 0.0564805 0.9954906 0.0564805 0.0045094 -0.0564805
237750000 0.0042381 -0.0540176 0.9957619 0.0540176 0.9957619 0.0540176 0.0042381 -0.0540176
245000000 0.0039919 -0.0516759 0.9960081 0.0516759 0.9960081 0.0516759 0.0039919 -0.0516759
252250000 0.0037679 -0.0494451 0.9962321 0.0494451 0.9962321 0.0494451 0.0037679 -0.0494451
259500000 0.0035638 -0.0473160 0.9964362 0.0473160 0.9964362 0.0473160 0.0035638 -0.0473160
266750000 0.0033775 -0.0452805 0.9966225 0.0452805 0.9966225 0.0452805 0.0033775 -0.0452805
274000000 0.0032073 -0.0433311 0.9967927 0.0433311 0.9967927 0.0433311 0.0032073 -0.0433311
281250000 0.0030514 -0.0414614 0.9969486 0.0414614 0.9969486 0.0414614 0.0030514 -0.0414614
288500000 0.0029086 -0.0396654 0.9970914 0.0396654 0.9970914 0.0396654 0.0029086 -0.0396654
295750000 0.0027776 -0.0379377 0.9972224 0.0379377 0.9972224 0.0379377 0.0027776 -0.0379377
303000000 0.0026573 -0.0362735 0.9973427 0.0362735 0.9973427 0.0362735 0.0026573 -0.0362735
310250000 0.0025468 -0.0346683 0.9974532 0.0346683 0.9974532 0.0346683 0.0025468 -0.0346683
317500000 0.0024453 -0.0331181 0.9975547 0.0331181 0.9975547 0.0331181 0.0024453 -0.0331181
324750000 0.0023519 -0.0316192 0.9976481 0.0316192 0.9976481 0.0316192 0.0023519 -0.0316192
332000000 0.0022661 -0.0301684 0.9977339 0.0301684 0.9977339 0.0301684 0.0022661 -0.0301684
339250000 0.0021872 -0.0287625 0.9978128 0.0287625 0.9978128 0.0287625 0.0021872 -0.0287625
346500000 0.0021147 -0.0273988 0.9978853 0.0273988 0.9978853 0.0273988 0.0021147 -0.0273988
353750000 0.0020481 -0.0260746 0.9979519 0.0260746 0.9979519 0.0260746 0.0020481 -0.0260746
361000000 0.0019870 -0.0247876 0.9980130 0.0247876 0.9980130 0.0247876 0.0019870 -0.0247876
368250000 0.0019310 -0.0235356 0.9980690 0.0235356 0.9980690 0.0235356 0.0019310 -0.0235356
375500000 0.0018796 -0.0223165 0.9981204 0.0223165 0.9981204 0.0223165 0.0018796 -0.0223165
382750000 0.0018327 -0.0211285 0.9981673 0.0211285 0.9981673 0.0211285 0.0018327 -0.0211285
390000000 0.0017899 -0.0199699 0.9982101 0.0199699 0.9982101 0.0199699 0.0017899 -0.0199699
397250000 0.0017509 -0.0188390 0.9982491 0.0188390 0.9982491 0.0188390 0.0017509 -0.0188390
404500000 0.0017155 -0.0177344 0.9982845 0.0177344 0.9982845 0.0177344 0.0017155 -0.0177344
411750000 0.0016835 -0.0166546 0.9983165 0.0166546 0.9983165 0.0166546 0.0016835 -0.0166546
419000000 0.0016547 -0.0155983 0.9983453 0.0155983 0.9983453 0.0155983 0.0016547 -0.0155983
426250000 0.0016288 -0.0145644 0.9983712 0.0145644 0.9983712 0.0145644 0.0016288 -0.0145644
433500000 0.0016058 -0.0135517 0.9983942 0.0135517 0.9983942 0.0135517 0.0016058 -0.0135517
440750000 0.0015855 -0.0125591 0.9984145 0.0125591 0.9984145 0.0125591 0.0015855 -0.0125591
448000000 0.0015677 -0.0115858 0.9984323 0.0115858 0.9984323 0.0115858 0.0015677 -0.0115858
455250000 0.0015522 -0.0106306 0.9984478 0.0106306 0.9984478 0.0106306 0.0015522 -0.0106306
462500000 0.0015391 -0.0096929 0.9984609 0.0096929 0.9984609 0.0096929 0.0015391 -0.0096929
469750000 0.0015281 -0.0087717 0.9984719 0.0087717 0.9984719 0.0087717 0.0015281 -0.0087717
477000000 0.0015191 -0.0078663 0.9984809 0.0078663 0.9984809 0.0078663 0.0015191 -0.0078663
484250000 0.0015121 -0.0069760 0.9984879 0.0069760 0.9984879 0.0069760 0.0015121 -0.0069760
491500000 0.0015070 -0.0061000 0.9984930 0.0061000 0.9984930 0.0061000 0.0015070 -0.0061000
498750000 0.0015037 -0.0052378 0.9984963 0.0052378 0.9984963 0.0052378 0.0015037 -0.0052378
506000000 0.0015020 -0.0043888 0.9984980 0.0043888 0.9984980 0.0043888 0.0015020 -0.0043888
513250000 0.0015021 -0.0035523 0.9984979 0.0035523 0.9984979 0.0035523 0.0015021 -0.0035523
520500000 0.0015037 -0.0027279 0.9984963 0.0027279 0.9984963 0.0027279 0.0015037 -0.0027279
527750000 0.0015068 -0.0019150 0.9984932 0.0019150 0.9984932 0.0019150 0.0015068 -0.0019150
535000000 0.0015113 -0.0011132 0.9984887 0.0011132 0.9984887 0.0011132 0.0015113 -0.0011132
542250000 0.0015173 -0.0003220 0.9984827 0.0003220 0.9984827 0.0003220 0.0015173 -0.0003220
549500000 0.0015247 0.0004591 0.9984753 -0.0004591 0.9984753 -0.0004591 0.0015247 0.0004591
556750000 0.0015333 0.0012304 0.9984667 -0.0012304 0.9984667 -0.0012304 0.0015333 0.0012304
564000000 0.0015432 0.0019924 0.9984568 -0.0019924 0.9984568 -0.0019924 0.0015432 0.0019924
571250000 0.0015544 0.0027454 0.9984456 -0.0027454 0.9984456 -0.0027454 0.0015544 0.0027454
578500000 0.0015667 0.0034897 0.9984333 -0.0034897 0.9984333 -0.0034897 0.0015667 0.0034897
585750000 0.0015802 0.0042258 0.9984198 -0.0042258 0.9984198 -0.0042258 0.0015802 0.0042258
593000000 0.0015948 0.0049538 0.9984052 -0.0049538 0.9984052 -0.0049538 0.0015948 0.0049538
600250000 0.0016105 0.0056742 0.9983895 -0.0056742 0.9983895 -0.0056742 0.0016105 0.0056742
607500000 0.0016273 0.0063872 0.9983727 -0.0063872 0.9983727 -0.0063872 0.0016273 0.0063872
614750000 0.0016451 0.0070931 0.9983549 -0.0070931 0.9983549 -0.0070931 0.0016451 0.0070931
622000000 0.0016640 0.0077921 0.9983360 -0.0077921 0.9983360 -0.0077921 0.0016640 0.0077921
629250000 0.0016838 0.0084845 0.9983162 -0.0084845 0.9983162 -0.0084845 0.0016838 0.0084845
636500000 0.0017046 0.0091706 0.9982954 -0.0091706 0.9982954 -0.0091706 0.0017046 0.0091706
643750000 0.0017263 0.0098505 0.9982737 -0.0098505 0.9982737 -0.0098505 0.0017263 0.0098505
651000000 0.0017489 0.0105246 0.9982511 -0.0105246 0.9982511 -0.0105246 0.0017489 0.0105246
658250000 0.0017725 0.0111929 0.9982275 -0.0111929 0.9982275 -0.0111929 0.0017725 0.0111929
665500000 0.0017970 0.0118558 0.9982030 -0.0118558 0.9982030 -0.0118558 0.0017970 0.0118558
672750000 0.0018223 0.0125133 0.9981777 -0.0125133 0.9981777 -0.0125133 0.0018223 0.0125133
680000000 0.0018485 0.0131657 0.9981515 -0.0131657 0.9981515 -0.0131657 0.0018485 0.0131657
687250000 0.0018755 0.0138132 0.9981245 -0.0138132 0.9981245 -0.0138132 0.0018755 0.0138132
694500000 0.0019034 0.0144559 0.9980966 -0.0144559 0.9980966 -0.0144559 0.0019034 0.0144559
701750000 0.0019321 0.0150940 0.9980679 -0.0150940 0.9980679 -0.0150940 0.0019321 0.0150940
709000000 0.0019616 0.0157276 0.9980384 -0.0157276 0.9980384 -0.0157276 0.0019616 0.0157276
716250000 0.0019920 0.0163570 0.9980080 -0.0163570 0.9980080 -0.0163570 0.0019920 0.0163570
723500000 0.0020231 0.0169822 0.9979769 -0.0169822 0.9979769 -0.0169822 0.0020231 0.0169822
730750000 0.0020550 0.0176034 0.9979450 -0.0176034 0.9979450 -0.0176034 0.0020550 0.0176034
738000000 0.0020876 0.0182207 0.9979124 -0.0182207 0.9979124 -0.0182207 0.0020876 0.0182207
745250000 0.0021210 0.0188342 0.9978790 -0.0188342 0.9978790 -0.0188342 0.0021210 0.0188342
752500000 0.0021552 0.0194442 0.9978448 -0.0194442 0.9978448 -0.0194442 0.0021552 0.0194442
759750000 0.0021902 0.0200506 0.9978098 -0.0200506 0.9978098 -0.0200506 0.0021902 0.0200506
767000000 0.0022258 0.0206536 0.9977742 -0.0206536 0.9977742 -0.0206536 0.0022258 0.0206536
774250000 0.0022622 0.0212534 0.9977378 -0.0212534 0.9977378 -0.0212534 0.0022622 0.0212534
781500000 0.0022994 0.0218499 0.9977006 -0.0218499 0.9977006 -0.0218499 0.0022994 0.0218499
788750000 0.0023373 0.0224434 0.9976627 -0.0224434 0.9976627 -0.0224434 0.0023373 0.0224434
796000000 0.0023759 0.0230340 0.9976241 -0.0230340 0.9976241 -0.0230340 0.0023759 0.0230340
803250000 0.0024152 0.0236217 0.9975848 -0.0236217 0.9975848 -0.0236217 0.0024152 0.0236217
810500000 0.0024552 0.0242066 0.9975448 -0.0242066 0.9975448 -0.0242066 0.0024552 0.0242066
817750000 0.0024960 0.0247888 0.9975040 -0.0247888 0.9975040 -0.0247888 0.0024960 0.0247888
825000000 0.0025374 0.0253684 0.9974626 -0.0253684 0.9974626 -0.0253684 0.0025374 0.0253684
832250000 0.0025796 0.0259455 0.9974204 -0.0259455 0.9974204 -0.0259455 0.0025796 0.0259455
839500000 0.0026224 0.0265201 0.9973776 -0.0265201 0.9973776 -0.0265201 0.0026224 0.0265201
846750000 0.0026660 0.0270925 0.9973340 -0.0270925 0.9973340 -0.0270925 0.0026660 0.0270925
854000000 0.0027103 0.0276625 0.9972897 -0.0276625 0.9972897 -0.0276625 0.0027103 0.0276625
861250000 0.0027552 0.0282303 0.9972448 -0.0282303 0.9972448 -0.0282303 0.0027552 0.0282303
868500000 0.0028009 0.0287961 0.9971991 -0.0287961 0.9971991 -0.0287961 0.0028009 0.0287961
875750000 0.0028473 0.0293597 0.9971527 -0.0293597 0.9971527 -0.0293597 0.0028473 0.0293597
883000000 0.0028943 0.0299214 0.9971057 -0.0299214 0.9971057 -0.0299214 0.0028943 0.0299214
890250000 0.0029421 0.0304811 0.9970579 -0.0304811 0.9970579 -0.0304811 0.0029421 0.0304811
897500000 0.0029905 0.0310390 0.9970095 -0.0310390 0.9970095 -0.0310390 0.0029905 0.0310390
904750000 0.0030397 0.0315951 0.9969603 -0.0315951 0.9969603 -0.0315951 0.0030397 0.0315951
912000000 0.0030895 0.0321494 0.9969105 -0.0321494 0.9969105 -0.0321494 0.0030895 0.0321494
919250000 0.0031400 0.0327021 0.9968600 -0.0327021 0.9968600 -0.0327021 0.0031400 0.0327021
926500000 0.0031913 0.0332531 0.9968087 -0.0332531 0.9968087 -0.0332531 0.0031913 0.0332531
933750000 0.0032432 0.0338026 0.9967568 -0.0338026 0.9967568 -0.0338026 0.0032432 0.0338026
941000000 0.0032959 0.0343506 0.9967041 -0.0343506 0.9967041 -0.0343506 0.0032959 0.0343506
948250000 0.0033492 0.0348971 0.9966508 -0.0348971 0.9966508 -0.0348971 0.0033492 0.0348971
955500000 0.0034032 0.0354422 0.9965968 -0.0354422 0.9965968 -0.0354422 0.0034032 0.0354422
962750000 0.0034580 0.0359859 0.9965420 -0.0359859 0.9965420 -0.0359859 0.0034580 0.0359859
970000000 0.0035135 0.0365283 0.9964865 -0.0365283 0.9964865 -0.0365283 0.0035135 0.0365283
977250000 0.0035696 0.0370695 0.9964304 -0.0370695 0.9964304 -0.0370695 0.0035696 0.0370695
984500000 0.0036265 0.0376095 0.9963735 -0.0376095 0.9963735 -0.0376095 0.0036265 0.0376095
991750000 0.0036841 0.0381483 0.9963159 -0.0381483 0.9963159 -0.0381483 0.0036841 0.0381483
999000000 0.0037425 0.0386859 0.9962575 -0.0386859 0.9962575 -0.0386859 0.0037425 0.0386859
1006250000 0.0038015 0.0392225 0.9961985 -0.0392225 0.9961985 -0.0392225 0.0038015 0.0392225
1013500000 0.0038613 0.0397581 0.9961387 -0.0397581 0.9961387 -0.0397581 0.0038613 0.0397581
1020750000 0.0039218 0.0402926 0.9960782 -0.0402926 0.9960782 -0.0402926 0.0039218 0.0402926
1028000000 0.0039831 0.0408262 0.9960169 -0.0408262 0.9960169 -0.0408262 0.0039831 0.0408262
1035250000 0.0040451 0.0413589 0.9959549 -0.0413589 0.9959549 -0.0413589 0.0040451 0.0413589
1042500000 0.0041078 0.0418907 0.9958922 -0.0418907 0.9958922 -0.0418907 0.0041078 0.0418907
1049750000 0.0041713 0.0424216 0.9958287 -0.0424216 0.9958287 -0.0424216 0.0041713 0.0424216
1057000000 0.0042355 0.0429518 0.9957645 -0.0429518 0.9957645 -0.0429518 0.0042355 0.0429518
1064250000 0.0043005 0.0434811 0.9956995 -0.0434811 0.9956995 -0.0434811 0.0043005 0.0434811
1071500000 0.0043663 0.0440098 0.9956337 -0.0440098 0.9956337 -0.0440098 0.0043663 0.0440098
1078750000 0.0044329 0.0445377 0.9955671 -0.0445377 0.9955671 -0.0445377 0.0044329 0.0445377
1086000000 0.0045002 0.0450650 0.9954998 -0.0450650 0.9954998 -0.0450650 0.0045002 0.0450650
1093250000 0.0045683 0.0455916 0.9954317 -0.0455916 0.9954317 -0.0455916 0.0045683 0.0455916
1100500000 0.0046372 0.0461177 0.9953628 -0.0461177 0.9953628 -0.0461177 0.0046372 0.0461177
1107750000 0.0047069 0.0466431 0.9952931 -0.0466431 0.9952931 -0.0466431 0.0047069 0.0466431
1115000000 0.0047774 0.0471681 0.9952226 -0.0471681 0.9952226 -0.0471681 0.0047774 0.0471681
1122250000 0.0048488 0.0476925 0.9951512 -0.0476925 0.9951512 -0.0476925 0.0048488 0.0476925
1129500000 0.0049209 0.0482165 0.9950791 -0.0482165 0.9950791 -0.0482165 0.0049209 0.0482165
1136750000 0.0049939 0.0487400 0.9950061 -0.0487400 0.9950061 -0.0487400 0.0049939 0.0487400
1144000000 0.0050677 0.0492631 0.9949323 -0.0492631 0.9949323 -0.0492631 0.0050677 0.0492631
1151250000 0.0051424 0.0497858 0.9948576 -0.0497858 0.9948576 -0.0497858 0.0051424 0.0497858
1158500000 0.0052179 0.0503081 0.9947821 -0.0503081 0.9947821 -0.0503081 0.0052179 0.0503081
1165750000 0.0052943 0.0508301 0.9947057 -0.0508301 0.9947057 -0.0508301 0.0052943 0.0508301
1173000000 0.0053715 0.0513518 0.9946285 -0.0513518 0.9946285 -0.0513518 0.0053715 0.0513518
1180250000 0.0054497 0.0518733 0.9945503 -0.0518733 0.9945503 -0.0518733 0.0054497 0.0518733
1187500000 0.0055287 0.0523944 0.9944713 -0.0523944 0.9944713 -0.0523944 0.0055287 0.0523944
1194750000 0.0056086 0.0529154 0.9943914 -0.0529154 0.9943914 -0.0529154 0.0056086 0.0529154
1202000000 0.0056895 0.0534362 0.9943105 -0.0534362 0.9943105 -0.0534362 0.0056895 0.0534362
1209250000 0.0057713 0.0539567 0.9942287 -0.0539567 0.9942287 -0.0539567 0.0057713 0.0539567
1216500000 0.0058541 0.0544772 0.9941459 -0.0544772 0.9941459 -0.0544772 0.0058541 0.0544772
1223750000 0.0059377 0.0549975 0.9940623 -0.0549975 0.9940623 -0.0549975 0.0059377 0.0549975
1231000000 0.0060224 0.0555177 0.9939776 -0.0555177 0.9939776 -0.0555177 0.0060224 0.0555177
1238250000 0.0061081 0.0560378 0.9938919 -0.0560378 0.9938919 -0.0560378 0.0061081 0.0560378
1245500000 0.0061947 0.0565579 0.9938053 -0.0565579 0.9938053 -0.0565579 0.0061947 0.0565579
1252750000 0.0062823 0.0570780 0.9937177 -0.0570780 0.9937177 -0.0570780 0.0062823 0.0570780
1260000000 0.0063710 0.0575980 0.9936290 -0.0575980 0.9936290 -0.0575980 0.0063710 0.0575980
1267250000 0.0064608 0.0581181 0.9935392 -0.0581181 0.9935392 -0.0581181 0.0064608 0.0581181
1274500000 0.0065515 0.0586382 0.9934485 -0.0586382 0.9934485 -0.0586382 0.0065515 0.0586382
1281750000 0.0066434 0.0591583 0.9933566 -0.0591583 0.9933566 -0.0591583 0.0066434 0.0591583
1289000000 0.0067363 0.0596786 0.9932637 -0.0596786 0.9932637 -0.0596786 0.0067363 0.0596786
1296250000 0.0068304 0.0601989 0.9931696 -0.0601989 0.9931696 -0.0601989 0.0068304 0.0601989
1303500000 0.0069256 0.0607194 0.9930744 -0.0607194 0.9930744 -0.0607194 0.0069256 0.0607194
1310750000 0.0070219 0.0612400 0.9929781 -0.0612400 0.9929781 -0.0612400 0.0070219 0.0612400
1318000000 0.0071195 0.0617608 0.9928805 -0.0617608 0.9928805 -0.0617608 0.0071195 0.0617608
1325250000 0.0072182 0.0622817 0.9927818 -0.0622817 0.9927818 -0.0622817 0.0072182 0.0622817
1332500000 0.0073181 0.0628029 0.9926819 -0.0628029 0.9926819 -0.0628029 0.0073181 0.0628029
1339750000 0.0074193 0.0633243 0.9925807 -0.0633243 0.9925807 -0.0633243 0.0074193 0.0633243
1347000000 0.0075217 0.0638459 0.9924783 -0.0638459 0.9924783 -0.0638459 0.0075217 0.0638459
1354250000 0.0076254 0.0643678 0.9923746 -0.0643678 0.9923746 -0.0643678 0.0076254 0.0643678
1361500000 0.0077305 0.0648899 0.9922695 -0.0648899 0.9922695 -0.0648899 0.0077305 0.0648899
1368750000 0.0078368 0.0654123 0.9921632 -0.0654123 0.9921632 -0.0654123 0.0078368 0.0654123
1376000000 0.0079446 0.0659351 0.9920554 -0.0659351 0.9920554 -0.0659351 0.0079446 0.0659351
1383250000 0.0080538 0.0664582 0.9919462 -0.0664582 0.9919462 -0.0664582 0.0080538 0.0664582
1390500000 0.0081643 0.0669816 0.9918357 -0.0669816 0.9918357 -0.0669816 0.0081643 0.0669816
1397750000 0.0082764 0.0675053 0.9917236 -0.0675053 0.9917236 -0.0675053 0.0082764 0.0675053
1405000000 0.0083900 0.0680295 0.9916100 -0.0680295 0.9916100 -0.0680295 0.0083900 0.0680295
1412250000 0.0085050 0.0685540 0.9914950 -0.0685540 0.9914950 -0.0685540 0.0085050 0.0685540
1419500000 0.0086217 0.0690789 0.9913783 -0.0690789 0.9913783 -0.0690789 0.0086217 0.0690789
1426750000 0.0087400 0.0696042 0.9912600 -0.0696042 0.9912600 -0.0696042 0.0087400 0.0696042
1434000000 0.0088599 0.0701299 0.9911401 -0.0701299 0.9911401 -0.0701299 0.0088599 0.0701299
1441250000 0.0089815 0.0706561 0.9910185 -0.0706561 0.9910185 -0.0706561 0.0089815 0.0706561
1448500000 0.0091049 0.0711827 0.9908951 -0.0711827 0.9908951 -0.0711827 0.0091049 0.0711827
1455750000 0.0092300 0.0717097 0.9907700 -0.0717097 0.9907700 -0.0717097 0.0092300 0.0717097
1463000000 0.0093570 0.0722372 0.9906430 -0.0722372 0.9906430 -0.0722372 0.0093570 0.0722372
1470250000 0.0094858 0.0727651 0.9905142 -0.0727651 0.9905142 -0.0727651 0.0094858 0.0727651
1477500000 0.0096166 0.0732934 0.9903834 -0.0732934 0.9903834 -0.0732934 0.0096166 0.0732934
1484750000 0.0097494 0.0738223 0.9902506 -0.0738223 0.9902506 -0.0738223 0.0097494 0.0738223
1492000000 0.0098842 0.0743515 0.9901158 -0.0743515 0.9901158 -0.0743515 0.0098842 0.0743515
1499250000 0.0100211 0.0748812 0.9899789 -0.0748812 0.9899789 -0.0748812 0.0100211 0.0748812
1506500000 0.0101602 0.0754114 0.9898398 -0.0754114 0.9898398 -0.0754114 0.0101602 0.0754114
1513750000 0.0103015 0.0759420 0.9896985 -0.0759420 0.9896985 -0.0759420 0.0103015 0.0759420
1521000000 0.0104451 0.0764730 0.9895549 -0.0764730 0.9895549 -0.0764730 0.0104451 0.0764730
1528250000 0.0105911 0.0770044 0.9894089 -0.0770044 0.9894089 -0.0770044 0.0105911 0.0770044
1535500000 0.0107395 0.0775362 0.9892605 -0.0775362 0.9892605 -0.0775362 0.0107395 0.0775362
1542750000 0.0108904 0.0780683 0.9891096 -0.0780683 0.9891096 -0.0780683 0.0108904 0.0780683
1550000000 0.0110440 0.0786008 0.9889560 -0.0786008 0.9889560 -0.0786008 0.0110440 0.0786008
1557250000 0.0112002 0.0791336 0.9887998 -0.0791336 0.9887998 -0.0791336 0.0112002 0.0791336
1564500000 0.0113591 0.0796667 0.9886409 -0.0796667 0.9886409 -0.0796667 0.0113591 0.0796667
1571750000 0.0115210 0.0802000 0.9884790 -0.0802000 0.9884790 -0.0802000 0.0115210 0.0802000
1579000000 0.0116857 0.0807335 0.9883143 -0.0807335 0.9883143 -0.0807335 0.0116857 0.0807335
1586250000 0.0118535 0.0812671 0.9881465 -0.0812671 0.9881465 -0.0812671 0.0118535 0.0812671
1593500000 0.0120245 0.0818008 0.9879755 -0.0818008 0.9879755 -0.0818008 0.0120245 0.0818008
1600750000 0.0121986 0.0823344 0.9878014 -0.0823344 0.9878014 -0.0823344 0.0121986 0.0823344
1608000000 0.0123762 0.0828680 0.9876238 -0.0828680 0.9876238 -0.0828680 0.0123762 0.0828680
1615250000 0.0125571 0.0834014 0.9874429 -0.0834014 0.9874429 -0.0834014 0.0125571 0.0834014
1622500000 0.0127417 0.0839345 0.9872583 -0.0839345 0.9872583 -0.0839345 0.0127417 0.0839345
1629750000 0.0129299 0.0844672 0.9870701 -0.0844672 0.9870701 -0.0844672 0.0129299 0.0844672
