!Murata Part Number: GRM31B7U2J332JW31
!These Parameters are Measured in Series Mode Connection
!Data Generated on Mar 30, 2021
!       o--ll--o
!Port1            Port2
!       o------o
!Operation Temp=25[degC], DC Bias Voltage=0[V]
!Freq. Start=1000[kHz] Stop=3[GHz] 401[Steps]
# Hz S RI R 50
!Freq.(Hz) S11(Real) S11(Imag) S21(Real) S21(Imag) S12(Real) S12(Imag) S22(Real) S22(Imag)
1000000 0.2017440 -0.4012170 0.7982560 0.4012170 0.7982560 0.4012170 0.2017440 -0.4012170
1020218 0.1953748 -0.3964022 0.8046252 0.3964022 0.8046252 0.3964022 0.1953748 -0.3964022
1040844 0.1891591 -0.3915464 0.8108409 0.3915464 0.8108409 0.3915464 0.1891591 -0.3915464
1061887 0.1830962 -0.3866550 0.8169038 0.3866550 0.8169038 0.3866550 0.1830962 -0.3866550
1083356 0.1771851 -0.3817331 0.8228149 0.3817331 0.8228149 0.3817331 0.1771851 -0.3817331
1105259 0.1714249 -0.3767858 0.8285751 0.3767858 0.8285751 0.3767858 0.1714249 -0.3767858
1127605 0.1658142 -0.3718179 0.8341858 0.3718179 0.8341858 0.3718179 0.1658142 -0.3718179
1150402 0.1603517 -0.3668340 0.8396483 0.3668340 0.8396483 0.3668340 0.1603517 -0.3668340
1173660 0.1550357 -0.3618389 0.8449643 0.3618389 0.8449643 0.3618389 0.1550357 -0.3618389
1197389 0.1498646 -0.3568367 0.8501354 0.3568367 0.8501354 0.3568367 0.1498646 -0.3568367
1221597 0.1448363 -0.3518318 0.8551637 0.3518318 0.8551637 0.3518318 0.1448363 -0.3518318
1246295 0.1399491 -0.3468281 0.8600509 0.3468281 0.8600509 0.3468281 0.1399491 -0.3468281
1271492 0.1352007 -0.3418296 0.8647993 0.3418296 0.8647993 0.3418296 0.1352007 -0.3418296
1297199 0.1305890 -0.3368399 0.8694110 0.3368399 0.8694110 0.3368399 0.1305890 -0.3368399
1323425 0.1261117 -0.3318626 0.8738883 0.3318626 0.8738883 0.3318626 0.1261117 -0.3318626
1350181 0.1217665 -0.3269009 0.8782335 0.3269009 0.8782335 0.3269009 0.1217665 -0.3269009
1377479 0.1175508 -0.3219582 0.8824492 0.3219582 0.8824492 0.3219582 0.1175508 -0.3219582
1405328 0.1134623 -0.3170374 0.8865377 0.3170374 0.8865377 0.3170374 0.1134623 -0.3170374
1433740 0.1094984 -0.3121414 0.8905016 0.3121414 0.8905016 0.3121414 0.1094984 -0.3121414
1462727 0.1056565 -0.3072729 0.8943435 0.3072729 0.8943435 0.3072729 0.1056565 -0.3072729
1492300 0.1019341 -0.3024344 0.8980659 0.3024344 0.8980659 0.3024344 0.1019341 -0.3024344
1522470 0.0983283 -0.2976284 0.9016717 0.2976284 0.9016717 0.2976284 0.0983283 -0.2976284
1553251 0.0948367 -0.2928569 0.9051633 0.2928569 0.9051633 0.2928569 0.0948367 -0.2928569
1584654 0.0914566 -0.2881223 0.9085434 0.2881223 0.9085434 0.2881223 0.0914566 -0.2881223
1616692 0.0881852 -0.2834263 0.9118148 0.2834263 0.9118148 0.2834263 0.0881852 -0.2834263
1649378 0.0850200 -0.2787708 0.9149800 0.2787708 0.9149800 0.2787708 0.0850200 -0.2787708
1682724 0.0819581 -0.2741574 0.9180419 0.2741574 0.9180419 0.2741574 0.0819581 -0.2741574
1716745 0.0789971 -0.2695878 0.9210029 0.2695878 0.9210029 0.2695878 0.0789971 -0.2695878
1751453 0.0761342 -0.2650633 0.9238658 0.2650633 0.9238658 0.2650633 0.0761342 -0.2650633
1786863 0.0733669 -0.2605853 0.9266331 0.2605853 0.9266331 0.2605853 0.0733669 -0.2605853
1822989 0.0706924 -0.2561548 0.9293076 0.2561548 0.9293076 0.2561548 0.0706924 -0.2561548
1859846 0.0681084 -0.2517731 0.9318916 0.2517731 0.9318916 0.2517731 0.0681084 -0.2517731
1897447 0.0656122 -0.2474409 0.9343878 0.2474409 0.9343878 0.2474409 0.0656122 -0.2474409
1935809 0.0632013 -0.2431593 0.9367987 0.2431593 0.9367987 0.2431593 0.0632013 -0.2431593
1974946 0.0608732 -0.2389289 0.9391268 0.2389289 0.9391268 0.2389289 0.0608732 -0.2389289
2014875 0.0586256 -0.2347505 0.9413744 0.2347505 0.9413744 0.2347505 0.0586256 -0.2347505
2055611 0.0564560 -0.2306246 0.9435440 0.2306246 0.9435440 0.2306246 0.0564560 -0.2306246
2097170 0.0543622 -0.2265517 0.9456378 0.2265517 0.9456378 0.2265517 0.0543622 -0.2265517
2139570 0.0523417 -0.2225323 0.9476583 0.2225323 0.9476583 0.2225323 0.0523417 -0.2225323
2182827 0.0503924 -0.2185666 0.9496076 0.2185666 0.9496076 0.2185666 0.0503924 -0.2185666
2226959 0.0485120 -0.2146549 0.9514880 0.2146549 0.9514880 0.2146549 0.0485120 -0.2146549
2271982 0.0466983 -0.2107975 0.9533017 0.2107975 0.9533017 0.2107975 0.0466983 -0.2107975
2317916 0.0449493 -0.2069945 0.9550507 0.2069945 0.9550507 0.2069945 0.0449493 -0.2069945
2364779 0.0432629 -0.2032459 0.9567371 0.2032459 0.9567371 0.2032459 0.0432629 -0.2032459
2412589 0.0416371 -0.1995518 0.9583629 0.1995518 0.9583629 0.1995518 0.0416371 -0.1995518
2461366 0.0400698 -0.1959121 0.9599302 0.1959121 0.9599302 0.1959121 0.0400698 -0.1959121
2511129 0.0385592 -0.1923267 0.9614408 0.1923267 0.9614408 0.1923267 0.0385592 -0.1923267
2561897 0.0371034 -0.1887955 0.9628966 0.1887955 0.9628966 0.1887955 0.0371034 -0.1887955
2613693 0.0357005 -0.1853184 0.9642995 0.1853184 0.9642995 0.1853184 0.0357005 -0.1853184
2666535 0.0343489 -0.1818950 0.9656511 0.1818950 0.9656511 0.1818950 0.0343489 -0.1818950
2720446 0.0330467 -0.1785252 0.9669533 0.1785252 0.9669533 0.1785252 0.0330467 -0.1785252
2775447 0.0317924 -0.1752086 0.9682076 0.1752086 0.9682076 0.1752086 0.0317924 -0.1752086
2831560 0.0305841 -0.1719449 0.9694159 0.1719449 0.9694159 0.1719449 0.0305841 -0.1719449
2888807 0.0294205 -0.1687337 0.9705795 0.1687337 0.9705795 0.1687337 0.0294205 -0.1687337
2947212 0.0282999 -0.1655748 0.9717001 0.1655748 0.9717001 0.1655748 0.0282999 -0.1655748
3006797 0.0272208 -0.1624675 0.9727792 0.1624675 0.9727792 0.1624675 0.0272208 -0.1624675
3067588 0.0261818 -0.1594116 0.9738182 0.1594116 0.9738182 0.1594116 0.0261818 -0.1594116
3129607 0.0251815 -0.1564065 0.9748185 0.1564065 0.9748185 0.1564065 0.0251815 -0.1564065
3192880 0.0242185 -0.1534517 0.9757815 0.1534517 0.9757815 0.1534517 0.0242185 -0.1534517
3257432 0.0232915 -0.1505469 0.9767085 0.1505469 0.9767085 0.1505469 0.0232915 -0.1505469
3323290 0.0223992 -0.1476913 0.9776008 0.1476913 0.9776008 0.1476913 0.0223992 -0.1476913
3390478 0.0215404 -0.1448846 0.9784596 0.1448846 0.9784596 0.1448846 0.0215404 -0.1448846
3459026 0.0207139 -0.1421261 0.9792861 0.1421261 0.9792861 0.1421261 0.0207139 -0.1421261
3528959 0.0199185 -0.1394153 0.9800815 0.1394153 0.9800815 0.1394153 0.0199185 -0.1394153
3600306 0.0191531 -0.1367517 0.9808469 0.1367517 0.9808469 0.1367517 0.0191531 -0.1367517
3673095 0.0184167 -0.1341346 0.9815833 0.1341346 0.9815833 0.1341346 0.0184167 -0.1341346
3747356 0.0177080 -0.1315634 0.9822920 0.1315634 0.9822920 0.1315634 0.0177080 -0.1315634
3823119 0.0170263 -0.1290377 0.9829737 0.1290377 0.9829737 0.1290377 0.0170263 -0.1290377
3900413 0.0163704 -0.1265567 0.9836296 0.1265567 0.9836296 0.1265567 0.0163704 -0.1265567
3979270 0.0157394 -0.1241199 0.9842606 0.1241199 0.9842606 0.1241199 0.0157394 -0.1241199
4059721 0.0151324 -0.1217267 0.9848676 0.1217267 0.9848676 0.1217267 0.0151324 -0.1217267
4141799 0.0145486 -0.1193764 0.9854514 0.1193764 0.9854514 0.1193764 0.0145486 -0.1193764
4225536 0.0139870 -0.1170685 0.9860130 0.1170685 0.9860130 0.1170685 0.0139870 -0.1170685
4310966 0.0134468 -0.1148023 0.9865532 0.1148023 0.9865532 0.1148023 0.0134468 -0.1148023
4398124 0.0129273 -0.1125772 0.9870727 0.1125772 0.9870727 0.1125772 0.0129273 -0.1125772
4487043 0.0124277 -0.1103926 0.9875723 0.1103926 0.9875723 0.1103926 0.0124277 -0.1103926
4577760 0.0119472 -0.1082479 0.9880528 0.1082479 0.9880528 0.1082479 0.0119472 -0.1082479
4670311 0.0114851 -0.1061425 0.9885149 0.1061425 0.9885149 0.1061425 0.0114851 -0.1061425
4764734 0.0110408 -0.1040757 0.9889592 0.1040757 0.9889592 0.1040757 0.0110408 -0.1040757
4861065 0.0106135 -0.1020470 0.9893865 0.1020470 0.9893865 0.1020470 0.0106135 -0.1020470
4959344 0.0102027 -0.1000557 0.9897973 0.1000557 0.9897973 0.1000557 0.0102027 -0.1000557
5059610 0.0098076 -0.0981013 0.9901924 0.0981013 0.9901924 0.0981013 0.0098076 -0.0981013
5161903 0.0094278 -0.0961832 0.9905722 0.0961832 0.9905722 0.0961832 0.0094278 -0.0961832
5266264 0.0090626 -0.0943007 0.9909374 0.0943007 0.9909374 0.0943007 0.0090626 -0.0943007
5372736 0.0087115 -0.0924533 0.9912885 0.0924533 0.9912885 0.0924533 0.0087115 -0.0924533
5481359 0.0083740 -0.0906403 0.9916260 0.0906403 0.9916260 0.0906403 0.0083740 -0.0906403
5592179 0.0080495 -0.0888613 0.9919505 0.0888613 0.9919505 0.0888613 0.0080495 -0.0888613
5705239 0.0077375 -0.0871156 0.9922625 0.0871156 0.9922625 0.0871156 0.0077375 -0.0871156
5820586 0.0074377 -0.0854027 0.9925623 0.0854027 0.9925623 0.0854027 0.0074377 -0.0854027
5938264 0.0071494 -0.0837219 0.9928506 0.0837219 0.9928506 0.0837219 0.0071494 -0.0837219
6058321 0.0068723 -0.0820728 0.9931277 0.0820728 0.9931277 0.0820728 0.0068723 -0.0820728
6180806 0.0066059 -0.0804548 0.9933941 0.0804548 0.9933941 0.0804548 0.0066059 -0.0804548
6305767 0.0063499 -0.0788674 0.9936501 0.0788674 0.9936501 0.0788674 0.0063499 -0.0788674
6433254 0.0061038 -0.0773099 0.9938962 0.0773099 0.9938962 0.0773099 0.0061038 -0.0773099
6563319 0.0058672 -0.0757819 0.9941328 0.0757819 0.9941328 0.0757819 0.0058672 -0.0757819
6696013 0.0056399 -0.0742829 0.9943601 0.0742829 0.9943601 0.0742829 0.0056399 -0.0742829
6831390 0.0054214 -0.0728123 0.9945786 0.0728123 0.9945786 0.0728123 0.0054214 -0.0728123
6969505 0.0052114 -0.0713696 0.9947886 0.0713696 0.9947886 0.0713696 0.0052114 -0.0713696
7110411 0.0050095 -0.0699543 0.9949905 0.0699543 0.9949905 0.0699543 0.0050095 -0.0699543
7254166 0.0048156 -0.0685660 0.9951844 0.0685660 0.9951844 0.0685660 0.0048156 -0.0685660
7400828 0.0046291 -0.0672041 0.9953709 0.0672041 0.9953709 0.0672041 0.0046291 -0.0672041
7550455 0.0044500 -0.0658681 0.9955500 0.0658681 0.9955500 0.0658681 0.0044500 -0.0658681
7703107 0.0042778 -0.0645575 0.9957222 0.0645575 0.9957222 0.0645575 0.0042778 -0.0645575
7858845 0.0041124 -0.0632720 0.9958876 0.0632720 0.9958876 0.0632720 0.0041124 -0.0632720
8017732 0.0039534 -0.0620110 0.9960466 0.0620110 0.9960466 0.0620110 0.0039534 -0.0620110
8179831 0.0038007 -0.0607740 0.9961993 0.0607740 0.9961993 0.0607740 0.0038007 -0.0607740
8345207 0.0036539 -0.0595607 0.9963461 0.0595607 0.9963461 0.0595607 0.0036539 -0.0595607
8513927 0.0035128 -0.0583705 0.9964872 0.0583705 0.9964872 0.0583705 0.0035128 -0.0583705
8686058 0.0033773 -0.0572031 0.9966227 0.0572031 0.9966227 0.0572031 0.0033773 -0.0572031
8861669 0.0032471 -0.0560580 0.9967529 0.0560580 0.9967529 0.0560580 0.0032471 -0.0560580
9040831 0.0031220 -0.0549348 0.9968780 0.0549348 0.9968780 0.0549348 0.0031220 -0.0549348
9223615 0.0030018 -0.0538330 0.9969982 0.0538330 0.9969982 0.0538330 0.0030018 -0.0538330
9410094 0.0028863 -0.0527523 0.9971137 0.0527523 0.9971137 0.0527523 0.0028863 -0.0527523
9600343 0.0027753 -0.0516923 0.9972247 0.0516923 0.9972247 0.0516923 0.0027753 -0.0516923
9794439 0.0026688 -0.0506525 0.9973312 0.0506525 0.9973312 0.0506525 0.0026688 -0.0506525
9992459 0.0025664 -0.0496326 0.9974336 0.0496326 0.9974336 0.0496326 0.0025664 -0.0496326
10194482 0.0024680 -0.0486322 0.9975320 0.0486322 0.9975320 0.0486322 0.0024680 -0.0486322
10400590 0.0023735 -0.0476508 0.9976265 0.0476508 0.9976265 0.0476508 0.0023735 -0.0476508
10610865 0.0022827 -0.0466883 0.9977173 0.0466883 0.9977173 0.0466883 0.0022827 -0.0466883
10825391 0.0021955 -0.0457441 0.9978045 0.0457441 0.9978045 0.0457441 0.0021955 -0.0457441
11044254 0.0021118 -0.0448179 0.9978882 0.0448179 0.9978882 0.0448179 0.0021118 -0.0448179
11267542 0.0020314 -0.0439094 0.9979686 0.0439094 0.9979686 0.0439094 0.0020314 -0.0439094
11495344 0.0019541 -0.0430182 0.9980459 0.0430182 0.9980459 0.0430182 0.0019541 -0.0430182
11727752 0.0018799 -0.0421440 0.9981201 0.0421440 0.9981201 0.0421440 0.0018799 -0.0421440
11964859 0.0018087 -0.0412864 0.9981913 0.0412864 0.9981913 0.0412864 0.0018087 -0.0412864
12206760 0.0017402 -0.0404452 0.9982598 0.0404452 0.9982598 0.0404452 0.0017402 -0.0404452
12453551 0.0016745 -0.0396199 0.9983255 0.0396199 0.9983255 0.0396199 0.0016745 -0.0396199
12705331 0.0016115 -0.0388103 0.9983885 0.0388103 0.9983885 0.0388103 0.0016115 -0.0388103
12962202 0.0015509 -0.0380161 0.9984491 0.0380161 0.9984491 0.0380161 0.0015509 -0.0380161
13224267 0.0014927 -0.0372369 0.9985073 0.0372369 0.9985073 0.0372369 0.0014927 -0.0372369
13491630 0.0014369 -0.0364725 0.9985631 0.0364725 0.9985631 0.0364725 0.0014369 -0.0364725
13764398 0.0013833 -0.0357226 0.9986167 0.0357226 0.9986167 0.0357226 0.0013833 -0.0357226
14042680 0.0013319 -0.0349868 0.9986681 0.0349868 0.9986681 0.0349868 0.0013319 -0.0349868
14326589 0.0012825 -0.0342649 0.9987175 0.0342649 0.9987175 0.0342649 0.0012825 -0.0342649
14616238 0.0012351 -0.0335567 0.9987649 0.0335567 0.9987649 0.0335567 0.0012351 -0.0335567
14911743 0.0011896 -0.0328617 0.9988104 0.0328617 0.9988104 0.0328617 0.0011896 -0.0328617
15213223 0.0011459 -0.0321799 0.9988541 0.0321799 0.9988541 0.0321799 0.0011459 -0.0321799
15520797 0.0011041 -0.0315108 0.9988959 0.0315108 0.9988959 0.0315108 0.0011041 -0.0315108
15834590 0.0010639 -0.0308542 0.9989361 0.0308542 0.9989361 0.0308542 0.0010639 -0.0308542
16154727 0.0010253 -0.0302099 0.9989747 0.0302099 0.9989747 0.0302099 0.0010253 -0.0302099
16481337 0.0009884 -0.0295777 0.9990116 0.0295777 0.9990116 0.0295777 0.0009884 -0.0295777
16814550 0.0009529 -0.0289572 0.9990471 0.0289572 0.9990471 0.0289572 0.0009529 -0.0289572
17154499 0.0009189 -0.0283483 0.9990811 0.0283483 0.9990811 0.0283483 0.0009189 -0.0283483
17501322 0.0008863 -0.0277507 0.9991137 0.0277507 0.9991137 0.0277507 0.0008863 -0.0277507
17855156 0.0008550 -0.0271641 0.9991450 0.0271641 0.9991450 0.0271641 0.0008550 -0.0271641
18216144 0.0008251 -0.0265884 0.9991749 0.0265884 0.9991749 0.0265884 0.0008251 -0.0265884
18584431 0.0007964 -0.0260233 0.9992036 0.0260233 0.9992036 0.0260233 0.0007964 -0.0260233
18960163 0.0007688 -0.0254686 0.9992312 0.0254686 0.9992312 0.0254686 0.0007688 -0.0254686
19343491 0.0007425 -0.0249240 0.9992575 0.0249240 0.9992575 0.0249240 0.0007425 -0.0249240
19734570 0.0007172 -0.0243894 0.9992828 0.0243894 0.9992828 0.0243894 0.0007172 -0.0243894
20133555 0.0006930 -0.0238646 0.9993070 0.0238646 0.9993070 0.0238646 0.0006930 -0.0238646
20540607 0.0006699 -0.0233493 0.9993301 0.0233493 0.9993301 0.0233493 0.0006699 -0.0233493
20955888 0.0006477 -0.0228433 0.9993523 0.0228433 0.9993523 0.0228433 0.0006477 -0.0228433
21379566 0.0006265 -0.0223465 0.9993735 0.0223465 0.9993735 0.0223465 0.0006265 -0.0223465
21811809 0.0006062 -0.0218586 0.9993938 0.0218586 0.9993938 0.0218586 0.0006062 -0.0218586
22252791 0.0005867 -0.0213794 0.9994133 0.0213794 0.9994133 0.0213794 0.0005867 -0.0213794
22702688 0.0005682 -0.0209088 0.9994318 0.0209088 0.9994318 0.0209088 0.0005682 -0.0209088
23161682 0.0005504 -0.0204466 0.9994496 0.0204466 0.9994496 0.0204466 0.0005504 -0.0204466
23629955 0.0005334 -0.0199926 0.9994666 0.0199926 0.9994666 0.0199926 0.0005334 -0.0199926
24107696 0.0005172 -0.0195466 0.9994828 0.0195466 0.9994828 0.0195466 0.0005172 -0.0195466
24595095 0.0005017 -0.0191084 0.9994983 0.0191084 0.9994983 0.0191084 0.0005017 -0.0191084
25092348 0.0004870 -0.0186779 0.9995130 0.0186779 0.9995130 0.0186779 0.0004870 -0.0186779
25599655 0.0004729 -0.0182548 0.9995271 0.0182548 0.9995271 0.0182548 0.0004729 -0.0182548
26117218 0.0004594 -0.0178391 0.9995406 0.0178391 0.9995406 0.0178391 0.0004594 -0.0178391
26645245 0.0004466 -0.0174306 0.9995534 0.0174306 0.9995534 0.0174306 0.0004466 -0.0174306
27183947 0.0004344 -0.0170290 0.9995656 0.0170290 0.9995656 0.0170290 0.0004344 -0.0170290
27733541 0.0004228 -0.0166343 0.9995772 0.0166343 0.9995772 0.0166343 0.0004228 -0.0166343
28294246 0.0004117 -0.0162463 0.9995883 0.0162463 0.9995883 0.0162463 0.0004117 -0.0162463
28866287 0.0004012 -0.0158648 0.9995988 0.0158648 0.9995988 0.0158648 0.0004012 -0.0158648
29449894 0.0003912 -0.0154896 0.9996088 0.0154896 0.9996088 0.0154896 0.0003912 -0.0154896
30045299 0.0003817 -0.0151207 0.9996183 0.0151207 0.9996183 0.0151207 0.0003817 -0.0151207
30652742 0.0003727 -0.0147579 0.9996273 0.0147579 0.9996273 0.0147579 0.0003727 -0.0147579
31272467 0.0003642 -0.0144010 0.9996358 0.0144010 0.9996358 0.0144010 0.0003642 -0.0144010
31904720 0.0003561 -0.0140498 0.9996439 0.0140498 0.9996439 0.0140498 0.0003561 -0.0140498
32549757 0.0003484 -0.0137044 0.9996516 0.0137044 0.9996516 0.0137044 0.0003484 -0.0137044
33207834 0.0003412 -0.0133644 0.9996588 0.0133644 0.9996588 0.0133644 0.0003412 -0.0133644
33879216 0.0003344 -0.0130298 0.9996656 0.0130298 0.9996656 0.0130298 0.0003344 -0.0130298
34564172 0.0003280 -0.0127004 0.9996720 0.0127004 0.9996720 0.0127004 0.0003280 -0.0127004
35262976 0.0003220 -0.0123762 0.9996780 0.0123762 0.9996780 0.0123762 0.0003220 -0.0123762
35975908 0.0003164 -0.0120569 0.9996836 0.0120569 0.9996836 0.0120569 0.0003164 -0.0120569
36703254 0.0003111 -0.0117425 0.9996889 0.0117425 0.9996889 0.0117425 0.0003111 -0.0117425
37445305 0.0003062 -0.0114328 0.9996938 0.0114328 0.9996938 0.0114328 0.0003062 -0.0114328
38202358 0.0003016 -0.0111277 0.9996984 0.0111277 0.9996984 0.0111277 0.0003016 -0.0111277
38974717 0.0002974 -0.0108271 0.9997026 0.0108271 0.9997026 0.0108271 0.0002974 -0.0108271
39762692 0.0002935 -0.0105308 0.9997065 0.0105308 0.9997065 0.0105308 0.0002935 -0.0105308
40566597 0.0002899 -0.0102387 0.9997101 0.0102387 0.9997101 0.0102387 0.0002899 -0.0102387
41386756 0.0002866 -0.0099508 0.9997134 0.0099508 0.9997134 0.0099508 0.0002866 -0.0099508
42223496 0.0002836 -0.0096668 0.9997164 0.0096668 0.9997164 0.0096668 0.0002836 -0.0096668
43077153 0.0002809 -0.0093868 0.9997191 0.0093868 0.9997191 0.0093868 0.0002809 -0.0093868
43948069 0.0002784 -0.0091105 0.9997216 0.0091105 0.9997216 0.0091105 0.0002784 -0.0091105
44836592 0.0002763 -0.0088379 0.9997237 0.0088379 0.9997237 0.0088379 0.0002763 -0.0088379
45743080 0.0002745 -0.0085688 0.9997255 0.0085688 0.9997255 0.0085688 0.0002745 -0.0085688
46667894 0.0002729 -0.0083031 0.9997271 0.0083031 0.9997271 0.0083031 0.0002729 -0.0083031
47611406 0.0002716 -0.0080408 0.9997284 0.0080408 0.9997284 0.0080408 0.0002716 -0.0080408
48573993 0.0002705 -0.0077817 0.9997295 0.0077817 0.9997295 0.0077817 0.0002705 -0.0077817
49556042 0.0002697 -0.0075257 0.9997303 0.0075257 0.9997303 0.0075257 0.0002697 -0.0075257
50557945 0.0002692 -0.0072726 0.9997308 0.0072726 0.9997308 0.0072726 0.0002692 -0.0072726
51580105 0.0002689 -0.0070225 0.9997311 0.0070225 0.9997311 0.0070225 0.0002689 -0.0070225
52622929 0.0002689 -0.0067752 0.9997311 0.0067752 0.9997311 0.0067752 0.0002689 -0.0067752
53686838 0.0002691 -0.0065306 0.9997309 0.0065306 0.9997309 0.0065306 0.0002691 -0.0065306
54772256 0.0002696 -0.0062886 0.9997304 0.0062886 0.9997304 0.0062886 0.0002696 -0.0062886
55879618 0.0002703 -0.0060491 0.9997297 0.0060491 0.9997297 0.0060491 0.0002703 -0.0060491
57009369 0.0002713 -0.0058119 0.9997287 0.0058119 0.9997287 0.0058119 0.0002713 -0.0058119
58161960 0.0002725 -0.0055771 0.9997275 0.0055771 0.9997275 0.0055771 0.0002725 -0.0055771
59337855 0.0002740 -0.0053444 0.9997260 0.0053444 0.9997260 0.0053444 0.0002740 -0.0053444
60537522 0.0002758 -0.0051139 0.9997242 0.0051139 0.9997242 0.0051139 0.0002758 -0.0051139
61761445 0.0002778 -0.0048853 0.9997222 0.0048853 0.9997222 0.0048853 0.0002778 -0.0048853
63010112 0.0002800 -0.0046587 0.9997200 0.0046587 0.9997200 0.0046587 0.0002800 -0.0046587
64284024 0.0002825 -0.0044338 0.9997175 0.0044338 0.9997175 0.0044338 0.0002825 -0.0044338
65583691 0.0002853 -0.0042106 0.9997147 0.0042106 0.9997147 0.0042106 0.0002853 -0.0042106
66909635 0.0002884 -0.0039891 0.9997116 0.0039891 0.9997116 0.0039891 0.0002884 -0.0039891
68262386 0.0002917 -0.0037690 0.9997083 0.0037690 0.9997083 0.0037690 0.0002917 -0.0037690
69642486 0.0002953 -0.0035504 0.9997047 0.0035504 0.9997047 0.0035504 0.0002953 -0.0035504
71050488 0.0002993 -0.0033330 0.9997007 0.0033330 0.9997007 0.0033330 0.0002993 -0.0033330
72486957 0.0003035 -0.0031169 0.9996965 0.0031169 0.9996965 0.0031169 0.0003035 -0.0031169
73952468 0.0003080 -0.0029019 0.9996920 0.0029019 0.9996920 0.0029019 0.0003080 -0.0029019
