!Murata Part Number: GRM31A5C2J271JW01
!These Parameters are Measured in Series Mode Connection
!Data Generated on Mar 30, 2021
!       o--ll--o
!Port1            Port2
!       o------o
!Operation Temp=25[degC], DC Bias Voltage=0[V]
!Freq. Start=100[MHz] Stop=3[GHz] 401[Steps]
# Hz S RI R 50
!Freq.(Hz) S11(Real) S11(Imag) S21(Real) S21(Imag) S12(Real) S12(Imag) S22(Real) S22(Imag)
100000000 0.0040192 -0.0531914 0.9959808 0.0531914 0.9959808 0.0531914 0.0040192 -0.0531914
107250000 0.0035752 -0.0488537 0.9964248 0.0488537 0.9964248 0.0488537 0.0035752 -0.0488537
114500000 0.0032140 -0.0450109 0.9967860 0.0450109 0.9967860 0.0450109 0.0032140 -0.0450109
121750000 0.0029167 -0.0415753 0.9970833 0.0415753 0.9970833 0.0415753 0.0029167 -0.0415753
129000000 0.0026695 -0.0384790 0.9973305 0.0384790 0.9973305 0.0384790 0.0026695 -0.0384790
136250000 0.0024621 -0.0356682 0.9975379 0.0356682 0.9975379 0.0356682 0.0024621 -0.0356682
143500000 0.0022868 -0.0330999 0.9977132 0.0330999 0.9977132 0.0330999 0.0022868 -0.0330999
150750000 0.0021377 -0.0307394 0.9978623 0.0307394 0.9978623 0.0307394 0.0021377 -0.0307394
158000000 0.0020102 -0.0285582 0.9979898 0.0285582 0.9979898 0.0285582 0.0020102 -0.0285582
165250000 0.0019006 -0.0265329 0.9980994 0.0265329 0.9980994 0.0265329 0.0019006 -0.0265329
172500000 0.0018060 -0.0246438 0.9981940 0.0246438 0.9981940 0.0246438 0.0018060 -0.0246438
179750000 0.0017243 -0.0228746 0.9982757 0.0228746 0.9982757 0.0228746 0.0017243 -0.0228746
187000000 0.0016534 -0.0212114 0.9983466 0.0212114 0.9983466 0.0212114 0.0016534 -0.0212114
194250000 0.0015919 -0.0196423 0.9984081 0.0196423 0.9984081 0.0196423 0.0015919 -0.0196423
201500000 0.0015384 -0.0181572 0.9984616 0.0181572 0.9984616 0.0181572 0.0015384 -0.0181572
208750000 0.0014921 -0.0167474 0.9985079 0.0167474 0.9985079 0.0167474 0.0014921 -0.0167474
216000000 0.0014519 -0.0154052 0.9985481 0.0154052 0.9985481 0.0154052 0.0014519 -0.0154052
223250000 0.0014171 -0.0141242 0.9985829 0.0141242 0.9985829 0.0141242 0.0014171 -0.0141242
230500000 0.0013872 -0.0128985 0.9986128 0.0128985 0.9986128 0.0128985 0.0013872 -0.0128985
237750000 0.0013616 -0.0117231 0.9986384 0.0117231 0.9986384 0.0117231 0.0013616 -0.0117231
245000000 0.0013398 -0.0105935 0.9986602 0.0105935 0.9986602 0.0105935 0.0013398 -0.0105935
252250000 0.0013215 -0.0095057 0.9986785 0.0095057 0.9986785 0.0095057 0.0013215 -0.0095057
259500000 0.0013064 -0.0084563 0.9986936 0.0084563 0.9986936 0.0084563 0.0013064 -0.0084563
266750000 0.0012941 -0.0074422 0.9987059 0.0074422 0.9987059 0.0074422 0.0012941 -0.0074422
274000000 0.0012843 -0.0064604 0.9987157 0.0064604 0.9987157 0.0064604 0.0012843 -0.0064604
281250000 0.0012770 -0.0055086 0.9987230 0.0055086 0.9987230 0.0055086 0.0012770 -0.0055086
288500000 0.0012718 -0.0045843 0.9987282 0.0045843 0.9987282 0.0045843 0.0012718 -0.0045843
295750000 0.0012687 -0.0036857 0.9987313 0.0036857 0.9987313 0.0036857 0.0012687 -0.0036857
303000000 0.0012674 -0.0028109 0.9987326 0.0028109 0.9987326 0.0028109 0.0012674 -0.0028109
310250000 0.0012679 -0.0019581 0.9987321 0.0019581 0.9987321 0.0019581 0.0012679 -0.0019581
317500000 0.0012700 -0.0011258 0.9987300 0.0011258 0.9987300 0.0011258 0.0012700 -0.0011258
324750000 0.0012736 -0.0003127 0.9987264 0.0003127 0.9987264 0.0003127 0.0012736 -0.0003127
332000000 0.0012787 0.0004825 0.9987213 -0.0004825 0.9987213 -0.0004825 0.0012787 0.0004825
339250000 0.0012851 0.0012609 0.9987149 -0.0012609 0.9987149 -0.0012609 0.0012851 0.0012609
346500000 0.0012928 0.0020237 0.9987072 -0.0020237 0.9987072 -0.0020237 0.0012928 0.0020237
353750000 0.0013017 0.0027718 0.9986983 -0.0027718 0.9986983 -0.0027718 0.0013017 0.0027718
361000000 0.0013117 0.0035061 0.9986883 -0.0035061 0.9986883 -0.0035061 0.0013117 0.0035061
368250000 0.0013229 0.0042274 0.9986771 -0.0042274 0.9986771 -0.0042274 0.0013229 0.0042274
375500000 0.0013351 0.0049365 0.9986649 -0.0049365 0.9986649 -0.0049365 0.0013351 0.0049365
382750000 0.0013483 0.0056341 0.9986517 -0.0056341 0.9986517 -0.0056341 0.0013483 0.0056341
390000000 0.0013625 0.0063209 0.9986375 -0.0063209 0.9986375 -0.0063209 0.0013625 0.0063209
397250000 0.0013777 0.0069974 0.9986223 -0.0069974 0.9986223 -0.0069974 0.0013777 0.0069974
404500000 0.0013938 0.0076643 0.9986062 -0.0076643 0.9986062 -0.0076643 0.0013938 0.0076643
411750000 0.0014107 0.0083219 0.9985893 -0.0083219 0.9985893 -0.0083219 0.0014107 0.0083219
419000000 0.0014285 0.0089710 0.9985715 -0.0089710 0.9985715 -0.0089710 0.0014285 0.0089710
426250000 0.0014472 0.0096118 0.9985528 -0.0096118 0.9985528 -0.0096118 0.0014472 0.0096118
433500000 0.0014666 0.0102449 0.9985334 -0.0102449 0.9985334 -0.0102449 0.0014666 0.0102449
440750000 0.0014869 0.0108705 0.9985131 -0.0108705 0.9985131 -0.0108705 0.0014869 0.0108705
448000000 0.0015079 0.0114892 0.9984921 -0.0114892 0.9984921 -0.0114892 0.0015079 0.0114892
455250000 0.0015297 0.0121012 0.9984703 -0.0121012 0.9984703 -0.0121012 0.0015297 0.0121012
462500000 0.0015523 0.0127069 0.9984477 -0.0127069 0.9984477 -0.0127069 0.0015523 0.0127069
469750000 0.0015756 0.0133066 0.9984244 -0.0133066 0.9984244 -0.0133066 0.0015756 0.0133066
477000000 0.0015996 0.0139005 0.9984004 -0.0139005 0.9984004 -0.0139005 0.0015996 0.0139005
484250000 0.0016243 0.0144889 0.9983757 -0.0144889 0.9983757 -0.0144889 0.0016243 0.0144889
491500000 0.0016498 0.0150722 0.9983502 -0.0150722 0.9983502 -0.0150722 0.0016498 0.0150722
498750000 0.0016760 0.0156505 0.9983240 -0.0156505 0.9983240 -0.0156505 0.0016760 0.0156505
506000000 0.0017028 0.0162241 0.9982972 -0.0162241 0.9982972 -0.0162241 0.0017028 0.0162241
513250000 0.0017304 0.0167931 0.9982696 -0.0167931 0.9982696 -0.0167931 0.0017304 0.0167931
520500000 0.0017587 0.0173579 0.9982413 -0.0173579 0.9982413 -0.0173579 0.0017587 0.0173579
527750000 0.0017876 0.0179185 0.9982124 -0.0179185 0.9982124 -0.0179185 0.0017876 0.0179185
535000000 0.0018173 0.0184752 0.9981827 -0.0184752 0.9981827 -0.0184752 0.0018173 0.0184752
542250000 0.0018476 0.0190282 0.9981524 -0.0190282 0.9981524 -0.0190282 0.0018476 0.0190282
549500000 0.0018786 0.0195775 0.9981214 -0.0195775 0.9981214 -0.0195775 0.0018786 0.0195775
556750000 0.0019102 0.0201234 0.9980898 -0.0201234 0.9980898 -0.0201234 0.0019102 0.0201234
564000000 0.0019426 0.0206661 0.9980574 -0.0206661 0.9980574 -0.0206661 0.0019426 0.0206661
571250000 0.0019756 0.0212056 0.9980244 -0.0212056 0.9980244 -0.0212056 0.0019756 0.0212056
578500000 0.0020094 0.0217421 0.9979906 -0.0217421 0.9979906 -0.0217421 0.0020094 0.0217421
585750000 0.0020438 0.0222757 0.9979562 -0.0222757 0.9979562 -0.0222757 0.0020438 0.0222757
593000000 0.0020789 0.0228066 0.9979211 -0.0228066 0.9979211 -0.0228066 0.0020789 0.0228066
600250000 0.0021147 0.0233348 0.9978853 -0.0233348 0.9978853 -0.0233348 0.0021147 0.0233348
607500000 0.0021512 0.0238605 0.9978488 -0.0238605 0.9978488 -0.0238605 0.0021512 0.0238605
614750000 0.0021884 0.0243838 0.9978116 -0.0243838 0.9978116 -0.0243838 0.0021884 0.0243838
622000000 0.0022263 0.0249048 0.9977737 -0.0249048 0.9977737 -0.0249048 0.0022263 0.0249048
629250000 0.0022649 0.0254236 0.9977351 -0.0254236 0.9977351 -0.0254236 0.0022649 0.0254236
636500000 0.0023043 0.0259402 0.9976957 -0.0259402 0.9976957 -0.0259402 0.0023043 0.0259402
643750000 0.0023444 0.0264549 0.9976556 -0.0264549 0.9976556 -0.0264549 0.0023444 0.0264549
651000000 0.0023852 0.0269676 0.9976148 -0.0269676 0.9976148 -0.0269676 0.0023852 0.0269676
658250000 0.0024267 0.0274784 0.9975733 -0.0274784 0.9975733 -0.0274784 0.0024267 0.0274784
665500000 0.0024690 0.0279875 0.9975310 -0.0279875 0.9975310 -0.0279875 0.0024690 0.0279875
672750000 0.0025121 0.0284949 0.9974879 -0.0284949 0.9974879 -0.0284949 0.0025121 0.0284949
680000000 0.0025560 0.0290006 0.9974440 -0.0290006 0.9974440 -0.0290006 0.0025560 0.0290006
687250000 0.0026006 0.0295048 0.9973994 -0.0295048 0.9973994 -0.0295048 0.0026006 0.0295048
694500000 0.0026461 0.0300076 0.9973539 -0.0300076 0.9973539 -0.0300076 0.0026461 0.0300076
701750000 0.0026923 0.0305089 0.9973077 -0.0305089 0.9973077 -0.0305089 0.0026923 0.0305089
709000000 0.0027394 0.0310089 0.9972606 -0.0310089 0.9972606 -0.0310089 0.0027394 0.0310089
716250000 0.0027874 0.0315076 0.9972126 -0.0315076 0.9972126 -0.0315076 0.0027874 0.0315076
723500000 0.0028361 0.0320051 0.9971639 -0.0320051 0.9971639 -0.0320051 0.0028361 0.0320051
730750000 0.0028858 0.0325014 0.9971142 -0.0325014 0.9971142 -0.0325014 0.0028858 0.0325014
738000000 0.0029364 0.0329967 0.9970636 -0.0329967 0.9970636 -0.0329967 0.0029364 0.0329967
745250000 0.0029879 0.0334908 0.9970121 -0.0334908 0.9970121 -0.0334908 0.0029879 0.0334908
752500000 0.0030403 0.0339840 0.9969597 -0.0339840 0.9969597 -0.0339840 0.0030403 0.0339840
759750000 0.0030937 0.0344762 0.9969063 -0.0344762 0.9969063 -0.0344762 0.0030937 0.0344762
767000000 0.0031481 0.0349676 0.9968519 -0.0349676 0.9968519 -0.0349676 0.0031481 0.0349676
774250000 0.0032035 0.0354580 0.9967965 -0.0354580 0.9967965 -0.0354580 0.0032035 0.0354580
781500000 0.0032600 0.0359477 0.9967400 -0.0359477 0.9967400 -0.0359477 0.0032600 0.0359477
788750000 0.0033175 0.0364366 0.9966825 -0.0364366 0.9966825 -0.0364366 0.0033175 0.0364366
796000000 0.0033761 0.0369248 0.9966239 -0.0369248 0.9966239 -0.0369248 0.0033761 0.0369248
803250000 0.0034359 0.0374123 0.9965641 -0.0374123 0.9965641 -0.0374123 0.0034359 0.0374123
810500000 0.0034968 0.0378992 0.9965032 -0.0378992 0.9965032 -0.0378992 0.0034968 0.0378992
817750000 0.0035589 0.0383855 0.9964411 -0.0383855 0.9964411 -0.0383855 0.0035589 0.0383855
825000000 0.0036223 0.0388712 0.9963777 -0.0388712 0.9963777 -0.0388712 0.0036223 0.0388712
832250000 0.0036869 0.0393564 0.9963131 -0.0393564 0.9963131 -0.0393564 0.0036869 0.0393564
839500000 0.0037529 0.0398411 0.9962471 -0.0398411 0.9962471 -0.0398411 0.0037529 0.0398411
846750000 0.0038203 0.0403254 0.9961797 -0.0403254 0.9961797 -0.0403254 0.0038203 0.0403254
854000000 0.0038891 0.0408092 0.9961109 -0.0408092 0.9961109 -0.0408092 0.0038891 0.0408092
861250000 0.0039594 0.0412926 0.9960406 -0.0412926 0.9960406 -0.0412926 0.0039594 0.0412926
868500000 0.0040313 0.0417756 0.9959687 -0.0417756 0.9959687 -0.0417756 0.0040313 0.0417756
875750000 0.0041047 0.0422582 0.9958953 -0.0422582 0.9958953 -0.0422582 0.0041047 0.0422582
883000000 0.0041799 0.0427405 0.9958201 -0.0427405 0.9958201 -0.0427405 0.0041799 0.0427405
890250000 0.0042567 0.0432224 0.9957433 -0.0432224 0.9957433 -0.0432224 0.0042567 0.0432224
897500000 0.0043354 0.0437040 0.9956646 -0.0437040 0.9956646 -0.0437040 0.0043354 0.0437040
904750000 0.0044160 0.0441852 0.9955840 -0.0441852 0.9955840 -0.0441852 0.0044160 0.0441852
912000000 0.0044985 0.0446662 0.9955015 -0.0446662 0.9955015 -0.0446662 0.0044985 0.0446662
919250000 0.0045832 0.0451468 0.9954168 -0.0451468 0.9954168 -0.0451468 0.0045832 0.0451468
926500000 0.0046699 0.0456271 0.9953301 -0.0456271 0.9953301 -0.0456271 0.0046699 0.0456271
933750000 0.0047590 0.0461070 0.9952410 -0.0461070 0.9952410 -0.0461070 0.0047590 0.0461070
941000000 0.0048504 0.0465865 0.9951496 -0.0465865 0.9951496 -0.0465865 0.0048504 0.0465865
948250000 0.0049442 0.0470656 0.9950558 -0.0470656 0.9950558 -0.0470656 0.0049442 0.0470656
955500000 0.0050407 0.0475442 0.9949593 -0.0475442 0.9949593 -0.0475442 0.0050407 0.0475442
962750000 0.0051399 0.0480223 0.9948601 -0.0480223 0.9948601 -0.0480223 0.0051399 0.0480223
970000000 0.0052419 0.0484998 0.9947581 -0.0484998 0.9947581 -0.0484998 0.0052419 0.0484998
977250000 0.0053469 0.0489766 0.9946531 -0.0489766 0.9946531 -0.0489766 0.0053469 0.0489766
984500000 0.0054551 0.0494527 0.9945449 -0.0494527 0.9945449 -0.0494527 0.0054551 0.0494527
991750000 0.0055665 0.0499279 0.9944335 -0.0499279 0.9944335 -0.0499279 0.0055665 0.0499279
999000000 0.0056813 0.0504020 0.9943187 -0.0504020 0.9943187 -0.0504020 0.0056813 0.0504020
1006250000 0.0057996 0.0508750 0.9942004 -0.0508750 0.9942004 -0.0508750 0.0057996 0.0508750
1013500000 0.0059217 0.0513466 0.9940783 -0.0513466 0.9940783 -0.0513466 0.0059217 0.0513466
1020750000 0.0060476 0.0518166 0.9939524 -0.0518166 0.9939524 -0.0518166 0.0060476 0.0518166
1028000000 0.0061776 0.0522848 0.9938224 -0.0522848 0.9938224 -0.0522848 0.0061776 0.0522848
1035250000 0.0063117 0.0527509 0.9936883 -0.0527509 0.9936883 -0.0527509 0.0063117 0.0527509
1042500000 0.0064501 0.0532146 0.9935499 -0.0532146 0.9935499 -0.0532146 0.0064501 0.0532146
1049750000 0.0065930 0.0536756 0.9934070 -0.0536756 0.9934070 -0.0536756 0.0065930 0.0536756
1057000000 0.0067403 0.0541334 0.9932597 -0.0541334 0.9932597 -0.0541334 0.0067403 0.0541334
1064250000 0.0068922 0.0545877 0.9931078 -0.0545877 0.9931078 -0.0545877 0.0068922 0.0545877
1071500000 0.0070488 0.0550378 0.9929512 -0.0550378 0.9929512 -0.0550378 0.0070488 0.0550378
1078750000 0.0072099 0.0554834 0.9927901 -0.0554834 0.9927901 -0.0554834 0.0072099 0.0554834
1086000000 0.0073757 0.0559238 0.9926243 -0.0559238 0.9926243 -0.0559238 0.0073757 0.0559238
1093250000 0.0075458 0.0563585 0.9924542 -0.0563585 0.9924542 -0.0563585 0.0075458 0.0563585
1100500000 0.0077201 0.0567866 0.9922799 -0.0567866 0.9922799 -0.0567866 0.0077201 0.0567866
1107750000 0.0078983 0.0572077 0.9921017 -0.0572077 0.9921017 -0.0572077 0.0078983 0.0572077
1115000000 0.0080801 0.0576208 0.9919199 -0.0576208 0.9919199 -0.0576208 0.0080801 0.0576208
1122250000 0.0082647 0.0580254 0.9917353 -0.0580254 0.9917353 -0.0580254 0.0082647 0.0580254
1129500000 0.0084517 0.0584207 0.9915483 -0.0584207 0.9915483 -0.0584207 0.0084517 0.0584207
1136750000 0.0086401 0.0588061 0.9913599 -0.0588061 0.9913599 -0.0588061 0.0086401 0.0588061
1144000000 0.0088289 0.0591808 0.9911711 -0.0591808 0.9911711 -0.0591808 0.0088289 0.0591808
1151250000 0.0090171 0.0595445 0.9909829 -0.0595445 0.9909829 -0.0595445 0.0090171 0.0595445
1158500000 0.0092034 0.0598967 0.9907966 -0.0598967 0.9907966 -0.0598967 0.0092034 0.0598967
1165750000 0.0093862 0.0602372 0.9906138 -0.0602372 0.9906138 -0.0602372 0.0093862 0.0602372
1173000000 0.0095641 0.0605661 0.9904359 -0.0605661 0.9904359 -0.0605661 0.0095641 0.0605661
1180250000 0.0097356 0.0608836 0.9902644 -0.0608836 0.9902644 -0.0608836 0.0097356 0.0608836
1187500000 0.0098988 0.0611902 0.9901012 -0.0611902 0.9901012 -0.0611902 0.0098988 0.0611902
1194750000 0.0100523 0.0614868 0.9899477 -0.0614868 0.9899477 -0.0614868 0.0100523 0.0614868
1202000000 0.0101944 0.0617746 0.9898056 -0.0617746 0.9898056 -0.0617746 0.0101944 0.0617746
1209250000 0.0103240 0.0620549 0.9896760 -0.0620549 0.9896760 -0.0620549 0.0103240 0.0620549
1216500000 0.0104398 0.0623295 0.9895602 -0.0623295 0.9895602 -0.0623295 0.0104398 0.0623295
1223750000 0.0105410 0.0626002 0.9894590 -0.0626002 0.9894590 -0.0626002 0.0105410 0.0626002
1231000000 0.0106271 0.0628691 0.9893729 -0.0628691 0.9893729 -0.0628691 0.0106271 0.0628691
1238250000 0.0106980 0.0631383 0.9893020 -0.0631383 0.9893020 -0.0631383 0.0106980 0.0631383
1245500000 0.0107539 0.0634099 0.9892461 -0.0634099 0.9892461 -0.0634099 0.0107539 0.0634099
1252750000 0.0107955 0.0636860 0.9892045 -0.0636860 0.9892045 -0.0636860 0.0107955 0.0636860
1260000000 0.0108236 0.0639683 0.9891764 -0.0639683 0.9891764 -0.0639683 0.0108236 0.0639683
1267250000 0.0108395 0.0642585 0.9891605 -0.0642585 0.9891605 -0.0642585 0.0108395 0.0642585
1274500000 0.0108445 0.0645579 0.9891555 -0.0645579 0.9891555 -0.0645579 0.0108445 0.0645579
1281750000 0.0108403 0.0648677 0.9891597 -0.0648677 0.9891597 -0.0648677 0.0108403 0.0648677
1289000000 0.0108284 0.0651885 0.9891716 -0.0651885 0.9891716 -0.0651885 0.0108284 0.0651885
1296250000 0.0108105 0.0655208 0.9891895 -0.0655208 0.9891895 -0.0655208 0.0108105 0.0655208
1303500000 0.0107882 0.0658649 0.9892118 -0.0658649 0.9892118 -0.0658649 0.0107882 0.0658649
1310750000 0.0107630 0.0662207 0.9892370 -0.0662207 0.9892370 -0.0662207 0.0107630 0.0662207
1318000000 0.0107364 0.0665879 0.9892636 -0.0665879 0.9892636 -0.0665879 0.0107364 0.0665879
1325250000 0.0107096 0.0669660 0.9892904 -0.0669660 0.9892904 -0.0669660 0.0107096 0.0669660
1332500000 0.0106837 0.0673547 0.9893163 -0.0673547 0.9893163 -0.0673547 0.0106837 0.0673547
1339750000 0.0106596 0.0677532 0.9893404 -0.0677532 0.9893404 -0.0677532 0.0106596 0.0677532
1347000000 0.0106382 0.0681609 0.9893618 -0.0681609 0.9893618 -0.0681609 0.0106382 0.0681609
1354250000 0.0106202 0.0685770 0.9893798 -0.0685770 0.9893798 -0.0685770 0.0106202 0.0685770
1361500000 0.0106060 0.0690008 0.9893940 -0.0690008 0.9893940 -0.0690008 0.0106060 0.0690008
1368750000 0.0105960 0.0694315 0.9894040 -0.0694315 0.9894040 -0.0694315 0.0105960 0.0694315
1376000000 0.0105906 0.0698686 0.9894094 -0.0698686 0.9894094 -0.0698686 0.0105906 0.0698686
1383250000 0.0105899 0.0703114 0.9894101 -0.0703114 0.9894101 -0.0703114 0.0105899 0.0703114
1390500000 0.0105941 0.0707592 0.9894059 -0.0707592 0.9894059 -0.0707592 0.0105941 0.0707592
1397750000 0.0106032 0.0712114 0.9893968 -0.0712114 0.9893968 -0.0712114 0.0106032 0.0712114
1405000000 0.0106174 0.0716676 0.9893826 -0.0716676 0.9893826 -0.0716676 0.0106174 0.0716676
1412250000 0.0106364 0.0721272 0.9893636 -0.0721272 0.9893636 -0.0721272 0.0106364 0.0721272
1419500000 0.0106604 0.0725898 0.9893396 -0.0725898 0.9893396 -0.0725898 0.0106604 0.0725898
1426750000 0.0106892 0.0730551 0.9893108 -0.0730551 0.9893108 -0.0730551 0.0106892 0.0730551
1434000000 0.0107226 0.0735227 0.9892774 -0.0735227 0.9892774 -0.0735227 0.0107226 0.0735227
1441250000 0.0107606 0.0739922 0.9892394 -0.0739922 0.9892394 -0.0739922 0.0107606 0.0739922
1448500000 0.0108031 0.0744634 0.9891969 -0.0744634 0.9891969 -0.0744634 0.0108031 0.0744634
1455750000 0.0108500 0.0749361 0.9891500 -0.0749361 0.9891500 -0.0749361 0.0108500 0.0749361
1463000000 0.0109010 0.0754100 0.9890990 -0.0754100 0.9890990 -0.0754100 0.0109010 0.0754100
1470250000 0.0109561 0.0758849 0.9890439 -0.0758849 0.9890439 -0.0758849 0.0109561 0.0758849
1477500000 0.0110151 0.0763607 0.9889849 -0.0763607 0.9889849 -0.0763607 0.0110151 0.0763607
1484750000 0.0110780 0.0768373 0.9889220 -0.0768373 0.9889220 -0.0768373 0.0110780 0.0768373
1492000000 0.0111445 0.0773144 0.9888555 -0.0773144 0.9888555 -0.0773144 0.0111445 0.0773144
1499250000 0.0112146 0.0777920 0.9887854 -0.0777920 0.9887854 -0.0777920 0.0112146 0.0777920
1506500000 0.0112882 0.0782699 0.9887118 -0.0782699 0.9887118 -0.0782699 0.0112882 0.0782699
1513750000 0.0113652 0.0787482 0.9886348 -0.0787482 0.9886348 -0.0787482 0.0113652 0.0787482
1521000000 0.0114454 0.0792267 0.9885546 -0.0792267 0.9885546 -0.0792267 0.0114454 0.0792267
1528250000 0.0115289 0.0797053 0.9884711 -0.0797053 0.9884711 -0.0797053 0.0115289 0.0797053
1535500000 0.0116154 0.0801841 0.9883846 -0.0801841 0.9883846 -0.0801841 0.0116154 0.0801841
1542750000 0.0117049 0.0806629 0.9882951 -0.0806629 0.9882951 -0.0806629 0.0117049 0.0806629
1550000000 0.0117974 0.0811417 0.9882026 -0.0811417 0.9882026 -0.0811417 0.0117974 0.0811417
1557250000 0.0118928 0.0816204 0.9881072 -0.0816204 0.9881072 -0.0816204 0.0118928 0.0816204
1564500000 0.0119910 0.0820991 0.9880090 -0.0820991 0.9880090 -0.0820991 0.0119910 0.0820991
1571750000 0.0120919 0.0825777 0.9879081 -0.0825777 0.9879081 -0.0825777 0.0120919 0.0825777
1579000000 0.0121956 0.0830562 0.9878044 -0.0830562 0.9878044 -0.0830562 0.0121956 0.0830562
1586250000 0.0123020 0.0835346 0.9876980 -0.0835346 0.9876980 -0.0835346 0.0123020 0.0835346
1593500000 0.0124110 0.0840128 0.9875890 -0.0840128 0.9875890 -0.0840128 0.0124110 0.0840128
1600750000 0.0125226 0.0844908 0.9874774 -0.0844908 0.9874774 -0.0844908 0.0125226 0.0844908
1608000000 0.0126367 0.0849686 0.9873633 -0.0849686 0.9873633 -0.0849686 0.0126367 0.0849686
1615250000 0.0127534 0.0854462 0.9872466 -0.0854462 0.9872466 -0.0854462 0.0127534 0.0854462
1622500000 0.0128726 0.0859236 0.9871274 -0.0859236 0.9871274 -0.0859236 0.0128726 0.0859236
1629750000 0.0129944 0.0864007 0.9870056 -0.0864007 0.9870056 -0.0864007 0.0129944 0.0864007
