!Murata Part Number: GRM31A5C3A221JW01
!These Parameters are Measured in Series Mode Connection
!Data Generated on Mar 30, 2021
!       o--ll--o
!Port1            Port2
!       o------o
!Operation Temp=25[degC], DC Bias Voltage=0[V]
!Freq. Start=100[MHz] Stop=3[GHz] 401[Steps]
# Hz S RI R 50
!Freq.(Hz) S11(Real) S11(Imag) S21(Real) S21(Imag) S12(Real) S12(Imag) S22(Real) S22(Imag)
100000000 0.0053666 -0.0677143 0.9946334 0.0677143 0.9946334 0.0677143 0.0053666 -0.0677143
107250000 0.0046942 -0.0625919 0.9953058 0.0625919 0.9953058 0.0625919 0.0046942 -0.0625919
114500000 0.0041458 -0.0580714 0.9958542 0.0580714 0.9958542 0.0580714 0.0041458 -0.0580714
121750000 0.0036930 -0.0540470 0.9963070 0.0540470 0.9963070 0.0540470 0.0036930 -0.0540470
129000000 0.0033151 -0.0504362 0.9966849 0.0504362 0.9966849 0.0504362 0.0033151 -0.0504362
136250000 0.0029966 -0.0471737 0.9970034 0.0471737 0.9970034 0.0471737 0.0029966 -0.0471737
143500000 0.0027261 -0.0442073 0.9972739 0.0442073 0.9972739 0.0442073 0.0027261 -0.0442073
150750000 0.0024946 -0.0414946 0.9975054 0.0414946 0.9975054 0.0414946 0.0024946 -0.0414946
158000000 0.0022952 -0.0390011 0.9977048 0.0390011 0.9977048 0.0390011 0.0022952 -0.0390011
165250000 0.0021225 -0.0366979 0.9978775 0.0366979 0.9978775 0.0366979 0.0021225 -0.0366979
172500000 0.0019721 -0.0345614 0.9980279 0.0345614 0.9980279 0.0345614 0.0019721 -0.0345614
179750000 0.0018405 -0.0325713 0.9981595 0.0325713 0.9981595 0.0325713 0.0018405 -0.0325713
187000000 0.0017251 -0.0307109 0.9982749 0.0307109 0.9982749 0.0307109 0.0017251 -0.0307109
194250000 0.0016233 -0.0289655 0.9983767 0.0289655 0.9983767 0.0289655 0.0016233 -0.0289655
201500000 0.0015335 -0.0273227 0.9984665 0.0273227 0.9984665 0.0273227 0.0015335 -0.0273227
208750000 0.0014539 -0.0257720 0.9985461 0.0257720 0.9985461 0.0257720 0.0014539 -0.0257720
216000000 0.0013833 -0.0243040 0.9986167 0.0243040 0.9986167 0.0243040 0.0013833 -0.0243040
223250000 0.0013205 -0.0229107 0.9986795 0.0229107 0.9986795 0.0229107 0.0013205 -0.0229107
230500000 0.0012647 -0.0215850 0.9987353 0.0215850 0.9987353 0.0215850 0.0012647 -0.0215850
237750000 0.0012151 -0.0203207 0.9987849 0.0203207 0.9987849 0.0203207 0.0012151 -0.0203207
245000000 0.0011709 -0.0191123 0.9988291 0.0191123 0.9988291 0.0191123 0.0011709 -0.0191123
252250000 0.0011317 -0.0179550 0.9988683 0.0179550 0.9988683 0.0179550 0.0011317 -0.0179550
259500000 0.0010968 -0.0168444 0.9989032 0.0168444 0.9989032 0.0168444 0.0010968 -0.0168444
266750000 0.0010659 -0.0157767 0.9989341 0.0157767 0.9989341 0.0157767 0.0010659 -0.0157767
274000000 0.0010386 -0.0147485 0.9989614 0.0147485 0.9989614 0.0147485 0.0010386 -0.0147485
281250000 0.0010146 -0.0137566 0.9989854 0.0137566 0.9989854 0.0137566 0.0010146 -0.0137566
288500000 0.0009935 -0.0127984 0.9990065 0.0127984 0.9990065 0.0127984 0.0009935 -0.0127984
295750000 0.0009752 -0.0118712 0.9990248 0.0118712 0.9990248 0.0118712 0.0009752 -0.0118712
303000000 0.0009594 -0.0109727 0.9990406 0.0109727 0.9990406 0.0109727 0.0009594 -0.0109727
310250000 0.0009459 -0.0101010 0.9990541 0.0101010 0.9990541 0.0101010 0.0009459 -0.0101010
317500000 0.0009345 -0.0092542 0.9990655 0.0092542 0.9990655 0.0092542 0.0009345 -0.0092542
324750000 0.0009252 -0.0084305 0.9990748 0.0084305 0.9990748 0.0084305 0.0009252 -0.0084305
332000000 0.0009177 -0.0076283 0.9990823 0.0076283 0.9990823 0.0076283 0.0009177 -0.0076283
339250000 0.0009119 -0.0068462 0.9990881 0.0068462 0.9990881 0.0068462 0.0009119 -0.0068462
346500000 0.0009078 -0.0060830 0.9990922 0.0060830 0.9990922 0.0060830 0.0009078 -0.0060830
353750000 0.0009052 -0.0053373 0.9990948 0.0053373 0.9990948 0.0053373 0.0009052 -0.0053373
361000000 0.0009041 -0.0046081 0.9990959 0.0046081 0.9990959 0.0046081 0.0009041 -0.0046081
368250000 0.0009044 -0.0038943 0.9990956 0.0038943 0.9990956 0.0038943 0.0009044 -0.0038943
375500000 0.0009060 -0.0031950 0.9990940 0.0031950 0.9990940 0.0031950 0.0009060 -0.0031950
382750000 0.0009089 -0.0025093 0.9990911 0.0025093 0.9990911 0.0025093 0.0009089 -0.0025093
390000000 0.0009130 -0.0018364 0.9990870 0.0018364 0.9990870 0.0018364 0.0009130 -0.0018364
397250000 0.0009182 -0.0011755 0.9990818 0.0011755 0.9990818 0.0011755 0.0009182 -0.0011755
404500000 0.0009246 -0.0005258 0.9990754 0.0005258 0.9990754 0.0005258 0.0009246 -0.0005258
411750000 0.0009320 0.0001132 0.9990680 -0.0001132 0.9990680 -0.0001132 0.0009320 0.0001132
419000000 0.0009406 0.0007423 0.9990594 -0.0007423 0.9990594 -0.0007423 0.0009406 0.0007423
426250000 0.0009501 0.0013619 0.9990499 -0.0013619 0.9990499 -0.0013619 0.0009501 0.0013619
433500000 0.0009607 0.0019727 0.9990393 -0.0019727 0.9990393 -0.0019727 0.0009607 0.0019727
440750000 0.0009723 0.0025751 0.9990277 -0.0025751 0.9990277 -0.0025751 0.0009723 0.0025751
448000000 0.0009848 0.0031696 0.9990152 -0.0031696 0.9990152 -0.0031696 0.0009848 0.0031696
455250000 0.0009983 0.0037568 0.9990017 -0.0037568 0.9990017 -0.0037568 0.0009983 0.0037568
462500000 0.0010128 0.0043370 0.9989872 -0.0043370 0.9989872 -0.0043370 0.0010128 0.0043370
469750000 0.0010282 0.0049107 0.9989718 -0.0049107 0.9989718 -0.0049107 0.0010282 0.0049107
477000000 0.0010445 0.0054782 0.9989555 -0.0054782 0.9989555 -0.0054782 0.0010445 0.0054782
484250000 0.0010618 0.0060399 0.9989382 -0.0060399 0.9989382 -0.0060399 0.0010618 0.0060399
491500000 0.0010801 0.0065962 0.9989199 -0.0065962 0.9989199 -0.0065962 0.0010801 0.0065962
498750000 0.0010993 0.0071474 0.9989007 -0.0071474 0.9989007 -0.0071474 0.0010993 0.0071474
506000000 0.0011195 0.0076938 0.9988805 -0.0076938 0.9988805 -0.0076938 0.0011195 0.0076938
513250000 0.0011406 0.0082357 0.9988594 -0.0082357 0.9988594 -0.0082357 0.0011406 0.0082357
520500000 0.0011628 0.0087735 0.9988372 -0.0087735 0.9988372 -0.0087735 0.0011628 0.0087735
527750000 0.0011859 0.0093074 0.9988141 -0.0093074 0.9988141 -0.0093074 0.0011859 0.0093074
535000000 0.0012101 0.0098378 0.9987899 -0.0098378 0.9987899 -0.0098378 0.0012101 0.0098378
542250000 0.0012353 0.0103648 0.9987647 -0.0103648 0.9987647 -0.0103648 0.0012353 0.0103648
549500000 0.0012615 0.0108887 0.9987385 -0.0108887 0.9987385 -0.0108887 0.0012615 0.0108887
556750000 0.0012889 0.0114099 0.9987111 -0.0114099 0.9987111 -0.0114099 0.0012889 0.0114099
564000000 0.0013174 0.0119285 0.9986826 -0.0119285 0.9986826 -0.0119285 0.0013174 0.0119285
571250000 0.0013471 0.0124448 0.9986529 -0.0124448 0.9986529 -0.0124448 0.0013471 0.0124448
578500000 0.0013780 0.0129590 0.9986220 -0.0129590 0.9986220 -0.0129590 0.0013780 0.0129590
585750000 0.0014101 0.0134714 0.9985899 -0.0134714 0.9985899 -0.0134714 0.0014101 0.0134714
593000000 0.0014435 0.0139822 0.9985565 -0.0139822 0.9985565 -0.0139822 0.0014435 0.0139822
600250000 0.0014783 0.0144917 0.9985217 -0.0144917 0.9985217 -0.0144917 0.0014783 0.0144917
607500000 0.0015145 0.0150000 0.9984855 -0.0150000 0.9984855 -0.0150000 0.0015145 0.0150000
614750000 0.0015522 0.0155075 0.9984478 -0.0155075 0.9984478 -0.0155075 0.0015522 0.0155075
622000000 0.0015914 0.0160143 0.9984086 -0.0160143 0.9984086 -0.0160143 0.0015914 0.0160143
629250000 0.0016323 0.0165207 0.9983677 -0.0165207 0.9983677 -0.0165207 0.0016323 0.0165207
636500000 0.0016749 0.0170269 0.9983251 -0.0170269 0.9983251 -0.0170269 0.0016749 0.0170269
643750000 0.0017193 0.0175332 0.9982807 -0.0175332 0.9982807 -0.0175332 0.0017193 0.0175332
651000000 0.0017657 0.0180398 0.9982343 -0.0180398 0.9982343 -0.0180398 0.0017657 0.0180398
658250000 0.0018140 0.0185471 0.9981860 -0.0185471 0.9981860 -0.0185471 0.0018140 0.0185471
665500000 0.0018646 0.0190551 0.9981354 -0.0190551 0.9981354 -0.0190551 0.0018646 0.0190551
672750000 0.0019175 0.0195643 0.9980825 -0.0195643 0.9980825 -0.0195643 0.0019175 0.0195643
680000000 0.0019728 0.0200749 0.9980272 -0.0200749 0.9980272 -0.0200749 0.0019728 0.0200749
687250000 0.0020309 0.0205871 0.9979691 -0.0205871 0.9979691 -0.0205871 0.0020309 0.0205871
694500000 0.0020917 0.0211014 0.9979083 -0.0211014 0.9979083 -0.0211014 0.0020917 0.0211014
701750000 0.0021557 0.0216179 0.9978443 -0.0216179 0.9978443 -0.0216179 0.0021557 0.0216179
709000000 0.0022229 0.0221371 0.9977771 -0.0221371 0.9977771 -0.0221371 0.0022229 0.0221371
716250000 0.0022937 0.0226593 0.9977063 -0.0226593 0.9977063 -0.0226593 0.0022937 0.0226593
723500000 0.0023685 0.0231848 0.9976315 -0.0231848 0.9976315 -0.0231848 0.0023685 0.0231848
730750000 0.0024474 0.0237141 0.9975526 -0.0237141 0.9975526 -0.0237141 0.0024474 0.0237141
738000000 0.0025310 0.0242476 0.9974690 -0.0242476 0.9974690 -0.0242476 0.0025310 0.0242476
745250000 0.0026195 0.0247856 0.9973805 -0.0247856 0.9973805 -0.0247856 0.0026195 0.0247856
752500000 0.0027137 0.0253287 0.9972863 -0.0253287 0.9972863 -0.0253287 0.0027137 0.0253287
759750000 0.0028139 0.0258774 0.9971861 -0.0258774 0.9971861 -0.0258774 0.0028139 0.0258774
767000000 0.0029208 0.0264321 0.9970792 -0.0264321 0.9970792 -0.0264321 0.0029208 0.0264321
774250000 0.0030351 0.0269935 0.9969649 -0.0269935 0.9969649 -0.0269935 0.0030351 0.0269935
781500000 0.0031577 0.0275621 0.9968423 -0.0275621 0.9968423 -0.0275621 0.0031577 0.0275621
788750000 0.0032895 0.0281386 0.9967105 -0.0281386 0.9967105 -0.0281386 0.0032895 0.0281386
796000000 0.0034315 0.0287236 0.9965685 -0.0287236 0.9965685 -0.0287236 0.0034315 0.0287236
803250000 0.0035850 0.0293179 0.9964150 -0.0293179 0.9964150 -0.0293179 0.0035850 0.0293179
810500000 0.0037514 0.0299222 0.9962486 -0.0299222 0.9962486 -0.0299222 0.0037514 0.0299222
817750000 0.0039324 0.0305374 0.9960676 -0.0305374 0.9960676 -0.0305374 0.0039324 0.0305374
825000000 0.0041300 0.0311641 0.9958700 -0.0311641 0.9958700 -0.0311641 0.0041300 0.0311641
832250000 0.0043464 0.0318034 0.9956536 -0.0318034 0.9956536 -0.0318034 0.0043464 0.0318034
839500000 0.0045842 0.0324559 0.9954158 -0.0324559 0.9954158 -0.0324559 0.0045842 0.0324559
846750000 0.0048467 0.0331226 0.9951533 -0.0331226 0.9951533 -0.0331226 0.0048467 0.0331226
854000000 0.0051376 0.0338040 0.9948624 -0.0338040 0.9948624 -0.0338040 0.0051376 0.0338040
861250000 0.0054612 0.0345009 0.9945388 -0.0345009 0.9945388 -0.0345009 0.0054612 0.0345009
868500000 0.0058227 0.0352135 0.9941773 -0.0352135 0.9941773 -0.0352135 0.0058227 0.0352135
875750000 0.0062285 0.0359418 0.9937715 -0.0359418 0.9937715 -0.0359418 0.0062285 0.0359418
883000000 0.0066858 0.0366852 0.9933142 -0.0366852 0.9933142 -0.0366852 0.0066858 0.0366852
890250000 0.0072036 0.0374422 0.9927964 -0.0374422 0.9927964 -0.0374422 0.0072036 0.0374422
897500000 0.0077923 0.0382101 0.9922077 -0.0382101 0.9922077 -0.0382101 0.0077923 0.0382101
904750000 0.0084643 0.0389839 0.9915357 -0.0389839 0.9915357 -0.0389839 0.0084643 0.0389839
912000000 0.0092341 0.0397564 0.9907659 -0.0397564 0.9907659 -0.0397564 0.0092341 0.0397564
919250000 0.0101182 0.0405159 0.9898818 -0.0405159 0.9898818 -0.0405159 0.0101182 0.0405159
926500000 0.0111354 0.0412455 0.9888646 -0.0412455 0.9888646 -0.0412455 0.0111354 0.0412455
933750000 0.0123054 0.0419200 0.9876946 -0.0419200 0.9876946 -0.0419200 0.0123054 0.0419200
941000000 0.0136471 0.0425041 0.9863529 -0.0425041 0.9863529 -0.0425041 0.0136471 0.0425041
948250000 0.0151754 0.0429485 0.9848246 -0.0429485 0.9848246 -0.0429485 0.0151754 0.0429485
955500000 0.0168948 0.0431878 0.9831052 -0.0431878 0.9831052 -0.0431878 0.0168948 0.0431878
962750000 0.0187896 0.0431395 0.9812104 -0.0431395 0.9812104 -0.0431395 0.0187896 0.0431395
970000000 0.0208110 0.0427083 0.9791890 -0.0427083 0.9791890 -0.0427083 0.0208110 0.0427083
977250000 0.0228623 0.0418001 0.9771377 -0.0418001 0.9771377 -0.0418001 0.0228623 0.0418001
984500000 0.0247898 0.0403478 0.9752102 -0.0403478 0.9752102 -0.0403478 0.0247898 0.0403478
991750000 0.0263910 0.0383491 0.9736090 -0.0383491 0.9736090 -0.0383491 0.0263910 0.0383491
999000000 0.0274505 0.0359010 0.9725495 -0.0359010 0.9725495 -0.0359010 0.0274505 0.0359010
1006250000 0.0278020 0.0332074 0.9721980 -0.0332074 0.9721980 -0.0332074 0.0278020 0.0332074
1013500000 0.0273896 0.0305402 0.9726104 -0.0305402 0.9726104 -0.0305402 0.0273896 0.0305402
1020750000 0.0262912 0.0281651 0.9737088 -0.0281651 0.9737088 -0.0281651 0.0262912 0.0281651
1028000000 0.0246869 0.0262698 0.9753131 -0.0262698 0.9753131 -0.0262698 0.0246869 0.0262698
1035250000 0.0227955 0.0249331 0.9772045 -0.0249331 0.9772045 -0.0249331 0.0227955 0.0249331
1042500000 0.0208146 0.0241383 0.9791854 -0.0241383 0.9791854 -0.0241383 0.0208146 0.0241383
1049750000 0.0188893 0.0238098 0.9811107 -0.0238098 0.9811107 -0.0238098 0.0188893 0.0238098
1057000000 0.0171078 0.0238501 0.9828922 -0.0238501 0.9828922 -0.0238501 0.0171078 0.0238501
1064250000 0.0155118 0.0241641 0.9844882 -0.0241641 0.9844882 -0.0241641 0.0155118 0.0241641
1071500000 0.0141121 0.0246708 0.9858879 -0.0246708 0.9858879 -0.0246708 0.0141121 0.0246708
1078750000 0.0129013 0.0253071 0.9870987 -0.0253071 0.9870987 -0.0253071 0.0129013 0.0253071
1086000000 0.0118626 0.0260261 0.9881374 -0.0260261 0.9881374 -0.0260261 0.0118626 0.0260261
1093250000 0.0109760 0.0267940 0.9890240 -0.0267940 0.9890240 -0.0267940 0.0109760 0.0267940
1100500000 0.0102215 0.0275875 0.9897785 -0.0275875 0.9897785 -0.0275875 0.0102215 0.0275875
1107750000 0.0095802 0.0283907 0.9904198 -0.0283907 0.9904198 -0.0283907 0.0095802 0.0283907
1115000000 0.0090358 0.0291931 0.9909642 -0.0291931 0.9909642 -0.0291931 0.0090358 0.0291931
1122250000 0.0085738 0.0299879 0.9914262 -0.0299879 0.9914262 -0.0299879 0.0085738 0.0299879
1129500000 0.0081820 0.0307709 0.9918180 -0.0307709 0.9918180 -0.0307709 0.0081820 0.0307709
1136750000 0.0078503 0.0315398 0.9921497 -0.0315398 0.9921497 -0.0315398 0.0078503 0.0315398
1144000000 0.0075701 0.0322935 0.9924299 -0.0322935 0.9924299 -0.0322935 0.0075701 0.0322935
1151250000 0.0073341 0.0330315 0.9926659 -0.0330315 0.9926659 -0.0330315 0.0073341 0.0330315
1158500000 0.0071363 0.0337540 0.9928637 -0.0337540 0.9928637 -0.0337540 0.0071363 0.0337540
1165750000 0.0069718 0.0344617 0.9930282 -0.0344617 0.9930282 -0.0344617 0.0069718 0.0344617
1173000000 0.0068363 0.0351550 0.9931637 -0.0351550 0.9931637 -0.0351550 0.0068363 0.0351550
1180250000 0.0067264 0.0358351 0.9932736 -0.0358351 0.9932736 -0.0358351 0.0067264 0.0358351
1187500000 0.0066390 0.0365026 0.9933610 -0.0365026 0.9933610 -0.0365026 0.0066390 0.0365026
1194750000 0.0065716 0.0371585 0.9934284 -0.0371585 0.9934284 -0.0371585 0.0065716 0.0371585
1202000000 0.0065223 0.0378037 0.9934777 -0.0378037 0.9934777 -0.0378037 0.0065223 0.0378037
1209250000 0.0064891 0.0384392 0.9935109 -0.0384392 0.9935109 -0.0384392 0.0064891 0.0384392
1216500000 0.0064706 0.0390656 0.9935294 -0.0390656 0.9935294 -0.0390656 0.0064706 0.0390656
1223750000 0.0064656 0.0396839 0.9935344 -0.0396839 0.9935344 -0.0396839 0.0064656 0.0396839
1231000000 0.0064730 0.0402948 0.9935270 -0.0402948 0.9935270 -0.0402948 0.0064730 0.0402948
1238250000 0.0064919 0.0408990 0.9935081 -0.0408990 0.9935081 -0.0408990 0.0064919 0.0408990
1245500000 0.0065215 0.0414972 0.9934785 -0.0414972 0.9934785 -0.0414972 0.0065215 0.0414972
1252750000 0.0065613 0.0420899 0.9934387 -0.0420899 0.9934387 -0.0420899 0.0065613 0.0420899
1260000000 0.0066106 0.0426779 0.9933894 -0.0426779 0.9933894 -0.0426779 0.0066106 0.0426779
1267250000 0.0066692 0.0432616 0.9933308 -0.0432616 0.9933308 -0.0432616 0.0066692 0.0432616
1274500000 0.0067366 0.0438415 0.9932634 -0.0438415 0.9932634 -0.0438415 0.0067366 0.0438415
1281750000 0.0068127 0.0444182 0.9931873 -0.0444182 0.9931873 -0.0444182 0.0068127 0.0444182
1289000000 0.0068971 0.0449921 0.9931029 -0.0449921 0.9931029 -0.0449921 0.0068971 0.0449921
1296250000 0.0069899 0.0455636 0.9930101 -0.0455636 0.9930101 -0.0455636 0.0069899 0.0455636
1303500000 0.0070909 0.0461332 0.9929091 -0.0461332 0.9929091 -0.0461332 0.0070909 0.0461332
1310750000 0.0072001 0.0467011 0.9927999 -0.0467011 0.9927999 -0.0467011 0.0072001 0.0467011
1318000000 0.0073175 0.0472677 0.9926825 -0.0472677 0.9926825 -0.0472677 0.0073175 0.0472677
1325250000 0.0074433 0.0478334 0.9925567 -0.0478334 0.9925567 -0.0478334 0.0074433 0.0478334
1332500000 0.0075775 0.0483985 0.9924225 -0.0483985 0.9924225 -0.0483985 0.0075775 0.0483985
1339750000 0.0077204 0.0489633 0.9922796 -0.0489633 0.9922796 -0.0489633 0.0077204 0.0489633
1347000000 0.0078720 0.0495280 0.9921280 -0.0495280 0.9921280 -0.0495280 0.0078720 0.0495280
1354250000 0.0080329 0.0500928 0.9919671 -0.0500928 0.9919671 -0.0500928 0.0080329 0.0500928
1361500000 0.0082031 0.0506580 0.9917969 -0.0506580 0.9917969 -0.0506580 0.0082031 0.0506580
1368750000 0.0083830 0.0512237 0.9916170 -0.0512237 0.9916170 -0.0512237 0.0083830 0.0512237
1376000000 0.0085732 0.0517903 0.9914268 -0.0517903 0.9914268 -0.0517903 0.0085732 0.0517903
1383250000 0.0087739 0.0523577 0.9912261 -0.0523577 0.9912261 -0.0523577 0.0087739 0.0523577
1390500000 0.0089858 0.0529261 0.9910142 -0.0529261 0.9910142 -0.0529261 0.0089858 0.0529261
1397750000 0.0092093 0.0534957 0.9907907 -0.0534957 0.9907907 -0.0534957 0.0092093 0.0534957
1405000000 0.0094450 0.0540664 0.9905550 -0.0540664 0.9905550 -0.0540664 0.0094450 0.0540664
1412250000 0.0096936 0.0546383 0.9903064 -0.0546383 0.9903064 -0.0546383 0.0096936 0.0546383
1419500000 0.0099559 0.0552114 0.9900441 -0.0552114 0.9900441 -0.0552114 0.0099559 0.0552114
1426750000 0.0102326 0.0557856 0.9897674 -0.0557856 0.9897674 -0.0557856 0.0102326 0.0557856
1434000000 0.0105246 0.0563608 0.9894754 -0.0563608 0.9894754 -0.0563608 0.0105246 0.0563608
1441250000 0.0108327 0.0569368 0.9891673 -0.0569368 0.9891673 -0.0569368 0.0108327 0.0569368
1448500000 0.0111580 0.0575133 0.9888420 -0.0575133 0.9888420 -0.0575133 0.0111580 0.0575133
1455750000 0.0115016 0.0580901 0.9884984 -0.0580901 0.9884984 -0.0580901 0.0115016 0.0580901
1463000000 0.0118646 0.0586666 0.9881354 -0.0586666 0.9881354 -0.0586666 0.0118646 0.0586666
1470250000 0.0122482 0.0592424 0.9877518 -0.0592424 0.9877518 -0.0592424 0.0122482 0.0592424
1477500000 0.0126537 0.0598168 0.9873463 -0.0598168 0.9873463 -0.0598168 0.0126537 0.0598168
1484750000 0.0130827 0.0603889 0.9869173 -0.0603889 0.9869173 -0.0603889 0.0130827 0.0603889
1492000000 0.0135364 0.0609578 0.9864636 -0.0609578 0.9864636 -0.0609578 0.0135364 0.0609578
1499250000 0.0140166 0.0615224 0.9859834 -0.0615224 0.9859834 -0.0615224 0.0140166 0.0615224
1506500000 0.0145249 0.0620813 0.9854751 -0.0620813 0.9854751 -0.0620813 0.0145249 0.0620813
1513750000 0.0150630 0.0626327 0.9849370 -0.0626327 0.9849370 -0.0626327 0.0150630 0.0626327
1521000000 0.0156326 0.0631748 0.9843674 -0.0631748 0.9843674 -0.0631748 0.0156326 0.0631748
1528250000 0.0162356 0.0637054 0.9837644 -0.0637054 0.9837644 -0.0637054 0.0162356 0.0637054
1535500000 0.0168738 0.0642218 0.9831262 -0.0642218 0.9831262 -0.0642218 0.0168738 0.0642218
1542750000 0.0175490 0.0647209 0.9824510 -0.0647209 0.9824510 -0.0647209 0.0175490 0.0647209
1550000000 0.0182628 0.0651993 0.9817372 -0.0651993 0.9817372 -0.0651993 0.0182628 0.0651993
1557250000 0.0190169 0.0656530 0.9809831 -0.0656530 0.9809831 -0.0656530 0.0190169 0.0656530
1564500000 0.0198125 0.0660772 0.9801875 -0.0660772 0.9801875 -0.0660772 0.0198125 0.0660772
1571750000 0.0206508 0.0664668 0.9793492 -0.0664668 0.9793492 -0.0664668 0.0206508 0.0664668
1579000000 0.0215324 0.0668160 0.9784676 -0.0668160 0.9784676 -0.0668160 0.0215324 0.0668160
1586250000 0.0224571 0.0671181 0.9775429 -0.0671181 0.9775429 -0.0671181 0.0224571 0.0671181
1593500000 0.0234244 0.0673659 0.9765756 -0.0673659 0.9765756 -0.0673659 0.0234244 0.0673659
1600750000 0.0244325 0.0675516 0.9755675 -0.0675516 0.9755675 -0.0675516 0.0244325 0.0675516
1608000000 0.0254785 0.0676666 0.9745215 -0.0676666 0.9745215 -0.0676666 0.0254785 0.0676666
1615250000 0.0265581 0.0677021 0.9734419 -0.0677021 0.9734419 -0.0677021 0.0265581 0.0677021
1622500000 0.0276653 0.0676489 0.9723347 -0.0676489 0.9723347 -0.0676489 0.0276653 0.0676489
1629750000 0.0287922 0.0674977 0.9712078 -0.0674977 0.9712078 -0.0674977 0.0287922 0.0674977
