!Murata Part Number: GRM31C5C2J332JWA3
!These Parameters are Measured in Series Mode Connection
!Data Generated on Mar 30, 2021
!       o--ll--o
!Port1            Port2
!       o------o
!Operation Temp=25[degC], DC Bias Voltage=0[V]
!Freq. Start=1000[kHz] Stop=1000[MHz] 401[Steps]
# Hz S RI R 50
!Freq.(Hz) S11(Real) S11(Imag) S21(Real) S21(Imag) S12(Real) S12(Imag) S22(Real) S22(Imag)
1000000 0.1887069 -0.3911910 0.8112931 0.3911910 0.8112931 0.3911910 0.1887069 -0.3911910
1017419 0.1834763 -0.3869704 0.8165237 0.3869704 0.8165237 0.3869704 0.1834763 -0.3869704
1035142 0.1783588 -0.3827269 0.8216412 0.3827269 0.8216412 0.3827269 0.1783588 -0.3827269
1053174 0.1733537 -0.3784637 0.8266463 0.3784637 0.8266463 0.3784637 0.1733537 -0.3784637
1071519 0.1684604 -0.3741839 0.8315396 0.3741839 0.8315396 0.3741839 0.1684604 -0.3741839
1090184 0.1636778 -0.3698907 0.8363222 0.3698907 0.8363222 0.3698907 0.1636778 -0.3698907
1109175 0.1590050 -0.3655869 0.8409950 0.3655869 0.8409950 0.3655869 0.1590050 -0.3655869
1128496 0.1544411 -0.3612755 0.8455589 0.3612755 0.8455589 0.3612755 0.1544411 -0.3612755
1148154 0.1499847 -0.3569593 0.8500153 0.3569593 0.8500153 0.3569593 0.1499847 -0.3569593
1168154 0.1456349 -0.3526409 0.8543651 0.3526409 0.8543651 0.3526409 0.1456349 -0.3526409
1188502 0.1413902 -0.3483230 0.8586098 0.3483230 0.8586098 0.3483230 0.1413902 -0.3483230
1209205 0.1372494 -0.3440081 0.8627506 0.3440081 0.8627506 0.3440081 0.1372494 -0.3440081
1230269 0.1332110 -0.3396985 0.8667890 0.3396985 0.8667890 0.3396985 0.1332110 -0.3396985
1251699 0.1292737 -0.3353967 0.8707263 0.3353967 0.8707263 0.3353967 0.1292737 -0.3353967
1273503 0.1254360 -0.3311048 0.8745640 0.3311048 0.8745640 0.3311048 0.1254360 -0.3311048
1295687 0.1216962 -0.3268249 0.8783038 0.3268249 0.8783038 0.3268249 0.1216962 -0.3268249
1318257 0.1180529 -0.3225592 0.8819471 0.3225592 0.8819471 0.3225592 0.1180529 -0.3225592
1341220 0.1145045 -0.3183095 0.8854955 0.3183095 0.8854955 0.3183095 0.1145045 -0.3183095
1364583 0.1110494 -0.3140777 0.8889506 0.3140777 0.8889506 0.3140777 0.1110494 -0.3140777
1388353 0.1076858 -0.3098656 0.8923142 0.3098656 0.8923142 0.3098656 0.1076858 -0.3098656
1412538 0.1044122 -0.3056748 0.8955878 0.3056748 0.8955878 0.3056748 0.1044122 -0.3056748
1437143 0.1012268 -0.3015070 0.8987732 0.3015070 0.8987732 0.3015070 0.1012268 -0.3015070
1462177 0.0981279 -0.2973636 0.9018721 0.2973636 0.9018721 0.2973636 0.0981279 -0.2973636
1487647 0.0951139 -0.2932462 0.9048861 0.2932462 0.9048861 0.2932462 0.0951139 -0.2932462
1513561 0.0921830 -0.2891559 0.9078170 0.2891559 0.9078170 0.2891559 0.0921830 -0.2891559
1539927 0.0893336 -0.2850941 0.9106664 0.2850941 0.9106664 0.2850941 0.0893336 -0.2850941
1566751 0.0865638 -0.2810620 0.9134362 0.2810620 0.9134362 0.2810620 0.0865638 -0.2810620
1594043 0.0838720 -0.2770607 0.9161280 0.2770607 0.9161280 0.2770607 0.0838720 -0.2770607
1621810 0.0812565 -0.2730912 0.9187435 0.2730912 0.9187435 0.2730912 0.0812565 -0.2730912
1650061 0.0787156 -0.2691545 0.9212844 0.2691545 0.9212844 0.2691545 0.0787156 -0.2691545
1678804 0.0762476 -0.2652515 0.9237524 0.2652515 0.9237524 0.2652515 0.0762476 -0.2652515
1708048 0.0738507 -0.2613830 0.9261493 0.2613830 0.9261493 0.2613830 0.0738507 -0.2613830
1737801 0.0715234 -0.2575497 0.9284766 0.2575497 0.9284766 0.2575497 0.0715234 -0.2575497
1768072 0.0692640 -0.2537525 0.9307360 0.2537525 0.9307360 0.2537525 0.0692640 -0.2537525
1798871 0.0670708 -0.2499919 0.9329292 0.2499919 0.9329292 0.2499919 0.0670708 -0.2499919
1830206 0.0649422 -0.2462685 0.9350578 0.2462685 0.9350578 0.2462685 0.0649422 -0.2462685
1862087 0.0628766 -0.2425829 0.9371234 0.2425829 0.9371234 0.2425829 0.0628766 -0.2425829
1894524 0.0608725 -0.2389355 0.9391275 0.2389355 0.9391275 0.2389355 0.0608725 -0.2389355
1927525 0.0589282 -0.2353267 0.9410718 0.2353267 0.9410718 0.2353267 0.0589282 -0.2353267
1961101 0.0570424 -0.2317570 0.9429576 0.2317570 0.9429576 0.2317570 0.0570424 -0.2317570
1995262 0.0552133 -0.2282267 0.9447867 0.2282267 0.9447867 0.2282267 0.0552133 -0.2282267
2030019 0.0534396 -0.2247360 0.9465604 0.2247360 0.9465604 0.2247360 0.0534396 -0.2247360
2065380 0.0517197 -0.2212851 0.9482803 0.2212851 0.9482803 0.2212851 0.0517197 -0.2212851
2101358 0.0500523 -0.2178744 0.9499477 0.2178744 0.9499477 0.2178744 0.0500523 -0.2178744
2137962 0.0484360 -0.2145040 0.9515640 0.2145040 0.9515640 0.2145040 0.0484360 -0.2145040
2175204 0.0468693 -0.2111739 0.9531307 0.2111739 0.9531307 0.2111739 0.0468693 -0.2111739
2213095 0.0453508 -0.2078842 0.9546492 0.2078842 0.9546492 0.2078842 0.0453508 -0.2078842
2251645 0.0438793 -0.2046351 0.9561207 0.2046351 0.9561207 0.2046351 0.0438793 -0.2046351
2290868 0.0424535 -0.2014265 0.9575465 0.2014265 0.9575465 0.2014265 0.0424535 -0.2014265
2330773 0.0410720 -0.1982584 0.9589280 0.1982584 0.9589280 0.1982584 0.0410720 -0.1982584
2371374 0.0397336 -0.1951309 0.9602664 0.1951309 0.9602664 0.1951309 0.0397336 -0.1951309
2412682 0.0384371 -0.1920437 0.9615629 0.1920437 0.9615629 0.1920437 0.0384371 -0.1920437
2454709 0.0371813 -0.1889969 0.9628187 0.1889969 0.9628187 0.1889969 0.0371813 -0.1889969
2497468 0.0359651 -0.1859903 0.9640349 0.1859903 0.9640349 0.1859903 0.0359651 -0.1859903
2540973 0.0347871 -0.1830238 0.9652129 0.1830238 0.9652129 0.1830238 0.0347871 -0.1830238
2585235 0.0336465 -0.1800971 0.9663535 0.1800971 0.9663535 0.1800971 0.0336465 -0.1800971
2630268 0.0325420 -0.1772103 0.9674580 0.1772103 0.9674580 0.1772103 0.0325420 -0.1772103
2676086 0.0314726 -0.1743629 0.9685274 0.1743629 0.9685274 0.1743629 0.0314726 -0.1743629
2722701 0.0304373 -0.1715549 0.9695627 0.1715549 0.9695627 0.1715549 0.0304373 -0.1715549
2770129 0.0294350 -0.1687859 0.9705650 0.1687859 0.9705650 0.1687859 0.0294350 -0.1687859
2818383 0.0284647 -0.1660558 0.9715353 0.1660558 0.9715353 0.1660558 0.0284647 -0.1660558
2867477 0.0275256 -0.1633642 0.9724744 0.1633642 0.9724744 0.1633642 0.0275256 -0.1633642
2917427 0.0266166 -0.1607109 0.9733834 0.1607109 0.9733834 0.1607109 0.0266166 -0.1607109
2968247 0.0257369 -0.1580956 0.9742631 0.1580956 0.9742631 0.1580956 0.0257369 -0.1580956
3019952 0.0248855 -0.1555179 0.9751145 0.1555179 0.9751145 0.1555179 0.0248855 -0.1555179
3072557 0.0240616 -0.1529777 0.9759384 0.1529777 0.9759384 0.1529777 0.0240616 -0.1529777
3126079 0.0232644 -0.1504745 0.9767356 0.1504745 0.9767356 0.1504745 0.0232644 -0.1504745
3180534 0.0224930 -0.1480080 0.9775070 0.1480080 0.9775070 0.1480080 0.0224930 -0.1480080
3235937 0.0217466 -0.1455778 0.9782534 0.1455778 0.9782534 0.1455778 0.0217466 -0.1455778
3292305 0.0210245 -0.1431837 0.9789755 0.1431837 0.9789755 0.1431837 0.0210245 -0.1431837
3349654 0.0203259 -0.1408253 0.9796741 0.1408253 0.9796741 0.1408253 0.0203259 -0.1408253
3408003 0.0196501 -0.1385022 0.9803499 0.1385022 0.9803499 0.1385022 0.0196501 -0.1385022
3467369 0.0189963 -0.1362140 0.9810037 0.1362140 0.9810037 0.1362140 0.0189963 -0.1362140
3527768 0.0183639 -0.1339603 0.9816361 0.1339603 0.9816361 0.1339603 0.0183639 -0.1339603
3589219 0.0177522 -0.1317409 0.9822478 0.1317409 0.9822478 0.1317409 0.0177522 -0.1317409
3651741 0.0171605 -0.1295552 0.9828395 0.1295552 0.9828395 0.1295552 0.0171605 -0.1295552
3715352 0.0165883 -0.1274030 0.9834117 0.1274030 0.9834117 0.1274030 0.0165883 -0.1274030
3780071 0.0160348 -0.1252838 0.9839652 0.1252838 0.9839652 0.1252838 0.0160348 -0.1252838
3845918 0.0154996 -0.1231973 0.9845004 0.1231973 0.9845004 0.1231973 0.0154996 -0.1231973
3912911 0.0149819 -0.1211430 0.9850181 0.1211430 0.9850181 0.1211430 0.0149819 -0.1211430
3981072 0.0144814 -0.1191205 0.9855186 0.1191205 0.9855186 0.1191205 0.0144814 -0.1191205
4050419 0.0139973 -0.1171296 0.9860027 0.1171296 0.9860027 0.1171296 0.0139973 -0.1171296
4120975 0.0135292 -0.1151696 0.9864708 0.1151696 0.9864708 0.1151696 0.0135292 -0.1151696
4192760 0.0130766 -0.1132404 0.9869234 0.1132404 0.9869234 0.1132404 0.0130766 -0.1132404
4265795 0.0126390 -0.1113415 0.9873610 0.1113415 0.9873610 0.1113415 0.0126390 -0.1113415
4340103 0.0122159 -0.1094724 0.9877841 0.1094724 0.9877841 0.1094724 0.0122159 -0.1094724
4415704 0.0118068 -0.1076329 0.9881932 0.1076329 0.9881932 0.1076329 0.0118068 -0.1076329
4492623 0.0114113 -0.1058224 0.9885887 0.1058224 0.9885887 0.1058224 0.0114113 -0.1058224
4570882 0.0110289 -0.1040406 0.9889711 0.1040406 0.9889711 0.1040406 0.0110289 -0.1040406
4650504 0.0106592 -0.1022872 0.9893408 0.1022872 0.9893408 0.1022872 0.0106592 -0.1022872
4731513 0.0103018 -0.1005617 0.9896982 0.1005617 0.9896982 0.1005617 0.0103018 -0.1005617
4813933 0.0099563 -0.0988637 0.9900437 0.0988637 0.9900437 0.0988637 0.0099563 -0.0988637
4897788 0.0096223 -0.0971929 0.9903777 0.0971929 0.9903777 0.0971929 0.0096223 -0.0971929
4983105 0.0092994 -0.0955489 0.9907006 0.0955489 0.9907006 0.0955489 0.0092994 -0.0955489
5069907 0.0089873 -0.0939313 0.9910127 0.0939313 0.9910127 0.0939313 0.0089873 -0.0939313
5158222 0.0086856 -0.0923396 0.9913144 0.0923396 0.9913144 0.0923396 0.0086856 -0.0923396
5248075 0.0083940 -0.0907737 0.9916060 0.0907737 0.9916060 0.0907737 0.0083940 -0.0907737
5339493 0.0081121 -0.0892329 0.9918879 0.0892329 0.9918879 0.0892329 0.0081121 -0.0892329
5432503 0.0078397 -0.0877171 0.9921603 0.0877171 0.9921603 0.0877171 0.0078397 -0.0877171
5527134 0.0075764 -0.0862258 0.9924236 0.0862258 0.9924236 0.0862258 0.0075764 -0.0862258
5623413 0.0073218 -0.0847587 0.9926782 0.0847587 0.9926782 0.0847587 0.0073218 -0.0847587
5721370 0.0070759 -0.0833154 0.9929241 0.0833154 0.9929241 0.0833154 0.0070759 -0.0833154
5821032 0.0068381 -0.0818955 0.9931619 0.0818955 0.9931619 0.0818955 0.0068381 -0.0818955
5922431 0.0066083 -0.0804988 0.9933917 0.0804988 0.9933917 0.0804988 0.0066083 -0.0804988
6025596 0.0063863 -0.0791247 0.9936137 0.0791247 0.9936137 0.0791247 0.0063863 -0.0791247
6130558 0.0061717 -0.0777731 0.9938283 0.0777731 0.9938283 0.0777731 0.0061717 -0.0777731
6237348 0.0059643 -0.0764436 0.9940357 0.0764436 0.9940357 0.0764436 0.0059643 -0.0764436
6345999 0.0057638 -0.0751357 0.9942362 0.0751357 0.9942362 0.0751357 0.0057638 -0.0751357
6456542 0.0055701 -0.0738492 0.9944299 0.0738492 0.9944299 0.0738492 0.0055701 -0.0738492
6569011 0.0053829 -0.0725838 0.9946171 0.0725838 0.9946171 0.0725838 0.0053829 -0.0725838
6683439 0.0052021 -0.0713391 0.9947979 0.0713391 0.9947979 0.0713391 0.0052021 -0.0713391
6799860 0.0050273 -0.0701148 0.9949727 0.0701148 0.9949727 0.0701148 0.0050273 -0.0701148
6918310 0.0048584 -0.0689106 0.9951416 0.0689106 0.9951416 0.0689106 0.0048584 -0.0689106
7038822 0.0046951 -0.0677261 0.9953049 0.0677261 0.9953049 0.0677261 0.0046951 -0.0677261
7161434 0.0045374 -0.0665610 0.9954626 0.0665610 0.9954626 0.0665610 0.0045374 -0.0665610
7286182 0.0043850 -0.0654151 0.9956150 0.0654151 0.9956150 0.0654151 0.0043850 -0.0654151
7413102 0.0042378 -0.0642881 0.9957622 0.0642881 0.9957622 0.0642881 0.0042378 -0.0642881
7542234 0.0040955 -0.0631795 0.9959045 0.0631795 0.9959045 0.0631795 0.0040955 -0.0631795
7673615 0.0039580 -0.0620892 0.9960420 0.0620892 0.9960420 0.0620892 0.0039580 -0.0620892
7807284 0.0038252 -0.0610168 0.9961748 0.0610168 0.9961748 0.0610168 0.0038252 -0.0610168
7943282 0.0036969 -0.0599621 0.9963031 0.0599621 0.9963031 0.0599621 0.0036969 -0.0599621
8081649 0.0035729 -0.0589247 0.9964271 0.0589247 0.9964271 0.0589247 0.0035729 -0.0589247
8222426 0.0034531 -0.0579044 0.9965469 0.0579044 0.9965469 0.0579044 0.0034531 -0.0579044
8365656 0.0033373 -0.0569008 0.9966627 0.0569008 0.9966627 0.0569008 0.0033373 -0.0569008
8511380 0.0032255 -0.0559139 0.9967745 0.0559139 0.9967745 0.0559139 0.0032255 -0.0559139
8659643 0.0031175 -0.0549431 0.9968825 0.0549431 0.9968825 0.0549431 0.0031175 -0.0549431
8810489 0.0030131 -0.0539883 0.9969869 0.0539883 0.9969869 0.0539883 0.0030131 -0.0539883
8963962 0.0029123 -0.0530493 0.9970877 0.0530493 0.9970877 0.0530493 0.0029123 -0.0530493
9120108 0.0028148 -0.0521257 0.9971852 0.0521257 0.9971852 0.0521257 0.0028148 -0.0521257
9278975 0.0027208 -0.0512173 0.9972792 0.0512173 0.9972792 0.0512173 0.0027208 -0.0512173
9440609 0.0026299 -0.0503238 0.9973701 0.0503238 0.9973701 0.0503238 0.0026299 -0.0503238
9605058 0.0025420 -0.0494451 0.9974580 0.0494451 0.9974580 0.0494451 0.0025420 -0.0494451
9772372 0.0024572 -0.0485808 0.9975428 0.0485808 0.9975428 0.0485808 0.0024572 -0.0485808
9942601 0.0023753 -0.0477307 0.9976247 0.0477307 0.9976247 0.0477307 0.0023753 -0.0477307
10115795 0.0022962 -0.0468946 0.9977038 0.0468946 0.9977038 0.0468946 0.0022962 -0.0468946
10292005 0.0022197 -0.0460722 0.9977803 0.0460722 0.9977803 0.0460722 0.0022197 -0.0460722
10471285 0.0021459 -0.0452633 0.9978541 0.0452633 0.9978541 0.0452633 0.0021459 -0.0452633
10653689 0.0020746 -0.0444677 0.9979254 0.0444677 0.9979254 0.0444677 0.0020746 -0.0444677
10839269 0.0020057 -0.0436851 0.9979943 0.0436851 0.9979943 0.0436851 0.0020057 -0.0436851
11028082 0.0019392 -0.0429153 0.9980608 0.0429153 0.9980608 0.0429153 0.0019392 -0.0429153
11220185 0.0018750 -0.0421582 0.9981250 0.0421582 0.9981250 0.0421582 0.0018750 -0.0421582
11415633 0.0018129 -0.0414134 0.9981871 0.0414134 0.9981871 0.0414134 0.0018129 -0.0414134
11614486 0.0017530 -0.0406809 0.9982470 0.0406809 0.9982470 0.0406809 0.0017530 -0.0406809
11816803 0.0016952 -0.0399603 0.9983048 0.0399603 0.9983048 0.0399603 0.0016952 -0.0399603
12022644 0.0016393 -0.0392514 0.9983607 0.0392514 0.9983607 0.0392514 0.0016393 -0.0392514
12232071 0.0015854 -0.0385541 0.9984146 0.0385541 0.9984146 0.0385541 0.0015854 -0.0385541
12445146 0.0015333 -0.0378682 0.9984667 0.0378682 0.9984667 0.0378682 0.0015333 -0.0378682
12661933 0.0014830 -0.0371935 0.9985170 0.0371935 0.9985170 0.0371935 0.0014830 -0.0371935
12882496 0.0014345 -0.0365297 0.9985655 0.0365297 0.9985655 0.0365297 0.0014345 -0.0365297
13106900 0.0013876 -0.0358767 0.9986124 0.0358767 0.9986124 0.0358767 0.0013876 -0.0358767
13335214 0.0013424 -0.0352342 0.9986576 0.0352342 0.9986576 0.0352342 0.0013424 -0.0352342
13567505 0.0012987 -0.0346022 0.9987013 0.0346022 0.9987013 0.0346022 0.0012987 -0.0346022
13803843 0.0012565 -0.0339804 0.9987435 0.0339804 0.9987435 0.0339804 0.0012565 -0.0339804
14044297 0.0012159 -0.0333687 0.9987841 0.0333687 0.9987841 0.0333687 0.0012159 -0.0333687
14288940 0.0011766 -0.0327668 0.9988234 0.0327668 0.9988234 0.0327668 0.0011766 -0.0327668
14537844 0.0011387 -0.0321746 0.9988613 0.0321746 0.9988613 0.0321746 0.0011387 -0.0321746
14791084 0.0011021 -0.0315919 0.9988979 0.0315919 0.9988979 0.0315919 0.0011021 -0.0315919
15048735 0.0010669 -0.0310186 0.9989331 0.0310186 0.9989331 0.0310186 0.0010669 -0.0310186
15310875 0.0010328 -0.0304544 0.9989672 0.0304544 0.9989672 0.0304544 0.0010328 -0.0304544
15577580 0.0010000 -0.0298993 0.9990000 0.0298993 0.9990000 0.0298993 0.0010000 -0.0298993
15848932 0.0009683 -0.0293530 0.9990317 0.0293530 0.9990317 0.0293530 0.0009683 -0.0293530
16125010 0.0009378 -0.0288155 0.9990622 0.0288155 0.9990622 0.0288155 0.0009378 -0.0288155
16405898 0.0009083 -0.0282865 0.9990917 0.0282865 0.9990917 0.0282865 0.0009083 -0.0282865
16691678 0.0008799 -0.0277658 0.9991201 0.0277658 0.9991201 0.0277658 0.0008799 -0.0277658
16982437 0.0008525 -0.0272534 0.9991475 0.0272534 0.9991475 0.0272534 0.0008525 -0.0272534
17278260 0.0008261 -0.0267491 0.9991739 0.0267491 0.9991739 0.0267491 0.0008261 -0.0267491
17579236 0.0008006 -0.0262528 0.9991994 0.0262528 0.9991994 0.0262528 0.0008006 -0.0262528
17885455 0.0007761 -0.0257642 0.9992239 0.0257642 0.9992239 0.0257642 0.0007761 -0.0257642
18197009 0.0007525 -0.0252833 0.9992475 0.0252833 0.9992475 0.0252833 0.0007525 -0.0252833
18513989 0.0007297 -0.0248099 0.9992703 0.0248099 0.9992703 0.0248099 0.0007297 -0.0248099
18836491 0.0007077 -0.0243439 0.9992923 0.0243439 0.9992923 0.0243439 0.0007077 -0.0243439
19164611 0.0006866 -0.0238851 0.9993134 0.0238851 0.9993134 0.0238851 0.0006866 -0.0238851
19498446 0.0006663 -0.0234335 0.9993337 0.0234335 0.9993337 0.0234335 0.0006663 -0.0234335
19838097 0.0006467 -0.0229888 0.9993533 0.0229888 0.9993533 0.0229888 0.0006467 -0.0229888
20183664 0.0006278 -0.0225509 0.9993722 0.0225509 0.9993722 0.0225509 0.0006278 -0.0225509
20535250 0.0006096 -0.0221198 0.9993904 0.0221198 0.9993904 0.0221198 0.0006096 -0.0221198
20892961 0.0005922 -0.0216952 0.9994078 0.0216952 0.9994078 0.0216952 0.0005922 -0.0216952
21256903 0.0005754 -0.0212771 0.9994246 0.0212771 0.9994246 0.0212771 0.0005754 -0.0212771
21627185 0.0005592 -0.0208654 0.9994408 0.0208654 0.9994408 0.0208654 0.0005592 -0.0208654
22003917 0.0005437 -0.0204598 0.9994563 0.0204598 0.9994563 0.0204598 0.0005437 -0.0204598
22387211 0.0005288 -0.0200604 0.9994712 0.0200604 0.9994712 0.0200604 0.0005288 -0.0200604
22777182 0.0005144 -0.0196670 0.9994856 0.0196670 0.9994856 0.0196670 0.0005144 -0.0196670
23173946 0.0005007 -0.0192794 0.9994993 0.0192794 0.9994993 0.0192794 0.0005007 -0.0192794
23577622 0.0004874 -0.0188976 0.9995126 0.0188976 0.9995126 0.0188976 0.0004874 -0.0188976
23988329 0.0004747 -0.0185215 0.9995253 0.0185215 0.9995253 0.0185215 0.0004747 -0.0185215
24406191 0.0004626 -0.0181508 0.9995374 0.0181508 0.9995374 0.0181508 0.0004626 -0.0181508
24831331 0.0004509 -0.0177856 0.9995491 0.0177856 0.9995491 0.0177856 0.0004509 -0.0177856
25263877 0.0004397 -0.0174257 0.9995603 0.0174257 0.9995603 0.0174257 0.0004397 -0.0174257
25703958 0.0004290 -0.0170711 0.9995710 0.0170711 0.9995710 0.0170711 0.0004290 -0.0170711
26151704 0.0004187 -0.0167215 0.9995813 0.0167215 0.9995813 0.0167215 0.0004187 -0.0167215
26607251 0.0004089 -0.0163769 0.9995911 0.0163769 0.9995911 0.0163769 0.0004089 -0.0163769
27070732 0.0003995 -0.0160373 0.9996005 0.0160373 0.9996005 0.0160373 0.0003995 -0.0160373
27542287 0.0003905 -0.0157024 0.9996095 0.0157024 0.9996095 0.0157024 0.0003905 -0.0157024
28022056 0.0003820 -0.0153723 0.9996180 0.0153723 0.9996180 0.0153723 0.0003820 -0.0153723
28510183 0.0003738 -0.0150468 0.9996262 0.0150468 0.9996262 0.0150468 0.0003738 -0.0150468
29006812 0.0003660 -0.0147257 0.9996340 0.0147257 0.9996340 0.0147257 0.0003660 -0.0147257
29512092 0.0003585 -0.0144091 0.9996415 0.0144091 0.9996415 0.0144091 0.0003585 -0.0144091
30026174 0.0003515 -0.0140969 0.9996485 0.0140969 0.9996485 0.0140969 0.0003515 -0.0140969
30549211 0.0003447 -0.0137888 0.9996553 0.0137888 0.9996553 0.0137888 0.0003447 -0.0137888
31081359 0.0003383 -0.0134849 0.9996617 0.0134849 0.9996617 0.0134849 0.0003383 -0.0134849
31622777 0.0003323 -0.0131851 0.9996677 0.0131851 0.9996677 0.0131851 0.0003323 -0.0131851
32173625 0.0003265 -0.0128892 0.9996735 0.0128892 0.9996735 0.0128892 0.0003265 -0.0128892
32734069 0.0003210 -0.0125972 0.9996790 0.0125972 0.9996790 0.0125972 0.0003210 -0.0125972
33304276 0.0003159 -0.0123090 0.9996841 0.0123090 0.9996841 0.0123090 0.0003159 -0.0123090
33884416 0.0003110 -0.0120245 0.9996890 0.0120245 0.9996890 0.0120245 0.0003110 -0.0120245
34474661 0.0003064 -0.0117436 0.9996936 0.0117436 0.9996936 0.0117436 0.0003064 -0.0117436
35075187 0.0003021 -0.0114662 0.9996979 0.0114662 0.9996979 0.0114662 0.0003021 -0.0114662
35686175 0.0002981 -0.0111923 0.9997019 0.0111923 0.9997019 0.0111923 0.0002981 -0.0111923
36307805 0.0002943 -0.0109218 0.9997057 0.0109218 0.9997057 0.0109218 0.0002943 -0.0109218
36940264 0.0002907 -0.0106546 0.9997093 0.0106546 0.9997093 0.0106546 0.0002907 -0.0106546
37583740 0.0002875 -0.0103906 0.9997125 0.0103906 0.9997125 0.0103906 0.0002875 -0.0103906
38238425 0.0002844 -0.0101297 0.9997156 0.0101297 0.9997156 0.0101297 0.0002844 -0.0101297
38904514 0.0002816 -0.0098719 0.9997184 0.0098719 0.9997184 0.0098719 0.0002816 -0.0098719
39582206 0.0002789 -0.0096170 0.9997211 0.0096170 0.9997211 0.0096170 0.0002789 -0.0096170
40271703 0.0002766 -0.0093651 0.9997234 0.0093651 0.9997234 0.0093651 0.0002766 -0.0093651
40973211 0.0002744 -0.0091160 0.9997256 0.0091160 0.9997256 0.0091160 0.0002744 -0.0091160
