!Murata Part Number: GRM31A7U2J120JW31
!These Parameters are Measured in Series Mode Connection
!Data Generated on Mar 30, 2021
!       o--ll--o
!Port1            Port2
!       o------o
!Operation Temp=25[degC], DC Bias Voltage=0[V]
!Freq. Start=100[MHz] Stop=3[GHz] 401[Steps]
# Hz S RI R 50
!Freq.(Hz) S11(Real) S11(Imag) S21(Real) S21(Imag) S12(Real) S12(Imag) S22(Real) S22(Imag)
100000000 0.6357388 -0.4804023 0.3642612 0.4804023 0.3642612 0.4804023 0.6357388 -0.4804023
107250000 0.6025438 -0.4884916 0.3974562 0.4884916 0.3974562 0.4884916 0.6025438 -0.4884916
114500000 0.5706087 -0.4940489 0.4293913 0.4940489 0.4293913 0.4940489 0.5706087 -0.4940489
121750000 0.5400562 -0.4973922 0.4599438 0.4973922 0.4599438 0.4973922 0.5400562 -0.4973922
129000000 0.5109600 -0.4988186 0.4890400 0.4988186 0.4890400 0.4988186 0.5109600 -0.4988186
136250000 0.4833542 -0.4986009 0.5166458 0.4986009 0.5166458 0.4986009 0.4833542 -0.4986009
143500000 0.4572417 -0.4969856 0.5427583 0.4969856 0.5427583 0.4969856 0.4572417 -0.4969856
150750000 0.4326014 -0.4941928 0.5673986 0.4941928 0.5673986 0.4941928 0.4326014 -0.4941928
158000000 0.4093949 -0.4904172 0.5906051 0.4904172 0.5906051 0.4904172 0.4093949 -0.4904172
165250000 0.3875709 -0.4858294 0.6124291 0.4858294 0.6124291 0.4858294 0.3875709 -0.4858294
172500000 0.3670697 -0.4805777 0.6329303 0.4805777 0.6329303 0.4805777 0.3670697 -0.4805777
179750000 0.3478264 -0.4747908 0.6521736 0.4747908 0.6521736 0.4747908 0.3478264 -0.4747908
187000000 0.3297733 -0.4685788 0.6702267 0.4685788 0.6702267 0.4685788 0.3297733 -0.4685788
194250000 0.3128420 -0.4620364 0.6871580 0.4620364 0.6871580 0.4620364 0.3128420 -0.4620364
201500000 0.2969646 -0.4552441 0.7030354 0.4552441 0.7030354 0.4552441 0.2969646 -0.4552441
208750000 0.2820750 -0.4482701 0.7179250 0.4482701 0.7179250 0.4482701 0.2820750 -0.4482701
216000000 0.2681091 -0.4411722 0.7318909 0.4411722 0.7318909 0.4411722 0.2681091 -0.4411722
223250000 0.2550060 -0.4339987 0.7449940 0.4339987 0.7449940 0.4339987 0.2550060 -0.4339987
230500000 0.2427077 -0.4267903 0.7572923 0.4267903 0.7572923 0.4267903 0.2427077 -0.4267903
237750000 0.2311595 -0.4195807 0.7688405 0.4195807 0.7688405 0.4195807 0.2311595 -0.4195807
245000000 0.2203101 -0.4123981 0.7796899 0.4123981 0.7796899 0.4123981 0.2203101 -0.4123981
252250000 0.2101115 -0.4052653 0.7898885 0.4052653 0.7898885 0.4052653 0.2101115 -0.4052653
259500000 0.2005187 -0.3982013 0.7994813 0.3982013 0.7994813 0.3982013 0.2005187 -0.3982013
266750000 0.1914900 -0.3912213 0.8085100 0.3912213 0.8085100 0.3912213 0.1914900 -0.3912213
274000000 0.1829865 -0.3843375 0.8170135 0.3843375 0.8170135 0.3843375 0.1829865 -0.3843375
281250000 0.1749722 -0.3775595 0.8250278 0.3775595 0.8250278 0.3775595 0.1749722 -0.3775595
288500000 0.1674138 -0.3708947 0.8325862 0.3708947 0.8325862 0.3708947 0.1674138 -0.3708947
295750000 0.1602801 -0.3643487 0.8397199 0.3643487 0.8397199 0.3643487 0.1602801 -0.3643487
303000000 0.1535425 -0.3579257 0.8464575 0.3579257 0.8464575 0.3579257 0.1535425 -0.3579257
310250000 0.1471745 -0.3516283 0.8528255 0.3516283 0.8528255 0.3516283 0.1471745 -0.3516283
317500000 0.1411515 -0.3454583 0.8588485 0.3454583 0.8588485 0.3454583 0.1411515 -0.3454583
324750000 0.1354507 -0.3394165 0.8645493 0.3394165 0.8645493 0.3394165 0.1354507 -0.3394165
332000000 0.1300510 -0.3335029 0.8699490 0.3335029 0.8699490 0.3335029 0.1300510 -0.3335029
339250000 0.1249329 -0.3277169 0.8750671 0.3277169 0.8750671 0.3277169 0.1249329 -0.3277169
346500000 0.1200783 -0.3220575 0.8799217 0.3220575 0.8799217 0.3220575 0.1200783 -0.3220575
353750000 0.1154706 -0.3165232 0.8845294 0.3165232 0.8845294 0.3165232 0.1154706 -0.3165232
361000000 0.1110941 -0.3111121 0.8889059 0.3111121 0.8889059 0.3111121 0.1110941 -0.3111121
368250000 0.1069345 -0.3058222 0.8930655 0.3058222 0.8930655 0.3058222 0.1069345 -0.3058222
375500000 0.1029784 -0.3006512 0.8970216 0.3006512 0.8970216 0.3006512 0.1029784 -0.3006512
382750000 0.0992134 -0.2955966 0.9007866 0.2955966 0.9007866 0.2955966 0.0992134 -0.2955966
390000000 0.0956280 -0.2906558 0.9043720 0.2906558 0.9043720 0.2906558 0.0956280 -0.2906558
397250000 0.0922115 -0.2858263 0.9077885 0.2858263 0.9077885 0.2858263 0.0922115 -0.2858263
404500000 0.0889538 -0.2811053 0.9110462 0.2811053 0.9110462 0.2811053 0.0889538 -0.2811053
411750000 0.0858459 -0.2764900 0.9141541 0.2764900 0.9141541 0.2764900 0.0858459 -0.2764900
419000000 0.0828790 -0.2719776 0.9171210 0.2719776 0.9171210 0.2719776 0.0828790 -0.2719776
426250000 0.0800450 -0.2675656 0.9199550 0.2675656 0.9199550 0.2675656 0.0800450 -0.2675656
433500000 0.0773365 -0.2632510 0.9226635 0.2632510 0.9226635 0.2632510 0.0773365 -0.2632510
440750000 0.0747466 -0.2590312 0.9252534 0.2590312 0.9252534 0.2590312 0.0747466 -0.2590312
448000000 0.0722685 -0.2549035 0.9277315 0.2549035 0.9277315 0.2549035 0.0722685 -0.2549035
455250000 0.0698963 -0.2508653 0.9301037 0.2508653 0.9301037 0.2508653 0.0698963 -0.2508653
462500000 0.0676243 -0.2469141 0.9323757 0.2469141 0.9323757 0.2469141 0.0676243 -0.2469141
469750000 0.0654470 -0.2430472 0.9345530 0.2430472 0.9345530 0.2430472 0.0654470 -0.2430472
477000000 0.0633596 -0.2392623 0.9366404 0.2392623 0.9366404 0.2392623 0.0633596 -0.2392623
484250000 0.0613573 -0.2355569 0.9386427 0.2355569 0.9386427 0.2355569 0.0613573 -0.2355569
491500000 0.0594357 -0.2319287 0.9405643 0.2319287 0.9405643 0.2319287 0.0594357 -0.2319287
498750000 0.0575907 -0.2283754 0.9424093 0.2283754 0.9424093 0.2283754 0.0575907 -0.2283754
506000000 0.0558185 -0.2248947 0.9441815 0.2248947 0.9441815 0.2248947 0.0558185 -0.2248947
513250000 0.0541154 -0.2214847 0.9458846 0.2214847 0.9458846 0.2214847 0.0541154 -0.2214847
520500000 0.0524780 -0.2181431 0.9475220 0.2181431 0.9475220 0.2181431 0.0524780 -0.2181431
527750000 0.0509031 -0.2148679 0.9490969 0.2148679 0.9490969 0.2148679 0.0509031 -0.2148679
535000000 0.0493877 -0.2116572 0.9506123 0.2116572 0.9506123 0.2116572 0.0493877 -0.2116572
542250000 0.0479289 -0.2085091 0.9520711 0.2085091 0.9520711 0.2085091 0.0479289 -0.2085091
549500000 0.0465242 -0.2054217 0.9534758 0.2054217 0.9534758 0.2054217 0.0465242 -0.2054217
556750000 0.0451708 -0.2023932 0.9548292 0.2023932 0.9548292 0.2023932 0.0451708 -0.2023932
564000000 0.0438666 -0.1994220 0.9561334 0.1994220 0.9561334 0.1994220 0.0438666 -0.1994220
571250000 0.0426091 -0.1965064 0.9573909 0.1965064 0.9573909 0.1965064 0.0426091 -0.1965064
578500000 0.0413964 -0.1936447 0.9586036 0.1936447 0.9586036 0.1936447 0.0413964 -0.1936447
585750000 0.0402263 -0.1908354 0.9597737 0.1908354 0.9597737 0.1908354 0.0402263 -0.1908354
593000000 0.0390971 -0.1880770 0.9609029 0.1880770 0.9609029 0.1880770 0.0390971 -0.1880770
600250000 0.0380068 -0.1853681 0.9619932 0.1853681 0.9619932 0.1853681 0.0380068 -0.1853681
607500000 0.0369539 -0.1827071 0.9630461 0.1827071 0.9630461 0.1827071 0.0369539 -0.1827071
614750000 0.0359367 -0.1800929 0.9640633 0.1800929 0.9640633 0.1800929 0.0359367 -0.1800929
622000000 0.0349537 -0.1775239 0.9650463 0.1775239 0.9650463 0.1775239 0.0349537 -0.1775239
629250000 0.0340034 -0.1749990 0.9659966 0.1749990 0.9659966 0.1749990 0.0340034 -0.1749990
636500000 0.0330846 -0.1725170 0.9669154 0.1725170 0.9669154 0.1725170 0.0330846 -0.1725170
643750000 0.0321958 -0.1700766 0.9678042 0.1700766 0.9678042 0.1700766 0.0321958 -0.1700766
651000000 0.0313358 -0.1676767 0.9686642 0.1676767 0.9686642 0.1676767 0.0313358 -0.1676767
658250000 0.0305036 -0.1653162 0.9694964 0.1653162 0.9694964 0.1653162 0.0305036 -0.1653162
665500000 0.0296979 -0.1629940 0.9703021 0.1629940 0.9703021 0.1629940 0.0296979 -0.1629940
672750000 0.0289178 -0.1607091 0.9710822 0.1607091 0.9710822 0.1607091 0.0289178 -0.1607091
680000000 0.0281622 -0.1584604 0.9718378 0.1584604 0.9718378 0.1584604 0.0281622 -0.1584604
687250000 0.0274301 -0.1562470 0.9725699 0.1562470 0.9725699 0.1562470 0.0274301 -0.1562470
694500000 0.0267207 -0.1540680 0.9732793 0.1540680 0.9732793 0.1540680 0.0267207 -0.1540680
701750000 0.0260331 -0.1519223 0.9739669 0.1519223 0.9739669 0.1519223 0.0260331 -0.1519223
709000000 0.0253665 -0.1498093 0.9746335 0.1498093 0.9746335 0.1498093 0.0253665 -0.1498093
716250000 0.0247200 -0.1477279 0.9752800 0.1477279 0.9752800 0.1477279 0.0247200 -0.1477279
723500000 0.0240930 -0.1456774 0.9759070 0.1456774 0.9759070 0.1456774 0.0240930 -0.1456774
730750000 0.0234847 -0.1436570 0.9765153 0.1436570 0.9765153 0.1436570 0.0234847 -0.1436570
738000000 0.0228944 -0.1416659 0.9771056 0.1416659 0.9771056 0.1416659 0.0228944 -0.1416659
745250000 0.0223215 -0.1397033 0.9776785 0.1397033 0.9776785 0.1397033 0.0223215 -0.1397033
752500000 0.0217653 -0.1377685 0.9782347 0.1377685 0.9782347 0.1377685 0.0217653 -0.1377685
759750000 0.0212254 -0.1358609 0.9787746 0.1358609 0.9787746 0.1358609 0.0212254 -0.1358609
767000000 0.0207010 -0.1339797 0.9792990 0.1339797 0.9792990 0.1339797 0.0207010 -0.1339797
774250000 0.0201917 -0.1321242 0.9798083 0.1321242 0.9798083 0.1321242 0.0201917 -0.1321242
781500000 0.0196969 -0.1302939 0.9803031 0.1302939 0.9803031 0.1302939 0.0196969 -0.1302939
788750000 0.0192162 -0.1284881 0.9807838 0.1284881 0.9807838 0.1284881 0.0192162 -0.1284881
796000000 0.0187490 -0.1267062 0.9812510 0.1267062 0.9812510 0.1267062 0.0187490 -0.1267062
803250000 0.0182950 -0.1249477 0.9817050 0.1249477 0.9817050 0.1249477 0.0182950 -0.1249477
810500000 0.0178536 -0.1232119 0.9821464 0.1232119 0.9821464 0.1232119 0.0178536 -0.1232119
817750000 0.0174245 -0.1214983 0.9825755 0.1214983 0.9825755 0.1214983 0.0174245 -0.1214983
825000000 0.0170073 -0.1198064 0.9829927 0.1198064 0.9829927 0.1198064 0.0170073 -0.1198064
832250000 0.0166015 -0.1181357 0.9833985 0.1181357 0.9833985 0.1181357 0.0166015 -0.1181357
839500000 0.0162068 -0.1164856 0.9837932 0.1164856 0.9837932 0.1164856 0.0162068 -0.1164856
846750000 0.0158229 -0.1148557 0.9841771 0.1148557 0.9841771 0.1148557 0.0158229 -0.1148557
854000000 0.0154494 -0.1132455 0.9845506 0.1132455 0.9845506 0.1132455 0.0154494 -0.1132455
861250000 0.0150860 -0.1116546 0.9849140 0.1116546 0.9849140 0.1116546 0.0150860 -0.1116546
868500000 0.0147324 -0.1100824 0.9852676 0.1100824 0.9852676 0.1100824 0.0147324 -0.1100824
875750000 0.0143882 -0.1085286 0.9856118 0.1085286 0.9856118 0.1085286 0.0143882 -0.1085286
883000000 0.0140533 -0.1069928 0.9859467 0.1069928 0.9859467 0.1069928 0.0140533 -0.1069928
890250000 0.0137272 -0.1054745 0.9862728 0.1054745 0.9862728 0.1054745 0.0137272 -0.1054745
897500000 0.0134098 -0.1039733 0.9865902 0.1039733 0.9865902 0.1039733 0.0134098 -0.1039733
904750000 0.0131008 -0.1024889 0.9868992 0.1024889 0.9868992 0.1024889 0.0131008 -0.1024889
912000000 0.0128000 -0.1010209 0.9872000 0.1010209 0.9872000 0.1010209 0.0128000 -0.1010209
919250000 0.0125070 -0.0995688 0.9874930 0.0995688 0.9874930 0.0995688 0.0125070 -0.0995688
926500000 0.0122218 -0.0981325 0.9877782 0.0981325 0.9877782 0.0981325 0.0122218 -0.0981325
933750000 0.0119440 -0.0967114 0.9880560 0.0967114 0.9880560 0.0967114 0.0119440 -0.0967114
941000000 0.0116734 -0.0953053 0.9883266 0.0953053 0.9883266 0.0953053 0.0116734 -0.0953053
948250000 0.0114099 -0.0939139 0.9885901 0.0939139 0.9885901 0.0939139 0.0114099 -0.0939139
955500000 0.0111532 -0.0925368 0.9888468 0.0925368 0.9888468 0.0925368 0.0111532 -0.0925368
962750000 0.0109032 -0.0911738 0.9890968 0.0911738 0.9890968 0.0911738 0.0109032 -0.0911738
970000000 0.0106597 -0.0898244 0.9893403 0.0898244 0.9893403 0.0898244 0.0106597 -0.0898244
977250000 0.0104225 -0.0884885 0.9895775 0.0884885 0.9895775 0.0884885 0.0104225 -0.0884885
984500000 0.0101914 -0.0871657 0.9898086 0.0871657 0.9898086 0.0871657 0.0101914 -0.0871657
991750000 0.0099663 -0.0858558 0.9900337 0.0858558 0.9900337 0.0858558 0.0099663 -0.0858558
999000000 0.0097471 -0.0845585 0.9902529 0.0845585 0.9902529 0.0845585 0.0097471 -0.0845585
1006250000 0.0095334 -0.0832735 0.9904666 0.0832735 0.9904666 0.0832735 0.0095334 -0.0832735
1013500000 0.0093253 -0.0820005 0.9906747 0.0820005 0.9906747 0.0820005 0.0093253 -0.0820005
1020750000 0.0091226 -0.0807394 0.9908774 0.0807394 0.9908774 0.0807394 0.0091226 -0.0807394
1028000000 0.0089251 -0.0794899 0.9910749 0.0794899 0.9910749 0.0794899 0.0089251 -0.0794899
1035250000 0.0087327 -0.0782517 0.9912673 0.0782517 0.9912673 0.0782517 0.0087327 -0.0782517
1042500000 0.0085453 -0.0770246 0.9914547 0.0770246 0.9914547 0.0770246 0.0085453 -0.0770246
1049750000 0.0083627 -0.0758084 0.9916373 0.0758084 0.9916373 0.0758084 0.0083627 -0.0758084
1057000000 0.0081849 -0.0746029 0.9918151 0.0746029 0.9918151 0.0746029 0.0081849 -0.0746029
1064250000 0.0080117 -0.0734078 0.9919883 0.0734078 0.9919883 0.0734078 0.0080117 -0.0734078
1071500000 0.0078430 -0.0722229 0.9921570 0.0722229 0.9921570 0.0722229 0.0078430 -0.0722229
1078750000 0.0076787 -0.0710481 0.9923213 0.0710481 0.9923213 0.0710481 0.0076787 -0.0710481
1086000000 0.0075187 -0.0698831 0.9924813 0.0698831 0.9924813 0.0698831 0.0075187 -0.0698831
1093250000 0.0073629 -0.0687277 0.9926371 0.0687277 0.9926371 0.0687277 0.0073629 -0.0687277
1100500000 0.0072112 -0.0675817 0.9927888 0.0675817 0.9927888 0.0675817 0.0072112 -0.0675817
1107750000 0.0070635 -0.0664450 0.9929365 0.0664450 0.9929365 0.0664450 0.0070635 -0.0664450
1115000000 0.0069197 -0.0653174 0.9930803 0.0653174 0.9930803 0.0653174 0.0069197 -0.0653174
1122250000 0.0067798 -0.0641987 0.9932202 0.0641987 0.9932202 0.0641987 0.0067798 -0.0641987
1129500000 0.0066436 -0.0630887 0.9933564 0.0630887 0.9933564 0.0630887 0.0066436 -0.0630887
1136750000 0.0065110 -0.0619872 0.9934890 0.0619872 0.9934890 0.0619872 0.0065110 -0.0619872
1144000000 0.0063820 -0.0608942 0.9936180 0.0608942 0.9936180 0.0608942 0.0063820 -0.0608942
1151250000 0.0062566 -0.0598093 0.9937434 0.0598093 0.9937434 0.0598093 0.0062566 -0.0598093
1158500000 0.0061345 -0.0587326 0.9938655 0.0587326 0.9938655 0.0587326 0.0061345 -0.0587326
1165750000 0.0060158 -0.0576637 0.9939842 0.0576637 0.9939842 0.0576637 0.0060158 -0.0576637
1173000000 0.0059004 -0.0566026 0.9940996 0.0566026 0.9940996 0.0566026 0.0059004 -0.0566026
1180250000 0.0057882 -0.0555491 0.9942118 0.0555491 0.9942118 0.0555491 0.0057882 -0.0555491
1187500000 0.0056791 -0.0545031 0.9943209 0.0545031 0.9943209 0.0545031 0.0056791 -0.0545031
1194750000 0.0055731 -0.0534644 0.9944269 0.0534644 0.9944269 0.0534644 0.0055731 -0.0534644
1202000000 0.0054702 -0.0524329 0.9945298 0.0524329 0.9945298 0.0524329 0.0054702 -0.0524329
1209250000 0.0053702 -0.0514084 0.9946298 0.0514084 0.9946298 0.0514084 0.0053702 -0.0514084
1216500000 0.0052731 -0.0503909 0.9947269 0.0503909 0.9947269 0.0503909 0.0052731 -0.0503909
1223750000 0.0051788 -0.0493802 0.9948212 0.0493802 0.9948212 0.0493802 0.0051788 -0.0493802
1231000000 0.0050873 -0.0483761 0.9949127 0.0483761 0.9949127 0.0483761 0.0050873 -0.0483761
1238250000 0.0049986 -0.0473786 0.9950014 0.0473786 0.9950014 0.0473786 0.0049986 -0.0473786
1245500000 0.0049125 -0.0463874 0.9950875 0.0463874 0.9950875 0.0463874 0.0049125 -0.0463874
1252750000 0.0048291 -0.0454026 0.9951709 0.0454026 0.9951709 0.0454026 0.0048291 -0.0454026
1260000000 0.0047483 -0.0444240 0.9952517 0.0444240 0.9952517 0.0444240 0.0047483 -0.0444240
1267250000 0.0046700 -0.0434514 0.9953300 0.0434514 0.9953300 0.0434514 0.0046700 -0.0434514
1274500000 0.0045942 -0.0424848 0.9954058 0.0424848 0.9954058 0.0424848 0.0045942 -0.0424848
1281750000 0.0045208 -0.0415241 0.9954792 0.0415241 0.9954792 0.0415241 0.0045208 -0.0415241
1289000000 0.0044498 -0.0405690 0.9955502 0.0405690 0.9955502 0.0405690 0.0044498 -0.0405690
1296250000 0.0043812 -0.0396197 0.9956188 0.0396197 0.9956188 0.0396197 0.0043812 -0.0396197
1303500000 0.0043149 -0.0386758 0.9956851 0.0386758 0.9956851 0.0386758 0.0043149 -0.0386758
1310750000 0.0042509 -0.0377374 0.9957491 0.0377374 0.9957491 0.0377374 0.0042509 -0.0377374
1318000000 0.0041892 -0.0368043 0.9958108 0.0368043 0.9958108 0.0368043 0.0041892 -0.0368043
1325250000 0.0041296 -0.0358765 0.9958704 0.0358765 0.9958704 0.0358765 0.0041296 -0.0358765
1332500000 0.0040722 -0.0349538 0.9959278 0.0349538 0.9959278 0.0349538 0.0040722 -0.0349538
1339750000 0.0040169 -0.0340361 0.9959831 0.0340361 0.9959831 0.0340361 0.0040169 -0.0340361
1347000000 0.0039638 -0.0331235 0.9960362 0.0331235 0.9960362 0.0331235 0.0039638 -0.0331235
1354250000 0.0039127 -0.0322156 0.9960873 0.0322156 0.9960873 0.0322156 0.0039127 -0.0322156
1361500000 0.0038636 -0.0313126 0.9961364 0.0313126 0.9961364 0.0313126 0.0038636 -0.0313126
1368750000 0.0038165 -0.0304143 0.9961835 0.0304143 0.9961835 0.0304143 0.0038165 -0.0304143
1376000000 0.0037714 -0.0295205 0.9962286 0.0295205 0.9962286 0.0295205 0.0037714 -0.0295205
1383250000 0.0037283 -0.0286313 0.9962717 0.0286313 0.9962717 0.0286313 0.0037283 -0.0286313
1390500000 0.0036870 -0.0277465 0.9963130 0.0277465 0.9963130 0.0277465 0.0036870 -0.0277465
1397750000 0.0036476 -0.0268662 0.9963524 0.0268662 0.9963524 0.0268662 0.0036476 -0.0268662
1405000000 0.0036101 -0.0259900 0.9963899 0.0259900 0.9963899 0.0259900 0.0036101 -0.0259900
1412250000 0.0035744 -0.0251181 0.9964256 0.0251181 0.9964256 0.0251181 0.0035744 -0.0251181
1419500000 0.0035405 -0.0242504 0.9964595 0.0242504 0.9964595 0.0242504 0.0035405 -0.0242504
1426750000 0.0035084 -0.0233867 0.9964916 0.0233867 0.9964916 0.0233867 0.0035084 -0.0233867
1434000000 0.0034781 -0.0225270 0.9965219 0.0225270 0.9965219 0.0225270 0.0034781 -0.0225270
1441250000 0.0034494 -0.0216712 0.9965506 0.0216712 0.9965506 0.0216712 0.0034494 -0.0216712
1448500000 0.0034225 -0.0208192 0.9965775 0.0208192 0.9965775 0.0208192 0.0034225 -0.0208192
1455750000 0.0033973 -0.0199710 0.9966027 0.0199710 0.9966027 0.0199710 0.0033973 -0.0199710
1463000000 0.0033737 -0.0191266 0.9966263 0.0191266 0.9966263 0.0191266 0.0033737 -0.0191266
1470250000 0.0033518 -0.0182858 0.9966482 0.0182858 0.9966482 0.0182858 0.0033518 -0.0182858
1477500000 0.0033315 -0.0174485 0.9966685 0.0174485 0.9966685 0.0174485 0.0033315 -0.0174485
1484750000 0.0033128 -0.0166148 0.9966872 0.0166148 0.9966872 0.0166148 0.0033128 -0.0166148
1492000000 0.0032956 -0.0157845 0.9967044 0.0157845 0.9967044 0.0157845 0.0032956 -0.0157845
1499250000 0.0032801 -0.0149576 0.9967199 0.0149576 0.9967199 0.0149576 0.0032801 -0.0149576
1506500000 0.0032660 -0.0141340 0.9967340 0.0141340 0.9967340 0.0141340 0.0032660 -0.0141340
1513750000 0.0032536 -0.0133137 0.9967464 0.0133137 0.9967464 0.0133137 0.0032536 -0.0133137
1521000000 0.0032426 -0.0124966 0.9967574 0.0124966 0.9967574 0.0124966 0.0032426 -0.0124966
1528250000 0.0032331 -0.0116827 0.9967669 0.0116827 0.9967669 0.0116827 0.0032331 -0.0116827
1535500000 0.0032251 -0.0108718 0.9967749 0.0108718 0.9967749 0.0108718 0.0032251 -0.0108718
1542750000 0.0032185 -0.0100640 0.9967815 0.0100640 0.9967815 0.0100640 0.0032185 -0.0100640
1550000000 0.0032134 -0.0092592 0.9967866 0.0092592 0.9967866 0.0092592 0.0032134 -0.0092592
1557250000 0.0032097 -0.0084573 0.9967903 0.0084573 0.9967903 0.0084573 0.0032097 -0.0084573
1564500000 0.0032074 -0.0076582 0.9967926 0.0076582 0.9967926 0.0076582 0.0032074 -0.0076582
1571750000 0.0032066 -0.0068620 0.9967934 0.0068620 0.9967934 0.0068620 0.0032066 -0.0068620
1579000000 0.0032071 -0.0060686 0.9967929 0.0060686 0.9967929 0.0060686 0.0032071 -0.0060686
1586250000 0.0032090 -0.0052778 0.9967910 0.0052778 0.9967910 0.0052778 0.0032090 -0.0052778
1593500000 0.0032123 -0.0044897 0.9967877 0.0044897 0.9967877 0.0044897 0.0032123 -0.0044897
1600750000 0.0032169 -0.0037043 0.9967831 0.0037043 0.9967831 0.0037043 0.0032169 -0.0037043
1608000000 0.0032228 -0.0029214 0.9967772 0.0029214 0.9967772 0.0029214 0.0032228 -0.0029214
1615250000 0.0032301 -0.0021410 0.9967699 0.0021410 0.9967699 0.0021410 0.0032301 -0.0021410
1622500000 0.0032387 -0.0013631 0.9967613 0.0013631 0.9967613 0.0013631 0.0032387 -0.0013631
1629750000 0.0032486 -0.0005877 0.9967514 0.0005877 0.9967514 0.0005877 0.0032486 -0.0005877
