!Murata Part Number: GRM31A7U3A560JW31
!These Parameters are Measured in Series Mode Connection
!Data Generated on Mar 30, 2021
!       o--ll--o
!Port1            Port2
!       o------o
!Operation Temp=25[degC], DC Bias Voltage=0[V]
!Freq. Start=100[MHz] Stop=3[GHz] 401[Steps]
# Hz S RI R 50
!Freq.(Hz) S11(Real) S11(Imag) S21(Real) S21(Imag) S12(Real) S12(Imag) S22(Real) S22(Imag)
100000000 0.0735654 -0.2584123 0.9264346 0.2584123 0.9264346 0.2584123 0.0735654 -0.2584123
107250000 0.0644377 -0.2426814 0.9355623 0.2426814 0.9355623 0.2426814 0.0644377 -0.2426814
114500000 0.0568551 -0.2285144 0.9431449 0.2285144 0.9431449 0.2285144 0.0568551 -0.2285144
121750000 0.0504939 -0.2157075 0.9495061 0.2157075 0.9495061 0.2157075 0.0504939 -0.2157075
129000000 0.0451096 -0.2040853 0.9548904 0.2040853 0.9548904 0.2040853 0.0451096 -0.2040853
136250000 0.0405150 -0.1934976 0.9594850 0.1934976 0.9594850 0.1934976 0.0405150 -0.1934976
143500000 0.0365651 -0.1838163 0.9634349 0.1838163 0.9634349 0.1838163 0.0365651 -0.1838163
150750000 0.0331464 -0.1749321 0.9668536 0.1749321 0.9668536 0.1749321 0.0331464 -0.1749321
158000000 0.0301688 -0.1667514 0.9698312 0.1667514 0.9698312 0.1667514 0.0301688 -0.1667514
165250000 0.0275607 -0.1591940 0.9724393 0.1591940 0.9724393 0.1591940 0.0275607 -0.1591940
172500000 0.0252640 -0.1521907 0.9747360 0.1521907 0.9747360 0.1521907 0.0252640 -0.1521907
179750000 0.0232318 -0.1456820 0.9767682 0.1456820 0.9767682 0.1456820 0.0232318 -0.1456820
187000000 0.0214253 -0.1396161 0.9785747 0.1396161 0.9785747 0.1396161 0.0214253 -0.1396161
194250000 0.0198129 -0.1339482 0.9801871 0.1339482 0.9801871 0.1339482 0.0198129 -0.1339482
201500000 0.0183680 -0.1286390 0.9816320 0.1286390 0.9816320 0.1286390 0.0183680 -0.1286390
208750000 0.0170687 -0.1236541 0.9829313 0.1236541 0.9829313 0.1236541 0.0170687 -0.1236541
216000000 0.0158962 -0.1189633 0.9841038 0.1189633 0.9841038 0.1189633 0.0158962 -0.1189633
223250000 0.0148348 -0.1145400 0.9851652 0.1145400 0.9851652 0.1145400 0.0148348 -0.1145400
230500000 0.0138713 -0.1103604 0.9861287 0.1103604 0.9861287 0.1103604 0.0138713 -0.1103604
237750000 0.0129941 -0.1064037 0.9870059 0.1064037 0.9870059 0.1064037 0.0129941 -0.1064037
245000000 0.0121935 -0.1026513 0.9878065 0.1026513 0.9878065 0.1026513 0.0121935 -0.1026513
252250000 0.0114610 -0.0990863 0.9885390 0.0990863 0.9885390 0.0990863 0.0114610 -0.0990863
259500000 0.0107893 -0.0956940 0.9892107 0.0956940 0.9892107 0.0956940 0.0107893 -0.0956940
266750000 0.0101720 -0.0924609 0.9898280 0.0924609 0.9898280 0.0924609 0.0101720 -0.0924609
274000000 0.0096037 -0.0893749 0.9903963 0.0893749 0.9903963 0.0893749 0.0096037 -0.0893749
281250000 0.0090794 -0.0864251 0.9909206 0.0864251 0.9909206 0.0864251 0.0090794 -0.0864251
288500000 0.0085948 -0.0836016 0.9914052 0.0836016 0.9914052 0.0836016 0.0085948 -0.0836016
295750000 0.0081463 -0.0808956 0.9918537 0.0808956 0.9918537 0.0808956 0.0081463 -0.0808956
303000000 0.0077305 -0.0782988 0.9922695 0.0782988 0.9922695 0.0782988 0.0077305 -0.0782988
310250000 0.0073445 -0.0758039 0.9926555 0.0758039 0.9926555 0.0758039 0.0073445 -0.0758039
317500000 0.0069855 -0.0734041 0.9930145 0.0734041 0.9930145 0.0734041 0.0069855 -0.0734041
324750000 0.0066514 -0.0710933 0.9933486 0.0710933 0.9933486 0.0710933 0.0066514 -0.0710933
332000000 0.0063400 -0.0688657 0.9936600 0.0688657 0.9936600 0.0688657 0.0063400 -0.0688657
339250000 0.0060494 -0.0667162 0.9939506 0.0667162 0.9939506 0.0667162 0.0060494 -0.0667162
346500000 0.0057780 -0.0646400 0.9942220 0.0646400 0.9942220 0.0646400 0.0057780 -0.0646400
353750000 0.0055242 -0.0626327 0.9944758 0.0626327 0.9944758 0.0626327 0.0055242 -0.0626327
361000000 0.0052868 -0.0606902 0.9947132 0.0606902 0.9947132 0.0606902 0.0052868 -0.0606902
368250000 0.0050644 -0.0588088 0.9949356 0.0588088 0.9949356 0.0588088 0.0050644 -0.0588088
375500000 0.0048560 -0.0569850 0.9951440 0.0569850 0.9951440 0.0569850 0.0048560 -0.0569850
382750000 0.0046605 -0.0552156 0.9953395 0.0552156 0.9953395 0.0552156 0.0046605 -0.0552156
390000000 0.0044770 -0.0534976 0.9955230 0.0534976 0.9955230 0.0534976 0.0044770 -0.0534976
397250000 0.0043047 -0.0518283 0.9956953 0.0518283 0.9956953 0.0518283 0.0043047 -0.0518283
404500000 0.0041429 -0.0502051 0.9958571 0.0502051 0.9958571 0.0502051 0.0041429 -0.0502051
411750000 0.0039907 -0.0486255 0.9960093 0.0486255 0.9960093 0.0486255 0.0039907 -0.0486255
419000000 0.0038477 -0.0470873 0.9961523 0.0470873 0.9961523 0.0470873 0.0038477 -0.0470873
426250000 0.0037132 -0.0455885 0.9962868 0.0455885 0.9962868 0.0455885 0.0037132 -0.0455885
433500000 0.0035866 -0.0441271 0.9964134 0.0441271 0.9964134 0.0441271 0.0035866 -0.0441271
440750000 0.0034676 -0.0427013 0.9965324 0.0427013 0.9965324 0.0427013 0.0034676 -0.0427013
448000000 0.0033555 -0.0413092 0.9966445 0.0413092 0.9966445 0.0413092 0.0033555 -0.0413092
455250000 0.0032501 -0.0399495 0.9967499 0.0399495 0.9967499 0.0399495 0.0032501 -0.0399495
462500000 0.0031509 -0.0386204 0.9968491 0.0386204 0.9968491 0.0386204 0.0031509 -0.0386204
469750000 0.0030576 -0.0373207 0.9969424 0.0373207 0.9969424 0.0373207 0.0030576 -0.0373207
477000000 0.0029698 -0.0360489 0.9970302 0.0360489 0.9970302 0.0360489 0.0029698 -0.0360489
484250000 0.0028873 -0.0348039 0.9971127 0.0348039 0.9971127 0.0348039 0.0028873 -0.0348039
491500000 0.0028097 -0.0335844 0.9971903 0.0335844 0.9971903 0.0335844 0.0028097 -0.0335844
498750000 0.0027368 -0.0323894 0.9972632 0.0323894 0.9972632 0.0323894 0.0027368 -0.0323894
506000000 0.0026683 -0.0312177 0.9973317 0.0312177 0.9973317 0.0312177 0.0026683 -0.0312177
513250000 0.0026041 -0.0300684 0.9973959 0.0300684 0.9973959 0.0300684 0.0026041 -0.0300684
520500000 0.0025439 -0.0289406 0.9974561 0.0289406 0.9974561 0.0289406 0.0025439 -0.0289406
527750000 0.0024876 -0.0278333 0.9975124 0.0278333 0.9975124 0.0278333 0.0024876 -0.0278333
535000000 0.0024348 -0.0267457 0.9975652 0.0267457 0.9975652 0.0267457 0.0024348 -0.0267457
542250000 0.0023855 -0.0256770 0.9976145 0.0256770 0.9976145 0.0256770 0.0023855 -0.0256770
549500000 0.0023396 -0.0246265 0.9976604 0.0246265 0.9976604 0.0246265 0.0023396 -0.0246265
556750000 0.0022968 -0.0235935 0.9977032 0.0235935 0.9977032 0.0235935 0.0022968 -0.0235935
564000000 0.0022570 -0.0225772 0.9977430 0.0225772 0.9977430 0.0225772 0.0022570 -0.0225772
571250000 0.0022201 -0.0215770 0.9977799 0.0215770 0.9977799 0.0215770 0.0022201 -0.0215770
578500000 0.0021860 -0.0205923 0.9978140 0.0205923 0.9978140 0.0205923 0.0021860 -0.0205923
585750000 0.0021545 -0.0196225 0.9978455 0.0196225 0.9978455 0.0196225 0.0021545 -0.0196225
593000000 0.0021256 -0.0186670 0.9978744 0.0186670 0.9978744 0.0186670 0.0021256 -0.0186670
600250000 0.0020991 -0.0177254 0.9979009 0.0177254 0.9979009 0.0177254 0.0020991 -0.0177254
607500000 0.0020750 -0.0167971 0.9979250 0.0167971 0.9979250 0.0167971 0.0020750 -0.0167971
614750000 0.0020531 -0.0158816 0.9979469 0.0158816 0.9979469 0.0158816 0.0020531 -0.0158816
622000000 0.0020334 -0.0149785 0.9979666 0.0149785 0.9979666 0.0149785 0.0020334 -0.0149785
629250000 0.0020158 -0.0140873 0.9979842 0.0140873 0.9979842 0.0140873 0.0020158 -0.0140873
636500000 0.0020003 -0.0132076 0.9979997 0.0132076 0.9979997 0.0132076 0.0020003 -0.0132076
643750000 0.0019867 -0.0123390 0.9980133 0.0123390 0.9980133 0.0123390 0.0019867 -0.0123390
651000000 0.0019750 -0.0114812 0.9980250 0.0114812 0.9980250 0.0114812 0.0019750 -0.0114812
658250000 0.0019651 -0.0106336 0.9980349 0.0106336 0.9980349 0.0106336 0.0019651 -0.0106336
665500000 0.0019570 -0.0097961 0.9980430 0.0097961 0.9980430 0.0097961 0.0019570 -0.0097961
672750000 0.0019506 -0.0089683 0.9980494 0.0089683 0.9980494 0.0089683 0.0019506 -0.0089683
680000000 0.0019458 -0.0081498 0.9980542 0.0081498 0.9980542 0.0081498 0.0019458 -0.0081498
687250000 0.0019427 -0.0073403 0.9980573 0.0073403 0.9980573 0.0073403 0.0019427 -0.0073403
694500000 0.0019412 -0.0065395 0.9980588 0.0065395 0.9980588 0.0065395 0.0019412 -0.0065395
701750000 0.0019411 -0.0057472 0.9980589 0.0057472 0.9980589 0.0057472 0.0019411 -0.0057472
709000000 0.0019426 -0.0049630 0.9980574 0.0049630 0.9980574 0.0049630 0.0019426 -0.0049630
716250000 0.0019455 -0.0041868 0.9980545 0.0041868 0.9980545 0.0041868 0.0019455 -0.0041868
723500000 0.0019498 -0.0034182 0.9980502 0.0034182 0.9980502 0.0034182 0.0019498 -0.0034182
730750000 0.0019555 -0.0026570 0.9980445 0.0026570 0.9980445 0.0026570 0.0019555 -0.0026570
738000000 0.0019625 -0.0019029 0.9980375 0.0019029 0.9980375 0.0019029 0.0019625 -0.0019029
745250000 0.0019708 -0.0011558 0.9980292 0.0011558 0.9980292 0.0011558 0.0019708 -0.0011558
752500000 0.0019804 -0.0004155 0.9980196 0.0004155 0.9980196 0.0004155 0.0019804 -0.0004155
759750000 0.0019913 0.0003184 0.9980087 -0.0003184 0.9980087 -0.0003184 0.0019913 0.0003184
767000000 0.0020034 0.0010459 0.9979966 -0.0010459 0.9979966 -0.0010459 0.0020034 0.0010459
774250000 0.0020166 0.0017673 0.9979834 -0.0017673 0.9979834 -0.0017673 0.0020166 0.0017673
781500000 0.0020311 0.0024827 0.9979689 -0.0024827 0.9979689 -0.0024827 0.0020311 0.0024827
788750000 0.0020467 0.0031924 0.9979533 -0.0031924 0.9979533 -0.0031924 0.0020467 0.0031924
796000000 0.0020634 0.0038966 0.9979366 -0.0038966 0.9979366 -0.0038966 0.0020634 0.0038966
803250000 0.0020813 0.0045953 0.9979187 -0.0045953 0.9979187 -0.0045953 0.0020813 0.0045953
810500000 0.0021003 0.0052888 0.9978997 -0.0052888 0.9978997 -0.0052888 0.0021003 0.0052888
817750000 0.0021203 0.0059772 0.9978797 -0.0059772 0.9978797 -0.0059772 0.0021203 0.0059772
825000000 0.0021414 0.0066606 0.9978586 -0.0066606 0.9978586 -0.0066606 0.0021414 0.0066606
832250000 0.0021635 0.0073392 0.9978365 -0.0073392 0.9978365 -0.0073392 0.0021635 0.0073392
839500000 0.0021866 0.0080133 0.9978134 -0.0080133 0.9978134 -0.0080133 0.0021866 0.0080133
846750000 0.0022108 0.0086827 0.9977892 -0.0086827 0.9977892 -0.0086827 0.0022108 0.0086827
854000000 0.0022360 0.0093479 0.9977640 -0.0093479 0.9977640 -0.0093479 0.0022360 0.0093479
861250000 0.0022622 0.0100087 0.9977378 -0.0100087 0.9977378 -0.0100087 0.0022622 0.0100087
868500000 0.0022893 0.0106655 0.9977107 -0.0106655 0.9977107 -0.0106655 0.0022893 0.0106655
875750000 0.0023174 0.0113182 0.9976826 -0.0113182 0.9976826 -0.0113182 0.0023174 0.0113182
883000000 0.0023465 0.0119671 0.9976535 -0.0119671 0.9976535 -0.0119671 0.0023465 0.0119671
890250000 0.0023765 0.0126121 0.9976235 -0.0126121 0.9976235 -0.0126121 0.0023765 0.0126121
897500000 0.0024075 0.0132536 0.9975925 -0.0132536 0.9975925 -0.0132536 0.0024075 0.0132536
904750000 0.0024394 0.0138914 0.9975606 -0.0138914 0.9975606 -0.0138914 0.0024394 0.0138914
912000000 0.0024722 0.0145259 0.9975278 -0.0145259 0.9975278 -0.0145259 0.0024722 0.0145259
919250000 0.0025060 0.0151569 0.9974940 -0.0151569 0.9974940 -0.0151569 0.0025060 0.0151569
926500000 0.0025407 0.0157848 0.9974593 -0.0157848 0.9974593 -0.0157848 0.0025407 0.0157848
933750000 0.0025762 0.0164094 0.9974238 -0.0164094 0.9974238 -0.0164094 0.0025762 0.0164094
941000000 0.0026127 0.0170310 0.9973873 -0.0170310 0.9973873 -0.0170310 0.0026127 0.0170310
948250000 0.0026501 0.0176497 0.9973499 -0.0176497 0.9973499 -0.0176497 0.0026501 0.0176497
955500000 0.0026883 0.0182654 0.9973117 -0.0182654 0.9973117 -0.0182654 0.0026883 0.0182654
962750000 0.0027275 0.0188784 0.9972725 -0.0188784 0.9972725 -0.0188784 0.0027275 0.0188784
970000000 0.0027675 0.0194886 0.9972325 -0.0194886 0.9972325 -0.0194886 0.0027675 0.0194886
977250000 0.0028085 0.0200962 0.9971915 -0.0200962 0.9971915 -0.0200962 0.0028085 0.0200962
984500000 0.0028503 0.0207013 0.9971497 -0.0207013 0.9971497 -0.0207013 0.0028503 0.0207013
991750000 0.0028930 0.0213039 0.9971070 -0.0213039 0.9971070 -0.0213039 0.0028930 0.0213039
999000000 0.0029366 0.0219040 0.9970634 -0.0219040 0.9970634 -0.0219040 0.0029366 0.0219040
1006250000 0.0029810 0.0225019 0.9970190 -0.0225019 0.9970190 -0.0225019 0.0029810 0.0225019
1013500000 0.0030264 0.0230974 0.9969736 -0.0230974 0.9969736 -0.0230974 0.0030264 0.0230974
1020750000 0.0030726 0.0236908 0.9969274 -0.0236908 0.9969274 -0.0236908 0.0030726 0.0236908
1028000000 0.0031197 0.0242821 0.9968803 -0.0242821 0.9968803 -0.0242821 0.0031197 0.0242821
1035250000 0.0031677 0.0248713 0.9968323 -0.0248713 0.9968323 -0.0248713 0.0031677 0.0248713
1042500000 0.0032166 0.0254585 0.9967834 -0.0254585 0.9967834 -0.0254585 0.0032166 0.0254585
1049750000 0.0032663 0.0260438 0.9967337 -0.0260438 0.9967337 -0.0260438 0.0032663 0.0260438
1057000000 0.0033170 0.0266272 0.9966830 -0.0266272 0.9966830 -0.0266272 0.0033170 0.0266272
1064250000 0.0033685 0.0272089 0.9966315 -0.0272089 0.9966315 -0.0272089 0.0033685 0.0272089
1071500000 0.0034209 0.0277887 0.9965791 -0.0277887 0.9965791 -0.0277887 0.0034209 0.0277887
1078750000 0.0034743 0.0283669 0.9965257 -0.0283669 0.9965257 -0.0283669 0.0034743 0.0283669
1086000000 0.0035285 0.0289435 0.9964715 -0.0289435 0.9964715 -0.0289435 0.0035285 0.0289435
1093250000 0.0035836 0.0295184 0.9964164 -0.0295184 0.9964164 -0.0295184 0.0035836 0.0295184
1100500000 0.0036396 0.0300919 0.9963604 -0.0300919 0.9963604 -0.0300919 0.0036396 0.0300919
1107750000 0.0036966 0.0306638 0.9963034 -0.0306638 0.9963034 -0.0306638 0.0036966 0.0306638
1115000000 0.0037545 0.0312344 0.9962455 -0.0312344 0.9962455 -0.0312344 0.0037545 0.0312344
1122250000 0.0038133 0.0318036 0.9961867 -0.0318036 0.9961867 -0.0318036 0.0038133 0.0318036
1129500000 0.0038730 0.0323715 0.9961270 -0.0323715 0.9961270 -0.0323715 0.0038730 0.0323715
1136750000 0.0039337 0.0329381 0.9960663 -0.0329381 0.9960663 -0.0329381 0.0039337 0.0329381
1144000000 0.0039953 0.0335034 0.9960047 -0.0335034 0.9960047 -0.0335034 0.0039953 0.0335034
1151250000 0.0040579 0.0340676 0.9959421 -0.0340676 0.9959421 -0.0340676 0.0040579 0.0340676
1158500000 0.0041214 0.0346307 0.9958786 -0.0346307 0.9958786 -0.0346307 0.0041214 0.0346307
1165750000 0.0041859 0.0351927 0.9958141 -0.0351927 0.9958141 -0.0351927 0.0041859 0.0351927
1173000000 0.0042514 0.0357537 0.9957486 -0.0357537 0.9957486 -0.0357537 0.0042514 0.0357537
1180250000 0.0043178 0.0363136 0.9956822 -0.0363136 0.9956822 -0.0363136 0.0043178 0.0363136
1187500000 0.0043853 0.0368726 0.9956147 -0.0368726 0.9956147 -0.0368726 0.0043853 0.0368726
1194750000 0.0044538 0.0374307 0.9955462 -0.0374307 0.9955462 -0.0374307 0.0044538 0.0374307
1202000000 0.0045233 0.0379879 0.9954767 -0.0379879 0.9954767 -0.0379879 0.0045233 0.0379879
1209250000 0.0045938 0.0385443 0.9954062 -0.0385443 0.9954062 -0.0385443 0.0045938 0.0385443
1216500000 0.0046653 0.0391000 0.9953347 -0.0391000 0.9953347 -0.0391000 0.0046653 0.0391000
1223750000 0.0047379 0.0396548 0.9952621 -0.0396548 0.9952621 -0.0396548 0.0047379 0.0396548
1231000000 0.0048116 0.0402090 0.9951884 -0.0402090 0.9951884 -0.0402090 0.0048116 0.0402090
1238250000 0.0048864 0.0407625 0.9951136 -0.0407625 0.9951136 -0.0407625 0.0048864 0.0407625
1245500000 0.0049622 0.0413153 0.9950378 -0.0413153 0.9950378 -0.0413153 0.0049622 0.0413153
1252750000 0.0050392 0.0418676 0.9949608 -0.0418676 0.9949608 -0.0418676 0.0050392 0.0418676
1260000000 0.0051172 0.0424193 0.9948828 -0.0424193 0.9948828 -0.0424193 0.0051172 0.0424193
1267250000 0.0051964 0.0429705 0.9948036 -0.0429705 0.9948036 -0.0429705 0.0051964 0.0429705
1274500000 0.0052768 0.0435212 0.9947232 -0.0435212 0.9947232 -0.0435212 0.0052768 0.0435212
1281750000 0.0053583 0.0440714 0.9946417 -0.0440714 0.9946417 -0.0440714 0.0053583 0.0440714
1289000000 0.0054411 0.0446212 0.9945589 -0.0446212 0.9945589 -0.0446212 0.0054411 0.0446212
1296250000 0.0055250 0.0451707 0.9944750 -0.0451707 0.9944750 -0.0451707 0.0055250 0.0451707
1303500000 0.0056101 0.0457198 0.9943899 -0.0457198 0.9943899 -0.0457198 0.0056101 0.0457198
1310750000 0.0056965 0.0462685 0.9943035 -0.0462685 0.9943035 -0.0462685 0.0056965 0.0462685
1318000000 0.0057842 0.0468170 0.9942158 -0.0468170 0.9942158 -0.0468170 0.0057842 0.0468170
1325250000 0.0058731 0.0473653 0.9941269 -0.0473653 0.9941269 -0.0473653 0.0058731 0.0473653
1332500000 0.0059633 0.0479133 0.9940367 -0.0479133 0.9940367 -0.0479133 0.0059633 0.0479133
1339750000 0.0060549 0.0484611 0.9939451 -0.0484611 0.9939451 -0.0484611 0.0060549 0.0484611
1347000000 0.0061478 0.0490088 0.9938522 -0.0490088 0.9938522 -0.0490088 0.0061478 0.0490088
1354250000 0.0062421 0.0495563 0.9937579 -0.0495563 0.9937579 -0.0495563 0.0062421 0.0495563
1361500000 0.0063378 0.0501038 0.9936622 -0.0501038 0.9936622 -0.0501038 0.0063378 0.0501038
1368750000 0.0064349 0.0506511 0.9935651 -0.0506511 0.9935651 -0.0506511 0.0064349 0.0506511
1376000000 0.0065335 0.0511985 0.9934665 -0.0511985 0.9934665 -0.0511985 0.0065335 0.0511985
1383250000 0.0066335 0.0517458 0.9933665 -0.0517458 0.9933665 -0.0517458 0.0066335 0.0517458
1390500000 0.0067351 0.0522931 0.9932649 -0.0522931 0.9932649 -0.0522931 0.0067351 0.0522931
1397750000 0.0068382 0.0528405 0.9931618 -0.0528405 0.9931618 -0.0528405 0.0068382 0.0528405
1405000000 0.0069428 0.0533880 0.9930572 -0.0533880 0.9930572 -0.0533880 0.0069428 0.0533880
1412250000 0.0070491 0.0539355 0.9929509 -0.0539355 0.9929509 -0.0539355 0.0070491 0.0539355
1419500000 0.0071570 0.0544832 0.9928430 -0.0544832 0.9928430 -0.0544832 0.0071570 0.0544832
1426750000 0.0072666 0.0550310 0.9927334 -0.0550310 0.9927334 -0.0550310 0.0072666 0.0550310
1434000000 0.0073779 0.0555790 0.9926221 -0.0555790 0.9926221 -0.0555790 0.0073779 0.0555790
1441250000 0.0074909 0.0561273 0.9925091 -0.0561273 0.9925091 -0.0561273 0.0074909 0.0561273
1448500000 0.0076057 0.0566757 0.9923943 -0.0566757 0.9923943 -0.0566757 0.0076057 0.0566757
1455750000 0.0077223 0.0572244 0.9922777 -0.0572244 0.9922777 -0.0572244 0.0077223 0.0572244
1463000000 0.0078409 0.0577733 0.9921591 -0.0577733 0.9921591 -0.0577733 0.0078409 0.0577733
1470250000 0.0079613 0.0583226 0.9920387 -0.0583226 0.9920387 -0.0583226 0.0079613 0.0583226
1477500000 0.0080836 0.0588721 0.9919164 -0.0588721 0.9919164 -0.0588721 0.0080836 0.0588721
1484750000 0.0082080 0.0594220 0.9917920 -0.0594220 0.9917920 -0.0594220 0.0082080 0.0594220
1492000000 0.0083344 0.0599722 0.9916656 -0.0599722 0.9916656 -0.0599722 0.0083344 0.0599722
1499250000 0.0084630 0.0605228 0.9915370 -0.0605228 0.9915370 -0.0605228 0.0084630 0.0605228
1506500000 0.0085936 0.0610738 0.9914064 -0.0610738 0.9914064 -0.0610738 0.0085936 0.0610738
1513750000 0.0087265 0.0616253 0.9912735 -0.0616253 0.9912735 -0.0616253 0.0087265 0.0616253
1521000000 0.0088617 0.0621771 0.9911383 -0.0621771 0.9911383 -0.0621771 0.0088617 0.0621771
1528250000 0.0089992 0.0627294 0.9910008 -0.0627294 0.9910008 -0.0627294 0.0089992 0.0627294
1535500000 0.0091390 0.0632821 0.9908610 -0.0632821 0.9908610 -0.0632821 0.0091390 0.0632821
1542750000 0.0092814 0.0638352 0.9907186 -0.0638352 0.9907186 -0.0638352 0.0092814 0.0638352
1550000000 0.0094262 0.0643889 0.9905738 -0.0643889 0.9905738 -0.0643889 0.0094262 0.0643889
1557250000 0.0095736 0.0649430 0.9904264 -0.0649430 0.9904264 -0.0649430 0.0095736 0.0649430
1564500000 0.0097237 0.0654976 0.9902763 -0.0654976 0.9902763 -0.0654976 0.0097237 0.0654976
1571750000 0.0098765 0.0660528 0.9901235 -0.0660528 0.9901235 -0.0660528 0.0098765 0.0660528
1579000000 0.0100321 0.0666084 0.9899679 -0.0666084 0.9899679 -0.0666084 0.0100321 0.0666084
1586250000 0.0101906 0.0671645 0.9898094 -0.0671645 0.9898094 -0.0671645 0.0101906 0.0671645
1593500000 0.0103521 0.0677211 0.9896479 -0.0677211 0.9896479 -0.0677211 0.0103521 0.0677211
1600750000 0.0105166 0.0682782 0.9894834 -0.0682782 0.9894834 -0.0682782 0.0105166 0.0682782
1608000000 0.0106842 0.0688358 0.9893158 -0.0688358 0.9893158 -0.0688358 0.0106842 0.0688358
1615250000 0.0108552 0.0693938 0.9891448 -0.0693938 0.9891448 -0.0693938 0.0108552 0.0693938
1622500000 0.0110294 0.0699524 0.9889706 -0.0699524 0.9889706 -0.0699524 0.0110294 0.0699524
1629750000 0.0112071 0.0705114 0.9887929 -0.0705114 0.9887929 -0.0705114 0.0112071 0.0705114
