!Murata Part Number: GRM31C7U2J472JW32
!These Parameters are Measured in Series Mode Connection
!Data Generated on Mar 30, 2021
!       o--ll--o
!Port1            Port2
!       o------o
!Operation Temp=25[degC], DC Bias Voltage=0[V]
!Freq. Start=1000[kHz] Stop=3[GHz] 401[Steps]
# Hz S RI R 50
!Freq.(Hz) S11(Real) S11(Imag) S21(Real) S21(Imag) S12(Real) S12(Imag) S22(Real) S22(Imag)
1000000 0.1018253 -0.3023212 0.8981747 0.3023212 0.8981747 0.3023212 0.1018253 -0.3023212
1020218 0.0982228 -0.2975166 0.9017772 0.2975166 0.9017772 0.2975166 0.0982228 -0.2975166
1040844 0.0947345 -0.2927467 0.9052655 0.2927467 0.9052655 0.2927467 0.0947345 -0.2927467
1061887 0.0913574 -0.2880135 0.9086426 0.2880135 0.9086426 0.2880135 0.0913574 -0.2880135
1083356 0.0880891 -0.2833192 0.9119109 0.2833192 0.9119109 0.2833192 0.0880891 -0.2833192
1105259 0.0849268 -0.2786654 0.9150732 0.2786654 0.9150732 0.2786654 0.0849268 -0.2786654
1127605 0.0818679 -0.2740538 0.9181321 0.2740538 0.9181321 0.2740538 0.0818679 -0.2740538
1150402 0.0789097 -0.2694859 0.9210903 0.2694859 0.9210903 0.2694859 0.0789097 -0.2694859
1173660 0.0760496 -0.2649633 0.9239504 0.2649633 0.9239504 0.2649633 0.0760496 -0.2649633
1197389 0.0732849 -0.2604871 0.9267151 0.2604871 0.9267151 0.2604871 0.0732849 -0.2604871
1221597 0.0706131 -0.2560586 0.9293869 0.2560586 0.9293869 0.2560586 0.0706131 -0.2560586
1246295 0.0680316 -0.2516788 0.9319684 0.2516788 0.9319684 0.2516788 0.0680316 -0.2516788
1271492 0.0655378 -0.2473487 0.9344622 0.2473487 0.9344622 0.2473487 0.0655378 -0.2473487
1297199 0.0631293 -0.2430691 0.9368707 0.2430691 0.9368707 0.2430691 0.0631293 -0.2430691
1323425 0.0608036 -0.2388408 0.9391964 0.2388408 0.9391964 0.2388408 0.0608036 -0.2388408
1350181 0.0585582 -0.2346645 0.9414418 0.2346645 0.9414418 0.2346645 0.0585582 -0.2346645
1377479 0.0563908 -0.2305408 0.9436092 0.2305408 0.9436092 0.2305408 0.0563908 -0.2305408
1405328 0.0542991 -0.2264700 0.9457009 0.2264700 0.9457009 0.2264700 0.0542991 -0.2264700
1433740 0.0522807 -0.2224528 0.9477193 0.2224528 0.9477193 0.2224528 0.0522807 -0.2224528
1462727 0.0503333 -0.2184893 0.9496667 0.2184893 0.9496667 0.2184893 0.0503333 -0.2184893
1492300 0.0484548 -0.2145799 0.9515452 0.2145799 0.9515452 0.2145799 0.0484548 -0.2145799
1522470 0.0466431 -0.2107247 0.9533569 0.2107247 0.9533569 0.2107247 0.0466431 -0.2107247
1553251 0.0448959 -0.2069240 0.9551041 0.2069240 0.9551041 0.2069240 0.0448959 -0.2069240
1584654 0.0432112 -0.2031777 0.9567888 0.2031777 0.9567888 0.2031777 0.0432112 -0.2031777
1616692 0.0415870 -0.1994858 0.9584130 0.1994858 0.9584130 0.1994858 0.0415870 -0.1994858
1649378 0.0400214 -0.1958484 0.9599786 0.1958484 0.9599786 0.1958484 0.0400214 -0.1958484
1682724 0.0385124 -0.1922654 0.9614876 0.1922654 0.9614876 0.1922654 0.0385124 -0.1922654
1716745 0.0370581 -0.1887365 0.9629419 0.1887365 0.9629419 0.1887365 0.0370581 -0.1887365
1751453 0.0356567 -0.1852617 0.9643433 0.1852617 0.9643433 0.1852617 0.0356567 -0.1852617
1786863 0.0343065 -0.1818407 0.9656935 0.1818407 0.9656935 0.1818407 0.0343065 -0.1818407
1822989 0.0330057 -0.1784733 0.9669943 0.1784733 0.9669943 0.1784733 0.0330057 -0.1784733
1859846 0.0317527 -0.1751591 0.9682473 0.1751591 0.9682473 0.1751591 0.0317527 -0.1751591
1897447 0.0305457 -0.1718978 0.9694543 0.1718978 0.9694543 0.1718978 0.0305457 -0.1718978
1935809 0.0293833 -0.1686890 0.9706167 0.1686890 0.9706167 0.1686890 0.0293833 -0.1686890
1974946 0.0282639 -0.1655324 0.9717361 0.1655324 0.9717361 0.1655324 0.0282639 -0.1655324
2014875 0.0271859 -0.1624276 0.9728141 0.1624276 0.9728141 0.1624276 0.0271859 -0.1624276
2055611 0.0261480 -0.1593741 0.9738520 0.1593741 0.9738520 0.1593741 0.0261480 -0.1593741
2097170 0.0251488 -0.1563714 0.9748512 0.1563714 0.9748512 0.1563714 0.0251488 -0.1563714
2139570 0.0241868 -0.1534191 0.9758132 0.1534191 0.9758132 0.1534191 0.0241868 -0.1534191
2182827 0.0232608 -0.1505166 0.9767392 0.1505166 0.9767392 0.1505166 0.0232608 -0.1505166
2226959 0.0223695 -0.1476635 0.9776305 0.1476635 0.9776305 0.1476635 0.0223695 -0.1476635
2271982 0.0215116 -0.1448592 0.9784884 0.1448592 0.9784884 0.1448592 0.0215116 -0.1448592
2317916 0.0206860 -0.1421031 0.9793140 0.1421031 0.9793140 0.1421031 0.0206860 -0.1421031
2364779 0.0198915 -0.1393948 0.9801085 0.1393948 0.9801085 0.1393948 0.0198915 -0.1393948
2412589 0.0191269 -0.1367336 0.9808731 0.1367336 0.9808731 0.1367336 0.0191269 -0.1367336
2461366 0.0183912 -0.1341190 0.9816088 0.1341190 0.9816088 0.1341190 0.0183912 -0.1341190
2511129 0.0176833 -0.1315503 0.9823167 0.1315503 0.9823167 0.1315503 0.0176833 -0.1315503
2561897 0.0170023 -0.1290271 0.9829977 0.1290271 0.9829977 0.1290271 0.0170023 -0.1290271
2613693 0.0163471 -0.1265486 0.9836529 0.1265486 0.9836529 0.1265486 0.0163471 -0.1265486
2666535 0.0157168 -0.1241143 0.9842832 0.1241143 0.9842832 0.1241143 0.0157168 -0.1241143
2720446 0.0151104 -0.1217235 0.9848896 0.1217235 0.9848896 0.1217235 0.0151104 -0.1217235
2775447 0.0145272 -0.1193758 0.9854728 0.1193758 0.9854728 0.1193758 0.0145272 -0.1193758
2831560 0.0139662 -0.1170703 0.9860338 0.1170703 0.9860338 0.1170703 0.0139662 -0.1170703
2888807 0.0134266 -0.1148067 0.9865734 0.1148067 0.9865734 0.1148067 0.0134266 -0.1148067
2947212 0.0129076 -0.1125841 0.9870924 0.1125841 0.9870924 0.1125841 0.0129076 -0.1125841
3006797 0.0124085 -0.1104021 0.9875915 0.1104021 0.9875915 0.1104021 0.0124085 -0.1104021
3067588 0.0119285 -0.1082599 0.9880715 0.1082599 0.9880715 0.1082599 0.0119285 -0.1082599
3129607 0.0114669 -0.1061571 0.9885331 0.1061571 0.9885331 0.1061571 0.0114669 -0.1061571
3192880 0.0110230 -0.1040929 0.9889770 0.1040929 0.9889770 0.1040929 0.0110230 -0.1040929
3257432 0.0105962 -0.1020668 0.9894038 0.1020668 0.9894038 0.1020668 0.0105962 -0.1020668
3323290 0.0101858 -0.1000781 0.9898142 0.1000781 0.9898142 0.1000781 0.0101858 -0.1000781
3390478 0.0097911 -0.0981263 0.9902089 0.0981263 0.9902089 0.0981263 0.0097911 -0.0981263
3459026 0.0094117 -0.0962108 0.9905883 0.0962108 0.9905883 0.0962108 0.0094117 -0.0962108
3528959 0.0090469 -0.0943310 0.9909531 0.0943310 0.9909531 0.0943310 0.0090469 -0.0943310
3600306 0.0086961 -0.0924862 0.9913039 0.0924862 0.9913039 0.0924862 0.0086961 -0.0924862
3673095 0.0083589 -0.0906759 0.9916411 0.0906759 0.9916411 0.0906759 0.0083589 -0.0906759
3747356 0.0080347 -0.0888996 0.9919653 0.0888996 0.9919653 0.0888996 0.0080347 -0.0888996
3823119 0.0077231 -0.0871566 0.9922769 0.0871566 0.9922769 0.0871566 0.0077231 -0.0871566
3900413 0.0074235 -0.0854464 0.9925765 0.0854464 0.9925765 0.0854464 0.0074235 -0.0854464
3979270 0.0071355 -0.0837684 0.9928645 0.0837684 0.9928645 0.0837684 0.0071355 -0.0837684
4059721 0.0068586 -0.0821221 0.9931414 0.0821221 0.9931414 0.0821221 0.0068586 -0.0821221
4141799 0.0065925 -0.0805069 0.9934075 0.0805069 0.9934075 0.0805069 0.0065925 -0.0805069
4225536 0.0063366 -0.0789223 0.9936634 0.0789223 0.9936634 0.0789223 0.0063366 -0.0789223
4310966 0.0060908 -0.0773677 0.9939092 0.0773677 0.9939092 0.0773677 0.0060908 -0.0773677
4398124 0.0058544 -0.0758425 0.9941456 0.0758425 0.9941456 0.0758425 0.0058544 -0.0758425
4487043 0.0056272 -0.0743464 0.9943728 0.0743464 0.9943728 0.0743464 0.0056272 -0.0743464
4577760 0.0054089 -0.0728787 0.9945911 0.0728787 0.9945911 0.0728787 0.0054089 -0.0728787
4670311 0.0051990 -0.0714390 0.9948010 0.0714390 0.9948010 0.0714390 0.0051990 -0.0714390
4764734 0.0049973 -0.0700267 0.9950027 0.0700267 0.9950027 0.0700267 0.0049973 -0.0700267
4861065 0.0048035 -0.0686413 0.9951965 0.0686413 0.9951965 0.0686413 0.0048035 -0.0686413
4959344 0.0046172 -0.0672824 0.9953828 0.0672824 0.9953828 0.0672824 0.0046172 -0.0672824
5059610 0.0044382 -0.0659495 0.9955618 0.0659495 0.9955618 0.0659495 0.0044382 -0.0659495
5161903 0.0042661 -0.0646421 0.9957339 0.0646421 0.9957339 0.0646421 0.0042661 -0.0646421
5266264 0.0041008 -0.0633597 0.9958992 0.0633597 0.9958992 0.0633597 0.0041008 -0.0633597
5372736 0.0039419 -0.0621018 0.9960581 0.0621018 0.9960581 0.0621018 0.0039419 -0.0621018
5481359 0.0037892 -0.0608681 0.9962108 0.0608681 0.9962108 0.0608681 0.0037892 -0.0608681
5592179 0.0036424 -0.0596580 0.9963576 0.0596580 0.9963576 0.0596580 0.0036424 -0.0596580
5705239 0.0035014 -0.0584711 0.9964986 0.0584711 0.9964986 0.0584711 0.0035014 -0.0584711
5820586 0.0033659 -0.0573070 0.9966341 0.0573070 0.9966341 0.0573070 0.0033659 -0.0573070
5938264 0.0032357 -0.0561652 0.9967643 0.0561652 0.9967643 0.0561652 0.0032357 -0.0561652
6058321 0.0031106 -0.0550454 0.9968894 0.0550454 0.9968894 0.0550454 0.0031106 -0.0550454
6180806 0.0029904 -0.0539471 0.9970096 0.0539471 0.9970096 0.0539471 0.0029904 -0.0539471
6305767 0.0028749 -0.0528699 0.9971251 0.0528699 0.9971251 0.0528699 0.0028749 -0.0528699
6433254 0.0027640 -0.0518134 0.9972360 0.0518134 0.9972360 0.0518134 0.0027640 -0.0518134
6563319 0.0026574 -0.0507772 0.9973426 0.0507772 0.9973426 0.0507772 0.0026574 -0.0507772
6696013 0.0025549 -0.0497609 0.9974451 0.0497609 0.9974451 0.0497609 0.0025549 -0.0497609
6831390 0.0024565 -0.0487641 0.9975435 0.0487641 0.9975435 0.0487641 0.0024565 -0.0487641
6969505 0.0023620 -0.0477865 0.9976380 0.0477865 0.9976380 0.0477865 0.0023620 -0.0477865
7110411 0.0022711 -0.0468277 0.9977289 0.0468277 0.9977289 0.0468277 0.0022711 -0.0468277
7254166 0.0021839 -0.0458874 0.9978161 0.0458874 0.9978161 0.0458874 0.0021839 -0.0458874
7400828 0.0021000 -0.0449651 0.9979000 0.0449651 0.9979000 0.0449651 0.0021000 -0.0449651
7550455 0.0020195 -0.0440605 0.9979805 0.0440605 0.9979805 0.0440605 0.0020195 -0.0440605
7703107 0.0019422 -0.0431733 0.9980578 0.0431733 0.9980578 0.0431733 0.0019422 -0.0431733
7858845 0.0018679 -0.0423031 0.9981321 0.0423031 0.9981321 0.0423031 0.0018679 -0.0423031
8017732 0.0017965 -0.0414497 0.9982035 0.0414497 0.9982035 0.0414497 0.0017965 -0.0414497
8179831 0.0017279 -0.0406126 0.9982721 0.0406126 0.9982721 0.0406126 0.0017279 -0.0406126
8345207 0.0016621 -0.0397916 0.9983379 0.0397916 0.9983379 0.0397916 0.0016621 -0.0397916
8513927 0.0015989 -0.0389863 0.9984011 0.0389863 0.9984011 0.0389863 0.0015989 -0.0389863
8686058 0.0015381 -0.0381964 0.9984619 0.0381964 0.9984619 0.0381964 0.0015381 -0.0381964
8861669 0.0014798 -0.0374217 0.9985202 0.0374217 0.9985202 0.0374217 0.0014798 -0.0374217
9040831 0.0014238 -0.0366618 0.9985762 0.0366618 0.9985762 0.0366618 0.0014238 -0.0366618
9223615 0.0013700 -0.0359164 0.9986300 0.0359164 0.9986300 0.0359164 0.0013700 -0.0359164
9410094 0.0013184 -0.0351853 0.9986816 0.0351853 0.9986816 0.0351853 0.0013184 -0.0351853
9600343 0.0012688 -0.0344681 0.9987312 0.0344681 0.9987312 0.0344681 0.0012688 -0.0344681
9794439 0.0012212 -0.0337646 0.9987788 0.0337646 0.9987788 0.0337646 0.0012212 -0.0337646
9992459 0.0011755 -0.0330745 0.9988245 0.0330745 0.9988245 0.0330745 0.0011755 -0.0330745
10194482 0.0011317 -0.0323976 0.9988683 0.0323976 0.9988683 0.0323976 0.0011317 -0.0323976
10400590 0.0010895 -0.0317335 0.9989105 0.0317335 0.9989105 0.0317335 0.0010895 -0.0317335
10610865 0.0010491 -0.0310821 0.9989509 0.0310821 0.9989509 0.0310821 0.0010491 -0.0310821
10825391 0.0010103 -0.0304430 0.9989897 0.0304430 0.9989897 0.0304430 0.0010103 -0.0304430
11044254 0.0009731 -0.0298160 0.9990269 0.0298160 0.9990269 0.0298160 0.0009731 -0.0298160
11267542 0.0009374 -0.0292009 0.9990626 0.0292009 0.9990626 0.0292009 0.0009374 -0.0292009
11495344 0.0009031 -0.0285974 0.9990969 0.0285974 0.9990969 0.0285974 0.0009031 -0.0285974
11727752 0.0008702 -0.0280053 0.9991298 0.0280053 0.9991298 0.0280053 0.0008702 -0.0280053
11964859 0.0008387 -0.0274244 0.9991613 0.0274244 0.9991613 0.0274244 0.0008387 -0.0274244
12206760 0.0008084 -0.0268544 0.9991916 0.0268544 0.9991916 0.0268544 0.0008084 -0.0268544
12453551 0.0007794 -0.0262951 0.9992206 0.0262951 0.9992206 0.0262951 0.0007794 -0.0262951
12705331 0.0007516 -0.0257463 0.9992484 0.0257463 0.9992484 0.0257463 0.0007516 -0.0257463
12962202 0.0007249 -0.0252078 0.9992751 0.0252078 0.9992751 0.0252078 0.0007249 -0.0252078
13224267 0.0006993 -0.0246793 0.9993007 0.0246793 0.9993007 0.0246793 0.0006993 -0.0246793
13491630 0.0006748 -0.0241607 0.9993252 0.0241607 0.9993252 0.0241607 0.0006748 -0.0241607
13764398 0.0006513 -0.0236517 0.9993487 0.0236517 0.9993487 0.0236517 0.0006513 -0.0236517
14042680 0.0006287 -0.0231522 0.9993713 0.0231522 0.9993713 0.0231522 0.0006287 -0.0231522
14326589 0.0006072 -0.0226619 0.9993928 0.0226619 0.9993928 0.0226619 0.0006072 -0.0226619
14616238 0.0005865 -0.0221807 0.9994135 0.0221807 0.9994135 0.0221807 0.0005865 -0.0221807
14911743 0.0005667 -0.0217083 0.9994333 0.0217083 0.9994333 0.0217083 0.0005667 -0.0217083
15213223 0.0005477 -0.0212447 0.9994523 0.0212447 0.9994523 0.0212447 0.0005477 -0.0212447
15520797 0.0005296 -0.0207895 0.9994704 0.0207895 0.9994704 0.0207895 0.0005296 -0.0207895
15834590 0.0005122 -0.0203427 0.9994878 0.0203427 0.9994878 0.0203427 0.0005122 -0.0203427
16154727 0.0004956 -0.0199040 0.9995044 0.0199040 0.9995044 0.0199040 0.0004956 -0.0199040
16481337 0.0004797 -0.0194732 0.9995203 0.0194732 0.9995203 0.0194732 0.0004797 -0.0194732
16814550 0.0004646 -0.0190503 0.9995354 0.0190503 0.9995354 0.0190503 0.0004646 -0.0190503
17154499 0.0004500 -0.0186350 0.9995500 0.0186350 0.9995500 0.0186350 0.0004500 -0.0186350
17501322 0.0004362 -0.0182271 0.9995638 0.0182271 0.9995638 0.0182271 0.0004362 -0.0182271
17855156 0.0004229 -0.0178266 0.9995771 0.0178266 0.9995771 0.0178266 0.0004229 -0.0178266
18216144 0.0004103 -0.0174332 0.9995897 0.0174332 0.9995897 0.0174332 0.0004103 -0.0174332
18584431 0.0003982 -0.0170468 0.9996018 0.0170468 0.9996018 0.0170468 0.0003982 -0.0170468
18960163 0.0003867 -0.0166672 0.9996133 0.0166672 0.9996133 0.0166672 0.0003867 -0.0166672
19343491 0.0003757 -0.0162943 0.9996243 0.0162943 0.9996243 0.0162943 0.0003757 -0.0162943
19734570 0.0003653 -0.0159279 0.9996347 0.0159279 0.9996347 0.0159279 0.0003653 -0.0159279
20133555 0.0003553 -0.0155680 0.9996447 0.0155680 0.9996447 0.0155680 0.0003553 -0.0155680
20540607 0.0003458 -0.0152143 0.9996542 0.0152143 0.9996542 0.0152143 0.0003458 -0.0152143
20955888 0.0003368 -0.0148667 0.9996632 0.0148667 0.9996632 0.0148667 0.0003368 -0.0148667
21379566 0.0003282 -0.0145250 0.9996718 0.0145250 0.9996718 0.0145250 0.0003282 -0.0145250
21811809 0.0003201 -0.0141892 0.9996799 0.0141892 0.9996799 0.0141892 0.0003201 -0.0141892
22252791 0.0003124 -0.0138591 0.9996876 0.0138591 0.9996876 0.0138591 0.0003124 -0.0138591
22702688 0.0003051 -0.0135346 0.9996949 0.0135346 0.9996949 0.0135346 0.0003051 -0.0135346
23161682 0.0002982 -0.0132155 0.9997018 0.0132155 0.9997018 0.0132155 0.0002982 -0.0132155
23629955 0.0002916 -0.0129017 0.9997084 0.0129017 0.9997084 0.0129017 0.0002916 -0.0129017
24107696 0.0002854 -0.0125931 0.9997146 0.0125931 0.9997146 0.0125931 0.0002854 -0.0125931
24595095 0.0002796 -0.0122895 0.9997204 0.0122895 0.9997204 0.0122895 0.0002796 -0.0122895
25092348 0.0002741 -0.0119909 0.9997259 0.0119909 0.9997259 0.0119909 0.0002741 -0.0119909
25599655 0.0002690 -0.0116971 0.9997310 0.0116971 0.9997310 0.0116971 0.0002690 -0.0116971
26117218 0.0002641 -0.0114080 0.9997359 0.0114080 0.9997359 0.0114080 0.0002641 -0.0114080
26645245 0.0002596 -0.0111235 0.9997404 0.0111235 0.9997404 0.0111235 0.0002596 -0.0111235
27183947 0.0002554 -0.0108434 0.9997446 0.0108434 0.9997446 0.0108434 0.0002554 -0.0108434
27733541 0.0002515 -0.0105677 0.9997485 0.0105677 0.9997485 0.0105677 0.0002515 -0.0105677
28294246 0.0002478 -0.0102963 0.9997522 0.0102963 0.9997522 0.0102963 0.0002478 -0.0102963
28866287 0.0002444 -0.0100290 0.9997556 0.0100290 0.9997556 0.0100290 0.0002444 -0.0100290
29449894 0.0002414 -0.0097657 0.9997586 0.0097657 0.9997586 0.0097657 0.0002414 -0.0097657
30045299 0.0002385 -0.0095064 0.9997615 0.0095064 0.9997615 0.0095064 0.0002385 -0.0095064
30652742 0.0002359 -0.0092508 0.9997641 0.0092508 0.9997641 0.0092508 0.0002359 -0.0092508
31272467 0.0002336 -0.0089990 0.9997664 0.0089990 0.9997664 0.0089990 0.0002336 -0.0089990
31904720 0.0002315 -0.0087508 0.9997685 0.0087508 0.9997685 0.0087508 0.0002315 -0.0087508
32549757 0.0002297 -0.0085060 0.9997703 0.0085060 0.9997703 0.0085060 0.0002297 -0.0085060
33207834 0.0002281 -0.0082647 0.9997719 0.0082647 0.9997719 0.0082647 0.0002281 -0.0082647
33879216 0.0002267 -0.0080267 0.9997733 0.0080267 0.9997733 0.0080267 0.0002267 -0.0080267
34564172 0.0002255 -0.0077919 0.9997745 0.0077919 0.9997745 0.0077919 0.0002255 -0.0077919
35262976 0.0002246 -0.0075603 0.9997754 0.0075603 0.9997754 0.0075603 0.0002246 -0.0075603
35975908 0.0002239 -0.0073316 0.9997761 0.0073316 0.9997761 0.0073316 0.0002239 -0.0073316
36703254 0.0002234 -0.0071059 0.9997766 0.0071059 0.9997766 0.0071059 0.0002234 -0.0071059
37445305 0.0002231 -0.0068830 0.9997769 0.0068830 0.9997769 0.0068830 0.0002231 -0.0068830
38202358 0.0002231 -0.0066628 0.9997769 0.0066628 0.9997769 0.0066628 0.0002231 -0.0066628
38974717 0.0002232 -0.0064453 0.9997768 0.0064453 0.9997768 0.0064453 0.0002232 -0.0064453
39762692 0.0002236 -0.0062303 0.9997764 0.0062303 0.9997764 0.0062303 0.0002236 -0.0062303
40566597 0.0002242 -0.0060179 0.9997758 0.0060179 0.9997758 0.0060179 0.0002242 -0.0060179
41386756 0.0002250 -0.0058077 0.9997750 0.0058077 0.9997750 0.0058077 0.0002250 -0.0058077
42223496 0.0002260 -0.0055999 0.9997740 0.0055999 0.9997740 0.0055999 0.0002260 -0.0055999
43077153 0.0002272 -0.0053943 0.9997728 0.0053943 0.9997728 0.0053943 0.0002272 -0.0053943
43948069 0.0002286 -0.0051908 0.9997714 0.0051908 0.9997714 0.0051908 0.0002286 -0.0051908
44836592 0.0002303 -0.0049893 0.9997697 0.0049893 0.9997697 0.0049893 0.0002303 -0.0049893
45743080 0.0002321 -0.0047897 0.9997679 0.0047897 0.9997679 0.0047897 0.0002321 -0.0047897
46667894 0.0002342 -0.0045920 0.9997658 0.0045920 0.9997658 0.0045920 0.0002342 -0.0045920
47611406 0.0002365 -0.0043961 0.9997635 0.0043961 0.9997635 0.0043961 0.0002365 -0.0043961
48573993 0.0002391 -0.0042018 0.9997609 0.0042018 0.9997609 0.0042018 0.0002391 -0.0042018
49556042 0.0002418 -0.0040091 0.9997582 0.0040091 0.9997582 0.0040091 0.0002418 -0.0040091
50557945 0.0002448 -0.0038180 0.9997552 0.0038180 0.9997552 0.0038180 0.0002448 -0.0038180
51580105 0.0002480 -0.0036282 0.9997520 0.0036282 0.9997520 0.0036282 0.0002480 -0.0036282
52622929 0.0002515 -0.0034398 0.9997485 0.0034398 0.9997485 0.0034398 0.0002515 -0.0034398
53686838 0.0002552 -0.0032526 0.9997448 0.0032526 0.9997448 0.0032526 0.0002552 -0.0032526
54772256 0.0002592 -0.0030666 0.9997408 0.0030666 0.9997408 0.0030666 0.0002592 -0.0030666
55879618 0.0002635 -0.0028816 0.9997365 0.0028816 0.9997365 0.0028816 0.0002635 -0.0028816
57009369 0.0002680 -0.0026977 0.9997320 0.0026977 0.9997320 0.0026977 0.0002680 -0.0026977
58161960 0.0002728 -0.0025146 0.9997272 0.0025146 0.9997272 0.0025146 0.0002728 -0.0025146
59337855 0.0002779 -0.0023323 0.9997221 0.0023323 0.9997221 0.0023323 0.0002779 -0.0023323
60537522 0.0002832 -0.0021507 0.9997168 0.0021507 0.9997168 0.0021507 0.0002832 -0.0021507
61761445 0.0002889 -0.0019698 0.9997111 0.0019698 0.9997111 0.0019698 0.0002889 -0.0019698
63010112 0.0002949 -0.0017893 0.9997051 0.0017893 0.9997051 0.0017893 0.0002949 -0.0017893
64284024 0.0003013 -0.0016093 0.9996987 0.0016093 0.9996987 0.0016093 0.0003013 -0.0016093
65583691 0.0003080 -0.0014295 0.9996920 0.0014295 0.9996920 0.0014295 0.0003080 -0.0014295
66909635 0.0003150 -0.0012500 0.9996850 0.0012500 0.9996850 0.0012500 0.0003150 -0.0012500
68262386 0.0003224 -0.0010706 0.9996776 0.0010706 0.9996776 0.0010706 0.0003224 -0.0010706
69642486 0.0003302 -0.0008912 0.9996698 0.0008912 0.9996698 0.0008912 0.0003302 -0.0008912
71050488 0.0003385 -0.0007116 0.9996615 0.0007116 0.9996615 0.0007116 0.0003385 -0.0007116
72486957 0.0003471 -0.0005318 0.9996529 0.0005318 0.9996529 0.0005318 0.0003471 -0.0005318
73952468 0.0003562 -0.0003517 0.9996438 0.0003517 0.9996438 0.0003517 0.0003562 -0.0003517
