!Murata Part Number: GRM31A5C2J151JW01
!These Parameters are Measured in Series Mode Connection
!Data Generated on Mar 30, 2021
!       o--ll--o
!Port1            Port2
!       o------o
!Operation Temp=25[degC], DC Bias Voltage=0[V]
!Freq. Start=100[MHz] Stop=3[GHz] 401[Steps]
# Hz S RI R 50
!Freq.(Hz) S11(Real) S11(Imag) S21(Real) S21(Imag) S12(Real) S12(Imag) S22(Real) S22(Imag)
100000000 0.0112915 -0.0992421 0.9887085 0.0992421 0.9887085 0.0992421 0.0112915 -0.0992421
107250000 0.0098596 -0.0918921 0.9901404 0.0918921 0.9901404 0.0918921 0.0098596 -0.0918921
114500000 0.0086894 -0.0853973 0.9913106 0.0853973 0.9913106 0.0853973 0.0086894 -0.0853973
121750000 0.0077214 -0.0796101 0.9922786 0.0796101 0.9922786 0.0796101 0.0077214 -0.0796101
129000000 0.0069120 -0.0744148 0.9930880 0.0744148 0.9930880 0.0744148 0.0069120 -0.0744148
136250000 0.0062288 -0.0697193 0.9937712 0.0697193 0.9937712 0.0697193 0.0062288 -0.0697193
143500000 0.0056473 -0.0654498 0.9943527 0.0654498 0.9943527 0.0654498 0.0056473 -0.0654498
150750000 0.0051487 -0.0615460 0.9948513 0.0615460 0.9948513 0.0615460 0.0051487 -0.0615460
158000000 0.0047183 -0.0579587 0.9952817 0.0579587 0.9952817 0.0579587 0.0047183 -0.0579587
165250000 0.0043446 -0.0546468 0.9956554 0.0546468 0.9956554 0.0546468 0.0043446 -0.0546468
172500000 0.0040183 -0.0515763 0.9959817 0.0515763 0.9959817 0.0515763 0.0040183 -0.0515763
179750000 0.0037320 -0.0487183 0.9962680 0.0487183 0.9962680 0.0487183 0.0037320 -0.0487183
187000000 0.0034799 -0.0460484 0.9965201 0.0460484 0.9965201 0.0460484 0.0034799 -0.0460484
194250000 0.0032569 -0.0435459 0.9967431 0.0435459 0.9967431 0.0435459 0.0032569 -0.0435459
201500000 0.0030591 -0.0411929 0.9969409 0.0411929 0.9969409 0.0411929 0.0030591 -0.0411929
208750000 0.0028830 -0.0389739 0.9971170 0.0389739 0.9971170 0.0389739 0.0028830 -0.0389739
216000000 0.0027259 -0.0368756 0.9972741 0.0368756 0.9972741 0.0368756 0.0027259 -0.0368756
223250000 0.0025855 -0.0348864 0.9974145 0.0348864 0.9974145 0.0348864 0.0025855 -0.0348864
230500000 0.0024596 -0.0329959 0.9975404 0.0329959 0.9975404 0.0329959 0.0024596 -0.0329959
237750000 0.0023466 -0.0311953 0.9976534 0.0311953 0.9976534 0.0311953 0.0023466 -0.0311953
245000000 0.0022452 -0.0294767 0.9977548 0.0294767 0.9977548 0.0294767 0.0022452 -0.0294767
252250000 0.0021539 -0.0278329 0.9978461 0.0278329 0.9978461 0.0278329 0.0021539 -0.0278329
259500000 0.0020718 -0.0262579 0.9979282 0.0262579 0.9979282 0.0262579 0.0020718 -0.0262579
266750000 0.0019979 -0.0247458 0.9980021 0.0247458 0.9980021 0.0247458 0.0019979 -0.0247458
274000000 0.0019314 -0.0232919 0.9980686 0.0232919 0.9980686 0.0232919 0.0019314 -0.0232919
281250000 0.0018716 -0.0218917 0.9981284 0.0218917 0.9981284 0.0218917 0.0018716 -0.0218917
288500000 0.0018179 -0.0205410 0.9981821 0.0205410 0.9981821 0.0205410 0.0018179 -0.0205410
295750000 0.0017697 -0.0192362 0.9982303 0.0192362 0.9982303 0.0192362 0.0017697 -0.0192362
303000000 0.0017266 -0.0179742 0.9982734 0.0179742 0.9982734 0.0179742 0.0017266 -0.0179742
310250000 0.0016881 -0.0167517 0.9983119 0.0167517 0.9983119 0.0167517 0.0016881 -0.0167517
317500000 0.0016538 -0.0155663 0.9983462 0.0155663 0.9983462 0.0155663 0.0016538 -0.0155663
324750000 0.0016235 -0.0144153 0.9983765 0.0144153 0.9983765 0.0144153 0.0016235 -0.0144153
332000000 0.0015968 -0.0132966 0.9984032 0.0132966 0.9984032 0.0132966 0.0015968 -0.0132966
339250000 0.0015734 -0.0122080 0.9984266 0.0122080 0.9984266 0.0122080 0.0015734 -0.0122080
346500000 0.0015532 -0.0111477 0.9984468 0.0111477 0.9984468 0.0111477 0.0015532 -0.0111477
353750000 0.0015358 -0.0101138 0.9984642 0.0101138 0.9984642 0.0101138 0.0015358 -0.0101138
361000000 0.0015211 -0.0091049 0.9984789 0.0091049 0.9984789 0.0091049 0.0015211 -0.0091049
368250000 0.0015090 -0.0081194 0.9984910 0.0081194 0.9984910 0.0081194 0.0015090 -0.0081194
375500000 0.0014993 -0.0071560 0.9985007 0.0071560 0.9985007 0.0071560 0.0014993 -0.0071560
382750000 0.0014917 -0.0062134 0.9985083 0.0062134 0.9985083 0.0062134 0.0014917 -0.0062134
390000000 0.0014863 -0.0052905 0.9985137 0.0052905 0.9985137 0.0052905 0.0014863 -0.0052905
397250000 0.0014829 -0.0043861 0.9985171 0.0043861 0.9985171 0.0043861 0.0014829 -0.0043861
404500000 0.0014813 -0.0034992 0.9985187 0.0034992 0.9985187 0.0034992 0.0014813 -0.0034992
411750000 0.0014815 -0.0026290 0.9985185 0.0026290 0.9985185 0.0026290 0.0014815 -0.0026290
419000000 0.0014833 -0.0017745 0.9985167 0.0017745 0.9985167 0.0017745 0.0014833 -0.0017745
426250000 0.0014868 -0.0009349 0.9985132 0.0009349 0.9985132 0.0009349 0.0014868 -0.0009349
433500000 0.0014919 -0.0001095 0.9985081 0.0001095 0.9985081 0.0001095 0.0014919 -0.0001095
440750000 0.0014983 0.0007024 0.9985017 -0.0007024 0.9985017 -0.0007024 0.0014983 0.0007024
448000000 0.0015062 0.0015016 0.9984938 -0.0015016 0.9984938 -0.0015016 0.0015062 0.0015016
455250000 0.0015154 0.0022885 0.9984846 -0.0022885 0.9984846 -0.0022885 0.0015154 0.0022885
462500000 0.0015259 0.0030639 0.9984741 -0.0030639 0.9984741 -0.0030639 0.0015259 0.0030639
469750000 0.0015377 0.0038282 0.9984623 -0.0038282 0.9984623 -0.0038282 0.0015377 0.0038282
477000000 0.0015506 0.0045820 0.9984494 -0.0045820 0.9984494 -0.0045820 0.0015506 0.0045820
484250000 0.0015647 0.0053257 0.9984353 -0.0053257 0.9984353 -0.0053257 0.0015647 0.0053257
491500000 0.0015799 0.0060599 0.9984201 -0.0060599 0.9984201 -0.0060599 0.0015799 0.0060599
498750000 0.0015962 0.0067849 0.9984038 -0.0067849 0.9984038 -0.0067849 0.0015962 0.0067849
506000000 0.0016135 0.0075011 0.9983865 -0.0075011 0.9983865 -0.0075011 0.0016135 0.0075011
513250000 0.0016319 0.0082089 0.9983681 -0.0082089 0.9983681 -0.0082089 0.0016319 0.0082089
520500000 0.0016512 0.0089088 0.9983488 -0.0089088 0.9983488 -0.0089088 0.0016512 0.0089088
527750000 0.0016715 0.0096009 0.9983285 -0.0096009 0.9983285 -0.0096009 0.0016715 0.0096009
535000000 0.0016928 0.0102858 0.9983072 -0.0102858 0.9983072 -0.0102858 0.0016928 0.0102858
542250000 0.0017150 0.0109635 0.9982850 -0.0109635 0.9982850 -0.0109635 0.0017150 0.0109635
549500000 0.0017380 0.0116346 0.9982620 -0.0116346 0.9982620 -0.0116346 0.0017380 0.0116346
556750000 0.0017620 0.0122991 0.9982380 -0.0122991 0.9982380 -0.0122991 0.0017620 0.0122991
564000000 0.0017868 0.0129574 0.9982132 -0.0129574 0.9982132 -0.0129574 0.0017868 0.0129574
571250000 0.0018124 0.0136098 0.9981876 -0.0136098 0.9981876 -0.0136098 0.0018124 0.0136098
578500000 0.0018389 0.0142564 0.9981611 -0.0142564 0.9981611 -0.0142564 0.0018389 0.0142564
585750000 0.0018662 0.0148975 0.9981338 -0.0148975 0.9981338 -0.0148975 0.0018662 0.0148975
593000000 0.0018943 0.0155334 0.9981057 -0.0155334 0.9981057 -0.0155334 0.0018943 0.0155334
600250000 0.0019232 0.0161641 0.9980768 -0.0161641 0.9980768 -0.0161641 0.0019232 0.0161641
607500000 0.0019528 0.0167900 0.9980472 -0.0167900 0.9980472 -0.0167900 0.0019528 0.0167900
614750000 0.0019833 0.0174111 0.9980167 -0.0174111 0.9980167 -0.0174111 0.0019833 0.0174111
622000000 0.0020145 0.0180277 0.9979855 -0.0180277 0.9979855 -0.0180277 0.0020145 0.0180277
629250000 0.0020464 0.0186400 0.9979536 -0.0186400 0.9979536 -0.0186400 0.0020464 0.0186400
636500000 0.0020791 0.0192480 0.9979209 -0.0192480 0.9979209 -0.0192480 0.0020791 0.0192480
643750000 0.0021126 0.0198520 0.9978874 -0.0198520 0.9978874 -0.0198520 0.0021126 0.0198520
651000000 0.0021468 0.0204521 0.9978532 -0.0204521 0.9978532 -0.0204521 0.0021468 0.0204521
658250000 0.0021817 0.0210485 0.9978183 -0.0210485 0.9978183 -0.0210485 0.0021817 0.0210485
665500000 0.0022173 0.0216412 0.9977827 -0.0216412 0.9977827 -0.0216412 0.0022173 0.0216412
672750000 0.0022536 0.0222305 0.9977464 -0.0222305 0.9977464 -0.0222305 0.0022536 0.0222305
680000000 0.0022907 0.0228163 0.9977093 -0.0228163 0.9977093 -0.0228163 0.0022907 0.0228163
687250000 0.0023285 0.0233990 0.9976715 -0.0233990 0.9976715 -0.0233990 0.0023285 0.0233990
694500000 0.0023669 0.0239784 0.9976331 -0.0239784 0.9976331 -0.0239784 0.0023669 0.0239784
701750000 0.0024061 0.0245549 0.9975939 -0.0245549 0.9975939 -0.0245549 0.0024061 0.0245549
709000000 0.0024460 0.0251285 0.9975540 -0.0251285 0.9975540 -0.0251285 0.0024460 0.0251285
716250000 0.0024866 0.0256992 0.9975134 -0.0256992 0.9975134 -0.0256992 0.0024866 0.0256992
723500000 0.0025278 0.0262672 0.9974722 -0.0262672 0.9974722 -0.0262672 0.0025278 0.0262672
730750000 0.0025698 0.0268326 0.9974302 -0.0268326 0.9974302 -0.0268326 0.0025698 0.0268326
738000000 0.0026125 0.0273955 0.9973875 -0.0273955 0.9973875 -0.0273955 0.0026125 0.0273955
745250000 0.0026558 0.0279559 0.9973442 -0.0279559 0.9973442 -0.0279559 0.0026558 0.0279559
752500000 0.0026999 0.0285140 0.9973001 -0.0285140 0.9973001 -0.0285140 0.0026999 0.0285140
759750000 0.0027447 0.0290698 0.9972553 -0.0290698 0.9972553 -0.0290698 0.0027447 0.0290698
767000000 0.0027901 0.0296233 0.9972099 -0.0296233 0.9972099 -0.0296233 0.0027901 0.0296233
774250000 0.0028363 0.0301748 0.9971637 -0.0301748 0.9971637 -0.0301748 0.0028363 0.0301748
781500000 0.0028831 0.0307242 0.9971169 -0.0307242 0.9971169 -0.0307242 0.0028831 0.0307242
788750000 0.0029307 0.0312716 0.9970693 -0.0312716 0.9970693 -0.0312716 0.0029307 0.0312716
796000000 0.0029790 0.0318171 0.9970210 -0.0318171 0.9970210 -0.0318171 0.0029790 0.0318171
803250000 0.0030279 0.0323608 0.9969721 -0.0323608 0.9969721 -0.0323608 0.0030279 0.0323608
810500000 0.0030776 0.0329026 0.9969224 -0.0329026 0.9969224 -0.0329026 0.0030776 0.0329026
817750000 0.0031280 0.0334428 0.9968720 -0.0334428 0.9968720 -0.0334428 0.0031280 0.0334428
825000000 0.0031791 0.0339813 0.9968209 -0.0339813 0.9968209 -0.0339813 0.0031791 0.0339813
832250000 0.0032309 0.0345181 0.9967691 -0.0345181 0.9967691 -0.0345181 0.0032309 0.0345181
839500000 0.0032835 0.0350535 0.9967165 -0.0350535 0.9967165 -0.0350535 0.0032835 0.0350535
846750000 0.0033368 0.0355873 0.9966632 -0.0355873 0.9966632 -0.0355873 0.0033368 0.0355873
854000000 0.0033908 0.0361197 0.9966092 -0.0361197 0.9966092 -0.0361197 0.0033908 0.0361197
861250000 0.0034455 0.0366506 0.9965545 -0.0366506 0.9965545 -0.0366506 0.0034455 0.0366506
868500000 0.0035010 0.0371803 0.9964990 -0.0371803 0.9964990 -0.0371803 0.0035010 0.0371803
875750000 0.0035573 0.0377086 0.9964427 -0.0377086 0.9964427 -0.0377086 0.0035573 0.0377086
883000000 0.0036143 0.0382357 0.9963857 -0.0382357 0.9963857 -0.0382357 0.0036143 0.0382357
890250000 0.0036720 0.0387616 0.9963280 -0.0387616 0.9963280 -0.0387616 0.0036720 0.0387616
897500000 0.0037306 0.0392863 0.9962694 -0.0392863 0.9962694 -0.0392863 0.0037306 0.0392863
904750000 0.0037899 0.0398099 0.9962101 -0.0398099 0.9962101 -0.0398099 0.0037899 0.0398099
912000000 0.0038499 0.0403325 0.9961501 -0.0403325 0.9961501 -0.0403325 0.0038499 0.0403325
919250000 0.0039108 0.0408539 0.9960892 -0.0408539 0.9960892 -0.0408539 0.0039108 0.0408539
926500000 0.0039725 0.0413744 0.9960275 -0.0413744 0.9960275 -0.0413744 0.0039725 0.0413744
933750000 0.0040350 0.0418940 0.9959650 -0.0418940 0.9959650 -0.0418940 0.0040350 0.0418940
941000000 0.0040983 0.0424126 0.9959017 -0.0424126 0.9959017 -0.0424126 0.0040983 0.0424126
948250000 0.0041624 0.0429303 0.9958376 -0.0429303 0.9958376 -0.0429303 0.0041624 0.0429303
955500000 0.0042273 0.0434471 0.9957727 -0.0434471 0.9957727 -0.0434471 0.0042273 0.0434471
962750000 0.0042931 0.0439632 0.9957069 -0.0439632 0.9957069 -0.0439632 0.0042931 0.0439632
970000000 0.0043598 0.0444784 0.9956402 -0.0444784 0.9956402 -0.0444784 0.0043598 0.0444784
977250000 0.0044273 0.0449929 0.9955727 -0.0449929 0.9955727 -0.0449929 0.0044273 0.0449929
984500000 0.0044957 0.0455067 0.9955043 -0.0455067 0.9955043 -0.0455067 0.0044957 0.0455067
991750000 0.0045650 0.0460197 0.9954350 -0.0460197 0.9954350 -0.0460197 0.0045650 0.0460197
999000000 0.0046351 0.0465322 0.9953649 -0.0465322 0.9953649 -0.0465322 0.0046351 0.0465322
1006250000 0.0047062 0.0470439 0.9952938 -0.0470439 0.9952938 -0.0470439 0.0047062 0.0470439
1013500000 0.0047783 0.0475551 0.9952217 -0.0475551 0.9952217 -0.0475551 0.0047783 0.0475551
1020750000 0.0048512 0.0480657 0.9951488 -0.0480657 0.9951488 -0.0480657 0.0048512 0.0480657
1028000000 0.0049252 0.0485757 0.9950748 -0.0485757 0.9950748 -0.0485757 0.0049252 0.0485757
1035250000 0.0050001 0.0490852 0.9949999 -0.0490852 0.9949999 -0.0490852 0.0050001 0.0490852
1042500000 0.0050760 0.0495941 0.9949240 -0.0495941 0.9949240 -0.0495941 0.0050760 0.0495941
1049750000 0.0051529 0.0501026 0.9948471 -0.0501026 0.9948471 -0.0501026 0.0051529 0.0501026
1057000000 0.0052308 0.0506107 0.9947692 -0.0506107 0.9947692 -0.0506107 0.0052308 0.0506107
1064250000 0.0053097 0.0511183 0.9946903 -0.0511183 0.9946903 -0.0511183 0.0053097 0.0511183
1071500000 0.0053898 0.0516254 0.9946102 -0.0516254 0.9946102 -0.0516254 0.0053898 0.0516254
1078750000 0.0054709 0.0521322 0.9945291 -0.0521322 0.9945291 -0.0521322 0.0054709 0.0521322
1086000000 0.0055531 0.0526386 0.9944469 -0.0526386 0.9944469 -0.0526386 0.0055531 0.0526386
1093250000 0.0056364 0.0531447 0.9943636 -0.0531447 0.9943636 -0.0531447 0.0056364 0.0531447
1100500000 0.0057209 0.0536504 0.9942791 -0.0536504 0.9942791 -0.0536504 0.0057209 0.0536504
1107750000 0.0058065 0.0541557 0.9941935 -0.0541557 0.9941935 -0.0541557 0.0058065 0.0541557
1115000000 0.0058934 0.0546608 0.9941066 -0.0546608 0.9941066 -0.0546608 0.0058934 0.0546608
1122250000 0.0059814 0.0551655 0.9940186 -0.0551655 0.9940186 -0.0551655 0.0059814 0.0551655
1129500000 0.0060707 0.0556700 0.9939293 -0.0556700 0.9939293 -0.0556700 0.0060707 0.0556700
1136750000 0.0061613 0.0561742 0.9938387 -0.0561742 0.9938387 -0.0561742 0.0061613 0.0561742
1144000000 0.0062531 0.0566782 0.9937469 -0.0566782 0.9937469 -0.0566782 0.0062531 0.0566782
1151250000 0.0063463 0.0571819 0.9936537 -0.0571819 0.9936537 -0.0571819 0.0063463 0.0571819
1158500000 0.0064408 0.0576853 0.9935592 -0.0576853 0.9935592 -0.0576853 0.0064408 0.0576853
1165750000 0.0065368 0.0581885 0.9934632 -0.0581885 0.9934632 -0.0581885 0.0065368 0.0581885
1173000000 0.0066341 0.0586915 0.9933659 -0.0586915 0.9933659 -0.0586915 0.0066341 0.0586915
1180250000 0.0067329 0.0591943 0.9932671 -0.0591943 0.9932671 -0.0591943 0.0067329 0.0591943
1187500000 0.0068332 0.0596968 0.9931668 -0.0596968 0.9931668 -0.0596968 0.0068332 0.0596968
1194750000 0.0069350 0.0601991 0.9930650 -0.0601991 0.9930650 -0.0601991 0.0069350 0.0601991
1202000000 0.0070384 0.0607012 0.9929616 -0.0607012 0.9929616 -0.0607012 0.0070384 0.0607012
1209250000 0.0071434 0.0612031 0.9928566 -0.0612031 0.9928566 -0.0612031 0.0071434 0.0612031
1216500000 0.0072500 0.0617048 0.9927500 -0.0617048 0.9927500 -0.0617048 0.0072500 0.0617048
1223750000 0.0073583 0.0622062 0.9926417 -0.0622062 0.9926417 -0.0622062 0.0073583 0.0622062
1231000000 0.0074684 0.0627073 0.9925316 -0.0627073 0.9925316 -0.0627073 0.0074684 0.0627073
1238250000 0.0075802 0.0632082 0.9924198 -0.0632082 0.9924198 -0.0632082 0.0075802 0.0632082
1245500000 0.0076938 0.0637088 0.9923062 -0.0637088 0.9923062 -0.0637088 0.0076938 0.0637088
1252750000 0.0078093 0.0642091 0.9921907 -0.0642091 0.9921907 -0.0642091 0.0078093 0.0642091
1260000000 0.0079267 0.0647091 0.9920733 -0.0647091 0.9920733 -0.0647091 0.0079267 0.0647091
1267250000 0.0080461 0.0652087 0.9919539 -0.0652087 0.9919539 -0.0652087 0.0080461 0.0652087
1274500000 0.0081675 0.0657080 0.9918325 -0.0657080 0.9918325 -0.0657080 0.0081675 0.0657080
1281750000 0.0082909 0.0662068 0.9917091 -0.0662068 0.9917091 -0.0662068 0.0082909 0.0662068
1289000000 0.0084165 0.0667052 0.9915835 -0.0667052 0.9915835 -0.0667052 0.0084165 0.0667052
1296250000 0.0085443 0.0672031 0.9914557 -0.0672031 0.9914557 -0.0672031 0.0085443 0.0672031
1303500000 0.0086743 0.0677005 0.9913257 -0.0677005 0.9913257 -0.0677005 0.0086743 0.0677005
1310750000 0.0088065 0.0681973 0.9911935 -0.0681973 0.9911935 -0.0681973 0.0088065 0.0681973
1318000000 0.0089411 0.0686934 0.9910589 -0.0686934 0.9910589 -0.0686934 0.0089411 0.0686934
1325250000 0.0090781 0.0691888 0.9909219 -0.0691888 0.9909219 -0.0691888 0.0090781 0.0691888
1332500000 0.0092176 0.0696833 0.9907824 -0.0696833 0.9907824 -0.0696833 0.0092176 0.0696833
1339750000 0.0093595 0.0701770 0.9906405 -0.0701770 0.9906405 -0.0701770 0.0093595 0.0701770
1347000000 0.0095041 0.0706698 0.9904959 -0.0706698 0.9904959 -0.0706698 0.0095041 0.0706698
1354250000 0.0096512 0.0711615 0.9903488 -0.0711615 0.9903488 -0.0711615 0.0096512 0.0711615
1361500000 0.0098010 0.0716520 0.9901990 -0.0716520 0.9901990 -0.0716520 0.0098010 0.0716520
1368750000 0.0099535 0.0721412 0.9900465 -0.0721412 0.9900465 -0.0721412 0.0099535 0.0721412
1376000000 0.0101087 0.0726290 0.9898913 -0.0726290 0.9898913 -0.0726290 0.0101087 0.0726290
1383250000 0.0102667 0.0731153 0.9897333 -0.0731153 0.9897333 -0.0731153 0.0102667 0.0731153
1390500000 0.0104275 0.0735999 0.9895725 -0.0735999 0.9895725 -0.0735999 0.0104275 0.0735999
1397750000 0.0105912 0.0740826 0.9894088 -0.0740826 0.9894088 -0.0740826 0.0105912 0.0740826
1405000000 0.0107577 0.0745634 0.9892423 -0.0745634 0.9892423 -0.0745634 0.0107577 0.0745634
1412250000 0.0109271 0.0750420 0.9890729 -0.0750420 0.9890729 -0.0750420 0.0109271 0.0750420
1419500000 0.0110993 0.0755182 0.9889007 -0.0755182 0.9889007 -0.0755182 0.0110993 0.0755182
1426750000 0.0112744 0.0759918 0.9887256 -0.0759918 0.9887256 -0.0759918 0.0112744 0.0759918
1434000000 0.0114522 0.0764627 0.9885478 -0.0764627 0.9885478 -0.0764627 0.0114522 0.0764627
1441250000 0.0116328 0.0769305 0.9883672 -0.0769305 0.9883672 -0.0769305 0.0116328 0.0769305
1448500000 0.0118161 0.0773952 0.9881839 -0.0773952 0.9881839 -0.0773952 0.0118161 0.0773952
1455750000 0.0120020 0.0778564 0.9879980 -0.0778564 0.9879980 -0.0778564 0.0120020 0.0778564
1463000000 0.0121904 0.0783138 0.9878096 -0.0783138 0.9878096 -0.0783138 0.0121904 0.0783138
1470250000 0.0123811 0.0787674 0.9876189 -0.0787674 0.9876189 -0.0787674 0.0123811 0.0787674
1477500000 0.0125740 0.0792167 0.9874260 -0.0792167 0.9874260 -0.0792167 0.0125740 0.0792167
1484750000 0.0127689 0.0796616 0.9872311 -0.0796616 0.9872311 -0.0796616 0.0127689 0.0796616
1492000000 0.0129655 0.0801018 0.9870345 -0.0801018 0.9870345 -0.0801018 0.0129655 0.0801018
1499250000 0.0131637 0.0805370 0.9868363 -0.0805370 0.9868363 -0.0805370 0.0131637 0.0805370
1506500000 0.0133630 0.0809670 0.9866370 -0.0809670 0.9866370 -0.0809670 0.0133630 0.0809670
1513750000 0.0135632 0.0813916 0.9864368 -0.0813916 0.9864368 -0.0813916 0.0135632 0.0813916
1521000000 0.0137639 0.0818107 0.9862361 -0.0818107 0.9862361 -0.0818107 0.0137639 0.0818107
1528250000 0.0139647 0.0822239 0.9860353 -0.0822239 0.9860353 -0.0822239 0.0139647 0.0822239
1535500000 0.0141651 0.0826312 0.9858349 -0.0826312 0.9858349 -0.0826312 0.0141651 0.0826312
1542750000 0.0143647 0.0830324 0.9856353 -0.0830324 0.9856353 -0.0830324 0.0143647 0.0830324
1550000000 0.0145630 0.0834276 0.9854370 -0.0834276 0.9854370 -0.0834276 0.0145630 0.0834276
1557250000 0.0147593 0.0838166 0.9852407 -0.0838166 0.9852407 -0.0838166 0.0147593 0.0838166
1564500000 0.0149533 0.0841995 0.9850467 -0.0841995 0.9850467 -0.0841995 0.0149533 0.0841995
1571750000 0.0151442 0.0845764 0.9848558 -0.0845764 0.9848558 -0.0845764 0.0151442 0.0845764
1579000000 0.0153315 0.0849475 0.9846685 -0.0849475 0.9846685 -0.0849475 0.0153315 0.0849475
1586250000 0.0155147 0.0853130 0.9844853 -0.0853130 0.9844853 -0.0853130 0.0155147 0.0853130
1593500000 0.0156930 0.0856732 0.9843070 -0.0856732 0.9843070 -0.0856732 0.0156930 0.0856732
1600750000 0.0158661 0.0860285 0.9841339 -0.0860285 0.9841339 -0.0860285 0.0158661 0.0860285
1608000000 0.0160333 0.0863793 0.9839667 -0.0863793 0.9839667 -0.0863793 0.0160333 0.0863793
1615250000 0.0161941 0.0867262 0.9838059 -0.0867262 0.9838059 -0.0867262 0.0161941 0.0867262
1622500000 0.0163482 0.0870696 0.9836518 -0.0870696 0.9836518 -0.0870696 0.0163482 0.0870696
1629750000 0.0164951 0.0874104 0.9835049 -0.0874104 0.9835049 -0.0874104 0.0164951 0.0874104
