!Murata Part Number: GRM31A7U3A331JW31
!These Parameters are Measured in Series Mode Connection
!Data Generated on Mar 30, 2021
!       o--ll--o
!Port1            Port2
!       o------o
!Operation Temp=25[degC], DC Bias Voltage=0[V]
!Freq. Start=100[MHz] Stop=3[GHz] 401[Steps]
# Hz S RI R 50
!Freq.(Hz) S11(Real) S11(Imag) S21(Real) S21(Imag) S12(Real) S12(Imag) S22(Real) S22(Imag)
100000000 0.0025902 -0.0436773 0.9974098 0.0436773 0.9974098 0.0436773 0.0025902 -0.0436773
107250000 0.0022936 -0.0401199 0.9977064 0.0401199 0.9977064 0.0401199 0.0022936 -0.0401199
114500000 0.0020528 -0.0369699 0.9979472 0.0369699 0.9979472 0.0369699 0.0020528 -0.0369699
121750000 0.0018551 -0.0341549 0.9981449 0.0341549 0.9981449 0.0341549 0.0018551 -0.0341549
129000000 0.0016911 -0.0316188 0.9983089 0.0316188 0.9983089 0.0316188 0.0016911 -0.0316188
136250000 0.0015541 -0.0293171 0.9984459 0.0293171 0.9984459 0.0293171 0.0015541 -0.0293171
143500000 0.0014387 -0.0272146 0.9985613 0.0272146 0.9985613 0.0272146 0.0014387 -0.0272146
150750000 0.0013410 -0.0252825 0.9986590 0.0252825 0.9986590 0.0252825 0.0013410 -0.0252825
158000000 0.0012580 -0.0234974 0.9987420 0.0234974 0.9987420 0.0234974 0.0012580 -0.0234974
165250000 0.0011871 -0.0218400 0.9988129 0.0218400 0.9988129 0.0218400 0.0011871 -0.0218400
172500000 0.0011265 -0.0202941 0.9988735 0.0202941 0.9988735 0.0202941 0.0011265 -0.0202941
179750000 0.0010746 -0.0188463 0.9989254 0.0188463 0.9989254 0.0188463 0.0010746 -0.0188463
187000000 0.0010302 -0.0174851 0.9989698 0.0174851 0.9989698 0.0174851 0.0010302 -0.0174851
194250000 0.0009922 -0.0162007 0.9990078 0.0162007 0.9990078 0.0162007 0.0009922 -0.0162007
201500000 0.0009599 -0.0149849 0.9990401 0.0149849 0.9990401 0.0149849 0.0009599 -0.0149849
208750000 0.0009324 -0.0138305 0.9990676 0.0138305 0.9990676 0.0138305 0.0009324 -0.0138305
216000000 0.0009092 -0.0127312 0.9990908 0.0127312 0.9990908 0.0127312 0.0009092 -0.0127312
223250000 0.0008899 -0.0116815 0.9991101 0.0116815 0.9991101 0.0116815 0.0008899 -0.0116815
230500000 0.0008740 -0.0106768 0.9991260 0.0106768 0.9991260 0.0106768 0.0008740 -0.0106768
237750000 0.0008613 -0.0097129 0.9991387 0.0097129 0.9991387 0.0097129 0.0008613 -0.0097129
245000000 0.0008513 -0.0087860 0.9991487 0.0087860 0.9991487 0.0087860 0.0008513 -0.0087860
252250000 0.0008438 -0.0078930 0.9991562 0.0078930 0.9991562 0.0078930 0.0008438 -0.0078930
259500000 0.0008387 -0.0070309 0.9991613 0.0070309 0.9991613 0.0070309 0.0008387 -0.0070309
266750000 0.0008357 -0.0061971 0.9991643 0.0061971 0.9991643 0.0061971 0.0008357 -0.0061971
274000000 0.0008346 -0.0053893 0.9991654 0.0053893 0.9991654 0.0053893 0.0008346 -0.0053893
281250000 0.0008355 -0.0046054 0.9991645 0.0046054 0.9991645 0.0046054 0.0008355 -0.0046054
288500000 0.0008380 -0.0038435 0.9991620 0.0038435 0.9991620 0.0038435 0.0008380 -0.0038435
295750000 0.0008422 -0.0031020 0.9991578 0.0031020 0.9991578 0.0031020 0.0008422 -0.0031020
303000000 0.0008480 -0.0023793 0.9991520 0.0023793 0.9991520 0.0023793 0.0008480 -0.0023793
310250000 0.0008552 -0.0016739 0.9991448 0.0016739 0.9991448 0.0016739 0.0008552 -0.0016739
317500000 0.0008638 -0.0009846 0.9991362 0.0009846 0.9991362 0.0009846 0.0008638 -0.0009846
324750000 0.0008737 -0.0003103 0.9991263 0.0003103 0.9991263 0.0003103 0.0008737 -0.0003103
332000000 0.0008850 0.0003501 0.9991150 -0.0003501 0.9991150 -0.0003501 0.0008850 0.0003501
339250000 0.0008976 0.0009977 0.9991024 -0.0009977 0.9991024 -0.0009977 0.0008976 0.0009977
346500000 0.0009113 0.0016333 0.9990887 -0.0016333 0.9990887 -0.0016333 0.0009113 0.0016333
353750000 0.0009263 0.0022578 0.9990737 -0.0022578 0.9990737 -0.0022578 0.0009263 0.0022578
361000000 0.0009425 0.0028719 0.9990575 -0.0028719 0.9990575 -0.0028719 0.0009425 0.0028719
368250000 0.0009599 0.0034764 0.9990401 -0.0034764 0.9990401 -0.0034764 0.0009599 0.0034764
375500000 0.0009785 0.0040719 0.9990215 -0.0040719 0.9990215 -0.0040719 0.0009785 0.0040719
382750000 0.0009982 0.0046590 0.9990018 -0.0046590 0.9990018 -0.0046590 0.0009982 0.0046590
390000000 0.0010192 0.0052385 0.9989808 -0.0052385 0.9989808 -0.0052385 0.0010192 0.0052385
397250000 0.0010413 0.0058107 0.9989587 -0.0058107 0.9989587 -0.0058107 0.0010413 0.0058107
404500000 0.0010646 0.0063762 0.9989354 -0.0063762 0.9989354 -0.0063762 0.0010646 0.0063762
411750000 0.0010892 0.0069355 0.9989108 -0.0069355 0.9989108 -0.0069355 0.0010892 0.0069355
419000000 0.0011150 0.0074891 0.9988850 -0.0074891 0.9988850 -0.0074891 0.0011150 0.0074891
426250000 0.0011421 0.0080374 0.9988579 -0.0080374 0.9988579 -0.0080374 0.0011421 0.0080374
433500000 0.0011705 0.0085808 0.9988295 -0.0085808 0.9988295 -0.0085808 0.0011705 0.0085808
440750000 0.0012002 0.0091198 0.9987998 -0.0091198 0.9987998 -0.0091198 0.0012002 0.0091198
448000000 0.0012313 0.0096546 0.9987687 -0.0096546 0.9987687 -0.0096546 0.0012313 0.0096546
455250000 0.0012639 0.0101858 0.9987361 -0.0101858 0.9987361 -0.0101858 0.0012639 0.0101858
462500000 0.0012980 0.0107135 0.9987020 -0.0107135 0.9987020 -0.0107135 0.0012980 0.0107135
469750000 0.0013336 0.0112383 0.9986664 -0.0112383 0.9986664 -0.0112383 0.0013336 0.0112383
477000000 0.0013709 0.0117603 0.9986291 -0.0117603 0.9986291 -0.0117603 0.0013709 0.0117603
484250000 0.0014098 0.0122801 0.9985902 -0.0122801 0.9985902 -0.0122801 0.0014098 0.0122801
491500000 0.0014506 0.0127978 0.9985494 -0.0127978 0.9985494 -0.0127978 0.0014506 0.0127978
498750000 0.0014934 0.0133138 0.9985066 -0.0133138 0.9985066 -0.0133138 0.0014934 0.0133138
506000000 0.0015381 0.0138284 0.9984619 -0.0138284 0.9984619 -0.0138284 0.0015381 0.0138284
513250000 0.0015850 0.0143420 0.9984150 -0.0143420 0.9984150 -0.0143420 0.0015850 0.0143420
520500000 0.0016342 0.0148548 0.9983658 -0.0148548 0.9983658 -0.0148548 0.0016342 0.0148548
527750000 0.0016859 0.0153672 0.9983141 -0.0153672 0.9983141 -0.0153672 0.0016859 0.0153672
535000000 0.0017402 0.0158796 0.9982598 -0.0158796 0.9982598 -0.0158796 0.0017402 0.0158796
542250000 0.0017974 0.0163921 0.9982026 -0.0163921 0.9982026 -0.0163921 0.0017974 0.0163921
549500000 0.0018577 0.0169053 0.9981423 -0.0169053 0.9981423 -0.0169053 0.0018577 0.0169053
556750000 0.0019213 0.0174194 0.9980787 -0.0174194 0.9980787 -0.0174194 0.0019213 0.0174194
564000000 0.0019886 0.0179348 0.9980114 -0.0179348 0.9980114 -0.0179348 0.0019886 0.0179348
571250000 0.0020598 0.0184519 0.9979402 -0.0184519 0.9979402 -0.0184519 0.0020598 0.0184519
578500000 0.0021354 0.0189710 0.9978646 -0.0189710 0.9978646 -0.0189710 0.0021354 0.0189710
585750000 0.0022158 0.0194926 0.9977842 -0.0194926 0.9977842 -0.0194926 0.0022158 0.0194926
593000000 0.0023015 0.0200171 0.9976985 -0.0200171 0.9976985 -0.0200171 0.0023015 0.0200171
600250000 0.0023931 0.0205448 0.9976069 -0.0205448 0.9976069 -0.0205448 0.0023931 0.0205448
607500000 0.0024913 0.0210763 0.9975087 -0.0210763 0.9975087 -0.0210763 0.0024913 0.0210763
614750000 0.0025967 0.0216120 0.9974033 -0.0216120 0.9974033 -0.0216120 0.0025967 0.0216120
622000000 0.0027103 0.0221524 0.9972897 -0.0221524 0.9972897 -0.0221524 0.0027103 0.0221524
629250000 0.0028331 0.0226980 0.9971669 -0.0226980 0.9971669 -0.0226980 0.0028331 0.0226980
636500000 0.0029664 0.0232492 0.9970336 -0.0232492 0.9970336 -0.0232492 0.0029664 0.0232492
643750000 0.0031114 0.0238066 0.9968886 -0.0238066 0.9968886 -0.0238066 0.0031114 0.0238066
651000000 0.0032700 0.0243706 0.9967300 -0.0243706 0.9967300 -0.0243706 0.0032700 0.0243706
658250000 0.0034441 0.0249417 0.9965559 -0.0249417 0.9965559 -0.0249417 0.0034441 0.0249417
665500000 0.0036358 0.0255201 0.9963642 -0.0255201 0.9963642 -0.0255201 0.0036358 0.0255201
672750000 0.0038481 0.0261061 0.9961519 -0.0261061 0.9961519 -0.0261061 0.0038481 0.0261061
680000000 0.0040842 0.0266996 0.9959158 -0.0266996 0.9959158 -0.0266996 0.0040842 0.0266996
687250000 0.0043478 0.0273003 0.9956522 -0.0273003 0.9956522 -0.0273003 0.0043478 0.0273003
694500000 0.0046436 0.0279074 0.9953564 -0.0279074 0.9953564 -0.0279074 0.0046436 0.0279074
701750000 0.0049770 0.0285195 0.9950230 -0.0285195 0.9950230 -0.0285195 0.0049770 0.0285195
709000000 0.0053543 0.0291338 0.9946457 -0.0291338 0.9946457 -0.0291338 0.0053543 0.0291338
716250000 0.0057830 0.0297465 0.9942170 -0.0297465 0.9942170 -0.0297465 0.0057830 0.0297465
723500000 0.0062714 0.0303516 0.9937286 -0.0303516 0.9937286 -0.0303516 0.0062714 0.0303516
730750000 0.0068288 0.0309399 0.9931712 -0.0309399 0.9931712 -0.0309399 0.0068288 0.0309399
738000000 0.0074649 0.0314985 0.9925351 -0.0314985 0.9925351 -0.0314985 0.0074649 0.0314985
745250000 0.0081888 0.0320091 0.9918112 -0.0320091 0.9918112 -0.0320091 0.0081888 0.0320091
752500000 0.0090071 0.0324468 0.9909929 -0.0324468 0.9909929 -0.0324468 0.0090071 0.0324468
759750000 0.0099210 0.0327785 0.9900790 -0.0327785 0.9900790 -0.0327785 0.0099210 0.0327785
767000000 0.0109210 0.0329636 0.9890790 -0.0329636 0.9890790 -0.0329636 0.0109210 0.0329636
774250000 0.0119813 0.0329558 0.9880187 -0.0329558 0.9880187 -0.0329558 0.0119813 0.0329558
781500000 0.0130530 0.0327108 0.9869470 -0.0327108 0.9869470 -0.0327108 0.0130530 0.0327108
788750000 0.0140602 0.0321983 0.9859398 -0.0321983 0.9859398 -0.0321983 0.0140602 0.0321983
796000000 0.0149054 0.0314201 0.9850946 -0.0314201 0.9850946 -0.0314201 0.0149054 0.0314201
803250000 0.0154866 0.0304245 0.9845134 -0.0304245 0.9845134 -0.0304245 0.0154866 0.0304245
810500000 0.0157260 0.0293092 0.9842740 -0.0293092 0.9842740 -0.0293092 0.0157260 0.0293092
817750000 0.0155968 0.0282028 0.9844032 -0.0282028 0.9844032 -0.0282028 0.0155968 0.0282028
825000000 0.0151343 0.0272309 0.9848657 -0.0272309 0.9848657 -0.0272309 0.0151343 0.0272309
832250000 0.0144212 0.0264846 0.9855788 -0.0264846 0.9855788 -0.0264846 0.0144212 0.0264846
839500000 0.0135599 0.0260050 0.9864401 -0.0260050 0.9864401 -0.0260050 0.0135599 0.0260050
846750000 0.0126448 0.0257885 0.9873552 -0.0257885 0.9873552 -0.0257885 0.0126448 0.0257885
854000000 0.0117474 0.0258029 0.9882526 -0.0258029 0.9882526 -0.0258029 0.0117474 0.0258029
861250000 0.0109131 0.0260036 0.9890869 -0.0260036 0.9890869 -0.0260036 0.0109131 0.0260036
868500000 0.0101655 0.0263459 0.9898345 -0.0263459 0.9898345 -0.0263459 0.0101655 0.0263459
875750000 0.0095124 0.0267905 0.9904876 -0.0267905 0.9904876 -0.0267905 0.0095124 0.0267905
883000000 0.0089525 0.0273062 0.9910475 -0.0273062 0.9910475 -0.0273062 0.0089525 0.0273062
890250000 0.0084792 0.0278691 0.9915208 -0.0278691 0.9915208 -0.0278691 0.0084792 0.0278691
897500000 0.0080838 0.0284618 0.9919162 -0.0284618 0.9919162 -0.0284618 0.0080838 0.0284618
904750000 0.0077572 0.0290720 0.9922428 -0.0290720 0.9922428 -0.0290720 0.0077572 0.0290720
912000000 0.0074908 0.0296910 0.9925092 -0.0296910 0.9925092 -0.0296910 0.0074908 0.0296910
919250000 0.0072765 0.0303130 0.9927235 -0.0303130 0.9927235 -0.0303130 0.0072765 0.0303130
926500000 0.0071077 0.0309342 0.9928923 -0.0309342 0.9928923 -0.0309342 0.0071077 0.0309342
933750000 0.0069785 0.0315519 0.9930215 -0.0315519 0.9930215 -0.0315519 0.0069785 0.0315519
941000000 0.0068838 0.0321647 0.9931162 -0.0321647 0.9931162 -0.0321647 0.0068838 0.0321647
948250000 0.0068196 0.0327718 0.9931804 -0.0327718 0.9931804 -0.0327718 0.0068196 0.0327718
955500000 0.0067824 0.0333726 0.9932176 -0.0333726 0.9932176 -0.0333726 0.0067824 0.0333726
962750000 0.0067693 0.0339670 0.9932307 -0.0339670 0.9932307 -0.0339670 0.0067693 0.0339670
970000000 0.0067780 0.0345552 0.9932220 -0.0345552 0.9932220 -0.0345552 0.0067780 0.0345552
977250000 0.0068065 0.0351373 0.9931935 -0.0351373 0.9931935 -0.0351373 0.0068065 0.0351373
984500000 0.0068534 0.0357136 0.9931466 -0.0357136 0.9931466 -0.0357136 0.0068534 0.0357136
991750000 0.0069173 0.0362844 0.9930827 -0.0362844 0.9930827 -0.0362844 0.0069173 0.0362844
999000000 0.0069972 0.0368500 0.9930028 -0.0368500 0.9930028 -0.0368500 0.0069972 0.0368500
1006250000 0.0070923 0.0374106 0.9929077 -0.0374106 0.9929077 -0.0374106 0.0070923 0.0374106
1013500000 0.0072020 0.0379667 0.9927980 -0.0379667 0.9927980 -0.0379667 0.0072020 0.0379667
1020750000 0.0073260 0.0385183 0.9926740 -0.0385183 0.9926740 -0.0385183 0.0073260 0.0385183
1028000000 0.0074638 0.0390658 0.9925362 -0.0390658 0.9925362 -0.0390658 0.0074638 0.0390658
1035250000 0.0076154 0.0396092 0.9923846 -0.0396092 0.9923846 -0.0396092 0.0076154 0.0396092
1042500000 0.0077807 0.0401486 0.9922193 -0.0401486 0.9922193 -0.0401486 0.0077807 0.0401486
1049750000 0.0079597 0.0406842 0.9920403 -0.0406842 0.9920403 -0.0406842 0.0079597 0.0406842
1057000000 0.0081525 0.0412158 0.9918475 -0.0412158 0.9918475 -0.0412158 0.0081525 0.0412158
1064250000 0.0083594 0.0417434 0.9916406 -0.0417434 0.9916406 -0.0417434 0.0083594 0.0417434
1071500000 0.0085807 0.0422668 0.9914193 -0.0422668 0.9914193 -0.0422668 0.0085807 0.0422668
1078750000 0.0088167 0.0427857 0.9911833 -0.0427857 0.9911833 -0.0427857 0.0088167 0.0427857
1086000000 0.0090679 0.0432999 0.9909321 -0.0432999 0.9909321 -0.0432999 0.0090679 0.0432999
1093250000 0.0093346 0.0438089 0.9906654 -0.0438089 0.9906654 -0.0438089 0.0093346 0.0438089
1100500000 0.0096174 0.0443121 0.9903826 -0.0443121 0.9903826 -0.0443121 0.0096174 0.0443121
1107750000 0.0099168 0.0448090 0.9900832 -0.0448090 0.9900832 -0.0448090 0.0099168 0.0448090
1115000000 0.0102335 0.0452986 0.9897665 -0.0452986 0.9897665 -0.0452986 0.0102335 0.0452986
1122250000 0.0105679 0.0457801 0.9894321 -0.0457801 0.9894321 -0.0457801 0.0105679 0.0457801
1129500000 0.0109207 0.0462525 0.9890793 -0.0462525 0.9890793 -0.0462525 0.0109207 0.0462525
1136750000 0.0112925 0.0467145 0.9887075 -0.0467145 0.9887075 -0.0467145 0.0112925 0.0467145
1144000000 0.0116838 0.0471646 0.9883162 -0.0471646 0.9883162 -0.0471646 0.0116838 0.0471646
1151250000 0.0120950 0.0476013 0.9879050 -0.0476013 0.9879050 -0.0476013 0.0120950 0.0476013
1158500000 0.0125266 0.0480227 0.9874734 -0.0480227 0.9874734 -0.0480227 0.0125266 0.0480227
1165750000 0.0129788 0.0484268 0.9870212 -0.0484268 0.9870212 -0.0484268 0.0129788 0.0484268
1173000000 0.0134519 0.0488114 0.9865481 -0.0488114 0.9865481 -0.0488114 0.0134519 0.0488114
1180250000 0.0139456 0.0491740 0.9860544 -0.0491740 0.9860544 -0.0491740 0.0139456 0.0491740
1187500000 0.0144596 0.0495118 0.9855404 -0.0495118 0.9855404 -0.0495118 0.0144596 0.0495118
1194750000 0.0149934 0.0498220 0.9850066 -0.0498220 0.9850066 -0.0498220 0.0149934 0.0498220
1202000000 0.0155459 0.0501014 0.9844541 -0.0501014 0.9844541 -0.0501014 0.0155459 0.0501014
1209250000 0.0161157 0.0503467 0.9838843 -0.0503467 0.9838843 -0.0503467 0.0161157 0.0503467
1216500000 0.0167008 0.0505546 0.9832992 -0.0505546 0.9832992 -0.0505546 0.0167008 0.0505546
1223750000 0.0172987 0.0507215 0.9827013 -0.0507215 0.9827013 -0.0507215 0.0172987 0.0507215
1231000000 0.0179062 0.0508442 0.9820938 -0.0508442 0.9820938 -0.0508442 0.0179062 0.0508442
1238250000 0.0185196 0.0509193 0.9814804 -0.0509193 0.9814804 -0.0509193 0.0185196 0.0509193
1245500000 0.0191342 0.0509438 0.9808658 -0.0509438 0.9808658 -0.0509438 0.0191342 0.0509438
1252750000 0.0197447 0.0509152 0.9802553 -0.0509152 0.9802553 -0.0509152 0.0197447 0.0509152
1260000000 0.0203450 0.0508317 0.9796550 -0.0508317 0.9796550 -0.0508317 0.0203450 0.0508317
1267250000 0.0209286 0.0506920 0.9790714 -0.0506920 0.9790714 -0.0506920 0.0209286 0.0506920
1274500000 0.0214881 0.0504960 0.9785119 -0.0504960 0.9785119 -0.0504960 0.0214881 0.0504960
1281750000 0.0220160 0.0502447 0.9779840 -0.0502447 0.9779840 -0.0502447 0.0220160 0.0502447
1289000000 0.0225043 0.0499403 0.9774957 -0.0499403 0.9774957 -0.0499403 0.0225043 0.0499403
1296250000 0.0229456 0.0495865 0.9770544 -0.0495865 0.9770544 -0.0495865 0.0229456 0.0495865
1303500000 0.0233323 0.0491883 0.9766677 -0.0491883 0.9766677 -0.0491883 0.0233323 0.0491883
1310750000 0.0236579 0.0487522 0.9763421 -0.0487522 0.9763421 -0.0487522 0.0236579 0.0487522
1318000000 0.0239168 0.0482858 0.9760832 -0.0482858 0.9760832 -0.0482858 0.0239168 0.0482858
1325250000 0.0241047 0.0477978 0.9758953 -0.0477978 0.9758953 -0.0477978 0.0241047 0.0477978
1332500000 0.0242187 0.0472977 0.9757813 -0.0472977 0.9757813 -0.0472977 0.0242187 0.0472977
1339750000 0.0242578 0.0467954 0.9757422 -0.0467954 0.9757422 -0.0467954 0.0242578 0.0467954
1347000000 0.0242224 0.0463007 0.9757776 -0.0463007 0.9757776 -0.0463007 0.0242224 0.0463007
1354250000 0.0241149 0.0458234 0.9758851 -0.0458234 0.9758851 -0.0458234 0.0241149 0.0458234
1361500000 0.0239392 0.0453722 0.9760608 -0.0453722 0.9760608 -0.0453722 0.0239392 0.0453722
1368750000 0.0237003 0.0449552 0.9762997 -0.0449552 0.9762997 -0.0449552 0.0237003 0.0449552
1376000000 0.0234046 0.0445792 0.9765954 -0.0445792 0.9765954 -0.0445792 0.0234046 0.0445792
1383250000 0.0230592 0.0442495 0.9769408 -0.0442495 0.9769408 -0.0442495 0.0230592 0.0442495
1390500000 0.0226714 0.0439703 0.9773286 -0.0439703 0.9773286 -0.0439703 0.0226714 0.0439703
1397750000 0.0222490 0.0437442 0.9777510 -0.0437442 0.9777510 -0.0437442 0.0222490 0.0437442
1405000000 0.0217996 0.0435726 0.9782004 -0.0435726 0.9782004 -0.0435726 0.0217996 0.0435726
1412250000 0.0213303 0.0434556 0.9786697 -0.0434556 0.9786697 -0.0434556 0.0213303 0.0434556
1419500000 0.0208479 0.0433925 0.9791521 -0.0433925 0.9791521 -0.0433925 0.0208479 0.0433925
1426750000 0.0203586 0.0433818 0.9796414 -0.0433818 0.9796414 -0.0433818 0.0203586 0.0433818
1434000000 0.0198678 0.0434209 0.9801322 -0.0434209 0.9801322 -0.0434209 0.0198678 0.0434209
1441250000 0.0193802 0.0435074 0.9806198 -0.0435074 0.9806198 -0.0435074 0.0193802 0.0435074
1448500000 0.0188998 0.0436379 0.9811002 -0.0436379 0.9811002 -0.0436379 0.0188998 0.0436379
1455750000 0.0184300 0.0438093 0.9815700 -0.0438093 0.9815700 -0.0438093 0.0184300 0.0438093
1463000000 0.0179735 0.0440182 0.9820265 -0.0440182 0.9820265 -0.0440182 0.0179735 0.0440182
1470250000 0.0175324 0.0442613 0.9824676 -0.0442613 0.9824676 -0.0442613 0.0175324 0.0442613
1477500000 0.0171083 0.0445352 0.9828917 -0.0445352 0.9828917 -0.0445352 0.0171083 0.0445352
1484750000 0.0167023 0.0448369 0.9832977 -0.0448369 0.9832977 -0.0448369 0.0167023 0.0448369
1492000000 0.0163153 0.0451635 0.9836847 -0.0451635 0.9836847 -0.0451635 0.0163153 0.0451635
1499250000 0.0159475 0.0455120 0.9840525 -0.0455120 0.9840525 -0.0455120 0.0159475 0.0455120
1506500000 0.0155994 0.0458800 0.9844006 -0.0458800 0.9844006 -0.0458800 0.0155994 0.0458800
1513750000 0.0152707 0.0462652 0.9847293 -0.0462652 0.9847293 -0.0462652 0.0152707 0.0462652
1521000000 0.0149613 0.0466653 0.9850387 -0.0466653 0.9850387 -0.0466653 0.0149613 0.0466653
1528250000 0.0146708 0.0470785 0.9853292 -0.0470785 0.9853292 -0.0470785 0.0146708 0.0470785
1535500000 0.0143988 0.0475030 0.9856012 -0.0475030 0.9856012 -0.0475030 0.0143988 0.0475030
1542750000 0.0141447 0.0479373 0.9858553 -0.0479373 0.9858553 -0.0479373 0.0141447 0.0479373
1550000000 0.0139080 0.0483799 0.9860920 -0.0483799 0.9860920 -0.0483799 0.0139080 0.0483799
1557250000 0.0136881 0.0488296 0.9863119 -0.0488296 0.9863119 -0.0488296 0.0136881 0.0488296
1564500000 0.0134842 0.0492853 0.9865158 -0.0492853 0.9865158 -0.0492853 0.0134842 0.0492853
1571750000 0.0132959 0.0497461 0.9867041 -0.0497461 0.9867041 -0.0497461 0.0132959 0.0497461
1579000000 0.0131223 0.0502110 0.9868777 -0.0502110 0.9868777 -0.0502110 0.0131223 0.0502110
1586250000 0.0129630 0.0506793 0.9870370 -0.0506793 0.9870370 -0.0506793 0.0129630 0.0506793
1593500000 0.0128172 0.0511504 0.9871828 -0.0511504 0.9871828 -0.0511504 0.0128172 0.0511504
1600750000 0.0126844 0.0516237 0.9873156 -0.0516237 0.9873156 -0.0516237 0.0126844 0.0516237
1608000000 0.0125640 0.0520986 0.9874360 -0.0520986 0.9874360 -0.0520986 0.0125640 0.0520986
1615250000 0.0124555 0.0525747 0.9875445 -0.0525747 0.9875445 -0.0525747 0.0124555 0.0525747
1622500000 0.0123583 0.0530516 0.9876417 -0.0530516 0.9876417 -0.0530516 0.0123583 0.0530516
1629750000 0.0122720 0.0535291 0.9877280 -0.0535291 0.9877280 -0.0535291 0.0122720 0.0535291
