!Murata Part Number: GRM31B5C3A561JWA1
!These Parameters are Measured in Series Mode Connection
!Data Generated on Mar 30, 2021
!       o--ll--o
!Port1            Port2
!       o------o
!Operation Temp=25[degC], DC Bias Voltage=0[V]
!Freq. Start=100[MHz] Stop=3[GHz] 401[Steps]
# Hz S RI R 50
!Freq.(Hz) S11(Real) S11(Imag) S21(Real) S21(Imag) S12(Real) S12(Imag) S22(Real) S22(Imag)
100000000 0.0008271 -0.0231047 0.9991729 0.0231047 0.9991729 0.0231047 0.0008271 -0.0231047
107250000 0.0007453 -0.0208141 0.9992547 0.0208141 0.9992547 0.0208141 0.0007453 -0.0208141
114500000 0.0006824 -0.0187662 0.9993176 0.0187662 0.9993176 0.0187662 0.0006824 -0.0187662
121750000 0.0006339 -0.0169173 0.9993661 0.0169173 0.9993661 0.0169173 0.0006339 -0.0169173
129000000 0.0005967 -0.0152338 0.9994033 0.0152338 0.9994033 0.0152338 0.0005967 -0.0152338
136250000 0.0005685 -0.0136891 0.9994315 0.0136891 0.9994315 0.0136891 0.0005685 -0.0136891
143500000 0.0005475 -0.0122619 0.9994525 0.0122619 0.9994525 0.0122619 0.0005475 -0.0122619
150750000 0.0005325 -0.0109349 0.9994675 0.0109349 0.9994675 0.0109349 0.0005325 -0.0109349
158000000 0.0005224 -0.0096942 0.9994776 0.0096942 0.9994776 0.0096942 0.0005224 -0.0096942
165250000 0.0005164 -0.0085281 0.9994836 0.0085281 0.9994836 0.0085281 0.0005164 -0.0085281
172500000 0.0005140 -0.0074269 0.9994860 0.0074269 0.9994860 0.0074269 0.0005140 -0.0074269
179750000 0.0005148 -0.0063825 0.9994852 0.0063825 0.9994852 0.0063825 0.0005148 -0.0063825
187000000 0.0005183 -0.0053880 0.9994817 0.0053880 0.9994817 0.0053880 0.0005183 -0.0053880
194250000 0.0005243 -0.0044374 0.9994757 0.0044374 0.9994757 0.0044374 0.0005243 -0.0044374
201500000 0.0005325 -0.0035257 0.9994675 0.0035257 0.9994675 0.0035257 0.0005325 -0.0035257
208750000 0.0005429 -0.0026485 0.9994571 0.0026485 0.9994571 0.0026485 0.0005429 -0.0026485
216000000 0.0005553 -0.0018020 0.9994447 0.0018020 0.9994447 0.0018020 0.0005553 -0.0018020
223250000 0.0005695 -0.0009828 0.9994305 0.0009828 0.9994305 0.0009828 0.0005695 -0.0009828
230500000 0.0005856 -0.0001879 0.9994144 0.0001879 0.9994144 0.0001879 0.0005856 -0.0001879
237750000 0.0006036 0.0005852 0.9993964 -0.0005852 0.9993964 -0.0005852 0.0006036 0.0005852
245000000 0.0006233 0.0013390 0.9993767 -0.0013390 0.9993767 -0.0013390 0.0006233 0.0013390
252250000 0.0006448 0.0020755 0.9993552 -0.0020755 0.9993552 -0.0020755 0.0006448 0.0020755
259500000 0.0006682 0.0027968 0.9993318 -0.0027968 0.9993318 -0.0027968 0.0006682 0.0027968
266750000 0.0006935 0.0035046 0.9993065 -0.0035046 0.9993065 -0.0035046 0.0006935 0.0035046
274000000 0.0007208 0.0042005 0.9992792 -0.0042005 0.9992792 -0.0042005 0.0007208 0.0042005
281250000 0.0007501 0.0048860 0.9992499 -0.0048860 0.9992499 -0.0048860 0.0007501 0.0048860
288500000 0.0007817 0.0055627 0.9992183 -0.0055627 0.9992183 -0.0055627 0.0007817 0.0055627
295750000 0.0008156 0.0062319 0.9991844 -0.0062319 0.9991844 -0.0062319 0.0008156 0.0062319
303000000 0.0008521 0.0068948 0.9991479 -0.0068948 0.9991479 -0.0068948 0.0008521 0.0068948
310250000 0.0008914 0.0075529 0.9991086 -0.0075529 0.9991086 -0.0075529 0.0008914 0.0075529
317500000 0.0009338 0.0082074 0.9990662 -0.0082074 0.9990662 -0.0082074 0.0009338 0.0082074
324750000 0.0009795 0.0088596 0.9990205 -0.0088596 0.9990205 -0.0088596 0.0009795 0.0088596
332000000 0.0010291 0.0095108 0.9989709 -0.0095108 0.9989709 -0.0095108 0.0010291 0.0095108
339250000 0.0010829 0.0101624 0.9989171 -0.0101624 0.9989171 -0.0101624 0.0010829 0.0101624
346500000 0.0011416 0.0108158 0.9988584 -0.0108158 0.9988584 -0.0108158 0.0011416 0.0108158
353750000 0.0012059 0.0114726 0.9987941 -0.0114726 0.9987941 -0.0114726 0.0012059 0.0114726
361000000 0.0012767 0.0121345 0.9987233 -0.0121345 0.9987233 -0.0121345 0.0012767 0.0121345
368250000 0.0013551 0.0128033 0.9986449 -0.0128033 0.9986449 -0.0128033 0.0013551 0.0128033
375500000 0.0014425 0.0134812 0.9985575 -0.0134812 0.9985575 -0.0134812 0.0014425 0.0134812
382750000 0.0015407 0.0141703 0.9984593 -0.0141703 0.9984593 -0.0141703 0.0015407 0.0141703
390000000 0.0016518 0.0148735 0.9983482 -0.0148735 0.9983482 -0.0148735 0.0016518 0.0148735
397250000 0.0017789 0.0155939 0.9982211 -0.0155939 0.9982211 -0.0155939 0.0017789 0.0155939
404500000 0.0019257 0.0163350 0.9980743 -0.0163350 0.9980743 -0.0163350 0.0019257 0.0163350
411750000 0.0020975 0.0171011 0.9979025 -0.0171011 0.9979025 -0.0171011 0.0020975 0.0171011
419000000 0.0023011 0.0178970 0.9976989 -0.0178970 0.9976989 -0.0178970 0.0023011 0.0178970
426250000 0.0025462 0.0187286 0.9974538 -0.0187286 0.9974538 -0.0187286 0.0025462 0.0187286
433500000 0.0028460 0.0196022 0.9971540 -0.0196022 0.9971540 -0.0196022 0.0028460 0.0196022
440750000 0.0032197 0.0205247 0.9967803 -0.0205247 0.9967803 -0.0205247 0.0032197 0.0205247
448000000 0.0036951 0.0215024 0.9963049 -0.0215024 0.9963049 -0.0215024 0.0036951 0.0215024
455250000 0.0043129 0.0225388 0.9956871 -0.0225388 0.9956871 -0.0225388 0.0043129 0.0225388
462500000 0.0051340 0.0236284 0.9948660 -0.0236284 0.9948660 -0.0236284 0.0051340 0.0236284
469750000 0.0062481 0.0247433 0.9937519 -0.0247433 0.9937519 -0.0247433 0.0062481 0.0247433
477000000 0.0077819 0.0258029 0.9922181 -0.0258029 0.9922181 -0.0258029 0.0077819 0.0258029
484250000 0.0098888 0.0266107 0.9901112 -0.0266107 0.9901112 -0.0266107 0.0098888 0.0266107
491500000 0.0126606 0.0267529 0.9873394 -0.0267529 0.9873394 -0.0267529 0.0126606 0.0267529
498750000 0.0158418 0.0255546 0.9841582 -0.0255546 0.9841582 -0.0255546 0.0158418 0.0255546
506000000 0.0183904 0.0224922 0.9816096 -0.0224922 0.9816096 -0.0224922 0.0183904 0.0224922
513250000 0.0188071 0.0182651 0.9811929 -0.0182651 0.9811929 -0.0182651 0.0188071 0.0182651
520500000 0.0168468 0.0147720 0.9831532 -0.0147720 0.9831532 -0.0147720 0.0168468 0.0147720
527750000 0.0138658 0.0131133 0.9861342 -0.0131133 0.9861342 -0.0131133 0.0138658 0.0131133
535000000 0.0111071 0.0129707 0.9888929 -0.0129707 0.9888929 -0.0129707 0.0111071 0.0129707
542250000 0.0089876 0.0136468 0.9910124 -0.0136468 0.9910124 -0.0136468 0.0089876 0.0136468
549500000 0.0074702 0.0146632 0.9925298 -0.0146632 0.9925298 -0.0146632 0.0074702 0.0146632
556750000 0.0064085 0.0157803 0.9935915 -0.0157803 0.9935915 -0.0157803 0.0064085 0.0157803
564000000 0.0056699 0.0168956 0.9943301 -0.0168956 0.9943301 -0.0168956 0.0056699 0.0168956
571250000 0.0051580 0.0179707 0.9948420 -0.0179707 0.9948420 -0.0179707 0.0051580 0.0179707
578500000 0.0048074 0.0189956 0.9951926 -0.0189956 0.9951926 -0.0189956 0.0048074 0.0189956
585750000 0.0045741 0.0199719 0.9954259 -0.0199719 0.9954259 -0.0199719 0.0045741 0.0199719
593000000 0.0044289 0.0209050 0.9955711 -0.0209050 0.9955711 -0.0209050 0.0044289 0.0209050
600250000 0.0043521 0.0218017 0.9956479 -0.0218017 0.9956479 -0.0218017 0.0043521 0.0218017
607500000 0.0043305 0.0226687 0.9956695 -0.0226687 0.9956695 -0.0226687 0.0043305 0.0226687
614750000 0.0043552 0.0235119 0.9956448 -0.0235119 0.9956448 -0.0235119 0.0043552 0.0235119
622000000 0.0044204 0.0243366 0.9955796 -0.0243366 0.9955796 -0.0243366 0.0044204 0.0243366
629250000 0.0045228 0.0251472 0.9954772 -0.0251472 0.9954772 -0.0251472 0.0045228 0.0251472
636500000 0.0046605 0.0259477 0.9953395 -0.0259477 0.9953395 -0.0259477 0.0046605 0.0259477
643750000 0.0048332 0.0267414 0.9951668 -0.0267414 0.9951668 -0.0267414 0.0048332 0.0267414
651000000 0.0050418 0.0275309 0.9949582 -0.0275309 0.9949582 -0.0275309 0.0050418 0.0275309
658250000 0.0052883 0.0283185 0.9947117 -0.0283185 0.9947117 -0.0283185 0.0052883 0.0283185
665500000 0.0055758 0.0291057 0.9944242 -0.0291057 0.9944242 -0.0291057 0.0055758 0.0291057
672750000 0.0059083 0.0298936 0.9940917 -0.0298936 0.9940917 -0.0298936 0.0059083 0.0298936
680000000 0.0062913 0.0306821 0.9937087 -0.0306821 0.9937087 -0.0306821 0.0062913 0.0306821
687250000 0.0067314 0.0314704 0.9932686 -0.0314704 0.9932686 -0.0314704 0.0067314 0.0314704
694500000 0.0072365 0.0322560 0.9927635 -0.0322560 0.9927635 -0.0322560 0.0072365 0.0322560
701750000 0.0078162 0.0330346 0.9921838 -0.0330346 0.9921838 -0.0330346 0.0078162 0.0330346
709000000 0.0084814 0.0337994 0.9915186 -0.0337994 0.9915186 -0.0337994 0.0084814 0.0337994
716250000 0.0092442 0.0345398 0.9907558 -0.0345398 0.9907558 -0.0345398 0.0092442 0.0345398
723500000 0.0101180 0.0352404 0.9898820 -0.0352404 0.9898820 -0.0352404 0.0101180 0.0352404
730750000 0.0111156 0.0358795 0.9888844 -0.0358795 0.9888844 -0.0358795 0.0111156 0.0358795
738000000 0.0122483 0.0364271 0.9877517 -0.0364271 0.9877517 -0.0364271 0.0122483 0.0364271
745250000 0.0135222 0.0368435 0.9864778 -0.0368435 0.9864778 -0.0368435 0.0135222 0.0368435
752500000 0.0149332 0.0370778 0.9850668 -0.0370778 0.9850668 -0.0370778 0.0149332 0.0370778
759750000 0.0164607 0.0370699 0.9835393 -0.0370699 0.9835393 -0.0370699 0.0164607 0.0370699
767000000 0.0180582 0.0367544 0.9819418 -0.0367544 0.9819418 -0.0367544 0.0180582 0.0367544
774250000 0.0196465 0.0360730 0.9803535 -0.0360730 0.9803535 -0.0360730 0.0196465 0.0360730
781500000 0.0211111 0.0349919 0.9788889 -0.0349919 0.9788889 -0.0349919 0.0211111 0.0349919
788750000 0.0223114 0.0335247 0.9776886 -0.0335247 0.9776886 -0.0335247 0.0223114 0.0335247
796000000 0.0231069 0.0317498 0.9768931 -0.0317498 0.9768931 -0.0317498 0.0231069 0.0317498
803250000 0.0233939 0.0298097 0.9766061 -0.0298097 0.9766061 -0.0298097 0.0233939 0.0298097
810500000 0.0231397 0.0278854 0.9768603 -0.0278854 0.9768603 -0.0278854 0.0231397 0.0278854
817750000 0.0223936 0.0261529 0.9776064 -0.0261529 0.9776064 -0.0261529 0.0223936 0.0261529
825000000 0.0212693 0.0247419 0.9787307 -0.0247419 0.9787307 -0.0247419 0.0212693 0.0247419
832250000 0.0199089 0.0237164 0.9800911 -0.0237164 0.9800911 -0.0237164 0.0199089 0.0237164
839500000 0.0184474 0.0230788 0.9815526 -0.0230788 0.9815526 -0.0230788 0.0184474 0.0230788
846750000 0.0169913 0.0227896 0.9830087 -0.0227896 0.9830087 -0.0227896 0.0169913 0.0227896
854000000 0.0156121 0.0227890 0.9843879 -0.0227890 0.9843879 -0.0227890 0.0156121 0.0227890
861250000 0.0143501 0.0230134 0.9856499 -0.0230134 0.9856499 -0.0230134 0.0143501 0.0230134
868500000 0.0132226 0.0234052 0.9867774 -0.0234052 0.9867774 -0.0234052 0.0132226 0.0234052
875750000 0.0122315 0.0239165 0.9877685 -0.0239165 0.9877685 -0.0239165 0.0122315 0.0239165
883000000 0.0113701 0.0245098 0.9886299 -0.0245098 0.9886299 -0.0245098 0.0113701 0.0245098
890250000 0.0106273 0.0251569 0.9893727 -0.0251569 0.9893727 -0.0251569 0.0106273 0.0251569
897500000 0.0099906 0.0258371 0.9900094 -0.0258371 0.9900094 -0.0258371 0.0099906 0.0258371
904750000 0.0094472 0.0265357 0.9905528 -0.0265357 0.9905528 -0.0265357 0.0094472 0.0265357
912000000 0.0089855 0.0272423 0.9910145 -0.0272423 0.9910145 -0.0272423 0.0089855 0.0272423
919250000 0.0085948 0.0279496 0.9914052 -0.0279496 0.9914052 -0.0279496 0.0085948 0.0279496
926500000 0.0082661 0.0286528 0.9917339 -0.0286528 0.9917339 -0.0286528 0.0082661 0.0286528
933750000 0.0079913 0.0293489 0.9920087 -0.0293489 0.9920087 -0.0293489 0.0079913 0.0293489
941000000 0.0077638 0.0300357 0.9922362 -0.0300357 0.9922362 -0.0300357 0.0077638 0.0300357
948250000 0.0075779 0.0307122 0.9924221 -0.0307122 0.9924221 -0.0307122 0.0075779 0.0307122
955500000 0.0074287 0.0313777 0.9925713 -0.0313777 0.9925713 -0.0313777 0.0074287 0.0313777
962750000 0.0073124 0.0320319 0.9926876 -0.0320319 0.9926876 -0.0320319 0.0073124 0.0320319
970000000 0.0072257 0.0326749 0.9927743 -0.0326749 0.9927743 -0.0326749 0.0072257 0.0326749
977250000 0.0071656 0.0333069 0.9928344 -0.0333069 0.9928344 -0.0333069 0.0071656 0.0333069
984500000 0.0071301 0.0339279 0.9928699 -0.0339279 0.9928699 -0.0339279 0.0071301 0.0339279
991750000 0.0071173 0.0345382 0.9928827 -0.0345382 0.9928827 -0.0345382 0.0071173 0.0345382
999000000 0.0071256 0.0351381 0.9928744 -0.0351381 0.9928744 -0.0351381 0.0071256 0.0351381
1006250000 0.0071538 0.0357275 0.9928462 -0.0357275 0.9928462 -0.0357275 0.0071538 0.0357275
1013500000 0.0072010 0.0363067 0.9927990 -0.0363067 0.9927990 -0.0363067 0.0072010 0.0363067
1020750000 0.0072666 0.0368754 0.9927334 -0.0368754 0.9927334 -0.0368754 0.0072666 0.0368754
1028000000 0.0073497 0.0374334 0.9926503 -0.0374334 0.9926503 -0.0374334 0.0073497 0.0374334
1035250000 0.0074501 0.0379804 0.9925499 -0.0379804 0.9925499 -0.0379804 0.0074501 0.0379804
1042500000 0.0075673 0.0385158 0.9924327 -0.0385158 0.9924327 -0.0385158 0.0075673 0.0385158
1049750000 0.0077010 0.0390387 0.9922990 -0.0390387 0.9922990 -0.0390387 0.0077010 0.0390387
1057000000 0.0078507 0.0395482 0.9921493 -0.0395482 0.9921493 -0.0395482 0.0078507 0.0395482
1064250000 0.0080160 0.0400431 0.9919840 -0.0400431 0.9919840 -0.0400431 0.0080160 0.0400431
1071500000 0.0081963 0.0405218 0.9918037 -0.0405218 0.9918037 -0.0405218 0.0081963 0.0405218
1078750000 0.0083907 0.0409828 0.9916093 -0.0409828 0.9916093 -0.0409828 0.0083907 0.0409828
1086000000 0.0085978 0.0414241 0.9914022 -0.0414241 0.9914022 -0.0414241 0.0085978 0.0414241
1093250000 0.0088162 0.0418438 0.9911838 -0.0418438 0.9911838 -0.0418438 0.0088162 0.0418438
1100500000 0.0090434 0.0422399 0.9909566 -0.0422399 0.9909566 -0.0422399 0.0090434 0.0422399
1107750000 0.0092767 0.0426106 0.9907233 -0.0426106 0.9907233 -0.0426106 0.0092767 0.0426106
1115000000 0.0095127 0.0429545 0.9904873 -0.0429545 0.9904873 -0.0429545 0.0095127 0.0429545
1122250000 0.0097471 0.0432705 0.9902529 -0.0432705 0.9902529 -0.0432705 0.0097471 0.0432705
1129500000 0.0099755 0.0435585 0.9900245 -0.0435585 0.9900245 -0.0435585 0.0099755 0.0435585
1136750000 0.0101926 0.0438195 0.9898074 -0.0438195 0.9898074 -0.0438195 0.0101926 0.0438195
1144000000 0.0103936 0.0440554 0.9896064 -0.0440554 0.9896064 -0.0440554 0.0103936 0.0440554
1151250000 0.0105736 0.0442698 0.9894264 -0.0442698 0.9894264 -0.0442698 0.0105736 0.0442698
1158500000 0.0107287 0.0444672 0.9892713 -0.0444672 0.9892713 -0.0444672 0.0107287 0.0444672
1165750000 0.0108559 0.0446534 0.9891441 -0.0446534 0.9891441 -0.0446534 0.0108559 0.0446534
1173000000 0.0109539 0.0448347 0.9890461 -0.0448347 0.9890461 -0.0448347 0.0109539 0.0448347
1180250000 0.0110228 0.0450175 0.9889772 -0.0450175 0.9889772 -0.0450175 0.0110228 0.0450175
1187500000 0.0110645 0.0452082 0.9889355 -0.0452082 0.9889355 -0.0452082 0.0110645 0.0452082
1194750000 0.0110822 0.0454122 0.9889178 -0.0454122 0.9889178 -0.0454122 0.0110822 0.0454122
1202000000 0.0110802 0.0456337 0.9889198 -0.0456337 0.9889198 -0.0456337 0.0110802 0.0456337
1209250000 0.0110634 0.0458760 0.9889366 -0.0458760 0.9889366 -0.0458760 0.0110634 0.0458760
1216500000 0.0110371 0.0461406 0.9889629 -0.0461406 0.9889629 -0.0461406 0.0110371 0.0461406
1223750000 0.0110063 0.0464281 0.9889937 -0.0464281 0.9889937 -0.0464281 0.0110063 0.0464281
1231000000 0.0109758 0.0467379 0.9890242 -0.0467379 0.9890242 -0.0467379 0.0109758 0.0467379
1238250000 0.0109497 0.0470685 0.9890503 -0.0470685 0.9890503 -0.0470685 0.0109497 0.0470685
1245500000 0.0109315 0.0474181 0.9890685 -0.0474181 0.9890685 -0.0474181 0.0109315 0.0474181
1252750000 0.0109239 0.0477842 0.9890761 -0.0477842 0.9890761 -0.0477842 0.0109239 0.0477842
1260000000 0.0109292 0.0481645 0.9890708 -0.0481645 0.9890708 -0.0481645 0.0109292 0.0481645
1267250000 0.0109490 0.0485563 0.9890510 -0.0485563 0.9890510 -0.0485563 0.0109490 0.0485563
1274500000 0.0109844 0.0489570 0.9890156 -0.0489570 0.9890156 -0.0489570 0.0109844 0.0489570
1281750000 0.0110363 0.0493643 0.9889637 -0.0493643 0.9889637 -0.0493643 0.0110363 0.0493643
1289000000 0.0111050 0.0497759 0.9888950 -0.0497759 0.9888950 -0.0497759 0.0111050 0.0497759
1296250000 0.0111908 0.0501894 0.9888092 -0.0501894 0.9888092 -0.0501894 0.0111908 0.0501894
1303500000 0.0112938 0.0506029 0.9887062 -0.0506029 0.9887062 -0.0506029 0.0112938 0.0506029
1310750000 0.0114138 0.0510143 0.9885862 -0.0510143 0.9885862 -0.0510143 0.0114138 0.0510143
1318000000 0.0115505 0.0514218 0.9884495 -0.0514218 0.9884495 -0.0514218 0.0115505 0.0514218
1325250000 0.0117036 0.0518235 0.9882964 -0.0518235 0.9882964 -0.0518235 0.0117036 0.0518235
1332500000 0.0118726 0.0522175 0.9881274 -0.0522175 0.9881274 -0.0522175 0.0118726 0.0522175
1339750000 0.0120570 0.0526020 0.9879430 -0.0526020 0.9879430 -0.0526020 0.0120570 0.0526020
1347000000 0.0122558 0.0529753 0.9877442 -0.0529753 0.9877442 -0.0529753 0.0122558 0.0529753
1354250000 0.0124683 0.0533355 0.9875317 -0.0533355 0.9875317 -0.0533355 0.0124683 0.0533355
1361500000 0.0126934 0.0536808 0.9873066 -0.0536808 0.9873066 -0.0536808 0.0126934 0.0536808
1368750000 0.0129298 0.0540095 0.9870702 -0.0540095 0.9870702 -0.0540095 0.0129298 0.0540095
1376000000 0.0131758 0.0543197 0.9868242 -0.0543197 0.9868242 -0.0543197 0.0131758 0.0543197
1383250000 0.0134297 0.0546098 0.9865703 -0.0546098 0.9865703 -0.0546098 0.0134297 0.0546098
1390500000 0.0136893 0.0548783 0.9863107 -0.0548783 0.9863107 -0.0548783 0.0136893 0.0548783
1397750000 0.0139522 0.0551237 0.9860478 -0.0551237 0.9860478 -0.0551237 0.0139522 0.0551237
1405000000 0.0142155 0.0553450 0.9857845 -0.0553450 0.9857845 -0.0553450 0.0142155 0.0553450
1412250000 0.0144763 0.0555413 0.9855237 -0.0555413 0.9855237 -0.0555413 0.0144763 0.0555413
1419500000 0.0147310 0.0557124 0.9852690 -0.0557124 0.9852690 -0.0557124 0.0147310 0.0557124
1426750000 0.0149763 0.0558584 0.9850237 -0.0558584 0.9850237 -0.0558584 0.0149763 0.0558584
1434000000 0.0152083 0.0559801 0.9847917 -0.0559801 0.9847917 -0.0559801 0.0152083 0.0559801
1441250000 0.0154235 0.0560788 0.9845765 -0.0560788 0.9845765 -0.0560788 0.0154235 0.0560788
1448500000 0.0156183 0.0561567 0.9843817 -0.0561567 0.9843817 -0.0561567 0.0156183 0.0561567
1455750000 0.0157894 0.0562165 0.9842106 -0.0562165 0.9842106 -0.0562165 0.0157894 0.0562165
1463000000 0.0159341 0.0562615 0.9840659 -0.0562615 0.9840659 -0.0562615 0.0159341 0.0562615
1470250000 0.0160502 0.0562957 0.9839498 -0.0562957 0.9839498 -0.0562957 0.0160502 0.0562957
1477500000 0.0161363 0.0563232 0.9838637 -0.0563232 0.9838637 -0.0563232 0.0161363 0.0563232
1484750000 0.0161916 0.0563487 0.9838084 -0.0563487 0.9838084 -0.0563487 0.0161916 0.0563487
1492000000 0.0162164 0.0563766 0.9837836 -0.0563766 0.9837836 -0.0563766 0.0162164 0.0563766
1499250000 0.0162115 0.0564113 0.9837885 -0.0564113 0.9837885 -0.0564113 0.0162115 0.0564113
1506500000 0.0161789 0.0564569 0.9838211 -0.0564569 0.9838211 -0.0564569 0.0161789 0.0564569
1513750000 0.0161207 0.0565170 0.9838793 -0.0565170 0.9838793 -0.0565170 0.0161207 0.0565170
1521000000 0.0160400 0.0565944 0.9839600 -0.0565944 0.9839600 -0.0565944 0.0160400 0.0565944
1528250000 0.0159400 0.0566917 0.9840600 -0.0566917 0.9840600 -0.0566917 0.0159400 0.0566917
1535500000 0.0158240 0.0568105 0.9841760 -0.0568105 0.9841760 -0.0568105 0.0158240 0.0568105
1542750000 0.0156955 0.0569517 0.9843045 -0.0569517 0.9843045 -0.0569517 0.0156955 0.0569517
1550000000 0.0155580 0.0571158 0.9844420 -0.0571158 0.9844420 -0.0571158 0.0155580 0.0571158
1557250000 0.0154146 0.0573027 0.9845854 -0.0573027 0.9845854 -0.0573027 0.0154146 0.0573027
1564500000 0.0152683 0.0575118 0.9847317 -0.0575118 0.9847317 -0.0575118 0.0152683 0.0575118
1571750000 0.0151216 0.0577422 0.9848784 -0.0577422 0.9848784 -0.0577422 0.0151216 0.0577422
1579000000 0.0149769 0.0579925 0.9850231 -0.0579925 0.9850231 -0.0579925 0.0149769 0.0579925
1586250000 0.0148360 0.0582615 0.9851640 -0.0582615 0.9851640 -0.0582615 0.0148360 0.0582615
1593500000 0.0147006 0.0585477 0.9852994 -0.0585477 0.9852994 -0.0585477 0.0147006 0.0585477
1600750000 0.0145718 0.0588494 0.9854282 -0.0588494 0.9854282 -0.0588494 0.0145718 0.0588494
1608000000 0.0144507 0.0591651 0.9855493 -0.0591651 0.9855493 -0.0591651 0.0144507 0.0591651
1615250000 0.0143380 0.0594933 0.9856620 -0.0594933 0.9856620 -0.0594933 0.0143380 0.0594933
1622500000 0.0142341 0.0598326 0.9857659 -0.0598326 0.9857659 -0.0598326 0.0142341 0.0598326
1629750000 0.0141394 0.0601814 0.9858606 -0.0601814 0.9858606 -0.0601814 0.0141394 0.0601814
