!Murata Part Number: GRM31M5C2A473JA01
!These Parameters are Measured in Series Mode Connection
!Data Generated on Mar 30, 2021
!       o--ll--o
!Port1            Port2
!       o------o
!Operation Temp=25[degC], DC Bias Voltage=0[V]
!Freq. Start=1000[kHz] Stop=6[GHz] 401[Steps]
# Hz S RI R 50
!Freq.(Hz) S11(Real) S11(Imag) S21(Real) S21(Imag) S12(Real) S12(Imag) S22(Real) S22(Imag)
1000000 0.0011517 -0.0333237 0.9988483 0.0333237 0.9988483 0.0333237 0.0011517 -0.0333237
1021987 0.0011043 -0.0326059 0.9988957 0.0326059 0.9988957 0.0326059 0.0011043 -0.0326059
1044457 0.0010590 -0.0319034 0.9989410 0.0319034 0.9989410 0.0319034 0.0010590 -0.0319034
1067422 0.0010156 -0.0312159 0.9989844 0.0312159 0.9989844 0.0312159 0.0010156 -0.0312159
1090891 0.0009740 -0.0305430 0.9990260 0.0305430 0.9990260 0.0305430 0.0009740 -0.0305430
1114877 0.0009342 -0.0298845 0.9990658 0.0298845 0.9990658 0.0298845 0.0009342 -0.0298845
1139390 0.0008962 -0.0292400 0.9991038 0.0292400 0.9991038 0.0292400 0.0008962 -0.0292400
1164441 0.0008597 -0.0286093 0.9991403 0.0286093 0.9991403 0.0286093 0.0008597 -0.0286093
1190044 0.0008248 -0.0279920 0.9991752 0.0279920 0.9991752 0.0279920 0.0008248 -0.0279920
1216210 0.0007914 -0.0273878 0.9992086 0.0273878 0.9992086 0.0273878 0.0007914 -0.0273878
1242950 0.0007594 -0.0267966 0.9992406 0.0267966 0.9992406 0.0267966 0.0007594 -0.0267966
1270279 0.0007288 -0.0262179 0.9992712 0.0262179 0.9992712 0.0262179 0.0007288 -0.0262179
1298209 0.0006995 -0.0256516 0.9993005 0.0256516 0.9993005 0.0256516 0.0006995 -0.0256516
1326753 0.0006715 -0.0250973 0.9993285 0.0250973 0.9993285 0.0250973 0.0006715 -0.0250973
1355924 0.0006446 -0.0245549 0.9993554 0.0245549 0.9993554 0.0245549 0.0006446 -0.0245549
1385737 0.0006189 -0.0240240 0.9993811 0.0240240 0.9993811 0.0240240 0.0006189 -0.0240240
1416205 0.0005943 -0.0235044 0.9994057 0.0235044 0.9994057 0.0235044 0.0005943 -0.0235044
1447343 0.0005708 -0.0229959 0.9994292 0.0229959 0.9994292 0.0229959 0.0005708 -0.0229959
1479166 0.0005483 -0.0224983 0.9994517 0.0224983 0.9994517 0.0224983 0.0005483 -0.0224983
1511688 0.0005267 -0.0220112 0.9994733 0.0220112 0.9994733 0.0220112 0.0005267 -0.0220112
1544926 0.0005061 -0.0215345 0.9994939 0.0215345 0.9994939 0.0215345 0.0005061 -0.0215345
1578894 0.0004864 -0.0210680 0.9995136 0.0210680 0.9995136 0.0210680 0.0004864 -0.0210680
1613609 0.0004675 -0.0206114 0.9995325 0.0206114 0.9995325 0.0206114 0.0004675 -0.0206114
1649087 0.0004494 -0.0201646 0.9995506 0.0201646 0.9995506 0.0201646 0.0004494 -0.0201646
1685346 0.0004321 -0.0197272 0.9995679 0.0197272 0.9995679 0.0197272 0.0004321 -0.0197272
1722402 0.0004156 -0.0192991 0.9995844 0.0192991 0.9995844 0.0192991 0.0004156 -0.0192991
1760272 0.0003997 -0.0188802 0.9996003 0.0188802 0.9996003 0.0188802 0.0003997 -0.0188802
1798975 0.0003846 -0.0184702 0.9996154 0.0184702 0.9996154 0.0184702 0.0003846 -0.0184702
1838529 0.0003701 -0.0180688 0.9996299 0.0180688 0.9996299 0.0180688 0.0003701 -0.0180688
1878953 0.0003563 -0.0176761 0.9996437 0.0176761 0.9996437 0.0176761 0.0003563 -0.0176761
1920266 0.0003430 -0.0172916 0.9996570 0.0172916 0.9996570 0.0172916 0.0003430 -0.0172916
1962487 0.0003304 -0.0169153 0.9996696 0.0169153 0.9996696 0.0169153 0.0003304 -0.0169153
2005636 0.0003182 -0.0165471 0.9996818 0.0165471 0.9996818 0.0165471 0.0003182 -0.0165471
2049734 0.0003067 -0.0161866 0.9996933 0.0161866 0.9996933 0.0161866 0.0003067 -0.0161866
2094801 0.0002956 -0.0158338 0.9997044 0.0158338 0.9997044 0.0158338 0.0002956 -0.0158338
2140860 0.0002850 -0.0154884 0.9997150 0.0154884 0.9997150 0.0154884 0.0002850 -0.0154884
2187931 0.0002749 -0.0151504 0.9997251 0.0151504 0.9997251 0.0151504 0.0002749 -0.0151504
2236037 0.0002652 -0.0148196 0.9997348 0.0148196 0.9997348 0.0148196 0.0002652 -0.0148196
2285201 0.0002560 -0.0144957 0.9997440 0.0144957 0.9997440 0.0144957 0.0002560 -0.0144957
2335446 0.0002471 -0.0141787 0.9997529 0.0141787 0.9997529 0.0141787 0.0002471 -0.0141787
2386795 0.0002387 -0.0138684 0.9997613 0.0138684 0.9997613 0.0138684 0.0002387 -0.0138684
2439274 0.0002306 -0.0135647 0.9997694 0.0135647 0.9997694 0.0135647 0.0002306 -0.0135647
2492906 0.0002229 -0.0132674 0.9997771 0.0132674 0.9997771 0.0132674 0.0002229 -0.0132674
2547717 0.0002156 -0.0129763 0.9997844 0.0129763 0.9997844 0.0129763 0.0002156 -0.0129763
2603734 0.0002086 -0.0126914 0.9997914 0.0126914 0.9997914 0.0126914 0.0002086 -0.0126914
2660982 0.0002019 -0.0124125 0.9997981 0.0124125 0.9997981 0.0124125 0.0002019 -0.0124125
2719490 0.0001955 -0.0121395 0.9998045 0.0121395 0.9998045 0.0121395 0.0001955 -0.0121395
2779283 0.0001894 -0.0118722 0.9998106 0.0118722 0.9998106 0.0118722 0.0001894 -0.0118722
2840391 0.0001835 -0.0116106 0.9998165 0.0116106 0.9998165 0.0116106 0.0001835 -0.0116106
2902843 0.0001780 -0.0113544 0.9998220 0.0113544 0.9998220 0.0113544 0.0001780 -0.0113544
2966668 0.0001727 -0.0111037 0.9998273 0.0111037 0.9998273 0.0111037 0.0001727 -0.0111037
3031896 0.0001676 -0.0108581 0.9998324 0.0108581 0.9998324 0.0108581 0.0001676 -0.0108581
3098558 0.0001628 -0.0106178 0.9998372 0.0106178 0.9998372 0.0106178 0.0001628 -0.0106178
3166686 0.0001582 -0.0103824 0.9998418 0.0103824 0.9998418 0.0103824 0.0001582 -0.0103824
3236312 0.0001538 -0.0101520 0.9998462 0.0101520 0.9998462 0.0101520 0.0001538 -0.0101520
3307469 0.0001496 -0.0099264 0.9998504 0.0099264 0.9998504 0.0099264 0.0001496 -0.0099264
3380190 0.0001457 -0.0097055 0.9998543 0.0097055 0.9998543 0.0097055 0.0001457 -0.0097055
3454511 0.0001419 -0.0094892 0.9998581 0.0094892 0.9998581 0.0094892 0.0001419 -0.0094892
3530465 0.0001383 -0.0092774 0.9998617 0.0092774 0.9998617 0.0092774 0.0001383 -0.0092774
3608090 0.0001348 -0.0090700 0.9998652 0.0090700 0.9998652 0.0090700 0.0001348 -0.0090700
3687421 0.0001316 -0.0088669 0.9998684 0.0088669 0.9998684 0.0088669 0.0001316 -0.0088669
3768496 0.0001285 -0.0086679 0.9998715 0.0086679 0.9998715 0.0086679 0.0001285 -0.0086679
3851354 0.0001255 -0.0084732 0.9998745 0.0084732 0.9998745 0.0084732 0.0001255 -0.0084732
3936034 0.0001227 -0.0082824 0.9998773 0.0082824 0.9998773 0.0082824 0.0001227 -0.0082824
4022575 0.0001200 -0.0080955 0.9998800 0.0080955 0.9998800 0.0080955 0.0001200 -0.0080955
4111020 0.0001175 -0.0079125 0.9998825 0.0079125 0.9998825 0.0079125 0.0001175 -0.0079125
4201409 0.0001151 -0.0077333 0.9998849 0.0077333 0.9998849 0.0077333 0.0001151 -0.0077333
4293785 0.0001128 -0.0075577 0.9998872 0.0075577 0.9998872 0.0075577 0.0001128 -0.0075577
4388193 0.0001106 -0.0073857 0.9998894 0.0073857 0.9998894 0.0073857 0.0001106 -0.0073857
4484676 0.0001086 -0.0072172 0.9998914 0.0072172 0.9998914 0.0072172 0.0001086 -0.0072172
4583281 0.0001066 -0.0070522 0.9998934 0.0070522 0.9998934 0.0070522 0.0001066 -0.0070522
4684054 0.0001048 -0.0068905 0.9998952 0.0068905 0.9998952 0.0068905 0.0001048 -0.0068905
4787042 0.0001030 -0.0067320 0.9998970 0.0067320 0.9998970 0.0067320 0.0001030 -0.0067320
4892295 0.0001014 -0.0065768 0.9998986 0.0065768 0.9998986 0.0065768 0.0001014 -0.0065768
4999862 0.0000998 -0.0064247 0.9999002 0.0064247 0.9999002 0.0064247 0.0000998 -0.0064247
5109794 0.0000984 -0.0062756 0.9999016 0.0062756 0.9999016 0.0062756 0.0000984 -0.0062756
5222143 0.0000970 -0.0061295 0.9999030 0.0061295 0.9999030 0.0061295 0.0000970 -0.0061295
5336962 0.0000957 -0.0059863 0.9999043 0.0059863 0.9999043 0.0059863 0.0000957 -0.0059863
5454306 0.0000944 -0.0058460 0.9999056 0.0058460 0.9999056 0.0058460 0.0000944 -0.0058460
5574230 0.0000933 -0.0057084 0.9999067 0.0057084 0.9999067 0.0057084 0.0000933 -0.0057084
5696791 0.0000922 -0.0055736 0.9999078 0.0055736 0.9999078 0.0055736 0.0000922 -0.0055736
5822046 0.0000911 -0.0054414 0.9999089 0.0054414 0.9999089 0.0054414 0.0000911 -0.0054414
5950055 0.0000902 -0.0053118 0.9999098 0.0053118 0.9999098 0.0053118 0.0000902 -0.0053118
6080879 0.0000893 -0.0051847 0.9999107 0.0051847 0.9999107 0.0051847 0.0000893 -0.0051847
6214580 0.0000884 -0.0050600 0.9999116 0.0050600 0.9999116 0.0050600 0.0000884 -0.0050600
6351220 0.0000877 -0.0049378 0.9999123 0.0049378 0.9999123 0.0049378 0.0000877 -0.0049378
6490864 0.0000869 -0.0048179 0.9999131 0.0048179 0.9999131 0.0048179 0.0000869 -0.0048179
6633579 0.0000863 -0.0047003 0.9999137 0.0047003 0.9999137 0.0047003 0.0000863 -0.0047003
6779431 0.0000856 -0.0045849 0.9999144 0.0045849 0.9999144 0.0045849 0.0000856 -0.0045849
6928491 0.0000851 -0.0044717 0.9999149 0.0044717 0.9999149 0.0044717 0.0000851 -0.0044717
7080828 0.0000845 -0.0043607 0.9999155 0.0043607 0.9999155 0.0043607 0.0000845 -0.0043607
7236514 0.0000841 -0.0042517 0.9999159 0.0042517 0.9999159 0.0042517 0.0000841 -0.0042517
7395623 0.0000836 -0.0041447 0.9999164 0.0041447 0.9999164 0.0041447 0.0000836 -0.0041447
7558231 0.0000832 -0.0040396 0.9999168 0.0040396 0.9999168 0.0040396 0.0000832 -0.0040396
7724414 0.0000829 -0.0039365 0.9999171 0.0039365 0.9999171 0.0039365 0.0000829 -0.0039365
7894251 0.0000826 -0.0038353 0.9999174 0.0038353 0.9999174 0.0038353 0.0000826 -0.0038353
8067822 0.0000823 -0.0037359 0.9999177 0.0037359 0.9999177 0.0037359 0.0000823 -0.0037359
8245209 0.0000821 -0.0036382 0.9999179 0.0036382 0.9999179 0.0036382 0.0000821 -0.0036382
8426497 0.0000819 -0.0035423 0.9999181 0.0035423 0.9999181 0.0035423 0.0000819 -0.0035423
8611770 0.0000818 -0.0034481 0.9999182 0.0034481 0.9999182 0.0034481 0.0000818 -0.0034481
8801117 0.0000817 -0.0033554 0.9999183 0.0033554 0.9999183 0.0033554 0.0000817 -0.0033554
8994628 0.0000816 -0.0032644 0.9999184 0.0032644 0.9999184 0.0032644 0.0000816 -0.0032644
9192393 0.0000815 -0.0031749 0.9999185 0.0031749 0.9999185 0.0031749 0.0000815 -0.0031749
9394506 0.0000815 -0.0030870 0.9999185 0.0030870 0.9999185 0.0030870 0.0000815 -0.0030870
9601063 0.0000816 -0.0030004 0.9999184 0.0030004 0.9999184 0.0030004 0.0000816 -0.0030004
9812162 0.0000816 -0.0029153 0.9999184 0.0029153 0.9999184 0.0029153 0.0000816 -0.0029153
10027902 0.0000818 -0.0028316 0.9999182 0.0028316 0.9999182 0.0028316 0.0000818 -0.0028316
10248386 0.0000819 -0.0027492 0.9999181 0.0027492 0.9999181 0.0027492 0.0000819 -0.0027492
10473717 0.0000821 -0.0026681 0.9999179 0.0026681 0.9999179 0.0026681 0.0000821 -0.0026681
10704003 0.0000823 -0.0025883 0.9999177 0.0025883 0.9999177 0.0025883 0.0000823 -0.0025883
10939352 0.0000825 -0.0025097 0.9999175 0.0025097 0.9999175 0.0025097 0.0000825 -0.0025097
11179876 0.0000828 -0.0024322 0.9999172 0.0024322 0.9999172 0.0024322 0.0000828 -0.0024322
11425688 0.0000831 -0.0023559 0.9999169 0.0023559 0.9999169 0.0023559 0.0000831 -0.0023559
11676904 0.0000835 -0.0022807 0.9999165 0.0022807 0.9999165 0.0022807 0.0000835 -0.0022807
11933645 0.0000839 -0.0022066 0.9999161 0.0022066 0.9999161 0.0022066 0.0000839 -0.0022066
12196030 0.0000843 -0.0021335 0.9999157 0.0021335 0.9999157 0.0021335 0.0000843 -0.0021335
12464184 0.0000848 -0.0020615 0.9999152 0.0020615 0.9999152 0.0020615 0.0000848 -0.0020615
12738235 0.0000853 -0.0019903 0.9999147 0.0019903 0.9999147 0.0019903 0.0000853 -0.0019903
13018310 0.0000859 -0.0019201 0.9999141 0.0019201 0.9999141 0.0019201 0.0000859 -0.0019201
13304544 0.0000865 -0.0018508 0.9999135 0.0018508 0.9999135 0.0018508 0.0000865 -0.0018508
13597071 0.0000871 -0.0017824 0.9999129 0.0017824 0.9999129 0.0017824 0.0000871 -0.0017824
13896030 0.0000878 -0.0017148 0.9999122 0.0017148 0.9999122 0.0017148 0.0000878 -0.0017148
14201563 0.0000886 -0.0016479 0.9999114 0.0016479 0.9999114 0.0016479 0.0000886 -0.0016479
14513813 0.0000893 -0.0015819 0.9999107 0.0015819 0.9999107 0.0015819 0.0000893 -0.0015819
14832928 0.0000902 -0.0015165 0.9999098 0.0015165 0.9999098 0.0015165 0.0000902 -0.0015165
15159060 0.0000911 -0.0014519 0.9999089 0.0014519 0.9999089 0.0014519 0.0000911 -0.0014519
15492362 0.0000920 -0.0013879 0.9999080 0.0013879 0.9999080 0.0013879 0.0000920 -0.0013879
15832993 0.0000930 -0.0013245 0.9999070 0.0013245 0.9999070 0.0013245 0.0000930 -0.0013245
16181113 0.0000940 -0.0012617 0.9999060 0.0012617 0.9999060 0.0012617 0.0000940 -0.0012617
16536888 0.0000951 -0.0011995 0.9999049 0.0011995 0.9999049 0.0011995 0.0000951 -0.0011995
16900485 0.0000963 -0.0011378 0.9999037 0.0011378 0.9999037 0.0011378 0.0000963 -0.0011378
17272076 0.0000976 -0.0010766 0.9999024 0.0010766 0.9999024 0.0010766 0.0000976 -0.0010766
17651837 0.0000989 -0.0010158 0.9999011 0.0010158 0.9999011 0.0010158 0.0000989 -0.0010158
18039948 0.0001002 -0.0009555 0.9998998 0.0009555 0.9998998 0.0009555 0.0001002 -0.0009555
18436593 0.0001017 -0.0008956 0.9998983 0.0008956 0.9998983 0.0008956 0.0001017 -0.0008956
18841959 0.0001032 -0.0008360 0.9998968 0.0008360 0.9998968 0.0008360 0.0001032 -0.0008360
19256237 0.0001048 -0.0007768 0.9998952 0.0007768 0.9998952 0.0007768 0.0001048 -0.0007768
19679624 0.0001065 -0.0007179 0.9998935 0.0007179 0.9998935 0.0007179 0.0001065 -0.0007179
20112321 0.0001082 -0.0006592 0.9998918 0.0006592 0.9998918 0.0006592 0.0001082 -0.0006592
20554530 0.0001101 -0.0006007 0.9998899 0.0006007 0.9998899 0.0006007 0.0001101 -0.0006007
21006463 0.0001121 -0.0005425 0.9998879 0.0005425 0.9998879 0.0005425 0.0001121 -0.0005425
21468333 0.0001141 -0.0004843 0.9998859 0.0004843 0.9998859 0.0004843 0.0001141 -0.0004843
21940357 0.0001163 -0.0004263 0.9998837 0.0004263 0.9998837 0.0004263 0.0001163 -0.0004263
22422760 0.0001186 -0.0003684 0.9998814 0.0003684 0.9998814 0.0003684 0.0001186 -0.0003684
22915770 0.0001210 -0.0003105 0.9998790 0.0003105 0.9998790 0.0003105 0.0001210 -0.0003105
23419619 0.0001236 -0.0002525 0.9998764 0.0002525 0.9998764 0.0002525 0.0001236 -0.0002525
23934547 0.0001262 -0.0001946 0.9998738 0.0001946 0.9998738 0.0001946 0.0001262 -0.0001946
24460796 0.0001291 -0.0001365 0.9998709 0.0001365 0.9998709 0.0001365 0.0001291 -0.0001365
24998616 0.0001320 -0.0000783 0.9998680 0.0000783 0.9998680 0.0000783 0.0001320 -0.0000783
25548261 0.0001352 -0.0000199 0.9998648 0.0000199 0.9998648 0.0000199 0.0001352 -0.0000199
26109991 0.0001385 0.0000388 0.9998615 -0.0000388 0.9998615 -0.0000388 0.0001385 0.0000388
26684072 0.0001420 0.0000978 0.9998580 -0.0000978 0.9998580 -0.0000978 0.0001420 0.0000978
27270775 0.0001457 0.0001571 0.9998543 -0.0001571 0.9998543 -0.0001571 0.0001457 0.0001571
27870378 0.0001497 0.0002169 0.9998503 -0.0002169 0.9998503 -0.0002169 0.0001497 0.0002169
28483164 0.0001539 0.0002772 0.9998461 -0.0002772 0.9998461 -0.0002772 0.0001539 0.0002772
29109424 0.0001583 0.0003381 0.9998417 -0.0003381 0.9998417 -0.0003381 0.0001583 0.0003381
29749453 0.0001630 0.0003996 0.9998370 -0.0003996 0.9998370 -0.0003996 0.0001630 0.0003996
30403555 0.0001681 0.0004619 0.9998319 -0.0004619 0.9998319 -0.0004619 0.0001681 0.0004619
31072038 0.0001735 0.0005251 0.9998265 -0.0005251 0.9998265 -0.0005251 0.0001735 0.0005251
31755220 0.0001793 0.0005894 0.9998207 -0.0005894 0.9998207 -0.0005894 0.0001793 0.0005894
32453422 0.0001856 0.0006547 0.9998144 -0.0006547 0.9998144 -0.0006547 0.0001856 0.0006547
33166976 0.0001924 0.0007214 0.9998076 -0.0007214 0.9998076 -0.0007214 0.0001924 0.0007214
33896219 0.0001997 0.0007895 0.9998003 -0.0007895 0.9998003 -0.0007895 0.0001997 0.0007895
34641496 0.0002078 0.0008594 0.9997922 -0.0008594 0.9997922 -0.0008594 0.0002078 0.0008594
35403159 0.0002167 0.0009313 0.9997833 -0.0009313 0.9997833 -0.0009313 0.0002167 0.0009313
36181569 0.0002265 0.0010055 0.9997735 -0.0010055 0.9997735 -0.0010055 0.0002265 0.0010055
36977093 0.0002375 0.0010824 0.9997625 -0.0010824 0.9997625 -0.0010824 0.0002375 0.0010824
37790109 0.0002500 0.0011625 0.9997500 -0.0011625 0.9997500 -0.0011625 0.0002500 0.0011625
38621001 0.0002643 0.0012465 0.9997357 -0.0012465 0.9997357 -0.0012465 0.0002643 0.0012465
39470161 0.0002810 0.0013351 0.9997190 -0.0013351 0.9997190 -0.0013351 0.0002810 0.0013351
40337993 0.0003009 0.0014293 0.9996991 -0.0014293 0.9996991 -0.0014293 0.0003009 0.0014293
41224905 0.0003252 0.0015305 0.9996748 -0.0015305 0.9996748 -0.0015305 0.0003252 0.0015305
42131317 0.0003556 0.0016405 0.9996444 -0.0016405 0.9996444 -0.0016405 0.0003556 0.0016405
43057659 0.0003952 0.0017618 0.9996048 -0.0017618 0.9996048 -0.0017618 0.0003952 0.0017618
44004369 0.0004489 0.0018977 0.9995511 -0.0018977 0.9995511 -0.0018977 0.0004489 0.0018977
44971893 0.0005257 0.0020524 0.9994743 -0.0020524 0.9994743 -0.0020524 0.0005257 0.0020524
45960691 0.0006424 0.0022302 0.9993576 -0.0022302 0.9993576 -0.0022302 0.0006424 0.0022302
46971230 0.0008323 0.0024310 0.9991677 -0.0024310 0.9991677 -0.0024310 0.0008323 0.0024310
48003987 0.0011609 0.0026288 0.9988391 -0.0026288 0.9988391 -0.0026288 0.0011609 0.0026288
49059451 0.0017238 0.0026890 0.9982762 -0.0026890 0.9982762 -0.0026890 0.0017238 0.0026890
50138122 0.0024097 0.0022321 0.9975903 -0.0022321 0.9975903 -0.0022321 0.0024097 0.0022321
51240510 0.0024394 0.0012641 0.9975606 -0.0012641 0.9975606 -0.0012641 0.0024394 0.0012641
52367136 0.0017896 0.0007922 0.9982104 -0.0007922 0.9982104 -0.0007922 0.0017896 0.0007922
53518533 0.0012521 0.0008562 0.9987479 -0.0008562 0.9987479 -0.0008562 0.0012521 0.0008562
54695245 0.0009540 0.0010697 0.9990460 -0.0010697 0.9990460 -0.0010697 0.0009540 0.0010697
55897831 0.0007999 0.0012927 0.9992001 -0.0012927 0.9992001 -0.0012927 0.0007999 0.0012927
57126857 0.0007237 0.0014980 0.9992763 -0.0014980 0.9992763 -0.0014980 0.0007237 0.0014980
58382906 0.0006924 0.0016859 0.9993076 -0.0016859 0.9993076 -0.0016859 0.0006924 0.0016859
59666572 0.0006904 0.0018613 0.9993096 -0.0018613 0.9993096 -0.0018613 0.0006904 0.0018613
60978462 0.0007107 0.0020289 0.9992893 -0.0020289 0.9992893 -0.0020289 0.0007107 0.0020289
62319196 0.0007513 0.0021924 0.9992487 -0.0021924 0.9992487 -0.0021924 0.0007513 0.0021924
63689409 0.0008134 0.0023544 0.9991866 -0.0023544 0.9991866 -0.0023544 0.0008134 0.0023544
65089750 0.0009010 0.0025158 0.9990990 -0.0025158 0.9990990 -0.0025158 0.0009010 0.0025158
66520879 0.0010213 0.0026751 0.9989787 -0.0026751 0.9989787 -0.0026751 0.0010213 0.0026751
67983474 0.0011847 0.0028259 0.9988153 -0.0028259 0.9988153 -0.0028259 0.0011847 0.0028259
69478228 0.0014044 0.0029527 0.9985956 -0.0029527 0.9985956 -0.0029527 0.0014044 0.0029527
71005847 0.0016903 0.0030238 0.9983097 -0.0030238 0.9983097 -0.0030238 0.0016903 0.0030238
72567054 0.0020329 0.0029851 0.9979671 -0.0029851 0.9979671 -0.0029851 0.0020329 0.0029851
74162587 0.0023699 0.0027747 0.9976301 -0.0027747 0.9976301 -0.0027747 0.0023699 0.0027747
75793201 0.0025720 0.0023886 0.9974280 -0.0023886 0.9974280 -0.0023886 0.0025720 0.0023886
77459667 0.0025279 0.0019502 0.9974721 -0.0019502 0.9974721 -0.0019502 0.0025279 0.0019502
79162774 0.0022723 0.0016321 0.9977277 -0.0016321 0.9977277 -0.0016321 0.0022723 0.0016321
80903327 0.0019423 0.0015022 0.9980577 -0.0015022 0.9980577 -0.0015022 0.0019423 0.0015022
82682150 0.0016424 0.0015200 0.9983576 -0.0015200 0.9983576 -0.0015200 0.0016424 0.0015200
84500083 0.0014079 0.0016221 0.9985921 -0.0016221 0.9985921 -0.0016221 0.0014079 0.0016221
86357988 0.0012367 0.0017634 0.9987633 -0.0017634 0.9987633 -0.0017634 0.0012367 0.0017634
88256743 0.0011160 0.0019196 0.9988840 -0.0019196 0.9988840 -0.0019196 0.0011160 0.0019196
90197245 0.0010331 0.0020794 0.9989669 -0.0020794 0.9989669 -0.0020794 0.0010331 0.0020794
92180413 0.0009788 0.0022380 0.9990212 -0.0022380 0.9990212 -0.0022380 0.0009788 0.0022380
94207185 0.0009465 0.0023943 0.9990535 -0.0023943 0.9990535 -0.0023943 0.0009465 0.0023943
96278520 0.0009327 0.0025482 0.9990673 -0.0025482 0.9990673 -0.0025482 0.0009327 0.0025482
98395398 0.0009360 0.0027003 0.9990640 -0.0027003 0.9990640 -0.0027003 0.0009360 0.0027003
100558819 0.0009574 0.0028506 0.9990426 -0.0028506 0.9990426 -0.0028506 0.0009574 0.0028506
102769807 0.0010002 0.0029977 0.9989998 -0.0029977 0.9989998 -0.0029977 0.0010002 0.0029977
105029408 0.0010703 0.0031349 0.9989297 -0.0031349 0.9989297 -0.0031349 0.0010703 0.0031349
107338692 0.0011721 0.0032456 0.9988279 -0.0032456 0.9988279 -0.0032456 0.0011721 0.0032456
