!Murata Part Number: GRM31C2C2A753JA01
!These Parameters are Measured in Series Mode Connection
!Data Generated on Mar 30, 2021
!       o--ll--o
!Port1            Port2
!       o------o
!Operation Temp=25[degC], DC Bias Voltage=0[V]
!Freq. Start=1000[kHz] Stop=6[GHz] 401[Steps]
# Hz S RI R 50
!Freq.(Hz) S11(Real) S11(Imag) S21(Real) S21(Imag) S12(Real) S12(Imag) S22(Real) S22(Imag)
1000000 0.0004873 -0.0210612 0.9995127 0.0210612 0.9995127 0.0210612 0.0004873 -0.0210612
1021987 0.0004685 -0.0206053 0.9995315 0.0206053 0.9995315 0.0206053 0.0004685 -0.0206053
1044457 0.0004504 -0.0201592 0.9995496 0.0201592 0.9995496 0.0201592 0.0004504 -0.0201592
1067422 0.0004332 -0.0197225 0.9995668 0.0197225 0.9995668 0.0197225 0.0004332 -0.0197225
1090891 0.0004166 -0.0192952 0.9995834 0.0192952 0.9995834 0.0192952 0.0004166 -0.0192952
1114877 0.0004008 -0.0188770 0.9995992 0.0188770 0.9995992 0.0188770 0.0004008 -0.0188770
1139390 0.0003857 -0.0184676 0.9996143 0.0184676 0.9996143 0.0184676 0.0003857 -0.0184676
1164441 0.0003712 -0.0180670 0.9996288 0.0180670 0.9996288 0.0180670 0.0003712 -0.0180670
1190044 0.0003573 -0.0176749 0.9996427 0.0176749 0.9996427 0.0176749 0.0003573 -0.0176749
1216210 0.0003441 -0.0172912 0.9996559 0.0172912 0.9996559 0.0172912 0.0003441 -0.0172912
1242950 0.0003314 -0.0169156 0.9996686 0.0169156 0.9996686 0.0169156 0.0003314 -0.0169156
1270279 0.0003193 -0.0165480 0.9996807 0.0165480 0.9996807 0.0165480 0.0003193 -0.0165480
1298209 0.0003077 -0.0161882 0.9996923 0.0161882 0.9996923 0.0161882 0.0003077 -0.0161882
1326753 0.0002966 -0.0158361 0.9997034 0.0158361 0.9997034 0.0158361 0.0002966 -0.0158361
1355924 0.0002860 -0.0154915 0.9997140 0.0154915 0.9997140 0.0154915 0.0002860 -0.0154915
1385737 0.0002759 -0.0151541 0.9997241 0.0151541 0.9997241 0.0151541 0.0002759 -0.0151541
1416205 0.0002662 -0.0148239 0.9997338 0.0148239 0.9997338 0.0148239 0.0002662 -0.0148239
1447343 0.0002569 -0.0145008 0.9997431 0.0145008 0.9997431 0.0145008 0.0002569 -0.0145008
1479166 0.0002480 -0.0141845 0.9997520 0.0141845 0.9997520 0.0141845 0.0002480 -0.0141845
1511688 0.0002396 -0.0138749 0.9997604 0.0138749 0.9997604 0.0138749 0.0002396 -0.0138749
1544926 0.0002315 -0.0135718 0.9997685 0.0135718 0.9997685 0.0135718 0.0002315 -0.0135718
1578894 0.0002237 -0.0132752 0.9997763 0.0132752 0.9997763 0.0132752 0.0002237 -0.0132752
1613609 0.0002164 -0.0129848 0.9997836 0.0129848 0.9997836 0.0129848 0.0002164 -0.0129848
1649087 0.0002093 -0.0127006 0.9997907 0.0127006 0.9997907 0.0127006 0.0002093 -0.0127006
1685346 0.0002026 -0.0124224 0.9997974 0.0124224 0.9997974 0.0124224 0.0002026 -0.0124224
1722402 0.0001961 -0.0121501 0.9998039 0.0121501 0.9998039 0.0121501 0.0001961 -0.0121501
1760272 0.0001900 -0.0118835 0.9998100 0.0118835 0.9998100 0.0118835 0.0001900 -0.0118835
1798975 0.0001841 -0.0116225 0.9998159 0.0116225 0.9998159 0.0116225 0.0001841 -0.0116225
1838529 0.0001785 -0.0113670 0.9998215 0.0113670 0.9998215 0.0113670 0.0001785 -0.0113670
1878953 0.0001732 -0.0111170 0.9998268 0.0111170 0.9998268 0.0111170 0.0001732 -0.0111170
1920266 0.0001681 -0.0108721 0.9998319 0.0108721 0.9998319 0.0108721 0.0001681 -0.0108721
1962487 0.0001632 -0.0106325 0.9998368 0.0106325 0.9998368 0.0106325 0.0001632 -0.0106325
2005636 0.0001586 -0.0103978 0.9998414 0.0103978 0.9998414 0.0103978 0.0001586 -0.0103978
2049734 0.0001542 -0.0101681 0.9998458 0.0101681 0.9998458 0.0101681 0.0001542 -0.0101681
2094801 0.0001500 -0.0099432 0.9998500 0.0099432 0.9998500 0.0099432 0.0001500 -0.0099432
2140860 0.0001460 -0.0097230 0.9998540 0.0097230 0.9998540 0.0097230 0.0001460 -0.0097230
2187931 0.0001422 -0.0095074 0.9998578 0.0095074 0.9998578 0.0095074 0.0001422 -0.0095074
2236037 0.0001386 -0.0092964 0.9998614 0.0092964 0.9998614 0.0092964 0.0001386 -0.0092964
2285201 0.0001351 -0.0090897 0.9998649 0.0090897 0.9998649 0.0090897 0.0001351 -0.0090897
2335446 0.0001318 -0.0088873 0.9998682 0.0088873 0.9998682 0.0088873 0.0001318 -0.0088873
2386795 0.0001287 -0.0086892 0.9998713 0.0086892 0.9998713 0.0086892 0.0001287 -0.0086892
2439274 0.0001258 -0.0084952 0.9998742 0.0084952 0.9998742 0.0084952 0.0001258 -0.0084952
2492906 0.0001229 -0.0083052 0.9998771 0.0083052 0.9998771 0.0083052 0.0001229 -0.0083052
2547717 0.0001203 -0.0081191 0.9998797 0.0081191 0.9998797 0.0081191 0.0001203 -0.0081191
2603734 0.0001177 -0.0079369 0.9998823 0.0079369 0.9998823 0.0079369 0.0001177 -0.0079369
2660982 0.0001153 -0.0077585 0.9998847 0.0077585 0.9998847 0.0077585 0.0001153 -0.0077585
2719490 0.0001131 -0.0075837 0.9998869 0.0075837 0.9998869 0.0075837 0.0001131 -0.0075837
2779283 0.0001109 -0.0074126 0.9998891 0.0074126 0.9998891 0.0074126 0.0001109 -0.0074126
2840391 0.0001089 -0.0072449 0.9998911 0.0072449 0.9998911 0.0072449 0.0001089 -0.0072449
2902843 0.0001070 -0.0070807 0.9998930 0.0070807 0.9998930 0.0070807 0.0001070 -0.0070807
2966668 0.0001051 -0.0069199 0.9998949 0.0069199 0.9998949 0.0069199 0.0001051 -0.0069199
3031896 0.0001034 -0.0067624 0.9998966 0.0067624 0.9998966 0.0067624 0.0001034 -0.0067624
3098558 0.0001018 -0.0066080 0.9998982 0.0066080 0.9998982 0.0066080 0.0001018 -0.0066080
3166686 0.0001003 -0.0064568 0.9998997 0.0064568 0.9998997 0.0064568 0.0001003 -0.0064568
3236312 0.0000989 -0.0063087 0.9999011 0.0063087 0.9999011 0.0063087 0.0000989 -0.0063087
3307469 0.0000975 -0.0061636 0.9999025 0.0061636 0.9999025 0.0061636 0.0000975 -0.0061636
3380190 0.0000963 -0.0060214 0.9999037 0.0060214 0.9999037 0.0060214 0.0000963 -0.0060214
3454511 0.0000951 -0.0058821 0.9999049 0.0058821 0.9999049 0.0058821 0.0000951 -0.0058821
3530465 0.0000940 -0.0057456 0.9999060 0.0057456 0.9999060 0.0057456 0.0000940 -0.0057456
3608090 0.0000929 -0.0056118 0.9999071 0.0056118 0.9999071 0.0056118 0.0000929 -0.0056118
3687421 0.0000920 -0.0054807 0.9999080 0.0054807 0.9999080 0.0054807 0.0000920 -0.0054807
3768496 0.0000911 -0.0053522 0.9999089 0.0053522 0.9999089 0.0053522 0.0000911 -0.0053522
3851354 0.0000902 -0.0052262 0.9999098 0.0052262 0.9999098 0.0052262 0.0000902 -0.0052262
3936034 0.0000894 -0.0051027 0.9999106 0.0051027 0.9999106 0.0051027 0.0000894 -0.0051027
4022575 0.0000887 -0.0049817 0.9999113 0.0049817 0.9999113 0.0049817 0.0000887 -0.0049817
4111020 0.0000881 -0.0048630 0.9999119 0.0048630 0.9999119 0.0048630 0.0000881 -0.0048630
4201409 0.0000874 -0.0047467 0.9999126 0.0047467 0.9999126 0.0047467 0.0000874 -0.0047467
4293785 0.0000869 -0.0046326 0.9999131 0.0046326 0.9999131 0.0046326 0.0000869 -0.0046326
4388193 0.0000864 -0.0045207 0.9999136 0.0045207 0.9999136 0.0045207 0.0000864 -0.0045207
4484676 0.0000859 -0.0044110 0.9999141 0.0044110 0.9999141 0.0044110 0.0000859 -0.0044110
4583281 0.0000855 -0.0043033 0.9999145 0.0043033 0.9999145 0.0043033 0.0000855 -0.0043033
4684054 0.0000851 -0.0041978 0.9999149 0.0041978 0.9999149 0.0041978 0.0000851 -0.0041978
4787042 0.0000848 -0.0040942 0.9999152 0.0040942 0.9999152 0.0040942 0.0000848 -0.0040942
4892295 0.0000845 -0.0039926 0.9999155 0.0039926 0.9999155 0.0039926 0.0000845 -0.0039926
4999862 0.0000842 -0.0038929 0.9999158 0.0038929 0.9999158 0.0038929 0.0000842 -0.0038929
5109794 0.0000840 -0.0037950 0.9999160 0.0037950 0.9999160 0.0037950 0.0000840 -0.0037950
5222143 0.0000838 -0.0036990 0.9999162 0.0036990 0.9999162 0.0036990 0.0000838 -0.0036990
5336962 0.0000837 -0.0036047 0.9999163 0.0036047 0.9999163 0.0036047 0.0000837 -0.0036047
5454306 0.0000836 -0.0035121 0.9999164 0.0035121 0.9999164 0.0035121 0.0000836 -0.0035121
5574230 0.0000835 -0.0034212 0.9999165 0.0034212 0.9999165 0.0034212 0.0000835 -0.0034212
5696791 0.0000834 -0.0033319 0.9999166 0.0033319 0.9999166 0.0033319 0.0000834 -0.0033319
5822046 0.0000834 -0.0032443 0.9999166 0.0032443 0.9999166 0.0032443 0.0000834 -0.0032443
5950055 0.0000834 -0.0031582 0.9999166 0.0031582 0.9999166 0.0031582 0.0000834 -0.0031582
6080879 0.0000834 -0.0030735 0.9999166 0.0030735 0.9999166 0.0030735 0.0000834 -0.0030735
6214580 0.0000835 -0.0029904 0.9999165 0.0029904 0.9999165 0.0029904 0.0000835 -0.0029904
6351220 0.0000836 -0.0029086 0.9999164 0.0029086 0.9999164 0.0029086 0.0000836 -0.0029086
6490864 0.0000837 -0.0028283 0.9999163 0.0028283 0.9999163 0.0028283 0.0000837 -0.0028283
6633579 0.0000838 -0.0027493 0.9999162 0.0027493 0.9999162 0.0027493 0.0000838 -0.0027493
6779431 0.0000839 -0.0026716 0.9999161 0.0026716 0.9999161 0.0026716 0.0000839 -0.0026716
6928491 0.0000841 -0.0025952 0.9999159 0.0025952 0.9999159 0.0025952 0.0000841 -0.0025952
7080828 0.0000843 -0.0025200 0.9999157 0.0025200 0.9999157 0.0025200 0.0000843 -0.0025200
7236514 0.0000846 -0.0024461 0.9999154 0.0024461 0.9999154 0.0024461 0.0000846 -0.0024461
7395623 0.0000848 -0.0023733 0.9999152 0.0023733 0.9999152 0.0023733 0.0000848 -0.0023733
7558231 0.0000851 -0.0023016 0.9999149 0.0023016 0.9999149 0.0023016 0.0000851 -0.0023016
7724414 0.0000854 -0.0022310 0.9999146 0.0022310 0.9999146 0.0022310 0.0000854 -0.0022310
7894251 0.0000857 -0.0021615 0.9999143 0.0021615 0.9999143 0.0021615 0.0000857 -0.0021615
8067822 0.0000861 -0.0020930 0.9999139 0.0020930 0.9999139 0.0020930 0.0000861 -0.0020930
8245209 0.0000865 -0.0020255 0.9999135 0.0020255 0.9999135 0.0020255 0.0000865 -0.0020255
8426497 0.0000869 -0.0019589 0.9999131 0.0019589 0.9999131 0.0019589 0.0000869 -0.0019589
8611770 0.0000873 -0.0018933 0.9999127 0.0018933 0.9999127 0.0018933 0.0000873 -0.0018933
8801117 0.0000877 -0.0018286 0.9999123 0.0018286 0.9999123 0.0018286 0.0000877 -0.0018286
8994628 0.0000882 -0.0017648 0.9999118 0.0017648 0.9999118 0.0017648 0.0000882 -0.0017648
9192393 0.0000887 -0.0017018 0.9999113 0.0017018 0.9999113 0.0017018 0.0000887 -0.0017018
9394506 0.0000893 -0.0016396 0.9999107 0.0016396 0.9999107 0.0016396 0.0000893 -0.0016396
9601063 0.0000898 -0.0015781 0.9999102 0.0015781 0.9999102 0.0015781 0.0000898 -0.0015781
9812162 0.0000904 -0.0015175 0.9999096 0.0015175 0.9999096 0.0015175 0.0000904 -0.0015175
10027902 0.0000910 -0.0014575 0.9999090 0.0014575 0.9999090 0.0014575 0.0000910 -0.0014575
10248386 0.0000917 -0.0013982 0.9999083 0.0013982 0.9999083 0.0013982 0.0000917 -0.0013982
10473717 0.0000924 -0.0013396 0.9999076 0.0013396 0.9999076 0.0013396 0.0000924 -0.0013396
10704003 0.0000931 -0.0012816 0.9999069 0.0012816 0.9999069 0.0012816 0.0000931 -0.0012816
10939352 0.0000938 -0.0012243 0.9999062 0.0012243 0.9999062 0.0012243 0.0000938 -0.0012243
11179876 0.0000946 -0.0011674 0.9999054 0.0011674 0.9999054 0.0011674 0.0000946 -0.0011674
11425688 0.0000954 -0.0011112 0.9999046 0.0011112 0.9999046 0.0011112 0.0000954 -0.0011112
11676904 0.0000963 -0.0010554 0.9999037 0.0010554 0.9999037 0.0010554 0.0000963 -0.0010554
11933645 0.0000972 -0.0010002 0.9999028 0.0010002 0.9999028 0.0010002 0.0000972 -0.0010002
12196030 0.0000981 -0.0009454 0.9999019 0.0009454 0.9999019 0.0009454 0.0000981 -0.0009454
12464184 0.0000991 -0.0008911 0.9999009 0.0008911 0.9999009 0.0008911 0.0000991 -0.0008911
12738235 0.0001002 -0.0008371 0.9998998 0.0008371 0.9998998 0.0008371 0.0001002 -0.0008371
13018310 0.0001012 -0.0007836 0.9998988 0.0007836 0.9998988 0.0007836 0.0001012 -0.0007836
13304544 0.0001024 -0.0007304 0.9998976 0.0007304 0.9998976 0.0007304 0.0001024 -0.0007304
13597071 0.0001036 -0.0006775 0.9998964 0.0006775 0.9998964 0.0006775 0.0001036 -0.0006775
13896030 0.0001048 -0.0006249 0.9998952 0.0006249 0.9998952 0.0006249 0.0001048 -0.0006249
14201563 0.0001061 -0.0005726 0.9998939 0.0005726 0.9998939 0.0005726 0.0001061 -0.0005726
14513813 0.0001074 -0.0005206 0.9998926 0.0005206 0.9998926 0.0005206 0.0001074 -0.0005206
14832928 0.0001088 -0.0004687 0.9998912 0.0004687 0.9998912 0.0004687 0.0001088 -0.0004687
15159060 0.0001103 -0.0004171 0.9998897 0.0004171 0.9998897 0.0004171 0.0001103 -0.0004171
15492362 0.0001119 -0.0003656 0.9998881 0.0003656 0.9998881 0.0003656 0.0001119 -0.0003656
15832993 0.0001135 -0.0003143 0.9998865 0.0003143 0.9998865 0.0003143 0.0001135 -0.0003143
16181113 0.0001152 -0.0002631 0.9998848 0.0002631 0.9998848 0.0002631 0.0001152 -0.0002631
16536888 0.0001169 -0.0002120 0.9998831 0.0002120 0.9998831 0.0002120 0.0001169 -0.0002120
16900485 0.0001188 -0.0001609 0.9998812 0.0001609 0.9998812 0.0001609 0.0001188 -0.0001609
17272076 0.0001207 -0.0001098 0.9998793 0.0001098 0.9998793 0.0001098 0.0001207 -0.0001098
17651837 0.0001227 -0.0000587 0.9998773 0.0000587 0.9998773 0.0000587 0.0001227 -0.0000587
18039948 0.0001249 -0.0000076 0.9998751 0.0000076 0.9998751 0.0000076 0.0001249 -0.0000076
18436593 0.0001271 0.0000435 0.9998729 -0.0000435 0.9998729 -0.0000435 0.0001271 0.0000435
18841959 0.0001294 0.0000948 0.9998706 -0.0000948 0.9998706 -0.0000948 0.0001294 0.0000948
19256237 0.0001318 0.0001462 0.9998682 -0.0001462 0.9998682 -0.0001462 0.0001318 0.0001462
19679624 0.0001344 0.0001978 0.9998656 -0.0001978 0.9998656 -0.0001978 0.0001344 0.0001978
20112321 0.0001371 0.0002496 0.9998629 -0.0002496 0.9998629 -0.0002496 0.0001371 0.0002496
20554530 0.0001399 0.0003016 0.9998601 -0.0003016 0.9998601 -0.0003016 0.0001399 0.0003016
21006463 0.0001429 0.0003539 0.9998571 -0.0003539 0.9998571 -0.0003539 0.0001429 0.0003539
21468333 0.0001460 0.0004065 0.9998540 -0.0004065 0.9998540 -0.0004065 0.0001460 0.0004065
21940357 0.0001493 0.0004595 0.9998507 -0.0004595 0.9998507 -0.0004595 0.0001493 0.0004595
22422760 0.0001528 0.0005129 0.9998472 -0.0005129 0.9998472 -0.0005129 0.0001528 0.0005129
22915770 0.0001564 0.0005668 0.9998436 -0.0005668 0.9998436 -0.0005668 0.0001564 0.0005668
23419619 0.0001603 0.0006212 0.9998397 -0.0006212 0.9998397 -0.0006212 0.0001603 0.0006212
23934547 0.0001644 0.0006762 0.9998356 -0.0006762 0.9998356 -0.0006762 0.0001644 0.0006762
24460796 0.0001688 0.0007318 0.9998312 -0.0007318 0.9998312 -0.0007318 0.0001688 0.0007318
24998616 0.0001734 0.0007882 0.9998266 -0.0007882 0.9998266 -0.0007882 0.0001734 0.0007882
25548261 0.0001784 0.0008454 0.9998216 -0.0008454 0.9998216 -0.0008454 0.0001784 0.0008454
26109991 0.0001837 0.0009035 0.9998163 -0.0009035 0.9998163 -0.0009035 0.0001837 0.0009035
26684072 0.0001894 0.0009626 0.9998106 -0.0009626 0.9998106 -0.0009626 0.0001894 0.0009626
27270775 0.0001956 0.0010229 0.9998044 -0.0010229 0.9998044 -0.0010229 0.0001956 0.0010229
27870378 0.0002024 0.0010846 0.9997976 -0.0010846 0.9997976 -0.0010846 0.0002024 0.0010846
28483164 0.0002098 0.0011477 0.9997902 -0.0011477 0.9997902 -0.0011477 0.0002098 0.0011477
29109424 0.0002180 0.0012126 0.9997820 -0.0012126 0.9997820 -0.0012126 0.0002180 0.0012126
29749453 0.0002272 0.0012794 0.9997728 -0.0012794 0.9997728 -0.0012794 0.0002272 0.0012794
30403555 0.0002376 0.0013487 0.9997624 -0.0013487 0.9997624 -0.0013487 0.0002376 0.0013487
31072038 0.0002497 0.0014208 0.9997503 -0.0014208 0.9997503 -0.0014208 0.0002497 0.0014208
31755220 0.0002639 0.0014962 0.9997361 -0.0014962 0.9997361 -0.0014962 0.0002639 0.0014962
32453422 0.0002812 0.0015758 0.9997188 -0.0015758 0.9997188 -0.0015758 0.0002812 0.0015758
33166976 0.0003029 0.0016605 0.9996971 -0.0016605 0.9996971 -0.0016605 0.0003029 0.0016605
33896219 0.0003312 0.0017516 0.9996688 -0.0017516 0.9996688 -0.0017516 0.0003312 0.0017516
34641496 0.0003699 0.0018505 0.9996301 -0.0018505 0.9996301 -0.0018505 0.0003699 0.0018505
35403159 0.0004260 0.0019583 0.9995740 -0.0019583 0.9995740 -0.0019583 0.0004260 0.0019583
36181569 0.0005123 0.0020738 0.9994877 -0.0020738 0.9994877 -0.0020738 0.0005123 0.0020738
36977093 0.0006524 0.0021850 0.9993476 -0.0021850 0.9993476 -0.0021850 0.0006524 0.0021850
37790109 0.0008761 0.0022433 0.9991239 -0.0022433 0.9991239 -0.0022433 0.0008761 0.0022433
38621001 0.0011487 0.0021256 0.9988513 -0.0021256 0.9988513 -0.0021256 0.0011487 0.0021256
39470161 0.0012255 0.0018005 0.9987745 -0.0018005 0.9987745 -0.0018005 0.0012255 0.0018005
40337993 0.0010133 0.0015896 0.9989867 -0.0015896 0.9989867 -0.0015896 0.0010133 0.0015896
41224905 0.0007813 0.0016057 0.9992187 -0.0016057 0.9992187 -0.0016057 0.0007813 0.0016057
42131317 0.0006376 0.0017169 0.9993624 -0.0017169 0.9993624 -0.0017169 0.0006376 0.0017169
43057659 0.0005609 0.0018478 0.9994391 -0.0018478 0.9994391 -0.0018478 0.0005609 0.0018478
44004369 0.0005238 0.0019771 0.9994762 -0.0019771 0.9994762 -0.0019771 0.0005238 0.0019771
44971893 0.0005103 0.0021013 0.9994897 -0.0021013 0.9994897 -0.0021013 0.0005103 0.0021013
45960691 0.0005125 0.0022215 0.9994875 -0.0022215 0.9994875 -0.0022215 0.0005125 0.0022215
46971230 0.0005264 0.0023393 0.9994736 -0.0023393 0.9994736 -0.0023393 0.0005264 0.0023393
48003987 0.0005507 0.0024563 0.9994493 -0.0024563 0.9994493 -0.0024563 0.0005507 0.0024563
49059451 0.0005856 0.0025737 0.9994144 -0.0025737 0.9994144 -0.0025737 0.0005856 0.0025737
50138122 0.0006326 0.0026922 0.9993674 -0.0026922 0.9993674 -0.0026922 0.0006326 0.0026922
51240510 0.0006944 0.0028119 0.9993056 -0.0028119 0.9993056 -0.0028119 0.0006944 0.0028119
52367136 0.0007753 0.0029314 0.9992247 -0.0029314 0.9992247 -0.0029314 0.0007753 0.0029314
53518533 0.0008812 0.0030468 0.9991188 -0.0030468 0.9991188 -0.0030468 0.0008812 0.0030468
54695245 0.0010192 0.0031496 0.9989808 -0.0031496 0.9989808 -0.0031496 0.0010192 0.0031496
55897831 0.0011951 0.0032235 0.9988049 -0.0032235 0.9988049 -0.0032235 0.0011951 0.0032235
57126857 0.0014061 0.0032407 0.9985939 -0.0032407 0.9985939 -0.0032407 0.0014061 0.0032407
58382906 0.0016266 0.0031668 0.9983734 -0.0031668 0.9983734 -0.0031668 0.0016266 0.0031668
59666572 0.0017948 0.0029852 0.9982052 -0.0029852 0.9982052 -0.0029852 0.0017948 0.0029852
60978462 0.0018376 0.0027378 0.9981624 -0.0027378 0.9981624 -0.0027378 0.0018376 0.0027378
62319196 0.0017362 0.0025189 0.9982638 -0.0025189 0.9982638 -0.0025189 0.0017362 0.0025189
63689409 0.0015480 0.0023996 0.9984520 -0.0023996 0.9984520 -0.0023996 0.0015480 0.0023996
65089750 0.0013464 0.0023851 0.9986536 -0.0023851 0.9986536 -0.0023851 0.0013464 0.0023851
66520879 0.0011729 0.0024440 0.9988271 -0.0024440 0.9988271 -0.0024440 0.0011729 0.0024440
67983474 0.0010382 0.0025436 0.9989618 -0.0025436 0.9989618 -0.0025436 0.0010382 0.0025436
69478228 0.0009387 0.0026626 0.9990613 -0.0026626 0.9990613 -0.0026626 0.0009387 0.0026626
71005847 0.0008671 0.0027891 0.9991329 -0.0027891 0.9991329 -0.0027891 0.0008671 0.0027891
72567054 0.0008166 0.0029173 0.9991834 -0.0029173 0.9991834 -0.0029173 0.0008166 0.0029173
74162587 0.0007819 0.0030447 0.9992181 -0.0030447 0.9992181 -0.0030447 0.0007819 0.0030447
75793201 0.0007591 0.0031700 0.9992409 -0.0031700 0.9992409 -0.0031700 0.0007591 0.0031700
77459667 0.0007455 0.0032932 0.9992545 -0.0032932 0.9992545 -0.0032932 0.0007455 0.0032932
79162774 0.0007391 0.0034143 0.9992609 -0.0034143 0.9992609 -0.0034143 0.0007391 0.0034143
80903327 0.0007386 0.0035336 0.9992614 -0.0035336 0.9992614 -0.0035336 0.0007386 0.0035336
82682150 0.0007431 0.0036511 0.9992569 -0.0036511 0.9992569 -0.0036511 0.0007431 0.0036511
84500083 0.0007518 0.0037672 0.9992482 -0.0037672 0.9992482 -0.0037672 0.0007518 0.0037672
86357988 0.0007643 0.0038819 0.9992357 -0.0038819 0.9992357 -0.0038819 0.0007643 0.0038819
88256743 0.0007803 0.0039952 0.9992197 -0.0039952 0.9992197 -0.0039952 0.0007803 0.0039952
90197245 0.0007995 0.0041070 0.9992005 -0.0041070 0.9992005 -0.0041070 0.0007995 0.0041070
92180413 0.0008217 0.0042169 0.9991783 -0.0042169 0.9991783 -0.0042169 0.0008217 0.0042169
94207185 0.0008466 0.0043246 0.9991534 -0.0043246 0.9991534 -0.0043246 0.0008466 0.0043246
96278520 0.0008737 0.0044296 0.9991263 -0.0044296 0.9991263 -0.0044296 0.0008737 0.0044296
98395398 0.0009022 0.0045313 0.9990978 -0.0045313 0.9990978 -0.0045313 0.0009022 0.0045313
100558819 0.0009313 0.0046293 0.9990687 -0.0046293 0.9990687 -0.0046293 0.0009313 0.0046293
102769807 0.0009595 0.0047231 0.9990405 -0.0047231 0.9990405 -0.0047231 0.0009595 0.0047231
105029408 0.0009852 0.0048130 0.9990148 -0.0048130 0.9990148 -0.0048130 0.0009852 0.0048130
107338692 0.0010068 0.0048995 0.9989932 -0.0048995 0.9989932 -0.0048995 0.0010068 0.0048995
