!Murata Part Number: GRM31C2C2A623JA01
!These Parameters are Measured in Series Mode Connection
!Data Generated on Mar 30, 2021
!       o--ll--o
!Port1            Port2
!       o------o
!Operation Temp=25[degC], DC Bias Voltage=0[V]
!Freq. Start=1000[kHz] Stop=6[GHz] 401[Steps]
# Hz S RI R 50
!Freq.(Hz) S11(Real) S11(Imag) S21(Real) S21(Imag) S12(Real) S12(Imag) S22(Real) S22(Imag)
1000000 0.0006933 -0.0253130 0.9993067 0.0253130 0.9993067 0.0253130 0.0006933 -0.0253130
1021987 0.0006660 -0.0247658 0.9993340 0.0247658 0.9993340 0.0247658 0.0006660 -0.0247658
1044457 0.0006399 -0.0242303 0.9993601 0.0242303 0.9993601 0.0242303 0.0006399 -0.0242303
1067422 0.0006149 -0.0237062 0.9993851 0.0237062 0.9993851 0.0237062 0.0006149 -0.0237062
1090891 0.0005909 -0.0231933 0.9994091 0.0231933 0.9994091 0.0231933 0.0005909 -0.0231933
1114877 0.0005680 -0.0226912 0.9994320 0.0226912 0.9994320 0.0226912 0.0005680 -0.0226912
1139390 0.0005461 -0.0221999 0.9994539 0.0221999 0.9994539 0.0221999 0.0005461 -0.0221999
1164441 0.0005251 -0.0217191 0.9994749 0.0217191 0.9994749 0.0217191 0.0005251 -0.0217191
1190044 0.0005050 -0.0212485 0.9994950 0.0212485 0.9994950 0.0212485 0.0005050 -0.0212485
1216210 0.0004857 -0.0207879 0.9995143 0.0207879 0.9995143 0.0207879 0.0004857 -0.0207879
1242950 0.0004673 -0.0203371 0.9995327 0.0203371 0.9995327 0.0203371 0.0004673 -0.0203371
1270279 0.0004497 -0.0198959 0.9995503 0.0198959 0.9995503 0.0198959 0.0004497 -0.0198959
1298209 0.0004328 -0.0194640 0.9995672 0.0194640 0.9995672 0.0194640 0.0004328 -0.0194640
1326753 0.0004167 -0.0190414 0.9995833 0.0190414 0.9995833 0.0190414 0.0004167 -0.0190414
1355924 0.0004012 -0.0186277 0.9995988 0.0186277 0.9995988 0.0186277 0.0004012 -0.0186277
1385737 0.0003864 -0.0182229 0.9996136 0.0182229 0.9996136 0.0182229 0.0003864 -0.0182229
1416205 0.0003723 -0.0178266 0.9996277 0.0178266 0.9996277 0.0178266 0.0003723 -0.0178266
1447343 0.0003588 -0.0174387 0.9996412 0.0174387 0.9996412 0.0174387 0.0003588 -0.0174387
1479166 0.0003458 -0.0170591 0.9996542 0.0170591 0.9996542 0.0170591 0.0003458 -0.0170591
1511688 0.0003334 -0.0166875 0.9996666 0.0166875 0.9996666 0.0166875 0.0003334 -0.0166875
1544926 0.0003216 -0.0163238 0.9996784 0.0163238 0.9996784 0.0163238 0.0003216 -0.0163238
1578894 0.0003102 -0.0159679 0.9996898 0.0159679 0.9996898 0.0159679 0.0003102 -0.0159679
1613609 0.0002994 -0.0156194 0.9997006 0.0156194 0.9997006 0.0156194 0.0002994 -0.0156194
1649087 0.0002890 -0.0152784 0.9997110 0.0152784 0.9997110 0.0152784 0.0002890 -0.0152784
1685346 0.0002791 -0.0149445 0.9997209 0.0149445 0.9997209 0.0149445 0.0002791 -0.0149445
1722402 0.0002696 -0.0146177 0.9997304 0.0146177 0.9997304 0.0146177 0.0002696 -0.0146177
1760272 0.0002606 -0.0142978 0.9997394 0.0142978 0.9997394 0.0142978 0.0002606 -0.0142978
1798975 0.0002519 -0.0139847 0.9997481 0.0139847 0.9997481 0.0139847 0.0002519 -0.0139847
1838529 0.0002436 -0.0136782 0.9997564 0.0136782 0.9997564 0.0136782 0.0002436 -0.0136782
1878953 0.0002357 -0.0133781 0.9997643 0.0133781 0.9997643 0.0133781 0.0002357 -0.0133781
1920266 0.0002281 -0.0130844 0.9997719 0.0130844 0.9997719 0.0130844 0.0002281 -0.0130844
1962487 0.0002209 -0.0127969 0.9997791 0.0127969 0.9997791 0.0127969 0.0002209 -0.0127969
2005636 0.0002140 -0.0125154 0.9997860 0.0125154 0.9997860 0.0125154 0.0002140 -0.0125154
2049734 0.0002074 -0.0122398 0.9997926 0.0122398 0.9997926 0.0122398 0.0002074 -0.0122398
2094801 0.0002011 -0.0119700 0.9997989 0.0119700 0.9997989 0.0119700 0.0002011 -0.0119700
2140860 0.0001951 -0.0117059 0.9998049 0.0117059 0.9998049 0.0117059 0.0001951 -0.0117059
2187931 0.0001894 -0.0114473 0.9998106 0.0114473 0.9998106 0.0114473 0.0001894 -0.0114473
2236037 0.0001839 -0.0111941 0.9998161 0.0111941 0.9998161 0.0111941 0.0001839 -0.0111941
2285201 0.0001787 -0.0109462 0.9998213 0.0109462 0.9998213 0.0109462 0.0001787 -0.0109462
2335446 0.0001737 -0.0107035 0.9998263 0.0107035 0.9998263 0.0107035 0.0001737 -0.0107035
2386795 0.0001689 -0.0104659 0.9998311 0.0104659 0.9998311 0.0104659 0.0001689 -0.0104659
2439274 0.0001644 -0.0102332 0.9998356 0.0102332 0.9998356 0.0102332 0.0001644 -0.0102332
2492906 0.0001601 -0.0100054 0.9998399 0.0100054 0.9998399 0.0100054 0.0001601 -0.0100054
2547717 0.0001560 -0.0097823 0.9998440 0.0097823 0.9998440 0.0097823 0.0001560 -0.0097823
2603734 0.0001521 -0.0095638 0.9998479 0.0095638 0.9998479 0.0095638 0.0001521 -0.0095638
2660982 0.0001483 -0.0093499 0.9998517 0.0093499 0.9998517 0.0093499 0.0001483 -0.0093499
2719490 0.0001448 -0.0091404 0.9998552 0.0091404 0.9998552 0.0091404 0.0001448 -0.0091404
2779283 0.0001414 -0.0089352 0.9998586 0.0089352 0.9998586 0.0089352 0.0001414 -0.0089352
2840391 0.0001382 -0.0087342 0.9998618 0.0087342 0.9998618 0.0087342 0.0001382 -0.0087342
2902843 0.0001352 -0.0085374 0.9998648 0.0085374 0.9998648 0.0085374 0.0001352 -0.0085374
2966668 0.0001323 -0.0083447 0.9998677 0.0083447 0.9998677 0.0083447 0.0001323 -0.0083447
3031896 0.0001296 -0.0081558 0.9998704 0.0081558 0.9998704 0.0081558 0.0001296 -0.0081558
3098558 0.0001270 -0.0079709 0.9998730 0.0079709 0.9998730 0.0079709 0.0001270 -0.0079709
3166686 0.0001245 -0.0077898 0.9998755 0.0077898 0.9998755 0.0077898 0.0001245 -0.0077898
3236312 0.0001222 -0.0076123 0.9998778 0.0076123 0.9998778 0.0076123 0.0001222 -0.0076123
3307469 0.0001200 -0.0074384 0.9998800 0.0074384 0.9998800 0.0074384 0.0001200 -0.0074384
3380190 0.0001179 -0.0072681 0.9998821 0.0072681 0.9998821 0.0072681 0.0001179 -0.0072681
3454511 0.0001160 -0.0071012 0.9998840 0.0071012 0.9998840 0.0071012 0.0001160 -0.0071012
3530465 0.0001141 -0.0069377 0.9998859 0.0069377 0.9998859 0.0069377 0.0001141 -0.0069377
3608090 0.0001124 -0.0067775 0.9998876 0.0067775 0.9998876 0.0067775 0.0001124 -0.0067775
3687421 0.0001108 -0.0066206 0.9998892 0.0066206 0.9998892 0.0066206 0.0001108 -0.0066206
3768496 0.0001092 -0.0064667 0.9998908 0.0064667 0.9998908 0.0064667 0.0001092 -0.0064667
3851354 0.0001078 -0.0063160 0.9998922 0.0063160 0.9998922 0.0063160 0.0001078 -0.0063160
3936034 0.0001065 -0.0061682 0.9998935 0.0061682 0.9998935 0.0061682 0.0001065 -0.0061682
4022575 0.0001052 -0.0060234 0.9998948 0.0060234 0.9998948 0.0060234 0.0001052 -0.0060234
4111020 0.0001041 -0.0058814 0.9998959 0.0058814 0.9998959 0.0058814 0.0001041 -0.0058814
4201409 0.0001030 -0.0057423 0.9998970 0.0057423 0.9998970 0.0057423 0.0001030 -0.0057423
4293785 0.0001020 -0.0056058 0.9998980 0.0056058 0.9998980 0.0056058 0.0001020 -0.0056058
4388193 0.0001011 -0.0054721 0.9998989 0.0054721 0.9998989 0.0054721 0.0001011 -0.0054721
4484676 0.0001002 -0.0053409 0.9998998 0.0053409 0.9998998 0.0053409 0.0001002 -0.0053409
4583281 0.0000995 -0.0052123 0.9999005 0.0052123 0.9999005 0.0052123 0.0000995 -0.0052123
4684054 0.0000988 -0.0050862 0.9999012 0.0050862 0.9999012 0.0050862 0.0000988 -0.0050862
4787042 0.0000981 -0.0049625 0.9999019 0.0049625 0.9999019 0.0049625 0.0000981 -0.0049625
4892295 0.0000975 -0.0048412 0.9999025 0.0048412 0.9999025 0.0048412 0.0000975 -0.0048412
4999862 0.0000970 -0.0047222 0.9999030 0.0047222 0.9999030 0.0047222 0.0000970 -0.0047222
5109794 0.0000966 -0.0046054 0.9999034 0.0046054 0.9999034 0.0046054 0.0000966 -0.0046054
5222143 0.0000962 -0.0044908 0.9999038 0.0044908 0.9999038 0.0044908 0.0000962 -0.0044908
5336962 0.0000958 -0.0043784 0.9999042 0.0043784 0.9999042 0.0043784 0.0000958 -0.0043784
5454306 0.0000955 -0.0042681 0.9999045 0.0042681 0.9999045 0.0042681 0.0000955 -0.0042681
5574230 0.0000953 -0.0041598 0.9999047 0.0041598 0.9999047 0.0041598 0.0000953 -0.0041598
5696791 0.0000951 -0.0040535 0.9999049 0.0040535 0.9999049 0.0040535 0.0000951 -0.0040535
5822046 0.0000949 -0.0039492 0.9999051 0.0039492 0.9999051 0.0039492 0.0000949 -0.0039492
5950055 0.0000948 -0.0038467 0.9999052 0.0038467 0.9999052 0.0038467 0.0000948 -0.0038467
6080879 0.0000948 -0.0037461 0.9999052 0.0037461 0.9999052 0.0037461 0.0000948 -0.0037461
6214580 0.0000947 -0.0036473 0.9999053 0.0036473 0.9999053 0.0036473 0.0000947 -0.0036473
6351220 0.0000947 -0.0035502 0.9999053 0.0035502 0.9999053 0.0035502 0.0000947 -0.0035502
6490864 0.0000948 -0.0034548 0.9999052 0.0034548 0.9999052 0.0034548 0.0000948 -0.0034548
6633579 0.0000949 -0.0033611 0.9999051 0.0033611 0.9999051 0.0033611 0.0000949 -0.0033611
6779431 0.0000950 -0.0032690 0.9999050 0.0032690 0.9999050 0.0032690 0.0000950 -0.0032690
6928491 0.0000952 -0.0031784 0.9999048 0.0031784 0.9999048 0.0031784 0.0000952 -0.0031784
7080828 0.0000954 -0.0030894 0.9999046 0.0030894 0.9999046 0.0030894 0.0000954 -0.0030894
7236514 0.0000956 -0.0030019 0.9999044 0.0030019 0.9999044 0.0030019 0.0000956 -0.0030019
7395623 0.0000958 -0.0029158 0.9999042 0.0029158 0.9999042 0.0029158 0.0000958 -0.0029158
7558231 0.0000961 -0.0028311 0.9999039 0.0028311 0.9999039 0.0028311 0.0000961 -0.0028311
7724414 0.0000964 -0.0027477 0.9999036 0.0027477 0.9999036 0.0027477 0.0000964 -0.0027477
7894251 0.0000967 -0.0026657 0.9999033 0.0026657 0.9999033 0.0026657 0.0000967 -0.0026657
8067822 0.0000971 -0.0025850 0.9999029 0.0025850 0.9999029 0.0025850 0.0000971 -0.0025850
8245209 0.0000975 -0.0025055 0.9999025 0.0025055 0.9999025 0.0025055 0.0000975 -0.0025055
8426497 0.0000979 -0.0024272 0.9999021 0.0024272 0.9999021 0.0024272 0.0000979 -0.0024272
8611770 0.0000984 -0.0023500 0.9999016 0.0023500 0.9999016 0.0023500 0.0000984 -0.0023500
8801117 0.0000988 -0.0022740 0.9999012 0.0022740 0.9999012 0.0022740 0.0000988 -0.0022740
8994628 0.0000993 -0.0021991 0.9999007 0.0021991 0.9999007 0.0021991 0.0000993 -0.0021991
9192393 0.0000998 -0.0021253 0.9999002 0.0021253 0.9999002 0.0021253 0.0000998 -0.0021253
9394506 0.0001004 -0.0020524 0.9998996 0.0020524 0.9998996 0.0020524 0.0001004 -0.0020524
9601063 0.0001009 -0.0019806 0.9998991 0.0019806 0.9998991 0.0019806 0.0001009 -0.0019806
9812162 0.0001015 -0.0019097 0.9998985 0.0019097 0.9998985 0.0019097 0.0001015 -0.0019097
10027902 0.0001021 -0.0018397 0.9998979 0.0018397 0.9998979 0.0018397 0.0001021 -0.0018397
10248386 0.0001027 -0.0017706 0.9998973 0.0017706 0.9998973 0.0017706 0.0001027 -0.0017706
10473717 0.0001034 -0.0017023 0.9998966 0.0017023 0.9998966 0.0017023 0.0001034 -0.0017023
10704003 0.0001041 -0.0016348 0.9998959 0.0016348 0.9998959 0.0016348 0.0001041 -0.0016348
10939352 0.0001048 -0.0015682 0.9998952 0.0015682 0.9998952 0.0015682 0.0001048 -0.0015682
11179876 0.0001055 -0.0015022 0.9998945 0.0015022 0.9998945 0.0015022 0.0001055 -0.0015022
11425688 0.0001063 -0.0014370 0.9998937 0.0014370 0.9998937 0.0014370 0.0001063 -0.0014370
11676904 0.0001071 -0.0013725 0.9998929 0.0013725 0.9998929 0.0013725 0.0001071 -0.0013725
11933645 0.0001079 -0.0013086 0.9998921 0.0013086 0.9998921 0.0013086 0.0001079 -0.0013086
12196030 0.0001087 -0.0012454 0.9998913 0.0012454 0.9998913 0.0012454 0.0001087 -0.0012454
12464184 0.0001096 -0.0011827 0.9998904 0.0011827 0.9998904 0.0011827 0.0001096 -0.0011827
12738235 0.0001105 -0.0011206 0.9998895 0.0011206 0.9998895 0.0011206 0.0001105 -0.0011206
13018310 0.0001115 -0.0010590 0.9998885 0.0010590 0.9998885 0.0010590 0.0001115 -0.0010590
13304544 0.0001124 -0.0009980 0.9998876 0.0009980 0.9998876 0.0009980 0.0001124 -0.0009980
13597071 0.0001135 -0.0009373 0.9998865 0.0009373 0.9998865 0.0009373 0.0001135 -0.0009373
13896030 0.0001145 -0.0008772 0.9998855 0.0008772 0.9998855 0.0008772 0.0001145 -0.0008772
14201563 0.0001156 -0.0008174 0.9998844 0.0008174 0.9998844 0.0008174 0.0001156 -0.0008174
14513813 0.0001167 -0.0007580 0.9998833 0.0007580 0.9998833 0.0007580 0.0001167 -0.0007580
14832928 0.0001179 -0.0006989 0.9998821 0.0006989 0.9998821 0.0006989 0.0001179 -0.0006989
15159060 0.0001191 -0.0006402 0.9998809 0.0006402 0.9998809 0.0006402 0.0001191 -0.0006402
15492362 0.0001204 -0.0005817 0.9998796 0.0005817 0.9998796 0.0005817 0.0001204 -0.0005817
15832993 0.0001217 -0.0005235 0.9998783 0.0005235 0.9998783 0.0005235 0.0001217 -0.0005235
16181113 0.0001231 -0.0004655 0.9998769 0.0004655 0.9998769 0.0004655 0.0001231 -0.0004655
16536888 0.0001245 -0.0004077 0.9998755 0.0004077 0.9998755 0.0004077 0.0001245 -0.0004077
16900485 0.0001260 -0.0003500 0.9998740 0.0003500 0.9998740 0.0003500 0.0001260 -0.0003500
17272076 0.0001275 -0.0002925 0.9998725 0.0002925 0.9998725 0.0002925 0.0001275 -0.0002925
17651837 0.0001291 -0.0002351 0.9998709 0.0002351 0.9998709 0.0002351 0.0001291 -0.0002351
18039948 0.0001308 -0.0001778 0.9998692 0.0001778 0.9998692 0.0001778 0.0001308 -0.0001778
18436593 0.0001326 -0.0001205 0.9998674 0.0001205 0.9998674 0.0001205 0.0001326 -0.0001205
18841959 0.0001344 -0.0000631 0.9998656 0.0000631 0.9998656 0.0000631 0.0001344 -0.0000631
19256237 0.0001363 -0.0000058 0.9998637 0.0000058 0.9998637 0.0000058 0.0001363 -0.0000058
19679624 0.0001383 0.0000516 0.9998617 -0.0000516 0.9998617 -0.0000516 0.0001383 0.0000516
20112321 0.0001404 0.0001091 0.9998596 -0.0001091 0.9998596 -0.0001091 0.0001404 0.0001091
20554530 0.0001426 0.0001668 0.9998574 -0.0001668 0.9998574 -0.0001668 0.0001426 0.0001668
21006463 0.0001449 0.0002246 0.9998551 -0.0002246 0.9998551 -0.0002246 0.0001449 0.0002246
21468333 0.0001474 0.0002826 0.9998526 -0.0002826 0.9998526 -0.0002826 0.0001474 0.0002826
21940357 0.0001499 0.0003409 0.9998501 -0.0003409 0.9998501 -0.0003409 0.0001499 0.0003409
22422760 0.0001526 0.0003994 0.9998474 -0.0003994 0.9998474 -0.0003994 0.0001526 0.0003994
22915770 0.0001554 0.0004583 0.9998446 -0.0004583 0.9998446 -0.0004583 0.0001554 0.0004583
23419619 0.0001584 0.0005176 0.9998416 -0.0005176 0.9998416 -0.0005176 0.0001584 0.0005176
23934547 0.0001615 0.0005772 0.9998385 -0.0005772 0.9998385 -0.0005772 0.0001615 0.0005772
24460796 0.0001648 0.0006374 0.9998352 -0.0006374 0.9998352 -0.0006374 0.0001648 0.0006374
24998616 0.0001684 0.0006981 0.9998316 -0.0006981 0.9998316 -0.0006981 0.0001684 0.0006981
25548261 0.0001721 0.0007593 0.9998279 -0.0007593 0.9998279 -0.0007593 0.0001721 0.0007593
26109991 0.0001761 0.0008212 0.9998239 -0.0008212 0.9998239 -0.0008212 0.0001761 0.0008212
26684072 0.0001803 0.0008838 0.9998197 -0.0008838 0.9998197 -0.0008838 0.0001803 0.0008838
27270775 0.0001848 0.0009471 0.9998152 -0.0009471 0.9998152 -0.0009471 0.0001848 0.0009471
27870378 0.0001897 0.0010113 0.9998103 -0.0010113 0.9998103 -0.0010113 0.0001897 0.0010113
28483164 0.0001949 0.0010765 0.9998051 -0.0010765 0.9998051 -0.0010765 0.0001949 0.0010765
29109424 0.0002006 0.0011427 0.9997994 -0.0011427 0.9997994 -0.0011427 0.0002006 0.0011427
29749453 0.0002067 0.0012100 0.9997933 -0.0012100 0.9997933 -0.0012100 0.0002067 0.0012100
30403555 0.0002134 0.0012786 0.9997866 -0.0012786 0.9997866 -0.0012786 0.0002134 0.0012786
31072038 0.0002207 0.0013486 0.9997793 -0.0013486 0.9997793 -0.0013486 0.0002207 0.0013486
31755220 0.0002289 0.0014202 0.9997711 -0.0014202 0.9997711 -0.0014202 0.0002289 0.0014202
32453422 0.0002379 0.0014936 0.9997621 -0.0014936 0.9997621 -0.0014936 0.0002379 0.0014936
33166976 0.0002482 0.0015691 0.9997518 -0.0015691 0.9997518 -0.0015691 0.0002482 0.0015691
33896219 0.0002599 0.0016468 0.9997401 -0.0016468 0.9997401 -0.0016468 0.0002599 0.0016468
34641496 0.0002735 0.0017272 0.9997265 -0.0017272 0.9997265 -0.0017272 0.0002735 0.0017272
35403159 0.0002895 0.0018106 0.9997105 -0.0018106 0.9997105 -0.0018106 0.0002895 0.0018106
36181569 0.0003087 0.0018975 0.9996913 -0.0018975 0.9996913 -0.0018975 0.0003087 0.0018975
36977093 0.0003325 0.0019885 0.9996675 -0.0019885 0.9996675 -0.0019885 0.0003325 0.0019885
37790109 0.0003625 0.0020841 0.9996375 -0.0020841 0.9996375 -0.0020841 0.0003625 0.0020841
38621001 0.0004017 0.0021846 0.9995983 -0.0021846 0.9995983 -0.0021846 0.0004017 0.0021846
39470161 0.0004545 0.0022898 0.9995455 -0.0022898 0.9995455 -0.0022898 0.0004545 0.0022898
40337993 0.0005282 0.0023973 0.9994718 -0.0023973 0.9994718 -0.0023973 0.0005282 0.0023973
41224905 0.0006330 0.0024994 0.9993670 -0.0024994 0.9993670 -0.0024994 0.0006330 0.0024994
42131317 0.0007800 0.0025754 0.9992200 -0.0025754 0.9992200 -0.0025754 0.0007800 0.0025754
43057659 0.0009648 0.0025819 0.9990352 -0.0025819 0.9990352 -0.0025819 0.0009648 0.0025819
44004369 0.0011265 0.0024708 0.9988735 -0.0024708 0.9988735 -0.0024708 0.0011265 0.0024708
44971893 0.0011529 0.0022811 0.9988471 -0.0022811 0.9988471 -0.0022811 0.0011529 0.0022811
45960691 0.0010303 0.0021541 0.9989697 -0.0021541 0.9989697 -0.0021541 0.0010303 0.0021541
46971230 0.0008680 0.0021515 0.9991320 -0.0021515 0.9991320 -0.0021515 0.0008680 0.0021515
48003987 0.0007399 0.0022315 0.9992601 -0.0022315 0.9992601 -0.0022315 0.0007399 0.0022315
49059451 0.0006566 0.0023466 0.9993434 -0.0023466 0.9993434 -0.0023466 0.0006566 0.0023466
50138122 0.0006082 0.0024732 0.9993918 -0.0024732 0.9993918 -0.0024732 0.0006082 0.0024732
51240510 0.0005842 0.0026021 0.9994158 -0.0026021 0.9994158 -0.0026021 0.0005842 0.0026021
52367136 0.0005778 0.0027306 0.9994222 -0.0027306 0.9994222 -0.0027306 0.0005778 0.0027306
53518533 0.0005847 0.0028582 0.9994153 -0.0028582 0.9994153 -0.0028582 0.0005847 0.0028582
54695245 0.0006030 0.0029854 0.9993970 -0.0029854 0.9993970 -0.0029854 0.0006030 0.0029854
55897831 0.0006320 0.0031125 0.9993680 -0.0031125 0.9993680 -0.0031125 0.0006320 0.0031125
57126857 0.0006722 0.0032400 0.9993278 -0.0032400 0.9993278 -0.0032400 0.0006722 0.0032400
58382906 0.0007252 0.0033675 0.9992748 -0.0033675 0.9992748 -0.0033675 0.0007252 0.0033675
59666572 0.0007932 0.0034940 0.9992068 -0.0034940 0.9992068 -0.0034940 0.0007932 0.0034940
60978462 0.0008796 0.0036167 0.9991204 -0.0036167 0.9991204 -0.0036167 0.0008796 0.0036167
62319196 0.0009881 0.0037308 0.9990119 -0.0037308 0.9990119 -0.0037308 0.0009881 0.0037308
63689409 0.0011219 0.0038273 0.9988781 -0.0038273 0.9988781 -0.0038273 0.0011219 0.0038273
65089750 0.0012809 0.0038920 0.9987191 -0.0038920 0.9987191 -0.0038920 0.0012809 0.0038920
66520879 0.0014563 0.0039061 0.9985437 -0.0039061 0.9985437 -0.0039061 0.0014563 0.0039061
67983474 0.0016236 0.0038525 0.9983764 -0.0038525 0.9983764 -0.0038525 0.0016236 0.0038525
69478228 0.0017425 0.0037306 0.9982575 -0.0037306 0.9982575 -0.0037306 0.0017425 0.0037306
71005847 0.0017740 0.0035720 0.9982260 -0.0035720 0.9982260 -0.0035720 0.0017740 0.0035720
72567054 0.0017095 0.0034306 0.9982905 -0.0034306 0.9982905 -0.0034306 0.0017095 0.0034306
74162587 0.0015783 0.0033507 0.9984217 -0.0033507 0.9984217 -0.0033507 0.0015783 0.0033507
75793201 0.0014239 0.0033439 0.9985761 -0.0033439 0.9985761 -0.0033439 0.0014239 0.0033439
77459667 0.0012779 0.0033976 0.9987221 -0.0033976 0.9987221 -0.0033976 0.0012779 0.0033976
79162774 0.0011551 0.0034921 0.9988449 -0.0034921 0.9988449 -0.0034921 0.0011551 0.0034921
80903327 0.0010580 0.0036107 0.9989420 -0.0036107 0.9989420 -0.0036107 0.0010580 0.0036107
82682150 0.0009843 0.0037422 0.9990157 -0.0037422 0.9990157 -0.0037422 0.0009843 0.0037422
84500083 0.0009298 0.0038799 0.9990702 -0.0038799 0.9990702 -0.0038799 0.0009298 0.0038799
86357988 0.0008905 0.0040201 0.9991095 -0.0040201 0.9991095 -0.0040201 0.0008905 0.0040201
88256743 0.0008632 0.0041607 0.9991368 -0.0041607 0.9991368 -0.0041607 0.0008632 0.0041607
90197245 0.0008452 0.0043009 0.9991548 -0.0043009 0.9991548 -0.0043009 0.0008452 0.0043009
92180413 0.0008346 0.0044402 0.9991654 -0.0044402 0.9991654 -0.0044402 0.0008346 0.0044402
94207185 0.0008299 0.0045785 0.9991701 -0.0045785 0.9991701 -0.0045785 0.0008299 0.0045785
96278520 0.0008299 0.0047160 0.9991701 -0.0047160 0.9991701 -0.0047160 0.0008299 0.0047160
98395398 0.0008337 0.0048526 0.9991663 -0.0048526 0.9991663 -0.0048526 0.0008337 0.0048526
100558819 0.0008406 0.0049886 0.9991594 -0.0049886 0.9991594 -0.0049886 0.0008406 0.0049886
102769807 0.0008501 0.0051241 0.9991499 -0.0051241 0.9991499 -0.0051241 0.0008501 0.0051241
105029408 0.0008616 0.0052593 0.9991384 -0.0052593 0.9991384 -0.0052593 0.0008616 0.0052593
107338692 0.0008749 0.0053944 0.9991251 -0.0053944 0.9991251 -0.0053944 0.0008749 0.0053944
