!Murata Part Number: GRM31C7U2A104JA01
!These Parameters are Measured in Series Mode Connection
!Data Generated on Mar 30, 2021
!       o--ll--o
!Port1            Port2
!       o------o
!Operation Temp=25[degC], DC Bias Voltage=0[V]
!Freq. Start=1000[kHz] Stop=6[GHz] 401[Steps]
# Hz S RI R 50
!Freq.(Hz) S11(Real) S11(Imag) S21(Real) S21(Imag) S12(Real) S12(Imag) S22(Real) S22(Imag)
1000000 0.0003026 -0.0162138 0.9996974 0.0162138 0.9996974 0.0162138 0.0003026 -0.0162138
1021987 0.0002914 -0.0158622 0.9997086 0.0158622 0.9997086 0.0158622 0.0002914 -0.0158622
1044457 0.0002806 -0.0155182 0.9997194 0.0155182 0.9997194 0.0155182 0.0002806 -0.0155182
1067422 0.0002704 -0.0151815 0.9997296 0.0151815 0.9997296 0.0151815 0.0002704 -0.0151815
1090891 0.0002605 -0.0148519 0.9997395 0.0148519 0.9997395 0.0148519 0.0002605 -0.0148519
1114877 0.0002511 -0.0145294 0.9997489 0.0145294 0.9997489 0.0145294 0.0002511 -0.0145294
1139390 0.0002421 -0.0142137 0.9997579 0.0142137 0.9997579 0.0142137 0.0002421 -0.0142137
1164441 0.0002334 -0.0139047 0.9997666 0.0139047 0.9997666 0.0139047 0.0002334 -0.0139047
1190044 0.0002252 -0.0136023 0.9997748 0.0136023 0.9997748 0.0136023 0.0002252 -0.0136023
1216210 0.0002173 -0.0133064 0.9997827 0.0133064 0.9997827 0.0133064 0.0002173 -0.0133064
1242950 0.0002097 -0.0130167 0.9997903 0.0130167 0.9997903 0.0130167 0.0002097 -0.0130167
1270279 0.0002025 -0.0127331 0.9997975 0.0127331 0.9997975 0.0127331 0.0002025 -0.0127331
1298209 0.0001956 -0.0124556 0.9998044 0.0124556 0.9998044 0.0124556 0.0001956 -0.0124556
1326753 0.0001890 -0.0121840 0.9998110 0.0121840 0.9998110 0.0121840 0.0001890 -0.0121840
1355924 0.0001826 -0.0119181 0.9998174 0.0119181 0.9998174 0.0119181 0.0001826 -0.0119181
1385737 0.0001766 -0.0116579 0.9998234 0.0116579 0.9998234 0.0116579 0.0001766 -0.0116579
1416205 0.0001708 -0.0114032 0.9998292 0.0114032 0.9998292 0.0114032 0.0001708 -0.0114032
1447343 0.0001652 -0.0111538 0.9998348 0.0111538 0.9998348 0.0111538 0.0001652 -0.0111538
1479166 0.0001599 -0.0109098 0.9998401 0.0109098 0.9998401 0.0109098 0.0001599 -0.0109098
1511688 0.0001549 -0.0106709 0.9998451 0.0106709 0.9998451 0.0106709 0.0001549 -0.0106709
1544926 0.0001500 -0.0104370 0.9998500 0.0104370 0.9998500 0.0104370 0.0001500 -0.0104370
1578894 0.0001454 -0.0102081 0.9998546 0.0102081 0.9998546 0.0102081 0.0001454 -0.0102081
1613609 0.0001410 -0.0099840 0.9998590 0.0099840 0.9998590 0.0099840 0.0001410 -0.0099840
1649087 0.0001368 -0.0097646 0.9998632 0.0097646 0.9998632 0.0097646 0.0001368 -0.0097646
1685346 0.0001327 -0.0095498 0.9998673 0.0095498 0.9998673 0.0095498 0.0001327 -0.0095498
1722402 0.0001289 -0.0093396 0.9998711 0.0093396 0.9998711 0.0093396 0.0001289 -0.0093396
1760272 0.0001252 -0.0091338 0.9998748 0.0091338 0.9998748 0.0091338 0.0001252 -0.0091338
1798975 0.0001216 -0.0089323 0.9998784 0.0089323 0.9998784 0.0089323 0.0001216 -0.0089323
1838529 0.0001183 -0.0087350 0.9998817 0.0087350 0.9998817 0.0087350 0.0001183 -0.0087350
1878953 0.0001151 -0.0085418 0.9998849 0.0085418 0.9998849 0.0085418 0.0001151 -0.0085418
1920266 0.0001120 -0.0083527 0.9998880 0.0083527 0.9998880 0.0083527 0.0001120 -0.0083527
1962487 0.0001091 -0.0081676 0.9998909 0.0081676 0.9998909 0.0081676 0.0001091 -0.0081676
2005636 0.0001063 -0.0079863 0.9998937 0.0079863 0.9998937 0.0079863 0.0001063 -0.0079863
2049734 0.0001036 -0.0078088 0.9998964 0.0078088 0.9998964 0.0078088 0.0001036 -0.0078088
2094801 0.0001011 -0.0076350 0.9998989 0.0076350 0.9998989 0.0076350 0.0001011 -0.0076350
2140860 0.0000986 -0.0074648 0.9999014 0.0074648 0.9999014 0.0074648 0.0000986 -0.0074648
2187931 0.0000963 -0.0072981 0.9999037 0.0072981 0.9999037 0.0072981 0.0000963 -0.0072981
2236037 0.0000941 -0.0071349 0.9999059 0.0071349 0.9999059 0.0071349 0.0000941 -0.0071349
2285201 0.0000920 -0.0069751 0.9999080 0.0069751 0.9999080 0.0069751 0.0000920 -0.0069751
2335446 0.0000900 -0.0068185 0.9999100 0.0068185 0.9999100 0.0068185 0.0000900 -0.0068185
2386795 0.0000881 -0.0066652 0.9999119 0.0066652 0.9999119 0.0066652 0.0000881 -0.0066652
2439274 0.0000863 -0.0065151 0.9999137 0.0065151 0.9999137 0.0065151 0.0000863 -0.0065151
2492906 0.0000845 -0.0063680 0.9999155 0.0063680 0.9999155 0.0063680 0.0000845 -0.0063680
2547717 0.0000829 -0.0062240 0.9999171 0.0062240 0.9999171 0.0062240 0.0000829 -0.0062240
2603734 0.0000813 -0.0060829 0.9999187 0.0060829 0.9999187 0.0060829 0.0000813 -0.0060829
2660982 0.0000799 -0.0059447 0.9999201 0.0059447 0.9999201 0.0059447 0.0000799 -0.0059447
2719490 0.0000784 -0.0058093 0.9999216 0.0058093 0.9999216 0.0058093 0.0000784 -0.0058093
2779283 0.0000771 -0.0056766 0.9999229 0.0056766 0.9999229 0.0056766 0.0000771 -0.0056766
2840391 0.0000758 -0.0055467 0.9999242 0.0055467 0.9999242 0.0055467 0.0000758 -0.0055467
2902843 0.0000746 -0.0054193 0.9999254 0.0054193 0.9999254 0.0054193 0.0000746 -0.0054193
2966668 0.0000735 -0.0052946 0.9999265 0.0052946 0.9999265 0.0052946 0.0000735 -0.0052946
3031896 0.0000724 -0.0051723 0.9999276 0.0051723 0.9999276 0.0051723 0.0000724 -0.0051723
3098558 0.0000714 -0.0050525 0.9999286 0.0050525 0.9999286 0.0050525 0.0000714 -0.0050525
3166686 0.0000704 -0.0049351 0.9999296 0.0049351 0.9999296 0.0049351 0.0000704 -0.0049351
3236312 0.0000695 -0.0048200 0.9999305 0.0048200 0.9999305 0.0048200 0.0000695 -0.0048200
3307469 0.0000686 -0.0047072 0.9999314 0.0047072 0.9999314 0.0047072 0.0000686 -0.0047072
3380190 0.0000678 -0.0045967 0.9999322 0.0045967 0.9999322 0.0045967 0.0000678 -0.0045967
3454511 0.0000671 -0.0044883 0.9999329 0.0044883 0.9999329 0.0044883 0.0000671 -0.0044883
3530465 0.0000663 -0.0043820 0.9999337 0.0043820 0.9999337 0.0043820 0.0000663 -0.0043820
3608090 0.0000657 -0.0042779 0.9999343 0.0042779 0.9999343 0.0042779 0.0000657 -0.0042779
3687421 0.0000650 -0.0041757 0.9999350 0.0041757 0.9999350 0.0041757 0.0000650 -0.0041757
3768496 0.0000645 -0.0040755 0.9999355 0.0040755 0.9999355 0.0040755 0.0000645 -0.0040755
3851354 0.0000639 -0.0039773 0.9999361 0.0039773 0.9999361 0.0039773 0.0000639 -0.0039773
3936034 0.0000634 -0.0038809 0.9999366 0.0038809 0.9999366 0.0038809 0.0000634 -0.0038809
4022575 0.0000629 -0.0037864 0.9999371 0.0037864 0.9999371 0.0037864 0.0000629 -0.0037864
4111020 0.0000625 -0.0036937 0.9999375 0.0036937 0.9999375 0.0036937 0.0000625 -0.0036937
4201409 0.0000621 -0.0036027 0.9999379 0.0036027 0.9999379 0.0036027 0.0000621 -0.0036027
4293785 0.0000617 -0.0035134 0.9999383 0.0035134 0.9999383 0.0035134 0.0000617 -0.0035134
4388193 0.0000614 -0.0034258 0.9999386 0.0034258 0.9999386 0.0034258 0.0000614 -0.0034258
4484676 0.0000611 -0.0033398 0.9999389 0.0033398 0.9999389 0.0033398 0.0000611 -0.0033398
4583281 0.0000608 -0.0032554 0.9999392 0.0032554 0.9999392 0.0032554 0.0000608 -0.0032554
4684054 0.0000606 -0.0031726 0.9999394 0.0031726 0.9999394 0.0031726 0.0000606 -0.0031726
4787042 0.0000604 -0.0030912 0.9999396 0.0030912 0.9999396 0.0030912 0.0000604 -0.0030912
4892295 0.0000602 -0.0030113 0.9999398 0.0030113 0.9999398 0.0030113 0.0000602 -0.0030113
4999862 0.0000600 -0.0029328 0.9999400 0.0029328 0.9999400 0.0029328 0.0000600 -0.0029328
5109794 0.0000599 -0.0028557 0.9999401 0.0028557 0.9999401 0.0028557 0.0000599 -0.0028557
5222143 0.0000598 -0.0027800 0.9999402 0.0027800 0.9999402 0.0027800 0.0000598 -0.0027800
5336962 0.0000597 -0.0027056 0.9999403 0.0027056 0.9999403 0.0027056 0.0000597 -0.0027056
5454306 0.0000597 -0.0026324 0.9999403 0.0026324 0.9999403 0.0026324 0.0000597 -0.0026324
5574230 0.0000597 -0.0025605 0.9999403 0.0025605 0.9999403 0.0025605 0.0000597 -0.0025605
5696791 0.0000597 -0.0024899 0.9999403 0.0024899 0.9999403 0.0024899 0.0000597 -0.0024899
5822046 0.0000597 -0.0024203 0.9999403 0.0024203 0.9999403 0.0024203 0.0000597 -0.0024203
5950055 0.0000598 -0.0023520 0.9999402 0.0023520 0.9999402 0.0023520 0.0000598 -0.0023520
6080879 0.0000599 -0.0022847 0.9999401 0.0022847 0.9999401 0.0022847 0.0000599 -0.0022847
6214580 0.0000600 -0.0022185 0.9999400 0.0022185 0.9999400 0.0022185 0.0000600 -0.0022185
6351220 0.0000602 -0.0021534 0.9999398 0.0021534 0.9999398 0.0021534 0.0000602 -0.0021534
6490864 0.0000603 -0.0020892 0.9999397 0.0020892 0.9999397 0.0020892 0.0000603 -0.0020892
6633579 0.0000605 -0.0020261 0.9999395 0.0020261 0.9999395 0.0020261 0.0000605 -0.0020261
6779431 0.0000608 -0.0019639 0.9999392 0.0019639 0.9999392 0.0019639 0.0000608 -0.0019639
6928491 0.0000610 -0.0019026 0.9999390 0.0019026 0.9999390 0.0019026 0.0000610 -0.0019026
7080828 0.0000613 -0.0018422 0.9999387 0.0018422 0.9999387 0.0018422 0.0000613 -0.0018422
7236514 0.0000616 -0.0017827 0.9999384 0.0017827 0.9999384 0.0017827 0.0000616 -0.0017827
7395623 0.0000620 -0.0017240 0.9999380 0.0017240 0.9999380 0.0017240 0.0000620 -0.0017240
7558231 0.0000623 -0.0016661 0.9999377 0.0016661 0.9999377 0.0016661 0.0000623 -0.0016661
7724414 0.0000627 -0.0016090 0.9999373 0.0016090 0.9999373 0.0016090 0.0000627 -0.0016090
7894251 0.0000632 -0.0015526 0.9999368 0.0015526 0.9999368 0.0015526 0.0000632 -0.0015526
8067822 0.0000636 -0.0014970 0.9999364 0.0014970 0.9999364 0.0014970 0.0000636 -0.0014970
8245209 0.0000641 -0.0014420 0.9999359 0.0014420 0.9999359 0.0014420 0.0000641 -0.0014420
8426497 0.0000647 -0.0013877 0.9999353 0.0013877 0.9999353 0.0013877 0.0000647 -0.0013877
8611770 0.0000652 -0.0013341 0.9999348 0.0013341 0.9999348 0.0013341 0.0000652 -0.0013341
8801117 0.0000658 -0.0012811 0.9999342 0.0012811 0.9999342 0.0012811 0.0000658 -0.0012811
8994628 0.0000665 -0.0012286 0.9999335 0.0012286 0.9999335 0.0012286 0.0000665 -0.0012286
9192393 0.0000672 -0.0011767 0.9999328 0.0011767 0.9999328 0.0011767 0.0000672 -0.0011767
9394506 0.0000679 -0.0011253 0.9999321 0.0011253 0.9999321 0.0011253 0.0000679 -0.0011253
9601063 0.0000687 -0.0010745 0.9999313 0.0010745 0.9999313 0.0010745 0.0000687 -0.0010745
9812162 0.0000695 -0.0010241 0.9999305 0.0010241 0.9999305 0.0010241 0.0000695 -0.0010241
10027902 0.0000704 -0.0009741 0.9999296 0.0009741 0.9999296 0.0009741 0.0000704 -0.0009741
10248386 0.0000713 -0.0009246 0.9999287 0.0009246 0.9999287 0.0009246 0.0000713 -0.0009246
10473717 0.0000722 -0.0008755 0.9999278 0.0008755 0.9999278 0.0008755 0.0000722 -0.0008755
10704003 0.0000732 -0.0008267 0.9999268 0.0008267 0.9999268 0.0008267 0.0000732 -0.0008267
10939352 0.0000743 -0.0007783 0.9999257 0.0007783 0.9999257 0.0007783 0.0000743 -0.0007783
11179876 0.0000754 -0.0007302 0.9999246 0.0007302 0.9999246 0.0007302 0.0000754 -0.0007302
11425688 0.0000766 -0.0006824 0.9999234 0.0006824 0.9999234 0.0006824 0.0000766 -0.0006824
11676904 0.0000779 -0.0006349 0.9999221 0.0006349 0.9999221 0.0006349 0.0000779 -0.0006349
11933645 0.0000792 -0.0005876 0.9999208 0.0005876 0.9999208 0.0005876 0.0000792 -0.0005876
12196030 0.0000806 -0.0005405 0.9999194 0.0005405 0.9999194 0.0005405 0.0000806 -0.0005405
12464184 0.0000821 -0.0004935 0.9999179 0.0004935 0.9999179 0.0004935 0.0000821 -0.0004935
12738235 0.0000836 -0.0004467 0.9999164 0.0004467 0.9999164 0.0004467 0.0000836 -0.0004467
13018310 0.0000852 -0.0004001 0.9999148 0.0004001 0.9999148 0.0004001 0.0000852 -0.0004001
13304544 0.0000870 -0.0003535 0.9999130 0.0003535 0.9999130 0.0003535 0.0000870 -0.0003535
13597071 0.0000888 -0.0003070 0.9999112 0.0003070 0.9999112 0.0003070 0.0000888 -0.0003070
13896030 0.0000907 -0.0002605 0.9999093 0.0002605 0.9999093 0.0002605 0.0000907 -0.0002605
14201563 0.0000927 -0.0002139 0.9999073 0.0002139 0.9999073 0.0002139 0.0000927 -0.0002139
14513813 0.0000948 -0.0001673 0.9999052 0.0001673 0.9999052 0.0001673 0.0000948 -0.0001673
14832928 0.0000971 -0.0001207 0.9999029 0.0001207 0.9999029 0.0001207 0.0000971 -0.0001207
15159060 0.0000995 -0.0000739 0.9999005 0.0000739 0.9999005 0.0000739 0.0000995 -0.0000739
15492362 0.0001020 -0.0000269 0.9998980 0.0000269 0.9998980 0.0000269 0.0001020 -0.0000269
15832993 0.0001047 0.0000203 0.9998953 -0.0000203 0.9998953 -0.0000203 0.0001047 0.0000203
16181113 0.0001075 0.0000677 0.9998925 -0.0000677 0.9998925 -0.0000677 0.0001075 0.0000677
16536888 0.0001105 0.0001155 0.9998895 -0.0001155 0.9998895 -0.0001155 0.0001105 0.0001155
16900485 0.0001137 0.0001636 0.9998863 -0.0001636 0.9998863 -0.0001636 0.0001137 0.0001636
17272076 0.0001171 0.0002122 0.9998829 -0.0002122 0.9998829 -0.0002122 0.0001171 0.0002122
17651837 0.0001208 0.0002612 0.9998792 -0.0002612 0.9998792 -0.0002612 0.0001208 0.0002612
18039948 0.0001247 0.0003108 0.9998753 -0.0003108 0.9998753 -0.0003108 0.0001247 0.0003108
18436593 0.0001289 0.0003611 0.9998711 -0.0003611 0.9998711 -0.0003611 0.0001289 0.0003611
18841959 0.0001334 0.0004121 0.9998666 -0.0004121 0.9998666 -0.0004121 0.0001334 0.0004121
19256237 0.0001383 0.0004640 0.9998617 -0.0004640 0.9998617 -0.0004640 0.0001383 0.0004640
19679624 0.0001435 0.0005168 0.9998565 -0.0005168 0.9998565 -0.0005168 0.0001435 0.0005168
20112321 0.0001492 0.0005707 0.9998508 -0.0005707 0.9998508 -0.0005707 0.0001492 0.0005707
20554530 0.0001555 0.0006259 0.9998445 -0.0006259 0.9998445 -0.0006259 0.0001555 0.0006259
21006463 0.0001624 0.0006825 0.9998376 -0.0006825 0.9998376 -0.0006825 0.0001624 0.0006825
21468333 0.0001700 0.0007407 0.9998300 -0.0007407 0.9998300 -0.0007407 0.0001700 0.0007407
21940357 0.0001785 0.0008009 0.9998215 -0.0008009 0.9998215 -0.0008009 0.0001785 0.0008009
22422760 0.0001880 0.0008633 0.9998120 -0.0008633 0.9998120 -0.0008633 0.0001880 0.0008633
22915770 0.0001989 0.0009284 0.9998011 -0.0009284 0.9998011 -0.0009284 0.0001989 0.0009284
23419619 0.0002115 0.0009965 0.9997885 -0.0009965 0.9997885 -0.0009965 0.0002115 0.0009965
23934547 0.0002262 0.0010684 0.9997738 -0.0010684 0.9997738 -0.0010684 0.0002262 0.0010684
24460796 0.0002437 0.0011449 0.9997563 -0.0011449 0.9997563 -0.0011449 0.0002437 0.0011449
24998616 0.0002651 0.0012268 0.9997349 -0.0012268 0.9997349 -0.0012268 0.0002651 0.0012268
25548261 0.0002918 0.0013157 0.9997082 -0.0013157 0.9997082 -0.0013157 0.0002918 0.0013157
26109991 0.0003263 0.0014132 0.9996737 -0.0014132 0.9996737 -0.0014132 0.0003263 0.0014132
26684072 0.0003724 0.0015215 0.9996276 -0.0015215 0.9996276 -0.0015215 0.0003724 0.0015215
27270775 0.0004371 0.0016433 0.9995629 -0.0016433 0.9995629 -0.0016433 0.0004371 0.0016433
27870378 0.0005324 0.0017808 0.9994676 -0.0017808 0.9994676 -0.0017808 0.0005324 0.0017808
28483164 0.0006808 0.0019325 0.9993192 -0.0019325 0.9993192 -0.0019325 0.0006808 0.0019325
29109424 0.0009234 0.0020803 0.9990766 -0.0020803 0.9990766 -0.0020803 0.0009234 0.0020803
29749453 0.0013174 0.0021460 0.9986826 -0.0021460 0.9986826 -0.0021460 0.0013174 0.0021460
30403555 0.0018314 0.0019159 0.9981686 -0.0019159 0.9981686 -0.0019159 0.0018314 0.0019159
31072038 0.0020566 0.0012600 0.9979434 -0.0012600 0.9979434 -0.0012600 0.0020566 0.0012600
31755220 0.0017006 0.0007208 0.9982994 -0.0007208 0.9982994 -0.0007208 0.0017006 0.0007208
32453422 0.0012350 0.0006260 0.9987650 -0.0006260 0.9987650 -0.0006260 0.0012350 0.0006260
33166976 0.0009289 0.0007457 0.9990711 -0.0007457 0.9990711 -0.0007457 0.0009289 0.0007457
33896219 0.0007588 0.0009142 0.9992412 -0.0009142 0.9992412 -0.0009142 0.0007588 0.0009142
34641496 0.0006703 0.0010810 0.9993297 -0.0010810 0.9993297 -0.0010810 0.0006703 0.0010810
35403159 0.0006304 0.0012361 0.9993696 -0.0012361 0.9993696 -0.0012361 0.0006304 0.0012361
36181569 0.0006222 0.0013799 0.9993778 -0.0013799 0.9993778 -0.0013799 0.0006222 0.0013799
36977093 0.0006377 0.0015148 0.9993623 -0.0015148 0.9993623 -0.0015148 0.0006377 0.0015148
37790109 0.0006739 0.0016426 0.9993261 -0.0016426 0.9993261 -0.0016426 0.0006739 0.0016426
38621001 0.0007308 0.0017638 0.9992692 -0.0017638 0.9992692 -0.0017638 0.0007308 0.0017638
39470161 0.0008107 0.0018769 0.9991893 -0.0018769 0.9991893 -0.0018769 0.0008107 0.0018769
40337993 0.0009170 0.0019771 0.9990830 -0.0019771 0.9990830 -0.0019771 0.0009170 0.0019771
41224905 0.0010529 0.0020546 0.9989471 -0.0020546 0.9989471 -0.0020546 0.0010529 0.0020546
42131317 0.0012177 0.0020933 0.9987823 -0.0020933 0.9987823 -0.0020933 0.0012177 0.0020933
43057659 0.0013996 0.0020712 0.9986004 -0.0020712 0.9986004 -0.0020712 0.0013996 0.0020712
44004369 0.0015671 0.0019701 0.9984329 -0.0019701 0.9984329 -0.0019701 0.0015671 0.0019701
44971893 0.0016711 0.0017957 0.9983289 -0.0017957 0.9983289 -0.0017957 0.0016711 0.0017957
45960691 0.0016717 0.0015932 0.9983283 -0.0015932 0.9983283 -0.0015932 0.0016717 0.0015932
46971230 0.0015722 0.0014268 0.9984278 -0.0014268 0.9984278 -0.0014268 0.0015722 0.0014268
48003987 0.0014162 0.0013365 0.9985838 -0.0013365 0.9985838 -0.0013365 0.0014162 0.0013365
49059451 0.0012513 0.0013234 0.9987487 -0.0013234 0.9987487 -0.0013234 0.0012513 0.0013234
50138122 0.0011060 0.0013673 0.9988940 -0.0013673 0.9988940 -0.0013673 0.0011060 0.0013673
51240510 0.0009899 0.0014463 0.9990101 -0.0014463 0.9990101 -0.0014463 0.0009899 0.0014463
52367136 0.0009025 0.0015448 0.9990975 -0.0015448 0.9990975 -0.0015448 0.0009025 0.0015448
53518533 0.0008401 0.0016532 0.9991599 -0.0016532 0.9991599 -0.0016532 0.0008401 0.0016532
54695245 0.0007988 0.0017663 0.9992012 -0.0017663 0.9992012 -0.0017663 0.0007988 0.0017663
55897831 0.0007755 0.0018816 0.9992245 -0.0018816 0.9992245 -0.0018816 0.0007755 0.0018816
57126857 0.0007693 0.0019977 0.9992307 -0.0019977 0.9992307 -0.0019977 0.0007693 0.0019977
58382906 0.0007806 0.0021134 0.9992194 -0.0021134 0.9992194 -0.0021134 0.0007806 0.0021134
59666572 0.0008122 0.0022256 0.9991878 -0.0022256 0.9991878 -0.0022256 0.0008122 0.0022256
60978462 0.0008685 0.0023270 0.9991315 -0.0023270 0.9991315 -0.0023270 0.0008685 0.0023270
62319196 0.0009498 0.0024001 0.9990502 -0.0024001 0.9990502 -0.0024001 0.0009498 0.0024001
63689409 0.0010362 0.0024207 0.9989638 -0.0024207 0.9989638 -0.0024207 0.0010362 0.0024207
65089750 0.0010769 0.0023903 0.9989231 -0.0023903 0.9989231 -0.0023903 0.0010769 0.0023903
66520879 0.0010442 0.0023685 0.9989558 -0.0023685 0.9989558 -0.0023685 0.0010442 0.0023685
67983474 0.0009797 0.0024037 0.9990203 -0.0024037 0.9990203 -0.0024037 0.0009797 0.0024037
69478228 0.0009303 0.0024862 0.9990697 -0.0024862 0.9990697 -0.0024862 0.0009303 0.0024862
71005847 0.0009105 0.0025906 0.9990895 -0.0025906 0.9990895 -0.0025906 0.0009105 0.0025906
72567054 0.0009199 0.0026997 0.9990801 -0.0026997 0.9990801 -0.0026997 0.0009199 0.0026997
74162587 0.0009562 0.0028025 0.9990438 -0.0028025 0.9990438 -0.0028025 0.0009562 0.0028025
75793201 0.0010167 0.0028873 0.9989833 -0.0028873 0.9989833 -0.0028873 0.0010167 0.0028873
77459667 0.0010927 0.0029388 0.9989073 -0.0029388 0.9989073 -0.0029388 0.0010927 0.0029388
79162774 0.0011607 0.0029449 0.9988393 -0.0029449 0.9988393 -0.0029449 0.0011607 0.0029449
80903327 0.0011854 0.0029166 0.9988146 -0.0029166 0.9988146 -0.0029166 0.0011854 0.0029166
82682150 0.0011526 0.0028945 0.9988474 -0.0028945 0.9988474 -0.0028945 0.0011526 0.0028945
84500083 0.0010859 0.0029120 0.9989141 -0.0029120 0.9989141 -0.0029120 0.0010859 0.0029120
86357988 0.0010175 0.0029704 0.9989825 -0.0029704 0.9989825 -0.0029704 0.0010175 0.0029704
88256743 0.0009631 0.0030550 0.9990369 -0.0030550 0.9990369 -0.0030550 0.0009631 0.0030550
90197245 0.0009250 0.0031523 0.9990750 -0.0031523 0.9990750 -0.0031523 0.0009250 0.0031523
92180413 0.0009004 0.0032546 0.9990996 -0.0032546 0.9990996 -0.0032546 0.0009004 0.0032546
94207185 0.0008859 0.0033583 0.9991141 -0.0033583 0.9991141 -0.0033583 0.0008859 0.0033583
96278520 0.0008786 0.0034618 0.9991214 -0.0034618 0.9991214 -0.0034618 0.0008786 0.0034618
98395398 0.0008765 0.0035645 0.9991235 -0.0035645 0.9991235 -0.0035645 0.0008765 0.0035645
100558819 0.0008782 0.0036666 0.9991218 -0.0036666 0.9991218 -0.0036666 0.0008782 0.0036666
102769807 0.0008827 0.0037679 0.9991173 -0.0037679 0.9991173 -0.0037679 0.0008827 0.0037679
105029408 0.0008891 0.0038690 0.9991109 -0.0038690 0.9991109 -0.0038690 0.0008891 0.0038690
107338692 0.0008971 0.0039698 0.9991029 -0.0039698 0.9991029 -0.0039698 0.0008971 0.0039698
