!Murata Part Number: GRM31C5C1E334JE01
!These Parameters are Measured in Series Mode Connection
!Data Generated on Mar 30, 2021
!       o--ll--o
!Port1            Port2
!       o------o
!Operation Temp=25[degC], DC Bias Voltage=0[V]
!Freq. Start=1000[kHz] Stop=6[GHz] 401[Steps]
# Hz S RI R 50
!Freq.(Hz) S11(Real) S11(Imag) S21(Real) S21(Imag) S12(Real) S12(Imag) S22(Real) S22(Imag)
1000000 0.0000483 -0.0047494 0.9999517 0.0047494 0.9999517 0.0047494 0.0000483 -0.0047494
1021987 0.0000476 -0.0046442 0.9999524 0.0046442 0.9999524 0.0046442 0.0000476 -0.0046442
1044457 0.0000469 -0.0045412 0.9999531 0.0045412 0.9999531 0.0045412 0.0000469 -0.0045412
1067422 0.0000462 -0.0044404 0.9999538 0.0044404 0.9999538 0.0044404 0.0000462 -0.0044404
1090891 0.0000456 -0.0043416 0.9999544 0.0043416 0.9999544 0.0043416 0.0000456 -0.0043416
1114877 0.0000450 -0.0042450 0.9999550 0.0042450 0.9999550 0.0042450 0.0000450 -0.0042450
1139390 0.0000444 -0.0041503 0.9999556 0.0041503 0.9999556 0.0041503 0.0000444 -0.0041503
1164441 0.0000439 -0.0040577 0.9999561 0.0040577 0.9999561 0.0040577 0.0000439 -0.0040577
1190044 0.0000434 -0.0039669 0.9999566 0.0039669 0.9999566 0.0039669 0.0000434 -0.0039669
1216210 0.0000430 -0.0038781 0.9999570 0.0038781 0.9999570 0.0038781 0.0000430 -0.0038781
1242950 0.0000425 -0.0037911 0.9999575 0.0037911 0.9999575 0.0037911 0.0000425 -0.0037911
1270279 0.0000422 -0.0037059 0.9999578 0.0037059 0.9999578 0.0037059 0.0000422 -0.0037059
1298209 0.0000418 -0.0036224 0.9999582 0.0036224 0.9999582 0.0036224 0.0000418 -0.0036224
1326753 0.0000415 -0.0035407 0.9999585 0.0035407 0.9999585 0.0035407 0.0000415 -0.0035407
1355924 0.0000412 -0.0034607 0.9999588 0.0034607 0.9999588 0.0034607 0.0000412 -0.0034607
1385737 0.0000409 -0.0033823 0.9999591 0.0033823 0.9999591 0.0033823 0.0000409 -0.0033823
1416205 0.0000406 -0.0033055 0.9999594 0.0033055 0.9999594 0.0033055 0.0000406 -0.0033055
1447343 0.0000404 -0.0032303 0.9999596 0.0032303 0.9999596 0.0032303 0.0000404 -0.0032303
1479166 0.0000402 -0.0031566 0.9999598 0.0031566 0.9999598 0.0031566 0.0000402 -0.0031566
1511688 0.0000400 -0.0030844 0.9999600 0.0030844 0.9999600 0.0030844 0.0000400 -0.0030844
1544926 0.0000398 -0.0030137 0.9999602 0.0030137 0.9999602 0.0030137 0.0000398 -0.0030137
1578894 0.0000396 -0.0029444 0.9999604 0.0029444 0.9999604 0.0029444 0.0000396 -0.0029444
1613609 0.0000395 -0.0028766 0.9999605 0.0028766 0.9999605 0.0028766 0.0000395 -0.0028766
1649087 0.0000394 -0.0028101 0.9999606 0.0028101 0.9999606 0.0028101 0.0000394 -0.0028101
1685346 0.0000393 -0.0027449 0.9999607 0.0027449 0.9999607 0.0027449 0.0000393 -0.0027449
1722402 0.0000392 -0.0026811 0.9999608 0.0026811 0.9999608 0.0026811 0.0000392 -0.0026811
1760272 0.0000391 -0.0026185 0.9999609 0.0026185 0.9999609 0.0026185 0.0000391 -0.0026185
1798975 0.0000391 -0.0025571 0.9999609 0.0025571 0.9999609 0.0025571 0.0000391 -0.0025571
1838529 0.0000391 -0.0024970 0.9999609 0.0024970 0.9999609 0.0024970 0.0000391 -0.0024970
1878953 0.0000390 -0.0024381 0.9999610 0.0024381 0.9999610 0.0024381 0.0000390 -0.0024381
1920266 0.0000390 -0.0023803 0.9999610 0.0023803 0.9999610 0.0023803 0.0000390 -0.0023803
1962487 0.0000390 -0.0023237 0.9999610 0.0023237 0.9999610 0.0023237 0.0000390 -0.0023237
2005636 0.0000390 -0.0022681 0.9999610 0.0022681 0.9999610 0.0022681 0.0000390 -0.0022681
2049734 0.0000391 -0.0022137 0.9999609 0.0022137 0.9999609 0.0022137 0.0000391 -0.0022137
2094801 0.0000391 -0.0021603 0.9999609 0.0021603 0.9999609 0.0021603 0.0000391 -0.0021603
2140860 0.0000391 -0.0021079 0.9999609 0.0021079 0.9999609 0.0021079 0.0000391 -0.0021079
2187931 0.0000392 -0.0020566 0.9999608 0.0020566 0.9999608 0.0020566 0.0000392 -0.0020566
2236037 0.0000393 -0.0020062 0.9999607 0.0020062 0.9999607 0.0020062 0.0000393 -0.0020062
2285201 0.0000393 -0.0019567 0.9999607 0.0019567 0.9999607 0.0019567 0.0000393 -0.0019567
2335446 0.0000394 -0.0019082 0.9999606 0.0019082 0.9999606 0.0019082 0.0000394 -0.0019082
2386795 0.0000395 -0.0018606 0.9999605 0.0018606 0.9999605 0.0018606 0.0000395 -0.0018606
2439274 0.0000396 -0.0018139 0.9999604 0.0018139 0.9999604 0.0018139 0.0000396 -0.0018139
2492906 0.0000398 -0.0017681 0.9999602 0.0017681 0.9999602 0.0017681 0.0000398 -0.0017681
2547717 0.0000399 -0.0017231 0.9999601 0.0017231 0.9999601 0.0017231 0.0000399 -0.0017231
2603734 0.0000400 -0.0016789 0.9999600 0.0016789 0.9999600 0.0016789 0.0000400 -0.0016789
2660982 0.0000402 -0.0016355 0.9999598 0.0016355 0.9999598 0.0016355 0.0000402 -0.0016355
2719490 0.0000403 -0.0015929 0.9999597 0.0015929 0.9999597 0.0015929 0.0000403 -0.0015929
2779283 0.0000405 -0.0015511 0.9999595 0.0015511 0.9999595 0.0015511 0.0000405 -0.0015511
2840391 0.0000407 -0.0015099 0.9999593 0.0015099 0.9999593 0.0015099 0.0000407 -0.0015099
2902843 0.0000409 -0.0014695 0.9999591 0.0014695 0.9999591 0.0014695 0.0000409 -0.0014695
2966668 0.0000411 -0.0014298 0.9999589 0.0014298 0.9999589 0.0014298 0.0000411 -0.0014298
3031896 0.0000413 -0.0013908 0.9999587 0.0013908 0.9999587 0.0013908 0.0000413 -0.0013908
3098558 0.0000415 -0.0013525 0.9999585 0.0013525 0.9999585 0.0013525 0.0000415 -0.0013525
3166686 0.0000418 -0.0013148 0.9999582 0.0013148 0.9999582 0.0013148 0.0000418 -0.0013148
3236312 0.0000420 -0.0012777 0.9999580 0.0012777 0.9999580 0.0012777 0.0000420 -0.0012777
3307469 0.0000422 -0.0012412 0.9999578 0.0012412 0.9999578 0.0012412 0.0000422 -0.0012412
3380190 0.0000425 -0.0012053 0.9999575 0.0012053 0.9999575 0.0012053 0.0000425 -0.0012053
3454511 0.0000428 -0.0011700 0.9999572 0.0011700 0.9999572 0.0011700 0.0000428 -0.0011700
3530465 0.0000431 -0.0011352 0.9999569 0.0011352 0.9999569 0.0011352 0.0000431 -0.0011352
3608090 0.0000434 -0.0011010 0.9999566 0.0011010 0.9999566 0.0011010 0.0000434 -0.0011010
3687421 0.0000437 -0.0010673 0.9999563 0.0010673 0.9999563 0.0010673 0.0000437 -0.0010673
3768496 0.0000440 -0.0010341 0.9999560 0.0010341 0.9999560 0.0010341 0.0000440 -0.0010341
3851354 0.0000443 -0.0010014 0.9999557 0.0010014 0.9999557 0.0010014 0.0000443 -0.0010014
3936034 0.0000447 -0.0009692 0.9999553 0.0009692 0.9999553 0.0009692 0.0000447 -0.0009692
4022575 0.0000451 -0.0009374 0.9999549 0.0009374 0.9999549 0.0009374 0.0000451 -0.0009374
4111020 0.0000454 -0.0009061 0.9999546 0.0009061 0.9999546 0.0009061 0.0000454 -0.0009061
4201409 0.0000458 -0.0008752 0.9999542 0.0008752 0.9999542 0.0008752 0.0000458 -0.0008752
4293785 0.0000462 -0.0008447 0.9999538 0.0008447 0.9999538 0.0008447 0.0000462 -0.0008447
4388193 0.0000467 -0.0008146 0.9999533 0.0008146 0.9999533 0.0008146 0.0000467 -0.0008146
4484676 0.0000471 -0.0007849 0.9999529 0.0007849 0.9999529 0.0007849 0.0000471 -0.0007849
4583281 0.0000475 -0.0007555 0.9999525 0.0007555 0.9999525 0.0007555 0.0000475 -0.0007555
4684054 0.0000480 -0.0007265 0.9999520 0.0007265 0.9999520 0.0007265 0.0000480 -0.0007265
4787042 0.0000485 -0.0006979 0.9999515 0.0006979 0.9999515 0.0006979 0.0000485 -0.0006979
4892295 0.0000490 -0.0006696 0.9999510 0.0006696 0.9999510 0.0006696 0.0000490 -0.0006696
4999862 0.0000495 -0.0006416 0.9999505 0.0006416 0.9999505 0.0006416 0.0000495 -0.0006416
5109794 0.0000501 -0.0006139 0.9999499 0.0006139 0.9999499 0.0006139 0.0000501 -0.0006139
5222143 0.0000506 -0.0005864 0.9999494 0.0005864 0.9999494 0.0005864 0.0000506 -0.0005864
5336962 0.0000512 -0.0005593 0.9999488 0.0005593 0.9999488 0.0005593 0.0000512 -0.0005593
5454306 0.0000518 -0.0005324 0.9999482 0.0005324 0.9999482 0.0005324 0.0000518 -0.0005324
5574230 0.0000524 -0.0005057 0.9999476 0.0005057 0.9999476 0.0005057 0.0000524 -0.0005057
5696791 0.0000531 -0.0004792 0.9999469 0.0004792 0.9999469 0.0004792 0.0000531 -0.0004792
5822046 0.0000538 -0.0004530 0.9999462 0.0004530 0.9999462 0.0004530 0.0000538 -0.0004530
5950055 0.0000545 -0.0004270 0.9999455 0.0004270 0.9999455 0.0004270 0.0000545 -0.0004270
6080879 0.0000552 -0.0004011 0.9999448 0.0004011 0.9999448 0.0004011 0.0000552 -0.0004011
6214580 0.0000559 -0.0003754 0.9999441 0.0003754 0.9999441 0.0003754 0.0000559 -0.0003754
6351220 0.0000567 -0.0003499 0.9999433 0.0003499 0.9999433 0.0003499 0.0000567 -0.0003499
6490864 0.0000575 -0.0003245 0.9999425 0.0003245 0.9999425 0.0003245 0.0000575 -0.0003245
6633579 0.0000583 -0.0002992 0.9999417 0.0002992 0.9999417 0.0002992 0.0000583 -0.0002992
6779431 0.0000592 -0.0002741 0.9999408 0.0002741 0.9999408 0.0002741 0.0000592 -0.0002741
6928491 0.0000601 -0.0002490 0.9999399 0.0002490 0.9999399 0.0002490 0.0000601 -0.0002490
7080828 0.0000611 -0.0002240 0.9999389 0.0002240 0.9999389 0.0002240 0.0000611 -0.0002240
7236514 0.0000620 -0.0001990 0.9999380 0.0001990 0.9999380 0.0001990 0.0000620 -0.0001990
7395623 0.0000630 -0.0001741 0.9999370 0.0001741 0.9999370 0.0001741 0.0000630 -0.0001741
7558231 0.0000641 -0.0001493 0.9999359 0.0001493 0.9999359 0.0001493 0.0000641 -0.0001493
7724414 0.0000652 -0.0001244 0.9999348 0.0001244 0.9999348 0.0001244 0.0000652 -0.0001244
7894251 0.0000664 -0.0000995 0.9999336 0.0000995 0.9999336 0.0000995 0.0000664 -0.0000995
8067822 0.0000676 -0.0000745 0.9999324 0.0000745 0.9999324 0.0000745 0.0000676 -0.0000745
8245209 0.0000689 -0.0000495 0.9999311 0.0000495 0.9999311 0.0000495 0.0000689 -0.0000495
8426497 0.0000702 -0.0000245 0.9999298 0.0000245 0.9999298 0.0000245 0.0000702 -0.0000245
8611770 0.0000716 0.0000007 0.9999284 -0.0000007 0.9999284 -0.0000007 0.0000716 0.0000007
8801117 0.0000731 0.0000260 0.9999269 -0.0000260 0.9999269 -0.0000260 0.0000731 0.0000260
8994628 0.0000746 0.0000515 0.9999254 -0.0000515 0.9999254 -0.0000515 0.0000746 0.0000515
9192393 0.0000763 0.0000772 0.9999237 -0.0000772 0.9999237 -0.0000772 0.0000763 0.0000772
9394506 0.0000780 0.0001031 0.9999220 -0.0001031 0.9999220 -0.0001031 0.0000780 0.0001031
9601063 0.0000799 0.0001293 0.9999201 -0.0001293 0.9999201 -0.0001293 0.0000799 0.0001293
9812162 0.0000819 0.0001557 0.9999181 -0.0001557 0.9999181 -0.0001557 0.0000819 0.0001557
10027902 0.0000840 0.0001826 0.9999160 -0.0001826 0.9999160 -0.0001826 0.0000840 0.0001826
10248386 0.0000863 0.0002098 0.9999137 -0.0002098 0.9999137 -0.0002098 0.0000863 0.0002098
10473717 0.0000888 0.0002375 0.9999112 -0.0002375 0.9999112 -0.0002375 0.0000888 0.0002375
10704003 0.0000915 0.0002657 0.9999085 -0.0002657 0.9999085 -0.0002657 0.0000915 0.0002657
10939352 0.0000945 0.0002945 0.9999055 -0.0002945 0.9999055 -0.0002945 0.0000945 0.0002945
11179876 0.0000978 0.0003240 0.9999022 -0.0003240 0.9999022 -0.0003240 0.0000978 0.0003240
11425688 0.0001014 0.0003543 0.9998986 -0.0003543 0.9998986 -0.0003543 0.0001014 0.0003543
11676904 0.0001055 0.0003855 0.9998945 -0.0003855 0.9998945 -0.0003855 0.0001055 0.0003855
11933645 0.0001101 0.0004177 0.9998899 -0.0004177 0.9998899 -0.0004177 0.0001101 0.0004177
12196030 0.0001153 0.0004512 0.9998847 -0.0004512 0.9998847 -0.0004512 0.0001153 0.0004512
12464184 0.0001214 0.0004861 0.9998786 -0.0004861 0.9998786 -0.0004861 0.0001214 0.0004861
12738235 0.0001287 0.0005228 0.9998713 -0.0005228 0.9998713 -0.0005228 0.0001287 0.0005228
13018310 0.0001373 0.0005615 0.9998627 -0.0005615 0.9998627 -0.0005615 0.0001373 0.0005615
13304544 0.0001479 0.0006026 0.9998521 -0.0006026 0.9998521 -0.0006026 0.0001479 0.0006026
13597071 0.0001611 0.0006466 0.9998389 -0.0006466 0.9998389 -0.0006466 0.0001611 0.0006466
13896030 0.0001781 0.0006942 0.9998219 -0.0006942 0.9998219 -0.0006942 0.0001781 0.0006942
14201563 0.0002007 0.0007460 0.9997993 -0.0007460 0.9997993 -0.0007460 0.0002007 0.0007460
14513813 0.0002316 0.0008025 0.9997684 -0.0008025 0.9997684 -0.0008025 0.0002316 0.0008025
14832928 0.0002756 0.0008640 0.9997244 -0.0008640 0.9997244 -0.0008640 0.0002756 0.0008640
15159060 0.0003405 0.0009284 0.9996595 -0.0009284 0.9996595 -0.0009284 0.0003405 0.0009284
15492362 0.0004385 0.0009876 0.9995615 -0.0009876 0.9995615 -0.0009876 0.0004385 0.0009876
15832993 0.0005837 0.0010172 0.9994163 -0.0010172 0.9994163 -0.0010172 0.0005837 0.0010172
16181113 0.0007678 0.0009617 0.9992322 -0.0009617 0.9992322 -0.0009617 0.0007678 0.0009617
16536888 0.0009008 0.0007707 0.9990992 -0.0007707 0.9990992 -0.0007707 0.0009008 0.0007707
16900485 0.0008575 0.0005359 0.9991425 -0.0005359 0.9991425 -0.0005359 0.0008575 0.0005359
17272076 0.0006918 0.0004178 0.9993082 -0.0004178 0.9993082 -0.0004178 0.0006918 0.0004178
17651837 0.0005346 0.0004201 0.9994654 -0.0004201 0.9994654 -0.0004201 0.0005346 0.0004201
18039948 0.0004273 0.0004781 0.9995727 -0.0004781 0.9995727 -0.0004781 0.0004273 0.0004781
18436593 0.0003618 0.0005531 0.9996382 -0.0005531 0.9996382 -0.0005531 0.0003618 0.0005531
18841959 0.0003244 0.0006309 0.9996756 -0.0006309 0.9996756 -0.0006309 0.0003244 0.0006309
19256237 0.0003058 0.0007080 0.9996942 -0.0007080 0.9996942 -0.0007080 0.0003058 0.0007080
19679624 0.0003011 0.0007840 0.9996989 -0.0007840 0.9996989 -0.0007840 0.0003011 0.0007840
20112321 0.0003079 0.0008599 0.9996921 -0.0008599 0.9996921 -0.0008599 0.0003079 0.0008599
20554530 0.0003265 0.0009370 0.9996735 -0.0009370 0.9996735 -0.0009370 0.0003265 0.0009370
21006463 0.0003588 0.0010160 0.9996412 -0.0010160 0.9996412 -0.0010160 0.0003588 0.0010160
21468333 0.0004095 0.0010968 0.9995905 -0.0010968 0.9995905 -0.0010968 0.0004095 0.0010968
21940357 0.0004865 0.0011764 0.9995135 -0.0011764 0.9995135 -0.0011764 0.0004865 0.0011764
22422760 0.0006014 0.0012444 0.9993986 -0.0012444 0.9993986 -0.0012444 0.0006014 0.0012444
22915770 0.0007651 0.0012740 0.9992349 -0.0012740 0.9992349 -0.0012740 0.0007651 0.0012740
23419619 0.0009645 0.0012131 0.9990355 -0.0012131 0.9990355 -0.0012131 0.0009645 0.0012131
23934547 0.0011177 0.0010164 0.9988823 -0.0010164 0.9988823 -0.0010164 0.0011177 0.0010164
24460796 0.0011047 0.0007530 0.9988953 -0.0007530 0.9988953 -0.0007530 0.0011047 0.0007530
24998616 0.0009406 0.0005788 0.9990594 -0.0005788 0.9990594 -0.0005788 0.0009406 0.0005788
25548261 0.0007496 0.0005382 0.9992504 -0.0005382 0.9992504 -0.0005382 0.0007496 0.0005382
26109991 0.0006001 0.0005784 0.9993999 -0.0005784 0.9993999 -0.0005784 0.0006001 0.0005784
26684072 0.0004982 0.0006511 0.9995018 -0.0006511 0.9995018 -0.0006511 0.0004982 0.0006511
27270775 0.0004321 0.0007331 0.9995679 -0.0007331 0.9995679 -0.0007331 0.0004321 0.0007331
27870378 0.0003905 0.0008155 0.9996095 -0.0008155 0.9996095 -0.0008155 0.0003905 0.0008155
28483164 0.0003661 0.0008959 0.9996339 -0.0008959 0.9996339 -0.0008959 0.0003661 0.0008959
29109424 0.0003546 0.0009743 0.9996454 -0.0009743 0.9996454 -0.0009743 0.0003546 0.0009743
29749453 0.0003546 0.0010514 0.9996454 -0.0010514 0.9996454 -0.0010514 0.0003546 0.0010514
30403555 0.0003666 0.0011277 0.9996334 -0.0011277 0.9996334 -0.0011277 0.0003666 0.0011277
31072038 0.0003942 0.0012019 0.9996058 -0.0012019 0.9996058 -0.0012019 0.0003942 0.0012019
31755220 0.0004433 0.0012673 0.9995567 -0.0012673 0.9995567 -0.0012673 0.0004433 0.0012673
32453422 0.0005159 0.0013036 0.9994841 -0.0013036 0.9994841 -0.0013036 0.0005159 0.0013036
33166976 0.0005801 0.0012826 0.9994199 -0.0012826 0.9994199 -0.0012826 0.0005801 0.0012826
33896219 0.0005755 0.0012368 0.9994245 -0.0012368 0.9994245 -0.0012368 0.0005755 0.0012368
34641496 0.0005245 0.0012411 0.9994755 -0.0012411 0.9994755 -0.0012411 0.0005245 0.0012411
35403159 0.0004869 0.0012928 0.9995131 -0.0012928 0.9995131 -0.0012928 0.0004869 0.0012928
36181569 0.0004778 0.0013616 0.9995222 -0.0013616 0.9995222 -0.0013616 0.0004778 0.0013616
36977093 0.0004933 0.0014313 0.9995067 -0.0014313 0.9995067 -0.0014313 0.0004933 0.0014313
37790109 0.0005299 0.0014937 0.9994701 -0.0014937 0.9994701 -0.0014937 0.0005299 0.0014937
38621001 0.0005853 0.0015407 0.9994147 -0.0015407 0.9994147 -0.0015407 0.0005853 0.0015407
39470161 0.0006535 0.0015611 0.9993465 -0.0015611 0.9993465 -0.0015611 0.0006535 0.0015611
40337993 0.0007189 0.0015443 0.9992811 -0.0015443 0.9992811 -0.0015443 0.0007189 0.0015443
41224905 0.0007548 0.0014931 0.9992452 -0.0014931 0.9992452 -0.0014931 0.0007548 0.0014931
42131317 0.0007418 0.0014337 0.9992582 -0.0014337 0.9992582 -0.0014337 0.0007418 0.0014337
43057659 0.0006882 0.0013987 0.9993118 -0.0013987 0.9993118 -0.0013987 0.0006882 0.0013987
44004369 0.0006199 0.0014008 0.9993801 -0.0014008 0.9993801 -0.0014008 0.0006199 0.0014008
44971893 0.0005571 0.0014325 0.9994429 -0.0014325 0.9994429 -0.0014325 0.0005571 0.0014325
45960691 0.0005072 0.0014820 0.9994928 -0.0014820 0.9994928 -0.0014820 0.0005072 0.0014820
46971230 0.0004702 0.0015401 0.9995298 -0.0015401 0.9995298 -0.0015401 0.0004702 0.0015401
48003987 0.0004438 0.0016017 0.9995562 -0.0016017 0.9995562 -0.0016017 0.0004438 0.0016017
49059451 0.0004253 0.0016642 0.9995747 -0.0016642 0.9995747 -0.0016642 0.0004253 0.0016642
50138122 0.0004127 0.0017265 0.9995873 -0.0017265 0.9995873 -0.0017265 0.0004127 0.0017265
51240510 0.0004044 0.0017881 0.9995956 -0.0017881 0.9995956 -0.0017881 0.0004044 0.0017881
52367136 0.0003994 0.0018490 0.9996006 -0.0018490 0.9996006 -0.0018490 0.0003994 0.0018490
53518533 0.0003967 0.0019092 0.9996033 -0.0019092 0.9996033 -0.0019092 0.0003967 0.0019092
54695245 0.0003958 0.0019688 0.9996042 -0.0019688 0.9996042 -0.0019688 0.0003958 0.0019688
55897831 0.0003964 0.0020280 0.9996036 -0.0020280 0.9996036 -0.0020280 0.0003964 0.0020280
57126857 0.0003980 0.0020869 0.9996020 -0.0020869 0.9996020 -0.0020869 0.0003980 0.0020869
58382906 0.0004006 0.0021457 0.9995994 -0.0021457 0.9995994 -0.0021457 0.0004006 0.0021457
59666572 0.0004038 0.0022046 0.9995962 -0.0022046 0.9995962 -0.0022046 0.0004038 0.0022046
60978462 0.0004076 0.0022635 0.9995924 -0.0022635 0.9995924 -0.0022635 0.0004076 0.0022635
62319196 0.0004118 0.0023227 0.9995882 -0.0023227 0.9995882 -0.0023227 0.0004118 0.0023227
63689409 0.0004164 0.0023822 0.9995836 -0.0023822 0.9995836 -0.0023822 0.0004164 0.0023822
65089750 0.0004213 0.0024422 0.9995787 -0.0024422 0.9995787 -0.0024422 0.0004213 0.0024422
66520879 0.0004264 0.0025026 0.9995736 -0.0025026 0.9995736 -0.0025026 0.0004264 0.0025026
67983474 0.0004318 0.0025636 0.9995682 -0.0025636 0.9995682 -0.0025636 0.0004318 0.0025636
69478228 0.0004373 0.0026252 0.9995627 -0.0026252 0.9995627 -0.0026252 0.0004373 0.0026252
71005847 0.0004430 0.0026875 0.9995570 -0.0026875 0.9995570 -0.0026875 0.0004430 0.0026875
72567054 0.0004487 0.0027506 0.9995513 -0.0027506 0.9995513 -0.0027506 0.0004487 0.0027506
74162587 0.0004546 0.0028145 0.9995454 -0.0028145 0.9995454 -0.0028145 0.0004546 0.0028145
75793201 0.0004605 0.0028793 0.9995395 -0.0028793 0.9995395 -0.0028793 0.0004605 0.0028793
77459667 0.0004665 0.0029449 0.9995335 -0.0029449 0.9995335 -0.0029449 0.0004665 0.0029449
79162774 0.0004725 0.0030116 0.9995275 -0.0030116 0.9995275 -0.0030116 0.0004725 0.0030116
80903327 0.0004785 0.0030793 0.9995215 -0.0030793 0.9995215 -0.0030793 0.0004785 0.0030793
82682150 0.0004846 0.0031481 0.9995154 -0.0031481 0.9995154 -0.0031481 0.0004846 0.0031481
84500083 0.0004906 0.0032180 0.9995094 -0.0032180 0.9995094 -0.0032180 0.0004906 0.0032180
86357988 0.0004967 0.0032891 0.9995033 -0.0032891 0.9995033 -0.0032891 0.0004967 0.0032891
88256743 0.0005027 0.0033614 0.9994973 -0.0033614 0.9994973 -0.0033614 0.0005027 0.0033614
90197245 0.0005088 0.0034349 0.9994912 -0.0034349 0.9994912 -0.0034349 0.0005088 0.0034349
92180413 0.0005148 0.0035098 0.9994852 -0.0035098 0.9994852 -0.0035098 0.0005148 0.0035098
94207185 0.0005208 0.0035861 0.9994792 -0.0035861 0.9994792 -0.0035861 0.0005208 0.0035861
96278520 0.0005267 0.0036637 0.9994733 -0.0036637 0.9994733 -0.0036637 0.0005267 0.0036637
98395398 0.0005326 0.0037429 0.9994674 -0.0037429 0.9994674 -0.0037429 0.0005326 0.0037429
100558819 0.0005385 0.0038235 0.9994615 -0.0038235 0.9994615 -0.0038235 0.0005385 0.0038235
102769807 0.0005443 0.0039057 0.9994557 -0.0039057 0.9994557 -0.0039057 0.0005443 0.0039057
105029408 0.0005501 0.0039895 0.9994499 -0.0039895 0.9994499 -0.0039895 0.0005501 0.0039895
107338692 0.0005559 0.0040750 0.9994441 -0.0040750 0.9994441 -0.0040750 0.0005559 0.0040750
