!Murata Part Number: GRM31A7U3D560JW31
!These Parameters are Measured in Series Mode Connection
!Data Generated on Mar 30, 2021
!       o--ll--o
!Port1            Port2
!       o------o
!Operation Temp=25[degC], DC Bias Voltage=0[V]
!Freq. Start=100[MHz] Stop=3[GHz] 401[Steps]
# Hz S RI R 50
!Freq.(Hz) S11(Real) S11(Imag) S21(Real) S21(Imag) S12(Real) S12(Imag) S22(Real) S22(Imag)
100000000 0.0733506 -0.2583131 0.9266494 0.2583131 0.9266494 0.2583131 0.0733506 -0.2583131
107250000 0.0642183 -0.2425605 0.9357817 0.2425605 0.9357817 0.2425605 0.0642183 -0.2425605
114500000 0.0566321 -0.2283724 0.9433679 0.2283724 0.9433679 0.2283724 0.0566321 -0.2283724
121750000 0.0502681 -0.2155448 0.9497319 0.2155448 0.9497319 0.2155448 0.0502681 -0.2155448
129000000 0.0448818 -0.2039022 0.9551182 0.2039022 0.9551182 0.2039022 0.0448818 -0.2039022
136250000 0.0402857 -0.1932946 0.9597143 0.1932946 0.9597143 0.1932946 0.0402857 -0.1932946
143500000 0.0363348 -0.1835938 0.9636652 0.1835938 0.9636652 0.1835938 0.0363348 -0.1835938
150750000 0.0329155 -0.1746904 0.9670845 0.1746904 0.9670845 0.1746904 0.0329155 -0.1746904
158000000 0.0299377 -0.1664908 0.9700623 0.1664908 0.9700623 0.1664908 0.0299377 -0.1664908
165250000 0.0273297 -0.1589147 0.9726703 0.1589147 0.9726703 0.1589147 0.0273297 -0.1589147
172500000 0.0250334 -0.1518931 0.9749666 0.1518931 0.9749666 0.1518931 0.0250334 -0.1518931
179750000 0.0230017 -0.1453662 0.9769983 0.1453662 0.9769983 0.1453662 0.0230017 -0.1453662
187000000 0.0211961 -0.1392825 0.9788039 0.1392825 0.9788039 0.1392825 0.0211961 -0.1392825
194250000 0.0195848 -0.1335969 0.9804152 0.1335969 0.9804152 0.1335969 0.0195848 -0.1335969
201500000 0.0181412 -0.1282702 0.9818588 0.1282702 0.9818588 0.1282702 0.0181412 -0.1282702
208750000 0.0168433 -0.1232680 0.9831567 0.1232680 0.9831567 0.1232680 0.0168433 -0.1232680
216000000 0.0156724 -0.1185601 0.9843276 0.1185601 0.9843276 0.1185601 0.0156724 -0.1185601
223250000 0.0146128 -0.1141198 0.9853872 0.1141198 0.9853872 0.1141198 0.0146128 -0.1141198
230500000 0.0136511 -0.1099234 0.9863489 0.1099234 0.9863489 0.1099234 0.0136511 -0.1099234
237750000 0.0127760 -0.1059501 0.9872240 0.1059501 0.9872240 0.1059501 0.0127760 -0.1059501
245000000 0.0119775 -0.1021811 0.9880225 0.1021811 0.9880225 0.1021811 0.0119775 -0.1021811
252250000 0.0112473 -0.0985998 0.9887527 0.0985998 0.9887527 0.0985998 0.0112473 -0.0985998
259500000 0.0105780 -0.0951912 0.9894220 0.0951912 0.9894220 0.0951912 0.0105780 -0.0951912
266750000 0.0099633 -0.0919420 0.9900367 0.0919420 0.9900367 0.0919420 0.0099633 -0.0919420
274000000 0.0093976 -0.0888400 0.9906024 0.0888400 0.9906024 0.0888400 0.0093976 -0.0888400
281250000 0.0088760 -0.0858744 0.9911240 0.0858744 0.9911240 0.0858744 0.0088760 -0.0858744
288500000 0.0083944 -0.0830352 0.9916056 0.0830352 0.9916056 0.0830352 0.0083944 -0.0830352
295750000 0.0079488 -0.0803135 0.9920512 0.0803135 0.9920512 0.0803135 0.0079488 -0.0803135
303000000 0.0075360 -0.0777013 0.9924640 0.0777013 0.9924640 0.0777013 0.0075360 -0.0777013
310250000 0.0071531 -0.0751910 0.9928469 0.0751910 0.9928469 0.0751910 0.0071531 -0.0751910
317500000 0.0067974 -0.0727760 0.9932026 0.0727760 0.9932026 0.0727760 0.0067974 -0.0727760
324750000 0.0064666 -0.0704500 0.9935334 0.0704500 0.9935334 0.0704500 0.0064666 -0.0704500
332000000 0.0061586 -0.0682073 0.9938414 0.0682073 0.9938414 0.0682073 0.0061586 -0.0682073
339250000 0.0058716 -0.0660429 0.9941284 0.0660429 0.9941284 0.0660429 0.0058716 -0.0660429
346500000 0.0056038 -0.0639519 0.9943962 0.0639519 0.9943962 0.0639519 0.0056038 -0.0639519
353750000 0.0053537 -0.0619298 0.9946463 0.0619298 0.9946463 0.0619298 0.0053537 -0.0619298
361000000 0.0051200 -0.0599728 0.9948800 0.0599728 0.9948800 0.0599728 0.0051200 -0.0599728
368250000 0.0049015 -0.0580769 0.9950985 0.0580769 0.9950985 0.0580769 0.0049015 -0.0580769
375500000 0.0046970 -0.0562387 0.9953030 0.0562387 0.9953030 0.0562387 0.0046970 -0.0562387
382750000 0.0045055 -0.0544551 0.9954945 0.0544551 0.9954945 0.0544551 0.0045055 -0.0544551
390000000 0.0043262 -0.0527230 0.9956738 0.0527230 0.9956738 0.0527230 0.0043262 -0.0527230
397250000 0.0041581 -0.0510396 0.9958419 0.0510396 0.9958419 0.0510396 0.0041581 -0.0510396
404500000 0.0040005 -0.0494024 0.9959995 0.0494024 0.9959995 0.0494024 0.0040005 -0.0494024
411750000 0.0038527 -0.0478090 0.9961473 0.0478090 0.9961473 0.0478090 0.0038527 -0.0478090
419000000 0.0037141 -0.0462572 0.9962859 0.0462572 0.9962859 0.0462572 0.0037141 -0.0462572
426250000 0.0035841 -0.0447448 0.9964159 0.0447448 0.9964159 0.0447448 0.0035841 -0.0447448
433500000 0.0034621 -0.0432699 0.9965379 0.0432699 0.9965379 0.0432699 0.0034621 -0.0432699
440750000 0.0033477 -0.0418307 0.9966523 0.0418307 0.9966523 0.0418307 0.0033477 -0.0418307
448000000 0.0032404 -0.0404255 0.9967596 0.0404255 0.9967596 0.0404255 0.0032404 -0.0404255
455250000 0.0031397 -0.0390526 0.9968603 0.0390526 0.9968603 0.0390526 0.0031397 -0.0390526
462500000 0.0030454 -0.0377106 0.9969546 0.0377106 0.9969546 0.0377106 0.0030454 -0.0377106
469750000 0.0029570 -0.0363980 0.9970430 0.0363980 0.9970430 0.0363980 0.0029570 -0.0363980
477000000 0.0028743 -0.0351135 0.9971257 0.0351135 0.9971257 0.0351135 0.0028743 -0.0351135
484250000 0.0027968 -0.0338558 0.9972032 0.0338558 0.9972032 0.0338558 0.0027968 -0.0338558
491500000 0.0027244 -0.0326239 0.9972756 0.0326239 0.9972756 0.0326239 0.0027244 -0.0326239
498750000 0.0026567 -0.0314164 0.9973433 0.0314164 0.9973433 0.0314164 0.0026567 -0.0314164
506000000 0.0025935 -0.0302325 0.9974065 0.0302325 0.9974065 0.0302325 0.0025935 -0.0302325
513250000 0.0025347 -0.0290711 0.9974653 0.0290711 0.9974653 0.0290711 0.0025347 -0.0290711
520500000 0.0024799 -0.0279313 0.9975201 0.0279313 0.9975201 0.0279313 0.0024799 -0.0279313
527750000 0.0024290 -0.0268121 0.9975710 0.0268121 0.9975710 0.0268121 0.0024290 -0.0268121
535000000 0.0023818 -0.0257128 0.9976182 0.0257128 0.9976182 0.0257128 0.0023818 -0.0257128
542250000 0.0023382 -0.0246326 0.9976618 0.0246326 0.9976618 0.0246326 0.0023382 -0.0246326
549500000 0.0022979 -0.0235706 0.9977021 0.0235706 0.9977021 0.0235706 0.0022979 -0.0235706
556750000 0.0022608 -0.0225262 0.9977392 0.0225262 0.9977392 0.0225262 0.0022608 -0.0225262
564000000 0.0022268 -0.0214987 0.9977732 0.0214987 0.9977732 0.0214987 0.0022268 -0.0214987
571250000 0.0021958 -0.0204875 0.9978042 0.0204875 0.9978042 0.0204875 0.0021958 -0.0204875
578500000 0.0021676 -0.0194919 0.9978324 0.0194919 0.9978324 0.0194919 0.0021676 -0.0194919
585750000 0.0021421 -0.0185114 0.9978579 0.0185114 0.9978579 0.0185114 0.0021421 -0.0185114
593000000 0.0021192 -0.0175453 0.9978808 0.0175453 0.9978808 0.0175453 0.0021192 -0.0175453
600250000 0.0020989 -0.0165932 0.9979011 0.0165932 0.9979011 0.0165932 0.0020989 -0.0165932
607500000 0.0020809 -0.0156546 0.9979191 0.0156546 0.9979191 0.0156546 0.0020809 -0.0156546
614750000 0.0020652 -0.0147290 0.9979348 0.0147290 0.9979348 0.0147290 0.0020652 -0.0147290
622000000 0.0020518 -0.0138158 0.9979482 0.0138158 0.9979482 0.0138158 0.0020518 -0.0138158
629250000 0.0020406 -0.0129148 0.9979594 0.0129148 0.9979594 0.0129148 0.0020406 -0.0129148
636500000 0.0020314 -0.0120254 0.9979686 0.0120254 0.9979686 0.0120254 0.0020314 -0.0120254
643750000 0.0020242 -0.0111473 0.9979758 0.0111473 0.9979758 0.0111473 0.0020242 -0.0111473
651000000 0.0020190 -0.0102800 0.9979810 0.0102800 0.9979810 0.0102800 0.0020190 -0.0102800
658250000 0.0020157 -0.0094233 0.9979843 0.0094233 0.9979843 0.0094233 0.0020157 -0.0094233
665500000 0.0020141 -0.0085767 0.9979859 0.0085767 0.9979859 0.0085767 0.0020141 -0.0085767
672750000 0.0020144 -0.0077400 0.9979856 0.0077400 0.9979856 0.0077400 0.0020144 -0.0077400
680000000 0.0020163 -0.0069127 0.9979837 0.0069127 0.9979837 0.0069127 0.0020163 -0.0069127
687250000 0.0020199 -0.0060946 0.9979801 0.0060946 0.9979801 0.0060946 0.0020199 -0.0060946
694500000 0.0020252 -0.0052855 0.9979748 0.0052855 0.9979748 0.0052855 0.0020252 -0.0052855
701750000 0.0020320 -0.0044849 0.9979680 0.0044849 0.9979680 0.0044849 0.0020320 -0.0044849
709000000 0.0020403 -0.0036927 0.9979597 0.0036927 0.9979597 0.0036927 0.0020403 -0.0036927
716250000 0.0020501 -0.0029086 0.9979499 0.0029086 0.9979499 0.0029086 0.0020501 -0.0029086
723500000 0.0020613 -0.0021323 0.9979387 0.0021323 0.9979387 0.0021323 0.0020613 -0.0021323
730750000 0.0020740 -0.0013635 0.9979260 0.0013635 0.9979260 0.0013635 0.0020740 -0.0013635
738000000 0.0020881 -0.0006022 0.9979119 0.0006022 0.9979119 0.0006022 0.0020881 -0.0006022
745250000 0.0021035 0.0001521 0.9978965 -0.0001521 0.9978965 -0.0001521 0.0021035 0.0001521
752500000 0.0021202 0.0008994 0.9978798 -0.0008994 0.9978798 -0.0008994 0.0021202 0.0008994
759750000 0.0021382 0.0016400 0.9978618 -0.0016400 0.9978618 -0.0016400 0.0021382 0.0016400
767000000 0.0021574 0.0023742 0.9978426 -0.0023742 0.9978426 -0.0023742 0.0021574 0.0023742
774250000 0.0021779 0.0031020 0.9978221 -0.0031020 0.9978221 -0.0031020 0.0021779 0.0031020
781500000 0.0021996 0.0038236 0.9978004 -0.0038236 0.9978004 -0.0038236 0.0021996 0.0038236
788750000 0.0022225 0.0045394 0.9977775 -0.0045394 0.9977775 -0.0045394 0.0022225 0.0045394
796000000 0.0022466 0.0052493 0.9977534 -0.0052493 0.9977534 -0.0052493 0.0022466 0.0052493
803250000 0.0022718 0.0059537 0.9977282 -0.0059537 0.9977282 -0.0059537 0.0022718 0.0059537
810500000 0.0022981 0.0066526 0.9977019 -0.0066526 0.9977019 -0.0066526 0.0022981 0.0066526
817750000 0.0023255 0.0073462 0.9976745 -0.0073462 0.9976745 -0.0073462 0.0023255 0.0073462
825000000 0.0023540 0.0080347 0.9976460 -0.0080347 0.9976460 -0.0080347 0.0023540 0.0080347
832250000 0.0023836 0.0087182 0.9976164 -0.0087182 0.9976164 -0.0087182 0.0023836 0.0087182
839500000 0.0024142 0.0093968 0.9975858 -0.0093968 0.9975858 -0.0093968 0.0024142 0.0093968
846750000 0.0024458 0.0100707 0.9975542 -0.0100707 0.9975542 -0.0100707 0.0024458 0.0100707
854000000 0.0024785 0.0107400 0.9975215 -0.0107400 0.9975215 -0.0107400 0.0024785 0.0107400
861250000 0.0025122 0.0114048 0.9974878 -0.0114048 0.9974878 -0.0114048 0.0025122 0.0114048
868500000 0.0025469 0.0120653 0.9974531 -0.0120653 0.9974531 -0.0120653 0.0025469 0.0120653
875750000 0.0025825 0.0127216 0.9974175 -0.0127216 0.9974175 -0.0127216 0.0025825 0.0127216
883000000 0.0026192 0.0133738 0.9973808 -0.0133738 0.9973808 -0.0133738 0.0026192 0.0133738
890250000 0.0026568 0.0140220 0.9973432 -0.0140220 0.9973432 -0.0140220 0.0026568 0.0140220
897500000 0.0026953 0.0146663 0.9973047 -0.0146663 0.9973047 -0.0146663 0.0026953 0.0146663
904750000 0.0027348 0.0153068 0.9972652 -0.0153068 0.9972652 -0.0153068 0.0027348 0.0153068
912000000 0.0027752 0.0159436 0.9972248 -0.0159436 0.9972248 -0.0159436 0.0027752 0.0159436
919250000 0.0028166 0.0165769 0.9971834 -0.0165769 0.9971834 -0.0165769 0.0028166 0.0165769
926500000 0.0028588 0.0172067 0.9971412 -0.0172067 0.9971412 -0.0172067 0.0028588 0.0172067
933750000 0.0029020 0.0178331 0.9970980 -0.0178331 0.9970980 -0.0178331 0.0029020 0.0178331
941000000 0.0029460 0.0184562 0.9970540 -0.0184562 0.9970540 -0.0184562 0.0029460 0.0184562
948250000 0.0029910 0.0190761 0.9970090 -0.0190761 0.9970090 -0.0190761 0.0029910 0.0190761
955500000 0.0030369 0.0196928 0.9969631 -0.0196928 0.9969631 -0.0196928 0.0030369 0.0196928
962750000 0.0030836 0.0203065 0.9969164 -0.0203065 0.9969164 -0.0203065 0.0030836 0.0203065
970000000 0.0031312 0.0209173 0.9968688 -0.0209173 0.9968688 -0.0209173 0.0031312 0.0209173
977250000 0.0031797 0.0215252 0.9968203 -0.0215252 0.9968203 -0.0215252 0.0031797 0.0215252
984500000 0.0032290 0.0221303 0.9967710 -0.0221303 0.9967710 -0.0221303 0.0032290 0.0221303
991750000 0.0032792 0.0227326 0.9967208 -0.0227326 0.9967208 -0.0227326 0.0032792 0.0227326
999000000 0.0033303 0.0233323 0.9966697 -0.0233323 0.9966697 -0.0233323 0.0033303 0.0233323
1006250000 0.0033822 0.0239294 0.9966178 -0.0239294 0.9966178 -0.0239294 0.0033822 0.0239294
1013500000 0.0034350 0.0245240 0.9965650 -0.0245240 0.9965650 -0.0245240 0.0034350 0.0245240
1020750000 0.0034887 0.0251161 0.9965113 -0.0251161 0.9965113 -0.0251161 0.0034887 0.0251161
1028000000 0.0035432 0.0257059 0.9964568 -0.0257059 0.9964568 -0.0257059 0.0035432 0.0257059
1035250000 0.0035985 0.0262933 0.9964015 -0.0262933 0.9964015 -0.0262933 0.0035985 0.0262933
1042500000 0.0036547 0.0268784 0.9963453 -0.0268784 0.9963453 -0.0268784 0.0036547 0.0268784
1049750000 0.0037117 0.0274614 0.9962883 -0.0274614 0.9962883 -0.0274614 0.0037117 0.0274614
1057000000 0.0037696 0.0280423 0.9962304 -0.0280423 0.9962304 -0.0280423 0.0037696 0.0280423
1064250000 0.0038283 0.0286210 0.9961717 -0.0286210 0.9961717 -0.0286210 0.0038283 0.0286210
1071500000 0.0038879 0.0291978 0.9961121 -0.0291978 0.9961121 -0.0291978 0.0038879 0.0291978
1078750000 0.0039483 0.0297725 0.9960517 -0.0297725 0.9960517 -0.0297725 0.0039483 0.0297725
1086000000 0.0040096 0.0303454 0.9959904 -0.0303454 0.9959904 -0.0303454 0.0040096 0.0303454
1093250000 0.0040717 0.0309164 0.9959283 -0.0309164 0.9959283 -0.0309164 0.0040717 0.0309164
1100500000 0.0041347 0.0314856 0.9958653 -0.0314856 0.9958653 -0.0314856 0.0041347 0.0314856
1107750000 0.0041985 0.0320530 0.9958015 -0.0320530 0.9958015 -0.0320530 0.0041985 0.0320530
1115000000 0.0042632 0.0326187 0.9957368 -0.0326187 0.9957368 -0.0326187 0.0042632 0.0326187
1122250000 0.0043287 0.0331828 0.9956713 -0.0331828 0.9956713 -0.0331828 0.0043287 0.0331828
1129500000 0.0043951 0.0337453 0.9956049 -0.0337453 0.9956049 -0.0337453 0.0043951 0.0337453
1136750000 0.0044623 0.0343062 0.9955377 -0.0343062 0.9955377 -0.0343062 0.0044623 0.0343062
1144000000 0.0045304 0.0348656 0.9954696 -0.0348656 0.9954696 -0.0348656 0.0045304 0.0348656
1151250000 0.0045994 0.0354235 0.9954006 -0.0354235 0.9954006 -0.0354235 0.0045994 0.0354235
1158500000 0.0046693 0.0359800 0.9953307 -0.0359800 0.9953307 -0.0359800 0.0046693 0.0359800
1165750000 0.0047400 0.0365351 0.9952600 -0.0365351 0.9952600 -0.0365351 0.0047400 0.0365351
1173000000 0.0048116 0.0370889 0.9951884 -0.0370889 0.9951884 -0.0370889 0.0048116 0.0370889
1180250000 0.0048841 0.0376413 0.9951159 -0.0376413 0.9951159 -0.0376413 0.0048841 0.0376413
1187500000 0.0049575 0.0381926 0.9950425 -0.0381926 0.9950425 -0.0381926 0.0049575 0.0381926
1194750000 0.0050318 0.0387426 0.9949682 -0.0387426 0.9949682 -0.0387426 0.0050318 0.0387426
1202000000 0.0051069 0.0392914 0.9948931 -0.0392914 0.9948931 -0.0392914 0.0051069 0.0392914
1209250000 0.0051830 0.0398391 0.9948170 -0.0398391 0.9948170 -0.0398391 0.0051830 0.0398391
1216500000 0.0052600 0.0403857 0.9947400 -0.0403857 0.9947400 -0.0403857 0.0052600 0.0403857
1223750000 0.0053379 0.0409312 0.9946621 -0.0409312 0.9946621 -0.0409312 0.0053379 0.0409312
1231000000 0.0054168 0.0414757 0.9945832 -0.0414757 0.9945832 -0.0414757 0.0054168 0.0414757
1238250000 0.0054966 0.0420192 0.9945034 -0.0420192 0.9945034 -0.0420192 0.0054966 0.0420192
1245500000 0.0055773 0.0425618 0.9944227 -0.0425618 0.9944227 -0.0425618 0.0055773 0.0425618
1252750000 0.0056590 0.0431034 0.9943410 -0.0431034 0.9943410 -0.0431034 0.0056590 0.0431034
1260000000 0.0057416 0.0436442 0.9942584 -0.0436442 0.9942584 -0.0436442 0.0057416 0.0436442
1267250000 0.0058253 0.0441842 0.9941747 -0.0441842 0.9941747 -0.0441842 0.0058253 0.0441842
1274500000 0.0059099 0.0447233 0.9940901 -0.0447233 0.9940901 -0.0447233 0.0059099 0.0447233
1281750000 0.0059955 0.0452617 0.9940045 -0.0452617 0.9940045 -0.0452617 0.0059955 0.0452617
1289000000 0.0060820 0.0457993 0.9939180 -0.0457993 0.9939180 -0.0457993 0.0060820 0.0457993
1296250000 0.0061697 0.0463362 0.9938303 -0.0463362 0.9938303 -0.0463362 0.0061697 0.0463362
1303500000 0.0062583 0.0468725 0.9937417 -0.0468725 0.9937417 -0.0468725 0.0062583 0.0468725
1310750000 0.0063480 0.0474081 0.9936520 -0.0474081 0.9936520 -0.0474081 0.0063480 0.0474081
1318000000 0.0064387 0.0479431 0.9935613 -0.0479431 0.9935613 -0.0479431 0.0064387 0.0479431
1325250000 0.0065305 0.0484775 0.9934695 -0.0484775 0.9934695 -0.0484775 0.0065305 0.0484775
1332500000 0.0066233 0.0490114 0.9933767 -0.0490114 0.9933767 -0.0490114 0.0066233 0.0490114
1339750000 0.0067173 0.0495448 0.9932827 -0.0495448 0.9932827 -0.0495448 0.0067173 0.0495448
1347000000 0.0068123 0.0500777 0.9931877 -0.0500777 0.9931877 -0.0500777 0.0068123 0.0500777
1354250000 0.0069085 0.0506101 0.9930915 -0.0506101 0.9930915 -0.0506101 0.0069085 0.0506101
1361500000 0.0070058 0.0511422 0.9929942 -0.0511422 0.9929942 -0.0511422 0.0070058 0.0511422
1368750000 0.0071043 0.0516738 0.9928957 -0.0516738 0.9928957 -0.0516738 0.0071043 0.0516738
1376000000 0.0072040 0.0522051 0.9927960 -0.0522051 0.9927960 -0.0522051 0.0072040 0.0522051
1383250000 0.0073048 0.0527361 0.9926952 -0.0527361 0.9926952 -0.0527361 0.0073048 0.0527361
1390500000 0.0074069 0.0532668 0.9925931 -0.0532668 0.9925931 -0.0532668 0.0074069 0.0532668
1397750000 0.0075101 0.0537972 0.9924899 -0.0537972 0.9924899 -0.0537972 0.0075101 0.0537972
1405000000 0.0076147 0.0543274 0.9923853 -0.0543274 0.9923853 -0.0543274 0.0076147 0.0543274
1412250000 0.0077205 0.0548573 0.9922795 -0.0548573 0.9922795 -0.0548573 0.0077205 0.0548573
1419500000 0.0078276 0.0553871 0.9921724 -0.0553871 0.9921724 -0.0553871 0.0078276 0.0553871
1426750000 0.0079360 0.0559168 0.9920640 -0.0559168 0.9920640 -0.0559168 0.0079360 0.0559168
1434000000 0.0080458 0.0564464 0.9919542 -0.0564464 0.9919542 -0.0564464 0.0080458 0.0564464
1441250000 0.0081570 0.0569758 0.9918430 -0.0569758 0.9918430 -0.0569758 0.0081570 0.0569758
1448500000 0.0082695 0.0575052 0.9917305 -0.0575052 0.9917305 -0.0575052 0.0082695 0.0575052
1455750000 0.0083835 0.0580346 0.9916165 -0.0580346 0.9916165 -0.0580346 0.0083835 0.0580346
1463000000 0.0084989 0.0585640 0.9915011 -0.0585640 0.9915011 -0.0585640 0.0084989 0.0585640
1470250000 0.0086158 0.0590934 0.9913842 -0.0590934 0.9913842 -0.0590934 0.0086158 0.0590934
1477500000 0.0087342 0.0596229 0.9912658 -0.0596229 0.9912658 -0.0596229 0.0087342 0.0596229
1484750000 0.0088542 0.0601524 0.9911458 -0.0601524 0.9911458 -0.0601524 0.0088542 0.0601524
1492000000 0.0089758 0.0606821 0.9910242 -0.0606821 0.9910242 -0.0606821 0.0089758 0.0606821
1499250000 0.0090990 0.0612119 0.9909010 -0.0612119 0.9909010 -0.0612119 0.0090990 0.0612119
1506500000 0.0092238 0.0617420 0.9907762 -0.0617420 0.9907762 -0.0617420 0.0092238 0.0617420
1513750000 0.0093504 0.0622722 0.9906496 -0.0622722 0.9906496 -0.0622722 0.0093504 0.0622722
1521000000 0.0094786 0.0628026 0.9905214 -0.0628026 0.9905214 -0.0628026 0.0094786 0.0628026
1528250000 0.0096087 0.0633333 0.9903913 -0.0633333 0.9903913 -0.0633333 0.0096087 0.0633333
1535500000 0.0097406 0.0638643 0.9902594 -0.0638643 0.9902594 -0.0638643 0.0097406 0.0638643
1542750000 0.0098743 0.0643956 0.9901257 -0.0643956 0.9901257 -0.0643956 0.0098743 0.0643956
1550000000 0.0100100 0.0649273 0.9899900 -0.0649273 0.9899900 -0.0649273 0.0100100 0.0649273
1557250000 0.0101477 0.0654593 0.9898523 -0.0654593 0.9898523 -0.0654593 0.0101477 0.0654593
1564500000 0.0102874 0.0659917 0.9897126 -0.0659917 0.9897126 -0.0659917 0.0102874 0.0659917
1571750000 0.0104291 0.0665246 0.9895709 -0.0665246 0.9895709 -0.0665246 0.0104291 0.0665246
1579000000 0.0105731 0.0670579 0.9894269 -0.0670579 0.9894269 -0.0670579 0.0105731 0.0670579
1586250000 0.0107192 0.0675917 0.9892808 -0.0675917 0.9892808 -0.0675917 0.0107192 0.0675917
1593500000 0.0108675 0.0681260 0.9891325 -0.0681260 0.9891325 -0.0681260 0.0108675 0.0681260
1600750000 0.0110183 0.0686608 0.9889817 -0.0686608 0.9889817 -0.0686608 0.0110183 0.0686608
1608000000 0.0111714 0.0691962 0.9888286 -0.0691962 0.9888286 -0.0691962 0.0111714 0.0691962
1615250000 0.0113270 0.0697322 0.9886730 -0.0697322 0.9886730 -0.0697322 0.0113270 0.0697322
1622500000 0.0114852 0.0702688 0.9885148 -0.0702688 0.9885148 -0.0702688 0.0114852 0.0702688
1629750000 0.0116460 0.0708060 0.9883540 -0.0708060 0.9883540 -0.0708060 0.0116460 0.0708060
