!Murata Part Number: GRM3192C1H273JA01
!These Parameters are Measured in Series Mode Connection
!Data Generated on Mar 30, 2021
!       o--ll--o
!Port1            Port2
!       o------o
!Operation Temp=25[degC], DC Bias Voltage=0[V]
!Freq. Start=1000[kHz] Stop=6[GHz] 401[Steps]
# Hz S RI R 50
!Freq.(Hz) S11(Real) S11(Imag) S21(Real) S21(Imag) S12(Real) S12(Imag) S22(Real) S22(Imag)
1000000 0.0035374 -0.0589261 0.9964626 0.0589261 0.9964626 0.0589261 0.0035374 -0.0589261
1021987 0.0033894 -0.0576645 0.9966106 0.0576645 0.9966106 0.0576645 0.0033894 -0.0576645
1044457 0.0032478 -0.0564295 0.9967522 0.0564295 0.9967522 0.0564295 0.0032478 -0.0564295
1067422 0.0031121 -0.0552205 0.9968879 0.0552205 0.9968879 0.0552205 0.0031121 -0.0552205
1090891 0.0029822 -0.0540369 0.9970178 0.0540369 0.9970178 0.0540369 0.0029822 -0.0540369
1114877 0.0028578 -0.0528784 0.9971422 0.0528784 0.9971422 0.0528784 0.0028578 -0.0528784
1139390 0.0027387 -0.0517443 0.9972613 0.0517443 0.9972613 0.0517443 0.0027387 -0.0517443
1164441 0.0026246 -0.0506341 0.9973754 0.0506341 0.9973754 0.0506341 0.0026246 -0.0506341
1190044 0.0025154 -0.0495474 0.9974846 0.0495474 0.9974846 0.0495474 0.0025154 -0.0495474
1216210 0.0024108 -0.0484837 0.9975892 0.0484837 0.9975892 0.0484837 0.0024108 -0.0484837
1242950 0.0023107 -0.0474426 0.9976893 0.0474426 0.9976893 0.0474426 0.0023107 -0.0474426
1270279 0.0022148 -0.0464234 0.9977852 0.0464234 0.9977852 0.0464234 0.0022148 -0.0464234
1298209 0.0021231 -0.0454259 0.9978769 0.0454259 0.9978769 0.0454259 0.0021231 -0.0454259
1326753 0.0020352 -0.0444494 0.9979648 0.0444494 0.9979648 0.0444494 0.0020352 -0.0444494
1355924 0.0019510 -0.0434937 0.9980490 0.0434937 0.9980490 0.0434937 0.0019510 -0.0434937
1385737 0.0018705 -0.0425583 0.9981295 0.0425583 0.9981295 0.0425583 0.0018705 -0.0425583
1416205 0.0017933 -0.0416427 0.9982067 0.0416427 0.9982067 0.0416427 0.0017933 -0.0416427
1447343 0.0017195 -0.0407465 0.9982805 0.0407465 0.9982805 0.0407465 0.0017195 -0.0407465
1479166 0.0016488 -0.0398694 0.9983512 0.0398694 0.9983512 0.0398694 0.0016488 -0.0398694
1511688 0.0015811 -0.0390109 0.9984189 0.0390109 0.9984189 0.0390109 0.0015811 -0.0390109
1544926 0.0015163 -0.0381706 0.9984837 0.0381706 0.9984837 0.0381706 0.0015163 -0.0381706
1578894 0.0014543 -0.0373482 0.9985457 0.0373482 0.9985457 0.0373482 0.0014543 -0.0373482
1613609 0.0013949 -0.0365432 0.9986051 0.0365432 0.9986051 0.0365432 0.0013949 -0.0365432
1649087 0.0013381 -0.0357554 0.9986619 0.0357554 0.9986619 0.0357554 0.0013381 -0.0357554
1685346 0.0012836 -0.0349843 0.9987164 0.0349843 0.9987164 0.0349843 0.0012836 -0.0349843
1722402 0.0012316 -0.0342297 0.9987684 0.0342297 0.9987684 0.0342297 0.0012316 -0.0342297
1760272 0.0011817 -0.0334910 0.9988183 0.0334910 0.9988183 0.0334910 0.0011817 -0.0334910
1798975 0.0011340 -0.0327681 0.9988660 0.0327681 0.9988660 0.0327681 0.0011340 -0.0327681
1838529 0.0010883 -0.0320606 0.9989117 0.0320606 0.9989117 0.0320606 0.0010883 -0.0320606
1878953 0.0010445 -0.0313681 0.9989555 0.0313681 0.9989555 0.0313681 0.0010445 -0.0313681
1920266 0.0010027 -0.0306903 0.9989973 0.0306903 0.9989973 0.0306903 0.0010027 -0.0306903
1962487 0.0009626 -0.0300270 0.9990374 0.0300270 0.9990374 0.0300270 0.0009626 -0.0300270
2005636 0.0009242 -0.0293777 0.9990758 0.0293777 0.9990758 0.0293777 0.0009242 -0.0293777
2049734 0.0008875 -0.0287423 0.9991125 0.0287423 0.9991125 0.0287423 0.0008875 -0.0287423
2094801 0.0008524 -0.0281204 0.9991476 0.0281204 0.9991476 0.0281204 0.0008524 -0.0281204
2140860 0.0008188 -0.0275118 0.9991812 0.0275118 0.9991812 0.0275118 0.0008188 -0.0275118
2187931 0.0007866 -0.0269160 0.9992134 0.0269160 0.9992134 0.0269160 0.0007866 -0.0269160
2236037 0.0007558 -0.0263330 0.9992442 0.0263330 0.9992442 0.0263330 0.0007558 -0.0263330
2285201 0.0007263 -0.0257623 0.9992737 0.0257623 0.9992737 0.0257623 0.0007263 -0.0257623
2335446 0.0006981 -0.0252038 0.9993019 0.0252038 0.9993019 0.0252038 0.0006981 -0.0252038
2386795 0.0006711 -0.0246571 0.9993289 0.0246571 0.9993289 0.0246571 0.0006711 -0.0246571
2439274 0.0006452 -0.0241221 0.9993548 0.0241221 0.9993548 0.0241221 0.0006452 -0.0241221
2492906 0.0006205 -0.0235984 0.9993795 0.0235984 0.9993795 0.0235984 0.0006205 -0.0235984
2547717 0.0005968 -0.0230859 0.9994032 0.0230859 0.9994032 0.0230859 0.0005968 -0.0230859
2603734 0.0005742 -0.0225842 0.9994258 0.0225842 0.9994258 0.0225842 0.0005742 -0.0225842
2660982 0.0005525 -0.0220932 0.9994475 0.0220932 0.9994475 0.0220932 0.0005525 -0.0220932
2719490 0.0005318 -0.0216126 0.9994682 0.0216126 0.9994682 0.0216126 0.0005318 -0.0216126
2779283 0.0005119 -0.0211422 0.9994881 0.0211422 0.9994881 0.0211422 0.0005119 -0.0211422
2840391 0.0004929 -0.0206818 0.9995071 0.0206818 0.9995071 0.0206818 0.0004929 -0.0206818
2902843 0.0004748 -0.0202312 0.9995252 0.0202312 0.9995252 0.0202312 0.0004748 -0.0202312
2966668 0.0004574 -0.0197901 0.9995426 0.0197901 0.9995426 0.0197901 0.0004574 -0.0197901
3031896 0.0004408 -0.0193583 0.9995592 0.0193583 0.9995592 0.0193583 0.0004408 -0.0193583
3098558 0.0004248 -0.0189356 0.9995752 0.0189356 0.9995752 0.0189356 0.0004248 -0.0189356
3166686 0.0004096 -0.0185220 0.9995904 0.0185220 0.9995904 0.0185220 0.0004096 -0.0185220
3236312 0.0003950 -0.0181170 0.9996050 0.0181170 0.9996050 0.0181170 0.0003950 -0.0181170
3307469 0.0003811 -0.0177206 0.9996189 0.0177206 0.9996189 0.0177206 0.0003811 -0.0177206
3380190 0.0003678 -0.0173326 0.9996322 0.0173326 0.9996322 0.0173326 0.0003678 -0.0173326
3454511 0.0003550 -0.0169528 0.9996450 0.0169528 0.9996450 0.0169528 0.0003550 -0.0169528
3530465 0.0003428 -0.0165809 0.9996572 0.0165809 0.9996572 0.0165809 0.0003428 -0.0165809
3608090 0.0003311 -0.0162169 0.9996689 0.0162169 0.9996689 0.0162169 0.0003311 -0.0162169
3687421 0.0003200 -0.0158606 0.9996800 0.0158606 0.9996800 0.0158606 0.0003200 -0.0158606
3768496 0.0003093 -0.0155118 0.9996907 0.0155118 0.9996907 0.0155118 0.0003093 -0.0155118
3851354 0.0002991 -0.0151703 0.9997009 0.0151703 0.9997009 0.0151703 0.0002991 -0.0151703
3936034 0.0002893 -0.0148359 0.9997107 0.0148359 0.9997107 0.0148359 0.0002893 -0.0148359
4022575 0.0002800 -0.0145086 0.9997200 0.0145086 0.9997200 0.0145086 0.0002800 -0.0145086
4111020 0.0002711 -0.0141882 0.9997289 0.0141882 0.9997289 0.0141882 0.0002711 -0.0141882
4201409 0.0002625 -0.0138744 0.9997375 0.0138744 0.9997375 0.0138744 0.0002625 -0.0138744
4293785 0.0002544 -0.0135672 0.9997456 0.0135672 0.9997456 0.0135672 0.0002544 -0.0135672
4388193 0.0002466 -0.0132664 0.9997534 0.0132664 0.9997534 0.0132664 0.0002466 -0.0132664
4484676 0.0002391 -0.0129719 0.9997609 0.0129719 0.9997609 0.0129719 0.0002391 -0.0129719
4583281 0.0002320 -0.0126836 0.9997680 0.0126836 0.9997680 0.0126836 0.0002320 -0.0126836
4684054 0.0002252 -0.0124012 0.9997748 0.0124012 0.9997748 0.0124012 0.0002252 -0.0124012
4787042 0.0002187 -0.0121247 0.9997813 0.0121247 0.9997813 0.0121247 0.0002187 -0.0121247
4892295 0.0002125 -0.0118539 0.9997875 0.0118539 0.9997875 0.0118539 0.0002125 -0.0118539
4999862 0.0002065 -0.0115887 0.9997935 0.0115887 0.9997935 0.0115887 0.0002065 -0.0115887
5109794 0.0002009 -0.0113290 0.9997991 0.0113290 0.9997991 0.0113290 0.0002009 -0.0113290
5222143 0.0001955 -0.0110747 0.9998045 0.0110747 0.9998045 0.0110747 0.0001955 -0.0110747
5336962 0.0001903 -0.0108256 0.9998097 0.0108256 0.9998097 0.0108256 0.0001903 -0.0108256
5454306 0.0001854 -0.0105817 0.9998146 0.0105817 0.9998146 0.0105817 0.0001854 -0.0105817
5574230 0.0001807 -0.0103427 0.9998193 0.0103427 0.9998193 0.0103427 0.0001807 -0.0103427
5696791 0.0001762 -0.0101086 0.9998238 0.0101086 0.9998238 0.0101086 0.0001762 -0.0101086
5822046 0.0001719 -0.0098794 0.9998281 0.0098794 0.9998281 0.0098794 0.0001719 -0.0098794
5950055 0.0001679 -0.0096548 0.9998321 0.0096548 0.9998321 0.0096548 0.0001679 -0.0096548
6080879 0.0001640 -0.0094347 0.9998360 0.0094347 0.9998360 0.0094347 0.0001640 -0.0094347
6214580 0.0001603 -0.0092192 0.9998397 0.0092192 0.9998397 0.0092192 0.0001603 -0.0092192
6351220 0.0001568 -0.0090080 0.9998432 0.0090080 0.9998432 0.0090080 0.0001568 -0.0090080
6490864 0.0001534 -0.0088010 0.9998466 0.0088010 0.9998466 0.0088010 0.0001534 -0.0088010
6633579 0.0001502 -0.0085982 0.9998498 0.0085982 0.9998498 0.0085982 0.0001502 -0.0085982
6779431 0.0001472 -0.0083995 0.9998528 0.0083995 0.9998528 0.0083995 0.0001472 -0.0083995
6928491 0.0001443 -0.0082048 0.9998557 0.0082048 0.9998557 0.0082048 0.0001443 -0.0082048
7080828 0.0001416 -0.0080140 0.9998584 0.0080140 0.9998584 0.0080140 0.0001416 -0.0080140
7236514 0.0001390 -0.0078269 0.9998610 0.0078269 0.9998610 0.0078269 0.0001390 -0.0078269
7395623 0.0001365 -0.0076436 0.9998635 0.0076436 0.9998635 0.0076436 0.0001365 -0.0076436
7558231 0.0001342 -0.0074639 0.9998658 0.0074639 0.9998658 0.0074639 0.0001342 -0.0074639
7724414 0.0001320 -0.0072877 0.9998680 0.0072877 0.9998680 0.0072877 0.0001320 -0.0072877
7894251 0.0001299 -0.0071150 0.9998701 0.0071150 0.9998701 0.0071150 0.0001299 -0.0071150
8067822 0.0001280 -0.0069456 0.9998720 0.0069456 0.9998720 0.0069456 0.0001280 -0.0069456
8245209 0.0001261 -0.0067796 0.9998739 0.0067796 0.9998739 0.0067796 0.0001261 -0.0067796
8426497 0.0001244 -0.0066167 0.9998756 0.0066167 0.9998756 0.0066167 0.0001244 -0.0066167
8611770 0.0001227 -0.0064570 0.9998773 0.0064570 0.9998773 0.0064570 0.0001227 -0.0064570
8801117 0.0001212 -0.0063004 0.9998788 0.0063004 0.9998788 0.0063004 0.0001212 -0.0063004
8994628 0.0001197 -0.0061467 0.9998803 0.0061467 0.9998803 0.0061467 0.0001197 -0.0061467
9192393 0.0001184 -0.0059960 0.9998816 0.0059960 0.9998816 0.0059960 0.0001184 -0.0059960
9394506 0.0001171 -0.0058481 0.9998829 0.0058481 0.9998829 0.0058481 0.0001171 -0.0058481
9601063 0.0001159 -0.0057030 0.9998841 0.0057030 0.9998841 0.0057030 0.0001159 -0.0057030
9812162 0.0001148 -0.0055605 0.9998852 0.0055605 0.9998852 0.0055605 0.0001148 -0.0055605
10027902 0.0001138 -0.0054208 0.9998862 0.0054208 0.9998862 0.0054208 0.0001138 -0.0054208
10248386 0.0001129 -0.0052836 0.9998871 0.0052836 0.9998871 0.0052836 0.0001129 -0.0052836
10473717 0.0001120 -0.0051489 0.9998880 0.0051489 0.9998880 0.0051489 0.0001120 -0.0051489
10704003 0.0001113 -0.0050166 0.9998887 0.0050166 0.9998887 0.0050166 0.0001113 -0.0050166
10939352 0.0001106 -0.0048867 0.9998894 0.0048867 0.9998894 0.0048867 0.0001106 -0.0048867
11179876 0.0001099 -0.0047592 0.9998901 0.0047592 0.9998901 0.0047592 0.0001099 -0.0047592
11425688 0.0001094 -0.0046339 0.9998906 0.0046339 0.9998906 0.0046339 0.0001094 -0.0046339
11676904 0.0001089 -0.0045108 0.9998911 0.0045108 0.9998911 0.0045108 0.0001089 -0.0045108
11933645 0.0001084 -0.0043899 0.9998916 0.0043899 0.9998916 0.0043899 0.0001084 -0.0043899
12196030 0.0001081 -0.0042710 0.9998919 0.0042710 0.9998919 0.0042710 0.0001081 -0.0042710
12464184 0.0001077 -0.0041542 0.9998923 0.0041542 0.9998923 0.0041542 0.0001077 -0.0041542
12738235 0.0001075 -0.0040393 0.9998925 0.0040393 0.9998925 0.0040393 0.0001075 -0.0040393
13018310 0.0001073 -0.0039264 0.9998927 0.0039264 0.9998927 0.0039264 0.0001073 -0.0039264
13304544 0.0001072 -0.0038153 0.9998928 0.0038153 0.9998928 0.0038153 0.0001072 -0.0038153
13597071 0.0001071 -0.0037061 0.9998929 0.0037061 0.9998929 0.0037061 0.0001071 -0.0037061
13896030 0.0001071 -0.0035986 0.9998929 0.0035986 0.9998929 0.0035986 0.0001071 -0.0035986
14201563 0.0001071 -0.0034928 0.9998929 0.0034928 0.9998929 0.0034928 0.0001071 -0.0034928
14513813 0.0001072 -0.0033887 0.9998928 0.0033887 0.9998928 0.0033887 0.0001072 -0.0033887
14832928 0.0001073 -0.0032862 0.9998927 0.0032862 0.9998927 0.0032862 0.0001073 -0.0032862
15159060 0.0001075 -0.0031852 0.9998925 0.0031852 0.9998925 0.0031852 0.0001075 -0.0031852
15492362 0.0001078 -0.0030858 0.9998922 0.0030858 0.9998922 0.0030858 0.0001078 -0.0030858
15832993 0.0001081 -0.0029878 0.9998919 0.0029878 0.9998919 0.0029878 0.0001081 -0.0029878
16181113 0.0001084 -0.0028913 0.9998916 0.0028913 0.9998916 0.0028913 0.0001084 -0.0028913
16536888 0.0001088 -0.0027961 0.9998912 0.0027961 0.9998912 0.0027961 0.0001088 -0.0027961
16900485 0.0001093 -0.0027023 0.9998907 0.0027023 0.9998907 0.0027023 0.0001093 -0.0027023
17272076 0.0001098 -0.0026097 0.9998902 0.0026097 0.9998902 0.0026097 0.0001098 -0.0026097
17651837 0.0001103 -0.0025184 0.9998897 0.0025184 0.9998897 0.0025184 0.0001103 -0.0025184
18039948 0.0001109 -0.0024282 0.9998891 0.0024282 0.9998891 0.0024282 0.0001109 -0.0024282
18436593 0.0001116 -0.0023392 0.9998884 0.0023392 0.9998884 0.0023392 0.0001116 -0.0023392
18841959 0.0001123 -0.0022514 0.9998877 0.0022514 0.9998877 0.0022514 0.0001123 -0.0022514
19256237 0.0001130 -0.0021646 0.9998870 0.0021646 0.9998870 0.0021646 0.0001130 -0.0021646
19679624 0.0001138 -0.0020788 0.9998862 0.0020788 0.9998862 0.0020788 0.0001138 -0.0020788
20112321 0.0001147 -0.0019939 0.9998853 0.0019939 0.9998853 0.0019939 0.0001147 -0.0019939
20554530 0.0001156 -0.0019101 0.9998844 0.0019101 0.9998844 0.0019101 0.0001156 -0.0019101
21006463 0.0001166 -0.0018271 0.9998834 0.0018271 0.9998834 0.0018271 0.0001166 -0.0018271
21468333 0.0001177 -0.0017449 0.9998823 0.0017449 0.9998823 0.0017449 0.0001177 -0.0017449
21940357 0.0001188 -0.0016636 0.9998812 0.0016636 0.9998812 0.0016636 0.0001188 -0.0016636
22422760 0.0001199 -0.0015831 0.9998801 0.0015831 0.9998801 0.0015831 0.0001199 -0.0015831
22915770 0.0001211 -0.0015033 0.9998789 0.0015033 0.9998789 0.0015033 0.0001211 -0.0015033
23419619 0.0001224 -0.0014242 0.9998776 0.0014242 0.9998776 0.0014242 0.0001224 -0.0014242
23934547 0.0001238 -0.0013457 0.9998762 0.0013457 0.9998762 0.0013457 0.0001238 -0.0013457
24460796 0.0001252 -0.0012679 0.9998748 0.0012679 0.9998748 0.0012679 0.0001252 -0.0012679
24998616 0.0001267 -0.0011906 0.9998733 0.0011906 0.9998733 0.0011906 0.0001267 -0.0011906
25548261 0.0001283 -0.0011138 0.9998717 0.0011138 0.9998717 0.0011138 0.0001283 -0.0011138
26109991 0.0001300 -0.0010376 0.9998700 0.0010376 0.9998700 0.0010376 0.0001300 -0.0010376
26684072 0.0001317 -0.0009618 0.9998683 0.0009618 0.9998683 0.0009618 0.0001317 -0.0009618
27270775 0.0001335 -0.0008864 0.9998665 0.0008864 0.9998665 0.0008864 0.0001335 -0.0008864
27870378 0.0001354 -0.0008114 0.9998646 0.0008114 0.9998646 0.0008114 0.0001354 -0.0008114
28483164 0.0001374 -0.0007367 0.9998626 0.0007367 0.9998626 0.0007367 0.0001374 -0.0007367
29109424 0.0001395 -0.0006624 0.9998605 0.0006624 0.9998605 0.0006624 0.0001395 -0.0006624
29749453 0.0001417 -0.0005882 0.9998583 0.0005882 0.9998583 0.0005882 0.0001417 -0.0005882
30403555 0.0001440 -0.0005143 0.9998560 0.0005143 0.9998560 0.0005143 0.0001440 -0.0005143
31072038 0.0001465 -0.0004405 0.9998535 0.0004405 0.9998535 0.0004405 0.0001465 -0.0004405
31755220 0.0001490 -0.0003669 0.9998510 0.0003669 0.9998510 0.0003669 0.0001490 -0.0003669
32453422 0.0001517 -0.0002934 0.9998483 0.0002934 0.9998483 0.0002934 0.0001517 -0.0002934
33166976 0.0001545 -0.0002198 0.9998455 0.0002198 0.9998455 0.0002198 0.0001545 -0.0002198
33896219 0.0001575 -0.0001463 0.9998425 0.0001463 0.9998425 0.0001463 0.0001575 -0.0001463
34641496 0.0001606 -0.0000727 0.9998394 0.0000727 0.9998394 0.0000727 0.0001606 -0.0000727
35403159 0.0001638 0.0000010 0.9998362 -0.0000010 0.9998362 -0.0000010 0.0001638 0.0000010
36181569 0.0001673 0.0000748 0.9998327 -0.0000748 0.9998327 -0.0000748 0.0001673 0.0000748
36977093 0.0001709 0.0001489 0.9998291 -0.0001489 0.9998291 -0.0001489 0.0001709 0.0001489
37790109 0.0001747 0.0002232 0.9998253 -0.0002232 0.9998253 -0.0002232 0.0001747 0.0002232
38621001 0.0001787 0.0002978 0.9998213 -0.0002978 0.9998213 -0.0002978 0.0001787 0.0002978
39470161 0.0001830 0.0003728 0.9998170 -0.0003728 0.9998170 -0.0003728 0.0001830 0.0003728
40337993 0.0001875 0.0004483 0.9998125 -0.0004483 0.9998125 -0.0004483 0.0001875 0.0004483
41224905 0.0001923 0.0005242 0.9998077 -0.0005242 0.9998077 -0.0005242 0.0001923 0.0005242
42131317 0.0001973 0.0006007 0.9998027 -0.0006007 0.9998027 -0.0006007 0.0001973 0.0006007
43057659 0.0002027 0.0006779 0.9997973 -0.0006779 0.9997973 -0.0006779 0.0002027 0.0006779
44004369 0.0002084 0.0007557 0.9997916 -0.0007557 0.9997916 -0.0007557 0.0002084 0.0007557
44971893 0.0002145 0.0008344 0.9997855 -0.0008344 0.9997855 -0.0008344 0.0002145 0.0008344
45960691 0.0002211 0.0009140 0.9997789 -0.0009140 0.9997789 -0.0009140 0.0002211 0.0009140
46971230 0.0002281 0.0009946 0.9997719 -0.0009946 0.9997719 -0.0009946 0.0002281 0.0009946
48003987 0.0002356 0.0010764 0.9997644 -0.0010764 0.9997644 -0.0010764 0.0002356 0.0010764
49059451 0.0002438 0.0011594 0.9997562 -0.0011594 0.9997562 -0.0011594 0.0002438 0.0011594
50138122 0.0002526 0.0012438 0.9997474 -0.0012438 0.9997474 -0.0012438 0.0002526 0.0012438
51240510 0.0002622 0.0013297 0.9997378 -0.0013297 0.9997378 -0.0013297 0.0002622 0.0013297
52367136 0.0002727 0.0014174 0.9997273 -0.0014174 0.9997273 -0.0014174 0.0002727 0.0014174
53518533 0.0002843 0.0015071 0.9997157 -0.0015071 0.9997157 -0.0015071 0.0002843 0.0015071
54695245 0.0002972 0.0015989 0.9997028 -0.0015989 0.9997028 -0.0015989 0.0002972 0.0015989
55897831 0.0003116 0.0016933 0.9996884 -0.0016933 0.9996884 -0.0016933 0.0003116 0.0016933
57126857 0.0003279 0.0017905 0.9996721 -0.0017905 0.9996721 -0.0017905 0.0003279 0.0017905
58382906 0.0003465 0.0018909 0.9996535 -0.0018909 0.9996535 -0.0018909 0.0003465 0.0018909
59666572 0.0003680 0.0019950 0.9996320 -0.0019950 0.9996320 -0.0019950 0.0003680 0.0019950
60978462 0.0003933 0.0021034 0.9996067 -0.0021034 0.9996067 -0.0021034 0.0003933 0.0021034
62319196 0.0004235 0.0022166 0.9995765 -0.0022166 0.9995765 -0.0022166 0.0004235 0.0022166
63689409 0.0004603 0.0023354 0.9995397 -0.0023354 0.9995397 -0.0023354 0.0004603 0.0023354
65089750 0.0005061 0.0024605 0.9994939 -0.0024605 0.9994939 -0.0024605 0.0005061 0.0024605
66520879 0.0005646 0.0025923 0.9994354 -0.0025923 0.9994354 -0.0025923 0.0005646 0.0025923
67983474 0.0006413 0.0027306 0.9993587 -0.0027306 0.9993587 -0.0027306 0.0006413 0.0027306
69478228 0.0007443 0.0028733 0.9992557 -0.0028733 0.9992557 -0.0028733 0.0007443 0.0028733
71005847 0.0008857 0.0030135 0.9991143 -0.0030135 0.9991143 -0.0030135 0.0008857 0.0030135
72567054 0.0010806 0.0031333 0.9989194 -0.0031333 0.9989194 -0.0031333 0.0010806 0.0031333
74162587 0.0013385 0.0031932 0.9986615 -0.0031932 0.9986615 -0.0031932 0.0013385 0.0031932
75793201 0.0016342 0.0031268 0.9983658 -0.0031268 0.9983658 -0.0031268 0.0016342 0.0031268
77459667 0.0018606 0.0028860 0.9981394 -0.0028860 0.9981394 -0.0028860 0.0018606 0.0028860
79162774 0.0018737 0.0025557 0.9981263 -0.0025557 0.9981263 -0.0025557 0.0018737 0.0025557
80903327 0.0016769 0.0023255 0.9983231 -0.0023255 0.9983231 -0.0023255 0.0016769 0.0023255
82682150 0.0014164 0.0022753 0.9985836 -0.0022753 0.9985836 -0.0022753 0.0014164 0.0022753
84500083 0.0011974 0.0023544 0.9988026 -0.0023544 0.9988026 -0.0023544 0.0011974 0.0023544
86357988 0.0010439 0.0024968 0.9989561 -0.0024968 0.9989561 -0.0024968 0.0010439 0.0024968
88256743 0.0009460 0.0026637 0.9990540 -0.0026637 0.9990540 -0.0026637 0.0009460 0.0026637
90197245 0.0008893 0.0028379 0.9991107 -0.0028379 0.9991107 -0.0028379 0.0008893 0.0028379
92180413 0.0008626 0.0030131 0.9991374 -0.0030131 0.9991374 -0.0030131 0.0008626 0.0030131
94207185 0.0008591 0.0031876 0.9991409 -0.0031876 0.9991409 -0.0031876 0.0008591 0.0031876
96278520 0.0008746 0.0033614 0.9991254 -0.0033614 0.9991254 -0.0033614 0.0008746 0.0033614
98395398 0.0009077 0.0035352 0.9990923 -0.0035352 0.9990923 -0.0035352 0.0009077 0.0035352
100558819 0.0009584 0.0037096 0.9990416 -0.0037096 0.9990416 -0.0037096 0.0009584 0.0037096
102769807 0.0010286 0.0038849 0.9989714 -0.0038849 0.9989714 -0.0038849 0.0010286 0.0038849
105029408 0.0011217 0.0040601 0.9988783 -0.0040601 0.9988783 -0.0040601 0.0011217 0.0040601
107338692 0.0012427 0.0042329 0.9987573 -0.0042329 0.9987573 -0.0042329 0.0012427 0.0042329
