!Murata Part Number: GRM31A5C3A150JW01
!These Parameters are Measured in Series Mode Connection
!Data Generated on Mar 30, 2021
!       o--ll--o
!Port1            Port2
!       o------o
!Operation Temp=25[degC], DC Bias Voltage=0[V]
!Freq. Start=100[MHz] Stop=3[GHz] 401[Steps]
# Hz S RI R 50
!Freq.(Hz) S11(Real) S11(Imag) S21(Real) S21(Imag) S12(Real) S12(Imag) S22(Real) S22(Imag)
100000000 0.5270649 -0.4983844 0.4729351 0.4983844 0.4729351 0.4983844 0.5270649 -0.4983844
107250000 0.4917853 -0.4989851 0.5082147 0.4989851 0.5082147 0.4989851 0.4917853 -0.4989851
114500000 0.4588394 -0.4972904 0.5411606 0.4972904 0.5411606 0.4972904 0.4588394 -0.4972904
121750000 0.4281941 -0.4937392 0.5718059 0.4937392 0.5718059 0.4937392 0.4281941 -0.4937392
129000000 0.3997725 -0.4887081 0.6002275 0.4887081 0.6002275 0.4887081 0.3997725 -0.4887081
136250000 0.3734690 -0.4825159 0.6265310 0.4825159 0.6265310 0.4825159 0.3734690 -0.4825159
143500000 0.3491607 -0.4754298 0.6508393 0.4754298 0.6508393 0.4754298 0.3491607 -0.4754298
150750000 0.3267165 -0.4676713 0.6732835 0.4676713 0.6732835 0.4676713 0.3267165 -0.4676713
158000000 0.3060029 -0.4594230 0.6939971 0.4594230 0.6939971 0.4594230 0.3060029 -0.4594230
165250000 0.2868882 -0.4508342 0.7131118 0.4508342 0.7131118 0.4508342 0.2868882 -0.4508342
172500000 0.2692458 -0.4420260 0.7307542 0.4420260 0.7307542 0.4420260 0.2692458 -0.4420260
179750000 0.2529555 -0.4330963 0.7470445 0.4330963 0.7470445 0.4330963 0.2529555 -0.4330963
187000000 0.2379045 -0.4241232 0.7620955 0.4241232 0.7620955 0.4241232 0.2379045 -0.4241232
194250000 0.2239884 -0.4151691 0.7760116 0.4151691 0.7760116 0.4151691 0.2239884 -0.4151691
201500000 0.2111105 -0.4062828 0.7888895 0.4062828 0.7888895 0.4062828 0.2111105 -0.4062828
208750000 0.1991822 -0.3975026 0.8008178 0.3975026 0.8008178 0.3975026 0.1991822 -0.3975026
216000000 0.1881222 -0.3888578 0.8118778 0.3888578 0.8118778 0.3888578 0.1881222 -0.3888578
223250000 0.1778567 -0.3803704 0.8221433 0.3803704 0.8221433 0.3803704 0.1778567 -0.3803704
230500000 0.1683183 -0.3720568 0.8316817 0.3720568 0.8316817 0.3720568 0.1683183 -0.3720568
237750000 0.1594455 -0.3639286 0.8405545 0.3639286 0.8405545 0.3639286 0.1594455 -0.3639286
245000000 0.1511827 -0.3559934 0.8488173 0.3559934 0.8488173 0.3559934 0.1511827 -0.3559934
252250000 0.1434793 -0.3482560 0.8565207 0.3482560 0.8565207 0.3482560 0.1434793 -0.3482560
259500000 0.1362894 -0.3407187 0.8637106 0.3407187 0.8637106 0.3407187 0.1362894 -0.3407187
266750000 0.1295713 -0.3333818 0.8704287 0.3333818 0.8704287 0.3333818 0.1295713 -0.3333818
274000000 0.1232871 -0.3262441 0.8767129 0.3262441 0.8767129 0.3262441 0.1232871 -0.3262441
281250000 0.1174024 -0.3193032 0.8825976 0.3193032 0.8825976 0.3193032 0.1174024 -0.3193032
288500000 0.1118859 -0.3125558 0.8881141 0.3125558 0.8881141 0.3125558 0.1118859 -0.3125558
295750000 0.1067090 -0.3059980 0.8932910 0.3059980 0.8932910 0.3059980 0.1067090 -0.3059980
303000000 0.1018459 -0.2996253 0.8981541 0.2996253 0.8981541 0.2996253 0.1018459 -0.2996253
310250000 0.0972728 -0.2934328 0.9027272 0.2934328 0.9027272 0.2934328 0.0972728 -0.2934328
317500000 0.0929684 -0.2874154 0.9070316 0.2874154 0.9070316 0.2874154 0.0929684 -0.2874154
324750000 0.0889127 -0.2815678 0.9110873 0.2815678 0.9110873 0.2815678 0.0889127 -0.2815678
332000000 0.0850879 -0.2758847 0.9149121 0.2758847 0.9149121 0.2758847 0.0850879 -0.2758847
339250000 0.0814775 -0.2703606 0.9185225 0.2703606 0.9185225 0.2703606 0.0814775 -0.2703606
346500000 0.0780663 -0.2649903 0.9219337 0.2649903 0.9219337 0.2649903 0.0780663 -0.2649903
353750000 0.0748407 -0.2597684 0.9251593 0.2597684 0.9251593 0.2597684 0.0748407 -0.2597684
361000000 0.0717878 -0.2546898 0.9282122 0.2546898 0.9282122 0.2546898 0.0717878 -0.2546898
368250000 0.0688960 -0.2497492 0.9311040 0.2497492 0.9311040 0.2497492 0.0688960 -0.2497492
375500000 0.0661547 -0.2449419 0.9338453 0.2449419 0.9338453 0.2449419 0.0661547 -0.2449419
382750000 0.0635538 -0.2402629 0.9364462 0.2402629 0.9364462 0.2402629 0.0635538 -0.2402629
390000000 0.0610844 -0.2357076 0.9389156 0.2357076 0.9389156 0.2357076 0.0610844 -0.2357076
397250000 0.0587381 -0.2312714 0.9412619 0.2312714 0.9412619 0.2312714 0.0587381 -0.2312714
404500000 0.0565070 -0.2269500 0.9434930 0.2269500 0.9434930 0.2269500 0.0565070 -0.2269500
411750000 0.0543841 -0.2227391 0.9456159 0.2227391 0.9456159 0.2227391 0.0543841 -0.2227391
419000000 0.0523627 -0.2186347 0.9476373 0.2186347 0.9476373 0.2186347 0.0523627 -0.2186347
426250000 0.0504366 -0.2146330 0.9495634 0.2146330 0.9495634 0.2146330 0.0504366 -0.2146330
433500000 0.0486002 -0.2107301 0.9513998 0.2107301 0.9513998 0.2107301 0.0486002 -0.2107301
440750000 0.0468482 -0.2069224 0.9531518 0.2069224 0.9531518 0.2069224 0.0468482 -0.2069224
448000000 0.0451757 -0.2032064 0.9548243 0.2032064 0.9548243 0.2032064 0.0451757 -0.2032064
455250000 0.0435781 -0.1995790 0.9564219 0.1995790 0.9564219 0.1995790 0.0435781 -0.1995790
462500000 0.0420513 -0.1960368 0.9579487 0.1960368 0.9579487 0.1960368 0.0420513 -0.1960368
469750000 0.0405911 -0.1925768 0.9594089 0.1925768 0.9594089 0.1925768 0.0405911 -0.1925768
477000000 0.0391941 -0.1891960 0.9608059 0.1891960 0.9608059 0.1891960 0.0391941 -0.1891960
484250000 0.0378566 -0.1858918 0.9621434 0.1858918 0.9621434 0.1858918 0.0378566 -0.1858918
491500000 0.0365756 -0.1826613 0.9634244 0.1826613 0.9634244 0.1826613 0.0365756 -0.1826613
498750000 0.0353479 -0.1795019 0.9646521 0.1795019 0.9646521 0.1795019 0.0353479 -0.1795019
506000000 0.0341709 -0.1764113 0.9658291 0.1764113 0.9658291 0.1764113 0.0341709 -0.1764113
513250000 0.0330419 -0.1733871 0.9669581 0.1733871 0.9669581 0.1733871 0.0330419 -0.1733871
520500000 0.0319585 -0.1704269 0.9680415 0.1704269 0.9680415 0.1704269 0.0319585 -0.1704269
527750000 0.0309182 -0.1675286 0.9690818 0.1675286 0.9690818 0.1675286 0.0309182 -0.1675286
535000000 0.0299191 -0.1646901 0.9700809 0.1646901 0.9700809 0.1646901 0.0299191 -0.1646901
542250000 0.0289590 -0.1619094 0.9710410 0.1619094 0.9710410 0.1619094 0.0289590 -0.1619094
549500000 0.0280360 -0.1591845 0.9719640 0.1591845 0.9719640 0.1591845 0.0280360 -0.1591845
556750000 0.0271484 -0.1565137 0.9728516 0.1565137 0.9728516 0.1565137 0.0271484 -0.1565137
564000000 0.0262945 -0.1538952 0.9737055 0.1538952 0.9737055 0.1538952 0.0262945 -0.1538952
571250000 0.0254726 -0.1513271 0.9745274 0.1513271 0.9745274 0.1513271 0.0254726 -0.1513271
578500000 0.0246814 -0.1488081 0.9753186 0.1488081 0.9753186 0.1488081 0.0246814 -0.1488081
585750000 0.0239193 -0.1463363 0.9760807 0.1463363 0.9760807 0.1463363 0.0239193 -0.1463363
593000000 0.0231851 -0.1439105 0.9768149 0.1439105 0.9768149 0.1439105 0.0231851 -0.1439105
600250000 0.0224775 -0.1415290 0.9775225 0.1415290 0.9775225 0.1415290 0.0224775 -0.1415290
607500000 0.0217953 -0.1391906 0.9782047 0.1391906 0.9782047 0.1391906 0.0217953 -0.1391906
614750000 0.0211374 -0.1368938 0.9788626 0.1368938 0.9788626 0.1368938 0.0211374 -0.1368938
622000000 0.0205027 -0.1346375 0.9794973 0.1346375 0.9794973 0.1346375 0.0205027 -0.1346375
629250000 0.0198903 -0.1324203 0.9801097 0.1324203 0.9801097 0.1324203 0.0198903 -0.1324203
636500000 0.0192992 -0.1302412 0.9807008 0.1302412 0.9807008 0.1302412 0.0192992 -0.1302412
643750000 0.0187285 -0.1280988 0.9812715 0.1280988 0.9812715 0.1280988 0.0187285 -0.1280988
651000000 0.0181773 -0.1259923 0.9818227 0.1259923 0.9818227 0.1259923 0.0181773 -0.1259923
658250000 0.0176449 -0.1239204 0.9823551 0.1239204 0.9823551 0.1239204 0.0176449 -0.1239204
665500000 0.0171305 -0.1218823 0.9828695 0.1218823 0.9828695 0.1218823 0.0171305 -0.1218823
672750000 0.0166334 -0.1198768 0.9833666 0.1198768 0.9833666 0.1198768 0.0166334 -0.1198768
680000000 0.0161528 -0.1179031 0.9838472 0.1179031 0.9838472 0.1179031 0.0161528 -0.1179031
687250000 0.0156881 -0.1159602 0.9843119 0.1159602 0.9843119 0.1159602 0.0156881 -0.1159602
694500000 0.0152387 -0.1140473 0.9847613 0.1140473 0.9847613 0.1140473 0.0152387 -0.1140473
701750000 0.0148041 -0.1121636 0.9851959 0.1121636 0.9851959 0.1121636 0.0148041 -0.1121636
709000000 0.0143836 -0.1103082 0.9856164 0.1103082 0.9856164 0.1103082 0.0143836 -0.1103082
716250000 0.0139766 -0.1084803 0.9860234 0.1084803 0.9860234 0.1084803 0.0139766 -0.1084803
723500000 0.0135828 -0.1066791 0.9864172 0.1066791 0.9864172 0.1066791 0.0135828 -0.1066791
730750000 0.0132016 -0.1049041 0.9867984 0.1049041 0.9867984 0.1049041 0.0132016 -0.1049041
738000000 0.0128326 -0.1031543 0.9871674 0.1031543 0.9871674 0.1031543 0.0128326 -0.1031543
745250000 0.0124752 -0.1014293 0.9875248 0.1014293 0.9875248 0.1014293 0.0124752 -0.1014293
752500000 0.0121292 -0.0997282 0.9878708 0.0997282 0.9878708 0.0997282 0.0121292 -0.0997282
759750000 0.0117940 -0.0980505 0.9882060 0.0980505 0.9882060 0.0980505 0.0117940 -0.0980505
767000000 0.0114694 -0.0963955 0.9885306 0.0963955 0.9885306 0.0963955 0.0114694 -0.0963955
774250000 0.0111548 -0.0947627 0.9888452 0.0947627 0.9888452 0.0947627 0.0111548 -0.0947627
781500000 0.0108501 -0.0931515 0.9891499 0.0931515 0.9891499 0.0931515 0.0108501 -0.0931515
788750000 0.0105548 -0.0915613 0.9894452 0.0915613 0.9894452 0.0915613 0.0105548 -0.0915613
796000000 0.0102687 -0.0899916 0.9897313 0.0899916 0.9897313 0.0899916 0.0102687 -0.0899916
803250000 0.0099913 -0.0884419 0.9900087 0.0884419 0.9900087 0.0884419 0.0099913 -0.0884419
810500000 0.0097225 -0.0869116 0.9902775 0.0869116 0.9902775 0.0869116 0.0097225 -0.0869116
817750000 0.0094620 -0.0854004 0.9905380 0.0854004 0.9905380 0.0854004 0.0094620 -0.0854004
825000000 0.0092094 -0.0839076 0.9907906 0.0839076 0.9907906 0.0839076 0.0092094 -0.0839076
832250000 0.0089646 -0.0824329 0.9910354 0.0824329 0.9910354 0.0824329 0.0089646 -0.0824329
839500000 0.0087273 -0.0809758 0.9912727 0.0809758 0.9912727 0.0809758 0.0087273 -0.0809758
846750000 0.0084972 -0.0795359 0.9915028 0.0795359 0.9915028 0.0795359 0.0084972 -0.0795359
854000000 0.0082741 -0.0781128 0.9917259 0.0781128 0.9917259 0.0781128 0.0082741 -0.0781128
861250000 0.0080578 -0.0767061 0.9919422 0.0767061 0.9919422 0.0767061 0.0080578 -0.0767061
868500000 0.0078481 -0.0753153 0.9921519 0.0753153 0.9921519 0.0753153 0.0078481 -0.0753153
875750000 0.0076448 -0.0739402 0.9923552 0.0739402 0.9923552 0.0739402 0.0076448 -0.0739402
883000000 0.0074477 -0.0725802 0.9925523 0.0725802 0.9925523 0.0725802 0.0074477 -0.0725802
890250000 0.0072567 -0.0712352 0.9927433 0.0712352 0.9927433 0.0712352 0.0072567 -0.0712352
897500000 0.0070714 -0.0699047 0.9929286 0.0699047 0.9929286 0.0699047 0.0070714 -0.0699047
904750000 0.0068919 -0.0685884 0.9931081 0.0685884 0.9931081 0.0685884 0.0068919 -0.0685884
912000000 0.0067178 -0.0672860 0.9932822 0.0672860 0.9932822 0.0672860 0.0067178 -0.0672860
919250000 0.0065491 -0.0659972 0.9934509 0.0659972 0.9934509 0.0659972 0.0065491 -0.0659972
926500000 0.0063856 -0.0647216 0.9936144 0.0647216 0.9936144 0.0647216 0.0063856 -0.0647216
933750000 0.0062271 -0.0634590 0.9937729 0.0634590 0.9937729 0.0634590 0.0062271 -0.0634590
941000000 0.0060736 -0.0622091 0.9939264 0.0622091 0.9939264 0.0622091 0.0060736 -0.0622091
948250000 0.0059248 -0.0609716 0.9940752 0.0609716 0.9940752 0.0609716 0.0059248 -0.0609716
955500000 0.0057807 -0.0597461 0.9942193 0.0597461 0.9942193 0.0597461 0.0057807 -0.0597461
962750000 0.0056411 -0.0585326 0.9943589 0.0585326 0.9943589 0.0585326 0.0056411 -0.0585326
970000000 0.0055059 -0.0573306 0.9944941 0.0573306 0.9944941 0.0573306 0.0055059 -0.0573306
977250000 0.0053749 -0.0561400 0.9946251 0.0561400 0.9946251 0.0561400 0.0053749 -0.0561400
984500000 0.0052482 -0.0549605 0.9947518 0.0549605 0.9947518 0.0549605 0.0052482 -0.0549605
991750000 0.0051255 -0.0537919 0.9948745 0.0537919 0.9948745 0.0537919 0.0051255 -0.0537919
999000000 0.0050068 -0.0526339 0.9949932 0.0526339 0.9949932 0.0526339 0.0050068 -0.0526339
1006250000 0.0048919 -0.0514863 0.9951081 0.0514863 0.9951081 0.0514863 0.0048919 -0.0514863
1013500000 0.0047808 -0.0503489 0.9952192 0.0503489 0.9952192 0.0503489 0.0047808 -0.0503489
1020750000 0.0046733 -0.0492215 0.9953267 0.0492215 0.9953267 0.0492215 0.0046733 -0.0492215
1028000000 0.0045695 -0.0481038 0.9954305 0.0481038 0.9954305 0.0481038 0.0045695 -0.0481038
1035250000 0.0044691 -0.0469958 0.9955309 0.0469958 0.9955309 0.0469958 0.0044691 -0.0469958
1042500000 0.0043721 -0.0458971 0.9956279 0.0458971 0.9956279 0.0458971 0.0043721 -0.0458971
1049750000 0.0042785 -0.0448076 0.9957215 0.0448076 0.9957215 0.0448076 0.0042785 -0.0448076
1057000000 0.0041881 -0.0437271 0.9958119 0.0437271 0.9958119 0.0437271 0.0041881 -0.0437271
1064250000 0.0041009 -0.0426555 0.9958991 0.0426555 0.9958991 0.0426555 0.0041009 -0.0426555
1071500000 0.0040167 -0.0415925 0.9959833 0.0415925 0.9959833 0.0415925 0.0040167 -0.0415925
1078750000 0.0039356 -0.0405379 0.9960644 0.0405379 0.9960644 0.0405379 0.0039356 -0.0405379
1086000000 0.0038575 -0.0394917 0.9961425 0.0394917 0.9961425 0.0394917 0.0038575 -0.0394917
1093250000 0.0037823 -0.0384535 0.9962177 0.0384535 0.9962177 0.0384535 0.0037823 -0.0384535
1100500000 0.0037098 -0.0374234 0.9962902 0.0374234 0.9962902 0.0374234 0.0037098 -0.0374234
1107750000 0.0036402 -0.0364011 0.9963598 0.0364011 0.9963598 0.0364011 0.0036402 -0.0364011
1115000000 0.0035732 -0.0353865 0.9964268 0.0353865 0.9964268 0.0353865 0.0035732 -0.0353865
1122250000 0.0035089 -0.0343794 0.9964911 0.0343794 0.9964911 0.0343794 0.0035089 -0.0343794
1129500000 0.0034472 -0.0333796 0.9965528 0.0333796 0.9965528 0.0333796 0.0034472 -0.0333796
1136750000 0.0033880 -0.0323872 0.9966120 0.0323872 0.9966120 0.0323872 0.0033880 -0.0323872
1144000000 0.0033313 -0.0314018 0.9966687 0.0314018 0.9966687 0.0314018 0.0033313 -0.0314018
1151250000 0.0032771 -0.0304233 0.9967229 0.0304233 0.9967229 0.0304233 0.0032771 -0.0304233
1158500000 0.0032252 -0.0294518 0.9967748 0.0294518 0.9967748 0.0294518 0.0032252 -0.0294518
1165750000 0.0031757 -0.0284869 0.9968243 0.0284869 0.9968243 0.0284869 0.0031757 -0.0284869
1173000000 0.0031284 -0.0275286 0.9968716 0.0275286 0.9968716 0.0275286 0.0031284 -0.0275286
1180250000 0.0030834 -0.0265767 0.9969166 0.0265767 0.9969166 0.0265767 0.0030834 -0.0265767
1187500000 0.0030406 -0.0256312 0.9969594 0.0256312 0.9969594 0.0256312 0.0030406 -0.0256312
1194750000 0.0029999 -0.0246920 0.9970001 0.0246920 0.9970001 0.0246920 0.0029999 -0.0246920
1202000000 0.0029614 -0.0237588 0.9970386 0.0237588 0.9970386 0.0237588 0.0029614 -0.0237588
1209250000 0.0029249 -0.0228316 0.9970751 0.0228316 0.9970751 0.0228316 0.0029249 -0.0228316
1216500000 0.0028905 -0.0219103 0.9971095 0.0219103 0.9971095 0.0219103 0.0028905 -0.0219103
1223750000 0.0028581 -0.0209948 0.9971419 0.0209948 0.9971419 0.0209948 0.0028581 -0.0209948
1231000000 0.0028277 -0.0200850 0.9971723 0.0200850 0.9971723 0.0200850 0.0028277 -0.0200850
1238250000 0.0027991 -0.0191808 0.9972009 0.0191808 0.9972009 0.0191808 0.0027991 -0.0191808
1245500000 0.0027725 -0.0182820 0.9972275 0.0182820 0.9972275 0.0182820 0.0027725 -0.0182820
1252750000 0.0027477 -0.0173886 0.9972523 0.0173886 0.9972523 0.0173886 0.0027477 -0.0173886
1260000000 0.0027248 -0.0165005 0.9972752 0.0165005 0.9972752 0.0165005 0.0027248 -0.0165005
1267250000 0.0027037 -0.0156176 0.9972963 0.0156176 0.9972963 0.0156176 0.0027037 -0.0156176
1274500000 0.0026843 -0.0147398 0.9973157 0.0147398 0.9973157 0.0147398 0.0026843 -0.0147398
1281750000 0.0026667 -0.0138670 0.9973333 0.0138670 0.9973333 0.0138670 0.0026667 -0.0138670
1289000000 0.0026508 -0.0129991 0.9973492 0.0129991 0.9973492 0.0129991 0.0026508 -0.0129991
1296250000 0.0026365 -0.0121360 0.9973635 0.0121360 0.9973635 0.0121360 0.0026365 -0.0121360
1303500000 0.0026239 -0.0112777 0.9973761 0.0112777 0.9973761 0.0112777 0.0026239 -0.0112777
1310750000 0.0026130 -0.0104241 0.9973870 0.0104241 0.9973870 0.0104241 0.0026130 -0.0104241
1318000000 0.0026037 -0.0095751 0.9973963 0.0095751 0.9973963 0.0095751 0.0026037 -0.0095751
1325250000 0.0025959 -0.0087305 0.9974041 0.0087305 0.9974041 0.0087305 0.0025959 -0.0087305
1332500000 0.0025897 -0.0078905 0.9974103 0.0078905 0.9974103 0.0078905 0.0025897 -0.0078905
1339750000 0.0025850 -0.0070547 0.9974150 0.0070547 0.9974150 0.0070547 0.0025850 -0.0070547
1347000000 0.0025818 -0.0062233 0.9974182 0.0062233 0.9974182 0.0062233 0.0025818 -0.0062233
1354250000 0.0025802 -0.0053961 0.9974198 0.0053961 0.9974198 0.0053961 0.0025802 -0.0053961
1361500000 0.0025800 -0.0045730 0.9974200 0.0045730 0.9974200 0.0045730 0.0025800 -0.0045730
1368750000 0.0025812 -0.0037540 0.9974188 0.0037540 0.9974188 0.0037540 0.0025812 -0.0037540
1376000000 0.0025838 -0.0029390 0.9974162 0.0029390 0.9974162 0.0029390 0.0025838 -0.0029390
1383250000 0.0025879 -0.0021279 0.9974121 0.0021279 0.9974121 0.0021279 0.0025879 -0.0021279
1390500000 0.0025934 -0.0013207 0.9974066 0.0013207 0.9974066 0.0013207 0.0025934 -0.0013207
1397750000 0.0026002 -0.0005173 0.9973998 0.0005173 0.9973998 0.0005173 0.0026002 -0.0005173
1405000000 0.0026083 0.0002823 0.9973917 -0.0002823 0.9973917 -0.0002823 0.0026083 0.0002823
1412250000 0.0026178 0.0010783 0.9973822 -0.0010783 0.9973822 -0.0010783 0.0026178 0.0010783
1419500000 0.0026287 0.0018706 0.9973713 -0.0018706 0.9973713 -0.0018706 0.0026287 0.0018706
1426750000 0.0026408 0.0026594 0.9973592 -0.0026594 0.9973592 -0.0026594 0.0026408 0.0026594
1434000000 0.0026542 0.0034447 0.9973458 -0.0034447 0.9973458 -0.0034447 0.0026542 0.0034447
1441250000 0.0026688 0.0042265 0.9973312 -0.0042265 0.9973312 -0.0042265 0.0026688 0.0042265
1448500000 0.0026847 0.0050049 0.9973153 -0.0050049 0.9973153 -0.0050049 0.0026847 0.0050049
1455750000 0.0027019 0.0057800 0.9972981 -0.0057800 0.9972981 -0.0057800 0.0027019 0.0057800
1463000000 0.0027203 0.0065518 0.9972797 -0.0065518 0.9972797 -0.0065518 0.0027203 0.0065518
1470250000 0.0027398 0.0073203 0.9972602 -0.0073203 0.9972602 -0.0073203 0.0027398 0.0073203
1477500000 0.0027606 0.0080857 0.9972394 -0.0080857 0.9972394 -0.0080857 0.0027606 0.0080857
1484750000 0.0027826 0.0088480 0.9972174 -0.0088480 0.9972174 -0.0088480 0.0027826 0.0088480
1492000000 0.0028057 0.0096072 0.9971943 -0.0096072 0.9971943 -0.0096072 0.0028057 0.0096072
1499250000 0.0028300 0.0103633 0.9971700 -0.0103633 0.9971700 -0.0103633 0.0028300 0.0103633
1506500000 0.0028554 0.0111165 0.9971446 -0.0111165 0.9971446 -0.0111165 0.0028554 0.0111165
1513750000 0.0028819 0.0118668 0.9971181 -0.0118668 0.9971181 -0.0118668 0.0028819 0.0118668
1521000000 0.0029096 0.0126141 0.9970904 -0.0126141 0.9970904 -0.0126141 0.0029096 0.0126141
1528250000 0.0029384 0.0133586 0.9970616 -0.0133586 0.9970616 -0.0133586 0.0029384 0.0133586
1535500000 0.0029683 0.0141004 0.9970317 -0.0141004 0.9970317 -0.0141004 0.0029683 0.0141004
1542750000 0.0029992 0.0148393 0.9970008 -0.0148393 0.9970008 -0.0148393 0.0029992 0.0148393
1550000000 0.0030313 0.0155756 0.9969687 -0.0155756 0.9969687 -0.0155756 0.0030313 0.0155756
1557250000 0.0030644 0.0163092 0.9969356 -0.0163092 0.9969356 -0.0163092 0.0030644 0.0163092
1564500000 0.0030985 0.0170402 0.9969015 -0.0170402 0.9969015 -0.0170402 0.0030985 0.0170402
1571750000 0.0031337 0.0177686 0.9968663 -0.0177686 0.9968663 -0.0177686 0.0031337 0.0177686
1579000000 0.0031700 0.0184944 0.9968300 -0.0184944 0.9968300 -0.0184944 0.0031700 0.0184944
1586250000 0.0032073 0.0192178 0.9967927 -0.0192178 0.9967927 -0.0192178 0.0032073 0.0192178
1593500000 0.0032456 0.0199387 0.9967544 -0.0199387 0.9967544 -0.0199387 0.0032456 0.0199387
1600750000 0.0032849 0.0206571 0.9967151 -0.0206571 0.9967151 -0.0206571 0.0032849 0.0206571
1608000000 0.0033252 0.0213732 0.9966748 -0.0213732 0.9966748 -0.0213732 0.0033252 0.0213732
1615250000 0.0033665 0.0220869 0.9966335 -0.0220869 0.9966335 -0.0220869 0.0033665 0.0220869
1622500000 0.0034088 0.0227984 0.9965912 -0.0227984 0.9965912 -0.0227984 0.0034088 0.0227984
1629750000 0.0034520 0.0235075 0.9965480 -0.0235075 0.9965480 -0.0235075 0.0034520 0.0235075
