!Murata Part Number: GRM31C5C2A563JA01
!These Parameters are Measured in Series Mode Connection
!Data Generated on Mar 30, 2021
!       o--ll--o
!Port1            Port2
!       o------o
!Operation Temp=25[degC], DC Bias Voltage=0[V]
!Freq. Start=1000[kHz] Stop=6[GHz] 401[Steps]
# Hz S RI R 50
!Freq.(Hz) S11(Real) S11(Imag) S21(Real) S21(Imag) S12(Real) S12(Imag) S22(Real) S22(Imag)
1000000 0.0008375 -0.0282578 0.9991625 0.0282578 0.9991625 0.0282578 0.0008375 -0.0282578
1021987 0.0008035 -0.0276479 0.9991965 0.0276479 0.9991965 0.0276479 0.0008035 -0.0276479
1044457 0.0007710 -0.0270511 0.9992290 0.0270511 0.9992290 0.0270511 0.0007710 -0.0270511
1067422 0.0007398 -0.0264670 0.9992602 0.0264670 0.9992602 0.0264670 0.0007398 -0.0264670
1090891 0.0007100 -0.0258953 0.9992900 0.0258953 0.9992900 0.0258953 0.0007100 -0.0258953
1114877 0.0006815 -0.0253359 0.9993185 0.0253359 0.9993185 0.0253359 0.0006815 -0.0253359
1139390 0.0006542 -0.0247883 0.9993458 0.0247883 0.9993458 0.0247883 0.0006542 -0.0247883
1164441 0.0006281 -0.0242524 0.9993719 0.0242524 0.9993719 0.0242524 0.0006281 -0.0242524
1190044 0.0006031 -0.0237280 0.9993969 0.0237280 0.9993969 0.0237280 0.0006031 -0.0237280
1216210 0.0005792 -0.0232147 0.9994208 0.0232147 0.9994208 0.0232147 0.0005792 -0.0232147
1242950 0.0005563 -0.0227124 0.9994437 0.0227124 0.9994437 0.0227124 0.0005563 -0.0227124
1270279 0.0005344 -0.0222208 0.9994656 0.0222208 0.9994656 0.0222208 0.0005344 -0.0222208
1298209 0.0005134 -0.0217396 0.9994866 0.0217396 0.9994866 0.0217396 0.0005134 -0.0217396
1326753 0.0004934 -0.0212687 0.9995066 0.0212687 0.9995066 0.0212687 0.0004934 -0.0212687
1355924 0.0004742 -0.0208079 0.9995258 0.0208079 0.9995258 0.0208079 0.0004742 -0.0208079
1385737 0.0004558 -0.0203568 0.9995442 0.0203568 0.9995442 0.0203568 0.0004558 -0.0203568
1416205 0.0004383 -0.0199154 0.9995617 0.0199154 0.9995617 0.0199154 0.0004383 -0.0199154
1447343 0.0004215 -0.0194833 0.9995785 0.0194833 0.9995785 0.0194833 0.0004215 -0.0194833
1479166 0.0004054 -0.0190605 0.9995946 0.0190605 0.9995946 0.0190605 0.0004054 -0.0190605
1511688 0.0003901 -0.0186467 0.9996099 0.0186467 0.9996099 0.0186467 0.0003901 -0.0186467
1544926 0.0003754 -0.0182416 0.9996246 0.0182416 0.9996246 0.0182416 0.0003754 -0.0182416
1578894 0.0003613 -0.0178452 0.9996387 0.0178452 0.9996387 0.0178452 0.0003613 -0.0178452
1613609 0.0003479 -0.0174572 0.9996521 0.0174572 0.9996521 0.0174572 0.0003479 -0.0174572
1649087 0.0003351 -0.0170774 0.9996649 0.0170774 0.9996649 0.0170774 0.0003351 -0.0170774
1685346 0.0003228 -0.0167058 0.9996772 0.0167058 0.9996772 0.0167058 0.0003228 -0.0167058
1722402 0.0003111 -0.0163420 0.9996889 0.0163420 0.9996889 0.0163420 0.0003111 -0.0163420
1760272 0.0002999 -0.0159859 0.9997001 0.0159859 0.9997001 0.0159859 0.0002999 -0.0159859
1798975 0.0002891 -0.0156374 0.9997109 0.0156374 0.9997109 0.0156374 0.0002891 -0.0156374
1838529 0.0002789 -0.0152963 0.9997211 0.0152963 0.9997211 0.0152963 0.0002789 -0.0152963
1878953 0.0002691 -0.0149624 0.9997309 0.0149624 0.9997309 0.0149624 0.0002691 -0.0149624
1920266 0.0002598 -0.0146356 0.9997402 0.0146356 0.9997402 0.0146356 0.0002598 -0.0146356
1962487 0.0002508 -0.0143157 0.9997492 0.0143157 0.9997492 0.0143157 0.0002508 -0.0143157
2005636 0.0002423 -0.0140026 0.9997577 0.0140026 0.9997577 0.0140026 0.0002423 -0.0140026
2049734 0.0002341 -0.0136962 0.9997659 0.0136962 0.9997659 0.0136962 0.0002341 -0.0136962
2094801 0.0002263 -0.0133962 0.9997737 0.0133962 0.9997737 0.0133962 0.0002263 -0.0133962
2140860 0.0002189 -0.0131025 0.9997811 0.0131025 0.9997811 0.0131025 0.0002189 -0.0131025
2187931 0.0002118 -0.0128151 0.9997882 0.0128151 0.9997882 0.0128151 0.0002118 -0.0128151
2236037 0.0002050 -0.0125337 0.9997950 0.0125337 0.9997950 0.0125337 0.0002050 -0.0125337
2285201 0.0001986 -0.0122583 0.9998014 0.0122583 0.9998014 0.0122583 0.0001986 -0.0122583
2335446 0.0001924 -0.0119886 0.9998076 0.0119886 0.9998076 0.0119886 0.0001924 -0.0119886
2386795 0.0001865 -0.0117247 0.9998135 0.0117247 0.9998135 0.0117247 0.0001865 -0.0117247
2439274 0.0001809 -0.0114663 0.9998191 0.0114663 0.9998191 0.0114663 0.0001809 -0.0114663
2492906 0.0001755 -0.0112133 0.9998245 0.0112133 0.9998245 0.0112133 0.0001755 -0.0112133
2547717 0.0001704 -0.0109656 0.9998296 0.0109656 0.9998296 0.0109656 0.0001704 -0.0109656
2603734 0.0001655 -0.0107232 0.9998345 0.0107232 0.9998345 0.0107232 0.0001655 -0.0107232
2660982 0.0001608 -0.0104858 0.9998392 0.0104858 0.9998392 0.0104858 0.0001608 -0.0104858
2719490 0.0001564 -0.0102534 0.9998436 0.0102534 0.9998436 0.0102534 0.0001564 -0.0102534
2779283 0.0001522 -0.0100258 0.9998478 0.0100258 0.9998478 0.0100258 0.0001522 -0.0100258
2840391 0.0001481 -0.0098030 0.9998519 0.0098030 0.9998519 0.0098030 0.0001481 -0.0098030
2902843 0.0001443 -0.0095849 0.9998557 0.0095849 0.9998557 0.0095849 0.0001443 -0.0095849
2966668 0.0001406 -0.0093713 0.9998594 0.0093713 0.9998594 0.0093713 0.0001406 -0.0093713
3031896 0.0001371 -0.0091621 0.9998629 0.0091621 0.9998629 0.0091621 0.0001371 -0.0091621
3098558 0.0001338 -0.0089573 0.9998662 0.0089573 0.9998662 0.0089573 0.0001338 -0.0089573
3166686 0.0001306 -0.0087568 0.9998694 0.0087568 0.9998694 0.0087568 0.0001306 -0.0087568
3236312 0.0001276 -0.0085604 0.9998724 0.0085604 0.9998724 0.0085604 0.0001276 -0.0085604
3307469 0.0001248 -0.0083680 0.9998752 0.0083680 0.9998752 0.0083680 0.0001248 -0.0083680
3380190 0.0001220 -0.0081796 0.9998780 0.0081796 0.9998780 0.0081796 0.0001220 -0.0081796
3454511 0.0001194 -0.0079951 0.9998806 0.0079951 0.9998806 0.0079951 0.0001194 -0.0079951
3530465 0.0001170 -0.0078144 0.9998830 0.0078144 0.9998830 0.0078144 0.0001170 -0.0078144
3608090 0.0001146 -0.0076374 0.9998854 0.0076374 0.9998854 0.0076374 0.0001146 -0.0076374
3687421 0.0001124 -0.0074641 0.9998876 0.0074641 0.9998876 0.0074641 0.0001124 -0.0074641
3768496 0.0001103 -0.0072942 0.9998897 0.0072942 0.9998897 0.0072942 0.0001103 -0.0072942
3851354 0.0001082 -0.0071279 0.9998918 0.0071279 0.9998918 0.0071279 0.0001082 -0.0071279
3936034 0.0001063 -0.0069649 0.9998937 0.0069649 0.9998937 0.0069649 0.0001063 -0.0069649
4022575 0.0001045 -0.0068052 0.9998955 0.0068052 0.9998955 0.0068052 0.0001045 -0.0068052
4111020 0.0001028 -0.0066488 0.9998972 0.0066488 0.9998972 0.0066488 0.0001028 -0.0066488
4201409 0.0001011 -0.0064955 0.9998989 0.0064955 0.9998989 0.0064955 0.0001011 -0.0064955
4293785 0.0000996 -0.0063452 0.9999004 0.0063452 0.9999004 0.0063452 0.0000996 -0.0063452
4388193 0.0000981 -0.0061980 0.9999019 0.0061980 0.9999019 0.0061980 0.0000981 -0.0061980
4484676 0.0000967 -0.0060538 0.9999033 0.0060538 0.9999033 0.0060538 0.0000967 -0.0060538
4583281 0.0000954 -0.0059124 0.9999046 0.0059124 0.9999046 0.0059124 0.0000954 -0.0059124
4684054 0.0000942 -0.0057738 0.9999058 0.0057738 0.9999058 0.0057738 0.0000942 -0.0057738
4787042 0.0000930 -0.0056380 0.9999070 0.0056380 0.9999070 0.0056380 0.0000930 -0.0056380
4892295 0.0000919 -0.0055048 0.9999081 0.0055048 0.9999081 0.0055048 0.0000919 -0.0055048
4999862 0.0000908 -0.0053742 0.9999092 0.0053742 0.9999092 0.0053742 0.0000908 -0.0053742
5109794 0.0000898 -0.0052462 0.9999102 0.0052462 0.9999102 0.0052462 0.0000898 -0.0052462
5222143 0.0000889 -0.0051207 0.9999111 0.0051207 0.9999111 0.0051207 0.0000889 -0.0051207
5336962 0.0000880 -0.0049976 0.9999120 0.0049976 0.9999120 0.0049976 0.0000880 -0.0049976
5454306 0.0000872 -0.0048769 0.9999128 0.0048769 0.9999128 0.0048769 0.0000872 -0.0048769
5574230 0.0000865 -0.0047585 0.9999135 0.0047585 0.9999135 0.0047585 0.0000865 -0.0047585
5696791 0.0000857 -0.0046423 0.9999143 0.0046423 0.9999143 0.0046423 0.0000857 -0.0046423
5822046 0.0000851 -0.0045284 0.9999149 0.0045284 0.9999149 0.0045284 0.0000851 -0.0045284
5950055 0.0000845 -0.0044166 0.9999155 0.0044166 0.9999155 0.0044166 0.0000845 -0.0044166
6080879 0.0000839 -0.0043068 0.9999161 0.0043068 0.9999161 0.0043068 0.0000839 -0.0043068
6214580 0.0000834 -0.0041992 0.9999166 0.0041992 0.9999166 0.0041992 0.0000834 -0.0041992
6351220 0.0000829 -0.0040935 0.9999171 0.0040935 0.9999171 0.0040935 0.0000829 -0.0040935
6490864 0.0000824 -0.0039897 0.9999176 0.0039897 0.9999176 0.0039897 0.0000824 -0.0039897
6633579 0.0000820 -0.0038879 0.9999180 0.0038879 0.9999180 0.0038879 0.0000820 -0.0038879
6779431 0.0000817 -0.0037879 0.9999183 0.0037879 0.9999183 0.0037879 0.0000817 -0.0037879
6928491 0.0000813 -0.0036896 0.9999187 0.0036896 0.9999187 0.0036896 0.0000813 -0.0036896
7080828 0.0000810 -0.0035932 0.9999190 0.0035932 0.9999190 0.0035932 0.0000810 -0.0035932
7236514 0.0000808 -0.0034984 0.9999192 0.0034984 0.9999192 0.0034984 0.0000808 -0.0034984
7395623 0.0000806 -0.0034053 0.9999194 0.0034053 0.9999194 0.0034053 0.0000806 -0.0034053
7558231 0.0000804 -0.0033138 0.9999196 0.0033138 0.9999196 0.0033138 0.0000804 -0.0033138
7724414 0.0000803 -0.0032238 0.9999197 0.0032238 0.9999197 0.0032238 0.0000803 -0.0032238
7894251 0.0000802 -0.0031354 0.9999198 0.0031354 0.9999198 0.0031354 0.0000802 -0.0031354
8067822 0.0000801 -0.0030485 0.9999199 0.0030485 0.9999199 0.0030485 0.0000801 -0.0030485
8245209 0.0000800 -0.0029630 0.9999200 0.0029630 0.9999200 0.0029630 0.0000800 -0.0029630
8426497 0.0000800 -0.0028789 0.9999200 0.0028789 0.9999200 0.0028789 0.0000800 -0.0028789
8611770 0.0000801 -0.0027961 0.9999199 0.0027961 0.9999199 0.0027961 0.0000801 -0.0027961
8801117 0.0000801 -0.0027147 0.9999199 0.0027147 0.9999199 0.0027147 0.0000801 -0.0027147
8994628 0.0000802 -0.0026346 0.9999198 0.0026346 0.9999198 0.0026346 0.0000802 -0.0026346
9192393 0.0000804 -0.0025557 0.9999196 0.0025557 0.9999196 0.0025557 0.0000804 -0.0025557
9394506 0.0000805 -0.0024780 0.9999195 0.0024780 0.9999195 0.0024780 0.0000805 -0.0024780
9601063 0.0000807 -0.0024014 0.9999193 0.0024014 0.9999193 0.0024014 0.0000807 -0.0024014
9812162 0.0000810 -0.0023260 0.9999190 0.0023260 0.9999190 0.0023260 0.0000810 -0.0023260
10027902 0.0000813 -0.0022517 0.9999187 0.0022517 0.9999187 0.0022517 0.0000813 -0.0022517
10248386 0.0000816 -0.0021785 0.9999184 0.0021785 0.9999184 0.0021785 0.0000816 -0.0021785
10473717 0.0000819 -0.0021062 0.9999181 0.0021062 0.9999181 0.0021062 0.0000819 -0.0021062
10704003 0.0000823 -0.0020350 0.9999177 0.0020350 0.9999177 0.0020350 0.0000823 -0.0020350
10939352 0.0000827 -0.0019647 0.9999173 0.0019647 0.9999173 0.0019647 0.0000827 -0.0019647
11179876 0.0000832 -0.0018953 0.9999168 0.0018953 0.9999168 0.0018953 0.0000832 -0.0018953
11425688 0.0000837 -0.0018268 0.9999163 0.0018268 0.9999163 0.0018268 0.0000837 -0.0018268
11676904 0.0000842 -0.0017591 0.9999158 0.0017591 0.9999158 0.0017591 0.0000842 -0.0017591
11933645 0.0000848 -0.0016923 0.9999152 0.0016923 0.9999152 0.0016923 0.0000848 -0.0016923
12196030 0.0000854 -0.0016262 0.9999146 0.0016262 0.9999146 0.0016262 0.0000854 -0.0016262
12464184 0.0000861 -0.0015609 0.9999139 0.0015609 0.9999139 0.0015609 0.0000861 -0.0015609
12738235 0.0000868 -0.0014963 0.9999132 0.0014963 0.9999132 0.0014963 0.0000868 -0.0014963
13018310 0.0000876 -0.0014324 0.9999124 0.0014324 0.9999124 0.0014324 0.0000876 -0.0014324
13304544 0.0000884 -0.0013692 0.9999116 0.0013692 0.9999116 0.0013692 0.0000884 -0.0013692
13597071 0.0000893 -0.0013065 0.9999107 0.0013065 0.9999107 0.0013065 0.0000893 -0.0013065
13896030 0.0000902 -0.0012445 0.9999098 0.0012445 0.9999098 0.0012445 0.0000902 -0.0012445
14201563 0.0000912 -0.0011830 0.9999088 0.0011830 0.9999088 0.0011830 0.0000912 -0.0011830
14513813 0.0000922 -0.0011220 0.9999078 0.0011220 0.9999078 0.0011220 0.0000922 -0.0011220
14832928 0.0000933 -0.0010615 0.9999067 0.0010615 0.9999067 0.0010615 0.0000933 -0.0010615
15159060 0.0000944 -0.0010015 0.9999056 0.0010015 0.9999056 0.0010015 0.0000944 -0.0010015
15492362 0.0000956 -0.0009419 0.9999044 0.0009419 0.9999044 0.0009419 0.0000956 -0.0009419
15832993 0.0000969 -0.0008827 0.9999031 0.0008827 0.9999031 0.0008827 0.0000969 -0.0008827
16181113 0.0000983 -0.0008238 0.9999017 0.0008238 0.9999017 0.0008238 0.0000983 -0.0008238
16536888 0.0000997 -0.0007653 0.9999003 0.0007653 0.9999003 0.0007653 0.0000997 -0.0007653
16900485 0.0001012 -0.0007071 0.9998988 0.0007071 0.9998988 0.0007071 0.0001012 -0.0007071
17272076 0.0001027 -0.0006491 0.9998973 0.0006491 0.9998973 0.0006491 0.0001027 -0.0006491
17651837 0.0001044 -0.0005914 0.9998956 0.0005914 0.9998956 0.0005914 0.0001044 -0.0005914
18039948 0.0001061 -0.0005338 0.9998939 0.0005338 0.9998939 0.0005338 0.0001061 -0.0005338
18436593 0.0001080 -0.0004765 0.9998920 0.0004765 0.9998920 0.0004765 0.0001080 -0.0004765
18841959 0.0001099 -0.0004192 0.9998901 0.0004192 0.9998901 0.0004192 0.0001099 -0.0004192
19256237 0.0001119 -0.0003620 0.9998881 0.0003620 0.9998881 0.0003620 0.0001119 -0.0003620
19679624 0.0001141 -0.0003048 0.9998859 0.0003048 0.9998859 0.0003048 0.0001141 -0.0003048
20112321 0.0001163 -0.0002477 0.9998837 0.0002477 0.9998837 0.0002477 0.0001163 -0.0002477
20554530 0.0001187 -0.0001905 0.9998813 0.0001905 0.9998813 0.0001905 0.0001187 -0.0001905
21006463 0.0001212 -0.0001332 0.9998788 0.0001332 0.9998788 0.0001332 0.0001212 -0.0001332
21468333 0.0001239 -0.0000758 0.9998761 0.0000758 0.9998761 0.0000758 0.0001239 -0.0000758
21940357 0.0001266 -0.0000183 0.9998734 0.0000183 0.9998734 0.0000183 0.0001266 -0.0000183
22422760 0.0001296 0.0000395 0.9998704 -0.0000395 0.9998704 -0.0000395 0.0001296 0.0000395
22915770 0.0001327 0.0000976 0.9998673 -0.0000976 0.9998673 -0.0000976 0.0001327 0.0000976
23419619 0.0001360 0.0001561 0.9998640 -0.0001561 0.9998640 -0.0001561 0.0001360 0.0001561
23934547 0.0001395 0.0002149 0.9998605 -0.0002149 0.9998605 -0.0002149 0.0001395 0.0002149
24460796 0.0001432 0.0002742 0.9998568 -0.0002742 0.9998568 -0.0002742 0.0001432 0.0002742
24998616 0.0001471 0.0003341 0.9998529 -0.0003341 0.9998529 -0.0003341 0.0001471 0.0003341
25548261 0.0001513 0.0003946 0.9998487 -0.0003946 0.9998487 -0.0003946 0.0001513 0.0003946
26109991 0.0001557 0.0004559 0.9998443 -0.0004559 0.9998443 -0.0004559 0.0001557 0.0004559
26684072 0.0001605 0.0005180 0.9998395 -0.0005180 0.9998395 -0.0005180 0.0001605 0.0005180
27270775 0.0001656 0.0005810 0.9998344 -0.0005810 0.9998344 -0.0005810 0.0001656 0.0005810
27870378 0.0001711 0.0006452 0.9998289 -0.0006452 0.9998289 -0.0006452 0.0001711 0.0006452
28483164 0.0001770 0.0007106 0.9998230 -0.0007106 0.9998230 -0.0007106 0.0001770 0.0007106
29109424 0.0001835 0.0007775 0.9998165 -0.0007775 0.9998165 -0.0007775 0.0001835 0.0007775
29749453 0.0001906 0.0008461 0.9998094 -0.0008461 0.9998094 -0.0008461 0.0001906 0.0008461
30403555 0.0001983 0.0009166 0.9998017 -0.0009166 0.9998017 -0.0009166 0.0001983 0.0009166
31072038 0.0002070 0.0009894 0.9997930 -0.0009894 0.9997930 -0.0009894 0.0002070 0.0009894
31755220 0.0002167 0.0010650 0.9997833 -0.0010650 0.9997833 -0.0010650 0.0002167 0.0010650
32453422 0.0002278 0.0011438 0.9997722 -0.0011438 0.9997722 -0.0011438 0.0002278 0.0011438
33166976 0.0002406 0.0012265 0.9997594 -0.0012265 0.9997594 -0.0012265 0.0002406 0.0012265
33896219 0.0002556 0.0013141 0.9997444 -0.0013141 0.9997444 -0.0013141 0.0002556 0.0013141
34641496 0.0002738 0.0014077 0.9997262 -0.0014077 0.9997262 -0.0014077 0.0002738 0.0014077
35403159 0.0002965 0.0015090 0.9997035 -0.0015090 0.9997035 -0.0015090 0.0002965 0.0015090
36181569 0.0003257 0.0016203 0.9996743 -0.0016203 0.9996743 -0.0016203 0.0003257 0.0016203
36977093 0.0003652 0.0017448 0.9996348 -0.0017448 0.9996348 -0.0017448 0.0003652 0.0017448
37790109 0.0004216 0.0018872 0.9995784 -0.0018872 0.9995784 -0.0018872 0.0004216 0.0018872
38621001 0.0005080 0.0020536 0.9994920 -0.0020536 0.9994920 -0.0020536 0.0005080 0.0020536
39470161 0.0006518 0.0022500 0.9993482 -0.0022500 0.9993482 -0.0022500 0.0006518 0.0022500
40337993 0.0009141 0.0024697 0.9990859 -0.0024697 0.9990859 -0.0024697 0.0009141 0.0024697
41224905 0.0014184 0.0026207 0.9985816 -0.0026207 0.9985816 -0.0026207 0.0014184 0.0026207
42131317 0.0021846 0.0022878 0.9978154 -0.0022878 0.9978154 -0.0022878 0.0021846 0.0022878
43057659 0.0023041 0.0012315 0.9976959 -0.0012315 0.9976959 -0.0012315 0.0023041 0.0012315
44004369 0.0015768 0.0007526 0.9984232 -0.0007526 0.9984232 -0.0007526 0.0015768 0.0007526
44971893 0.0010428 0.0008741 0.9989572 -0.0008741 0.9989572 -0.0008741 0.0010428 0.0008741
45960691 0.0007785 0.0011088 0.9992215 -0.0011088 0.9992215 -0.0011088 0.0007785 0.0011088
46971230 0.0006515 0.0013306 0.9993485 -0.0013306 0.9993485 -0.0013306 0.0006515 0.0013306
48003987 0.0005920 0.0015269 0.9994080 -0.0015269 0.9994080 -0.0015269 0.0005920 0.0015269
49059451 0.0005693 0.0017036 0.9994307 -0.0017036 0.9994307 -0.0017036 0.0005693 0.0017036
50138122 0.0005699 0.0018680 0.9994301 -0.0018680 0.9994301 -0.0018680 0.0005699 0.0018680
51240510 0.0005884 0.0020256 0.9994116 -0.0020256 0.9994116 -0.0020256 0.0005884 0.0020256
52367136 0.0006232 0.0021807 0.9993768 -0.0021807 0.9993768 -0.0021807 0.0006232 0.0021807
53518533 0.0006759 0.0023365 0.9993241 -0.0023365 0.9993241 -0.0023365 0.0006759 0.0023365
54695245 0.0007511 0.0024948 0.9992489 -0.0024948 0.9992489 -0.0024948 0.0007511 0.0024948
55897831 0.0008566 0.0026555 0.9991434 -0.0026555 0.9991434 -0.0026555 0.0008566 0.0026555
57126857 0.0010049 0.0028141 0.9989951 -0.0028141 0.9989951 -0.0028141 0.0010049 0.0028141
58382906 0.0012137 0.0029560 0.9987863 -0.0029560 0.9987863 -0.0029560 0.0012137 0.0029560
59666572 0.0015011 0.0030455 0.9984989 -0.0030455 0.9984989 -0.0030455 0.0015011 0.0030455
60978462 0.0018625 0.0030120 0.9981375 -0.0030120 0.9981375 -0.0030120 0.0018625 0.0030120
62319196 0.0022137 0.0027673 0.9977863 -0.0027673 0.9977863 -0.0027673 0.0022137 0.0027673
63689409 0.0023668 0.0023250 0.9976332 -0.0023250 0.9976332 -0.0023250 0.0023668 0.0023250
65089750 0.0022117 0.0018972 0.9977883 -0.0018972 0.9977883 -0.0018972 0.0022117 0.0018972
66520879 0.0018798 0.0016804 0.9981202 -0.0016804 0.9981202 -0.0016804 0.0018798 0.0016804
67983474 0.0015535 0.0016692 0.9984465 -0.0016692 0.9984465 -0.0016692 0.0015535 0.0016692
69478228 0.0013059 0.0017731 0.9986941 -0.0017731 0.9986941 -0.0017731 0.0013059 0.0017731
71005847 0.0011375 0.0019248 0.9988625 -0.0019248 0.9988625 -0.0019248 0.0011375 0.0019248
72567054 0.0010298 0.0020910 0.9989702 -0.0020910 0.9989702 -0.0020910 0.0010298 0.0020910
74162587 0.0009663 0.0022580 0.9990337 -0.0022580 0.9990337 -0.0022580 0.0009663 0.0022580
75793201 0.0009356 0.0024208 0.9990644 -0.0024208 0.9990644 -0.0024208 0.0009356 0.0024208
77459667 0.0009313 0.0025777 0.9990687 -0.0025777 0.9990687 -0.0025777 0.0009313 0.0025777
79162774 0.0009505 0.0027274 0.9990495 -0.0027274 0.9990495 -0.0027274 0.0009505 0.0027274
80903327 0.0009924 0.0028673 0.9990076 -0.0028673 0.9990076 -0.0028673 0.0009924 0.0028673
82682150 0.0010572 0.0029919 0.9989428 -0.0029919 0.9989428 -0.0029919 0.0010572 0.0029919
84500083 0.0011425 0.0030914 0.9988575 -0.0030914 0.9988575 -0.0030914 0.0011425 0.0030914
86357988 0.0012385 0.0031527 0.9987615 -0.0031527 0.9987615 -0.0031527 0.0012385 0.0031527
88256743 0.0013218 0.0031683 0.9986782 -0.0031683 0.9986782 -0.0031683 0.0013218 0.0031683
90197245 0.0013622 0.0031510 0.9986378 -0.0031510 0.9986378 -0.0031510 0.0013622 0.0031510
92180413 0.0013464 0.0031370 0.9986536 -0.0031370 0.9986536 -0.0031370 0.0013464 0.0031370
94207185 0.0012927 0.0031599 0.9987073 -0.0031599 0.9987073 -0.0031599 0.0012927 0.0031599
96278520 0.0012327 0.0032285 0.9987673 -0.0032285 0.9987673 -0.0032285 0.0012327 0.0032285
98395398 0.0011890 0.0033324 0.9988110 -0.0033324 0.9988110 -0.0033324 0.0011890 0.0033324
100558819 0.0011719 0.0034570 0.9988281 -0.0034570 0.9988281 -0.0034570 0.0011719 0.0034570
102769807 0.0011853 0.0035894 0.9988147 -0.0035894 0.9988147 -0.0035894 0.0011853 0.0035894
105029408 0.0012309 0.0037175 0.9987691 -0.0037175 0.9987691 -0.0037175 0.0012309 0.0037175
107338692 0.0013091 0.0038262 0.9986909 -0.0038262 0.9986909 -0.0038262 0.0013091 0.0038262
