!Murata Part Number: GRM3195C2A823JA01
!These Parameters are Measured in Series Mode Connection
!Data Generated on Mar 30, 2021
!       o--ll--o
!Port1            Port2
!       o------o
!Operation Temp=25[degC], DC Bias Voltage=0[V]
!Freq. Start=1000[kHz] Stop=6[GHz] 401[Steps]
# Hz S RI R 50
!Freq.(Hz) S11(Real) S11(Imag) S21(Real) S21(Imag) S12(Real) S12(Imag) S22(Real) S22(Imag)
1000000 0.0004213 -0.0194740 0.9995787 0.0194740 0.9995787 0.0194740 0.0004213 -0.0194740
1021987 0.0004052 -0.0190530 0.9995948 0.0190530 0.9995948 0.0190530 0.0004052 -0.0190530
1044457 0.0003898 -0.0186409 0.9996102 0.0186409 0.9996102 0.0186409 0.0003898 -0.0186409
1067422 0.0003750 -0.0182377 0.9996250 0.0182377 0.9996250 0.0182377 0.0003750 -0.0182377
1090891 0.0003609 -0.0178431 0.9996391 0.0178431 0.9996391 0.0178431 0.0003609 -0.0178431
1114877 0.0003474 -0.0174568 0.9996526 0.0174568 0.9996526 0.0174568 0.0003474 -0.0174568
1139390 0.0003345 -0.0170789 0.9996655 0.0170789 0.9996655 0.0170789 0.0003345 -0.0170789
1164441 0.0003222 -0.0167090 0.9996778 0.0167090 0.9996778 0.0167090 0.0003222 -0.0167090
1190044 0.0003103 -0.0163469 0.9996897 0.0163469 0.9996897 0.0163469 0.0003103 -0.0163469
1216210 0.0002990 -0.0159926 0.9997010 0.0159926 0.9997010 0.0159926 0.0002990 -0.0159926
1242950 0.0002882 -0.0156459 0.9997118 0.0156459 0.9997118 0.0156459 0.0002882 -0.0156459
1270279 0.0002779 -0.0153066 0.9997221 0.0153066 0.9997221 0.0153066 0.0002779 -0.0153066
1298209 0.0002679 -0.0149744 0.9997321 0.0149744 0.9997321 0.0149744 0.0002679 -0.0149744
1326753 0.0002585 -0.0146494 0.9997415 0.0146494 0.9997415 0.0146494 0.0002585 -0.0146494
1355924 0.0002494 -0.0143313 0.9997506 0.0143313 0.9997506 0.0143313 0.0002494 -0.0143313
1385737 0.0002407 -0.0140199 0.9997593 0.0140199 0.9997593 0.0140199 0.0002407 -0.0140199
1416205 0.0002324 -0.0137152 0.9997676 0.0137152 0.9997676 0.0137152 0.0002324 -0.0137152
1447343 0.0002245 -0.0134169 0.9997755 0.0134169 0.9997755 0.0134169 0.0002245 -0.0134169
1479166 0.0002169 -0.0131250 0.9997831 0.0131250 0.9997831 0.0131250 0.0002169 -0.0131250
1511688 0.0002097 -0.0128393 0.9997903 0.0128393 0.9997903 0.0128393 0.0002097 -0.0128393
1544926 0.0002027 -0.0125597 0.9997973 0.0125597 0.9997973 0.0125597 0.0002027 -0.0125597
1578894 0.0001961 -0.0122860 0.9998039 0.0122860 0.9998039 0.0122860 0.0001961 -0.0122860
1613609 0.0001898 -0.0120181 0.9998102 0.0120181 0.9998102 0.0120181 0.0001898 -0.0120181
1649087 0.0001837 -0.0117559 0.9998163 0.0117559 0.9998163 0.0117559 0.0001837 -0.0117559
1685346 0.0001779 -0.0114993 0.9998221 0.0114993 0.9998221 0.0114993 0.0001779 -0.0114993
1722402 0.0001724 -0.0112481 0.9998276 0.0112481 0.9998276 0.0112481 0.0001724 -0.0112481
1760272 0.0001671 -0.0110022 0.9998329 0.0110022 0.9998329 0.0110022 0.0001671 -0.0110022
1798975 0.0001620 -0.0107615 0.9998380 0.0107615 0.9998380 0.0107615 0.0001620 -0.0107615
1838529 0.0001572 -0.0105259 0.9998428 0.0105259 0.9998428 0.0105259 0.0001572 -0.0105259
1878953 0.0001526 -0.0102953 0.9998474 0.0102953 0.9998474 0.0102953 0.0001526 -0.0102953
1920266 0.0001482 -0.0100696 0.9998518 0.0100696 0.9998518 0.0100696 0.0001482 -0.0100696
1962487 0.0001440 -0.0098486 0.9998560 0.0098486 0.9998560 0.0098486 0.0001440 -0.0098486
2005636 0.0001400 -0.0096323 0.9998600 0.0096323 0.9998600 0.0096323 0.0001400 -0.0096323
2049734 0.0001362 -0.0094205 0.9998638 0.0094205 0.9998638 0.0094205 0.0001362 -0.0094205
2094801 0.0001325 -0.0092132 0.9998675 0.0092132 0.9998675 0.0092132 0.0001325 -0.0092132
2140860 0.0001290 -0.0090103 0.9998710 0.0090103 0.9998710 0.0090103 0.0001290 -0.0090103
2187931 0.0001257 -0.0088116 0.9998743 0.0088116 0.9998743 0.0088116 0.0001257 -0.0088116
2236037 0.0001226 -0.0086171 0.9998774 0.0086171 0.9998774 0.0086171 0.0001226 -0.0086171
2285201 0.0001195 -0.0084267 0.9998805 0.0084267 0.9998805 0.0084267 0.0001195 -0.0084267
2335446 0.0001167 -0.0082403 0.9998833 0.0082403 0.9998833 0.0082403 0.0001167 -0.0082403
2386795 0.0001139 -0.0080578 0.9998861 0.0080578 0.9998861 0.0080578 0.0001139 -0.0080578
2439274 0.0001113 -0.0078791 0.9998887 0.0078791 0.9998887 0.0078791 0.0001113 -0.0078791
2492906 0.0001089 -0.0077041 0.9998911 0.0077041 0.9998911 0.0077041 0.0001089 -0.0077041
2547717 0.0001065 -0.0075328 0.9998935 0.0075328 0.9998935 0.0075328 0.0001065 -0.0075328
2603734 0.0001043 -0.0073650 0.9998957 0.0073650 0.9998957 0.0073650 0.0001043 -0.0073650
2660982 0.0001021 -0.0072008 0.9998979 0.0072008 0.9998979 0.0072008 0.0001021 -0.0072008
2719490 0.0001001 -0.0070399 0.9998999 0.0070399 0.9998999 0.0070399 0.0001001 -0.0070399
2779283 0.0000982 -0.0068824 0.9999018 0.0068824 0.9999018 0.0068824 0.0000982 -0.0068824
2840391 0.0000964 -0.0067282 0.9999036 0.0067282 0.9999036 0.0067282 0.0000964 -0.0067282
2902843 0.0000947 -0.0065771 0.9999053 0.0065771 0.9999053 0.0065771 0.0000947 -0.0065771
2966668 0.0000930 -0.0064292 0.9999070 0.0064292 0.9999070 0.0064292 0.0000930 -0.0064292
3031896 0.0000915 -0.0062843 0.9999085 0.0062843 0.9999085 0.0062843 0.0000915 -0.0062843
3098558 0.0000900 -0.0061424 0.9999100 0.0061424 0.9999100 0.0061424 0.0000900 -0.0061424
3166686 0.0000886 -0.0060034 0.9999114 0.0060034 0.9999114 0.0060034 0.0000886 -0.0060034
3236312 0.0000873 -0.0058673 0.9999127 0.0058673 0.9999127 0.0058673 0.0000873 -0.0058673
3307469 0.0000861 -0.0057339 0.9999139 0.0057339 0.9999139 0.0057339 0.0000861 -0.0057339
3380190 0.0000849 -0.0056033 0.9999151 0.0056033 0.9999151 0.0056033 0.0000849 -0.0056033
3454511 0.0000838 -0.0054753 0.9999162 0.0054753 0.9999162 0.0054753 0.0000838 -0.0054753
3530465 0.0000828 -0.0053499 0.9999172 0.0053499 0.9999172 0.0053499 0.0000828 -0.0053499
3608090 0.0000818 -0.0052271 0.9999182 0.0052271 0.9999182 0.0052271 0.0000818 -0.0052271
3687421 0.0000809 -0.0051067 0.9999191 0.0051067 0.9999191 0.0051067 0.0000809 -0.0051067
3768496 0.0000801 -0.0049888 0.9999199 0.0049888 0.9999199 0.0049888 0.0000801 -0.0049888
3851354 0.0000793 -0.0048733 0.9999207 0.0048733 0.9999207 0.0048733 0.0000793 -0.0048733
3936034 0.0000786 -0.0047600 0.9999214 0.0047600 0.9999214 0.0047600 0.0000786 -0.0047600
4022575 0.0000779 -0.0046491 0.9999221 0.0046491 0.9999221 0.0046491 0.0000779 -0.0046491
4111020 0.0000772 -0.0045403 0.9999228 0.0045403 0.9999228 0.0045403 0.0000772 -0.0045403
4201409 0.0000766 -0.0044337 0.9999234 0.0044337 0.9999234 0.0044337 0.0000766 -0.0044337
4293785 0.0000761 -0.0043292 0.9999239 0.0043292 0.9999239 0.0043292 0.0000761 -0.0043292
4388193 0.0000756 -0.0042268 0.9999244 0.0042268 0.9999244 0.0042268 0.0000756 -0.0042268
4484676 0.0000751 -0.0041264 0.9999249 0.0041264 0.9999249 0.0041264 0.0000751 -0.0041264
4583281 0.0000747 -0.0040279 0.9999253 0.0040279 0.9999253 0.0040279 0.0000747 -0.0040279
4684054 0.0000743 -0.0039314 0.9999257 0.0039314 0.9999257 0.0039314 0.0000743 -0.0039314
4787042 0.0000739 -0.0038367 0.9999261 0.0038367 0.9999261 0.0038367 0.0000739 -0.0038367
4892295 0.0000736 -0.0037438 0.9999264 0.0037438 0.9999264 0.0037438 0.0000736 -0.0037438
4999862 0.0000733 -0.0036528 0.9999267 0.0036528 0.9999267 0.0036528 0.0000733 -0.0036528
5109794 0.0000731 -0.0035634 0.9999269 0.0035634 0.9999269 0.0035634 0.0000731 -0.0035634
5222143 0.0000728 -0.0034758 0.9999272 0.0034758 0.9999272 0.0034758 0.0000728 -0.0034758
5336962 0.0000726 -0.0033898 0.9999274 0.0033898 0.9999274 0.0033898 0.0000726 -0.0033898
5454306 0.0000725 -0.0033055 0.9999275 0.0033055 0.9999275 0.0033055 0.0000725 -0.0033055
5574230 0.0000723 -0.0032227 0.9999277 0.0032227 0.9999277 0.0032227 0.0000723 -0.0032227
5696791 0.0000722 -0.0031414 0.9999278 0.0031414 0.9999278 0.0031414 0.0000722 -0.0031414
5822046 0.0000721 -0.0030617 0.9999279 0.0030617 0.9999279 0.0030617 0.0000721 -0.0030617
5950055 0.0000721 -0.0029834 0.9999279 0.0029834 0.9999279 0.0029834 0.0000721 -0.0029834
6080879 0.0000720 -0.0029065 0.9999280 0.0029065 0.9999280 0.0029065 0.0000720 -0.0029065
6214580 0.0000720 -0.0028310 0.9999280 0.0028310 0.9999280 0.0028310 0.0000720 -0.0028310
6351220 0.0000720 -0.0027569 0.9999280 0.0027569 0.9999280 0.0027569 0.0000720 -0.0027569
6490864 0.0000721 -0.0026840 0.9999279 0.0026840 0.9999279 0.0026840 0.0000721 -0.0026840
6633579 0.0000721 -0.0026125 0.9999279 0.0026125 0.9999279 0.0026125 0.0000721 -0.0026125
6779431 0.0000722 -0.0025421 0.9999278 0.0025421 0.9999278 0.0025421 0.0000722 -0.0025421
6928491 0.0000723 -0.0024730 0.9999277 0.0024730 0.9999277 0.0024730 0.0000723 -0.0024730
7080828 0.0000724 -0.0024051 0.9999276 0.0024051 0.9999276 0.0024051 0.0000724 -0.0024051
7236514 0.0000725 -0.0023383 0.9999275 0.0023383 0.9999275 0.0023383 0.0000725 -0.0023383
7395623 0.0000727 -0.0022726 0.9999273 0.0022726 0.9999273 0.0022726 0.0000727 -0.0022726
7558231 0.0000728 -0.0022080 0.9999272 0.0022080 0.9999272 0.0022080 0.0000728 -0.0022080
7724414 0.0000730 -0.0021445 0.9999270 0.0021445 0.9999270 0.0021445 0.0000730 -0.0021445
7894251 0.0000732 -0.0020819 0.9999268 0.0020819 0.9999268 0.0020819 0.0000732 -0.0020819
8067822 0.0000735 -0.0020204 0.9999265 0.0020204 0.9999265 0.0020204 0.0000735 -0.0020204
8245209 0.0000737 -0.0019598 0.9999263 0.0019598 0.9999263 0.0019598 0.0000737 -0.0019598
8426497 0.0000740 -0.0019002 0.9999260 0.0019002 0.9999260 0.0019002 0.0000740 -0.0019002
8611770 0.0000742 -0.0018414 0.9999258 0.0018414 0.9999258 0.0018414 0.0000742 -0.0018414
8801117 0.0000745 -0.0017835 0.9999255 0.0017835 0.9999255 0.0017835 0.0000745 -0.0017835
8994628 0.0000749 -0.0017265 0.9999251 0.0017265 0.9999251 0.0017265 0.0000749 -0.0017265
9192393 0.0000752 -0.0016702 0.9999248 0.0016702 0.9999248 0.0016702 0.0000752 -0.0016702
9394506 0.0000756 -0.0016148 0.9999244 0.0016148 0.9999244 0.0016148 0.0000756 -0.0016148
9601063 0.0000760 -0.0015601 0.9999240 0.0015601 0.9999240 0.0015601 0.0000760 -0.0015601
9812162 0.0000764 -0.0015062 0.9999236 0.0015062 0.9999236 0.0015062 0.0000764 -0.0015062
10027902 0.0000768 -0.0014530 0.9999232 0.0014530 0.9999232 0.0014530 0.0000768 -0.0014530
10248386 0.0000772 -0.0014004 0.9999228 0.0014004 0.9999228 0.0014004 0.0000772 -0.0014004
10473717 0.0000777 -0.0013485 0.9999223 0.0013485 0.9999223 0.0013485 0.0000777 -0.0013485
10704003 0.0000782 -0.0012972 0.9999218 0.0012972 0.9999218 0.0012972 0.0000782 -0.0012972
10939352 0.0000787 -0.0012466 0.9999213 0.0012466 0.9999213 0.0012466 0.0000787 -0.0012466
11179876 0.0000793 -0.0011965 0.9999207 0.0011965 0.9999207 0.0011965 0.0000793 -0.0011965
11425688 0.0000799 -0.0011470 0.9999201 0.0011470 0.9999201 0.0011470 0.0000799 -0.0011470
11676904 0.0000805 -0.0010980 0.9999195 0.0010980 0.9999195 0.0010980 0.0000805 -0.0010980
11933645 0.0000811 -0.0010495 0.9999189 0.0010495 0.9999189 0.0010495 0.0000811 -0.0010495
12196030 0.0000817 -0.0010015 0.9999183 0.0010015 0.9999183 0.0010015 0.0000817 -0.0010015
12464184 0.0000824 -0.0009540 0.9999176 0.0009540 0.9999176 0.0009540 0.0000824 -0.0009540
12738235 0.0000832 -0.0009068 0.9999168 0.0009068 0.9999168 0.0009068 0.0000832 -0.0009068
13018310 0.0000839 -0.0008601 0.9999161 0.0008601 0.9999161 0.0008601 0.0000839 -0.0008601
13304544 0.0000847 -0.0008138 0.9999153 0.0008138 0.9999153 0.0008138 0.0000847 -0.0008138
13597071 0.0000856 -0.0007679 0.9999144 0.0007679 0.9999144 0.0007679 0.0000856 -0.0007679
13896030 0.0000864 -0.0007222 0.9999136 0.0007222 0.9999136 0.0007222 0.0000864 -0.0007222
14201563 0.0000874 -0.0006769 0.9999126 0.0006769 0.9999126 0.0006769 0.0000874 -0.0006769
14513813 0.0000883 -0.0006319 0.9999117 0.0006319 0.9999117 0.0006319 0.0000883 -0.0006319
14832928 0.0000893 -0.0005871 0.9999107 0.0005871 0.9999107 0.0005871 0.0000893 -0.0005871
15159060 0.0000904 -0.0005426 0.9999096 0.0005426 0.9999096 0.0005426 0.0000904 -0.0005426
15492362 0.0000915 -0.0004983 0.9999085 0.0004983 0.9999085 0.0004983 0.0000915 -0.0004983
15832993 0.0000927 -0.0004542 0.9999073 0.0004542 0.9999073 0.0004542 0.0000927 -0.0004542
16181113 0.0000939 -0.0004103 0.9999061 0.0004103 0.9999061 0.0004103 0.0000939 -0.0004103
16536888 0.0000952 -0.0003665 0.9999048 0.0003665 0.9999048 0.0003665 0.0000952 -0.0003665
16900485 0.0000965 -0.0003228 0.9999035 0.0003228 0.9999035 0.0003228 0.0000965 -0.0003228
17272076 0.0000980 -0.0002792 0.9999020 0.0002792 0.9999020 0.0002792 0.0000980 -0.0002792
17651837 0.0000995 -0.0002356 0.9999005 0.0002356 0.9999005 0.0002356 0.0000995 -0.0002356
18039948 0.0001010 -0.0001921 0.9998990 0.0001921 0.9998990 0.0001921 0.0001010 -0.0001921
18436593 0.0001027 -0.0001486 0.9998973 0.0001486 0.9998973 0.0001486 0.0001027 -0.0001486
18841959 0.0001044 -0.0001051 0.9998956 0.0001051 0.9998956 0.0001051 0.0001044 -0.0001051
19256237 0.0001063 -0.0000616 0.9998937 0.0000616 0.9998937 0.0000616 0.0001063 -0.0000616
19679624 0.0001082 -0.0000179 0.9998918 0.0000179 0.9998918 0.0000179 0.0001082 -0.0000179
20112321 0.0001102 0.0000258 0.9998898 -0.0000258 0.9998898 -0.0000258 0.0001102 0.0000258
20554530 0.0001124 0.0000698 0.9998876 -0.0000698 0.9998876 -0.0000698 0.0001124 0.0000698
21006463 0.0001147 0.0001138 0.9998853 -0.0001138 0.9998853 -0.0001138 0.0001147 0.0001138
21468333 0.0001171 0.0001582 0.9998829 -0.0001582 0.9998829 -0.0001582 0.0001171 0.0001582
21940357 0.0001197 0.0002027 0.9998803 -0.0002027 0.9998803 -0.0002027 0.0001197 0.0002027
22422760 0.0001224 0.0002476 0.9998776 -0.0002476 0.9998776 -0.0002476 0.0001224 0.0002476
22915770 0.0001253 0.0002928 0.9998747 -0.0002928 0.9998747 -0.0002928 0.0001253 0.0002928
23419619 0.0001284 0.0003384 0.9998716 -0.0003384 0.9998716 -0.0003384 0.0001284 0.0003384
23934547 0.0001317 0.0003844 0.9998683 -0.0003844 0.9998683 -0.0003844 0.0001317 0.0003844
24460796 0.0001352 0.0004309 0.9998648 -0.0004309 0.9998648 -0.0004309 0.0001352 0.0004309
24998616 0.0001390 0.0004779 0.9998610 -0.0004779 0.9998610 -0.0004779 0.0001390 0.0004779
25548261 0.0001430 0.0005256 0.9998570 -0.0005256 0.9998570 -0.0005256 0.0001430 0.0005256
26109991 0.0001474 0.0005740 0.9998526 -0.0005740 0.9998526 -0.0005740 0.0001474 0.0005740
26684072 0.0001522 0.0006231 0.9998478 -0.0006231 0.9998478 -0.0006231 0.0001522 0.0006231
27270775 0.0001573 0.0006732 0.9998427 -0.0006732 0.9998427 -0.0006732 0.0001573 0.0006732
27870378 0.0001629 0.0007241 0.9998371 -0.0007241 0.9998371 -0.0007241 0.0001629 0.0007241
28483164 0.0001691 0.0007762 0.9998309 -0.0007762 0.9998309 -0.0007762 0.0001691 0.0007762
29109424 0.0001759 0.0008295 0.9998241 -0.0008295 0.9998241 -0.0008295 0.0001759 0.0008295
29749453 0.0001835 0.0008842 0.9998165 -0.0008842 0.9998165 -0.0008842 0.0001835 0.0008842
30403555 0.0001920 0.0009404 0.9998080 -0.0009404 0.9998080 -0.0009404 0.0001920 0.0009404
31072038 0.0002016 0.0009985 0.9997984 -0.0009985 0.9997984 -0.0009985 0.0002016 0.0009985
31755220 0.0002126 0.0010586 0.9997874 -0.0010586 0.9997874 -0.0010586 0.0002126 0.0010586
32453422 0.0002254 0.0011211 0.9997746 -0.0011211 0.9997746 -0.0011211 0.0002254 0.0011211
33166976 0.0002404 0.0011864 0.9997596 -0.0011864 0.9997596 -0.0011864 0.0002404 0.0011864
33896219 0.0002584 0.0012549 0.9997416 -0.0012549 0.9997416 -0.0012549 0.0002584 0.0012549
34641496 0.0002803 0.0013270 0.9997197 -0.0013270 0.9997197 -0.0013270 0.0002803 0.0013270
35403159 0.0003077 0.0014035 0.9996923 -0.0014035 0.9996923 -0.0014035 0.0003077 0.0014035
36181569 0.0003427 0.0014848 0.9996573 -0.0014848 0.9996573 -0.0014848 0.0003427 0.0014848
36977093 0.0003888 0.0015712 0.9996112 -0.0015712 0.9996112 -0.0015712 0.0003888 0.0015712
37790109 0.0004515 0.0016619 0.9995485 -0.0016619 0.9995485 -0.0016619 0.0004515 0.0016619
38621001 0.0005387 0.0017537 0.9994613 -0.0017537 0.9994613 -0.0017537 0.0005387 0.0017537
39470161 0.0006619 0.0018367 0.9993381 -0.0018367 0.9993381 -0.0018367 0.0006619 0.0018367
40337993 0.0008320 0.0018864 0.9991680 -0.0018864 0.9991680 -0.0018864 0.0008320 0.0018864
41224905 0.0010406 0.0018550 0.9989594 -0.0018550 0.9989594 -0.0018550 0.0010406 0.0018550
42131317 0.0012191 0.0016936 0.9987809 -0.0016936 0.9987809 -0.0016936 0.0012191 0.0016936
43057659 0.0012488 0.0014470 0.9987512 -0.0014470 0.9987512 -0.0014470 0.0012488 0.0014470
44004369 0.0011135 0.0012643 0.9988865 -0.0012643 0.9988865 -0.0012643 0.0011135 0.0012643
44971893 0.0009266 0.0012173 0.9990734 -0.0012173 0.9990734 -0.0012173 0.0009266 0.0012173
45960691 0.0007721 0.0012663 0.9992279 -0.0012663 0.9992279 -0.0012663 0.0007721 0.0012663
46971230 0.0006671 0.0013594 0.9993329 -0.0013594 0.9993329 -0.0013594 0.0006671 0.0013594
48003987 0.0006025 0.0014681 0.9993975 -0.0014681 0.9993975 -0.0014681 0.0006025 0.0014681
49059451 0.0005670 0.0015807 0.9994330 -0.0015807 0.9994330 -0.0015807 0.0005670 0.0015807
50138122 0.0005525 0.0016933 0.9994475 -0.0016933 0.9994475 -0.0016933 0.0005525 0.0016933
51240510 0.0005544 0.0018051 0.9994456 -0.0018051 0.9994456 -0.0018051 0.0005544 0.0018051
52367136 0.0005702 0.0019164 0.9994298 -0.0019164 0.9994298 -0.0019164 0.0005702 0.0019164
53518533 0.0005995 0.0020278 0.9994005 -0.0020278 0.9994005 -0.0020278 0.0005995 0.0020278
54695245 0.0006432 0.0021396 0.9993568 -0.0021396 0.9993568 -0.0021396 0.0006432 0.0021396
55897831 0.0007038 0.0022513 0.9992962 -0.0022513 0.9992962 -0.0022513 0.0007038 0.0022513
57126857 0.0007854 0.0023611 0.9992146 -0.0023611 0.9992146 -0.0023611 0.0007854 0.0023611
58382906 0.0008934 0.0024645 0.9991066 -0.0024645 0.9991066 -0.0024645 0.0008934 0.0024645
59666572 0.0010343 0.0025518 0.9989657 -0.0025518 0.9989657 -0.0025518 0.0010343 0.0025518
60978462 0.0012118 0.0026053 0.9987882 -0.0026053 0.9987882 -0.0026053 0.0012118 0.0026053
62319196 0.0014193 0.0025973 0.9985807 -0.0025973 0.9985807 -0.0025973 0.0014193 0.0025973
63689409 0.0016259 0.0024974 0.9983741 -0.0024974 0.9983741 -0.0024974 0.0016259 0.0024974
65089750 0.0017693 0.0022993 0.9982307 -0.0022993 0.9982307 -0.0022993 0.0017693 0.0022993
66520879 0.0017876 0.0020534 0.9982124 -0.0020534 0.9982124 -0.0020534 0.0017876 0.0020534
67983474 0.0016767 0.0018476 0.9983233 -0.0018476 0.9983233 -0.0018476 0.0016767 0.0018476
69478228 0.0014956 0.0017382 0.9985044 -0.0017382 0.9985044 -0.0017382 0.0014956 0.0017382
71005847 0.0013086 0.0017234 0.9986914 -0.0017234 0.9986914 -0.0017234 0.0013086 0.0017234
72567054 0.0011501 0.0017732 0.9988499 -0.0017732 0.9988499 -0.0017732 0.0011501 0.0017732
74162587 0.0010282 0.0018586 0.9989718 -0.0018586 0.9989718 -0.0018586 0.0010282 0.0018586
75793201 0.0009392 0.0019608 0.9990608 -0.0019608 0.9990608 -0.0019608 0.0009392 0.0019608
77459667 0.0008765 0.0020691 0.9991235 -0.0020691 0.9991235 -0.0020691 0.0008765 0.0020691
79162774 0.0008339 0.0021783 0.9991661 -0.0021783 0.9991661 -0.0021783 0.0008339 0.0021783
80903327 0.0008066 0.0022856 0.9991934 -0.0022856 0.9991934 -0.0022856 0.0008066 0.0022856
82682150 0.0007910 0.0023902 0.9992090 -0.0023902 0.9992090 -0.0023902 0.0007910 0.0023902
84500083 0.0007843 0.0024917 0.9992157 -0.0024917 0.9992157 -0.0024917 0.0007843 0.0024917
86357988 0.0007846 0.0025899 0.9992154 -0.0025899 0.9992154 -0.0025899 0.0007846 0.0025899
88256743 0.0007906 0.0026851 0.9992094 -0.0026851 0.9992094 -0.0026851 0.0007906 0.0026851
90197245 0.0008012 0.0027772 0.9991988 -0.0027772 0.9991988 -0.0027772 0.0008012 0.0027772
92180413 0.0008155 0.0028665 0.9991845 -0.0028665 0.9991845 -0.0028665 0.0008155 0.0028665
94207185 0.0008328 0.0029530 0.9991672 -0.0029530 0.9991672 -0.0029530 0.0008328 0.0029530
96278520 0.0008525 0.0030368 0.9991475 -0.0030368 0.9991475 -0.0030368 0.0008525 0.0030368
98395398 0.0008741 0.0031179 0.9991259 -0.0031179 0.9991259 -0.0031179 0.0008741 0.0031179
100558819 0.0008970 0.0031963 0.9991030 -0.0031963 0.9991030 -0.0031963 0.0008970 0.0031963
102769807 0.0009205 0.0032721 0.9990795 -0.0032721 0.9990795 -0.0032721 0.0009205 0.0032721
105029408 0.0009443 0.0033453 0.9990557 -0.0033453 0.9990557 -0.0033453 0.0009443 0.0033453
107338692 0.0009676 0.0034162 0.9990324 -0.0034162 0.9990324 -0.0034162 0.0009676 0.0034162
