!Murata Part Number: GRM31A7U3A220JW31
!These Parameters are Measured in Series Mode Connection
!Data Generated on Mar 30, 2021
!       o--ll--o
!Port1            Port2
!       o------o
!Operation Temp=25[degC], DC Bias Voltage=0[V]
!Freq. Start=100[MHz] Stop=3[GHz] 401[Steps]
# Hz S RI R 50
!Freq.(Hz) S11(Real) S11(Imag) S21(Real) S21(Imag) S12(Real) S12(Imag) S22(Real) S22(Imag)
100000000 0.3406197 -0.4724574 0.6593803 0.4724574 0.6593803 0.4724574 0.3406197 -0.4724574
107250000 0.3095632 -0.4607452 0.6904368 0.4607452 0.6904368 0.4607452 0.3095632 -0.4607452
114500000 0.2819631 -0.4482785 0.7180369 0.4482785 0.7180369 0.4482785 0.2819631 -0.4482785
121750000 0.2574228 -0.4354281 0.7425772 0.4354281 0.7425772 0.4354281 0.2574228 -0.4354281
129000000 0.2355777 -0.4224634 0.7644223 0.4224634 0.7644223 0.4224634 0.2355777 -0.4224634
136250000 0.2161002 -0.4095772 0.7838998 0.4095772 0.7838998 0.4095772 0.2161002 -0.4095772
143500000 0.1986996 -0.3969042 0.8013004 0.3969042 0.8013004 0.3969042 0.1986996 -0.3969042
150750000 0.1831205 -0.3845365 0.8168795 0.3845365 0.8168795 0.3845365 0.1831205 -0.3845365
158000000 0.1691399 -0.3725343 0.8308601 0.3725343 0.8308601 0.3725343 0.1691399 -0.3725343
165250000 0.1565636 -0.3609347 0.8434364 0.3609347 0.8434364 0.3609347 0.1565636 -0.3609347
172500000 0.1452232 -0.3497577 0.8547768 0.3497577 0.8547768 0.3497577 0.1452232 -0.3497577
179750000 0.1349721 -0.3390112 0.8650279 0.3390112 0.8650279 0.3390112 0.1349721 -0.3390112
187000000 0.1256836 -0.3286943 0.8743164 0.3286943 0.8743164 0.3286943 0.1256836 -0.3286943
194250000 0.1172471 -0.3188000 0.8827529 0.3188000 0.8827529 0.3188000 0.1172471 -0.3188000
201500000 0.1095669 -0.3093173 0.8904331 0.3093173 0.8904331 0.3093173 0.1095669 -0.3093173
208750000 0.1025593 -0.3002323 0.8974407 0.3002323 0.8974407 0.3002323 0.1025593 -0.3002323
216000000 0.0961514 -0.2915294 0.9038486 0.2915294 0.9038486 0.2915294 0.0961514 -0.2915294
223250000 0.0902794 -0.2831920 0.9097206 0.2831920 0.9097206 0.2831920 0.0902794 -0.2831920
230500000 0.0848875 -0.2752032 0.9151125 0.2752032 0.9151125 0.2752032 0.0848875 -0.2752032
237750000 0.0799267 -0.2675461 0.9200733 0.2675461 0.9200733 0.2675461 0.0799267 -0.2675461
245000000 0.0753538 -0.2602039 0.9246462 0.2602039 0.9246462 0.2602039 0.0753538 -0.2602039
252250000 0.0711306 -0.2531606 0.9288694 0.2531606 0.9288694 0.2531606 0.0711306 -0.2531606
259500000 0.0672236 -0.2464003 0.9327764 0.2464003 0.9327764 0.2464003 0.0672236 -0.2464003
266750000 0.0636029 -0.2399081 0.9363971 0.2399081 0.9363971 0.2399081 0.0636029 -0.2399081
274000000 0.0602420 -0.2336698 0.9397580 0.2336698 0.9397580 0.2336698 0.0602420 -0.2336698
281250000 0.0571175 -0.2276717 0.9428825 0.2276717 0.9428825 0.2276717 0.0571175 -0.2276717
288500000 0.0542082 -0.2219010 0.9457918 0.2219010 0.9457918 0.2219010 0.0542082 -0.2219010
295750000 0.0514954 -0.2163457 0.9485046 0.2163457 0.9485046 0.2163457 0.0514954 -0.2163457
303000000 0.0489623 -0.2109941 0.9510377 0.2109941 0.9510377 0.2109941 0.0489623 -0.2109941
310250000 0.0465937 -0.2058357 0.9534063 0.2058357 0.9534063 0.2058357 0.0465937 -0.2058357
317500000 0.0443762 -0.2008601 0.9556238 0.2008601 0.9556238 0.2008601 0.0443762 -0.2008601
324750000 0.0422976 -0.1960580 0.9577024 0.1960580 0.9577024 0.1960580 0.0422976 -0.1960580
332000000 0.0403467 -0.1914203 0.9596533 0.1914203 0.9596533 0.1914203 0.0403467 -0.1914203
339250000 0.0385136 -0.1869386 0.9614864 0.1869386 0.9614864 0.1869386 0.0385136 -0.1869386
346500000 0.0367894 -0.1826050 0.9632106 0.1826050 0.9632106 0.1826050 0.0367894 -0.1826050
353750000 0.0351657 -0.1784120 0.9648343 0.1784120 0.9648343 0.1784120 0.0351657 -0.1784120
361000000 0.0336352 -0.1743528 0.9663648 0.1743528 0.9663648 0.1743528 0.0336352 -0.1743528
368250000 0.0321911 -0.1704206 0.9678089 0.1704206 0.9678089 0.1704206 0.0321911 -0.1704206
375500000 0.0308272 -0.1666094 0.9691728 0.1666094 0.9691728 0.1666094 0.0308272 -0.1666094
382750000 0.0295379 -0.1629132 0.9704621 0.1629132 0.9704621 0.1629132 0.0295379 -0.1629132
390000000 0.0283181 -0.1593268 0.9716819 0.1593268 0.9716819 0.1593268 0.0283181 -0.1593268
397250000 0.0271629 -0.1558447 0.9728371 0.1558447 0.9728371 0.1558447 0.0271629 -0.1558447
404500000 0.0260681 -0.1524624 0.9739319 0.1524624 0.9739319 0.1524624 0.0260681 -0.1524624
411750000 0.0250297 -0.1491751 0.9749703 0.1491751 0.9749703 0.1491751 0.0250297 -0.1491751
419000000 0.0240441 -0.1459785 0.9759559 0.1459785 0.9759559 0.1459785 0.0240441 -0.1459785
426250000 0.0231079 -0.1428686 0.9768921 0.1428686 0.9768921 0.1428686 0.0231079 -0.1428686
433500000 0.0222179 -0.1398416 0.9777821 0.1398416 0.9777821 0.1398416 0.0222179 -0.1398416
440750000 0.0213714 -0.1368938 0.9786286 0.1368938 0.9786286 0.1368938 0.0213714 -0.1368938
448000000 0.0205657 -0.1340218 0.9794343 0.1340218 0.9794343 0.1340218 0.0205657 -0.1340218
455250000 0.0197983 -0.1312223 0.9802017 0.1312223 0.9802017 0.1312223 0.0197983 -0.1312223
462500000 0.0190670 -0.1284923 0.9809330 0.1284923 0.9809330 0.1284923 0.0190670 -0.1284923
469750000 0.0183697 -0.1258289 0.9816303 0.1258289 0.9816303 0.1258289 0.0183697 -0.1258289
477000000 0.0177044 -0.1232293 0.9822956 0.1232293 0.9822956 0.1232293 0.0177044 -0.1232293
484250000 0.0170693 -0.1206910 0.9829307 0.1206910 0.9829307 0.1206910 0.0170693 -0.1206910
491500000 0.0164628 -0.1182114 0.9835372 0.1182114 0.9835372 0.1182114 0.0164628 -0.1182114
498750000 0.0158832 -0.1157882 0.9841168 0.1157882 0.9841168 0.1157882 0.0158832 -0.1157882
506000000 0.0153291 -0.1134192 0.9846709 0.1134192 0.9846709 0.1134192 0.0153291 -0.1134192
513250000 0.0147992 -0.1111023 0.9852008 0.1111023 0.9852008 0.1111023 0.0147992 -0.1111023
520500000 0.0142921 -0.1088355 0.9857079 0.1088355 0.9857079 0.1088355 0.0142921 -0.1088355
527750000 0.0138067 -0.1066168 0.9861933 0.1066168 0.9861933 0.1066168 0.0138067 -0.1066168
535000000 0.0133419 -0.1044445 0.9866581 0.1044445 0.9866581 0.1044445 0.0133419 -0.1044445
542250000 0.0128967 -0.1023167 0.9871033 0.1023167 0.9871033 0.1023167 0.0128967 -0.1023167
549500000 0.0124700 -0.1002320 0.9875300 0.1002320 0.9875300 0.1002320 0.0124700 -0.1002320
556750000 0.0120609 -0.0981886 0.9879391 0.0981886 0.9879391 0.0981886 0.0120609 -0.0981886
564000000 0.0116686 -0.0961851 0.9883314 0.0961851 0.9883314 0.0961851 0.0116686 -0.0961851
571250000 0.0112923 -0.0942201 0.9887077 0.0942201 0.9887077 0.0942201 0.0112923 -0.0942201
578500000 0.0109313 -0.0922923 0.9890687 0.0922923 0.9890687 0.0922923 0.0109313 -0.0922923
585750000 0.0105848 -0.0904002 0.9894152 0.0904002 0.9894152 0.0904002 0.0105848 -0.0904002
593000000 0.0102521 -0.0885427 0.9897479 0.0885427 0.9897479 0.0885427 0.0102521 -0.0885427
600250000 0.0099326 -0.0867186 0.9900674 0.0867186 0.9900674 0.0867186 0.0099326 -0.0867186
607500000 0.0096258 -0.0849268 0.9903742 0.0849268 0.9903742 0.0849268 0.0096258 -0.0849268
614750000 0.0093310 -0.0831661 0.9906690 0.0831661 0.9906690 0.0831661 0.0093310 -0.0831661
622000000 0.0090478 -0.0814356 0.9909522 0.0814356 0.9909522 0.0814356 0.0090478 -0.0814356
629250000 0.0087756 -0.0797342 0.9912244 0.0797342 0.9912244 0.0797342 0.0087756 -0.0797342
636500000 0.0085140 -0.0780610 0.9914860 0.0780610 0.9914860 0.0780610 0.0085140 -0.0780610
643750000 0.0082625 -0.0764151 0.9917375 0.0764151 0.9917375 0.0764151 0.0082625 -0.0764151
651000000 0.0080207 -0.0747955 0.9919793 0.0747955 0.9919793 0.0747955 0.0080207 -0.0747955
658250000 0.0077882 -0.0732016 0.9922118 0.0732016 0.9922118 0.0732016 0.0077882 -0.0732016
665500000 0.0075647 -0.0716324 0.9924353 0.0716324 0.9924353 0.0716324 0.0075647 -0.0716324
672750000 0.0073497 -0.0700872 0.9926503 0.0700872 0.9926503 0.0700872 0.0073497 -0.0700872
680000000 0.0071429 -0.0685652 0.9928571 0.0685652 0.9928571 0.0685652 0.0071429 -0.0685652
687250000 0.0069441 -0.0670658 0.9930559 0.0670658 0.9930559 0.0670658 0.0069441 -0.0670658
694500000 0.0067528 -0.0655883 0.9932472 0.0655883 0.9932472 0.0655883 0.0067528 -0.0655883
701750000 0.0065689 -0.0641319 0.9934311 0.0641319 0.9934311 0.0641319 0.0065689 -0.0641319
709000000 0.0063920 -0.0626961 0.9936080 0.0626961 0.9936080 0.0626961 0.0063920 -0.0626961
716250000 0.0062219 -0.0612803 0.9937781 0.0612803 0.9937781 0.0612803 0.0062219 -0.0612803
723500000 0.0060583 -0.0598838 0.9939417 0.0598838 0.9939417 0.0598838 0.0060583 -0.0598838
730750000 0.0059010 -0.0585062 0.9940990 0.0585062 0.9940990 0.0585062 0.0059010 -0.0585062
738000000 0.0057498 -0.0571468 0.9942502 0.0571468 0.9942502 0.0571468 0.0057498 -0.0571468
745250000 0.0056044 -0.0558052 0.9943956 0.0558052 0.9943956 0.0558052 0.0056044 -0.0558052
752500000 0.0054646 -0.0544808 0.9945354 0.0544808 0.9945354 0.0544808 0.0054646 -0.0544808
759750000 0.0053304 -0.0531732 0.9946696 0.0531732 0.9946696 0.0531732 0.0053304 -0.0531732
767000000 0.0052013 -0.0518819 0.9947987 0.0518819 0.9947987 0.0518819 0.0052013 -0.0518819
774250000 0.0050774 -0.0506064 0.9949226 0.0506064 0.9949226 0.0506064 0.0050774 -0.0506064
781500000 0.0049584 -0.0493464 0.9950416 0.0493464 0.9950416 0.0493464 0.0049584 -0.0493464
788750000 0.0048441 -0.0481013 0.9951559 0.0481013 0.9951559 0.0481013 0.0048441 -0.0481013
796000000 0.0047344 -0.0468708 0.9952656 0.0468708 0.9952656 0.0468708 0.0047344 -0.0468708
803250000 0.0046292 -0.0456546 0.9953708 0.0456546 0.9953708 0.0456546 0.0046292 -0.0456546
810500000 0.0045283 -0.0444521 0.9954717 0.0444521 0.9954717 0.0444521 0.0045283 -0.0444521
817750000 0.0044316 -0.0432631 0.9955684 0.0432631 0.9955684 0.0432631 0.0044316 -0.0432631
825000000 0.0043390 -0.0420872 0.9956610 0.0420872 0.9956610 0.0420872 0.0043390 -0.0420872
832250000 0.0042502 -0.0409240 0.9957498 0.0409240 0.9957498 0.0409240 0.0042502 -0.0409240
839500000 0.0041653 -0.0397733 0.9958347 0.0397733 0.9958347 0.0397733 0.0041653 -0.0397733
846750000 0.0040840 -0.0386347 0.9959160 0.0386347 0.9959160 0.0386347 0.0040840 -0.0386347
854000000 0.0040064 -0.0375079 0.9959936 0.0375079 0.9959936 0.0375079 0.0040064 -0.0375079
861250000 0.0039322 -0.0363925 0.9960678 0.0363925 0.9960678 0.0363925 0.0039322 -0.0363925
868500000 0.0038614 -0.0352884 0.9961386 0.0352884 0.9961386 0.0352884 0.0038614 -0.0352884
875750000 0.0037939 -0.0341953 0.9962061 0.0341953 0.9962061 0.0341953 0.0037939 -0.0341953
883000000 0.0037296 -0.0331128 0.9962704 0.0331128 0.9962704 0.0331128 0.0037296 -0.0331128
890250000 0.0036684 -0.0320407 0.9963316 0.0320407 0.9963316 0.0320407 0.0036684 -0.0320407
897500000 0.0036103 -0.0309787 0.9963897 0.0309787 0.9963897 0.0309787 0.0036103 -0.0309787
904750000 0.0035550 -0.0299266 0.9964450 0.0299266 0.9964450 0.0299266 0.0035550 -0.0299266
912000000 0.0035027 -0.0288842 0.9964973 0.0288842 0.9964973 0.0288842 0.0035027 -0.0288842
919250000 0.0034531 -0.0278512 0.9965469 0.0278512 0.9965469 0.0278512 0.0034531 -0.0278512
926500000 0.0034063 -0.0268275 0.9965937 0.0268275 0.9965937 0.0268275 0.0034063 -0.0268275
933750000 0.0033620 -0.0258127 0.9966380 0.0258127 0.9966380 0.0258127 0.0033620 -0.0258127
941000000 0.0033204 -0.0248066 0.9966796 0.0248066 0.9966796 0.0248066 0.0033204 -0.0248066
948250000 0.0032813 -0.0238091 0.9967187 0.0238091 0.9967187 0.0238091 0.0032813 -0.0238091
955500000 0.0032447 -0.0228200 0.9967553 0.0228200 0.9967553 0.0228200 0.0032447 -0.0228200
962750000 0.0032104 -0.0218391 0.9967896 0.0218391 0.9967896 0.0218391 0.0032104 -0.0218391
970000000 0.0031785 -0.0208661 0.9968215 0.0208661 0.9968215 0.0208661 0.0031785 -0.0208661
977250000 0.0031489 -0.0199010 0.9968511 0.0199010 0.9968511 0.0199010 0.0031489 -0.0199010
984500000 0.0031216 -0.0189434 0.9968784 0.0189434 0.9968784 0.0189434 0.0031216 -0.0189434
991750000 0.0030964 -0.0179933 0.9969036 0.0179933 0.9969036 0.0179933 0.0030964 -0.0179933
999000000 0.0030733 -0.0170505 0.9969267 0.0170505 0.9969267 0.0170505 0.0030733 -0.0170505
1006250000 0.0030523 -0.0161148 0.9969477 0.0161148 0.9969477 0.0161148 0.0030523 -0.0161148
1013500000 0.0030334 -0.0151860 0.9969666 0.0151860 0.9969666 0.0151860 0.0030334 -0.0151860
1020750000 0.0030165 -0.0142641 0.9969835 0.0142641 0.9969835 0.0142641 0.0030165 -0.0142641
1028000000 0.0030015 -0.0133488 0.9969985 0.0133488 0.9969985 0.0133488 0.0030015 -0.0133488
1035250000 0.0029885 -0.0124399 0.9970115 0.0124399 0.9970115 0.0124399 0.0029885 -0.0124399
1042500000 0.0029773 -0.0115375 0.9970227 0.0115375 0.9970227 0.0115375 0.0029773 -0.0115375
1049750000 0.0029680 -0.0106413 0.9970320 0.0106413 0.9970320 0.0106413 0.0029680 -0.0106413
1057000000 0.0029605 -0.0097511 0.9970395 0.0097511 0.9970395 0.0097511 0.0029605 -0.0097511
1064250000 0.0029547 -0.0088669 0.9970453 0.0088669 0.9970453 0.0088669 0.0029547 -0.0088669
1071500000 0.0029507 -0.0079885 0.9970493 0.0079885 0.9970493 0.0079885 0.0029507 -0.0079885
1078750000 0.0029484 -0.0071159 0.9970516 0.0071159 0.9970516 0.0071159 0.0029484 -0.0071159
1086000000 0.0029477 -0.0062488 0.9970523 0.0062488 0.9970523 0.0062488 0.0029477 -0.0062488
1093250000 0.0029487 -0.0053871 0.9970513 0.0053871 0.9970513 0.0053871 0.0029487 -0.0053871
1100500000 0.0029513 -0.0045308 0.9970487 0.0045308 0.9970487 0.0045308 0.0029513 -0.0045308
1107750000 0.0029555 -0.0036797 0.9970445 0.0036797 0.9970445 0.0036797 0.0029555 -0.0036797
1115000000 0.0029612 -0.0028338 0.9970388 0.0028338 0.9970388 0.0028338 0.0029612 -0.0028338
1122250000 0.0029685 -0.0019928 0.9970315 0.0019928 0.9970315 0.0019928 0.0029685 -0.0019928
1129500000 0.0029773 -0.0011568 0.9970227 0.0011568 0.9970227 0.0011568 0.0029773 -0.0011568
1136750000 0.0029875 -0.0003255 0.9970125 0.0003255 0.9970125 0.0003255 0.0029875 -0.0003255
1144000000 0.0029992 0.0005010 0.9970008 -0.0005010 0.9970008 -0.0005010 0.0029992 0.0005010
1151250000 0.0030124 0.0013230 0.9969876 -0.0013230 0.9969876 -0.0013230 0.0030124 0.0013230
1158500000 0.0030269 0.0021404 0.9969731 -0.0021404 0.9969731 -0.0021404 0.0030269 0.0021404
1165750000 0.0030428 0.0029534 0.9969572 -0.0029534 0.9969572 -0.0029534 0.0030428 0.0029534
1173000000 0.0030601 0.0037621 0.9969399 -0.0037621 0.9969399 -0.0037621 0.0030601 0.0037621
1180250000 0.0030788 0.0045666 0.9969212 -0.0045666 0.9969212 -0.0045666 0.0030788 0.0045666
1187500000 0.0030987 0.0053669 0.9969013 -0.0053669 0.9969013 -0.0053669 0.0030987 0.0053669
1194750000 0.0031200 0.0061631 0.9968800 -0.0061631 0.9968800 -0.0061631 0.0031200 0.0061631
1202000000 0.0031425 0.0069554 0.9968575 -0.0069554 0.9968575 -0.0069554 0.0031425 0.0069554
1209250000 0.0031664 0.0077438 0.9968336 -0.0077438 0.9968336 -0.0077438 0.0031664 0.0077438
1216500000 0.0031915 0.0085283 0.9968085 -0.0085283 0.9968085 -0.0085283 0.0031915 0.0085283
1223750000 0.0032178 0.0093091 0.9967822 -0.0093091 0.9967822 -0.0093091 0.0032178 0.0093091
1231000000 0.0032453 0.0100863 0.9967547 -0.0100863 0.9967547 -0.0100863 0.0032453 0.0100863
1238250000 0.0032741 0.0108598 0.9967259 -0.0108598 0.9967259 -0.0108598 0.0032741 0.0108598
1245500000 0.0033040 0.0116298 0.9966960 -0.0116298 0.9966960 -0.0116298 0.0033040 0.0116298
1252750000 0.0033351 0.0123964 0.9966649 -0.0123964 0.9966649 -0.0123964 0.0033351 0.0123964
1260000000 0.0033674 0.0131596 0.9966326 -0.0131596 0.9966326 -0.0131596 0.0033674 0.0131596
1267250000 0.0034008 0.0139195 0.9965992 -0.0139195 0.9965992 -0.0139195 0.0034008 0.0139195
1274500000 0.0034354 0.0146762 0.9965646 -0.0146762 0.9965646 -0.0146762 0.0034354 0.0146762
1281750000 0.0034711 0.0154296 0.9965289 -0.0154296 0.9965289 -0.0154296 0.0034711 0.0154296
1289000000 0.0035078 0.0161800 0.9964922 -0.0161800 0.9964922 -0.0161800 0.0035078 0.0161800
1296250000 0.0035457 0.0169273 0.9964543 -0.0169273 0.9964543 -0.0169273 0.0035457 0.0169273
1303500000 0.0035847 0.0176716 0.9964153 -0.0176716 0.9964153 -0.0176716 0.0035847 0.0176716
1310750000 0.0036248 0.0184129 0.9963752 -0.0184129 0.9963752 -0.0184129 0.0036248 0.0184129
1318000000 0.0036659 0.0191514 0.9963341 -0.0191514 0.9963341 -0.0191514 0.0036659 0.0191514
1325250000 0.0037081 0.0198871 0.9962919 -0.0198871 0.9962919 -0.0198871 0.0037081 0.0198871
1332500000 0.0037513 0.0206200 0.9962487 -0.0206200 0.9962487 -0.0206200 0.0037513 0.0206200
1339750000 0.0037955 0.0213503 0.9962045 -0.0213503 0.9962045 -0.0213503 0.0037955 0.0213503
1347000000 0.0038408 0.0220778 0.9961592 -0.0220778 0.9961592 -0.0220778 0.0038408 0.0220778
1354250000 0.0038871 0.0228028 0.9961129 -0.0228028 0.9961129 -0.0228028 0.0038871 0.0228028
1361500000 0.0039344 0.0235253 0.9960656 -0.0235253 0.9960656 -0.0235253 0.0039344 0.0235253
1368750000 0.0039827 0.0242452 0.9960173 -0.0242452 0.9960173 -0.0242452 0.0039827 0.0242452
1376000000 0.0040320 0.0249627 0.9959680 -0.0249627 0.9959680 -0.0249627 0.0040320 0.0249627
1383250000 0.0040823 0.0256778 0.9959177 -0.0256778 0.9959177 -0.0256778 0.0040823 0.0256778
1390500000 0.0041336 0.0263906 0.9958664 -0.0263906 0.9958664 -0.0263906 0.0041336 0.0263906
1397750000 0.0041858 0.0271010 0.9958142 -0.0271010 0.9958142 -0.0271010 0.0041858 0.0271010
1405000000 0.0042390 0.0278093 0.9957610 -0.0278093 0.9957610 -0.0278093 0.0042390 0.0278093
1412250000 0.0042932 0.0285153 0.9957068 -0.0285153 0.9957068 -0.0285153 0.0042932 0.0285153
1419500000 0.0043483 0.0292191 0.9956517 -0.0292191 0.9956517 -0.0292191 0.0043483 0.0292191
1426750000 0.0044043 0.0299209 0.9955957 -0.0299209 0.9955957 -0.0299209 0.0044043 0.0299209
1434000000 0.0044613 0.0306205 0.9955387 -0.0306205 0.9955387 -0.0306205 0.0044613 0.0306205
1441250000 0.0045192 0.0313182 0.9954808 -0.0313182 0.9954808 -0.0313182 0.0045192 0.0313182
1448500000 0.0045780 0.0320138 0.9954220 -0.0320138 0.9954220 -0.0320138 0.0045780 0.0320138
1455750000 0.0046377 0.0327075 0.9953623 -0.0327075 0.9953623 -0.0327075 0.0046377 0.0327075
1463000000 0.0046984 0.0333993 0.9953016 -0.0333993 0.9953016 -0.0333993 0.0046984 0.0333993
1470250000 0.0047600 0.0340893 0.9952400 -0.0340893 0.9952400 -0.0340893 0.0047600 0.0340893
1477500000 0.0048225 0.0347774 0.9951775 -0.0347774 0.9951775 -0.0347774 0.0048225 0.0347774
1484750000 0.0048858 0.0354637 0.9951142 -0.0354637 0.9951142 -0.0354637 0.0048858 0.0354637
1492000000 0.0049501 0.0361483 0.9950499 -0.0361483 0.9950499 -0.0361483 0.0049501 0.0361483
1499250000 0.0050153 0.0368311 0.9949847 -0.0368311 0.9949847 -0.0368311 0.0050153 0.0368311
1506500000 0.0050813 0.0375123 0.9949187 -0.0375123 0.9949187 -0.0375123 0.0050813 0.0375123
1513750000 0.0051483 0.0381919 0.9948517 -0.0381919 0.9948517 -0.0381919 0.0051483 0.0381919
1521000000 0.0052161 0.0388698 0.9947839 -0.0388698 0.9947839 -0.0388698 0.0052161 0.0388698
1528250000 0.0052848 0.0395462 0.9947152 -0.0395462 0.9947152 -0.0395462 0.0052848 0.0395462
1535500000 0.0053544 0.0402210 0.9946456 -0.0402210 0.9946456 -0.0402210 0.0053544 0.0402210
1542750000 0.0054248 0.0408943 0.9945752 -0.0408943 0.9945752 -0.0408943 0.0054248 0.0408943
1550000000 0.0054961 0.0415662 0.9945039 -0.0415662 0.9945039 -0.0415662 0.0054961 0.0415662
1557250000 0.0055683 0.0422366 0.9944317 -0.0422366 0.9944317 -0.0422366 0.0055683 0.0422366
1564500000 0.0056413 0.0429056 0.9943587 -0.0429056 0.9943587 -0.0429056 0.0056413 0.0429056
1571750000 0.0057152 0.0435733 0.9942848 -0.0435733 0.9942848 -0.0435733 0.0057152 0.0435733
1579000000 0.0057900 0.0442396 0.9942100 -0.0442396 0.9942100 -0.0442396 0.0057900 0.0442396
1586250000 0.0058656 0.0449046 0.9941344 -0.0449046 0.9941344 -0.0449046 0.0058656 0.0449046
1593500000 0.0059420 0.0455683 0.9940580 -0.0455683 0.9940580 -0.0455683 0.0059420 0.0455683
1600750000 0.0060193 0.0462307 0.9939807 -0.0462307 0.9939807 -0.0462307 0.0060193 0.0462307
1608000000 0.0060975 0.0468920 0.9939025 -0.0468920 0.9939025 -0.0468920 0.0060975 0.0468920
1615250000 0.0061765 0.0475520 0.9938235 -0.0475520 0.9938235 -0.0475520 0.0061765 0.0475520
1622500000 0.0062564 0.0482109 0.9937436 -0.0482109 0.9937436 -0.0482109 0.0062564 0.0482109
1629750000 0.0063370 0.0488686 0.9936630 -0.0488686 0.9936630 -0.0488686 0.0063370 0.0488686
