!Murata Part Number: GRM3192C2A183JA01
!These Parameters are Measured in Series Mode Connection
!Data Generated on Mar 30, 2021
!       o--ll--o
!Port1            Port2
!       o------o
!Operation Temp=25[degC], DC Bias Voltage=0[V]
!Freq. Start=1000[kHz] Stop=6[GHz] 401[Steps]
# Hz S RI R 50
!Freq.(Hz) S11(Real) S11(Imag) S21(Real) S21(Imag) S12(Real) S12(Imag) S22(Real) S22(Imag)
1000000 0.0079175 -0.0882477 0.9920825 0.0882477 0.9920825 0.0882477 0.0079175 -0.0882477
1021987 0.0075856 -0.0863755 0.9924144 0.0863755 0.9924144 0.0863755 0.0075856 -0.0863755
1044457 0.0072677 -0.0845417 0.9927323 0.0845417 0.9927323 0.0845417 0.0072677 -0.0845417
1067422 0.0069631 -0.0827457 0.9930369 0.0827457 0.9930369 0.0827457 0.0069631 -0.0827457
1090891 0.0066713 -0.0809866 0.9933287 0.0809866 0.9933287 0.0809866 0.0066713 -0.0809866
1114877 0.0063917 -0.0792639 0.9936083 0.0792639 0.9936083 0.0792639 0.0063917 -0.0792639
1139390 0.0061240 -0.0775767 0.9938760 0.0775767 0.9938760 0.0775767 0.0061240 -0.0775767
1164441 0.0058675 -0.0759245 0.9941325 0.0759245 0.9941325 0.0759245 0.0058675 -0.0759245
1190044 0.0056218 -0.0743065 0.9943782 0.0743065 0.9943782 0.0743065 0.0056218 -0.0743065
1216210 0.0053865 -0.0727222 0.9946135 0.0727222 0.9946135 0.0727222 0.0053865 -0.0727222
1242950 0.0051611 -0.0711708 0.9948389 0.0711708 0.9948389 0.0711708 0.0051611 -0.0711708
1270279 0.0049452 -0.0696517 0.9950548 0.0696517 0.9950548 0.0696517 0.0049452 -0.0696517
1298209 0.0047384 -0.0681642 0.9952616 0.0681642 0.9952616 0.0681642 0.0047384 -0.0681642
1326753 0.0045404 -0.0667078 0.9954596 0.0667078 0.9954596 0.0667078 0.0045404 -0.0667078
1355924 0.0043507 -0.0652819 0.9956493 0.0652819 0.9956493 0.0652819 0.0043507 -0.0652819
1385737 0.0041691 -0.0638857 0.9958309 0.0638857 0.9958309 0.0638857 0.0041691 -0.0638857
1416205 0.0039952 -0.0625189 0.9960048 0.0625189 0.9960048 0.0625189 0.0039952 -0.0625189
1447343 0.0038286 -0.0611806 0.9961714 0.0611806 0.9961714 0.0611806 0.0038286 -0.0611806
1479166 0.0036690 -0.0598705 0.9963310 0.0598705 0.9963310 0.0598705 0.0036690 -0.0598705
1511688 0.0035163 -0.0585878 0.9964837 0.0585878 0.9964837 0.0585878 0.0035163 -0.0585878
1544926 0.0033700 -0.0573321 0.9966300 0.0573321 0.9966300 0.0573321 0.0033700 -0.0573321
1578894 0.0032299 -0.0561029 0.9967701 0.0561029 0.9967701 0.0561029 0.0032299 -0.0561029
1613609 0.0030957 -0.0548995 0.9969043 0.0548995 0.9969043 0.0548995 0.0030957 -0.0548995
1649087 0.0029673 -0.0537214 0.9970327 0.0537214 0.9970327 0.0537214 0.0029673 -0.0537214
1685346 0.0028443 -0.0525682 0.9971557 0.0525682 0.9971557 0.0525682 0.0028443 -0.0525682
1722402 0.0027265 -0.0514393 0.9972735 0.0514393 0.9972735 0.0514393 0.0027265 -0.0514393
1760272 0.0026138 -0.0503343 0.9973862 0.0503343 0.9973862 0.0503343 0.0026138 -0.0503343
1798975 0.0025058 -0.0492526 0.9974942 0.0492526 0.9974942 0.0492526 0.0025058 -0.0492526
1838529 0.0024024 -0.0481937 0.9975976 0.0481937 0.9975976 0.0481937 0.0024024 -0.0481937
1878953 0.0023035 -0.0471572 0.9976965 0.0471572 0.9976965 0.0471572 0.0023035 -0.0471572
1920266 0.0022087 -0.0461427 0.9977913 0.0461427 0.9977913 0.0461427 0.0022087 -0.0461427
1962487 0.0021180 -0.0451496 0.9978820 0.0451496 0.9978820 0.0451496 0.0021180 -0.0451496
2005636 0.0020311 -0.0441775 0.9979689 0.0441775 0.9979689 0.0441775 0.0020311 -0.0441775
2049734 0.0019479 -0.0432260 0.9980521 0.0432260 0.9980521 0.0432260 0.0019479 -0.0432260
2094801 0.0018683 -0.0422946 0.9981317 0.0422946 0.9981317 0.0422946 0.0018683 -0.0422946
2140860 0.0017921 -0.0413830 0.9982079 0.0413830 0.9982079 0.0413830 0.0017921 -0.0413830
2187931 0.0017192 -0.0404907 0.9982808 0.0404907 0.9982808 0.0404907 0.0017192 -0.0404907
2236037 0.0016493 -0.0396174 0.9983507 0.0396174 0.9983507 0.0396174 0.0016493 -0.0396174
2285201 0.0015824 -0.0387625 0.9984176 0.0387625 0.9984176 0.0387625 0.0015824 -0.0387625
2335446 0.0015184 -0.0379258 0.9984816 0.0379258 0.9984816 0.0379258 0.0015184 -0.0379258
2386795 0.0014572 -0.0371068 0.9985428 0.0371068 0.9985428 0.0371068 0.0014572 -0.0371068
2439274 0.0013985 -0.0363052 0.9986015 0.0363052 0.9986015 0.0363052 0.0013985 -0.0363052
2492906 0.0013424 -0.0355206 0.9986576 0.0355206 0.9986576 0.0355206 0.0013424 -0.0355206
2547717 0.0012886 -0.0347526 0.9987114 0.0347526 0.9987114 0.0347526 0.0012886 -0.0347526
2603734 0.0012372 -0.0340009 0.9987628 0.0340009 0.9987628 0.0340009 0.0012372 -0.0340009
2660982 0.0011879 -0.0332652 0.9988121 0.0332652 0.9988121 0.0332652 0.0011879 -0.0332652
2719490 0.0011408 -0.0325451 0.9988592 0.0325451 0.9988592 0.0325451 0.0011408 -0.0325451
2779283 0.0010957 -0.0318403 0.9989043 0.0318403 0.9989043 0.0318403 0.0010957 -0.0318403
2840391 0.0010525 -0.0311504 0.9989475 0.0311504 0.9989475 0.0311504 0.0010525 -0.0311504
2902843 0.0010112 -0.0304751 0.9989888 0.0304751 0.9989888 0.0304751 0.0010112 -0.0304751
2966668 0.0009717 -0.0298142 0.9990283 0.0298142 0.9990283 0.0298142 0.0009717 -0.0298142
3031896 0.0009338 -0.0291673 0.9990662 0.0291673 0.9990662 0.0291673 0.0009338 -0.0291673
3098558 0.0008976 -0.0285341 0.9991024 0.0285341 0.9991024 0.0285341 0.0008976 -0.0285341
3166686 0.0008629 -0.0279143 0.9991371 0.0279143 0.9991371 0.0279143 0.0008629 -0.0279143
3236312 0.0008297 -0.0273077 0.9991703 0.0273077 0.9991703 0.0273077 0.0008297 -0.0273077
3307469 0.0007980 -0.0267139 0.9992020 0.0267139 0.9992020 0.0267139 0.0007980 -0.0267139
3380190 0.0007676 -0.0261327 0.9992324 0.0261327 0.9992324 0.0261327 0.0007676 -0.0261327
3454511 0.0007385 -0.0255638 0.9992615 0.0255638 0.9992615 0.0255638 0.0007385 -0.0255638
3530465 0.0007107 -0.0250069 0.9992893 0.0250069 0.9992893 0.0250069 0.0007107 -0.0250069
3608090 0.0006841 -0.0244619 0.9993159 0.0244619 0.9993159 0.0244619 0.0006841 -0.0244619
3687421 0.0006586 -0.0239283 0.9993414 0.0239283 0.9993414 0.0239283 0.0006586 -0.0239283
3768496 0.0006342 -0.0234060 0.9993658 0.0234060 0.9993658 0.0234060 0.0006342 -0.0234060
3851354 0.0006109 -0.0228948 0.9993891 0.0228948 0.9993891 0.0228948 0.0006109 -0.0228948
3936034 0.0005886 -0.0223944 0.9994114 0.0223944 0.9994114 0.0223944 0.0005886 -0.0223944
4022575 0.0005672 -0.0219045 0.9994328 0.0219045 0.9994328 0.0219045 0.0005672 -0.0219045
4111020 0.0005468 -0.0214249 0.9994532 0.0214249 0.9994532 0.0214249 0.0005468 -0.0214249
4201409 0.0005273 -0.0209555 0.9994727 0.0209555 0.9994727 0.0209555 0.0005273 -0.0209555
4293785 0.0005086 -0.0204960 0.9994914 0.0204960 0.9994914 0.0204960 0.0005086 -0.0204960
4388193 0.0004907 -0.0200461 0.9995093 0.0200461 0.9995093 0.0200461 0.0004907 -0.0200461
4484676 0.0004736 -0.0196057 0.9995264 0.0196057 0.9995264 0.0196057 0.0004736 -0.0196057
4583281 0.0004572 -0.0191745 0.9995428 0.0191745 0.9995428 0.0191745 0.0004572 -0.0191745
4684054 0.0004416 -0.0187524 0.9995584 0.0187524 0.9995584 0.0187524 0.0004416 -0.0187524
4787042 0.0004266 -0.0183392 0.9995734 0.0183392 0.9995734 0.0183392 0.0004266 -0.0183392
4892295 0.0004123 -0.0179346 0.9995877 0.0179346 0.9995877 0.0179346 0.0004123 -0.0179346
4999862 0.0003986 -0.0175384 0.9996014 0.0175384 0.9996014 0.0175384 0.0003986 -0.0175384
5109794 0.0003856 -0.0171506 0.9996144 0.0171506 0.9996144 0.0171506 0.0003856 -0.0171506
5222143 0.0003730 -0.0167709 0.9996270 0.0167709 0.9996270 0.0167709 0.0003730 -0.0167709
5336962 0.0003611 -0.0163991 0.9996389 0.0163991 0.9996389 0.0163991 0.0003611 -0.0163991
5454306 0.0003497 -0.0160350 0.9996503 0.0160350 0.9996503 0.0160350 0.0003497 -0.0160350
5574230 0.0003387 -0.0156786 0.9996613 0.0156786 0.9996613 0.0156786 0.0003387 -0.0156786
5696791 0.0003283 -0.0153295 0.9996717 0.0153295 0.9996717 0.0153295 0.0003283 -0.0153295
5822046 0.0003183 -0.0149877 0.9996817 0.0149877 0.9996817 0.0149877 0.0003183 -0.0149877
5950055 0.0003088 -0.0146529 0.9996912 0.0146529 0.9996912 0.0146529 0.0003088 -0.0146529
6080879 0.0002997 -0.0143251 0.9997003 0.0143251 0.9997003 0.0143251 0.0002997 -0.0143251
6214580 0.0002910 -0.0140041 0.9997090 0.0140041 0.9997090 0.0140041 0.0002910 -0.0140041
6351220 0.0002827 -0.0136897 0.9997173 0.0136897 0.9997173 0.0136897 0.0002827 -0.0136897
6490864 0.0002748 -0.0133817 0.9997252 0.0133817 0.9997252 0.0133817 0.0002748 -0.0133817
6633579 0.0002672 -0.0130801 0.9997328 0.0130801 0.9997328 0.0130801 0.0002672 -0.0130801
6779431 0.0002600 -0.0127847 0.9997400 0.0127847 0.9997400 0.0127847 0.0002600 -0.0127847
6928491 0.0002532 -0.0124954 0.9997468 0.0124954 0.9997468 0.0124954 0.0002532 -0.0124954
7080828 0.0002466 -0.0122119 0.9997534 0.0122119 0.9997534 0.0122119 0.0002466 -0.0122119
7236514 0.0002403 -0.0119342 0.9997597 0.0119342 0.9997597 0.0119342 0.0002403 -0.0119342
7395623 0.0002344 -0.0116622 0.9997656 0.0116622 0.9997656 0.0116622 0.0002344 -0.0116622
7558231 0.0002287 -0.0113957 0.9997713 0.0113957 0.9997713 0.0113957 0.0002287 -0.0113957
7724414 0.0002233 -0.0111346 0.9997767 0.0111346 0.9997767 0.0111346 0.0002233 -0.0111346
7894251 0.0002182 -0.0108787 0.9997818 0.0108787 0.9997818 0.0108787 0.0002182 -0.0108787
8067822 0.0002133 -0.0106280 0.9997867 0.0106280 0.9997867 0.0106280 0.0002133 -0.0106280
8245209 0.0002086 -0.0103824 0.9997914 0.0103824 0.9997914 0.0103824 0.0002086 -0.0103824
8426497 0.0002042 -0.0101416 0.9997958 0.0101416 0.9997958 0.0101416 0.0002042 -0.0101416
8611770 0.0002000 -0.0099057 0.9998000 0.0099057 0.9998000 0.0099057 0.0002000 -0.0099057
8801117 0.0001960 -0.0096744 0.9998040 0.0096744 0.9998040 0.0096744 0.0001960 -0.0096744
8994628 0.0001922 -0.0094478 0.9998078 0.0094478 0.9998078 0.0094478 0.0001922 -0.0094478
9192393 0.0001887 -0.0092256 0.9998113 0.0092256 0.9998113 0.0092256 0.0001887 -0.0092256
9394506 0.0001853 -0.0090078 0.9998147 0.0090078 0.9998147 0.0090078 0.0001853 -0.0090078
9601063 0.0001821 -0.0087942 0.9998179 0.0087942 0.9998179 0.0087942 0.0001821 -0.0087942
9812162 0.0001791 -0.0085849 0.9998209 0.0085849 0.9998209 0.0085849 0.0001791 -0.0085849
10027902 0.0001762 -0.0083796 0.9998238 0.0083796 0.9998238 0.0083796 0.0001762 -0.0083796
10248386 0.0001735 -0.0081783 0.9998265 0.0081783 0.9998265 0.0081783 0.0001735 -0.0081783
10473717 0.0001710 -0.0079808 0.9998290 0.0079808 0.9998290 0.0079808 0.0001710 -0.0079808
10704003 0.0001686 -0.0077872 0.9998314 0.0077872 0.9998314 0.0077872 0.0001686 -0.0077872
10939352 0.0001664 -0.0075972 0.9998336 0.0075972 0.9998336 0.0075972 0.0001664 -0.0075972
11179876 0.0001643 -0.0074109 0.9998357 0.0074109 0.9998357 0.0074109 0.0001643 -0.0074109
11425688 0.0001624 -0.0072280 0.9998376 0.0072280 0.9998376 0.0072280 0.0001624 -0.0072280
11676904 0.0001606 -0.0070486 0.9998394 0.0070486 0.9998394 0.0070486 0.0001606 -0.0070486
11933645 0.0001589 -0.0068726 0.9998411 0.0068726 0.9998411 0.0068726 0.0001589 -0.0068726
12196030 0.0001574 -0.0066998 0.9998426 0.0066998 0.9998426 0.0066998 0.0001574 -0.0066998
12464184 0.0001559 -0.0065302 0.9998441 0.0065302 0.9998441 0.0065302 0.0001559 -0.0065302
12738235 0.0001546 -0.0063638 0.9998454 0.0063638 0.9998454 0.0063638 0.0001546 -0.0063638
13018310 0.0001534 -0.0062003 0.9998466 0.0062003 0.9998466 0.0062003 0.0001534 -0.0062003
13304544 0.0001524 -0.0060398 0.9998476 0.0060398 0.9998476 0.0060398 0.0001524 -0.0060398
13597071 0.0001514 -0.0058822 0.9998486 0.0058822 0.9998486 0.0058822 0.0001514 -0.0058822
13896030 0.0001505 -0.0057274 0.9998495 0.0057274 0.9998495 0.0057274 0.0001505 -0.0057274
14201563 0.0001498 -0.0055753 0.9998502 0.0055753 0.9998502 0.0055753 0.0001498 -0.0055753
14513813 0.0001491 -0.0054259 0.9998509 0.0054259 0.9998509 0.0054259 0.0001491 -0.0054259
14832928 0.0001485 -0.0052790 0.9998515 0.0052790 0.9998515 0.0052790 0.0001485 -0.0052790
15159060 0.0001480 -0.0051347 0.9998520 0.0051347 0.9998520 0.0051347 0.0001480 -0.0051347
15492362 0.0001476 -0.0049928 0.9998524 0.0049928 0.9998524 0.0049928 0.0001476 -0.0049928
15832993 0.0001473 -0.0048534 0.9998527 0.0048534 0.9998527 0.0048534 0.0001473 -0.0048534
16181113 0.0001471 -0.0047162 0.9998529 0.0047162 0.9998529 0.0047162 0.0001471 -0.0047162
16536888 0.0001470 -0.0045813 0.9998530 0.0045813 0.9998530 0.0045813 0.0001470 -0.0045813
16900485 0.0001470 -0.0044486 0.9998530 0.0044486 0.9998530 0.0044486 0.0001470 -0.0044486
17272076 0.0001470 -0.0043180 0.9998530 0.0043180 0.9998530 0.0043180 0.0001470 -0.0043180
17651837 0.0001471 -0.0041895 0.9998529 0.0041895 0.9998529 0.0041895 0.0001471 -0.0041895
18039948 0.0001473 -0.0040630 0.9998527 0.0040630 0.9998527 0.0040630 0.0001473 -0.0040630
18436593 0.0001475 -0.0039385 0.9998525 0.0039385 0.9998525 0.0039385 0.0001475 -0.0039385
18841959 0.0001479 -0.0038158 0.9998521 0.0038158 0.9998521 0.0038158 0.0001479 -0.0038158
19256237 0.0001483 -0.0036950 0.9998517 0.0036950 0.9998517 0.0036950 0.0001483 -0.0036950
19679624 0.0001488 -0.0035759 0.9998512 0.0035759 0.9998512 0.0035759 0.0001488 -0.0035759
20112321 0.0001493 -0.0034586 0.9998507 0.0034586 0.9998507 0.0034586 0.0001493 -0.0034586
20554530 0.0001499 -0.0033429 0.9998501 0.0033429 0.9998501 0.0033429 0.0001499 -0.0033429
21006463 0.0001506 -0.0032289 0.9998494 0.0032289 0.9998494 0.0032289 0.0001506 -0.0032289
21468333 0.0001513 -0.0031164 0.9998487 0.0031164 0.9998487 0.0031164 0.0001513 -0.0031164
21940357 0.0001521 -0.0030053 0.9998479 0.0030053 0.9998479 0.0030053 0.0001521 -0.0030053
22422760 0.0001530 -0.0028958 0.9998470 0.0028958 0.9998470 0.0028958 0.0001530 -0.0028958
22915770 0.0001540 -0.0027876 0.9998460 0.0027876 0.9998460 0.0027876 0.0001540 -0.0027876
23419619 0.0001550 -0.0026808 0.9998450 0.0026808 0.9998450 0.0026808 0.0001550 -0.0026808
23934547 0.0001560 -0.0025752 0.9998440 0.0025752 0.9998440 0.0025752 0.0001560 -0.0025752
24460796 0.0001571 -0.0024709 0.9998429 0.0024709 0.9998429 0.0024709 0.0001571 -0.0024709
24998616 0.0001583 -0.0023678 0.9998417 0.0023678 0.9998417 0.0023678 0.0001583 -0.0023678
25548261 0.0001596 -0.0022659 0.9998404 0.0022659 0.9998404 0.0022659 0.0001596 -0.0022659
26109991 0.0001609 -0.0021650 0.9998391 0.0021650 0.9998391 0.0021650 0.0001609 -0.0021650
26684072 0.0001623 -0.0020652 0.9998377 0.0020652 0.9998377 0.0020652 0.0001623 -0.0020652
27270775 0.0001637 -0.0019663 0.9998363 0.0019663 0.9998363 0.0019663 0.0001637 -0.0019663
27870378 0.0001652 -0.0018684 0.9998348 0.0018684 0.9998348 0.0018684 0.0001652 -0.0018684
28483164 0.0001668 -0.0017714 0.9998332 0.0017714 0.9998332 0.0017714 0.0001668 -0.0017714
29109424 0.0001684 -0.0016752 0.9998316 0.0016752 0.9998316 0.0016752 0.0001684 -0.0016752
29749453 0.0001701 -0.0015798 0.9998299 0.0015798 0.9998299 0.0015798 0.0001701 -0.0015798
30403555 0.0001719 -0.0014852 0.9998281 0.0014852 0.9998281 0.0014852 0.0001719 -0.0014852
31072038 0.0001737 -0.0013913 0.9998263 0.0013913 0.9998263 0.0013913 0.0001737 -0.0013913
31755220 0.0001756 -0.0012980 0.9998244 0.0012980 0.9998244 0.0012980 0.0001756 -0.0012980
32453422 0.0001776 -0.0012054 0.9998224 0.0012054 0.9998224 0.0012054 0.0001776 -0.0012054
33166976 0.0001797 -0.0011133 0.9998203 0.0011133 0.9998203 0.0011133 0.0001797 -0.0011133
33896219 0.0001818 -0.0010217 0.9998182 0.0010217 0.9998182 0.0010217 0.0001818 -0.0010217
34641496 0.0001841 -0.0009306 0.9998159 0.0009306 0.9998159 0.0009306 0.0001841 -0.0009306
35403159 0.0001864 -0.0008398 0.9998136 0.0008398 0.9998136 0.0008398 0.0001864 -0.0008398
36181569 0.0001888 -0.0007495 0.9998112 0.0007495 0.9998112 0.0007495 0.0001888 -0.0007495
36977093 0.0001913 -0.0006595 0.9998087 0.0006595 0.9998087 0.0006595 0.0001913 -0.0006595
37790109 0.0001938 -0.0005697 0.9998062 0.0005697 0.9998062 0.0005697 0.0001938 -0.0005697
38621001 0.0001965 -0.0004802 0.9998035 0.0004802 0.9998035 0.0004802 0.0001965 -0.0004802
39470161 0.0001993 -0.0003908 0.9998007 0.0003908 0.9998007 0.0003908 0.0001993 -0.0003908
40337993 0.0002023 -0.0003015 0.9997977 0.0003015 0.9997977 0.0003015 0.0002023 -0.0003015
41224905 0.0002053 -0.0002123 0.9997947 0.0002123 0.9997947 0.0002123 0.0002053 -0.0002123
42131317 0.0002084 -0.0001232 0.9997916 0.0001232 0.9997916 0.0001232 0.0002084 -0.0001232
43057659 0.0002117 -0.0000339 0.9997883 0.0000339 0.9997883 0.0000339 0.0002117 -0.0000339
44004369 0.0002152 0.0000554 0.9997848 -0.0000554 0.9997848 -0.0000554 0.0002152 0.0000554
44971893 0.0002188 0.0001448 0.9997812 -0.0001448 0.9997812 -0.0001448 0.0002188 0.0001448
45960691 0.0002225 0.0002345 0.9997775 -0.0002345 0.9997775 -0.0002345 0.0002225 0.0002345
46971230 0.0002264 0.0003244 0.9997736 -0.0003244 0.9997736 -0.0003244 0.0002264 0.0003244
48003987 0.0002305 0.0004147 0.9997695 -0.0004147 0.9997695 -0.0004147 0.0002305 0.0004147
49059451 0.0002348 0.0005053 0.9997652 -0.0005053 0.9997652 -0.0005053 0.0002348 0.0005053
50138122 0.0002393 0.0005964 0.9997607 -0.0005964 0.9997607 -0.0005964 0.0002393 0.0005964
51240510 0.0002440 0.0006880 0.9997560 -0.0006880 0.9997560 -0.0006880 0.0002440 0.0006880
52367136 0.0002490 0.0007802 0.9997510 -0.0007802 0.9997510 -0.0007802 0.0002490 0.0007802
53518533 0.0002543 0.0008731 0.9997457 -0.0008731 0.9997457 -0.0008731 0.0002543 0.0008731
54695245 0.0002598 0.0009668 0.9997402 -0.0009668 0.9997402 -0.0009668 0.0002598 0.0009668
55897831 0.0002656 0.0010612 0.9997344 -0.0010612 0.9997344 -0.0010612 0.0002656 0.0010612
57126857 0.0002718 0.0011567 0.9997282 -0.0011567 0.9997282 -0.0011567 0.0002718 0.0011567
58382906 0.0002784 0.0012531 0.9997216 -0.0012531 0.9997216 -0.0012531 0.0002784 0.0012531
59666572 0.0002854 0.0013507 0.9997146 -0.0013507 0.9997146 -0.0013507 0.0002854 0.0013507
60978462 0.0002928 0.0014496 0.9997072 -0.0014496 0.9997072 -0.0014496 0.0002928 0.0014496
62319196 0.0003008 0.0015498 0.9996992 -0.0015498 0.9996992 -0.0015498 0.0003008 0.0015498
63689409 0.0003094 0.0016516 0.9996906 -0.0016516 0.9996906 -0.0016516 0.0003094 0.0016516
65089750 0.0003187 0.0017552 0.9996813 -0.0017552 0.9996813 -0.0017552 0.0003187 0.0017552
66520879 0.0003288 0.0018606 0.9996712 -0.0018606 0.9996712 -0.0018606 0.0003288 0.0018606
67983474 0.0003397 0.0019682 0.9996603 -0.0019682 0.9996603 -0.0019682 0.0003397 0.0019682
69478228 0.0003518 0.0020782 0.9996482 -0.0020782 0.9996482 -0.0020782 0.0003518 0.0020782
71005847 0.0003651 0.0021908 0.9996349 -0.0021908 0.9996349 -0.0021908 0.0003651 0.0021908
72567054 0.0003799 0.0023066 0.9996201 -0.0023066 0.9996201 -0.0023066 0.0003799 0.0023066
74162587 0.0003967 0.0024258 0.9996033 -0.0024258 0.9996033 -0.0024258 0.0003967 0.0024258
75793201 0.0004159 0.0025490 0.9995841 -0.0025490 0.9995841 -0.0025490 0.0004159 0.0025490
77459667 0.0004381 0.0026769 0.9995619 -0.0026769 0.9995619 -0.0026769 0.0004381 0.0026769
79162774 0.0004643 0.0028103 0.9995357 -0.0028103 0.9995357 -0.0028103 0.0004643 0.0028103
80903327 0.0004960 0.0029501 0.9995040 -0.0029501 0.9995040 -0.0029501 0.0004960 0.0029501
82682150 0.0005352 0.0030974 0.9994648 -0.0030974 0.9994648 -0.0030974 0.0005352 0.0030974
84500083 0.0005852 0.0032537 0.9994148 -0.0032537 0.9994148 -0.0032537 0.0005852 0.0032537
86357988 0.0006513 0.0034201 0.9993487 -0.0034201 0.9993487 -0.0034201 0.0006513 0.0034201
88256743 0.0007420 0.0035971 0.9992580 -0.0035971 0.9992580 -0.0035971 0.0007420 0.0035971
90197245 0.0008715 0.0037820 0.9991285 -0.0037820 0.9991285 -0.0037820 0.0008715 0.0037820
92180413 0.0010628 0.0039620 0.9989372 -0.0039620 0.9989372 -0.0039620 0.0010628 0.0039620
94207185 0.0013446 0.0040968 0.9986554 -0.0040968 0.9986554 -0.0040968 0.0013446 0.0040968
96278520 0.0017173 0.0040883 0.9982827 -0.0040883 0.9982827 -0.0040883 0.0017173 0.0040883
98395398 0.0020417 0.0038151 0.9979583 -0.0038151 0.9979583 -0.0038151 0.0020417 0.0038151
100558819 0.0020454 0.0033861 0.9979546 -0.0033861 0.9979546 -0.0033861 0.0020454 0.0033861
102769807 0.0017479 0.0031449 0.9982521 -0.0031449 0.9982521 -0.0031449 0.0017479 0.0031449
105029408 0.0014248 0.0031697 0.9985752 -0.0031697 0.9985752 -0.0031697 0.0014248 0.0031697
107338692 0.0011993 0.0033326 0.9988007 -0.0033326 0.9988007 -0.0033326 0.0011993 0.0033326
