!Murata Part Number: GRM31A5C3A151JW01
!These Parameters are Measured in Series Mode Connection
!Data Generated on Mar 30, 2021
!       o--ll--o
!Port1            Port2
!       o------o
!Operation Temp=25[degC], DC Bias Voltage=0[V]
!Freq. Start=100[MHz] Stop=3[GHz] 401[Steps]
# Hz S RI R 50
!Freq.(Hz) S11(Real) S11(Imag) S21(Real) S21(Imag) S12(Real) S12(Imag) S22(Real) S22(Imag)
100000000 0.0111390 -0.1004062 0.9888610 0.1004062 0.9888610 0.1004062 0.0111390 -0.1004062
107250000 0.0097039 -0.0931346 0.9902961 0.0931346 0.9902961 0.0931346 0.0097039 -0.0931346
114500000 0.0085305 -0.0867186 0.9914695 0.0867186 0.9914695 0.0867186 0.0085305 -0.0867186
121750000 0.0075592 -0.0810104 0.9924408 0.0810104 0.9924408 0.0810104 0.0075592 -0.0810104
129000000 0.0067466 -0.0758943 0.9932534 0.0758943 0.9932534 0.0758943 0.0067466 -0.0758943
136250000 0.0060601 -0.0712782 0.9939399 0.0712782 0.9939399 0.0712782 0.0060601 -0.0712782
143500000 0.0054752 -0.0670881 0.9945248 0.0670881 0.9945248 0.0670881 0.0054752 -0.0670881
150750000 0.0049731 -0.0632640 0.9950269 0.0632640 0.9950269 0.0632640 0.0049731 -0.0632640
158000000 0.0045390 -0.0597563 0.9954610 0.0597563 0.9954610 0.0597563 0.0045390 -0.0597563
165250000 0.0041615 -0.0565242 0.9958385 0.0565242 0.9958385 0.0565242 0.0041615 -0.0565242
172500000 0.0038313 -0.0535335 0.9961687 0.0535335 0.9961687 0.0535335 0.0038313 -0.0535335
179750000 0.0035411 -0.0507554 0.9964589 0.0507554 0.9964589 0.0507554 0.0035411 -0.0507554
187000000 0.0032848 -0.0481654 0.9967152 0.0481654 0.9967152 0.0481654 0.0032848 -0.0481654
194250000 0.0030576 -0.0457427 0.9969424 0.0457427 0.9969424 0.0457427 0.0030576 -0.0457427
201500000 0.0028553 -0.0434696 0.9971447 0.0434696 0.9971447 0.0434696 0.0028553 -0.0434696
208750000 0.0026747 -0.0413305 0.9973253 0.0413305 0.9973253 0.0413305 0.0026747 -0.0413305
216000000 0.0025129 -0.0393121 0.9974871 0.0393121 0.9974871 0.0393121 0.0025129 -0.0393121
223250000 0.0023676 -0.0374027 0.9976324 0.0374027 0.9976324 0.0374027 0.0023676 -0.0374027
230500000 0.0022367 -0.0355921 0.9977633 0.0355921 0.9977633 0.0355921 0.0022367 -0.0355921
237750000 0.0021186 -0.0338714 0.9978814 0.0338714 0.9978814 0.0338714 0.0021186 -0.0338714
245000000 0.0020118 -0.0322325 0.9979882 0.0322325 0.9979882 0.0322325 0.0020118 -0.0322325
252250000 0.0019151 -0.0306685 0.9980849 0.0306685 0.9980849 0.0306685 0.0019151 -0.0306685
259500000 0.0018275 -0.0291731 0.9981725 0.0291731 0.9981725 0.0291731 0.0018275 -0.0291731
266750000 0.0017478 -0.0277408 0.9982522 0.0277408 0.9982522 0.0277408 0.0017478 -0.0277408
274000000 0.0016755 -0.0263665 0.9983245 0.0263665 0.9983245 0.0263665 0.0016755 -0.0263665
281250000 0.0016096 -0.0250457 0.9983904 0.0250457 0.9983904 0.0250457 0.0016096 -0.0250457
288500000 0.0015497 -0.0237745 0.9984503 0.0237745 0.9984503 0.0237745 0.0015497 -0.0237745
295750000 0.0014952 -0.0225492 0.9985048 0.0225492 0.9985048 0.0225492 0.0014952 -0.0225492
303000000 0.0014456 -0.0213665 0.9985544 0.0213665 0.9985544 0.0213665 0.0014456 -0.0213665
310250000 0.0014005 -0.0202234 0.9985995 0.0202234 0.9985995 0.0202234 0.0014005 -0.0202234
317500000 0.0013595 -0.0191171 0.9986405 0.0191171 0.9986405 0.0191171 0.0013595 -0.0191171
324750000 0.0013222 -0.0180453 0.9986778 0.0180453 0.9986778 0.0180453 0.0013222 -0.0180453
332000000 0.0012885 -0.0170055 0.9987115 0.0170055 0.9987115 0.0170055 0.0012885 -0.0170055
339250000 0.0012579 -0.0159959 0.9987421 0.0159959 0.9987421 0.0159959 0.0012579 -0.0159959
346500000 0.0012303 -0.0150144 0.9987697 0.0150144 0.9987697 0.0150144 0.0012303 -0.0150144
353750000 0.0012054 -0.0140593 0.9987946 0.0140593 0.9987946 0.0140593 0.0012054 -0.0140593
361000000 0.0011831 -0.0131291 0.9988169 0.0131291 0.9988169 0.0131291 0.0011831 -0.0131291
368250000 0.0011632 -0.0122221 0.9988368 0.0122221 0.9988368 0.0122221 0.0011632 -0.0122221
375500000 0.0011455 -0.0113372 0.9988545 0.0113372 0.9988545 0.0113372 0.0011455 -0.0113372
382750000 0.0011298 -0.0104729 0.9988702 0.0104729 0.9988702 0.0104729 0.0011298 -0.0104729
390000000 0.0011162 -0.0096282 0.9988838 0.0096282 0.9988838 0.0096282 0.0011162 -0.0096282
397250000 0.0011043 -0.0088018 0.9988957 0.0088018 0.9988957 0.0088018 0.0011043 -0.0088018
404500000 0.0010942 -0.0079930 0.9989058 0.0079930 0.9989058 0.0079930 0.0010942 -0.0079930
411750000 0.0010857 -0.0072006 0.9989143 0.0072006 0.9989143 0.0072006 0.0010857 -0.0072006
419000000 0.0010788 -0.0064238 0.9989212 0.0064238 0.9989212 0.0064238 0.0010788 -0.0064238
426250000 0.0010733 -0.0056618 0.9989267 0.0056618 0.9989267 0.0056618 0.0010733 -0.0056618
433500000 0.0010692 -0.0049138 0.9989308 0.0049138 0.9989308 0.0049138 0.0010692 -0.0049138
440750000 0.0010665 -0.0041791 0.9989335 0.0041791 0.9989335 0.0041791 0.0010665 -0.0041791
448000000 0.0010650 -0.0034571 0.9989350 0.0034571 0.9989350 0.0034571 0.0010650 -0.0034571
455250000 0.0010646 -0.0027471 0.9989354 0.0027471 0.9989354 0.0027471 0.0010646 -0.0027471
462500000 0.0010655 -0.0020486 0.9989345 0.0020486 0.9989345 0.0020486 0.0010655 -0.0020486
469750000 0.0010674 -0.0013609 0.9989326 0.0013609 0.9989326 0.0013609 0.0010674 -0.0013609
477000000 0.0010704 -0.0006836 0.9989296 0.0006836 0.9989296 0.0006836 0.0010704 -0.0006836
484250000 0.0010745 -0.0000162 0.9989255 0.0000162 0.9989255 0.0000162 0.0010745 -0.0000162
491500000 0.0010795 0.0006418 0.9989205 -0.0006418 0.9989205 -0.0006418 0.0010795 0.0006418
498750000 0.0010854 0.0012909 0.9989146 -0.0012909 0.9989146 -0.0012909 0.0010854 0.0012909
506000000 0.0010923 0.0019314 0.9989077 -0.0019314 0.9989077 -0.0019314 0.0010923 0.0019314
513250000 0.0011000 0.0025637 0.9989000 -0.0025637 0.9989000 -0.0025637 0.0011000 0.0025637
520500000 0.0011087 0.0031882 0.9988913 -0.0031882 0.9988913 -0.0031882 0.0011087 0.0031882
527750000 0.0011181 0.0038052 0.9988819 -0.0038052 0.9988819 -0.0038052 0.0011181 0.0038052
535000000 0.0011284 0.0044151 0.9988716 -0.0044151 0.9988716 -0.0044151 0.0011284 0.0044151
542250000 0.0011394 0.0050182 0.9988606 -0.0050182 0.9988606 -0.0050182 0.0011394 0.0050182
549500000 0.0011513 0.0056147 0.9988487 -0.0056147 0.9988487 -0.0056147 0.0011513 0.0056147
556750000 0.0011639 0.0062050 0.9988361 -0.0062050 0.9988361 -0.0062050 0.0011639 0.0062050
564000000 0.0011772 0.0067893 0.9988228 -0.0067893 0.9988228 -0.0067893 0.0011772 0.0067893
571250000 0.0011912 0.0073680 0.9988088 -0.0073680 0.9988088 -0.0073680 0.0011912 0.0073680
578500000 0.0012060 0.0079411 0.9987940 -0.0079411 0.9987940 -0.0079411 0.0012060 0.0079411
585750000 0.0012215 0.0085090 0.9987785 -0.0085090 0.9987785 -0.0085090 0.0012215 0.0085090
593000000 0.0012377 0.0090719 0.9987623 -0.0090719 0.9987623 -0.0090719 0.0012377 0.0090719
600250000 0.0012545 0.0096299 0.9987455 -0.0096299 0.9987455 -0.0096299 0.0012545 0.0096299
607500000 0.0012721 0.0101834 0.9987279 -0.0101834 0.9987279 -0.0101834 0.0012721 0.0101834
614750000 0.0012903 0.0107325 0.9987097 -0.0107325 0.9987097 -0.0107325 0.0012903 0.0107325
622000000 0.0013091 0.0112773 0.9986909 -0.0112773 0.9986909 -0.0112773 0.0013091 0.0112773
629250000 0.0013286 0.0118181 0.9986714 -0.0118181 0.9986714 -0.0118181 0.0013286 0.0118181
636500000 0.0013488 0.0123550 0.9986512 -0.0123550 0.9986512 -0.0123550 0.0013488 0.0123550
643750000 0.0013696 0.0128882 0.9986304 -0.0128882 0.9986304 -0.0128882 0.0013696 0.0128882
651000000 0.0013911 0.0134178 0.9986089 -0.0134178 0.9986089 -0.0134178 0.0013911 0.0134178
658250000 0.0014132 0.0139440 0.9985868 -0.0139440 0.9985868 -0.0139440 0.0014132 0.0139440
665500000 0.0014359 0.0144670 0.9985641 -0.0144670 0.9985641 -0.0144670 0.0014359 0.0144670
672750000 0.0014593 0.0149869 0.9985407 -0.0149869 0.9985407 -0.0149869 0.0014593 0.0149869
680000000 0.0014833 0.0155038 0.9985167 -0.0155038 0.9985167 -0.0155038 0.0014833 0.0155038
687250000 0.0015080 0.0160178 0.9984920 -0.0160178 0.9984920 -0.0160178 0.0015080 0.0160178
694500000 0.0015333 0.0165291 0.9984667 -0.0165291 0.9984667 -0.0165291 0.0015333 0.0165291
701750000 0.0015593 0.0170379 0.9984407 -0.0170379 0.9984407 -0.0170379 0.0015593 0.0170379
709000000 0.0015859 0.0175441 0.9984141 -0.0175441 0.9984141 -0.0175441 0.0015859 0.0175441
716250000 0.0016132 0.0180480 0.9983868 -0.0180480 0.9983868 -0.0180480 0.0016132 0.0180480
723500000 0.0016411 0.0185497 0.9983589 -0.0185497 0.9983589 -0.0185497 0.0016411 0.0185497
730750000 0.0016697 0.0190492 0.9983303 -0.0190492 0.9983303 -0.0190492 0.0016697 0.0190492
738000000 0.0016990 0.0195467 0.9983010 -0.0195467 0.9983010 -0.0195467 0.0016990 0.0195467
745250000 0.0017289 0.0200422 0.9982711 -0.0200422 0.9982711 -0.0200422 0.0017289 0.0200422
752500000 0.0017595 0.0205359 0.9982405 -0.0205359 0.9982405 -0.0205359 0.0017595 0.0205359
759750000 0.0017908 0.0210279 0.9982092 -0.0210279 0.9982092 -0.0210279 0.0017908 0.0210279
767000000 0.0018229 0.0215183 0.9981771 -0.0215183 0.9981771 -0.0215183 0.0018229 0.0215183
774250000 0.0018556 0.0220071 0.9981444 -0.0220071 0.9981444 -0.0220071 0.0018556 0.0220071
781500000 0.0018891 0.0224945 0.9981109 -0.0224945 0.9981109 -0.0224945 0.0018891 0.0224945
788750000 0.0019233 0.0229806 0.9980767 -0.0229806 0.9980767 -0.0229806 0.0019233 0.0229806
796000000 0.0019582 0.0234653 0.9980418 -0.0234653 0.9980418 -0.0234653 0.0019582 0.0234653
803250000 0.0019939 0.0239490 0.9980061 -0.0239490 0.9980061 -0.0239490 0.0019939 0.0239490
810500000 0.0020304 0.0244315 0.9979696 -0.0244315 0.9979696 -0.0244315 0.0020304 0.0244315
817750000 0.0020677 0.0249130 0.9979323 -0.0249130 0.9979323 -0.0249130 0.0020677 0.0249130
825000000 0.0021058 0.0253936 0.9978942 -0.0253936 0.9978942 -0.0253936 0.0021058 0.0253936
832250000 0.0021448 0.0258734 0.9978552 -0.0258734 0.9978552 -0.0258734 0.0021448 0.0258734
839500000 0.0021846 0.0263525 0.9978154 -0.0263525 0.9978154 -0.0263525 0.0021846 0.0263525
846750000 0.0022252 0.0268309 0.9977748 -0.0268309 0.9977748 -0.0268309 0.0022252 0.0268309
854000000 0.0022668 0.0273087 0.9977332 -0.0273087 0.9977332 -0.0273087 0.0022668 0.0273087
861250000 0.0023093 0.0277861 0.9976907 -0.0277861 0.9976907 -0.0277861 0.0023093 0.0277861
868500000 0.0023528 0.0282630 0.9976472 -0.0282630 0.9976472 -0.0282630 0.0023528 0.0282630
875750000 0.0023972 0.0287396 0.9976028 -0.0287396 0.9976028 -0.0287396 0.0023972 0.0287396
883000000 0.0024427 0.0292160 0.9975573 -0.0292160 0.9975573 -0.0292160 0.0024427 0.0292160
890250000 0.0024891 0.0296923 0.9975109 -0.0296923 0.9975109 -0.0296923 0.0024891 0.0296923
897500000 0.0025367 0.0301684 0.9974633 -0.0301684 0.9974633 -0.0301684 0.0025367 0.0301684
904750000 0.0025854 0.0306446 0.9974146 -0.0306446 0.9974146 -0.0306446 0.0025854 0.0306446
912000000 0.0026352 0.0311210 0.9973648 -0.0311210 0.9973648 -0.0311210 0.0026352 0.0311210
919250000 0.0026863 0.0315975 0.9973137 -0.0315975 0.9973137 -0.0315975 0.0026863 0.0315975
926500000 0.0027386 0.0320743 0.9972614 -0.0320743 0.9972614 -0.0320743 0.0027386 0.0320743
933750000 0.0027922 0.0325515 0.9972078 -0.0325515 0.9972078 -0.0325515 0.0027922 0.0325515
941000000 0.0028471 0.0330291 0.9971529 -0.0330291 0.9971529 -0.0330291 0.0028471 0.0330291
948250000 0.0029035 0.0335074 0.9970965 -0.0335074 0.9970965 -0.0335074 0.0029035 0.0335074
955500000 0.0029613 0.0339863 0.9970387 -0.0339863 0.9970387 -0.0339863 0.0029613 0.0339863
962750000 0.0030207 0.0344660 0.9969793 -0.0344660 0.9969793 -0.0344660 0.0030207 0.0344660
970000000 0.0030817 0.0349465 0.9969183 -0.0349465 0.9969183 -0.0349465 0.0030817 0.0349465
977250000 0.0031443 0.0354281 0.9968557 -0.0354281 0.9968557 -0.0354281 0.0031443 0.0354281
984500000 0.0032088 0.0359107 0.9967912 -0.0359107 0.9967912 -0.0359107 0.0032088 0.0359107
991750000 0.0032751 0.0363945 0.9967249 -0.0363945 0.9967249 -0.0363945 0.0032751 0.0363945
999000000 0.0033433 0.0368797 0.9966567 -0.0368797 0.9966567 -0.0368797 0.0033433 0.0368797
1006250000 0.0034137 0.0373663 0.9965863 -0.0373663 0.9965863 -0.0373663 0.0034137 0.0373663
1013500000 0.0034862 0.0378545 0.9965138 -0.0378545 0.9965138 -0.0378545 0.0034862 0.0378545
1020750000 0.0035610 0.0383443 0.9964390 -0.0383443 0.9964390 -0.0383443 0.0035610 0.0383443
1028000000 0.0036383 0.0388360 0.9963617 -0.0388360 0.9963617 -0.0388360 0.0036383 0.0388360
1035250000 0.0037181 0.0393297 0.9962819 -0.0393297 0.9962819 -0.0393297 0.0037181 0.0393297
1042500000 0.0038008 0.0398255 0.9961992 -0.0398255 0.9961992 -0.0398255 0.0038008 0.0398255
1049750000 0.0038863 0.0403235 0.9961137 -0.0403235 0.9961137 -0.0403235 0.0038863 0.0403235
1057000000 0.0039750 0.0408240 0.9960250 -0.0408240 0.9960250 -0.0408240 0.0039750 0.0408240
1064250000 0.0040670 0.0413271 0.9959330 -0.0413271 0.9959330 -0.0413271 0.0040670 0.0413271
1071500000 0.0041626 0.0418329 0.9958374 -0.0418329 0.9958374 -0.0418329 0.0041626 0.0418329
1078750000 0.0042621 0.0423417 0.9957379 -0.0423417 0.9957379 -0.0423417 0.0042621 0.0423417
1086000000 0.0043656 0.0428536 0.9956344 -0.0428536 0.9956344 -0.0428536 0.0043656 0.0428536
1093250000 0.0044735 0.0433688 0.9955265 -0.0433688 0.9955265 -0.0433688 0.0044735 0.0433688
1100500000 0.0045862 0.0438875 0.9954138 -0.0438875 0.9954138 -0.0438875 0.0045862 0.0438875
1107750000 0.0047041 0.0444099 0.9952959 -0.0444099 0.9952959 -0.0444099 0.0047041 0.0444099
1115000000 0.0048275 0.0449363 0.9951725 -0.0449363 0.9951725 -0.0449363 0.0048275 0.0449363
1122250000 0.0049569 0.0454668 0.9950431 -0.0454668 0.9950431 -0.0454668 0.0049569 0.0454668
1129500000 0.0050929 0.0460017 0.9949071 -0.0460017 0.9949071 -0.0460017 0.0050929 0.0460017
1136750000 0.0052359 0.0465413 0.9947641 -0.0465413 0.9947641 -0.0465413 0.0052359 0.0465413
1144000000 0.0053867 0.0470856 0.9946133 -0.0470856 0.9946133 -0.0470856 0.0053867 0.0470856
1151250000 0.0055460 0.0476351 0.9944540 -0.0476351 0.9944540 -0.0476351 0.0055460 0.0476351
1158500000 0.0057146 0.0481898 0.9942854 -0.0481898 0.9942854 -0.0481898 0.0057146 0.0481898
1165750000 0.0058933 0.0487501 0.9941067 -0.0487501 0.9941067 -0.0487501 0.0058933 0.0487501
1173000000 0.0060832 0.0493161 0.9939168 -0.0493161 0.9939168 -0.0493161 0.0060832 0.0493161
1180250000 0.0062855 0.0498880 0.9937145 -0.0498880 0.9937145 -0.0498880 0.0062855 0.0498880
1187500000 0.0065013 0.0504660 0.9934987 -0.0504660 0.9934987 -0.0504660 0.0065013 0.0504660
1194750000 0.0067321 0.0510501 0.9932679 -0.0510501 0.9932679 -0.0510501 0.0067321 0.0510501
1202000000 0.0069796 0.0516405 0.9930204 -0.0516405 0.9930204 -0.0516405 0.0069796 0.0516405
1209250000 0.0072457 0.0522369 0.9927543 -0.0522369 0.9927543 -0.0522369 0.0072457 0.0522369
1216500000 0.0075323 0.0528394 0.9924677 -0.0528394 0.9924677 -0.0528394 0.0075323 0.0528394
1223750000 0.0078419 0.0534475 0.9921581 -0.0534475 0.9921581 -0.0534475 0.0078419 0.0534475
1231000000 0.0081771 0.0540607 0.9918229 -0.0540607 0.9918229 -0.0540607 0.0081771 0.0540607
1238250000 0.0085409 0.0546781 0.9914591 -0.0546781 0.9914591 -0.0546781 0.0085409 0.0546781
1245500000 0.0089367 0.0552987 0.9910633 -0.0552987 0.9910633 -0.0552987 0.0089367 0.0552987
1252750000 0.0093683 0.0559206 0.9906317 -0.0559206 0.9906317 -0.0559206 0.0093683 0.0559206
1260000000 0.0098400 0.0565417 0.9901600 -0.0565417 0.9901600 -0.0565417 0.0098400 0.0565417
1267250000 0.0103564 0.0571589 0.9896436 -0.0571589 0.9896436 -0.0571589 0.0103564 0.0571589
1274500000 0.0109226 0.0577681 0.9890774 -0.0577681 0.9890774 -0.0577681 0.0109226 0.0577681
1281750000 0.0115442 0.0583638 0.9884558 -0.0583638 0.9884558 -0.0583638 0.0115442 0.0583638
1289000000 0.0122268 0.0589392 0.9877732 -0.0589392 0.9877732 -0.0589392 0.0122268 0.0589392
1296250000 0.0129763 0.0594851 0.9870237 -0.0594851 0.9870237 -0.0594851 0.0129763 0.0594851
1303500000 0.0137979 0.0599899 0.9862021 -0.0599899 0.9862021 -0.0599899 0.0137979 0.0599899
1310750000 0.0146961 0.0604393 0.9853039 -0.0604393 0.9853039 -0.0604393 0.0146961 0.0604393
1318000000 0.0156733 0.0608154 0.9843267 -0.0608154 0.9843267 -0.0608154 0.0156733 0.0608154
1325250000 0.0167290 0.0610965 0.9832710 -0.0610965 0.9832710 -0.0610965 0.0167290 0.0610965
1332500000 0.0178576 0.0612576 0.9821424 -0.0612576 0.9821424 -0.0612576 0.0178576 0.0612576
1339750000 0.0190469 0.0612705 0.9809531 -0.0612705 0.9809531 -0.0612705 0.0190469 0.0612705
1347000000 0.0202750 0.0611059 0.9797250 -0.0611059 0.9797250 -0.0611059 0.0202750 0.0611059
1354250000 0.0215091 0.0607362 0.9784909 -0.0607362 0.9784909 -0.0607362 0.0215091 0.0607362
1361500000 0.0227034 0.0601400 0.9772966 -0.0601400 0.9772966 -0.0601400 0.0227034 0.0601400
1368750000 0.0238006 0.0593081 0.9761994 -0.0593081 0.9761994 -0.0593081 0.0238006 0.0593081
1376000000 0.0247349 0.0582498 0.9752651 -0.0582498 0.9752651 -0.0582498 0.0247349 0.0582498
1383250000 0.0254401 0.0569975 0.9745599 -0.0569975 0.9745599 -0.0569975 0.0254401 0.0569975
1390500000 0.0258597 0.0556084 0.9741403 -0.0556084 0.9741403 -0.0556084 0.0258597 0.0556084
1397750000 0.0259574 0.0541592 0.9740426 -0.0541592 0.9740426 -0.0541592 0.0259574 0.0541592
1405000000 0.0257258 0.0527373 0.9742742 -0.0527373 0.9742742 -0.0527373 0.0257258 0.0527373
1412250000 0.0251877 0.0514268 0.9748123 -0.0514268 0.9748123 -0.0514268 0.0251877 0.0514268
1419500000 0.0243918 0.0502964 0.9756082 -0.0502964 0.9756082 -0.0502964 0.0243918 0.0502964
1426750000 0.0234029 0.0493917 0.9765971 -0.0493917 0.9765971 -0.0493917 0.0234029 0.0493917
1434000000 0.0222906 0.0487331 0.9777094 -0.0487331 0.9777094 -0.0487331 0.0222906 0.0487331
1441250000 0.0211194 0.0483186 0.9788806 -0.0483186 0.9788806 -0.0483186 0.0211194 0.0483186
1448500000 0.0199433 0.0481302 0.9800567 -0.0481302 0.9800567 -0.0481302 0.0199433 0.0481302
1455750000 0.0188027 0.0481403 0.9811973 -0.0481403 0.9811973 -0.0481403 0.0188027 0.0481403
1463000000 0.0177249 0.0483173 0.9822751 -0.0483173 0.9822751 -0.0483173 0.0177249 0.0483173
1470250000 0.0167263 0.0486300 0.9832737 -0.0486300 0.9832737 -0.0486300 0.0167263 0.0486300
1477500000 0.0158148 0.0490497 0.9841852 -0.0490497 0.9841852 -0.0490497 0.0158148 0.0490497
1484750000 0.0149919 0.0495516 0.9850081 -0.0495516 0.9850081 -0.0495516 0.0149919 0.0495516
1492000000 0.0142554 0.0501149 0.9857446 -0.0501149 0.9857446 -0.0501149 0.0142554 0.0501149
1499250000 0.0136005 0.0507230 0.9863995 -0.0507230 0.9863995 -0.0507230 0.0136005 0.0507230
1506500000 0.0130209 0.0513626 0.9869791 -0.0513626 0.9869791 -0.0513626 0.0130209 0.0513626
1513750000 0.0125101 0.0520232 0.9874899 -0.0520232 0.9874899 -0.0520232 0.0125101 0.0520232
1521000000 0.0120615 0.0526969 0.9879385 -0.0526969 0.9879385 -0.0526969 0.0120615 0.0526969
1528250000 0.0116686 0.0533778 0.9883314 -0.0533778 0.9883314 -0.0533778 0.0116686 0.0533778
1535500000 0.0113255 0.0540614 0.9886745 -0.0540614 0.9886745 -0.0540614 0.0113255 0.0540614
1542750000 0.0110268 0.0547443 0.9889732 -0.0547443 0.9889732 -0.0547443 0.0110268 0.0547443
1550000000 0.0107676 0.0554242 0.9892324 -0.0554242 0.9892324 -0.0554242 0.0107676 0.0554242
1557250000 0.0105437 0.0560994 0.9894563 -0.0560994 0.9894563 -0.0560994 0.0105437 0.0560994
1564500000 0.0103511 0.0567688 0.9896489 -0.0567688 0.9896489 -0.0567688 0.0103511 0.0567688
1571750000 0.0101865 0.0574316 0.9898135 -0.0574316 0.9898135 -0.0574316 0.0101865 0.0574316
1579000000 0.0100469 0.0580874 0.9899531 -0.0580874 0.9899531 -0.0580874 0.0100469 0.0580874
1586250000 0.0099297 0.0587360 0.9900703 -0.0587360 0.9900703 -0.0587360 0.0099297 0.0587360
1593500000 0.0098326 0.0593774 0.9901674 -0.0593774 0.9901674 -0.0593774 0.0098326 0.0593774
1600750000 0.0097535 0.0600116 0.9902465 -0.0600116 0.9902465 -0.0600116 0.0097535 0.0600116
1608000000 0.0096909 0.0606387 0.9903091 -0.0606387 0.9903091 -0.0606387 0.0096909 0.0606387
1615250000 0.0096430 0.0612591 0.9903570 -0.0612591 0.9903570 -0.0612591 0.0096430 0.0612591
1622500000 0.0096086 0.0618729 0.9903914 -0.0618729 0.9903914 -0.0618729 0.0096086 0.0618729
1629750000 0.0095864 0.0624805 0.9904136 -0.0624805 0.9904136 -0.0624805 0.0095864 0.0624805
