!Murata Part Number: GRM31A5C2J182JWA1
!These Parameters are Measured in Series Mode Connection
!Data Generated on Mar 30, 2021
!       o--ll--o
!Port1            Port2
!       o------o
!Operation Temp=25[degC], DC Bias Voltage=0[V]
!Freq. Start=1000[kHz] Stop=1000[MHz] 401[Steps]
# Hz S RI R 50
!Freq.(Hz) S11(Real) S11(Imag) S21(Real) S21(Imag) S12(Real) S12(Imag) S22(Real) S22(Imag)
1000000 0.4697271 -0.4982566 0.5302729 0.4982566 0.5302729 0.4982566 0.4697271 -0.4982566
1017419 0.4611468 -0.4976739 0.5388532 0.4976739 0.5388532 0.4976739 0.4611468 -0.4976739
1035142 0.4525890 -0.4969446 0.5474110 0.4969446 0.5474110 0.4969446 0.4525890 -0.4969446
1053174 0.4440587 -0.4960696 0.5559413 0.4960696 0.5559413 0.4960696 0.4440587 -0.4960696
1071519 0.4355609 -0.4950502 0.5644391 0.4950502 0.5644391 0.4950502 0.4355609 -0.4950502
1090184 0.4271004 -0.4938880 0.5728996 0.4938880 0.5728996 0.4938880 0.4271004 -0.4938880
1109175 0.4186820 -0.4925847 0.5813180 0.4925847 0.5813180 0.4925847 0.4186820 -0.4925847
1128496 0.4103103 -0.4911421 0.5896897 0.4911421 0.5896897 0.4911421 0.4103103 -0.4911421
1148154 0.4019899 -0.4895623 0.5980101 0.4895623 0.5980101 0.4895623 0.4019899 -0.4895623
1168154 0.3937253 -0.4878476 0.6062747 0.4878476 0.6062747 0.4878476 0.3937253 -0.4878476
1188502 0.3855207 -0.4860004 0.6144793 0.4860004 0.6144793 0.4860004 0.3855207 -0.4860004
1209205 0.3773804 -0.4840232 0.6226196 0.4840232 0.6226196 0.4840232 0.3773804 -0.4840232
1230269 0.3693084 -0.4819189 0.6306916 0.4819189 0.6306916 0.4819189 0.3693084 -0.4819189
1251699 0.3613086 -0.4796903 0.6386914 0.4796903 0.6386914 0.4796903 0.3613086 -0.4796903
1273503 0.3533848 -0.4773404 0.6466152 0.4773404 0.6466152 0.4773404 0.3533848 -0.4773404
1295687 0.3455404 -0.4748724 0.6544596 0.4748724 0.6544596 0.4748724 0.3455404 -0.4748724
1318257 0.3377790 -0.4722897 0.6622210 0.4722897 0.6622210 0.4722897 0.3377790 -0.4722897
1341220 0.3301038 -0.4695955 0.6698962 0.4695955 0.6698962 0.4695955 0.3301038 -0.4695955
1364583 0.3225178 -0.4667934 0.6774822 0.4667934 0.6774822 0.4667934 0.3225178 -0.4667934
1388353 0.3150240 -0.4638869 0.6849760 0.4638869 0.6849760 0.4638869 0.3150240 -0.4638869
1412538 0.3076250 -0.4608797 0.6923750 0.4608797 0.6923750 0.4608797 0.3076250 -0.4608797
1437143 0.3003235 -0.4577755 0.6996765 0.4577755 0.6996765 0.4577755 0.3003235 -0.4577755
1462177 0.2931217 -0.4545781 0.7068783 0.4545781 0.7068783 0.4545781 0.2931217 -0.4545781
1487647 0.2860219 -0.4512913 0.7139781 0.4512913 0.7139781 0.4512913 0.2860219 -0.4512913
1513561 0.2790259 -0.4479190 0.7209741 0.4479190 0.7209741 0.4479190 0.2790259 -0.4479190
1539927 0.2721358 -0.4444650 0.7278642 0.4444650 0.7278642 0.4444650 0.2721358 -0.4444650
1566751 0.2653530 -0.4409333 0.7346470 0.4409333 0.7346470 0.4409333 0.2653530 -0.4409333
1594043 0.2586791 -0.4373277 0.7413209 0.4373277 0.7413209 0.4373277 0.2586791 -0.4373277
1621810 0.2521153 -0.4336523 0.7478847 0.4336523 0.7478847 0.4336523 0.2521153 -0.4336523
1650061 0.2456627 -0.4299108 0.7543373 0.4299108 0.7543373 0.4299108 0.2456627 -0.4299108
1678804 0.2393223 -0.4261073 0.7606777 0.4261073 0.7606777 0.4261073 0.2393223 -0.4261073
1708048 0.2330949 -0.4222455 0.7669051 0.4222455 0.7669051 0.4222455 0.2330949 -0.4222455
1737801 0.2269811 -0.4183293 0.7730189 0.4183293 0.7730189 0.4183293 0.2269811 -0.4183293
1768072 0.2209814 -0.4143625 0.7790186 0.4143625 0.7790186 0.4143625 0.2209814 -0.4143625
1798871 0.2150960 -0.4103488 0.7849040 0.4103488 0.7849040 0.4103488 0.2150960 -0.4103488
1830206 0.2093252 -0.4062920 0.7906748 0.4062920 0.7906748 0.4062920 0.2093252 -0.4062920
1862087 0.2036689 -0.4021957 0.7963311 0.4021957 0.7963311 0.4021957 0.2036689 -0.4021957
1894524 0.1981271 -0.3980635 0.8018729 0.3980635 0.8018729 0.3980635 0.1981271 -0.3980635
1927525 0.1926996 -0.3938989 0.8073004 0.3938989 0.8073004 0.3938989 0.1926996 -0.3938989
1961101 0.1873859 -0.3897053 0.8126141 0.3897053 0.8126141 0.3897053 0.1873859 -0.3897053
1995262 0.1821857 -0.3854862 0.8178143 0.3854862 0.8178143 0.3854862 0.1821857 -0.3854862
2030019 0.1770982 -0.3812448 0.8229018 0.3812448 0.8229018 0.3812448 0.1770982 -0.3812448
2065380 0.1721229 -0.3769843 0.8278771 0.3769843 0.8278771 0.3769843 0.1721229 -0.3769843
2101358 0.1672589 -0.3727079 0.8327411 0.3727079 0.8327411 0.3727079 0.1672589 -0.3727079
2137962 0.1625053 -0.3684186 0.8374947 0.3684186 0.8374947 0.3684186 0.1625053 -0.3684186
2175204 0.1578611 -0.3641193 0.8421389 0.3641193 0.8421389 0.3641193 0.1578611 -0.3641193
2213095 0.1533254 -0.3598129 0.8466746 0.3598129 0.8466746 0.3598129 0.1533254 -0.3598129
2251645 0.1488969 -0.3555022 0.8511031 0.3555022 0.8511031 0.3555022 0.1488969 -0.3555022
2290868 0.1445744 -0.3511899 0.8554256 0.3511899 0.8554256 0.3511899 0.1445744 -0.3511899
2330773 0.1403567 -0.3468785 0.8596433 0.3468785 0.8596433 0.3468785 0.1403567 -0.3468785
2371374 0.1362425 -0.3425705 0.8637575 0.3425705 0.8637575 0.3425705 0.1362425 -0.3425705
2412682 0.1322302 -0.3382683 0.8677698 0.3382683 0.8677698 0.3382683 0.1322302 -0.3382683
2454709 0.1283186 -0.3339742 0.8716814 0.3339742 0.8716814 0.3339742 0.1283186 -0.3339742
2497468 0.1245060 -0.3296905 0.8754940 0.3296905 0.8754940 0.3296905 0.1245060 -0.3296905
2540973 0.1207910 -0.3254191 0.8792090 0.3254191 0.8792090 0.3254191 0.1207910 -0.3254191
2585235 0.1171720 -0.3211622 0.8828280 0.3211622 0.8828280 0.3211622 0.1171720 -0.3211622
2630268 0.1136474 -0.3169217 0.8863526 0.3169217 0.8863526 0.3169217 0.1136474 -0.3169217
2676086 0.1102156 -0.3126994 0.8897844 0.3126994 0.8897844 0.3126994 0.1102156 -0.3126994
2722701 0.1068749 -0.3084971 0.8931251 0.3084971 0.8931251 0.3084971 0.1068749 -0.3084971
2770129 0.1036237 -0.3043163 0.8963763 0.3043163 0.8963763 0.3043163 0.1036237 -0.3043163
2818383 0.1004602 -0.3001587 0.8995398 0.3001587 0.8995398 0.3001587 0.1004602 -0.3001587
2867477 0.0973829 -0.2960258 0.9026171 0.2960258 0.9026171 0.2960258 0.0973829 -0.2960258
2917427 0.0943899 -0.2919190 0.9056101 0.2919190 0.9056101 0.2919190 0.0943899 -0.2919190
2968247 0.0914796 -0.2878396 0.9085204 0.2878396 0.9085204 0.2878396 0.0914796 -0.2878396
3019952 0.0886502 -0.2837889 0.9113498 0.2837889 0.9113498 0.2837889 0.0886502 -0.2837889
3072557 0.0859000 -0.2797679 0.9141000 0.2797679 0.9141000 0.2797679 0.0859000 -0.2797679
3126079 0.0832274 -0.2757779 0.9167726 0.2757779 0.9167726 0.2757779 0.0832274 -0.2757779
3180534 0.0806307 -0.2718198 0.9193693 0.2718198 0.9193693 0.2718198 0.0806307 -0.2718198
3235937 0.0781080 -0.2678946 0.9218920 0.2678946 0.9218920 0.2678946 0.0781080 -0.2678946
3292305 0.0756578 -0.2640032 0.9243422 0.2640032 0.9243422 0.2640032 0.0756578 -0.2640032
3349654 0.0732783 -0.2601464 0.9267217 0.2601464 0.9267217 0.2601464 0.0732783 -0.2601464
3408003 0.0709680 -0.2563249 0.9290320 0.2563249 0.9290320 0.2563249 0.0709680 -0.2563249
3467369 0.0687251 -0.2525394 0.9312749 0.2525394 0.9312749 0.2525394 0.0687251 -0.2525394
3527768 0.0665480 -0.2487906 0.9334520 0.2487906 0.9334520 0.2487906 0.0665480 -0.2487906
3589219 0.0644351 -0.2450791 0.9355649 0.2450791 0.9355649 0.2450791 0.0644351 -0.2450791
3651741 0.0623849 -0.2414053 0.9376151 0.2414053 0.9376151 0.2414053 0.0623849 -0.2414053
3715352 0.0603956 -0.2377697 0.9396044 0.2377697 0.9396044 0.2377697 0.0603956 -0.2377697
3780071 0.0584659 -0.2341728 0.9415341 0.2341728 0.9415341 0.2341728 0.0584659 -0.2341728
3845918 0.0565941 -0.2306149 0.9434059 0.2306149 0.9434059 0.2306149 0.0565941 -0.2306149
3912911 0.0547788 -0.2270964 0.9452212 0.2270964 0.9452212 0.2270964 0.0547788 -0.2270964
3981072 0.0530185 -0.2236174 0.9469815 0.2236174 0.9469815 0.2236174 0.0530185 -0.2236174
4050419 0.0513117 -0.2201783 0.9486883 0.2201783 0.9486883 0.2201783 0.0513117 -0.2201783
4120975 0.0496569 -0.2167792 0.9503431 0.2167792 0.9503431 0.2167792 0.0496569 -0.2167792
4192760 0.0480529 -0.2134203 0.9519471 0.2134203 0.9519471 0.2134203 0.0480529 -0.2134203
4265795 0.0464981 -0.2101016 0.9535019 0.2101016 0.9535019 0.2101016 0.0464981 -0.2101016
4340103 0.0449913 -0.2068234 0.9550087 0.2068234 0.9550087 0.2068234 0.0449913 -0.2068234
4415704 0.0435311 -0.2035856 0.9564689 0.2035856 0.9564689 0.2035856 0.0435311 -0.2035856
4492623 0.0421163 -0.2003882 0.9578837 0.2003882 0.9578837 0.2003882 0.0421163 -0.2003882
4570882 0.0407455 -0.1972313 0.9592545 0.1972313 0.9592545 0.1972313 0.0407455 -0.1972313
4650504 0.0394175 -0.1941147 0.9605825 0.1941147 0.9605825 0.1941147 0.0394175 -0.1941147
4731513 0.0381311 -0.1910385 0.9618689 0.1910385 0.9618689 0.1910385 0.0381311 -0.1910385
4813933 0.0368850 -0.1880024 0.9631150 0.1880024 0.9631150 0.1880024 0.0368850 -0.1880024
4897788 0.0356783 -0.1850065 0.9643217 0.1850065 0.9643217 0.1850065 0.0356783 -0.1850065
4983105 0.0345096 -0.1820505 0.9654904 0.1820505 0.9654904 0.1820505 0.0345096 -0.1820505
5069907 0.0333779 -0.1791343 0.9666221 0.1791343 0.9666221 0.1791343 0.0333779 -0.1791343
5158222 0.0322821 -0.1762576 0.9677179 0.1762576 0.9677179 0.1762576 0.0322821 -0.1762576
5248075 0.0312211 -0.1734204 0.9687789 0.1734204 0.9687789 0.1734204 0.0312211 -0.1734204
5339493 0.0301940 -0.1706223 0.9698060 0.1706223 0.9698060 0.1706223 0.0301940 -0.1706223
5432503 0.0291996 -0.1678632 0.9708004 0.1678632 0.9708004 0.1678632 0.0291996 -0.1678632
5527134 0.0282371 -0.1651428 0.9717629 0.1651428 0.9717629 0.1651428 0.0282371 -0.1651428
5623413 0.0273055 -0.1624607 0.9726945 0.1624607 0.9726945 0.1624607 0.0273055 -0.1624607
5721370 0.0264038 -0.1598168 0.9735962 0.1598168 0.9735962 0.1598168 0.0264038 -0.1598168
5821032 0.0255311 -0.1572107 0.9744689 0.1572107 0.9744689 0.1572107 0.0255311 -0.1572107
5922431 0.0246866 -0.1546422 0.9753134 0.1546422 0.9753134 0.1546422 0.0246866 -0.1546422
6025596 0.0238693 -0.1521108 0.9761307 0.1521108 0.9761307 0.1521108 0.0238693 -0.1521108
6130558 0.0230785 -0.1496163 0.9769215 0.1496163 0.9769215 0.1496163 0.0230785 -0.1496163
6237348 0.0223134 -0.1471584 0.9776866 0.1471584 0.9776866 0.1471584 0.0223134 -0.1471584
6345999 0.0215731 -0.1447367 0.9784269 0.1447367 0.9784269 0.1447367 0.0215731 -0.1447367
6456542 0.0208568 -0.1423508 0.9791432 0.1423508 0.9791432 0.1423508 0.0208568 -0.1423508
6569011 0.0201639 -0.1400005 0.9798361 0.1400005 0.9798361 0.1400005 0.0201639 -0.1400005
6683439 0.0194937 -0.1376852 0.9805063 0.1376852 0.9805063 0.1376852 0.0194937 -0.1376852
6799860 0.0188453 -0.1354048 0.9811547 0.1354048 0.9811547 0.1354048 0.0188453 -0.1354048
6918310 0.0182181 -0.1331587 0.9817819 0.1331587 0.9817819 0.1331587 0.0182181 -0.1331587
7038822 0.0176114 -0.1309466 0.9823886 0.1309466 0.9823886 0.1309466 0.0176114 -0.1309466
7161434 0.0170247 -0.1287682 0.9829753 0.1287682 0.9829753 0.1287682 0.0170247 -0.1287682
7286182 0.0164572 -0.1266230 0.9835428 0.1266230 0.9835428 0.1266230 0.0164572 -0.1266230
7413102 0.0159084 -0.1245107 0.9840916 0.1245107 0.9840916 0.1245107 0.0159084 -0.1245107
7542234 0.0153776 -0.1224308 0.9846224 0.1224308 0.9846224 0.1224308 0.0153776 -0.1224308
7673615 0.0148644 -0.1203830 0.9851356 0.1203830 0.9851356 0.1203830 0.0148644 -0.1203830
7807284 0.0143680 -0.1183669 0.9856320 0.1183669 0.9856320 0.1183669 0.0143680 -0.1183669
7943282 0.0138881 -0.1163821 0.9861119 0.1163821 0.9861119 0.1163821 0.0138881 -0.1163821
8081649 0.0134240 -0.1144282 0.9865760 0.1144282 0.9865760 0.1144282 0.0134240 -0.1144282
8222426 0.0129753 -0.1125048 0.9870247 0.1125048 0.9870247 0.1125048 0.0129753 -0.1125048
8365656 0.0125415 -0.1106115 0.9874585 0.1106115 0.9874585 0.1106115 0.0125415 -0.1106115
8511380 0.0121220 -0.1087479 0.9878780 0.1087479 0.9878780 0.1087479 0.0121220 -0.1087479
8659643 0.0117165 -0.1069136 0.9882835 0.1069136 0.9882835 0.1069136 0.0117165 -0.1069136
8810489 0.0113244 -0.1051082 0.9886756 0.1051082 0.9886756 0.1051082 0.0113244 -0.1051082
8963962 0.0109454 -0.1033314 0.9890546 0.1033314 0.9890546 0.1033314 0.0109454 -0.1033314
9120108 0.0105790 -0.1015827 0.9894210 0.1015827 0.9894210 0.1015827 0.0105790 -0.1015827
9278975 0.0102247 -0.0998617 0.9897753 0.0998617 0.9897753 0.0998617 0.0102247 -0.0998617
9440609 0.0098824 -0.0981682 0.9901176 0.0981682 0.9901176 0.0981682 0.0098824 -0.0981682
9605058 0.0095514 -0.0965016 0.9904486 0.0965016 0.9904486 0.0965016 0.0095514 -0.0965016
9772372 0.0092315 -0.0948616 0.9907685 0.0948616 0.9907685 0.0948616 0.0092315 -0.0948616
9942601 0.0089222 -0.0932478 0.9910778 0.0932478 0.9910778 0.0932478 0.0089222 -0.0932478
10115795 0.0086233 -0.0916599 0.9913767 0.0916599 0.9913767 0.0916599 0.0086233 -0.0916599
10292005 0.0083345 -0.0900974 0.9916655 0.0900974 0.9916655 0.0900974 0.0083345 -0.0900974
10471285 0.0080553 -0.0885600 0.9919447 0.0885600 0.9919447 0.0885600 0.0080553 -0.0885600
10653689 0.0077854 -0.0870473 0.9922146 0.0870473 0.9922146 0.0870473 0.0077854 -0.0870473
10839269 0.0075246 -0.0855590 0.9924754 0.0855590 0.9924754 0.0855590 0.0075246 -0.0855590
11028082 0.0072726 -0.0840947 0.9927274 0.0840947 0.9927274 0.0840947 0.0072726 -0.0840947
11220185 0.0070290 -0.0826540 0.9929710 0.0826540 0.9929710 0.0826540 0.0070290 -0.0826540
11415633 0.0067937 -0.0812366 0.9932063 0.0812366 0.9932063 0.0812366 0.0067937 -0.0812366
11614486 0.0065662 -0.0798421 0.9934338 0.0798421 0.9934338 0.0798421 0.0065662 -0.0798421
11816803 0.0063464 -0.0784702 0.9936536 0.0784702 0.9936536 0.0784702 0.0063464 -0.0784702
12022644 0.0061341 -0.0771206 0.9938659 0.0771206 0.9938659 0.0771206 0.0061341 -0.0771206
12232071 0.0059288 -0.0757928 0.9940712 0.0757928 0.9940712 0.0757928 0.0059288 -0.0757928
12445146 0.0057305 -0.0744865 0.9942695 0.0744865 0.9942695 0.0744865 0.0057305 -0.0744865
12661933 0.0055390 -0.0732014 0.9944610 0.0732014 0.9944610 0.0732014 0.0055390 -0.0732014
12882496 0.0053538 -0.0719373 0.9946462 0.0719373 0.9946462 0.0719373 0.0053538 -0.0719373
13106900 0.0051750 -0.0706936 0.9948250 0.0706936 0.9948250 0.0706936 0.0051750 -0.0706936
13335214 0.0050022 -0.0694702 0.9949978 0.0694702 0.9949978 0.0694702 0.0050022 -0.0694702
13567505 0.0048353 -0.0682667 0.9951647 0.0682667 0.9951647 0.0682667 0.0048353 -0.0682667
13803843 0.0046740 -0.0670828 0.9953260 0.0670828 0.9953260 0.0670828 0.0046740 -0.0670828
14044297 0.0045182 -0.0659182 0.9954818 0.0659182 0.9954818 0.0659182 0.0045182 -0.0659182
14288940 0.0043677 -0.0647725 0.9956323 0.0647725 0.9956323 0.0647725 0.0043677 -0.0647725
14537844 0.0042223 -0.0636455 0.9957777 0.0636455 0.9957777 0.0636455 0.0042223 -0.0636455
14791084 0.0040819 -0.0625368 0.9959181 0.0625368 0.9959181 0.0625368 0.0040819 -0.0625368
15048735 0.0039462 -0.0614462 0.9960538 0.0614462 0.9960538 0.0614462 0.0039462 -0.0614462
15310875 0.0038152 -0.0603734 0.9961848 0.0603734 0.9961848 0.0603734 0.0038152 -0.0603734
15577580 0.0036886 -0.0593180 0.9963114 0.0593180 0.9963114 0.0593180 0.0036886 -0.0593180
15848932 0.0035664 -0.0582798 0.9964336 0.0582798 0.9964336 0.0582798 0.0035664 -0.0582798
16125010 0.0034484 -0.0572586 0.9965516 0.0572586 0.9965516 0.0572586 0.0034484 -0.0572586
16405898 0.0033344 -0.0562539 0.9966656 0.0562539 0.9966656 0.0562539 0.0033344 -0.0562539
16691678 0.0032243 -0.0552656 0.9967757 0.0552656 0.9967757 0.0552656 0.0032243 -0.0552656
16982437 0.0031180 -0.0542934 0.9968820 0.0542934 0.9968820 0.0542934 0.0031180 -0.0542934
17278260 0.0030153 -0.0533370 0.9969847 0.0533370 0.9969847 0.0533370 0.0030153 -0.0533370
17579236 0.0029162 -0.0523961 0.9970838 0.0523961 0.9970838 0.0523961 0.0029162 -0.0523961
17885455 0.0028205 -0.0514706 0.9971795 0.0514706 0.9971795 0.0514706 0.0028205 -0.0514706
18197009 0.0027281 -0.0505600 0.9972719 0.0505600 0.9972719 0.0505600 0.0027281 -0.0505600
18513989 0.0026389 -0.0496642 0.9973611 0.0496642 0.9973611 0.0496642 0.0026389 -0.0496642
18836491 0.0025528 -0.0487830 0.9974472 0.0487830 0.9974472 0.0487830 0.0025528 -0.0487830
19164611 0.0024696 -0.0479161 0.9975304 0.0479161 0.9975304 0.0479161 0.0024696 -0.0479161
19498446 0.0023894 -0.0470631 0.9976106 0.0470631 0.9976106 0.0470631 0.0023894 -0.0470631
19838097 0.0023119 -0.0462240 0.9976881 0.0462240 0.9976881 0.0462240 0.0023119 -0.0462240
20183664 0.0022372 -0.0453985 0.9977628 0.0453985 0.9977628 0.0453985 0.0022372 -0.0453985
20535250 0.0021650 -0.0445863 0.9978350 0.0445863 0.9978350 0.0445863 0.0021650 -0.0445863
20892961 0.0020954 -0.0437871 0.9979046 0.0437871 0.9979046 0.0437871 0.0020954 -0.0437871
21256903 0.0020283 -0.0430009 0.9979717 0.0430009 0.9979717 0.0430009 0.0020283 -0.0430009
21627185 0.0019634 -0.0422273 0.9980366 0.0422273 0.9980366 0.0422273 0.0019634 -0.0422273
22003917 0.0019009 -0.0414662 0.9980991 0.0414662 0.9980991 0.0414662 0.0019009 -0.0414662
22387211 0.0018406 -0.0407172 0.9981594 0.0407172 0.9981594 0.0407172 0.0018406 -0.0407172
22777182 0.0017824 -0.0399803 0.9982176 0.0399803 0.9982176 0.0399803 0.0017824 -0.0399803
23173946 0.0017263 -0.0392552 0.9982737 0.0392552 0.9982737 0.0392552 0.0017263 -0.0392552
23577622 0.0016721 -0.0385417 0.9983279 0.0385417 0.9983279 0.0385417 0.0016721 -0.0385417
23988329 0.0016199 -0.0378395 0.9983801 0.0378395 0.9983801 0.0378395 0.0016199 -0.0378395
24406191 0.0015696 -0.0371486 0.9984304 0.0371486 0.9984304 0.0371486 0.0015696 -0.0371486
24831331 0.0015211 -0.0364686 0.9984789 0.0364686 0.9984789 0.0364686 0.0015211 -0.0364686
25263877 0.0014743 -0.0357994 0.9985257 0.0357994 0.9985257 0.0357994 0.0014743 -0.0357994
25703958 0.0014292 -0.0351409 0.9985708 0.0351409 0.9985708 0.0351409 0.0014292 -0.0351409
26151704 0.0013857 -0.0344927 0.9986143 0.0344927 0.9986143 0.0344927 0.0013857 -0.0344927
26607251 0.0013438 -0.0338548 0.9986562 0.0338548 0.9986562 0.0338548 0.0013438 -0.0338548
27070732 0.0013034 -0.0332269 0.9986966 0.0332269 0.9986966 0.0332269 0.0013034 -0.0332269
27542287 0.0012646 -0.0326089 0.9987354 0.0326089 0.9987354 0.0326089 0.0012646 -0.0326089
28022056 0.0012271 -0.0320006 0.9987729 0.0320006 0.9987729 0.0320006 0.0012271 -0.0320006
28510183 0.0011910 -0.0314018 0.9988090 0.0314018 0.9988090 0.0314018 0.0011910 -0.0314018
29006812 0.0011563 -0.0308123 0.9988437 0.0308123 0.9988437 0.0308123 0.0011563 -0.0308123
29512092 0.0011228 -0.0302320 0.9988772 0.0302320 0.9988772 0.0302320 0.0011228 -0.0302320
30026174 0.0010906 -0.0296607 0.9989094 0.0296607 0.9989094 0.0296607 0.0010906 -0.0296607
30549211 0.0010596 -0.0290982 0.9989404 0.0290982 0.9989404 0.0290982 0.0010596 -0.0290982
31081359 0.0010298 -0.0285444 0.9989702 0.0285444 0.9989702 0.0285444 0.0010298 -0.0285444
31622777 0.0010011 -0.0279991 0.9989989 0.0279991 0.9989989 0.0279991 0.0010011 -0.0279991
32173625 0.0009734 -0.0274622 0.9990266 0.0274622 0.9990266 0.0274622 0.0009734 -0.0274622
32734069 0.0009469 -0.0269334 0.9990531 0.0269334 0.9990531 0.0269334 0.0009469 -0.0269334
33304276 0.0009213 -0.0264127 0.9990787 0.0264127 0.9990787 0.0264127 0.0009213 -0.0264127
33884416 0.0008968 -0.0259000 0.9991032 0.0259000 0.9991032 0.0259000 0.0008968 -0.0259000
34474661 0.0008732 -0.0253949 0.9991268 0.0253949 0.9991268 0.0253949 0.0008732 -0.0253949
35075187 0.0008505 -0.0248974 0.9991495 0.0248974 0.9991495 0.0248974 0.0008505 -0.0248974
35686175 0.0008287 -0.0244074 0.9991713 0.0244074 0.9991713 0.0244074 0.0008287 -0.0244074
36307805 0.0008078 -0.0239247 0.9991922 0.0239247 0.9991922 0.0239247 0.0008078 -0.0239247
36940264 0.0007877 -0.0234492 0.9992123 0.0234492 0.9992123 0.0234492 0.0007877 -0.0234492
37583740 0.0007684 -0.0229807 0.9992316 0.0229807 0.9992316 0.0229807 0.0007684 -0.0229807
38238425 0.0007499 -0.0225191 0.9992501 0.0225191 0.9992501 0.0225191 0.0007499 -0.0225191
38904514 0.0007321 -0.0220642 0.9992679 0.0220642 0.9992679 0.0220642 0.0007321 -0.0220642
39582206 0.0007150 -0.0216160 0.9992850 0.0216160 0.9992850 0.0216160 0.0007150 -0.0216160
40271703 0.0006987 -0.0211743 0.9993013 0.0211743 0.9993013 0.0211743 0.0006987 -0.0211743
40973211 0.0006830 -0.0207389 0.9993170 0.0207389 0.9993170 0.0207389 0.0006830 -0.0207389
