!Murata Part Number: GRM31A5C2J100JW01
!These Parameters are Measured in Series Mode Connection
!Data Generated on Mar 30, 2021
!       o--ll--o
!Port1            Port2
!       o------o
!Operation Temp=25[degC], DC Bias Voltage=0[V]
!Freq. Start=100[MHz] Stop=3[GHz] 401[Steps]
# Hz S RI R 50
!Freq.(Hz) S11(Real) S11(Imag) S21(Real) S21(Imag) S12(Real) S12(Imag) S22(Real) S22(Imag)
100000000 0.7153396 -0.4504329 0.2846604 0.4504329 0.2846604 0.4504329 0.7153396 -0.4504329
107250000 0.6858245 -0.4633070 0.3141755 0.4633070 0.3141755 0.4633070 0.6858245 -0.4633070
114500000 0.6567812 -0.4738441 0.3432188 0.4738441 0.3432188 0.4738441 0.6567812 -0.4738441
121750000 0.6283801 -0.4822377 0.3716199 0.4822377 0.3716199 0.4822377 0.6283801 -0.4822377
129000000 0.6007552 -0.4886831 0.3992448 0.4886831 0.3992448 0.4886831 0.6007552 -0.4886831
136250000 0.5740078 -0.4933720 0.4259922 0.4933720 0.4259922 0.4933720 0.5740078 -0.4933720
143500000 0.5482111 -0.4964892 0.4517889 0.4964892 0.4517889 0.4964892 0.5482111 -0.4964892
150750000 0.5234137 -0.4982097 0.4765863 0.4982097 0.4765863 0.4982097 0.5234137 -0.4982097
158000000 0.4996439 -0.4986972 0.5003561 0.4986972 0.5003561 0.4986972 0.4996439 -0.4986972
165250000 0.4769130 -0.4981030 0.5230870 0.4981030 0.5230870 0.4981030 0.4769130 -0.4981030
172500000 0.4552187 -0.4965657 0.5447813 0.4965657 0.5447813 0.4965657 0.4552187 -0.4965657
179750000 0.4345477 -0.4942112 0.5654523 0.4942112 0.5654523 0.4942112 0.4345477 -0.4942112
187000000 0.4148781 -0.4911532 0.5851219 0.4911532 0.5851219 0.4911532 0.4148781 -0.4911532
194250000 0.3961820 -0.4874935 0.6038180 0.4874935 0.6038180 0.4874935 0.3961820 -0.4874935
201500000 0.3784266 -0.4833232 0.6215734 0.4833232 0.6215734 0.4833232 0.3784266 -0.4833232
208750000 0.3615757 -0.4787231 0.6384243 0.4787231 0.6384243 0.4787231 0.3615757 -0.4787231
216000000 0.3455913 -0.4737646 0.6544087 0.4737646 0.6544087 0.4737646 0.3455913 -0.4737646
223250000 0.3304343 -0.4685108 0.6695657 0.4685108 0.6695657 0.4685108 0.3304343 -0.4685108
230500000 0.3160649 -0.4630170 0.6839351 0.4630170 0.6839351 0.4630170 0.3160649 -0.4630170
237750000 0.3024439 -0.4573318 0.6975561 0.4573318 0.6975561 0.4573318 0.3024439 -0.4573318
245000000 0.2895323 -0.4514973 0.7104677 0.4514973 0.7104677 0.4514973 0.2895323 -0.4514973
252250000 0.2772925 -0.4455506 0.7227075 0.4455506 0.7227075 0.4455506 0.2772925 -0.4455506
259500000 0.2656879 -0.4395234 0.7343121 0.4395234 0.7343121 0.4395234 0.2656879 -0.4395234
266750000 0.2546833 -0.4334434 0.7453167 0.4334434 0.7453167 0.4334434 0.2546833 -0.4334434
274000000 0.2442450 -0.4273346 0.7557550 0.4273346 0.7557550 0.4273346 0.2442450 -0.4273346
281250000 0.2343409 -0.4212174 0.7656591 0.4212174 0.7656591 0.4212174 0.2343409 -0.4212174
288500000 0.2249405 -0.4151093 0.7750595 0.4151093 0.7750595 0.4151093 0.2249405 -0.4151093
295750000 0.2160149 -0.4090254 0.7839851 0.4090254 0.7839851 0.4090254 0.2160149 -0.4090254
303000000 0.2075367 -0.4029782 0.7924633 0.4029782 0.7924633 0.4029782 0.2075367 -0.4029782
310250000 0.1994801 -0.3969787 0.8005199 0.3969787 0.8005199 0.3969787 0.1994801 -0.3969787
317500000 0.1918208 -0.3910356 0.8081792 0.3910356 0.8081792 0.3910356 0.1918208 -0.3910356
324750000 0.1845358 -0.3851566 0.8154642 0.3851566 0.8154642 0.3851566 0.1845358 -0.3851566
332000000 0.1776038 -0.3793479 0.8223962 0.3793479 0.8223962 0.3793479 0.1776038 -0.3793479
339250000 0.1710044 -0.3736143 0.8289956 0.3736143 0.8289956 0.3736143 0.1710044 -0.3736143
346500000 0.1647186 -0.3679601 0.8352814 0.3679601 0.8352814 0.3679601 0.1647186 -0.3679601
353750000 0.1587286 -0.3623883 0.8412714 0.3623883 0.8412714 0.3623883 0.1587286 -0.3623883
361000000 0.1530177 -0.3569014 0.8469823 0.3569014 0.8469823 0.3569014 0.1530177 -0.3569014
368250000 0.1475701 -0.3515013 0.8524299 0.3515013 0.8524299 0.3515013 0.1475701 -0.3515013
375500000 0.1423713 -0.3461890 0.8576287 0.3461890 0.8576287 0.3461890 0.1423713 -0.3461890
382750000 0.1374074 -0.3409655 0.8625926 0.3409655 0.8625926 0.3409655 0.1374074 -0.3409655
390000000 0.1326654 -0.3358310 0.8673346 0.3358310 0.8673346 0.3358310 0.1326654 -0.3358310
397250000 0.1281332 -0.3307855 0.8718668 0.3307855 0.8718668 0.3307855 0.1281332 -0.3307855
404500000 0.1237995 -0.3258289 0.8762005 0.3258289 0.8762005 0.3258289 0.1237995 -0.3258289
411750000 0.1196535 -0.3209604 0.8803465 0.3209604 0.8803465 0.3209604 0.1196535 -0.3209604
419000000 0.1156853 -0.3161794 0.8843147 0.3161794 0.8843147 0.3161794 0.1156853 -0.3161794
426250000 0.1118854 -0.3114849 0.8881146 0.3114849 0.8881146 0.3114849 0.1118854 -0.3114849
433500000 0.1082450 -0.3068758 0.8917550 0.3068758 0.8917550 0.3068758 0.1082450 -0.3068758
440750000 0.1047558 -0.3023510 0.8952442 0.3023510 0.8952442 0.3023510 0.1047558 -0.3023510
448000000 0.1014100 -0.2979090 0.8985900 0.2979090 0.8985900 0.2979090 0.1014100 -0.2979090
455250000 0.0982003 -0.2935486 0.9017997 0.2935486 0.9017997 0.2935486 0.0982003 -0.2935486
462500000 0.0951198 -0.2892682 0.9048802 0.2892682 0.9048802 0.2892682 0.0951198 -0.2892682
469750000 0.0921620 -0.2850664 0.9078380 0.2850664 0.9078380 0.2850664 0.0921620 -0.2850664
477000000 0.0893208 -0.2809415 0.9106792 0.2809415 0.9106792 0.2809415 0.0893208 -0.2809415
484250000 0.0865904 -0.2768921 0.9134096 0.2768921 0.9134096 0.2768921 0.0865904 -0.2768921
491500000 0.0839655 -0.2729165 0.9160345 0.2729165 0.9160345 0.2729165 0.0839655 -0.2729165
498750000 0.0814410 -0.2690132 0.9185590 0.2690132 0.9185590 0.2690132 0.0814410 -0.2690132
506000000 0.0790121 -0.2651805 0.9209879 0.2651805 0.9209879 0.2651805 0.0790121 -0.2651805
513250000 0.0766742 -0.2614169 0.9233258 0.2614169 0.9233258 0.2614169 0.0766742 -0.2614169
520500000 0.0744230 -0.2577208 0.9255770 0.2577208 0.9255770 0.2577208 0.0744230 -0.2577208
527750000 0.0722545 -0.2540906 0.9277455 0.2540906 0.9277455 0.2540906 0.0722545 -0.2540906
535000000 0.0701650 -0.2505247 0.9298350 0.2505247 0.9298350 0.2505247 0.0701650 -0.2505247
542250000 0.0681507 -0.2470217 0.9318493 0.2470217 0.9318493 0.2470217 0.0681507 -0.2470217
549500000 0.0662084 -0.2435801 0.9337916 0.2435801 0.9337916 0.2435801 0.0662084 -0.2435801
556750000 0.0643347 -0.2401983 0.9356653 0.2401983 0.9356653 0.2401983 0.0643347 -0.2401983
564000000 0.0625266 -0.2368749 0.9374734 0.2368749 0.9374734 0.2368749 0.0625266 -0.2368749
571250000 0.0607812 -0.2336084 0.9392188 0.2336084 0.9392188 0.2336084 0.0607812 -0.2336084
578500000 0.0590959 -0.2303976 0.9409041 0.2303976 0.9409041 0.2303976 0.0590959 -0.2303976
585750000 0.0574680 -0.2272410 0.9425320 0.2272410 0.9425320 0.2272410 0.0574680 -0.2272410
593000000 0.0558950 -0.2241373 0.9441050 0.2241373 0.9441050 0.2241373 0.0558950 -0.2241373
600250000 0.0543747 -0.2210852 0.9456253 0.2210852 0.9456253 0.2210852 0.0543747 -0.2210852
607500000 0.0529048 -0.2180833 0.9470952 0.2180833 0.9470952 0.2180833 0.0529048 -0.2180833
614750000 0.0514833 -0.2151305 0.9485167 0.2151305 0.9485167 0.2151305 0.0514833 -0.2151305
622000000 0.0501080 -0.2122256 0.9498920 0.2122256 0.9498920 0.2122256 0.0501080 -0.2122256
629250000 0.0487773 -0.2093674 0.9512227 0.2093674 0.9512227 0.2093674 0.0487773 -0.2093674
636500000 0.0474891 -0.2065546 0.9525109 0.2065546 0.9525109 0.2065546 0.0474891 -0.2065546
643750000 0.0462420 -0.2037863 0.9537580 0.2037863 0.9537580 0.2037863 0.0462420 -0.2037863
651000000 0.0450341 -0.2010613 0.9549659 0.2010613 0.9549659 0.2010613 0.0450341 -0.2010613
658250000 0.0438640 -0.1983785 0.9561360 0.1983785 0.9561360 0.1983785 0.0438640 -0.1983785
665500000 0.0427302 -0.1957368 0.9572698 0.1957368 0.9572698 0.1957368 0.0427302 -0.1957368
672750000 0.0416313 -0.1931354 0.9583687 0.1931354 0.9583687 0.1931354 0.0416313 -0.1931354
680000000 0.0405660 -0.1905732 0.9594340 0.1905732 0.9594340 0.1905732 0.0405660 -0.1905732
687250000 0.0395329 -0.1880493 0.9604671 0.1880493 0.9604671 0.1880493 0.0395329 -0.1880493
694500000 0.0385310 -0.1855627 0.9614690 0.1855627 0.9614690 0.1855627 0.0385310 -0.1855627
701750000 0.0375589 -0.1831125 0.9624411 0.1831125 0.9624411 0.1831125 0.0375589 -0.1831125
709000000 0.0366157 -0.1806979 0.9633843 0.1806979 0.9633843 0.1806979 0.0366157 -0.1806979
716250000 0.0357002 -0.1783180 0.9642998 0.1783180 0.9642998 0.1783180 0.0357002 -0.1783180
723500000 0.0348114 -0.1759720 0.9651886 0.1759720 0.9651886 0.1759720 0.0348114 -0.1759720
730750000 0.0339485 -0.1736590 0.9660515 0.1736590 0.9660515 0.1736590 0.0339485 -0.1736590
738000000 0.0331104 -0.1713783 0.9668896 0.1713783 0.9668896 0.1713783 0.0331104 -0.1713783
745250000 0.0322963 -0.1691291 0.9677037 0.1691291 0.9677037 0.1691291 0.0322963 -0.1691291
752500000 0.0315053 -0.1669107 0.9684947 0.1669107 0.9684947 0.1669107 0.0315053 -0.1669107
759750000 0.0307367 -0.1647223 0.9692633 0.1647223 0.9692633 0.1647223 0.0307367 -0.1647223
767000000 0.0299896 -0.1625633 0.9700104 0.1625633 0.9700104 0.1625633 0.0299896 -0.1625633
774250000 0.0292634 -0.1604330 0.9707366 0.1604330 0.9707366 0.1604330 0.0292634 -0.1604330
781500000 0.0285573 -0.1583307 0.9714427 0.1583307 0.9714427 0.1583307 0.0285573 -0.1583307
788750000 0.0278707 -0.1562557 0.9721293 0.1562557 0.9721293 0.1562557 0.0278707 -0.1562557
796000000 0.0272029 -0.1542075 0.9727971 0.1542075 0.9727971 0.1542075 0.0272029 -0.1542075
803250000 0.0265532 -0.1521854 0.9734468 0.1521854 0.9734468 0.1521854 0.0265532 -0.1521854
810500000 0.0259212 -0.1501888 0.9740788 0.1501888 0.9740788 0.1501888 0.0259212 -0.1501888
817750000 0.0253062 -0.1482172 0.9746938 0.1482172 0.9746938 0.1482172 0.0253062 -0.1482172
825000000 0.0247076 -0.1462700 0.9752924 0.1462700 0.9752924 0.1462700 0.0247076 -0.1462700
832250000 0.0241250 -0.1443467 0.9758750 0.1443467 0.9758750 0.1443467 0.0241250 -0.1443467
839500000 0.0235579 -0.1424466 0.9764421 0.1424466 0.9764421 0.1424466 0.0235579 -0.1424466
846750000 0.0230057 -0.1405694 0.9769943 0.1405694 0.9769943 0.1405694 0.0230057 -0.1405694
854000000 0.0224679 -0.1387145 0.9775321 0.1387145 0.9775321 0.1387145 0.0224679 -0.1387145
861250000 0.0219443 -0.1368814 0.9780557 0.1368814 0.9780557 0.1368814 0.0219443 -0.1368814
868500000 0.0214342 -0.1350696 0.9785658 0.1350696 0.9785658 0.1350696 0.0214342 -0.1350696
875750000 0.0209374 -0.1332787 0.9790626 0.1332787 0.9790626 0.1332787 0.0209374 -0.1332787
883000000 0.0204533 -0.1315082 0.9795467 0.1315082 0.9795467 0.1315082 0.0204533 -0.1315082
890250000 0.0199817 -0.1297577 0.9800183 0.1297577 0.9800183 0.1297577 0.0199817 -0.1297577
897500000 0.0195221 -0.1280267 0.9804779 0.1280267 0.9804779 0.1280267 0.0195221 -0.1280267
904750000 0.0190743 -0.1263149 0.9809257 0.1263149 0.9809257 0.1263149 0.0190743 -0.1263149
912000000 0.0186378 -0.1246218 0.9813622 0.1246218 0.9813622 0.1246218 0.0186378 -0.1246218
919250000 0.0182123 -0.1229470 0.9817877 0.1229470 0.9817877 0.1229470 0.0182123 -0.1229470
926500000 0.0177975 -0.1212902 0.9822025 0.1212902 0.9822025 0.1212902 0.0177975 -0.1212902
933750000 0.0173932 -0.1196510 0.9826068 0.1196510 0.9826068 0.1196510 0.0173932 -0.1196510
941000000 0.0169989 -0.1180289 0.9830011 0.1180289 0.9830011 0.1180289 0.0169989 -0.1180289
948250000 0.0166145 -0.1164237 0.9833855 0.1164237 0.9833855 0.1164237 0.0166145 -0.1164237
955500000 0.0162397 -0.1148350 0.9837603 0.1148350 0.9837603 0.1148350 0.0162397 -0.1148350
962750000 0.0158741 -0.1132625 0.9841259 0.1132625 0.9841259 0.1132625 0.0158741 -0.1132625
970000000 0.0155176 -0.1117058 0.9844824 0.1117058 0.9844824 0.1117058 0.0155176 -0.1117058
977250000 0.0151699 -0.1101646 0.9848301 0.1101646 0.9848301 0.1101646 0.0151699 -0.1101646
984500000 0.0148308 -0.1086387 0.9851692 0.1086387 0.9851692 0.1086387 0.0148308 -0.1086387
991750000 0.0145000 -0.1071276 0.9855000 0.1071276 0.9855000 0.1071276 0.0145000 -0.1071276
999000000 0.0141773 -0.1056311 0.9858227 0.1056311 0.9858227 0.1056311 0.0141773 -0.1056311
1006250000 0.0138625 -0.1041489 0.9861375 0.1041489 0.9861375 0.1041489 0.0138625 -0.1041489
1013500000 0.0135554 -0.1026807 0.9864446 0.1026807 0.9864446 0.1026807 0.0135554 -0.1026807
1020750000 0.0132558 -0.1012262 0.9867442 0.1012262 0.9867442 0.1012262 0.0132558 -0.1012262
1028000000 0.0129636 -0.0997853 0.9870364 0.0997853 0.9870364 0.0997853 0.0129636 -0.0997853
1035250000 0.0126784 -0.0983575 0.9873216 0.0983575 0.9873216 0.0983575 0.0126784 -0.0983575
1042500000 0.0124002 -0.0969427 0.9875998 0.0969427 0.9875998 0.0969427 0.0124002 -0.0969427
1049750000 0.0121288 -0.0955406 0.9878712 0.0955406 0.9878712 0.0955406 0.0121288 -0.0955406
1057000000 0.0118639 -0.0941509 0.9881361 0.0941509 0.9881361 0.0941509 0.0118639 -0.0941509
1064250000 0.0116055 -0.0927734 0.9883945 0.0927734 0.9883945 0.0927734 0.0116055 -0.0927734
1071500000 0.0113534 -0.0914080 0.9886466 0.0914080 0.9886466 0.0914080 0.0113534 -0.0914080
1078750000 0.0111074 -0.0900542 0.9888926 0.0900542 0.9888926 0.0900542 0.0111074 -0.0900542
1086000000 0.0108674 -0.0887120 0.9891326 0.0887120 0.9891326 0.0887120 0.0108674 -0.0887120
1093250000 0.0106333 -0.0873811 0.9893667 0.0873811 0.9893667 0.0873811 0.0106333 -0.0873811
1100500000 0.0104048 -0.0860613 0.9895952 0.0860613 0.9895952 0.0860613 0.0104048 -0.0860613
1107750000 0.0101820 -0.0847524 0.9898180 0.0847524 0.9898180 0.0847524 0.0101820 -0.0847524
1115000000 0.0099645 -0.0834541 0.9900355 0.0834541 0.9900355 0.0834541 0.0099645 -0.0834541
1122250000 0.0097524 -0.0821663 0.9902476 0.0821663 0.9902476 0.0821663 0.0097524 -0.0821663
1129500000 0.0095455 -0.0808888 0.9904545 0.0808888 0.9904545 0.0808888 0.0095455 -0.0808888
1136750000 0.0093437 -0.0796215 0.9906563 0.0796215 0.9906563 0.0796215 0.0093437 -0.0796215
1144000000 0.0091468 -0.0783640 0.9908532 0.0783640 0.9908532 0.0783640 0.0091468 -0.0783640
1151250000 0.0089549 -0.0771162 0.9910451 0.0771162 0.9910451 0.0771162 0.0089549 -0.0771162
1158500000 0.0087676 -0.0758780 0.9912324 0.0758780 0.9912324 0.0758780 0.0087676 -0.0758780
1165750000 0.0085850 -0.0746492 0.9914150 0.0746492 0.9914150 0.0746492 0.0085850 -0.0746492
1173000000 0.0084070 -0.0734296 0.9915930 0.0734296 0.9915930 0.0734296 0.0084070 -0.0734296
1180250000 0.0082333 -0.0722190 0.9917667 0.0722190 0.9917667 0.0722190 0.0082333 -0.0722190
1187500000 0.0080641 -0.0710173 0.9919359 0.0710173 0.9919359 0.0710173 0.0080641 -0.0710173
1194750000 0.0078991 -0.0698243 0.9921009 0.0698243 0.9921009 0.0698243 0.0078991 -0.0698243
1202000000 0.0077383 -0.0686399 0.9922617 0.0686399 0.9922617 0.0686399 0.0077383 -0.0686399
1209250000 0.0075816 -0.0674639 0.9924184 0.0674639 0.9924184 0.0674639 0.0075816 -0.0674639
1216500000 0.0074289 -0.0662961 0.9925711 0.0662961 0.9925711 0.0662961 0.0074289 -0.0662961
1223750000 0.0072801 -0.0651365 0.9927199 0.0651365 0.9927199 0.0651365 0.0072801 -0.0651365
1231000000 0.0071351 -0.0639848 0.9928649 0.0639848 0.9928649 0.0639848 0.0071351 -0.0639848
1238250000 0.0069940 -0.0628410 0.9930060 0.0628410 0.9930060 0.0628410 0.0069940 -0.0628410
1245500000 0.0068565 -0.0617048 0.9931435 0.0617048 0.9931435 0.0617048 0.0068565 -0.0617048
1252750000 0.0067226 -0.0605762 0.9932774 0.0605762 0.9932774 0.0605762 0.0067226 -0.0605762
1260000000 0.0065923 -0.0594551 0.9934077 0.0594551 0.9934077 0.0594551 0.0065923 -0.0594551
1267250000 0.0064655 -0.0583412 0.9935345 0.0583412 0.9935345 0.0583412 0.0064655 -0.0583412
1274500000 0.0063421 -0.0572345 0.9936579 0.0572345 0.9936579 0.0572345 0.0063421 -0.0572345
1281750000 0.0062220 -0.0561348 0.9937780 0.0561348 0.9937780 0.0561348 0.0062220 -0.0561348
1289000000 0.0061053 -0.0550421 0.9938947 0.0550421 0.9938947 0.0550421 0.0061053 -0.0550421
1296250000 0.0059917 -0.0539562 0.9940083 0.0539562 0.9940083 0.0539562 0.0059917 -0.0539562
1303500000 0.0058814 -0.0528769 0.9941186 0.0528769 0.9941186 0.0528769 0.0058814 -0.0528769
1310750000 0.0057741 -0.0518043 0.9942259 0.0518043 0.9942259 0.0518043 0.0057741 -0.0518043
1318000000 0.0056699 -0.0507381 0.9943301 0.0507381 0.9943301 0.0507381 0.0056699 -0.0507381
1325250000 0.0055688 -0.0496783 0.9944312 0.0496783 0.9944312 0.0496783 0.0055688 -0.0496783
1332500000 0.0054705 -0.0486247 0.9945295 0.0486247 0.9945295 0.0486247 0.0054705 -0.0486247
1339750000 0.0053752 -0.0475772 0.9946248 0.0475772 0.9946248 0.0475772 0.0053752 -0.0475772
1347000000 0.0052827 -0.0465358 0.9947173 0.0465358 0.9947173 0.0465358 0.0052827 -0.0465358
1354250000 0.0051930 -0.0455003 0.9948070 0.0455003 0.9948070 0.0455003 0.0051930 -0.0455003
1361500000 0.0051061 -0.0444706 0.9948939 0.0444706 0.9948939 0.0444706 0.0051061 -0.0444706
1368750000 0.0050218 -0.0434467 0.9949782 0.0434467 0.9949782 0.0434467 0.0050218 -0.0434467
1376000000 0.0049403 -0.0424285 0.9950597 0.0424285 0.9950597 0.0424285 0.0049403 -0.0424285
1383250000 0.0048613 -0.0414157 0.9951387 0.0414157 0.9951387 0.0414157 0.0048613 -0.0414157
1390500000 0.0047850 -0.0404085 0.9952150 0.0404085 0.9952150 0.0404085 0.0047850 -0.0404085
1397750000 0.0047112 -0.0394065 0.9952888 0.0394065 0.9952888 0.0394065 0.0047112 -0.0394065
1405000000 0.0046398 -0.0384099 0.9953602 0.0384099 0.9953602 0.0384099 0.0046398 -0.0384099
1412250000 0.0045709 -0.0374185 0.9954291 0.0374185 0.9954291 0.0374185 0.0045709 -0.0374185
1419500000 0.0045045 -0.0364321 0.9954955 0.0364321 0.9954955 0.0364321 0.0045045 -0.0364321
1426750000 0.0044404 -0.0354508 0.9955596 0.0354508 0.9955596 0.0354508 0.0044404 -0.0354508
1434000000 0.0043787 -0.0344744 0.9956213 0.0344744 0.9956213 0.0344744 0.0043787 -0.0344744
1441250000 0.0043193 -0.0335029 0.9956807 0.0335029 0.9956807 0.0335029 0.0043193 -0.0335029
1448500000 0.0042621 -0.0325361 0.9957379 0.0325361 0.9957379 0.0325361 0.0042621 -0.0325361
1455750000 0.0042073 -0.0315740 0.9957927 0.0315740 0.9957927 0.0315740 0.0042073 -0.0315740
1463000000 0.0041546 -0.0306166 0.9958454 0.0306166 0.9958454 0.0306166 0.0041546 -0.0306166
1470250000 0.0041041 -0.0296637 0.9958959 0.0296637 0.9958959 0.0296637 0.0041041 -0.0296637
1477500000 0.0040557 -0.0287152 0.9959443 0.0287152 0.9959443 0.0287152 0.0040557 -0.0287152
1484750000 0.0040095 -0.0277712 0.9959905 0.0277712 0.9959905 0.0277712 0.0040095 -0.0277712
1492000000 0.0039654 -0.0268314 0.9960346 0.0268314 0.9960346 0.0268314 0.0039654 -0.0268314
1499250000 0.0039233 -0.0258960 0.9960767 0.0258960 0.9960767 0.0258960 0.0039233 -0.0258960
1506500000 0.0038833 -0.0249647 0.9961167 0.0249647 0.9961167 0.0249647 0.0038833 -0.0249647
1513750000 0.0038453 -0.0240375 0.9961547 0.0240375 0.9961547 0.0240375 0.0038453 -0.0240375
1521000000 0.0038092 -0.0231144 0.9961908 0.0231144 0.9961908 0.0231144 0.0038092 -0.0231144
1528250000 0.0037752 -0.0221952 0.9962248 0.0221952 0.9962248 0.0221952 0.0037752 -0.0221952
1535500000 0.0037430 -0.0212800 0.9962570 0.0212800 0.9962570 0.0212800 0.0037430 -0.0212800
1542750000 0.0037128 -0.0203687 0.9962872 0.0203687 0.9962872 0.0203687 0.0037128 -0.0203687
1550000000 0.0036844 -0.0194611 0.9963156 0.0194611 0.9963156 0.0194611 0.0036844 -0.0194611
1557250000 0.0036579 -0.0185572 0.9963421 0.0185572 0.9963421 0.0185572 0.0036579 -0.0185572
1564500000 0.0036333 -0.0176571 0.9963667 0.0176571 0.9963667 0.0176571 0.0036333 -0.0176571
1571750000 0.0036105 -0.0167605 0.9963895 0.0167605 0.9963895 0.0167605 0.0036105 -0.0167605
1579000000 0.0035895 -0.0158675 0.9964105 0.0158675 0.9964105 0.0158675 0.0035895 -0.0158675
1586250000 0.0035702 -0.0149779 0.9964298 0.0149779 0.9964298 0.0149779 0.0035702 -0.0149779
1593500000 0.0035527 -0.0140919 0.9964473 0.0140919 0.9964473 0.0140919 0.0035527 -0.0140919
1600750000 0.0035370 -0.0132092 0.9964630 0.0132092 0.9964630 0.0132092 0.0035370 -0.0132092
1608000000 0.0035230 -0.0123298 0.9964770 0.0123298 0.9964770 0.0123298 0.0035230 -0.0123298
1615250000 0.0035107 -0.0114537 0.9964893 0.0114537 0.9964893 0.0114537 0.0035107 -0.0114537
1622500000 0.0035000 -0.0105808 0.9965000 0.0105808 0.9965000 0.0105808 0.0035000 -0.0105808
1629750000 0.0034911 -0.0097111 0.9965089 0.0097111 0.9965089 0.0097111 0.0034911 -0.0097111
