!Murata Part Number: GRM31A7U3D270JW31
!These Parameters are Measured in Series Mode Connection
!Data Generated on Mar 30, 2021
!       o--ll--o
!Port1            Port2
!       o------o
!Operation Temp=25[degC], DC Bias Voltage=0[V]
!Freq. Start=100[MHz] Stop=3[GHz] 401[Steps]
# Hz S RI R 50
!Freq.(Hz) S11(Real) S11(Imag) S21(Real) S21(Imag) S12(Real) S12(Imag) S22(Real) S22(Imag)
100000000 0.2552798 -0.4343860 0.7447202 0.4343860 0.7447202 0.4343860 0.2552798 -0.4343860
107250000 0.2292799 -0.4186163 0.7707201 0.4186163 0.7707201 0.4186163 0.2292799 -0.4186163
114500000 0.2066764 -0.4030466 0.7933236 0.4030466 0.7933236 0.4030466 0.2066764 -0.4030466
121750000 0.1869641 -0.3878860 0.8130359 0.3878860 0.8130359 0.3878860 0.1869641 -0.3878860
129000000 0.1697139 -0.3732619 0.8302861 0.3732619 0.8302861 0.3732619 0.1697139 -0.3732619
136250000 0.1545634 -0.3592454 0.8454366 0.3592454 0.8454366 0.3592454 0.1545634 -0.3592454
143500000 0.1412083 -0.3458697 0.8587917 0.3458697 0.8587917 0.3458697 0.1412083 -0.3458697
150750000 0.1293925 -0.3331425 0.8706075 0.3331425 0.8706075 0.3331425 0.1293925 -0.3331425
158000000 0.1189008 -0.3210549 0.8810992 0.3210549 0.8810992 0.3210549 0.1189008 -0.3210549
165250000 0.1095521 -0.3095875 0.8904479 0.3095875 0.8904479 0.3095875 0.1095521 -0.3095875
172500000 0.1011933 -0.2987142 0.8988067 0.2987142 0.8988067 0.2987142 0.1011933 -0.2987142
179750000 0.0936952 -0.2884058 0.9063048 0.2884058 0.9063048 0.2884058 0.0936952 -0.2884058
187000000 0.0869478 -0.2786311 0.9130522 0.2786311 0.9130522 0.2786311 0.0869478 -0.2786311
194250000 0.0808576 -0.2693589 0.9191424 0.2693589 0.9191424 0.2693589 0.0808576 -0.2693589
201500000 0.0753447 -0.2605582 0.9246553 0.2605582 0.9246553 0.2605582 0.0753447 -0.2605582
208750000 0.0703405 -0.2521993 0.9296595 0.2521993 0.9296595 0.2521993 0.0703405 -0.2521993
216000000 0.0657861 -0.2442539 0.9342139 0.2442539 0.9342139 0.2442539 0.0657861 -0.2442539
223250000 0.0616305 -0.2366950 0.9383695 0.2366950 0.9383695 0.2366950 0.0616305 -0.2366950
230500000 0.0578298 -0.2294974 0.9421702 0.2294974 0.9421702 0.2294974 0.0578298 -0.2294974
237750000 0.0543457 -0.2226377 0.9456543 0.2226377 0.9456543 0.2226377 0.0543457 -0.2226377
245000000 0.0511447 -0.2160938 0.9488553 0.2160938 0.9488553 0.2160938 0.0511447 -0.2160938
252250000 0.0481978 -0.2098453 0.9518022 0.2098453 0.9518022 0.2098453 0.0481978 -0.2098453
259500000 0.0454793 -0.2038733 0.9545207 0.2038733 0.9545207 0.2038733 0.0454793 -0.2038733
266750000 0.0429668 -0.1981602 0.9570332 0.1981602 0.9570332 0.1981602 0.0429668 -0.1981602
274000000 0.0406404 -0.1926897 0.9593596 0.1926897 0.9593596 0.1926897 0.0406404 -0.1926897
281250000 0.0384826 -0.1874466 0.9615174 0.1874466 0.9615174 0.1874466 0.0384826 -0.1874466
288500000 0.0364779 -0.1824171 0.9635221 0.1824171 0.9635221 0.1824171 0.0364779 -0.1824171
295750000 0.0346123 -0.1775882 0.9653877 0.1775882 0.9653877 0.1775882 0.0346123 -0.1775882
303000000 0.0328737 -0.1729478 0.9671263 0.1729478 0.9671263 0.1729478 0.0328737 -0.1729478
310250000 0.0312510 -0.1684848 0.9687490 0.1684848 0.9687490 0.1684848 0.0312510 -0.1684848
317500000 0.0297344 -0.1641889 0.9702656 0.1641889 0.9702656 0.1641889 0.0297344 -0.1641889
324750000 0.0283151 -0.1600505 0.9716849 0.1600505 0.9716849 0.1600505 0.0283151 -0.1600505
332000000 0.0269851 -0.1560606 0.9730149 0.1560606 0.9730149 0.1560606 0.0269851 -0.1560606
339250000 0.0257373 -0.1522110 0.9742627 0.1522110 0.9742627 0.1522110 0.0257373 -0.1522110
346500000 0.0245651 -0.1484940 0.9754349 0.1484940 0.9754349 0.1484940 0.0245651 -0.1484940
353750000 0.0234629 -0.1449023 0.9765371 0.1449023 0.9765371 0.1449023 0.0234629 -0.1449023
361000000 0.0224253 -0.1414293 0.9775747 0.1414293 0.9775747 0.1414293 0.0224253 -0.1414293
368250000 0.0214475 -0.1380687 0.9785525 0.1380687 0.9785525 0.1380687 0.0214475 -0.1380687
375500000 0.0205251 -0.1348147 0.9794749 0.1348147 0.9794749 0.1348147 0.0205251 -0.1348147
382750000 0.0196542 -0.1316619 0.9803458 0.1316619 0.9803458 0.1316619 0.0196542 -0.1316619
390000000 0.0188312 -0.1286050 0.9811688 0.1286050 0.9811688 0.1286050 0.0188312 -0.1286050
397250000 0.0180527 -0.1256394 0.9819473 0.1256394 0.9819473 0.1256394 0.0180527 -0.1256394
404500000 0.0173157 -0.1227606 0.9826843 0.1227606 0.9826843 0.1227606 0.0173157 -0.1227606
411750000 0.0166174 -0.1199643 0.9833826 0.1199643 0.9833826 0.1199643 0.0166174 -0.1199643
419000000 0.0159553 -0.1172467 0.9840447 0.1172467 0.9840447 0.1172467 0.0159553 -0.1172467
426250000 0.0153271 -0.1146040 0.9846729 0.1146040 0.9846729 0.1146040 0.0153271 -0.1146040
433500000 0.0147305 -0.1120328 0.9852695 0.1120328 0.9852695 0.1120328 0.0147305 -0.1120328
440750000 0.0141636 -0.1095298 0.9858364 0.1095298 0.9858364 0.1095298 0.0141636 -0.1095298
448000000 0.0136247 -0.1070918 0.9863753 0.1070918 0.9863753 0.1070918 0.0136247 -0.1070918
455250000 0.0131118 -0.1047161 0.9868882 0.1047161 0.9868882 0.1047161 0.0131118 -0.1047161
462500000 0.0126237 -0.1023999 0.9873763 0.1023999 0.9873763 0.1023999 0.0126237 -0.1023999
469750000 0.0121586 -0.1001405 0.9878414 0.1001405 0.9878414 0.1001405 0.0121586 -0.1001405
477000000 0.0117154 -0.0979356 0.9882846 0.0979356 0.9882846 0.0979356 0.0117154 -0.0979356
484250000 0.0112928 -0.0957828 0.9887072 0.0957828 0.9887072 0.0957828 0.0112928 -0.0957828
491500000 0.0108896 -0.0936800 0.9891104 0.0936800 0.9891104 0.0936800 0.0108896 -0.0936800
498750000 0.0105048 -0.0916251 0.9894952 0.0916251 0.9894952 0.0916251 0.0105048 -0.0916251
506000000 0.0101373 -0.0896161 0.9898627 0.0896161 0.9898627 0.0896161 0.0101373 -0.0896161
513250000 0.0097862 -0.0876512 0.9902138 0.0876512 0.9902138 0.0876512 0.0097862 -0.0876512
520500000 0.0094507 -0.0857287 0.9905493 0.0857287 0.9905493 0.0857287 0.0094507 -0.0857287
527750000 0.0091299 -0.0838469 0.9908701 0.0838469 0.9908701 0.0838469 0.0091299 -0.0838469
535000000 0.0088231 -0.0820041 0.9911769 0.0820041 0.9911769 0.0820041 0.0088231 -0.0820041
542250000 0.0085295 -0.0801989 0.9914705 0.0801989 0.9914705 0.0801989 0.0085295 -0.0801989
549500000 0.0082485 -0.0784300 0.9917515 0.0784300 0.9917515 0.0784300 0.0082485 -0.0784300
556750000 0.0079795 -0.0766958 0.9920205 0.0766958 0.9920205 0.0766958 0.0079795 -0.0766958
564000000 0.0077219 -0.0749951 0.9922781 0.0749951 0.9922781 0.0749951 0.0077219 -0.0749951
571250000 0.0074752 -0.0733267 0.9925248 0.0733267 0.9925248 0.0733267 0.0074752 -0.0733267
578500000 0.0072388 -0.0716894 0.9927612 0.0716894 0.9927612 0.0716894 0.0072388 -0.0716894
585750000 0.0070122 -0.0700821 0.9929878 0.0700821 0.9929878 0.0700821 0.0070122 -0.0700821
593000000 0.0067950 -0.0685038 0.9932050 0.0685038 0.9932050 0.0685038 0.0067950 -0.0685038
600250000 0.0065868 -0.0669533 0.9934132 0.0669533 0.9934132 0.0669533 0.0065868 -0.0669533
607500000 0.0063872 -0.0654298 0.9936128 0.0654298 0.9936128 0.0654298 0.0063872 -0.0654298
614750000 0.0061957 -0.0639323 0.9938043 0.0639323 0.9938043 0.0639323 0.0061957 -0.0639323
622000000 0.0060121 -0.0624599 0.9939879 0.0624599 0.9939879 0.0624599 0.0060121 -0.0624599
629250000 0.0058360 -0.0610119 0.9941640 0.0610119 0.9941640 0.0610119 0.0058360 -0.0610119
636500000 0.0056671 -0.0595872 0.9943329 0.0595872 0.9943329 0.0595872 0.0056671 -0.0595872
643750000 0.0055050 -0.0581853 0.9944950 0.0581853 0.9944950 0.0581853 0.0055050 -0.0581853
651000000 0.0053495 -0.0568053 0.9946505 0.0568053 0.9946505 0.0568053 0.0053495 -0.0568053
658250000 0.0052004 -0.0554465 0.9947996 0.0554465 0.9947996 0.0554465 0.0052004 -0.0554465
665500000 0.0050573 -0.0541083 0.9949427 0.0541083 0.9949427 0.0541083 0.0050573 -0.0541083
672750000 0.0049200 -0.0527900 0.9950800 0.0527900 0.9950800 0.0527900 0.0049200 -0.0527900
680000000 0.0047883 -0.0514909 0.9952117 0.0514909 0.9952117 0.0514909 0.0047883 -0.0514909
687250000 0.0046621 -0.0502105 0.9953379 0.0502105 0.9953379 0.0502105 0.0046621 -0.0502105
694500000 0.0045410 -0.0489482 0.9954590 0.0489482 0.9954590 0.0489482 0.0045410 -0.0489482
701750000 0.0044248 -0.0477035 0.9955752 0.0477035 0.9955752 0.0477035 0.0044248 -0.0477035
709000000 0.0043135 -0.0464757 0.9956865 0.0464757 0.9956865 0.0464757 0.0043135 -0.0464757
716250000 0.0042068 -0.0452644 0.9957932 0.0452644 0.9957932 0.0452644 0.0042068 -0.0452644
723500000 0.0041045 -0.0440691 0.9958955 0.0440691 0.9958955 0.0440691 0.0041045 -0.0440691
730750000 0.0040066 -0.0428893 0.9959934 0.0428893 0.9959934 0.0428893 0.0040066 -0.0428893
738000000 0.0039128 -0.0417246 0.9960872 0.0417246 0.9960872 0.0417246 0.0039128 -0.0417246
745250000 0.0038229 -0.0405745 0.9961771 0.0405745 0.9961771 0.0405745 0.0038229 -0.0405745
752500000 0.0037370 -0.0394386 0.9962630 0.0394386 0.9962630 0.0394386 0.0037370 -0.0394386
759750000 0.0036548 -0.0383165 0.9963452 0.0383165 0.9963452 0.0383165 0.0036548 -0.0383165
767000000 0.0035761 -0.0372077 0.9964239 0.0372077 0.9964239 0.0372077 0.0035761 -0.0372077
774250000 0.0035010 -0.0361120 0.9964990 0.0361120 0.9964990 0.0361120 0.0035010 -0.0361120
781500000 0.0034293 -0.0350290 0.9965707 0.0350290 0.9965707 0.0350290 0.0034293 -0.0350290
788750000 0.0033608 -0.0339582 0.9966392 0.0339582 0.9966392 0.0339582 0.0033608 -0.0339582
796000000 0.0032955 -0.0328994 0.9967045 0.0328994 0.9967045 0.0328994 0.0032955 -0.0328994
803250000 0.0032332 -0.0318523 0.9967668 0.0318523 0.9967668 0.0318523 0.0032332 -0.0318523
810500000 0.0031739 -0.0308164 0.9968261 0.0308164 0.9968261 0.0308164 0.0031739 -0.0308164
817750000 0.0031175 -0.0297916 0.9968825 0.0297916 0.9968825 0.0297916 0.0031175 -0.0297916
825000000 0.0030639 -0.0287775 0.9969361 0.0287775 0.9969361 0.0287775 0.0030639 -0.0287775
832250000 0.0030130 -0.0277738 0.9969870 0.0277738 0.9969870 0.0277738 0.0030130 -0.0277738
839500000 0.0029648 -0.0267802 0.9970352 0.0267802 0.9970352 0.0267802 0.0029648 -0.0267802
846750000 0.0029191 -0.0257966 0.9970809 0.0257966 0.9970809 0.0257966 0.0029191 -0.0257966
854000000 0.0028759 -0.0248225 0.9971241 0.0248225 0.9971241 0.0248225 0.0028759 -0.0248225
861250000 0.0028351 -0.0238579 0.9971649 0.0238579 0.9971649 0.0238579 0.0028351 -0.0238579
868500000 0.0027967 -0.0229023 0.9972033 0.0229023 0.9972033 0.0229023 0.0027967 -0.0229023
875750000 0.0027606 -0.0219557 0.9972394 0.0219557 0.9972394 0.0219557 0.0027606 -0.0219557
883000000 0.0027267 -0.0210177 0.9972733 0.0210177 0.9972733 0.0210177 0.0027267 -0.0210177
890250000 0.0026949 -0.0200882 0.9973051 0.0200882 0.9973051 0.0200882 0.0026949 -0.0200882
897500000 0.0026653 -0.0191670 0.9973347 0.0191670 0.9973347 0.0191670 0.0026653 -0.0191670
904750000 0.0026378 -0.0182537 0.9973622 0.0182537 0.9973622 0.0182537 0.0026378 -0.0182537
912000000 0.0026122 -0.0173483 0.9973878 0.0173483 0.9973878 0.0173483 0.0026122 -0.0173483
919250000 0.0025887 -0.0164506 0.9974113 0.0164506 0.9974113 0.0164506 0.0025887 -0.0164506
926500000 0.0025670 -0.0155603 0.9974330 0.0155603 0.9974330 0.0155603 0.0025670 -0.0155603
933750000 0.0025472 -0.0146772 0.9974528 0.0146772 0.9974528 0.0146772 0.0025472 -0.0146772
941000000 0.0025293 -0.0138013 0.9974707 0.0138013 0.9974707 0.0138013 0.0025293 -0.0138013
948250000 0.0025131 -0.0129322 0.9974869 0.0129322 0.9974869 0.0129322 0.0025131 -0.0129322
955500000 0.0024987 -0.0120699 0.9975013 0.0120699 0.9975013 0.0120699 0.0024987 -0.0120699
962750000 0.0024860 -0.0112142 0.9975140 0.0112142 0.9975140 0.0112142 0.0024860 -0.0112142
970000000 0.0024750 -0.0103650 0.9975250 0.0103650 0.9975250 0.0103650 0.0024750 -0.0103650
977250000 0.0024655 -0.0095220 0.9975345 0.0095220 0.9975345 0.0095220 0.0024655 -0.0095220
984500000 0.0024577 -0.0086851 0.9975423 0.0086851 0.9975423 0.0086851 0.0024577 -0.0086851
991750000 0.0024515 -0.0078543 0.9975485 0.0078543 0.9975485 0.0078543 0.0024515 -0.0078543
999000000 0.0024468 -0.0070293 0.9975532 0.0070293 0.9975532 0.0070293 0.0024468 -0.0070293
1006250000 0.0024436 -0.0062100 0.9975564 0.0062100 0.9975564 0.0062100 0.0024436 -0.0062100
1013500000 0.0024419 -0.0053962 0.9975581 0.0053962 0.9975581 0.0053962 0.0024419 -0.0053962
1020750000 0.0024416 -0.0045879 0.9975584 0.0045879 0.9975584 0.0045879 0.0024416 -0.0045879
1028000000 0.0024428 -0.0037850 0.9975572 0.0037850 0.9975572 0.0037850 0.0024428 -0.0037850
1035250000 0.0024453 -0.0029872 0.9975547 0.0029872 0.9975547 0.0029872 0.0024453 -0.0029872
1042500000 0.0024492 -0.0021945 0.9975508 0.0021945 0.9975508 0.0021945 0.0024492 -0.0021945
1049750000 0.0024545 -0.0014068 0.9975455 0.0014068 0.9975455 0.0014068 0.0024545 -0.0014068
1057000000 0.0024611 -0.0006239 0.9975389 0.0006239 0.9975389 0.0006239 0.0024611 -0.0006239
1064250000 0.0024689 0.0001542 0.9975311 -0.0001542 0.9975311 -0.0001542 0.0024689 0.0001542
1071500000 0.0024781 0.0009277 0.9975219 -0.0009277 0.9975219 -0.0009277 0.0024781 0.0009277
1078750000 0.0024885 0.0016967 0.9975115 -0.0016967 0.9975115 -0.0016967 0.0024885 0.0016967
1086000000 0.0025002 0.0024612 0.9974998 -0.0024612 0.9974998 -0.0024612 0.0025002 0.0024612
1093250000 0.0025131 0.0032214 0.9974869 -0.0032214 0.9974869 -0.0032214 0.0025131 0.0032214
1100500000 0.0025271 0.0039774 0.9974729 -0.0039774 0.9974729 -0.0039774 0.0025271 0.0039774
1107750000 0.0025424 0.0047293 0.9974576 -0.0047293 0.9974576 -0.0047293 0.0025424 0.0047293
1115000000 0.0025588 0.0054771 0.9974412 -0.0054771 0.9974412 -0.0054771 0.0025588 0.0054771
1122250000 0.0025764 0.0062209 0.9974236 -0.0062209 0.9974236 -0.0062209 0.0025764 0.0062209
1129500000 0.0025951 0.0069609 0.9974049 -0.0069609 0.9974049 -0.0069609 0.0025951 0.0069609
1136750000 0.0026149 0.0076971 0.9973851 -0.0076971 0.9973851 -0.0076971 0.0026149 0.0076971
1144000000 0.0026358 0.0084296 0.9973642 -0.0084296 0.9973642 -0.0084296 0.0026358 0.0084296
1151250000 0.0026579 0.0091585 0.9973421 -0.0091585 0.9973421 -0.0091585 0.0026579 0.0091585
1158500000 0.0026809 0.0098838 0.9973191 -0.0098838 0.9973191 -0.0098838 0.0026809 0.0098838
1165750000 0.0027051 0.0106057 0.9972949 -0.0106057 0.9972949 -0.0106057 0.0027051 0.0106057
1173000000 0.0027303 0.0113242 0.9972697 -0.0113242 0.9972697 -0.0113242 0.0027303 0.0113242
1180250000 0.0027565 0.0120394 0.9972435 -0.0120394 0.9972435 -0.0120394 0.0027565 0.0120394
1187500000 0.0027838 0.0127514 0.9972162 -0.0127514 0.9972162 -0.0127514 0.0027838 0.0127514
1194750000 0.0028120 0.0134602 0.9971880 -0.0134602 0.9971880 -0.0134602 0.0028120 0.0134602
1202000000 0.0028413 0.0141659 0.9971587 -0.0141659 0.9971587 -0.0141659 0.0028413 0.0141659
1209250000 0.0028716 0.0148686 0.9971284 -0.0148686 0.9971284 -0.0148686 0.0028716 0.0148686
1216500000 0.0029028 0.0155683 0.9970972 -0.0155683 0.9970972 -0.0155683 0.0029028 0.0155683
1223750000 0.0029350 0.0162651 0.9970650 -0.0162651 0.9970650 -0.0162651 0.0029350 0.0162651
1231000000 0.0029682 0.0169591 0.9970318 -0.0169591 0.9970318 -0.0169591 0.0029682 0.0169591
1238250000 0.0030023 0.0176503 0.9969977 -0.0176503 0.9969977 -0.0176503 0.0030023 0.0176503
1245500000 0.0030374 0.0183388 0.9969626 -0.0183388 0.9969626 -0.0183388 0.0030374 0.0183388
1252750000 0.0030734 0.0190247 0.9969266 -0.0190247 0.9969266 -0.0190247 0.0030734 0.0190247
1260000000 0.0031104 0.0197080 0.9968896 -0.0197080 0.9968896 -0.0197080 0.0031104 0.0197080
1267250000 0.0031482 0.0203887 0.9968518 -0.0203887 0.9968518 -0.0203887 0.0031482 0.0203887
1274500000 0.0031870 0.0210669 0.9968130 -0.0210669 0.9968130 -0.0210669 0.0031870 0.0210669
1281750000 0.0032267 0.0217428 0.9967733 -0.0217428 0.9967733 -0.0217428 0.0032267 0.0217428
1289000000 0.0032672 0.0224162 0.9967328 -0.0224162 0.9967328 -0.0224162 0.0032672 0.0224162
1296250000 0.0033087 0.0230873 0.9966913 -0.0230873 0.9966913 -0.0230873 0.0033087 0.0230873
1303500000 0.0033511 0.0237562 0.9966489 -0.0237562 0.9966489 -0.0237562 0.0033511 0.0237562
1310750000 0.0033943 0.0244228 0.9966057 -0.0244228 0.9966057 -0.0244228 0.0033943 0.0244228
1318000000 0.0034384 0.0250873 0.9965616 -0.0250873 0.9965616 -0.0250873 0.0034384 0.0250873
1325250000 0.0034834 0.0257497 0.9965166 -0.0257497 0.9965166 -0.0257497 0.0034834 0.0257497
1332500000 0.0035293 0.0264100 0.9964707 -0.0264100 0.9964707 -0.0264100 0.0035293 0.0264100
1339750000 0.0035760 0.0270682 0.9964240 -0.0270682 0.9964240 -0.0270682 0.0035760 0.0270682
1347000000 0.0036235 0.0277245 0.9963765 -0.0277245 0.9963765 -0.0277245 0.0036235 0.0277245
1354250000 0.0036720 0.0283788 0.9963280 -0.0283788 0.9963280 -0.0283788 0.0036720 0.0283788
1361500000 0.0037212 0.0290313 0.9962788 -0.0290313 0.9962788 -0.0290313 0.0037212 0.0290313
1368750000 0.0037713 0.0296819 0.9962287 -0.0296819 0.9962287 -0.0296819 0.0037713 0.0296819
1376000000 0.0038223 0.0303307 0.9961777 -0.0303307 0.9961777 -0.0303307 0.0038223 0.0303307
1383250000 0.0038740 0.0309777 0.9961260 -0.0309777 0.9961260 -0.0309777 0.0038740 0.0309777
1390500000 0.0039267 0.0316230 0.9960733 -0.0316230 0.9960733 -0.0316230 0.0039267 0.0316230
1397750000 0.0039801 0.0322666 0.9960199 -0.0322666 0.9960199 -0.0322666 0.0039801 0.0322666
1405000000 0.0040344 0.0329086 0.9959656 -0.0329086 0.9959656 -0.0329086 0.0040344 0.0329086
1412250000 0.0040894 0.0335489 0.9959106 -0.0335489 0.9959106 -0.0335489 0.0040894 0.0335489
1419500000 0.0041453 0.0341877 0.9958547 -0.0341877 0.9958547 -0.0341877 0.0041453 0.0341877
1426750000 0.0042021 0.0348250 0.9957979 -0.0348250 0.9957979 -0.0348250 0.0042021 0.0348250
1434000000 0.0042596 0.0354608 0.9957404 -0.0354608 0.9957404 -0.0354608 0.0042596 0.0354608
1441250000 0.0043179 0.0360951 0.9956821 -0.0360951 0.9956821 -0.0360951 0.0043179 0.0360951
1448500000 0.0043771 0.0367280 0.9956229 -0.0367280 0.9956229 -0.0367280 0.0043771 0.0367280
1455750000 0.0044371 0.0373594 0.9955629 -0.0373594 0.9955629 -0.0373594 0.0044371 0.0373594
1463000000 0.0044978 0.0379896 0.9955022 -0.0379896 0.9955022 -0.0379896 0.0044978 0.0379896
1470250000 0.0045594 0.0386184 0.9954406 -0.0386184 0.9954406 -0.0386184 0.0045594 0.0386184
1477500000 0.0046218 0.0392459 0.9953782 -0.0392459 0.9953782 -0.0392459 0.0046218 0.0392459
1484750000 0.0046850 0.0398722 0.9953150 -0.0398722 0.9953150 -0.0398722 0.0046850 0.0398722
1492000000 0.0047489 0.0404973 0.9952511 -0.0404973 0.9952511 -0.0404973 0.0047489 0.0404973
1499250000 0.0048137 0.0411211 0.9951863 -0.0411211 0.9951863 -0.0411211 0.0048137 0.0411211
1506500000 0.0048793 0.0417438 0.9951207 -0.0417438 0.9951207 -0.0417438 0.0048793 0.0417438
1513750000 0.0049457 0.0423654 0.9950543 -0.0423654 0.9950543 -0.0423654 0.0049457 0.0423654
1521000000 0.0050129 0.0429858 0.9949871 -0.0429858 0.9949871 -0.0429858 0.0050129 0.0429858
1528250000 0.0050808 0.0436052 0.9949192 -0.0436052 0.9949192 -0.0436052 0.0050808 0.0436052
1535500000 0.0051496 0.0442236 0.9948504 -0.0442236 0.9948504 -0.0442236 0.0051496 0.0442236
1542750000 0.0052192 0.0448409 0.9947808 -0.0448409 0.9947808 -0.0448409 0.0052192 0.0448409
1550000000 0.0052895 0.0454572 0.9947105 -0.0454572 0.9947105 -0.0454572 0.0052895 0.0454572
1557250000 0.0053607 0.0460726 0.9946393 -0.0460726 0.9946393 -0.0460726 0.0053607 0.0460726
1564500000 0.0054327 0.0466871 0.9945673 -0.0466871 0.9945673 -0.0466871 0.0054327 0.0466871
1571750000 0.0055054 0.0473006 0.9944946 -0.0473006 0.9944946 -0.0473006 0.0055054 0.0473006
1579000000 0.0055790 0.0479133 0.9944210 -0.0479133 0.9944210 -0.0479133 0.0055790 0.0479133
1586250000 0.0056533 0.0485251 0.9943467 -0.0485251 0.9943467 -0.0485251 0.0056533 0.0485251
1593500000 0.0057285 0.0491361 0.9942715 -0.0491361 0.9942715 -0.0491361 0.0057285 0.0491361
1600750000 0.0058044 0.0497463 0.9941956 -0.0497463 0.9941956 -0.0497463 0.0058044 0.0497463
1608000000 0.0058811 0.0503557 0.9941189 -0.0503557 0.9941189 -0.0503557 0.0058811 0.0503557
1615250000 0.0059587 0.0509644 0.9940413 -0.0509644 0.9940413 -0.0509644 0.0059587 0.0509644
1622500000 0.0060370 0.0515723 0.9939630 -0.0515723 0.9939630 -0.0515723 0.0060370 0.0515723
1629750000 0.0061162 0.0521795 0.9938838 -0.0521795 0.9938838 -0.0521795 0.0061162 0.0521795
