!Murata Part Number: GRM31A7U2J180JW31
!These Parameters are Measured in Series Mode Connection
!Data Generated on Mar 30, 2021
!       o--ll--o
!Port1            Port2
!       o------o
!Operation Temp=25[degC], DC Bias Voltage=0[V]
!Freq. Start=100[MHz] Stop=3[GHz] 401[Steps]
# Hz S RI R 50
!Freq.(Hz) S11(Real) S11(Imag) S21(Real) S21(Imag) S12(Real) S12(Imag) S22(Real) S22(Imag)
100000000 0.4359623 -0.4945439 0.5640377 0.4945439 0.5640377 0.4945439 0.4359623 -0.4945439
107250000 0.4015738 -0.4887798 0.5984262 0.4887798 0.5984262 0.4887798 0.4015738 -0.4887798
114500000 0.3702385 -0.4813330 0.6297615 0.4813330 0.6297615 0.4813330 0.3702385 -0.4813330
121750000 0.3417430 -0.4726594 0.6582570 0.4726594 0.6582570 0.4726594 0.3417430 -0.4726594
129000000 0.3158586 -0.4631230 0.6841414 0.4631230 0.6841414 0.4631230 0.3158586 -0.4631230
136250000 0.2923554 -0.4530110 0.7076446 0.4530110 0.7076446 0.4530110 0.2923554 -0.4530110
143500000 0.2710111 -0.4425480 0.7289889 0.4425480 0.7289889 0.4425480 0.2710111 -0.4425480
150750000 0.2516165 -0.4319076 0.7483835 0.4319076 0.7483835 0.4319076 0.2516165 -0.4319076
158000000 0.2339779 -0.4212229 0.7660221 0.4212229 0.7660221 0.4212229 0.2339779 -0.4212229
165250000 0.2179181 -0.4105947 0.7820819 0.4105947 0.7820819 0.4105947 0.2179181 -0.4105947
172500000 0.2032770 -0.4000982 0.7967230 0.4000982 0.7967230 0.4000982 0.2032770 -0.4000982
179750000 0.1899099 -0.3897887 0.8100901 0.3897887 0.8100901 0.3897887 0.1899099 -0.3897887
187000000 0.1776877 -0.3797057 0.8223123 0.3797057 0.8223123 0.3797057 0.1776877 -0.3797057
194250000 0.1664946 -0.3698766 0.8335054 0.3698766 0.8335054 0.3698766 0.1664946 -0.3698766
201500000 0.1562275 -0.3603194 0.8437725 0.3603194 0.8437725 0.3603194 0.1562275 -0.3603194
208750000 0.1467944 -0.3510448 0.8532056 0.3510448 0.8532056 0.3510448 0.1467944 -0.3510448
216000000 0.1381135 -0.3420579 0.8618865 0.3420579 0.8618865 0.3420579 0.1381135 -0.3420579
223250000 0.1301120 -0.3333595 0.8698880 0.3333595 0.8698880 0.3333595 0.1301120 -0.3333595
230500000 0.1227248 -0.3249475 0.8772752 0.3249475 0.8772752 0.3249475 0.1227248 -0.3249475
237750000 0.1158941 -0.3168172 0.8841059 0.3168172 0.8841059 0.3168172 0.1158941 -0.3168172
245000000 0.1095683 -0.3089622 0.8904317 0.3089622 0.8904317 0.3089622 0.1095683 -0.3089622
252250000 0.1037011 -0.3013750 0.8962989 0.3013750 0.8962989 0.3013750 0.1037011 -0.3013750
259500000 0.0982513 -0.2940473 0.9017487 0.2940473 0.9017487 0.2940473 0.0982513 -0.2940473
266750000 0.0931819 -0.2869702 0.9068181 0.2869702 0.9068181 0.2869702 0.0931819 -0.2869702
274000000 0.0884598 -0.2801345 0.9115402 0.2801345 0.9115402 0.2801345 0.0884598 -0.2801345
281250000 0.0840553 -0.2735308 0.9159447 0.2735308 0.9159447 0.2735308 0.0840553 -0.2735308
288500000 0.0799415 -0.2671500 0.9200585 0.2671500 0.9200585 0.2671500 0.0799415 -0.2671500
295750000 0.0760944 -0.2609828 0.9239056 0.2609828 0.9239056 0.2609828 0.0760944 -0.2609828
303000000 0.0724921 -0.2550203 0.9275079 0.2550203 0.9275079 0.2550203 0.0724921 -0.2550203
310250000 0.0691152 -0.2492536 0.9308848 0.2492536 0.9308848 0.2492536 0.0691152 -0.2492536
317500000 0.0659457 -0.2436744 0.9340543 0.2436744 0.9340543 0.2436744 0.0659457 -0.2436744
324750000 0.0629677 -0.2382744 0.9370323 0.2382744 0.9370323 0.2382744 0.0629677 -0.2382744
332000000 0.0601664 -0.2330459 0.9398336 0.2330459 0.9398336 0.2330459 0.0601664 -0.2330459
339250000 0.0575286 -0.2279812 0.9424714 0.2279812 0.9424714 0.2279812 0.0575286 -0.2279812
346500000 0.0550422 -0.2230732 0.9449578 0.2230732 0.9449578 0.2230732 0.0550422 -0.2230732
353750000 0.0526962 -0.2183149 0.9473038 0.2183149 0.9473038 0.2183149 0.0526962 -0.2183149
361000000 0.0504806 -0.2136999 0.9495194 0.2136999 0.9495194 0.2136999 0.0504806 -0.2136999
368250000 0.0483861 -0.2092219 0.9516139 0.2092219 0.9516139 0.2092219 0.0483861 -0.2092219
375500000 0.0464044 -0.2048748 0.9535956 0.2048748 0.9535956 0.2048748 0.0464044 -0.2048748
382750000 0.0445278 -0.2006530 0.9554722 0.2006530 0.9554722 0.2006530 0.0445278 -0.2006530
390000000 0.0427491 -0.1965512 0.9572509 0.1965512 0.9572509 0.1965512 0.0427491 -0.1965512
397250000 0.0410619 -0.1925642 0.9589381 0.1925642 0.9589381 0.1925642 0.0410619 -0.1925642
404500000 0.0394603 -0.1886871 0.9605397 0.1886871 0.9605397 0.1886871 0.0394603 -0.1886871
411750000 0.0379387 -0.1849152 0.9620613 0.1849152 0.9620613 0.1849152 0.0379387 -0.1849152
419000000 0.0364920 -0.1812443 0.9635080 0.1812443 0.9635080 0.1812443 0.0364920 -0.1812443
426250000 0.0351156 -0.1776700 0.9648844 0.1776700 0.9648844 0.1776700 0.0351156 -0.1776700
433500000 0.0338052 -0.1741885 0.9661948 0.1741885 0.9661948 0.1741885 0.0338052 -0.1741885
440750000 0.0325568 -0.1707959 0.9674432 0.1707959 0.9674432 0.1707959 0.0325568 -0.1707959
448000000 0.0313666 -0.1674886 0.9686334 0.1674886 0.9686334 0.1674886 0.0313666 -0.1674886
455250000 0.0302313 -0.1642632 0.9697687 0.1642632 0.9697687 0.1642632 0.0302313 -0.1642632
462500000 0.0291476 -0.1611165 0.9708524 0.1611165 0.9708524 0.1611165 0.0291476 -0.1611165
469750000 0.0281126 -0.1580454 0.9718874 0.1580454 0.9718874 0.1580454 0.0281126 -0.1580454
477000000 0.0271235 -0.1550468 0.9728765 0.1550468 0.9728765 0.1550468 0.0271235 -0.1550468
484250000 0.0261778 -0.1521181 0.9738222 0.1521181 0.9738222 0.1521181 0.0261778 -0.1521181
491500000 0.0252731 -0.1492565 0.9747269 0.1492565 0.9747269 0.1492565 0.0252731 -0.1492565
498750000 0.0244071 -0.1464595 0.9755929 0.1464595 0.9755929 0.1464595 0.0244071 -0.1464595
506000000 0.0235778 -0.1437247 0.9764222 0.1437247 0.9764222 0.1437247 0.0235778 -0.1437247
513250000 0.0227833 -0.1410498 0.9772167 0.1410498 0.9772167 0.1410498 0.0227833 -0.1410498
520500000 0.0220218 -0.1384325 0.9779782 0.1384325 0.9779782 0.1384325 0.0220218 -0.1384325
527750000 0.0212914 -0.1358707 0.9787086 0.1358707 0.9787086 0.1358707 0.0212914 -0.1358707
535000000 0.0205907 -0.1333625 0.9794093 0.1333625 0.9794093 0.1333625 0.0205907 -0.1333625
542250000 0.0199182 -0.1309059 0.9800818 0.1309059 0.9800818 0.1309059 0.0199182 -0.1309059
549500000 0.0192725 -0.1284991 0.9807275 0.1284991 0.9807275 0.1284991 0.0192725 -0.1284991
556750000 0.0186522 -0.1261404 0.9813478 0.1261404 0.9813478 0.1261404 0.0186522 -0.1261404
564000000 0.0180561 -0.1238280 0.9819439 0.1238280 0.9819439 0.1238280 0.0180561 -0.1238280
571250000 0.0174832 -0.1215604 0.9825168 0.1215604 0.9825168 0.1215604 0.0174832 -0.1215604
578500000 0.0169322 -0.1193361 0.9830678 0.1193361 0.9830678 0.1193361 0.0169322 -0.1193361
585750000 0.0164022 -0.1171535 0.9835978 0.1171535 0.9835978 0.1171535 0.0164022 -0.1171535
593000000 0.0158921 -0.1150113 0.9841079 0.1150113 0.9841079 0.1150113 0.0158921 -0.1150113
600250000 0.0154012 -0.1129082 0.9845988 0.1129082 0.9845988 0.1129082 0.0154012 -0.1129082
607500000 0.0149285 -0.1108428 0.9850715 0.1108428 0.9850715 0.1108428 0.0149285 -0.1108428
614750000 0.0144732 -0.1088139 0.9855268 0.1088139 0.9855268 0.1088139 0.0144732 -0.1088139
622000000 0.0140346 -0.1068204 0.9859654 0.1068204 0.9859654 0.1068204 0.0140346 -0.1068204
629250000 0.0136119 -0.1048611 0.9863881 0.1048611 0.9863881 0.1048611 0.0136119 -0.1048611
636500000 0.0132045 -0.1029349 0.9867955 0.1029349 0.9867955 0.1029349 0.0132045 -0.1029349
643750000 0.0128117 -0.1010409 0.9871883 0.1010409 0.9871883 0.1010409 0.0128117 -0.1010409
651000000 0.0124328 -0.0991778 0.9875672 0.0991778 0.9875672 0.0991778 0.0124328 -0.0991778
658250000 0.0120674 -0.0973449 0.9879326 0.0973449 0.9879326 0.0973449 0.0120674 -0.0973449
665500000 0.0117149 -0.0955413 0.9882851 0.0955413 0.9882851 0.0955413 0.0117149 -0.0955413
672750000 0.0113747 -0.0937659 0.9886253 0.0937659 0.9886253 0.0937659 0.0113747 -0.0937659
680000000 0.0110464 -0.0920179 0.9889536 0.0920179 0.9889536 0.0920179 0.0110464 -0.0920179
687250000 0.0107295 -0.0902966 0.9892705 0.0902966 0.9892705 0.0902966 0.0107295 -0.0902966
694500000 0.0104235 -0.0886012 0.9895765 0.0886012 0.9895765 0.0886012 0.0104235 -0.0886012
701750000 0.0101280 -0.0869308 0.9898720 0.0869308 0.9898720 0.0869308 0.0101280 -0.0869308
709000000 0.0098427 -0.0852848 0.9901573 0.0852848 0.9901573 0.0852848 0.0098427 -0.0852848
716250000 0.0095671 -0.0836624 0.9904329 0.0836624 0.9904329 0.0836624 0.0095671 -0.0836624
723500000 0.0093008 -0.0820630 0.9906992 0.0820630 0.9906992 0.0820630 0.0093008 -0.0820630
730750000 0.0090436 -0.0804859 0.9909564 0.0804859 0.9909564 0.0804859 0.0090436 -0.0804859
738000000 0.0087951 -0.0789305 0.9912049 0.0789305 0.9912049 0.0789305 0.0087951 -0.0789305
745250000 0.0085550 -0.0773962 0.9914450 0.0773962 0.9914450 0.0773962 0.0085550 -0.0773962
752500000 0.0083229 -0.0758824 0.9916771 0.0758824 0.9916771 0.0758824 0.0083229 -0.0758824
759750000 0.0080987 -0.0743884 0.9919013 0.0743884 0.9919013 0.0743884 0.0080987 -0.0743884
767000000 0.0078820 -0.0729139 0.9921180 0.0729139 0.9921180 0.0729139 0.0078820 -0.0729139
774250000 0.0076725 -0.0714582 0.9923275 0.0714582 0.9923275 0.0714582 0.0076725 -0.0714582
781500000 0.0074701 -0.0700208 0.9925299 0.0700208 0.9925299 0.0700208 0.0074701 -0.0700208
788750000 0.0072744 -0.0686013 0.9927256 0.0686013 0.9927256 0.0686013 0.0072744 -0.0686013
796000000 0.0070854 -0.0671992 0.9929146 0.0671992 0.9929146 0.0671992 0.0070854 -0.0671992
803250000 0.0069026 -0.0658140 0.9930974 0.0658140 0.9930974 0.0658140 0.0069026 -0.0658140
810500000 0.0067260 -0.0644453 0.9932740 0.0644453 0.9932740 0.0644453 0.0067260 -0.0644453
817750000 0.0065553 -0.0630925 0.9934447 0.0630925 0.9934447 0.0630925 0.0065553 -0.0630925
825000000 0.0063904 -0.0617555 0.9936096 0.0617555 0.9936096 0.0617555 0.0063904 -0.0617555
832250000 0.0062310 -0.0604336 0.9937690 0.0604336 0.9937690 0.0604336 0.0062310 -0.0604336
839500000 0.0060770 -0.0591266 0.9939230 0.0591266 0.9939230 0.0591266 0.0060770 -0.0591266
846750000 0.0059283 -0.0578340 0.9940717 0.0578340 0.9940717 0.0578340 0.0059283 -0.0578340
854000000 0.0057846 -0.0565555 0.9942154 0.0565555 0.9942154 0.0565555 0.0057846 -0.0565555
861250000 0.0056458 -0.0552908 0.9943542 0.0552908 0.9943542 0.0552908 0.0056458 -0.0552908
868500000 0.0055118 -0.0540395 0.9944882 0.0540395 0.9944882 0.0540395 0.0055118 -0.0540395
875750000 0.0053824 -0.0528012 0.9946176 0.0528012 0.9946176 0.0528012 0.0053824 -0.0528012
883000000 0.0052575 -0.0515757 0.9947425 0.0515757 0.9947425 0.0515757 0.0052575 -0.0515757
890250000 0.0051370 -0.0503626 0.9948630 0.0503626 0.9948630 0.0503626 0.0051370 -0.0503626
897500000 0.0050207 -0.0491616 0.9949793 0.0491616 0.9949793 0.0491616 0.0050207 -0.0491616
904750000 0.0049085 -0.0479725 0.9950915 0.0479725 0.9950915 0.0479725 0.0049085 -0.0479725
912000000 0.0048003 -0.0467949 0.9951997 0.0467949 0.9951997 0.0467949 0.0048003 -0.0467949
919250000 0.0046960 -0.0456286 0.9953040 0.0456286 0.9953040 0.0456286 0.0046960 -0.0456286
926500000 0.0045955 -0.0444734 0.9954045 0.0444734 0.9954045 0.0444734 0.0045955 -0.0444734
933750000 0.0044987 -0.0433288 0.9955013 0.0433288 0.9955013 0.0433288 0.0044987 -0.0433288
941000000 0.0044055 -0.0421948 0.9955945 0.0421948 0.9955945 0.0421948 0.0044055 -0.0421948
948250000 0.0043157 -0.0410710 0.9956843 0.0410710 0.9956843 0.0410710 0.0043157 -0.0410710
955500000 0.0042294 -0.0399573 0.9957706 0.0399573 0.9957706 0.0399573 0.0042294 -0.0399573
962750000 0.0041464 -0.0388533 0.9958536 0.0388533 0.9958536 0.0388533 0.0041464 -0.0388533
970000000 0.0040666 -0.0377589 0.9959334 0.0377589 0.9959334 0.0377589 0.0040666 -0.0377589
977250000 0.0039900 -0.0366738 0.9960100 0.0366738 0.9960100 0.0366738 0.0039900 -0.0366738
984500000 0.0039165 -0.0355978 0.9960835 0.0355978 0.9960835 0.0355978 0.0039165 -0.0355978
991750000 0.0038459 -0.0345308 0.9961541 0.0345308 0.9961541 0.0345308 0.0038459 -0.0345308
999000000 0.0037783 -0.0334725 0.9962217 0.0334725 0.9962217 0.0334725 0.0037783 -0.0334725
1006250000 0.0037135 -0.0324227 0.9962865 0.0324227 0.9962865 0.0324227 0.0037135 -0.0324227
1013500000 0.0036516 -0.0313812 0.9963484 0.0313812 0.9963484 0.0313812 0.0036516 -0.0313812
1020750000 0.0035923 -0.0303479 0.9964077 0.0303479 0.9964077 0.0303479 0.0035923 -0.0303479
1028000000 0.0035357 -0.0293226 0.9964643 0.0293226 0.9964643 0.0293226 0.0035357 -0.0293226
1035250000 0.0034818 -0.0283050 0.9965182 0.0283050 0.9965182 0.0283050 0.0034818 -0.0283050
1042500000 0.0034303 -0.0272951 0.9965697 0.0272951 0.9965697 0.0272951 0.0034303 -0.0272951
1049750000 0.0033814 -0.0262926 0.9966186 0.0262926 0.9966186 0.0262926 0.0033814 -0.0262926
1057000000 0.0033349 -0.0252974 0.9966651 0.0252974 0.9966651 0.0252974 0.0033349 -0.0252974
1064250000 0.0032908 -0.0243093 0.9967092 0.0243093 0.9967092 0.0243093 0.0032908 -0.0243093
1071500000 0.0032490 -0.0233283 0.9967510 0.0233283 0.9967510 0.0233283 0.0032490 -0.0233283
1078750000 0.0032095 -0.0223540 0.9967905 0.0223540 0.9967905 0.0223540 0.0032095 -0.0223540
1086000000 0.0031723 -0.0213865 0.9968277 0.0213865 0.9968277 0.0213865 0.0031723 -0.0213865
1093250000 0.0031372 -0.0204254 0.9968628 0.0204254 0.9968628 0.0204254 0.0031372 -0.0204254
1100500000 0.0031043 -0.0194708 0.9968957 0.0194708 0.9968957 0.0194708 0.0031043 -0.0194708
1107750000 0.0030736 -0.0185224 0.9969264 0.0185224 0.9969264 0.0185224 0.0030736 -0.0185224
1115000000 0.0030448 -0.0175802 0.9969552 0.0175802 0.9969552 0.0175802 0.0030448 -0.0175802
1122250000 0.0030181 -0.0166440 0.9969819 0.0166440 0.9969819 0.0166440 0.0030181 -0.0166440
1129500000 0.0029934 -0.0157136 0.9970066 0.0157136 0.9970066 0.0157136 0.0029934 -0.0157136
1136750000 0.0029707 -0.0147890 0.9970293 0.0147890 0.9970293 0.0147890 0.0029707 -0.0147890
1144000000 0.0029499 -0.0138700 0.9970501 0.0138700 0.9970501 0.0138700 0.0029499 -0.0138700
1151250000 0.0029309 -0.0129566 0.9970691 0.0129566 0.9970691 0.0129566 0.0029309 -0.0129566
1158500000 0.0029139 -0.0120485 0.9970861 0.0120485 0.9970861 0.0120485 0.0029139 -0.0120485
1165750000 0.0028986 -0.0111457 0.9971014 0.0111457 0.9971014 0.0111457 0.0028986 -0.0111457
1173000000 0.0028851 -0.0102481 0.9971149 0.0102481 0.9971149 0.0102481 0.0028851 -0.0102481
1180250000 0.0028734 -0.0093556 0.9971266 0.0093556 0.9971266 0.0093556 0.0028734 -0.0093556
1187500000 0.0028634 -0.0084680 0.9971366 0.0084680 0.9971366 0.0084680 0.0028634 -0.0084680
1194750000 0.0028551 -0.0075853 0.9971449 0.0075853 0.9971449 0.0075853 0.0028551 -0.0075853
1202000000 0.0028485 -0.0067074 0.9971515 0.0067074 0.9971515 0.0067074 0.0028485 -0.0067074
1209250000 0.0028436 -0.0058341 0.9971564 0.0058341 0.9971564 0.0058341 0.0028436 -0.0058341
1216500000 0.0028403 -0.0049654 0.9971597 0.0049654 0.9971597 0.0049654 0.0028403 -0.0049654
1223750000 0.0028385 -0.0041012 0.9971615 0.0041012 0.9971615 0.0041012 0.0028385 -0.0041012
1231000000 0.0028384 -0.0032413 0.9971616 0.0032413 0.9971616 0.0032413 0.0028384 -0.0032413
1238250000 0.0028398 -0.0023858 0.9971602 0.0023858 0.9971602 0.0023858 0.0028398 -0.0023858
1245500000 0.0028427 -0.0015344 0.9971573 0.0015344 0.9971573 0.0015344 0.0028427 -0.0015344
1252750000 0.0028471 -0.0006872 0.9971529 0.0006872 0.9971529 0.0006872 0.0028471 -0.0006872
1260000000 0.0028531 0.0001560 0.9971469 -0.0001560 0.9971469 -0.0001560 0.0028531 0.0001560
1267250000 0.0028605 0.0009952 0.9971395 -0.0009952 0.9971395 -0.0009952 0.0028605 0.0009952
1274500000 0.0028693 0.0018306 0.9971307 -0.0018306 0.9971307 -0.0018306 0.0028693 0.0018306
1281750000 0.0028796 0.0026621 0.9971204 -0.0026621 0.9971204 -0.0026621 0.0028796 0.0026621
1289000000 0.0028913 0.0034900 0.9971087 -0.0034900 0.9971087 -0.0034900 0.0028913 0.0034900
1296250000 0.0029044 0.0043142 0.9970956 -0.0043142 0.9970956 -0.0043142 0.0029044 0.0043142
1303500000 0.0029189 0.0051348 0.9970811 -0.0051348 0.9970811 -0.0051348 0.0029189 0.0051348
1310750000 0.0029347 0.0059520 0.9970653 -0.0059520 0.9970653 -0.0059520 0.0029347 0.0059520
1318000000 0.0029519 0.0067657 0.9970481 -0.0067657 0.9970481 -0.0067657 0.0029519 0.0067657
1325250000 0.0029704 0.0075760 0.9970296 -0.0075760 0.9970296 -0.0075760 0.0029704 0.0075760
1332500000 0.0029902 0.0083831 0.9970098 -0.0083831 0.9970098 -0.0083831 0.0029902 0.0083831
1339750000 0.0030113 0.0091869 0.9969887 -0.0091869 0.9969887 -0.0091869 0.0030113 0.0091869
1347000000 0.0030337 0.0099876 0.9969663 -0.0099876 0.9969663 -0.0099876 0.0030337 0.0099876
1354250000 0.0030574 0.0107852 0.9969426 -0.0107852 0.9969426 -0.0107852 0.0030574 0.0107852
1361500000 0.0030824 0.0115798 0.9969176 -0.0115798 0.9969176 -0.0115798 0.0030824 0.0115798
1368750000 0.0031086 0.0123714 0.9968914 -0.0123714 0.9968914 -0.0123714 0.0031086 0.0123714
1376000000 0.0031360 0.0131602 0.9968640 -0.0131602 0.9968640 -0.0131602 0.0031360 0.0131602
1383250000 0.0031647 0.0139460 0.9968353 -0.0139460 0.9968353 -0.0139460 0.0031647 0.0139460
1390500000 0.0031946 0.0147291 0.9968054 -0.0147291 0.9968054 -0.0147291 0.0031946 0.0147291
1397750000 0.0032257 0.0155095 0.9967743 -0.0155095 0.9967743 -0.0155095 0.0032257 0.0155095
1405000000 0.0032579 0.0162872 0.9967421 -0.0162872 0.9967421 -0.0162872 0.0032579 0.0162872
1412250000 0.0032914 0.0170622 0.9967086 -0.0170622 0.9967086 -0.0170622 0.0032914 0.0170622
1419500000 0.0033260 0.0178347 0.9966740 -0.0178347 0.9966740 -0.0178347 0.0033260 0.0178347
1426750000 0.0033619 0.0186047 0.9966381 -0.0186047 0.9966381 -0.0186047 0.0033619 0.0186047
1434000000 0.0033988 0.0193723 0.9966012 -0.0193723 0.9966012 -0.0193723 0.0033988 0.0193723
1441250000 0.0034369 0.0201374 0.9965631 -0.0201374 0.9965631 -0.0201374 0.0034369 0.0201374
1448500000 0.0034762 0.0209002 0.9965238 -0.0209002 0.9965238 -0.0209002 0.0034762 0.0209002
1455750000 0.0035165 0.0216607 0.9964835 -0.0216607 0.9964835 -0.0216607 0.0035165 0.0216607
1463000000 0.0035580 0.0224190 0.9964420 -0.0224190 0.9964420 -0.0224190 0.0035580 0.0224190
1470250000 0.0036006 0.0231750 0.9963994 -0.0231750 0.9963994 -0.0231750 0.0036006 0.0231750
1477500000 0.0036444 0.0239289 0.9963556 -0.0239289 0.9963556 -0.0239289 0.0036444 0.0239289
1484750000 0.0036892 0.0246806 0.9963108 -0.0246806 0.9963108 -0.0246806 0.0036892 0.0246806
1492000000 0.0037351 0.0254303 0.9962649 -0.0254303 0.9962649 -0.0254303 0.0037351 0.0254303
1499250000 0.0037821 0.0261780 0.9962179 -0.0261780 0.9962179 -0.0261780 0.0037821 0.0261780
1506500000 0.0038302 0.0269237 0.9961698 -0.0269237 0.9961698 -0.0269237 0.0038302 0.0269237
1513750000 0.0038793 0.0276674 0.9961207 -0.0276674 0.9961207 -0.0276674 0.0038793 0.0276674
1521000000 0.0039296 0.0284093 0.9960704 -0.0284093 0.9960704 -0.0284093 0.0039296 0.0284093
1528250000 0.0039809 0.0291493 0.9960191 -0.0291493 0.9960191 -0.0291493 0.0039809 0.0291493
1535500000 0.0040332 0.0298876 0.9959668 -0.0298876 0.9959668 -0.0298876 0.0040332 0.0298876
1542750000 0.0040867 0.0306240 0.9959133 -0.0306240 0.9959133 -0.0306240 0.0040867 0.0306240
1550000000 0.0041411 0.0313587 0.9958589 -0.0313587 0.9958589 -0.0313587 0.0041411 0.0313587
1557250000 0.0041966 0.0320918 0.9958034 -0.0320918 0.9958034 -0.0320918 0.0041966 0.0320918
1564500000 0.0042532 0.0328232 0.9957468 -0.0328232 0.9957468 -0.0328232 0.0042532 0.0328232
1571750000 0.0043108 0.0335530 0.9956892 -0.0335530 0.9956892 -0.0335530 0.0043108 0.0335530
1579000000 0.0043694 0.0342812 0.9956306 -0.0342812 0.9956306 -0.0342812 0.0043694 0.0342812
1586250000 0.0044291 0.0350078 0.9955709 -0.0350078 0.9955709 -0.0350078 0.0044291 0.0350078
1593500000 0.0044898 0.0357330 0.9955102 -0.0357330 0.9955102 -0.0357330 0.0044898 0.0357330
1600750000 0.0045515 0.0364568 0.9954485 -0.0364568 0.9954485 -0.0364568 0.0045515 0.0364568
1608000000 0.0046142 0.0371790 0.9953858 -0.0371790 0.9953858 -0.0371790 0.0046142 0.0371790
1615250000 0.0046780 0.0379000 0.9953220 -0.0379000 0.9953220 -0.0379000 0.0046780 0.0379000
1622500000 0.0047427 0.0386195 0.9952573 -0.0386195 0.9952573 -0.0386195 0.0047427 0.0386195
1629750000 0.0048085 0.0393377 0.9951915 -0.0393377 0.9951915 -0.0393377 0.0048085 0.0393377
