!Murata Part Number: GRM3192C2A333JA01
!These Parameters are Measured in Series Mode Connection
!Data Generated on Mar 30, 2021
!       o--ll--o
!Port1            Port2
!       o------o
!Operation Temp=25[degC], DC Bias Voltage=0[V]
!Freq. Start=1000[kHz] Stop=6[GHz] 401[Steps]
# Hz S RI R 50
!Freq.(Hz) S11(Real) S11(Imag) S21(Real) S21(Imag) S12(Real) S12(Imag) S22(Real) S22(Imag)
1000000 0.0023986 -0.0483045 0.9976014 0.0483045 0.9976014 0.0483045 0.0023986 -0.0483045
1021987 0.0022991 -0.0472679 0.9977009 0.0472679 0.9977009 0.0472679 0.0022991 -0.0472679
1044457 0.0022038 -0.0462533 0.9977962 0.0462533 0.9977962 0.0462533 0.0022038 -0.0462533
1067422 0.0021125 -0.0452602 0.9978875 0.0452602 0.9978875 0.0452602 0.0021125 -0.0452602
1090891 0.0020251 -0.0442881 0.9979749 0.0442881 0.9979749 0.0442881 0.0020251 -0.0442881
1114877 0.0019414 -0.0433367 0.9980586 0.0433367 0.9980586 0.0433367 0.0019414 -0.0433367
1139390 0.0018613 -0.0424054 0.9981387 0.0424054 0.9981387 0.0424054 0.0018613 -0.0424054
1164441 0.0017846 -0.0414939 0.9982154 0.0414939 0.9982154 0.0414939 0.0017846 -0.0414939
1190044 0.0017111 -0.0406018 0.9982889 0.0406018 0.9982889 0.0406018 0.0017111 -0.0406018
1216210 0.0016408 -0.0397286 0.9983592 0.0397286 0.9983592 0.0397286 0.0016408 -0.0397286
1242950 0.0015734 -0.0388739 0.9984266 0.0388739 0.9984266 0.0388739 0.0015734 -0.0388739
1270279 0.0015089 -0.0380375 0.9984911 0.0380375 0.9984911 0.0380375 0.0015089 -0.0380375
1298209 0.0014471 -0.0372188 0.9985529 0.0372188 0.9985529 0.0372188 0.0014471 -0.0372188
1326753 0.0013880 -0.0364175 0.9986120 0.0364175 0.9986120 0.0364175 0.0013880 -0.0364175
1355924 0.0013314 -0.0356333 0.9986686 0.0356333 0.9986686 0.0356333 0.0013314 -0.0356333
1385737 0.0012772 -0.0348657 0.9987228 0.0348657 0.9987228 0.0348657 0.0012772 -0.0348657
1416205 0.0012253 -0.0341145 0.9987747 0.0341145 0.9987747 0.0341145 0.0012253 -0.0341145
1447343 0.0011756 -0.0333793 0.9988244 0.0333793 0.9988244 0.0333793 0.0011756 -0.0333793
1479166 0.0011280 -0.0326597 0.9988720 0.0326597 0.9988720 0.0326597 0.0011280 -0.0326597
1511688 0.0010824 -0.0319554 0.9989176 0.0319554 0.9989176 0.0319554 0.0010824 -0.0319554
1544926 0.0010388 -0.0312662 0.9989612 0.0312662 0.9989612 0.0312662 0.0010388 -0.0312662
1578894 0.0009970 -0.0305916 0.9990030 0.0305916 0.9990030 0.0305916 0.0009970 -0.0305916
1613609 0.0009570 -0.0299313 0.9990430 0.0299313 0.9990430 0.0299313 0.0009570 -0.0299313
1649087 0.0009187 -0.0292851 0.9990813 0.0292851 0.9990813 0.0292851 0.0009187 -0.0292851
1685346 0.0008821 -0.0286527 0.9991179 0.0286527 0.9991179 0.0286527 0.0008821 -0.0286527
1722402 0.0008470 -0.0280338 0.9991530 0.0280338 0.9991530 0.0280338 0.0008470 -0.0280338
1760272 0.0008134 -0.0274280 0.9991866 0.0274280 0.9991866 0.0274280 0.0008134 -0.0274280
1798975 0.0007812 -0.0268351 0.9992188 0.0268351 0.9992188 0.0268351 0.0007812 -0.0268351
1838529 0.0007504 -0.0262548 0.9992496 0.0262548 0.9992496 0.0262548 0.0007504 -0.0262548
1878953 0.0007209 -0.0256869 0.9992791 0.0256869 0.9992791 0.0256869 0.0007209 -0.0256869
1920266 0.0006927 -0.0251311 0.9993073 0.0251311 0.9993073 0.0251311 0.0006927 -0.0251311
1962487 0.0006657 -0.0245871 0.9993343 0.0245871 0.9993343 0.0245871 0.0006657 -0.0245871
2005636 0.0006398 -0.0240547 0.9993602 0.0240547 0.9993602 0.0240547 0.0006398 -0.0240547
2049734 0.0006150 -0.0235336 0.9993850 0.0235336 0.9993850 0.0235336 0.0006150 -0.0235336
2094801 0.0005913 -0.0230235 0.9994087 0.0230235 0.9994087 0.0230235 0.0005913 -0.0230235
2140860 0.0005686 -0.0225244 0.9994314 0.0225244 0.9994314 0.0225244 0.0005686 -0.0225244
2187931 0.0005469 -0.0220358 0.9994531 0.0220358 0.9994531 0.0220358 0.0005469 -0.0220358
2236037 0.0005261 -0.0215576 0.9994739 0.0215576 0.9994739 0.0215576 0.0005261 -0.0215576
2285201 0.0005062 -0.0210896 0.9994938 0.0210896 0.9994938 0.0210896 0.0005062 -0.0210896
2335446 0.0004872 -0.0206315 0.9995128 0.0206315 0.9995128 0.0206315 0.0004872 -0.0206315
2386795 0.0004690 -0.0201832 0.9995310 0.0201832 0.9995310 0.0201832 0.0004690 -0.0201832
2439274 0.0004515 -0.0197444 0.9995485 0.0197444 0.9995485 0.0197444 0.0004515 -0.0197444
2492906 0.0004348 -0.0193149 0.9995652 0.0193149 0.9995652 0.0193149 0.0004348 -0.0193149
2547717 0.0004189 -0.0188944 0.9995811 0.0188944 0.9995811 0.0188944 0.0004189 -0.0188944
2603734 0.0004036 -0.0184829 0.9995964 0.0184829 0.9995964 0.0184829 0.0004036 -0.0184829
2660982 0.0003889 -0.0180802 0.9996111 0.0180802 0.9996111 0.0180802 0.0003889 -0.0180802
2719490 0.0003749 -0.0176859 0.9996251 0.0176859 0.9996251 0.0176859 0.0003749 -0.0176859
2779283 0.0003615 -0.0173000 0.9996385 0.0173000 0.9996385 0.0173000 0.0003615 -0.0173000
2840391 0.0003487 -0.0169223 0.9996513 0.0169223 0.9996513 0.0169223 0.0003487 -0.0169223
2902843 0.0003365 -0.0165526 0.9996635 0.0165526 0.9996635 0.0165526 0.0003365 -0.0165526
2966668 0.0003247 -0.0161906 0.9996753 0.0161906 0.9996753 0.0161906 0.0003247 -0.0161906
3031896 0.0003135 -0.0158364 0.9996865 0.0158364 0.9996865 0.0158364 0.0003135 -0.0158364
3098558 0.0003028 -0.0154895 0.9996972 0.0154895 0.9996972 0.0154895 0.0003028 -0.0154895
3166686 0.0002925 -0.0151501 0.9997075 0.0151501 0.9997075 0.0151501 0.0002925 -0.0151501
3236312 0.0002827 -0.0148177 0.9997173 0.0148177 0.9997173 0.0148177 0.0002827 -0.0148177
3307469 0.0002733 -0.0144924 0.9997267 0.0144924 0.9997267 0.0144924 0.0002733 -0.0144924
3380190 0.0002644 -0.0141739 0.9997356 0.0141739 0.9997356 0.0141739 0.0002644 -0.0141739
3454511 0.0002558 -0.0138621 0.9997442 0.0138621 0.9997442 0.0138621 0.0002558 -0.0138621
3530465 0.0002476 -0.0135569 0.9997524 0.0135569 0.9997524 0.0135569 0.0002476 -0.0135569
3608090 0.0002398 -0.0132580 0.9997602 0.0132580 0.9997602 0.0132580 0.0002398 -0.0132580
3687421 0.0002323 -0.0129655 0.9997677 0.0129655 0.9997677 0.0129655 0.0002323 -0.0129655
3768496 0.0002251 -0.0126790 0.9997749 0.0126790 0.9997749 0.0126790 0.0002251 -0.0126790
3851354 0.0002183 -0.0123986 0.9997817 0.0123986 0.9997817 0.0123986 0.0002183 -0.0123986
3936034 0.0002117 -0.0121240 0.9997883 0.0121240 0.9997883 0.0121240 0.0002117 -0.0121240
4022575 0.0002055 -0.0118552 0.9997945 0.0118552 0.9997945 0.0118552 0.0002055 -0.0118552
4111020 0.0001995 -0.0115919 0.9998005 0.0115919 0.9998005 0.0115919 0.0001995 -0.0115919
4201409 0.0001939 -0.0113342 0.9998061 0.0113342 0.9998061 0.0113342 0.0001939 -0.0113342
4293785 0.0001884 -0.0110818 0.9998116 0.0110818 0.9998116 0.0110818 0.0001884 -0.0110818
4388193 0.0001833 -0.0108346 0.9998167 0.0108346 0.9998167 0.0108346 0.0001833 -0.0108346
4484676 0.0001783 -0.0105926 0.9998217 0.0105926 0.9998217 0.0105926 0.0001783 -0.0105926
4583281 0.0001736 -0.0103556 0.9998264 0.0103556 0.9998264 0.0103556 0.0001736 -0.0103556
4684054 0.0001691 -0.0101235 0.9998309 0.0101235 0.9998309 0.0101235 0.0001691 -0.0101235
4787042 0.0001648 -0.0098962 0.9998352 0.0098962 0.9998352 0.0098962 0.0001648 -0.0098962
4892295 0.0001608 -0.0096735 0.9998392 0.0096735 0.9998392 0.0096735 0.0001608 -0.0096735
4999862 0.0001569 -0.0094555 0.9998431 0.0094555 0.9998431 0.0094555 0.0001569 -0.0094555
5109794 0.0001532 -0.0092419 0.9998468 0.0092419 0.9998468 0.0092419 0.0001532 -0.0092419
5222143 0.0001497 -0.0090327 0.9998503 0.0090327 0.9998503 0.0090327 0.0001497 -0.0090327
5336962 0.0001463 -0.0088277 0.9998537 0.0088277 0.9998537 0.0088277 0.0001463 -0.0088277
5454306 0.0001432 -0.0086270 0.9998568 0.0086270 0.9998568 0.0086270 0.0001432 -0.0086270
5574230 0.0001401 -0.0084303 0.9998599 0.0084303 0.9998599 0.0084303 0.0001401 -0.0084303
5696791 0.0001373 -0.0082377 0.9998627 0.0082377 0.9998627 0.0082377 0.0001373 -0.0082377
5822046 0.0001345 -0.0080489 0.9998655 0.0080489 0.9998655 0.0080489 0.0001345 -0.0080489
5950055 0.0001320 -0.0078640 0.9998680 0.0078640 0.9998680 0.0078640 0.0001320 -0.0078640
6080879 0.0001295 -0.0076828 0.9998705 0.0076828 0.9998705 0.0076828 0.0001295 -0.0076828
6214580 0.0001272 -0.0075052 0.9998728 0.0075052 0.9998728 0.0075052 0.0001272 -0.0075052
6351220 0.0001250 -0.0073312 0.9998750 0.0073312 0.9998750 0.0073312 0.0001250 -0.0073312
6490864 0.0001229 -0.0071606 0.9998771 0.0071606 0.9998771 0.0071606 0.0001229 -0.0071606
6633579 0.0001210 -0.0069935 0.9998790 0.0069935 0.9998790 0.0069935 0.0001210 -0.0069935
6779431 0.0001191 -0.0068297 0.9998809 0.0068297 0.9998809 0.0068297 0.0001191 -0.0068297
6928491 0.0001174 -0.0066691 0.9998826 0.0066691 0.9998826 0.0066691 0.0001174 -0.0066691
7080828 0.0001157 -0.0065117 0.9998843 0.0065117 0.9998843 0.0065117 0.0001157 -0.0065117
7236514 0.0001142 -0.0063574 0.9998858 0.0063574 0.9998858 0.0063574 0.0001142 -0.0063574
7395623 0.0001127 -0.0062060 0.9998873 0.0062060 0.9998873 0.0062060 0.0001127 -0.0062060
7558231 0.0001114 -0.0060577 0.9998886 0.0060577 0.9998886 0.0060577 0.0001114 -0.0060577
7724414 0.0001101 -0.0059122 0.9998899 0.0059122 0.9998899 0.0059122 0.0001101 -0.0059122
7894251 0.0001089 -0.0057695 0.9998911 0.0057695 0.9998911 0.0057695 0.0001089 -0.0057695
8067822 0.0001078 -0.0056296 0.9998922 0.0056296 0.9998922 0.0056296 0.0001078 -0.0056296
8245209 0.0001068 -0.0054923 0.9998932 0.0054923 0.9998932 0.0054923 0.0001068 -0.0054923
8426497 0.0001058 -0.0053577 0.9998942 0.0053577 0.9998942 0.0053577 0.0001058 -0.0053577
8611770 0.0001050 -0.0052256 0.9998950 0.0052256 0.9998950 0.0052256 0.0001050 -0.0052256
8801117 0.0001042 -0.0050959 0.9998958 0.0050959 0.9998958 0.0050959 0.0001042 -0.0050959
8994628 0.0001034 -0.0049687 0.9998966 0.0049687 0.9998966 0.0049687 0.0001034 -0.0049687
9192393 0.0001027 -0.0048439 0.9998973 0.0048439 0.9998973 0.0048439 0.0001027 -0.0048439
9394506 0.0001021 -0.0047214 0.9998979 0.0047214 0.9998979 0.0047214 0.0001021 -0.0047214
9601063 0.0001016 -0.0046011 0.9998984 0.0046011 0.9998984 0.0046011 0.0001016 -0.0046011
9812162 0.0001011 -0.0044830 0.9998989 0.0044830 0.9998989 0.0044830 0.0001011 -0.0044830
10027902 0.0001006 -0.0043670 0.9998994 0.0043670 0.9998994 0.0043670 0.0001006 -0.0043670
10248386 0.0001003 -0.0042531 0.9998997 0.0042531 0.9998997 0.0042531 0.0001003 -0.0042531
10473717 0.0000999 -0.0041412 0.9999001 0.0041412 0.9999001 0.0041412 0.0000999 -0.0041412
10704003 0.0000997 -0.0040313 0.9999003 0.0040313 0.9999003 0.0040313 0.0000997 -0.0040313
10939352 0.0000994 -0.0039233 0.9999006 0.0039233 0.9999006 0.0039233 0.0000994 -0.0039233
11179876 0.0000993 -0.0038172 0.9999007 0.0038172 0.9999007 0.0038172 0.0000993 -0.0038172
11425688 0.0000991 -0.0037129 0.9999009 0.0037129 0.9999009 0.0037129 0.0000991 -0.0037129
11676904 0.0000991 -0.0036103 0.9999009 0.0036103 0.9999009 0.0036103 0.0000991 -0.0036103
11933645 0.0000990 -0.0035095 0.9999010 0.0035095 0.9999010 0.0035095 0.0000990 -0.0035095
12196030 0.0000990 -0.0034103 0.9999010 0.0034103 0.9999010 0.0034103 0.0000990 -0.0034103
12464184 0.0000991 -0.0033128 0.9999009 0.0033128 0.9999009 0.0033128 0.0000991 -0.0033128
12738235 0.0000992 -0.0032168 0.9999008 0.0032168 0.9999008 0.0032168 0.0000992 -0.0032168
13018310 0.0000993 -0.0031224 0.9999007 0.0031224 0.9999007 0.0031224 0.0000993 -0.0031224
13304544 0.0000995 -0.0030294 0.9999005 0.0030294 0.9999005 0.0030294 0.0000995 -0.0030294
13597071 0.0000997 -0.0029379 0.9999003 0.0029379 0.9999003 0.0029379 0.0000997 -0.0029379
13896030 0.0001000 -0.0028477 0.9999000 0.0028477 0.9999000 0.0028477 0.0001000 -0.0028477
14201563 0.0001003 -0.0027590 0.9998997 0.0027590 0.9998997 0.0027590 0.0001003 -0.0027590
14513813 0.0001007 -0.0026715 0.9998993 0.0026715 0.9998993 0.0026715 0.0001007 -0.0026715
14832928 0.0001011 -0.0025852 0.9998989 0.0025852 0.9998989 0.0025852 0.0001011 -0.0025852
15159060 0.0001015 -0.0025002 0.9998985 0.0025002 0.9998985 0.0025002 0.0001015 -0.0025002
15492362 0.0001020 -0.0024164 0.9998980 0.0024164 0.9998980 0.0024164 0.0001020 -0.0024164
15832993 0.0001025 -0.0023337 0.9998975 0.0023337 0.9998975 0.0023337 0.0001025 -0.0023337
16181113 0.0001031 -0.0022522 0.9998969 0.0022522 0.9998969 0.0022522 0.0001031 -0.0022522
16536888 0.0001037 -0.0021716 0.9998963 0.0021716 0.9998963 0.0021716 0.0001037 -0.0021716
16900485 0.0001043 -0.0020921 0.9998957 0.0020921 0.9998957 0.0020921 0.0001043 -0.0020921
17272076 0.0001050 -0.0020136 0.9998950 0.0020136 0.9998950 0.0020136 0.0001050 -0.0020136
17651837 0.0001058 -0.0019360 0.9998942 0.0019360 0.9998942 0.0019360 0.0001058 -0.0019360
18039948 0.0001066 -0.0018593 0.9998934 0.0018593 0.9998934 0.0018593 0.0001066 -0.0018593
18436593 0.0001074 -0.0017835 0.9998926 0.0017835 0.9998926 0.0017835 0.0001074 -0.0017835
18841959 0.0001083 -0.0017085 0.9998917 0.0017085 0.9998917 0.0017085 0.0001083 -0.0017085
19256237 0.0001093 -0.0016342 0.9998907 0.0016342 0.9998907 0.0016342 0.0001093 -0.0016342
19679624 0.0001103 -0.0015608 0.9998897 0.0015608 0.9998897 0.0015608 0.0001103 -0.0015608
20112321 0.0001113 -0.0014880 0.9998887 0.0014880 0.9998887 0.0014880 0.0001113 -0.0014880
20554530 0.0001124 -0.0014159 0.9998876 0.0014159 0.9998876 0.0014159 0.0001124 -0.0014159
21006463 0.0001136 -0.0013445 0.9998864 0.0013445 0.9998864 0.0013445 0.0001136 -0.0013445
21468333 0.0001149 -0.0012736 0.9998851 0.0012736 0.9998851 0.0012736 0.0001149 -0.0012736
21940357 0.0001162 -0.0012034 0.9998838 0.0012034 0.9998838 0.0012034 0.0001162 -0.0012034
22422760 0.0001175 -0.0011336 0.9998825 0.0011336 0.9998825 0.0011336 0.0001175 -0.0011336
22915770 0.0001190 -0.0010643 0.9998810 0.0010643 0.9998810 0.0010643 0.0001190 -0.0010643
23419619 0.0001205 -0.0009955 0.9998795 0.0009955 0.9998795 0.0009955 0.0001205 -0.0009955
23934547 0.0001221 -0.0009271 0.9998779 0.0009271 0.9998779 0.0009271 0.0001221 -0.0009271
24460796 0.0001238 -0.0008591 0.9998762 0.0008591 0.9998762 0.0008591 0.0001238 -0.0008591
24998616 0.0001256 -0.0007914 0.9998744 0.0007914 0.9998744 0.0007914 0.0001256 -0.0007914
25548261 0.0001275 -0.0007240 0.9998725 0.0007240 0.9998725 0.0007240 0.0001275 -0.0007240
26109991 0.0001294 -0.0006568 0.9998706 0.0006568 0.9998706 0.0006568 0.0001294 -0.0006568
26684072 0.0001315 -0.0005899 0.9998685 0.0005899 0.9998685 0.0005899 0.0001315 -0.0005899
27270775 0.0001337 -0.0005231 0.9998663 0.0005231 0.9998663 0.0005231 0.0001337 -0.0005231
27870378 0.0001360 -0.0004565 0.9998640 0.0004565 0.9998640 0.0004565 0.0001360 -0.0004565
28483164 0.0001384 -0.0003900 0.9998616 0.0003900 0.9998616 0.0003900 0.0001384 -0.0003900
29109424 0.0001409 -0.0003236 0.9998591 0.0003236 0.9998591 0.0003236 0.0001409 -0.0003236
29749453 0.0001436 -0.0002571 0.9998564 0.0002571 0.9998564 0.0002571 0.0001436 -0.0002571
30403555 0.0001464 -0.0001906 0.9998536 0.0001906 0.9998536 0.0001906 0.0001464 -0.0001906
31072038 0.0001494 -0.0001241 0.9998506 0.0001241 0.9998506 0.0001241 0.0001494 -0.0001241
31755220 0.0001526 -0.0000574 0.9998474 0.0000574 0.9998474 0.0000574 0.0001526 -0.0000574
32453422 0.0001559 0.0000095 0.9998441 -0.0000095 0.9998441 -0.0000095 0.0001559 0.0000095
33166976 0.0001595 0.0000766 0.9998405 -0.0000766 0.9998405 -0.0000766 0.0001595 0.0000766
33896219 0.0001632 0.0001440 0.9998368 -0.0001440 0.9998368 -0.0001440 0.0001632 0.0001440
34641496 0.0001672 0.0002118 0.9998328 -0.0002118 0.9998328 -0.0002118 0.0001672 0.0002118
35403159 0.0001714 0.0002800 0.9998286 -0.0002800 0.9998286 -0.0002800 0.0001714 0.0002800
36181569 0.0001759 0.0003486 0.9998241 -0.0003486 0.9998241 -0.0003486 0.0001759 0.0003486
36977093 0.0001807 0.0004178 0.9998193 -0.0004178 0.9998193 -0.0004178 0.0001807 0.0004178
37790109 0.0001859 0.0004877 0.9998141 -0.0004877 0.9998141 -0.0004877 0.0001859 0.0004877
38621001 0.0001913 0.0005582 0.9998087 -0.0005582 0.9998087 -0.0005582 0.0001913 0.0005582
39470161 0.0001972 0.0006296 0.9998028 -0.0006296 0.9998028 -0.0006296 0.0001972 0.0006296
40337993 0.0002035 0.0007018 0.9997965 -0.0007018 0.9997965 -0.0007018 0.0002035 0.0007018
41224905 0.0002103 0.0007751 0.9997897 -0.0007751 0.9997897 -0.0007751 0.0002103 0.0007751
42131317 0.0002177 0.0008495 0.9997823 -0.0008495 0.9997823 -0.0008495 0.0002177 0.0008495
43057659 0.0002257 0.0009252 0.9997743 -0.0009252 0.9997743 -0.0009252 0.0002257 0.0009252
44004369 0.0002345 0.0010023 0.9997655 -0.0010023 0.9997655 -0.0010023 0.0002345 0.0010023
44971893 0.0002440 0.0010810 0.9997560 -0.0010810 0.9997560 -0.0010810 0.0002440 0.0010810
45960691 0.0002546 0.0011615 0.9997454 -0.0011615 0.9997454 -0.0011615 0.0002546 0.0011615
46971230 0.0002663 0.0012441 0.9997337 -0.0012441 0.9997337 -0.0012441 0.0002663 0.0012441
48003987 0.0002794 0.0013290 0.9997206 -0.0013290 0.9997206 -0.0013290 0.0002794 0.0013290
49059451 0.0002941 0.0014165 0.9997059 -0.0014165 0.9997059 -0.0014165 0.0002941 0.0014165
50138122 0.0003109 0.0015071 0.9996891 -0.0015071 0.9996891 -0.0015071 0.0003109 0.0015071
51240510 0.0003302 0.0016011 0.9996698 -0.0016011 0.9996698 -0.0016011 0.0003302 0.0016011
52367136 0.0003527 0.0016991 0.9996473 -0.0016991 0.9996473 -0.0016991 0.0003527 0.0016991
53518533 0.0003793 0.0018018 0.9996207 -0.0018018 0.9996207 -0.0018018 0.0003793 0.0018018
54695245 0.0004113 0.0019098 0.9995887 -0.0019098 0.9995887 -0.0019098 0.0004113 0.0019098
55897831 0.0004506 0.0020241 0.9995494 -0.0020241 0.9995494 -0.0020241 0.0004506 0.0020241
57126857 0.0004998 0.0021453 0.9995002 -0.0021453 0.9995002 -0.0021453 0.0004998 0.0021453
58382906 0.0005630 0.0022743 0.9994370 -0.0022743 0.9994370 -0.0022743 0.0005630 0.0022743
59666572 0.0006465 0.0024111 0.9993535 -0.0024111 0.9993535 -0.0024111 0.0006465 0.0024111
60978462 0.0007595 0.0025536 0.9992405 -0.0025536 0.9992405 -0.0025536 0.0007595 0.0025536
62319196 0.0009161 0.0026948 0.9990839 -0.0026948 0.9990839 -0.0026948 0.0009161 0.0026948
63689409 0.0011345 0.0028155 0.9988655 -0.0028155 0.9988655 -0.0028155 0.0011345 0.0028155
65089750 0.0014290 0.0028711 0.9985710 -0.0028711 0.9985710 -0.0028711 0.0014290 0.0028711
66520879 0.0017755 0.0027823 0.9982245 -0.0027823 0.9982245 -0.0027823 0.0017755 0.0027823
67983474 0.0020515 0.0024833 0.9979485 -0.0024833 0.9979485 -0.0024833 0.0020515 0.0024833
69478228 0.0020768 0.0020659 0.9979232 -0.0020659 0.9979232 -0.0020659 0.0020768 0.0020659
71005847 0.0018458 0.0017629 0.9981542 -0.0017629 0.9981542 -0.0017629 0.0018458 0.0017629
72567054 0.0015372 0.0016761 0.9984628 -0.0016761 0.9984628 -0.0016761 0.0015372 0.0016761
74162587 0.0012798 0.0017431 0.9987202 -0.0017431 0.9987202 -0.0017431 0.0012798 0.0017431
75793201 0.0011015 0.0018828 0.9988985 -0.0018828 0.9988985 -0.0018828 0.0011015 0.0018828
77459667 0.0009892 0.0020493 0.9990108 -0.0020493 0.9990108 -0.0020493 0.0009892 0.0020493
79162774 0.0009254 0.0022226 0.9990746 -0.0022226 0.9990746 -0.0022226 0.0009254 0.0022226
80903327 0.0008969 0.0023954 0.9991031 -0.0023954 0.9991031 -0.0023954 0.0008969 0.0023954
82682150 0.0008956 0.0025657 0.9991044 -0.0025657 0.9991044 -0.0025657 0.0008956 0.0025657
84500083 0.0009172 0.0027334 0.9990828 -0.0027334 0.9990828 -0.0027334 0.0009172 0.0027334
86357988 0.0009600 0.0028988 0.9990400 -0.0028988 0.9990400 -0.0028988 0.0009600 0.0028988
88256743 0.0010244 0.0030618 0.9989756 -0.0030618 0.9989756 -0.0030618 0.0010244 0.0030618
90197245 0.0011126 0.0032213 0.9988874 -0.0032213 0.9988874 -0.0032213 0.0011126 0.0032213
92180413 0.0012283 0.0033745 0.9987717 -0.0033745 0.9987717 -0.0033745 0.0012283 0.0033745
94207185 0.0013763 0.0035153 0.9986237 -0.0035153 0.9986237 -0.0035153 0.0013763 0.0035153
96278520 0.0015611 0.0036331 0.9984389 -0.0036331 0.9984389 -0.0036331 0.0015611 0.0036331
98395398 0.0017846 0.0037107 0.9982154 -0.0037107 0.9982154 -0.0037107 0.0017846 0.0037107
100558819 0.0020393 0.0037238 0.9979607 -0.0037238 0.9979607 -0.0037238 0.0020393 0.0037238
102769807 0.0023008 0.0036455 0.9976992 -0.0036455 0.9976992 -0.0036455 0.0023008 0.0036455
105029408 0.0025209 0.0034619 0.9974791 -0.0034619 0.9974791 -0.0034619 0.0025209 0.0034619
107338692 0.0026390 0.0031943 0.9973610 -0.0031943 0.9973610 -0.0031943 0.0026390 0.0031943
