!Murata Part Number: GRM31A7U2J331JW31
!These Parameters are Measured in Series Mode Connection
!Data Generated on Mar 30, 2021
!       o--ll--o
!Port1            Port2
!       o------o
!Operation Temp=25[degC], DC Bias Voltage=0[V]
!Freq. Start=100[MHz] Stop=3[GHz] 401[Steps]
# Hz S RI R 50
!Freq.(Hz) S11(Real) S11(Imag) S21(Real) S21(Imag) S12(Real) S12(Imag) S22(Real) S22(Imag)
100000000 0.0025048 -0.0435906 0.9974952 0.0435906 0.9974952 0.0435906 0.0025048 -0.0435906
107250000 0.0022090 -0.0400259 0.9977910 0.0400259 0.9977910 0.0400259 0.0022090 -0.0400259
114500000 0.0019690 -0.0368687 0.9980310 0.0368687 0.9980310 0.0368687 0.0019690 -0.0368687
121750000 0.0017723 -0.0340466 0.9982277 0.0340466 0.9982277 0.0340466 0.0017723 -0.0340466
129000000 0.0016093 -0.0315034 0.9983907 0.0315034 0.9983907 0.0315034 0.0016093 -0.0315034
136250000 0.0014733 -0.0291948 0.9985267 0.0291948 0.9985267 0.0291948 0.0014733 -0.0291948
143500000 0.0013591 -0.0270854 0.9986409 0.0270854 0.9986409 0.0270854 0.0013591 -0.0270854
150750000 0.0012627 -0.0251465 0.9987373 0.0251465 0.9987373 0.0251465 0.0012627 -0.0251465
158000000 0.0011809 -0.0233546 0.9988191 0.0233546 0.9988191 0.0233546 0.0011809 -0.0233546
165250000 0.0011113 -0.0216905 0.9988887 0.0216905 0.9988887 0.0216905 0.0011113 -0.0216905
172500000 0.0010521 -0.0201380 0.9989479 0.0201380 0.9989479 0.0201380 0.0010521 -0.0201380
179750000 0.0010017 -0.0186837 0.9989983 0.0186837 0.9989983 0.0186837 0.0010017 -0.0186837
187000000 0.0009588 -0.0173160 0.9990412 0.0173160 0.9990412 0.0173160 0.0009588 -0.0173160
194250000 0.0009224 -0.0160253 0.9990776 0.0160253 0.9990776 0.0160253 0.0009224 -0.0160253
201500000 0.0008916 -0.0148032 0.9991084 0.0148032 0.9991084 0.0148032 0.0008916 -0.0148032
208750000 0.0008658 -0.0136425 0.9991342 0.0136425 0.9991342 0.0136425 0.0008658 -0.0136425
216000000 0.0008444 -0.0125370 0.9991556 0.0125370 0.9991556 0.0125370 0.0008444 -0.0125370
223250000 0.0008269 -0.0114812 0.9991731 0.0114812 0.9991731 0.0114812 0.0008269 -0.0114812
230500000 0.0008128 -0.0104705 0.9991872 0.0104705 0.9991872 0.0104705 0.0008128 -0.0104705
237750000 0.0008019 -0.0095006 0.9991981 0.0095006 0.9991981 0.0095006 0.0008019 -0.0095006
245000000 0.0007939 -0.0085678 0.9992061 0.0085678 0.9992061 0.0085678 0.0007939 -0.0085678
252250000 0.0007884 -0.0076690 0.9992116 0.0076690 0.9992116 0.0076690 0.0007884 -0.0076690
259500000 0.0007853 -0.0068012 0.9992147 0.0068012 0.9992147 0.0068012 0.0007853 -0.0068012
266750000 0.0007844 -0.0059617 0.9992156 0.0059617 0.9992156 0.0059617 0.0007844 -0.0059617
274000000 0.0007855 -0.0051483 0.9992145 0.0051483 0.9992145 0.0051483 0.0007855 -0.0051483
281250000 0.0007886 -0.0043590 0.9992114 0.0043590 0.9992114 0.0043590 0.0007886 -0.0043590
288500000 0.0007934 -0.0035917 0.9992066 0.0035917 0.9992066 0.0035917 0.0007934 -0.0035917
295750000 0.0007998 -0.0028449 0.9992002 0.0028449 0.9992002 0.0028449 0.0007998 -0.0028449
303000000 0.0008079 -0.0021169 0.9991921 0.0021169 0.9991921 0.0021169 0.0008079 -0.0021169
310250000 0.0008175 -0.0014064 0.9991825 0.0014064 0.9991825 0.0014064 0.0008175 -0.0014064
317500000 0.0008286 -0.0007121 0.9991714 0.0007121 0.9991714 0.0007121 0.0008286 -0.0007121
324750000 0.0008410 -0.0000328 0.9991590 0.0000328 0.9991590 0.0000328 0.0008410 -0.0000328
332000000 0.0008548 0.0006325 0.9991452 -0.0006325 0.9991452 -0.0006325 0.0008548 0.0006325
339250000 0.0008699 0.0012848 0.9991301 -0.0012848 0.9991301 -0.0012848 0.0008699 0.0012848
346500000 0.0008863 0.0019251 0.9991137 -0.0019251 0.9991137 -0.0019251 0.0008863 0.0019251
353750000 0.0009040 0.0025542 0.9990960 -0.0025542 0.9990960 -0.0025542 0.0009040 0.0025542
361000000 0.0009229 0.0031727 0.9990771 -0.0031727 0.9990771 -0.0031727 0.0009229 0.0031727
368250000 0.0009430 0.0037816 0.9990570 -0.0037816 0.9990570 -0.0037816 0.0009430 0.0037816
375500000 0.0009644 0.0043814 0.9990356 -0.0043814 0.9990356 -0.0043814 0.0009644 0.0043814
382750000 0.0009870 0.0049728 0.9990130 -0.0049728 0.9990130 -0.0049728 0.0009870 0.0049728
390000000 0.0010108 0.0055563 0.9989892 -0.0055563 0.9989892 -0.0055563 0.0010108 0.0055563
397250000 0.0010358 0.0061325 0.9989642 -0.0061325 0.9989642 -0.0061325 0.0010358 0.0061325
404500000 0.0010622 0.0067019 0.9989378 -0.0067019 0.9989378 -0.0067019 0.0010622 0.0067019
411750000 0.0010897 0.0072650 0.9989103 -0.0072650 0.9989103 -0.0072650 0.0010897 0.0072650
419000000 0.0011186 0.0078223 0.9988814 -0.0078223 0.9988814 -0.0078223 0.0011186 0.0078223
426250000 0.0011488 0.0083742 0.9988512 -0.0083742 0.9988512 -0.0083742 0.0011488 0.0083742
433500000 0.0011804 0.0089211 0.9988196 -0.0089211 0.9988196 -0.0089211 0.0011804 0.0089211
440750000 0.0012133 0.0094634 0.9987867 -0.0094634 0.9987867 -0.0094634 0.0012133 0.0094634
448000000 0.0012478 0.0100016 0.9987522 -0.0100016 0.9987522 -0.0100016 0.0012478 0.0100016
455250000 0.0012837 0.0105359 0.9987163 -0.0105359 0.9987163 -0.0105359 0.0012837 0.0105359
462500000 0.0013211 0.0110668 0.9986789 -0.0110668 0.9986789 -0.0110668 0.0013211 0.0110668
469750000 0.0013603 0.0115946 0.9986397 -0.0115946 0.9986397 -0.0115946 0.0013603 0.0115946
477000000 0.0014011 0.0121196 0.9985989 -0.0121196 0.9985989 -0.0121196 0.0014011 0.0121196
484250000 0.0014437 0.0126422 0.9985563 -0.0126422 0.9985563 -0.0126422 0.0014437 0.0126422
491500000 0.0014882 0.0131626 0.9985118 -0.0131626 0.9985118 -0.0131626 0.0014882 0.0131626
498750000 0.0015348 0.0136813 0.9984652 -0.0136813 0.9984652 -0.0136813 0.0015348 0.0136813
506000000 0.0015834 0.0141986 0.9984166 -0.0141986 0.9984166 -0.0141986 0.0015834 0.0141986
513250000 0.0016344 0.0147147 0.9983656 -0.0147147 0.9983656 -0.0147147 0.0016344 0.0147147
520500000 0.0016878 0.0152300 0.9983122 -0.0152300 0.9983122 -0.0152300 0.0016878 0.0152300
527750000 0.0017438 0.0157449 0.9982562 -0.0157449 0.9982562 -0.0157449 0.0017438 0.0157449
535000000 0.0018026 0.0162596 0.9981974 -0.0162596 0.9981974 -0.0162596 0.0018026 0.0162596
542250000 0.0018644 0.0167745 0.9981356 -0.0167745 0.9981356 -0.0167745 0.0018644 0.0167745
549500000 0.0019296 0.0172900 0.9980704 -0.0172900 0.9980704 -0.0172900 0.0019296 0.0172900
556750000 0.0019983 0.0178064 0.9980017 -0.0178064 0.9980017 -0.0178064 0.0019983 0.0178064
564000000 0.0020710 0.0183240 0.9979290 -0.0183240 0.9979290 -0.0183240 0.0020710 0.0183240
571250000 0.0021480 0.0188434 0.9978520 -0.0188434 0.9978520 -0.0188434 0.0021480 0.0188434
578500000 0.0022296 0.0193647 0.9977704 -0.0193647 0.9977704 -0.0193647 0.0022296 0.0193647
585750000 0.0023165 0.0198886 0.9976835 -0.0198886 0.9976835 -0.0198886 0.0023165 0.0198886
593000000 0.0024092 0.0204153 0.9975908 -0.0204153 0.9975908 -0.0204153 0.0024092 0.0204153
600250000 0.0025083 0.0209453 0.9974917 -0.0209453 0.9974917 -0.0209453 0.0025083 0.0209453
607500000 0.0026146 0.0214791 0.9973854 -0.0214791 0.9973854 -0.0214791 0.0026146 0.0214791
614750000 0.0027289 0.0220171 0.9972711 -0.0220171 0.9972711 -0.0220171 0.0027289 0.0220171
622000000 0.0028523 0.0225598 0.9971477 -0.0225598 0.9971477 -0.0225598 0.0028523 0.0225598
629250000 0.0029859 0.0231077 0.9970141 -0.0231077 0.9970141 -0.0231077 0.0029859 0.0231077
636500000 0.0031311 0.0236613 0.9968689 -0.0236613 0.9968689 -0.0236613 0.0031311 0.0236613
643750000 0.0032895 0.0242209 0.9967105 -0.0242209 0.9967105 -0.0242209 0.0032895 0.0242209
651000000 0.0034631 0.0247869 0.9965369 -0.0247869 0.9965369 -0.0247869 0.0034631 0.0247869
658250000 0.0036540 0.0253597 0.9963460 -0.0253597 0.9963460 -0.0253597 0.0036540 0.0253597
665500000 0.0038649 0.0259395 0.9961351 -0.0259395 0.9961351 -0.0259395 0.0038649 0.0259395
672750000 0.0040990 0.0265261 0.9959010 -0.0265261 0.9959010 -0.0265261 0.0040990 0.0265261
680000000 0.0043599 0.0271193 0.9956401 -0.0271193 0.9956401 -0.0271193 0.0043599 0.0271193
687250000 0.0046520 0.0277181 0.9953480 -0.0277181 0.9953480 -0.0277181 0.0046520 0.0277181
694500000 0.0049805 0.0283213 0.9950195 -0.0283213 0.9950195 -0.0283213 0.0049805 0.0283213
701750000 0.0053514 0.0289263 0.9946486 -0.0289263 0.9946486 -0.0289263 0.0053514 0.0289263
709000000 0.0057717 0.0295293 0.9942283 -0.0295293 0.9942283 -0.0295293 0.0057717 0.0295293
716250000 0.0062494 0.0301247 0.9937506 -0.0301247 0.9937506 -0.0301247 0.0062494 0.0301247
723500000 0.0067933 0.0307040 0.9932067 -0.0307040 0.9932067 -0.0307040 0.0067933 0.0307040
730750000 0.0074124 0.0312551 0.9925876 -0.0312551 0.9925876 -0.0312551 0.0074124 0.0312551
738000000 0.0081156 0.0317612 0.9918844 -0.0317612 0.9918844 -0.0317612 0.0081156 0.0317612
745250000 0.0089093 0.0321992 0.9910907 -0.0321992 0.9910907 -0.0321992 0.0089093 0.0321992
752500000 0.0097956 0.0325389 0.9902044 -0.0325389 0.9902044 -0.0325389 0.0097956 0.0325389
759750000 0.0107673 0.0327426 0.9892327 -0.0327426 0.9892327 -0.0327426 0.0107673 0.0327426
767000000 0.0118028 0.0327671 0.9881972 -0.0327671 0.9881972 -0.0327671 0.0118028 0.0327671
774250000 0.0128602 0.0325692 0.9871398 -0.0325692 0.9871398 -0.0325692 0.0128602 0.0325692
781500000 0.0138728 0.0321163 0.9861272 -0.0321163 0.9861272 -0.0321163 0.0138728 0.0321163
788750000 0.0147518 0.0314016 0.9852482 -0.0314016 0.9852482 -0.0314016 0.0147518 0.0314016
796000000 0.0153996 0.0304593 0.9846004 -0.0304593 0.9846004 -0.0304593 0.0153996 0.0304593
803250000 0.0157332 0.0293699 0.9842668 -0.0293699 0.9842668 -0.0293699 0.0157332 0.0293699
810500000 0.0157114 0.0282496 0.9842886 -0.0282496 0.9842886 -0.0282496 0.0157114 0.0282496
817750000 0.0153496 0.0272219 0.9846504 -0.0272219 0.9846504 -0.0272219 0.0153496 0.0272219
825000000 0.0147137 0.0263865 0.9852863 -0.0263865 0.9852863 -0.0263865 0.0147137 0.0263865
832250000 0.0138971 0.0257991 0.9861029 -0.0257991 0.9861029 -0.0257991 0.0138971 0.0257991
839500000 0.0129943 0.0254710 0.9870057 -0.0254710 0.9870057 -0.0254710 0.0129943 0.0254710
846750000 0.0120824 0.0253804 0.9879176 -0.0253804 0.9879176 -0.0253804 0.0120824 0.0253804
854000000 0.0112143 0.0254885 0.9887857 -0.0254885 0.9887857 -0.0254885 0.0112143 0.0254885
861250000 0.0104208 0.0257521 0.9895792 -0.0257521 0.9895792 -0.0257521 0.0104208 0.0257521
868500000 0.0097153 0.0261314 0.9902847 -0.0261314 0.9902847 -0.0261314 0.0097153 0.0261314
875750000 0.0091001 0.0265930 0.9908999 -0.0265930 0.9908999 -0.0265930 0.0091001 0.0265930
883000000 0.0085712 0.0271111 0.9914288 -0.0271111 0.9914288 -0.0271111 0.0085712 0.0271111
890250000 0.0081210 0.0276662 0.9918790 -0.0276662 0.9918790 -0.0276662 0.0081210 0.0276662
897500000 0.0077411 0.0282441 0.9922589 -0.0282441 0.9922589 -0.0282441 0.0077411 0.0282441
904750000 0.0074228 0.0288347 0.9925772 -0.0288347 0.9925772 -0.0288347 0.0074228 0.0288347
912000000 0.0071582 0.0294312 0.9928418 -0.0294312 0.9928418 -0.0294312 0.0071582 0.0294312
919250000 0.0069403 0.0300287 0.9930597 -0.0300287 0.9930597 -0.0300287 0.0069403 0.0300287
926500000 0.0067627 0.0306242 0.9932373 -0.0306242 0.9932373 -0.0306242 0.0067627 0.0306242
933750000 0.0066202 0.0312157 0.9933798 -0.0312157 0.9933798 -0.0312157 0.0066202 0.0312157
941000000 0.0065082 0.0318019 0.9934918 -0.0318019 0.9934918 -0.0318019 0.0065082 0.0318019
948250000 0.0064231 0.0323822 0.9935769 -0.0323822 0.9935769 -0.0323822 0.0064231 0.0323822
955500000 0.0063615 0.0329563 0.9936385 -0.0329563 0.9936385 -0.0329563 0.0063615 0.0329563
962750000 0.0063209 0.0335241 0.9936791 -0.0335241 0.9936791 -0.0335241 0.0063209 0.0335241
970000000 0.0062990 0.0340860 0.9937010 -0.0340860 0.9937010 -0.0340860 0.0062990 0.0340860
977250000 0.0062940 0.0346420 0.9937060 -0.0346420 0.9937060 -0.0346420 0.0062940 0.0346420
984500000 0.0063042 0.0351926 0.9936958 -0.0351926 0.9936958 -0.0351926 0.0063042 0.0351926
991750000 0.0063285 0.0357381 0.9936715 -0.0357381 0.9936715 -0.0357381 0.0063285 0.0357381
999000000 0.0063658 0.0362789 0.9936342 -0.0362789 0.9936342 -0.0362789 0.0063658 0.0362789
1006250000 0.0064153 0.0368154 0.9935847 -0.0368154 0.9935847 -0.0368154 0.0064153 0.0368154
1013500000 0.0064762 0.0373479 0.9935238 -0.0373479 0.9935238 -0.0373479 0.0064762 0.0373479
1020750000 0.0065480 0.0378768 0.9934520 -0.0378768 0.9934520 -0.0378768 0.0065480 0.0378768
1028000000 0.0066303 0.0384025 0.9933697 -0.0384025 0.9933697 -0.0384025 0.0066303 0.0384025
1035250000 0.0067228 0.0389253 0.9932772 -0.0389253 0.9932772 -0.0389253 0.0067228 0.0389253
1042500000 0.0068254 0.0394454 0.9931746 -0.0394454 0.9931746 -0.0394454 0.0068254 0.0394454
1049750000 0.0069378 0.0399631 0.9930622 -0.0399631 0.9930622 -0.0399631 0.0069378 0.0399631
1057000000 0.0070600 0.0404786 0.9929400 -0.0404786 0.9929400 -0.0404786 0.0070600 0.0404786
1064250000 0.0071921 0.0409922 0.9928079 -0.0409922 0.9928079 -0.0409922 0.0071921 0.0409922
1071500000 0.0073342 0.0415040 0.9926658 -0.0415040 0.9926658 -0.0415040 0.0073342 0.0415040
1078750000 0.0074865 0.0420142 0.9925135 -0.0420142 0.9925135 -0.0420142 0.0074865 0.0420142
1086000000 0.0076492 0.0425228 0.9923508 -0.0425228 0.9923508 -0.0425228 0.0076492 0.0425228
1093250000 0.0078226 0.0430298 0.9921774 -0.0430298 0.9921774 -0.0430298 0.0078226 0.0430298
1100500000 0.0080071 0.0435354 0.9919929 -0.0435354 0.9919929 -0.0435354 0.0080071 0.0435354
1107750000 0.0082030 0.0440394 0.9917970 -0.0440394 0.9917970 -0.0440394 0.0082030 0.0440394
1115000000 0.0084109 0.0445417 0.9915891 -0.0445417 0.9915891 -0.0445417 0.0084109 0.0445417
1122250000 0.0086313 0.0450421 0.9913687 -0.0450421 0.9913687 -0.0450421 0.0086313 0.0450421
1129500000 0.0088648 0.0455406 0.9911352 -0.0455406 0.9911352 -0.0455406 0.0088648 0.0455406
1136750000 0.0091120 0.0460366 0.9908880 -0.0460366 0.9908880 -0.0460366 0.0091120 0.0460366
1144000000 0.0093737 0.0465298 0.9906263 -0.0465298 0.9906263 -0.0465298 0.0093737 0.0465298
1151250000 0.0096505 0.0470198 0.9903495 -0.0470198 0.9903495 -0.0470198 0.0096505 0.0470198
1158500000 0.0099433 0.0475058 0.9900567 -0.0475058 0.9900567 -0.0475058 0.0099433 0.0475058
1165750000 0.0102529 0.0479873 0.9897471 -0.0479873 0.9897471 -0.0479873 0.0102529 0.0479873
1173000000 0.0105802 0.0484632 0.9894198 -0.0484632 0.9894198 -0.0484632 0.0105802 0.0484632
1180250000 0.0109261 0.0489325 0.9890739 -0.0489325 0.9890739 -0.0489325 0.0109261 0.0489325
1187500000 0.0112915 0.0493940 0.9887085 -0.0493940 0.9887085 -0.0493940 0.0112915 0.0493940
1194750000 0.0116774 0.0498462 0.9883226 -0.0498462 0.9883226 -0.0498462 0.0116774 0.0498462
1202000000 0.0120846 0.0502876 0.9879154 -0.0502876 0.9879154 -0.0502876 0.0120846 0.0502876
1209250000 0.0125140 0.0507161 0.9874860 -0.0507161 0.9874860 -0.0507161 0.0125140 0.0507161
1216500000 0.0129663 0.0511295 0.9870337 -0.0511295 0.9870337 -0.0511295 0.0129663 0.0511295
1223750000 0.0134422 0.0515255 0.9865578 -0.0515255 0.9865578 -0.0515255 0.0134422 0.0515255
1231000000 0.0139421 0.0519011 0.9860579 -0.0519011 0.9860579 -0.0519011 0.0139421 0.0519011
1238250000 0.0144663 0.0522531 0.9855337 -0.0522531 0.9855337 -0.0522531 0.0144663 0.0522531
1245500000 0.0150145 0.0525782 0.9849855 -0.0525782 0.9849855 -0.0525782 0.0150145 0.0525782
1252750000 0.0155864 0.0528724 0.9844136 -0.0528724 0.9844136 -0.0528724 0.0155864 0.0528724
1260000000 0.0161808 0.0531317 0.9838192 -0.0531317 0.9838192 -0.0531317 0.0161808 0.0531317
1267250000 0.0167962 0.0533514 0.9832038 -0.0533514 0.9832038 -0.0533514 0.0167962 0.0533514
1274500000 0.0174301 0.0535271 0.9825699 -0.0535271 0.9825699 -0.0535271 0.0174301 0.0535271
1281750000 0.0180792 0.0536540 0.9819208 -0.0536540 0.9819208 -0.0536540 0.0180792 0.0536540
1289000000 0.0187395 0.0537273 0.9812605 -0.0537273 0.9812605 -0.0537273 0.0187395 0.0537273
1296250000 0.0194056 0.0537425 0.9805944 -0.0537425 0.9805944 -0.0537425 0.0194056 0.0537425
1303500000 0.0200710 0.0536957 0.9799290 -0.0536957 0.9799290 -0.0536957 0.0200710 0.0536957
1310750000 0.0207283 0.0535834 0.9792717 -0.0535834 0.9792717 -0.0535834 0.0207283 0.0535834
1318000000 0.0213688 0.0534035 0.9786312 -0.0534035 0.9786312 -0.0534035 0.0213688 0.0534035
1325250000 0.0219829 0.0531550 0.9780171 -0.0531550 0.9780171 -0.0531550 0.0219829 0.0531550
1332500000 0.0225603 0.0528385 0.9774397 -0.0528385 0.9774397 -0.0528385 0.0225603 0.0528385
1339750000 0.0230902 0.0524569 0.9769098 -0.0524569 0.9769098 -0.0524569 0.0230902 0.0524569
1347000000 0.0235620 0.0520149 0.9764380 -0.0520149 0.9764380 -0.0520149 0.0235620 0.0520149
1354250000 0.0239657 0.0515194 0.9760343 -0.0515194 0.9760343 -0.0515194 0.0239657 0.0515194
1361500000 0.0242922 0.0509797 0.9757078 -0.0509797 0.9757078 -0.0509797 0.0242922 0.0509797
1368750000 0.0245342 0.0504067 0.9754658 -0.0504067 0.9754658 -0.0504067 0.0245342 0.0504067
1376000000 0.0246866 0.0498130 0.9753134 -0.0498130 0.9753134 -0.0498130 0.0246866 0.0498130
1383250000 0.0247466 0.0492121 0.9752534 -0.0492121 0.9752534 -0.0492121 0.0247466 0.0492121
1390500000 0.0247144 0.0486177 0.9752856 -0.0486177 0.9752856 -0.0486177 0.0247144 0.0486177
1397750000 0.0245926 0.0480433 0.9754074 -0.0480433 0.9754074 -0.0480433 0.0245926 0.0480433
1405000000 0.0243864 0.0475014 0.9756136 -0.0475014 0.9756136 -0.0475014 0.0243864 0.0475014
1412250000 0.0241031 0.0470030 0.9758969 -0.0470030 0.9758969 -0.0470030 0.0241031 0.0470030
1419500000 0.0237516 0.0465572 0.9762484 -0.0465572 0.9762484 -0.0465572 0.0237516 0.0465572
1426750000 0.0233422 0.0461709 0.9766578 -0.0461709 0.9766578 -0.0461709 0.0233422 0.0461709
1434000000 0.0228854 0.0458490 0.9771146 -0.0458490 0.9771146 -0.0458490 0.0228854 0.0458490
1441250000 0.0223919 0.0455940 0.9776081 -0.0455940 0.9776081 -0.0455940 0.0223919 0.0455940
1448500000 0.0218720 0.0454066 0.9781280 -0.0454066 0.9781280 -0.0454066 0.0218720 0.0454066
1455750000 0.0213352 0.0452859 0.9786648 -0.0452859 0.9786648 -0.0452859 0.0213352 0.0452859
1463000000 0.0207903 0.0452296 0.9792097 -0.0452296 0.9792097 -0.0452296 0.0207903 0.0452296
1470250000 0.0202446 0.0452344 0.9797554 -0.0452344 0.9797554 -0.0452344 0.0202446 0.0452344
1477500000 0.0197045 0.0452962 0.9802955 -0.0452962 0.9802955 -0.0452962 0.0197045 0.0452962
1484750000 0.0191754 0.0454105 0.9808246 -0.0454105 0.9808246 -0.0454105 0.0191754 0.0454105
1492000000 0.0186614 0.0455726 0.9813386 -0.0455726 0.9813386 -0.0455726 0.0186614 0.0455726
1499250000 0.0181657 0.0457777 0.9818343 -0.0457777 0.9818343 -0.0457777 0.0181657 0.0457777
1506500000 0.0176907 0.0460213 0.9823093 -0.0460213 0.9823093 -0.0460213 0.0176907 0.0460213
1513750000 0.0172380 0.0462987 0.9827620 -0.0462987 0.9827620 -0.0462987 0.0172380 0.0462987
1521000000 0.0168087 0.0466059 0.9831913 -0.0466059 0.9831913 -0.0466059 0.0168087 0.0466059
1528250000 0.0164031 0.0469390 0.9835969 -0.0469390 0.9835969 -0.0469390 0.0164031 0.0469390
1535500000 0.0160216 0.0472944 0.9839784 -0.0472944 0.9839784 -0.0472944 0.0160216 0.0472944
1542750000 0.0156637 0.0476691 0.9843363 -0.0476691 0.9843363 -0.0476691 0.0156637 0.0476691
1550000000 0.0153291 0.0480600 0.9846709 -0.0480600 0.9846709 -0.0480600 0.0153291 0.0480600
1557250000 0.0150171 0.0484648 0.9849829 -0.0484648 0.9849829 -0.0484648 0.0150171 0.0484648
1564500000 0.0147269 0.0488810 0.9852731 -0.0488810 0.9852731 -0.0488810 0.0147269 0.0488810
1571750000 0.0144577 0.0493069 0.9855423 -0.0493069 0.9855423 -0.0493069 0.0144577 0.0493069
1579000000 0.0142085 0.0497406 0.9857915 -0.0497406 0.9857915 -0.0497406 0.0142085 0.0497406
1586250000 0.0139784 0.0501806 0.9860216 -0.0501806 0.9860216 -0.0501806 0.0139784 0.0501806
1593500000 0.0137665 0.0506256 0.9862335 -0.0506256 0.9862335 -0.0506256 0.0137665 0.0506256
1600750000 0.0135717 0.0510746 0.9864283 -0.0510746 0.9864283 -0.0510746 0.0135717 0.0510746
1608000000 0.0133932 0.0515265 0.9866068 -0.0515265 0.9866068 -0.0515265 0.0133932 0.0515265
1615250000 0.0132301 0.0519805 0.9867699 -0.0519805 0.9867699 -0.0519805 0.0132301 0.0519805
1622500000 0.0130816 0.0524359 0.9869184 -0.0524359 0.9869184 -0.0524359 0.0130816 0.0524359
1629750000 0.0129467 0.0528921 0.9870533 -0.0528921 0.9870533 -0.0528921 0.0129467 0.0528921
