!Murata Part Number: GRM42A7U3F180JW31
!These Parameters are Measured in Series Mode Connection
!Data Generated on Mar 30, 2021
!       o--ll--o
!Port1            Port2
!       o------o
!Operation Temp=25[degC], DC Bias Voltage=0[V]
!Freq. Start=100[MHz] Stop=3[GHz] 401[Steps]
# Hz S RI R 50
!Freq.(Hz) S11(Real) S11(Imag) S21(Real) S21(Imag) S12(Real) S12(Imag) S22(Real) S22(Imag)
100000000 0.4408721 -0.4904199 0.5591279 0.4904199 0.5591279 0.4904199 0.4408721 -0.4904199
107250000 0.4069815 -0.4851251 0.5930185 0.4851251 0.5930185 0.4851251 0.4069815 -0.4851251
114500000 0.3760257 -0.4781900 0.6239743 0.4781900 0.6239743 0.4781900 0.3760257 -0.4781900
121750000 0.3477987 -0.4700444 0.6522013 0.4700444 0.6522013 0.4700444 0.3477987 -0.4700444
129000000 0.3220831 -0.4610322 0.6779169 0.4610322 0.6779169 0.4610322 0.3220831 -0.4610322
136250000 0.2986617 -0.4514258 0.7013383 0.4514258 0.7013383 0.4514258 0.2986617 -0.4514258
143500000 0.2773254 -0.4414396 0.7226746 0.4414396 0.7226746 0.4414396 0.2773254 -0.4414396
150750000 0.2578775 -0.4312408 0.7421225 0.4312408 0.7421225 0.4312408 0.2578775 -0.4312408
158000000 0.2401357 -0.4209588 0.7598643 0.4209588 0.7598643 0.4209588 0.2401357 -0.4209588
165250000 0.2239333 -0.4106928 0.7760667 0.4106928 0.7760667 0.4106928 0.2239333 -0.4106928
172500000 0.2091188 -0.4005182 0.7908812 0.4005182 0.7908812 0.4005182 0.2091188 -0.4005182
179750000 0.1955554 -0.3904911 0.8044446 0.3904911 0.8044446 0.3904911 0.1955554 -0.3904911
187000000 0.1831200 -0.3806532 0.8168800 0.3806532 0.8168800 0.3806532 0.1831200 -0.3806532
194250000 0.1717022 -0.3710338 0.8282978 0.3710338 0.8282978 0.3710338 0.1717022 -0.3710338
201500000 0.1612033 -0.3616536 0.8387967 0.3616536 0.8387967 0.3616536 0.1612033 -0.3616536
208750000 0.1515349 -0.3525257 0.8484651 0.3525257 0.8484651 0.3525257 0.1515349 -0.3525257
216000000 0.1426178 -0.3436579 0.8573822 0.3436579 0.8573822 0.3436579 0.1426178 -0.3436579
223250000 0.1343815 -0.3350535 0.8656185 0.3350535 0.8656185 0.3350535 0.1343815 -0.3350535
230500000 0.1267626 -0.3267126 0.8732374 0.3267126 0.8732374 0.3267126 0.1267626 -0.3267126
237750000 0.1197048 -0.3186329 0.8802952 0.3186329 0.8802952 0.3186329 0.1197048 -0.3186329
245000000 0.1131573 -0.3108100 0.8868427 0.3108100 0.8868427 0.3108100 0.1131573 -0.3108100
252250000 0.1070747 -0.3032383 0.8929253 0.3032383 0.8929253 0.3032383 0.1070747 -0.3032383
259500000 0.1014162 -0.2959112 0.8985838 0.2959112 0.8985838 0.2959112 0.1014162 -0.2959112
266750000 0.0961453 -0.2888214 0.9038547 0.2888214 0.9038547 0.2888214 0.0961453 -0.2888214
274000000 0.0912290 -0.2819612 0.9087710 0.2819612 0.9087710 0.2819612 0.0912290 -0.2819612
281250000 0.0866377 -0.2753225 0.9133623 0.2753225 0.9133623 0.2753225 0.0866377 -0.2753225
288500000 0.0823445 -0.2688972 0.9176555 0.2688972 0.9176555 0.2688972 0.0823445 -0.2688972
295750000 0.0783254 -0.2626773 0.9216746 0.2626773 0.9216746 0.2626773 0.0783254 -0.2626773
303000000 0.0745585 -0.2566546 0.9254415 0.2566546 0.9254415 0.2566546 0.0745585 -0.2566546
310250000 0.0710239 -0.2508213 0.9289761 0.2508213 0.9289761 0.2508213 0.0710239 -0.2508213
317500000 0.0677038 -0.2451696 0.9322962 0.2451696 0.9322962 0.2451696 0.0677038 -0.2451696
324750000 0.0645817 -0.2396921 0.9354183 0.2396921 0.9354183 0.2396921 0.0645817 -0.2396921
332000000 0.0616430 -0.2343815 0.9383570 0.2343815 0.9383570 0.2343815 0.0616430 -0.2343815
339250000 0.0588740 -0.2292309 0.9411260 0.2292309 0.9411260 0.2292309 0.0588740 -0.2292309
346500000 0.0562625 -0.2242335 0.9437375 0.2242335 0.9437375 0.2242335 0.0562625 -0.2242335
353750000 0.0537972 -0.2193829 0.9462028 0.2193829 0.9462028 0.2193829 0.0537972 -0.2193829
361000000 0.0514679 -0.2146729 0.9485321 0.2146729 0.9485321 0.2146729 0.0514679 -0.2146729
368250000 0.0492650 -0.2100975 0.9507350 0.2100975 0.9507350 0.2100975 0.0492650 -0.2100975
375500000 0.0471801 -0.2056512 0.9528199 0.2056512 0.9528199 0.2056512 0.0471801 -0.2056512
382750000 0.0452052 -0.2013285 0.9547948 0.2013285 0.9547948 0.2013285 0.0452052 -0.2013285
390000000 0.0433329 -0.1971244 0.9566671 0.1971244 0.9566671 0.1971244 0.0433329 -0.1971244
397250000 0.0415567 -0.1930338 0.9584433 0.1930338 0.9584433 0.1930338 0.0415567 -0.1930338
404500000 0.0398702 -0.1890521 0.9601298 0.1890521 0.9601298 0.1890521 0.0398702 -0.1890521
411750000 0.0382680 -0.1851749 0.9617320 0.1851749 0.9617320 0.1851749 0.0382680 -0.1851749
419000000 0.0367446 -0.1813980 0.9632554 0.1813980 0.9632554 0.1813980 0.0367446 -0.1813980
426250000 0.0352953 -0.1777171 0.9647047 0.1777171 0.9647047 0.1777171 0.0352953 -0.1777171
433500000 0.0339156 -0.1741286 0.9660844 0.1741286 0.9660844 0.1741286 0.0339156 -0.1741286
440750000 0.0326012 -0.1706288 0.9673988 0.1706288 0.9673988 0.1706288 0.0326012 -0.1706288
448000000 0.0313484 -0.1672140 0.9686516 0.1672140 0.9686516 0.1672140 0.0313484 -0.1672140
455250000 0.0301536 -0.1638811 0.9698464 0.1638811 0.9698464 0.1638811 0.0301536 -0.1638811
462500000 0.0290135 -0.1606269 0.9709865 0.1606269 0.9709865 0.1606269 0.0290135 -0.1606269
469750000 0.0279249 -0.1574482 0.9720751 0.1574482 0.9720751 0.1574482 0.0279249 -0.1574482
477000000 0.0268850 -0.1543423 0.9731150 0.1543423 0.9731150 0.1543423 0.0268850 -0.1543423
484250000 0.0258911 -0.1513064 0.9741089 0.1513064 0.9741089 0.1513064 0.0258911 -0.1513064
491500000 0.0249407 -0.1483379 0.9750593 0.1483379 0.9750593 0.1483379 0.0249407 -0.1483379
498750000 0.0240315 -0.1454342 0.9759685 0.1454342 0.9759685 0.1454342 0.0240315 -0.1454342
506000000 0.0231613 -0.1425929 0.9768387 0.1425929 0.9768387 0.1425929 0.0231613 -0.1425929
513250000 0.0223281 -0.1398119 0.9776719 0.1398119 0.9776719 0.1398119 0.0223281 -0.1398119
520500000 0.0215300 -0.1370889 0.9784700 0.1370889 0.9784700 0.1370889 0.0215300 -0.1370889
527750000 0.0207651 -0.1344219 0.9792349 0.1344219 0.9792349 0.1344219 0.0207651 -0.1344219
535000000 0.0200319 -0.1318088 0.9799681 0.1318088 0.9799681 0.1318088 0.0200319 -0.1318088
542250000 0.0193287 -0.1292478 0.9806713 0.1292478 0.9806713 0.1292478 0.0193287 -0.1292478
549500000 0.0186541 -0.1267371 0.9813459 0.1267371 0.9813459 0.1267371 0.0186541 -0.1267371
556750000 0.0180067 -0.1242748 0.9819933 0.1242748 0.9819933 0.1242748 0.0180067 -0.1242748
564000000 0.0173852 -0.1218595 0.9826148 0.1218595 0.9826148 0.1218595 0.0173852 -0.1218595
571250000 0.0167884 -0.1194894 0.9832116 0.1194894 0.9832116 0.1194894 0.0167884 -0.1194894
578500000 0.0162151 -0.1171630 0.9837849 0.1171630 0.9837849 0.1171630 0.0162151 -0.1171630
585750000 0.0156642 -0.1148790 0.9843358 0.1148790 0.9843358 0.1148790 0.0156642 -0.1148790
593000000 0.0151348 -0.1126359 0.9848652 0.1126359 0.9848652 0.1126359 0.0151348 -0.1126359
600250000 0.0146258 -0.1104323 0.9853742 0.1104323 0.9853742 0.1104323 0.0146258 -0.1104323
607500000 0.0141364 -0.1082670 0.9858636 0.1082670 0.9858636 0.1082670 0.0141364 -0.1082670
614750000 0.0136657 -0.1061388 0.9863343 0.1061388 0.9863343 0.1061388 0.0136657 -0.1061388
622000000 0.0132129 -0.1040464 0.9867871 0.1040464 0.9867871 0.1040464 0.0132129 -0.1040464
629250000 0.0127773 -0.1019888 0.9872227 0.1019888 0.9872227 0.1019888 0.0127773 -0.1019888
636500000 0.0123580 -0.0999649 0.9876420 0.0999649 0.9876420 0.0999649 0.0123580 -0.0999649
643750000 0.0119544 -0.0979736 0.9880456 0.0979736 0.9880456 0.0979736 0.0119544 -0.0979736
651000000 0.0115659 -0.0960138 0.9884341 0.0960138 0.9884341 0.0960138 0.0115659 -0.0960138
658250000 0.0111919 -0.0940848 0.9888081 0.0940848 0.9888081 0.0940848 0.0111919 -0.0940848
665500000 0.0108317 -0.0921855 0.9891683 0.0921855 0.9891683 0.0921855 0.0108317 -0.0921855
672750000 0.0104849 -0.0903150 0.9895151 0.0903150 0.9895151 0.0903150 0.0104849 -0.0903150
680000000 0.0101508 -0.0884724 0.9898492 0.0884724 0.9898492 0.0884724 0.0101508 -0.0884724
687250000 0.0098290 -0.0866571 0.9901710 0.0866571 0.9901710 0.0866571 0.0098290 -0.0866571
694500000 0.0095191 -0.0848681 0.9904809 0.0848681 0.9904809 0.0848681 0.0095191 -0.0848681
701750000 0.0092205 -0.0831047 0.9907795 0.0831047 0.9907795 0.0831047 0.0092205 -0.0831047
709000000 0.0089328 -0.0813661 0.9910672 0.0813661 0.9910672 0.0813661 0.0089328 -0.0813661
716250000 0.0086557 -0.0796517 0.9913443 0.0796517 0.9913443 0.0796517 0.0086557 -0.0796517
723500000 0.0083888 -0.0779608 0.9916112 0.0779608 0.9916112 0.0779608 0.0083888 -0.0779608
730750000 0.0081316 -0.0762927 0.9918684 0.0762927 0.9918684 0.0762927 0.0081316 -0.0762927
738000000 0.0078838 -0.0746468 0.9921162 0.0746468 0.9921162 0.0746468 0.0078838 -0.0746468
745250000 0.0076451 -0.0730224 0.9923549 0.0730224 0.9923549 0.0730224 0.0076451 -0.0730224
752500000 0.0074152 -0.0714190 0.9925848 0.0714190 0.9925848 0.0714190 0.0074152 -0.0714190
759750000 0.0071937 -0.0698360 0.9928063 0.0698360 0.9928063 0.0698360 0.0071937 -0.0698360
767000000 0.0069804 -0.0682728 0.9930196 0.0682728 0.9930196 0.0682728 0.0069804 -0.0682728
774250000 0.0067750 -0.0667290 0.9932250 0.0667290 0.9932250 0.0667290 0.0067750 -0.0667290
781500000 0.0065772 -0.0652040 0.9934228 0.0652040 0.9934228 0.0652040 0.0065772 -0.0652040
788750000 0.0063869 -0.0636973 0.9936131 0.0636973 0.9936131 0.0636973 0.0063869 -0.0636973
796000000 0.0062036 -0.0622084 0.9937964 0.0622084 0.9937964 0.0622084 0.0062036 -0.0622084
803250000 0.0060272 -0.0607368 0.9939728 0.0607368 0.9939728 0.0607368 0.0060272 -0.0607368
810500000 0.0058575 -0.0592822 0.9941425 0.0592822 0.9941425 0.0592822 0.0058575 -0.0592822
817750000 0.0056943 -0.0578441 0.9943057 0.0578441 0.9943057 0.0578441 0.0056943 -0.0578441
825000000 0.0055374 -0.0564220 0.9944626 0.0564220 0.9944626 0.0564220 0.0055374 -0.0564220
832250000 0.0053865 -0.0550155 0.9946135 0.0550155 0.9946135 0.0550155 0.0053865 -0.0550155
839500000 0.0052415 -0.0536244 0.9947585 0.0536244 0.9947585 0.0536244 0.0052415 -0.0536244
846750000 0.0051021 -0.0522481 0.9948979 0.0522481 0.9948979 0.0522481 0.0051021 -0.0522481
854000000 0.0049684 -0.0508863 0.9950316 0.0508863 0.9950316 0.0508863 0.0049684 -0.0508863
861250000 0.0048400 -0.0495386 0.9951600 0.0495386 0.9951600 0.0495386 0.0048400 -0.0495386
868500000 0.0047168 -0.0482048 0.9952832 0.0482048 0.9952832 0.0482048 0.0047168 -0.0482048
875750000 0.0045986 -0.0468844 0.9954014 0.0468844 0.9954014 0.0468844 0.0045986 -0.0468844
883000000 0.0044854 -0.0455771 0.9955146 0.0455771 0.9955146 0.0455771 0.0044854 -0.0455771
890250000 0.0043770 -0.0442827 0.9956230 0.0442827 0.9956230 0.0442827 0.0043770 -0.0442827
897500000 0.0042732 -0.0430008 0.9957268 0.0430008 0.9957268 0.0430008 0.0042732 -0.0430008
904750000 0.0041739 -0.0417311 0.9958261 0.0417311 0.9958261 0.0417311 0.0041739 -0.0417311
912000000 0.0040790 -0.0404733 0.9959210 0.0404733 0.9959210 0.0404733 0.0040790 -0.0404733
919250000 0.0039883 -0.0392272 0.9960117 0.0392272 0.9960117 0.0392272 0.0039883 -0.0392272
926500000 0.0039019 -0.0379925 0.9960981 0.0379925 0.9960981 0.0379925 0.0039019 -0.0379925
933750000 0.0038195 -0.0367689 0.9961805 0.0367689 0.9961805 0.0367689 0.0038195 -0.0367689
941000000 0.0037410 -0.0355561 0.9962590 0.0355561 0.9962590 0.0355561 0.0037410 -0.0355561
948250000 0.0036664 -0.0343539 0.9963336 0.0343539 0.9963336 0.0343539 0.0036664 -0.0343539
955500000 0.0035955 -0.0331621 0.9964045 0.0331621 0.9964045 0.0331621 0.0035955 -0.0331621
962750000 0.0035282 -0.0319804 0.9964718 0.0319804 0.9964718 0.0319804 0.0035282 -0.0319804
970000000 0.0034646 -0.0308086 0.9965354 0.0308086 0.9965354 0.0308086 0.0034646 -0.0308086
977250000 0.0034044 -0.0296465 0.9965956 0.0296465 0.9965956 0.0296465 0.0034044 -0.0296465
984500000 0.0033476 -0.0284938 0.9966524 0.0284938 0.9966524 0.0284938 0.0033476 -0.0284938
991750000 0.0032941 -0.0273504 0.9967059 0.0273504 0.9967059 0.0273504 0.0032941 -0.0273504
999000000 0.0032438 -0.0262161 0.9967562 0.0262161 0.9967562 0.0262161 0.0032438 -0.0262161
1006250000 0.0031967 -0.0250905 0.9968033 0.0250905 0.9968033 0.0250905 0.0031967 -0.0250905
1013500000 0.0031527 -0.0239736 0.9968473 0.0239736 0.9968473 0.0239736 0.0031527 -0.0239736
1020750000 0.0031117 -0.0228652 0.9968883 0.0228652 0.9968883 0.0228652 0.0031117 -0.0228652
1028000000 0.0030736 -0.0217650 0.9969264 0.0217650 0.9969264 0.0217650 0.0030736 -0.0217650
1035250000 0.0030385 -0.0206730 0.9969615 0.0206730 0.9969615 0.0206730 0.0030385 -0.0206730
1042500000 0.0030061 -0.0195888 0.9969939 0.0195888 0.9969939 0.0195888 0.0030061 -0.0195888
1049750000 0.0029766 -0.0185124 0.9970234 0.0185124 0.9970234 0.0185124 0.0029766 -0.0185124
1057000000 0.0029497 -0.0174436 0.9970503 0.0174436 0.9970503 0.0174436 0.0029497 -0.0174436
1064250000 0.0029255 -0.0163822 0.9970745 0.0163822 0.9970745 0.0163822 0.0029255 -0.0163822
1071500000 0.0029038 -0.0153280 0.9970962 0.0153280 0.9970962 0.0153280 0.0029038 -0.0153280
1078750000 0.0028847 -0.0142810 0.9971153 0.0142810 0.9971153 0.0142810 0.0028847 -0.0142810
1086000000 0.0028682 -0.0132409 0.9971318 0.0132409 0.9971318 0.0132409 0.0028682 -0.0132409
1093250000 0.0028540 -0.0122076 0.9971460 0.0122076 0.9971460 0.0122076 0.0028540 -0.0122076
1100500000 0.0028423 -0.0111810 0.9971577 0.0111810 0.9971577 0.0111810 0.0028423 -0.0111810
1107750000 0.0028329 -0.0101609 0.9971671 0.0101609 0.9971671 0.0101609 0.0028329 -0.0101609
1115000000 0.0028258 -0.0091472 0.9971742 0.0091472 0.9971742 0.0091472 0.0028258 -0.0091472
1122250000 0.0028209 -0.0081397 0.9971791 0.0081397 0.9971791 0.0081397 0.0028209 -0.0081397
1129500000 0.0028184 -0.0071384 0.9971816 0.0071384 0.9971816 0.0071384 0.0028184 -0.0071384
1136750000 0.0028179 -0.0061431 0.9971821 0.0061431 0.9971821 0.0061431 0.0028179 -0.0061431
1144000000 0.0028197 -0.0051537 0.9971803 0.0051537 0.9971803 0.0051537 0.0028197 -0.0051537
1151250000 0.0028235 -0.0041700 0.9971765 0.0041700 0.9971765 0.0041700 0.0028235 -0.0041700
1158500000 0.0028295 -0.0031919 0.9971705 0.0031919 0.9971705 0.0031919 0.0028295 -0.0031919
1165750000 0.0028374 -0.0022194 0.9971626 0.0022194 0.9971626 0.0022194 0.0028374 -0.0022194
1173000000 0.0028474 -0.0012522 0.9971526 0.0012522 0.9971526 0.0012522 0.0028474 -0.0012522
1180250000 0.0028594 -0.0002904 0.9971406 0.0002904 0.9971406 0.0002904 0.0028594 -0.0002904
1187500000 0.0028733 0.0006663 0.9971267 -0.0006663 0.9971267 -0.0006663 0.0028733 0.0006663
1194750000 0.0028891 0.0016178 0.9971109 -0.0016178 0.9971109 -0.0016178 0.0028891 0.0016178
1202000000 0.0029068 0.0025644 0.9970932 -0.0025644 0.9970932 -0.0025644 0.0029068 0.0025644
1209250000 0.0029264 0.0035062 0.9970736 -0.0035062 0.9970736 -0.0035062 0.0029264 0.0035062
1216500000 0.0029478 0.0044431 0.9970522 -0.0044431 0.9970522 -0.0044431 0.0029478 0.0044431
1223750000 0.0029710 0.0053754 0.9970290 -0.0053754 0.9970290 -0.0053754 0.0029710 0.0053754
1231000000 0.0029960 0.0063030 0.9970040 -0.0063030 0.9970040 -0.0063030 0.0029960 0.0063030
1238250000 0.0030228 0.0072262 0.9969772 -0.0072262 0.9969772 -0.0072262 0.0030228 0.0072262
1245500000 0.0030513 0.0081450 0.9969487 -0.0081450 0.9969487 -0.0081450 0.0030513 0.0081450
1252750000 0.0030815 0.0090595 0.9969185 -0.0090595 0.9969185 -0.0090595 0.0030815 0.0090595
1260000000 0.0031134 0.0099697 0.9968866 -0.0099697 0.9968866 -0.0099697 0.0031134 0.0099697
1267250000 0.0031470 0.0108758 0.9968530 -0.0108758 0.9968530 -0.0108758 0.0031470 0.0108758
1274500000 0.0031822 0.0117779 0.9968178 -0.0117779 0.9968178 -0.0117779 0.0031822 0.0117779
1281750000 0.0032190 0.0126759 0.9967810 -0.0126759 0.9967810 -0.0126759 0.0032190 0.0126759
1289000000 0.0032575 0.0135701 0.9967425 -0.0135701 0.9967425 -0.0135701 0.0032575 0.0135701
1296250000 0.0032976 0.0144605 0.9967024 -0.0144605 0.9967024 -0.0144605 0.0032976 0.0144605
1303500000 0.0033392 0.0153471 0.9966608 -0.0153471 0.9966608 -0.0153471 0.0033392 0.0153471
1310750000 0.0033824 0.0162301 0.9966176 -0.0162301 0.9966176 -0.0162301 0.0033824 0.0162301
1318000000 0.0034271 0.0171095 0.9965729 -0.0171095 0.9965729 -0.0171095 0.0034271 0.0171095
1325250000 0.0034734 0.0179854 0.9965266 -0.0179854 0.9965266 -0.0179854 0.0034734 0.0179854
1332500000 0.0035212 0.0188578 0.9964788 -0.0188578 0.9964788 -0.0188578 0.0035212 0.0188578
1339750000 0.0035705 0.0197269 0.9964295 -0.0197269 0.9964295 -0.0197269 0.0035705 0.0197269
1347000000 0.0036212 0.0205927 0.9963788 -0.0205927 0.9963788 -0.0205927 0.0036212 0.0205927
1354250000 0.0036735 0.0214552 0.9963265 -0.0214552 0.9963265 -0.0214552 0.0036735 0.0214552
1361500000 0.0037271 0.0223146 0.9962729 -0.0223146 0.9962729 -0.0223146 0.0037271 0.0223146
1368750000 0.0037823 0.0231709 0.9962177 -0.0231709 0.9962177 -0.0231709 0.0037823 0.0231709
1376000000 0.0038389 0.0240241 0.9961611 -0.0240241 0.9961611 -0.0240241 0.0038389 0.0240241
1383250000 0.0038969 0.0248744 0.9961031 -0.0248744 0.9961031 -0.0248744 0.0038969 0.0248744
1390500000 0.0039563 0.0257217 0.9960437 -0.0257217 0.9960437 -0.0257217 0.0039563 0.0257217
1397750000 0.0040171 0.0265662 0.9959829 -0.0265662 0.9959829 -0.0265662 0.0040171 0.0265662
1405000000 0.0040793 0.0274079 0.9959207 -0.0274079 0.9959207 -0.0274079 0.0040793 0.0274079
1412250000 0.0041428 0.0282469 0.9958572 -0.0282469 0.9958572 -0.0282469 0.0041428 0.0282469
1419500000 0.0042078 0.0290832 0.9957922 -0.0290832 0.9957922 -0.0290832 0.0042078 0.0290832
1426750000 0.0042741 0.0299169 0.9957259 -0.0299169 0.9957259 -0.0299169 0.0042741 0.0299169
1434000000 0.0043418 0.0307480 0.9956582 -0.0307480 0.9956582 -0.0307480 0.0043418 0.0307480
1441250000 0.0044108 0.0315767 0.9955892 -0.0315767 0.9955892 -0.0315767 0.0044108 0.0315767
1448500000 0.0044812 0.0324028 0.9955188 -0.0324028 0.9955188 -0.0324028 0.0044812 0.0324028
1455750000 0.0045529 0.0332266 0.9954471 -0.0332266 0.9954471 -0.0332266 0.0045529 0.0332266
1463000000 0.0046259 0.0340480 0.9953741 -0.0340480 0.9953741 -0.0340480 0.0046259 0.0340480
1470250000 0.0047002 0.0348672 0.9952998 -0.0348672 0.9952998 -0.0348672 0.0047002 0.0348672
1477500000 0.0047759 0.0356841 0.9952241 -0.0356841 0.9952241 -0.0356841 0.0047759 0.0356841
1484750000 0.0048528 0.0364988 0.9951472 -0.0364988 0.9951472 -0.0364988 0.0048528 0.0364988
1492000000 0.0049311 0.0373114 0.9950689 -0.0373114 0.9950689 -0.0373114 0.0049311 0.0373114
1499250000 0.0050106 0.0381218 0.9949894 -0.0381218 0.9949894 -0.0381218 0.0050106 0.0381218
1506500000 0.0050915 0.0389303 0.9949085 -0.0389303 0.9949085 -0.0389303 0.0050915 0.0389303
1513750000 0.0051736 0.0397367 0.9948264 -0.0397367 0.9948264 -0.0397367 0.0051736 0.0397367
1521000000 0.0052571 0.0405412 0.9947429 -0.0405412 0.9947429 -0.0405412 0.0052571 0.0405412
1528250000 0.0053418 0.0413438 0.9946582 -0.0413438 0.9946582 -0.0413438 0.0053418 0.0413438
1535500000 0.0054277 0.0421445 0.9945723 -0.0421445 0.9945723 -0.0421445 0.0054277 0.0421445
1542750000 0.0055150 0.0429434 0.9944850 -0.0429434 0.9944850 -0.0429434 0.0055150 0.0429434
1550000000 0.0056035 0.0437405 0.9943965 -0.0437405 0.9943965 -0.0437405 0.0056035 0.0437405
1557250000 0.0056933 0.0445359 0.9943067 -0.0445359 0.9943067 -0.0445359 0.0056933 0.0445359
1564500000 0.0057843 0.0453296 0.9942157 -0.0453296 0.9942157 -0.0453296 0.0057843 0.0453296
1571750000 0.0058767 0.0461217 0.9941233 -0.0461217 0.9941233 -0.0461217 0.0058767 0.0461217
1579000000 0.0059702 0.0469122 0.9940298 -0.0469122 0.9940298 -0.0469122 0.0059702 0.0469122
1586250000 0.0060651 0.0477011 0.9939349 -0.0477011 0.9939349 -0.0477011 0.0060651 0.0477011
1593500000 0.0061612 0.0484885 0.9938388 -0.0484885 0.9938388 -0.0484885 0.0061612 0.0484885
1600750000 0.0062585 0.0492744 0.9937415 -0.0492744 0.9937415 -0.0492744 0.0062585 0.0492744
1608000000 0.0063571 0.0500589 0.9936429 -0.0500589 0.9936429 -0.0500589 0.0063571 0.0500589
1615250000 0.0064570 0.0508420 0.9935430 -0.0508420 0.9935430 -0.0508420 0.0064570 0.0508420
1622500000 0.0065581 0.0516237 0.9934419 -0.0516237 0.9934419 -0.0516237 0.0065581 0.0516237
1629750000 0.0066605 0.0524041 0.9933395 -0.0524041 0.9933395 -0.0524041 0.0066605 0.0524041
