!Murata Part Number: GRM42A7U3F470JW31
!These Parameters are Measured in Series Mode Connection
!Data Generated on Mar 30, 2021
!       o--ll--o
!Port1            Port2
!       o------o
!Operation Temp=25[degC], DC Bias Voltage=0[V]
!Freq. Start=100[MHz] Stop=3[GHz] 401[Steps]
# Hz S RI R 50
!Freq.(Hz) S11(Real) S11(Imag) S21(Real) S21(Imag) S12(Real) S12(Imag) S22(Real) S22(Imag)
100000000 0.1005937 -0.2985733 0.8994063 0.2985733 0.8994063 0.2985733 0.1005937 -0.2985733
107250000 0.0883353 -0.2813967 0.9116647 0.2813967 0.9116647 0.2813967 0.0883353 -0.2813967
114500000 0.0780819 -0.2657450 0.9219181 0.2657450 0.9219181 0.2657450 0.0780819 -0.2657450
121750000 0.0694309 -0.2514580 0.9305691 0.2514580 0.9305691 0.2514580 0.0694309 -0.2514580
129000000 0.0620730 -0.2383866 0.9379270 0.2383866 0.9379270 0.2383866 0.0620730 -0.2383866
136250000 0.0557685 -0.2263966 0.9442315 0.2263966 0.9442315 0.2263966 0.0557685 -0.2263966
143500000 0.0503295 -0.2153682 0.9496705 0.2153682 0.9496705 0.2153682 0.0503295 -0.2153682
150750000 0.0456076 -0.2051961 0.9543924 0.2051961 0.9543924 0.2051961 0.0456076 -0.2051961
158000000 0.0414842 -0.1957878 0.9585158 0.1957878 0.9585158 0.1957878 0.0414842 -0.1957878
165250000 0.0378641 -0.1870624 0.9621359 0.1870624 0.9621359 0.1870624 0.0378641 -0.1870624
172500000 0.0346699 -0.1789488 0.9653301 0.1789488 0.9653301 0.1789488 0.0346699 -0.1789488
179750000 0.0318385 -0.1713849 0.9681615 0.1713849 0.9681615 0.1713849 0.0318385 -0.1713849
187000000 0.0293178 -0.1643163 0.9706822 0.1643163 0.9706822 0.1643163 0.0293178 -0.1643163
194250000 0.0270647 -0.1576948 0.9729353 0.1576948 0.9729353 0.1576948 0.0270647 -0.1576948
201500000 0.0250433 -0.1514784 0.9749567 0.1514784 0.9749567 0.1514784 0.0250433 -0.1514784
208750000 0.0232234 -0.1456296 0.9767766 0.1456296 0.9767766 0.1456296 0.0232234 -0.1456296
216000000 0.0215797 -0.1401155 0.9784203 0.1401155 0.9784203 0.1401155 0.0215797 -0.1401155
223250000 0.0200905 -0.1349065 0.9799095 0.1349065 0.9799095 0.1349065 0.0200905 -0.1349065
230500000 0.0187375 -0.1299768 0.9812625 0.1299768 0.9812625 0.1299768 0.0187375 -0.1299768
237750000 0.0175049 -0.1253028 0.9824951 0.1253028 0.9824951 0.1253028 0.0175049 -0.1253028
245000000 0.0163793 -0.1208638 0.9836207 0.1208638 0.9836207 0.1208638 0.0163793 -0.1208638
252250000 0.0153489 -0.1166410 0.9846511 0.1166410 0.9846511 0.1166410 0.0153489 -0.1166410
259500000 0.0144035 -0.1126176 0.9855965 0.1126176 0.9855965 0.1126176 0.0144035 -0.1126176
266750000 0.0135345 -0.1087785 0.9864655 0.1087785 0.9864655 0.1087785 0.0135345 -0.1087785
274000000 0.0127340 -0.1051100 0.9872660 0.1051100 0.9872660 0.1051100 0.0127340 -0.1051100
281250000 0.0119953 -0.1015996 0.9880047 0.1015996 0.9880047 0.1015996 0.0119953 -0.1015996
288500000 0.0113125 -0.0982361 0.9886875 0.0982361 0.9886875 0.0982361 0.0113125 -0.0982361
295750000 0.0106803 -0.0950093 0.9893197 0.0950093 0.9893197 0.0950093 0.0106803 -0.0950093
303000000 0.0100941 -0.0919099 0.9899059 0.0919099 0.9899059 0.0919099 0.0100941 -0.0919099
310250000 0.0095498 -0.0889293 0.9904502 0.0889293 0.9904502 0.0889293 0.0095498 -0.0889293
317500000 0.0090437 -0.0860599 0.9909563 0.0860599 0.9909563 0.0860599 0.0090437 -0.0860599
324750000 0.0085726 -0.0832944 0.9914274 0.0832944 0.9914274 0.0832944 0.0085726 -0.0832944
332000000 0.0081335 -0.0806263 0.9918665 0.0806263 0.9918665 0.0806263 0.0081335 -0.0806263
339250000 0.0077237 -0.0780496 0.9922763 0.0780496 0.9922763 0.0780496 0.0077237 -0.0780496
346500000 0.0073411 -0.0755589 0.9926589 0.0755589 0.9926589 0.0755589 0.0073411 -0.0755589
353750000 0.0069834 -0.0731489 0.9930166 0.0731489 0.9930166 0.0731489 0.0069834 -0.0731489
361000000 0.0066487 -0.0708150 0.9933513 0.0708150 0.9933513 0.0708150 0.0066487 -0.0708150
368250000 0.0063353 -0.0685529 0.9936647 0.0685529 0.9936647 0.0685529 0.0063353 -0.0685529
375500000 0.0060417 -0.0663584 0.9939583 0.0663584 0.9939583 0.0663584 0.0060417 -0.0663584
382750000 0.0057663 -0.0642278 0.9942337 0.0642278 0.9942337 0.0642278 0.0057663 -0.0642278
390000000 0.0055080 -0.0621577 0.9944920 0.0621577 0.9944920 0.0621577 0.0055080 -0.0621577
397250000 0.0052656 -0.0601449 0.9947344 0.0601449 0.9947344 0.0601449 0.0052656 -0.0601449
404500000 0.0050379 -0.0581862 0.9949621 0.0581862 0.9949621 0.0581862 0.0050379 -0.0581862
411750000 0.0048240 -0.0562790 0.9951760 0.0562790 0.9951760 0.0562790 0.0048240 -0.0562790
419000000 0.0046230 -0.0544206 0.9953770 0.0544206 0.9953770 0.0544206 0.0046230 -0.0544206
426250000 0.0044340 -0.0526085 0.9955660 0.0526085 0.9955660 0.0526085 0.0044340 -0.0526085
433500000 0.0042564 -0.0508404 0.9957436 0.0508404 0.9957436 0.0508404 0.0042564 -0.0508404
440750000 0.0040894 -0.0491143 0.9959106 0.0491143 0.9959106 0.0491143 0.0040894 -0.0491143
448000000 0.0039324 -0.0474281 0.9960676 0.0474281 0.9960676 0.0474281 0.0039324 -0.0474281
455250000 0.0037847 -0.0457798 0.9962153 0.0457798 0.9962153 0.0457798 0.0037847 -0.0457798
462500000 0.0036460 -0.0441678 0.9963540 0.0441678 0.9963540 0.0441678 0.0036460 -0.0441678
469750000 0.0035155 -0.0425904 0.9964845 0.0425904 0.9964845 0.0425904 0.0035155 -0.0425904
477000000 0.0033930 -0.0410460 0.9966070 0.0410460 0.9966070 0.0410460 0.0033930 -0.0410460
484250000 0.0032779 -0.0395332 0.9967221 0.0395332 0.9967221 0.0395332 0.0032779 -0.0395332
491500000 0.0031699 -0.0380504 0.9968301 0.0380504 0.9968301 0.0380504 0.0031699 -0.0380504
498750000 0.0030685 -0.0365965 0.9969315 0.0365965 0.9969315 0.0365965 0.0030685 -0.0365965
506000000 0.0029735 -0.0351702 0.9970265 0.0351702 0.9970265 0.0351702 0.0029735 -0.0351702
513250000 0.0028845 -0.0337703 0.9971155 0.0337703 0.9971155 0.0337703 0.0028845 -0.0337703
520500000 0.0028013 -0.0323956 0.9971987 0.0323956 0.9971987 0.0323956 0.0028013 -0.0323956
527750000 0.0027234 -0.0310453 0.9972766 0.0310453 0.9972766 0.0310453 0.0027234 -0.0310453
535000000 0.0026508 -0.0297182 0.9973492 0.0297182 0.9973492 0.0297182 0.0026508 -0.0297182
542250000 0.0025831 -0.0284134 0.9974169 0.0284134 0.9974169 0.0284134 0.0025831 -0.0284134
549500000 0.0025202 -0.0271301 0.9974798 0.0271301 0.9974798 0.0271301 0.0025202 -0.0271301
556750000 0.0024617 -0.0258673 0.9975383 0.0258673 0.9975383 0.0258673 0.0024617 -0.0258673
564000000 0.0024076 -0.0246243 0.9975924 0.0246243 0.9975924 0.0246243 0.0024076 -0.0246243
571250000 0.0023576 -0.0234003 0.9976424 0.0234003 0.9976424 0.0234003 0.0023576 -0.0234003
578500000 0.0023115 -0.0221945 0.9976885 0.0221945 0.9976885 0.0221945 0.0023115 -0.0221945
585750000 0.0022693 -0.0210064 0.9977307 0.0210064 0.9977307 0.0210064 0.0022693 -0.0210064
593000000 0.0022307 -0.0198351 0.9977693 0.0198351 0.9977693 0.0198351 0.0022307 -0.0198351
600250000 0.0021955 -0.0186802 0.9978045 0.0186802 0.9978045 0.0186802 0.0021955 -0.0186802
607500000 0.0021638 -0.0175409 0.9978362 0.0175409 0.9978362 0.0175409 0.0021638 -0.0175409
614750000 0.0021353 -0.0164168 0.9978647 0.0164168 0.9978647 0.0164168 0.0021353 -0.0164168
622000000 0.0021099 -0.0153072 0.9978901 0.0153072 0.9978901 0.0153072 0.0021099 -0.0153072
629250000 0.0020875 -0.0142117 0.9979125 0.0142117 0.9979125 0.0142117 0.0020875 -0.0142117
636500000 0.0020680 -0.0131297 0.9979320 0.0131297 0.9979320 0.0131297 0.0020680 -0.0131297
643750000 0.0020513 -0.0120608 0.9979487 0.0120608 0.9979487 0.0120608 0.0020513 -0.0120608
651000000 0.0020374 -0.0110045 0.9979626 0.0110045 0.9979626 0.0110045 0.0020374 -0.0110045
658250000 0.0020260 -0.0099604 0.9979740 0.0099604 0.9979740 0.0099604 0.0020260 -0.0099604
665500000 0.0020172 -0.0089280 0.9979828 0.0089280 0.9979828 0.0089280 0.0020172 -0.0089280
672750000 0.0020108 -0.0079070 0.9979892 0.0079070 0.9979892 0.0079070 0.0020108 -0.0079070
680000000 0.0020069 -0.0068970 0.9979931 0.0068970 0.9979931 0.0068970 0.0020069 -0.0068970
687250000 0.0020052 -0.0058975 0.9979948 0.0058975 0.9979948 0.0058975 0.0020052 -0.0058975
694500000 0.0020058 -0.0049083 0.9979942 0.0049083 0.9979942 0.0049083 0.0020058 -0.0049083
701750000 0.0020086 -0.0039290 0.9979914 0.0039290 0.9979914 0.0039290 0.0020086 -0.0039290
709000000 0.0020135 -0.0029593 0.9979865 0.0029593 0.9979865 0.0029593 0.0020135 -0.0029593
716250000 0.0020204 -0.0019989 0.9979796 0.0019989 0.9979796 0.0019989 0.0020204 -0.0019989
723500000 0.0020294 -0.0010474 0.9979706 0.0010474 0.9979706 0.0010474 0.0020294 -0.0010474
730750000 0.0020404 -0.0001046 0.9979596 0.0001046 0.9979596 0.0001046 0.0020404 -0.0001046
738000000 0.0020533 0.0008298 0.9979467 -0.0008298 0.9979467 -0.0008298 0.0020533 0.0008298
745250000 0.0020680 0.0017561 0.9979320 -0.0017561 0.9979320 -0.0017561 0.0020680 0.0017561
752500000 0.0020846 0.0026745 0.9979154 -0.0026745 0.9979154 -0.0026745 0.0020846 0.0026745
759750000 0.0021030 0.0035853 0.9978970 -0.0035853 0.9978970 -0.0035853 0.0021030 0.0035853
767000000 0.0021231 0.0044888 0.9978769 -0.0044888 0.9978769 -0.0044888 0.0021231 0.0044888
774250000 0.0021449 0.0053850 0.9978551 -0.0053850 0.9978551 -0.0053850 0.0021449 0.0053850
781500000 0.0021685 0.0062744 0.9978315 -0.0062744 0.9978315 -0.0062744 0.0021685 0.0062744
788750000 0.0021936 0.0071570 0.9978064 -0.0071570 0.9978064 -0.0071570 0.0021936 0.0071570
796000000 0.0022204 0.0080332 0.9977796 -0.0080332 0.9977796 -0.0080332 0.0022204 0.0080332
803250000 0.0022488 0.0089030 0.9977512 -0.0089030 0.9977512 -0.0089030 0.0022488 0.0089030
810500000 0.0022787 0.0097668 0.9977213 -0.0097668 0.9977213 -0.0097668 0.0022787 0.0097668
817750000 0.0023102 0.0106246 0.9976898 -0.0106246 0.9976898 -0.0106246 0.0023102 0.0106246
825000000 0.0023432 0.0114767 0.9976568 -0.0114767 0.9976568 -0.0114767 0.0023432 0.0114767
832250000 0.0023777 0.0123232 0.9976223 -0.0123232 0.9976223 -0.0123232 0.0023777 0.0123232
839500000 0.0024136 0.0131644 0.9975864 -0.0131644 0.9975864 -0.0131644 0.0024136 0.0131644
846750000 0.0024510 0.0140003 0.9975490 -0.0140003 0.9975490 -0.0140003 0.0024510 0.0140003
854000000 0.0024898 0.0148312 0.9975102 -0.0148312 0.9975102 -0.0148312 0.0024898 0.0148312
861250000 0.0025300 0.0156571 0.9974700 -0.0156571 0.9974700 -0.0156571 0.0025300 0.0156571
868500000 0.0025716 0.0164783 0.9974284 -0.0164783 0.9974284 -0.0164783 0.0025716 0.0164783
875750000 0.0026146 0.0172949 0.9973854 -0.0172949 0.9973854 -0.0172949 0.0026146 0.0172949
883000000 0.0026589 0.0181069 0.9973411 -0.0181069 0.9973411 -0.0181069 0.0026589 0.0181069
890250000 0.0027045 0.0189147 0.9972955 -0.0189147 0.9972955 -0.0189147 0.0027045 0.0189147
897500000 0.0027515 0.0197182 0.9972485 -0.0197182 0.9972485 -0.0197182 0.0027515 0.0197182
904750000 0.0027998 0.0205177 0.9972002 -0.0205177 0.9972002 -0.0205177 0.0027998 0.0205177
912000000 0.0028494 0.0213132 0.9971506 -0.0213132 0.9971506 -0.0213132 0.0028494 0.0213132
919250000 0.0029003 0.0221048 0.9970997 -0.0221048 0.9970997 -0.0221048 0.0029003 0.0221048
926500000 0.0029524 0.0228928 0.9970476 -0.0228928 0.9970476 -0.0228928 0.0029524 0.0228928
933750000 0.0030058 0.0236771 0.9969942 -0.0236771 0.9969942 -0.0236771 0.0030058 0.0236771
941000000 0.0030605 0.0244579 0.9969395 -0.0244579 0.9969395 -0.0244579 0.0030605 0.0244579
948250000 0.0031164 0.0252354 0.9968836 -0.0252354 0.9968836 -0.0252354 0.0031164 0.0252354
955500000 0.0031736 0.0260095 0.9968264 -0.0260095 0.9968264 -0.0260095 0.0031736 0.0260095
962750000 0.0032320 0.0267805 0.9967680 -0.0267805 0.9967680 -0.0267805 0.0032320 0.0267805
970000000 0.0032916 0.0275484 0.9967084 -0.0275484 0.9967084 -0.0275484 0.0032916 0.0275484
977250000 0.0033524 0.0283133 0.9966476 -0.0283133 0.9966476 -0.0283133 0.0033524 0.0283133
984500000 0.0034145 0.0290753 0.9965855 -0.0290753 0.9965855 -0.0290753 0.0034145 0.0290753
991750000 0.0034777 0.0298345 0.9965223 -0.0298345 0.9965223 -0.0298345 0.0034777 0.0298345
999000000 0.0035422 0.0305910 0.9964578 -0.0305910 0.9964578 -0.0305910 0.0035422 0.0305910
1006250000 0.0036078 0.0313449 0.9963922 -0.0313449 0.9963922 -0.0313449 0.0036078 0.0313449
1013500000 0.0036746 0.0320962 0.9963254 -0.0320962 0.9963254 -0.0320962 0.0036746 0.0320962
1020750000 0.0037427 0.0328451 0.9962573 -0.0328451 0.9962573 -0.0328451 0.0037427 0.0328451
1028000000 0.0038119 0.0335916 0.9961881 -0.0335916 0.9961881 -0.0335916 0.0038119 0.0335916
1035250000 0.0038822 0.0343357 0.9961178 -0.0343357 0.9961178 -0.0343357 0.0038822 0.0343357
1042500000 0.0039538 0.0350777 0.9960462 -0.0350777 0.9960462 -0.0350777 0.0039538 0.0350777
1049750000 0.0040265 0.0358175 0.9959735 -0.0358175 0.9959735 -0.0358175 0.0040265 0.0358175
1057000000 0.0041005 0.0365553 0.9958995 -0.0365553 0.9958995 -0.0365553 0.0041005 0.0365553
1064250000 0.0041755 0.0372910 0.9958245 -0.0372910 0.9958245 -0.0372910 0.0041755 0.0372910
1071500000 0.0042518 0.0380248 0.9957482 -0.0380248 0.9957482 -0.0380248 0.0042518 0.0380248
1078750000 0.0043292 0.0387567 0.9956708 -0.0387567 0.9956708 -0.0387567 0.0043292 0.0387567
1086000000 0.0044078 0.0394868 0.9955922 -0.0394868 0.9955922 -0.0394868 0.0044078 0.0394868
1093250000 0.0044876 0.0402152 0.9955124 -0.0402152 0.9955124 -0.0402152 0.0044876 0.0402152
1100500000 0.0045685 0.0409419 0.9954315 -0.0409419 0.9954315 -0.0409419 0.0045685 0.0409419
1107750000 0.0046507 0.0416670 0.9953493 -0.0416670 0.9953493 -0.0416670 0.0046507 0.0416670
1115000000 0.0047339 0.0423906 0.9952661 -0.0423906 0.9952661 -0.0423906 0.0047339 0.0423906
1122250000 0.0048184 0.0431127 0.9951816 -0.0431127 0.9951816 -0.0431127 0.0048184 0.0431127
1129500000 0.0049041 0.0438333 0.9950959 -0.0438333 0.9950959 -0.0438333 0.0049041 0.0438333
1136750000 0.0049909 0.0445526 0.9950091 -0.0445526 0.9950091 -0.0445526 0.0049909 0.0445526
1144000000 0.0050789 0.0452705 0.9949211 -0.0452705 0.9949211 -0.0452705 0.0050789 0.0452705
1151250000 0.0051680 0.0459872 0.9948320 -0.0459872 0.9948320 -0.0459872 0.0051680 0.0459872
1158500000 0.0052584 0.0467027 0.9947416 -0.0467027 0.9947416 -0.0467027 0.0052584 0.0467027
1165750000 0.0053500 0.0474170 0.9946500 -0.0474170 0.9946500 -0.0474170 0.0053500 0.0474170
1173000000 0.0054427 0.0481302 0.9945573 -0.0481302 0.9945573 -0.0481302 0.0054427 0.0481302
1180250000 0.0055367 0.0488423 0.9944633 -0.0488423 0.9944633 -0.0488423 0.0055367 0.0488423
1187500000 0.0056318 0.0495535 0.9943682 -0.0495535 0.9943682 -0.0495535 0.0056318 0.0495535
1194750000 0.0057281 0.0502637 0.9942719 -0.0502637 0.9942719 -0.0502637 0.0057281 0.0502637
1202000000 0.0058257 0.0509730 0.9941743 -0.0509730 0.9941743 -0.0509730 0.0058257 0.0509730
1209250000 0.0059244 0.0516814 0.9940756 -0.0516814 0.9940756 -0.0516814 0.0059244 0.0516814
1216500000 0.0060244 0.0523890 0.9939756 -0.0523890 0.9939756 -0.0523890 0.0060244 0.0523890
1223750000 0.0061256 0.0530959 0.9938744 -0.0530959 0.9938744 -0.0530959 0.0061256 0.0530959
1231000000 0.0062281 0.0538020 0.9937719 -0.0538020 0.9937719 -0.0538020 0.0062281 0.0538020
1238250000 0.0063317 0.0545074 0.9936683 -0.0545074 0.9936683 -0.0545074 0.0063317 0.0545074
1245500000 0.0064366 0.0552122 0.9935634 -0.0552122 0.9935634 -0.0552122 0.0064366 0.0552122
1252750000 0.0065428 0.0559164 0.9934572 -0.0559164 0.9934572 -0.0559164 0.0065428 0.0559164
1260000000 0.0066502 0.0566201 0.9933498 -0.0566201 0.9933498 -0.0566201 0.0066502 0.0566201
1267250000 0.0067588 0.0573232 0.9932412 -0.0573232 0.9932412 -0.0573232 0.0067588 0.0573232
1274500000 0.0068687 0.0580259 0.9931313 -0.0580259 0.9931313 -0.0580259 0.0068687 0.0580259
1281750000 0.0069799 0.0587282 0.9930201 -0.0587282 0.9930201 -0.0587282 0.0069799 0.0587282
1289000000 0.0070924 0.0594300 0.9929076 -0.0594300 0.9929076 -0.0594300 0.0070924 0.0594300
1296250000 0.0072061 0.0601315 0.9927939 -0.0601315 0.9927939 -0.0601315 0.0072061 0.0601315
1303500000 0.0073212 0.0608327 0.9926788 -0.0608327 0.9926788 -0.0608327 0.0073212 0.0608327
1310750000 0.0074375 0.0615336 0.9925625 -0.0615336 0.9925625 -0.0615336 0.0074375 0.0615336
1318000000 0.0075551 0.0622343 0.9924449 -0.0622343 0.9924449 -0.0622343 0.0075551 0.0622343
1325250000 0.0076741 0.0629347 0.9923259 -0.0629347 0.9923259 -0.0629347 0.0076741 0.0629347
1332500000 0.0077944 0.0636350 0.9922056 -0.0636350 0.9922056 -0.0636350 0.0077944 0.0636350
1339750000 0.0079160 0.0643352 0.9920840 -0.0643352 0.9920840 -0.0643352 0.0079160 0.0643352
1347000000 0.0080390 0.0650352 0.9919610 -0.0650352 0.9919610 -0.0650352 0.0080390 0.0650352
1354250000 0.0081633 0.0657353 0.9918367 -0.0657353 0.9918367 -0.0657353 0.0081633 0.0657353
1361500000 0.0082890 0.0664352 0.9917110 -0.0664352 0.9917110 -0.0664352 0.0082890 0.0664352
1368750000 0.0084161 0.0671352 0.9915839 -0.0671352 0.9915839 -0.0671352 0.0084161 0.0671352
1376000000 0.0085445 0.0678352 0.9914555 -0.0678352 0.9914555 -0.0678352 0.0085445 0.0678352
1383250000 0.0086743 0.0685353 0.9913257 -0.0685353 0.9913257 -0.0685353 0.0086743 0.0685353
1390500000 0.0088056 0.0692355 0.9911944 -0.0692355 0.9911944 -0.0692355 0.0088056 0.0692355
1397750000 0.0089382 0.0699358 0.9910618 -0.0699358 0.9910618 -0.0699358 0.0089382 0.0699358
1405000000 0.0090723 0.0706363 0.9909277 -0.0706363 0.9909277 -0.0706363 0.0090723 0.0706363
1412250000 0.0092078 0.0713370 0.9907922 -0.0713370 0.9907922 -0.0713370 0.0092078 0.0713370
1419500000 0.0093448 0.0720379 0.9906552 -0.0720379 0.9906552 -0.0720379 0.0093448 0.0720379
1426750000 0.0094832 0.0727391 0.9905168 -0.0727391 0.9905168 -0.0727391 0.0094832 0.0727391
1434000000 0.0096230 0.0734406 0.9903770 -0.0734406 0.9903770 -0.0734406 0.0096230 0.0734406
1441250000 0.0097644 0.0741424 0.9902356 -0.0741424 0.9902356 -0.0741424 0.0097644 0.0741424
1448500000 0.0099073 0.0748445 0.9900927 -0.0748445 0.9900927 -0.0748445 0.0099073 0.0748445
1455750000 0.0100516 0.0755471 0.9899484 -0.0755471 0.9899484 -0.0755471 0.0100516 0.0755471
1463000000 0.0101975 0.0762500 0.9898025 -0.0762500 0.9898025 -0.0762500 0.0101975 0.0762500
1470250000 0.0103449 0.0769534 0.9896551 -0.0769534 0.9896551 -0.0769534 0.0103449 0.0769534
1477500000 0.0104939 0.0776572 0.9895061 -0.0776572 0.9895061 -0.0776572 0.0104939 0.0776572
1484750000 0.0106444 0.0783615 0.9893556 -0.0783615 0.9893556 -0.0783615 0.0106444 0.0783615
1492000000 0.0107965 0.0790664 0.9892035 -0.0790664 0.9892035 -0.0790664 0.0107965 0.0790664
1499250000 0.0109502 0.0797718 0.9890498 -0.0797718 0.9890498 -0.0797718 0.0109502 0.0797718
1506500000 0.0111055 0.0804778 0.9888945 -0.0804778 0.9888945 -0.0804778 0.0111055 0.0804778
1513750000 0.0112624 0.0811843 0.9887376 -0.0811843 0.9887376 -0.0811843 0.0112624 0.0811843
1521000000 0.0114209 0.0818916 0.9885791 -0.0818916 0.9885791 -0.0818916 0.0114209 0.0818916
1528250000 0.0115811 0.0825994 0.9884189 -0.0825994 0.9884189 -0.0825994 0.0115811 0.0825994
1535500000 0.0117429 0.0833080 0.9882571 -0.0833080 0.9882571 -0.0833080 0.0117429 0.0833080
1542750000 0.0119065 0.0840173 0.9880935 -0.0840173 0.9880935 -0.0840173 0.0119065 0.0840173
1550000000 0.0120717 0.0847273 0.9879283 -0.0847273 0.9879283 -0.0847273 0.0120717 0.0847273
1557250000 0.0122386 0.0854381 0.9877614 -0.0854381 0.9877614 -0.0854381 0.0122386 0.0854381
1564500000 0.0124073 0.0861496 0.9875927 -0.0861496 0.9875927 -0.0861496 0.0124073 0.0861496
1571750000 0.0125777 0.0868620 0.9874223 -0.0868620 0.9874223 -0.0868620 0.0125777 0.0868620
1579000000 0.0127499 0.0875752 0.9872501 -0.0875752 0.9872501 -0.0875752 0.0127499 0.0875752
1586250000 0.0129238 0.0882893 0.9870762 -0.0882893 0.9870762 -0.0882893 0.0129238 0.0882893
1593500000 0.0130996 0.0890043 0.9869004 -0.0890043 0.9869004 -0.0890043 0.0130996 0.0890043
1600750000 0.0132772 0.0897202 0.9867228 -0.0897202 0.9867228 -0.0897202 0.0132772 0.0897202
1608000000 0.0134566 0.0904370 0.9865434 -0.0904370 0.9865434 -0.0904370 0.0134566 0.0904370
1615250000 0.0136379 0.0911548 0.9863621 -0.0911548 0.9863621 -0.0911548 0.0136379 0.0911548
1622500000 0.0138210 0.0918736 0.9861790 -0.0918736 0.9861790 -0.0918736 0.0138210 0.0918736
1629750000 0.0140060 0.0925934 0.9859940 -0.0925934 0.9859940 -0.0925934 0.0140060 0.0925934
