!Murata Part Number: GRM42A7U3F390JW31
!These Parameters are Measured in Series Mode Connection
!Data Generated on Mar 30, 2021
!       o--ll--o
!Port1            Port2
!       o------o
!Operation Temp=25[degC], DC Bias Voltage=0[V]
!Freq. Start=100[MHz] Stop=3[GHz] 401[Steps]
# Hz S RI R 50
!Freq.(Hz) S11(Real) S11(Imag) S21(Real) S21(Imag) S12(Real) S12(Imag) S22(Real) S22(Imag)
100000000 0.1398711 -0.3448246 0.8601289 0.3448246 0.8601289 0.3448246 0.1398711 -0.3448246
107250000 0.1235024 -0.3268313 0.8764976 0.3268313 0.8764976 0.3268313 0.1235024 -0.3268313
114500000 0.1096759 -0.3101492 0.8903241 0.3101492 0.8903241 0.3101492 0.1096759 -0.3101492
121750000 0.0979128 -0.2947048 0.9020872 0.2947048 0.9020872 0.2947048 0.0979128 -0.2947048
129000000 0.0878370 -0.2804086 0.9121630 0.2804086 0.9121630 0.2804086 0.0878370 -0.2804086
136250000 0.0791510 -0.2671663 0.9208490 0.2671663 0.9208490 0.2671663 0.0791510 -0.2671663
143500000 0.0716179 -0.2548856 0.9283821 0.2548856 0.9283821 0.2548856 0.0716179 -0.2548856
150750000 0.0650478 -0.2434793 0.9349522 0.2434793 0.9349522 0.2434793 0.0650478 -0.2434793
158000000 0.0592873 -0.2328666 0.9407127 0.2328666 0.9407127 0.2328666 0.0592873 -0.2328666
165250000 0.0542118 -0.2229738 0.9457882 0.2229738 0.9457882 0.2229738 0.0542118 -0.2229738
172500000 0.0497191 -0.2137343 0.9502809 0.2137343 0.9502809 0.2137343 0.0497191 -0.2137343
179750000 0.0457252 -0.2050883 0.9542748 0.2050883 0.9542748 0.2050883 0.0457252 -0.2050883
187000000 0.0421603 -0.1969817 0.9578397 0.1969817 0.9578397 0.1969817 0.0421603 -0.1969817
194250000 0.0389664 -0.1893665 0.9610336 0.1893665 0.9610336 0.1893665 0.0389664 -0.1893665
201500000 0.0360947 -0.1821994 0.9639053 0.1821994 0.9639053 0.1821994 0.0360947 -0.1821994
208750000 0.0335041 -0.1754418 0.9664959 0.1754418 0.9664959 0.1754418 0.0335041 -0.1754418
216000000 0.0311599 -0.1690590 0.9688401 0.1690590 0.9688401 0.1690590 0.0311599 -0.1690590
223250000 0.0290323 -0.1630199 0.9709677 0.1630199 0.9709677 0.1630199 0.0290323 -0.1630199
230500000 0.0270960 -0.1572965 0.9729040 0.1572965 0.9729040 0.1572965 0.0270960 -0.1572965
237750000 0.0253293 -0.1518637 0.9746707 0.1518637 0.9746707 0.1518637 0.0253293 -0.1518637
245000000 0.0237133 -0.1466987 0.9762867 0.1466987 0.9762867 0.1466987 0.0237133 -0.1466987
252250000 0.0222318 -0.1417811 0.9777682 0.1417811 0.9777682 0.1417811 0.0222318 -0.1417811
259500000 0.0208707 -0.1370923 0.9791293 0.1370923 0.9791293 0.1370923 0.0208707 -0.1370923
266750000 0.0196176 -0.1326155 0.9803824 0.1326155 0.9803824 0.1326155 0.0196176 -0.1326155
274000000 0.0184617 -0.1283356 0.9815383 0.1283356 0.9815383 0.1283356 0.0184617 -0.1283356
281250000 0.0173935 -0.1242386 0.9826065 0.1242386 0.9826065 0.1242386 0.0173935 -0.1242386
288500000 0.0164046 -0.1203119 0.9835954 0.1203119 0.9835954 0.1203119 0.0164046 -0.1203119
295750000 0.0154877 -0.1165439 0.9845123 0.1165439 0.9845123 0.1165439 0.0154877 -0.1165439
303000000 0.0146363 -0.1129242 0.9853637 0.1129242 0.9853637 0.1129242 0.0146363 -0.1129242
310250000 0.0138444 -0.1094431 0.9861556 0.1094431 0.9861556 0.1094431 0.0138444 -0.1094431
317500000 0.0131070 -0.1060916 0.9868930 0.1060916 0.9868930 0.1060916 0.0131070 -0.1060916
324750000 0.0124193 -0.1028618 0.9875807 0.1028618 0.9875807 0.1028618 0.0124193 -0.1028618
332000000 0.0117773 -0.0997460 0.9882227 0.0997460 0.9882227 0.0997460 0.0117773 -0.0997460
339250000 0.0111772 -0.0967375 0.9888228 0.0967375 0.9888228 0.0967375 0.0111772 -0.0967375
346500000 0.0106157 -0.0938298 0.9893843 0.0938298 0.9893843 0.0938298 0.0106157 -0.0938298
353750000 0.0100898 -0.0910171 0.9899102 0.0910171 0.9899102 0.0910171 0.0100898 -0.0910171
361000000 0.0095967 -0.0882939 0.9904033 0.0882939 0.9904033 0.0882939 0.0095967 -0.0882939
368250000 0.0091340 -0.0856552 0.9908660 0.0856552 0.9908660 0.0856552 0.0091340 -0.0856552
375500000 0.0086994 -0.0830963 0.9913006 0.0830963 0.9913006 0.0830963 0.0086994 -0.0830963
382750000 0.0082910 -0.0806129 0.9917090 0.0806129 0.9917090 0.0806129 0.0082910 -0.0806129
390000000 0.0079068 -0.0782009 0.9920932 0.0782009 0.9920932 0.0782009 0.0079068 -0.0782009
397250000 0.0075452 -0.0758565 0.9924548 0.0758565 0.9924548 0.0758565 0.0075452 -0.0758565
404500000 0.0072046 -0.0735763 0.9927954 0.0735763 0.9927954 0.0735763 0.0072046 -0.0735763
411750000 0.0068837 -0.0713570 0.9931163 0.0713570 0.9931163 0.0713570 0.0068837 -0.0713570
419000000 0.0065811 -0.0691954 0.9934189 0.0691954 0.9934189 0.0691954 0.0065811 -0.0691954
426250000 0.0062957 -0.0670888 0.9937043 0.0670888 0.9937043 0.0670888 0.0062957 -0.0670888
433500000 0.0060264 -0.0650345 0.9939736 0.0650345 0.9939736 0.0650345 0.0060264 -0.0650345
440750000 0.0057722 -0.0630299 0.9942278 0.0630299 0.9942278 0.0630299 0.0057722 -0.0630299
448000000 0.0055322 -0.0610727 0.9944678 0.0610727 0.9944678 0.0610727 0.0055322 -0.0610727
455250000 0.0053055 -0.0591607 0.9946945 0.0591607 0.9946945 0.0591607 0.0053055 -0.0591607
462500000 0.0050914 -0.0572917 0.9949086 0.0572917 0.9949086 0.0572917 0.0050914 -0.0572917
469750000 0.0048891 -0.0554639 0.9951109 0.0554639 0.9951109 0.0554639 0.0048891 -0.0554639
477000000 0.0046979 -0.0536754 0.9953021 0.0536754 0.9953021 0.0536754 0.0046979 -0.0536754
484250000 0.0045173 -0.0519244 0.9954827 0.0519244 0.9954827 0.0519244 0.0045173 -0.0519244
491500000 0.0043467 -0.0502093 0.9956533 0.0502093 0.9956533 0.0502093 0.0043467 -0.0502093
498750000 0.0041854 -0.0485286 0.9958146 0.0485286 0.9958146 0.0485286 0.0041854 -0.0485286
506000000 0.0040332 -0.0468807 0.9959668 0.0468807 0.9959668 0.0468807 0.0040332 -0.0468807
513250000 0.0038894 -0.0452644 0.9961106 0.0452644 0.9961106 0.0452644 0.0038894 -0.0452644
520500000 0.0037536 -0.0436782 0.9962464 0.0436782 0.9962464 0.0436782 0.0037536 -0.0436782
527750000 0.0036255 -0.0421210 0.9963745 0.0421210 0.9963745 0.0421210 0.0036255 -0.0421210
535000000 0.0035047 -0.0405916 0.9964953 0.0405916 0.9964953 0.0405916 0.0035047 -0.0405916
542250000 0.0033908 -0.0390888 0.9966092 0.0390888 0.9966092 0.0390888 0.0033908 -0.0390888
549500000 0.0032834 -0.0376116 0.9967166 0.0376116 0.9967166 0.0376116 0.0032834 -0.0376116
556750000 0.0031824 -0.0361590 0.9968176 0.0361590 0.9968176 0.0361590 0.0031824 -0.0361590
564000000 0.0030874 -0.0347300 0.9969126 0.0347300 0.9969126 0.0347300 0.0030874 -0.0347300
571250000 0.0029981 -0.0333238 0.9970019 0.0333238 0.9970019 0.0333238 0.0029981 -0.0333238
578500000 0.0029144 -0.0319394 0.9970856 0.0319394 0.9970856 0.0319394 0.0029144 -0.0319394
585750000 0.0028358 -0.0305761 0.9971642 0.0305761 0.9971642 0.0305761 0.0028358 -0.0305761
593000000 0.0027623 -0.0292330 0.9972377 0.0292330 0.9972377 0.0292330 0.0027623 -0.0292330
600250000 0.0026937 -0.0279094 0.9973063 0.0279094 0.9973063 0.0279094 0.0026937 -0.0279094
607500000 0.0026296 -0.0266046 0.9973704 0.0266046 0.9973704 0.0266046 0.0026296 -0.0266046
614750000 0.0025701 -0.0253179 0.9974299 0.0253179 0.9974299 0.0253179 0.0025701 -0.0253179
622000000 0.0025148 -0.0240487 0.9974852 0.0240487 0.9974852 0.0240487 0.0025148 -0.0240487
629250000 0.0024636 -0.0227963 0.9975364 0.0227963 0.9975364 0.0227963 0.0024636 -0.0227963
636500000 0.0024163 -0.0215601 0.9975837 0.0215601 0.9975837 0.0215601 0.0024163 -0.0215601
643750000 0.0023729 -0.0203397 0.9976271 0.0203397 0.9976271 0.0203397 0.0023729 -0.0203397
651000000 0.0023332 -0.0191343 0.9976668 0.0191343 0.9976668 0.0191343 0.0023332 -0.0191343
658250000 0.0022970 -0.0179435 0.9977030 0.0179435 0.9977030 0.0179435 0.0022970 -0.0179435
665500000 0.0022642 -0.0167669 0.9977358 0.0167669 0.9977358 0.0167669 0.0022642 -0.0167669
672750000 0.0022348 -0.0156039 0.9977652 0.0156039 0.9977652 0.0156039 0.0022348 -0.0156039
680000000 0.0022085 -0.0144540 0.9977915 0.0144540 0.9977915 0.0144540 0.0022085 -0.0144540
687250000 0.0021854 -0.0133169 0.9978146 0.0133169 0.9978146 0.0133169 0.0021854 -0.0133169
694500000 0.0021652 -0.0121921 0.9978348 0.0121921 0.9978348 0.0121921 0.0021652 -0.0121921
701750000 0.0021480 -0.0110792 0.9978520 0.0110792 0.9978520 0.0110792 0.0021480 -0.0110792
709000000 0.0021336 -0.0099778 0.9978664 0.0099778 0.9978664 0.0099778 0.0021336 -0.0099778
716250000 0.0021220 -0.0088876 0.9978780 0.0088876 0.9978780 0.0088876 0.0021220 -0.0088876
723500000 0.0021130 -0.0078081 0.9978870 0.0078081 0.9978870 0.0078081 0.0021130 -0.0078081
730750000 0.0021066 -0.0067390 0.9978934 0.0067390 0.9978934 0.0067390 0.0021066 -0.0067390
738000000 0.0021027 -0.0056801 0.9978973 0.0056801 0.9978973 0.0056801 0.0021027 -0.0056801
745250000 0.0021013 -0.0046309 0.9978987 0.0046309 0.9978987 0.0046309 0.0021013 -0.0046309
752500000 0.0021022 -0.0035912 0.9978978 0.0035912 0.9978978 0.0035912 0.0021022 -0.0035912
759750000 0.0021055 -0.0025607 0.9978945 0.0025607 0.9978945 0.0025607 0.0021055 -0.0025607
767000000 0.0021111 -0.0015390 0.9978889 0.0015390 0.9978889 0.0015390 0.0021111 -0.0015390
774250000 0.0021189 -0.0005259 0.9978811 0.0005259 0.9978811 0.0005259 0.0021189 -0.0005259
781500000 0.0021289 0.0004788 0.9978711 -0.0004788 0.9978711 -0.0004788 0.0021289 0.0004788
788750000 0.0021409 0.0014754 0.9978591 -0.0014754 0.9978591 -0.0014754 0.0021409 0.0014754
796000000 0.0021551 0.0024642 0.9978449 -0.0024642 0.9978449 -0.0024642 0.0021551 0.0024642
803250000 0.0021713 0.0034454 0.9978287 -0.0034454 0.9978287 -0.0034454 0.0021713 0.0034454
810500000 0.0021895 0.0044193 0.9978105 -0.0044193 0.9978105 -0.0044193 0.0021895 0.0044193
817750000 0.0022096 0.0053860 0.9977904 -0.0053860 0.9977904 -0.0053860 0.0022096 0.0053860
825000000 0.0022316 0.0063458 0.9977684 -0.0063458 0.9977684 -0.0063458 0.0022316 0.0063458
832250000 0.0022555 0.0072989 0.9977445 -0.0072989 0.9977445 -0.0072989 0.0022555 0.0072989
839500000 0.0022813 0.0082454 0.9977187 -0.0082454 0.9977187 -0.0082454 0.0022813 0.0082454
846750000 0.0023088 0.0091857 0.9976912 -0.0091857 0.9976912 -0.0091857 0.0023088 0.0091857
854000000 0.0023382 0.0101199 0.9976618 -0.0101199 0.9976618 -0.0101199 0.0023382 0.0101199
861250000 0.0023693 0.0110481 0.9976307 -0.0110481 0.9976307 -0.0110481 0.0023693 0.0110481
868500000 0.0024021 0.0119706 0.9975979 -0.0119706 0.9975979 -0.0119706 0.0024021 0.0119706
875750000 0.0024366 0.0128875 0.9975634 -0.0128875 0.9975634 -0.0128875 0.0024366 0.0128875
883000000 0.0024728 0.0137989 0.9975272 -0.0137989 0.9975272 -0.0137989 0.0024728 0.0137989
890250000 0.0025106 0.0147052 0.9974894 -0.0147052 0.9974894 -0.0147052 0.0025106 0.0147052
897500000 0.0025500 0.0156063 0.9974500 -0.0156063 0.9974500 -0.0156063 0.0025500 0.0156063
904750000 0.0025911 0.0165025 0.9974089 -0.0165025 0.9974089 -0.0165025 0.0025911 0.0165025
912000000 0.0026337 0.0173938 0.9973663 -0.0173938 0.9973663 -0.0173938 0.0026337 0.0173938
919250000 0.0026779 0.0182806 0.9973221 -0.0182806 0.9973221 -0.0182806 0.0026779 0.0182806
926500000 0.0027237 0.0191628 0.9972763 -0.0191628 0.9972763 -0.0191628 0.0027237 0.0191628
933750000 0.0027709 0.0200407 0.9972291 -0.0200407 0.9972291 -0.0200407 0.0027709 0.0200407
941000000 0.0028197 0.0209143 0.9971803 -0.0209143 0.9971803 -0.0209143 0.0028197 0.0209143
948250000 0.0028700 0.0217838 0.9971300 -0.0217838 0.9971300 -0.0217838 0.0028700 0.0217838
955500000 0.0029218 0.0226493 0.9970782 -0.0226493 0.9970782 -0.0226493 0.0029218 0.0226493
962750000 0.0029750 0.0235110 0.9970250 -0.0235110 0.9970250 -0.0235110 0.0029750 0.0235110
970000000 0.0030297 0.0243689 0.9969703 -0.0243689 0.9969703 -0.0243689 0.0030297 0.0243689
977250000 0.0030859 0.0252232 0.9969141 -0.0252232 0.9969141 -0.0252232 0.0030859 0.0252232
984500000 0.0031435 0.0260740 0.9968565 -0.0260740 0.9968565 -0.0260740 0.0031435 0.0260740
991750000 0.0032025 0.0269213 0.9967975 -0.0269213 0.9967975 -0.0269213 0.0032025 0.0269213
999000000 0.0032629 0.0277654 0.9967371 -0.0277654 0.9967371 -0.0277654 0.0032629 0.0277654
1006250000 0.0033247 0.0286062 0.9966753 -0.0286062 0.9966753 -0.0286062 0.0033247 0.0286062
1013500000 0.0033879 0.0294440 0.9966121 -0.0294440 0.9966121 -0.0294440 0.0033879 0.0294440
1020750000 0.0034526 0.0302788 0.9965474 -0.0302788 0.9965474 -0.0302788 0.0034526 0.0302788
1028000000 0.0035186 0.0311106 0.9964814 -0.0311106 0.9964814 -0.0311106 0.0035186 0.0311106
1035250000 0.0035859 0.0319397 0.9964141 -0.0319397 0.9964141 -0.0319397 0.0035859 0.0319397
1042500000 0.0036547 0.0327660 0.9963453 -0.0327660 0.9963453 -0.0327660 0.0036547 0.0327660
1049750000 0.0037248 0.0335897 0.9962752 -0.0335897 0.9962752 -0.0335897 0.0037248 0.0335897
1057000000 0.0037962 0.0344109 0.9962038 -0.0344109 0.9962038 -0.0344109 0.0037962 0.0344109
1064250000 0.0038691 0.0352296 0.9961309 -0.0352296 0.9961309 -0.0352296 0.0038691 0.0352296
1071500000 0.0039432 0.0360459 0.9960568 -0.0360459 0.9960568 -0.0360459 0.0039432 0.0360459
1078750000 0.0040187 0.0368600 0.9959813 -0.0368600 0.9959813 -0.0368600 0.0040187 0.0368600
1086000000 0.0040956 0.0376718 0.9959044 -0.0376718 0.9959044 -0.0376718 0.0040956 0.0376718
1093250000 0.0041738 0.0384815 0.9958262 -0.0384815 0.9958262 -0.0384815 0.0041738 0.0384815
1100500000 0.0042533 0.0392891 0.9957467 -0.0392891 0.9957467 -0.0392891 0.0042533 0.0392891
1107750000 0.0043342 0.0400948 0.9956658 -0.0400948 0.9956658 -0.0400948 0.0043342 0.0400948
1115000000 0.0044164 0.0408986 0.9955836 -0.0408986 0.9955836 -0.0408986 0.0044164 0.0408986
1122250000 0.0044999 0.0417005 0.9955001 -0.0417005 0.9955001 -0.0417005 0.0044999 0.0417005
1129500000 0.0045848 0.0425006 0.9954152 -0.0425006 0.9954152 -0.0425006 0.0045848 0.0425006
1136750000 0.0046710 0.0432991 0.9953290 -0.0432991 0.9953290 -0.0432991 0.0046710 0.0432991
1144000000 0.0047586 0.0440959 0.9952414 -0.0440959 0.9952414 -0.0440959 0.0047586 0.0440959
1151250000 0.0048474 0.0448911 0.9951526 -0.0448911 0.9951526 -0.0448911 0.0048474 0.0448911
1158500000 0.0049376 0.0456849 0.9950624 -0.0456849 0.9950624 -0.0456849 0.0049376 0.0456849
1165750000 0.0050292 0.0464772 0.9949708 -0.0464772 0.9949708 -0.0464772 0.0050292 0.0464772
1173000000 0.0051221 0.0472681 0.9948779 -0.0472681 0.9948779 -0.0472681 0.0051221 0.0472681
1180250000 0.0052163 0.0480577 0.9947837 -0.0480577 0.9947837 -0.0480577 0.0052163 0.0480577
1187500000 0.0053118 0.0488461 0.9946882 -0.0488461 0.9946882 -0.0488461 0.0053118 0.0488461
1194750000 0.0054087 0.0496332 0.9945913 -0.0496332 0.9945913 -0.0496332 0.0054087 0.0496332
1202000000 0.0055070 0.0504193 0.9944930 -0.0504193 0.9944930 -0.0504193 0.0055070 0.0504193
1209250000 0.0056066 0.0512042 0.9943934 -0.0512042 0.9943934 -0.0512042 0.0056066 0.0512042
1216500000 0.0057075 0.0519881 0.9942925 -0.0519881 0.9942925 -0.0519881 0.0057075 0.0519881
1223750000 0.0058098 0.0527710 0.9941902 -0.0527710 0.9941902 -0.0527710 0.0058098 0.0527710
1231000000 0.0059135 0.0535530 0.9940865 -0.0535530 0.9940865 -0.0535530 0.0059135 0.0535530
1238250000 0.0060185 0.0543341 0.9939815 -0.0543341 0.9939815 -0.0543341 0.0060185 0.0543341
1245500000 0.0061249 0.0551144 0.9938751 -0.0551144 0.9938751 -0.0551144 0.0061249 0.0551144
1252750000 0.0062326 0.0558940 0.9937674 -0.0558940 0.9937674 -0.0558940 0.0062326 0.0558940
1260000000 0.0063418 0.0566728 0.9936582 -0.0566728 0.9936582 -0.0566728 0.0063418 0.0566728
1267250000 0.0064523 0.0574510 0.9935477 -0.0574510 0.9935477 -0.0574510 0.0064523 0.0574510
1274500000 0.0065642 0.0582285 0.9934358 -0.0582285 0.9934358 -0.0582285 0.0065642 0.0582285
1281750000 0.0066775 0.0590055 0.9933225 -0.0590055 0.9933225 -0.0590055 0.0066775 0.0590055
1289000000 0.0067922 0.0597819 0.9932078 -0.0597819 0.9932078 -0.0597819 0.0067922 0.0597819
1296250000 0.0069083 0.0605579 0.9930917 -0.0605579 0.9930917 -0.0605579 0.0069083 0.0605579
1303500000 0.0070258 0.0613334 0.9929742 -0.0613334 0.9929742 -0.0613334 0.0070258 0.0613334
1310750000 0.0071447 0.0621085 0.9928553 -0.0621085 0.9928553 -0.0621085 0.0071447 0.0621085
1318000000 0.0072651 0.0628833 0.9927349 -0.0628833 0.9927349 -0.0628833 0.0072651 0.0628833
1325250000 0.0073869 0.0636578 0.9926131 -0.0636578 0.9926131 -0.0636578 0.0073869 0.0636578
1332500000 0.0075101 0.0644321 0.9924899 -0.0644321 0.9924899 -0.0644321 0.0075101 0.0644321
1339750000 0.0076348 0.0652061 0.9923652 -0.0652061 0.9923652 -0.0652061 0.0076348 0.0652061
1347000000 0.0077610 0.0659799 0.9922390 -0.0659799 0.9922390 -0.0659799 0.0077610 0.0659799
1354250000 0.0078886 0.0667536 0.9921114 -0.0667536 0.9921114 -0.0667536 0.0078886 0.0667536
1361500000 0.0080177 0.0675272 0.9919823 -0.0675272 0.9919823 -0.0675272 0.0080177 0.0675272
1368750000 0.0081482 0.0683008 0.9918518 -0.0683008 0.9918518 -0.0683008 0.0081482 0.0683008
1376000000 0.0082803 0.0690743 0.9917197 -0.0690743 0.9917197 -0.0690743 0.0082803 0.0690743
1383250000 0.0084139 0.0698479 0.9915861 -0.0698479 0.9915861 -0.0698479 0.0084139 0.0698479
1390500000 0.0085489 0.0706216 0.9914511 -0.0706216 0.9914511 -0.0706216 0.0085489 0.0706216
1397750000 0.0086855 0.0713953 0.9913145 -0.0713953 0.9913145 -0.0713953 0.0086855 0.0713953
1405000000 0.0088236 0.0721692 0.9911764 -0.0721692 0.9911764 -0.0721692 0.0088236 0.0721692
1412250000 0.0089633 0.0729433 0.9910367 -0.0729433 0.9910367 -0.0729433 0.0089633 0.0729433
1419500000 0.0091045 0.0737175 0.9908955 -0.0737175 0.9908955 -0.0737175 0.0091045 0.0737175
1426750000 0.0092473 0.0744921 0.9907527 -0.0744921 0.9907527 -0.0744921 0.0092473 0.0744921
1434000000 0.0093916 0.0752669 0.9906084 -0.0752669 0.9906084 -0.0752669 0.0093916 0.0752669
1441250000 0.0095376 0.0760420 0.9904624 -0.0760420 0.9904624 -0.0760420 0.0095376 0.0760420
1448500000 0.0096851 0.0768176 0.9903149 -0.0768176 0.9903149 -0.0768176 0.0096851 0.0768176
1455750000 0.0098342 0.0775935 0.9901658 -0.0775935 0.9901658 -0.0775935 0.0098342 0.0775935
1463000000 0.0099850 0.0783698 0.9900150 -0.0783698 0.9900150 -0.0783698 0.0099850 0.0783698
1470250000 0.0101374 0.0791466 0.9898626 -0.0791466 0.9898626 -0.0791466 0.0101374 0.0791466
1477500000 0.0102914 0.0799239 0.9897086 -0.0799239 0.9897086 -0.0799239 0.0102914 0.0799239
1484750000 0.0104471 0.0807017 0.9895529 -0.0807017 0.9895529 -0.0807017 0.0104471 0.0807017
1492000000 0.0106044 0.0814801 0.9893956 -0.0814801 0.9893956 -0.0814801 0.0106044 0.0814801
1499250000 0.0107635 0.0822591 0.9892365 -0.0822591 0.9892365 -0.0822591 0.0107635 0.0822591
1506500000 0.0109242 0.0830387 0.9890758 -0.0830387 0.9890758 -0.0830387 0.0109242 0.0830387
1513750000 0.0110866 0.0838190 0.9889134 -0.0838190 0.9889134 -0.0838190 0.0110866 0.0838190
1521000000 0.0112508 0.0846000 0.9887492 -0.0846000 0.9887492 -0.0846000 0.0112508 0.0846000
1528250000 0.0114167 0.0853817 0.9885833 -0.0853817 0.9885833 -0.0853817 0.0114167 0.0853817
1535500000 0.0115843 0.0861641 0.9884157 -0.0861641 0.9884157 -0.0861641 0.0115843 0.0861641
1542750000 0.0117537 0.0869474 0.9882463 -0.0869474 0.9882463 -0.0869474 0.0117537 0.0869474
1550000000 0.0119249 0.0877315 0.9880751 -0.0877315 0.9880751 -0.0877315 0.0119249 0.0877315
1557250000 0.0120979 0.0885164 0.9879021 -0.0885164 0.9879021 -0.0885164 0.0120979 0.0885164
1564500000 0.0122727 0.0893022 0.9877273 -0.0893022 0.9877273 -0.0893022 0.0122727 0.0893022
1571750000 0.0124493 0.0900890 0.9875507 -0.0900890 0.9875507 -0.0900890 0.0124493 0.0900890
1579000000 0.0126278 0.0908766 0.9873722 -0.0908766 0.9873722 -0.0908766 0.0126278 0.0908766
1586250000 0.0128081 0.0916653 0.9871919 -0.0916653 0.9871919 -0.0916653 0.0128081 0.0916653
1593500000 0.0129903 0.0924550 0.9870097 -0.0924550 0.9870097 -0.0924550 0.0129903 0.0924550
1600750000 0.0131744 0.0932457 0.9868256 -0.0932457 0.9868256 -0.0932457 0.0131744 0.0932457
1608000000 0.0133604 0.0940375 0.9866396 -0.0940375 0.9866396 -0.0940375 0.0133604 0.0940375
1615250000 0.0135483 0.0948303 0.9864517 -0.0948303 0.9864517 -0.0948303 0.0135483 0.0948303
1622500000 0.0137382 0.0956243 0.9862618 -0.0956243 0.9862618 -0.0956243 0.0137382 0.0956243
1629750000 0.0139300 0.0964195 0.9860700 -0.0964195 0.9860700 -0.0964195 0.0139300 0.0964195
