!Murata Part Number: GRM21BR71C474MA01
!These Parameters are Measured in Series Mode Connection
!Data Generated on Mar 30, 2021
!       o--ll--o
!Port1            Port2
!       o------o
!Operation Temp=25[degC], DC Bias Voltage=0[V]
!Freq. Start=100[Hz] Stop=6[GHz] 401[Steps]
# Hz S RI R 50
!Freq.(Hz) S11(Real) S11(Imag) S21(Real) S21(Imag) S12(Real) S12(Imag) S22(Real) S22(Imag)
100 0.9989891 -0.0289058 0.0010109 0.0289058 0.0010109 0.0289058 0.9989891 -0.0289058
105 0.9989035 -0.0302213 0.0010965 0.0302213 0.0010965 0.0302213 0.9989035 -0.0302213
109 0.9988102 -0.0315965 0.0011898 0.0315965 0.0011898 0.0315965 0.9988102 -0.0315965
114 0.9987087 -0.0330341 0.0012913 0.0330341 0.0012913 0.0330341 0.9987087 -0.0330341
120 0.9985980 -0.0345367 0.0014020 0.0345367 0.0014020 0.0345367 0.9985980 -0.0345367
125 0.9984774 -0.0361073 0.0015226 0.0361073 0.0015226 0.0361073 0.9984774 -0.0361073
131 0.9983460 -0.0377490 0.0016540 0.0377490 0.0016540 0.0377490 0.9983460 -0.0377490
137 0.9982029 -0.0394648 0.0017971 0.0394648 0.0017971 0.0394648 0.9982029 -0.0394648
143 0.9980469 -0.0412580 0.0019531 0.0412580 0.0019531 0.0412580 0.9980469 -0.0412580
150 0.9978769 -0.0431320 0.0021231 0.0431320 0.0021231 0.0431320 0.9978769 -0.0431320
156 0.9976916 -0.0450905 0.0023084 0.0450905 0.0023084 0.0450905 0.9976916 -0.0450905
164 0.9974897 -0.0471370 0.0025103 0.0471370 0.0025103 0.0471370 0.9974897 -0.0471370
171 0.9972697 -0.0492755 0.0027303 0.0492755 0.0027303 0.0492755 0.9972697 -0.0492755
179 0.9970299 -0.0515099 0.0029701 0.0515099 0.0029701 0.0515099 0.9970299 -0.0515099
187 0.9967685 -0.0538444 0.0032315 0.0538444 0.0032315 0.0538444 0.9967685 -0.0538444
196 0.9964836 -0.0562833 0.0035164 0.0562833 0.0035164 0.0562833 0.9964836 -0.0562833
205 0.9961730 -0.0588312 0.0038270 0.0588312 0.0038270 0.0588312 0.9961730 -0.0588312
214 0.9958345 -0.0614927 0.0041655 0.0614927 0.0041655 0.0614927 0.9958345 -0.0614927
224 0.9954655 -0.0642725 0.0045345 0.0642725 0.0045345 0.0642725 0.9954655 -0.0642725
234 0.9950633 -0.0671758 0.0049367 0.0671758 0.0049367 0.0671758 0.9950633 -0.0671758
245 0.9946247 -0.0702077 0.0053753 0.0702077 0.0053753 0.0702077 0.9946247 -0.0702077
256 0.9941467 -0.0733735 0.0058533 0.0733735 0.0058533 0.0733735 0.9941467 -0.0733735
268 0.9936254 -0.0766787 0.0063746 0.0766787 0.0063746 0.0766787 0.9936254 -0.0766787
280 0.9930572 -0.0801291 0.0069428 0.0801291 0.0069428 0.0801291 0.9930572 -0.0801291
293 0.9924376 -0.0837304 0.0075624 0.0837304 0.0075624 0.0837304 0.9924376 -0.0837304
306 0.9917621 -0.0874887 0.0082379 0.0874887 0.0082379 0.0874887 0.9917621 -0.0874887
320 0.9910257 -0.0914101 0.0089743 0.0914101 0.0089743 0.0914101 0.9910257 -0.0914101
335 0.9902228 -0.0955009 0.0097772 0.0955009 0.0097772 0.0955009 0.9902228 -0.0955009
350 0.9893475 -0.0997674 0.0106525 0.0997674 0.0106525 0.0997674 0.9893475 -0.0997674
366 0.9883934 -0.1042162 0.0116066 0.1042162 0.0116066 0.1042162 0.9883934 -0.1042162
383 0.9873535 -0.1088539 0.0126465 0.1088539 0.0126465 0.1088539 0.9873535 -0.1088539
401 0.9862201 -0.1136870 0.0137799 0.1136870 0.0137799 0.1136870 0.9862201 -0.1136870
419 0.9849850 -0.1187222 0.0150150 0.1187222 0.0150150 0.1187222 0.9849850 -0.1187222
438 0.9836394 -0.1239662 0.0163606 0.1239662 0.0163606 0.1239662 0.9836394 -0.1239662
458 0.9821736 -0.1294256 0.0178264 0.1294256 0.0178264 0.1294256 0.9821736 -0.1294256
479 0.9805773 -0.1351069 0.0194227 0.1351069 0.0194227 0.1351069 0.9805773 -0.1351069
501 0.9788393 -0.1410165 0.0211607 0.1410165 0.0211607 0.1410165 0.9788393 -0.1410165
524 0.9769475 -0.1471605 0.0230525 0.1471605 0.0230525 0.1471605 0.9769475 -0.1471605
548 0.9748890 -0.1535450 0.0251110 0.1535450 0.0251110 0.1535450 0.9748890 -0.1535450
573 0.9726499 -0.1601754 0.0273501 0.1601754 0.0273501 0.1601754 0.9726499 -0.1601754
600 0.9702154 -0.1670569 0.0297846 0.1670569 0.0297846 0.1670569 0.9702154 -0.1670569
627 0.9675695 -0.1741940 0.0324305 0.1741940 0.0324305 0.1741940 0.9675695 -0.1741940
656 0.9646953 -0.1815909 0.0353047 0.1815909 0.0353047 0.1815909 0.9646953 -0.1815909
686 0.9615745 -0.1892507 0.0384255 0.1892507 0.0384255 0.1892507 0.9615745 -0.1892507
717 0.9581881 -0.1971757 0.0418119 0.1971757 0.0418119 0.1971757 0.9581881 -0.1971757
750 0.9545156 -0.2053672 0.0454844 0.2053672 0.0454844 0.2053672 0.9545156 -0.2053672
784 0.9505356 -0.2138254 0.0494644 0.2138254 0.0494644 0.2138254 0.9505356 -0.2138254
820 0.9462252 -0.2225489 0.0537748 0.2225489 0.0537748 0.2225489 0.9462252 -0.2225489
858 0.9415607 -0.2315350 0.0584393 0.2315350 0.0584393 0.2315350 0.9415607 -0.2315350
897 0.9365171 -0.2407790 0.0634829 0.2407790 0.0634829 0.2407790 0.9365171 -0.2407790
938 0.9310687 -0.2502744 0.0689313 0.2502744 0.0689313 0.2502744 0.9310687 -0.2502744
981 0.9251885 -0.2600125 0.0748115 0.2600125 0.0748115 0.2600125 0.9251885 -0.2600125
1026 0.9188488 -0.2699819 0.0811512 0.2699819 0.0811512 0.2699819 0.9188488 -0.2699819
1073 0.9120215 -0.2801689 0.0879785 0.2801689 0.0879785 0.2801689 0.9120215 -0.2801689
1122 0.9046777 -0.2905566 0.0953223 0.2905566 0.0953223 0.2905566 0.9046777 -0.2905566
1174 0.8967885 -0.3011250 0.1032115 0.3011250 0.1032115 0.3011250 0.8967885 -0.3011250
1227 0.8883251 -0.3118507 0.1116749 0.3118507 0.1116749 0.3118507 0.8883251 -0.3118507
1283 0.8792592 -0.3227066 0.1207408 0.3227066 0.1207408 0.3227066 0.8792592 -0.3227066
1342 0.8695631 -0.3336620 0.1304369 0.3336620 0.1304369 0.3336620 0.8695631 -0.3336620
1404 0.8592106 -0.3446819 0.1407894 0.3446819 0.1407894 0.3446819 0.8592106 -0.3446819
1468 0.8481772 -0.3557275 0.1518228 0.3557275 0.1518228 0.3557275 0.8481772 -0.3557275
1535 0.8364407 -0.3667557 0.1635593 0.3667557 0.1635593 0.3667557 0.8364407 -0.3667557
1606 0.8239820 -0.3777194 0.1760180 0.3777194 0.1760180 0.3777194 0.8239820 -0.3777194
1679 0.8107854 -0.3885674 0.1892146 0.3885674 0.1892146 0.3885674 0.8107854 -0.3885674
1756 0.7968395 -0.3992448 0.2031605 0.3992448 0.2031605 0.3992448 0.7968395 -0.3992448
1836 0.7821379 -0.4096931 0.2178621 0.4096931 0.2178621 0.4096931 0.7821379 -0.4096931
1920 0.7666796 -0.4198510 0.2333204 0.4198510 0.2333204 0.4198510 0.7666796 -0.4198510
2008 0.7504701 -0.4296546 0.2495299 0.4296546 0.2495299 0.4296546 0.7504701 -0.4296546
2100 0.7335213 -0.4390381 0.2664787 0.4390381 0.2664787 0.4390381 0.7335213 -0.4390381
2196 0.7158526 -0.4479349 0.2841474 0.4479349 0.2841474 0.4479349 0.7158526 -0.4479349
2297 0.6974911 -0.4562783 0.3025089 0.4562783 0.3025089 0.4562783 0.6974911 -0.4562783
2402 0.6784717 -0.4640027 0.3215283 0.4640027 0.3215283 0.4640027 0.6784717 -0.4640027
2512 0.6588374 -0.4710445 0.3411626 0.4710445 0.3411626 0.4710445 0.6588374 -0.4710445
2627 0.6386390 -0.4773434 0.3613610 0.4773434 0.3613610 0.4773434 0.6386390 -0.4773434
2748 0.6179348 -0.4828435 0.3820652 0.4828435 0.3820652 0.4828435 0.6179348 -0.4828435
2873 0.5967906 -0.4874945 0.4032094 0.4874945 0.4032094 0.4874945 0.5967906 -0.4874945
3005 0.5752783 -0.4912527 0.4247217 0.4912527 0.4247217 0.4912527 0.5752783 -0.4912527
3143 0.5534755 -0.4940821 0.4465245 0.4940821 0.4465245 0.4940821 0.5534755 -0.4940821
3287 0.5314641 -0.4959552 0.4685359 0.4959552 0.4685359 0.4959552 0.5314641 -0.4959552
3437 0.5093295 -0.4968535 0.4906705 0.4968535 0.4906705 0.4968535 0.5093295 -0.4968535
3594 0.4871589 -0.4967683 0.5128411 0.4967683 0.5128411 0.4967683 0.4871589 -0.4967683
3759 0.4650400 -0.4957002 0.5349600 0.4957002 0.5349600 0.4957002 0.4650400 -0.4957002
3931 0.4430599 -0.4936601 0.5569401 0.4936601 0.5569401 0.4936601 0.4430599 -0.4936601
4111 0.4213033 -0.4906682 0.5786967 0.4906682 0.5786967 0.4906682 0.4213033 -0.4906682
4299 0.3998516 -0.4867534 0.6001484 0.4867534 0.6001484 0.4867534 0.3998516 -0.4867534
4496 0.3787812 -0.4819535 0.6212188 0.4819535 0.6212188 0.4819535 0.3787812 -0.4819535
4702 0.3581631 -0.4763132 0.6418369 0.4763132 0.6418369 0.4763132 0.3581631 -0.4763132
4918 0.3380614 -0.4698841 0.6619386 0.4698841 0.6619386 0.4698841 0.3380614 -0.4698841
5143 0.3185334 -0.4627230 0.6814666 0.4627230 0.6814666 0.4627230 0.3185334 -0.4627230
5378 0.2996284 -0.4548907 0.7003716 0.4548907 0.7003716 0.4548907 0.2996284 -0.4548907
5625 0.2813878 -0.4464514 0.7186122 0.4464514 0.7186122 0.4464514 0.2813878 -0.4464514
5882 0.2638450 -0.4374710 0.7361550 0.4374710 0.7361550 0.4374710 0.2638450 -0.4374710
6151 0.2470256 -0.4280162 0.7529744 0.4280162 0.7529744 0.4280162 0.2470256 -0.4280162
6433 0.2309476 -0.4181535 0.7690524 0.4181535 0.7690524 0.4181535 0.2309476 -0.4181535
6728 0.2156218 -0.4079482 0.7843782 0.4079482 0.7843782 0.4079482 0.2156218 -0.4079482
7036 0.2010521 -0.3974639 0.7989479 0.3974639 0.7989479 0.3974639 0.2010521 -0.3974639
7358 0.1872368 -0.3867615 0.8127632 0.3867615 0.8127632 0.3867615 0.1872368 -0.3867615
7695 0.1741682 -0.3758985 0.8258318 0.3758985 0.8258318 0.3758985 0.1741682 -0.3758985
8047 0.1618342 -0.3649293 0.8381658 0.3649293 0.8381658 0.3649293 0.1618342 -0.3649293
8416 0.1502185 -0.3539042 0.8497815 0.3539042 0.8497815 0.3539042 0.1502185 -0.3539042
8801 0.1393012 -0.3428695 0.8606988 0.3428695 0.8606988 0.3428695 0.1393012 -0.3428695
9204 0.1290598 -0.3318674 0.8709402 0.3318674 0.8709402 0.3318674 0.1290598 -0.3318674
9626 0.1194694 -0.3209360 0.8805306 0.3209360 0.8805306 0.3209360 0.1194694 -0.3209360
10066 0.1105035 -0.3101093 0.8894965 0.3101093 0.8894965 0.3101093 0.1105035 -0.3101093
10527 0.1021344 -0.2994174 0.8978656 0.2994174 0.8978656 0.2994174 0.1021344 -0.2994174
11009 0.0943338 -0.2888866 0.9056662 0.2888866 0.9056662 0.2888866 0.0943338 -0.2888866
11514 0.0870727 -0.2785395 0.9129273 0.2785395 0.9129273 0.2785395 0.0870727 -0.2785395
12041 0.0803224 -0.2683955 0.9196776 0.2683955 0.9196776 0.2683955 0.0803224 -0.2683955
12592 0.0740543 -0.2584709 0.9259457 0.2584709 0.9259457 0.2584709 0.0740543 -0.2584709
13169 0.0682403 -0.2487789 0.9317597 0.2487789 0.9317597 0.2487789 0.0682403 -0.2487789
13772 0.0628530 -0.2393304 0.9371470 0.2393304 0.9371470 0.2393304 0.0628530 -0.2393304
14402 0.0578659 -0.2301337 0.9421341 0.2301337 0.9421341 0.2301337 0.0578659 -0.2301337
15062 0.0532532 -0.2211949 0.9467468 0.2211949 0.9467468 0.2211949 0.0532532 -0.2211949
15752 0.0489904 -0.2125184 0.9510096 0.2125184 0.9510096 0.2125184 0.0489904 -0.2125184
16473 0.0450539 -0.2041067 0.9549461 0.2041067 0.9549461 0.2041067 0.0450539 -0.2041067
17227 0.0414214 -0.1959608 0.9585786 0.1959608 0.9585786 0.1959608 0.0414214 -0.1959608
18016 0.0380716 -0.1880805 0.9619284 0.1880805 0.9619284 0.1880805 0.0380716 -0.1880805
18841 0.0349844 -0.1804643 0.9650156 0.1804643 0.9650156 0.1804643 0.0349844 -0.1804643
19704 0.0321408 -0.1731097 0.9678592 0.1731097 0.9678592 0.1731097 0.0321408 -0.1731097
20606 0.0295231 -0.1660136 0.9704769 0.1660136 0.9704769 0.1660136 0.0295231 -0.1660136
21550 0.0271144 -0.1591718 0.9728856 0.1591718 0.9728856 0.1591718 0.0271144 -0.1591718
22537 0.0248992 -0.1525798 0.9751008 0.1525798 0.9751008 0.1525798 0.0248992 -0.1525798
23569 0.0228626 -0.1462323 0.9771374 0.1462323 0.9771374 0.1462323 0.0228626 -0.1462323
24648 0.0209910 -0.1401238 0.9790090 0.1401238 0.9790090 0.1401238 0.0209910 -0.1401238
25777 0.0192717 -0.1342485 0.9807283 0.1342485 0.9807283 0.1342485 0.0192717 -0.1342485
26957 0.0176928 -0.1286001 0.9823072 0.1286001 0.9823072 0.1286001 0.0176928 -0.1286001
28191 0.0162432 -0.1231724 0.9837568 0.1231724 0.9837568 0.1231724 0.0162432 -0.1231724
29482 0.0149126 -0.1179589 0.9850874 0.1179589 0.9850874 0.1179589 0.0149126 -0.1179589
30832 0.0136917 -0.1129530 0.9863083 0.1129530 0.9863083 0.1129530 0.0136917 -0.1129530
32244 0.0125716 -0.1081482 0.9874284 0.1081482 0.9874284 0.1081482 0.0125716 -0.1081482
33721 0.0115442 -0.1035377 0.9884558 0.1035377 0.9884558 0.1035377 0.0115442 -0.1035377
35265 0.0106019 -0.0991152 0.9893981 0.0991152 0.9893981 0.0991152 0.0106019 -0.0991152
36880 0.0097377 -0.0948739 0.9902623 0.0948739 0.9902623 0.0948739 0.0097377 -0.0948739
38569 0.0089454 -0.0908077 0.9910546 0.0908077 0.9910546 0.0908077 0.0089454 -0.0908077
40335 0.0082190 -0.0869099 0.9917810 0.0869099 0.9917810 0.0869099 0.0082190 -0.0869099
42182 0.0075529 -0.0831746 0.9924471 0.0831746 0.9924471 0.0831746 0.0075529 -0.0831746
44113 0.0069423 -0.0795955 0.9930577 0.0795955 0.9930577 0.0795955 0.0069423 -0.0795955
46134 0.0063825 -0.0761668 0.9936175 0.0761668 0.9936175 0.0761668 0.0063825 -0.0761668
48246 0.0058692 -0.0728826 0.9941308 0.0728826 0.9941308 0.0728826 0.0058692 -0.0728826
50455 0.0053986 -0.0697373 0.9946014 0.0697373 0.9946014 0.0697373 0.0053986 -0.0697373
52766 0.0049671 -0.0667254 0.9950329 0.0667254 0.9950329 0.0667254 0.0049671 -0.0667254
55182 0.0045713 -0.0638416 0.9954287 0.0638416 0.9954287 0.0638416 0.0045713 -0.0638416
57709 0.0042083 -0.0610806 0.9957917 0.0610806 0.9957917 0.0610806 0.0042083 -0.0610806
60352 0.0038753 -0.0584376 0.9961247 0.0584376 0.9961247 0.0584376 0.0038753 -0.0584376
63115 0.0035697 -0.0559077 0.9964303 0.0559077 0.9964303 0.0559077 0.0035697 -0.0559077
66005 0.0032893 -0.0534862 0.9967107 0.0534862 0.9967107 0.0534862 0.0032893 -0.0534862
69028 0.0030319 -0.0511687 0.9969681 0.0511687 0.9969681 0.0511687 0.0030319 -0.0511687
72189 0.0027955 -0.0489507 0.9972045 0.0489507 0.9972045 0.0489507 0.0027955 -0.0489507
75495 0.0025784 -0.0468282 0.9974216 0.0468282 0.9974216 0.0468282 0.0025784 -0.0468282
78952 0.0023790 -0.0447971 0.9976210 0.0447971 0.9976210 0.0447971 0.0023790 -0.0447971
82567 0.0021957 -0.0428535 0.9978043 0.0428535 0.9978043 0.0428535 0.0021957 -0.0428535
86348 0.0020272 -0.0409937 0.9979728 0.0409937 0.9979728 0.0409937 0.0020272 -0.0409937
90302 0.0018723 -0.0392141 0.9981277 0.0392141 0.9981277 0.0392141 0.0018723 -0.0392141
94437 0.0017298 -0.0375114 0.9982702 0.0375114 0.9982702 0.0375114 0.0017298 -0.0375114
98762 0.0015987 -0.0358822 0.9984013 0.0358822 0.9984013 0.0358822 0.0015987 -0.0358822
103284 0.0014781 -0.0343234 0.9985219 0.0343234 0.9985219 0.0343234 0.0014781 -0.0343234
108014 0.0013671 -0.0328320 0.9986329 0.0328320 0.9986329 0.0328320 0.0013671 -0.0328320
112960 0.0012649 -0.0314050 0.9987351 0.0314050 0.9987351 0.0314050 0.0012649 -0.0314050
118133 0.0011708 -0.0300397 0.9988292 0.0300397 0.9988292 0.0300397 0.0011708 -0.0300397
123542 0.0010842 -0.0287334 0.9989158 0.0287334 0.9989158 0.0287334 0.0010842 -0.0287334
129199 0.0010044 -0.0274836 0.9989956 0.0274836 0.9989956 0.0274836 0.0010044 -0.0274836
135116 0.0009309 -0.0262879 0.9990691 0.0262879 0.9990691 0.0262879 0.0009309 -0.0262879
141303 0.0008632 -0.0251439 0.9991368 0.0251439 0.9991368 0.0251439 0.0008632 -0.0251439
147774 0.0008009 -0.0240495 0.9991991 0.0240495 0.9991991 0.0240495 0.0008009 -0.0240495
154540 0.0007435 -0.0230024 0.9992565 0.0230024 0.9992565 0.0230024 0.0007435 -0.0230024
161617 0.0006907 -0.0220006 0.9993093 0.0220006 0.9993093 0.0220006 0.0006907 -0.0220006
169018 0.0006420 -0.0210423 0.9993580 0.0210423 0.9993580 0.0210423 0.0006420 -0.0210423
176758 0.0005972 -0.0201254 0.9994028 0.0201254 0.9994028 0.0201254 0.0005972 -0.0201254
184852 0.0005559 -0.0192483 0.9994441 0.0192483 0.9994441 0.0192483 0.0005559 -0.0192483
193316 0.0005179 -0.0184092 0.9994821 0.0184092 0.9994821 0.0184092 0.0005179 -0.0184092
202169 0.0004829 -0.0176065 0.9995171 0.0176065 0.9995171 0.0176065 0.0004829 -0.0176065
211427 0.0004507 -0.0168387 0.9995493 0.0168387 0.9995493 0.0168387 0.0004507 -0.0168387
221108 0.0004210 -0.0161041 0.9995790 0.0161041 0.9995790 0.0161041 0.0004210 -0.0161041
231233 0.0003938 -0.0154015 0.9996062 0.0154015 0.9996062 0.0154015 0.0003938 -0.0154015
241822 0.0003686 -0.0147293 0.9996314 0.0147293 0.9996314 0.0147293 0.0003686 -0.0147293
252896 0.0003455 -0.0140864 0.9996545 0.0140864 0.9996545 0.0140864 0.0003455 -0.0140864
264476 0.0003242 -0.0134714 0.9996758 0.0134714 0.9996758 0.0134714 0.0003242 -0.0134714
276587 0.0003046 -0.0128831 0.9996954 0.0128831 0.9996954 0.0128831 0.0003046 -0.0128831
289253 0.0002865 -0.0123204 0.9997135 0.0123204 0.9997135 0.0123204 0.0002865 -0.0123204
302498 0.0002699 -0.0117822 0.9997301 0.0117822 0.9997301 0.0117822 0.0002699 -0.0117822
316350 0.0002546 -0.0112674 0.9997454 0.0112674 0.9997454 0.0112674 0.0002546 -0.0112674
330837 0.0002404 -0.0107749 0.9997596 0.0107749 0.9997596 0.0107749 0.0002404 -0.0107749
345986 0.0002274 -0.0103039 0.9997726 0.0103039 0.9997726 0.0103039 0.0002274 -0.0103039
361830 0.0002153 -0.0098534 0.9997847 0.0098534 0.9997847 0.0098534 0.0002153 -0.0098534
378399 0.0002042 -0.0094225 0.9997958 0.0094225 0.9997958 0.0094225 0.0002042 -0.0094225
395726 0.0001939 -0.0090103 0.9998061 0.0090103 0.9998061 0.0090103 0.0001939 -0.0090103
413847 0.0001844 -0.0086160 0.9998156 0.0086160 0.9998156 0.0086160 0.0001844 -0.0086160
432798 0.0001756 -0.0082389 0.9998244 0.0082389 0.9998244 0.0082389 0.0001756 -0.0082389
452617 0.0001675 -0.0078782 0.9998325 0.0078782 0.9998325 0.0078782 0.0001675 -0.0078782
473344 0.0001599 -0.0075331 0.9998401 0.0075331 0.9998401 0.0075331 0.0001599 -0.0075331
495019 0.0001529 -0.0072030 0.9998471 0.0072030 0.9998471 0.0072030 0.0001529 -0.0072030
517687 0.0001463 -0.0068873 0.9998537 0.0068873 0.9998537 0.0068873 0.0001463 -0.0068873
541393 0.0001402 -0.0065852 0.9998598 0.0065852 0.9998598 0.0065852 0.0001402 -0.0065852
566185 0.0001346 -0.0062962 0.9998654 0.0062962 0.9998654 0.0062962 0.0001346 -0.0062962
592111 0.0001293 -0.0060197 0.9998707 0.0060197 0.9998707 0.0060197 0.0001293 -0.0060197
619225 0.0001244 -0.0057552 0.9998756 0.0057552 0.9998756 0.0057552 0.0001244 -0.0057552
647581 0.0001198 -0.0055021 0.9998802 0.0055021 0.9998802 0.0055021 0.0001198 -0.0055021
677235 0.0001155 -0.0052600 0.9998845 0.0052600 0.9998845 0.0052600 0.0001155 -0.0052600
708247 0.0001114 -0.0050282 0.9998886 0.0050282 0.9998886 0.0050282 0.0001114 -0.0050282
740679 0.0001077 -0.0048065 0.9998923 0.0048065 0.9998923 0.0048065 0.0001077 -0.0048065
774597 0.0001041 -0.0045943 0.9998959 0.0045943 0.9998959 0.0045943 0.0001041 -0.0045943
810067 0.0001008 -0.0043912 0.9998992 0.0043912 0.9998992 0.0043912 0.0001008 -0.0043912
847162 0.0000977 -0.0041968 0.9999023 0.0041968 0.9999023 0.0041968 0.0000977 -0.0041968
885955 0.0000948 -0.0040107 0.9999052 0.0040107 0.9999052 0.0040107 0.0000948 -0.0040107
926525 0.0000921 -0.0038325 0.9999079 0.0038325 0.9999079 0.0038325 0.0000921 -0.0038325
968953 0.0000896 -0.0036620 0.9999104 0.0036620 0.9999104 0.0036620 0.0000896 -0.0036620
1013323 0.0000872 -0.0034987 0.9999128 0.0034987 0.9999128 0.0034987 0.0000872 -0.0034987
1059725 0.0000850 -0.0033423 0.9999150 0.0033423 0.9999150 0.0033423 0.0000850 -0.0033423
1108252 0.0000829 -0.0031926 0.9999171 0.0031926 0.9999171 0.0031926 0.0000829 -0.0031926
1159002 0.0000810 -0.0030492 0.9999190 0.0030492 0.9999190 0.0030492 0.0000810 -0.0030492
1212075 0.0000792 -0.0029118 0.9999208 0.0029118 0.9999208 0.0029118 0.0000792 -0.0029118
1267578 0.0000775 -0.0027802 0.9999225 0.0027802 0.9999225 0.0027802 0.0000775 -0.0027802
1325623 0.0000759 -0.0026541 0.9999241 0.0026541 0.9999241 0.0026541 0.0000759 -0.0026541
1386327 0.0000745 -0.0025333 0.9999255 0.0025333 0.9999255 0.0025333 0.0000745 -0.0025333
1449809 0.0000732 -0.0024175 0.9999268 0.0024175 0.9999268 0.0024175 0.0000732 -0.0024175
1516199 0.0000720 -0.0023065 0.9999280 0.0023065 0.9999280 0.0023065 0.0000720 -0.0023065
1585629 0.0000708 -0.0022001 0.9999292 0.0022001 0.9999292 0.0022001 0.0000708 -0.0022001
1658239 0.0000698 -0.0020981 0.9999302 0.0020981 0.9999302 0.0020981 0.0000698 -0.0020981
1734173 0.0000689 -0.0020002 0.9999311 0.0020002 0.9999311 0.0020002 0.0000689 -0.0020002
1813585 0.0000680 -0.0019063 0.9999320 0.0019063 0.9999320 0.0019063 0.0000680 -0.0019063
1896632 0.0000673 -0.0018162 0.9999327 0.0018162 0.9999327 0.0018162 0.0000673 -0.0018162
1983483 0.0000666 -0.0017297 0.9999334 0.0017297 0.9999334 0.0017297 0.0000666 -0.0017297
2074311 0.0000660 -0.0016466 0.9999340 0.0016466 0.9999340 0.0016466 0.0000660 -0.0016466
