!Murata Part Number: GRM216R71H103KA01
!These Parameters are Measured in Series Mode Connection
!Data Generated on Mar 30, 2021
!       o--ll--o
!Port1            Port2
!       o------o
!Operation Temp=25[degC], DC Bias Voltage=0[V]
!Freq. Start=100[Hz] Stop=6[GHz] 401[Steps]
# Hz S RI R 50
!Freq.(Hz) S11(Real) S11(Imag) S21(Real) S21(Imag) S12(Real) S12(Imag) S22(Real) S22(Imag)
100 0.9999966 -0.0006316 0.0000034 0.0006316 0.0000034 0.0006316 0.9999966 -0.0006316
105 0.9999965 -0.0006604 0.0000035 0.0006604 0.0000035 0.0006604 0.9999965 -0.0006604
109 0.9999963 -0.0006906 0.0000037 0.0006906 0.0000037 0.0006906 0.9999963 -0.0006906
114 0.9999961 -0.0007221 0.0000039 0.0007221 0.0000039 0.0007221 0.9999961 -0.0007221
120 0.9999959 -0.0007551 0.0000041 0.0007551 0.0000041 0.0007551 0.9999959 -0.0007551
125 0.9999957 -0.0007895 0.0000043 0.0007895 0.0000043 0.0007895 0.9999957 -0.0007895
131 0.9999955 -0.0008256 0.0000045 0.0008256 0.0000045 0.0008256 0.9999955 -0.0008256
137 0.9999953 -0.0008633 0.0000047 0.0008633 0.0000047 0.0008633 0.9999953 -0.0008633
143 0.9999950 -0.0009027 0.0000050 0.0009027 0.0000050 0.0009027 0.9999950 -0.0009027
150 0.9999948 -0.0009439 0.0000052 0.0009439 0.0000052 0.0009439 0.9999948 -0.0009439
156 0.9999945 -0.0009870 0.0000055 0.0009870 0.0000055 0.0009870 0.9999945 -0.0009870
164 0.9999942 -0.0010321 0.0000058 0.0010321 0.0000058 0.0010321 0.9999942 -0.0010321
171 0.9999939 -0.0010792 0.0000061 0.0010792 0.0000061 0.0010792 0.9999939 -0.0010792
179 0.9999935 -0.0011285 0.0000065 0.0011285 0.0000065 0.0011285 0.9999935 -0.0011285
187 0.9999932 -0.0011800 0.0000068 0.0011800 0.0000068 0.0011800 0.9999932 -0.0011800
196 0.9999928 -0.0012339 0.0000072 0.0012339 0.0000072 0.0012339 0.9999928 -0.0012339
205 0.9999924 -0.0012902 0.0000076 0.0012902 0.0000076 0.0012902 0.9999924 -0.0012902
214 0.9999920 -0.0013491 0.0000080 0.0013491 0.0000080 0.0013491 0.9999920 -0.0013491
224 0.9999915 -0.0014107 0.0000085 0.0014107 0.0000085 0.0014107 0.9999915 -0.0014107
234 0.9999910 -0.0014751 0.0000090 0.0014751 0.0000090 0.0014751 0.9999910 -0.0014751
245 0.9999905 -0.0015425 0.0000095 0.0015425 0.0000095 0.0015425 0.9999905 -0.0015425
256 0.9999900 -0.0016129 0.0000100 0.0016129 0.0000100 0.0016129 0.9999900 -0.0016129
268 0.9999894 -0.0016865 0.0000106 0.0016865 0.0000106 0.0016865 0.9999894 -0.0016865
280 0.9999888 -0.0017635 0.0000112 0.0017635 0.0000112 0.0017635 0.9999888 -0.0017635
293 0.9999881 -0.0018440 0.0000119 0.0018440 0.0000119 0.0018440 0.9999881 -0.0018440
306 0.9999874 -0.0019282 0.0000126 0.0019282 0.0000126 0.0019282 0.9999874 -0.0019282
320 0.9999867 -0.0020162 0.0000133 0.0020162 0.0000133 0.0020162 0.9999867 -0.0020162
335 0.9999859 -0.0021083 0.0000141 0.0021083 0.0000141 0.0021083 0.9999859 -0.0021083
350 0.9999851 -0.0022045 0.0000149 0.0022045 0.0000149 0.0022045 0.9999851 -0.0022045
366 0.9999842 -0.0023052 0.0000158 0.0023052 0.0000158 0.0023052 0.9999842 -0.0023052
383 0.9999832 -0.0024104 0.0000168 0.0024104 0.0000168 0.0024104 0.9999832 -0.0024104
401 0.9999822 -0.0025205 0.0000178 0.0025205 0.0000178 0.0025205 0.9999822 -0.0025205
419 0.9999811 -0.0026355 0.0000189 0.0026355 0.0000189 0.0026355 0.9999811 -0.0026355
438 0.9999800 -0.0027559 0.0000200 0.0027559 0.0000200 0.0027559 0.9999800 -0.0027559
458 0.9999787 -0.0028817 0.0000213 0.0028817 0.0000213 0.0028817 0.9999787 -0.0028817
479 0.9999774 -0.0030133 0.0000226 0.0030133 0.0000226 0.0030133 0.9999774 -0.0030133
501 0.9999759 -0.0031509 0.0000241 0.0031509 0.0000241 0.0031509 0.9999759 -0.0031509
524 0.9999744 -0.0032948 0.0000256 0.0032948 0.0000256 0.0032948 0.9999744 -0.0032948
548 0.9999727 -0.0034453 0.0000273 0.0034453 0.0000273 0.0034453 0.9999727 -0.0034453
573 0.9999709 -0.0036026 0.0000291 0.0036026 0.0000291 0.0036026 0.9999709 -0.0036026
600 0.9999690 -0.0037672 0.0000310 0.0037672 0.0000310 0.0037672 0.9999690 -0.0037672
627 0.9999669 -0.0039392 0.0000331 0.0039392 0.0000331 0.0039392 0.9999669 -0.0039392
656 0.9999646 -0.0041192 0.0000354 0.0041192 0.0000354 0.0041192 0.9999646 -0.0041192
686 0.9999622 -0.0043073 0.0000378 0.0043073 0.0000378 0.0043073 0.9999622 -0.0043073
717 0.9999595 -0.0045040 0.0000405 0.0045040 0.0000405 0.0045040 0.9999595 -0.0045040
750 0.9999566 -0.0047098 0.0000434 0.0047098 0.0000434 0.0047098 0.9999566 -0.0047098
784 0.9999535 -0.0049249 0.0000465 0.0049249 0.0000465 0.0049249 0.9999535 -0.0049249
820 0.9999502 -0.0051498 0.0000498 0.0051498 0.0000498 0.0051498 0.9999502 -0.0051498
858 0.9999465 -0.0053850 0.0000535 0.0053850 0.0000535 0.0053850 0.9999465 -0.0053850
897 0.9999426 -0.0056309 0.0000574 0.0056309 0.0000574 0.0056309 0.9999426 -0.0056309
938 0.9999383 -0.0058880 0.0000617 0.0058880 0.0000617 0.0058880 0.9999383 -0.0058880
981 0.9999336 -0.0061569 0.0000664 0.0061569 0.0000664 0.0061569 0.9999336 -0.0061569
1026 0.9999286 -0.0064380 0.0000714 0.0064380 0.0000714 0.0064380 0.9999286 -0.0064380
1073 0.9999232 -0.0067319 0.0000768 0.0067319 0.0000768 0.0067319 0.9999232 -0.0067319
1122 0.9999173 -0.0070393 0.0000827 0.0070393 0.0000827 0.0070393 0.9999173 -0.0070393
1174 0.9999109 -0.0073606 0.0000891 0.0073606 0.0000891 0.0073606 0.9999109 -0.0073606
1227 0.9999039 -0.0076966 0.0000961 0.0076966 0.0000961 0.0076966 0.9999039 -0.0076966
1283 0.9998965 -0.0080478 0.0001035 0.0080478 0.0001035 0.0080478 0.9998965 -0.0080478
1342 0.9998883 -0.0084151 0.0001117 0.0084151 0.0001117 0.0084151 0.9998883 -0.0084151
1404 0.9998796 -0.0087991 0.0001204 0.0087991 0.0001204 0.0087991 0.9998796 -0.0087991
1468 0.9998701 -0.0092005 0.0001299 0.0092005 0.0001299 0.0092005 0.9998701 -0.0092005
1535 0.9998598 -0.0096203 0.0001402 0.0096203 0.0001402 0.0096203 0.9998598 -0.0096203
1606 0.9998487 -0.0100591 0.0001513 0.0100591 0.0001513 0.0100591 0.9998487 -0.0100591
1679 0.9998366 -0.0105180 0.0001634 0.0105180 0.0001634 0.0105180 0.9998366 -0.0105180
1756 0.9998236 -0.0109977 0.0001764 0.0109977 0.0001764 0.0109977 0.9998236 -0.0109977
1836 0.9998095 -0.0114992 0.0001905 0.0114992 0.0001905 0.0114992 0.9998095 -0.0114992
1920 0.9997943 -0.0120236 0.0002057 0.0120236 0.0002057 0.0120236 0.9997943 -0.0120236
2008 0.9997778 -0.0125719 0.0002222 0.0125719 0.0002222 0.0125719 0.9997778 -0.0125719
2100 0.9997600 -0.0131451 0.0002400 0.0131451 0.0002400 0.0131451 0.9997600 -0.0131451
2196 0.9997407 -0.0137444 0.0002593 0.0137444 0.0002593 0.0137444 0.9997407 -0.0137444
2297 0.9997197 -0.0143711 0.0002803 0.0143711 0.0002803 0.0143711 0.9997197 -0.0143711
2402 0.9996971 -0.0150263 0.0003029 0.0150263 0.0003029 0.0150263 0.9996971 -0.0150263
2512 0.9996725 -0.0157113 0.0003275 0.0157113 0.0003275 0.0157113 0.9996725 -0.0157113
2627 0.9996459 -0.0164275 0.0003541 0.0164275 0.0003541 0.0164275 0.9996459 -0.0164275
2748 0.9996170 -0.0171764 0.0003830 0.0171764 0.0003830 0.0171764 0.9996170 -0.0171764
2873 0.9995856 -0.0179595 0.0004144 0.0179595 0.0004144 0.0179595 0.9995856 -0.0179595
3005 0.9995516 -0.0187782 0.0004484 0.0187782 0.0004484 0.0187782 0.9995516 -0.0187782
3143 0.9995146 -0.0196342 0.0004854 0.0196342 0.0004854 0.0196342 0.9995146 -0.0196342
3287 0.9994744 -0.0205293 0.0005256 0.0205293 0.0005256 0.0205293 0.9994744 -0.0205293
3437 0.9994307 -0.0214652 0.0005693 0.0214652 0.0005693 0.0214652 0.9994307 -0.0214652
3594 0.9993831 -0.0224437 0.0006169 0.0224437 0.0006169 0.0224437 0.9993831 -0.0224437
3759 0.9993314 -0.0234667 0.0006686 0.0234667 0.0006686 0.0234667 0.9993314 -0.0234667
3931 0.9992751 -0.0245364 0.0007249 0.0245364 0.0007249 0.0245364 0.9992751 -0.0245364
4111 0.9992137 -0.0256548 0.0007863 0.0256548 0.0007863 0.0256548 0.9992137 -0.0256548
4299 0.9991469 -0.0268242 0.0008531 0.0268242 0.0008531 0.0268242 0.9991469 -0.0268242
4496 0.9990741 -0.0280467 0.0009259 0.0280467 0.0009259 0.0280467 0.9990741 -0.0280467
4702 0.9989947 -0.0293248 0.0010053 0.0293248 0.0010053 0.0293248 0.9989947 -0.0293248
4918 0.9989081 -0.0306611 0.0010919 0.0306611 0.0010919 0.0306611 0.9989081 -0.0306611
5143 0.9988136 -0.0320580 0.0011864 0.0320580 0.0011864 0.0320580 0.9988136 -0.0320580
5378 0.9987106 -0.0335184 0.0012894 0.0335184 0.0012894 0.0335184 0.9987106 -0.0335184
5625 0.9985982 -0.0350450 0.0014018 0.0350450 0.0014018 0.0350450 0.9985982 -0.0350450
5882 0.9984756 -0.0366408 0.0015244 0.0366408 0.0015244 0.0366408 0.9984756 -0.0366408
6151 0.9983418 -0.0383088 0.0016582 0.0383088 0.0016582 0.0383088 0.9983418 -0.0383088
6433 0.9981957 -0.0400523 0.0018043 0.0400523 0.0018043 0.0400523 0.9981957 -0.0400523
6728 0.9980363 -0.0418745 0.0019637 0.0418745 0.0019637 0.0418745 0.9980363 -0.0418745
7036 0.9978623 -0.0437790 0.0021377 0.0437790 0.0021377 0.0437790 0.9978623 -0.0437790
7358 0.9976724 -0.0457693 0.0023276 0.0457693 0.0023276 0.0457693 0.9976724 -0.0457693
7695 0.9974651 -0.0478491 0.0025349 0.0478491 0.0025349 0.0478491 0.9974651 -0.0478491
8047 0.9972389 -0.0500224 0.0027611 0.0500224 0.0027611 0.0500224 0.9972389 -0.0500224
8416 0.9969921 -0.0522931 0.0030079 0.0522931 0.0030079 0.0522931 0.9969921 -0.0522931
8801 0.9967227 -0.0546655 0.0032773 0.0546655 0.0032773 0.0546655 0.9967227 -0.0546655
9204 0.9964287 -0.0571439 0.0035713 0.0571439 0.0035713 0.0571439 0.9964287 -0.0571439
9626 0.9961079 -0.0597327 0.0038921 0.0597327 0.0038921 0.0597327 0.9961079 -0.0597327
10066 0.9957579 -0.0624368 0.0042421 0.0624368 0.0042421 0.0624368 0.9957579 -0.0624368
10527 0.9953761 -0.0652608 0.0046239 0.0652608 0.0046239 0.0652608 0.9953761 -0.0652608
11009 0.9949596 -0.0682099 0.0050404 0.0682099 0.0050404 0.0682099 0.9949596 -0.0682099
11514 0.9945053 -0.0712891 0.0054947 0.0712891 0.0054947 0.0712891 0.9945053 -0.0712891
12041 0.9940099 -0.0745038 0.0059901 0.0745038 0.0059901 0.0745038 0.9940099 -0.0745038
12592 0.9934697 -0.0778595 0.0065303 0.0778595 0.0065303 0.0778595 0.9934697 -0.0778595
13169 0.9928806 -0.0813618 0.0071194 0.0813618 0.0071194 0.0813618 0.9928806 -0.0813618
13772 0.9922385 -0.0850167 0.0077615 0.0850167 0.0077615 0.0850167 0.9922385 -0.0850167
14402 0.9915386 -0.0888300 0.0084614 0.0888300 0.0084614 0.0888300 0.9915386 -0.0888300
15062 0.9907758 -0.0928079 0.0092242 0.0928079 0.0092242 0.0928079 0.9907758 -0.0928079
15752 0.9899445 -0.0969568 0.0100555 0.0969568 0.0100555 0.0969568 0.9899445 -0.0969568
16473 0.9890388 -0.1012829 0.0109612 0.1012829 0.0109612 0.1012829 0.9890388 -0.1012829
17227 0.9880520 -0.1057928 0.0119480 0.1057928 0.0119480 0.1057928 0.9880520 -0.1057928
18016 0.9869772 -0.1104931 0.0130228 0.1104931 0.0130228 0.1104931 0.9869772 -0.1104931
18841 0.9858066 -0.1153906 0.0141934 0.1153906 0.0141934 0.1153906 0.9858066 -0.1153906
19704 0.9845319 -0.1204918 0.0154681 0.1204918 0.0154681 0.1204918 0.9845319 -0.1204918
20606 0.9831442 -0.1258036 0.0168558 0.1258036 0.0168558 0.1258036 0.9831442 -0.1258036
21550 0.9816335 -0.1313326 0.0183665 0.1313326 0.0183665 0.1313326 0.9816335 -0.1313326
22537 0.9799895 -0.1370855 0.0200105 0.1370855 0.0200105 0.1370855 0.9799895 -0.1370855
23569 0.9782006 -0.1430687 0.0217994 0.1430687 0.0217994 0.1430687 0.9782006 -0.1430687
24648 0.9762546 -0.1492884 0.0237454 0.1492884 0.0237454 0.1492884 0.9762546 -0.1492884
25777 0.9741383 -0.1557508 0.0258617 0.1557508 0.0258617 0.1557508 0.9741383 -0.1557508
26957 0.9718374 -0.1624613 0.0281626 0.1624613 0.0281626 0.1624613 0.9718374 -0.1624613
28191 0.9693367 -0.1694252 0.0306633 0.1694252 0.0306633 0.1694252 0.9693367 -0.1694252
29482 0.9666197 -0.1766472 0.0333803 0.1766472 0.0333803 0.1766472 0.9666197 -0.1766472
30832 0.9636690 -0.1841312 0.0363310 0.1841312 0.0363310 0.1841312 0.9636690 -0.1841312
32244 0.9604659 -0.1918802 0.0395341 0.1918802 0.0395341 0.1918802 0.9604659 -0.1918802
33721 0.9569905 -0.1998966 0.0430095 0.1998966 0.0430095 0.1998966 0.9569905 -0.1998966
35265 0.9532218 -0.2081813 0.0467782 0.2081813 0.0467782 0.2081813 0.9532218 -0.2081813
36880 0.9491375 -0.2167341 0.0508625 0.2167341 0.0508625 0.2167341 0.9491375 -0.2167341
38569 0.9447142 -0.2255533 0.0552858 0.2255533 0.0552858 0.2255533 0.9447142 -0.2255533
40335 0.9399272 -0.2346356 0.0600728 0.2346356 0.0600728 0.2346356 0.9399272 -0.2346356
42182 0.9347509 -0.2439755 0.0652491 0.2439755 0.0652491 0.2439755 0.9347509 -0.2439755
44113 0.9291586 -0.2535657 0.0708414 0.2535657 0.0708414 0.2535657 0.9291586 -0.2535657
46134 0.9231226 -0.2633963 0.0768774 0.2633963 0.0768774 0.2633963 0.9231226 -0.2633963
48246 0.9166147 -0.2734549 0.0833853 0.2734549 0.0833853 0.2734549 0.9166147 -0.2734549
50455 0.9096059 -0.2837262 0.0903941 0.2837262 0.0903941 0.2837262 0.9096059 -0.2837262
52766 0.9020672 -0.2941918 0.0979328 0.2941918 0.0979328 0.2941918 0.9020672 -0.2941918
55182 0.8939692 -0.3048298 0.1060308 0.3048298 0.1060308 0.3048298 0.8939692 -0.3048298
57709 0.8852831 -0.3156149 0.1147169 0.3156149 0.1147169 0.3156149 0.8852831 -0.3156149
60352 0.8759806 -0.3265181 0.1240194 0.3265181 0.1240194 0.3265181 0.8759806 -0.3265181
63115 0.8660347 -0.3375061 0.1339653 0.3375061 0.1339653 0.3375061 0.8660347 -0.3375061
66005 0.8554197 -0.3485420 0.1445803 0.3485420 0.1445803 0.3485420 0.8554197 -0.3485420
69028 0.8441125 -0.3595845 0.1558875 0.3595845 0.1558875 0.3595845 0.8441125 -0.3595845
72189 0.8320923 -0.3705882 0.1679077 0.3705882 0.1679077 0.3705882 0.8320923 -0.3705882
75495 0.8193418 -0.3815039 0.1806582 0.3815039 0.1806582 0.3815039 0.8193418 -0.3815039
78952 0.8058479 -0.3922782 0.1941521 0.3922782 0.1941521 0.3922782 0.8058479 -0.3922782
82567 0.7916017 -0.4028545 0.2083983 0.4028545 0.2083983 0.4028545 0.7916017 -0.4028545
86348 0.7766001 -0.4131729 0.2233999 0.4131729 0.2233999 0.4131729 0.7766001 -0.4131729
90302 0.7608455 -0.4231708 0.2391545 0.4231708 0.2391545 0.4231708 0.7608455 -0.4231708
94437 0.7443469 -0.4327838 0.2556531 0.4327838 0.2556531 0.4327838 0.7443469 -0.4327838
98762 0.7271206 -0.4419461 0.2728794 0.4419461 0.2728794 0.4419461 0.7271206 -0.4419461
103284 0.7091898 -0.4505916 0.2908102 0.4505916 0.2908102 0.4505916 0.7091898 -0.4505916
108014 0.6905858 -0.4586548 0.3094142 0.4586548 0.3094142 0.4586548 0.6905858 -0.4586548
112960 0.6713474 -0.4660720 0.3286526 0.4660720 0.3286526 0.4660720 0.6713474 -0.4660720
118133 0.6515214 -0.4727820 0.3484786 0.4727820 0.3484786 0.4727820 0.6515214 -0.4727820
123542 0.6311620 -0.4787277 0.3688380 0.4787277 0.3688380 0.4787277 0.6311620 -0.4787277
129199 0.6103305 -0.4838570 0.3896695 0.4838570 0.3896695 0.4838570 0.6103305 -0.4838570
135116 0.5890950 -0.4881236 0.4109050 0.4881236 0.4109050 0.4881236 0.5890950 -0.4881236
141303 0.5675290 -0.4914885 0.4324710 0.4914885 0.4324710 0.4914885 0.5675290 -0.4914885
147774 0.5457111 -0.4939204 0.4542889 0.4939204 0.4542889 0.4939204 0.5457111 -0.4939204
154540 0.5237233 -0.4953967 0.4762767 0.4953967 0.4762767 0.4953967 0.5237233 -0.4953967
161617 0.5016504 -0.4959037 0.4983496 0.4959037 0.4983496 0.4959037 0.5016504 -0.4959037
169018 0.4795782 -0.4954372 0.5204218 0.4954372 0.5204218 0.4954372 0.4795782 -0.4954372
176758 0.4575924 -0.4940024 0.5424076 0.4940024 0.5424076 0.4940024 0.4575924 -0.4940024
184852 0.4357772 -0.4916137 0.5642228 0.4916137 0.5642228 0.4916137 0.4357772 -0.4916137
193316 0.4142143 -0.4882945 0.5857857 0.4882945 0.5857857 0.4882945 0.4142143 -0.4882945
202169 0.3929814 -0.4840765 0.6070186 0.4840765 0.6070186 0.4840765 0.3929814 -0.4840765
211427 0.3721511 -0.4789993 0.6278489 0.4789993 0.6278489 0.4789993 0.3721511 -0.4789993
221108 0.3517906 -0.4731091 0.6482094 0.4731091 0.6482094 0.4731091 0.3517906 -0.4731091
231233 0.3319602 -0.4664578 0.6680398 0.4664578 0.6680398 0.4664578 0.3319602 -0.4664578
241822 0.3127133 -0.4591023 0.6872867 0.4591023 0.6872867 0.4591023 0.3127133 -0.4591023
252896 0.2940957 -0.4511031 0.7059043 0.4511031 0.7059043 0.4511031 0.2940957 -0.4511031
264476 0.2761458 -0.4425232 0.7238542 0.4425232 0.7238542 0.4425232 0.2761458 -0.4425232
276587 0.2588943 -0.4334273 0.7411057 0.4334273 0.7411057 0.4334273 0.2588943 -0.4334273
289253 0.2423642 -0.4238804 0.7576358 0.4238804 0.7576358 0.4238804 0.2423642 -0.4238804
302498 0.2265717 -0.4139474 0.7734283 0.4139474 0.7734283 0.4139474 0.2265717 -0.4139474
316350 0.2115258 -0.4036918 0.7884742 0.4036918 0.7884742 0.4036918 0.2115258 -0.4036918
330837 0.1972295 -0.3931751 0.8027705 0.3931751 0.8027705 0.3931751 0.1972295 -0.3931751
345986 0.1836799 -0.3824566 0.8163201 0.3824566 0.8163201 0.3824566 0.1836799 -0.3824566
361830 0.1708689 -0.3715922 0.8291311 0.3715922 0.8291311 0.3715922 0.1708689 -0.3715922
378399 0.1587839 -0.3606345 0.8412161 0.3606345 0.8412161 0.3606345 0.1587839 -0.3606345
395726 0.1474085 -0.3496324 0.8525915 0.3496324 0.8525915 0.3496324 0.1474085 -0.3496324
413847 0.1367228 -0.3386311 0.8632772 0.3386311 0.8632772 0.3386311 0.1367228 -0.3386311
432798 0.1267042 -0.3276716 0.8732958 0.3276716 0.8732958 0.3276716 0.1267042 -0.3276716
452617 0.1173280 -0.3167910 0.8826720 0.3167910 0.8826720 0.3167910 0.1173280 -0.3167910
473344 0.1085680 -0.3060225 0.8914320 0.3060225 0.8914320 0.3060225 0.1085680 -0.3060225
495019 0.1003964 -0.2953953 0.8996036 0.2953953 0.8996036 0.2953953 0.1003964 -0.2953953
517687 0.0927852 -0.2849352 0.9072148 0.2849352 0.9072148 0.2849352 0.0927852 -0.2849352
541393 0.0857056 -0.2746643 0.9142944 0.2746643 0.9142944 0.2746643 0.0857056 -0.2746643
566185 0.0791289 -0.2646013 0.9208711 0.2646013 0.9208711 0.2646013 0.0791289 -0.2646013
592111 0.0730267 -0.2547621 0.9269733 0.2547621 0.9269733 0.2547621 0.0730267 -0.2547621
619225 0.0673709 -0.2451597 0.9326291 0.2451597 0.9326291 0.2451597 0.0673709 -0.2451597
647581 0.0621342 -0.2358042 0.9378658 0.2358042 0.9378658 0.2358042 0.0621342 -0.2358042
677235 0.0572902 -0.2267036 0.9427098 0.2267036 0.9427098 0.2267036 0.0572902 -0.2267036
708247 0.0528131 -0.2178638 0.9471869 0.2178638 0.9471869 0.2178638 0.0528131 -0.2178638
740679 0.0486785 -0.2092887 0.9513215 0.2092887 0.9513215 0.2092887 0.0486785 -0.2092887
774597 0.0448629 -0.2009803 0.9551371 0.2009803 0.9551371 0.2009803 0.0448629 -0.2009803
810067 0.0413439 -0.1929393 0.9586561 0.1929393 0.9586561 0.1929393 0.0413439 -0.1929393
847162 0.0381004 -0.1851651 0.9618996 0.1851651 0.9618996 0.1851651 0.0381004 -0.1851651
885955 0.0351123 -0.1776559 0.9648877 0.1776559 0.9648877 0.1776559 0.0351123 -0.1776559
926525 0.0323609 -0.1704088 0.9676391 0.1704088 0.9676391 0.1704088 0.0323609 -0.1704088
968953 0.0298284 -0.1634202 0.9701716 0.1634202 0.9701716 0.1634202 0.0298284 -0.1634202
1013323 0.0274982 -0.1566857 0.9725018 0.1566857 0.9725018 0.1566857 0.0274982 -0.1566857
1059725 0.0253547 -0.1502003 0.9746453 0.1502003 0.9746453 0.1502003 0.0253547 -0.1502003
1108252 0.0233834 -0.1439585 0.9766166 0.1439585 0.9766166 0.1439585 0.0233834 -0.1439585
1159002 0.0215710 -0.1379545 0.9784290 0.1379545 0.9784290 0.1379545 0.0215710 -0.1379545
1212075 0.0199047 -0.1321821 0.9800953 0.1321821 0.9800953 0.1321821 0.0199047 -0.1321821
1267578 0.0183729 -0.1266348 0.9816271 0.1266348 0.9816271 0.1266348 0.0183729 -0.1266348
1325623 0.0169649 -0.1213060 0.9830351 0.1213060 0.9830351 0.1213060 0.0169649 -0.1213060
1386327 0.0156706 -0.1161891 0.9843294 0.1161891 0.9843294 0.1161891 0.0156706 -0.1161891
1449809 0.0144808 -0.1112771 0.9855192 0.1112771 0.9855192 0.1112771 0.0144808 -0.1112771
1516199 0.0133869 -0.1065635 0.9866131 0.1065635 0.9866131 0.1065635 0.0133869 -0.1065635
1585629 0.0123810 -0.1020412 0.9876190 0.1020412 0.9876190 0.1020412 0.0123810 -0.1020412
1658239 0.0114560 -0.0977036 0.9885440 0.0977036 0.9885440 0.0977036 0.0114560 -0.0977036
1734173 0.0106052 -0.0935441 0.9893948 0.0935441 0.9893948 0.0935441 0.0106052 -0.0935441
1813585 0.0098224 -0.0895560 0.9901776 0.0895560 0.9901776 0.0895560 0.0098224 -0.0895560
1896632 0.0091020 -0.0857329 0.9908980 0.0857329 0.9908980 0.0857329 0.0091020 -0.0857329
1983483 0.0084389 -0.0820686 0.9915611 0.0820686 0.9915611 0.0820686 0.0084389 -0.0820686
2074311 0.0078283 -0.0785568 0.9921717 0.0785568 0.9921717 0.0785568 0.0078283 -0.0785568
