!Murata Part Number: GRM21BR61H106ME43
!These Parameters are Measured in Series Mode Connection
!Data Generated on Mar 30, 2021
!       o--ll--o
!Port1            Port2
!       o------o
!Operation Temp=25[degC], DC Bias Voltage=0[V]
!Freq. Start=100[Hz] Stop=6[GHz] 401[Steps]
# Hz S RI R 50
!Freq.(Hz) S11(Real) S11(Imag) S21(Real) S21(Imag) S12(Real) S12(Imag) S22(Real) S22(Imag)
100 0.8164296 -0.3799729 0.1835704 0.3799729 0.1835704 0.3799729 0.8164296 -0.3799729
105 0.8030250 -0.3904864 0.1969750 0.3904864 0.1969750 0.3904864 0.8030250 -0.3904864
109 0.7888980 -0.4008069 0.2111020 0.4008069 0.2111020 0.4008069 0.7888980 -0.4008069
114 0.7740448 -0.4108787 0.2259552 0.4108787 0.2259552 0.4108787 0.7740448 -0.4108787
120 0.7584672 -0.4206431 0.2415328 0.4206431 0.2415328 0.4206431 0.7584672 -0.4206431
125 0.7421724 -0.4300398 0.2578276 0.4300398 0.2578276 0.4300398 0.7421724 -0.4300398
131 0.7251743 -0.4390066 0.2748257 0.4390066 0.2748257 0.4390066 0.7251743 -0.4390066
137 0.7074936 -0.4474808 0.2925064 0.4474808 0.2925064 0.4474808 0.7074936 -0.4474808
143 0.6891577 -0.4553998 0.3108423 0.4553998 0.3108423 0.4553998 0.6891577 -0.4553998
150 0.6702018 -0.4627021 0.3297982 0.4627021 0.3297982 0.4627021 0.6702018 -0.4627021
156 0.6506684 -0.4693281 0.3493316 0.4693281 0.3493316 0.4693281 0.6506684 -0.4693281
164 0.6306073 -0.4752215 0.3693927 0.4752215 0.3693927 0.4752215 0.6306073 -0.4752215
171 0.6100753 -0.4803303 0.3899247 0.4803303 0.3899247 0.4803303 0.6100753 -0.4803303
179 0.5891360 -0.4846076 0.4108640 0.4846076 0.4108640 0.4846076 0.5891360 -0.4846076
187 0.5678591 -0.4880130 0.4321409 0.4880130 0.4321409 0.4880130 0.5678591 -0.4880130
196 0.5463191 -0.4905131 0.4536809 0.4905131 0.4536809 0.4905131 0.5463191 -0.4905131
205 0.5245952 -0.4920829 0.4754048 0.4920829 0.4754048 0.4920829 0.5245952 -0.4920829
214 0.5027691 -0.4927057 0.4972309 0.4927057 0.4972309 0.4927057 0.5027691 -0.4927057
224 0.4809249 -0.4923740 0.5190751 0.4923740 0.5190751 0.4923740 0.4809249 -0.4923740
234 0.4591469 -0.4910897 0.5408531 0.4910897 0.5408531 0.4910897 0.4591469 -0.4910897
245 0.4375185 -0.4888639 0.5624815 0.4888639 0.5624815 0.4888639 0.4375185 -0.4888639
256 0.4161212 -0.4857167 0.5838788 0.4857167 0.5838788 0.4857167 0.4161212 -0.4857167
268 0.3950332 -0.4816769 0.6049668 0.4816769 0.6049668 0.4816769 0.3950332 -0.4816769
280 0.3743280 -0.4767814 0.6256720 0.4767814 0.6256720 0.4767814 0.3743280 -0.4767814
293 0.3540737 -0.4710741 0.6459263 0.4710741 0.6459263 0.4710741 0.3540737 -0.4710741
306 0.3343322 -0.4646052 0.6656678 0.4646052 0.6656678 0.4646052 0.3343322 -0.4646052
320 0.3151582 -0.4574300 0.6848418 0.4574300 0.6848418 0.4574300 0.3151582 -0.4574300
335 0.2965991 -0.4496080 0.7034009 0.4496080 0.7034009 0.4496080 0.2965991 -0.4496080
350 0.2786948 -0.4412014 0.7213052 0.4412014 0.7213052 0.4412014 0.2786948 -0.4412014
366 0.2614772 -0.4322746 0.7385228 0.4322746 0.7385228 0.4322746 0.2614772 -0.4322746
383 0.2449706 -0.4228924 0.7550294 0.4228924 0.7550294 0.4228924 0.2449706 -0.4228924
401 0.2291921 -0.4131197 0.7708079 0.4131197 0.7708079 0.4131197 0.2291921 -0.4131197
419 0.2141516 -0.4030200 0.7858484 0.4030200 0.7858484 0.4030200 0.2141516 -0.4030200
438 0.1998526 -0.3926552 0.8001474 0.3926552 0.8001474 0.3926552 0.1998526 -0.3926552
458 0.1862926 -0.3820845 0.8137074 0.3820845 0.8137074 0.3820845 0.1862926 -0.3820845
479 0.1734640 -0.3713640 0.8265360 0.3713640 0.8265360 0.3713640 0.1734640 -0.3713640
501 0.1613543 -0.3605465 0.8386457 0.3605465 0.8386457 0.3605465 0.1613543 -0.3605465
524 0.1499471 -0.3496807 0.8500529 0.3496807 0.8500529 0.3496807 0.1499471 -0.3496807
548 0.1392226 -0.3388118 0.8607774 0.3388118 0.8607774 0.3388118 0.1392226 -0.3388118
573 0.1291583 -0.3279805 0.8708417 0.3279805 0.8708417 0.3279805 0.1291583 -0.3279805
600 0.1197296 -0.3172236 0.8802704 0.3172236 0.8802704 0.3172236 0.1197296 -0.3172236
627 0.1109102 -0.3065740 0.8890898 0.3065740 0.8890898 0.3065740 0.1109102 -0.3065740
656 0.1026728 -0.2960605 0.8973272 0.2960605 0.8973272 0.2960605 0.1026728 -0.2960605
686 0.0949893 -0.2857084 0.9050107 0.2857084 0.9050107 0.2857084 0.0949893 -0.2857084
717 0.0878314 -0.2755393 0.9121686 0.2755393 0.9121686 0.2755393 0.0878314 -0.2755393
750 0.0811708 -0.2655715 0.9188292 0.2655715 0.9188292 0.2655715 0.0811708 -0.2655715
784 0.0749795 -0.2558205 0.9250205 0.2558205 0.9250205 0.2558205 0.0749795 -0.2558205
820 0.0692301 -0.2462986 0.9307699 0.2462986 0.9307699 0.2462986 0.0692301 -0.2462986
858 0.0638960 -0.2370161 0.9361040 0.2370161 0.9361040 0.2370161 0.0638960 -0.2370161
897 0.0589512 -0.2279804 0.9410488 0.2279804 0.9410488 0.2279804 0.0589512 -0.2279804
938 0.0543709 -0.2191972 0.9456291 0.2191972 0.9456291 0.2191972 0.0543709 -0.2191972
981 0.0501312 -0.2106704 0.9498688 0.2106704 0.9498688 0.2106704 0.0501312 -0.2106704
1026 0.0462096 -0.2024021 0.9537904 0.2024021 0.9537904 0.2024021 0.0462096 -0.2024021
1073 0.0425843 -0.1943930 0.9574157 0.1943930 0.9574157 0.1943930 0.0425843 -0.1943930
1122 0.0392351 -0.1866426 0.9607649 0.1866426 0.9607649 0.1866426 0.0392351 -0.1866426
1174 0.0361424 -0.1791494 0.9638576 0.1791494 0.9638576 0.1791494 0.0361424 -0.1791494
1227 0.0332883 -0.1719110 0.9667117 0.1719110 0.9667117 0.1719110 0.0332883 -0.1719110
1283 0.0306555 -0.1649240 0.9693445 0.1649240 0.9693445 0.1649240 0.0306555 -0.1649240
1342 0.0282279 -0.1581844 0.9717721 0.1581844 0.9717721 0.1581844 0.0282279 -0.1581844
1404 0.0259906 -0.1516879 0.9740094 0.1516879 0.9740094 0.1516879 0.0259906 -0.1516879
1468 0.0239295 -0.1454295 0.9760705 0.1454295 0.9760705 0.1454295 0.0239295 -0.1454295
1535 0.0220313 -0.1394038 0.9779687 0.1394038 0.9779687 0.1394038 0.0220313 -0.1394038
1606 0.0202839 -0.1336053 0.9797161 0.1336053 0.9797161 0.1336053 0.0202839 -0.1336053
1679 0.0186757 -0.1280281 0.9813243 0.1280281 0.9813243 0.1280281 0.0186757 -0.1280281
1756 0.0171961 -0.1226661 0.9828039 0.1226661 0.9828039 0.1226661 0.0171961 -0.1226661
1836 0.0158352 -0.1175132 0.9841648 0.1175132 0.9841648 0.1175132 0.0158352 -0.1175132
1920 0.0145837 -0.1125633 0.9854163 0.1125633 0.9854163 0.1125633 0.0145837 -0.1125633
2008 0.0134331 -0.1078099 0.9865669 0.1078099 0.9865669 0.1078099 0.0134331 -0.1078099
2100 0.0123754 -0.1032468 0.9876246 0.1032468 0.9876246 0.1032468 0.0123754 -0.1032468
2196 0.0114033 -0.0988678 0.9885967 0.0988678 0.9885967 0.0988678 0.0114033 -0.0988678
2297 0.0105099 -0.0946666 0.9894901 0.0946666 0.9894901 0.0946666 0.0105099 -0.0946666
2402 0.0096888 -0.0906371 0.9903112 0.0906371 0.9903112 0.0906371 0.0096888 -0.0906371
2512 0.0089344 -0.0867731 0.9910656 0.0867731 0.9910656 0.0867731 0.0089344 -0.0867731
2627 0.0082410 -0.0830688 0.9917590 0.0830688 0.9917590 0.0830688 0.0082410 -0.0830688
2748 0.0076038 -0.0795181 0.9923962 0.0795181 0.9923962 0.0795181 0.0076038 -0.0795181
2873 0.0070182 -0.0761155 0.9929818 0.0761155 0.9929818 0.0761155 0.0070182 -0.0761155
3005 0.0064799 -0.0728551 0.9935201 0.0728551 0.9935201 0.0728551 0.0064799 -0.0728551
3143 0.0059849 -0.0697317 0.9940151 0.0697317 0.9940151 0.0697317 0.0059849 -0.0697317
3287 0.0055298 -0.0667398 0.9944702 0.0667398 0.9944702 0.0667398 0.0055298 -0.0667398
3437 0.0051112 -0.0638742 0.9948888 0.0638742 0.9948888 0.0638742 0.0051112 -0.0638742
3594 0.0047260 -0.0611299 0.9952740 0.0611299 0.9952740 0.0611299 0.0047260 -0.0611299
3759 0.0043714 -0.0585020 0.9956286 0.0585020 0.9956286 0.0585020 0.0043714 -0.0585020
3931 0.0040450 -0.0559858 0.9959550 0.0559858 0.9959550 0.0559858 0.0040450 -0.0559858
4111 0.0037444 -0.0535767 0.9962556 0.0535767 0.9962556 0.0535767 0.0037444 -0.0535767
4299 0.0034674 -0.0512703 0.9965326 0.0512703 0.9965326 0.0512703 0.0034674 -0.0512703
4496 0.0032121 -0.0490624 0.9967879 0.0490624 0.9967879 0.0490624 0.0032121 -0.0490624
4702 0.0029767 -0.0469487 0.9970233 0.0469487 0.9970233 0.0469487 0.0029767 -0.0469487
4918 0.0027595 -0.0449254 0.9972405 0.0449254 0.9972405 0.0449254 0.0027595 -0.0449254
5143 0.0025591 -0.0429886 0.9974409 0.0429886 0.9974409 0.0429886 0.0025591 -0.0429886
5378 0.0023741 -0.0411348 0.9976259 0.0411348 0.9976259 0.0411348 0.0023741 -0.0411348
5625 0.0022032 -0.0393603 0.9977968 0.0393603 0.9977968 0.0393603 0.0022032 -0.0393603
5882 0.0020454 -0.0376618 0.9979546 0.0376618 0.9979546 0.0376618 0.0020454 -0.0376618
6151 0.0018996 -0.0360361 0.9981004 0.0360361 0.9981004 0.0360361 0.0018996 -0.0360361
6433 0.0017649 -0.0344801 0.9982351 0.0344801 0.9982351 0.0344801 0.0017649 -0.0344801
6728 0.0016403 -0.0329908 0.9983597 0.0329908 0.9983597 0.0329908 0.0016403 -0.0329908
7036 0.0015252 -0.0315655 0.9984748 0.0315655 0.9984748 0.0315655 0.0015252 -0.0315655
7358 0.0014187 -0.0302012 0.9985813 0.0302012 0.9985813 0.0302012 0.0014187 -0.0302012
7695 0.0013203 -0.0288956 0.9986797 0.0288956 0.9986797 0.0288956 0.0013203 -0.0288956
8047 0.0012293 -0.0276460 0.9987707 0.0276460 0.9987707 0.0276460 0.0012293 -0.0276460
8416 0.0011451 -0.0264501 0.9988549 0.0264501 0.9988549 0.0264501 0.0011451 -0.0264501
8801 0.0010673 -0.0253056 0.9989327 0.0253056 0.9989327 0.0253056 0.0010673 -0.0253056
9204 0.0009953 -0.0242103 0.9990047 0.0242103 0.9990047 0.0242103 0.0009953 -0.0242103
9626 0.0009288 -0.0231622 0.9990712 0.0231622 0.9990712 0.0231622 0.0009288 -0.0231622
10066 0.0008673 -0.0221592 0.9991327 0.0221592 0.9991327 0.0221592 0.0008673 -0.0221592
10527 0.0008104 -0.0211994 0.9991896 0.0211994 0.9991896 0.0211994 0.0008104 -0.0211994
11009 0.0007578 -0.0202810 0.9992422 0.0202810 0.9992422 0.0202810 0.0007578 -0.0202810
11514 0.0007091 -0.0194023 0.9992909 0.0194023 0.9992909 0.0194023 0.0007091 -0.0194023
12041 0.0006642 -0.0185615 0.9993358 0.0185615 0.9993358 0.0185615 0.0006642 -0.0185615
12592 0.0006225 -0.0177571 0.9993775 0.0177571 0.9993775 0.0177571 0.0006225 -0.0177571
13169 0.0005840 -0.0169874 0.9994160 0.0169874 0.9994160 0.0169874 0.0005840 -0.0169874
13772 0.0005484 -0.0162511 0.9994516 0.0162511 0.9994516 0.0162511 0.0005484 -0.0162511
14402 0.0005154 -0.0155467 0.9994846 0.0155467 0.9994846 0.0155467 0.0005154 -0.0155467
15062 0.0004849 -0.0148727 0.9995151 0.0148727 0.9995151 0.0148727 0.0004849 -0.0148727
15752 0.0004565 -0.0142281 0.9995435 0.0142281 0.9995435 0.0142281 0.0004565 -0.0142281
16473 0.0004303 -0.0136114 0.9995697 0.0136114 0.9995697 0.0136114 0.0004303 -0.0136114
17227 0.0004059 -0.0130214 0.9995941 0.0130214 0.9995941 0.0130214 0.0004059 -0.0130214
18016 0.0003832 -0.0124571 0.9996168 0.0124571 0.9996168 0.0124571 0.0003832 -0.0124571
18841 0.0003621 -0.0119173 0.9996379 0.0119173 0.9996379 0.0119173 0.0003621 -0.0119173
19704 0.0003425 -0.0114009 0.9996575 0.0114009 0.9996575 0.0114009 0.0003425 -0.0114009
20606 0.0003242 -0.0109070 0.9996758 0.0109070 0.9996758 0.0109070 0.0003242 -0.0109070
21550 0.0003071 -0.0104346 0.9996929 0.0104346 0.9996929 0.0104346 0.0003071 -0.0104346
22537 0.0002912 -0.0099826 0.9997088 0.0099826 0.9997088 0.0099826 0.0002912 -0.0099826
23569 0.0002763 -0.0095503 0.9997237 0.0095503 0.9997237 0.0095503 0.0002763 -0.0095503
24648 0.0002623 -0.0091368 0.9997377 0.0091368 0.9997377 0.0091368 0.0002623 -0.0091368
25777 0.0002492 -0.0087413 0.9997508 0.0087413 0.9997508 0.0087413 0.0002492 -0.0087413
26957 0.0002368 -0.0083629 0.9997632 0.0083629 0.9997632 0.0083629 0.0002368 -0.0083629
28191 0.0002253 -0.0080009 0.9997747 0.0080009 0.9997747 0.0080009 0.0002253 -0.0080009
29482 0.0002144 -0.0076546 0.9997856 0.0076546 0.9997856 0.0076546 0.0002144 -0.0076546
30832 0.0002041 -0.0073233 0.9997959 0.0073233 0.9997959 0.0073233 0.0002041 -0.0073233
32244 0.0001944 -0.0070064 0.9998056 0.0070064 0.9998056 0.0070064 0.0001944 -0.0070064
33721 0.0001853 -0.0067032 0.9998147 0.0067032 0.9998147 0.0067032 0.0001853 -0.0067032
35265 0.0001767 -0.0064131 0.9998233 0.0064131 0.9998233 0.0064131 0.0001767 -0.0064131
36880 0.0001685 -0.0061356 0.9998315 0.0061356 0.9998315 0.0061356 0.0001685 -0.0061356
38569 0.0001608 -0.0058701 0.9998392 0.0058701 0.9998392 0.0058701 0.0001608 -0.0058701
40335 0.0001535 -0.0056160 0.9998465 0.0056160 0.9998465 0.0056160 0.0001535 -0.0056160
42182 0.0001467 -0.0053729 0.9998533 0.0053729 0.9998533 0.0053729 0.0001467 -0.0053729
44113 0.0001402 -0.0051403 0.9998598 0.0051403 0.9998598 0.0051403 0.0001402 -0.0051403
46134 0.0001340 -0.0049178 0.9998660 0.0049178 0.9998660 0.0049178 0.0001340 -0.0049178
48246 0.0001282 -0.0047048 0.9998718 0.0047048 0.9998718 0.0047048 0.0001282 -0.0047048
50455 0.0001228 -0.0045011 0.9998772 0.0045011 0.9998772 0.0045011 0.0001228 -0.0045011
52766 0.0001176 -0.0043061 0.9998824 0.0043061 0.9998824 0.0043061 0.0001176 -0.0043061
55182 0.0001127 -0.0041196 0.9998873 0.0041196 0.9998873 0.0041196 0.0001127 -0.0041196
57709 0.0001081 -0.0039411 0.9998919 0.0039411 0.9998919 0.0039411 0.0001081 -0.0039411
60352 0.0001037 -0.0037703 0.9998963 0.0037703 0.9998963 0.0037703 0.0001037 -0.0037703
63115 0.0000996 -0.0036069 0.9999004 0.0036069 0.9999004 0.0036069 0.0000996 -0.0036069
66005 0.0000957 -0.0034505 0.9999043 0.0034505 0.9999043 0.0034505 0.0000957 -0.0034505
69028 0.0000920 -0.0033009 0.9999080 0.0033009 0.9999080 0.0033009 0.0000920 -0.0033009
72189 0.0000886 -0.0031578 0.9999114 0.0031578 0.9999114 0.0031578 0.0000886 -0.0031578
75495 0.0000853 -0.0030208 0.9999147 0.0030208 0.9999147 0.0030208 0.0000853 -0.0030208
78952 0.0000822 -0.0028898 0.9999178 0.0028898 0.9999178 0.0028898 0.0000822 -0.0028898
82567 0.0000793 -0.0027644 0.9999207 0.0027644 0.9999207 0.0027644 0.0000793 -0.0027644
86348 0.0000765 -0.0026444 0.9999235 0.0026444 0.9999235 0.0026444 0.0000765 -0.0026444
90302 0.0000738 -0.0025296 0.9999262 0.0025296 0.9999262 0.0025296 0.0000738 -0.0025296
94437 0.0000713 -0.0024198 0.9999287 0.0024198 0.9999287 0.0024198 0.0000713 -0.0024198
98762 0.0000690 -0.0023147 0.9999310 0.0023147 0.9999310 0.0023147 0.0000690 -0.0023147
103284 0.0000667 -0.0022142 0.9999333 0.0022142 0.9999333 0.0022142 0.0000667 -0.0022142
108014 0.0000645 -0.0021180 0.9999355 0.0021180 0.9999355 0.0021180 0.0000645 -0.0021180
112960 0.0000625 -0.0020259 0.9999375 0.0020259 0.9999375 0.0020259 0.0000625 -0.0020259
118133 0.0000605 -0.0019378 0.9999395 0.0019378 0.9999395 0.0019378 0.0000605 -0.0019378
123542 0.0000586 -0.0018535 0.9999414 0.0018535 0.9999414 0.0018535 0.0000586 -0.0018535
129199 0.0000569 -0.0017728 0.9999431 0.0017728 0.9999431 0.0017728 0.0000569 -0.0017728
135116 0.0000551 -0.0016956 0.9999449 0.0016956 0.9999449 0.0016956 0.0000551 -0.0016956
141303 0.0000535 -0.0016217 0.9999465 0.0016217 0.9999465 0.0016217 0.0000535 -0.0016217
147774 0.0000519 -0.0015510 0.9999481 0.0015510 0.9999481 0.0015510 0.0000519 -0.0015510
154540 0.0000505 -0.0014833 0.9999495 0.0014833 0.9999495 0.0014833 0.0000505 -0.0014833
161617 0.0000490 -0.0014184 0.9999510 0.0014184 0.9999510 0.0014184 0.0000490 -0.0014184
169018 0.0000477 -0.0013564 0.9999523 0.0013564 0.9999523 0.0013564 0.0000477 -0.0013564
176758 0.0000464 -0.0012970 0.9999536 0.0012970 0.9999536 0.0012970 0.0000464 -0.0012970
184852 0.0000451 -0.0012401 0.9999549 0.0012401 0.9999549 0.0012401 0.0000451 -0.0012401
193316 0.0000439 -0.0011856 0.9999561 0.0011856 0.9999561 0.0011856 0.0000439 -0.0011856
202169 0.0000428 -0.0011335 0.9999572 0.0011335 0.9999572 0.0011335 0.0000428 -0.0011335
211427 0.0000417 -0.0010835 0.9999583 0.0010835 0.9999583 0.0010835 0.0000417 -0.0010835
221108 0.0000407 -0.0010357 0.9999593 0.0010357 0.9999593 0.0010357 0.0000407 -0.0010357
231233 0.0000398 -0.0009899 0.9999602 0.0009899 0.9999602 0.0009899 0.0000398 -0.0009899
241822 0.0000388 -0.0009460 0.9999612 0.0009460 0.9999612 0.0009460 0.0000388 -0.0009460
252896 0.0000380 -0.0009040 0.9999620 0.0009040 0.9999620 0.0009040 0.0000380 -0.0009040
264476 0.0000372 -0.0008637 0.9999628 0.0008637 0.9999628 0.0008637 0.0000372 -0.0008637
276587 0.0000364 -0.0008251 0.9999636 0.0008251 0.9999636 0.0008251 0.0000364 -0.0008251
289253 0.0000357 -0.0007881 0.9999643 0.0007881 0.9999643 0.0007881 0.0000357 -0.0007881
302498 0.0000350 -0.0007527 0.9999650 0.0007527 0.9999650 0.0007527 0.0000350 -0.0007527
316350 0.0000344 -0.0007187 0.9999656 0.0007187 0.9999656 0.0007187 0.0000344 -0.0007187
330837 0.0000338 -0.0006862 0.9999662 0.0006862 0.9999662 0.0006862 0.0000338 -0.0006862
345986 0.0000333 -0.0006550 0.9999667 0.0006550 0.9999667 0.0006550 0.0000333 -0.0006550
361830 0.0000328 -0.0006250 0.9999672 0.0006250 0.9999672 0.0006250 0.0000328 -0.0006250
378399 0.0000323 -0.0005963 0.9999677 0.0005963 0.9999677 0.0005963 0.0000323 -0.0005963
395726 0.0000319 -0.0005688 0.9999681 0.0005688 0.9999681 0.0005688 0.0000319 -0.0005688
413847 0.0000315 -0.0005424 0.9999685 0.0005424 0.9999685 0.0005424 0.0000315 -0.0005424
432798 0.0000311 -0.0005171 0.9999689 0.0005171 0.9999689 0.0005171 0.0000311 -0.0005171
452617 0.0000308 -0.0004928 0.9999692 0.0004928 0.9999692 0.0004928 0.0000308 -0.0004928
473344 0.0000305 -0.0004695 0.9999695 0.0004695 0.9999695 0.0004695 0.0000305 -0.0004695
495019 0.0000302 -0.0004470 0.9999698 0.0004470 0.9999698 0.0004470 0.0000302 -0.0004470
517687 0.0000300 -0.0004255 0.9999700 0.0004255 0.9999700 0.0004255 0.0000300 -0.0004255
541393 0.0000298 -0.0004048 0.9999702 0.0004048 0.9999702 0.0004048 0.0000298 -0.0004048
566185 0.0000296 -0.0003849 0.9999704 0.0003849 0.9999704 0.0003849 0.0000296 -0.0003849
592111 0.0000294 -0.0003658 0.9999706 0.0003658 0.9999706 0.0003658 0.0000294 -0.0003658
619225 0.0000293 -0.0003474 0.9999707 0.0003474 0.9999707 0.0003474 0.0000293 -0.0003474
647581 0.0000292 -0.0003297 0.9999708 0.0003297 0.9999708 0.0003297 0.0000292 -0.0003297
677235 0.0000291 -0.0003127 0.9999709 0.0003127 0.9999709 0.0003127 0.0000291 -0.0003127
708247 0.0000290 -0.0002962 0.9999710 0.0002962 0.9999710 0.0002962 0.0000290 -0.0002962
740679 0.0000289 -0.0002804 0.9999711 0.0002804 0.9999711 0.0002804 0.0000289 -0.0002804
774597 0.0000289 -0.0002651 0.9999711 0.0002651 0.9999711 0.0002651 0.0000289 -0.0002651
810067 0.0000289 -0.0002504 0.9999711 0.0002504 0.9999711 0.0002504 0.0000289 -0.0002504
847162 0.0000289 -0.0002361 0.9999711 0.0002361 0.9999711 0.0002361 0.0000289 -0.0002361
885955 0.0000289 -0.0002223 0.9999711 0.0002223 0.9999711 0.0002223 0.0000289 -0.0002223
926525 0.0000290 -0.0002089 0.9999710 0.0002089 0.9999710 0.0002089 0.0000290 -0.0002089
968953 0.0000291 -0.0001960 0.9999709 0.0001960 0.9999709 0.0001960 0.0000291 -0.0001960
1013323 0.0000292 -0.0001834 0.9999708 0.0001834 0.9999708 0.0001834 0.0000292 -0.0001834
1059725 0.0000293 -0.0001712 0.9999707 0.0001712 0.9999707 0.0001712 0.0000293 -0.0001712
1108252 0.0000295 -0.0001594 0.9999705 0.0001594 0.9999705 0.0001594 0.0000295 -0.0001594
1159002 0.0000297 -0.0001478 0.9999703 0.0001478 0.9999703 0.0001478 0.0000297 -0.0001478
1212075 0.0000299 -0.0001366 0.9999701 0.0001366 0.9999701 0.0001366 0.0000299 -0.0001366
1267578 0.0000301 -0.0001256 0.9999699 0.0001256 0.9999699 0.0001256 0.0000301 -0.0001256
1325623 0.0000304 -0.0001148 0.9999696 0.0001148 0.9999696 0.0001148 0.0000304 -0.0001148
1386327 0.0000307 -0.0001043 0.9999693 0.0001043 0.9999693 0.0001043 0.0000307 -0.0001043
1449809 0.0000311 -0.0000939 0.9999689 0.0000939 0.9999689 0.0000939 0.0000311 -0.0000939
1516199 0.0000315 -0.0000838 0.9999685 0.0000838 0.9999685 0.0000838 0.0000315 -0.0000838
1585629 0.0000320 -0.0000737 0.9999680 0.0000737 0.9999680 0.0000737 0.0000320 -0.0000737
1658239 0.0000325 -0.0000638 0.9999675 0.0000638 0.9999675 0.0000638 0.0000325 -0.0000638
1734173 0.0000331 -0.0000540 0.9999669 0.0000540 0.9999669 0.0000540 0.0000331 -0.0000540
1813585 0.0000338 -0.0000443 0.9999662 0.0000443 0.9999662 0.0000443 0.0000338 -0.0000443
1896632 0.0000345 -0.0000346 0.9999655 0.0000346 0.9999655 0.0000346 0.0000345 -0.0000346
1983483 0.0000354 -0.0000249 0.9999646 0.0000249 0.9999646 0.0000249 0.0000354 -0.0000249
2074311 0.0000364 -0.0000152 0.9999636 0.0000152 0.9999636 0.0000152 0.0000364 -0.0000152
