!Murata Part Number: GRM21BR71C475KA73
!These Parameters are Measured in Series Mode Connection
!Data Generated on Mar 30, 2021
!       o--ll--o
!Port1            Port2
!       o------o
!Operation Temp=25[degC], DC Bias Voltage=0[V]
!Freq. Start=100[Hz] Stop=6[GHz] 401[Steps]
# Hz S RI R 50
!Freq.(Hz) S11(Real) S11(Imag) S21(Real) S21(Imag) S12(Real) S12(Imag) S22(Real) S22(Imag)
100 0.9686540 -0.1635919 0.0313460 0.1635919 0.0313460 0.1635919 0.9686540 -0.1635919
105 0.9660486 -0.1705176 0.0339514 0.1705176 0.0339514 0.1705176 0.9660486 -0.1705176
109 0.9632215 -0.1776945 0.0367785 0.1776945 0.0367785 0.1776945 0.9632215 -0.1776945
114 0.9601551 -0.1851254 0.0398449 0.1851254 0.0398449 0.1851254 0.9601551 -0.1851254
120 0.9568310 -0.1928120 0.0431690 0.1928120 0.0431690 0.1928120 0.9568310 -0.1928120
125 0.9532297 -0.2007554 0.0467703 0.2007554 0.0467703 0.2007554 0.9532297 -0.2007554
131 0.9493307 -0.2089552 0.0506693 0.2089552 0.0506693 0.2089552 0.9493307 -0.2089552
137 0.9451123 -0.2174096 0.0548877 0.2174096 0.0548877 0.2174096 0.9451123 -0.2174096
143 0.9405520 -0.2261156 0.0594480 0.2261156 0.0594480 0.2261156 0.9405520 -0.2261156
150 0.9356265 -0.2350682 0.0643735 0.2350682 0.0643735 0.2350682 0.9356265 -0.2350682
156 0.9303115 -0.2442608 0.0696885 0.2442608 0.0696885 0.2442608 0.9303115 -0.2442608
164 0.9245819 -0.2536844 0.0754181 0.2536844 0.0754181 0.2536844 0.9245819 -0.2536844
171 0.9184123 -0.2633282 0.0815877 0.2633282 0.0815877 0.2633282 0.9184123 -0.2633282
179 0.9117766 -0.2731785 0.0882234 0.2731785 0.0882234 0.2731785 0.9117766 -0.2731785
187 0.9046486 -0.2832193 0.0953514 0.2832193 0.0953514 0.2832193 0.9046486 -0.2832193
196 0.8970020 -0.2934315 0.1029980 0.2934315 0.1029980 0.2934315 0.8970020 -0.2934315
205 0.8888107 -0.3037932 0.1111893 0.3037932 0.1111893 0.3037932 0.8888107 -0.3037932
214 0.8800492 -0.3142792 0.1199508 0.3142792 0.1199508 0.3142792 0.8800492 -0.3142792
224 0.8706928 -0.3248613 0.1293072 0.3248613 0.1293072 0.3248613 0.8706928 -0.3248613
234 0.8607182 -0.3355076 0.1392818 0.3355076 0.1392818 0.3355076 0.8607182 -0.3355076
245 0.8501035 -0.3461828 0.1498965 0.3461828 0.1498965 0.3461828 0.8501035 -0.3461828
256 0.8388289 -0.3568483 0.1611711 0.3568483 0.1611711 0.3568483 0.8388289 -0.3568483
268 0.8268774 -0.3674619 0.1731226 0.3674619 0.1731226 0.3674619 0.8268774 -0.3674619
280 0.8142346 -0.3779781 0.1857654 0.3779781 0.1857654 0.3779781 0.8142346 -0.3779781
293 0.8008900 -0.3883484 0.1991100 0.3883484 0.1991100 0.3883484 0.8008900 -0.3883484
306 0.7868369 -0.3985210 0.2131631 0.3985210 0.2131631 0.3985210 0.7868369 -0.3985210
320 0.7720733 -0.4084417 0.2279267 0.4084417 0.2279267 0.4084417 0.7720733 -0.4084417
335 0.7566022 -0.4180539 0.2433978 0.4180539 0.2433978 0.4180539 0.7566022 -0.4180539
350 0.7404322 -0.4272996 0.2595678 0.4272996 0.2595678 0.4272996 0.7404322 -0.4272996
366 0.7235778 -0.4361192 0.2764222 0.4361192 0.2764222 0.4361192 0.7235778 -0.4361192
383 0.7060598 -0.4444529 0.2939402 0.4444529 0.2939402 0.4444529 0.7060598 -0.4444529
401 0.6879056 -0.4522410 0.3120944 0.4522410 0.3120944 0.4522410 0.6879056 -0.4522410
419 0.6691496 -0.4594252 0.3308504 0.4594252 0.3308504 0.4594252 0.6691496 -0.4594252
438 0.6498328 -0.4659489 0.3501672 0.4659489 0.3501672 0.4659489 0.6498328 -0.4659489
458 0.6300031 -0.4717587 0.3699969 0.4717587 0.3699969 0.4717587 0.6300031 -0.4717587
479 0.6097150 -0.4768049 0.3902850 0.4768049 0.3902850 0.4768049 0.6097150 -0.4768049
501 0.5890290 -0.4810429 0.4109710 0.4810429 0.4109710 0.4810429 0.5890290 -0.4810429
524 0.5680113 -0.4844336 0.4319887 0.4844336 0.4319887 0.4844336 0.5680113 -0.4844336
548 0.5467331 -0.4869449 0.4532669 0.4869449 0.4532669 0.4869449 0.5467331 -0.4869449
573 0.5252695 -0.4885518 0.4747305 0.4885518 0.4747305 0.4885518 0.5252695 -0.4885518
600 0.5036989 -0.4892373 0.4963011 0.4892373 0.4963011 0.4892373 0.5036989 -0.4892373
627 0.4821013 -0.4889930 0.5178987 0.4889930 0.5178987 0.4889930 0.4821013 -0.4889930
656 0.4605577 -0.4878189 0.5394423 0.4878189 0.5394423 0.4878189 0.4605577 -0.4878189
686 0.4391488 -0.4857242 0.5608512 0.4857242 0.5608512 0.4857242 0.4391488 -0.4857242
717 0.4179533 -0.4827262 0.5820467 0.4827262 0.5820467 0.4827262 0.4179533 -0.4827262
750 0.3970474 -0.4788508 0.6029526 0.4788508 0.6029526 0.4788508 0.3970474 -0.4788508
784 0.3765034 -0.4741317 0.6234966 0.4741317 0.6234966 0.4741317 0.3765034 -0.4741317
820 0.3563883 -0.4686095 0.6436117 0.4686095 0.6436117 0.4686095 0.3563883 -0.4686095
858 0.3367639 -0.4623312 0.6632361 0.4623312 0.6632361 0.4623312 0.3367639 -0.4623312
897 0.3176852 -0.4553489 0.6823148 0.4553489 0.6823148 0.4553489 0.3176852 -0.4553489
938 0.2992004 -0.4477191 0.7007996 0.4477191 0.7007996 0.4477191 0.2992004 -0.4477191
981 0.2813505 -0.4395017 0.7186495 0.4395017 0.7186495 0.4395017 0.2813505 -0.4395017
1026 0.2641689 -0.4307585 0.7358311 0.4307585 0.7358311 0.4307585 0.2641689 -0.4307585
1073 0.2476820 -0.4215527 0.7523180 0.4215527 0.7523180 0.4215527 0.2476820 -0.4215527
1122 0.2319085 -0.4119475 0.7680915 0.4119475 0.7680915 0.4119475 0.2319085 -0.4119475
1174 0.2168606 -0.4020055 0.7831394 0.4020055 0.7831394 0.4020055 0.2168606 -0.4020055
1227 0.2025437 -0.3917877 0.7974563 0.3917877 0.7974563 0.3917877 0.2025437 -0.3917877
1283 0.1889575 -0.3813532 0.8110425 0.3813532 0.8110425 0.3813532 0.1889575 -0.3813532
1342 0.1760960 -0.3707581 0.8239040 0.3707581 0.8239040 0.3707581 0.1760960 -0.3707581
1404 0.1639486 -0.3600554 0.8360514 0.3600554 0.8360514 0.3600554 0.1639486 -0.3600554
1468 0.1525004 -0.3492945 0.8474996 0.3492945 0.8474996 0.3492945 0.1525004 -0.3492945
1535 0.1417330 -0.3385209 0.8582670 0.3385209 0.8582670 0.3385209 0.1417330 -0.3385209
1606 0.1316250 -0.3277766 0.8683750 0.3277766 0.8683750 0.3277766 0.1316250 -0.3277766
1679 0.1221526 -0.3170991 0.8778474 0.3170991 0.8778474 0.3170991 0.1221526 -0.3170991
1756 0.1132903 -0.3065223 0.8867097 0.3065223 0.8867097 0.3065223 0.1132903 -0.3065223
1836 0.1050110 -0.2960760 0.8949890 0.2960760 0.8949890 0.2960760 0.1050110 -0.2960760
1920 0.0972870 -0.2857865 0.9027130 0.2857865 0.9027130 0.2857865 0.0972870 -0.2857865
2008 0.0900901 -0.2756761 0.9099099 0.2756761 0.9099099 0.2756761 0.0900901 -0.2756761
2100 0.0833918 -0.2657642 0.9166082 0.2657642 0.9166082 0.2657642 0.0833918 -0.2657642
2196 0.0771640 -0.2560667 0.9228360 0.2560667 0.9228360 0.2560667 0.0771640 -0.2560667
2297 0.0713788 -0.2465968 0.9286212 0.2465968 0.9286212 0.2465968 0.0713788 -0.2465968
2402 0.0660093 -0.2373649 0.9339907 0.2373649 0.9339907 0.2373649 0.0660093 -0.2373649
2512 0.0610291 -0.2283789 0.9389709 0.2283789 0.9389709 0.2283789 0.0610291 -0.2283789
2627 0.0564129 -0.2196448 0.9435871 0.2196448 0.9435871 0.2196448 0.0564129 -0.2196448
2748 0.0521365 -0.2111663 0.9478635 0.2111663 0.9478635 0.2111663 0.0521365 -0.2111663
2873 0.0481768 -0.2029455 0.9518232 0.2029455 0.9518232 0.2029455 0.0481768 -0.2029455
3005 0.0445117 -0.1949832 0.9554883 0.1949832 0.9554883 0.1949832 0.0445117 -0.1949832
3143 0.0411206 -0.1872785 0.9588794 0.1872785 0.9588794 0.1872785 0.0411206 -0.1872785
3287 0.0379840 -0.1798297 0.9620160 0.1798297 0.9620160 0.1798297 0.0379840 -0.1798297
3437 0.0350835 -0.1726338 0.9649165 0.1726338 0.9649165 0.1726338 0.0350835 -0.1726338
3594 0.0324019 -0.1656873 0.9675981 0.1656873 0.9675981 0.1656873 0.0324019 -0.1656873
3759 0.0299232 -0.1589860 0.9700768 0.1589860 0.9700768 0.1589860 0.0299232 -0.1589860
3931 0.0276325 -0.1525248 0.9723675 0.1525248 0.9723675 0.1525248 0.0276325 -0.1525248
4111 0.0255158 -0.1462986 0.9744842 0.1462986 0.9744842 0.1462986 0.0255158 -0.1462986
4299 0.0235603 -0.1403017 0.9764397 0.1403017 0.9764397 0.1403017 0.0235603 -0.1403017
4496 0.0217541 -0.1345284 0.9782459 0.1345284 0.9782459 0.1345284 0.0217541 -0.1345284
4702 0.0200858 -0.1289724 0.9799142 0.1289724 0.9799142 0.1289724 0.0200858 -0.1289724
4918 0.0185454 -0.1236278 0.9814546 0.1236278 0.9814546 0.1236278 0.0185454 -0.1236278
5143 0.0171233 -0.1184882 0.9828767 0.1184882 0.9828767 0.1184882 0.0171233 -0.1184882
5378 0.0158107 -0.1135474 0.9841893 0.1135474 0.9841893 0.1135474 0.0158107 -0.1135474
5625 0.0145993 -0.1087991 0.9854007 0.1087991 0.9854007 0.1087991 0.0145993 -0.1087991
5882 0.0134816 -0.1042373 0.9865184 0.1042373 0.9865184 0.1042373 0.0134816 -0.1042373
6151 0.0124507 -0.0998557 0.9875493 0.0998557 0.9875493 0.0998557 0.0124507 -0.0998557
6433 0.0115000 -0.0956484 0.9885000 0.0956484 0.9885000 0.0956484 0.0115000 -0.0956484
6728 0.0106236 -0.0916094 0.9893764 0.0916094 0.9893764 0.0916094 0.0106236 -0.0916094
7036 0.0098157 -0.0877329 0.9901843 0.0877329 0.9901843 0.0877329 0.0098157 -0.0877329
7358 0.0090714 -0.0840132 0.9909286 0.0840132 0.9909286 0.0840132 0.0090714 -0.0840132
7695 0.0083856 -0.0804448 0.9916144 0.0804448 0.9916144 0.0804448 0.0083856 -0.0804448
8047 0.0077541 -0.0770222 0.9922459 0.0770222 0.9922459 0.0770222 0.0077541 -0.0770222
8416 0.0071725 -0.0737401 0.9928275 0.0737401 0.9928275 0.0737401 0.0071725 -0.0737401
8801 0.0066372 -0.0705934 0.9933628 0.0705934 0.9933628 0.0705934 0.0066372 -0.0705934
9204 0.0061446 -0.0675769 0.9938554 0.0675769 0.9938554 0.0675769 0.0061446 -0.0675769
9626 0.0056912 -0.0646860 0.9943088 0.0646860 0.9943088 0.0646860 0.0056912 -0.0646860
10066 0.0052741 -0.0619157 0.9947259 0.0619157 0.9947259 0.0619157 0.0052741 -0.0619157
10527 0.0048903 -0.0592615 0.9951097 0.0592615 0.9951097 0.0592615 0.0048903 -0.0592615
11009 0.0045373 -0.0567189 0.9954627 0.0567189 0.9954627 0.0567189 0.0045373 -0.0567189
11514 0.0042126 -0.0542835 0.9957874 0.0542835 0.9957874 0.0542835 0.0042126 -0.0542835
12041 0.0039139 -0.0519512 0.9960861 0.0519512 0.9960861 0.0519512 0.0039139 -0.0519512
12592 0.0036391 -0.0497179 0.9963609 0.0497179 0.9963609 0.0497179 0.0036391 -0.0497179
13169 0.0033863 -0.0475796 0.9966137 0.0475796 0.9966137 0.0475796 0.0033863 -0.0475796
13772 0.0031536 -0.0455326 0.9968464 0.0455326 0.9968464 0.0455326 0.0031536 -0.0455326
14402 0.0029394 -0.0435730 0.9970606 0.0435730 0.9970606 0.0435730 0.0029394 -0.0435730
15062 0.0027421 -0.0416975 0.9972579 0.0416975 0.9972579 0.0416975 0.0027421 -0.0416975
15752 0.0025604 -0.0399025 0.9974396 0.0399025 0.9974396 0.0399025 0.0025604 -0.0399025
16473 0.0023928 -0.0381847 0.9976072 0.0381847 0.9976072 0.0381847 0.0023928 -0.0381847
17227 0.0022382 -0.0365409 0.9977618 0.0365409 0.9977618 0.0365409 0.0022382 -0.0365409
18016 0.0020955 -0.0349680 0.9979045 0.0349680 0.9979045 0.0349680 0.0020955 -0.0349680
18841 0.0019637 -0.0334630 0.9980363 0.0334630 0.9980363 0.0334630 0.0019637 -0.0334630
19704 0.0018418 -0.0320231 0.9981582 0.0320231 0.9981582 0.0320231 0.0018418 -0.0320231
20606 0.0017289 -0.0306455 0.9982711 0.0306455 0.9982711 0.0306455 0.0017289 -0.0306455
21550 0.0016242 -0.0293275 0.9983758 0.0293275 0.9983758 0.0293275 0.0016242 -0.0293275
22537 0.0015271 -0.0280667 0.9984729 0.0280667 0.9984729 0.0280667 0.0015271 -0.0280667
23569 0.0014369 -0.0268604 0.9985631 0.0268604 0.9985631 0.0268604 0.0014369 -0.0268604
24648 0.0013529 -0.0257063 0.9986471 0.0257063 0.9986471 0.0257063 0.0013529 -0.0257063
25777 0.0012746 -0.0246022 0.9987254 0.0246022 0.9987254 0.0246022 0.0012746 -0.0246022
26957 0.0012016 -0.0235459 0.9987984 0.0235459 0.9987984 0.0235459 0.0012016 -0.0235459
28191 0.0011333 -0.0225353 0.9988667 0.0225353 0.9988667 0.0225353 0.0011333 -0.0225353
29482 0.0010694 -0.0215683 0.9989306 0.0215683 0.9989306 0.0215683 0.0010694 -0.0215683
30832 0.0010096 -0.0206431 0.9989904 0.0206431 0.9989904 0.0206431 0.0010096 -0.0206431
32244 0.0009534 -0.0197577 0.9990466 0.0197577 0.9990466 0.0197577 0.0009534 -0.0197577
33721 0.0009006 -0.0189105 0.9990994 0.0189105 0.9990994 0.0189105 0.0009006 -0.0189105
35265 0.0008509 -0.0180998 0.9991491 0.0180998 0.9991491 0.0180998 0.0008509 -0.0180998
36880 0.0008041 -0.0173238 0.9991959 0.0173238 0.9991959 0.0173238 0.0008041 -0.0173238
38569 0.0007601 -0.0165811 0.9992399 0.0165811 0.9992399 0.0165811 0.0007601 -0.0165811
40335 0.0007185 -0.0158703 0.9992815 0.0158703 0.9992815 0.0158703 0.0007185 -0.0158703
42182 0.0006793 -0.0151898 0.9993207 0.0151898 0.9993207 0.0151898 0.0006793 -0.0151898
44113 0.0006423 -0.0145384 0.9993577 0.0145384 0.9993577 0.0145384 0.0006423 -0.0145384
46134 0.0006075 -0.0139148 0.9993925 0.0139148 0.9993925 0.0139148 0.0006075 -0.0139148
48246 0.0005746 -0.0133178 0.9994254 0.0133178 0.9994254 0.0133178 0.0005746 -0.0133178
50455 0.0005435 -0.0127462 0.9994565 0.0127462 0.9994565 0.0127462 0.0005435 -0.0127462
52766 0.0005143 -0.0121989 0.9994857 0.0121989 0.9994857 0.0121989 0.0005143 -0.0121989
55182 0.0004867 -0.0116749 0.9995133 0.0116749 0.9995133 0.0116749 0.0004867 -0.0116749
57709 0.0004607 -0.0111731 0.9995393 0.0111731 0.9995393 0.0111731 0.0004607 -0.0111731
60352 0.0004363 -0.0106927 0.9995637 0.0106927 0.9995637 0.0106927 0.0004363 -0.0106927
63115 0.0004133 -0.0102327 0.9995867 0.0102327 0.9995867 0.0102327 0.0004133 -0.0102327
66005 0.0003917 -0.0097923 0.9996083 0.0097923 0.9996083 0.0097923 0.0003917 -0.0097923
69028 0.0003715 -0.0093706 0.9996285 0.0093706 0.9996285 0.0093706 0.0003715 -0.0093706
72189 0.0003525 -0.0089668 0.9996475 0.0089668 0.9996475 0.0089668 0.0003525 -0.0089668
75495 0.0003347 -0.0085803 0.9996653 0.0085803 0.9996653 0.0085803 0.0003347 -0.0085803
78952 0.0003181 -0.0082102 0.9996819 0.0082102 0.9996819 0.0082102 0.0003181 -0.0082102
82567 0.0003025 -0.0078559 0.9996975 0.0078559 0.9996975 0.0078559 0.0003025 -0.0078559
86348 0.0002879 -0.0075167 0.9997121 0.0075167 0.9997121 0.0075167 0.0002879 -0.0075167
90302 0.0002743 -0.0071921 0.9997257 0.0071921 0.9997257 0.0071921 0.0002743 -0.0071921
94437 0.0002616 -0.0068813 0.9997384 0.0068813 0.9997384 0.0068813 0.0002616 -0.0068813
98762 0.0002498 -0.0065838 0.9997502 0.0065838 0.9997502 0.0065838 0.0002498 -0.0065838
103284 0.0002388 -0.0062991 0.9997612 0.0062991 0.9997612 0.0062991 0.0002388 -0.0062991
108014 0.0002285 -0.0060267 0.9997715 0.0060267 0.9997715 0.0060267 0.0002285 -0.0060267
112960 0.0002189 -0.0057659 0.9997811 0.0057659 0.9997811 0.0057659 0.0002189 -0.0057659
118133 0.0002099 -0.0055164 0.9997901 0.0055164 0.9997901 0.0055164 0.0002099 -0.0055164
123542 0.0002016 -0.0052777 0.9997984 0.0052777 0.9997984 0.0052777 0.0002016 -0.0052777
129199 0.0001938 -0.0050492 0.9998062 0.0050492 0.9998062 0.0050492 0.0001938 -0.0050492
135116 0.0001865 -0.0048306 0.9998135 0.0048306 0.9998135 0.0048306 0.0001865 -0.0048306
141303 0.0001797 -0.0046215 0.9998203 0.0046215 0.9998203 0.0046215 0.0001797 -0.0046215
147774 0.0001734 -0.0044214 0.9998266 0.0044214 0.9998266 0.0044214 0.0001734 -0.0044214
154540 0.0001674 -0.0042300 0.9998326 0.0042300 0.9998326 0.0042300 0.0001674 -0.0042300
161617 0.0001618 -0.0040469 0.9998382 0.0040469 0.9998382 0.0040469 0.0001618 -0.0040469
169018 0.0001565 -0.0038717 0.9998435 0.0038717 0.9998435 0.0038717 0.0001565 -0.0038717
176758 0.0001516 -0.0037041 0.9998484 0.0037041 0.9998484 0.0037041 0.0001516 -0.0037041
184852 0.0001469 -0.0035438 0.9998531 0.0035438 0.9998531 0.0035438 0.0001469 -0.0035438
193316 0.0001425 -0.0033905 0.9998575 0.0033905 0.9998575 0.0033905 0.0001425 -0.0033905
202169 0.0001382 -0.0032438 0.9998618 0.0032438 0.9998618 0.0032438 0.0001382 -0.0032438
211427 0.0001342 -0.0031034 0.9998658 0.0031034 0.9998658 0.0031034 0.0001342 -0.0031034
221108 0.0001304 -0.0029691 0.9998696 0.0029691 0.9998696 0.0029691 0.0001304 -0.0029691
231233 0.0001267 -0.0028407 0.9998733 0.0028407 0.9998733 0.0028407 0.0001267 -0.0028407
241822 0.0001232 -0.0027178 0.9998768 0.0027178 0.9998768 0.0027178 0.0001232 -0.0027178
252896 0.0001198 -0.0026001 0.9998802 0.0026001 0.9998802 0.0026001 0.0001198 -0.0026001
264476 0.0001165 -0.0024876 0.9998835 0.0024876 0.9998835 0.0024876 0.0001165 -0.0024876
276587 0.0001134 -0.0023799 0.9998866 0.0023799 0.9998866 0.0023799 0.0001134 -0.0023799
289253 0.0001103 -0.0022768 0.9998897 0.0022768 0.9998897 0.0022768 0.0001103 -0.0022768
302498 0.0001073 -0.0021782 0.9998927 0.0021782 0.9998927 0.0021782 0.0001073 -0.0021782
316350 0.0001045 -0.0020837 0.9998955 0.0020837 0.9998955 0.0020837 0.0001045 -0.0020837
330837 0.0001016 -0.0019933 0.9998984 0.0019933 0.9998984 0.0019933 0.0001016 -0.0019933
345986 0.0000989 -0.0019067 0.9999011 0.0019067 0.9999011 0.0019067 0.0000989 -0.0019067
361830 0.0000963 -0.0018238 0.9999037 0.0018238 0.9999037 0.0018238 0.0000963 -0.0018238
378399 0.0000937 -0.0017443 0.9999063 0.0017443 0.9999063 0.0017443 0.0000937 -0.0017443
395726 0.0000912 -0.0016682 0.9999088 0.0016682 0.9999088 0.0016682 0.0000912 -0.0016682
413847 0.0000887 -0.0015953 0.9999113 0.0015953 0.9999113 0.0015953 0.0000887 -0.0015953
432798 0.0000863 -0.0015254 0.9999137 0.0015254 0.9999137 0.0015254 0.0000863 -0.0015254
452617 0.0000840 -0.0014585 0.9999160 0.0014585 0.9999160 0.0014585 0.0000840 -0.0014585
473344 0.0000818 -0.0013943 0.9999182 0.0013943 0.9999182 0.0013943 0.0000818 -0.0013943
495019 0.0000797 -0.0013327 0.9999203 0.0013327 0.9999203 0.0013327 0.0000797 -0.0013327
517687 0.0000776 -0.0012737 0.9999224 0.0012737 0.9999224 0.0012737 0.0000776 -0.0012737
541393 0.0000756 -0.0012171 0.9999244 0.0012171 0.9999244 0.0012171 0.0000756 -0.0012171
566185 0.0000737 -0.0011628 0.9999263 0.0011628 0.9999263 0.0011628 0.0000737 -0.0011628
592111 0.0000719 -0.0011107 0.9999281 0.0011107 0.9999281 0.0011107 0.0000719 -0.0011107
619225 0.0000702 -0.0010607 0.9999298 0.0010607 0.9999298 0.0010607 0.0000702 -0.0010607
647581 0.0000685 -0.0010127 0.9999315 0.0010127 0.9999315 0.0010127 0.0000685 -0.0010127
677235 0.0000669 -0.0009666 0.9999331 0.0009666 0.9999331 0.0009666 0.0000669 -0.0009666
708247 0.0000654 -0.0009224 0.9999346 0.0009224 0.9999346 0.0009224 0.0000654 -0.0009224
740679 0.0000640 -0.0008799 0.9999360 0.0008799 0.9999360 0.0008799 0.0000640 -0.0008799
774597 0.0000627 -0.0008391 0.9999373 0.0008391 0.9999373 0.0008391 0.0000627 -0.0008391
810067 0.0000615 -0.0007999 0.9999385 0.0007999 0.9999385 0.0007999 0.0000615 -0.0007999
847162 0.0000603 -0.0007622 0.9999397 0.0007622 0.9999397 0.0007622 0.0000603 -0.0007622
885955 0.0000593 -0.0007260 0.9999407 0.0007260 0.9999407 0.0007260 0.0000593 -0.0007260
926525 0.0000583 -0.0006911 0.9999417 0.0006911 0.9999417 0.0006911 0.0000583 -0.0006911
968953 0.0000574 -0.0006576 0.9999426 0.0006576 0.9999426 0.0006576 0.0000574 -0.0006576
1013323 0.0000565 -0.0006254 0.9999435 0.0006254 0.9999435 0.0006254 0.0000565 -0.0006254
1059725 0.0000557 -0.0005943 0.9999443 0.0005943 0.9999443 0.0005943 0.0000557 -0.0005943
1108252 0.0000550 -0.0005644 0.9999450 0.0005644 0.9999450 0.0005644 0.0000550 -0.0005644
1159002 0.0000544 -0.0005356 0.9999456 0.0005356 0.9999456 0.0005356 0.0000544 -0.0005356
1212075 0.0000538 -0.0005079 0.9999462 0.0005079 0.9999462 0.0005079 0.0000538 -0.0005079
1267578 0.0000533 -0.0004811 0.9999467 0.0004811 0.9999467 0.0004811 0.0000533 -0.0004811
1325623 0.0000529 -0.0004553 0.9999471 0.0004553 0.9999471 0.0004553 0.0000529 -0.0004553
1386327 0.0000525 -0.0004303 0.9999475 0.0004303 0.9999475 0.0004303 0.0000525 -0.0004303
1449809 0.0000522 -0.0004062 0.9999478 0.0004062 0.9999478 0.0004062 0.0000522 -0.0004062
1516199 0.0000520 -0.0003829 0.9999480 0.0003829 0.9999480 0.0003829 0.0000520 -0.0003829
1585629 0.0000518 -0.0003603 0.9999482 0.0003603 0.9999482 0.0003603 0.0000518 -0.0003603
1658239 0.0000516 -0.0003384 0.9999484 0.0003384 0.9999484 0.0003384 0.0000516 -0.0003384
1734173 0.0000516 -0.0003172 0.9999484 0.0003172 0.9999484 0.0003172 0.0000516 -0.0003172
1813585 0.0000515 -0.0002966 0.9999485 0.0002966 0.9999485 0.0002966 0.0000515 -0.0002966
1896632 0.0000516 -0.0002766 0.9999484 0.0002766 0.9999484 0.0002766 0.0000516 -0.0002766
1983483 0.0000517 -0.0002572 0.9999483 0.0002572 0.9999483 0.0002572 0.0000517 -0.0002572
2074311 0.0000518 -0.0002382 0.9999482 0.0002382 0.9999482 0.0002382 0.0000518 -0.0002382
