!Murata Part Number: GRM21BB31H684KAC4
!These Parameters are Measured in Series Mode Connection
!Data Generated on Mar 30, 2021
!       o--ll--o
!Port1            Port2
!       o------o
!Operation Temp=25[degC], DC Bias Voltage=0[V]
!Freq. Start=100[Hz] Stop=6[GHz] 401[Steps]
# Hz S RI R 50
!Freq.(Hz) S11(Real) S11(Imag) S21(Real) S21(Imag) S12(Real) S12(Imag) S22(Real) S22(Imag)
100 0.9981096 -0.0413965 0.0018904 0.0413965 0.0018904 0.0413965 0.9981096 -0.0413965
105 0.9979431 -0.0432792 0.0020569 0.0432792 0.0020569 0.0432792 0.9979431 -0.0432792
109 0.9977614 -0.0452470 0.0022386 0.0452470 0.0022386 0.0452470 0.9977614 -0.0452470
114 0.9975631 -0.0473036 0.0024369 0.0473036 0.0024369 0.0473036 0.9975631 -0.0473036
120 0.9973467 -0.0494529 0.0026533 0.0494529 0.0026533 0.0494529 0.9973467 -0.0494529
125 0.9971106 -0.0516990 0.0028894 0.0516990 0.0028894 0.0516990 0.9971106 -0.0516990
131 0.9968529 -0.0540460 0.0031471 0.0540460 0.0031471 0.0540460 0.9968529 -0.0540460
137 0.9965716 -0.0564982 0.0034284 0.0564982 0.0034284 0.0564982 0.9965716 -0.0564982
143 0.9962646 -0.0590603 0.0037354 0.0590603 0.0037354 0.0590603 0.9962646 -0.0590603
150 0.9959296 -0.0617368 0.0040704 0.0617368 0.0040704 0.0617368 0.9959296 -0.0617368
156 0.9955638 -0.0645327 0.0044362 0.0645327 0.0044362 0.0645327 0.9955638 -0.0645327
164 0.9951646 -0.0674530 0.0048354 0.0674530 0.0048354 0.0674530 0.9951646 -0.0674530
171 0.9947289 -0.0705028 0.0052711 0.0705028 0.0052711 0.0705028 0.9947289 -0.0705028
179 0.9942535 -0.0736875 0.0057465 0.0736875 0.0057465 0.0736875 0.9942535 -0.0736875
187 0.9937346 -0.0770127 0.0062654 0.0770127 0.0062654 0.0770127 0.9937346 -0.0770127
196 0.9931684 -0.0804840 0.0068316 0.0804840 0.0068316 0.0804840 0.9931684 -0.0804840
205 0.9925506 -0.0841074 0.0074494 0.0841074 0.0074494 0.0841074 0.9925506 -0.0841074
214 0.9918765 -0.0878888 0.0081235 0.0878888 0.0081235 0.0878888 0.9918765 -0.0878888
224 0.9911412 -0.0918344 0.0088588 0.0918344 0.0088588 0.0918344 0.9911412 -0.0918344
234 0.9903391 -0.0959505 0.0096609 0.0959505 0.0096609 0.0959505 0.9903391 -0.0959505
245 0.9894644 -0.1002436 0.0105356 0.1002436 0.0105356 0.1002436 0.9894644 -0.1002436
256 0.9885104 -0.1047203 0.0114896 0.1047203 0.0114896 0.1047203 0.9885104 -0.1047203
268 0.9874702 -0.1093871 0.0125298 0.1093871 0.0125298 0.1093871 0.9874702 -0.1093871
280 0.9863363 -0.1142509 0.0136637 0.1142509 0.0136637 0.1142509 0.9863363 -0.1142509
293 0.9851002 -0.1193184 0.0148998 0.1193184 0.0148998 0.1193184 0.9851002 -0.1193184
306 0.9837532 -0.1245964 0.0162468 0.1245964 0.0162468 0.1245964 0.9837532 -0.1245964
320 0.9822855 -0.1300916 0.0177145 0.1300916 0.0177145 0.1300916 0.9822855 -0.1300916
335 0.9806867 -0.1358108 0.0193133 0.1358108 0.0193133 0.1358108 0.9806867 -0.1358108
350 0.9789454 -0.1417603 0.0210546 0.1417603 0.0210546 0.1417603 0.9789454 -0.1417603
366 0.9770496 -0.1479467 0.0229504 0.1479467 0.0229504 0.1479467 0.9770496 -0.1479467
383 0.9749861 -0.1543760 0.0250139 0.1543760 0.0250139 0.1543760 0.9749861 -0.1543760
401 0.9727408 -0.1610539 0.0272592 0.1610539 0.0272592 0.1610539 0.9727408 -0.1610539
419 0.9702986 -0.1679857 0.0297014 0.1679857 0.0297014 0.1679857 0.9702986 -0.1679857
438 0.9676433 -0.1751763 0.0323567 0.1751763 0.0323567 0.1751763 0.9676433 -0.1751763
458 0.9647576 -0.1826297 0.0352424 0.1826297 0.0352424 0.1826297 0.9647576 -0.1826297
479 0.9616229 -0.1903493 0.0383771 0.1903493 0.0383771 0.1903493 0.9616229 -0.1903493
501 0.9582196 -0.1983376 0.0417804 0.1983376 0.0417804 0.1983376 0.9582196 -0.1983376
524 0.9545268 -0.2065957 0.0454732 0.2065957 0.0454732 0.2065957 0.9545268 -0.2065957
548 0.9505225 -0.2151240 0.0494775 0.2151240 0.0494775 0.2151240 0.9505225 -0.2151240
573 0.9461834 -0.2239209 0.0538166 0.2239209 0.0538166 0.2239209 0.9461834 -0.2239209
600 0.9414850 -0.2329836 0.0585150 0.2329836 0.0585150 0.2329836 0.9414850 -0.2329836
627 0.9364018 -0.2423072 0.0635982 0.2423072 0.0635982 0.2423072 0.9364018 -0.2423072
656 0.9309073 -0.2518847 0.0690927 0.2518847 0.0690927 0.2518847 0.9309073 -0.2518847
686 0.9249740 -0.2617070 0.0750260 0.2617070 0.0750260 0.2617070 0.9249740 -0.2617070
717 0.9185735 -0.2717624 0.0814265 0.2717624 0.0814265 0.2717624 0.9185735 -0.2717624
750 0.9116769 -0.2820361 0.0883231 0.2820361 0.0883231 0.2820361 0.9116769 -0.2820361
784 0.9042551 -0.2925107 0.0957449 0.2925107 0.0957449 0.2925107 0.9042551 -0.2925107
820 0.8962784 -0.3031650 0.1037216 0.3031650 0.1037216 0.3031650 0.8962784 -0.3031650
858 0.8877179 -0.3139748 0.1122821 0.3139748 0.1122821 0.3139748 0.8877179 -0.3139748
897 0.8785447 -0.3249118 0.1214553 0.3249118 0.1214553 0.3249118 0.8785447 -0.3249118
938 0.8687312 -0.3359438 0.1312688 0.3359438 0.1312688 0.3359438 0.8687312 -0.3359438
981 0.8582513 -0.3470348 0.1417487 0.3470348 0.1417487 0.3470348 0.8582513 -0.3470348
1026 0.8470806 -0.3581444 0.1529194 0.3581444 0.1529194 0.3581444 0.8470806 -0.3581444
1073 0.8351974 -0.3692283 0.1648026 0.3692283 0.1648026 0.3692283 0.8351974 -0.3692283
1122 0.8225832 -0.3802379 0.1774168 0.3802379 0.1774168 0.3802379 0.8225832 -0.3802379
1174 0.8092233 -0.3911207 0.1907767 0.3911207 0.1907767 0.3911207 0.8092233 -0.3911207
1227 0.7951074 -0.4018206 0.2048926 0.4018206 0.2048926 0.4018206 0.7951074 -0.4018206
1283 0.7802302 -0.4122780 0.2197698 0.4122780 0.2197698 0.4122780 0.7802302 -0.4122780
1342 0.7645925 -0.4224306 0.2354075 0.4224306 0.2354075 0.4224306 0.7645925 -0.4224306
1404 0.7482010 -0.4322137 0.2517990 0.4322137 0.2517990 0.4322137 0.7482010 -0.4322137
1468 0.7310697 -0.4415613 0.2689303 0.4415613 0.2689303 0.4415613 0.7310697 -0.4415613
1535 0.7132197 -0.4504062 0.2867803 0.4504062 0.2867803 0.4504062 0.7132197 -0.4504062
1606 0.6946800 -0.4586821 0.3053200 0.4586821 0.3053200 0.4586821 0.6946800 -0.4586821
1679 0.6754874 -0.4663233 0.3245126 0.4663233 0.3245126 0.4663233 0.6754874 -0.4663233
1756 0.6556865 -0.4732670 0.3443135 0.4732670 0.3443135 0.4732670 0.6556865 -0.4732670
1836 0.6353300 -0.4794537 0.3646700 0.4794537 0.3646700 0.4794537 0.6353300 -0.4794537
1920 0.6144779 -0.4848284 0.3855221 0.4848284 0.3855221 0.4848284 0.6144779 -0.4848284
2008 0.5931970 -0.4893422 0.4068030 0.4893422 0.4068030 0.4893422 0.5931970 -0.4893422
2100 0.5715605 -0.4929527 0.4284395 0.4929527 0.4284395 0.4929527 0.5715605 -0.4929527
2196 0.5496470 -0.4956255 0.4503530 0.4956255 0.4503530 0.4956255 0.5496470 -0.4956255
2297 0.5275390 -0.4973346 0.4724610 0.4973346 0.4724610 0.4973346 0.5275390 -0.4973346
2402 0.5053224 -0.4980631 0.4946776 0.4980631 0.4946776 0.4980631 0.5053224 -0.4980631
2512 0.4830846 -0.4978038 0.5169154 0.4978038 0.5169154 0.4978038 0.4830846 -0.4978038
2627 0.4609133 -0.4965591 0.5390867 0.4965591 0.5390867 0.4965591 0.4609133 -0.4965591
2748 0.4388954 -0.4943412 0.5611046 0.4943412 0.5611046 0.4943412 0.4388954 -0.4943412
2873 0.4171154 -0.4911714 0.5828846 0.4911714 0.5828846 0.4911714 0.4171154 -0.4911714
3005 0.3956540 -0.4870803 0.6043460 0.4870803 0.6043460 0.4870803 0.3956540 -0.4870803
3143 0.3745872 -0.4821065 0.6254128 0.4821065 0.6254128 0.4821065 0.3745872 -0.4821065
3287 0.3539854 -0.4762958 0.6460146 0.4762958 0.6460146 0.4762958 0.3539854 -0.4762958
3437 0.3339120 -0.4697005 0.6660880 0.4697005 0.6660880 0.4697005 0.3339120 -0.4697005
3594 0.3144235 -0.4623782 0.6855765 0.4623782 0.6855765 0.4623782 0.3144235 -0.4623782
3759 0.2955684 -0.4543905 0.7044316 0.4543905 0.7044316 0.4543905 0.2955684 -0.4543905
3931 0.2773877 -0.4458020 0.7226123 0.4458020 0.7226123 0.4458020 0.2773877 -0.4458020
4111 0.2599138 -0.4366791 0.7400862 0.4366791 0.7400862 0.4366791 0.2599138 -0.4366791
4299 0.2431718 -0.4270889 0.7568282 0.4270889 0.7568282 0.4270889 0.2431718 -0.4270889
4496 0.2271789 -0.4170984 0.7728211 0.4170984 0.7728211 0.4170984 0.2271789 -0.4170984
4702 0.2119451 -0.4067731 0.7880549 0.4067731 0.7880549 0.4067731 0.2119451 -0.4067731
4918 0.1974740 -0.3961768 0.8025260 0.3961768 0.8025260 0.3961768 0.1974740 -0.3961768
5143 0.1837627 -0.3853707 0.8162373 0.3853707 0.8162373 0.3853707 0.1837627 -0.3853707
5378 0.1708032 -0.3744126 0.8291968 0.3744126 0.8291968 0.3744126 0.1708032 -0.3744126
5625 0.1585826 -0.3633569 0.8414174 0.3633569 0.8414174 0.3633569 0.1585826 -0.3633569
5882 0.1470838 -0.3522541 0.8529162 0.3522541 0.8529162 0.3522541 0.1470838 -0.3522541
6151 0.1362864 -0.3411505 0.8637136 0.3411505 0.8637136 0.3411505 0.1362864 -0.3411505
6433 0.1261669 -0.3300884 0.8738331 0.3300884 0.8738331 0.3300884 0.1261669 -0.3300884
6728 0.1166999 -0.3191059 0.8833001 0.3191059 0.8833001 0.3191059 0.1166999 -0.3191059
7036 0.1078582 -0.3082367 0.8921418 0.3082367 0.8921418 0.3082367 0.1078582 -0.3082367
7358 0.0996134 -0.2975109 0.9003866 0.2975109 0.9003866 0.2975109 0.0996134 -0.2975109
7695 0.0919363 -0.2869544 0.9080637 0.2869544 0.9080637 0.2869544 0.0919363 -0.2869544
8047 0.0847976 -0.2765898 0.9152024 0.2765898 0.9152024 0.2765898 0.0847976 -0.2765898
8416 0.0781678 -0.2664359 0.9218322 0.2664359 0.9218322 0.2664359 0.0781678 -0.2664359
8801 0.0720177 -0.2565086 0.9279823 0.2565086 0.9279823 0.2565086 0.0720177 -0.2565086
9204 0.0663188 -0.2468209 0.9336812 0.2468209 0.9336812 0.2468209 0.0663188 -0.2468209
9626 0.0610432 -0.2373829 0.9389568 0.2373829 0.9389568 0.2373829 0.0610432 -0.2373829
10066 0.0561640 -0.2282026 0.9438360 0.2282026 0.9438360 0.2282026 0.0561640 -0.2282026
10527 0.0516552 -0.2192855 0.9483448 0.2192855 0.9483448 0.2192855 0.0516552 -0.2192855
11009 0.0474919 -0.2106354 0.9525081 0.2106354 0.9525081 0.2106354 0.0474919 -0.2106354
11514 0.0436504 -0.2022544 0.9563496 0.2022544 0.9563496 0.2022544 0.0436504 -0.2022544
12041 0.0401082 -0.1941428 0.9598918 0.1941428 0.9598918 0.1941428 0.0401082 -0.1941428
12592 0.0368439 -0.1863000 0.9631561 0.1863000 0.9631561 0.1863000 0.0368439 -0.1863000
13169 0.0338375 -0.1787239 0.9661625 0.1787239 0.9661625 0.1787239 0.0338375 -0.1787239
13772 0.0310700 -0.1714117 0.9689300 0.1714117 0.9689300 0.1714117 0.0310700 -0.1714117
14402 0.0285237 -0.1643595 0.9714763 0.1643595 0.9714763 0.1643595 0.0285237 -0.1643595
15062 0.0261819 -0.1575629 0.9738181 0.1575629 0.9738181 0.1575629 0.0261819 -0.1575629
15752 0.0240290 -0.1510170 0.9759710 0.1510170 0.9759710 0.1510170 0.0240290 -0.1510170
16473 0.0220506 -0.1447161 0.9779494 0.1447161 0.9779494 0.1447161 0.0220506 -0.1447161
17227 0.0202332 -0.1386545 0.9797668 0.1386545 0.9797668 0.1386545 0.0202332 -0.1386545
18016 0.0185642 -0.1328260 0.9814358 0.1328260 0.9814358 0.1328260 0.0185642 -0.1328260
18841 0.0170319 -0.1272242 0.9829681 0.1272242 0.9829681 0.1272242 0.0170319 -0.1272242
19704 0.0156255 -0.1218425 0.9843745 0.1218425 0.9843745 0.1218425 0.0156255 -0.1218425
20606 0.0143350 -0.1166743 0.9856650 0.1166743 0.9856650 0.1166743 0.0143350 -0.1166743
21550 0.0131511 -0.1117129 0.9868489 0.1117129 0.9868489 0.1117129 0.0131511 -0.1117129
22537 0.0120652 -0.1069515 0.9879348 0.1069515 0.9879348 0.1069515 0.0120652 -0.1069515
23569 0.0110694 -0.1023836 0.9889306 0.1023836 0.9889306 0.1023836 0.0110694 -0.1023836
24648 0.0101564 -0.0980024 0.9898436 0.0980024 0.9898436 0.0980024 0.0101564 -0.0980024
25777 0.0093194 -0.0938013 0.9906806 0.0938013 0.9906806 0.0938013 0.0093194 -0.0938013
26957 0.0085522 -0.0897740 0.9914478 0.0897740 0.9914478 0.0897740 0.0085522 -0.0897740
28191 0.0078490 -0.0859140 0.9921510 0.0859140 0.9921510 0.0859140 0.0078490 -0.0859140
29482 0.0072045 -0.0822151 0.9927955 0.0822151 0.9927955 0.0822151 0.0072045 -0.0822151
30832 0.0066140 -0.0786713 0.9933860 0.0786713 0.9933860 0.0786713 0.0066140 -0.0786713
32244 0.0060728 -0.0752766 0.9939272 0.0752766 0.9939272 0.0752766 0.0060728 -0.0752766
33721 0.0055770 -0.0720251 0.9944230 0.0720251 0.9944230 0.0720251 0.0055770 -0.0720251
35265 0.0051226 -0.0689114 0.9948774 0.0689114 0.9948774 0.0689114 0.0051226 -0.0689114
36880 0.0047062 -0.0659299 0.9952938 0.0659299 0.9952938 0.0659299 0.0047062 -0.0659299
38569 0.0043247 -0.0630754 0.9956753 0.0630754 0.9956753 0.0630754 0.0043247 -0.0630754
40335 0.0039751 -0.0603427 0.9960249 0.0603427 0.9960249 0.0603427 0.0039751 -0.0603427
42182 0.0036546 -0.0577269 0.9963454 0.0577269 0.9963454 0.0577269 0.0036546 -0.0577269
44113 0.0033609 -0.0552231 0.9966391 0.0552231 0.9966391 0.0552231 0.0033609 -0.0552231
46134 0.0030917 -0.0528269 0.9969083 0.0528269 0.9969083 0.0528269 0.0030917 -0.0528269
48246 0.0028448 -0.0505336 0.9971552 0.0505336 0.9971552 0.0505336 0.0028448 -0.0505336
50455 0.0026185 -0.0483391 0.9973815 0.0483391 0.9973815 0.0483391 0.0026185 -0.0483391
52766 0.0024108 -0.0462392 0.9975892 0.0462392 0.9975892 0.0462392 0.0024108 -0.0462392
55182 0.0022204 -0.0442299 0.9977796 0.0442299 0.9977796 0.0442299 0.0022204 -0.0442299
57709 0.0020457 -0.0423074 0.9979543 0.0423074 0.9979543 0.0423074 0.0020457 -0.0423074
60352 0.0018853 -0.0404679 0.9981147 0.0404679 0.9981147 0.0404679 0.0018853 -0.0404679
63115 0.0017381 -0.0387081 0.9982619 0.0387081 0.9982619 0.0387081 0.0017381 -0.0387081
66005 0.0016029 -0.0370244 0.9983971 0.0370244 0.9983971 0.0370244 0.0016029 -0.0370244
69028 0.0014788 -0.0354136 0.9985212 0.0354136 0.9985212 0.0354136 0.0014788 -0.0354136
72189 0.0013647 -0.0338726 0.9986353 0.0338726 0.9986353 0.0338726 0.0013647 -0.0338726
75495 0.0012599 -0.0323983 0.9987401 0.0323983 0.9987401 0.0323983 0.0012599 -0.0323983
78952 0.0011636 -0.0309880 0.9988364 0.0309880 0.9988364 0.0309880 0.0011636 -0.0309880
82567 0.0010751 -0.0296388 0.9989249 0.0296388 0.9989249 0.0296388 0.0010751 -0.0296388
86348 0.0009937 -0.0283481 0.9990063 0.0283481 0.9990063 0.0283481 0.0009937 -0.0283481
90302 0.0009188 -0.0271134 0.9990812 0.0271134 0.9990812 0.0271134 0.0009188 -0.0271134
94437 0.0008500 -0.0259323 0.9991500 0.0259323 0.9991500 0.0259323 0.0008500 -0.0259323
98762 0.0007866 -0.0248024 0.9992134 0.0248024 0.9992134 0.0248024 0.0007866 -0.0248024
103284 0.0007283 -0.0237215 0.9992717 0.0237215 0.9992717 0.0237215 0.0007283 -0.0237215
108014 0.0006747 -0.0226876 0.9993253 0.0226876 0.9993253 0.0226876 0.0006747 -0.0226876
112960 0.0006254 -0.0216985 0.9993746 0.0216985 0.9993746 0.0216985 0.0006254 -0.0216985
118133 0.0005800 -0.0207523 0.9994200 0.0207523 0.9994200 0.0207523 0.0005800 -0.0207523
123542 0.0005382 -0.0198473 0.9994618 0.0198473 0.9994618 0.0198473 0.0005382 -0.0198473
129199 0.0004998 -0.0189815 0.9995002 0.0189815 0.9995002 0.0189815 0.0004998 -0.0189815
135116 0.0004644 -0.0181533 0.9995356 0.0181533 0.9995356 0.0181533 0.0004644 -0.0181533
141303 0.0004319 -0.0173611 0.9995681 0.0173611 0.9995681 0.0173611 0.0004319 -0.0173611
147774 0.0004019 -0.0166034 0.9995981 0.0166034 0.9995981 0.0166034 0.0004019 -0.0166034
154540 0.0003744 -0.0158785 0.9996256 0.0158785 0.9996256 0.0158785 0.0003744 -0.0158785
161617 0.0003491 -0.0151852 0.9996509 0.0151852 0.9996509 0.0151852 0.0003491 -0.0151852
169018 0.0003258 -0.0145220 0.9996742 0.0145220 0.9996742 0.0145220 0.0003258 -0.0145220
176758 0.0003043 -0.0138876 0.9996957 0.0138876 0.9996957 0.0138876 0.0003043 -0.0138876
184852 0.0002846 -0.0132808 0.9997154 0.0132808 0.9997154 0.0132808 0.0002846 -0.0132808
193316 0.0002665 -0.0127004 0.9997335 0.0127004 0.9997335 0.0127004 0.0002665 -0.0127004
202169 0.0002498 -0.0121453 0.9997502 0.0121453 0.9997502 0.0121453 0.0002498 -0.0121453
211427 0.0002345 -0.0116143 0.9997655 0.0116143 0.9997655 0.0116143 0.0002345 -0.0116143
221108 0.0002204 -0.0111064 0.9997796 0.0111064 0.9997796 0.0111064 0.0002204 -0.0111064
231233 0.0002074 -0.0106207 0.9997926 0.0106207 0.9997926 0.0106207 0.0002074 -0.0106207
241822 0.0001954 -0.0101560 0.9998046 0.0101560 0.9998046 0.0101560 0.0001954 -0.0101560
252896 0.0001845 -0.0097116 0.9998155 0.0097116 0.9998155 0.0097116 0.0001845 -0.0097116
264476 0.0001743 -0.0092866 0.9998257 0.0092866 0.9998257 0.0092866 0.0001743 -0.0092866
276587 0.0001650 -0.0088800 0.9998350 0.0088800 0.9998350 0.0088800 0.0001650 -0.0088800
289253 0.0001565 -0.0084911 0.9998435 0.0084911 0.9998435 0.0084911 0.0001565 -0.0084911
302498 0.0001486 -0.0081192 0.9998514 0.0081192 0.9998514 0.0081192 0.0001486 -0.0081192
316350 0.0001413 -0.0077634 0.9998587 0.0077634 0.9998587 0.0077634 0.0001413 -0.0077634
330837 0.0001346 -0.0074231 0.9998654 0.0074231 0.9998654 0.0074231 0.0001346 -0.0074231
345986 0.0001284 -0.0070977 0.9998716 0.0070977 0.9998716 0.0070977 0.0001284 -0.0070977
361830 0.0001227 -0.0067863 0.9998773 0.0067863 0.9998773 0.0067863 0.0001227 -0.0067863
378399 0.0001174 -0.0064885 0.9998826 0.0064885 0.9998826 0.0064885 0.0001174 -0.0064885
395726 0.0001126 -0.0062037 0.9998874 0.0062037 0.9998874 0.0062037 0.0001126 -0.0062037
413847 0.0001081 -0.0059312 0.9998919 0.0059312 0.9998919 0.0059312 0.0001081 -0.0059312
432798 0.0001040 -0.0056705 0.9998960 0.0056705 0.9998960 0.0056705 0.0001040 -0.0056705
452617 0.0001001 -0.0054212 0.9998999 0.0054212 0.9998999 0.0054212 0.0001001 -0.0054212
473344 0.0000966 -0.0051826 0.9999034 0.0051826 0.9999034 0.0051826 0.0000966 -0.0051826
495019 0.0000934 -0.0049544 0.9999066 0.0049544 0.9999066 0.0049544 0.0000934 -0.0049544
517687 0.0000903 -0.0047361 0.9999097 0.0047361 0.9999097 0.0047361 0.0000903 -0.0047361
541393 0.0000876 -0.0045272 0.9999124 0.0045272 0.9999124 0.0045272 0.0000876 -0.0045272
566185 0.0000850 -0.0043274 0.9999150 0.0043274 0.9999150 0.0043274 0.0000850 -0.0043274
592111 0.0000826 -0.0041362 0.9999174 0.0041362 0.9999174 0.0041362 0.0000826 -0.0041362
619225 0.0000804 -0.0039532 0.9999196 0.0039532 0.9999196 0.0039532 0.0000804 -0.0039532
647581 0.0000784 -0.0037781 0.9999216 0.0037781 0.9999216 0.0037781 0.0000784 -0.0037781
677235 0.0000765 -0.0036106 0.9999235 0.0036106 0.9999235 0.0036106 0.0000765 -0.0036106
708247 0.0000748 -0.0034503 0.9999252 0.0034503 0.9999252 0.0034503 0.0000748 -0.0034503
740679 0.0000732 -0.0032968 0.9999268 0.0032968 0.9999268 0.0032968 0.0000732 -0.0032968
774597 0.0000717 -0.0031500 0.9999283 0.0031500 0.9999283 0.0031500 0.0000717 -0.0031500
810067 0.0000704 -0.0030094 0.9999296 0.0030094 0.9999296 0.0030094 0.0000704 -0.0030094
847162 0.0000691 -0.0028748 0.9999309 0.0028748 0.9999309 0.0028748 0.0000691 -0.0028748
885955 0.0000680 -0.0027460 0.9999320 0.0027460 0.9999320 0.0027460 0.0000680 -0.0027460
926525 0.0000669 -0.0026227 0.9999331 0.0026227 0.9999331 0.0026227 0.0000669 -0.0026227
968953 0.0000660 -0.0025046 0.9999340 0.0025046 0.9999340 0.0025046 0.0000660 -0.0025046
1013323 0.0000651 -0.0023915 0.9999349 0.0023915 0.9999349 0.0023915 0.0000651 -0.0023915
1059725 0.0000643 -0.0022832 0.9999357 0.0022832 0.9999357 0.0022832 0.0000643 -0.0022832
1108252 0.0000635 -0.0021794 0.9999365 0.0021794 0.9999365 0.0021794 0.0000635 -0.0021794
1159002 0.0000628 -0.0020800 0.9999372 0.0020800 0.9999372 0.0020800 0.0000628 -0.0020800
1212075 0.0000622 -0.0019848 0.9999378 0.0019848 0.9999378 0.0019848 0.0000622 -0.0019848
1267578 0.0000617 -0.0018935 0.9999383 0.0018935 0.9999383 0.0018935 0.0000617 -0.0018935
1325623 0.0000611 -0.0018060 0.9999389 0.0018060 0.9999389 0.0018060 0.0000611 -0.0018060
1386327 0.0000607 -0.0017221 0.9999393 0.0017221 0.9999393 0.0017221 0.0000607 -0.0017221
1449809 0.0000603 -0.0016417 0.9999397 0.0016417 0.9999397 0.0016417 0.0000603 -0.0016417
1516199 0.0000599 -0.0015645 0.9999401 0.0015645 0.9999401 0.0015645 0.0000599 -0.0015645
1585629 0.0000596 -0.0014905 0.9999404 0.0014905 0.9999404 0.0014905 0.0000596 -0.0014905
1658239 0.0000593 -0.0014195 0.9999407 0.0014195 0.9999407 0.0014195 0.0000593 -0.0014195
1734173 0.0000590 -0.0013513 0.9999410 0.0013513 0.9999410 0.0013513 0.0000590 -0.0013513
1813585 0.0000588 -0.0012858 0.9999412 0.0012858 0.9999412 0.0012858 0.0000588 -0.0012858
1896632 0.0000586 -0.0012229 0.9999414 0.0012229 0.9999414 0.0012229 0.0000586 -0.0012229
1983483 0.0000585 -0.0011624 0.9999415 0.0011624 0.9999415 0.0011624 0.0000585 -0.0011624
2074311 0.0000583 -0.0011043 0.9999417 0.0011043 0.9999417 0.0011043 0.0000583 -0.0011043
