!Murata Part Number: GRM21BR6YA106ME43
!These Parameters are Measured in Series Mode Connection
!Data Generated on Mar 30, 2021
!       o--ll--o
!Port1            Port2
!       o------o
!Operation Temp=25[degC], DC Bias Voltage=0[V]
!Freq. Start=100[Hz] Stop=6[GHz] 401[Steps]
# Hz S RI R 50
!Freq.(Hz) S11(Real) S11(Imag) S21(Real) S21(Imag) S12(Real) S12(Imag) S22(Real) S22(Imag)
100 0.8205767 -0.3760940 0.1794233 0.3760940 0.1794233 0.3760940 0.8205767 -0.3760940
105 0.8074259 -0.3867624 0.1925741 0.3867624 0.1925741 0.3867624 0.8074259 -0.3867624
109 0.7935370 -0.3972560 0.2064630 0.3972560 0.2064630 0.3972560 0.7935370 -0.3972560
114 0.7789046 -0.4075168 0.2210954 0.4075168 0.2210954 0.4075168 0.7789046 -0.4075168
120 0.7635293 -0.4174839 0.2364707 0.4174839 0.2364707 0.4174839 0.7635293 -0.4174839
125 0.7474175 -0.4270944 0.2525825 0.4270944 0.2525825 0.4270944 0.7474175 -0.4270944
131 0.7305828 -0.4362836 0.2694172 0.4362836 0.2694172 0.4362836 0.7305828 -0.4362836
137 0.7130456 -0.4449866 0.2869544 0.4449866 0.2869544 0.4449866 0.7130456 -0.4449866
143 0.6948342 -0.4531383 0.3051658 0.4531383 0.3051658 0.4531383 0.6948342 -0.4531383
150 0.6759843 -0.4606752 0.3240157 0.4606752 0.3240157 0.4606752 0.6759843 -0.4606752
156 0.6565394 -0.4675362 0.3434606 0.4675362 0.3434606 0.4675362 0.6565394 -0.4675362
164 0.6365507 -0.4736637 0.3634493 0.4736637 0.3634493 0.4736637 0.6365507 -0.4736637
171 0.6160763 -0.4790045 0.3839237 0.4790045 0.3839237 0.4790045 0.6160763 -0.4790045
179 0.5951812 -0.4835113 0.4048188 0.4835113 0.4048188 0.4835113 0.5951812 -0.4835113
187 0.5739361 -0.4871435 0.4260639 0.4871435 0.4260639 0.4871435 0.5739361 -0.4871435
196 0.5524169 -0.4898679 0.4475831 0.4898679 0.4475831 0.4898679 0.5524169 -0.4898679
205 0.5307033 -0.4916596 0.4692967 0.4916596 0.4692967 0.4916596 0.5307033 -0.4916596
214 0.5088777 -0.4925026 0.4911223 0.4925026 0.4911223 0.4925026 0.5088777 -0.4925026
224 0.4870242 -0.4923898 0.5129758 0.4923898 0.5129758 0.4923898 0.4870242 -0.4923898
234 0.4652270 -0.4913237 0.5347730 0.4913237 0.5347730 0.4913237 0.4652270 -0.4913237
245 0.4435691 -0.4893158 0.5564309 0.4893158 0.5564309 0.4893158 0.4435691 -0.4893158
256 0.4221313 -0.4863863 0.5778687 0.4863863 0.5778687 0.4863863 0.4221313 -0.4863863
268 0.4009909 -0.4825639 0.5990091 0.4825639 0.5990091 0.4825639 0.4009909 -0.4825639
280 0.3802203 -0.4778851 0.6197797 0.4778851 0.6197797 0.4778851 0.3802203 -0.4778851
293 0.3598868 -0.4723930 0.6401132 0.4723930 0.6401132 0.4723930 0.3598868 -0.4723930
306 0.3400513 -0.4661367 0.6599487 0.4661367 0.6599487 0.4661367 0.3400513 -0.4661367
320 0.3207680 -0.4591700 0.6792320 0.4591700 0.6792320 0.4591700 0.3207680 -0.4591700
335 0.3020837 -0.4515507 0.6979163 0.4515507 0.6979163 0.4515507 0.3020837 -0.4515507
350 0.2840383 -0.4433393 0.7159617 0.4433393 0.7159617 0.4433393 0.2840383 -0.4433393
366 0.2666638 -0.4345981 0.7333362 0.4345981 0.7333362 0.4345981 0.2666638 -0.4345981
383 0.2499855 -0.4253899 0.7500145 0.4253899 0.7500145 0.4253899 0.2499855 -0.4253899
401 0.2340213 -0.4157777 0.7659787 0.4157777 0.7659787 0.4157777 0.2340213 -0.4157777
419 0.2187826 -0.4058233 0.7812174 0.4058233 0.7812174 0.4058233 0.2187826 -0.4058233
438 0.2042746 -0.3955869 0.7957254 0.3955869 0.7957254 0.3955869 0.2042746 -0.3955869
458 0.1904968 -0.3851266 0.8095032 0.3851266 0.8095032 0.3851266 0.1904968 -0.3851266
479 0.1774438 -0.3744975 0.8225562 0.3744975 0.8225562 0.3744975 0.1774438 -0.3744975
501 0.1651054 -0.3637519 0.8348946 0.3637519 0.8348946 0.3637519 0.1651054 -0.3637519
524 0.1534676 -0.3529385 0.8465324 0.3529385 0.8465324 0.3529385 0.1534676 -0.3529385
548 0.1425129 -0.3421024 0.8574871 0.3421024 0.8574871 0.3421024 0.1425129 -0.3421024
573 0.1322211 -0.3312850 0.8677789 0.3312850 0.8677789 0.3312850 0.1322211 -0.3312850
600 0.1225696 -0.3205240 0.8774304 0.3205240 0.8774304 0.3205240 0.1225696 -0.3205240
627 0.1135342 -0.3098533 0.8864658 0.3098533 0.8864658 0.3098533 0.1135342 -0.3098533
656 0.1050891 -0.2993033 0.8949109 0.2993033 0.8949109 0.2993033 0.1050891 -0.2993033
686 0.0972077 -0.2889007 0.9027923 0.2889007 0.9027923 0.2889007 0.0972077 -0.2889007
717 0.0898628 -0.2786689 0.9101372 0.2786689 0.9101372 0.2786689 0.0898628 -0.2786689
750 0.0830270 -0.2686279 0.9169730 0.2686279 0.9169730 0.2686279 0.0830270 -0.2686279
784 0.0766728 -0.2587949 0.9233272 0.2587949 0.9233272 0.2587949 0.0766728 -0.2587949
820 0.0707732 -0.2491843 0.9292268 0.2491843 0.9292268 0.2491843 0.0707732 -0.2491843
858 0.0653014 -0.2398076 0.9346986 0.2398076 0.9346986 0.2398076 0.0653014 -0.2398076
897 0.0602314 -0.2306743 0.9397686 0.2306743 0.9397686 0.2306743 0.0602314 -0.2306743
938 0.0555380 -0.2217913 0.9444620 0.2217913 0.9444620 0.2217913 0.0555380 -0.2217913
981 0.0511970 -0.2131639 0.9488030 0.2131639 0.9488030 0.2131639 0.0511970 -0.2131639
1026 0.0471848 -0.2047954 0.9528152 0.2047954 0.9528152 0.2047954 0.0471848 -0.2047954
1073 0.0434791 -0.1966877 0.9565209 0.1966877 0.9565209 0.1966877 0.0434791 -0.1966877
1122 0.0400587 -0.1888409 0.9599413 0.1888409 0.9599413 0.1888409 0.0400587 -0.1888409
1174 0.0369035 -0.1812544 0.9630965 0.1812544 0.9630965 0.1812544 0.0369035 -0.1812544
1227 0.0339941 -0.1739261 0.9660059 0.1739261 0.9660059 0.1739261 0.0339941 -0.1739261
1283 0.0313128 -0.1668533 0.9686872 0.1668533 0.9686872 0.1668533 0.0313128 -0.1668533
1342 0.0288425 -0.1600321 0.9711575 0.1600321 0.9711575 0.1600321 0.0288425 -0.1600321
1404 0.0265674 -0.1534583 0.9734326 0.1534583 0.9734326 0.1534583 0.0265674 -0.1534583
1468 0.0244726 -0.1471270 0.9755274 0.1471270 0.9755274 0.1471270 0.0244726 -0.1471270
1535 0.0225443 -0.1410327 0.9774557 0.1410327 0.9774557 0.1410327 0.0225443 -0.1410327
1606 0.0207694 -0.1351697 0.9792306 0.1351697 0.9792306 0.1351697 0.0207694 -0.1351697
1679 0.0191360 -0.1295320 0.9808640 0.1295320 0.9808640 0.1295320 0.0191360 -0.1295320
1756 0.0176329 -0.1241132 0.9823671 0.1241132 0.9823671 0.1241132 0.0176329 -0.1241132
1836 0.0162498 -0.1189070 0.9837502 0.1189070 0.9837502 0.1189070 0.0162498 -0.1189070
1920 0.0149771 -0.1139067 0.9850229 0.1139067 0.9850229 0.1139067 0.0149771 -0.1139067
2008 0.0138059 -0.1091059 0.9861941 0.1091059 0.9861941 0.1091059 0.0138059 -0.1091059
2100 0.0127281 -0.1044978 0.9872719 0.1044978 0.9872719 0.1044978 0.0127281 -0.1044978
2196 0.0117361 -0.1000759 0.9882639 0.1000759 0.9882639 0.1000759 0.0117361 -0.1000759
2297 0.0108231 -0.0958337 0.9891769 0.0958337 0.9891769 0.0958337 0.0108231 -0.0958337
2402 0.0099827 -0.0917647 0.9900173 0.0917647 0.9900173 0.0917647 0.0099827 -0.0917647
2512 0.0092090 -0.0878626 0.9907910 0.0878626 0.9907910 0.0878626 0.0092090 -0.0878626
2627 0.0084966 -0.0841211 0.9915034 0.0841211 0.9915034 0.0841211 0.0084966 -0.0841211
2748 0.0078407 -0.0805343 0.9921593 0.0805343 0.9921593 0.0805343 0.0078407 -0.0805343
2873 0.0072366 -0.0770962 0.9927634 0.0770962 0.9927634 0.0770962 0.0072366 -0.0770962
3005 0.0066802 -0.0738010 0.9933198 0.0738010 0.9933198 0.0738010 0.0066802 -0.0738010
3143 0.0061678 -0.0706432 0.9938322 0.0706432 0.9938322 0.0706432 0.0061678 -0.0706432
3287 0.0056959 -0.0676174 0.9943041 0.0676174 0.9943041 0.0676174 0.0056959 -0.0676174
3437 0.0052611 -0.0647183 0.9947389 0.0647183 0.9947389 0.0647183 0.0052611 -0.0647183
3594 0.0048607 -0.0619410 0.9951393 0.0619410 0.9951393 0.0619410 0.0048607 -0.0619410
3759 0.0044919 -0.0592805 0.9955081 0.0592805 0.9955081 0.0592805 0.0044919 -0.0592805
3931 0.0041521 -0.0567321 0.9958479 0.0567321 0.9958479 0.0567321 0.0041521 -0.0567321
4111 0.0038392 -0.0542913 0.9961608 0.0542913 0.9961608 0.0542913 0.0038392 -0.0542913
4299 0.0035511 -0.0519538 0.9964489 0.0519538 0.9964489 0.0519538 0.0035511 -0.0519538
4496 0.0032857 -0.0497154 0.9967143 0.0497154 0.9967143 0.0497154 0.0032857 -0.0497154
4702 0.0030413 -0.0475720 0.9969587 0.0475720 0.9969587 0.0475720 0.0030413 -0.0475720
4918 0.0028163 -0.0455197 0.9971837 0.0455197 0.9971837 0.0455197 0.0028163 -0.0455197
5143 0.0026092 -0.0435549 0.9973908 0.0435549 0.9973908 0.0435549 0.0026092 -0.0435549
5378 0.0024184 -0.0416739 0.9975816 0.0416739 0.9975816 0.0416739 0.0024184 -0.0416739
5625 0.0022429 -0.0398733 0.9977571 0.0398733 0.9977571 0.0398733 0.0022429 -0.0398733
5882 0.0020812 -0.0381498 0.9979188 0.0381498 0.9979188 0.0381498 0.0020812 -0.0381498
6151 0.0019324 -0.0365001 0.9980676 0.0365001 0.9980676 0.0365001 0.0019324 -0.0365001
6433 0.0017954 -0.0349212 0.9982046 0.0349212 0.9982046 0.0349212 0.0017954 -0.0349212
6728 0.0016692 -0.0334103 0.9983308 0.0334103 0.9983308 0.0334103 0.0016692 -0.0334103
7036 0.0015531 -0.0319643 0.9984469 0.0319643 0.9984469 0.0319643 0.0015531 -0.0319643
7358 0.0014460 -0.0305807 0.9985540 0.0305807 0.9985540 0.0305807 0.0014460 -0.0305807
7695 0.0013475 -0.0292568 0.9986525 0.0292568 0.9986525 0.0292568 0.0013475 -0.0292568
8047 0.0012566 -0.0279901 0.9987434 0.0279901 0.9987434 0.0279901 0.0012566 -0.0279901
8416 0.0011728 -0.0267781 0.9988272 0.0267781 0.9988272 0.0267781 0.0011728 -0.0267781
8801 0.0010955 -0.0256186 0.9989045 0.0256186 0.9989045 0.0256186 0.0010955 -0.0256186
9204 0.0010241 -0.0245093 0.9989759 0.0245093 0.9989759 0.0245093 0.0010241 -0.0245093
9626 0.0009582 -0.0234481 0.9990418 0.0234481 0.9990418 0.0234481 0.0009582 -0.0234481
10066 0.0008973 -0.0224329 0.9991027 0.0224329 0.9991027 0.0224329 0.0008973 -0.0224329
10527 0.0008409 -0.0214617 0.9991591 0.0214617 0.9991591 0.0214617 0.0008409 -0.0214617
11009 0.0007887 -0.0205327 0.9992113 0.0205327 0.9992113 0.0205327 0.0007887 -0.0205327
11514 0.0007403 -0.0196440 0.9992597 0.0196440 0.9992597 0.0196440 0.0007403 -0.0196440
12041 0.0006954 -0.0187939 0.9993046 0.0187939 0.9993046 0.0187939 0.0006954 -0.0187939
12592 0.0006537 -0.0179807 0.9993463 0.0179807 0.9993463 0.0179807 0.0006537 -0.0179807
13169 0.0006150 -0.0172028 0.9993850 0.0172028 0.9993850 0.0172028 0.0006150 -0.0172028
13772 0.0005789 -0.0164587 0.9994211 0.0164587 0.9994211 0.0164587 0.0005789 -0.0164587
14402 0.0005452 -0.0157469 0.9994548 0.0157469 0.9994548 0.0157469 0.0005452 -0.0157469
15062 0.0005138 -0.0150659 0.9994862 0.0150659 0.9994862 0.0150659 0.0005138 -0.0150659
15752 0.0004845 -0.0144144 0.9995155 0.0144144 0.9995155 0.0144144 0.0004845 -0.0144144
16473 0.0004571 -0.0137912 0.9995429 0.0137912 0.9995429 0.0137912 0.0004571 -0.0137912
17227 0.0004314 -0.0131949 0.9995686 0.0131949 0.9995686 0.0131949 0.0004314 -0.0131949
18016 0.0004074 -0.0126244 0.9995926 0.0126244 0.9995926 0.0126244 0.0004074 -0.0126244
18841 0.0003848 -0.0120787 0.9996152 0.0120787 0.9996152 0.0120787 0.0003848 -0.0120787
19704 0.0003637 -0.0115564 0.9996363 0.0115564 0.9996363 0.0115564 0.0003637 -0.0115564
20606 0.0003438 -0.0110568 0.9996562 0.0110568 0.9996562 0.0110568 0.0003438 -0.0110568
21550 0.0003252 -0.0105787 0.9996748 0.0105787 0.9996748 0.0105787 0.0003252 -0.0105787
22537 0.0003078 -0.0101212 0.9996922 0.0101212 0.9996922 0.0101212 0.0003078 -0.0101212
23569 0.0002913 -0.0096834 0.9997087 0.0096834 0.9997087 0.0096834 0.0002913 -0.0096834
24648 0.0002759 -0.0092645 0.9997241 0.0092645 0.9997241 0.0092645 0.0002759 -0.0092645
25777 0.0002615 -0.0088637 0.9997385 0.0088637 0.9997385 0.0088637 0.0002615 -0.0088637
26957 0.0002479 -0.0084801 0.9997521 0.0084801 0.9997521 0.0084801 0.0002479 -0.0084801
28191 0.0002352 -0.0081131 0.9997648 0.0081131 0.9997648 0.0081131 0.0002352 -0.0081131
29482 0.0002232 -0.0077618 0.9997768 0.0077618 0.9997768 0.0077618 0.0002232 -0.0077618
30832 0.0002120 -0.0074257 0.9997880 0.0074257 0.9997880 0.0074257 0.0002120 -0.0074257
32244 0.0002015 -0.0071041 0.9997985 0.0071041 0.9997985 0.0071041 0.0002015 -0.0071041
33721 0.0001917 -0.0067963 0.9998083 0.0067963 0.9998083 0.0067963 0.0001917 -0.0067963
35265 0.0001825 -0.0065018 0.9998175 0.0065018 0.9998175 0.0065018 0.0001825 -0.0065018
36880 0.0001739 -0.0062200 0.9998261 0.0062200 0.9998261 0.0062200 0.0001739 -0.0062200
38569 0.0001659 -0.0059503 0.9998341 0.0059503 0.9998341 0.0059503 0.0001659 -0.0059503
40335 0.0001584 -0.0056923 0.9998416 0.0056923 0.9998416 0.0056923 0.0001584 -0.0056923
42182 0.0001513 -0.0054455 0.9998487 0.0054455 0.9998487 0.0054455 0.0001513 -0.0054455
44113 0.0001448 -0.0052093 0.9998552 0.0052093 0.9998552 0.0052093 0.0001448 -0.0052093
46134 0.0001386 -0.0049833 0.9998614 0.0049833 0.9998614 0.0049833 0.0001386 -0.0049833
48246 0.0001329 -0.0047671 0.9998671 0.0047671 0.9998671 0.0047671 0.0001329 -0.0047671
50455 0.0001275 -0.0045603 0.9998725 0.0045603 0.9998725 0.0045603 0.0001275 -0.0045603
52766 0.0001225 -0.0043624 0.9998775 0.0043624 0.9998775 0.0043624 0.0001225 -0.0043624
55182 0.0001178 -0.0041732 0.9998822 0.0041732 0.9998822 0.0041732 0.0001178 -0.0041732
57709 0.0001133 -0.0039921 0.9998867 0.0039921 0.9998867 0.0039921 0.0001133 -0.0039921
60352 0.0001092 -0.0038189 0.9998908 0.0038189 0.9998908 0.0038189 0.0001092 -0.0038189
63115 0.0001053 -0.0036532 0.9998947 0.0036532 0.9998947 0.0036532 0.0001053 -0.0036532
66005 0.0001016 -0.0034947 0.9998984 0.0034947 0.9998984 0.0034947 0.0001016 -0.0034947
69028 0.0000982 -0.0033431 0.9999018 0.0033431 0.9999018 0.0033431 0.0000982 -0.0033431
72189 0.0000949 -0.0031981 0.9999051 0.0031981 0.9999051 0.0031981 0.0000949 -0.0031981
75495 0.0000918 -0.0030593 0.9999082 0.0030593 0.9999082 0.0030593 0.0000918 -0.0030593
78952 0.0000889 -0.0029266 0.9999111 0.0029266 0.9999111 0.0029266 0.0000889 -0.0029266
82567 0.0000861 -0.0027997 0.9999139 0.0027997 0.9999139 0.0027997 0.0000861 -0.0027997
86348 0.0000835 -0.0026783 0.9999165 0.0026783 0.9999165 0.0026783 0.0000835 -0.0026783
90302 0.0000809 -0.0025621 0.9999191 0.0025621 0.9999191 0.0025621 0.0000809 -0.0025621
94437 0.0000785 -0.0024510 0.9999215 0.0024510 0.9999215 0.0024510 0.0000785 -0.0024510
98762 0.0000762 -0.0023446 0.9999238 0.0023446 0.9999238 0.0023446 0.0000762 -0.0023446
103284 0.0000740 -0.0022429 0.9999260 0.0022429 0.9999260 0.0022429 0.0000740 -0.0022429
108014 0.0000718 -0.0021456 0.9999282 0.0021456 0.9999282 0.0021456 0.0000718 -0.0021456
112960 0.0000698 -0.0020525 0.9999302 0.0020525 0.9999302 0.0020525 0.0000698 -0.0020525
118133 0.0000678 -0.0019634 0.9999322 0.0019634 0.9999322 0.0019634 0.0000678 -0.0019634
123542 0.0000659 -0.0018781 0.9999341 0.0018781 0.9999341 0.0018781 0.0000659 -0.0018781
129199 0.0000641 -0.0017965 0.9999359 0.0017965 0.9999359 0.0017965 0.0000641 -0.0017965
135116 0.0000623 -0.0017184 0.9999377 0.0017184 0.9999377 0.0017184 0.0000623 -0.0017184
141303 0.0000606 -0.0016436 0.9999394 0.0016436 0.9999394 0.0016436 0.0000606 -0.0016436
147774 0.0000589 -0.0015721 0.9999411 0.0015721 0.9999411 0.0015721 0.0000589 -0.0015721
154540 0.0000573 -0.0015035 0.9999427 0.0015035 0.9999427 0.0015035 0.0000573 -0.0015035
161617 0.0000558 -0.0014380 0.9999442 0.0014380 0.9999442 0.0014380 0.0000558 -0.0014380
169018 0.0000543 -0.0013752 0.9999457 0.0013752 0.9999457 0.0013752 0.0000543 -0.0013752
176758 0.0000529 -0.0013150 0.9999471 0.0013150 0.9999471 0.0013150 0.0000529 -0.0013150
184852 0.0000516 -0.0012574 0.9999484 0.0012574 0.9999484 0.0012574 0.0000516 -0.0012574
193316 0.0000503 -0.0012023 0.9999497 0.0012023 0.9999497 0.0012023 0.0000503 -0.0012023
202169 0.0000490 -0.0011495 0.9999510 0.0011495 0.9999510 0.0011495 0.0000490 -0.0011495
211427 0.0000479 -0.0010989 0.9999521 0.0010989 0.9999521 0.0010989 0.0000479 -0.0010989
221108 0.0000468 -0.0010505 0.9999532 0.0010505 0.9999532 0.0010505 0.0000468 -0.0010505
231233 0.0000457 -0.0010040 0.9999543 0.0010040 0.9999543 0.0010040 0.0000457 -0.0010040
241822 0.0000447 -0.0009596 0.9999553 0.0009596 0.9999553 0.0009596 0.0000447 -0.0009596
252896 0.0000437 -0.0009170 0.9999563 0.0009170 0.9999563 0.0009170 0.0000437 -0.0009170
264476 0.0000429 -0.0008762 0.9999571 0.0008762 0.9999571 0.0008762 0.0000429 -0.0008762
276587 0.0000420 -0.0008370 0.9999580 0.0008370 0.9999580 0.0008370 0.0000420 -0.0008370
289253 0.0000412 -0.0007996 0.9999588 0.0007996 0.9999588 0.0007996 0.0000412 -0.0007996
302498 0.0000405 -0.0007636 0.9999595 0.0007636 0.9999595 0.0007636 0.0000405 -0.0007636
316350 0.0000398 -0.0007292 0.9999602 0.0007292 0.9999602 0.0007292 0.0000398 -0.0007292
330837 0.0000392 -0.0006962 0.9999608 0.0006962 0.9999608 0.0006962 0.0000392 -0.0006962
345986 0.0000386 -0.0006645 0.9999614 0.0006645 0.9999614 0.0006645 0.0000386 -0.0006645
361830 0.0000380 -0.0006342 0.9999620 0.0006342 0.9999620 0.0006342 0.0000380 -0.0006342
378399 0.0000375 -0.0006051 0.9999625 0.0006051 0.9999625 0.0006051 0.0000375 -0.0006051
395726 0.0000370 -0.0005772 0.9999630 0.0005772 0.9999630 0.0005772 0.0000370 -0.0005772
413847 0.0000366 -0.0005504 0.9999634 0.0005504 0.9999634 0.0005504 0.0000366 -0.0005504
432798 0.0000362 -0.0005247 0.9999638 0.0005247 0.9999638 0.0005247 0.0000362 -0.0005247
452617 0.0000358 -0.0005000 0.9999642 0.0005000 0.9999642 0.0005000 0.0000358 -0.0005000
473344 0.0000355 -0.0004764 0.9999645 0.0004764 0.9999645 0.0004764 0.0000355 -0.0004764
495019 0.0000352 -0.0004536 0.9999648 0.0004536 0.9999648 0.0004536 0.0000352 -0.0004536
517687 0.0000350 -0.0004318 0.9999650 0.0004318 0.9999650 0.0004318 0.0000350 -0.0004318
541393 0.0000347 -0.0004108 0.9999653 0.0004108 0.9999653 0.0004108 0.0000347 -0.0004108
566185 0.0000345 -0.0003906 0.9999655 0.0003906 0.9999655 0.0003906 0.0000345 -0.0003906
592111 0.0000343 -0.0003712 0.9999657 0.0003712 0.9999657 0.0003712 0.0000343 -0.0003712
619225 0.0000342 -0.0003526 0.9999658 0.0003526 0.9999658 0.0003526 0.0000342 -0.0003526
647581 0.0000340 -0.0003346 0.9999660 0.0003346 0.9999660 0.0003346 0.0000340 -0.0003346
677235 0.0000339 -0.0003173 0.9999661 0.0003173 0.9999661 0.0003173 0.0000339 -0.0003173
708247 0.0000338 -0.0003006 0.9999662 0.0003006 0.9999662 0.0003006 0.0000338 -0.0003006
740679 0.0000338 -0.0002845 0.9999662 0.0002845 0.9999662 0.0002845 0.0000338 -0.0002845
774597 0.0000338 -0.0002690 0.9999662 0.0002690 0.9999662 0.0002690 0.0000338 -0.0002690
810067 0.0000337 -0.0002540 0.9999663 0.0002540 0.9999663 0.0002540 0.0000337 -0.0002540
847162 0.0000338 -0.0002396 0.9999662 0.0002396 0.9999662 0.0002396 0.0000338 -0.0002396
885955 0.0000338 -0.0002256 0.9999662 0.0002256 0.9999662 0.0002256 0.0000338 -0.0002256
926525 0.0000339 -0.0002120 0.9999661 0.0002120 0.9999661 0.0002120 0.0000339 -0.0002120
968953 0.0000339 -0.0001989 0.9999661 0.0001989 0.9999661 0.0001989 0.0000339 -0.0001989
1013323 0.0000341 -0.0001862 0.9999659 0.0001862 0.9999659 0.0001862 0.0000341 -0.0001862
1059725 0.0000342 -0.0001738 0.9999658 0.0001738 0.9999658 0.0001738 0.0000342 -0.0001738
1108252 0.0000344 -0.0001618 0.9999656 0.0001618 0.9999656 0.0001618 0.0000344 -0.0001618
1159002 0.0000346 -0.0001501 0.9999654 0.0001501 0.9999654 0.0001501 0.0000346 -0.0001501
1212075 0.0000348 -0.0001387 0.9999652 0.0001387 0.9999652 0.0001387 0.0000348 -0.0001387
1267578 0.0000351 -0.0001275 0.9999649 0.0001275 0.9999649 0.0001275 0.0000351 -0.0001275
1325623 0.0000354 -0.0001166 0.9999646 0.0001166 0.9999646 0.0001166 0.0000354 -0.0001166
1386327 0.0000357 -0.0001059 0.9999643 0.0001059 0.9999643 0.0001059 0.0000357 -0.0001059
1449809 0.0000361 -0.0000955 0.9999639 0.0000955 0.9999639 0.0000955 0.0000361 -0.0000955
1516199 0.0000365 -0.0000852 0.9999635 0.0000852 0.9999635 0.0000852 0.0000365 -0.0000852
1585629 0.0000370 -0.0000750 0.9999630 0.0000750 0.9999630 0.0000750 0.0000370 -0.0000750
1658239 0.0000376 -0.0000650 0.9999624 0.0000650 0.9999624 0.0000650 0.0000376 -0.0000650
1734173 0.0000382 -0.0000551 0.9999618 0.0000551 0.9999618 0.0000551 0.0000382 -0.0000551
1813585 0.0000389 -0.0000453 0.9999611 0.0000453 0.9999611 0.0000453 0.0000389 -0.0000453
1896632 0.0000397 -0.0000356 0.9999603 0.0000356 0.9999603 0.0000356 0.0000397 -0.0000356
1983483 0.0000406 -0.0000259 0.9999594 0.0000259 0.9999594 0.0000259 0.0000406 -0.0000259
2074311 0.0000416 -0.0000161 0.9999584 0.0000161 0.9999584 0.0000161 0.0000416 -0.0000161
