!Murata Part Number: GRM219C81C475KA73
!These Parameters are Measured in Series Mode Connection
!Data Generated on Mar 30, 2021
!       o--ll--o
!Port1            Port2
!       o------o
!Operation Temp=25[degC], DC Bias Voltage=0[V]
!Freq. Start=100[Hz] Stop=6[GHz] 401[Steps]
# Hz S RI R 50
!Freq.(Hz) S11(Real) S11(Imag) S21(Real) S21(Imag) S12(Real) S12(Imag) S22(Real) S22(Imag)
100 0.9584169 -0.1908852 0.0415831 0.1908852 0.0415831 0.1908852 0.9584169 -0.1908852
105 0.9548794 -0.1987632 0.0451206 0.1987632 0.0451206 0.1987632 0.9548794 -0.1987632
109 0.9510499 -0.2068964 0.0489501 0.2068964 0.0489501 0.2068964 0.9510499 -0.2068964
114 0.9469076 -0.2152836 0.0530924 0.2152836 0.0530924 0.2152836 0.9469076 -0.2152836
120 0.9424302 -0.2239220 0.0575698 0.2239220 0.0575698 0.2239220 0.9424302 -0.2239220
125 0.9375948 -0.2328073 0.0624052 0.2328073 0.0624052 0.2328073 0.9375948 -0.2328073
131 0.9323776 -0.2419334 0.0676224 0.2419334 0.0676224 0.2419334 0.9323776 -0.2419334
137 0.9267540 -0.2512921 0.0732460 0.2512921 0.0732460 0.2512921 0.9267540 -0.2512921
143 0.9206989 -0.2608733 0.0793011 0.2608733 0.0793011 0.2608733 0.9206989 -0.2608733
150 0.9141864 -0.2706644 0.0858136 0.2706644 0.0858136 0.2706644 0.9141864 -0.2706644
156 0.9071907 -0.2806501 0.0928093 0.2806501 0.0928093 0.2806501 0.9071907 -0.2806501
164 0.8996855 -0.2908127 0.1003145 0.2908127 0.1003145 0.2908127 0.8996855 -0.2908127
171 0.8916449 -0.3011314 0.1083551 0.3011314 0.1083551 0.3011314 0.8916449 -0.3011314
179 0.8830431 -0.3115824 0.1169569 0.3115824 0.1169569 0.3115824 0.8830431 -0.3115824
187 0.8738552 -0.3221385 0.1261448 0.3221385 0.1261448 0.3221385 0.8738552 -0.3221385
196 0.8640574 -0.3327695 0.1359426 0.3327695 0.1359426 0.3327695 0.8640574 -0.3327695
205 0.8536272 -0.3434416 0.1463728 0.3434416 0.1463728 0.3434416 0.8536272 -0.3434416
214 0.8425438 -0.3541174 0.1574562 0.3541174 0.1574562 0.3541174 0.8425438 -0.3541174
224 0.8307890 -0.3647562 0.1692110 0.3647562 0.1692110 0.3647562 0.8307890 -0.3647562
234 0.8183471 -0.3753138 0.1816529 0.3753138 0.1816529 0.3753138 0.8183471 -0.3753138
245 0.8052060 -0.3857427 0.1947940 0.3857427 0.1947940 0.3857427 0.8052060 -0.3857427
256 0.7913571 -0.3959922 0.2086429 0.3959922 0.2086429 0.3959922 0.7913571 -0.3959922
268 0.7767963 -0.4060087 0.2232037 0.4060087 0.2232037 0.4060087 0.7767963 -0.4060087
280 0.7615245 -0.4157363 0.2384755 0.4157363 0.2384755 0.4157363 0.7615245 -0.4157363
293 0.7455477 -0.4251168 0.2544523 0.4251168 0.2544523 0.4251168 0.7455477 -0.4251168
306 0.7288782 -0.4340907 0.2711218 0.4340907 0.2711218 0.4340907 0.7288782 -0.4340907
320 0.7115343 -0.4425975 0.2884657 0.4425975 0.2884657 0.4425975 0.7115343 -0.4425975
335 0.6935410 -0.4505767 0.3064590 0.4505767 0.3064590 0.4505767 0.6935410 -0.4505767
350 0.6749304 -0.4579686 0.3250696 0.4579686 0.3250696 0.4579686 0.6749304 -0.4579686
366 0.6557414 -0.4647150 0.3442586 0.4647150 0.3442586 0.4647150 0.6557414 -0.4647150
383 0.6360200 -0.4707605 0.3639800 0.4707605 0.3639800 0.4707605 0.6360200 -0.4707605
401 0.6158190 -0.4760532 0.3841810 0.4760532 0.3841810 0.4760532 0.6158190 -0.4760532
419 0.5951979 -0.4805461 0.4048021 0.4805461 0.4048021 0.4805461 0.5951979 -0.4805461
438 0.5742220 -0.4841976 0.4257780 0.4841976 0.4257780 0.4841976 0.5742220 -0.4841976
458 0.5529618 -0.4869727 0.4470382 0.4869727 0.4470382 0.4869727 0.5529618 -0.4869727
479 0.5314927 -0.4888438 0.4685073 0.4888438 0.4685073 0.4888438 0.5314927 -0.4888438
501 0.5098929 -0.4897913 0.4901071 0.4897913 0.4901071 0.4897913 0.5098929 -0.4897913
524 0.4882436 -0.4898042 0.5117564 0.4898042 0.5117564 0.4898042 0.4882436 -0.4898042
548 0.4666265 -0.4888803 0.5333735 0.4888803 0.5333735 0.4888803 0.4666265 -0.4888803
573 0.4451236 -0.4870264 0.5548764 0.4870264 0.5548764 0.4870264 0.4451236 -0.4870264
600 0.4238153 -0.4842580 0.5761847 0.4842580 0.5761847 0.4842580 0.4238153 -0.4842580
627 0.4027795 -0.4805996 0.5972205 0.4805996 0.5972205 0.4805996 0.4027795 -0.4805996
656 0.3820901 -0.4760833 0.6179099 0.4760833 0.6179099 0.4760833 0.3820901 -0.4760833
686 0.3618165 -0.4707488 0.6381835 0.4707488 0.6381835 0.4707488 0.3618165 -0.4707488
717 0.3420222 -0.4646424 0.6579778 0.4646424 0.6579778 0.4646424 0.3420222 -0.4646424
750 0.3227642 -0.4578158 0.6772358 0.4578158 0.6772358 0.4578158 0.3227642 -0.4578158
784 0.3040927 -0.4503255 0.6959073 0.4503255 0.6959073 0.4503255 0.3040927 -0.4503255
820 0.2860504 -0.4422311 0.7139496 0.4422311 0.7139496 0.4422311 0.2860504 -0.4422311
858 0.2686725 -0.4335949 0.7313275 0.4335949 0.7313275 0.4335949 0.2686725 -0.4335949
897 0.2519868 -0.4244805 0.7480132 0.4244805 0.7480132 0.4244805 0.2519868 -0.4244805
938 0.2360136 -0.4149517 0.7639864 0.4149517 0.7639864 0.4149517 0.2360136 -0.4149517
981 0.2207661 -0.4050717 0.7792339 0.4050717 0.7792339 0.4050717 0.2207661 -0.4050717
1026 0.2062511 -0.3949026 0.7937489 0.3949026 0.7937489 0.3949026 0.2062511 -0.3949026
1073 0.1924690 -0.3845038 0.8075310 0.3845038 0.8075310 0.3845038 0.1924690 -0.3845038
1122 0.1794147 -0.3739326 0.8205853 0.3739326 0.8205853 0.3739326 0.1794147 -0.3739326
1174 0.1670782 -0.3632426 0.8329218 0.3632426 0.8329218 0.3632426 0.1670782 -0.3632426
1227 0.1554452 -0.3524841 0.8445548 0.3524841 0.8445548 0.3524841 0.1554452 -0.3524841
1283 0.1444976 -0.3417037 0.8555024 0.3417037 0.8555024 0.3417037 0.1444976 -0.3417037
1342 0.1342143 -0.3309436 0.8657857 0.3309436 0.8657857 0.3309436 0.1342143 -0.3309436
1404 0.1245720 -0.3202424 0.8754280 0.3202424 0.8754280 0.3202424 0.1245720 -0.3202424
1468 0.1155451 -0.3096345 0.8844549 0.3096345 0.8844549 0.3096345 0.1155451 -0.3096345
1535 0.1071069 -0.2991504 0.8928931 0.2991504 0.8928931 0.2991504 0.1071069 -0.2991504
1606 0.0992296 -0.2888168 0.9007704 0.2888168 0.9007704 0.2888168 0.0992296 -0.2888168
1679 0.0918853 -0.2786567 0.9081147 0.2786567 0.9081147 0.2786567 0.0918853 -0.2786567
1756 0.0850454 -0.2686899 0.9149546 0.2686899 0.9149546 0.2686899 0.0850454 -0.2686899
1836 0.0786819 -0.2589328 0.9213181 0.2589328 0.9213181 0.2589328 0.0786819 -0.2589328
1920 0.0727671 -0.2493989 0.9272329 0.2493989 0.9272329 0.2493989 0.0727671 -0.2493989
2008 0.0672739 -0.2400991 0.9327261 0.2400991 0.9327261 0.2400991 0.0672739 -0.2400991
2100 0.0621761 -0.2310418 0.9378239 0.2310418 0.9378239 0.2310418 0.0621761 -0.2310418
2196 0.0574485 -0.2222332 0.9425515 0.2222332 0.9425515 0.2222332 0.0574485 -0.2222332
2297 0.0530669 -0.2136775 0.9469331 0.2136775 0.9469331 0.2136775 0.0530669 -0.2136775
2402 0.0490081 -0.2053772 0.9509919 0.2053772 0.9509919 0.2053772 0.0490081 -0.2053772
2512 0.0452504 -0.1973334 0.9547496 0.1973334 0.9547496 0.1973334 0.0452504 -0.1973334
2627 0.0417728 -0.1895457 0.9582272 0.1895457 0.9582272 0.1895457 0.0417728 -0.1895457
2748 0.0385559 -0.1820128 0.9614441 0.1820128 0.9614441 0.1820128 0.0385559 -0.1820128
2873 0.0355814 -0.1747322 0.9644186 0.1747322 0.9644186 0.1747322 0.0355814 -0.1747322
3005 0.0328319 -0.1677008 0.9671681 0.1677008 0.9671681 0.1677008 0.0328319 -0.1677008
3143 0.0302913 -0.1609146 0.9697087 0.1609146 0.9697087 0.1609146 0.0302913 -0.1609146
3287 0.0279445 -0.1543692 0.9720555 0.1543692 0.9720555 0.1543692 0.0279445 -0.1543692
3437 0.0257775 -0.1480597 0.9742225 0.1480597 0.9742225 0.1480597 0.0257775 -0.1480597
3594 0.0237771 -0.1419809 0.9762229 0.1419809 0.9762229 0.1419809 0.0237771 -0.1419809
3759 0.0219311 -0.1361273 0.9780689 0.1361273 0.9780689 0.1361273 0.0219311 -0.1361273
3931 0.0202281 -0.1304932 0.9797719 0.1304932 0.9797719 0.1304932 0.0202281 -0.1304932
4111 0.0186576 -0.1250725 0.9813424 0.1250725 0.9813424 0.1250725 0.0186576 -0.1250725
4299 0.0172096 -0.1198595 0.9827904 0.1198595 0.9827904 0.1198595 0.0172096 -0.1198595
4496 0.0158750 -0.1148480 0.9841250 0.1148480 0.9841250 0.1148480 0.0158750 -0.1148480
4702 0.0146453 -0.1100319 0.9853547 0.1100319 0.9853547 0.1100319 0.0146453 -0.1100319
4918 0.0135125 -0.1054052 0.9864875 0.1054052 0.9864875 0.1054052 0.0135125 -0.1054052
5143 0.0124694 -0.1009618 0.9875306 0.1009618 0.9875306 0.1009618 0.0124694 -0.1009618
5378 0.0115092 -0.0966959 0.9884908 0.0966959 0.9884908 0.0966959 0.0115092 -0.0966959
5625 0.0106253 -0.0926013 0.9893747 0.0926013 0.9893747 0.0926013 0.0106253 -0.0926013
5882 0.0098120 -0.0886724 0.9901880 0.0886724 0.9901880 0.0886724 0.0098120 -0.0886724
6151 0.0090639 -0.0849033 0.9909361 0.0849033 0.9909361 0.0849033 0.0090639 -0.0849033
6433 0.0083757 -0.0812884 0.9916243 0.0812884 0.9916243 0.0812884 0.0083757 -0.0812884
6728 0.0077428 -0.0778223 0.9922572 0.0778223 0.9922572 0.0778223 0.0077428 -0.0778223
7036 0.0071609 -0.0744994 0.9928391 0.0744994 0.9928391 0.0744994 0.0071609 -0.0744994
7358 0.0066258 -0.0713144 0.9933742 0.0713144 0.9933742 0.0713144 0.0066258 -0.0713144
7695 0.0061339 -0.0682624 0.9938661 0.0682624 0.9938661 0.0682624 0.0061339 -0.0682624
8047 0.0056817 -0.0653381 0.9943183 0.0653381 0.9943183 0.0653381 0.0056817 -0.0653381
8416 0.0052659 -0.0625367 0.9947341 0.0625367 0.9947341 0.0625367 0.0052659 -0.0625367
8801 0.0048836 -0.0598535 0.9951164 0.0598535 0.9951164 0.0598535 0.0048836 -0.0598535
9204 0.0045320 -0.0572838 0.9954680 0.0572838 0.9954680 0.0572838 0.0045320 -0.0572838
9626 0.0042086 -0.0548232 0.9957914 0.0548232 0.9957914 0.0548232 0.0042086 -0.0548232
10066 0.0039110 -0.0524673 0.9960890 0.0524673 0.9960890 0.0524673 0.0039110 -0.0524673
10527 0.0036372 -0.0502118 0.9963628 0.0502118 0.9963628 0.0502118 0.0036372 -0.0502118
11009 0.0033850 -0.0480528 0.9966150 0.0480528 0.9966150 0.0480528 0.0033850 -0.0480528
11514 0.0031526 -0.0459863 0.9968474 0.0459863 0.9968474 0.0459863 0.0031526 -0.0459863
12041 0.0029385 -0.0440084 0.9970615 0.0440084 0.9970615 0.0440084 0.0029385 -0.0440084
12592 0.0027409 -0.0421155 0.9972591 0.0421155 0.9972591 0.0421155 0.0027409 -0.0421155
13169 0.0025586 -0.0403041 0.9974414 0.0403041 0.9974414 0.0403041 0.0025586 -0.0403041
13772 0.0023901 -0.0385706 0.9976099 0.0385706 0.9976099 0.0385706 0.0023901 -0.0385706
14402 0.0022343 -0.0369119 0.9977657 0.0369119 0.9977657 0.0369119 0.0022343 -0.0369119
15062 0.0020901 -0.0353247 0.9979099 0.0353247 0.9979099 0.0353247 0.0020901 -0.0353247
15752 0.0019566 -0.0338060 0.9980434 0.0338060 0.9980434 0.0338060 0.0019566 -0.0338060
16473 0.0018327 -0.0323528 0.9981673 0.0323528 0.9981673 0.0323528 0.0018327 -0.0323528
17227 0.0017176 -0.0309623 0.9982824 0.0309623 0.9982824 0.0309623 0.0017176 -0.0309623
18016 0.0016107 -0.0296317 0.9983893 0.0296317 0.9983893 0.0296317 0.0016107 -0.0296317
18841 0.0015113 -0.0283585 0.9984887 0.0283585 0.9984887 0.0283585 0.0015113 -0.0283585
19704 0.0014186 -0.0271402 0.9985814 0.0271402 0.9985814 0.0271402 0.0014186 -0.0271402
20606 0.0013322 -0.0259744 0.9986678 0.0259744 0.9986678 0.0259744 0.0013322 -0.0259744
21550 0.0012516 -0.0248587 0.9987484 0.0248587 0.9987484 0.0248587 0.0012516 -0.0248587
22537 0.0011763 -0.0237910 0.9988237 0.0237910 0.9988237 0.0237910 0.0011763 -0.0237910
23569 0.0011059 -0.0227691 0.9988941 0.0227691 0.9988941 0.0227691 0.0011059 -0.0227691
24648 0.0010400 -0.0217911 0.9989600 0.0217911 0.9989600 0.0217911 0.0010400 -0.0217911
25777 0.0009784 -0.0208550 0.9990216 0.0208550 0.9990216 0.0208550 0.0009784 -0.0208550
26957 0.0009207 -0.0199590 0.9990793 0.0199590 0.9990793 0.0199590 0.0009207 -0.0199590
28191 0.0008666 -0.0191013 0.9991334 0.0191013 0.9991334 0.0191013 0.0008666 -0.0191013
29482 0.0008160 -0.0182803 0.9991840 0.0182803 0.9991840 0.0182803 0.0008160 -0.0182803
30832 0.0007686 -0.0174944 0.9992314 0.0174944 0.9992314 0.0174944 0.0007686 -0.0174944
32244 0.0007241 -0.0167421 0.9992759 0.0167421 0.9992759 0.0167421 0.0007241 -0.0167421
33721 0.0006825 -0.0160219 0.9993175 0.0160219 0.9993175 0.0160219 0.0006825 -0.0160219
35265 0.0006435 -0.0153324 0.9993565 0.0153324 0.9993565 0.0153324 0.0006435 -0.0153324
36880 0.0006070 -0.0146724 0.9993930 0.0146724 0.9993930 0.0146724 0.0006070 -0.0146724
38569 0.0005729 -0.0140405 0.9994271 0.0140405 0.9994271 0.0140405 0.0005729 -0.0140405
40335 0.0005409 -0.0134357 0.9994591 0.0134357 0.9994591 0.0134357 0.0005409 -0.0134357
42182 0.0005111 -0.0128566 0.9994889 0.0128566 0.9994889 0.0128566 0.0005111 -0.0128566
44113 0.0004832 -0.0123024 0.9995168 0.0123024 0.9995168 0.0123024 0.0004832 -0.0123024
46134 0.0004572 -0.0117718 0.9995428 0.0117718 0.9995428 0.0117718 0.0004572 -0.0117718
48246 0.0004329 -0.0112639 0.9995671 0.0112639 0.9995671 0.0112639 0.0004329 -0.0112639
50455 0.0004102 -0.0107778 0.9995898 0.0107778 0.9995898 0.0107778 0.0004102 -0.0107778
52766 0.0003890 -0.0103126 0.9996110 0.0103126 0.9996110 0.0103126 0.0003890 -0.0103126
55182 0.0003693 -0.0098673 0.9996307 0.0098673 0.9996307 0.0098673 0.0003693 -0.0098673
57709 0.0003509 -0.0094411 0.9996491 0.0094411 0.9996491 0.0094411 0.0003509 -0.0094411
60352 0.0003338 -0.0090333 0.9996662 0.0090333 0.9996662 0.0090333 0.0003338 -0.0090333
63115 0.0003178 -0.0086430 0.9996822 0.0086430 0.9996822 0.0086430 0.0003178 -0.0086430
66005 0.0003029 -0.0082696 0.9996971 0.0082696 0.9996971 0.0082696 0.0003029 -0.0082696
69028 0.0002890 -0.0079123 0.9997110 0.0079123 0.9997110 0.0079123 0.0002890 -0.0079123
72189 0.0002760 -0.0075704 0.9997240 0.0075704 0.9997240 0.0075704 0.0002760 -0.0075704
75495 0.0002639 -0.0072433 0.9997361 0.0072433 0.9997361 0.0072433 0.0002639 -0.0072433
78952 0.0002526 -0.0069303 0.9997474 0.0069303 0.9997474 0.0069303 0.0002526 -0.0069303
82567 0.0002420 -0.0066310 0.9997580 0.0066310 0.9997580 0.0066310 0.0002420 -0.0066310
86348 0.0002321 -0.0063445 0.9997679 0.0063445 0.9997679 0.0063445 0.0002321 -0.0063445
90302 0.0002228 -0.0060705 0.9997772 0.0060705 0.9997772 0.0060705 0.0002228 -0.0060705
94437 0.0002140 -0.0058084 0.9997860 0.0058084 0.9997860 0.0058084 0.0002140 -0.0058084
98762 0.0002057 -0.0055577 0.9997943 0.0055577 0.9997943 0.0055577 0.0002057 -0.0055577
103284 0.0001980 -0.0053179 0.9998020 0.0053179 0.9998020 0.0053179 0.0001980 -0.0053179
108014 0.0001906 -0.0050884 0.9998094 0.0050884 0.9998094 0.0050884 0.0001906 -0.0050884
112960 0.0001836 -0.0048689 0.9998164 0.0048689 0.9998164 0.0048689 0.0001836 -0.0048689
118133 0.0001770 -0.0046590 0.9998230 0.0046590 0.9998230 0.0046590 0.0001770 -0.0046590
123542 0.0001707 -0.0044581 0.9998293 0.0044581 0.9998293 0.0044581 0.0001707 -0.0044581
129199 0.0001646 -0.0042660 0.9998354 0.0042660 0.9998354 0.0042660 0.0001646 -0.0042660
135116 0.0001589 -0.0040821 0.9998411 0.0040821 0.9998411 0.0040821 0.0001589 -0.0040821
141303 0.0001534 -0.0039063 0.9998466 0.0039063 0.9998466 0.0039063 0.0001534 -0.0039063
147774 0.0001481 -0.0037380 0.9998519 0.0037380 0.9998519 0.0037380 0.0001481 -0.0037380
154540 0.0001430 -0.0035769 0.9998570 0.0035769 0.9998570 0.0035769 0.0001430 -0.0035769
161617 0.0001380 -0.0034228 0.9998620 0.0034228 0.9998620 0.0034228 0.0001380 -0.0034228
169018 0.0001333 -0.0032754 0.9998667 0.0032754 0.9998667 0.0032754 0.0001333 -0.0032754
176758 0.0001288 -0.0031342 0.9998712 0.0031342 0.9998712 0.0031342 0.0001288 -0.0031342
184852 0.0001243 -0.0029991 0.9998757 0.0029991 0.9998757 0.0029991 0.0001243 -0.0029991
193316 0.0001201 -0.0028698 0.9998799 0.0028698 0.9998799 0.0028698 0.0001201 -0.0028698
202169 0.0001160 -0.0027460 0.9998840 0.0027460 0.9998840 0.0027460 0.0001160 -0.0027460
211427 0.0001120 -0.0026275 0.9998880 0.0026275 0.9998880 0.0026275 0.0001120 -0.0026275
221108 0.0001082 -0.0025140 0.9998918 0.0025140 0.9998918 0.0025140 0.0001082 -0.0025140
231233 0.0001046 -0.0024053 0.9998954 0.0024053 0.9998954 0.0024053 0.0001046 -0.0024053
241822 0.0001010 -0.0023012 0.9998990 0.0023012 0.9998990 0.0023012 0.0001010 -0.0023012
252896 0.0000976 -0.0022015 0.9999024 0.0022015 0.9999024 0.0022015 0.0000976 -0.0022015
264476 0.0000944 -0.0021060 0.9999056 0.0021060 0.9999056 0.0021060 0.0000944 -0.0021060
276587 0.0000913 -0.0020146 0.9999087 0.0020146 0.9999087 0.0020146 0.0000913 -0.0020146
289253 0.0000883 -0.0019269 0.9999117 0.0019269 0.9999117 0.0019269 0.0000883 -0.0019269
302498 0.0000855 -0.0018430 0.9999145 0.0018430 0.9999145 0.0018430 0.0000855 -0.0018430
316350 0.0000828 -0.0017626 0.9999172 0.0017626 0.9999172 0.0017626 0.0000828 -0.0017626
330837 0.0000802 -0.0016856 0.9999198 0.0016856 0.9999198 0.0016856 0.0000802 -0.0016856
345986 0.0000778 -0.0016117 0.9999222 0.0016117 0.9999222 0.0016117 0.0000778 -0.0016117
361830 0.0000755 -0.0015410 0.9999245 0.0015410 0.9999245 0.0015410 0.0000755 -0.0015410
378399 0.0000733 -0.0014732 0.9999267 0.0014732 0.9999267 0.0014732 0.0000733 -0.0014732
395726 0.0000712 -0.0014083 0.9999288 0.0014083 0.9999288 0.0014083 0.0000712 -0.0014083
413847 0.0000693 -0.0013460 0.9999307 0.0013460 0.9999307 0.0013460 0.0000693 -0.0013460
432798 0.0000675 -0.0012864 0.9999325 0.0012864 0.9999325 0.0012864 0.0000675 -0.0012864
452617 0.0000658 -0.0012292 0.9999342 0.0012292 0.9999342 0.0012292 0.0000658 -0.0012292
473344 0.0000642 -0.0011744 0.9999358 0.0011744 0.9999358 0.0011744 0.0000642 -0.0011744
495019 0.0000628 -0.0011219 0.9999372 0.0011219 0.9999372 0.0011219 0.0000628 -0.0011219
517687 0.0000614 -0.0010715 0.9999386 0.0010715 0.9999386 0.0010715 0.0000614 -0.0010715
541393 0.0000601 -0.0010233 0.9999399 0.0010233 0.9999399 0.0010233 0.0000601 -0.0010233
566185 0.0000589 -0.0009770 0.9999411 0.0009770 0.9999411 0.0009770 0.0000589 -0.0009770
592111 0.0000578 -0.0009326 0.9999422 0.0009326 0.9999422 0.0009326 0.0000578 -0.0009326
619225 0.0000568 -0.0008901 0.9999432 0.0008901 0.9999432 0.0008901 0.0000568 -0.0008901
647581 0.0000559 -0.0008493 0.9999441 0.0008493 0.9999441 0.0008493 0.0000559 -0.0008493
677235 0.0000550 -0.0008101 0.9999450 0.0008101 0.9999450 0.0008101 0.0000550 -0.0008101
708247 0.0000542 -0.0007726 0.9999458 0.0007726 0.9999458 0.0007726 0.0000542 -0.0007726
740679 0.0000535 -0.0007365 0.9999465 0.0007365 0.9999465 0.0007365 0.0000535 -0.0007365
774597 0.0000528 -0.0007019 0.9999472 0.0007019 0.9999472 0.0007019 0.0000528 -0.0007019
810067 0.0000522 -0.0006687 0.9999478 0.0006687 0.9999478 0.0006687 0.0000522 -0.0006687
847162 0.0000517 -0.0006368 0.9999483 0.0006368 0.9999483 0.0006368 0.0000517 -0.0006368
885955 0.0000512 -0.0006062 0.9999488 0.0006062 0.9999488 0.0006062 0.0000512 -0.0006062
926525 0.0000507 -0.0005768 0.9999493 0.0005768 0.9999493 0.0005768 0.0000507 -0.0005768
968953 0.0000503 -0.0005485 0.9999497 0.0005485 0.9999497 0.0005485 0.0000503 -0.0005485
1013323 0.0000500 -0.0005213 0.9999500 0.0005213 0.9999500 0.0005213 0.0000500 -0.0005213
1059725 0.0000497 -0.0004951 0.9999503 0.0004951 0.9999503 0.0004951 0.0000497 -0.0004951
1108252 0.0000494 -0.0004699 0.9999506 0.0004699 0.9999506 0.0004699 0.0000494 -0.0004699
1159002 0.0000491 -0.0004456 0.9999509 0.0004456 0.9999509 0.0004456 0.0000491 -0.0004456
1212075 0.0000489 -0.0004223 0.9999511 0.0004223 0.9999511 0.0004223 0.0000489 -0.0004223
1267578 0.0000488 -0.0003997 0.9999512 0.0003997 0.9999512 0.0003997 0.0000488 -0.0003997
1325623 0.0000486 -0.0003780 0.9999514 0.0003780 0.9999514 0.0003780 0.0000486 -0.0003780
1386327 0.0000485 -0.0003570 0.9999515 0.0003570 0.9999515 0.0003570 0.0000485 -0.0003570
1449809 0.0000485 -0.0003367 0.9999515 0.0003367 0.9999515 0.0003367 0.0000485 -0.0003367
1516199 0.0000485 -0.0003171 0.9999515 0.0003171 0.9999515 0.0003171 0.0000485 -0.0003171
1585629 0.0000485 -0.0002981 0.9999515 0.0002981 0.9999515 0.0002981 0.0000485 -0.0002981
1658239 0.0000485 -0.0002797 0.9999515 0.0002797 0.9999515 0.0002797 0.0000485 -0.0002797
1734173 0.0000486 -0.0002618 0.9999514 0.0002618 0.9999514 0.0002618 0.0000486 -0.0002618
1813585 0.0000487 -0.0002445 0.9999513 0.0002445 0.9999513 0.0002445 0.0000487 -0.0002445
1896632 0.0000488 -0.0002277 0.9999512 0.0002277 0.9999512 0.0002277 0.0000488 -0.0002277
1983483 0.0000490 -0.0002113 0.9999510 0.0002113 0.9999510 0.0002113 0.0000490 -0.0002113
2074311 0.0000492 -0.0001953 0.9999508 0.0001953 0.9999508 0.0001953 0.0000492 -0.0001953
