!Murata Part Number: GRM219R11E683KA01
!These Parameters are Measured in Series Mode Connection
!Data Generated on Mar 30, 2021
!       o--ll--o
!Port1            Port2
!       o------o
!Operation Temp=25[degC], DC Bias Voltage=0[V]
!Freq. Start=100[Hz] Stop=6[GHz] 401[Steps]
# Hz S RI R 50
!Freq.(Hz) S11(Real) S11(Imag) S21(Real) S21(Imag) S12(Real) S12(Imag) S22(Real) S22(Imag)
100 0.9999614 -0.0042447 0.0000386 0.0042447 0.0000386 0.0042447 0.9999614 -0.0042447
105 0.9999588 -0.0044385 0.0000412 0.0044385 0.0000412 0.0044385 0.9999588 -0.0044385
109 0.9999561 -0.0046411 0.0000439 0.0046411 0.0000439 0.0046411 0.9999561 -0.0046411
114 0.9999530 -0.0048529 0.0000470 0.0048529 0.0000470 0.0048529 0.9999530 -0.0048529
120 0.9999498 -0.0050745 0.0000502 0.0050745 0.0000502 0.0050745 0.9999498 -0.0050745
125 0.9999463 -0.0053061 0.0000537 0.0053061 0.0000537 0.0053061 0.9999463 -0.0053061
131 0.9999425 -0.0055483 0.0000575 0.0055483 0.0000575 0.0055483 0.9999425 -0.0055483
137 0.9999384 -0.0058015 0.0000616 0.0058015 0.0000616 0.0058015 0.9999384 -0.0058015
143 0.9999340 -0.0060663 0.0000660 0.0060663 0.0000660 0.0060663 0.9999340 -0.0060663
150 0.9999293 -0.0063432 0.0000707 0.0063432 0.0000707 0.0063432 0.9999293 -0.0063432
156 0.9999241 -0.0066327 0.0000759 0.0066327 0.0000759 0.0066327 0.9999241 -0.0066327
164 0.9999186 -0.0069354 0.0000814 0.0069354 0.0000814 0.0069354 0.9999186 -0.0069354
171 0.9999126 -0.0072519 0.0000874 0.0072519 0.0000874 0.0072519 0.9999126 -0.0072519
179 0.9999061 -0.0075829 0.0000939 0.0075829 0.0000939 0.0075829 0.9999061 -0.0075829
187 0.9998991 -0.0079290 0.0001009 0.0079290 0.0001009 0.0079290 0.9998991 -0.0079290
196 0.9998916 -0.0082908 0.0001084 0.0082908 0.0001084 0.0082908 0.9998916 -0.0082908
205 0.9998834 -0.0086692 0.0001166 0.0086692 0.0001166 0.0086692 0.9998834 -0.0086692
214 0.9998746 -0.0090649 0.0001254 0.0090649 0.0001254 0.0090649 0.9998746 -0.0090649
224 0.9998650 -0.0094786 0.0001350 0.0094786 0.0001350 0.0094786 0.9998650 -0.0094786
234 0.9998547 -0.0099111 0.0001453 0.0099111 0.0001453 0.0099111 0.9998547 -0.0099111
245 0.9998435 -0.0103635 0.0001565 0.0103635 0.0001565 0.0103635 0.9998435 -0.0103635
256 0.9998313 -0.0108364 0.0001687 0.0108364 0.0001687 0.0108364 0.9998313 -0.0108364
268 0.9998181 -0.0113310 0.0001819 0.0113310 0.0001819 0.0113310 0.9998181 -0.0113310
280 0.9998038 -0.0118481 0.0001962 0.0118481 0.0001962 0.0118481 0.9998038 -0.0118481
293 0.9997882 -0.0123889 0.0002118 0.0123889 0.0002118 0.0123889 0.9997882 -0.0123889
306 0.9997713 -0.0129543 0.0002287 0.0129543 0.0002287 0.0129543 0.9997713 -0.0129543
320 0.9997530 -0.0135456 0.0002470 0.0135456 0.0002470 0.0135456 0.9997530 -0.0135456
335 0.9997330 -0.0141638 0.0002670 0.0141638 0.0002670 0.0141638 0.9997330 -0.0141638
350 0.9997113 -0.0148102 0.0002887 0.0148102 0.0002887 0.0148102 0.9997113 -0.0148102
366 0.9996877 -0.0154861 0.0003123 0.0154861 0.0003123 0.0154861 0.9996877 -0.0154861
383 0.9996620 -0.0161928 0.0003380 0.0161928 0.0003380 0.0161928 0.9996620 -0.0161928
401 0.9996341 -0.0169318 0.0003659 0.0169318 0.0003659 0.0169318 0.9996341 -0.0169318
419 0.9996036 -0.0177044 0.0003964 0.0177044 0.0003964 0.0177044 0.9996036 -0.0177044
438 0.9995704 -0.0185122 0.0004296 0.0185122 0.0004296 0.0185122 0.9995704 -0.0185122
458 0.9995343 -0.0193569 0.0004657 0.0193569 0.0004657 0.0193569 0.9995343 -0.0193569
479 0.9994950 -0.0202400 0.0005050 0.0202400 0.0005050 0.0202400 0.9994950 -0.0202400
501 0.9994521 -0.0211632 0.0005479 0.0211632 0.0005479 0.0211632 0.9994521 -0.0211632
524 0.9994053 -0.0221285 0.0005947 0.0221285 0.0005947 0.0221285 0.9994053 -0.0221285
548 0.9993544 -0.0231377 0.0006456 0.0231377 0.0006456 0.0231377 0.9993544 -0.0231377
573 0.9992989 -0.0241927 0.0007011 0.0241927 0.0007011 0.0241927 0.9992989 -0.0241927
600 0.9992385 -0.0252956 0.0007615 0.0252956 0.0007615 0.0252956 0.9992385 -0.0252956
627 0.9991726 -0.0264486 0.0008274 0.0264486 0.0008274 0.0264486 0.9991726 -0.0264486
656 0.9991008 -0.0276539 0.0008992 0.0276539 0.0008992 0.0276539 0.9991008 -0.0276539
686 0.9990226 -0.0289139 0.0009774 0.0289139 0.0009774 0.0289139 0.9990226 -0.0289139
717 0.9989373 -0.0302309 0.0010627 0.0302309 0.0010627 0.0302309 0.9989373 -0.0302309
750 0.9988444 -0.0316076 0.0011556 0.0316076 0.0011556 0.0316076 0.9988444 -0.0316076
784 0.9987433 -0.0330467 0.0012567 0.0330467 0.0012567 0.0330467 0.9987433 -0.0330467
820 0.9986330 -0.0345507 0.0013670 0.0345507 0.0013670 0.0345507 0.9986330 -0.0345507
858 0.9985129 -0.0361228 0.0014871 0.0361228 0.0014871 0.0361228 0.9985129 -0.0361228
897 0.9983821 -0.0377659 0.0016179 0.0377659 0.0016179 0.0377659 0.9983821 -0.0377659
938 0.9982395 -0.0394831 0.0017605 0.0394831 0.0017605 0.0394831 0.9982395 -0.0394831
981 0.9980842 -0.0412778 0.0019158 0.0412778 0.0019158 0.0412778 0.9980842 -0.0412778
1026 0.9979151 -0.0431533 0.0020849 0.0431533 0.0020849 0.0431533 0.9979151 -0.0431533
1073 0.9977308 -0.0451133 0.0022692 0.0451133 0.0022692 0.0451133 0.9977308 -0.0451133
1122 0.9975300 -0.0471614 0.0024700 0.0471614 0.0024700 0.0471614 0.9975300 -0.0471614
1174 0.9973112 -0.0493015 0.0026888 0.0493015 0.0026888 0.0493015 0.9973112 -0.0493015
1227 0.9970728 -0.0515377 0.0029272 0.0515377 0.0029272 0.0515377 0.9970728 -0.0515377
1283 0.9968130 -0.0538742 0.0031870 0.0538742 0.0031870 0.0538742 0.9968130 -0.0538742
1342 0.9965299 -0.0563153 0.0034701 0.0563153 0.0034701 0.0563153 0.9965299 -0.0563153
1404 0.9962214 -0.0588655 0.0037786 0.0588655 0.0037786 0.0588655 0.9962214 -0.0588655
1468 0.9958851 -0.0615295 0.0041149 0.0615295 0.0041149 0.0615295 0.9958851 -0.0615295
1535 0.9955185 -0.0643122 0.0044815 0.0643122 0.0044815 0.0643122 0.9955185 -0.0643122
1606 0.9951188 -0.0672186 0.0048812 0.0672186 0.0048812 0.0672186 0.9951188 -0.0672186
1679 0.9946830 -0.0702540 0.0053170 0.0702540 0.0053170 0.0702540 0.9946830 -0.0702540
1756 0.9942079 -0.0734236 0.0057921 0.0734236 0.0057921 0.0734236 0.9942079 -0.0734236
1836 0.9936898 -0.0767332 0.0063102 0.0767332 0.0063102 0.0767332 0.9936898 -0.0767332
1920 0.9931248 -0.0801884 0.0068752 0.0801884 0.0068752 0.0801884 0.9931248 -0.0801884
2008 0.9925086 -0.0837950 0.0074914 0.0837950 0.0074914 0.0837950 0.9925086 -0.0837950
2100 0.9918366 -0.0875591 0.0081634 0.0875591 0.0081634 0.0875591 0.9918366 -0.0875591
2196 0.9911038 -0.0914870 0.0088962 0.0914870 0.0088962 0.0914870 0.9911038 -0.0914870
2297 0.9903046 -0.0955848 0.0096954 0.0955848 0.0096954 0.0955848 0.9903046 -0.0955848
2402 0.9894330 -0.0998591 0.0105670 0.0998591 0.0105670 0.0998591 0.9894330 -0.0998591
2512 0.9884826 -0.1043164 0.0115174 0.1043164 0.0115174 0.1043164 0.9884826 -0.1043164
2627 0.9874463 -0.1089633 0.0125537 0.1089633 0.0125537 0.1089633 0.9874463 -0.1089633
2748 0.9863164 -0.1138064 0.0136836 0.1138064 0.0136836 0.1138064 0.9863164 -0.1138064
2873 0.9850847 -0.1188526 0.0149153 0.1188526 0.0149153 0.1188526 0.9850847 -0.1188526
3005 0.9837423 -0.1241085 0.0162577 0.1241085 0.0162577 0.1241085 0.9837423 -0.1241085
3143 0.9822794 -0.1295807 0.0177206 0.1295807 0.0177206 0.1295807 0.9822794 -0.1295807
3287 0.9806857 -0.1352759 0.0193143 0.1352759 0.0193143 0.1352759 0.9806857 -0.1352759
3437 0.9789497 -0.1412005 0.0210503 0.1412005 0.0210503 0.1412005 0.9789497 -0.1412005
3594 0.9770595 -0.1473606 0.0229405 0.1473606 0.0229405 0.1473606 0.9770595 -0.1473606
3759 0.9750018 -0.1537623 0.0249982 0.1537623 0.0249982 0.1537623 0.9750018 -0.1537623
3931 0.9727628 -0.1604111 0.0272372 0.1604111 0.0272372 0.1604111 0.9727628 -0.1604111
4111 0.9703274 -0.1673122 0.0296726 0.1673122 0.0296726 0.1673122 0.9703274 -0.1673122
4299 0.9676796 -0.1744703 0.0323204 0.1744703 0.0323204 0.1744703 0.9676796 -0.1744703
4496 0.9648020 -0.1818892 0.0351980 0.1818892 0.0351980 0.1818892 0.9648020 -0.1818892
4702 0.9616766 -0.1895722 0.0383234 0.1895722 0.0383234 0.1895722 0.9616766 -0.1895722
4918 0.9582838 -0.1975216 0.0417162 0.1975216 0.0417162 0.1975216 0.9582838 -0.1975216
5143 0.9546030 -0.2057385 0.0453970 0.2057385 0.0453970 0.2057385 0.9546030 -0.2057385
5378 0.9506126 -0.2142231 0.0493874 0.2142231 0.0493874 0.2142231 0.9506126 -0.2142231
5625 0.9462895 -0.2229738 0.0537105 0.2229738 0.0537105 0.2229738 0.9462895 -0.2229738
5882 0.9416098 -0.2319877 0.0583902 0.2319877 0.0583902 0.2319877 0.9416098 -0.2319877
6151 0.9365484 -0.2412600 0.0634516 0.2412600 0.0634516 0.2412600 0.9365484 -0.2412600
6433 0.9310790 -0.2507838 0.0689210 0.2507838 0.0689210 0.2507838 0.9310790 -0.2507838
6728 0.9251748 -0.2605501 0.0748252 0.2605501 0.0748252 0.2605501 0.9251748 -0.2605501
7036 0.9188080 -0.2705473 0.0811920 0.2705473 0.0811920 0.2705473 0.9188080 -0.2705473
7358 0.9119501 -0.2807611 0.0880499 0.2807611 0.0880499 0.2807611 0.9119501 -0.2807611
7695 0.9045723 -0.2911743 0.0954277 0.2911743 0.0954277 0.2911743 0.9045723 -0.2911743
8047 0.8966458 -0.3017665 0.1033542 0.3017665 0.1033542 0.3017665 0.8966458 -0.3017665
8416 0.8881418 -0.3125138 0.1118582 0.3125138 0.1118582 0.3125138 0.8881418 -0.3125138
8801 0.8790319 -0.3233886 0.1209681 0.3233886 0.1209681 0.3233886 0.8790319 -0.3233886
9204 0.8692890 -0.3343597 0.1307110 0.3343597 0.1307110 0.3343597 0.8692890 -0.3343597
9626 0.8588868 -0.3453917 0.1411132 0.3453917 0.1411132 0.3453917 0.8588868 -0.3453917
10066 0.8478014 -0.3564454 0.1521986 0.3564454 0.1521986 0.3564454 0.8478014 -0.3564454
10527 0.8360109 -0.3674772 0.1639891 0.3674772 0.1639891 0.3674772 0.8360109 -0.3674772
11009 0.8234967 -0.3784398 0.1765033 0.3784398 0.1765033 0.3784398 0.8234967 -0.3784398
11514 0.8102437 -0.3892815 0.1897563 0.3892815 0.1897563 0.3892815 0.8102437 -0.3892815
12041 0.7962411 -0.3999473 0.2037589 0.3999473 0.2037589 0.3999473 0.7962411 -0.3999473
12592 0.7814831 -0.4103787 0.2185169 0.4103787 0.2185169 0.4103787 0.7814831 -0.4103787
13169 0.7659694 -0.4205142 0.2340306 0.4205142 0.2340306 0.4205142 0.7659694 -0.4205142
13772 0.7497060 -0.4302899 0.2502940 0.4302899 0.2502940 0.4302899 0.7497060 -0.4302899
14402 0.7327058 -0.4396403 0.2672942 0.4396403 0.2672942 0.4396403 0.7327058 -0.4396403
15062 0.7149886 -0.4484991 0.2850114 0.4484991 0.2850114 0.4484991 0.7149886 -0.4484991
15752 0.6965822 -0.4567999 0.3034178 0.4567999 0.3034178 0.4567999 0.6965822 -0.4567999
16473 0.6775220 -0.4644774 0.3224780 0.4644774 0.3224780 0.4644774 0.6775220 -0.4644774
17227 0.6578515 -0.4714687 0.3421485 0.4714687 0.3421485 0.4714687 0.6578515 -0.4714687
18016 0.6376219 -0.4777140 0.3623781 0.4777140 0.3623781 0.4777140 0.6376219 -0.4777140
18841 0.6168919 -0.4831579 0.3831081 0.4831579 0.3831081 0.4831579 0.6168919 -0.4831579
19704 0.5957274 -0.4877510 0.4042726 0.4877510 0.4042726 0.4877510 0.5957274 -0.4877510
20606 0.5742005 -0.4914502 0.4257995 0.4914502 0.4257995 0.4914502 0.5742005 -0.4914502
21550 0.5523888 -0.4942203 0.4476112 0.4942203 0.4476112 0.4942203 0.5523888 -0.4942203
22537 0.5303740 -0.4960342 0.4696260 0.4960342 0.4696260 0.4960342 0.5303740 -0.4960342
23569 0.5082414 -0.4968743 0.4917586 0.4968743 0.4917586 0.4968743 0.5082414 -0.4968743
24648 0.4860779 -0.4967322 0.5139221 0.4967322 0.5139221 0.4967322 0.4860779 -0.4967322
25777 0.4639709 -0.4956095 0.5360291 0.4956095 0.5360291 0.4956095 0.4639709 -0.4956095
26957 0.4420070 -0.4935171 0.5579930 0.4935171 0.5579930 0.4935171 0.4420070 -0.4935171
28191 0.4202705 -0.4904756 0.5797295 0.4904756 0.5797295 0.4904756 0.4202705 -0.4904756
29482 0.3988421 -0.4865146 0.6011579 0.4865146 0.6011579 0.4865146 0.3988421 -0.4865146
30832 0.3777979 -0.4816715 0.6222021 0.4816715 0.6222021 0.4816715 0.3777979 -0.4816715
32244 0.3572083 -0.4759916 0.6427917 0.4759916 0.6427917 0.4759916 0.3572083 -0.4759916
33721 0.3371371 -0.4695261 0.6628629 0.4695261 0.6628629 0.4695261 0.3371371 -0.4695261
35265 0.3176408 -0.4623319 0.6823592 0.4623319 0.6823592 0.4623319 0.3176408 -0.4623319
36880 0.2987684 -0.4544698 0.7012316 0.4544698 0.7012316 0.4544698 0.2987684 -0.4544698
38569 0.2805611 -0.4460036 0.7194389 0.4460036 0.7194389 0.4460036 0.2805611 -0.4460036
40335 0.2630519 -0.4369991 0.7369481 0.4369991 0.7369481 0.4369991 0.2630519 -0.4369991
42182 0.2462662 -0.4275227 0.7537338 0.4275227 0.7537338 0.4275227 0.2462662 -0.4275227
44113 0.2302218 -0.4176407 0.7697782 0.4176407 0.7697782 0.4176407 0.2302218 -0.4176407
46134 0.2149294 -0.4074182 0.7850706 0.4074182 0.7850706 0.4074182 0.2149294 -0.4074182
48246 0.2003930 -0.3969184 0.7996070 0.3969184 0.7996070 0.3969184 0.2003930 -0.3969184
50455 0.1866107 -0.3862020 0.8133893 0.3862020 0.8133893 0.3862020 0.1866107 -0.3862020
52766 0.1735750 -0.3753267 0.8264250 0.3753267 0.8264250 0.3753267 0.1735750 -0.3753267
55182 0.1612737 -0.3643463 0.8387263 0.3643463 0.8387263 0.3643463 0.1612737 -0.3643463
57709 0.1496907 -0.3533114 0.8503093 0.3533114 0.8503093 0.3533114 0.1496907 -0.3533114
60352 0.1388062 -0.3422680 0.8611938 0.3422680 0.8611938 0.3422680 0.1388062 -0.3422680
63115 0.1285976 -0.3312585 0.8714024 0.3312585 0.8714024 0.3312585 0.1285976 -0.3312585
66005 0.1190403 -0.3203210 0.8809597 0.3203210 0.8809597 0.3203210 0.1190403 -0.3203210
69028 0.1101076 -0.3094894 0.8898924 0.3094894 0.8898924 0.3094894 0.1101076 -0.3094894
72189 0.1017719 -0.2987941 0.8982281 0.2987941 0.8982281 0.2987941 0.1017719 -0.2987941
75495 0.0940048 -0.2882612 0.9059952 0.2882612 0.9059952 0.2882612 0.0940048 -0.2882612
78952 0.0867774 -0.2779138 0.9132226 0.2779138 0.9132226 0.2779138 0.0867774 -0.2779138
82567 0.0800607 -0.2677710 0.9199393 0.2677710 0.9199393 0.2677710 0.0800607 -0.2677710
86348 0.0738261 -0.2578494 0.9261739 0.2578494 0.9261739 0.2578494 0.0738261 -0.2578494
90302 0.0680454 -0.2481622 0.9319546 0.2481622 0.9319546 0.2481622 0.0680454 -0.2481622
94437 0.0626909 -0.2387203 0.9373091 0.2387203 0.9373091 0.2387203 0.0626909 -0.2387203
98762 0.0577359 -0.2295319 0.9422641 0.2295319 0.9422641 0.2295319 0.0577359 -0.2295319
103284 0.0531547 -0.2206033 0.9468453 0.2206033 0.9468453 0.2206033 0.0531547 -0.2206033
108014 0.0489223 -0.2119387 0.9510777 0.2119387 0.9510777 0.2119387 0.0489223 -0.2119387
112960 0.0450152 -0.2035405 0.9549848 0.2035405 0.9549848 0.2035405 0.0450152 -0.2035405
118133 0.0414108 -0.1954096 0.9585892 0.1954096 0.9585892 0.1954096 0.0414108 -0.1954096
123542 0.0380876 -0.1875458 0.9619124 0.1875458 0.9619124 0.1875458 0.0380876 -0.1875458
129199 0.0350255 -0.1799474 0.9649745 0.1799474 0.9649745 0.1799474 0.0350255 -0.1799474
135116 0.0322053 -0.1726117 0.9677947 0.1726117 0.9677947 0.1726117 0.0322053 -0.1726117
141303 0.0296093 -0.1655354 0.9703907 0.1655354 0.9703907 0.1655354 0.0296093 -0.1655354
147774 0.0272204 -0.1587141 0.9727796 0.1587141 0.9727796 0.1587141 0.0272204 -0.1587141
154540 0.0250231 -0.1521432 0.9749769 0.1521432 0.9749769 0.1521432 0.0250231 -0.1521432
161617 0.0230026 -0.1458172 0.9769974 0.1458172 0.9769974 0.1458172 0.0230026 -0.1458172
169018 0.0211453 -0.1397305 0.9788547 0.1397305 0.9788547 0.1397305 0.0211453 -0.1397305
176758 0.0194383 -0.1338768 0.9805617 0.1338768 0.9805617 0.1338768 0.0194383 -0.1338768
184852 0.0178699 -0.1282501 0.9821301 0.1282501 0.9821301 0.1282501 0.0178699 -0.1282501
193316 0.0164291 -0.1228436 0.9835709 0.1228436 0.9835709 0.1228436 0.0164291 -0.1228436
202169 0.0151058 -0.1176509 0.9848942 0.1176509 0.9848942 0.1176509 0.0151058 -0.1176509
211427 0.0138905 -0.1126651 0.9861095 0.1126651 0.9861095 0.1126651 0.0138905 -0.1126651
221108 0.0127746 -0.1078797 0.9872254 0.1078797 0.9872254 0.1078797 0.0127746 -0.1078797
231233 0.0117499 -0.1032879 0.9882501 0.1032879 0.9882501 0.1032879 0.0117499 -0.1032879
241822 0.0108093 -0.0988830 0.9891907 0.0988830 0.9891907 0.0988830 0.0108093 -0.0988830
252896 0.0099457 -0.0946585 0.9900543 0.0946585 0.9900543 0.0946585 0.0099457 -0.0946585
264476 0.0091530 -0.0906079 0.9908470 0.0906079 0.9908470 0.0906079 0.0091530 -0.0906079
276587 0.0084254 -0.0867248 0.9915746 0.0867248 0.9915746 0.0867248 0.0084254 -0.0867248
289253 0.0077576 -0.0830030 0.9922424 0.0830030 0.9922424 0.0830030 0.0077576 -0.0830030
302498 0.0071446 -0.0794363 0.9928554 0.0794363 0.9928554 0.0794363 0.0071446 -0.0794363
316350 0.0065820 -0.0760189 0.9934180 0.0760189 0.9934180 0.0760189 0.0065820 -0.0760189
330837 0.0060657 -0.0727450 0.9939343 0.0727450 0.9939343 0.0727450 0.0060657 -0.0727450
345986 0.0055918 -0.0696089 0.9944082 0.0696089 0.9944082 0.0696089 0.0055918 -0.0696089
361830 0.0051570 -0.0666053 0.9948430 0.0666053 0.9948430 0.0666053 0.0051570 -0.0666053
378399 0.0047579 -0.0637289 0.9952421 0.0637289 0.9952421 0.0637289 0.0047579 -0.0637289
395726 0.0043917 -0.0609745 0.9956083 0.0609745 0.9956083 0.0609745 0.0043917 -0.0609745
413847 0.0040556 -0.0583373 0.9959444 0.0583373 0.9959444 0.0583373 0.0040556 -0.0583373
432798 0.0037472 -0.0558124 0.9962528 0.0558124 0.9962528 0.0558124 0.0037472 -0.0558124
452617 0.0034642 -0.0533954 0.9965358 0.0533954 0.9965358 0.0533954 0.0034642 -0.0533954
473344 0.0032044 -0.0510819 0.9967956 0.0510819 0.9967956 0.0510819 0.0032044 -0.0510819
495019 0.0029661 -0.0488674 0.9970339 0.0488674 0.9970339 0.0488674 0.0029661 -0.0488674
517687 0.0027473 -0.0467480 0.9972527 0.0467480 0.9972527 0.0467480 0.0027473 -0.0467480
541393 0.0025464 -0.0447197 0.9974536 0.0447197 0.9974536 0.0447197 0.0025464 -0.0447197
566185 0.0023621 -0.0427786 0.9976379 0.0427786 0.9976379 0.0427786 0.0023621 -0.0427786
592111 0.0021928 -0.0409213 0.9978072 0.0409213 0.9978072 0.0409213 0.0021928 -0.0409213
619225 0.0020373 -0.0391440 0.9979627 0.0391440 0.9979627 0.0391440 0.0020373 -0.0391440
647581 0.0018945 -0.0374435 0.9981055 0.0374435 0.9981055 0.0374435 0.0018945 -0.0374435
677235 0.0017632 -0.0358165 0.9982368 0.0358165 0.9982368 0.0358165 0.0017632 -0.0358165
708247 0.0016426 -0.0342599 0.9983574 0.0342599 0.9983574 0.0342599 0.0016426 -0.0342599
740679 0.0015317 -0.0327706 0.9984683 0.0327706 0.9984683 0.0327706 0.0015317 -0.0327706
774597 0.0014297 -0.0313459 0.9985703 0.0313459 0.9985703 0.0313459 0.0014297 -0.0313459
810067 0.0013357 -0.0299829 0.9986643 0.0299829 0.9986643 0.0299829 0.0013357 -0.0299829
847162 0.0012492 -0.0286790 0.9987508 0.0286790 0.9987508 0.0286790 0.0012492 -0.0286790
885955 0.0011695 -0.0274316 0.9988305 0.0274316 0.9988305 0.0274316 0.0011695 -0.0274316
926525 0.0010960 -0.0262383 0.9989040 0.0262383 0.9989040 0.0262383 0.0010960 -0.0262383
968953 0.0010282 -0.0250968 0.9989718 0.0250968 0.9989718 0.0250968 0.0010282 -0.0250968
1013323 0.0009655 -0.0240048 0.9990345 0.0240048 0.9990345 0.0240048 0.0009655 -0.0240048
1059725 0.0009076 -0.0229601 0.9990924 0.0229601 0.9990924 0.0229601 0.0009076 -0.0229601
1108252 0.0008540 -0.0219607 0.9991460 0.0219607 0.9991460 0.0219607 0.0008540 -0.0219607
1159002 0.0008044 -0.0210046 0.9991956 0.0210046 0.9991956 0.0210046 0.0008044 -0.0210046
1212075 0.0007584 -0.0200898 0.9992416 0.0200898 0.9992416 0.0200898 0.0007584 -0.0200898
1267578 0.0007158 -0.0192147 0.9992842 0.0192147 0.9992842 0.0192147 0.0007158 -0.0192147
1325623 0.0006762 -0.0183774 0.9993238 0.0183774 0.9993238 0.0183774 0.0006762 -0.0183774
1386327 0.0006394 -0.0175762 0.9993606 0.0175762 0.9993606 0.0175762 0.0006394 -0.0175762
1449809 0.0006052 -0.0168097 0.9993948 0.0168097 0.9993948 0.0168097 0.0006052 -0.0168097
1516199 0.0005734 -0.0160761 0.9994266 0.0160761 0.9994266 0.0160761 0.0005734 -0.0160761
1585629 0.0005437 -0.0153742 0.9994563 0.0153742 0.9994563 0.0153742 0.0005437 -0.0153742
1658239 0.0005161 -0.0147025 0.9994839 0.0147025 0.9994839 0.0147025 0.0005161 -0.0147025
1734173 0.0004904 -0.0140596 0.9995096 0.0140596 0.9995096 0.0140596 0.0004904 -0.0140596
1813585 0.0004664 -0.0134443 0.9995336 0.0134443 0.9995336 0.0134443 0.0004664 -0.0134443
1896632 0.0004441 -0.0128554 0.9995559 0.0128554 0.9995559 0.0128554 0.0004441 -0.0128554
1983483 0.0004233 -0.0122917 0.9995767 0.0122917 0.9995767 0.0122917 0.0004233 -0.0122917
2074311 0.0004038 -0.0117521 0.9995962 0.0117521 0.9995962 0.0117521 0.0004038 -0.0117521
