!Murata Part Number: GRM21BR60J226ME39
!These Parameters are Measured in Series Mode Connection
!Data Generated on Mar 30, 2021
!       o--ll--o
!Port1            Port2
!       o------o
!Operation Temp=25[degC], DC Bias Voltage=0[V]
!Freq. Start=100[Hz] Stop=6[GHz] 401[Steps]
# Hz S RI R 50
!Freq.(Hz) S11(Real) S11(Imag) S21(Real) S21(Imag) S12(Real) S12(Imag) S22(Real) S22(Imag)
100 0.5825874 -0.4810882 0.4174126 0.4810882 0.4174126 0.4810882 0.5825874 -0.4810882
105 0.5614719 -0.4841794 0.4385281 0.4841794 0.4385281 0.4841794 0.5614719 -0.4841794
109 0.5401269 -0.4863669 0.4598731 0.4863669 0.4598731 0.4863669 0.5401269 -0.4863669
114 0.5186327 -0.4876305 0.4813673 0.4876305 0.4813673 0.4876305 0.5186327 -0.4876305
120 0.4970715 -0.4879587 0.5029285 0.4879587 0.5029285 0.4879587 0.4970715 -0.4879587
125 0.4755265 -0.4873493 0.5244735 0.4873493 0.5244735 0.4873493 0.4755265 -0.4873493
131 0.4540804 -0.4858095 0.5459196 0.4858095 0.5459196 0.4858095 0.4540804 -0.4858095
137 0.4328141 -0.4833555 0.5671859 0.4833555 0.5671859 0.4833555 0.4328141 -0.4833555
143 0.4118055 -0.4800118 0.5881945 0.4800118 0.5881945 0.4800118 0.4118055 -0.4800118
150 0.3911284 -0.4758113 0.6088716 0.4758113 0.6088716 0.4758113 0.3911284 -0.4758113
156 0.3708514 -0.4707940 0.6291486 0.4707940 0.6291486 0.4707940 0.3708514 -0.4707940
164 0.3510373 -0.4650060 0.6489627 0.4650060 0.6489627 0.4650060 0.3510373 -0.4650060
171 0.3317420 -0.4584990 0.6682580 0.4584990 0.6682580 0.4584990 0.3317420 -0.4584990
179 0.3130144 -0.4513285 0.6869856 0.4513285 0.6869856 0.4513285 0.3130144 -0.4513285
187 0.2948961 -0.4435535 0.7051039 0.4435535 0.7051039 0.4435535 0.2948961 -0.4435535
196 0.2774214 -0.4352347 0.7225786 0.4352347 0.7225786 0.4352347 0.2774214 -0.4352347
205 0.2606169 -0.4264339 0.7393831 0.4264339 0.7393831 0.4264339 0.2606169 -0.4264339
214 0.2445025 -0.4172129 0.7554975 0.4172129 0.7554975 0.4172129 0.2445025 -0.4172129
224 0.2290912 -0.4076328 0.7709088 0.4076328 0.7709088 0.4076328 0.2290912 -0.4076328
234 0.2143897 -0.3977530 0.7856103 0.3977530 0.7856103 0.3977530 0.2143897 -0.3977530
245 0.2003989 -0.3876307 0.7996011 0.3876307 0.7996011 0.3876307 0.2003989 -0.3876307
256 0.1871149 -0.3773205 0.8128851 0.3773205 0.8128851 0.3773205 0.1871149 -0.3773205
268 0.1745289 -0.3668737 0.8254711 0.3668737 0.8254711 0.3668737 0.1745289 -0.3668737
280 0.1626285 -0.3563384 0.8373715 0.3563384 0.8373715 0.3563384 0.1626285 -0.3563384
293 0.1513976 -0.3457591 0.8486024 0.3457591 0.8486024 0.3457591 0.1513976 -0.3457591
306 0.1408177 -0.3351767 0.8591823 0.3351767 0.8591823 0.3351767 0.1408177 -0.3351767
320 0.1308678 -0.3246284 0.8691322 0.3246284 0.8691322 0.3246284 0.1308678 -0.3246284
335 0.1215256 -0.3141477 0.8784744 0.3141477 0.8784744 0.3141477 0.1215256 -0.3141477
350 0.1127669 -0.3037646 0.8872331 0.3037646 0.8872331 0.3037646 0.1127669 -0.3037646
366 0.1045672 -0.2935059 0.8954328 0.2935059 0.8954328 0.2935059 0.1045672 -0.2935059
383 0.0969010 -0.2833951 0.9030990 0.2833951 0.9030990 0.2833951 0.0969010 -0.2833951
401 0.0897429 -0.2734525 0.9102571 0.2734525 0.9102571 0.2734525 0.0897429 -0.2734525
419 0.0830672 -0.2636957 0.9169328 0.2636957 0.9169328 0.2636957 0.0830672 -0.2636957
438 0.0768486 -0.2541397 0.9231514 0.2541397 0.9231514 0.2541397 0.0768486 -0.2541397
458 0.0710620 -0.2447971 0.9289380 0.2447971 0.9289380 0.2447971 0.0710620 -0.2447971
479 0.0656832 -0.2356780 0.9343168 0.2356780 0.9343168 0.2356780 0.0656832 -0.2356780
501 0.0606881 -0.2267908 0.9393119 0.2267908 0.9393119 0.2267908 0.0606881 -0.2267908
524 0.0560539 -0.2181417 0.9439461 0.2181417 0.9439461 0.2181417 0.0560539 -0.2181417
548 0.0517581 -0.2097356 0.9482419 0.2097356 0.9482419 0.2097356 0.0517581 -0.2097356
573 0.0477795 -0.2015755 0.9522205 0.2015755 0.9522205 0.2015755 0.0477795 -0.2015755
600 0.0440975 -0.1936633 0.9559025 0.1936633 0.9559025 0.1936633 0.0440975 -0.1936633
627 0.0406925 -0.1859995 0.9593075 0.1859995 0.9593075 0.1859995 0.0406925 -0.1859995
656 0.0375458 -0.1785837 0.9624542 0.1785837 0.9624542 0.1785837 0.0375458 -0.1785837
686 0.0346398 -0.1714143 0.9653602 0.1714143 0.9653602 0.1714143 0.0346398 -0.1714143
717 0.0319577 -0.1644892 0.9680423 0.1644892 0.9680423 0.1644892 0.0319577 -0.1644892
750 0.0294835 -0.1578052 0.9705165 0.1578052 0.9705165 0.1578052 0.0294835 -0.1578052
784 0.0272024 -0.1513588 0.9727976 0.1513588 0.9727976 0.1513588 0.0272024 -0.1513588
820 0.0251002 -0.1451457 0.9748998 0.1451457 0.9748998 0.1451457 0.0251002 -0.1451457
858 0.0231637 -0.1391614 0.9768363 0.1391614 0.9768363 0.1391614 0.0231637 -0.1391614
897 0.0213804 -0.1334007 0.9786196 0.1334007 0.9786196 0.1334007 0.0213804 -0.1334007
938 0.0197388 -0.1278583 0.9802612 0.1278583 0.9802612 0.1278583 0.0197388 -0.1278583
981 0.0182280 -0.1225288 0.9817720 0.1225288 0.9817720 0.1225288 0.0182280 -0.1225288
1026 0.0168379 -0.1174062 0.9831621 0.1174062 0.9831621 0.1174062 0.0168379 -0.1174062
1073 0.0155589 -0.1124847 0.9844411 0.1124847 0.9844411 0.1124847 0.0155589 -0.1124847
1122 0.0143824 -0.1077583 0.9856176 0.1077583 0.9856176 0.1077583 0.0143824 -0.1077583
1174 0.0133002 -0.1032208 0.9866998 0.1032208 0.9866998 0.1032208 0.0133002 -0.1032208
1227 0.0123046 -0.0988663 0.9876954 0.0988663 0.9876954 0.0988663 0.0123046 -0.0988663
1283 0.0113886 -0.0946885 0.9886114 0.0946885 0.9886114 0.0946885 0.0113886 -0.0946885
1342 0.0105459 -0.0906815 0.9894541 0.0906815 0.9894541 0.0906815 0.0105459 -0.0906815
1404 0.0097702 -0.0868392 0.9902298 0.0868392 0.9902298 0.0868392 0.0097702 -0.0868392
1468 0.0090562 -0.0831556 0.9909438 0.0831556 0.9909438 0.0831556 0.0090562 -0.0831556
1535 0.0083986 -0.0796250 0.9916014 0.0796250 0.9916014 0.0796250 0.0083986 -0.0796250
1606 0.0077927 -0.0762416 0.9922073 0.0762416 0.9922073 0.0762416 0.0077927 -0.0762416
1679 0.0072343 -0.0729997 0.9927657 0.0729997 0.9927657 0.0729997 0.0072343 -0.0729997
1756 0.0067193 -0.0698939 0.9932807 0.0698939 0.9932807 0.0698939 0.0067193 -0.0698939
1836 0.0062440 -0.0669188 0.9937560 0.0669188 0.9937560 0.0669188 0.0062440 -0.0669188
1920 0.0058052 -0.0640692 0.9941948 0.0640692 0.9941948 0.0640692 0.0058052 -0.0640692
2008 0.0053997 -0.0613399 0.9946003 0.0613399 0.9946003 0.0613399 0.0053997 -0.0613399
2100 0.0050247 -0.0587262 0.9949753 0.0587262 0.9949753 0.0587262 0.0050247 -0.0587262
2196 0.0046777 -0.0562231 0.9953223 0.0562231 0.9953223 0.0562231 0.0046777 -0.0562231
2297 0.0043563 -0.0538261 0.9956437 0.0538261 0.9956437 0.0538261 0.0043563 -0.0538261
2402 0.0040585 -0.0515308 0.9959415 0.0515308 0.9959415 0.0515308 0.0040585 -0.0515308
2512 0.0037823 -0.0493328 0.9962177 0.0493328 0.9962177 0.0493328 0.0037823 -0.0493328
2627 0.0035260 -0.0472280 0.9964740 0.0472280 0.9964740 0.0472280 0.0035260 -0.0472280
2748 0.0032879 -0.0452125 0.9967121 0.0452125 0.9967121 0.0452125 0.0032879 -0.0452125
2873 0.0030667 -0.0432824 0.9969333 0.0432824 0.9969333 0.0432824 0.0030667 -0.0432824
3005 0.0028610 -0.0414341 0.9971390 0.0414341 0.9971390 0.0414341 0.0028610 -0.0414341
3143 0.0026697 -0.0396641 0.9973303 0.0396641 0.9973303 0.0396641 0.0026697 -0.0396641
3287 0.0024917 -0.0379690 0.9975083 0.0379690 0.9975083 0.0379690 0.0024917 -0.0379690
3437 0.0023260 -0.0363457 0.9976740 0.0363457 0.9976740 0.0363457 0.0023260 -0.0363457
3594 0.0021718 -0.0347910 0.9978282 0.0347910 0.9978282 0.0347910 0.0021718 -0.0347910
3759 0.0020282 -0.0333020 0.9979718 0.0333020 0.9979718 0.0333020 0.0020282 -0.0333020
3931 0.0018945 -0.0318760 0.9981055 0.0318760 0.9981055 0.0318760 0.0018945 -0.0318760
4111 0.0017700 -0.0305103 0.9982300 0.0305103 0.9982300 0.0305103 0.0017700 -0.0305103
4299 0.0016542 -0.0292024 0.9983458 0.0292024 0.9983458 0.0292024 0.0016542 -0.0292024
4496 0.0015464 -0.0279497 0.9984536 0.0279497 0.9984536 0.0279497 0.0015464 -0.0279497
4702 0.0014461 -0.0267501 0.9985539 0.0267501 0.9985539 0.0267501 0.0014461 -0.0267501
4918 0.0013529 -0.0256012 0.9986471 0.0256012 0.9986471 0.0256012 0.0013529 -0.0256012
5143 0.0012662 -0.0245011 0.9987338 0.0245011 0.9987338 0.0245011 0.0012662 -0.0245011
5378 0.0011857 -0.0234475 0.9988143 0.0234475 0.9988143 0.0234475 0.0011857 -0.0234475
5625 0.0011109 -0.0224388 0.9988891 0.0224388 0.9988891 0.0224388 0.0011109 -0.0224388
5882 0.0010415 -0.0214728 0.9989585 0.0214728 0.9989585 0.0214728 0.0010415 -0.0214728
6151 0.0009771 -0.0205480 0.9990229 0.0205480 0.9990229 0.0205480 0.0009771 -0.0205480
6433 0.0009173 -0.0196626 0.9990827 0.0196626 0.9990827 0.0196626 0.0009173 -0.0196626
6728 0.0008619 -0.0188150 0.9991381 0.0188150 0.9991381 0.0188150 0.0008619 -0.0188150
7036 0.0008106 -0.0180036 0.9991894 0.0180036 0.9991894 0.0180036 0.0008106 -0.0180036
7358 0.0007630 -0.0172269 0.9992370 0.0172269 0.9992370 0.0172269 0.0007630 -0.0172269
7695 0.0007189 -0.0164835 0.9992811 0.0164835 0.9992811 0.0164835 0.0007189 -0.0164835
8047 0.0006781 -0.0157720 0.9993219 0.0157720 0.9993219 0.0157720 0.0006781 -0.0157720
8416 0.0006403 -0.0150911 0.9993597 0.0150911 0.9993597 0.0150911 0.0006403 -0.0150911
8801 0.0006052 -0.0144395 0.9993948 0.0144395 0.9993948 0.0144395 0.0006052 -0.0144395
9204 0.0005727 -0.0138161 0.9994273 0.0138161 0.9994273 0.0138161 0.0005727 -0.0138161
9626 0.0005427 -0.0132195 0.9994573 0.0132195 0.9994573 0.0132195 0.0005427 -0.0132195
10066 0.0005147 -0.0126487 0.9994853 0.0126487 0.9994853 0.0126487 0.0005147 -0.0126487
10527 0.0004888 -0.0121027 0.9995112 0.0121027 0.9995112 0.0121027 0.0004888 -0.0121027
11009 0.0004648 -0.0115803 0.9995352 0.0115803 0.9995352 0.0115803 0.0004648 -0.0115803
11514 0.0004424 -0.0110806 0.9995576 0.0110806 0.9995576 0.0110806 0.0004424 -0.0110806
12041 0.0004216 -0.0106026 0.9995784 0.0106026 0.9995784 0.0106026 0.0004216 -0.0106026
12592 0.0004021 -0.0101454 0.9995979 0.0101454 0.9995979 0.0101454 0.0004021 -0.0101454
13169 0.0003840 -0.0097080 0.9996160 0.0097080 0.9996160 0.0097080 0.0003840 -0.0097080
13772 0.0003670 -0.0092897 0.9996330 0.0092897 0.9996330 0.0092897 0.0003670 -0.0092897
14402 0.0003511 -0.0088897 0.9996489 0.0088897 0.9996489 0.0088897 0.0003511 -0.0088897
15062 0.0003362 -0.0085070 0.9996638 0.0085070 0.9996638 0.0085070 0.0003362 -0.0085070
15752 0.0003221 -0.0081410 0.9996779 0.0081410 0.9996779 0.0081410 0.0003221 -0.0081410
16473 0.0003088 -0.0077910 0.9996912 0.0077910 0.9996912 0.0077910 0.0003088 -0.0077910
17227 0.0002962 -0.0074563 0.9997038 0.0074563 0.9997038 0.0074563 0.0002962 -0.0074563
18016 0.0002843 -0.0071361 0.9997157 0.0071361 0.9997157 0.0071361 0.0002843 -0.0071361
18841 0.0002730 -0.0068298 0.9997270 0.0068298 0.9997270 0.0068298 0.0002730 -0.0068298
19704 0.0002622 -0.0065369 0.9997378 0.0065369 0.9997378 0.0065369 0.0002622 -0.0065369
20606 0.0002518 -0.0062567 0.9997482 0.0062567 0.9997482 0.0062567 0.0002518 -0.0062567
21550 0.0002419 -0.0059886 0.9997581 0.0059886 0.9997581 0.0059886 0.0002419 -0.0059886
22537 0.0002324 -0.0057322 0.9997676 0.0057322 0.9997676 0.0057322 0.0002324 -0.0057322
23569 0.0002232 -0.0054869 0.9997768 0.0054869 0.9997768 0.0054869 0.0002232 -0.0054869
24648 0.0002144 -0.0052521 0.9997856 0.0052521 0.9997856 0.0052521 0.0002144 -0.0052521
25777 0.0002059 -0.0050275 0.9997941 0.0050275 0.9997941 0.0050275 0.0002059 -0.0050275
26957 0.0001977 -0.0048126 0.9998023 0.0048126 0.9998023 0.0048126 0.0001977 -0.0048126
28191 0.0001898 -0.0046069 0.9998102 0.0046069 0.9998102 0.0046069 0.0001898 -0.0046069
29482 0.0001821 -0.0044100 0.9998179 0.0044100 0.9998179 0.0044100 0.0001821 -0.0044100
30832 0.0001747 -0.0042215 0.9998253 0.0042215 0.9998253 0.0042215 0.0001747 -0.0042215
32244 0.0001675 -0.0040411 0.9998325 0.0040411 0.9998325 0.0040411 0.0001675 -0.0040411
33721 0.0001606 -0.0038684 0.9998394 0.0038684 0.9998394 0.0038684 0.0001606 -0.0038684
35265 0.0001539 -0.0037030 0.9998461 0.0037030 0.9998461 0.0037030 0.0001539 -0.0037030
36880 0.0001475 -0.0035447 0.9998525 0.0035447 0.9998525 0.0035447 0.0001475 -0.0035447
38569 0.0001413 -0.0033930 0.9998587 0.0033930 0.9998587 0.0033930 0.0001413 -0.0033930
40335 0.0001353 -0.0032478 0.9998647 0.0032478 0.9998647 0.0032478 0.0001353 -0.0032478
42182 0.0001296 -0.0031088 0.9998704 0.0031088 0.9998704 0.0031088 0.0001296 -0.0031088
44113 0.0001241 -0.0029756 0.9998759 0.0029756 0.9998759 0.0029756 0.0001241 -0.0029756
46134 0.0001189 -0.0028480 0.9998811 0.0028480 0.9998811 0.0028480 0.0001189 -0.0028480
48246 0.0001139 -0.0027259 0.9998861 0.0027259 0.9998861 0.0027259 0.0001139 -0.0027259
50455 0.0001091 -0.0026089 0.9998909 0.0026089 0.9998909 0.0026089 0.0001091 -0.0026089
52766 0.0001046 -0.0024968 0.9998954 0.0024968 0.9998954 0.0024968 0.0001046 -0.0024968
55182 0.0001003 -0.0023895 0.9998997 0.0023895 0.9998997 0.0023895 0.0001003 -0.0023895
57709 0.0000962 -0.0022867 0.9999038 0.0022867 0.9999038 0.0022867 0.0000962 -0.0022867
60352 0.0000923 -0.0021883 0.9999077 0.0021883 0.9999077 0.0021883 0.0000923 -0.0021883
63115 0.0000887 -0.0020940 0.9999113 0.0020940 0.9999113 0.0020940 0.0000887 -0.0020940
66005 0.0000852 -0.0020037 0.9999148 0.0020037 0.9999148 0.0020037 0.0000852 -0.0020037
69028 0.0000820 -0.0019173 0.9999180 0.0019173 0.9999180 0.0019173 0.0000820 -0.0019173
72189 0.0000789 -0.0018345 0.9999211 0.0018345 0.9999211 0.0018345 0.0000789 -0.0018345
75495 0.0000760 -0.0017553 0.9999240 0.0017553 0.9999240 0.0017553 0.0000760 -0.0017553
78952 0.0000733 -0.0016794 0.9999267 0.0016794 0.9999267 0.0016794 0.0000733 -0.0016794
82567 0.0000707 -0.0016067 0.9999293 0.0016067 0.9999293 0.0016067 0.0000707 -0.0016067
86348 0.0000683 -0.0015372 0.9999317 0.0015372 0.9999317 0.0015372 0.0000683 -0.0015372
90302 0.0000660 -0.0014706 0.9999340 0.0014706 0.9999340 0.0014706 0.0000660 -0.0014706
94437 0.0000639 -0.0014068 0.9999361 0.0014068 0.9999361 0.0014068 0.0000639 -0.0014068
98762 0.0000619 -0.0013458 0.9999381 0.0013458 0.9999381 0.0013458 0.0000619 -0.0013458
103284 0.0000600 -0.0012874 0.9999400 0.0012874 0.9999400 0.0012874 0.0000600 -0.0012874
108014 0.0000582 -0.0012315 0.9999418 0.0012315 0.9999418 0.0012315 0.0000582 -0.0012315
112960 0.0000566 -0.0011780 0.9999434 0.0011780 0.9999434 0.0011780 0.0000566 -0.0011780
118133 0.0000550 -0.0011268 0.9999450 0.0011268 0.9999450 0.0011268 0.0000550 -0.0011268
123542 0.0000535 -0.0010777 0.9999465 0.0010777 0.9999465 0.0010777 0.0000535 -0.0010777
129199 0.0000521 -0.0010308 0.9999479 0.0010308 0.9999479 0.0010308 0.0000521 -0.0010308
135116 0.0000507 -0.0009859 0.9999493 0.0009859 0.9999493 0.0009859 0.0000507 -0.0009859
141303 0.0000494 -0.0009428 0.9999506 0.0009428 0.9999506 0.0009428 0.0000494 -0.0009428
147774 0.0000482 -0.0009017 0.9999518 0.0009017 0.9999518 0.0009017 0.0000482 -0.0009017
154540 0.0000471 -0.0008622 0.9999529 0.0008622 0.9999529 0.0008622 0.0000471 -0.0008622
161617 0.0000459 -0.0008245 0.9999541 0.0008245 0.9999541 0.0008245 0.0000459 -0.0008245
169018 0.0000449 -0.0007883 0.9999551 0.0007883 0.9999551 0.0007883 0.0000449 -0.0007883
176758 0.0000439 -0.0007537 0.9999561 0.0007537 0.9999561 0.0007537 0.0000439 -0.0007537
184852 0.0000429 -0.0007205 0.9999571 0.0007205 0.9999571 0.0007205 0.0000429 -0.0007205
193316 0.0000420 -0.0006888 0.9999580 0.0006888 0.9999580 0.0006888 0.0000420 -0.0006888
202169 0.0000411 -0.0006583 0.9999589 0.0006583 0.9999589 0.0006583 0.0000411 -0.0006583
211427 0.0000402 -0.0006292 0.9999598 0.0006292 0.9999598 0.0006292 0.0000402 -0.0006292
221108 0.0000394 -0.0006012 0.9999606 0.0006012 0.9999606 0.0006012 0.0000394 -0.0006012
231233 0.0000386 -0.0005744 0.9999614 0.0005744 0.9999614 0.0005744 0.0000386 -0.0005744
241822 0.0000378 -0.0005487 0.9999622 0.0005487 0.9999622 0.0005487 0.0000378 -0.0005487
252896 0.0000371 -0.0005241 0.9999629 0.0005241 0.9999629 0.0005241 0.0000371 -0.0005241
264476 0.0000364 -0.0005005 0.9999636 0.0005005 0.9999636 0.0005005 0.0000364 -0.0005005
276587 0.0000357 -0.0004778 0.9999643 0.0004778 0.9999643 0.0004778 0.0000357 -0.0004778
289253 0.0000351 -0.0004560 0.9999649 0.0004560 0.9999649 0.0004560 0.0000351 -0.0004560
302498 0.0000345 -0.0004352 0.9999655 0.0004352 0.9999655 0.0004352 0.0000345 -0.0004352
316350 0.0000339 -0.0004151 0.9999661 0.0004151 0.9999661 0.0004151 0.0000339 -0.0004151
330837 0.0000334 -0.0003959 0.9999666 0.0003959 0.9999666 0.0003959 0.0000334 -0.0003959
345986 0.0000329 -0.0003774 0.9999671 0.0003774 0.9999671 0.0003774 0.0000329 -0.0003774
361830 0.0000324 -0.0003596 0.9999676 0.0003596 0.9999676 0.0003596 0.0000324 -0.0003596
378399 0.0000320 -0.0003425 0.9999680 0.0003425 0.9999680 0.0003425 0.0000320 -0.0003425
395726 0.0000316 -0.0003261 0.9999684 0.0003261 0.9999684 0.0003261 0.0000316 -0.0003261
413847 0.0000312 -0.0003103 0.9999688 0.0003103 0.9999688 0.0003103 0.0000312 -0.0003103
432798 0.0000308 -0.0002951 0.9999692 0.0002951 0.9999692 0.0002951 0.0000308 -0.0002951
452617 0.0000305 -0.0002805 0.9999695 0.0002805 0.9999695 0.0002805 0.0000305 -0.0002805
473344 0.0000302 -0.0002664 0.9999698 0.0002664 0.9999698 0.0002664 0.0000302 -0.0002664
495019 0.0000300 -0.0002528 0.9999700 0.0002528 0.9999700 0.0002528 0.0000300 -0.0002528
517687 0.0000297 -0.0002397 0.9999703 0.0002397 0.9999703 0.0002397 0.0000297 -0.0002397
541393 0.0000295 -0.0002271 0.9999705 0.0002271 0.9999705 0.0002271 0.0000295 -0.0002271
566185 0.0000294 -0.0002149 0.9999706 0.0002149 0.9999706 0.0002149 0.0000294 -0.0002149
592111 0.0000293 -0.0002031 0.9999707 0.0002031 0.9999707 0.0002031 0.0000293 -0.0002031
619225 0.0000292 -0.0001918 0.9999708 0.0001918 0.9999708 0.0001918 0.0000292 -0.0001918
647581 0.0000291 -0.0001807 0.9999709 0.0001807 0.9999709 0.0001807 0.0000291 -0.0001807
677235 0.0000291 -0.0001701 0.9999709 0.0001701 0.9999709 0.0001701 0.0000291 -0.0001701
708247 0.0000290 -0.0001598 0.9999710 0.0001598 0.9999710 0.0001598 0.0000290 -0.0001598
740679 0.0000291 -0.0001498 0.9999709 0.0001498 0.9999709 0.0001498 0.0000291 -0.0001498
774597 0.0000291 -0.0001401 0.9999709 0.0001401 0.9999709 0.0001401 0.0000291 -0.0001401
810067 0.0000293 -0.0001306 0.9999707 0.0001306 0.9999707 0.0001306 0.0000293 -0.0001306
847162 0.0000294 -0.0001215 0.9999706 0.0001215 0.9999706 0.0001215 0.0000294 -0.0001215
885955 0.0000296 -0.0001125 0.9999704 0.0001125 0.9999704 0.0001125 0.0000296 -0.0001125
926525 0.0000298 -0.0001038 0.9999702 0.0001038 0.9999702 0.0001038 0.0000298 -0.0001038
968953 0.0000301 -0.0000953 0.9999699 0.0000953 0.9999699 0.0000953 0.0000301 -0.0000953
1013323 0.0000304 -0.0000870 0.9999696 0.0000870 0.9999696 0.0000870 0.0000304 -0.0000870
1059725 0.0000307 -0.0000788 0.9999693 0.0000788 0.9999693 0.0000788 0.0000307 -0.0000788
1108252 0.0000311 -0.0000708 0.9999689 0.0000708 0.9999689 0.0000708 0.0000311 -0.0000708
1159002 0.0000316 -0.0000630 0.9999684 0.0000630 0.9999684 0.0000630 0.0000316 -0.0000630
1212075 0.0000321 -0.0000553 0.9999679 0.0000553 0.9999679 0.0000553 0.0000321 -0.0000553
1267578 0.0000327 -0.0000477 0.9999673 0.0000477 0.9999673 0.0000477 0.0000327 -0.0000477
1325623 0.0000334 -0.0000401 0.9999666 0.0000401 0.9999666 0.0000401 0.0000334 -0.0000401
1386327 0.0000341 -0.0000327 0.9999659 0.0000327 0.9999659 0.0000327 0.0000341 -0.0000327
1449809 0.0000349 -0.0000253 0.9999651 0.0000253 0.9999651 0.0000253 0.0000349 -0.0000253
1516199 0.0000359 -0.0000180 0.9999641 0.0000180 0.9999641 0.0000180 0.0000359 -0.0000180
1585629 0.0000369 -0.0000107 0.9999631 0.0000107 0.9999631 0.0000107 0.0000369 -0.0000107
1658239 0.0000381 -0.0000035 0.9999619 0.0000035 0.9999619 0.0000035 0.0000381 -0.0000035
1734173 0.0000394 0.0000038 0.9999606 -0.0000038 0.9999606 -0.0000038 0.0000394 0.0000038
1813585 0.0000409 0.0000111 0.9999591 -0.0000111 0.9999591 -0.0000111 0.0000409 0.0000111
1896632 0.0000426 0.0000184 0.9999574 -0.0000184 0.9999574 -0.0000184 0.0000426 0.0000184
1983483 0.0000445 0.0000257 0.9999555 -0.0000257 0.9999555 -0.0000257 0.0000445 0.0000257
2074311 0.0000468 0.0000331 0.9999532 -0.0000331 0.9999532 -0.0000331 0.0000468 0.0000331
