!Murata Part Number: GRM21BR60J475KA11
!These Parameters are Measured in Series Mode Connection
!Data Generated on Mar 30, 2021
!       o--ll--o
!Port1            Port2
!       o------o
!Operation Temp=25[degC], DC Bias Voltage=0[V]
!Freq. Start=100[Hz] Stop=6[GHz] 401[Steps]
# Hz S RI R 50
!Freq.(Hz) S11(Real) S11(Imag) S21(Real) S21(Imag) S12(Real) S12(Imag) S22(Real) S22(Imag)
100 0.9542125 -0.1962868 0.0457875 0.1962868 0.0457875 0.1962868 0.9542125 -0.1962868
105 0.9504906 -0.2043278 0.0495094 0.2043278 0.0495094 0.2043278 0.9504906 -0.2043278
109 0.9464616 -0.2126268 0.0535384 0.2126268 0.0535384 0.2126268 0.9464616 -0.2126268
114 0.9421032 -0.2211817 0.0578968 0.2211817 0.0578968 0.2211817 0.9421032 -0.2211817
120 0.9373919 -0.2299885 0.0626081 0.2299885 0.0626081 0.2299885 0.9373919 -0.2299885
125 0.9323035 -0.2390415 0.0676965 0.2390415 0.0676965 0.2390415 0.9323035 -0.2390415
131 0.9268129 -0.2483329 0.0731871 0.2483329 0.0731871 0.2483329 0.9268129 -0.2483329
137 0.9208943 -0.2578527 0.0791057 0.2578527 0.0791057 0.2578527 0.9208943 -0.2578527
143 0.9145213 -0.2675885 0.0854787 0.2675885 0.0854787 0.2675885 0.9145213 -0.2675885
150 0.9076673 -0.2775252 0.0923327 0.2775252 0.0923327 0.2775252 0.9076673 -0.2775252
156 0.9003054 -0.2876448 0.0996946 0.2876448 0.0996946 0.2876448 0.9003054 -0.2876448
164 0.8924090 -0.2979263 0.1075910 0.2979263 0.1075910 0.2979263 0.8924090 -0.2979263
171 0.8839518 -0.3083455 0.1160482 0.3083455 0.1160482 0.3083455 0.8839518 -0.3083455
179 0.8749085 -0.3188749 0.1250915 0.3188749 0.1250915 0.3188749 0.8749085 -0.3188749
187 0.8652548 -0.3294834 0.1347452 0.3294834 0.1347452 0.3294834 0.8652548 -0.3294834
196 0.8549680 -0.3401365 0.1450320 0.3401365 0.1450320 0.3401365 0.8549680 -0.3401365
205 0.8440276 -0.3507963 0.1559724 0.3507963 0.1559724 0.3507963 0.8440276 -0.3507963
214 0.8324154 -0.3614210 0.1675846 0.3614210 0.1675846 0.3614210 0.8324154 -0.3614210
224 0.8201165 -0.3719658 0.1798835 0.3719658 0.1798835 0.3719658 0.8201165 -0.3719658
234 0.8071193 -0.3823826 0.1928807 0.3823826 0.1928807 0.3823826 0.8071193 -0.3823826
245 0.7934167 -0.3926202 0.2065833 0.3926202 0.2065833 0.3926202 0.7934167 -0.3926202
256 0.7790056 -0.4026251 0.2209944 0.4026251 0.2209944 0.4026251 0.7790056 -0.4026251
268 0.7638883 -0.4123413 0.2361117 0.4123413 0.2361117 0.4123413 0.7638883 -0.4123413
280 0.7480727 -0.4217114 0.2519273 0.4217114 0.2519273 0.4217114 0.7480727 -0.4217114
293 0.7315723 -0.4306771 0.2684277 0.4306771 0.2684277 0.4306771 0.7315723 -0.4306771
306 0.7144069 -0.4391793 0.2855931 0.4391793 0.2855931 0.4391793 0.7144069 -0.4391793
320 0.6966027 -0.4471597 0.3033973 0.4471597 0.3033973 0.4471597 0.6966027 -0.4471597
335 0.6781923 -0.4545610 0.3218077 0.4545610 0.3218077 0.4545610 0.6781923 -0.4545610
350 0.6592150 -0.4613280 0.3407850 0.4613280 0.3407850 0.4613280 0.6592150 -0.4613280
366 0.6397163 -0.4674082 0.3602837 0.4674082 0.3602837 0.4674082 0.6397163 -0.4674082
383 0.6197481 -0.4727531 0.3802519 0.4727531 0.3802519 0.4727531 0.6197481 -0.4727531
401 0.5993677 -0.4773187 0.4006323 0.4773187 0.4006323 0.4773187 0.5993677 -0.4773187
419 0.5786379 -0.4810663 0.4213621 0.4810663 0.4213621 0.4810663 0.5786379 -0.4810663
438 0.5576259 -0.4839634 0.4423741 0.4839634 0.4423741 0.4839634 0.5576259 -0.4839634
458 0.5364030 -0.4859841 0.4635970 0.4859841 0.4635970 0.4859841 0.5364030 -0.4859841
479 0.5150433 -0.4871099 0.4849567 0.4871099 0.4849567 0.4871099 0.5150433 -0.4871099
501 0.4936228 -0.4873300 0.5063772 0.4873300 0.5063772 0.4873300 0.4936228 -0.4873300
524 0.4722188 -0.4866415 0.5277812 0.4866415 0.5277812 0.4866415 0.4722188 -0.4866415
548 0.4509084 -0.4850493 0.5490916 0.4850493 0.5490916 0.4850493 0.4509084 -0.4850493
573 0.4297676 -0.4825667 0.5702324 0.4825667 0.5702324 0.4825667 0.4297676 -0.4825667
600 0.4088703 -0.4792144 0.5911297 0.4792144 0.5911297 0.4792144 0.4088703 -0.4792144
627 0.3882873 -0.4750205 0.6117127 0.4750205 0.6117127 0.4750205 0.3882873 -0.4750205
656 0.3680856 -0.4700201 0.6319144 0.4700201 0.6319144 0.4700201 0.3680856 -0.4700201
686 0.3483270 -0.4642544 0.6516730 0.4642544 0.6516730 0.4642544 0.3483270 -0.4642544
717 0.3290680 -0.4577699 0.6709320 0.4577699 0.6709320 0.4577699 0.3290680 -0.4577699
750 0.3103590 -0.4506179 0.6896410 0.4506179 0.6896410 0.4506179 0.3103590 -0.4506179
784 0.2922441 -0.4428532 0.7077559 0.4428532 0.7077559 0.4428532 0.2922441 -0.4428532
820 0.2747603 -0.4345335 0.7252397 0.4345335 0.7252397 0.4345335 0.2747603 -0.4345335
858 0.2579380 -0.4257182 0.7420620 0.4257182 0.7420620 0.4257182 0.2579380 -0.4257182
897 0.2418008 -0.4164676 0.7581992 0.4164676 0.7581992 0.4164676 0.2418008 -0.4164676
938 0.2263656 -0.4068422 0.7736344 0.4068422 0.7736344 0.4068422 0.2263656 -0.4068422
981 0.2116429 -0.3969018 0.7883571 0.3969018 0.7883571 0.3969018 0.2116429 -0.3969018
1026 0.1976371 -0.3867045 0.8023629 0.3867045 0.8023629 0.3867045 0.1976371 -0.3867045
1073 0.1843474 -0.3763066 0.8156526 0.3763066 0.8156526 0.3763066 0.1843474 -0.3763066
1122 0.1717675 -0.3657617 0.8282325 0.3657617 0.8282325 0.3657617 0.1717675 -0.3657617
1174 0.1598868 -0.3551206 0.8401132 0.3551206 0.8401132 0.3551206 0.1598868 -0.3551206
1227 0.1486910 -0.3444304 0.8513090 0.3444304 0.8513090 0.3444304 0.1486910 -0.3444304
1283 0.1381620 -0.3337351 0.8618380 0.3337351 0.8618380 0.3337351 0.1381620 -0.3337351
1342 0.1282792 -0.3230748 0.8717208 0.3230748 0.8717208 0.3230748 0.1282792 -0.3230748
1404 0.1190195 -0.3124859 0.8809805 0.3124859 0.8809805 0.3124859 0.1190195 -0.3124859
1468 0.1103582 -0.3020009 0.8896418 0.3020009 0.8896418 0.3020009 0.1103582 -0.3020009
1535 0.1022693 -0.2916489 0.8977307 0.2916489 0.8977307 0.2916489 0.1022693 -0.2916489
1606 0.0947258 -0.2814553 0.9052742 0.2814553 0.9052742 0.2814553 0.0947258 -0.2814553
1679 0.0877002 -0.2714422 0.9122998 0.2714422 0.9122998 0.2714422 0.0877002 -0.2714422
1756 0.0811649 -0.2616282 0.9188351 0.2616282 0.9188351 0.2616282 0.0811649 -0.2616282
1836 0.0750924 -0.2520292 0.9249076 0.2520292 0.9249076 0.2520292 0.0750924 -0.2520292
1920 0.0694556 -0.2426581 0.9305444 0.2426581 0.9305444 0.2426581 0.0694556 -0.2426581
2008 0.0642279 -0.2335253 0.9357721 0.2335253 0.9357721 0.2335253 0.0642279 -0.2335253
2100 0.0593834 -0.2246387 0.9406166 0.2246387 0.9406166 0.2246387 0.0593834 -0.2246387
2196 0.0548973 -0.2160043 0.9451027 0.2160043 0.9451027 0.2160043 0.0548973 -0.2160043
2297 0.0507456 -0.2076258 0.9492544 0.2076258 0.9492544 0.2076258 0.0507456 -0.2076258
2402 0.0469053 -0.1995056 0.9530947 0.1995056 0.9530947 0.1995056 0.0469053 -0.1995056
2512 0.0433545 -0.1916442 0.9566455 0.1916442 0.9566455 0.1916442 0.0433545 -0.1916442
2627 0.0400728 -0.1840411 0.9599272 0.1840411 0.9599272 0.1840411 0.0400728 -0.1840411
2748 0.0370404 -0.1766943 0.9629596 0.1766943 0.9629596 0.1766943 0.0370404 -0.1766943
2873 0.0342391 -0.1696012 0.9657609 0.1696012 0.9657609 0.1696012 0.0342391 -0.1696012
3005 0.0316516 -0.1627579 0.9683484 0.1627579 0.9683484 0.1627579 0.0316516 -0.1627579
3143 0.0292618 -0.1561601 0.9707382 0.1561601 0.9707382 0.1561601 0.0292618 -0.1561601
3287 0.0270547 -0.1498028 0.9729453 0.1498028 0.9729453 0.1498028 0.0270547 -0.1498028
3437 0.0250162 -0.1436806 0.9749838 0.1436806 0.9749838 0.1436806 0.0250162 -0.1436806
3594 0.0231334 -0.1377875 0.9768666 0.1377875 0.9768666 0.1377875 0.0231334 -0.1377875
3759 0.0213943 -0.1321175 0.9786057 0.1321175 0.9786057 0.1321175 0.0213943 -0.1321175
3931 0.0197877 -0.1266642 0.9802123 0.1266642 0.9802123 0.1266642 0.0197877 -0.1266642
4111 0.0183034 -0.1214212 0.9816966 0.1214212 0.9816966 0.1214212 0.0183034 -0.1214212
4299 0.0169319 -0.1163818 0.9830681 0.1163818 0.9830681 0.1163818 0.0169319 -0.1163818
4496 0.0156646 -0.1115396 0.9843354 0.1115396 0.9843354 0.1115396 0.0156646 -0.1115396
4702 0.0144933 -0.1068879 0.9855067 0.1068879 0.9855067 0.1068879 0.0144933 -0.1068879
4918 0.0134107 -0.1024202 0.9865893 0.1024202 0.9865893 0.1024202 0.0134107 -0.1024202
5143 0.0124101 -0.0981302 0.9875899 0.0981302 0.9875899 0.0981302 0.0124101 -0.0981302
5378 0.0114852 -0.0940116 0.9885148 0.0940116 0.9885148 0.0940116 0.0114852 -0.0940116
5625 0.0106304 -0.0900581 0.9893696 0.0900581 0.9893696 0.0900581 0.0106304 -0.0900581
5882 0.0098403 -0.0862639 0.9901597 0.0862639 0.9901597 0.0862639 0.0098403 -0.0862639
6151 0.0091101 -0.0826230 0.9908899 0.0826230 0.9908899 0.0826230 0.0091101 -0.0826230
6433 0.0084353 -0.0791297 0.9915647 0.0791297 0.9915647 0.0791297 0.0084353 -0.0791297
6728 0.0078119 -0.0757787 0.9921881 0.0757787 0.9921881 0.0757787 0.0078119 -0.0757787
7036 0.0072359 -0.0725644 0.9927641 0.0725644 0.9927641 0.0725644 0.0072359 -0.0725644
7358 0.0067040 -0.0694819 0.9932960 0.0694819 0.9932960 0.0694819 0.0067040 -0.0694819
7695 0.0062129 -0.0665260 0.9937871 0.0665260 0.9937871 0.0665260 0.0062129 -0.0665260
8047 0.0057595 -0.0636920 0.9942405 0.0636920 0.9942405 0.0636920 0.0057595 -0.0636920
8416 0.0053410 -0.0609753 0.9946590 0.0609753 0.9946590 0.0609753 0.0053410 -0.0609753
8801 0.0049549 -0.0583712 0.9950451 0.0583712 0.9950451 0.0583712 0.0049549 -0.0583712
9204 0.0045988 -0.0558755 0.9954012 0.0558755 0.9954012 0.0558755 0.0045988 -0.0558755
9626 0.0042704 -0.0534840 0.9957296 0.0534840 0.9957296 0.0534840 0.0042704 -0.0534840
10066 0.0039676 -0.0511926 0.9960324 0.0511926 0.9960324 0.0511926 0.0039676 -0.0511926
10527 0.0036885 -0.0489974 0.9963115 0.0489974 0.9963115 0.0489974 0.0036885 -0.0489974
11009 0.0034312 -0.0468946 0.9965688 0.0468946 0.9965688 0.0468946 0.0034312 -0.0468946
11514 0.0031942 -0.0448806 0.9968058 0.0448806 0.9968058 0.0448806 0.0031942 -0.0448806
12041 0.0029758 -0.0429519 0.9970242 0.0429519 0.9970242 0.0429519 0.0029758 -0.0429519
12592 0.0027746 -0.0411051 0.9972254 0.0411051 0.9972254 0.0411051 0.0027746 -0.0411051
13169 0.0025892 -0.0393368 0.9974108 0.0393368 0.9974108 0.0393368 0.0025892 -0.0393368
13772 0.0024184 -0.0376440 0.9975816 0.0376440 0.9975816 0.0376440 0.0024184 -0.0376440
14402 0.0022610 -0.0360235 0.9977390 0.0360235 0.9977390 0.0360235 0.0022610 -0.0360235
15062 0.0021159 -0.0344725 0.9978841 0.0344725 0.9978841 0.0344725 0.0021159 -0.0344725
15752 0.0019822 -0.0329880 0.9980178 0.0329880 0.9980178 0.0329880 0.0019822 -0.0329880
16473 0.0018588 -0.0315674 0.9981412 0.0315674 0.9981412 0.0315674 0.0018588 -0.0315674
17227 0.0017449 -0.0302080 0.9982551 0.0302080 0.9982551 0.0302080 0.0017449 -0.0302080
18016 0.0016397 -0.0289072 0.9983603 0.0289072 0.9983603 0.0289072 0.0016397 -0.0289072
18841 0.0015426 -0.0276627 0.9984574 0.0276627 0.9984574 0.0276627 0.0015426 -0.0276627
19704 0.0014526 -0.0264720 0.9985474 0.0264720 0.9985474 0.0264720 0.0014526 -0.0264720
20606 0.0013694 -0.0253329 0.9986306 0.0253329 0.9986306 0.0253329 0.0013694 -0.0253329
21550 0.0012922 -0.0242432 0.9987078 0.0242432 0.9987078 0.0242432 0.0012922 -0.0242432
22537 0.0012206 -0.0232008 0.9987794 0.0232008 0.9987794 0.0232008 0.0012206 -0.0232008
23569 0.0011540 -0.0222036 0.9988460 0.0222036 0.9988460 0.0222036 0.0011540 -0.0222036
24648 0.0010919 -0.0212498 0.9989081 0.0212498 0.9989081 0.0212498 0.0010919 -0.0212498
25777 0.0010341 -0.0203373 0.9989659 0.0203373 0.9989659 0.0203373 0.0010341 -0.0203373
26957 0.0009801 -0.0194646 0.9990199 0.0194646 0.9990199 0.0194646 0.0009801 -0.0194646
28191 0.0009295 -0.0186297 0.9990705 0.0186297 0.9990705 0.0186297 0.0009295 -0.0186297
29482 0.0008820 -0.0178310 0.9991180 0.0178310 0.9991180 0.0178310 0.0008820 -0.0178310
30832 0.0008374 -0.0170671 0.9991626 0.0170671 0.9991626 0.0170671 0.0008374 -0.0170671
32244 0.0007955 -0.0163362 0.9992045 0.0163362 0.9992045 0.0163362 0.0007955 -0.0163362
33721 0.0007559 -0.0156369 0.9992441 0.0156369 0.9992441 0.0156369 0.0007559 -0.0156369
35265 0.0007185 -0.0149679 0.9992815 0.0149679 0.9992815 0.0149679 0.0007185 -0.0149679
36880 0.0006831 -0.0143278 0.9993169 0.0143278 0.9993169 0.0143278 0.0006831 -0.0143278
38569 0.0006495 -0.0137153 0.9993505 0.0137153 0.9993505 0.0137153 0.0006495 -0.0137153
40335 0.0006176 -0.0131291 0.9993824 0.0131291 0.9993824 0.0131291 0.0006176 -0.0131291
42182 0.0005873 -0.0125681 0.9994127 0.0125681 0.9994127 0.0125681 0.0005873 -0.0125681
44113 0.0005585 -0.0120312 0.9994415 0.0120312 0.9994415 0.0120312 0.0005585 -0.0120312
46134 0.0005311 -0.0115172 0.9994689 0.0115172 0.9994689 0.0115172 0.0005311 -0.0115172
48246 0.0005050 -0.0110252 0.9994950 0.0110252 0.9994950 0.0110252 0.0005050 -0.0110252
50455 0.0004801 -0.0105541 0.9995199 0.0105541 0.9995199 0.0105541 0.0004801 -0.0105541
52766 0.0004564 -0.0101032 0.9995436 0.0101032 0.9995436 0.0101032 0.0004564 -0.0101032
55182 0.0004339 -0.0096713 0.9995661 0.0096713 0.9995661 0.0096713 0.0004339 -0.0096713
57709 0.0004124 -0.0092579 0.9995876 0.0092579 0.9995876 0.0092579 0.0004124 -0.0092579
60352 0.0003920 -0.0088619 0.9996080 0.0088619 0.9996080 0.0088619 0.0003920 -0.0088619
63115 0.0003725 -0.0084827 0.9996275 0.0084827 0.9996275 0.0084827 0.0003725 -0.0084827
66005 0.0003541 -0.0081195 0.9996459 0.0081195 0.9996459 0.0081195 0.0003541 -0.0081195
69028 0.0003366 -0.0077717 0.9996634 0.0077717 0.9996634 0.0077717 0.0003366 -0.0077717
72189 0.0003200 -0.0074386 0.9996800 0.0074386 0.9996800 0.0074386 0.0003200 -0.0074386
75495 0.0003044 -0.0071196 0.9996956 0.0071196 0.9996956 0.0071196 0.0003044 -0.0071196
78952 0.0002895 -0.0068141 0.9997105 0.0068141 0.9997105 0.0068141 0.0002895 -0.0068141
82567 0.0002755 -0.0065214 0.9997245 0.0065214 0.9997245 0.0065214 0.0002755 -0.0065214
86348 0.0002624 -0.0062412 0.9997376 0.0062412 0.9997376 0.0062412 0.0002624 -0.0062412
90302 0.0002499 -0.0059728 0.9997501 0.0059728 0.9997501 0.0059728 0.0002499 -0.0059728
94437 0.0002383 -0.0057158 0.9997617 0.0057158 0.9997617 0.0057158 0.0002383 -0.0057158
98762 0.0002273 -0.0054697 0.9997727 0.0054697 0.9997727 0.0054697 0.0002273 -0.0054697
103284 0.0002170 -0.0052340 0.9997830 0.0052340 0.9997830 0.0052340 0.0002170 -0.0052340
108014 0.0002073 -0.0050084 0.9997927 0.0050084 0.9997927 0.0050084 0.0002073 -0.0050084
112960 0.0001983 -0.0047924 0.9998017 0.0047924 0.9998017 0.0047924 0.0001983 -0.0047924
118133 0.0001898 -0.0045856 0.9998102 0.0045856 0.9998102 0.0045856 0.0001898 -0.0045856
123542 0.0001819 -0.0043876 0.9998181 0.0043876 0.9998181 0.0043876 0.0001819 -0.0043876
129199 0.0001745 -0.0041980 0.9998255 0.0041980 0.9998255 0.0041980 0.0001745 -0.0041980
135116 0.0001676 -0.0040166 0.9998324 0.0040166 0.9998324 0.0040166 0.0001676 -0.0040166
141303 0.0001611 -0.0038430 0.9998389 0.0038430 0.9998389 0.0038430 0.0001611 -0.0038430
147774 0.0001550 -0.0036768 0.9998450 0.0036768 0.9998450 0.0036768 0.0001550 -0.0036768
154540 0.0001494 -0.0035178 0.9998506 0.0035178 0.9998506 0.0035178 0.0001494 -0.0035178
161617 0.0001441 -0.0033656 0.9998559 0.0033656 0.9998559 0.0033656 0.0001441 -0.0033656
169018 0.0001391 -0.0032199 0.9998609 0.0032199 0.9998609 0.0032199 0.0001391 -0.0032199
176758 0.0001344 -0.0030805 0.9998656 0.0030805 0.9998656 0.0030805 0.0001344 -0.0030805
184852 0.0001300 -0.0029472 0.9998700 0.0029472 0.9998700 0.0029472 0.0001300 -0.0029472
193316 0.0001259 -0.0028196 0.9998741 0.0028196 0.9998741 0.0028196 0.0001259 -0.0028196
202169 0.0001220 -0.0026975 0.9998780 0.0026975 0.9998780 0.0026975 0.0001220 -0.0026975
211427 0.0001183 -0.0025806 0.9998817 0.0025806 0.9998817 0.0025806 0.0001183 -0.0025806
221108 0.0001149 -0.0024688 0.9998851 0.0024688 0.9998851 0.0024688 0.0001149 -0.0024688
231233 0.0001116 -0.0023618 0.9998884 0.0023618 0.9998884 0.0023618 0.0001116 -0.0023618
241822 0.0001084 -0.0022595 0.9998916 0.0022595 0.9998916 0.0022595 0.0001084 -0.0022595
252896 0.0001054 -0.0021615 0.9998946 0.0021615 0.9998946 0.0021615 0.0001054 -0.0021615
264476 0.0001026 -0.0020678 0.9998974 0.0020678 0.9998974 0.0020678 0.0001026 -0.0020678
276587 0.0000998 -0.0019781 0.9999002 0.0019781 0.9999002 0.0019781 0.0000998 -0.0019781
289253 0.0000972 -0.0018922 0.9999028 0.0018922 0.9999028 0.0018922 0.0000972 -0.0018922
302498 0.0000947 -0.0018101 0.9999053 0.0018101 0.9999053 0.0018101 0.0000947 -0.0018101
316350 0.0000922 -0.0017314 0.9999078 0.0017314 0.9999078 0.0017314 0.0000922 -0.0017314
330837 0.0000898 -0.0016561 0.9999102 0.0016561 0.9999102 0.0016561 0.0000898 -0.0016561
345986 0.0000876 -0.0015840 0.9999124 0.0015840 0.9999124 0.0015840 0.0000876 -0.0015840
361830 0.0000853 -0.0015149 0.9999147 0.0015149 0.9999147 0.0015149 0.0000853 -0.0015149
378399 0.0000832 -0.0014488 0.9999168 0.0014488 0.9999168 0.0014488 0.0000832 -0.0014488
395726 0.0000811 -0.0013854 0.9999189 0.0013854 0.9999189 0.0013854 0.0000811 -0.0013854
413847 0.0000791 -0.0013247 0.9999209 0.0013247 0.9999209 0.0013247 0.0000791 -0.0013247
432798 0.0000771 -0.0012665 0.9999229 0.0012665 0.9999229 0.0012665 0.0000771 -0.0012665
452617 0.0000752 -0.0012108 0.9999248 0.0012108 0.9999248 0.0012108 0.0000752 -0.0012108
473344 0.0000734 -0.0011573 0.9999266 0.0011573 0.9999266 0.0011573 0.0000734 -0.0011573
495019 0.0000716 -0.0011061 0.9999284 0.0011061 0.9999284 0.0011061 0.0000716 -0.0011061
517687 0.0000699 -0.0010570 0.9999301 0.0010570 0.9999301 0.0010570 0.0000699 -0.0010570
541393 0.0000682 -0.0010098 0.9999318 0.0010098 0.9999318 0.0010098 0.0000682 -0.0010098
566185 0.0000666 -0.0009646 0.9999334 0.0009646 0.9999334 0.0009646 0.0000666 -0.0009646
592111 0.0000651 -0.0009212 0.9999349 0.0009212 0.9999349 0.0009212 0.0000651 -0.0009212
619225 0.0000636 -0.0008795 0.9999364 0.0008795 0.9999364 0.0008795 0.0000636 -0.0008795
647581 0.0000622 -0.0008396 0.9999378 0.0008396 0.9999378 0.0008396 0.0000622 -0.0008396
677235 0.0000609 -0.0008012 0.9999391 0.0008012 0.9999391 0.0008012 0.0000609 -0.0008012
708247 0.0000596 -0.0007643 0.9999404 0.0007643 0.9999404 0.0007643 0.0000596 -0.0007643
740679 0.0000584 -0.0007288 0.9999416 0.0007288 0.9999416 0.0007288 0.0000584 -0.0007288
774597 0.0000573 -0.0006948 0.9999427 0.0006948 0.9999427 0.0006948 0.0000573 -0.0006948
810067 0.0000562 -0.0006620 0.9999438 0.0006620 0.9999438 0.0006620 0.0000562 -0.0006620
847162 0.0000553 -0.0006305 0.9999447 0.0006305 0.9999447 0.0006305 0.0000553 -0.0006305
885955 0.0000543 -0.0006002 0.9999457 0.0006002 0.9999457 0.0006002 0.0000543 -0.0006002
926525 0.0000535 -0.0005711 0.9999465 0.0005711 0.9999465 0.0005711 0.0000535 -0.0005711
968953 0.0000527 -0.0005430 0.9999473 0.0005430 0.9999473 0.0005430 0.0000527 -0.0005430
1013323 0.0000520 -0.0005160 0.9999480 0.0005160 0.9999480 0.0005160 0.0000520 -0.0005160
1059725 0.0000513 -0.0004900 0.9999487 0.0004900 0.9999487 0.0004900 0.0000513 -0.0004900
1108252 0.0000507 -0.0004649 0.9999493 0.0004649 0.9999493 0.0004649 0.0000507 -0.0004649
1159002 0.0000502 -0.0004407 0.9999498 0.0004407 0.9999498 0.0004407 0.0000502 -0.0004407
1212075 0.0000498 -0.0004173 0.9999502 0.0004173 0.9999502 0.0004173 0.0000498 -0.0004173
1267578 0.0000494 -0.0003948 0.9999506 0.0003948 0.9999506 0.0003948 0.0000494 -0.0003948
1325623 0.0000490 -0.0003730 0.9999510 0.0003730 0.9999510 0.0003730 0.0000490 -0.0003730
1386327 0.0000488 -0.0003519 0.9999512 0.0003519 0.9999512 0.0003519 0.0000488 -0.0003519
1449809 0.0000486 -0.0003316 0.9999514 0.0003316 0.9999514 0.0003316 0.0000486 -0.0003316
1516199 0.0000484 -0.0003118 0.9999516 0.0003118 0.9999516 0.0003118 0.0000484 -0.0003118
1585629 0.0000483 -0.0002927 0.9999517 0.0002927 0.9999517 0.0002927 0.0000483 -0.0002927
1658239 0.0000483 -0.0002742 0.9999517 0.0002742 0.9999517 0.0002742 0.0000483 -0.0002742
1734173 0.0000484 -0.0002561 0.9999516 0.0002561 0.9999516 0.0002561 0.0000484 -0.0002561
1813585 0.0000485 -0.0002386 0.9999515 0.0002386 0.9999515 0.0002386 0.0000485 -0.0002386
1896632 0.0000487 -0.0002216 0.9999513 0.0002216 0.9999513 0.0002216 0.0000487 -0.0002216
1983483 0.0000489 -0.0002050 0.9999511 0.0002050 0.9999511 0.0002050 0.0000489 -0.0002050
2074311 0.0000492 -0.0001888 0.9999508 0.0001888 0.9999508 0.0001888 0.0000492 -0.0001888
