!Murata Part Number: GRM21BR71E225ME11
!These Parameters are Measured in Series Mode Connection
!Data Generated on Mar 30, 2021
!       o--ll--o
!Port1            Port2
!       o------o
!Operation Temp=25[degC], DC Bias Voltage=0[V]
!Freq. Start=100[Hz] Stop=6[GHz] 401[Steps]
# Hz S RI R 50
!Freq.(Hz) S11(Real) S11(Imag) S21(Real) S21(Imag) S12(Real) S12(Imag) S22(Real) S22(Imag)
100 0.9895654 -0.0946256 0.0104346 0.0946256 0.0104346 0.0946256 0.9895654 -0.0946256
105 0.9886491 -0.0988044 0.0113509 0.0988044 0.0113509 0.0988044 0.9886491 -0.0988044
109 0.9876550 -0.1031575 0.0123450 0.1031575 0.0123450 0.1031575 0.9876550 -0.1031575
114 0.9865768 -0.1076911 0.0134232 0.1076911 0.0134232 0.1076911 0.9865768 -0.1076911
120 0.9854075 -0.1124116 0.0145925 0.1124116 0.0145925 0.1124116 0.9854075 -0.1124116
125 0.9841395 -0.1173254 0.0158605 0.1173254 0.0158605 0.1173254 0.9841395 -0.1173254
131 0.9827647 -0.1224390 0.0172353 0.1224390 0.0172353 0.1224390 0.9827647 -0.1224390
137 0.9812743 -0.1277589 0.0187257 0.1277589 0.0187257 0.1277589 0.9812743 -0.1277589
143 0.9796588 -0.1332915 0.0203412 0.1332915 0.0203412 0.1332915 0.9796588 -0.1332915
150 0.9779076 -0.1390434 0.0220924 0.1390434 0.0220924 0.1390434 0.9779076 -0.1390434
156 0.9760097 -0.1450207 0.0239903 0.1450207 0.0239903 0.1450207 0.9760097 -0.1450207
164 0.9739529 -0.1512295 0.0260471 0.1512295 0.0260471 0.1512295 0.9739529 -0.1512295
171 0.9717242 -0.1576757 0.0282758 0.1576757 0.0282758 0.1576757 0.9717242 -0.1576757
179 0.9693095 -0.1643648 0.0306905 0.1643648 0.0306905 0.1643648 0.9693095 -0.1643648
187 0.9666937 -0.1713017 0.0333063 0.1713017 0.0333063 0.1713017 0.9666937 -0.1713017
196 0.9638606 -0.1784909 0.0361394 0.1784909 0.0361394 0.1784909 0.9638606 -0.1784909
205 0.9607928 -0.1859361 0.0392072 0.1859361 0.0392072 0.1859361 0.9607928 -0.1859361
214 0.9574718 -0.1936403 0.0425282 0.1936403 0.0425282 0.1936403 0.9574718 -0.1936403
224 0.9538778 -0.2016053 0.0461222 0.2016053 0.0461222 0.2016053 0.9538778 -0.2016053
234 0.9499900 -0.2098319 0.0500100 0.2098319 0.0500100 0.2098319 0.9499900 -0.2098319
245 0.9457864 -0.2183196 0.0542136 0.2183196 0.0542136 0.2183196 0.9457864 -0.2183196
256 0.9412435 -0.2270663 0.0587565 0.2270663 0.0587565 0.2270663 0.9412435 -0.2270663
268 0.9363371 -0.2360681 0.0636629 0.2360681 0.0636629 0.2360681 0.9363371 -0.2360681
280 0.9310418 -0.2453193 0.0689582 0.2453193 0.0689582 0.2453193 0.9310418 -0.2453193
293 0.9253312 -0.2548119 0.0746688 0.2548119 0.0746688 0.2548119 0.9253312 -0.2548119
306 0.9191781 -0.2645355 0.0808219 0.2645355 0.0808219 0.2645355 0.9191781 -0.2645355
320 0.9125549 -0.2744771 0.0874451 0.2744771 0.0874451 0.2744771 0.9125549 -0.2744771
335 0.9054331 -0.2846209 0.0945669 0.2846209 0.0945669 0.2846209 0.9054331 -0.2846209
350 0.8977845 -0.2949477 0.1022155 0.2949477 0.1022155 0.2949477 0.8977845 -0.2949477
366 0.8895807 -0.3054353 0.1104193 0.3054353 0.1104193 0.3054353 0.8895807 -0.3054353
383 0.8807940 -0.3160577 0.1192060 0.3160577 0.1192060 0.3160577 0.8807940 -0.3160577
401 0.8713972 -0.3267853 0.1286028 0.3267853 0.1286028 0.3267853 0.8713972 -0.3267853
419 0.8613647 -0.3375846 0.1386353 0.3375846 0.1386353 0.3375846 0.8613647 -0.3375846
438 0.8506725 -0.3484184 0.1493275 0.3484184 0.1493275 0.3484184 0.8506725 -0.3484184
458 0.8392992 -0.3592452 0.1607008 0.3592452 0.1607008 0.3592452 0.8392992 -0.3592452
479 0.8272258 -0.3700199 0.1727742 0.3700199 0.1727742 0.3700199 0.8272258 -0.3700199
501 0.8144372 -0.3806936 0.1855628 0.3806936 0.1855628 0.3806936 0.8144372 -0.3806936
524 0.8009221 -0.3912137 0.1990779 0.3912137 0.1990779 0.3912137 0.8009221 -0.3912137
548 0.7866742 -0.4015245 0.2133258 0.4015245 0.2133258 0.4015245 0.7866742 -0.4015245
573 0.7716922 -0.4115676 0.2283078 0.4115676 0.2283078 0.4115676 0.7716922 -0.4115676
600 0.7559808 -0.4212822 0.2440192 0.4212822 0.2440192 0.4212822 0.7559808 -0.4212822
627 0.7395510 -0.4306060 0.2604490 0.4306060 0.2604490 0.4306060 0.7395510 -0.4306060
656 0.7224207 -0.4394760 0.2775793 0.4394760 0.2775793 0.4394760 0.7224207 -0.4394760
686 0.7046146 -0.4478290 0.2953854 0.4478290 0.2953854 0.4478290 0.7046146 -0.4478290
717 0.6861650 -0.4556031 0.3138350 0.4556031 0.3138350 0.4556031 0.6861650 -0.4556031
750 0.6671114 -0.4627379 0.3328886 0.4627379 0.3328886 0.4627379 0.6671114 -0.4627379
784 0.6475005 -0.4691765 0.3524995 0.4691765 0.3524995 0.4691765 0.6475005 -0.4691765
820 0.6273858 -0.4748656 0.3726142 0.4748656 0.3726142 0.4748656 0.6273858 -0.4748656
858 0.6068276 -0.4797572 0.3931724 0.4797572 0.3931724 0.4797572 0.6068276 -0.4797572
897 0.5858918 -0.4838090 0.4141082 0.4838090 0.4141082 0.4838090 0.5858918 -0.4838090
938 0.5646495 -0.4869857 0.4353505 0.4869857 0.4353505 0.4869857 0.5646495 -0.4869857
981 0.5431759 -0.4892594 0.4568241 0.4892594 0.4568241 0.4892594 0.5431759 -0.4892594
1026 0.5215493 -0.4906102 0.4784507 0.4906102 0.4784507 0.4906102 0.5215493 -0.4906102
1073 0.4998502 -0.4910267 0.5001498 0.4910267 0.5001498 0.4910267 0.4998502 -0.4910267
1122 0.4781597 -0.4905063 0.5218403 0.4905063 0.5218403 0.4905063 0.4781597 -0.4905063
1174 0.4565587 -0.4890549 0.5434413 0.4890549 0.5434413 0.4890549 0.4565587 -0.4890549
1227 0.4351265 -0.4866869 0.5648735 0.4866869 0.5648735 0.4866869 0.4351265 -0.4866869
1283 0.4139399 -0.4834250 0.5860601 0.4834250 0.5860601 0.4834250 0.4139399 -0.4834250
1342 0.3930720 -0.4792994 0.6069280 0.4792994 0.6069280 0.4792994 0.3930720 -0.4792994
1404 0.3725913 -0.4743474 0.6274087 0.4743474 0.6274087 0.4743474 0.3725913 -0.4743474
1468 0.3525610 -0.4686123 0.6474390 0.4686123 0.6474390 0.4686123 0.3525610 -0.4686123
1535 0.3330383 -0.4621429 0.6669617 0.4621429 0.6669617 0.4621429 0.3330383 -0.4621429
1606 0.3140739 -0.4549923 0.6859261 0.4549923 0.6859261 0.4549923 0.3140739 -0.4549923
1679 0.2957119 -0.4472171 0.7042881 0.4472171 0.7042881 0.4472171 0.2957119 -0.4472171
1756 0.2779893 -0.4388764 0.7220107 0.4388764 0.7220107 0.4388764 0.2779893 -0.4388764
1836 0.2609362 -0.4300308 0.7390638 0.4300308 0.7390638 0.4300308 0.2609362 -0.4300308
1920 0.2445756 -0.4207417 0.7554244 0.4207417 0.7554244 0.4207417 0.2445756 -0.4207417
2008 0.2289242 -0.4110701 0.7710758 0.4110701 0.7710758 0.4110701 0.2289242 -0.4110701
2100 0.2139921 -0.4010763 0.7860079 0.4010763 0.7860079 0.4010763 0.2139921 -0.4010763
2196 0.1997836 -0.3908190 0.8002164 0.3908190 0.8002164 0.3908190 0.1997836 -0.3908190
2297 0.1862975 -0.3803546 0.8137025 0.3803546 0.8137025 0.3803546 0.1862975 -0.3803546
2402 0.1735277 -0.3697369 0.8264723 0.3697369 0.8264723 0.3697369 0.1735277 -0.3697369
2512 0.1614637 -0.3590169 0.8385363 0.3590169 0.8385363 0.3590169 0.1614637 -0.3590169
2627 0.1500910 -0.3482421 0.8499090 0.3482421 0.8499090 0.3482421 0.1500910 -0.3482421
2748 0.1393919 -0.3374565 0.8606081 0.3374565 0.8606081 0.3374565 0.1393919 -0.3374565
2873 0.1293460 -0.3267005 0.8706540 0.3267005 0.8706540 0.3267005 0.1293460 -0.3267005
3005 0.1199306 -0.3160107 0.8800694 0.3160107 0.8800694 0.3160107 0.1199306 -0.3160107
3143 0.1111211 -0.3054203 0.8888789 0.3054203 0.8888789 0.3054203 0.1111211 -0.3054203
3287 0.1028917 -0.2949586 0.8971083 0.2949586 0.8971083 0.2949586 0.1028917 -0.2949586
3437 0.0952158 -0.2846515 0.9047842 0.2846515 0.9047842 0.2846515 0.0952158 -0.2846515
3594 0.0880661 -0.2745216 0.9119339 0.2745216 0.9119339 0.2745216 0.0880661 -0.2745216
3759 0.0814151 -0.2645881 0.9185849 0.2645881 0.9185849 0.2645881 0.0814151 -0.2645881
3931 0.0752354 -0.2548674 0.9247646 0.2548674 0.9247646 0.2548674 0.0752354 -0.2548674
4111 0.0694999 -0.2453731 0.9305001 0.2453731 0.9305001 0.2453731 0.0694999 -0.2453731
4299 0.0641822 -0.2361161 0.9358178 0.2361161 0.9358178 0.2361161 0.0641822 -0.2361161
4496 0.0592562 -0.2271050 0.9407438 0.2271050 0.9407438 0.2271050 0.0592562 -0.2271050
4702 0.0546970 -0.2183462 0.9453030 0.2183462 0.9453030 0.2183462 0.0546970 -0.2183462
4918 0.0504804 -0.2098443 0.9495196 0.2098443 0.9495196 0.2098443 0.0504804 -0.2098443
5143 0.0465832 -0.2016019 0.9534168 0.2016019 0.9534168 0.2016019 0.0465832 -0.2016019
5378 0.0429835 -0.1936202 0.9570165 0.1936202 0.9570165 0.1936202 0.0429835 -0.1936202
5625 0.0396602 -0.1858991 0.9603398 0.1858991 0.9603398 0.1858991 0.0396602 -0.1858991
5882 0.0365934 -0.1784373 0.9634066 0.1784373 0.9634066 0.1784373 0.0365934 -0.1784373
6151 0.0337644 -0.1712322 0.9662356 0.1712322 0.9662356 0.1712322 0.0337644 -0.1712322
6433 0.0311557 -0.1642807 0.9688443 0.1642807 0.9688443 0.1642807 0.0311557 -0.1642807
6728 0.0287505 -0.1575786 0.9712495 0.1575786 0.9712495 0.1575786 0.0287505 -0.1575786
7036 0.0265335 -0.1511212 0.9734665 0.1511212 0.9734665 0.1511212 0.0265335 -0.1511212
7358 0.0244902 -0.1449033 0.9755098 0.1449033 0.9755098 0.1449033 0.0244902 -0.1449033
7695 0.0226072 -0.1389193 0.9773928 0.1389193 0.9773928 0.1389193 0.0226072 -0.1389193
8047 0.0208718 -0.1331632 0.9791282 0.1331632 0.9791282 0.1331632 0.0208718 -0.1331632
8416 0.0192726 -0.1276287 0.9807274 0.1276287 0.9807274 0.1276287 0.0192726 -0.1276287
8801 0.0177988 -0.1223095 0.9822012 0.1223095 0.9822012 0.1223095 0.0177988 -0.1223095
9204 0.0164404 -0.1171988 0.9835596 0.1171988 0.9835596 0.1171988 0.0164404 -0.1171988
9626 0.0151882 -0.1122902 0.9848118 0.1122902 0.9848118 0.1122902 0.0151882 -0.1122902
10066 0.0140339 -0.1075769 0.9859661 0.1075769 0.9859661 0.1075769 0.0140339 -0.1075769
10527 0.0129697 -0.1030524 0.9870303 0.1030524 0.9870303 0.1030524 0.0129697 -0.1030524
11009 0.0119884 -0.0987100 0.9880116 0.0987100 0.9880116 0.0987100 0.0119884 -0.0987100
11514 0.0110834 -0.0945433 0.9889166 0.0945433 0.9889166 0.0945433 0.0110834 -0.0945433
12041 0.0102487 -0.0905460 0.9897513 0.0905460 0.9897513 0.0905460 0.0102487 -0.0905460
12592 0.0094788 -0.0867118 0.9905212 0.0867118 0.9905212 0.0867118 0.0094788 -0.0867118
13169 0.0087685 -0.0830345 0.9912315 0.0830345 0.9912315 0.0830345 0.0087685 -0.0830345
13772 0.0081132 -0.0795083 0.9918868 0.0795083 0.9918868 0.0795083 0.0081132 -0.0795083
14402 0.0075087 -0.0761274 0.9924913 0.0761274 0.9924913 0.0761274 0.0075087 -0.0761274
15062 0.0069510 -0.0728862 0.9930490 0.0728862 0.9930490 0.0728862 0.0069510 -0.0728862
15752 0.0064364 -0.0697793 0.9935636 0.0697793 0.9935636 0.0697793 0.0064364 -0.0697793
16473 0.0059617 -0.0668015 0.9940383 0.0668015 0.9940383 0.0668015 0.0059617 -0.0668015
17227 0.0055238 -0.0639477 0.9944762 0.0639477 0.9944762 0.0639477 0.0055238 -0.0639477
18016 0.0051199 -0.0612130 0.9948801 0.0612130 0.9948801 0.0612130 0.0051199 -0.0612130
18841 0.0047473 -0.0585927 0.9952527 0.0585927 0.9952527 0.0585927 0.0047473 -0.0585927
19704 0.0044037 -0.0560824 0.9955963 0.0560824 0.9955963 0.0560824 0.0044037 -0.0560824
20606 0.0040868 -0.0536776 0.9959132 0.0536776 0.9959132 0.0536776 0.0040868 -0.0536776
21550 0.0037946 -0.0513740 0.9962054 0.0513740 0.9962054 0.0513740 0.0037946 -0.0513740
22537 0.0035252 -0.0491678 0.9964748 0.0491678 0.9964748 0.0491678 0.0035252 -0.0491678
23569 0.0032768 -0.0470549 0.9967232 0.0470549 0.9967232 0.0470549 0.0032768 -0.0470549
24648 0.0030478 -0.0450316 0.9969522 0.0450316 0.9969522 0.0450316 0.0030478 -0.0450316
25777 0.0028367 -0.0430942 0.9971633 0.0430942 0.9971633 0.0430942 0.0028367 -0.0430942
26957 0.0026421 -0.0412394 0.9973579 0.0412394 0.9973579 0.0412394 0.0026421 -0.0412394
28191 0.0024627 -0.0394636 0.9975373 0.0394636 0.9975373 0.0394636 0.0024627 -0.0394636
29482 0.0022972 -0.0377638 0.9977028 0.0377638 0.9977028 0.0377638 0.0022972 -0.0377638
30832 0.0021445 -0.0361367 0.9978555 0.0361367 0.9978555 0.0361367 0.0021445 -0.0361367
32244 0.0020037 -0.0345793 0.9979963 0.0345793 0.9979963 0.0345793 0.0020037 -0.0345793
33721 0.0018738 -0.0330889 0.9981262 0.0330889 0.9981262 0.0330889 0.0018738 -0.0330889
35265 0.0017538 -0.0316625 0.9982462 0.0316625 0.9982462 0.0316625 0.0017538 -0.0316625
36880 0.0016429 -0.0302976 0.9983571 0.0302976 0.9983571 0.0302976 0.0016429 -0.0302976
38569 0.0015405 -0.0289915 0.9984595 0.0289915 0.9984595 0.0289915 0.0015405 -0.0289915
40335 0.0014457 -0.0277417 0.9985543 0.0277417 0.9985543 0.0277417 0.0014457 -0.0277417
42182 0.0013579 -0.0265460 0.9986421 0.0265460 0.9986421 0.0265460 0.0013579 -0.0265460
44113 0.0012766 -0.0254019 0.9987234 0.0254019 0.9987234 0.0254019 0.0012766 -0.0254019
46134 0.0012012 -0.0243073 0.9987988 0.0243073 0.9987988 0.0243073 0.0012012 -0.0243073
48246 0.0011312 -0.0232600 0.9988688 0.0232600 0.9988688 0.0232600 0.0011312 -0.0232600
50455 0.0010661 -0.0222580 0.9989339 0.0222580 0.9989339 0.0222580 0.0010661 -0.0222580
52766 0.0010056 -0.0212994 0.9989944 0.0212994 0.9989944 0.0212994 0.0010056 -0.0212994
55182 0.0009491 -0.0203823 0.9990509 0.0203823 0.9990509 0.0203823 0.0009491 -0.0203823
57709 0.0008965 -0.0195049 0.9991035 0.0195049 0.9991035 0.0195049 0.0008965 -0.0195049
60352 0.0008473 -0.0186654 0.9991527 0.0186654 0.9991527 0.0186654 0.0008473 -0.0186654
63115 0.0008013 -0.0178621 0.9991987 0.0178621 0.9991987 0.0178621 0.0008013 -0.0178621
66005 0.0007582 -0.0170936 0.9992418 0.0170936 0.9992418 0.0170936 0.0007582 -0.0170936
69028 0.0007178 -0.0163582 0.9992822 0.0163582 0.9992822 0.0163582 0.0007178 -0.0163582
72189 0.0006800 -0.0156546 0.9993200 0.0156546 0.9993200 0.0156546 0.0006800 -0.0156546
75495 0.0006444 -0.0149812 0.9993556 0.0149812 0.9993556 0.0149812 0.0006444 -0.0149812
78952 0.0006109 -0.0143369 0.9993891 0.0143369 0.9993891 0.0143369 0.0006109 -0.0143369
82567 0.0005795 -0.0137202 0.9994205 0.0137202 0.9994205 0.0137202 0.0005795 -0.0137202
86348 0.0005499 -0.0131301 0.9994501 0.0131301 0.9994501 0.0131301 0.0005499 -0.0131301
90302 0.0005220 -0.0125653 0.9994780 0.0125653 0.9994780 0.0125653 0.0005220 -0.0125653
94437 0.0004958 -0.0120247 0.9995042 0.0120247 0.9995042 0.0120247 0.0004958 -0.0120247
98762 0.0004711 -0.0115073 0.9995289 0.0115073 0.9995289 0.0115073 0.0004711 -0.0115073
103284 0.0004478 -0.0110121 0.9995522 0.0110121 0.9995522 0.0110121 0.0004478 -0.0110121
108014 0.0004259 -0.0105381 0.9995741 0.0105381 0.9995741 0.0105381 0.0004259 -0.0105381
112960 0.0004053 -0.0100844 0.9995947 0.0100844 0.9995947 0.0100844 0.0004053 -0.0100844
118133 0.0003858 -0.0096502 0.9996142 0.0096502 0.9996142 0.0096502 0.0003858 -0.0096502
123542 0.0003676 -0.0092345 0.9996324 0.0092345 0.9996324 0.0092345 0.0003676 -0.0092345
129199 0.0003504 -0.0088366 0.9996496 0.0088366 0.9996496 0.0088366 0.0003504 -0.0088366
135116 0.0003342 -0.0084558 0.9996658 0.0084558 0.9996658 0.0084558 0.0003342 -0.0084558
141303 0.0003190 -0.0080913 0.9996810 0.0080913 0.9996810 0.0080913 0.0003190 -0.0080913
147774 0.0003047 -0.0077424 0.9996953 0.0077424 0.9996953 0.0077424 0.0003047 -0.0077424
154540 0.0002913 -0.0074085 0.9997087 0.0074085 0.9997087 0.0074085 0.0002913 -0.0074085
161617 0.0002787 -0.0070889 0.9997213 0.0070889 0.9997213 0.0070889 0.0002787 -0.0070889
169018 0.0002668 -0.0067830 0.9997332 0.0067830 0.9997332 0.0067830 0.0002668 -0.0067830
176758 0.0002557 -0.0064903 0.9997443 0.0064903 0.9997443 0.0064903 0.0002557 -0.0064903
184852 0.0002452 -0.0062101 0.9997548 0.0062101 0.9997548 0.0062101 0.0002452 -0.0062101
193316 0.0002354 -0.0059420 0.9997646 0.0059420 0.9997646 0.0059420 0.0002354 -0.0059420
202169 0.0002261 -0.0056854 0.9997739 0.0056854 0.9997739 0.0056854 0.0002261 -0.0056854
211427 0.0002174 -0.0054399 0.9997826 0.0054399 0.9997826 0.0054399 0.0002174 -0.0054399
221108 0.0002092 -0.0052050 0.9997908 0.0052050 0.9997908 0.0052050 0.0002092 -0.0052050
231233 0.0002014 -0.0049802 0.9997986 0.0049802 0.9997986 0.0049802 0.0002014 -0.0049802
241822 0.0001941 -0.0047650 0.9998059 0.0047650 0.9998059 0.0047650 0.0001941 -0.0047650
252896 0.0001871 -0.0045592 0.9998129 0.0045592 0.9998129 0.0045592 0.0001871 -0.0045592
264476 0.0001806 -0.0043622 0.9998194 0.0043622 0.9998194 0.0043622 0.0001806 -0.0043622
276587 0.0001743 -0.0041737 0.9998257 0.0041737 0.9998257 0.0041737 0.0001743 -0.0041737
289253 0.0001684 -0.0039934 0.9998316 0.0039934 0.9998316 0.0039934 0.0001684 -0.0039934
302498 0.0001627 -0.0038207 0.9998373 0.0038207 0.9998373 0.0038207 0.0001627 -0.0038207
316350 0.0001573 -0.0036556 0.9998427 0.0036556 0.9998427 0.0036556 0.0001573 -0.0036556
330837 0.0001522 -0.0034975 0.9998478 0.0034975 0.9998478 0.0034975 0.0001522 -0.0034975
345986 0.0001472 -0.0033462 0.9998528 0.0033462 0.9998528 0.0033462 0.0001472 -0.0033462
361830 0.0001425 -0.0032013 0.9998575 0.0032013 0.9998575 0.0032013 0.0001425 -0.0032013
378399 0.0001380 -0.0030627 0.9998620 0.0030627 0.9998620 0.0030627 0.0001380 -0.0030627
395726 0.0001336 -0.0029300 0.9998664 0.0029300 0.9998664 0.0029300 0.0001336 -0.0029300
413847 0.0001294 -0.0028029 0.9998706 0.0028029 0.9998706 0.0028029 0.0001294 -0.0028029
432798 0.0001254 -0.0026813 0.9998746 0.0026813 0.9998746 0.0026813 0.0001254 -0.0026813
452617 0.0001215 -0.0025648 0.9998785 0.0025648 0.9998785 0.0025648 0.0001215 -0.0025648
473344 0.0001178 -0.0024532 0.9998822 0.0024532 0.9998822 0.0024532 0.0001178 -0.0024532
495019 0.0001142 -0.0023463 0.9998858 0.0023463 0.9998858 0.0023463 0.0001142 -0.0023463
517687 0.0001107 -0.0022440 0.9998893 0.0022440 0.9998893 0.0022440 0.0001107 -0.0022440
541393 0.0001074 -0.0021459 0.9998926 0.0021459 0.9998926 0.0021459 0.0001074 -0.0021459
566185 0.0001042 -0.0020519 0.9998958 0.0020519 0.9998958 0.0020519 0.0001042 -0.0020519
592111 0.0001011 -0.0019619 0.9998989 0.0019619 0.9998989 0.0019619 0.0001011 -0.0019619
619225 0.0000982 -0.0018756 0.9999018 0.0018756 0.9999018 0.0018756 0.0000982 -0.0018756
647581 0.0000954 -0.0017929 0.9999046 0.0017929 0.9999046 0.0017929 0.0000954 -0.0017929
677235 0.0000928 -0.0017136 0.9999072 0.0017136 0.9999072 0.0017136 0.0000928 -0.0017136
708247 0.0000902 -0.0016376 0.9999098 0.0016376 0.9999098 0.0016376 0.0000902 -0.0016376
740679 0.0000878 -0.0015647 0.9999122 0.0015647 0.9999122 0.0015647 0.0000878 -0.0015647
774597 0.0000855 -0.0014948 0.9999145 0.0014948 0.9999145 0.0014948 0.0000855 -0.0014948
810067 0.0000834 -0.0014278 0.9999166 0.0014278 0.9999166 0.0014278 0.0000834 -0.0014278
847162 0.0000813 -0.0013635 0.9999187 0.0013635 0.9999187 0.0013635 0.0000813 -0.0013635
885955 0.0000794 -0.0013018 0.9999206 0.0013018 0.9999206 0.0013018 0.0000794 -0.0013018
926525 0.0000776 -0.0012426 0.9999224 0.0012426 0.9999224 0.0012426 0.0000776 -0.0012426
968953 0.0000759 -0.0011858 0.9999241 0.0011858 0.9999241 0.0011858 0.0000759 -0.0011858
1013323 0.0000743 -0.0011313 0.9999257 0.0011313 0.9999257 0.0011313 0.0000743 -0.0011313
1059725 0.0000728 -0.0010789 0.9999272 0.0010789 0.9999272 0.0010789 0.0000728 -0.0010789
1108252 0.0000715 -0.0010287 0.9999285 0.0010287 0.9999285 0.0010287 0.0000715 -0.0010287
1159002 0.0000702 -0.0009804 0.9999298 0.0009804 0.9999298 0.0009804 0.0000702 -0.0009804
1212075 0.0000690 -0.0009341 0.9999310 0.0009341 0.9999310 0.0009341 0.0000690 -0.0009341
1267578 0.0000679 -0.0008895 0.9999321 0.0008895 0.9999321 0.0008895 0.0000679 -0.0008895
1325623 0.0000669 -0.0008467 0.9999331 0.0008467 0.9999331 0.0008467 0.0000669 -0.0008467
1386327 0.0000660 -0.0008055 0.9999340 0.0008055 0.9999340 0.0008055 0.0000660 -0.0008055
1449809 0.0000651 -0.0007659 0.9999349 0.0007659 0.9999349 0.0007659 0.0000651 -0.0007659
1516199 0.0000644 -0.0007278 0.9999356 0.0007278 0.9999356 0.0007278 0.0000644 -0.0007278
1585629 0.0000637 -0.0006911 0.9999363 0.0006911 0.9999363 0.0006911 0.0000637 -0.0006911
1658239 0.0000631 -0.0006557 0.9999369 0.0006557 0.9999369 0.0006557 0.0000631 -0.0006557
1734173 0.0000625 -0.0006217 0.9999375 0.0006217 0.9999375 0.0006217 0.0000625 -0.0006217
1813585 0.0000620 -0.0005888 0.9999380 0.0005888 0.9999380 0.0005888 0.0000620 -0.0005888
1896632 0.0000616 -0.0005571 0.9999384 0.0005571 0.9999384 0.0005571 0.0000616 -0.0005571
1983483 0.0000612 -0.0005265 0.9999388 0.0005265 0.9999388 0.0005265 0.0000612 -0.0005265
2074311 0.0000609 -0.0004970 0.9999391 0.0004970 0.9999391 0.0004970 0.0000609 -0.0004970
