!Murata Part Number: GRM21BR11E684KA88
!These Parameters are Measured in Series Mode Connection
!Data Generated on Mar 30, 2021
!       o--ll--o
!Port1            Port2
!       o------o
!Operation Temp=25[degC], DC Bias Voltage=0[V]
!Freq. Start=100[Hz] Stop=6[GHz] 401[Steps]
# Hz S RI R 50
!Freq.(Hz) S11(Real) S11(Imag) S21(Real) S21(Imag) S12(Real) S12(Imag) S22(Real) S22(Imag)
100 0.9980478 -0.0415930 0.0019522 0.0415930 0.0019522 0.0415930 0.9980478 -0.0415930
105 0.9978762 -0.0434832 0.0021238 0.0434832 0.0021238 0.0434832 0.9978762 -0.0434832
109 0.9976892 -0.0454586 0.0023108 0.0454586 0.0023108 0.0454586 0.9976892 -0.0454586
114 0.9974852 -0.0475229 0.0025148 0.0475229 0.0025148 0.0475229 0.9974852 -0.0475229
120 0.9972627 -0.0496800 0.0027373 0.0496800 0.0027373 0.0496800 0.9972627 -0.0496800
125 0.9970201 -0.0519339 0.0029799 0.0519339 0.0029799 0.0519339 0.9970201 -0.0519339
131 0.9967554 -0.0542888 0.0032446 0.0542888 0.0032446 0.0542888 0.9967554 -0.0542888
137 0.9964668 -0.0567490 0.0035332 0.0567490 0.0035332 0.0567490 0.9964668 -0.0567490
143 0.9961520 -0.0593190 0.0038480 0.0593190 0.0038480 0.0593190 0.9961520 -0.0593190
150 0.9958087 -0.0620036 0.0041913 0.0620036 0.0041913 0.0620036 0.9958087 -0.0620036
156 0.9954343 -0.0648074 0.0045657 0.0648074 0.0045657 0.0648074 0.9954343 -0.0648074
164 0.9950260 -0.0677357 0.0049740 0.0677357 0.0049740 0.0677357 0.9950260 -0.0677357
171 0.9945809 -0.0707934 0.0054191 0.0707934 0.0054191 0.0707934 0.9945809 -0.0707934
179 0.9940954 -0.0739860 0.0059046 0.0739860 0.0059046 0.0739860 0.9940954 -0.0739860
187 0.9935661 -0.0773190 0.0064339 0.0773190 0.0064339 0.0773190 0.9935661 -0.0773190
196 0.9929891 -0.0807981 0.0070109 0.0807981 0.0070109 0.0807981 0.9929891 -0.0807981
205 0.9923600 -0.0844292 0.0076400 0.0844292 0.0076400 0.0844292 0.9923600 -0.0844292
214 0.9916741 -0.0882182 0.0083259 0.0882182 0.0083259 0.0882182 0.9916741 -0.0882182
224 0.9909265 -0.0921714 0.0090735 0.0921714 0.0090735 0.0921714 0.9909265 -0.0921714
234 0.9901116 -0.0962951 0.0098884 0.0962951 0.0098884 0.0962951 0.9901116 -0.0962951
245 0.9892235 -0.1005956 0.0107765 0.1005956 0.0107765 0.1005956 0.9892235 -0.1005956
256 0.9882556 -0.1050796 0.0117444 0.1050796 0.0117444 0.1050796 0.9882556 -0.1050796
268 0.9872008 -0.1097537 0.0127992 0.1097537 0.0127992 0.1097537 0.9872008 -0.1097537
280 0.9860516 -0.1146246 0.0139484 0.1146246 0.0139484 0.1146246 0.9860516 -0.1146246
293 0.9847996 -0.1196991 0.0152004 0.1196991 0.0152004 0.1196991 0.9847996 -0.1196991
306 0.9834358 -0.1249839 0.0165642 0.1249839 0.0165642 0.1249839 0.9834358 -0.1249839
320 0.9819505 -0.1304856 0.0180495 0.1304856 0.0180495 0.1304856 0.9819505 -0.1304856
335 0.9803332 -0.1362110 0.0196668 0.1362110 0.0196668 0.1362110 0.9803332 -0.1362110
350 0.9785726 -0.1421664 0.0214274 0.1421664 0.0214274 0.1421664 0.9785726 -0.1421664
366 0.9766563 -0.1483582 0.0233437 0.1483582 0.0233437 0.1483582 0.9766563 -0.1483582
383 0.9745712 -0.1547923 0.0254288 0.1547923 0.0254288 0.1547923 0.9745712 -0.1547923
401 0.9723033 -0.1614744 0.0276967 0.1614744 0.0276967 0.1614744 0.9723033 -0.1614744
419 0.9698372 -0.1684096 0.0301628 0.1684096 0.0301628 0.1684096 0.9698372 -0.1684096
438 0.9671568 -0.1756025 0.0328432 0.1756025 0.0328432 0.1756025 0.9671568 -0.1756025
458 0.9642448 -0.1830572 0.0357552 0.1830572 0.0357552 0.1830572 0.9642448 -0.1830572
479 0.9610825 -0.1907767 0.0389175 0.1907767 0.0389175 0.1907767 0.9610825 -0.1907767
501 0.9576504 -0.1987633 0.0423496 0.1987633 0.0423496 0.1987633 0.9576504 -0.1987633
524 0.9539277 -0.2070182 0.0460723 0.2070182 0.0460723 0.2070182 0.9539277 -0.2070182
548 0.9498924 -0.2155411 0.0501076 0.2155411 0.0501076 0.2155411 0.9498924 -0.2155411
573 0.9455212 -0.2243305 0.0544788 0.2243305 0.0544788 0.2243305 0.9455212 -0.2243305
600 0.9407900 -0.2333832 0.0592100 0.2333832 0.0592100 0.2333832 0.9407900 -0.2333832
627 0.9356732 -0.2426942 0.0643268 0.2426942 0.0643268 0.2426942 0.9356732 -0.2426942
656 0.9301447 -0.2522563 0.0698553 0.2522563 0.0698553 0.2522563 0.9301447 -0.2522563
686 0.9241771 -0.2620601 0.0758229 0.2620601 0.0758229 0.2620601 0.9241771 -0.2620601
717 0.9177424 -0.2720936 0.0822576 0.2720936 0.0822576 0.2720936 0.9177424 -0.2720936
750 0.9108121 -0.2823421 0.0891879 0.2823421 0.0891879 0.2823421 0.9108121 -0.2823421
784 0.9033573 -0.2927878 0.0966427 0.2927878 0.0966427 0.2927878 0.9033573 -0.2927878
820 0.8953489 -0.3034098 0.1046511 0.3034098 0.1046511 0.3034098 0.8953489 -0.3034098
858 0.8867582 -0.3141835 0.1132418 0.3141835 0.1132418 0.3141835 0.8867582 -0.3141835
897 0.8775569 -0.3250808 0.1224431 0.3250808 0.1224431 0.3250808 0.8775569 -0.3250808
938 0.8677179 -0.3360697 0.1322821 0.3360697 0.1322821 0.3360697 0.8677179 -0.3360697
981 0.8572153 -0.3471142 0.1427847 0.3471142 0.1427847 0.3471142 0.8572153 -0.3471142
1026 0.8460254 -0.3581743 0.1539746 0.3581743 0.1539746 0.3581743 0.8460254 -0.3581743
1073 0.8341269 -0.3692057 0.1658731 0.3692057 0.1658731 0.3692057 0.8341269 -0.3692057
1122 0.8215016 -0.3801605 0.1784984 0.3801605 0.1784984 0.3801605 0.8215016 -0.3801605
1174 0.8081351 -0.3909865 0.1918649 0.3909865 0.1918649 0.3909865 0.8081351 -0.3909865
1227 0.7940173 -0.4016281 0.2059827 0.4016281 0.2059827 0.4016281 0.7940173 -0.4016281
1283 0.7791433 -0.4120262 0.2208567 0.4120262 0.2208567 0.4120262 0.7791433 -0.4120262
1342 0.7635138 -0.4221191 0.2364862 0.4221191 0.2364862 0.4221191 0.7635138 -0.4221191
1404 0.7471357 -0.4318425 0.2528643 0.4318425 0.2528643 0.4318425 0.7471357 -0.4318425
1468 0.7300228 -0.4411310 0.2699772 0.4411310 0.2699772 0.4411310 0.7300228 -0.4411310
1535 0.7121963 -0.4499181 0.2878037 0.4499181 0.2878037 0.4499181 0.7121963 -0.4499181
1606 0.6936848 -0.4581376 0.3063152 0.4581376 0.3063152 0.4581376 0.6936848 -0.4581376
1679 0.6745249 -0.4657245 0.3254751 0.4657245 0.3254751 0.4657245 0.6745249 -0.4657245
1756 0.6547611 -0.4726164 0.3452389 0.4726164 0.3452389 0.4726164 0.6547611 -0.4726164
1836 0.6344455 -0.4787539 0.3655545 0.4787539 0.3655545 0.4787539 0.6344455 -0.4787539
1920 0.6136379 -0.4840825 0.3863621 0.4840825 0.3863621 0.4840825 0.6136379 -0.4840825
2008 0.5924049 -0.4885534 0.4075951 0.4885534 0.4075951 0.4885534 0.5924049 -0.4885534
2100 0.5708194 -0.4921245 0.4291806 0.4921245 0.4291806 0.4921245 0.5708194 -0.4921245
2196 0.5489594 -0.4947614 0.4510406 0.4947614 0.4510406 0.4947614 0.5489594 -0.4947614
2297 0.5269074 -0.4964382 0.4730926 0.4964382 0.4730926 0.4964382 0.5269074 -0.4964382
2402 0.5047489 -0.4971383 0.4952511 0.4971383 0.4952511 0.4971383 0.5047489 -0.4971383
2512 0.4825710 -0.4968545 0.5174290 0.4968545 0.5174290 0.4968545 0.4825710 -0.4968545
2627 0.4604613 -0.4955893 0.5395387 0.4955893 0.5395387 0.4955893 0.4604613 -0.4955893
2748 0.4385063 -0.4933549 0.5614937 0.4933549 0.5614937 0.4933549 0.4385063 -0.4933549
2873 0.4167903 -0.4901729 0.5832097 0.4901729 0.5832097 0.4901729 0.4167903 -0.4901729
3005 0.3953937 -0.4860739 0.6046063 0.4860739 0.6046063 0.4860739 0.3953937 -0.4860739
3143 0.3743922 -0.4810965 0.6256078 0.4810965 0.6256078 0.4810965 0.3743922 -0.4810965
3287 0.3538557 -0.4752869 0.6461443 0.4752869 0.6461443 0.4752869 0.3538557 -0.4752869
3437 0.3338475 -0.4686972 0.6661525 0.4686972 0.6661525 0.4686972 0.3338475 -0.4686972
3594 0.3144235 -0.4613851 0.6855765 0.4613851 0.6855765 0.4613851 0.3144235 -0.4613851
3759 0.2956319 -0.4534122 0.7043681 0.4534122 0.7043681 0.4534122 0.2956319 -0.4534122
3931 0.2775130 -0.4448430 0.7224870 0.4448430 0.7224870 0.4448430 0.2775130 -0.4448430
4111 0.2600991 -0.4357438 0.7399009 0.4357438 0.7399009 0.4357438 0.2600991 -0.4357438
4299 0.2434146 -0.4261816 0.7565854 0.4261816 0.7565854 0.4261816 0.2434146 -0.4261816
4496 0.2274764 -0.4162229 0.7725236 0.4162229 0.7725236 0.4162229 0.2274764 -0.4162229
4702 0.2122941 -0.4059331 0.7877059 0.4059331 0.7877059 0.4059331 0.2122941 -0.4059331
4918 0.1978709 -0.3953757 0.8021291 0.3953757 0.8021291 0.3953757 0.1978709 -0.3953757
5143 0.1842036 -0.3846113 0.8157964 0.3846113 0.8157964 0.3846113 0.1842036 -0.3846113
5378 0.1712840 -0.3736975 0.8287160 0.3736975 0.8287160 0.3736975 0.1712840 -0.3736975
5625 0.1590990 -0.3626881 0.8409010 0.3626881 0.8409010 0.3626881 0.1590990 -0.3626881
5882 0.1476313 -0.3516331 0.8523687 0.3516331 0.8523687 0.3516331 0.1476313 -0.3516331
6151 0.1368603 -0.3405784 0.8631397 0.3405784 0.8631397 0.3405784 0.1368603 -0.3405784
6433 0.1267629 -0.3295658 0.8732371 0.3295658 0.8732371 0.3295658 0.1267629 -0.3295658
6728 0.1173134 -0.3186327 0.8826866 0.3186327 0.8826866 0.3186327 0.1173134 -0.3186327
7036 0.1084848 -0.3078127 0.8915152 0.3078127 0.8915152 0.3078127 0.1084848 -0.3078127
7358 0.1002489 -0.2971351 0.8997511 0.2971351 0.8997511 0.2971351 0.1002489 -0.2971351
7695 0.0925767 -0.2866258 0.9074233 0.2866258 0.9074233 0.2866258 0.0925767 -0.2866258
8047 0.0854392 -0.2763067 0.9145608 0.2763067 0.9145608 0.2763067 0.0854392 -0.2763067
8416 0.0788071 -0.2661965 0.9211929 0.2661965 0.9211929 0.2661965 0.0788071 -0.2661965
8801 0.0726517 -0.2563108 0.9273483 0.2563108 0.9273483 0.2563108 0.0726517 -0.2563108
9204 0.0669447 -0.2466624 0.9330553 0.2466624 0.9330553 0.2466624 0.0669447 -0.2466624
9626 0.0616585 -0.2372612 0.9383415 0.2372612 0.9383415 0.2372612 0.0616585 -0.2372612
10066 0.0567667 -0.2281151 0.9432333 0.2281151 0.9432333 0.2281151 0.0567667 -0.2281151
10527 0.0522434 -0.2192297 0.9477566 0.2192297 0.9477566 0.2192297 0.0522434 -0.2192297
11009 0.0480643 -0.2106086 0.9519357 0.2106086 0.9519357 0.2106086 0.0480643 -0.2106086
11514 0.0442058 -0.2022538 0.9557942 0.2022538 0.9557942 0.2022538 0.0442058 -0.2022538
12041 0.0406458 -0.1941660 0.9593542 0.1941660 0.9593542 0.1941660 0.0406458 -0.1941660
12592 0.0373632 -0.1863444 0.9626368 0.1863444 0.9626368 0.1863444 0.0373632 -0.1863444
13169 0.0343381 -0.1787871 0.9656619 0.1787871 0.9656619 0.1787871 0.0343381 -0.1787871
13772 0.0315519 -0.1714915 0.9684481 0.1714915 0.9684481 0.1714915 0.0315519 -0.1714915
14402 0.0289869 -0.1644537 0.9710131 0.1644537 0.9710131 0.1644537 0.0289869 -0.1644537
15062 0.0266266 -0.1576697 0.9733734 0.1576697 0.9733734 0.1576697 0.0266266 -0.1576697
15752 0.0244557 -0.1511344 0.9755443 0.1511344 0.9755443 0.1511344 0.0244557 -0.1511344
16473 0.0224598 -0.1448426 0.9775402 0.1448426 0.9775402 0.1448426 0.0224598 -0.1448426
17227 0.0206253 -0.1387885 0.9793747 0.1387885 0.9793747 0.1387885 0.0206253 -0.1387885
18016 0.0189400 -0.1329661 0.9810600 0.1329661 0.9810600 0.1329661 0.0189400 -0.1329661
18841 0.0173920 -0.1273692 0.9826080 0.1273692 0.9826080 0.1273692 0.0173920 -0.1273692
19704 0.0159706 -0.1219914 0.9840294 0.1219914 0.9840294 0.1219914 0.0159706 -0.1219914
20606 0.0146658 -0.1168262 0.9853342 0.1168262 0.9853342 0.1168262 0.0146658 -0.1168262
21550 0.0134684 -0.1118669 0.9865316 0.1118669 0.9865316 0.1118669 0.0134684 -0.1118669
22537 0.0123697 -0.1071070 0.9876303 0.1071070 0.9876303 0.1071070 0.0123697 -0.1071070
23569 0.0113618 -0.1025399 0.9886382 0.1025399 0.9886382 0.1025399 0.0113618 -0.1025399
24648 0.0104373 -0.0981590 0.9895627 0.0981590 0.9895627 0.0981590 0.0104373 -0.0981590
25777 0.0095894 -0.0939578 0.9904106 0.0939578 0.9904106 0.0939578 0.0095894 -0.0939578
26957 0.0088120 -0.0899300 0.9911880 0.0899300 0.9911880 0.0899300 0.0088120 -0.0899300
28191 0.0080991 -0.0860692 0.9919009 0.0860692 0.9919009 0.0860692 0.0080991 -0.0860692
29482 0.0074456 -0.0823693 0.9925544 0.0823693 0.9925544 0.0823693 0.0074456 -0.0823693
30832 0.0068464 -0.0788242 0.9931536 0.0788242 0.9931536 0.0788242 0.0068464 -0.0788242
32244 0.0062971 -0.0754281 0.9937029 0.0754281 0.9937029 0.0754281 0.0062971 -0.0754281
33721 0.0057934 -0.0721752 0.9942066 0.0721752 0.9942066 0.0721752 0.0057934 -0.0721752
35265 0.0053317 -0.0690598 0.9946683 0.0690598 0.9946683 0.0690598 0.0053317 -0.0690598
36880 0.0049084 -0.0660766 0.9950916 0.0660766 0.9950916 0.0660766 0.0049084 -0.0660766
38569 0.0045202 -0.0632203 0.9954798 0.0632203 0.9954798 0.0632203 0.0045202 -0.0632203
40335 0.0041643 -0.0604858 0.9958357 0.0604858 0.9958357 0.0604858 0.0041643 -0.0604858
42182 0.0038377 -0.0578682 0.9961623 0.0578682 0.9961623 0.0578682 0.0038377 -0.0578682
44113 0.0035382 -0.0553626 0.9964618 0.0553626 0.9964618 0.0553626 0.0035382 -0.0553626
46134 0.0032634 -0.0529645 0.9967366 0.0529645 0.9967366 0.0529645 0.0032634 -0.0529645
48246 0.0030112 -0.0506693 0.9969888 0.0506693 0.9969888 0.0506693 0.0030112 -0.0506693
50455 0.0027797 -0.0484729 0.9972203 0.0484729 0.9972203 0.0484729 0.0027797 -0.0484729
52766 0.0025671 -0.0463711 0.9974329 0.0463711 0.9974329 0.0463711 0.0025671 -0.0463711
55182 0.0023719 -0.0443599 0.9976281 0.0443599 0.9976281 0.0443599 0.0023719 -0.0443599
57709 0.0021925 -0.0424354 0.9978075 0.0424354 0.9978075 0.0424354 0.0021925 -0.0424354
60352 0.0020276 -0.0405940 0.9979724 0.0405940 0.9979724 0.0405940 0.0020276 -0.0405940
63115 0.0018761 -0.0388322 0.9981239 0.0388322 0.9981239 0.0388322 0.0018761 -0.0388322
66005 0.0017367 -0.0371466 0.9982633 0.0371466 0.9982633 0.0371466 0.0017367 -0.0371466
69028 0.0016085 -0.0355338 0.9983915 0.0355338 0.9983915 0.0355338 0.0016085 -0.0355338
72189 0.0014905 -0.0339908 0.9985095 0.0339908 0.9985095 0.0339908 0.0014905 -0.0339908
75495 0.0013819 -0.0325146 0.9986181 0.0325146 0.9986181 0.0325146 0.0013819 -0.0325146
78952 0.0012819 -0.0311023 0.9987181 0.0311023 0.9987181 0.0311023 0.0012819 -0.0311023
82567 0.0011898 -0.0297512 0.9988102 0.0297512 0.9988102 0.0297512 0.0011898 -0.0297512
86348 0.0011050 -0.0284586 0.9988950 0.0284586 0.9988950 0.0284586 0.0011050 -0.0284586
90302 0.0010268 -0.0272220 0.9989732 0.0272220 0.9989732 0.0272220 0.0010268 -0.0272220
94437 0.0009547 -0.0260389 0.9990453 0.0260389 0.9990453 0.0260389 0.0009547 -0.0260389
98762 0.0008882 -0.0249072 0.9991118 0.0249072 0.9991118 0.0249072 0.0008882 -0.0249072
103284 0.0008270 -0.0238244 0.9991730 0.0238244 0.9991730 0.0238244 0.0008270 -0.0238244
108014 0.0007704 -0.0227887 0.9992296 0.0227887 0.9992296 0.0227887 0.0007704 -0.0227887
112960 0.0007183 -0.0217978 0.9992817 0.0217978 0.9992817 0.0217978 0.0007183 -0.0217978
118133 0.0006701 -0.0208499 0.9993299 0.0208499 0.9993299 0.0208499 0.0006701 -0.0208499
123542 0.0006257 -0.0199431 0.9993743 0.0199431 0.9993743 0.0199431 0.0006257 -0.0199431
129199 0.0005847 -0.0190757 0.9994153 0.0190757 0.9994153 0.0190757 0.0005847 -0.0190757
135116 0.0005468 -0.0182459 0.9994532 0.0182459 0.9994532 0.0182459 0.0005468 -0.0182459
141303 0.0005118 -0.0174522 0.9994882 0.0174522 0.9994882 0.0174522 0.0005118 -0.0174522
147774 0.0004795 -0.0166929 0.9995205 0.0166929 0.9995205 0.0166929 0.0004795 -0.0166929
154540 0.0004496 -0.0159666 0.9995504 0.0159666 0.9995504 0.0159666 0.0004496 -0.0159666
161617 0.0004219 -0.0152718 0.9995781 0.0152718 0.9995781 0.0152718 0.0004219 -0.0152718
169018 0.0003963 -0.0146072 0.9996037 0.0146072 0.9996037 0.0146072 0.0003963 -0.0146072
176758 0.0003726 -0.0139715 0.9996274 0.0139715 0.9996274 0.0139715 0.0003726 -0.0139715
184852 0.0003506 -0.0133634 0.9996494 0.0133634 0.9996494 0.0133634 0.0003506 -0.0133634
193316 0.0003302 -0.0127817 0.9996698 0.0127817 0.9996698 0.0127817 0.0003302 -0.0127817
202169 0.0003113 -0.0122252 0.9996887 0.0122252 0.9996887 0.0122252 0.0003113 -0.0122252
211427 0.0002938 -0.0116930 0.9997062 0.0116930 0.9997062 0.0116930 0.0002938 -0.0116930
221108 0.0002774 -0.0111838 0.9997226 0.0111838 0.9997226 0.0111838 0.0002774 -0.0111838
231233 0.0002623 -0.0106968 0.9997377 0.0106968 0.9997377 0.0106968 0.0002623 -0.0106968
241822 0.0002481 -0.0102309 0.9997519 0.0102309 0.9997519 0.0102309 0.0002481 -0.0102309
252896 0.0002350 -0.0097852 0.9997650 0.0097852 0.9997650 0.0097852 0.0002350 -0.0097852
264476 0.0002227 -0.0093589 0.9997773 0.0093589 0.9997773 0.0093589 0.0002227 -0.0093589
276587 0.0002112 -0.0089510 0.9997888 0.0089510 0.9997888 0.0089510 0.0002112 -0.0089510
289253 0.0002005 -0.0085608 0.9997995 0.0085608 0.9997995 0.0085608 0.0002005 -0.0085608
302498 0.0001906 -0.0081875 0.9998094 0.0081875 0.9998094 0.0081875 0.0001906 -0.0081875
316350 0.0001812 -0.0078304 0.9998188 0.0078304 0.9998188 0.0078304 0.0001812 -0.0078304
330837 0.0001725 -0.0074887 0.9998275 0.0074887 0.9998275 0.0074887 0.0001725 -0.0074887
345986 0.0001643 -0.0071617 0.9998357 0.0071617 0.9998357 0.0071617 0.0001643 -0.0071617
361830 0.0001567 -0.0068489 0.9998433 0.0068489 0.9998433 0.0068489 0.0001567 -0.0068489
378399 0.0001495 -0.0065496 0.9998505 0.0065496 0.9998505 0.0065496 0.0001495 -0.0065496
395726 0.0001428 -0.0062632 0.9998572 0.0062632 0.9998572 0.0062632 0.0001428 -0.0062632
413847 0.0001366 -0.0059892 0.9998634 0.0059892 0.9998634 0.0059892 0.0001366 -0.0059892
432798 0.0001307 -0.0057270 0.9998693 0.0057270 0.9998693 0.0057270 0.0001307 -0.0057270
452617 0.0001253 -0.0054760 0.9998747 0.0054760 0.9998747 0.0054760 0.0001253 -0.0054760
473344 0.0001201 -0.0052359 0.9998799 0.0052359 0.9998799 0.0052359 0.0001201 -0.0052359
495019 0.0001154 -0.0050061 0.9998846 0.0050061 0.9998846 0.0050061 0.0001154 -0.0050061
517687 0.0001109 -0.0047861 0.9998891 0.0047861 0.9998891 0.0047861 0.0001109 -0.0047861
541393 0.0001068 -0.0045757 0.9998932 0.0045757 0.9998932 0.0045757 0.0001068 -0.0045757
566185 0.0001029 -0.0043742 0.9998971 0.0043742 0.9998971 0.0043742 0.0001029 -0.0043742
592111 0.0000993 -0.0041814 0.9999007 0.0041814 0.9999007 0.0041814 0.0000993 -0.0041814
619225 0.0000960 -0.0039968 0.9999040 0.0039968 0.9999040 0.0039968 0.0000960 -0.0039968
647581 0.0000929 -0.0038202 0.9999071 0.0038202 0.9999071 0.0038202 0.0000929 -0.0038202
677235 0.0000900 -0.0036511 0.9999100 0.0036511 0.9999100 0.0036511 0.0000900 -0.0036511
708247 0.0000873 -0.0034892 0.9999127 0.0034892 0.9999127 0.0034892 0.0000873 -0.0034892
740679 0.0000848 -0.0033342 0.9999152 0.0033342 0.9999152 0.0033342 0.0000848 -0.0033342
774597 0.0000825 -0.0031859 0.9999175 0.0031859 0.9999175 0.0031859 0.0000825 -0.0031859
810067 0.0000804 -0.0030439 0.9999196 0.0030439 0.9999196 0.0030439 0.0000804 -0.0030439
847162 0.0000784 -0.0029079 0.9999216 0.0029079 0.9999216 0.0029079 0.0000784 -0.0029079
885955 0.0000766 -0.0027776 0.9999234 0.0027776 0.9999234 0.0027776 0.0000766 -0.0027776
926525 0.0000750 -0.0026529 0.9999250 0.0026529 0.9999250 0.0026529 0.0000750 -0.0026529
968953 0.0000734 -0.0025335 0.9999266 0.0025335 0.9999266 0.0025335 0.0000734 -0.0025335
1013323 0.0000720 -0.0024191 0.9999280 0.0024191 0.9999280 0.0024191 0.0000720 -0.0024191
1059725 0.0000707 -0.0023095 0.9999293 0.0023095 0.9999293 0.0023095 0.0000707 -0.0023095
1108252 0.0000695 -0.0022045 0.9999305 0.0022045 0.9999305 0.0022045 0.0000695 -0.0022045
1159002 0.0000685 -0.0021039 0.9999315 0.0021039 0.9999315 0.0021039 0.0000685 -0.0021039
1212075 0.0000675 -0.0020075 0.9999325 0.0020075 0.9999325 0.0020075 0.0000675 -0.0020075
1267578 0.0000666 -0.0019151 0.9999334 0.0019151 0.9999334 0.0019151 0.0000666 -0.0019151
1325623 0.0000658 -0.0018265 0.9999342 0.0018265 0.9999342 0.0018265 0.0000658 -0.0018265
1386327 0.0000650 -0.0017415 0.9999350 0.0017415 0.9999350 0.0017415 0.0000650 -0.0017415
1449809 0.0000643 -0.0016601 0.9999357 0.0016601 0.9999357 0.0016601 0.0000643 -0.0016601
1516199 0.0000637 -0.0015819 0.9999363 0.0015819 0.9999363 0.0015819 0.0000637 -0.0015819
1585629 0.0000632 -0.0015069 0.9999368 0.0015069 0.9999368 0.0015069 0.0000632 -0.0015069
1658239 0.0000627 -0.0014349 0.9999373 0.0014349 0.9999373 0.0014349 0.0000627 -0.0014349
1734173 0.0000623 -0.0013658 0.9999377 0.0013658 0.9999377 0.0013658 0.0000623 -0.0013658
1813585 0.0000619 -0.0012994 0.9999381 0.0012994 0.9999381 0.0012994 0.0000619 -0.0012994
1896632 0.0000616 -0.0012356 0.9999384 0.0012356 0.9999384 0.0012356 0.0000616 -0.0012356
1983483 0.0000613 -0.0011742 0.9999387 0.0011742 0.9999387 0.0011742 0.0000613 -0.0011742
2074311 0.0000611 -0.0011153 0.9999389 0.0011153 0.9999389 0.0011153 0.0000611 -0.0011153
