!Murata Part Number: GRM21BR71A106MA73
!These Parameters are Measured in Series Mode Connection
!Data Generated on Mar 30, 2021
!       o--ll--o
!Port1            Port2
!       o------o
!Operation Temp=25[degC], DC Bias Voltage=0[V]
!Freq. Start=100[Hz] Stop=6[GHz] 401[Steps]
# Hz S RI R 50
!Freq.(Hz) S11(Real) S11(Imag) S21(Real) S21(Imag) S12(Real) S12(Imag) S22(Real) S22(Imag)
100 0.8603197 -0.3378754 0.1396803 0.3378754 0.1396803 0.3378754 0.8603197 -0.3378754
105 0.8496325 -0.3486812 0.1503675 0.3486812 0.1503675 0.3486812 0.8496325 -0.3486812
109 0.8382659 -0.3594844 0.1617341 0.3594844 0.1617341 0.3594844 0.8382659 -0.3594844
114 0.8262002 -0.3702401 0.1737998 0.3702401 0.1737998 0.3702401 0.8262002 -0.3702401
120 0.8134190 -0.3808993 0.1865810 0.3808993 0.1865810 0.3808993 0.8134190 -0.3808993
125 0.7999102 -0.3914095 0.2000898 0.3914095 0.2000898 0.3914095 0.7999102 -0.3914095
131 0.7856661 -0.4017146 0.2143339 0.4017146 0.2143339 0.4017146 0.7856661 -0.4017146
137 0.7706846 -0.4117555 0.2293154 0.4117555 0.2293154 0.4117555 0.7706846 -0.4117555
143 0.7549693 -0.4214706 0.2450307 0.4214706 0.2450307 0.4214706 0.7549693 -0.4214706
150 0.7385305 -0.4307966 0.2614695 0.4307966 0.2614695 0.4307966 0.7385305 -0.4307966
156 0.7213853 -0.4396692 0.2786147 0.4396692 0.2786147 0.4396692 0.7213853 -0.4396692
164 0.7035584 -0.4480237 0.2964416 0.4480237 0.2964416 0.4480237 0.7035584 -0.4480237
171 0.6850819 -0.4557966 0.3149181 0.4557966 0.3149181 0.4557966 0.6850819 -0.4557966
179 0.6659955 -0.4629261 0.3340045 0.4629261 0.3340045 0.4629261 0.6659955 -0.4629261
187 0.6463466 -0.4693535 0.3536534 0.4693535 0.3536534 0.4693535 0.6463466 -0.4693535
196 0.6261900 -0.4750241 0.3738100 0.4750241 0.3738100 0.4750241 0.6261900 -0.4750241
205 0.6055871 -0.4798885 0.3944129 0.4798885 0.3944129 0.4798885 0.6055871 -0.4798885
214 0.5846058 -0.4839034 0.4153942 0.4839034 0.4153942 0.4839034 0.5846058 -0.4839034
224 0.5633189 -0.4870329 0.4366811 0.4870329 0.4366811 0.4870329 0.5633189 -0.4870329
234 0.5418040 -0.4892487 0.4581960 0.4892487 0.4581960 0.4892487 0.5418040 -0.4892487
245 0.5201417 -0.4905313 0.4798583 0.4905313 0.4798583 0.4905313 0.5201417 -0.4905313
256 0.4984147 -0.4908699 0.5015853 0.4908699 0.5015853 0.4908699 0.4984147 -0.4908699
268 0.4767062 -0.4902633 0.5232938 0.4902633 0.5232938 0.4902633 0.4767062 -0.4902633
280 0.4550991 -0.4887189 0.5449009 0.4887189 0.5449009 0.4887189 0.4550991 -0.4887189
293 0.4336742 -0.4862535 0.5663258 0.4862535 0.5663258 0.4862535 0.4336742 -0.4862535
306 0.4125093 -0.4828920 0.5874907 0.4828920 0.5874907 0.4828920 0.4125093 -0.4828920
320 0.3916781 -0.4786675 0.6083219 0.4786675 0.6083219 0.4786675 0.3916781 -0.4786675
335 0.3712490 -0.4736198 0.6287510 0.4736198 0.6287510 0.4736198 0.3712490 -0.4736198
350 0.3512846 -0.4677951 0.6487154 0.4677951 0.6487154 0.4677951 0.3512846 -0.4677951
366 0.3318410 -0.4612447 0.6681590 0.4612447 0.6681590 0.4612447 0.3318410 -0.4612447
383 0.3129673 -0.4540241 0.6870327 0.4540241 0.6870327 0.4540241 0.3129673 -0.4540241
401 0.2947054 -0.4461916 0.7052946 0.4461916 0.7052946 0.4461916 0.2947054 -0.4461916
419 0.2770900 -0.4378078 0.7229100 0.4378078 0.7229100 0.4378078 0.2770900 -0.4378078
438 0.2601485 -0.4289342 0.7398515 0.4289342 0.7398515 0.4289342 0.2601485 -0.4289342
458 0.2439014 -0.4196325 0.7560986 0.4196325 0.7560986 0.4196325 0.2439014 -0.4196325
479 0.2283626 -0.4099637 0.7716374 0.4099637 0.7716374 0.4099637 0.2283626 -0.4099637
501 0.2135398 -0.3999873 0.7864602 0.3999873 0.7864602 0.3999873 0.2135398 -0.3999873
524 0.1994350 -0.3897610 0.8005650 0.3897610 0.8005650 0.3897610 0.1994350 -0.3897610
548 0.1860451 -0.3793397 0.8139549 0.3793397 0.8139549 0.3793397 0.1860451 -0.3793397
573 0.1733623 -0.3687757 0.8266377 0.3687757 0.8266377 0.3687757 0.1733623 -0.3687757
600 0.1613749 -0.3581178 0.8386251 0.3581178 0.8386251 0.3581178 0.1613749 -0.3581178
627 0.1500676 -0.3474117 0.8499324 0.3474117 0.8499324 0.3474117 0.1500676 -0.3474117
656 0.1394223 -0.3366992 0.8605777 0.3366992 0.8605777 0.3366992 0.1394223 -0.3366992
686 0.1294186 -0.3260189 0.8705814 0.3260189 0.8705814 0.3260189 0.1294186 -0.3260189
717 0.1200339 -0.3154055 0.8799661 0.3154055 0.8799661 0.3154055 0.1200339 -0.3154055
750 0.1112443 -0.3048905 0.8887557 0.3048905 0.8887557 0.3048905 0.1112443 -0.3048905
784 0.1030248 -0.2945017 0.8969752 0.2945017 0.8969752 0.2945017 0.1030248 -0.2945017
820 0.0953496 -0.2842638 0.9046504 0.2842638 0.9046504 0.2842638 0.0953496 -0.2842638
858 0.0881925 -0.2741982 0.9118075 0.2741982 0.9118075 0.2741982 0.0881925 -0.2741982
897 0.0815272 -0.2643236 0.9184728 0.2643236 0.9184728 0.2643236 0.0815272 -0.2643236
938 0.0753275 -0.2546556 0.9246725 0.2546556 0.9246725 0.2546556 0.0753275 -0.2546556
981 0.0695676 -0.2452074 0.9304324 0.2452074 0.9304324 0.2452074 0.0695676 -0.2452074
1026 0.0642220 -0.2359899 0.9357780 0.2359899 0.9357780 0.2359899 0.0642220 -0.2359899
1073 0.0592659 -0.2270116 0.9407341 0.2270116 0.9407341 0.2270116 0.0592659 -0.2270116
1122 0.0546752 -0.2182790 0.9453248 0.2182790 0.9453248 0.2182790 0.0546752 -0.2182790
1174 0.0504268 -0.2097970 0.9495732 0.2097970 0.9495732 0.2097970 0.0504268 -0.2097970
1227 0.0464984 -0.2015687 0.9535016 0.2015687 0.9535016 0.2015687 0.0464984 -0.2015687
1283 0.0428685 -0.1935958 0.9571315 0.1935958 0.9571315 0.1935958 0.0428685 -0.1935958
1342 0.0395169 -0.1858785 0.9604831 0.1858785 0.9604831 0.1858785 0.0395169 -0.1858785
1404 0.0364241 -0.1784160 0.9635759 0.1784160 0.9635759 0.1784160 0.0364241 -0.1784160
1468 0.0335718 -0.1712066 0.9664282 0.1712066 0.9664282 0.1712066 0.0335718 -0.1712066
1535 0.0309426 -0.1642475 0.9690574 0.1642475 0.9690574 0.1642475 0.0309426 -0.1642475
1606 0.0285203 -0.1575353 0.9714797 0.1575353 0.9714797 0.1575353 0.0285203 -0.1575353
1679 0.0262895 -0.1510658 0.9737105 0.1510658 0.9737105 0.1510658 0.0262895 -0.1510658
1756 0.0242357 -0.1448344 0.9757643 0.1448344 0.9757643 0.1448344 0.0242357 -0.1448344
1836 0.0223454 -0.1388360 0.9776546 0.1388360 0.9776546 0.1388360 0.0223454 -0.1388360
1920 0.0206062 -0.1330650 0.9793938 0.1330650 0.9793938 0.1330650 0.0206062 -0.1330650
2008 0.0190060 -0.1275157 0.9809940 0.1275157 0.9809940 0.1275157 0.0190060 -0.1275157
2100 0.0175342 -0.1221822 0.9824658 0.1221822 0.9824658 0.1221822 0.0175342 -0.1221822
2196 0.0161804 -0.1170581 0.9838196 0.1170581 0.9838196 0.1170581 0.0161804 -0.1170581
2297 0.0149352 -0.1121372 0.9850648 0.1121372 0.9850648 0.1121372 0.0149352 -0.1121372
2402 0.0137898 -0.1074130 0.9862102 0.1074130 0.9862102 0.1074130 0.0137898 -0.1074130
2512 0.0127362 -0.1028793 0.9872638 0.1028793 0.9872638 0.1028793 0.0127362 -0.1028793
2627 0.0117669 -0.0985295 0.9882331 0.0985295 0.9882331 0.0985295 0.0117669 -0.0985295
2748 0.0108749 -0.0943573 0.9891251 0.0943573 0.9891251 0.0943573 0.0108749 -0.0943573
2873 0.0100539 -0.0903564 0.9899461 0.0903564 0.9899461 0.0903564 0.0100539 -0.0903564
3005 0.0092980 -0.0865204 0.9907020 0.0865204 0.9907020 0.0865204 0.0092980 -0.0865204
3143 0.0086019 -0.0828434 0.9913981 0.0828434 0.9913981 0.0828434 0.0086019 -0.0828434
3287 0.0079604 -0.0793192 0.9920396 0.0793192 0.9920396 0.0793192 0.0079604 -0.0793192
3437 0.0073692 -0.0759419 0.9926308 0.0759419 0.9926308 0.0759419 0.0073692 -0.0759419
3594 0.0068241 -0.0727059 0.9931759 0.0727059 0.9931759 0.0727059 0.0068241 -0.0727059
3759 0.0063212 -0.0696055 0.9936788 0.0696055 0.9936788 0.0696055 0.0063212 -0.0696055
3931 0.0058571 -0.0666353 0.9941429 0.0666353 0.9941429 0.0666353 0.0058571 -0.0666353
4111 0.0054285 -0.0637900 0.9945715 0.0637900 0.9945715 0.0637900 0.0054285 -0.0637900
4299 0.0050326 -0.0610645 0.9949674 0.0610645 0.9949674 0.0610645 0.0050326 -0.0610645
4496 0.0046668 -0.0584539 0.9953332 0.0584539 0.9953332 0.0584539 0.0046668 -0.0584539
4702 0.0043286 -0.0559534 0.9956714 0.0559534 0.9956714 0.0559534 0.0043286 -0.0559534
4918 0.0040158 -0.0535586 0.9959842 0.0535586 0.9959842 0.0535586 0.0040158 -0.0535586
5143 0.0037265 -0.0512649 0.9962735 0.0512649 0.9962735 0.0512649 0.0037265 -0.0512649
5378 0.0034588 -0.0490682 0.9965412 0.0490682 0.9965412 0.0490682 0.0034588 -0.0490682
5625 0.0032110 -0.0469643 0.9967890 0.0469643 0.9967890 0.0469643 0.0032110 -0.0469643
5882 0.0029816 -0.0449495 0.9970184 0.0449495 0.9970184 0.0449495 0.0029816 -0.0449495
6151 0.0027693 -0.0430200 0.9972307 0.0430200 0.9972307 0.0430200 0.0027693 -0.0430200
6433 0.0025727 -0.0411721 0.9974273 0.0411721 0.9974273 0.0411721 0.0025727 -0.0411721
6728 0.0023907 -0.0394026 0.9976093 0.0394026 0.9976093 0.0394026 0.0023907 -0.0394026
7036 0.0022223 -0.0377081 0.9977777 0.0377081 0.9977777 0.0377081 0.0022223 -0.0377081
7358 0.0020664 -0.0360855 0.9979336 0.0360855 0.9979336 0.0360855 0.0020664 -0.0360855
7695 0.0019221 -0.0345318 0.9980779 0.0345318 0.9980779 0.0345318 0.0019221 -0.0345318
8047 0.0017886 -0.0330441 0.9982114 0.0330441 0.9982114 0.0330441 0.0017886 -0.0330441
8416 0.0016652 -0.0316197 0.9983348 0.0316197 0.9983348 0.0316197 0.0016652 -0.0316197
8801 0.0015510 -0.0302560 0.9984490 0.0302560 0.9984490 0.0302560 0.0015510 -0.0302560
9204 0.0014454 -0.0289504 0.9985546 0.0289504 0.9985546 0.0289504 0.0014454 -0.0289504
9626 0.0013478 -0.0277006 0.9986522 0.0277006 0.9986522 0.0277006 0.0013478 -0.0277006
10066 0.0012576 -0.0265041 0.9987424 0.0265041 0.9987424 0.0265041 0.0012576 -0.0265041
10527 0.0011743 -0.0253589 0.9988257 0.0253589 0.9988257 0.0253589 0.0011743 -0.0253589
11009 0.0010974 -0.0242627 0.9989026 0.0242627 0.9989026 0.0242627 0.0010974 -0.0242627
11514 0.0010263 -0.0232135 0.9989737 0.0232135 0.9989737 0.0232135 0.0010263 -0.0232135
12041 0.0009607 -0.0222094 0.9990393 0.0222094 0.9990393 0.0222094 0.0009607 -0.0222094
12592 0.0009001 -0.0212485 0.9990999 0.0212485 0.9990999 0.0212485 0.0009001 -0.0212485
13169 0.0008441 -0.0203290 0.9991559 0.0203290 0.9991559 0.0203290 0.0008441 -0.0203290
13772 0.0007925 -0.0194491 0.9992075 0.0194491 0.9992075 0.0194491 0.0007925 -0.0194491
14402 0.0007447 -0.0186072 0.9992553 0.0186072 0.9992553 0.0186072 0.0007447 -0.0186072
15062 0.0007006 -0.0178017 0.9992994 0.0178017 0.9992994 0.0178017 0.0007006 -0.0178017
15752 0.0006599 -0.0170311 0.9993401 0.0170311 0.9993401 0.0170311 0.0006599 -0.0170311
16473 0.0006222 -0.0162939 0.9993778 0.0162939 0.9993778 0.0162939 0.0006222 -0.0162939
17227 0.0005873 -0.0155886 0.9994127 0.0155886 0.9994127 0.0155886 0.0005873 -0.0155886
18016 0.0005550 -0.0149139 0.9994450 0.0149139 0.9994450 0.0149139 0.0005550 -0.0149139
18841 0.0005251 -0.0142686 0.9994749 0.0142686 0.9994749 0.0142686 0.0005251 -0.0142686
19704 0.0004973 -0.0136513 0.9995027 0.0136513 0.9995027 0.0136513 0.0004973 -0.0136513
20606 0.0004715 -0.0130608 0.9995285 0.0130608 0.9995285 0.0130608 0.0004715 -0.0130608
21550 0.0004475 -0.0124960 0.9995525 0.0124960 0.9995525 0.0124960 0.0004475 -0.0124960
22537 0.0004251 -0.0119559 0.9995749 0.0119559 0.9995749 0.0119559 0.0004251 -0.0119559
23569 0.0004043 -0.0114392 0.9995957 0.0114392 0.9995957 0.0114392 0.0004043 -0.0114392
24648 0.0003848 -0.0109451 0.9996152 0.0109451 0.9996152 0.0109451 0.0003848 -0.0109451
25777 0.0003665 -0.0104724 0.9996335 0.0104724 0.9996335 0.0104724 0.0003665 -0.0104724
26957 0.0003493 -0.0100204 0.9996507 0.0100204 0.9996507 0.0100204 0.0003493 -0.0100204
28191 0.0003332 -0.0095880 0.9996668 0.0095880 0.9996668 0.0095880 0.0003332 -0.0095880
29482 0.0003180 -0.0091744 0.9996820 0.0091744 0.9996820 0.0091744 0.0003180 -0.0091744
30832 0.0003037 -0.0087789 0.9996963 0.0087789 0.9996963 0.0087789 0.0003037 -0.0087789
32244 0.0002901 -0.0084005 0.9997099 0.0084005 0.9997099 0.0084005 0.0002901 -0.0084005
33721 0.0002772 -0.0080385 0.9997228 0.0080385 0.9997228 0.0080385 0.0002772 -0.0080385
35265 0.0002650 -0.0076922 0.9997350 0.0076922 0.9997350 0.0076922 0.0002650 -0.0076922
36880 0.0002534 -0.0073610 0.9997466 0.0073610 0.9997466 0.0073610 0.0002534 -0.0073610
38569 0.0002423 -0.0070441 0.9997577 0.0070441 0.9997577 0.0070441 0.0002423 -0.0070441
40335 0.0002318 -0.0067408 0.9997682 0.0067408 0.9997682 0.0067408 0.0002318 -0.0067408
42182 0.0002217 -0.0064507 0.9997783 0.0064507 0.9997783 0.0064507 0.0002217 -0.0064507
44113 0.0002121 -0.0061731 0.9997879 0.0061731 0.9997879 0.0061731 0.0002121 -0.0061731
46134 0.0002029 -0.0059074 0.9997971 0.0059074 0.9997971 0.0059074 0.0002029 -0.0059074
48246 0.0001941 -0.0056531 0.9998059 0.0056531 0.9998059 0.0056531 0.0001941 -0.0056531
50455 0.0001858 -0.0054098 0.9998142 0.0054098 0.9998142 0.0054098 0.0001858 -0.0054098
52766 0.0001777 -0.0051769 0.9998223 0.0051769 0.9998223 0.0051769 0.0001777 -0.0051769
55182 0.0001701 -0.0049540 0.9998299 0.0049540 0.9998299 0.0049540 0.0001701 -0.0049540
57709 0.0001628 -0.0047406 0.9998372 0.0047406 0.9998372 0.0047406 0.0001628 -0.0047406
60352 0.0001558 -0.0045364 0.9998442 0.0045364 0.9998442 0.0045364 0.0001558 -0.0045364
63115 0.0001492 -0.0043409 0.9998508 0.0043409 0.9998508 0.0043409 0.0001492 -0.0043409
66005 0.0001429 -0.0041537 0.9998571 0.0041537 0.9998571 0.0041537 0.0001429 -0.0041537
69028 0.0001369 -0.0039745 0.9998631 0.0039745 0.9998631 0.0039745 0.0001369 -0.0039745
72189 0.0001312 -0.0038030 0.9998688 0.0038030 0.9998688 0.0038030 0.0001312 -0.0038030
75495 0.0001258 -0.0036388 0.9998742 0.0036388 0.9998742 0.0036388 0.0001258 -0.0036388
78952 0.0001207 -0.0034817 0.9998793 0.0034817 0.9998793 0.0034817 0.0001207 -0.0034817
82567 0.0001159 -0.0033312 0.9998841 0.0033312 0.9998841 0.0033312 0.0001159 -0.0033312
86348 0.0001113 -0.0031872 0.9998887 0.0031872 0.9998887 0.0031872 0.0001113 -0.0031872
90302 0.0001070 -0.0030493 0.9998930 0.0030493 0.9998930 0.0030493 0.0001070 -0.0030493
94437 0.0001029 -0.0029173 0.9998971 0.0029173 0.9998971 0.0029173 0.0001029 -0.0029173
98762 0.0000991 -0.0027910 0.9999009 0.0027910 0.9999009 0.0027910 0.0000991 -0.0027910
103284 0.0000955 -0.0026701 0.9999045 0.0026701 0.9999045 0.0026701 0.0000955 -0.0026701
108014 0.0000921 -0.0025544 0.9999079 0.0025544 0.9999079 0.0025544 0.0000921 -0.0025544
112960 0.0000889 -0.0024436 0.9999111 0.0024436 0.9999111 0.0024436 0.0000889 -0.0024436
118133 0.0000858 -0.0023376 0.9999142 0.0023376 0.9999142 0.0023376 0.0000858 -0.0023376
123542 0.0000830 -0.0022361 0.9999170 0.0022361 0.9999170 0.0022361 0.0000830 -0.0022361
129199 0.0000803 -0.0021390 0.9999197 0.0021390 0.9999197 0.0021390 0.0000803 -0.0021390
135116 0.0000778 -0.0020461 0.9999222 0.0020461 0.9999222 0.0020461 0.0000778 -0.0020461
141303 0.0000755 -0.0019571 0.9999245 0.0019571 0.9999245 0.0019571 0.0000755 -0.0019571
147774 0.0000732 -0.0018720 0.9999268 0.0018720 0.9999268 0.0018720 0.0000732 -0.0018720
154540 0.0000711 -0.0017906 0.9999289 0.0017906 0.9999289 0.0017906 0.0000711 -0.0017906
161617 0.0000691 -0.0017126 0.9999309 0.0017126 0.9999309 0.0017126 0.0000691 -0.0017126
169018 0.0000672 -0.0016380 0.9999328 0.0016380 0.9999328 0.0016380 0.0000672 -0.0016380
176758 0.0000654 -0.0015666 0.9999346 0.0015666 0.9999346 0.0015666 0.0000654 -0.0015666
184852 0.0000637 -0.0014983 0.9999363 0.0014983 0.9999363 0.0014983 0.0000637 -0.0014983
193316 0.0000621 -0.0014328 0.9999379 0.0014328 0.9999379 0.0014328 0.0000621 -0.0014328
202169 0.0000605 -0.0013702 0.9999395 0.0013702 0.9999395 0.0013702 0.0000605 -0.0013702
211427 0.0000591 -0.0013103 0.9999409 0.0013103 0.9999409 0.0013103 0.0000591 -0.0013103
221108 0.0000577 -0.0012529 0.9999423 0.0012529 0.9999423 0.0012529 0.0000577 -0.0012529
231233 0.0000563 -0.0011980 0.9999437 0.0011980 0.9999437 0.0011980 0.0000563 -0.0011980
241822 0.0000550 -0.0011454 0.9999450 0.0011454 0.9999450 0.0011454 0.0000550 -0.0011454
252896 0.0000538 -0.0010950 0.9999462 0.0010950 0.9999462 0.0010950 0.0000538 -0.0010950
264476 0.0000526 -0.0010468 0.9999474 0.0010468 0.9999474 0.0010468 0.0000526 -0.0010468
276587 0.0000514 -0.0010006 0.9999486 0.0010006 0.9999486 0.0010006 0.0000514 -0.0010006
289253 0.0000503 -0.0009564 0.9999497 0.0009564 0.9999497 0.0009564 0.0000503 -0.0009564
302498 0.0000493 -0.0009140 0.9999507 0.0009140 0.9999507 0.0009140 0.0000493 -0.0009140
316350 0.0000483 -0.0008733 0.9999517 0.0008733 0.9999517 0.0008733 0.0000483 -0.0008733
330837 0.0000473 -0.0008344 0.9999527 0.0008344 0.9999527 0.0008344 0.0000473 -0.0008344
345986 0.0000464 -0.0007971 0.9999536 0.0007971 0.9999536 0.0007971 0.0000464 -0.0007971
361830 0.0000455 -0.0007613 0.9999545 0.0007613 0.9999545 0.0007613 0.0000455 -0.0007613
378399 0.0000446 -0.0007270 0.9999554 0.0007270 0.9999554 0.0007270 0.0000446 -0.0007270
395726 0.0000438 -0.0006941 0.9999562 0.0006941 0.9999562 0.0006941 0.0000438 -0.0006941
413847 0.0000430 -0.0006625 0.9999570 0.0006625 0.9999570 0.0006625 0.0000430 -0.0006625
432798 0.0000423 -0.0006323 0.9999577 0.0006323 0.9999577 0.0006323 0.0000423 -0.0006323
452617 0.0000416 -0.0006032 0.9999584 0.0006032 0.9999584 0.0006032 0.0000416 -0.0006032
473344 0.0000410 -0.0005753 0.9999590 0.0005753 0.9999590 0.0005753 0.0000410 -0.0005753
495019 0.0000404 -0.0005485 0.9999596 0.0005485 0.9999596 0.0005485 0.0000404 -0.0005485
517687 0.0000398 -0.0005228 0.9999602 0.0005228 0.9999602 0.0005228 0.0000398 -0.0005228
541393 0.0000393 -0.0004981 0.9999607 0.0004981 0.9999607 0.0004981 0.0000393 -0.0004981
566185 0.0000388 -0.0004743 0.9999612 0.0004743 0.9999612 0.0004743 0.0000388 -0.0004743
592111 0.0000383 -0.0004515 0.9999617 0.0004515 0.9999617 0.0004515 0.0000383 -0.0004515
619225 0.0000379 -0.0004296 0.9999621 0.0004296 0.9999621 0.0004296 0.0000379 -0.0004296
647581 0.0000375 -0.0004084 0.9999625 0.0004084 0.9999625 0.0004084 0.0000375 -0.0004084
677235 0.0000371 -0.0003881 0.9999629 0.0003881 0.9999629 0.0003881 0.0000371 -0.0003881
708247 0.0000368 -0.0003685 0.9999632 0.0003685 0.9999632 0.0003685 0.0000368 -0.0003685
740679 0.0000366 -0.0003497 0.9999634 0.0003497 0.9999634 0.0003497 0.0000366 -0.0003497
774597 0.0000363 -0.0003315 0.9999637 0.0003315 0.9999637 0.0003315 0.0000363 -0.0003315
810067 0.0000361 -0.0003140 0.9999639 0.0003140 0.9999639 0.0003140 0.0000361 -0.0003140
847162 0.0000360 -0.0002971 0.9999640 0.0002971 0.9999640 0.0002971 0.0000360 -0.0002971
885955 0.0000358 -0.0002807 0.9999642 0.0002807 0.9999642 0.0002807 0.0000358 -0.0002807
926525 0.0000358 -0.0002650 0.9999642 0.0002650 0.9999642 0.0002650 0.0000358 -0.0002650
968953 0.0000357 -0.0002497 0.9999643 0.0002497 0.9999643 0.0002497 0.0000357 -0.0002497
1013323 0.0000357 -0.0002349 0.9999643 0.0002349 0.9999643 0.0002349 0.0000357 -0.0002349
1059725 0.0000357 -0.0002206 0.9999643 0.0002206 0.9999643 0.0002206 0.0000357 -0.0002206
1108252 0.0000358 -0.0002068 0.9999642 0.0002068 0.9999642 0.0002068 0.0000358 -0.0002068
1159002 0.0000359 -0.0001933 0.9999641 0.0001933 0.9999641 0.0001933 0.0000359 -0.0001933
1212075 0.0000360 -0.0001802 0.9999640 0.0001802 0.9999640 0.0001802 0.0000360 -0.0001802
1267578 0.0000362 -0.0001675 0.9999638 0.0001675 0.9999638 0.0001675 0.0000362 -0.0001675
1325623 0.0000364 -0.0001551 0.9999636 0.0001551 0.9999636 0.0001551 0.0000364 -0.0001551
1386327 0.0000367 -0.0001430 0.9999633 0.0001430 0.9999633 0.0001430 0.0000367 -0.0001430
1449809 0.0000370 -0.0001312 0.9999630 0.0001312 0.9999630 0.0001312 0.0000370 -0.0001312
1516199 0.0000374 -0.0001196 0.9999626 0.0001196 0.9999626 0.0001196 0.0000374 -0.0001196
1585629 0.0000378 -0.0001083 0.9999622 0.0001083 0.9999622 0.0001083 0.0000378 -0.0001083
1658239 0.0000383 -0.0000972 0.9999617 0.0000972 0.9999617 0.0000972 0.0000383 -0.0000972
1734173 0.0000389 -0.0000862 0.9999611 0.0000862 0.9999611 0.0000862 0.0000389 -0.0000862
1813585 0.0000395 -0.0000755 0.9999605 0.0000755 0.9999605 0.0000755 0.0000395 -0.0000755
1896632 0.0000402 -0.0000648 0.9999598 0.0000648 0.9999598 0.0000648 0.0000402 -0.0000648
1983483 0.0000410 -0.0000543 0.9999590 0.0000543 0.9999590 0.0000543 0.0000410 -0.0000543
2074311 0.0000419 -0.0000439 0.9999581 0.0000439 0.9999581 0.0000439 0.0000419 -0.0000439
