!Murata Part Number: GRM21AR72E332KW01
!These Parameters are Measured in Series Mode Connection
!Data Generated on Mar 30, 2021
!       o--ll--o
!Port1            Port2
!       o------o
!Operation Temp=25[degC], DC Bias Voltage=0[V]
!Freq. Start=100[kHz] Stop=6[GHz] 401[Steps]
# Hz S RI R 50
!Freq.(Hz) S11(Real) S11(Imag) S21(Real) S21(Imag) S12(Real) S12(Imag) S22(Real) S22(Imag)
100000 0.9603092 -0.1885179 0.0396908 0.1885179 0.0396908 0.1885179 0.9603092 -0.1885179
102789 0.9582659 -0.1933044 0.0417341 0.1933044 0.0417341 0.1933044 0.9582659 -0.1933044
105655 0.9561190 -0.1981911 0.0438810 0.1981911 0.0438810 0.1981911 0.9561190 -0.1981911
108602 0.9538637 -0.2031781 0.0461363 0.2031781 0.0461363 0.2031781 0.9538637 -0.2031781
111630 0.9514949 -0.2082655 0.0485051 0.2082655 0.0485051 0.2082655 0.9514949 -0.2082655
114743 0.9490075 -0.2134531 0.0509925 0.2134531 0.0509925 0.2134531 0.9490075 -0.2134531
117943 0.9463959 -0.2187406 0.0536041 0.2187406 0.0536041 0.2187406 0.9463959 -0.2187406
121232 0.9436548 -0.2241274 0.0563452 0.2241274 0.0563452 0.2241274 0.9436548 -0.2241274
124613 0.9407783 -0.2296126 0.0592217 0.2296126 0.0592217 0.2296126 0.9407783 -0.2296126
128088 0.9377608 -0.2351951 0.0622392 0.2351951 0.0622392 0.2351951 0.9377608 -0.2351951
131660 0.9345961 -0.2408734 0.0654039 0.2408734 0.0654039 0.2408734 0.9345961 -0.2408734
135332 0.9312782 -0.2466460 0.0687218 0.2466460 0.0687218 0.2466460 0.9312782 -0.2466460
139106 0.9278008 -0.2525106 0.0721992 0.2525106 0.0721992 0.2525106 0.9278008 -0.2525106
142985 0.9241576 -0.2584650 0.0758424 0.2584650 0.0758424 0.2584650 0.9241576 -0.2584650
146972 0.9203421 -0.2645064 0.0796579 0.2645064 0.0796579 0.2645064 0.9203421 -0.2645064
151071 0.9163478 -0.2706315 0.0836522 0.2706315 0.0836522 0.2706315 0.9163478 -0.2706315
155284 0.9121680 -0.2768369 0.0878320 0.2768369 0.0878320 0.2768369 0.9121680 -0.2768369
159614 0.9077961 -0.2831185 0.0922039 0.2831185 0.0922039 0.2831185 0.9077961 -0.2831185
164065 0.9032254 -0.2894719 0.0967746 0.2894719 0.0967746 0.2894719 0.9032254 -0.2894719
168641 0.8984493 -0.2958922 0.1015507 0.2958922 0.1015507 0.2958922 0.8984493 -0.2958922
173344 0.8934612 -0.3023739 0.1065388 0.3023739 0.1065388 0.3023739 0.8934612 -0.3023739
178178 0.8882544 -0.3089112 0.1117456 0.3089112 0.1117456 0.3089112 0.8882544 -0.3089112
183146 0.8828225 -0.3154975 0.1171775 0.3154975 0.1171775 0.3154975 0.8828225 -0.3154975
188254 0.8771591 -0.3221259 0.1228409 0.3221259 0.1228409 0.3221259 0.8771591 -0.3221259
193504 0.8712581 -0.3287888 0.1287419 0.3287888 0.1287419 0.3287888 0.8712581 -0.3287888
198900 0.8651136 -0.3354783 0.1348864 0.3354783 0.1348864 0.3354783 0.8651136 -0.3354783
204447 0.8587197 -0.3421854 0.1412803 0.3421854 0.1412803 0.3421854 0.8587197 -0.3421854
210148 0.8520712 -0.3489012 0.1479288 0.3489012 0.1479288 0.3489012 0.8520712 -0.3489012
216008 0.8451630 -0.3556157 0.1548370 0.3556157 0.1548370 0.3556157 0.8451630 -0.3556157
222032 0.8379904 -0.3623185 0.1620096 0.3623185 0.1620096 0.3623185 0.8379904 -0.3623185
228224 0.8305493 -0.3689988 0.1694507 0.3689988 0.1694507 0.3689988 0.8305493 -0.3689988
234589 0.8228360 -0.3756451 0.1771640 0.3756451 0.1771640 0.3756451 0.8228360 -0.3756451
241130 0.8148473 -0.3822453 0.1851527 0.3822453 0.1851527 0.3822453 0.8148473 -0.3822453
247855 0.8065809 -0.3887870 0.1934191 0.3887870 0.1934191 0.3887870 0.8065809 -0.3887870
254767 0.7980348 -0.3952571 0.2019652 0.3952571 0.2019652 0.3952571 0.7980348 -0.3952571
261871 0.7892080 -0.4016424 0.2107920 0.4016424 0.2107920 0.4016424 0.7892080 -0.4016424
269174 0.7801002 -0.4079289 0.2198998 0.4079289 0.2198998 0.4079289 0.7801002 -0.4079289
276681 0.7707118 -0.4141025 0.2292882 0.4141025 0.2292882 0.4141025 0.7707118 -0.4141025
284397 0.7610444 -0.4201487 0.2389556 0.4201487 0.2389556 0.4201487 0.7610444 -0.4201487
292328 0.7511002 -0.4260529 0.2488998 0.4260529 0.2488998 0.4260529 0.7511002 -0.4260529
300480 0.7408825 -0.4318002 0.2591175 0.4318002 0.2591175 0.4318002 0.7408825 -0.4318002
308859 0.7303956 -0.4373756 0.2696044 0.4373756 0.2696044 0.4373756 0.7303956 -0.4373756
317472 0.7196448 -0.4427642 0.2803552 0.4427642 0.2803552 0.4427642 0.7196448 -0.4427642
326326 0.7086366 -0.4479510 0.2913634 0.4479510 0.2913634 0.4479510 0.7086366 -0.4479510
335426 0.6973783 -0.4529213 0.3026217 0.4529213 0.3026217 0.4529213 0.6973783 -0.4529213
344780 0.6858784 -0.4576605 0.3141216 0.4576605 0.3141216 0.4576605 0.6858784 -0.4576605
354395 0.6741466 -0.4621544 0.3258534 0.4621544 0.3258534 0.4621544 0.6741466 -0.4621544
364278 0.6621935 -0.4663892 0.3378065 0.4663892 0.3378065 0.4663892 0.6621935 -0.4663892
374436 0.6500309 -0.4703516 0.3499691 0.4703516 0.3499691 0.4703516 0.6500309 -0.4703516
384878 0.6376714 -0.4740289 0.3623286 0.4740289 0.3623286 0.4740289 0.6376714 -0.4740289
395611 0.6251287 -0.4774092 0.3748713 0.4774092 0.3748713 0.4774092 0.6251287 -0.4774092
406644 0.6124175 -0.4804812 0.3875825 0.4804812 0.3875825 0.4804812 0.6124175 -0.4804812
417984 0.5995533 -0.4832347 0.4004467 0.4832347 0.4004467 0.4832347 0.5995533 -0.4832347
429640 0.5865524 -0.4856602 0.4134476 0.4856602 0.4134476 0.4856602 0.5865524 -0.4856602
441622 0.5734318 -0.4877494 0.4265682 0.4877494 0.4265682 0.4877494 0.5734318 -0.4877494
453937 0.5602093 -0.4894950 0.4397907 0.4894950 0.4397907 0.4894950 0.5602093 -0.4894950
466596 0.5469030 -0.4908909 0.4530970 0.4908909 0.4530970 0.4908909 0.5469030 -0.4908909
479608 0.5335317 -0.4919323 0.4664683 0.4919323 0.4664683 0.4919323 0.5335317 -0.4919323
492983 0.5201145 -0.4926155 0.4798855 0.4926155 0.4798855 0.4926155 0.5201145 -0.4926155
506731 0.5066706 -0.4929380 0.4933294 0.4929380 0.4933294 0.4929380 0.5066706 -0.4929380
520862 0.4932196 -0.4928989 0.5067804 0.4928989 0.5067804 0.4928989 0.4932196 -0.4928989
535387 0.4797810 -0.4924983 0.5202190 0.4924983 0.5202190 0.4924983 0.4797810 -0.4924983
550318 0.4663741 -0.4917377 0.5336259 0.4917377 0.5336259 0.4917377 0.4663741 -0.4917377
565664 0.4530183 -0.4906200 0.5469817 0.4906200 0.5469817 0.4906200 0.4530183 -0.4906200
581439 0.4397323 -0.4891492 0.5602677 0.4891492 0.5602677 0.4891492 0.4397323 -0.4891492
597654 0.4265349 -0.4873305 0.5734651 0.4873305 0.5734651 0.4873305 0.4265349 -0.4873305
614320 0.4134441 -0.4851706 0.5865559 0.4851706 0.5865559 0.4851706 0.4134441 -0.4851706
631452 0.4004772 -0.4826768 0.5995228 0.4826768 0.5995228 0.4826768 0.4004772 -0.4826768
649061 0.3876511 -0.4798580 0.6123489 0.4798580 0.6123489 0.4798580 0.3876511 -0.4798580
667162 0.3749818 -0.4767238 0.6250182 0.4767238 0.6250182 0.4767238 0.3749818 -0.4767238
685767 0.3624845 -0.4732847 0.6375155 0.4732847 0.6375155 0.4732847 0.3624845 -0.4732847
704891 0.3501735 -0.4695522 0.6498265 0.4695522 0.6498265 0.4695522 0.3501735 -0.4695522
724548 0.3380621 -0.4655385 0.6619379 0.4655385 0.6619379 0.4655385 0.3380621 -0.4655385
744754 0.3261628 -0.4612563 0.6738372 0.4612563 0.6738372 0.4612563 0.3261628 -0.4612563
765523 0.3144868 -0.4567190 0.6855132 0.4567190 0.6855132 0.4567190 0.3144868 -0.4567190
786871 0.3030445 -0.4519405 0.6969555 0.4519405 0.6969555 0.4519405 0.3030445 -0.4519405
808814 0.2918452 -0.4469352 0.7081548 0.4469352 0.7081548 0.4469352 0.2918452 -0.4469352
831370 0.2808969 -0.4417174 0.7191031 0.4417174 0.7191031 0.4417174 0.2808969 -0.4417174
854554 0.2702068 -0.4363020 0.7297932 0.4363020 0.7297932 0.4363020 0.2702068 -0.4363020
878385 0.2597809 -0.4307038 0.7402191 0.4307038 0.7402191 0.4307038 0.2597809 -0.4307038
902880 0.2496243 -0.4249377 0.7503757 0.4249377 0.7503757 0.4249377 0.2496243 -0.4249377
928059 0.2397410 -0.4190187 0.7602590 0.4190187 0.7602590 0.4190187 0.2397410 -0.4190187
953940 0.2301340 -0.4129613 0.7698660 0.4129613 0.7698660 0.4129613 0.2301340 -0.4129613
980542 0.2208053 -0.4067802 0.7791947 0.4067802 0.7791947 0.4067802 0.2208053 -0.4067802
1007887 0.2117562 -0.4004896 0.7882438 0.4004896 0.7882438 0.4004896 0.2117562 -0.4004896
1035994 0.2029869 -0.3941036 0.7970131 0.3941036 0.7970131 0.3941036 0.2029869 -0.3941036
1064885 0.1944969 -0.3876358 0.8055031 0.3876358 0.8055031 0.3876358 0.1944969 -0.3876358
1094581 0.1862850 -0.3810994 0.8137150 0.3810994 0.8137150 0.3810994 0.1862850 -0.3810994
1125106 0.1783493 -0.3745071 0.8216507 0.3745071 0.8216507 0.3745071 0.1783493 -0.3745071
1156481 0.1706870 -0.3678714 0.8293130 0.3678714 0.8293130 0.3678714 0.1706870 -0.3678714
1188732 0.1632951 -0.3612039 0.8367049 0.3612039 0.8367049 0.3612039 0.1632951 -0.3612039
1221882 0.1561696 -0.3545160 0.8438304 0.3545160 0.8438304 0.3545160 0.1561696 -0.3545160
1255957 0.1493064 -0.3478184 0.8506936 0.3478184 0.8506936 0.3478184 0.1493064 -0.3478184
1290982 0.1427007 -0.3411213 0.8572993 0.3411213 0.8572993 0.3411213 0.1427007 -0.3411213
1326984 0.1363476 -0.3344343 0.8636524 0.3344343 0.8636524 0.3344343 0.1363476 -0.3344343
1363989 0.1302414 -0.3277665 0.8697586 0.3277665 0.8697586 0.3277665 0.1302414 -0.3277665
1402027 0.1243766 -0.3211262 0.8756234 0.3211262 0.8756234 0.3211262 0.1243766 -0.3211262
1441125 0.1187472 -0.3145216 0.8812528 0.3145216 0.8812528 0.3145216 0.1187472 -0.3145216
1481314 0.1133469 -0.3079598 0.8866531 0.3079598 0.8866531 0.3079598 0.1133469 -0.3079598
1522623 0.1081696 -0.3014477 0.8918304 0.3014477 0.8918304 0.3014477 0.1081696 -0.3014477
1565085 0.1032087 -0.2949917 0.8967913 0.2949917 0.8967913 0.2949917 0.1032087 -0.2949917
1608730 0.0984577 -0.2885975 0.9015423 0.2885975 0.9015423 0.2885975 0.0984577 -0.2885975
1653593 0.0939099 -0.2822704 0.9060901 0.2822704 0.9060901 0.2822704 0.0939099 -0.2822704
1699707 0.0895589 -0.2760151 0.9104411 0.2760151 0.9104411 0.2760151 0.0895589 -0.2760151
1747106 0.0853979 -0.2698360 0.9146021 0.2698360 0.9146021 0.2698360 0.0853979 -0.2698360
1795828 0.0814204 -0.2637370 0.9185796 0.2637370 0.9185796 0.2637370 0.0814204 -0.2637370
1845908 0.0776198 -0.2577215 0.9223802 0.2577215 0.9223802 0.2577215 0.0776198 -0.2577215
1897385 0.0739897 -0.2517925 0.9260103 0.2517925 0.9260103 0.2517925 0.0739897 -0.2517925
1950297 0.0705237 -0.2459527 0.9294763 0.2459527 0.9294763 0.2459527 0.0705237 -0.2459527
2004685 0.0672155 -0.2402045 0.9327845 0.2402045 0.9327845 0.2402045 0.0672155 -0.2402045
2060590 0.0640589 -0.2345497 0.9359411 0.2345497 0.9359411 0.2345497 0.0640589 -0.2345497
2118054 0.0610479 -0.2289900 0.9389521 0.2289900 0.9389521 0.2289900 0.0610479 -0.2289900
2177120 0.0581766 -0.2235267 0.9418234 0.2235267 0.9418234 0.2235267 0.0581766 -0.2235267
2237833 0.0554393 -0.2181610 0.9445607 0.2181610 0.9445607 0.2181610 0.0554393 -0.2181610
2300240 0.0528303 -0.2128935 0.9471697 0.2128935 0.9471697 0.2128935 0.0528303 -0.2128935
2364387 0.0503442 -0.2077248 0.9496558 0.2077248 0.9496558 0.2077248 0.0503442 -0.2077248
2430322 0.0479758 -0.2026553 0.9520242 0.2026553 0.9520242 0.2026553 0.0479758 -0.2026553
2498097 0.0457200 -0.1976851 0.9542800 0.1976851 0.9542800 0.1976851 0.0457200 -0.1976851
2567761 0.0435717 -0.1928140 0.9564283 0.1928140 0.9564283 0.1928140 0.0435717 -0.1928140
2639368 0.0415262 -0.1880419 0.9584738 0.1880419 0.9584738 0.1880419 0.0415262 -0.1880419
2712972 0.0395790 -0.1833683 0.9604210 0.1833683 0.9604210 0.1833683 0.0395790 -0.1833683
2788629 0.0377256 -0.1787927 0.9622744 0.1787927 0.9622744 0.1787927 0.0377256 -0.1787927
2866396 0.0359617 -0.1743143 0.9640383 0.1743143 0.9640383 0.1743143 0.0359617 -0.1743143
2946331 0.0342832 -0.1699325 0.9657168 0.1699325 0.9657168 0.1699325 0.0342832 -0.1699325
3028495 0.0326861 -0.1656461 0.9673139 0.1656461 0.9673139 0.1656461 0.0326861 -0.1656461
3112951 0.0311668 -0.1614544 0.9688332 0.1614544 0.9688332 0.1614544 0.0311668 -0.1614544
3199762 0.0297216 -0.1573561 0.9702784 0.1573561 0.9702784 0.1573561 0.0297216 -0.1573561
3288994 0.0283469 -0.1533501 0.9716531 0.1533501 0.9716531 0.1533501 0.0283469 -0.1533501
3380714 0.0270395 -0.1494351 0.9729605 0.1494351 0.9729605 0.1494351 0.0270395 -0.1494351
3474992 0.0257963 -0.1456100 0.9742037 0.1456100 0.9742037 0.1456100 0.0257963 -0.1456100
3571899 0.0246140 -0.1418733 0.9753860 0.1418733 0.9753860 0.1418733 0.0246140 -0.1418733
3671508 0.0234899 -0.1382236 0.9765101 0.1382236 0.9765101 0.1382236 0.0234899 -0.1382236
3773896 0.0224211 -0.1346596 0.9775789 0.1346596 0.9775789 0.1346596 0.0224211 -0.1346596
3879139 0.0214050 -0.1311798 0.9785950 0.1311798 0.9785950 0.1311798 0.0214050 -0.1311798
3987316 0.0204391 -0.1277827 0.9795609 0.1277827 0.9795609 0.1277827 0.0204391 -0.1277827
4098510 0.0195209 -0.1244669 0.9804791 0.1244669 0.9804791 0.1244669 0.0195209 -0.1244669
4212806 0.0186482 -0.1212309 0.9813518 0.1212309 0.9813518 0.1212309 0.0186482 -0.1212309
4330288 0.0178187 -0.1180732 0.9821813 0.1180732 0.9821813 0.1180732 0.0178187 -0.1180732
4451047 0.0170303 -0.1149922 0.9829697 0.1149922 0.9829697 0.1149922 0.0170303 -0.1149922
4575173 0.0162811 -0.1119865 0.9837189 0.1119865 0.9837189 0.1119865 0.0162811 -0.1119865
4702761 0.0155691 -0.1090545 0.9844309 0.1090545 0.9844309 0.1090545 0.0155691 -0.1090545
4833907 0.0148925 -0.1061948 0.9851075 0.1061948 0.9851075 0.1061948 0.0148925 -0.1061948
4968711 0.0142496 -0.1034058 0.9857504 0.1034058 0.9857504 0.1034058 0.0142496 -0.1034058
5107273 0.0136388 -0.1006862 0.9863612 0.1006862 0.9863612 0.1006862 0.0136388 -0.1006862
5249700 0.0130584 -0.0980343 0.9869416 0.0980343 0.9869416 0.0980343 0.0130584 -0.0980343
5396098 0.0125070 -0.0954487 0.9874930 0.0954487 0.9874930 0.0954487 0.0125070 -0.0954487
5546579 0.0119831 -0.0929281 0.9880169 0.0929281 0.9880169 0.0929281 0.0119831 -0.0929281
5701257 0.0114853 -0.0904709 0.9885147 0.0904709 0.9885147 0.0904709 0.0114853 -0.0904709
5860248 0.0110125 -0.0880758 0.9889875 0.0880758 0.9889875 0.0880758 0.0110125 -0.0880758
6023672 0.0105633 -0.0857413 0.9894367 0.0857413 0.9894367 0.0857413 0.0105633 -0.0857413
6191655 0.0101366 -0.0834661 0.9898634 0.0834661 0.9898634 0.0834661 0.0101366 -0.0834661
6364321 0.0097312 -0.0812488 0.9902688 0.0812488 0.9902688 0.0812488 0.0097312 -0.0812488
6541803 0.0093461 -0.0790882 0.9906539 0.0790882 0.9906539 0.0790882 0.0093461 -0.0790882
6724235 0.0089803 -0.0769827 0.9910197 0.0769827 0.9910197 0.0769827 0.0089803 -0.0769827
6911753 0.0086328 -0.0749313 0.9913672 0.0749313 0.9913672 0.0749313 0.0086328 -0.0749313
7104501 0.0083026 -0.0729325 0.9916974 0.0729325 0.9916974 0.0729325 0.0083026 -0.0729325
7302625 0.0079890 -0.0709852 0.9920110 0.0709852 0.9920110 0.0709852 0.0079890 -0.0709852
7506273 0.0076910 -0.0690881 0.9923090 0.0690881 0.9923090 0.0690881 0.0076910 -0.0690881
7715601 0.0074078 -0.0672399 0.9925922 0.0672399 0.9925922 0.0672399 0.0074078 -0.0672399
7930766 0.0071388 -0.0654396 0.9928612 0.0654396 0.9928612 0.0654396 0.0071388 -0.0654396
8151931 0.0068831 -0.0636859 0.9931169 0.0636859 0.9931169 0.0636859 0.0068831 -0.0636859
8379264 0.0066402 -0.0619777 0.9933598 0.0619777 0.9933598 0.0619777 0.0066402 -0.0619777
8612937 0.0064093 -0.0603138 0.9935907 0.0603138 0.9935907 0.0603138 0.0064093 -0.0603138
8853126 0.0061898 -0.0586931 0.9938102 0.0586931 0.9938102 0.0586931 0.0061898 -0.0586931
9100013 0.0059811 -0.0571147 0.9940189 0.0571147 0.9940189 0.0571147 0.0059811 -0.0571147
9353785 0.0057826 -0.0555773 0.9942174 0.0555773 0.9942174 0.0555773 0.0057826 -0.0555773
9614634 0.0055939 -0.0540799 0.9944061 0.0540799 0.9944061 0.0540799 0.0055939 -0.0540799
9882758 0.0054144 -0.0526216 0.9945856 0.0526216 0.9945856 0.0526216 0.0054144 -0.0526216
10158358 0.0052436 -0.0512014 0.9947564 0.0512014 0.9947564 0.0512014 0.0052436 -0.0512014
10441645 0.0050811 -0.0498181 0.9949189 0.0498181 0.9949189 0.0498181 0.0050811 -0.0498181
10732831 0.0049264 -0.0484710 0.9950736 0.0484710 0.9950736 0.0484710 0.0049264 -0.0484710
11032137 0.0047791 -0.0471590 0.9952209 0.0471590 0.9952209 0.0471590 0.0047791 -0.0471590
11339791 0.0046388 -0.0458812 0.9953612 0.0458812 0.9953612 0.0458812 0.0046388 -0.0458812
11656024 0.0045052 -0.0446367 0.9954948 0.0446367 0.9954948 0.0446367 0.0045052 -0.0446367
11981075 0.0043778 -0.0434247 0.9956222 0.0434247 0.9956222 0.0434247 0.0043778 -0.0434247
12315192 0.0042564 -0.0422442 0.9957436 0.0422442 0.9957436 0.0422442 0.0042564 -0.0422442
12658625 0.0041406 -0.0410945 0.9958594 0.0410945 0.9958594 0.0410945 0.0041406 -0.0410945
13011637 0.0040301 -0.0399746 0.9959699 0.0399746 0.9959699 0.0399746 0.0040301 -0.0399746
13374492 0.0039246 -0.0388839 0.9960754 0.0388839 0.9960754 0.0388839 0.0039246 -0.0388839
13747467 0.0038240 -0.0378214 0.9961760 0.0378214 0.9961760 0.0378214 0.0038240 -0.0378214
14130843 0.0037278 -0.0367864 0.9962722 0.0367864 0.9962722 0.0367864 0.0037278 -0.0367864
14524910 0.0036359 -0.0357782 0.9963641 0.0357782 0.9963641 0.0357782 0.0036359 -0.0357782
14929966 0.0035480 -0.0347960 0.9964520 0.0347960 0.9964520 0.0347960 0.0035480 -0.0347960
15346318 0.0034640 -0.0338392 0.9965360 0.0338392 0.9965360 0.0338392 0.0034640 -0.0338392
15774281 0.0033836 -0.0329069 0.9966164 0.0329069 0.9966164 0.0329069 0.0033836 -0.0329069
16214179 0.0033066 -0.0319985 0.9966934 0.0319985 0.9966934 0.0319985 0.0033066 -0.0319985
16666344 0.0032328 -0.0311134 0.9967672 0.0311134 0.9967672 0.0311134 0.0032328 -0.0311134
17131118 0.0031622 -0.0302508 0.9968378 0.0302508 0.9968378 0.0302508 0.0031622 -0.0302508
17608854 0.0030944 -0.0294102 0.9969056 0.0294102 0.9969056 0.0294102 0.0030944 -0.0294102
18099912 0.0030294 -0.0285908 0.9969706 0.0285908 0.9969706 0.0285908 0.0030294 -0.0285908
18604665 0.0029671 -0.0277922 0.9970329 0.0277922 0.9970329 0.0277922 0.0029671 -0.0277922
19123493 0.0029073 -0.0270137 0.9970927 0.0270137 0.9970927 0.0270137 0.0029073 -0.0270137
19656790 0.0028498 -0.0262547 0.9971502 0.0262547 0.9971502 0.0262547 0.0028498 -0.0262547
20204959 0.0027946 -0.0255147 0.9972054 0.0255147 0.9972054 0.0255147 0.0027946 -0.0255147
20768415 0.0027416 -0.0247931 0.9972584 0.0247931 0.9972584 0.0247931 0.0027416 -0.0247931
21347584 0.0026906 -0.0240894 0.9973094 0.0240894 0.9973094 0.0240894 0.0026906 -0.0240894
21942904 0.0026415 -0.0234030 0.9973585 0.0234030 0.9973585 0.0234030 0.0026415 -0.0234030
22554827 0.0025944 -0.0227334 0.9974056 0.0227334 0.9974056 0.0227334 0.0025944 -0.0227334
23183813 0.0025490 -0.0220802 0.9974510 0.0220802 0.9974510 0.0220802 0.0025490 -0.0220802
23830340 0.0025053 -0.0214429 0.9974947 0.0214429 0.9974947 0.0214429 0.0025053 -0.0214429
24494897 0.0024633 -0.0208209 0.9975367 0.0208209 0.9975367 0.0208209 0.0024633 -0.0208209
25177987 0.0024228 -0.0202139 0.9975772 0.0202139 0.9975772 0.0202139 0.0024228 -0.0202139
25880126 0.0023838 -0.0196214 0.9976162 0.0196214 0.9976162 0.0196214 0.0023838 -0.0196214
26601845 0.0023463 -0.0190429 0.9976537 0.0190429 0.9976537 0.0190429 0.0023463 -0.0190429
27343691 0.0023101 -0.0184780 0.9976899 0.0184780 0.9976899 0.0184780 0.0023101 -0.0184780
28106225 0.0022753 -0.0179263 0.9977247 0.0179263 0.9977247 0.0179263 0.0022753 -0.0179263
28890023 0.0022418 -0.0173875 0.9977582 0.0173875 0.9977582 0.0173875 0.0022418 -0.0173875
29695680 0.0022095 -0.0168610 0.9977905 0.0168610 0.9977905 0.0168610 0.0022095 -0.0168610
30523804 0.0021784 -0.0163466 0.9978216 0.0163466 0.9978216 0.0163466 0.0021784 -0.0163466
31375021 0.0021484 -0.0158439 0.9978516 0.0158439 0.9978516 0.0158439 0.0021484 -0.0158439
32249977 0.0021195 -0.0153524 0.9978805 0.0153524 0.9978805 0.0153524 0.0021195 -0.0153524
33149332 0.0020917 -0.0148719 0.9979083 0.0148719 0.9979083 0.0148719 0.0020917 -0.0148719
34073768 0.0020649 -0.0144019 0.9979351 0.0144019 0.9979351 0.0144019 0.0020649 -0.0144019
35023984 0.0020392 -0.0139422 0.9979608 0.0139422 0.9979608 0.0139422 0.0020392 -0.0139422
36000698 0.0020143 -0.0134925 0.9979857 0.0134925 0.9979857 0.0134925 0.0020143 -0.0134925
37004650 0.0019905 -0.0130523 0.9980095 0.0130523 0.9980095 0.0130523 0.0019905 -0.0130523
38036599 0.0019675 -0.0126214 0.9980325 0.0126214 0.9980325 0.0126214 0.0019675 -0.0126214
39097326 0.0019453 -0.0121995 0.9980547 0.0121995 0.9980547 0.0121995 0.0019453 -0.0121995
