!Murata Part Number: GRM21BC81E225KA12
!These Parameters are Measured in Series Mode Connection
!Data Generated on Mar 30, 2021
!       o--ll--o
!Port1            Port2
!       o------o
!Operation Temp=25[degC], DC Bias Voltage=0[V]
!Freq. Start=100[Hz] Stop=6[GHz] 401[Steps]
# Hz S RI R 50
!Freq.(Hz) S11(Real) S11(Imag) S21(Real) S21(Imag) S12(Real) S12(Imag) S22(Real) S22(Imag)
100 0.9883034 -0.0962809 0.0116966 0.0962809 0.0116966 0.0962809 0.9883034 -0.0962809
105 0.9873711 -0.1005382 0.0126289 0.1005382 0.0126289 0.1005382 0.9873711 -0.1005382
109 0.9863563 -0.1049762 0.0136437 0.1049762 0.0136437 0.1049762 0.9863563 -0.1049762
114 0.9852517 -0.1096009 0.0147483 0.1096009 0.0147483 0.1096009 0.9852517 -0.1096009
120 0.9840493 -0.1144186 0.0159507 0.1144186 0.0159507 0.1144186 0.9840493 -0.1144186
125 0.9827407 -0.1194354 0.0172593 0.1194354 0.0172593 0.1194354 0.9827407 -0.1194354
131 0.9813168 -0.1246572 0.0186832 0.1246572 0.0186832 0.1246572 0.9813168 -0.1246572
137 0.9797677 -0.1300901 0.0202323 0.1300901 0.0202323 0.1300901 0.9797677 -0.1300901
143 0.9780828 -0.1357399 0.0219172 0.1357399 0.0219172 0.1357399 0.9780828 -0.1357399
150 0.9762510 -0.1416120 0.0237490 0.1416120 0.0237490 0.1416120 0.9762510 -0.1416120
156 0.9742600 -0.1477117 0.0257400 0.1477117 0.0257400 0.1477117 0.9742600 -0.1477117
164 0.9720969 -0.1540441 0.0279031 0.1540441 0.0279031 0.1540441 0.9720969 -0.1540441
171 0.9697479 -0.1606135 0.0302521 0.1606135 0.0302521 0.1606135 0.9697479 -0.1606135
179 0.9671983 -0.1674240 0.0328017 0.1674240 0.0328017 0.1674240 0.9671983 -0.1674240
187 0.9644326 -0.1744790 0.0355674 0.1744790 0.0355674 0.1744790 0.9644326 -0.1744790
196 0.9614341 -0.1817812 0.0385659 0.1817812 0.0385659 0.1817812 0.9614341 -0.1817812
205 0.9581855 -0.1893323 0.0418145 0.1893323 0.0418145 0.1893323 0.9581855 -0.1893323
214 0.9546682 -0.1971335 0.0453318 0.1971335 0.0453318 0.1971335 0.9546682 -0.1971335
224 0.9508629 -0.2051844 0.0491371 0.2051844 0.0491371 0.2051844 0.9508629 -0.2051844
234 0.9467493 -0.2134839 0.0532507 0.2134839 0.0532507 0.2134839 0.9467493 -0.2134839
245 0.9423062 -0.2220292 0.0576938 0.2220292 0.0576938 0.2220292 0.9423062 -0.2220292
256 0.9375115 -0.2308162 0.0624885 0.2308162 0.0624885 0.2308162 0.9375115 -0.2308162
268 0.9323424 -0.2398390 0.0676576 0.2398390 0.0676576 0.2398390 0.9323424 -0.2398390
280 0.9267754 -0.2490899 0.0732246 0.2490899 0.0732246 0.2490899 0.9267754 -0.2490899
293 0.9207862 -0.2585593 0.0792138 0.2585593 0.0792138 0.2585593 0.9207862 -0.2585593
306 0.9143502 -0.2682354 0.0856498 0.2682354 0.0856498 0.2682354 0.9143502 -0.2682354
320 0.9074423 -0.2781039 0.0925577 0.2781039 0.0925577 0.2781039 0.9074423 -0.2781039
335 0.9000372 -0.2881481 0.0999628 0.2881481 0.0999628 0.2881481 0.9000372 -0.2881481
350 0.8921097 -0.2983485 0.1078903 0.2983485 0.1078903 0.2983485 0.8921097 -0.2983485
366 0.8836350 -0.3086829 0.1163650 0.3086829 0.1163650 0.3086829 0.8836350 -0.3086829
383 0.8745884 -0.3191258 0.1254116 0.3191258 0.1254116 0.3191258 0.8745884 -0.3191258
401 0.8649464 -0.3296487 0.1350536 0.3296487 0.1350536 0.3296487 0.8649464 -0.3296487
419 0.8546865 -0.3402197 0.1453135 0.3402197 0.1453135 0.3402197 0.8546865 -0.3402197
438 0.8437878 -0.3508036 0.1562122 0.3508036 0.1562122 0.3508036 0.8437878 -0.3508036
458 0.8322315 -0.3613617 0.1677685 0.3613617 0.1677685 0.3613617 0.8322315 -0.3613617
479 0.8200010 -0.3718518 0.1799990 0.3718518 0.1799990 0.3718518 0.8200010 -0.3718518
501 0.8070829 -0.3822284 0.1929171 0.3822284 0.1929171 0.3822284 0.8070829 -0.3822284
524 0.7934672 -0.3924428 0.2065328 0.3924428 0.2065328 0.3924428 0.7934672 -0.3924428
548 0.7791480 -0.4024430 0.2208520 0.4024430 0.2208520 0.4024430 0.7791480 -0.4024430
573 0.7641238 -0.4121745 0.2358762 0.4121745 0.2358762 0.4121745 0.7641238 -0.4121745
600 0.7483985 -0.4215804 0.2516015 0.4215804 0.2516015 0.4215804 0.7483985 -0.4215804
627 0.7319817 -0.4306019 0.2680183 0.4306019 0.2680183 0.4306019 0.7319817 -0.4306019
656 0.7148890 -0.4391789 0.2851110 0.4391789 0.2851110 0.4391789 0.7148890 -0.4391789
686 0.6971426 -0.4472511 0.3028574 0.4472511 0.3028574 0.4472511 0.6971426 -0.4472511
717 0.6787717 -0.4547583 0.3212283 0.4547583 0.3212283 0.4547583 0.6787717 -0.4547583
750 0.6598126 -0.4616415 0.3401874 0.4616415 0.3401874 0.4616415 0.6598126 -0.4616415
784 0.6403087 -0.4678442 0.3596913 0.4678442 0.3596913 0.4678442 0.6403087 -0.4678442
820 0.6203103 -0.4733130 0.3796897 0.4733130 0.3796897 0.4733130 0.6203103 -0.4733130
858 0.5998748 -0.4779989 0.4001252 0.4779989 0.4001252 0.4779989 0.5998748 -0.4779989
897 0.5790656 -0.4818582 0.4209344 0.4818582 0.4209344 0.4818582 0.5790656 -0.4818582
938 0.5579518 -0.4848535 0.4420482 0.4848535 0.4420482 0.4848535 0.5579518 -0.4848535
981 0.5366075 -0.4869547 0.4633925 0.4869547 0.4633925 0.4869547 0.5366075 -0.4869547
1026 0.5151104 -0.4881396 0.4848896 0.4881396 0.4848896 0.4881396 0.5151104 -0.4881396
1073 0.4935411 -0.4883945 0.5064589 0.4883945 0.5064589 0.4883945 0.4935411 -0.4883945
1122 0.4719815 -0.4877145 0.5280185 0.4877145 0.5280185 0.4877145 0.4719815 -0.4877145
1174 0.4505139 -0.4861039 0.5494861 0.4861039 0.5494861 0.4861039 0.4505139 -0.4861039
1227 0.4292195 -0.4835761 0.5707805 0.4835761 0.5707805 0.4835761 0.4292195 -0.4835761
1283 0.4081771 -0.4801531 0.5918229 0.4801531 0.5918229 0.4801531 0.4081771 -0.4801531
1342 0.3874620 -0.4758651 0.6125380 0.4758651 0.6125380 0.4758651 0.3874620 -0.4758651
1404 0.3671450 -0.4707503 0.6328550 0.4707503 0.6328550 0.4707503 0.3671450 -0.4707503
1468 0.3472910 -0.4648534 0.6527090 0.4648534 0.6527090 0.4648534 0.3472910 -0.4648534
1535 0.3279590 -0.4582250 0.6720410 0.4582250 0.6720410 0.4582250 0.3279590 -0.4582250
1606 0.3092008 -0.4509206 0.6907992 0.4509206 0.6907992 0.4509206 0.3092008 -0.4509206
1679 0.2910609 -0.4429994 0.7089391 0.4429994 0.7089391 0.4429994 0.2910609 -0.4429994
1756 0.2735763 -0.4345232 0.7264237 0.4345232 0.7264237 0.4345232 0.2735763 -0.4345232
1836 0.2567765 -0.4255556 0.7432235 0.4255556 0.7432235 0.4255556 0.2567765 -0.4255556
1920 0.2406832 -0.4161604 0.7593168 0.4161604 0.7593168 0.4161604 0.2406832 -0.4161604
2008 0.2253113 -0.4064012 0.7746887 0.4064012 0.7746887 0.4064012 0.2253113 -0.4064012
2100 0.2106687 -0.3963403 0.7893313 0.3963403 0.7893313 0.3963403 0.2106687 -0.3963403
2196 0.1967572 -0.3860378 0.8032428 0.3860378 0.8032428 0.3860378 0.1967572 -0.3860378
2297 0.1835727 -0.3755515 0.8164273 0.3755515 0.8164273 0.3755515 0.1835727 -0.3755515
2402 0.1711061 -0.3649359 0.8288939 0.3649359 0.8288939 0.3649359 0.1711061 -0.3649359
2512 0.1593439 -0.3542419 0.8406561 0.3542419 0.8406561 0.3542419 0.1593439 -0.3542419
2627 0.1482685 -0.3435167 0.8517315 0.3435167 0.8517315 0.3435167 0.1482685 -0.3435167
2748 0.1378596 -0.3328036 0.8621404 0.3328036 0.8621404 0.3328036 0.1378596 -0.3328036
2873 0.1280940 -0.3221418 0.8719060 0.3221418 0.8719060 0.3221418 0.1280940 -0.3221418
3005 0.1189464 -0.3115663 0.8810536 0.3115663 0.8810536 0.3115663 0.1189464 -0.3115663
3143 0.1103904 -0.3011085 0.8896096 0.3011085 0.8896096 0.3011085 0.1103904 -0.3011085
3287 0.1023984 -0.2907956 0.8976016 0.2907956 0.8976016 0.2907956 0.1023984 -0.2907956
3437 0.0949422 -0.2806512 0.9050578 0.2806512 0.9050578 0.2806512 0.0949422 -0.2806512
3594 0.0879935 -0.2706956 0.9120065 0.2706956 0.9120065 0.2706956 0.0879935 -0.2706956
3759 0.0815241 -0.2609457 0.9184759 0.2609457 0.9184759 0.2609457 0.0815241 -0.2609457
3931 0.0755062 -0.2514154 0.9244938 0.2514154 0.9244938 0.2514154 0.0755062 -0.2514154
4111 0.0699127 -0.2421159 0.9300873 0.2421159 0.9300873 0.2421159 0.0699127 -0.2421159
4299 0.0647171 -0.2330560 0.9352829 0.2330560 0.9352829 0.2330560 0.0647171 -0.2330560
4496 0.0598942 -0.2242420 0.9401058 0.2242420 0.9401058 0.2242420 0.0598942 -0.2242420
4702 0.0554195 -0.2156784 0.9445805 0.2156784 0.9445805 0.2156784 0.0554195 -0.2156784
4918 0.0512700 -0.2073680 0.9487300 0.2073680 0.9487300 0.2073680 0.0512700 -0.2073680
5143 0.0474236 -0.1993117 0.9525764 0.1993117 0.9525764 0.1993117 0.0474236 -0.1993117
5378 0.0438594 -0.1915094 0.9561406 0.1915094 0.9561406 0.1915094 0.0438594 -0.1915094
5625 0.0405579 -0.1839599 0.9594421 0.1839599 0.9594421 0.1839599 0.0405579 -0.1839599
5882 0.0375007 -0.1766606 0.9624993 0.1766606 0.9624993 0.1766606 0.0375007 -0.1766606
6151 0.0346705 -0.1696085 0.9653295 0.1696085 0.9653295 0.1696085 0.0346705 -0.1696085
6433 0.0320512 -0.1627998 0.9679488 0.1627998 0.9679488 0.1627998 0.0320512 -0.1627998
6728 0.0296277 -0.1562300 0.9703723 0.1562300 0.9703723 0.1562300 0.0296277 -0.1562300
7036 0.0273860 -0.1498944 0.9726140 0.1498944 0.9726140 0.1498944 0.0273860 -0.1498944
7358 0.0253130 -0.1437878 0.9746870 0.1437878 0.9746870 0.1437878 0.0253130 -0.1437878
7695 0.0233965 -0.1379047 0.9766035 0.1379047 0.9766035 0.1379047 0.0233965 -0.1379047
8047 0.0216252 -0.1322395 0.9783748 0.1322395 0.9783748 0.1322395 0.0216252 -0.1322395
8416 0.0199886 -0.1267865 0.9800114 0.1267865 0.9800114 0.1267865 0.0199886 -0.1267865
8801 0.0184769 -0.1215397 0.9815231 0.1215397 0.9815231 0.1215397 0.0184769 -0.1215397
9204 0.0170809 -0.1164932 0.9829191 0.1164932 0.9829191 0.1164932 0.0170809 -0.1164932
9626 0.0157923 -0.1116411 0.9842077 0.1116411 0.9842077 0.1116411 0.0157923 -0.1116411
10066 0.0146032 -0.1069775 0.9853968 0.1069775 0.9853968 0.1069775 0.0146032 -0.1069775
10527 0.0135061 -0.1024965 0.9864939 0.1024965 0.9864939 0.1024965 0.0135061 -0.1024965
11009 0.0124943 -0.0981923 0.9875057 0.0981923 0.9875057 0.0981923 0.0124943 -0.0981923
11514 0.0115615 -0.0940590 0.9884385 0.0940590 0.9884385 0.0940590 0.0115615 -0.0940590
12041 0.0107017 -0.0900911 0.9892983 0.0900911 0.9892983 0.0900911 0.0107017 -0.0900911
12592 0.0099094 -0.0862829 0.9900906 0.0862829 0.9900906 0.0862829 0.0099094 -0.0862829
13169 0.0091795 -0.0826289 0.9908205 0.0826289 0.9908205 0.0826289 0.0091795 -0.0826289
13772 0.0085073 -0.0791238 0.9914927 0.0791238 0.9914927 0.0791238 0.0085073 -0.0791238
14402 0.0078883 -0.0757622 0.9921117 0.0757622 0.9921117 0.0757622 0.0078883 -0.0757622
15062 0.0073183 -0.0725389 0.9926817 0.0725389 0.9926817 0.0725389 0.0073183 -0.0725389
15752 0.0067936 -0.0694490 0.9932064 0.0694490 0.9932064 0.0694490 0.0067936 -0.0694490
16473 0.0063105 -0.0664875 0.9936895 0.0664875 0.9936895 0.0664875 0.0063105 -0.0664875
17227 0.0058658 -0.0636496 0.9941342 0.0636496 0.9941342 0.0636496 0.0058658 -0.0636496
18016 0.0054565 -0.0609306 0.9945435 0.0609306 0.9945435 0.0609306 0.0054565 -0.0609306
18841 0.0050795 -0.0583260 0.9949205 0.0583260 0.9949205 0.0583260 0.0050795 -0.0583260
19704 0.0047324 -0.0558313 0.9952676 0.0558313 0.9952676 0.0558313 0.0047324 -0.0558313
20606 0.0044127 -0.0534423 0.9955873 0.0534423 0.9955873 0.0534423 0.0044127 -0.0534423
21550 0.0041180 -0.0511547 0.9958820 0.0511547 0.9958820 0.0511547 0.0041180 -0.0511547
22537 0.0038464 -0.0489645 0.9961536 0.0489645 0.9961536 0.0489645 0.0038464 -0.0489645
23569 0.0035958 -0.0468679 0.9964042 0.0468679 0.9964042 0.0468679 0.0035958 -0.0468679
24648 0.0033645 -0.0448609 0.9966355 0.0448609 0.9966355 0.0448609 0.0033645 -0.0448609
25777 0.0031508 -0.0429400 0.9968492 0.0429400 0.9968492 0.0429400 0.0031508 -0.0429400
26957 0.0029533 -0.0411016 0.9970467 0.0411016 0.9970467 0.0411016 0.0029533 -0.0411016
28191 0.0027705 -0.0393422 0.9972295 0.0393422 0.9972295 0.0393422 0.0027705 -0.0393422
29482 0.0026012 -0.0376586 0.9973988 0.0376586 0.9973988 0.0376586 0.0026012 -0.0376586
30832 0.0024441 -0.0360474 0.9975559 0.0360474 0.9975559 0.0360474 0.0024441 -0.0360474
32244 0.0022982 -0.0345058 0.9977018 0.0345058 0.9977018 0.0345058 0.0022982 -0.0345058
33721 0.0021626 -0.0330305 0.9978374 0.0330305 0.9978374 0.0330305 0.0021626 -0.0330305
35265 0.0020363 -0.0316189 0.9979637 0.0316189 0.9979637 0.0316189 0.0020363 -0.0316189
36880 0.0019185 -0.0302682 0.9980815 0.0302682 0.9980815 0.0302682 0.0019185 -0.0302682
38569 0.0018085 -0.0289756 0.9981915 0.0289756 0.9981915 0.0289756 0.0018085 -0.0289756
40335 0.0017056 -0.0277387 0.9982944 0.0277387 0.9982944 0.0277387 0.0017056 -0.0277387
42182 0.0016093 -0.0265549 0.9983907 0.0265549 0.9983907 0.0265549 0.0016093 -0.0265549
44113 0.0015189 -0.0254220 0.9984811 0.0254220 0.9984811 0.0254220 0.0015189 -0.0254220
46134 0.0014340 -0.0243378 0.9985660 0.0243378 0.9985660 0.0243378 0.0014340 -0.0243378
48246 0.0013542 -0.0232999 0.9986458 0.0232999 0.9986458 0.0232999 0.0013542 -0.0232999
50455 0.0012791 -0.0223064 0.9987209 0.0223064 0.9987209 0.0223064 0.0012791 -0.0223064
52766 0.0012084 -0.0213554 0.9987916 0.0213554 0.9987916 0.0213554 0.0012084 -0.0213554
55182 0.0011417 -0.0204449 0.9988583 0.0204449 0.9988583 0.0204449 0.0011417 -0.0204449
57709 0.0010788 -0.0195731 0.9989212 0.0195731 0.9989212 0.0195731 0.0010788 -0.0195731
60352 0.0010194 -0.0187383 0.9989806 0.0187383 0.9989806 0.0187383 0.0010194 -0.0187383
63115 0.0009634 -0.0179390 0.9990366 0.0179390 0.9990366 0.0179390 0.0009634 -0.0179390
66005 0.0009105 -0.0171735 0.9990895 0.0171735 0.9990895 0.0171735 0.0009105 -0.0171735
69028 0.0008605 -0.0164404 0.9991395 0.0164404 0.9991395 0.0164404 0.0008605 -0.0164404
72189 0.0008134 -0.0157383 0.9991866 0.0157383 0.9991866 0.0157383 0.0008134 -0.0157383
75495 0.0007690 -0.0150658 0.9992310 0.0150658 0.9992310 0.0150658 0.0007690 -0.0150658
78952 0.0007272 -0.0144216 0.9992728 0.0144216 0.9992728 0.0144216 0.0007272 -0.0144216
82567 0.0006878 -0.0138047 0.9993122 0.0138047 0.9993122 0.0138047 0.0006878 -0.0138047
86348 0.0006507 -0.0132138 0.9993493 0.0132138 0.9993493 0.0132138 0.0006507 -0.0132138
90302 0.0006158 -0.0126477 0.9993842 0.0126477 0.9993842 0.0126477 0.0006158 -0.0126477
94437 0.0005830 -0.0121056 0.9994170 0.0121056 0.9994170 0.0121056 0.0005830 -0.0121056
98762 0.0005522 -0.0115863 0.9994478 0.0115863 0.9994478 0.0115863 0.0005522 -0.0115863
103284 0.0005234 -0.0110890 0.9994766 0.0110890 0.9994766 0.0110890 0.0005234 -0.0110890
108014 0.0004964 -0.0106127 0.9995036 0.0106127 0.9995036 0.0106127 0.0004964 -0.0106127
112960 0.0004711 -0.0101566 0.9995289 0.0101566 0.9995289 0.0101566 0.0004711 -0.0101566
118133 0.0004474 -0.0097198 0.9995526 0.0097198 0.9995526 0.0097198 0.0004474 -0.0097198
123542 0.0004254 -0.0093015 0.9995746 0.0093015 0.9995746 0.0093015 0.0004254 -0.0093015
129199 0.0004047 -0.0089010 0.9995953 0.0089010 0.9995953 0.0089010 0.0004047 -0.0089010
135116 0.0003855 -0.0085176 0.9996145 0.0085176 0.9996145 0.0085176 0.0003855 -0.0085176
141303 0.0003675 -0.0081505 0.9996325 0.0081505 0.9996325 0.0081505 0.0003675 -0.0081505
147774 0.0003508 -0.0077991 0.9996492 0.0077991 0.9996492 0.0077991 0.0003508 -0.0077991
154540 0.0003352 -0.0074627 0.9996648 0.0074627 0.9996648 0.0074627 0.0003352 -0.0074627
161617 0.0003206 -0.0071407 0.9996794 0.0071407 0.9996794 0.0071407 0.0003206 -0.0071407
169018 0.0003071 -0.0068325 0.9996929 0.0068325 0.9996929 0.0068325 0.0003071 -0.0068325
176758 0.0002944 -0.0065375 0.9997056 0.0065375 0.9997056 0.0065375 0.0002944 -0.0065375
184852 0.0002826 -0.0062553 0.9997174 0.0062553 0.9997174 0.0062553 0.0002826 -0.0062553
193316 0.0002716 -0.0059852 0.9997284 0.0059852 0.9997284 0.0059852 0.0002716 -0.0059852
202169 0.0002613 -0.0057267 0.9997387 0.0057267 0.9997387 0.0057267 0.0002613 -0.0057267
211427 0.0002517 -0.0054794 0.9997483 0.0054794 0.9997483 0.0054794 0.0002517 -0.0054794
221108 0.0002427 -0.0052428 0.9997573 0.0052428 0.9997573 0.0052428 0.0002427 -0.0052428
231233 0.0002343 -0.0050165 0.9997657 0.0050165 0.9997657 0.0050165 0.0002343 -0.0050165
241822 0.0002264 -0.0047999 0.9997736 0.0047999 0.9997736 0.0047999 0.0002264 -0.0047999
252896 0.0002189 -0.0045927 0.9997811 0.0045927 0.9997811 0.0045927 0.0002189 -0.0045927
264476 0.0002118 -0.0043944 0.9997882 0.0043944 0.9997882 0.0043944 0.0002118 -0.0043944
276587 0.0002052 -0.0042048 0.9997948 0.0042048 0.9997948 0.0042048 0.0002052 -0.0042048
289253 0.0001988 -0.0040234 0.9998012 0.0040234 0.9998012 0.0040234 0.0001988 -0.0040234
302498 0.0001928 -0.0038498 0.9998072 0.0038498 0.9998072 0.0038498 0.0001928 -0.0038498
316350 0.0001871 -0.0036837 0.9998129 0.0036837 0.9998129 0.0036837 0.0001871 -0.0036837
330837 0.0001816 -0.0035248 0.9998184 0.0035248 0.9998184 0.0035248 0.0001816 -0.0035248
345986 0.0001763 -0.0033728 0.9998237 0.0033728 0.9998237 0.0033728 0.0001763 -0.0033728
361830 0.0001712 -0.0032273 0.9998288 0.0032273 0.9998288 0.0032273 0.0001712 -0.0032273
378399 0.0001663 -0.0030880 0.9998337 0.0030880 0.9998337 0.0030880 0.0001663 -0.0030880
395726 0.0001616 -0.0029548 0.9998384 0.0029548 0.9998384 0.0029548 0.0001616 -0.0029548
413847 0.0001570 -0.0028272 0.9998430 0.0028272 0.9998430 0.0028272 0.0001570 -0.0028272
432798 0.0001526 -0.0027051 0.9998474 0.0027051 0.9998474 0.0027051 0.0001526 -0.0027051
452617 0.0001483 -0.0025882 0.9998517 0.0025882 0.9998517 0.0025882 0.0001483 -0.0025882
473344 0.0001441 -0.0024762 0.9998559 0.0024762 0.9998559 0.0024762 0.0001441 -0.0024762
495019 0.0001400 -0.0023690 0.9998600 0.0023690 0.9998600 0.0023690 0.0001400 -0.0023690
517687 0.0001361 -0.0022663 0.9998639 0.0022663 0.9998639 0.0022663 0.0001361 -0.0022663
541393 0.0001322 -0.0021679 0.9998678 0.0021679 0.9998678 0.0021679 0.0001322 -0.0021679
566185 0.0001284 -0.0020736 0.9998716 0.0020736 0.9998716 0.0020736 0.0001284 -0.0020736
592111 0.0001248 -0.0019833 0.9998752 0.0019833 0.9998752 0.0019833 0.0001248 -0.0019833
619225 0.0001212 -0.0018967 0.9998788 0.0018967 0.9998788 0.0018967 0.0001212 -0.0018967
647581 0.0001178 -0.0018136 0.9998822 0.0018136 0.9998822 0.0018136 0.0001178 -0.0018136
677235 0.0001144 -0.0017339 0.9998856 0.0017339 0.9998856 0.0017339 0.0001144 -0.0017339
708247 0.0001112 -0.0016576 0.9998888 0.0016576 0.9998888 0.0016576 0.0001112 -0.0016576
740679 0.0001081 -0.0015843 0.9998919 0.0015843 0.9998919 0.0015843 0.0001081 -0.0015843
774597 0.0001051 -0.0015139 0.9998949 0.0015139 0.9998949 0.0015139 0.0001051 -0.0015139
810067 0.0001022 -0.0014464 0.9998978 0.0014464 0.9998978 0.0014464 0.0001022 -0.0014464
847162 0.0000994 -0.0013816 0.9999006 0.0013816 0.9999006 0.0013816 0.0000994 -0.0013816
885955 0.0000968 -0.0013194 0.9999032 0.0013194 0.9999032 0.0013194 0.0000968 -0.0013194
926525 0.0000942 -0.0012597 0.9999058 0.0012597 0.9999058 0.0012597 0.0000942 -0.0012597
968953 0.0000918 -0.0012023 0.9999082 0.0012023 0.9999082 0.0012023 0.0000918 -0.0012023
1013323 0.0000896 -0.0011472 0.9999104 0.0011472 0.9999104 0.0011472 0.0000896 -0.0011472
1059725 0.0000874 -0.0010942 0.9999126 0.0010942 0.9999126 0.0010942 0.0000874 -0.0010942
1108252 0.0000854 -0.0010433 0.9999146 0.0010433 0.9999146 0.0010433 0.0000854 -0.0010433
1159002 0.0000835 -0.0009943 0.9999165 0.0009943 0.9999165 0.0009943 0.0000835 -0.0009943
1212075 0.0000817 -0.0009472 0.9999183 0.0009472 0.9999183 0.0009472 0.0000817 -0.0009472
1267578 0.0000800 -0.0009019 0.9999200 0.0009019 0.9999200 0.0009019 0.0000800 -0.0009019
1325623 0.0000785 -0.0008584 0.9999215 0.0008584 0.9999215 0.0008584 0.0000785 -0.0008584
1386327 0.0000770 -0.0008164 0.9999230 0.0008164 0.9999230 0.0008164 0.0000770 -0.0008164
1449809 0.0000757 -0.0007760 0.9999243 0.0007760 0.9999243 0.0007760 0.0000757 -0.0007760
1516199 0.0000744 -0.0007371 0.9999256 0.0007371 0.9999256 0.0007371 0.0000744 -0.0007371
1585629 0.0000733 -0.0006996 0.9999267 0.0006996 0.9999267 0.0006996 0.0000733 -0.0006996
1658239 0.0000723 -0.0006634 0.9999277 0.0006634 0.9999277 0.0006634 0.0000723 -0.0006634
1734173 0.0000713 -0.0006285 0.9999287 0.0006285 0.9999287 0.0006285 0.0000713 -0.0006285
1813585 0.0000705 -0.0005948 0.9999295 0.0005948 0.9999295 0.0005948 0.0000705 -0.0005948
1896632 0.0000697 -0.0005623 0.9999303 0.0005623 0.9999303 0.0005623 0.0000697 -0.0005623
1983483 0.0000690 -0.0005308 0.9999310 0.0005308 0.9999310 0.0005308 0.0000690 -0.0005308
2074311 0.0000684 -0.0005004 0.9999316 0.0005004 0.9999316 0.0005004 0.0000684 -0.0005004
