!Murata Part Number: GRM21BR72A223KA01
!These Parameters are Measured in Series Mode Connection
!Data Generated on Mar 30, 2021
!       o--ll--o
!Port1            Port2
!       o------o
!Operation Temp=25[degC], DC Bias Voltage=0[V]
!Freq. Start=100[Hz] Stop=6[GHz] 401[Steps]
# Hz S RI R 50
!Freq.(Hz) S11(Real) S11(Imag) S21(Real) S21(Imag) S12(Real) S12(Imag) S22(Real) S22(Imag)
100 0.9999913 -0.0013606 0.0000087 0.0013606 0.0000087 0.0013606 0.9999913 -0.0013606
105 0.9999909 -0.0014227 0.0000091 0.0014227 0.0000091 0.0014227 0.9999909 -0.0014227
109 0.9999905 -0.0014877 0.0000095 0.0014877 0.0000095 0.0014877 0.9999905 -0.0014877
114 0.9999900 -0.0015556 0.0000100 0.0015556 0.0000100 0.0015556 0.9999900 -0.0015556
120 0.9999895 -0.0016266 0.0000105 0.0016266 0.0000105 0.0016266 0.9999895 -0.0016266
125 0.9999890 -0.0017009 0.0000110 0.0017009 0.0000110 0.0017009 0.9999890 -0.0017009
131 0.9999884 -0.0017786 0.0000116 0.0017786 0.0000116 0.0017786 0.9999884 -0.0017786
137 0.9999878 -0.0018598 0.0000122 0.0018598 0.0000122 0.0018598 0.9999878 -0.0018598
143 0.9999872 -0.0019447 0.0000128 0.0019447 0.0000128 0.0019447 0.9999872 -0.0019447
150 0.9999865 -0.0020336 0.0000135 0.0020336 0.0000135 0.0020336 0.9999865 -0.0020336
156 0.9999857 -0.0021264 0.0000143 0.0021264 0.0000143 0.0021264 0.9999857 -0.0021264
164 0.9999849 -0.0022236 0.0000151 0.0022236 0.0000151 0.0022236 0.9999849 -0.0022236
171 0.9999840 -0.0023251 0.0000160 0.0023251 0.0000160 0.0023251 0.9999840 -0.0023251
179 0.9999831 -0.0024314 0.0000169 0.0024314 0.0000169 0.0024314 0.9999831 -0.0024314
187 0.9999820 -0.0025424 0.0000180 0.0025424 0.0000180 0.0025424 0.9999820 -0.0025424
196 0.9999809 -0.0026585 0.0000191 0.0026585 0.0000191 0.0026585 0.9999809 -0.0026585
205 0.9999797 -0.0027800 0.0000203 0.0027800 0.0000203 0.0027800 0.9999797 -0.0027800
214 0.9999784 -0.0029070 0.0000216 0.0029070 0.0000216 0.0029070 0.9999784 -0.0029070
224 0.9999771 -0.0030397 0.0000229 0.0030397 0.0000229 0.0030397 0.9999771 -0.0030397
234 0.9999756 -0.0031786 0.0000244 0.0031786 0.0000244 0.0031786 0.9999756 -0.0031786
245 0.9999740 -0.0033237 0.0000260 0.0033237 0.0000260 0.0033237 0.9999740 -0.0033237
256 0.9999722 -0.0034755 0.0000278 0.0034755 0.0000278 0.0034755 0.9999722 -0.0034755
268 0.9999704 -0.0036342 0.0000296 0.0036342 0.0000296 0.0036342 0.9999704 -0.0036342
280 0.9999684 -0.0038002 0.0000316 0.0038002 0.0000316 0.0038002 0.9999684 -0.0038002
293 0.9999662 -0.0039737 0.0000338 0.0039737 0.0000338 0.0039737 0.9999662 -0.0039737
306 0.9999639 -0.0041551 0.0000361 0.0041551 0.0000361 0.0041551 0.9999639 -0.0041551
320 0.9999614 -0.0043448 0.0000386 0.0043448 0.0000386 0.0043448 0.9999614 -0.0043448
335 0.9999587 -0.0045432 0.0000413 0.0045432 0.0000413 0.0045432 0.9999587 -0.0045432
350 0.9999558 -0.0047506 0.0000442 0.0047506 0.0000442 0.0047506 0.9999558 -0.0047506
366 0.9999526 -0.0049675 0.0000474 0.0049675 0.0000474 0.0049675 0.9999526 -0.0049675
383 0.9999493 -0.0051943 0.0000507 0.0051943 0.0000507 0.0051943 0.9999493 -0.0051943
401 0.9999457 -0.0054314 0.0000543 0.0054314 0.0000543 0.0054314 0.9999457 -0.0054314
419 0.9999418 -0.0056794 0.0000582 0.0056794 0.0000582 0.0056794 0.9999418 -0.0056794
438 0.9999376 -0.0059386 0.0000624 0.0059386 0.0000624 0.0059386 0.9999376 -0.0059386
458 0.9999330 -0.0062097 0.0000670 0.0062097 0.0000670 0.0062097 0.9999330 -0.0062097
479 0.9999281 -0.0064932 0.0000719 0.0064932 0.0000719 0.0064932 0.9999281 -0.0064932
501 0.9999228 -0.0067896 0.0000772 0.0067896 0.0000772 0.0067896 0.9999228 -0.0067896
524 0.9999171 -0.0070996 0.0000829 0.0070996 0.0000829 0.0070996 0.9999171 -0.0070996
548 0.9999109 -0.0074237 0.0000891 0.0074237 0.0000891 0.0074237 0.9999109 -0.0074237
573 0.9999042 -0.0077626 0.0000958 0.0077626 0.0000958 0.0077626 0.9999042 -0.0077626
600 0.9998970 -0.0081170 0.0001030 0.0081170 0.0001030 0.0081170 0.9998970 -0.0081170
627 0.9998892 -0.0084876 0.0001108 0.0084876 0.0001108 0.0084876 0.9998892 -0.0084876
656 0.9998807 -0.0088751 0.0001193 0.0088751 0.0001193 0.0088751 0.9998807 -0.0088751
686 0.9998715 -0.0092802 0.0001285 0.0092802 0.0001285 0.0092802 0.9998715 -0.0092802
717 0.9998614 -0.0097039 0.0001386 0.0097039 0.0001386 0.0097039 0.9998614 -0.0097039
750 0.9998506 -0.0101470 0.0001494 0.0101470 0.0001494 0.0101470 0.9998506 -0.0101470
784 0.9998388 -0.0106102 0.0001612 0.0106102 0.0001612 0.0106102 0.9998388 -0.0106102
820 0.9998260 -0.0110946 0.0001740 0.0110946 0.0001740 0.0110946 0.9998260 -0.0110946
858 0.9998120 -0.0116011 0.0001880 0.0116011 0.0001880 0.0116011 0.9998120 -0.0116011
897 0.9997969 -0.0121308 0.0002031 0.0121308 0.0002031 0.0121308 0.9997969 -0.0121308
938 0.9997804 -0.0126845 0.0002196 0.0126845 0.0002196 0.0126845 0.9997804 -0.0126845
981 0.9997624 -0.0132636 0.0002376 0.0132636 0.0002376 0.0132636 0.9997624 -0.0132636
1026 0.9997429 -0.0138690 0.0002571 0.0138690 0.0002571 0.0138690 0.9997429 -0.0138690
1073 0.9997217 -0.0145020 0.0002783 0.0145020 0.0002783 0.0145020 0.9997217 -0.0145020
1122 0.9996986 -0.0151638 0.0003014 0.0151638 0.0003014 0.0151638 0.9996986 -0.0151638
1174 0.9996734 -0.0158558 0.0003266 0.0158558 0.0003266 0.0158558 0.9996734 -0.0158558
1227 0.9996460 -0.0165793 0.0003540 0.0165793 0.0003540 0.0165793 0.9996460 -0.0165793
1283 0.9996162 -0.0173357 0.0003838 0.0173357 0.0003838 0.0173357 0.9996162 -0.0173357
1342 0.9995838 -0.0181265 0.0004162 0.0181265 0.0004162 0.0181265 0.9995838 -0.0181265
1404 0.9995485 -0.0189533 0.0004515 0.0189533 0.0004515 0.0189533 0.9995485 -0.0189533
1468 0.9995101 -0.0198177 0.0004899 0.0198177 0.0004899 0.0198177 0.9995101 -0.0198177
1535 0.9994683 -0.0207213 0.0005317 0.0207213 0.0005317 0.0207213 0.9994683 -0.0207213
1606 0.9994228 -0.0216660 0.0005772 0.0216660 0.0005772 0.0216660 0.9994228 -0.0216660
1679 0.9993733 -0.0226536 0.0006267 0.0226536 0.0006267 0.0226536 0.9993733 -0.0226536
1756 0.9993194 -0.0236860 0.0006806 0.0236860 0.0006806 0.0236860 0.9993194 -0.0236860
1836 0.9992608 -0.0247652 0.0007392 0.0247652 0.0007392 0.0247652 0.9992608 -0.0247652
1920 0.9991970 -0.0258934 0.0008030 0.0258934 0.0008030 0.0258934 0.9991970 -0.0258934
2008 0.9991276 -0.0270728 0.0008724 0.0270728 0.0008724 0.0270728 0.9991276 -0.0270728
2100 0.9990521 -0.0283056 0.0009479 0.0283056 0.0009479 0.0283056 0.9990521 -0.0283056
2196 0.9989700 -0.0295943 0.0010300 0.0295943 0.0010300 0.0295943 0.9989700 -0.0295943
2297 0.9988806 -0.0309414 0.0011194 0.0309414 0.0011194 0.0309414 0.9988806 -0.0309414
2402 0.9987833 -0.0323494 0.0012167 0.0323494 0.0012167 0.0323494 0.9987833 -0.0323494
2512 0.9986774 -0.0338212 0.0013226 0.0338212 0.0013226 0.0338212 0.9986774 -0.0338212
2627 0.9985622 -0.0353596 0.0014378 0.0353596 0.0014378 0.0353596 0.9985622 -0.0353596
2748 0.9984368 -0.0369675 0.0015632 0.0369675 0.0015632 0.0369675 0.9984368 -0.0369675
2873 0.9983002 -0.0386482 0.0016998 0.0386482 0.0016998 0.0386482 0.9983002 -0.0386482
3005 0.9981515 -0.0404047 0.0018485 0.0404047 0.0018485 0.0404047 0.9981515 -0.0404047
3143 0.9979896 -0.0422406 0.0020104 0.0422406 0.0020104 0.0422406 0.9979896 -0.0422406
3287 0.9978132 -0.0441593 0.0021868 0.0441593 0.0021868 0.0441593 0.9978132 -0.0441593
3437 0.9976210 -0.0461644 0.0023790 0.0461644 0.0023790 0.0461644 0.9976210 -0.0461644
3594 0.9974115 -0.0482599 0.0025885 0.0482599 0.0025885 0.0482599 0.9974115 -0.0482599
3759 0.9971833 -0.0504497 0.0028167 0.0504497 0.0028167 0.0504497 0.9971833 -0.0504497
3931 0.9969345 -0.0527379 0.0030655 0.0527379 0.0030655 0.0527379 0.9969345 -0.0527379
4111 0.9966632 -0.0551287 0.0033368 0.0551287 0.0033368 0.0551287 0.9966632 -0.0551287
4299 0.9963674 -0.0576267 0.0036326 0.0576267 0.0036326 0.0576267 0.9963674 -0.0576267
4496 0.9960448 -0.0602364 0.0039552 0.0602364 0.0039552 0.0602364 0.9960448 -0.0602364
4702 0.9956930 -0.0629626 0.0043070 0.0629626 0.0043070 0.0629626 0.9956930 -0.0629626
4918 0.9953092 -0.0658102 0.0046908 0.0658102 0.0046908 0.0658102 0.9953092 -0.0658102
5143 0.9948905 -0.0687844 0.0051095 0.0687844 0.0051095 0.0687844 0.9948905 -0.0687844
5378 0.9944338 -0.0718904 0.0055662 0.0718904 0.0055662 0.0718904 0.9944338 -0.0718904
5625 0.9939355 -0.0751336 0.0060645 0.0751336 0.0060645 0.0751336 0.9939355 -0.0751336
5882 0.9933918 -0.0785197 0.0066082 0.0785197 0.0066082 0.0785197 0.9933918 -0.0785197
6151 0.9927987 -0.0820544 0.0072013 0.0820544 0.0072013 0.0820544 0.9927987 -0.0820544
6433 0.9921515 -0.0857437 0.0078485 0.0857437 0.0078485 0.0857437 0.9921515 -0.0857437
6728 0.9914456 -0.0895935 0.0085544 0.0895935 0.0085544 0.0895935 0.9914456 -0.0895935
7036 0.9906754 -0.0936100 0.0093246 0.0936100 0.0093246 0.0936100 0.9906754 -0.0936100
7358 0.9898354 -0.0977996 0.0101646 0.0977996 0.0101646 0.0977996 0.9898354 -0.0977996
7695 0.9889192 -0.1021688 0.0110808 0.1021688 0.0110808 0.1021688 0.9889192 -0.1021688
8047 0.9879201 -0.1067239 0.0120799 0.1067239 0.0120799 0.1067239 0.9879201 -0.1067239
8416 0.9868308 -0.1114717 0.0131692 0.1114717 0.0131692 0.1114717 0.9868308 -0.1114717
8801 0.9856433 -0.1164186 0.0143567 0.1164186 0.0143567 0.1164186 0.9856433 -0.1164186
9204 0.9843490 -0.1215714 0.0156510 0.1215714 0.0156510 0.1215714 0.9843490 -0.1215714
9626 0.9829386 -0.1269367 0.0170614 0.1269367 0.0170614 0.1269367 0.9829386 -0.1269367
10066 0.9814022 -0.1325211 0.0185978 0.1325211 0.0185978 0.1325211 0.9814022 -0.1325211
10527 0.9797290 -0.1383309 0.0202710 0.1383309 0.0202710 0.1383309 0.9797290 -0.1383309
11009 0.9779072 -0.1443725 0.0220928 0.1443725 0.0220928 0.1443725 0.9779072 -0.1443725
11514 0.9759243 -0.1506519 0.0240757 0.1506519 0.0240757 0.1506519 0.9759243 -0.1506519
12041 0.9737670 -0.1571748 0.0262330 0.1571748 0.0262330 0.1571748 0.9737670 -0.1571748
12592 0.9714208 -0.1639466 0.0285792 0.1639466 0.0285792 0.1639466 0.9714208 -0.1639466
13169 0.9688701 -0.1709722 0.0311299 0.1709722 0.0311299 0.1709722 0.9688701 -0.1709722
13772 0.9660985 -0.1782559 0.0339015 0.1782559 0.0339015 0.1782559 0.9660985 -0.1782559
14402 0.9630884 -0.1858013 0.0369116 0.1858013 0.0369116 0.1858013 0.9630884 -0.1858013
15062 0.9598208 -0.1936111 0.0401792 0.1936111 0.0401792 0.1936111 0.9598208 -0.1936111
15752 0.9562760 -0.2016872 0.0437240 0.2016872 0.0437240 0.2016872 0.9562760 -0.2016872
16473 0.9524328 -0.2100303 0.0475672 0.2100303 0.0475672 0.2100303 0.9524328 -0.2100303
17227 0.9482689 -0.2186396 0.0517311 0.2186396 0.0517311 0.2186396 0.9482689 -0.2186396
18016 0.9437607 -0.2275131 0.0562393 0.2275131 0.0562393 0.2275131 0.9437607 -0.2275131
18841 0.9388839 -0.2366469 0.0611161 0.2366469 0.0611161 0.2366469 0.9388839 -0.2366469
19704 0.9336127 -0.2460353 0.0663873 0.2460353 0.0663873 0.2460353 0.9336127 -0.2460353
20606 0.9279206 -0.2556703 0.0720794 0.2556703 0.0720794 0.2556703 0.9279206 -0.2556703
21550 0.9217800 -0.2655418 0.0782200 0.2655418 0.0782200 0.2655418 0.9217800 -0.2655418
22537 0.9151628 -0.2756367 0.0848372 0.2756367 0.0848372 0.2756367 0.9151628 -0.2756367
23569 0.9080403 -0.2859394 0.0919597 0.2859394 0.0919597 0.2859394 0.9080403 -0.2859394
24648 0.9003836 -0.2964310 0.0996164 0.2964310 0.0996164 0.2964310 0.9003836 -0.2964310
25777 0.8921638 -0.3070891 0.1078362 0.3070891 0.1078362 0.3070891 0.8921638 -0.3070891
26957 0.8833522 -0.3178880 0.1166478 0.3178880 0.1166478 0.3178880 0.8833522 -0.3178880
28191 0.8739211 -0.3287981 0.1260789 0.3287981 0.1260789 0.3287981 0.8739211 -0.3287981
29482 0.8638436 -0.3397859 0.1361564 0.3397859 0.1361564 0.3397859 0.8638436 -0.3397859
30832 0.8530949 -0.3508138 0.1469051 0.3508138 0.1469051 0.3508138 0.8530949 -0.3508138
32244 0.8416521 -0.3618403 0.1583479 0.3618403 0.1583479 0.3618403 0.8416521 -0.3618403
33721 0.8294952 -0.3728195 0.1705048 0.3728195 0.1705048 0.3728195 0.8294952 -0.3728195
35265 0.8166076 -0.3837019 0.1833924 0.3837019 0.1833924 0.3837019 0.8166076 -0.3837019
36880 0.8029766 -0.3944340 0.1970234 0.3944340 0.1970234 0.3944340 0.8029766 -0.3944340
38569 0.7885943 -0.4049588 0.2114057 0.4049588 0.2114057 0.4049588 0.7885943 -0.4049588
40335 0.7734583 -0.4152164 0.2265417 0.4152164 0.2265417 0.4152164 0.7734583 -0.4152164
42182 0.7575718 -0.4251441 0.2424282 0.4251441 0.2424282 0.4251441 0.7575718 -0.4251441
44113 0.7409448 -0.4346774 0.2590552 0.4346774 0.2590552 0.4346774 0.7409448 -0.4346774
46134 0.7235942 -0.4437508 0.2764058 0.4437508 0.2764058 0.4437508 0.7235942 -0.4437508
48246 0.7055441 -0.4522984 0.2944559 0.4522984 0.2944559 0.4522984 0.7055441 -0.4522984
50455 0.6868267 -0.4602549 0.3131733 0.4602549 0.3131733 0.4602549 0.6868267 -0.4602549
52766 0.6674816 -0.4675569 0.3325184 0.4675569 0.3325184 0.4675569 0.6674816 -0.4675569
55182 0.6475562 -0.4741438 0.3524438 0.4741438 0.3524438 0.4741438 0.6475562 -0.4741438
57709 0.6271055 -0.4799588 0.3728945 0.4799588 0.3728945 0.4799588 0.6271055 -0.4799588
60352 0.6061915 -0.4849505 0.3938085 0.4849505 0.3938085 0.4849505 0.6061915 -0.4849505
63115 0.5848829 -0.4890731 0.4151171 0.4890731 0.4151171 0.4890731 0.5848829 -0.4890731
66005 0.5632539 -0.4922884 0.4367461 0.4922884 0.4367461 0.4922884 0.5632539 -0.4922884
69028 0.5413833 -0.4945658 0.4586167 0.4945658 0.4586167 0.4945658 0.5413833 -0.4945658
72189 0.5193540 -0.4958833 0.4806460 0.4958833 0.4806460 0.4958833 0.5193540 -0.4958833
75495 0.4972510 -0.4962282 0.5027490 0.4962282 0.5027490 0.4962282 0.4972510 -0.4962282
78952 0.4751605 -0.4955969 0.5248395 0.4955969 0.5248395 0.4955969 0.4751605 -0.4955969
82567 0.4531685 -0.4939957 0.5468315 0.4939957 0.5468315 0.4939957 0.4531685 -0.4939957
86348 0.4313597 -0.4914400 0.5686403 0.4914400 0.5686403 0.4914400 0.4313597 -0.4914400
90302 0.4098157 -0.4879540 0.5901843 0.4879540 0.5901843 0.4879540 0.4098157 -0.4879540
94437 0.3886144 -0.4835708 0.6113856 0.4835708 0.6113856 0.4835708 0.3886144 -0.4835708
98762 0.3678286 -0.4783309 0.6321714 0.4783309 0.6321714 0.4783309 0.3678286 -0.4783309
103284 0.3475250 -0.4722816 0.6524750 0.4722816 0.6524750 0.4722816 0.3475250 -0.4722816
108014 0.3277638 -0.4654761 0.6722362 0.4654761 0.6722362 0.4654761 0.3277638 -0.4654761
112960 0.3085980 -0.4579725 0.6914020 0.4579725 0.6914020 0.4579725 0.3085980 -0.4579725
118133 0.2900729 -0.4498323 0.7099271 0.4498323 0.7099271 0.4498323 0.2900729 -0.4498323
123542 0.2722259 -0.4411197 0.7277741 0.4411197 0.7277741 0.4411197 0.2722259 -0.4411197
129199 0.2550869 -0.4319002 0.7449131 0.4319002 0.7449131 0.4319002 0.2550869 -0.4319002
135116 0.2386781 -0.4222399 0.7613219 0.4222399 0.7613219 0.4222399 0.2386781 -0.4222399
141303 0.2230144 -0.4122044 0.7769856 0.4122044 0.7769856 0.4122044 0.2230144 -0.4122044
147774 0.2081036 -0.4018577 0.7918964 0.4018577 0.7918964 0.4018577 0.2081036 -0.4018577
154540 0.1939474 -0.3912618 0.8060526 0.3912618 0.8060526 0.3912618 0.1939474 -0.3912618
161617 0.1805417 -0.3804761 0.8194583 0.3804761 0.8194583 0.3804761 0.1805417 -0.3804761
169018 0.1678771 -0.3695568 0.8321229 0.3695568 0.8321229 0.3695568 0.1678771 -0.3695568
176758 0.1559396 -0.3585563 0.8440604 0.3585563 0.8440604 0.3585563 0.1559396 -0.3585563
184852 0.1447116 -0.3475233 0.8552884 0.3475233 0.8552884 0.3475233 0.1447116 -0.3475233
193316 0.1341720 -0.3365026 0.8658280 0.3365026 0.8658280 0.3365026 0.1341720 -0.3365026
202169 0.1242972 -0.3255346 0.8757028 0.3255346 0.8757028 0.3255346 0.1242972 -0.3255346
211427 0.1150615 -0.3146559 0.8849385 0.3146559 0.8849385 0.3146559 0.1150615 -0.3146559
221108 0.1064376 -0.3038989 0.8935624 0.3038989 0.8935624 0.3038989 0.1064376 -0.3038989
231233 0.0983974 -0.2932922 0.9016026 0.2932922 0.9016026 0.2932922 0.0983974 -0.2932922
241822 0.0909118 -0.2828605 0.9090882 0.2828605 0.9090882 0.2828605 0.0909118 -0.2828605
252896 0.0839517 -0.2726252 0.9160483 0.2726252 0.9160483 0.2726252 0.0839517 -0.2726252
264476 0.0774879 -0.2626041 0.9225121 0.2626041 0.9225121 0.2626041 0.0774879 -0.2626041
276587 0.0714919 -0.2528123 0.9285081 0.2528123 0.9285081 0.2528123 0.0714919 -0.2528123
289253 0.0659352 -0.2432618 0.9340648 0.2432618 0.9340648 0.2432618 0.0659352 -0.2432618
302498 0.0607906 -0.2339619 0.9392094 0.2339619 0.9392094 0.2339619 0.0607906 -0.2339619
316350 0.0560314 -0.2249199 0.9439686 0.2249199 0.9439686 0.2249199 0.0560314 -0.2249199
330837 0.0516322 -0.2161408 0.9483678 0.2161408 0.9483678 0.2161408 0.0516322 -0.2161408
345986 0.0475685 -0.2076277 0.9524315 0.2076277 0.9524315 0.2076277 0.0475685 -0.2076277
361830 0.0438172 -0.1993821 0.9561828 0.1993821 0.9561828 0.1993821 0.0438172 -0.1993821
378399 0.0403560 -0.1914040 0.9596440 0.1914040 0.9596440 0.1914040 0.0403560 -0.1914040
395726 0.0371643 -0.1836923 0.9628357 0.1836923 0.9628357 0.1836923 0.0371643 -0.1836923
413847 0.0342223 -0.1762445 0.9657777 0.1762445 0.9657777 0.1762445 0.0342223 -0.1762445
432798 0.0315115 -0.1690574 0.9684885 0.1690574 0.9684885 0.1690574 0.0315115 -0.1690574
452617 0.0290148 -0.1621270 0.9709852 0.1621270 0.9709852 0.1621270 0.0290148 -0.1621270
473344 0.0267158 -0.1554485 0.9732842 0.1554485 0.9732842 0.1554485 0.0267158 -0.1554485
495019 0.0245995 -0.1490167 0.9754005 0.1490167 0.9754005 0.1490167 0.0245995 -0.1490167
517687 0.0226519 -0.1428259 0.9773481 0.1428259 0.9773481 0.1428259 0.0226519 -0.1428259
541393 0.0208599 -0.1368701 0.9791401 0.1368701 0.9791401 0.1368701 0.0208599 -0.1368701
566185 0.0192115 -0.1311430 0.9807885 0.1311430 0.9807885 0.1311430 0.0192115 -0.1311430
592111 0.0176953 -0.1256380 0.9823047 0.1256380 0.9823047 0.1256380 0.0176953 -0.1256380
619225 0.0163010 -0.1203488 0.9836990 0.1203488 0.9836990 0.1203488 0.0163010 -0.1203488
647581 0.0150191 -0.1152684 0.9849809 0.1152684 0.9849809 0.1152684 0.0150191 -0.1152684
677235 0.0138406 -0.1103904 0.9861594 0.1103904 0.9861594 0.1103904 0.0138406 -0.1103904
708247 0.0127573 -0.1057080 0.9872427 0.1057080 0.9872427 0.1057080 0.0127573 -0.1057080
740679 0.0117616 -0.1012145 0.9882384 0.1012145 0.9882384 0.1012145 0.0117616 -0.1012145
774597 0.0108467 -0.0969035 0.9891533 0.0969035 0.9891533 0.0969035 0.0108467 -0.0969035
810067 0.0100060 -0.0927685 0.9899940 0.0927685 0.9899940 0.0927685 0.0100060 -0.0927685
847162 0.0092337 -0.0888031 0.9907663 0.0888031 0.9907663 0.0888031 0.0092337 -0.0888031
885955 0.0085241 -0.0850012 0.9914759 0.0850012 0.9914759 0.0850012 0.0085241 -0.0850012
926525 0.0078724 -0.0813567 0.9921276 0.0813567 0.9921276 0.0813567 0.0078724 -0.0813567
968953 0.0072739 -0.0778637 0.9927261 0.0778637 0.9927261 0.0778637 0.0072739 -0.0778637
1013323 0.0067242 -0.0745164 0.9932758 0.0745164 0.9932758 0.0745164 0.0067242 -0.0745164
1059725 0.0062195 -0.0713093 0.9937805 0.0713093 0.9937805 0.0713093 0.0062195 -0.0713093
1108252 0.0057560 -0.0682368 0.9942440 0.0682368 0.9942440 0.0682368 0.0057560 -0.0682368
1159002 0.0053305 -0.0652938 0.9946695 0.0652938 0.9946695 0.0652938 0.0053305 -0.0652938
1212075 0.0049398 -0.0624751 0.9950602 0.0624751 0.9950602 0.0624751 0.0049398 -0.0624751
1267578 0.0045811 -0.0597757 0.9954189 0.0597757 0.9954189 0.0597757 0.0045811 -0.0597757
1325623 0.0042518 -0.0571910 0.9957482 0.0571910 0.9957482 0.0571910 0.0042518 -0.0571910
1386327 0.0039494 -0.0547162 0.9960506 0.0547162 0.9960506 0.0547162 0.0039494 -0.0547162
1449809 0.0036717 -0.0523469 0.9963283 0.0523469 0.9963283 0.0523469 0.0036717 -0.0523469
1516199 0.0034167 -0.0500788 0.9965833 0.0500788 0.9965833 0.0500788 0.0034167 -0.0500788
1585629 0.0031824 -0.0479077 0.9968176 0.0479077 0.9968176 0.0479077 0.0031824 -0.0479077
1658239 0.0029673 -0.0458297 0.9970327 0.0458297 0.9970327 0.0458297 0.0029673 -0.0458297
1734173 0.0027695 -0.0438408 0.9972305 0.0438408 0.9972305 0.0438408 0.0027695 -0.0438408
1813585 0.0025877 -0.0419373 0.9974123 0.0419373 0.9974123 0.0419373 0.0025877 -0.0419373
1896632 0.0024205 -0.0401156 0.9975795 0.0401156 0.9975795 0.0401156 0.0024205 -0.0401156
1983483 0.0022668 -0.0383724 0.9977332 0.0383724 0.9977332 0.0383724 0.0022668 -0.0383724
2074311 0.0021252 -0.0367042 0.9978748 0.0367042 0.9978748 0.0367042 0.0021252 -0.0367042
