!Murata Part Number: GRM219D71C225MA12
!These Parameters are Measured in Series Mode Connection
!Data Generated on Mar 30, 2021
!       o--ll--o
!Port1            Port2
!       o------o
!Operation Temp=25[degC], DC Bias Voltage=0[V]
!Freq. Start=100[Hz] Stop=6[GHz] 401[Steps]
# Hz S RI R 50
!Freq.(Hz) S11(Real) S11(Imag) S21(Real) S21(Imag) S12(Real) S12(Imag) S22(Real) S22(Imag)
100 0.9883077 -0.0988106 0.0116923 0.0988106 0.0116923 0.0988106 0.9883077 -0.0988106
105 0.9873166 -0.1031784 0.0126834 0.1031784 0.0126834 0.1031784 0.9873166 -0.1031784
109 0.9862380 -0.1077293 0.0137620 0.1077293 0.0137620 0.1077293 0.9862380 -0.1077293
114 0.9850646 -0.1124691 0.0149354 0.1124691 0.0149354 0.1124691 0.9850646 -0.1124691
120 0.9837882 -0.1174040 0.0162118 0.1174040 0.0162118 0.1174040 0.9837882 -0.1174040
125 0.9824000 -0.1225399 0.0176000 0.1225399 0.0176000 0.1225399 0.9824000 -0.1225399
131 0.9808907 -0.1278827 0.0191093 0.1278827 0.0191093 0.1278827 0.9808907 -0.1278827
137 0.9792502 -0.1334382 0.0207498 0.1334382 0.0207498 0.1334382 0.9792502 -0.1334382
143 0.9774676 -0.1392118 0.0225324 0.1392118 0.0225324 0.1392118 0.9774676 -0.1392118
150 0.9755315 -0.1452090 0.0244685 0.1452090 0.0244685 0.1452090 0.9755315 -0.1452090
156 0.9734295 -0.1514346 0.0265705 0.1514346 0.0265705 0.1514346 0.9734295 -0.1514346
164 0.9711485 -0.1578935 0.0288515 0.1578935 0.0288515 0.1578935 0.9711485 -0.1578935
171 0.9686745 -0.1645898 0.0313255 0.1645898 0.0313255 0.1645898 0.9686745 -0.1645898
179 0.9659927 -0.1715273 0.0340073 0.1715273 0.0340073 0.1715273 0.9659927 -0.1715273
187 0.9630872 -0.1787089 0.0369128 0.1787089 0.0369128 0.1787089 0.9630872 -0.1787089
196 0.9599413 -0.1861372 0.0400587 0.1861372 0.0400587 0.1861372 0.9599413 -0.1861372
205 0.9565375 -0.1938136 0.0434625 0.1938136 0.0434625 0.1938136 0.9565375 -0.1938136
214 0.9528572 -0.2017389 0.0471428 0.2017389 0.0471428 0.2017389 0.9528572 -0.2017389
224 0.9488808 -0.2099127 0.0511192 0.2099127 0.0511192 0.2099127 0.9488808 -0.2099127
234 0.9445879 -0.2183333 0.0554121 0.2183333 0.0554121 0.2183333 0.9445879 -0.2183333
245 0.9399570 -0.2269979 0.0600430 0.2269979 0.0600430 0.2269979 0.9399570 -0.2269979
256 0.9349658 -0.2359019 0.0650342 0.2359019 0.0650342 0.2359019 0.9349658 -0.2359019
268 0.9295912 -0.2450394 0.0704088 0.2450394 0.0704088 0.2450394 0.9295912 -0.2450394
280 0.9238093 -0.2544023 0.0761907 0.2544023 0.0761907 0.2544023 0.9238093 -0.2544023
293 0.9175953 -0.2639807 0.0824047 0.2639807 0.0824047 0.2639807 0.9175953 -0.2639807
306 0.9109240 -0.2737622 0.0890760 0.2737622 0.0890760 0.2737622 0.9109240 -0.2737622
320 0.9037698 -0.2837323 0.0962302 0.2837323 0.0962302 0.2837323 0.9037698 -0.2837323
335 0.8961066 -0.2938734 0.1038934 0.2938734 0.1038934 0.2938734 0.8961066 -0.2938734
350 0.8879084 -0.3041653 0.1120916 0.3041653 0.1120916 0.3041653 0.8879084 -0.3041653
366 0.8791493 -0.3145847 0.1208507 0.3145847 0.1208507 0.3145847 0.8791493 -0.3145847
383 0.8698041 -0.3251048 0.1301959 0.3251048 0.1301959 0.3251048 0.8698041 -0.3251048
401 0.8598482 -0.3356954 0.1401518 0.3356954 0.1401518 0.3356954 0.8598482 -0.3356954
419 0.8492584 -0.3463228 0.1507416 0.3463228 0.1507416 0.3463228 0.8492584 -0.3463228
438 0.8380134 -0.3569494 0.1619866 0.3569494 0.1619866 0.3569494 0.8380134 -0.3569494
458 0.8260938 -0.3675339 0.1739062 0.3675339 0.1739062 0.3675339 0.8260938 -0.3675339
479 0.8134832 -0.3780312 0.1865168 0.3780312 0.1865168 0.3780312 0.8134832 -0.3780312
501 0.8001688 -0.3883926 0.1998312 0.3883926 0.1998312 0.3883926 0.8001688 -0.3883926
524 0.7861414 -0.3985659 0.2138586 0.3985659 0.2138586 0.3985659 0.7861414 -0.3985659
548 0.7713967 -0.4084956 0.2286033 0.4084956 0.2286033 0.4084956 0.7713967 -0.4084956
573 0.7559357 -0.4181236 0.2440643 0.4181236 0.2440643 0.4181236 0.7559357 -0.4181236
600 0.7397653 -0.4273896 0.2602347 0.4273896 0.2602347 0.4273896 0.7397653 -0.4273896
627 0.7228986 -0.4362314 0.2771014 0.4362314 0.2771014 0.4362314 0.7228986 -0.4362314
656 0.7053558 -0.4445865 0.2946442 0.4445865 0.2946442 0.4445865 0.7053558 -0.4445865
686 0.6871644 -0.4523920 0.3128356 0.4523920 0.3128356 0.4523920 0.6871644 -0.4523920
717 0.6683592 -0.4595865 0.3316408 0.4595865 0.3316408 0.4595865 0.6683592 -0.4595865
750 0.6489826 -0.4661104 0.3510174 0.4661104 0.3510174 0.4661104 0.6489826 -0.4661104
784 0.6290845 -0.4719075 0.3709155 0.4719075 0.3709155 0.4719075 0.6290845 -0.4719075
820 0.6087221 -0.4769261 0.3912779 0.4769261 0.3912779 0.4769261 0.6087221 -0.4769261
858 0.5879589 -0.4811195 0.4120411 0.4811195 0.4120411 0.4811195 0.5879589 -0.4811195
897 0.5668648 -0.4844480 0.4331352 0.4844480 0.4331352 0.4844480 0.5668648 -0.4844480
938 0.5455146 -0.4868789 0.4544854 0.4868789 0.4544854 0.4868789 0.5455146 -0.4868789
981 0.5239871 -0.4883879 0.4760129 0.4883879 0.4760129 0.4883879 0.5239871 -0.4883879
1026 0.5023642 -0.4889592 0.4976358 0.4889592 0.4976358 0.4889592 0.5023642 -0.4889592
1073 0.4807295 -0.4885866 0.5192705 0.4885866 0.5192705 0.4885866 0.4807295 -0.4885866
1122 0.4591666 -0.4872727 0.5408334 0.4872727 0.5408334 0.4872727 0.4591666 -0.4872727
1174 0.4377584 -0.4850299 0.5622416 0.4850299 0.5622416 0.4850299 0.4377584 -0.4850299
1227 0.4165853 -0.4818792 0.5834147 0.4818792 0.5834147 0.4818792 0.4165853 -0.4818792
1283 0.3957242 -0.4778504 0.6042758 0.4778504 0.6042758 0.4778504 0.3957242 -0.4778504
1342 0.3752473 -0.4729810 0.6247527 0.4729810 0.6247527 0.4729810 0.3752473 -0.4729810
1404 0.3552213 -0.4673155 0.6447787 0.4673155 0.6447787 0.4673155 0.3552213 -0.4673155
1468 0.3357061 -0.4609044 0.6642939 0.4609044 0.6642939 0.4609044 0.3357061 -0.4609044
1535 0.3167549 -0.4538031 0.6832451 0.4538031 0.6832451 0.4538031 0.3167549 -0.4538031
1606 0.2984133 -0.4460708 0.7015867 0.4460708 0.7015867 0.4460708 0.2984133 -0.4460708
1679 0.2807193 -0.4377696 0.7192807 0.4377696 0.7192807 0.4377696 0.2807193 -0.4377696
1756 0.2637033 -0.4289628 0.7362967 0.4289628 0.7362967 0.4289628 0.2637033 -0.4289628
1836 0.2473879 -0.4197146 0.7526121 0.4197146 0.7526121 0.4197146 0.2473879 -0.4197146
1920 0.2317887 -0.4100885 0.7682113 0.4100885 0.7682113 0.4100885 0.2317887 -0.4100885
2008 0.2169144 -0.4001470 0.7830856 0.4001470 0.7830856 0.4001470 0.2169144 -0.4001470
2100 0.2027675 -0.3899502 0.7972325 0.3899502 0.7972325 0.3899502 0.2027675 -0.3899502
2196 0.1893446 -0.3795559 0.8106554 0.3795559 0.8106554 0.3795559 0.1893446 -0.3795559
2297 0.1766373 -0.3690185 0.8233627 0.3690185 0.8233627 0.3690185 0.1766373 -0.3690185
2402 0.1646328 -0.3583891 0.8353672 0.3583891 0.8353672 0.3583891 0.1646328 -0.3583891
2512 0.1533146 -0.3477148 0.8466854 0.3477148 0.8466854 0.3477148 0.1533146 -0.3477148
2627 0.1426628 -0.3370390 0.8573372 0.3370390 0.8573372 0.3370390 0.1426628 -0.3370390
2748 0.1326553 -0.3264009 0.8673447 0.3264009 0.8673447 0.3264009 0.1326553 -0.3264009
2873 0.1232678 -0.3158356 0.8767322 0.3158356 0.8767322 0.3158356 0.1232678 -0.3158356
3005 0.1144746 -0.3053748 0.8855254 0.3053748 0.8855254 0.3053748 0.1144746 -0.3053748
3143 0.1062493 -0.2950459 0.8937507 0.2950459 0.8937507 0.2950459 0.1062493 -0.2950459
3287 0.0985645 -0.2848729 0.9014355 0.2848729 0.9014355 0.2848729 0.0985645 -0.2848729
3437 0.0913930 -0.2748767 0.9086070 0.2748767 0.9086070 0.2748767 0.0913930 -0.2748767
3594 0.0847076 -0.2650747 0.9152924 0.2650747 0.9152924 0.2650747 0.0847076 -0.2650747
3759 0.0784813 -0.2554816 0.9215187 0.2554816 0.9215187 0.2554816 0.0784813 -0.2554816
3931 0.0726878 -0.2461094 0.9273122 0.2461094 0.9273122 0.2461094 0.0726878 -0.2461094
4111 0.0673015 -0.2369677 0.9326985 0.2369677 0.9326985 0.2369677 0.0673015 -0.2369677
4299 0.0622977 -0.2280641 0.9377023 0.2280641 0.9377023 0.2280641 0.0622977 -0.2280641
4496 0.0576526 -0.2194041 0.9423474 0.2194041 0.9423474 0.2194041 0.0576526 -0.2194041
4702 0.0533433 -0.2109914 0.9466567 0.2109914 0.9466567 0.2109914 0.0533433 -0.2109914
4918 0.0493481 -0.2028285 0.9506519 0.2028285 0.9506519 0.2028285 0.0493481 -0.2028285
5143 0.0456461 -0.1949163 0.9543539 0.1949163 0.9543539 0.1949163 0.0456461 -0.1949163
5378 0.0422179 -0.1872546 0.9577821 0.1872546 0.9577821 0.1872546 0.0422179 -0.1872546
5625 0.0390446 -0.1798422 0.9609554 0.1798422 0.9609554 0.1798422 0.0390446 -0.1798422
5882 0.0361087 -0.1726770 0.9638913 0.1726770 0.9638913 0.1726770 0.0361087 -0.1726770
6151 0.0333937 -0.1657561 0.9666063 0.1657561 0.9666063 0.1657561 0.0333937 -0.1657561
6433 0.0308838 -0.1590762 0.9691162 0.1590762 0.9691162 0.1590762 0.0308838 -0.1590762
6728 0.0285644 -0.1526330 0.9714356 0.1526330 0.9714356 0.1526330 0.0285644 -0.1526330
7036 0.0264216 -0.1464221 0.9735784 0.1464221 0.9735784 0.1464221 0.0264216 -0.1464221
7358 0.0244426 -0.1404386 0.9755574 0.1404386 0.9755574 0.1404386 0.0244426 -0.1404386
7695 0.0226152 -0.1346772 0.9773848 0.1346772 0.9773848 0.1346772 0.0226152 -0.1346772
8047 0.0209281 -0.1291324 0.9790719 0.1291324 0.9790719 0.1291324 0.0209281 -0.1291324
8416 0.0193707 -0.1237986 0.9806293 0.1237986 0.9806293 0.1237986 0.0193707 -0.1237986
8801 0.0179332 -0.1186698 0.9820668 0.1186698 0.9820668 0.1186698 0.0179332 -0.1186698
9204 0.0166064 -0.1137401 0.9833936 0.1137401 0.9833936 0.1137401 0.0166064 -0.1137401
9626 0.0153817 -0.1090034 0.9846183 0.1090034 0.9846183 0.1090034 0.0153817 -0.1090034
10066 0.0142513 -0.1044536 0.9857487 0.1044536 0.9857487 0.1044536 0.0142513 -0.1044536
10527 0.0132077 -0.1000847 0.9867923 0.1000847 0.9867923 0.1000847 0.0132077 -0.1000847
11009 0.0122442 -0.0958906 0.9877558 0.0958906 0.9877558 0.0958906 0.0122442 -0.0958906
11514 0.0113545 -0.0918652 0.9886455 0.0918652 0.9886455 0.0918652 0.0113545 -0.0918652
12041 0.0105328 -0.0880027 0.9894672 0.0880027 0.9894672 0.0880027 0.0105328 -0.0880027
12592 0.0097738 -0.0842970 0.9902262 0.0842970 0.9902262 0.0842970 0.0097738 -0.0842970
13169 0.0090724 -0.0807425 0.9909276 0.0807425 0.9909276 0.0807425 0.0090724 -0.0807425
13772 0.0084241 -0.0773335 0.9915759 0.0773335 0.9915759 0.0773335 0.0084241 -0.0773335
14402 0.0078249 -0.0740645 0.9921751 0.0740645 0.9921751 0.0740645 0.0078249 -0.0740645
15062 0.0072708 -0.0709302 0.9927292 0.0709302 0.9927292 0.0709302 0.0072708 -0.0709302
15752 0.0067584 -0.0679253 0.9932416 0.0679253 0.9932416 0.0679253 0.0067584 -0.0679253
16473 0.0062844 -0.0650447 0.9937156 0.0650447 0.9937156 0.0650447 0.0062844 -0.0650447
17227 0.0058458 -0.0622837 0.9941542 0.0622837 0.9941542 0.0622837 0.0058458 -0.0622837
18016 0.0054400 -0.0596374 0.9945600 0.0596374 0.9945600 0.0596374 0.0054400 -0.0596374
18841 0.0050645 -0.0571013 0.9949355 0.0571013 0.9949355 0.0571013 0.0050645 -0.0571013
19704 0.0047169 -0.0546709 0.9952831 0.0546709 0.9952831 0.0546709 0.0047169 -0.0546709
20606 0.0043951 -0.0523421 0.9956049 0.0523421 0.9956049 0.0523421 0.0043951 -0.0523421
21550 0.0040973 -0.0501108 0.9959027 0.0501108 0.9959027 0.0501108 0.0040973 -0.0501108
22537 0.0038216 -0.0479730 0.9961784 0.0479730 0.9961784 0.0479730 0.0038216 -0.0479730
23569 0.0035665 -0.0459251 0.9964335 0.0459251 0.9964335 0.0459251 0.0035665 -0.0459251
24648 0.0033302 -0.0439632 0.9966698 0.0439632 0.9966698 0.0439632 0.0033302 -0.0439632
25777 0.0031116 -0.0420840 0.9968884 0.0420840 0.9968884 0.0420840 0.0031116 -0.0420840
26957 0.0029091 -0.0402842 0.9970909 0.0402842 0.9970909 0.0402842 0.0029091 -0.0402842
28191 0.0027217 -0.0385604 0.9972783 0.0385604 0.9972783 0.0385604 0.0027217 -0.0385604
29482 0.0025482 -0.0369097 0.9974518 0.0369097 0.9974518 0.0369097 0.0025482 -0.0369097
30832 0.0023876 -0.0353290 0.9976124 0.0353290 0.9976124 0.0353290 0.0023876 -0.0353290
32244 0.0022388 -0.0338155 0.9977612 0.0338155 0.9977612 0.0338155 0.0022388 -0.0338155
33721 0.0021010 -0.0323665 0.9978990 0.0323665 0.9978990 0.0323665 0.0021010 -0.0323665
35265 0.0019733 -0.0309793 0.9980267 0.0309793 0.9980267 0.0309793 0.0019733 -0.0309793
36880 0.0018550 -0.0296513 0.9981450 0.0296513 0.9981450 0.0296513 0.0018550 -0.0296513
38569 0.0017452 -0.0283801 0.9982548 0.0283801 0.9982548 0.0283801 0.0017452 -0.0283801
40335 0.0016434 -0.0271634 0.9983566 0.0271634 0.9983566 0.0271634 0.0016434 -0.0271634
42182 0.0015488 -0.0259989 0.9984512 0.0259989 0.9984512 0.0259989 0.0015488 -0.0259989
44113 0.0014609 -0.0248844 0.9985391 0.0248844 0.9985391 0.0248844 0.0014609 -0.0248844
46134 0.0013792 -0.0238178 0.9986208 0.0238178 0.9986208 0.0238178 0.0013792 -0.0238178
48246 0.0013031 -0.0227971 0.9986969 0.0227971 0.9986969 0.0227971 0.0013031 -0.0227971
50455 0.0012322 -0.0218203 0.9987678 0.0218203 0.9987678 0.0218203 0.0012322 -0.0218203
52766 0.0011660 -0.0208856 0.9988340 0.0208856 0.9988340 0.0208856 0.0011660 -0.0208856
55182 0.0011042 -0.0199911 0.9988958 0.0199911 0.9988958 0.0199911 0.0011042 -0.0199911
57709 0.0010463 -0.0191352 0.9989537 0.0191352 0.9989537 0.0191352 0.0010463 -0.0191352
60352 0.0009921 -0.0183161 0.9990079 0.0183161 0.9990079 0.0183161 0.0009921 -0.0183161
63115 0.0009413 -0.0175323 0.9990587 0.0175323 0.9990587 0.0175323 0.0009413 -0.0175323
66005 0.0008935 -0.0167823 0.9991065 0.0167823 0.9991065 0.0167823 0.0008935 -0.0167823
69028 0.0008486 -0.0160644 0.9991514 0.0160644 0.9991514 0.0160644 0.0008486 -0.0160644
72189 0.0008063 -0.0153775 0.9991937 0.0153775 0.9991937 0.0153775 0.0008063 -0.0153775
75495 0.0007664 -0.0147200 0.9992336 0.0147200 0.9992336 0.0147200 0.0007664 -0.0147200
78952 0.0007287 -0.0140907 0.9992713 0.0140907 0.9992713 0.0140907 0.0007287 -0.0140907
82567 0.0006931 -0.0134883 0.9993069 0.0134883 0.9993069 0.0134883 0.0006931 -0.0134883
86348 0.0006595 -0.0129118 0.9993405 0.0129118 0.9993405 0.0129118 0.0006595 -0.0129118
90302 0.0006277 -0.0123598 0.9993723 0.0123598 0.9993723 0.0123598 0.0006277 -0.0123598
94437 0.0005975 -0.0118314 0.9994025 0.0118314 0.9994025 0.0118314 0.0005975 -0.0118314
98762 0.0005690 -0.0113255 0.9994310 0.0113255 0.9994310 0.0113255 0.0005690 -0.0113255
103284 0.0005420 -0.0108412 0.9994580 0.0108412 0.9994580 0.0108412 0.0005420 -0.0108412
108014 0.0005164 -0.0103775 0.9994836 0.0103775 0.9994836 0.0103775 0.0005164 -0.0103775
112960 0.0004922 -0.0099335 0.9995078 0.0099335 0.9995078 0.0099335 0.0004922 -0.0099335
118133 0.0004693 -0.0095083 0.9995307 0.0095083 0.9995307 0.0095083 0.0004693 -0.0095083
123542 0.0004476 -0.0091012 0.9995524 0.0091012 0.9995524 0.0091012 0.0004476 -0.0091012
129199 0.0004272 -0.0087114 0.9995728 0.0087114 0.9995728 0.0087114 0.0004272 -0.0087114
135116 0.0004078 -0.0083381 0.9995922 0.0083381 0.9995922 0.0083381 0.0004078 -0.0083381
141303 0.0003895 -0.0079806 0.9996105 0.0079806 0.9996105 0.0079806 0.0003895 -0.0079806
147774 0.0003723 -0.0076383 0.9996277 0.0076383 0.9996277 0.0076383 0.0003723 -0.0076383
154540 0.0003561 -0.0073106 0.9996439 0.0073106 0.9996439 0.0073106 0.0003561 -0.0073106
161617 0.0003408 -0.0069968 0.9996592 0.0069968 0.9996592 0.0069968 0.0003408 -0.0069968
169018 0.0003263 -0.0066963 0.9996737 0.0066963 0.9996737 0.0066963 0.0003263 -0.0066963
176758 0.0003128 -0.0064087 0.9996872 0.0064087 0.9996872 0.0064087 0.0003128 -0.0064087
184852 0.0003000 -0.0061332 0.9997000 0.0061332 0.9997000 0.0061332 0.0003000 -0.0061332
193316 0.0002880 -0.0058695 0.9997120 0.0058695 0.9997120 0.0058695 0.0002880 -0.0058695
202169 0.0002767 -0.0056171 0.9997233 0.0056171 0.9997233 0.0056171 0.0002767 -0.0056171
211427 0.0002661 -0.0053755 0.9997339 0.0053755 0.9997339 0.0053755 0.0002661 -0.0053755
221108 0.0002561 -0.0051442 0.9997439 0.0051442 0.9997439 0.0051442 0.0002561 -0.0051442
231233 0.0002467 -0.0049228 0.9997533 0.0049228 0.9997533 0.0049228 0.0002467 -0.0049228
241822 0.0002378 -0.0047108 0.9997622 0.0047108 0.9997622 0.0047108 0.0002378 -0.0047108
252896 0.0002294 -0.0045080 0.9997706 0.0045080 0.9997706 0.0045080 0.0002294 -0.0045080
264476 0.0002216 -0.0043139 0.9997784 0.0043139 0.9997784 0.0043139 0.0002216 -0.0043139
276587 0.0002141 -0.0041281 0.9997859 0.0041281 0.9997859 0.0041281 0.0002141 -0.0041281
289253 0.0002071 -0.0039503 0.9997929 0.0039503 0.9997929 0.0039503 0.0002071 -0.0039503
302498 0.0002004 -0.0037801 0.9997996 0.0037801 0.9997996 0.0037801 0.0002004 -0.0037801
316350 0.0001941 -0.0036172 0.9998059 0.0036172 0.9998059 0.0036172 0.0001941 -0.0036172
330837 0.0001880 -0.0034614 0.9998120 0.0034614 0.9998120 0.0034614 0.0001880 -0.0034614
345986 0.0001823 -0.0033122 0.9998177 0.0033122 0.9998177 0.0033122 0.0001823 -0.0033122
361830 0.0001768 -0.0031694 0.9998232 0.0031694 0.9998232 0.0031694 0.0001768 -0.0031694
378399 0.0001716 -0.0030327 0.9998284 0.0030327 0.9998284 0.0030327 0.0001716 -0.0030327
395726 0.0001666 -0.0029019 0.9998334 0.0029019 0.9998334 0.0029019 0.0001666 -0.0029019
413847 0.0001618 -0.0027767 0.9998382 0.0027767 0.9998382 0.0027767 0.0001618 -0.0027767
432798 0.0001571 -0.0026568 0.9998429 0.0026568 0.9998429 0.0026568 0.0001571 -0.0026568
452617 0.0001527 -0.0025420 0.9998473 0.0025420 0.9998473 0.0025420 0.0001527 -0.0025420
473344 0.0001484 -0.0024320 0.9998516 0.0024320 0.9998516 0.0024320 0.0001484 -0.0024320
495019 0.0001443 -0.0023268 0.9998557 0.0023268 0.9998557 0.0023268 0.0001443 -0.0023268
517687 0.0001403 -0.0022259 0.9998597 0.0022259 0.9998597 0.0022259 0.0001403 -0.0022259
541393 0.0001364 -0.0021293 0.9998636 0.0021293 0.9998636 0.0021293 0.0001364 -0.0021293
566185 0.0001327 -0.0020368 0.9998673 0.0020368 0.9998673 0.0020368 0.0001327 -0.0020368
592111 0.0001291 -0.0019481 0.9998709 0.0019481 0.9998709 0.0019481 0.0001291 -0.0019481
619225 0.0001256 -0.0018632 0.9998744 0.0018632 0.9998744 0.0018632 0.0001256 -0.0018632
647581 0.0001223 -0.0017817 0.9998777 0.0017817 0.9998777 0.0017817 0.0001223 -0.0017817
677235 0.0001191 -0.0017036 0.9998809 0.0017036 0.9998809 0.0017036 0.0001191 -0.0017036
708247 0.0001160 -0.0016287 0.9998840 0.0016287 0.9998840 0.0016287 0.0001160 -0.0016287
740679 0.0001130 -0.0015570 0.9998870 0.0015570 0.9998870 0.0015570 0.0001130 -0.0015570
774597 0.0001102 -0.0014881 0.9998898 0.0014881 0.9998898 0.0014881 0.0001102 -0.0014881
810067 0.0001075 -0.0014220 0.9998925 0.0014220 0.9998925 0.0014220 0.0001075 -0.0014220
847162 0.0001049 -0.0013586 0.9998951 0.0013586 0.9998951 0.0013586 0.0001049 -0.0013586
885955 0.0001024 -0.0012978 0.9998976 0.0012978 0.9998976 0.0012978 0.0001024 -0.0012978
926525 0.0001000 -0.0012394 0.9999000 0.0012394 0.9999000 0.0012394 0.0001000 -0.0012394
968953 0.0000978 -0.0011834 0.9999022 0.0011834 0.9999022 0.0011834 0.0000978 -0.0011834
1013323 0.0000957 -0.0011296 0.9999043 0.0011296 0.9999043 0.0011296 0.0000957 -0.0011296
1059725 0.0000937 -0.0010779 0.9999063 0.0010779 0.9999063 0.0010779 0.0000937 -0.0010779
1108252 0.0000918 -0.0010283 0.9999082 0.0010283 0.9999082 0.0010283 0.0000918 -0.0010283
1159002 0.0000900 -0.0009806 0.9999100 0.0009806 0.9999100 0.0009806 0.0000900 -0.0009806
1212075 0.0000883 -0.0009348 0.9999117 0.0009348 0.9999117 0.0009348 0.0000883 -0.0009348
1267578 0.0000868 -0.0008907 0.9999132 0.0008907 0.9999132 0.0008907 0.0000868 -0.0008907
1325623 0.0000853 -0.0008484 0.9999147 0.0008484 0.9999147 0.0008484 0.0000853 -0.0008484
1386327 0.0000840 -0.0008077 0.9999160 0.0008077 0.9999160 0.0008077 0.0000840 -0.0008077
1449809 0.0000828 -0.0007685 0.9999172 0.0007685 0.9999172 0.0007685 0.0000828 -0.0007685
1516199 0.0000816 -0.0007308 0.9999184 0.0007308 0.9999184 0.0007308 0.0000816 -0.0007308
1585629 0.0000805 -0.0006945 0.9999195 0.0006945 0.9999195 0.0006945 0.0000805 -0.0006945
1658239 0.0000796 -0.0006595 0.9999204 0.0006595 0.9999204 0.0006595 0.0000796 -0.0006595
1734173 0.0000787 -0.0006258 0.9999213 0.0006258 0.9999213 0.0006258 0.0000787 -0.0006258
1813585 0.0000779 -0.0005933 0.9999221 0.0005933 0.9999221 0.0005933 0.0000779 -0.0005933
1896632 0.0000771 -0.0005620 0.9999229 0.0005620 0.9999229 0.0005620 0.0000771 -0.0005620
1983483 0.0000765 -0.0005317 0.9999235 0.0005317 0.9999235 0.0005317 0.0000765 -0.0005317
2074311 0.0000759 -0.0005025 0.9999241 0.0005025 0.9999241 0.0005025 0.0000759 -0.0005025
