!Murata Part Number: GRM21BR61E106KA73
!These Parameters are Measured in Series Mode Connection
!Data Generated on Mar 30, 2021
!       o--ll--o
!Port1            Port2
!       o------o
!Operation Temp=25[degC], DC Bias Voltage=0[V]
!Freq. Start=100[Hz] Stop=6[GHz] 401[Steps]
# Hz S RI R 50
!Freq.(Hz) S11(Real) S11(Imag) S21(Real) S21(Imag) S12(Real) S12(Imag) S22(Real) S22(Imag)
100 0.8688763 -0.3278018 0.1311237 0.3278018 0.1311237 0.3278018 0.8688763 -0.3278018
105 0.8588159 -0.3385241 0.1411841 0.3385241 0.1411841 0.3385241 0.8588159 -0.3385241
109 0.8481031 -0.3492842 0.1518969 0.3492842 0.1518969 0.3492842 0.8481031 -0.3492842
114 0.8367153 -0.3600420 0.1632847 0.3600420 0.1632847 0.3600420 0.8367153 -0.3600420
120 0.8246324 -0.3707530 0.1753676 0.3707530 0.1753676 0.3707530 0.8246324 -0.3707530
125 0.8118378 -0.3813690 0.1881622 0.3813690 0.1881622 0.3813690 0.8118378 -0.3813690
131 0.7983190 -0.3918378 0.2016810 0.3918378 0.2016810 0.3918378 0.7983190 -0.3918378
137 0.7840677 -0.4021037 0.2159323 0.4021037 0.2159323 0.4021037 0.7840677 -0.4021037
143 0.7690811 -0.4121080 0.2309189 0.4121080 0.2309189 0.4121080 0.7690811 -0.4121080
150 0.7533624 -0.4217892 0.2466376 0.4217892 0.2466376 0.4217892 0.7533624 -0.4217892
156 0.7369210 -0.4310840 0.2630790 0.4310840 0.2630790 0.4310840 0.7369210 -0.4310840
164 0.7197735 -0.4399280 0.2802265 0.4399280 0.2802265 0.4399280 0.7197735 -0.4399280
171 0.7019438 -0.4482564 0.2980562 0.4482564 0.2980562 0.4482564 0.7019438 -0.4482564
179 0.6834634 -0.4560053 0.3165366 0.4560053 0.3165366 0.4560053 0.6834634 -0.4560053
187 0.6643716 -0.4631122 0.3356284 0.4631122 0.3356284 0.4631122 0.6643716 -0.4631122
196 0.6447152 -0.4695179 0.3552848 0.4695179 0.3552848 0.4695179 0.6447152 -0.4695179
205 0.6245488 -0.4751670 0.3754512 0.4751670 0.3754512 0.4751670 0.6245488 -0.4751670
214 0.6039337 -0.4800092 0.3960663 0.4800092 0.3960663 0.4800092 0.6039337 -0.4800092
224 0.5829376 -0.4840004 0.4170624 0.4840004 0.4170624 0.4840004 0.5829376 -0.4840004
234 0.5616339 -0.4871038 0.4383661 0.4871038 0.4383661 0.4871038 0.5616339 -0.4871038
245 0.5401004 -0.4892905 0.4598996 0.4892905 0.4598996 0.4892905 0.5401004 -0.4892905
256 0.5184184 -0.4905400 0.4815816 0.4905400 0.4815816 0.4905400 0.5184184 -0.4905400
268 0.4966713 -0.4908412 0.5033287 0.4908412 0.5033287 0.4908412 0.4966713 -0.4908412
280 0.4749432 -0.4901921 0.5250568 0.4901921 0.5250568 0.4901921 0.4749432 -0.4901921
293 0.4533181 -0.4886002 0.5466819 0.4886002 0.5466819 0.4886002 0.4533181 -0.4886002
306 0.4318777 -0.4860820 0.5681223 0.4860820 0.5681223 0.4860820 0.4318777 -0.4860820
320 0.4107011 -0.4826627 0.5892989 0.4826627 0.5892989 0.4826627 0.4107011 -0.4826627
335 0.3898628 -0.4783757 0.6101372 0.4783757 0.6101372 0.4783757 0.3898628 -0.4783757
350 0.3694325 -0.4732616 0.6305675 0.4732616 0.6305675 0.4732616 0.3694325 -0.4732616
366 0.3494734 -0.4673673 0.6505266 0.4673673 0.6505266 0.4673673 0.3494734 -0.4673673
383 0.3300424 -0.4607452 0.6699576 0.4607452 0.6699576 0.4607452 0.3300424 -0.4607452
401 0.3111891 -0.4534517 0.6888109 0.4534517 0.6888109 0.4534517 0.3111891 -0.4534517
419 0.2929556 -0.4455465 0.7070444 0.4455465 0.7070444 0.4455465 0.2929556 -0.4455465
438 0.2753766 -0.4370913 0.7246234 0.4370913 0.7246234 0.4370913 0.2753766 -0.4370913
458 0.2584794 -0.4281488 0.7415206 0.4281488 0.7415206 0.4281488 0.2584794 -0.4281488
479 0.2422841 -0.4187820 0.7577159 0.4187820 0.7577159 0.4187820 0.2422841 -0.4187820
501 0.2268039 -0.4090528 0.7731961 0.4090528 0.7731961 0.4090528 0.2268039 -0.4090528
524 0.2120459 -0.3990218 0.7879541 0.3990218 0.7879541 0.3990218 0.2120459 -0.3990218
548 0.1980110 -0.3887472 0.8019890 0.3887472 0.8019890 0.3887472 0.1980110 -0.3887472
573 0.1846951 -0.3782847 0.8153049 0.3782847 0.8153049 0.3782847 0.1846951 -0.3782847
600 0.1720896 -0.3676867 0.8279104 0.3676867 0.8279104 0.3676867 0.1720896 -0.3676867
627 0.1601814 -0.3570025 0.8398186 0.3570025 0.8398186 0.3570025 0.1601814 -0.3570025
656 0.1489543 -0.3462776 0.8510457 0.3462776 0.8510457 0.3462776 0.1489543 -0.3462776
686 0.1383893 -0.3355537 0.8616107 0.3355537 0.8616107 0.3355537 0.1383893 -0.3355537
717 0.1284649 -0.3248691 0.8715351 0.3248691 0.8715351 0.3248691 0.1284649 -0.3248691
750 0.1191577 -0.3142581 0.8808423 0.3142581 0.8808423 0.3142581 0.1191577 -0.3142581
784 0.1104432 -0.3037516 0.8895568 0.3037516 0.8895568 0.3037516 0.1104432 -0.3037516
820 0.1022957 -0.2933768 0.8977043 0.2933768 0.8977043 0.2933768 0.1022957 -0.2933768
858 0.0946889 -0.2831579 0.9053111 0.2831579 0.9053111 0.2831579 0.0946889 -0.2831579
897 0.0875964 -0.2731156 0.9124036 0.2731156 0.9124036 0.2731156 0.0875964 -0.2731156
938 0.0809916 -0.2632677 0.9190084 0.2632677 0.9190084 0.2632677 0.0809916 -0.2632677
981 0.0748481 -0.2536296 0.9251519 0.2536296 0.9251519 0.2536296 0.0748481 -0.2536296
1026 0.0691400 -0.2442136 0.9308600 0.2442136 0.9308600 0.2442136 0.0691400 -0.2442136
1073 0.0638420 -0.2350300 0.9361580 0.2350300 0.9361580 0.2350300 0.0638420 -0.2350300
1122 0.0589292 -0.2260869 0.9410708 0.2260869 0.9410708 0.2260869 0.0589292 -0.2260869
1174 0.0543779 -0.2173904 0.9456221 0.2173904 0.9456221 0.2173904 0.0543779 -0.2173904
1227 0.0501650 -0.2089449 0.9498350 0.2089449 0.9498350 0.2089449 0.0501650 -0.2089449
1283 0.0462683 -0.2007531 0.9537317 0.2007531 0.9537317 0.2007531 0.0462683 -0.2007531
1342 0.0426668 -0.1928164 0.9573332 0.1928164 0.9573332 0.1928164 0.0426668 -0.1928164
1404 0.0393404 -0.1851348 0.9606596 0.1851348 0.9606596 0.1851348 0.0393404 -0.1851348
1468 0.0362698 -0.1777074 0.9637302 0.1777074 0.9637302 0.1777074 0.0362698 -0.1777074
1535 0.0334370 -0.1705322 0.9665630 0.1705322 0.9665630 0.1705322 0.0334370 -0.1705322
1606 0.0308249 -0.1636062 0.9691751 0.1636062 0.9691751 0.1636062 0.0308249 -0.1636062
1679 0.0284174 -0.1569260 0.9715826 0.1569260 0.9715826 0.1569260 0.0284174 -0.1569260
1756 0.0261993 -0.1504873 0.9738007 0.1504873 0.9738007 0.1504873 0.0261993 -0.1504873
1836 0.0241564 -0.1442855 0.9758436 0.1442855 0.9758436 0.1442855 0.0241564 -0.1442855
1920 0.0222754 -0.1383153 0.9777246 0.1383153 0.9777246 0.1383153 0.0222754 -0.1383153
2008 0.0205438 -0.1325713 0.9794562 0.1325713 0.9794562 0.1325713 0.0205438 -0.1325713
2100 0.0189502 -0.1270477 0.9810498 0.1270477 0.9810498 0.1270477 0.0189502 -0.1270477
2196 0.0174835 -0.1217384 0.9825165 0.1217384 0.9825165 0.1217384 0.0174835 -0.1217384
2297 0.0161339 -0.1166373 0.9838661 0.1166373 0.9838661 0.1166373 0.0161339 -0.1166373
2402 0.0148921 -0.1117381 0.9851079 0.1117381 0.9851079 0.1117381 0.0148921 -0.1117381
2512 0.0137493 -0.1070343 0.9862507 0.1070343 0.9862507 0.1070343 0.0137493 -0.1070343
2627 0.0126975 -0.1025198 0.9873025 0.1025198 0.9873025 0.1025198 0.0126975 -0.1025198
2748 0.0117295 -0.0981879 0.9882705 0.0981879 0.9882705 0.0981879 0.0117295 -0.0981879
2873 0.0108384 -0.0940325 0.9891616 0.0940325 0.9891616 0.0940325 0.0108384 -0.0940325
3005 0.0100178 -0.0900471 0.9899822 0.0900471 0.9899822 0.0900471 0.0100178 -0.0900471
3143 0.0092621 -0.0862257 0.9907379 0.0862257 0.9907379 0.0862257 0.0092621 -0.0862257
3287 0.0085659 -0.0825621 0.9914341 0.0825621 0.9914341 0.0825621 0.0085659 -0.0825621
3437 0.0079243 -0.0790504 0.9920757 0.0790504 0.9920757 0.0790504 0.0079243 -0.0790504
3594 0.0073328 -0.0756846 0.9926672 0.0756846 0.9926672 0.0756846 0.0073328 -0.0756846
3759 0.0067874 -0.0724592 0.9932126 0.0724592 0.9932126 0.0724592 0.0067874 -0.0724592
3931 0.0062844 -0.0693686 0.9937156 0.0693686 0.9937156 0.0693686 0.0062844 -0.0693686
4111 0.0058201 -0.0664074 0.9941799 0.0664074 0.9941799 0.0664074 0.0058201 -0.0664074
4299 0.0053917 -0.0635704 0.9946083 0.0635704 0.9946083 0.0635704 0.0053917 -0.0635704
4496 0.0049960 -0.0608525 0.9950040 0.0608525 0.9950040 0.0608525 0.0049960 -0.0608525
4702 0.0046307 -0.0582490 0.9953693 0.0582490 0.9953693 0.0582490 0.0046307 -0.0582490
4918 0.0042932 -0.0557552 0.9957068 0.0557552 0.9957068 0.0557552 0.0042932 -0.0557552
5143 0.0039813 -0.0533665 0.9960187 0.0533665 0.9960187 0.0533665 0.0039813 -0.0533665
5378 0.0036932 -0.0510786 0.9963068 0.0510786 0.9963068 0.0510786 0.0036932 -0.0510786
5625 0.0034268 -0.0488874 0.9965732 0.0488874 0.9965732 0.0488874 0.0034268 -0.0488874
5882 0.0031807 -0.0467888 0.9968193 0.0467888 0.9968193 0.0467888 0.0031807 -0.0467888
6151 0.0029532 -0.0447790 0.9970468 0.0447790 0.9970468 0.0447790 0.0029532 -0.0447790
6433 0.0027429 -0.0428544 0.9972571 0.0428544 0.9972571 0.0428544 0.0027429 -0.0428544
6728 0.0025486 -0.0410114 0.9974514 0.0410114 0.9974514 0.0410114 0.0025486 -0.0410114
7036 0.0023690 -0.0392466 0.9976310 0.0392466 0.9976310 0.0392466 0.0023690 -0.0392466
7358 0.0022030 -0.0375568 0.9977970 0.0375568 0.9977970 0.0375568 0.0022030 -0.0375568
7695 0.0020496 -0.0359389 0.9979504 0.0359389 0.9979504 0.0359389 0.0020496 -0.0359389
8047 0.0019079 -0.0343899 0.9980921 0.0343899 0.9980921 0.0343899 0.0019079 -0.0343899
8416 0.0017771 -0.0329070 0.9982229 0.0329070 0.9982229 0.0329070 0.0017771 -0.0329070
8801 0.0016562 -0.0314873 0.9983438 0.0314873 0.9983438 0.0314873 0.0016562 -0.0314873
9204 0.0015446 -0.0301284 0.9984554 0.0301284 0.9984554 0.0301284 0.0015446 -0.0301284
9626 0.0014415 -0.0288276 0.9985585 0.0288276 0.9985585 0.0288276 0.0014415 -0.0288276
10066 0.0013463 -0.0275826 0.9986537 0.0275826 0.9986537 0.0275826 0.0013463 -0.0275826
10527 0.0012583 -0.0263910 0.9987417 0.0263910 0.9987417 0.0263910 0.0012583 -0.0263910
11009 0.0011772 -0.0252507 0.9988228 0.0252507 0.9988228 0.0252507 0.0011772 -0.0252507
11514 0.0011022 -0.0241594 0.9988978 0.0241594 0.9988978 0.0241594 0.0011022 -0.0241594
12041 0.0010329 -0.0231151 0.9989671 0.0231151 0.9989671 0.0231151 0.0010329 -0.0231151
12592 0.0009689 -0.0221159 0.9990311 0.0221159 0.9990311 0.0221159 0.0009689 -0.0221159
13169 0.0009097 -0.0211598 0.9990903 0.0211598 0.9990903 0.0211598 0.0009097 -0.0211598
13772 0.0008550 -0.0202450 0.9991450 0.0202450 0.9991450 0.0202450 0.0008550 -0.0202450
14402 0.0008043 -0.0193698 0.9991957 0.0193698 0.9991957 0.0193698 0.0008043 -0.0193698
15062 0.0007574 -0.0185325 0.9992426 0.0185325 0.9992426 0.0185325 0.0007574 -0.0185325
15752 0.0007139 -0.0177315 0.9992861 0.0177315 0.9992861 0.0177315 0.0007139 -0.0177315
16473 0.0006736 -0.0169652 0.9993264 0.0169652 0.9993264 0.0169652 0.0006736 -0.0169652
17227 0.0006361 -0.0162322 0.9993639 0.0162322 0.9993639 0.0162322 0.0006361 -0.0162322
18016 0.0006013 -0.0155310 0.9993987 0.0155310 0.9993987 0.0155310 0.0006013 -0.0155310
18841 0.0005688 -0.0148602 0.9994312 0.0148602 0.9994312 0.0148602 0.0005688 -0.0148602
19704 0.0005386 -0.0142186 0.9994614 0.0142186 0.9994614 0.0142186 0.0005386 -0.0142186
20606 0.0005104 -0.0136048 0.9994896 0.0136048 0.9994896 0.0136048 0.0005104 -0.0136048
21550 0.0004840 -0.0130177 0.9995160 0.0130177 0.9995160 0.0130177 0.0004840 -0.0130177
22537 0.0004593 -0.0124561 0.9995407 0.0124561 0.9995407 0.0124561 0.0004593 -0.0124561
23569 0.0004361 -0.0119189 0.9995639 0.0119189 0.9995639 0.0119189 0.0004361 -0.0119189
24648 0.0004143 -0.0114049 0.9995857 0.0114049 0.9995857 0.0114049 0.0004143 -0.0114049
25777 0.0003938 -0.0109132 0.9996062 0.0109132 0.9996062 0.0109132 0.0003938 -0.0109132
26957 0.0003745 -0.0104429 0.9996255 0.0104429 0.9996255 0.0104429 0.0003745 -0.0104429
28191 0.0003563 -0.0099929 0.9996437 0.0099929 0.9996437 0.0099929 0.0003563 -0.0099929
29482 0.0003391 -0.0095623 0.9996609 0.0095623 0.9996609 0.0095623 0.0003391 -0.0095623
30832 0.0003229 -0.0091504 0.9996771 0.0091504 0.9996771 0.0091504 0.0003229 -0.0091504
32244 0.0003075 -0.0087562 0.9996925 0.0087562 0.9996925 0.0087562 0.0003075 -0.0087562
33721 0.0002929 -0.0083791 0.9997071 0.0083791 0.9997071 0.0083791 0.0002929 -0.0083791
35265 0.0002792 -0.0080181 0.9997208 0.0080181 0.9997208 0.0080181 0.0002792 -0.0080181
36880 0.0002661 -0.0076728 0.9997339 0.0076728 0.9997339 0.0076728 0.0002661 -0.0076728
38569 0.0002537 -0.0073423 0.9997463 0.0073423 0.9997463 0.0073423 0.0002537 -0.0073423
40335 0.0002419 -0.0070259 0.9997581 0.0070259 0.9997581 0.0070259 0.0002419 -0.0070259
42182 0.0002308 -0.0067232 0.9997692 0.0067232 0.9997692 0.0067232 0.0002308 -0.0067232
44113 0.0002202 -0.0064335 0.9997798 0.0064335 0.9997798 0.0064335 0.0002202 -0.0064335
46134 0.0002102 -0.0061562 0.9997898 0.0061562 0.9997898 0.0061562 0.0002102 -0.0061562
48246 0.0002008 -0.0058908 0.9997992 0.0058908 0.9997992 0.0058908 0.0002008 -0.0058908
50455 0.0001918 -0.0056368 0.9998082 0.0056368 0.9998082 0.0056368 0.0001918 -0.0056368
52766 0.0001833 -0.0053937 0.9998167 0.0053937 0.9998167 0.0053937 0.0001833 -0.0053937
55182 0.0001753 -0.0051610 0.9998247 0.0051610 0.9998247 0.0051610 0.0001753 -0.0051610
57709 0.0001678 -0.0049383 0.9998322 0.0049383 0.9998322 0.0049383 0.0001678 -0.0049383
60352 0.0001606 -0.0047252 0.9998394 0.0047252 0.9998394 0.0047252 0.0001606 -0.0047252
63115 0.0001539 -0.0045212 0.9998461 0.0045212 0.9998461 0.0045212 0.0001539 -0.0045212
66005 0.0001475 -0.0043259 0.9998525 0.0043259 0.9998525 0.0043259 0.0001475 -0.0043259
69028 0.0001415 -0.0041391 0.9998585 0.0041391 0.9998585 0.0041391 0.0001415 -0.0041391
72189 0.0001358 -0.0039603 0.9998642 0.0039603 0.9998642 0.0039603 0.0001358 -0.0039603
75495 0.0001305 -0.0037891 0.9998695 0.0037891 0.9998695 0.0037891 0.0001305 -0.0037891
78952 0.0001254 -0.0036254 0.9998746 0.0036254 0.9998746 0.0036254 0.0001254 -0.0036254
82567 0.0001206 -0.0034687 0.9998794 0.0034687 0.9998794 0.0034687 0.0001206 -0.0034687
86348 0.0001161 -0.0033187 0.9998839 0.0033187 0.9998839 0.0033187 0.0001161 -0.0033187
90302 0.0001119 -0.0031752 0.9998881 0.0031752 0.9998881 0.0031752 0.0001119 -0.0031752
94437 0.0001078 -0.0030379 0.9998922 0.0030379 0.9998922 0.0030379 0.0001078 -0.0030379
98762 0.0001040 -0.0029065 0.9998960 0.0029065 0.9998960 0.0029065 0.0001040 -0.0029065
103284 0.0001004 -0.0027807 0.9998996 0.0027807 0.9998996 0.0027807 0.0001004 -0.0027807
108014 0.0000969 -0.0026604 0.9999031 0.0026604 0.9999031 0.0026604 0.0000969 -0.0026604
112960 0.0000937 -0.0025453 0.9999063 0.0025453 0.9999063 0.0025453 0.0000937 -0.0025453
118133 0.0000906 -0.0024351 0.9999094 0.0024351 0.9999094 0.0024351 0.0000906 -0.0024351
123542 0.0000876 -0.0023296 0.9999124 0.0023296 0.9999124 0.0023296 0.0000876 -0.0023296
129199 0.0000848 -0.0022287 0.9999152 0.0022287 0.9999152 0.0022287 0.0000848 -0.0022287
135116 0.0000821 -0.0021321 0.9999179 0.0021321 0.9999179 0.0021321 0.0000821 -0.0021321
141303 0.0000795 -0.0020397 0.9999205 0.0020397 0.9999205 0.0020397 0.0000795 -0.0020397
147774 0.0000770 -0.0019512 0.9999230 0.0019512 0.9999230 0.0019512 0.0000770 -0.0019512
154540 0.0000746 -0.0018666 0.9999254 0.0018666 0.9999254 0.0018666 0.0000746 -0.0018666
161617 0.0000724 -0.0017855 0.9999276 0.0017855 0.9999276 0.0017855 0.0000724 -0.0017855
169018 0.0000702 -0.0017079 0.9999298 0.0017079 0.9999298 0.0017079 0.0000702 -0.0017079
176758 0.0000681 -0.0016336 0.9999319 0.0016336 0.9999319 0.0016336 0.0000681 -0.0016336
184852 0.0000661 -0.0015625 0.9999339 0.0015625 0.9999339 0.0015625 0.0000661 -0.0015625
193316 0.0000642 -0.0014944 0.9999358 0.0014944 0.9999358 0.0014944 0.0000642 -0.0014944
202169 0.0000624 -0.0014292 0.9999376 0.0014292 0.9999376 0.0014292 0.0000624 -0.0014292
211427 0.0000607 -0.0013667 0.9999393 0.0013667 0.9999393 0.0013667 0.0000607 -0.0013667
221108 0.0000590 -0.0013069 0.9999410 0.0013069 0.9999410 0.0013069 0.0000590 -0.0013069
231233 0.0000574 -0.0012496 0.9999426 0.0012496 0.9999426 0.0012496 0.0000574 -0.0012496
241822 0.0000559 -0.0011947 0.9999441 0.0011947 0.9999441 0.0011947 0.0000559 -0.0011947
252896 0.0000545 -0.0011421 0.9999455 0.0011421 0.9999455 0.0011421 0.0000545 -0.0011421
264476 0.0000531 -0.0010918 0.9999469 0.0010918 0.9999469 0.0010918 0.0000531 -0.0010918
276587 0.0000518 -0.0010435 0.9999482 0.0010435 0.9999482 0.0010435 0.0000518 -0.0010435
289253 0.0000506 -0.0009973 0.9999494 0.0009973 0.9999494 0.0009973 0.0000506 -0.0009973
302498 0.0000494 -0.0009530 0.9999506 0.0009530 0.9999506 0.0009530 0.0000494 -0.0009530
316350 0.0000483 -0.0009105 0.9999517 0.0009105 0.9999517 0.0009105 0.0000483 -0.0009105
330837 0.0000473 -0.0008698 0.9999527 0.0008698 0.9999527 0.0008698 0.0000473 -0.0008698
345986 0.0000464 -0.0008308 0.9999536 0.0008308 0.9999536 0.0008308 0.0000464 -0.0008308
361830 0.0000455 -0.0007934 0.9999545 0.0007934 0.9999545 0.0007934 0.0000455 -0.0007934
378399 0.0000446 -0.0007575 0.9999554 0.0007575 0.9999554 0.0007575 0.0000446 -0.0007575
395726 0.0000439 -0.0007231 0.9999561 0.0007231 0.9999561 0.0007231 0.0000439 -0.0007231
413847 0.0000431 -0.0006902 0.9999569 0.0006902 0.9999569 0.0006902 0.0000431 -0.0006902
432798 0.0000425 -0.0006585 0.9999575 0.0006585 0.9999575 0.0006585 0.0000425 -0.0006585
452617 0.0000418 -0.0006282 0.9999582 0.0006282 0.9999582 0.0006282 0.0000418 -0.0006282
473344 0.0000413 -0.0005991 0.9999587 0.0005991 0.9999587 0.0005991 0.0000413 -0.0005991
495019 0.0000407 -0.0005712 0.9999593 0.0005712 0.9999593 0.0005712 0.0000407 -0.0005712
517687 0.0000402 -0.0005443 0.9999598 0.0005443 0.9999598 0.0005443 0.0000402 -0.0005443
541393 0.0000398 -0.0005186 0.9999602 0.0005186 0.9999602 0.0005186 0.0000398 -0.0005186
566185 0.0000394 -0.0004939 0.9999606 0.0004939 0.9999606 0.0004939 0.0000394 -0.0004939
592111 0.0000390 -0.0004701 0.9999610 0.0004701 0.9999610 0.0004701 0.0000390 -0.0004701
619225 0.0000387 -0.0004473 0.9999613 0.0004473 0.9999613 0.0004473 0.0000387 -0.0004473
647581 0.0000384 -0.0004253 0.9999616 0.0004253 0.9999616 0.0004253 0.0000384 -0.0004253
677235 0.0000382 -0.0004042 0.9999618 0.0004042 0.9999618 0.0004042 0.0000382 -0.0004042
708247 0.0000379 -0.0003839 0.9999621 0.0003839 0.9999621 0.0003839 0.0000379 -0.0003839
740679 0.0000378 -0.0003644 0.9999622 0.0003644 0.9999622 0.0003644 0.0000378 -0.0003644
774597 0.0000376 -0.0003456 0.9999624 0.0003456 0.9999624 0.0003456 0.0000376 -0.0003456
810067 0.0000375 -0.0003274 0.9999625 0.0003274 0.9999625 0.0003274 0.0000375 -0.0003274
847162 0.0000374 -0.0003099 0.9999626 0.0003099 0.9999626 0.0003099 0.0000374 -0.0003099
885955 0.0000373 -0.0002930 0.9999627 0.0002930 0.9999627 0.0002930 0.0000373 -0.0002930
926525 0.0000372 -0.0002768 0.9999628 0.0002768 0.9999628 0.0002768 0.0000372 -0.0002768
968953 0.0000372 -0.0002610 0.9999628 0.0002610 0.9999628 0.0002610 0.0000372 -0.0002610
1013323 0.0000372 -0.0002458 0.9999628 0.0002458 0.9999628 0.0002458 0.0000372 -0.0002458
1059725 0.0000373 -0.0002310 0.9999627 0.0002310 0.9999627 0.0002310 0.0000373 -0.0002310
1108252 0.0000374 -0.0002167 0.9999626 0.0002167 0.9999626 0.0002167 0.0000374 -0.0002167
1159002 0.0000375 -0.0002029 0.9999625 0.0002029 0.9999625 0.0002029 0.0000375 -0.0002029
1212075 0.0000376 -0.0001894 0.9999624 0.0001894 0.9999624 0.0001894 0.0000376 -0.0001894
1267578 0.0000378 -0.0001763 0.9999622 0.0001763 0.9999622 0.0001763 0.0000378 -0.0001763
1325623 0.0000380 -0.0001636 0.9999620 0.0001636 0.9999620 0.0001636 0.0000380 -0.0001636
1386327 0.0000382 -0.0001512 0.9999618 0.0001512 0.9999618 0.0001512 0.0000382 -0.0001512
1449809 0.0000385 -0.0001391 0.9999615 0.0001391 0.9999615 0.0001391 0.0000385 -0.0001391
1516199 0.0000388 -0.0001272 0.9999612 0.0001272 0.9999612 0.0001272 0.0000388 -0.0001272
1585629 0.0000392 -0.0001157 0.9999608 0.0001157 0.9999608 0.0001157 0.0000392 -0.0001157
1658239 0.0000396 -0.0001043 0.9999604 0.0001043 0.9999604 0.0001043 0.0000396 -0.0001043
1734173 0.0000401 -0.0000931 0.9999599 0.0000931 0.9999599 0.0000931 0.0000401 -0.0000931
1813585 0.0000407 -0.0000821 0.9999593 0.0000821 0.9999593 0.0000821 0.0000407 -0.0000821
1896632 0.0000413 -0.0000712 0.9999587 0.0000712 0.9999587 0.0000712 0.0000413 -0.0000712
1983483 0.0000420 -0.0000605 0.9999580 0.0000605 0.9999580 0.0000605 0.0000420 -0.0000605
2074311 0.0000427 -0.0000499 0.9999573 0.0000499 0.9999573 0.0000499 0.0000427 -0.0000499
