!Murata Part Number: GRM21BR60J476ME01
!These Parameters are Measured in Series Mode Connection
!Data Generated on Mar 30, 2021
!       o--ll--o
!Port1            Port2
!       o------o
!Operation Temp=25[degC], DC Bias Voltage=0[V]
!Freq. Start=100[Hz] Stop=6[GHz] 401[Steps]
# Hz S RI R 50
!Freq.(Hz) S11(Real) S11(Imag) S21(Real) S21(Imag) S12(Real) S12(Imag) S22(Real) S22(Imag)
100 0.1515419 -0.3533823 0.8484581 0.3533823 0.8484581 0.3533823 0.1515419 -0.3533823
105 0.1406069 -0.3424226 0.8593931 0.3424226 0.8593931 0.3424226 0.1406069 -0.3424226
109 0.1303455 -0.3314885 0.8696545 0.3314885 0.8696545 0.3314885 0.1303455 -0.3314885
114 0.1207336 -0.3206185 0.8792664 0.3206185 0.8792664 0.3206185 0.1207336 -0.3206185
120 0.1117457 -0.3098474 0.8882543 0.3098474 0.8882543 0.3098474 0.1117457 -0.3098474
125 0.1033547 -0.2992060 0.8966453 0.2992060 0.8966453 0.2992060 0.1033547 -0.2992060
131 0.0955325 -0.2887214 0.9044675 0.2887214 0.9044675 0.2887214 0.0955325 -0.2887214
137 0.0882505 -0.2784170 0.9117495 0.2784170 0.9117495 0.2784170 0.0882505 -0.2784170
143 0.0814801 -0.2683128 0.9185199 0.2683128 0.9185199 0.2683128 0.0814801 -0.2683128
150 0.0751927 -0.2584256 0.9248073 0.2584256 0.9248073 0.2584256 0.0751927 -0.2584256
156 0.0693600 -0.2487693 0.9306400 0.2487693 0.9306400 0.2487693 0.0693600 -0.2487693
164 0.0639544 -0.2393550 0.9360456 0.2393550 0.9360456 0.2393550 0.0639544 -0.2393550
171 0.0589493 -0.2301913 0.9410507 0.2301913 0.9410507 0.2301913 0.0589493 -0.2301913
179 0.0543186 -0.2212848 0.9456814 0.2212848 0.9456814 0.2212848 0.0543186 -0.2212848
187 0.0500374 -0.2126397 0.9499626 0.2126397 0.9499626 0.2126397 0.0500374 -0.2126397
196 0.0460822 -0.2042587 0.9539178 0.2042587 0.9539178 0.2042587 0.0460822 -0.2042587
205 0.0424301 -0.1961429 0.9575699 0.1961429 0.9575699 0.1961429 0.0424301 -0.1961429
214 0.0390599 -0.1882919 0.9609401 0.1882919 0.9609401 0.1882919 0.0390599 -0.1882919
224 0.0359512 -0.1807042 0.9640488 0.1807042 0.9640488 0.1807042 0.0359512 -0.1807042
234 0.0330850 -0.1733771 0.9669150 0.1733771 0.9669150 0.1733771 0.0330850 -0.1733771
245 0.0304433 -0.1663073 0.9695567 0.1663073 0.9695567 0.1663073 0.0304433 -0.1663073
256 0.0280095 -0.1594905 0.9719905 0.1594905 0.9719905 0.1594905 0.0280095 -0.1594905
268 0.0257679 -0.1529219 0.9742321 0.1529219 0.9742321 0.1529219 0.0257679 -0.1529219
280 0.0237039 -0.1465963 0.9762961 0.1465963 0.9762961 0.1465963 0.0237039 -0.1465963
293 0.0218039 -0.1405079 0.9781961 0.1405079 0.9781961 0.1405079 0.0218039 -0.1405079
306 0.0200552 -0.1346506 0.9799448 0.1346506 0.9799448 0.1346506 0.0200552 -0.1346506
320 0.0184463 -0.1290184 0.9815537 0.1290184 0.9815537 0.1290184 0.0184463 -0.1290184
335 0.0169661 -0.1236047 0.9830339 0.1236047 0.9830339 0.1236047 0.0169661 -0.1236047
350 0.0156047 -0.1184031 0.9843953 0.1184031 0.9843953 0.1184031 0.0156047 -0.1184031
366 0.0143527 -0.1134069 0.9856473 0.1134069 0.9856473 0.1134069 0.0143527 -0.1134069
383 0.0132016 -0.1086097 0.9867984 0.1086097 0.9867984 0.1086097 0.0132016 -0.1086097
401 0.0121434 -0.1040048 0.9878566 0.1040048 0.9878566 0.1040048 0.0121434 -0.1040048
419 0.0111707 -0.0995858 0.9888293 0.0995858 0.9888293 0.0995858 0.0111707 -0.0995858
438 0.0102769 -0.0953463 0.9897231 0.0953463 0.9897231 0.0953463 0.0102769 -0.0953463
458 0.0094555 -0.0912798 0.9905445 0.0912798 0.9905445 0.0912798 0.0094555 -0.0912798
479 0.0087010 -0.0873802 0.9912990 0.0873802 0.9912990 0.0873802 0.0087010 -0.0873802
501 0.0080078 -0.0836415 0.9919922 0.0836415 0.9919922 0.0836415 0.0080078 -0.0836415
524 0.0073712 -0.0800576 0.9926288 0.0800576 0.9926288 0.0800576 0.0073712 -0.0800576
548 0.0067866 -0.0766229 0.9932134 0.0766229 0.9932134 0.0766229 0.0067866 -0.0766229
573 0.0062497 -0.0733315 0.9937503 0.0733315 0.9937503 0.0733315 0.0062497 -0.0733315
600 0.0057568 -0.0701781 0.9942432 0.0701781 0.9942432 0.0701781 0.0057568 -0.0701781
627 0.0053042 -0.0671573 0.9946958 0.0671573 0.9946958 0.0671573 0.0053042 -0.0671573
656 0.0048887 -0.0642640 0.9951113 0.0642640 0.9951113 0.0642640 0.0048887 -0.0642640
686 0.0045073 -0.0614931 0.9954927 0.0614931 0.9954927 0.0614931 0.0045073 -0.0614931
717 0.0041571 -0.0588397 0.9958429 0.0588397 0.9958429 0.0588397 0.0041571 -0.0588397
750 0.0038357 -0.0562992 0.9961643 0.0562992 0.9961643 0.0562992 0.0038357 -0.0562992
784 0.0035405 -0.0538670 0.9964595 0.0538670 0.9964595 0.0538670 0.0035405 -0.0538670
820 0.0032695 -0.0515387 0.9967305 0.0515387 0.9967305 0.0515387 0.0032695 -0.0515387
858 0.0030206 -0.0493101 0.9969794 0.0493101 0.9969794 0.0493101 0.0030206 -0.0493101
897 0.0027921 -0.0471771 0.9972079 0.0471771 0.9972079 0.0471771 0.0027921 -0.0471771
938 0.0025821 -0.0451358 0.9974179 0.0451358 0.9974179 0.0451358 0.0025821 -0.0451358
981 0.0023891 -0.0431822 0.9976109 0.0431822 0.9976109 0.0431822 0.0023891 -0.0431822
1026 0.0022116 -0.0413129 0.9977884 0.0413129 0.9977884 0.0413129 0.0022116 -0.0413129
1073 0.0020485 -0.0395242 0.9979515 0.0395242 0.9979515 0.0395242 0.0020485 -0.0395242
1122 0.0018984 -0.0378128 0.9981016 0.0378128 0.9981016 0.0378128 0.0018984 -0.0378128
1174 0.0017602 -0.0361753 0.9982398 0.0361753 0.9982398 0.0361753 0.0017602 -0.0361753
1227 0.0016329 -0.0346087 0.9983671 0.0346087 0.9983671 0.0346087 0.0016329 -0.0346087
1283 0.0015156 -0.0331099 0.9984844 0.0331099 0.9984844 0.0331099 0.0015156 -0.0331099
1342 0.0014074 -0.0316760 0.9985926 0.0316760 0.9985926 0.0316760 0.0014074 -0.0316760
1404 0.0013076 -0.0303042 0.9986924 0.0303042 0.9986924 0.0303042 0.0013076 -0.0303042
1468 0.0012153 -0.0289919 0.9987847 0.0289919 0.9987847 0.0289919 0.0012153 -0.0289919
1535 0.0011301 -0.0277364 0.9988699 0.0277364 0.9988699 0.0277364 0.0011301 -0.0277364
1606 0.0010513 -0.0265353 0.9989487 0.0265353 0.9989487 0.0265353 0.0010513 -0.0265353
1679 0.0009783 -0.0253863 0.9990217 0.0253863 0.9990217 0.0253863 0.0009783 -0.0253863
1756 0.0009107 -0.0242871 0.9990893 0.0242871 0.9990893 0.0242871 0.0009107 -0.0242871
1836 0.0008480 -0.0232354 0.9991520 0.0232354 0.9991520 0.0232354 0.0008480 -0.0232354
1920 0.0007898 -0.0222293 0.9992102 0.0222293 0.9992102 0.0222293 0.0007898 -0.0222293
2008 0.0007358 -0.0212667 0.9992642 0.0212667 0.9992642 0.0212667 0.0007358 -0.0212667
2100 0.0006856 -0.0203457 0.9993144 0.0203457 0.9993144 0.0203457 0.0006856 -0.0203457
2196 0.0006389 -0.0194645 0.9993611 0.0194645 0.9993611 0.0194645 0.0006389 -0.0194645
2297 0.0005955 -0.0186215 0.9994045 0.0186215 0.9994045 0.0186215 0.0005955 -0.0186215
2402 0.0005551 -0.0178148 0.9994449 0.0178148 0.9994449 0.0178148 0.0005551 -0.0178148
2512 0.0005176 -0.0170429 0.9994824 0.0170429 0.9994824 0.0170429 0.0005176 -0.0170429
2627 0.0004826 -0.0163044 0.9995174 0.0163044 0.9995174 0.0163044 0.0004826 -0.0163044
2748 0.0004501 -0.0155977 0.9995499 0.0155977 0.9995499 0.0155977 0.0004501 -0.0155977
2873 0.0004197 -0.0149214 0.9995803 0.0149214 0.9995803 0.0149214 0.0004197 -0.0149214
3005 0.0003915 -0.0142743 0.9996085 0.0142743 0.9996085 0.0142743 0.0003915 -0.0142743
3143 0.0003653 -0.0136552 0.9996347 0.0136552 0.9996347 0.0136552 0.0003653 -0.0136552
3287 0.0003409 -0.0130627 0.9996591 0.0130627 0.9996591 0.0130627 0.0003409 -0.0130627
3437 0.0003182 -0.0124957 0.9996818 0.0124957 0.9996818 0.0124957 0.0003182 -0.0124957
3594 0.0002971 -0.0119532 0.9997029 0.0119532 0.9997029 0.0119532 0.0002971 -0.0119532
3759 0.0002774 -0.0114341 0.9997226 0.0114341 0.9997226 0.0114341 0.0002774 -0.0114341
3931 0.0002592 -0.0109373 0.9997408 0.0109373 0.9997408 0.0109373 0.0002592 -0.0109373
4111 0.0002423 -0.0104620 0.9997577 0.0104620 0.9997577 0.0104620 0.0002423 -0.0104620
4299 0.0002266 -0.0100073 0.9997734 0.0100073 0.9997734 0.0100073 0.0002266 -0.0100073
4496 0.0002121 -0.0095721 0.9997879 0.0095721 0.9997879 0.0095721 0.0002121 -0.0095721
4702 0.0001986 -0.0091558 0.9998014 0.0091558 0.9998014 0.0091558 0.0001986 -0.0091558
4918 0.0001861 -0.0087574 0.9998139 0.0087574 0.9998139 0.0087574 0.0001861 -0.0087574
5143 0.0001746 -0.0083763 0.9998254 0.0083763 0.9998254 0.0083763 0.0001746 -0.0083763
5378 0.0001639 -0.0080117 0.9998361 0.0080117 0.9998361 0.0080117 0.0001639 -0.0080117
5625 0.0001540 -0.0076629 0.9998460 0.0076629 0.9998460 0.0076629 0.0001540 -0.0076629
5882 0.0001449 -0.0073292 0.9998551 0.0073292 0.9998551 0.0073292 0.0001449 -0.0073292
6151 0.0001364 -0.0070100 0.9998636 0.0070100 0.9998636 0.0070100 0.0001364 -0.0070100
6433 0.0001286 -0.0067046 0.9998714 0.0067046 0.9998714 0.0067046 0.0001286 -0.0067046
6728 0.0001214 -0.0064125 0.9998786 0.0064125 0.9998786 0.0064125 0.0001214 -0.0064125
7036 0.0001148 -0.0061331 0.9998852 0.0061331 0.9998852 0.0061331 0.0001148 -0.0061331
7358 0.0001086 -0.0058658 0.9998914 0.0058658 0.9998914 0.0058658 0.0001086 -0.0058658
7695 0.0001029 -0.0056102 0.9998971 0.0056102 0.9998971 0.0056102 0.0001029 -0.0056102
8047 0.0000977 -0.0053657 0.9999023 0.0053657 0.9999023 0.0053657 0.0000977 -0.0053657
8416 0.0000929 -0.0051318 0.9999071 0.0051318 0.9999071 0.0051318 0.0000929 -0.0051318
8801 0.0000884 -0.0049081 0.9999116 0.0049081 0.9999116 0.0049081 0.0000884 -0.0049081
9204 0.0000842 -0.0046942 0.9999158 0.0046942 0.9999158 0.0046942 0.0000842 -0.0046942
9626 0.0000804 -0.0044896 0.9999196 0.0044896 0.9999196 0.0044896 0.0000804 -0.0044896
10066 0.0000769 -0.0042940 0.9999231 0.0042940 0.9999231 0.0042940 0.0000769 -0.0042940
10527 0.0000736 -0.0041069 0.9999264 0.0041069 0.9999264 0.0041069 0.0000736 -0.0041069
11009 0.0000705 -0.0039279 0.9999295 0.0039279 0.9999295 0.0039279 0.0000705 -0.0039279
11514 0.0000677 -0.0037568 0.9999323 0.0037568 0.9999323 0.0037568 0.0000677 -0.0037568
12041 0.0000650 -0.0035931 0.9999350 0.0035931 0.9999350 0.0035931 0.0000650 -0.0035931
12592 0.0000626 -0.0034366 0.9999374 0.0034366 0.9999374 0.0034366 0.0000626 -0.0034366
13169 0.0000603 -0.0032870 0.9999397 0.0032870 0.9999397 0.0032870 0.0000603 -0.0032870
13772 0.0000581 -0.0031439 0.9999419 0.0031439 0.9999419 0.0031439 0.0000581 -0.0031439
14402 0.0000561 -0.0030070 0.9999439 0.0030070 0.9999439 0.0030070 0.0000561 -0.0030070
15062 0.0000542 -0.0028761 0.9999458 0.0028761 0.9999458 0.0028761 0.0000542 -0.0028761
15752 0.0000524 -0.0027510 0.9999476 0.0027510 0.9999476 0.0027510 0.0000524 -0.0027510
16473 0.0000507 -0.0026313 0.9999493 0.0026313 0.9999493 0.0026313 0.0000507 -0.0026313
17227 0.0000490 -0.0025169 0.9999510 0.0025169 0.9999510 0.0025169 0.0000490 -0.0025169
18016 0.0000475 -0.0024074 0.9999525 0.0024074 0.9999525 0.0024074 0.0000475 -0.0024074
18841 0.0000460 -0.0023027 0.9999540 0.0023027 0.9999540 0.0023027 0.0000460 -0.0023027
19704 0.0000446 -0.0022026 0.9999554 0.0022026 0.9999554 0.0022026 0.0000446 -0.0022026
20606 0.0000433 -0.0021069 0.9999567 0.0021069 0.9999567 0.0021069 0.0000433 -0.0021069
21550 0.0000420 -0.0020153 0.9999580 0.0020153 0.9999580 0.0020153 0.0000420 -0.0020153
22537 0.0000407 -0.0019277 0.9999593 0.0019277 0.9999593 0.0019277 0.0000407 -0.0019277
23569 0.0000395 -0.0018439 0.9999605 0.0018439 0.9999605 0.0018439 0.0000395 -0.0018439
24648 0.0000384 -0.0017638 0.9999616 0.0017638 0.9999616 0.0017638 0.0000384 -0.0017638
25777 0.0000372 -0.0016871 0.9999628 0.0016871 0.9999628 0.0016871 0.0000372 -0.0016871
26957 0.0000362 -0.0016138 0.9999638 0.0016138 0.9999638 0.0016138 0.0000362 -0.0016138
28191 0.0000351 -0.0015437 0.9999649 0.0015437 0.9999649 0.0015437 0.0000351 -0.0015437
29482 0.0000341 -0.0014766 0.9999659 0.0014766 0.9999659 0.0014766 0.0000341 -0.0014766
30832 0.0000331 -0.0014124 0.9999669 0.0014124 0.9999669 0.0014124 0.0000331 -0.0014124
32244 0.0000322 -0.0013509 0.9999678 0.0013509 0.9999678 0.0013509 0.0000322 -0.0013509
33721 0.0000313 -0.0012922 0.9999687 0.0012922 0.9999687 0.0012922 0.0000313 -0.0012922
35265 0.0000304 -0.0012359 0.9999696 0.0012359 0.9999696 0.0012359 0.0000304 -0.0012359
36880 0.0000295 -0.0011821 0.9999705 0.0011821 0.9999705 0.0011821 0.0000295 -0.0011821
38569 0.0000287 -0.0011306 0.9999713 0.0011306 0.9999713 0.0011306 0.0000287 -0.0011306
40335 0.0000280 -0.0010813 0.9999720 0.0010813 0.9999720 0.0010813 0.0000280 -0.0010813
42182 0.0000272 -0.0010342 0.9999728 0.0010342 0.9999728 0.0010342 0.0000272 -0.0010342
44113 0.0000265 -0.0009890 0.9999735 0.0009890 0.9999735 0.0009890 0.0000265 -0.0009890
46134 0.0000258 -0.0009458 0.9999742 0.0009458 0.9999742 0.0009458 0.0000258 -0.0009458
48246 0.0000252 -0.0009045 0.9999748 0.0009045 0.9999748 0.0009045 0.0000252 -0.0009045
50455 0.0000246 -0.0008649 0.9999754 0.0008649 0.9999754 0.0008649 0.0000246 -0.0008649
52766 0.0000240 -0.0008271 0.9999760 0.0008271 0.9999760 0.0008271 0.0000240 -0.0008271
55182 0.0000234 -0.0007908 0.9999766 0.0007908 0.9999766 0.0007908 0.0000234 -0.0007908
57709 0.0000229 -0.0007561 0.9999771 0.0007561 0.9999771 0.0007561 0.0000229 -0.0007561
60352 0.0000224 -0.0007229 0.9999776 0.0007229 0.9999776 0.0007229 0.0000224 -0.0007229
63115 0.0000220 -0.0006911 0.9999780 0.0006911 0.9999780 0.0006911 0.0000220 -0.0006911
66005 0.0000216 -0.0006607 0.9999784 0.0006607 0.9999784 0.0006607 0.0000216 -0.0006607
69028 0.0000212 -0.0006316 0.9999788 0.0006316 0.9999788 0.0006316 0.0000212 -0.0006316
72189 0.0000208 -0.0006037 0.9999792 0.0006037 0.9999792 0.0006037 0.0000208 -0.0006037
75495 0.0000204 -0.0005770 0.9999796 0.0005770 0.9999796 0.0005770 0.0000204 -0.0005770
78952 0.0000201 -0.0005515 0.9999799 0.0005515 0.9999799 0.0005515 0.0000201 -0.0005515
82567 0.0000198 -0.0005270 0.9999802 0.0005270 0.9999802 0.0005270 0.0000198 -0.0005270
86348 0.0000195 -0.0005036 0.9999805 0.0005036 0.9999805 0.0005036 0.0000195 -0.0005036
90302 0.0000193 -0.0004812 0.9999807 0.0004812 0.9999807 0.0004812 0.0000193 -0.0004812
94437 0.0000190 -0.0004597 0.9999810 0.0004597 0.9999810 0.0004597 0.0000190 -0.0004597
98762 0.0000188 -0.0004392 0.9999812 0.0004392 0.9999812 0.0004392 0.0000188 -0.0004392
103284 0.0000186 -0.0004195 0.9999814 0.0004195 0.9999814 0.0004195 0.0000186 -0.0004195
108014 0.0000184 -0.0004007 0.9999816 0.0004007 0.9999816 0.0004007 0.0000184 -0.0004007
112960 0.0000182 -0.0003826 0.9999818 0.0003826 0.9999818 0.0003826 0.0000182 -0.0003826
118133 0.0000181 -0.0003653 0.9999819 0.0003653 0.9999819 0.0003653 0.0000181 -0.0003653
123542 0.0000179 -0.0003488 0.9999821 0.0003488 0.9999821 0.0003488 0.0000179 -0.0003488
129199 0.0000178 -0.0003329 0.9999822 0.0003329 0.9999822 0.0003329 0.0000178 -0.0003329
135116 0.0000177 -0.0003177 0.9999823 0.0003177 0.9999823 0.0003177 0.0000177 -0.0003177
141303 0.0000176 -0.0003031 0.9999824 0.0003031 0.9999824 0.0003031 0.0000176 -0.0003031
147774 0.0000175 -0.0002891 0.9999825 0.0002891 0.9999825 0.0002891 0.0000175 -0.0002891
154540 0.0000174 -0.0002757 0.9999826 0.0002757 0.9999826 0.0002757 0.0000174 -0.0002757
161617 0.0000174 -0.0002629 0.9999826 0.0002629 0.9999826 0.0002629 0.0000174 -0.0002629
169018 0.0000173 -0.0002506 0.9999827 0.0002506 0.9999827 0.0002506 0.0000173 -0.0002506
176758 0.0000172 -0.0002388 0.9999828 0.0002388 0.9999828 0.0002388 0.0000172 -0.0002388
184852 0.0000172 -0.0002274 0.9999828 0.0002274 0.9999828 0.0002274 0.0000172 -0.0002274
193316 0.0000172 -0.0002165 0.9999828 0.0002165 0.9999828 0.0002165 0.0000172 -0.0002165
202169 0.0000171 -0.0002061 0.9999829 0.0002061 0.9999829 0.0002061 0.0000171 -0.0002061
211427 0.0000171 -0.0001960 0.9999829 0.0001960 0.9999829 0.0001960 0.0000171 -0.0001960
221108 0.0000171 -0.0001864 0.9999829 0.0001864 0.9999829 0.0001864 0.0000171 -0.0001864
231233 0.0000171 -0.0001771 0.9999829 0.0001771 0.9999829 0.0001771 0.0000171 -0.0001771
241822 0.0000171 -0.0001682 0.9999829 0.0001682 0.9999829 0.0001682 0.0000171 -0.0001682
252896 0.0000171 -0.0001596 0.9999829 0.0001596 0.9999829 0.0001596 0.0000171 -0.0001596
264476 0.0000171 -0.0001513 0.9999829 0.0001513 0.9999829 0.0001513 0.0000171 -0.0001513
276587 0.0000172 -0.0001434 0.9999828 0.0001434 0.9999828 0.0001434 0.0000172 -0.0001434
289253 0.0000172 -0.0001357 0.9999828 0.0001357 0.9999828 0.0001357 0.0000172 -0.0001357
302498 0.0000173 -0.0001283 0.9999827 0.0001283 0.9999827 0.0001283 0.0000173 -0.0001283
316350 0.0000173 -0.0001211 0.9999827 0.0001211 0.9999827 0.0001211 0.0000173 -0.0001211
330837 0.0000174 -0.0001142 0.9999826 0.0001142 0.9999826 0.0001142 0.0000174 -0.0001142
345986 0.0000175 -0.0001075 0.9999825 0.0001075 0.9999825 0.0001075 0.0000175 -0.0001075
361830 0.0000176 -0.0001011 0.9999824 0.0001011 0.9999824 0.0001011 0.0000176 -0.0001011
378399 0.0000177 -0.0000948 0.9999823 0.0000948 0.9999823 0.0000948 0.0000177 -0.0000948
395726 0.0000178 -0.0000887 0.9999822 0.0000887 0.9999822 0.0000887 0.0000178 -0.0000887
413847 0.0000179 -0.0000828 0.9999821 0.0000828 0.9999821 0.0000828 0.0000179 -0.0000828
432798 0.0000181 -0.0000771 0.9999819 0.0000771 0.9999819 0.0000771 0.0000181 -0.0000771
452617 0.0000182 -0.0000715 0.9999818 0.0000715 0.9999818 0.0000715 0.0000182 -0.0000715
473344 0.0000184 -0.0000661 0.9999816 0.0000661 0.9999816 0.0000661 0.0000184 -0.0000661
495019 0.0000186 -0.0000608 0.9999814 0.0000608 0.9999814 0.0000608 0.0000186 -0.0000608
517687 0.0000189 -0.0000556 0.9999811 0.0000556 0.9999811 0.0000556 0.0000189 -0.0000556
541393 0.0000191 -0.0000505 0.9999809 0.0000505 0.9999809 0.0000505 0.0000191 -0.0000505
566185 0.0000194 -0.0000455 0.9999806 0.0000455 0.9999806 0.0000455 0.0000194 -0.0000455
592111 0.0000197 -0.0000406 0.9999803 0.0000406 0.9999803 0.0000406 0.0000197 -0.0000406
619225 0.0000201 -0.0000358 0.9999799 0.0000358 0.9999799 0.0000358 0.0000201 -0.0000358
647581 0.0000205 -0.0000311 0.9999795 0.0000311 0.9999795 0.0000311 0.0000205 -0.0000311
677235 0.0000209 -0.0000264 0.9999791 0.0000264 0.9999791 0.0000264 0.0000209 -0.0000264
708247 0.0000214 -0.0000218 0.9999786 0.0000218 0.9999786 0.0000218 0.0000214 -0.0000218
740679 0.0000220 -0.0000172 0.9999780 0.0000172 0.9999780 0.0000172 0.0000220 -0.0000172
774597 0.0000226 -0.0000126 0.9999774 0.0000126 0.9999774 0.0000126 0.0000226 -0.0000126
810067 0.0000233 -0.0000081 0.9999767 0.0000081 0.9999767 0.0000081 0.0000233 -0.0000081
847162 0.0000242 -0.0000035 0.9999758 0.0000035 0.9999758 0.0000035 0.0000242 -0.0000035
885955 0.0000251 0.0000010 0.9999749 -0.0000010 0.9999749 -0.0000010 0.0000251 0.0000010
926525 0.0000261 0.0000055 0.9999739 -0.0000055 0.9999739 -0.0000055 0.0000261 0.0000055
968953 0.0000273 0.0000100 0.9999727 -0.0000100 0.9999727 -0.0000100 0.0000273 0.0000100
1013323 0.0000287 0.0000145 0.9999713 -0.0000145 0.9999713 -0.0000145 0.0000287 0.0000145
1059725 0.0000303 0.0000189 0.9999697 -0.0000189 0.9999697 -0.0000189 0.0000303 0.0000189
1108252 0.0000321 0.0000233 0.9999679 -0.0000233 0.9999679 -0.0000233 0.0000321 0.0000233
1159002 0.0000342 0.0000276 0.9999658 -0.0000276 0.9999658 -0.0000276 0.0000342 0.0000276
1212075 0.0000367 0.0000318 0.9999633 -0.0000318 0.9999633 -0.0000318 0.0000367 0.0000318
1267578 0.0000394 0.0000356 0.9999606 -0.0000356 0.9999606 -0.0000356 0.0000394 0.0000356
1325623 0.0000425 0.0000391 0.9999575 -0.0000391 0.9999575 -0.0000391 0.0000425 0.0000391
1386327 0.0000457 0.0000420 0.9999543 -0.0000420 0.9999543 -0.0000420 0.0000457 0.0000420
1449809 0.0000488 0.0000443 0.9999512 -0.0000443 0.9999512 -0.0000443 0.0000488 0.0000443
1516199 0.0000516 0.0000461 0.9999484 -0.0000461 0.9999484 -0.0000461 0.0000516 0.0000461
1585629 0.0000540 0.0000475 0.9999460 -0.0000475 0.9999460 -0.0000475 0.0000540 0.0000475
1658239 0.0000558 0.0000490 0.9999442 -0.0000490 0.9999442 -0.0000490 0.0000558 0.0000490
1734173 0.0000573 0.0000505 0.9999427 -0.0000505 0.9999427 -0.0000505 0.0000573 0.0000505
1813585 0.0000587 0.0000522 0.9999413 -0.0000522 0.9999413 -0.0000522 0.0000587 0.0000522
1896632 0.0000600 0.0000540 0.9999400 -0.0000540 0.9999400 -0.0000540 0.0000600 0.0000540
1983483 0.0000612 0.0000556 0.9999388 -0.0000556 0.9999388 -0.0000556 0.0000612 0.0000556
2074311 0.0000622 0.0000571 0.9999378 -0.0000571 0.9999378 -0.0000571 0.0000622 0.0000571
