!Murata Part Number: GRM219R60G476ME44
!These Parameters are Measured in Series Mode Connection
!Data Generated on Mar 30, 2021
!       o--ll--o
!Port1            Port2
!       o------o
!Operation Temp=25[degC], DC Bias Voltage=0[V]
!Freq. Start=100[Hz] Stop=6[GHz] 401[Steps]
# Hz S RI R 50
!Freq.(Hz) S11(Real) S11(Imag) S21(Real) S21(Imag) S12(Real) S12(Imag) S22(Real) S22(Imag)
100 0.1813625 -0.3789538 0.8186375 0.3789538 0.8186375 0.3789538 0.1813625 -0.3789538
105 0.1687524 -0.3681595 0.8312476 0.3681595 0.8312476 0.3681595 0.1687524 -0.3681595
109 0.1568597 -0.3572830 0.8431403 0.3572830 0.8431403 0.3572830 0.1568597 -0.3572830
114 0.1456671 -0.3463723 0.8543329 0.3463723 0.8543329 0.3463723 0.1456671 -0.3463723
120 0.1351542 -0.3354716 0.8648458 0.3354716 0.8648458 0.3354716 0.1351542 -0.3354716
125 0.1252976 -0.3246211 0.8747024 0.3246211 0.8747024 0.3246211 0.1252976 -0.3246211
131 0.1160721 -0.3138567 0.8839279 0.3138567 0.8839279 0.3138567 0.1160721 -0.3138567
137 0.1074510 -0.3032106 0.8925490 0.3032106 0.8925490 0.3032106 0.1074510 -0.3032106
143 0.0994064 -0.2927109 0.9005936 0.2927109 0.9005936 0.2927109 0.0994064 -0.2927109
150 0.0919098 -0.2823821 0.9080902 0.2823821 0.9080902 0.2823821 0.0919098 -0.2823821
156 0.0849324 -0.2722451 0.9150676 0.2722451 0.9150676 0.2722451 0.0849324 -0.2722451
164 0.0784458 -0.2623177 0.9215542 0.2623177 0.9215542 0.2623177 0.0784458 -0.2623177
171 0.0724215 -0.2526144 0.9275785 0.2526144 0.9275785 0.2526144 0.0724215 -0.2526144
179 0.0668319 -0.2431471 0.9331681 0.2431471 0.9331681 0.2431471 0.0668319 -0.2431471
187 0.0616501 -0.2339251 0.9383499 0.2339251 0.9383499 0.2339251 0.0616501 -0.2339251
196 0.0568500 -0.2249553 0.9431500 0.2249553 0.9431500 0.2249553 0.0568500 -0.2249553
205 0.0524067 -0.2162427 0.9475933 0.2162427 0.9475933 0.2162427 0.0524067 -0.2162427
214 0.0482963 -0.2077904 0.9517037 0.2077904 0.9517037 0.2077904 0.0482963 -0.2077904
224 0.0444960 -0.1995997 0.9555040 0.1995997 0.9555040 0.1995997 0.0444960 -0.1995997
234 0.0409843 -0.1916709 0.9590157 0.1916709 0.9590157 0.1916709 0.0409843 -0.1916709
245 0.0377409 -0.1840027 0.9622591 0.1840027 0.9622591 0.1840027 0.0377409 -0.1840027
256 0.0347466 -0.1765930 0.9652534 0.1765930 0.9652534 0.1765930 0.0347466 -0.1765930
268 0.0319835 -0.1694386 0.9680165 0.1694386 0.9680165 0.1694386 0.0319835 -0.1694386
280 0.0294346 -0.1625358 0.9705654 0.1625358 0.9705654 0.1625358 0.0294346 -0.1625358
293 0.0270842 -0.1558800 0.9729158 0.1558800 0.9729158 0.1558800 0.0270842 -0.1558800
306 0.0249176 -0.1494663 0.9750824 0.1494663 0.9750824 0.1494663 0.0249176 -0.1494663
320 0.0229210 -0.1432893 0.9770790 0.1432893 0.9770790 0.1432893 0.0229210 -0.1432893
335 0.0210817 -0.1373434 0.9789183 0.1373434 0.9789183 0.1373434 0.0210817 -0.1373434
350 0.0193878 -0.1316227 0.9806122 0.1316227 0.9806122 0.1316227 0.0193878 -0.1316227
366 0.0178283 -0.1261209 0.9821717 0.1261209 0.9821717 0.1261209 0.0178283 -0.1261209
383 0.0163929 -0.1208319 0.9836071 0.1208319 0.9836071 0.1208319 0.0163929 -0.1208319
401 0.0150721 -0.1157493 0.9849279 0.1157493 0.9849279 0.1157493 0.0150721 -0.1157493
419 0.0138571 -0.1108669 0.9861429 0.1108669 0.9861429 0.1108669 0.0138571 -0.1108669
438 0.0127397 -0.1061782 0.9872603 0.1061782 0.9872603 0.1061782 0.0127397 -0.1061782
458 0.0117123 -0.1016770 0.9882877 0.1016770 0.9882877 0.1016770 0.0117123 -0.1016770
479 0.0107679 -0.0973570 0.9892321 0.0973570 0.9892321 0.0973570 0.0107679 -0.0973570
501 0.0099000 -0.0932120 0.9901000 0.0932120 0.9901000 0.0932120 0.0099000 -0.0932120
524 0.0091026 -0.0892359 0.9908974 0.0892359 0.9908974 0.0892359 0.0091026 -0.0892359
548 0.0083701 -0.0854227 0.9916299 0.0854227 0.9916299 0.0854227 0.0083701 -0.0854227
573 0.0076973 -0.0817665 0.9923027 0.0817665 0.9923027 0.0817665 0.0076973 -0.0817665
600 0.0070795 -0.0782617 0.9929205 0.0782617 0.9929205 0.0782617 0.0070795 -0.0782617
627 0.0065124 -0.0749025 0.9934876 0.0749025 0.9934876 0.0749025 0.0065124 -0.0749025
656 0.0059917 -0.0716836 0.9940083 0.0716836 0.9940083 0.0716836 0.0059917 -0.0716836
686 0.0055138 -0.0685994 0.9944862 0.0685994 0.9944862 0.0685994 0.0055138 -0.0685994
717 0.0050751 -0.0656450 0.9949249 0.0656450 0.9949249 0.0656450 0.0050751 -0.0656450
750 0.0046726 -0.0628152 0.9953274 0.0628152 0.9953274 0.0628152 0.0046726 -0.0628152
784 0.0043031 -0.0601051 0.9956969 0.0601051 0.9956969 0.0601051 0.0043031 -0.0601051
820 0.0039641 -0.0575101 0.9960359 0.0575101 0.9960359 0.0575101 0.0039641 -0.0575101
858 0.0036529 -0.0550254 0.9963471 0.0550254 0.9963471 0.0550254 0.0036529 -0.0550254
897 0.0033673 -0.0526467 0.9966327 0.0526467 0.9966327 0.0526467 0.0033673 -0.0526467
938 0.0031052 -0.0503696 0.9968948 0.0503696 0.9968948 0.0503696 0.0031052 -0.0503696
981 0.0028645 -0.0481900 0.9971355 0.0481900 0.9971355 0.0481900 0.0028645 -0.0481900
1026 0.0026435 -0.0461040 0.9973565 0.0461040 0.9973565 0.0461040 0.0026435 -0.0461040
1073 0.0024405 -0.0441076 0.9975595 0.0441076 0.9975595 0.0441076 0.0024405 -0.0441076
1122 0.0022540 -0.0421971 0.9977460 0.0421971 0.9977460 0.0421971 0.0022540 -0.0421971
1174 0.0020826 -0.0403689 0.9979174 0.0403689 0.9979174 0.0403689 0.0020826 -0.0403689
1227 0.0019250 -0.0386195 0.9980750 0.0386195 0.9980750 0.0386195 0.0019250 -0.0386195
1283 0.0017801 -0.0369457 0.9982199 0.0369457 0.9982199 0.0369457 0.0017801 -0.0369457
1342 0.0016467 -0.0353442 0.9983533 0.0353442 0.9983533 0.0353442 0.0016467 -0.0353442
1404 0.0015240 -0.0338120 0.9984760 0.0338120 0.9984760 0.0338120 0.0015240 -0.0338120
1468 0.0014109 -0.0323460 0.9985891 0.0323460 0.9985891 0.0323460 0.0014109 -0.0323460
1535 0.0013066 -0.0309435 0.9986934 0.0309435 0.9986934 0.0309435 0.0013066 -0.0309435
1606 0.0012105 -0.0296017 0.9987895 0.0296017 0.9987895 0.0296017 0.0012105 -0.0296017
1679 0.0011218 -0.0283180 0.9988782 0.0283180 0.9988782 0.0283180 0.0011218 -0.0283180
1756 0.0010400 -0.0270898 0.9989600 0.0270898 0.9989600 0.0270898 0.0010400 -0.0270898
1836 0.0009643 -0.0259149 0.9990357 0.0259149 0.9990357 0.0259149 0.0009643 -0.0259149
1920 0.0008944 -0.0247908 0.9991056 0.0247908 0.9991056 0.0247908 0.0008944 -0.0247908
2008 0.0008298 -0.0237154 0.9991702 0.0237154 0.9991702 0.0237154 0.0008298 -0.0237154
2100 0.0007700 -0.0226865 0.9992300 0.0226865 0.9992300 0.0226865 0.0007700 -0.0226865
2196 0.0007146 -0.0217021 0.9992854 0.0217021 0.9992854 0.0217021 0.0007146 -0.0217021
2297 0.0006634 -0.0207604 0.9993366 0.0207604 0.9993366 0.0207604 0.0006634 -0.0207604
2402 0.0006159 -0.0198593 0.9993841 0.0198593 0.9993841 0.0198593 0.0006159 -0.0198593
2512 0.0005719 -0.0189973 0.9994281 0.0189973 0.9994281 0.0189973 0.0005719 -0.0189973
2627 0.0005311 -0.0181724 0.9994689 0.0181724 0.9994689 0.0181724 0.0005311 -0.0181724
2748 0.0004934 -0.0173833 0.9995066 0.0173833 0.9995066 0.0173833 0.0004934 -0.0173833
2873 0.0004584 -0.0166282 0.9995416 0.0166282 0.9995416 0.0166282 0.0004584 -0.0166282
3005 0.0004259 -0.0159058 0.9995741 0.0159058 0.9995741 0.0159058 0.0004259 -0.0159058
3143 0.0003958 -0.0152146 0.9996042 0.0152146 0.9996042 0.0152146 0.0003958 -0.0152146
3287 0.0003680 -0.0145533 0.9996320 0.0145533 0.9996320 0.0145533 0.0003680 -0.0145533
3437 0.0003422 -0.0139205 0.9996578 0.0139205 0.9996578 0.0139205 0.0003422 -0.0139205
3594 0.0003183 -0.0133152 0.9996817 0.0133152 0.9996817 0.0133152 0.0003183 -0.0133152
3759 0.0002961 -0.0127359 0.9997039 0.0127359 0.9997039 0.0127359 0.0002961 -0.0127359
3931 0.0002757 -0.0121818 0.9997243 0.0121818 0.9997243 0.0121818 0.0002757 -0.0121818
4111 0.0002567 -0.0116516 0.9997433 0.0116516 0.9997433 0.0116516 0.0002567 -0.0116516
4299 0.0002392 -0.0111443 0.9997608 0.0111443 0.9997608 0.0111443 0.0002392 -0.0111443
4496 0.0002230 -0.0106590 0.9997770 0.0106590 0.9997770 0.0106590 0.0002230 -0.0106590
4702 0.0002080 -0.0101948 0.9997920 0.0101948 0.9997920 0.0101948 0.0002080 -0.0101948
4918 0.0001942 -0.0097506 0.9998058 0.0097506 0.9998058 0.0097506 0.0001942 -0.0097506
5143 0.0001814 -0.0093257 0.9998186 0.0093257 0.9998186 0.0093257 0.0001814 -0.0093257
5378 0.0001697 -0.0089193 0.9998303 0.0089193 0.9998303 0.0089193 0.0001697 -0.0089193
5625 0.0001588 -0.0085305 0.9998412 0.0085305 0.9998412 0.0085305 0.0001588 -0.0085305
5882 0.0001488 -0.0081585 0.9998512 0.0081585 0.9998512 0.0081585 0.0001488 -0.0081585
6151 0.0001395 -0.0078028 0.9998605 0.0078028 0.9998605 0.0078028 0.0001395 -0.0078028
6433 0.0001310 -0.0074624 0.9998690 0.0074624 0.9998690 0.0074624 0.0001310 -0.0074624
6728 0.0001232 -0.0071369 0.9998768 0.0071369 0.9998768 0.0071369 0.0001232 -0.0071369
7036 0.0001159 -0.0068256 0.9998841 0.0068256 0.9998841 0.0068256 0.0001159 -0.0068256
7358 0.0001093 -0.0065278 0.9998907 0.0065278 0.9998907 0.0065278 0.0001093 -0.0065278
7695 0.0001031 -0.0062430 0.9998969 0.0062430 0.9998969 0.0062430 0.0001031 -0.0062430
8047 0.0000975 -0.0059706 0.9999025 0.0059706 0.9999025 0.0059706 0.0000975 -0.0059706
8416 0.0000922 -0.0057100 0.9999078 0.0057100 0.9999078 0.0057100 0.0000922 -0.0057100
8801 0.0000874 -0.0054609 0.9999126 0.0054609 0.9999126 0.0054609 0.0000874 -0.0054609
9204 0.0000830 -0.0052226 0.9999170 0.0052226 0.9999170 0.0052226 0.0000830 -0.0052226
9626 0.0000789 -0.0049947 0.9999211 0.0049947 0.9999211 0.0049947 0.0000789 -0.0049947
10066 0.0000751 -0.0047767 0.9999249 0.0047767 0.9999249 0.0047767 0.0000751 -0.0047767
10527 0.0000716 -0.0045683 0.9999284 0.0045683 0.9999284 0.0045683 0.0000716 -0.0045683
11009 0.0000683 -0.0043689 0.9999317 0.0043689 0.9999317 0.0043689 0.0000683 -0.0043689
11514 0.0000653 -0.0041783 0.9999347 0.0041783 0.9999347 0.0041783 0.0000653 -0.0041783
12041 0.0000626 -0.0039960 0.9999374 0.0039960 0.9999374 0.0039960 0.0000626 -0.0039960
12592 0.0000600 -0.0038217 0.9999400 0.0038217 0.9999400 0.0038217 0.0000600 -0.0038217
13169 0.0000576 -0.0036549 0.9999424 0.0036549 0.9999424 0.0036549 0.0000576 -0.0036549
13772 0.0000553 -0.0034955 0.9999447 0.0034955 0.9999447 0.0034955 0.0000553 -0.0034955
14402 0.0000532 -0.0033431 0.9999468 0.0033431 0.9999468 0.0033431 0.0000532 -0.0033431
15062 0.0000513 -0.0031973 0.9999487 0.0031973 0.9999487 0.0031973 0.0000513 -0.0031973
15752 0.0000494 -0.0030578 0.9999506 0.0030578 0.9999506 0.0030578 0.0000494 -0.0030578
16473 0.0000477 -0.0029245 0.9999523 0.0029245 0.9999523 0.0029245 0.0000477 -0.0029245
17227 0.0000461 -0.0027970 0.9999539 0.0027970 0.9999539 0.0027970 0.0000461 -0.0027970
18016 0.0000446 -0.0026750 0.9999554 0.0026750 0.9999554 0.0026750 0.0000446 -0.0026750
18841 0.0000431 -0.0025584 0.9999569 0.0025584 0.9999569 0.0025584 0.0000431 -0.0025584
19704 0.0000418 -0.0024469 0.9999582 0.0024469 0.9999582 0.0024469 0.0000418 -0.0024469
20606 0.0000405 -0.0023402 0.9999595 0.0023402 0.9999595 0.0023402 0.0000405 -0.0023402
21550 0.0000393 -0.0022382 0.9999607 0.0022382 0.9999607 0.0022382 0.0000393 -0.0022382
22537 0.0000381 -0.0021406 0.9999619 0.0021406 0.9999619 0.0021406 0.0000381 -0.0021406
23569 0.0000370 -0.0020473 0.9999630 0.0020473 0.9999630 0.0020473 0.0000370 -0.0020473
24648 0.0000359 -0.0019580 0.9999641 0.0019580 0.9999641 0.0019580 0.0000359 -0.0019580
25777 0.0000349 -0.0018727 0.9999651 0.0018727 0.9999651 0.0018727 0.0000349 -0.0018727
26957 0.0000340 -0.0017910 0.9999660 0.0017910 0.9999660 0.0017910 0.0000340 -0.0017910
28191 0.0000331 -0.0017129 0.9999669 0.0017129 0.9999669 0.0017129 0.0000331 -0.0017129
29482 0.0000322 -0.0016382 0.9999678 0.0016382 0.9999678 0.0016382 0.0000322 -0.0016382
30832 0.0000313 -0.0015667 0.9999687 0.0015667 0.9999687 0.0015667 0.0000313 -0.0015667
32244 0.0000305 -0.0014983 0.9999695 0.0014983 0.9999695 0.0014983 0.0000305 -0.0014983
33721 0.0000298 -0.0014329 0.9999702 0.0014329 0.9999702 0.0014329 0.0000298 -0.0014329
35265 0.0000291 -0.0013703 0.9999709 0.0013703 0.9999709 0.0013703 0.0000291 -0.0013703
36880 0.0000284 -0.0013104 0.9999716 0.0013104 0.9999716 0.0013104 0.0000284 -0.0013104
38569 0.0000277 -0.0012531 0.9999723 0.0012531 0.9999723 0.0012531 0.0000277 -0.0012531
40335 0.0000271 -0.0011983 0.9999729 0.0011983 0.9999729 0.0011983 0.0000271 -0.0011983
42182 0.0000265 -0.0011459 0.9999735 0.0011459 0.9999735 0.0011459 0.0000265 -0.0011459
44113 0.0000260 -0.0010957 0.9999740 0.0010957 0.9999740 0.0010957 0.0000260 -0.0010957
46134 0.0000255 -0.0010477 0.9999745 0.0010477 0.9999745 0.0010477 0.0000255 -0.0010477
48246 0.0000250 -0.0010018 0.9999750 0.0010018 0.9999750 0.0010018 0.0000250 -0.0010018
50455 0.0000245 -0.0009579 0.9999755 0.0009579 0.9999755 0.0009579 0.0000245 -0.0009579
52766 0.0000241 -0.0009158 0.9999759 0.0009158 0.9999759 0.0009158 0.0000241 -0.0009158
55182 0.0000237 -0.0008756 0.9999763 0.0008756 0.9999763 0.0008756 0.0000237 -0.0008756
57709 0.0000233 -0.0008371 0.9999767 0.0008371 0.9999767 0.0008371 0.0000233 -0.0008371
60352 0.0000229 -0.0008003 0.9999771 0.0008003 0.9999771 0.0008003 0.0000229 -0.0008003
63115 0.0000226 -0.0007651 0.9999774 0.0007651 0.9999774 0.0007651 0.0000226 -0.0007651
66005 0.0000223 -0.0007313 0.9999777 0.0007313 0.9999777 0.0007313 0.0000223 -0.0007313
69028 0.0000220 -0.0006991 0.9999780 0.0006991 0.9999780 0.0006991 0.0000220 -0.0006991
72189 0.0000217 -0.0006682 0.9999783 0.0006682 0.9999783 0.0006682 0.0000217 -0.0006682
75495 0.0000215 -0.0006386 0.9999785 0.0006386 0.9999785 0.0006386 0.0000215 -0.0006386
78952 0.0000213 -0.0006103 0.9999787 0.0006103 0.9999787 0.0006103 0.0000213 -0.0006103
82567 0.0000211 -0.0005833 0.9999789 0.0005833 0.9999789 0.0005833 0.0000211 -0.0005833
86348 0.0000209 -0.0005574 0.9999791 0.0005574 0.9999791 0.0005574 0.0000209 -0.0005574
90302 0.0000207 -0.0005326 0.9999793 0.0005326 0.9999793 0.0005326 0.0000207 -0.0005326
94437 0.0000205 -0.0005088 0.9999795 0.0005088 0.9999795 0.0005088 0.0000205 -0.0005088
98762 0.0000204 -0.0004861 0.9999796 0.0004861 0.9999796 0.0004861 0.0000204 -0.0004861
103284 0.0000202 -0.0004644 0.9999798 0.0004644 0.9999798 0.0004644 0.0000202 -0.0004644
108014 0.0000201 -0.0004435 0.9999799 0.0004435 0.9999799 0.0004435 0.0000201 -0.0004435
112960 0.0000200 -0.0004236 0.9999800 0.0004236 0.9999800 0.0004236 0.0000200 -0.0004236
118133 0.0000199 -0.0004045 0.9999801 0.0004045 0.9999801 0.0004045 0.0000199 -0.0004045
123542 0.0000198 -0.0003862 0.9999802 0.0003862 0.9999802 0.0003862 0.0000198 -0.0003862
129199 0.0000197 -0.0003687 0.9999803 0.0003687 0.9999803 0.0003687 0.0000197 -0.0003687
135116 0.0000196 -0.0003519 0.9999804 0.0003519 0.9999804 0.0003519 0.0000196 -0.0003519
141303 0.0000196 -0.0003358 0.9999804 0.0003358 0.9999804 0.0003358 0.0000196 -0.0003358
147774 0.0000195 -0.0003204 0.9999805 0.0003204 0.9999805 0.0003204 0.0000195 -0.0003204
154540 0.0000195 -0.0003057 0.9999805 0.0003057 0.9999805 0.0003057 0.0000195 -0.0003057
161617 0.0000194 -0.0002915 0.9999806 0.0002915 0.9999806 0.0002915 0.0000194 -0.0002915
169018 0.0000194 -0.0002780 0.9999806 0.0002780 0.9999806 0.0002780 0.0000194 -0.0002780
176758 0.0000194 -0.0002649 0.9999806 0.0002649 0.9999806 0.0002649 0.0000194 -0.0002649
184852 0.0000194 -0.0002525 0.9999806 0.0002525 0.9999806 0.0002525 0.0000194 -0.0002525
193316 0.0000193 -0.0002405 0.9999807 0.0002405 0.9999807 0.0002405 0.0000193 -0.0002405
202169 0.0000193 -0.0002290 0.9999807 0.0002290 0.9999807 0.0002290 0.0000193 -0.0002290
211427 0.0000193 -0.0002179 0.9999807 0.0002179 0.9999807 0.0002179 0.0000193 -0.0002179
221108 0.0000193 -0.0002073 0.9999807 0.0002073 0.9999807 0.0002073 0.0000193 -0.0002073
231233 0.0000194 -0.0001972 0.9999806 0.0001972 0.9999806 0.0001972 0.0000194 -0.0001972
241822 0.0000194 -0.0001874 0.9999806 0.0001874 0.9999806 0.0001874 0.0000194 -0.0001874
252896 0.0000194 -0.0001780 0.9999806 0.0001780 0.9999806 0.0001780 0.0000194 -0.0001780
264476 0.0000194 -0.0001689 0.9999806 0.0001689 0.9999806 0.0001689 0.0000194 -0.0001689
276587 0.0000195 -0.0001602 0.9999805 0.0001602 0.9999805 0.0001602 0.0000195 -0.0001602
289253 0.0000195 -0.0001518 0.9999805 0.0001518 0.9999805 0.0001518 0.0000195 -0.0001518
302498 0.0000196 -0.0001437 0.9999804 0.0001437 0.9999804 0.0001437 0.0000196 -0.0001437
316350 0.0000197 -0.0001359 0.9999803 0.0001359 0.9999803 0.0001359 0.0000197 -0.0001359
330837 0.0000198 -0.0001283 0.9999802 0.0001283 0.9999802 0.0001283 0.0000198 -0.0001283
345986 0.0000199 -0.0001211 0.9999801 0.0001211 0.9999801 0.0001211 0.0000199 -0.0001211
361830 0.0000200 -0.0001140 0.9999800 0.0001140 0.9999800 0.0001140 0.0000200 -0.0001140
378399 0.0000201 -0.0001072 0.9999799 0.0001072 0.9999799 0.0001072 0.0000201 -0.0001072
395726 0.0000202 -0.0001006 0.9999798 0.0001006 0.9999798 0.0001006 0.0000202 -0.0001006
413847 0.0000203 -0.0000943 0.9999797 0.0000943 0.9999797 0.0000943 0.0000203 -0.0000943
432798 0.0000205 -0.0000881 0.9999795 0.0000881 0.9999795 0.0000881 0.0000205 -0.0000881
452617 0.0000207 -0.0000820 0.9999793 0.0000820 0.9999793 0.0000820 0.0000207 -0.0000820
473344 0.0000209 -0.0000762 0.9999791 0.0000762 0.9999791 0.0000762 0.0000209 -0.0000762
495019 0.0000211 -0.0000705 0.9999789 0.0000705 0.9999789 0.0000705 0.0000211 -0.0000705
517687 0.0000213 -0.0000649 0.9999787 0.0000649 0.9999787 0.0000649 0.0000213 -0.0000649
541393 0.0000216 -0.0000595 0.9999784 0.0000595 0.9999784 0.0000595 0.0000216 -0.0000595
566185 0.0000219 -0.0000542 0.9999781 0.0000542 0.9999781 0.0000542 0.0000219 -0.0000542
592111 0.0000222 -0.0000490 0.9999778 0.0000490 0.9999778 0.0000490 0.0000222 -0.0000490
619225 0.0000226 -0.0000440 0.9999774 0.0000440 0.9999774 0.0000440 0.0000226 -0.0000440
647581 0.0000229 -0.0000390 0.9999771 0.0000390 0.9999771 0.0000390 0.0000229 -0.0000390
677235 0.0000234 -0.0000341 0.9999766 0.0000341 0.9999766 0.0000341 0.0000234 -0.0000341
708247 0.0000238 -0.0000292 0.9999762 0.0000292 0.9999762 0.0000292 0.0000238 -0.0000292
740679 0.0000244 -0.0000245 0.9999756 0.0000245 0.9999756 0.0000245 0.0000244 -0.0000245
774597 0.0000249 -0.0000198 0.9999751 0.0000198 0.9999751 0.0000198 0.0000249 -0.0000198
810067 0.0000256 -0.0000151 0.9999744 0.0000151 0.9999744 0.0000151 0.0000256 -0.0000151
847162 0.0000263 -0.0000105 0.9999737 0.0000105 0.9999737 0.0000105 0.0000263 -0.0000105
885955 0.0000271 -0.0000059 0.9999729 0.0000059 0.9999729 0.0000059 0.0000271 -0.0000059
926525 0.0000279 -0.0000014 0.9999721 0.0000014 0.9999721 0.0000014 0.0000279 -0.0000014
968953 0.0000289 0.0000031 0.9999711 -0.0000031 0.9999711 -0.0000031 0.0000289 0.0000031
1013323 0.0000299 0.0000076 0.9999701 -0.0000076 0.9999701 -0.0000076 0.0000299 0.0000076
1059725 0.0000311 0.0000121 0.9999689 -0.0000121 0.9999689 -0.0000121 0.0000311 0.0000121
1108252 0.0000324 0.0000165 0.9999676 -0.0000165 0.9999676 -0.0000165 0.0000324 0.0000165
1159002 0.0000338 0.0000209 0.9999662 -0.0000209 0.9999662 -0.0000209 0.0000338 0.0000209
1212075 0.0000354 0.0000252 0.9999646 -0.0000252 0.9999646 -0.0000252 0.0000354 0.0000252
1267578 0.0000372 0.0000295 0.9999628 -0.0000295 0.9999628 -0.0000295 0.0000372 0.0000295
1325623 0.0000391 0.0000337 0.9999609 -0.0000337 0.9999609 -0.0000337 0.0000391 0.0000337
1386327 0.0000413 0.0000379 0.9999587 -0.0000379 0.9999587 -0.0000379 0.0000413 0.0000379
1449809 0.0000436 0.0000419 0.9999564 -0.0000419 0.9999564 -0.0000419 0.0000436 0.0000419
1516199 0.0000462 0.0000457 0.9999538 -0.0000457 0.9999538 -0.0000457 0.0000462 0.0000457
1585629 0.0000489 0.0000493 0.9999511 -0.0000493 0.9999511 -0.0000493 0.0000489 0.0000493
1658239 0.0000518 0.0000526 0.9999482 -0.0000526 0.9999482 -0.0000526 0.0000518 0.0000526
1734173 0.0000548 0.0000556 0.9999452 -0.0000556 0.9999452 -0.0000556 0.0000548 0.0000556
1813585 0.0000578 0.0000582 0.9999422 -0.0000582 0.9999422 -0.0000582 0.0000578 0.0000582
1896632 0.0000607 0.0000605 0.9999393 -0.0000605 0.9999393 -0.0000605 0.0000607 0.0000605
1983483 0.0000635 0.0000623 0.9999365 -0.0000623 0.9999365 -0.0000623 0.0000635 0.0000623
2074311 0.0000660 0.0000639 0.9999340 -0.0000639 0.9999340 -0.0000639 0.0000660 0.0000639
