!Murata Part Number: GRM21BB30G476ME15
!These Parameters are Measured in Series Mode Connection
!Data Generated on Mar 30, 2021
!       o--ll--o
!Port1            Port2
!       o------o
!Operation Temp=25[degC], DC Bias Voltage=0[V]
!Freq. Start=100[Hz] Stop=6[GHz] 401[Steps]
# Hz S RI R 50
!Freq.(Hz) S11(Real) S11(Imag) S21(Real) S21(Imag) S12(Real) S12(Imag) S22(Real) S22(Imag)
100 0.1783825 -0.3755360 0.8216175 0.3755360 0.8216175 0.3755360 0.1783825 -0.3755360
105 0.1659701 -0.3647688 0.8340299 0.3647688 0.8340299 0.3647688 0.1659701 -0.3647688
109 0.1542673 -0.3539294 0.8457327 0.3539294 0.8457327 0.3539294 0.1542673 -0.3539294
114 0.1432563 -0.3430649 0.8567437 0.3430649 0.8567437 0.3430649 0.1432563 -0.3430649
120 0.1329163 -0.3322183 0.8670837 0.3322183 0.8670837 0.3322183 0.1329163 -0.3322183
125 0.1232240 -0.3214288 0.8767760 0.3214288 0.8767760 0.3214288 0.1232240 -0.3214288
131 0.1141540 -0.3107313 0.8858460 0.3107313 0.8858460 0.3107313 0.1141540 -0.3107313
137 0.1056797 -0.3001570 0.8943203 0.3001570 0.8943203 0.3001570 0.1056797 -0.3001570
143 0.0977732 -0.2897333 0.9022268 0.2897333 0.9022268 0.2897333 0.0977732 -0.2897333
150 0.0904062 -0.2794838 0.9095938 0.2794838 0.9095938 0.2794838 0.0904062 -0.2794838
156 0.0835503 -0.2694287 0.9164497 0.2694287 0.9164497 0.2694287 0.0835503 -0.2694287
164 0.0771771 -0.2595850 0.9228229 0.2595850 0.9228229 0.2595850 0.0771771 -0.2595850
171 0.0712586 -0.2499669 0.9287414 0.2499669 0.9287414 0.2499669 0.0712586 -0.2499669
179 0.0657673 -0.2405855 0.9342327 0.2405855 0.9342327 0.2405855 0.0657673 -0.2405855
187 0.0606767 -0.2314496 0.9393233 0.2314496 0.9393233 0.2314496 0.0606767 -0.2314496
196 0.0559611 -0.2225659 0.9440389 0.2225659 0.9440389 0.2225659 0.0559611 -0.2225659
205 0.0515959 -0.2139389 0.9484041 0.2139389 0.9484041 0.2139389 0.0515959 -0.2139389
214 0.0475575 -0.2055712 0.9524425 0.2055712 0.9524425 0.2055712 0.0475575 -0.2055712
224 0.0438235 -0.1974641 0.9561765 0.1974641 0.9561765 0.1974641 0.0438235 -0.1974641
234 0.0403727 -0.1896175 0.9596273 0.1896175 0.9596273 0.1896175 0.0403727 -0.1896175
245 0.0371851 -0.1820298 0.9628149 0.1820298 0.9628149 0.1820298 0.0371851 -0.1820298
256 0.0342419 -0.1746989 0.9657581 0.1746989 0.9657581 0.1746989 0.0342419 -0.1746989
268 0.0315254 -0.1676213 0.9684746 0.1676213 0.9684746 0.1676213 0.0315254 -0.1676213
280 0.0290191 -0.1607932 0.9709809 0.1607932 0.9709809 0.1607932 0.0290191 -0.1607932
293 0.0267074 -0.1542100 0.9732926 0.1542100 0.9732926 0.1542100 0.0267074 -0.1542100
306 0.0245759 -0.1478666 0.9754241 0.1478666 0.9754241 0.1478666 0.0245759 -0.1478666
320 0.0226113 -0.1417577 0.9773887 0.1417577 0.9773887 0.1417577 0.0226113 -0.1417577
335 0.0208009 -0.1358775 0.9791991 0.1358775 0.9791991 0.1358775 0.0208009 -0.1358775
350 0.0191331 -0.1302200 0.9808669 0.1302200 0.9808669 0.1302200 0.0191331 -0.1302200
366 0.0175971 -0.1247792 0.9824029 0.1247792 0.9824029 0.1247792 0.0175971 -0.1247792
383 0.0161830 -0.1195488 0.9838170 0.1195488 0.9838170 0.1195488 0.0161830 -0.1195488
401 0.0148814 -0.1145225 0.9851186 0.1145225 0.9851186 0.1145225 0.0148814 -0.1145225
419 0.0136836 -0.1096941 0.9863164 0.1096941 0.9863164 0.1096941 0.0136836 -0.1096941
438 0.0125817 -0.1050571 0.9874183 0.1050571 0.9874183 0.1050571 0.0125817 -0.1050571
458 0.0115682 -0.1006054 0.9884318 0.1006054 0.9884318 0.1006054 0.0115682 -0.1006054
479 0.0106363 -0.0963328 0.9893637 0.0963328 0.9893637 0.0963328 0.0106363 -0.0963328
501 0.0097797 -0.0922331 0.9902203 0.0922331 0.9902203 0.0922331 0.0097797 -0.0922331
524 0.0089924 -0.0883002 0.9910076 0.0883002 0.9910076 0.0883002 0.0089924 -0.0883002
548 0.0082690 -0.0845284 0.9917310 0.0845284 0.9917310 0.0845284 0.0082690 -0.0845284
573 0.0076045 -0.0809117 0.9923955 0.0809117 0.9923955 0.0809117 0.0076045 -0.0809117
600 0.0069941 -0.0774445 0.9930059 0.0774445 0.9930059 0.0774445 0.0069941 -0.0774445
627 0.0064336 -0.0741213 0.9935664 0.0741213 0.9935664 0.0741213 0.0064336 -0.0741213
656 0.0059190 -0.0709365 0.9940810 0.0709365 0.9940810 0.0709365 0.0059190 -0.0709365
686 0.0054465 -0.0678851 0.9945535 0.0678851 0.9945535 0.0678851 0.0054465 -0.0678851
717 0.0050129 -0.0649618 0.9949871 0.0649618 0.9949871 0.0649618 0.0050129 -0.0649618
750 0.0046149 -0.0621617 0.9953851 0.0621617 0.9953851 0.0621617 0.0046149 -0.0621617
784 0.0042496 -0.0594800 0.9957504 0.0594800 0.9957504 0.0594800 0.0042496 -0.0594800
820 0.0039143 -0.0569120 0.9960857 0.0569120 0.9960857 0.0569120 0.0039143 -0.0569120
858 0.0036067 -0.0544531 0.9963933 0.0544531 0.9963933 0.0544531 0.0036067 -0.0544531
897 0.0033243 -0.0520990 0.9966757 0.0520990 0.9966757 0.0520990 0.0033243 -0.0520990
938 0.0030652 -0.0498454 0.9969348 0.0498454 0.9969348 0.0498454 0.0030652 -0.0498454
981 0.0028273 -0.0476882 0.9971727 0.0476882 0.9971727 0.0476882 0.0028273 -0.0476882
1026 0.0026089 -0.0456236 0.9973911 0.0456236 0.9973911 0.0456236 0.0026089 -0.0456236
1073 0.0024084 -0.0436476 0.9975916 0.0436476 0.9975916 0.0436476 0.0024084 -0.0436476
1122 0.0022242 -0.0417566 0.9977758 0.0417566 0.9977758 0.0417566 0.0022242 -0.0417566
1174 0.0020550 -0.0399471 0.9979450 0.0399471 0.9979450 0.0399471 0.0020550 -0.0399471
1227 0.0018995 -0.0382156 0.9981005 0.0382156 0.9981005 0.0382156 0.0018995 -0.0382156
1283 0.0017566 -0.0365589 0.9982434 0.0365589 0.9982434 0.0365589 0.0017566 -0.0365589
1342 0.0016251 -0.0349738 0.9983749 0.0349738 0.9983749 0.0349738 0.0016251 -0.0349738
1404 0.0015041 -0.0334572 0.9984959 0.0334572 0.9984959 0.0334572 0.0015041 -0.0334572
1468 0.0013927 -0.0320062 0.9986073 0.0320062 0.9986073 0.0320062 0.0013927 -0.0320062
1535 0.0012901 -0.0306181 0.9987099 0.0306181 0.9987099 0.0306181 0.0012901 -0.0306181
1606 0.0011956 -0.0292901 0.9988044 0.0292901 0.9988044 0.0292901 0.0011956 -0.0292901
1679 0.0011084 -0.0280197 0.9988916 0.0280197 0.9988916 0.0280197 0.0011084 -0.0280197
1756 0.0010279 -0.0268043 0.9989721 0.0268043 0.9989721 0.0268043 0.0010279 -0.0268043
1836 0.0009536 -0.0256415 0.9990464 0.0256415 0.9990464 0.0256415 0.0009536 -0.0256415
1920 0.0008849 -0.0245292 0.9991151 0.0245292 0.9991151 0.0245292 0.0008849 -0.0245292
2008 0.0008215 -0.0234651 0.9991785 0.0234651 0.9991785 0.0234651 0.0008215 -0.0234651
2100 0.0007628 -0.0224470 0.9992372 0.0224470 0.9992372 0.0224470 0.0007628 -0.0224470
2196 0.0007084 -0.0214731 0.9992916 0.0214731 0.9992916 0.0214731 0.0007084 -0.0214731
2297 0.0006581 -0.0205413 0.9993419 0.0205413 0.9993419 0.0205413 0.0006581 -0.0205413
2402 0.0006115 -0.0196499 0.9993885 0.0196499 0.9993885 0.0196499 0.0006115 -0.0196499
2512 0.0005683 -0.0187971 0.9994317 0.0187971 0.9994317 0.0187971 0.0005683 -0.0187971
2627 0.0005282 -0.0179811 0.9994718 0.0179811 0.9994718 0.0179811 0.0005282 -0.0179811
2748 0.0004911 -0.0172005 0.9995089 0.0172005 0.9995089 0.0172005 0.0004911 -0.0172005
2873 0.0004567 -0.0164536 0.9995433 0.0164536 0.9995433 0.0164536 0.0004567 -0.0164536
3005 0.0004247 -0.0157390 0.9995753 0.0157390 0.9995753 0.0157390 0.0004247 -0.0157390
3143 0.0003951 -0.0150553 0.9996049 0.0150553 0.9996049 0.0150553 0.0003951 -0.0150553
3287 0.0003676 -0.0144012 0.9996324 0.0144012 0.9996324 0.0144012 0.0003676 -0.0144012
3437 0.0003421 -0.0137753 0.9996579 0.0137753 0.9996579 0.0137753 0.0003421 -0.0137753
3594 0.0003185 -0.0131765 0.9996815 0.0131765 0.9996815 0.0131765 0.0003185 -0.0131765
3759 0.0002966 -0.0126036 0.9997034 0.0126036 0.9997034 0.0126036 0.0002966 -0.0126036
3931 0.0002762 -0.0120555 0.9997238 0.0120555 0.9997238 0.0120555 0.0002762 -0.0120555
4111 0.0002574 -0.0115311 0.9997426 0.0115311 0.9997426 0.0115311 0.0002574 -0.0115311
4299 0.0002400 -0.0110294 0.9997600 0.0110294 0.9997600 0.0110294 0.0002400 -0.0110294
4496 0.0002239 -0.0105493 0.9997761 0.0105493 0.9997761 0.0105493 0.0002239 -0.0105493
4702 0.0002090 -0.0100901 0.9997910 0.0100901 0.9997910 0.0100901 0.0002090 -0.0100901
4918 0.0001952 -0.0096508 0.9998048 0.0096508 0.9998048 0.0096508 0.0001952 -0.0096508
5143 0.0001824 -0.0092305 0.9998176 0.0092305 0.9998176 0.0092305 0.0001824 -0.0092305
5378 0.0001706 -0.0088284 0.9998294 0.0088284 0.9998294 0.0088284 0.0001706 -0.0088284
5625 0.0001597 -0.0084438 0.9998403 0.0084438 0.9998403 0.0084438 0.0001597 -0.0084438
5882 0.0001496 -0.0080758 0.9998504 0.0080758 0.9998504 0.0080758 0.0001496 -0.0080758
6151 0.0001403 -0.0077238 0.9998597 0.0077238 0.9998597 0.0077238 0.0001403 -0.0077238
6433 0.0001317 -0.0073872 0.9998683 0.0073872 0.9998683 0.0073872 0.0001317 -0.0073872
6728 0.0001238 -0.0070651 0.9998762 0.0070651 0.9998762 0.0070651 0.0001238 -0.0070651
7036 0.0001165 -0.0067571 0.9998835 0.0067571 0.9998835 0.0067571 0.0001165 -0.0067571
7358 0.0001097 -0.0064624 0.9998903 0.0064624 0.9998903 0.0064624 0.0001097 -0.0064624
7695 0.0001035 -0.0061806 0.9998965 0.0061806 0.9998965 0.0061806 0.0001035 -0.0061806
8047 0.0000977 -0.0059111 0.9999023 0.0059111 0.9999023 0.0059111 0.0000977 -0.0059111
8416 0.0000924 -0.0056533 0.9999076 0.0056533 0.9999076 0.0056533 0.0000924 -0.0056533
8801 0.0000875 -0.0054067 0.9999125 0.0054067 0.9999125 0.0054067 0.0000875 -0.0054067
9204 0.0000829 -0.0051709 0.9999171 0.0051709 0.9999171 0.0051709 0.0000829 -0.0051709
9626 0.0000787 -0.0049454 0.9999213 0.0049454 0.9999213 0.0049454 0.0000787 -0.0049454
10066 0.0000749 -0.0047297 0.9999251 0.0047297 0.9999251 0.0047297 0.0000749 -0.0047297
10527 0.0000713 -0.0045234 0.9999287 0.0045234 0.9999287 0.0045234 0.0000713 -0.0045234
11009 0.0000679 -0.0043262 0.9999321 0.0043262 0.9999321 0.0043262 0.0000679 -0.0043262
11514 0.0000648 -0.0041375 0.9999352 0.0041375 0.9999352 0.0041375 0.0000648 -0.0041375
12041 0.0000619 -0.0039571 0.9999381 0.0039571 0.9999381 0.0039571 0.0000619 -0.0039571
12592 0.0000592 -0.0037845 0.9999408 0.0037845 0.9999408 0.0037845 0.0000592 -0.0037845
13169 0.0000567 -0.0036195 0.9999433 0.0036195 0.9999433 0.0036195 0.0000567 -0.0036195
13772 0.0000544 -0.0034617 0.9999456 0.0034617 0.9999456 0.0034617 0.0000544 -0.0034617
14402 0.0000522 -0.0033108 0.9999478 0.0033108 0.9999478 0.0033108 0.0000522 -0.0033108
15062 0.0000502 -0.0031665 0.9999498 0.0031665 0.9999498 0.0031665 0.0000502 -0.0031665
15752 0.0000482 -0.0030285 0.9999518 0.0030285 0.9999518 0.0030285 0.0000482 -0.0030285
16473 0.0000464 -0.0028965 0.9999536 0.0028965 0.9999536 0.0028965 0.0000464 -0.0028965
17227 0.0000447 -0.0027703 0.9999553 0.0027703 0.9999553 0.0027703 0.0000447 -0.0027703
18016 0.0000431 -0.0026495 0.9999569 0.0026495 0.9999569 0.0026495 0.0000431 -0.0026495
18841 0.0000416 -0.0025341 0.9999584 0.0025341 0.9999584 0.0025341 0.0000416 -0.0025341
19704 0.0000401 -0.0024236 0.9999599 0.0024236 0.9999599 0.0024236 0.0000401 -0.0024236
20606 0.0000387 -0.0023180 0.9999613 0.0023180 0.9999613 0.0023180 0.0000387 -0.0023180
21550 0.0000374 -0.0022170 0.9999626 0.0022170 0.9999626 0.0022170 0.0000374 -0.0022170
22537 0.0000362 -0.0021203 0.9999638 0.0021203 0.9999638 0.0021203 0.0000362 -0.0021203
23569 0.0000350 -0.0020279 0.9999650 0.0020279 0.9999650 0.0020279 0.0000350 -0.0020279
24648 0.0000339 -0.0019395 0.9999661 0.0019395 0.9999661 0.0019395 0.0000339 -0.0019395
25777 0.0000328 -0.0018549 0.9999672 0.0018549 0.9999672 0.0018549 0.0000328 -0.0018549
26957 0.0000318 -0.0017740 0.9999682 0.0017740 0.9999682 0.0017740 0.0000318 -0.0017740
28191 0.0000308 -0.0016966 0.9999692 0.0016966 0.9999692 0.0016966 0.0000308 -0.0016966
29482 0.0000299 -0.0016226 0.9999701 0.0016226 0.9999701 0.0016226 0.0000299 -0.0016226
30832 0.0000291 -0.0015518 0.9999709 0.0015518 0.9999709 0.0015518 0.0000291 -0.0015518
32244 0.0000282 -0.0014840 0.9999718 0.0014840 0.9999718 0.0014840 0.0000282 -0.0014840
33721 0.0000274 -0.0014192 0.9999726 0.0014192 0.9999726 0.0014192 0.0000274 -0.0014192
35265 0.0000267 -0.0013572 0.9999733 0.0013572 0.9999733 0.0013572 0.0000267 -0.0013572
36880 0.0000260 -0.0012979 0.9999740 0.0012979 0.9999740 0.0012979 0.0000260 -0.0012979
38569 0.0000253 -0.0012411 0.9999747 0.0012411 0.9999747 0.0012411 0.0000253 -0.0012411
40335 0.0000247 -0.0011868 0.9999753 0.0011868 0.9999753 0.0011868 0.0000247 -0.0011868
42182 0.0000241 -0.0011348 0.9999759 0.0011348 0.9999759 0.0011348 0.0000241 -0.0011348
44113 0.0000235 -0.0010851 0.9999765 0.0010851 0.9999765 0.0010851 0.0000235 -0.0010851
46134 0.0000230 -0.0010376 0.9999770 0.0010376 0.9999770 0.0010376 0.0000230 -0.0010376
48246 0.0000225 -0.0009921 0.9999775 0.0009921 0.9999775 0.0009921 0.0000225 -0.0009921
50455 0.0000221 -0.0009485 0.9999779 0.0009485 0.9999779 0.0009485 0.0000221 -0.0009485
52766 0.0000216 -0.0009068 0.9999784 0.0009068 0.9999784 0.0009068 0.0000216 -0.0009068
55182 0.0000212 -0.0008670 0.9999788 0.0008670 0.9999788 0.0008670 0.0000212 -0.0008670
57709 0.0000209 -0.0008288 0.9999791 0.0008288 0.9999791 0.0008288 0.0000209 -0.0008288
60352 0.0000205 -0.0007923 0.9999795 0.0007923 0.9999795 0.0007923 0.0000205 -0.0007923
63115 0.0000202 -0.0007574 0.9999798 0.0007574 0.9999798 0.0007574 0.0000202 -0.0007574
66005 0.0000199 -0.0007240 0.9999801 0.0007240 0.9999801 0.0007240 0.0000199 -0.0007240
69028 0.0000196 -0.0006920 0.9999804 0.0006920 0.9999804 0.0006920 0.0000196 -0.0006920
72189 0.0000193 -0.0006614 0.9999807 0.0006614 0.9999807 0.0006614 0.0000193 -0.0006614
75495 0.0000191 -0.0006321 0.9999809 0.0006321 0.9999809 0.0006321 0.0000191 -0.0006321
78952 0.0000189 -0.0006040 0.9999811 0.0006040 0.9999811 0.0006040 0.0000189 -0.0006040
82567 0.0000187 -0.0005772 0.9999813 0.0005772 0.9999813 0.0005772 0.0000187 -0.0005772
86348 0.0000185 -0.0005515 0.9999815 0.0005515 0.9999815 0.0005515 0.0000185 -0.0005515
90302 0.0000183 -0.0005269 0.9999817 0.0005269 0.9999817 0.0005269 0.0000183 -0.0005269
94437 0.0000182 -0.0005034 0.9999818 0.0005034 0.9999818 0.0005034 0.0000182 -0.0005034
98762 0.0000180 -0.0004809 0.9999820 0.0004809 0.9999820 0.0004809 0.0000180 -0.0004809
103284 0.0000179 -0.0004593 0.9999821 0.0004593 0.9999821 0.0004593 0.0000179 -0.0004593
108014 0.0000178 -0.0004387 0.9999822 0.0004387 0.9999822 0.0004387 0.0000178 -0.0004387
112960 0.0000177 -0.0004189 0.9999823 0.0004189 0.9999823 0.0004189 0.0000177 -0.0004189
118133 0.0000176 -0.0004000 0.9999824 0.0004000 0.9999824 0.0004000 0.0000176 -0.0004000
123542 0.0000175 -0.0003818 0.9999825 0.0003818 0.9999825 0.0003818 0.0000175 -0.0003818
129199 0.0000175 -0.0003644 0.9999825 0.0003644 0.9999825 0.0003644 0.0000175 -0.0003644
135116 0.0000174 -0.0003478 0.9999826 0.0003478 0.9999826 0.0003478 0.0000174 -0.0003478
141303 0.0000173 -0.0003318 0.9999827 0.0003318 0.9999827 0.0003318 0.0000173 -0.0003318
147774 0.0000173 -0.0003166 0.9999827 0.0003166 0.9999827 0.0003166 0.0000173 -0.0003166
154540 0.0000173 -0.0003019 0.9999827 0.0003019 0.9999827 0.0003019 0.0000173 -0.0003019
161617 0.0000172 -0.0002879 0.9999828 0.0002879 0.9999828 0.0002879 0.0000172 -0.0002879
169018 0.0000172 -0.0002744 0.9999828 0.0002744 0.9999828 0.0002744 0.0000172 -0.0002744
176758 0.0000172 -0.0002615 0.9999828 0.0002615 0.9999828 0.0002615 0.0000172 -0.0002615
184852 0.0000172 -0.0002491 0.9999828 0.0002491 0.9999828 0.0002491 0.0000172 -0.0002491
193316 0.0000172 -0.0002372 0.9999828 0.0002372 0.9999828 0.0002372 0.0000172 -0.0002372
202169 0.0000172 -0.0002257 0.9999828 0.0002257 0.9999828 0.0002257 0.0000172 -0.0002257
211427 0.0000172 -0.0002148 0.9999828 0.0002148 0.9999828 0.0002148 0.0000172 -0.0002148
221108 0.0000173 -0.0002042 0.9999827 0.0002042 0.9999827 0.0002042 0.0000173 -0.0002042
231233 0.0000173 -0.0001941 0.9999827 0.0001941 0.9999827 0.0001941 0.0000173 -0.0001941
241822 0.0000173 -0.0001843 0.9999827 0.0001843 0.9999827 0.0001843 0.0000173 -0.0001843
252896 0.0000174 -0.0001749 0.9999826 0.0001749 0.9999826 0.0001749 0.0000174 -0.0001749
264476 0.0000175 -0.0001659 0.9999825 0.0001659 0.9999825 0.0001659 0.0000175 -0.0001659
276587 0.0000175 -0.0001572 0.9999825 0.0001572 0.9999825 0.0001572 0.0000175 -0.0001572
289253 0.0000176 -0.0001489 0.9999824 0.0001489 0.9999824 0.0001489 0.0000176 -0.0001489
302498 0.0000177 -0.0001408 0.9999823 0.0001408 0.9999823 0.0001408 0.0000177 -0.0001408
316350 0.0000178 -0.0001330 0.9999822 0.0001330 0.9999822 0.0001330 0.0000178 -0.0001330
330837 0.0000179 -0.0001255 0.9999821 0.0001255 0.9999821 0.0001255 0.0000179 -0.0001255
345986 0.0000181 -0.0001182 0.9999819 0.0001182 0.9999819 0.0001182 0.0000181 -0.0001182
361830 0.0000182 -0.0001112 0.9999818 0.0001112 0.9999818 0.0001112 0.0000182 -0.0001112
378399 0.0000184 -0.0001043 0.9999816 0.0001043 0.9999816 0.0001043 0.0000184 -0.0001043
395726 0.0000186 -0.0000977 0.9999814 0.0000977 0.9999814 0.0000977 0.0000186 -0.0000977
413847 0.0000188 -0.0000913 0.9999812 0.0000913 0.9999812 0.0000913 0.0000188 -0.0000913
432798 0.0000190 -0.0000851 0.9999810 0.0000851 0.9999810 0.0000851 0.0000190 -0.0000851
452617 0.0000192 -0.0000791 0.9999808 0.0000791 0.9999808 0.0000791 0.0000192 -0.0000791
473344 0.0000195 -0.0000732 0.9999805 0.0000732 0.9999805 0.0000732 0.0000195 -0.0000732
495019 0.0000198 -0.0000675 0.9999802 0.0000675 0.9999802 0.0000675 0.0000198 -0.0000675
517687 0.0000202 -0.0000619 0.9999798 0.0000619 0.9999798 0.0000619 0.0000202 -0.0000619
541393 0.0000205 -0.0000565 0.9999795 0.0000565 0.9999795 0.0000565 0.0000205 -0.0000565
566185 0.0000209 -0.0000511 0.9999791 0.0000511 0.9999791 0.0000511 0.0000209 -0.0000511
592111 0.0000214 -0.0000459 0.9999786 0.0000459 0.9999786 0.0000459 0.0000214 -0.0000459
619225 0.0000219 -0.0000408 0.9999781 0.0000408 0.9999781 0.0000408 0.0000219 -0.0000408
647581 0.0000224 -0.0000358 0.9999776 0.0000358 0.9999776 0.0000358 0.0000224 -0.0000358
677235 0.0000230 -0.0000308 0.9999770 0.0000308 0.9999770 0.0000308 0.0000230 -0.0000308
708247 0.0000236 -0.0000260 0.9999764 0.0000260 0.9999764 0.0000260 0.0000236 -0.0000260
740679 0.0000244 -0.0000212 0.9999756 0.0000212 0.9999756 0.0000212 0.0000244 -0.0000212
774597 0.0000251 -0.0000165 0.9999749 0.0000165 0.9999749 0.0000165 0.0000251 -0.0000165
810067 0.0000260 -0.0000118 0.9999740 0.0000118 0.9999740 0.0000118 0.0000260 -0.0000118
847162 0.0000270 -0.0000072 0.9999730 0.0000072 0.9999730 0.0000072 0.0000270 -0.0000072
885955 0.0000280 -0.0000027 0.9999720 0.0000027 0.9999720 0.0000027 0.0000280 -0.0000027
926525 0.0000292 0.0000017 0.9999708 -0.0000017 0.9999708 -0.0000017 0.0000292 0.0000017
968953 0.0000304 0.0000061 0.9999696 -0.0000061 0.9999696 -0.0000061 0.0000304 0.0000061
1013323 0.0000318 0.0000105 0.9999682 -0.0000105 0.9999682 -0.0000105 0.0000318 0.0000105
1059725 0.0000333 0.0000147 0.9999667 -0.0000147 0.9999667 -0.0000147 0.0000333 0.0000147
1108252 0.0000350 0.0000189 0.9999650 -0.0000189 0.9999650 -0.0000189 0.0000350 0.0000189
1159002 0.0000368 0.0000229 0.9999632 -0.0000229 0.9999632 -0.0000229 0.0000368 0.0000229
1212075 0.0000387 0.0000269 0.9999613 -0.0000269 0.9999613 -0.0000269 0.0000387 0.0000269
1267578 0.0000408 0.0000306 0.9999592 -0.0000306 0.9999592 -0.0000306 0.0000408 0.0000306
1325623 0.0000430 0.0000343 0.9999570 -0.0000343 0.9999570 -0.0000343 0.0000430 0.0000343
1386327 0.0000452 0.0000377 0.9999548 -0.0000377 0.9999548 -0.0000377 0.0000452 0.0000377
1449809 0.0000476 0.0000409 0.9999524 -0.0000409 0.9999524 -0.0000409 0.0000476 0.0000409
1516199 0.0000500 0.0000438 0.9999500 -0.0000438 0.9999500 -0.0000438 0.0000500 0.0000438
1585629 0.0000524 0.0000465 0.9999476 -0.0000465 0.9999476 -0.0000465 0.0000524 0.0000465
1658239 0.0000547 0.0000489 0.9999453 -0.0000489 0.9999453 -0.0000489 0.0000547 0.0000489
1734173 0.0000568 0.0000511 0.9999432 -0.0000511 0.9999432 -0.0000511 0.0000568 0.0000511
1813585 0.0000588 0.0000532 0.9999412 -0.0000532 0.9999412 -0.0000532 0.0000588 0.0000532
1896632 0.0000604 0.0000551 0.9999396 -0.0000551 0.9999396 -0.0000551 0.0000604 0.0000551
1983483 0.0000618 0.0000570 0.9999382 -0.0000570 0.9999382 -0.0000570 0.0000618 0.0000570
2074311 0.0000630 0.0000589 0.9999370 -0.0000589 0.9999370 -0.0000589 0.0000630 0.0000589
