!Murata Part Number: GRM21AR72E222KW01
!These Parameters are Measured in Series Mode Connection
!Data Generated on Mar 30, 2021
!       o--ll--o
!Port1            Port2
!       o------o
!Operation Temp=25[degC], DC Bias Voltage=0[V]
!Freq. Start=100[kHz] Stop=6[GHz] 401[Steps]
# Hz S RI R 50
!Freq.(Hz) S11(Real) S11(Imag) S21(Real) S21(Imag) S12(Real) S12(Imag) S22(Real) S22(Imag)
100000 0.9807625 -0.1300597 0.0192375 0.1300597 0.0192375 0.1300597 0.9807625 -0.1300597
102789 0.9797803 -0.1335108 0.0202197 0.1335108 0.0202197 0.1335108 0.9797803 -0.1335108
105655 0.9787466 -0.1370473 0.0212534 0.1370473 0.0212534 0.1370473 0.9787466 -0.1370473
108602 0.9776585 -0.1406704 0.0223415 0.1406704 0.0223415 0.1406704 0.9776585 -0.1406704
111630 0.9765133 -0.1443818 0.0234867 0.1443818 0.0234867 0.1443818 0.9765133 -0.1443818
114743 0.9753079 -0.1481827 0.0246921 0.1481827 0.0246921 0.1481827 0.9753079 -0.1481827
117943 0.9740392 -0.1520746 0.0259608 0.1520746 0.0259608 0.1520746 0.9740392 -0.1520746
121232 0.9727041 -0.1560588 0.0272959 0.1560588 0.0272959 0.1560588 0.9727041 -0.1560588
124613 0.9712990 -0.1601366 0.0287010 0.1601366 0.0287010 0.1601366 0.9712990 -0.1601366
128088 0.9698205 -0.1643090 0.0301795 0.1643090 0.0301795 0.1643090 0.9698205 -0.1643090
131660 0.9682649 -0.1685773 0.0317351 0.1685773 0.0317351 0.1685773 0.9682649 -0.1685773
135332 0.9666282 -0.1729423 0.0333718 0.1729423 0.0333718 0.1729423 0.9666282 -0.1729423
139106 0.9649066 -0.1774051 0.0350934 0.1774051 0.0350934 0.1774051 0.9649066 -0.1774051
142985 0.9630958 -0.1819665 0.0369042 0.1819665 0.0369042 0.1819665 0.9630958 -0.1819665
146972 0.9611916 -0.1866270 0.0388084 0.1866270 0.0388084 0.1866270 0.9611916 -0.1866270
151071 0.9591893 -0.1913872 0.0408107 0.1913872 0.0408107 0.1913872 0.9591893 -0.1913872
155284 0.9570845 -0.1962476 0.0429155 0.1962476 0.0429155 0.1962476 0.9570845 -0.1962476
159614 0.9548722 -0.2012084 0.0451278 0.2012084 0.0451278 0.2012084 0.9548722 -0.2012084
164065 0.9525475 -0.2062696 0.0474525 0.2062696 0.0474525 0.2062696 0.9525475 -0.2062696
168641 0.9501052 -0.2114311 0.0498948 0.2114311 0.0498948 0.2114311 0.9501052 -0.2114311
173344 0.9475401 -0.2166925 0.0524599 0.2166925 0.0524599 0.2166925 0.9475401 -0.2166925
178178 0.9448466 -0.2220533 0.0551534 0.2220533 0.0551534 0.2220533 0.9448466 -0.2220533
183146 0.9420191 -0.2275126 0.0579809 0.2275126 0.0579809 0.2275126 0.9420191 -0.2275126
188254 0.9390519 -0.2330694 0.0609481 0.2330694 0.0609481 0.2330694 0.9390519 -0.2330694
193504 0.9359390 -0.2387223 0.0640610 0.2387223 0.0640610 0.2387223 0.9359390 -0.2387223
198900 0.9326745 -0.2444697 0.0673255 0.2444697 0.0673255 0.2444697 0.9326745 -0.2444697
204447 0.9292520 -0.2503095 0.0707480 0.2503095 0.0707480 0.2503095 0.9292520 -0.2503095
210148 0.9256653 -0.2562395 0.0743347 0.2562395 0.0743347 0.2562395 0.9256653 -0.2562395
216008 0.9219081 -0.2622569 0.0780919 0.2622569 0.0780919 0.2622569 0.9219081 -0.2622569
222032 0.9179739 -0.2683588 0.0820261 0.2683588 0.0820261 0.2683588 0.9179739 -0.2683588
228224 0.9138560 -0.2745416 0.0861440 0.2745416 0.0861440 0.2745416 0.9138560 -0.2745416
234589 0.9095480 -0.2808015 0.0904520 0.2808015 0.0904520 0.2808015 0.9095480 -0.2808015
241130 0.9050432 -0.2871342 0.0949568 0.2871342 0.0949568 0.2871342 0.9050432 -0.2871342
247855 0.9003350 -0.2935347 0.0996650 0.2935347 0.0996650 0.2935347 0.9003350 -0.2935347
254767 0.8954168 -0.2999980 0.1045832 0.2999980 0.1045832 0.2999980 0.8954168 -0.2999980
261871 0.8902821 -0.3065182 0.1097179 0.3065182 0.1097179 0.3065182 0.8902821 -0.3065182
269174 0.8849244 -0.3130890 0.1150756 0.3130890 0.1150756 0.3130890 0.8849244 -0.3130890
276681 0.8793373 -0.3197036 0.1206627 0.3197036 0.1206627 0.3197036 0.8793373 -0.3197036
284397 0.8735148 -0.3263548 0.1264852 0.3263548 0.1264852 0.3263548 0.8735148 -0.3263548
292328 0.8674509 -0.3330344 0.1325491 0.3330344 0.1325491 0.3330344 0.8674509 -0.3330344
300480 0.8611398 -0.3397342 0.1388602 0.3397342 0.1388602 0.3397342 0.8611398 -0.3397342
308859 0.8545760 -0.3464451 0.1454240 0.3464451 0.1454240 0.3464451 0.8545760 -0.3464451
317472 0.8477546 -0.3531575 0.1522454 0.3531575 0.1522454 0.3531575 0.8477546 -0.3531575
326326 0.8406708 -0.3598612 0.1593292 0.3598612 0.1593292 0.3598612 0.8406708 -0.3598612
335426 0.8333203 -0.3665456 0.1666797 0.3665456 0.1666797 0.3665456 0.8333203 -0.3665456
344780 0.8256993 -0.3731994 0.1743007 0.3731994 0.1743007 0.3731994 0.8256993 -0.3731994
354395 0.8178046 -0.3798109 0.1821954 0.3798109 0.1821954 0.3798109 0.8178046 -0.3798109
364278 0.8096335 -0.3863677 0.1903665 0.3863677 0.1903665 0.3863677 0.8096335 -0.3863677
374436 0.8011839 -0.3928572 0.1988161 0.3928572 0.1988161 0.3928572 0.8011839 -0.3928572
384878 0.7924547 -0.3992660 0.2075453 0.3992660 0.2075453 0.3992660 0.7924547 -0.3992660
395611 0.7834452 -0.4055807 0.2165548 0.4055807 0.2165548 0.4055807 0.7834452 -0.4055807
406644 0.7741556 -0.4117872 0.2258444 0.4117872 0.2258444 0.4117872 0.7741556 -0.4117872
417984 0.7645872 -0.4178714 0.2354128 0.4178714 0.2354128 0.4178714 0.7645872 -0.4178714
429640 0.7547418 -0.4238186 0.2452582 0.4238186 0.2452582 0.4238186 0.7547418 -0.4238186
441622 0.7446225 -0.4296141 0.2553775 0.4296141 0.2553775 0.4296141 0.7446225 -0.4296141
453937 0.7342332 -0.4352431 0.2657668 0.4352431 0.2657668 0.4352431 0.7342332 -0.4352431
466596 0.7235787 -0.4406907 0.2764213 0.4406907 0.2764213 0.4406907 0.7235787 -0.4406907
479608 0.7126651 -0.4459420 0.2873349 0.4459420 0.2873349 0.4459420 0.7126651 -0.4459420
492983 0.7014995 -0.4509823 0.2985005 0.4509823 0.2985005 0.4509823 0.7014995 -0.4509823
506731 0.6900897 -0.4557970 0.3099103 0.4557970 0.3099103 0.4557970 0.6900897 -0.4557970
520862 0.6784451 -0.4603718 0.3215549 0.4603718 0.3215549 0.4603718 0.6784451 -0.4603718
535387 0.6665758 -0.4646929 0.3334242 0.4646929 0.3334242 0.4646929 0.6665758 -0.4646929
550318 0.6544931 -0.4687467 0.3455069 0.4687467 0.3455069 0.4687467 0.6544931 -0.4687467
565664 0.6422093 -0.4725203 0.3577907 0.4725203 0.3577907 0.4725203 0.6422093 -0.4725203
581439 0.6297377 -0.4760017 0.3702623 0.4760017 0.3702623 0.4760017 0.6297377 -0.4760017
597654 0.6170924 -0.4791792 0.3829076 0.4791792 0.3829076 0.4791792 0.6170924 -0.4791792
614320 0.6042886 -0.4820423 0.3957114 0.4820423 0.3957114 0.4820423 0.6042886 -0.4820423
631452 0.5913423 -0.4845811 0.4086577 0.4845811 0.4086577 0.4845811 0.5913423 -0.4845811
649061 0.5782702 -0.4867870 0.4217298 0.4867870 0.4217298 0.4867870 0.5782702 -0.4867870
667162 0.5650896 -0.4886522 0.4349104 0.4886522 0.4349104 0.4886522 0.5650896 -0.4886522
685767 0.5518187 -0.4901702 0.4481813 0.4901702 0.4481813 0.4901702 0.5518187 -0.4901702
704891 0.5384758 -0.4913355 0.4615242 0.4913355 0.4615242 0.4913355 0.5384758 -0.4913355
724548 0.5250799 -0.4921441 0.4749201 0.4921441 0.4749201 0.4921441 0.5250799 -0.4921441
744754 0.5116503 -0.4925929 0.4883497 0.4925929 0.4883497 0.4925929 0.5116503 -0.4925929
765523 0.4982064 -0.4926804 0.5017936 0.4926804 0.5017936 0.4926804 0.4982064 -0.4926804
786871 0.4847676 -0.4924063 0.5152324 0.4924063 0.5152324 0.4924063 0.4847676 -0.4924063
808814 0.4713535 -0.4917714 0.5286465 0.4917714 0.5286465 0.4917714 0.4713535 -0.4917714
831370 0.4579834 -0.4907783 0.5420166 0.4907783 0.5420166 0.4907783 0.4579834 -0.4907783
854554 0.4446764 -0.4894302 0.5553236 0.4894302 0.5553236 0.4894302 0.4446764 -0.4894302
878385 0.4314512 -0.4877322 0.5685488 0.4877322 0.5685488 0.4877322 0.4314512 -0.4877322
902880 0.4183262 -0.4856902 0.5816738 0.4856902 0.5816738 0.4856902 0.4183262 -0.4856902
928059 0.4053191 -0.4833113 0.5946809 0.4833113 0.5946809 0.4833113 0.4053191 -0.4833113
953940 0.3924470 -0.4806039 0.6075530 0.4806039 0.6075530 0.4806039 0.3924470 -0.4806039
980542 0.3797262 -0.4775773 0.6202738 0.4775773 0.6202738 0.4775773 0.3797262 -0.4775773
1007887 0.3671724 -0.4742417 0.6328276 0.4742417 0.6328276 0.4742417 0.3671724 -0.4742417
1035994 0.3548002 -0.4706083 0.6451998 0.4706083 0.6451998 0.4706083 0.3548002 -0.4706083
1064885 0.3426233 -0.4666890 0.6573767 0.4666890 0.6573767 0.4666890 0.3426233 -0.4666890
1094581 0.3306547 -0.4624966 0.6693453 0.4624966 0.6693453 0.4624966 0.3306547 -0.4624966
1125106 0.3189060 -0.4580441 0.6810940 0.4580441 0.6810940 0.4580441 0.3189060 -0.4580441
1156481 0.3073880 -0.4533455 0.6926120 0.4533455 0.6926120 0.4533455 0.3073880 -0.4533455
1188732 0.2961103 -0.4484148 0.7038897 0.4484148 0.7038897 0.4484148 0.2961103 -0.4484148
1221882 0.2850815 -0.4432668 0.7149185 0.4432668 0.7149185 0.4432668 0.2850815 -0.4432668
1255957 0.2743091 -0.4379160 0.7256909 0.4379160 0.7256909 0.4379160 0.2743091 -0.4379160
1290982 0.2637995 -0.4323775 0.7362005 0.4323775 0.7362005 0.4323775 0.2637995 -0.4323775
1326984 0.2535581 -0.4266661 0.7464419 0.4266661 0.7464419 0.4266661 0.2535581 -0.4266661
1363989 0.2435892 -0.4207970 0.7564108 0.4207970 0.7564108 0.4207970 0.2435892 -0.4207970
1402027 0.2338961 -0.4147848 0.7661039 0.4147848 0.7661039 0.4147848 0.2338961 -0.4147848
1441125 0.2244813 -0.4086444 0.7755187 0.4086444 0.7755187 0.4086444 0.2244813 -0.4086444
1481314 0.2153461 -0.4023902 0.7846539 0.4023902 0.7846539 0.4023902 0.2153461 -0.4023902
1522623 0.2064911 -0.3960364 0.7935089 0.3960364 0.7935089 0.3960364 0.2064911 -0.3960364
1565085 0.1979160 -0.3895967 0.8020840 0.3895967 0.8020840 0.3895967 0.1979160 -0.3895967
1608730 0.1896197 -0.3830846 0.8103803 0.3830846 0.8103803 0.3830846 0.1896197 -0.3830846
1653593 0.1816004 -0.3765130 0.8183996 0.3765130 0.8183996 0.3765130 0.1816004 -0.3765130
1699707 0.1738557 -0.3698946 0.8261443 0.3698946 0.8261443 0.3698946 0.1738557 -0.3698946
1747106 0.1663825 -0.3632411 0.8336175 0.3632411 0.8336175 0.3632411 0.1663825 -0.3632411
1795828 0.1591770 -0.3565642 0.8408230 0.3565642 0.8408230 0.3565642 0.1591770 -0.3565642
1845908 0.1522351 -0.3498748 0.8477649 0.3498748 0.8477649 0.3498748 0.1522351 -0.3498748
1897385 0.1455522 -0.3431832 0.8544478 0.3431832 0.8544478 0.3431832 0.1455522 -0.3431832
1950297 0.1391233 -0.3364992 0.8608767 0.3364992 0.8608767 0.3364992 0.1391233 -0.3364992
2004685 0.1329428 -0.3298320 0.8670572 0.3298320 0.8670572 0.3298320 0.1329428 -0.3298320
2060590 0.1270053 -0.3231902 0.8729947 0.3231902 0.8729947 0.3231902 0.1270053 -0.3231902
2118054 0.1213046 -0.3165820 0.8786954 0.3165820 0.8786954 0.3165820 0.1213046 -0.3165820
2177120 0.1158347 -0.3100149 0.8841653 0.3100149 0.8841653 0.3100149 0.1158347 -0.3100149
2237833 0.1105892 -0.3034957 0.8894108 0.3034957 0.8894108 0.3034957 0.1105892 -0.3034957
2300240 0.1055616 -0.2970310 0.8944384 0.2970310 0.8944384 0.2970310 0.1055616 -0.2970310
2364387 0.1007455 -0.2906265 0.8992545 0.2906265 0.8992545 0.2906265 0.1007455 -0.2906265
2430322 0.0961342 -0.2842878 0.9038658 0.2842878 0.9038658 0.2842878 0.0961342 -0.2842878
2498097 0.0917210 -0.2780196 0.9082790 0.2780196 0.9082790 0.2780196 0.0917210 -0.2780196
2567761 0.0874993 -0.2718263 0.9125007 0.2718263 0.9125007 0.2718263 0.0874993 -0.2718263
2639368 0.0834625 -0.2657120 0.9165375 0.2657120 0.9165375 0.2657120 0.0834625 -0.2657120
2712972 0.0796040 -0.2596802 0.9203960 0.2596802 0.9203960 0.2596802 0.0796040 -0.2596802
2788629 0.0759174 -0.2537339 0.9240826 0.2537339 0.9240826 0.2537339 0.0759174 -0.2537339
2866396 0.0723961 -0.2478758 0.9276039 0.2478758 0.9276039 0.2478758 0.0723961 -0.2478758
2946331 0.0690340 -0.2421085 0.9309660 0.2421085 0.9309660 0.2421085 0.0690340 -0.2421085
3028495 0.0658248 -0.2364337 0.9341752 0.2364337 0.9341752 0.2364337 0.0658248 -0.2364337
3112951 0.0627625 -0.2308533 0.9372375 0.2308533 0.9372375 0.2308533 0.0627625 -0.2308533
3199762 0.0598411 -0.2253686 0.9401589 0.2253686 0.9401589 0.2253686 0.0598411 -0.2253686
3288994 0.0570549 -0.2199807 0.9429451 0.2199807 0.9429451 0.2199807 0.0570549 -0.2199807
3380714 0.0543982 -0.2146905 0.9456018 0.2146905 0.9456018 0.2146905 0.0543982 -0.2146905
3474992 0.0518657 -0.2094984 0.9481343 0.2094984 0.9481343 0.2094984 0.0518657 -0.2094984
3571899 0.0494520 -0.2044049 0.9505480 0.2044049 0.9505480 0.2044049 0.0494520 -0.2044049
3671508 0.0471520 -0.1994101 0.9528480 0.1994101 0.9528480 0.1994101 0.0471520 -0.1994101
3773896 0.0449607 -0.1945140 0.9550393 0.1945140 0.9550393 0.1945140 0.0449607 -0.1945140
3879139 0.0428735 -0.1897163 0.9571265 0.1897163 0.9571265 0.1897163 0.0428735 -0.1897163
3987316 0.0408856 -0.1850166 0.9591144 0.1850166 0.9591144 0.1850166 0.0408856 -0.1850166
4098510 0.0389926 -0.1804146 0.9610074 0.1804146 0.9610074 0.1804146 0.0389926 -0.1804146
4212806 0.0371903 -0.1759093 0.9628097 0.1759093 0.9628097 0.1759093 0.0371903 -0.1759093
4330288 0.0354745 -0.1715002 0.9645255 0.1715002 0.9645255 0.1715002 0.0354745 -0.1715002
4451047 0.0338414 -0.1671864 0.9661586 0.1671864 0.9661586 0.1671864 0.0338414 -0.1671864
4575173 0.0322871 -0.1629668 0.9677129 0.1629668 0.9677129 0.1629668 0.0322871 -0.1629668
4702761 0.0308079 -0.1588403 0.9691921 0.1588403 0.9691921 0.1588403 0.0308079 -0.1588403
4833907 0.0294005 -0.1548060 0.9705995 0.1548060 0.9705995 0.1548060 0.0294005 -0.1548060
4968711 0.0280614 -0.1508625 0.9719386 0.1508625 0.9719386 0.1508625 0.0280614 -0.1508625
5107273 0.0267875 -0.1470086 0.9732125 0.1470086 0.9732125 0.1470086 0.0267875 -0.1470086
5249700 0.0255758 -0.1432430 0.9744242 0.1432430 0.9744242 0.1432430 0.0255758 -0.1432430
5396098 0.0244232 -0.1395644 0.9755768 0.1395644 0.9755768 0.1395644 0.0244232 -0.1395644
5546579 0.0233271 -0.1359714 0.9766729 0.1359714 0.9766729 0.1359714 0.0233271 -0.1359714
5701257 0.0222847 -0.1324625 0.9777153 0.1324625 0.9777153 0.1324625 0.0222847 -0.1324625
5860248 0.0212935 -0.1290364 0.9787065 0.1290364 0.9787065 0.1290364 0.0212935 -0.1290364
6023672 0.0203511 -0.1256917 0.9796489 0.1256917 0.9796489 0.1256917 0.0203511 -0.1256917
6191655 0.0194551 -0.1224267 0.9805449 0.1224267 0.9805449 0.1224267 0.0194551 -0.1224267
6364321 0.0186033 -0.1192401 0.9813967 0.1192401 0.9813967 0.1192401 0.0186033 -0.1192401
6541803 0.0177936 -0.1161305 0.9822064 0.1161305 0.9822064 0.1161305 0.0177936 -0.1161305
6724235 0.0170240 -0.1130962 0.9829760 0.1130962 0.9829760 0.1130962 0.0170240 -0.1130962
6911753 0.0162926 -0.1101359 0.9837074 0.1101359 0.9837074 0.1101359 0.0162926 -0.1101359
7104501 0.0155974 -0.1072480 0.9844026 0.1072480 0.9844026 0.1072480 0.0155974 -0.1072480
7302625 0.0149368 -0.1044312 0.9850632 0.1044312 0.9850632 0.1044312 0.0149368 -0.1044312
7506273 0.0143091 -0.1016838 0.9856909 0.1016838 0.9856909 0.1016838 0.0143091 -0.1016838
7715601 0.0137127 -0.0990046 0.9862873 0.0990046 0.9862873 0.0990046 0.0137127 -0.0990046
7930766 0.0131459 -0.0963920 0.9868541 0.0963920 0.9868541 0.0963920 0.0131459 -0.0963920
8151931 0.0126075 -0.0938446 0.9873925 0.0938446 0.9873925 0.0938446 0.0126075 -0.0938446
8379264 0.0120960 -0.0913610 0.9879040 0.0913610 0.9879040 0.0913610 0.0120960 -0.0913610
8612937 0.0116100 -0.0889397 0.9883900 0.0889397 0.9883900 0.0889397 0.0116100 -0.0889397
8853126 0.0111484 -0.0865795 0.9888516 0.0865795 0.9888516 0.0865795 0.0111484 -0.0865795
9100013 0.0107099 -0.0842789 0.9892901 0.0842789 0.9892901 0.0842789 0.0107099 -0.0842789
9353785 0.0102933 -0.0820366 0.9897067 0.0820366 0.9897067 0.0820366 0.0102933 -0.0820366
9614634 0.0098976 -0.0798513 0.9901024 0.0798513 0.9901024 0.0798513 0.0098976 -0.0798513
9882758 0.0095217 -0.0777215 0.9904783 0.0777215 0.9904783 0.0777215 0.0095217 -0.0777215
10158358 0.0091646 -0.0756462 0.9908354 0.0756462 0.9908354 0.0756462 0.0091646 -0.0756462
10441645 0.0088254 -0.0736239 0.9911746 0.0736239 0.9911746 0.0736239 0.0088254 -0.0736239
10732831 0.0085031 -0.0716534 0.9914969 0.0716534 0.9914969 0.0716534 0.0085031 -0.0716534
11032137 0.0081970 -0.0697335 0.9918030 0.0697335 0.9918030 0.0697335 0.0081970 -0.0697335
11339791 0.0079061 -0.0678629 0.9920939 0.0678629 0.9920939 0.0678629 0.0079061 -0.0678629
11656024 0.0076297 -0.0660405 0.9923703 0.0660405 0.9923703 0.0660405 0.0076297 -0.0660405
11981075 0.0073671 -0.0642651 0.9926329 0.0642651 0.9926329 0.0642651 0.0073671 -0.0642651
12315192 0.0071175 -0.0625355 0.9928825 0.0625355 0.9928825 0.0625355 0.0071175 -0.0625355
12658625 0.0068803 -0.0608507 0.9931197 0.0608507 0.9931197 0.0608507 0.0068803 -0.0608507
13011637 0.0066548 -0.0592094 0.9933452 0.0592094 0.9933452 0.0592094 0.0066548 -0.0592094
13374492 0.0064404 -0.0576106 0.9935596 0.0576106 0.9935596 0.0576106 0.0064404 -0.0576106
13747467 0.0062365 -0.0560532 0.9937635 0.0560532 0.9937635 0.0560532 0.0062365 -0.0560532
14130843 0.0060426 -0.0545362 0.9939574 0.0545362 0.9939574 0.0545362 0.0060426 -0.0545362
14524910 0.0058581 -0.0530585 0.9941419 0.0530585 0.9941419 0.0530585 0.0058581 -0.0530585
14929966 0.0056825 -0.0516191 0.9943175 0.0516191 0.9943175 0.0516191 0.0056825 -0.0516191
15346318 0.0055154 -0.0502171 0.9944846 0.0502171 0.9944846 0.0502171 0.0055154 -0.0502171
15774281 0.0053563 -0.0488514 0.9946437 0.0488514 0.9946437 0.0488514 0.0053563 -0.0488514
16214179 0.0052047 -0.0475211 0.9947953 0.0475211 0.9947953 0.0475211 0.0052047 -0.0475211
16666344 0.0050603 -0.0462252 0.9949397 0.0462252 0.9949397 0.0462252 0.0050603 -0.0462252
17131118 0.0049227 -0.0449629 0.9950773 0.0449629 0.9950773 0.0449629 0.0049227 -0.0449629
17608854 0.0047914 -0.0437333 0.9952086 0.0437333 0.9952086 0.0437333 0.0047914 -0.0437333
18099912 0.0046662 -0.0425354 0.9953338 0.0425354 0.9953338 0.0425354 0.0046662 -0.0425354
18604665 0.0045467 -0.0413684 0.9954533 0.0413684 0.9954533 0.0413684 0.0045467 -0.0413684
19123493 0.0044326 -0.0402314 0.9955674 0.0402314 0.9955674 0.0402314 0.0044326 -0.0402314
19656790 0.0043235 -0.0391237 0.9956765 0.0391237 0.9956765 0.0391237 0.0043235 -0.0391237
20204959 0.0042193 -0.0380444 0.9957807 0.0380444 0.9957807 0.0380444 0.0042193 -0.0380444
20768415 0.0041197 -0.0369927 0.9958803 0.0369927 0.9958803 0.0369927 0.0041197 -0.0369927
21347584 0.0040243 -0.0359679 0.9959757 0.0359679 0.9959757 0.0359679 0.0040243 -0.0359679
21942904 0.0039330 -0.0349692 0.9960670 0.0349692 0.9960670 0.0349692 0.0039330 -0.0349692
22554827 0.0038456 -0.0339959 0.9961544 0.0339959 0.9961544 0.0339959 0.0038456 -0.0339959
23183813 0.0037617 -0.0330471 0.9962383 0.0330471 0.9962383 0.0330471 0.0037617 -0.0330471
23830340 0.0036813 -0.0321223 0.9963187 0.0321223 0.9963187 0.0321223 0.0036813 -0.0321223
24494897 0.0036041 -0.0312208 0.9963959 0.0312208 0.9963959 0.0312208 0.0036041 -0.0312208
25177987 0.0035300 -0.0303418 0.9964700 0.0303418 0.9964700 0.0303418 0.0035300 -0.0303418
25880126 0.0034589 -0.0294846 0.9965411 0.0294846 0.9965411 0.0294846 0.0034589 -0.0294846
26601845 0.0033904 -0.0286488 0.9966096 0.0286488 0.9966096 0.0286488 0.0033904 -0.0286488
27343691 0.0033246 -0.0278335 0.9966754 0.0278335 0.9966754 0.0278335 0.0033246 -0.0278335
28106225 0.0032612 -0.0270383 0.9967388 0.0270383 0.9967388 0.0270383 0.0032612 -0.0270383
28890023 0.0032002 -0.0262624 0.9967998 0.0262624 0.9967998 0.0262624 0.0032002 -0.0262624
29695680 0.0031415 -0.0255054 0.9968585 0.0255054 0.9968585 0.0255054 0.0031415 -0.0255054
30523804 0.0030848 -0.0247666 0.9969152 0.0247666 0.9969152 0.0247666 0.0030848 -0.0247666
31375021 0.0030302 -0.0240454 0.9969698 0.0240454 0.9969698 0.0240454 0.0030302 -0.0240454
32249977 0.0029776 -0.0233414 0.9970224 0.0233414 0.9970224 0.0233414 0.0029776 -0.0233414
33149332 0.0029268 -0.0226541 0.9970732 0.0226541 0.9970732 0.0226541 0.0029268 -0.0226541
34073768 0.0028778 -0.0219828 0.9971222 0.0219828 0.9971222 0.0219828 0.0028778 -0.0219828
35023984 0.0028305 -0.0213271 0.9971695 0.0213271 0.9971695 0.0213271 0.0028305 -0.0213271
36000698 0.0027848 -0.0206865 0.9972152 0.0206865 0.9972152 0.0206865 0.0027848 -0.0206865
37004650 0.0027407 -0.0200605 0.9972593 0.0200605 0.9972593 0.0200605 0.0027407 -0.0200605
38036599 0.0026982 -0.0194486 0.9973018 0.0194486 0.9973018 0.0194486 0.0026982 -0.0194486
39097326 0.0026571 -0.0188505 0.9973429 0.0188505 0.9973429 0.0188505 0.0026571 -0.0188505
