!Murata Part Number: GRM219R71H223MA17
!These Parameters are Measured in Series Mode Connection
!Data Generated on Mar 30, 2021
!       o--ll--o
!Port1            Port2
!       o------o
!Operation Temp=25[degC], DC Bias Voltage=0[V]
!Freq. Start=100[Hz] Stop=6[GHz] 401[Steps]
# Hz S RI R 50
!Freq.(Hz) S11(Real) S11(Imag) S21(Real) S21(Imag) S12(Real) S12(Imag) S22(Real) S22(Imag)
100 0.9999920 -0.0013909 0.0000080 0.0013909 0.0000080 0.0013909 0.9999920 -0.0013909
105 0.9999916 -0.0014544 0.0000084 0.0014544 0.0000084 0.0014544 0.9999916 -0.0014544
109 0.9999912 -0.0015208 0.0000088 0.0015208 0.0000088 0.0015208 0.9999912 -0.0015208
114 0.9999907 -0.0015902 0.0000093 0.0015902 0.0000093 0.0015902 0.9999907 -0.0015902
120 0.9999902 -0.0016628 0.0000098 0.0016628 0.0000098 0.0016628 0.9999902 -0.0016628
125 0.9999897 -0.0017388 0.0000103 0.0017388 0.0000103 0.0017388 0.9999897 -0.0017388
131 0.9999891 -0.0018182 0.0000109 0.0018182 0.0000109 0.0018182 0.9999891 -0.0018182
137 0.9999885 -0.0019012 0.0000115 0.0019012 0.0000115 0.0019012 0.9999885 -0.0019012
143 0.9999878 -0.0019880 0.0000122 0.0019880 0.0000122 0.0019880 0.9999878 -0.0019880
150 0.9999871 -0.0020788 0.0000129 0.0020788 0.0000129 0.0020788 0.9999871 -0.0020788
156 0.9999863 -0.0021738 0.0000137 0.0021738 0.0000137 0.0021738 0.9999863 -0.0021738
164 0.9999855 -0.0022731 0.0000145 0.0022731 0.0000145 0.0022731 0.9999855 -0.0022731
171 0.9999847 -0.0023769 0.0000153 0.0023769 0.0000153 0.0023769 0.9999847 -0.0023769
179 0.9999837 -0.0024855 0.0000163 0.0024855 0.0000163 0.0024855 0.9999837 -0.0024855
187 0.9999827 -0.0025990 0.0000173 0.0025990 0.0000173 0.0025990 0.9999827 -0.0025990
196 0.9999817 -0.0027178 0.0000183 0.0027178 0.0000183 0.0027178 0.9999817 -0.0027178
205 0.9999805 -0.0028419 0.0000195 0.0028419 0.0000195 0.0028419 0.9999805 -0.0028419
214 0.9999793 -0.0029717 0.0000207 0.0029717 0.0000207 0.0029717 0.9999793 -0.0029717
224 0.9999779 -0.0031075 0.0000221 0.0031075 0.0000221 0.0031075 0.9999779 -0.0031075
234 0.9999765 -0.0032494 0.0000235 0.0032494 0.0000235 0.0032494 0.9999765 -0.0032494
245 0.9999750 -0.0033979 0.0000250 0.0033979 0.0000250 0.0033979 0.9999750 -0.0033979
256 0.9999733 -0.0035531 0.0000267 0.0035531 0.0000267 0.0035531 0.9999733 -0.0035531
268 0.9999715 -0.0037155 0.0000285 0.0037155 0.0000285 0.0037155 0.9999715 -0.0037155
280 0.9999695 -0.0038852 0.0000305 0.0038852 0.0000305 0.0038852 0.9999695 -0.0038852
293 0.9999674 -0.0040627 0.0000326 0.0040627 0.0000326 0.0040627 0.9999674 -0.0040627
306 0.9999652 -0.0042483 0.0000348 0.0042483 0.0000348 0.0042483 0.9999652 -0.0042483
320 0.9999627 -0.0044424 0.0000373 0.0044424 0.0000373 0.0044424 0.9999627 -0.0044424
335 0.9999600 -0.0046454 0.0000400 0.0046454 0.0000400 0.0046454 0.9999600 -0.0046454
350 0.9999572 -0.0048576 0.0000428 0.0048576 0.0000428 0.0048576 0.9999572 -0.0048576
366 0.9999540 -0.0050796 0.0000460 0.0050796 0.0000460 0.0050796 0.9999540 -0.0050796
383 0.9999507 -0.0053116 0.0000493 0.0053116 0.0000493 0.0053116 0.9999507 -0.0053116
401 0.9999470 -0.0055543 0.0000530 0.0055543 0.0000530 0.0055543 0.9999470 -0.0055543
419 0.9999430 -0.0058081 0.0000570 0.0058081 0.0000570 0.0058081 0.9999430 -0.0058081
438 0.9999387 -0.0060734 0.0000613 0.0060734 0.0000613 0.0060734 0.9999387 -0.0060734
458 0.9999340 -0.0063508 0.0000660 0.0063508 0.0000660 0.0063508 0.9999340 -0.0063508
479 0.9999289 -0.0066410 0.0000711 0.0066410 0.0000711 0.0066410 0.9999289 -0.0066410
501 0.9999234 -0.0069443 0.0000766 0.0069443 0.0000766 0.0069443 0.9999234 -0.0069443
524 0.9999174 -0.0072615 0.0000826 0.0072615 0.0000826 0.0072615 0.9999174 -0.0072615
548 0.9999109 -0.0075931 0.0000891 0.0075931 0.0000891 0.0075931 0.9999109 -0.0075931
573 0.9999038 -0.0079399 0.0000962 0.0079399 0.0000962 0.0079399 0.9999038 -0.0079399
600 0.9998962 -0.0083025 0.0001038 0.0083025 0.0001038 0.0083025 0.9998962 -0.0083025
627 0.9998879 -0.0086816 0.0001121 0.0086816 0.0001121 0.0086816 0.9998879 -0.0086816
656 0.9998789 -0.0090779 0.0001211 0.0090779 0.0001211 0.0090779 0.9998789 -0.0090779
686 0.9998691 -0.0094924 0.0001309 0.0094924 0.0001309 0.0094924 0.9998691 -0.0094924
717 0.9998585 -0.0099257 0.0001415 0.0099257 0.0001415 0.0099257 0.9998585 -0.0099257
750 0.9998470 -0.0103787 0.0001530 0.0103787 0.0001530 0.0103787 0.9998470 -0.0103787
784 0.9998345 -0.0108524 0.0001655 0.0108524 0.0001655 0.0108524 0.9998345 -0.0108524
820 0.9998209 -0.0113477 0.0001791 0.0113477 0.0001791 0.0113477 0.9998209 -0.0113477
858 0.9998063 -0.0118655 0.0001937 0.0118655 0.0001937 0.0118655 0.9998063 -0.0118655
897 0.9997903 -0.0124068 0.0002097 0.0124068 0.0002097 0.0124068 0.9997903 -0.0124068
938 0.9997731 -0.0129728 0.0002269 0.0129728 0.0002269 0.0129728 0.9997731 -0.0129728
981 0.9997544 -0.0135646 0.0002456 0.0135646 0.0002456 0.0135646 0.9997544 -0.0135646
1026 0.9997341 -0.0141833 0.0002659 0.0141833 0.0002659 0.0141833 0.9997341 -0.0141833
1073 0.9997121 -0.0148302 0.0002879 0.0148302 0.0002879 0.0148302 0.9997121 -0.0148302
1122 0.9996883 -0.0155066 0.0003117 0.0155066 0.0003117 0.0155066 0.9996883 -0.0155066
1174 0.9996624 -0.0162137 0.0003376 0.0162137 0.0003376 0.0162137 0.9996624 -0.0162137
1227 0.9996343 -0.0169531 0.0003657 0.0169531 0.0003657 0.0169531 0.9996343 -0.0169531
1283 0.9996038 -0.0177261 0.0003962 0.0177261 0.0003962 0.0177261 0.9996038 -0.0177261
1342 0.9995708 -0.0185343 0.0004292 0.0185343 0.0004292 0.0185343 0.9995708 -0.0185343
1404 0.9995349 -0.0193793 0.0004651 0.0193793 0.0004651 0.0193793 0.9995349 -0.0193793
1468 0.9994958 -0.0202628 0.0005042 0.0202628 0.0005042 0.0202628 0.9994958 -0.0202628
1535 0.9994534 -0.0211865 0.0005466 0.0211865 0.0005466 0.0211865 0.9994534 -0.0211865
1606 0.9994074 -0.0221523 0.0005926 0.0221523 0.0005926 0.0221523 0.9994074 -0.0221523
1679 0.9993572 -0.0231622 0.0006428 0.0231622 0.0006428 0.0231622 0.9993572 -0.0231622
1756 0.9993027 -0.0242179 0.0006973 0.0242179 0.0006973 0.0242179 0.9993027 -0.0242179
1836 0.9992434 -0.0253218 0.0007566 0.0253218 0.0007566 0.0253218 0.9992434 -0.0253218
1920 0.9991788 -0.0264759 0.0008212 0.0264759 0.0008212 0.0264759 0.9991788 -0.0264759
2008 0.9991084 -0.0276826 0.0008916 0.0276826 0.0008916 0.0276826 0.9991084 -0.0276826
2100 0.9990318 -0.0289441 0.0009682 0.0289441 0.0009682 0.0289441 0.9990318 -0.0289441
2196 0.9989482 -0.0302631 0.0010518 0.0302631 0.0010518 0.0302631 0.9989482 -0.0302631
2297 0.9988572 -0.0316419 0.0011428 0.0316419 0.0011428 0.0316419 0.9988572 -0.0316419
2402 0.9987579 -0.0330835 0.0012421 0.0330835 0.0012421 0.0330835 0.9987579 -0.0330835
2512 0.9986496 -0.0345905 0.0013504 0.0345905 0.0013504 0.0345905 0.9986496 -0.0345905
2627 0.9985315 -0.0361659 0.0014685 0.0361659 0.0014685 0.0361659 0.9985315 -0.0361659
2748 0.9984026 -0.0378127 0.0015974 0.0378127 0.0015974 0.0378127 0.9984026 -0.0378127
2873 0.9982619 -0.0395341 0.0017381 0.0395341 0.0017381 0.0395341 0.9982619 -0.0395341
3005 0.9981084 -0.0413334 0.0018916 0.0413334 0.0018916 0.0413334 0.9981084 -0.0413334
3143 0.9979409 -0.0432141 0.0020591 0.0432141 0.0020591 0.0432141 0.9979409 -0.0432141
3287 0.9977580 -0.0451797 0.0022420 0.0451797 0.0022420 0.0451797 0.9977580 -0.0451797
3437 0.9975584 -0.0472340 0.0024416 0.0472340 0.0024416 0.0472340 0.9975584 -0.0472340
3594 0.9973404 -0.0493807 0.0026596 0.0493807 0.0026596 0.0493807 0.9973404 -0.0493807
3759 0.9971024 -0.0516240 0.0028976 0.0516240 0.0028976 0.0516240 0.9971024 -0.0516240
3931 0.9968426 -0.0539679 0.0031574 0.0539679 0.0031574 0.0539679 0.9968426 -0.0539679
4111 0.9965590 -0.0564169 0.0034410 0.0564169 0.0034410 0.0564169 0.9965590 -0.0564169
4299 0.9962494 -0.0589753 0.0037506 0.0589753 0.0037506 0.0589753 0.9962494 -0.0589753
4496 0.9959114 -0.0616479 0.0040886 0.0616479 0.0040886 0.0616479 0.9959114 -0.0616479
4702 0.9955424 -0.0644394 0.0044576 0.0644394 0.0044576 0.0644394 0.9955424 -0.0644394
4918 0.9951397 -0.0673549 0.0048603 0.0673549 0.0048603 0.0673549 0.9951397 -0.0673549
5143 0.9947002 -0.0703994 0.0052998 0.0703994 0.0052998 0.0703994 0.9947002 -0.0703994
5378 0.9942205 -0.0735783 0.0057795 0.0735783 0.0057795 0.0735783 0.9942205 -0.0735783
5625 0.9936971 -0.0768971 0.0063029 0.0768971 0.0063029 0.0768971 0.9936971 -0.0768971
5882 0.9931260 -0.0803613 0.0068740 0.0803613 0.0068740 0.0803613 0.9931260 -0.0803613
6151 0.9925030 -0.0839767 0.0074970 0.0839767 0.0074970 0.0839767 0.9925030 -0.0839767
6433 0.9918235 -0.0877494 0.0081765 0.0877494 0.0081765 0.0877494 0.9918235 -0.0877494
6728 0.9910824 -0.0916854 0.0089176 0.0916854 0.0089176 0.0916854 0.9910824 -0.0916854
7036 0.9902742 -0.0957910 0.0097258 0.0957910 0.0097258 0.0957910 0.9902742 -0.0957910
7358 0.9893932 -0.1000724 0.0106068 0.1000724 0.0106068 0.1000724 0.9893932 -0.1000724
7695 0.9884327 -0.1045362 0.0115673 0.1045362 0.0115673 0.1045362 0.9884327 -0.1045362
8047 0.9873859 -0.1091889 0.0126141 0.1091889 0.0126141 0.1091889 0.9873859 -0.1091889
8416 0.9862453 -0.1140372 0.0137547 0.1140372 0.0137547 0.1140372 0.9862453 -0.1140372
8801 0.9850027 -0.1190877 0.0149973 0.1190877 0.0149973 0.1190877 0.9850027 -0.1190877
9204 0.9836492 -0.1243472 0.0163508 0.1243472 0.0163508 0.1243472 0.9836492 -0.1243472
9626 0.9821753 -0.1298222 0.0178247 0.1298222 0.0178247 0.1298222 0.9821753 -0.1298222
10066 0.9805706 -0.1355195 0.0194294 0.1355195 0.0194294 0.1355195 0.9805706 -0.1355195
10527 0.9788241 -0.1414454 0.0211759 0.1414454 0.0211759 0.1414454 0.9788241 -0.1414454
11009 0.9769237 -0.1476062 0.0230763 0.1476062 0.0230763 0.1476062 0.9769237 -0.1476062
11514 0.9748565 -0.1540081 0.0251435 0.1540081 0.0251435 0.1540081 0.9748565 -0.1540081
12041 0.9726086 -0.1606567 0.0273914 0.1606567 0.0273914 0.1606567 0.9726086 -0.1606567
12592 0.9701649 -0.1675574 0.0298351 0.1675574 0.0298351 0.1675574 0.9701649 -0.1675574
13169 0.9675096 -0.1747149 0.0324904 0.1747149 0.0324904 0.1747149 0.9675096 -0.1747149
13772 0.9646255 -0.1821335 0.0353745 0.1821335 0.0353745 0.1821335 0.9646255 -0.1821335
14402 0.9614942 -0.1898164 0.0385058 0.1898164 0.0385058 0.1898164 0.9614942 -0.1898164
15062 0.9580964 -0.1977662 0.0419036 0.1977662 0.0419036 0.1977662 0.9580964 -0.1977662
15752 0.9544113 -0.2059844 0.0455887 0.2059844 0.0455887 0.2059844 0.9544113 -0.2059844
16473 0.9504170 -0.2144711 0.0495830 0.2144711 0.0495830 0.2144711 0.9504170 -0.2144711
17227 0.9460905 -0.2232252 0.0539095 0.2232252 0.0539095 0.2232252 0.9460905 -0.2232252
18016 0.9414075 -0.2322438 0.0585925 0.2322438 0.0585925 0.2322438 0.9414075 -0.2322438
18841 0.9363427 -0.2415223 0.0636573 0.2415223 0.0636573 0.2415223 0.9363427 -0.2415223
19704 0.9308695 -0.2510539 0.0691305 0.2510539 0.0691305 0.2510539 0.9308695 -0.2510539
20606 0.9249606 -0.2608297 0.0750394 0.2608297 0.0750394 0.2608297 0.9249606 -0.2608297
21550 0.9185878 -0.2708381 0.0814122 0.2708381 0.0814122 0.2708381 0.9185878 -0.2708381
22537 0.9117224 -0.2810647 0.0882776 0.2810647 0.0882776 0.2810647 0.9117224 -0.2810647
23569 0.9043350 -0.2914921 0.0956650 0.2914921 0.0956650 0.2914921 0.9043350 -0.2914921
24648 0.8963963 -0.3020997 0.1036037 0.3020997 0.1036037 0.3020997 0.8963963 -0.3020997
25777 0.8878772 -0.3128632 0.1121228 0.3128632 0.1121228 0.3128632 0.8878772 -0.3128632
26957 0.8787489 -0.3237547 0.1212511 0.3237547 0.1212511 0.3237547 0.8787489 -0.3237547
28191 0.8689839 -0.3347422 0.1310161 0.3347422 0.1310161 0.3347422 0.8689839 -0.3347422
29482 0.8585559 -0.3457899 0.1414441 0.3457899 0.1414441 0.3457899 0.8585559 -0.3457899
30832 0.8474406 -0.3568578 0.1525594 0.3568578 0.1525594 0.3568578 0.8474406 -0.3568578
32244 0.8356162 -0.3679015 0.1643838 0.3679015 0.1643838 0.3679015 0.8356162 -0.3679015
33721 0.8230643 -0.3788729 0.1769357 0.3788729 0.1769357 0.3788729 0.8230643 -0.3788729
35265 0.8097699 -0.3897196 0.1902301 0.3897196 0.1902301 0.3897196 0.8097699 -0.3897196
36880 0.7957229 -0.4003857 0.2042771 0.4003857 0.2042771 0.4003857 0.7957229 -0.4003857
38569 0.7809179 -0.4108119 0.2190821 0.4108119 0.2190821 0.4108119 0.7809179 -0.4108119
40335 0.7653556 -0.4209361 0.2346444 0.4209361 0.2346444 0.4209361 0.7653556 -0.4209361
42182 0.7490429 -0.4306939 0.2509571 0.4306939 0.2509571 0.4306939 0.7490429 -0.4306939
44113 0.7319936 -0.4400195 0.2680064 0.4400195 0.2680064 0.4400195 0.7319936 -0.4400195
46134 0.7142289 -0.4488462 0.2857711 0.4488462 0.2857711 0.4488462 0.7142289 -0.4488462
48246 0.6957777 -0.4571079 0.3042223 0.4571079 0.3042223 0.4571079 0.6957777 -0.4571079
50455 0.6766766 -0.4647395 0.3233234 0.4647395 0.3233234 0.4647395 0.6766766 -0.4647395
52766 0.6569704 -0.4716786 0.3430296 0.4716786 0.3430296 0.4716786 0.6569704 -0.4716786
55182 0.6367113 -0.4778662 0.3632887 0.4778662 0.3632887 0.4778662 0.6367113 -0.4778662
57709 0.6159590 -0.4832481 0.3840410 0.4832481 0.3840410 0.4832481 0.6159590 -0.4832481
60352 0.5947802 -0.4877758 0.4052198 0.4877758 0.4052198 0.4877758 0.5947802 -0.4877758
63115 0.5732474 -0.4914077 0.4267526 0.4914077 0.4267526 0.4914077 0.5732474 -0.4914077
66005 0.5514384 -0.4941098 0.4485616 0.4941098 0.4485616 0.4941098 0.5514384 -0.4941098
69028 0.5294352 -0.4958567 0.4705648 0.4958567 0.4705648 0.4958567 0.5294352 -0.4958567
72189 0.5073225 -0.4966320 0.4926775 0.4966320 0.4926775 0.4966320 0.5073225 -0.4966320
75495 0.4851866 -0.4964288 0.5148134 0.4964288 0.5148134 0.4964288 0.4851866 -0.4964288
78952 0.4631142 -0.4952497 0.5368858 0.4952497 0.5368858 0.4952497 0.4631142 -0.4952497
82567 0.4411909 -0.4931066 0.5588091 0.4931066 0.5588091 0.4931066 0.4411909 -0.4931066
86348 0.4194997 -0.4900209 0.5805003 0.4900209 0.5805003 0.4900209 0.4194997 -0.4900209
90302 0.3981202 -0.4860225 0.6018798 0.4860225 0.6018798 0.4860225 0.3981202 -0.4860225
94437 0.3771271 -0.4811492 0.6228729 0.4811492 0.6228729 0.4811492 0.3771271 -0.4811492
98762 0.3565896 -0.4754460 0.6434104 0.4754460 0.6434104 0.4754460 0.3565896 -0.4754460
103284 0.3365703 -0.4689641 0.6634297 0.4689641 0.6634297 0.4689641 0.3365703 -0.4689641
108014 0.3171247 -0.4617596 0.6828753 0.4617596 0.6828753 0.4617596 0.3171247 -0.4617596
112960 0.2983011 -0.4538928 0.7016989 0.4538928 0.7016989 0.4538928 0.2983011 -0.4538928
118133 0.2801397 -0.4454267 0.7198603 0.4454267 0.7198603 0.4454267 0.2801397 -0.4454267
123542 0.2626733 -0.4364263 0.7373267 0.4364263 0.7373267 0.4364263 0.2626733 -0.4364263
129199 0.2459269 -0.4269571 0.7540731 0.4269571 0.7540731 0.4269571 0.2459269 -0.4269571
135116 0.2299183 -0.4170846 0.7700817 0.4170846 0.7700817 0.4170846 0.2299183 -0.4170846
141303 0.2146581 -0.4068732 0.7853419 0.4068732 0.7853419 0.4068732 0.2146581 -0.4068732
147774 0.2001505 -0.3963854 0.7998495 0.3963854 0.7998495 0.3963854 0.2001505 -0.3963854
154540 0.1863940 -0.3856814 0.8136060 0.3856814 0.8136060 0.3856814 0.1863940 -0.3856814
161617 0.1733814 -0.3748182 0.8266186 0.3748182 0.8266186 0.3748182 0.1733814 -0.3748182
169018 0.1611010 -0.3638495 0.8388990 0.3638495 0.8388990 0.3638495 0.1611010 -0.3638495
176758 0.1495368 -0.3528256 0.8504632 0.3528256 0.8504632 0.3528256 0.1495368 -0.3528256
184852 0.1386697 -0.3417924 0.8613303 0.3417924 0.8613303 0.3417924 0.1386697 -0.3417924
193316 0.1284774 -0.3307921 0.8715226 0.3307921 0.8715226 0.3307921 0.1284774 -0.3307921
202169 0.1189355 -0.3198630 0.8810645 0.3198630 0.8810645 0.3198630 0.1189355 -0.3198630
211427 0.1100178 -0.3090391 0.8899822 0.3090391 0.8899822 0.3090391 0.1100178 -0.3090391
221108 0.1016967 -0.2983507 0.8983033 0.2983507 0.8983033 0.2983507 0.1016967 -0.2983507
231233 0.0939441 -0.2878244 0.9060559 0.2878244 0.9060559 0.2878244 0.0939441 -0.2878244
241822 0.0867311 -0.2774831 0.9132689 0.2774831 0.9132689 0.2774831 0.0867311 -0.2774831
252896 0.0800290 -0.2673463 0.9199710 0.2673463 0.9199710 0.2673463 0.0800290 -0.2673463
264476 0.0738090 -0.2574306 0.9261910 0.2574306 0.9261910 0.2574306 0.0738090 -0.2574306
276587 0.0680429 -0.2477494 0.9319571 0.2477494 0.9319571 0.2477494 0.0680429 -0.2477494
289253 0.0627031 -0.2383137 0.9372969 0.2383137 0.9372969 0.2383137 0.0627031 -0.2383137
302498 0.0577629 -0.2291319 0.9422371 0.2291319 0.9422371 0.2291319 0.0577629 -0.2291319
316350 0.0531963 -0.2202101 0.9468037 0.2202101 0.9468037 0.2202101 0.0531963 -0.2202101
330837 0.0489785 -0.2115528 0.9510215 0.2115528 0.9510215 0.2115528 0.0489785 -0.2115528
345986 0.0450857 -0.2031623 0.9549143 0.2031623 0.9549143 0.2031623 0.0450857 -0.2031623
361830 0.0414952 -0.1950397 0.9585048 0.1950397 0.9585048 0.1950397 0.0414952 -0.1950397
378399 0.0381857 -0.1871845 0.9618143 0.1871845 0.9618143 0.1871845 0.0381857 -0.1871845
395726 0.0351368 -0.1795951 0.9648632 0.1795951 0.9648632 0.1795951 0.0351368 -0.1795951
413847 0.0323294 -0.1722689 0.9676706 0.1722689 0.9676706 0.1722689 0.0323294 -0.1722689
432798 0.0297455 -0.1652025 0.9702545 0.1652025 0.9702545 0.1652025 0.0297455 -0.1652025
452617 0.0273682 -0.1583914 0.9726318 0.1583914 0.9726318 0.1583914 0.0273682 -0.1583914
473344 0.0251819 -0.1518309 0.9748181 0.1518309 0.9748181 0.1518309 0.0251819 -0.1518309
495019 0.0231717 -0.1455157 0.9768283 0.1455157 0.9768283 0.1455157 0.0231717 -0.1455157
517687 0.0213240 -0.1394398 0.9786760 0.1394398 0.9786760 0.1394398 0.0213240 -0.1394398
541393 0.0196261 -0.1335971 0.9803739 0.1335971 0.9803739 0.1335971 0.0196261 -0.1335971
566185 0.0180660 -0.1279814 0.9819340 0.1279814 0.9819340 0.1279814 0.0180660 -0.1279814
592111 0.0166328 -0.1225860 0.9833672 0.1225860 0.9833672 0.1225860 0.0166328 -0.1225860
619225 0.0153164 -0.1174043 0.9846836 0.1174043 0.9846836 0.1174043 0.0153164 -0.1174043
647581 0.0141074 -0.1124296 0.9858926 0.1124296 0.9858926 0.1124296 0.0141074 -0.1124296
677235 0.0129971 -0.1076550 0.9870029 0.1076550 0.9870029 0.1076550 0.0129971 -0.1076550
708247 0.0119774 -0.1030739 0.9880226 0.1030739 0.9880226 0.1030739 0.0119774 -0.1030739
740679 0.0110411 -0.0986795 0.9889589 0.0986795 0.9889589 0.0986795 0.0110411 -0.0986795
774597 0.0101814 -0.0944653 0.9898186 0.0944653 0.9898186 0.0944653 0.0101814 -0.0944653
810067 0.0093919 -0.0904247 0.9906081 0.0904247 0.9906081 0.0904247 0.0093919 -0.0904247
847162 0.0086669 -0.0865513 0.9913331 0.0865513 0.9913331 0.0865513 0.0086669 -0.0865513
885955 0.0080012 -0.0828389 0.9919988 0.0828389 0.9919988 0.0828389 0.0080012 -0.0828389
926525 0.0073899 -0.0792813 0.9926101 0.0792813 0.9926101 0.0792813 0.0073899 -0.0792813
968953 0.0068286 -0.0758727 0.9931714 0.0758727 0.9931714 0.0758727 0.0068286 -0.0758727
1013323 0.0063131 -0.0726071 0.9936869 0.0726071 0.9936869 0.0726071 0.0063131 -0.0726071
1059725 0.0058396 -0.0694791 0.9941604 0.0694791 0.9941604 0.0694791 0.0058396 -0.0694791
1108252 0.0054048 -0.0664831 0.9945952 0.0664831 0.9945952 0.0664831 0.0054048 -0.0664831
1159002 0.0050054 -0.0636138 0.9949946 0.0636138 0.9949946 0.0636138 0.0050054 -0.0636138
1212075 0.0046386 -0.0608663 0.9953614 0.0608663 0.9953614 0.0608663 0.0046386 -0.0608663
1267578 0.0043016 -0.0582355 0.9956984 0.0582355 0.9956984 0.0582355 0.0043016 -0.0582355
1325623 0.0039919 -0.0557167 0.9960081 0.0557167 0.9960081 0.0557167 0.0039919 -0.0557167
1386327 0.0037075 -0.0533053 0.9962925 0.0533053 0.9962925 0.0533053 0.0037075 -0.0533053
1449809 0.0034460 -0.0509969 0.9965540 0.0509969 0.9965540 0.0509969 0.0034460 -0.0509969
1516199 0.0032057 -0.0487873 0.9967943 0.0487873 0.9967943 0.0487873 0.0032057 -0.0487873
1585629 0.0029848 -0.0466722 0.9970152 0.0466722 0.9970152 0.0466722 0.0029848 -0.0466722
1658239 0.0027817 -0.0446479 0.9972183 0.0446479 0.9972183 0.0446479 0.0027817 -0.0446479
1734173 0.0025949 -0.0427104 0.9974051 0.0427104 0.9974051 0.0427104 0.0025949 -0.0427104
1813585 0.0024230 -0.0408562 0.9975770 0.0408562 0.9975770 0.0408562 0.0024230 -0.0408562
1896632 0.0022648 -0.0390816 0.9977352 0.0390816 0.9977352 0.0390816 0.0022648 -0.0390816
1983483 0.0021191 -0.0373834 0.9978809 0.0373834 0.9978809 0.0373834 0.0021191 -0.0373834
2074311 0.0019849 -0.0357583 0.9980151 0.0357583 0.9980151 0.0357583 0.0019849 -0.0357583
