!Murata Part Number: GRM219R71E105KA88
!These Parameters are Measured in Series Mode Connection
!Data Generated on Mar 30, 2021
!       o--ll--o
!Port1            Port2
!       o------o
!Operation Temp=25[degC], DC Bias Voltage=0[V]
!Freq. Start=100[Hz] Stop=6[GHz] 401[Steps]
# Hz S RI R 50
!Freq.(Hz) S11(Real) S11(Imag) S21(Real) S21(Imag) S12(Real) S12(Imag) S22(Real) S22(Imag)
100 0.9957342 -0.0566268 0.0042658 0.0566268 0.0042658 0.0566268 0.9957342 -0.0566268
105 0.9954227 -0.0591814 0.0045773 0.0591814 0.0045773 0.0591814 0.9954227 -0.0591814
109 0.9950830 -0.0618506 0.0049170 0.0618506 0.0049170 0.0618506 0.9950830 -0.0618506
114 0.9947124 -0.0646395 0.0052876 0.0646395 0.0052876 0.0646395 0.9947124 -0.0646395
120 0.9943081 -0.0675529 0.0056919 0.0675529 0.0056919 0.0675529 0.9943081 -0.0675529
125 0.9938669 -0.0705961 0.0061331 0.0705961 0.0061331 0.0705961 0.9938669 -0.0705961
131 0.9933856 -0.0737744 0.0066144 0.0737744 0.0066144 0.0737744 0.9933856 -0.0737744
137 0.9928603 -0.0770932 0.0071397 0.0770932 0.0071397 0.0770932 0.9928603 -0.0770932
143 0.9922871 -0.0805582 0.0077129 0.0805582 0.0077129 0.0805582 0.9922871 -0.0805582
150 0.9916617 -0.0841752 0.0083383 0.0841752 0.0083383 0.0841752 0.9916617 -0.0841752
156 0.9909792 -0.0879502 0.0090208 0.0879502 0.0090208 0.0879502 0.9909792 -0.0879502
164 0.9902345 -0.0918891 0.0097655 0.0918891 0.0097655 0.0918891 0.9902345 -0.0918891
171 0.9894222 -0.0959983 0.0105778 0.0959983 0.0105778 0.0959983 0.9894222 -0.0959983
179 0.9885361 -0.1002839 0.0114639 0.1002839 0.0114639 0.1002839 0.9885361 -0.1002839
187 0.9875696 -0.1047525 0.0124304 0.1047525 0.0124304 0.1047525 0.9875696 -0.1047525
196 0.9865158 -0.1094105 0.0134842 0.1094105 0.0134842 0.1094105 0.9865158 -0.1094105
205 0.9853669 -0.1142644 0.0146331 0.1142644 0.0146331 0.1142644 0.9853669 -0.1142644
214 0.9841146 -0.1193208 0.0158854 0.1193208 0.0158854 0.1193208 0.9841146 -0.1193208
224 0.9827500 -0.1245862 0.0172500 0.1245862 0.0172500 0.1245862 0.9827500 -0.1245862
234 0.9812633 -0.1300670 0.0187367 0.1300670 0.0187367 0.1300670 0.9812633 -0.1300670
245 0.9796443 -0.1357697 0.0203557 0.1357697 0.0203557 0.1357697 0.9796443 -0.1357697
256 0.9778816 -0.1417004 0.0221184 0.1417004 0.0221184 0.1417004 0.9778816 -0.1417004
268 0.9759632 -0.1478653 0.0240368 0.1478653 0.0240368 0.1478653 0.9759632 -0.1478653
280 0.9738761 -0.1542700 0.0261239 0.1542700 0.0261239 0.1542700 0.9738761 -0.1542700
293 0.9716065 -0.1609200 0.0283935 0.1609200 0.0283935 0.1609200 0.9716065 -0.1609200
306 0.9691395 -0.1678201 0.0308605 0.1678201 0.0308605 0.1678201 0.9691395 -0.1678201
320 0.9664591 -0.1749750 0.0335409 0.1749750 0.0335409 0.1749750 0.9664591 -0.1749750
335 0.9635485 -0.1823883 0.0364515 0.1823883 0.0364515 0.1823883 0.9635485 -0.1823883
350 0.9603895 -0.1900632 0.0396105 0.1900632 0.0396105 0.1900632 0.9603895 -0.1900632
366 0.9569631 -0.1980017 0.0430369 0.1980017 0.0430369 0.1980017 0.9569631 -0.1980017
383 0.9532489 -0.2062050 0.0467511 0.2062050 0.0467511 0.2062050 0.9532489 -0.2062050
401 0.9492256 -0.2146731 0.0507744 0.2146731 0.0507744 0.2146731 0.9492256 -0.2146731
419 0.9448704 -0.2234045 0.0551296 0.2234045 0.0551296 0.2234045 0.9448704 -0.2234045
438 0.9401597 -0.2323963 0.0598403 0.2323963 0.0598403 0.2323963 0.9401597 -0.2323963
458 0.9350688 -0.2416437 0.0649312 0.2416437 0.0649312 0.2416437 0.9350688 -0.2416437
479 0.9295719 -0.2511401 0.0704281 0.2511401 0.0704281 0.2511401 0.9295719 -0.2511401
501 0.9236422 -0.2608766 0.0763578 0.2608766 0.0763578 0.2608766 0.9236422 -0.2608766
524 0.9172523 -0.2708419 0.0827477 0.2708419 0.0827477 0.2708419 0.9172523 -0.2708419
548 0.9103740 -0.2810220 0.0896260 0.2810220 0.0896260 0.2810220 0.9103740 -0.2810220
573 0.9029788 -0.2914000 0.0970212 0.2914000 0.0970212 0.2914000 0.9029788 -0.2914000
600 0.8950379 -0.3019558 0.1049621 0.3019558 0.1049621 0.3019558 0.8950379 -0.3019558
627 0.8865226 -0.3126659 0.1134774 0.3126659 0.1134774 0.3126659 0.8865226 -0.3126659
656 0.8774046 -0.3235032 0.1225954 0.3235032 0.1225954 0.3235032 0.8774046 -0.3235032
686 0.8676566 -0.3344369 0.1323434 0.3344369 0.1323434 0.3344369 0.8676566 -0.3344369
717 0.8572523 -0.3454319 0.1427477 0.3454319 0.1427477 0.3454319 0.8572523 -0.3454319
750 0.8461676 -0.3564493 0.1538324 0.3564493 0.1538324 0.3564493 0.8461676 -0.3564493
784 0.8343804 -0.3674460 0.1656196 0.3674460 0.1656196 0.3674460 0.8343804 -0.3674460
820 0.8218717 -0.3783746 0.1781283 0.3783746 0.1781283 0.3783746 0.8218717 -0.3783746
858 0.8086261 -0.3891841 0.1913739 0.3891841 0.1913739 0.3891841 0.8086261 -0.3891841
897 0.7946325 -0.3998193 0.2053675 0.3998193 0.2053675 0.3998193 0.7946325 -0.3998193
938 0.7798846 -0.4102218 0.2201154 0.4102218 0.2201154 0.4102218 0.7798846 -0.4102218
981 0.7643818 -0.4203300 0.2356182 0.4203300 0.2356182 0.4203300 0.7643818 -0.4203300
1026 0.7481297 -0.4300800 0.2518703 0.4300800 0.2518703 0.4300800 0.7481297 -0.4300800
1073 0.7311408 -0.4394060 0.2688592 0.4394060 0.2688592 0.4394060 0.7311408 -0.4394060
1122 0.7134349 -0.4482415 0.2865651 0.4482415 0.2865651 0.4482415 0.7134349 -0.4482415
1174 0.6950394 -0.4565198 0.3049606 0.4565198 0.3049606 0.4565198 0.6950394 -0.4565198
1227 0.6759896 -0.4641753 0.3240104 0.4641753 0.3240104 0.4641753 0.6759896 -0.4641753
1283 0.6563289 -0.4711446 0.3436711 0.4711446 0.3436711 0.4711446 0.6563289 -0.4711446
1342 0.6361085 -0.4773676 0.3638915 0.4773676 0.3638915 0.4773676 0.6361085 -0.4773676
1404 0.6153875 -0.4827886 0.3846125 0.4827886 0.3846125 0.4827886 0.6153875 -0.4827886
1468 0.5942317 -0.4873578 0.4057683 0.4873578 0.4057683 0.4873578 0.5942317 -0.4873578
1535 0.5727135 -0.4910318 0.4272865 0.4910318 0.4272865 0.4910318 0.5727135 -0.4910318
1606 0.5509109 -0.4937752 0.4490891 0.4937752 0.4490891 0.4937752 0.5509109 -0.4937752
1679 0.5289062 -0.4955608 0.4710938 0.4955608 0.4710938 0.4955608 0.5289062 -0.4955608
1756 0.5067848 -0.4963708 0.4932152 0.4963708 0.4932152 0.4963708 0.5067848 -0.4963708
1836 0.4846342 -0.4961969 0.5153658 0.4961969 0.5153658 0.4961969 0.4846342 -0.4961969
1920 0.4625423 -0.4950407 0.5374577 0.4950407 0.5374577 0.4950407 0.4625423 -0.4950407
2008 0.4405961 -0.4929134 0.5594039 0.4929134 0.5594039 0.4929134 0.4405961 -0.4929134
2100 0.4188802 -0.4898359 0.5811198 0.4898359 0.5811198 0.4898359 0.4188802 -0.4898359
2196 0.3974759 -0.4858381 0.6025241 0.4858381 0.6025241 0.4858381 0.3974759 -0.4858381
2297 0.3764595 -0.4809579 0.6235405 0.4809579 0.6235405 0.4809579 0.3764595 -0.4809579
2402 0.3559016 -0.4752411 0.6440984 0.4752411 0.6440984 0.4752411 0.3559016 -0.4752411
2512 0.3358660 -0.4687395 0.6641340 0.4687395 0.6641340 0.4687395 0.3358660 -0.4687395
2627 0.3164096 -0.4615105 0.6835904 0.4615105 0.6835904 0.4615105 0.3164096 -0.4615105
2748 0.2975811 -0.4536156 0.7024189 0.4536156 0.7024189 0.4536156 0.2975811 -0.4536156
2873 0.2794215 -0.4451192 0.7205785 0.4451192 0.7205785 0.4451192 0.2794215 -0.4451192
3005 0.2619637 -0.4360876 0.7380363 0.4360876 0.7380363 0.4360876 0.2619637 -0.4360876
3143 0.2452327 -0.4265878 0.7547673 0.4265878 0.7547673 0.4265878 0.2452327 -0.4265878
3287 0.2292457 -0.4166865 0.7707543 0.4166865 0.7707543 0.4166865 0.2292457 -0.4166865
3437 0.2140131 -0.4064494 0.7859869 0.4064494 0.7859869 0.4064494 0.2140131 -0.4064494
3594 0.1995381 -0.3959399 0.8004619 0.3959399 0.8004619 0.3959399 0.1995381 -0.3959399
3759 0.1858182 -0.3852190 0.8141818 0.3852190 0.8141818 0.3852190 0.1858182 -0.3852190
3931 0.1728453 -0.3743443 0.8271547 0.3743443 0.8271547 0.3743443 0.1728453 -0.3743443
4111 0.1606065 -0.3633700 0.8393935 0.3633700 0.8393935 0.3633700 0.1606065 -0.3633700
4299 0.1490849 -0.3523463 0.8509151 0.3523463 0.8509151 0.3523463 0.1490849 -0.3523463
4496 0.1382601 -0.3413193 0.8617399 0.3413193 0.8617399 0.3413193 0.1382601 -0.3413193
4702 0.1281089 -0.3303308 0.8718911 0.3303308 0.8718911 0.3303308 0.1281089 -0.3303308
4918 0.1186061 -0.3194186 0.8813939 0.3194186 0.8813939 0.3194186 0.1186061 -0.3194186
5143 0.1097246 -0.3086164 0.8902754 0.3086164 0.8902754 0.3086164 0.1097246 -0.3086164
5378 0.1014363 -0.2979537 0.8985637 0.2979537 0.8985637 0.2979537 0.1014363 -0.2979537
5625 0.0937125 -0.2874564 0.9062875 0.2874564 0.9062875 0.2874564 0.0937125 -0.2874564
5882 0.0865239 -0.2771467 0.9134761 0.2771467 0.9134761 0.2771467 0.0865239 -0.2771467
6151 0.0798417 -0.2670434 0.9201583 0.2670434 0.9201583 0.2670434 0.0798417 -0.2670434
6433 0.0736369 -0.2571622 0.9263631 0.2571622 0.9263631 0.2571622 0.0736369 -0.2571622
6728 0.0678815 -0.2475160 0.9321185 0.2475160 0.9321185 0.2475160 0.0678815 -0.2475160
7036 0.0625481 -0.2381148 0.9374519 0.2381148 0.9374519 0.2381148 0.0625481 -0.2381148
7358 0.0576099 -0.2289667 0.9423901 0.2289667 0.9423901 0.2289667 0.0576099 -0.2289667
7695 0.0530416 -0.2200772 0.9469584 0.2200772 0.9469584 0.2200772 0.0530416 -0.2200772
8047 0.0488186 -0.2114502 0.9511814 0.2114502 0.9511814 0.2114502 0.0488186 -0.2114502
8416 0.0449175 -0.2030878 0.9550825 0.2030878 0.9550825 0.2030878 0.0449175 -0.2030878
8801 0.0413163 -0.1949908 0.9586837 0.1949908 0.9586837 0.1949908 0.0413163 -0.1949908
9204 0.0379939 -0.1871584 0.9620061 0.1871584 0.9620061 0.1871584 0.0379939 -0.1871584
9626 0.0349304 -0.1795890 0.9650696 0.1795890 0.9650696 0.1795890 0.0349304 -0.1795890
10066 0.0321073 -0.1722799 0.9678927 0.1722799 0.9678927 0.1722799 0.0321073 -0.1722799
10527 0.0295069 -0.1652277 0.9704931 0.1652277 0.9704931 0.1652277 0.0295069 -0.1652277
11009 0.0271128 -0.1584280 0.9728872 0.1584280 0.9728872 0.1584280 0.0271128 -0.1584280
11514 0.0249096 -0.1518763 0.9750904 0.1518763 0.9750904 0.1518763 0.0249096 -0.1518763
12041 0.0228830 -0.1455672 0.9771170 0.1455672 0.9771170 0.1455672 0.0228830 -0.1455672
12592 0.0210194 -0.1394952 0.9789806 0.1394952 0.9789806 0.1394952 0.0210194 -0.1394952
13169 0.0193065 -0.1336544 0.9806935 0.1336544 0.9806935 0.1336544 0.0193065 -0.1336544
13772 0.0177324 -0.1280386 0.9822676 0.1280386 0.9822676 0.1280386 0.0177324 -0.1280386
14402 0.0162865 -0.1226416 0.9837135 0.1226416 0.9837135 0.1226416 0.0162865 -0.1226416
15062 0.0149587 -0.1174569 0.9850413 0.1174569 0.9850413 0.1174569 0.0149587 -0.1174569
15752 0.0137396 -0.1124781 0.9862604 0.1124781 0.9862604 0.1124781 0.0137396 -0.1124781
16473 0.0126207 -0.1076986 0.9873793 0.1076986 0.9873793 0.1076986 0.0126207 -0.1076986
17227 0.0115939 -0.1031118 0.9884061 0.1031118 0.9884061 0.1031118 0.0115939 -0.1031118
18016 0.0106518 -0.0987115 0.9893482 0.0987115 0.9893482 0.0987115 0.0106518 -0.0987115
18841 0.0097876 -0.0944910 0.9902124 0.0944910 0.9902124 0.0944910 0.0097876 -0.0944910
19704 0.0089950 -0.0904441 0.9910050 0.0904441 0.9910050 0.0904441 0.0089950 -0.0904441
20606 0.0082682 -0.0865646 0.9917318 0.0865646 0.9917318 0.0865646 0.0082682 -0.0865646
21550 0.0076017 -0.0828463 0.9923983 0.0828463 0.9923983 0.0828463 0.0076017 -0.0828463
22537 0.0069906 -0.0792831 0.9930094 0.0792831 0.9930094 0.0792831 0.0069906 -0.0792831
23569 0.0064303 -0.0758694 0.9935697 0.0758694 0.9935697 0.0758694 0.0064303 -0.0758694
24648 0.0059167 -0.0725993 0.9940833 0.0725993 0.9940833 0.0725993 0.0059167 -0.0725993
25777 0.0054458 -0.0694672 0.9945542 0.0694672 0.9945542 0.0694672 0.0054458 -0.0694672
26957 0.0050140 -0.0664679 0.9949860 0.0664679 0.9949860 0.0664679 0.0050140 -0.0664679
28191 0.0046182 -0.0635959 0.9953818 0.0635959 0.9953818 0.0635959 0.0046182 -0.0635959
29482 0.0042552 -0.0608462 0.9957448 0.0608462 0.9957448 0.0608462 0.0042552 -0.0608462
30832 0.0039223 -0.0582140 0.9960777 0.0582140 0.9960777 0.0582140 0.0039223 -0.0582140
32244 0.0036170 -0.0556944 0.9963830 0.0556944 0.9963830 0.0556944 0.0036170 -0.0556944
33721 0.0033369 -0.0532827 0.9966631 0.0532827 0.9966631 0.0532827 0.0033369 -0.0532827
35265 0.0030798 -0.0509747 0.9969202 0.0509747 0.9969202 0.0509747 0.0030798 -0.0509747
36880 0.0028439 -0.0487659 0.9971561 0.0487659 0.9971561 0.0487659 0.0028439 -0.0487659
38569 0.0026273 -0.0466522 0.9973727 0.0466522 0.9973727 0.0466522 0.0026273 -0.0466522
40335 0.0024284 -0.0446296 0.9975716 0.0446296 0.9975716 0.0446296 0.0024284 -0.0446296
42182 0.0022457 -0.0426944 0.9977543 0.0426944 0.9977543 0.0426944 0.0022457 -0.0426944
44113 0.0020777 -0.0408427 0.9979223 0.0408427 0.9979223 0.0408427 0.0020777 -0.0408427
46134 0.0019232 -0.0390711 0.9980768 0.0390711 0.9980768 0.0390711 0.0019232 -0.0390711
48246 0.0017811 -0.0373761 0.9982189 0.0373761 0.9982189 0.0373761 0.0017811 -0.0373761
50455 0.0016504 -0.0357544 0.9983496 0.0357544 0.9983496 0.0357544 0.0016504 -0.0357544
52766 0.0015299 -0.0342030 0.9984701 0.0342030 0.9984701 0.0342030 0.0015299 -0.0342030
55182 0.0014190 -0.0327187 0.9985810 0.0327187 0.9985810 0.0327187 0.0014190 -0.0327187
57709 0.0013168 -0.0312986 0.9986832 0.0312986 0.9986832 0.0312986 0.0013168 -0.0312986
60352 0.0012225 -0.0299401 0.9987775 0.0299401 0.9987775 0.0299401 0.0012225 -0.0299401
63115 0.0011355 -0.0286404 0.9988645 0.0286404 0.9988645 0.0286404 0.0011355 -0.0286404
66005 0.0010553 -0.0273970 0.9989447 0.0273970 0.9989447 0.0273970 0.0010553 -0.0273970
69028 0.0009812 -0.0262074 0.9990188 0.0262074 0.9990188 0.0262074 0.0009812 -0.0262074
72189 0.0009127 -0.0250693 0.9990873 0.0250693 0.9990873 0.0250693 0.0009127 -0.0250693
75495 0.0008495 -0.0239804 0.9991505 0.0239804 0.9991505 0.0239804 0.0008495 -0.0239804
78952 0.0007911 -0.0229387 0.9992089 0.0229387 0.9992089 0.0229387 0.0007911 -0.0229387
82567 0.0007371 -0.0219421 0.9992629 0.0219421 0.9992629 0.0219421 0.0007371 -0.0219421
86348 0.0006871 -0.0209886 0.9993129 0.0209886 0.9993129 0.0209886 0.0006871 -0.0209886
90302 0.0006410 -0.0200764 0.9993590 0.0200764 0.9993590 0.0200764 0.0006410 -0.0200764
94437 0.0005983 -0.0192037 0.9994017 0.0192037 0.9994017 0.0192037 0.0005983 -0.0192037
98762 0.0005588 -0.0183687 0.9994412 0.0183687 0.9994412 0.0183687 0.0005588 -0.0183687
103284 0.0005223 -0.0175698 0.9994777 0.0175698 0.9994777 0.0175698 0.0005223 -0.0175698
108014 0.0004886 -0.0168055 0.9995114 0.0168055 0.9995114 0.0168055 0.0004886 -0.0168055
112960 0.0004574 -0.0160744 0.9995426 0.0160744 0.9995426 0.0160744 0.0004574 -0.0160744
118133 0.0004286 -0.0153748 0.9995714 0.0153748 0.9995714 0.0153748 0.0004286 -0.0153748
123542 0.0004020 -0.0147056 0.9995980 0.0147056 0.9995980 0.0147056 0.0004020 -0.0147056
129199 0.0003774 -0.0140653 0.9996226 0.0140653 0.9996226 0.0140653 0.0003774 -0.0140653
135116 0.0003546 -0.0134528 0.9996454 0.0134528 0.9996454 0.0134528 0.0003546 -0.0134528
141303 0.0003336 -0.0128669 0.9996664 0.0128669 0.9996664 0.0128669 0.0003336 -0.0128669
147774 0.0003142 -0.0123064 0.9996858 0.0123064 0.9996858 0.0123064 0.0003142 -0.0123064
154540 0.0002963 -0.0117702 0.9997037 0.0117702 0.9997037 0.0117702 0.0002963 -0.0117702
161617 0.0002797 -0.0112572 0.9997203 0.0112572 0.9997203 0.0112572 0.0002797 -0.0112572
169018 0.0002644 -0.0107666 0.9997356 0.0107666 0.9997356 0.0107666 0.0002644 -0.0107666
176758 0.0002503 -0.0102972 0.9997497 0.0102972 0.9997497 0.0102972 0.0002503 -0.0102972
184852 0.0002372 -0.0098482 0.9997628 0.0098482 0.9997628 0.0098482 0.0002372 -0.0098482
193316 0.0002252 -0.0094188 0.9997748 0.0094188 0.9997748 0.0094188 0.0002252 -0.0094188
202169 0.0002140 -0.0090080 0.9997860 0.0090080 0.9997860 0.0090080 0.0002140 -0.0090080
211427 0.0002037 -0.0086151 0.9997963 0.0086151 0.9997963 0.0086151 0.0002037 -0.0086151
221108 0.0001941 -0.0082393 0.9998059 0.0082393 0.9998059 0.0082393 0.0001941 -0.0082393
231233 0.0001853 -0.0078798 0.9998147 0.0078798 0.9998147 0.0078798 0.0001853 -0.0078798
241822 0.0001771 -0.0075360 0.9998229 0.0075360 0.9998229 0.0075360 0.0001771 -0.0075360
252896 0.0001694 -0.0072071 0.9998306 0.0072071 0.9998306 0.0072071 0.0001694 -0.0072071
264476 0.0001624 -0.0068925 0.9998376 0.0068925 0.9998376 0.0068925 0.0001624 -0.0068925
276587 0.0001558 -0.0065917 0.9998442 0.0065917 0.9998442 0.0065917 0.0001558 -0.0065917
289253 0.0001497 -0.0063039 0.9998503 0.0063039 0.9998503 0.0063039 0.0001497 -0.0063039
302498 0.0001439 -0.0060286 0.9998561 0.0060286 0.9998561 0.0060286 0.0001439 -0.0060286
316350 0.0001386 -0.0057653 0.9998614 0.0057653 0.9998614 0.0057653 0.0001386 -0.0057653
330837 0.0001336 -0.0055135 0.9998664 0.0055135 0.9998664 0.0055135 0.0001336 -0.0055135
345986 0.0001289 -0.0052726 0.9998711 0.0052726 0.9998711 0.0052726 0.0001289 -0.0052726
361830 0.0001245 -0.0050421 0.9998755 0.0050421 0.9998755 0.0050421 0.0001245 -0.0050421
378399 0.0001204 -0.0048217 0.9998796 0.0048217 0.9998796 0.0048217 0.0001204 -0.0048217
395726 0.0001165 -0.0046108 0.9998835 0.0046108 0.9998835 0.0046108 0.0001165 -0.0046108
413847 0.0001128 -0.0044090 0.9998872 0.0044090 0.9998872 0.0044090 0.0001128 -0.0044090
432798 0.0001093 -0.0042160 0.9998907 0.0042160 0.9998907 0.0042160 0.0001093 -0.0042160
452617 0.0001060 -0.0040313 0.9998940 0.0040313 0.9998940 0.0040313 0.0001060 -0.0040313
473344 0.0001029 -0.0038546 0.9998971 0.0038546 0.9998971 0.0038546 0.0001029 -0.0038546
495019 0.0001000 -0.0036855 0.9999000 0.0036855 0.9999000 0.0036855 0.0001000 -0.0036855
517687 0.0000972 -0.0035236 0.9999028 0.0035236 0.9999028 0.0035236 0.0000972 -0.0035236
541393 0.0000945 -0.0033688 0.9999055 0.0033688 0.9999055 0.0033688 0.0000945 -0.0033688
566185 0.0000920 -0.0032206 0.9999080 0.0032206 0.9999080 0.0032206 0.0000920 -0.0032206
592111 0.0000896 -0.0030787 0.9999104 0.0030787 0.9999104 0.0030787 0.0000896 -0.0030787
619225 0.0000873 -0.0029429 0.9999127 0.0029429 0.9999127 0.0029429 0.0000873 -0.0029429
647581 0.0000852 -0.0028129 0.9999148 0.0028129 0.9999148 0.0028129 0.0000852 -0.0028129
677235 0.0000831 -0.0026884 0.9999169 0.0026884 0.9999169 0.0026884 0.0000831 -0.0026884
708247 0.0000812 -0.0025692 0.9999188 0.0025692 0.9999188 0.0025692 0.0000812 -0.0025692
740679 0.0000794 -0.0024551 0.9999206 0.0024551 0.9999206 0.0024551 0.0000794 -0.0024551
774597 0.0000777 -0.0023458 0.9999223 0.0023458 0.9999223 0.0023458 0.0000777 -0.0023458
810067 0.0000760 -0.0022412 0.9999240 0.0022412 0.9999240 0.0022412 0.0000760 -0.0022412
847162 0.0000745 -0.0021409 0.9999255 0.0021409 0.9999255 0.0021409 0.0000745 -0.0021409
885955 0.0000731 -0.0020449 0.9999269 0.0020449 0.9999269 0.0020449 0.0000731 -0.0020449
926525 0.0000717 -0.0019529 0.9999283 0.0019529 0.9999283 0.0019529 0.0000717 -0.0019529
968953 0.0000704 -0.0018647 0.9999296 0.0018647 0.9999296 0.0018647 0.0000704 -0.0018647
1013323 0.0000692 -0.0017803 0.9999308 0.0017803 0.9999308 0.0017803 0.0000692 -0.0017803
1059725 0.0000681 -0.0016993 0.9999319 0.0016993 0.9999319 0.0016993 0.0000681 -0.0016993
1108252 0.0000671 -0.0016217 0.9999329 0.0016217 0.9999329 0.0016217 0.0000671 -0.0016217
1159002 0.0000662 -0.0015473 0.9999338 0.0015473 0.9999338 0.0015473 0.0000662 -0.0015473
1212075 0.0000653 -0.0014759 0.9999347 0.0014759 0.9999347 0.0014759 0.0000653 -0.0014759
1267578 0.0000645 -0.0014075 0.9999355 0.0014075 0.9999355 0.0014075 0.0000645 -0.0014075
1325623 0.0000637 -0.0013418 0.9999363 0.0013418 0.9999363 0.0013418 0.0000637 -0.0013418
1386327 0.0000630 -0.0012788 0.9999370 0.0012788 0.9999370 0.0012788 0.0000630 -0.0012788
1449809 0.0000624 -0.0012184 0.9999376 0.0012184 0.9999376 0.0012184 0.0000624 -0.0012184
1516199 0.0000619 -0.0011603 0.9999381 0.0011603 0.9999381 0.0011603 0.0000619 -0.0011603
1585629 0.0000614 -0.0011046 0.9999386 0.0011046 0.9999386 0.0011046 0.0000614 -0.0011046
1658239 0.0000609 -0.0010510 0.9999391 0.0010510 0.9999391 0.0010510 0.0000609 -0.0010510
1734173 0.0000605 -0.0009995 0.9999395 0.0009995 0.9999395 0.0009995 0.0000605 -0.0009995
1813585 0.0000602 -0.0009500 0.9999398 0.0009500 0.9999398 0.0009500 0.0000602 -0.0009500
1896632 0.0000599 -0.0009024 0.9999401 0.0009024 0.9999401 0.0009024 0.0000599 -0.0009024
1983483 0.0000596 -0.0008566 0.9999404 0.0008566 0.9999404 0.0008566 0.0000596 -0.0008566
2074311 0.0000594 -0.0008125 0.9999406 0.0008125 0.9999406 0.0008125 0.0000594 -0.0008125
