!Murata Part Number: GRM21BD72A225KE01
!These Parameters are Measured in Series Mode Connection
!Data Generated on Mar 30, 2021
!       o--ll--o
!Port1            Port2
!       o------o
!Operation Temp=25[degC], DC Bias Voltage=0[V]
!Freq. Start=100[Hz] Stop=6[GHz] 401[Steps]
# Hz S RI R 50
!Freq.(Hz) S11(Real) S11(Imag) S21(Real) S21(Imag) S12(Real) S12(Imag) S22(Real) S22(Imag)
100 0.9812525 -0.1329390 0.0187475 0.1329390 0.0187475 0.1329390 0.9812525 -0.1329390
105 0.9795580 -0.1387532 0.0204420 0.1387532 0.0204420 0.1387532 0.9795580 -0.1387532
109 0.9777147 -0.1447979 0.0222853 0.1447979 0.0222853 0.1447979 0.9777147 -0.1447979
114 0.9757103 -0.1510791 0.0242897 0.1510791 0.0242897 0.1510791 0.9757103 -0.1510791
120 0.9735314 -0.1576027 0.0264686 0.1576027 0.0264686 0.1576027 0.9735314 -0.1576027
125 0.9711638 -0.1643739 0.0288362 0.1643739 0.0288362 0.1643739 0.9711638 -0.1643739
131 0.9685920 -0.1713977 0.0314080 0.1713977 0.0314080 0.1713977 0.9685920 -0.1713977
137 0.9657998 -0.1786784 0.0342002 0.1786784 0.0342002 0.1786784 0.9657998 -0.1786784
143 0.9627696 -0.1862198 0.0372304 0.1862198 0.0372304 0.1862198 0.9627696 -0.1862198
150 0.9594826 -0.1940247 0.0405174 0.1940247 0.0405174 0.1940247 0.9594826 -0.1940247
156 0.9559192 -0.2020950 0.0440808 0.2020950 0.0440808 0.2020950 0.9559192 -0.2020950
164 0.9520582 -0.2104316 0.0479418 0.2104316 0.0479418 0.2104316 0.9520582 -0.2104316
171 0.9478773 -0.2190340 0.0521227 0.2190340 0.0521227 0.2190340 0.9478773 -0.2190340
179 0.9433532 -0.2279001 0.0566468 0.2279001 0.0566468 0.2279001 0.9433532 -0.2279001
187 0.9384613 -0.2370263 0.0615387 0.2370263 0.0615387 0.2370263 0.9384613 -0.2370263
196 0.9331758 -0.2464070 0.0668242 0.2464070 0.0668242 0.2464070 0.9331758 -0.2464070
205 0.9274702 -0.2560344 0.0725298 0.2560344 0.0725298 0.2560344 0.9274702 -0.2560344
214 0.9213169 -0.2658986 0.0786831 0.2658986 0.0786831 0.2658986 0.9213169 -0.2658986
224 0.9146875 -0.2759865 0.0853125 0.2759865 0.0853125 0.2759865 0.9146875 -0.2759865
234 0.9075532 -0.2862827 0.0924468 0.2862827 0.0924468 0.2862827 0.9075532 -0.2862827
245 0.8998850 -0.2967682 0.1001150 0.2967682 0.1001150 0.2967682 0.8998850 -0.2967682
256 0.8916536 -0.3074209 0.1083464 0.3074209 0.1083464 0.3074209 0.8916536 -0.3074209
268 0.8828303 -0.3182149 0.1171697 0.3182149 0.1171697 0.3182149 0.8828303 -0.3182149
280 0.8733870 -0.3291205 0.1266130 0.3291205 0.1266130 0.3291205 0.8733870 -0.3291205
293 0.8632967 -0.3401043 0.1367033 0.3401043 0.1367033 0.3401043 0.8632967 -0.3401043
306 0.8525343 -0.3511284 0.1474657 0.3511284 0.1474657 0.3511284 0.8525343 -0.3511284
320 0.8410766 -0.3621510 0.1589234 0.3621510 0.1589234 0.3621510 0.8410766 -0.3621510
335 0.8289037 -0.3731261 0.1710963 0.3731261 0.1710963 0.3731261 0.8289037 -0.3731261
350 0.8159986 -0.3840037 0.1840014 0.3840037 0.1840014 0.3840037 0.8159986 -0.3840037
366 0.8023487 -0.3947301 0.1976513 0.3947301 0.1976513 0.3947301 0.8023487 -0.3947301
383 0.7879461 -0.4052478 0.2120539 0.4052478 0.2120539 0.4052478 0.7879461 -0.4052478
401 0.7727885 -0.4154963 0.2272115 0.4154963 0.2272115 0.4154963 0.7727885 -0.4154963
419 0.7568792 -0.4254126 0.2431208 0.4254126 0.2431208 0.4254126 0.7568792 -0.4254126
438 0.7402287 -0.4349319 0.2597713 0.4349319 0.2597713 0.4349319 0.7402287 -0.4349319
458 0.7228540 -0.4439880 0.2771460 0.4439880 0.2771460 0.4439880 0.7228540 -0.4439880
479 0.7047802 -0.4525148 0.2952198 0.4525148 0.2952198 0.4525148 0.7047802 -0.4525148
501 0.6860396 -0.4604466 0.3139604 0.4604466 0.3139604 0.4604466 0.6860396 -0.4604466
524 0.6666729 -0.4677201 0.3333271 0.4677201 0.3333271 0.4677201 0.6666729 -0.4677201
548 0.6467281 -0.4742744 0.3532719 0.4742744 0.3532719 0.4742744 0.6467281 -0.4742744
573 0.6262612 -0.4800531 0.3737388 0.4800531 0.3737388 0.4800531 0.6262612 -0.4800531
600 0.6053350 -0.4850050 0.3946650 0.4850050 0.3946650 0.4850050 0.6053350 -0.4850050
627 0.5840188 -0.4890849 0.4159812 0.4890849 0.4159812 0.4890849 0.5840188 -0.4890849
656 0.5623877 -0.4922552 0.4376123 0.4922552 0.4376123 0.4922552 0.5623877 -0.4922552
686 0.5405211 -0.4944862 0.4594789 0.4944862 0.4594789 0.4944862 0.5405211 -0.4944862
717 0.5185023 -0.4957571 0.4814977 0.4957571 0.4814977 0.4957571 0.5185023 -0.4957571
750 0.4964164 -0.4960561 0.5035836 0.4960561 0.5035836 0.4960561 0.4964164 -0.4960561
784 0.4743497 -0.4953811 0.5256503 0.4953811 0.5256503 0.4953811 0.4743497 -0.4953811
820 0.4523879 -0.4937392 0.5476121 0.4937392 0.5476121 0.4937392 0.4523879 -0.4937392
858 0.4306152 -0.4911471 0.5693848 0.4911471 0.5693848 0.4911471 0.4306152 -0.4911471
897 0.4091125 -0.4876303 0.5908875 0.4876303 0.5908875 0.4876303 0.4091125 -0.4876303
938 0.3879566 -0.4832225 0.6120434 0.4832225 0.6120434 0.4832225 0.3879566 -0.4832225
981 0.3672193 -0.4779648 0.6327807 0.4779648 0.6327807 0.4779648 0.3672193 -0.4779648
1026 0.3469660 -0.4719052 0.6530340 0.4719052 0.6530340 0.4719052 0.3469660 -0.4719052
1073 0.3272558 -0.4650971 0.6727442 0.4650971 0.6727442 0.4650971 0.3272558 -0.4650971
1122 0.3081401 -0.4575982 0.6918599 0.4575982 0.6918599 0.4575982 0.3081401 -0.4575982
1174 0.2896630 -0.4494700 0.7103370 0.4494700 0.7103370 0.4494700 0.2896630 -0.4494700
1227 0.2718610 -0.4407761 0.7281390 0.4407761 0.7281390 0.4407761 0.2718610 -0.4407761
1283 0.2547628 -0.4315812 0.7452372 0.4315812 0.7452372 0.4315812 0.2547628 -0.4315812
1342 0.2383897 -0.4219505 0.7616103 0.4219505 0.7616103 0.4219505 0.2383897 -0.4219505
1404 0.2227562 -0.4119485 0.7772438 0.4119485 0.7772438 0.4119485 0.2227562 -0.4119485
1468 0.2078696 -0.4016383 0.7921304 0.4016383 0.7921304 0.4016383 0.2078696 -0.4016383
1535 0.1937314 -0.3910809 0.8062686 0.3910809 0.8062686 0.3910809 0.1937314 -0.3910809
1606 0.1803374 -0.3803344 0.8196626 0.3803344 0.8196626 0.3803344 0.1803374 -0.3803344
1679 0.1676785 -0.3694540 0.8323215 0.3694540 0.8323215 0.3694540 0.1676785 -0.3694540
1756 0.1557411 -0.3584914 0.8442589 0.3584914 0.8442589 0.3584914 0.1557411 -0.3584914
1836 0.1445079 -0.3474944 0.8554921 0.3474944 0.8554921 0.3474944 0.1445079 -0.3474944
1920 0.1339585 -0.3365070 0.8660415 0.3365070 0.8660415 0.3365070 0.1339585 -0.3365070
2008 0.1240699 -0.3255693 0.8759301 0.3255693 0.8759301 0.3255693 0.1240699 -0.3255693
2100 0.1148171 -0.3147174 0.8851829 0.3147174 0.8851829 0.3147174 0.1148171 -0.3147174
2196 0.1061735 -0.3039833 0.8938265 0.3039833 0.8938265 0.3039833 0.1061735 -0.3039833
2297 0.0981116 -0.2933956 0.9018884 0.2933956 0.9018884 0.2933956 0.0981116 -0.2933956
2402 0.0906031 -0.2829789 0.9093969 0.2829789 0.9093969 0.2829789 0.0906031 -0.2829789
2512 0.0836194 -0.2727547 0.9163806 0.2727547 0.9163806 0.2727547 0.0836194 -0.2727547
2627 0.0771321 -0.2627411 0.9228679 0.2627411 0.9228679 0.2627411 0.0771321 -0.2627411
2748 0.0711129 -0.2529531 0.9288871 0.2529531 0.9288871 0.2529531 0.0711129 -0.2529531
2873 0.0655340 -0.2434031 0.9344660 0.2434031 0.9344660 0.2434031 0.0655340 -0.2434031
3005 0.0603685 -0.2341009 0.9396315 0.2341009 0.9396315 0.2341009 0.0603685 -0.2341009
3143 0.0555900 -0.2250540 0.9444100 0.2250540 0.9444100 0.2250540 0.0555900 -0.2250540
3287 0.0511734 -0.2162678 0.9488266 0.2162678 0.9488266 0.2162678 0.0511734 -0.2162678
3437 0.0470943 -0.2077458 0.9529057 0.2077458 0.9529057 0.2077458 0.0470943 -0.2077458
3594 0.0433297 -0.1994899 0.9566703 0.1994899 0.9566703 0.1994899 0.0433297 -0.1994899
3759 0.0398574 -0.1915005 0.9601426 0.1915005 0.9601426 0.1915005 0.0398574 -0.1915005
3931 0.0366568 -0.1837767 0.9633432 0.1837767 0.9633432 0.1837767 0.0366568 -0.1837767
4111 0.0337080 -0.1763165 0.9662920 0.1763165 0.9662920 0.1763165 0.0337080 -0.1763165
4299 0.0309926 -0.1691169 0.9690074 0.1691169 0.9690074 0.1691169 0.0309926 -0.1691169
4496 0.0284930 -0.1621742 0.9715070 0.1621742 0.9715070 0.1621742 0.0284930 -0.1621742
4702 0.0261930 -0.1554839 0.9738070 0.1554839 0.9738070 0.1554839 0.0261930 -0.1554839
4918 0.0240774 -0.1490410 0.9759226 0.1490410 0.9759226 0.1490410 0.0240774 -0.1490410
5143 0.0221318 -0.1428399 0.9778682 0.1428399 0.9778682 0.1428399 0.0221318 -0.1428399
5378 0.0203430 -0.1368747 0.9796570 0.1368747 0.9796570 0.1368747 0.0203430 -0.1368747
5625 0.0186988 -0.1311393 0.9813012 0.1311393 0.9813012 0.1311393 0.0186988 -0.1311393
5882 0.0171876 -0.1256271 0.9828124 0.1256271 0.9828124 0.1256271 0.0171876 -0.1256271
6151 0.0157989 -0.1203318 0.9842011 0.1203318 0.9842011 0.1203318 0.0157989 -0.1203318
6433 0.0145229 -0.1152465 0.9854771 0.1152465 0.9854771 0.1152465 0.0145229 -0.1152465
6728 0.0133506 -0.1103646 0.9866494 0.1103646 0.9866494 0.1103646 0.0133506 -0.1103646
7036 0.0122736 -0.1056794 0.9877264 0.1056794 0.9877264 0.1056794 0.0122736 -0.1056794
7358 0.0112841 -0.1011841 0.9887159 0.1011841 0.9887159 0.1011841 0.0112841 -0.1011841
7695 0.0103752 -0.0968722 0.9896248 0.0968722 0.9896248 0.0968722 0.0103752 -0.0968722
8047 0.0095402 -0.0927370 0.9904598 0.0927370 0.9904598 0.0927370 0.0095402 -0.0927370
8416 0.0087732 -0.0887721 0.9912268 0.0887721 0.9912268 0.0887721 0.0087732 -0.0887721
8801 0.0080686 -0.0849713 0.9919314 0.0849713 0.9919314 0.0849713 0.0080686 -0.0849713
9204 0.0074214 -0.0813284 0.9925786 0.0813284 0.9925786 0.0813284 0.0074214 -0.0813284
9626 0.0068269 -0.0778373 0.9931731 0.0778373 0.9931731 0.0778373 0.0068269 -0.0778373
10066 0.0062808 -0.0744922 0.9937192 0.0744922 0.9937192 0.0744922 0.0062808 -0.0744922
10527 0.0057792 -0.0712874 0.9942208 0.0712874 0.9942208 0.0712874 0.0057792 -0.0712874
11009 0.0053184 -0.0682175 0.9946816 0.0682175 0.9946816 0.0682175 0.0053184 -0.0682175
11514 0.0048952 -0.0652770 0.9951048 0.0652770 0.9951048 0.0652770 0.0048952 -0.0652770
12041 0.0045065 -0.0624608 0.9954935 0.0624608 0.9954935 0.0624608 0.0045065 -0.0624608
12592 0.0041496 -0.0597639 0.9958504 0.0597639 0.9958504 0.0597639 0.0041496 -0.0597639
13169 0.0038217 -0.0571815 0.9961783 0.0571815 0.9961783 0.0571815 0.0038217 -0.0571815
13772 0.0035206 -0.0547090 0.9964794 0.0547090 0.9964794 0.0547090 0.0035206 -0.0547090
14402 0.0032441 -0.0523418 0.9967559 0.0523418 0.9967559 0.0523418 0.0032441 -0.0523418
15062 0.0029903 -0.0500758 0.9970097 0.0500758 0.9970097 0.0500758 0.0029903 -0.0500758
15752 0.0027571 -0.0479066 0.9972429 0.0479066 0.9972429 0.0479066 0.0027571 -0.0479066
16473 0.0025431 -0.0458304 0.9974569 0.0458304 0.9974569 0.0458304 0.0025431 -0.0458304
17227 0.0023465 -0.0438432 0.9976535 0.0438432 0.9976535 0.0438432 0.0023465 -0.0438432
18016 0.0021660 -0.0419414 0.9978340 0.0419414 0.9978340 0.0419414 0.0021660 -0.0419414
18841 0.0020003 -0.0401214 0.9979997 0.0401214 0.9979997 0.0401214 0.0020003 -0.0401214
19704 0.0018481 -0.0383798 0.9981519 0.0383798 0.9981519 0.0383798 0.0018481 -0.0383798
20606 0.0017084 -0.0367133 0.9982916 0.0367133 0.9982916 0.0367133 0.0017084 -0.0367133
21550 0.0015800 -0.0351188 0.9984200 0.0351188 0.9984200 0.0351188 0.0015800 -0.0351188
22537 0.0014621 -0.0335931 0.9985379 0.0335931 0.9985379 0.0335931 0.0014621 -0.0335931
23569 0.0013538 -0.0321334 0.9986462 0.0321334 0.9986462 0.0321334 0.0013538 -0.0321334
24648 0.0012543 -0.0307370 0.9987457 0.0307370 0.9987457 0.0307370 0.0012543 -0.0307370
25777 0.0011628 -0.0294010 0.9988372 0.0294010 0.9988372 0.0294010 0.0011628 -0.0294010
26957 0.0010786 -0.0281229 0.9989214 0.0281229 0.9989214 0.0281229 0.0010786 -0.0281229
28191 0.0010013 -0.0269003 0.9989987 0.0269003 0.9989987 0.0269003 0.0010013 -0.0269003
29482 0.0009301 -0.0257308 0.9990699 0.0257308 0.9990699 0.0257308 0.0009301 -0.0257308
30832 0.0008645 -0.0246120 0.9991355 0.0246120 0.9991355 0.0246120 0.0008645 -0.0246120
32244 0.0008042 -0.0235419 0.9991958 0.0235419 0.9991958 0.0235419 0.0008042 -0.0235419
33721 0.0007486 -0.0225182 0.9992514 0.0225182 0.9992514 0.0225182 0.0007486 -0.0225182
35265 0.0006973 -0.0215390 0.9993027 0.0215390 0.9993027 0.0215390 0.0006973 -0.0215390
36880 0.0006500 -0.0206024 0.9993500 0.0206024 0.9993500 0.0206024 0.0006500 -0.0206024
38569 0.0006064 -0.0197066 0.9993936 0.0197066 0.9993936 0.0197066 0.0006064 -0.0197066
40335 0.0005661 -0.0188496 0.9994339 0.0188496 0.9994339 0.0188496 0.0005661 -0.0188496
42182 0.0005289 -0.0180300 0.9994711 0.0180300 0.9994711 0.0180300 0.0005289 -0.0180300
44113 0.0004945 -0.0172459 0.9995055 0.0172459 0.9995055 0.0172459 0.0004945 -0.0172459
46134 0.0004626 -0.0164960 0.9995374 0.0164960 0.9995374 0.0164960 0.0004626 -0.0164960
48246 0.0004332 -0.0157786 0.9995668 0.0157786 0.9995668 0.0157786 0.0004332 -0.0157786
50455 0.0004059 -0.0150924 0.9995941 0.0150924 0.9995941 0.0150924 0.0004059 -0.0150924
52766 0.0003806 -0.0144361 0.9996194 0.0144361 0.9996194 0.0144361 0.0003806 -0.0144361
55182 0.0003572 -0.0138082 0.9996428 0.0138082 0.9996428 0.0138082 0.0003572 -0.0138082
57709 0.0003354 -0.0132077 0.9996646 0.0132077 0.9996646 0.0132077 0.0003354 -0.0132077
60352 0.0003153 -0.0126332 0.9996847 0.0126332 0.9996847 0.0126332 0.0003153 -0.0126332
63115 0.0002966 -0.0120837 0.9997034 0.0120837 0.9997034 0.0120837 0.0002966 -0.0120837
66005 0.0002792 -0.0115580 0.9997208 0.0115580 0.9997208 0.0115580 0.0002792 -0.0115580
69028 0.0002631 -0.0110552 0.9997369 0.0110552 0.9997369 0.0110552 0.0002631 -0.0110552
72189 0.0002482 -0.0105742 0.9997518 0.0105742 0.9997518 0.0105742 0.0002482 -0.0105742
75495 0.0002342 -0.0101141 0.9997658 0.0101141 0.9997658 0.0101141 0.0002342 -0.0101141
78952 0.0002213 -0.0096740 0.9997787 0.0096740 0.9997787 0.0096740 0.0002213 -0.0096740
82567 0.0002093 -0.0092530 0.9997907 0.0092530 0.9997907 0.0092530 0.0002093 -0.0092530
86348 0.0001981 -0.0088503 0.9998019 0.0088503 0.9998019 0.0088503 0.0001981 -0.0088503
90302 0.0001877 -0.0084651 0.9998123 0.0084651 0.9998123 0.0084651 0.0001877 -0.0084651
94437 0.0001781 -0.0080966 0.9998219 0.0080966 0.9998219 0.0080966 0.0001781 -0.0080966
98762 0.0001691 -0.0077442 0.9998309 0.0077442 0.9998309 0.0077442 0.0001691 -0.0077442
103284 0.0001607 -0.0074070 0.9998393 0.0074070 0.9998393 0.0074070 0.0001607 -0.0074070
108014 0.0001529 -0.0070845 0.9998471 0.0070845 0.9998471 0.0070845 0.0001529 -0.0070845
112960 0.0001456 -0.0067760 0.9998544 0.0067760 0.9998544 0.0067760 0.0001456 -0.0067760
118133 0.0001388 -0.0064809 0.9998612 0.0064809 0.9998612 0.0064809 0.0001388 -0.0064809
123542 0.0001324 -0.0061987 0.9998676 0.0061987 0.9998676 0.0061987 0.0001324 -0.0061987
129199 0.0001265 -0.0059287 0.9998735 0.0059287 0.9998735 0.0059287 0.0001265 -0.0059287
135116 0.0001209 -0.0056704 0.9998791 0.0056704 0.9998791 0.0056704 0.0001209 -0.0056704
141303 0.0001157 -0.0054233 0.9998843 0.0054233 0.9998843 0.0054233 0.0001157 -0.0054233
147774 0.0001108 -0.0051870 0.9998892 0.0051870 0.9998892 0.0051870 0.0001108 -0.0051870
154540 0.0001062 -0.0049609 0.9998938 0.0049609 0.9998938 0.0049609 0.0001062 -0.0049609
161617 0.0001019 -0.0047446 0.9998981 0.0047446 0.9998981 0.0047446 0.0001019 -0.0047446
169018 0.0000979 -0.0045378 0.9999021 0.0045378 0.9999021 0.0045378 0.0000979 -0.0045378
176758 0.0000941 -0.0043398 0.9999059 0.0043398 0.9999059 0.0043398 0.0000941 -0.0043398
184852 0.0000905 -0.0041505 0.9999095 0.0041505 0.9999095 0.0041505 0.0000905 -0.0041505
193316 0.0000871 -0.0039693 0.9999129 0.0039693 0.9999129 0.0039693 0.0000871 -0.0039693
202169 0.0000839 -0.0037960 0.9999161 0.0037960 0.9999161 0.0037960 0.0000839 -0.0037960
211427 0.0000809 -0.0036302 0.9999191 0.0036302 0.9999191 0.0036302 0.0000809 -0.0036302
221108 0.0000781 -0.0034716 0.9999219 0.0034716 0.9999219 0.0034716 0.0000781 -0.0034716
231233 0.0000755 -0.0033198 0.9999245 0.0033198 0.9999245 0.0033198 0.0000755 -0.0033198
241822 0.0000730 -0.0031745 0.9999270 0.0031745 0.9999270 0.0031745 0.0000730 -0.0031745
252896 0.0000706 -0.0030355 0.9999294 0.0030355 0.9999294 0.0030355 0.0000706 -0.0030355
264476 0.0000684 -0.0029026 0.9999316 0.0029026 0.9999316 0.0029026 0.0000684 -0.0029026
276587 0.0000663 -0.0027753 0.9999337 0.0027753 0.9999337 0.0027753 0.0000663 -0.0027753
289253 0.0000643 -0.0026535 0.9999357 0.0026535 0.9999357 0.0026535 0.0000643 -0.0026535
302498 0.0000624 -0.0025370 0.9999376 0.0025370 0.9999376 0.0025370 0.0000624 -0.0025370
316350 0.0000607 -0.0024254 0.9999393 0.0024254 0.9999393 0.0024254 0.0000607 -0.0024254
330837 0.0000591 -0.0023187 0.9999409 0.0023187 0.9999409 0.0023187 0.0000591 -0.0023187
345986 0.0000575 -0.0022165 0.9999425 0.0022165 0.9999425 0.0022165 0.0000575 -0.0022165
361830 0.0000561 -0.0021187 0.9999439 0.0021187 0.9999439 0.0021187 0.0000561 -0.0021187
378399 0.0000548 -0.0020251 0.9999452 0.0020251 0.9999452 0.0020251 0.0000548 -0.0020251
395726 0.0000535 -0.0019355 0.9999465 0.0019355 0.9999465 0.0019355 0.0000535 -0.0019355
413847 0.0000524 -0.0018497 0.9999476 0.0018497 0.9999476 0.0018497 0.0000524 -0.0018497
432798 0.0000513 -0.0017676 0.9999487 0.0017676 0.9999487 0.0017676 0.0000513 -0.0017676
452617 0.0000503 -0.0016890 0.9999497 0.0016890 0.9999497 0.0016890 0.0000503 -0.0016890
473344 0.0000493 -0.0016137 0.9999507 0.0016137 0.9999507 0.0016137 0.0000493 -0.0016137
495019 0.0000485 -0.0015416 0.9999515 0.0015416 0.9999515 0.0015416 0.0000485 -0.0015416
517687 0.0000477 -0.0014726 0.9999523 0.0014726 0.9999523 0.0014726 0.0000477 -0.0014726
541393 0.0000469 -0.0014065 0.9999531 0.0014065 0.9999531 0.0014065 0.0000469 -0.0014065
566185 0.0000462 -0.0013432 0.9999538 0.0013432 0.9999538 0.0013432 0.0000462 -0.0013432
592111 0.0000456 -0.0012826 0.9999544 0.0012826 0.9999544 0.0012826 0.0000456 -0.0012826
619225 0.0000450 -0.0012245 0.9999550 0.0012245 0.9999550 0.0012245 0.0000450 -0.0012245
647581 0.0000445 -0.0011688 0.9999555 0.0011688 0.9999555 0.0011688 0.0000445 -0.0011688
677235 0.0000440 -0.0011155 0.9999560 0.0011155 0.9999560 0.0011155 0.0000440 -0.0011155
708247 0.0000436 -0.0010644 0.9999564 0.0010644 0.9999564 0.0010644 0.0000436 -0.0010644
740679 0.0000432 -0.0010154 0.9999568 0.0010154 0.9999568 0.0010154 0.0000432 -0.0010154
774597 0.0000428 -0.0009685 0.9999572 0.0009685 0.9999572 0.0009685 0.0000428 -0.0009685
810067 0.0000425 -0.0009235 0.9999575 0.0009235 0.9999575 0.0009235 0.0000425 -0.0009235
847162 0.0000422 -0.0008803 0.9999578 0.0008803 0.9999578 0.0008803 0.0000422 -0.0008803
885955 0.0000419 -0.0008388 0.9999581 0.0008388 0.9999581 0.0008388 0.0000419 -0.0008388
926525 0.0000417 -0.0007991 0.9999583 0.0007991 0.9999583 0.0007991 0.0000417 -0.0007991
968953 0.0000415 -0.0007609 0.9999585 0.0007609 0.9999585 0.0007609 0.0000415 -0.0007609
1013323 0.0000413 -0.0007243 0.9999587 0.0007243 0.9999587 0.0007243 0.0000413 -0.0007243
1059725 0.0000411 -0.0006891 0.9999589 0.0006891 0.9999589 0.0006891 0.0000411 -0.0006891
1108252 0.0000410 -0.0006552 0.9999590 0.0006552 0.9999590 0.0006552 0.0000410 -0.0006552
1159002 0.0000409 -0.0006227 0.9999591 0.0006227 0.9999591 0.0006227 0.0000409 -0.0006227
1212075 0.0000408 -0.0005915 0.9999592 0.0005915 0.9999592 0.0005915 0.0000408 -0.0005915
1267578 0.0000408 -0.0005614 0.9999592 0.0005614 0.9999592 0.0005614 0.0000408 -0.0005614
1325623 0.0000408 -0.0005324 0.9999592 0.0005324 0.9999592 0.0005324 0.0000408 -0.0005324
1386327 0.0000407 -0.0005045 0.9999593 0.0005045 0.9999593 0.0005045 0.0000407 -0.0005045
1449809 0.0000408 -0.0004776 0.9999592 0.0004776 0.9999592 0.0004776 0.0000408 -0.0004776
1516199 0.0000408 -0.0004516 0.9999592 0.0004516 0.9999592 0.0004516 0.0000408 -0.0004516
1585629 0.0000409 -0.0004265 0.9999591 0.0004265 0.9999591 0.0004265 0.0000409 -0.0004265
1658239 0.0000410 -0.0004023 0.9999590 0.0004023 0.9999590 0.0004023 0.0000410 -0.0004023
1734173 0.0000411 -0.0003789 0.9999589 0.0003789 0.9999589 0.0003789 0.0000411 -0.0003789
1813585 0.0000412 -0.0003563 0.9999588 0.0003563 0.9999588 0.0003563 0.0000412 -0.0003563
1896632 0.0000414 -0.0003343 0.9999586 0.0003343 0.9999586 0.0003343 0.0000414 -0.0003343
1983483 0.0000416 -0.0003130 0.9999584 0.0003130 0.9999584 0.0003130 0.0000416 -0.0003130
2074311 0.0000419 -0.0002923 0.9999581 0.0002923 0.9999581 0.0002923 0.0000419 -0.0002923
