!Murata Part Number: GRM21BB31H105KA12
!These Parameters are Measured in Series Mode Connection
!Data Generated on Mar 30, 2021
!       o--ll--o
!Port1            Port2
!       o------o
!Operation Temp=25[degC], DC Bias Voltage=0[V]
!Freq. Start=100[Hz] Stop=6[GHz] 401[Steps]
# Hz S RI R 50
!Freq.(Hz) S11(Real) S11(Imag) S21(Real) S21(Imag) S12(Real) S12(Imag) S22(Real) S22(Imag)
100 0.9956993 -0.0611552 0.0043007 0.0611552 0.0043007 0.0611552 0.9956993 -0.0611552
105 0.9953423 -0.0639219 0.0046577 0.0639219 0.0046577 0.0639219 0.9953423 -0.0639219
109 0.9949525 -0.0668122 0.0050475 0.0668122 0.0050475 0.0668122 0.9949525 -0.0668122
114 0.9945270 -0.0698313 0.0054730 0.0698313 0.0054730 0.0698313 0.9945270 -0.0698313
120 0.9940625 -0.0729845 0.0059375 0.0729845 0.0059375 0.0729845 0.9940625 -0.0729845
125 0.9935552 -0.0762774 0.0064448 0.0762774 0.0064448 0.0762774 0.9935552 -0.0762774
131 0.9930015 -0.0797156 0.0069985 0.0797156 0.0069985 0.0797156 0.9930015 -0.0797156
137 0.9923969 -0.0833049 0.0076031 0.0833049 0.0076031 0.0833049 0.9923969 -0.0833049
143 0.9917369 -0.0870513 0.0082631 0.0870513 0.0082631 0.0870513 0.9917369 -0.0870513
150 0.9910165 -0.0909609 0.0089835 0.0909609 0.0089835 0.0909609 0.9910165 -0.0909609
156 0.9902302 -0.0950400 0.0097698 0.0950400 0.0097698 0.0950400 0.9902302 -0.0950400
164 0.9893720 -0.0992951 0.0106280 0.0992951 0.0106280 0.0992951 0.9893720 -0.0992951
171 0.9884356 -0.1037325 0.0115644 0.1037325 0.0115644 0.1037325 0.9884356 -0.1037325
179 0.9874140 -0.1083588 0.0125860 0.1083588 0.0125860 0.1083588 0.9874140 -0.1083588
187 0.9862997 -0.1131808 0.0137003 0.1131808 0.0137003 0.1131808 0.9862997 -0.1131808
196 0.9850843 -0.1182050 0.0149157 0.1182050 0.0149157 0.1182050 0.9850843 -0.1182050
205 0.9837593 -0.1234382 0.0162407 0.1234382 0.0162407 0.1234382 0.9837593 -0.1234382
214 0.9823149 -0.1288870 0.0176851 0.1288870 0.0176851 0.1288870 0.9823149 -0.1288870
224 0.9807408 -0.1345579 0.0192592 0.1345579 0.0192592 0.1345579 0.9807408 -0.1345579
234 0.9790260 -0.1404574 0.0209740 0.1404574 0.0209740 0.1404574 0.9790260 -0.1404574
245 0.9771584 -0.1465918 0.0228416 0.1465918 0.0228416 0.1465918 0.9771584 -0.1465918
256 0.9751252 -0.1529669 0.0248748 0.1529669 0.0248748 0.1529669 0.9751252 -0.1529669
268 0.9729126 -0.1595885 0.0270874 0.1595885 0.0270874 0.1595885 0.9729126 -0.1595885
280 0.9705057 -0.1664619 0.0294943 0.1664619 0.0294943 0.1664619 0.9705057 -0.1664619
293 0.9678886 -0.1735916 0.0321114 0.1735916 0.0321114 0.1735916 0.9678886 -0.1735916
306 0.9650444 -0.1809819 0.0349556 0.1809819 0.0349556 0.1809819 0.9650444 -0.1809819
320 0.9619550 -0.1886360 0.0380450 0.1886360 0.0380450 0.1886360 0.9619550 -0.1886360
335 0.9586013 -0.1965565 0.0413987 0.1965565 0.0413987 0.1965565 0.9586013 -0.1965565
350 0.9549627 -0.2047448 0.0450373 0.2047448 0.0450373 0.2047448 0.9549627 -0.2047448
366 0.9510179 -0.2132012 0.0489821 0.2132012 0.0489821 0.2132012 0.9510179 -0.2132012
383 0.9467441 -0.2219246 0.0532559 0.2219246 0.0532559 0.2219246 0.9467441 -0.2219246
401 0.9421175 -0.2309124 0.0578825 0.2309124 0.0578825 0.2309124 0.9421175 -0.2309124
419 0.9371130 -0.2401601 0.0628870 0.2401601 0.0628870 0.2401601 0.9371130 -0.2401601
438 0.9317048 -0.2496614 0.0682952 0.2496614 0.0682952 0.2496614 0.9317048 -0.2496614
458 0.9258658 -0.2594077 0.0741342 0.2594077 0.0741342 0.2594077 0.9258658 -0.2594077
479 0.9195683 -0.2693881 0.0804317 0.2693881 0.0804317 0.2693881 0.9195683 -0.2693881
501 0.9127838 -0.2795889 0.0872162 0.2795889 0.0872162 0.2795889 0.9127838 -0.2795889
524 0.9054836 -0.2899934 0.0945164 0.2899934 0.0945164 0.2899934 0.9054836 -0.2899934
548 0.8976384 -0.3005819 0.1023616 0.3005819 0.1023616 0.3005819 0.8976384 -0.3005819
573 0.8892192 -0.3113312 0.1107808 0.3113312 0.1107808 0.3113312 0.8892192 -0.3113312
600 0.8801973 -0.3222144 0.1198027 0.3222144 0.1198027 0.3222144 0.8801973 -0.3222144
627 0.8705450 -0.3332008 0.1294550 0.3332008 0.1294550 0.3332008 0.8705450 -0.3332008
656 0.8602355 -0.3442559 0.1397645 0.3442559 0.1397645 0.3442559 0.8602355 -0.3442559
686 0.8492440 -0.3553409 0.1507560 0.3553409 0.1507560 0.3553409 0.8492440 -0.3553409
717 0.8375480 -0.3664128 0.1624520 0.3664128 0.1624520 0.3664128 0.8375480 -0.3664128
750 0.8251277 -0.3774246 0.1748723 0.3774246 0.1748723 0.3774246 0.8251277 -0.3774246
784 0.8119672 -0.3883252 0.1880328 0.3883252 0.1880328 0.3883252 0.8119672 -0.3883252
820 0.7980545 -0.3990596 0.2019455 0.3990596 0.2019455 0.3990596 0.7980545 -0.3990596
858 0.7833825 -0.4095694 0.2166175 0.4095694 0.2166175 0.4095694 0.7833825 -0.4095694
897 0.7679498 -0.4197930 0.2320502 0.4197930 0.2320502 0.4197930 0.7679498 -0.4197930
938 0.7517612 -0.4296663 0.2482388 0.4296663 0.2482388 0.4296663 0.7517612 -0.4296663
981 0.7348280 -0.4391233 0.2651720 0.4391233 0.2651720 0.4391233 0.7348280 -0.4391233
1026 0.7171691 -0.4480970 0.2828309 0.4480970 0.2828309 0.4480970 0.7171691 -0.4480970
1073 0.6988109 -0.4565202 0.3011891 0.4565202 0.3011891 0.4565202 0.6988109 -0.4565202
1122 0.6797878 -0.4643267 0.3202122 0.4643267 0.3202122 0.4643267 0.6797878 -0.4643267
1174 0.6601422 -0.4714522 0.3398578 0.4714522 0.3398578 0.4714522 0.6601422 -0.4714522
1227 0.6399246 -0.4778355 0.3600754 0.4778355 0.3600754 0.4778355 0.6399246 -0.4778355
1283 0.6191932 -0.4834200 0.3808068 0.4834200 0.3808068 0.4834200 0.6191932 -0.4834200
1342 0.5980133 -0.4881543 0.4019867 0.4881543 0.4019867 0.4881543 0.5980133 -0.4881543
1404 0.5764569 -0.4919938 0.4235431 0.4919938 0.4235431 0.4919938 0.5764569 -0.4919938
1468 0.5546015 -0.4949015 0.4453985 0.4949015 0.4453985 0.4949015 0.5546015 -0.4949015
1535 0.5325295 -0.4968487 0.4674705 0.4968487 0.4674705 0.4968487 0.5325295 -0.4968487
1606 0.5103265 -0.4978160 0.4896735 0.4978160 0.4896735 0.4978160 0.5103265 -0.4978160
1679 0.4880803 -0.4977935 0.5119197 0.4977935 0.5119197 0.4977935 0.4880803 -0.4977935
1756 0.4658795 -0.4967812 0.5341205 0.4967812 0.5341205 0.4967812 0.4658795 -0.4967812
1836 0.4438118 -0.4947890 0.5561882 0.4947890 0.5561882 0.4947890 0.4438118 -0.4947890
1920 0.4219630 -0.4918362 0.5780370 0.4918362 0.5780370 0.4918362 0.4219630 -0.4918362
2008 0.4004156 -0.4879516 0.5995844 0.4879516 0.5995844 0.4879516 0.4004156 -0.4879516
2100 0.3792472 -0.4831722 0.6207528 0.4831722 0.6207528 0.4831722 0.3792472 -0.4831722
2196 0.3585299 -0.4775428 0.6414701 0.4775428 0.6414701 0.4775428 0.3585299 -0.4775428
2297 0.3383292 -0.4711147 0.6616708 0.4711147 0.6616708 0.4711147 0.3383292 -0.4711147
2402 0.3187035 -0.4639450 0.6812965 0.4639450 0.6812965 0.4639450 0.3187035 -0.4639450
2512 0.2997032 -0.4560950 0.7002968 0.4560950 0.7002968 0.4560950 0.2997032 -0.4560950
2627 0.2813709 -0.4476292 0.7186291 0.4476292 0.7186291 0.4476292 0.2813709 -0.4476292
2748 0.2637411 -0.4386141 0.7362589 0.4386141 0.7362589 0.4386141 0.2637411 -0.4386141
2873 0.2468401 -0.4291172 0.7531599 0.4291172 0.7531599 0.4291172 0.2468401 -0.4291172
3005 0.2306868 -0.4192060 0.7693132 0.4192060 0.7693132 0.4192060 0.2306868 -0.4192060
3143 0.2152924 -0.4089468 0.7847076 0.4089468 0.7847076 0.4089468 0.2152924 -0.4089468
3287 0.2006616 -0.3984040 0.7993384 0.3984040 0.7993384 0.3984040 0.2006616 -0.3984040
3437 0.1867926 -0.3876395 0.8132074 0.3876395 0.8132074 0.3876395 0.1867926 -0.3876395
3594 0.1736781 -0.3767121 0.8263219 0.3767121 0.8263219 0.3767121 0.1736781 -0.3767121
3759 0.1613058 -0.3656770 0.8386942 0.3656770 0.8386942 0.3656770 0.1613058 -0.3656770
3931 0.1496593 -0.3545855 0.8503407 0.3545855 0.8503407 0.3545855 0.1496593 -0.3545855
4111 0.1387185 -0.3434848 0.8612815 0.3434848 0.8612815 0.3434848 0.1387185 -0.3434848
4299 0.1284605 -0.3324180 0.8715395 0.3324180 0.8715395 0.3324180 0.1284605 -0.3324180
4496 0.1188598 -0.3214238 0.8811402 0.3214238 0.8811402 0.3214238 0.1188598 -0.3214238
4702 0.1098895 -0.3105369 0.8901105 0.3105369 0.8901105 0.3105369 0.1098895 -0.3105369
4918 0.1015212 -0.2997879 0.8984788 0.2997879 0.8984788 0.2997879 0.1015212 -0.2997879
5143 0.0937260 -0.2892034 0.9062740 0.2892034 0.9062740 0.2892034 0.0937260 -0.2892034
5378 0.0864743 -0.2788064 0.9135257 0.2788064 0.9135257 0.2788064 0.0864743 -0.2788064
5625 0.0797366 -0.2686164 0.9202634 0.2686164 0.9202634 0.2686164 0.0797366 -0.2686164
5882 0.0734838 -0.2586499 0.9265162 0.2586499 0.9265162 0.2586499 0.0734838 -0.2586499
6151 0.0676872 -0.2489201 0.9323128 0.2489201 0.9323128 0.2489201 0.0676872 -0.2489201
6433 0.0623188 -0.2394377 0.9376812 0.2394377 0.9376812 0.2394377 0.0623188 -0.2394377
6728 0.0573515 -0.2302109 0.9426485 0.2302109 0.9426485 0.2302109 0.0573515 -0.2302109
7036 0.0527593 -0.2212456 0.9472407 0.2212456 0.9472407 0.2212456 0.0527593 -0.2212456
7358 0.0485171 -0.2125461 0.9514829 0.2125461 0.9514829 0.2125461 0.0485171 -0.2125461
7695 0.0446010 -0.2041144 0.9553990 0.2041144 0.9553990 0.2041144 0.0446010 -0.2041144
8047 0.0409885 -0.1959515 0.9590115 0.1959515 0.9590115 0.1959515 0.0409885 -0.1959515
8416 0.0376581 -0.1880567 0.9623419 0.1880567 0.9623419 0.1880567 0.0376581 -0.1880567
8801 0.0345894 -0.1804283 0.9654106 0.1804283 0.9654106 0.1804283 0.0345894 -0.1804283
9204 0.0317634 -0.1730636 0.9682366 0.1730636 0.9682366 0.1730636 0.0317634 -0.1730636
9626 0.0291623 -0.1659590 0.9708377 0.1659590 0.9708377 0.1659590 0.0291623 -0.1659590
10066 0.0267691 -0.1591102 0.9732309 0.1591102 0.9732309 0.1591102 0.0267691 -0.1591102
10527 0.0245682 -0.1525124 0.9754318 0.1525124 0.9754318 0.1525124 0.0245682 -0.1525124
11009 0.0225450 -0.1461602 0.9774550 0.1461602 0.9774550 0.1461602 0.0225450 -0.1461602
11514 0.0206858 -0.1400479 0.9793142 0.1400479 0.9793142 0.1400479 0.0206858 -0.1400479
12041 0.0189779 -0.1341693 0.9810221 0.1341693 0.9810221 0.1341693 0.0189779 -0.1341693
12592 0.0174095 -0.1285183 0.9825905 0.1285183 0.9825905 0.1285183 0.0174095 -0.1285183
13169 0.0159696 -0.1230883 0.9840304 0.1230883 0.9840304 0.1230883 0.0159696 -0.1230883
13772 0.0146481 -0.1178729 0.9853519 0.1178729 0.9853519 0.1178729 0.0146481 -0.1178729
14402 0.0134354 -0.1128652 0.9865646 0.1128652 0.9865646 0.1128652 0.0134354 -0.1128652
15062 0.0123230 -0.1080588 0.9876770 0.1080588 0.9876770 0.1080588 0.0123230 -0.1080588
15752 0.0113028 -0.1034468 0.9886972 0.1034468 0.9886972 0.1034468 0.0113028 -0.1034468
16473 0.0103672 -0.0990228 0.9896328 0.0990228 0.9896328 0.0990228 0.0103672 -0.0990228
17227 0.0095095 -0.0947802 0.9904905 0.0947802 0.9904905 0.0947802 0.0095095 -0.0947802
18016 0.0087233 -0.0907125 0.9912767 0.0907125 0.9912767 0.0907125 0.0087233 -0.0907125
18841 0.0080027 -0.0868134 0.9919973 0.0868134 0.9919973 0.0868134 0.0080027 -0.0868134
19704 0.0073423 -0.0830766 0.9926577 0.0830766 0.9926577 0.0830766 0.0073423 -0.0830766
20606 0.0067372 -0.0794961 0.9932628 0.0794961 0.9932628 0.0794961 0.0067372 -0.0794961
21550 0.0061828 -0.0760659 0.9938172 0.0760659 0.9938172 0.0760659 0.0061828 -0.0760659
22537 0.0056749 -0.0727803 0.9943251 0.0727803 0.9943251 0.0727803 0.0056749 -0.0727803
23569 0.0052097 -0.0696336 0.9947903 0.0696336 0.9947903 0.0696336 0.0052097 -0.0696336
24648 0.0047834 -0.0666204 0.9952166 0.0666204 0.9952166 0.0666204 0.0047834 -0.0666204
25777 0.0043930 -0.0637353 0.9956070 0.0637353 0.9956070 0.0637353 0.0043930 -0.0637353
26957 0.0040354 -0.0609732 0.9959646 0.0609732 0.9959646 0.0609732 0.0040354 -0.0609732
28191 0.0037078 -0.0583292 0.9962922 0.0583292 0.9962922 0.0583292 0.0037078 -0.0583292
29482 0.0034077 -0.0557983 0.9965923 0.0557983 0.9965923 0.0557983 0.0034077 -0.0557983
30832 0.0031327 -0.0533761 0.9968673 0.0533761 0.9968673 0.0533761 0.0031327 -0.0533761
32244 0.0028808 -0.0510580 0.9971192 0.0510580 0.9971192 0.0510580 0.0028808 -0.0510580
33721 0.0026500 -0.0488396 0.9973500 0.0488396 0.9973500 0.0488396 0.0026500 -0.0488396
35265 0.0024385 -0.0467169 0.9975615 0.0467169 0.9975615 0.0467169 0.0024385 -0.0467169
36880 0.0022446 -0.0446858 0.9977554 0.0446858 0.9977554 0.0446858 0.0022446 -0.0446858
38569 0.0020669 -0.0427425 0.9979331 0.0427425 0.9979331 0.0427425 0.0020669 -0.0427425
40335 0.0019039 -0.0408833 0.9980961 0.0408833 0.9980961 0.0408833 0.0019039 -0.0408833
42182 0.0017545 -0.0391045 0.9982455 0.0391045 0.9982455 0.0391045 0.0017545 -0.0391045
44113 0.0016174 -0.0374028 0.9983826 0.0374028 0.9983826 0.0374028 0.0016174 -0.0374028
46134 0.0014916 -0.0357749 0.9985084 0.0357749 0.9985084 0.0357749 0.0014916 -0.0357749
48246 0.0013761 -0.0342176 0.9986239 0.0342176 0.9986239 0.0342176 0.0013761 -0.0342176
50455 0.0012701 -0.0327279 0.9987299 0.0327279 0.9987299 0.0327279 0.0012701 -0.0327279
52766 0.0011727 -0.0313029 0.9988273 0.0313029 0.9988273 0.0313029 0.0011727 -0.0313029
55182 0.0010833 -0.0299397 0.9989167 0.0299397 0.9989167 0.0299397 0.0010833 -0.0299397
57709 0.0010011 -0.0286358 0.9989989 0.0286358 0.9989989 0.0286358 0.0010011 -0.0286358
60352 0.0009255 -0.0273885 0.9990745 0.0273885 0.9990745 0.0273885 0.0009255 -0.0273885
63115 0.0008560 -0.0261954 0.9991440 0.0261954 0.9991440 0.0261954 0.0008560 -0.0261954
66005 0.0007921 -0.0250542 0.9992079 0.0250542 0.9992079 0.0250542 0.0007921 -0.0250542
69028 0.0007333 -0.0239626 0.9992667 0.0239626 0.9992667 0.0239626 0.0007333 -0.0239626
72189 0.0006792 -0.0229184 0.9993208 0.0229184 0.9993208 0.0229184 0.0006792 -0.0229184
75495 0.0006293 -0.0219196 0.9993707 0.0219196 0.9993707 0.0219196 0.0006293 -0.0219196
78952 0.0005834 -0.0209642 0.9994166 0.0209642 0.9994166 0.0209642 0.0005834 -0.0209642
82567 0.0005412 -0.0200503 0.9994588 0.0200503 0.9994588 0.0200503 0.0005412 -0.0200503
86348 0.0005022 -0.0191761 0.9994978 0.0191761 0.9994978 0.0191761 0.0005022 -0.0191761
90302 0.0004664 -0.0183399 0.9995336 0.0183399 0.9995336 0.0183399 0.0004664 -0.0183399
94437 0.0004333 -0.0175401 0.9995667 0.0175401 0.9995667 0.0175401 0.0004333 -0.0175401
98762 0.0004029 -0.0167750 0.9995971 0.0167750 0.9995971 0.0167750 0.0004029 -0.0167750
103284 0.0003749 -0.0160432 0.9996251 0.0160432 0.9996251 0.0160432 0.0003749 -0.0160432
108014 0.0003491 -0.0153431 0.9996509 0.0153431 0.9996509 0.0153431 0.0003491 -0.0153431
112960 0.0003253 -0.0146735 0.9996747 0.0146735 0.9996747 0.0146735 0.0003253 -0.0146735
118133 0.0003033 -0.0140330 0.9996967 0.0140330 0.9996967 0.0140330 0.0003033 -0.0140330
123542 0.0002832 -0.0134204 0.9997168 0.0134204 0.9997168 0.0134204 0.0002832 -0.0134204
129199 0.0002646 -0.0128344 0.9997354 0.0128344 0.9997354 0.0128344 0.0002646 -0.0128344
135116 0.0002475 -0.0122739 0.9997525 0.0122739 0.9997525 0.0122739 0.0002475 -0.0122739
141303 0.0002317 -0.0117377 0.9997683 0.0117377 0.9997683 0.0117377 0.0002317 -0.0117377
147774 0.0002172 -0.0112249 0.9997828 0.0112249 0.9997828 0.0112249 0.0002172 -0.0112249
154540 0.0002039 -0.0107344 0.9997961 0.0107344 0.9997961 0.0107344 0.0002039 -0.0107344
161617 0.0001916 -0.0102652 0.9998084 0.0102652 0.9998084 0.0102652 0.0001916 -0.0102652
169018 0.0001803 -0.0098165 0.9998197 0.0098165 0.9998197 0.0098165 0.0001803 -0.0098165
176758 0.0001699 -0.0093873 0.9998301 0.0093873 0.9998301 0.0093873 0.0001699 -0.0093873
184852 0.0001603 -0.0089768 0.9998397 0.0089768 0.9998397 0.0089768 0.0001603 -0.0089768
193316 0.0001515 -0.0085841 0.9998485 0.0085841 0.9998485 0.0085841 0.0001515 -0.0085841
202169 0.0001434 -0.0082086 0.9998566 0.0082086 0.9998566 0.0082086 0.0001434 -0.0082086
211427 0.0001360 -0.0078494 0.9998640 0.0078494 0.9998640 0.0078494 0.0001360 -0.0078494
221108 0.0001291 -0.0075059 0.9998709 0.0075059 0.9998709 0.0075059 0.0001291 -0.0075059
231233 0.0001228 -0.0071773 0.9998772 0.0071773 0.9998772 0.0071773 0.0001228 -0.0071773
241822 0.0001170 -0.0068631 0.9998830 0.0068631 0.9998830 0.0068631 0.0001170 -0.0068631
252896 0.0001116 -0.0065625 0.9998884 0.0065625 0.9998884 0.0065625 0.0001116 -0.0065625
264476 0.0001067 -0.0062750 0.9998933 0.0062750 0.9998933 0.0062750 0.0001067 -0.0062750
276587 0.0001021 -0.0060001 0.9998979 0.0060001 0.9998979 0.0060001 0.0001021 -0.0060001
289253 0.0000979 -0.0057371 0.9999021 0.0057371 0.9999021 0.0057371 0.0000979 -0.0057371
302498 0.0000940 -0.0054856 0.9999060 0.0054856 0.9999060 0.0054856 0.0000940 -0.0054856
316350 0.0000905 -0.0052451 0.9999095 0.0052451 0.9999095 0.0052451 0.0000905 -0.0052451
330837 0.0000871 -0.0050150 0.9999129 0.0050150 0.9999129 0.0050150 0.0000871 -0.0050150
345986 0.0000841 -0.0047949 0.9999159 0.0047949 0.9999159 0.0047949 0.0000841 -0.0047949
361830 0.0000812 -0.0045844 0.9999188 0.0045844 0.9999188 0.0045844 0.0000812 -0.0045844
378399 0.0000786 -0.0043830 0.9999214 0.0043830 0.9999214 0.0043830 0.0000786 -0.0043830
395726 0.0000761 -0.0041904 0.9999239 0.0041904 0.9999239 0.0041904 0.0000761 -0.0041904
413847 0.0000738 -0.0040061 0.9999262 0.0040061 0.9999262 0.0040061 0.0000738 -0.0040061
432798 0.0000717 -0.0038299 0.9999283 0.0038299 0.9999283 0.0038299 0.0000717 -0.0038299
452617 0.0000697 -0.0036613 0.9999303 0.0036613 0.9999303 0.0036613 0.0000697 -0.0036613
473344 0.0000678 -0.0034999 0.9999322 0.0034999 0.9999322 0.0034999 0.0000678 -0.0034999
495019 0.0000661 -0.0033456 0.9999339 0.0033456 0.9999339 0.0033456 0.0000661 -0.0033456
517687 0.0000644 -0.0031979 0.9999356 0.0031979 0.9999356 0.0031979 0.0000644 -0.0031979
541393 0.0000629 -0.0030566 0.9999371 0.0030566 0.9999371 0.0030566 0.0000629 -0.0030566
566185 0.0000615 -0.0029214 0.9999385 0.0029214 0.9999385 0.0029214 0.0000615 -0.0029214
592111 0.0000601 -0.0027920 0.9999399 0.0027920 0.9999399 0.0027920 0.0000601 -0.0027920
619225 0.0000588 -0.0026682 0.9999412 0.0026682 0.9999412 0.0026682 0.0000588 -0.0026682
647581 0.0000576 -0.0025496 0.9999424 0.0025496 0.9999424 0.0025496 0.0000576 -0.0025496
677235 0.0000565 -0.0024362 0.9999435 0.0024362 0.9999435 0.0024362 0.0000565 -0.0024362
708247 0.0000554 -0.0023276 0.9999446 0.0023276 0.9999446 0.0023276 0.0000554 -0.0023276
740679 0.0000544 -0.0022236 0.9999456 0.0022236 0.9999456 0.0022236 0.0000544 -0.0022236
774597 0.0000535 -0.0021240 0.9999465 0.0021240 0.9999465 0.0021240 0.0000535 -0.0021240
810067 0.0000526 -0.0020287 0.9999474 0.0020287 0.9999474 0.0020287 0.0000526 -0.0020287
847162 0.0000518 -0.0019374 0.9999482 0.0019374 0.9999482 0.0019374 0.0000518 -0.0019374
885955 0.0000510 -0.0018499 0.9999490 0.0018499 0.9999490 0.0018499 0.0000510 -0.0018499
926525 0.0000502 -0.0017661 0.9999498 0.0017661 0.9999498 0.0017661 0.0000502 -0.0017661
968953 0.0000496 -0.0016858 0.9999504 0.0016858 0.9999504 0.0016858 0.0000496 -0.0016858
1013323 0.0000489 -0.0016089 0.9999511 0.0016089 0.9999511 0.0016089 0.0000489 -0.0016089
1059725 0.0000483 -0.0015352 0.9999517 0.0015352 0.9999517 0.0015352 0.0000483 -0.0015352
1108252 0.0000478 -0.0014645 0.9999522 0.0014645 0.9999522 0.0014645 0.0000478 -0.0014645
1159002 0.0000473 -0.0013967 0.9999527 0.0013967 0.9999527 0.0013967 0.0000473 -0.0013967
1212075 0.0000468 -0.0013317 0.9999532 0.0013317 0.9999532 0.0013317 0.0000468 -0.0013317
1267578 0.0000464 -0.0012694 0.9999536 0.0012694 0.9999536 0.0012694 0.0000464 -0.0012694
1325623 0.0000460 -0.0012096 0.9999540 0.0012096 0.9999540 0.0012096 0.0000460 -0.0012096
1386327 0.0000456 -0.0011521 0.9999544 0.0011521 0.9999544 0.0011521 0.0000456 -0.0011521
1449809 0.0000453 -0.0010970 0.9999547 0.0010970 0.9999547 0.0010970 0.0000453 -0.0010970
1516199 0.0000450 -0.0010441 0.9999550 0.0010441 0.9999550 0.0010441 0.0000450 -0.0010441
1585629 0.0000448 -0.0009932 0.9999552 0.0009932 0.9999552 0.0009932 0.0000448 -0.0009932
1658239 0.0000446 -0.0009443 0.9999554 0.0009443 0.9999554 0.0009443 0.0000446 -0.0009443
1734173 0.0000444 -0.0008973 0.9999556 0.0008973 0.9999556 0.0008973 0.0000444 -0.0008973
1813585 0.0000443 -0.0008521 0.9999557 0.0008521 0.9999557 0.0008521 0.0000443 -0.0008521
1896632 0.0000442 -0.0008086 0.9999558 0.0008086 0.9999558 0.0008086 0.0000442 -0.0008086
1983483 0.0000441 -0.0007667 0.9999559 0.0007667 0.9999559 0.0007667 0.0000441 -0.0007667
2074311 0.0000440 -0.0007263 0.9999560 0.0007263 0.9999560 0.0007263 0.0000440 -0.0007263
