!Murata Part Number: GRM219R61A106ME47
!These Parameters are Measured in Series Mode Connection
!Data Generated on Mar 30, 2021
!       o--ll--o
!Port1            Port2
!       o------o
!Operation Temp=25[degC], DC Bias Voltage=0[V]
!Freq. Start=100[Hz] Stop=6[GHz] 401[Steps]
# Hz S RI R 50
!Freq.(Hz) S11(Real) S11(Imag) S21(Real) S21(Imag) S12(Real) S12(Imag) S22(Real) S22(Imag)
100 0.6996866 -0.4539437 0.3003134 0.4539437 0.3003134 0.4539437 0.6996866 -0.4539437
105 0.6808630 -0.4616851 0.3191370 0.4616851 0.3191370 0.4616851 0.6808630 -0.4616851
109 0.6614289 -0.4687642 0.3385711 0.4687642 0.3385711 0.4687642 0.6614289 -0.4687642
114 0.6414325 -0.4751220 0.3585675 0.4751220 0.3585675 0.4751220 0.6414325 -0.4751220
120 0.6209291 -0.4807035 0.3790709 0.4807035 0.3790709 0.4807035 0.6209291 -0.4807035
125 0.5999810 -0.4854590 0.4000190 0.4854590 0.4000190 0.4854590 0.5999810 -0.4854590
131 0.5786570 -0.4893446 0.4213430 0.4893446 0.4213430 0.4893446 0.5786570 -0.4893446
137 0.5570310 -0.4923236 0.4429690 0.4923236 0.4429690 0.4923236 0.5570310 -0.4923236
143 0.5351818 -0.4943671 0.4648182 0.4943671 0.4648182 0.4943671 0.5351818 -0.4943671
150 0.5131916 -0.4954547 0.4868084 0.4954547 0.4868084 0.4954547 0.5131916 -0.4954547
156 0.4911448 -0.4955750 0.5088552 0.4955750 0.5088552 0.4955750 0.4911448 -0.4955750
164 0.4691269 -0.4947261 0.5308731 0.4947261 0.5308731 0.4947261 0.4691269 -0.4947261
171 0.4472231 -0.4929152 0.5527769 0.4929152 0.5527769 0.4929152 0.4472231 -0.4929152
179 0.4255171 -0.4901590 0.5744829 0.4901590 0.5744829 0.4901590 0.4255171 -0.4901590
187 0.4040896 -0.4864830 0.5959104 0.4864830 0.5959104 0.4864830 0.4040896 -0.4864830
196 0.3830172 -0.4819210 0.6169828 0.4819210 0.6169828 0.4819210 0.3830172 -0.4819210
205 0.3623715 -0.4765143 0.6376285 0.4765143 0.6376285 0.4765143 0.3623715 -0.4765143
214 0.3422181 -0.4703111 0.6577819 0.4703111 0.6577819 0.4703111 0.3422181 -0.4703111
224 0.3226158 -0.4633652 0.6773842 0.4633652 0.6773842 0.4633652 0.3226158 -0.4633652
234 0.3036162 -0.4557349 0.6963838 0.4557349 0.6963838 0.4557349 0.3036162 -0.4557349
245 0.2852633 -0.4474823 0.7147367 0.4474823 0.7147367 0.4474823 0.2852633 -0.4474823
256 0.2675931 -0.4386715 0.7324069 0.4386715 0.7324069 0.4386715 0.2675931 -0.4386715
268 0.2506342 -0.4293682 0.7493658 0.4293682 0.7493658 0.4293682 0.2506342 -0.4293682
280 0.2344072 -0.4196382 0.7655928 0.4196382 0.7655928 0.4196382 0.2344072 -0.4196382
293 0.2189259 -0.4095469 0.7810741 0.4095469 0.7810741 0.4095469 0.2189259 -0.4095469
306 0.2041969 -0.3991578 0.7958031 0.3991578 0.7958031 0.3991578 0.2041969 -0.3991578
320 0.1902206 -0.3885326 0.8097794 0.3885326 0.8097794 0.3885326 0.1902206 -0.3885326
335 0.1769919 -0.3777298 0.8230081 0.3777298 0.8230081 0.3777298 0.1769919 -0.3777298
350 0.1645004 -0.3668050 0.8354996 0.3668050 0.8354996 0.3668050 0.1645004 -0.3668050
366 0.1527314 -0.3558098 0.8472686 0.3558098 0.8472686 0.3558098 0.1527314 -0.3558098
383 0.1416664 -0.3447921 0.8583336 0.3447921 0.8583336 0.3447921 0.1416664 -0.3447921
401 0.1312838 -0.3337956 0.8687162 0.3337956 0.8687162 0.3337956 0.1312838 -0.3337956
419 0.1215594 -0.3228601 0.8784406 0.3228601 0.8784406 0.3228601 0.1215594 -0.3228601
438 0.1124672 -0.3120210 0.8875328 0.3120210 0.8875328 0.3120210 0.1124672 -0.3120210
458 0.1039797 -0.3013099 0.8960203 0.3013099 0.8960203 0.3013099 0.1039797 -0.3013099
479 0.0960684 -0.2907545 0.9039316 0.2907545 0.9039316 0.2907545 0.0960684 -0.2907545
501 0.0887043 -0.2803787 0.9112957 0.2803787 0.9112957 0.2803787 0.0887043 -0.2803787
524 0.0818584 -0.2702030 0.9181416 0.2702030 0.9181416 0.2702030 0.0818584 -0.2702030
548 0.0755015 -0.2602445 0.9244985 0.2602445 0.9244985 0.2602445 0.0755015 -0.2602445
573 0.0696050 -0.2505175 0.9303950 0.2505175 0.9303950 0.2505175 0.0696050 -0.2505175
600 0.0641410 -0.2410333 0.9358590 0.2410333 0.9358590 0.2410333 0.0641410 -0.2410333
627 0.0590823 -0.2318008 0.9409177 0.2318008 0.9409177 0.2318008 0.0590823 -0.2318008
656 0.0544027 -0.2228265 0.9455973 0.2228265 0.9455973 0.2228265 0.0544027 -0.2228265
686 0.0500769 -0.2141151 0.9499231 0.2141151 0.9499231 0.2141151 0.0500769 -0.2141151
717 0.0460810 -0.2056691 0.9539190 0.2056691 0.9539190 0.2056691 0.0460810 -0.2056691
750 0.0423921 -0.1974898 0.9576079 0.1974898 0.9576079 0.1974898 0.0423921 -0.1974898
784 0.0389884 -0.1895769 0.9610116 0.1895769 0.9610116 0.1895769 0.0389884 -0.1895769
820 0.0358495 -0.1819288 0.9641505 0.1819288 0.9641505 0.1819288 0.0358495 -0.1819288
858 0.0329561 -0.1745431 0.9670439 0.1745431 0.9670439 0.1745431 0.0329561 -0.1745431
897 0.0302902 -0.1674163 0.9697098 0.1674163 0.9697098 0.1674163 0.0302902 -0.1674163
938 0.0278347 -0.1605442 0.9721653 0.1605442 0.9721653 0.1605442 0.0278347 -0.1605442
981 0.0255739 -0.1539221 0.9744261 0.1539221 0.9744261 0.1539221 0.0255739 -0.1539221
1026 0.0234930 -0.1475447 0.9765070 0.1475447 0.9765070 0.1475447 0.0234930 -0.1475447
1073 0.0215782 -0.1414062 0.9784218 0.1414062 0.9784218 0.1414062 0.0215782 -0.1414062
1122 0.0198168 -0.1355008 0.9801832 0.1355008 0.9801832 0.1355008 0.0198168 -0.1355008
1174 0.0181970 -0.1298221 0.9818030 0.1298221 0.9818030 0.1298221 0.0181970 -0.1298221
1227 0.0167076 -0.1243637 0.9832924 0.1243637 0.9832924 0.1243637 0.0167076 -0.1243637
1283 0.0153386 -0.1191191 0.9846614 0.1191191 0.9846614 0.1191191 0.0153386 -0.1191191
1342 0.0140804 -0.1140818 0.9859196 0.1140818 0.9859196 0.1140818 0.0140804 -0.1140818
1404 0.0129244 -0.1092452 0.9870756 0.1092452 0.9870756 0.1092452 0.0129244 -0.1092452
1468 0.0118625 -0.1046026 0.9881375 0.1046026 0.9881375 0.1046026 0.0118625 -0.1046026
1535 0.0108872 -0.1001475 0.9891128 0.1001475 0.9891128 0.1001475 0.0108872 -0.1001475
1606 0.0099917 -0.0958735 0.9900083 0.0958735 0.9900083 0.0958735 0.0099917 -0.0958735
1679 0.0091696 -0.0917741 0.9908304 0.0917741 0.9908304 0.0917741 0.0091696 -0.0917741
1756 0.0084149 -0.0878432 0.9915851 0.0878432 0.9915851 0.0878432 0.0084149 -0.0878432
1836 0.0077224 -0.0840746 0.9922776 0.0840746 0.9922776 0.0840746 0.0077224 -0.0840746
1920 0.0070870 -0.0804624 0.9929130 0.0804624 0.9929130 0.0804624 0.0070870 -0.0804624
2008 0.0065040 -0.0770005 0.9934960 0.0770005 0.9934960 0.0770005 0.0065040 -0.0770005
2100 0.0059693 -0.0736834 0.9940307 0.0736834 0.9940307 0.0736834 0.0059693 -0.0736834
2196 0.0054789 -0.0705055 0.9945211 0.0705055 0.9945211 0.0705055 0.0054789 -0.0705055
2297 0.0050292 -0.0674614 0.9949708 0.0674614 0.9949708 0.0674614 0.0050292 -0.0674614
2402 0.0046170 -0.0645458 0.9953830 0.0645458 0.9953830 0.0645458 0.0046170 -0.0645458
2512 0.0042390 -0.0617537 0.9957610 0.0617537 0.9957610 0.0617537 0.0042390 -0.0617537
2627 0.0038925 -0.0590802 0.9961075 0.0590802 0.9961075 0.0590802 0.0038925 -0.0590802
2748 0.0035750 -0.0565204 0.9964250 0.0565204 0.9964250 0.0565204 0.0035750 -0.0565204
2873 0.0032839 -0.0540699 0.9967161 0.0540699 0.9967161 0.0540699 0.0032839 -0.0540699
3005 0.0030172 -0.0517242 0.9969828 0.0517242 0.9969828 0.0517242 0.0030172 -0.0517242
3143 0.0027728 -0.0494790 0.9972272 0.0494790 0.9972272 0.0494790 0.0027728 -0.0494790
3287 0.0025488 -0.0473301 0.9974512 0.0473301 0.9974512 0.0473301 0.0025488 -0.0473301
3437 0.0023435 -0.0452736 0.9976565 0.0452736 0.9976565 0.0452736 0.0023435 -0.0452736
3594 0.0021554 -0.0433057 0.9978446 0.0433057 0.9978446 0.0433057 0.0021554 -0.0433057
3759 0.0019831 -0.0414226 0.9980169 0.0414226 0.9980169 0.0414226 0.0019831 -0.0414226
3931 0.0018251 -0.0396208 0.9981749 0.0396208 0.9981749 0.0396208 0.0018251 -0.0396208
4111 0.0016803 -0.0378969 0.9983197 0.0378969 0.9983197 0.0378969 0.0016803 -0.0378969
4299 0.0015475 -0.0362476 0.9984525 0.0362476 0.9984525 0.0362476 0.0015475 -0.0362476
4496 0.0014258 -0.0346697 0.9985742 0.0346697 0.9985742 0.0346697 0.0014258 -0.0346697
4702 0.0013142 -0.0331602 0.9986858 0.0331602 0.9986858 0.0331602 0.0013142 -0.0331602
4918 0.0012118 -0.0317162 0.9987882 0.0317162 0.9987882 0.0317162 0.0012118 -0.0317162
5143 0.0011179 -0.0303349 0.9988821 0.0303349 0.9988821 0.0303349 0.0011179 -0.0303349
5378 0.0010318 -0.0290136 0.9989682 0.0290136 0.9989682 0.0290136 0.0010318 -0.0290136
5625 0.0009527 -0.0277497 0.9990473 0.0277497 0.9990473 0.0277497 0.0009527 -0.0277497
5882 0.0008801 -0.0265408 0.9991199 0.0265408 0.9991199 0.0265408 0.0008801 -0.0265408
6151 0.0008134 -0.0253844 0.9991866 0.0253844 0.9991866 0.0253844 0.0008134 -0.0253844
6433 0.0007521 -0.0242784 0.9992479 0.0242784 0.9992479 0.0242784 0.0007521 -0.0242784
6728 0.0006958 -0.0232205 0.9993042 0.0232205 0.9993042 0.0232205 0.0006958 -0.0232205
7036 0.0006440 -0.0222086 0.9993560 0.0222086 0.9993560 0.0222086 0.0006440 -0.0222086
7358 0.0005964 -0.0212408 0.9994036 0.0212408 0.9994036 0.0212408 0.0005964 -0.0212408
7695 0.0005526 -0.0203152 0.9994474 0.0203152 0.9994474 0.0203152 0.0005526 -0.0203152
8047 0.0005122 -0.0194298 0.9994878 0.0194298 0.9994878 0.0194298 0.0005122 -0.0194298
8416 0.0004751 -0.0185830 0.9995249 0.0185830 0.9995249 0.0185830 0.0004751 -0.0185830
8801 0.0004408 -0.0177730 0.9995592 0.0177730 0.9995592 0.0177730 0.0004408 -0.0177730
9204 0.0004093 -0.0169984 0.9995907 0.0169984 0.9995907 0.0169984 0.0004093 -0.0169984
9626 0.0003802 -0.0162574 0.9996198 0.0162574 0.9996198 0.0162574 0.0003802 -0.0162574
10066 0.0003535 -0.0155487 0.9996465 0.0155487 0.9996465 0.0155487 0.0003535 -0.0155487
10527 0.0003287 -0.0148709 0.9996713 0.0148709 0.9996713 0.0148709 0.0003287 -0.0148709
11009 0.0003059 -0.0142225 0.9996941 0.0142225 0.9996941 0.0142225 0.0003059 -0.0142225
11514 0.0002849 -0.0136024 0.9997151 0.0136024 0.9997151 0.0136024 0.0002849 -0.0136024
12041 0.0002655 -0.0130093 0.9997345 0.0130093 0.9997345 0.0130093 0.0002655 -0.0130093
12592 0.0002476 -0.0124420 0.9997524 0.0124420 0.9997524 0.0124420 0.0002476 -0.0124420
13169 0.0002311 -0.0118994 0.9997689 0.0118994 0.9997689 0.0118994 0.0002311 -0.0118994
13772 0.0002158 -0.0113805 0.9997842 0.0113805 0.9997842 0.0113805 0.0002158 -0.0113805
14402 0.0002017 -0.0108841 0.9997983 0.0108841 0.9997983 0.0108841 0.0002017 -0.0108841
15062 0.0001887 -0.0104094 0.9998113 0.0104094 0.9998113 0.0104094 0.0001887 -0.0104094
15752 0.0001767 -0.0099553 0.9998233 0.0099553 0.9998233 0.0099553 0.0001767 -0.0099553
16473 0.0001656 -0.0095210 0.9998344 0.0095210 0.9998344 0.0095210 0.0001656 -0.0095210
17227 0.0001553 -0.0091056 0.9998447 0.0091056 0.9998447 0.0091056 0.0001553 -0.0091056
18016 0.0001459 -0.0087084 0.9998541 0.0087084 0.9998541 0.0087084 0.0001459 -0.0087084
18841 0.0001371 -0.0083284 0.9998629 0.0083284 0.9998629 0.0083284 0.0001371 -0.0083284
19704 0.0001291 -0.0079650 0.9998709 0.0079650 0.9998709 0.0079650 0.0001291 -0.0079650
20606 0.0001216 -0.0076175 0.9998784 0.0076175 0.9998784 0.0076175 0.0001216 -0.0076175
21550 0.0001147 -0.0072851 0.9998853 0.0072851 0.9998853 0.0072851 0.0001147 -0.0072851
22537 0.0001083 -0.0069671 0.9998917 0.0069671 0.9998917 0.0069671 0.0001083 -0.0069671
23569 0.0001024 -0.0066631 0.9998976 0.0066631 0.9998976 0.0066631 0.0001024 -0.0066631
24648 0.0000969 -0.0063723 0.9999031 0.0063723 0.9999031 0.0063723 0.0000969 -0.0063723
25777 0.0000918 -0.0060942 0.9999082 0.0060942 0.9999082 0.0060942 0.0000918 -0.0060942
26957 0.0000871 -0.0058283 0.9999129 0.0058283 0.9999129 0.0058283 0.0000871 -0.0058283
28191 0.0000828 -0.0055739 0.9999172 0.0055739 0.9999172 0.0055739 0.0000828 -0.0055739
29482 0.0000787 -0.0053306 0.9999213 0.0053306 0.9999213 0.0053306 0.0000787 -0.0053306
30832 0.0000749 -0.0050980 0.9999251 0.0050980 0.9999251 0.0050980 0.0000749 -0.0050980
32244 0.0000714 -0.0048755 0.9999286 0.0048755 0.9999286 0.0048755 0.0000714 -0.0048755
33721 0.0000682 -0.0046627 0.9999318 0.0046627 0.9999318 0.0046627 0.0000682 -0.0046627
35265 0.0000651 -0.0044592 0.9999349 0.0044592 0.9999349 0.0044592 0.0000651 -0.0044592
36880 0.0000623 -0.0042645 0.9999377 0.0042645 0.9999377 0.0042645 0.0000623 -0.0042645
38569 0.0000596 -0.0040784 0.9999404 0.0040784 0.9999404 0.0040784 0.0000596 -0.0040784
40335 0.0000571 -0.0039003 0.9999429 0.0039003 0.9999429 0.0039003 0.0000571 -0.0039003
42182 0.0000548 -0.0037300 0.9999452 0.0037300 0.9999452 0.0037300 0.0000548 -0.0037300
44113 0.0000527 -0.0035671 0.9999473 0.0035671 0.9999473 0.0035671 0.0000527 -0.0035671
46134 0.0000506 -0.0034114 0.9999494 0.0034114 0.9999494 0.0034114 0.0000506 -0.0034114
48246 0.0000487 -0.0032624 0.9999513 0.0032624 0.9999513 0.0032624 0.0000487 -0.0032624
50455 0.0000469 -0.0031198 0.9999531 0.0031198 0.9999531 0.0031198 0.0000469 -0.0031198
52766 0.0000452 -0.0029835 0.9999548 0.0029835 0.9999548 0.0029835 0.0000452 -0.0029835
55182 0.0000437 -0.0028531 0.9999563 0.0028531 0.9999563 0.0028531 0.0000437 -0.0028531
57709 0.0000422 -0.0027284 0.9999578 0.0027284 0.9999578 0.0027284 0.0000422 -0.0027284
60352 0.0000408 -0.0026091 0.9999592 0.0026091 0.9999592 0.0026091 0.0000408 -0.0026091
63115 0.0000395 -0.0024950 0.9999605 0.0024950 0.9999605 0.0024950 0.0000395 -0.0024950
66005 0.0000383 -0.0023859 0.9999617 0.0023859 0.9999617 0.0023859 0.0000383 -0.0023859
69028 0.0000372 -0.0022815 0.9999628 0.0022815 0.9999628 0.0022815 0.0000372 -0.0022815
72189 0.0000361 -0.0021816 0.9999639 0.0021816 0.9999639 0.0021816 0.0000361 -0.0021816
75495 0.0000351 -0.0020860 0.9999649 0.0020860 0.9999649 0.0020860 0.0000351 -0.0020860
78952 0.0000342 -0.0019946 0.9999658 0.0019946 0.9999658 0.0019946 0.0000342 -0.0019946
82567 0.0000333 -0.0019072 0.9999667 0.0019072 0.9999667 0.0019072 0.0000333 -0.0019072
86348 0.0000325 -0.0018236 0.9999675 0.0018236 0.9999675 0.0018236 0.0000325 -0.0018236
90302 0.0000317 -0.0017435 0.9999683 0.0017435 0.9999683 0.0017435 0.0000317 -0.0017435
94437 0.0000310 -0.0016670 0.9999690 0.0016670 0.9999690 0.0016670 0.0000310 -0.0016670
98762 0.0000304 -0.0015938 0.9999696 0.0015938 0.9999696 0.0015938 0.0000304 -0.0015938
103284 0.0000298 -0.0015237 0.9999702 0.0015237 0.9999702 0.0015237 0.0000298 -0.0015237
108014 0.0000292 -0.0014567 0.9999708 0.0014567 0.9999708 0.0014567 0.0000292 -0.0014567
112960 0.0000287 -0.0013926 0.9999713 0.0013926 0.9999713 0.0013926 0.0000287 -0.0013926
118133 0.0000282 -0.0013312 0.9999718 0.0013312 0.9999718 0.0013312 0.0000282 -0.0013312
123542 0.0000278 -0.0012725 0.9999722 0.0012725 0.9999722 0.0012725 0.0000278 -0.0012725
129199 0.0000273 -0.0012164 0.9999727 0.0012164 0.9999727 0.0012164 0.0000273 -0.0012164
135116 0.0000270 -0.0011627 0.9999730 0.0011627 0.9999730 0.0011627 0.0000270 -0.0011627
141303 0.0000266 -0.0011113 0.9999734 0.0011113 0.9999734 0.0011113 0.0000266 -0.0011113
147774 0.0000263 -0.0010621 0.9999737 0.0010621 0.9999737 0.0010621 0.0000263 -0.0010621
154540 0.0000260 -0.0010150 0.9999740 0.0010150 0.9999740 0.0010150 0.0000260 -0.0010150
161617 0.0000257 -0.0009700 0.9999743 0.0009700 0.9999743 0.0009700 0.0000257 -0.0009700
169018 0.0000255 -0.0009268 0.9999745 0.0009268 0.9999745 0.0009268 0.0000255 -0.0009268
176758 0.0000252 -0.0008856 0.9999748 0.0008856 0.9999748 0.0008856 0.0000252 -0.0008856
184852 0.0000250 -0.0008461 0.9999750 0.0008461 0.9999750 0.0008461 0.0000250 -0.0008461
193316 0.0000248 -0.0008083 0.9999752 0.0008083 0.9999752 0.0008083 0.0000248 -0.0008083
202169 0.0000247 -0.0007721 0.9999753 0.0007721 0.9999753 0.0007721 0.0000247 -0.0007721
211427 0.0000245 -0.0007375 0.9999755 0.0007375 0.9999755 0.0007375 0.0000245 -0.0007375
221108 0.0000244 -0.0007044 0.9999756 0.0007044 0.9999756 0.0007044 0.0000244 -0.0007044
231233 0.0000242 -0.0006726 0.9999758 0.0006726 0.9999758 0.0006726 0.0000242 -0.0006726
241822 0.0000241 -0.0006422 0.9999759 0.0006422 0.9999759 0.0006422 0.0000241 -0.0006422
252896 0.0000240 -0.0006131 0.9999760 0.0006131 0.9999760 0.0006131 0.0000240 -0.0006131
264476 0.0000239 -0.0005852 0.9999761 0.0005852 0.9999761 0.0005852 0.0000239 -0.0005852
276587 0.0000239 -0.0005585 0.9999761 0.0005585 0.9999761 0.0005585 0.0000239 -0.0005585
289253 0.0000238 -0.0005329 0.9999762 0.0005329 0.9999762 0.0005329 0.0000238 -0.0005329
302498 0.0000237 -0.0005083 0.9999763 0.0005083 0.9999763 0.0005083 0.0000237 -0.0005083
316350 0.0000237 -0.0004848 0.9999763 0.0004848 0.9999763 0.0004848 0.0000237 -0.0004848
330837 0.0000237 -0.0004623 0.9999763 0.0004623 0.9999763 0.0004623 0.0000237 -0.0004623
345986 0.0000236 -0.0004407 0.9999764 0.0004407 0.9999764 0.0004407 0.0000236 -0.0004407
361830 0.0000236 -0.0004199 0.9999764 0.0004199 0.9999764 0.0004199 0.0000236 -0.0004199
378399 0.0000236 -0.0004000 0.9999764 0.0004000 0.9999764 0.0004000 0.0000236 -0.0004000
395726 0.0000236 -0.0003809 0.9999764 0.0003809 0.9999764 0.0003809 0.0000236 -0.0003809
413847 0.0000236 -0.0003626 0.9999764 0.0003626 0.9999764 0.0003626 0.0000236 -0.0003626
432798 0.0000236 -0.0003450 0.9999764 0.0003450 0.9999764 0.0003450 0.0000236 -0.0003450
452617 0.0000236 -0.0003281 0.9999764 0.0003281 0.9999764 0.0003281 0.0000236 -0.0003281
473344 0.0000237 -0.0003118 0.9999763 0.0003118 0.9999763 0.0003118 0.0000237 -0.0003118
495019 0.0000237 -0.0002962 0.9999763 0.0002962 0.9999763 0.0002962 0.0000237 -0.0002962
517687 0.0000238 -0.0002812 0.9999762 0.0002812 0.9999762 0.0002812 0.0000238 -0.0002812
541393 0.0000238 -0.0002667 0.9999762 0.0002667 0.9999762 0.0002667 0.0000238 -0.0002667
566185 0.0000239 -0.0002527 0.9999761 0.0002527 0.9999761 0.0002527 0.0000239 -0.0002527
592111 0.0000240 -0.0002393 0.9999760 0.0002393 0.9999760 0.0002393 0.0000240 -0.0002393
619225 0.0000241 -0.0002264 0.9999759 0.0002264 0.9999759 0.0002264 0.0000241 -0.0002264
647581 0.0000242 -0.0002139 0.9999758 0.0002139 0.9999758 0.0002139 0.0000242 -0.0002139
677235 0.0000243 -0.0002018 0.9999757 0.0002018 0.9999757 0.0002018 0.0000243 -0.0002018
708247 0.0000244 -0.0001901 0.9999756 0.0001901 0.9999756 0.0001901 0.0000244 -0.0001901
740679 0.0000246 -0.0001788 0.9999754 0.0001788 0.9999754 0.0001788 0.0000246 -0.0001788
774597 0.0000248 -0.0001679 0.9999752 0.0001679 0.9999752 0.0001679 0.0000248 -0.0001679
810067 0.0000250 -0.0001573 0.9999750 0.0001573 0.9999750 0.0001573 0.0000250 -0.0001573
847162 0.0000252 -0.0001470 0.9999748 0.0001470 0.9999748 0.0001470 0.0000252 -0.0001470
885955 0.0000254 -0.0001370 0.9999746 0.0001370 0.9999746 0.0001370 0.0000254 -0.0001370
926525 0.0000257 -0.0001273 0.9999743 0.0001273 0.9999743 0.0001273 0.0000257 -0.0001273
968953 0.0000259 -0.0001179 0.9999741 0.0001179 0.9999741 0.0001179 0.0000259 -0.0001179
1013323 0.0000263 -0.0001086 0.9999737 0.0001086 0.9999737 0.0001086 0.0000263 -0.0001086
1059725 0.0000266 -0.0000996 0.9999734 0.0000996 0.9999734 0.0000996 0.0000266 -0.0000996
1108252 0.0000270 -0.0000908 0.9999730 0.0000908 0.9999730 0.0000908 0.0000270 -0.0000908
1159002 0.0000274 -0.0000822 0.9999726 0.0000822 0.9999726 0.0000822 0.0000274 -0.0000822
1212075 0.0000279 -0.0000737 0.9999721 0.0000737 0.9999721 0.0000737 0.0000279 -0.0000737
1267578 0.0000284 -0.0000654 0.9999716 0.0000654 0.9999716 0.0000654 0.0000284 -0.0000654
1325623 0.0000290 -0.0000572 0.9999710 0.0000572 0.9999710 0.0000572 0.0000290 -0.0000572
1386327 0.0000296 -0.0000491 0.9999704 0.0000491 0.9999704 0.0000491 0.0000296 -0.0000491
1449809 0.0000303 -0.0000411 0.9999697 0.0000411 0.9999697 0.0000411 0.0000303 -0.0000411
1516199 0.0000311 -0.0000331 0.9999689 0.0000331 0.9999689 0.0000331 0.0000311 -0.0000331
1585629 0.0000319 -0.0000252 0.9999681 0.0000252 0.9999681 0.0000252 0.0000319 -0.0000252
1658239 0.0000329 -0.0000174 0.9999671 0.0000174 0.9999671 0.0000174 0.0000329 -0.0000174
1734173 0.0000340 -0.0000096 0.9999660 0.0000096 0.9999660 0.0000096 0.0000340 -0.0000096
1813585 0.0000352 -0.0000017 0.9999648 0.0000017 0.9999648 0.0000017 0.0000352 -0.0000017
1896632 0.0000366 0.0000061 0.9999634 -0.0000061 0.9999634 -0.0000061 0.0000366 0.0000061
1983483 0.0000382 0.0000140 0.9999618 -0.0000140 0.9999618 -0.0000140 0.0000382 0.0000140
2074311 0.0000399 0.0000220 0.9999601 -0.0000220 0.9999601 -0.0000220 0.0000399 0.0000220
