!Murata Part Number: GRM219C8YA225ME15
!These Parameters are Measured in Series Mode Connection
!Data Generated on Mar 30, 2021
!       o--ll--o
!Port1            Port2
!       o------o
!Operation Temp=25[degC], DC Bias Voltage=0[V]
!Freq. Start=100[Hz] Stop=6[GHz] 401[Steps]
# Hz S RI R 50
!Freq.(Hz) S11(Real) S11(Imag) S21(Real) S21(Imag) S12(Real) S12(Imag) S22(Real) S22(Imag)
100 0.9885370 -0.0990647 0.0114630 0.0990647 0.0114630 0.0990647 0.9885370 -0.0990647
105 0.9875592 -0.1034466 0.0124408 0.1034466 0.0124408 0.1034466 0.9875592 -0.1034466
109 0.9864957 -0.1080129 0.0135043 0.1080129 0.0135043 0.1080129 0.9864957 -0.1080129
114 0.9853389 -0.1127702 0.0146611 0.1127702 0.0146611 0.1127702 0.9853389 -0.1127702
120 0.9840808 -0.1177247 0.0159192 0.1177247 0.0159192 0.1177247 0.9840808 -0.1177247
125 0.9827126 -0.1228827 0.0172874 0.1228827 0.0172874 0.1228827 0.9827126 -0.1228827
131 0.9812250 -0.1282504 0.0187750 0.1282504 0.0187750 0.1282504 0.9812250 -0.1282504
137 0.9796079 -0.1338339 0.0203921 0.1338339 0.0203921 0.1338339 0.9796079 -0.1338339
143 0.9778503 -0.1396392 0.0221497 0.1396392 0.0221497 0.1396392 0.9778503 -0.1396392
150 0.9759407 -0.1456720 0.0240593 0.1456720 0.0240593 0.1456720 0.9759407 -0.1456720
156 0.9738666 -0.1519379 0.0261334 0.1519379 0.0261334 0.1519379 0.9738666 -0.1519379
164 0.9716147 -0.1584420 0.0283853 0.1584420 0.0283853 0.1584420 0.9716147 -0.1584420
171 0.9691706 -0.1651890 0.0308294 0.1651890 0.0308294 0.1651890 0.9691706 -0.1651890
179 0.9665191 -0.1721831 0.0334809 0.1721831 0.0334809 0.1721831 0.9665191 -0.1721831
187 0.9636441 -0.1794280 0.0363559 0.1794280 0.0363559 0.1794280 0.9636441 -0.1794280
196 0.9605283 -0.1869267 0.0394717 0.1869267 0.0394717 0.1869267 0.9605283 -0.1869267
205 0.9571535 -0.1946812 0.0428465 0.1946812 0.0428465 0.1946812 0.9571535 -0.1946812
214 0.9535004 -0.2026927 0.0464996 0.2026927 0.0464996 0.2026927 0.9535004 -0.2026927
224 0.9495484 -0.2109614 0.0504516 0.2109614 0.0504516 0.2109614 0.9495484 -0.2109614
234 0.9452763 -0.2194859 0.0547237 0.2194859 0.0547237 0.2194859 0.9452763 -0.2194859
245 0.9406614 -0.2282637 0.0593386 0.2282637 0.0593386 0.2282637 0.9406614 -0.2282637
256 0.9356801 -0.2372906 0.0643199 0.2372906 0.0643199 0.2372906 0.9356801 -0.2372906
268 0.9303080 -0.2465604 0.0696920 0.2465604 0.0696920 0.2465604 0.9303080 -0.2465604
280 0.9245196 -0.2560652 0.0754804 0.2560652 0.0754804 0.2560652 0.9245196 -0.2560652
293 0.9182886 -0.2657946 0.0817114 0.2657946 0.0817114 0.2657946 0.9182886 -0.2657946
306 0.9115882 -0.2757358 0.0884118 0.2757358 0.0884118 0.2757358 0.9115882 -0.2757358
320 0.9043909 -0.2858732 0.0956091 0.2858732 0.0956091 0.2858732 0.9043909 -0.2858732
335 0.8966692 -0.2961883 0.1033308 0.2961883 0.1033308 0.2961883 0.8966692 -0.2961883
350 0.8883953 -0.3066594 0.1116047 0.3066594 0.1116047 0.3066594 0.8883953 -0.3066594
366 0.8795419 -0.3172614 0.1204581 0.3172614 0.1204581 0.3172614 0.8795419 -0.3172614
383 0.8700825 -0.3279654 0.1299175 0.3279654 0.1299175 0.3279654 0.8700825 -0.3279654
401 0.8599913 -0.3387391 0.1400087 0.3387391 0.1400087 0.3387391 0.8599913 -0.3387391
419 0.8492444 -0.3495458 0.1507556 0.3495458 0.1507556 0.3495458 0.8492444 -0.3495458
438 0.8378200 -0.3603453 0.1621800 0.3603453 0.1621800 0.3603453 0.8378200 -0.3603453
458 0.8256987 -0.3710931 0.1743013 0.3710931 0.1743013 0.3710931 0.8256987 -0.3710931
479 0.8128647 -0.3817408 0.1871353 0.3817408 0.1871353 0.3817408 0.8128647 -0.3817408
501 0.7993059 -0.3922367 0.2006941 0.3922367 0.2006941 0.3922367 0.7993059 -0.3922367
524 0.7850148 -0.4025251 0.2149852 0.4025251 0.2149852 0.4025251 0.7850148 -0.4025251
548 0.7699893 -0.4125477 0.2300107 0.4125477 0.2300107 0.4125477 0.7699893 -0.4125477
573 0.7542327 -0.4222435 0.2457673 0.4222435 0.2457673 0.4222435 0.7542327 -0.4222435
600 0.7377551 -0.4315496 0.2622449 0.4315496 0.2622449 0.4315496 0.7377551 -0.4315496
627 0.7205733 -0.4404020 0.2794267 0.4404020 0.2794267 0.4404020 0.7205733 -0.4404020
656 0.7027115 -0.4487366 0.2972885 0.4487366 0.2972885 0.4487366 0.7027115 -0.4487366
686 0.6842011 -0.4564898 0.3157989 0.4564898 0.3157989 0.4564898 0.6842011 -0.4564898
717 0.6650816 -0.4635999 0.3349184 0.4635999 0.3349184 0.4635999 0.6650816 -0.4635999
750 0.6453997 -0.4700081 0.3546003 0.4700081 0.3546003 0.4700081 0.6453997 -0.4700081
784 0.6252098 -0.4756595 0.3747902 0.4756595 0.3747902 0.4756595 0.6252098 -0.4756595
820 0.6045730 -0.4805043 0.3954270 0.4805043 0.3954270 0.4805043 0.6045730 -0.4805043
858 0.5835567 -0.4844987 0.4164433 0.4844987 0.4164433 0.4844987 0.5835567 -0.4844987
897 0.5622338 -0.4876063 0.4377662 0.4876063 0.4377662 0.4876063 0.5622338 -0.4876063
938 0.5406817 -0.4897981 0.4593183 0.4897981 0.4593183 0.4897981 0.5406817 -0.4897981
981 0.5189812 -0.4910542 0.4810188 0.4910542 0.4810188 0.4910542 0.5189812 -0.4910542
1026 0.4972152 -0.4913631 0.5027848 0.4913631 0.5027848 0.4913631 0.4972152 -0.4913631
1073 0.4754675 -0.4907229 0.5245325 0.4907229 0.5245325 0.4907229 0.4754675 -0.4907229
1122 0.4538214 -0.4891408 0.5461786 0.4891408 0.5461786 0.4891408 0.4538214 -0.4891408
1174 0.4323585 -0.4866330 0.5676415 0.4866330 0.5676415 0.4866330 0.4323585 -0.4866330
1227 0.4111572 -0.4832245 0.5888428 0.4832245 0.5888428 0.4832245 0.4111572 -0.4832245
1283 0.3902921 -0.4789480 0.6097079 0.4789480 0.6097079 0.4789480 0.3902921 -0.4789480
1342 0.3698325 -0.4738436 0.6301675 0.4738436 0.6301675 0.4738436 0.3698325 -0.4738436
1404 0.3498418 -0.4679578 0.6501582 0.4679578 0.6501582 0.4679578 0.3498418 -0.4679578
1468 0.3303768 -0.4613422 0.6696232 0.4613422 0.6696232 0.4613422 0.3303768 -0.4613422
1535 0.3114874 -0.4540529 0.6885126 0.4540529 0.6885126 0.4540529 0.3114874 -0.4540529
1606 0.2932160 -0.4461490 0.7067840 0.4461490 0.7067840 0.4461490 0.2932160 -0.4461490
1679 0.2755979 -0.4376918 0.7244021 0.4376918 0.7244021 0.4376918 0.2755979 -0.4376918
1756 0.2586607 -0.4287437 0.7413393 0.4287437 0.7413393 0.4287437 0.2586607 -0.4287437
1836 0.2424251 -0.4193673 0.7575749 0.4193673 0.7575749 0.4193673 0.2424251 -0.4193673
1920 0.2269051 -0.4096246 0.7730949 0.4096246 0.7730949 0.4096246 0.2269051 -0.4096246
2008 0.2121082 -0.3995759 0.7878918 0.3995759 0.7878918 0.3995759 0.2121082 -0.3995759
2100 0.1980362 -0.3892799 0.8019638 0.3892799 0.8019638 0.3892799 0.1980362 -0.3892799
2196 0.1846856 -0.3787923 0.8153144 0.3787923 0.8153144 0.3787923 0.1846856 -0.3787923
2297 0.1720480 -0.3681659 0.8279520 0.3681659 0.8279520 0.3681659 0.1720480 -0.3681659
2402 0.1601111 -0.3574505 0.8398889 0.3574505 0.8398889 0.3574505 0.1601111 -0.3574505
2512 0.1488591 -0.3466920 0.8511409 0.3466920 0.8511409 0.3466920 0.1488591 -0.3466920
2627 0.1382730 -0.3359328 0.8617270 0.3359328 0.8617270 0.3359328 0.1382730 -0.3359328
2748 0.1283317 -0.3252117 0.8716683 0.3252117 0.8716683 0.3252117 0.1283317 -0.3252117
2873 0.1190118 -0.3145636 0.8809882 0.3145636 0.8809882 0.3145636 0.1190118 -0.3145636
3005 0.1102888 -0.3040200 0.8897112 0.3040200 0.8897112 0.3040200 0.1102888 -0.3040200
3143 0.1021369 -0.2936088 0.8978631 0.2936088 0.8978631 0.2936088 0.1021369 -0.2936088
3287 0.0945295 -0.2833545 0.9054705 0.2833545 0.9054705 0.2833545 0.0945295 -0.2833545
3437 0.0874400 -0.2732784 0.9125600 0.2732784 0.9125600 0.2732784 0.0874400 -0.2732784
3594 0.0808414 -0.2633988 0.9191586 0.2633988 0.9191586 0.2633988 0.0808414 -0.2633988
3759 0.0747071 -0.2537311 0.9252929 0.2537311 0.9252929 0.2537311 0.0747071 -0.2537311
3931 0.0690105 -0.2442881 0.9309895 0.2442881 0.9309895 0.2442881 0.0690105 -0.2442881
4111 0.0637260 -0.2350803 0.9362740 0.2350803 0.9362740 0.2350803 0.0637260 -0.2350803
4299 0.0588284 -0.2261158 0.9411716 0.2261158 0.9411716 0.2261158 0.0588284 -0.2261158
4496 0.0542934 -0.2174008 0.9457066 0.2174008 0.9457066 0.2174008 0.0542934 -0.2174008
4702 0.0500976 -0.2089396 0.9499024 0.2089396 0.9499024 0.2089396 0.0500976 -0.2089396
4918 0.0462185 -0.2007350 0.9537815 0.2007350 0.9537815 0.2007350 0.0462185 -0.2007350
5143 0.0426346 -0.1927882 0.9573654 0.1927882 0.9573654 0.1927882 0.0426346 -0.1927882
5378 0.0393254 -0.1850991 0.9606746 0.1850991 0.9606746 0.1850991 0.0393254 -0.1850991
5625 0.0362717 -0.1776665 0.9637283 0.1776665 0.9637283 0.1776665 0.0362717 -0.1776665
5882 0.0334549 -0.1704883 0.9665451 0.1704883 0.9665451 0.1704883 0.0334549 -0.1704883
6151 0.0308579 -0.1635614 0.9691421 0.1635614 0.9691421 0.1635614 0.0308579 -0.1635614
6433 0.0284644 -0.1568819 0.9715356 0.1568819 0.9715356 0.1568819 0.0284644 -0.1568819
6728 0.0262590 -0.1504455 0.9737410 0.1504455 0.9737410 0.1504455 0.0262590 -0.1504455
7036 0.0242275 -0.1442472 0.9757725 0.1442472 0.9757725 0.1442472 0.0242275 -0.1442472
7358 0.0223565 -0.1382816 0.9776435 0.1382816 0.9776435 0.1382816 0.0223565 -0.1382816
7695 0.0206335 -0.1325431 0.9793665 0.1325431 0.9793665 0.1325431 0.0206335 -0.1325431
8047 0.0190469 -0.1270255 0.9809531 0.1270255 0.9809531 0.1270255 0.0190469 -0.1270255
8416 0.0175861 -0.1217226 0.9824139 0.1217226 0.9824139 0.1217226 0.0175861 -0.1217226
8801 0.0162409 -0.1166282 0.9837591 0.1166282 0.9837591 0.1166282 0.0162409 -0.1166282
9204 0.0150021 -0.1117357 0.9849979 0.1117357 0.9849979 0.1117357 0.0150021 -0.1117357
9626 0.0138612 -0.1070385 0.9861388 0.1070385 0.9861388 0.1070385 0.0138612 -0.1070385
10066 0.0128102 -0.1025303 0.9871898 0.1025303 0.9871898 0.1025303 0.0128102 -0.1025303
10527 0.0118420 -0.0982044 0.9881580 0.0982044 0.9881580 0.0982044 0.0118420 -0.0982044
11009 0.0109498 -0.0940545 0.9890502 0.0940545 0.9890502 0.0940545 0.0109498 -0.0940545
11514 0.0101274 -0.0900741 0.9898726 0.0900741 0.9898726 0.0900741 0.0101274 -0.0900741
12041 0.0093692 -0.0862570 0.9906308 0.0862570 0.9906308 0.0862570 0.0093692 -0.0862570
12592 0.0086700 -0.0825970 0.9913300 0.0825970 0.9913300 0.0825970 0.0086700 -0.0825970
13169 0.0080251 -0.0790883 0.9919749 0.0790883 0.9919749 0.0790883 0.0080251 -0.0790883
13772 0.0074301 -0.0757249 0.9925699 0.0757249 0.9925699 0.0757249 0.0074301 -0.0757249
14402 0.0068810 -0.0725012 0.9931190 0.0725012 0.9931190 0.0725012 0.0068810 -0.0725012
15062 0.0063741 -0.0694116 0.9936259 0.0694116 0.9936259 0.0694116 0.0063741 -0.0694116
15752 0.0059062 -0.0664509 0.9940938 0.0664509 0.9940938 0.0664509 0.0059062 -0.0664509
16473 0.0054742 -0.0636139 0.9945258 0.0636139 0.9945258 0.0636139 0.0054742 -0.0636139
17227 0.0050753 -0.0608956 0.9949247 0.0608956 0.9949247 0.0608956 0.0050753 -0.0608956
18016 0.0047069 -0.0582913 0.9952931 0.0582913 0.9952931 0.0582913 0.0047069 -0.0582913
18841 0.0043666 -0.0557963 0.9956334 0.0557963 0.9956334 0.0557963 0.0043666 -0.0557963
19704 0.0040524 -0.0534062 0.9959476 0.0534062 0.9959476 0.0534062 0.0040524 -0.0534062
20606 0.0037621 -0.0511167 0.9962379 0.0511167 0.9962379 0.0511167 0.0037621 -0.0511167
21550 0.0034941 -0.0489238 0.9965059 0.0489238 0.9965059 0.0489238 0.0034941 -0.0489238
22537 0.0032466 -0.0468235 0.9967534 0.0468235 0.9967534 0.0468235 0.0032466 -0.0468235
23569 0.0030180 -0.0448120 0.9969820 0.0448120 0.9969820 0.0448120 0.0030180 -0.0448120
24648 0.0028069 -0.0428858 0.9971931 0.0428858 0.9971931 0.0428858 0.0028069 -0.0428858
25777 0.0026120 -0.0410412 0.9973880 0.0410412 0.9973880 0.0410412 0.0026120 -0.0410412
26957 0.0024321 -0.0392751 0.9975679 0.0392751 0.9975679 0.0392751 0.0024321 -0.0392751
28191 0.0022660 -0.0375841 0.9977340 0.0375841 0.9977340 0.0375841 0.0022660 -0.0375841
29482 0.0021127 -0.0359651 0.9978873 0.0359651 0.9978873 0.0359651 0.0021127 -0.0359651
30832 0.0019711 -0.0344153 0.9980289 0.0344153 0.9980289 0.0344153 0.0019711 -0.0344153
32244 0.0018405 -0.0329318 0.9981595 0.0329318 0.9981595 0.0329318 0.0018405 -0.0329318
33721 0.0017198 -0.0315118 0.9982802 0.0315118 0.9982802 0.0315118 0.0017198 -0.0315118
35265 0.0016084 -0.0301526 0.9983916 0.0301526 0.9983916 0.0301526 0.0016084 -0.0301526
36880 0.0015054 -0.0288519 0.9984946 0.0288519 0.9984946 0.0288519 0.0015054 -0.0288519
38569 0.0014103 -0.0276070 0.9985897 0.0276070 0.9985897 0.0276070 0.0014103 -0.0276070
40335 0.0013224 -0.0264157 0.9986776 0.0264157 0.9986776 0.0264157 0.0013224 -0.0264157
42182 0.0012412 -0.0252758 0.9987588 0.0252758 0.9987588 0.0252758 0.0012412 -0.0252758
44113 0.0011659 -0.0241851 0.9988341 0.0241851 0.9988341 0.0241851 0.0011659 -0.0241851
46134 0.0010963 -0.0231414 0.9989037 0.0231414 0.9989037 0.0231414 0.0010963 -0.0231414
48246 0.0010318 -0.0221429 0.9989682 0.0221429 0.9989682 0.0221429 0.0010318 -0.0221429
50455 0.0009719 -0.0211875 0.9990281 0.0211875 0.9990281 0.0211875 0.0009719 -0.0211875
52766 0.0009164 -0.0202734 0.9990836 0.0202734 0.9990836 0.0202734 0.0009164 -0.0202734
55182 0.0008647 -0.0193990 0.9991353 0.0193990 0.9991353 0.0193990 0.0008647 -0.0193990
57709 0.0008167 -0.0185623 0.9991833 0.0185623 0.9991833 0.0185623 0.0008167 -0.0185623
60352 0.0007720 -0.0177619 0.9992280 0.0177619 0.9992280 0.0177619 0.0007720 -0.0177619
63115 0.0007303 -0.0169962 0.9992697 0.0169962 0.9992697 0.0169962 0.0007303 -0.0169962
66005 0.0006913 -0.0162636 0.9993087 0.0162636 0.9993087 0.0162636 0.0006913 -0.0162636
69028 0.0006549 -0.0155627 0.9993451 0.0155627 0.9993451 0.0155627 0.0006549 -0.0155627
72189 0.0006208 -0.0148921 0.9993792 0.0148921 0.9993792 0.0148921 0.0006208 -0.0148921
75495 0.0005889 -0.0142505 0.9994111 0.0142505 0.9994111 0.0142505 0.0005889 -0.0142505
78952 0.0005590 -0.0136366 0.9994410 0.0136366 0.9994410 0.0136366 0.0005590 -0.0136366
82567 0.0005308 -0.0130493 0.9994692 0.0130493 0.9994692 0.0130493 0.0005308 -0.0130493
86348 0.0005044 -0.0124873 0.9994956 0.0124873 0.9994956 0.0124873 0.0005044 -0.0124873
90302 0.0004795 -0.0119495 0.9995205 0.0119495 0.9995205 0.0119495 0.0004795 -0.0119495
94437 0.0004561 -0.0114349 0.9995439 0.0114349 0.9995439 0.0114349 0.0004561 -0.0114349
98762 0.0004340 -0.0109424 0.9995660 0.0109424 0.9995660 0.0109424 0.0004340 -0.0109424
103284 0.0004133 -0.0104712 0.9995867 0.0104712 0.9995867 0.0104712 0.0004133 -0.0104712
108014 0.0003937 -0.0100202 0.9996063 0.0100202 0.9996063 0.0100202 0.0003937 -0.0100202
112960 0.0003752 -0.0095885 0.9996248 0.0095885 0.9996248 0.0095885 0.0003752 -0.0095885
118133 0.0003578 -0.0091755 0.9996422 0.0091755 0.9996422 0.0091755 0.0003578 -0.0091755
123542 0.0003413 -0.0087801 0.9996587 0.0087801 0.9996587 0.0087801 0.0003413 -0.0087801
129199 0.0003258 -0.0084017 0.9996742 0.0084017 0.9996742 0.0084017 0.0003258 -0.0084017
135116 0.0003112 -0.0080396 0.9996888 0.0080396 0.9996888 0.0080396 0.0003112 -0.0080396
141303 0.0002975 -0.0076930 0.9997025 0.0076930 0.9997025 0.0076930 0.0002975 -0.0076930
147774 0.0002845 -0.0073613 0.9997155 0.0073613 0.9997155 0.0073613 0.0002845 -0.0073613
154540 0.0002723 -0.0070438 0.9997277 0.0070438 0.9997277 0.0070438 0.0002723 -0.0070438
161617 0.0002607 -0.0067400 0.9997393 0.0067400 0.9997393 0.0067400 0.0002607 -0.0067400
169018 0.0002499 -0.0064492 0.9997501 0.0064492 0.9997501 0.0064492 0.0002499 -0.0064492
176758 0.0002396 -0.0061709 0.9997604 0.0061709 0.9997604 0.0061709 0.0002396 -0.0061709
184852 0.0002300 -0.0059045 0.9997700 0.0059045 0.9997700 0.0059045 0.0002300 -0.0059045
193316 0.0002209 -0.0056496 0.9997791 0.0056496 0.9997791 0.0056496 0.0002209 -0.0056496
202169 0.0002123 -0.0054056 0.9997877 0.0054056 0.9997877 0.0054056 0.0002123 -0.0054056
211427 0.0002042 -0.0051722 0.9997958 0.0051722 0.9997958 0.0051722 0.0002042 -0.0051722
221108 0.0001965 -0.0049488 0.9998035 0.0049488 0.9998035 0.0049488 0.0001965 -0.0049488
231233 0.0001893 -0.0047350 0.9998107 0.0047350 0.9998107 0.0047350 0.0001893 -0.0047350
241822 0.0001825 -0.0045304 0.9998175 0.0045304 0.9998175 0.0045304 0.0001825 -0.0045304
252896 0.0001760 -0.0043346 0.9998240 0.0043346 0.9998240 0.0043346 0.0001760 -0.0043346
264476 0.0001699 -0.0041472 0.9998301 0.0041472 0.9998301 0.0041472 0.0001699 -0.0041472
276587 0.0001640 -0.0039679 0.9998360 0.0039679 0.9998360 0.0039679 0.0001640 -0.0039679
289253 0.0001585 -0.0037963 0.9998415 0.0037963 0.9998415 0.0037963 0.0001585 -0.0037963
302498 0.0001532 -0.0036321 0.9998468 0.0036321 0.9998468 0.0036321 0.0001532 -0.0036321
316350 0.0001482 -0.0034749 0.9998518 0.0034749 0.9998518 0.0034749 0.0001482 -0.0034749
330837 0.0001434 -0.0033245 0.9998566 0.0033245 0.9998566 0.0033245 0.0001434 -0.0033245
345986 0.0001388 -0.0031805 0.9998612 0.0031805 0.9998612 0.0031805 0.0001388 -0.0031805
361830 0.0001344 -0.0030427 0.9998656 0.0030427 0.9998656 0.0030427 0.0001344 -0.0030427
378399 0.0001302 -0.0029108 0.9998698 0.0029108 0.9998698 0.0029108 0.0001302 -0.0029108
395726 0.0001262 -0.0027845 0.9998738 0.0027845 0.9998738 0.0027845 0.0001262 -0.0027845
413847 0.0001223 -0.0026635 0.9998777 0.0026635 0.9998777 0.0026635 0.0001223 -0.0026635
432798 0.0001186 -0.0025477 0.9998814 0.0025477 0.9998814 0.0025477 0.0001186 -0.0025477
452617 0.0001150 -0.0024369 0.9998850 0.0024369 0.9998850 0.0024369 0.0001150 -0.0024369
473344 0.0001116 -0.0023307 0.9998884 0.0023307 0.9998884 0.0023307 0.0001116 -0.0023307
495019 0.0001083 -0.0022290 0.9998917 0.0022290 0.9998917 0.0022290 0.0001083 -0.0022290
517687 0.0001052 -0.0021315 0.9998948 0.0021315 0.9998948 0.0021315 0.0001052 -0.0021315
541393 0.0001022 -0.0020382 0.9998978 0.0020382 0.9998978 0.0020382 0.0001022 -0.0020382
566185 0.0000993 -0.0019488 0.9999007 0.0019488 0.9999007 0.0019488 0.0000993 -0.0019488
592111 0.0000966 -0.0018631 0.9999034 0.0018631 0.9999034 0.0018631 0.0000966 -0.0018631
619225 0.0000939 -0.0017810 0.9999061 0.0017810 0.9999061 0.0017810 0.0000939 -0.0017810
647581 0.0000914 -0.0017023 0.9999086 0.0017023 0.9999086 0.0017023 0.0000914 -0.0017023
677235 0.0000891 -0.0016269 0.9999109 0.0016269 0.9999109 0.0016269 0.0000891 -0.0016269
708247 0.0000868 -0.0015546 0.9999132 0.0015546 0.9999132 0.0015546 0.0000868 -0.0015546
740679 0.0000847 -0.0014853 0.9999153 0.0014853 0.9999153 0.0014853 0.0000847 -0.0014853
774597 0.0000826 -0.0014188 0.9999174 0.0014188 0.9999174 0.0014188 0.0000826 -0.0014188
810067 0.0000807 -0.0013551 0.9999193 0.0013551 0.9999193 0.0013551 0.0000807 -0.0013551
847162 0.0000789 -0.0012940 0.9999211 0.0012940 0.9999211 0.0012940 0.0000789 -0.0012940
885955 0.0000772 -0.0012353 0.9999228 0.0012353 0.9999228 0.0012353 0.0000772 -0.0012353
926525 0.0000757 -0.0011791 0.9999243 0.0011791 0.9999243 0.0011791 0.0000757 -0.0011791
968953 0.0000742 -0.0011251 0.9999258 0.0011251 0.9999258 0.0011251 0.0000742 -0.0011251
1013323 0.0000728 -0.0010733 0.9999272 0.0010733 0.9999272 0.0010733 0.0000728 -0.0010733
1059725 0.0000715 -0.0010236 0.9999285 0.0010236 0.9999285 0.0010236 0.0000715 -0.0010236
1108252 0.0000703 -0.0009758 0.9999297 0.0009758 0.9999297 0.0009758 0.0000703 -0.0009758
1159002 0.0000692 -0.0009300 0.9999308 0.0009300 0.9999308 0.0009300 0.0000692 -0.0009300
1212075 0.0000682 -0.0008859 0.9999318 0.0008859 0.9999318 0.0008859 0.0000682 -0.0008859
1267578 0.0000672 -0.0008436 0.9999328 0.0008436 0.9999328 0.0008436 0.0000672 -0.0008436
1325623 0.0000664 -0.0008030 0.9999336 0.0008030 0.9999336 0.0008030 0.0000664 -0.0008030
1386327 0.0000656 -0.0007639 0.9999344 0.0007639 0.9999344 0.0007639 0.0000656 -0.0007639
1449809 0.0000649 -0.0007263 0.9999351 0.0007263 0.9999351 0.0007263 0.0000649 -0.0007263
1516199 0.0000642 -0.0006901 0.9999358 0.0006901 0.9999358 0.0006901 0.0000642 -0.0006901
1585629 0.0000636 -0.0006553 0.9999364 0.0006553 0.9999364 0.0006553 0.0000636 -0.0006553
1658239 0.0000631 -0.0006217 0.9999369 0.0006217 0.9999369 0.0006217 0.0000631 -0.0006217
1734173 0.0000627 -0.0005894 0.9999373 0.0005894 0.9999373 0.0005894 0.0000627 -0.0005894
1813585 0.0000623 -0.0005582 0.9999377 0.0005582 0.9999377 0.0005582 0.0000623 -0.0005582
1896632 0.0000619 -0.0005282 0.9999381 0.0005282 0.9999381 0.0005282 0.0000619 -0.0005282
1983483 0.0000616 -0.0004992 0.9999384 0.0004992 0.9999384 0.0004992 0.0000616 -0.0004992
2074311 0.0000614 -0.0004711 0.9999386 0.0004711 0.9999386 0.0004711 0.0000614 -0.0004711
