!Murata Part Number: GRM216R71H472KA01
!These Parameters are Measured in Series Mode Connection
!Data Generated on Mar 30, 2021
!       o--ll--o
!Port1            Port2
!       o------o
!Operation Temp=25[degC], DC Bias Voltage=0[V]
!Freq. Start=100[Hz] Stop=6[GHz] 401[Steps]
# Hz S RI R 50
!Freq.(Hz) S11(Real) S11(Imag) S21(Real) S21(Imag) S12(Real) S12(Imag) S22(Real) S22(Imag)
100 0.9999984 -0.0002989 0.0000016 0.0002989 0.0000016 0.0002989 0.9999984 -0.0002989
105 0.9999984 -0.0003126 0.0000016 0.0003126 0.0000016 0.0003126 0.9999984 -0.0003126
109 0.9999983 -0.0003268 0.0000017 0.0003268 0.0000017 0.0003268 0.9999983 -0.0003268
114 0.9999982 -0.0003417 0.0000018 0.0003417 0.0000018 0.0003417 0.9999982 -0.0003417
120 0.9999981 -0.0003573 0.0000019 0.0003573 0.0000019 0.0003573 0.9999981 -0.0003573
125 0.9999981 -0.0003736 0.0000019 0.0003736 0.0000019 0.0003736 0.9999981 -0.0003736
131 0.9999980 -0.0003907 0.0000020 0.0003907 0.0000020 0.0003907 0.9999980 -0.0003907
137 0.9999979 -0.0004085 0.0000021 0.0004085 0.0000021 0.0004085 0.9999979 -0.0004085
143 0.9999978 -0.0004271 0.0000022 0.0004271 0.0000022 0.0004271 0.9999978 -0.0004271
150 0.9999977 -0.0004466 0.0000023 0.0004466 0.0000023 0.0004466 0.9999977 -0.0004466
156 0.9999976 -0.0004670 0.0000024 0.0004670 0.0000024 0.0004670 0.9999976 -0.0004670
164 0.9999975 -0.0004883 0.0000025 0.0004883 0.0000025 0.0004883 0.9999975 -0.0004883
171 0.9999974 -0.0005106 0.0000026 0.0005106 0.0000026 0.0005106 0.9999974 -0.0005106
179 0.9999973 -0.0005339 0.0000027 0.0005339 0.0000027 0.0005339 0.9999973 -0.0005339
187 0.9999972 -0.0005583 0.0000028 0.0005583 0.0000028 0.0005583 0.9999972 -0.0005583
196 0.9999971 -0.0005838 0.0000029 0.0005838 0.0000029 0.0005838 0.9999971 -0.0005838
205 0.9999969 -0.0006105 0.0000031 0.0006105 0.0000031 0.0006105 0.9999969 -0.0006105
214 0.9999968 -0.0006384 0.0000032 0.0006384 0.0000032 0.0006384 0.9999968 -0.0006384
224 0.9999966 -0.0006675 0.0000034 0.0006675 0.0000034 0.0006675 0.9999966 -0.0006675
234 0.9999965 -0.0006980 0.0000035 0.0006980 0.0000035 0.0006980 0.9999965 -0.0006980
245 0.9999963 -0.0007299 0.0000037 0.0007299 0.0000037 0.0007299 0.9999963 -0.0007299
256 0.9999961 -0.0007633 0.0000039 0.0007633 0.0000039 0.0007633 0.9999961 -0.0007633
268 0.9999959 -0.0007981 0.0000041 0.0007981 0.0000041 0.0007981 0.9999959 -0.0007981
280 0.9999957 -0.0008346 0.0000043 0.0008346 0.0000043 0.0008346 0.9999957 -0.0008346
293 0.9999955 -0.0008727 0.0000045 0.0008727 0.0000045 0.0008727 0.9999955 -0.0008727
306 0.9999953 -0.0009126 0.0000047 0.0009126 0.0000047 0.0009126 0.9999953 -0.0009126
320 0.9999950 -0.0009543 0.0000050 0.0009543 0.0000050 0.0009543 0.9999950 -0.0009543
335 0.9999947 -0.0009979 0.0000053 0.0009979 0.0000053 0.0009979 0.9999947 -0.0009979
350 0.9999944 -0.0010435 0.0000056 0.0010435 0.0000056 0.0010435 0.9999944 -0.0010435
366 0.9999941 -0.0010912 0.0000059 0.0010912 0.0000059 0.0010912 0.9999941 -0.0010912
383 0.9999938 -0.0011410 0.0000062 0.0011410 0.0000062 0.0011410 0.9999938 -0.0011410
401 0.9999934 -0.0011931 0.0000066 0.0011931 0.0000066 0.0011931 0.9999934 -0.0011931
419 0.9999930 -0.0012476 0.0000070 0.0012476 0.0000070 0.0012476 0.9999930 -0.0012476
438 0.9999926 -0.0013046 0.0000074 0.0013046 0.0000074 0.0013046 0.9999926 -0.0013046
458 0.9999921 -0.0013642 0.0000079 0.0013642 0.0000079 0.0013642 0.9999921 -0.0013642
479 0.9999917 -0.0014265 0.0000083 0.0014265 0.0000083 0.0014265 0.9999917 -0.0014265
501 0.9999911 -0.0014916 0.0000089 0.0014916 0.0000089 0.0014916 0.9999911 -0.0014916
524 0.9999906 -0.0015597 0.0000094 0.0015597 0.0000094 0.0015597 0.9999906 -0.0015597
548 0.9999900 -0.0016309 0.0000100 0.0016309 0.0000100 0.0016309 0.9999900 -0.0016309
573 0.9999894 -0.0017054 0.0000106 0.0017054 0.0000106 0.0017054 0.9999894 -0.0017054
600 0.9999887 -0.0017832 0.0000113 0.0017832 0.0000113 0.0017832 0.9999887 -0.0017832
627 0.9999880 -0.0018646 0.0000120 0.0018646 0.0000120 0.0018646 0.9999880 -0.0018646
656 0.9999873 -0.0019498 0.0000127 0.0019498 0.0000127 0.0019498 0.9999873 -0.0019498
686 0.9999865 -0.0020387 0.0000135 0.0020387 0.0000135 0.0020387 0.9999865 -0.0020387
717 0.9999856 -0.0021318 0.0000144 0.0021318 0.0000144 0.0021318 0.9999856 -0.0021318
750 0.9999847 -0.0022291 0.0000153 0.0022291 0.0000153 0.0022291 0.9999847 -0.0022291
784 0.9999838 -0.0023308 0.0000162 0.0023308 0.0000162 0.0023308 0.9999838 -0.0023308
820 0.9999828 -0.0024372 0.0000172 0.0024372 0.0000172 0.0024372 0.9999828 -0.0024372
858 0.9999817 -0.0025484 0.0000183 0.0025484 0.0000183 0.0025484 0.9999817 -0.0025484
897 0.9999805 -0.0026647 0.0000195 0.0026647 0.0000195 0.0026647 0.9999805 -0.0026647
938 0.9999793 -0.0027863 0.0000207 0.0027863 0.0000207 0.0027863 0.9999793 -0.0027863
981 0.9999780 -0.0029135 0.0000220 0.0029135 0.0000220 0.0029135 0.9999780 -0.0029135
1026 0.9999766 -0.0030464 0.0000234 0.0030464 0.0000234 0.0030464 0.9999766 -0.0030464
1073 0.9999752 -0.0031855 0.0000248 0.0031855 0.0000248 0.0031855 0.9999752 -0.0031855
1122 0.9999736 -0.0033309 0.0000264 0.0033309 0.0000264 0.0033309 0.9999736 -0.0033309
1174 0.9999719 -0.0034829 0.0000281 0.0034829 0.0000281 0.0034829 0.9999719 -0.0034829
1227 0.9999701 -0.0036419 0.0000299 0.0036419 0.0000299 0.0036419 0.9999701 -0.0036419
1283 0.9999681 -0.0038081 0.0000319 0.0038081 0.0000319 0.0038081 0.9999681 -0.0038081
1342 0.9999661 -0.0039820 0.0000339 0.0039820 0.0000339 0.0039820 0.9999661 -0.0039820
1404 0.9999638 -0.0041638 0.0000362 0.0041638 0.0000362 0.0041638 0.9999638 -0.0041638
1468 0.9999614 -0.0043539 0.0000386 0.0043539 0.0000386 0.0043539 0.9999614 -0.0043539
1535 0.9999588 -0.0045527 0.0000412 0.0045527 0.0000412 0.0045527 0.9999588 -0.0045527
1606 0.9999560 -0.0047606 0.0000440 0.0047606 0.0000440 0.0047606 0.9999560 -0.0047606
1679 0.9999530 -0.0049780 0.0000470 0.0049780 0.0000470 0.0049780 0.9999530 -0.0049780
1756 0.9999497 -0.0052053 0.0000503 0.0052053 0.0000503 0.0052053 0.9999497 -0.0052053
1836 0.9999462 -0.0054431 0.0000538 0.0054431 0.0000538 0.0054431 0.9999462 -0.0054431
1920 0.9999424 -0.0056917 0.0000576 0.0056917 0.0000576 0.0056917 0.9999424 -0.0056917
2008 0.9999382 -0.0059516 0.0000618 0.0059516 0.0000618 0.0059516 0.9999382 -0.0059516
2100 0.9999337 -0.0062235 0.0000663 0.0062235 0.0000663 0.0062235 0.9999337 -0.0062235
2196 0.9999288 -0.0065077 0.0000712 0.0065077 0.0000712 0.0065077 0.9999288 -0.0065077
2297 0.9999235 -0.0068050 0.0000765 0.0068050 0.0000765 0.0068050 0.9999235 -0.0068050
2402 0.9999178 -0.0071158 0.0000822 0.0071158 0.0000822 0.0071158 0.9999178 -0.0071158
2512 0.9999115 -0.0074408 0.0000885 0.0074408 0.0000885 0.0074408 0.9999115 -0.0074408
2627 0.9999047 -0.0077807 0.0000953 0.0077807 0.0000953 0.0077807 0.9999047 -0.0077807
2748 0.9998973 -0.0081360 0.0001027 0.0081360 0.0001027 0.0081360 0.9998973 -0.0081360
2873 0.9998893 -0.0085076 0.0001107 0.0085076 0.0001107 0.0085076 0.9998893 -0.0085076
3005 0.9998806 -0.0088961 0.0001194 0.0088961 0.0001194 0.0088961 0.9998806 -0.0088961
3143 0.9998711 -0.0093023 0.0001289 0.0093023 0.0001289 0.0093023 0.9998711 -0.0093023
3287 0.9998608 -0.0097271 0.0001392 0.0097271 0.0001392 0.0097271 0.9998608 -0.0097271
3437 0.9998496 -0.0101712 0.0001504 0.0101712 0.0001504 0.0101712 0.9998496 -0.0101712
3594 0.9998374 -0.0106355 0.0001626 0.0106355 0.0001626 0.0106355 0.9998374 -0.0106355
3759 0.9998242 -0.0111210 0.0001758 0.0111210 0.0001758 0.0111210 0.9998242 -0.0111210
3931 0.9998098 -0.0116286 0.0001902 0.0116286 0.0001902 0.0116286 0.9998098 -0.0116286
4111 0.9997942 -0.0121593 0.0002058 0.0121593 0.0002058 0.0121593 0.9997942 -0.0121593
4299 0.9997772 -0.0127142 0.0002228 0.0127142 0.0002228 0.0127142 0.9997772 -0.0127142
4496 0.9997588 -0.0132942 0.0002412 0.0132942 0.0002412 0.0132942 0.9997588 -0.0132942
4702 0.9997388 -0.0139007 0.0002612 0.0139007 0.0002612 0.0139007 0.9997388 -0.0139007
4918 0.9997170 -0.0145348 0.0002830 0.0145348 0.0002830 0.0145348 0.9997170 -0.0145348
5143 0.9996935 -0.0151977 0.0003065 0.0151977 0.0003065 0.0151977 0.9996935 -0.0151977
5378 0.9996679 -0.0158907 0.0003321 0.0158907 0.0003321 0.0158907 0.9996679 -0.0158907
5625 0.9996401 -0.0166153 0.0003599 0.0166153 0.0003599 0.0166153 0.9996401 -0.0166153
5882 0.9996099 -0.0173727 0.0003901 0.0173727 0.0003901 0.0173727 0.9996099 -0.0173727
6151 0.9995772 -0.0181646 0.0004228 0.0181646 0.0004228 0.0181646 0.9995772 -0.0181646
6433 0.9995417 -0.0189925 0.0004583 0.0189925 0.0004583 0.0189925 0.9995417 -0.0189925
6728 0.9995031 -0.0198581 0.0004969 0.0198581 0.0004969 0.0198581 0.9995031 -0.0198581
7036 0.9994613 -0.0207629 0.0005387 0.0207629 0.0005387 0.0207629 0.9994613 -0.0207629
7358 0.9994158 -0.0217089 0.0005842 0.0217089 0.0005842 0.0217089 0.9994158 -0.0217089
7695 0.9993664 -0.0226979 0.0006336 0.0226979 0.0006336 0.0226979 0.9993664 -0.0226979
8047 0.9993128 -0.0237318 0.0006872 0.0237318 0.0006872 0.0237318 0.9993128 -0.0237318
8416 0.9992545 -0.0248128 0.0007455 0.0248128 0.0007455 0.0248128 0.9992545 -0.0248128
8801 0.9991911 -0.0259428 0.0008089 0.0259428 0.0008089 0.0259428 0.9991911 -0.0259428
9204 0.9991223 -0.0271242 0.0008777 0.0271242 0.0008777 0.0271242 0.9991223 -0.0271242
9626 0.9990474 -0.0283593 0.0009526 0.0283593 0.0009526 0.0283593 0.9990474 -0.0283593
10066 0.9989659 -0.0296505 0.0010341 0.0296505 0.0010341 0.0296505 0.9989659 -0.0296505
10527 0.9988772 -0.0310003 0.0011228 0.0310003 0.0011228 0.0310003 0.9988772 -0.0310003
11009 0.9987806 -0.0324115 0.0012194 0.0324115 0.0012194 0.0324115 0.9987806 -0.0324115
11514 0.9986755 -0.0338867 0.0013245 0.0338867 0.0013245 0.0338867 0.9986755 -0.0338867
12041 0.9985610 -0.0354288 0.0014390 0.0354288 0.0014390 0.0354288 0.9985610 -0.0354288
12592 0.9984362 -0.0370409 0.0015638 0.0370409 0.0015638 0.0370409 0.9984362 -0.0370409
13169 0.9983002 -0.0387260 0.0016998 0.0387260 0.0016998 0.0387260 0.9983002 -0.0387260
13772 0.9981519 -0.0404875 0.0018481 0.0404875 0.0018481 0.0404875 0.9981519 -0.0404875
14402 0.9979902 -0.0423286 0.0020098 0.0423286 0.0020098 0.0423286 0.9979902 -0.0423286
15062 0.9978138 -0.0442530 0.0021862 0.0442530 0.0021862 0.0442530 0.9978138 -0.0442530
15752 0.9976213 -0.0462642 0.0023787 0.0462642 0.0023787 0.0462642 0.9976213 -0.0462642
16473 0.9974114 -0.0483662 0.0025886 0.0483662 0.0025886 0.0483662 0.9974114 -0.0483662
17227 0.9971823 -0.0505629 0.0028177 0.0505629 0.0028177 0.0505629 0.9971823 -0.0505629
18016 0.9969322 -0.0528583 0.0030678 0.0528583 0.0030678 0.0528583 0.9969322 -0.0528583
18841 0.9966592 -0.0552568 0.0033408 0.0552568 0.0033408 0.0552568 0.9966592 -0.0552568
19704 0.9963613 -0.0577627 0.0036387 0.0577627 0.0036387 0.0577627 0.9963613 -0.0577627
20606 0.9960360 -0.0603807 0.0039640 0.0603807 0.0039640 0.0603807 0.9960360 -0.0603807
21550 0.9956810 -0.0631155 0.0043190 0.0631155 0.0043190 0.0631155 0.9956810 -0.0631155
22537 0.9952933 -0.0659720 0.0047067 0.0659720 0.0047067 0.0659720 0.9952933 -0.0659720
23569 0.9948702 -0.0689553 0.0051298 0.0689553 0.0051298 0.0689553 0.9948702 -0.0689553
24648 0.9944083 -0.0720707 0.0055917 0.0720707 0.0055917 0.0720707 0.9944083 -0.0720707
25777 0.9939041 -0.0753234 0.0060959 0.0753234 0.0060959 0.0753234 0.9939041 -0.0753234
26957 0.9933537 -0.0787191 0.0066463 0.0787191 0.0066463 0.0787191 0.9933537 -0.0787191
28191 0.9927531 -0.0822634 0.0072469 0.0822634 0.0072469 0.0822634 0.9927531 -0.0822634
29482 0.9920976 -0.0859623 0.0079024 0.0859623 0.0079024 0.0859623 0.9920976 -0.0859623
30832 0.9913824 -0.0898217 0.0086176 0.0898217 0.0086176 0.0898217 0.9913824 -0.0898217
32244 0.9906022 -0.0938477 0.0093978 0.0938477 0.0093978 0.0938477 0.9906022 -0.0938477
33721 0.9897511 -0.0980466 0.0102489 0.0980466 0.0102489 0.0980466 0.9897511 -0.0980466
35265 0.9888229 -0.1024247 0.0111771 0.1024247 0.0111771 0.1024247 0.9888229 -0.1024247
36880 0.9878109 -0.1069884 0.0121891 0.1069884 0.0121891 0.1069884 0.9878109 -0.1069884
38569 0.9867076 -0.1117443 0.0132924 0.1117443 0.0132924 0.1117443 0.9867076 -0.1117443
40335 0.9855051 -0.1166988 0.0144949 0.1166988 0.0144949 0.1166988 0.9855051 -0.1166988
42182 0.9841949 -0.1218585 0.0158051 0.1218585 0.0158051 0.1218585 0.9841949 -0.1218585
44113 0.9827676 -0.1272299 0.0172324 0.1272299 0.0172324 0.1272299 0.9827676 -0.1272299
46134 0.9812134 -0.1328195 0.0187866 0.1328195 0.0187866 0.1328195 0.9812134 -0.1328195
48246 0.9795213 -0.1386335 0.0204787 0.1386335 0.0204787 0.1386335 0.9795213 -0.1386335
50455 0.9776800 -0.1446782 0.0223200 0.1446782 0.0223200 0.1446782 0.9776800 -0.1446782
52766 0.9756768 -0.1509593 0.0243232 0.1509593 0.0243232 0.1509593 0.9756768 -0.1509593
55182 0.9734985 -0.1574827 0.0265015 0.1574827 0.0265015 0.1574827 0.9734985 -0.1574827
57709 0.9711306 -0.1642535 0.0288694 0.1642535 0.0288694 0.1642535 0.9711306 -0.1642535
60352 0.9685579 -0.1712765 0.0314421 0.1712765 0.0314421 0.1712765 0.9685579 -0.1712765
63115 0.9657640 -0.1785559 0.0342360 0.1785559 0.0342360 0.1785559 0.9657640 -0.1785559
66005 0.9627314 -0.1860953 0.0372686 0.1860953 0.0372686 0.1860953 0.9627314 -0.1860953
69028 0.9594415 -0.1938973 0.0405585 0.1938973 0.0405585 0.1938973 0.9594415 -0.1938973
72189 0.9558745 -0.2019638 0.0441255 0.2019638 0.0441255 0.2019638 0.9558745 -0.2019638
75495 0.9520095 -0.2102954 0.0479905 0.2102954 0.0479905 0.2102954 0.9520095 -0.2102954
78952 0.9478245 -0.2188915 0.0521755 0.2188915 0.0521755 0.2188915 0.9478245 -0.2188915
82567 0.9432961 -0.2277500 0.0567039 0.2277500 0.0567039 0.2277500 0.9432961 -0.2277500
86348 0.9384001 -0.2368671 0.0615999 0.2368671 0.0615999 0.2368671 0.9384001 -0.2368671
90302 0.9331109 -0.2462374 0.0668891 0.2462374 0.0668891 0.2462374 0.9331109 -0.2462374
94437 0.9274021 -0.2558530 0.0725979 0.2558530 0.0725979 0.2558530 0.9274021 -0.2558530
98762 0.9212464 -0.2657039 0.0787536 0.2657039 0.0787536 0.2657039 0.9212464 -0.2657039
103284 0.9146157 -0.2757775 0.0853843 0.2757775 0.0853843 0.2757775 0.9146157 -0.2757775
108014 0.9074814 -0.2860581 0.0925186 0.2860581 0.0925186 0.2860581 0.9074814 -0.2860581
112960 0.8998146 -0.2965271 0.1001854 0.2965271 0.1001854 0.2965271 0.8998146 -0.2965271
118133 0.8915862 -0.3071627 0.1084138 0.3071627 0.1084138 0.3071627 0.8915862 -0.3071627
123542 0.8827675 -0.3179392 0.1172325 0.3179392 0.1172325 0.3179392 0.8827675 -0.3179392
129199 0.8733305 -0.3288273 0.1266695 0.3288273 0.1266695 0.3288273 0.8733305 -0.3288273
135116 0.8632482 -0.3397937 0.1367518 0.3397937 0.1367518 0.3397937 0.8632482 -0.3397937
141303 0.8524954 -0.3508010 0.1475046 0.3508010 0.1475046 0.3508010 0.8524954 -0.3508010
147774 0.8410488 -0.3618076 0.1589512 0.3618076 0.1589512 0.3618076 0.8410488 -0.3618076
154540 0.8288880 -0.3727678 0.1711120 0.3727678 0.1711120 0.3727678 0.8288880 -0.3727678
161617 0.8159959 -0.3836319 0.1840041 0.3836319 0.1840041 0.3836319 0.8159959 -0.3836319
169018 0.8023596 -0.3943461 0.1976404 0.3943461 0.1976404 0.3943461 0.8023596 -0.3943461
176758 0.7879706 -0.4048533 0.2120294 0.4048533 0.2120294 0.4048533 0.7879706 -0.4048533
184852 0.7728262 -0.4150928 0.2271738 0.4150928 0.2271738 0.4150928 0.7728262 -0.4150928
193316 0.7569295 -0.4250015 0.2430705 0.4250015 0.2430705 0.4250015 0.7569295 -0.4250015
202169 0.7402900 -0.4345144 0.2597100 0.4345144 0.2597100 0.4345144 0.7402900 -0.4345144
211427 0.7229249 -0.4435649 0.2770751 0.4435649 0.2770751 0.4435649 0.7229249 -0.4435649
221108 0.7048584 -0.4520864 0.2951416 0.4520864 0.2951416 0.4520864 0.7048584 -0.4520864
231233 0.6861230 -0.4600128 0.3138770 0.4600128 0.3138770 0.4600128 0.6861230 -0.4600128
241822 0.6667588 -0.4672799 0.3332412 0.4672799 0.3332412 0.4672799 0.6667588 -0.4672799
252896 0.6468142 -0.4738264 0.3531858 0.4738264 0.3531858 0.4738264 0.6468142 -0.4738264
264476 0.6263451 -0.4795949 0.3736549 0.4795949 0.3736549 0.4795949 0.6263451 -0.4795949
276587 0.6054146 -0.4845335 0.3945854 0.4845335 0.3945854 0.4845335 0.6054146 -0.4845335
289253 0.5840927 -0.4885964 0.4159073 0.4885964 0.4159073 0.4885964 0.5840927 -0.4885964
302498 0.5624550 -0.4917452 0.4375450 0.4917452 0.4375450 0.4917452 0.5624550 -0.4917452
316350 0.5405819 -0.4939498 0.4594181 0.4939498 0.4594181 0.4939498 0.5405819 -0.4939498
330837 0.5185575 -0.4951890 0.4814425 0.4951890 0.4814425 0.4951890 0.5185575 -0.4951890
345986 0.4964681 -0.4954510 0.5035319 0.4954510 0.5035319 0.4954510 0.4964681 -0.4954510
361830 0.4744011 -0.4947336 0.5255989 0.4947336 0.5255989 0.4947336 0.4744011 -0.4947336
378399 0.4524435 -0.4930444 0.5475565 0.4930444 0.5475565 0.4930444 0.4524435 -0.4930444
395726 0.4306803 -0.4904006 0.5693197 0.4904006 0.5693197 0.4904006 0.4306803 -0.4904006
413847 0.4091937 -0.4868285 0.5908063 0.4868285 0.5908063 0.4868285 0.4091937 -0.4868285
432798 0.3880612 -0.4823628 0.6119388 0.4823628 0.6119388 0.4823628 0.3880612 -0.4823628
452617 0.3673551 -0.4770459 0.6326449 0.4770459 0.6326449 0.4770459 0.3673551 -0.4770459
473344 0.3471416 -0.4709271 0.6528584 0.4709271 0.6528584 0.4709271 0.3471416 -0.4709271
495019 0.3274795 -0.4640611 0.6725205 0.4640611 0.6725205 0.4640611 0.3274795 -0.4640611
517687 0.3084204 -0.4565072 0.6915796 0.4565072 0.6915796 0.4565072 0.3084204 -0.4565072
541393 0.2900078 -0.4483282 0.7099922 0.4483282 0.7099922 0.4483282 0.2900078 -0.4483282
566185 0.2722777 -0.4395890 0.7277223 0.4395890 0.7277223 0.4395890 0.2722777 -0.4395890
592111 0.2552578 -0.4303555 0.7447422 0.4303555 0.7447422 0.4303555 0.2552578 -0.4303555
619225 0.2389684 -0.4206939 0.7610316 0.4206939 0.7610316 0.4206939 0.2389684 -0.4206939
647581 0.2234226 -0.4106694 0.7765774 0.4106694 0.7765774 0.4106694 0.2234226 -0.4106694
677235 0.2086266 -0.4003455 0.7913734 0.4003455 0.7913734 0.4003455 0.2086266 -0.4003455
708247 0.1945804 -0.3897836 0.8054196 0.3897836 0.8054196 0.3897836 0.1945804 -0.3897836
740679 0.1812786 -0.3790419 0.8187214 0.3790419 0.8187214 0.3790419 0.1812786 -0.3790419
774597 0.1687105 -0.3681753 0.8312895 0.3681753 0.8312895 0.3681753 0.1687105 -0.3681753
810067 0.1568615 -0.3572350 0.8431385 0.3572350 0.8431385 0.3572350 0.1568615 -0.3572350
847162 0.1457131 -0.3462684 0.8542869 0.3462684 0.8542869 0.3462684 0.1457131 -0.3462684
885955 0.1352440 -0.3353187 0.8647560 0.3353187 0.8647560 0.3353187 0.1352440 -0.3353187
926525 0.1254303 -0.3244251 0.8745697 0.3244251 0.8745697 0.3244251 0.1254303 -0.3244251
968953 0.1162464 -0.3136228 0.8837536 0.3136228 0.8837536 0.3136228 0.1162464 -0.3136228
1013323 0.1076654 -0.3029429 0.8923346 0.3029429 0.8923346 0.3029429 0.1076654 -0.3029429
1059725 0.0996593 -0.2924131 0.9003407 0.2924131 0.9003407 0.2924131 0.0996593 -0.2924131
1108252 0.0921997 -0.2820570 0.9078003 0.2820570 0.9078003 0.2820570 0.0921997 -0.2820570
1159002 0.0852581 -0.2718951 0.9147419 0.2718951 0.9147419 0.2718951 0.0852581 -0.2718951
1212075 0.0788061 -0.2619447 0.9211939 0.2619447 0.9211939 0.2619447 0.0788061 -0.2619447
1267578 0.0728156 -0.2522200 0.9271844 0.2522200 0.9271844 0.2522200 0.0728156 -0.2522200
1325623 0.0672592 -0.2427329 0.9327408 0.2427329 0.9327408 0.2427329 0.0672592 -0.2427329
1386327 0.0621102 -0.2334923 0.9378898 0.2334923 0.9378898 0.2334923 0.0621102 -0.2334923
1449809 0.0573427 -0.2245053 0.9426573 0.2245053 0.9426573 0.2245053 0.0573427 -0.2245053
1516199 0.0529320 -0.2157768 0.9470680 0.2157768 0.9470680 0.2157768 0.0529320 -0.2157768
1585629 0.0488543 -0.2073099 0.9511457 0.2073099 0.9511457 0.2073099 0.0488543 -0.2073099
1658239 0.0450868 -0.1991063 0.9549132 0.1991063 0.9549132 0.1991063 0.0450868 -0.1991063
1734173 0.0416082 -0.1911660 0.9583918 0.1911660 0.9583918 0.1911660 0.0416082 -0.1911660
1813585 0.0383979 -0.1834881 0.9616021 0.1834881 0.9616021 0.1834881 0.0383979 -0.1834881
1896632 0.0354367 -0.1760704 0.9645633 0.1760704 0.9645633 0.1760704 0.0354367 -0.1760704
1983483 0.0327066 -0.1689099 0.9672934 0.1689099 0.9672934 0.1689099 0.0327066 -0.1689099
2074311 0.0301905 -0.1620029 0.9698095 0.1620029 0.9698095 0.1620029 0.0301905 -0.1620029
