!Murata Part Number: GRM219R71E684KA88
!These Parameters are Measured in Series Mode Connection
!Data Generated on Mar 30, 2021
!       o--ll--o
!Port1            Port2
!       o------o
!Operation Temp=25[degC], DC Bias Voltage=0[V]
!Freq. Start=100[Hz] Stop=6[GHz] 401[Steps]
# Hz S RI R 50
!Freq.(Hz) S11(Real) S11(Imag) S21(Real) S21(Imag) S12(Real) S12(Imag) S22(Real) S22(Imag)
100 0.9983289 -0.0382333 0.0016711 0.0382333 0.0016711 0.0382333 0.9983289 -0.0382333
105 0.9981835 -0.0399715 0.0018165 0.0399715 0.0018165 0.0399715 0.9981835 -0.0399715
109 0.9980249 -0.0417883 0.0019751 0.0417883 0.0019751 0.0417883 0.9980249 -0.0417883
114 0.9978521 -0.0436871 0.0021479 0.0436871 0.0021479 0.0436871 0.9978521 -0.0436871
120 0.9976637 -0.0456714 0.0023363 0.0456714 0.0023363 0.0456714 0.9976637 -0.0456714
125 0.9974583 -0.0477450 0.0025417 0.0477450 0.0025417 0.0477450 0.9974583 -0.0477450
131 0.9972343 -0.0499119 0.0027657 0.0499119 0.0027657 0.0499119 0.9972343 -0.0499119
137 0.9969900 -0.0521760 0.0030100 0.0521760 0.0030100 0.0521760 0.9969900 -0.0521760
143 0.9967237 -0.0545416 0.0032763 0.0545416 0.0032763 0.0545416 0.9967237 -0.0545416
150 0.9964332 -0.0570131 0.0035668 0.0570131 0.0035668 0.0570131 0.9964332 -0.0570131
156 0.9961165 -0.0595949 0.0038835 0.0595949 0.0038835 0.0595949 0.9961165 -0.0595949
164 0.9957711 -0.0622919 0.0042289 0.0622919 0.0042289 0.0622919 0.9957711 -0.0622919
171 0.9953944 -0.0651088 0.0046056 0.0651088 0.0046056 0.0651088 0.9953944 -0.0651088
179 0.9949837 -0.0680507 0.0050163 0.0680507 0.0050163 0.0680507 0.9949837 -0.0680507
187 0.9945357 -0.0711229 0.0054643 0.0711229 0.0054643 0.0711229 0.9945357 -0.0711229
196 0.9940473 -0.0743307 0.0059527 0.0743307 0.0059527 0.0743307 0.9940473 -0.0743307
205 0.9935147 -0.0776797 0.0064853 0.0776797 0.0064853 0.0776797 0.9935147 -0.0776797
214 0.9929339 -0.0811757 0.0070661 0.0811757 0.0070661 0.0811757 0.9929339 -0.0811757
224 0.9923006 -0.0848245 0.0076994 0.0848245 0.0076994 0.0848245 0.9923006 -0.0848245
234 0.9916100 -0.0886323 0.0083900 0.0886323 0.0083900 0.0886323 0.9916100 -0.0886323
245 0.9908570 -0.0926051 0.0091430 0.0926051 0.0091430 0.0926051 0.9908570 -0.0926051
256 0.9900361 -0.0967494 0.0099639 0.0967494 0.0099639 0.0967494 0.9900361 -0.0967494
268 0.9891410 -0.1010715 0.0108590 0.1010715 0.0108590 0.1010715 0.9891410 -0.1010715
280 0.9881653 -0.1055782 0.0118347 0.1055782 0.0118347 0.1055782 0.9881653 -0.1055782
293 0.9871018 -0.1102759 0.0128982 0.1102759 0.0128982 0.1102759 0.9871018 -0.1102759
306 0.9859426 -0.1151714 0.0140574 0.1151714 0.0140574 0.1151714 0.9859426 -0.1151714
320 0.9846794 -0.1202714 0.0153206 0.1202714 0.0153206 0.1202714 0.9846794 -0.1202714
335 0.9833030 -0.1255826 0.0166970 0.1255826 0.0166970 0.1255826 0.9833030 -0.1255826
350 0.9818036 -0.1311117 0.0181964 0.1311117 0.0181964 0.1311117 0.9818036 -0.1311117
366 0.9801705 -0.1368653 0.0198295 0.1368653 0.0198295 0.1368653 0.9801705 -0.1368653
383 0.9783923 -0.1428496 0.0216077 0.1428496 0.0216077 0.1428496 0.9783923 -0.1428496
401 0.9764567 -0.1490709 0.0235433 0.1490709 0.0235433 0.1490709 0.9764567 -0.1490709
419 0.9743502 -0.1555351 0.0256498 0.1555351 0.0256498 0.1555351 0.9743502 -0.1555351
438 0.9720588 -0.1622476 0.0279412 0.1622476 0.0279412 0.1622476 0.9720588 -0.1622476
458 0.9695670 -0.1692135 0.0304330 0.1692135 0.0304330 0.1692135 0.9695670 -0.1692135
479 0.9668585 -0.1764374 0.0331415 0.1764374 0.0331415 0.1764374 0.9668585 -0.1764374
501 0.9639160 -0.1839229 0.0360840 0.1839229 0.0360840 0.1839229 0.9639160 -0.1839229
524 0.9607208 -0.1916730 0.0392792 0.1916730 0.0392792 0.1916730 0.9607208 -0.1916730
548 0.9572532 -0.1996899 0.0427468 0.1996899 0.0427468 0.1996899 0.9572532 -0.1996899
573 0.9534923 -0.2079743 0.0465077 0.2079743 0.0465077 0.2079743 0.9534923 -0.2079743
600 0.9494161 -0.2165260 0.0505839 0.2165260 0.0505839 0.2165260 0.9494161 -0.2165260
627 0.9450015 -0.2253432 0.0549985 0.2253432 0.0549985 0.2253432 0.9450015 -0.2253432
656 0.9402240 -0.2344224 0.0597760 0.2344224 0.0597760 0.2344224 0.9402240 -0.2344224
686 0.9350584 -0.2437583 0.0649416 0.2437583 0.0649416 0.2437583 0.9350584 -0.2437583
717 0.9294784 -0.2533437 0.0705216 0.2533437 0.0705216 0.2533437 0.9294784 -0.2533437
750 0.9234567 -0.2631686 0.0765433 0.2631686 0.0765433 0.2631686 0.9234567 -0.2631686
784 0.9169654 -0.2732211 0.0830346 0.2732211 0.0830346 0.2732211 0.9169654 -0.2732211
820 0.9099760 -0.2834861 0.0900240 0.2834861 0.0900240 0.2834861 0.9099760 -0.2834861
858 0.9024598 -0.2939455 0.0975402 0.2939455 0.0975402 0.2939455 0.9024598 -0.2939455
897 0.8943878 -0.3045782 0.1056122 0.3045782 0.1056122 0.3045782 0.8943878 -0.3045782
938 0.8857315 -0.3153594 0.1142685 0.3153594 0.1142685 0.3153594 0.8857315 -0.3153594
981 0.8764627 -0.3262606 0.1235373 0.3262606 0.1235373 0.3262606 0.8764627 -0.3262606
1026 0.8665545 -0.3372497 0.1334455 0.3372497 0.1334455 0.3372497 0.8665545 -0.3372497
1073 0.8559813 -0.3482905 0.1440187 0.3482905 0.1440187 0.3482905 0.8559813 -0.3482905
1122 0.8447195 -0.3593425 0.1552805 0.3593425 0.1552805 0.3593425 0.8447195 -0.3593425
1174 0.8327482 -0.3703616 0.1672518 0.3703616 0.1672518 0.3703616 0.8327482 -0.3703616
1227 0.8200493 -0.3812992 0.1799507 0.3812992 0.1799507 0.3812992 0.8200493 -0.3812992
1283 0.8066089 -0.3921032 0.1933911 0.3921032 0.1933911 0.3921032 0.8066089 -0.3921032
1342 0.7924173 -0.4027176 0.2075827 0.4027176 0.2075827 0.4027176 0.7924173 -0.4027176
1404 0.7774698 -0.4130831 0.2225302 0.4130831 0.2225302 0.4130831 0.7774698 -0.4130831
1468 0.7617675 -0.4231379 0.2382325 0.4231379 0.2382325 0.4231379 0.7617675 -0.4231379
1535 0.7453181 -0.4328176 0.2546819 0.4328176 0.2546819 0.4328176 0.7453181 -0.4328176
1606 0.7281358 -0.4420566 0.2718642 0.4420566 0.2718642 0.4420566 0.7281358 -0.4420566
1679 0.7102422 -0.4507882 0.2897578 0.4507882 0.2897578 0.4507882 0.7102422 -0.4507882
1756 0.6916668 -0.4589465 0.3083332 0.4589465 0.3083332 0.4589465 0.6916668 -0.4589465
1836 0.6724468 -0.4664664 0.3275532 0.4664664 0.3275532 0.4664664 0.6724468 -0.4664664
1920 0.6526273 -0.4732857 0.3473727 0.4732857 0.3473727 0.4732857 0.6526273 -0.4732857
2008 0.6322612 -0.4793452 0.3677388 0.4793452 0.3677388 0.4793452 0.6322612 -0.4793452
2100 0.6114090 -0.4845910 0.3885910 0.4845910 0.3885910 0.4845910 0.6114090 -0.4845910
2196 0.5901380 -0.4889747 0.4098620 0.4889747 0.4098620 0.4889747 0.5901380 -0.4889747
2297 0.5685215 -0.4924547 0.4314785 0.4924547 0.4314785 0.4924547 0.5685215 -0.4924547
2402 0.5466382 -0.4949974 0.4533618 0.4949974 0.4533618 0.4949974 0.5466382 -0.4949974
2512 0.5245711 -0.4965779 0.4754289 0.4965779 0.4754289 0.4965779 0.5245711 -0.4965779
2627 0.5024059 -0.4971803 0.4975941 0.4971803 0.4975941 0.4971803 0.5024059 -0.4971803
2748 0.4802300 -0.4967983 0.5197700 0.4967983 0.5197700 0.4967983 0.4802300 -0.4967983
2873 0.4581310 -0.4954355 0.5418690 0.4954355 0.5418690 0.4954355 0.4581310 -0.4954355
3005 0.4361953 -0.4931051 0.5638047 0.4931051 0.5638047 0.4931051 0.4361953 -0.4931051
3143 0.4145068 -0.4898298 0.5854932 0.4898298 0.5854932 0.4898298 0.4145068 -0.4898298
3287 0.3931456 -0.4856408 0.6068544 0.4856408 0.6068544 0.4856408 0.3931456 -0.4856408
3437 0.3721870 -0.4805779 0.6278130 0.4805779 0.6278130 0.4805779 0.3721870 -0.4805779
3594 0.3517000 -0.4746876 0.6483000 0.4746876 0.6483000 0.4746876 0.3517000 -0.4746876
3759 0.3317473 -0.4680230 0.6682527 0.4680230 0.6682527 0.4680230 0.3317473 -0.4680230
3931 0.3123840 -0.4606422 0.6876160 0.4606422 0.6876160 0.4606422 0.3123840 -0.4606422
4111 0.2936575 -0.4526072 0.7063425 0.4526072 0.7063425 0.4526072 0.2936575 -0.4526072
4299 0.2756070 -0.4439826 0.7243930 0.4439826 0.7243930 0.4439826 0.2756070 -0.4439826
4496 0.2582642 -0.4348348 0.7417358 0.4348348 0.7417358 0.4348348 0.2582642 -0.4348348
4702 0.2416524 -0.4252309 0.7583476 0.4252309 0.7583476 0.4252309 0.2416524 -0.4252309
4918 0.2257879 -0.4152372 0.7742121 0.4152372 0.7742121 0.4152372 0.2257879 -0.4152372
5143 0.2106795 -0.4049189 0.7893205 0.4049189 0.7893205 0.4049189 0.2106795 -0.4049189
5378 0.1963296 -0.3943390 0.8036704 0.3943390 0.8036704 0.3943390 0.1963296 -0.3943390
5625 0.1827348 -0.3835579 0.8172652 0.3835579 0.8172652 0.3835579 0.1827348 -0.3835579
5882 0.1698860 -0.3726326 0.8301140 0.3726326 0.8301140 0.3726326 0.1698860 -0.3726326
6151 0.1577698 -0.3616165 0.8422302 0.3616165 0.8422302 0.3616165 0.1577698 -0.3616165
6433 0.1463687 -0.3505591 0.8536313 0.3505591 0.8536313 0.3505591 0.1463687 -0.3505591
6728 0.1356619 -0.3395058 0.8643381 0.3395058 0.8643381 0.3395058 0.1356619 -0.3395058
7036 0.1256260 -0.3284979 0.8743740 0.3284979 0.8743740 0.3284979 0.1256260 -0.3284979
7358 0.1162354 -0.3175724 0.8837646 0.3175724 0.8837646 0.3175724 0.1162354 -0.3175724
7695 0.1074629 -0.3067624 0.8925371 0.3067624 0.8925371 0.3067624 0.1074629 -0.3067624
8047 0.0992804 -0.2960970 0.9007196 0.2960970 0.9007196 0.2960970 0.0992804 -0.2960970
8416 0.0916590 -0.2856014 0.9083410 0.2856014 0.9083410 0.2856014 0.0916590 -0.2856014
8801 0.0845698 -0.2752975 0.9154302 0.2752975 0.9154302 0.2752975 0.0845698 -0.2752975
9204 0.0779836 -0.2652036 0.9220164 0.2652036 0.9220164 0.2652036 0.0779836 -0.2652036
9626 0.0718717 -0.2553351 0.9281283 0.2553351 0.9281283 0.2553351 0.0718717 -0.2553351
10066 0.0662061 -0.2457046 0.9337939 0.2457046 0.9337939 0.2457046 0.0662061 -0.2457046
10527 0.0609594 -0.2363220 0.9390406 0.2363220 0.9390406 0.2363220 0.0609594 -0.2363220
11009 0.0561050 -0.2271949 0.9438950 0.2271949 0.9438950 0.2271949 0.0561050 -0.2271949
11514 0.0516175 -0.2183287 0.9483825 0.2183287 0.9483825 0.2183287 0.0516175 -0.2183287
12041 0.0474724 -0.2097272 0.9525276 0.2097272 0.9525276 0.2097272 0.0474724 -0.2097272
12592 0.0436465 -0.2013922 0.9563535 0.2013922 0.9563535 0.2013922 0.0436465 -0.2013922
13169 0.0401175 -0.1933244 0.9598825 0.1933244 0.9598825 0.1933244 0.0401175 -0.1933244
13772 0.0368646 -0.1855229 0.9631354 0.1855229 0.9631354 0.1855229 0.0368646 -0.1855229
14402 0.0338678 -0.1779858 0.9661322 0.1779858 0.9661322 0.1779858 0.0338678 -0.1779858
15062 0.0311086 -0.1707104 0.9688914 0.1707104 0.9688914 0.1707104 0.0311086 -0.1707104
15752 0.0285693 -0.1636929 0.9714307 0.1636929 0.9714307 0.1636929 0.0285693 -0.1636929
16473 0.0262336 -0.1569291 0.9737664 0.1569291 0.9737664 0.1569291 0.0262336 -0.1569291
17227 0.0240861 -0.1504141 0.9759139 0.1504141 0.9759139 0.1504141 0.0240861 -0.1504141
18016 0.0221124 -0.1441425 0.9778876 0.1441425 0.9778876 0.1441425 0.0221124 -0.1441425
18841 0.0202992 -0.1381085 0.9797008 0.1381085 0.9797008 0.1381085 0.0202992 -0.1381085
19704 0.0186338 -0.1323061 0.9813662 0.1323061 0.9813662 0.1323061 0.0186338 -0.1323061
20606 0.0171049 -0.1267290 0.9828951 0.1267290 0.9828951 0.1267290 0.0171049 -0.1267290
21550 0.0157015 -0.1213709 0.9842985 0.1213709 0.9842985 0.1213709 0.0157015 -0.1213709
22537 0.0144138 -0.1162250 0.9855862 0.1162250 0.9855862 0.1162250 0.0144138 -0.1162250
23569 0.0132324 -0.1112849 0.9867676 0.1112849 0.9867676 0.1112849 0.0132324 -0.1112849
24648 0.0121488 -0.1065439 0.9878512 0.1065439 0.9878512 0.1065439 0.0121488 -0.1065439
25777 0.0111552 -0.1019953 0.9888448 0.1019953 0.9888448 0.1019953 0.0111552 -0.1019953
26957 0.0102441 -0.0976327 0.9897559 0.0976327 0.9897559 0.0976327 0.0102441 -0.0976327
28191 0.0094088 -0.0934494 0.9905912 0.0934494 0.9905912 0.0934494 0.0094088 -0.0934494
29482 0.0086432 -0.0894391 0.9913568 0.0894391 0.9913568 0.0894391 0.0086432 -0.0894391
30832 0.0079415 -0.0855954 0.9920585 0.0855954 0.9920585 0.0855954 0.0079415 -0.0855954
32244 0.0072983 -0.0819122 0.9927017 0.0819122 0.9927017 0.0819122 0.0072983 -0.0819122
33721 0.0067089 -0.0783834 0.9932911 0.0783834 0.9932911 0.0783834 0.0067089 -0.0783834
35265 0.0061687 -0.0750031 0.9938313 0.0750031 0.9938313 0.0750031 0.0061687 -0.0750031
36880 0.0056736 -0.0717655 0.9943264 0.0717655 0.9943264 0.0717655 0.0056736 -0.0717655
38569 0.0052199 -0.0686651 0.9947801 0.0686651 0.9947801 0.0686651 0.0052199 -0.0686651
40335 0.0048040 -0.0656965 0.9951960 0.0656965 0.9951960 0.0656965 0.0048040 -0.0656965
42182 0.0044229 -0.0628543 0.9955771 0.0628543 0.9955771 0.0628543 0.0044229 -0.0628543
44113 0.0040734 -0.0601334 0.9959266 0.0601334 0.9959266 0.0601334 0.0040734 -0.0601334
46134 0.0037531 -0.0575290 0.9962469 0.0575290 0.9962469 0.0575290 0.0037531 -0.0575290
48246 0.0034593 -0.0550362 0.9965407 0.0550362 0.9965407 0.0550362 0.0034593 -0.0550362
50455 0.0031898 -0.0526505 0.9968102 0.0526505 0.9968102 0.0526505 0.0031898 -0.0526505
52766 0.0029426 -0.0503674 0.9970574 0.0503674 0.9970574 0.0503674 0.0029426 -0.0503674
55182 0.0027158 -0.0481825 0.9972842 0.0481825 0.9972842 0.0481825 0.0027158 -0.0481825
57709 0.0025076 -0.0460919 0.9974924 0.0460919 0.9974924 0.0460919 0.0025076 -0.0460919
60352 0.0023164 -0.0440915 0.9976836 0.0440915 0.9976836 0.0440915 0.0023164 -0.0440915
63115 0.0021409 -0.0421775 0.9978591 0.0421775 0.9978591 0.0421775 0.0021409 -0.0421775
66005 0.0019796 -0.0403462 0.9980204 0.0403462 0.9980204 0.0403462 0.0019796 -0.0403462
69028 0.0018313 -0.0385942 0.9981687 0.0385942 0.9981687 0.0385942 0.0018313 -0.0385942
72189 0.0016950 -0.0369179 0.9983050 0.0369179 0.9983050 0.0369179 0.0016950 -0.0369179
75495 0.0015696 -0.0353142 0.9984304 0.0353142 0.9984304 0.0353142 0.0015696 -0.0353142
78952 0.0014543 -0.0337799 0.9985457 0.0337799 0.9985457 0.0337799 0.0014543 -0.0337799
82567 0.0013482 -0.0323121 0.9986518 0.0323121 0.9986518 0.0323121 0.0013482 -0.0323121
86348 0.0012504 -0.0309079 0.9987496 0.0309079 0.9987496 0.0309079 0.0012504 -0.0309079
90302 0.0011604 -0.0295645 0.9988396 0.0295645 0.9988396 0.0295645 0.0011604 -0.0295645
94437 0.0010775 -0.0282793 0.9989225 0.0282793 0.9989225 0.0282793 0.0010775 -0.0282793
98762 0.0010011 -0.0270499 0.9989989 0.0270499 0.9989989 0.0270499 0.0010011 -0.0270499
103284 0.0009307 -0.0258737 0.9990693 0.0258737 0.9990693 0.0258737 0.0009307 -0.0258737
108014 0.0008658 -0.0247484 0.9991342 0.0247484 0.9991342 0.0247484 0.0008658 -0.0247484
112960 0.0008059 -0.0236720 0.9991941 0.0236720 0.9991941 0.0236720 0.0008059 -0.0236720
118133 0.0007507 -0.0226422 0.9992493 0.0226422 0.9992493 0.0226422 0.0007507 -0.0226422
123542 0.0006998 -0.0216571 0.9993002 0.0216571 0.9993002 0.0216571 0.0006998 -0.0216571
129199 0.0006528 -0.0207146 0.9993472 0.0207146 0.9993472 0.0207146 0.0006528 -0.0207146
135116 0.0006095 -0.0198130 0.9993905 0.0198130 0.9993905 0.0198130 0.0006095 -0.0198130
141303 0.0005695 -0.0189506 0.9994305 0.0189506 0.9994305 0.0189506 0.0005695 -0.0189506
147774 0.0005326 -0.0181255 0.9994674 0.0181255 0.9994674 0.0181255 0.0005326 -0.0181255
154540 0.0004985 -0.0173363 0.9995015 0.0173363 0.9995015 0.0173363 0.0004985 -0.0173363
161617 0.0004671 -0.0165812 0.9995329 0.0165812 0.9995329 0.0165812 0.0004671 -0.0165812
169018 0.0004381 -0.0158590 0.9995619 0.0158590 0.9995619 0.0158590 0.0004381 -0.0158590
176758 0.0004113 -0.0151681 0.9995887 0.0151681 0.9995887 0.0151681 0.0004113 -0.0151681
184852 0.0003865 -0.0145072 0.9996135 0.0145072 0.9996135 0.0145072 0.0003865 -0.0145072
193316 0.0003637 -0.0138750 0.9996363 0.0138750 0.9996363 0.0138750 0.0003637 -0.0138750
202169 0.0003426 -0.0132703 0.9996574 0.0132703 0.9996574 0.0132703 0.0003426 -0.0132703
211427 0.0003231 -0.0126919 0.9996769 0.0126919 0.9996769 0.0126919 0.0003231 -0.0126919
221108 0.0003051 -0.0121386 0.9996949 0.0121386 0.9996949 0.0121386 0.0003051 -0.0121386
231233 0.0002884 -0.0116093 0.9997116 0.0116093 0.9997116 0.0116093 0.0002884 -0.0116093
241822 0.0002730 -0.0111031 0.9997270 0.0111031 0.9997270 0.0111031 0.0002730 -0.0111031
252896 0.0002587 -0.0106188 0.9997413 0.0106188 0.9997413 0.0106188 0.0002587 -0.0106188
264476 0.0002454 -0.0101556 0.9997546 0.0101556 0.9997546 0.0101556 0.0002454 -0.0101556
276587 0.0002332 -0.0097126 0.9997668 0.0097126 0.9997668 0.0097126 0.0002332 -0.0097126
289253 0.0002218 -0.0092888 0.9997782 0.0092888 0.9997782 0.0092888 0.0002218 -0.0092888
302498 0.0002112 -0.0088834 0.9997888 0.0088834 0.9997888 0.0088834 0.0002112 -0.0088834
316350 0.0002014 -0.0084956 0.9997986 0.0084956 0.9997986 0.0084956 0.0002014 -0.0084956
330837 0.0001922 -0.0081247 0.9998078 0.0081247 0.9998078 0.0081247 0.0001922 -0.0081247
345986 0.0001837 -0.0077698 0.9998163 0.0077698 0.9998163 0.0077698 0.0001837 -0.0077698
361830 0.0001758 -0.0074304 0.9998242 0.0074304 0.9998242 0.0074304 0.0001758 -0.0074304
378399 0.0001684 -0.0071057 0.9998316 0.0071057 0.9998316 0.0071057 0.0001684 -0.0071057
395726 0.0001615 -0.0067950 0.9998385 0.0067950 0.9998385 0.0067950 0.0001615 -0.0067950
413847 0.0001550 -0.0064979 0.9998450 0.0064979 0.9998450 0.0064979 0.0001550 -0.0064979
432798 0.0001490 -0.0062136 0.9998510 0.0062136 0.9998510 0.0062136 0.0001490 -0.0062136
452617 0.0001434 -0.0059415 0.9998566 0.0059415 0.9998566 0.0059415 0.0001434 -0.0059415
473344 0.0001381 -0.0056813 0.9998619 0.0056813 0.9998619 0.0056813 0.0001381 -0.0056813
495019 0.0001332 -0.0054323 0.9998668 0.0054323 0.9998668 0.0054323 0.0001332 -0.0054323
517687 0.0001286 -0.0051940 0.9998714 0.0051940 0.9998714 0.0051940 0.0001286 -0.0051940
541393 0.0001243 -0.0049660 0.9998757 0.0049660 0.9998757 0.0049660 0.0001243 -0.0049660
566185 0.0001202 -0.0047479 0.9998798 0.0047479 0.9998798 0.0047479 0.0001202 -0.0047479
592111 0.0001164 -0.0045391 0.9998836 0.0045391 0.9998836 0.0045391 0.0001164 -0.0045391
619225 0.0001129 -0.0043393 0.9998871 0.0043393 0.9998871 0.0043393 0.0001129 -0.0043393
647581 0.0001096 -0.0041481 0.9998904 0.0041481 0.9998904 0.0041481 0.0001096 -0.0041481
677235 0.0001065 -0.0039651 0.9998935 0.0039651 0.9998935 0.0039651 0.0001065 -0.0039651
708247 0.0001036 -0.0037899 0.9998964 0.0037899 0.9998964 0.0037899 0.0001036 -0.0037899
740679 0.0001009 -0.0036223 0.9998991 0.0036223 0.9998991 0.0036223 0.0001009 -0.0036223
774597 0.0000984 -0.0034618 0.9999016 0.0034618 0.9999016 0.0034618 0.0000984 -0.0034618
810067 0.0000961 -0.0033081 0.9999039 0.0033081 0.9999039 0.0033081 0.0000961 -0.0033081
847162 0.0000939 -0.0031611 0.9999061 0.0031611 0.9999061 0.0031611 0.0000939 -0.0031611
885955 0.0000919 -0.0030202 0.9999081 0.0030202 0.9999081 0.0030202 0.0000919 -0.0030202
926525 0.0000900 -0.0028854 0.9999100 0.0028854 0.9999100 0.0028854 0.0000900 -0.0028854
968953 0.0000883 -0.0027563 0.9999117 0.0027563 0.9999117 0.0027563 0.0000883 -0.0027563
1013323 0.0000867 -0.0026326 0.9999133 0.0026326 0.9999133 0.0026326 0.0000867 -0.0026326
1059725 0.0000852 -0.0025142 0.9999148 0.0025142 0.9999148 0.0025142 0.0000852 -0.0025142
1108252 0.0000838 -0.0024008 0.9999162 0.0024008 0.9999162 0.0024008 0.0000838 -0.0024008
1159002 0.0000825 -0.0022921 0.9999175 0.0022921 0.9999175 0.0022921 0.0000825 -0.0022921
1212075 0.0000814 -0.0021881 0.9999186 0.0021881 0.9999186 0.0021881 0.0000814 -0.0021881
1267578 0.0000803 -0.0020883 0.9999197 0.0020883 0.9999197 0.0020883 0.0000803 -0.0020883
1325623 0.0000793 -0.0019927 0.9999207 0.0019927 0.9999207 0.0019927 0.0000793 -0.0019927
1386327 0.0000784 -0.0019011 0.9999216 0.0019011 0.9999216 0.0019011 0.0000784 -0.0019011
1449809 0.0000776 -0.0018132 0.9999224 0.0018132 0.9999224 0.0018132 0.0000776 -0.0018132
1516199 0.0000768 -0.0017290 0.9999232 0.0017290 0.9999232 0.0017290 0.0000768 -0.0017290
1585629 0.0000761 -0.0016482 0.9999239 0.0016482 0.9999239 0.0016482 0.0000761 -0.0016482
1658239 0.0000755 -0.0015707 0.9999245 0.0015707 0.9999245 0.0015707 0.0000755 -0.0015707
1734173 0.0000750 -0.0014964 0.9999250 0.0014964 0.9999250 0.0014964 0.0000750 -0.0014964
1813585 0.0000745 -0.0014250 0.9999255 0.0014250 0.9999255 0.0014250 0.0000745 -0.0014250
1896632 0.0000740 -0.0013565 0.9999260 0.0013565 0.9999260 0.0013565 0.0000740 -0.0013565
1983483 0.0000736 -0.0012906 0.9999264 0.0012906 0.9999264 0.0012906 0.0000736 -0.0012906
2074311 0.0000733 -0.0012274 0.9999267 0.0012274 0.9999267 0.0012274 0.0000733 -0.0012274
