!  American Technical Ceramics  Date:    3/13/98
!  One Norden Lane
!  Huntington Station,  NY.   11746-2102
!  Tel:  (516) 547-5700               Fax:  (516) 547-5748
!  Part Number  180r220k
!  Description: Porcelain, High Q, Low ESR
!  Application: Bypass, Coupling, Timing, Feedback
!               Tuning, Impedance Match, Blocking
# GHZ S DB R 50
! Freq   |S11|   S11 Ph  |S21|   S21 Ph  |S12|   S12 Ph  |S22|   S22 Ph
    0.05   -1.39  -32.52   -5.52   58.31   -5.52   58.31   -1.39  -32.52
    0.11   -4.65  -54.92   -1.80   35.12   -1.80   35.12   -4.65  -54.92
    0.17   -7.35  -66.65   -0.89   24.31   -0.89   24.31   -7.35  -66.65
    0.24   -9.56  -72.76   -0.50   18.42   -0.50   18.42   -9.56  -72.76
    0.30  -11.21  -77.04   -0.33   14.70   -0.33   14.70  -11.21  -77.04
    0.36  -12.57  -79.80   -0.22   12.16   -0.22   12.16  -12.57  -79.80
    0.42  -13.60  -82.13   -0.17   10.25   -0.17   10.25  -13.60  -82.13
    0.48  -14.47  -83.55   -0.12    8.93   -0.12    8.93  -14.47  -83.55
    0.54  -15.35  -84.95   -0.12    7.50   -0.12    7.50  -15.35  -84.95
    0.61  -15.91  -86.37   -0.12    6.73   -0.12    6.73  -15.91  -86.37
    0.67  -16.35  -87.27   -0.11    5.97   -0.11    5.97  -16.35  -87.27
    0.73  -16.70  -87.84   -0.08    5.42   -0.08    5.42  -16.70  -87.84
    0.79  -16.98  -88.64   -0.10    4.91   -0.10    4.91  -16.98  -88.64
    0.85  -17.21  -89.55   -0.08    4.40   -0.08    4.40  -17.21  -89.55
    0.91  -17.38  -89.82   -0.08    4.20   -0.08    4.20  -17.38  -89.82
    0.98  -17.47  -90.77   -0.07    3.70   -0.07    3.70  -17.47  -90.77
    1.04  -17.64  -91.08   -0.08    3.47   -0.08    3.47  -17.64  -91.08
    1.10  -17.69  -91.75   -0.08    3.10   -0.08    3.10  -17.69  -91.75
    1.16  -17.68  -92.27   -0.07    2.75   -0.07    2.75  -17.68  -92.27
    1.22  -17.67  -92.27   -0.08    2.60   -0.08    2.60  -17.67  -92.27
    1.29  -17.71  -92.63   -0.08    2.32   -0.08    2.32  -17.71  -92.63
    1.35  -17.66  -93.30   -0.06    2.10   -0.06    2.10  -17.66  -93.30
    1.41  -17.62  -93.34   -0.07    1.94   -0.07    1.94  -17.62  -93.34
    1.47  -17.55  -93.82   -0.07    1.86   -0.07    1.86  -17.55  -93.82
    1.53  -17.53  -94.12   -0.08    1.51   -0.08    1.51  -17.53  -94.12
    1.59  -17.48  -94.65   -0.07    1.47   -0.07    1.47  -17.48  -94.65
    1.66  -17.38  -94.72   -0.09    1.33   -0.09    1.33  -17.38  -94.72
    1.72  -17.28  -95.03   -0.09    1.03   -0.09    1.03  -17.28  -95.03
    1.78  -17.23  -95.41   -0.10    0.87   -0.10    0.87  -17.23  -95.41
    1.84  -17.14  -95.93   -0.09    0.92   -0.09    0.92  -17.14  -95.93
    1.90  -16.98  -95.61   -0.09    0.70   -0.09    0.70  -16.98  -95.61
    1.96  -16.92  -95.77   -0.09    0.56   -0.09    0.56  -16.92  -95.77
    2.03  -16.89  -96.45   -0.12    0.57   -0.12    0.57  -16.89  -96.45
    2.09  -16.79  -96.69   -0.10    0.38   -0.10    0.38  -16.79  -96.69
    2.15  -16.60  -96.63   -0.10    0.34   -0.10    0.34  -16.60  -96.63
    2.21  -16.55  -97.24   -0.11    0.01   -0.11    0.01  -16.55  -97.24
    2.27  -16.47  -97.60   -0.10    0.12   -0.10    0.12  -16.47  -97.60
    2.33  -16.36  -97.96   -0.11   -0.18   -0.11   -0.18  -16.36  -97.96
    2.40  -16.20  -97.99   -0.12    0.02   -0.12    0.02  -16.20  -97.99
    2.46  -16.15  -98.21   -0.12   -0.22   -0.12   -0.22  -16.15  -98.21
    2.52  -16.06  -98.93   -0.12   -0.34   -0.12   -0.34  -16.06  -98.93
    2.58  -15.96  -98.79   -0.12   -0.46   -0.12   -0.46  -15.96  -98.79
    2.64  -15.83  -98.58   -0.14   -0.44   -0.14   -0.44  -15.83  -98.58
    2.71  -15.71  -99.14   -0.15   -0.51   -0.15   -0.51  -15.71  -99.14
    2.77  -15.67  -99.94   -0.12   -0.74   -0.12   -0.74  -15.67  -99.94
    2.83  -15.56  -99.67   -0.14   -0.77   -0.14   -0.77  -15.56  -99.67
    2.89  -15.41  -99.58   -0.16   -0.84   -0.16   -0.84  -15.41  -99.58
    2.95  -15.34  -98.62   -0.21   -1.32   -0.21   -1.32  -15.34  -98.62
    3.01  -15.05 -100.46   -0.20   -0.87   -0.20   -0.87  -15.05 -100.46
    3.08  -14.94 -101.04   -0.16   -0.95   -0.16   -0.95  -14.94 -101.04
    3.14  -14.85 -100.91   -0.16   -1.00   -0.16   -1.00  -14.85 -100.91
    3.20  -14.83 -101.48   -0.23   -1.26   -0.23   -1.26  -14.83 -101.48
    3.26  -14.69 -102.16   -0.19   -1.26   -0.19   -1.26  -14.69 -102.16
    3.32  -14.60 -102.18   -0.19   -1.38   -0.19   -1.38  -14.60 -102.18
    3.38  -14.37 -102.10   -0.23   -1.56   -0.23   -1.56  -14.37 -102.10
    3.45  -14.34 -103.22   -0.21   -1.68   -0.21   -1.68  -14.34 -103.22
    3.51  -14.21 -103.35   -0.21   -1.65   -0.21   -1.65  -14.21 -103.35
    3.57  -14.04 -102.86   -0.23   -1.78   -0.23   -1.78  -14.04 -102.86
    3.63  -13.87 -103.70   -0.22   -1.85   -0.22   -1.85  -13.87 -103.70
    3.69  -13.88 -104.17   -0.28   -2.01   -0.28   -2.01  -13.88 -104.17
    3.76  -13.63 -104.32   -0.26   -1.97   -0.26   -1.97  -13.63 -104.32
    3.82  -13.51 -104.62   -0.24   -2.35   -0.24   -2.35  -13.51 -104.62
    3.88  -13.33 -104.59   -0.28   -2.28   -0.28   -2.28  -13.33 -104.59
    3.94  -13.24 -105.33   -0.30   -2.29   -0.30   -2.29  -13.24 -105.33
    4.00  -13.28 -107.17   -0.26   -2.47   -0.26   -2.47  -13.28 -107.17
    4.06  -13.12 -107.27   -0.28   -2.61   -0.28   -2.61  -13.12 -107.27
    4.13  -12.98 -107.76   -0.29   -2.63   -0.29   -2.63  -12.98 -107.76
    4.19  -13.03 -108.65   -0.30   -2.82   -0.30   -2.82  -13.03 -108.65
    4.25  -12.81 -108.54   -0.29   -2.57   -0.29   -2.57  -12.81 -108.54
    4.31  -12.76 -109.08   -0.30   -2.98   -0.30   -2.98  -12.76 -109.08
    4.37  -12.71 -109.62   -0.32   -3.06   -0.32   -3.06  -12.71 -109.62
    4.43  -12.70 -110.26   -0.33   -3.14   -0.33   -3.14  -12.70 -110.26
    4.50  -12.61 -110.63   -0.32   -3.25   -0.32   -3.25  -12.61 -110.63
    4.56  -12.56 -110.52   -0.34   -3.46   -0.34   -3.46  -12.56 -110.52
    4.62  -12.63 -111.53   -0.36   -3.72   -0.36   -3.72  -12.63 -111.53
    4.68  -12.76 -111.59   -0.37   -4.01   -0.37   -4.01  -12.76 -111.59
    4.74  -12.78 -111.28   -0.34   -4.36   -0.34   -4.36  -12.78 -111.28
    4.80  -13.09 -111.23   -0.40   -5.17   -0.40   -5.17  -13.09 -111.23
    4.87  -13.73 -110.11   -0.42   -6.24   -0.42   -6.24  -13.73 -110.11
    4.93  -15.05 -101.03   -0.67   -8.28   -0.67   -8.28  -15.05 -101.03
    4.99  -12.20  -74.77   -1.73   -8.84   -1.73   -8.84  -12.20  -74.77
    5.05   -9.09  -92.92   -1.61    1.21   -1.61    1.21   -9.09  -92.92
    5.11   -9.35 -104.22   -0.89    0.84   -0.89    0.84   -9.35 -104.22
    5.18   -9.82 -107.98   -0.73   -0.01   -0.73   -0.01   -9.82 -107.98
    5.24   -9.98 -109.14   -0.63   -0.58   -0.63   -0.58   -9.98 -109.14
    5.30  -10.06 -109.97   -0.60   -1.05   -0.60   -1.05  -10.06 -109.97
    5.36  -10.18 -111.60   -0.59   -1.35   -0.59   -1.35  -10.18 -111.60
    5.42  -10.31 -111.00   -0.59   -1.40   -0.59   -1.40  -10.31 -111.00
    5.48  -10.09 -111.45   -0.53   -1.47   -0.53   -1.47  -10.09 -111.45
    5.55  -10.23 -112.16   -0.57   -1.91   -0.57   -1.91  -10.23 -112.16
    5.61  -10.24 -112.35   -0.58   -1.80   -0.58   -1.80  -10.24 -112.35
    5.67  -10.19 -112.12   -0.57   -1.76   -0.57   -1.76  -10.19 -112.12
    5.73  -10.09 -112.94   -0.55   -1.91   -0.55   -1.91  -10.09 -112.94
    5.79  -10.17 -113.12   -0.60   -1.93   -0.60   -1.93  -10.17 -113.12
    5.85  -10.12 -113.51   -0.55   -1.86   -0.55   -1.86  -10.12 -113.51
    5.92  -10.19 -113.94   -0.58   -1.97   -0.58   -1.97  -10.19 -113.94
    5.98  -10.07 -113.67   -0.56   -2.01   -0.56   -2.01  -10.07 -113.67
    6.04  -10.13 -113.53   -0.59   -2.07   -0.59   -2.07  -10.13 -113.53
    6.10  -10.09 -114.21   -0.60   -2.01   -0.60   -2.01  -10.09 -114.21
    6.16  -10.14 -114.18   -0.58   -2.08   -0.58   -2.08  -10.14 -114.18
    6.23  -10.05 -114.00   -0.59   -2.16   -0.59   -2.16  -10.05 -114.00
    6.29  -10.10 -114.57   -0.61   -2.11   -0.61   -2.11  -10.10 -114.57
    6.35  -10.10 -114.95   -0.61   -1.98   -0.61   -1.98  -10.10 -114.95
    6.41  -10.15 -115.03   -0.62   -1.84   -0.62   -1.84  -10.15 -115.03
    6.47  -10.00 -114.97   -0.57   -2.37   -0.57   -2.37  -10.00 -114.97
    6.53  -10.17 -115.43   -0.61   -2.02   -0.61   -2.02  -10.17 -115.43
    6.60  -10.18 -115.67   -0.62   -2.08   -0.62   -2.08  -10.18 -115.67
    6.66  -10.15 -115.31   -0.61   -2.13   -0.61   -2.13  -10.15 -115.31
    6.72  -10.13 -115.51   -0.61   -2.29   -0.61   -2.29  -10.13 -115.51
    6.78  -10.27 -115.73   -0.64   -2.04   -0.64   -2.04  -10.27 -115.73
    6.84  -10.33 -115.47   -0.62   -2.08   -0.62   -2.08  -10.33 -115.47
    6.90  -10.24 -115.73   -0.62   -2.07   -0.62   -2.07  -10.24 -115.73
    6.97  -10.19 -115.25   -0.64   -2.29   -0.64   -2.29  -10.19 -115.25
    7.03  -10.35 -115.51   -0.69   -1.95   -0.69   -1.95  -10.35 -115.51
    7.09  -10.26 -115.92   -0.66   -2.11   -0.66   -2.11  -10.26 -115.92
    7.15  -10.29 -115.66   -0.67   -2.05   -0.67   -2.05  -10.29 -115.66
    7.21  -10.36 -115.41   -0.67   -2.12   -0.67   -2.12  -10.36 -115.41
    7.27  -10.46 -115.63   -0.70   -2.15   -0.70   -2.15  -10.46 -115.63
    7.34  -10.41 -115.26   -0.69   -2.14   -0.69   -2.14  -10.41 -115.26
    7.40  -10.38 -115.44   -0.71   -2.02   -0.71   -2.02  -10.38 -115.44
    7.46  -10.45 -114.47   -0.70   -1.99   -0.70   -1.99  -10.45 -114.47
    7.52  -10.52 -115.39   -0.74   -1.88   -0.74   -1.88  -10.52 -115.39
    7.58  -10.42 -114.96   -0.73   -2.04   -0.73   -2.04  -10.42 -114.96
    7.65  -10.51 -114.14   -0.71   -1.62   -0.71   -1.62  -10.51 -114.14
    7.71  -10.42 -114.78   -0.74   -2.33   -0.74   -2.33  -10.42 -114.78
    7.77  -10.49 -115.01   -0.76   -1.67   -0.76   -1.67  -10.49 -115.01
    7.83  -10.53 -114.93   -0.72   -1.78   -0.72   -1.78  -10.53 -114.93
    7.89  -10.42 -114.85   -0.76   -1.90   -0.76   -1.90  -10.42 -114.85
    7.95  -10.56 -114.94   -0.75   -1.84   -0.75   -1.84  -10.56 -114.94
    8.02  -10.67 -115.77   -0.75   -1.63   -0.75   -1.63  -10.67 -115.77
    8.08  -10.56 -114.93   -0.74   -2.06   -0.74   -2.06  -10.56 -114.93
    8.14  -10.61 -115.07   -0.75   -1.88   -0.75   -1.88  -10.61 -115.07
    8.20  -10.71 -115.53   -0.75   -2.16   -0.75   -2.16  -10.71 -115.53
    8.26  -10.83 -115.81   -0.77   -2.17   -0.77   -2.17  -10.83 -115.81
    8.32  -10.86 -115.38   -0.76   -2.24   -0.76   -2.24  -10.86 -115.38
    8.39  -10.88 -115.48   -0.80   -2.47   -0.80   -2.47  -10.88 -115.48
    8.45  -11.09 -115.43   -0.77   -2.70   -0.77   -2.70  -11.09 -115.43
    8.51  -11.21 -115.69   -0.82   -2.96   -0.82   -2.96  -11.21 -115.69
    8.57  -11.42 -114.21   -0.81   -3.69   -0.81   -3.69  -11.42 -114.21
    8.63  -11.66 -111.90   -0.89   -4.24   -0.89   -4.24  -11.66 -111.90
    8.70  -11.79 -106.86   -1.15   -5.02   -1.15   -5.02  -11.79 -106.86
    8.76  -10.73 -101.77   -1.60   -4.32   -1.60   -4.32  -10.73 -101.77
    8.82   -9.45 -104.79   -1.63   -0.75   -1.63   -0.75   -9.45 -104.79
    8.88   -9.20 -110.88   -1.39    0.82   -1.39    0.82   -9.20 -110.88
    8.94   -9.40 -114.48   -1.16    0.83   -1.16    0.83   -9.40 -114.48
    9.00   -9.51 -116.58   -1.06    0.70   -1.06    0.70   -9.51 -116.58
    9.07   -9.59 -117.47   -1.02   -0.09   -1.02   -0.09   -9.59 -117.47
    9.13   -9.69 -118.47   -1.00   -0.12   -1.00   -0.12   -9.69 -118.47
    9.19   -9.81 -119.81   -1.01   -0.01   -1.01   -0.01   -9.81 -119.81
    9.25   -9.76 -120.56   -0.95   -0.35   -0.95   -0.35   -9.76 -120.56
    9.31   -9.79 -120.99   -0.94   -0.50   -0.94   -0.50   -9.79 -120.99
    9.37   -9.79 -121.90   -0.97   -0.39   -0.97   -0.39   -9.79 -121.90
    9.44   -9.90 -122.88   -0.99   -0.49   -0.99   -0.49   -9.90 -122.88
    9.50   -9.76 -123.91   -0.97   -0.51   -0.97   -0.51   -9.76 -123.91
    9.56   -9.78 -124.03   -0.97   -0.65   -0.97   -0.65   -9.78 -124.03
    9.62   -9.84 -125.16   -0.95   -0.62   -0.95   -0.62   -9.84 -125.16
    9.68   -9.77 -126.24   -0.99   -0.70   -0.99   -0.70   -9.77 -126.24
    9.74   -9.72 -127.19   -0.97   -0.95   -0.97   -0.95   -9.72 -127.19
    9.81   -9.66 -127.24   -0.95   -0.98   -0.95   -0.98   -9.66 -127.24
    9.87   -9.63 -128.79   -0.98   -0.85   -0.98   -0.85   -9.63 -128.79
    9.93   -9.75 -129.46   -1.01   -1.04   -1.01   -1.04   -9.75 -129.46
    9.99   -9.58 -130.51   -0.98   -0.81   -0.98   -0.81   -9.58 -130.51
   10.05   -9.60 -130.90   -1.01   -1.15   -1.01   -1.15   -9.60 -130.90
   10.12   -9.58 -132.78   -1.00   -1.08   -1.00   -1.08   -9.58 -132.78
   10.18   -9.56 -132.82   -1.07   -0.98   -1.07   -0.98   -9.56 -132.82
   10.24   -9.47 -134.11   -1.03   -1.05   -1.03   -1.05   -9.47 -134.11
   10.30   -9.47 -134.74   -1.04   -1.38   -1.04   -1.38   -9.47 -134.74
   10.36   -9.42 -135.98   -1.07   -1.21   -1.07   -1.21   -9.42 -135.98
   10.42   -9.52 -136.30   -1.12   -1.13   -1.12   -1.13   -9.52 -136.30
   10.49   -9.32 -137.47   -1.08   -1.21   -1.08   -1.21   -9.32 -137.47
   10.55   -9.38 -137.71   -1.11   -1.27   -1.11   -1.27   -9.38 -137.71
   10.61   -9.37 -139.16   -1.10   -1.22   -1.10   -1.22   -9.37 -139.16
   10.67   -9.32 -139.32   -1.17   -0.91   -1.17   -0.91   -9.32 -139.32
   10.73   -9.33 -140.86   -1.12   -1.44   -1.12   -1.44   -9.33 -140.86
   10.79   -9.35 -140.33   -1.18   -1.30   -1.18   -1.30   -9.35 -140.33
   10.86   -9.16 -141.90   -1.13   -1.22   -1.13   -1.22   -9.16 -141.90
   10.92   -9.31 -142.06   -1.21   -1.14   -1.21   -1.14   -9.31 -142.06
   10.98   -9.20 -142.10   -1.20   -1.36   -1.20   -1.36   -9.20 -142.10
   11.04   -9.10 -142.97   -1.16   -1.27   -1.16   -1.27   -9.10 -142.97
   11.10   -9.20 -144.03   -1.20   -1.12   -1.20   -1.12   -9.20 -144.03
   11.17   -9.23 -143.43   -1.25   -1.16   -1.25   -1.16   -9.23 -143.43
   11.23   -9.08 -144.65   -1.27   -1.40   -1.27   -1.40   -9.08 -144.65
   11.29   -9.14 -144.90   -1.26   -1.43   -1.26   -1.43   -9.14 -144.90
   11.35   -9.18 -145.71   -1.26   -1.03   -1.26   -1.03   -9.18 -145.71
   11.41   -9.27 -145.57   -1.30   -1.10   -1.30   -1.10   -9.27 -145.57
   11.47   -9.20 -146.57   -1.33   -1.26   -1.33   -1.26   -9.20 -146.57
   11.54   -9.19 -146.17   -1.27   -1.26   -1.27   -1.26   -9.19 -146.17
   11.60   -9.32 -146.57   -1.34   -0.79   -1.34   -0.79   -9.32 -146.57
   11.66   -9.28 -146.86   -1.32   -1.06   -1.32   -1.06   -9.28 -146.86
   11.72   -9.24 -147.31   -1.32   -1.03   -1.32   -1.03   -9.24 -147.31
   11.78   -9.36 -147.27   -1.38   -1.07   -1.38   -1.07   -9.36 -147.27
   11.84   -9.26 -148.35   -1.35   -0.92   -1.35   -0.92   -9.26 -148.35
   11.91   -9.44 -148.35   -1.43   -0.60   -1.43   -0.60   -9.44 -148.35
   11.97   -9.37 -148.56   -1.40   -0.98   -1.40   -0.98   -9.37 -148.56
   12.03   -9.48 -148.88   -1.42   -0.55   -1.42   -0.55   -9.48 -148.88
   12.09   -9.60 -149.31   -1.42   -0.72   -1.42   -0.72   -9.60 -149.31
   12.15   -9.65 -149.38   -1.43   -0.57   -1.43   -0.57   -9.65 -149.38
   12.21   -9.64 -149.67   -1.45   -0.58   -1.45   -0.58   -9.64 -149.67
   12.28   -9.86 -150.09   -1.45   -0.52   -1.45   -0.52   -9.86 -150.09
   12.34   -9.88 -150.91   -1.44   -0.56   -1.44   -0.56   -9.88 -150.91
   12.40  -10.04 -150.21   -1.46   -0.29   -1.46   -0.29  -10.04 -150.21
