!  American Technical Ceramics  Date:    3/13/98
!  One Norden Lane
!  Huntington Station,  NY.   11746-2102
!  Tel:  (516) 547-5700               Fax:  (516) 547-5748
!  Part Number  180r3r3c
!  Description: Porcelain, High Q, Low ESR
!  Application: Bypass, Coupling, Timing, Feedback
!               Tuning, Impedance Match, Blocking
# GHZ S DB R 50
! Freq   |S11|   S11 Ph  |S21|   S21 Ph  |S12|   S12 Ph  |S22|   S22 Ph
    0.05    0.04   -6.07  -20.23   86.08  -20.23   86.08    0.04   -6.07
    0.14   -0.29  -16.27  -11.68   74.19  -11.68   74.19   -0.29  -16.27
    0.23   -0.75  -25.75   -7.85   65.06   -7.85   65.06   -0.75  -25.75
    0.32   -1.36  -34.31   -5.59   57.06   -5.59   57.06   -1.36  -34.31
    0.41   -2.05  -41.30   -4.18   50.26   -4.18   50.26   -2.05  -41.30
    0.50   -2.75  -47.25   -3.22   44.57   -3.22   44.57   -2.75  -47.25
    0.59   -3.65  -52.94   -2.54   38.84   -2.54   38.84   -3.65  -52.94
    0.68   -4.32  -57.42   -2.09   34.95   -2.09   34.95   -4.32  -57.42
    0.77   -4.95  -60.99   -1.74   31.58   -1.74   31.58   -4.95  -60.99
    0.86   -5.54  -64.22   -1.50   28.63   -1.50   28.63   -5.54  -64.22
    0.95   -6.03  -66.98   -1.30   26.21   -1.30   26.21   -6.03  -66.98
    1.04   -6.51  -69.44   -1.17   24.02   -1.17   24.02   -6.51  -69.44
    1.13   -6.94  -71.68   -1.04   22.25   -1.04   22.25   -6.94  -71.68
    1.22   -7.32  -73.21   -0.95   20.66   -0.95   20.66   -7.32  -73.21
    1.31   -7.69  -74.99   -0.87   19.17   -0.87   19.17   -7.69  -74.99
    1.40   -8.01  -76.56   -0.78   17.93   -0.78   17.93   -8.01  -76.56
    1.49   -8.30  -78.19   -0.72   16.75   -0.72   16.75   -8.30  -78.19
    1.58   -8.56  -79.71   -0.67   15.78   -0.67   15.78   -8.56  -79.71
    1.67   -8.85  -80.83   -0.67   14.79   -0.67   14.79   -8.85  -80.83
    1.76   -9.06  -81.77   -0.61   13.87   -0.61   13.87   -9.06  -81.77
    1.85   -9.27  -83.16   -0.58   12.99   -0.58   12.99   -9.27  -83.16
    1.93   -9.50  -83.84   -0.58   12.34   -0.58   12.34   -9.50  -83.84
    2.02   -9.60  -84.82   -0.55   11.41   -0.55   11.41   -9.60  -84.82
    2.11   -9.76  -85.65   -0.54   10.88   -0.54   10.88   -9.76  -85.65
    2.20   -9.87  -86.47   -0.54   10.46   -0.54   10.46   -9.87  -86.47
    2.29  -10.01  -87.44   -0.52    9.74   -0.52    9.74  -10.01  -87.44
    2.38  -10.08  -88.01   -0.51    9.15   -0.51    9.15  -10.08  -88.01
    2.47  -10.18  -88.75   -0.47    8.66   -0.47    8.66  -10.18  -88.75
    2.56  -10.32  -89.04   -0.48    8.17   -0.48    8.17  -10.32  -89.04
    2.65  -10.38  -89.68   -0.46    7.89   -0.46    7.89  -10.38  -89.68
    2.74  -10.42  -90.36   -0.46    7.39   -0.46    7.39  -10.42  -90.36
    2.83  -10.55  -91.15   -0.46    6.95   -0.46    6.95  -10.55  -91.15
    2.92  -10.58  -92.30   -0.45    6.71   -0.45    6.71  -10.58  -92.30
    3.01  -10.66  -92.73   -0.47    6.00   -0.47    6.00  -10.66  -92.73
    3.10  -10.72  -93.79   -0.46    5.72   -0.46    5.72  -10.72  -93.79
    3.19  -10.76  -93.96   -0.52    5.23   -0.52    5.23  -10.76  -93.96
    3.28  -10.65  -95.11   -0.45    4.75   -0.45    4.75  -10.65  -95.11
    3.37  -10.70  -94.64   -0.53    4.54   -0.53    4.54  -10.70  -94.64
    3.46  -10.66  -95.76   -0.50    4.18   -0.50    4.18  -10.66  -95.76
    3.55  -10.60  -95.79   -0.50    3.83   -0.50    3.83  -10.60  -95.79
    3.64  -10.49  -96.81   -0.48    3.57   -0.48    3.57  -10.49  -96.81
    3.73  -10.55  -96.55   -0.53    3.07   -0.53    3.07  -10.55  -96.55
    3.82  -10.50  -97.77   -0.50    3.10   -0.50    3.10  -10.50  -97.77
    3.91  -10.46  -98.15   -0.56    2.78   -0.56    2.78  -10.46  -98.15
    4.00  -10.44 -100.31   -0.50    2.43   -0.50    2.43  -10.44 -100.31
    4.09  -10.43 -100.73   -0.54    2.31   -0.54    2.31  -10.43 -100.73
    4.18  -10.40 -102.08   -0.57    1.95   -0.57    1.95  -10.40 -102.08
    4.27  -10.21 -102.60   -0.55    1.88   -0.55    1.88  -10.21 -102.60
    4.36  -10.26 -103.01   -0.59    1.47   -0.59    1.47  -10.26 -103.01
    4.45  -10.14 -103.52   -0.59    1.32   -0.59    1.32  -10.14 -103.52
    4.54  -10.12 -104.05   -0.61    0.98   -0.61    0.98  -10.12 -104.05
    4.63   -9.96 -104.55   -0.59    0.92   -0.59    0.92   -9.96 -104.55
    4.72   -9.94 -103.62   -0.63    0.70   -0.63    0.70   -9.94 -103.62
    4.81   -9.86 -105.03   -0.65    0.50   -0.65    0.50   -9.86 -105.03
    4.90   -9.76 -104.60   -0.61    0.36   -0.61    0.36   -9.76 -104.60
    4.99   -9.68 -106.13   -0.60    0.26   -0.60    0.26   -9.68 -106.13
    5.08   -9.67 -105.31   -0.65    0.38   -0.65    0.38   -9.67 -105.31
    5.17   -9.71 -106.94   -0.64   -0.07   -0.64   -0.07   -9.71 -106.94
    5.26   -9.62 -107.10   -0.65    0.02   -0.65    0.02   -9.62 -107.10
    5.35   -9.49 -107.72   -0.64   -0.07   -0.64   -0.07   -9.49 -107.72
    5.44   -9.64 -107.20   -0.73   -0.14   -0.73   -0.14   -9.64 -107.20
    5.52   -9.51 -108.53   -0.68   -0.58   -0.68   -0.58   -9.51 -108.53
    5.61   -9.39 -108.39   -0.70   -0.41   -0.70   -0.41   -9.39 -108.39
    5.70   -9.34 -108.28   -0.70   -0.41   -0.70   -0.41   -9.34 -108.28
    5.79   -9.41 -108.64   -0.74   -0.83   -0.74   -0.83   -9.41 -108.64
    5.88   -9.23 -109.21   -0.69   -0.73   -0.69   -0.73   -9.23 -109.21
    5.97   -9.29 -109.01   -0.68   -0.79   -0.68   -0.79   -9.29 -109.01
    6.06   -9.34 -109.01   -0.72   -0.82   -0.72   -0.82   -9.34 -109.01
    6.15   -9.34 -110.16   -0.73   -0.97   -0.73   -0.97   -9.34 -110.16
    6.24   -9.30 -110.37   -0.72   -1.04   -0.72   -1.04   -9.30 -110.37
    6.33   -9.32 -110.50   -0.73   -0.83   -0.73   -0.83   -9.32 -110.50
    6.42   -9.43 -111.10   -0.77   -0.75   -0.77   -0.75   -9.43 -111.10
    6.51   -9.40 -111.92   -0.74   -1.13   -0.74   -1.13   -9.40 -111.92
    6.60   -9.46 -112.44   -0.76   -1.36   -0.76   -1.36   -9.46 -112.44
    6.69   -9.48 -111.99   -0.74   -1.32   -0.74   -1.32   -9.48 -111.99
    6.78   -9.51 -112.38   -0.81   -1.41   -0.81   -1.41   -9.51 -112.38
    6.87   -9.53 -111.87   -0.77   -1.54   -0.77   -1.54   -9.53 -111.87
    6.96   -9.54 -111.94   -0.79   -1.61   -0.79   -1.61   -9.54 -111.94
    7.05   -9.61 -111.72   -0.80   -1.34   -0.80   -1.34   -9.61 -111.72
    7.14   -9.60 -112.38   -0.79   -1.42   -0.79   -1.42   -9.60 -112.38
    7.23   -9.72 -112.53   -0.81   -1.63   -0.81   -1.63   -9.72 -112.53
    7.32   -9.70 -112.33   -0.82   -1.46   -0.82   -1.46   -9.70 -112.33
    7.41   -9.82 -112.90   -0.86   -1.55   -0.86   -1.55   -9.82 -112.90
    7.50   -9.76 -112.43   -0.84   -1.59   -0.84   -1.59   -9.76 -112.43
    7.59   -9.82 -112.91   -0.90   -1.75   -0.90   -1.75   -9.82 -112.91
    7.68   -9.89 -112.36   -0.83   -1.44   -0.83   -1.44   -9.89 -112.36
    7.77   -9.87 -113.21   -0.91   -1.31   -0.91   -1.31   -9.87 -113.21
    7.86   -9.93 -112.81   -0.85   -1.63   -0.85   -1.63   -9.93 -112.81
    7.95   -9.98 -113.05   -0.87   -1.59   -0.87   -1.59   -9.98 -113.05
    8.04  -10.03 -113.06   -0.82   -1.43   -0.82   -1.43  -10.03 -113.06
    8.13   -9.91 -113.45   -0.91   -1.65   -0.91   -1.65   -9.91 -113.45
    8.22   -9.95 -113.24   -0.86   -1.70   -0.86   -1.70   -9.95 -113.24
    8.31   -9.99 -113.58   -0.86   -1.77   -0.86   -1.77   -9.99 -113.58
    8.40   -9.98 -114.61   -0.87   -1.65   -0.87   -1.65   -9.98 -114.61
    8.49   -9.98 -114.34   -0.84   -1.94   -0.84   -1.94   -9.98 -114.34
    8.58  -10.15 -115.32   -0.85   -1.94   -0.85   -1.94  -10.15 -115.32
    8.67  -10.20 -116.09   -0.83   -2.01   -0.83   -2.01  -10.20 -116.09
    8.76  -10.19 -116.95   -0.89   -1.96   -0.89   -1.96  -10.19 -116.95
    8.85  -10.27 -117.08   -0.88   -2.46   -0.88   -2.46  -10.27 -117.08
    8.94  -10.32 -117.75   -0.87   -2.47   -0.87   -2.47  -10.32 -117.75
    9.03  -10.30 -118.44   -0.88   -2.47   -0.88   -2.47  -10.30 -118.44
    9.11  -10.29 -118.81   -0.91   -2.50   -0.91   -2.50  -10.29 -118.81
    9.20  -10.31 -119.90   -0.91   -2.91   -0.91   -2.91  -10.31 -119.90
    9.29  -10.29 -120.52   -0.90   -3.01   -0.90   -3.01  -10.29 -120.52
    9.38  -10.17 -121.26   -0.93   -2.81   -0.93   -2.81  -10.17 -121.26
    9.47  -10.18 -121.82   -0.96   -3.08   -0.96   -3.08  -10.18 -121.82
    9.56  -10.16 -123.06   -0.98   -3.26   -0.98   -3.26  -10.16 -123.06
    9.65  -10.11 -124.39   -0.93   -3.49   -0.93   -3.49  -10.11 -124.39
    9.74  -10.14 -126.08   -0.96   -3.18   -0.96   -3.18  -10.14 -126.08
    9.83  -10.05 -126.68   -0.97   -3.43   -0.97   -3.43  -10.05 -126.68
    9.92  -10.18 -128.89   -0.94   -3.93   -0.94   -3.93  -10.18 -128.89
   10.01  -10.02 -130.43   -0.99   -3.76   -0.99   -3.76  -10.02 -130.43
   10.10  -10.01 -131.61   -0.97   -3.84   -0.97   -3.84  -10.01 -131.61
   10.19   -9.91 -132.17   -1.03   -3.98   -1.03   -3.98   -9.91 -132.17
   10.28  -10.00 -133.98   -1.04   -4.48   -1.04   -4.48  -10.00 -133.98
   10.37   -9.83 -135.19   -1.01   -4.21   -1.01   -4.21   -9.83 -135.19
   10.46   -9.85 -135.58   -1.05   -4.44   -1.05   -4.44   -9.85 -135.58
   10.55   -9.88 -136.83   -1.07   -4.70   -1.07   -4.70   -9.88 -136.83
   10.64   -9.86 -138.11   -1.09   -4.94   -1.09   -4.94   -9.86 -138.11
   10.73   -9.82 -140.21   -1.06   -5.02   -1.06   -5.02   -9.82 -140.21
   10.82   -9.84 -139.60   -1.10   -4.72   -1.10   -4.72   -9.84 -139.60
   10.91   -9.90 -141.90   -1.12   -5.23   -1.12   -5.23   -9.90 -141.90
   11.00   -9.95 -142.08   -1.11   -5.18   -1.11   -5.18   -9.95 -142.08
   11.09   -9.85 -144.23   -1.10   -5.55   -1.10   -5.55   -9.85 -144.23
   11.18  -10.00 -143.62   -1.13   -5.40   -1.13   -5.40  -10.00 -143.62
   11.27   -9.98 -145.48   -1.16   -6.00   -1.16   -6.00   -9.98 -145.48
   11.36  -10.12 -145.96   -1.12   -6.23   -1.12   -6.23  -10.12 -145.96
   11.45  -10.10 -146.57   -1.14   -6.32   -1.14   -6.32  -10.10 -146.57
   11.54  -10.30 -147.10   -1.18   -6.61   -1.18   -6.61  -10.30 -147.10
   11.63  -10.28 -147.78   -1.17   -6.86   -1.17   -6.86  -10.28 -147.78
   11.72  -10.40 -149.09   -1.15   -7.44   -1.15   -7.44  -10.40 -149.09
   11.81  -10.61 -148.86   -1.20   -7.24   -1.20   -7.24  -10.61 -148.86
   11.90  -10.92 -150.95   -1.23   -8.08   -1.23   -8.08  -10.92 -150.95
   11.99  -11.15 -151.92   -1.21   -8.33   -1.21   -8.33  -11.15 -151.92
   12.08  -11.61 -153.60   -1.22   -9.22   -1.22   -9.22  -11.61 -153.60
   12.17  -12.25 -154.57   -1.23   -9.87   -1.23   -9.87  -12.25 -154.57
   12.26  -12.99 -156.54   -1.21  -11.35   -1.21  -11.35  -12.99 -156.54
   12.35  -14.39 -157.92   -1.23  -13.18   -1.23  -13.18  -14.39 -157.92
   12.44  -17.05 -157.87   -1.30  -15.92   -1.30  -15.92  -17.05 -157.87
   12.53  -23.74 -139.52   -1.58  -21.10   -1.58  -21.10  -23.74 -139.52
   12.62  -17.42  -44.79   -2.65  -29.30   -2.65  -29.30  -17.42  -44.79
   12.70   -7.89  -65.06   -6.52  -31.81   -6.52  -31.81   -7.89  -65.06
   12.79   -5.37  -96.77   -7.44    8.66   -7.44    8.66   -5.37  -96.77
   12.88   -5.74 -118.39   -4.32   13.60   -4.32   13.60   -5.74 -118.39
   12.97   -6.57 -127.86   -3.04   10.71   -3.04   10.71   -6.57 -127.86
   13.06   -7.13 -133.95   -2.46    8.38   -2.46    8.38   -7.13 -133.95
   13.15   -7.79 -137.87   -2.19    6.80   -2.19    6.80   -7.79 -137.87
   13.24   -8.15 -141.38   -1.99    5.30   -1.99    5.30   -8.15 -141.38
   13.33   -8.65 -143.58   -1.87    4.13   -1.87    4.13   -8.65 -143.58
   13.42   -9.04 -145.14   -1.73    3.79   -1.73    3.79   -9.04 -145.14
   13.51   -9.38 -147.50   -1.71    3.00   -1.71    3.00   -9.38 -147.50
   13.60   -9.77 -149.28   -1.58    2.37   -1.58    2.37   -9.77 -149.28
   13.69  -10.08 -149.84   -1.57    1.92   -1.57    1.92  -10.08 -149.84
   13.78  -10.52 -151.98   -1.48    1.50   -1.48    1.50  -10.52 -151.98
   13.87  -10.61 -152.47   -1.55    1.18   -1.55    1.18  -10.61 -152.47
   13.96  -11.03 -154.04   -1.53    0.96   -1.53    0.96  -11.03 -154.04
   14.05  -11.36 -154.74   -1.48    0.33   -1.48    0.33  -11.36 -154.74
   14.14  -11.69 -157.33   -1.47   -0.04   -1.47   -0.04  -11.69 -157.33
   14.23  -11.83 -157.88   -1.45   -0.35   -1.45   -0.35  -11.83 -157.88
   14.32  -12.13 -159.42   -1.46   -0.70   -1.46   -0.70  -12.13 -159.42
   14.41  -12.50 -161.27   -1.41   -1.04   -1.41   -1.04  -12.50 -161.27
   14.50  -12.78 -163.55   -1.41   -1.23   -1.41   -1.23  -12.78 -163.55
   14.59  -13.05 -165.63   -1.47   -1.49   -1.47   -1.49  -13.05 -165.63
   14.68  -13.44 -168.16   -1.46   -2.00   -1.46   -2.00  -13.44 -168.16
   14.77  -13.78 -169.94   -1.48   -2.07   -1.48   -2.07  -13.78 -169.94
   14.86  -13.98 -173.74   -1.49   -2.54   -1.49   -2.54  -13.98 -173.74
   14.95  -14.27 -175.14   -1.56   -2.34   -1.56   -2.34  -14.27 -175.14
   15.04  -14.65 -178.73   -1.57   -2.60   -1.57   -2.60  -14.65 -178.73
   15.13  -15.02 -179.84   -1.59   -2.45   -1.59   -2.45  -15.02 -179.84
   15.22  -15.20  174.72   -1.59   -2.86   -1.59   -2.86  -15.20  174.72
   15.31  -15.46  174.51   -1.59   -2.45   -1.59   -2.45  -15.46  174.51
   15.40  -15.84  169.83   -1.61   -2.82   -1.61   -2.82  -15.84  169.83
   15.49  -16.10  169.05   -1.60   -3.29   -1.60   -3.29  -16.10  169.05
   15.58  -16.11  165.78   -1.62   -3.31   -1.62   -3.31  -16.11  165.78
   15.67  -16.22  165.66   -1.64   -3.50   -1.64   -3.50  -16.22  165.66
   15.76  -16.30  162.34   -1.60   -3.66   -1.60   -3.66  -16.30  162.34
   15.85  -16.36  160.77   -1.70   -3.78   -1.70   -3.78  -16.36  160.77
   15.94  -16.36  158.55   -1.67   -3.83   -1.67   -3.83  -16.36  158.55
   16.03  -16.53  157.43   -1.70   -4.25   -1.70   -4.25  -16.53  157.43
   16.12  -16.44  155.29   -1.73   -4.21   -1.73   -4.21  -16.44  155.29
   16.21  -16.34  153.20   -1.71   -4.29   -1.71   -4.29  -16.34  153.20
   16.29  -16.07  152.43   -1.72   -4.45   -1.72   -4.45  -16.07  152.43
   16.38  -16.10  151.76   -1.74   -4.47   -1.74   -4.47  -16.10  151.76
   16.47  -15.88  149.08   -1.75   -5.09   -1.75   -5.09  -15.88  149.08
   16.56  -15.84  149.05   -1.73   -5.24   -1.73   -5.24  -15.84  149.05
   16.65  -15.52  147.06   -1.81   -5.42   -1.81   -5.42  -15.52  147.06
   16.74  -15.60  147.84   -1.90   -5.51   -1.90   -5.51  -15.60  147.84
   16.83  -15.15  143.00   -1.91   -6.08   -1.91   -6.08  -15.15  143.00
   16.92  -15.13  143.34   -1.95   -5.85   -1.95   -5.85  -15.13  143.34
   17.01  -14.69  138.78   -2.00   -6.46   -2.00   -6.46  -14.69  138.78
   17.10  -14.83  138.03   -2.07   -6.13   -2.07   -6.13  -14.83  138.03
   17.19  -14.48  133.16   -2.11   -6.40   -2.11   -6.40  -14.48  133.16
   17.28  -14.78  132.69   -2.18   -5.89   -2.18   -5.89  -14.78  132.69
   17.37  -14.88  129.80   -2.18   -5.73   -2.18   -5.73  -14.88  129.80
   17.46  -14.93  127.61   -2.21   -5.69   -2.21   -5.69  -14.93  127.61
   17.55  -15.11  124.17   -2.24   -5.60   -2.24   -5.60  -15.11  124.17
   17.64  -15.18  123.18   -2.29   -5.61   -2.29   -5.61  -15.18  123.18
   17.73  -15.64  121.48   -2.23   -5.24   -2.23   -5.24  -15.64  121.48
   17.82  -15.71  119.61   -2.17   -5.65   -2.17   -5.65  -15.71  119.61
   17.91  -15.92  117.49   -2.15   -5.94   -2.15   -5.94  -15.92  117.49
   18.00  -16.13  116.07   -2.18   -6.04   -2.18   -6.04  -16.13  116.07
