! This data is being provided by Wuerth Elektronik eiSos GmbH & Co. KG to the industry for analysis.
!
! Document information:
! Version:rev19a Date: 16/12/2019
!
! Component information:
! Match Code: WE-CNSW P/N: 744235251 Size: 1812
!------------------------------------------------------------------------------------------------------------------
! Disclaimer:  While Würth Elektronik eiSos has made every reasonable effort to ensure the accuracy
! of the information provided, Würth Elektronik eiSos does not guarantee the exemption of error on the
! data collection measurements, nor does Würth Elektronik eiSos guarantee that the information is current.
! Würth Elektronik eiSos reserves the right to make any adjustments at any time without notice.
! Würth Elektronik eiSos expressly disclaims all implied warranties regarding this measurement data collection.
!
! Note 1 – This data measurement is representative according to the product implementation into the fixture.
! Component behavior is sensitive to implementation into the fixture, which includes board
! materials, trace geometry information, connector pin out, layer connection, use of de-embedding
! techniques, etc.
!
! Note 2 - The fixture was designed specifically to match the 50 Ohm line impedance, as well as the connector impedance,
! in order to accomplish a reliable measurement without reflections in the trace. Any other implementation of the fixture will change the obtained
! measurement performance. The used fixture behavior was de-embedded to accomplish reliable measurement results.
!
!------------------------------------------------------------------------------------------------------------------
!
! The test setup consisted of the following:
!   - Agilent VNA E5071C or E5071B
!   - Calibrations are SOLT (short open load thru)
!   - De-embedding of the SMA's or line cards were included
!   - Equipment Settings -
!            - Sampling - 501 points
!            - IF BW – 70 kHz
!            - Averaging – Not used
!
!
!
!             Port 1----->|1|        |2| -----> Port 3
!                            |   DUT  |
!             Port 2----->|3|        |4| -----> Port 4
!
!
!*VNA Port --> |Port in Datasheet|
! |Port in Datasheet| --> VNA Port
!
!
! For further information regarding this testing, please contact
! Wuerth Elektronik eiSos
! Contact: EDA team in QDC
! Email: libraries@we-online.com or libraries@we-online.de
!
!
# Hz S dB R 50
300000	-5.874078e+000	6.004234e+000	-6.098273e+000	-6.302944e+000	-6.299634e+000	5.958914e+000	-6.311494e+000	-1.741920e+002
	-6.079517e+000	-6.192654e+000	-5.855013e+000	5.809418e+000	-6.333135e+000	-1.742760e+002	-6.338524e+000	6.029319e+000
	-6.369764e+000	5.698620e+000	-6.333541e+000	-1.744356e+002	-5.901078e+000	6.328778e+000	-6.094427e+000	-6.586755e+000
	-6.337263e+000	-1.742661e+002	-6.335667e+000	6.168064e+000	-6.101186e+000	-6.333834e+000	-5.875589e+000	6.028609e+000
307335	-5.868880e+000	5.712321e+000	-6.115255e+000	-6.022205e+000	-6.298399e+000	5.815402e+000	-6.346904e+000	-1.743201e+002
	-6.141290e+000	-6.084276e+000	-5.872267e+000	5.668546e+000	-6.325932e+000	-1.744284e+002	-6.333129e+000	6.083500e+000
	-6.356702e+000	5.833235e+000	-6.350527e+000	-1.742558e+002	-5.888356e+000	6.029058e+000	-6.113929e+000	-6.156274e+000
	-6.362423e+000	-1.741356e+002	-6.393778e+000	5.929528e+000	-6.104302e+000	-6.229407e+000	-5.889463e+000	5.678448e+000
314670	-5.844253e+000	5.499099e+000	-6.123063e+000	-6.032490e+000	-6.335050e+000	5.591650e+000	-6.339321e+000	-1.743003e+002
	-6.132954e+000	-5.775561e+000	-5.856877e+000	5.578994e+000	-6.328453e+000	-1.744618e+002	-6.334289e+000	5.936794e+000
	-6.312183e+000	5.844350e+000	-6.333532e+000	-1.744723e+002	-5.887485e+000	5.709660e+000	-6.135851e+000	-5.816806e+000
	-6.327047e+000	-1.743504e+002	-6.359615e+000	5.714181e+000	-6.121507e+000	-6.178867e+000	-5.875873e+000	5.519663e+000
322004	-5.848990e+000	5.456755e+000	-6.152186e+000	-5.808225e+000	-6.314660e+000	5.519681e+000	-6.295300e+000	-1.744666e+002
	-6.151666e+000	-5.846675e+000	-5.864483e+000	5.381051e+000	-6.332071e+000	-1.744697e+002	-6.305291e+000	5.656169e+000
	-6.365517e+000	5.764825e+000	-6.340726e+000	-1.744550e+002	-5.898116e+000	5.488062e+000	-6.096417e+000	-5.755115e+000
	-6.329666e+000	-1.745997e+002	-6.318403e+000	5.661173e+000	-6.096252e+000	-5.999942e+000	-5.910895e+000	5.456983e+000
329339	-5.842299e+000	5.265044e+000	-6.101632e+000	-5.600137e+000	-6.328018e+000	5.522234e+000	-6.321869e+000	-1.745851e+002
	-6.123542e+000	-5.959992e+000	-5.856686e+000	5.319164e+000	-6.312263e+000	-1.745090e+002	-6.311038e+000	5.557881e+000
	-6.363177e+000	5.466834e+000	-6.333612e+000	-1.745236e+002	-5.846273e+000	5.316819e+000	-6.100203e+000	-5.790017e+000
	-6.343033e+000	-1.744742e+002	-6.348053e+000	5.798379e+000	-6.133394e+000	-5.649153e+000	-5.883590e+000	5.240057e+000
336674	-5.869193e+000	5.326430e+000	-6.165104e+000	-5.636867e+000	-6.283159e+000	5.671113e+000	-6.295258e+000	-1.749581e+002
	-6.135726e+000	-5.542025e+000	-5.838448e+000	5.220847e+000	-6.329674e+000	-1.748794e+002	-6.303484e+000	5.584607e+000
	-6.328993e+000	5.082486e+000	-6.326281e+000	-1.746450e+002	-5.887576e+000	5.279117e+000	-6.137698e+000	-5.660272e+000
	-6.324206e+000	-1.748160e+002	-6.339841e+000	5.320368e+000	-6.138437e+000	-5.740408e+000	-5.866257e+000	5.091002e+000
344009	-5.839139e+000	5.139082e+000	-6.129844e+000	-5.301624e+000	-6.320769e+000	5.131940e+000	-6.294868e+000	-1.750876e+002
	-6.153952e+000	-5.632791e+000	-5.842322e+000	5.011027e+000	-6.314840e+000	-1.749428e+002	-6.335991e+000	5.268327e+000
	-6.309368e+000	5.105377e+000	-6.344585e+000	-1.749487e+002	-5.850397e+000	5.299283e+000	-6.154705e+000	-5.378902e+000
	-6.346785e+000	-1.749361e+002	-6.306590e+000	5.260242e+000	-6.128250e+000	-5.685856e+000	-5.848932e+000	5.196606e+000
351344	-5.838159e+000	4.951772e+000	-6.148195e+000	-5.482514e+000	-6.283187e+000	5.071379e+000	-6.302738e+000	-1.751352e+002
	-6.121322e+000	-5.470790e+000	-5.852167e+000	5.016002e+000	-6.299723e+000	-1.752321e+002	-6.298829e+000	5.315987e+000
	-6.305984e+000	5.029796e+000	-6.333260e+000	-1.750898e+002	-5.872518e+000	5.153637e+000	-6.117632e+000	-5.498666e+000
	-6.315211e+000	-1.749354e+002	-6.328240e+000	5.118646e+000	-6.133782e+000	-5.372493e+000	-5.897566e+000	4.945774e+000
358679	-5.827567e+000	4.891806e+000	-6.135746e+000	-5.314524e+000	-6.299147e+000	5.042620e+000	-6.286148e+000	-1.752411e+002
	-6.160018e+000	-5.391887e+000	-5.879988e+000	4.722909e+000	-6.317681e+000	-1.752770e+002	-6.307871e+000	5.138933e+000
	-6.314254e+000	5.035770e+000	-6.278689e+000	-1.750433e+002	-5.866873e+000	5.030572e+000	-6.127835e+000	-5.477423e+000
	-6.331943e+000	-1.751829e+002	-6.313668e+000	5.134402e+000	-6.133845e+000	-5.401219e+000	-5.871419e+000	5.019756e+000
366013	-5.837370e+000	4.587605e+000	-6.125909e+000	-5.213653e+000	-6.274734e+000	4.870898e+000	-6.297268e+000	-1.753141e+002
	-6.174352e+000	-5.291789e+000	-5.863134e+000	4.776087e+000	-6.290779e+000	-1.754155e+002	-6.326689e+000	5.143538e+000
	-6.278362e+000	5.121845e+000	-6.319422e+000	-1.751951e+002	-5.882723e+000	4.990574e+000	-6.133931e+000	-5.161402e+000
	-6.314968e+000	-1.750150e+002	-6.317867e+000	4.962354e+000	-6.132902e+000	-5.265044e+000	-5.871844e+000	4.804154e+000
373348	-5.816003e+000	4.553358e+000	-6.172555e+000	-5.180713e+000	-6.303724e+000	4.830187e+000	-6.308501e+000	-1.752256e+002
	-6.184641e+000	-5.114583e+000	-5.853142e+000	4.605442e+000	-6.317063e+000	-1.751842e+002	-6.306877e+000	4.927697e+000
	-6.349959e+000	4.818831e+000	-6.330085e+000	-1.752600e+002	-5.859969e+000	4.805151e+000	-6.151562e+000	-5.263920e+000
	-6.329254e+000	-1.751644e+002	-6.305478e+000	4.700763e+000	-6.154503e+000	-5.156281e+000	-5.864986e+000	4.638745e+000
380683	-5.829471e+000	4.599138e+000	-6.180853e+000	-4.886246e+000	-6.313766e+000	4.788378e+000	-6.325594e+000	-1.755625e+002
	-6.161145e+000	-5.285871e+000	-5.853297e+000	4.526323e+000	-6.277254e+000	-1.753301e+002	-6.304067e+000	4.898024e+000
	-6.346852e+000	4.535136e+000	-6.307003e+000	-1.751672e+002	-5.863281e+000	4.740212e+000	-6.137678e+000	-5.062801e+000
	-6.331978e+000	-1.754082e+002	-6.340841e+000	4.862896e+000	-6.122181e+000	-5.041814e+000	-5.861968e+000	4.701297e+000
388018	-5.834287e+000	4.511787e+000	-6.187204e+000	-4.860707e+000	-6.307623e+000	4.706639e+000	-6.297453e+000	-1.754723e+002
	-6.175774e+000	-5.004125e+000	-5.851525e+000	4.442040e+000	-6.288661e+000	-1.756113e+002	-6.287601e+000	4.789477e+000
	-6.322894e+000	4.502340e+000	-6.324823e+000	-1.755699e+002	-5.876561e+000	4.718201e+000	-6.142069e+000	-5.067717e+000
	-6.351599e+000	-1.756915e+002	-6.307402e+000	4.646041e+000	-6.153231e+000	-4.777063e+000	-5.870031e+000	4.597030e+000
395353	-5.833025e+000	4.343992e+000	-6.178434e+000	-4.736551e+000	-6.291539e+000	4.638810e+000	-6.287257e+000	-1.757104e+002
	-6.174973e+000	-4.815658e+000	-5.846282e+000	4.425336e+000	-6.309121e+000	-1.757830e+002	-6.315573e+000	4.462228e+000
	-6.289219e+000	4.653569e+000	-6.327775e+000	-1.756902e+002	-5.862581e+000	4.604610e+000	-6.160200e+000	-5.037544e+000
	-6.304284e+000	-1.754681e+002	-6.306857e+000	4.609328e+000	-6.152624e+000	-4.937479e+000	-5.873900e+000	4.597126e+000
402688	-5.847623e+000	4.258394e+000	-6.170910e+000	-4.762167e+000	-6.290776e+000	4.412719e+000	-6.322630e+000	-1.756840e+002
	-6.160390e+000	-4.674349e+000	-5.831051e+000	4.328116e+000	-6.297498e+000	-1.757290e+002	-6.320190e+000	4.576471e+000
	-6.297484e+000	4.471778e+000	-6.305565e+000	-1.757463e+002	-5.870620e+000	4.407856e+000	-6.151956e+000	-4.911143e+000
	-6.329760e+000	-1.757889e+002	-6.323016e+000	4.351977e+000	-6.141881e+000	-4.761542e+000	-5.866148e+000	4.436799e+000
410022	-5.834855e+000	4.220890e+000	-6.185889e+000	-4.769653e+000	-6.334536e+000	4.344289e+000	-6.318590e+000	-1.758048e+002
	-6.203116e+000	-4.704823e+000	-5.821179e+000	4.070823e+000	-6.353857e+000	-1.758703e+002	-6.296203e+000	4.403483e+000
	-6.324064e+000	4.319102e+000	-6.310858e+000	-1.757206e+002	-5.844632e+000	4.312351e+000	-6.182427e+000	-4.831790e+000
	-6.325657e+000	-1.757584e+002	-6.311551e+000	4.513351e+000	-6.183485e+000	-4.678402e+000	-5.857639e+000	4.377754e+000
418652	-5.836220e+000	4.203406e+000	-6.188487e+000	-4.731976e+000	-6.298472e+000	4.366109e+000	-6.291927e+000	-1.759944e+002
	-6.181489e+000	-4.664997e+000	-5.819627e+000	4.014670e+000	-6.309624e+000	-1.758925e+002	-6.294097e+000	4.472871e+000
	-6.317740e+000	4.230278e+000	-6.357031e+000	-1.758286e+002	-5.849873e+000	4.224483e+000	-6.152136e+000	-4.655399e+000
	-6.316927e+000	-1.758835e+002	-6.304313e+000	4.450867e+000	-6.145284e+000	-4.599903e+000	-5.865392e+000	4.277200e+000
428777	-5.814649e+000	4.036371e+000	-6.198061e+000	-4.627465e+000	-6.304186e+000	4.136646e+000	-6.315900e+000	-1.760385e+002
	-6.233251e+000	-4.503567e+000	-5.840882e+000	4.006390e+000	-6.292578e+000	-1.760316e+002	-6.342841e+000	4.094966e+000
	-6.313449e+000	4.185584e+000	-6.311540e+000	-1.757358e+002	-5.853261e+000	4.104976e+000	-6.175097e+000	-4.743868e+000
	-6.301102e+000	-1.760847e+002	-6.308917e+000	4.304027e+000	-6.176343e+000	-4.550954e+000	-5.842534e+000	4.240844e+000
438901	-5.794151e+000	3.809304e+000	-6.180590e+000	-4.370385e+000	-6.283031e+000	4.200635e+000	-6.315585e+000	-1.761589e+002
	-6.195415e+000	-4.467146e+000	-5.820876e+000	3.850852e+000	-6.310896e+000	-1.759427e+002	-6.290589e+000	4.128917e+000
	-6.326536e+000	4.114090e+000	-6.357982e+000	-1.761097e+002	-5.873319e+000	4.052080e+000	-6.189933e+000	-4.508539e+000
	-6.360191e+000	-1.760249e+002	-6.317027e+000	4.245916e+000	-6.172926e+000	-4.538689e+000	-5.847943e+000	4.058731e+000
449026	-5.787510e+000	3.832081e+000	-6.226938e+000	-4.504317e+000	-6.303337e+000	3.918661e+000	-6.300204e+000	-1.762703e+002
	-6.203109e+000	-4.448235e+000	-5.833929e+000	3.767572e+000	-6.291131e+000	-1.760072e+002	-6.321861e+000	4.090581e+000
	-6.305260e+000	4.080990e+000	-6.312387e+000	-1.760864e+002	-5.842588e+000	4.217324e+000	-6.169474e+000	-4.395123e+000
	-6.312398e+000	-1.761847e+002	-6.356454e+000	4.118334e+000	-6.188905e+000	-4.477694e+000	-5.855865e+000	3.945640e+000
459150	-5.804854e+000	3.717434e+000	-6.185130e+000	-4.212538e+000	-6.301576e+000	3.810511e+000	-6.298731e+000	-1.763349e+002
	-6.217847e+000	-4.251984e+000	-5.848319e+000	3.797239e+000	-6.304249e+000	-1.764222e+002	-6.286162e+000	4.081997e+000
	-6.316937e+000	3.882403e+000	-6.297369e+000	-1.763015e+002	-5.843321e+000	3.986094e+000	-6.180245e+000	-4.493557e+000
	-6.322993e+000	-1.761286e+002	-6.302384e+000	3.942576e+000	-6.173009e+000	-4.253514e+000	-5.841626e+000	3.741790e+000
469275	-5.811457e+000	3.593167e+000	-6.168619e+000	-4.209302e+000	-6.284010e+000	3.824310e+000	-6.287398e+000	-1.764300e+002
	-6.219184e+000	-4.239852e+000	-5.830948e+000	3.556678e+000	-6.286477e+000	-1.763764e+002	-6.303608e+000	4.098515e+000
	-6.326749e+000	3.951287e+000	-6.309551e+000	-1.765005e+002	-5.856223e+000	3.736011e+000	-6.184817e+000	-4.438332e+000
	-6.311077e+000	-1.764597e+002	-6.298462e+000	4.019823e+000	-6.149069e+000	-4.349470e+000	-5.849020e+000	3.685564e+000
479399	-5.803346e+000	3.593818e+000	-6.194272e+000	-4.179126e+000	-6.289094e+000	3.715230e+000	-6.288446e+000	-1.763078e+002
	-6.207871e+000	-4.034424e+000	-5.827240e+000	3.422900e+000	-6.290142e+000	-1.763457e+002	-6.282855e+000	4.093960e+000
	-6.332956e+000	3.580852e+000	-6.305363e+000	-1.765109e+002	-5.847859e+000	3.787783e+000	-6.173700e+000	-4.117572e+000
	-6.327485e+000	-1.764103e+002	-6.303000e+000	3.958170e+000	-6.175441e+000	-4.240427e+000	-5.852036e+000	3.668844e+000
489523	-5.804334e+000	3.334209e+000	-6.204402e+000	-4.060919e+000	-6.284638e+000	3.626214e+000	-6.279027e+000	-1.766306e+002
	-6.192106e+000	-3.915995e+000	-5.821133e+000	3.323795e+000	-6.289382e+000	-1.765689e+002	-6.308544e+000	3.869335e+000
	-6.322857e+000	3.711415e+000	-6.312731e+000	-1.764899e+002	-5.849281e+000	3.689771e+000	-6.171170e+000	-4.109828e+000
	-6.299342e+000	-1.766323e+002	-6.302271e+000	3.628515e+000	-6.185312e+000	-4.100864e+000	-5.828842e+000	3.638382e+000
499648	-5.801205e+000	3.411542e+000	-6.202605e+000	-4.115693e+000	-6.323606e+000	3.561719e+000	-6.279078e+000	-1.767447e+002
	-6.196510e+000	-4.013459e+000	-5.798552e+000	3.546130e+000	-6.311280e+000	-1.766796e+002	-6.320329e+000	3.693687e+000
	-6.262846e+000	3.519446e+000	-6.329448e+000	-1.767739e+002	-5.839312e+000	3.479204e+000	-6.204491e+000	-4.089437e+000
	-6.325467e+000	-1.767424e+002	-6.311635e+000	3.779335e+000	-6.171998e+000	-3.812458e+000	-5.841089e+000	3.431495e+000
509772	-5.821346e+000	3.279721e+000	-6.224864e+000	-3.804387e+000	-6.316786e+000	3.551480e+000	-6.264749e+000	-1.767090e+002
	-6.198309e+000	-3.796082e+000	-5.800083e+000	3.262422e+000	-6.330466e+000	-1.768119e+002	-6.303332e+000	3.658870e+000
	-6.320129e+000	3.508712e+000	-6.307454e+000	-1.767868e+002	-5.814600e+000	3.539399e+000	-6.175363e+000	-4.052630e+000
	-6.308991e+000	-1.765179e+002	-6.316258e+000	3.638628e+000	-6.218619e+000	-3.904431e+000	-5.837857e+000	3.362299e+000
519897	-5.783293e+000	3.261525e+000	-6.192342e+000	-3.720820e+000	-6.302909e+000	3.599553e+000	-6.278831e+000	-1.769991e+002
	-6.209693e+000	-3.746490e+000	-5.809523e+000	3.292496e+000	-6.309849e+000	-1.767607e+002	-6.299499e+000	3.476457e+000
	-6.337686e+000	3.586736e+000	-6.322224e+000	-1.767185e+002	-5.850348e+000	3.459603e+000	-6.188734e+000	-3.900507e+000
	-6.314454e+000	-1.767082e+002	-6.288091e+000	3.473928e+000	-6.182845e+000	-4.086642e+000	-5.828341e+000	3.447964e+000
530021	-5.805954e+000	3.244307e+000	-6.197604e+000	-3.674875e+000	-6.334725e+000	3.370833e+000	-6.294970e+000	-1.768909e+002
	-6.205946e+000	-3.880368e+000	-5.811104e+000	3.243395e+000	-6.315104e+000	-1.768717e+002	-6.313549e+000	3.461362e+000
	-6.293458e+000	3.278397e+000	-6.283283e+000	-1.770198e+002	-5.829917e+000	3.322595e+000	-6.229029e+000	-3.846117e+000
	-6.315921e+000	-1.770433e+002	-6.310864e+000	3.597970e+000	-6.222712e+000	-3.845195e+000	-5.835809e+000	3.396187e+000
540146	-5.806452e+000	3.071287e+000	-6.246627e+000	-3.908161e+000	-6.308673e+000	3.209933e+000	-6.302998e+000	-1.769278e+002
	-6.245548e+000	-3.545569e+000	-5.797496e+000	3.132895e+000	-6.316384e+000	-1.767141e+002	-6.277210e+000	3.553942e+000
	-6.299757e+000	3.407238e+000	-6.310452e+000	-1.768591e+002	-5.836439e+000	3.220531e+000	-6.209961e+000	-3.815161e+000
	-6.301321e+000	-1.768121e+002	-6.282528e+000	3.251511e+000	-6.208984e+000	-3.922732e+000	-5.834992e+000	3.260825e+000
550270	-5.771369e+000	3.093347e+000	-6.211084e+000	-3.746308e+000	-6.310283e+000	3.301952e+000	-6.279467e+000	-1.771086e+002
	-6.214941e+000	-3.433462e+000	-5.830321e+000	3.059960e+000	-6.280192e+000	-1.770984e+002	-6.284846e+000	3.269598e+000
	-6.324123e+000	3.186326e+000	-6.330843e+000	-1.770308e+002	-5.834950e+000	3.153727e+000	-6.202540e+000	-3.695744e+000
	-6.314910e+000	-1.770399e+002	-6.312029e+000	3.326670e+000	-6.191252e+000	-3.673750e+000	-5.840653e+000	3.127677e+000
560395	-5.774502e+000	3.032699e+000	-6.229669e+000	-3.667348e+000	-6.280652e+000	3.054089e+000	-6.277689e+000	-1.770968e+002
	-6.195677e+000	-3.776088e+000	-5.818808e+000	3.144257e+000	-6.307972e+000	-1.773405e+002	-6.300458e+000	3.152374e+000
	-6.327177e+000	3.136346e+000	-6.323982e+000	-1.772522e+002	-5.836393e+000	3.118764e+000	-6.212774e+000	-3.536680e+000
	-6.349336e+000	-1.771595e+002	-6.309793e+000	3.255649e+000	-6.194667e+000	-3.521998e+000	-5.833143e+000	3.196345e+000
572189	-5.813785e+000	2.806045e+000	-6.205799e+000	-3.477365e+000	-6.275862e+000	2.953240e+000	-6.326244e+000	-1.772692e+002
	-6.202816e+000	-3.685977e+000	-5.785299e+000	2.971863e+000	-6.287100e+000	-1.770628e+002	-6.283656e+000	3.123491e+000
	-6.316376e+000	3.027232e+000	-6.315818e+000	-1.773590e+002	-5.829030e+000	3.132098e+000	-6.223074e+000	-3.435553e+000
	-6.310237e+000	-1.773029e+002	-6.287693e+000	2.995975e+000	-6.206417e+000	-3.600949e+000	-5.820557e+000	2.996021e+000
586179	-5.786076e+000	2.877620e+000	-6.217199e+000	-3.447053e+000	-6.303142e+000	2.861661e+000	-6.287617e+000	-1.773401e+002
	-6.225345e+000	-3.399553e+000	-5.805366e+000	2.936819e+000	-6.311858e+000	-1.772754e+002	-6.292470e+000	3.007361e+000
	-6.310289e+000	3.017729e+000	-6.309555e+000	-1.776055e+002	-5.840519e+000	2.931407e+000	-6.242157e+000	-3.642072e+000
	-6.332673e+000	-1.772934e+002	-6.308724e+000	3.011001e+000	-6.196767e+000	-3.460785e+000	-5.822650e+000	2.979791e+000
600169	-5.795915e+000	2.797254e+000	-6.197861e+000	-3.309461e+000	-6.313466e+000	2.991456e+000	-6.302756e+000	-1.773688e+002
	-6.197672e+000	-3.381488e+000	-5.811361e+000	2.845276e+000	-6.326344e+000	-1.774398e+002	-6.314767e+000	3.005961e+000
	-6.307205e+000	2.931141e+000	-6.318161e+000	-1.773670e+002	-5.821405e+000	2.808007e+000	-6.218610e+000	-3.279216e+000
	-6.299965e+000	-1.773910e+002	-6.306013e+000	2.969107e+000	-6.223032e+000	-3.433505e+000	-5.826478e+000	2.845654e+000
614158	-5.785050e+000	2.754061e+000	-6.243973e+000	-3.363987e+000	-6.276924e+000	2.741429e+000	-6.288772e+000	-1.775583e+002
	-6.203338e+000	-3.318691e+000	-5.799640e+000	2.558901e+000	-6.307302e+000	-1.774188e+002	-6.320435e+000	3.005103e+000
	-6.320736e+000	3.041733e+000	-6.323365e+000	-1.774813e+002	-5.831823e+000	2.888987e+000	-6.193671e+000	-3.389937e+000
	-6.326213e+000	-1.774677e+002	-6.293167e+000	2.946682e+000	-6.187242e+000	-3.492277e+000	-5.835264e+000	2.718050e+000
628148	-5.802501e+000	2.563598e+000	-6.254370e+000	-3.359583e+000	-6.294717e+000	2.908450e+000	-6.279075e+000	-1.776508e+002
	-6.221658e+000	-3.272866e+000	-5.790545e+000	2.685791e+000	-6.332328e+000	-1.774784e+002	-6.246774e+000	2.774577e+000
	-6.295537e+000	3.013594e+000	-6.302964e+000	-1.777007e+002	-5.826063e+000	2.684767e+000	-6.202868e+000	-3.437665e+000
	-6.313043e+000	-1.775077e+002	-6.304293e+000	2.828647e+000	-6.220514e+000	-3.346557e+000	-5.848116e+000	2.817025e+000
642138	-5.782424e+000	2.511019e+000	-6.246684e+000	-3.009834e+000	-6.303966e+000	2.710605e+000	-6.336419e+000	-1.775814e+002
