! This data is being provided by Wuerth Elektronik eiSos GmbH & Co. KG to the industry for analysis.
!
! Document information:
! Version:rev19a Date: 16/12/2019
!
! Component information:
! Match Code: WE-CNSW P/N: 744235801 Size: 1812
!------------------------------------------------------------------------------------------------------------------
! Disclaimer:  While Würth Elektronik eiSos has made every reasonable effort to ensure the accuracy
! of the information provided, Würth Elektronik eiSos does not guarantee the exemption of error on the
! data collection measurements, nor does Würth Elektronik eiSos guarantee that the information is current.
! Würth Elektronik eiSos reserves the right to make any adjustments at any time without notice.
! Würth Elektronik eiSos expressly disclaims all implied warranties regarding this measurement data collection.
!
! Note 1 – This data measurement is representative according to the product implementation into the fixture.
! Component behavior is sensitive to implementation into the fixture, which includes board
! materials, trace geometry information, connector pin out, layer connection, use of de-embedding
! techniques, etc.
!
! Note 2 - The fixture was designed specifically to match the 50 Ohm line impedance, as well as the connector impedance,
! in order to accomplish a reliable measurement without reflections in the trace. Any other implementation of the fixture will change the obtained
! measurement performance. The used fixture behavior was de-embedded to accomplish reliable measurement results.
!
!------------------------------------------------------------------------------------------------------------------
!
! The test setup consisted of the following:
!   - Agilent VNA E5071C or E5071B
!   - Calibrations are SOLT (short open load thru)
!   - De-embedding of the SMA's or line cards were included
!   - Equipment Settings -
!            - Sampling - 501 points
!            - IF BW – 70 kHz
!            - Averaging – Not used
!
!
!
!             Port 1----->|1|        |2| -----> Port 3
!                            |   DUT  |
!             Port 2----->|3|        |4| -----> Port 4
!
!
!*VNA Port --> |Port in Datasheet|
! |Port in Datasheet| --> VNA Port
!
!
! For further information regarding this testing, please contact
! Wuerth Elektronik eiSos
! Contact: EDA team in QDC
! Email: libraries@we-online.com or libraries@we-online.de
!
!
# Hz S dB R 50
300000	-2.994654e+001	8.056015e+001	-7.235548e-002	-1.482677e+000	-3.138223e+001	8.461549e+001	-3.156265e+001	-9.401991e+001
	-6.974002e-002	-1.751396e+000	-3.109909e+001	7.909321e+001	-3.093143e+001	-9.355528e+001	-3.144142e+001	8.732120e+001
	-3.116628e+001	8.518928e+001	-3.191722e+001	-9.345787e+001	-3.036423e+001	9.287348e+001	-4.980140e-002	-1.521046e+000
	-3.177802e+001	-9.444978e+001	-3.161861e+001	8.653679e+001	-1.551345e-002	-1.581243e+000	-3.192491e+001	8.242688e+001
307335	-3.033358e+001	7.862584e+001	-6.045586e-002	-1.490685e+000	-3.149700e+001	8.375443e+001	-3.148409e+001	-9.563818e+001
	-7.946589e-002	-1.531474e+000	-3.063365e+001	7.560486e+001	-3.103403e+001	-9.678173e+001	-3.110732e+001	8.766674e+001
	-3.130482e+001	8.490846e+001	-3.118815e+001	-9.710649e+001	-2.957007e+001	8.942965e+001	-4.735595e-002	-1.657745e+000
	-3.117911e+001	-9.252877e+001	-3.071085e+001	8.687494e+001	-3.084137e-002	-1.639762e+000	-3.120258e+001	8.525644e+001
314670	-3.030978e+001	7.965642e+001	-6.278697e-002	-1.607913e+000	-3.049147e+001	8.729969e+001	-3.121171e+001	-9.410516e+001
	-7.026135e-002	-1.744535e+000	-3.079911e+001	7.251678e+001	-3.085254e+001	-9.356341e+001	-3.027807e+001	8.712220e+001
	-3.081307e+001	8.368457e+001	-3.082134e+001	-9.623465e+001	-3.050140e+001	8.740672e+001	-5.580758e-002	-1.507665e+000
	-3.137403e+001	-9.592751e+001	-3.073990e+001	8.602576e+001	-3.337535e-002	-1.581032e+000	-3.137422e+001	8.417142e+001
322004	-3.055574e+001	7.797920e+001	-8.679418e-002	-1.738977e+000	-3.066536e+001	8.452491e+001	-3.071104e+001	-9.331373e+001
	-7.343907e-002	-1.599626e+000	-3.079437e+001	7.794080e+001	-3.065097e+001	-9.551635e+001	-3.042719e+001	8.551183e+001
	-3.052985e+001	8.461000e+001	-3.039838e+001	-9.421083e+001	-3.013711e+001	8.640185e+001	-3.627889e-002	-1.845631e+000
	-3.125789e+001	-9.601205e+001	-3.067285e+001	8.475448e+001	-3.939121e-002	-1.734454e+000	-3.059923e+001	8.723523e+001
329339	-3.074803e+001	7.730207e+001	-5.833372e-002	-1.579802e+000	-3.040049e+001	8.451357e+001	-3.003087e+001	-9.725496e+001
	-8.529436e-002	-1.725217e+000	-3.130218e+001	7.408340e+001	-3.023460e+001	-9.406607e+001	-2.994765e+001	8.559661e+001
	-3.039382e+001	8.601115e+001	-3.087148e+001	-9.314826e+001	-3.069931e+001	8.677810e+001	-1.298585e-002	-1.659478e+000
	-3.060108e+001	-9.583045e+001	-3.063308e+001	8.468603e+001	-4.927062e-002	-1.645123e+000	-3.086538e+001	8.927686e+001
336674	-2.890528e+001	8.017015e+001	-7.550887e-002	-1.737165e+000	-3.016610e+001	8.473155e+001	-3.085148e+001	-9.468435e+001
	-6.003892e-002	-1.703346e+000	-3.001273e+001	7.849638e+001	-3.070367e+001	-9.267289e+001	-3.001688e+001	8.565342e+001
	-3.026813e+001	8.480058e+001	-3.043379e+001	-9.575462e+001	-3.045367e+001	8.576458e+001	-4.302819e-002	-1.786222e+000
	-3.035463e+001	-9.618655e+001	-2.995743e+001	8.520948e+001	-3.620480e-002	-1.783069e+000	-3.079469e+001	8.740313e+001
344009	-2.909621e+001	7.725417e+001	-5.058408e-002	-1.750435e+000	-3.013882e+001	8.329775e+001	-3.026494e+001	-9.513577e+001
	-6.562656e-002	-2.137192e+000	-2.968031e+001	7.940152e+001	-3.002229e+001	-9.589786e+001	-3.005778e+001	8.520783e+001
	-3.026630e+001	8.714409e+001	-3.000909e+001	-9.449550e+001	-2.928733e+001	8.846584e+001	-6.140857e-002	-1.753201e+000
	-3.048115e+001	-9.373102e+001	-3.021846e+001	8.337195e+001	-5.095516e-002	-1.932554e+000	-2.990393e+001	8.395753e+001
351344	-2.937870e+001	7.917338e+001	-5.430044e-002	-2.007544e+000	-2.962716e+001	8.673105e+001	-2.991748e+001	-9.282468e+001
	-4.496307e-002	-1.991908e+000	-2.925025e+001	8.026904e+001	-2.985674e+001	-9.432848e+001	-2.969678e+001	8.591360e+001
	-2.999037e+001	8.649146e+001	-3.015094e+001	-9.432548e+001	-2.960342e+001	9.060732e+001	-2.515118e-002	-1.822728e+000
	-3.031611e+001	-9.445260e+001	-2.979953e+001	8.614567e+001	-3.163891e-002	-1.857149e+000	-3.020500e+001	9.188854e+001
358679	-2.941207e+001	7.636135e+001	-4.410107e-002	-1.877676e+000	-2.993387e+001	8.660352e+001	-3.012872e+001	-9.586095e+001
	-7.361974e-002	-1.993893e+000	-2.981472e+001	8.292505e+001	-2.983124e+001	-9.379863e+001	-2.957366e+001	8.385707e+001
	-2.959536e+001	8.673300e+001	-2.962055e+001	-9.609488e+001	-2.981754e+001	8.761873e+001	-3.969815e-002	-1.898339e+000
	-2.991981e+001	-9.480960e+001	-2.954375e+001	8.304695e+001	-1.671717e-002	-1.978713e+000	-2.966039e+001	8.796836e+001
366013	-2.990159e+001	8.015935e+001	-3.141603e-002	-1.993842e+000	-2.950868e+001	8.470535e+001	-2.978455e+001	-9.271827e+001
	-5.789504e-002	-1.865749e+000	-2.941883e+001	8.378038e+001	-2.971360e+001	-9.427362e+001	-2.952112e+001	8.648820e+001
	-2.932857e+001	8.700338e+001	-2.969481e+001	-9.437327e+001	-2.886854e+001	9.042253e+001	-4.568096e-002	-1.877878e+000
	-2.948116e+001	-9.536489e+001	-2.969021e+001	8.430550e+001	-3.511949e-002	-2.011017e+000	-2.993728e+001	8.823689e+001
373348	-2.927025e+001	7.807718e+001	-6.106715e-002	-1.876517e+000	-2.929134e+001	8.531677e+001	-2.984110e+001	-9.533084e+001
	-6.094358e-002	-1.957602e+000	-2.886205e+001	7.871006e+001	-2.973291e+001	-9.463663e+001	-2.919879e+001	8.571033e+001
	-2.948014e+001	8.480027e+001	-2.954879e+001	-9.484065e+001	-2.855836e+001	8.540580e+001	-3.873697e-002	-1.946553e+000
	-2.991976e+001	-9.557264e+001	-2.942380e+001	8.682753e+001	-3.860583e-002	-1.962283e+000	-2.990279e+001	8.955099e+001
380683	-2.891351e+001	7.760272e+001	-6.928804e-002	-1.872178e+000	-2.917603e+001	8.575019e+001	-2.920174e+001	-9.406116e+001
	-6.549512e-002	-2.000513e+000	-2.956226e+001	7.736178e+001	-2.912576e+001	-9.371570e+001	-2.935452e+001	8.397075e+001
	-2.931299e+001	8.525369e+001	-2.944877e+001	-9.484722e+001	-2.879447e+001	8.891417e+001	-4.696468e-002	-2.028406e+000
	-2.948022e+001	-9.614019e+001	-2.916439e+001	8.477567e+001	-2.348480e-002	-1.935869e+000	-2.902849e+001	8.248396e+001
388018	-2.849359e+001	8.067706e+001	-4.343906e-002	-1.893792e+000	-2.904550e+001	8.572412e+001	-2.928701e+001	-9.163578e+001
	-6.608628e-002	-2.160440e+000	-2.915059e+001	8.174018e+001	-2.926323e+001	-9.494079e+001	-2.894278e+001	8.438425e+001
	-2.908090e+001	8.553882e+001	-2.904016e+001	-9.499815e+001	-2.879122e+001	8.577558e+001	-4.057300e-002	-2.051984e+000
	-2.924537e+001	-9.576977e+001	-2.900326e+001	8.663915e+001	-2.219545e-002	-1.995350e+000	-2.903040e+001	8.811855e+001
395353	-2.918543e+001	7.845585e+001	-6.104350e-002	-2.128684e+000	-2.867005e+001	8.483465e+001	-2.891638e+001	-9.387995e+001
	-4.899384e-002	-2.125539e+000	-2.813334e+001	8.142079e+001	-2.879087e+001	-9.356853e+001	-2.884766e+001	8.423927e+001
	-2.895825e+001	8.501593e+001	-2.897515e+001	-9.410621e+001	-2.816758e+001	8.678474e+001	-2.982505e-002	-2.077472e+000
	-2.875727e+001	-9.512924e+001	-2.890064e+001	8.673613e+001	-2.557332e-002	-2.117965e+000	-2.896479e+001	8.981856e+001
402688	-2.844535e+001	8.171360e+001	-5.739547e-002	-2.097558e+000	-2.864488e+001	8.538628e+001	-2.869678e+001	-9.559098e+001
	-5.093150e-002	-2.121619e+000	-2.852210e+001	7.932952e+001	-2.864991e+001	-9.709501e+001	-2.847777e+001	8.478110e+001
	-2.865296e+001	8.509810e+001	-2.882941e+001	-9.460185e+001	-2.846082e+001	8.503149e+001	-2.968158e-002	-2.098274e+000
	-2.884408e+001	-9.320575e+001	-2.850911e+001	8.543720e+001	-1.666501e-002	-2.220605e+000	-2.863419e+001	8.665534e+001
410022	-2.800671e+001	7.976499e+001	-6.033529e-002	-2.067130e+000	-2.873751e+001	8.563871e+001	-2.865620e+001	-9.583999e+001
	-7.855432e-002	-2.296908e+000	-2.881863e+001	7.778128e+001	-2.890825e+001	-9.440399e+001	-2.852910e+001	8.516506e+001
	-2.852075e+001	8.366505e+001	-2.859555e+001	-9.603955e+001	-2.809637e+001	8.279378e+001	-1.102583e-002	-2.040503e+000
	-2.882559e+001	-9.520969e+001	-2.851295e+001	8.571010e+001	-4.310719e-002	-2.131472e+000	-2.847246e+001	8.658337e+001
418652	-2.810057e+001	7.808300e+001	-6.115268e-002	-2.149545e+000	-2.841032e+001	8.609883e+001	-2.848211e+001	-9.589959e+001
	-6.619762e-002	-2.134647e+000	-2.846909e+001	7.747513e+001	-2.848753e+001	-9.498870e+001	-2.835986e+001	8.519114e+001
	-2.849093e+001	8.579397e+001	-2.867413e+001	-9.526610e+001	-2.794434e+001	8.402611e+001	-2.054775e-002	-2.131834e+000
	-2.865270e+001	-9.521248e+001	-2.847522e+001	8.585658e+001	-2.303566e-002	-2.376455e+000	-2.838243e+001	8.539567e+001
428777	-2.778764e+001	8.109838e+001	-6.610998e-002	-2.314590e+000	-2.783532e+001	8.552615e+001	-2.861432e+001	-9.533046e+001
	-5.530307e-002	-2.223089e+000	-2.878717e+001	8.046309e+001	-2.789315e+001	-9.559658e+001	-2.815894e+001	8.423246e+001
	-2.805122e+001	8.436076e+001	-2.849336e+001	-9.519896e+001	-2.801840e+001	8.520276e+001	-4.374708e-002	-2.288543e+000
	-2.831806e+001	-9.428945e+001	-2.811799e+001	8.560687e+001	-2.000906e-002	-2.152706e+000	-2.822731e+001	8.161352e+001
438901	-2.781933e+001	7.769521e+001	-5.310951e-002	-2.213394e+000	-2.799661e+001	8.481271e+001	-2.813196e+001	-9.529410e+001
	-6.509683e-002	-2.293730e+000	-2.800324e+001	7.541130e+001	-2.810214e+001	-9.473762e+001	-2.786022e+001	8.498856e+001
	-2.795048e+001	8.469875e+001	-2.816543e+001	-9.496206e+001	-2.790783e+001	8.928724e+001	-3.464425e-002	-2.265816e+000
	-2.831358e+001	-9.410151e+001	-2.810207e+001	8.455721e+001	-3.724864e-002	-2.409827e+000	-2.830734e+001	8.608942e+001
449026	-2.769966e+001	7.780637e+001	-7.904007e-002	-2.473149e+000	-2.780044e+001	8.544987e+001	-2.793058e+001	-9.569531e+001
	-6.563227e-002	-2.308558e+000	-2.816872e+001	7.618748e+001	-2.790213e+001	-9.605426e+001	-2.796549e+001	8.548478e+001
	-2.767627e+001	8.598949e+001	-2.814579e+001	-9.500031e+001	-2.732761e+001	8.561035e+001	-3.390605e-002	-2.352339e+000
	-2.799330e+001	-9.717925e+001	-2.796217e+001	8.327556e+001	-5.323593e-002	-2.385927e+000	-2.739276e+001	8.414732e+001
459150	-2.755092e+001	8.198141e+001	-5.552933e-002	-2.470358e+000	-2.743083e+001	8.460040e+001	-2.783256e+001	-9.418188e+001
	-6.085872e-002	-2.473484e+000	-2.728640e+001	8.315761e+001	-2.774988e+001	-9.525244e+001	-2.767823e+001	8.398252e+001
	-2.767315e+001	8.521960e+001	-2.780058e+001	-9.525774e+001	-2.730977e+001	8.463263e+001	-5.311000e-002	-2.398921e+000
	-2.757536e+001	-9.485209e+001	-2.752551e+001	8.577350e+001	-2.825777e-002	-2.331358e+000	-2.823110e+001	8.485781e+001
469275	-2.742643e+001	7.654640e+001	-5.756036e-002	-2.520905e+000	-2.740423e+001	8.671689e+001	-2.767385e+001	-9.562064e+001
	-6.166041e-002	-2.377380e+000	-2.797768e+001	7.879817e+001	-2.739380e+001	-9.538482e+001	-2.717720e+001	8.472520e+001
	-2.748073e+001	8.379963e+001	-2.744767e+001	-9.705008e+001	-2.750575e+001	8.141567e+001	-4.000690e-002	-2.518667e+000
	-2.763097e+001	-9.461774e+001	-2.727447e+001	8.485960e+001	-1.073748e-002	-2.474805e+000	-2.802872e+001	8.284049e+001
479399	-2.735519e+001	7.846345e+001	-6.319843e-002	-2.522925e+000	-2.712827e+001	8.365608e+001	-2.724104e+001	-9.492905e+001
	-7.852276e-002	-2.502672e+000	-2.797861e+001	7.696935e+001	-2.731754e+001	-9.485572e+001	-2.705936e+001	8.429817e+001
	-2.725307e+001	8.398681e+001	-2.741459e+001	-9.510242e+001	-2.694052e+001	8.614501e+001	-3.992142e-002	-2.436217e+000
	-2.733677e+001	-9.602248e+001	-2.718743e+001	8.447344e+001	-3.554770e-002	-2.503144e+000	-2.779194e+001	8.506861e+001
489523	-2.709907e+001	7.821790e+001	-5.596693e-002	-2.497734e+000	-2.693959e+001	8.392648e+001	-2.711124e+001	-9.540892e+001
	-5.139333e-002	-2.486818e+000	-2.756168e+001	8.074112e+001	-2.705944e+001	-9.548295e+001	-2.716982e+001	8.641026e+001
	-2.706001e+001	8.515756e+001	-2.721790e+001	-9.545300e+001	-2.669979e+001	8.242416e+001	-4.722125e-002	-2.559020e+000
	-2.720386e+001	-9.717111e+001	-2.709326e+001	8.599754e+001	-4.909150e-002	-2.579169e+000	-2.738375e+001	8.164950e+001
499648	-2.688030e+001	7.740746e+001	-8.194080e-002	-2.677254e+000	-2.683744e+001	8.381176e+001	-2.695525e+001	-9.680612e+001
	-5.906475e-002	-2.653602e+000	-2.660980e+001	7.565612e+001	-2.700669e+001	-9.620167e+001	-2.691212e+001	8.447966e+001
	-2.705167e+001	8.333852e+001	-2.702835e+001	-9.692239e+001	-2.722518e+001	8.311730e+001	-4.053468e-002	-2.544186e+000
	-2.707640e+001	-9.548999e+001	-2.688884e+001	8.457291e+001	-4.377595e-002	-2.431960e+000	-2.736108e+001	8.310041e+001
509772	-2.686758e+001	7.681099e+001	-8.656607e-002	-2.507939e+000	-2.661715e+001	8.391692e+001	-2.682339e+001	-9.550404e+001
	-7.096986e-002	-2.580538e+000	-2.695074e+001	7.789839e+001	-2.686819e+001	-9.657617e+001	-2.651790e+001	8.416481e+001
	-2.658737e+001	8.464162e+001	-2.679556e+001	-9.549443e+001	-2.673185e+001	7.908672e+001	-5.377389e-002	-2.702629e+000
	-2.694849e+001	-9.567464e+001	-2.667139e+001	8.315613e+001	-5.244330e-002	-2.653329e+000	-2.715553e+001	8.154187e+001
519897	-2.683764e+001	7.546275e+001	-6.083088e-002	-2.633935e+000	-2.644152e+001	8.381471e+001	-2.667968e+001	-9.691135e+001
	-6.293179e-002	-2.660636e+000	-2.682044e+001	7.940705e+001	-2.669402e+001	-9.602981e+001	-2.666299e+001	8.384001e+001
	-2.663393e+001	8.501680e+001	-2.653603e+001	-9.592200e+001	-2.659258e+001	8.257996e+001	-6.093520e-002	-2.749908e+000
	-2.673947e+001	-9.590526e+001	-2.645365e+001	8.296710e+001	-3.605571e-002	-2.771937e+000	-2.676884e+001	8.228702e+001
530021	-2.617980e+001	7.931291e+001	-7.030839e-002	-2.676987e+000	-2.638107e+001	8.502805e+001	-2.647397e+001	-9.776634e+001
	-7.486701e-002	-2.853726e+000	-2.674555e+001	7.880204e+001	-2.657454e+001	-9.634302e+001	-2.620389e+001	8.524532e+001
	-2.636759e+001	8.437644e+001	-2.653502e+001	-9.607609e+001	-2.625602e+001	8.102142e+001	-6.647649e-002	-2.736940e+000
	-2.661661e+001	-9.661600e+001	-2.633751e+001	8.409921e+001	-6.612546e-002	-2.803930e+000	-2.652156e+001	8.343269e+001
540146	-2.619334e+001	7.858453e+001	-7.844427e-002	-2.778686e+000	-2.604621e+001	8.265855e+001	-2.633676e+001	-9.594084e+001
	-6.437218e-002	-2.845507e+000	-2.628116e+001	7.691105e+001	-2.659851e+001	-9.517691e+001	-2.604513e+001	8.341386e+001
	-2.591607e+001	8.431320e+001	-2.649801e+001	-9.604276e+001	-2.616480e+001	8.375607e+001	-4.868670e-002	-2.783760e+000
	-2.663804e+001	-9.574225e+001	-2.617908e+001	8.404670e+001	-3.957259e-002	-2.811612e+000	-2.655716e+001	8.150871e+001
550270	-2.587491e+001	7.603895e+001	-6.223463e-002	-3.007131e+000	-2.596509e+001	8.271137e+001	-2.606036e+001	-9.665852e+001
	-6.833369e-002	-2.837190e+000	-2.613035e+001	7.679945e+001	-2.611238e+001	-9.570753e+001	-2.612671e+001	8.265666e+001
	-2.606638e+001	8.335740e+001	-2.640627e+001	-9.531924e+001	-2.613133e+001	8.115767e+001	-4.548129e-002	-2.848033e+000
	-2.618301e+001	-9.447210e+001	-2.590253e+001	8.246380e+001	-5.206663e-002	-2.915023e+000	-2.616722e+001	8.273201e+001
560395	-2.583053e+001	7.524078e+001	-7.523040e-002	-2.992192e+000	-2.572797e+001	8.360737e+001	-2.622032e+001	-9.790187e+001
	-7.323633e-002	-3.001520e+000	-2.582768e+001	7.813761e+001	-2.600029e+001	-9.688974e+001	-2.598838e+001	8.455254e+001
	-2.604842e+001	8.372232e+001	-2.608066e+001	-9.745101e+001	-2.563552e+001	8.419083e+001	-4.902460e-002	-2.913554e+000
	-2.618751e+001	-9.645685e+001	-2.607637e+001	8.403622e+001	-5.389475e-002	-2.996023e+000	-2.581848e+001	8.289016e+001
572189	-2.597329e+001	7.619191e+001	-5.936723e-002	-2.939096e+000	-2.565667e+001	8.232234e+001	-2.581741e+001	-9.688572e+001
	-7.173032e-002	-2.938744e+000	-2.559815e+001	7.756052e+001	-2.592687e+001	-9.701795e+001	-2.555913e+001	8.253392e+001
	-2.569418e+001	8.388739e+001	-2.602314e+001	-9.718529e+001	-2.580089e+001	8.399312e+001	-6.002981e-002	-2.930552e+000
	-2.602922e+001	-9.672316e+001	-2.580599e+001	8.269676e+001	-3.833288e-002	-2.843953e+000	-2.564104e+001	8.143562e+001
586179	-2.534964e+001	7.608125e+001	-7.305237e-002	-3.059934e+000	-2.547337e+001	8.307592e+001	-2.555497e+001	-9.767337e+001
	-9.713235e-002	-3.000115e+000	-2.546730e+001	7.744680e+001	-2.548395e+001	-9.652134e+001	-2.566374e+001	8.354356e+001
	-2.550205e+001	8.406811e+001	-2.582893e+001	-9.714710e+001	-2.551010e+001	8.477706e+001	-7.492174e-002	-3.135764e+000
	-2.567975e+001	-9.703437e+001	-2.553661e+001	8.246319e+001	-4.891425e-002	-3.062336e+000	-2.563056e+001	8.163170e+001
600169	-2.528055e+001	7.878040e+001	-6.764463e-002	-3.041148e+000	-2.531928e+001	8.440704e+001	-2.540444e+001	-9.676228e+001
	-6.098640e-002	-3.136965e+000	-2.536012e+001	7.952616e+001	-2.550619e+001	-9.646048e+001	-2.547155e+001	8.353742e+001
	-2.526241e+001	8.238007e+001	-2.540850e+001	-9.763248e+001	-2.557101e+001	8.178516e+001	-6.083905e-002	-3.124551e+000
	-2.538226e+001	-9.662925e+001	-2.515769e+001	8.367954e+001	-6.977465e-002	-3.083519e+000	-2.570384e+001	8.203350e+001
614158	-2.527504e+001	7.471655e+001	-8.922527e-002	-3.155668e+000	-2.511656e+001	8.251635e+001	-2.525997e+001	-9.667623e+001
	-8.740939e-002	-3.158266e+000	-2.537453e+001	7.743963e+001	-2.522355e+001	-9.717184e+001	-2.529126e+001	8.338512e+001
	-2.509653e+001	8.299328e+001	-2.531793e+001	-9.649902e+001	-2.502221e+001	8.211926e+001	-5.480431e-002	-3.267506e+000
	-2.534606e+001	-9.717128e+001	-2.507264e+001	8.411419e+001	-3.842108e-002	-3.214040e+000	-2.520569e+001	8.143007e+001
628148	-2.532633e+001	7.769384e+001	-9.883687e-002	-3.290410e+000	-2.495805e+001	8.250335e+001	-2.494383e+001	-9.772171e+001
	-8.416928e-002	-3.248790e+000	-2.516721e+001	7.706976e+001	-2.512092e+001	-9.621535e+001	-2.480255e+001	8.163871e+001
	-2.484270e+001	8.277894e+001	-2.515974e+001	-9.796195e+001	-2.543731e+001	8.207041e+001	-3.638796e-002	-3.264588e+000
	-2.505776e+001	-9.617775e+001	-2.478311e+001	8.253122e+001	-5.917098e-002	-3.291681e+000	-2.500056e+001	8.538104e+001
642138	-2.518483e+001	7.556684e+001	-9.630149e-002	-3.263253e+000	-2.463615e+001	8.246055e+001	-2.484959e+001	-9.688480e+001
