! This data is being provided by Wuerth Elektronik eiSos GmbH & Co. KG to the industry for analysis.
!
! Document information:
! Version:rev19a Date: 16/12/2019
!
! Component information:
! Match Code: WE-CNSW P/N: 744235220 Size: 1812
!------------------------------------------------------------------------------------------------------------------
! Disclaimer:  While Würth Elektronik eiSos has made every reasonable effort to ensure the accuracy
! of the information provided, Würth Elektronik eiSos does not guarantee the exemption of error on the
! data collection measurements, nor does Würth Elektronik eiSos guarantee that the information is current.
! Würth Elektronik eiSos reserves the right to make any adjustments at any time without notice.
! Würth Elektronik eiSos expressly disclaims all implied warranties regarding this measurement data collection.
!
! Note 1 – This data measurement is representative according to the product implementation into the fixture.
! Component behavior is sensitive to implementation into the fixture, which includes board
! materials, trace geometry information, connector pin out, layer connection, use of de-embedding
! techniques, etc.
!
! Note 2 - The fixture was designed specifically to match the 50 Ohm line impedance, as well as the connector impedance,
! in order to accomplish a reliable measurement without reflections in the trace. Any other implementation of the fixture will change the obtained
! measurement performance. The used fixture behavior was de-embedded to accomplish reliable measurement results.
!
!------------------------------------------------------------------------------------------------------------------
!
! The test setup consisted of the following:
!   - Agilent VNA E5071C or E5071B
!   - Calibrations are SOLT (short open load thru)
!   - De-embedding of the SMA's or line cards were included
!   - Equipment Settings -
!            - Sampling - 501 points
!            - IF BW – 70 kHz
!            - Averaging – Not used
!
!
!
!             Port 1----->|1|        |2| -----> Port 3
!                            |   DUT  |
!             Port 2----->|3|        |4| -----> Port 4
!
!
!*VNA Port --> |Port in Datasheet|
! |Port in Datasheet| --> VNA Port
!
!
! For further information regarding this testing, please contact
! Wuerth Elektronik eiSos
! Contact: EDA team in QDC
! Email: libraries@we-online.com or libraries@we-online.de
!
!
# Hz S dB R 50
300000	-9.343922e+000	4.579137e+001	-1.925172e+000	-1.758775e+001	-9.590613e+000	4.727451e+001	-9.705486e+000	-1.326500e+002
	-1.933212e+000	-1.771547e+001	-9.435135e+000	4.600789e+001	-9.674444e+000	-1.327287e+002	-9.697707e+000	4.768427e+001
	-9.654187e+000	4.695080e+001	-9.699329e+000	-1.326354e+002	-9.401647e+000	4.671530e+001	-1.898775e+000	-1.764450e+001
	-9.725962e+000	-1.329006e+002	-9.658652e+000	4.778822e+001	-1.891582e+000	-1.771068e+001	-9.467923e+000	4.617354e+001
307335	-9.311859e+000	4.521303e+001	-1.979166e+000	-1.775984e+001	-9.481751e+000	4.652509e+001	-9.598565e+000	-1.331621e+002
	-1.980549e+000	-1.772217e+001	-9.355880e+000	4.515605e+001	-9.555131e+000	-1.338202e+002	-9.551084e+000	4.690029e+001
	-9.581315e+000	4.689956e+001	-9.601808e+000	-1.334204e+002	-9.290238e+000	4.587494e+001	-1.980025e+000	-1.776812e+001
	-9.627397e+000	-1.331599e+002	-9.606525e+000	4.723312e+001	-1.975702e+000	-1.783939e+001	-9.353376e+000	4.545893e+001
314670	-9.157468e+000	4.446405e+001	-2.035374e+000	-1.784508e+001	-9.420623e+000	4.603803e+001	-9.437683e+000	-1.336750e+002
	-2.050807e+000	-1.798795e+001	-9.257866e+000	4.446399e+001	-9.456797e+000	-1.341075e+002	-9.456469e+000	4.636679e+001
	-9.397281e+000	4.633757e+001	-9.482985e+000	-1.338391e+002	-9.236339e+000	4.491784e+001	-2.030698e+000	-1.787421e+001
	-9.463880e+000	-1.338179e+002	-9.474603e+000	4.637524e+001	-2.030850e+000	-1.791254e+001	-9.247069e+000	4.479650e+001
322004	-9.162760e+000	4.400021e+001	-2.115604e+000	-1.810409e+001	-9.281324e+000	4.531902e+001	-9.307727e+000	-1.347496e+002
	-2.115701e+000	-1.813981e+001	-9.110821e+000	4.386707e+001	-9.345247e+000	-1.346867e+002	-9.244097e+000	4.561624e+001
	-9.354759e+000	4.591077e+001	-9.381222e+000	-1.346445e+002	-9.105256e+000	4.427927e+001	-2.091892e+000	-1.825232e+001
	-9.425053e+000	-1.343608e+002	-9.354966e+000	4.590273e+001	-2.101721e+000	-1.812049e+001	-9.103244e+000	4.410745e+001
329339	-9.039849e+000	4.313656e+001	-2.129730e+000	-1.815234e+001	-9.207464e+000	4.521264e+001	-9.227272e+000	-1.351293e+002
	-2.166259e+000	-1.826489e+001	-9.051630e+000	4.315536e+001	-9.238404e+000	-1.349464e+002	-9.165165e+000	4.523442e+001
	-9.266008e+000	4.493467e+001	-9.256540e+000	-1.349516e+002	-9.048407e+000	4.377183e+001	-2.130164e+000	-1.821910e+001
	-9.290298e+000	-1.353828e+002	-9.241784e+000	4.533877e+001	-2.146556e+000	-1.824983e+001	-9.059248e+000	4.393680e+001
336674	-8.891732e+000	4.279758e+001	-2.209898e+000	-1.836666e+001	-9.063881e+000	4.460129e+001	-9.104880e+000	-1.359089e+002
	-2.197363e+000	-1.820059e+001	-8.902384e+000	4.297649e+001	-9.150442e+000	-1.359000e+002	-9.103507e+000	4.449669e+001
	-9.172647e+000	4.402409e+001	-9.184920e+000	-1.355674e+002	-8.914949e+000	4.316373e+001	-2.209792e+000	-1.840667e+001
	-9.171211e+000	-1.361310e+002	-9.168677e+000	4.457047e+001	-2.177420e+000	-1.840790e+001	-8.943981e+000	4.305780e+001
344009	-8.771658e+000	4.203295e+001	-2.253732e+000	-1.837142e+001	-9.063277e+000	4.349115e+001	-9.043852e+000	-1.365007e+002
	-2.276485e+000	-1.859181e+001	-8.805414e+000	4.204971e+001	-9.070945e+000	-1.365888e+002	-9.043779e+000	4.411051e+001
	-9.083819e+000	4.338955e+001	-9.078901e+000	-1.367978e+002	-8.805045e+000	4.269479e+001	-2.260909e+000	-1.850098e+001
	-9.161845e+000	-1.367643e+002	-9.026523e+000	4.376530e+001	-2.278194e+000	-1.850587e+001	-8.828817e+000	4.246235e+001
351344	-8.751606e+000	4.165522e+001	-2.302801e+000	-1.867310e+001	-8.880155e+000	4.299952e+001	-8.944134e+000	-1.373026e+002
	-2.305697e+000	-1.874301e+001	-8.722065e+000	4.165806e+001	-8.967857e+000	-1.374054e+002	-8.908104e+000	4.325744e+001
	-8.955213e+000	4.301625e+001	-9.004231e+000	-1.372263e+002	-8.709397e+000	4.203234e+001	-2.309349e+000	-1.867914e+001
	-8.999179e+000	-1.369506e+002	-8.971402e+000	4.305163e+001	-2.322781e+000	-1.860375e+001	-8.733988e+000	4.192620e+001
358679	-8.653918e+000	4.093803e+001	-2.365025e+000	-1.872303e+001	-8.857577e+000	4.262538e+001	-8.851829e+000	-1.378871e+002
	-2.383261e+000	-1.859394e+001	-8.660476e+000	4.118559e+001	-8.886731e+000	-1.376183e+002	-8.854397e+000	4.254573e+001
	-8.926229e+000	4.260358e+001	-8.816756e+000	-1.377334e+002	-8.657553e+000	4.152074e+001	-2.359310e+000	-1.871176e+001
	-8.946222e+000	-1.377362e+002	-8.792956e+000	4.242545e+001	-2.335428e+000	-1.879840e+001	-8.708993e+000	4.162731e+001
366013	-8.575647e+000	4.081950e+001	-2.403783e+000	-1.886909e+001	-8.736940e+000	4.191172e+001	-8.776662e+000	-1.383098e+002
	-2.415733e+000	-1.891966e+001	-8.561991e+000	4.086491e+001	-8.804158e+000	-1.383987e+002	-8.797616e+000	4.231647e+001
	-8.805148e+000	4.256555e+001	-8.816565e+000	-1.381719e+002	-8.563751e+000	4.104295e+001	-2.421259e+000	-1.880130e+001
	-8.798311e+000	-1.380113e+002	-8.769419e+000	4.188817e+001	-2.423116e+000	-1.878616e+001	-8.611938e+000	4.084842e+001
373348	-8.494517e+000	3.998742e+001	-2.452852e+000	-1.882474e+001	-8.719434e+000	4.127776e+001	-8.698397e+000	-1.385581e+002
	-2.458817e+000	-1.901602e+001	-8.499047e+000	3.981996e+001	-8.731902e+000	-1.388109e+002	-8.687960e+000	4.185132e+001
	-8.800336e+000	4.174514e+001	-8.762137e+000	-1.387545e+002	-8.461262e+000	4.038715e+001	-2.468764e+000	-1.905727e+001
	-8.790272e+000	-1.385233e+002	-8.741349e+000	4.117874e+001	-2.477194e+000	-1.880890e+001	-8.527350e+000	4.050070e+001
380683	-8.400487e+000	3.927896e+001	-2.522069e+000	-1.897951e+001	-8.625544e+000	4.076706e+001	-8.670899e+000	-1.393991e+002
	-2.529011e+000	-1.898691e+001	-8.413155e+000	3.961092e+001	-8.624742e+000	-1.393798e+002	-8.644513e+000	4.110342e+001
	-8.671512e+000	4.081260e+001	-8.648140e+000	-1.388549e+002	-8.419792e+000	3.995351e+001	-2.530782e+000	-1.884237e+001
	-8.708411e+000	-1.394851e+002	-8.614029e+000	4.146865e+001	-2.499455e+000	-1.901317e+001	-8.462672e+000	3.962373e+001
388018	-8.347654e+000	3.889715e+001	-2.579023e+000	-1.906614e+001	-8.521360e+000	4.029822e+001	-8.591968e+000	-1.395382e+002
	-2.580740e+000	-1.911130e+001	-8.312556e+000	3.904711e+001	-8.575956e+000	-1.401011e+002	-8.548766e+000	4.065975e+001
	-8.569635e+000	4.045865e+001	-8.612568e+000	-1.397834e+002	-8.353405e+000	3.921181e+001	-2.585088e+000	-1.910674e+001
	-8.625405e+000	-1.400369e+002	-8.532434e+000	4.081374e+001	-2.560320e+000	-1.895353e+001	-8.387035e+000	3.920429e+001
395353	-8.292903e+000	3.835045e+001	-2.642518e+000	-1.919782e+001	-8.497649e+000	3.981057e+001	-8.497331e+000	-1.405034e+002
	-2.642452e+000	-1.909651e+001	-8.247727e+000	3.842228e+001	-8.547344e+000	-1.406583e+002	-8.460275e+000	3.963630e+001
	-8.490093e+000	4.029571e+001	-8.500004e+000	-1.403390e+002	-8.262730e+000	3.870769e+001	-2.624590e+000	-1.909833e+001
	-8.549748e+000	-1.401326e+002	-8.488833e+000	3.994640e+001	-2.615508e+000	-1.916492e+001	-8.320597e+000	3.889179e+001
402688	-8.215815e+000	3.809240e+001	-2.652077e+000	-1.914661e+001	-8.377915e+000	3.935083e+001	-8.436236e+000	-1.411382e+002
	-2.676944e+000	-1.911282e+001	-8.213503e+000	3.800045e+001	-8.427708e+000	-1.408558e+002	-8.416437e+000	3.925573e+001
	-8.441075e+000	3.950054e+001	-8.480088e+000	-1.407560e+002	-8.221081e+000	3.830715e+001	-2.668342e+000	-1.920236e+001
	-8.490445e+000	-1.409638e+002	-8.435856e+000	3.950778e+001	-2.659535e+000	-1.926525e+001	-8.233136e+000	3.823803e+001
410022	-8.141139e+000	3.738877e+001	-2.719566e+000	-1.921932e+001	-8.370205e+000	3.894213e+001	-8.423149e+000	-1.414714e+002
	-2.754212e+000	-1.927363e+001	-8.154196e+000	3.740295e+001	-8.442960e+000	-1.413978e+002	-8.350188e+000	3.898634e+001
	-8.387258e+000	3.875669e+001	-8.392258e+000	-1.412341e+002	-8.152286e+000	3.773900e+001	-2.719446e+000	-1.923200e+001
	-8.415416e+000	-1.413918e+002	-8.364899e+000	3.924397e+001	-2.712647e+000	-1.920781e+001	-8.167578e+000	3.770775e+001
418652	-8.090849e+000	3.684496e+001	-2.782944e+000	-1.927316e+001	-8.282243e+000	3.841975e+001	-8.307743e+000	-1.421918e+002
	-2.784355e+000	-1.924401e+001	-8.088968e+000	3.677015e+001	-8.341557e+000	-1.421087e+002	-8.243137e+000	3.849574e+001
	-8.289167e+000	3.844197e+001	-8.379382e+000	-1.417011e+002	-8.045573e+000	3.716385e+001	-2.775760e+000	-1.919891e+001
	-8.337391e+000	-1.421155e+002	-8.291875e+000	3.888263e+001	-2.779779e+000	-1.931666e+001	-8.119345e+000	3.707336e+001
428777	-7.961682e+000	3.644314e+001	-2.853196e+000	-1.935977e+001	-8.211514e+000	3.768609e+001	-8.280024e+000	-1.427979e+002
	-2.859108e+000	-1.941018e+001	-8.022162e+000	3.646359e+001	-8.221373e+000	-1.425594e+002	-8.262747e+000	3.769391e+001
	-8.242031e+000	3.782971e+001	-8.249547e+000	-1.423347e+002	-7.980464e+000	3.645528e+001	-2.845723e+000	-1.939829e+001
	-8.276817e+000	-1.426326e+002	-8.186783e+000	3.788570e+001	-2.825693e+000	-1.932271e+001	-8.023740e+000	3.628282e+001
438901	-7.909530e+000	3.557738e+001	-2.869888e+000	-1.927396e+001	-8.083876e+000	3.700707e+001	-8.192374e+000	-1.432942e+002
	-2.912629e+000	-1.950041e+001	-7.912547e+000	3.572759e+001	-8.199106e+000	-1.434337e+002	-8.139191e+000	3.714194e+001
	-8.176604e+000	3.734327e+001	-8.233916e+000	-1.430054e+002	-7.946715e+000	3.600548e+001	-2.903284e+000	-1.923932e+001
	-8.209268e+000	-1.429865e+002	-8.156743e+000	3.752111e+001	-2.925452e+000	-1.934244e+001	-7.987845e+000	3.592088e+001
449026	-7.844423e+000	3.513189e+001	-2.999532e+000	-1.943553e+001	-8.105969e+000	3.630528e+001	-8.074533e+000	-1.439968e+002
	-2.963376e+000	-1.941887e+001	-7.873719e+000	3.503718e+001	-8.144862e+000	-1.438522e+002	-8.090266e+000	3.637399e+001
	-8.101960e+000	3.670070e+001	-8.114841e+000	-1.437388e+002	-7.861934e+000	3.557935e+001	-2.975924e+000	-1.934555e+001
	-8.151701e+000	-1.436115e+002	-8.115130e+000	3.672899e+001	-2.963990e+000	-1.938543e+001	-7.869773e+000	3.517098e+001
459150	-7.777416e+000	3.462037e+001	-3.061076e+000	-1.947338e+001	-8.002385e+000	3.578140e+001	-8.045061e+000	-1.443641e+002
	-3.048801e+000	-1.950218e+001	-7.782622e+000	3.459600e+001	-8.064445e+000	-1.444778e+002	-7.949270e+000	3.592156e+001
	-8.002024e+000	3.612044e+001	-8.041718e+000	-1.443954e+002	-7.787235e+000	3.474263e+001	-3.029118e+000	-1.953968e+001
	-8.071003e+000	-1.442707e+002	-8.003820e+000	3.592085e+001	-3.023421e+000	-1.938864e+001	-7.820140e+000	3.469820e+001
469275	-7.711934e+000	3.383090e+001	-3.102501e+000	-1.960707e+001	-7.921694e+000	3.523628e+001	-7.961635e+000	-1.450612e+002
	-3.098551e+000	-1.953509e+001	-7.745539e+000	3.389244e+001	-7.938594e+000	-1.452853e+002	-7.936888e+000	3.561060e+001
	-7.981873e+000	3.550138e+001	-7.958414e+000	-1.449445e+002	-7.725685e+000	3.401495e+001	-3.099211e+000	-1.959828e+001
	-7.981347e+000	-1.449394e+002	-7.933920e+000	3.564202e+001	-3.077294e+000	-1.934463e+001	-7.770553e+000	3.409063e+001
479399	-7.655306e+000	3.338017e+001	-3.178856e+000	-1.948797e+001	-7.872943e+000	3.448067e+001	-7.907584e+000	-1.454225e+002
	-3.164535e+000	-1.941242e+001	-7.689768e+000	3.336320e+001	-7.923488e+000	-1.457621e+002	-7.837389e+000	3.495089e+001
	-7.895039e+000	3.490306e+001	-7.911913e+000	-1.455934e+002	-7.659237e+000	3.371759e+001	-3.139924e+000	-1.944486e+001
	-7.910393e+000	-1.453567e+002	-7.859429e+000	3.498567e+001	-3.158005e+000	-1.932325e+001	-7.697707e+000	3.343289e+001
489523	-7.603998e+000	3.266487e+001	-3.221934e+000	-1.939099e+001	-7.792350e+000	3.420356e+001	-7.852509e+000	-1.461319e+002
	-3.224039e+000	-1.947016e+001	-7.600965e+000	3.302576e+001	-7.861891e+000	-1.463682e+002	-7.826112e+000	3.437276e+001
	-7.834574e+000	3.445245e+001	-7.850397e+000	-1.459259e+002	-7.612624e+000	3.299016e+001	-3.212265e+000	-1.947120e+001
	-7.843427e+000	-1.459972e+002	-7.781707e+000	3.438034e+001	-3.212317e+000	-1.937973e+001	-7.653985e+000	3.300856e+001
499648	-7.539500e+000	3.227705e+001	-3.269390e+000	-1.939090e+001	-7.767237e+000	3.365598e+001	-7.790390e+000	-1.466572e+002
	-3.288840e+000	-1.950391e+001	-7.545737e+000	3.228556e+001	-7.802290e+000	-1.465941e+002	-7.787536e+000	3.379529e+001
	-7.729723e+000	3.375843e+001	-7.874397e+000	-1.467520e+002	-7.564831e+000	3.241233e+001	-3.278228e+000	-1.937001e+001
	-7.818911e+000	-1.467313e+002	-7.815017e+000	3.385813e+001	-3.256791e+000	-1.931374e+001	-7.584737e+000	3.243638e+001
509772	-7.501320e+000	3.163439e+001	-3.362908e+000	-1.938465e+001	-7.741409e+000	3.332601e+001	-7.722861e+000	-1.473256e+002
	-3.356923e+000	-1.940049e+001	-7.478080e+000	3.179631e+001	-7.795691e+000	-1.470347e+002	-7.716749e+000	3.334503e+001
	-7.700869e+000	3.341714e+001	-7.770887e+000	-1.470616e+002	-7.496902e+000	3.187486e+001	-3.331448e+000	-1.936728e+001
	-7.757018e+000	-1.468852e+002	-7.700428e+000	3.346715e+001	-3.323604e+000	-1.940744e+001	-7.547216e+000	3.190558e+001
519897	-7.439436e+000	3.137806e+001	-3.397145e+000	-1.944274e+001	-7.670018e+000	3.280085e+001	-7.702723e+000	-1.476447e+002
	-3.383865e+000	-1.942800e+001	-7.434398e+000	3.136959e+001	-7.685315e+000	-1.477095e+002	-7.677270e+000	3.276597e+001
	-7.695480e+000	3.306750e+001	-7.711960e+000	-1.474652e+002	-7.458355e+000	3.157559e+001	-3.388465e+000	-1.941002e+001
	-7.723265e+000	-1.474459e+002	-7.639387e+000	3.292189e+001	-3.355268e+000	-1.948154e+001	-7.470708e+000	3.147861e+001
530021	-7.367747e+000	3.084975e+001	-3.460325e+000	-1.925548e+001	-7.650672e+000	3.225653e+001	-7.647540e+000	-1.482850e+002
	-3.469288e+000	-1.946330e+001	-7.408040e+000	3.091938e+001	-7.670324e+000	-1.482244e+002	-7.643979e+000	3.227049e+001
	-7.589026e+000	3.209016e+001	-7.647486e+000	-1.481241e+002	-7.394624e+000	3.103225e+001	-3.448069e+000	-1.926773e+001
	-7.668002e+000	-1.482304e+002	-7.635829e+000	3.247326e+001	-3.455361e+000	-1.944178e+001	-7.428483e+000	3.110142e+001
540146	-7.335641e+000	3.040077e+001	-3.502719e+000	-1.943623e+001	-7.547891e+000	3.155626e+001	-7.598712e+000	-1.487503e+002
	-3.521658e+000	-1.923040e+001	-7.355890e+000	3.039630e+001	-7.624897e+000	-1.485559e+002	-7.547994e+000	3.209668e+001
	-7.569714e+000	3.201308e+001	-7.643169e+000	-1.484785e+002	-7.369546e+000	3.061984e+001	-3.487136e+000	-1.939135e+001
	-7.602031e+000	-1.484690e+002	-7.559287e+000	3.201005e+001	-3.488668e+000	-1.931564e+001	-7.365856e+000	3.047254e+001
550270	-7.280745e+000	2.971844e+001	-3.557940e+000	-1.930668e+001	-7.532342e+000	3.138193e+001	-7.556276e+000	-1.491686e+002
	-3.556008e+000	-1.930139e+001	-7.308494e+000	2.987923e+001	-7.526892e+000	-1.490364e+002	-7.493312e+000	3.118579e+001
	-7.558900e+000	3.130225e+001	-7.595114e+000	-1.491486e+002	-7.320760e+000	3.003312e+001	-3.555247e+000	-1.935428e+001
	-7.612544e+000	-1.490144e+002	-7.521019e+000	3.142715e+001	-3.550684e+000	-1.935397e+001	-7.333745e+000	2.996060e+001
560395	-7.253584e+000	2.944976e+001	-3.624677e+000	-1.928696e+001	-7.472810e+000	3.071195e+001	-7.485397e+000	-1.495631e+002
	-3.613366e+000	-1.944548e+001	-7.271720e+000	2.962806e+001	-7.498366e+000	-1.500188e+002	-7.489661e+000	3.063149e+001
	-7.520837e+000	3.098124e+001	-7.508991e+000	-1.496586e+002	-7.266902e+000	2.976550e+001	-3.602697e+000	-1.921278e+001
	-7.529200e+000	-1.495200e+002	-7.483086e+000	3.085896e+001	-3.605799e+000	-1.917094e+001	-7.284385e+000	2.966296e+001
572189	-7.209819e+000	2.883299e+001	-3.659386e+000	-1.909200e+001	-7.396652e+000	3.029257e+001	-7.520825e+000	-1.501131e+002
	-3.642525e+000	-1.921182e+001	-7.186653e+000	2.899118e+001	-7.482207e+000	-1.501482e+002	-7.403800e+000	3.028271e+001
	-7.417019e+000	3.047223e+001	-7.492666e+000	-1.501420e+002	-7.239158e+000	2.921722e+001	-3.675307e+000	-1.915452e+001
	-7.499026e+000	-1.499796e+002	-7.435319e+000	3.031136e+001	-3.662875e+000	-1.911284e+001	-7.222030e+000	2.901517e+001
586179	-7.152992e+000	2.833070e+001	-3.720449e+000	-1.905515e+001	-7.371246e+000	2.945310e+001	-7.442897e+000	-1.507816e+002
	-3.730263e+000	-1.915760e+001	-7.166288e+000	2.837440e+001	-7.418010e+000	-1.507301e+002	-7.382227e+000	2.973375e+001
	-7.429876e+000	2.992936e+001	-7.450918e+000	-1.509695e+002	-7.173822e+000	2.851070e+001	-3.727985e+000	-1.921205e+001
	-7.466827e+000	-1.505739e+002	-7.386218e+000	2.966658e+001	-3.749726e+000	-1.909730e+001	-7.181660e+000	2.861579e+001
600169	-7.098029e+000	2.790860e+001	-3.782926e+000	-1.890015e+001	-7.345774e+000	2.918465e+001	-7.386698e+000	-1.513263e+002
	-3.789469e+000	-1.907621e+001	-7.119708e+000	2.793604e+001	-7.388753e+000	-1.511210e+002	-7.344504e+000	2.919665e+001
	-7.325926e+000	2.930174e+001	-7.360157e+000	-1.512903e+002	-7.128160e+000	2.796475e+001	-3.787388e+000	-1.909275e+001
	-7.376750e+000	-1.511993e+002	-7.346181e+000	2.920015e+001	-3.804955e+000	-1.896712e+001	-7.142348e+000	2.793293e+001
614158	-7.056730e+000	2.714462e+001	-3.864295e+000	-1.906353e+001	-7.281423e+000	2.829622e+001	-7.309396e+000	-1.518470e+002
	-3.865070e+000	-1.890667e+001	-7.065342e+000	2.730391e+001	-7.315634e+000	-1.517866e+002	-7.279220e+000	2.878108e+001
	-7.310608e+000	2.890065e+001	-7.352716e+000	-1.513758e+002	-7.081898e+000	2.748652e+001	-3.843588e+000	-1.901618e+001
	-7.356796e+000	-1.517677e+002	-7.278074e+000	2.891074e+001	-3.817590e+000	-1.889655e+001	-7.073093e+000	2.736978e+001
628148	-7.022788e+000	2.688650e+001	-3.931336e+000	-1.889007e+001	-7.225257e+000	2.827199e+001	-7.269054e+000	-1.527045e+002
	-3.927778e+000	-1.877442e+001	-7.026462e+000	2.677510e+001	-7.320736e+000	-1.523079e+002	-7.195921e+000	2.791965e+001
	-7.227611e+000	2.835045e+001	-7.312805e+000	-1.523544e+002	-7.063252e+000	2.687328e+001	-3.890615e+000	-1.880744e+001
	-7.275551e+000	-1.521882e+002	-7.220622e+000	2.835321e+001	-3.913073e+000	-1.888763e+001	-7.069284e+000	2.704981e+001
642138	-6.972796e+000	2.614787e+001	-3.978751e+000	-1.874808e+001	-7.220892e+000	2.752511e+001	-7.255198e+000	-1.529035e+002
